!Keysight Technologies,M9804A,MY58100912,A.14.10.03
!Date: Thursday, April 27, 2023 10:28:33
!Correction: S11(C  6-Port  ) 
!S12(C  6-Port  ) 
!S13(C  6-Port  ) 
!S14(C  6-Port  ) 
!S15(C  6-Port  ) 
!S16(C  6-Port  ) 
!S21(C  6-Port  ) 
!S22(C  6-Port  ) 
!S23(C  6-Port  ) 
!S24(C  6-Port  ) 
!S25(C  6-Port  ) 
!S26(C  6-Port  ) 
!S31(C  6-Port  ) 
!S32(C  6-Port  ) 
!S33(C  6-Port  ) 
!S34(C  6-Port  ) 
!S35(C  6-Port  ) 
!S36(C  6-Port  ) 
!S41(C  6-Port  ) 
!S42(C  6-Port  ) 
!S43(C  6-Port  ) 
!S44(C  6-Port  ) 
!S45(C  6-Port  ) 
!S46(C  6-Port  ) 
!S51(C  6-Port  ) 
!S52(C  6-Port  ) 
!S53(C  6-Port  ) 
!S54(C  6-Port  ) 
!S55(C  6-Port  ) 
!S56(C  6-Port  ) 
!S61(C  6-Port  ) 
!S62(C  6-Port  ) 
!S63(C  6-Port  ) 
!S64(C  6-Port  ) 
!S65(C  6-Port  ) 
!S66(C  6-Port  ) 
!S6P File: Measurement: :
# Hz S  RI   R 50
500000000 -0.33952 -0.017146 -0.010897 -0.0031593 -0.0071491 0.012705 -0.0032239 0.012106
0.011278 0.00376 -0.0028913 0.0084488
-0.010874 -0.0031516 -0.41955 -0.035435 0.0064111 -0.01169 0.0020587 0.012565
0.0063961 0.0023215 0.0022899 0.013778
-0.0071395 0.012699 0.0063973 -0.011697 -0.26271 0.22317 0.0073725 0.0037075
-0.00084046 0.0085595 0.0024846 0.012207
-0.003227 0.012104 0.0020653 0.012586 0.0073773 0.0037073 -0.33037 0.063417
-0.01922 -0.0066598 0.015262 0.02369
0.011273 0.003735 0.0064002 0.0023081 -0.00083264 0.0085533 -0.019224 -0.0066526
-0.23723 -0.16284 -0.025072 0.0038419
-0.0028765 0.0084452 0.0023038 0.013786 0.0024871 0.012212 0.015253 0.023678
-0.02507 0.0038297 -0.28512 -0.079001
560000000 -0.31166 0.13795 -0.02708 -0.060333 0.0010252 0.011336 0.0052766 0.0095392
0.0089927 0.0040763 0.01057 0.0063379
-0.027032 -0.060256 -0.37532 0.11878 -0.042116 -0.034252 0.013755 0.0033825
-0.01241 -0.0037216 0.003003 -0.00061772
0.0010495 0.011325 -0.042179 -0.034232 -0.18049 0.26771 -0.00041782 -0.0045906
0.018445 0.0036308 0.0067182 -0.0065397
0.0052834 0.0095335 0.013756 0.0033707 -0.00042058 -0.0045891 -0.30391 0.14892
0.00042012 -0.024391 0.0031558 -0.018127
0.0089865 0.0040659 -0.012434 -0.0037052 0.018431 0.0036118 0.0004178 -0.024401
-0.28742 0.010298 0.0029265 -0.046856
0.010589 0.0063105 0.002999 -0.00060591 0.0067265 -0.0065475 0.0031414 -0.018125
0.0029435 -0.046876 -0.33057 0.05982
620000000 -0.26971 0.12395 -0.023442 0.0071574 0.0037342 0.0078053 0.0079619 -0.0057113
0.010406 -0.0010619 0.00098271 -0.0022551
-0.023435 0.0071429 -0.40127 0.074485 -0.019473 0.00042715 -0.00091804 -0.0022332
0.0099779 -0.0064201 0.0014572 -0.0031292
0.0037429 0.0078064 -0.019474 0.00043954 -0.14895 0.27757 -0.0012589 -0.0046573
-0.0032633 -0.0030361 0.0083358 -0.0039269
0.0079612 -0.0057119 -0.00092052 -0.0022316 -0.001251 -0.0046558 -0.26247 0.1607
-0.039069 -0.017332 0.012149 0.023036
0.010396 -0.0010743 0.0099677 -0.0064338 -0.0032506 -0.003016 -0.039084 -0.017315
-0.21096 -0.027417 -0.038747 0.014469
0.00098244 -0.0022376 0.0014385 -0.0031358 0.0083619 -0.0039329 0.012161 0.023043
-0.03878 0.014446 -0.25619 0.031963
680000000 -0.22696 0.20526 -0.027858 -0.011795 0.0054601 0.0044555 0.0012693 -0.0071106
-0.0028218 -0.011062 0.0036558 -0.0069395
-0.027828 -0.011798 -0.38418 0.16845 -0.032186 0.00050086 -0.001513 -0.00051575
-0.0024141 -0.0087245 -0.0015404 -0.0021894
0.0054576 0.0044431 -0.032187 0.00054725 -0.09803 0.295 -0.00094202 -0.00039955
-0.0017645 0.00012686 -0.0036282 -0.008413
0.001268 -0.0071054 -0.001507 -0.00052189 -0.00094116 -0.00040314 -0.21649 0.20771
-0.025742 -0.0052965 -0.0089398 -0.0082668
-0.0028428 -0.011057 -0.0024284 -0.0087159 -0.0017572 0.00012739 -0.025761 -0.0052773
-0.24972 0.068749 -0.0073244 -0.0065861
0.0036586 -0.0069317 -0.0015426 -0.0021864 -0.003637 -0.0084249 -0.0089429 -0.008268
-0.0073239 -0.0065967 -0.25315 0.12719
740000000 -0.18361 0.20012 -0.036547 0.026277 0.011831 -0.005944 -0.00078474 -0.0040482
-0.0050791 -0.0025609 -0.005808 0.0033465
-0.036518 0.026241 -0.33242 0.18826 -0.032511 0.035143 -0.0010406 -0.0061595
-0.011266 0.0083047 -0.0017342 -0.0047878
0.011801 -0.0059625 -0.032452 0.03522 -0.064271 0.29451 -0.0017835 0.0029535
-0.0033967 -0.0042404 -0.0018408 0.00114
-0.00079272 -0.0040377 -0.0010586 -0.0061664 -0.0017907 0.0029503 -0.19847 0.21666
-0.042055 -0.0033387 0.021899 0.012102
-0.0051152 -0.0025494 -0.011242 0.0083295 -0.0033987 -0.0042403 -0.042087 -0.0032729
-0.15704 0.09065 -0.038046 0.0028492
-0.0058041 0.003355 -0.001744 -0.0048032 -0.0018396 0.0011436 0.021922 0.012093
-0.038043 0.0028298 -0.24141 0.13721
800000000 -0.14998 0.23706 -0.021435 0.017532 0.004366 -0.010366 -0.0043282 -0.0016348
-0.0037518 0.0031013 0.0037075 0.00089211
-0.021431 0.017516 -0.33233 0.25611 -0.0065042 0.033486 -0.0022985 0.00234
-0.00066977 0.0034385 0.0010998 0.0053984
0.0043471 -0.010372 -0.0064462 0.033498 -0.021384 0.31603 0.00085792 0.0015949
0.00039248 0.0036787 -0.0017698 0.0013194
-0.0043293 -0.001624 -0.0022914 0.0023463 0.00084961 0.0015955 -0.16831 0.24272
-0.026681 0.01631 0.012367 -0.0099908
-0.0037533 0.0031146 -0.00065858 0.0034421 0.00039141 0.0036928 -0.026675 0.016354
-0.19381 0.11698 -0.015516 0.018733
0.0037175 0.00089986 0.0011205 0.0054106 -0.0017821 0.0013016 0.012367 -0.010012
-0.015529 0.018727 -0.22808 0.18204
860000000 -0.11475 0.25681 -0.015518 0.030863 -0.0038748 -0.0093575 -0.0020658 0.0012426
0.0048725 0.004784 -0.0025818 -0.0023824
-0.015515 0.030834 -0.28471 0.29677 0.0093999 0.032828 0.00032297 0.002115
0.005143 0.0001481 0.003248 0.00064866
-0.0038793 -0.0093472 0.0094582 0.03281 0.026992 0.32271 -0.00029505 -6.0546e-05
0.0027181 -0.0013061 0.001734 0.0040933
-0.0020623 0.0012444 0.00033314 0.0021149 -0.00029686 -6.3276e-05 -0.13173 0.25325
-0.014857 0.020757 -0.0055532 -0.008949
0.0048773 0.004768 0.0051392 0.00014237 0.0027107 -0.001312 -0.014837 0.020798
-0.14102 0.16136 -0.021409 0.016521
-0.0025973 -0.0023736 0.0032568 0.00063603 0.0017289 0.0040965 -0.0055653 -0.0089493
-0.021424 0.016499 -0.17861 0.22139
920000000 -0.088103 0.27817 0.006479 0.036495 -0.0092144 -0.0038345 -0.0013741 0.0017456
0.0016828 0.0012745 0.0027266 -0.0018745
0.0064616 0.036458 -0.2543 0.31719 0.02824 0.01986 0.0018712 0.000844
0.0070267 -0.00094156 0.0033633 -0.0030312
-0.0092086 -0.0038194 0.028276 0.01981 0.074413 0.32255 0.0019919 -0.00015008
0.0015512 -0.00077375 0.00069182 -0.0012606
-0.0013795 0.0017419 0.0018824 0.00084417 0.0019944 -0.00013986 -0.10541 0.26893
-0.0070219 0.030255 0.0020117 -0.0063105
0.0016826 0.0012744 0.007022 -0.00095264 0.0015445 -0.00077976 -0.0069698 0.030281
-0.12782 0.16712 -0.00060691 0.025114
0.0027127 -0.0018691 0.0033592 -0.0030448 0.00068896 -0.0012665 0.0020018 -0.0063212
-0.00063664 0.025103 -0.17777 0.23688
980000000 -0.041006 0.2959 0.018628 0.02823 -0.0083251 0.0047363 0.0019507 0.0029919
0.0036446 -0.0019738 -0.0032792 -0.0018314
0.018602 0.028232 -0.20236 0.34943 0.032295 0.0030028 0.0019731 -0.00031132
0.0013668 -0.006176 -0.00071348 -0.0023304
-0.0083035 0.0047485 0.032295 0.0029294 0.12103 0.31445 0.00043561 -0.0013221
4.5764e-05 -0.0022107 0.0013443 -0.00018104
0.0019509 0.0029825 0.0019684 -0.0002926 0.00044422 -0.0013278 -0.066677 0.27838
0.010583 0.028132 -0.0083063 -0.0057054
0.0036392 -0.0019893 0.0013215 -0.0061686 3.834e-05 -0.0022176 0.010642 0.028132
-0.096119 0.19157 0.0065005 0.018315
-0.0032951 -0.0018362 -0.00070518 -0.0023064 0.0013435 -0.00016822 -0.0083037 -0.0056973
0.0064725 0.018307 -0.13326 0.27416
1040000000 0.0021801 0.30299 0.032846 0.015571 -0.0010639 0.0065479 0.0024352 0.00056546
-9.8238e-05 -0.0031316 -0.00075752 -0.0012928
0.032833 0.015585 -0.16635 0.3624 0.02745 -0.015722 0.0013363 -0.001738
-0.0024865 -0.0024278 -0.0016479 -0.0026547
-0.0010472 0.0065469 0.027392 -0.015788 0.1677 0.2996 -0.00065083 -0.0014077
-0.0016517 -0.00078694 -0.00052451 -0.001024
0.002422 0.00054696 0.0013503 -0.001719 -0.00065665 -0.0014087 -0.037401 0.28743
0.020879 0.015425 -0.0027311 0.0013429
-0.00010505 -0.0031382 -0.0025021 -0.0023906 -0.0016588 -0.00078686 0.020922 0.015401
-0.063949 0.19756 0.013761 0.015593
-0.000771 -0.0013051 -0.0016303 -0.0026405 -0.00052049 -0.001022 -0.0027269 0.0013511
0.013749 0.015596 -0.10772 0.29356
1100000000 0.047605 0.30873 0.034213 -0.0060696 0.0027011 0.0035821 0.0022617 -0.00108
-0.0020916 -0.0027651 -0.0035414 0.0004271
0.034196 -0.0060426 -0.12285 0.37823 0.013247 -0.027488 -9.5354e-05 -0.0018013
-0.0033219 -0.00049296 -0.003289 -0.00022896
0.0027147 0.0035735 0.013177 -0.027529 0.21443 0.27717 -0.0017975 0.0002145
-0.0017095 0.0007012 -0.00087264 -0.00013655
0.002257 -0.0010852 -9.2992e-05 -0.0018063 -0.001791 0.00020938 0.0040227 0.28987
0.024474 0.0021791 -0.0023715 0.0001812
-0.0021012 -0.0027562 -0.003329 -0.00047937 -0.0017186 0.00070233 0.0245 0.0021445
-0.04442 0.209 0.018355 0.0059394
-0.0035387 0.00042912 -0.0032901 -0.00021626 -0.00087786 -0.00013451 -0.0023762 0.00017737
0.018349 0.0059451 -0.060743 0.31648
1160000000 0.098457 0.30244 0.021766 -0.021485 0.0022432 -0.00036033 -7.9352e-05 -0.0020938
-0.0038808 -0.00051242 -0.0005565 0.0037608
0.021773 -0.021447 -0.078261 0.38188 -0.0051379 -0.027829 -0.0017028 -0.0015145
-0.0025119 0.002437 -0.001277 0.001761
0.0022509 -0.0003584 -0.0052354 -0.027828 0.25678 0.2445 -0.00067752 0.0017874
-0.000376 0.0018898 -0.00073114 0.00023462
-8.164e-05 -0.0021059 -0.0016956 -0.0014945 -0.00067882 0.0017824 0.043605 0.28465
0.019765 -0.01276 -0.0029905 0.0044336
-0.0038716 -0.00049747 -0.0025204 0.0024695 -0.00037569 0.0018927 0.019764 -0.012788
-0.011126 0.21575 0.01656 -0.0021496
-0.00054714 0.0037487 -0.0012566 0.0017699 -0.00072951 0.00023919 -0.0029826 0.0044373
0.01655 -0.0021524 -0.014091 0.31695
1220000000 0.14317 0.2892 0.0080324 -0.029327 -0.0015429 -0.00033727 9.0853e-05 -0.00098414
-0.0023668 0.0022904 0.0013677 0.0018216
0.0080544 -0.029292 -0.034185 0.39232 -0.017157 -0.019455 -0.0024363 0.00042901
0.00020542 0.0028159 -0.0004903 0.0018481
-0.0015416 -0.00032898 -0.017227 -0.019409 0.29531 0.20398 0.00087002 0.0017664
0.00069606 0.0011798 0.00035888 0.00049529
9.2489e-05 -0.00098988 -0.0024354 0.00044077 0.00086545 0.0017742 0.083739 0.27357
0.0086693 -0.018492 0.0014582 0.0014694
-0.002356 0.0022878 0.00020847 0.0028188 0.00069172 0.0011692 0.0086583 -0.018506
0.013039 0.22248 0.011382 -0.01339
0.0013701 0.0018129 -0.00048152 0.0018573 0.00036132 0.00049636 0.0014678 0.0014681
0.011388 -0.013396 0.019698 0.32803
1280000000 0.19179 0.26549 -0.0092944 -0.02673 -0.0014451 0.0028304 -0.00095093 -0.0020041
-0.00056779 0.0028569 0.0023314 0.00079305
-0.0092736 -0.026706 0.011465 0.38241 -0.023136 -0.0071908 -0.00091859 0.001409
0.0017203 0.0016061 0.00075769 0.0016625
-0.0014293 0.0028295 -0.023166 -0.0071287 0.32447 0.15877 0.0016307 -6.0259e-05
0.0010945 0.0001537 0.00023811 0.00014757
-0.00095047 -0.0019966 -0.00091412 0.0014039 0.0016267 -5.3148e-05 0.11955 0.25461
-0.0010775 -0.019541 -0.0004159 0.00042791
-0.00056847 0.00286 0.0017319 0.0015997 0.0010908 0.00015076 -0.001118 -0.019551
0.049291 0.2236 0.00112 -0.014829
0.0023345 0.00078437 0.00075941 0.0016648 0.00023869 0.00014848 -0.0004166 0.00043072
0.0011262 -0.014828 0.065372 0.3254
1340000000 0.22823 0.23026 -0.017986 -0.016831 0.0014263 0.0042336 -0.0017124 -0.00086537
0.0014515 0.0024498 0.0014165 -0.0014366
-0.01795 -0.016831 0.050852 0.37302 -0.020466 0.0050147 -0.0001178 0.0019871
0.001875 0.00058261 0.0012995 0.00062652
0.0014412 0.004235 -0.020453 0.005081 0.34519 0.11045 0.0011738 -0.0010319
0.00057173 -0.00049234 6.5372e-05 0.00021559
-0.0017076 -0.00086344 -0.00011591 0.0019828 0.0011773 -0.0010383 0.15091 0.2323
-0.010215 -0.015868 0.00064631 0.0011035
0.001457 0.0024508 0.0018748 0.00057489 0.00056761 -0.00049765 -0.010243 -0.015857
0.079024 0.21704 -0.0053245 -0.012576
0.0014137 -0.001439 0.0012973 0.00062253 6.7538e-05 0.00021627 0.00064169 0.0011017
-0.0053247 -0.012576 0.10413 0.31677
1400000000 0.25993 0.19074 -0.022472 -0.0056363 0.0053078 0.0025646 -0.0020967 0.00064597
0.0022945 0.00075903 0.00012814 -0.0013409
-0.022442 -0.0056525 0.087402 0.35918 -0.01362 0.012363 0.0013305 0.0013188
0.0011048 -0.00087975 0.0010778 9.2542e-05
0.005307 0.0025536 -0.013585 0.012408 0.35755 0.05653 9.6376e-05 -0.0018377
4.9175e-05 -0.00040098 0.00031252 0.00017407
-0.0020995 0.00064256 0.0013381 0.0013175 0.00010353 -0.0018326 0.17897 0.20139
-0.015535 -0.0088756 -0.00031279 0.00037094
0.0023004 0.00074825 0.0011066 -0.00088467 4.8894e-05 -0.00040725 -0.015554 -0.0088431
0.11117 0.21009 -0.010824 -0.0073371
0.00012773 -0.0013415 0.0010774 8.588e-05 0.00031037 0.00017217 -0.00031274 0.00037136
-0.010812 -0.00734 0.14646 0.30184
1460000000 0.28135 0.14605 -0.018969 0.005602 0.0053585 -0.0023134 -0.0015288 0.0017306
0.0019554 -0.00064667 -0.00042655 -0.00082455
-0.018957 0.0055901 0.12126 0.33671 -0.0053831 0.014667 0.0017342 0.00013585
0.00070298 -0.0012746 0.0010138 -0.00056066
0.005348 -0.0023181 -0.005334 0.014676 0.36226 0.0020878 -0.0014875 -0.0012966
8.7714e-05 -0.00016163 0.00059075 -0.0003074
-0.001532 0.0017312 0.0017365 0.00013142 -0.0014902 -0.0012949 0.20297 0.17091
-0.01631 -0.0019462 -0.00020252 0.0020563
0.0019593 -0.00065314 0.00069735 -0.0012747 8.8431e-05 -0.00015865 -0.01632 -0.0019099
0.13933 0.19363 -0.011768 -0.0015032
-0.0004234 -0.00081937 0.0010178 -0.00057515 0.00058634 -0.0003085 -0.00020531 0.0020369
-0.011771 -0.0015033 0.17827 0.27889
1520000000 0.29244 0.10326 -0.013099 0.010387 0.0028139 -0.0042187 0.00014309 0.002627
0.0018611 -0.001649 -0.001018 -2.9204e-05
-0.013096 0.010376 0.15436 0.32123 0.0017093 0.012418 0.0016526 -0.00087893
-3.3534e-05 -0.0010103 0.00026078 -0.0008765
0.0027971 -0.004226 0.001749 0.012414 0.35486 -0.054357 -0.0013373 -0.00021211
0.00048965 -0.00082963 -7.349e-05 -0.00014003
0.00014241 0.0026235 0.0016489 -0.00088289 -0.0013351 -0.0002118 0.22379 0.13239
-0.015053 0.0037781 0.001894 0.0017546
0.0018499 -0.001663 -3.9272e-05 -0.0010057 0.00048992 -0.00083289 -0.01505 0.0038177
0.16674 0.17767 -0.011231 0.0027133
-0.0010209 -2.306e-05 0.00025322 -0.00088258 -7.4085e-05 -0.0001431 0.0018973 0.0017485
-0.01124 0.0027101 0.2099 0.25529
1580000000 0.30014 0.056655 -0.0068659 0.012724 -0.0011767 -0.0046091 0.0015629 0.0018513
-0.00017799 -0.0020381 -0.00023257 0.00040986
-0.0068746 0.012705 0.18106 0.2958 0.0050306 0.0077392 0.0004066 -0.0016779
-0.00052805 -0.00092694 -0.00022436 -0.00076076
-0.0011962 -0.0046012 0.0050582 0.0077237 0.33404 -0.11181 -0.0016332 0.00094312
-0.00028508 -0.0010567 0.00019968 -0.00052136
0.001573 0.0018492 0.00039886 -0.0016795 -0.0016386 0.00094082 0.23516 0.093013
-0.011392 0.0084499 0.0023823 0.00021642
-0.00018283 -0.0020386 -0.00053953 -0.00091936 -0.00028973 -0.0010643 -0.011382 0.008484
0.18967 0.15758 -0.0085753 0.0076198
-0.00023228 0.00040884 -0.00023125 -0.00076076 0.00019805 -0.00052273 0.0023802 0.00021524
-0.008577 0.0076224 0.23924 0.22645
1640000000 0.30075 0.01497 -0.00077095 0.011279 -0.0027632 -0.0023173 0.0027817 0.00084141
-0.00077288 -0.0014561 -0.00022348 0.0004984
-0.00078198 0.011278 0.21011 0.27013 0.0055562 0.003368 -0.0008417 -0.0016557
-0.000987 -0.00031417 -0.00049915 -0.00058069
-0.0027626 -0.0022943 0.0055778 0.0033456 0.30472 -0.16046 -0.00051205 0.0015711
-0.0011668 -0.00075642 -0.00017643 -0.00019039
0.0027886 0.00083048 -0.00085491 -0.0016596 -0.00051329 0.0015735 0.24509 0.045288
-0.0069305 0.0098004 0.0023806 -0.0011972
-0.00078445 -0.00146 -0.00099411 -0.00030122 -0.0011659 -0.00076019 -0.0069193 0.0098273
0.21089 0.13168 -0.0039969 0.0092841
-0.00022242 0.00049909 -0.00050631 -0.00057238 -0.00017512 -0.00018898 0.0023807 -0.0012028
-0.0039998 0.0092833 0.26275 0.19354
1700000000 0.29195 -0.030564 0.0021458 0.0084629 -0.003336 0.0002092 0.0029144 -0.0014239
-0.0019382 -0.00062965 0.00061108 0.00036143
0.0021352 0.0084554 0.2276 0.23822 0.0037131 0.00057638 -0.0014797 -0.00044922
-0.00071338 0.00015299 -0.00085716 -0.00041453
-0.0033384 0.00021241 0.0037084 0.00056223 0.26138 -0.20046 0.00071965 0.0014221
-0.0017234 -0.00014257 -0.00057997 -0.00083658
0.0029093 -0.0014324 -0.0014749 -0.00044984 0.00071936 0.0014171 0.24052 -0.0029567
-0.0037859 0.010256 0.0012777 -0.0023022
-0.0019401 -0.000614 -0.00071233 0.00015659 -0.001727 -0.00013324 -0.0037722 0.010271
0.22656 0.10979 0.00041439 0.0094342
0.00061538 0.00035532 -0.00086347 -0.00041039 -0.00058128 -0.000838 0.0012701 -0.0023018
0.00041516 0.0094363 0.27684 0.15778
1760000000 0.2782 -0.078858 0.0039448 0.0053569 -0.0021872 0.00092685 0.00093607 -0.0034841
-0.00138 0.00070338 0.00040833 -0.00041921
0.0039363 0.0053434 0.25281 0.19759 0.0015966 -0.0012137 -0.0011658 0.00028696
-0.00092436 0.00081783 -0.00058385 0.00046135
-0.0021785 0.00093593 0.0015915 -0.0012362 0.21224 -0.23394 0.001296 0.0008072
-0.0010948 0.0015579 -0.0012464 -0.00025822
0.00092067 -0.0034914 -0.0011683 0.00028587 0.0012904 0.00079894 0.23055 -0.05219
-0.0003082 0.0093382 -0.00050438 -0.0024721
-0.0013652 0.00071288 -0.00091812 0.00082381 -0.00109 0.0015565 -0.00028791 0.0093456
0.23935 0.073413 0.0039301 0.006713
0.00040379 -0.0004251 -0.00058398 0.00046242 -0.0012412 -0.00025026 -0.00050794 -0.0024745
0.0039295 0.0067082 0.28724 0.11915
1820000000 0.25211 -0.11552 0.0038928 0.0021391 1.033e-05 0.0023994 -0.0013134 -0.0028118
-0.0010282 0.0010471 5.2071e-06 -0.00013291
0.0038855 0.0021308 0.26187 0.16733 -0.00022926 -7.7534e-05 -0.0011561 0.00099721
-4.2815e-06 0.0012256 -0.00051035 0.00053957
1.9551e-05 0.0023922 -0.00023084 -7.5117e-05 0.16162 -0.24901 0.0012902 7.6989e-05
-8.6143e-05 0.0021148 -0.0013384 0.00048844
-0.0013294 -0.002803 -0.0011523 0.00099732 0.0012893 7.9425e-05 0.20089 -0.09721
0.0014457 0.007473 -0.0016817 -0.001352
-0.0010208 0.0010511 9.2426e-06 0.0012258 -8.421e-05 0.002115 0.0014687 0.0074745
0.25436 0.04331 0.0048234 0.0032754
1.1634e-06 -0.00013504 -0.00050971 0.00054152 -0.0013311 0.00050283 -0.0016779 -0.0013384
0.0048265 0.0032795 0.28734 0.081819
1880000000 0.21558 -0.15477 0.0015528 0.00016903 -0.00038631 0.0019196 -0.0029406 -0.0017945
-0.00015947 0.0016923 0.00020291 -0.00037378
0.0015504 0.00016898 0.2655 0.12041 -0.0023263 0.0016116 -4.7707e-05 0.0016342
0.00056713 0.0010692 0.00017178 0.00095916
-0.00036589 0.001912 -0.0023188 0.0016237 0.1084 -0.25893 0.0013281 -0.00098953
0.0014823 0.0016159 -0.00072422 0.00143
-0.0029444 -0.0017867 -4.1011e-05 0.0016336 0.0013326 -0.00098813 0.16148 -0.13651
0.002253 0.0050662 -0.0022419 0.00040438
-0.00014313 0.001684 0.00057384 0.0010622 0.0014826 0.0016154 0.0022621 0.0050691
0.25501 0.0094964 0.0045286 0.0012327
0.00020204 -0.00037758 0.00017752 0.00095709 -0.00072909 0.0014422 -0.0022409 0.00040595
0.0045281 0.001226 0.28479 0.047292
1940000000 0.17556 -0.17957 -0.00052423 -0.0011146 0.0014781 0.0019271 -0.0034898 0.00083058
0.0014656 0.0011573 -0.00052975 -0.0005888
-0.00053738 -0.0011209 0.26489 0.088821 -0.0011389 0.0039484 0.0010124 0.001137
0.0016436 0.00044702 0.00086258 0.00042992
0.0014981 0.0019298 -0.0011359 0.0039585 0.062002 -0.25158 0.00018032 -0.001634
0.0022362 0.00031705 0.00043719 0.0017066
-0.0034845 0.00084716 0.0010118 0.00113 0.00017806 -0.001642 0.11007 -0.16635
0.00141 0.0033697 -0.001376 0.0014079
0.0014638 0.0011519 0.0016455 0.00043972 0.0022387 0.00030499 0.001417 0.0033773
0.25438 -0.030035 0.0033659 -0.0016466
-0.00053533 -0.00058563 0.0008632 0.0004228 0.0004347 0.0017123 -0.0013763 0.0014137
0.0033601 -0.001643 0.27203 0.010758
2000000000 0.12897 -0.19347 -0.0042171 0.0011145 0.0024453 0.0014133 -0.0020248 0.0033335
0.0012662 3.213e-05 -0.0005756 0.00036502
-0.0042099 0.0011133 0.25009 0.053386 -0.00091389 0.0057235 0.0015338 0.00018857
0.0012377 -0.0011934 0.00045979 1.3782e-05
0.0024536 0.0014005 -0.00088774 0.0057238 0.018274 -0.23661 -0.0010274 -0.00099391
0.0018472 -0.0010779 0.0017556 0.0010201
-0.0020094 0.0033391 0.0015486 0.00018647 -0.0010211 -0.00099473 0.057661 -0.17695
-0.00032156 0.0027818 -5.9574e-06 0.0021227
0.001268 2.0293e-05 0.001241 -0.0012074 0.0018445 -0.0010758 -0.00032017 0.0027767
0.24604 -0.064283 0.00031686 -0.0026412
