!Keysight Technologies,M9804A,MY58100912,A.14.10.03
!Date: Thursday, April 27, 2023 10:28:33
!Correction: S11(C  6-Port  ) 
!S12(C  6-Port  ) 
!S13(C  6-Port  ) 
!S14(C  6-Port  ) 
!S15(C  6-Port  ) 
!S16(C  6-Port  ) 
!S21(C  6-Port  ) 
!S22(C  6-Port  ) 
!S23(C  6-Port  ) 
!S24(C  6-Port  ) 
!S25(C  6-Port  ) 
!S26(C  6-Port  ) 
!S31(C  6-Port  ) 
!S32(C  6-Port  ) 
!S33(C  6-Port  ) 
!S34(C  6-Port  ) 
!S35(C  6-Port  ) 
!S36(C  6-Port  ) 
!S41(C  6-Port  ) 
!S42(C  6-Port  ) 
!S43(C  6-Port  ) 
!S44(C  6-Port  ) 
!S45(C  6-Port  ) 
!S46(C  6-Port  ) 
!S51(C  6-Port  ) 
!S52(C  6-Port  ) 
!S53(C  6-Port  ) 
!S54(C  6-Port  ) 
!S55(C  6-Port  ) 
!S56(C  6-Port  ) 
!S61(C  6-Port  ) 
!S62(C  6-Port  ) 
!S63(C  6-Port  ) 
!S64(C  6-Port  ) 
!S65(C  6-Port  ) 
!S66(C  6-Port  ) 
!S6P File: Measurement: :
# Hz S  RI   R 50
500000000 -0.33953 -0.017241 -0.010904 -0.0030912 -0.0071507 0.012733 -0.0032819 0.012149
0.011314 0.0036676 -0.0029506 0.0085276
-0.0109 -0.0030744 -0.41959 -0.035418 0.0063651 -0.011695 0.0020532 0.012554
0.0064217 0.0023265 0.0022936 0.013749
-0.007139 0.012729 0.0063494 -0.011706 -0.26272 0.22323 0.0073968 0.0036725
-0.00087227 0.0084884 0.0025116 0.012169
-0.0032728 0.012154 0.0020746 0.012565 0.0073952 0.0036774 -0.33038 0.063416
-0.019237 -0.0066298 0.015244 0.023637
0.011326 0.0036525 0.0064056 0.0023293 -0.00087503 0.0085119 -0.019243 -0.0066207
-0.23728 -0.16256 -0.02511 0.0038557
-0.0029436 0.0085084 0.0023213 0.01377 0.0025164 0.012171 0.015243 0.023628
-0.025113 0.0038379 -0.28518 -0.078886
560000000 -0.31162 0.13796 -0.027182 -0.060321 0.0010334 0.011341 0.0053835 0.0095149
0.0091116 0.0040613 0.010534 0.0064159
-0.027149 -0.060256 -0.3753 0.11906 -0.04224 -0.034362 0.013856 0.0033391
-0.012433 -0.0037815 0.0031813 -0.0005649
0.0010533 0.011316 -0.042303 -0.034337 -0.18039 0.26775 -0.00045105 -0.0045024
0.018421 0.0036012 0.0066815 -0.0064975
0.0053794 0.0095423 0.01384 0.0032872 -0.00044403 -0.0044988 -0.30397 0.14896
0.00042963 -0.024323 0.0031167 -0.018212
0.0091272 0.0040497 -0.012466 -0.0037932 0.018441 0.0035865 0.0004115 -0.024325
-0.28728 0.010531 0.0029244 -0.046823
0.010542 0.0064067 0.0031761 -0.00055551 0.0066776 -0.0065005 0.0031037 -0.018229
0.0029471 -0.046847 -0.33048 0.059894
620000000 -0.26975 0.12378 -0.023417 0.0071297 0.0037439 0.0079199 0.0078638 -0.005702
0.010483 -0.0011578 0.0010182 -0.0024414
-0.023405 0.0071318 -0.40128 0.074558 -0.019484 0.00044005 -0.00094361 -0.0022731
0.010007 -0.006407 0.0015195 -0.0030481
0.0037577 0.0079203 -0.01948 0.00046597 -0.14889 0.27751 -0.0011681 -0.0046745
-0.0033889 -0.0030072 0.0082976 -0.0038687
0.0078422 -0.0056972 -0.00093997 -0.0022729 -0.0011535 -0.004665 -0.26245 0.1608
-0.03909 -0.017388 0.01198 0.022958
0.010495 -0.0011552 0.01 -0.00643 -0.0034065 -0.0030219 -0.039101 -0.017356
-0.2109 -0.027266 -0.038475 0.014448
0.001034 -0.0024516 0.0015118 -0.0030525 0.0082961 -0.0038669 0.011979 0.022959
-0.03849 0.014426 -0.25604 0.032176
680000000 -0.22698 0.20527 -0.027872 -0.011808 0.005472 0.0044435 0.0012406 -0.0071339
-0.0028196 -0.011061 0.0036343 -0.0069152
-0.027833 -0.011818 -0.38415 0.1685 -0.032171 0.00050971 -0.0015075 -0.00052382
-0.0024406 -0.008714 -0.0015055 -0.0021878
0.0054699 0.0044378 -0.032177 0.00055847 -0.098006 0.29506 -0.00093105 -0.00042189
-0.0017818 0.00011309 -0.0036358 -0.0084292
0.0012421 -0.0071452 -0.0014985 -0.00051944 -0.00092616 -0.00041848 -0.21649 0.20773
-0.025719 -0.005328 -0.0089095 -0.0082425
-0.0028454 -0.011071 -0.002454 -0.0087097 -0.0017893 0.0001231 -0.02574 -0.0052971
-0.24954 0.068875 -0.0072843 -0.0066266
0.0036227 -0.0069029 -0.001521 -0.002189 -0.0036475 -0.0084383 -0.0089267 -0.0082447
-0.0072893 -0.0066417 -0.25316 0.12732
740000000 -0.18364 0.20009 -0.036479 0.026304 0.011827 -0.0059111 -0.00081603 -0.0040673
-0.0050819 -0.0025875 -0.0058073 0.0033143
-0.036464 0.026251 -0.33241 0.18825 -0.032486 0.035142 -0.00099657 -0.0061745
-0.011305 0.0082662 -0.0017512 -0.0047629
0.011803 -0.0059287 -0.032426 0.0352 -0.064225 0.29455 -0.0017859 0.0029718
-0.0034432 -0.0042418 -0.0018145 0.0011312
-0.00080897 -0.0040664 -0.0010104 -0.006186 -0.0017735 0.0029716 -0.19843 0.21666
-0.041984 -0.0033564 0.021832 0.012111
-0.0051087 -0.002587 -0.011276 0.0082906 -0.0034275 -0.0042302 -0.042016 -0.0033151
-0.15695 0.090802 -0.037985 0.0028796
-0.0057873 0.0033305 -0.0017588 -0.0047863 -0.0018205 0.0011017 0.021838 0.012092
-0.037996 0.0028612 -0.24132 0.13726
800000000 -0.15003 0.23704 -0.021438 0.017553 0.0043419 -0.010382 -0.0043393 -0.0016304
-0.0037562 0.0031067 0.0037563 0.00090386
-0.021437 0.017537 -0.33235 0.25614 -0.0065126 0.033479 -0.0022968 0.0023546
-0.00067541 0.0034547 0.0011007 0.005404
0.0043304 -0.010369 -0.0064663 0.033496 -0.021378 0.31605 0.00085389 0.0016099
0.00041137 0.0036907 -0.0017514 0.0013131
-0.0043462 -0.0016109 -0.0022938 0.0023564 0.00085581 0.0016085 -0.16833 0.24275
-0.026688 0.016254 0.012342 -0.0099902
-0.003736 0.0031182 -0.00066593 0.003456 0.00042246 0.0036892 -0.026678 0.016304
-0.19382 0.11702 -0.01551 0.018721
0.003754 0.00089171 0.0011153 0.0053966 -0.0017403 0.0013159 0.012351 -0.010024
-0.015525 0.018699 -0.22806 0.18225
860000000 -0.11475 0.25684 -0.015503 0.030852 -0.0038792 -0.0093554 -0.0020925 0.0012187
0.0048639 0.0047847 -0.0025689 -0.002358
-0.015503 0.030842 -0.2847 0.2968 0.0093796 0.032805 0.00034393 0.0021215
0.0051814 0.00016862 0.0032476 0.000636
-0.003883 -0.0093395 0.0094527 0.032807 0.02701 0.32272 -0.00029253 -6.4728e-05
0.0027234 -0.0012842 0.0017101 0.0040804
-0.0021044 0.0012154 0.00035689 0.0021042 -0.00028911 -6.4656e-05 -0.13172 0.25329
-0.014901 0.020757 -0.0055253 -0.0089616
0.0048794 0.0047758 0.0051845 0.00013848 0.0027233 -0.0012954 -0.01488 0.020796
-0.14113 0.16138 -0.021316 0.016504
-0.0025748 -0.002344 0.0032551 0.00065555 0.0017208 0.0040868 -0.0055314 -0.0089491
-0.02131 0.016493 -0.17862 0.22151
920000000 -0.088086 0.2782 0.0064896 0.036488 -0.0092147 -0.0038277 -0.0013752 0.0017624
0.0016641 0.0012852 0.0027201 -0.0018234
0.0064734 0.036477 -0.25432 0.31721 0.028211 0.019858 0.0018798 0.00087854
0.0070482 -0.00093691 0.0033721 -0.0030296
-0.0092168 -0.003802 0.028254 0.019805 0.074405 0.32255 0.0019851 -0.00015576
0.0015529 -0.00077467 0.00071948 -0.0012565
-0.0013685 0.0017773 0.0018836 0.00085156 0.0019908 -0.00015314 -0.1054 0.26892
-0.0070427 0.030217 0.0020417 -0.0062958
0.001678 0.0012783 0.0070295 -0.00096929 0.0015488 -0.00077695 -0.0070067 0.030245
-0.1278 0.16706 -0.00061744 0.025073
0.0027206 -0.0018535 0.0033802 -0.0030239 0.0007166 -0.0012566 0.0020414 -0.0062943
-0.00063616 0.02507 -0.17774 0.23701
980000000 -0.04099 0.29593 0.018658 0.028213 -0.0083089 0.0047317 0.0019615 0.002975
0.0036721 -0.0019829 -0.0032914 -0.001869
0.018623 0.028217 -0.20238 0.34949 0.032261 0.0029813 0.0019674 -0.00028218
0.0013336 -0.0061406 -0.00069672 -0.0023416
-0.0083107 0.0047467 0.032293 0.002911 0.12104 0.31445 0.00043982 -0.0013211
4.6999e-05 -0.002211 0.0013452 -0.00016724
0.001955 0.0029812 0.0019789 -0.00030892 0.00044313 -0.0013203 -0.066663 0.27841
0.010522 0.028093 -0.008325 -0.0057261
0.0036751 -0.0019984 0.0013095 -0.0061694 4.4248e-05 -0.0022201 0.010582 0.028087
-0.096146 0.1916 0.006439 0.018306
-0.0032842 -0.001856 -0.00072728 -0.0023375 0.0013446 -0.0001673 -0.0083331 -0.0057164
0.0064219 0.018305 -0.13317 0.27432
1040000000 0.0022218 0.30303 0.032859 0.015543 -0.0010479 0.0065535 0.0024279 0.00054291
-0.0001085 -0.0031488 -0.00076704 -0.0012843
0.032828 0.015569 -0.16631 0.36246 0.027387 -0.015696 0.0013591 -0.0016972
-0.0024763 -0.0023905 -0.0016255 -0.0026683
-0.0010486 0.006554 0.027367 -0.015789 0.16772 0.2996 -0.00065702 -0.0014086
-0.0016432 -0.00077741 -0.00050923 -0.001027
0.0024248 0.00055603 0.0013532 -0.0017218 -0.00065668 -0.0014093 -0.037369 0.28743
0.020815 0.015423 -0.0027366 0.0013429
-0.00011969 -0.0031445 -0.0025123 -0.002385 -0.0016474 -0.00077981 0.020846 0.015384
-0.063961 0.19754 0.01374 0.015588
-0.00076916 -0.0012858 -0.0016445 -0.0026386 -0.00051423 -0.0010254 -0.0027391 0.0013561
0.013729 0.015587 -0.10762 0.29363
1100000000 0.04764 0.30879 0.034199 -0.006089 0.0027137 0.0035709 0.0022647 -0.0010993
-0.0020926 -0.0027608 -0.0035543 0.00043186
0.034166 -0.0060556 -0.12286 0.3783 0.013211 -0.027488 -8.8602e-05 -0.0017918
-0.0033108 -0.00047884 -0.0032804 -0.00021906
0.0027109 0.0035659 0.013154 -0.02753 0.21446 0.27719 -0.0017906 0.00021788
-0.0017099 0.00071603 -0.00086267 -0.00012416
0.0022663 -0.0011021 -8.4791e-05 -0.0018014 -0.0017932 0.0002184 0.0040429 0.28988
0.024422 0.0021937 -0.0023817 0.00018273
-0.0020962 -0.0027509 -0.0033313 -0.00047513 -0.0017101 0.00070962 0.024431 0.0021513
-0.044418 0.20898 0.018329 0.0059385
-0.0035531 0.00045815 -0.003287 -0.00021017 -0.00086087 -0.00012858 -0.0023744 0.00019175
0.01832 0.0059421 -0.060647 0.31653
1160000000 0.098552 0.30248 0.02175 -0.021491 0.0022619 -0.00034269 -7.7759e-05 -0.0021239
-0.0038778 -0.00051377 -0.00056572 0.0037389
0.021757 -0.021442 -0.078229 0.38197 -0.0051895 -0.02781 -0.0016892 -0.0014772
-0.002498 0.0024912 -0.001251 0.0017525
0.0022592 -0.00034587 -0.0052444 -0.027809 0.25682 0.24452 -0.00067096 0.0017856
-0.0003661 0.0018784 -0.00072021 0.00021512
-8.8052e-05 -0.0021175 -0.0016937 -0.0014996 -0.00067754 0.0017778 0.043643 0.28463
0.019718 -0.012706 -0.002981 0.0044646
-0.0038859 -0.00049639 -0.0025055 0.002481 -0.0003671 0.0018836 0.019705 -0.012743
-0.01108 0.21578 0.016565 -0.0021319
-0.00054068 0.0037428 -0.0012464 0.0017689 -0.00072411 0.00021594 -0.0029834 0.0044769
0.016557 -0.0021325 -0.014019 0.31699
1220000000 0.14324 0.28913 0.008029 -0.029323 -0.0015363 -0.00031903 8.9349e-05 -0.00098742
-0.0023636 0.002294 0.001364 0.0018278
0.0080433 -0.029281 -0.034157 0.39235 -0.017181 -0.019435 -0.0024423 0.00045239
0.00021454 0.0028125 -0.00048765 0.0018558
-0.0015355 -0.00031792 -0.017235 -0.019386 0.29535 0.20396 0.00086524 0.0017681
0.00070597 0.0011723 0.00035148 0.00049716
8.687e-05 -0.00098092 -0.0024384 0.00045388 0.00086378 0.0017658 0.083725 0.27357
0.0086636 -0.018419 0.001475 0.0014665
-0.0023612 0.0023026 0.0002169 0.0028041 0.00070366 0.001171 0.0086517 -0.018433
0.013084 0.2225 0.011377 -0.013391
0.0013668 0.0018228 -0.00048376 0.0018577 0.00035584 0.0004942 0.0014785 0.0014672
0.011376 -0.01339 0.019777 0.32805
1280000000 0.19185 0.26544 -0.0092818 -0.026704 -0.001418 0.0028306 -0.00096882 -0.0020072
-0.00056896 0.0028617 0.0023414 0.00079717
-0.0092635 -0.026682 0.011497 0.38245 -0.023134 -0.0071632 -0.00090445 0.0013961
0.0017279 0.0015802 0.00074502 0.0016722
-0.0014118 0.0028299 -0.023159 -0.0070825 0.32453 0.15876 0.0016278 -4.897e-05
0.0010833 0.00014993 0.00025358 0.00014243
-0.00096984 -0.0020038 -0.00091161 0.0013949 0.0016249 -5.1771e-05 0.11954 0.25462
-0.0010471 -0.019459 -0.00039921 0.00044157
-0.00055181 0.0028695 0.0017395 0.0015741 0.0010899 0.00013847 -0.0010807 -0.019459
0.049307 0.22364 0.0011248 -0.014825
0.0023398 0.00078826 0.00075055 0.0016658 0.00025371 0.00014208 -0.00039945 0.00044128
0.0011296 -0.014815 0.06546 0.32542
1340000000 0.22827 0.23014 -0.017974 -0.016816 0.0014376 0.004237 -0.0017127 -0.0008476
0.0014516 0.0024473 0.0014192 -0.0014299
-0.01794 -0.016816 0.050917 0.37301 -0.020445 0.0050141 -0.00012017 0.0019698
0.001868 0.00057703 0.0012931 0.00062983
0.0014572 0.0042241 -0.020434 0.0050911 0.34522 0.11042 0.0011636 -0.0010371
0.00056345 -0.00048306 6.5998e-05 0.00022109
-0.001721 -0.00084382 -0.00011326 0.0019748 0.001156 -0.0010357 0.15089 0.23232
-0.010138 -0.015807 0.00066299 0.0010933
0.0014653 0.0024497 0.0018628 0.00057887 0.00056399 -0.00048931 -0.01017 -0.015796
0.079012 0.21708 -0.0053237 -0.012568
0.0014208 -0.0014363 0.0012985 0.0006234 6.5355e-05 0.00021947 0.00066321 0.0010921
-0.0053224 -0.012566 0.10423 0.31676
1400000000 0.25988 0.19068 -0.022457 -0.0056402 0.0053219 0.0025494 -0.0020921 0.00065674
0.0022993 0.00075022 0.00012152 -0.0013459
-0.022429 -0.0056577 0.087448 0.35917 -0.013595 0.012359 0.0013207 0.0013159
0.0010995 -0.0008759 0.0010725 8.6487e-05
0.0053222 0.00253 -0.013559 0.012417 0.35756 0.056511 9.915e-05 -0.0018346
5.3219e-05 -0.0003944 0.00030898 0.00018025
-0.0020928 0.00065568 0.0013317 0.0013035 9.8588e-05 -0.0018406 0.17896 0.20144
-0.015433 -0.0088711 -0.00030259 0.00035644
0.0022982 0.00073418 0.0010928 -0.00087785 4.9216e-05 -0.00039616 -0.015465 -0.0088342
0.11117 0.21016 -0.010799 -0.0073199
0.00012203 -0.001339 0.0010781 8.5507e-05 0.00031171 0.00018098 -0.00029897 0.0003576
-0.010798 -0.0073331 0.14656 0.30184
1460000000 0.28131 0.14601 -0.01896 0.0055946 0.005345 -0.0023232 -0.0015315 0.0017358
0.0019466 -0.00064776 -0.00043433 -0.00081039
-0.018945 0.0055668 0.12133 0.33669 -0.0053501 0.014641 0.0017294 0.00013384
0.00070848 -0.0012471 0.001012 -0.00056268
0.0053381 -0.0023388 -0.005302 0.014666 0.36228 0.0020688 -0.0014854 -0.0012863
9.2572e-05 -0.00017097 0.00060495 -0.00030296
-0.0015255 0.0017248 0.0017279 0.0001285 -0.0014892 -0.0012932 0.20302 0.17096
-0.016203 -0.0019942 -0.00019959 0.0020399
0.0019371 -0.00065686 0.00069938 -0.0012627 8.859e-05 -0.00016529 -0.016214 -0.0019536
0.13937 0.19372 -0.011754 -0.0015062
-0.00044902 -0.00079948 0.0010154 -0.00056459 0.00060216 -0.00030347 -0.00019626 0.0020249
-0.011758 -0.0015113 0.17838 0.27887
1520000000 0.29235 0.10326 -0.013101 0.010386 0.002803 -0.004231 0.00014981 0.0026325
0.0018512 -0.0016489 -0.0010179 -1.9816e-05
-0.013099 0.010364 0.15439 0.32117 0.0017266 0.012409 0.0016496 -0.00087574
-3.2815e-05 -0.0010025 0.00026047 -0.0008764
0.002789 -0.0042281 0.0017684 0.012404 0.35486 -0.054366 -0.0013252 -0.00022119
0.00047997 -0.0008472 -6.4553e-05 -0.00014375
0.00015567 0.0026244 0.0016431 -0.0008803 -0.0013221 -0.00022013 0.22381 0.13242
-0.014982 0.0036935 0.001892 0.0017392
0.001835 -0.0016576 -4.2448e-05 -0.0009975 0.00047862 -0.00085204 -0.01498 0.0037389
0.16679 0.17776 -0.011225 0.0026962
-0.0010214 -1.2261e-05 0.00025576 -0.00088028 -6.4006e-05 -0.00013808 0.001895 0.0017376
-0.011223 0.0026934 0.20998 0.25523
1580000000 0.30011 0.05676 -0.0068762 0.012715 -0.0011945 -0.0046144 0.001562 0.0018396
-0.00017597 -0.002026 -0.00021243 0.00040209
-0.0068774 0.012701 0.18109 0.29578 0.0050352 0.0077139 0.00040508 -0.0016713
-0.00051443 -0.00092992 -0.00021582 -0.00075545
-0.001208 -0.0046004 0.0050609 0.0076959 0.33404 -0.1118 -0.0016391 0.00094007
-0.00029111 -0.0010647 0.00020276 -0.00053312
0.0015677 0.0018392 0.00040467 -0.0016748 -0.0016452 0.00093939 0.23523 0.09304
-0.011383 0.0083442 0.0023508 0.00021724
-0.00018415 -0.002028 -0.00051517 -0.00093135 -0.00029115 -0.0010635 -0.011382 0.0083773
0.18975 0.15766 -0.0085652 0.007604
-0.00021208 0.0004062 -0.00021902 -0.00076202 0.00019823 -0.00053744 0.0023607 0.00020658
-0.0085709 0.0076034 0.2393 0.22641
1640000000 0.3008 0.015038 -0.00076956 0.011277 -0.0027767 -0.002333 0.0027747 0.00083416
-0.00075727 -0.001445 -0.00021251 0.00049538
-0.00079454 0.011278 0.21015 0.27008 0.0055378 0.0033402 -0.00084429 -0.0016595
-0.00098559 -0.00032084 -0.00050681 -0.00057078
-0.002784 -0.0023193 0.0055534 0.0033215 0.30467 -0.16044 -0.00051166 0.0015701
-0.0011619 -0.00077333 -0.00017852 -0.00018806
0.0027765 0.00082682 -0.0008483 -0.0016512 -0.00051022 0.0015639 0.24515 0.045227
-0.0069822 0.0097045 0.0023565 -0.0011976
-0.00076614 -0.0014513 -0.0009871 -0.00031891 -0.0011572 -0.00075348 -0.0069617 0.0097354
0.21103 0.13172 -0.0039845 0.0092667
-0.00020937 0.0004971 -0.00050661 -0.0005695 -0.0001799 -0.00018882 0.0023638 -0.0012072
-0.003983 0.009273 0.26283 0.19349
1700000000 0.29203 -0.030536 0.0021449 0.0084561 -0.0033354 0.00021111 0.0029091 -0.0014128
-0.0019223 -0.0006281 0.00062324 0.00035379
0.0021407 0.0084485 0.22759 0.23817 0.0036815 0.00056729 -0.0014887 -0.00045412
-0.00071876 0.00014722 -0.00086087 -0.00041362
-0.0033355 0.00022806 0.0036809 0.0005456 0.26134 -0.20046 0.00072288 0.0014168
-0.0017264 -0.00013803 -0.00059205 -0.00082069
0.002897 -0.0014221 -0.0014878 -0.00045386 0.00071925 0.0014144 0.24054 -0.0030262
-0.0038837 0.010202 0.0012587 -0.0022917
-0.0019207 -0.00062147 -0.00071336 0.00015328 -0.0017293 -0.0001286 -0.0038611 0.010214
0.22673 0.10978 0.00041373 0.0094158
0.00062591 0.00035146 -0.0008613 -0.00040554 -0.00059636 -0.00082127 0.001251 -0.0023017
0.00041818 0.0094189 0.27689 0.15772
1760000000 0.27833 -0.07888 0.003945 0.0053385 -0.0021561 0.00094675 0.00093858 -0.0034854
-0.0013631 0.00069758 0.00040477 -0.00042805
0.0039303 0.0053416 0.25284 0.19756 0.0015836 -0.0012034 -0.0011714 0.00028652
-0.0009365 0.00082463 -0.00059105 0.00045522
-0.0021509 0.00095153 0.0015746 -0.001214 0.21226 -0.23391 0.0012833 0.00079932
-0.0010909 0.0015552 -0.0012262 -0.00025822
0.00093318 -0.0034812 -0.0011655 0.00029191 0.0012882 0.0007968 0.23054 -0.052267
-0.00040819 0.0093425 -0.00051905 -0.0024719
-0.0013614 0.0007068 -0.00092044 0.00083334 -0.0010937 0.0015423 -0.00039418 0.0093471
0.23952 0.073338 0.0039191 0.0067011
0.00040575 -0.00043159 -0.00058357 0.00046214 -0.0012219 -0.0002601 -0.00051913 -0.0024696
0.0039222 0.0066968 0.28728 0.1191
1820000000 0.25215 -0.11567 0.0038902 0.0021273 2.41e-05 0.0024086 -0.0013096 -0.0028039
-0.0010416 0.0010369 6.7086e-06 -0.00013262
0.0038832 0.002129 0.26187 0.16728 -0.00024853 -5.6974e-05 -0.0011617 0.00099557
6.3012e-06 0.0012255 -0.00051208 0.00053985
3.8026e-05 0.0024073 -0.00025637 -5.1834e-05 0.16153 -0.24898 0.0012873 7.8358e-05
-8.486e-05 0.0021076 -0.0013304 0.00051212
-0.001317 -0.0028017 -0.0011577 0.0010032 0.0012824 9.1556e-05 0.20083 -0.097267
0.0013841 0.0075238 -0.0016764 -0.0013309
-0.0010276 0.0010313 1.8535e-06 0.0012301 -7.4247e-05 0.0021093 0.0013947 0.0075291
0.25447 0.043161 0.0048079 0.0032769
4.8015e-06 -0.00013294 -0.00050685 0.00054104 -0.0013223 0.00051449 -0.0016775 -0.0013253
0.0048067 0.0032816 0.28739 0.081726
1880000000 0.21559 -0.15491 0.0015654 0.00018199 -0.00037875 0.0019279 -0.0029274 -0.0017935
-0.00017149 0.0016876 0.00020813 -0.00037585
0.0015574 0.0001851 0.26549 0.1204 -0.0023362 0.001614 -5.2848e-05 0.0016378
0.00058361 0.0010682 0.00016949 0.00096263
-0.00037521 0.0019275 -0.0023234 0.0016329 0.10844 -0.25887 0.0013462 -0.00098298
0.0014746 0.0016098 -0.00074723 0.0014213
-0.00293 -0.0017784 -5.0783e-05 0.0016329 0.0013338 -0.00098615 0.16141 -0.13647
0.0022314 0.005135 -0.0022373 0.0004163
-0.00016424 0.0016872 0.00059617 0.0010679 0.0014766 0.001616 0.0022419 0.0051395
0.25505 0.0093311 0.004513 0.0012442
0.00020622 -0.00037742 0.00017612 0.00096126 -0.00074298 0.001415 -0.0022262 0.00042158
0.0045092 0.0012434 0.28482 0.047243
1940000000 0.1755 -0.17975 -0.00053382 -0.0011081 0.0015206 0.0019155 -0.0034829 0.00083089
0.0014652 0.0011665 -0.00053896 -0.00058525
-0.00053258 -0.0010961 0.26489 0.088801 -0.0011231 0.0039707 0.0010083 0.0011428
0.0016665 0.00045225 0.00085519 0.00042668
0.0015211 0.001899 -0.0011083 0.0039837 0.061967 -0.25165 0.00016434 -0.0016464
0.0022566 0.00029247 0.00044724 0.0016937
-0.0034812 0.00083814 0.0010221 0.0011405 0.00016423 -0.0016488 0.11005 -0.1663
0.0014213 0.0034405 -0.0013667 0.0014053
0.0014717 0.0011538 0.0016684 0.00043958 0.0022531 0.00029674 0.0014264 0.0034373
0.25438 -0.030221 0.0033628 -0.001623
-0.00054333 -0.00058151 0.00086044 0.00042423 0.00044657 0.0016954 -0.0013558 0.0014024
0.0033579 -0.0016327 0.27206 0.010689
2000000000 0.12876 -0.19354 -0.0042023 0.0011192 0.0024218 0.0014033 -0.0020293 0.0033275
0.0012625 5.0779e-05 -0.00056065 0.00035874
-0.0042007 0.0011108 0.25011 0.053367 -0.00088141 0.0057222 0.0015456 0.00020044
0.0012395 -0.0012032 0.00046139 1.8709e-05
0.0024345 0.0014035 -0.00086476 0.0057275 0.018304 -0.23665 -0.00101 -0.00099942
0.0018431 -0.001075 0.0017656 0.0010089
-0.0020181 0.0033302 0.0015495 0.00019474 -0.0010153 -0.001008 0.057674 -0.17688
-0.00029039 0.0028233 1.3437e-05 0.0021256
0.0012753 3.2146e-05 0.0012355 -0.0012148 0.0018388 -0.0010791 -0.00028831 0.0028363
0.24595 -0.064404 0.0003237 -0.0026218
