!Keysight Technologies,M9804A,MY58100912,A.14.10.03
!Date: Thursday, April 27, 2023 10:28:33
!Correction: S11(C  6-Port  ) 
!S12(C  6-Port  ) 
!S13(C  6-Port  ) 
!S14(C  6-Port  ) 
!S15(C  6-Port  ) 
!S16(C  6-Port  ) 
!S21(C  6-Port  ) 
!S22(C  6-Port  ) 
!S23(C  6-Port  ) 
!S24(C  6-Port  ) 
!S25(C  6-Port  ) 
!S26(C  6-Port  ) 
!S31(C  6-Port  ) 
!S32(C  6-Port  ) 
!S33(C  6-Port  ) 
!S34(C  6-Port  ) 
!S35(C  6-Port  ) 
!S36(C  6-Port  ) 
!S41(C  6-Port  ) 
!S42(C  6-Port  ) 
!S43(C  6-Port  ) 
!S44(C  6-Port  ) 
!S45(C  6-Port  ) 
!S46(C  6-Port  ) 
!S51(C  6-Port  ) 
!S52(C  6-Port  ) 
!S53(C  6-Port  ) 
!S54(C  6-Port  ) 
!S55(C  6-Port  ) 
!S56(C  6-Port  ) 
!S61(C  6-Port  ) 
!S62(C  6-Port  ) 
!S63(C  6-Port  ) 
!S64(C  6-Port  ) 
!S65(C  6-Port  ) 
!S66(C  6-Port  ) 
!S6P File: Measurement: :
# Hz S  RI   R 50
500000000 -0.33638 -0.03345 -0.00975 -0.0037778 -0.0075944 0.011877 -0.0040749 0.011498
0.012476 0.0044308 -0.0040997 0.0070924
-0.0097425 -0.0037773 -0.41945 -0.047896 0.0073986 -0.011381 0.001456 0.011718
0.0072814 0.0021781 0.0010954 0.012989
-0.0075827 0.011872 0.0073706 -0.011423 -0.26449 0.21195 0.0069666 0.0032874
-0.00026626 0.0082806 0.00091502 0.012069
-0.0041022 0.011507 0.0014706 0.011716 0.0069763 0.0032966 -0.327 0.050043
-0.019108 -0.0051018 0.017703 0.025821
0.012637 0.0039173 0.0077748 0.002279 5.621e-05 0.0083337 -0.019073 -0.0052351
-0.22753 -0.17948 -0.02737 0.0046556
-0.0043498 0.0072721 0.00091584 0.013033 0.00069377 0.012135 0.017408 0.026575
-0.027193 0.0045767 -0.27151 -0.13004
560000000 -0.31441 0.12611 -0.023904 -0.062382 -0.0002748 0.012141 0.006955 0.010005
0.011174 0.003616 0.0093759 0.0076696
-0.02385 -0.06233 -0.37601 0.10968 -0.041794 -0.036757 0.013738 0.0038834
-0.01344 -0.0039783 0.0048296 -0.00088777
-0.00027695 0.01214 -0.041885 -0.036718 -0.18217 0.25964 -0.00080276 -0.004669
0.018475 0.0041358 0.0071645 -0.0060501
0.0069251 0.010018 0.013702 0.0038239 -0.00078627 -0.0046964 -0.30189 0.13652
0.0036612 -0.025089 0.0058468 -0.019644
0.010762 0.003558 -0.01367 -0.0036871 0.019162 0.00352 0.0038485 -0.02488
-0.28477 -0.0060472 0.0070805 -0.050883
0.0097413 0.0079474 0.0044371 -0.0008631 0.007038 -0.0062305 0.0052327 -0.019177
0.0068655 -0.05071 -0.33298 0.019673
620000000 -0.27229 0.11062 -0.023018 0.0070022 0.0034192 0.0082623 0.006755 -0.0056926
0.010514 -0.00056019 -0.00063131 -0.0023273
-0.023006 0.0070026 -0.40197 0.064041 -0.018795 -0.00040315 -0.0015061 -0.0020836
0.010112 -0.0076403 0.00098637 -0.0027936
0.0034143 0.0082408 -0.018809 -0.00036451 -0.15228 0.26797 -0.0014872 -0.005351
-0.003824 -0.0034305 0.0080146 -0.0030472
0.0067003 -0.0056845 -0.001495 -0.0020742 -0.0014735 -0.0053523 -0.26064 0.14674
-0.038612 -0.018501 0.015085 0.024455
0.010532 -0.00013753 0.010136 -0.007351 -0.0041847 -0.0034351 -0.038505 -0.018654
-0.20537 -0.044977 -0.041407 0.014235
-0.00062403 -0.0019792 0.00098934 -0.0031935 0.0082135 -0.0032956 0.013961 0.023794
-0.041247 0.014808 -0.24901 -0.018687
680000000 -0.23179 0.19367 -0.027892 -0.013957 0.0048422 0.0049953 0.0011453 -0.0073056
-0.0035824 -0.010796 0.0041583 -0.0072474
-0.027859 -0.013952 -0.38643 0.1607 -0.032735 -0.0011555 -0.0014576 -0.00020215
-0.0030522 -0.0089365 -0.0011388 -0.0020677
0.0048529 0.0049638 -0.032772 -0.0010705 -0.10167 0.28775 -0.00071263 0.00016184
-0.0024727 0.00063651 -0.0028633 -0.0095811
0.0011419 -0.0073424 -0.0014548 -0.00019344 -0.00070731 0.00016357 -0.21819 0.19611
-0.023757 -0.0085676 -0.01015 -0.010332
-0.0034605 -0.010982 -0.0030674 -0.0089756 -0.0024768 0.00066693 -0.023933 -0.0085524
-0.25064 0.051947 -0.0055707 -0.010197
0.0046498 -0.0073901 -0.0010794 -0.0022386 -0.0030414 -0.0095561 -0.010088 -0.010362
-0.0055902 -0.0099181 -0.26286 0.087377
740000000 -0.18882 0.18907 -0.038434 0.026362 0.012489 -0.0051944 -0.00085011 -0.0037748
-0.0044517 -0.0025916 -0.006225 0.003161
-0.038406 0.026326 -0.33482 0.17969 -0.034858 0.034693 -0.00091025 -0.0059605
-0.011406 0.007686 -0.0033385 -0.0061895
0.012474 -0.0052384 -0.034792 0.03481 -0.067929 0.28688 -0.001556 0.0033777
-0.0025744 -0.0036425 -0.00090369 -0.00014801
-0.0008758 -0.0037772 -0.00097966 -0.0059166 -0.0015738 0.003363 -0.20156 0.20376
-0.042171 -0.0081077 0.02195 0.012917
-0.0044395 -0.0029621 -0.011124 0.0078408 -0.0026223 -0.0035818 -0.042426 -0.0080026
-0.15674 0.073861 -0.041944 0.0006472
-0.0062359 0.0036621 -0.0030711 -0.0056984 -0.001263 9.6113e-05 0.022301 0.013141
-0.041436 0.00051986 -0.25421 0.092545
800000000 -0.15705 0.22925 -0.022422 0.017143 0.0050427 -0.010445 -0.0048272 -0.0020587
-0.0039378 0.003013 0.0046289 0.0009812
-0.022418 0.017131 -0.3369 0.24937 -0.0077741 0.033956 -0.0020745 0.0022362
-0.00059623 0.0036126 0.0013872 0.0054782
0.0050323 -0.010449 -0.0076909 0.033998 -0.026762 0.30987 0.0013028 0.0014252
0.00075229 0.0036567 -0.0017838 0.0010472
-0.0048539 -0.00205 -0.0020808 0.0022332 0.0013025 0.0014268 -0.17353 0.23102
-0.028214 0.012861 0.013311 -0.010151
-0.0039436 0.0029069 -0.00046468 0.0034947 0.00073998 0.0035551 -0.028363 0.012643
-0.19923 0.098545 -0.017232 0.018074
0.0042815 0.00083553 0.0011825 0.005241 -0.0017682 0.00093939 0.013343 -0.010038
-0.0174 0.018045 -0.24582 0.14628
860000000 -0.12207 0.25052 -0.017037 0.031285 -0.0034779 -0.0096613 -0.0024738 0.0014717
0.0042904 0.0051169 -0.0030188 -0.0029127
-0.017058 0.031244 -0.28901 0.29127 0.008245 0.033966 0.00031277 0.0020931
0.0045823 0.00015852 0.0033373 0.00030992
-0.0035009 -0.0096479 0.0083523 0.033956 0.021776 0.31751 -0.00031372 -0.00030566
0.0028561 -0.0016904 0.0014589 0.0046321
-0.0024666 0.0015147 0.00034948 0.0020965 -0.00032368 -0.00030177 -0.13795 0.24318
-0.017894 0.019045 -0.0065088 -0.0093945
0.0045493 0.0048587 0.0045938 9.8626e-05 0.0029392 -0.001644 -0.01778 0.019022
-0.14989 0.14692 -0.024652 0.015365
-0.0029745 -0.0026932 0.0033452 0.00010573 0.0014697 0.0046405 -0.0063453 -0.0093633
-0.024533 0.015205 -0.19468 0.19069
920000000 -0.096406 0.27373 0.0052866 0.037815 -0.0092823 -0.0040571 -0.0017919 0.0024329
0.0013423 0.0015656 0.0024146 -0.0013808
0.005256 0.037786 -0.25984 0.31216 0.027968 0.02154 0.0015767 0.0011707
0.0067033 -0.00096762 0.0036559 -0.0028495
-0.0092822 -0.0040301 0.028057 0.021462 0.068207 0.31768 0.0017452 -9.3982e-05
0.0012292 -0.00052361 0.00076917 -0.0010781
-0.0017916 0.0024399 0.0015859 0.001153 0.0017526 -0.00010151 -0.11367 0.25947
-0.010307 0.029911 0.0026242 -0.0065208
0.0013546 0.0014845 0.0068323 -0.00098757 0.0012631 -0.00050947 -0.010314 0.030163
-0.14006 0.15253 -0.0016315 0.0276
0.0023269 -0.0012765 0.0036677 -0.0028941 0.00077912 -0.0010086 0.0024595 -0.0065416
-0.0016042 0.027534 -0.20243 0.20412
980000000 -0.048513 0.293 0.018054 0.029809 -0.0086119 0.0047652 0.0025184 0.0037582
0.0039236 -0.0018339 -0.0032055 -0.0020267
0.018017 0.02979 -0.20676 0.3456 0.032679 0.0044681 0.0019713 -9.3799e-06
0.00097134 -0.0061898 -0.00077771 -0.0021985
-0.008603 0.0047992 0.032722 0.0043409 0.11449 0.31057 0.00040966 -0.0012081
-4.0435e-06 -0.0021314 0.0015838 -1.6615e-06
0.0025375 0.0037615 0.0019744 -3.8546e-05 0.00040953 -0.0012066 -0.075186 0.27071
0.0075965 0.028477 -0.0094636 -0.0066938
0.0039154 -0.0018029 0.00096512 -0.0062194 -3.2154e-05 -0.0021317 0.0077233 0.028468
-0.10803 0.17955 0.0048725 0.018534
-0.0030326 -0.0020334 -0.00074484 -0.0021575 0.0015662 -3.859e-05 -0.0094788 -0.0066382
0.0049884 0.018559 -0.15913 0.24995
1040000000 -0.0054369 0.30071 0.033308 0.017468 -0.00098683 0.006749 0.0028611 0.00062307
-0.0001315 -0.0037021 -0.00056378 -0.0014578
0.033271 0.017478 -0.17078 0.3584 0.028827 -0.014854 0.0014361 -0.0016275
-0.0026591 -0.0021128 -0.0015459 -0.0025979
-0.00095915 0.0067623 0.028782 -0.014988 0.16053 0.29647 -0.00053063 -0.0013549
-0.0015246 -0.00078351 -0.00049575 -0.0011086
0.0028631 0.00063067 0.0014023 -0.0016461 -0.00052972 -0.001356 -0.047633 0.28086
0.018061 0.016861 -0.0029365 0.002253
-0.00013651 -0.0037071 -0.0026379 -0.002171 -0.0015465 -0.00075132 0.018111 0.016869
-0.077278 0.18846 0.012966 0.017764
-0.00058821 -0.0015812 -0.0015357 -0.0025656 -0.00048748 -0.0011788 -0.0030129 0.0022997
0.012896 0.01792 -0.1386 0.27198
1100000000 0.040245 0.30766 0.035427 -0.0047348 0.0029791 0.0036339 0.0026159 -0.0014768
-0.0020675 -0.0029756 -0.0039046 0.00018053
0.035396 -0.0047082 -0.12731 0.375 0.014685 -0.02743 3.1742e-05 -0.0017985
-0.0030814 -0.00032597 -0.0033576 -0.00056159
0.0029944 0.0036247 0.0146 -0.027519 0.20661 0.27582 -0.001766 0.000272
-0.0016261 0.00062147 -0.00094058 -0.00034006
0.0026198 -0.0014726 9.8156e-06 -0.0018207 -0.0017779 0.0002683 -0.0068441 0.28554
0.02239 0.0048957 -0.0022989 0.0011969
-0.0021342 -0.0030042 -0.0030865 -0.00028877 -0.0016504 0.00060416 0.022406 0.0048826
-0.059055 0.20193 0.018584 0.0082327
-0.0038481 0.00023746 -0.0033543 -0.0005473 -0.00093675 -0.00033827 -0.0020831 0.00108
0.018524 0.0083402 -0.091787 0.30112
1160000000 0.091906 0.30181 0.023478 -0.020839 0.0026783 -0.00063797 -0.0001013 -0.0025674
-0.0040171 -0.00040899 -0.00094064 0.0038989
0.023476 -0.020806 -0.083256 0.37877 -0.0038374 -0.028532 -0.0017668 -0.0015624
-0.0022772 0.0025794 -0.001266 0.0015762
0.0026771 -0.00064011 -0.0039672 -0.028559 0.24937 0.24484 -0.00058124 0.001694
-0.00036183 0.0017399 -0.0010045 6.2947e-05
-0.00010848 -0.0025514 -0.0017748 -0.0015704 -0.00058856 0.0016908 0.032595 0.28252
0.018944 -0.0096502 -0.0026222 0.0055543
-0.0040245 -0.00041281 -0.0023035 0.0026191 -0.00038618 0.001702 0.018917 -0.0096495
-0.025537 0.21102 0.017154 0.00041778
-0.00094084 0.0039803 -0.001319 0.0015408 -0.0010577 0.00018693 -0.0025678 0.005631
0.017149 0.00057191 -0.044383 0.30384
1220000000 0.13629 0.28968 0.0099632 -0.029702 -0.0015457 -0.00086856 -0.00024239 -0.0011398
-0.0024474 0.0025022 0.0012893 0.0019123
0.0099668 -0.029668 -0.039305 0.3899 -0.016624 -0.020603 -0.0024846 0.00046113
0.00028688 0.0027541 -0.00074241 0.0017619
-0.001555 -0.0008615 -0.016731 -0.020551 0.28833 0.20582 0.00084846 0.0015154
0.00053026 0.0011055 0.000257 0.00072114
-0.00023905 -0.0011351 -0.0024883 0.00045887 0.00084747 0.0015156 0.072206 0.27374
0.0090336 -0.015123 0.0028351 0.0017392
-0.0024579 0.002506 0.00029263 0.0027253 0.00055362 0.0011165 0.0090061 -0.015158
-0.0016011 0.22049 0.01336 -0.012074
0.0012153 0.0019197 -0.00072078 0.0017769 0.00026264 0.00069452 0.0028971 0.0016732
0.013318 -0.012091 -0.012968 0.32096
1280000000 0.18548 0.26678 -0.0079499 -0.027936 -0.001822 0.0024572 -0.0011721 -0.001927
-0.00056074 0.0030127 0.0025317 0.0010589
-0.0079315 -0.027909 0.0061831 0.38052 -0.023174 -0.0083057 -0.00099745 0.0014851
0.00158 0.001524 0.00052826 0.0019192
-0.0018115 0.0024684 -0.023244 -0.0082131 0.31903 0.1618 0.0013449 -0.00017692
0.00093346 0.0001306 0.00030249 0.00040033
-0.0011898 -0.0019177 -0.0010036 0.0014867 0.0013448 -0.0001811 0.10854 0.25743
0.0004697 -0.01676 0.00062128 -7.9632e-06
-0.00054881 0.003009 0.0016052 0.0014763 0.00095228 0.00010525 0.00041895 -0.01674
0.035613 0.224 0.0028298 -0.014083
0.0025393 0.0010021 0.00047699 0.0019719 0.00031614 0.00042427 0.00063537 3.2514e-06
0.0029175 -0.014055 0.034827 0.32254
1340000000 0.22211 0.23234 -0.017448 -0.018574 0.00082068 0.0042902 -0.0019548 -0.00066377
0.0014328 0.0025273 0.0015607 -0.0014979
-0.017418 -0.01857 0.045361 0.37201 -0.021107 0.0040895 -6.3698e-05 0.0019364
0.0016373 0.0006213 0.0012803 0.00080838
0.00083484 0.0042854 -0.021109 0.0041863 0.34123 0.11379 0.00087636 -0.0008228
0.00052645 -0.00040252 0.00019089 0.0001985
-0.0019501 -0.00065135 -6.2577e-05 0.001926 0.00087774 -0.00082398 0.14136 0.23723
-0.0074449 -0.013889 0.0014513 -0.00022166
0.0014749 0.0025106 0.0016478 0.00059963 0.00054551 -0.00042425 -0.0074821 -0.013871
0.066393 0.21885 -0.0033578 -0.012677
0.0015644 -0.0015511 0.0013211 0.00082552 0.00017233 0.000237 0.0014752 -0.00019739
-0.0032619 -0.012647 0.073814 0.31837
1400000000 0.25431 0.19365 -0.022992 -0.0073303 0.0049432 0.0030328 -0.002002 0.00076516
0.0023998 0.00062742 0.00015076 -0.0013422
-0.022964 -0.0073435 0.082081 0.35889 -0.014579 0.012003 0.0013166 0.0012748
0.00092107 -0.00075406 0.0011704 0.00027674
0.0049457 0.00301 -0.014541 0.012089 0.35424 0.059827 8.0475e-05 -0.0013646
5.3488e-05 -0.00033517 0.00029697 0.00023973
-0.0019933 0.0007645 0.0013327 0.0012599 9.2221e-05 -0.0013659 0.17116 0.20888
-0.0122 -0.0080257 -0.00052779 -0.00090113
0.0024109 0.00063834 0.00090732 -0.00078003 5.345e-05 -0.00034465 -0.012248 -0.0079638
0.099612 0.2136 -0.0093121 -0.0080824
0.00015662 -0.0013156 0.0012133 0.0002884 0.0003538 0.00026276 -0.00054997 -0.00087643
-0.0092254 -0.0079598 0.11912 0.3077
1460000000 0.27663 0.14945 -0.020154 0.0044927 0.005353 -0.0017046 -0.0015058 0.0017113
0.0018497 -0.00074736 -0.00041334 -0.00081994
-0.020135 0.0044729 0.11619 0.33716 -0.0062532 0.014827 0.001687 0.00017127
0.0008183 -0.001073 0.0011147 -0.00060671
0.0053375 -0.0017346 -0.006184 0.014874 0.36006 0.0049598 -0.0010602 -0.0011626
0.00028644 -9.2424e-05 0.00059565 -0.00041534
-0.0015107 0.0017344 0.0016926 0.00014842 -0.0010563 -0.0011517 0.19809 0.17978
-0.012806 -0.0026943 -0.0011109 0.0013
0.0018471 -0.00077839 0.00081537 -0.0011016 0.00028731 -9.2781e-05 -0.012822 -0.0027117
0.12956 0.19829 -0.010756 -0.0029581
-0.00038553 -0.00074919 0.0011336 -0.00059965 0.00061655 -0.00041565 -0.001131 0.0013196
-0.010826 -0.0027922 0.15285 0.28658
1520000000 0.28832 0.10755 -0.014626 0.010053 0.0030699 -0.0039789 0.0001745 0.0024896
0.0017173 -0.0016929 -0.0011495 -0.00016979
-0.014619 0.010026 0.14964 0.32227 0.0011695 0.012875 0.0015545 -0.0008159
0.00012128 -0.00089442 0.00028696 -0.0010333
0.0030575 -0.0039944 0.0012485 0.01288 0.35275 -0.051478 -0.00091365 -0.00034314
0.00059136 -0.0007513 -8.1825e-05 8.5124e-06
0.00016583 0.0024947 0.0015529 -0.00081496 -0.00091082 -0.00034204 0.22197 0.14161
-0.012305 0.0017534 0.0009697 0.0016913
0.0016944 -0.0017295 0.00011446 -0.00090434 0.00058234 -0.00075481 -0.012317 0.0018017
0.15767 0.18329 -0.010877 0.0011899
-0.0011502 -0.00016811 0.00025893 -0.0010459 -9.9847e-05 -4.3671e-05 0.00096211 0.0016807
-0.010956 0.0010563 0.18651 0.26623
1580000000 0.29716 0.061071 -0.0082097 0.013137 -0.00093421 -0.004689 0.0013721 0.0017575
-0.00052394 -0.0019866 -0.00029447 0.0005061
-0.0082166 0.013121 0.17691 0.29747 0.0048623 0.0082749 0.00044081 -0.0015686
-0.00034263 -0.0010571 -0.00022272 -0.00083526
-0.00095173 -0.0046858 0.0049061 0.0082579 0.33219 -0.10917 -0.0014627 0.00048943
-0.00019915 -0.0011104 7.7531e-05 -0.00054269
0.0013714 0.0017573 0.0004345 -0.0015731 -0.0014685 0.00049406 0.2367 0.10163
-0.0097956 0.0057165 0.0016338 0.00059178
-0.00055744 -0.0020139 -0.00037698 -0.0010474 -0.0001996 -0.0011088 -0.0097752 0.0057266
0.18194 0.16457 -0.0088014 0.0064687
-0.00026674 0.00049717 -0.0002308 -0.00082532 9.1231e-05 -0.00053932 0.0016118 0.00054283
-0.0088519 0.0063235 0.21871 0.23917
1640000000 0.29864 0.019254 -0.0016659 0.012225 -0.002639 -0.0024603 0.0025026 0.00095444
-0.00083605 -0.0010806 -0.00036019 0.00068826
-0.0016864 0.01222 0.20646 0.27208 0.0056243 0.0037027 -0.00074222 -0.0016139
-0.0009586 -0.00049042 -0.00054709 -0.00066657
-0.0026535 -0.0024558 0.0056405 0.0036652 0.3034 -0.15815 -0.00087334 0.0012487
-0.0009909 -0.00077447 -0.00010444 -0.00033145
0.0025032 0.00094597 -0.00074908 -0.0016136 -0.00087264 0.0012599 0.24949 0.05165
-0.0064794 0.0066736 0.0020571 -0.00058198
-0.00081476 -0.0010757 -0.00096869 -0.00048522 -0.00099266 -0.00077474 -0.0064654 0.0066886
0.20474 0.13914 -0.0045285 0.0085525
-0.00030117 0.00065436 -0.00054652 -0.00064516 -7.899e-05 -0.00030824 0.0020605 -0.00067356
-0.0044531 0.0084972 0.24469 0.20805
1700000000 0.29057 -0.026371 0.0018076 0.0096373 -0.0034339 0.00013586 0.002916 -0.0010179
-0.0017088 -0.000353 0.00057908 0.00036283
0.0018008 0.0096318 0.22439 0.24023 0.0037782 0.00082783 -0.0013827 -0.00052612
-0.00081292 -6.2936e-06 -0.0009163 -0.00039875
-0.003428 0.00016215 0.0037914 0.00081105 0.25959 -0.19798 0.00033017 0.0015886
-0.0017053 -0.00022693 -0.00058267 -0.00086311
0.0029121 -0.001056 -0.0013814 -0.00053092 0.00033662 0.0015829 0.24599 0.00035202
-0.0046509 0.0072742 0.001274 -0.0019798
-0.0017377 -0.00032845 -0.00083446 -7.2795e-06 -0.0017137 -0.00027497 -0.004619 0.0072423
0.22214 0.11735 -0.00015446 0.0089194
0.00060386 0.00037195 -0.00090375 -0.0003778 -0.00048874 -0.00093304 0.0012776 -0.001973
-0.00020591 0.0090075 0.26129 0.17322
1760000000 0.27733 -0.075037 0.0042816 0.0064881 -0.002184 0.00086878 0.0013274 -0.003252
-0.00096408 0.00071428 0.00038787 -0.00050101
0.0042726 0.00649 0.25011 0.19995 0.0017356 -0.00090604 -0.0011185 0.00019713
-0.0011919 0.00088146 -0.00060987 0.00049052
-0.0021788 0.00089186 0.001738 -0.00091504 0.21041 -0.2307 0.0011085 0.001334
-0.0011701 0.0013533 -0.001373 -0.00053471
0.0013099 -0.0032731 -0.0010994 0.00020463 0.0011278 0.0013272 0.23558 -0.052182
-0.002137 0.006831 -0.00050918 -0.0020495
-0.00096268 0.00066804 -0.0011637 0.00087468 -0.0011283 0.0013422 -0.0021342 0.0068433
0.2371 0.080475 0.0033228 0.0063587
0.00036646 -0.00048858 -0.00062674 0.00051875 -0.001319 -0.00052817 -0.00050454 -0.001984
0.0032639 0.006416 0.27385 0.13526
1820000000 0.25147 -0.11204 0.0046566 0.0028629 -1.9579e-05 0.0023634 -0.00087768 -0.0029883
-0.00079315 0.00067386 3.4101e-05 -0.00011677
0.0046521 0.0028732 0.25952 0.16943 -0.0001147 9.1562e-05 -0.0013124 0.00086615
-0.00011101 0.001458 -0.00050218 0.00056972
-4.8807e-08 0.0023745 -0.00011615 9.3082e-05 0.16053 -0.24606 0.0015437 0.00053743
-0.00036402 0.0021447 -0.0013728 0.00043595
-0.00090803 -0.0030029 -0.0013152 0.00088355 0.001558 0.00054432 0.20375 -0.099844
-0.001038 0.0056088 -0.0015452 -0.0012931
-0.00076581 0.00066774 -0.00012867 0.001449 -0.00040453 0.0021203 -0.00099584 0.0056228
0.2532 0.049252 0.0043355 0.003171
3.2916e-05 -0.00010617 -0.0005212 0.00055913 -0.0013272 0.00047961 -0.0016923 -0.0012514
0.0042136 0.0030966 0.27624 0.099118
1880000000 0.21526 -0.15132 0.002532 0.00052301 -0.00035624 0.0020787 -0.0028494 -0.002247
-0.00028242 0.0012561 0.00033037 -0.00069999
0.0025233 0.00052488 0.26335 0.12285 -0.0020893 0.0016679 -0.00021347 0.0016765
0.00069859 0.0013978 0.0001811 0.00095933
-0.00034547 0.0020848 -0.0020751 0.0016816 0.10845 -0.25546 0.0019817 -0.00099412
0.0014071 0.002025 -0.0010154 0.0014114
-0.0028702 -0.0022476 -0.00021755 0.0016631 0.00196 -0.0010378 0.16163 -0.13912
-0.00078022 0.0045459 -0.0021245 0.00094662
-0.00025414 0.001302 0.00070296 0.0013689 0.0013884 0.0019709 -0.0008272 0.00457
0.2543 0.014422 0.0038802 0.0015537
0.00029745 -0.00068446 0.00017795 0.00097929 -0.00092225 0.0014578 -0.0021775 0.000874
0.0040654 0.0014909 0.27601 0.065063
1940000000 0.17541 -0.17609 0.00031044 -0.001349 0.0013577 0.0018908 -0.0038575 0.00041163
0.001137 0.00088805 -0.00067528 -0.00072937
0.00031149 -0.0013505 0.26322 0.091044 -0.0010304 0.0038844 0.00093916 0.0012549
0.0021312 0.00049926 0.00083524 0.00024013
0.0013701 0.0018811 -0.0010016 0.0038975 0.062262 -0.24885 0.00036764 -0.0023913
0.0025012 0.00053676 0.00028354 0.0016206
-0.0038947 0.00043608 0.00096878 0.0012535 0.00035881 -0.0024125 0.10817 -0.16776
-0.0019326 0.0039439 -0.0010673 0.0017678
0.0010729 0.00094236 0.0021014 0.00049866 0.0024541 0.00054844 -0.0018875 0.0040116
0.25358 -0.0267 0.0029799 -0.0015166
-0.00070665 -0.00068709 0.00084561 0.00021007 0.000288 0.0016095 -0.0010758 0.0017384
0.0030024 -0.001544 0.26495 0.029161
2000000000 0.12907 -0.18944 -0.0035606 0.00055302 0.0024568 0.0015622 -0.0022912 0.0035964
0.00096552 0.00039762 -0.00088149 0.00046288
-0.0035587 0.00054919 0.24833 0.055817 -0.00088426 0.0056327 0.0016381 0.0002426
0.0015907 -0.0015648 0.00054058 9.6812e-05
0.0024775 0.0015564 -0.00084185 0.005646 0.018814 -0.23435 -0.001482 -0.0013617
0.0020553 -0.0011645 0.001699 0.0013646
-0.0023 0.0035899 0.0016269 0.00027741 -0.0015098 -0.0013417 0.054986 -0.17609
-0.0031334 0.0049328 0.00025017 0.002213
0.00089006 0.00036933 0.0015215 -0.0016129 0.0020571 -0.001245 -0.0030552 0.0048777
