!Keysight Technologies,M9804A,MY58100912,A.14.10.03
!Date: Thursday, April 27, 2023 10:28:33
!Correction: S11(C  6-Port  ) 
!S12(C  6-Port  ) 
!S13(C  6-Port  ) 
!S14(C  6-Port  ) 
!S15(C  6-Port  ) 
!S16(C  6-Port  ) 
!S21(C  6-Port  ) 
!S22(C  6-Port  ) 
!S23(C  6-Port  ) 
!S24(C  6-Port  ) 
!S25(C  6-Port  ) 
!S26(C  6-Port  ) 
!S31(C  6-Port  ) 
!S32(C  6-Port  ) 
!S33(C  6-Port  ) 
!S34(C  6-Port  ) 
!S35(C  6-Port  ) 
!S36(C  6-Port  ) 
!S41(C  6-Port  ) 
!S42(C  6-Port  ) 
!S43(C  6-Port  ) 
!S44(C  6-Port  ) 
!S45(C  6-Port  ) 
!S46(C  6-Port  ) 
!S51(C  6-Port  ) 
!S52(C  6-Port  ) 
!S53(C  6-Port  ) 
!S54(C  6-Port  ) 
!S55(C  6-Port  ) 
!S56(C  6-Port  ) 
!S61(C  6-Port  ) 
!S62(C  6-Port  ) 
!S63(C  6-Port  ) 
!S64(C  6-Port  ) 
!S65(C  6-Port  ) 
!S66(C  6-Port  ) 
!S6P File: Measurement: :
# Hz S  RI   R 50
500000000 -0.33659 -0.033398 -0.0097225 -0.0037551 -0.0075993 0.01171 -0.0040121 0.01162
0.012244 0.0041554 -0.0044014 0.0074442
-0.0098364 -0.0038871 -0.41936 -0.047823 0.0074503 -0.011395 0.0015408 0.011821
0.0076169 0.0021516 0.00093741 0.013076
-0.0076368 0.011683 0.0074392 -0.011424 -0.26442 0.21194 0.0070187 0.0032109
2.7628e-05 0.008168 0.00080729 0.011992
-0.0040717 0.011458 0.0015428 0.011821 0.0069995 0.0032237 -0.32701 0.05036
-0.019236 -0.0054086 0.017392 0.026943
0.01221 0.00421 0.0076231 0.0021598 4.7053e-05 0.0082425 -0.019218 -0.005401
-0.22758 -0.17949 -0.027336 0.0041276
-0.0043887 0.0073727 0.00095075 0.013071 0.00077358 0.012 0.017316 0.026874
-0.02732 0.0041382 -0.27234 -0.12909
560000000 -0.31493 0.12593 -0.024 -0.062455 -0.00025102 0.012156 0.0068522 0.0098967
0.010662 0.0037139 0.0095874 0.0077771
-0.024022 -0.062509 -0.376 0.10962 -0.041618 -0.036687 0.013676 0.0037657
-0.013351 -0.0036834 0.0041677 -0.00096765
-1.0082e-05 0.012185 -0.041809 -0.036639 -0.1823 0.25958 -0.00069066 -0.0046158
0.018733 0.0033348 0.0074726 -0.006251
0.0068679 0.0097419 0.013638 0.0037742 -0.00067559 -0.0046774 -0.30188 0.13653
0.0040087 -0.024892 0.0052365 -0.019178
0.010749 0.0033966 -0.013428 -0.0036668 0.018894 0.0034689 0.0039761 -0.024887
-0.2863 -0.0075639 0.0078583 -0.050872
0.0095812 0.0077087 0.0041795 -0.00088428 0.0073281 -0.0064112 0.0051965 -0.019191
0.0078014 -0.050859 -0.33347 0.01978
620000000 -0.27246 0.11068 -0.023023 0.0070658 0.003381 0.0082412 0.0067023 -0.0057684
0.010572 -5.7592e-05 -0.00056939 -0.0021197
-0.023032 0.006952 -0.40193 0.064053 -0.01878 -0.00036387 -0.0015265 -0.0020636
0.010302 -0.0072957 0.00085781 -0.0032454
0.003483 0.0082096 -0.018812 -0.00031375 -0.15227 0.26796 -0.0013927 -0.0053285
-0.0042149 -0.0034671 0.0083274 -0.0033285
0.0069332 -0.0055655 -0.001527 -0.0020622 -0.0014192 -0.0053239 -0.26063 0.14678
-0.038385 -0.018793 0.013998 0.023975
0.010575 -0.0003616 0.010267 -0.0073395 -0.0041877 -0.0034867 -0.038398 -0.018738
-0.20619 -0.044943 -0.040226 0.014457
-0.00013002 -0.002127 0.00090496 -0.0032524 0.0082781 -0.0033068 0.014088 0.023944
-0.04026 0.014443 -0.25137 -0.019729
680000000 -0.23178 0.19395 -0.027886 -0.013893 0.0048467 0.0049559 0.0011998 -0.0072087
-0.003408 -0.010979 0.0048021 -0.0072415
-0.027933 -0.013937 -0.38638 0.16069 -0.032748 -0.0011508 -0.0015345 -0.0002107
-0.0030886 -0.0089402 -0.0010208 -0.0024008
0.0047307 0.0049601 -0.032795 -0.0010642 -0.10167 0.2878 -0.00066238 0.00017779
-0.002499 0.00070305 -0.0030573 -0.0095633
0.0011323 -0.0070832 -0.0015118 -0.00019302 -0.00065277 0.00018391 -0.2184 0.19618
-0.023828 -0.008433 -0.010147 -0.010356
-0.0033522 -0.010729 -0.0031001 -0.0089325 -0.0025031 0.00069825 -0.02386 -0.0084249
-0.25045 0.051411 -0.0057868 -0.0098847
0.0046693 -0.0068955 -0.0010293 -0.0023331 -0.0030287 -0.0096182 -0.01019 -0.010356
-0.0057785 -0.0098914 -0.26229 0.086224
740000000 -0.18909 0.18886 -0.038407 0.026305 0.012434 -0.0052022 -0.00087674 -0.0038484
-0.0043555 -0.0028419 -0.0062232 0.0035715
-0.038326 0.02625 -0.33486 0.17969 -0.034798 0.034597 -0.0010474 -0.0060696
-0.011214 0.0079249 -0.0028549 -0.0060207
0.012377 -0.005229 -0.034764 0.034745 -0.06786 0.2869 -0.0014655 0.0033384
-0.0026705 -0.0035961 -0.0011278 0.00019142
-0.00077449 -0.0037755 -0.0010724 -0.0060575 -0.0014912 0.0033328 -0.20162 0.20374
-0.042356 -0.0080962 0.022361 0.013085
-0.004639 -0.0029042 -0.011237 0.0079786 -0.0026638 -0.003627 -0.042387 -0.0080368
-0.15577 0.073774 -0.042294 0.00054248
-0.0062667 0.0036556 -0.0029812 -0.0059364 -0.0011479 0.0001728 0.022361 0.013113
-0.04225 0.00053488 -0.25324 0.092892
800000000 -0.15694 0.22925 -0.022401 0.017095 0.005044 -0.010467 -0.0048573 -0.0020935
-0.0039468 0.0029761 0.0043002 0.0008351
-0.022362 0.017178 -0.33683 0.24937 -0.0077671 0.033938 -0.0020876 0.002206
-0.00048585 0.0035338 0.0011686 0.005229
0.0050439 -0.010456 -0.0076798 0.033994 -0.02678 0.30985 0.0013092 0.0014136
0.0007108 0.0035562 -0.0017732 0.00092914
-0.0048121 -0.002092 -0.0020777 0.0022025 0.0013036 0.001428 -0.1735 0.23105
-0.028417 0.012569 0.013419 -0.010022
-0.0038524 0.0031862 -0.00045892 0.003536 0.00072599 0.0035461 -0.028409 0.012597
-0.19887 0.09871 -0.017673 0.017313
0.0043306 0.00078684 0.0012254 0.005194 -0.0017783 0.00095721 0.013389 -0.010035
-0.017669 0.017321 -0.24585 0.14668
860000000 -0.12204 0.25064 -0.01704 0.031277 -0.0034884 -0.0096567 -0.0023899 0.0014812
0.0044747 0.0049619 -0.0029756 -0.0027444
-0.017053 0.031245 -0.28897 0.29132 0.0082392 0.033959 0.0003084 0.0020888
0.0045565 0.00022777 0.0034192 -0.00013139
-0.0035093 -0.0096199 0.0083514 0.03397 0.021808 0.31751 -0.00032377 -0.00029934
0.0028794 -0.001633 0.0015757 0.0045914
-0.0024885 0.0015319 0.00032846 0.0020935 -0.00032777 -0.00030562 -0.13794 0.24327
-0.01779 0.018958 -0.006294 -0.0093711
0.004522 0.0050013 0.0045589 0.00017732 0.002875 -0.0016443 -0.017749 0.019012
-0.14992 0.14659 -0.024616 0.015372
-0.0031449 -0.0028745 0.0034479 -8.9048e-05 0.0015745 0.0045842 -0.0063181 -0.0093827
-0.024627 0.015354 -0.19482 0.19048
920000000 -0.096432 0.27376 0.005295 0.037815 -0.0092738 -0.0040659 -0.0017494 0.0024248
0.0012753 0.0015044 0.0024237 -0.0012925
0.0053019 0.037771 -0.25985 0.31224 0.027952 0.021532 0.0015848 0.0010906
0.0067808 -0.00092649 0.0036305 -0.0029705
-0.009281 -0.0040184 0.028038 0.021458 0.06821 0.31766 0.0017545 -0.00012029
0.0012806 -0.00048338 0.00080992 -0.0010457
-0.001755 0.0024132 0.0015905 0.0011077 0.0017494 -0.00011956 -0.11363 0.25945
-0.010391 0.030085 0.0025335 -0.006575
0.0012873 0.0015599 0.0067844 -0.00097662 0.0012769 -0.00048181 -0.010383 0.030135
-0.13981 0.15269 -0.0018023 0.027805
0.0024027 -0.0012882 0.003641 -0.0029652 0.00080591 -0.0010475 0.0025436 -0.0065913
-0.0018333 0.027798 -0.20269 0.20423
980000000 -0.048552 0.29296 0.018065 0.029778 -0.0086071 0.0047627 0.0025361 0.0037438
0.0038904 -0.0018013 -0.0030192 -0.0020115
0.01798 0.029745 -0.20678 0.34561 0.032674 0.0044599 0.0020115 -4.9621e-05
0.00096046 -0.0062014 -0.00074912 -0.0021223
-0.0085887 0.0047734 0.032723 0.0043298 0.11449 0.31058 0.00042728 -0.0012023
-2.7851e-05 -0.0021306 0.0015738 -1.5498e-05
0.0025112 0.0037549 0.0019861 -3.837e-05 0.00042492 -0.0012085 -0.075123 0.27068
0.0075965 0.028441 -0.0094159 -0.0066382
0.0038755 -0.0017593 0.00093169 -0.0062257 -2.6148e-05 -0.002134 0.0076703 0.02845
-0.10806 0.17968 0.0048437 0.018551
-0.003064 -0.0019452 -0.00075374 -0.0021092 0.0015693 -1.0672e-05 -0.0094277 -0.0065987
0.0048295 0.018551 -0.15904 0.25005
1040000000 -0.0053908 0.3007 0.033308 0.017478 -0.00096901 0.0067732 0.0028436 0.00064446
-2.0596e-05 -0.003706 -0.00065189 -0.0015884
0.033266 0.017486 -0.17076 0.35845 0.028822 -0.014856 0.0014382 -0.0016494
-0.0026006 -0.0021857 -0.0015188 -0.0025497
-0.0009368 0.0067933 0.028782 -0.015001 0.16054 0.29645 -0.00052538 -0.0013542
-0.0015427 -0.00073544 -0.00045488 -0.0011839
0.0028294 0.00062572 0.0014137 -0.0016359 -0.00051786 -0.0013588 -0.047631 0.28081
0.018083 0.016839 -0.0030464 0.0023058
-6.019e-05 -0.0036922 -0.0026522 -0.0021742 -0.0015574 -0.00074445 0.018117 0.016824
-0.077244 0.18867 0.013124 0.017814
-0.00065504 -0.0016294 -0.0015491 -0.0025538 -0.00045188 -0.001176 -0.0030438 0.0022984
0.013117 0.017836 -0.13868 0.2716
1100000000 0.04032 0.30768 0.035431 -0.0047299 0.0029889 0.0036335 0.0026075 -0.0014709
-0.002102 -0.0029929 -0.0038154 0.00016722
0.035422 -0.0046981 -0.12728 0.37503 0.014689 -0.027414 3.0934e-05 -0.0018308
-0.0030538 -0.00030853 -0.0033809 -0.00057907
0.0030036 0.0036242 0.014596 -0.027502 0.2066 0.27581 -0.0017674 0.00027414
-0.0016706 0.00065735 -0.00089286 -0.00032571
0.0026137 -0.001472 2.5323e-05 -0.0018324 -0.0017578 0.00027777 -0.0068569 0.28551
0.022398 0.0048814 -0.0021515 0.0010285
-0.0021126 -0.0030138 -0.0030762 -0.0003071 -0.0016686 0.00065747 0.022414 0.0048456
-0.058893 0.20203 0.018655 0.0083282
-0.0038437 0.00025412 -0.0033684 -0.00057164 -0.00089856 -0.00031613 -0.0021493 0.0010675
0.018634 0.0083299 -0.091334 0.30125
1160000000 0.091892 0.30183 0.0235 -0.02083 0.0026809 -0.00063188 -0.00010519 -0.0025507
-0.0040254 -0.00042352 -0.00095116 0.0039983
0.023492 -0.020811 -0.083238 0.3788 -0.0038417 -0.028531 -0.0017756 -0.0015824
-0.0023012 0.0026254 -0.0013416 0.001525
0.0026769 -0.00063958 -0.0039673 -0.028551 0.24939 0.24483 -0.0005895 0.0017005
-0.00039021 0.0017271 -0.0010425 0.00015859
-7.6392e-05 -0.002546 -0.0017918 -0.0015736 -0.00058387 0.0016988 0.032558 0.28246
0.018926 -0.0096134 -0.0025585 0.0056558
-0.0040356 -0.00034553 -0.0023009 0.0026202 -0.00039773 0.001726 0.018911 -0.0096458
-0.02554 0.21118 0.017218 0.00055349
-0.00095176 0.0039787 -0.0013196 0.0015312 -0.0010486 0.00016268 -0.002556 0.0056618
0.017224 0.00055434 -0.044306 0.3038
1220000000 0.13627 0.28965 0.0099648 -0.029708 -0.0015505 -0.00087066 -0.00022778 -0.001148
-0.0024885 0.0025203 0.0012635 0.0019437
0.0099783 -0.029686 -0.039268 0.38991 -0.016617 -0.020609 -0.0024785 0.00045414
0.00027066 0.0027447 -0.00071301 0.0017845
-0.0015605 -0.00086528 -0.01673 -0.020565 0.28833 0.2058 0.00085254 0.0015097
0.00054997 0.0011199 0.00026755 0.00070341
-0.0002103 -0.0011601 -0.0024835 0.00046104 0.00084667 0.001521 0.072108 0.27371
0.0090433 -0.015117 0.0028825 0.0016633
-0.0024691 0.0025345 0.00030342 0.002729 0.00054788 0.0011154 0.0090186 -0.015137
-0.0017082 0.22055 0.013398 -0.012148
0.0013187 0.0018899 -0.00069857 0.0017874 0.0002703 0.00070677 0.0028873 0.0016635
0.01339 -0.012142 -0.012918 0.32097
1280000000 0.18549 0.26675 -0.007963 -0.02794 -0.0018168 0.0024538 -0.0011642 -0.0019315
-0.00057113 0.0030318 0.0025357 0.0010108
-0.0079186 -0.027922 0.0062254 0.38053 -0.023152 -0.0083091 -0.0010177 0.0014805
0.0015951 0.0014994 0.00044387 0.0019707
-0.0018076 0.0024488 -0.02323 -0.008209 0.31903 0.1618 0.0013296 -0.00017617
0.00094121 0.00012801 0.0002871 0.00041318
-0.0011755 -0.0019178 -0.001006 0.0014954 0.0013335 -0.00017688 0.10846 0.25741
0.00047212 -0.016735 0.0006459 1.1624e-05
-0.00054473 0.0029935 0.0015983 0.0014951 0.00093859 0.00012815 0.0004467 -0.016742
0.03567 0.22389 0.0027267 -0.013956
0.0025166 0.001047 0.00045124 0.0019578 0.00028223 0.00041246 0.00063277 8.4332e-06
0.0027328 -0.013947 0.034878 0.32243
1340000000 0.22214 0.23234 -0.017447 -0.018578 0.00082565 0.0042872 -0.0019575 -0.0006817
0.0014385 0.0025169 0.00157 -0.0015491
-0.017405 -0.018568 0.045407 0.372 -0.021105 0.0040941 -7.3964e-05 0.0019189
0.0016383 0.00060123 0.0012827 0.00083217
0.00084588 0.0042921 -0.021103 0.0041965 0.34125 0.11378 0.00087837 -0.00084385
0.000532 -0.00041093 0.00020108 0.00022194
-0.0019543 -0.0006522 -7.1361e-05 0.0019273 0.000887 -0.00084214 0.14131 0.23731
-0.0074911 -0.013886 0.0014901 -0.00012425
0.0014541 0.0025207 0.0016428 0.0005926 0.00052585 -0.00041673 -0.0075158 -0.013876
0.066433 0.21891 -0.0033988 -0.012687
0.0015853 -0.0015524 0.0012954 0.00081478 0.00020287 0.00021696 0.0014799 -0.00011624
-0.003395 -0.012674 0.073976 0.31854
1400000000 0.25431 0.19361 -0.023002 -0.0073432 0.0049352 0.0030299 -0.002014 0.00074803
0.0024127 0.000656 0.00015772 -0.0013552
-0.022973 -0.0073478 0.08209 0.35888 -0.01459 0.012006 0.0013133 0.0012721
0.00091023 -0.00077574 0.0012023 0.00029192
0.0049503 0.0030179 -0.014552 0.012089 0.35423 0.059803 8.2019e-05 -0.001374
3.5181e-05 -0.00033584 0.00035946 0.00025542
-0.0020023 0.00077883 0.0013295 0.0012681 7.3079e-05 -0.0013747 0.17114 0.20895
-0.012226 -0.0080017 -0.00055074 -0.00088895
0.0024238 0.00060351 0.00091031 -0.00079081 3.8828e-05 -0.00033601 -0.012251 -0.0079759
0.099585 0.21372 -0.0092069 -0.0079602
0.00012928 -0.0013376 0.001214 0.00030041 0.00035766 0.0002627 -0.0005878 -0.00089565
-0.0091993 -0.0079763 0.11891 0.30766
1460000000 0.27666 0.14947 -0.020149 0.0044984 0.0053506 -0.0017081 -0.0015243 0.0017033
0.0018364 -0.0007467 -0.00038339 -0.00078216
-0.020139 0.0044923 0.11623 0.33716 -0.0062568 0.014842 0.0016966 0.00014508
0.00080803 -0.0010693 0.0011583 -0.0006061
0.0053533 -0.0017121 -0.0061837 0.014887 0.36006 0.0049779 -0.0010722 -0.0011679
0.00025518 -8.929e-05 0.00061984 -0.00040569
-0.0015121 0.0016971 0.0016921 0.00012667 -0.0010747 -0.0011762 0.19808 0.17985
-0.012795 -0.0027141 -0.001134 0.001318
0.0018447 -0.00077835 0.00080423 -0.0010842 0.00024397 -8.385e-05 -0.012806 -0.0026775
0.12949 0.19838 -0.010766 -0.0028333
-0.00038047 -0.00083174 0.0011419 -0.00062328 0.00063699 -0.00041942 -0.001134 0.0013251
-0.010762 -0.0028475 0.15275 0.28645
1520000000 0.28832 0.10751 -0.014632 0.010048 0.0030557 -0.0039761 0.00016363 0.0025019
0.0016916 -0.001718 -0.0011495 -0.00015987
-0.01463 0.01003 0.14968 0.32227 0.0011701 0.012881 0.001561 -0.00080752
0.00012079 -0.00089585 0.0002752 -0.0010384
0.003025 -0.00398 0.0012479 0.012891 0.35275 -0.051524 -0.0009155 -0.00034189
0.00057549 -0.00073372 -9.9424e-05 -5.1247e-05
0.00016493 0.0024986 0.0015604 -0.000814 -0.00091891 -0.00033495 0.22199 0.14164
-0.01229 0.0017808 0.00096944 0.0016399
0.0016894 -0.0016918 0.00011449 -0.00089807 0.00057455 -0.00073525 -0.012296 0.0018057
0.15759 0.1832 -0.010909 0.0011785
-0.001107 -0.00016063 0.0002716 -0.0010379 -0.00010497 -4.4417e-05 0.00095815 0.0016321
-0.010906 0.0011542 0.18642 0.26625
1580000000 0.29716 0.061056 -0.0082104 0.013131 -0.000922 -0.0046975 0.0013538 0.0017809
-0.00054831 -0.0020166 -0.00030123 0.00049553
-0.0082191 0.013127 0.17697 0.29746 0.0048598 0.0082737 0.00042674 -0.0015685
-0.00036434 -0.0010436 -0.00023002 -0.000832
-0.00095922 -0.0046813 0.0049125 0.0082514 0.33217 -0.10916 -0.0014773 0.00049396
-0.00018766 -0.0011031 9.5616e-05 -0.00055819
0.0013554 0.0017594 0.00041879 -0.0015707 -0.0014822 0.00049158 0.23675 0.10167
-0.0097735 0.0057231 0.0016272 0.00056691
-0.00056597 -0.0020082 -0.00037266 -0.0010438 -0.00018425 -0.0011111 -0.0097628 0.0057454
0.18192 0.16461 -0.0088243 0.0063467
-0.00030638 0.00048938 -0.00024649 -0.00082945 7.5344e-05 -0.00057359 0.0016467 0.00056571
-0.008823 0.0063432 0.21869 0.23925
1640000000 0.29866 0.019236 -0.0016657 0.012231 -0.0026201 -0.002478 0.002506 0.00097204
-0.00078733 -0.0010969 -0.00031674 0.00064495
-0.0016797 0.012222 0.20649 0.27206 0.0056246 0.0036954 -0.00073416 -0.0016118
-0.00095243 -0.00048352 -0.00053965 -0.00066288
-0.0026612 -0.0024602 0.0056481 0.0036621 0.3034 -0.1582 -0.0008608 0.0012759
-0.00099236 -0.00078642 -6.9819e-05 -0.00029098
0.0025377 0.000968 -0.00073479 -0.0016119 -0.0008649 0.0012742 0.2495 0.051638
-0.0064746 0.0066362 0.0020202 -0.00065303
-0.00081666 -0.001075 -0.00096623 -0.00047595 -0.00099274 -0.00078297 -0.0064536 0.0066649
0.20473 0.13915 -0.0045057 0.0084319
-0.00028994 0.00071102 -0.0005396 -0.00065554 -5.3178e-05 -0.00029443 0.002024 -0.00066726
-0.0045092 0.0084255 0.24472 0.20813
1700000000 0.29057 -0.026371 0.0018089 0.0096395 -0.0034418 0.00012924 0.0028994 -0.0010306
-0.0017336 -0.00033352 0.00059041 0.0003779
0.0018077 0.0096438 0.22443 0.2402 0.0037812 0.0008131 -0.0013989 -0.00054956
-0.00083532 -1.4559e-05 -0.00090192 -0.00039352
-0.0034673 0.00012892 0.0037903 0.00079304 0.25958 -0.19802 0.00029736 0.0015757
-0.0017262 -0.00029713 -0.00054144 -0.00092258
0.0029046 -0.0010383 -0.0014029 -0.00053296 0.00030154 0.001588 0.2461 0.00032504
-0.0046181 0.0071909 0.0013203 -0.001933
-0.0017672 -0.0003487 -0.00084312 -1.6138e-05 -0.0017367 -0.00029711 -0.0046087 0.0072188
0.22221 0.11742 -0.00014665 0.0089283
0.00054688 0.00039975 -0.00091765 -0.00037734 -0.00053642 -0.00090279 0.0013429 -0.001944
-0.00014014 0.0089256 0.26121 0.17327
1760000000 0.27731 -0.074995 0.0042893 0.006492 -0.0022017 0.00086261 0.0013367 -0.0032853
-0.00099196 0.00067693 0.00038704 -0.00047867
0.0042766 0.0065019 0.25015 0.19991 0.0017194 -0.00090795 -0.0011012 0.00018111
-0.001183 0.00086272 -0.0006145 0.00051718
-0.0021838 0.0008796 0.0017207 -0.00092394 0.21039 -0.23068 0.0011002 0.0013041
-0.0011459 0.0013201 -0.0013326 -0.00053046
0.0013546 -0.0032849 -0.0011064 0.0001893 0.0010758 0.0013271 0.23556 -0.052258
-0.0021443 0.0067984 -0.00052034 -0.0020112
-0.00093758 0.00069494 -0.0011691 0.00087545 -0.0011499 0.0013197 -0.0021401 0.0068035
0.23709 0.080543 0.0033239 0.0063992
0.00042445 -0.00051945 -0.00061715 0.00050848 -0.0013613 -0.0005002 -0.00052305 -0.0020038
0.0033097 0.0064086 0.27381 0.13529
1820000000 0.25146 -0.11208 0.0046588 0.0028694 -3.366e-05 0.0023473 -0.00084759 -0.0029945
-0.00074645 0.00066675 5.1413e-05 -9.7069e-05
0.0046502 0.0028551 0.25954 0.16941 -0.00012117 8.9364e-05 -0.0013187 0.00088344
-0.00011876 0.001447 -0.00051832 0.00056737
-1.4613e-05 0.0023304 -0.00011688 8.7124e-05 0.16054 -0.24605 0.0015525 0.00053557
-0.00042354 0.0021431 -0.0013652 0.00046017
-0.00089362 -0.0029906 -0.001313 0.00088308 0.0015561 0.00055078 0.20385 -0.099821
-0.0010019 0.0056658 -0.0016036 -0.0012524
-0.00076459 0.00067775 -0.00012502 0.0014454 -0.00041635 0.00214 -0.00099888 0.0056907
0.25318 0.049308 0.0043111 0.0031526
4.8423e-05 -9.1686e-05 -0.00051767 0.00057164 -0.0013827 0.00048141 -0.0015777 -0.0012244
0.0043185 0.0031386 0.27611 0.099098
1880000000 0.21527 -0.15134 0.0025343 0.0005208 -0.00036297 0.0020676 -0.0028548 -0.0022432
-0.00028839 0.0013178 0.00028378 -0.00064682
0.0025342 0.00052335 0.26338 0.12282 -0.0020771 0.0016716 -0.00022102 0.0016727
0.00066539 0.0013803 0.0001746 0.0010098
-0.00034222 0.0020629 -0.0020793 0.0016779 0.10844 -0.25547 0.0019363 -0.0010057
0.0013521 0.0020358 -0.00094457 0.0014894
-0.0028694 -0.0022464 -0.00019488 0.0016802 0.001939 -0.0010233 0.16159 -0.13907
-0.00091658 0.0045481 -0.002146 0.00094617
-0.00027557 0.001317 0.0006868 0.001383 0.0013735 0.002011 -0.00091389 0.0045311
0.2543 0.014281 0.0039117 0.0014848
0.00029426 -0.00069574 0.00019131 0.0010024 -0.00097121 0.0014694 -0.0021787 0.00096801
0.0039128 0.0014995 0.27592 0.065057
1940000000 0.17542 -0.17611 0.00031637 -0.0013331 0.0013762 0.0019044 -0.0038958 0.00042933
0.0010706 0.00093095 -0.00070205 -0.00068798
0.00032103 -0.0013218 0.26321 0.091014 -0.0010398 0.0038939 0.00095651 0.001289
0.0021022 0.00049943 0.00083143 0.00022745
0.0013752 0.0019246 -0.0010123 0.0038983 0.062252 -0.24889 0.00038604 -0.0023633
0.002466 0.00056862 0.00030029 0.0016046
-0.003862 0.00044492 0.00097262 0.0012891 0.00039568 -0.0023779 0.10807 -0.16779
-0.0019272 0.003971 -0.0011096 0.0017643
0.001066 0.00091964 0.0020942 0.00049625 0.0024695 0.00055978 -0.0018848 0.0039771
0.25365 -0.026695 0.0030225 -0.0015639
-0.00069346 -0.00065954 0.00083779 0.00025108 0.000302 0.0016043 -0.0010995 0.0017382
0.0030301 -0.0015861 0.26482 0.02915
2000000000 0.1291 -0.18946 -0.0035443 0.00054827 0.0024468 0.0015916 -0.0023065 0.0035432
0.00091063 0.00037535 -0.00083284 0.00047319
-0.0035538 0.00051941 0.24836 0.055781 -0.00090155 0.0056153 0.001631 0.00027125
0.0015529 -0.0016141 0.00052697 0.00010981
0.0024416 0.0015401 -0.00084708 0.0056219 0.018732 -0.23441 -0.0015117 -0.0013307
0.0020392 -0.0012083 0.0016956 0.0013453
-0.0022996 0.0035578 0.0016117 0.00026482 -0.0015255 -0.001332 0.055003 -0.17607
-0.003092 0.0048483 0.00025259 0.0022287
0.00094923 0.00032011 0.001534 -0.0016521 0.0020296 -0.0012154 -0.003071 0.0049018
