!Keysight Technologies,M9804A,MY58100912,A.14.10.03
!Date: Thursday, April 27, 2023 10:28:33
!Correction: S11(C  6-Port  ) 
!S12(C  6-Port  ) 
!S13(C  6-Port  ) 
!S14(C  6-Port  ) 
!S15(C  6-Port  ) 
!S16(C  6-Port  ) 
!S21(C  6-Port  ) 
!S22(C  6-Port  ) 
!S23(C  6-Port  ) 
!S24(C  6-Port  ) 
!S25(C  6-Port  ) 
!S26(C  6-Port  ) 
!S31(C  6-Port  ) 
!S32(C  6-Port  ) 
!S33(C  6-Port  ) 
!S34(C  6-Port  ) 
!S35(C  6-Port  ) 
!S36(C  6-Port  ) 
!S41(C  6-Port  ) 
!S42(C  6-Port  ) 
!S43(C  6-Port  ) 
!S44(C  6-Port  ) 
!S45(C  6-Port  ) 
!S46(C  6-Port  ) 
!S51(C  6-Port  ) 
!S52(C  6-Port  ) 
!S53(C  6-Port  ) 
!S54(C  6-Port  ) 
!S55(C  6-Port  ) 
!S56(C  6-Port  ) 
!S61(C  6-Port  ) 
!S62(C  6-Port  ) 
!S63(C  6-Port  ) 
!S64(C  6-Port  ) 
!S65(C  6-Port  ) 
!S66(C  6-Port  ) 
!S6P File: Measurement: :
# Hz S  RI   R 50
500000000 -0.33535 -0.032528 -0.0095076 -0.0035402 -0.0079783 0.011546 -0.0039767 0.011918
0.012061 0.0038464 -0.0047811 0.00803
-0.0096412 -0.0034012 -0.41855 -0.047599 0.0077674 -0.011678 0.0019255 0.011017
0.0073668 0.0025042 0.00068214 0.012218
-0.0079288 0.011667 0.0077598 -0.011592 -0.26377 0.2115 0.0067604 0.0028083
0.00025112 0.0081591 0.00031039 0.012074
-0.0037398 0.011866 0.0020486 0.011427 0.0068631 0.0029533 -0.32702 0.04836
-0.018822 -0.0044188 0.017408 0.025063
0.012246 0.0039894 0.0073358 0.0025373 0.00015056 0.008102 -0.01866 -0.0044073
-0.2285 -0.18005 -0.026438 0.0050973
-0.0041592 0.0081143 0.0018089 0.012673 0.00052811 0.011433 0.01741 0.024024
-0.026962 0.0054539 -0.27249 -0.12923
560000000 -0.31476 0.12568 -0.023949 -0.063259 -5.4722e-05 0.012525 0.006154 0.010132
0.010711 0.0038637 0.0096338 0.0071851
-0.024124 -0.063223 -0.37593 0.10902 -0.04132 -0.036531 0.013901 0.0034359
-0.012587 -0.004492 0.0048876 -0.00041623
0.00019539 0.012435 -0.041508 -0.036504 -0.18264 0.2586 -0.00062282 -0.0047908
0.018174 0.0035168 0.0069937 -0.0062288
0.0063498 0.010174 0.013965 0.0032746 -0.00050859 -0.0045218 -0.30102 0.13633
0.0038801 -0.025471 0.005487 -0.019786
0.010451 0.0045627 -0.012429 -0.0044895 0.018221 0.0031078 0.0040948 -0.025819
-0.28718 -0.0064008 0.0059564 -0.050878
0.0092997 0.0071497 0.0046035 -8.0104e-05 0.0070351 -0.0059807 0.0058188 -0.019059
0.0065993 -0.051574 -0.33159 0.017999
620000000 -0.2723 0.11056 -0.023111 0.0067054 0.0034511 0.0084557 0.0067756 -0.0055475
0.010811 -0.00097066 0.0002007 -0.0016289
-0.023048 0.0066759 -0.40196 0.063364 -0.018888 -0.00065322 -0.0017011 -0.0019246
0.01022 -0.0076426 0.00068369 -0.002712
0.0034535 0.0083896 -0.01894 -0.00062146 -0.15264 0.26738 -0.0016708 -0.0048928
-0.0043257 -0.0037015 0.0079329 -0.0032891
0.0065371 -0.0055049 -0.0016186 -0.0019673 -0.0015103 -0.0048092 -0.26033 0.14676
-0.03897 -0.019378 0.01475 0.023583
0.011297 -0.0011221 0.010333 -0.0077338 -0.0044132 -0.0038104 -0.038512 -0.01937
-0.20495 -0.043091 -0.040227 0.014711
-9.7217e-05 -0.0022616 0.0011181 -0.0032292 0.0078437 -0.0033147 0.013601 0.024302
-0.039938 0.014738 -0.24998 -0.017909
680000000 -0.23162 0.19384 -0.027986 -0.013841 0.0046259 0.0053626 0.00035356 -0.0077124
-0.0028681 -0.011179 0.0046591 -0.0082743
-0.028029 -0.013816 -0.3865 0.16011 -0.033042 -0.0011797 -0.0016305 -0.0005389
-0.002842 -0.0087804 -0.00060395 -0.0025526
0.0046677 0.0052695 -0.033049 -0.0011317 -0.10215 0.28725 -0.00047268 0.00017916
-0.0022915 0.001187 -0.0027997 -0.009606
0.000854 -0.0074866 -0.001632 -0.00035884 -0.00037409 0.0003622 -0.21883 0.19597
-0.023824 -0.0088482 -0.010698 -0.0094649
-0.0031323 -0.01112 -0.0027792 -0.0087591 -0.0023108 0.00069457 -0.023489 -0.0085867
-0.25192 0.051973 -0.0048605 -0.010026
0.0052783 -0.0078241 -0.00044711 -0.0021319 -0.0031342 -0.0089303 -0.011405 -0.010238
-0.0051626 -0.010132 -0.26396 0.086366
740000000 -0.18922 0.18898 -0.038541 0.026431 0.012484 -0.0052319 -0.00094236 -0.0041579
-0.0046523 -0.0022134 -0.006082 0.0031452
-0.038552 0.026367 -0.33504 0.1791 -0.035173 0.035037 -0.00063357 -0.0061089
-0.011677 0.0091094 -0.0022452 -0.006328
0.012389 -0.0051147 -0.035045 0.035106 -0.068785 0.28627 -0.0014103 0.0035769
-0.0031378 -0.0039121 -0.00065421 0.00064387
-0.00083907 -0.0039936 -0.00073399 -0.0059862 -0.0018972 0.0037386 -0.2014 0.20277
-0.042401 -0.007665 0.022868 0.012358
-0.0048758 -0.0025518 -0.011366 0.0090267 -0.0029077 -0.0043023 -0.04209 -0.0074507
-0.15835 0.073683 -0.04197 0.0013127
-0.0059847 0.0037136 -0.0023956 -0.0060314 -0.0019642 0.00064674 0.023256 0.012776
-0.041914 0.0011383 -0.25143 0.092917
800000000 -0.15717 0.22881 -0.022524 0.017223 0.0053387 -0.010493 -0.0047719 -0.0019968
-0.0040513 0.0031363 0.0046671 0.00061689
-0.022503 0.017239 -0.33722 0.249 -0.0078532 0.034158 -0.0019033 0.002347
-0.0005503 0.0035755 0.0014796 0.0053196
0.0052541 -0.010425 -0.0077705 0.03423 -0.027362 0.30987 0.0013059 0.0014181
0.00072867 0.0036154 -0.0019497 0.0010784
-0.0047598 -0.0019004 -0.0019228 0.0024495 0.0012283 0.0013674 -0.1741 0.2308
-0.028727 0.012946 0.013028 -0.0097172
-0.0039618 0.0029652 -0.00051866 0.0034856 0.00080881 0.0034896 -0.028811 0.012947
-0.19909 0.098357 -0.017992 0.017968
0.0043348 0.00076396 0.0013896 0.0053185 -0.0019182 0.00076723 0.01314 -0.0097737
-0.018284 0.017736 -0.24534 0.14704
860000000 -0.12234 0.25037 -0.017085 0.031417 -0.0035265 -0.0097896 -0.0024492 0.0013779
0.0044025 0.004882 -0.0025949 -0.0032798
-0.017115 0.031348 -0.28942 0.2911 0.0082417 0.034142 0.00047327 0.002088
0.0044393 -0.00010758 0.0034702 -0.00018601
-0.0035415 -0.0097459 0.008356 0.034177 0.021214 0.31778 -0.00026636 -0.00032393
0.0025756 -0.0016887 0.0015707 0.0044429
-0.002474 0.0015063 0.00042035 0.0021168 -0.00027227 -0.00038715 -0.13819 0.24302
-0.018197 0.018661 -0.0058422 -0.0093815
0.0047403 0.0050072 0.0045381 8.1038e-05 0.0025439 -0.001613 -0.018059 0.018776
-0.15059 0.14702 -0.024375 0.015412
-0.0026846 -0.0030499 0.0034492 -8.0021e-05 0.0017379 0.0045431 -0.0060678 -0.0090706
-0.023949 0.014875 -0.19439 0.1919
920000000 -0.096879 0.27349 0.0053587 0.03806 -0.0093737 -0.0041096 -0.0017762 0.0025035
0.0014017 0.001392 0.0023655 -0.0013237
0.0053125 0.038063 -0.26001 0.31196 0.028188 0.021673 0.0016328 0.0011731
0.0066923 -0.00086308 0.0036033 -0.0028599
-0.0093944 -0.0040715 0.028316 0.021628 0.06785 0.31809 0.001759 -8.9283e-05
0.0013019 -0.00055776 0.0007486 -0.001036
-0.0017891 0.002503 0.0016593 0.0011452 0.0017907 -0.00010085 -0.11402 0.25978
-0.01055 0.030226 0.0026658 -0.0059968
0.0013627 0.0014892 0.0067342 -0.00078678 0.001235 -0.00044022 -0.010434 0.030018
-0.13976 0.15249 -0.0024793 0.027537
0.0023853 -0.0015084 0.0037957 -0.0027283 0.00073123 -0.0009696 0.0025813 -0.0060661
-0.0024103 0.027502 -0.20297 0.20588
980000000 -0.049085 0.29295 0.017949 0.030008 -0.0087097 0.0047944 0.0025273 0.003721
0.004013 -0.0017846 -0.0030169 -0.002069
0.017916 0.029965 -0.20726 0.34538 0.032981 0.0044529 0.0019245 -9.7465e-05
0.00094675 -0.0061487 -0.00055317 -0.0023332
-0.0086878 0.0048218 0.033041 0.0043645 0.11426 0.31103 0.00045651 -0.0011927
3.5801e-05 -0.0020928 0.0016879 -0.00012697
0.0025147 0.0037438 0.0018734 -7.0652e-05 0.00042278 -0.0012054 -0.075851 0.27116
0.0076045 0.028702 -0.0094464 -0.0064894
0.0039357 -0.0017857 0.00085628 -0.0062133 5.3069e-06 -0.0021075 0.0076074 0.028764
-0.10807 0.17953 0.0049443 0.018615
-0.0031929 -0.0022172 -0.00065368 -0.0021737 0.001627 -9.0609e-05 -0.0095432 -0.0066503
0.0049192 0.018532 -0.15898 0.25104
1040000000 -0.0059137 0.30092 0.033414 0.017683 -0.0010011 0.0069557 0.0028674 0.00060837
-0.00016725 -0.0037885 -0.00056963 -0.0013891
0.033351 0.017698 -0.1714 0.35838 0.028991 -0.015018 0.0013708 -0.0016882
-0.0026995 -0.0022368 -0.0014618 -0.0025952
-0.00098887 0.0069574 0.028978 -0.01515 0.16058 0.29698 -0.00057605 -0.0013637
-0.0015134 -0.000783 -0.0003445 -0.0012126
0.0028903 0.00059964 0.0013271 -0.0016954 -0.00057002 -0.0013822 -0.047746 0.2813
0.018522 0.01712 -0.0029815 0.0021711
-0.00014318 -0.0037031 -0.0026483 -0.0023356 -0.0014697 -0.00083294 0.018537 0.017187
-0.077222 0.18906 0.013703 0.017856
-0.00062366 -0.0014251 -0.001544 -0.0026635 -0.00037995 -0.001256 -0.0029819 0.0021916
0.013672 0.017945 -0.13801 0.27222
1100000000 0.039876 0.30787 0.035728 -0.0046961 0.003115 0.003733 0.0025155 -0.0015537
-0.0021935 -0.0030934 -0.003932 -1.1269e-05
0.03569 -0.0046645 -0.1278 0.37518 0.01469 -0.027728 -4.3485e-05 -0.001852
-0.0031794 -0.00039662 -0.0035049 -0.00052969
0.00312 0.0037027 0.014606 -0.027813 0.20682 0.27619 -0.0017562 0.00030402
-0.0017106 0.00068801 -0.00095046 -0.00046548
0.0024897 -0.0015171 -5.9418e-05 -0.0018607 -0.0017549 0.00031811 -0.006749 0.28607
0.022916 0.0047489 -0.0022065 0.00099792
-0.0021777 -0.003035 -0.0031825 -0.00035483 -0.0017087 0.00067309 0.022927 0.0047028
-0.058611 0.20235 0.018876 0.0084242
-0.0039009 3.0563e-05 -0.0033727 -0.00056499 -0.0010263 -0.00048373 -0.0021987 0.0010585
0.01874 0.0084271 -0.091172 0.3014
1160000000 0.091614 0.30226 0.023596 -0.021097 0.0027974 -0.00062453 -0.00015963 -0.0026035
-0.0040718 -0.00037879 -0.00086595 0.0040909
0.023591 -0.021041 -0.083708 0.37906 -0.0039421 -0.028718 -0.0017234 -0.0016195
-0.0021725 0.0026261 -0.0012834 0.0015442
0.0028076 -0.00065874 -0.0040723 -0.028718 0.24969 0.24503 -0.00055868 0.0016706
-0.0003622 0.0017159 -0.0010975 4.7955e-05
-0.00016726 -0.0025674 -0.0017394 -0.0016325 -0.00058245 0.0016687 0.032768 0.28286
0.019183 -0.010033 -0.0027346 0.0056111
-0.0040709 -0.00029864 -0.0022582 0.0026236 -0.00036528 0.0017497 0.019195 -0.010043
-0.025325 0.2116 0.017426 0.00029078
-0.00090736 0.0038226 -0.0010973 0.00169 -0.0010247 -3.2025e-05 -0.002702 0.0056638
0.017603 0.00021914 -0.044134 0.30465
1220000000 0.13601 0.29 0.010015 -0.030024 -0.0015138 -0.0010189 -0.00020021 -0.0010929
-0.00248 0.0025957 0.0012793 0.0017405
0.010031 -0.029993 -0.039439 0.39036 -0.016865 -0.02069 -0.0024689 0.00047441
0.00033486 0.0028259 -0.00063788 0.0017107
-0.0015179 -0.0010215 -0.016981 -0.020621 0.28867 0.20573 0.00088404 0.0015045
0.00062043 0.0010969 0.00026966 0.00068446
-0.00019046 -0.0010935 -0.0024646 0.00051421 0.00087796 0.001531 0.072594 0.27385
0.0089731 -0.015613 0.003002 0.0016528
-0.0024463 0.0025974 0.00029599 0.0028149 0.00058187 0.0010871 0.0089581 -0.01558
-0.0015112 0.22095 0.013488 -0.012409
0.0014367 0.0017925 -0.00066791 0.0018212 0.00018758 0.00073748 0.0029842 0.00165
0.013541 -0.012258 -0.011879 0.32143
1280000000 0.18538 0.26713 -0.0080854 -0.028264 -0.0019005 0.0023346 -0.0011074 -0.001917
-0.00056201 0.003066 0.0024735 0.0010542
-0.0080544 -0.02822 0.0064343 0.38086 -0.023377 -0.0081665 -0.00091823 0.0014928
0.0015992 0.0014625 0.00051947 0.0019416
-0.0018668 0.0023568 -0.023445 -0.0080714 0.3192 0.16153 0.0013096 -0.00021305
0.00088649 0.00010452 0.00023186 0.0004525
-0.0011539 -0.0019219 -0.00092422 0.0014743 0.0012838 -0.00023283 0.10896 0.25722
0.00017061 -0.017001 0.00056315 4.5721e-05
-0.00053677 0.0030732 0.0015969 0.0014267 0.00092626 9.8481e-05 0.00018954 -0.017003
0.03579 0.22442 0.0028606 -0.014245
0.0025493 0.0010023 0.00056169 0.0019768 0.00027367 0.00037127 0.00052181 1.0895e-05
0.0027315 -0.014306 0.035762 0.32305
1340000000 0.22208 0.23263 -0.017712 -0.018752 0.00072124 0.0042722 -0.0018794 -0.00064743
0.0014529 0.0025639 0.0015247 -0.0014972
-0.017685 -0.018739 0.045632 0.372 -0.021178 0.0042616 -4.1267e-05 0.0019048
0.0016434 0.00060756 0.0013134 0.00080239
0.00072667 0.0042804 -0.021172 0.0043696 0.34099 0.11354 0.00084394 -0.00083148
0.00048741 -0.00042388 0.00018373 0.0002539
-0.0018862 -0.00063611 -4.6745e-05 0.0019377 0.00081889 -0.000839 0.14151 0.2369
-0.007804 -0.013914 0.0014024 -8.4069e-05
0.0015261 0.0025572 0.0016416 0.00055195 0.00051561 -0.00039945 -0.0078087 -0.013904
0.066768 0.21944 -0.0034535 -0.012701
0.0014334 -0.0015358 0.0012938 0.00080513 0.00019662 0.00024075 0.0014674 -0.00013337
-0.0034451 -0.012839 0.075247 0.31858
1400000000 0.25436 0.19369 -0.023294 -0.007346 0.0049318 0.0031088 -0.0020023 0.00074355
0.0025017 0.00060923 0.00011951 -0.0013207
-0.023254 -0.0073711 0.082374 0.35854 -0.014487 0.012116 0.0012844 0.0012419
0.00089069 -0.00078736 0.0011337 0.00028011
0.0049229 0.0030798 -0.014441 0.012204 0.354 0.059786 0.00010394 -0.0013199
5.5651e-05 -0.00033648 0.00035095 0.00021528
-0.002 0.0007584 0.0012876 0.0012466 0.00010669 -0.001338 0.17103 0.2085
-0.01267 -0.007834 -0.00055196 -0.00092141
0.0025281 0.00063657 0.0009024 -0.00078903 3.156e-05 -0.00027166 -0.012655 -0.0078532
0.10025 0.21409 -0.0095739 -0.0082692
0.00013188 -0.0013658 0.0011484 0.00022171 0.0003812 0.00026735 -0.00057365 -0.00094395
-0.00956 -0.0081836 0.12022 0.30775
1460000000 0.27641 0.14935 -0.020373 0.0046972 0.0053691 -0.0016939 -0.0014564 0.0016886
0.0019068 -0.00084643 -0.00035685 -0.000835
-0.020339 0.0046716 0.11616 0.33653 -0.0060943 0.014866 0.0016634 0.00016322
0.00082806 -0.0010475 0.0011449 -0.00064229
0.0053712 -0.0017273 -0.0060167 0.014929 0.35979 0.0051532 -0.0010597 -0.0011417
0.00022475 -0.0001478 0.00067157 -0.00040723
-0.0014228 0.0016828 0.001656 0.00015019 -0.0010494 -0.0011433 0.19779 0.1795
-0.012964 -0.0022686 -0.0011426 0.0013867
0.0018938 -0.00081944 0.00083853 -0.0010291 0.00025181 -0.00014312 -0.012983 -0.0022685
0.13018 0.1988 -0.01104 -0.0028842
-0.00032253 -0.0007779 0.0011411 -0.0006813 0.00069665 -0.00035636 -0.001239 0.0014022
-0.011125 -0.0029138 0.15369 0.28618
1520000000 0.28788 0.10743 -0.01475 0.010301 0.0030256 -0.0039866 0.00015871 0.0025146
0.001647 -0.0017662 -0.001085 -0.00013056
-0.014742 0.010275 0.14929 0.32164 0.0012865 0.012823 0.0015617 -0.00080324
0.00012154 -0.00087503 0.00025152 -0.0010227
0.002997 -0.0040146 0.0013578 0.012826 0.35245 -0.051211 -0.00089127 -0.00033087
0.0005552 -0.00075552 2.1964e-05 -6.8619e-05
0.00016826 0.0025173 0.0015571 -0.00079821 -0.00090878 -0.00031624 0.22154 0.1414
-0.012193 0.0021675 0.000921 0.0016744
0.0016243 -0.0017605 0.00010702 -0.00087095 0.00051226 -0.00074007 -0.012205 0.0021771
0.15826 0.18336 -0.011046 0.0013529
-0.0010813 -8.0894e-05 0.00027786 -0.0010397 -7.5573e-06 -6.5427e-05 0.0009846 0.0016854
-0.011024 0.0013399 0.18734 0.26576
1580000000 0.29657 0.061186 -0.0081294 0.013391 -0.00099404 -0.0045371 0.0013483 0.0017988
-0.00056541 -0.0019873 -0.00027896 0.00034333
-0.0081265 0.013378 0.17623 0.29692 0.0048891 0.0081564 0.0004321 -0.0015352
-0.00033558 -0.00099193 -0.00032796 -0.00087215
-0.0010002 -0.0045377 0.0049265 0.0081421 0.33211 -0.10886 -0.0014586 0.00044823
-0.00026212 -0.0010807 0.00016135 -0.00056633
0.0013511 0.0017661 0.00042517 -0.001533 -0.0014544 0.00043244 0.23622 0.10151
-0.0094682 0.0059589 0.0017569 0.0006621
-0.00063649 -0.0019697 -0.00036111 -0.00099316 -0.00024868 -0.0011123 -0.0094797 0.0059638
0.18255 0.1644 -0.0089262 0.0066432
-0.00027209 0.00038866 -0.00031452 -0.00085832 0.00014113 -0.00058345 0.0017493 0.0006569
-0.0089691 0.0066588 0.21937 0.23901
1640000000 0.29798 0.019722 -0.0014795 0.012338 -0.0026699 -0.0024395 0.0025232 0.00099674
-0.000893 -0.001059 -0.00027648 0.00062722
-0.0014819 0.012331 0.20546 0.27184 0.005553 0.0036558 -0.00072484 -0.0015946
-0.00095133 -0.00048318 -0.00054008 -0.00061393
-0.0026665 -0.0024308 0.0055884 0.0036241 0.30318 -0.15747 -0.00088371 0.0011846
-0.0009644 -0.00080595 -6.3494e-05 -0.00030933
0.0025192 0.00098237 -0.00071533 -0.0015911 -0.00090837 0.0012161 0.2488 0.051805
-0.0061212 0.0066105 0.0021293 -0.00066867
-0.00085038 -0.0010012 -0.00095052 -0.00045145 -0.00098276 -0.00081386 -0.0061116 0.0066881
0.20538 0.13868 -0.0044933 0.0086903
-0.00034217 0.00069995 -0.00058065 -0.00058597 -0.00015068 -0.00027915 0.0021068 -0.00062844
-0.0045435 0.0087281 0.24519 0.20749
1700000000 0.29006 -0.025658 0.0020629 0.0096313 -0.0033666 0.00020482 0.0029155 -0.001084
-0.0017243 -0.00026284 0.00055612 0.00041188
0.0020463 0.0096327 0.22332 0.24034 0.003759 0.00084225 -0.0013374 -0.00052149
-0.00081813 8.1666e-06 -0.00090342 -0.0003717
-0.0033585 0.00021722 0.0037511 0.00083061 0.2598 -0.1972 0.00032712 0.0016755
-0.0017671 -0.00027519 -0.00050477 -0.00081332
0.0029245 -0.0011139 -0.001354 -0.00050678 0.00031895 0.0016432 0.24546 0.00072337
-0.0043379 0.0069653 0.00124 -0.0019629
-0.0017389 -0.00026985 -0.00079374 -4.1888e-07 -0.0017128 -0.00021655 -0.004324 0.0069568
0.22258 0.11681 -7.0015e-05 0.0090314
0.00054907 0.00040856 -0.00093674 -0.00038225 -0.00053815 -0.0009127 0.0012265 -0.0019982
-5.0631e-05 0.0090682 0.26164 0.17276
1760000000 0.27701 -0.073955 0.0043469 0.0063818 -0.0021764 0.00069252 0.0013378 -0.0032355
-0.00093159 0.00067797 0.00040837 -0.00036075
0.0043639 0.0063972 0.24898 0.20039 0.0016563 -0.001055 -0.0011122 0.00022401
-0.0011747 0.00083319 -0.00056773 0.00055872
-0.0021576 0.00074731 0.0016676 -0.0010841 0.21118 -0.2307 0.00095152 0.0012488
-0.0010913 0.0012136 -0.0013871 -0.00041371
0.0013069 -0.0032399 -0.0011093 0.0002415 0.00089166 0.001257 0.2352 -0.051466
-0.0020453 0.0065668 -0.00050055 -0.0021134
-0.00092378 0.00069166 -0.0011721 0.00084443 -0.0011279 0.0011699 -0.0020655 0.0066038
0.23719 0.08006 0.0035304 0.006454
0.00045413 -0.00042168 -0.00059801 0.0005889 -0.0014294 -0.00050557 -0.00055832 -0.0021169
0.0035444 0.0064815 0.27423 0.13489
1820000000 0.25161 -0.11084 0.0046959 0.0027709 2.2077e-05 0.0023968 -0.00091574 -0.0030448
-0.00073496 0.00059003 5.6959e-05 -0.00016039
0.0046771 0.0027975 0.2587 0.17038 -0.00016948 0.00020929 -0.0013249 0.00084127
-0.00013816 0.0013929 -0.00049194 0.00048479
2.2478e-05 0.0023883 -0.00018506 0.00023022 0.16073 -0.24549 0.0015715 0.0004057
-0.0004167 0.0021891 -0.0013684 0.00043353
-0.00092876 -0.0030301 -0.001322 0.00084809 0.0016722 0.00037233 0.20383 -0.098929
-0.0011337 0.0054159 -0.001529 -0.001239
-0.00072402 0.00060572 -0.00013862 0.0013998 -0.00039475 0.0021814 -0.0011304 0.00543
0.25294 0.04874 0.004491 0.0031904
0.00012689 -0.00012519 -0.00046416 0.00049686 -0.0013283 0.00048018 -0.0015313 -0.0012532
0.004501 0.0032248 0.27638 0.098473
1880000000 0.21579 -0.15024 0.0025419 0.00044992 -0.00035646 0.0021448 -0.0028231 -0.0022912
-0.0002586 0.0012929 0.00039844 -0.00065902
0.0025128 0.00045123 0.26285 0.12392 -0.0021398 0.0017548 -0.00018494 0.001611
0.00065492 0.0013867 0.00016904 0.00098074
-0.00036096 0.0021975 -0.0021314 0.0017674 0.10837 -0.25509 0.0020026 -0.0010851
0.0013825 0.0020033 -0.00096813 0.0014817
-0.0028648 -0.0022708 -0.00015359 0.0016178 0.0020083 -0.0010269 0.162 -0.13813
-0.0010549 0.0044682 -0.0021523 0.00086089
-0.00030136 0.0013011 0.00070008 0.0013513 0.0013359 0.0020271 -0.0010467 0.004471
0.25388 0.014013 0.0040501 0.0014501
0.00040086 -0.00063158 0.00018391 0.00097904 -0.0010904 0.0014895 -0.0022221 0.00084632
0.0040816 0.0014378 0.27613 0.064474
1940000000 0.17642 -0.17543 0.00038158 -0.0013372 0.0013187 0.0017885 -0.0037887 0.00052575
0.0010529 0.00097224 -0.00066969 -0.00074087
0.00039611 -0.0013414 0.26311 0.092242 -0.000946 0.0039236 0.00090371 0.0012901
0.0020259 0.00052837 0.00087 0.0002247
0.0013203 0.0017545 -0.0009475 0.0039333 0.06277 -0.24863 0.00036055 -0.0023744
0.0025088 0.00051084 0.00039657 0.0016643
-0.0037799 0.00050551 0.00094359 0.0012936 0.00039768 -0.0023133 0.10885 -0.16734
-0.0020656 0.0040469 -0.0011278 0.0018679
0.0010276 0.00093088 0.0020455 0.00050232 0.0024846 0.00055727 -0.0020605 0.0040372
0.25308 -0.026669 0.0030515 -0.0016101
-0.00069529 -0.00080101 0.00089055 0.00021042 0.00042608 0.0016473 -0.0011276 0.0018603
0.0030414 -0.0016298 0.26496 0.028401
2000000000 0.13008 -0.18922 -0.0035078 0.0005156 0.0023908 0.0013857 -0.0022612 0.0035674
0.00094547 0.00037565 -0.00075152 0.00029264
-0.0034046 0.00047427 0.24871 0.056752 -0.00067533 0.0055989 0.0016 0.00032798
0.0015783 -0.0015558 0.00057578 2.6966e-05
0.0024213 0.0014372 -0.0006379 0.0055758 0.019311 -0.23403 -0.00154 -0.0013701
0.0020926 -0.001166 0.0015865 0.0012553
-0.0022302 0.0036321 0.0016153 0.00033025 -0.0016438 -0.0014223 0.055774 -0.17593
-0.0032544 0.004957 0.0002033 0.0019973
0.00092003 0.00038551 0.0014956 -0.0015079 0.0020304 -0.0011638 -0.0032716 0.00496
