!Keysight Technologies,M9804A,MY58100912,A.14.10.03
!Date: Thursday, April 27, 2023 10:28:33
!Correction: S11(C  6-Port  ) 
!S12(C  6-Port  ) 
!S13(C  6-Port  ) 
!S14(C  6-Port  ) 
!S15(C  6-Port  ) 
!S16(C  6-Port  ) 
!S21(C  6-Port  ) 
!S22(C  6-Port  ) 
!S23(C  6-Port  ) 
!S24(C  6-Port  ) 
!S25(C  6-Port  ) 
!S26(C  6-Port  ) 
!S31(C  6-Port  ) 
!S32(C  6-Port  ) 
!S33(C  6-Port  ) 
!S34(C  6-Port  ) 
!S35(C  6-Port  ) 
!S36(C  6-Port  ) 
!S41(C  6-Port  ) 
!S42(C  6-Port  ) 
!S43(C  6-Port  ) 
!S44(C  6-Port  ) 
!S45(C  6-Port  ) 
!S46(C  6-Port  ) 
!S51(C  6-Port  ) 
!S52(C  6-Port  ) 
!S53(C  6-Port  ) 
!S54(C  6-Port  ) 
!S55(C  6-Port  ) 
!S56(C  6-Port  ) 
!S61(C  6-Port  ) 
!S62(C  6-Port  ) 
!S63(C  6-Port  ) 
!S64(C  6-Port  ) 
!S65(C  6-Port  ) 
!S66(C  6-Port  ) 
!S6P File: Measurement: :
# Hz S  RI   R 50
500000000 -0.33639 -0.032381 -0.0099382 -0.0040441 -0.0080871 0.011552 -0.0035049 0.011198
0.012153 0.0048394 -0.0044343 0.0079185
-0.0098799 -0.0033664 -0.41948 -0.047801 0.0074808 -0.012037 0.0012275 0.011834
0.0077671 0.0022731 0.0010934 0.012964
-0.0077307 0.011695 0.007524 -0.01156 -0.26441 0.21141 0.0066957 0.0033326
-1.0682e-05 0.0081915 0.00033716 0.012164
-0.0035883 0.011361 0.0016882 0.011622 0.0073441 0.0034052 -0.32706 0.049946
-0.018859 -0.0050051 0.017654 0.025987
0.011922 0.0044864 0.0071284 0.0021461 -8.3545e-05 0.0080765 -0.018601 -0.0059535
-0.22847 -0.17983 -0.027595 0.0044884
-0.0035594 0.0077735 0.0015538 0.013273 0.0012384 0.012488 0.017873 0.026975
-0.027438 0.0046127 -0.27102 -0.13104
560000000 -0.31458 0.12571 -0.024436 -0.062592 0.00014719 0.012193 0.0065026 0.010126
0.01084 0.0040354 0.0097592 0.0086856
-0.024331 -0.062344 -0.37558 0.10938 -0.040739 -0.037405 0.01334 0.0039351
-0.012649 -0.0043152 0.0040015 -0.00087943
4.1205e-05 0.011857 -0.041615 -0.036206 -0.18234 0.26006 -0.00057454 -0.0051977
0.018364 0.0039463 0.0074622 -0.0063916
0.0064359 0.0098866 0.013216 0.0037911 -0.0011417 -0.0050911 -0.30199 0.13613
0.0041904 -0.024755 0.0059953 -0.019541
0.010552 0.00376 -0.013889 -0.0047774 0.018595 0.0048429 0.0042623 -0.024913
-0.28336 -0.0062298 0.0071448 -0.050192
0.0094925 0.0072113 0.004103 -0.0015683 0.0068974 -0.0058082 0.0053648 -0.019325
0.0062784 -0.049943 -0.33357 0.019406
620000000 -0.27245 0.11104 -0.023269 0.0071135 0.0038365 0.0082135 0.0066189 -0.0056283
0.01069 -0.00072019 0.00011618 -0.0019702
-0.022991 0.0072222 -0.40227 0.064087 -0.019005 -0.00031441 -0.0012475 -0.0020909
0.010233 -0.007382 0.0010439 -0.0028897
0.0038547 0.0081248 -0.018917 -0.00024543 -0.15249 0.26877 -0.0014633 -0.005366
-0.0040123 -0.0026991 0.0084584 -0.0029609
0.0068268 -0.0057469 -0.0014887 -0.0018648 -0.0018042 -0.0051593 -0.26051 0.14631
-0.038427 -0.019007 0.014377 0.022784
0.010093 -0.00018818 0.010319 -0.007335 -0.0034337 -0.0033515 -0.038951 -0.018134
-0.20553 -0.043675 -0.040935 0.016621
0.0004135 -0.0019179 0.00097098 -0.0032986 0.008228 -0.0039783 0.014037 0.024782
-0.042093 0.016018 -0.25044 -0.019954
680000000 -0.23217 0.19411 -0.027709 -0.014167 0.0048393 0.0046801 0.0011456 -0.0076056
-0.0029618 -0.010721 0.0041622 -0.0068798
-0.027996 -0.014038 -0.38651 0.16067 -0.032737 -0.0011119 -0.0013424 -0.00034065
-0.0029655 -0.0087675 -0.0011286 -0.0025295
0.0050051 0.0048846 -0.032733 -0.00095337 -0.10162 0.28777 -0.0005727 3.1611e-05
-0.0024665 0.00092455 -0.0026257 -0.0096471
0.0013199 -0.007645 -0.0012923 -0.00029812 -0.00060371 0.00017321 -0.21792 0.196
-0.023932 -0.0088204 -0.010016 -0.010228
-0.0032087 -0.011102 -0.0029251 -0.0086896 -0.0025393 0.0011595 -0.023379 -0.0083443
-0.25092 0.05095 -0.0057449 -0.0093796
0.0042659 -0.0065971 -0.00090835 -0.0020141 -0.0027753 -0.009361 -0.0097134 -0.010518
-0.004939 -0.010112 -0.26275 0.086569
740000000 -0.18889 0.18918 -0.038379 0.026025 0.012381 -0.0051754 -0.00076325 -0.0042602
-0.0046618 -0.0024356 -0.0061182 0.0032794
-0.03844 0.026355 -0.33434 0.17938 -0.034677 0.034599 -0.00099902 -0.0060188
-0.010934 0.0082221 -0.0025716 -0.0059763
0.012518 -0.0053817 -0.034639 0.03522 -0.067754 0.28692 -0.0013835 0.0034247
-0.0027969 -0.0035078 -0.0012334 0.00067261
-0.00077975 -0.0039365 -0.00093444 -0.0062259 -0.0016305 0.0033196 -0.20133 0.20361
-0.042068 -0.0085138 0.022585 0.012869
-0.0046341 -0.0021376 -0.011326 0.0076784 -0.0026952 -0.0036146 -0.042342 -0.008109
-0.1565 0.074748 -0.041338 -0.00020042
-0.0062183 0.0036793 -0.0026528 -0.0059193 -0.0020337 0.00064652 0.022001 0.012985
-0.041552 0.00039563 -0.25412 0.09206
800000000 -0.15699 0.22913 -0.02234 0.01704 0.0049727 -0.01046 -0.004728 -0.0020402
-0.0040978 0.0030327 0.0046149 0.00066673
-0.02238 0.017107 -0.33664 0.24931 -0.0077321 0.033931 -0.0020491 0.0022208
-0.00042462 0.0037086 0.0012109 0.0053949
0.005126 -0.010479 -0.0075618 0.034012 -0.026745 0.30981 0.0012973 0.0014681
0.0008133 0.0036387 -0.0016922 0.00081648
-0.0048183 -0.0021978 -0.0020256 0.0021593 0.0011335 0.001433 -0.17344 0.23112
-0.028385 0.012975 0.013094 -0.0099934
-0.0040235 0.0033074 -0.00038015 0.0036469 0.00080045 0.0036443 -0.028531 0.012594
-0.19841 0.098762 -0.017795 0.017833
0.0045627 0.00082858 0.0012978 0.0053984 -0.0016392 0.00099217 0.012973 -0.0097023
-0.018144 0.017924 -0.24632 0.14646
860000000 -0.12192 0.25053 -0.017152 0.031324 -0.0034533 -0.009625 -0.0026685 0.0013396
0.0046819 0.0052955 -0.0027977 -0.0029594
-0.017045 0.031215 -0.28925 0.29134 0.0082098 0.033933 0.00025283 0.0021021
0.0045193 0.00032334 0.0032637 4.3798e-05
-0.0035667 -0.0096615 0.0082119 0.033968 0.02178 0.31751 -0.00040762 -0.00035225
0.0028198 -0.0016624 0.0016068 0.0045217
-0.0024379 0.0013505 6.3641e-05 0.0020636 -0.00016716 -0.00030842 -0.13827 0.24323
-0.017777 0.018761 -0.0059681 -0.0094237
0.0045367 0.0051812 0.0045371 0.00015155 0.0028419 -0.0017069 -0.017868 0.018635
-0.14988 0.14661 -0.024723 0.015469
-0.0028223 -0.0029855 0.0034055 0.00036679 0.0015334 0.004688 -0.0060118 -0.0095065
-0.024899 0.015099 -0.19464 0.19097
920000000 -0.096234 0.27357 0.0053977 0.037807 -0.0092961 -0.0040613 -0.0017579 0.0023759
0.0015401 0.0016129 0.0024819 -0.0016124
0.0053346 0.037789 -0.25967 0.31224 0.02795 0.021476 0.001566 0.0011195
0.0067462 -0.00081461 0.0037426 -0.003081
-0.0092191 -0.0040263 0.028046 0.02147 0.068238 0.3177 0.0017809 -0.00016797
0.0012726 -0.0004101 0.00088151 -0.0010608
-0.0017705 0.0024113 0.0016285 0.0011763 0.0017654 -7.0329e-05 -0.11353 0.25942
-0.010405 0.029932 0.0025831 -0.0064251
0.0012904 0.0016575 0.0069293 -0.00079741 0.0012566 -0.00058411 -0.010278 0.029863
-0.13976 0.1523 -0.0017514 0.027562
0.0024086 -0.0015376 0.0035121 -0.0032344 0.00090438 -0.0011861 0.002529 -0.0065958
-0.0014928 0.027554 -0.20332 0.2039
980000000 -0.048557 0.29303 0.018015 0.029838 -0.0086087 0.0047166 0.0023353 0.0038164
0.0038366 -0.0017602 -0.0029968 -0.0019987
0.017889 0.029889 -0.20675 0.3455 0.032707 0.0044266 0.0019517 -6.2982e-05
0.0010585 -0.0061943 -0.00057509 -0.0022122
-0.0085792 0.0048111 0.032741 0.0043548 0.11453 0.3106 0.00042658 -0.0012107
-1.0057e-05 -0.0021099 0.0015924 -5.3253e-05
0.0024488 0.0036977 0.0019732 -1.9294e-05 0.00040872 -0.0012087 -0.07529 0.27074
0.0075267 0.028544 -0.0095436 -0.0065831
0.0037514 -0.0016383 0.0009584 -0.0060839 -1.2055e-05 -0.0020664 0.0077024 0.02849
-0.10825 0.17963 0.0050563 0.018674
-0.0030977 -0.0019221 -0.00078947 -0.002021 0.0014574 -2.7567e-05 -0.0094703 -0.0066042
0.0049572 0.018716 -0.15929 0.25
1040000000 -0.0054519 0.30088 0.033226 0.017477 -0.00097301 0.006739 0.0028527 0.00060015
3.9998e-06 -0.0037212 -0.00055179 -0.0014877
0.033245 0.017443 -0.17081 0.35823 0.028807 -0.014918 0.0014749 -0.0016803
-0.0025971 -0.0022076 -0.0016602 -0.0026885
-0.00096847 0.0067914 0.028787 -0.015051 0.16058 0.29645 -0.00049201 -0.0013914
-0.001501 -0.00083475 -0.00047746 -0.0012238
0.0028416 0.00060425 0.0014076 -0.0016662 -0.00044664 -0.0013915 -0.047653 0.28081
0.018016 0.0169 -0.0028721 0.0021331
-9.0963e-05 -0.0037664 -0.0026789 -0.0021002 -0.0014681 -0.00076067 0.018009 0.016904
-0.077877 0.18881 0.013281 0.017763
-0.00057529 -0.0014027 -0.0015221 -0.0027146 -0.00045198 -0.0011102 -0.0030282 0.0020688
0.013284 0.017822 -0.13918 0.27158
1100000000 0.040298 0.30758 0.035506 -0.0047372 0.002974 0.0036783 0.0025689 -0.0014502
-0.0020918 -0.0029426 -0.0038594 7.4423e-05
0.035486 -0.004712 -0.12731 0.37493 0.014684 -0.027464 6.9864e-05 -0.0018074
-0.0030648 -0.00031993 -0.0033203 -0.00049368
0.0029905 0.0036407 0.014592 -0.027546 0.2066 0.27578 -0.0018081 0.0002582
-0.0016782 0.00065145 -0.00095327 -0.00039851
0.0025544 -0.0014593 -1.7832e-05 -0.0017534 -0.0017973 0.00024681 -0.0069413 0.28558
0.02238 0.0050109 -0.0023779 0.00097855
-0.0020764 -0.0029373 -0.0031622 -0.00033499 -0.0016451 0.00064119 0.022397 0.0050066
-0.059126 0.20188 0.01846 0.0084587
-0.0038343 -1.0255e-05 -0.0033585 -0.0005464 -0.00089758 -0.00032131 -0.0022705 0.001016
0.018586 0.0085112 -0.091967 0.30082
1160000000 0.091914 0.30177 0.023495 -0.020899 0.0026373 -0.0006734 -9.6265e-05 -0.0025306
-0.0041183 -0.00038739 -0.0011401 0.0040443
0.023477 -0.020886 -0.083333 0.37874 -0.0038291 -0.028572 -0.001763 -0.0015563
-0.0022622 0.0026195 -0.0013891 0.0014634
0.0026496 -0.00060848 -0.0040051 -0.028593 0.24942 0.24474 -0.00058978 0.0017013
-0.00030461 0.0017975 -0.0010036 0.00012494
-0.00012242 -0.0025763 -0.0017851 -0.0015696 -0.00063204 0.0016848 0.032547 0.28245
0.019019 -0.0095887 -0.0026294 0.005723
-0.0040886 -0.00037052 -0.0023618 0.0026992 -0.00044059 0.0018076 0.019036 -0.0096451
-0.025566 0.21126 0.017347 0.00068226
-0.0010142 0.0039431 -0.0013451 0.0016198 -0.0010469 1.9334e-05 -0.0025841 0.0056776
0.017292 0.00066611 -0.045273 0.30304
1220000000 0.13623 0.28968 0.009929 -0.029791 -0.0016015 -0.00087693 -0.00021023 -0.0011422
-0.00246 0.0025183 0.0013387 0.0018121
0.0098998 -0.029765 -0.039409 0.38997 -0.016624 -0.020618 -0.0024936 0.00042804
0.00027607 0.0027498 -0.00065631 0.0017654
-0.0015903 -0.00083577 -0.016723 -0.020557 0.28845 0.20564 0.00087664 0.0015205
0.00058996 0.0010801 0.00030673 0.00069334
-0.00019812 -0.0011497 -0.0025092 0.00046673 0.00090022 0.0016095 0.072117 0.2737
0.009034 -0.015067 0.0029045 0.0017828
-0.0024659 0.0025472 0.00027306 0.0027402 0.00057359 0.0010953 0.0090579 -0.015065
-0.0016 0.22053 0.013211 -0.012109
0.0013317 0.0019114 -0.00066962 0.0017602 0.00028487 0.00068229 0.0028539 0.0017578
0.013286 -0.012176 -0.013212 0.32122
1280000000 0.18545 0.26667 -0.0080053 -0.027989 -0.0018319 0.0024155 -0.0011548 -0.0019254
-0.00056513 0.0030031 0.0025653 0.0010192
-0.0079896 -0.027954 0.0061812 0.38066 -0.023162 -0.008289 -0.0010148 0.0014981
0.0015696 0.0014412 0.0005661 0.0019457
-0.0017999 0.0024344 -0.023245 -0.0081771 0.31908 0.16172 0.0013585 -0.00015759
0.00090233 0.00013479 0.00034771 0.00041606
-0.001164 -0.0019354 -0.0010392 0.0014817 0.001358 -0.00019569 0.10843 0.25746
0.00050111 -0.016715 0.00061594 1.2593e-05
-0.0005153 0.0030296 0.001568 0.001522 0.00088504 0.00015953 0.00050332 -0.016728
0.035531 0.22395 0.0027534 -0.014027
0.0025436 0.0010547 0.00053833 0.0019388 0.0002876 0.00037297 0.00064748 1.3174e-05
0.0028436 -0.014032 0.034673 0.3228
1340000000 0.22206 0.23226 -0.017576 -0.018568 0.00082987 0.0043646 -0.0019026 -0.00070418
0.0014382 0.0025086 0.0015999 -0.0015355
-0.017495 -0.018559 0.045401 0.37209 -0.021148 0.0041042 -3.863e-05 0.0019801
0.0016163 0.00060258 0.0012932 0.0008423
0.00080845 0.0042968 -0.021134 0.0041795 0.3412 0.1137 0.00095331 -0.00081659
0.00051945 -0.00037347 0.00017962 0.00019235
-0.0019186 -0.00069499 -5.0736e-05 0.0019868 0.00094753 -0.00081803 0.14122 0.23734
-0.007353 -0.013892 0.001452 -8.221e-05
0.0014807 0.0025342 0.0016442 0.00062676 0.00057414 -0.00042792 -0.0074084 -0.013888
0.066432 0.21902 -0.0032873 -0.01259
0.0016216 -0.0015935 0.0013294 0.00083729 0.0001845 0.00022619 0.0014593 -0.00011561
-0.003276 -0.012569 0.073504 0.31843
1400000000 0.25425 0.19361 -0.023072 -0.0072943 0.0050059 0.0030366 -0.00203 0.00077535
0.0024391 0.00064148 0.00018003 -0.0013586
-0.023056 -0.0073089 0.082123 0.359 -0.014586 0.012043 0.0013175 0.00126
0.0009518 -0.00078864 0.0011945 0.00034806
0.0049307 0.0030155 -0.014567 0.012118 0.35425 0.059741 8.8188e-05 -0.0013963
3.2711e-05 -0.0003637 0.00033564 0.00025811
-0.0020147 0.00074784 0.0013579 0.0012603 7.9397e-05 -0.0014257 0.17109 0.20898
-0.012165 -0.0080298 -0.00054694 -0.0010099
0.0023948 0.00062692 0.00094972 -0.00078318 8.4052e-06 -0.00031194 -0.012191 -0.0079518
0.099486 0.21373 -0.0092215 -0.0080558
0.00017331 -0.001298 0.0011611 0.00031962 0.00039255 0.0003224 -0.00059176 -0.00097828
-0.0091587 -0.0080739 0.11887 0.3077
1460000000 0.27658 0.1494 -0.020191 0.004598 0.0053319 -0.0017796 -0.0014928 0.0017342
0.0018379 -0.0007804 -0.00038579 -0.00082006
-0.020168 0.0045532 0.11628 0.33722 -0.0062307 0.014822 0.0016959 0.00018405
0.00082007 -0.0010655 0.0011517 -0.00060426
0.0053885 -0.001676 -0.0061893 0.014904 0.35993 0.0049982 -0.0010339 -0.0011391
0.00032525 -4.6827e-05 0.00065151 -0.00043155
-0.0015063 0.0017339 0.0016904 0.00013367 -0.0010346 -0.0011174 0.19805 0.17994
-0.012808 -0.0027095 -0.0011599 0.0013639
0.0018302 -0.00077659 0.00075422 -0.0010744 0.00028688 -0.00014125 -0.01278 -0.0026939
0.12951 0.1983 -0.010769 -0.0028963
-0.00035831 -0.00078238 0.0011784 -0.00063656 0.00069596 -0.00045644 -0.0011494 0.0013512
-0.010746 -0.0028616 0.15251 0.28662
1520000000 0.2882 0.10748 -0.014634 0.010118 0.0030426 -0.0039707 0.00013739 0.0025081
0.0016978 -0.0016957 -0.0011327 -0.00013592
-0.014623 0.010128 0.14973 0.32225 0.0011786 0.012907 0.0015867 -0.00083865
0.00011023 -0.0008813 0.00028804 -0.0010209
0.0030472 -0.003968 0.0012658 0.012869 0.35269 -0.051554 -0.00086776 -0.00035119
0.00054381 -0.00071383 -6.9538e-05 -4.3311e-05
0.00016465 0.0025187 0.0015654 -0.0008203 -0.00089764 -0.00032591 0.22196 0.14171
-0.012246 0.0017114 0.00091304 0.0017045
0.001673 -0.0017362 8.4656e-05 -0.00092219 0.0004911 -0.00063047 -0.012263 0.0017161
0.15753 0.18325 -0.010874 0.0011965
-0.0011084 -0.00013741 0.00024685 -0.0010223 -0.00011591 -6.8827e-05 0.00092034 0.0016859
-0.010888 0.001197 0.18627 0.26647
1580000000 0.29708 0.061124 -0.0081328 0.013185 -0.00093122 -0.0046989 0.0013621 0.0017654
-0.00050326 -0.0020025 -0.00032828 0.00044846
-0.0081618 0.01318 0.17701 0.29742 0.0049254 0.0082929 0.00042281 -0.0015495
-0.0003272 -0.0010449 -0.00030517 -0.0008637
-0.00095419 -0.0046931 0.0049247 0.0082864 0.33217 -0.10888 -0.0014774 0.00043564
-0.00020288 -0.0011579 0.00011013 -0.00053295
0.0013911 0.001748 0.00041297 -0.0015582 -0.0014379 0.00047652 0.23679 0.1017
-0.0097727 0.0056328 0.0016725 0.00062163
-0.00054985 -0.002002 -0.00035901 -0.00098903 -0.00018218 -0.0011062 -0.0097837 0.0056837
0.18179 0.16461 -0.0088118 0.0063857
-0.00033863 0.00042443 -0.00027689 -0.00088535 5.572e-05 -0.00051278 0.0016818 0.00067669
-0.0087979 0.0063817 0.21867 0.23955
1640000000 0.29856 0.019293 -0.0015989 0.012242 -0.002631 -0.0025513 0.0025197 0.00097361
-0.00082992 -0.001089 -0.00030836 0.00070379
-0.0015962 0.012213 0.20646 0.27201 0.0056754 0.003694 -0.00074687 -0.0015972
-0.00094169 -0.00050111 -0.00057542 -0.00061086
-0.0026144 -0.0025007 0.0056677 0.003706 0.30363 -0.15812 -0.000908 0.0013014
-0.00095125 -0.00079377 -0.0001465 -0.00025065
0.0024827 0.0009451 -0.00074355 -0.0016066 -0.00089459 0.0012032 0.24958 0.051594
-0.0064877 0.0065996 0.0020734 -0.00065064
-0.00084624 -0.0011329 -0.00095698 -0.00049107 -0.00096159 -0.00083135 -0.0064438 0.0066566
0.20468 0.13913 -0.0044763 0.008476
-0.00030737 0.00072315 -0.00056894 -0.00064861 -0.00015044 -0.00012909 0.0020628 -0.00066737
-0.0044449 0.0084712 0.24462 0.20815
1700000000 0.29059 -0.02625 0.0019055 0.0096208 -0.0034551 0.00013639 0.0028823 -0.0010657
-0.001723 -0.00034231 0.00053483 0.00040228
0.0018581 0.0096057 0.22441 0.2402 0.0038043 0.00081671 -0.0013901 -0.00055621
-0.00081873 -1.7685e-05 -0.00094688 -0.00040635
-0.0034101 6.2736e-05 0.0038797 0.00086303 0.25968 -0.19819 0.00036766 0.0015912
-0.0017304 -0.00030817 -0.00050182 -0.0008035
0.0029021 -0.0010489 -0.0013881 -0.00054817 0.00033029 0.0015889 0.24603 0.00034238
-0.0046478 0.0071889 0.0012602 -0.0019442
-0.0017515 -0.00034514 -0.00082112 -2.457e-05 -0.0017353 -0.00035308 -0.0046519 0.0071858
0.22214 0.11742 -0.00015529 0.0089681
0.0005953 0.00041928 -0.00092372 -0.00037309 -0.00053551 -0.00082552 0.0012694 -0.0019294
-0.00017666 0.008925 0.26111 0.17345
1760000000 0.27729 -0.074939 0.0043101 0.0064013 -0.0021898 0.00081985 0.0013732 -0.0032693
-0.0009464 0.00065754 0.00041114 -0.00050207
0.0043192 0.006412 0.25009 0.19991 0.0017335 -0.00095377 -0.0010804 0.00020806
-0.0011714 0.00087059 -0.00058161 0.00051845
-0.0022847 0.00087349 0.0017618 -0.00099129 0.21039 -0.23093 0.0010417 0.0012764
-0.0011282 0.0012468 -0.0012871 -0.00048251
0.0013438 -0.0032686 -0.0011144 0.0001953 0.0010335 0.0013108 0.23559 -0.052257
-0.0021939 0.0067868 -0.00056201 -0.002028
-0.0009201 0.0006622 -0.0011789 0.00088038 -0.0012225 0.0012983 -0.0021696 0.0068212
0.2371 0.080608 0.0032522 0.006338
0.00038862 -0.00048699 -0.00057217 0.00053584 -0.0013054 -0.00060428 -0.00049769 -0.001996
0.0032879 0.0063503 0.27383 0.13549
1820000000 0.25157 -0.11193 0.0046612 0.002812 -5.3557e-05 0.0024084 -0.00080859 -0.0029953
-0.00075131 0.00066949 0.00010634 -0.00011236
0.0046204 0.002791 0.25949 0.16944 -0.00011017 5.9226e-05 -0.0012848 0.00088606
-0.00013251 0.0014655 -0.00051839 0.00056641
-5.4556e-05 0.0023965 -8.9415e-05 -3.5647e-05 0.16042 -0.24606 0.0015252 0.00060825
-0.00040513 0.0021883 -0.0013628 0.00054129
-0.0008621 -0.0029745 -0.0013173 0.00088244 0.0015435 0.00061271 0.20379 -0.099909
-0.0010338 0.0056412 -0.0015798 -0.001246
-0.00080433 0.0006908 -0.00013213 0.0014287 -0.0004115 0.0021522 -0.0010375 0.0056116
0.25322 0.049373 0.0043663 0.0032076
3.8738e-05 -0.00014901 -0.00046824 0.00052936 -0.001283 0.00051624 -0.0016364 -0.0012414
0.0043594 0.0031756 0.27599 0.099327
1880000000 0.21541 -0.1513 0.0025133 0.00049647 -0.00033631 0.0020066 -0.0027947 -0.0022029
-0.00023452 0.0013622 0.00041641 -0.0006486
0.0025297 0.0004869 0.26332 0.12295 -0.002105 0.0015852 -0.00019117 0.0016937
0.00069084 0.0014213 0.00024944 0.00101
-0.00038108 0.0021422 -0.0021385 0.0016644 0.10818 -0.25542 0.0019743 -0.0010511
0.0013954 0.0020127 -0.00087039 0.0013926
-0.0027842 -0.0022168 -0.00015057 0.001705 0.0019521 -0.0011293 0.16156 -0.13908
-0.00091746 0.0045661 -0.0022336 0.00086898
-0.00028523 0.0013909 0.00068619 0.0014004 0.0014179 0.002091 -0.00090579 0.0045555
0.25432 0.014404 0.0039746 0.0014815
0.00030601 -0.00052473 0.000172 0.00099993 -0.00096386 0.0014061 -0.0021681 0.00089104
0.0039879 0.0015074 0.27588 0.06518
1940000000 0.17557 -0.17608 0.00028989 -0.001405 0.0014208 0.0020084 -0.0037917 0.00051422
0.001071 0.0009309 -0.00062962 -0.00062664
0.0002557 -0.0013653 0.26327 0.091087 -0.0011265 0.0038712 0.00095694 0.0013397
0.0021207 0.00052427 0.00084317 0.00022362
0.0014102 0.0019014 -0.0011241 0.003931 0.062132 -0.24894 0.00031586 -0.0023445
0.0025239 0.00055625 0.00029713 0.0016676
-0.003808 0.00046026 0.0010519 0.0013174 0.00032082 -0.0023681 0.10827 -0.1679
-0.0018899 0.0039998 -0.0010262 0.0017808
0.0011272 0.00097214 0.002094 0.0005565 0.0024928 0.00057326 -0.0018835 0.004127
0.25356 -0.026637 0.0029625 -0.0014659
-0.00062554 -0.00072897 0.00087387 0.00017933 0.00023023 0.0016546 -0.0010456 0.0017719
0.002972 -0.0015032 0.2648 0.029263
2000000000 0.12927 -0.18958 -0.0035684 0.00048592 0.002378 0.0016115 -0.0023846 0.0035949
0.00098359 0.00032831 -0.00081842 0.00044998
-0.0036417 0.00053124 0.24852 0.055776 -0.00090714 0.0055549 0.0015992 0.00022852
0.0015931 -0.0015699 0.00057663 9.0906e-05
0.0025223 0.001594 -0.00083764 0.0055963 0.018771 -0.2344 -0.0014562 -0.0014972
0.0020615 -0.0011736 0.0016777 0.0012741
-0.0023446 0.0036821 0.0015926 0.00019816 -0.0015957 -0.0014385 0.054899 -0.17582
-0.0031781 0.0049208 0.00015926 0.002076
