!Keysight Technologies,M9804A,MY58100912,A.14.10.03
!Date: Thursday, April 27, 2023 10:28:33
!Correction: S11(C  6-Port  ) 
!S12(C  6-Port  ) 
!S13(C  6-Port  ) 
!S14(C  6-Port  ) 
!S15(C  6-Port  ) 
!S16(C  6-Port  ) 
!S21(C  6-Port  ) 
!S22(C  6-Port  ) 
!S23(C  6-Port  ) 
!S24(C  6-Port  ) 
!S25(C  6-Port  ) 
!S26(C  6-Port  ) 
!S31(C  6-Port  ) 
!S32(C  6-Port  ) 
!S33(C  6-Port  ) 
!S34(C  6-Port  ) 
!S35(C  6-Port  ) 
!S36(C  6-Port  ) 
!S41(C  6-Port  ) 
!S42(C  6-Port  ) 
!S43(C  6-Port  ) 
!S44(C  6-Port  ) 
!S45(C  6-Port  ) 
!S46(C  6-Port  ) 
!S51(C  6-Port  ) 
!S52(C  6-Port  ) 
!S53(C  6-Port  ) 
!S54(C  6-Port  ) 
!S55(C  6-Port  ) 
!S56(C  6-Port  ) 
!S61(C  6-Port  ) 
!S62(C  6-Port  ) 
!S63(C  6-Port  ) 
!S64(C  6-Port  ) 
!S65(C  6-Port  ) 
!S66(C  6-Port  ) 
!S6P File: Measurement: :
# Hz S  RI   R 50
500000000 -0.33674 -0.033253 -0.0095418 -0.0038829 -0.0077167 0.011494 -0.0038429 0.011266
0.012172 0.0039701 -0.004527 0.0079913
-0.0095614 -0.0038956 -0.41906 -0.048122 0.0077073 -0.011783 0.0016981 0.011736
0.0074525 0.0024078 0.00072991 0.013275
-0.0077 0.011488 0.0076864 -0.011812 -0.2636 0.21119 0.0071404 0.0032376
0.00011166 0.0082813 0.00086271 0.012179
-0.003857 0.011208 0.0017281 0.01175 0.0071724 0.0032258 -0.32603 0.049675
-0.018548 -0.0053037 0.017542 0.026834
0.012357 0.0045456 0.0072188 0.0024934 -0.00012232 0.0081781 -0.01864 -0.0048976
-0.22813 -0.17791 -0.026884 0.0043745
-0.0040778 0.0073876 0.00090681 0.013157 0.00074239 0.012061 0.018265 0.026341
-0.026816 0.0044153 -0.27242 -0.12888
560000000 -0.31471 0.12589 -0.023895 -0.062716 0.00018402 0.012161 0.0069093 0.0097531
0.010723 0.003968 0.009938 0.0073875
-0.023861 -0.062626 -0.37512 0.10909 -0.041788 -0.036814 0.013868 0.003604
-0.013175 -0.0036714 0.004151 -0.00097119
0.00020402 0.012142 -0.041905 -0.036774 -0.18213 0.25852 -0.00069481 -0.0045593
0.0183 0.0034871 0.0077204 -0.0067908
0.00689 0.0096402 0.013907 0.0035729 -0.00062877 -0.0045621 -0.3012 0.13561
0.004368 -0.025184 0.0053475 -0.019185
0.011084 0.003667 -0.012834 -0.0040284 0.018369 0.0038611 0.0043694 -0.02538
-0.28626 -0.0054433 0.0077536 -0.05153
0.0093097 0.00803 0.0045373 -0.00059889 0.0076849 -0.0064564 0.0052049 -0.019374
0.0077216 -0.051401 -0.33256 0.020013
620000000 -0.27233 0.11081 -0.023188 0.0067547 0.0033429 0.0082565 0.0067415 -0.0057976
0.010945 -0.00029095 -0.00073402 -0.0021931
-0.023168 0.0067575 -0.402 0.063526 -0.019087 -0.00059738 -0.0015102 -0.0022929
0.010009 -0.0071019 0.00069754 -0.0029824
0.003369 0.0082537 -0.019117 -0.00054984 -0.15254 0.26715 -0.0017434 -0.005339
-0.0044547 -0.0030782 0.0083129 -0.0037082
0.0066484 -0.0058302 -0.0015098 -0.00226 -0.0017653 -0.0053516 -0.26056 0.14683
-0.038306 -0.018949 0.014322 0.023692
0.011198 -0.00060286 0.0099844 -0.0072806 -0.0041386 -0.0032173 -0.038015 -0.019278
-0.2056 -0.044368 -0.040494 0.014532
-0.00049166 -0.0024296 0.00058891 -0.0028725 0.0081023 -0.0033826 0.013914 0.024256
-0.040199 0.014358 -0.24997 -0.019542
680000000 -0.23178 0.19355 -0.028039 -0.014194 0.0049008 0.0052391 0.001059 -0.0074934
-0.0038067 -0.010819 0.0044372 -0.007537
-0.028012 -0.014207 -0.38652 0.15983 -0.033147 -0.001169 -0.0016277 -0.00025169
-0.0031741 -0.0088671 -0.0013975 -0.0024653
0.0049119 0.0052175 -0.033186 -0.0010883 -0.10238 0.28709 -0.00067344 0.00037951
-0.0024517 0.00094171 -0.0032959 -0.0095926
0.0010052 -0.0075457 -0.00162 -0.00026697 -0.00066107 0.0003744 -0.21849 0.19507
-0.023954 -0.0089447 -0.010705 -0.010424
-0.0035645 -0.010838 -0.0030648 -0.0089276 -0.0024401 0.00084433 -0.023955 -0.008859
-0.24998 0.052557 -0.0056779 -0.0094983
0.0043265 -0.0070365 -0.0014622 -0.0022303 -0.0031468 -0.0094105 -0.010679 -0.010394
-0.0057639 -0.0096092 -0.26269 0.085428
740000000 -0.1892 0.18902 -0.038693 0.025987 0.0125 -0.0050913 -0.00080103 -0.0038011
-0.0042356 -0.0025397 -0.0061622 0.0034086
-0.038694 0.025935 -0.33515 0.17883 -0.03503 0.034914 -0.0011464 -0.0061032
-0.010778 0.0082063 -0.0029822 -0.0062657
0.012494 -0.0051131 -0.034971 0.035056 -0.069021 0.28694 -0.0012748 0.0033103
-0.0025733 -0.0032995 -0.0010525 0.00017592
-0.00078818 -0.0038003 -0.0012091 -0.0061096 -0.001256 0.0033282 -0.20216 0.20301
-0.042865 -0.0078545 0.022085 0.012871
-0.0049454 -0.0026623 -0.010662 0.0082224 -0.0026263 -0.0033719 -0.042722 -0.0079254
-0.15631 0.07444 -0.042088 0.00087549
-0.0061895 0.0038003 -0.0033447 -0.0064595 -0.00097696 0.00013172 0.021833 0.012635
-0.042442 0.00087285 -0.25388 0.091596
800000000 -0.15698 0.22897 -0.022679 0.017304 0.0052093 -0.010424 -0.0048627 -0.0019194
-0.0041311 0.0030389 0.0043315 0.00097559
-0.022666 0.017267 -0.33754 0.24916 -0.007931 0.034429 -0.0020419 0.0023312
-0.00048676 0.0035133 0.0011513 0.0055417
0.0051878 -0.010436 -0.0078446 0.034477 -0.027704 0.3101 0.001293 0.0014015
0.00064144 0.0035366 -0.0018146 0.0011054
-0.0048526 -0.0018769 -0.0020594 0.0023438 0.0012871 0.0014151 -0.17426 0.23061
-0.029124 0.012592 0.013147 -0.0099004
-0.0038078 0.0032552 -0.00041391 0.0037315 0.00071007 0.0036772 -0.028978 0.012779
-0.19919 0.099415 -0.018284 0.01753
0.0043833 0.0010424 0.0011102 0.0053732 -0.0018598 0.0011062 0.013527 -0.009974
-0.018431 0.017175 -0.24628 0.14628
860000000 -0.12232 0.25066 -0.017372 0.031597 -0.0035468 -0.0097504 -0.0025609 0.0015938
0.0043792 0.0050288 -0.0028937 -0.0030532
-0.017361 0.031559 -0.28952 0.29147 0.0084272 0.034415 0.00038392 0.0020965
0.0046451 0.00021606 0.0033117 -4.9223e-05
-0.0035647 -0.0097365 0.0085356 0.034416 0.02118 0.31815 -0.00031984 -0.00039718
0.0028502 -0.0015798 0.0016464 0.0046514
-0.002592 0.001609 0.00038622 0.0020443 -0.00031862 -0.000419 -0.13897 0.24336
-0.018244 0.019402 -0.0061645 -0.0094358
0.004488 0.0052107 0.004692 0.00024567 0.0028722 -0.0015874 -0.018343 0.01959
-0.1507 0.14761 -0.024948 0.01517
-0.0031348 -0.0029099 0.0031828 4.4026e-05 0.0016506 0.0046152 -0.0061722 -0.0094232
-0.024947 0.015302 -0.19553 0.19056
920000000 -0.096555 0.27368 0.0051573 0.038137 -0.0094124 -0.0040793 -0.0016429 0.0024876
0.0014227 0.0015164 0.0025401 -0.0014355
0.0051433 0.038091 -0.26032 0.31229 0.02828 0.021847 0.0016426 0.0011591
0.0067242 -0.00091739 0.0037866 -0.0029928
-0.0094155 -0.0040506 0.028373 0.021773 0.067973 0.3184 0.0017096 -8.7512e-05
0.0013386 -0.00045252 0.00089275 -0.0010045
-0.0016326 0.0024971 0.0016579 0.001136 0.001712 -9.2404e-05 -0.11435 0.26012
-0.010568 0.030574 0.002384 -0.0064294
0.001472 0.0015723 0.0067246 -0.00097137 0.0013078 -0.00050838 -0.010465 0.030387
-0.14 0.15378 -0.0019075 0.027983
0.0024045 -0.0013496 0.0036805 -0.0029771 0.00088147 -0.0010372 0.0025134 -0.0064146
-0.0019155 0.027948 -0.20369 0.20411
980000000 -0.048789 0.29319 0.01812 0.0302 -0.0087241 0.004842 0.0026539 0.0037393
0.0039522 -0.0018329 -0.0032202 -0.0020007
0.018111 0.03018 -0.20729 0.346 0.033134 0.0044467 0.0019763 -0.00015086
0.00088856 -0.0061565 -0.0006491 -0.0022356
-0.0087054 0.0048784 0.033182 0.0043268 0.11459 0.31129 0.00043782 -0.001208
-1.7345e-06 -0.0021179 0.0016577 -4.9015e-05
0.0026304 0.0037302 0.0019939 -0.00016556 0.00043421 -0.0012064 -0.07564 0.27167
0.0077471 0.029283 -0.009411 -0.006631
0.0039305 -0.0018426 0.00084183 -0.0061636 -1.2132e-05 -0.0021282 0.0078453 0.029279
-0.10813 0.18108 0.0049774 0.018984
-0.0031443 -0.0020575 -0.00072536 -0.0022426 0.001677 -9.3228e-05 -0.0095309 -0.0066274
0.0049693 0.018957 -0.15971 0.24979
1040000000 -0.0055012 0.30096 0.033669 0.017743 -0.00090211 0.0069619 0.0028981 0.00050569
-5.5312e-05 -0.0037978 -0.00072329 -0.001517
0.033647 0.017725 -0.17121 0.35892 0.029171 -0.015129 0.0013452 -0.0016985
-0.00269 -0.0021988 -0.0016225 -0.0026987
-0.00087302 0.0069815 0.029122 -0.015269 0.16093 0.29709 -0.00054791 -0.00141
-0.0014917 -0.00077609 -0.00038497 -0.0013178
0.0029094 0.0005227 0.0013686 -0.0017279 -0.00054604 -0.0014142 -0.047608 0.28176
0.018771 0.017338 -0.002958 0.0024179
-0.00017398 -0.003753 -0.0027698 -0.0022211 -0.0014929 -0.00084628 0.018823 0.01731
-0.076997 0.19013 0.013368 0.018038
-0.00068831 -0.0014849 -0.0016457 -0.0026794 -0.0004323 -0.0012694 -0.0030313 0.0024726
0.013436 0.018073 -0.13919 0.27185
1100000000 0.040218 0.30789 0.035911 -0.0046633 0.0031939 0.0036988 0.0025052 -0.0016002
-0.0020944 -0.0029918 -0.0038586 0.00013219
0.035892 -0.004644 -0.12747 0.37571 0.014763 -0.027867 -5.5534e-05 -0.0018221
-0.0029975 -0.00027681 -0.0034052 -0.00055262
0.0032118 0.0036923 0.014669 -0.027958 0.20723 0.27622 -0.0017774 0.00030153
-0.0016432 0.00064543 -0.00096625 -0.00050053
0.0025083 -0.0016038 -4.7084e-05 -0.0018288 -0.0017787 0.00030237 -0.0064826 0.28654
0.023152 0.0049635 -0.0020983 0.0010942
-0.0021311 -0.0030318 -0.0030464 -0.00025294 -0.001681 0.00059754 0.02323 0.0049078
-0.058472 0.20344 0.018911 0.0084911
-0.0039352 0.0001973 -0.003396 -0.00055011 -0.00093539 -0.00048324 -0.0021104 0.0012167
0.019013 0.0085566 -0.092131 0.30113
1160000000 0.091942 0.30208 0.023836 -0.02114 0.0028795 -0.00071993 -0.00028176 -0.002591
-0.0040333 -0.00033936 -0.00087765 0.0039343
0.023846 -0.021113 -0.083076 0.37949 -0.0040436 -0.028862 -0.0018091 -0.0015402
-0.0022265 0.0025517 -0.0012657 0.0016039
0.0028758 -0.00072353 -0.0041802 -0.028878 0.25013 0.24485 -0.00056387 0.0017197
-0.00038722 0.0016639 -0.0011396 1.4551e-05
-0.0003051 -0.0025854 -0.0018269 -0.0015538 -0.00056363 0.0017227 0.033472 0.28305
0.019634 -0.010057 -0.0025759 0.0055504
-0.0040524 -0.00029609 -0.0022176 0.002562 -0.00040663 0.0016684 0.01961 -0.010061
-0.024752 0.21277 0.017689 0.00025364
-0.00087833 0.0039396 -0.0013047 0.001678 -0.0011382 7.176e-05 -0.0024466 0.0055598
0.017665 0.00044137 -0.044675 0.30427
1220000000 0.13639 0.28982 0.01016 -0.030198 -0.0015296 -0.0011108 -0.00029262 -0.0010332
-0.0024866 0.0025669 0.0013172 0.0018949
0.010177 -0.030169 -0.038727 0.39058 -0.016986 -0.020712 -0.0024679 0.00055226
0.00030771 0.0026902 -0.0006927 0.0017577
-0.0015304 -0.0010971 -0.017091 -0.020671 0.28899 0.2054 0.00089318 0.0014851
0.00053493 0.0011301 0.00018531 0.00080128
-0.00030083 -0.0010319 -0.0024702 0.00055722 0.00089435 0.0014915 0.073233 0.27381
0.0093276 -0.015854 0.0029112 0.0015393
-0.0024953 0.0025441 0.00030507 0.0027061 0.00050952 0.0011057 0.0092976 -0.015862
-0.00022134 0.22206 0.013528 -0.012484
0.0013032 0.001917 -0.00072245 0.0017989 0.00014205 0.00082037 0.002931 0.0015762
0.013543 -0.012551 -0.013351 0.32157
1280000000 0.18579 0.26694 -0.008126 -0.028452 -0.0019255 0.0022886 -0.0011271 -0.0018134
-0.00051546 0.0030608 0.0025094 0.00093826
-0.0080815 -0.028432 0.0071982 0.38094 -0.023466 -0.0081266 -0.00091622 0.0014665
0.0015601 0.0014817 0.00045633 0.0019076
-0.0019134 0.0022931 -0.023531 -0.0080343 0.31936 0.16118 0.0013271 -0.00025768
0.00094811 0.00016583 0.0002135 0.00050596
-0.0011472 -0.001806 -0.00092269 0.0014841 0.001315 -0.00023826 0.10955 0.25697
0.00035327 -0.017448 0.00063781 -0.00020777
-0.00051815 0.0030252 0.0015458 0.0014753 0.00093899 0.00018219 0.00036066 -0.017469
0.0375 0.22512 0.0027716 -0.014464
0.0026108 0.00094579 0.00053438 0.0019293 0.00026187 0.00044669 0.00059469 -0.00012065
0.00285 -0.014422 0.035117 0.32314
1340000000 0.22253 0.23221 -0.017819 -0.018913 0.0007007 0.0042319 -0.0018168 -0.00064408
0.001467 0.0025525 0.0016332 -0.0016005
-0.017789 -0.018896 0.046396 0.3718 -0.021181 0.0043211 -3.7965e-05 0.0018407
0.0015786 0.00066272 0.0013425 0.00076335
0.00071779 0.0042363 -0.02117 0.004423 0.34121 0.11313 0.00089262 -0.0008336
0.00061961 -0.00036406 0.00031921 0.00028231
-0.0018379 -0.00064467 -2.8787e-05 0.001862 0.00090347 -0.00084438 0.14192 0.2364
-0.0079356 -0.01442 0.001278 -0.0001425
0.001462 0.0025089 0.001594 0.00061754 0.00060845 -0.00038862 -0.0079118 -0.014434
0.068756 0.21949 -0.0035239 -0.012913
0.0015484 -0.001545 0.0012929 0.00077407 0.00031073 0.00029642 0.0012511 -0.00024481
-0.0035491 -0.012951 0.073977 0.31891
1400000000 0.25466 0.19326 -0.023509 -0.0074014 0.0048124 0.0030418 -0.0019382 0.00070581
0.002439 0.00061418 0.000101 -0.0013371
-0.023467 -0.0074105 0.08297 0.35819 -0.014506 0.012202 0.0012861 0.0012051
0.00088918 -0.00073673 0.0011516 0.00027125
0.0048284 0.003017 -0.014463 0.012291 0.35402 0.059361 8.0066e-05 -0.0013472
0.00012945 -0.00035363 0.0003668 0.00034523
-0.0019281 0.00071013 0.0012879 0.0011998 7.6242e-05 -0.0013523 0.17133 0.20784
-0.012825 -0.0082118 -0.0006628 -0.00089821
0.0024305 0.0005899 0.00091133 -0.0007868 0.0001235 -0.00040113 -0.012812 -0.0081755
0.10197 0.21358 -0.0096141 -0.0082615
7.703e-05 -0.0013276 0.0011697 0.00022694 0.00034315 0.00027876 -0.0006329 -0.00091702
-0.0096038 -0.0082705 0.11944 0.30785
1460000000 0.27675 0.14881 -0.020545 0.0047378 0.0052648 -0.0016154 -0.0015076 0.001616
0.001887 -0.00079369 -0.00035948 -0.00071693
-0.020539 0.0047302 0.11658 0.33607 -0.0061048 0.014879 0.0016508 0.00014089
0.00083939 -0.0010759 0.0011459 -0.00068765
0.0052575 -0.0016376 -0.006027 0.01492 0.35973 0.0045925 -0.0010128 -0.0011786
0.00025838 -0.00017271 0.00074775 -0.00045022
-0.0014848 0.0016212 0.0016519 0.00011827 -0.0010004 -0.0011881 0.19774 0.17881
-0.013407 -0.0025968 -0.0012236 0.0014387
0.001874 -0.00082932 0.00079721 -0.0010893 0.00028292 -0.00019222 -0.013447 -0.0025418
0.13166 0.19753 -0.011192 -0.0028623
-0.00032525 -0.00074088 0.001137 -0.00064846 0.00066972 -0.00045455 -0.0011925 0.0013814
-0.011232 -0.0028706 0.15301 0.28655
1520000000 0.28793 0.10687 -0.01487 0.010435 0.0030201 -0.0038954 0.00013161 0.0024978
0.0017027 -0.001723 -0.0011289 -0.00014039
-0.014881 0.010418 0.14954 0.32115 0.0012825 0.012834 0.001543 -0.00075699
0.00011243 -0.00089619 0.00025523 -0.0010208
0.002998 -0.0039143 0.0013589 0.012832 0.35235 -0.051692 -0.00089496 -0.0003849
0.00051086 -0.00078195 -5.476e-06 -4.5298e-05
0.000152 0.0024938 0.0015486 -0.00077478 -0.00090019 -0.00038968 0.22124 0.14077
-0.012715 0.0021993 0.00096965 0.0016348
0.0016745 -0.0017382 0.00013001 -0.00090171 0.0005056 -0.00077822 -0.01274 0.0022325
0.15931 0.18197 -0.011204 0.0013476
-0.0011086 -9.0102e-05 0.00023876 -0.0010488 -1.4625e-05 -7.317e-05 0.00098239 0.0016705
-0.011205 0.0012927 0.18667 0.26612
1580000000 0.29643 0.060629 -0.0081685 0.013535 -0.00089016 -0.0045662 0.0013293 0.0017653
-0.00057155 -0.0020407 -0.00030766 0.00042824
-0.0081676 0.013519 0.17632 0.29643 0.0048881 0.0081565 0.00045278 -0.0015538
-0.00038777 -0.0010487 -0.00030476 -0.00082812
-0.00090832 -0.0045619 0.004937 0.0081341 0.33174 -0.10915 -0.0014972 0.00044252
-0.00026509 -0.0010902 6.9308e-05 -0.00062176
0.0013165 0.001757 0.00045373 -0.0015571 -0.0014877 0.00044131 0.23571 0.10116
-0.0097996 0.0061921 0.001691 0.0006699
-0.00059081 -0.0020237 -0.00038399 -0.0010457 -0.00024753 -0.0010879 -0.0098344 0.0062155
0.18307 0.16304 -0.0090464 0.0066734
-0.00024829 0.00042503 -0.00030453 -0.00082459 0.00015408 -0.000603 0.001635 0.00064943
-0.0089851 0.0066349 0.21905 0.23941
1640000000 0.29772 0.019271 -0.0014291 0.012485 -0.0025439 -0.0024642 0.0024795 0.0010106
-0.00081943 -0.0011081 -0.00029932 0.00068216
-0.0014488 0.012473 0.20548 0.27143 0.0055905 0.0035925 -0.00073681 -0.0016177
-0.00095698 -0.00047205 -0.00057915 -0.00061143
-0.0025527 -0.0024486 0.005622 0.0035569 0.30312 -0.15796 -0.00090577 0.0012881
-0.0010024 -0.00076348 -9.98e-05 -0.00036149
0.0024736 0.001006 -0.00073783 -0.0016159 -0.0008995 0.0013051 0.24823 0.051613
-0.0063858 0.0070238 0.002059 -0.00057861
-0.00084222 -0.0011102 -0.000969 -0.00044295 -0.0010286 -0.00076544 -0.006352 0.0070045
0.20522 0.13738 -0.0044274 0.0087977
-0.000318 0.00073536 -0.00056623 -0.00057922 -0.00012276 -0.00029717 0.0020406 -0.0006001
-0.0043879 0.0088236 0.24473 0.2079
1700000000 0.28981 -0.025772 0.0020752 0.0097455 -0.0033516 0.00011863 0.0028714 -0.0010183
-0.0017855 -0.00028905 0.00057077 0.00038198
0.0020547 0.0097283 0.2232 0.24004 0.0036986 0.00080285 -0.0013866 -0.00056411
-0.00081924 8.1556e-06 -0.00091258 -0.00032767
-0.0033386 0.00013436 0.0037113 0.00077346 0.25945 -0.19764 0.00030699 0.0016246
-0.0017422 -0.00023673 -0.00061427 -0.0010042
0.0028679 -0.0010456 -0.0014033 -0.00055318 0.00030724 0.0016268 0.2448 0.00099536
-0.0044507 0.0073394 0.0013493 -0.001802
-0.0017906 -0.00031524 -0.00080265 -1.5557e-08 -0.0017384 -0.00026274 -0.0044203 0.0073574
0.22227 0.11561 -0.00010637 0.0092214
0.00058536 0.00034815 -0.00091982 -0.00034613 -0.00064188 -0.00095299 0.0012554 -0.0018371
-0.00014119 0.0092079 0.26163 0.17331
1760000000 0.27688 -0.074115 0.0044876 0.0064501 -0.002198 0.00089138 0.0013399 -0.0032493
-0.00094954 0.00079911 0.0003772 -0.00051042
0.0044729 0.0064534 0.24895 0.20028 0.0016351 -0.00086925 -0.001124 0.00021482
-0.0011216 0.00092945 -0.00051775 0.00052037
-0.0021829 0.00090042 0.001627 -0.00088753 0.21046 -0.23042 0.0011605 0.001372
-0.0011052 0.0014082 -0.0013965 -0.00042833
0.0013333 -0.0032353 -0.0011184 0.0002217 0.0011321 0.0013676 0.23481 -0.051053
-0.0019654 0.0068352 -0.00050101 -0.0020058
-0.00097933 0.00076513 -0.0011314 0.00090456 -0.0011413 0.0014179 -0.0019205 0.0068756
0.23675 0.079169 0.0034869 0.0064478
0.00031298 -0.0004981 -0.00052666 0.00054159 -0.0013949 -0.00039593 -0.0004363 -0.0020061
0.0035332 0.0064591 0.27386 0.13526
1820000000 0.25157 -0.11097 0.0047837 0.0028181 5.0461e-06 0.0023932 -0.00086473 -0.0030033
-0.00072792 0.00073066 8.0167e-05 -9.2694e-05
0.0047787 0.0028199 0.25857 0.17027 -0.000205 0.00018992 -0.0012949 0.00089673
-9.0921e-05 0.0013981 -0.00042562 0.00051423
2.9176e-05 0.0023888 -0.00021167 0.00018838 0.16056 -0.24587 0.0015851 0.00052502
-0.00029567 0.0021134 -0.001395 0.00057489
-0.00085293 -0.0030011 -0.0012834 0.0008978 0.0015642 0.00053805 0.20366 -0.098358
-0.00090162 0.0056989 -0.0015412 -0.0013719
-0.00070988 0.00072835 -7.6091e-05 0.0014031 -0.00029602 0.0021415 -0.0009339 0.0057447
0.25243 0.048234 0.0046238 0.0031228
2.7593e-05 -0.00011652 -0.00039837 0.0005191 -0.0014146 0.00059383 -0.0015884 -0.0013112
0.0045896 0.0031265 0.27623 0.099007
1880000000 0.21594 -0.15039 0.0026745 0.00051966 -0.00025869 0.0020621 -0.0027626 -0.0022383
-0.0002255 0.0013619 0.0003438 -0.00061069
0.0026804 0.00051537 0.26288 0.12405 -0.0020681 0.0017875 -0.00011705 0.0016579
0.00069314 0.0013451 0.00020072 0.0008688
-0.00026114 0.0020596 -0.0020621 0.0018032 0.10861 -0.25522 0.0020115 -0.0011202
0.0015083 0.0019769 -0.00092388 0.0014393
-0.002785 -0.00223 -0.00010843 0.0016583 0.0020235 -0.0011327 0.1623 -0.13775
-0.00070634 0.0046748 -0.0022136 0.00077182
-0.00018003 0.0013597 0.00071004 0.0013412 0.0015241 0.0019951 -0.00074106 0.0046929
0.25342 0.013757 0.0041203 0.0013744
0.00036107 -0.0006255 0.00026145 0.00086643 -0.00085298 0.0014438 -0.0022104 0.0007732
0.0041682 0.0013422 0.27606 0.064739
1940000000 0.17638 -0.17568 0.00046782 -0.0014148 0.0013572 0.001757 -0.0037988 0.00038734
0.0011368 0.00089383 -0.00062802 -0.00063572
0.00047726 -0.0014166 0.26329 0.092277 -0.0009398 0.0039071 0.00098434 0.0012621
0.0019929 0.00047843 0.00079066 0.00014741
0.0013684 0.0017433 -0.00092433 0.0039208 0.062472 -0.24885 0.00026959 -0.0024375
0.0023977 0.00050149 0.00034123 0.0015219
-0.0038142 0.00042492 0.00098671 0.0012532 0.00030469 -0.0024269 0.10929 -0.16708
-0.001634 0.0042924 -0.0010923 0.0017272
0.0011809 0.00089154 0.0020068 0.00047952 0.0024175 0.00049189 -0.0017249 0.0041935
0.25263 -0.0267 0.0030076 -0.0017005
-0.0006049 -0.00071806 0.00080841 0.00014933 0.00030683 0.0015449 -0.0011988 0.0017931
0.0029746 -0.001689 0.26495 0.028806
2000000000 0.13017 -0.18963 -0.0034157 0.00033933 0.0023723 0.0014104 -0.0023789 0.0035104
0.00090152 0.00025974 -0.00078911 0.00033253
-0.0034104 0.0003302 0.24901 0.056778 -0.00072505 0.0054909 0.0015941 0.00018964
0.0015047 -0.0015723 0.00043383 0.00018797
0.0023863 0.0014015 -0.00069089 0.0055095 0.01901 -0.23466 -0.0015912 -0.0013939
0.0020255 -0.0012411 0.0016503 0.0013545
-0.0023443 0.0035087 0.0015928 0.0001942 -0.0016122 -0.0014094 0.05619 -0.17603
-0.0028448 0.0047937 0.00024416 0.0023787
0.00091983 0.00017254 0.0014994 -0.001608 0.0020308 -0.001288 -0.0028183 0.0048419
