!Keysight Technologies,M9804A,MY58100912,A.14.10.03
!Date: Thursday, April 27, 2023 10:28:33
!Correction: S11(C  6-Port  ) 
!S12(C  6-Port  ) 
!S13(C  6-Port  ) 
!S14(C  6-Port  ) 
!S15(C  6-Port  ) 
!S16(C  6-Port  ) 
!S21(C  6-Port  ) 
!S22(C  6-Port  ) 
!S23(C  6-Port  ) 
!S24(C  6-Port  ) 
!S25(C  6-Port  ) 
!S26(C  6-Port  ) 
!S31(C  6-Port  ) 
!S32(C  6-Port  ) 
!S33(C  6-Port  ) 
!S34(C  6-Port  ) 
!S35(C  6-Port  ) 
!S36(C  6-Port  ) 
!S41(C  6-Port  ) 
!S42(C  6-Port  ) 
!S43(C  6-Port  ) 
!S44(C  6-Port  ) 
!S45(C  6-Port  ) 
!S46(C  6-Port  ) 
!S51(C  6-Port  ) 
!S52(C  6-Port  ) 
!S53(C  6-Port  ) 
!S54(C  6-Port  ) 
!S55(C  6-Port  ) 
!S56(C  6-Port  ) 
!S61(C  6-Port  ) 
!S62(C  6-Port  ) 
!S63(C  6-Port  ) 
!S64(C  6-Port  ) 
!S65(C  6-Port  ) 
!S66(C  6-Port  ) 
!S6P File: Measurement: :
# Hz S  RI   R 50
500000000 -0.33692 -0.033306 -0.0094667 -0.0038435 -0.0079371 0.011969 -0.0034831 0.011595
0.011974 0.0047771 -0.003821 0.0081985
-0.0094638 -0.0038588 -0.41974 -0.048473 0.0072069 -0.011221 0.0015466 0.011891
0.0076473 0.0024416 0.00057792 0.013331
-0.0079359 0.01196 0.0071893 -0.011248 -0.26471 0.21203 0.0068605 0.0033183
7.7149e-05 0.0082299 0.00015752 0.012374
-0.0035149 0.011584 0.0015403 0.011898 0.0068416 0.0033165 -0.32712 0.048931
-0.019807 -0.0048484 0.017785 0.026387
0.011985 0.0047626 0.00764 0.002455 8.2076e-05 0.0082503 -0.019779 -0.0048177
-0.22796 -0.18175 -0.027834 0.0046454
-0.0038256 0.0082384 0.00060994 0.013339 0.0001465 0.012388 0.017804 0.026373
-0.027832 0.0046187 -0.27033 -0.13409
560000000 -0.31562 0.1257 -0.024322 -0.062785 0.00028574 0.012147 0.0063102 0.009882
0.010837 0.0038406 0.0095267 0.0077279
-0.024279 -0.062723 -0.37644 0.10929 -0.041874 -0.036455 0.01371 0.0038244
-0.013408 -0.0045008 0.0042564 -0.00049541
0.00031453 0.012122 -0.041995 -0.036397 -0.18267 0.25917 -0.00077057 -0.0047053
0.019373 0.0040437 0.0071824 -0.0063952
0.0063389 0.0098749 0.013687 0.0038501 -0.00079281 -0.0047304 -0.30201 0.13708
0.0033328 -0.02456 0.0046641 -0.019234
0.010903 0.0038351 -0.013415 -0.0044397 0.019389 0.004021 0.0033123 -0.024559
-0.28582 -0.0074348 0.0068645 -0.051238
0.0095255 0.0077147 0.0042482 -0.0004803 0.0071743 -0.0063758 0.0046875 -0.019229
0.0068769 -0.051214 -0.33391 0.015111
620000000 -0.27287 0.11056 -0.023257 0.0070487 0.0035978 0.0083294 0.0068101 -0.0056394
0.01149 -0.00052938 0.00022319 -0.0019074
-0.023255 0.00705 -0.4025 0.063768 -0.019012 5.1125e-05 -0.0015128 -0.0020782
0.010401 -0.0072066 0.0010314 -0.0026364
0.0036183 0.0083474 -0.019051 0.00011013 -0.15228 0.26886 -0.0018364 -0.0050831
-0.0035676 -0.0035026 0.008077 -0.0033519
0.0068289 -0.0056677 -0.0015414 -0.0020959 -0.001827 -0.0050972 -0.26048 0.14658
-0.039275 -0.018029 0.013845 0.024357
0.011489 -0.00049036 0.010414 -0.0072405 -0.0035599 -0.0034872 -0.03923 -0.018058
-0.20561 -0.047119 -0.041326 0.015518
0.00023365 -0.0019098 0.0010014 -0.0026353 0.0080392 -0.0033753 0.013858 0.024364
-0.041369 0.015551 -0.25052 -0.024959
680000000 -0.23265 0.19403 -0.028082 -0.013769 0.0049179 0.0051242 0.0011804 -0.0075361
-0.0033114 -0.011025 0.004244 -0.0070399
-0.028047 -0.013775 -0.38678 0.1602 -0.032977 -0.0011102 -0.0016324 -0.00020297
-0.0027163 -0.0089117 -0.0010788 -0.0020747
0.0049438 0.0051131 -0.033012 -0.0010263 -0.10176 0.2877 -0.0005802 0.00017322
-0.0023194 0.00082372 -0.0030558 -0.00961
0.0011794 -0.0075401 -0.0016358 -0.00018921 -0.0005694 0.00017261 -0.21802 0.19568
-0.023863 -0.0080663 -0.010655 -0.01044
-0.0033394 -0.011033 -0.0027575 -0.0089266 -0.0023113 0.00082221 -0.023884 -0.0080304
-0.25239 0.051514 -0.0056478 -0.0094473
0.0042529 -0.0070839 -0.0011142 -0.0021147 -0.0030532 -0.0096224 -0.010694 -0.010439
-0.0056908 -0.0094487 -0.26262 0.08373
740000000 -0.1887 0.18931 -0.038404 0.026659 0.0128 -0.0053108 -0.0010156 -0.0040108
-0.0047801 -0.0027179 -0.0061978 0.0032843
-0.038399 0.026633 -0.3349 0.17889 -0.034749 0.035316 -0.00096664 -0.0062875
-0.011046 0.008176 -0.003296 -0.0062518
0.012794 -0.0053274 -0.034677 0.035435 -0.068418 0.28661 -0.0014047 0.0031804
-0.0028081 -0.0036828 -0.0010623 -9.2064e-05
-0.0010042 -0.0040073 -0.00098124 -0.0062968 -0.001402 0.0031853 -0.20211 0.20359
-0.042459 -0.0074845 0.022269 0.01319
-0.0047802 -0.0026782 -0.011028 0.0082392 -0.0028109 -0.0036981 -0.042488 -0.007438
-0.15699 0.074334 -0.041983 0.0012354
-0.0062015 0.0033039 -0.0033062 -0.0062247 -0.001067 -8.631e-05 0.022276 0.013202
-0.042005 0.0012343 -0.25515 0.088955
800000000 -0.15671 0.22934 -0.022323 0.017509 0.0054135 -0.010579 -0.00481 -0.001888
-0.0041994 0.0031266 0.0046712 0.0007814
-0.022317 0.017485 -0.33717 0.2491 -0.0077199 0.034371 -0.0020838 0.0022192
-0.0006445 0.0036443 0.001283 0.0053289
0.0053935 -0.010586 -0.0076271 0.034414 -0.027257 0.30966 0.0012398 0.0015342
0.00071423 0.003582 -0.0017553 0.00097816
-0.0048321 -0.0018784 -0.0020814 0.0022267 0.001243 0.0015389 -0.1739 0.23094
-0.028534 0.013108 0.013739 -0.010053
-0.004215 0.003124 -0.00064597 0.0036493 0.00071224 0.0035824 -0.02853 0.013167
-0.19966 0.099203 -0.017633 0.018009
0.00467 0.00079003 0.0012994 0.0053303 -0.0017575 0.00098312 0.01374 -0.010078
-0.017646 0.018028 -0.24704 0.14351
860000000 -0.12191 0.25008 -0.016802 0.031264 -0.0033035 -0.010012 -0.0025293 0.0013842
0.0040893 0.0051231 -0.0029785 -0.0027579
-0.016808 0.03124 -0.28913 0.29095 0.0085216 0.034442 0.00021857 0.0020883
0.0045982 0.00039126 0.0035178 0.00015703
-0.0033291 -0.0099891 0.0086328 0.034447 0.021207 0.31769 -0.00032749 -0.00029124
0.0027259 -0.0015909 0.0017507 0.0044937
-0.0025257 0.0013831 0.00022582 0.0020942 -0.00033405 -0.00029651 -0.13852 0.24294
-0.018038 0.019063 -0.0060008 -0.0094383
0.0041148 0.0051188 0.0046034 0.00037086 0.0027309 -0.0016005 -0.018029 0.019118
-0.15083 0.14693 -0.024315 0.016009
-0.0030076 -0.0027519 0.0035066 0.00012872 0.0017539 0.0045069 -0.006024 -0.0094294
-0.024344 0.016019 -0.19656 0.18812
920000000 -0.096578 0.2733 0.0054814 0.037848 -0.0095805 -0.0043744 -0.0016827 0.0022918
0.0013693 0.0016916 0.0026767 -0.0015396
0.0054574 0.037819 -0.2602 0.31178 0.02836 0.021668 0.0016141 0.0010099
0.006927 -0.00081021 0.0039496 -0.0030569
-0.0095947 -0.0043479 0.02846 0.021593 0.067726 0.31812 0.001718 -0.00019275
0.0013679 -0.00048327 0.00087691 -0.0011844
-0.0016826 0.0022914 0.001628 0.0010123 0.0017207 -0.00018389 -0.11418 0.25943
-0.010013 0.030376 0.0027059 -0.006873
0.0013888 0.001688 0.0069312 -0.00082794 0.0013812 -0.00049436 -0.0099508 0.030405
-0.13996 0.15314 -0.0013471 0.027808
0.0026873 -0.0015471 0.0039307 -0.0030954 0.0008635 -0.0011825 0.002692 -0.0068818
-0.0013797 0.027812 -0.20519 0.20145
980000000 -0.048905 0.29251 0.018255 0.029832 -0.0089261 0.0047177 0.0025301 0.0035871
0.0039989 -0.0017202 -0.0030348 -0.0020181
0.018249 0.029811 -0.20736 0.34523 0.033254 0.0043056 0.0020274 -0.00020254
0.0010501 -0.0061789 -0.00059855 -0.0023116
-0.0089276 0.0047428 0.03332 0.0041964 0.11433 0.31131 0.00040244 -0.0011976
-7.0788e-05 -0.0021599 0.0015498 -6.0937e-05
0.0025295 0.0035772 0.0020386 -0.00019297 0.00039785 -0.0011954 -0.075599 0.27121
0.0080145 0.029213 -0.009307 -0.0067446
0.0039939 -0.0017324 0.0010155 -0.006219 -7.4532e-05 -0.0021627 0.0080877 0.029226
-0.10812 0.18024 0.0053513 0.019088
-0.0030459 -0.0019967 -0.00058508 -0.0023042 0.0015515 -6.2372e-05 -0.0093094 -0.0067206
0.0053187 0.019082 -0.16173 0.24815
1040000000 -0.0059352 0.30067 0.033622 0.017476 -0.0011812 0.0069602 0.0028407 0.00066342
-4.8639e-05 -0.0036307 -0.00051047 -0.0015342
0.033598 0.01745 -0.1717 0.35846 0.029162 -0.015356 0.0014483 -0.0017023
-0.0026568 -0.0023385 -0.0015656 -0.0028661
-0.0011805 0.0069677 0.029153 -0.015496 0.16077 0.29732 -0.00058471 -0.0014031
-0.0016187 -0.00080063 -0.00038952 -0.0012288
0.0028463 0.00064879 0.0014612 -0.0016989 -0.00059055 -0.0014008 -0.04782 0.28133
0.019193 0.017019 -0.0030666 0.001877
-5.8432e-05 -0.0036189 -0.0026915 -0.0023394 -0.0016133 -0.00081028 0.019242 0.016996
-0.077097 0.18849 0.013887 0.017684
-0.00052972 -0.0015188 -0.0015765 -0.0028917 -0.00039345 -0.0012255 -0.0030715 0.0018779
0.013882 0.017697 -0.14178 0.26984
1100000000 0.039769 0.30769 0.035923 -0.004966 0.0029664 0.0038033 0.002482 -0.0015381
-0.0021416 -0.0030381 -0.0040411 9.0821e-05
0.035896 -0.0049597 -0.12799 0.37542 0.014658 -0.02816 -7.5619e-05 -0.0018249
-0.0032819 -0.00034469 -0.003578 -0.00041824
0.0029702 0.0037948 0.014574 -0.028241 0.20746 0.27643 -0.0018221 0.00031801
-0.0017099 0.00073153 -0.00099071 -0.00044016
0.0024785 -0.00155 -8.3186e-05 -0.0018228 -0.0018258 0.00031864 -0.0068915 0.28617
0.023572 0.0043461 -0.0025416 0.00085624
-0.0021636 -0.0030201 -0.0032939 -0.00032615 -0.0017065 0.00072543 0.023592 0.0043189
-0.058819 0.20138 0.019178 0.0082977
-0.0040481 0.00010408 -0.0035849 -0.00040113 -0.00099094 -0.00043883 -0.0025338 0.00086307
0.019148 0.0082891 -0.094745 0.29997
1160000000 0.091387 0.30216 0.02366 -0.021416 0.0026964 -0.00050805 -0.00018678 -0.0025059
-0.0040666 -0.00045524 -0.0010491 0.0040395
0.023664 -0.02143 -0.083862 0.37968 -0.0043738 -0.029067 -0.0018358 -0.0016065
-0.0022941 0.0027405 -0.0013873 0.0016806
0.0026846 -0.00052746 -0.0044921 -0.029085 0.25061 0.24477 -0.00053275 0.0017884
-0.0002842 0.0018747 -0.0011005 0.00017498
-0.0001948 -0.0025224 -0.0018421 -0.0015968 -0.00052604 0.0017932 0.032835 0.28312
0.019641 -0.010802 -0.0029253 0.0055295
-0.0040862 -0.00042178 -0.0022834 0.0027573 -0.00027315 0.0018702 0.019639 -0.010833
-0.025813 0.21058 0.017839 0.00020895
-0.0010347 0.0040459 -0.0013667 0.0016746 -0.0010952 0.0001663 -0.0029198 0.0055399
0.01782 0.00021272 -0.047486 0.30309
1220000000 0.13608 0.29004 0.0097488 -0.030411 -0.0015579 -0.00080776 -0.00017801 -0.0010803
-0.0025051 0.0025995 0.0013905 0.0019338
0.009751 -0.030403 -0.03918 0.39105 -0.017335 -0.020787 -0.0025061 0.00053481
0.00035793 0.0029165 -0.00064904 0.0018547
-0.0015677 -0.00080614 -0.017437 -0.020734 0.2894 0.20489 0.00098903 0.0015315
0.00065492 0.0011315 0.00022474 0.00078528
-0.00017539 -0.0010835 -0.0025143 0.0005529 0.00098863 0.0015348 0.072895 0.27408
0.0089576 -0.016599 0.002601 0.0017929
-0.0025018 0.0026115 0.00037162 0.0029161 0.00065868 0.0011393 0.0089319 -0.01661
-0.0020974 0.2203 0.013524 -0.013059
0.0014043 0.0019322 -0.00062611 0.0018583 0.00023169 0.00078287 0.0025964 0.0017832
0.013499 -0.013059 -0.015672 0.32121
1280000000 0.18559 0.26722 -0.0086483 -0.028455 -0.0018187 0.0025397 -0.0011227 -0.0019369
-0.00057192 0.0031575 0.0026088 0.00095701
-0.0086362 -0.028437 0.0070368 0.38148 -0.02383 -0.0079351 -0.00088875 0.001522
0.0017907 0.001535 0.00062696 0.0019597
-0.0018107 0.0025503 -0.023888 -0.007834 0.31927 0.16053 0.0014353 -0.00025923
0.0010376 0.00011439 0.00029808 0.00041327
-0.0011303 -0.0019289 -0.00088288 0.0015249 0.0014321 -0.00025564 0.10939 0.2573
-0.00041444 -0.017952 0.00047251 0.0001685
-0.00055968 0.0031571 0.0018042 0.001528 0.0010391 0.00010228 -0.00044583 -0.017956
0.03523 0.22417 0.0026592 -0.014953
0.0026213 0.00094689 0.00063712 0.0019559 0.00029784 0.00041489 0.0004733 0.00017206
0.0026582 -0.014947 0.032474 0.32293
1340000000 0.22244 0.23246 -0.018336 -0.018532 0.00094515 0.0043413 -0.0019008 -0.00069758
0.0015467 0.0026028 0.0016676 -0.0015975
-0.01832 -0.018522 0.046595 0.37222 -0.021364 0.0047041 3.8308e-05 0.0019103
0.0017439 0.00050238 0.0013857 0.00084752
0.00095531 0.0043418 -0.021359 0.0048131 0.34064 0.11248 0.00087255 -0.00094998
0.00063085 -0.00040753 0.00021204 0.00027105
-0.0019062 -0.00068379 4.8167e-05 0.0019105 0.00088081 -0.00095401 0.14199 0.2367
-0.0089655 -0.01443 0.0012779 0.00020583
0.0015665 0.0025856 0.0017436 0.00049068 0.00062228 -0.00041112 -0.0089968 -0.014421
0.066192 0.2194 -0.0040822 -0.01322
0.0016583 -0.0016044 0.0013979 0.00083938 0.00022026 0.00026827 0.0012701 0.00019795
-0.0040864 -0.013231 0.071922 0.31899
1400000000 0.25477 0.19342 -0.023736 -0.0068216 0.005124 0.0030534 -0.002005 0.00074058
0.0025455 0.00064418 0.00015775 -0.0013794
-0.023715 -0.0068288 0.083381 0.35839 -0.014401 0.01262 0.0013526 0.0011493
0.00089415 -0.00094375 0.0012079 0.00022
0.0051378 0.0030388 -0.01437 0.012713 0.35314 0.05904 -6.2429e-06 -0.0014696
5.6601e-05 -0.00037299 0.00038668 0.00024925
-0.0020046 0.00074708 0.0013584 0.0011417 -1.8945e-06 -0.0014711 0.17147 0.20801
-0.013852 -0.0076047 -0.00049403 -0.00067254
0.0025502 0.00063223 0.00088714 -0.00095401 5.0365e-05 -0.00037332 -0.01387 -0.0075768
0.099666 0.21413 -0.010322 -0.0081267
0.00015004 -0.0013872 0.0012093 0.00021859 0.00037755 0.0002583 -0.00049385 -0.00067204
-0.010323 -0.0081427 0.11731 0.30813
1460000000 0.27671 0.14875 -0.020424 0.0053897 0.0055147 -0.0018139 -0.0014407 0.0017469
0.0020513 -0.00085853 -0.00039438 -0.00079461
-0.020416 0.0053834 0.11695 0.33587 -0.0057002 0.015177 0.0016246 0.00010883
0.00067375 -0.0011516 0.0011165 -0.00066684
0.0055117 -0.0018354 -0.005637 0.015218 0.35882 0.0049322 -0.001156 -0.001138
0.00026093 -0.00015972 0.00072232 -0.00040607
-0.0014413 0.0017631 0.0016191 9.7497e-05 -0.0011662 -0.0011422 0.19796 0.17881
-0.013964 -0.0013983 -0.000944 0.0015828
0.0020399 -0.00087001 0.00066555 -0.0011583 0.00026432 -0.00015907 -0.013973 -0.0013772
0.12983 0.19872 -0.011712 -0.0023711
-0.00038913 -0.00079162 0.0011216 -0.0006733 0.00073251 -0.00041546 -0.00094881 0.0015923
-0.01172 -0.0023781 0.15084 0.287
1520000000 0.28793 0.10676 -0.014431 0.010928 0.0030843 -0.0041654 0.00018484 0.0025598
0.0016874 -0.0018331 -0.0011803 -9.0302e-05
-0.014427 0.010924 0.14973 0.32083 0.0017247 0.012829 0.0015379 -0.00080141
1.7041e-05 -0.00081723 0.00026978 -0.0010489
0.0030832 -0.0041702 0.0017927 0.012832 0.35195 -0.051068 -0.00091386 -0.00026838
0.0005366 -0.00081473 4.6518e-06 -0.00015228
0.00019695 0.0025576 0.0015338 -0.00081338 -0.0009046 -0.00026597 0.2214 0.14062
-0.012475 0.0034809 0.0012604 0.0017221
0.0016797 -0.0018379 1.0714e-05 -0.00081816 0.00053553 -0.00082191 -0.012474 0.0035227
0.15819 0.18343 -0.011514 0.0020631
-0.0011818 -8.4466e-05 0.00025725 -0.0010571 -5.3652e-07 -0.00015333 0.0012657 0.0017175
-0.011511 0.0020482 0.18439 0.26718
1580000000 0.2963 0.060484 -0.007537 0.013769 -0.0010003 -0.0048028 0.001417 0.0017751
-0.00062211 -0.0020977 -0.00032009 0.00040612
-0.0075248 0.013765 0.17627 0.29605 0.0051961 0.0079718 0.0004154 -0.0015179
-0.00038238 -0.00088909 -0.00033182 -0.00084095
-0.0010207 -0.0048123 0.0052429 0.0079647 0.33154 -0.10836 -0.0014408 0.00052895
-0.00033949 -0.0010982 0.00011186 -0.00057566
0.001426 0.0017726 0.00041297 -0.0015228 -0.0014495 0.00052494 0.2356 0.10079
-0.0088847 0.0070475 0.0019223 0.00050852
-0.00063096 -0.0020892 -0.00038668 -0.00088537 -0.00034031 -0.0010931 -0.0088751 0.0070791
0.18261 0.16433 -0.0088622 0.0073532
-0.00031552 0.00040958 -0.00033634 -0.00083786 0.0001136 -0.00057597 0.0019261 0.00049739
-0.0088733 0.0073595 0.21681 0.24051
1640000000 0.29749 0.019202 -0.00076085 0.012323 -0.0027375 -0.002502 0.0025748 0.00093247
-0.00089853 -0.0010945 -0.00027166 0.00066055
-0.00075142 0.012318 0.20515 0.27113 0.0057133 0.0032969 -0.0007542 -0.0015945
-0.00085621 -0.00040368 -0.00055638 -0.00059972
-0.0027422 -0.0025029 0.005744 0.0032745 0.30327 -0.15735 -0.00079987 0.0012802
-0.0010829 -0.0007349 -0.00013325 -0.00036335
0.0025763 0.00091703 -0.00076458 -0.0015949 -0.00080091 0.0012783 0.24784 0.05145
-0.0051443 0.0072026 0.0021948 -0.00083308
-0.00091457 -0.0010882 -0.0008582 -0.00039632 -0.0010808 -0.00073534 -0.0051328 0.0072116
0.20528 0.13838 -0.0039463 0.0094004
-0.00026309 0.00066753 -0.00055909 -0.00059816 -0.00013607 -0.00036337 0.0021937 -0.00084358
-0.0039404 0.0094054 0.24314 0.20934
1700000000 0.28938 -0.025724 0.0025543 0.0092085 -0.0034824 6.8391e-05 0.0028627 -0.0011732
-0.0018584 -0.00028113 0.00063404 0.00036986
0.0025618 0.0092015 0.22279 0.23993 0.0037385 0.00054791 -0.0013858 -0.00052475
-0.00069936 -7.2063e-05 -0.00092772 -0.00037387
-0.0034858 7.3925e-05 0.0037484 0.00053863 0.25997 -0.1972 0.00028238 0.0014776
-0.0017247 -0.00018698 -0.00060156 -0.00093
0.002864 -0.0011786 -0.0013893 -0.00051733 0.00027874 0.0014727 0.24433 0.0011258
-0.0033443 0.006928 0.0012942 -0.0020892
-0.0018647 -0.00027787 -0.00069968 -6.8223e-05 -0.0017289 -0.00018391 -0.0033415 0.0069332
0.22231 0.11627 0.00057248 0.009538
0.00064022 0.00036075 -0.00092696 -0.00036447 -0.00061293 -0.00092749 0.001291 -0.0020903
0.00057232 0.009541 0.26011 0.17492
1760000000 0.27656 -0.073746 0.0045526 0.0057821 -0.0022182 0.00092323 0.0012725 -0.0032816
-0.00094391 0.00078069 0.0003422 -0.00057262
0.0045611 0.0057743 0.2485 0.20039 0.0015405 -0.0010517 -0.0010809 0.00022725
-0.0011292 0.00076078 -0.00054297 0.00052896
-0.0022288 0.00092731 0.0015362 -0.0010589 0.21108 -0.23036 0.0010816 0.0012638
-0.0010991 0.0013477 -0.0014087 -0.00040337
0.0012648 -0.0032854 -0.0010815 0.00023115 0.001088 0.0012642 0.23449 -0.050546
-0.0013765 0.0060937 -0.00046177 -0.0022481
-0.00093726 0.00078339 -0.0011202 0.00077213 -0.0010923 0.0013504 -0.0013623 0.0060991
0.23667 0.079555 0.0043746 0.0064636
0.00034134 -0.00057708 -0.00053855 0.00053469 -0.0014102 -0.00040558 -0.00047305 -0.0022466
0.0043801 0.0064642 0.27302 0.13703
1820000000 0.25137 -0.11064 0.004527 0.0022491 -5.609e-05 0.0024403 -0.00094329 -0.0030139
-0.00069606 0.000663 -4.0511e-05 -0.000142
0.0045142 0.0022369 0.25829 0.17059 -0.00031479 0.00010287 -0.0012648 0.00084816
-0.00018661 0.0013024 -0.00048303 0.0005136
-4.9939e-05 0.002439 -0.00031105 0.00010177 0.1609 -0.24579 0.0015431 0.00046836
-0.00030409 0.0021003 -0.0014276 0.00049797
-0.00095773 -0.0030085 -0.0012608 0.00084702 0.0015432 0.00046952 0.20376 -0.097791
-0.00087472 0.0048001 -0.0017122 -0.0014795
-0.00069109 0.00067529 -0.0001712 0.001304 -0.00031025 0.0021084 -0.00085406 0.0048035
0.25211 0.048387 0.0051525 0.0028232
-3.5566e-05 -0.00014406 -0.00048136 0.00051589 -0.0014282 0.00049767 -0.0017194 -0.0014735
0.0051515 0.002822 0.27582 0.10062
1880000000 0.21588 -0.15005 0.0022075 0.00017981 -0.00026947 0.0021445 -0.0028087 -0.0021531
-0.0001787 0.0013359 0.00027381 -0.00052348
0.0022085 0.00017139 0.26279 0.12439 -0.0021676 0.0017103 -0.00015298 0.001645
0.00055173 0.0013784 0.00022871 0.00093982
-0.00027041 0.0021531 -0.0021546 0.0017347 0.10915 -0.25576 0.0019521 -0.0010019
0.0015 0.0020364 -0.00092201 0.001599
-0.0028192 -0.0021361 -0.00014668 0.0016465 0.001952 -0.0009979 0.16273 -0.13727
-0.00091409 0.0038693 -0.0024801 0.00072056
-0.00017655 0.0013362 0.00056131 0.0013713 0.001494 0.0020393 -0.00090626 0.0038652
0.25312 0.013939 0.0045474 0.00073705
0.00026402 -0.00052476 0.00023848 0.00093797 -0.00091741 0.0016065 -0.0024875 0.00072593
0.0045403 0.00072842 0.27594 0.066258
1940000000 0.17639 -0.17533 -4.3464e-05 -0.0014536 0.0013116 0.0018878 -0.0037118 0.00051437
0.0011113 0.00089809 -0.00063736 -0.00055525
-4.3491e-05 -0.001466 0.26337 0.092618 -0.001081 0.0038814 0.00095268 0.0012957
0.0019608 0.00066301 0.00083854 0.00022589
0.0013173 0.0018906 -0.0010655 0.0039008 0.062655 -0.24941 0.00029121 -0.0023836
0.0024474 0.00054873 0.00044082 0.0016593
-0.0037123 0.00053193 0.0009565 0.0012843 0.00029542 -0.0023842 0.1099 -0.16695
-0.0022767 0.0036226 -0.0013927 0.0018614
0.0011233 0.00089122 0.0019657 0.0006491 0.002454 0.00055221 -0.0022653 0.003636
0.25205 -0.02629 0.0030209 -0.0024086
-0.00064568 -0.00054647 0.00084297 0.0002178 0.00043584 0.0016696 -0.0013966 0.0018705
0.0030199 -0.0024093 0.26487 0.030241
2000000000 0.13026 -0.18924 -0.0038375 0.00058169 0.002375 0.001545 -0.0022985 0.0035778
0.00087865 0.00025424 -0.00063386 0.00039852
-0.0038518 0.00056609 0.24923 0.057146 -0.00090824 0.0055534 0.0016538 0.00027897
0.0016125 -0.0013963 0.00045834 8.4821e-05
0.0023821 0.0015251 -0.00086366 0.0055595 0.0188 -0.23513 -0.0015091 -0.0014942
0.0021293 -0.0012586 0.0016842 0.0012583
-0.002283 0.003592 0.001662 0.00027432 -0.0015066 -0.0014933 0.056706 -0.17619
-0.0035223 0.0045237 0.00015469 0.0023923
0.00087817 0.0002398 0.0016031 -0.0014168 0.0021279 -0.0012594 -0.0035078 0.0045332
