!Keysight Technologies,M9804A,MY58100912,A.14.10.03
!Date: Thursday, April 27, 2023 10:28:33
!Correction: S11(C  6-Port  ) 
!S12(C  6-Port  ) 
!S13(C  6-Port  ) 
!S14(C  6-Port  ) 
!S15(C  6-Port  ) 
!S16(C  6-Port  ) 
!S21(C  6-Port  ) 
!S22(C  6-Port  ) 
!S23(C  6-Port  ) 
!S24(C  6-Port  ) 
!S25(C  6-Port  ) 
!S26(C  6-Port  ) 
!S31(C  6-Port  ) 
!S32(C  6-Port  ) 
!S33(C  6-Port  ) 
!S34(C  6-Port  ) 
!S35(C  6-Port  ) 
!S36(C  6-Port  ) 
!S41(C  6-Port  ) 
!S42(C  6-Port  ) 
!S43(C  6-Port  ) 
!S44(C  6-Port  ) 
!S45(C  6-Port  ) 
!S46(C  6-Port  ) 
!S51(C  6-Port  ) 
!S52(C  6-Port  ) 
!S53(C  6-Port  ) 
!S54(C  6-Port  ) 
!S55(C  6-Port  ) 
!S56(C  6-Port  ) 
!S61(C  6-Port  ) 
!S62(C  6-Port  ) 
!S63(C  6-Port  ) 
!S64(C  6-Port  ) 
!S65(C  6-Port  ) 
!S66(C  6-Port  ) 
!S6P File: Measurement: :
# Hz S  RI   R 50
500000000 -0.33633 -0.032801 -0.0097428 -0.0039562 -0.0080593 0.01134 -0.004088 0.011933
0.012559 0.0041334 -0.0045639 0.007852
-0.0097034 -0.0038686 -0.41889 -0.047982 0.0075973 -0.01165 0.0012472 0.010802
0.0079437 0.0022975 0.0013911 0.012232
-0.0080781 0.01142 0.0075664 -0.011681 -0.26402 0.21173 0.006849 0.0028068
0.00034983 0.0081156 0.00070712 0.01202
-0.0039944 0.011729 0.0011789 0.010748 0.0068051 0.0028247 -0.32698 0.049121
-0.018938 -0.0051068 0.01718 0.025221
0.012523 0.0038217 0.0078048 0.0023529 0.00041763 0.0081505 -0.018896 -0.0051642
-0.22781 -0.1787 -0.02692 0.0046909
-0.0042399 0.0077907 0.0011797 0.011887 0.00067225 0.01195 0.01723 0.02513
-0.02735 0.0047694 -0.27225 -0.12897
560000000 -0.31421 0.12524 -0.023413 -0.06296 -0.000427 0.012465 0.0061653 0.0096148
0.011057 0.003597 0.0095632 0.0077337
-0.02352 -0.062645 -0.3764 0.10985 -0.041374 -0.037112 0.01424 0.0036336
-0.013117 -0.0050881 0.0048129 -0.00035427
-0.0004346 0.012479 -0.041402 -0.037117 -0.18246 0.2591 -0.00075587 -0.0046351
0.01847 0.003927 0.0067578 -0.0064826
0.0061793 0.0096072 0.013893 0.0036906 -0.00079363 -0.0045619 -0.30151 0.13633
0.0035887 -0.025436 0.0055962 -0.019745
0.01073 0.0036385 -0.013227 -0.0048191 0.018725 0.0038242 0.0037666 -0.025452
-0.28506 -0.0059006 0.0073184 -0.0514
0.0095291 0.0073901 0.0050791 -0.00026569 0.0063607 -0.0063287 0.0053933 -0.019823
0.0075027 -0.051784 -0.33263 0.019815
620000000 -0.27256 0.11012 -0.023169 0.0068523 0.0032726 0.0082054 0.0069343 -0.0057725
0.010906 -0.00011365 0.00026484 -0.0023458
-0.023159 0.0068375 -0.40192 0.063414 -0.018959 -0.00061726 -0.0018049 -0.0020266
0.010638 -0.0074373 0.00056792 -0.0030919
0.0033241 0.0081791 -0.018953 -0.00056383 -0.15253 0.26738 -0.0018297 -0.0050635
-0.0041433 -0.0033845 0.007851 -0.0035703
0.0069125 -0.0056747 -0.0018412 -0.0019982 -0.0017945 -0.0050256 -0.25983 0.14626
-0.039178 -0.018858 0.015159 0.024059
0.011035 -5.6774e-05 0.010556 -0.0077059 -0.0040338 -0.0034609 -0.039273 -0.018894
-0.20484 -0.044357 -0.041307 0.014306
0.00023516 -0.002214 0.00046621 -0.0030639 0.0077422 -0.0036187 0.01531 0.024339
-0.041646 0.014399 -0.25033 -0.016298
680000000 -0.23175 0.19308 -0.027759 -0.014161 0.0049026 0.0050062 0.00059127 -0.0074951
-0.002761 -0.010878 0.0044784 -0.0080753
-0.027782 -0.014136 -0.38644 0.16004 -0.032922 -0.0011761 -0.0017184 -0.00039883
-0.0029437 -0.0085976 -0.00086556 -0.0024776
0.0049217 0.0049538 -0.032945 -0.0011213 -0.10209 0.28733 -0.00054634 6.1294e-05
-0.0024014 0.001087 -0.0031235 -0.0097889
0.00061306 -0.0075273 -0.0017112 -0.00038121 -0.00056388 3.0193e-05 -0.21795 0.19589
-0.023653 -0.0087713 -0.010611 -0.009881
-0.0027308 -0.010907 -0.0029835 -0.0085742 -0.0023342 0.0011264 -0.023688 -0.0088238
-0.2504 0.051435 -0.0050146 -0.010028
0.0045298 -0.0080141 -0.00084938 -0.002414 -0.0030059 -0.0097389 -0.010694 -0.009882
-0.0047555 -0.010049 -0.26268 0.086617
740000000 -0.18934 0.1888 -0.038461 0.026212 0.012427 -0.0051502 -0.00081137 -0.0042917
-0.0047074 -0.0020023 -0.0059884 0.0033095
-0.038446 0.026151 -0.33523 0.17898 -0.034849 0.034799 -0.00097904 -0.0059965
-0.011044 0.0086009 -0.0026924 -0.00617
0.012385 -0.0052013 -0.034766 0.034925 -0.068724 0.2868 -0.0012539 0.003298
-0.0031633 -0.0036266 -0.00071739 0.00066602
-0.0008455 -0.004283 -0.00096391 -0.0060121 -0.0012638 0.0033022 -0.20142 0.20287
-0.042689 -0.0075934 0.023026 0.012709
-0.0047425 -0.002115 -0.011073 0.0085128 -0.003106 -0.0035653 -0.042749 -0.0074185
-0.15745 0.073679 -0.042519 0.00084328
-0.0058939 0.0032301 -0.0028095 -0.0061651 -0.00071324 0.00065025 0.023233 0.012703
-0.042426 0.00094345 -0.25152 0.09319
800000000 -0.15741 0.22885 -0.022529 0.017284 0.005198 -0.010393 -0.0048086 -0.0019511
-0.0040181 0.0031006 0.0044439 0.00085477
-0.022555 0.01722 -0.33721 0.24908 -0.0078965 0.034239 -0.0019002 0.0023074
-0.0005678 0.0034958 0.0013603 0.0053762
0.0051156 -0.010404 -0.0077929 0.034282 -0.027397 0.30994 0.001276 0.0014087
0.00079765 0.0035326 -0.001933 0.0010908
-0.0047288 -0.0019536 -0.0019337 0.0023189 0.0012634 0.0014036 -0.17412 0.23091
-0.028692 0.012752 0.013159 -0.0095117
-0.0040901 0.0030648 -0.00057878 0.0034692 0.00082344 0.0035574 -0.028649 0.012855
-0.19946 0.098321 -0.018213 0.017816
0.0044597 0.00089461 0.0013105 0.0053886 -0.0018828 0.0010553 0.013125 -0.0096066
-0.018119 0.017755 -0.24593 0.14857
860000000 -0.12252 0.25023 -0.017248 0.031429 -0.0035869 -0.0098094 -0.0026002 0.0013263
0.0044266 0.0050721 -0.002771 -0.0032888
-0.017311 0.031354 -0.2897 0.29105 0.0082001 0.034155 0.00028303 0.0020593
0.0045556 0.00015495 0.0033494 -0.00014321
-0.0036094 -0.0098302 0.0083072 0.034159 0.021155 0.31777 -0.00037944 -0.00036267
0.0026963 -0.0016527 0.0015939 0.0044576
-0.0025807 0.0014018 0.00037544 0.0020841 -0.00035561 -0.00034352 -0.1387 0.24304
-0.018238 0.01871 -0.0061807 -0.0091911
0.0043821 0.0050514 0.0044688 -2.5504e-05 0.0026727 -0.0016999 -0.018074 0.018734
-0.15067 0.14701 -0.024248 0.01514
-0.0027726 -0.0032622 0.0033396 -9.582e-05 0.0016021 0.004449 -0.0062052 -0.0093137
-0.024206 0.014991 -0.19432 0.19147
920000000 -0.096927 0.2736 0.005272 0.038087 -0.0093557 -0.0040865 -0.0017111 0.0025001
0.0013197 0.0014326 0.0023323 -0.0012222
0.0052526 0.038039 -0.26021 0.31199 0.028205 0.021685 0.0016647 0.001142
0.0066751 -0.00091593 0.0036061 -0.0027628
-0.0093782 -0.0040653 0.028319 0.021631 0.067873 0.31811 0.001742 -0.00013358
0.001278 -0.0004404 0.00075486 -0.0010439
-0.0017076 0.0025053 0.001668 0.0011481 0.0017507 -0.00012821 -0.11406 0.2597
-0.010607 0.030306 0.0026435 -0.006178
0.0013506 0.0013862 0.0066655 -0.00087474 0.0012452 -0.00046288 -0.010531 0.03034
-0.13987 0.15273 -0.0022718 0.02757
0.00228 -0.0012561 0.0035512 -0.0028019 0.00074357 -0.0010356 0.0026751 -0.006225
-0.0022027 0.027548 -0.20234 0.20605
980000000 -0.049122 0.29291 0.017981 0.029988 -0.0086814 0.0047919 0.0025148 0.0037215
0.0039583 -0.0017504 -0.0029251 -0.0021977
0.017973 0.029956 -0.20737 0.34535 0.032979 0.0044502 0.0019885 -0.00012696
0.0010313 -0.0061531 -0.00060547 -0.0022978
-0.0086663 0.0048293 0.033041 0.0043613 0.11427 0.31105 0.00043443 -0.0012216
5.7349e-05 -0.0020807 0.0015884 -0.00010992
0.0024889 0.0037434 0.0019897 -0.0001282 0.0004464 -0.0012162 -0.075729 0.27122
0.0075138 0.028769 -0.0096374 -0.0064805
0.0039459 -0.0018117 0.00098582 -0.006218 5.76e-05 -0.0020949 0.0075565 0.028819
-0.10842 0.17977 0.0050839 0.018524
-0.0028868 -0.0022536 -0.00065993 -0.0023336 0.001624 -0.0001315 -0.0096675 -0.0064244
0.0050591 0.018528 -0.15889 0.2506
1040000000 -0.006021 0.30093 0.03344 0.017718 -0.00099286 0.0069542 0.0028943 0.0006017
-0.00010527 -0.0036584 -0.00063 -0.0014734
0.033405 0.017711 -0.17144 0.35843 0.028994 -0.014982 0.0014378 -0.0016767
-0.0026894 -0.0022495 -0.0015455 -0.0025859
-0.00099362 0.0069486 0.028963 -0.015123 0.16053 0.29699 -0.00055539 -0.0013917
-0.0015124 -0.00072257 -0.00040465 -0.0012485
0.0029014 0.00058243 0.0014194 -0.0016622 -0.00055507 -0.0013874 -0.047751 0.28134
0.018468 0.017149 -0.0029786 0.0021661
-6.0031e-05 -0.0036628 -0.0026852 -0.0022257 -0.0014914 -0.0007532 0.018511 0.017145
-0.077496 0.18925 0.013491 0.017956
-0.00065651 -0.001472 -0.0015571 -0.0026106 -0.00037134 -0.0012468 -0.0030077 0.0021698
0.013504 0.018008 -0.13777 0.27245
1100000000 0.039779 0.30779 0.035757 -0.0046605 0.0031482 0.0037262 0.0025247 -0.0015278
-0.0021992 -0.00301 -0.0038213 7.6146e-05
0.035704 -0.0046503 -0.12783 0.37526 0.014739 -0.027727 2.9007e-05 -0.0017945
-0.0031028 -0.00034557 -0.0034339 -0.00041168
0.0031531 0.0037292 0.014654 -0.027804 0.20682 0.27622 -0.0017581 0.00030633
-0.0016677 0.00063269 -0.00093137 -0.00043101
0.0025147 -0.0015352 3.1597e-06 -0.0018164 -0.0017578 0.00031004 -0.0067942 0.28607
0.022809 0.004793 -0.002205 0.0009897
-0.0022069 -0.0030284 -0.003112 -0.00034914 -0.0016799 0.00063546 0.022806 0.0047955
-0.058726 0.20252 0.018831 0.0083456
-0.0038112 0.00010548 -0.0034015 -0.00037717 -0.0009369 -0.00044514 -0.0022447 0.00099824
0.018845 0.0083328 -0.090811 0.30158
1160000000 0.091381 0.30216 0.023625 -0.021068 0.0028151 -0.00065912 -0.00018743 -0.0026114
-0.0040952 -0.00037709 -0.00089368 0.0040578
0.023651 -0.021015 -0.083688 0.37901 -0.0039701 -0.028707 -0.0017394 -0.001574
-0.0022142 0.0026281 -0.0013622 0.0015847
0.0028085 -0.00068081 -0.0040795 -0.028729 0.24967 0.24506 -0.00055865 0.0016837
-0.00036697 0.0017263 -0.0011564 3.8508e-05
-0.00017024 -0.0026124 -0.0017622 -0.0015648 -0.00054785 0.0016947 0.032803 0.28285
0.019218 -0.0099499 -0.0026986 0.005723
-0.0040905 -0.00037696 -0.0022249 0.0026351 -0.00034909 0.0017441 0.019197 -0.009968
-0.025474 0.21193 0.017466 0.00038584
-0.00087026 0.0040744 -0.0013278 0.0014768 -0.0011471 5.3551e-05 -0.0026653 0.0057507
0.017496 0.00035571 -0.044006 0.30466
1220000000 0.13594 0.29011 0.010038 -0.030011 -0.0014997 -0.0010489 -0.00024729 -0.0010822
-0.0024561 0.0025492 0.0013085 0.0018233
0.010036 -0.029965 -0.039426 0.39031 -0.016843 -0.020714 -0.0024495 0.00047222
0.00035401 0.0027478 -0.00064819 0.0017037
-0.0014935 -0.0010387 -0.016953 -0.020653 0.28868 0.20573 0.00088898 0.0015109
0.00060666 0.0011178 0.00023732 0.000741
-0.00024514 -0.0010831 -0.0024677 0.00049622 0.00088361 0.0015209 0.072613 0.27382
0.0090637 -0.015477 0.0030397 0.0017003
-0.0024584 0.0025388 0.00034613 0.0027548 0.00060001 0.0011253 0.0090476 -0.015461
-0.0013431 0.22125 0.013628 -0.012433
0.0013397 0.0017851 -0.00062108 0.0017078 0.00023941 0.00071246 0.0030062 0.0016918
0.013609 -0.012455 -0.011821 0.32162
1280000000 0.18529 0.26716 -0.0080926 -0.028264 -0.0018927 0.0023346 -0.0010895 -0.0018756
-0.00054478 0.0030894 0.0025101 0.0010798
-0.0080614 -0.028235 0.0063954 0.38081 -0.023397 -0.0081801 -0.00094316 0.0014719
0.001537 0.0014378 0.00053344 0.001997
-0.0018946 0.00236 -0.023475 -0.0080821 0.31918 0.1615 0.0013522 -0.00023421
0.00089331 0.00010783 0.00026617 0.00046901
-0.0010951 -0.0018831 -0.00090748 0.0015104 0.0013553 -0.00023987 0.10893 0.25726
0.00028591 -0.016993 0.00057153 6.5602e-05
-0.00054141 0.0031068 0.0015843 0.0014362 0.00092069 7.7943e-05 0.00027375 -0.016975
0.036006 0.22452 0.0028666 -0.014223
0.0025007 0.0010477 0.00053395 0.0019985 0.00028499 0.00049656 0.00054023 8.5742e-05
0.0028597 -0.01422 0.036027 0.32293
1340000000 0.22198 0.23277 -0.017704 -0.018738 0.00069974 0.0042752 -0.0018611 -0.00069695
0.0014782 0.0025676 0.0016126 -0.0015057
-0.017672 -0.018726 0.045562 0.37195 -0.021186 0.004239 -2.6731e-05 0.0018908
0.0016138 0.000622 0.0013369 0.00083108
0.00073949 0.0042564 -0.021188 0.0043362 0.34095 0.11356 0.00087046 -0.00084906
0.00051154 -0.00037272 0.00021643 0.00027482
-0.0018845 -0.00066045 -4.983e-05 0.0019004 0.00086177 -0.00085225 0.14154 0.23689
-0.0076875 -0.013928 0.0014351 -0.00016747
0.0015122 0.0025625 0.001645 0.00060676 0.00049675 -0.00036689 -0.007695 -0.013927
0.067033 0.21954 -0.0034171 -0.012819
0.0015825 -0.0015173 0.0013214 0.00083133 0.0001915 0.00027603 0.0014473 -0.00015762
-0.0034187 -0.012793 0.07542 0.31856
1400000000 0.25432 0.1938 -0.023262 -0.0073467 0.0049261 0.003115 -0.0019696 0.00072097
0.0024655 0.00061821 0.00013615 -0.0012968
-0.023238 -0.0073497 0.082324 0.35851 -0.014485 0.012134 0.0013044 0.0012142
0.00087493 -0.00078744 0.0011391 0.00028712
0.0049426 0.0030839 -0.014451 0.012213 0.35401 0.059756 0.00011907 -0.0013477
8.6778e-06 -0.000326 0.00035769 0.00022636
-0.0019719 0.00073738 0.0012995 0.0012083 0.00012339 -0.0013439 0.17109 0.20847
-0.012562 -0.0078951 -0.00056594 -0.00093755
0.0024965 0.00060267 0.0008814 -0.0008026 2.3469e-05 -0.00030934 -0.01258 -0.007888
0.10059 0.21407 -0.0096013 -0.0083025
0.00013212 -0.0013134 0.0011455 0.0002652 0.00036795 0.00021902 -0.00055507 -0.00093618
-0.0096074 -0.0083113 0.12019 0.30767
1460000000 0.2764 0.14942 -0.020347 0.0046513 0.0053799 -0.0017178 -0.0014733 0.001691
0.0019096 -0.0007933 -0.00032343 -0.0008296
-0.02033 0.0046291 0.11607 0.33652 -0.0060699 0.014848 0.0016691 0.0001412
0.0008177 -0.0010621 0.0011421 -0.00065651
0.0053781 -0.0017328 -0.0060148 0.014884 0.35972 0.0051704 -0.001054 -0.0011706
0.00022746 -0.00012615 0.00069854 -0.00038647
-0.001456 0.0017055 0.0016526 0.00014253 -0.0010685 -0.001155 0.19775 0.17941
-0.01292 -0.0024399 -0.0012036 0.0013496
0.0019188 -0.00079571 0.00083388 -0.001038 0.0002527 -0.00010311 -0.012919 -0.0024383
0.13038 0.19863 -0.011049 -0.0030312
-0.00031944 -0.00082525 0.0011724 -0.0006775 0.00072171 -0.00038301 -0.0012035 0.0013564
-0.011042 -0.0030241 0.15366 0.28615
1520000000 0.28789 0.10757 -0.014722 0.010279 0.0030423 -0.0039585 0.00014785 0.0025244
0.0016408 -0.0017461 -0.0010805 -0.00013824
-0.01472 0.010256 0.1492 0.32167 0.0012955 0.012818 0.0015708 -0.00077653
0.00012364 -0.00089516 0.00024807 -0.0010177
0.0030141 -0.0039833 0.0013761 0.012825 0.35244 -0.051183 -0.00088589 -0.0003609
0.00052842 -0.0007762 -3.2112e-05 -2.9914e-05
0.00015226 0.002519 0.0015557 -0.00077955 -0.00089568 -0.00035829 0.22152 0.14136
-0.012244 0.0020574 0.00095247 0.001695
0.0016123 -0.001765 8.5521e-05 -0.00088065 0.00051042 -0.00075554 -0.012235 0.0020766
0.15842 0.18317 -0.011049 0.0013267
-0.001104 -0.00011902 0.00025736 -0.0010176 -4.1211e-05 -8.7428e-06 0.00093637 0.0016851
-0.011035 0.0013188 0.18726 0.26576
1580000000 0.29657 0.061216 -0.0081557 0.013359 -0.00097138 -0.0045971 0.0013526 0.0017885
-0.00055393 -0.0019765 -0.00031644 0.00035225
-0.0081392 0.013328 0.17616 0.29694 0.0048818 0.0081695 0.00042571 -0.0015319
-0.00033952 -0.0010089 -0.00033466 -0.00086798
-0.00099004 -0.0046154 0.0049154 0.0081586 0.33208 -0.10887 -0.0014581 0.00042097
-0.00023231 -0.0011199 0.00013933 -0.00054115
0.0013536 0.0017802 0.00042669 -0.001536 -0.0014654 0.00043179 0.23618 0.10147
-0.0095452 0.0058111 0.0017642 0.00067456
-0.00059176 -0.0019991 -0.00035673 -0.000997 -0.00026865 -0.0011357 -0.0095493 0.0058222
0.18259 0.16411 -0.0089763 0.0066341
-0.0003428 0.00036727 -0.000337 -0.00085144 0.00012101 -0.00053434 0.0017675 0.00071695
-0.008966 0.0066374 0.21938 0.23878
1640000000 0.29797 0.019812 -0.0014774 0.012335 -0.0026212 -0.0024509 0.0025645 0.00099714
-0.00084589 -0.0010412 -0.00030307 0.00063958
-0.0014867 0.012326 0.2054 0.27191 0.0055734 0.0036439 -0.00071489 -0.0015848
-0.00093294 -0.0004776 -0.00052965 -0.00059892
-0.0026237 -0.0024335 0.0056134 0.0036134 0.30321 -0.15753 -0.00083097 0.0012533
-0.00094857 -0.00078275 -3.6564e-05 -0.000306
0.0025525 0.00098608 -0.00070813 -0.0015984 -0.00082744 0.0012386 0.24876 0.051792
-0.0061812 0.0065635 0.0020788 -0.00064175
-0.00086434 -0.0010326 -0.00092434 -0.00047313 -0.00093745 -0.00078869 -0.0061873 0.0065983
0.20526 0.1385 -0.0045481 0.0087553
-0.00031557 0.00066743 -0.00054105 -0.00058614 -4.2853e-05 -0.00028088 0.0020714 -0.00061747
-0.0045737 0.0087638 0.24539 0.20748
1700000000 0.29009 -0.025606 0.0020046 0.0096354 -0.0033932 0.00016997 0.0029273 -0.0010586
-0.0016806 -0.00026152 0.00052662 0.00036853
0.0020064 0.0096227 0.22328 0.24037 0.0037825 0.00080405 -0.0013669 -0.00051216
-0.00082458 6.3565e-06 -0.00089586 -0.00039662
-0.0033885 0.00018089 0.0037792 0.00078026 0.25998 -0.19728 0.00031838 0.001617
-0.001727 -0.00029315 -0.00047244 -0.00084174
0.0029247 -0.0010744 -0.0013538 -0.00051977 0.00032213 0.0016188 0.24536 0.00078779
-0.004483 0.0069867 0.0012242 -0.0019071
-0.0016921 -0.00025551 -0.00082649 1.2281e-06 -0.0017388 -0.0003013 -0.004484 0.0070093
0.22241 0.1167 -0.00016043 0.0091308
0.00053273 0.0003679 -0.00090411 -0.000384 -0.00048503 -0.00083449 0.0012239 -0.0019224
-0.00017781 0.0091248 0.2617 0.17264
1760000000 0.27694 -0.073855 0.0043389 0.0063882 -0.0020995 0.00068786 0.0013175 -0.0032501
-0.00093726 0.00068932 0.00042509 -0.000359
0.0043244 0.0063823 0.24895 0.20042 0.0016578 -0.0010549 -0.0010995 0.00021225
-0.0011555 0.00085485 -0.00056891 0.000537
-0.0020918 0.00073388 0.0016575 -0.0010679 0.21107 -0.2307 0.0010178 0.0013278
-0.0010896 0.0012568 -0.0013553 -0.00043636
0.0012947 -0.0032389 -0.001112 0.00021624 0.0010229 0.001296 0.2351 -0.051489
-0.0021729 0.0065716 -0.00051186 -0.002167
-0.00094206 0.0006818 -0.0011662 0.00085317 -0.0010721 0.0012474 -0.0021742 0.006582
0.23693 0.079908 0.0035392 0.0064969
0.00041584 -0.0003548 -0.00055658 0.00055107 -0.0014065 -0.00044184 -0.00051632 -0.0021342
0.0035261 0.0065103 0.27429 0.13468
1820000000 0.25166 -0.11069 0.0046631 0.0028078 2.6642e-05 0.0024222 -0.00088645 -0.0030424
-0.000726 0.00059358 6.3428e-05 -0.00013807
0.0046622 0.0028243 0.25867 0.17041 -0.00018813 0.00026244 -0.0013077 0.00083471
-0.00013057 0.0014285 -0.00050326 0.00051362
3.3608e-05 0.002412 -0.00015387 0.00025912 0.1607 -0.24552 0.001557 0.00047767
-0.00043612 0.0022112 -0.001448 0.00046583
-0.00092854 -0.0030248 -0.0013284 0.00082766 0.0015747 0.00048734 0.20389 -0.09885
-0.0011783 0.0055333 -0.0014962 -0.0012096
-0.00074003 0.00059382 -0.00011096 0.0014218 -0.00042783 0.0022233 -0.0011598 0.0055419
0.25273 0.048815 0.0045287 0.0032776
8.3167e-05 -0.00011574 -0.00046833 0.00053944 -0.0014118 0.00044631 -0.001502 -0.0012351
0.0045164 0.0032738 0.27651 0.09852
1880000000 0.21587 -0.15024 0.0025332 0.00047686 -0.00035632 0.0021834 -0.0028408 -0.0022185
-0.00032309 0.0013151 0.00043618 -0.0006312
0.0025367 0.00047729 0.26283 0.12394 -0.0021459 0.0017721 -0.00019343 0.0016344
0.00067191 0.0013688 0.00020779 0.00096948
-0.0003389 0.0021815 -0.0021704 0.0017828 0.10846 -0.25542 0.0019537 -0.001059
0.0014332 0.001993 -0.00094909 0.0014428
-0.0028146 -0.0021979 -0.00017555 0.001654 0.0019546 -0.0010552 0.1621 -0.13805
-0.0011024 0.0045878 -0.0021898 0.00090197
-0.00027915 0.0013352 0.00069128 0.0013823 0.0014291 0.0020061 -0.0010617 0.0046092
0.25373 0.014099 0.0040961 0.0014698
0.00040236 -0.00061608 0.00022025 0.00096583 -0.00093573 0.0014752 -0.0021865 0.00087937
0.0041013 0.0014506 0.27622 0.064438
1940000000 0.17656 -0.17524 0.0003963 -0.0013337 0.0013594 0.0017425 -0.0037619 0.00048064
0.0010516 0.0009724 -0.00065867 -0.00066069
0.00040961 -0.0013196 0.26311 0.092252 -0.00089929 0.0039539 0.00093161 0.0013033
0.0020355 0.00050569 0.00087337 0.0002579
0.0013935 0.0017212 -0.00088938 0.003983 0.062725 -0.24856 0.00042825 -0.0023521
0.0025644 0.00056736 0.00048359 0.0017898
-0.0037544 0.00049577 0.00097392 0.001282 0.00042838 -0.002357 0.10897 -0.16738
-0.0020008 0.0041097 -0.0010759 0.0018281
0.0010822 0.0009493 0.0020502 0.00050615 0.0025767 0.00054904 -0.0019932 0.0041177
0.25296 -0.026474 0.0030717 -0.0016108
-0.00068231 -0.0006891 0.00087837 0.00025044 0.00047441 0.0018038 -0.0010989 0.0017921
0.0031128 -0.0016179 0.2649 0.028428
2000000000 0.13028 -0.18924 -0.003358 0.00045473 0.0024569 0.0014407 -0.0022151 0.0035731
0.00097002 0.00040637 -0.00076264 0.00033586
-0.00333 0.00045791 0.24876 0.056788 -0.00066045 0.0055508 0.0016096 0.00034077
0.001554 -0.0015275 0.00054759 2.0229e-06
0.00245 0.0014398 -0.00061781 0.0055459 0.019412 -0.23421 -0.0015323 -0.0014003
0.0020668 -0.0012092 0.0016224 0.0012736
-0.0022031 0.0035988 0.0016089 0.00032749 -0.0015604 -0.0013892 0.05585 -0.17581
-0.0032617 0.0050282 0.00028267 0.0019629
0.0009674 0.00039188 0.0015678 -0.0015601 0.0020635 -0.0012203 -0.0032272 0.0050501
