!Keysight Technologies,M9804A,MY58100912,A.14.10.03
!Date: Thursday, April 27, 2023 10:28:33
!Correction: S11(C  6-Port  ) 
!S12(C  6-Port  ) 
!S13(C  6-Port  ) 
!S14(C  6-Port  ) 
!S15(C  6-Port  ) 
!S16(C  6-Port  ) 
!S21(C  6-Port  ) 
!S22(C  6-Port  ) 
!S23(C  6-Port  ) 
!S24(C  6-Port  ) 
!S25(C  6-Port  ) 
!S26(C  6-Port  ) 
!S31(C  6-Port  ) 
!S32(C  6-Port  ) 
!S33(C  6-Port  ) 
!S34(C  6-Port  ) 
!S35(C  6-Port  ) 
!S36(C  6-Port  ) 
!S41(C  6-Port  ) 
!S42(C  6-Port  ) 
!S43(C  6-Port  ) 
!S44(C  6-Port  ) 
!S45(C  6-Port  ) 
!S46(C  6-Port  ) 
!S51(C  6-Port  ) 
!S52(C  6-Port  ) 
!S53(C  6-Port  ) 
!S54(C  6-Port  ) 
!S55(C  6-Port  ) 
!S56(C  6-Port  ) 
!S61(C  6-Port  ) 
!S62(C  6-Port  ) 
!S63(C  6-Port  ) 
!S64(C  6-Port  ) 
!S65(C  6-Port  ) 
!S66(C  6-Port  ) 
!S6P File: Measurement: :
# Hz S  RI   R 50
500000000 -0.33755 -0.033639 -0.0095911 -0.0033647 -0.0077949 0.012165 -0.0035856 0.011696
0.011794 0.0045229 -0.0039127 0.0084871
-0.0095785 -0.0033685 -0.41966 -0.048835 0.0070668 -0.011316 0.0012731 0.011721
0.0073217 0.0030488 0.00042651 0.012945
-0.0077434 0.012129 0.0070152 -0.011289 -0.26561 0.21212 0.0066382 0.0032885
6.2922e-05 0.0086436 0.00015546 0.012023
-0.0035693 0.011676 0.001292 0.011753 0.0066459 0.0032887 -0.32799 0.048666
-0.019918 -0.0044851 0.017229 0.026066
0.011781 0.0045222 0.00736 0.0030112 6.188e-05 0.0086505 -0.019921 -0.0044709
-0.2286 -0.1813 -0.027897 0.005179
-0.0038973 0.0084879 0.00047539 0.012983 0.00017342 0.01201 0.017231 0.02607
-0.027891 0.0051736 -0.27191 -0.1321
560000000 -0.31586 0.12572 -0.024443 -0.0628 0.00055783 0.012188 0.0061908 0.0099891
0.011008 0.0043949 0.0095349 0.0078028
-0.024414 -0.062748 -0.3765 0.10971 -0.04241 -0.036496 0.01355 0.0036255
-0.013329 -0.0049076 0.0045112 -0.00035719
0.00059264 0.012213 -0.042571 -0.036355 -0.18232 0.26022 -0.0003732 -0.0044433
0.019375 0.0046746 0.0070857 -0.0061976
0.0062565 0.0099696 0.013503 0.0036707 -0.0003997 -0.0044421 -0.30279 0.13651
0.0035717 -0.024206 0.0048811 -0.019365
0.011023 0.004354 -0.013355 -0.0049521 0.019379 0.0046422 0.0035582 -0.024208
-0.28753 -0.0055377 0.0069356 -0.050764
0.0095661 0.0077808 0.0045155 -0.00037302 0.007109 -0.0061857 0.0048809 -0.019349
0.006935 -0.05076 -0.33417 0.017604
620000000 -0.27311 0.11045 -0.023072 0.0075285 0.0038286 0.0086902 0.0068078 -0.0056323
0.01167 -0.00047988 0.00024765 -0.0019311
-0.023065 0.0075076 -0.40284 0.063849 -0.01893 0.0001429 -0.0012484 -0.0022826
0.010531 -0.0068233 0.0012138 -0.0024305
0.0039448 0.0086198 -0.01894 0.00023397 -0.1526 0.26884 -0.0013813 -0.0054089
-0.0036346 -0.0030255 0.0083796 -0.0033488
0.0067806 -0.00559 -0.001273 -0.0022787 -0.001373 -0.0054085 -0.26107 0.14711
-0.03937 -0.018317 0.014179 0.024287
0.011728 -0.00054789 0.010528 -0.0068561 -0.0036605 -0.003045 -0.039376 -0.018303
-0.20605 -0.045256 -0.041419 0.015682
0.0002 -0.0019139 0.0012056 -0.0024332 0.0083667 -0.0033647 0.014192 0.024325
-0.041411 0.015681 -0.25154 -0.021378
680000000 -0.23238 0.19435 -0.027912 -0.01352 0.0049955 0.0049189 0.0011951 -0.0073838
-0.0031565 -0.010936 0.0047123 -0.0072669
-0.027894 -0.013526 -0.38681 0.16049 -0.032576 -0.001053 -0.0014952 -0.00032749
-0.0027208 -0.0089785 -0.0010039 -0.0019598
0.0050263 0.0049226 -0.032611 -0.0009566 -0.10134 0.28812 -0.00056563 7.7859e-05
-0.0022769 0.00061374 -0.0029698 -0.0096331
0.0011876 -0.0073761 -0.0015072 -0.00030918 -0.00057342 7.8213e-05 -0.21809 0.19635
-0.023793 -0.0075405 -0.010627 -0.010279
-0.0031797 -0.010936 -0.0027312 -0.0089726 -0.0022745 0.00061667 -0.023818 -0.0075022
-0.2529 0.053164 -0.0055071 -0.0090811
0.0046601 -0.0073257 -0.001004 -0.0019798 -0.0029603 -0.0096325 -0.010631 -0.010272
-0.0054877 -0.0090812 -0.26246 0.08627
740000000 -0.18852 0.18929 -0.038009 0.026539 0.012787 -0.0054781 -0.00092666 -0.0039451
-0.0046625 -0.0027136 -0.006297 0.0032196
-0.038048 0.026522 -0.3347 0.17909 -0.034485 0.035109 -0.0010792 -0.0064639
-0.011099 0.008156 -0.0031638 -0.0063095
0.012745 -0.0055625 -0.034393 0.035267 -0.067691 0.28652 -0.0015294 0.0031913
-0.0028136 -0.0037585 -0.0010037 -2.8054e-05
-0.00094405 -0.0039313 -0.0010928 -0.0064457 -0.0015317 0.0031972 -0.20208 0.20422
-0.042071 -0.007027 0.022464 0.013063
-0.0046566 -0.0027128 -0.011078 0.0082343 -0.0028175 -0.0037643 -0.042089 -0.006967
-0.15696 0.076022 -0.04144 0.0016433
-0.0063117 0.0032173 -0.0032464 -0.0063402 -0.0010039 -1.8432e-05 0.022469 0.013065
-0.041431 0.0016116 -0.25472 0.092088
800000000 -0.15646 0.22923 -0.022091 0.017324 0.0052349 -0.010636 -0.004725 -0.0019794
-0.0041629 0.0029269 0.0045899 0.00088252
-0.022091 0.01728 -0.33685 0.24911 -0.0075862 0.033983 -0.0021261 0.0022036
-0.00071042 0.0035294 0.0012535 0.0053396
0.0052155 -0.010653 -0.0075076 0.034027 -0.026654 0.3094 0.001182 0.0016012
0.00061649 0.0035938 -0.0017367 0.00089495
-0.0047281 -0.0019825 -0.0021182 0.0022 0.0011772 0.0016045 -0.17337 0.23154
-0.027942 0.013233 0.013582 -0.010018
-0.0041871 0.0029549 -0.00071708 0.0035501 0.00062858 0.0035881 -0.02795 0.013288
-0.1987 0.10125 -0.017127 0.018139
0.0046216 0.00087208 0.0012989 0.0053473 -0.0017336 0.00089253 0.0136 -0.010055
-0.017133 0.01811 -0.24615 0.14625
860000000 -0.12169 0.25004 -0.016798 0.03106 -0.003401 -0.0098697 -0.0024975 0.0012457
0.0041831 0.0051369 -0.0029807 -0.0027281
-0.016808 0.031002 -0.28895 0.2906 0.0083433 0.034016 0.00019625 0.0021237
0.0045188 0.00048709 0.003534 0.00030235
-0.0034054 -0.0098676 0.0084492 0.03403 0.021533 0.31708 -0.00033017 -0.00025821
0.0028658 -0.0016713 0.0016491 0.0043892
-0.0025169 0.0012382 0.00019169 0.0021096 -0.00033058 -0.00026218 -0.1377 0.24298
-0.017273 0.018623 -0.0060697 -0.0093395
0.0042038 0.0051204 0.0045278 0.00047308 0.0028662 -0.0016818 -0.017262 0.018666
-0.14915 0.14838 -0.024069 0.016161
-0.0029998 -0.0027109 0.0035347 0.00027201 0.0016558 0.0043862 -0.0060733 -0.0093419
-0.024081 0.016134 -0.19536 0.19014
920000000 -0.096354 0.27291 0.0054795 0.037576 -0.0094898 -0.0043485 -0.0017516 0.0021076
0.0012765 0.0017494 0.0026229 -0.0013959
0.0054465 0.037538 -0.25995 0.31154 0.028058 0.021475 0.0016197 0.0010646
0.0070454 -0.00068832 0.0038126 -0.0031528
-0.0094994 -0.00433 0.028144 0.021431 0.067808 0.31753 0.0017934 -0.00017237
0.0013795 -0.00046078 0.00070951 -0.0012904
-0.0017401 0.0021057 0.0016235 0.0010704 0.0018013 -0.00017504 -0.11332 0.25914
-0.0096519 0.029817 0.0026253 -0.0069272
0.0012967 0.0017667 0.0070311 -0.00072133 0.0013782 -0.0004622 -0.0096001 0.029852
-0.13866 0.15409 -0.001152 0.027556
0.002635 -0.0014372 0.0038043 -0.0031871 0.00069697 -0.0012963 0.0026342 -0.0069517
-0.0011779 0.02753 -0.20316 0.20361
980000000 -0.048889 0.29211 0.018056 0.029584 -0.008832 0.0046563 0.0023792 0.0036536
0.0039461 -0.0016042 -0.0030663 -0.0021065
0.018037 0.029543 -0.20709 0.34478 0.03294 0.0043578 0.0020507 -4.5857e-05
0.0010735 -0.0061987 -0.00057189 -0.0022982
-0.008817 0.0046925 0.032959 0.0042458 0.11422 0.31069 0.00037834 -0.0012008
-6.3142e-05 -0.0021782 0.0013832 -5.7162e-05
0.0023925 0.0036437 0.0020425 -3.8865e-05 0.00037832 -0.0012083 -0.074988 0.27044
0.0079869 0.02834 -0.0092656 -0.0066966
0.0039666 -0.0016396 0.0010422 -0.0062272 -6.9028e-05 -0.002171 0.0080493 0.028344
-0.10661 0.18077 0.0055176 0.018816
-0.0030892 -0.002069 -0.00059593 -0.0022825 0.0013748 -6.0453e-05 -0.0092759 -0.006692
0.0054929 0.018813 -0.15977 0.24944
1040000000 -0.006154 0.30013 0.033283 0.017369 -0.0011949 0.006792 0.0027236 0.00082187
4.9615e-05 -0.0036203 -0.00060788 -0.0014552
0.03325 0.017349 -0.17154 0.35782 0.028938 -0.015191 0.0014832 -0.0016819
-0.0025924 -0.0023958 -0.0015702 -0.0027898
-0.0011607 0.006802 0.028886 -0.01528 0.16042 0.29672 -0.00055756 -0.0014079
-0.001621 -0.00073486 -0.00054605 -0.0010873
0.0027394 0.00081443 0.0014819 -0.0016578 -0.00055098 -0.0014115 -0.047607 0.28034
0.018651 0.016436 -0.0030804 0.0017755
3.4175e-05 -0.0036362 -0.0026195 -0.0023886 -0.0016143 -0.00072298 0.018685 0.016418
-0.075754 0.18864 0.013898 0.017295
-0.00058647 -0.0014695 -0.0015891 -0.0027823 -0.00054826 -0.001088 -0.0030722 0.0017668
0.013867 0.01729 -0.13963 0.27097
1100000000 0.039329 0.30726 0.035534 -0.0049085 0.002829 0.0037121 0.0025175 -0.0013908
-0.0021194 -0.0031015 -0.0040416 9.1072e-05
0.035503 -0.0048995 -0.12804 0.3746 0.014594 -0.027844 -4.0836e-05 -0.0018293
-0.0033177 -0.0004453 -0.0035341 -0.00046775
0.0028378 0.0036998 0.014496 -0.027926 0.20681 0.27597 -0.0018097 0.00029724
-0.0017026 0.00074272 -0.00093392 -0.00023294
0.0025173 -0.0013926 -4.5375e-05 -0.0018238 -0.001811 0.00030103 -0.0071596 0.28504
0.022816 0.004182 -0.0025722 0.00076407
-0.0021255 -0.0030873 -0.0033268 -0.00042504 -0.001695 0.00075361 0.022829 0.0041447
-0.057345 0.20131 0.019004 0.0080264
-0.0040158 0.00011841 -0.0035358 -0.00044899 -0.0009354 -0.00022698 -0.0025796 0.00075545
0.018976 0.008039 -0.092682 0.30063
1160000000 0.090785 0.3018 0.023372 -0.02118 0.0025117 -0.00047429 -3.9177e-05 -0.0024432
-0.0040798 -0.00049855 -0.0010746 0.0040856
0.023374 -0.021166 -0.084291 0.37868 -0.0041736 -0.028831 -0.001822 -0.0016608
-0.0024386 0.0027556 -0.0014042 0.0016814
0.0025335 -0.00049603 -0.004323 -0.028831 0.24977 0.24458 -0.00058023 0.0017574
-0.00026395 0.001903 -0.0009762 0.00025245
-4.4302e-05 -0.0024403 -0.0018488 -0.001643 -0.00058259 0.0017623 0.031942 0.28221
0.018885 -0.010435 -0.002943 0.0055077
-0.0040886 -0.00045013 -0.0024426 0.0027831 -0.00027457 0.0019061 0.018876 -0.010459
-0.024542 0.21002 0.0177 0.00010077
-0.0010583 0.0040889 -0.0013928 0.0017037 -0.00097238 0.00024978 -0.0029485 0.0055106
0.017705 0.00011128 -0.045538 0.30348
1220000000 0.13526 0.29003 0.0095958 -0.029968 -0.0016568 -0.00064064 -8.1785e-05 -0.0011721
-0.002573 0.0025733 0.0013731 0.0019667
0.0096206 -0.02995 -0.040057 0.39019 -0.017051 -0.020685 -0.0025023 0.00046422
0.00033886 0.0029804 -0.00059152 0.0018899
-0.0016416 -0.00062889 -0.017159 -0.020636 0.28855 0.20519 0.00097775 0.0015782
0.00065534 0.001126 0.00038486 0.000744
-7.5874e-05 -0.0011569 -0.0025065 0.00046448 0.00097579 0.0015774 0.071686 0.27364
0.0085757 -0.015928 0.0024388 0.0018399
-0.0025524 0.002595 0.00034703 0.0029777 0.00065589 0.0011252 0.0085549 -0.015953
-0.0012377 0.2193 0.013251 -0.013008
0.0013963 0.0019372 -0.00058039 0.0018981 0.00038107 0.00075273 0.0024162 0.00185
0.013264 -0.013 -0.01368 0.32118
1280000000 0.18466 0.26737 -0.0084934 -0.028015 -0.0017873 0.0026773 -0.0011099 -0.0020457
-0.00063901 0.0031833 0.002609 0.00098951
-0.0084704 -0.027997 0.0057461 0.38091 -0.023581 -0.0080471 -0.0009916 0.0015085
0.0017917 0.0015915 0.00061508 0.0019333
-0.0017769 0.0026692 -0.023634 -0.0079544 0.31867 0.16106 0.0014584 -0.00023142
0.0010514 3.2584e-05 0.00036952 0.00032897
-0.0011188 -0.0020358 -0.00098316 0.0015128 0.0014546 -0.00023406 0.10807 0.25748
-0.00039372 -0.017243 0.0004452 0.00030788
-0.0006144 0.0031794 0.0018012 0.0015944 0.0010538 2.9119e-05 -0.00042476 -0.01725
0.035485 0.22292 0.0025403 -0.014827
0.0026081 0.00098972 0.00062894 0.0019246 0.00036811 0.00032761 0.00043289 0.00032798
0.002571 -0.014823 0.034192 0.32263
1340000000 0.22156 0.23308 -0.017996 -0.018248 0.0010235 0.0044379 -0.002019 -0.00077271
0.0015344 0.002604 0.0016946 -0.0015691
-0.017962 -0.01825 0.045141 0.37226 -0.021268 0.0045086 3.5673e-06 0.0019537
0.0018342 0.00050116 0.0013492 0.00085837
0.0010403 0.0044307 -0.021267 0.0046217 0.34037 0.1132 0.0009277 -0.00095938
0.00054138 -0.00043771 0.00018249 0.00015269
-0.0020241 -0.00077067 1.301e-05 0.0019585 0.00091693 -0.00094862 0.14103 0.23748
-0.0085424 -0.013893 0.0012923 0.0002997
0.0015553 0.0026112 0.0018259 0.00049581 0.00054487 -0.00044311 -0.0085788 -0.013877
0.065829 0.21844 -0.0041677 -0.013073
0.0016935 -0.0015782 0.0013483 0.00085781 0.00018226 0.00015239 0.0012995 0.00031841
-0.0041581 -0.013099 0.073457 0.31845
1400000000 0.25416 0.19438 -0.023271 -0.0067474 0.0052175 0.0030553 -0.0020892 0.00079262
0.0025241 0.00069109 0.00022898 -0.0013728
-0.023245 -0.0067565 0.082027 0.35898 -0.014498 0.012449 0.0013834 0.0012042
0.00093971 -0.00097374 0.0011733 0.00025157
0.0052245 0.0030367 -0.014462 0.012547 0.35317 0.059749 -1.0925e-05 -0.0015142
8.5846e-06 -0.00037325 0.00031158 0.00024941
-0.0020836 0.00079291 0.0013839 0.0012026 -1.1182e-05 -0.0015159 0.17098 0.20901
-0.013211 -0.0074326 -0.00044471 -0.0005928
0.0025154 0.0006833 0.00093107 -0.00098948 3.6192e-06 -0.00037003 -0.013238 -0.0074034
0.09891 0.21352 -0.010298 -0.0080275
0.00022623 -0.0013794 0.0011706 0.00023969 0.00031343 0.00024742 -0.00042883 -0.00057954
-0.010302 -0.0080424 0.11856 0.30733
1460000000 0.27648 0.14987 -0.020037 0.0051801 0.0056087 -0.0018153 -0.0014814 0.0018189
0.0020429 -0.00080577 -0.00037847 -0.0008422
-0.020027 0.0051573 0.11603 0.33696 -0.0058544 0.015138 0.0016956 0.00010428
0.0006698 -0.0011712 0.0011274 -0.0006284
0.0056217 -0.0018396 -0.0057781 0.015176 0.35898 0.0054632 -0.0011921 -0.0011824
0.00026453 -9.9994e-05 0.00064187 -0.00040476
-0.0014768 0.001829 0.0016929 0.00010589 -0.0011866 -0.0011798 0.19792 0.17987
-0.013379 -0.0016133 -0.00086449 0.0015846
0.002034 -0.0008251 0.00066883 -0.0011835 0.00025056 -0.00010592 -0.013389 -0.0015802
0.12891 0.1986 -0.011618 -0.0022898
-0.00037809 -0.00085299 0.001133 -0.00062953 0.00065187 -0.00040521 -0.00084352 0.0015861
-0.011613 -0.002294 0.15184 0.28634
1520000000 0.28821 0.10776 -0.014164 0.010516 0.0031502 -0.0042405 0.00021556 0.0026053
0.0017195 -0.0017945 -0.0012039 -0.00015118
-0.014175 0.010512 0.1493 0.32208 0.0016322 0.012898 0.0015705 -0.00083439
-6.8592e-06 -0.0008218 0.00031117 -0.0010226
0.0031295 -0.00426 0.0016995 0.012894 0.35226 -0.050579 -0.0009466 -0.00024936
0.00055078 -0.00077778 -1.4159e-05 -0.00011333
0.00022318 0.002601 0.001567 -0.00084419 -0.00094689 -0.00025655 0.22182 0.14153
-0.012164 0.0029923 0.0012964 0.0017634
0.0017122 -0.0017991 -6.5737e-06 -0.00082119 0.00054557 -0.00079009 -0.012161 0.0030213
0.15739 0.18389 -0.011471 0.0020538
-0.0012107 -0.00013948 0.00030546 -0.0010339 -1.3553e-05 -0.00011397 0.0013128 0.0017426
-0.011467 0.0020507 0.18531 0.26636
1580000000 0.29683 0.061091 -0.0075496 0.013295 -0.0009929 -0.0048971 0.0014671 0.0017875
-0.00057797 -0.002134 -0.00035528 0.00040455
-0.0075531 0.013285 0.17639 0.29721 0.0052065 0.0080781 0.00041774 -0.0015554
-0.00037616 -0.00087414 -0.00027607 -0.00086765
-0.0010043 -0.0048835 0.0052567 0.0080588 0.33206 -0.10817 -0.0014304 0.00051535
-0.00029237 -0.0011329 0.00012209 -0.0005651
0.0014778 0.0017852 0.00040113 -0.0015583 -0.0014368 0.00051441 0.2364 0.10142
-0.0089299 0.0065451 0.0020036 0.00049349
-0.00060182 -0.0021283 -0.00038617 -0.00086809 -0.00029703 -0.0011337 -0.0089136 0.0065718
0.18206 0.16518 -0.0088248 0.0073007
-0.00035091 0.00040735 -0.00027828 -0.0008591 0.00012265 -0.00056944 0.0020145 0.00047727
-0.0088224 0.0072849 0.2175 0.23975
1640000000 0.29798 0.019455 -0.0010229 0.011959 -0.0027825 -0.0025334 0.0026137 0.00089519
-0.00088677 -0.0011182 -0.00032494 0.00068203
-0.0010315 0.011957 0.20565 0.27207 0.0057716 0.0033777 -0.00075173 -0.0016092
-0.00083107 -0.00042498 -0.00052401 -0.00067446
-0.0027927 -0.0025309 0.0057919 0.0033543 0.30377 -0.1576 -0.00080109 0.0012778
-0.0011162 -0.00082143 -7.2406e-05 -0.00033471
0.002612 0.00089306 -0.00075918 -0.0016123 -0.00080458 0.0012755 0.24885 0.051594
-0.0054087 0.0069072 0.0022666 -0.00088279
-0.00088939 -0.0011076 -0.00083898 -0.00042493 -0.0011205 -0.00081246 -0.0053912 0.006925
0.20526 0.13949 -0.0040299 0.0093322
-0.00031653 0.00069126 -0.00053411 -0.00067299 -7.5117e-05 -0.00033448 0.002263 -0.0009006
-0.0040374 0.0093352 0.24374 0.20857
1700000000 0.2898 -0.02576 0.002198 0.0090747 -0.0035382 2.3359e-05 0.0028753 -0.0011896
-0.0018489 -0.00028674 0.00064854 0.00041312
0.0021856 0.0090621 0.22361 0.24046 0.0037866 0.00056076 -0.0013946 -0.00055016
-0.00072277 -9.4511e-05 -0.00096562 -0.00043966
-0.0035578 4.8346e-05 0.0037995 0.00055541 0.25993 -0.19734 0.00031026 0.0015065
-0.0017217 -0.00022254 -0.00057529 -0.00095954
0.0028674 -0.0012111 -0.0013952 -0.00054212 0.00030205 0.0015149 0.24525 0.00066088
-0.0036962 0.0068521 0.0013084 -0.0021875
-0.0018472 -0.00027621 -0.00072528 -9.2328e-05 -0.0017225 -0.00021843 -0.0036766 0.0068617
0.22275 0.11739 0.00044693 0.0095404
0.00065105 0.00040757 -0.00096254 -0.00043268 -0.00058376 -0.00096365 0.0012975 -0.0021925
0.00044736 0.0095297 0.2606 0.17415
1760000000 0.27664 -0.073883 0.0042316 0.0058413 -0.0023542 0.00088075 0.0012678 -0.003315
-0.00096194 0.00074278 0.00035335 -0.00056446
0.0042254 0.0058417 0.24934 0.20039 0.0016428 -0.0011374 -0.0011029 0.00021967
-0.0011573 0.00073465 -0.00064039 0.00051603
-0.0023298 0.00089786 0.0016267 -0.0011476 0.21093 -0.23035 0.0010464 0.0012809
-0.0011467 0.0013508 -0.0014067 -0.00044353
0.0012473 -0.0033158 -0.0011088 0.00022879 0.0010445 0.0012719 0.23499 -0.051523
-0.0015932 0.0062023 -0.00054113 -0.0023331
-0.00096761 0.0007489 -0.0011528 0.00075658 -0.0011452 0.0013493 -0.0015841 0.006201
0.23753 0.080498 0.0042497 0.0065356
0.00034329 -0.00057362 -0.00063321 0.00052358 -0.0013978 -0.00044019 -0.00055594 -0.0023329
0.0042381 0.0065345 0.27341 0.13626
1820000000 0.2514 -0.11067 0.0043419 0.0024348 -0.0001519 0.0024915 -0.00095872 -0.0029923
-0.00071527 0.00065755 -2.1597e-05 -0.00015282
0.0043362 0.0024338 0.25898 0.17019 -0.0003389 -6.1521e-05 -0.0013036 0.00087001
-0.00025238 0.0013378 -0.00056023 0.00056388
-0.00014188 0.0025123 -0.00034052 -5.7596e-05 0.16097 -0.24588 0.0015128 0.00050925
-0.00033279 0.002122 -0.0014381 0.0005652
-0.0009706 -0.0030015 -0.0013005 0.00087125 0.001508 0.000518 0.20365 -0.098917
-0.00096447 0.00494 -0.0018106 -0.0014793
-0.00072345 0.00066336 -0.00023467 0.0013366 -0.00033056 0.0021335 -0.00094937 0.0049507
0.25325 0.048969 0.0050605 0.0029672
-1.5763e-05 -0.0001486 -0.00055486 0.00057185 -0.0014193 0.00056922 -0.0018135 -0.0014724
0.0050529 0.002963 0.27609 0.099855
1880000000 0.2157 -0.15006 0.0021089 0.00030873 -0.00032286 0.0022146 -0.0027807 -0.0021305
-0.0002318 0.0013414 0.00023019 -0.00047874
0.0021073 0.00030413 0.26307 0.12359 -0.0022794 0.001617 -0.00014224 0.0017208
0.00053724 0.0014606 0.00018817 0.0010317
-0.00031524 0.0022259 -0.0022755 0.001627 0.10912 -0.25567 0.0020078 -0.00089962
0.0014936 0.0020865 -0.000901 0.0016228
-0.0028057 -0.0021214 -0.00012792 0.0017223 0.0020103 -0.00090589 0.16195 -0.13825
-0.00092728 0.0039685 -0.0025386 0.00081076
-0.000235 0.0013458 0.00054699 0.0014586 0.0015011 0.0020857 -0.00092441 0.0039723
0.25442 0.014126 0.004536 0.00094327
0.00024397 -0.00050729 0.00021502 0.0010377 -0.00089001 0.0016278 -0.0025329 0.00082726
0.0045364 0.00094497 0.27604 0.065627
1940000000 0.17617 -0.17505 -9.9019e-05 -0.0013461 0.0014387 0.0020605 -0.0037299 0.00051882
0.0010768 0.00097091 -0.00059817 -0.00056058
-9.3331e-05 -0.0013483 0.26315 0.091826 -0.0012797 0.0039408 0.0010034 0.0013101
0.0020341 0.00072201 0.00092464 0.00030065
0.0014562 0.0020523 -0.001256 0.0039555 0.062462 -0.24939 0.00036074 -0.0024143
0.0024528 0.00056096 0.00048346 0.0017388
-0.003727 0.00053597 0.0010229 0.0013035 0.00036205 -0.0024263 0.10877 -0.16735
-0.0022288 0.003667 -0.0013989 0.0019494
0.0010933 0.00096905 0.0020368 0.00070637 0.0024545 0.00054304 -0.0022155 0.0036706
0.25339 -0.026559 0.0031143 -0.0022383
-0.00060367 -0.00054091 0.00091803 0.00029864 0.00048278 0.0017284 -0.0013885 0.001966
0.0031016 -0.0022263 0.265 0.029524
2000000000 0.13019 -0.18888 -0.0039425 0.00071337 0.0025339 0.0015943 -0.0023112 0.0035987
0.00086832 0.00030307 -0.00060663 0.00037723
-0.0039531 0.00072279 0.24855 0.056478 -0.0010027 0.0057216 0.0016713 0.00021975
0.0017231 -0.0014323 0.00057246 9.0223e-05
0.0025501 0.0015606 -0.00096682 0.0057335 0.018858 -0.23491 -0.0015017 -0.0016008
0.0021576 -0.0013081 0.0017667 0.0011549
-0.0023089 0.0036228 0.0016644 0.00021018 -0.0014794 -0.0016017 0.055454 -0.17597
-0.0035352 0.0045003 0.00017371 0.0024061
0.00086356 0.00031819 0.0017154 -0.0014503 0.0021636 -0.001307 -0.0035267 0.0045074
