!Keysight Technologies,M9804A,MY58100912,A.14.10.03
!Date: Thursday, April 27, 2023 10:28:33
!Correction: S11(C  6-Port  ) 
!S12(C  6-Port  ) 
!S13(C  6-Port  ) 
!S14(C  6-Port  ) 
!S15(C  6-Port  ) 
!S16(C  6-Port  ) 
!S21(C  6-Port  ) 
!S22(C  6-Port  ) 
!S23(C  6-Port  ) 
!S24(C  6-Port  ) 
!S25(C  6-Port  ) 
!S26(C  6-Port  ) 
!S31(C  6-Port  ) 
!S32(C  6-Port  ) 
!S33(C  6-Port  ) 
!S34(C  6-Port  ) 
!S35(C  6-Port  ) 
!S36(C  6-Port  ) 
!S41(C  6-Port  ) 
!S42(C  6-Port  ) 
!S43(C  6-Port  ) 
!S44(C  6-Port  ) 
!S45(C  6-Port  ) 
!S46(C  6-Port  ) 
!S51(C  6-Port  ) 
!S52(C  6-Port  ) 
!S53(C  6-Port  ) 
!S54(C  6-Port  ) 
!S55(C  6-Port  ) 
!S56(C  6-Port  ) 
!S61(C  6-Port  ) 
!S62(C  6-Port  ) 
!S63(C  6-Port  ) 
!S64(C  6-Port  ) 
!S65(C  6-Port  ) 
!S66(C  6-Port  ) 
!S6P File: Measurement: :
# Hz S  RI   R 50
500000000 -0.33754 -0.033372 -0.009609 -0.0034519 -0.0079214 0.012166 -0.0035648 0.011652
0.011835 0.0045087 -0.0038163 0.0084145
-0.0096345 -0.0034857 -0.41978 -0.048727 0.0070536 -0.011267 0.0012855 0.011732
0.0073586 0.0029519 0.00040836 0.012886
-0.0079315 0.0121 0.0070315 -0.011277 -0.26562 0.21215 0.0067093 0.0033028
5.6061e-05 0.0086213 0.00020242 0.012029
-0.0036075 0.011641 0.0012888 0.011753 0.0067117 0.0033025 -0.32793 0.048775
-0.019778 -0.0045454 0.017258 0.026031
0.011769 0.0046407 0.0073457 0.0029301 5.3812e-05 0.0086188 -0.01979 -0.0045337
-0.22866 -0.18103 -0.027697 0.0051405
-0.0038937 0.0084324 0.00043081 0.012857 0.00019708 0.012021 0.01724 0.026021
-0.027705 0.005129 -0.27189 -0.1317
560000000 -0.31587 0.12581 -0.02457 -0.062774 0.0005358 0.012169 0.0062254 0.0099767
0.011091 0.0043671 0.0095471 0.0077038
-0.024459 -0.062808 -0.37685 0.10969 -0.042244 -0.0364 0.013766 0.003706
-0.013322 -0.0047842 0.0043029 -0.0005237
0.00058805 0.012221 -0.042374 -0.036279 -0.18247 0.26017 -0.00058095 -0.0045275
0.019353 0.0045245 0.0072713 -0.0062325
0.0061867 0.0099854 0.013797 0.0037008 -0.00058979 -0.0045241 -0.30299 0.13675
0.0034293 -0.024289 0.004755 -0.019496
0.011058 0.0043695 -0.013351 -0.0047013 0.019353 0.0045244 0.0033938 -0.024278
-0.28743 -0.0054997 0.007179 -0.05071
0.0095554 0.0076691 0.0043201 -0.00053776 0.0072667 -0.0062261 0.0047307 -0.019504
0.0072038 -0.050751 -0.33399 0.017697
620000000 -0.2729 0.11064 -0.023051 0.0075408 0.0038352 0.0086302 0.0068693 -0.0056975
0.011597 -0.00053836 0.00052921 -0.0019326
-0.023106 0.0075358 -0.4029 0.063968 -0.019 0.00017287 -0.0012936 -0.0023248
0.010554 -0.00684 0.0012474 -0.0024818
0.0038643 0.0084908 -0.019008 0.00020737 -0.15262 0.26896 -0.0014336 -0.0053977
-0.0035915 -0.0030929 0.0082567 -0.0034796
0.006996 -0.0056595 -0.0012957 -0.0023379 -0.0014286 -0.005403 -0.26098 0.14715
-0.039424 -0.018283 0.014192 0.024124
0.011459 -0.0005449 0.010561 -0.0068576 -0.0035873 -0.0030916 -0.039459 -0.01825
-0.20591 -0.045266 -0.041217 0.015793
0.00059783 -0.0017863 0.0012573 -0.0024621 0.0082547 -0.003489 0.014196 0.024107
-0.041231 0.015775 -0.25104 -0.021002
680000000 -0.23237 0.19439 -0.027908 -0.013474 0.0049938 0.0049143 0.0011359 -0.0074237
-0.00316 -0.010958 0.0047031 -0.0072746
-0.027874 -0.013504 -0.38679 0.16056 -0.032559 -0.0010407 -0.0015184 -0.00034681
-0.0027821 -0.0089584 -0.00096951 -0.0019574
0.0050157 0.0049083 -0.032587 -0.00095596 -0.10129 0.28817 -0.000578 6.557e-05
-0.0022865 0.00062423 -0.0029779 -0.0096193
0.001129 -0.0074159 -0.0015233 -0.0003531 -0.00057796 6.7085e-05 -0.2181 0.19629
-0.023768 -0.0075627 -0.01052 -0.010256
-0.0032103 -0.010952 -0.0028136 -0.0089667 -0.0022854 0.00062214 -0.023795 -0.0075217
-0.25257 0.053237 -0.0053841 -0.0091799
0.0047186 -0.0073212 -0.00097646 -0.0019436 -0.0029751 -0.009621 -0.010536 -0.010252
-0.0053977 -0.009193 -0.26228 0.086309
740000000 -0.18857 0.18943 -0.037827 0.026512 0.012818 -0.0054267 -0.00087577 -0.0039786
-0.004683 -0.0026923 -0.0063469 0.0033193
-0.03785 0.026457 -0.3348 0.17922 -0.034546 0.035101 -0.0010585 -0.0064026
-0.01107 0.0082144 -0.0030346 -0.0062611
0.012826 -0.0054462 -0.034448 0.035211 -0.067681 0.28654 -0.0015493 0.003204
-0.0028967 -0.0037549 -0.00093751 7.5594e-05
-0.00092849 -0.0040109 -0.0010885 -0.0064121 -0.0015588 0.0032162 -0.20202 0.20416
-0.042106 -0.0070058 0.022454 0.013034
-0.0046608 -0.0026778 -0.01108 0.0082611 -0.0028761 -0.0037687 -0.042127 -0.0069307
-0.15704 0.076022 -0.041171 0.0014401
-0.0062676 0.0033168 -0.003063 -0.0062623 -0.00095336 6.3095e-05 0.022464 0.013015
-0.041168 0.0014306 -0.25474 0.092147
800000000 -0.15639 0.22928 -0.022038 0.017332 0.0052649 -0.010639 -0.0047446 -0.0019781
-0.0041628 0.0029807 0.0045721 0.00086576
-0.022038 0.017305 -0.33676 0.2492 -0.0075658 0.033981 -0.0021351 0.002207
-0.00069674 0.0035229 0.0012182 0.0053406
0.0052402 -0.010667 -0.0074643 0.034042 -0.026574 0.3094 0.0011699 0.0016099
0.00064064 0.0036111 -0.0017405 0.00092039
-0.0047651 -0.0019689 -0.0021303 0.0022101 0.0011709 0.0016173 -0.17338 0.23155
-0.028002 0.013192 0.013551 -0.010042
-0.0041145 0.0029655 -0.00068638 0.0035187 0.0006434 0.0035997 -0.028001 0.01327
-0.19858 0.10124 -0.017127 0.017963
0.0045646 0.00086061 0.0012264 0.0053334 -0.0017516 0.00092629 0.013571 -0.010058
-0.017164 0.017959 -0.24604 0.14639
860000000 -0.12157 0.25012 -0.016739 0.0311 -0.0034034 -0.0098691 -0.0024723 0.0012273
0.0041937 0.0050371 -0.0029227 -0.002663
-0.016754 0.031041 -0.28891 0.2907 0.0083614 0.034006 0.0002207 0.0021219
0.0045926 0.00041559 0.0034717 0.00034488
-0.003419 -0.0098526 0.0084688 0.034019 0.02159 0.31707 -0.00031262 -0.00025676
0.0028869 -0.0016483 0.0016079 0.0043917
-0.0025088 0.0012727 0.00021365 0.0021367 -0.00030938 -0.00025781 -0.13771 0.24303
-0.017337 0.018579 -0.0060995 -0.0093391
0.0041736 0.0050946 0.0045789 0.00039325 0.0028836 -0.0016519 -0.017313 0.018626
-0.14911 0.14825 -0.023984 0.016081
-0.0028933 -0.0026904 0.0034822 0.00033814 0.0016151 0.0043918 -0.0060972 -0.0093305
-0.024012 0.016099 -0.19535 0.19031
920000000 -0.096321 0.27302 0.0054927 0.037542 -0.0094843 -0.0043516 -0.0017689 0.0021053
0.0013051 0.0016892 0.0026107 -0.0014397
0.0054891 0.037498 -0.25995 0.31158 0.028091 0.021434 0.0016169 0.0010188
0.0069501 -0.00074722 0.0037465 -0.0030545
-0.0094857 -0.0043179 0.028178 0.021376 0.067869 0.31753 0.0018035 -0.00018684
0.001372 -0.00049596 0.00068219 -0.0012795
-0.0017508 0.0021169 0.001637 0.0010223 0.0018011 -0.00018838 -0.11332 0.25917
-0.0097045 0.029815 0.0025818 -0.0069235
0.0013269 0.0017104 0.0069594 -0.00076888 0.0013724 -0.00049618 -0.0096338 0.02986
-0.13854 0.15408 -0.0012893 0.0275
0.0025976 -0.0014765 0.0037484 -0.0030631 0.00067774 -0.0012776 0.0025874 -0.0069367
-0.0013089 0.02752 -0.20291 0.20378
980000000 -0.048792 0.29219 0.018069 0.029537 -0.008836 0.004649 0.0023905 0.003664
0.0039608 -0.0016001 -0.0030312 -0.0021493
0.018092 0.02957 -0.20707 0.34484 0.032934 0.0043439 0.0020419 -7.6563e-05
0.0010235 -0.0061953 -0.00059117 -0.002285
-0.0088079 0.0046748 0.032964 0.0042376 0.11424 0.31068 0.00039108 -0.001205
-4.5785e-05 -0.0021677 0.0013924 -6.5676e-05
0.0023996 0.0036659 0.0020434 -7.2235e-05 0.00038449 -0.0012048 -0.074956 0.27053
0.0079272 0.028404 -0.0092725 -0.0066953
0.0039569 -0.0016332 0.0010144 -0.0062155 -4.8433e-05 -0.0021641 0.0080056 0.028403
-0.1066 0.18063 0.005407 0.018726
-0.0030241 -0.0021076 -0.00057997 -0.0022741 0.0013879 -7.0014e-05 -0.009269 -0.0066869
0.005395 0.018765 -0.1596 0.24953
1040000000 -0.0060773 0.3001 0.033267 0.017255 -0.0011876 0.0067728 0.0027646 0.00081372
3.2559e-05 -0.0035926 -0.0006104 -0.0014493
0.033251 0.017276 -0.17146 0.35779 0.028934 -0.015215 0.0014765 -0.0016906
-0.0026277 -0.002383 -0.0015875 -0.0027018
-0.0011636 0.0067683 0.028885 -0.015308 0.16047 0.29673 -0.00055309 -0.0013921
-0.0016133 -0.00073565 -0.00053137 -0.0011041
0.0027557 0.00078068 0.0014878 -0.0016966 -0.00055474 -0.0013926 -0.047578 0.28043
0.01864 0.016497 -0.0030926 0.0018095
8.2796e-06 -0.0036008 -0.0026391 -0.0023931 -0.0016188 -0.00072406 0.018711 0.016465
-0.075736 0.18852 0.013719 0.017281
-0.00061166 -0.0014521 -0.0015964 -0.0027133 -0.00052975 -0.0011026 -0.0030922 0.0018146
0.013743 0.017303 -0.13942 0.2711
1100000000 0.039419 0.30736 0.035502 -0.0049406 0.0028036 0.0037227 0.0025328 -0.0013754
-0.0021182 -0.003088 -0.0040035 8.5009e-05
0.035468 -0.0049007 -0.128 0.37471 0.014572 -0.027847 -2.5795e-05 -0.0018303
-0.003276 -0.00043322 -0.0035255 -0.00046011
0.0028092 0.0037102 0.014476 -0.027931 0.20692 0.27598 -0.0018189 0.00028937
-0.0016848 0.00076807 -0.00095168 -0.00023063
0.0025085 -0.001399 -3.3567e-05 -0.0018281 -0.0018171 0.00028453 -0.0070864 0.2851
0.022819 0.0042337 -0.0025688 0.00082446
-0.0021389 -0.0031127 -0.0032774 -0.00042729 -0.0016868 0.00076627 0.022853 0.0041786
-0.057465 0.20116 0.018817 0.0080442
-0.0040035 0.00012451 -0.0035362 -0.00045213 -0.00094973 -0.0002252 -0.0025681 0.00081161
0.018842 0.0080646 -0.092422 0.30068
1160000000 0.090957 0.30181 0.023317 -0.02117 0.0024659 -0.0004792 -5.0682e-05 -0.0024347
-0.0040739 -0.00047386 -0.0010362 0.0040991
0.023343 -0.021132 -0.084206 0.37874 -0.004214 -0.028823 -0.0018379 -0.0016383
-0.0024264 0.0027582 -0.0014048 0.0016758
0.0024964 -0.00048095 -0.0043498 -0.028818 0.24981 0.24455 -0.00057693 0.0017768
-0.00026288 0.0019024 -0.00096162 0.00022628
-4.9121e-05 -0.0024481 -0.0018254 -0.0016179 -0.00057949 0.0017741 0.032075 0.28223
0.018934 -0.010388 -0.0029013 0.0055539
-0.0041234 -0.00045558 -0.0024101 0.0027758 -0.00027004 0.0019108 0.01893 -0.010434
-0.024756 0.20995 0.017516 0.00022926
-0.001051 0.0041033 -0.0013939 0.0016738 -0.00095558 0.00022988 -0.002901 0.0055414
0.017556 0.00021753 -0.04536 0.30348
1220000000 0.1354 0.29 0.0095507 -0.029951 -0.0016518 -0.00063384 -8.913e-05 -0.0011843
-0.0025581 0.0025647 0.0013812 0.0019359
0.0095678 -0.029914 -0.039978 0.39028 -0.017059 -0.020671 -0.0025315 0.00045583
0.00033402 0.0029338 -0.00059107 0.001865
-0.0016444 -0.00062645 -0.017177 -0.020618 0.28863 0.2051 0.00095778 0.0015802
0.00066491 0.0011333 0.00035589 0.00074219
-8.493e-05 -0.001189 -0.0025277 0.0004667 0.00095898 0.0015805 0.071789 0.27366
0.0086537 -0.015908 0.0024996 0.0018817
-0.0025665 0.0025764 0.00035052 0.0029515 0.00066399 0.0011297 0.0086284 -0.015948
-0.0014595 0.21941 0.013188 -0.012782
0.0013777 0.0019397 -0.00058876 0.0018798 0.00035964 0.00074696 0.0024838 0.0018705
0.013224 -0.012817 -0.013506 0.32122
1280000000 0.18487 0.26736 -0.0085387 -0.027969 -0.0017725 0.0027112 -0.0011226 -0.0020337
-0.00061085 0.003178 0.0026036 0.0009784
-0.0085078 -0.027953 0.0058612 0.38093 -0.023596 -0.0080318 -0.00097658 0.0015089
0.0018081 0.001583 0.00059727 0.0019167
-0.0017658 0.0027141 -0.023652 -0.0079404 0.31868 0.16098 0.0014593 -0.00022969
0.0010361 4.2012e-05 0.00037358 0.00033439
-0.0011327 -0.0020277 -0.00097224 0.0015132 0.0014594 -0.00022336 0.10819 0.25747
-0.00031992 -0.017252 0.00049888 0.00028702
-0.00058559 0.0031897 0.001818 0.0015747 0.0010469 4.3751e-05 -0.00038096 -0.017281
0.035251 0.22316 0.0025797 -0.01459
0.0026124 0.00097646 0.00061806 0.0019219 0.00037775 0.00033496 0.00048296 0.00028679
0.0026127 -0.014648 0.03422 0.32258
1340000000 0.22168 0.23294 -0.01797 -0.018215 0.0010335 0.0044553 -0.0020261 -0.00076784
0.0015432 0.0026013 0.0016719 -0.0015763
-0.017946 -0.018224 0.04523 0.37229 -0.021283 0.0045281 6.3934e-06 0.0019683
0.0018128 0.00050374 0.001339 0.00086372
0.0010588 0.0044468 -0.021279 0.0046381 0.34038 0.11312 0.00092247 -0.0009682
0.00057074 -0.00043258 0.00018878 0.00017104
-0.0020202 -0.0007587 9.1598e-06 0.0019654 0.00091882 -0.00096504 0.14113 0.23742
-0.0084773 -0.013935 0.0013196 0.0002387
0.0015688 0.0026042 0.0018338 0.00049066 0.00057161 -0.00043501 -0.0085381 -0.01393
0.065711 0.21884 -0.0039901 -0.012909
0.0016844 -0.0015736 0.0013569 0.00085452 0.00019057 0.00016975 0.0013026 0.00025349
-0.0040147 -0.012986 0.073453 0.31846
1400000000 0.25425 0.19423 -0.023243 -0.0067246 0.005242 0.0030556 -0.0020812 0.0007878
0.0025092 0.00068193 0.00021586 -0.0013544
-0.023212 -0.0067367 0.082138 0.35897 -0.014485 0.012477 0.0013853 0.0011998
0.00090771 -0.00096184 0.0011728 0.00024964
0.0052538 0.0030377 -0.014439 0.01256 0.35319 0.059675 -1.5274e-05 -0.0015186
-3.6128e-06 -0.00037561 0.00033615 0.00024224
-0.0020833 0.00079387 0.0013963 0.0011939 -5.8487e-06 -0.001524 0.17103 0.20894
-0.013161 -0.0075064 -0.00045712 -0.00066693
0.0025179 0.00066024 0.00091833 -0.00098091 -8.0637e-06 -0.00037795 -0.013218 -0.0074656
0.099047 0.21399 -0.010055 -0.007951
0.00022632 -0.0013629 0.00118 0.00023365 0.00033909 0.00024369 -0.00046543 -0.00064492
-0.010088 -0.0080168 0.11861 0.30743
1460000000 0.27656 0.1497 -0.019996 0.0051681 0.0056216 -0.0018272 -0.0014601 0.0018292
0.0020388 -0.00079659 -0.00037516 -0.00082657
-0.019971 0.0051516 0.1161 0.33692 -0.0058336 0.015149 0.0016933 0.00010939
0.00066239 -0.0011628 0.0011275 -0.0006181
0.005621 -0.0018557 -0.0057732 0.015194 0.35897 0.0054164 -0.0011706 -0.0011801
0.00023634 -0.00011716 0.00066121 -0.00041197
-0.0014628 0.0018268 0.0016957 9.7067e-05 -0.0011767 -0.0011871 0.19798 0.17978
-0.013378 -0.0017012 -0.00090897 0.0015412
0.002038 -0.00081656 0.0006586 -0.0011663 0.00024033 -0.00011991 -0.013408 -0.0016398
0.12925 0.19902 -0.011365 -0.002341
-0.000369 -0.00083488 0.0011308 -0.00062519 0.00065641 -0.00041617 -0.00090165 0.0015692
-0.011441 -0.0023752 0.15201 0.28651
1520000000 0.28817 0.10764 -0.01415 0.010517 0.0031473 -0.0042609 0.00022561 0.0025903
0.00171 -0.0017781 -0.00119 -0.00014753
-0.014151 0.010494 0.14939 0.32207 0.0016408 0.01291 0.001559 -0.00084351
1.3041e-05 -0.00081906 0.00031241 -0.0010285
0.0031357 -0.0042733 0.0017042 0.012909 0.35226 -0.05061 -0.00095865 -0.00026739
0.00055174 -0.00078029 -2.8828e-05 -0.0001018
0.00023433 0.0025933 0.0015615 -0.00085048 -0.00095408 -0.00026074 0.2218 0.14145
-0.012212 0.0029222 0.0012523 0.001754
0.0016987 -0.0017924 -2.5214e-06 -0.00082443 0.00054979 -0.00078763 -0.012214 0.0029838
0.15793 0.18412 -0.01127 0.0018743
-0.0012114 -0.00015701 0.0003075 -0.0010305 -3.0439e-05 -0.00010274 0.0012711 0.0017613
-0.011344 0.0018928 0.18561 0.26645
1580000000 0.29685 0.060981 -0.0075357 0.01328 -0.00098669 -0.0049127 0.0014737 0.0017787
-0.00056155 -0.0021069 -0.00033408 0.00038541
-0.0075375 0.013266 0.17646 0.29719 0.005228 0.0080636 0.00041456 -0.001548
-0.00036335 -0.000876 -0.00027236 -0.00086653
-0.0010048 -0.0049104 0.0052723 0.0080481 0.33204 -0.10819 -0.0014315 0.00051324
-0.00028052 -0.0011281 0.00012529 -0.00056729
0.0014895 0.001768 0.00040565 -0.0015509 -0.0014254 0.00051482 0.2364 0.10137
-0.0090229 0.0065166 0.0019642 0.00051071
-0.0005893 -0.0021182 -0.00037362 -0.00087237 -0.00028751 -0.0011295 -0.0089977 0.00657
0.18266 0.16519 -0.0087586 0.007068
-0.00034828 0.0003919 -0.00027645 -0.00086891 0.00012484 -0.00057269 0.0019868 0.0005015
-0.0088164 0.0071222 0.21784 0.23972
1640000000 0.298 0.019367 -0.0010251 0.011955 -0.0027893 -0.0025318 0.0025904 0.00090279
-0.00086571 -0.0011058 -0.00033002 0.0006845
-0.0010384 0.011949 0.20572 0.27205 0.0057889 0.0033624 -0.00074644 -0.0016024
-0.00083782 -0.00044006 -0.00053592 -0.00067135
-0.0028091 -0.0025207 0.0058119 0.0033367 0.30381 -0.15763 -0.00081649 0.0012902
-0.0010962 -0.00081465 -8.8865e-05 -0.00031616
0.0026057 0.00089744 -0.00076414 -0.0016065 -0.00081502 0.0012941 0.24883 0.051545
-0.0055051 0.0069356 0.002233 -0.00085679
-0.00088671 -0.0011077 -0.00084267 -0.00043869 -0.0010981 -0.00080867 -0.0054536 0.006971
0.20578 0.13924 -0.0040681 0.0090963
-0.00033535 0.00069573 -0.00053564 -0.00066281 -9.1225e-05 -0.00031862 0.0022535 -0.00087564
-0.0040952 0.0091739 0.24409 0.20842
1700000000 0.28983 -0.025846 0.0021864 0.0090695 -0.0035483 1.6304e-05 0.0028604 -0.0011785
-0.0018305 -0.00031738 0.00063875 0.00041182
0.0021788 0.0090549 0.22372 0.24043 0.0037959 0.00054656 -0.0013929 -0.00054004
-0.00073508 -0.00010998 -0.0009552 -0.00044275
-0.0035476 5.3795e-05 0.0038033 0.000522 0.25995 -0.1974 0.00029687 0.0015165
-0.0017312 -0.00024395 -0.00057062 -0.00096069
0.0028509 -0.0011944 -0.0014011 -0.00052832 0.00028846 0.0015091 0.24525 0.00062967
-0.0037389 0.0069302 0.0012832 -0.0021562
-0.0018412 -0.0002949 -0.00073192 -0.00010533 -0.0017308 -0.00023781 -0.0036986 0.0069382
0.22318 0.11697 0.00032825 0.0093594
0.0006488 0.00041757 -0.00095925 -0.00043915 -0.00057672 -0.0009623 0.0012916 -0.0021826
0.00035006 0.0094242 0.26089 0.17386
1760000000 0.27671 -0.074032 0.0042285 0.0058381 -0.0023565 0.00086577 0.0012806 -0.0033115
-0.00097736 0.00071662 0.00035509 -0.00055316
0.0042199 0.0058332 0.24942 0.20032 0.0016269 -0.0011569 -0.0010992 0.00021487
-0.0011701 0.00074162 -0.00063902 0.00051385
-0.0023448 0.00089225 0.0016236 -0.0011654 0.21091 -0.2304 0.0010529 0.0012628
-0.0011598 0.0013428 -0.0014049 -0.00043035
0.0012588 -0.0033096 -0.0011047 0.0002149 0.0010535 0.0012595 0.23496 -0.051564
-0.0016054 0.0062787 -0.00053325 -0.0022996
-0.00097213 0.00073592 -0.0011661 0.00074909 -0.0011524 0.0013459 -0.001564 0.0062588
0.23776 0.079961 0.0040737 0.0064112
0.00036425 -0.0005582 -0.00063194 0.00052456 -0.0014042 -0.00042808 -0.00053948 -0.0023196
0.0041203 0.0064703 0.27362 0.13596
1820000000 0.2514 -0.11083 0.0043313 0.0024293 -0.00015787 0.0025067 -0.00096021 -0.0030071
-0.00073829 0.00065925 -3.3948e-05 -0.00013652
0.0043281 0.002433 0.25905 0.17014 -0.00036652 -6.4857e-05 -0.0012994 0.00086564
-0.00024856 0.0013567 -0.00056026 0.00055885
-0.00015356 0.0025125 -0.00036484 -6.4469e-05 0.16093 -0.24592 0.0014974 0.00052129
-0.00035069 0.0021442 -0.0013927 0.0005536
-0.00096469 -0.002996 -0.0012982 0.00087245 0.0014924 0.00052496 0.20361 -0.098919
-0.00093112 0.0049873 -0.001787 -0.0014523
-0.00072105 0.00067052 -0.00024364 0.0013569 -0.00035516 0.0021405 -0.00091165 0.0049616
0.25328 0.048413 0.0048551 0.0029481
-2.3702e-05 -0.00015162 -0.00055391 0.00056194 -0.0013992 0.00055438 -0.0018072 -0.0014583
0.0049283 0.0029761 0.27613 0.09958
1880000000 0.21563 -0.15021 0.0020874 0.00029484 -0.00030895 0.0022272 -0.0027858 -0.0021488
-0.00024284 0.0013744 0.00024447 -0.00051562
0.0020924 0.0003028 0.26315 0.12349 -0.002304 0.0016105 -0.00014985 0.0017167
0.00055678 0.001472 0.0002224 0.0010241
-0.00031191 0.0022175 -0.0023019 0.0016335 0.10909 -0.25574 0.0020189 -0.00094147
0.0015275 0.0021056 -0.00089965 0.0015968
-0.0028009 -0.0021408 -0.0001382 0.0017096 0.0020156 -0.00093865 0.16197 -0.13824
-0.00088503 0.0039931 -0.0025094 0.00082945
-0.00023052 0.001366 0.00055964 0.0014802 0.0015255 0.0021006 -0.00086865 0.0039703
0.25428 0.01362 0.0043434 0.0010241
0.00024585 -0.00052597 0.00023199 0.0010188 -0.00089586 0.0016021 -0.0025235 0.00083401
0.0044094 0.0010161 0.27607 0.065389
1940000000 0.17605 -0.17522 -0.00010256 -0.0013419 0.0014662 0.0020229 -0.0037489 0.00051802
0.001094 0.0009866 -0.00058563 -0.00058008
-9.3704e-05 -0.0013283 0.26316 0.091755 -0.0012468 0.0039536 0.00099299 0.001315
0.0020525 0.00071351 0.00091394 0.00031853
0.0014746 0.0020205 -0.0012334 0.0039593 0.062512 -0.24941 0.00034635 -0.0024175
0.0024737 0.00054385 0.00048087 0.001708
-0.0037427 0.00051996 0.0010006 0.001314 0.00034948 -0.0024176 0.10878 -0.16735
-0.0021995 0.0036719 -0.0013606 0.0019535
0.0010978 0.000969 0.0020583 0.00070679 0.0024695 0.00054442 -0.0021973 0.0036514
0.2531 -0.026919 0.0029912 -0.0020708
-0.00060493 -0.00056909 0.00091314 0.00030507 0.00049332 0.0017119 -0.0013738 0.0019649
0.0030469 -0.0021104 0.26502 0.029402
2000000000 0.13001 -0.18895 -0.0039429 0.00074956 0.0025305 0.0015844 -0.0023315 0.0036035
0.00090595 0.00031736 -0.00062714 0.00037597
-0.003938 0.00074599 0.24859 0.0564 -0.0010109 0.0057282 0.0016709 0.00022137
0.0017198 -0.0014423 0.00055473 0.00010961
0.002536 0.0015995 -0.00097696 0.0057463 0.018753 -0.23486 -0.0015006 -0.0015721
0.0021987 -0.0013074 0.001779 0.0011355
-0.0023125 0.0036318 0.0016651 0.0002114 -0.0014871 -0.0015674 0.055492 -0.176
-0.0035073 0.0045137 0.00022908 0.0023842
0.00087238 0.00030601 0.0017173 -0.0014637 0.0021965 -0.001312 -0.0035191 0.0045058
