!Keysight Technologies,M9804A,MY58100912,A.14.10.03
!Date: Thursday, April 27, 2023 10:28:33
!Correction: S11(C  6-Port  ) 
!S12(C  6-Port  ) 
!S13(C  6-Port  ) 
!S14(C  6-Port  ) 
!S15(C  6-Port  ) 
!S16(C  6-Port  ) 
!S21(C  6-Port  ) 
!S22(C  6-Port  ) 
!S23(C  6-Port  ) 
!S24(C  6-Port  ) 
!S25(C  6-Port  ) 
!S26(C  6-Port  ) 
!S31(C  6-Port  ) 
!S32(C  6-Port  ) 
!S33(C  6-Port  ) 
!S34(C  6-Port  ) 
!S35(C  6-Port  ) 
!S36(C  6-Port  ) 
!S41(C  6-Port  ) 
!S42(C  6-Port  ) 
!S43(C  6-Port  ) 
!S44(C  6-Port  ) 
!S45(C  6-Port  ) 
!S46(C  6-Port  ) 
!S51(C  6-Port  ) 
!S52(C  6-Port  ) 
!S53(C  6-Port  ) 
!S54(C  6-Port  ) 
!S55(C  6-Port  ) 
!S56(C  6-Port  ) 
!S61(C  6-Port  ) 
!S62(C  6-Port  ) 
!S63(C  6-Port  ) 
!S64(C  6-Port  ) 
!S65(C  6-Port  ) 
!S66(C  6-Port  ) 
!S6P File: Measurement: :
# Hz S  RI   R 50
500000000 -0.33582 -0.032509 -0.0097462 -0.0040811 -0.0080044 0.011384 -0.0040546 0.011652
0.012587 0.0038092 -0.0043861 0.0075369
-0.0097178 -0.0041009 -0.41853 -0.048436 0.0077573 -0.011698 0.0013002 0.011165
0.007899 0.0023472 0.0010097 0.01186
-0.0079751 0.011395 0.0077281 -0.011732 -0.26395 0.21159 0.0069108 0.0030466
0.00036924 0.0082061 0.00068261 0.011895
-0.0038729 0.011786 0.001339 0.011067 0.0067393 0.0030151 -0.32697 0.049242
-0.018892 -0.0050863 0.017548 0.025578
0.011805 0.0037999 0.0075755 0.0026445 0.00035277 0.0081042 -0.0185 -0.0051239
-0.22763 -0.17876 -0.026301 0.0046938
-0.0045514 0.0078456 0.00054397 0.012194 0.00031745 0.011974 0.017526 0.02574
-0.027212 0.0048379 -0.27178 -0.12832
560000000 -0.3147 0.12569 -0.02396 -0.063041 7.2896e-05 0.012413 0.006348 0.010054
0.010962 0.0034752 0.009119 0.0075651
-0.023915 -0.062995 -0.37604 0.10901 -0.041432 -0.036681 0.014309 0.0036894
-0.013179 -0.0045736 0.0051843 -0.00044076
0.00011174 0.012412 -0.041582 -0.036613 -0.18256 0.2586 -0.00083938 -0.0048436
0.018398 0.0038863 0.0064374 -0.0062018
0.0063392 0.0099903 0.014143 0.0035196 -0.00066193 -0.0049178 -0.30126 0.13661
0.0035545 -0.025492 0.0059837 -0.019734
0.010778 0.0038502 -0.013234 -0.0044256 0.018542 0.0037073 0.0030513 -0.025182
-0.28526 -0.0064234 0.0067372 -0.051452
0.0093772 0.0072954 0.0050619 -0.00043161 0.0069493 -0.0061018 0.005694 -0.019827
0.0076446 -0.051681 -0.33239 0.019484
620000000 -0.27285 0.11041 -0.023187 0.0067762 0.0033877 0.0082423 0.0070098 -0.0052141
0.010935 -2.1175e-05 3.7528e-05 -0.0021237
-0.023174 0.0067588 -0.40202 0.063394 -0.018959 -0.0007192 -0.0015838 -0.0017505
0.010637 -0.0075036 0.00046762 -0.0030015
0.0034111 0.0082262 -0.018993 -0.00066838 -0.15263 0.26741 -0.0015969 -0.0049792
-0.0040854 -0.0034 0.0077565 -0.0033089
0.0068084 -0.0051824 -0.0017008 -0.001726 -0.0016452 -0.0048584 -0.25997 0.14593
-0.039303 -0.019081 0.01565 0.023741
0.01062 -0.0010224 0.010365 -0.0075765 -0.0041977 -0.0036191 -0.03905 -0.018836
-0.205 -0.044277 -0.041754 0.015109
-3.7835e-06 -0.0017523 0.00064891 -0.0028146 0.0079239 -0.0031612 0.014708 0.023428
-0.041079 0.013782 -0.24971 -0.015391
680000000 -0.23196 0.19295 -0.027818 -0.014309 0.0049097 0.0050919 0.00071913 -0.0073696
-0.0026382 -0.010835 0.0044098 -0.0079601
-0.02779 -0.01431 -0.38639 0.16004 -0.03294 -0.0011864 -0.0017298 -0.00028205
-0.0029856 -0.0085374 -0.00081799 -0.0024896
0.0049142 0.0050863 -0.032975 -0.0011013 -0.10217 0.28738 -0.00060764 4.6949e-05
-0.0024285 0.001113 -0.0028867 -0.0096811
0.0005473 -0.0073485 -0.0018419 -0.00041666 -0.00057895 2.6888e-05 -0.21816 0.19558
-0.023715 -0.0088149 -0.010619 -0.0098082
-0.0029352 -0.010862 -0.0028692 -0.0085562 -0.002458 0.00099546 -0.023751 -0.0086818
-0.25051 0.051403 -0.0052816 -0.0098282
0.0044168 -0.0082461 -0.00076106 -0.0027593 -0.0029269 -0.0096163 -0.010604 -0.0097098
-0.0049157 -0.010065 -0.26361 0.086534
740000000 -0.1893 0.18895 -0.038449 0.026243 0.012456 -0.0051308 -0.00072888 -0.004232
-0.0047718 -0.0020971 -0.0058778 0.0031382
-0.038438 0.026205 -0.33512 0.17928 -0.035046 0.034844 -0.00074223 -0.0060323
-0.010981 0.0087524 -0.0026805 -0.0061116
0.01244 -0.0051551 -0.034968 0.034968 -0.068776 0.28668 -0.0013174 0.0034436
-0.0033163 -0.0037213 -0.00071905 0.00048503
-0.00078488 -0.0040681 -0.00081648 -0.0062518 -0.001313 0.0034557 -0.20149 0.203
-0.042537 -0.0075571 0.023005 0.012674
-0.0047271 -0.0023987 -0.01144 0.0091861 -0.0029766 -0.0038263 -0.042689 -0.0077577
-0.15703 0.073536 -0.042266 0.00048747
-0.0060507 0.0032456 -0.0023282 -0.0064546 -0.0007247 0.00061539 0.023113 0.012656
-0.042416 0.00137 -0.25178 0.09364
800000000 -0.15717 0.22873 -0.022431 0.017276 0.0052332 -0.010419 -0.0047785 -0.0020107
-0.0040266 0.0030671 0.0044844 0.00087727
-0.022421 0.017259 -0.33718 0.24906 -0.0078948 0.034244 -0.0019439 0.0023417
-0.00054314 0.0034673 0.0012847 0.0053816
0.0052171 -0.010435 -0.0077941 0.034302 -0.027445 0.30994 0.0012723 0.0014301
0.00080276 0.0035204 -0.0019857 0.00106
-0.0047356 -0.0020076 -0.0019332 0.0023948 0.0012688 0.0014486 -0.17415 0.23095
-0.028602 0.012812 0.013173 -0.0094884
-0.0041901 0.0032275 -0.0004689 0.0034553 0.00073868 0.0035309 -0.028619 0.012952
-0.19933 0.098394 -0.018109 0.017772
0.0046486 0.00062101 0.0013731 0.005367 -0.0019791 0.0010959 0.013081 -0.0096234
-0.018137 0.017942 -0.24551 0.1479
860000000 -0.12239 0.25023 -0.017258 0.031424 -0.0035551 -0.0097713 -0.0025189 0.0012896
0.0043563 0.0050391 -0.0027573 -0.0033263
-0.017272 0.031388 -0.28951 0.291 0.008239 0.034182 0.00031798 0.0021051
0.004612 6.931e-05 0.0033402 -5.5151e-05
-0.0035874 -0.0097709 0.0083563 0.034186 0.021197 0.3178 -0.00034498 -0.00034635
0.0027068 -0.001667 0.0016074 0.0044714
-0.0025163 0.001309 0.0002727 0.0020527 -0.0003306 -0.00035981 -0.1385 0.24276
-0.01813 0.018728 -0.0062784 -0.0093582
0.0044775 0.0049803 0.0044637 2.9044e-06 0.0026215 -0.0016732 -0.018092 0.018977
-0.15036 0.14731 -0.024317 0.015251
-0.0026451 -0.0031938 0.0034191 -0.00016786 0.0015862 0.0044293 -0.0060766 -0.0094128
-0.024227 0.015064 -0.1942 0.19135
920000000 -0.096912 0.27357 0.0052796 0.038065 -0.0093377 -0.0040976 -0.0016675 0.0025909
0.0013645 0.0014245 0.0023229 -0.0012101
0.0052294 0.038029 -0.26013 0.31194 0.028233 0.021671 0.0015899 0.0011511
0.006688 -0.00091508 0.0036008 -0.0027789
-0.0093507 -0.0040724 0.028351 0.021607 0.067887 0.31809 0.001739 -0.00013855
0.0012725 -0.000472 0.00075258 -0.00098628
-0.0016946 0.0025798 0.0015858 0.0011243 0.0017428 -0.00012154 -0.11393 0.25981
-0.010534 0.030337 0.0026327 -0.0062527
0.0014275 0.0014127 0.0068477 -0.00084173 0.0012936 -0.00047774 -0.010406 0.030396
-0.13974 0.15283 -0.0023622 0.02758
0.0023049 -0.0012594 0.0035815 -0.0028652 0.00077398 -0.0010061 0.0026326 -0.0060136
-0.0022667 0.027537 -0.20232 0.20598
980000000 -0.04912 0.29302 0.018021 0.030002 -0.0086932 0.0048331 0.0025863 0.0037746
0.0039338 -0.0017838 -0.0029233 -0.0021803
0.017986 0.029958 -0.20735 0.34533 0.033014 0.0044631 0.0019592 -0.00012167
0.0010458 -0.0061613 -0.00063794 -0.0022559
-0.008677 0.0048505 0.03308 0.0043769 0.11427 0.31105 0.00043411 -0.0011839
5.2784e-05 -0.0020953 0.0016111 -0.00016264
0.0025823 0.0037471 0.0019224 -8.0839e-05 0.00041003 -0.0011903 -0.075762 0.27122
0.0076101 0.028757 -0.0095362 -0.0064987
0.0038691 -0.0017386 0.00090397 -0.0060523 6.7524e-06 -0.0020848 0.0076549 0.02876
-0.10817 0.17985 0.0049595 0.018698
-0.0030023 -0.002012 -0.00058518 -0.0023047 0.0016949 -0.000113 -0.009491 -0.0066235
0.0049934 0.018575 -0.15919 0.2509
1040000000 -0.0059302 0.30093 0.033527 0.0177 -0.00099051 0.0069337 0.0029556 0.00062331
-7.193e-05 -0.0036614 -0.00059624 -0.0014559
0.033451 0.017689 -0.17146 0.35844 0.02897 -0.015021 0.0014397 -0.0017065
-0.002658 -0.0022211 -0.0015692 -0.0025805
-0.00097931 0.0069265 0.028961 -0.015133 0.16054 0.29698 -0.0005446 -0.0013964
-0.0014922 -0.00071217 -0.00034983 -0.0012516
0.0029241 0.0006322 0.0014329 -0.0016584 -0.00054369 -0.0013758 -0.047714 0.28148
0.018549 0.017106 -0.0030315 0.0021382
-0.00020185 -0.0037076 -0.0027392 -0.0022502 -0.0014831 -0.00074938 0.018651 0.017114
-0.077196 0.18907 0.013513 0.017976
-0.00057818 -0.0014575 -0.0015041 -0.0025635 -0.00033952 -0.0012095 -0.0030193 0.0020582
0.013562 0.017959 -0.13795 0.27236
1100000000 0.039884 0.30781 0.035802 -0.0047618 0.0031038 0.0037263 0.0024901 -0.0015155
-0.0022042 -0.0030193 -0.003773 7.1372e-05
0.035751 -0.0047348 -0.12778 0.37517 0.014709 -0.027739 -4.9794e-05 -0.0018022
-0.0030987 -0.00035855 -0.0034007 -0.00040909
0.0031187 0.0037174 0.014618 -0.027822 0.20678 0.27618 -0.0017435 0.00032187
-0.0016973 0.00064601 -0.00093023 -0.00044533
0.0024747 -0.0015221 -3.1225e-05 -0.00179 -0.0017413 0.0003135 -0.0067635 0.28603
0.022839 0.0047229 -0.0022466 0.00099694
-0.0021792 -0.0030651 -0.0031442 -0.00039693 -0.0016749 0.00070812 0.02295 0.0047003
-0.058556 0.20235 0.018871 0.0082857
-0.0039047 3.1142e-06 -0.0035089 -0.00054378 -0.00095294 -0.00046598 -0.002198 0.0010883
0.018868 0.0082999 -0.091034 0.30149
1160000000 0.091489 0.30222 0.023632 -0.02108 0.0028072 -0.00065257 -0.00018226 -0.0026066
-0.0040922 -0.00038527 -0.00093604 0.0040482
0.023596 -0.021056 -0.08375 0.37907 -0.0039501 -0.028721 -0.0017844 -0.0016138
-0.0022302 0.0026698 -0.0013994 0.0014643
0.0028143 -0.00066958 -0.0040692 -0.028727 0.24969 0.24503 -0.00054926 0.0016886
-0.00035907 0.0017413 -0.001139 3.1732e-05
-0.00018885 -0.0025885 -0.0017901 -0.0016299 -0.00055689 0.0017009 0.032879 0.2829
0.019208 -0.010058 -0.0026751 0.0057253
-0.0041418 -0.00039372 -0.0021904 0.0026233 -0.00036141 0.0017528 0.019203 -0.010068
-0.025401 0.21165 0.017442 0.00030627
-0.00084285 0.004097 -0.0012837 0.001567 -0.0010955 1.8527e-05 -0.0027935 0.0056043
0.017457 0.00036304 -0.044297 0.30453
1220000000 0.13596 0.29007 0.010018 -0.030022 -0.0015099 -0.0010095 -0.00025619 -0.001065
-0.0024999 0.0025307 0.0013055 0.0018072
0.010017 -0.029988 -0.039469 0.39033 -0.016849 -0.020699 -0.0024603 0.0004865
0.00036055 0.0027599 -0.00065496 0.0016886
-0.0015185 -0.0010076 -0.01696 -0.020651 0.2887 0.20573 0.00087611 0.0015127
0.00060571 0.0011121 0.00020805 0.00072328
-0.00024282 -0.0010881 -0.0024524 0.00051024 0.00085993 0.0015091 0.072574 0.2737
0.0090185 -0.015544 0.0029922 0.0017104
-0.0024839 0.0025636 0.00038758 0.0028322 0.00061368 0.0011211 0.0089421 -0.015605
-0.0013804 0.22099 0.013507 -0.012408
0.0012754 0.0017582 -0.00065211 0.0016826 0.00027375 0.00069594 0.0029793 0.001665
0.013487 -0.012493 -0.012023 0.32163
1280000000 0.18534 0.26713 -0.0081006 -0.028264 -0.0019051 0.0023505 -0.0011039 -0.0019207
-0.00056479 0.0031126 0.0025097 0.0010829
-0.0080758 -0.028239 0.0063931 0.38084 -0.023382 -0.0081677 -0.00091338 0.0014763
0.0015754 0.0014504 0.00052701 0.002014
-0.0018849 0.002365 -0.023456 -0.0080649 0.31921 0.1615 0.0013217 -0.00023197
0.00092276 8.0442e-05 0.00025684 0.0004922
-0.0010934 -0.0019198 -0.00091448 0.0014814 0.0013236 -0.00024729 0.1089 0.2572
0.00018246 -0.017052 0.00055243 3.4333e-05
-0.0005138 0.0031105 0.0015825 0.0014359 0.00086618 7.4831e-05 0.0001564 -0.017059
0.03587 0.22429 0.0027855 -0.014282
0.0025205 0.0010354 0.00054528 0.0019698 0.00022383 0.00050207 0.00056262 -3.155e-05
0.0028073 -0.014249 0.035788 0.32291
1340000000 0.22202 0.23268 -0.017732 -0.018733 0.00074227 0.0042542 -0.0018913 -0.0006706
0.0014759 0.0025737 0.0015879 -0.0015269
-0.017688 -0.018726 0.045592 0.37195 -0.021176 0.0042448 -5.6489e-05 0.0019085
0.0016533 0.00061061 0.0013107 0.00083724
0.00075621 0.0042514 -0.021182 0.0043473 0.34096 0.11353 0.00084196 -0.00082188
0.00050534 -0.00038545 0.00014853 0.00028313
-0.0018868 -0.00065951 -3.432e-05 0.0019044 0.00085354 -0.00083684 0.14155 0.23684
-0.0078216 -0.013934 0.0014495 -9.8285e-05
0.0014911 0.002544 0.001655 0.00059158 0.00050344 -0.00040895 -0.0077687 -0.013907
0.066799 0.21939 -0.0034468 -0.012743
0.0014965 -0.0015275 0.0013584 0.00077094 0.00016895 0.00028011 0.0014616 -7.3522e-05
-0.0034721 -0.01277 0.075148 0.31871
1400000000 0.25429 0.19372 -0.023295 -0.0073392 0.0049197 0.0030833 -0.0019918 0.00074366
0.0024786 0.0006346 0.00011839 -0.0013106
-0.023262 -0.0073605 0.082329 0.35851 -0.0145 0.012113 0.0012978 0.0012238
0.00089724 -0.00078868 0.0011279 0.00027932
0.0049293 0.0030663 -0.014456 0.0122 0.35403 0.059805 0.00012947 -0.0013385
2.4169e-05 -0.00030478 0.00037001 0.00021241
-0.0019907 0.00073701 0.0013138 0.0012193 0.00010425 -0.0013595 0.17103 0.20851
-0.012672 -0.0078533 -0.00056145 -0.00091522
0.0025035 0.00060412 0.00087828 -0.00078986 2.5334e-05 -0.00030452 -0.012722 -0.0078415
0.10033 0.21401 -0.0096415 -0.0082773
0.00013374 -0.0013298 0.0011533 0.0002925 0.00035801 0.00021094 -0.00055907 -0.00086976
-0.0096181 -0.0082834 0.12015 0.30768
1460000000 0.27641 0.14941 -0.02036 0.0047011 0.0053768 -0.0017006 -0.0014606 0.0016876
0.0019404 -0.00078314 -0.00033076 -0.00083508
-0.020349 0.0046857 0.1161 0.33653 -0.0060866 0.014861 0.0016573 0.00013632
0.00081643 -0.0010391 0.001156 -0.00068745
0.0053665 -0.0017238 -0.0060253 0.01491 0.35976 0.0051743 -0.0010778 -0.001139
0.00021697 -0.0001039 0.00071748 -0.00038658
-0.0014578 0.00169 0.0016778 0.0001442 -0.0010721 -0.0011414 0.19771 0.17949
-0.013002 -0.0023362 -0.0012154 0.001379
0.0019087 -0.00082251 0.00081876 -0.0010553 0.0002017 -0.00010705 -0.013016 -0.0022821
0.13018 0.19874 -0.011036 -0.0029512
-0.00039178 -0.0008389 0.0011439 -0.00066192 0.00070486 -0.00041951 -0.0011803 0.0014189
-0.011019 -0.0029496 0.15369 0.28623
1520000000 0.28787 0.10752 -0.014714 0.010292 0.0030277 -0.0039673 0.00013895 0.0025145
0.0016309 -0.0017485 -0.0010827 -0.00013638
-0.014714 0.010273 0.14925 0.32167 0.0012973 0.012798 0.0015598 -0.00077531
0.00010194 -0.00088891 0.00027101 -0.0010255
0.003001 -0.0039855 0.0013702 0.012809 0.35251 -0.051197 -0.00090085 -0.00031354
0.00049223 -0.00076996 -2.4842e-05 -2.8681e-05
0.00016608 0.0025092 0.0015475 -0.00078901 -0.00090012 -0.00033251 0.22153 0.14146
-0.012219 0.0022258 0.00094487 0.0017035
0.0016242 -0.0017634 9.6841e-05 -0.00088697 0.00051722 -0.00075814 -0.012231 0.0022339
0.15824 0.18339 -0.011048 0.0013716
-0.0010993 -0.00013662 0.00024852 -0.0010303 1.6737e-05 -7.7446e-05 0.00093389 0.0017026
-0.011038 0.0013438 0.18721 0.26581
1580000000 0.29654 0.061252 -0.0081229 0.013388 -0.00098697 -0.0045618 0.0013278 0.0017963
-0.00058051 -0.0019934 -0.00032737 0.000372
-0.0081302 0.013364 0.1762 0.29692 0.0048963 0.0081635 0.0004327 -0.001528
-0.00034654 -0.001001 -0.00032549 -0.0008621
-0.0010094 -0.0045597 0.00494 0.0081398 0.33209 -0.10884 -0.0014735 0.00045451
-0.00027171 -0.0011345 0.00015978 -0.00052183
0.0013523 0.0017885 0.00041392 -0.0015304 -0.0014394 0.00047379 0.23625 0.10157
-0.0094675 0.0059459 0.001791 0.00068715
-0.00059647 -0.001968 -0.00034779 -0.0010031 -0.0002475 -0.0011007 -0.0094359 0.0059921
0.18251 0.16435 -0.0089212 0.0066893
-0.00028023 0.00033893 -0.00033423 -0.00087347 0.00016834 -0.0005709 0.0017827 0.00066889
-0.0089316 0.0066761 0.21936 0.23885
1640000000 0.298 0.019793 -0.0014456 0.01234 -0.0026283 -0.0024532 0.0025281 0.00099096
-0.00085486 -0.0010551 -0.00030847 0.0006401
-0.0014598 0.01233 0.20539 0.27186 0.0055827 0.0036411 -0.00070143 -0.0016034
-0.00090977 -0.00047866 -0.00053717 -0.00059649
-0.0026442 -0.002436 0.0056042 0.00361 0.30324 -0.1575 -0.00085 0.0012374
-0.000946 -0.00076675 -4.5515e-05 -0.00026345
0.0025252 0.00096795 -0.00071565 -0.0015986 -0.00086082 0.0011943 0.24883 0.051772
-0.0060453 0.0066345 0.002104 -0.00065775
-0.00087624 -0.0010438 -0.00093593 -0.00047006 -0.00096595 -0.00081575 -0.0060734 0.0066263
0.20532 0.13869 -0.0045152 0.0087137
-0.00027026 0.00064991 -0.00054699 -0.00060817 -7.8428e-05 -0.00033687 0.0021182 -0.00066763
-0.0045258 0.0087259 0.24531 0.2075
1700000000 0.29011 -0.025639 0.0020523 0.0096234 -0.0033733 0.00019213 0.0029156 -0.0010653
-0.0016945 -0.00025476 0.00053978 0.00037698
0.0020429 0.0096215 0.22329 0.24035 0.0037489 0.00080872 -0.0013575 -0.00051491
-0.00081742 -2.0927e-06 -0.00090248 -0.00039131
-0.0033718 0.00021472 0.0037641 0.0007847 0.25985 -0.19731 0.00033704 0.0016374
-0.0017762 -0.00031564 -0.0004646 -0.00085244
0.0029153 -0.0011025 -0.0013598 -0.00051615 0.00032658 0.0016486 0.24544 0.00073679
-0.0043191 0.0069854 0.0012407 -0.0019364
-0.0016774 -0.00027033 -0.00080465 9.4066e-06 -0.0017825 -0.00022634 -0.0043246 0.0069844
0.22252 0.11682 -0.00011574 0.0090942
0.0005313 0.00038231 -0.00090393 -0.00037833 -0.00047952 -0.00081949 0.0012141 -0.0019694
-0.00011748 0.009099 0.26164 0.17271
1760000000 0.27699 -0.073869 0.0043592 0.0063941 -0.0021558 0.00074628 0.0013415 -0.0032247
-0.00093776 0.00071332 0.00044918 -0.00036152
0.0043388 0.0063874 0.24894 0.2004 0.0016379 -0.0010614 -0.0011077 0.00022047
-0.0011675 0.00084354 -0.00056896 0.00054212
-0.0021468 0.00075759 0.0016375 -0.0010792 0.21112 -0.23079 0.00099557 0.0013153
-0.0010653 0.0012206 -0.0013777 -0.00043317
0.0013269 -0.0032278 -0.0011148 0.0002193 0.00098401 0.001294 0.23515 -0.05154
-0.0020721 0.0064866 -0.00051387 -0.002169
-0.00094712 0.00071106 -0.0011835 0.00084706 -0.0011146 0.0012124 -0.0020274 0.0065146
0.23713 0.079959 0.0035478 0.006442
0.00041595 -0.00037712 -0.00054909 0.00056325 -0.0014069 -0.00038786 -0.00049564 -0.0021325
0.0035738 0.0064594 0.27427 0.13476
1820000000 0.25162 -0.11081 0.0046644 0.002788 -1.8273e-05 0.0023958 -0.00087799 -0.0030259
-0.00073448 0.00060808 7.34e-05 -0.00015169
0.0046551 0.0027818 0.25866 0.17041 -0.00016298 0.00024269 -0.0013045 0.00084091
-0.00014463 0.0014224 -0.00048507 0.00052169
-4.0908e-06 0.0023952 -0.00016533 0.00023959 0.16082 -0.24553 0.0015958 0.0004231
-0.00040326 0.0022237 -0.0014067 0.00049332
-0.00091339 -0.0029965 -0.0013109 0.00084338 0.0015731 0.00043986 0.20383 -0.098957
-0.0011162 0.005392 -0.0014912 -0.0012279
-0.00077295 0.00058445 -0.0001247 0.0013917 -0.00039694 0.0021698 -0.0010897 0.0054082
0.25289 0.048769 0.0045302 0.0032703
7.5647e-05 -0.00015125 -0.00049012 0.00049443 -0.0013921 0.00043596 -0.0015041 -0.0012099
0.0044838 0.0032536 0.27646 0.098652
1880000000 0.21582 -0.15028 0.0025256 0.00042845 -0.00033592 0.0021832 -0.0028309 -0.0022387
-0.00027809 0.00131 0.00043561 -0.00064881
0.0025128 0.00043264 0.26286 0.12392 -0.0021518 0.0017676 -0.0001756 0.0016353
0.00066622 0.0013851 0.00021201 0.00096175
-0.00031743 0.0021835 -0.0021451 0.0017747 0.1084 -0.25527 0.0019969 -0.0010988
0.0014205 0.0020253 -0.0010251 0.0014082
-0.0028339 -0.0022605 -0.00017024 0.0016204 0.0019971 -0.0011087 0.162 -0.13803
-0.0010522 0.0044636 -0.0021813 0.00090344
-0.00023717 0.0013049 0.00069064 0.0013927 0.0014068 0.0019816 -0.0010757 0.0044604
0.25386 0.014029 0.0040864 0.0014582
0.00038115 -0.00064716 0.00017219 0.00098067 -0.00099882 0.0014734 -0.0022329 0.00086581
0.00409 0.0014543 0.27623 0.064552
1940000000 0.17654 -0.17543 0.00041169 -0.0013671 0.0013908 0.0017708 -0.0038043 0.00047347
0.0010743 0.00097784 -0.00066056 -0.00070147
0.00040916 -0.0013653 0.26311 0.092254 -0.0009184 0.0039667 0.00093519 0.0012659
0.0020417 0.00054324 0.00089345 0.00025374
0.0014007 0.0017604 -0.00089575 0.0039651 0.062676 -0.24853 0.00042615 -0.0023619
0.0025395 0.00053832 0.00047177 0.0017548
-0.0037586 0.00050082 0.00096424 0.0012644 0.00044028 -0.0023521 0.10893 -0.16731
-0.0020292 0.0040307 -0.0010705 0.0017982
0.0010896 0.00096052 0.0020575 0.00050817 0.002491 0.00052627 -0.0020398 0.0040242
0.25302 -0.026616 0.0030508 -0.0015941
-0.00067891 -0.00073374 0.000855 0.00021843 0.00036357 0.0016721 -0.00107 0.0018493
0.0030224 -0.0015769 0.26495 0.028563
2000000000 0.13021 -0.18921 -0.0033721 0.00047427 0.0024388 0.001473 -0.0022489 0.0035836
0.00094753 0.0004194 -0.00076336 0.00034325
-0.0033613 0.00047418 0.24874 0.056814 -0.00069299 0.0055081 0.0016027 0.00035746
0.0015806 -0.0015318 0.00056976 6.6043e-06
0.0024563 0.0014584 -0.00065936 0.0055237 0.019473 -0.23427 -0.0015302 -0.0013495
0.0021072 -0.0011979 0.0016651 0.0012121
-0.0021911 0.0036044 0.0015978 0.00033983 -0.001545 -0.0013521 0.055924 -0.17578
-0.0033566 0.0049581 0.0002479 0.0020153
0.00093341 0.00042322 0.0015541 -0.0015457 0.0020831 -0.0011931 -0.0032942 0.0049952
