!Keysight Technologies,M9804A,MY58100912,A.14.10.03
!Date: Thursday, April 27, 2023 10:28:33
!Correction: S11(C  6-Port  ) 
!S12(C  6-Port  ) 
!S13(C  6-Port  ) 
!S14(C  6-Port  ) 
!S15(C  6-Port  ) 
!S16(C  6-Port  ) 
!S21(C  6-Port  ) 
!S22(C  6-Port  ) 
!S23(C  6-Port  ) 
!S24(C  6-Port  ) 
!S25(C  6-Port  ) 
!S26(C  6-Port  ) 
!S31(C  6-Port  ) 
!S32(C  6-Port  ) 
!S33(C  6-Port  ) 
!S34(C  6-Port  ) 
!S35(C  6-Port  ) 
!S36(C  6-Port  ) 
!S41(C  6-Port  ) 
!S42(C  6-Port  ) 
!S43(C  6-Port  ) 
!S44(C  6-Port  ) 
!S45(C  6-Port  ) 
!S46(C  6-Port  ) 
!S51(C  6-Port  ) 
!S52(C  6-Port  ) 
!S53(C  6-Port  ) 
!S54(C  6-Port  ) 
!S55(C  6-Port  ) 
!S56(C  6-Port  ) 
!S61(C  6-Port  ) 
!S62(C  6-Port  ) 
!S63(C  6-Port  ) 
!S64(C  6-Port  ) 
!S65(C  6-Port  ) 
!S66(C  6-Port  ) 
!S6P File: Measurement: :
# Hz S  RI   R 50
500000000 -0.33688 -0.033267 -0.0094559 -0.0038786 -0.0079516 0.011953 -0.0035197 0.011568
0.011945 0.0048213 -0.0037733 0.0081866
-0.0094413 -0.0038634 -0.41975 -0.048458 0.0072087 -0.011246 0.001537 0.011896
0.0076508 0.0024144 0.00055369 0.013378
-0.0079177 0.01195 0.0071936 -0.01125 -0.26473 0.21201 0.0068574 0.0033316
5.3625e-05 0.008216 0.0001438 0.012418
-0.0034867 0.011537 0.0015518 0.0119 0.0068714 0.0033254 -0.32713 0.048952
-0.019747 -0.0048398 0.017755 0.026404
0.011969 0.0047685 0.0076482 0.0024144 8.0991e-05 0.0082096 -0.019796 -0.0048295
-0.22797 -0.18182 -0.027756 0.0046745
-0.0037892 0.0081773 0.00060063 0.01334 0.00018142 0.012404 0.017779 0.026384
-0.027723 0.0046655 -0.27041 -0.13399
560000000 -0.31557 0.12573 -0.024334 -0.062833 0.00028821 0.01209 0.0063243 0.0098666
0.01086 0.0038565 0.0095198 0.0077606
-0.024273 -0.062767 -0.3765 0.10923 -0.041894 -0.036455 0.01368 0.0038586
-0.013422 -0.0045529 0.0042866 -0.00045282
0.00031838 0.012121 -0.042002 -0.036378 -0.18262 0.25917 -0.00078215 -0.0047289
0.019392 0.0040624 0.0071956 -0.0063787
0.0063306 0.009832 0.013714 0.0038244 -0.00078434 -0.0047345 -0.302 0.13708
0.0032552 -0.024556 0.0046468 -0.019203
0.010874 0.0038339 -0.01342 -0.0044478 0.019415 0.0040355 0.0033294 -0.024578
-0.28578 -0.0074901 0.0068574 -0.051244
0.0095571 0.00771 0.0042414 -0.00049071 0.0071644 -0.0064146 0.0046655 -0.019217
0.0069125 -0.051282 -0.33391 0.015129
620000000 -0.27287 0.11056 -0.023266 0.007031 0.0035531 0.0083432 0.0067997 -0.0056446
0.01143 -0.00049504 0.00025893 -0.0019666
-0.023232 0.0070205 -0.40251 0.063785 -0.018999 6.9141e-05 -0.0015245 -0.0020711
0.010405 -0.0072074 0.0010511 -0.0026076
0.0035979 0.0083491 -0.019056 0.00010322 -0.15219 0.26886 -0.001826 -0.0050627
-0.0035219 -0.0035252 0.008026 -0.0033298
0.0068107 -0.0056411 -0.0015473 -0.0020877 -0.001819 -0.005062 -0.26046 0.14655
-0.039312 -0.01795 0.013812 0.024388
0.011457 -0.00050861 0.010407 -0.0072549 -0.0035623 -0.0035508 -0.03924 -0.017997
-0.20569 -0.047214 -0.041301 0.0155
0.00016944 -0.0019277 0.0010294 -0.0026389 0.0081155 -0.0033152 0.013839 0.02436
-0.041321 0.015541 -0.2505 -0.02489
680000000 -0.23259 0.19405 -0.028083 -0.013764 0.0049306 0.0051362 0.0011836 -0.0075392
-0.0032785 -0.011047 0.0042639 -0.0070469
-0.028061 -0.013759 -0.38679 0.16018 -0.03299 -0.0011271 -0.0016377 -0.00019806
-0.0027668 -0.0088939 -0.0010794 -0.0021227
0.0049335 0.005119 -0.033012 -0.0010434 -0.10178 0.2877 -0.00057555 0.00016401
-0.0023531 0.00082253 -0.0030555 -0.0096384
0.0011726 -0.0075413 -0.0016452 -0.0001838 -0.00057785 0.00016898 -0.21802 0.1957
-0.023856 -0.0080201 -0.01064 -0.010469
-0.0033325 -0.011029 -0.0027631 -0.0088931 -0.0023262 0.00081681 -0.023882 -0.0080356
-0.25235 0.051456 -0.0056232 -0.0094653
0.0042369 -0.0070695 -0.0010803 -0.0020921 -0.0030601 -0.0096055 -0.010665 -0.010458
-0.0056383 -0.0094797 -0.26258 0.083708
740000000 -0.18876 0.18928 -0.038406 0.026664 0.012772 -0.005295 -0.0010118 -0.0040093
-0.0048349 -0.0026399 -0.0061699 0.0032878
-0.038384 0.026662 -0.33494 0.17896 -0.034741 0.035282 -0.00095782 -0.0062723
-0.011036 0.0081917 -0.0032741 -0.006294
0.012752 -0.0053234 -0.034683 0.035416 -0.068388 0.28661 -0.0013928 0.0031925
-0.0028086 -0.0036815 -0.00099358 -0.00010543
-0.0010164 -0.0040135 -0.00096758 -0.0062508 -0.0014022 0.0031979 -0.20209 0.20357
-0.042391 -0.0074623 0.022227 0.013197
-0.0048636 -0.0026675 -0.011041 0.0081949 -0.0027828 -0.0036861 -0.042483 -0.0074589
-0.15709 0.074386 -0.041931 0.0010929
-0.00616 0.003309 -0.0033366 -0.0062891 -0.0010653 -0.00010994 0.022276 0.013211
-0.041966 0.0010814 -0.25521 0.08898
800000000 -0.15669 0.22934 -0.022311 0.017504 0.0054108 -0.010566 -0.0048192 -0.001884
-0.0042182 0.0030785 0.0046402 0.00079388
-0.02231 0.017485 -0.33715 0.24913 -0.0077049 0.034367 -0.0020827 0.0022244
-0.000623 0.0036439 0.001288 0.0053251
0.0053937 -0.010581 -0.0076123 0.034414 -0.027255 0.30966 0.0012386 0.0015403
0.00070706 0.0035702 -0.0017652 0.00097574
-0.0048206 -0.0018736 -0.0020787 0.0022341 0.0012429 0.0015418 -0.1739 0.23095
-0.028545 0.013104 0.013721 -0.010056
-0.0042024 0.0031065 -0.0006366 0.0036587 0.00071242 0.0035738 -0.028542 0.013158
-0.19966 0.099221 -0.01762 0.018016
0.0046807 0.000762 0.001317 0.0053343 -0.0017503 0.00097253 0.013725 -0.010078
-0.017617 0.017993 -0.24705 0.14351
860000000 -0.12186 0.25009 -0.01679 0.031275 -0.0033183 -0.010004 -0.0025166 0.0013917
0.0040732 0.0051062 -0.0029906 -0.0027407
-0.01681 0.031242 -0.28912 0.29096 0.0085284 0.034454 0.00021366 0.0020945
0.0045999 0.00040668 0.0035538 0.00014225
-0.0033404 -0.0099863 0.0086284 0.034446 0.021216 0.31769 -0.00032772 -0.00029835
0.0027315 -0.0016055 0.0017328 0.004502
-0.0025185 0.0013859 0.00022995 0.0021047 -0.00032742 -0.00029473 -0.13852 0.24295
-0.018019 0.019028 -0.0060342 -0.0094487
0.0041043 0.0051141 0.004583 0.00037143 0.0027443 -0.0015876 -0.018039 0.019116
-0.15082 0.14693 -0.024319 0.015996
-0.0029683 -0.0027354 0.0035525 0.00014029 0.0017597 0.0044842 -0.006016 -0.0094357
-0.024305 0.015983 -0.19655 0.18819
920000000 -0.096553 0.2733 0.0054871 0.037858 -0.0095902 -0.0043641 -0.0016785 0.002307
0.0013629 0.001696 0.0026504 -0.001538
0.0054438 0.03782 -0.26022 0.31178 0.028373 0.02168 0.0016098 0.0010168
0.0068962 -0.00080548 0.0039593 -0.0030555
-0.0095942 -0.0043396 0.028452 0.02159 0.067722 0.31812 0.0017145 -0.00019205
0.0013708 -0.00048259 0.00087559 -0.0011889
-0.0016833 0.002293 0.0016125 0.0010081 0.0017174 -0.00018568 -0.11419 0.25947
-0.0099987 0.03036 0.0026935 -0.0068993
0.0013837 0.0016692 0.0069285 -0.00082429 0.0013655 -0.00048648 -0.0099569 0.030417
-0.13996 0.1532 -0.0013424 0.027842
0.0026759 -0.0015385 0.0039455 -0.0030798 0.00088171 -0.0012022 0.0027095 -0.0068983
-0.0013399 0.02785 -0.20507 0.20155
980000000 -0.048863 0.29251 0.018259 0.029838 -0.0089446 0.0047169 0.0025338 0.0035811
0.0040105 -0.0017108 -0.0030642 -0.0020115
0.018209 0.029801 -0.20736 0.34523 0.033273 0.0043258 0.0020252 -0.000197
0.0010461 -0.0062246 -0.0005704 -0.0022916
-0.0089224 0.0047557 0.033322 0.0042054 0.11434 0.3113 0.00040623 -0.0011968
-7.1451e-05 -0.0021532 0.0015518 -6.6701e-05
0.0025328 0.003578 0.0020383 -0.00018774 0.00040021 -0.0011927 -0.075566 0.27122
0.0080232 0.029204 -0.0092821 -0.0067328
0.0040043 -0.0017287 0.0010107 -0.0062062 -7.7401e-05 -0.0021515 0.0080912 0.029215
-0.10813 0.18028 0.0053651 0.019104
-0.0030652 -0.0020001 -0.00059862 -0.0023192 0.0015413 -5.9102e-05 -0.009313 -0.0067176
0.0053619 0.019097 -0.16164 0.24818
1040000000 -0.0058957 0.30065 0.03362 0.017479 -0.0011983 0.0069548 0.0028446 0.00067002
-6.2059e-05 -0.0036054 -0.00051542 -0.0015294
0.033558 0.017488 -0.17173 0.35847 0.029199 -0.015359 0.0014412 -0.0017019
-0.002676 -0.0023714 -0.001546 -0.0028464
-0.0011769 0.0069641 0.029141 -0.015492 0.16077 0.29732 -0.0005921 -0.0013968
-0.0016113 -0.00080427 -0.00040215 -0.0012299
0.0028443 0.00064826 0.0014571 -0.0016966 -0.00059011 -0.0013959 -0.047808 0.28135
0.019214 0.017019 -0.0030801 0.001878
-4.7479e-05 -0.0036254 -0.0026879 -0.002337 -0.0016291 -0.00080052 0.019243 0.016988
-0.07708 0.18852 0.013892 0.017671
-0.00052553 -0.0015272 -0.0015627 -0.0028773 -0.00038712 -0.0012369 -0.0030636 0.0018843
0.013868 0.017678 -0.14169 0.26989
1100000000 0.039784 0.30769 0.035912 -0.0049787 0.0029623 0.0038019 0.0024814 -0.0015299
-0.0021506 -0.0030529 -0.0040446 6.8793e-05
0.035887 -0.0049537 -0.12799 0.37543 0.014663 -0.028159 -7.2359e-05 -0.0018259
-0.0032913 -0.00036411 -0.003574 -0.00042762
0.0029758 0.0037941 0.014572 -0.028243 0.20746 0.27641 -0.0018263 0.00031545
-0.0017001 0.00073134 -0.00098498 -0.00043884
0.0024796 -0.0015531 -7.9082e-05 -0.0018191 -0.0018218 0.0003186 -0.0068799 0.28616
0.023569 0.0043482 -0.0025305 0.00085608
-0.0021534 -0.003032 -0.0032961 -0.00032834 -0.0017121 0.00073394 0.023587 0.004309
-0.058766 0.20142 0.019159 0.0083064
-0.0040426 0.00010762 -0.0035817 -0.00040556 -0.001 -0.00042592 -0.0025338 0.00086145
0.019158 0.0083147 -0.094625 0.29998
1160000000 0.091422 0.30215 0.023655 -0.021429 0.0026908 -0.00052547 -0.00018563 -0.00251
-0.0040684 -0.00044182 -0.0010437 0.0040345
0.02363 -0.021401 -0.083889 0.37969 -0.0043625 -0.029067 -0.0018487 -0.0016072
-0.0022858 0.0027337 -0.0013612 0.001689
0.00269 -0.00052042 -0.0044886 -0.029083 0.25062 0.24476 -0.00052522 0.0017925
-0.00027126 0.0018678 -0.001104 0.00017483
-0.00018708 -0.0025274 -0.0018483 -0.0015966 -0.00053751 0.0017949 0.03285 0.28311
0.019645 -0.010809 -0.002921 0.005545
-0.0040704 -0.00043562 -0.0022822 0.0027525 -0.00028764 0.0018681 0.019635 -0.010831
-0.025819 0.21059 0.017812 0.00020585
-0.0010407 0.0040374 -0.0013651 0.0016757 -0.001099 0.00017938 -0.0029181 0.0055382
0.017813 0.0002072 -0.047407 0.3031
1220000000 0.13612 0.29005 0.0097341 -0.030414 -0.001559 -0.00080805 -0.00017568 -0.0010797
-0.0025153 0.0026024 0.0013918 0.0019299
0.0097369 -0.030387 -0.039181 0.39106 -0.017337 -0.02079 -0.0025169 0.00053475
0.00036651 0.0029085 -0.0006423 0.0018601
-0.0015589 -0.00079946 -0.017438 -0.020736 0.28939 0.20489 0.00098912 0.0015297
0.00064614 0.0011352 0.00021448 0.00078319
-0.0001822 -0.0010857 -0.0025096 0.00055044 0.00099081 0.0015388 0.072907 0.27408
0.0089595 -0.016594 0.002592 0.0018015
-0.0024995 0.0026147 0.00037574 0.0029216 0.00065947 0.0011339 0.0089369 -0.016608
-0.0020612 0.22032 0.013515 -0.013066
0.0014014 0.0019335 -0.00062916 0.0018638 0.00022935 0.00079602 0.0026002 0.0017958
0.013521 -0.013047 -0.015652 0.32118
1280000000 0.18564 0.26721 -0.0086507 -0.028457 -0.0018237 0.0025396 -0.0011233 -0.0019285
-0.00057673 0.0031602 0.0026059 0.00096468
-0.0086295 -0.028429 0.00704 0.38148 -0.023821 -0.0079347 -0.00088289 0.0015257
0.0017879 0.0015389 0.000621 0.0019509
-0.001809 0.0025445 -0.023886 -0.0078331 0.31926 0.16053 0.0014361 -0.00025898
0.0010341 0.00011109 0.00029461 0.00042501
-0.0011241 -0.0019273 -0.00088301 0.0015227 0.0014324 -0.00025627 0.10939 0.25729
-0.00042241 -0.017961 0.0004653 0.00016653
-0.00055627 0.0031654 0.0017998 0.0015248 0.0010375 0.00010341 -0.0004549 -0.017959
0.035246 0.22414 0.0026562 -0.014951
0.002616 0.00093887 0.00063618 0.0019543 0.00029943 0.000416 0.00046776 0.00016686
0.0026615 -0.014941 0.032424 0.32291
1340000000 0.22245 0.23246 -0.018343 -0.01852 0.00094047 0.0043346 -0.0019 -0.00070306
0.0015495 0.0026012 0.0016551 -0.001598
-0.018308 -0.018511 0.046617 0.37223 -0.021366 0.004717 4.6261e-05 0.0019034
0.0017308 0.00049289 0.0013939 0.00084942
0.00095861 0.0043348 -0.021361 0.0048203 0.34064 0.11248 0.00086865 -0.00095039
0.00063347 -0.00040819 0.00020983 0.00026541
-0.0019055 -0.00068939 4.8531e-05 0.0019024 0.00086823 -0.00095157 0.142 0.2367
-0.0089643 -0.014422 0.0012696 0.00020804
0.0015698 0.0025912 0.0017399 0.00048886 0.00062285 -0.00041049 -0.0090026 -0.014423
0.066185 0.2194 -0.0040942 -0.013223
0.0016562 -0.0016057 0.0013963 0.0008483 0.00021237 0.00027138 0.001275 0.00020391
-0.0040839 -0.013224 0.071868 0.31895
1400000000 0.2548 0.19338 -0.023734 -0.006818 0.0051259 0.0030486 -0.0020136 0.00074288
0.0025429 0.00064482 0.00015804 -0.001384
-0.0237 -0.0068306 0.083404 0.3584 -0.014407 0.01262 0.0013549 0.0011401
0.00088816 -0.00094982 0.0012038 0.00021388
0.0051394 0.0030319 -0.014358 0.012709 0.35311 0.05903 -5.2294e-06 -0.0014778
5.3473e-05 -0.0003674 0.00038776 0.00024807
-0.002007 0.00075281 0.0013581 0.0011378 -9.4104e-06 -0.0014761 0.17148 0.208
-0.013854 -0.0076056 -0.00049144 -0.00067153
0.0025511 0.00063103 0.00088328 -0.00095253 6.2704e-05 -0.00037524 -0.013865 -0.0075695
0.099718 0.21416 -0.010318 -0.0081332
0.00015479 -0.0013778 0.0012174 0.00021485 0.00037923 0.00025393 -0.00049423 -0.00067132
-0.010315 -0.0081364 0.11727 0.30811
1460000000 0.27671 0.14873 -0.020412 0.0054136 0.005511 -0.0018084 -0.0014528 0.0017525
0.0020528 -0.0008511 -0.00039134 -0.00079617
-0.020404 0.0053791 0.11696 0.33588 -0.005708 0.015172 0.0016221 0.00010295
0.00066859 -0.0011586 0.0011104 -0.00066275
0.0055123 -0.0018395 -0.0056401 0.01523 0.35881 0.0049403 -0.0011737 -0.0011484
0.00026881 -0.00015692 0.00071601 -0.00039494
-0.0014435 0.0017567 0.0016231 9.2585e-05 -0.0011649 -0.0011372 0.19796 0.17881
-0.013957 -0.0013901 -0.00093608 0.0015816
0.0020423 -0.00085967 0.00066731 -0.0011597 0.00026306 -0.00015401 -0.013983 -0.0013628
0.12981 0.19871 -0.011712 -0.0023666
-0.00039221 -0.00080096 0.0011175 -0.00065023 0.00073969 -0.00040937 -0.00092317 0.0015993
-0.011708 -0.0023694 0.15089 0.28696
1520000000 0.28794 0.10674 -0.014416 0.010923 0.0030946 -0.0041675 0.00017393 0.0025602
0.0016906 -0.0018291 -0.0011808 -9.1102e-05
-0.014423 0.010901 0.14975 0.32084 0.0017191 0.012837 0.0015448 -0.00080641
1.8242e-05 -0.00081647 0.00025771 -0.0010432
0.0030689 -0.0041783 0.0017944 0.012822 0.35195 -0.051079 -0.00091123 -0.00027296
0.00053553 -0.00080906 3.0833e-06 -0.00014774
0.00018799 0.0025515 0.0015385 -0.00080843 -0.00090928 -0.00027438 0.22141 0.14061
-0.012471 0.0034961 0.0012596 0.0017251
0.0016734 -0.0018389 9.3266e-06 -0.00081604 0.00054199 -0.00082177 -0.012478 0.0035203
0.15821 0.18346 -0.011504 0.0020503
-0.0011729 -7.9345e-05 0.0002589 -0.0010584 1.0583e-07 -0.00015523 0.0012579 0.0017144
-0.011514 0.0020533 0.18441 0.26715
1580000000 0.2963 0.060465 -0.0075326 0.013769 -0.0010063 -0.0048052 0.0014204 0.0017762
-0.00062521 -0.0021047 -0.00031876 0.00041193
-0.0075358 0.013754 0.17629 0.29604 0.0051977 0.0079764 0.00042733 -0.0015214
-0.00038209 -0.00088625 -0.000328 -0.00083594
-0.001024 -0.0048 0.0052497 0.0079593 0.33154 -0.10836 -0.0014465 0.00052294
-0.00033801 -0.0011045 0.00010468 -0.00057456
0.0014272 0.0017709 0.00040913 -0.0015222 -0.0014397 0.00052265 0.2356 0.10078
-0.0088806 0.0070545 0.0019244 0.00050636
-0.00063056 -0.0020995 -0.00038321 -0.00088556 -0.00034621 -0.0010963 -0.0088743 0.007083
0.18265 0.16432 -0.008861 0.0073573
-0.0003149 0.00041181 -0.00033584 -0.00083963 0.00011071 -0.00057823 0.0019263 0.0005034
-0.0088599 0.0073579 0.21687 0.24047
1640000000 0.29748 0.019221 -0.00075996 0.012314 -0.0027422 -0.0025008 0.0025687 0.00092712
-0.0008947 -0.0010952 -0.00027335 0.00066203
-0.00077477 0.012305 0.20515 0.27111 0.0057127 0.0033059 -0.00075381 -0.0015907
-0.00086198 -0.0003998 -0.00055175 -0.00060401
-0.002757 -0.0024935 0.0057404 0.0032724 0.30327 -0.15735 -0.00079869 0.0012837
-0.0010901 -0.00072621 -0.00013812 -0.00035883
0.0025785 0.00091273 -0.00076688 -0.0015898 -0.0007978 0.0012855 0.24783 0.051444
-0.0051384 0.0071922 0.0021902 -0.00083139
-0.00090364 -0.001091 -0.00085671 -0.00039705 -0.0010876 -0.00073522 -0.0051332 0.007215
0.20526 0.13838 -0.0039397 0.0094087
-0.00026741 0.00066761 -0.00055908 -0.00059951 -0.00014385 -0.00035651 0.0021963 -0.00083812
-0.0039471 0.0094069 0.24319 0.2093
1700000000 0.28939 -0.025729 0.0025559 0.0092079 -0.0034966 6.3916e-05 0.002864 -0.0011688
-0.0018579 -0.00027571 0.00063258 0.00036878
0.0025498 0.0092007 0.22281 0.23991 0.0037408 0.00055386 -0.0013852 -0.00051994
-0.00070703 -7.45e-05 -0.00092375 -0.00036733
-0.0034833 7.7417e-05 0.0037491 0.00053014 0.25998 -0.1972 0.00028213 0.001469
-0.0017213 -0.00018678 -0.00061962 -0.00093578
0.0028559 -0.0011804 -0.0013846 -0.00051928 0.00027143 0.0014806 0.24434 0.0011174
-0.0033472 0.006922 0.0013042 -0.0020822
-0.0018607 -0.00027156 -0.00070229 -6.5087e-05 -0.0017274 -0.00018799 -0.003337 0.0069406
0.22236 0.11627 0.00057565 0.0095383
0.00064295 0.00036332 -0.00092287 -0.00036447 -0.00060779 -0.00093472 0.001291 -0.0020895
0.0005731 0.0095471 0.26016 0.17487
1760000000 0.27656 -0.073774 0.0045479 0.0057798 -0.0022315 0.00092328 0.0012781 -0.0032786
-0.0009386 0.00078333 0.00034208 -0.00056803
0.0045526 0.0057743 0.2485 0.20038 0.0015436 -0.0010575 -0.0010884 0.00022061
-0.0011263 0.00075438 -0.00054202 0.00053039
-0.0022241 0.00093175 0.0015348 -0.0010654 0.21108 -0.23036 0.0010812 0.0012765
-0.0010959 0.0013589 -0.0013964 -0.00041447
0.0012594 -0.0032847 -0.0010843 0.00022767 0.0010751 0.001273 0.23447 -0.050558
-0.0013766 0.0060995 -0.00046058 -0.0022471
-0.0009351 0.00078441 -0.0011165 0.00076342 -0.001095 0.0013462 -0.001369 0.0061052
0.23668 0.079537 0.004376 0.0064612
0.00033802 -0.00057594 -0.00053397 0.00052976 -0.0014143 -0.0003952 -0.00047445 -0.0022432
0.0043825 0.0064648 0.27304 0.13698
1820000000 0.25138 -0.11065 0.0045167 0.0022456 -6.3847e-05 0.0024336 -0.00094979 -0.0030089
-0.00070212 0.00066501 -3.9433e-05 -0.00013647
0.0045186 0.0022492 0.25829 0.17061 -0.00031224 0.00010459 -0.0012655 0.00084386
-0.00018887 0.0013081 -0.00048395 0.00051322
-2.9137e-05 0.0024348 -0.00031071 0.00011028 0.16092 -0.2458 0.0015426 0.00046933
-0.00029198 0.0021032 -0.0014359 0.00048506
-0.00095022 -0.003012 -0.0012621 0.00084718 0.0015434 0.00047154 0.20378 -0.097787
-0.00087589 0.0048024 -0.001729 -0.0014813
-0.00068627 0.00067892 -0.0001799 0.0013112 -0.00031134 0.0021113 -0.00085826 0.0048078
0.25212 0.048393 0.005149 0.0028185
-4.6237e-05 -0.00013941 -0.0004805 0.00051808 -0.0014159 0.00048287 -0.0017242 -0.0014736
0.0051517 0.0028327 0.27584 0.10064
1880000000 0.21586 -0.15007 0.002206 0.00018112 -0.00026795 0.002145 -0.0028058 -0.0021491
-0.00019046 0.0013411 0.00027699 -0.00051676
0.0022129 0.00017842 0.26281 0.12437 -0.0021674 0.0017208 -0.00015265 0.0016379
0.00054828 0.0013814 0.00022382 0.00093906
-0.00026168 0.0021529 -0.0021574 0.0017305 0.10914 -0.25578 0.0019579 -0.00099853
0.0014947 0.0020351 -0.00092035 0.0015956
-0.0028168 -0.0021405 -0.00014627 0.0016414 0.0019523 -0.001002 0.16272 -0.13731
-0.00092148 0.0038631 -0.0024779 0.00072841
-0.00017788 0.0013424 0.00056654 0.0013752 0.0015049 0.0020292 -0.00090946 0.0038659
0.25314 0.013908 0.0045557 0.00073096
0.00027185 -0.00053115 0.00024004 0.0009397 -0.0009185 0.0016085 -0.0024819 0.00072668
0.0045493 0.00073432 0.27594 0.066248
1940000000 0.17638 -0.17534 -4.4767e-05 -0.0014603 0.0013188 0.0018956 -0.0037049 0.00051311
0.0011129 0.00090498 -0.00065114 -0.00054665
-4.2081e-05 -0.0014511 0.26335 0.092625 -0.0010743 0.0038778 0.00095134 0.0013007
0.0019585 0.00065039 0.00083821 0.00022017
0.0013296 0.0018814 -0.0010447 0.0038987 0.062681 -0.24942 0.00029079 -0.0023813
0.0024239 0.00055698 0.00042994 0.0016879
-0.0037046 0.00052721 0.00095813 0.0012896 0.00029546 -0.0023853 0.10988 -0.16695
-0.0022654 0.0036245 -0.0013983 0.0018679
0.0011239 0.00089071 0.0019704 0.00064363 0.0024646 0.00053084 -0.0022612 0.0036359
0.25204 -0.026293 0.00301 -0.0024274
-0.00064382 -0.00054652 0.00083925 0.00021961 0.00043415 0.0016586 -0.0013924 0.0018633
0.0030156 -0.0024147 0.26486 0.030207
2000000000 0.13028 -0.18925 -0.0038456 0.00058425 0.0023693 0.0015329 -0.0023039 0.0035805
0.00087429 0.00024531 -0.00063439 0.0004005
-0.0038348 0.00058532 0.24925 0.057124 -0.00090946 0.0055497 0.0016476 0.00027963
0.0016115 -0.0013948 0.00046099 8.7032e-05
0.0023918 0.0015159 -0.00086861 0.0055597 0.018807 -0.23514 -0.001509 -0.0014903
0.0021161 -0.0012546 0.0016787 0.0012452
-0.0022773 0.0035873 0.0016566 0.00026805 -0.001511 -0.0014966 0.056694 -0.17619
-0.0035116 0.004522 0.00014782 0.0023833
0.00088751 0.00024542 0.0016008 -0.001415 0.0021237 -0.0012681 -0.0035089 0.0045359
