!Keysight Technologies,M9804A,MY58100912,A.14.10.03
!Date: Thursday, April 27, 2023 10:28:33
!Correction: S11(C  6-Port  ) 
!S12(C  6-Port  ) 
!S13(C  6-Port  ) 
!S14(C  6-Port  ) 
!S15(C  6-Port  ) 
!S16(C  6-Port  ) 
!S21(C  6-Port  ) 
!S22(C  6-Port  ) 
!S23(C  6-Port  ) 
!S24(C  6-Port  ) 
!S25(C  6-Port  ) 
!S26(C  6-Port  ) 
!S31(C  6-Port  ) 
!S32(C  6-Port  ) 
!S33(C  6-Port  ) 
!S34(C  6-Port  ) 
!S35(C  6-Port  ) 
!S36(C  6-Port  ) 
!S41(C  6-Port  ) 
!S42(C  6-Port  ) 
!S43(C  6-Port  ) 
!S44(C  6-Port  ) 
!S45(C  6-Port  ) 
!S46(C  6-Port  ) 
!S51(C  6-Port  ) 
!S52(C  6-Port  ) 
!S53(C  6-Port  ) 
!S54(C  6-Port  ) 
!S55(C  6-Port  ) 
!S56(C  6-Port  ) 
!S61(C  6-Port  ) 
!S62(C  6-Port  ) 
!S63(C  6-Port  ) 
!S64(C  6-Port  ) 
!S65(C  6-Port  ) 
!S66(C  6-Port  ) 
!S6P File: Measurement: :
# Hz S  RI   R 50
500000000 -0.33639 -0.032503 -0.0096775 -0.0037536 -0.007816 0.011685 -0.0036004 0.011467
0.012273 0.0047056 -0.0043525 0.007936
-0.0096537 -0.0037317 -0.41945 -0.048152 0.0073338 -0.011638 0.0012986 0.011791
0.007759 0.0021336 0.00060057 0.013288
-0.0077899 0.011701 0.0073119 -0.011676 -0.26456 0.21194 0.0068975 0.0033886
0.00021796 0.0083935 0.00048866 0.012205
-0.0036321 0.011575 0.0014446 0.011728 0.0069558 0.0033534 -0.32674 0.049488
-0.01919 -0.0049843 0.018431 0.026263
0.012369 0.0044718 0.0074832 0.0021622 3.9448e-05 0.0082764 -0.01928 -0.0049859
-0.22791 -0.18012 -0.027885 0.0042996
-0.0037468 0.008248 0.00080711 0.012971 0.00067997 0.012083 0.017866 0.026253
-0.027181 0.0046973 -0.27054 -0.13021
560000000 -0.3152 0.12616 -0.024189 -0.062502 -4.355e-05 0.011972 0.0063718 0.0098424
0.010487 0.0038174 0.010221 0.0076229
-0.02412 -0.062426 -0.37643 0.1102 -0.041721 -0.036868 0.013871 0.003791
-0.012783 -0.0041367 0.0040059 -0.00099424
-5.5505e-06 0.011965 -0.041855 -0.036841 -0.18232 0.25965 -0.00085179 -0.0047818
0.018601 0.0039605 0.0073474 -0.0060733
0.006282 0.0095859 0.013668 0.0037368 -0.00067814 -0.0050102 -0.30146 0.1364
0.0040427 -0.025014 0.0048945 -0.019355
0.010991 0.003769 -0.013464 -0.0045148 0.018837 0.0040761 0.0042365 -0.024631
-0.28552 -0.0068003 0.0073233 -0.04987
0.0094486 0.0074825 0.0044323 -0.00048194 0.0071761 -0.0062958 0.0051256 -0.019182
0.0070022 -0.050535 -0.33349 0.018761
620000000 -0.27255 0.11099 -0.02299 0.0070366 0.0035778 0.0082826 0.0065679 -0.0056109
0.01081 -0.00073826 1.0113e-05 -0.002085
-0.022969 0.0070334 -0.40215 0.064119 -0.018895 -0.00031914 -0.0012829 -0.0018587
0.010322 -0.0074892 0.0011634 -0.0030367
0.0035973 0.0082707 -0.018907 -0.00028307 -0.15249 0.26822 -0.0014138 -0.0051403
-0.0038166 -0.0032874 0.0080486 -0.0035547
0.0065076 -0.0058674 -0.0013194 -0.0020072 -0.0014867 -0.005342 -0.26047 0.14658
-0.03879 -0.018174 0.014187 0.024054
0.01108 -0.00041989 0.010214 -0.0074996 -0.0040211 -0.0031727 -0.03888 -0.018096
-0.20471 -0.045632 -0.041339 0.015194
-0.00018945 -0.0018912 0.0011162 -0.0028868 0.0079906 -0.0035836 0.014176 0.024071
-0.041274 0.015129 -0.25147 -0.019873
680000000 -0.23189 0.19406 -0.027925 -0.013814 0.0048242 0.0049831 0.0010959 -0.0074074
-0.0031929 -0.011013 0.0046634 -0.0069918
-0.027894 -0.013821 -0.38656 0.1606 -0.032802 -0.0012107 -0.0015329 -0.00016949
-0.0027986 -0.008905 -0.0011137 -0.0022016
0.0048271 0.0049595 -0.032827 -0.0011196 -0.10172 0.28781 -0.0005883 0.00019079
-0.002414 0.00071708 -0.0030411 -0.0096528
0.0010499 -0.0074294 -0.0015571 -0.00020864 -0.00063666 0.00018797 -0.21777 0.19607
-0.023599 -0.0083901 -0.010086 -0.010526
-0.0033034 -0.010992 -0.0029415 -0.0088596 -0.0024562 0.0008321 -0.023882 -0.0081307
-0.25041 0.051547 -0.005891 -0.0094479
0.0047935 -0.0070552 -0.0010419 -0.0019979 -0.0029234 -0.0096566 -0.0099229 -0.010603
-0.0053869 -0.0097859 -0.26168 0.085996
740000000 -0.18891 0.18888 -0.038246 0.026422 0.012348 -0.0052842 -0.00084272 -0.004028
-0.0048315 -0.0023408 -0.005902 0.0033052
-0.038254 0.02637 -0.33468 0.1795 -0.034723 0.034817 -0.00089181 -0.0062292
-0.011125 0.0076356 -0.0024446 -0.0060499
0.01233 -0.0053236 -0.03465 0.034956 -0.067878 0.28693 -0.0015042 0.0032763
-0.0027455 -0.0037243 -0.00098432 0.00037079
-0.00078882 -0.0039951 -0.00085527 -0.0062189 -0.0015788 0.0032995 -0.20149 0.20386
-0.042346 -0.0083441 0.022407 0.013273
-0.0048011 -0.0023487 -0.011299 0.0077893 -0.0027145 -0.0037387 -0.042452 -0.0081677
-0.15652 0.073869 -0.041922 0.0002846
-0.0061372 0.0033332 -0.0029049 -0.0059548 -0.0010986 -5.3812e-06 0.022387 0.013148
-0.041842 0.00043508 -0.25393 0.092059
800000000 -0.15696 0.22921 -0.02246 0.017148 0.0050497 -0.010454 -0.0046869 -0.0020449
-0.0041487 0.003091 0.0042591 0.00094452
-0.022436 0.017118 -0.33683 0.24935 -0.0077412 0.033963 -0.0020289 0.0021995
-0.00047714 0.0035468 0.0013026 0.0053041
0.0050245 -0.010471 -0.0076528 0.034021 -0.026762 0.30986 0.0012416 0.001479
0.00073764 0.0035972 -0.0018447 0.00095809
-0.0047002 -0.0020418 -0.0020102 0.0022288 0.0012719 0.0014967 -0.1736 0.23116
-0.028346 0.012706 0.013198 -0.010011
-0.0040077 0.0029319 -0.00046584 0.0034689 0.0007486 0.0035921 -0.028399 0.012738
-0.19877 0.09833 -0.017694 0.017483
0.004433 0.0010088 0.0012366 0.0053035 -0.0019076 0.00098088 0.01319 -0.010046
-0.017728 0.017614 -0.24635 0.14663
860000000 -0.12194 0.25061 -0.017118 0.031216 -0.0035172 -0.0096468 -0.0026497 0.0014236
0.0043173 0.0049287 -0.0029437 -0.0029126
-0.017125 0.031172 -0.28901 0.29137 0.0082472 0.034027 0.00024712 0.0020778
0.0048003 3.1789e-05 0.0032393 0.00017396
-0.0035465 -0.0096506 0.0083621 0.034035 0.021862 0.3175 -0.00030719 -0.00033992
0.0028725 -0.0017239 0.0015929 0.0046095
-0.0025943 0.0014525 0.00025996 0.0020903 -0.00025129 -0.00031932 -0.13809 0.24314
-0.017802 0.018834 -0.0062879 -0.0094646
0.004439 0.0051481 0.0045431 0.00016121 0.0029282 -0.0016782 -0.01797 0.018895
-0.14977 0.14622 -0.024629 0.015515
-0.0029629 -0.0029754 0.0034081 0.00012811 0.0014779 0.004566 -0.0063213 -0.0093211
-0.02445 0.015821 -0.19512 0.19065
920000000 -0.096317 0.27372 0.0051735 0.037816 -0.0093304 -0.004041 -0.0017631 0.0023921
0.0012427 0.001578 0.0025313 -0.001536
0.0051445 0.037771 -0.25982 0.31226 0.027903 0.021572 0.001567 0.0011664
0.0067835 -0.00086746 0.0037053 -0.0030434
-0.0093403 -0.0040182 0.027998 0.02151 0.068193 0.31765 0.0017442 -6.304e-05
0.001282 -0.000527 0.00080592 -0.001037
-0.0017831 0.0023731 0.0016054 0.0011045 0.001748 -7.1034e-05 -0.11354 0.25951
-0.010259 0.029895 0.0025808 -0.0065388
0.0013388 0.0015133 0.0067532 -0.00077876 0.0012622 -0.00050514 -0.010284 0.029881
-0.13988 0.15262 -0.001845 0.027595
0.0024328 -0.0014227 0.003756 -0.0029464 0.00078269 -0.0010289 0.0025467 -0.0065964
-0.0018709 0.027504 -0.20298 0.20396
980000000 -0.048559 0.293 0.018013 0.02982 -0.0085967 0.0047703 0.0024554 0.0037072
0.0039225 -0.0017372 -0.0030351 -0.0021246
0.017978 0.029778 -0.20677 0.34562 0.032702 0.0044709 0.0019246 -6.1661e-05
0.00096721 -0.0061801 -0.00078053 -0.0021927
-0.0085716 0.0048068 0.032729 0.0043685 0.11451 0.3106 0.00039435 -0.0012311
-2.037e-05 -0.0020931 0.001488 -4.5976e-05
0.0024656 0.0037366 0.0019157 -7.4213e-05 0.00041377 -0.0012115 -0.075215 0.27067
0.007585 0.028435 -0.0094639 -0.0067709
0.0039281 -0.0017297 0.00094057 -0.0061142 -2.3188e-05 -0.0021042 0.0076363 0.028431
-0.1084 0.17957 0.0048365 0.018809
-0.0031392 -0.0020484 -0.00068397 -0.0022276 0.0015811 -3.8357e-05 -0.009487 -0.0066805
0.0050431 0.018712 -0.15953 0.25027
1040000000 -0.0053697 0.3007 0.033285 0.017491 -0.0009706 0.006795 0.002819 0.00062995
-7.2277e-05 -0.0036496 -0.00058892 -0.0014829
0.033229 0.017476 -0.17076 0.35836 0.028832 -0.014904 0.0014723 -0.0016774
-0.0026148 -0.0021788 -0.0016266 -0.0025944
-0.000943 0.00679 0.028785 -0.015007 0.16059 0.29645 -0.00051489 -0.001391
-0.0015386 -0.00071132 -0.0004468 -0.0012286
0.002878 0.00064663 0.0014909 -0.0016885 -0.00051606 -0.0014045 -0.047616 0.28083
0.018057 0.016911 -0.0030581 0.0021909
-0.00010804 -0.0036385 -0.0026382 -0.0021636 -0.0015623 -0.00073666 0.01804 0.016866
-0.077627 0.18873 0.013129 0.017785
-0.0006175 -0.0015261 -0.0015873 -0.0026335 -0.00045086 -0.0012054 -0.0030317 0.0021987
0.013222 0.017729 -0.13931 0.27123
1100000000 0.040299 0.3076 0.035513 -0.0047184 0.0029884 0.0036563 0.0025692 -0.0014686
-0.002132 -0.0029383 -0.0038337 9.6946e-05
0.035485 -0.004699 -0.12723 0.37496 0.014712 -0.027412 3.5811e-05 -0.0017877
-0.0030569 -0.00035586 -0.0033809 -0.00050755
0.0030089 0.0036624 0.014618 -0.027491 0.20655 0.27581 -0.001792 0.00027565
-0.0016379 0.00067204 -0.00095938 -0.00033365
0.0025686 -0.0014787 -2.3721e-06 -0.0017971 -0.0017815 0.00029232 -0.0069151 0.28556
0.022347 0.0049378 -0.0022514 0.00099608
-0.0021334 -0.0029295 -0.0030455 -0.00033262 -0.0016211 0.00065744 0.022378 0.0048983
-0.059014 0.20183 0.018695 0.0084641
-0.0039292 9.6151e-05 -0.0034455 -0.00048227 -0.00096414 -0.00034147 -0.0022328 0.0010562
0.018596 0.0083748 -0.092014 0.30093
1160000000 0.091907 0.30186 0.023492 -0.020828 0.0026417 -0.00061221 -0.00013373 -0.0025722
-0.0040428 -0.00043538 -0.00097109 0.0040096
0.023483 -0.020802 -0.083278 0.37875 -0.0038382 -0.028559 -0.0017654 -0.0015536
-0.0022393 0.0026343 -0.0013908 0.0015115
0.0026435 -0.0006169 -0.0039791 -0.028557 0.24943 0.24479 -0.00055794 0.0016937
-0.00032369 0.001792 -0.0010208 8.669e-05
-0.00014088 -0.0025716 -0.0017838 -0.0015664 -0.00057338 0.0017054 0.032496 0.28244
0.019016 -0.0095766 -0.0026199 0.0056614
-0.004024 -0.00044385 -0.002246 0.0026128 -0.00034007 0.0017881 0.018996 -0.0096401
-0.025493 0.21115 0.01725 0.00060528
-0.00095932 0.0040338 -0.0013299 0.0015887 -0.001021 0.00010383 -0.0026169 0.0056018
0.017202 0.00055976 -0.04512 0.30341
1220000000 0.13628 0.28965 0.0099405 -0.029742 -0.0015678 -0.0008882 -0.00017408 -0.001173
-0.0023985 0.0025515 0.0012901 0.0018879
0.0099485 -0.029715 -0.039324 0.38989 -0.016596 -0.020641 -0.0024866 0.0004636
0.00030485 0.00279 -0.00072543 0.0017494
-0.0015703 -0.00088282 -0.016715 -0.020582 0.2884 0.20572 0.00086525 0.0015059
0.0005945 0.0011105 0.00027747 0.00073109
-0.00019168 -0.001154 -0.0024874 0.00044633 0.00085866 0.0015111 0.072122 0.27372
0.0090288 -0.015088 0.0029229 0.0017481
-0.0024281 0.002564 0.00031134 0.0027706 0.00056761 0.0011158 0.0090125 -0.015147
-0.0016224 0.22044 0.013294 -0.012138
0.0013633 0.0018741 -0.00069529 0.0017608 0.00027642 0.00072884 0.0028616 0.0017149
0.013354 -0.012144 -0.013118 0.32126
1280000000 0.1855 0.26677 -0.0079629 -0.027926 -0.0018242 0.0024804 -0.0011725 -0.0019493
-0.00055596 0.0030272 0.0025394 0.0010064
-0.0079472 -0.027907 0.0061721 0.38057 -0.023178 -0.0083111 -0.0010001 0.0014811
0.001568 0.0015037 0.00049722 0.0019691
-0.0018243 0.0024781 -0.023251 -0.0082034 0.31901 0.16181 0.0013605 -0.00019703
0.00092645 0.00013414 0.00030455 0.00040692
-0.0011882 -0.0019451 -0.0010194 0.0014752 0.0013487 -0.00018901 0.10845 0.25742
0.00049519 -0.01674 0.00063749 4.6883e-05
-0.00054606 0.0030137 0.0016033 0.0014955 0.00091567 0.00011011 0.00046685 -0.016721
0.035656 0.2239 0.002782 -0.013989
0.0025568 0.00094584 0.00056216 0.0019086 0.00033284 0.0004063 0.00065192 3.4276e-05
0.0029228 -0.013967 0.034734 0.32253
1340000000 0.22209 0.23233 -0.017475 -0.018612 0.00081693 0.0042923 -0.0019197 -0.00069507
0.001465 0.0025115 0.0015678 -0.0015548
-0.017454 -0.018598 0.045358 0.37202 -0.021109 0.004056 -7.6369e-05 0.0019451
0.0016482 0.00061347 0.0013157 0.00085224
0.00083812 0.0042816 -0.021106 0.0041627 0.34124 0.11372 0.00089011 -0.00084218
0.00055797 -0.00042341 0.00018321 0.0002331
-0.0019325 -0.0006727 -4.6819e-05 0.0019448 0.00090121 -0.00084104 0.14125 0.23734
-0.0074089 -0.01386 0.0014644 -0.00011391
0.0015046 0.0025096 0.0016726 0.00060241 0.00053767 -0.00040409 -0.0074634 -0.013872
0.066402 0.21897 -0.003212 -0.012599
0.0015658 -0.0015597 0.0013223 0.00084389 0.00020371 0.00022451 0.0014299 -8.2773e-05
-0.0032451 -0.012604 0.073745 0.31862
1400000000 0.25429 0.19361 -0.023023 -0.0073661 0.0049296 0.0030451 -0.0020058 0.00075104
0.0023973 0.0006417 0.00013888 -0.0013352
-0.022987 -0.0073737 0.082103 0.35891 -0.014578 0.011998 0.0013079 0.0012798
0.00090609 -0.00077753 0.0011773 0.0003149
0.0049411 0.0030304 -0.014535 0.012088 0.35425 0.059755 8.1626e-05 -0.0013745
4.0592e-05 -0.00033975 0.00035931 0.00023803
-0.0019956 0.00074945 0.0013297 0.0012658 8.2672e-05 -0.0013881 0.17112 0.20897
-0.012184 -0.0080058 -0.00055414 -0.00097609
0.0024219 0.00062393 0.00090781 -0.00076477 -1.2362e-05 -0.00034071 -0.012217 -0.0079747
0.099532 0.21364 -0.0093112 -0.0080113
0.00014891 -0.0013171 0.0011971 0.00030244 0.00035442 0.00027243 -0.00054972 -0.00097687
-0.0092696 -0.0080238 0.11897 0.30766
1460000000 0.27658 0.14943 -0.020157 0.0044967 0.0053594 -0.0016875 -0.0014932 0.0016974
0.0018501 -0.00076258 -0.0003557 -0.00082088
-0.020143 0.0044841 0.1162 0.33717 -0.0062604 0.01483 0.0016988 0.00014926
0.00081252 -0.0010693 0.0011579 -0.00058151
0.0053508 -0.0017214 -0.0061902 0.014874 0.36006 0.0049583 -0.0010677 -0.0011696
0.00027568 -7.4223e-05 0.00066979 -0.0004196
-0.001484 0.0016967 0.0016921 0.00014008 -0.0010615 -0.0011741 0.19803 0.17992
-0.012795 -0.0027053 -0.0011766 0.0013437
0.0018666 -0.00079161 0.00081952 -0.0011063 0.0002646 -8.8112e-05 -0.01282 -0.0026726
0.1295 0.19833 -0.010808 -0.0028338
-0.00035155 -0.00079201 0.001148 -0.00058107 0.00063281 -0.00042595 -0.0011499 0.0013439
-0.010797 -0.0028367 0.15253 0.28663
1520000000 0.28827 0.10754 -0.014643 0.010065 0.0030499 -0.0039804 0.0001575 0.0025281
0.0016948 -0.0016994 -0.0011342 -0.00013862
-0.014639 0.010049 0.14966 0.3223 0.0011734 0.01288 0.0015719 -0.00082383
0.00011327 -0.00090223 0.00030546 -0.0010154
0.0030474 -0.0039971 0.0012414 0.012887 0.35281 -0.051611 -0.00090184 -0.00035384
0.00055999 -0.00074247 -3.3275e-05 -6.5621e-05
0.00016009 0.0025339 0.0015764 -0.00081614 -0.00089258 -0.00034799 0.222 0.14171
-0.012289 0.001745 0.00092934 0.0016981
0.0016915 -0.0017041 0.00012718 -0.00088096 0.00054623 -0.00071904 -0.012283 0.0017773
0.1575 0.18326 -0.010881 0.0012073
-0.001153 -0.00015024 0.00029997 -0.0010141 -4.7008e-05 -6.774e-05 0.00092514 0.0016831
-0.010861 0.0011546 0.18622 0.26643
1580000000 0.29714 0.061068 -0.0082289 0.013142 -0.00093712 -0.0046919 0.001361 0.001766
-0.0005261 -0.0020167 -0.00032572 0.00042493
-0.0082329 0.013131 0.17696 0.29747 0.0048657 0.0082765 0.00042715 -0.0015575
-0.00035242 -0.0010351 -0.00029286 -0.00087107
-0.00096476 -0.004686 0.0049158 0.0082595 0.33212 -0.10913 -0.0014578 0.00045842
-0.00022716 -0.0011113 8.8161e-05 -0.0005394
0.0013549 0.0017662 0.00041385 -0.0015666 -0.0014523 0.00044479 0.2368 0.10172
-0.0097812 0.0056782 0.0016998 0.00065458
-0.00055087 -0.001995 -0.00037118 -0.001027 -0.00021574 -0.0011042 -0.0097688 0.0057211
0.18184 0.16458 -0.0087885 0.0063616
-0.00033431 0.000424 -0.00030163 -0.00086181 7.5137e-05 -0.00053018 0.0017022 0.00062653
-0.0087921 0.0063686 0.21847 0.23958
1640000000 0.29865 0.019266 -0.0016503 0.012226 -0.0026193 -0.002529 0.0025019 0.00098198
-0.00082203 -0.001125 -0.00028674 0.0007089
-0.0016654 0.012208 0.20648 0.27206 0.005623 0.0036946 -0.00073593 -0.0016149
-0.00095748 -0.00049769 -0.00054294 -0.00062519
-0.0026292 -0.0025196 0.0056527 0.0036641 0.30341 -0.15822 -0.0008918 0.0013031
-0.0010077 -0.00078476 -0.000104 -0.00027562
0.0025172 0.00096292 -0.00073913 -0.0016075 -0.00087789 0.0012804 0.24954 0.051622
-0.0064762 0.0066305 0.0020608 -0.00067647
-0.00082565 -0.0011244 -0.00095553 -0.00048189 -0.0010068 -0.00080364 -0.0064626 0.0066502
0.20469 0.13914 -0.0045012 0.0084708
-0.00031834 0.00069635 -0.0005493 -0.00063436 -8.3419e-05 -0.00025792 0.0020601 -0.00067366
-0.0045029 0.0084588 0.24458 0.20829
1700000000 0.2906 -0.026369 0.0018371 0.0096551 -0.0034493 0.00013828 0.0029037 -0.001036
-0.001742 -0.00032214 0.00056202 0.00041541
0.0018267 0.0096551 0.2244 0.2402 0.0037862 0.00081529 -0.0013835 -0.00053442
-0.00083177 -2.4764e-05 -0.00092203 -0.0004035
-0.0034461 0.00015356 0.0037977 0.00080629 0.25954 -0.19804 0.00028671 0.0015718
-0.0017477 -0.00032294 -0.00057299 -0.00087451
0.0028906 -0.001044 -0.0013895 -0.00052785 0.00029053 0.001585 0.24607 0.00033353
-0.004642 0.007171 0.0012996 -0.0019347
-0.0017476 -0.000335 -0.00083138 -4.1738e-06 -0.0017474 -0.00027665 -0.0046371 0.0071895
0.22218 0.11739 -0.00016003 0.0089743
0.00055052 0.00039671 -0.0009141 -0.00039796 -0.00054515 -0.0008687 0.0012961 -0.0019434
-0.00014835 0.0089786 0.26111 0.17347
1760000000 0.27731 -0.074951 0.0042747 0.0064873 -0.0021645 0.00084271 0.0013807 -0.0032454
-0.00095005 0.00065712 0.0003866 -0.00045952
0.0042673 0.006482 0.25014 0.19989 0.001722 -0.00091881 -0.0011088 0.00019751
-0.0011702 0.00086752 -0.00060502 0.00051355
-0.0021609 0.00086121 0.0017136 -0.00092841 0.21031 -0.23077 0.0010451 0.0012737
-0.0011665 0.0012888 -0.0013346 -0.00050293
0.0013549 -0.0032631 -0.001118 0.0001938 0.0010643 0.0013028 0.2356 -0.052278
-0.0021652 0.0067834 -0.00049709 -0.0020178
-0.00096159 0.0006651 -0.0011718 0.00087338 -0.0011623 0.0012609 -0.0021403 0.0068069
0.23708 0.080551 0.0032965 0.0064194
0.00039344 -0.00047934 -0.00060224 0.00053104 -0.0013237 -0.00050728 -0.00050794 -0.0020068
0.0033048 0.0064087 0.27375 0.13553
1820000000 0.25151 -0.11201 0.0046647 0.0028649 -3.7567e-05 0.0023484 -0.00083179 -0.0030352
-0.0007592 0.00066773 7.2015e-05 -5.6166e-05
0.0046566 0.00286 0.25954 0.16942 -0.00010618 7.8007e-05 -0.001297 0.00086606
-0.00013464 0.0014359 -0.00052995 0.0005639
-2.0497e-05 0.0023482 -0.00011098 7.9962e-05 0.16045 -0.24605 0.0015639 0.00054757
-0.00043274 0.0021362 -0.0013146 0.00049378
-0.00085329 -0.0030181 -0.0013027 0.00087007 0.001545 0.00054051 0.20383 -0.09984
-0.0010174 0.0056383 -0.0016009 -0.0012346
-0.0007671 0.0006602 -0.00010697 0.001447 -0.00039822 0.0021308 -0.001019 0.0056568
0.25318 0.049328 0.0043406 0.003179
6.4487e-05 -0.00010558 -0.00051332 0.00054899 -0.001362 0.00045867 -0.0016163 -0.0012622
0.0043107 0.00316 0.27611 0.099313
1880000000 0.21529 -0.15139 0.002535 0.00050147 -0.00034711 0.0020443 -0.0027931 -0.0022411
-0.00029046 0.001333 0.00035054 -0.00063589
0.0025311 0.00049782 0.26337 0.12282 -0.0020734 0.0016586 -0.00018449 0.0016864
0.00067863 0.0014 0.00021947 0.0010082
-0.00033024 0.0020551 -0.0020645 0.0016749 0.1084 -0.2555 0.001973 -0.001004
0.0013775 0.0020023 -0.000861 0.0015389
-0.0028129 -0.0022435 -0.00016267 0.0016825 0.0019897 -0.00099418 0.16157 -0.13915
-0.00088395 0.0045418 -0.0022047 0.00088899
-0.00028775 0.0013359 0.00069556 0.0014021 0.0013952 0.0020353 -0.00087296 0.00453
0.25433 0.014329 0.0039049 0.0014826
0.00036007 -0.00063215 0.0002316 0.0010073 -0.00091247 0.0014745 -0.0021848 0.00090437
0.00393 0.0015057 0.27584 0.065076
1940000000 0.17545 -0.1761 0.0003347 -0.0013227 0.0013624 0.001903 -0.0038236 0.00043985
0.0010883 0.00092155 -0.00061513 -0.00067949
0.00033048 -0.0013155 0.26322 0.091055 -0.0010115 0.0038429 0.00098036 0.0012948
0.002094 0.00052825 0.0008683 0.00025668
0.0013707 0.0018883 -0.0009919 0.0038643 0.062321 -0.2489 0.00035385 -0.0023896
0.002499 0.00054267 0.00027182 0.0016843
-0.0038231 0.00047288 0.00099341 0.0012897 0.00040403 -0.0023929 0.10817 -0.16789
-0.0019307 0.0040332 -0.0010068 0.0017359
0.0010788 0.00094491 0.0020943 0.00050425 0.0025467 0.00056978 -0.0018712 0.0040321
0.25356 -0.026618 0.0030134 -0.0015019
-0.00064782 -0.00066856 0.00085684 0.00025477 0.00028904 0.0015949 -0.0010178 0.0017648
0.003024 -0.0014522 0.26493 0.029236
2000000000 0.12919 -0.18947 -0.0035273 0.00054519 0.0024648 0.0015661 -0.0023608 0.0035311
0.00094861 0.00034114 -0.00081692 0.00046137
-0.0035168 0.00053547 0.24844 0.055782 -0.00085886 0.0055941 0.0016321 0.00022663
0.0015907 -0.0016099 0.0005691 6.2103e-05
0.0024588 0.0015415 -0.00082952 0.005598 0.018706 -0.23446 -0.0014828 -0.0014161
0.0021055 -0.0012327 0.0016221 0.001275
-0.0023532 0.003546 0.0016296 0.00022564 -0.0015118 -0.0014207 0.054901 -0.17601
-0.0031684 0.0049066 0.00023741 0.0021095
0.00094599 0.00031859 0.0015766 -0.0016236 0.0020922 -0.001195 -0.0031543 0.0049012
