!Keysight Technologies,M9804A,MY58100912,A.14.10.03
!Date: Thursday, April 27, 2023 10:28:33
!Correction: S11(C  6-Port  ) 
!S12(C  6-Port  ) 
!S13(C  6-Port  ) 
!S14(C  6-Port  ) 
!S15(C  6-Port  ) 
!S16(C  6-Port  ) 
!S21(C  6-Port  ) 
!S22(C  6-Port  ) 
!S23(C  6-Port  ) 
!S24(C  6-Port  ) 
!S25(C  6-Port  ) 
!S26(C  6-Port  ) 
!S31(C  6-Port  ) 
!S32(C  6-Port  ) 
!S33(C  6-Port  ) 
!S34(C  6-Port  ) 
!S35(C  6-Port  ) 
!S36(C  6-Port  ) 
!S41(C  6-Port  ) 
!S42(C  6-Port  ) 
!S43(C  6-Port  ) 
!S44(C  6-Port  ) 
!S45(C  6-Port  ) 
!S46(C  6-Port  ) 
!S51(C  6-Port  ) 
!S52(C  6-Port  ) 
!S53(C  6-Port  ) 
!S54(C  6-Port  ) 
!S55(C  6-Port  ) 
!S56(C  6-Port  ) 
!S61(C  6-Port  ) 
!S62(C  6-Port  ) 
!S63(C  6-Port  ) 
!S64(C  6-Port  ) 
!S65(C  6-Port  ) 
!S66(C  6-Port  ) 
!S6P File: Measurement: :
# Hz S  RI   R 50
500000000 -0.33613 -0.032929 -0.0097315 -0.0038973 -0.0080629 0.011434 -0.0042109 0.011985
0.012131 0.0045673 -0.0044063 0.0076019
-0.0098099 -0.0038885 -0.41902 -0.048099 0.0075975 -0.011677 0.0013303 0.010679
0.0078207 0.002615 0.0007243 0.012433
-0.0080799 0.011406 0.0075105 -0.01172 -0.26404 0.21178 0.0068194 0.002773
0.00034202 0.0081837 0.00030615 0.012023
-0.0041746 0.011769 0.0013752 0.010695 0.0067778 0.0027656 -0.32692 0.049257
-0.018915 -0.005516 0.017896 0.025453
0.012498 0.0039905 0.0078745 0.0023727 0.00034071 0.0080726 -0.018787 -0.0051045
-0.22776 -0.17908 -0.026395 0.0038149
-0.0046023 0.007788 0.0014291 0.011921 0.00064951 0.011742 0.017234 0.025411
-0.026771 0.0033541 -0.27109 -0.12877
560000000 -0.31414 0.12523 -0.023623 -0.062723 -0.00016334 0.012515 0.0061069 0.0093238
0.011344 0.0037315 0.008737 0.0072893
-0.023713 -0.06263 -0.37636 0.1097 -0.041474 -0.037039 0.014365 0.003729
-0.013294 -0.0047424 0.0051085 -0.00084182
-0.00035004 0.012354 -0.041324 -0.037087 -0.18252 0.25913 -0.00084015 -0.0045944
0.018567 0.0034825 0.0071838 -0.0062495
0.0063352 0.0094806 0.013985 0.0037954 -0.0007561 -0.0048432 -0.30178 0.13644
0.0037808 -0.025236 0.0059169 -0.01937
0.011047 0.0034359 -0.013261 -0.0049357 0.018584 0.0038514 0.0036529 -0.025268
-0.28402 -0.0065697 0.0066993 -0.051051
0.0096694 0.0077023 0.0047473 -7.7052e-05 0.0066811 -0.0063996 0.0053551 -0.020202
0.007126 -0.05062 -0.33344 0.019127
620000000 -0.27253 0.11029 -0.02316 0.0068936 0.0032659 0.0082257 0.006922 -0.0057072
0.0103 -0.00096356 0.00037473 -0.0016189
-0.023127 0.0068096 -0.40196 0.063422 -0.018924 -0.00061782 -0.001719 -0.001999
0.010085 -0.0073652 0.00080414 -0.0031166
0.0032754 0.0082775 -0.019014 -0.0005574 -0.1526 0.26736 -0.0018821 -0.0050085
-0.0042496 -0.0032217 0.0078631 -0.0033981
0.0070064 -0.0056946 -0.0018031 -0.0020012 -0.0017557 -0.0050013 -0.2597 0.1462
-0.038705 -0.01904 0.014975 0.023609
0.010889 -0.00027317 0.010565 -0.0076494 -0.0040152 -0.00348 -0.039347 -0.018901
-0.20567 -0.044172 -0.040962 0.014424
0.00019558 -0.0022855 0.00045475 -0.0031409 0.0077172 -0.0036261 0.015386 0.02411
-0.041042 0.015619 -0.25199 -0.016675
680000000 -0.23187 0.19312 -0.027833 -0.014145 0.0049816 0.0050194 0.00052056 -0.0075296
-0.0026716 -0.010915 0.0047024 -0.0080892
-0.027829 -0.014175 -0.3865 0.16006 -0.032923 -0.0011557 -0.0016913 -0.00040874
-0.0028855 -0.0086173 -0.00087181 -0.0024327
0.0048553 0.0049391 -0.032952 -0.0011432 -0.10212 0.28731 -0.00053645 6.3304e-05
-0.0026297 0.0013094 -0.0030092 -0.0097121
0.00059636 -0.007595 -0.0016974 -0.00041067 -0.00056054 6.5123e-05 -0.21794 0.19587
-0.023699 -0.0087468 -0.010604 -0.0099887
-0.0027006 -0.010956 -0.0029673 -0.0085125 -0.0024445 0.0010932 -0.023554 -0.0088007
-0.2509 0.051291 -0.0050059 -0.010182
0.0045214 -0.00809 -0.00086354 -0.0024416 -0.0030136 -0.0097516 -0.01072 -0.0098372
-0.005413 -0.010205 -0.26249 0.085399
740000000 -0.18928 0.18881 -0.038461 0.026161 0.012435 -0.0051187 -0.00082332 -0.0042902
-0.004858 -0.0021255 -0.0058383 0.0032447
-0.038455 0.026198 -0.33523 0.17915 -0.034882 0.034781 -0.00095122 -0.005951
-0.011524 0.0089045 -0.0022099 -0.0060392
0.012413 -0.0051939 -0.034799 0.034936 -0.068708 0.28676 -0.0012805 0.0032654
-0.0030713 -0.0037941 -0.0010317 0.00082262
-0.00082852 -0.004245 -0.00092478 -0.0060198 -0.0012558 0.00332 -0.20136 0.20287
-0.043012 -0.0078241 0.023566 0.012887
-0.0045413 -0.0019775 -0.011199 0.0085668 -0.0031291 -0.0035501 -0.042747 -0.007557
-0.15649 0.074067 -0.04333 0.00069082
-0.0059146 0.0032744 -0.0027146 -0.0061448 -0.00068449 0.00065929 0.023319 0.012661
-0.042949 0.00068632 -0.25058 0.093907
800000000 -0.15741 0.22891 -0.022514 0.017293 0.0052218 -0.010414 -0.0047218 -0.0019695
-0.0039895 0.003216 0.0045691 0.0007554
-0.022518 0.017225 -0.33718 0.24903 -0.0078556 0.034232 -0.001888 0.0023877
-0.00055047 0.0035662 0.0014074 0.0054816
0.0051422 -0.010403 -0.0077886 0.034284 -0.027389 0.30991 0.0013207 0.001409
0.00086519 0.0035619 -0.0019068 0.0010951
-0.0047104 -0.0019687 -0.0018727 0.0023057 0.0012716 0.0014238 -0.17408 0.23092
-0.02882 0.012805 0.012993 -0.0095024
-0.0040467 0.0030842 -0.00058597 0.0034787 0.00082052 0.0035436 -0.028639 0.0129
-0.19948 0.097931 -0.018223 0.017895
0.00452 0.00085633 0.0014326 0.0054113 -0.0018889 0.0010139 0.013158 -0.009551
-0.018275 0.017862 -0.24551 0.1484
860000000 -0.12254 0.2502 -0.017328 0.031443 -0.0035627 -0.0097872 -0.0024716 0.0013417
0.0042847 0.005058 -0.0026929 -0.0030801
-0.017322 0.031338 -0.28968 0.29101 0.008178 0.034145 0.00030323 0.00213
0.0044107 2.082e-05 0.003427 -0.00011279
-0.0036024 -0.0098146 0.0083228 0.03415 0.021159 0.31775 -0.00033853 -0.00032988
0.0025801 -0.0017127 0.001628 0.0045052
-0.0025375 0.0013635 0.00031874 0.002123 -0.00035466 -0.00034228 -0.13864 0.24301
-0.018187 0.018733 -0.0060652 -0.00925
0.0044196 0.0050327 0.0045941 9.208e-05 0.0027076 -0.0017387 -0.018079 0.018774
-0.15063 0.14685 -0.024015 0.015309
-0.0027877 -0.003274 0.0032697 -5.6586e-05 0.0015575 0.0044793 -0.0063244 -0.0091342
-0.024382 0.015258 -0.19465 0.19125
920000000 -0.096973 0.27359 0.0053118 0.038061 -0.0093418 -0.0040746 -0.0017115 0.002519
0.0013905 0.00138 0.0023038 -0.0012268
0.0052847 0.038032 -0.2602 0.31191 0.0282 0.021668 0.0016524 0.0011707
0.0066964 -0.0010121 0.0034465 -0.0027649
-0.0093598 -0.0040474 0.028328 0.021596 0.067873 0.31808 0.0017427 -0.00012757
0.0012521 -0.00047451 0.00082236 -0.0010634
-0.0017004 0.0025124 0.0016727 0.0011344 0.0017483 -0.00010783 -0.11405 0.25969
-0.010708 0.030276 0.0026481 -0.0059985
0.0013144 0.0014362 0.0066678 -0.0009042 0.0012391 -0.00049184 -0.010527 0.030367
-0.13989 0.15271 -0.0023586 0.02756
0.0023419 -0.0012412 0.0035461 -0.0027717 0.00070021 -0.0010249 0.0026412 -0.0061646
-0.0023445 0.027559 -0.2024 0.20628
980000000 -0.049166 0.29288 0.017992 0.029987 -0.0086758 0.0048085 0.0025071 0.0037298
0.0039032 -0.0017638 -0.0028771 -0.0021372
0.017971 0.029976 -0.2074 0.34532 0.032984 0.0044307 0.0019404 -0.00016349
0.0010205 -0.0060767 -0.0004955 -0.0022826
-0.0086971 0.0048275 0.033034 0.0043492 0.11427 0.31105 0.00044747 -0.0012293
3.273e-05 -0.0020467 0.0016407 -0.00014452
0.0025251 0.0037158 0.0019984 -0.00013225 0.00043149 -0.0012082 -0.075743 0.27125
0.0074809 0.028831 -0.0094834 -0.0066036
0.0039257 -0.0018136 0.0010254 -0.0061683 3.9632e-05 -0.0020847 0.0075525 0.028804
-0.10863 0.18007 0.0050067 0.018628
-0.002931 -0.0021845 -0.0006376 -0.0023372 0.0016428 -0.00011238 -0.0096508 -0.0064625
0.0050124 0.018677 -0.15865 0.25079
1040000000 -0.0060421 0.3009 0.03345 0.017711 -0.00099776 0.0069816 0.0028979 0.00061672
-2.6648e-05 -0.0036629 -0.00069813 -0.0015939
0.033428 0.017703 -0.17147 0.3584 0.028985 -0.015018 0.0014175 -0.0016935
-0.0026948 -0.0023003 -0.0014446 -0.0025749
-0.00097856 0.0069474 0.028974 -0.015125 0.16052 0.297 -0.00053853 -0.0013851
-0.0015001 -0.00077077 -0.00034542 -0.001257
0.0029182 0.00057873 0.0014279 -0.0016719 -0.00054225 -0.0013935 -0.047762 0.28136
0.018513 0.017199 -0.0030647 0.0021228
-0.00014225 -0.0036854 -0.0026791 -0.0022588 -0.0014703 -0.00076576 0.018548 0.017147
-0.077623 0.1897 0.013522 0.017903
-0.00065645 -0.0014571 -0.0015782 -0.0026171 -0.00038623 -0.0012169 -0.0029814 0.0021603
0.013654 0.017965 -0.13784 0.27246
1100000000 0.039787 0.30779 0.035757 -0.0046885 0.0031479 0.0037397 0.0025143 -0.0015213
-0.0021655 -0.003031 -0.0038838 7.5422e-05
0.035728 -0.0046627 -0.12781 0.37521 0.01473 -0.027728 1.4506e-06 -0.0017898
-0.0030813 -0.00035962 -0.0034706 -0.00045195
0.003141 0.0037342 0.014641 -0.027826 0.20681 0.27622 -0.0017488 0.0002941
-0.0016763 0.00067535 -0.00095589 -0.00043027
0.0025334 -0.0015294 1.2064e-05 -0.0018016 -0.0017545 0.00031523 -0.0067888 0.28606
0.022886 0.004931 -0.0022648 0.0010261
-0.002203 -0.0030256 -0.0031048 -0.00033522 -0.0016819 0.00064289 0.02285 0.0047824
-0.058754 0.20283 0.018834 0.0083906
-0.00382 0.00010897 -0.0034288 -0.00035449 -0.00093352 -0.00045586 -0.0022009 0.0010156
0.018806 0.0084728 -0.090982 0.30146
1160000000 0.091375 0.30219 0.023642 -0.021058 0.002808 -0.00065032 -0.00017655 -0.0026075
-0.0040949 -0.00032902 -0.00082526 0.0041022
0.023655 -0.021007 -0.08375 0.37901 -0.0039585 -0.028723 -0.0017714 -0.0015751
-0.0022407 0.0025755 -0.0013372 0.0015836
0.0027902 -0.00067934 -0.0040931 -0.028742 0.24967 0.24506 -0.00055638 0.0016887
-0.0003532 0.0017001 -0.0011177 3.9922e-05
-0.0001827 -0.0026093 -0.0017707 -0.0015556 -0.00055709 0.0016867 0.032817 0.28287
0.019295 -0.0098957 -0.0027547 0.0056333
-0.0040883 -0.0003807 -0.0022046 0.0026635 -0.0003524 0.0017264 0.019229 -0.0099631
-0.025219 0.21216 0.017519 0.00023273
-0.00086674 0.004086 -0.0013716 0.0015647 -0.001115 4.7493e-05 -0.0026666 0.0056885
0.017447 0.00038785 -0.04395 0.30445
1220000000 0.13591 0.29014 0.010034 -0.030013 -0.001509 -0.0010424 -0.00022009 -0.0010689
-0.002437 0.0025691 0.0012572 0.0018171
0.01004 -0.029973 -0.039462 0.39032 -0.016848 -0.020724 -0.0024524 0.00048019
0.00034933 0.0027429 -0.0006368 0.0016693
-0.0015029 -0.0010231 -0.016957 -0.020649 0.28868 0.20572 0.00089019 0.0015072
0.00056545 0.0010988 0.00022049 0.00070064
-0.0002335 -0.0010918 -0.0024527 0.00049561 0.00087446 0.0015122 0.072595 0.2738
0.0091458 -0.015439 0.0029704 0.0017399
-0.0024396 0.0025471 0.00036196 0.0027374 0.00058745 0.0011118 0.0090512 -0.015473
-0.0011849 0.22145 0.013507 -0.012341
0.0013411 0.0018082 -0.00061935 0.001709 0.00023261 0.00070609 0.0030368 0.0017213
0.013595 -0.012316 -0.011822 0.32157
1280000000 0.18527 0.26717 -0.0080903 -0.028256 -0.0019018 0.0023374 -0.001088 -0.0018871
-0.00054744 0.0030918 0.0024951 0.0010468
-0.0080716 -0.028223 0.0063595 0.38082 -0.023394 -0.0081858 -0.00092829 0.00148
0.0015213 0.0014138 0.0005732 0.0020028
-0.0019004 0.002356 -0.023479 -0.0080863 0.31917 0.16148 0.0013438 -0.00021458
0.00087706 8.4911e-05 0.000271 0.00045297
-0.0010849 -0.0018869 -0.00093793 0.0014948 0.0013573 -0.0002344 0.10892 0.25726
0.00033623 -0.016928 0.00054419 -5.2051e-05
-0.00051961 0.0030933 0.0015661 0.0014278 0.00090253 7.7498e-05 0.00027658 -0.016997
0.036286 0.22465 0.0028867 -0.014304
0.0025181 0.0010458 0.00054308 0.0019997 0.00027051 0.00046668 0.00051591 7.1605e-05
0.0029398 -0.014333 0.036119 0.32295
1340000000 0.22197 0.2328 -0.017696 -0.018724 0.00071485 0.0042517 -0.0018372 -0.00066905
0.0014549 0.0025156 0.0015009 -0.0015098
-0.017667 -0.01872 0.04552 0.37194 -0.021182 0.0042454 -4.3843e-05 0.0019156
0.0016372 0.00063964 0.0013579 0.0007961
0.00073642 0.0042946 -0.021196 0.004354 0.34096 0.11354 0.00088302 -0.00083358
0.00048401 -0.00037662 0.00020321 0.00029191
-0.0018717 -0.00069699 -4.9244e-05 0.001894 0.00085312 -0.00083751 0.14153 0.23687
-0.0075915 -0.013933 0.0014469 -0.00011668
0.0014874 0.0025542 0.0016293 0.00061701 0.00049295 -0.00037029 -0.0076978 -0.013948
0.067229 0.2194 -0.0034459 -0.012741
0.0016105 -0.0015235 0.0013253 0.00083096 0.00017432 0.00025003 0.001435 -0.00015531
-0.0033948 -0.012811 0.075313 0.31855
1400000000 0.2543 0.19383 -0.023276 -0.0073406 0.0049469 0.0031045 -0.0019602 0.00074002
0.0024732 0.00059192 0.00012672 -0.0012825
-0.023241 -0.0073519 0.082285 0.35849 -0.014482 0.012136 0.001299 0.0012287
0.00091384 -0.00079649 0.0011302 0.00031877
0.0049469 0.0030881 -0.014442 0.012213 0.35401 0.059772 0.0001117 -0.0013333
6.1912e-05 -0.000341 0.00035438 0.00024458
-0.001974 0.00072175 0.0012983 0.0012172 0.00011072 -0.0013441 0.17108 0.20845
-0.012501 -0.007956 -0.00051725 -0.00091053
0.0024729 0.00059535 0.00087468 -0.00077812 2.9081e-05 -0.00032048 -0.012587 -0.0078948
0.1007 0.21382 -0.0096033 -0.0083266
0.00013201 -0.0012887 0.0011595 0.00026442 0.00036309 0.00021446 -0.00057394 -0.00094189
-0.0095991 -0.0083757 0.12024 0.30764
1460000000 0.27639 0.14944 -0.020332 0.0046521 0.005399 -0.0017175 -0.0014731 0.0017097
0.0018897 -0.00076204 -0.00035341 -0.00083595
-0.020319 0.0046254 0.11605 0.33652 -0.0060631 0.014854 0.0016706 0.0001552
0.00083582 -0.0010466 0.0011527 -0.00069205
0.0053913 -0.0017304 -0.0060014 0.01489 0.35971 0.0051866 -0.0010711 -0.0011412
0.00020428 -0.00013307 0.00071127 -0.00039549
-0.0014558 0.0017088 0.0016719 0.00014007 -0.0010708 -0.0011536 0.19774 0.17941
-0.01285 -0.0025076 -0.0011891 0.0014018
0.001902 -0.0008172 0.00082702 -0.0010314 0.00024333 -9.6702e-05 -0.012941 -0.0024107
0.13046 0.19845 -0.011028 -0.0029616
-0.00033309 -0.00081946 0.0011534 -0.00065646 0.0006948 -0.00038771 -0.0011782 0.0013607
-0.011104 -0.0030237 0.15363 0.28621
1520000000 0.28786 0.10761 -0.014715 0.01028 0.0030394 -0.003965 0.00014941 0.0025259
0.0016353 -0.0017117 -0.0010634 -0.00012608
-0.014712 0.010264 0.14919 0.32168 0.0012947 0.012816 0.0015573 -0.00078259
0.00011286 -0.0009058 0.00025292 -0.0010384
0.0030247 -0.0039736 0.0013738 0.012821 0.35242 -0.051194 -0.00089085 -0.00033934
0.00051487 -0.00075443 -6.5786e-06 -3.6813e-05
0.00016333 0.0025241 0.0015705 -0.00077903 -0.00088412 -0.00036284 0.22151 0.14136
-0.012234 0.0018989 0.00092895 0.0016683
0.0016136 -0.0017568 8.8229e-05 -0.00089878 0.00051794 -0.00075577 -0.012273 0.0020743
0.15831 0.18293 -0.011071 0.0012995
-0.0010853 -0.00012272 0.00024383 -0.0010167 -4.1811e-05 -3.0329e-05 0.00094249 0.001697
-0.011121 0.001301 0.1873 0.2658
1580000000 0.29655 0.061259 -0.0081385 0.013336 -0.00097077 -0.0046149 0.0013489 0.0017839
-0.00058946 -0.0019536 -0.00029903 0.00036525
-0.008138 0.013336 0.17614 0.29696 0.0048983 0.008161 0.00042286 -0.0015243
-0.00035786 -0.0010263 -0.00031277 -0.00086534
-0.00099327 -0.0046066 0.004949 0.008137 0.3321 -0.10889 -0.0014686 0.0004261
-0.00024749 -0.0011202 0.00017587 -0.00051359
0.0013584 0.0017944 0.00042631 -0.0015338 -0.001461 0.00042384 0.23617 0.10147
-0.0096192 0.0056689 0.0017491 0.00069805
-0.00056028 -0.0019829 -0.00035107 -0.0010126 -0.00027923 -0.0011584 -0.0095673 0.0058428
0.18242 0.1639 -0.0089555 0.0066528
-0.00032149 0.00035546 -0.00034639 -0.00085359 0.00012615 -0.00054075 0.0017459 0.00070722
-0.0090164 0.0066424 0.21941 0.23891
1640000000 0.29796 0.019847 -0.0014855 0.012329 -0.0026124 -0.0024673 0.0025482 0.00098157
-0.00082364 -0.0010349 -0.00033273 0.00064786
-0.0014987 0.012315 0.20537 0.27191 0.0055885 0.0036469 -0.00071501 -0.0015785
-0.00095028 -0.00047702 -0.00054428 -0.00062105
-0.0026516 -0.0024272 0.0056158 0.003621 0.30322 -0.1575 -0.00086399 0.0012567
-0.0009876 -0.00078812 -7.9767e-05 -0.00031052
0.0025626 0.00098898 -0.00071264 -0.0015953 -0.00082637 0.0012433 0.24874 0.051822
-0.006335 0.0064698 0.0020614 -0.00065054
-0.00083894 -0.0010435 -0.00093322 -0.00047555 -0.0009544 -0.00078299 -0.0061953 0.0066089
0.20511 0.13833 -0.0045876 0.0087167
-0.00030102 0.00063784 -0.0005497 -0.00058836 -5.9794e-05 -0.00027731 0.0020773 -0.00060696
-0.0046578 0.0087358 0.24541 0.20754
1700000000 0.2901 -0.025537 0.0020196 0.0096227 -0.0033963 0.00016793 0.0029286 -0.0010681
-0.0016963 -0.00027546 0.00055498 0.00038727
0.0019972 0.0096274 0.22326 0.24038 0.0037775 0.00080625 -0.0013565 -0.00051178
-0.00081302 1.0749e-05 -0.00088834 -0.00039867
-0.0033974 0.00019324 0.0037898 0.00077514 0.25998 -0.19727 0.00033188 0.0016168
-0.0017269 -0.00030054 -0.00050748 -0.00086085
0.0029279 -0.0010847 -0.0013631 -0.00050495 0.00031799 0.0016057 0.24538 0.00078895
-0.0046379 0.0069744 0.0012339 -0.0019075
-0.0016898 -0.00026529 -0.00082744 7.3598e-06 -0.0017372 -0.00029002 -0.004479 0.0070112
0.22217 0.11659 -0.00010548 0.0091006
0.00051927 0.00036789 -0.00089929 -0.00039403 -0.00049135 -0.00082431 0.0012062 -0.0019218
-0.00014683 0.0091892 0.26178 0.17269
1760000000 0.27695 -0.073806 0.0043319 0.006385 -0.0021015 0.00071474 0.0013164 -0.0032609
-0.0009104 0.00069856 0.00042159 -0.00032115
0.0043189 0.0063797 0.24894 0.20044 0.0016581 -0.0010519 -0.0010891 0.00021521
-0.001151 0.0008632 -0.00059811 0.00055188
-0.0021092 0.00071854 0.0016527 -0.0010648 0.2111 -0.23068 0.00098606 0.00132
-0.0010783 0.0012459 -0.0014408 -0.00046624
0.0013003 -0.0032396 -0.0010938 0.0002293 0.0010152 0.0012765 0.23512 -0.051472
-0.0022853 0.006653 -0.0004875 -0.0020743
-0.00094804 0.00070461 -0.0011614 0.00086403 -0.0010663 0.0012442 -0.0021305 0.0066123
0.23673 0.079906 0.0035111 0.0065095
0.00042686 -0.00036701 -0.00055877 0.00055095 -0.0014105 -0.00044493 -0.00051138 -0.0021283
0.0035162 0.0065552 0.27428 0.13474
1820000000 0.25163 -0.11068 0.0046697 0.0028145 2.8929e-05 0.0024295 -0.0008812 -0.0030109
-0.00076277 0.00058176 8.6927e-05 -0.00011964
0.0046628 0.0028067 0.25863 0.17042 -0.00019098 0.00026684 -0.0013186 0.00083314
-0.00012002 0.0013951 -0.00049846 0.00052673
5.6839e-05 0.0023798 -0.0001696 0.00026376 0.16075 -0.2455 0.0015311 0.00046569
-0.00042547 0.0021773 -0.0013817 0.00048467
-0.00091413 -0.0030243 -0.0012995 0.00082959 0.0015911 0.00048099 0.20391 -0.098844
-0.0012277 0.0056374 -0.001456 -0.0012416
-0.00073935 0.00058479 -0.00011577 0.0014277 -0.0004349 0.0022423 -0.0011166 0.0055484
0.25253 0.048899 0.0045147 0.0032962
7.415e-05 -0.00012684 -0.00049381 0.00053844 -0.0014161 0.00046432 -0.0014668 -0.00126
0.0045258 0.0033461 0.27639 0.098495
1880000000 0.2159 -0.15018 0.002516 0.00047407 -0.00035999 0.0021739 -0.0028338 -0.0021855
-0.00029438 0.0013068 0.00042993 -0.00060794
0.0025239 0.00048405 0.26282 0.12397 -0.0021506 0.0017746 -0.00021132 0.0016512
0.00067142 0.0013648 0.00017403 0.00096629
-0.0003385 0.0021936 -0.0021553 0.0017879 0.10845 -0.2554 0.0019304 -0.0011429
0.0013802 0.0019728 -0.0010166 0.001465
-0.0028373 -0.0022197 -0.00017554 0.0016437 0.0019632 -0.0010544 0.16209 -0.13798
-0.0010909 0.0046708 -0.0021748 0.00086207
-0.00028058 0.0013314 0.00069468 0.0013804 0.0014332 0.0019821 -0.0010619 0.0045931
0.25362 0.014242 0.0041464 0.0014787
0.00042357 -0.00063792 0.00021829 0.00096315 -0.00092467 0.0014801 -0.0021911 0.0008959
0.0041372 0.0015127 0.2762 0.064297
1940000000 0.1766 -0.1752 0.0003922 -0.0013121 0.0013735 0.0017285 -0.0037689 0.00046732
0.0010479 0.0010051 -0.00070165 -0.00070164
0.00038781 -0.001299 0.2631 0.092253 -0.00088256 0.0039604 0.00095227 0.0012779
0.0020144 0.00052765 0.00087205 0.00023082
0.001386 0.0017488 -0.00087811 0.003957 0.062719 -0.24857 0.0004495 -0.0023897
0.0025001 0.0005498 0.00044179 0.0017374
-0.0037542 0.00049792 0.00096579 0.001291 0.0004324 -0.0023424 0.10891 -0.16736
-0.0018784 0.004194 -0.0010702 0.001901
0.0010691 0.00097995 0.0020513 0.00048795 0.0025756 0.00054147 -0.0019328 0.0040898
0.25293 -0.026309 0.0030642 -0.0015903
-0.00066942 -0.00065711 0.00086283 0.00023212 0.00046934 0.0018203 -0.0010168 0.0017985
0.0030863 -0.00154 0.2649 0.028307
2000000000 0.13027 -0.18921 -0.0033519 0.00045313 0.0024557 0.0014482 -0.0022115 0.0035914
0.00093558 0.00046124 -0.00075374 0.00034231
-0.0033375 0.00045895 0.24872 0.056815 -0.00066736 0.0055396 0.0016111 0.00035377
0.0015168 -0.0015115 0.00059318 4.1578e-05
0.002445 0.0014371 -0.00063369 0.0055433 0.019407 -0.23421 -0.0015254 -0.0013949
0.0020796 -0.0011659 0.0016333 0.0012278
-0.0022303 0.0036256 0.0016032 0.00032307 -0.0015612 -0.0013893 0.055861 -0.17583
-0.0031565 0.0050463 0.00019489 0.0020121
0.00096609 0.00039527 0.0015596 -0.0015506 0.0020444 -0.0012042 -0.0032427 0.0050291
