!Keysight Technologies,M9804A,MY58100912,A.14.10.03
!Date: Thursday, April 27, 2023 10:28:33
!Correction: S11(C  6-Port  ) 
!S12(C  6-Port  ) 
!S13(C  6-Port  ) 
!S14(C  6-Port  ) 
!S15(C  6-Port  ) 
!S16(C  6-Port  ) 
!S21(C  6-Port  ) 
!S22(C  6-Port  ) 
!S23(C  6-Port  ) 
!S24(C  6-Port  ) 
!S25(C  6-Port  ) 
!S26(C  6-Port  ) 
!S31(C  6-Port  ) 
!S32(C  6-Port  ) 
!S33(C  6-Port  ) 
!S34(C  6-Port  ) 
!S35(C  6-Port  ) 
!S36(C  6-Port  ) 
!S41(C  6-Port  ) 
!S42(C  6-Port  ) 
!S43(C  6-Port  ) 
!S44(C  6-Port  ) 
!S45(C  6-Port  ) 
!S46(C  6-Port  ) 
!S51(C  6-Port  ) 
!S52(C  6-Port  ) 
!S53(C  6-Port  ) 
!S54(C  6-Port  ) 
!S55(C  6-Port  ) 
!S56(C  6-Port  ) 
!S61(C  6-Port  ) 
!S62(C  6-Port  ) 
!S63(C  6-Port  ) 
!S64(C  6-Port  ) 
!S65(C  6-Port  ) 
!S66(C  6-Port  ) 
!S6P File: Measurement: :
# Hz S  RI   R 50
500000000 -0.33602 -0.032795 -0.0095124 -0.0037271 -0.0074599 0.011702 -0.0038123 0.011204
0.012307 0.0045508 -0.0040604 0.0074019
-0.0093321 -0.0034247 -0.41916 -0.048009 0.0077019 -0.011458 0.0017172 0.011695
0.0072005 0.0024816 0.00086157 0.013075
-0.0077176 0.011615 0.0076817 -0.011785 -0.26369 0.21145 0.0071709 0.0032019
-0.00015521 0.0081641 0.00074064 0.01201
-0.0037321 0.011598 0.0014616 0.012166 0.0071045 0.0032381 -0.32605 0.049603
-0.018663 -0.0048945 0.018288 0.026231
0.012234 0.0044483 0.0072806 0.0023636 0.00035144 0.0082843 -0.01865 -0.004887
-0.22795 -0.17788 -0.027089 0.0050929
-0.0039633 0.0080396 0.0004909 0.013456 0.00073611 0.012231 0.018278 0.026254
-0.027134 0.0050472 -0.27131 -0.1297
560000000 -0.31425 0.12556 -0.023954 -0.06261 -5.5498e-05 0.012325 0.006889 0.0096248
0.011101 0.0037097 0.0092743 0.0080732
-0.024405 -0.062988 -0.37512 0.1091 -0.042099 -0.036857 0.013906 0.0035959
-0.012845 -0.0040196 0.0045401 -0.00056581
0.00051601 0.0122 -0.042025 -0.036784 -0.18191 0.25801 -0.00061717 -0.0045875
0.018453 0.0038275 0.0076909 -0.0064483
0.0066865 0.0095591 0.013837 0.0035665 -0.0010986 -0.0044772 -0.30114 0.13549
0.0044298 -0.025465 0.0053194 -0.019405
0.010737 0.0039766 -0.013148 -0.0040341 0.018436 0.0030403 0.0043967 -0.025516
-0.28601 -0.0046129 0.0078388 -0.05166
0.009907 0.0073408 0.0045615 -0.00071883 0.0075314 -0.0062142 0.0052884 -0.019407
0.0079576 -0.051623 -0.33265 0.019868
620000000 -0.27224 0.11053 -0.023192 0.0067002 0.0032418 0.0082227 0.0066319 -0.005791
0.01122 -0.00055618 -0.00053771 -0.0024369
-0.023215 0.0068124 -0.40201 0.063538 -0.019105 -0.00054693 -0.001485 -0.0022256
0.010031 -0.0072315 0.00060583 -0.0028177
0.0033175 0.0082961 -0.01912 -0.00055757 -0.15263 0.26705 -0.0017812 -0.0053495
-0.0041405 -0.0032133 0.0080883 -0.0033704
0.006829 -0.0056413 -0.0014857 -0.0022661 -0.0017136 -0.0055232 -0.26053 0.1468
-0.037911 -0.019241 0.013985 0.024294
0.010706 -0.00086918 0.010002 -0.0073922 -0.0044019 -0.0030232 -0.037959 -0.019223
-0.20616 -0.044135 -0.039433 0.014462
-0.00043294 -0.0019023 0.00065204 -0.0029657 0.0082371 -0.0036193 0.013966 0.024262
-0.039367 0.014471 -0.25069 -0.018806
680000000 -0.23178 0.19383 -0.027975 -0.014109 0.0048584 0.0050975 0.0010028 -0.0075275
-0.0035181 -0.010872 0.0042793 -0.0070651
-0.027961 -0.014171 -0.38649 0.15983 -0.033193 -0.0011816 -0.0016312 -0.0002589
-0.0030339 -0.0089291 -0.0015015 -0.0022381
0.0048497 0.0051419 -0.033213 -0.0011482 -0.10239 0.28714 -0.00064895 0.00037869
-0.0024302 0.0008431 -0.0030966 -0.0094204
0.00088594 -0.0076549 -0.001702 -0.000269 -0.00068256 0.00042252 -0.21847 0.19504
-0.023902 -0.0088818 -0.010716 -0.010477
-0.0035998 -0.010919 -0.0030577 -0.0089505 -0.0024993 0.00077007 -0.023926 -0.0088577
-0.24987 0.052298 -0.0052423 -0.0099601
0.0046293 -0.0067575 -0.0013993 -0.0022856 -0.003252 -0.009466 -0.010729 -0.010464
-0.0052302 -0.009928 -0.26213 0.085887
740000000 -0.1888 0.1888 -0.038666 0.026095 0.012538 -0.0050719 -0.00075378 -0.0038441
-0.0049044 -0.0027359 -0.0062118 0.0037468
-0.038533 0.026044 -0.33541 0.17879 -0.035142 0.034934 -0.0011931 -0.0061293
-0.010715 0.0081846 -0.0033049 -0.0065006
0.012608 -0.0051612 -0.035012 0.035 -0.068965 0.28676 -0.0012495 0.0033105
-0.0026036 -0.0033879 -0.00097342 0.00014012
-0.00084038 -0.0040037 -0.0012031 -0.0059309 -0.0013513 0.0033394 -0.20218 0.20299
-0.042652 -0.0080053 0.021786 0.012716
-0.0049772 -0.0024383 -0.01084 0.0081085 -0.0026125 -0.0033945 -0.042693 -0.0079882
-0.15714 0.07361 -0.04168 0.00094493
-0.0061367 0.0035611 -0.0035356 -0.0064542 -0.0011084 1.2709e-05 0.021808 0.012678
-0.041792 0.0009583 -0.25427 0.091496
800000000 -0.15716 0.22883 -0.022687 0.017285 0.005182 -0.010453 -0.004842 -0.0018854
-0.0038276 0.0032372 0.0043877 0.0010784
-0.022636 0.017233 -0.33755 0.24921 -0.0079022 0.034424 -0.0020468 0.0023366
-0.00041019 0.0037126 0.0011072 0.0053954
0.005162 -0.010465 -0.0078047 0.03446 -0.02772 0.31005 0.0012976 0.0014249
0.00071115 0.0036684 -0.0018496 0.0011286
-0.0048542 -0.0020656 -0.001982 0.002289 0.0013556 0.0013767 -0.17429 0.23064
-0.028971 0.012714 0.013453 -0.0098862
-0.0039005 0.0032076 -0.00040555 0.003718 0.0006956 0.0035844 -0.028955 0.012768
-0.19882 0.099592 -0.018333 0.017682
0.0046139 0.0007331 0.0012715 0.0055426 -0.001655 0.0011398 0.01346 -0.009903
-0.018363 0.017619 -0.24603 0.14621
860000000 -0.12222 0.25051 -0.017324 0.031526 -0.0035111 -0.0097507 -0.0026005 0.0016106
0.0044424 0.0052102 -0.0031404 -0.0029222
-0.017263 0.03159 -0.28951 0.29143 0.0083935 0.034454 0.00038346 0.0020603
0.0047027 0.00026182 0.0031534 6.4916e-05
-0.0035493 -0.0097047 0.0085191 0.034453 0.02116 0.31816 -0.00032697 -0.00040819
0.0028775 -0.0015897 0.0016412 0.0045969
-0.0025271 0.0014738 0.00032476 0.0020988 -0.00035711 -0.00037966 -0.139 0.24336
-0.018383 0.019512 -0.0061802 -0.0094423
0.0046037 0.0051325 0.0047949 0.0001931 0.0028044 -0.0016062 -0.018355 0.019564
-0.1507 0.14764 -0.025066 0.015259
-0.0028963 -0.0027447 0.0032226 0.0001647 0.0016438 0.0046744 -0.0061985 -0.0094281
-0.025001 0.015255 -0.19532 0.1904
920000000 -0.096669 0.27365 0.0051582 0.038106 -0.0094161 -0.0040977 -0.0016385 0.0024948
0.0014661 0.0015929 0.0024133 -0.0013178
0.0050943 0.038125 -0.26032 0.31227 0.02831 0.02186 0.0016668 0.0011378
0.0067298 -0.00094319 0.0037093 -0.0029672
-0.0094496 -0.0040489 0.028361 0.021796 0.067956 0.3184 0.0017173 -8.5409e-05
0.0013057 -0.00050145 0.0008864 -0.0010548
-0.0016831 0.0024762 0.0016112 0.0011299 0.0017199 -6.9164e-05 -0.11438 0.26007
-0.010551 0.030352 0.0025613 -0.0064203
0.0013903 0.0015289 0.0067501 -0.00098703 0.0012635 -0.00051513 -0.010506 0.030391
-0.1404 0.15397 -0.0017287 0.027642
0.0023173 -0.0015759 0.0035513 -0.0030235 0.00089485 -0.0010117 0.0025303 -0.0064157
-0.0017372 0.027654 -0.20328 0.20405
980000000 -0.048824 0.29312 0.018133 0.030183 -0.0087301 0.0048801 0.0026083 0.0037488
0.0039302 -0.0018385 -0.0031526 -0.0020508
0.018105 0.030141 -0.20729 0.34589 0.033142 0.0044507 0.0020084 -0.00016646
0.00090538 -0.0061658 -0.00070558 -0.0022555
-0.0087287 0.0048781 0.033204 0.0043148 0.11456 0.31131 0.00043118 -0.0012104
-3.6693e-06 -0.0021318 0.0016801 -9.293e-05
0.0026293 0.003742 0.0019998 -0.00016998 0.00045282 -0.0011735 -0.075668 0.27168
0.0077235 0.02929 -0.0095219 -0.0065941
0.0039477 -0.0017589 0.00086405 -0.0062187 1.8631e-06 -0.0021285 0.0077818 0.029298
-0.10831 0.18115 0.0048811 0.018905
-0.00308 -0.0020067 -0.00070618 -0.0022139 0.0016301 -5.4388e-05 -0.0095369 -0.0065914
0.0048697 0.018884 -0.16015 0.24973
1040000000 -0.0055565 0.30091 0.033672 0.017686 -0.00088189 0.0069784 0.0029064 0.00054515
-0.00014066 -0.0037511 -0.00067463 -0.0014568
0.033611 0.017714 -0.1712 0.35884 0.029179 -0.015124 0.0013835 -0.0017336
-0.0027312 -0.0022662 -0.0016435 -0.0027024
-0.00087173 0.0069799 0.02914 -0.015291 0.1609 0.29708 -0.00054595 -0.0014153
-0.001483 -0.00084521 -0.00042304 -0.0012426
0.002918 0.00050194 0.0013778 -0.0017338 -0.00054872 -0.0013851 -0.047626 0.28176
0.018777 0.017402 -0.003052 0.0024626
-0.00014563 -0.0037115 -0.0027423 -0.0022729 -0.0015096 -0.00081103 0.018806 0.017381
-0.077264 0.19 0.013513 0.018253
-0.0007215 -0.0013435 -0.001511 -0.0026194 -0.00043501 -0.0012689 -0.0030424 0.0024714
0.013464 0.018258 -0.13949 0.27178
1100000000 0.040197 0.30785 0.035947 -0.0046715 0.0031939 0.0036951 0.0025134 -0.0015972
-0.0021149 -0.0030399 -0.0039336 0.00021023
0.035939 -0.0046383 -0.12746 0.37572 0.01476 -0.027854 -3.21e-05 -0.0018324
-0.0030469 -0.00028339 -0.0033844 -0.0005407
0.0032184 0.0037112 0.014682 -0.02796 0.20721 0.27626 -0.0017743 0.00030063
-0.0016801 0.00061009 -0.00092981 -0.00047832
0.0024758 -0.0016755 -3.4573e-05 -0.0018249 -0.0018082 0.00028598 -0.0064962 0.28655
0.023199 0.0049609 -0.0021409 0.0012322
-0.0021441 -0.0029828 -0.0030678 -0.00027958 -0.0016791 0.00060377 0.023209 0.0049324
-0.058668 0.2035 0.019043 0.0086153
-0.0038291 8.6403e-05 -0.0034325 -0.00043718 -0.0009286 -0.00049464 -0.0021276 0.0012339
0.019035 0.0086377 -0.092182 0.30112
1160000000 0.091935 0.30215 0.023845 -0.021139 0.0028838 -0.00073335 -0.00030086 -0.0025939
-0.0040593 -0.00032458 -0.00090642 0.0039365
0.023864 -0.021147 -0.083148 0.37951 -0.0040385 -0.028857 -0.0018032 -0.0015779
-0.0022135 0.0025434 -0.001299 0.0016545
0.0028711 -0.00072601 -0.004199 -0.028874 0.25014 0.24488 -0.00057199 0.0017196
-0.00039888 0.0016655 -0.0011439 6.8654e-05
-0.00032051 -0.0025663 -0.0018047 -0.0015504 -0.00056375 0.0017393 0.03345 0.28304
0.019613 -0.010022 -0.0024267 0.0055479
-0.0040197 -0.00031168 -0.0022239 0.0025815 -0.00039561 0.0016793 0.019601 -0.010046
-0.024801 0.21266 0.01766 0.00047814
-0.00099723 0.0040173 -0.0013493 0.0016467 -0.0011834 4.5981e-05 -0.0024184 0.0055582
0.017656 0.00049265 -0.044768 0.304
1220000000 0.1364 0.28985 0.010169 -0.030218 -0.001542 -0.0011 -0.00030257 -0.0010361
-0.0025018 0.0025367 0.0012864 0.0019268
0.010182 -0.030173 -0.038741 0.39061 -0.016975 -0.020721 -0.0024761 0.00054731
0.0003062 0.0027132 -0.00073631 0.001795
-0.0015458 -0.0010974 -0.017091 -0.020673 0.28899 0.20543 0.00089164 0.0014914
0.00050405 0.0011041 0.00014758 0.00081359
-0.00029347 -0.0010308 -0.0024483 0.00055188 0.00087327 0.0014775 0.073226 0.27379
0.0093276 -0.015844 0.0029398 0.0015909
-0.0024797 0.0025517 0.0003176 0.0027 0.00050845 0.0011467 0.0093081 -0.015859
-0.00026805 0.22197 0.013617 -0.012449
0.0013549 0.0018881 -0.00067612 0.0018405 0.00014097 0.00079273 0.0029428 0.0015874
0.013617 -0.012451 -0.01341 0.32151
1280000000 0.18577 0.26691 -0.0081128 -0.028468 -0.0019097 0.0022948 -0.0011447 -0.001816
-0.0005398 0.0030133 0.0026039 0.00094096
-0.0080815 -0.02843 0.0071685 0.38094 -0.023441 -0.0081439 -0.00092742 0.001481
0.0015324 0.0014915 0.00050925 0.0019274
-0.00191 0.0023079 -0.023507 -0.0080433 0.31936 0.16121 0.0013104 -0.00023895
0.0009335 0.00017646 0.00025766 0.00043564
-0.0011511 -0.0017953 -0.00090166 0.0014901 0.0013081 -0.00023685 0.10952 0.25695
0.00043218 -0.017466 0.00062659 -0.00012656
-0.00053076 0.0030652 0.0015833 0.001497 0.00094423 0.00018666 0.00039859 -0.017468
0.03751 0.22517 0.0029737 -0.01444
0.002561 0.0009087 0.00049632 0.0019388 0.00024453 0.00049814 0.00061419 -0.0001397
0.0029767 -0.014435 0.034722 0.32318
1340000000 0.22247 0.23223 -0.017852 -0.018891 0.00070055 0.0042523 -0.0018323 -0.00064491
0.0014516 0.0025273 0.0015696 -0.0015382
-0.01783 -0.018893 0.046403 0.37186 -0.021178 0.004324 -2.6586e-05 0.0018635
0.0015864 0.00063413 0.0013018 0.00079044
0.00069606 0.0042639 -0.021173 0.0044365 0.34121 0.11316 0.00089377 -0.00084827
0.00060533 -0.00038988 0.00029222 0.00027481
-0.0017921 -0.00062278 -2.5988e-05 0.0018512 0.00087451 -0.00083519 0.1419 0.23638
-0.0078521 -0.014441 0.0012664 -0.00024507
0.0015069 0.0025376 0.0015813 0.00061391 0.00061033 -0.00038196 -0.007881 -0.014433
0.068601 0.21954 -0.0033795 -0.013069
0.001564 -0.0015746 0.0013149 0.00077029 0.00025797 0.00027817 0.0012693 -0.00025647
-0.0033841 -0.01307 0.073837 0.31881
1400000000 0.25463 0.19328 -0.023536 -0.0073843 0.0048094 0.0030359 -0.0019393 0.00070632
0.0024235 0.00061853 8.4919e-05 -0.0013208
-0.023496 -0.007397 0.082992 0.35822 -0.01452 0.012177 0.0012817 0.0012068
0.00091404 -0.00077514 0.0011714 0.0002294
0.0048306 0.003029 -0.014469 0.012268 0.35399 0.059342 7.625e-05 -0.0013573
0.00011978 -0.0003968 0.00034084 0.00028024
-0.001942 0.00071178 0.0012959 0.0012019 8.299e-05 -0.0013475 0.17131 0.20782
-0.012769 -0.0082279 -0.00063125 -0.00097597
0.0024394 0.00059777 0.00091403 -0.00079856 0.0001171 -0.0003894 -0.012797 -0.0082096
0.10188 0.21356 -0.0094822 -0.0081142
7.7387e-05 -0.0013243 0.0011866 0.00025118 0.00035457 0.00030378 -0.00063296 -0.00096375
-0.0094839 -0.0081213 0.11938 0.30791
1460000000 0.27668 0.14881 -0.020542 0.0047562 0.0052732 -0.0016198 -0.001507 0.0016104
0.0018712 -0.0008175 -0.0003043 -0.00075589
-0.020541 0.0047449 0.1166 0.33607 -0.006117 0.014856 0.0016551 0.00013157
0.00080523 -0.0010895 0.0011546 -0.00064774
0.0052426 -0.001613 -0.0060365 0.014902 0.35972 0.0046058 -0.0010136 -0.0011899
0.00028257 -0.00019387 0.00066081 -0.00044582
-0.0014796 0.0016509 0.0016349 0.00013003 -0.0010032 -0.0012183 0.19774 0.17883
-0.013406 -0.002601 -0.0012203 0.0014123
0.0018906 -0.00082517 0.00081011 -0.0010771 0.00024249 -0.00018236 -0.01342 -0.0025798
0.13161 0.1975 -0.011198 -0.0028583
-0.00038375 -0.00073455 0.0011319 -0.00066268 0.00076492 -0.00042978 -0.0012377 0.0014165
-0.011195 -0.0028625 0.1529 0.28674
1520000000 0.28792 0.10694 -0.014843 0.010474 0.0030354 -0.0038897 0.00013512 0.0024909
0.0016782 -0.0017341 -0.0011045 -9.6289e-05
-0.014857 0.010441 0.14955 0.32115 0.001286 0.012828 0.0015465 -0.000768
0.00013542 -0.00090496 0.00024115 -0.001049
0.0030258 -0.0039007 0.0013578 0.012834 0.35235 -0.051677 -0.00090963 -0.00038988
0.00051181 -0.00077329 -2.5297e-05 -7.4637e-05
0.0001458 0.0024905 0.0015324 -0.00078049 -0.00090825 -0.00037834 0.22121 0.14077
-0.012744 0.0021696 0.0009428 0.0016611
0.001703 -0.0017251 0.00012825 -0.00089596 0.00050533 -0.00077075 -0.012742 0.0022156
0.15925 0.18193 -0.011285 0.0013348
-0.0011309 -0.00012689 0.00023238 -0.0010695 -3.1731e-05 -7.1431e-05 0.00095147 0.0016601
-0.011282 0.0013162 0.18663 0.26631
1580000000 0.29639 0.060667 -0.0081521 0.013566 -0.00087967 -0.0045699 0.001321 0.0017651
-0.00057679 -0.0020211 -0.00025891 0.00043615
-0.0081548 0.013532 0.17631 0.29643 0.0048754 0.0081701 0.00046031 -0.0015656
-0.00037802 -0.0010462 -0.00029874 -0.00083977
-0.00091398 -0.0045617 0.004917 0.0081549 0.33172 -0.10912 -0.0014913 0.00044793
-0.00025793 -0.0010847 0.00015553 -0.00060677
0.0013423 0.0017449 0.0004609 -0.0015549 -0.0014946 0.00044884 0.2357 0.10119
-0.0098542 0.0061685 0.0016286 0.0006703
-0.00057733 -0.0020228 -0.00038443 -0.0010567 -0.0002647 -0.0010868 -0.0098471 0.0061955
0.18308 0.16297 -0.009077 0.0065798
-0.00026237 0.00039957 -0.00026632 -0.00084631 0.00014226 -0.0005862 0.0016174 0.00066095
-0.0090777 0.0065656 0.21872 0.2395
1640000000 0.29774 0.019327 -0.0014121 0.012497 -0.0025357 -0.0024581 0.0024804 0.0010161
-0.00082874 -0.0011212 -0.00030559 0.00073752
-0.0014263 0.012463 0.20544 0.27145 0.0055804 0.0035977 -0.00073178 -0.0016195
-0.00097074 -0.00045533 -0.0005624 -0.0005818
-0.002561 -0.0024964 0.0056013 0.003588 0.30309 -0.15795 -0.00089232 0.0013039
-0.0010314 -0.00076257 -0.00010456 -0.00029537
0.0024969 0.00098547 -0.00074845 -0.0016154 -0.00089493 0.0012833 0.24822 0.051627
-0.0063949 0.0069757 0.002014 -0.00059434
-0.00082007 -0.0010944 -0.00098857 -0.00044993 -0.0010077 -0.00077768 -0.0063797 0.0070043
0.2053 0.13743 -0.0044765 0.0087212
-0.00032307 0.00070714 -0.00058537 -0.00058358 -0.00010465 -0.00033118 0.0020182 -0.00061028
-0.0044651 0.0087198 0.2448 0.20808
1700000000 0.28982 -0.025748 0.002096 0.0097262 -0.0033497 8.2792e-05 0.0028676 -0.0010216
-0.0017917 -0.00031861 0.00057139 0.00035343
0.0020861 0.0097057 0.22319 0.24006 0.0037055 0.00079604 -0.0014049 -0.00055103
-0.00080822 -9.814e-07 -0.00092918 -0.00034732
-0.003364 0.0001335 0.0037155 0.00077473 0.2595 -0.19761 0.00031614 0.0016371
-0.001736 -0.00025073 -0.00062936 -0.00094022
0.0028656 -0.001056 -0.0013954 -0.00055068 0.00029171 0.0016213 0.24478 0.00098588
-0.0044317 0.0073632 0.0012758 -0.0018448
-0.0017967 -0.00030948 -0.00081879 9.7358e-06 -0.0017358 -0.00020017 -0.0044128 0.0073785
0.22227 0.11575 -0.0001044 0.0091846
0.00058511 0.00035919 -0.00091422 -0.00031825 -0.0005884 -0.00099647 0.0012825 -0.0018444
-0.00011112 0.0091854 0.26139 0.17333
1760000000 0.27686 -0.07408 0.004491 0.0064319 -0.0021857 0.00088232 0.001346 -0.0032118
-0.00099003 0.00075211 0.00031793 -0.00049784
0.0044709 0.0064148 0.2489 0.20032 0.0016599 -0.00086596 -0.0011152 0.00022339
-0.0011386 0.000908 -0.0005332 0.00054492
-0.0022287 0.000872 0.0016484 -0.00088149 0.21051 -0.2304 0.0011358 0.0013941
-0.0011489 0.0014451 -0.0013975 -0.00036984
0.0013628 -0.0032445 -0.0011002 0.00022924 0.0011702 0.001334 0.2348 -0.05102
-0.0019631 0.0069143 -0.00044002 -0.0019775
-0.00093801 0.00073115 -0.0011249 0.00093136 -0.0011147 0.001427 -0.0019445 0.0069241
0.23664 0.079311 0.0035674 0.0065451
0.00037638 -0.00050752 -0.00053085 0.00056546 -0.0013598 -0.00042728 -0.00044696 -0.0019807
0.0035641 0.006555 0.2738 0.13526
1820000000 0.25161 -0.11091 0.0047797 0.0028067 8.2822e-06 0.0024123 -0.00084586 -0.0030153
-0.00071692 0.00071689 3.6401e-05 -0.00011479
0.0047525 0.0028005 0.25859 0.17032 -0.00018161 0.00018634 -0.0012852 0.00087729
-8.642e-05 0.0014031 -0.00040601 0.00051281
1.5936e-05 0.002414 -0.00018029 0.00018734 0.16054 -0.24581 0.0015689 0.00053384
-0.00028989 0.0021387 -0.0014171 0.00061208
-0.00083324 -0.0030247 -0.0012878 0.00091216 0.0015687 0.0004734 0.20367 -0.098349
-0.00095621 0.0057662 -0.0015872 -0.0012972
-0.00074094 0.0007295 -6.5157e-05 0.0014231 -0.00030092 0.0021245 -0.00094794 0.0057739
0.25231 0.048271 0.004547 0.0032075
0.00010509 -6.9985e-05 -0.00039445 0.00051626 -0.0013826 0.00052043 -0.0015893 -0.0012982
0.0045232 0.0032076 0.27621 0.099098
1880000000 0.21597 -0.15041 0.0026485 0.00047066 -0.00023967 0.0020548 -0.0027739 -0.0022357
-0.00018476 0.001368 0.00037286 -0.00062814
0.0026762 0.00050103 0.2629 0.12408 -0.0020484 0.0017976 -0.00012202 0.0016446
0.00070229 0.0013452 0.00026167 0.00085765
-0.00022793 0.002098 -0.0020492 0.0018046 0.10866 -0.25523 0.0020359 -0.0011368
0.0015296 0.0019984 -0.0008471 0.0014499
-0.0027767 -0.0021957 -0.00014417 0.0016523 0.0020013 -0.0011072 0.16227 -0.1377
-0.00076405 0.0047272 -0.0022513 0.00080681
-0.0001702 0.0013894 0.00068445 0.0013286 0.0015045 0.0019931 -0.00074873 0.0047309
0.25335 0.013833 0.0040837 0.0014049
0.00040632 -0.00059014 0.00022694 0.00089025 -0.00086066 0.0014332 -0.0022456 0.00081266
0.004076 0.0013905 0.27608 0.064874
1940000000 0.17648 -0.17569 0.00047602 -0.0014143 0.0013524 0.0017694 -0.0038233 0.0004013
0.001181 0.00088358 -0.00060815 -0.00071636
0.00047525 -0.0013731 0.26333 0.092333 -0.00093668 0.0039144 0.00097747 0.0012575
0.0020127 0.00049617 0.00079067 0.00016288
0.0013624 0.0017626 -0.00091798 0.0039258 0.062506 -0.24889 0.00030215 -0.0024345
0.0024204 0.00048989 0.00031326 0.0015574
-0.0037491 0.0004626 0.00096383 0.0012399 0.00029348 -0.0024373 0.10934 -0.16709
-0.0017297 0.0041885 -0.0011596 0.0017763
0.0012175 0.00090942 0.0020267 0.00046288 0.0024409 0.00050992 -0.0017171 0.0041937
0.25262 -0.026684 0.0029446 -0.0017335
-0.00059798 -0.00065261 0.0007657 0.0001557 0.00027097 0.0015662 -0.0011674 0.0017812
0.0029556 -0.0017351 0.26504 0.028894
2000000000 0.13025 -0.18962 -0.0034078 0.00037233 0.0023835 0.0014136 -0.002369 0.0034941
0.00091185 0.00016882 -0.00073552 0.00038582
-0.0033986 0.00038496 0.24908 0.056833 -0.00073938 0.0055161 0.0015764 0.00019476
0.001509 -0.0015924 0.00045114 0.00010965
0.0024079 0.0014311 -0.00069248 0.0055215 0.018978 -0.23462 -0.001625 -0.0014009
0.0020299 -0.0012948 0.0015688 0.0012618
-0.0022979 0.0034897 0.0016229 0.00019665 -0.001593 -0.0013745 0.056264 -0.17605
-0.0027661 0.0048333 0.00026603 0.0022463
0.00096839 0.00019977 0.0015133 -0.0015785 0.0020413 -0.0012555 -0.0027624 0.004854
