!Keysight Technologies,M9804A,MY58100912,A.14.10.03
!Date: Thursday, April 27, 2023 10:28:33
!Correction: S11(C  6-Port  ) 
!S12(C  6-Port  ) 
!S13(C  6-Port  ) 
!S14(C  6-Port  ) 
!S15(C  6-Port  ) 
!S16(C  6-Port  ) 
!S21(C  6-Port  ) 
!S22(C  6-Port  ) 
!S23(C  6-Port  ) 
!S24(C  6-Port  ) 
!S25(C  6-Port  ) 
!S26(C  6-Port  ) 
!S31(C  6-Port  ) 
!S32(C  6-Port  ) 
!S33(C  6-Port  ) 
!S34(C  6-Port  ) 
!S35(C  6-Port  ) 
!S36(C  6-Port  ) 
!S41(C  6-Port  ) 
!S42(C  6-Port  ) 
!S43(C  6-Port  ) 
!S44(C  6-Port  ) 
!S45(C  6-Port  ) 
!S46(C  6-Port  ) 
!S51(C  6-Port  ) 
!S52(C  6-Port  ) 
!S53(C  6-Port  ) 
!S54(C  6-Port  ) 
!S55(C  6-Port  ) 
!S56(C  6-Port  ) 
!S61(C  6-Port  ) 
!S62(C  6-Port  ) 
!S63(C  6-Port  ) 
!S64(C  6-Port  ) 
!S65(C  6-Port  ) 
!S66(C  6-Port  ) 
!S6P File: Measurement: :
# Hz S  RI   R 50
500000000 -0.33593 -0.032866 -0.0090783 -0.0032102 -0.007568 0.011364 -0.0038067 0.011695
0.012212 0.0046241 -0.0037468 0.0081064
-0.0097118 -0.003729 -0.41885 -0.047976 0.0078971 -0.011607 0.0011507 0.011651
0.0075756 0.0023957 0.00075484 0.013082
-0.0080605 0.011847 0.0078334 -0.011743 -0.26316 0.21158 0.006905 0.0032904
0.00029091 0.0082366 0.00078082 0.012056
-0.0030647 0.010982 0.0014773 0.011456 0.0073304 0.0033219 -0.32651 0.04907
-0.018912 -0.0047241 0.017965 0.02607
0.011883 0.00435 0.0078932 0.0024879 -0.0011171 0.0075193 -0.018413 -0.0051783
-0.22799 -0.17874 -0.027324 0.0050188
-0.0036608 0.0073885 0.00062583 0.012828 0.0014618 0.011859 0.018503 0.025479
-0.027518 0.0048832 -0.27166 -0.12989
560000000 -0.31588 0.12643 -0.024191 -0.061874 0.00043069 0.011874 0.0063493 0.0094318
0.01083 0.00409 0.0094152 0.0074263
-0.023369 -0.062137 -0.37521 0.10936 -0.041994 -0.036648 0.013863 0.0034328
-0.012769 -0.0043696 0.0046621 -0.00038916
-0.00027263 0.012226 -0.042085 -0.036747 -0.18177 0.25808 -0.00056517 -0.0050622
0.018658 0.0039872 0.0073839 -0.0062603
0.0071087 0.010116 0.013952 0.0031729 -0.00090758 -0.0051929 -0.30116 0.13695
0.0044022 -0.025355 0.0052238 -0.01919
0.011493 0.0036043 -0.012415 -0.0034112 0.019376 0.004436 0.0050592 -0.024999
-0.28529 -0.0049242 0.0074851 -0.050864
0.01004 0.0069974 0.0041099 -0.00019368 0.006161 -0.0065231 0.0045667 -0.01935
0.0077405 -0.050834 -0.33355 0.018686
620000000 -0.27279 0.11019 -0.022979 0.0067384 0.0033736 0.0084123 0.0068481 -0.0058077
0.010938 -0.00070194 -0.0003052 -0.0020819
-0.022966 0.0068495 -0.40197 0.063517 -0.019126 -0.00058719 -0.0015915 -0.0021513
0.010078 -0.0072532 0.0009866 -0.0026453
0.0032159 0.0082278 -0.018983 -0.00063154 -0.15269 0.26731 -0.0018661 -0.0053632
-0.0039263 -0.0030897 0.0080185 -0.0036528
0.0064893 -0.0059774 -0.0013179 -0.0023942 -0.0017429 -0.0050253 -0.26058 0.14595
-0.038919 -0.018868 0.01436 0.023717
0.010852 0.00030334 0.010338 -0.007156 -0.0039888 -0.0033869 -0.03851 -0.018926
-0.20492 -0.044607 -0.041145 0.014906
-0.00016801 -0.0022101 0.00068307 -0.0030485 0.0080747 -0.0032764 0.013636 0.02375
-0.040961 0.01472 -0.25052 -0.020638
680000000 -0.23221 0.19436 -0.02804 -0.014095 0.0047717 0.0050977 0.00085465 -0.0077517
-0.0035568 -0.010951 0.0045703 -0.0066412
-0.028079 -0.014037 -0.38658 0.15993 -0.033142 -0.0011823 -0.0015537 -0.00042896
-0.0030259 -0.0088624 -0.0013578 -0.0019678
0.0050408 0.0053446 -0.033237 -0.00096061 -0.10221 0.28698 -0.0006816 0.00018613
-0.0025441 0.00086134 -0.0030892 -0.0096773
0.0007575 -0.0075302 -0.0017843 2.7258e-05 -0.00094832 0.00020283 -0.21807 0.1954
-0.023803 -0.0087418 -0.010208 -0.010282
-0.0038807 -0.010824 -0.003012 -0.009049 -0.0020416 0.00076326 -0.024204 -0.0088964
-0.25013 0.052266 -0.0054763 -0.010157
0.004578 -0.0059515 -0.00163 -0.001791 -0.0027434 -0.0095255 -0.010395 -0.010316
-0.0052232 -0.010213 -0.26111 0.086039
740000000 -0.18849 0.18944 -0.038844 0.02618 0.012805 -0.0054567 -0.00082816 -0.0042557
-0.0049634 -0.0024208 -0.0062131 0.0034494
-0.038859 0.025813 -0.3353 0.17866 -0.035479 0.035081 -0.00091437 -0.006061
-0.010844 0.0078343 -0.003132 -0.005985
0.012851 -0.0050995 -0.034914 0.034894 -0.069226 0.28659 -0.001295 0.0033846
-0.0024544 -0.0032557 -0.0010763 0.00011489
-0.001092 -0.0042434 -0.00094939 -0.0060461 -0.0013949 0.0036793 -0.20181 0.2029
-0.042369 -0.0083768 0.021941 0.012992
-0.0056286 -0.0021816 -0.011459 0.0077241 -0.0029697 -0.0044973 -0.042952 -0.0084293
-0.1571 0.07396 -0.041872 0.00039976
-0.006484 0.0033898 -0.0029322 -0.0061042 -0.0021809 0.00067198 0.02216 0.01369
-0.042 0.0007231 -0.25426 0.092259
800000000 -0.15728 0.22885 -0.02277 0.017285 0.0052147 -0.010472 -0.0048271 -0.0020374
-0.0040767 0.0031731 0.0045532 0.0010205
-0.022757 0.017024 -0.33753 0.24922 -0.0079913 0.034354 -0.0019609 0.00231
-0.0003283 0.0036673 0.001197 0.0053736
0.0050543 -0.010423 -0.0078795 0.034588 -0.027744 0.31006 0.0013764 0.0014255
0.00073038 0.0035657 -0.0018662 0.0010859
-0.0050857 -0.0017337 -0.0022075 0.0023269 0.0012831 0.0015004 -0.17436 0.2307
-0.028931 0.01251 0.013134 -0.0099764
-0.0041154 0.0030844 -0.00031343 0.0036811 0.0010173 0.0037405 -0.02891 0.012693
-0.19902 0.099348 -0.018109 0.017511
0.0042434 0.0014045 0.00092052 0.0058325 -0.0017923 0.001105 0.01315 -0.0097655
-0.01803 0.017442 -0.24639 0.14618
860000000 -0.12233 0.25063 -0.017315 0.031553 -0.0035269 -0.0097981 -0.0026595 0.0015827
0.0043542 0.0050734 -0.0029437 -0.0028832
-0.017392 0.031564 -0.28947 0.29136 0.0083634 0.034456 0.00016721 0.002059
0.0047507 8.6167e-05 0.0034093 0.00033144
-0.0035782 -0.0096184 0.0084412 0.034423 0.021093 0.31813 -0.00042577 -0.00043124
0.00282 -0.0015558 0.0015756 0.0046367
-0.002509 0.0013143 0.00047555 0.0020761 -0.00027866 -0.00048259 -0.13911 0.24315
-0.018514 0.019263 -0.006054 -0.0093388
0.0045989 0.0048006 0.0046347 0.00012522 0.0026261 -0.0017574 -0.018362 0.019267
-0.15106 0.14732 -0.024601 0.015603
-0.0033102 -0.0029899 0.0036247 0.0001677 0.0017487 0.0047415 -0.0060588 -0.0092638
-0.024538 0.015674 -0.19573 0.19023
920000000 -0.096833 0.27361 0.0051563 0.038175 -0.0093562 -0.0040457 -0.0016447 0.0024227
0.0014327 0.0015692 0.0025041 -0.0015114
0.0050648 0.038111 -0.2605 0.31222 0.028314 0.021818 0.0016184 0.0010964
0.0067916 -0.00083403 0.0037711 -0.0030233
-0.0094661 -0.0040193 0.028399 0.02182 0.067952 0.31838 0.0017256 -0.00014507
0.0013122 -0.00047071 0.00090393 -0.00095753
-0.0015924 0.0027749 0.0017007 0.0012178 0.0017082 -8.0381e-05 -0.11437 0.25988
-0.01052 0.030453 0.0025781 -0.0066044
0.0016692 0.0016546 0.0065942 -0.00070206 0.0014107 -0.00035311 -0.01054 0.030497
-0.14018 0.15393 -0.0019259 0.027794
0.0026468 -0.0015007 0.0038694 -0.0030688 0.00094897 -0.0011434 0.0024094 -0.0066078
-0.0018212 0.027832 -0.20355 0.20383
980000000 -0.048596 0.29318 0.018142 0.030145 -0.0088043 0.004857 0.0026065 0.0037933
0.0039148 -0.0018187 -0.0030843 -0.0020369
0.018114 0.030209 -0.20722 0.3459 0.033108 0.0044527 0.0020499 -0.00013283
0.00087298 -0.0061299 -0.0006226 -0.0023205
-0.0087028 0.0048823 0.033201 0.0043066 0.11452 0.31129 0.00046116 -0.0011917
-2.9527e-05 -0.0021113 0.0016795 -6.6632e-05
0.0027519 0.0036325 0.002119 -0.00027753 0.00034997 -0.0011472 -0.075746 0.27178
0.0077024 0.029251 -0.0094708 -0.006567
0.0038944 -0.0018662 0.00093618 -0.0061999 -2.835e-05 -0.0020652 0.0078555 0.029355
-0.10837 0.18115 0.0048352 0.019025
-0.0031237 -0.0021387 -0.0006037 -0.0024899 0.001455 -0.00016441 -0.0093764 -0.0067319
0.0048032 0.019036 -0.16007 0.24992
1040000000 -0.0058511 0.30099 0.033594 0.01771 -0.00087816 0.0070336 0.0029048 0.00051735
-0.00013098 -0.0037768 -0.00059315 -0.0014857
0.033505 0.017681 -0.17121 0.35887 0.029204 -0.015107 0.0013938 -0.0017392
-0.0026734 -0.0022152 -0.001589 -0.0026897
-0.00080177 0.00696 0.02914 -0.015288 0.16092 0.29712 -0.00051989 -0.0014274
-0.0015475 -0.00080922 -0.00032364 -0.0012765
0.0028445 0.00075495 0.0014442 -0.0017588 -0.00048628 -0.0014266 -0.047675 0.28174
0.018785 0.017421 -0.0030388 0.0023851
-3.1307e-05 -0.0034902 -0.0026034 -0.0022268 -0.0015723 -0.0007423 0.018815 0.017391
-0.077411 0.19003 0.013526 0.018134
-0.00048622 -0.0013919 -0.0015823 -0.0027559 -0.00039373 -0.0010856 -0.0030627 0.0023893
0.013383 0.018088 -0.1396 0.27161
1100000000 0.040366 0.3079 0.036018 -0.0046182 0.0031914 0.0036778 0.0024722 -0.00163
-0.0021343 -0.0029389 -0.0039009 0.00010195
0.036015 -0.0046226 -0.12749 0.37571 0.01479 -0.0279 -3.8508e-05 -0.001821
-0.0030016 -0.00029533 -0.0034299 -0.00049109
0.0031708 0.0036591 0.014708 -0.027949 0.20723 0.27622 -0.001822 0.0002656
-0.0016628 0.00064944 -0.00096899 -0.00047488
0.0026673 -0.0017465 -0.00013303 -0.0018028 -0.0018006 0.00024445 -0.0065258 0.28654
0.02324 0.0049958 -0.0021089 0.0011804
-0.002316 -0.0029456 -0.0030249 -0.00028966 -0.0017257 0.00048338 0.023242 0.0049972
-0.058421 0.2034 0.01904 0.0085567
-0.0038728 -0.00019135 -0.0035186 -0.00039365 -0.00089379 -0.00045389 -0.0022021 0.0011595
0.018996 0.0086287 -0.092448 0.30115
1160000000 0.09171 0.30217 0.023929 -0.021215 0.0028177 -0.00075626 -0.00029533 -0.0026495
-0.004029 -0.00040364 -0.0009378 0.0040548
0.023859 -0.021075 -0.083242 0.37942 -0.0040084 -0.02886 -0.0017761 -0.0015193
-0.0021659 0.002604 -0.0013431 0.0015916
0.0029162 -0.00072784 -0.0042483 -0.028908 0.25012 0.24482 -0.00055191 0.0017287
-0.00035502 0.0016945 -0.0010984 2.8241e-05
-0.00034273 -0.0025595 -0.001714 -0.001544 -0.000562 0.0016963 0.033514 0.28312
0.019705 -0.010056 -0.0025432 0.0055729
-0.0039637 -0.00030518 -0.0021624 0.0026043 -0.00048057 0.0016517 0.019759 -0.010077
-0.024795 0.21266 0.017675 0.00058004
-0.00087167 0.0039612 -0.0012902 0.0015495 -0.00089683 1.5131e-05 -0.0025238 0.0056054
0.017637 0.0005461 -0.045241 0.30393
1220000000 0.13642 0.28993 0.010164 -0.030191 -0.0014915 -0.0010963 -0.00028661 -0.001015
-0.0024827 0.0025829 0.0013576 0.0018809
0.010239 -0.030201 -0.038784 0.39067 -0.016991 -0.020701 -0.0024771 0.00053144
0.00029204 0.0027167 -0.00070006 0.001781
-0.001564 -0.0011117 -0.017081 -0.020649 0.28897 0.20542 0.00090753 0.0015138
0.00054271 0.0011566 0.00016073 0.00080307
-0.00030768 -0.0010062 -0.0025102 0.0005422 0.00085398 0.0015218 0.073199 0.27384
0.009365 -0.015817 0.0029941 0.0016021
-0.0026293 0.0025585 0.00027148 0.0027225 0.00056417 0.0010354 0.0093571 -0.015796
-0.00025161 0.22198 0.013649 -0.012418
0.0013398 0.0018747 -0.00068239 0.0018292 2.1267e-05 0.00074939 0.0030288 0.0016334
0.013652 -0.012454 -0.013453 0.32169
1280000000 0.18581 0.26701 -0.0080805 -0.028486 -0.0019205 0.0022897 -0.0011344 -0.0018382
-0.00053773 0.0030794 0.0025957 0.00089178
-0.0080646 -0.028447 0.0071367 0.38095 -0.023441 -0.0081592 -0.00090661 0.0014887
0.0015585 0.0014758 0.00057168 0.001958
-0.0019497 0.0023113 -0.023532 -0.0080851 0.31931 0.16114 0.001302 -0.00017991
0.00094788 0.00017917 0.00024168 0.00049462
-0.001196 -0.0018176 -0.00087512 0.001524 0.0012794 -0.00020482 0.10949 0.25701
0.0003893 -0.017454 0.000585 -0.00010771
-0.00045294 0.0030887 0.0015816 0.0014794 0.00096179 0.00017554 0.00037802 -0.017495
0.037441 0.22517 0.0029554 -0.014466
0.0025864 0.00094567 0.0005727 0.0019426 0.00010168 0.00042287 0.0006278 -8.5224e-05
0.002986 -0.014442 0.034497 0.32316
1340000000 0.22251 0.23226 -0.01786 -0.018935 0.00064586 0.0042213 -0.0018239 -0.00068817
0.0014979 0.0025667 0.001557 -0.0015594
-0.017824 -0.018969 0.046419 0.37185 -0.021197 0.00432 -1.8814e-05 0.0018904
0.0015968 0.00064109 0.0013436 0.00087557
0.00070352 0.0042273 -0.021193 0.0044159 0.34118 0.11315 0.00091721 -0.00085304
0.00062146 -0.00037024 0.00027342 0.00028248
-0.001783 -0.00061467 -3.2239e-06 0.0018555 0.00094582 -0.00081973 0.14195 0.23639
-0.007845 -0.014467 0.0012957 -0.00018719
0.0015071 0.0025366 0.0016226 0.00063503 0.00063017 -0.00033701 -0.0078507 -0.014438
0.068583 0.21951 -0.0033481 -0.013032
0.0015381 -0.0016091 0.0013041 0.00085171 0.00028965 0.00029227 0.0012862 -0.00019081
-0.0033747 -0.013027 0.073934 0.31903
1400000000 0.25467 0.19326 -0.023545 -0.0074415 0.0048248 0.0030293 -0.001927 0.00070146
0.0024352 0.00060772 0.0001065 -0.0012891
-0.023518 -0.0074293 0.082976 0.35819 -0.014522 0.012171 0.0013026 0.0012134
0.00088903 -0.00074566 0.0012051 0.00026002
0.004888 0.0030469 -0.014443 0.012291 0.35401 0.059385 8.4689e-05 -0.0013595
8.359e-05 -0.00037554 0.00036535 0.00029541
-0.0019408 0.00070041 0.0013262 0.0012259 4.9222e-05 -0.0013324 0.17124 0.20786
-0.012807 -0.0082408 -0.00068209 -0.00098145
0.0024728 0.00061644 0.00094055 -0.00071664 0.00017347 -0.00036283 -0.012848 -0.0082052
0.10191 0.21352 -0.0095641 -0.008276
4.8375e-05 -0.0012567 0.0012459 0.00023045 0.00035984 0.00033846 -0.00067845 -0.0010111
-0.0095754 -0.0082844 0.11921 0.30798
1460000000 0.2767 0.14886 -0.020572 0.0047867 0.0052553 -0.001618 -0.0014867 0.0016662
0.0019126 -0.0008134 -0.00037432 -0.00069469
-0.020551 0.0047462 0.11663 0.33606 -0.006082 0.01488 0.0016282 0.00016553
0.00082305 -0.001079 0.0011253 -0.00061867
0.0052777 -0.0016585 -0.0060526 0.014925 0.35981 0.0046275 -0.00096034 -0.0011765
0.00030733 -0.00016881 0.00069946 -0.00043637
-0.0015369 0.0016842 0.0016472 0.00014821 -0.00097903 -0.0011721 0.1977 0.17883
-0.01343 -0.0026084 -0.0012306 0.0013989
0.0018642 -0.00080624 0.00083672 -0.0010648 0.00030902 -0.00016158 -0.013444 -0.0025957
0.13158 0.1975 -0.011201 -0.0029222
-0.00033606 -0.00076326 0.001055 -0.00061078 0.00060392 -0.00046183 -0.0011829 0.0013837
-0.011189 -0.0029171 0.1529 0.2867
1520000000 0.28798 0.10689 -0.014879 0.010494 0.0030358 -0.0038975 0.00012041 0.0024731
0.0016813 -0.0017261 -0.0011172 -0.00012329
-0.014898 0.010481 0.14955 0.32114 0.0012708 0.012821 0.0015815 -0.00079526
0.00013565 -0.00090054 0.00026043 -0.0010637
0.0030414 -0.0039077 0.0013542 0.012851 0.35232 -0.051713 -0.00087566 -0.00039188
0.00049981 -0.00077598 -2.6652e-05 -8.4372e-05
0.00016873 0.0024866 0.0015478 -0.0007886 -0.00099755 -0.00039587 0.22118 0.14081
-0.01275 0.0021645 0.0009185 0.0017541
0.0016907 -0.001725 0.0001241 -0.00089387 0.00049462 -0.00076854 -0.01279 0.0021801
0.15919 0.18196 -0.011229 0.0013199
-0.0011453 -0.00012977 0.0002793 -0.0010431 -9.2176e-05 -0.0001255 0.00091544 0.0017509
-0.011213 0.0012826 0.18641 0.26646
1580000000 0.2964 0.060671 -0.0081718 0.013602 -0.00087689 -0.0045384 0.0013432 0.0017392
-0.00059268 -0.0020271 -0.00027025 0.00039589
-0.0081591 0.01358 0.17629 0.29643 0.004871 0.0081686 0.00046029 -0.0015377
-0.00038974 -0.0010447 -0.00034969 -0.00085069
-0.00088747 -0.0045246 0.0049353 0.0081582 0.33179 -0.10913 -0.0015418 0.00042717
-0.00029138 -0.0010556 0.00011237 -0.00056403
0.0013376 0.0017585 0.00044777 -0.0015841 -0.0014823 0.0003946 0.23567 0.10118
-0.0098611 0.0061506 0.001641 0.00069015
-0.00054399 -0.002009 -0.00039421 -0.0010841 -0.00024797 -0.0011583 -0.0098605 0.0061532
0.18301 0.16308 -0.0090133 0.0065657
-0.00028084 0.00042295 -0.00032611 -0.00086348 0.00013674 -0.00055864 0.0016207 0.00068085
-0.0090199 0.0065807 0.21873 0.23953
1640000000 0.29773 0.019266 -0.001398 0.01249 -0.0025331 -0.0024765 0.0024791 0.00097426
-0.00082964 -0.0011298 -0.00030041 0.00067229
-0.001415 0.012519 0.20544 0.27143 0.0055802 0.0036191 -0.00073996 -0.0016397
-0.00098121 -0.00047299 -0.00057227 -0.00057312
-0.0025399 -0.0024565 0.0056157 0.0035864 0.303 -0.15786 -0.00088073 0.0012841
-0.0010369 -0.00078197 -0.00012301 -0.00031567
0.0025017 0.0010147 -0.00072549 -0.0016325 -0.00086769 0.0013325 0.24822 0.051586
-0.0064114 0.0070033 0.0020823 -0.00060407
-0.0008321 -0.0010844 -0.00097786 -0.00046459 -0.0010757 -0.00072993 -0.0063697 0.0070464
0.2052 0.13747 -0.0044583 0.0087697
-0.00031366 0.00062537 -0.00060348 -0.00061813 -0.00012805 -0.00026282 0.0020828 -0.00062514
-0.0044738 0.0087608 0.24478 0.20802
1700000000 0.28971 -0.025778 0.0021082 0.0097255 -0.0033286 3.0386e-05 0.0028587 -0.0010146
-0.0018261 -0.00030729 0.0005733 0.00037533
0.0021167 0.0097373 0.22314 0.24006 0.0036964 0.00080765 -0.0014064 -0.00055241
-0.00082604 1.2319e-05 -0.00090631 -0.00033951
-0.0033354 0.00011873 0.0037028 0.00076866 0.25949 -0.19765 0.00028108 0.001602
-0.0017463 -0.00025311 -0.00059757 -0.00093111
0.0028379 -0.0011123 -0.001382 -0.00056682 0.00026915 0.0016285 0.24476 0.0009674
-0.0044386 0.0073643 0.001285 -0.001838
-0.0017961 -0.00030705 -0.00081429 2.541e-06 -0.0018264 -0.00021414 -0.004442 0.007384
0.22223 0.11575 -0.0001364 0.0092327
0.00054636 0.00041858 -0.0009466 -0.0003258 -0.00066806 -0.00090106 0.0012886 -0.0018824
-0.00014677 0.0092354 0.26137 0.17338
1760000000 0.27679 -0.074062 0.0045025 0.0064161 -0.0021706 0.00085878 0.0013931 -0.0031943
-0.00098194 0.00074527 0.00033349 -0.00048652
0.004497 0.0064188 0.24891 0.20032 0.0016573 -0.00089812 -0.0011158 0.00021758
-0.0011176 0.00089952 -0.00053685 0.00054786
-0.0021792 0.00084783 0.0016483 -0.00090429 0.21054 -0.23035 0.0011591 0.0013432
-0.0011273 0.0013747 -0.0013393 -0.00039957
0.001336 -0.00317 -0.0011261 0.00022799 0.001159 0.0012385 0.23481 -0.05101
-0.00197 0.0069392 -0.00037834 -0.0020063
-0.00097887 0.00077936 -0.0011056 0.00089121 -0.0010624 0.0014518 -0.001932 0.0069656
0.23668 0.079263 0.0035357 0.0065406
0.00035665 -0.00052714 -0.00050551 0.00058941 -0.0012907 -0.00051643 -0.00039897 -0.0019778
0.0035138 0.006522 0.27382 0.13543
1820000000 0.25155 -0.11085 0.0047862 0.0028005 -8.8124e-07 0.0024413 -0.000806 -0.0030252
-0.00073375 0.00071285 7.2817e-05 -0.0001104
0.0047613 0.0027964 0.25853 0.17032 -0.00021479 0.00018417 -0.0012608 0.00089648
-7.021e-05 0.0013965 -0.0004009 0.00051913
2.8736e-05 0.0024377 -0.0001794 0.00017479 0.16042 -0.24583 0.0015824 0.00055619
-0.00029056 0.0021089 -0.001378 0.000571
-0.00082214 -0.0030119 -0.0012494 0.00092771 0.0015985 0.0005013 0.20368 -0.098369
-0.00095246 0.0057377 -0.0015069 -0.0013181
-0.00071353 0.00069723 -3.1277e-05 0.0014333 -0.00034372 0.0022277 -0.00094556 0.0057212
0.25234 0.048278 0.0045261 0.0031838
2.9825e-05 -9.9281e-05 -0.00036354 0.00051394 -0.0012492 0.00061663 -0.0015069 -0.0013156
0.0045462 0.0031938 0.27619 0.099226
1880000000 0.2159 -0.15051 0.0026784 0.00050257 -0.00022881 0.0019525 -0.0027099 -0.0021992
-0.00019425 0.0013846 0.00038076 -0.00061092
0.0026757 0.00043735 0.26289 0.12413 -0.002083 0.0017057 -0.00014987 0.0016979
0.0006993 0.0013359 0.00025669 0.00089762
-0.00020726 0.0020838 -0.0020481 0.0018148 0.10852 -0.25535 0.0020169 -0.0011414
0.0014987 0.0019915 -0.00086894 0.0014535
-0.0028045 -0.0021963 -8.5591e-05 0.0017029 0.0020247 -0.0013051 0.16226 -0.13773
-0.00070578 0.0046965 -0.0022121 0.00078416
-0.00016843 0.0014139 0.00073733 0.0013797 0.0015894 0.0018872 -0.00067564 0.0046803
0.25344 0.013834 0.0041281 0.0013788
0.00040057 -0.00060869 0.00024976 0.00086236 -0.0008163 0.0014204 -0.0022225 0.00081155
0.0041276 0.0013971 0.27608 0.064955
1940000000 0.17645 -0.17561 0.00047232 -0.0013786 0.0013816 0.0017653 -0.003729 0.00045058
0.0011775 0.00091185 -0.00057458 -0.00067648
0.00045942 -0.0014098 0.26332 0.092383 -0.00087154 0.0039315 0.001016 0.0012806
0.0020228 0.00049446 0.00079794 0.00017497
0.0013255 0.0017263 -0.00089645 0.0039319 0.06258 -0.24883 0.00021906 -0.0025197
0.0024258 0.00044143 0.00025968 0.001567
-0.0037598 0.00044148 0.0010155 0.0012673 0.00033005 -0.0024608 0.10936 -0.1672
-0.0017003 0.0042145 -0.0011284 0.0017723
0.0011493 0.00092618 0.0020264 0.00048096 0.0024291 0.00046536 -0.001633 0.0042347
0.25256 -0.026585 0.0030326 -0.0016502
-0.00055244 -0.00071476 0.00082251 0.00020859 0.00037715 0.0013888 -0.001127 0.0018073
0.0030199 -0.0016336 0.26504 0.029044
2000000000 0.13032 -0.1895 -0.003418 0.00042872 0.0022408 0.0014133 -0.0023764 0.0035241
0.00096989 0.00016884 -0.00073987 0.00033673
-0.0033447 0.00041434 0.24905 0.056899 -0.00080756 0.0054439 0.0016441 0.00017634
0.0015348 -0.0015716 0.00048303 0.00011112
0.0024598 0.0014483 -0.0006661 0.00553 0.018983 -0.23471 -0.001634 -0.0014067
0.0020777 -0.001296 0.001593 0.0012786
-0.0023006 0.0034097 0.0015974 0.00025471 -0.0017566 -0.0013301 0.056146 -0.17598
-0.0027984 0.0047835 0.00025609 0.0021938
0.00093201 0.00013863 0.0014701 -0.0015703 0.0020301 -0.0013511 -0.0028529 0.004761
