!Keysight Technologies,M9804A,MY58100912,A.14.10.03
!Date: Thursday, April 27, 2023 10:28:33
!Correction: S11(C  6-Port  ) 
!S12(C  6-Port  ) 
!S13(C  6-Port  ) 
!S14(C  6-Port  ) 
!S15(C  6-Port  ) 
!S16(C  6-Port  ) 
!S21(C  6-Port  ) 
!S22(C  6-Port  ) 
!S23(C  6-Port  ) 
!S24(C  6-Port  ) 
!S25(C  6-Port  ) 
!S26(C  6-Port  ) 
!S31(C  6-Port  ) 
!S32(C  6-Port  ) 
!S33(C  6-Port  ) 
!S34(C  6-Port  ) 
!S35(C  6-Port  ) 
!S36(C  6-Port  ) 
!S41(C  6-Port  ) 
!S42(C  6-Port  ) 
!S43(C  6-Port  ) 
!S44(C  6-Port  ) 
!S45(C  6-Port  ) 
!S46(C  6-Port  ) 
!S51(C  6-Port  ) 
!S52(C  6-Port  ) 
!S53(C  6-Port  ) 
!S54(C  6-Port  ) 
!S55(C  6-Port  ) 
!S56(C  6-Port  ) 
!S61(C  6-Port  ) 
!S62(C  6-Port  ) 
!S63(C  6-Port  ) 
!S64(C  6-Port  ) 
!S65(C  6-Port  ) 
!S66(C  6-Port  ) 
!S6P File: Measurement: :
# Hz S  RI   R 50
500000000 -0.33579 -0.032554 -0.0097339 -0.0040973 -0.0080243 0.011384 -0.0038924 0.011802
0.011817 0.0038535 -0.0045924 0.007836
-0.0097197 -0.0041049 -0.41852 -0.048386 0.0077534 -0.011713 0.0013117 0.011037
0.0075636 0.0026499 0.00049394 0.012141
-0.007997 0.011395 0.007726 -0.011729 -0.26394 0.21159 0.0067505 0.0029929
0.00034433 0.0080865 0.00032704 0.011976
-0.0038926 0.011807 0.0013231 0.011051 0.0067554 0.0030088 -0.32705 0.04888
-0.018639 -0.0046445 0.017292 0.025361
0.011837 0.0038329 0.0075885 0.0026619 0.00034841 0.0080863 -0.018658 -0.0046233
-0.2277 -0.17924 -0.026335 0.0052813
-0.0045938 0.0078602 0.00052387 0.012144 0.00035392 0.011974 0.01727 0.025293
-0.026359 0.0052273 -0.27298 -0.12858
560000000 -0.31474 0.12561 -0.023956 -0.062991 5.5756e-05 0.012349 0.0063373 0.0099937
0.010733 0.0039181 0.0093059 0.007322
-0.023909 -0.062928 -0.37602 0.10897 -0.041426 -0.036656 0.014116 0.0035328
-0.013197 -0.0044724 0.005115 -0.00040354
9.4564e-05 0.012346 -0.041564 -0.036609 -0.18254 0.25858 -0.00066619 -0.0048938
0.018521 0.003756 0.0068968 -0.0061071
0.0063016 0.0099546 0.014182 0.0035121 -0.00066975 -0.0048922 -0.3013 0.13676
0.0030744 -0.025272 0.0057734 -0.019757
0.010791 0.0039129 -0.013268 -0.0044664 0.018543 0.003754 0.0030052 -0.025298
-0.28649 -0.0055121 0.0057727 -0.05157
0.0093686 0.0072356 0.0050521 -0.00038711 0.0069275 -0.00613 0.0057639 -0.019784
0.0058098 -0.051451 -0.33159 0.018115
620000000 -0.27284 0.11043 -0.023194 0.0067555 0.0033965 0.0082138 0.0068154 -0.005181
0.010583 -0.00095334 -1.0812e-06 -0.0017642
-0.023173 0.0067425 -0.40202 0.063414 -0.018964 -0.00071514 -0.0017007 -0.0017427
0.010377 -0.0075299 0.00065409 -0.0028455
0.0034232 0.0082105 -0.018986 -0.00067201 -0.15262 0.2674 -0.0016815 -0.004849
-0.0041941 -0.0036233 0.0078795 -0.0031566
0.0068211 -0.0051701 -0.0017044 -0.0017352 -0.0016654 -0.0048378 -0.25961 0.14632
-0.03917 -0.019341 0.015231 0.023996
0.010663 -0.001041 0.010381 -0.0075479 -0.004175 -0.0036454 -0.039245 -0.019359
-0.20532 -0.0437 -0.040829 0.013592
-1.4123e-05 -0.0017133 0.00066866 -0.0028191 0.0078918 -0.0031743 0.015168 0.023933
-0.040731 0.013711 -0.25046 -0.017215
680000000 -0.23193 0.19301 -0.027816 -0.014279 0.0049021 0.0050918 0.00056596 -0.0073568
-0.0028965 -0.010863 0.0044638 -0.0082405
-0.027797 -0.014269 -0.3864 0.16006 -0.032934 -0.0011964 -0.0018219 -0.00043851
-0.0028309 -0.0085472 -0.00073352 -0.0027367
0.0049092 0.0050795 -0.032969 -0.001106 -0.10217 0.28739 -0.00059867 1.0119e-05
-0.0024307 0.00097863 -0.0029181 -0.009627
0.00059069 -0.0073659 -0.0018224 -0.00043163 -0.0005957 1.2149e-05 -0.21788 0.19609
-0.023614 -0.0090272 -0.010844 -0.0094127
-0.0029345 -0.010881 -0.0028634 -0.0085675 -0.002425 0.00098371 -0.023633 -0.0090296
-0.25071 0.051578 -0.0045367 -0.010157
0.0044738 -0.0081968 -0.00074278 -0.0027156 -0.0029018 -0.0096414 -0.010761 -0.0094246
-0.0045887 -0.010084 -0.26338 0.085537
740000000 -0.18932 0.18899 -0.038434 0.026251 0.012456 -0.0051148 -0.00078128 -0.0040675
-0.0047208 -0.0024393 -0.0060555 0.0031871
-0.038395 0.026183 -0.33518 0.17929 -0.035045 0.034824 -0.00079397 -0.0062446
-0.011425 0.0091528 -0.0023232 -0.0064374
0.012442 -0.0051583 -0.034975 0.03496 -0.068765 0.28667 -0.0013091 0.0034557
-0.0029529 -0.0037936 -0.00073964 0.00062437
-0.00078345 -0.0041024 -0.0008139 -0.0062025 -0.0013232 0.0034487 -0.20168 0.20298
-0.042163 -0.0078051 0.022809 0.012492
-0.0046913 -0.0023648 -0.011479 0.0091476 -0.0029184 -0.0038207 -0.042237 -0.007763
-0.1573 0.075153 -0.042081 0.0011387
-0.0060498 0.0032151 -0.0023766 -0.0063818 -0.00075088 0.00061355 0.022817 0.012483
-0.042034 0.0011316 -0.2515 0.092838
800000000 -0.15719 0.22871 -0.02245 0.017278 0.0052349 -0.010416 -0.0047186 -0.0020236
-0.0042124 0.0031948 0.004648 0.00064571
-0.022434 0.017249 -0.33717 0.24908 -0.007885 0.034249 -0.0019391 0.0023847
-0.00050236 0.003455 0.0013506 0.0053566
0.0052042 -0.010436 -0.007796 0.034302 -0.027451 0.30993 0.0012779 0.0014586
0.00074263 0.0035223 -0.0019885 0.0010947
-0.0047074 -0.0020152 -0.0019341 0.0023883 0.0012678 0.0014561 -0.17416 0.23077
-0.028537 0.01295 0.013179 -0.0097595
-0.0041951 0.0031821 -0.00048617 0.0034552 0.00074552 0.0035299 -0.028561 0.013008
-0.19922 0.098394 -0.018162 0.017909
0.0046676 0.00062671 0.001387 0.0053565 -0.0019858 0.0010977 0.013176 -0.0097701
-0.018146 0.017894 -0.24539 0.14755
860000000 -0.12239 0.25026 -0.017264 0.031431 -0.0035665 -0.0097726 -0.002509 0.0013104
0.0044571 0.0049682 -0.002636 -0.0031792
-0.017254 0.031402 -0.28947 0.29101 0.0082505 0.034186 0.00027705 0.002056
0.0044465 2.9598e-05 0.0034133 -0.00014541
-0.0035819 -0.0097666 0.008363 0.034196 0.021207 0.3178 -0.00032201 -0.00036169
0.0026195 -0.0016683 0.001586 0.0044303
-0.0024918 0.0013298 0.00027763 0.0020571 -0.00031973 -0.00035949 -0.13826 0.24277
-0.018277 0.018946 -0.0058799 -0.0092857
0.0044839 0.0049995 0.0044467 1.8065e-05 0.0026032 -0.0016807 -0.018244 0.01901
-0.1507 0.14656 -0.024345 0.015128
-0.0026737 -0.0031878 0.0034193 -0.0001612 0.0015822 0.0044325 -0.0058925 -0.0092995
-0.024296 0.015087 -0.19427 0.19178
920000000 -0.096897 0.27361 0.0052602 0.038083 -0.0093431 -0.0041061 -0.0017099 0.0025698
0.0014181 0.0014188 0.0023252 -0.0012471
0.0052437 0.038047 -0.2601 0.31194 0.028258 0.021691 0.0015931 0.0011504
0.0068156 -0.00080285 0.0035786 -0.0028701
-0.0093543 -0.0040773 0.02835 0.021623 0.067897 0.31809 0.0017496 -0.00012079
0.0012839 -0.00048154 0.00078083 -0.00099808
-0.0016963 0.0025751 0.001586 0.001129 0.0017485 -0.00011625 -0.11392 0.2598
-0.010622 0.030396 0.0026759 -0.0060513
0.0014156 0.0014229 0.0068313 -0.00084219 0.001272 -0.00048313 -0.010577 0.030419
-0.13943 0.15265 -0.0023798 0.027583
0.0023353 -0.0012534 0.0035823 -0.0028614 0.00078146 -0.0010063 0.0026845 -0.006054
-0.0024316 0.027571 -0.20311 0.206
980000000 -0.049091 0.293 0.018013 0.029999 -0.0086978 0.0048149 0.0025662 0.0037471
0.0038767 -0.0017116 -0.002991 -0.0020065
0.017976 0.029993 -0.2073 0.34535 0.033016 0.0045072 0.0019203 -6.9583e-05
0.00092038 -0.006046 -0.00055118 -0.0023131
-0.0086787 0.0048504 0.033063 0.0043775 0.11427 0.31105 0.0004097 -0.001196
7.5072e-06 -0.0020895 0.0016987 -0.00011356
0.0025814 0.0037518 0.0019141 -9.5733e-05 0.00041723 -0.0012041 -0.075654 0.27112
0.0075293 0.02873 -0.0094233 -0.0065236
0.0038544 -0.0017468 0.00090831 -0.0060613 -1.2184e-06 -0.0020907 0.0075887 0.028731
-0.10816 0.17992 0.0050635 0.018709
-0.0029953 -0.0020214 -0.0005824 -0.0023012 0.0016957 -0.00011401 -0.0094223 -0.006506
0.00504 0.018683 -0.15851 0.2509
1040000000 -0.0059227 0.30095 0.033504 0.017715 -0.0010068 0.0069094 0.0029264 0.0006304
-0.00017707 -0.0036775 -0.00058704 -0.0014605
0.03348 0.017722 -0.1714 0.35841 0.029002 -0.01499 0.0014478 -0.0016319
-0.0027502 -0.0022723 -0.0014747 -0.0025864
-0.00097664 0.0069331 0.028956 -0.015131 0.16054 0.29699 -0.0005419 -0.0013837
-0.0014764 -0.00076022 -0.00034227 -0.0012136
0.0029269 0.00063586 0.0014255 -0.0016619 -0.00054675 -0.0013775 -0.047756 0.28138
0.018568 0.017195 -0.0029353 0.0020729
-0.00021067 -0.0037134 -0.0027402 -0.0022349 -0.0014934 -0.00075832 0.018601 0.017173
-0.077189 0.18909 0.013564 0.017821
-0.00058244 -0.0014449 -0.0014936 -0.0025608 -0.00034907 -0.0012113 -0.0029201 0.0021074
0.013538 0.017811 -0.13797 0.27231
1100000000 0.039916 0.30782 0.035788 -0.0047572 0.0030984 0.003719 0.0024729 -0.0015048
-0.0021597 -0.0030753 -0.0039185 -1.7038e-05
0.035764 -0.0047341 -0.12776 0.37516 0.014714 -0.027728 -2.0344e-05 -0.0017875
-0.0031579 -0.00041423 -0.0035124 -0.00056778
0.0031119 0.0037129 0.014621 -0.027828 0.2068 0.27619 -0.0017358 0.00031372
-0.0016792 0.00071054 -0.00095276 -0.00046277
0.0024759 -0.0015153 -3.57e-05 -0.0017954 -0.0017363 0.00030365 -0.0068359 0.28599
0.022922 0.0047261 -0.00224 0.0010749
-0.0021906 -0.0030629 -0.0031627 -0.00038914 -0.0016838 0.00070978 0.022931 0.0046918
-0.058551 0.20235 0.01891 0.0083379
-0.0039215 2.2991e-06 -0.0035162 -0.00054622 -0.00095299 -0.00047019 -0.002243 0.0010587
0.018899 0.0083627 -0.091178 0.30138
1160000000 0.091496 0.3022 0.023612 -0.021078 0.0028187 -0.00067437 -0.00017853 -0.0025933
-0.0041435 -0.00040049 -0.00088175 0.0040912
0.023622 -0.02104 -0.08371 0.37905 -0.0039322 -0.028698 -0.0017718 -0.0016226
-0.0022186 0.0026105 -0.0012805 0.0015522
0.0028142 -0.00067684 -0.0040692 -0.028728 0.24969 0.24503 -0.00055986 0.0016953
-0.00037106 0.0017397 -0.0010994 2.8428e-05
-0.00018198 -0.0025917 -0.0017845 -0.0016213 -0.00055548 0.0016896 0.0328 0.28289
0.019206 -0.010069 -0.0027446 0.0056032
-0.0041591 -0.00039854 -0.0021987 0.0026481 -0.00037104 0.0017318 0.019213 -0.010102
-0.025373 0.21155 0.017463 0.00027486
-0.00085704 0.0041035 -0.0012834 0.0015742 -0.0010918 3.3359e-05 -0.0027293 0.0056146
0.017455 0.00026803 -0.044042 0.30452
1220000000 0.13598 0.29006 0.010014 -0.030017 -0.0015064 -0.0010196 -0.00024302 -0.0010909
-0.0024981 0.0025491 0.0012553 0.0017644
0.010031 -0.029981 -0.039429 0.39032 -0.016852 -0.020687 -0.0024548 0.00049675
0.0003547 0.0028249 -0.00064562 0.0016814
-0.0015142 -0.0010089 -0.016959 -0.020646 0.28871 0.20574 0.00086398 0.0015115
0.00061347 0.001115 0.00027079 0.00069676
-0.00024554 -0.001087 -0.0024588 0.00050283 0.00086308 0.0015051 0.072598 0.27374
0.0089987 -0.015626 0.0030057 0.0016807
-0.002486 0.0025485 0.00037489 0.0028347 0.00062298 0.0011121 0.0089829 -0.015644
-0.0014744 0.22099 0.01354 -0.012406
0.0012823 0.0017557 -0.00063178 0.0016914 0.00026672 0.00069763 0.0030076 0.0016767
0.013533 -0.012402 -0.011929 0.32149
1280000000 0.18535 0.26713 -0.0080979 -0.028263 -0.0018935 0.0023527 -0.0010839 -0.0019274
-0.00053421 0.0031082 0.0025123 0.0010452
-0.0080755 -0.028239 0.0064122 0.38085 -0.023383 -0.0081646 -0.00092196 0.0014798
0.0015732 0.0014466 0.00053026 0.0019757
-0.0018884 0.0023723 -0.023453 -0.0080615 0.31922 0.1615 0.0013249 -0.00024161
0.00087889 7.2684e-05 0.00021981 0.00049439
-0.0010885 -0.0019204 -0.00091839 0.0014783 0.0013274 -0.00023834 0.10892 0.25724
0.00017431 -0.017067 0.00058057 1.6653e-05
-0.00052025 0.0031083 0.0015818 0.0014429 0.00087583 7.0397e-05 0.00014246 -0.017078
0.035835 0.22428 0.0028641 -0.014258
0.0025147 0.0010439 0.00054347 0.0019669 0.00022066 0.00049396 0.00058965 2.815e-05
0.0028654 -0.01425 0.035806 0.3231
1340000000 0.22204 0.23267 -0.017724 -0.018743 0.00073956 0.0042507 -0.001888 -0.00067686
0.0014679 0.0025421 0.0015042 -0.001518
-0.017692 -0.018738 0.045626 0.37195 -0.021172 0.0042404 -4.1342e-05 0.0019029
0.0016522 0.00060457 0.0013412 0.0007742
0.00075171 0.0042575 -0.021178 0.0043448 0.34097 0.11352 0.00084983 -0.00083412
0.00049709 -0.00040901 0.00016973 0.00028037
-0.0018862 -0.00066325 -3.8622e-05 0.0019077 0.00085049 -0.00083631 0.14156 0.2369
-0.0078072 -0.013921 0.0014346 -4.0635e-05
0.0014868 0.0025351 0.0016553 0.00059002 0.00049805 -0.00041349 -0.0078429 -0.013914
0.066727 0.21944 -0.0034474 -0.012765
0.0015029 -0.0015281 0.0013503 0.00078186 0.00017545 0.0002791 0.0014299 -5.7781e-05
-0.0034417 -0.01276 0.075111 0.31862
1400000000 0.25434 0.1937 -0.023298 -0.0073475 0.0049085 0.0030889 -0.0019955 0.00073077
0.0024974 0.0006129 0.00014362 -0.0013291
-0.023269 -0.0073587 0.082335 0.3585 -0.014505 0.012111 0.0013038 0.0012223
0.00088552 -0.00078431 0.0011435 0.0002934
0.0049228 0.0030728 -0.014452 0.0122 0.35401 0.05979 0.00010842 -0.0013557
2.3439e-05 -0.00030305 0.00035535 0.00021447
-0.0019931 0.00073564 0.0013152 0.0012138 0.00011023 -0.0013563 0.17101 0.20856
-0.012699 -0.0078455 -0.00054828 -0.00087186
0.0025059 0.00060322 0.00088016 -0.00079704 2.2924e-05 -0.00030418 -0.012724 -0.0078255
0.10028 0.21403 -0.0095902 -0.0082836
0.0001294 -0.0013318 0.0011461 0.0002895 0.00035769 0.0002161 -0.00056047 -0.00086858
-0.0095831 -0.0082836 0.12017 0.30773
1460000000 0.27642 0.14939 -0.020368 0.0047043 0.0053699 -0.0017048 -0.001458 0.0016859
0.0019227 -0.00081158 -0.0003888 -0.00083718
-0.020355 0.0046851 0.11612 0.33652 -0.0060898 0.014862 0.0016768 0.00015631
0.00081065 -0.0010492 0.0011553 -0.00065246
0.0053683 -0.0017291 -0.0060164 0.014916 0.35977 0.0051753 -0.0010707 -0.0011412
0.00019941 -0.00010702 0.00070219 -0.0004135
-0.0014599 0.0016902 0.0016749 0.0001483 -0.0010674 -0.0011491 0.19774 0.17949
-0.012997 -0.0022827 -0.001185 0.0014044
0.0019132 -0.00082132 0.00081777 -0.0010583 0.00020184 -0.00011366 -0.01301 -0.002259
0.13014 0.1988 -0.011063 -0.0028857
-0.00039434 -0.0008426 0.0011508 -0.00066141 0.00069835 -0.00041687 -0.0011719 0.0014058
-0.011068 -0.0028969 0.1536 0.28618
1520000000 0.28791 0.10748 -0.014723 0.010297 0.0030244 -0.0039691 0.00015888 0.0025044
0.0016355 -0.0017573 -0.0010919 -0.00014062
-0.014717 0.010278 0.14927 0.32164 0.0012928 0.012803 0.0015527 -0.00077803
9.5618e-05 -0.00088224 0.00025081 -0.0010289
0.0030051 -0.0039817 0.0013691 0.012807 0.3525 -0.051208 -0.00090065 -0.00033032
0.00051619 -0.0007525 1.6056e-05 -8.4997e-05
0.00015851 0.002501 0.0015479 -0.00079434 -0.00089634 -0.00033517 0.22154 0.14144
-0.012233 0.0022081 0.00092809 0.0016816
0.0016276 -0.0017689 9.2943e-05 -0.00088332 0.0005197 -0.00075843 -0.012233 0.002238
0.15824 0.1834 -0.011047 0.001342
-0.0011032 -0.00013762 0.00024358 -0.0010258 1.4598e-05 -7.9475e-05 0.00092736 0.0016827
-0.011045 0.0013378 0.18732 0.26577
1580000000 0.29657 0.06122 -0.008131 0.01339 -0.00099056 -0.0045621 0.0013442 0.0017961
-0.00058175 -0.0019759 -0.00028295 0.00033343
-0.0081343 0.013373 0.1762 0.29692 0.0048882 0.0081701 0.0004329 -0.0015254
-0.00033638 -0.0010034 -0.00032612 -0.00087334
-0.0010086 -0.0045512 0.0049315 0.0081428 0.3321 -0.10886 -0.0014457 0.00047887
-0.00024726 -0.0010946 0.0001719 -0.00056278
0.0013474 0.0017907 0.00041497 -0.0015288 -0.0014377 0.00047525 0.23625 0.10157
-0.0094524 0.0059707 0.0017683 0.00068321
-0.00060192 -0.0019735 -0.00034374 -0.00099893 -0.00025377 -0.0010959 -0.0094435 0.0059962
0.18252 0.16443 -0.0089379 0.0066396
-0.00028028 0.0003359 -0.00032964 -0.00087435 0.00017006 -0.0005705 0.0017674 0.00067759
-0.0089403 0.0066451 0.21934 0.23902
1640000000 0.298 0.019756 -0.0014457 0.01235 -0.0026323 -0.0024457 0.0025176 0.0009829
-0.00088024 -0.0010375 -0.00027747 0.0006467
-0.0014618 0.012336 0.20543 0.27183 0.0055878 0.003647 -0.00071304 -0.0015935
-0.00092266 -0.0004802 -0.00054645 -0.00061265
-0.0026391 -0.0024279 0.0056086 0.0036077 0.30323 -0.1575 -0.00085748 0.0011989
-0.0009562 -0.00081065 -7.1932e-05 -0.00033368
0.0025265 0.00096897 -0.00071878 -0.0015897 -0.00086187 0.0011971 0.24881 0.051809
-0.0060986 0.006642 0.0021275 -0.00066039
-0.00087931 -0.0010371 -0.00093175 -0.00047241 -0.00096545 -0.00081289 -0.0060889 0.0066489
0.20535 0.13871 -0.0045216 0.0087057
-0.0002714 0.00064989 -0.00055445 -0.00061112 -7.6893e-05 -0.00033233 0.0021317 -0.00067693
-0.004526 0.0087086 0.24519 0.20753
1700000000 0.29013 -0.025679 0.0020545 0.0096275 -0.0033727 0.00019195 0.0029271 -0.0010898
-0.00168 -0.00027088 0.00052644 0.00038982
0.002045 0.0096194 0.22328 0.24033 0.0037634 0.00081438 -0.0013593 -0.00052093
-0.00079643 8.2076e-06 -0.00090244 -0.00038863
-0.0033669 0.00020434 0.0037746 0.00079112 0.25988 -0.19732 0.00033655 0.0016467
-0.0017788 -0.00022783 -0.00048489 -0.00081317
0.0029195 -0.0010951 -0.0013649 -0.00051574 0.00032909 0.0016445 0.24545 0.00075312
-0.0043266 0.006962 0.0012245 -0.0019656
-0.0016724 -0.00025847 -0.00080619 7.9135e-06 -0.0017786 -0.00022346 -0.0043188 0.0069678
0.22261 0.11681 -9.1744e-05 0.0090232
0.00053697 0.0003869 -0.00090709 -0.00038404 -0.00049093 -0.00081387 0.0012249 -0.0019672
-8.9054e-05 0.0090199 0.26167 0.17274
1760000000 0.27697 -0.073903 0.0043543 0.0063951 -0.0021506 0.00074385 0.0013403 -0.0032253
-0.00095327 0.00071332 0.00041768 -0.00037042
0.0043443 0.006379 0.24895 0.2004 0.001645 -0.0010626 -0.0011129 0.00021752
-0.0011862 0.00082443 -0.00055565 0.00055804
-0.0021481 0.00075513 0.00164 -0.0010802 0.21112 -0.23081 0.0009933 0.0012897
-0.0011181 0.0012159 -0.0013979 -0.00039079
0.0013285 -0.0032306 -0.0011103 0.00022318 0.00097958 0.0012923 0.23523 -0.051538
-0.0020101 0.0065416 -0.00049001 -0.0021118
-0.00093612 0.00072195 -0.001189 0.00084108 -0.0011256 0.0012229 -0.0020006 0.0065488
0.23722 0.080048 0.0035218 0.006468
0.00041209 -0.00037465 -0.00055 0.00056518 -0.0014061 -0.00039383 -0.00049211 -0.0021145
0.0035226 0.0064634 0.2742 0.13484
1820000000 0.25162 -0.1108 0.0046677 0.0027855 -2.0515e-05 0.0023975 -0.00090099 -0.0030101
-0.00077857 0.00058094 7.4543e-05 -0.00015294
0.0046594 0.0027873 0.25866 0.17035 -0.00016406 0.00023688 -0.0013161 0.00083649
-0.0001307 0.0013881 -0.00049694 0.00049166
-6.2347e-06 0.0023917 -0.0001667 0.00023447 0.16083 -0.24555 0.0015736 0.00043173
-0.00040245 0.0021708 -0.0013991 0.00042475
-0.00091035 -0.0029987 -0.0013094 0.00083879 0.0015702 0.00043686 0.20388 -0.09898
-0.0011295 0.0054062 -0.0015381 -0.0012576
-0.00076241 0.00058243 -0.00013001 0.0013945 -0.00038812 0.0021684 -0.0011116 0.0054164
0.2529 0.048779 0.0044801 0.0031714
7.5259e-05 -0.00014816 -0.0004901 0.00049519 -0.001398 0.00043482 -0.0015496 -0.0012523
0.0044885 0.0031743 0.27644 0.098466
1880000000 0.21581 -0.15033 0.0025287 0.00043404 -0.00033302 0.0021781 -0.0028322 -0.0022754
-0.00025257 0.0012931 0.00038633 -0.00063642
0.0025206 0.00043309 0.26284 0.12394 -0.0021513 0.0017659 -0.0001859 0.0016147
0.00067684 0.0014073 0.00016019 0.00097631
-0.00032499 0.0021778 -0.0021454 0.0017771 0.1084 -0.25531 0.0019927 -0.0011058
0.0013968 0.0019888 -0.00099491 0.0014642
-0.0028458 -0.0022549 -0.00017493 0.0016155 0.00199 -0.0011145 0.16201 -0.13812
-0.0010224 0.0044708 -0.0021615 0.00088899
-0.00024162 0.0012909 0.000686 0.0013996 0.0014032 0.0019776 -0.0010052 0.0044645
0.25386 0.014043 0.0040473 0.0015053
0.00038559 -0.00063761 0.00016778 0.00097619 -0.00099529 0.0014684 -0.0021466 0.00089555
0.004045 0.0014916 0.27612 0.064482
1940000000 0.17653 -0.17544 0.0004062 -0.0013607 0.0013955 0.0017645 -0.0037628 0.00048172
0.0010799 0.00095808 -0.00066569 -0.00074326
0.00040101 -0.001361 0.26314 0.092225 -0.00091724 0.0039677 0.00095156 0.001274
0.0020526 0.00052085 0.00085714 0.00022352
0.0014056 0.0017558 -0.00090519 0.0039631 0.062671 -0.24853 0.00044914 -0.0023583
0.0025016 0.00052989 0.00036995 0.0016742
-0.003764 0.00051138 0.00095928 0.0012606 0.00043882 -0.0023599 0.10896 -0.16739
-0.0020162 0.0040574 -0.0011483 0.0018783
0.0010835 0.00095162 0.0020659 0.00051312 0.0025029 0.00052312 -0.0020006 0.0040732
0.25304 -0.026618 0.0030307 -0.0016529
-0.00068701 -0.00074815 0.00086621 0.00021653 0.00038494 0.0016673 -0.0011495 0.0018771
0.0030357 -0.0016519 0.26499 0.02842
2000000000 0.13019 -0.18925 -0.0033779 0.00048048 0.0024436 0.0014822 -0.0022117 0.003592
0.00092507 0.0004293 -0.00076737 0.00030896
-0.0033699 0.0004732 0.24875 0.056798 -0.00069031 0.0055231 0.0015964 0.00034823
0.001565 -0.0015233 0.00058862 6.9257e-06
0.002462 0.0014713 -0.0006564 0.0055273 0.019479 -0.23427 -0.0015373 -0.0013431
0.002086 -0.0011755 0.0016017 0.0012467
-0.0022037 0.0036085 0.0015932 0.00034297 -0.0015381 -0.0013559 0.055817 -0.17584
-0.0033298 0.0049961 0.0001906 0.0019658
0.0009415 0.00041184 0.0015561 -0.0015492 0.0020861 -0.001181 -0.0033131 0.0050051
