!Keysight Technologies,M9804A,MY58100912,A.14.10.03
!Date: Thursday, April 27, 2023 10:28:33
!Correction: S11(C  6-Port  ) 
!S12(C  6-Port  ) 
!S13(C  6-Port  ) 
!S14(C  6-Port  ) 
!S15(C  6-Port  ) 
!S16(C  6-Port  ) 
!S21(C  6-Port  ) 
!S22(C  6-Port  ) 
!S23(C  6-Port  ) 
!S24(C  6-Port  ) 
!S25(C  6-Port  ) 
!S26(C  6-Port  ) 
!S31(C  6-Port  ) 
!S32(C  6-Port  ) 
!S33(C  6-Port  ) 
!S34(C  6-Port  ) 
!S35(C  6-Port  ) 
!S36(C  6-Port  ) 
!S41(C  6-Port  ) 
!S42(C  6-Port  ) 
!S43(C  6-Port  ) 
!S44(C  6-Port  ) 
!S45(C  6-Port  ) 
!S46(C  6-Port  ) 
!S51(C  6-Port  ) 
!S52(C  6-Port  ) 
!S53(C  6-Port  ) 
!S54(C  6-Port  ) 
!S55(C  6-Port  ) 
!S56(C  6-Port  ) 
!S61(C  6-Port  ) 
!S62(C  6-Port  ) 
!S63(C  6-Port  ) 
!S64(C  6-Port  ) 
!S65(C  6-Port  ) 
!S66(C  6-Port  ) 
!S6P File: Measurement: :
# Hz S  RI   R 50
500000000 -0.33666 -0.033441 -0.0098554 -0.003838 -0.0076105 0.011692 -0.0043789 0.011478
0.012379 0.004301 -0.0045089 0.0073402
-0.0098035 -0.0039093 -0.41956 -0.047859 0.0073893 -0.011362 0.0012544 0.011801
0.0074002 0.0021006 0.00065823 0.012993
-0.0075448 0.011689 0.0074426 -0.011367 -0.26443 0.21205 0.0069425 0.0032607
-0.00011618 0.0081993 0.00077042 0.012057
-0.0042344 0.011439 0.0014575 0.011899 0.0070107 0.0032897 -0.32731 0.050058
-0.019021 -0.0051086 0.017349 0.026563
0.012306 0.0041737 0.0074136 0.0019754 -4.3535e-05 0.0081348 -0.018984 -0.0051105
-0.22761 -0.17963 -0.027106 0.0044908
-0.0044513 0.0073105 0.00076765 0.013088 0.00081509 0.012074 0.017141 0.026592
-0.027116 0.0044657 -0.27208 -0.12949
560000000 -0.31501 0.12596 -0.02409 -0.062529 -9.6846e-06 0.012129 0.0066956 0.0098164
0.010757 0.0033708 0.009549 0.0077881
-0.02402 -0.062484 -0.37598 0.10975 -0.041543 -0.036844 0.013574 0.0037145
-0.013311 -0.0040351 0.0046832 -0.00076022
-4.6966e-05 0.012141 -0.041761 -0.036777 -0.18219 0.25988 -0.00070559 -0.0047835
0.019089 0.0037304 0.0071174 -0.0058804
0.0067823 0.0097691 0.013625 0.0037215 -0.00069789 -0.0046954 -0.30194 0.13637
0.0037628 -0.024891 0.0055537 -0.019588
0.010747 0.00348 -0.013373 -0.0039069 0.019124 0.0037258 0.0037567 -0.024917
-0.28545 -0.0077569 0.0076588 -0.05016
0.0095514 0.0077607 0.0046574 -0.00083693 0.0071473 -0.0057973 0.0054903 -0.019587
0.0077354 -0.050094 -0.3334 0.019334
620000000 -0.27259 0.11079 -0.023092 0.006961 0.0034757 0.0082403 0.0069281 -0.0055431
0.010676 -0.000386 -6.6307e-05 -0.0021136
-0.02306 0.0069454 -0.40195 0.064064 -0.018767 -0.00041899 -0.0013314 -0.0022226
0.010063 -0.0072793 0.0011259 -0.003285
0.0034593 0.0082439 -0.018803 -0.00035249 -0.1522 0.26796 -0.001515 -0.0052191
-0.0038624 -0.0034979 0.0081976 -0.0033056
0.0069279 -0.0056178 -0.0014471 -0.0022533 -0.0015087 -0.0052147 -0.26104 0.14689
-0.03798 -0.01859 0.013632 0.023892
0.01064 -0.00029792 0.010158 -0.0072135 -0.0038807 -0.0034521 -0.038096 -0.018512
-0.20646 -0.045521 -0.039849 0.015074
-6.8841e-05 -0.0021431 0.0009535 -0.0033873 0.0082218 -0.0032623 0.013656 0.023832
-0.039739 0.014986 -0.25111 -0.020226
680000000 -0.23182 0.19397 -0.027972 -0.013938 0.0047572 0.004934 0.0010125 -0.0070183
-0.0032544 -0.010685 0.0043819 -0.006902
-0.027922 -0.013938 -0.38637 0.16072 -0.032742 -0.0011826 -0.0014221 -0.00021295
-0.0030307 -0.0088914 -0.0010973 -0.0022583
0.0047856 0.0049296 -0.032794 -0.0010872 -0.10167 0.28771 -0.00067435 0.00013683
-0.0024845 0.00066646 -0.0030664 -0.0095648
0.00097324 -0.0070762 -0.0014526 -0.00024485 -0.00070333 0.0001413 -0.2182 0.19596
-0.023848 -0.0083859 -0.0098825 -0.010477
-0.0032382 -0.010664 -0.0030632 -0.0089079 -0.0024884 0.00067038 -0.023875 -0.0083564
-0.25014 0.051557 -0.0055345 -0.0098102
0.004406 -0.0068635 -0.0010232 -0.0022966 -0.0031039 -0.0096013 -0.00998 -0.010484
-0.005518 -0.0097766 -0.26183 0.086841
740000000 -0.18905 0.18904 -0.038345 0.026321 0.012395 -0.0053268 -0.00087681 -0.0037331
-0.0047245 -0.0028574 -0.006393 0.0034274
-0.03842 0.026259 -0.33506 0.17973 -0.034847 0.034514 -0.0011306 -0.0060348
-0.011453 0.008103 -0.0031193 -0.0060486
0.012343 -0.0053595 -0.034742 0.034672 -0.067862 0.28687 -0.0015617 0.003283
-0.0027534 -0.0038848 -0.0013075 8.0804e-05
-0.00090492 -0.0036743 -0.0010474 -0.0060729 -0.0015646 0.0033355 -0.20164 0.20387
-0.042389 -0.0081044 0.022187 0.013283
-0.0046835 -0.0027797 -0.011347 0.0081971 -0.0027941 -0.0038369 -0.042402 -0.0080996
-0.15692 0.073363 -0.041839 0.00037995
-0.0064486 0.0035065 -0.0029421 -0.0061324 -0.0013053 0.00013793 0.022219 0.013275
-0.041865 0.00037837 -0.25427 0.093222
800000000 -0.15689 0.22914 -0.022339 0.01715 0.0050646 -0.01045 -0.0047757 -0.0021055
-0.0038028 0.0031461 0.004336 0.00078347
-0.022336 0.017122 -0.3368 0.24942 -0.0077474 0.033934 -0.0020802 0.0022035
-0.0004024 0.0036804 0.0012757 0.0051128
0.0050558 -0.010475 -0.0076662 0.033989 -0.026767 0.30984 0.0013182 0.0014638
0.00077476 0.0036087 -0.0017688 0.00095344
-0.0047969 -0.0021074 -0.0020939 0.0022103 0.0013229 0.0014542 -0.17349 0.23115
-0.02825 0.012543 0.013214 -0.0099385
-0.0038422 0.0031632 -0.00041933 0.0036762 0.0007632 0.0035851 -0.028235 0.012596
-0.19889 0.098962 -0.017331 0.017608
0.0043753 0.00078389 0.0012839 0.0051032 -0.0017483 0.00097217 0.013222 -0.0099202
-0.01734 0.017575 -0.24612 0.14637
860000000 -0.12193 0.25065 -0.017043 0.031272 -0.0034797 -0.00961 -0.0025821 0.001588
0.0045327 0.0051975 -0.0031983 -0.0030596
-0.017044 0.031232 -0.28891 0.29136 0.0082747 0.033979 0.00026478 0.002124
0.0045838 0.00035128 0.0033939 -0.000248
-0.0035027 -0.00961 0.0083842 0.033979 0.021828 0.31754 -0.00035243 -0.00026339
0.0029267 -0.0015395 0.0015376 0.0045317
-0.0025151 0.0015799 0.00027373 0.0021179 -0.00033003 -0.00026135 -0.13812 0.24336
-0.017826 0.019161 -0.0065651 -0.009513
0.0045591 0.0051063 0.0045752 0.00030344 0.0029301 -0.0015557 -0.017841 0.019248
-0.14981 0.14677 -0.024698 0.015467
-0.0032147 -0.0029404 0.0034273 -0.00024432 0.001549 0.0045635 -0.0065907 -0.0095364
-0.024655 0.015427 -0.19446 0.18944
920000000 -0.096384 0.2738 0.0053245 0.03782 -0.0092879 -0.004024 -0.0017727 0.002424
0.0013208 0.0015999 0.0024063 -0.0013138
0.0052839 0.037766 -0.25977 0.31225 0.027946 0.021513 0.0015843 0.001076
0.0067651 -0.00087577 0.0036885 -0.0029914
-0.0092869 -0.0040109 0.02803 0.021462 0.068203 0.31763 0.0017808 -0.00012533
0.0012718 -0.00048692 0.00083572 -0.0010419
-0.0017548 0.0024262 0.0015854 0.0010705 0.0017693 -0.0001285 -0.11353 0.25943
-0.010381 0.029918 0.0027558 -0.0065659
0.0013297 0.0015994 0.0067821 -0.00091496 0.0012782 -0.00048288 -0.010321 0.029984
-0.13996 0.15261 -0.0016419 0.027528
0.0023956 -0.0012996 0.0036486 -0.0030448 0.0008262 -0.0010329 0.0027645 -0.0065345
-0.0017088 0.027493 -0.20227 0.20432
980000000 -0.048538 0.29299 0.018019 0.029796 -0.0086154 0.0047482 0.0024684 0.0037733
0.0038875 -0.0017157 -0.0031406 -0.0020028
0.01798 0.029764 -0.20682 0.34559 0.032681 0.0044362 0.001957 -2.9715e-05
0.00093805 -0.006093 -0.00076407 -0.0021058
-0.0085984 0.0047832 0.032711 0.0043228 0.11451 0.31057 0.00041137 -0.001221
-3.4191e-05 -0.0020994 0.0015812 -6.7654e-06
0.0025045 0.0037697 0.001947 -3.1425e-05 0.00041523 -0.0012248 -0.075211 0.27069
0.0075696 0.028578 -0.0095905 -0.0067095
0.0039287 -0.001703 0.00093657 -0.0061444 -3.626e-05 -0.0021066 0.0076242 0.028576
-0.10801 0.17967 0.004835 0.01871
-0.0031265 -0.0019642 -0.00077711 -0.0021069 0.0015894 -1.7008e-07 -0.0095933 -0.0066763
0.0048362 0.018727 -0.15938 0.24968
1040000000 -0.005384 0.3007 0.033308 0.017501 -0.00096901 0.0067917 0.0028011 0.00063048
-7.4474e-05 -0.0036894 -0.00062545 -0.0016338
0.033227 0.017499 -0.17081 0.35843 0.028819 -0.014892 0.0014171 -0.0016581
-0.0026231 -0.0022381 -0.0015927 -0.0025316
-0.00093395 0.0067768 0.028765 -0.014998 0.16058 0.29645 -0.00053675 -0.001377
-0.0015359 -0.00073712 -0.0004189 -0.0012121
0.0028158 0.00062313 0.0014065 -0.0016402 -0.00053498 -0.001384 -0.047603 0.28079
0.017975 0.016898 -0.0029426 0.0022351
-7.9684e-05 -0.0036444 -0.0026503 -0.0022318 -0.0015412 -0.00073248 0.017997 0.016871
-0.077293 0.18859 0.012994 0.017671
-0.00066053 -0.0016297 -0.0015992 -0.0025525 -0.00041634 -0.0012184 -0.0029309 0.0022494
0.012998 0.017659 -0.13854 0.27199
1100000000 0.040328 0.3077 0.035446 -0.004715 0.0029799 0.0036464 0.0026172 -0.0014494
-0.0020641 -0.0030309 -0.0038855 0.0002447
0.035405 -0.0046839 -0.12728 0.37503 0.01469 -0.027422 3.1666e-05 -0.0018178
-0.003069 -0.0003376 -0.0033704 -0.00053366
0.003 0.0036317 0.014593 -0.027501 0.2066 0.27581 -0.0017646 0.00027816
-0.0016571 0.00065647 -0.00097069 -0.00029459
0.0026109 -0.0014638 1.8156e-05 -0.0018192 -0.0017594 0.00027822 -0.0068119 0.28562
0.022369 0.0049249 -0.0023002 0.0012367
-0.0020778 -0.0030123 -0.0030824 -0.0003256 -0.0016584 0.00065626 0.02238 0.0048937
-0.059032 0.20203 0.018636 0.0083407
-0.0038639 0.00023048 -0.0033752 -0.00054174 -0.0009736 -0.00029684 -0.0022995 0.0012376
0.018617 0.0083356 -0.091865 0.30105
1160000000 0.091914 0.30184 0.023488 -0.020841 0.0026619 -0.00062281 -9.1089e-05 -0.0025223
-0.0040202 -0.00038316 -0.0010307 0.0039219
0.02346 -0.020818 -0.083264 0.3788 -0.0038369 -0.02855 -0.0017349 -0.0015639
-0.002287 0.0026186 -0.0013069 0.0015599
0.0026704 -0.00062245 -0.0039704 -0.028555 0.2494 0.24482 -0.00059192 0.0016944
-0.0003528 0.0017174 -0.0010504 9.4528e-05
-8.8954e-05 -0.002532 -0.0017495 -0.0015579 -0.00058594 0.0016933 0.032509 0.28248
0.018997 -0.0095963 -0.0025815 0.0055085
-0.0040106 -0.0003815 -0.0022778 0.0026078 -0.00036601 0.0017286 0.01897 -0.0096224
-0.025523 0.21111 0.017299 0.00047075
-0.0010126 0.0039529 -0.0012829 0.0015415 -0.0010583 0.00010919 -0.002553 0.0055039
0.017293 0.00048135 -0.044421 0.30363
1220000000 0.13631 0.28968 0.0099531 -0.029719 -0.0015721 -0.00087835 -0.00020177 -0.0011615
-0.0024685 0.0025171 0.001365 0.0018767
0.0099686 -0.029689 -0.039291 0.38989 -0.016622 -0.020623 -0.0024677 0.0004807
0.00029693 0.0027543 -0.00068276 0.0018123
-0.0015718 -0.00086889 -0.016746 -0.020569 0.28834 0.20573 0.00087384 0.0015295
0.00057006 0.0011127 0.0002707 0.00071093
-0.00019177 -0.0011692 -0.0024717 0.00047352 0.00087696 0.0015219 0.072175 0.27377
0.0090615 -0.015101 0.002861 0.001676
-0.0024516 0.0025364 0.00031576 0.0027561 0.00057109 0.0011088 0.0090468 -0.015121
-0.0017051 0.22057 0.013351 -0.012042
0.0013639 0.0018395 -0.00067004 0.0017927 0.00026883 0.00069314 0.0028737 0.0016765
0.013357 -0.012035 -0.013021 0.32092
1280000000 0.18552 0.26674 -0.0079416 -0.027957 -0.0018162 0.0024596 -0.0011605 -0.0019304
-0.0005736 0.0029985 0.0025197 0.0010623
-0.0079089 -0.027931 0.0062275 0.38055 -0.023157 -0.0082941 -0.0010427 0.0014888
0.0016209 0.0015056 0.00039606 0.0018843
-0.0018023 0.0024592 -0.023225 -0.0082062 0.31902 0.16183 0.00132 -0.000188
0.00092797 0.00014489 0.00032055 0.00039749
-0.0011624 -0.0019257 -0.0010134 0.0015046 0.0013197 -0.00018502 0.10846 0.2574
0.00047602 -0.016716 0.00068626 -3.7364e-05
-0.0005403 0.003002 0.0016195 0.0014883 0.00092358 0.00015086 0.00044804 -0.016721
0.035635 0.2239 0.0027434 -0.013944
0.0025168 0.0010532 0.0004182 0.0019332 0.00030779 0.00040944 0.00067808 -4.1912e-05
0.002737 -0.013918 0.035068 0.32263
1340000000 0.22213 0.23236 -0.017451 -0.018592 0.00081703 0.0042955 -0.0019484 -0.00065891
0.0014318 0.0025152 0.0016348 -0.001527
-0.017413 -0.018585 0.045405 0.37201 -0.021096 0.0040876 -6.6915e-05 0.0019246
0.0016435 0.00061568 0.0013065 0.00079065
0.00082213 0.0042901 -0.021096 0.0041939 0.34126 0.11374 0.00088379 -0.00085507
0.00052353 -0.00039361 0.0002502 0.00018087
-0.0019421 -0.00065598 -6.0529e-05 0.0019305 0.00088051 -0.00084508 0.14129 0.23728
-0.007484 -0.013867 0.0013928 -9.6127e-05
0.0014453 0.0025092 0.0016462 0.00060334 0.00052454 -0.00039733 -0.0075111 -0.013859
0.066399 0.21878 -0.0033589 -0.012624
0.0016181 -0.0015655 0.001297 0.00077952 0.00021191 0.00017973 0.0014136 -0.00010162
-0.0033574 -0.012631 0.073682 0.31862
1400000000 0.25435 0.19362 -0.023 -0.0073476 0.0049352 0.0030485 -0.0020171 0.00076692
0.002421 0.00062129 0.000131 -0.0013294
-0.02297 -0.0073585 0.082111 0.35887 -0.014566 0.012008 0.0013079 0.0012892
0.00090011 -0.00076915 0.0011526 0.0003131
0.0049501 0.0030207 -0.014524 0.012095 0.35422 0.059769 7.6225e-05 -0.0013821
1.6597e-05 -0.00033029 0.0003101 0.00024331
-0.0020087 0.00077446 0.0013307 0.0012889 7.6483e-05 -0.001387 0.17114 0.20891
-0.012245 -0.0079985 -0.000593 -0.00095704
0.0024227 0.00062082 0.00091115 -0.00077283 8.7017e-06 -0.00033284 -0.012279 -0.007983
0.099623 0.21368 -0.0092075 -0.0080125
0.00013086 -0.0013186 0.0011849 0.00031184 0.00032495 0.00024529 -0.00060615 -0.00094381
-0.0092247 -0.0079942 0.11905 0.30754
1460000000 0.27665 0.14946 -0.020151 0.0045011 0.005345 -0.0016948 -0.0015152 0.0016775
0.0018427 -0.00074535 -0.00032402 -0.00085969
-0.020133 0.004483 0.11621 0.33715 -0.0062639 0.014824 0.0016893 0.0001349
0.00082784 -0.001074 0.0011513 -0.00067817
0.0053452 -0.0017177 -0.0061922 0.014871 0.36008 0.0049082 -0.0010549 -0.001154
0.00026033 -9.3898e-05 0.00061877 -0.00044421
-0.0015136 0.0016864 0.0016918 0.00014636 -0.0010564 -0.0011471 0.19808 0.1799
-0.012804 -0.0027221 -0.0011513 0.001388
0.0018493 -0.00076035 0.00083477 -0.0010815 0.00026445 -9.6718e-05 -0.012816 -0.002689
0.12956 0.1984 -0.010763 -0.0028217
-0.00034502 -0.00086627 0.001128 -0.00067892 0.00062507 -0.00045424 -0.0011529 0.0014021
-0.010765 -0.0028255 0.15268 0.28666
1520000000 0.28834 0.10751 -0.014637 0.010041 0.0030491 -0.0039646 0.00014983 0.0025225
0.0016914 -0.0016955 -0.0011538 -0.00013771
-0.014632 0.010035 0.14967 0.32226 0.0011658 0.012883 0.0015594 -0.00080063
0.00011978 -0.00089894 0.00025926 -0.0010166
0.003033 -0.0039818 0.0012387 0.01289 0.35274 -0.051542 -0.00091538 -0.00032741
0.00055693 -0.00073639 -9.0998e-05 -3.2212e-05
0.00016273 0.0025149 0.0015565 -0.000814 -0.00092342 -0.00034308 0.22198 0.14164
-0.012287 0.0017272 0.00093754 0.0015989
0.0016827 -0.0017076 0.00012004 -0.00090794 0.00055571 -0.00074389 -0.012289 0.0017572
0.15756 0.18334 -0.010827 0.0011241
-0.001146 -0.00014334 0.00026144 -0.001027 -8.8022e-05 -3.2372e-05 0.00093215 0.0016035
-0.01082 0.0011185 0.18644 0.26612
1580000000 0.29718 0.061056 -0.008202 0.013143 -0.00094549 -0.0046795 0.0013392 0.0017548
-0.00053059 -0.0020094 -0.00032829 0.0004444
-0.0082179 0.01313 0.17697 0.29745 0.0048649 0.0082671 0.00042212 -0.0015705
-0.00036041 -0.0010575 -0.00025333 -0.00084137
-0.0009521 -0.0046707 0.0049257 0.008241 0.33218 -0.10917 -0.0014638 0.000465
-0.00021017 -0.0011172 0.00010746 -0.00058113
0.0013415 0.0017596 0.0004212 -0.0015753 -0.0014624 0.00046458 0.23678 0.10167
-0.0097275 0.0057177 0.0016931 0.00058568
-0.00055548 -0.0020102 -0.00037414 -0.001045 -0.00021254 -0.0011179 -0.0097296 0.0057558
0.18181 0.16461 -0.008749 0.0064327
-0.00032126 0.0004548 -0.00025405 -0.00084552 0.00010251 -0.00057294 0.0016895 0.00056333
-0.0087358 0.006415 0.2187 0.23926
1640000000 0.29865 0.019242 -0.001672 0.012237 -0.0026368 -0.0024735 0.0025203 0.00099832
-0.0008225 -0.0010808 -0.00032472 0.00074762
-0.0016781 0.01222 0.20648 0.27204 0.0055996 0.0036906 -0.00073527 -0.0016061
-0.00096247 -0.00050298 -0.00055728 -0.00062785
-0.0026503 -0.0024605 0.0056296 0.0036691 0.30335 -0.15819 -0.00086362 0.0012988
-0.0010108 -0.00077085 -6.7582e-05 -0.00022713
0.0025256 0.00098541 -0.00074323 -0.0016029 -0.0008662 0.0013016 0.24954 0.051632
-0.0064778 0.0066673 0.0020553 -0.00067119
-0.0008362 -0.0010675 -0.00097247 -0.00048422 -0.0010178 -0.00075902 -0.006472 0.0066914
0.20467 0.13902 -0.0045297 0.0085423
-0.00029434 0.00073409 -0.00055208 -0.00063139 -7.3295e-05 -0.00023571 0.0020458 -0.00068049
-0.0045288 0.0085308 0.24477 0.20797
1700000000 0.29057 -0.026389 0.0018067 0.0096561 -0.0034519 0.00012766 0.0029209 -0.0010278
-0.00175 -0.0003661 0.00054842 0.00035462
0.0017947 0.0096513 0.22443 0.2402 0.0037659 0.00082721 -0.001387 -0.00054463
-0.00081697 -3.9481e-05 -0.00093566 -0.00040726
-0.003449 0.00013639 0.0037734 0.00080314 0.25951 -0.19806 0.00030092 0.0015913
-0.0017218 -0.00031037 -0.00060084 -0.00086779
0.0029108 -0.0010319 -0.0013876 -0.00052862 0.00029095 0.0015923 0.24604 0.00038037
-0.0046393 0.0072184 0.0012661 -0.0019106
-0.0017483 -0.00034686 -0.00083338 -3.8983e-05 -0.0017272 -0.00030833 -0.0046268 0.0072437
0.22223 0.11732 -0.00022012 0.0089723
0.00053895 0.00036381 -0.00094312 -0.00037746 -0.00060908 -0.00086804 0.001267 -0.0019103
-0.0002102 0.0089841 0.26117 0.17331
1760000000 0.27732 -0.074999 0.0042803 0.006503 -0.0021759 0.00085655 0.0013637 -0.0032647
-0.00095847 0.00069947 0.0004316 -0.00049396
0.0042593 0.0065076 0.25015 0.19989 0.0017239 -0.00090894 -0.0010999 0.00020813
-0.001184 0.00089139 -0.00059471 0.00052648
-0.0021787 0.00087907 0.0017163 -0.00092294 0.21035 -0.23069 0.0010876 0.0013494
-0.0011588 0.0013281 -0.001303 -0.00050563
0.001347 -0.0032739 -0.0011056 0.000203 0.0010942 0.0013315 0.23553 -0.052275
-0.0021517 0.0067685 -0.00055885 -0.0020137
-0.00095376 0.00070618 -0.0011649 0.00089998 -0.001147 0.0013205 -0.0021393 0.0067788
0.23711 0.080514 0.003264 0.0063689
0.00042343 -0.00051975 -0.00059561 0.00051265 -0.0013048 -0.00052101 -0.0005668 -0.0020082
0.003246 0.0063607 0.27382 0.13531
1820000000 0.25148 -0.11209 0.0046612 0.0028595 -2.3157e-05 0.002365 -0.00088607 -0.0030286
-0.00076627 0.00066306 5.7485e-05 -0.00012898
0.0046513 0.002856 0.25954 0.16941 -0.0001037 0.00010323 -0.0013184 0.00087314
-0.00014163 0.0014461 -0.00050047 0.00052623
-2.4273e-05 0.0023619 -0.00010379 9.3978e-05 0.1605 -0.2461 0.0015729 0.00058367
-0.00041324 0.002139 -0.0013378 0.00047509
-0.0008801 -0.0030379 -0.0013113 0.00088154 0.0015607 0.00058355 0.20376 -0.099893
-0.0010204 0.0056057 -0.0016715 -0.0012624
-0.00072587 0.00066443 -0.00013385 0.0014582 -0.00041033 0.0021448 -0.0010068 0.0056073
0.25317 0.049291 0.0042951 0.0031162
6.6673e-05 -0.00013958 -0.00050121 0.00054365 -0.0013188 0.00048383 -0.001688 -0.0012399
0.0042823 0.0031213 0.27602 0.099215
1880000000 0.21525 -0.15137 0.0025264 0.00052311 -0.0003586 0.0020726 -0.0027992 -0.0022485
-0.00027108 0.0013236 0.00032614 -0.00062573
0.0025167 0.00052062 0.26338 0.12281 -0.0021 0.0016764 -0.00017994 0.0016488
0.00071135 0.0014 0.00020216 0.00098116
-0.00035904 0.0020656 -0.0020903 0.0017002 0.10839 -0.25545 0.0019938 -0.0010666
0.0014148 0.0020342 -0.00090485 0.0014149
-0.0028311 -0.0022353 -0.00017868 0.0016395 0.002006 -0.0010601 0.16154 -0.13924
-0.00085023 0.0045177 -0.0021803 0.00083487
-0.00026467 0.0013189 0.00070953 0.0013971 0.001408 0.0020377 -0.00082978 0.004523
0.25435 0.014345 0.003942 0.0014665
0.00031022 -0.00065264 0.00021678 0.00097205 -0.00088707 0.0014132 -0.0022081 0.00082553
0.003938 0.001448 0.27591 0.064994
1940000000 0.17537 -0.17614 0.00029618 -0.0013282 0.0013764 0.001909 -0.003869 0.00044762
0.0010632 0.00097035 -0.00065775 -0.00063867
0.00029202 -0.0013546 0.26321 0.090983 -0.0010176 0.0038749 0.000936 0.0013015
0.0020802 0.00052829 0.00082327 0.00026338
0.001386 0.0019055 -0.0010061 0.0038824 0.062267 -0.24887 0.00036575 -0.0023718
0.0024706 0.00054657 0.00031121 0.0016116
-0.0038476 0.0004738 0.00098033 0.00131 0.00037828 -0.0023642 0.10822 -0.16782
-0.0019217 0.0040233 -0.0010799 0.001783
0.001084 0.00096412 0.0020942 0.00052024 0.0024589 0.00056723 -0.0019026 0.0040415
0.2536 -0.026657 0.0029801 -0.0015194
-0.00067864 -0.00063755 0.00083771 0.00029344 0.00029376 0.0016231 -0.0010404 0.0017681
0.0029897 -0.0015013 0.26495 0.029181
2000000000 0.12905 -0.18949 -0.0035472 0.00051916 0.0024709 0.0015415 -0.0023539 0.0035855
0.00090334 0.00036096 -0.00080743 0.00048337
-0.0035357 0.00051252 0.24838 0.05577 -0.00086498 0.0055989 0.0016174 0.00027003
0.0015427 -0.0016073 0.00058428 8.3427e-05
0.0024741 0.0015125 -0.00083262 0.0056041 0.018711 -0.23444 -0.0014968 -0.0014162
0.0020444 -0.0012002 0.0016898 0.0012533
-0.0023501 0.0036001 0.0016075 0.00024848 -0.0015055 -0.0014271 0.054876 -0.176
-0.0031777 0.0048973 0.00021467 0.0021136
0.00088977 0.00032401 0.0015326 -0.0016396 0.0020458 -0.0012108 -0.0031509 0.0049043
