!Keysight Technologies,M9804A,MY58100912,A.14.10.03
!Date: Thursday, April 27, 2023 10:28:33
!Correction: S11(C  6-Port  ) 
!S12(C  6-Port  ) 
!S13(C  6-Port  ) 
!S14(C  6-Port  ) 
!S15(C  6-Port  ) 
!S16(C  6-Port  ) 
!S21(C  6-Port  ) 
!S22(C  6-Port  ) 
!S23(C  6-Port  ) 
!S24(C  6-Port  ) 
!S25(C  6-Port  ) 
!S26(C  6-Port  ) 
!S31(C  6-Port  ) 
!S32(C  6-Port  ) 
!S33(C  6-Port  ) 
!S34(C  6-Port  ) 
!S35(C  6-Port  ) 
!S36(C  6-Port  ) 
!S41(C  6-Port  ) 
!S42(C  6-Port  ) 
!S43(C  6-Port  ) 
!S44(C  6-Port  ) 
!S45(C  6-Port  ) 
!S46(C  6-Port  ) 
!S51(C  6-Port  ) 
!S52(C  6-Port  ) 
!S53(C  6-Port  ) 
!S54(C  6-Port  ) 
!S55(C  6-Port  ) 
!S56(C  6-Port  ) 
!S61(C  6-Port  ) 
!S62(C  6-Port  ) 
!S63(C  6-Port  ) 
!S64(C  6-Port  ) 
!S65(C  6-Port  ) 
!S66(C  6-Port  ) 
!S6P File: Measurement: :
# Hz S  RI   R 50
500000000 -0.33642 -0.032758 -0.0093909 -0.003112 -0.0076723 0.011559 -0.0043032 0.01178
0.012369 0.0042329 -0.0041964 0.0077524
-0.0094203 -0.0030366 -0.41913 -0.047607 0.0075765 -0.01164 0.0011155 0.011854
0.0075733 0.0024757 0.00027553 0.013579
-0.0074065 0.011907 0.0076578 -0.011525 -0.26377 0.21132 0.0068933 0.0032306
0.00022476 0.0083623 0.00069646 0.012202
-0.003956 0.011962 0.001576 0.012099 0.0069174 0.0032502 -0.32641 0.050466
-0.018641 -0.0053689 0.01727 0.027031
0.012353 0.00375 0.0075766 0.0023887 0.00031582 0.0083155 -0.018784 -0.0054142
-0.22803 -0.17766 -0.026995 0.0046508
-0.0043432 0.0077692 0.0008182 0.013479 0.00055036 0.012254 0.017652 0.027104
-0.026728 0.0044593 -0.27266 -0.12859
560000000 -0.31395 0.12647 -0.023684 -0.062745 5.3729e-05 0.012033 0.0067617 0.0098317
0.011013 0.0037469 0.009135 0.0078779
-0.023588 -0.062602 -0.37521 0.10894 -0.041859 -0.036976 0.013793 0.0034453
-0.013184 -0.0036538 0.0048958 -0.00084522
-0.0001482 0.012276 -0.041883 -0.036857 -0.18184 0.2583 -0.00085314 -0.0046884
0.018107 0.0036438 0.0073728 -0.0061701
0.0069017 0.010026 0.013804 0.0035967 -0.00099134 -0.0046956 -0.30157 0.13598
0.0045562 -0.025425 0.0050438 -0.019303
0.011382 0.003657 -0.013312 -0.0038833 0.018521 0.0031875 0.0044462 -0.02548
-0.28628 -0.0048692 0.0078215 -0.050956
0.0095429 0.0081332 0.0042574 -0.00093735 0.0076021 -0.0063514 0.0050645 -0.019108
0.0078492 -0.051086 -0.33327 0.02052
620000000 -0.27242 0.11049 -0.023323 0.0068316 0.0031371 0.00832 0.007177 -0.005843
0.010958 -7.5474e-05 -0.00049119 -0.0024283
-0.023282 0.0068389 -0.40189 0.063564 -0.019133 -0.00058545 -0.0014399 -0.0020984
0.010047 -0.0073708 0.00081172 -0.0030013
0.0031304 0.0083439 -0.019166 -0.00054611 -0.15253 0.26712 -0.0016168 -0.0053468
-0.0044101 -0.003005 0.0082933 -0.0032524
0.0066332 -0.0059111 -0.0015474 -0.0022335 -0.0015906 -0.0054826 -0.26062 0.14681
-0.038147 -0.018689 0.013829 0.023608
0.010637 -2.1895e-05 0.0099286 -0.0072514 -0.0044696 -0.0031859 -0.03813 -0.019275
-0.20593 -0.044023 -0.039991 0.015017
-0.00080141 -0.0017439 0.00079882 -0.0031681 0.0083352 -0.0035284 0.013948 0.024303
-0.040049 0.014962 -0.25048 -0.019298
680000000 -0.23176 0.19348 -0.027987 -0.014123 0.0048357 0.0051447 0.001165 -0.0073913
-0.0035324 -0.010908 0.004464 -0.0064087
-0.027949 -0.014131 -0.38645 0.15987 -0.033207 -0.0011761 -0.0015037 -0.00027922
-0.0031663 -0.008873 -0.0012466 -0.0022374
0.0048687 0.0051282 -0.033241 -0.0011141 -0.10238 0.2871 -0.00060561 0.00042166
-0.0024418 0.00086925 -0.003189 -0.0096708
0.00098664 -0.0073376 -0.0016285 -0.00023949 -0.00059005 0.00039413 -0.21844 0.19527
-0.024106 -0.0087836 -0.0103 -0.010344
-0.0036701 -0.010915 -0.0032047 -0.0089133 -0.0025075 0.00096462 -0.024145 -0.0085401
-0.24984 0.052429 -0.0059012 -0.0098205
0.0045867 -0.0068258 -0.0013518 -0.0023105 -0.0032028 -0.0097145 -0.010513 -0.010506
-0.0057878 -0.009627 -0.26109 0.086374
740000000 -0.18877 0.18913 -0.03868 0.026116 0.012491 -0.0051198 -0.00091373 -0.0037001
-0.0045947 -0.0026118 -0.0064576 0.0037833
-0.038685 0.026065 -0.33515 0.17922 -0.035064 0.034961 -0.00098676 -0.0060437
-0.011084 0.008181 -0.0030906 -0.0061397
0.012489 -0.0051499 -0.035166 0.035058 -0.068907 0.28678 -0.0012047 0.0033297
-0.0025322 -0.0034414 -0.0011587 0.00023605
-0.00095044 -0.0038172 -0.0010098 -0.0059281 -0.0012271 0.0033402 -0.20212 0.20319
-0.042888 -0.0083358 0.022201 0.013137
-0.0042998 -0.0023873 -0.011133 0.0081233 -0.0026 -0.003649 -0.042769 -0.0081967
-0.15695 0.07531 -0.042245 0.00023036
-0.0062645 0.0037093 -0.003082 -0.0058211 -0.00095266 0.00018429 0.022016 0.013029
-0.042165 0.00014347 -0.25343 0.092912
800000000 -0.1571 0.22888 -0.022677 0.017079 0.0052223 -0.010446 -0.0047573 -0.0019497
-0.0039445 0.0031014 0.0044495 0.00085233
-0.022677 0.017068 -0.33748 0.2491 -0.0078794 0.034452 -0.0020371 0.0022726
-0.00036107 0.0036116 0.0013027 0.0052519
0.0051232 -0.010497 -0.0078128 0.034434 -0.027616 0.31009 0.0013783 0.0014097
0.0007226 0.0035329 -0.0017756 0.0011479
-0.0049609 -0.0020209 -0.0020745 0.0022562 0.0013818 0.0014096 -0.17436 0.23073
-0.028945 0.012657 0.013296 -0.0097168
-0.0039596 0.0030726 -0.00034385 0.003579 0.00076717 0.0035429 -0.028788 0.012708
-0.199 0.099501 -0.017588 0.017474
0.0043536 0.00073769 0.0012169 0.0053304 -0.0016205 0.0012485 0.013175 -0.0098414
-0.018106 0.017576 -0.24645 0.14663
860000000 -0.12222 0.25026 -0.017251 0.031473 -0.0035134 -0.0097338 -0.00239 0.001697
0.0043875 0.0051211 -0.0032292 -0.0028738
-0.017259 0.031421 -0.28952 0.29136 0.0084073 0.034453 0.0004566 0.0020804
0.0045784 0.00023849 0.0034162 -0.00017721
-0.003488 -0.0097733 0.0085338 0.034439 0.021213 0.31818 -0.00035506 -0.00037693
0.0028375 -0.0015999 0.0015937 0.004663
-0.0022755 0.0015212 0.00048699 0.0020018 -0.00035144 -0.00038367 -0.139 0.24337
-0.018307 0.019414 -0.0064084 -0.0093923
0.0046149 0.004893 0.0046706 6.6821e-05 0.0027984 -0.0015995 -0.018306 0.019674
-0.15083 0.14754 -0.024834 0.015525
-0.0029065 -0.0027647 0.0034601 -5.3046e-05 0.0016702 0.0046743 -0.0061821 -0.0096485
-0.024764 0.015351 -0.19536 0.18986
920000000 -0.096546 0.27368 0.0051839 0.038087 -0.0093841 -0.0040789 -0.001693 0.0025175
0.0014247 0.0014844 0.0023703 -0.0013348
0.0051456 0.038052 -0.26036 0.3124 0.028317 0.021835 0.0016681 0.0011785
0.0067345 -0.00093213 0.0037334 -0.0029994
-0.0093928 -0.0040384 0.028398 0.021767 0.068027 0.31838 0.0016904 -6.6725e-05
0.0013495 -0.00049546 0.00095624 -0.00095389
-0.0016591 0.0024996 0.0016717 0.0011386 0.001733 -7.8874e-05 -0.11444 0.25996
-0.010424 0.03057 0.0025387 -0.0065598
0.001426 0.0014693 0.0067399 -0.00097816 0.0012881 -0.00049477 -0.010474 0.030563
-0.14004 0.15409 -0.0016791 0.027886
0.0024022 -0.001316 0.0036774 -0.0029495 0.00096741 -0.00098708 0.0023497 -0.0065391
-0.0015873 0.027933 -0.203 0.20442
980000000 -0.048695 0.29314 0.018151 0.030192 -0.0087163 0.004909 0.0026484 0.0037069
0.0038945 -0.0018102 -0.0030715 -0.0019394
0.018101 0.030158 -0.20728 0.34611 0.033148 0.004452 0.001972 -0.00011758
0.00091539 -0.0061644 -0.000674 -0.0022244
-0.008703 0.0049165 0.033194 0.0043304 0.11461 0.31132 0.00044892 -0.0012004
1.1537e-05 -0.0021477 0.001704 -3.9285e-05
0.0026516 0.0036725 0.0020104 -0.00017553 0.00043788 -0.0011823 -0.075492 0.27169
0.0077497 0.029337 -0.0095331 -0.0066419
0.0039326 -0.0018186 0.00088602 -0.0061241 2.7792e-05 -0.0021468 0.0078668 0.029302
-0.10812 0.18103 0.0048539 0.019061
-0.003072 -0.002065 -0.00071876 -0.0022449 0.0016195 -6.8474e-05 -0.0092773 -0.0066179
0.0048025 0.019072 -0.15969 0.24983
1040000000 -0.0054077 0.30098 0.033606 0.017786 -0.00089349 0.006994 0.0029035 0.00050057
-8.9586e-05 -0.0038229 -0.00063491 -0.001613
0.033546 0.017806 -0.17113 0.359 0.029179 -0.015109 0.0013847 -0.0016735
-0.0027048 -0.0021658 -0.0015987 -0.0026511
-0.00085815 0.007025 0.029123 -0.01525 0.16095 0.29708 -0.00057038 -0.0013971
-0.00149 -0.00077644 -0.00032375 -0.0012825
0.0028744 0.00050902 0.0013491 -0.0017176 -0.0005668 -0.0013894 -0.047572 0.28179
0.018711 0.017358 -0.0029573 0.002426
-1.7084e-05 -0.0037443 -0.0026783 -0.0021506 -0.001524 -0.00081899 0.018763 0.017398
-0.076945 0.19015 0.013293 0.017951
-0.00072953 -0.0015555 -0.0016155 -0.0026844 -0.00040061 -0.0012949 -0.0028838 0.0024145
0.013403 0.018034 -0.139 0.27219
1100000000 0.040251 0.30785 0.035889 -0.0046478 0.0031933 0.0037003 0.0025082 -0.0016043
-0.00211 -0.0030018 -0.0038055 0.0002169
0.035864 -0.0046237 -0.1274 0.37581 0.014755 -0.027863 -8.7788e-05 -0.0018203
-0.0030374 -0.00024084 -0.0033408 -0.00060695
0.0031988 0.003699 0.014651 -0.027936 0.20724 0.27621 -0.0018035 0.00026038
-0.0016599 0.00064259 -0.00092234 -0.00048532
0.0025098 -0.0016152 -8.1728e-05 -0.0018392 -0.0018027 0.00028366 -0.0064068 0.28647
0.023186 0.0049392 -0.002123 0.0012872
-0.0021385 -0.0029644 -0.0030679 -0.00021888 -0.0016661 0.00064309 0.023175 0.0048654
-0.058422 0.20354 0.018888 0.0084089
-0.0038533 0.00016995 -0.0034183 -0.00055711 -0.00095185 -0.0005081 -0.0020013 0.0011283
0.019079 0.008521 -0.091926 0.30177
1160000000 0.09202 0.30207 0.023866 -0.021096 0.002871 -0.00072839 -0.00024429 -0.0025874
-0.0040179 -0.00035891 -0.00090355 0.0039282
0.023856 -0.021057 -0.082935 0.37957 -0.0040563 -0.028859 -0.0017793 -0.0015097
-0.0021966 0.0025838 -0.0012871 0.0016195
0.0028745 -0.00072058 -0.0041831 -0.02888 0.25017 0.24483 -0.00053993 0.0017234
-0.00038696 0.0016922 -0.0011653 2.4694e-05
-0.0002761 -0.002589 -0.0018213 -0.0015251 -0.00055034 0.0017326 0.033486 0.2831
0.019586 -0.010104 -0.002548 0.0055935
-0.0040432 -0.00032645 -0.0022212 0.0026214 -0.00040265 0.0016799 0.019601 -0.010124
-0.024676 0.21275 0.017561 0.00016171
-0.00088635 0.0039806 -0.0013151 0.0016621 -0.0012031 2.282e-05 -0.0025383 0.0056166
0.01751 0.00042421 -0.044529 0.30439
1220000000 0.13642 0.28986 0.010151 -0.03014 -0.0015318 -0.0011031 -0.00027819 -0.001059
-0.0024749 0.0025405 0.0013287 0.0019045
0.010162 -0.030105 -0.038636 0.39061 -0.016977 -0.020713 -0.0024539 0.00056158
0.00030287 0.0027168 -0.00068774 0.0018148
-0.0015348 -0.0010831 -0.017074 -0.020669 0.28903 0.20537 0.00088097 0.0014743
0.00051686 0.0011284 0.00012316 0.00078577
-0.0003199 -0.0010584 -0.002465 0.00056077 0.00088121 0.0014829 0.073272 0.27382
0.0093056 -0.015873 0.0029115 0.0015419
-0.0024773 0.0026045 0.00030801 0.0026738 0.00052044 0.0011297 0.0093105 -0.015892
-0.00018685 0.22202 0.013653 -0.012495
0.001294 0.0019077 -0.00071708 0.0017887 0.00012058 0.00080794 0.002939 0.0015586
0.013531 -0.01249 -0.013047 0.3215
1280000000 0.18585 0.26698 -0.0080697 -0.02842 -0.0018946 0.0022881 -0.0011244 -0.0018147
-0.00050798 0.0030319 0.0025024 0.00097685
-0.0080347 -0.028395 0.0072855 0.38089 -0.023452 -0.0081352 -0.00090553 0.0014879
0.0015294 0.0014625 0.00040182 0.0019289
-0.0018826 0.0022874 -0.023524 -0.0080647 0.31937 0.16114 0.0013028 -0.0002158
0.00094863 0.00017521 0.00023562 0.00049065
-0.0011497 -0.0018045 -0.00092019 0.0014695 0.0012887 -0.00021567 0.10959 0.25701
0.00038088 -0.017465 0.0005841 -0.00020303
-0.00052296 0.0030487 0.0015633 0.0014621 0.00092337 0.0001884 0.00034572 -0.01742
0.037571 0.22518 0.0028717 -0.014375
0.0025612 0.0009148 0.00050079 0.0019892 0.00021036 0.00050933 0.0005288 -0.00020648
0.0029781 -0.014518 0.035231 0.3229
1340000000 0.22264 0.23222 -0.017762 -0.018903 0.0007182 0.0042236 -0.0018047 -0.00060675
0.0014752 0.0025362 0.0015491 -0.0015148
-0.017725 -0.018894 0.04644 0.37176 -0.021169 0.0043177 -1.0005e-05 0.0018613
0.0015805 0.00064394 0.0013065 0.00080753
0.00073603 0.004229 -0.021181 0.0044354 0.34124 0.11311 0.00087987 -0.00084679
0.00062787 -0.00036235 0.00027176 0.00027958
-0.0018234 -0.00061712 -2.6182e-05 0.0018629 0.00088377 -0.00084429 0.14196 0.23638
-0.0079071 -0.014395 0.0013275 -0.00024099
0.0014986 0.002532 0.0015935 0.00064838 0.00060715 -0.00036678 -0.0079489 -0.014426
0.068763 0.21948 -0.003557 -0.012965
0.0015557 -0.0016048 0.0013174 0.00078369 0.0002688 0.00024716 0.0013212 -0.00010934
-0.0034906 -0.012996 0.074316 0.31893
1400000000 0.25477 0.19326 -0.023448 -0.0074193 0.004809 0.0030364 -0.0019376 0.00069631
0.0024231 0.00063158 6.2498e-05 -0.0013423
-0.023417 -0.0074246 0.082983 0.35815 -0.014518 0.012219 0.0012739 0.0012117
0.00087026 -0.00075232 0.0011849 0.00028004
0.0048062 0.0030248 -0.014471 0.012294 0.354 0.059335 5.5651e-05 -0.0013333
0.00010099 -0.0003585 0.00038183 0.00032425
-0.0019491 0.00067153 0.0012746 0.0011886 6.646e-05 -0.0013389 0.17132 0.20782
-0.012826 -0.008219 -0.00070315 -0.00094165
0.0024471 0.00059857 0.00088522 -0.00076404 9.8244e-05 -0.00033237 -0.012858 -0.0081836
0.10208 0.21352 -0.0095979 -0.0081026
8.1137e-05 -0.0013784 0.0011877 0.00025451 0.0004109 0.00031558 -0.00067452 -0.00090554
-0.0095451 -0.0081908 0.11961 0.30774
1460000000 0.27687 0.14876 -0.020505 0.0046874 0.0052749 -0.0016171 -0.0015152 0.0016482
0.0018672 -0.00082119 -0.00039202 -0.00076666
-0.0205 0.0046673 0.11656 0.33603 -0.0060874 0.014877 0.0016288 0.00014583
0.00082311 -0.0010842 0.0011279 -0.00068114
0.0052625 -0.0016244 -0.0060403 0.014926 0.35974 0.0045692 -0.0010147 -0.0011764
0.00026165 -0.00020991 0.000718 -0.00041774
-0.0015168 0.00164 0.0016443 0.00013599 -0.0010168 -0.0011778 0.19781 0.17877
-0.013375 -0.0025536 -0.0011725 0.0014562
0.0018463 -0.00079959 0.00082264 -0.0010863 0.00024396 -0.00016762 -0.013426 -0.0025493
0.13179 0.19744 -0.011197 -0.0028859
-0.00037615 -0.00073481 0.0011749 -0.00064083 0.00075991 -0.00041912 -0.0011466 0.0013849
-0.011211 -0.0028272 0.15333 0.28649
1520000000 0.28803 0.10679 -0.014871 0.010371 0.0030311 -0.0038695 0.00013 0.0024709
0.0016895 -0.0017321 -0.0010908 -0.00012327
-0.014873 0.010353 0.14954 0.32116 0.0013001 0.012839 0.0015435 -0.00076848
0.00012092 -0.00090652 0.00024783 -0.0010547
0.0029863 -0.0038994 0.0013657 0.012852 0.35237 -0.051751 -0.00092184 -0.00038622
0.00051238 -0.00078236 -3.4425e-05 -9.1394e-05
0.00014232 0.0024816 0.0015445 -0.00077188 -0.00092078 -0.00037897 0.22121 0.14077
-0.012726 0.0022144 0.00091016 0.0016709
0.0016976 -0.0017613 0.00011224 -0.00090517 0.0005032 -0.00078306 -0.012711 0.0022538
0.15944 0.18195 -0.011133 0.0013031
-0.001144 -0.00013126 0.00022755 -0.0010588 -5.8086e-05 -8.312e-05 0.00094346 0.0017208
-0.011219 0.0013057 0.18672 0.26591
1580000000 0.29648 0.060533 -0.0082089 0.013498 -0.00090385 -0.0045393 0.0013211 0.001761
-0.00059137 -0.0020314 -0.00026759 0.00048981
-0.0082062 0.013481 0.17633 0.29647 0.0048923 0.0081861 0.00046711 -0.0015401
-0.00038466 -0.0010582 -0.00031229 -0.0007923
-0.00092696 -0.0045545 0.0049386 0.0081563 0.33172 -0.10916 -0.0014931 0.00043164
-0.00025573 -0.0010856 0.00013378 -0.00061956
0.0013398 0.0017468 0.00046896 -0.0015422 -0.0014908 0.00042147 0.23573 0.10111
-0.0098248 0.0061748 0.001633 0.00055799
-0.00061557 -0.0020516 -0.00040202 -0.0010608 -0.00023874 -0.0010825 -0.0097902 0.0062275
0.18325 0.16294 -0.008928 0.0066764
-0.00024122 0.00046743 -0.0002926 -0.00079043 8.925e-05 -0.00064853 0.0016923 0.00054831
-0.0090088 0.0066113 0.21904 0.23898
1640000000 0.29771 0.019194 -0.0014833 0.012468 -0.0025392 -0.0024462 0.002481 0.0009735
-0.00083836 -0.0011096 -0.00027253 0.00070052
-0.0014893 0.012456 0.20549 0.27147 0.0055898 0.0035988 -0.00074129 -0.0016288
-0.00097922 -0.00046153 -0.00056749 -0.00058139
-0.0025429 -0.0024424 0.0056055 0.0035652 0.3031 -0.15799 -0.00088889 0.0012696
-0.00098102 -0.00075974 -0.00012947 -0.0003124
0.0024933 0.00096293 -0.00074403 -0.0016248 -0.0008857 0.001258 0.24824 0.051606
-0.0063096 0.0070058 0.0020719 -0.0005824
-0.00083627 -0.0010819 -0.00097864 -0.00045086 -0.0010279 -0.000779 -0.0063054 0.0070323
0.20545 0.13734 -0.0044379 0.0088215
-0.0002998 0.0006538 -0.00058444 -0.00060241 -9.6224e-05 -0.00029222 0.0020677 -0.00055975
-0.0044513 0.0087444 0.24499 0.20788
1700000000 0.28976 -0.02586 0.0020119 0.0097412 -0.00336 0.00010423 0.0028825 -0.00099357
-0.0017953 -0.00032064 0.00059841 0.00039816
0.002003 0.0097386 0.22324 0.24006 0.0036976 0.00079065 -0.0013938 -0.00054249
-0.00080987 -4.5983e-07 -0.00089391 -0.0003036
-0.0033257 0.00010025 0.0037183 0.00074857 0.25943 -0.19767 0.00029787 0.0016084
-0.001735 -0.00025358 -0.0005822 -0.00095818
0.0028683 -0.0010229 -0.0013905 -0.00054247 0.00030052 0.0016018 0.24479 0.0009015
-0.0043941 0.0073668 0.0013682 -0.0018716
-0.0017883 -0.0002929 -0.00081879 1.9236e-05 -0.0016636 -0.0002659 -0.0043834 0.0073733
0.22234 0.11567 -0.00010576 0.0092748
0.00060091 0.00036912 -0.00089727 -0.00031345 -0.00061364 -0.00097061 0.0012686 -0.0019358
-1.0286e-05 0.0091992 0.26154 0.17303
1760000000 0.27682 -0.074177 0.0044398 0.0064678 -0.0021898 0.00085568 0.0013521 -0.0031844
-0.00099651 0.00074065 0.00039963 -0.00053307
0.0044312 0.0064739 0.24901 0.20028 0.0016356 -0.00089346 -0.0011178 0.0002481
-0.0011149 0.00088539 -0.00049988 0.00054098
-0.0021705 0.00086811 0.0016449 -0.00087037 0.21045 -0.23046 0.0011924 0.001347
-0.0011125 0.0014147 -0.001369 -0.00039586
0.0013396 -0.0032081 -0.0011241 0.00024016 0.0011728 0.0013685 0.23484 -0.05113
-0.0020053 0.0068639 -0.00047026 -0.0019183
-0.00096949 0.00076809 -0.001133 0.00091256 -0.0011017 0.0014464 -0.0019801 0.0068413
0.23669 0.079061 0.0034416 0.0065074
0.00037831 -0.00046231 -0.00051046 0.00055928 -0.0014025 -0.00041773 -0.00037339 -0.0019603
0.0035344 0.0065795 0.27396 0.13528
1820000000 0.25154 -0.11098 0.0047611 0.0028636 1.8147e-05 0.002434 -0.00085051 -0.0030116
-0.00073022 0.00073305 7.0676e-05 -9.3536e-05
0.0047555 0.0028556 0.25863 0.17023 -0.00021133 0.00018351 -0.00129 0.00090333
-0.00010129 0.0014047 -0.00041699 0.00053556
3.5263e-05 0.0024121 -0.00019489 0.00018039 0.16051 -0.24591 0.0016447 0.00056561
-0.00033256 0.0021655 -0.0013622 0.00056147
-0.00087207 -0.0030055 -0.0013009 0.0009062 0.0016471 0.00057478 0.20368 -0.098455
-0.0010146 0.0057109 -0.0016175 -0.0012963
-0.00070514 0.00071542 -8.6448e-05 0.0014108 -0.00030603 0.0022055 -0.00094519 0.0056938
0.2524 0.048114 0.0044956 0.0031464
4.6497e-05 -0.0001416 -0.00040513 0.00051473 -0.0012367 0.00057886 -0.0016561 -0.0013641
0.0044911 0.003124 0.27623 0.098912
1880000000 0.21587 -0.15047 0.0026697 0.00053859 -0.00020606 0.0020729 -0.0028393 -0.0022197
-0.00018286 0.0013739 0.00033351 -0.00064396
0.0026651 0.00053979 0.26292 0.12397 -0.0020331 0.0018055 -0.00014712 0.0016917
0.00068634 0.0013303 0.00020328 0.00087867
-0.00023214 0.0020819 -0.0020439 0.0018236 0.10862 -0.25526 0.0019715 -0.0010718
0.0014444 0.0019686 -0.00091052 0.001445
-0.0028534 -0.0022212 -0.00014518 0.0016686 0.0019471 -0.0010767 0.16235 -0.13786
-0.00076789 0.0046884 -0.002248 0.00073265
-0.00022337 0.0013493 0.00068761 0.0013254 0.0014321 0.0019574 -0.00076165 0.0047281
0.25338 0.01361 0.0041647 0.001234
0.00029777 -0.00058449 0.00019618 0.00088585 -0.00089789 0.0015255 -0.0021174 0.00074416
0.0041672 0.0013816 0.27599 0.06464
1940000000 0.17638 -0.17566 0.00050827 -0.0013562 0.0013423 0.0017268 -0.0038066 0.00039274
0.0011466 0.00086753 -0.00062869 -0.00067909
0.00050921 -0.001358 0.26331 0.092244 -0.00091341 0.0039297 0.00096301 0.0012714
0.0020239 0.00048509 0.00076982 0.00019713
0.0013559 0.0017377 -0.00089534 0.0039466 0.062426 -0.24886 0.00027502 -0.0023949
0.0024535 0.00050278 0.00023846 0.0015221
-0.0037806 0.00037317 0.0010002 0.0012408 0.00027965 -0.0023932 0.10939 -0.1671
-0.0016426 0.0041348 -0.0011039 0.001725
0.0011718 0.00082881 0.002031 0.00046797 0.002407 0.00047084 -0.0016667 0.0042091
0.25276 -0.02681 0.0030241 -0.0016667
-0.00060957 -0.00069406 0.00079332 0.00013022 0.00029937 0.0015493 -0.001183 0.0018427
0.0030231 -0.0017753 0.26508 0.028587
2000000000 0.1302 -0.1896 -0.0033481 0.00041931 0.0023911 0.0014469 -0.0023016 0.003493
0.00091078 0.00019558 -0.0007873 0.00040602
-0.0033361 0.00041093 0.24899 0.056784 -0.00073926 0.0055073 0.0016356 0.00021496
0.001507 -0.0015719 0.00044487 0.00014688
0.0024006 0.0014317 -0.00068197 0.0055401 0.018934 -0.23462 -0.0015536 -0.0013858
0.0019937 -0.0012687 0.0015242 0.00133
-0.0023072 0.003559 0.0015772 0.00021588 -0.0015987 -0.0013185 0.056253 -0.17607
-0.0027397 0.0048559 0.00022265 0.0023228
0.00088171 0.00026001 0.0014631 -0.0016027 0.0020295 -0.0012848 -0.0027311 0.004857
