!Keysight Technologies,M9804A,MY58100912,A.14.10.03
!Date: Thursday, April 27, 2023 10:28:33
!Correction: S11(C  6-Port  ) 
!S12(C  6-Port  ) 
!S13(C  6-Port  ) 
!S14(C  6-Port  ) 
!S15(C  6-Port  ) 
!S16(C  6-Port  ) 
!S21(C  6-Port  ) 
!S22(C  6-Port  ) 
!S23(C  6-Port  ) 
!S24(C  6-Port  ) 
!S25(C  6-Port  ) 
!S26(C  6-Port  ) 
!S31(C  6-Port  ) 
!S32(C  6-Port  ) 
!S33(C  6-Port  ) 
!S34(C  6-Port  ) 
!S35(C  6-Port  ) 
!S36(C  6-Port  ) 
!S41(C  6-Port  ) 
!S42(C  6-Port  ) 
!S43(C  6-Port  ) 
!S44(C  6-Port  ) 
!S45(C  6-Port  ) 
!S46(C  6-Port  ) 
!S51(C  6-Port  ) 
!S52(C  6-Port  ) 
!S53(C  6-Port  ) 
!S54(C  6-Port  ) 
!S55(C  6-Port  ) 
!S56(C  6-Port  ) 
!S61(C  6-Port  ) 
!S62(C  6-Port  ) 
!S63(C  6-Port  ) 
!S64(C  6-Port  ) 
!S65(C  6-Port  ) 
!S66(C  6-Port  ) 
!S6P File: Measurement: :
# Hz S  RI   R 50
500000000 -0.33606 -0.032096 -0.010015 -0.0039112 -0.0080084 0.011327 -0.0038943 0.01158
0.011826 0.0042828 -0.0043428 0.00777
-0.0099252 -0.0039859 -0.41812 -0.048474 0.0078593 -0.011726 0.0013129 0.011076
0.0077802 0.0026655 0.00076592 0.012313
-0.0079819 0.011323 0.0078279 -0.011757 -0.2641 0.21154 0.006719 0.0030257
0.0002646 0.0082046 0.00033193 0.012005
-0.0039008 0.011577 0.0013578 0.011086 0.0067209 0.0030217 -0.32681 0.049135
-0.0188 -0.0053004 0.017904 0.025466
0.011889 0.0041709 0.0077876 0.0026331 0.00025528 0.0082005 -0.018803 -0.0052917
-0.22799 -0.1796 -0.026341 0.0039872
-0.0043057 0.0077343 0.00081858 0.012335 0.00033871 0.011982 0.017883 0.025441
-0.026392 0.0039356 -0.27123 -0.12871
560000000 -0.31536 0.12482 -0.023911 -0.063032 0.00023269 0.012084 0.0062857 0.010448
0.011539 0.0039461 0.0086188 0.0069029
-0.023825 -0.062982 -0.37575 0.10961 -0.041803 -0.036955 0.014018 0.0035666
-0.013257 -0.0046456 0.0052194 -0.00063746
0.00022093 0.012102 -0.041964 -0.036863 -0.18226 0.25904 -0.0010635 -0.0048432
0.018865 0.0038359 0.0071822 -0.0061584
0.006268 0.010258 0.01404 0.0035206 -0.0010531 -0.0048548 -0.30101 0.136
0.0031793 -0.025168 0.0057343 -0.019259
0.011537 0.0039502 -0.013306 -0.0046029 0.018884 0.0039216 0.0031312 -0.025218
-0.28475 -0.0057617 0.0067139 -0.051192
0.00873 0.006991 0.005219 -0.00061849 0.0071517 -0.0061894 0.0057602 -0.019251
0.0067384 -0.051133 -0.33319 0.018738
620000000 -0.27319 0.11019 -0.023153 0.0068811 0.0033355 0.0081379 0.006827 -0.0053271
0.010736 -0.00091372 0.00043599 -0.0016856
-0.023149 0.006871 -0.40196 0.063342 -0.019021 -0.00069477 -0.0017115 -0.001893
0.010479 -0.0074328 0.00084544 -0.0031612
0.0033808 0.0081216 -0.01905 -0.00065417 -0.15263 0.26733 -0.0017601 -0.0050197
-0.0041603 -0.0032641 0.007827 -0.0034551
0.0068088 -0.0053295 -0.0017444 -0.0018628 -0.0017628 -0.0050159 -0.26008 0.14613
-0.039282 -0.01929 0.015048 0.023793
0.010786 -0.00083589 0.010497 -0.0074186 -0.0041628 -0.0032637 -0.039274 -0.019273
-0.20512 -0.043609 -0.040829 0.014063
0.00038677 -0.001653 0.00078513 -0.0031626 0.0078184 -0.0034504 0.015073 0.023791
-0.041063 0.01411 -0.25224 -0.016994
680000000 -0.23224 0.193 -0.027838 -0.014375 0.005073 0.0049387 0.00070461 -0.0073032
-0.0027733 -0.010746 0.0046556 -0.008159
-0.027796 -0.014381 -0.38645 0.15988 -0.032836 -0.0011735 -0.0017987 -0.00026516
-0.002937 -0.0085679 -0.00086031 -0.0024975
0.0050655 0.0049565 -0.032874 -0.0010764 -0.10206 0.28731 -0.00066184 -3.5386e-05
-0.0025724 0.0010197 -0.0029881 -0.0097132
0.00066047 -0.007355 -0.0018158 -0.00027349 -0.00065936 -3.8002e-05 -0.21804 0.19559
-0.023783 -0.0087242 -0.010794 -0.0098698
-0.0028893 -0.010823 -0.0029753 -0.0085977 -0.002514 0.00098381 -0.023815 -0.0087147
-0.2508 0.051126 -0.0048506 -0.010056
0.0046987 -0.0080861 -0.00081893 -0.0025057 -0.002986 -0.0097109 -0.010773 -0.0098446
-0.0048784 -0.010052 -0.26216 0.084965
740000000 -0.18933 0.1891 -0.038442 0.026035 0.012551 -0.0052162 -0.00080673 -0.0041343
-0.0050465 -0.0022705 -0.0058787 0.0032327
-0.038455 0.025967 -0.33514 0.17927 -0.035082 0.034754 -0.0006149 -0.0060912
-0.011452 0.0089178 -0.0020792 -0.0060241
0.012528 -0.0052341 -0.035018 0.034867 -0.068635 0.28675 -0.0013181 0.0034802
-0.003093 -0.0038053 -0.0010373 0.00089129
-0.00081521 -0.0041379 -0.00059038 -0.0060466 -0.0013326 0.0034802 -0.20136 0.20293
-0.04297 -0.0077499 0.023534 0.01285
-0.005046 -0.0023366 -0.011475 0.0090204 -0.003134 -0.0038005 -0.042999 -0.0077268
-0.15642 0.074414 -0.043483 0.00056031
-0.0058094 0.003295 -0.002144 -0.0059887 -0.0010595 0.00088587 0.023546 0.012866
-0.043516 0.00060445 -0.25043 0.093888
800000000 -0.15734 0.22873 -0.022572 0.017288 0.005214 -0.010401 -0.0048367 -0.0020348
-0.0042436 0.0031227 0.0045505 0.00083935
-0.022572 0.017218 -0.33729 0.24891 -0.0079103 0.034218 -0.0018429 0.0023446
-0.00046137 0.0035215 0.0013925 0.0055337
0.0051887 -0.010414 -0.0078211 0.034282 -0.027413 0.30992 0.0012987 0.0013978
0.00082998 0.0035438 -0.0019186 0.0011104
-0.0048368 -0.0020523 -0.0018373 0.002345 0.001293 0.0014034 -0.1741 0.23108
-0.028593 0.013021 0.013021 -0.0095194
-0.0041912 0.003053 -0.00043237 0.0035165 0.00085089 0.0035309 -0.028621 0.013101
-0.19914 0.097962 -0.018325 0.017927
0.0045509 0.00075915 0.001415 0.0055261 -0.0019159 0.0011042 0.013004 -0.0095243
-0.018332 0.017957 -0.24569 0.14847
860000000 -0.12234 0.2502 -0.01726 0.03139 -0.0035714 -0.0098122 -0.0025008 0.0012379
0.0044351 0.0048296 -0.0026826 -0.0030797
-0.017279 0.031352 -0.28949 0.291 0.0082673 0.03419 0.00026774 0.0021152
0.0044935 -1.7464e-05 0.003483 -0.00010461
-0.0035893 -0.0098122 0.0083806 0.034193 0.021192 0.31776 -0.00038978 -0.00036252
0.0026779 -0.0016902 0.0016459 0.0045203
-0.0024227 0.0012741 0.00029592 0.0021257 -0.00039136 -0.00036733 -0.13865 0.24276
-0.017958 0.018632 -0.0060746 -0.0092072
0.0046046 0.0048172 0.0044609 -4.3596e-05 0.0026641 -0.0016805 -0.017947 0.018665
-0.15059 0.14688 -0.023917 0.015236
-0.0027891 -0.0030957 0.0034878 -0.00012145 0.0016556 0.0045279 -0.0061117 -0.0092114
-0.023986 0.015151 -0.19469 0.19104
920000000 -0.096914 0.27362 0.005318 0.038122 -0.0093425 -0.0040745 -0.0016586 0.0025452
0.0014226 0.0014055 0.0022785 -0.0011602
0.0052841 0.038084 -0.26022 0.31202 0.028226 0.021677 0.0016845 0.0012158
0.0066778 -0.00093983 0.0034483 -0.0027677
-0.0093499 -0.0040579 0.028327 0.021612 0.06785 0.31807 0.0017583 -0.00013723
0.0012914 -0.00052821 0.000837 -0.0010519
-0.0016406 0.0025442 0.0016873 0.0012175 0.0017601 -0.00014129 -0.1139 0.25974
-0.010413 0.030242 0.0026556 -0.0059848
0.0014089 0.0013969 0.0066723 -0.00096989 0.0013077 -0.00053059 -0.010366 0.030303
-0.13948 0.15276 -0.0023381 0.027568
0.0022875 -0.0012525 0.0034365 -0.0027398 0.00082942 -0.0010516 0.002662 -0.005997
-0.0023365 0.02758 -0.20247 0.2061
980000000 -0.049194 0.29292 0.017994 0.029987 -0.0086965 0.0048169 0.0025121 0.0037365
0.003903 -0.0016829 -0.0028715 -0.002101
0.017984 0.029975 -0.20744 0.34538 0.033005 0.0044691 0.0019792 -0.00012791
0.00097728 -0.0060391 -0.00046653 -0.0022618
-0.0086766 0.0048453 0.033043 0.0043619 0.11425 0.31103 0.00044297 -0.0011702
5.0644e-05 -0.002073 0.001663 -0.0001369
0.0025235 0.0037339 0.0019543 -0.00011946 0.00044391 -0.001173 -0.075854 0.2712
0.0075255 0.028723 -0.0094869 -0.0066163
0.0038834 -0.0017036 0.00092022 -0.0060799 3.6323e-05 -0.0020654 0.0075846 0.02872
-0.10822 0.17974 0.0051002 0.018676
-0.0028597 -0.0020913 -0.00051135 -0.0022557 0.0016696 -0.0001337 -0.0095066 -0.0066125
0.0051107 0.018624 -0.15855 0.25078
1040000000 -0.0060814 0.30092 0.033455 0.01777 -0.0010215 0.0069348 0.0028837 0.00063008
-0.00013214 -0.0037003 -0.00070953 -0.0015609
0.033422 0.017741 -0.17153 0.35843 0.029023 -0.015021 0.0014795 -0.0016864
-0.0026135 -0.0023175 -0.0014842 -0.0026014
-0.00098701 0.0069235 0.028978 -0.015121 0.16054 0.29698 -0.00053212 -0.001385
-0.0015188 -0.00078874 -0.00032638 -0.0012455
0.0028848 0.0006014 0.0014613 -0.0016842 -0.0005325 -0.0013843 -0.047765 0.28135
0.018547 0.017114 -0.0030401 0.0020954
-0.00014203 -0.0037255 -0.0026487 -0.0022848 -0.0015134 -0.00078143 0.018578 0.017082
-0.077573 0.18943 0.01346 0.017822
-0.00066486 -0.0015848 -0.0015074 -0.0025577 -0.00033005 -0.0012455 -0.0030314 0.0021106
0.013419 0.017867 -0.13792 0.27237
1100000000 0.039678 0.3078 0.03575 -0.0046842 0.0031162 0.0037238 0.0024847 -0.0015131
-0.0021625 -0.0030436 -0.0038593 7.8056e-05
0.035722 -0.0046838 -0.12784 0.37526 0.014748 -0.027746 -3.5486e-05 -0.0017793
-0.003164 -0.00033876 -0.0034556 -0.00048667
0.0031397 0.0037134 0.014652 -0.027827 0.2068 0.27618 -0.0017239 0.00032903
-0.0016962 0.00068136 -0.00096869 -0.00043629
0.002483 -0.0015219 -5.1213e-05 -0.0017795 -0.0017251 0.00032987 -0.0068358 0.28601
0.022857 0.0047683 -0.0022709 0.0010298
-0.0021722 -0.0030073 -0.0031567 -0.00034839 -0.0016963 0.00068368 0.022877 0.0047463
-0.058762 0.20236 0.018813 0.0083604
-0.0038805 9.1738e-05 -0.0034544 -0.00046907 -0.00097677 -0.00042938 -0.0022578 0.0010374
0.018812 0.0083518 -0.091122 0.30141
1160000000 0.091357 0.30226 0.0236 -0.020995 0.0027857 -0.0006245 -0.00012516 -0.0026508
-0.0040643 -0.00042325 -0.00085911 0.0041468
0.023617 -0.020983 -0.083796 0.37907 -0.0039283 -0.028718 -0.0017341 -0.0016265
-0.002159 0.0025881 -0.0013304 0.0015599
0.0027956 -0.00063708 -0.0040663 -0.02872 0.24965 0.24503 -0.00055343 0.0016725
-0.00034599 0.0017152 -0.0011092 5.4095e-05
-0.00011968 -0.0026475 -0.001741 -0.0016012 -0.00055875 0.001672 0.032802 0.2829
0.019156 -0.010034 -0.0027277 0.0055696
-0.0040542 -0.00038293 -0.0021518 0.0026152 -0.00034729 0.0017203 0.019152 -0.010077
-0.0255 0.21159 0.017526 0.00021825
-0.00083796 0.0041499 -0.0013492 0.001586 -0.0011012 6.5954e-05 -0.0027225 0.0055903
0.017502 0.00020721 -0.043878 0.30447
1220000000 0.13581 0.29016 0.010016 -0.030007 -0.0015266 -0.0010449 -0.00022709 -0.0010493
-0.0024683 0.0025975 0.0012465 0.0017914
0.010036 -0.029969 -0.03943 0.39032 -0.016837 -0.02072 -0.0024687 0.00048307
0.00033983 0.0027948 -0.00062533 0.001663
-0.001519 -0.0010383 -0.016949 -0.020667 0.28866 0.20573 0.00086559 0.0015426
0.00058706 0.0011512 0.00020957 0.00067218
-0.0002406 -0.0010516 -0.0024756 0.00048604 0.0008598 0.0015389 0.072623 0.27378
0.0090607 -0.015553 0.0029326 0.0017502
-0.0024879 0.0025867 0.00035011 0.0027655 0.00057482 0.0011351 0.0090356 -0.015558
-0.001463 0.22106 0.0134 -0.012323
0.0012545 0.0017761 -0.00061145 0.0016747 0.00021235 0.00067088 0.0029386 0.0017373
0.01343 -0.012308 -0.011821 0.32162
1280000000 0.18522 0.2672 -0.0080741 -0.028229 -0.0018916 0.0023494 -0.0010808 -0.0019072
-0.00059036 0.003095 0.002482 0.0010542
-0.0080456 -0.02821 0.0063735 0.38079 -0.023415 -0.0081954 -0.00090825 0.0014649
0.0015614 0.0014218 0.00054785 0.0020376
-0.0018871 0.0023457 -0.02348 -0.0080893 0.31917 0.16147 0.0013246 -0.00022736
0.00086246 5.9649e-05 0.00028446 0.00044841
-0.001101 -0.0019033 -0.00090246 0.0014818 0.0013225 -0.00022851 0.10886 0.25721
0.00017854 -0.017018 0.00056406 -1.1415e-05
-0.00057988 0.0030908 0.0015672 0.0014322 0.0008702 4.8266e-05 0.00015044 -0.017031
0.035762 0.2245 0.0028946 -0.014295
0.0024985 0.001033 0.00055406 0.0020113 0.00029066 0.00045697 0.00056476 -2.6668e-05
0.0028912 -0.014309 0.035983 0.32304
1340000000 0.22196 0.23283 -0.017675 -0.018737 0.00075225 0.0042722 -0.0018997 -0.00065684
0.0014632 0.0025556 0.0015136 -0.0015026
-0.017631 -0.018727 0.045529 0.3719 -0.021184 0.0042084 -7.0145e-05 0.0019163
0.0016247 0.00062363 0.0013591 0.00080045
0.00077117 0.0042618 -0.021184 0.0043222 0.3409 0.11353 0.00085093 -0.00082
0.00048728 -0.00038894 0.00019309 0.00027285
-0.0019065 -0.00065524 -6.0731e-05 0.0019165 0.00084842 -0.00082196 0.14156 0.23681
-0.0077235 -0.013954 0.0014222 -8.8594e-05
0.0014699 0.0025524 0.0016294 0.00061713 0.00048866 -0.0003869 -0.0077572 -0.013923
0.066816 0.21953 -0.0034586 -0.01272
0.0015072 -0.0015255 0.0013641 0.00078725 0.00019529 0.00027287 0.0014263 -8.601e-05
-0.0034613 -0.012715 0.075269 0.31852
1400000000 0.25431 0.1939 -0.023258 -0.0073457 0.0049213 0.0031021 -0.0020052 0.00073093
0.0024718 0.00062539 0.00011778 -0.0012727
-0.023228 -0.0073544 0.082254 0.35848 -0.014516 0.012112 0.0013022 0.0012272
0.00089636 -0.00077442 0.0011148 0.00029377
0.0049428 0.003075 -0.014471 0.012203 0.35403 0.0598 0.00012968 -0.0013441
4.3627e-05 -0.00034693 0.00035821 0.00022468
-0.0020058 0.00074692 0.0013051 0.0012288 0.00013009 -0.0013379 0.171 0.20846
-0.012688 -0.0079141 -0.00053079 -0.00088669
0.0024718 0.00061465 0.00088094 -0.00078335 4.4897e-05 -0.000334 -0.012713 -0.0078862
0.10036 0.21408 -0.009641 -0.0082356
0.00011683 -0.001289 0.0011319 0.00028857 0.00035942 0.00023002 -0.00053642 -0.00088711
-0.0096153 -0.0082519 0.12021 0.30764
1460000000 0.27642 0.14948 -0.020299 0.0046207 0.0053904 -0.0017386 -0.0014699 0.0017062
0.0019095 -0.00078787 -0.00034869 -0.00081697
-0.020295 0.0046116 0.11602 0.33649 -0.0060672 0.014867 0.001638 0.00014114
0.00081148 -0.0010434 0.0011749 -0.00067515
0.0053953 -0.0017643 -0.0059981 0.014908 0.35967 0.0051922 -0.0010933 -0.0011438
0.00022705 -0.00011738 0.00072813 -0.00039748
-0.0014659 0.0017062 0.0016507 0.00012905 -0.0011001 -0.0011468 0.19769 0.17942
-0.013067 -0.0023329 -0.0011846 0.0013769
0.0018965 -0.00080371 0.00081494 -0.0010644 0.00022347 -0.00011519 -0.013073 -0.0023169
0.13012 0.19878 -0.011025 -0.0029201
-0.00037269 -0.00081087 0.0011573 -0.00066746 0.00073002 -0.00040864 -0.0011824 0.0013797
-0.011023 -0.002932 0.15366 0.28633
1520000000 0.28784 0.10763 -0.014707 0.010247 0.0030239 -0.0039722 0.00015095 0.0025115
0.0016469 -0.0017399 -0.0010692 -0.00011592
-0.014707 0.010234 0.14914 0.3217 0.0013041 0.012822 0.0015654 -0.00077671
9.6812e-05 -0.00087775 0.00024232 -0.0010395
0.0030026 -0.0039964 0.0013784 0.012832 0.35248 -0.051151 -0.00087437 -0.00032985
0.00049363 -0.00073073 -8.3847e-06 -4.1867e-05
0.0001627 0.0025235 0.0015603 -0.00078254 -0.00087764 -0.0003322 0.22148 0.14138
-0.012258 0.0021811 0.00094209 0.0016935
0.001631 -0.0017553 9.2038e-05 -0.00088637 0.00048721 -0.00074345 -0.012267 0.0022074
0.15832 0.18339 -0.011066 0.0013195
-0.0010793 -0.00011035 0.00022594 -0.0010534 -6.6142e-06 -3.9839e-05 0.00094423 0.0016886
-0.011065 0.0013205 0.18726 0.26577
1580000000 0.29655 0.061317 -0.0081444 0.013335 -0.00097202 -0.0045841 0.001359 0.001799
-0.00055177 -0.0019851 -0.00030123 0.00035158
-0.0081392 0.013321 0.17609 0.29695 0.0049079 0.0081358 0.00043682 -0.001519
-0.00034561 -0.00099861 -0.00031219 -0.00085695
-0.00098807 -0.0045835 0.0049581 0.0081244 0.3322 -0.10887 -0.0014695 0.00045688
-0.00028362 -0.0011214 0.00016346 -0.00052413
0.0013729 0.0017912 0.00042788 -0.0015274 -0.001467 0.00045771 0.23616 0.10155
-0.009516 0.0059336 0.0017795 0.00067233
-0.00055635 -0.0019702 -0.00035577 -0.00098613 -0.00027973 -0.0011194 -0.0095105 0.0059556
0.18252 0.16434 -0.0088915 0.0066557
-0.00030413 0.00037011 -0.00033121 -0.00085899 0.00016212 -0.00052593 0.0017754 0.00067027
-0.0089036 0.006638 0.21936 0.23897
1640000000 0.29795 0.019905 -0.0015175 0.012316 -0.0026302 -0.0024363 0.0025735 0.00099023
-0.000842 -0.0010497 -0.00033396 0.00066449
-0.0015252 0.012302 0.20532 0.27193 0.0055655 0.0036392 -0.00070513 -0.001586
-0.0009294 -0.00047928 -0.00055128 -0.00062646
-0.0026395 -0.0024284 0.0055902 0.003608 0.30306 -0.15748 -0.00084708 0.0012246
-0.00094299 -0.0008246 -8.3512e-05 -0.00032027
0.0025661 0.00098785 -0.00071977 -0.001581 -0.00084851 0.0012328 0.24873 0.051843
-0.0060852 0.0066603 0.002041 -0.0006675
-0.00086017 -0.0010569 -0.00093268 -0.00046854 -0.00093236 -0.00082456 -0.0060764 0.0066902
0.20537 0.1387 -0.004558 0.0086968
-0.00032404 0.00066388 -0.00054108 -0.00061818 -8.2e-05 -0.00032054 0.0020409 -0.00067422
-0.0045646 0.0087104 0.24544 0.20755
1700000000 0.29007 -0.025546 0.0019941 0.0096266 -0.0033826 0.00018523 0.002914 -0.0010922
-0.0016982 -0.00028185 0.00056094 0.00037328
0.0019927 0.0096193 0.22324 0.24044 0.003755 0.00080183 -0.0013436 -0.00053154
-0.00080283 9.2584e-06 -0.00087583 -0.00039409
-0.0033723 0.00020464 0.0037683 0.00078707 0.25995 -0.19731 0.00031528 0.0016318
-0.0017654 -0.00028861 -0.00049936 -0.00087891
0.0029085 -0.0011109 -0.0013435 -0.00052005 0.00031298 0.0016256 0.24539 0.00081201
-0.0043679 0.0069882 0.0012389 -0.0019338
-0.0017101 -0.00025725 -0.00081003 3.8842e-05 -0.0017536 -0.00028673 -0.0043588 0.0069984
0.22264 0.11676 -8.5171e-05 0.009099
0.00056234 0.00039212 -0.00088958 -0.00038445 -0.00051594 -0.00087633 0.0012396 -0.0019332
-8.063e-05 0.0090896 0.26176 0.17275
1760000000 0.27693 -0.073766 0.0043223 0.0064185 -0.0021205 0.00077801 0.0013213 -0.0032664
-0.00094267 0.00070112 0.00042318 -0.0003265
0.0043227 0.0064101 0.24891 0.20047 0.0016302 -0.0010528 -0.0010842 0.00019807
-0.0011586 0.0008365 -0.00060605 0.00055482
-0.0021145 0.00078813 0.0016277 -0.0010615 0.21102 -0.23078 0.00096175 0.0013233
-0.0010805 0.0012137 -0.0014264 -0.00047962
0.0012978 -0.0032722 -0.0010921 0.00021402 0.00097094 0.0013216 0.23517 -0.051446
-0.0020599 0.0065453 -0.00052413 -0.0021018
-0.00094095 0.00070134 -0.0011505 0.00084359 -0.0010836 0.0012309 -0.0020537 0.0065542
0.23717 0.080008 0.0035413 0.0064414
0.00042317 -0.00032655 -0.00060128 0.00055824 -0.0014235 -0.00049101 -0.00050706 -0.0021021
0.0035245 0.0064573 0.27434 0.13478
1820000000 0.25168 -0.11062 0.0046866 0.0028609 5.5554e-05 0.0024128 -0.00086342 -0.0029918
-0.00074805 0.00061486 0.00010137 -0.00014122
0.0046637 0.0028666 0.25864 0.17046 -0.00016519 0.00025154 -0.0013298 0.00083992
-0.00015723 0.0014004 -0.00050589 0.0005155
7.0655e-05 0.0023944 -0.00016236 0.00025171 0.16083 -0.24544 0.0015166 0.00042003
-0.00045128 0.0021665 -0.0013523 0.00050358
-0.00088486 -0.0029913 -0.001333 0.00084761 0.0015212 0.0004187 0.20394 -0.098816
-0.0011021 0.0054696 -0.0014679 -0.0012231
-0.0007576 0.00063111 -0.00014748 0.0013966 -0.00044735 0.0021607 -0.0010864 0.0054763
0.25285 0.04875 0.0044803 0.0032582
9.3323e-05 -0.00012456 -0.00049633 0.00051298 -0.0013512 0.00049774 -0.0014734 -0.0012184
0.0044915 0.0032631 0.27637 0.098464
1880000000 0.2159 -0.15014 0.0025078 0.00047863 -0.00033316 0.0021789 -0.0028834 -0.0021471
-0.00032658 0.0012961 0.00041253 -0.00059519
0.0025162 0.00047436 0.26283 0.12395 -0.0021641 0.0017771 -0.00023218 0.0016385
0.00064193 0.0013736 0.00016618 0.00095456
-0.00031649 0.0021799 -0.0021571 0.0017964 0.10851 -0.25527 0.0019594 -0.0011105
0.001391 0.0020049 -0.0010409 0.0014433
-0.0029077 -0.0021465 -0.00021934 0.0016297 0.0019652 -0.0011004 0.16209 -0.13798
-0.0010425 0.0044669 -0.0021852 0.0008616
-0.00031023 0.0012833 0.00066871 0.0013563 0.0013946 0.0019981 -0.0010369 0.0044762
0.25388 0.013977 0.0041234 0.0014657
0.00040964 -0.0006174 0.00018417 0.00095934 -0.0010245 0.0014412 -0.0021749 0.00086739
0.0041124 0.0014638 0.27621 0.0643
1940000000 0.17656 -0.17516 0.00038489 -0.001344 0.001371 0.0017223 -0.0037927 0.0004658
0.0010848 0.00098131 -0.00068159 -0.0007256
0.00038423 -0.0013386 0.2631 0.092257 -0.00093361 0.003956 0.00095043 0.001297
0.0020155 0.00054383 0.00088588 0.00022344
0.0013826 0.0017254 -0.00091921 0.0039703 0.062694 -0.24847 0.00048473 -0.0023699
0.0024932 0.00058978 0.00045046 0.0017538
-0.0037848 0.00048038 0.00096376 0.001289 0.00049339 -0.0023774 0.10904 -0.16748
-0.0019056 0.0040074 -0.0010989 0.0019166
0.0010891 0.00098987 0.0020094 0.00052804 0.0024944 0.00057895 -0.0018951 0.004022
0.25306 -0.02657 0.0030271 -0.0016069
-0.00068336 -0.00068939 0.00088884 0.00021799 0.00045118 0.001749 -0.0010843 0.0019082
0.0030194 -0.0016037 0.26492 0.028316
2000000000 0.13035 -0.18909 -0.0033531 0.00046306 0.0024126 0.0015033 -0.0021985 0.0035425
0.00093316 0.00043015 -0.00075349 0.00032965
-0.0033388 0.00045725 0.24874 0.056822 -0.00069157 0.00556 0.0016442 0.00035303
0.0015638 -0.0014993 0.00059774 4.4093e-05
0.0024128 0.0014815 -0.00064644 0.0055678 0.019447 -0.23422 -0.0014501 -0.0013606
0.0021117 -0.0011749 0.001653 0.0012341
-0.0021612 0.0035612 0.0016525 0.0003444 -0.0014414 -0.0013547 0.055887 -0.17589
-0.0032551 0.0049433 0.00021178 0.0020023
0.00094394 0.00042908 0.0015563 -0.0015097 0.002118 -0.0011789 -0.0032406 0.0049508
