!Keysight Technologies,M9804A,MY58100912,A.14.10.03
!Date: Thursday, April 27, 2023 10:28:33
!Correction: S11(C  6-Port  ) 
!S12(C  6-Port  ) 
!S13(C  6-Port  ) 
!S14(C  6-Port  ) 
!S15(C  6-Port  ) 
!S16(C  6-Port  ) 
!S21(C  6-Port  ) 
!S22(C  6-Port  ) 
!S23(C  6-Port  ) 
!S24(C  6-Port  ) 
!S25(C  6-Port  ) 
!S26(C  6-Port  ) 
!S31(C  6-Port  ) 
!S32(C  6-Port  ) 
!S33(C  6-Port  ) 
!S34(C  6-Port  ) 
!S35(C  6-Port  ) 
!S36(C  6-Port  ) 
!S41(C  6-Port  ) 
!S42(C  6-Port  ) 
!S43(C  6-Port  ) 
!S44(C  6-Port  ) 
!S45(C  6-Port  ) 
!S46(C  6-Port  ) 
!S51(C  6-Port  ) 
!S52(C  6-Port  ) 
!S53(C  6-Port  ) 
!S54(C  6-Port  ) 
!S55(C  6-Port  ) 
!S56(C  6-Port  ) 
!S61(C  6-Port  ) 
!S62(C  6-Port  ) 
!S63(C  6-Port  ) 
!S64(C  6-Port  ) 
!S65(C  6-Port  ) 
!S66(C  6-Port  ) 
!S6P File: Measurement: :
# Hz S  RI   R 50
500000000 -0.33831 -0.033962 -0.010352 -0.0030843 -0.0078252 0.012085 -0.0036191 0.011782
0.011774 0.0046226 -0.0038585 0.0084367
-0.010593 -0.0034768 -0.41993 -0.048916 0.0071662 -0.01147 0.001264 0.01148
0.0073219 0.002767 0.00041171 0.013011
-0.0079525 0.012727 0.0068237 -0.01133 -0.26538 0.21184 0.0065211 0.0032232
-0.00017332 0.0085443 0.00017448 0.01206
-0.0031438 0.011184 0.0011876 0.011877 0.0066812 0.003356 -0.32774 0.048632
-0.020004 -0.0046323 0.017204 0.026156
0.010728 0.0040755 0.0074592 0.0030671 -0.00032375 0.0086251 -0.020056 -0.0046716
-0.22845 -0.18154 -0.027926 0.0052633
-0.004539 0.0079046 0.00011065 0.013327 0.00030262 0.012124 0.017901 0.02622
-0.027834 0.0048967 -0.27171 -0.13258
560000000 -0.31618 0.12645 -0.024373 -0.062687 0.00025136 0.012328 0.0058172 0.010135
0.011008 0.004266 0.0095944 0.0078642
-0.023489 -0.061865 -0.37637 0.10867 -0.042023 -0.035604 0.014135 0.003826
-0.013231 -0.0045947 0.0044565 -0.00043193
0.00012891 0.012723 -0.04231 -0.036301 -0.18328 0.25977 -0.00039964 -0.0045395
0.019181 0.0046693 0.0070588 -0.006116
0.0064462 0.010387 0.013552 0.0027342 -0.00029987 -0.0047288 -0.30306 0.13658
0.0032461 -0.024392 0.0049144 -0.019197
0.011561 0.0033126 -0.015105 -0.0035376 0.019033 0.0045069 0.0034875 -0.02409
-0.28746 -0.0061098 0.006939 -0.050749
0.010306 0.0079057 0.0056512 -0.0018841 0.0068848 -0.0061656 0.0047435 -0.019294
0.006946 -0.051028 -0.33423 0.01714
620000000 -0.27398 0.10959 -0.023204 0.007453 0.0039537 0.0083373 0.0070507 -0.0055668
0.011678 -0.00064492 0.00022372 -0.0019274
-0.022826 0.0075657 -0.40271 0.063922 -0.018822 0.00022085 -0.0012838 -0.0021759
0.010643 -0.0067652 0.0012019 -0.0023935
0.0035177 0.008741 -0.018733 0.00025449 -0.15236 0.26916 -0.0014911 -0.0051744
-0.0034465 -0.0030191 0.008358 -0.0033317
0.0058865 -0.005595 -0.0016133 -0.0023958 -0.0016429 -0.0055349 -0.26117 0.14688
-0.039683 -0.018191 0.014138 0.024503
0.011986 0.0003329 0.010825 -0.0067879 -0.003274 -0.0026692 -0.039418 -0.018044
-0.20564 -0.045751 -0.041378 0.015587
0.0007196 -0.0019641 0.00096403 -0.0027272 0.0084795 -0.0030382 0.013984 0.0242
-0.041287 0.015979 -0.25172 -0.021778
680000000 -0.2327 0.19543 -0.027897 -0.013494 0.0051141 0.0050442 0.0011698 -0.0074587
-0.003031 -0.010874 0.004655 -0.0072621
-0.0279 -0.013346 -0.38672 0.1605 -0.032626 -0.00091518 -0.0014628 -0.00049194
-0.0027771 -0.0090153 -0.0010464 -0.0020042
0.0053528 0.0050837 -0.032711 -0.00082617 -0.10142 0.28805 -0.00058677 -6.0546e-05
-0.0023266 0.00060317 -0.0030065 -0.0096372
0.0011386 -0.0073434 -0.0014624 -0.00052056 -0.00061151 -0.00018581 -0.21823 0.19634
-0.023837 -0.0073221 -0.010741 -0.010273
-0.0033755 -0.011007 -0.0030064 -0.0089694 -0.0022655 0.00073662 -0.023708 -0.0073383
-0.25299 0.053252 -0.0054255 -0.0091237
0.0049193 -0.0071472 -0.001291 -0.0022765 -0.0024255 -0.0092946 -0.010607 -0.01012
-0.0053199 -0.0091649 -0.26253 0.085807
740000000 -0.18829 0.18969 -0.038101 0.026515 0.012684 -0.0055907 -0.00080948 -0.0041072
-0.0047215 -0.0028876 -0.0062848 0.003178
-0.038265 0.026161 -0.3347 0.17902 -0.034601 0.0352 -0.0010021 -0.006335
-0.011017 0.00812 -0.0032354 -0.0063168
0.013289 -0.0053257 -0.03429 0.034853 -0.067756 0.28681 -0.0015472 0.0031604
-0.0027803 -0.0037949 -0.0010262 -3.2173e-05
-0.0012682 -0.0043679 -0.0010767 -0.0066971 -0.001507 0.0033681 -0.20196 0.20409
-0.042114 -0.0071683 0.022409 0.013128
-0.0051898 -0.002815 -0.01137 0.0083359 -0.0026766 -0.0038441 -0.042007 -0.0071131
-0.15692 0.076233 -0.041394 0.0015912
-0.0063913 0.0035257 -0.0027648 -0.0064099 -0.0010394 0.00053814 0.022417 0.013398
-0.041087 0.0013477 -0.25495 0.091639
800000000 -0.15647 0.22927 -0.022207 0.017299 0.0052577 -0.010624 -0.0047703 -0.0019583
-0.00414 0.0029755 0.0045808 0.00089225
-0.02206 0.017255 -0.33684 0.24897 -0.0075318 0.033901 -0.002156 0.0022318
-0.00070468 0.0035385 0.0012842 0.0053375
0.0051981 -0.01052 -0.0076369 0.034056 -0.026666 0.30931 0.0011366 0.0016034
0.00063748 0.0036534 -0.0017149 0.00088125
-0.004818 -0.0017332 -0.0024408 0.0023344 0.0012167 0.0016719 -0.17333 0.23151
-0.027895 0.013197 0.013631 -0.010064
-0.0043139 0.0028779 -0.00060364 0.0033458 0.00085484 0.0035679 -0.02794 0.013251
-0.1988 0.10112 -0.017129 0.018108
0.0041795 0.0010593 0.00046194 0.0052799 -0.0016396 0.00094707 0.013685 -0.010165
-0.017176 0.018009 -0.24634 0.14592
860000000 -0.12184 0.25007 -0.01676 0.031188 -0.0033749 -0.0099468 -0.0025039 0.0013305
0.0041001 0.0050614 -0.0029809 -0.0027351
-0.016895 0.031225 -0.28874 0.2909 0.0082105 0.033941 0.00015735 0.0021506
0.0045867 0.00039162 0.0035548 0.00031303
-0.0033372 -0.0097482 0.0085496 0.034075 0.021448 0.31708 -0.00033413 -0.00022538
0.0028897 -0.0016087 0.0016855 0.0043794
-0.0027278 0.0010411 3.9823e-06 0.0023963 -0.00037496 -0.00030652 -0.1377 0.24307
-0.017314 0.018544 -0.0060673 -0.0093736
0.0043452 0.004775 0.0051245 0.00055846 0.0027729 -0.0016585 -0.017049 0.018604
-0.14938 0.14816 -0.024105 0.01609
-0.0032725 -0.0023772 0.0033583 0.00050715 0.0016901 0.0041607 -0.0060731 -0.0092901
-0.023971 0.016226 -0.19553 0.18981
920000000 -0.096584 0.27308 0.005634 0.037515 -0.0093759 -0.0043759 -0.0017798 0.0021676
0.0013012 0.0017397 0.002632 -0.0014746
0.0055704 0.037512 -0.26011 0.31163 0.028077 0.021442 0.0016033 0.001054
0.0070162 -0.00072478 0.0038338 -0.0031786
-0.0094658 -0.0042069 0.028126 0.021402 0.067839 0.31744 0.0017746 -0.00015403
0.0013539 -0.00046947 0.00074803 -0.0013064
-0.0016096 0.0021636 0.0015306 0.00092358 0.0017977 -0.00023717 -0.11336 0.25914
-0.0096532 0.029821 0.0026978 -0.0069566
0.0016072 0.0018298 0.0070718 -0.00067776 0.0013553 -0.00034124 -0.0095958 0.02989
-0.13867 0.15394 -0.001195 0.027551
0.002483 -0.0015777 0.0034727 -0.0034201 0.00089392 -0.0013574 0.0026403 -0.0069639
-0.0011357 0.027506 -0.20354 0.2034
980000000 -0.048722 0.29198 0.018055 0.02962 -0.0088349 0.0046716 0.0023561 0.0036998
0.0039486 -0.0016372 -0.003067 -0.002085
0.018083 0.029618 -0.2072 0.34474 0.032841 0.0043436 0.002077 -2.9829e-05
0.0010762 -0.0062064 -0.00060568 -0.0022786
-0.0087959 0.0047204 0.032986 0.0042308 0.11415 0.31065 0.00043816 -0.0011972
-8.4202e-05 -0.0021546 0.0013789 -6.1654e-05
0.0024064 0.0035893 0.0020303 -3.8638e-05 0.00045046 -0.0012062 -0.074959 0.27042
0.0079772 0.028349 -0.00929 -0.006713
0.0039875 -0.0018647 0.001361 -0.0063139 -1.0937e-05 -0.0021876 0.0079935 0.028365
-0.10673 0.18051 0.005518 0.018831
-0.0031727 -0.0020161 -0.00060088 -0.0022216 0.0013701 -0.00015722 -0.0092912 -0.0067142
0.0054668 0.018836 -0.16006 0.24923
1040000000 -0.0063633 0.30026 0.033272 0.017375 -0.00119 0.0068013 0.0027038 0.00081568
5.5657e-05 -0.00359 -0.00057193 -0.0015034
0.033287 0.017335 -0.17183 0.35776 0.028887 -0.015089 0.0014859 -0.0017341
-0.0025881 -0.0023978 -0.0015998 -0.0027983
-0.0011289 0.0068002 0.028811 -0.015219 0.16038 0.29671 -0.00057144 -0.0014078
-0.0016169 -0.00073694 -0.00053424 -0.001104
0.0026505 0.00086506 0.0014817 -0.0016482 -0.00054237 -0.0014024 -0.047607 0.28028
0.018659 0.016442 -0.00309 0.0017514
2.2569e-08 -0.0034848 -0.0025622 -0.0024064 -0.0015512 -0.00076433 0.018728 0.016424
-0.075934 0.1884 0.013823 0.017333
-0.00064565 -0.0015684 -0.0017779 -0.0030455 -0.00055042 -0.0011157 -0.0030247 0.0017765
0.013847 0.01731 -0.14011 0.27076
1100000000 0.039338 0.30719 0.035522 -0.0048499 0.0028513 0.0037398 0.0025292 -0.0013949
-0.0020655 -0.003117 -0.0040185 8.9136e-05
0.035508 -0.0048972 -0.1282 0.37468 0.014596 -0.027837 -1.4852e-05 -0.0018332
-0.0032589 -0.00048528 -0.0035472 -0.00046616
0.0028498 0.0036654 0.014523 -0.027897 0.2068 0.27598 -0.0018118 0.000297
-0.0016907 0.00076436 -0.00096282 -0.00024432
0.0026666 -0.0013434 -4.337e-05 -0.0018659 -0.0018424 0.00030038 -0.0071877 0.28505
0.022791 0.0041702 -0.0025931 0.00072722
-0.0021133 -0.0031512 -0.0032568 -0.00052998 -0.0017327 0.00073064 0.022836 0.0041569
-0.057674 0.20107 0.018999 0.0080281
-0.0038832 7.7872e-05 -0.0035639 -0.00045657 -0.00090197 -0.00019762 -0.002569 0.00076117
0.018945 0.008071 -0.093015 0.30055
1160000000 0.090638 0.30194 0.023431 -0.021239 0.0025374 -0.00050469 -3.9697e-05 -0.0024752
-0.0041088 -0.00052341 -0.0010648 0.0040902
0.02345 -0.021168 -0.084432 0.37877 -0.0042047 -0.028803 -0.0018034 -0.0016737
-0.0024319 0.0027721 -0.0014068 0.0017101
0.0025122 -0.00053677 -0.00431 -0.028796 0.24965 0.24466 -0.00058982 0.0017442
-0.00025765 0.0019179 -0.0009636 0.00025316
1.1957e-05 -0.0024142 -0.0018014 -0.0016158 -0.0005935 0.0017796 0.031938 0.28219
0.018907 -0.010472 -0.0029683 0.0055016
-0.0041602 -0.00040038 -0.0025906 0.0026788 -0.00025474 0.0019192 0.018894 -0.010465
-0.024869 0.2099 0.017689 0.00014652
-0.0011485 0.0038899 -0.0012761 0.0019115 -0.00095005 0.00019658 -0.0029701 0.0055336
0.017649 0.00014811 -0.045825 0.30346
1220000000 0.13517 0.29001 0.0096127 -0.03 -0.0016158 -0.00064463 -5.3931e-05 -0.0011994
-0.0025863 0.002557 0.0013572 0.0019673
0.0096266 -0.030004 -0.040154 0.39023 -0.017044 -0.020683 -0.0025115 0.00046052
0.00029835 0.0029848 -0.00061695 0.0019023
-0.001642 -0.00064659 -0.017142 -0.020569 0.28843 0.2052 0.00095071 0.001595
0.00069181 0.0011456 0.0003591 0.00074449
-8.6603e-05 -0.001171 -0.0025177 0.0004969 0.00093282 0.0016137 0.071675 0.27364
0.0085991 -0.015973 0.0023992 0.0018542
-0.0026573 0.0025019 0.00037487 0.0030118 0.000633 0.0011069 0.0085887 -0.01598
-0.0014932 0.21932 0.013283 -0.012993
0.0013171 0.0019283 -0.00068932 0.0018612 0.00036367 0.0007171 0.0024337 0.0018764
0.013293 -0.012966 -0.013941 0.32123
1280000000 0.1847 0.26755 -0.008518 -0.028053 -0.0017662 0.0026494 -0.0011003 -0.0020564
-0.00064655 0.0031972 0.0025987 0.0010146
-0.0084512 -0.02803 0.0057471 0.38097 -0.023539 -0.0080235 -0.00099457 0.0015212
0.0018057 0.001606 0.00060769 0.0019321
-0.0018086 0.0026909 -0.023628 -0.0079943 0.31866 0.16108 0.0014595 -0.0002298
0.0010508 3.9121e-05 0.00034988 0.00033239
-0.0011638 -0.0019929 -0.0009719 0.0015604 0.0014678 -0.00019496 0.10804 0.25748
-0.00041473 -0.017296 0.00041801 0.0003292
-0.00053732 0.0031381 0.0018275 0.0016348 0.0010475 2.684e-05 -0.00043727 -0.017293
0.035217 0.22297 0.002585 -0.014812
0.0026399 0.00098204 0.00055066 0.0019333 0.00032057 0.00029259 0.00046087 0.00033662
0.0025691 -0.014788 0.033937 0.32266
1340000000 0.22162 0.23305 -0.018012 -0.018262 0.0010297 0.0044342 -0.0020284 -0.00076894
0.0015161 0.002619 0.0017057 -0.0015672
-0.018017 -0.018266 0.045102 0.37231 -0.021277 0.0044946 -1.6288e-05 0.001967
0.0018312 0.00050581 0.0013409 0.00085209
0.0010396 0.0044481 -0.021287 0.0046224 0.34038 0.11327 0.0009512 -0.00097042
0.00055031 -0.00043296 0.00018123 0.0001594
-0.0019924 -0.0007467 -4.8265e-06 0.0019883 0.00095585 -0.00095754 0.141 0.23746
-0.0085825 -0.013921 0.0012927 0.00031532
0.0015623 0.002604 0.00181 0.00049324 0.00055684 -0.00047092 -0.0086214 -0.013905
0.065656 0.21856 -0.0041186 -0.013098
0.0016522 -0.0015655 0.0012859 0.00083172 0.0001711 0.00018233 0.0012883 0.00030974
-0.0041143 -0.013101 0.073212 0.31851
1400000000 0.25415 0.19437 -0.02328 -0.0067439 0.0052384 0.0030727 -0.0021029 0.00077656
0.0025427 0.00069086 0.00023613 -0.0013805
-0.023282 -0.0067361 0.082017 0.35899 -0.014486 0.012447 0.0013822 0.0012034
0.00093457 -0.00097428 0.0011841 0.00023569
0.0052887 0.0030352 -0.014454 0.012543 0.35317 0.05979 -1.6355e-05 -0.0015188
2.4113e-05 -0.00038147 0.00033983 0.00025407
-0.0021025 0.00081845 0.001387 0.0011921 -2.0426e-05 -0.0015293 0.17094 0.20901
-0.013263 -0.0074286 -0.00042734 -0.0005837
0.0025483 0.00067446 0.00093128 -0.00097171 3.2141e-05 -0.0003694 -0.013285 -0.0074149
0.098832 0.21365 -0.010274 -0.0080086
0.00015436 -0.0014183 0.0011759 0.000123 0.00029044 0.00024699 -0.00043372 -0.00057476
-0.010273 -0.0080533 0.11837 0.30744
1460000000 0.27648 0.14986 -0.020044 0.005235 0.0056073 -0.0018114 -0.0014922 0.0018381
0.0020704 -0.00080603 -0.00037473 -0.00085301
-0.020026 0.0052043 0.11603 0.33696 -0.0058368 0.015131 0.0017015 0.00011004
0.00066799 -0.0011766 0.0011321 -0.00063073
0.0056351 -0.0018503 -0.0057663 0.015172 0.35895 0.0054762 -0.0011717 -0.0011835
0.00025522 -0.0001157 0.00064972 -0.00039539
-0.0014605 0.0018984 0.0016469 0.00012474 -0.0011258 -0.0011916 0.19788 0.17987
-0.013436 -0.0015564 -0.00084241 0.0015929
0.0020249 -0.00077729 0.00069183 -0.001127 0.00024504 -0.00011523 -0.013433 -0.0015219
0.12886 0.19877 -0.011577 -0.0023276
-0.00036699 -0.00098381 0.001134 -0.00067331 0.00070773 -0.00031454 -0.00083011 0.0015968
-0.011579 -0.002344 0.15165 0.28643
1520000000 0.28812 0.10772 -0.014176 0.010565 0.0031381 -0.0042039 0.00023394 0.0026055
0.0017298 -0.001809 -0.0012127 -0.00014989
-0.014187 0.010557 0.14927 0.32205 0.0015871 0.012911 0.00157 -0.00084348
-2.8411e-06 -0.00082753 0.00031231 -0.0010287
0.0031607 -0.0042083 0.0016554 0.012907 0.35223 -0.050541 -0.00096676 -0.00024232
0.00056752 -0.0007676 -1.7437e-05 -0.00012221
0.00019736 0.0025949 0.0015604 -0.00080772 -0.00090538 -0.00028438 0.22173 0.14154
-0.012177 0.0030658 0.0013083 0.0017501
0.001741 -0.0018011 -4.2184e-05 -0.00082449 0.00058736 -0.00078136 -0.01218 0.0030851
0.15743 0.18396 -0.011455 0.0020215
-0.0012159 -0.00012141 0.00030229 -0.0009694 -3.0237e-05 -5.2816e-05 0.001311 0.0017555
-0.011451 0.0020071 0.18499 0.26659
1580000000 0.29673 0.061059 -0.0075001 0.01334 -0.0010196 -0.0049133 0.001489 0.0017884
-0.00058379 -0.0021396 -0.00035785 0.000404
-0.0075259 0.013307 0.1763 0.29718 0.0051819 0.0080612 0.00041927 -0.0015584
-0.0003804 -0.00087337 -0.00028141 -0.00086504
-0.0010097 -0.0048579 0.005221 0.0080707 0.33211 -0.10809 -0.0014569 0.00051234
-0.00030952 -0.0011184 0.00011612 -0.0005617
0.0015901 0.0018035 0.00042795 -0.0015771 -0.0014573 0.00054188 0.23631 0.10147
-0.0088999 0.0066129 0.0020102 0.00047928
-0.00062043 -0.0021036 -0.00034009 -0.00091584 -0.00028368 -0.0011384 -0.0088908 0.0066523
0.18205 0.16524 -0.008829 0.0072392
-0.00037794 0.0003509 -0.00022079 -0.00089756 0.0001355 -0.00052622 0.0019928 0.00048147
-0.008837 0.0072567 0.21716 0.24008
1640000000 0.29781 0.019459 -0.00099156 0.012008 -0.0027171 -0.002534 0.0026214 0.00089388
-0.00089159 -0.001123 -0.00031343 0.00069273
-0.0010115 0.011998 0.20558 0.2721 0.0057861 0.003401 -0.00076672 -0.0016214
-0.00082332 -0.00043113 -0.00053001 -0.0006747
-0.0027789 -0.0025335 0.0057751 0.0033634 0.30368 -0.15767 -0.00079316 0.001244
-0.0011264 -0.00081851 -8.6813e-05 -0.00033505
0.0026337 0.00086507 -0.00077333 -0.0016125 -0.00081115 0.0012318 0.24877 0.051696
-0.0053516 0.0069482 0.0022577 -0.00089455
-0.00086331 -0.0011191 -0.00086977 -0.00039908 -0.0010383 -0.00084753 -0.0053455 0.0069732
0.20521 0.13948 -0.0040404 0.0092999
-0.00035163 0.00073122 -0.0005575 -0.00067162 -4.0254e-05 -0.00029502 0.0022524 -0.00090509
-0.0040447 0.0093184 0.24348 0.20886
1700000000 0.28968 -0.025589 0.0022189 0.0090606 -0.0034768 -5.8385e-06 0.0028598 -0.0011973
-0.0018741 -0.0002827 0.00064595 0.00041379
0.0022207 0.0090779 0.22352 0.24047 0.0038155 0.00060644 -0.0014048 -0.00055696
-0.00072385 -9.467e-05 -0.00096592 -0.00044323
-0.0035451 4.4509e-05 0.003774 0.00056624 0.25994 -0.1973 0.00030244 0.0015067
-0.0017467 -0.00022635 -0.00057447 -0.00095444
0.002847 -0.0012194 -0.0014163 -0.00053053 0.0003249 0.0015514 0.24525 0.00079296
-0.0036125 0.0068559 0.0013043 -0.0021827
-0.001857 -0.0002393 -0.00069662 -0.00011677 -0.0017106 -0.00023347 -0.0036078 0.0068835
0.22269 0.11738 0.00043052 0.0095242
0.00067593 0.00043251 -0.0010162 -0.0004226 -0.00061858 -0.00094446 0.0012984 -0.0021996
0.0004373 0.0095196 0.26046 0.17438
1760000000 0.2766 -0.07378 0.0042881 0.0058258 -0.002376 0.00092461 0.0012471 -0.0033287
-0.00097039 0.00074438 0.00035109 -0.00056958
0.0042518 0.0058312 0.24926 0.2005 0.0016178 -0.001137 -0.0011139 0.0002152
-0.0011465 0.00074486 -0.00063273 0.00051332
-0.0023813 0.00089774 0.0016529 -0.0011014 0.21086 -0.23037 0.0010508 0.001292
-0.0011367 0.0013458 -0.0014258 -0.00042254
0.0012404 -0.0033259 -0.0011413 0.00026845 0.001065 0.0012697 0.23503 -0.051396
-0.0015249 0.0061702 -0.00053078 -0.0023455
-0.00098518 0.00070541 -0.0011707 0.00073561 -0.0011139 0.0013953 -0.0015124 0.0061804
0.23744 0.080511 0.0042054 0.0065269
0.00031714 -0.00054862 -0.00062908 0.00057935 -0.0014098 -0.00049961 -0.00054946 -0.0023382
0.004225 0.0065362 0.27331 0.13647
1820000000 0.25144 -0.11051 0.0043594 0.0024199 -0.00014873 0.0025419 -0.0009495 -0.0029961
-0.00071646 0.00067059 -1.8922e-05 -0.00014553
0.0043497 0.002387 0.25892 0.17028 -0.00034131 -1.7902e-05 -0.0012988 0.00086942
-0.00025075 0.0013292 -0.00055318 0.0005686
-0.00022121 0.0025305 -0.00033991 -3.0963e-05 0.16096 -0.24592 0.0014793 0.00052947
-0.00032562 0.0021101 -0.0014071 0.0005558
-0.0010398 -0.003032 -0.001344 0.0008892 0.0015411 0.00057108 0.20374 -0.098816
-0.00093005 0.0048776 -0.0018062 -0.001478
-0.00072387 0.00067971 -0.00031774 0.0013925 -0.00033503 0.002187 -0.00092324 0.0048852
0.25314 0.048984 0.0050418 0.0029829
-1.9629e-05 -0.0001021 -0.00054157 0.0005803 -0.0014026 0.00056316 -0.0018385 -0.001471
0.0050215 0.0029774 0.27601 0.10006
1880000000 0.21582 -0.14992 0.0021259 0.00022827 -0.00035226 0.0022145 -0.0027845 -0.0021205
-0.00023293 0.0013519 0.00023631 -0.00050996
0.002112 0.00026864 0.26304 0.12367 -0.0022649 0.0015999 -0.00015087 0.0017214
0.00053701 0.0014581 0.00021709 0.0010294
-0.00031161 0.0022608 -0.002299 0.00162 0.10904 -0.25569 0.0020178 -0.00091198
0.0015178 0.0020625 -0.00089918 0.0016371
-0.0028436 -0.0020935 -8.45e-05 0.0017454 0.0019741 -0.00093361 0.16209 -0.13824
-0.00091459 0.0038857 -0.0025242 0.00080202
-0.00020669 0.0013443 0.0005372 0.0014563 0.0015235 0.002091 -0.0009067 0.0039088
0.25433 0.014193 0.0045167 0.00096437
0.00030732 -0.00052472 0.00020407 0.001054 -0.00083938 0.0016147 -0.002523 0.00080448
0.0045183 0.00095488 0.27603 0.065874
1940000000 0.17636 -0.17494 -9.0292e-05 -0.0013499 0.0014988 0.0020117 -0.0037278 0.00050398
0.0010762 0.00095582 -0.00060913 -0.00055543
-0.00011532 -0.0013608 0.26315 0.091921 -0.0012482 0.0039689 0.00099165 0.0013127
0.0020297 0.00071673 0.00091125 0.00030609
0.0014937 0.0019835 -0.0012114 0.0039682 0.062525 -0.24931 0.0003786 -0.0024316
0.0024736 0.00055235 0.00049921 0.0016851
-0.0036487 0.00056437 0.00092548 0.0013408 0.00036793 -0.0024632 0.10886 -0.16739
-0.0022585 0.0036017 -0.0013853 0.0019547
0.0011695 0.00094352 0.0019755 0.00071939 0.0024779 0.00047945 -0.0022381 0.0036236
0.25332 -0.026473 0.0031049 -0.0021975
-0.00059866 -0.00054111 0.00090399 0.00027777 0.00053954 0.0016447 -0.0013761 0.0019468
0.0031234 -0.0022113 0.26502 0.029808
2000000000 0.13036 -0.18894 -0.0039599 0.00069866 0.0025 0.0015552 -0.0023343 0.003586
0.00086655 0.00031414 -0.00063108 0.00038145
-0.0039214 0.00074816 0.2485 0.056529 -0.0010471 0.0057299 0.0016709 0.00021356
0.0017381 -0.001436 0.00055896 9.4384e-05
0.0026049 0.0016199 -0.00096728 0.0057775 0.018939 -0.23479 -0.0014725 -0.0015806
0.0021556 -0.0013082 0.0017788 0.001169
-0.0024081 0.0036064 0.0016819 0.00012553 -0.0014672 -0.0015149 0.055503 -0.17601
-0.0035808 0.0044618 0.00018068 0.0024166
0.00083553 0.00037054 0.0018086 -0.0015177 0.0021301 -0.001269 -0.00361 0.0044769
