!Keysight Technologies,M9804A,MY58100912,A.14.10.03
!Date: Thursday, April 27, 2023 10:28:33
!Correction: S11(C  6-Port  ) 
!S12(C  6-Port  ) 
!S13(C  6-Port  ) 
!S14(C  6-Port  ) 
!S15(C  6-Port  ) 
!S16(C  6-Port  ) 
!S21(C  6-Port  ) 
!S22(C  6-Port  ) 
!S23(C  6-Port  ) 
!S24(C  6-Port  ) 
!S25(C  6-Port  ) 
!S26(C  6-Port  ) 
!S31(C  6-Port  ) 
!S32(C  6-Port  ) 
!S33(C  6-Port  ) 
!S34(C  6-Port  ) 
!S35(C  6-Port  ) 
!S36(C  6-Port  ) 
!S41(C  6-Port  ) 
!S42(C  6-Port  ) 
!S43(C  6-Port  ) 
!S44(C  6-Port  ) 
!S45(C  6-Port  ) 
!S46(C  6-Port  ) 
!S51(C  6-Port  ) 
!S52(C  6-Port  ) 
!S53(C  6-Port  ) 
!S54(C  6-Port  ) 
!S55(C  6-Port  ) 
!S56(C  6-Port  ) 
!S61(C  6-Port  ) 
!S62(C  6-Port  ) 
!S63(C  6-Port  ) 
!S64(C  6-Port  ) 
!S65(C  6-Port  ) 
!S66(C  6-Port  ) 
!S6P File: Measurement: :
# Hz S  RI   R 50
500000000 -0.33692 -0.033244 -0.00948 -0.0038472 -0.0079375 0.011939 -0.0035023 0.011577
0.011868 0.0047638 -0.0036471 0.008245
-0.0094598 -0.0038535 -0.41973 -0.048415 0.0072175 -0.011241 0.0015431 0.011871
0.0076358 0.0025519 0.00065927 0.013366
-0.0079143 0.011958 0.0072005 -0.011261 -0.26474 0.21197 0.0068401 0.0033187
6.6537e-05 0.0082893 0.00019319 0.01236
-0.0035093 0.011587 0.0015554 0.011884 0.0068486 0.0033016 -0.32713 0.048942
-0.019679 -0.0047329 0.017759 0.026406
0.01196 0.0047256 0.0076588 0.0024582 6.7467e-05 0.0082612 -0.019774 -0.0047892
-0.22795 -0.18192 -0.027611 0.0048182
-0.003801 0.0082254 0.0006224 0.013327 0.00015037 0.012358 0.01776 0.026335
-0.027639 0.0048425 -0.27028 -0.13352
560000000 -0.3156 0.12574 -0.024317 -0.062797 0.00029423 0.01213 0.0063462 0.009829
0.010925 0.0038988 0.009625 0.0076975
-0.024221 -0.062734 -0.37642 0.10926 -0.041906 -0.036483 0.013634 0.0038294
-0.013304 -0.004664 0.0041865 -0.0007252
0.00029666 0.012134 -0.042022 -0.036413 -0.1826 0.25915 -0.0007407 -0.0047552
0.019353 0.0041182 0.0072635 -0.006315
0.0063534 0.0098177 0.013668 0.0037908 -0.00076696 -0.0047426 -0.30207 0.13706
0.0032835 -0.024618 0.004619 -0.019276
0.010879 0.0038622 -0.013459 -0.0045059 0.019417 0.0040661 0.0033081 -0.024636
-0.28582 -0.0072299 0.0069775 -0.051166
0.009559 0.0077138 0.0042553 -0.00055514 0.0071866 -0.006404 0.0046366 -0.019282
0.0070807 -0.051196 -0.33374 0.015235
620000000 -0.27293 0.11053 -0.023219 0.0070371 0.0035847 0.0083372 0.0068023 -0.0056317
0.011454 -0.00056208 0.00027247 -0.0018889
-0.02321 0.0070266 -0.40247 0.063807 -0.019042 5.4906e-05 -0.0015541 -0.0021263
0.010403 -0.0071914 0.0010395 -0.0026738
0.0036005 0.0083183 -0.019068 0.00010315 -0.15233 0.2689 -0.0018629 -0.005144
-0.0034632 -0.003382 0.0080412 -0.0033888
0.006761 -0.0056345 -0.0015439 -0.0021079 -0.0018274 -0.0051103 -0.26038 0.1466
-0.03952 -0.018021 0.013916 0.024363
0.011518 -0.00054003 0.01041 -0.0072547 -0.0034925 -0.0034772 -0.039359 -0.017968
-0.20539 -0.047139 -0.041301 0.015455
0.00014679 -0.0019164 0.0010298 -0.0026509 0.0080902 -0.0033673 0.01384 0.02438
-0.041301 0.015515 -0.25039 -0.024365
680000000 -0.23265 0.19403 -0.028053 -0.013763 0.0049149 0.005116 0.0011943 -0.0075404
-0.0032774 -0.011054 0.0042822 -0.0070393
-0.028027 -0.013775 -0.38672 0.16015 -0.032987 -0.0011296 -0.0016342 -0.00019524
-0.0028109 -0.0088676 -0.0011357 -0.0021164
0.0049251 0.0051035 -0.033022 -0.0010434 -0.10177 0.2877 -0.00056691 0.00017698
-0.0023551 0.00082698 -0.0030791 -0.0096336
0.0011649 -0.0075262 -0.0016456 -0.00018735 -0.00056606 0.000183 -0.21802 0.19575
-0.023905 -0.0080551 -0.010688 -0.010423
-0.0033496 -0.011051 -0.0027825 -0.0088945 -0.0023199 0.00082511 -0.0239 -0.0080194
-0.25231 0.051505 -0.0055856 -0.0094724
0.0042573 -0.0070651 -0.0011112 -0.0021003 -0.0030803 -0.0096139 -0.010702 -0.010439
-0.0055854 -0.0094609 -0.26242 0.083955
740000000 -0.18872 0.18926 -0.038406 0.026652 0.012755 -0.0053088 -0.0010275 -0.0040012
-0.0048873 -0.0026723 -0.0061349 0.0033128
-0.038395 0.026622 -0.33496 0.17889 -0.034764 0.035288 -0.00097695 -0.0062497
-0.010953 0.0083207 -0.003199 -0.0063047
0.012764 -0.0053314 -0.034699 0.035423 -0.068452 0.2866 -0.0014271 0.003185
-0.0028944 -0.0036733 -0.0009632 -5.3253e-05
-0.0010095 -0.0039908 -0.00097871 -0.0062622 -0.0014215 0.0032029 -0.20211 0.2036
-0.042403 -0.0074176 0.022268 0.013171
-0.0048289 -0.0026897 -0.011026 0.0082236 -0.002807 -0.0036975 -0.042497 -0.0074016
-0.15724 0.074308 -0.041856 0.0011217
-0.0061557 0.0033161 -0.0033334 -0.006249 -0.0010269 -0.00010723 0.022225 0.013185
-0.04178 0.0011225 -0.2552 0.089166
800000000 -0.15666 0.22938 -0.022332 0.017502 0.0054069 -0.010579 -0.0048131 -0.0018787
-0.0042151 0.0030857 0.0046359 0.0008557
-0.022324 0.017468 -0.33718 0.24909 -0.0077289 0.034359 -0.0020905 0.0022087
-0.00063451 0.0036338 0.001274 0.0052916
0.0053897 -0.010583 -0.0076246 0.034418 -0.027244 0.30967 0.0012382 0.001528
0.00071855 0.0035873 -0.0017461 0.00096068
-0.0048227 -0.0018722 -0.0020812 0.0022293 0.0012354 0.0015396 -0.17388 0.231
-0.028518 0.013138 0.013731 -0.010022
-0.004198 0.0031151 -0.00061973 0.00367 0.00071822 0.003573 -0.028523 0.013191
-0.19971 0.099274 -0.017649 0.018007
0.0046884 0.00076032 0.0013071 0.0053452 -0.0017627 0.00097639 0.01371 -0.010087
-0.017652 0.017988 -0.24693 0.14377
860000000 -0.12191 0.25008 -0.016833 0.031241 -0.0033049 -0.0099987 -0.0025346 0.0013735
0.0040993 0.0050779 -0.0030022 -0.0027664
-0.016852 0.031207 -0.28916 0.29092 0.0085176 0.034444 0.00021562 0.0020935
0.0046157 0.00037982 0.0035413 0.00012801
-0.0033339 -0.0099903 0.0086387 0.034444 0.021181 0.31768 -0.00031992 -0.00030738
0.0027463 -0.0016111 0.0017124 0.0045397
-0.0025435 0.0013826 0.00021595 0.0020862 -0.00032522 -0.00030495 -0.13848 0.24296
-0.017963 0.019027 -0.0060413 -0.0094285
0.0041008 0.005124 0.0045668 0.00036633 0.002747 -0.0015998 -0.017993 0.019116
-0.15083 0.14702 -0.024389 0.016044
-0.0029806 -0.002756 0.0035384 0.00010997 0.0017416 0.0045077 -0.006021 -0.0094326
-0.024351 0.016039 -0.19652 0.18826
920000000 -0.096558 0.27329 0.0054445 0.037848 -0.0095845 -0.0043664 -0.0016581 0.0022847
0.0013803 0.001695 0.0026072 -0.0015546
0.0054146 0.037817 -0.26021 0.31179 0.02834 0.021662 0.001615 0.001016
0.0068735 -0.00079849 0.0039049 -0.0030329
-0.0095947 -0.0043304 0.028456 0.021595 0.067699 0.3181 0.0017231 -0.00019326
0.0013792 -0.00048442 0.00085984 -0.0011759
-0.0016679 0.0022934 0.0016112 0.001016 0.0017107 -0.00019486 -0.11414 0.25946
-0.009996 0.03035 0.002677 -0.006847
0.001385 0.0016735 0.0069142 -0.0008208 0.0013734 -0.00050528 -0.0099402 0.030396
-0.13994 0.15331 -0.0013495 0.027843
0.0026586 -0.0015455 0.0039321 -0.0030791 0.000875 -0.0011957 0.0026723 -0.0068756
-0.0013787 0.027859 -0.205 0.20161
980000000 -0.048867 0.29248 0.018214 0.029821 -0.008923 0.004739 0.0025254 0.0035817
0.0040167 -0.0016982 -0.0030514 -0.0020352
0.018169 0.029799 -0.20737 0.34527 0.033242 0.004318 0.0020359 -0.00020604
0.0010409 -0.0062388 -0.00055157 -0.0022801
-0.0089174 0.0047654 0.033313 0.004215 0.11432 0.31129 0.0004109 -0.0011901
-7.4453e-05 -0.0021538 0.0015685 -4.1205e-05
0.0025279 0.0035683 0.0020365 -0.00018615 0.00039812 -0.0011964 -0.075538 0.2712
0.0080375 0.029185 -0.009275 -0.0067266
0.0039902 -0.0017353 0.0010006 -0.0062108 -7.3996e-05 -0.0021707 0.0080981 0.029191
-0.10807 0.18035 0.0053674 0.019147
-0.0030573 -0.0019984 -0.00061197 -0.0023004 0.0015453 -5.8632e-05 -0.0093023 -0.0066929
0.0053549 0.019138 -0.16159 0.24817
1040000000 -0.0059547 0.30062 0.033578 0.01748 -0.0011825 0.0069626 0.002834 0.00066537
-6.4435e-05 -0.0036176 -0.0005075 -0.0014705
0.033522 0.017501 -0.17169 0.3585 0.02915 -0.015344 0.0014433 -0.0017143
-0.0026774 -0.0023684 -0.0015651 -0.0028096
-0.001168 0.006971 0.029138 -0.015484 0.16074 0.29733 -0.0005801 -0.0013912
-0.0016238 -0.00078283 -0.00040351 -0.0012257
0.0028327 0.0006517 0.0014593 -0.0016934 -0.00058609 -0.0013963 -0.047777 0.28132
0.019239 0.017008 -0.0030868 0.0018935
-7.2491e-05 -0.0036223 -0.002694 -0.0023265 -0.0016222 -0.00080101 0.019261 0.016973
-0.076986 0.18861 0.013919 0.017702
-0.00052047 -0.0015265 -0.0015642 -0.0028717 -0.00038823 -0.0012277 -0.0030795 0.0018869
0.013873 0.01769 -0.14157 0.26993
1100000000 0.039752 0.30768 0.035878 -0.0049667 0.0029741 0.0038036 0.0024727 -0.0015316
-0.0021545 -0.003056 -0.0040326 5.6846e-05
0.035848 -0.0049307 -0.12797 0.37544 0.014654 -0.028142 -7.738e-05 -0.0018263
-0.0032526 -0.000356 -0.0035566 -0.00045327
0.0029837 0.0037932 0.014571 -0.028232 0.20744 0.27641 -0.0018151 0.00032836
-0.0016829 0.00073226 -0.00095504 -0.00042464
0.0024726 -0.0015378 -7.7016e-05 -0.0018215 -0.001824 0.0003284 -0.0068803 0.2861
0.023568 0.0043215 -0.0025228 0.00086082
-0.0021514 -0.0030251 -0.0032887 -0.00032487 -0.0017051 0.00073316 0.023593 0.0042802
-0.058688 0.20139 0.019147 0.0083234
-0.0040476 9.336e-05 -0.0035687 -0.00041027 -0.00097776 -0.0004327 -0.002528 0.00087008
0.019136 0.0083233 -0.094552 0.30001
1160000000 0.091333 0.30214 0.023628 -0.021396 0.0026911 -0.0005071 -0.00018557 -0.0025051
-0.0040731 -0.0004366 -0.0010372 0.0040433
0.023626 -0.021348 -0.083821 0.37969 -0.0043625 -0.029066 -0.001844 -0.0015986
-0.0022623 0.0027299 -0.001367 0.0016694
0.0026857 -0.00052616 -0.0044779 -0.029084 0.25058 0.24477 -0.00052373 0.0017922
-0.00028054 0.0018601 -0.00112 0.00016617
-0.00018014 -0.0025211 -0.0018452 -0.0015903 -0.00051567 0.0017981 0.032842 0.28308
0.019636 -0.010833 -0.0028823 0.0055553
-0.0040536 -0.00043422 -0.0022822 0.0027589 -0.0002735 0.0018718 0.019618 -0.010854
-0.025732 0.21055 0.017847 0.00026657
-0.0010485 0.0040385 -0.0013701 0.0016689 -0.0011097 0.00017331 -0.0028991 0.0055449
0.017841 0.00025155 -0.047255 0.30311
1220000000 0.13608 0.29012 0.009743 -0.030367 -0.0015495 -0.00080608 -0.00017631 -0.0010939
-0.0025363 0.0026118 0.001382 0.001932
0.0097565 -0.030333 -0.039136 0.39106 -0.017332 -0.020791 -0.0025031 0.00053974
0.00036268 0.0029032 -0.00063128 0.0018504
-0.0015556 -0.00080137 -0.017426 -0.020736 0.28935 0.2049 0.0009857 0.0015319
0.00064472 0.0011208 0.00020864 0.00077365
-0.00017959 -0.0010721 -0.0025124 0.00055301 0.00098873 0.0015325 0.072884 0.27405
0.0089391 -0.016611 0.0026133 0.0018
-0.0024797 0.0026025 0.00037253 0.0029036 0.00065355 0.0011346 0.0089096 -0.016618
-0.0020229 0.22025 0.013555 -0.012996
0.0013966 0.0019334 -0.00062211 0.0018493 0.000217 0.00078646 0.0026085 0.0017926
0.013543 -0.01299 -0.015533 0.32125
1280000000 0.1856 0.26726 -0.008627 -0.028402 -0.0018062 0.002545 -0.0011139 -0.0019253
-0.00055408 0.003168 0.0026035 0.00096051
-0.0085895 -0.028381 0.0070553 0.38143 -0.023827 -0.0079383 -0.00087617 0.0015255
0.001783 0.0015312 0.00062749 0.0019637
-0.0018109 0.0025501 -0.023888 -0.0078333 0.31923 0.16056 0.0014277 -0.00026496
0.0010298 0.00011539 0.00029861 0.00043847
-0.001119 -0.0019245 -0.00087352 0.0015296 0.0014268 -0.00026616 0.10935 0.25728
-0.00045346 -0.017955 0.00047916 0.00015397
-0.0005544 0.0031543 0.001787 0.0015229 0.0010417 0.00011442 -0.0004925 -0.01796
0.035227 0.22408 0.0027121 -0.014916
0.0026135 0.0009341 0.00063128 0.0019465 0.00029552 0.00041417 0.0004805 0.00015215
0.0027234 -0.014917 0.032555 0.32291
1340000000 0.22242 0.23257 -0.018283 -0.018513 0.00094653 0.0043411 -0.0019027 -0.00070459
0.00156 0.0025927 0.0016637 -0.0015725
-0.01824 -0.018501 0.046587 0.37218 -0.021354 0.0047078 4.872e-05 0.0019022
0.0017487 0.00049557 0.0013978 0.00083922
0.00096415 0.0043274 -0.021356 0.004818 0.34061 0.11252 0.0008696 -0.00095545
0.00064432 -0.00041237 0.00021231 0.00024641
-0.0019008 -0.00069424 5.1685e-05 0.0018986 0.00086949 -0.0009603 0.14198 0.2367
-0.0089816 -0.014406 0.0012602 0.00018842
0.0015652 0.0025761 0.0017316 0.0004707 0.00062898 -0.000405 -0.009008 -0.014395
0.066133 0.21942 -0.0040248 -0.013237
0.0016547 -0.0016056 0.0013977 0.00085109 0.00020996 0.00026861 0.0012607 0.00018459
-0.0040349 -0.013246 0.071967 0.31903
1400000000 0.25485 0.19346 -0.023663 -0.0068437 0.0051162 0.0030416 -0.0020022 0.00072916
0.0025292 0.00065081 0.00015596 -0.0013764
-0.023629 -0.0068497 0.083346 0.35836 -0.014392 0.012625 0.0013451 0.001143
0.00088458 -0.0009346 0.0012021 0.00021618
0.005134 0.0030217 -0.014356 0.012708 0.35309 0.059076 -5.0661e-06 -0.0014772
6.4198e-05 -0.00036313 0.00035254 0.00024915
-0.0020003 0.00074417 0.0013547 0.0011393 -1.8159e-06 -0.0014776 0.17145 0.20799
-0.013854 -0.0075829 -0.00051716 -0.00068144
0.0025436 0.00062058 0.00089331 -0.0009486 5.2746e-05 -0.00037078 -0.013874 -0.0075495
0.099662 0.21418 -0.010279 -0.0081906
0.00015025 -0.0013794 0.0012033 0.00020704 0.00038293 0.00025094 -0.000515 -0.0006828
-0.01027 -0.008196 0.11742 0.30816
1460000000 0.27674 0.14879 -0.020366 0.0053345 0.0054988 -0.0018088 -0.0014454 0.0017528
0.0020423 -0.00084912 -0.00037928 -0.00080086
-0.020356 0.0053159 0.1169 0.33587 -0.0056887 0.015161 0.0016117 0.00010553
0.00067793 -0.001144 0.0011068 -0.00067402
0.0054931 -0.0018423 -0.0056275 0.015208 0.35879 0.0049899 -0.0011644 -0.0011378
0.00026458 -0.00013683 0.00072 -0.00040856
-0.0014423 0.0017556 0.0016287 0.00010417 -0.0011654 -0.0011346 0.19795 0.17881
-0.013943 -0.001391 -0.00095963 0.0016057
0.0020401 -0.00086326 0.00067204 -0.0011492 0.00026473 -0.00014814 -0.013951 -0.0013491
0.12979 0.19875 -0.011695 -0.0024195
-0.00039465 -0.00079845 0.001114 -0.00067216 0.00072996 -0.0004026 -0.00095156 0.0015899
-0.011683 -0.0024111 0.15096 0.28699
1520000000 0.28798 0.10677 -0.014416 0.010855 0.0030781 -0.0041641 0.00019004 0.0025545
0.0016845 -0.0018179 -0.0011657 -9.7804e-05
-0.014418 0.010826 0.14969 0.32086 0.0017305 0.01282 0.001539 -0.00079188
2.8649e-05 -0.000813 0.00025482 -0.00105
0.0030625 -0.0041726 0.0017933 0.012823 0.35194 -0.051001 -0.00090908 -0.00026239
0.00053579 -0.00081383 6.9247e-06 -0.00014586
0.00018315 0.0025586 0.0015278 -0.00080344 -0.00091084 -0.00027076 0.22138 0.14062
-0.012458 0.0034949 0.0012438 0.0017541
0.0016883 -0.0018367 1.7846e-05 -0.00081171 0.00053435 -0.00082153 -0.012456 0.0035225
0.15825 0.18352 -0.011541 0.0019812
-0.0011769 -7.791e-05 0.00026331 -0.0010523 -1.038e-06 -0.0001547 0.0012528 0.001746
-0.011535 0.0019789 0.18457 0.26721
1580000000 0.29632 0.060457 -0.007569 0.013703 -0.0010121 -0.0047909 0.0014152 0.0017761
-0.00061353 -0.0020994 -0.00032083 0.00039161
-0.0075718 0.013692 0.17628 0.29608 0.0051961 0.0079573 0.0004281 -0.0015092
-0.00037407 -0.00089239 -0.00033732 -0.00083459
-0.0010331 -0.004793 0.0052417 0.0079378 0.33153 -0.10831 -0.0014368 0.00050624
-0.00034047 -0.0011211 0.00011384 -0.00057259
0.0014253 0.0017705 0.00040889 -0.0015149 -0.0014329 0.00052559 0.23559 0.1008
-0.0088471 0.0070517 0.0019238 0.0005368
-0.00063581 -0.0020969 -0.00038829 -0.00088938 -0.00034919 -0.0010954 -0.0088504 0.0070665
0.18272 0.16437 -0.008908 0.0073366
-0.00031839 0.00041156 -0.00033567 -0.0008341 0.00010598 -0.0005724 0.0019291 0.00052809
-0.0089067 0.00733 0.21701 0.24045
1640000000 0.29747 0.019208 -0.00082032 0.012292 -0.0027442 -0.0024954 0.0025669 0.00093471
-0.00088578 -0.0011006 -0.00030066 0.00065029
-0.00083793 0.012279 0.20515 0.27116 0.0057057 0.0032828 -0.00073354 -0.0015845
-0.00085802 -0.00040657 -0.00056324 -0.00059436
-0.0027523 -0.002486 0.005731 0.0032571 0.30329 -0.15727 -0.00079408 0.0012727
-0.0011021 -0.00072469 -0.00014064 -0.00034586
0.0025788 0.00092292 -0.00075301 -0.0015906 -0.00079584 0.0012739 0.24784 0.051465
-0.005138 0.0071904 0.0022078 -0.00082452
-0.00091086 -0.0010948 -0.00086624 -0.00039916 -0.001096 -0.0007303 -0.00511 0.0072015
0.20538 0.1384 -0.0039959 0.0093943
-0.00026825 0.00066148 -0.000556 -0.00059366 -0.00013659 -0.00035555 0.0022121 -0.00083354
-0.0039984 0.0093964 0.24329 0.20925
1700000000 0.28938 -0.025734 0.0024942 0.009208 -0.0034833 6.7919e-05 0.0028729 -0.0011598
-0.0018442 -0.0002713 0.00064134 0.00038206
0.0024812 0.0092082 0.22286 0.23996 0.0037254 0.00054148 -0.0013747 -0.00053471
-0.0007133 -7.9973e-05 -0.0009167 -0.00036489
-0.0034811 8.6152e-05 0.0037256 0.00052437 0.25999 -0.19717 0.00026993 0.0014863
-0.0017102 -0.00019813 -0.0005768 -0.00092807
0.0028645 -0.0011806 -0.0013847 -0.0005212 0.00027458 0.0014734 0.24434 0.0011442
-0.003342 0.0069087 0.0013142 -0.0020832
-0.0018639 -0.00026822 -0.00070958 -6.9001e-05 -0.0017241 -0.00018294 -0.003327 0.0069214
0.22246 0.11626 0.0005271 0.0095553
0.00063184 0.00036443 -0.00092355 -0.00036414 -0.00061285 -0.00092338 0.0013141 -0.0020982
0.00052976 0.0095655 0.26034 0.17477
1760000000 0.27651 -0.073758 0.0045039 0.0058143 -0.0022239 0.00092554 0.00128 -0.0032908
-0.00093867 0.00078439 0.00034397 -0.00054273
0.0045021 0.0058128 0.24853 0.20037 0.0015169 -0.0010555 -0.0010847 0.00021547
-0.0011208 0.00077238 -0.00054999 0.00053354
-0.0022067 0.00094242 0.0015115 -0.0010638 0.21111 -0.23029 0.0010772 0.0012784
-0.0010887 0.0013772 -0.0013722 -0.00042476
0.0012665 -0.0032937 -0.0010854 0.00021336 0.0010802 0.0012775 0.23449 -0.050544
-0.0013757 0.0060884 -0.00045188 -0.0022605
-0.00093147 0.00078674 -0.0011198 0.00077276 -0.0010892 0.0013391 -0.0013626 0.0060878
0.23675 0.079508 0.0043421 0.0064979
0.00033707 -0.0005688 -0.00053419 0.00053446 -0.001403 -0.00041208 -0.00045753 -0.0022607
0.0043467 0.0064936 0.27311 0.1368
1820000000 0.25133 -0.1106 0.0044986 0.0022918 -3.1311e-05 0.0024531 -0.00093911 -0.0030099
-0.00071226 0.00066297 -2.9337e-05 -0.00013337
0.0044937 0.0022955 0.25833 0.17058 -0.00032788 0.00012516 -0.0012715 0.00083901
-0.00019116 0.0012979 -0.0004791 0.000517
-2.4139e-05 0.0024399 -0.00032802 0.00013126 0.16095 -0.24578 0.0015516 0.00046823
-0.00029397 0.0021251 -0.0014191 0.00049814
-0.00096675 -0.0030183 -0.0012715 0.00084905 0.0015569 0.00048575 0.2038 -0.097778
-0.0008734 0.0047925 -0.0017307 -0.0014941
-0.00069137 0.0006718 -0.00017787 0.0013163 -0.00029736 0.0021 -0.00085885 0.0047977
0.25218 0.04833 0.0051315 0.0028574
-3.3396e-05 -0.00013529 -0.00047897 0.00052077 -0.0014122 0.00047904 -0.001733 -0.0014835
0.0051414 0.0028575 0.27585 0.1005
1880000000 0.21584 -0.14998 0.0021983 0.00023769 -0.00025956 0.0021475 -0.0028008 -0.0021604
-0.00019788 0.0013468 0.00029991 -0.00051447
0.0022047 0.00023686 0.26279 0.12432 -0.0021643 0.0017318 -0.00015336 0.001661
0.00055667 0.0013777 0.00022458 0.00094291
-0.00025458 0.0021448 -0.002156 0.0017475 0.10921 -0.25575 0.0019657 -0.00098643
0.0014734 0.0020292 -0.00093161 0.0015702
-0.0028163 -0.0021449 -0.00014517 0.0016484 0.0019584 -0.0009929 0.16276 -0.13731
-0.00093499 0.0038536 -0.0024861 0.00072584
-0.00018051 0.0013376 0.00056252 0.0013861 0.0014946 0.0020348 -0.00091753 0.0038618
0.25316 0.013853 0.004554 0.00077512
0.00027487 -0.00052303 0.00023748 0.00094258 -0.00092429 0.0015903 -0.0024858 0.00073372
0.0045383 0.00076268 0.27594 0.066082
1940000000 0.1764 -0.17526 -2.6315e-05 -0.0014019 0.0013324 0.0018753 -0.0037066 0.00050113
0.0011255 0.00091329 -0.00064608 -0.00056819
-2.3462e-05 -0.0014062 0.2633 0.092592 -0.0010564 0.0039077 0.00095474 0.0012978
0.0019627 0.0006503 0.0008402 0.0002072
0.0013439 0.0018647 -0.0010357 0.0039186 0.062696 -0.24942 0.00030581 -0.0023868
0.0024208 0.00054151 0.00046939 0.0016971
-0.0037033 0.00053391 0.00096403 0.0012965 0.00030613 -0.0023812 0.10989 -0.16694
-0.0022803 0.0036337 -0.0013973 0.0018609
0.0011196 0.00089467 0.0019675 0.00064 0.002451 0.0005438 -0.002279 0.0036262
0.25202 -0.026339 0.0029971 -0.0023719
-0.00063726 -0.00054958 0.00084191 0.00022077 0.00041897 0.001655 -0.0013873 0.0018707
0.003008 -0.0023767 0.26475 0.030096
2000000000 0.1303 -0.18918 -0.0038045 0.00062526 0.0023672 0.0015178 -0.0023083 0.0035815
0.00085478 0.00023855 -0.0006454 0.00038694
-0.0037907 0.0006159 0.24918 0.057141 -0.00089484 0.0055455 0.0016596 0.00028536
0.0015966 -0.001414 0.00045604 9.266e-05
0.0023829 0.0015005 -0.00086509 0.0055532 0.018865 -0.23514 -0.0015165 -0.0014914
0.0021076 -0.001264 0.0016739 0.0012594
-0.0022839 0.0035799 0.0016603 0.00026593 -0.0015096 -0.0014979 0.056706 -0.17617
-0.0035177 0.0045447 0.0001446 0.0023652
0.00088122 0.00024329 0.0015967 -0.0014186 0.0021216 -0.0012647 -0.0035163 0.00455
0.24287 -0.060826 -0.00031428 -0.0029008
