!Keysight Technologies,M9804A,MY58100912,A.14.10.03
!Date: Thursday, April 27, 2023 10:28:33
!Correction: S11(C  6-Port  ) 
!S12(C  6-Port  ) 
!S13(C  6-Port  ) 
!S14(C  6-Port  ) 
!S15(C  6-Port  ) 
!S16(C  6-Port  ) 
!S21(C  6-Port  ) 
!S22(C  6-Port  ) 
!S23(C  6-Port  ) 
!S24(C  6-Port  ) 
!S25(C  6-Port  ) 
!S26(C  6-Port  ) 
!S31(C  6-Port  ) 
!S32(C  6-Port  ) 
!S33(C  6-Port  ) 
!S34(C  6-Port  ) 
!S35(C  6-Port  ) 
!S36(C  6-Port  ) 
!S41(C  6-Port  ) 
!S42(C  6-Port  ) 
!S43(C  6-Port  ) 
!S44(C  6-Port  ) 
!S45(C  6-Port  ) 
!S46(C  6-Port  ) 
!S51(C  6-Port  ) 
!S52(C  6-Port  ) 
!S53(C  6-Port  ) 
!S54(C  6-Port  ) 
!S55(C  6-Port  ) 
!S56(C  6-Port  ) 
!S61(C  6-Port  ) 
!S62(C  6-Port  ) 
!S63(C  6-Port  ) 
!S64(C  6-Port  ) 
!S65(C  6-Port  ) 
!S66(C  6-Port  ) 
!S6P File: Measurement: :
# Hz S  RI   R 50
500000000 -0.33646 -0.033245 -0.0094173 -0.0034964 -0.007492 0.011547 -0.004092 0.011775
0.012765 0.0042113 -0.004606 0.0075774
-0.0094186 -0.0034278 -0.41907 -0.047936 0.0077143 -0.011665 0.0014108 0.011967
0.0073634 0.0027307 0.00042934 0.013244
-0.0075881 0.011595 0.007628 -0.011732 -0.26363 0.2114 0.0070779 0.0032169
-0.00011136 0.0085802 0.0007002 0.012024
-0.0039311 0.01179 0.0015904 0.011913 0.0071914 0.0031765 -0.32643 0.05063
-0.018483 -0.0054674 0.016914 0.026935
0.012279 0.0039767 0.0074496 0.0024703 0.00019011 0.0082214 -0.018733 -0.0054857
-0.22776 -0.17747 -0.026775 0.0046676
-0.0044059 0.0076682 0.00080637 0.013273 0.00089229 0.012169 0.017593 0.027287
-0.026624 0.0045409 -0.27297 -0.12886
560000000 -0.31397 0.1262 -0.023937 -0.062703 -0.00013008 0.012098 0.0069033 0.0099055
0.010948 0.0041169 0.0094508 0.0078973
-0.023879 -0.062612 -0.37538 0.10913 -0.042002 -0.036956 0.013977 0.0035313
-0.013512 -0.0038394 0.0044605 -0.0008421
-0.0001448 0.012059 -0.042099 -0.036904 -0.1819 0.25843 -0.00097096 -0.0046464
0.018414 0.0039067 0.0076094 -0.0065978
0.0069356 0.01008 0.013815 0.0036987 -0.00092888 -0.0047065 -0.30137 0.13602
0.0038999 -0.025352 0.0050912 -0.019474
0.011074 0.0036235 -0.013348 -0.0035967 0.018372 0.0033405 0.0044912 -0.025208
-0.28479 -0.0051952 0.0076222 -0.05085
0.0096596 0.0077975 0.0040756 -0.00090491 0.0078563 -0.0063753 0.0049894 -0.019317
0.0070796 -0.05044 -0.33307 0.019916
620000000 -0.27225 0.11052 -0.023203 0.0069041 0.0030822 0.0083042 0.0069427 -0.005736
0.01082 -8.3391e-05 -0.00070619 -0.0017169
-0.023214 0.0069064 -0.40183 0.063552 -0.019161 -0.00053615 -0.0015958 -0.0021922
0.0098869 -0.0073498 0.00077433 -0.002993
0.003099 0.0082728 -0.019166 -0.00047654 -0.15255 0.26715 -0.0016427 -0.0054376
-0.004518 -0.0032382 0.0083717 -0.0033615
0.0066258 -0.0058088 -0.001598 -0.0022062 -0.0015419 -0.0054728 -0.26051 0.14649
-0.038913 -0.018722 0.01458 0.023246
0.011007 -0.00038497 0.010046 -0.007207 -0.0045256 -0.0032475 -0.03842 -0.018826
-0.20506 -0.043883 -0.041089 0.0147
-0.00081442 -0.0019039 0.00074609 -0.0031026 0.0084928 -0.0034827 0.01399 0.024001
-0.041077 0.014823 -0.24971 -0.019886
680000000 -0.23194 0.19364 -0.028025 -0.0141 0.0047774 0.0051212 0.0010027 -0.0074397
-0.0036692 -0.010911 0.004146 -0.0066088
-0.028001 -0.014105 -0.38646 0.15983 -0.033211 -0.0011981 -0.0015132 -0.00028372
-0.0032041 -0.0089079 -0.0014154 -0.0021792
0.0047707 0.0051195 -0.033236 -0.0011076 -0.10239 0.28714 -0.00057782 0.00033769
-0.0025079 0.00090135 -0.0031419 -0.0096984
0.0010529 -0.0074927 -0.0015698 -0.00022132 -0.00067028 0.00039905 -0.21815 0.19503
-0.024131 -0.0088574 -0.010246 -0.010261
-0.0036795 -0.010763 -0.003224 -0.0089102 -0.0024845 0.0008959 -0.02413 -0.0085547
-0.24989 0.05252 -0.0056354 -0.009886
0.0045316 -0.0069429 -0.0013247 -0.0023412 -0.0033259 -0.0095987 -0.010327 -0.010545
-0.0058737 -0.0097849 -0.26143 0.086511
740000000 -0.18894 0.18903 -0.038669 0.026183 0.012492 -0.0051058 -0.0008677 -0.0037053
-0.0043367 -0.0024488 -0.0064741 0.0035326
-0.038678 0.026149 -0.33513 0.17915 -0.035221 0.034958 -0.00098231 -0.0060196
-0.011194 0.0079706 -0.0031472 -0.0057723
0.012513 -0.0051505 -0.03516 0.035084 -0.068964 0.28672 -0.0012032 0.0033327
-0.0025619 -0.0034479 -0.001216 -4.6808e-06
-0.0010473 -0.0037681 -0.0010949 -0.006016 -0.0013242 0.0033503 -0.20195 0.20315
-0.042874 -0.0083136 0.021929 0.013403
-0.0042226 -0.0025849 -0.010988 0.0081328 -0.0026377 -0.0033694 -0.042979 -0.0082805
-0.15723 0.075337 -0.04173 -0.00039863
-0.0063247 0.0038533 -0.0031189 -0.006067 -0.0011562 0.00010706 0.022245 0.013092
-0.04225 -0.00025747 -0.25417 0.093182
800000000 -0.1571 0.2288 -0.022687 0.017122 0.0051679 -0.010492 -0.0048627 -0.0019727
-0.0038435 0.0029207 0.0045832 0.00082032
-0.022669 0.017104 -0.3375 0.24909 -0.007922 0.034391 -0.0020434 0.0023186
-0.00024663 0.0036334 0.0013279 0.0053019
0.0051411 -0.010494 -0.007828 0.03443 -0.027662 0.31007 0.0013461 0.0013957
0.00079529 0.0035295 -0.0017955 0.0010855
-0.0049413 -0.0020215 -0.0020706 0.0022665 0.0013205 0.0013545 -0.1743 0.23065
-0.02886 0.012422 0.013268 -0.0098652
-0.0040876 0.0030855 -0.00039097 0.0036268 0.00072404 0.0034891 -0.029035 0.012684
-0.19896 0.099302 -0.017737 0.017347
0.0044229 0.00074067 0.0012548 0.0053869 -0.0017699 0.00108 0.01336 -0.0098438
-0.017726 0.01723 -0.24631 0.14616
860000000 -0.1223 0.25039 -0.017287 0.031551 -0.0034804 -0.0097494 -0.0024022 0.0015804
0.0047041 0.005149 -0.0030707 -0.0028411
-0.017289 0.031508 -0.28953 0.29141 0.0083892 0.034463 0.00038917 0.0020688
0.0049186 0.00022967 0.0033431 1.8725e-05
-0.0035119 -0.0097392 0.0085239 0.034467 0.021206 0.31819 -0.00034937 -0.00038304
0.0029031 -0.0014737 0.0015805 0.004619
-0.0023469 0.0015407 0.00042467 0.002075 -0.00032766 -0.00035451 -0.13903 0.24334
-0.01819 0.0197 -0.0062022 -0.0095472
0.0045581 0.0049976 0.0047386 0.0002053 0.002879 -0.0015846 -0.018328 0.019527
-0.15002 0.14777 -0.025021 0.015491
-0.0030242 -0.002781 0.0032647 -4.5666e-05 0.0016054 0.0047275 -0.0061581 -0.0095645
-0.025303 0.015631 -0.19514 0.19004
920000000 -0.096626 0.27373 0.0051198 0.038122 -0.0093858 -0.004068 -0.0016714 0.0025063
0.0013851 0.0015701 0.0024478 -0.0013064
0.005102 0.038094 -0.26047 0.31242 0.02828 0.021854 0.0016638 0.0011614
0.0067348 -0.00079163 0.0037931 -0.0028973
-0.0094007 -0.0040215 0.028388 0.021776 0.067991 0.31839 0.0016862 -6.246e-05
0.0012625 -0.00039117 0.00092986 -0.0010049
-0.0016608 0.0024315 0.0016505 0.0010866 0.0017054 -9.86e-05 -0.11445 0.25998
-0.01063 0.030525 0.002347 -0.0065525
0.0014114 0.001497 0.0067704 -0.00094466 0.0013301 -0.00046118 -0.010465 0.03055
-0.14002 0.1541 -0.001833 0.027982
0.0024405 -0.0014374 0.0036632 -0.0030007 0.00089165 -0.001048 0.0023596 -0.0065462
-0.001982 0.027777 -0.20359 0.20419
980000000 -0.048742 0.29315 0.018126 0.030166 -0.0087023 0.0048897 0.0026512 0.0037217
0.0039584 -0.0018229 -0.0031267 -0.0019852
0.018107 0.030167 -0.20727 0.34603 0.033133 0.0044255 0.0019647 -0.00012707
0.00089211 -0.0061213 -0.00080793 -0.0022643
-0.0086946 0.0049165 0.033195 0.0043144 0.11459 0.3113 0.00043865 -0.0011852
1.0411e-05 -0.0021475 0.0016487 -3.6316e-05
0.0026528 0.003711 0.0019813 -0.00017303 0.0004409 -0.0011861 -0.075536 0.27168
0.0077677 0.029318 -0.0094483 -0.0066066
0.0039138 -0.00185 0.0008576 -0.0061588 1.5698e-05 -0.0021414 0.0078009 0.029355
-0.10801 0.18112 0.0047838 0.018918
-0.0030474 -0.0020098 -0.00069947 -0.0022141 0.00169 -8.6861e-05 -0.0093173 -0.0066184
0.0048898 0.018984 -0.15984 0.24988
1040000000 -0.0054446 0.30094 0.033619 0.017772 -0.00087279 0.0070058 0.0028765 0.00052249
-1.255e-05 -0.0036959 -0.00068599 -0.0015781
0.033605 0.017785 -0.17114 0.35897 0.029151 -0.015118 0.001366 -0.0016548
-0.0027254 -0.0021931 -0.001653 -0.0027128
-0.00086159 0.0070053 0.029144 -0.015266 0.16093 0.29709 -0.00056719 -0.001392
-0.00154 -0.0007741 -0.00039348 -0.0012461
0.0028978 0.00052849 0.0013509 -0.0017138 -0.00056333 -0.0013929 -0.047612 0.28178
0.018694 0.017319 -0.0029484 0.0024551
-5.8685e-05 -0.0037555 -0.0027061 -0.0021617 -0.0015023 -0.00076361 0.018805 0.017332
-0.076952 0.19003 0.013345 0.018078
-0.00068399 -0.001538 -0.001601 -0.0026758 -0.00039869 -0.0013007 -0.0029533 0.0024611
0.013377 0.018014 -0.13923 0.27173
1100000000 0.040225 0.30788 0.035888 -0.0046402 0.0031909 0.0037157 0.0025146 -0.001604
-0.0021021 -0.0030093 -0.0038443 0.00010767
0.035872 -0.004607 -0.12743 0.37581 0.014761 -0.027857 -9.1371e-05 -0.0018247
-0.0030366 -0.00028251 -0.0033447 -0.00053747
0.0032098 0.0037058 0.014667 -0.027947 0.20724 0.2762 -0.0018103 0.00026498
-0.0016503 0.00063713 -0.00097289 -0.00046706
0.0025198 -0.0016236 -7.9155e-05 -0.0018287 -0.0017975 0.00028125 -0.0064451 0.28648
0.023214 0.0049155 -0.0021057 0.0011796
-0.0021329 -0.0029751 -0.0030378 -0.00024437 -0.001663 0.00064889 0.023173 0.0048891
-0.05836 0.20352 0.019023 0.0084186
-0.0038245 0.00014509 -0.0033946 -0.00053831 -0.00088562 -0.00048607 -0.0020409 0.0011147
0.019083 0.0085953 -0.092066 0.30138
1160000000 0.091973 0.30206 0.023851 -0.021105 0.0029028 -0.00072099 -0.00025896 -0.002589
-0.0040178 -0.00032503 -0.00091931 0.0039295
0.023859 -0.021061 -0.082988 0.37955 -0.0040521 -0.028865 -0.0017792 -0.0015178
-0.0022315 0.0025713 -0.00136 0.0016766
0.0028803 -0.00073671 -0.0041761 -0.028894 0.25017 0.24484 -0.00054562 0.001725
-0.00039722 0.001706 -0.0011983 1.3541e-05
-0.00026546 -0.0025844 -0.0018063 -0.0015095 -0.00056839 0.0017278 0.033448 0.28309
0.019605 -0.010087 -0.0025139 0.0055974
-0.0040486 -0.0003226 -0.0022334 0.0025942 -0.00038984 0.0016757 0.019613 -0.010128
-0.024717 0.21288 0.017671 0.00023465
-0.00087292 0.0039795 -0.0012679 0.0016028 -0.0011819 6.0189e-05 -0.0025224 0.005622
0.017465 0.00025879 -0.044379 0.30405
1220000000 0.13644 0.2899 0.010167 -0.030131 -0.0015264 -0.0010901 -0.00028357 -0.0010511
-0.0024967 0.0025363 0.0012885 0.0019223
0.010183 -0.030092 -0.038644 0.3906 -0.016973 -0.020729 -0.0024638 0.00054177
0.00032111 0.002649 -0.00072387 0.0017948
-0.0015326 -0.0010852 -0.017067 -0.020672 0.28901 0.20538 0.0008691 0.001471
0.00054527 0.0011084 0.00014876 0.00079463
-0.00031637 -0.0010536 -0.0024589 0.00056039 0.00089116 0.0014807 0.073238 0.27382
0.0093603 -0.015875 0.0029178 0.0016266
-0.002481 0.0025686 0.00031167 0.0026842 0.00052219 0.0011304 0.0093209 -0.015897
-0.0001999 0.22202 0.013619 -0.012357
0.0012997 0.0019095 -0.00072232 0.0017977 0.00015373 0.00079866 0.0028908 0.0015719
0.013641 -0.012446 -0.013139 0.3215
1280000000 0.18586 0.26699 -0.0080627 -0.028423 -0.0019022 0.0022979 -0.0011231 -0.0018325
-0.00052005 0.0030186 0.0025285 0.00094384
-0.0080398 -0.028393 0.0072616 0.38087 -0.023461 -0.0081638 -0.00091474 0.0014605
0.0015504 0.001487 0.00048765 0.0019938
-0.0018957 0.0022986 -0.023529 -0.0080601 0.31937 0.16116 0.0012962 -0.00024061
0.00093897 0.00019304 0.00020576 0.00055213
-0.001145 -0.0018008 -0.0009056 0.0014754 0.0012973 -0.00022087 0.1096 0.25702
0.00036641 -0.017448 0.00057185 -0.00022842
-0.00051921 0.0030534 0.0015566 0.0014675 0.0009435 0.00018146 0.00035732 -0.017452
0.037479 0.22515 0.0027603 -0.014431
0.0025779 0.00093931 0.00050289 0.0019665 0.00021465 0.00052216 0.00056051 -0.0001426
0.0028188 -0.014437 0.035109 0.32302
1340000000 0.22258 0.23227 -0.017755 -0.018915 0.00070906 0.0042291 -0.0017989 -0.00061099
0.0014646 0.0025516 0.0015817 -0.0015573
-0.017727 -0.018917 0.046434 0.37175 -0.021187 0.0043171 -2.2556e-05 0.0018694
0.001562 0.00065901 0.0013431 0.00080481
0.00073264 0.0042193 -0.021191 0.0044338 0.34122 0.11313 0.00086981 -0.00083528
0.00059284 -0.00035527 0.0002748 0.00029528
-0.0018265 -0.00061994 -1.5319e-05 0.0018631 0.00087061 -0.00084369 0.14191 0.23638
-0.0079073 -0.014451 0.0013085 -0.00015631
0.0014825 0.0025593 0.0015749 0.0006373 0.00061198 -0.00035823 -0.0079506 -0.014426
0.06875 0.21945 -0.0035425 -0.01298
0.0015486 -0.0016143 0.0013261 0.00080756 0.00027934 0.00027103 0.0013025 -0.00019211
-0.0034808 -0.013023 0.074189 0.31901
1400000000 0.25477 0.19328 -0.023453 -0.0074361 0.0048018 0.0030381 -0.0019378 0.00067709
0.0024376 0.00065305 9.6927e-05 -0.0013186
-0.023427 -0.0074435 0.082978 0.35816 -0.014512 0.012197 0.0012798 0.0011996
0.00089181 -0.00073321 0.0011669 0.00029557
0.0048072 0.003014 -0.01447 0.012301 0.35402 0.059307 7.6709e-05 -0.001348
0.00010312 -0.00034666 0.00035067 0.00035645
-0.0019463 0.00069666 0.0012737 0.0012092 6.1009e-05 -0.0013448 0.17134 0.20788
-0.012846 -0.0082405 -0.00070188 -0.00094953
0.0024406 0.0006313 0.00088577 -0.00073506 0.0001015 -0.00036034 -0.0129 -0.0081863
0.10199 0.21357 -0.0095866 -0.0081552
9.8834e-05 -0.0013537 0.0011926 0.00024554 0.00038204 0.00033535 -0.00062452 -0.00084619
-0.0096062 -0.008224 0.11952 0.30777
1460000000 0.27686 0.14877 -0.020505 0.0046903 0.0052583 -0.0016112 -0.0015138 0.0016688
0.0018313 -0.00079576 -0.00040066 -0.00077192
-0.020504 0.0046599 0.11656 0.33603 -0.0060976 0.014865 0.001651 0.00015243
0.00081487 -0.0010782 0.0011434 -0.00065039
0.005248 -0.0016404 -0.0060319 0.014937 0.35972 0.0045787 -0.00098552 -0.0011814
0.00023909 -0.00016951 0.00069899 -0.0004405
-0.0015092 0.001623 0.0016444 0.00014154 -0.00099891 -0.0012024 0.19775 0.17878
-0.013396 -0.0025716 -0.001153 0.0014677
0.0018417 -0.00080667 0.00083315 -0.0010543 0.0002498 -0.00018419 -0.013431 -0.0025932
0.13176 0.19749 -0.011205 -0.0029028
-0.00038597 -0.0007336 0.0011705 -0.00065968 0.00071865 -0.00040815 -0.0012483 0.0014312
-0.01124 -0.0028723 0.15324 0.28661
1520000000 0.28804 0.10682 -0.014872 0.01038 0.00301 -0.0038753 0.00011779 0.0024847
0.0017093 -0.0017366 -0.0010993 -9.3481e-05
-0.014876 0.010352 0.14953 0.32115 0.0012972 0.012848 0.0015394 -0.00076294
0.00011015 -0.00090772 0.00023419 -0.0010111
0.0029969 -0.0038899 0.0013728 0.012852 0.35236 -0.051732 -0.00090931 -0.00037262
0.00050421 -0.00076669 -4.1352e-05 -8.5254e-05
0.0001518 0.0024726 0.001539 -0.00078084 -0.00091087 -0.00037281 0.22123 0.14077
-0.012708 0.0022107 0.00095392 0.0016507
0.0016973 -0.0017377 0.00011346 -0.0009053 0.0005072 -0.00078629 -0.012716 0.0022491
0.15933 0.18196 -0.011166 0.0014064
-0.0011086 -0.00013224 0.00023523 -0.0010587 -6.064e-05 -8.6471e-05 0.00099067 0.0016531
-0.011161 0.0013572 0.18667 0.26608
1580000000 0.29648 0.060537 -0.0082137 0.013506 -0.00089818 -0.0045625 0.0013428 0.0017563
-0.00057024 -0.0020348 -0.00028402 0.00044233
-0.008228 0.013495 0.17632 0.29647 0.0048827 0.0081743 0.00048463 -0.0015562
-0.00036497 -0.0010662 -0.00033089 -0.00081465
-0.00092089 -0.0045524 0.0049309 0.0081538 0.33174 -0.10915 -0.0014846 0.00044272
-0.00025717 -0.0010707 0.00011037 -0.00065422
0.0013404 0.0017571 0.00046953 -0.0015462 -0.0014962 0.00046996 0.2357 0.10113
-0.0098341 0.0061951 0.0016821 0.00059586
-0.00059623 -0.0020379 -0.00040122 -0.0010682 -0.00027188 -0.0010769 -0.0097919 0.0062155
0.18309 0.16295 -0.0089655 0.0066718
-0.00024647 0.0004669 -0.00027703 -0.00080632 0.0001281 -0.00058782 0.0016045 0.000597
-0.0089882 0.0066815 0.21896 0.23919
1640000000 0.29771 0.019213 -0.0014803 0.01247 -0.0025367 -0.0024463 0.0024703 0.00098119
-0.00086598 -0.001089 -0.0002881 0.00069812
-0.0014971 0.012467 0.20548 0.27148 0.00558 0.0036015 -0.00074234 -0.0016264
-0.00098192 -0.00044774 -0.00058078 -0.0006025
-0.0025433 -0.0024452 0.0056061 0.0035609 0.3031 -0.15798 -0.00090943 0.0012684
-0.0010519 -0.000753 -9.4108e-05 -0.00032323
0.0024965 0.00097142 -0.00074567 -0.0016284 -0.00088273 0.0012913 0.24825 0.051617
-0.0063416 0.0070237 0.0020554 -0.00058426
-0.00083304 -0.001097 -0.00097645 -0.00045437 -0.0010147 -0.00074666 -0.0063333 0.0070615
0.20539 0.13738 -0.0044418 0.0087246
-0.00029499 0.00067533 -0.00059046 -0.00059786 -0.00011119 -0.00033264 0.0021134 -0.00060242
-0.0044916 0.0087414 0.24485 0.20795
1700000000 0.28977 -0.025856 0.0020139 0.0097456 -0.003322 9.0091e-05 0.0028933 -0.0010156
-0.0017952 -0.00031592 0.00058108 0.00037942
0.0020055 0.0097482 0.22323 0.24007 0.0037098 0.00076945 -0.0013821 -0.00055399
-0.00081907 9.5347e-07 -0.00090366 -0.00032976
-0.0033065 0.00011832 0.0037215 0.00075634 0.25949 -0.19768 0.00030828 0.0016189
-0.001737 -0.00025984 -0.0006049 -0.00094111
0.0028718 -0.0010186 -0.0014039 -0.00054538 0.00030379 0.001615 0.24481 0.00096663
-0.0044095 0.0073706 0.0012981 -0.0018044
-0.0017841 -0.00028422 -0.00081918 1.1824e-05 -0.0017137 -0.00021395 -0.0044242 0.0073482
0.22231 0.11569 -0.00013169 0.0091639
0.00059749 0.00036284 -0.00090342 -0.00032435 -0.00055969 -0.00099968 0.0012937 -0.0017994
-9.2534e-05 0.0091695 0.26144 0.17324
1760000000 0.2768 -0.074162 0.0044336 0.0064755 -0.0021677 0.000882 0.0013683 -0.003179
-0.0010063 0.0007843 0.00038145 -0.00043946
0.0044247 0.0064772 0.24899 0.20029 0.0016405 -0.00087546 -0.001117 0.00025806
-0.0011528 0.00090893 -0.00050856 0.00055856
-0.0021623 0.00088208 0.0016444 -0.00088234 0.21048 -0.23044 0.0011712 0.0014114
-0.0011231 0.0014017 -0.0013615 -0.00042866
0.0013451 -0.0032073 -0.0011286 0.00023932 0.0011589 0.0013439 0.23486 -0.051097
-0.0020085 0.0068293 -0.00037919 -0.0020216
-0.0009695 0.00078103 -0.0011312 0.0009295 -0.0011343 0.0014357 -0.0019187 0.0068876
0.23666 0.079141 0.0035588 0.0065128
0.00036999 -0.0004717 -0.00050036 0.00056102 -0.0013476 -0.00040672 -0.00034854 -0.0019979
0.0035254 0.0065412 0.274 0.13517
1820000000 0.25153 -0.11096 0.0047626 0.0028637 3.1746e-05 0.002394 -0.00084822 -0.003007
-0.00069516 0.00071256 -3.3468e-06 -0.00012814
0.0047636 0.0028659 0.25862 0.17024 -0.00019299 0.00017994 -0.0013034 0.0008867
-7.932e-05 0.0013953 -0.00042477 0.0005115
3.2733e-05 0.0024058 -0.0002065 0.00018509 0.16049 -0.2459 0.001598 0.00051734
-0.00026874 0.0021703 -0.0013551 0.0004654
-0.00088556 -0.0029652 -0.0013011 0.00090947 0.0015715 0.00046732 0.20365 -0.098395
-0.00097699 0.0057251 -0.0015519 -0.0012502
-0.00072491 0.0007335 -7.5923e-05 0.0014095 -0.00029277 0.002111 -0.00094818 0.0056719
0.25237 0.048172 0.0045578 0.0032089
4.1348e-05 -9.5074e-05 -0.00039588 0.00052113 -0.0013243 0.00051961 -0.0016987 -0.0013047
0.0045343 0.0031824 0.27614 0.099018
1880000000 0.21588 -0.15046 0.0026662 0.00054391 -0.00024587 0.0020711 -0.0028488 -0.0022125
-0.00019239 0.0013448 0.00031493 -0.00065392
0.002674 0.00054022 0.26292 0.124 -0.0020492 0.0017934 -0.00015453 0.001676
0.00067378 0.001328 0.00021816 0.00087952
-0.00024004 0.0020669 -0.0020334 0.0018147 0.10861 -0.25529 0.0020102 -0.0010959
0.0014459 0.0019975 -0.00085179 0.0014306
-0.0028468 -0.0022188 -0.00014851 0.0016813 0.0020011 -0.0011006 0.16231 -0.13789
-0.00071702 0.0046905 -0.0021409 0.00072356
-0.00022449 0.0013622 0.00067975 0.0013358 0.0015001 0.0019766 -0.00071434 0.0046672
0.25338 0.013705 0.0042267 0.0013681
0.00030542 -0.00059876 0.00020698 0.0009169 -0.00093546 0.0014589 -0.0021556 0.00068839
0.0041688 0.0013894 0.27619 0.064466
1940000000 0.17636 -0.17565 0.00051326 -0.0013598 0.0013588 0.0017281 -0.0038064 0.00041245
0.0011712 0.00085815 -0.00066936 -0.0006659
0.00051492 -0.0013571 0.26333 0.092262 -0.00090423 0.0039261 0.00098351 0.0012621
0.0020063 0.00047368 0.00076076 0.00015522
0.0013689 0.0017243 -0.00088615 0.0039413 0.06247 -0.24883 0.00027179 -0.0024171
0.0024475 0.0005221 0.00026848 0.0015507
-0.0038139 0.00040263 0.00098084 0.0012474 0.00028931 -0.002431 0.10938 -0.16719
-0.0015783 0.0041991 -0.0011055 0.0018241
0.0011673 0.00082948 0.0020128 0.00046194 0.0024516 0.0004904 -0.0016287 0.0041742
0.25272 -0.026785 0.002969 -0.0016383
-0.00064928 -0.000659 0.00077573 0.00012955 0.00026801 0.0015176 -0.0012098 0.0017387
0.003023 -0.001717 0.26503 0.028821
2000000000 0.13021 -0.18963 -0.0033616 0.00040434 0.0023891 0.0014244 -0.0022846 0.0035592
0.0009263 0.00021028 -0.00079515 0.00034896
-0.0033621 0.00038665 0.24899 0.056805 -0.00071581 0.0055199 0.0016211 0.00021339
0.0015353 -0.0015892 0.00043296 0.00010256
0.0023835 0.0014194 -0.00068986 0.0055403 0.018943 -0.23467 -0.0015648 -0.0014159
0.0020027 -0.0012957 0.0015771 0.0013983
-0.002374 0.003551 0.0016012 0.00021747 -0.001566 -0.0013611 0.056292 -0.17616
-0.0027386 0.0048715 0.00014874 0.0022367
0.00087585 0.0002422 0.0014638 -0.0015872 0.0020331 -0.0012465 -0.0027184 0.0048885
