!Keysight Technologies,M9804A,MY58100912,A.14.10.03
!Date: Thursday, April 27, 2023 10:28:33
!Correction: S11(C  6-Port  ) 
!S12(C  6-Port  ) 
!S13(C  6-Port  ) 
!S14(C  6-Port  ) 
!S15(C  6-Port  ) 
!S16(C  6-Port  ) 
!S21(C  6-Port  ) 
!S22(C  6-Port  ) 
!S23(C  6-Port  ) 
!S24(C  6-Port  ) 
!S25(C  6-Port  ) 
!S26(C  6-Port  ) 
!S31(C  6-Port  ) 
!S32(C  6-Port  ) 
!S33(C  6-Port  ) 
!S34(C  6-Port  ) 
!S35(C  6-Port  ) 
!S36(C  6-Port  ) 
!S41(C  6-Port  ) 
!S42(C  6-Port  ) 
!S43(C  6-Port  ) 
!S44(C  6-Port  ) 
!S45(C  6-Port  ) 
!S46(C  6-Port  ) 
!S51(C  6-Port  ) 
!S52(C  6-Port  ) 
!S53(C  6-Port  ) 
!S54(C  6-Port  ) 
!S55(C  6-Port  ) 
!S56(C  6-Port  ) 
!S61(C  6-Port  ) 
!S62(C  6-Port  ) 
!S63(C  6-Port  ) 
!S64(C  6-Port  ) 
!S65(C  6-Port  ) 
!S66(C  6-Port  ) 
!S6P File: Measurement: :
# Hz S  RI   R 50
500000000 -0.33676 -0.033586 -0.0097008 -0.0038999 -0.0079259 0.011994 -0.0036514 0.011585
0.012126 0.0044074 -0.0039104 0.008219
-0.0096764 -0.0038775 -0.41973 -0.048708 0.0072406 -0.011399 0.0015085 0.011779
0.0074523 0.0026958 0.00074432 0.013203
-0.0078935 0.011995 0.0072018 -0.011443 -0.2647 0.2119 0.0068608 0.0033333
0.00010431 0.0084458 0.0002644 0.012311
-0.0036412 0.011564 0.0015373 0.011754 0.0068061 0.0033015 -0.32714 0.048796
-0.020026 -0.0047119 0.017904 0.026299
0.012242 0.0043799 0.0073952 0.002735 7.5254e-05 0.0084142 -0.019991 -0.0047362
-0.22744 -0.18182 -0.028254 0.0047615
-0.0038965 0.0081415 0.00077906 0.013252 0.00027421 0.012301 0.017981 0.026266
-0.028251 0.0047661 -0.27 -0.13397
560000000 -0.31578 0.12577 -0.024006 -0.062805 0.00018667 0.012006 0.0063447 0.0097503
0.010704 0.0039609 0.009626 0.0078089
-0.02391 -0.062633 -0.37637 0.10931 -0.042165 -0.036686 0.013469 0.0039122
-0.013303 -0.00434 0.0044644 -0.00087733
0.00014167 0.011948 -0.042322 -0.036649 -0.18222 0.2593 -0.00055983 -0.0047965
0.019485 0.0040168 0.0070247 -0.0060948
0.0064079 0.0098132 0.013471 0.0038722 -0.00048221 -0.0047508 -0.30183 0.13654
0.003334 -0.024702 0.005026 -0.019281
0.010693 0.0039981 -0.013249 -0.0043173 0.019512 0.0040901 0.0033256 -0.024702
-0.28579 -0.0077518 0.0070042 -0.050779
0.009702 0.0078508 0.0044618 -0.00092803 0.0070394 -0.0060885 0.0049822 -0.019154
0.0069215 -0.050816 -0.33344 0.015096
620000000 -0.27284 0.11045 -0.023218 0.0072607 0.00366 0.0084483 0.0067263 -0.0055152
0.011573 -0.00045198 3.194e-05 -0.001791
-0.023204 0.0072325 -0.40244 0.063655 -0.018854 -0.00012421 -0.0012917 -0.0020143
0.01023 -0.0072201 0.0010217 -0.0025302
0.0036652 0.0084455 -0.018893 -6.5662e-05 -0.15204 0.26824 -0.0015822 -0.0050846
-0.0038453 -0.0036136 0.0085817 -0.003465
0.0066471 -0.0055188 -0.0013046 -0.0020491 -0.0015162 -0.0051786 -0.26066 0.14663
-0.038902 -0.018301 0.014176 0.024371
0.011644 -0.00064253 0.010249 -0.0072075 -0.0038524 -0.0034709 -0.038877 -0.01823
-0.20628 -0.046807 -0.04174 0.015464
4.1221e-05 -0.0017589 0.0010113 -0.0025247 0.0086467 -0.0034453 0.014168 0.024358
-0.041725 0.015399 -0.2511 -0.024103
680000000 -0.23275 0.19392 -0.028174 -0.013766 0.0049262 0.0051535 0.0011802 -0.0075461
-0.003243 -0.010969 0.0044883 -0.0071091
-0.028141 -0.013755 -0.38687 0.16012 -0.033045 -0.0011064 -0.001619 -0.00025476
-0.0026726 -0.0090336 -0.0010897 -0.0020758
0.0049239 0.0051384 -0.033088 -0.0010283 -0.10182 0.2877 -0.00058395 0.00016016
-0.0023332 0.00080251 -0.0030007 -0.0096091
0.00115 -0.0075727 -0.0016523 -0.00023812 -0.00061316 0.00016762 -0.21804 0.19558
-0.02391 -0.0079814 -0.010727 -0.010393
-0.0032773 -0.010905 -0.0026927 -0.0090177 -0.0023116 0.0008172 -0.023892 -0.0079675
-0.2523 0.051467 -0.0057377 -0.0092834
0.0044117 -0.0071186 -0.00112 -0.0020587 -0.0030063 -0.0096096 -0.010725 -0.010385
-0.0056575 -0.0092661 -0.26245 0.083605
740000000 -0.18895 0.18914 -0.038279 0.026804 0.012693 -0.0052813 -0.00090227 -0.0039384
-0.004753 -0.0028112 -0.0064254 0.0034978
-0.038304 0.026752 -0.33503 0.17895 -0.034821 0.035145 -0.0010034 -0.0063124
-0.011262 0.0080995 -0.0030475 -0.0063107
0.012674 -0.0053408 -0.034744 0.035272 -0.068318 0.28642 -0.0015062 0.0032167
-0.0028213 -0.0038964 -0.0011174 0.00012059
-0.00090986 -0.0039218 -0.0010391 -0.0063057 -0.0015139 0.003187 -0.20196 0.20346
-0.042688 -0.0071977 0.022472 0.013248
-0.0048328 -0.0027586 -0.011177 0.0081145 -0.0027594 -0.0037979 -0.042714 -0.0071441
-0.15692 0.073561 -0.042096 0.0014288
-0.0064503 0.0034699 -0.0030747 -0.0063179 -0.0011285 9.7139e-05 0.022505 0.013233
-0.042104 0.0013626 -0.25557 0.088814
800000000 -0.15673 0.22914 -0.02227 0.017508 0.0054208 -0.010555 -0.0048578 -0.0019369
-0.0041543 0.0029946 0.0045925 0.00077123
-0.022269 0.017471 -0.33713 0.24908 -0.0077211 0.034381 -0.002076 0.002182
-0.00059024 0.0036241 0.0013153 0.0052501
0.0054108 -0.010576 -0.0076388 0.034445 -0.02727 0.30966 0.0012526 0.0015258
0.00069874 0.0035749 -0.0017414 0.00095109
-0.004856 -0.0019469 -0.0020758 0.0021901 0.0012482 0.0015342 -0.17397 0.2309
-0.028495 0.01308 0.013673 -0.010035
-0.0041083 0.0030434 -0.00060123 0.0036589 0.00070092 0.0035736 -0.028484 0.013141
-0.19982 0.098924 -0.017576 0.018059
0.0046363 0.00072665 0.001318 0.005238 -0.001752 0.00095283 0.013665 -0.010059
-0.017585 0.018026 -0.24718 0.14339
860000000 -0.12192 0.25014 -0.016816 0.031333 -0.0032958 -0.0099767 -0.0025312 0.0013647
0.0041635 0.0051895 -0.0031246 -0.0028034
-0.016807 0.031297 -0.28916 0.29099 0.0085265 0.034469 0.00026041 0.0021201
0.0045948 0.00046486 0.0034041 0.00018369
-0.0033174 -0.0099874 0.0086217 0.034483 0.021188 0.31771 -0.00030923 -0.00029092
0.0027948 -0.0015667 0.0017246 0.0044996
-0.0025034 0.0013628 0.00023669 0.0021399 -0.00029681 -0.00028809 -0.13851 0.24286
-0.018005 0.019114 -0.0060196 -0.0094699
0.0042445 0.0051679 0.0046074 0.00045863 0.0027992 -0.0015848 -0.017979 0.019145
-0.1509 0.14687 -0.024445 0.016082
-0.0031243 -0.0027954 0.0034031 0.00019092 0.0017279 0.0045028 -0.0060641 -0.0095033
-0.024446 0.015995 -0.19668 0.18769
920000000 -0.096616 0.27315 0.0055191 0.037803 -0.0095466 -0.0043894 -0.0016094 0.0022714
0.0014887 0.0017199 0.0024878 -0.0015016
0.0054997 0.037785 -0.26011 0.31166 0.028408 0.02165 0.0016522 0.00099378
0.0069422 -0.0008315 0.0038538 -0.0030958
-0.0095581 -0.0043695 0.028499 0.021598 0.067753 0.31811 0.0017558 -0.0001707
0.0013953 -0.00050162 0.00080429 -0.0011919
-0.0016064 0.0022834 0.0016244 0.00099223 0.0017439 -0.000176 -0.11424 0.25942
-0.010031 0.030348 0.0027172 -0.0069138
0.0014978 0.0017297 0.0069226 -0.00087092 0.0013754 -0.00049242 -0.0099914 0.030391
-0.14009 0.15306 -0.0014085 0.027838
0.002488 -0.0015263 0.003858 -0.0031144 0.00081755 -0.0011917 0.0026848 -0.0069707
-0.0014154 0.027861 -0.20524 0.20148
980000000 -0.048974 0.29252 0.018227 0.029865 -0.0089664 0.0047121 0.0025125 0.0036198
0.0039737 -0.001746 -0.0029994 -0.0020297
0.018192 0.029861 -0.20738 0.34521 0.03328 0.0043152 0.0020317 -0.00017659
0.0010648 -0.0062229 -0.00049918 -0.0022656
-0.0089538 0.00474 0.033315 0.0042182 0.11431 0.3113 0.00038139 -0.0011993
-4.8627e-05 -0.0021612 0.0015755 -1.2716e-05
0.0025419 0.0036098 0.0020152 -0.00017581 0.00038357 -0.0012006 -0.075652 0.27121
0.0079998 0.029194 -0.0092806 -0.0067443
0.0039695 -0.0017658 0.0010155 -0.006256 -5.9241e-05 -0.0021652 0.0080627 0.029208
-0.1082 0.18021 0.0052874 0.019163
-0.0030173 -0.001997 -0.00051671 -0.0022839 0.0015744 -9.5235e-06 -0.0093123 -0.0067358
0.005259 0.019177 -0.16195 0.24791
1040000000 -0.0059282 0.30062 0.033617 0.017504 -0.0012245 0.0069626 0.0028373 0.00067916
-2.5879e-05 -0.003647 -0.00056997 -0.0015171
0.033596 0.017516 -0.17167 0.35838 0.029212 -0.015403 0.0014831 -0.0017387
-0.0026797 -0.0023347 -0.0015744 -0.0027922
-0.0011946 0.0069534 0.029176 -0.015508 0.16081 0.29729 -0.00056545 -0.0013994
-0.0016001 -0.00079608 -0.00043117 -0.0012233
0.0028539 0.00067951 0.0014471 -0.0017221 -0.00055667 -0.001388 -0.047844 0.28134
0.019178 0.017093 -0.0031151 0.0018654
-5.2696e-05 -0.0036276 -0.0027476 -0.0023475 -0.0016022 -0.00078065 0.019207 0.01707
-0.07712 0.18842 0.013922 0.01766
-0.00057873 -0.0015104 -0.0015918 -0.0027942 -0.00042665 -0.0012168 -0.0031306 0.0018726
0.013922 0.017652 -0.14192 0.26976
1100000000 0.039713 0.30762 0.035935 -0.0049971 0.0029846 0.003819 0.0025097 -0.0015551
-0.0020827 -0.0030341 -0.0040648 7.2218e-05
0.03592 -0.0049684 -0.12808 0.37535 0.01467 -0.028189 -5.0068e-05 -0.0018474
-0.0032552 -0.0003348 -0.0035486 -0.00043167
0.0029956 0.0038025 0.014581 -0.028272 0.20743 0.27641 -0.0018156 0.00034042
-0.0016784 0.00074174 -0.00096439 -0.00042451
0.0025199 -0.0015614 -6.1814e-05 -0.0018391 -0.0018125 0.00034152 -0.0069457 0.28616
0.02359 0.0043546 -0.0025519 0.00085285
-0.002089 -0.0030178 -0.0032537 -0.00031272 -0.0016927 0.00075729 0.023601 0.0043138
-0.058863 0.20127 0.019123 0.0082189
-0.0040742 7.1121e-05 -0.0035644 -0.00041763 -0.00095911 -0.00042504 -0.002544 0.00084643
0.019134 0.0082336 -0.095078 0.29983
1160000000 0.091427 0.3021 0.023673 -0.021478 0.0026841 -0.00049974 -0.00018971 -0.0025235
-0.0040682 -0.00043519 -0.0010733 0.0040548
0.023686 -0.021431 -0.083945 0.37962 -0.0043441 -0.029097 -0.0018237 -0.0016026
-0.0022941 0.0027716 -0.0013583 0.0016956
0.0026991 -0.00050062 -0.0044898 -0.029105 0.2506 0.24478 -0.00053578 0.0017893
-0.00030704 0.0018815 -0.0011283 0.00014588
-0.00019034 -0.0025245 -0.0018429 -0.0015836 -0.00054415 0.0017894 0.032832 0.28317
0.019675 -0.010764 -0.0028994 0.0055675
-0.0040764 -0.0004256 -0.0023079 0.0027691 -0.0003052 0.0018822 0.019662 -0.010791
-0.025841 0.21057 0.017866 0.00025507
-0.0010485 0.0040667 -0.0013494 0.0016797 -0.0011244 0.00015422 -0.0028991 0.0055726
0.017848 0.000239 -0.047681 0.30307
1220000000 0.13601 0.29008 0.0097304 -0.030444 -0.0015598 -0.00080624 -0.00017119 -0.0010838
-0.0025137 0.0026087 0.0014106 0.0019677
0.0097576 -0.030405 -0.03926 0.39102 -0.017327 -0.020787 -0.0024903 0.00053505
0.00036854 0.0029545 -0.00064116 0.0018729
-0.0015564 -0.00080784 -0.017436 -0.020726 0.28938 0.20483 0.00098507 0.0015378
0.00060482 0.0011577 0.00025377 0.00075135
-0.00016636 -0.0010926 -0.0024894 0.00055551 0.00099482 0.0015406 0.072852 0.27408
0.0089833 -0.016578 0.0026083 0.001785
-0.0025074 0.0026218 0.00036791 0.0029432 0.00060516 0.0011426 0.0089591 -0.0166
-0.0022106 0.22024 0.013527 -0.013007
0.001409 0.001967 -0.00063727 0.0018716 0.00025485 0.00075473 0.0026208 0.0017788
0.013521 -0.012993 -0.015925 0.3212
1280000000 0.1856 0.26727 -0.0086791 -0.028474 -0.0018234 0.0025633 -0.0011276 -0.0019184
-0.00061114 0.0031631 0.002601 0.00096791
-0.0086523 -0.028462 0.0069891 0.38149 -0.023856 -0.007926 -0.00089504 0.0015408
0.0017813 0.0015434 0.00059729 0.0019166
-0.0018088 0.0025793 -0.023918 -0.0078176 0.31924 0.1605 0.0014083 -0.00026031
0.0010136 8.251e-05 0.00030136 0.00041851
-0.001141 -0.0019118 -0.000885 0.0015435 0.0014006 -0.00025597 0.10935 0.25729
-0.00039843 -0.017969 0.00047431 0.00016964
-0.00058165 0.0031652 0.0017931 0.0015289 0.0010255 8.6195e-05 -0.00042877 -0.017978
0.035101 0.22417 0.0026388 -0.014913
0.0026163 0.00095818 0.00061426 0.0019234 0.00030082 0.00041508 0.00046911 0.00016261
0.0026398 -0.014919 0.032181 0.32299
1340000000 0.22242 0.23249 -0.01837 -0.018549 0.00092779 0.0043515 -0.0019122 -0.00068059
0.0015508 0.0026018 0.0016645 -0.0015841
-0.018334 -0.01856 0.046551 0.37224 -0.021366 0.0046965 5.0162e-05 0.0019051
0.0017633 0.00049403 0.0013921 0.00086935
0.00094208 0.0043496 -0.021373 0.0048106 0.34067 0.11245 0.0008711 -0.00094588
0.00063223 -0.00039169 0.00022658 0.00028919
-0.0019136 -0.00067415 5.6908e-05 0.0019117 0.00087671 -0.00094794 0.14198 0.2367
-0.0089536 -0.014442 0.0012831 0.00021822
0.0015616 0.0025993 0.0017542 0.00048716 0.00062794 -0.00038153 -0.0089892 -0.014432
0.066068 0.2194 -0.0040567 -0.013237
0.0016731 -0.0015853 0.001392 0.00085825 0.00022637 0.00029022 0.0012685 0.00021955
-0.0040343 -0.013225 0.071696 0.31896
1400000000 0.2548 0.19345 -0.023764 -0.0068311 0.0051014 0.0030527 -0.0020193 0.0007366
0.0025328 0.00063649 0.00016082 -0.0013953
-0.023737 -0.0068404 0.083363 0.3584 -0.014395 0.012637 0.0013532 0.0011295
0.00089255 -0.00094234 0.0012044 0.00021791
0.0051241 0.0030302 -0.014356 0.012727 0.35308 0.059039 1.0362e-05 -0.0014853
4.0315e-05 -0.00037825 0.00038427 0.00029423
-0.0020052 0.00074276 0.0013611 0.0011315 1.5916e-05 -0.0014782 0.17142 0.208
-0.01384 -0.007614 -0.00049268 -0.00066733
0.0025431 0.00062496 0.00088196 -0.00095354 4.2056e-05 -0.00038182 -0.013867 -0.0075934
0.099519 0.21413 -0.010311 -0.0081256
0.00016681 -0.001386 0.0012076 0.00021247 0.00038571 0.0003033 -0.00049445 -0.00066197
-0.010311 -0.008118 0.11716 0.30819
1460000000 0.2767 0.14874 -0.02042 0.0053996 0.0055301 -0.0017885 -0.001456 0.0017399
0.0020482 -0.00086786 -0.00037878 -0.0007888
-0.020414 0.0053823 0.11694 0.33592 -0.0056939 0.015183 0.0016262 9.5657e-05
0.00066241 -0.0011555 0.0011184 -0.00066038
0.0055134 -0.0018228 -0.0056302 0.015221 0.35881 0.0049151 -0.0011657 -0.0011424
0.00025812 -0.00014118 0.00073059 -0.000416
-0.0014483 0.0017534 0.00162 9.4337e-05 -0.0011702 -0.0011469 0.19795 0.17883
-0.013952 -0.0014046 -0.00093409 0.001574
0.0020401 -0.00086251 0.00065286 -0.0011666 0.00025375 -0.00013872 -0.013966 -0.0013608
0.12972 0.19876 -0.011702 -0.0023619
-0.00038059 -0.00078158 0.0011417 -0.0006736 0.00072744 -0.00041751 -0.00093723 0.0015709
-0.01171 -0.00235 0.15072 0.28706
1520000000 0.28793 0.10677 -0.014438 0.01096 0.0030957 -0.0041536 0.00019176 0.0025564
0.0016976 -0.0018185 -0.0011853 -7.5847e-05
-0.014444 0.01094 0.14971 0.32086 0.0017298 0.012831 0.0015391 -0.0008108
1.8857e-05 -0.00080995 0.00026888 -0.0010584
0.0030677 -0.0041742 0.0017974 0.012829 0.35193 -0.051123 -0.00091507 -0.00028671
0.00054786 -0.00081959 1.6654e-07 -0.00012799
0.00020674 0.0025532 0.0015384 -0.0008183 -0.00091772 -0.00027613 0.22136 0.1406
-0.012478 0.003476 0.0012755 0.0017169
0.0016749 -0.0018353 7.6764e-06 -0.00081683 0.0005416 -0.00083042 -0.012472 0.0035113
0.15807 0.18346 -0.011486 0.0020555
-0.0011924 -7.3734e-05 0.00025949 -0.0010607 5.2409e-06 -0.00012724 0.0012661 0.0017159
-0.011493 0.0020435 0.18429 0.26727
1580000000 0.29627 0.060476 -0.0075274 0.0138 -0.00099475 -0.0048115 0.0014264 0.0017827
-0.00061781 -0.0020926 -0.00031172 0.00039327
-0.0075293 0.013782 0.17627 0.29605 0.0051909 0.0079768 0.00041087 -0.0015229
-0.00038753 -0.00089358 -0.00032636 -0.00084825
-0.001016 -0.0048015 0.0052435 0.0079635 0.3315 -0.10835 -0.0014432 0.00052532
-0.00034678 -0.0010996 0.00010717 -0.00058677
0.0014389 0.0017758 0.00040502 -0.0015214 -0.0014465 0.0005216 0.23554 0.10084
-0.0088842 0.0070447 0.0019107 0.00050629
-0.00062567 -0.0020912 -0.00039773 -0.00087972 -0.00033625 -0.0011066 -0.0088732 0.0070759
0.18254 0.16441 -0.0088757 0.0073478
-0.00031083 0.00038543 -0.00033897 -0.00084567 0.00011049 -0.00059065 0.0019066 0.0005
-0.0088733 0.0073444 0.21671 0.24062
1640000000 0.29745 0.019215 -0.0007398 0.012338 -0.0027406 -0.0024992 0.0025733 0.00093159
-0.00089509 -0.0010925 -0.00027533 0.00067293
-0.00075151 0.012326 0.20516 0.27113 0.0057191 0.0033058 -0.00075136 -0.0015904
-0.00085343 -0.00040066 -0.00056243 -0.00061634
-0.0027514 -0.0024905 0.0057469 0.0032745 0.30329 -0.15734 -0.00078868 0.0012824
-0.0010971 -0.0007707 -0.00012167 -0.00036183
0.0025786 0.00091391 -0.00075538 -0.0015938 -0.00079714 0.001276 0.24781 0.051451
-0.0051499 0.007186 0.0021912 -0.00083955
-0.00090095 -0.0010898 -0.00086039 -0.00038891 -0.0010935 -0.00076029 -0.0051327 0.0072141
0.20525 0.13843 -0.0039354 0.0094081
-0.00026896 0.00066959 -0.00057308 -0.00060634 -0.00013048 -0.00036387 0.0021935 -0.00085723
-0.0039383 0.0093988 0.24307 0.20946
1700000000 0.28938 -0.025735 0.0025783 0.0092135 -0.0034608 6.3729e-05 0.0028566 -0.001159
-0.001858 -0.00028041 0.00064779 0.00036911
0.0025707 0.0092059 0.22279 0.23993 0.0037385 0.00055833 -0.001385 -0.00053183
-0.0007003 -6.8191e-05 -0.0009193 -0.00036471
-0.0034691 8.2467e-05 0.003746 0.00053436 0.2599 -0.19721 0.00030974 0.0014944
-0.0017315 -0.0001899 -0.00059901 -0.00094872
0.0028541 -0.0011691 -0.0013839 -0.00052506 0.00030147 0.001489 0.24426 0.0011449
-0.0033688 0.0069132 0.0012946 -0.0020757
-0.0018559 -0.00027218 -0.00070244 -6.5395e-05 -0.001731 -0.00019458 -0.0033541 0.0069336
0.22227 0.11632 0.00057252 0.0095262
0.00065385 0.00036883 -0.0009253 -0.00035759 -0.00059984 -0.00095146 0.0012915 -0.002084
0.00056397 0.0095293 0.26003 0.17501
1760000000 0.27653 -0.073747 0.004579 0.005772 -0.0022383 0.00088754 0.0012823 -0.0032848
-0.00092795 0.00076609 0.00034716 -0.00056063
0.0045681 0.0057724 0.24851 0.20042 0.0015497 -0.0010671 -0.001081 0.00021483
-0.0011103 0.00076612 -0.00054261 0.00053758
-0.0022405 0.0009046 0.0015445 -0.0010829 0.21109 -0.23033 0.0010896 0.0012784
-0.0011173 0.0013429 -0.0014021 -0.00042601
0.0012614 -0.0032952 -0.0010801 0.0002203 0.0010883 0.0012669 0.23447 -0.050475
-0.0013994 0.0061037 -0.00048778 -0.0022367
-0.00093325 0.00078035 -0.0011102 0.00077492 -0.0011065 0.0013508 -0.001388 0.0061073
0.23665 0.079584 0.0043398 0.006443
0.00033896 -0.0005664 -0.00054943 0.00054374 -0.0014055 -0.00042587 -0.00047927 -0.0022325
0.0043496 0.0064516 0.27298 0.13715
1820000000 0.25137 -0.11062 0.0045306 0.0022362 -7.0239e-05 0.0024417 -0.00092719 -0.0030059
-0.00070098 0.00065927 -3.1398e-05 -0.00015745
0.0045233 0.0022356 0.2583 0.17062 -0.00031692 9.9149e-05 -0.0012702 0.00084359
-0.00018651 0.0012976 -0.00048283 0.00051859
-4.8207e-05 0.0024451 -0.0003155 9.8843e-05 0.16091 -0.2459 0.0015532 0.00046694
-0.00030002 0.0021119 -0.0014435 0.00051006
-0.00095192 -0.0030034 -0.0012668 0.00085356 0.0015507 0.0004622 0.20377 -0.097711
-0.00088605 0.0048171 -0.0017191 -0.0014771
-0.00069378 0.00066923 -0.00018098 0.0013029 -0.00028985 0.0021101 -0.00087899 0.0048309
0.25205 0.048442 0.0051341 0.0028347
-3.7371e-05 -0.00015833 -0.00047995 0.00052042 -0.0014412 0.00050802 -0.0017103 -0.0014774
0.0051371 0.0028373 0.27577 0.10076
1880000000 0.21587 -0.15 0.0022121 0.00017697 -0.00028066 0.0021252 -0.0027979 -0.0021361
-0.00019668 0.0013274 0.00029011 -0.0004924
0.0022018 0.00017725 0.26279 0.12441 -0.0021573 0.0016914 -0.00015507 0.0016409
0.00056151 0.0013811 0.00022916 0.00094342
-0.00027666 0.0021191 -0.002154 0.0017106 0.10912 -0.25579 0.0019528 -0.0009623
0.0014868 0.0020109 -0.0009247 0.0016002
-0.0028255 -0.0021176 -0.00014914 0.0016478 0.0019565 -0.00096723 0.16276 -0.13722
-0.00090462 0.0038853 -0.0024746 0.00073435
-0.00019103 0.0013431 0.00056802 0.0013666 0.0014967 0.0020055 -0.00089372 0.003892
0.25304 0.014031 0.0045522 0.00072407
0.00028365 -0.00049011 0.00023243 0.00094648 -0.00092082 0.001602 -0.0024752 0.00074874
0.0045513 0.00073562 0.27586 0.066482
1940000000 0.1764 -0.17531 -4.3805e-05 -0.0014538 0.0012833 0.0018841 -0.0036984 0.00051971
0.0011156 0.00090517 -0.00063275 -0.000554
-4.5073e-05 -0.0014493 0.26338 0.092659 -0.0010951 0.0038629 0.00094971 0.0012914
0.0019655 0.00065702 0.00085626 0.00021938
0.0012907 0.0018718 -0.0010811 0.0038758 0.062668 -0.24959 0.00030455 -0.0023676
0.0024625 0.00053079 0.00041137 0.0016742
-0.0037091 0.00055529 0.00094995 0.001298 0.00030499 -0.0023698 0.10997 -0.16695
-0.0022325 0.0036522 -0.0013673 0.0018756
0.0011172 0.00089638 0.0019709 0.00063984 0.0024674 0.00053507 -0.0022202 0.0036624
0.25202 -0.026172 0.0030171 -0.0023989
-0.00064744 -0.00055008 0.00086185 0.00021113 0.0004375 0.0016722 -0.0013628 0.0018689
0.0030217 -0.0023955 0.26484 0.030319
2000000000 0.13025 -0.18919 -0.0038503 0.00057806 0.0024076 0.0015609 -0.0022795 0.0035905
0.00087062 0.00027503 -0.000618 0.00040493
-0.0038475 0.00057183 0.24925 0.057172 -0.00091201 0.0055597 0.0016564 0.00029782
0.0016077 -0.0014069 0.00045972 7.9056e-05
0.002421 0.0015436 -0.00088036 0.0055768 0.018797 -0.23507 -0.0014979 -0.0014937
0.0021404 -0.0012542 0.001694 0.0012415
-0.0022596 0.0036011 0.0016619 0.00028277 -0.0014821 -0.0014991 0.056729 -0.17618
-0.0034887 0.0045111 0.00014993 0.0023284
0.00087266 0.00027694 0.0015997 -0.0014161 0.002134 -0.0012578 -0.0034795 0.0045163
