!Keysight Technologies,M9804A,MY58100912,A.14.10.03
!Date: Thursday, April 27, 2023 10:28:33
!Correction: S11(C  6-Port  ) 
!S12(C  6-Port  ) 
!S13(C  6-Port  ) 
!S14(C  6-Port  ) 
!S15(C  6-Port  ) 
!S16(C  6-Port  ) 
!S21(C  6-Port  ) 
!S22(C  6-Port  ) 
!S23(C  6-Port  ) 
!S24(C  6-Port  ) 
!S25(C  6-Port  ) 
!S26(C  6-Port  ) 
!S31(C  6-Port  ) 
!S32(C  6-Port  ) 
!S33(C  6-Port  ) 
!S34(C  6-Port  ) 
!S35(C  6-Port  ) 
!S36(C  6-Port  ) 
!S41(C  6-Port  ) 
!S42(C  6-Port  ) 
!S43(C  6-Port  ) 
!S44(C  6-Port  ) 
!S45(C  6-Port  ) 
!S46(C  6-Port  ) 
!S51(C  6-Port  ) 
!S52(C  6-Port  ) 
!S53(C  6-Port  ) 
!S54(C  6-Port  ) 
!S55(C  6-Port  ) 
!S56(C  6-Port  ) 
!S61(C  6-Port  ) 
!S62(C  6-Port  ) 
!S63(C  6-Port  ) 
!S64(C  6-Port  ) 
!S65(C  6-Port  ) 
!S66(C  6-Port  ) 
!S6P File: Measurement: :
# Hz S  RI   R 50
500000000 -0.33704 -0.033157 -0.0094698 -0.0038267 -0.0079265 0.01195 -0.0035329 0.011574
0.011938 0.0047567 -0.0038231 0.0082094
-0.0094463 -0.0038353 -0.41972 -0.048408 0.007188 -0.011239 0.0015656 0.011863
0.0076522 0.0024917 0.00066311 0.013321
-0.0078716 0.011879 0.0071931 -0.011237 -0.26475 0.21199 0.00685 0.0033198
5.649e-05 0.0082454 0.00018072 0.012367
-0.0034263 0.011557 0.0015628 0.011892 0.0068536 0.0032938 -0.32711 0.048961
-0.019794 -0.0048198 0.017792 0.026367
0.011887 0.0047962 0.0076008 0.0024441 4.4793e-05 0.0082814 -0.019805 -0.0047979
-0.22795 -0.18167 -0.02786 0.0046945
-0.0036641 0.0082267 0.00064359 0.013344 0.00014162 0.01234 0.017812 0.026372
-0.027871 0.0046926 -0.27041 -0.13382
560000000 -0.31559 0.12567 -0.024329 -0.062778 0.00029506 0.012138 0.0063254 0.0098008
0.010872 0.0038428 0.0095056 0.0077277
-0.024299 -0.062756 -0.37654 0.10924 -0.041929 -0.036464 0.013613 0.0038472
-0.013463 -0.0046167 0.004264 -0.00052811
0.00030036 0.012106 -0.041929 -0.036415 -0.1826 0.25915 -0.00072839 -0.0047607
0.019468 0.0041177 0.0071571 -0.006388
0.0063269 0.0098411 0.013687 0.0037939 -0.00076358 -0.004762 -0.30198 0.13706
0.003383 -0.024677 0.0046923 -0.019235
0.010874 0.0038615 -0.013407 -0.0045012 0.019407 0.0040658 0.0033434 -0.02466
-0.28567 -0.0072918 0.0069162 -0.05114
0.0095988 0.0077054 0.0042103 -0.0005892 0.0071959 -0.0063832 0.0046841 -0.019213
0.0069372 -0.051129 -0.33395 0.015196
620000000 -0.273 0.11048 -0.023271 0.0070312 0.0035872 0.0083457 0.0067573 -0.0055904
0.011533 -0.00056227 9.1396e-05 -0.0018975
-0.023251 0.0070457 -0.40249 0.06378 -0.019079 4.2783e-05 -0.0015265 -0.0020893
0.010397 -0.0072454 0.0010218 -0.0026221
0.0035869 0.0083302 -0.01907 9.7396e-05 -0.15239 0.26891 -0.0018189 -0.0050909
-0.0035072 -0.0035171 0.0081443 -0.0033137
0.0068517 -0.005589 -0.0015659 -0.002115 -0.0018395 -0.0051338 -0.26041 0.1466
-0.039241 -0.01806 0.013817 0.024445
0.01147 -0.00062011 0.010397 -0.0072604 -0.0034755 -0.0034316 -0.039277 -0.018
-0.20579 -0.047079 -0.041362 0.015427
0.00026403 -0.0018875 0.0010351 -0.0026805 0.0080769 -0.0034195 0.013813 0.024443
-0.041373 0.015392 -0.25065 -0.024791
680000000 -0.23263 0.19403 -0.028065 -0.013793 0.0049176 0.0051283 0.0012082 -0.007548
-0.0033365 -0.011047 0.0042718 -0.0070426
-0.02804 -0.013749 -0.38674 0.16019 -0.032976 -0.0011242 -0.0016376 -0.00018622
-0.0027095 -0.0089242 -0.001136 -0.0020888
0.0049724 0.0051074 -0.033012 -0.0010313 -0.10176 0.28772 -0.00057041 0.00017985
-0.0023211 0.00081955 -0.003079 -0.0095992
0.0011987 -0.0075479 -0.001638 -0.00018488 -0.00057263 0.00018553 -0.218 0.19571
-0.023901 -0.0080516 -0.010714 -0.010386
-0.0033466 -0.011062 -0.0028006 -0.0088836 -0.0023227 0.0008198 -0.02391 -0.0080339
-0.2523 0.051507 -0.0056845 -0.0094107
0.0042577 -0.0070582 -0.0010988 -0.0021044 -0.003072 -0.009612 -0.010703 -0.010409
-0.0057 -0.0094059 -0.26252 0.083858
740000000 -0.18871 0.18928 -0.03841 0.026632 0.012769 -0.0052908 -0.0010036 -0.0039804
-0.0047779 -0.0027509 -0.0061926 0.0032835
-0.038369 0.026628 -0.33494 0.17891 -0.034761 0.035289 -0.00096229 -0.0062682
-0.011064 0.0081358 -0.0033016 -0.0062382
0.012769 -0.0053586 -0.034688 0.035422 -0.068432 0.28658 -0.001418 0.0031931
-0.0027776 -0.0036929 -0.0010548 -0.00011876
-0.0010449 -0.0040109 -0.00099182 -0.0062743 -0.0014148 0.0032131 -0.20207 0.20358
-0.042535 -0.0074666 0.022242 0.013221
-0.004882 -0.0026753 -0.010984 0.0082287 -0.0028413 -0.0036775 -0.042549 -0.0074237
-0.15693 0.074275 -0.041984 0.0013072
-0.0061286 0.0033202 -0.0032839 -0.0063174 -0.00099372 -0.0001132 0.022249 0.013231
-0.041979 0.0012888 -0.25518 0.089055
800000000 -0.15666 0.22938 -0.022331 0.01748 0.0054098 -0.010571 -0.0048198 -0.0018903
-0.0042102 0.0030821 0.0046999 0.00076037
-0.022293 0.017494 -0.33719 0.24913 -0.0077127 0.034362 -0.0020924 0.0022105
-0.00063102 0.0036703 0.0012818 0.0053151
0.0054097 -0.010569 -0.0076341 0.034397 -0.027241 0.30968 0.0012321 0.001531
0.00071013 0.0035748 -0.001744 0.00095903
-0.0048331 -0.0018387 -0.0020947 0.0022284 0.0012367 0.0015428 -0.1739 0.23094
-0.028542 0.013111 0.013717 -0.010075
-0.0042234 0.0030712 -0.00058889 0.0036462 0.0007147 0.0035645 -0.02855 0.01317
-0.19967 0.099217 -0.017629 0.018009
0.0046709 0.00084401 0.0012932 0.0053122 -0.0017642 0.00097729 0.013715 -0.010091
-0.017637 0.017978 -0.24703 0.14363
860000000 -0.12187 0.25014 -0.016855 0.031261 -0.0033156 -0.010002 -0.0025357 0.0013863
0.0040834 0.0051496 -0.0029765 -0.0027616
-0.016846 0.031271 -0.28917 0.29095 0.0085294 0.034452 0.00020111 0.0020896
0.0045669 0.00040023 0.0035166 9.8851e-05
-0.0033388 -0.0099969 0.0086452 0.034433 0.021202 0.31768 -0.00031944 -0.00030177
0.0027475 -0.0015857 0.0017553 0.0044994
-0.0025367 0.0013663 0.00021385 0.0021005 -0.00032787 -0.00030993 -0.13849 0.24296
-0.018064 0.019117 -0.0059953 -0.0094607
0.0041245 0.0050768 0.0046032 0.00037522 0.0027476 -0.0016052 -0.018035 0.019141
-0.15082 0.14701 -0.024326 0.016004
-0.003005 -0.0027443 0.0035374 0.00012614 0.0017371 0.0045138 -0.0060128 -0.0094559
-0.024334 0.015986 -0.19645 0.18823
920000000 -0.096584 0.27331 0.0054671 0.037847 -0.0095934 -0.0043596 -0.0016585 0.0022955
0.0013715 0.0016883 0.0026386 -0.0015591
0.0054589 0.037796 -0.26021 0.31186 0.028364 0.021669 0.0016005 0.001016
0.0069308 -0.0007893 0.0039656 -0.0031179
-0.0095798 -0.0043463 0.028452 0.021602 0.067726 0.31811 0.0017163 -0.00018344
0.001377 -0.00049335 0.00088575 -0.0012153
-0.0016616 0.0022851 0.0016341 0.0010255 0.0017166 -0.00019561 -0.11419 0.25944
-0.010006 0.030378 0.0027018 -0.006885
0.0013933 0.0016636 0.0069172 -0.00082085 0.0013638 -0.00049575 -0.0099505 0.030412
-0.13991 0.15319 -0.0013741 0.027781
0.0026271 -0.0015556 0.0039367 -0.0030733 0.00087289 -0.0011769 0.0026946 -0.0068899
-0.0014037 0.02777 -0.20508 0.20164
980000000 -0.048861 0.2925 0.018246 0.029838 -0.0089292 0.0047278 0.0025313 0.0035957
0.0039875 -0.001723 -0.0030529 -0.001992
0.018207 0.029834 -0.20739 0.34528 0.033267 0.0043371 0.0020296 -0.00020085
0.0010466 -0.0061761 -0.00056585 -0.002297
-0.008929 0.0047747 0.033313 0.0042104 0.11433 0.3113 0.00040961 -0.0011907
-7.0609e-05 -0.0021532 0.0015411 -4.4626e-05
0.002532 0.0035844 0.0020381 -0.00019021 0.00040379 -0.001195 -0.075562 0.27123
0.0080161 0.029213 -0.0093061 -0.0067164
0.0039887 -0.0017395 0.00099698 -0.0062243 -7.9776e-05 -0.0021744 0.0080922 0.029202
-0.1081 0.18025 0.0053724 0.019072
-0.0030618 -0.0020318 -0.00058268 -0.0022927 0.0015438 -5.6773e-05 -0.0093187 -0.0067053
0.0053535 0.019062 -0.16157 0.24821
1040000000 -0.0059617 0.30065 0.033606 0.017469 -0.0012019 0.0069572 0.0028386 0.00066479
-6.0092e-05 -0.003621 -0.0005341 -0.0015287
0.03358 0.017452 -0.17169 0.35853 0.029188 -0.015356 0.00144 -0.0017152
-0.0026858 -0.0023456 -0.0015611 -0.0029049
-0.0011842 0.0069633 0.029136 -0.015489 0.16076 0.29732 -0.00058059 -0.0013862
-0.0016129 -0.00079213 -0.00039686 -0.0012381
0.002836 0.00064465 0.0014495 -0.0016882 -0.00058208 -0.0013993 -0.047781 0.28131
0.019189 0.01703 -0.0030782 0.0018727
-8.8294e-05 -0.0036074 -0.0026996 -0.0023359 -0.001622 -0.00078979 0.01924 0.01699
-0.077125 0.18859 0.013899 0.017666
-0.00052523 -0.0014994 -0.0015856 -0.0028532 -0.00039374 -0.0012196 -0.0030637 0.0018761
0.013891 0.017663 -0.14166 0.26997
1100000000 0.039809 0.3077 0.035906 -0.0049638 0.0029691 0.0037987 0.0024798 -0.0015267
-0.0021384 -0.003032 -0.0040542 7.6725e-05
0.035885 -0.0049637 -0.12798 0.37545 0.014665 -0.028151 -7.0395e-05 -0.0018233
-0.0032697 -0.00033487 -0.0035606 -0.00042403
0.0029793 0.0038017 0.014564 -0.028236 0.20747 0.2764 -0.001826 0.00031506
-0.0017055 0.00074378 -0.00098467 -0.0004152
0.0024721 -0.0015431 -7.6632e-05 -0.0018164 -0.0018189 0.00032273 -0.006913 0.28613
0.023566 0.0043304 -0.0025462 0.00085576
-0.0021497 -0.0030394 -0.0032863 -0.00032884 -0.0017068 0.00073301 0.023595 0.0042953
-0.058755 0.20142 0.019167 0.0082758
-0.0040434 7.996e-05 -0.0035833 -0.00041343 -0.00098306 -0.0004339 -0.0025394 0.00085979
0.019151 0.008272 -0.094613 0.29994
1160000000 0.091408 0.30216 0.023652 -0.021412 0.0026893 -0.00052426 -0.00018471 -0.002514
-0.0040663 -0.00046104 -0.0010736 0.0040302
0.023654 -0.021405 -0.083831 0.3797 -0.004358 -0.029065 -0.0018372 -0.0016061
-0.0022824 0.0027393 -0.0013685 0.0016584
0.0026808 -0.00052341 -0.0044795 -0.029085 0.25058 0.24476 -0.00052151 0.0017897
-0.0002844 0.0018666 -0.001098 0.00017499
-0.00019066 -0.0025141 -0.0018414 -0.0015847 -0.00052283 0.0017881 0.032862 0.28312
0.019639 -0.010814 -0.0029328 0.0055416
-0.0040656 -0.00043677 -0.0022777 0.0027542 -0.00027977 0.0018579 0.019622 -0.010829
-0.025746 0.21062 0.017825 0.00021474
-0.0010248 0.004051 -0.0013775 0.0016818 -0.0011076 0.00018263 -0.0029241 0.0055532
0.017819 0.00020923 -0.047359 0.30309
1220000000 0.13613 0.29007 0.0097509 -0.030381 -0.0015528 -0.00081324 -0.00017393 -0.0010821
-0.0025069 0.0025789 0.0013829 0.0019452
0.009741 -0.030367 -0.039154 0.39106 -0.017325 -0.020775 -0.002512 0.00054225
0.00036286 0.0029079 -0.00063342 0.0018584
-0.0015556 -0.00080381 -0.017425 -0.020725 0.28938 0.20489 0.00099347 0.0015256
0.00065359 0.0011299 0.00022361 0.00080862
-0.00017387 -0.001106 -0.0024972 0.00055049 0.00099478 0.0015291 0.072885 0.27404
0.0089552 -0.016603 0.0025935 0.0017969
-0.0025087 0.0026009 0.00038134 0.0029089 0.00065183 0.0011288 0.0089309 -0.016618
-0.0020459 0.22031 0.013487 -0.013062
0.0013945 0.0019326 -0.00063681 0.0018574 0.00021852 0.00079194 0.0025996 0.0017976
0.013483 -0.01305 -0.01555 0.3212
1280000000 0.18564 0.26722 -0.0086241 -0.028427 -0.0018194 0.0025389 -0.0011203 -0.0019265
-0.00056903 0.0031508 0.0026101 0.00095589
-0.0086558 -0.028417 0.007054 0.38148 -0.023829 -0.0079265 -0.00087901 0.0015262
0.00179 0.0015217 0.00062538 0.0019503
-0.0018032 0.0025544 -0.02389 -0.0078216 0.31925 0.16054 0.0014221 -0.0002646
0.0010443 0.00010851 0.00029671 0.0004219
-0.0011158 -0.0019216 -0.0008803 0.0015274 0.0014246 -0.00025742 0.10936 0.25729
-0.00042546 -0.017951 0.00046307 0.00017279
-0.00054561 0.0031568 0.0017948 0.001515 0.0010389 0.0001016 -0.00045689 -0.017959
0.035279 0.22415 0.0026454 -0.014948
0.0026159 0.000963 0.00062811 0.0019468 0.00029765 0.00041419 0.00046473 0.00017048
0.0026431 -0.014936 0.032545 0.32293
1340000000 0.22245 0.23248 -0.018295 -0.018515 0.00094875 0.0043398 -0.0018973 -0.00070112
0.0015384 0.0025942 0.0016665 -0.001598
-0.018302 -0.018499 0.0466 0.37223 -0.021354 0.0047161 3.6947e-05 0.0019022
0.0017286 0.00050113 0.0013838 0.00084982
0.00096 0.0043431 -0.021357 0.0048139 0.34063 0.11249 0.0008686 -0.00095333
0.00062012 -0.00040416 0.00020869 0.00026897
-0.0019141 -0.00069302 4.6934e-05 0.0019002 0.00086731 -0.00094822 0.142 0.23668
-0.0089738 -0.014428 0.0012601 0.00021433
0.0015665 0.0025856 0.0017422 0.00048341 0.0006355 -0.00040677 -0.0090023 -0.014419
0.066219 0.21941 -0.0040901 -0.013235
0.0016556 -0.0015944 0.0013951 0.00083679 0.00021034 0.00026433 0.001265 0.00021106
-0.0040929 -0.013234 0.071994 0.31894
1400000000 0.25481 0.1934 -0.023678 -0.0068489 0.0051256 0.0030393 -0.002009 0.00073545
0.0025359 0.0006399 0.0001596 -0.001376
-0.023683 -0.0068217 0.083388 0.3584 -0.014398 0.012621 0.0013517 0.0011396
0.0008976 -0.00094048 0.0012014 0.00021217
0.0051426 0.0030164 -0.01435 0.012715 0.35313 0.059053 -4.9521e-06 -0.0014778
5.7836e-05 -0.00037546 0.00037056 0.00025401
-0.0020056 0.0007399 0.0013507 0.0011438 -1.112e-06 -0.0014657 0.17145 0.20799
-0.013854 -0.0075995 -0.00048597 -0.00066992
0.002539 0.00064077 0.00088405 -0.00095473 5.9273e-05 -0.000372 -0.013864 -0.0075713
0.099694 0.21411 -0.010323 -0.0081247
0.00014502 -0.0013858 0.0011975 0.00020041 0.00038513 0.00024451 -0.00048908 -0.00066735
-0.010323 -0.0081375 0.1174 0.3081
1460000000 0.27669 0.14874 -0.020381 0.0053423 0.0055082 -0.0018174 -0.0014431 0.0017498
0.0020455 -0.0008474 -0.00038472 -0.00078763
-0.02038 0.0053593 0.11695 0.3359 -0.005692 0.015153 0.0016221 0.00011729
0.00067816 -0.0011461 0.0011139 -0.00066508
0.0055113 -0.0018315 -0.0056217 0.015206 0.35881 0.0049514 -0.0011666 -0.0011337
0.00026478 -0.00015211 0.00071754 -0.00039742
-0.0014559 0.0017714 0.0016182 9.9371e-05 -0.0011628 -0.0011407 0.19798 0.17881
-0.01396 -0.0014053 -0.00093418 0.0015845
0.0020368 -0.00086843 0.00066971 -0.0011691 0.00026593 -0.00014979 -0.013965 -0.0013659
0.12985 0.19871 -0.01171 -0.0023639
-0.00038256 -0.00080209 0.0011154 -0.00066919 0.00072192 -0.00039791 -0.00093064 0.0015781
-0.011717 -0.0023793 0.15096 0.28691
1520000000 0.28794 0.10675 -0.014424 0.010864 0.0030887 -0.0041621 0.00018525 0.0025534
0.0016881 -0.0018251 -0.0011733 -8.8577e-05
-0.014403 0.010884 0.14975 0.32088 0.0017224 0.012819 0.0015351 -0.00080315
2.6258e-05 -0.00081404 0.00026407 -0.0010574
0.00307 -0.0041789 0.0017974 0.012817 0.35196 -0.051059 -0.0009141 -0.00027148
0.00053541 -0.00081979 -1.1679e-05 -0.00015356
0.00019912 0.0025551 0.0015364 -0.00080075 -0.0009157 -0.00026674 0.22141 0.1406
-0.012476 0.0034953 0.0012529 0.0017217
0.0016706 -0.0018425 1.8644e-05 -0.00081448 0.00053514 -0.00081852 -0.012471 0.0035251
0.15821 0.18342 -0.011502 0.0020606
-0.0011754 -8.4063e-05 0.00024856 -0.0010567 -1.1497e-06 -0.00015519 0.0012709 0.0017221
-0.011501 0.0020543 0.18448 0.26715
1580000000 0.2963 0.060473 -0.0075633 0.013726 -0.0010122 -0.0048042 0.0014225 0.0017787
-0.00061025 -0.0020987 -0.00031794 0.00041037
-0.0075338 0.013736 0.17633 0.29605 0.0051978 0.0079607 0.00042079 -0.0015141
-0.00036738 -0.00089534 -0.00033038 -0.00083533
-0.0010317 -0.0048118 0.0052357 0.0079356 0.33153 -0.10835 -0.0014326 0.00051934
-0.00033806 -0.0011059 0.00011786 -0.00056934
0.001431 0.0017792 0.0004123 -0.0015218 -0.0014393 0.00051558 0.23559 0.10081
-0.0088723 0.0070454 0.0019203 0.00051377
-0.00063381 -0.002091 -0.00038797 -0.00088853 -0.00033944 -0.0010987 -0.0088683 0.007076
0.18266 0.16432 -0.0088607 0.0073674
-0.00031165 0.00040845 -0.00034019 -0.00083769 0.0001084 -0.00057138 0.0019243 0.00050243
-0.008868 0.0073763 0.21688 0.24044
1640000000 0.29748 0.01922 -0.00081541 0.0123 -0.0027439 -0.0025002 0.0025692 0.00093304
-0.00089504 -0.0010958 -0.00027503 0.00065381
-0.00078617 0.012296 0.2052 0.27113 0.0057035 0.0032875 -0.00075214 -0.0015962
-0.00085237 -0.00039957 -0.00055411 -0.00060039
-0.0027577 -0.0024951 0.0057326 0.0032522 0.30327 -0.15732 -0.00078725 0.0012757
-0.0010897 -0.00073818 -0.00013955 -0.00034205
0.0025708 0.00091151 -0.00076208 -0.0015862 -0.00079754 0.0012726 0.24783 0.051441
-0.0051464 0.0071965 0.0021927 -0.00083346
-0.00090289 -0.0010928 -0.00087217 -0.00039299 -0.0010858 -0.00073328 -0.0051255 0.0072056
0.20533 0.13834 -0.0039313 0.009399
-0.00028381 0.00066056 -0.00055858 -0.00059824 -0.00014118 -0.0003569 0.002196 -0.00084289
-0.0039362 0.0094052 0.24317 0.20931
1700000000 0.2894 -0.025714 0.0024995 0.0092157 -0.0034804 5.842e-05 0.0028583 -0.0011642
-0.0018596 -0.00028088 0.00062804 0.00037774
0.0025212 0.0091912 0.22286 0.23991 0.0037208 0.00055507 -0.0013769 -0.00052729
-0.00070231 -7.5437e-05 -0.0009234 -0.0003732
-0.0034836 9.9644e-05 0.0037281 0.00052427 0.25995 -0.19721 0.0002817 0.0014874
-0.0017226 -0.00018944 -0.00060619 -0.00091769
0.002863 -0.0011783 -0.0013882 -0.00052179 0.00027677 0.0014768 0.24431 0.0011193
-0.0033502 0.0069231 0.0012981 -0.0020865
-0.0018504 -0.00026306 -0.00070799 -7.0156e-05 -0.0017168 -0.00018939 -0.0033367 0.0069353
0.22233 0.11625 0.00057339 0.0095364
0.00065212 0.00036632 -0.00093035 -0.00036876 -0.00061882 -0.00092822 0.0012937 -0.0020881
0.0005736 0.0095362 0.26016 0.17489
1760000000 0.27657 -0.07376 0.0045176 0.0058129 -0.0022218 0.00092544 0.0012841 -0.0032886
-0.00092712 0.00077202 0.00034243 -0.00056306
0.0045277 0.0057776 0.24853 0.20035 0.0015202 -0.0010474 -0.0010766 0.00022148
-0.0011157 0.0007665 -0.00054773 0.00052743
-0.0022332 0.00094996 0.0015148 -0.0010662 0.21109 -0.23031 0.0010754 0.0012754
-0.0010964 0.0013319 -0.0014016 -0.00041674
0.0012525 -0.0032951 -0.0010786 0.00022196 0.0010828 0.0012732 0.2345 -0.050541
-0.0013708 0.0060994 -0.0004689 -0.0022466
-0.00092041 0.00078237 -0.0011161 0.00077452 -0.0010919 0.0013411 -0.0013548 0.0061061
0.23671 0.079532 0.0043826 0.0064667
0.00033372 -0.00056755 -0.00053542 0.00053242 -0.0013998 -0.00040227 -0.00047865 -0.002241
0.0043744 0.006465 0.27308 0.13696
1820000000 0.25138 -0.11064 0.0045051 0.0022877 -4.4311e-05 0.0024512 -0.00093885 -0.0030143
-0.0006895 0.00065347 -2.768e-05 -0.00014156
0.0044957 0.0022574 0.25832 0.17056 -0.00032348 0.00012445 -0.001268 0.00083916
-0.00018915 0.001302 -0.00048461 0.00051183
-3.7019e-05 0.0024452 -0.00032614 0.00011942 0.16091 -0.24581 0.0015454 0.00047321
-0.00030958 0.0021157 -0.0014242 0.00048831
-0.00095956 -0.0030027 -0.0012653 0.00084443 0.001543 0.00047863 0.20375 -0.097795
-0.00086149 0.004803 -0.0017337 -0.0014814
-0.00068482 0.00067602 -0.0001721 0.0013037 -0.00029658 0.0021013 -0.00084735 0.0048078
0.2521 0.048361 0.0051465 0.002818
-4.2416e-05 -0.00013194 -0.00048394 0.00051902 -0.0014116 0.00048668 -0.0017334 -0.0014809
0.0051435 0.0028132 0.27583 0.10061
1880000000 0.2159 -0.15007 0.0022128 0.00023803 -0.00026253 0.0021471 -0.0028062 -0.0021571
-0.00018403 0.0013294 0.00027617 -0.00050688
0.0021969 0.00020626 0.26278 0.12434 -0.0021608 0.0017271 -0.00015937 0.0016434
0.00055742 0.0013778 0.00022565 0.00094432
-0.00025433 0.0021326 -0.002158 0.0017348 0.10918 -0.25576 0.001949 -0.0010009
0.0015031 0.0020183 -0.00092249 0.001601
-0.0028134 -0.00213 -0.00014427 0.0016486 0.0019545 -0.0010009 0.16273 -0.13727
-0.00091764 0.0038631 -0.0024879 0.00071452
-0.00017838 0.0013311 0.00056744 0.0013762 0.0014987 0.0020261 -0.00089648 0.0038641
0.25312 0.013923 0.004552 0.00073285
0.00028117 -0.0005207 0.00023447 0.00093834 -0.00092601 0.0015938 -0.0024935 0.00072157
0.0045535 0.00073673 0.27596 0.066209
1940000000 0.17639 -0.17534 -2.3681e-05 -0.0014191 0.0013348 0.0018785 -0.0037028 0.0005107
0.0011289 0.00090292 -0.00063086 -0.00055639
-4.6099e-05 -0.0014396 0.26333 0.092604 -0.0010652 0.0039029 0.0009501 0.001304
0.0019544 0.00066783 0.00083974 0.00023137
0.0013329 0.0018761 -0.0010373 0.0039093 0.062665 -0.24944 0.00030356 -0.0023747
0.0024463 0.00054964 0.00042508 0.0016757
-0.003701 0.00053471 0.00096256 0.0013051 0.00029353 -0.0023747 0.10991 -0.16695
-0.0022861 0.0036346 -0.001418 0.0018812
0.0011231 0.0008996 0.0019651 0.00064342 0.0024378 0.00054339 -0.0022811 0.003637
0.25205 -0.026339 0.0030065 -0.002429
-0.00064608 -0.00055748 0.00084089 0.0002164 0.00042612 0.0016606 -0.0014132 0.0018932
0.0029948 -0.0024222 0.26487 0.030162
2000000000 0.13025 -0.18924 -0.0038083 0.00061863 0.0023598 0.0015224 -0.0022793 0.0035766
0.00087101 0.00024711 -0.00062641 0.00040094
-0.0038389 0.00058852 0.24921 0.057123 -0.00090544 0.0055364 0.0016492 0.00027483
0.0016139 -0.0014087 0.00046049 8.7632e-05
0.0023882 0.0015071 -0.00086001 0.0055623 0.018815 -0.23514 -0.0015195 -0.0014871
0.0021179 -0.0012621 0.0016885 0.0012386
-0.0022893 0.0035812 0.0016496 0.00026923 -0.0015126 -0.0014989 0.056655 -0.17616
-0.0035416 0.0045138 0.00015584 0.0023898
0.00087234 0.00024815 0.0016008 -0.001413 0.0021163 -0.0012609 -0.003521 0.0045288
