!Keysight Technologies,M9804A,MY58100912,A.14.10.03
!Date: Thursday, April 27, 2023 10:28:33
!Correction: S11(C  6-Port  ) 
!S12(C  6-Port  ) 
!S13(C  6-Port  ) 
!S14(C  6-Port  ) 
!S15(C  6-Port  ) 
!S16(C  6-Port  ) 
!S21(C  6-Port  ) 
!S22(C  6-Port  ) 
!S23(C  6-Port  ) 
!S24(C  6-Port  ) 
!S25(C  6-Port  ) 
!S26(C  6-Port  ) 
!S31(C  6-Port  ) 
!S32(C  6-Port  ) 
!S33(C  6-Port  ) 
!S34(C  6-Port  ) 
!S35(C  6-Port  ) 
!S36(C  6-Port  ) 
!S41(C  6-Port  ) 
!S42(C  6-Port  ) 
!S43(C  6-Port  ) 
!S44(C  6-Port  ) 
!S45(C  6-Port  ) 
!S46(C  6-Port  ) 
!S51(C  6-Port  ) 
!S52(C  6-Port  ) 
!S53(C  6-Port  ) 
!S54(C  6-Port  ) 
!S55(C  6-Port  ) 
!S56(C  6-Port  ) 
!S61(C  6-Port  ) 
!S62(C  6-Port  ) 
!S63(C  6-Port  ) 
!S64(C  6-Port  ) 
!S65(C  6-Port  ) 
!S66(C  6-Port  ) 
!S6P File: Measurement: :
# Hz S  RI   R 50
500000000 -0.33753 -0.033446 -0.0096284 -0.0034248 -0.0078916 0.012164 -0.0035623 0.011666
0.011802 0.0045139 -0.0038532 0.0084378
-0.0095964 -0.0034318 -0.41971 -0.048783 0.0070518 -0.011306 0.0012866 0.011736
0.0073634 0.0029463 0.00042145 0.012889
-0.0078565 0.012165 0.0070084 -0.011288 -0.26562 0.21215 0.0067 0.003296
3.2864e-05 0.0085871 0.00020566 0.01202
-0.0035319 0.011657 0.0013371 0.011749 0.0067042 0.003296 -0.32794 0.048768
-0.019848 -0.0045938 0.01726 0.026058
0.011799 0.004547 0.0073994 0.002845 1.3182e-05 0.0085832 -0.019848 -0.0045924
-0.22874 -0.18128 -0.027746 0.0050282
-0.0038053 0.008394 0.00047605 0.012922 0.00022356 0.012013 0.01727 0.026042
-0.027756 0.0050217 -0.27184 -0.13177
560000000 -0.31591 0.12571 -0.024552 -0.062766 0.00051362 0.012176 0.0062352 0.0099935
0.011064 0.0043594 0.0095279 0.0077249
-0.024508 -0.062686 -0.37655 0.10973 -0.042408 -0.036446 0.013648 0.0036857
-0.013387 -0.0047783 0.0043113 -0.00058883
0.00054786 0.0122 -0.042528 -0.036264 -0.18234 0.26014 -0.00053153 -0.0045378
0.019387 0.004555 0.0072744 -0.006202
0.0062669 0.0099727 0.013699 0.0037285 -0.00054458 -0.0045401 -0.30289 0.13676
0.0033646 -0.024237 0.004756 -0.019477
0.01107 0.0042946 -0.013417 -0.0047298 0.019407 0.0045274 0.0033402 -0.024232
-0.28768 -0.0057372 0.0071437 -0.050756
0.0095461 0.0076819 0.0042073 -0.00063331 0.0072878 -0.0061855 0.004739 -0.019484
0.0071436 -0.050776 -0.33403 0.017667
620000000 -0.27305 0.11065 -0.023058 0.0074738 0.0038272 0.0086699 0.0069481 -0.0056115
0.011566 -0.00054237 0.00039536 -0.0018808
-0.023036 0.0074596 -0.40288 0.063939 -0.018969 0.00010972 -0.001283 -0.0023128
0.010528 -0.0068132 0.0012635 -0.0024686
0.0039556 0.0086 -0.019045 0.00020617 -0.1526 0.26879 -0.0013823 -0.0054436
-0.0036415 -0.0030658 0.0083525 -0.003468
0.0069059 -0.0056467 -0.0013102 -0.0023217 -0.0013532 -0.0054258 -0.26092 0.14709
-0.039513 -0.018228 0.01422 0.024231
0.011622 -0.00058737 0.01054 -0.0068559 -0.0036892 -0.0030958 -0.039524 -0.018205
-0.20614 -0.045384 -0.041369 0.015723
0.00042083 -0.001827 0.0012764 -0.0024991 0.0083577 -0.0034953 0.014234 0.02423
-0.041416 0.015721 -0.2512 -0.020969
680000000 -0.23239 0.19433 -0.027899 -0.013494 0.0049805 0.0049052 0.0011418 -0.0074209
-0.0030995 -0.010944 0.0047263 -0.0072907
-0.027861 -0.013493 -0.38678 0.16054 -0.032566 -0.0010357 -0.0015101 -0.0003557
-0.0027536 -0.0089672 -0.00097135 -0.0019453
0.0050005 0.0049026 -0.03259 -0.00094829 -0.10131 0.28816 -0.00057465 6.4142e-05
-0.0022703 0.00062363 -0.0029554 -0.0096321
0.0011332 -0.0074225 -0.0014971 -0.0003649 -0.00057386 6.1129e-05 -0.21811 0.19626
-0.023804 -0.0074752 -0.010512 -0.010225
-0.0031255 -0.010985 -0.0027722 -0.0089433 -0.0022631 0.00062549 -0.02382 -0.0074489
-0.25292 0.053257 -0.0054563 -0.0091686
0.0046773 -0.0073455 -0.00095568 -0.0019637 -0.0029581 -0.0096424 -0.010542 -0.010232
-0.0054731 -0.0091619 -0.26233 0.086368
740000000 -0.18863 0.1894 -0.037833 0.026483 0.012783 -0.0054101 -0.00087675 -0.0039874
-0.0046747 -0.0027327 -0.0063615 0.0032754
-0.037835 0.026445 -0.33479 0.17925 -0.034502 0.035072 -0.0010842 -0.0064304
-0.011056 0.008173 -0.0030311 -0.006228
0.012797 -0.0054366 -0.03447 0.035218 -0.067659 0.28654 -0.0015465 0.0031751
-0.0028574 -0.0037587 -0.00095044 7.5765e-05
-0.00090369 -0.0040106 -0.0010815 -0.0064044 -0.001547 0.0031772 -0.20203 0.20416
-0.042095 -0.0069781 0.022492 0.013073
-0.0046799 -0.0027375 -0.011007 0.008245 -0.0028323 -0.0037635 -0.042133 -0.0069135
-0.15721 0.076136 -0.041198 0.0015405
-0.0063376 0.0033046 -0.0030523 -0.0063065 -0.00096117 7.9196e-05 0.022498 0.013054
-0.041201 0.0015704 -0.25482 0.092105
800000000 -0.1564 0.2293 -0.022044 0.017329 0.0052612 -0.01065 -0.0047469 -0.0019854
-0.0041573 0.0029458 0.0045696 0.00086513
-0.02206 0.017311 -0.33679 0.24916 -0.0075878 0.03399 -0.0021471 0.002195
-0.00070428 0.0035019 0.0012211 0.0053296
0.005233 -0.01066 -0.0074843 0.034038 -0.026596 0.30939 0.0011745 0.0016061
0.00062938 0.0035962 -0.0017309 0.00091246
-0.0047524 -0.0019728 -0.0021355 0.0022016 0.0011767 0.0015958 -0.17339 0.23153
-0.027973 0.01326 0.013568 -0.010016
-0.0041605 0.0029934 -0.00070519 0.0035196 0.00064144 0.0036068 -0.027966 0.013319
-0.19877 0.10148 -0.017168 0.018047
0.004585 0.00084498 0.0012316 0.0053303 -0.0017179 0.00090583 0.013565 -0.010025
-0.017171 0.018063 -0.24609 0.14632
860000000 -0.12158 0.2501 -0.016747 0.031096 -0.0033902 -0.0098581 -0.0024811 0.0012526
0.0041671 0.0050739 -0.0029159 -0.0026921
-0.016751 0.031066 -0.28893 0.29071 0.0083424 0.034008 0.00019749 0.0021382
0.0045748 0.00042952 0.0034806 0.00035066
-0.003414 -0.0098564 0.0084535 0.034033 0.021589 0.31709 -0.00032432 -0.00025583
0.0028752 -0.0016574 0.0016186 0.0043753
-0.0024781 0.001237 0.00023115 0.0021273 -0.00032341 -0.00025459 -0.13771 0.24301
-0.017263 0.018605 -0.0060478 -0.0093162
0.0041739 0.0050346 0.0045962 0.00037529 0.002881 -0.0016606 -0.017244 0.018646
-0.14906 0.14854 -0.024041 0.016193
-0.0029363 -0.0026562 0.0034777 0.00034192 0.0016265 0.0043705 -0.0060637 -0.0093122
-0.024029 0.01621 -0.19541 0.19026
920000000 -0.096358 0.27299 0.0055108 0.037555 -0.0094666 -0.0043527 -0.001756 0.0021127
0.0012896 0.0017367 0.0025977 -0.0014209
0.0054856 0.03754 -0.25992 0.31152 0.028073 0.021459 0.0016285 0.0010382
0.0069796 -0.00072956 0.0037027 -0.0030765
-0.009496 -0.0043168 0.028195 0.021377 0.067856 0.31752 0.0018124 -0.00018449
0.0013755 -0.00048633 0.00066673 -0.0012939
-0.0017671 0.0021268 0.0016319 0.0010282 0.001812 -0.00017413 -0.11333 0.25916
-0.0096454 0.029845 0.002595 -0.0069395
0.0012976 0.0017209 0.0069327 -0.00076548 0.0013884 -0.00048656 -0.0095824 0.029881
-0.13852 0.1543 -0.0012466 0.027591
0.0026178 -0.0014467 0.0037036 -0.003058 0.00066409 -0.0013034 0.0025931 -0.0069458
-0.0012366 0.027608 -0.20293 0.20377
980000000 -0.048783 0.29221 0.018074 0.029571 -0.0088055 0.0046504 0.002397 0.003659
0.0039613 -0.0015835 -0.0030115 -0.0021103
0.018034 0.029562 -0.2071 0.34482 0.032924 0.0043288 0.0020464 -7.2999e-05
0.0010704 -0.0062092 -0.00058554 -0.0022993
-0.0088138 0.0046736 0.032983 0.0042361 0.11424 0.31069 0.00038676 -0.001209
-5.4865e-05 -0.0021698 0.0013918 -6.5616e-05
0.0023993 0.0036459 0.0020569 -7.9698e-05 0.00038695 -0.0012188 -0.07498 0.27051
0.0080069 0.028397 -0.0092434 -0.0067034
0.0039802 -0.0016123 0.00104 -0.0062341 -5.0398e-05 -0.0021684 0.0080756 0.028403
-0.10641 0.1809 0.0054803 0.018806
-0.0030256 -0.0021137 -0.00057792 -0.0022843 0.0013925 -7.6876e-05 -0.0092395 -0.0066997
0.0054903 0.018815 -0.15964 0.24948
1040000000 -0.0060992 0.30012 0.033286 0.017272 -0.0011744 0.0067768 0.0027754 0.00081301
2.7865e-05 -0.0035883 -0.00061213 -0.0014473
0.033248 0.017292 -0.1715 0.3578 0.028903 -0.015204 0.0014695 -0.0017002
-0.0025995 -0.0024155 -0.0016132 -0.0027551
-0.0011574 0.0067579 0.028886 -0.015325 0.16047 0.29672 -0.00055582 -0.0014044
-0.0016134 -0.00073946 -0.00052723 -0.0010999
0.0027667 0.00078106 0.0014796 -0.0016943 -0.00055315 -0.0014028 -0.047591 0.2804
0.018718 0.016438 -0.0030864 0.0017879
1.088e-05 -0.0035944 -0.0026373 -0.0024105 -0.0016088 -0.00073352 0.01877 0.016413
-0.075469 0.18865 0.013838 0.017319
-0.00061266 -0.0014585 -0.0015925 -0.0027497 -0.00053545 -0.0011082 -0.0030864 0.0017875
0.013855 0.017313 -0.13948 0.27112
1100000000 0.039397 0.30732 0.035504 -0.0049368 0.0028257 0.0037226 0.0025216 -0.0013939
-0.0021315 -0.0031114 -0.0040131 0.00010116
0.035482 -0.0049135 -0.12803 0.37467 0.01458 -0.027843 -3.7692e-05 -0.001832
-0.0032794 -0.00045025 -0.0035454 -0.00046726
0.00283 0.0037026 0.014487 -0.027931 0.20686 0.27597 -0.0018146 0.00030121
-0.0016952 0.00076196 -0.00094732 -0.00022579
0.0025227 -0.0013943 -3.5712e-05 -0.00183 -0.0018206 0.00029626 -0.0071223 0.28509
0.022864 0.004151 -0.0025775 0.00078783
-0.0021419 -0.0030835 -0.0032766 -0.00043672 -0.0016925 0.00076874 0.022896 0.0041212
-0.057208 0.20116 0.018925 0.0080394
-0.0040267 0.00011076 -0.0035471 -0.00043804 -0.00095438 -0.00022974 -0.0025779 0.00077979
0.018952 0.0080181 -0.092465 0.30068
1160000000 0.090935 0.3018 0.023329 -0.021161 0.0024788 -0.00047408 -4.839e-05 -0.0024367
-0.0040936 -0.00048835 -0.0010542 0.0041045
0.02334 -0.021126 -0.084239 0.37872 -0.0042349 -0.028824 -0.0018393 -0.0016322
-0.0024404 0.0027613 -0.0014114 0.0016685
0.0024843 -0.0004825 -0.0043402 -0.028809 0.24981 0.24456 -0.00057625 0.0017644
-0.00027294 0.0019159 -0.00096492 0.00023291
-5.6143e-05 -0.0024465 -0.0018435 -0.0016142 -0.00057562 0.0017628 0.032022 0.28222
0.018924 -0.01049 -0.0029206 0.0055113
-0.0041137 -0.00046108 -0.002425 0.002783 -0.00027695 0.0019089 0.018925 -0.010509
-0.024474 0.20986 0.017647 0.00019753
-0.0010527 0.0040989 -0.0013852 0.001682 -0.00096263 0.00023593 -0.0029185 0.0055173
0.017684 0.00014502 -0.045387 0.30349
1220000000 0.13536 0.29001 0.0095661 -0.029944 -0.0016439 -0.00063001 -8.3298e-05 -0.0011839
-0.0025749 0.002563 0.0013641 0.0019494
0.0095841 -0.029916 -0.039999 0.39024 -0.017061 -0.020684 -0.0025152 0.00045205
0.00033742 0.0029646 -0.0005967 0.001874
-0.0016486 -0.0006274 -0.017171 -0.020613 0.28859 0.20512 0.00096585 0.0015757
0.00066554 0.0011353 0.00035223 0.00075244
-8.7206e-05 -0.0011864 -0.0025293 0.00047526 0.00095672 0.0015748 0.07175 0.27365
0.0086073 -0.015997 0.0024685 0.0018654
-0.0025629 0.002577 0.00032971 0.0029611 0.00066792 0.0011507 0.0085839 -0.01601
-0.0012701 0.21918 0.013265 -0.012881
0.0013849 0.0019425 -0.0005677 0.0018877 0.00035126 0.0007514 0.0024573 0.0018592
0.013268 -0.012948 -0.013554 0.32121
1280000000 0.18488 0.26735 -0.0085246 -0.027971 -0.0017882 0.0027039 -0.0011207 -0.0020309
-0.00062304 0.0031999 0.0025954 0.0010001
-0.0085058 -0.027944 0.0058397 0.38093 -0.023599 -0.0080354 -0.00097364 0.0015105
0.0018196 0.0015962 0.00060824 0.0019215
-0.0017705 0.0027083 -0.023658 -0.0079366 0.31868 0.161 0.0014519 -0.00022826
0.0010535 4.2448e-05 0.00037179 0.00034214
-0.001123 -0.0020279 -0.00096697 0.0015143 0.0014497 -0.00023017 0.10815 0.25749
-0.00040628 -0.017314 0.00046041 0.00028902
-0.00059047 0.0032023 0.0018292 0.0015846 0.0010443 3.9386e-05 -0.0004391 -0.01732
0.035355 0.2229 0.002627 -0.014719
0.002602 0.00099627 0.00062704 0.0019313 0.00037244 0.000347 0.00044496 0.00029733
0.0025992 -0.014798 0.034193 0.32259
1340000000 0.2217 0.23295 -0.017963 -0.018223 0.0010336 0.0044418 -0.0020183 -0.00077799
0.0015454 0.0026005 0.0016752 -0.001567
-0.017932 -0.018227 0.045229 0.37226 -0.02128 0.0045211 3.9831e-06 0.0019537
0.0018415 0.00050807 0.0013467 0.00086955
0.0010502 0.0044577 -0.021287 0.0046221 0.34039 0.11314 0.0009077 -0.00095343
0.00057688 -0.00044692 0.00019494 0.00015832
-0.002027 -0.00076079 1.4299e-05 0.0019515 0.00091561 -0.00096221 0.14112 0.23743
-0.0085776 -0.013941 0.001284 0.00026864
0.0015638 0.0025941 0.0018476 0.0005048 0.00058177 -0.000441 -0.0086122 -0.013933
0.065735 0.21855 -0.0040377 -0.013067
0.0016895 -0.0015739 0.0013582 0.00085861 0.00019582 0.00016386 0.0012771 0.00028878
-0.0041054 -0.013107 0.073446 0.31847
1400000000 0.25422 0.19426 -0.023242 -0.006733 0.0052431 0.0030598 -0.0020787 0.00078927
0.0025114 0.00067935 0.00022865 -0.0013564
-0.023213 -0.0067457 0.082105 0.35897 -0.014498 0.012475 0.0013759 0.0012001
0.00093161 -0.00097473 0.0011874 0.00024092
0.0052515 0.0030278 -0.014447 0.012547 0.35316 0.059703 -9.1778e-06 -0.0015185
9.3788e-06 -0.00037543 0.00034144 0.000243
-0.0020796 0.00079633 0.0013865 0.0011918 -1.3861e-06 -0.0015206 0.17105 0.20896
-0.013261 -0.0074695 -0.0004691 -0.00061976
0.0025143 0.00066824 0.00092061 -0.00097743 1.3468e-05 -0.00037657 -0.013283 -0.0074404
0.098904 0.21367 -0.010152 -0.008076
0.00021983 -0.0013695 0.0011848 0.00023459 0.00034566 0.00023816 -0.00047183 -0.00060212
-0.010245 -0.0080776 0.11858 0.30741
1460000000 0.27656 0.14972 -0.020006 0.0051609 0.0056198 -0.0018231 -0.0014627 0.0018204
0.0020446 -0.00080639 -0.00036856 -0.00083681
-0.019984 0.0051367 0.1161 0.33692 -0.0058478 0.015154 0.0016883 0.00010551
0.00065389 -0.0011716 0.0011239 -0.00061686
0.0056047 -0.0018455 -0.0057715 0.015193 0.35897 0.005448 -0.0011813 -0.0011872
0.00024152 -0.00012198 0.00066058 -0.00040307
-0.0014595 0.0018296 0.0016866 9.7424e-05 -0.001172 -0.0011806 0.19799 0.1798
-0.013447 -0.0016147 -0.00090652 0.0015841
0.0020362 -0.00081334 0.0006551 -0.0011855 0.00025374 -0.00011712 -0.01348 -0.0015891
0.12905 0.19879 -0.011513 -0.002398
-0.00037888 -0.0008355 0.001131 -0.00063727 0.00066601 -0.00042499 -0.0008883 0.0016169
-0.011599 -0.002373 0.15197 0.28649
1520000000 0.28817 0.10767 -0.014157 0.010514 0.0031634 -0.0042573 0.00022807 0.002589
0.0017213 -0.0017916 -0.0011954 -0.00015506
-0.014161 0.010489 0.14937 0.32207 0.0016375 0.012905 0.0015582 -0.00083707
-7.5277e-06 -0.00083222 0.00030879 -0.0010272
0.0031381 -0.0042744 0.0016999 0.012905 0.35227 -0.050622 -0.00096136 -0.00026039
0.00055484 -0.00078795 -2.7238e-05 -0.00011086
0.0002376 0.0025842 0.0015576 -0.00085072 -0.00096445 -0.00026251 0.22182 0.14146
-0.012232 0.003036 0.0012806 0.0017977
0.0017018 -0.0018019 -1.6483e-05 -0.0008272 0.00056299 -0.00079481 -0.012233 0.0030641
0.15765 0.18395 -0.011425 0.0018987
-0.0011975 -0.00014575 0.00030346 -0.0010311 -2.6396e-05 -0.0001171 0.0012992 0.0017934
-0.011476 0.0019817 0.18555 0.26645
1580000000 0.29685 0.061028 -0.007547 0.013268 -0.00098516 -0.0049138 0.0014746 0.0017778
-0.00056377 -0.0021278 -0.00034271 0.00039204
-0.0075486 0.013261 0.17645 0.29721 0.0052271 0.0080701 0.00041567 -0.0015452
-0.00037303 -0.00086981 -0.00027309 -0.00086539
-0.0010128 -0.0048995 0.0052732 0.008049 0.33204 -0.10819 -0.0014241 0.00052168
-0.00028418 -0.0011407 0.00012946 -0.00057459
0.0014847 0.0017738 0.00040652 -0.0015446 -0.001427 0.00051972 0.2364 0.10135
-0.0089773 0.0066258 0.0020073 0.00052205
-0.0005825 -0.0021356 -0.00038496 -0.00085973 -0.00029035 -0.0011318 -0.0089728 0.0066464
0.1823 0.16514 -0.00888 0.0071591
-0.00034772 0.00039339 -0.00028008 -0.0008609 0.00013321 -0.00057408 0.0020219 0.0005067
-0.0088806 0.0072494 0.21782 0.23974
1640000000 0.29801 0.019384 -0.0010331 0.011959 -0.0027944 -0.0025292 0.0025949 0.00090837
-0.00088001 -0.0011273 -0.0003354 0.00069044
-0.0010456 0.011958 0.2057 0.27206 0.005788 0.0033652 -0.00074499 -0.0016025
-0.00083047 -0.00043282 -0.00052932 -0.00067206
-0.0027908 -0.0025265 0.0058033 0.0033372 0.30383 -0.15761 -0.00079687 0.0012913
-0.0011044 -0.0008283 -9.2319e-05 -0.00031437
0.0025984 0.00088853 -0.0007534 -0.0016061 -0.00081548 0.0012848 0.24882 0.051537
-0.0054108 0.0070086 0.0022822 -0.00086539
-0.00089143 -0.001111 -0.00083332 -0.00042705 -0.0011128 -0.00080809 -0.0054016 0.0070226
0.20545 0.13931 -0.0041378 0.0092291
-0.00032708 0.00069356 -0.00053531 -0.00066933 -0.00010033 -0.00031144 0.0022885 -0.00088657
-0.0040952 0.0093101 0.24406 0.20845
1700000000 0.28985 -0.025807 0.0021962 0.0090758 -0.0035416 1.7177e-05 0.0028613 -0.0011724
-0.0018472 -0.00030433 0.0006381 0.00042029
0.002182 0.0090711 0.2237 0.24044 0.0038019 0.00055025 -0.0013932 -0.00054256
-0.00072037 -0.00010047 -0.000951 -0.00044649
-0.0035569 4.2473e-05 0.0038001 0.00053953 0.25996 -0.1974 0.00029708 0.0015105
-0.0017263 -0.000225 -0.00057606 -0.00096185
0.0028585 -0.0011904 -0.001403 -0.0005366 0.00030031 0.0014946 0.24522 0.0006276
-0.0036288 0.0069488 0.0013341 -0.0021897
-0.001856 -0.00029512 -0.00071502 -9.923e-05 -0.0017311 -0.00023054 -0.0036238 0.0069626
0.22286 0.11715 0.0003239 0.0094982
0.00064969 0.00041093 -0.00095362 -0.00044802 -0.00057811 -0.00096155 0.0013255 -0.0022009
0.00040109 0.0095486 0.26086 0.17391
1760000000 0.27672 -0.074017 0.0042291 0.0058505 -0.0023605 0.00087888 0.0012707 -0.003309
-0.00097262 0.00074341 0.00036457 -0.00054308
0.0042171 0.0058457 0.24941 0.20034 0.0016245 -0.0011514 -0.0011015 0.00021277
-0.0011571 0.00073954 -0.0006364 0.0005112
-0.0023595 0.00090629 0.0016011 -0.0011606 0.21094 -0.23037 0.0010577 0.0012593
-0.0011507 0.001353 -0.001416 -0.00043953
0.0012536 -0.0033102 -0.0011045 0.0002211 0.001051 0.0012629 0.23494 -0.051553
-0.0015058 0.0062404 -0.00051893 -0.0023561
-0.00097373 0.00074138 -0.0011519 0.00075138 -0.0011536 0.001353 -0.0014923 0.0062575
0.23754 0.080272 0.0041197 0.0065419
0.00035801 -0.00055894 -0.00063705 0.0005174 -0.0014133 -0.00043682 -0.00053241 -0.0023592
0.0042157 0.00655 0.27357 0.13602
1820000000 0.25142 -0.11081 0.004336 0.0024393 -0.00016403 0.0025097 -0.00094641 -0.0030109
-0.00072679 0.0006724 -1.9583e-05 -0.00013991
0.0043319 0.0024426 0.25905 0.17014 -0.00036271 -6.1379e-05 -0.0013055 0.00086402
-0.00025083 0.0013337 -0.00056012 0.00055515
-0.00014574 0.0025147 -0.00035577 -6.2428e-05 0.16095 -0.24593 0.0014875 0.0005204
-0.00034475 0.0021363 -0.0013894 0.00054623
-0.00097075 -0.0030003 -0.001298 0.0008715 0.0014862 0.00050718 0.2036 -0.0989
-0.0008737 0.0049183 -0.0017917 -0.0014959
-0.00071124 0.00068173 -0.00023486 0.0013352 -0.00033475 0.0021411 -0.00085476 0.0049247
0.2532 0.048745 0.0049557 0.0030419
-1.4902e-05 -0.00013476 -0.00056254 0.00056405 -0.0013842 0.00055851 -0.001801 -0.0015022
0.0050406 0.0030061 0.27611 0.099631
1880000000 0.21564 -0.1502 0.0020899 0.00030817 -0.00032124 0.0022191 -0.002795 -0.0021467
-0.00023434 0.0013599 0.00024133 -0.00052239
0.0020788 0.00030723 0.26312 0.12351 -0.0022996 0.0016108 -0.0001497 0.0017159
0.00054232 0.0014586 0.00021781 0.0010224
-0.00031249 0.0022202 -0.0022855 0.0016296 0.10911 -0.25573 0.0020166 -0.0009475
0.0015322 0.0020924 -0.00090093 0.0015999
-0.0028097 -0.0021284 -0.00015431 0.0017275 0.0020153 -0.00093717 0.16196 -0.13822
-0.00085226 0.0039122 -0.0025418 0.00079318
-0.00022099 0.0013546 0.00055477 0.0014588 0.0015306 0.0021068 -0.00083258 0.0039121
0.25434 0.014003 0.0044633 0.0010382
0.00022192 -0.00052484 0.00022088 0.0010117 -0.00089285 0.0015937 -0.0025581 0.00079829
0.0045085 0.00098058 0.27605 0.065438
1940000000 0.17607 -0.17522 -9.5101e-05 -0.0013357 0.0014663 0.0020312 -0.0037478 0.00050976
0.0010932 0.00097008 -0.00058907 -0.00057907
-9.9914e-05 -0.001348 0.26317 0.091753 -0.0012589 0.0039518 0.0010034 0.001303
0.0020341 0.00072836 0.00092174 0.00032127
0.0014423 0.0020172 -0.0012388 0.0039319 0.062489 -0.24942 0.00034116 -0.0024284
0.0024628 0.00054567 0.00047132 0.0017135
-0.0037481 0.00053866 0.0010074 0.0013096 0.00035412 -0.0024374 0.10877 -0.16733
-0.0022035 0.0035862 -0.0014115 0.0019432
0.0010965 0.00095628 0.0020517 0.0007116 0.0024764 0.00055035 -0.002186 0.0035896
0.25331 -0.026622 0.0031012 -0.002107
-0.00061643 -0.00057244 0.0009184 0.00031412 0.00047502 0.0017189 -0.0014136 0.0019584
0.0031192 -0.0021875 0.26499 0.029463
2000000000 0.12999 -0.18894 -0.0039427 0.00075141 0.002537 0.0015918 -0.0023301 0.0035967
0.00089128 0.00029808 -0.00063196 0.00038686
-0.0039437 0.00075104 0.24855 0.056411 -0.00099927 0.0057322 0.001683 0.00021467
0.0017271 -0.0014213 0.00055435 0.00011537
0.0025269 0.0015734 -0.00097953 0.0057526 0.018799 -0.2349 -0.0014754 -0.0015706
0.0021981 -0.0013102 0.0017828 0.0011319
-0.002327 0.0036054 0.0016677 0.00019471 -0.0014815 -0.0015731 0.055496 -0.17596
-0.0035495 0.0044324 0.00017451 0.0024152
0.00087684 0.00028052 0.00172 -0.0014413 0.0021774 -0.0013052 -0.0035356 0.0044461
