!Keysight Technologies,M9804A,MY58100912,A.14.10.03
!Date: Thursday, April 27, 2023 10:28:33
!Correction: S11(C  6-Port  ) 
!S12(C  6-Port  ) 
!S13(C  6-Port  ) 
!S14(C  6-Port  ) 
!S15(C  6-Port  ) 
!S16(C  6-Port  ) 
!S21(C  6-Port  ) 
!S22(C  6-Port  ) 
!S23(C  6-Port  ) 
!S24(C  6-Port  ) 
!S25(C  6-Port  ) 
!S26(C  6-Port  ) 
!S31(C  6-Port  ) 
!S32(C  6-Port  ) 
!S33(C  6-Port  ) 
!S34(C  6-Port  ) 
!S35(C  6-Port  ) 
!S36(C  6-Port  ) 
!S41(C  6-Port  ) 
!S42(C  6-Port  ) 
!S43(C  6-Port  ) 
!S44(C  6-Port  ) 
!S45(C  6-Port  ) 
!S46(C  6-Port  ) 
!S51(C  6-Port  ) 
!S52(C  6-Port  ) 
!S53(C  6-Port  ) 
!S54(C  6-Port  ) 
!S55(C  6-Port  ) 
!S56(C  6-Port  ) 
!S61(C  6-Port  ) 
!S62(C  6-Port  ) 
!S63(C  6-Port  ) 
!S64(C  6-Port  ) 
!S65(C  6-Port  ) 
!S66(C  6-Port  ) 
!S6P File: Measurement: :
# Hz S  RI   R 50
500000000 -0.33306 -0.056757 -0.010079 -0.0016518 -0.0083349 0.012991 -0.003363 0.012122
0.012786 0.0053745 -0.0028575 0.0082577
-0.010032 -0.001703 -0.41533 -0.066216 0.0081663 -0.010597 0.0018754 0.011299
0.0084256 0.0022414 0.0020617 0.012612
-0.0082939 0.013046 0.0081747 -0.010506 -0.26731 0.19729 0.0071655 0.0031184
-0.0015629 0.0082136 0.00095824 0.011691
-0.0039348 0.011553 0.00087402 0.011614 0.0069612 0.0032122 -0.33089 0.041705
-0.018624 -0.0038017 0.01686 0.024981
0.013716 0.0052056 0.0089876 0.0019076 -0.0016906 0.0079884 -0.018654 -0.0037917
-0.24468 -0.2018 -0.027013 0.0060327
-0.0040916 0.0074404 0.00098988 0.013153 0.00079989 0.012012 0.016576 0.024743
-0.027287 0.0056784 -0.26947 -0.12788
560000000 -0.31936 0.11128 -0.022635 -0.065015 -0.00024382 0.013233 0.0059381 0.010811
0.01157 0.0039039 0.01011 0.0087882
-0.022476 -0.06481 -0.37513 0.097338 -0.041765 -0.038997 0.0144 0.0036426
-0.01393 -0.0042247 0.0047623 -0.0015566
-8.9274e-05 0.013326 -0.041797 -0.038818 -0.18572 0.2495 -0.00078543 -0.0051256
0.017884 0.0055743 0.0080475 -0.0066173
0.0054443 0.010736 0.014283 0.0033458 -0.00067364 -0.0052091 -0.3066 0.13452
0.0057102 -0.024297 0.0052984 -0.020777
0.011276 0.0049741 -0.013451 -0.0039152 0.017692 0.005687 0.0056587 -0.024282
-0.31044 -0.022302 0.0096597 -0.049561
0.0098313 0.009703 0.0051263 -0.0018266 0.0082682 -0.0065155 0.0054239 -0.020818
0.010024 -0.049026 -0.33034 0.019277
620000000 -0.27783 0.089399 -0.022919 0.0085722 0.0039701 0.0093418 0.0081856 -0.0037535
0.011927 -0.0015911 0.00055012 -0.0018579
-0.022921 0.0085482 -0.40324 0.04571 -0.018489 0.00035265 -0.0015231 -0.0021205
0.012075 -0.0058498 0.00072155 -0.0032706
0.0035317 0.0094098 -0.018582 0.00044547 -0.15551 0.25792 -0.0005576 -0.0051402
-0.0039417 -0.0029798 0.0097329 -0.003444
0.0081121 -0.0043826 -0.0017757 -0.001855 -0.00059284 -0.0053848 -0.26549 0.14484
-0.039102 -0.020391 0.013424 0.026963
0.011408 -0.0015943 0.012278 -0.0061427 -0.0040148 -0.0027475 -0.039087 -0.020411
-0.22975 -0.053815 -0.041982 0.01248
0.00014654 -0.0011793 0.00068498 -0.0029024 0.0096884 -0.0037266 0.013283 0.026663
-0.042278 0.013003 -0.24824 -0.014882
680000000 -0.24025 0.18086 -0.026225 -0.015313 0.0047968 0.0048937 0.00073842 -0.0083839
-0.0016005 -0.011223 0.0048103 -0.0063878
-0.026189 -0.01534 -0.39072 0.14706 -0.032268 -0.002373 -0.0018145 -0.00058571
-0.0016317 -0.0087389 -0.0012719 -0.0016585
0.0049912 0.0048102 -0.032331 -0.0024461 -0.10492 0.27957 -0.0011687 -0.00025892
-0.0015811 0.00068579 -0.002388 -0.0093287
0.0010402 -0.0073187 -0.0015135 -0.00055519 -0.0009716 -9.9084e-05 -0.22051 0.19653
-0.023098 -0.0084431 -0.0083919 -0.01239
-0.0015361 -0.011396 -0.0019021 -0.0086637 -0.0016165 0.00064514 -0.0231 -0.0083563
-0.27962 0.047129 -0.0057583 -0.0085105
0.0051312 -0.0069993 -0.0013306 -0.002195 -0.0020751 -0.0093718 -0.00829 -0.012285
-0.0056902 -0.0083767 -0.2612 0.092325
740000000 -0.19448 0.17457 -0.039985 0.026277 0.013838 -0.0045503 0.00024203 -0.0035925
-0.0049298 -0.0026352 -0.0058893 0.0034649
-0.039984 0.026169 -0.33592 0.16562 -0.036953 0.03472 0.00014548 -0.0059595
-0.011816 0.007413 -0.0014699 -0.0055855
0.014046 -0.004379 -0.03685 0.034836 -0.070917 0.27689 -0.0017723 0.0033258
-0.0024962 -0.0054981 -0.0018444 0.00070578
-0.000174 -0.0036043 0.00022511 -0.0061683 -0.0017854 0.0034097 -0.2043 0.20371
-0.041889 -0.0083099 0.021359 0.015584
-0.0044326 -0.0027637 -0.012005 0.0076513 -0.0023805 -0.0057105 -0.04186 -0.0083542
-0.18172 0.077047 -0.040286 -0.0002669
-0.0061998 0.0038468 -0.0012676 -0.0056815 -0.0017457 0.0010878 0.0215 0.015699
-0.040082 -5.2726e-05 -0.25133 0.09575
800000000 -0.16406 0.21912 -0.023126 0.01609 0.0055604 -0.010351 -0.0049762 -0.0023727
-0.0044019 0.0018572 0.003977 0.00072266
-0.023045 0.016083 -0.34279 0.23716 -0.0088879 0.034062 -0.0026072 0.0020421
-0.001105 0.0026299 0.00051881 0.0054106
0.0054379 -0.010395 -0.0088346 0.03413 -0.032237 0.30142 0.00068671 0.0014213
-8.8312e-05 0.0034763 -0.002031 0.0010568
-0.0046118 -0.0024653 -0.0024465 0.0020171 0.00078726 0.0014491 -0.17462 0.23072
-0.028613 0.013295 0.013469 -0.010446
-0.0045193 0.0019383 -0.001121 0.0024501 -4.7868e-05 0.0035022 -0.02858 0.013382
-0.22447 0.10186 -0.018277 0.020425
0.0041935 0.00015092 0.00069231 0.0051364 -0.0020038 0.00088376 0.013505 -0.010531
-0.018383 0.020373 -0.24277 0.14532
860000000 -0.12961 0.23957 -0.018329 0.03053 -0.0029853 -0.010051 -0.002065 0.00040678
0.003891 0.0050522 -0.0036823 -0.0033847
-0.018336 0.030493 -0.29437 0.28051 0.0069744 0.034413 -0.00016413 0.0019356
0.0036983 0.0001057 0.0023241 0.00044168
-0.0029219 -0.01004 0.0070953 0.034359 0.015692 0.30989 -0.00069003 -0.00020137
0.0025458 -0.0015257 0.0012245 0.0043539
-0.0022257 0.00062721 -4.5534e-05 0.0021483 -0.0007614 -0.00016991 -0.13775 0.24235
-0.018568 0.018149 -0.0062026 -0.0096059
0.0037627 0.0052283 0.0036337 0.00029833 0.0025256 -0.0016092 -0.018561 0.01811
-0.16782 0.15611 -0.024574 0.017079
-0.0029542 -0.0028627 0.0029995 0.00025305 0.0014051 0.0044975 -0.0060745 -0.0094619
-0.02466 0.016798 -0.19191 0.19215
920000000 -0.10588 0.26286 0.0040864 0.038467 -0.0091975 -0.004872 -0.0022101 0.001931
0.0006242 0.0019648 0.0026774 -0.0011539
0.0040642 0.038465 -0.26704 0.30198 0.027865 0.023212 0.0014311 0.0015555
0.0071889 1.3312e-05 0.0040046 -0.0026658
-0.0091822 -0.004766 0.027968 0.023118 0.060854 0.31107 0.0019037 0.0001989
0.00080993 7.3104e-05 0.0011392 -0.0011752
-0.0021856 0.0017628 0.0014468 0.0014535 0.001896 0.0001868 -0.11369 0.259
-0.011241 0.030737 0.0036645 -0.0065082
0.0006503 0.0018956 0.0070628 -3.3813e-05 0.00085577 0.00010599 -0.011167 0.030847
-0.15727 0.16174 -0.0021759 0.027276
0.0026305 -0.0011312 0.0039752 -0.0027182 0.0010621 -0.0012196 0.0036989 -0.006501
-0.0020866 0.027196 -0.19944 0.2043
980000000 -0.058965 0.28375 0.016648 0.030412 -0.0092307 0.0043076 0.0018436 0.0037705
0.0040885 -0.0015502 -0.003121 -0.0023922
0.016605 0.030424 -0.21393 0.33726 0.033143 0.0058688 0.0020516 4.9259e-05
0.0017842 -0.0060788 -0.00026153 -0.0025056
-0.0092896 0.0043173 0.033187 0.0057642 0.10656 0.30566 0.00075448 -0.0011438
0.00064023 -0.0018938 0.0015449 -0.00019449
0.001993 0.0037605 0.0020845 -4.8427e-05 0.00073591 -0.0011235 -0.075215 0.26971
0.00706 0.029865 -0.0094998 -0.0076528
0.004082 -0.0015267 0.001761 -0.0060895 0.00062826 -0.0018835 0.0071026 0.029842
-0.1233 0.1926 0.0052295 0.019419
-0.0029945 -0.0023336 -0.00035596 -0.0024275 0.0016104 -0.00020714 -0.0095675 -0.007595
0.0051704 0.01945 -0.15761 0.25011
1040000000 -0.017466 0.29264 0.032845 0.01956 -0.0013784 0.0070134 0.0026462 0.00081814
0.00021905 -0.0034115 -1.1371e-05 -0.0017059
0.032819 0.019586 -0.17885 0.35051 0.030098 -0.014107 0.0016387 -0.0017399
-0.0021739 -0.0024901 -0.00082767 -0.0028817
-0.0012891 0.0069743 0.030112 -0.014242 0.15232 0.29255 -0.00041883 -0.0016898
-0.0016158 -0.00098781 -0.00042342 -0.0011333
0.0025492 0.00074314 0.0015881 -0.0018297 -0.00041844 -0.0016706 -0.047879 0.27957
0.018659 0.019012 -0.002362 0.00136
0.00025655 -0.0035091 -0.0021767 -0.0024702 -0.0015757 -0.00095806 0.018693 0.018959
-0.090528 0.20048 0.013565 0.018789
-8.7751e-05 -0.0014388 -0.0008954 -0.0027569 -0.00038318 -0.0011503 -0.0023396 0.0013342
0.013531 0.018816 -0.1343 0.2703
1100000000 0.027476 0.30239 0.036511 -0.0029987 0.0029032 0.004093 0.0026126 -0.0010786
-0.0020907 -0.0029316 -0.0038085 -0.0004242
0.036493 -0.002978 -0.13583 0.36891 0.016201 -0.027559 0.00013824 -0.0018651
-0.0034263 -0.00090449 -0.0033505 -0.00072155
0.0029192 0.0041245 0.016119 -0.027657 0.19791 0.2737 -0.0019095 7.1616e-05
-0.0018244 0.00040637 -0.0010939 -0.00046827
0.0026227 -0.0011183 0.00015867 -0.0018137 -0.0018829 5.5955e-05 -0.0079101 0.28493
0.02455 0.0062317 -0.0022278 0.00018439
-0.0020264 -0.0028363 -0.0033605 -0.00088407 -0.0018032 0.00043328 0.024573 0.0061939
-0.07038 0.21393 0.019472 0.0092132
-0.0038118 -0.00053829 -0.0033263 -0.00081542 -0.0010703 -0.00050658 -0.0022642 0.00024145
0.019399 0.009125 -0.088831 0.29867
1160000000 0.078604 0.29855 0.024847 -0.019989 0.0028758 -0.00050537 -0.00019636 -0.0024487
-0.0039378 -0.00072552 -0.00094739 0.0040042
0.024845 -0.019909 -0.092434 0.37344 -0.0027911 -0.029378 -0.0016456 -0.0015451
-0.0027361 0.002408 -0.0016392 0.0017898
0.0028831 -0.00056694 -0.0029098 -0.029427 0.2413 0.2442 -0.0009012 0.001687
-0.00063392 0.0018398 -0.00098951 0.00040494
-0.00026405 -0.0024558 -0.0017085 -0.0015293 -0.00086618 0.0017006 0.031582 0.2823
0.021212 -0.0096547 -0.0030396 0.0053751
-0.0040581 -0.00080073 -0.0027929 0.0024772 -0.00063915 0.001824 0.021198 -0.0096871
-0.035556 0.22204 0.018666 7.9609e-05
-0.00075711 0.0041853 -0.0014596 0.0019618 -0.00096936 0.00034125 -0.0030719 0.0053756
0.018714 9.1243e-05 -0.04195 0.30142
1220000000 0.1225 0.28878 0.011729 -0.029969 -0.0014838 -0.0011741 -3.4502e-05 -0.00089011
-0.0028423 0.0022588 0.00089829 0.0021208
0.011732 -0.029925 -0.048725 0.38677 -0.016462 -0.022135 -0.0026583 0.0004208
-9.563e-05 0.0030385 -0.00097274 0.0019666
-0.0014987 -0.0011552 -0.016571 -0.022072 0.28067 0.20624 0.0006838 0.0017177
0.00048026 0.0012701 0.00031666 0.00064981
1.8303e-05 -0.00093232 -0.0026651 0.00042441 0.00067463 0.0017134 0.071292 0.27395
0.011355 -0.016508 0.0022346 0.0013725
-0.0027376 0.0022339 -6.472e-05 0.002982 0.00050672 0.0012518 0.011332 -0.016505
-0.011697 0.23049 0.014267 -0.012667
0.00085706 0.0020751 -0.00093392 0.002043 0.00034398 0.00064738 0.0022557 0.001355
0.014286 -0.012671 -0.010725 0.31769
1280000000 0.17278 0.26867 -0.0069055 -0.02884 -0.0020354 0.0023236 -0.00089659 -0.0019926
-0.0007662 0.0030394 0.0025076 0.0014526
-0.0068853 -0.028841 -0.0027951 0.37889 -0.023841 -0.0093677 -0.0010238 0.0014396
0.001603 0.0016464 0.00048245 0.0020426
-0.0020209 0.0022876 -0.023914 -0.0092753 0.31201 0.16335 0.0014729 6.4248e-05
0.001159 0.00022677 0.00030353 0.00020365
-0.00090946 -0.0018944 -0.00097248 0.0014522 0.0014963 6.1974e-05 0.10847 0.25833
0.0018647 -0.018976 4.9959e-05 0.00014722
-0.00086196 0.0031259 0.001566 0.0017023 0.001156 0.00027056 0.001854 -0.018999
0.025013 0.23386 0.0034646 -0.014663
0.0026139 0.0014217 0.00055126 0.0020354 0.00033576 0.00015681 7.8923e-05 0.00017282
0.0034607 -0.014657 0.036572 0.31978
1340000000 0.21019 0.23574 -0.016947 -0.019795 0.00060418 0.0046801 -0.001734 -0.00079502
0.0014012 0.0026915 0.0017522 -0.0012977
-0.016908 -0.019778 0.036629 0.37183 -0.022024 0.0035535 -0.00021166 0.0020001
0.0019622 0.00088066 0.0011429 0.0007736
0.0006389 0.0046892 -0.022022 0.0036818 0.33498 0.11604 0.0010818 -0.00079066
0.00062047 -0.00056353 3.996e-05 0.00023078
-0.0017622 -0.00087932 -0.00020573 0.0020271 0.0011018 -0.00083968 0.14183 0.23747
-0.0075548 -0.016967 0.00087883 0.00039819
0.001449 0.0026193 0.0019256 0.00084039 0.00059269 -0.0005494 -0.0075957 -0.01694
0.054696 0.2288 -0.003208 -0.01374
0.0017091 -0.001259 0.0012102 0.00084798 2.1382e-05 0.00025389 0.00086842 0.00037282
-0.0031843 -0.013721 0.074214 0.31509
1400000000 0.24419 0.19923 -0.023313 -0.0084296 0.0051782 0.0034852 -0.0022281 0.00060402
0.0024436 0.00094366 0.00042239 -0.0015755
-0.023284 -0.0084295 0.074233 0.36002 -0.015599 0.012175 0.0012718 0.0013694
0.0012775 -0.00066224 0.0012007 0.00020298
0.005141 0.0034475 -0.01557 0.01229 0.34863 0.062729 0.00012451 -0.0016462
0.00010909 -0.00035789 0.00041753 0.00020721
-0.0022196 0.00063915 0.0012975 0.0013611 0.00015417 -0.0016013 0.17146 0.20884
-0.013837 -0.010516 -0.0010209 -0.00036215
0.0024434 0.00096968 0.001291 -0.00066638 0.00010653 -0.00036115 -0.013878 -0.010504
0.087908 0.22474 -0.0095725 -0.0090091
0.00035462 -0.001633 0.0011927 0.00017601 0.00039352 0.00016299 -0.0010563 -0.00036087
-0.0095707 -0.0090004 0.11832 0.30465
1460000000 0.26777 0.15606 -0.020705 0.0039586 0.0057079 -0.0016456 -0.001606 0.0016544
0.0021415 -0.00031208 -0.00028145 -0.0010907
-0.020699 0.0039302 0.10927 0.33893 -0.0066771 0.015589 0.0017405 0.00024714
0.00099149 -0.0013019 0.0012714 -0.00048949
0.0057281 -0.0016501 -0.0066002 0.015645 0.35572 0.0084589 -0.0010926 -0.0013788
0.00010157 -0.00019611 0.00064845 -0.00014054
-0.0016232 0.0016342 0.0017485 0.00025949 -0.0011261 -0.001396 0.19851 0.17958
-0.015392 -0.0042082 -0.0010162 0.0018479
0.0020776 -0.00037668 0.000978 -0.0013022 0.00013732 -0.0001814 -0.015413 -0.0041577
0.11741 0.21086 -0.011574 -0.0035565
-0.00021234 -0.0010071 0.0013008 -0.00055201 0.00070644 -0.00018017 -0.0010551 0.0018728
-0.011578 -0.003536 0.1521 0.28437
1520000000 0.28095 0.1147 -0.015427 0.0096986 0.0034628 -0.0042937 5.8483e-05 0.0025659
0.0022028 -0.0017903 -0.0011933 -0.0001916
-0.015405 0.0096732 0.14343 0.32476 0.0012477 0.013546 0.001662 -0.0007554
0.00011441 -0.0011685 0.00031304 -0.0010283
0.0034068 -0.0042898 0.0013549 0.013548 0.34909 -0.047787 -0.0011226 -0.00043767
0.00062194 -0.00081175 6.1909e-05 -0.00011094
8.7046e-05 0.0025835 0.0016668 -0.0007815 -0.0010584 -0.00043679 0.22185 0.14113
-0.015516 0.0016973 0.0012905 0.0021498
0.0021427 -0.001755 0.00011489 -0.0011684 0.00063213 -0.0007991 -0.01552 0.001732
0.14511 0.19776 -0.01158 0.001023
-0.0011881 -0.00024423 0.00036564 -0.0010418 0.00011918 -0.00015749 0.001287 0.0021036
-0.011541 0.0010014 0.18518 0.26419
1580000000 0.29154 0.069167 -0.008838 0.013331 -0.00093569 -0.0049303 0.0015067 0.0019819
-9.267e-05 -0.0021199 -0.00027977 0.00027657
-0.0088434 0.013304 0.1715 0.30049 0.0052072 0.0086958 0.00053056 -0.001581
-0.00053412 -0.0011919 -0.00010509 -0.000896
-0.00096837 -0.004951 0.0052718 0.0087061 0.32939 -0.10535 -0.0016879 0.00057152
-0.00026493 -0.0012195 0.00028999 -0.0006742
0.001441 0.0019242 0.00055299 -0.0015683 -0.0016868 0.00056443 0.23606 0.10164
-0.012441 0.0070499 0.0020247 0.0008038
-2.9577e-05 -0.002186 -0.00058117 -0.0011775 -0.00028074 -0.001233 -0.01243 0.0070701
0.16967 0.18059 -0.0095049 0.0067247
-0.00029016 0.0002856 -0.00014 -0.00092507 0.00031741 -0.00062938 0.0020363 0.00081587
-0.0095252 0.0067591 0.21768 0.23802
1640000000 0.29473 0.027644 -0.002018 0.012492 -0.0029109 -0.0026878 0.0026389 0.0010958
-0.00065762 -0.001705 -0.00041276 0.00066105
-0.0020208 0.012483 0.20184 0.27556 0.0061193 0.0036747 -0.0005983 -0.001774
-0.0011243 -0.00045326 -0.00047702 -0.00074731
-0.002935 -0.002721 0.0061361 0.003659 0.30118 -0.15491 -0.00076024 0.0014656
-0.0010857 -0.0011143 -9.1385e-05 -0.0002635
0.0026909 0.0010604 -0.0006237 -0.0017948 -0.00080657 0.0014898 0.24872 0.052252
-0.0082996 0.0090268 0.0024912 -0.00066842
-0.0006649 -0.0016784 -0.0011531 -0.0004834 -0.0011027 -0.0010705 -0.0082821 0.0090626
0.19311 0.15724 -0.0050387 0.0089606
-0.00047108 0.00064314 -0.00048949 -0.00071416 -0.00012261 -0.00030887 0.0024563 -0.00067499
-0.0050688 0.0089331 0.24328 0.20667
1700000000 0.28822 -0.01784 0.0015908 0.0099776 -0.0036008 3.2854e-05 0.0032232 -0.0011861
-0.0019908 -0.00080849 0.00053295 0.00055561
0.0015875 0.0099678 0.22036 0.24401 0.0041044 0.00062813 -0.0014345 -0.00066435
-0.00087268 3.6589e-05 -0.00095352 -0.00048321
-0.0036362 5.7357e-05 0.0040949 0.00059809 0.25774 -0.19447 0.00041292 0.0017522
-0.0020263 -0.00021999 -0.00041251 -0.00089237
0.0032126 -0.0011946 -0.0014105 -0.00065973 0.0004324 0.0017701 0.24531 0.0019392
-0.005134 0.010058 0.0016024 -0.0020982
-0.0019602 -0.00083137 -0.00086776 3.8657e-05 -0.0020322 -0.00016728 -0.0051063 0.01006
0.21104 0.13764 -0.00042749 0.0094576
0.00053567 0.00056168 -0.0010216 -0.00048123 -0.00045574 -0.00094204 0.0015983 -0.0020975
-0.0004133 0.0094609 0.25977 0.1725
1760000000 0.27697 -0.066977 0.0043812 0.0067864 -0.0022308 0.00097398 0.0014971 -0.0033835
-0.0013221 0.00055693 0.00043698 -0.00044036
0.0043678 0.0067784 0.24701 0.20417 0.0018194 -0.0013753 -0.0012336 0.0001151
-0.0010655 0.0010191 -0.00062201 0.00040998
-0.0022105 0.00097661 0.0017942 -0.0014208 0.20988 -0.22766 0.0011316 0.0010333
-0.0012978 0.0014144 -0.0012137 -0.00061569
0.0015273 -0.0033725 -0.0012682 0.00012132 0.0010901 0.0010674 0.23617 -0.04979
-0.0013979 0.0095287 -1.8129e-05 -0.0022304
-0.0013377 0.00056624 -0.0010735 0.0010179 -0.0013297 0.0013746 -0.0013737 0.0095347
0.22668 0.10363 0.0034818 0.0073302
0.00035758 -0.00046611 -0.00058754 0.00043933 -0.0011283 -0.00060037 -3.1495e-05 -0.0022494
0.0034677 0.0072733 0.27294 0.13528
1820000000 0.25277 -0.10492 0.0048144 0.0030923 -3.6332e-05 0.0024799 -0.00087513 -0.0031581
-0.0013181 0.00096813 -7.8356e-05 -0.00023631
0.0048149 0.0030923 0.25732 0.17376 -0.00049936 -0.00021968 -0.0013863 0.00092646
1.8798e-05 0.0012544 -0.00063213 0.00052656
4.0671e-07 0.0024837 -0.00047578 -0.00021255 0.15867 -0.24339 0.0016225 0.00036742
-0.00029358 0.0024136 -0.0013961 0.0003988
-0.00090495 -0.0031141 -0.0013607 0.00091641 0.0016822 0.0002949 0.20573 -0.097306
0.00063331 0.0080631 -0.0016109 -0.0015343
-0.0012978 0.0010243 3.0186e-05 0.0012669 -0.0002691 0.0024274 0.00066716 0.0080741
0.24471 0.074805 0.0043929 0.003828
-4.1438e-05 -0.00021513 -0.00064273 0.00052502 -0.0015119 0.00040013 -0.0015902 -0.0015033
0.004427 0.0038261 0.27506 0.098544
1880000000 0.21756 -0.14543 0.0026404 0.00054074 -0.00071971 0.0021669 -0.0029541 -0.0024008
-0.00029858 0.0018571 0.00016593 -0.00061181
0.0026353 0.00057962 0.26182 0.12719 -0.0025858 0.0016453 -0.00023365 0.0017636
0.00064511 0.0012989 2.6054e-05 0.0010196
-0.00067149 0.0021681 -0.0025653 0.0016746 0.10687 -0.25229 0.0017819 -0.00092224
0.0015182 0.0020473 -0.00098342 0.001376
-0.0028791 -0.0024039 -0.00023099 0.001824 0.0017382 -0.00093912 0.16455 -0.13729
0.0017219 0.0057571 -0.0022854 0.00026754
-0.00027277 0.0018602 0.00066585 0.001294 0.0015357 0.0019973 0.0017039 0.0057406
0.24939 0.043635 0.0049559 0.0017098
8.7869e-05 -0.00056404 6.6342e-05 0.00098352 -0.00089291 0.0014147 -0.0022437 0.00023563
0.0049537 0.0017523 0.27519 0.065228
1940000000 0.17801 -0.1716 0.00035833 -0.0013673 0.0014017 0.0020177 -0.0038764 0.00031484
0.0013595 0.0011273 -0.00078115 -0.00063877
0.00034358 -0.001382 0.26269 0.095185 -0.0012579 0.0041208 0.0010259 0.0013587
0.0018992 0.00039101 0.00089041 0.00031885
0.0014893 0.001983 -0.0012537 0.0041681 0.061931 -0.24502 0.00048357 -0.0021644
0.0023688 0.00046731 0.00039445 0.0014651
-0.0039559 0.00046057 0.001028 0.0013294 0.00053293 -0.0022069 0.11184 -0.16776
0.0011751 0.0040895 -0.0012669 0.0013025
0.0013355 0.0011915 0.00189 0.00038176 0.0023938 0.0004573 0.0012201 0.0040702
0.25323 0.0053102 0.0038909 -0.0015647
-0.00084953 -0.00073671 0.00089314 0.00034298 0.00025472 0.0015343 -0.0013083 0.0012826
0.0038986 -0.0016028 0.26464 0.029009
2000000000 0.1315 -0.18605 -0.0035985 0.00068376 0.0026014 0.0018256 -0.0022844 0.0036892
0.0013511 0.0004162 -0.00049304 0.00040772
-0.0035702 0.00067682 0.24825 0.059624 -0.0009082 0.0060612 0.0018177 0.00047595
0.0013383 -0.0011433 0.0005803 0.00023775
0.0025602 0.0017878 -0.00091356 0.0060749 0.018861 -0.23107 -0.001096 -0.001372
0.0021812 -0.0011004 0.0014691 0.0015812
-0.0022765 0.0036025 0.0018093 0.00051119 -0.0011983 -0.0013717 0.058188 -0.17688
-0.00021431 0.0037254 -0.00030765 0.0020191
0.0013652 0.00041716 0.0013015 -0.0011553 0.0020854 -0.0011443 -0.00022797 0.0037531
0.24871 -0.028364 0.00066742 -0.0026578
