!Keysight Technologies,M9804A,MY58100912,A.14.10.03
!Date: Thursday, April 27, 2023 10:28:33
!Correction: S11(C  6-Port  ) 
!S12(C  6-Port  ) 
!S13(C  6-Port  ) 
!S14(C  6-Port  ) 
!S15(C  6-Port  ) 
!S16(C  6-Port  ) 
!S21(C  6-Port  ) 
!S22(C  6-Port  ) 
!S23(C  6-Port  ) 
!S24(C  6-Port  ) 
!S25(C  6-Port  ) 
!S26(C  6-Port  ) 
!S31(C  6-Port  ) 
!S32(C  6-Port  ) 
!S33(C  6-Port  ) 
!S34(C  6-Port  ) 
!S35(C  6-Port  ) 
!S36(C  6-Port  ) 
!S41(C  6-Port  ) 
!S42(C  6-Port  ) 
!S43(C  6-Port  ) 
!S44(C  6-Port  ) 
!S45(C  6-Port  ) 
!S46(C  6-Port  ) 
!S51(C  6-Port  ) 
!S52(C  6-Port  ) 
!S53(C  6-Port  ) 
!S54(C  6-Port  ) 
!S55(C  6-Port  ) 
!S56(C  6-Port  ) 
!S61(C  6-Port  ) 
!S62(C  6-Port  ) 
!S63(C  6-Port  ) 
!S64(C  6-Port  ) 
!S65(C  6-Port  ) 
!S66(C  6-Port  ) 
!S6P File: Measurement: :
# Hz S  RI   R 50
500000000 -0.33367 -0.057091 -0.0094487 -0.0013556 -0.0078014 0.013302 -0.004383 0.012286
0.012504 0.0048932 -0.0044872 0.008503
-0.0094422 -0.0015203 -0.41562 -0.065765 0.0089416 -0.010727 0.001547 0.011805
0.0074015 0.0034185 0.001317 0.013816
-0.0079664 0.012998 0.0085582 -0.010692 -0.26671 0.19682 0.0069159 0.0035639
-0.0015443 0.0082898 0.00089773 0.012378
-0.0039963 0.012062 0.0011774 0.011888 0.0068926 0.003624 -0.33109 0.041377
-0.018249 -0.0029876 0.016454 0.024238
0.012683 0.0049592 0.007589 0.0037281 -0.0015194 0.0083923 -0.018381 -0.003099
-0.24463 -0.20289 -0.026146 0.0063507
-0.0040543 0.0081667 0.0017595 0.013576 0.00089853 0.012373 0.016772 0.024054
-0.026732 0.0070648 -0.26895 -0.12993
560000000 -0.31852 0.11042 -0.02309 -0.065747 0.00053723 0.013354 0.0058773 0.011096
0.010948 0.0045667 0.010248 0.0086393
-0.023095 -0.065619 -0.37436 0.095976 -0.042242 -0.039326 0.013933 0.0038086
-0.013621 -0.0039187 0.00547 -0.0014035
0.00086959 0.013132 -0.042392 -0.037841 -0.18462 0.24874 -0.001704 -0.0049441
0.019793 0.0053269 0.0074111 -0.005439
0.0056709 0.011204 0.014024 0.0034262 -0.0015388 -0.0048969 -0.30582 0.13411
0.0043639 -0.024517 0.0059326 -0.021915
0.011318 0.0048241 -0.013992 -0.0036745 0.020038 0.0055129 0.0045044 -0.024583
-0.30833 -0.020774 0.0060348 -0.049465
0.010124 0.0085436 0.0052476 -0.0014868 0.0070555 -0.0059653 0.0060165 -0.021349
0.0075572 -0.049974 -0.32896 0.017595
620000000 -0.27766 0.090206 -0.022858 0.0087791 0.0040928 0.0094611 0.0081947 -0.0044918
0.01184 -0.0015071 0.00077775 -0.0031577
-0.022863 0.0088229 -0.40322 0.04585 -0.018532 0.0004805 -0.0016697 -0.0016298
0.012379 -0.0069242 6.1687e-05 -0.003354
0.0038265 0.0095038 -0.018489 0.00062397 -0.15579 0.25825 -0.00055597 -0.0047922
-0.0035089 -0.0036233 0.0087074 -0.0028743
0.0082847 -0.004454 -0.0015588 -0.0018165 -0.00057364 -0.0048094 -0.2648 0.14483
-0.039403 -0.020415 0.014634 0.028136
0.01181 -0.001356 0.012385 -0.0068124 -0.0033936 -0.0037235 -0.039328 -0.02038
-0.2282 -0.054714 -0.043813 0.010863
0.0010167 -0.0023605 0.0006513 -0.0032663 0.0087991 -0.0027196 0.014641 0.028079
-0.043489 0.011052 -0.24698 -0.0096528
680000000 -0.24071 0.18121 -0.026368 -0.015294 0.0047768 0.0050684 0.0010454 -0.0074131
-0.0017728 -0.011641 0.0056553 -0.0066196
-0.0264 -0.015317 -0.39075 0.14703 -0.032366 -0.0023064 -0.0017149 -0.00057323
-0.0016302 -0.0089464 -0.0007377 -0.0021278
0.0048231 0.0052129 -0.032343 -0.0022656 -0.10507 0.27967 -0.001004 -9.5004e-05
-0.001675 0.00049306 -0.0021748 -0.0093401
0.00092625 -0.0074613 -0.0017623 -0.000427 -0.0010192 -0.00012102 -0.2208 0.19687
-0.023155 -0.0083367 -0.0090153 -0.012009
-0.0018565 -0.011686 -0.0017173 -0.009095 -0.0016342 0.00044198 -0.023173 -0.0083509
-0.28067 0.046767 -0.0057236 -0.0076328
0.0053236 -0.0070217 -0.00085635 -0.0021838 -0.0022076 -0.0091933 -0.0095571 -0.011921
-0.0060774 -0.0079555 -0.2608 0.090729
740000000 -0.1942 0.1741 -0.040352 0.026497 0.013743 -0.0050094 0.0001657 -0.0044344
-0.0046268 -0.0020002 -0.0059974 0.0026319
-0.040259 0.026465 -0.33604 0.16588 -0.037281 0.034424 0.00024094 -0.0060965
-0.011456 0.0076825 -0.00075971 -0.006226
0.013674 -0.0049193 -0.037092 0.034736 -0.070582 0.27678 -0.0020568 0.0032727
-0.0026284 -0.0053443 -0.0016597 0.0011473
-0.00023821 -0.0043035 -3.8912e-05 -0.0060471 -0.002007 0.0032602 -0.20395 0.2029
-0.042036 -0.0078496 0.021387 0.015214
-0.004485 -0.0018671 -0.011466 0.0073281 -0.0025439 -0.0052658 -0.042263 -0.0077689
-0.1798 0.073138 -0.041687 0.00033554
-0.0060922 0.0026478 -0.0012138 -0.0057189 -0.0016635 0.00092843 0.021655 0.015227
-0.042086 0.00044402 -0.25098 0.095755
800000000 -0.16346 0.2191 -0.022889 0.01618 0.0055887 -0.01044 -0.0047534 -0.0022478
-0.0044709 0.0019967 0.0042751 0.000449
-0.02283 0.016148 -0.34281 0.23725 -0.0088939 0.034005 -0.0024358 0.0020822
-0.0009712 0.0026057 0.0004186 0.005279
0.0056345 -0.010426 -0.0088215 0.034006 -0.032332 0.3014 0.00075712 0.0014389
2.2226e-05 0.003376 -0.002237 0.00084414
-0.0046212 -0.0022126 -0.0022225 0.0020454 0.00077054 0.001446 -0.17479 0.23074
-0.028799 0.013109 0.013638 -0.010487
-0.0045044 0.0019854 -0.0011651 0.0024375 1.7576e-05 0.0034395 -0.028781 0.01322
-0.22492 0.10284 -0.018229 0.020386
0.0044651 0.0009279 0.00063337 0.0054528 -0.002041 0.0009154 0.013701 -0.010533
-0.01868 0.020185 -0.24207 0.14493
860000000 -0.12918 0.23974 -0.018571 0.030506 -0.002883 -0.010123 -0.0021307 0.00054524
0.0038218 0.0050301 -0.0030767 -0.0031395
-0.018534 0.030568 -0.29448 0.28056 0.0069122 0.034255 9.2155e-05 0.0018845
0.003526 0.00027003 0.0029152 -4.3788e-06
-0.0029742 -0.010087 0.0070177 0.034367 0.015769 0.3098 -0.00066137 -0.00011301
0.0024761 -0.0016344 0.0016943 0.0044675
-0.0022523 0.00057655 -6.4958e-05 0.0022597 -0.00066045 -0.00011636 -0.13773 0.24232
-0.01849 0.018015 -0.006599 -0.008636
0.003872 0.0052887 0.0038206 -6.9675e-05 0.0025103 -0.0016859 -0.018476 0.017983
-0.16759 0.15545 -0.024708 0.016034
-0.0034194 -0.0032073 0.0025337 0.00015923 0.0014093 0.0045147 -0.0067965 -0.0087735
-0.024288 0.016066 -0.19094 0.19202
920000000 -0.10554 0.26312 0.0042229 0.038761 -0.0091142 -0.0047847 -0.0020703 0.0018396
0.00092241 0.0021841 0.0027801 -0.0012736
0.0042195 0.038732 -0.26679 0.30203 0.027828 0.023231 0.0013558 0.001578
0.0072895 2.2662e-05 0.0040471 -0.0025525
-0.0090886 -0.0048097 0.028013 0.023086 0.060931 0.31109 0.0018184 0.00017549
0.0010103 7.7058e-05 0.0010745 -0.0011625
-0.0020217 0.0020457 0.0015506 0.0015675 0.0018304 0.00018001 -0.11364 0.25872
-0.011265 0.030803 0.0034718 -0.0068059
0.00092577 0.0022787 0.0073306 0.000131 0.00098221 5.1871e-05 -0.011168 0.030854
-0.15769 0.16178 -0.0017802 0.027248
0.0029209 -0.0013574 0.0041625 -0.0024786 0.0010925 -0.0013645 0.0037829 -0.0070059
-0.0019335 0.027356 -0.20011 0.20324
980000000 -0.058885 0.28393 0.016622 0.030559 -0.0093044 0.0043679 0.001889 0.0038639
0.0040028 -0.0015004 -0.0028857 -0.0022436
0.016627 0.03057 -0.21392 0.33722 0.03314 0.0058317 0.0020741 -6.961e-05
0.0019952 -0.0060333 -0.00032942 -0.0023477
-0.0092967 0.004328 0.033196 0.0057478 0.10661 0.30568 0.00080427 -0.0010643
0.0006204 -0.0018116 0.0016693 -0.00021862
0.0018622 0.0038601 0.0020894 -0.00011328 0.00080967 -0.0010549 -0.075187 0.26996
0.0070951 0.029716 -0.0092493 -0.0073558
0.0040396 -0.0014289 0.0019084 -0.0061397 0.00063377 -0.0018524 0.0072206 0.029719
-0.12382 0.19238 0.0053663 0.019286
-0.0029559 -0.0021929 -0.00035728 -0.0023799 0.0017279 -0.00022867 -0.0091575 -0.007263
0.0051365 0.019145 -0.157 0.24919
1040000000 -0.017366 0.29292 0.032907 0.019585 -0.0014042 0.0070134 0.0027164 0.00068115
-2.5775e-05 -0.0034227 0.00013131 -0.0015841
0.03288 0.019605 -0.1786 0.35056 0.030143 -0.014183 0.0017114 -0.0017264
-0.0022218 -0.0024933 -0.00081517 -0.0028339
-0.0013542 0.0070534 0.030071 -0.014261 0.15238 0.29251 -0.00031948 -0.0016868
-0.0016136 -0.0009368 -0.00042253 -0.0011367
0.0027859 0.00070529 0.0016694 -0.0016644 -0.00030787 -0.0016955 -0.04779 0.27958
0.018762 0.019031 -0.0023673 0.0013744
3.9315e-05 -0.003467 -0.0022508 -0.0024593 -0.0015858 -0.00096647 0.018834 0.018994
-0.090113 0.20032 0.013907 0.018561
-2.4102e-05 -0.0016014 -0.00089699 -0.0028164 -0.00039911 -0.0011984 -0.0024211 0.001465
0.013359 0.01874 -0.13455 0.26991
1100000000 0.027597 0.30236 0.036617 -0.0030072 0.0029433 0.0041434 0.0025901 -0.0010542
-0.0020287 -0.0029671 -0.003752 -0.00033732
0.036588 -0.003012 -0.13566 0.36895 0.016221 -0.027552 9.5298e-05 -0.0017567
-0.0034354 -0.0009725 -0.0033735 -0.00068296
0.0029464 0.0041322 0.016127 -0.027638 0.19794 0.27365 -0.0018957 5.767e-05
-0.0017989 0.00038855 -0.0011584 -0.00061765
0.0026005 -0.0010045 0.00017848 -0.0017422 -0.00191 6.1274e-05 -0.0078483 0.28495
0.0246 0.0062517 -0.0021879 0.00013565
-0.0020863 -0.0029307 -0.0034126 -0.00091145 -0.0018307 0.00037539 0.024644 0.0062406
-0.070328 0.21416 0.019655 0.0094202
-0.00373 -0.0002591 -0.0034388 -0.00058008 -0.0011498 -0.00051681 -0.002268 0.00015238
0.019639 0.009339 -0.088673 0.2983
1160000000 0.078824 0.29863 0.024998 -0.019966 0.0029369 -0.00054591 -0.00013911 -0.002496
-0.0040146 -0.00072949 -0.0010391 0.0040767
0.025003 -0.019992 -0.092389 0.37361 -0.0028086 -0.029424 -0.0016176 -0.0016157
-0.0028119 0.0024608 -0.0015169 0.0019247
0.0029645 -0.00057476 -0.0029003 -0.029372 0.24134 0.24423 -0.00083333 0.0016757
-0.00072014 0.0019003 -0.0010003 0.00033548
-0.00019543 -0.0025394 -0.0016312 -0.0016552 -0.00083767 0.0016611 0.031737 0.28241
0.021351 -0.0097008 -0.0032454 0.0051928
-0.0040585 -0.00077272 -0.0028053 0.0025325 -0.00072573 0.0018752 0.021363 -0.0097071
-0.035431 0.22181 0.018613 0.00016747
-0.0010002 0.0041344 -0.0015508 0.002044 -0.00090222 0.00025593 -0.0030925 0.004891
0.018797 5.6731e-05 -0.042267 0.30118
1220000000 0.12277 0.28872 0.011787 -0.030017 -0.0015194 -0.0011429 -2.827e-05 -0.00084301
-0.0028636 0.002181 0.0010685 0.0019883
0.011778 -0.030009 -0.048557 0.38692 -0.016432 -0.0221 -0.0026718 0.00046711
-0.00014707 0.0030324 -0.00090835 0.001973
-0.0015228 -0.0011358 -0.016562 -0.022046 0.28072 0.20618 0.00065961 0.0017325
0.00043996 0.0012476 0.00025451 0.00062524
-7.6029e-05 -0.00081843 -0.0026586 0.00047571 0.00066725 0.0017292 0.071452 0.27388
0.01141 -0.016463 0.0024465 0.0012398
-0.0029052 0.0022672 -0.00016815 0.0030888 0.00040241 0.001262 0.011378 -0.016529
-0.011698 0.23028 0.014263 -0.012622
0.0010263 0.00213 -0.000898 0.0020086 0.00020867 0.00059987 0.002406 0.0012823
0.014185 -0.012554 -0.010979 0.3174
1280000000 0.1731 0.26854 -0.0069581 -0.029018 -0.0021093 0.0023016 -0.00082873 -0.0019951
-0.0007893 0.0030745 0.002507 0.0013772
-0.0069619 -0.028967 -0.002655 0.37901 -0.023861 -0.009364 -0.0010002 0.0014806
0.0016038 0.0016657 0.00057849 0.0021441
-0.0020661 0.0022741 -0.023907 -0.009263 0.31214 0.16339 0.0014798 7.0029e-05
0.0011401 0.00032397 0.00039502 0.00017527
-0.00084437 -0.0020046 -0.0009728 0.0014389 0.0014759 6.1038e-05 0.10849 0.25828
0.0018203 -0.019112 -8.0126e-06 0.00012499
-0.00078938 0.0031248 0.001608 0.0016538 0.0011209 0.00032052 0.0017821 -0.019115
0.025191 0.23368 0.003244 -0.014672
0.002561 0.0013757 0.00056333 0.0021646 0.00032714 0.00029453 2.817e-05 0.00015379
0.0033021 -0.014735 0.036401 0.3198
1340000000 0.21052 0.23558 -0.016968 -0.019901 0.000642 0.004633 -0.0017345 -0.00081723
0.0012967 0.0027306 0.001775 -0.0012236
-0.016987 -0.019901 0.036841 0.37187 -0.021978 0.0035861 -0.00024546 0.002062
0.0019241 0.0009307 0.0010933 0.00086963
0.00059668 0.0045943 -0.022 0.0036624 0.33504 0.11594 0.0010553 -0.00079849
0.00062181 -0.00057474 -2.4443e-06 0.00032916
-0.0017014 -0.00077123 -0.00021525 0.0020689 0.0010474 -0.0007875 0.14186 0.23745
-0.0076036 -0.016991 0.00089036 0.00030807
0.0014016 0.0027346 0.0019459 0.00092394 0.00063523 -0.00055799 -0.0076146 -0.017005
0.055012 0.22874 -0.0032312 -0.013684
0.0017882 -0.0013488 0.0012319 0.00091079 -1.052e-05 0.0002579 0.00087132 0.00027759
-0.0032175 -0.013642 0.074252 0.31528
1400000000 0.24441 0.1989 -0.023381 -0.0084614 0.0051736 0.0034785 -0.0022061 0.00058263
0.0024713 0.0009618 0.00040798 -0.0016384
-0.023372 -0.0084254 0.074498 0.36002 -0.015566 0.012172 0.0012639 0.0013632
0.00134 -0.00065376 0.0012181 0.00020265
0.0051883 0.0034761 -0.015541 0.012257 0.34871 0.062704 0.00013046 -0.0016166
0.00011147 -0.00030853 0.00033418 0.00012427
-0.0022166 0.00059368 0.0012493 0.0013758 0.00013506 -0.0016201 0.17147 0.20885
-0.013874 -0.010608 -0.001074 -0.00035539
0.0025301 0.00095493 0.001311 -0.00062004 9.8068e-05 -0.00035653 -0.013954 -0.010577
0.087798 0.22441 -0.0095693 -0.0091091
0.0003828 -0.001671 0.0011967 0.00013929 0.00036597 0.00015447 -0.0010488 -0.00032944
-0.0094936 -0.0091521 0.11824 0.30464
1460000000 0.2681 0.15581 -0.020799 0.0039771 0.0057254 -0.0015804 -0.001619 0.0017192
0.0021532 -0.00036637 -0.00023079 -0.0010945
-0.020794 0.0040055 0.10953 0.33888 -0.0066662 0.015551 0.0017358 0.00025138
0.00098127 -0.0013412 0.0012574 -0.00055048
0.0057181 -0.0016113 -0.0066503 0.015624 0.35555 0.0083254 -0.0010828 -0.0013789
0.00015326 -0.00022681 0.00069977 -0.00026148
-0.0015944 0.0016611 0.0017681 0.00021361 -0.0010952 -0.001389 0.19857 0.17956
-0.015532 -0.0042142 -0.0011622 0.0019091
0.0021083 -0.00041601 0.00098239 -0.0013678 0.00012557 -0.00023836 -0.015527 -0.0041811
0.1174 0.21055 -0.011552 -0.0034935
-0.00018279 -0.0010814 0.0012926 -0.00055613 0.00068165 -0.00029929 -0.0011924 0.0019369
-0.011537 -0.0034737 0.15198 0.2844
1520000000 0.28112 0.11436 -0.015424 0.0097445 0.0034237 -0.0041957 6.8936e-05 0.0025362
0.0022124 -0.0017319 -0.0011621 -0.00021341
-0.015423 0.0097934 0.14365 0.32469 0.001241 0.013519 0.0016656 -0.0007454
6.7757e-05 -0.0011602 0.00033642 -0.0010411
0.0034376 -0.004217 0.0012849 0.013539 0.34908 -0.048016 -0.0010891 -0.00037403
0.00062418 -0.00085912 0.0001035 -7.919e-05
5.8192e-05 0.0025515 0.0016691 -0.00076851 -0.0010808 -0.00036385 0.22193 0.14113
-0.015512 0.0017042 0.0013092 0.0021385
0.0021568 -0.0018211 0.0001251 -0.00118 0.00062287 -0.00080743 -0.015521 0.001707
0.14476 0.19752 -0.011758 0.0010485
-0.0011956 -0.00020832 0.00030675 -0.0011101 7.5738e-05 -4.7374e-05 0.0013588 0.0021423
-0.011786 0.00099997 0.1852 0.26429
1580000000 0.29167 0.068764 -0.0088905 0.013391 -0.00096527 -0.0050122 0.0014916 0.0019617
-2.6614e-05 -0.0021704 -0.00035957 0.00022915
-0.0088222 0.013409 0.17169 0.30041 0.0052291 0.008676 0.00055296 -0.0015418
-0.00056625 -0.0011591 -0.00019177 -0.00090264
-0.00093295 -0.0050143 0.005271 0.0086796 0.32945 -0.10537 -0.0016955 0.00059334
-0.00021391 -0.0011773 0.0002536 -0.00055566
0.0014915 0.0018877 0.00056093 -0.0015848 -0.0016841 0.00057553 0.23608 0.10157
-0.012518 0.007046 0.0021218 0.00087348
-5.3704e-05 -0.0021877 -0.00057293 -0.0011621 -0.00025438 -0.0011578 -0.012472 0.0070855
0.16935 0.18053 -0.0095509 0.0068208
-0.00035587 0.00029513 -0.00016917 -0.00092839 0.00026158 -0.00064632 0.0020998 0.00087633
-0.0095836 0.0068076 0.21744 0.23801
1640000000 0.29471 0.027271 -0.0020155 0.012566 -0.0029174 -0.0025867 0.0026824 0.0010839
-0.00065798 -0.0016919 -0.00038829 0.00070415
-0.0019403 0.012552 0.20208 0.27545 0.0060749 0.0036854 -0.00057638 -0.0018221
-0.0011039 -0.00043175 -0.00052825 -0.00071197
-0.0028632 -0.0026145 0.006137 0.0036983 0.30107 -0.15522 -0.00076313 0.0014651
-0.0010682 -0.0010411 -0.00021524 -0.00019711
0.0026696 0.0010671 -0.00059658 -0.0018096 -0.00074932 0.0014746 0.2487 0.05224
-0.0083139 0.0090406 0.0024893 -0.00061472
-0.00072182 -0.0017283 -0.0011374 -0.00047304 -0.0010623 -0.0010362 -0.0083551 0.0090899
0.19291 0.15717 -0.005055 0.0090684
-0.00040863 0.00069498 -0.00058029 -0.00068636 -0.00022755 -0.00019271 0.0026084 -0.00069423
-0.0051213 0.0090184 0.24344 0.20665
1700000000 0.28811 -0.018245 0.0016194 0.010023 -0.0036188 1.021e-05 0.0032058 -0.0011649
-0.0020045 -0.00077677 0.00051979 0.00057432
0.0016531 0.0099905 0.22056 0.2439 0.00411 0.00062543 -0.0014415 -0.0006452
-0.0008804 3.6701e-05 -0.00099772 -0.00051919
-0.0036363 0.00011653 0.0040994 0.00058929 0.25768 -0.19473 0.00040317 0.001726
-0.0020966 -0.00027952 -0.00045021 -0.00095021
0.0031986 -0.0011737 -0.0014691 -0.00063087 0.00038196 0.0017182 0.24527 0.0017936
-0.005226 0.010175 0.001646 -0.0020431
-0.0020077 -0.0007471 -0.00093544 6.9e-05 -0.0020752 -0.00026596 -0.005187 0.010166
0.21072 0.13777 -0.00046691 0.0095297
0.00057162 0.00063132 -0.00096593 -0.00044366 -0.00040833 -0.00089848 0.0015698 -0.0019694
-0.00043572 0.0095224 0.25964 0.17268
1760000000 0.27691 -0.067155 0.0043827 0.0068121 -0.0022608 0.00097142 0.0014469 -0.0034029
-0.001382 0.0005656 0.00050188 -0.00049119
0.0044098 0.0067628 0.24716 0.20403 0.0018093 -0.0013753 -0.0012009 7.7066e-05
-0.0010252 0.0010154 -0.0005621 0.00036054
-0.0021808 0.00098349 0.0017946 -0.0013978 0.20963 -0.22768 0.0011902 0.0011353
-0.0012608 0.0014696 -0.0012791 -0.00073131
0.0014204 -0.0034279 -0.0012238 0.0001219 0.0011689 0.001141 0.23622 -0.049769
-0.0013277 0.0095811 -3.2538e-05 -0.0022983
-0.0014177 0.00061367 -0.0010703 0.0010347 -0.0013474 0.0014728 -0.0013359 0.0096625
0.22661 0.10383 0.0034258 0.007319
0.00048479 -0.00051728 -0.00057432 0.00039977 -0.0011346 -0.00069407 6.6475e-06 -0.0023667
0.0033837 0.0073966 0.27264 0.13514
1820000000 0.25253 -0.10507 0.0047894 0.0031136 -0.0001551 0.0025025 -0.00094471 -0.0031596
-0.0013233 0.0010137 -2.4606e-05 -0.00019413
0.0048047 0.0030898 0.25741 0.17359 -0.00055285 -0.00023612 -0.0013737 0.00091186
-1.0737e-05 0.0012585 -0.00060833 0.00054273
-7.3877e-05 0.0024212 -0.00051969 -0.00026995 0.15872 -0.24351 0.0015845 0.0002667
-0.00025593 0.0024152 -0.0012974 0.00042223
-0.00092208 -0.0031153 -0.0013936 0.00092915 0.0015585 0.00028991 0.20581 -0.097441
0.0007752 0.0081597 -0.0015215 -0.0015831
-0.0013117 0.0010436 3.6244e-06 0.0013093 -0.00028239 0.002328 0.00078815 0.0081083
0.24473 0.075089 0.0044405 0.0039836
-2.407e-05 -0.00028552 -0.00058757 0.00059693 -0.0014582 0.00058549 -0.0014916 -0.0015301
0.0044238 0.0039439 0.27499 0.099018
1880000000 0.21726 -0.1456 0.0026264 0.00055548 -0.00070783 0.0020466 -0.0029356 -0.0024105
-0.00039009 0.0019284 0.00017863 -0.00063396
0.0026339 0.00049934 0.26192 0.12704 -0.0025684 0.0016651 -0.00023715 0.0017443
0.0006576 0.0012471 5.6782e-05 0.00098359
-0.00062755 0.002182 -0.002603 0.001665 0.1068 -0.25217 0.0017053 -0.00094535
0.0015077 0.0019354 -0.0010665 0.0012308
-0.0028858 -0.0023461 -0.00017504 0.001756 0.0017749 -0.0009242 0.16451 -0.13725
0.0018144 0.00561 -0.0022346 6.6329e-05
-0.00032191 0.001989 0.00068939 0.0012853 0.0014609 0.0019949 0.0018276 0.0057391
0.24943 0.04371 0.0049622 0.0016904
0.0001438 -0.00056318 7.2357e-05 0.00091571 -0.00089569 0.0012097 -0.0022952 1.6946e-05
0.0049447 0.0016667 0.27506 0.065386
1940000000 0.17787 -0.1718 0.00036906 -0.0013958 0.0014388 0.0019935 -0.0038309 0.00057407
0.00134 0.0011991 -0.00076446 -0.00065363
0.00032462 -0.0014209 0.26292 0.09501 -0.0012149 0.0041002 0.0010045 0.0014462
0.0018175 0.0004435 0.00092484 0.000238
0.0014897 0.0019589 -0.0011308 0.0041673 0.061999 -0.24518 0.00046064 -0.0021095
0.0023554 0.00052153 0.00031474 0.0015041
-0.0039432 0.00044671 0.0010545 0.0013852 0.00044982 -0.002081 0.11193 -0.1679
0.0012377 0.0041024 -0.0014757 0.0012049
0.0013688 0.0010702 0.001944 0.00042406 0.0023411 0.00048309 0.0012619 0.0040209
0.25345 0.00535 0.0039331 -0.0016821
-0.00061857 -0.00065947 0.00092596 0.00024685 0.00024387 0.0016615 -0.0014634 0.0013777
0.0039084 -0.0015466 0.26481 0.029101
2000000000 0.13136 -0.18639 -0.0035774 0.00065652 0.0026161 0.0018301 -0.0023371 0.0036602
0.0013415 0.00034119 -0.00046376 0.0004083
-0.0035961 0.000642 0.24846 0.059444 -0.000895 0.0060227 0.0017319 0.00047826
0.0013238 -0.0011642 0.00061317 0.00020387
0.0026231 0.0016962 -0.00081925 0.0060254 0.018875 -0.23123 -0.0010748 -0.0013468
0.0021297 -0.0010547 0.0016952 0.0014803
-0.0022105 0.0036967 0.0016925 0.00038269 -0.0010907 -0.0013809 0.057947 -0.17696
-0.00036777 0.0035116 -0.000227 0.0022317
0.0013907 0.00034788 0.0013527 -0.001278 0.0021754 -0.0010559 -0.00032967 0.0035716
0.24883 -0.028404 0.00076565 -0.0026462
