!Keysight Technologies,M9804A,MY58100912,A.14.10.03
!Date: Thursday, April 27, 2023 10:28:33
!Correction: S11(C  6-Port  ) 
!S12(C  6-Port  ) 
!S13(C  6-Port  ) 
!S14(C  6-Port  ) 
!S15(C  6-Port  ) 
!S16(C  6-Port  ) 
!S21(C  6-Port  ) 
!S22(C  6-Port  ) 
!S23(C  6-Port  ) 
!S24(C  6-Port  ) 
!S25(C  6-Port  ) 
!S26(C  6-Port  ) 
!S31(C  6-Port  ) 
!S32(C  6-Port  ) 
!S33(C  6-Port  ) 
!S34(C  6-Port  ) 
!S35(C  6-Port  ) 
!S36(C  6-Port  ) 
!S41(C  6-Port  ) 
!S42(C  6-Port  ) 
!S43(C  6-Port  ) 
!S44(C  6-Port  ) 
!S45(C  6-Port  ) 
!S46(C  6-Port  ) 
!S51(C  6-Port  ) 
!S52(C  6-Port  ) 
!S53(C  6-Port  ) 
!S54(C  6-Port  ) 
!S55(C  6-Port  ) 
!S56(C  6-Port  ) 
!S61(C  6-Port  ) 
!S62(C  6-Port  ) 
!S63(C  6-Port  ) 
!S64(C  6-Port  ) 
!S65(C  6-Port  ) 
!S66(C  6-Port  ) 
!S6P File: Measurement: :
# Hz S  RI   R 50
500000000 -0.33386 -0.05745 -0.010279 -0.0013137 -0.0079543 0.013118 -0.0037555 0.012144
0.012598 0.0054755 -0.003949 0.0086454
-0.010352 -0.0013537 -0.41483 -0.065822 0.0087917 -0.010677 0.0012334 0.011982
0.0083311 0.0025652 0.0015159 0.013862
-0.0080263 0.013231 0.008737 -0.010754 -0.2668 0.19679 0.0070082 0.0037436
-0.0015962 0.0081101 0.0010664 0.012554
-0.0039162 0.012201 0.0012834 0.011973 0.0070034 0.0038003 -0.33081 0.041643
-0.018836 -0.0033383 0.017334 0.024787
0.012625 0.0052167 0.0084138 0.002562 -0.0016015 0.0081123 -0.018815 -0.0033232
-0.24456 -0.202 -0.0276 0.0062439
-0.0041227 0.0086323 0.0016702 0.013756 0.0010715 0.012545 0.017267 0.024711
-0.02748 0.0062335 -0.26777 -0.12795
560000000 -0.31877 0.11073 -0.022403 -0.065549 0.00038552 0.013271 0.005522 0.010903
0.011771 0.0049627 0.010101 0.0089417
-0.022415 -0.065407 -0.37482 0.097436 -0.041421 -0.038964 0.014057 0.0040152
-0.013844 -0.0042497 0.0051917 -0.0015958
0.00045689 0.013347 -0.0416 -0.038903 -0.18574 0.24952 -0.0010963 -0.0052162
0.017862 0.0056621 0.0085926 -0.0063964
0.0055842 0.010747 0.01413 0.0039833 -0.0011376 -0.0053083 -0.30647 0.13453
0.0054065 -0.024647 0.0048875 -0.02074
0.011701 0.0048289 -0.013859 -0.0041457 0.017829 0.0056767 0.0053231 -0.024594
-0.30974 -0.022138 0.0094121 -0.048553
0.010262 0.0087849 0.0052786 -0.0015919 0.008614 -0.0063643 0.0048483 -0.020761
0.0092756 -0.04857 -0.33116 0.019014
620000000 -0.27749 0.090097 -0.022729 0.0087055 0.0039523 0.009321 0.0082218 -0.0042058
0.011339 -0.0018989 0.00041399 -0.0019232
-0.022741 0.0086588 -0.4031 0.045806 -0.018411 0.00031045 -0.0015587 -0.0018529
0.012083 -0.0065512 0.00079588 -0.00321
0.0039815 0.009294 -0.018445 0.00032856 -0.15566 0.25796 -0.00059095 -0.0050985
-0.0038467 -0.0029635 0.009329 -0.0032468
0.0081358 -0.0040875 -0.0015645 -0.001824 -0.00054803 -0.0050248 -0.26521 0.14464
-0.038573 -0.019929 0.013497 0.0269
0.011564 -0.0018767 0.012052 -0.0065864 -0.0039054 -0.0030187 -0.038607 -0.019904
-0.22959 -0.055555 -0.041954 0.012887
0.00042073 -0.0020152 0.00069969 -0.0032264 0.0093533 -0.003235 0.013421 0.026843
-0.041909 0.012877 -0.24863 -0.014175
680000000 -0.24057 0.18114 -0.026277 -0.015167 0.0048906 0.0051492 0.00092705 -0.007376
-0.0014883 -0.01136 0.0048339 -0.0064456
-0.026313 -0.01519 -0.3908 0.1473 -0.032268 -0.0022594 -0.0015864 -0.00035707
-0.001839 -0.0087774 -0.0011652 -0.0018465
0.0048669 0.0050995 -0.032259 -0.0022267 -0.10487 0.27968 -0.00089784 -0.00016478
-0.0016607 0.00063401 -0.0019731 -0.0090832
0.00091486 -0.0075069 -0.0015611 -0.00037299 -0.00094504 -0.00016319 -0.22116 0.19633
-0.023206 -0.0082411 -0.0085812 -0.011652
-0.001619 -0.011365 -0.0018855 -0.0087684 -0.0016741 0.00065293 -0.023222 -0.0082299
-0.27986 0.047316 -0.005513 -0.0079346
0.0047864 -0.0062977 -0.0011391 -0.0018628 -0.0020111 -0.0090324 -0.008589 -0.011664
-0.0055331 -0.0079271 -0.26172 0.091724
740000000 -0.19429 0.17428 -0.040078 0.026303 0.013768 -0.0048193 -0.00018199 -0.0041116
-0.0049843 -0.0021434 -0.0058364 0.0029139
-0.040219 0.026268 -0.33584 0.16582 -0.037006 0.034446 8.1144e-05 -0.0061047
-0.011374 0.0075819 -0.0015432 -0.005748
0.013707 -0.0049293 -0.036936 0.034574 -0.070624 0.27679 -0.0019386 0.0032629
-0.0025245 -0.0053455 -0.0015802 0.00093473
-5.1333e-05 -0.004203 7.5163e-05 -0.0060975 -0.0019148 0.0032264 -0.20439 0.20339
-0.041373 -0.0081382 0.021251 0.015173
-0.0049554 -0.002193 -0.011443 0.0075453 -0.0025674 -0.0053134 -0.041339 -0.0081288
-0.18182 0.075385 -0.040074 0.00066459
-0.0058336 0.0028291 -0.0014042 -0.0057004 -0.00158 0.00092653 0.02121 0.015288
-0.040031 0.00060553 -0.25143 0.094904
800000000 -0.16371 0.21926 -0.022857 0.016166 0.0056256 -0.010418 -0.0047118 -0.0022519
-0.0043466 0.0021503 0.0045449 0.00044515
-0.022864 0.016148 -0.34267 0.23724 -0.0088242 0.03402 -0.0023763 0.002059
-0.0010094 0.0024508 0.00087301 0.0053471
0.0055898 -0.010431 -0.0087284 0.034079 -0.032295 0.30144 0.00072397 0.0013737
9.1445e-05 0.0034068 -0.0019759 0.00082794
-0.0047639 -0.002213 -0.002356 0.0020596 0.00073759 0.0013937 -0.17463 0.23096
-0.02851 0.013299 0.013566 -0.010339
-0.0042729 0.0022357 -0.0010262 0.0024685 9.5602e-05 0.0034061 -0.028498 0.013338
-0.2245 0.10183 -0.018145 0.020384
0.004635 0.00047588 0.00089413 0.0053281 -0.0019554 0.00085217 0.013599 -0.01038
-0.018193 0.020364 -0.2425 0.1455
860000000 -0.12936 0.23948 -0.018448 0.030626 -0.002942 -0.010062 -0.0021167 0.00043754
0.0038228 0.0050702 -0.003603 -0.0030384
-0.018539 0.030601 -0.29452 0.28054 0.0069369 0.034368 -7.1549e-05 0.0020194
0.0035844 0.00028601 0.002682 0.00015936
-0.0030134 -0.010089 0.0070523 0.034353 0.015714 0.30984 -0.00071015 -0.00012888
0.0025293 -0.0015346 0.0014378 0.0043999
-0.0022046 0.00034372 -7.4069e-05 0.0020155 -0.0007527 -0.000158 -0.13805 0.24221
-0.018387 0.018172 -0.0064556 -0.0088738
0.0039867 0.0050598 0.0035869 0.00028336 0.0025364 -0.0015558 -0.018394 0.018183
-0.1678 0.1561 -0.024499 0.016351
-0.0037785 -0.0030807 0.0027131 0.00014642 0.0014243 0.0044084 -0.0064411 -0.0087603
-0.024495 0.01631 -0.19159 0.19211
920000000 -0.10569 0.26298 0.0040737 0.038592 -0.0091447 -0.0048283 -0.0021492 0.0018832
0.00073071 0.0020551 0.0027079 -0.0011985
0.0040516 0.038585 -0.26691 0.30194 0.027854 0.023152 0.001403 0.0014614
0.0071852 8.7491e-05 0.0042231 -0.0026739
-0.0092074 -0.0048462 0.027963 0.023091 0.060889 0.31107 0.0018739 0.00017644
0.00090712 8.2348e-05 0.0011209 -0.0012071
-0.0021247 0.0017946 0.0013859 0.0014659 0.0018845 0.00016463 -0.11368 0.25873
-0.0113 0.030782 0.0038256 -0.0068071
0.00090229 0.0020662 0.0072493 5.5729e-05 0.00089778 9.1958e-05 -0.011272 0.030826
-0.15759 0.16209 -0.0021318 0.027239
0.002746 -0.0013302 0.0042024 -0.0027184 0.0011127 -0.001214 0.003728 -0.0068002
-0.0020912 0.027265 -0.19983 0.20375
980000000 -0.058976 0.28388 0.016696 0.03048 -0.0092926 0.0043045 0.0019403 0.0039519
0.0039766 -0.0015309 -0.0029803 -0.0022642
0.016685 0.030434 -0.21386 0.33725 0.033129 0.0058449 0.0020843 6.2895e-07
0.0018471 -0.0061835 -0.000329 -0.0024394
-0.0092688 0.004317 0.033202 0.0057678 0.10658 0.30567 0.00077272 -0.0010948
0.0006031 -0.0019153 0.0016437 -0.00024476
0.0019379 0.003922 0.0020589 -2.6895e-06 0.00078013 -0.0010805 -0.075114 0.26992
0.0070941 0.029648 -0.009268 -0.0072642
0.003959 -0.001494 0.0018272 -0.0061723 0.00059076 -0.0019247 0.0071283 0.029657
-0.12362 0.19241 0.0051934 0.019447
-0.002981 -0.0021847 -0.00034137 -0.0024457 0.0016451 -0.00025621 -0.0091996 -0.0072606
0.0051629 0.01943 -0.15713 0.25001
1040000000 -0.0174 0.29282 0.03285 0.019652 -0.001327 0.007007 0.0026143 0.00084459
1.7695e-05 -0.0035216 -1.8256e-05 -0.0015086
0.03279 0.019674 -0.17876 0.35058 0.030114 -0.014148 0.0016485 -0.0017681
-0.0022427 -0.0025244 -0.00082708 -0.0028347
-0.001324 0.0070018 0.030105 -0.014276 0.15232 0.29253 -0.00035751 -0.0016936
-0.0015867 -0.00099698 -0.00039948 -0.001184
0.0026249 0.00070063 0.001632 -0.0017562 -0.00032718 -0.0016919 -0.047878 0.27955
0.018606 0.019046 -0.002264 0.0014161
-2.8376e-05 -0.003519 -0.0022404 -0.002523 -0.0015779 -0.0010052 0.018665 0.019048
-0.090331 0.20038 0.013602 0.018803
-5.6235e-05 -0.0015105 -0.00080743 -0.0028092 -0.00038927 -0.0011842 -0.0022865 0.0014298
0.013614 0.018802 -0.13436 0.27032
1100000000 0.027625 0.30236 0.036559 -0.0030443 0.0029352 0.0041349 0.0025154 -0.0010418
-0.0019899 -0.0029651 -0.003878 -0.00035939
0.036546 -0.0029922 -0.13572 0.369 0.016222 -0.02757 0.00010833 -0.0018132
-0.0033562 -0.00090594 -0.0034269 -0.00077649
0.002947 0.0041235 0.016139 -0.027657 0.19793 0.27369 -0.0018841 4.4867e-05
-0.0018376 0.00038248 -0.0011163 -0.00058128
0.0025664 -0.001043 9.4597e-05 -0.0018058 -0.0018865 4.573e-05 -0.0078198 0.28497
0.024535 0.0062144 -0.0022111 0.00027898
-0.0020174 -0.0029553 -0.0033639 -0.00091244 -0.0018332 0.0003892 0.024551 0.00618
-0.07021 0.214 0.019467 0.0091975
-0.0038324 -0.00032741 -0.0034548 -0.00070802 -0.0011097 -0.00057376 -0.0021743 0.00026749
0.019444 0.009215 -0.08873 0.29881
1160000000 0.078799 0.29867 0.024914 -0.020027 0.002882 -0.00051944 -0.00011453 -0.0024712
-0.0040177 -0.00070184 -0.00090099 0.0041602
0.024899 -0.019948 -0.092368 0.37348 -0.0028103 -0.029377 -0.0016353 -0.0016198
-0.0028834 0.0024485 -0.0015412 0.0018804
0.0028746 -0.00052661 -0.0029074 -0.029387 0.24131 0.24422 -0.00088884 0.0016781
-0.00071113 0.0018971 -0.0010159 0.00038322
-0.00014743 -0.0024798 -0.0016709 -0.0016199 -0.00086258 0.0016673 0.03169 0.28223
0.021293 -0.0096829 -0.0030662 0.0052754
-0.004008 -0.00074038 -0.0028348 0.002417 -0.0007101 0.0018942 0.021267 -0.0097138
-0.035437 0.22206 0.018568 7.0353e-05
-0.0008705 0.0042202 -0.0016065 0.0019262 -0.0010192 0.00036356 -0.0031102 0.0053229
0.018548 4.4003e-05 -0.042272 0.30139
1220000000 0.12263 0.28871 0.011723 -0.029943 -0.0015048 -0.0011326 -7.0395e-05 -0.00088474
-0.0028282 0.0022122 0.0010432 0.0020799
0.011733 -0.029918 -0.048651 0.38687 -0.016446 -0.022102 -0.0026625 0.000455
-0.00013015 0.0029952 -0.00086663 0.0019347
-0.0015076 -0.001126 -0.016571 -0.022049 0.28069 0.20625 0.00070302 0.00172
0.0004744 0.0012378 0.00031466 0.00061719
-5.8952e-05 -0.00088662 -0.0026612 0.00046955 0.00069442 0.0017321 0.071365 0.27393
0.011329 -0.016461 0.0023808 0.0012721
-0.002824 0.0021979 -9.5183e-05 0.0030094 0.00046867 0.0012335 0.011303 -0.01647
-0.011741 0.2304 0.014153 -0.012555
0.001028 0.0020482 -0.00086593 0.0019359 0.0003153 0.00062004 0.0023991 0.0012446
0.01417 -0.012566 -0.010855 0.31734
1280000000 0.17302 0.26859 -0.0069588 -0.028932 -0.0020563 0.00227 -0.00083903 -0.0020215
-0.00078452 0.0030953 0.0024793 0.0013842
-0.0069227 -0.028911 -0.0027533 0.37896 -0.023839 -0.0093459 -0.0010192 0.0013741
0.0016098 0.0016292 0.00053425 0.0021491
-0.0020382 0.0022916 -0.02391 -0.0092597 0.31204 0.16335 0.0014649 8.034e-05
0.0011431 0.00029602 0.00034353 0.00021732
-0.00084557 -0.0019988 -0.0010146 0.0013799 0.0014416 6.2211e-05 0.10852 0.25825
0.0018819 -0.019038 8.3333e-05 8.3629e-05
-0.00078382 0.0030944 0.0016063 0.0016235 0.001151 0.00028509 0.0018536 -0.019065
0.025086 0.23375 0.0032985 -0.014618
0.0025036 0.0013693 0.00056662 0.002154 0.00033032 0.000219 5.0464e-05 0.0001094
0.0032846 -0.014623 0.036556 0.31999
1340000000 0.21039 0.23563 -0.016941 -0.01983 0.00060755 0.0046436 -0.0017197 -0.00079912
0.0013814 0.0026994 0.0017777 -0.0013181
-0.016908 -0.01982 0.036709 0.37182 -0.022019 0.003578 -0.00020057 0.0020212
0.0019576 0.00087373 0.0011646 0.00083445
0.00061979 0.0046345 -0.022014 0.003701 0.33498 0.11602 0.0010847 -0.00085996
0.00062859 -0.00055116 3.2489e-06 0.00027343
-0.0017177 -0.00080473 -0.00019621 0.0020362 0.0010826 -0.00084619 0.14176 0.23751
-0.0076349 -0.016996 0.00086103 0.00035442
0.0014057 0.0026875 0.0019635 0.00085664 0.00062898 -0.0005635 -0.0076758 -0.016978
0.054968 0.22881 -0.0032761 -0.013639
0.0017868 -0.0013339 0.0011609 0.0008273 -9.2967e-07 0.00028261 0.00088031 0.00033414
-0.0032848 -0.013627 0.074221 0.3151
1400000000 0.24428 0.19906 -0.023314 -0.0084014 0.0051651 0.0034851 -0.0022208 0.0005612
0.0024145 0.00097651 0.000361 -0.0016136
-0.023282 -0.0084072 0.074396 0.36005 -0.015574 0.01219 0.0012644 0.0013626
0.0012836 -0.00067063 0.0011717 0.00017872
0.0051963 0.0034496 -0.01555 0.012284 0.34867 0.062749 0.00014233 -0.0016085
9.631e-05 -0.00030953 0.00040944 0.00013431
-0.0021915 0.00057759 0.0012669 0.0013577 0.00010716 -0.0016306 0.17146 0.20882
-0.013854 -0.01055 -0.0010299 -0.00038261
0.0024423 0.00095648 0.0012918 -0.00066733 0.0001067 -0.00032164 -0.013878 -0.010532
0.087866 0.22465 -0.0095652 -0.0091013
0.00038953 -0.0016335 0.0011827 0.0001528 0.00039491 0.0001415 -0.0010527 -0.00036578
-0.0095576 -0.0091074 0.11836 0.30474
1460000000 0.26789 0.15593 -0.02074 0.003917 0.0056967 -0.0016246 -0.0015802 0.0016992
0.0021523 -0.00034601 -0.00016777 -0.0010593
-0.020701 0.0039003 0.10942 0.33894 -0.0066961 0.015587 0.0017248 0.00021654
0.00098021 -0.0013466 0.0012618 -0.00052659
0.0056956 -0.0016538 -0.0066052 0.01564 0.35572 0.0084387 -0.001128 -0.0013771
0.00012312 -0.00020201 0.00071545 -0.00019387
-0.0015936 0.0016683 0.0017161 0.00020547 -0.0011194 -0.0013755 0.19849 0.17961
-0.015471 -0.0041958 -0.0011565 0.0019115
0.0021473 -0.000354 0.00098518 -0.0013481 0.00012788 -0.0002 -0.015488 -0.0041592
0.11754 0.21076 -0.01154 -0.0034075
-0.00019282 -0.0010153 0.0012592 -0.00052065 0.00072879 -0.00022331 -0.0011281 0.001888
-0.011521 -0.0034145 0.1522 0.28445
1520000000 0.28102 0.11451 -0.015416 0.0096825 0.0034333 -0.0042823 2.8479e-05 0.0025627
0.0021781 -0.0017656 -0.0011931 -0.00021482
-0.015412 0.0096689 0.14356 0.32474 0.0012813 0.013526 0.001666 -0.00075254
0.0001108 -0.0011395 0.00036255 -0.0010766
0.0034047 -0.0042989 0.0013381 0.013535 0.34916 -0.047845 -0.0010877 -0.00041304
0.00066152 -0.00077715 0.00011862 -8.8354e-05
7.3468e-05 0.0025409 0.0016638 -0.00075859 -0.0010923 -0.00042404 0.22195 0.14108
-0.015471 0.0016866 0.0013221 0.0020818
0.0021614 -0.0017763 0.00010306 -0.0011538 0.00065308 -0.00078686 -0.015471 0.0017083
0.14512 0.19767 -0.011601 0.0010188
-0.0012006 -0.00022213 0.00035076 -0.0010723 0.00011364 -7.65e-05 0.0013059 0.0020904
-0.011596 0.0010078 0.1853 0.26421
1580000000 0.29161 0.068966 -0.008887 0.013339 -0.00093828 -0.0049458 0.0014716 0.001933
-2.1737e-05 -0.0021842 -0.00035072 0.00026264
-0.0088803 0.013312 0.17162 0.30042 0.0052197 0.0086972 0.00053751 -0.0015766
-0.0005764 -0.0011834 -0.00017586 -0.00089332
-0.00095702 -0.0049557 0.0052791 0.0086773 0.32941 -0.10547 -0.0017103 0.00054646
-0.0002594 -0.0012087 0.00026921 -0.00062364
0.0014638 0.0019393 0.000524 -0.0015754 -0.0016773 0.00055896 0.23606 0.10168
-0.012475 0.0070337 0.0021063 0.00084914
-5.2911e-05 -0.0021903 -0.0005798 -0.0011808 -0.00026503 -0.0012032 -0.012477 0.0071018
0.16962 0.18049 -0.0095384 0.0068394
-0.00033991 0.0002624 -0.00017062 -0.00089036 0.0002662 -0.00064171 0.002108 0.00081009
-0.0095436 0.0068466 0.21768 0.23794
1640000000 0.29478 0.027453 -0.0020418 0.012514 -0.0029033 -0.0026744 0.0026727 0.0010793
-0.00068622 -0.0016579 -0.00039961 0.00067076
-0.0020485 0.012511 0.20196 0.27549 0.0061274 0.0036985 -0.00060773 -0.0018016
-0.0011151 -0.00045492 -0.00052371 -0.0007184
-0.0029044 -0.0026647 0.006158 0.0036557 0.30121 -0.15496 -0.00078719 0.0014854
-0.0010819 -0.0010926 -0.00016138 -0.00026316
0.0026799 0.0010758 -0.00061224 -0.0017958 -0.00077349 0.0014828 0.24879 0.052255
-0.0082763 0.0090967 0.0024899 -0.00066417
-0.00069943 -0.0016545 -0.0011301 -0.00043552 -0.0010843 -0.0010935 -0.0082296 0.0090761
0.19318 0.1572 -0.0050085 0.0089627
-0.00038049 0.00067494 -0.00051359 -0.0007227 -0.000161 -0.00027466 0.0024757 -0.00064461
-0.0050202 0.0089705 0.24342 0.20666
1700000000 0.28821 -0.018113 0.0015966 0.010008 -0.0036418 6.111e-05 0.0032156 -0.0011525
-0.0019935 -0.00080308 0.00053426 0.00057181
0.0015992 0.0099902 0.2205 0.24396 0.0041019 0.00061074 -0.0014255 -0.00065875
-0.00087994 5.2096e-05 -0.000978 -0.00049875
-0.003635 8.5857e-05 0.004112 0.00057687 0.25769 -0.19459 0.00044345 0.0017576
-0.0019788 -0.00016182 -0.00044754 -0.00089796
0.0031817 -0.0011588 -0.0014363 -0.0006568 0.0004664 0.0017459 0.24523 0.0018709
-0.0051941 0.010046 0.0015968 -0.002003
-0.002015 -0.00079379 -0.00088272 5.2574e-05 -0.0019871 -0.00016569 -0.0051649 0.010119
0.21093 0.13761 -0.00045229 0.0095323
0.00051959 0.00056728 -0.00099104 -0.00049131 -0.00046131 -0.00089645 0.0016089 -0.0020682
-0.00046228 0.0095405 0.25984 0.1725
1760000000 0.277 -0.067162 0.0043856 0.0068127 -0.0022228 0.00098975 0.0014667 -0.0033933
-0.001387 0.00054484 0.00041581 -0.00046744
0.0043699 0.0067971 0.24709 0.20409 0.0018134 -0.0013919 -0.0012359 0.00011661
-0.0010673 0.00099721 -0.00062905 0.00041191
-0.0022121 0.00097661 0.0018077 -0.0014031 0.20988 -0.22778 0.0011772 0.0010991
-0.0013394 0.0014236 -0.001158 -0.00067646
0.0014707 -0.0034245 -0.0012381 0.00012278 0.0011448 0.0010998 0.23623 -0.049845
-0.0013404 0.0095569 -5.8259e-05 -0.0023792
-0.001386 0.00054928 -0.0010702 0.0010258 -0.0013398 0.0014282 -0.0013125 0.0095105
0.22672 0.1036 0.0034295 0.0072177
0.00041717 -0.00050372 -0.00060854 0.00040454 -0.0011642 -0.00064268 -5.1914e-05 -0.0023362
0.0034373 0.007228 0.27281 0.13522
1820000000 0.25263 -0.10505 0.004821 0.0031082 -4.155e-05 0.0024716 -0.00090524 -0.0031616
-0.0013214 0.0010078 -3.935e-05 -0.00016959
0.0048023 0.0031141 0.25741 0.17367 -0.00050586 -0.0001961 -0.0013969 0.00089041
3.3422e-05 0.0012717 -0.00062342 0.00050287
-2.865e-05 0.0024688 -0.00049235 -0.00019473 0.15868 -0.24337 0.0016597 0.0004114
-0.00024662 0.0023974 -0.0014235 0.00040986
-0.00093104 -0.0031503 -0.0013994 0.00090054 0.0016429 0.0003308 0.20583 -0.097317
0.00070096 0.0080753 -0.0016043 -0.0015638
-0.0013044 0.0010145 3.0852e-05 0.0012777 -0.00023945 0.0023994 0.0007455 0.0081242
0.24475 0.074808 0.0044479 0.0038222
-4.6171e-05 -0.00018312 -0.00061336 0.00052699 -0.0014574 0.00042417 -0.0016288 -0.0015876
0.0044469 0.0038268 0.27501 0.098611
1880000000 0.21743 -0.14571 0.0026452 0.00054456 -0.00068761 0.0021538 -0.0029527 -0.0023451
-0.00031884 0.0018948 0.00011873 -0.00053
0.0026574 0.00054851 0.2619 0.12709 -0.002591 0.0016524 -0.0002332 0.0017572
0.00064057 0.0012831 4.7963e-05 0.0010136
-0.00064013 0.0021663 -0.0025782 0.0016799 0.10682 -0.25234 0.0016978 -0.00094584
0.0015045 0.0020028 -0.00091976 0.0013035
-0.0030046 -0.0024013 -0.00021834 0.0017565 0.0017118 -0.00092146 0.16459 -0.13738
0.001854 0.0056994 -0.00222 0.00017915
-0.00033272 0.0018746 0.0006451 0.0012809 0.0015068 0.0019984 0.0018313 0.0056199
0.24945 0.043591 0.0048602 0.0017496
0.0001257 -0.00052609 6.253e-05 0.0010016 -0.00091114 0.0013061 -0.0021782 0.00021382
0.004845 0.001721 0.27523 0.065322
1940000000 0.17786 -0.17179 0.00037014 -0.0013671 0.0014963 0.0020207 -0.0038824 0.00043393
0.0013578 0.0011848 -0.00072735 -0.00070652
0.0003712 -0.00137 0.26279 0.095086 -0.0012236 0.0041533 0.001022 0.0013734
0.0019196 0.00042038 0.00092217 0.00028432
0.0015106 0.0020042 -0.0011955 0.0041527 0.061948 -0.245 0.00053352 -0.0021449
0.0024054 0.0004771 0.00033964 0.0015488
-0.0038559 0.00053551 0.0010257 0.0013736 0.00053299 -0.0021989 0.11174 -0.16767
0.0011409 0.0040746 -0.0014852 0.0012456
0.0013675 0.0011796 0.0019014 0.00038294 0.0024249 0.00046143 0.001191 0.0041542
0.25328 0.0051796 0.0038456 -0.0016355
-0.00073485 -0.00073779 0.00094056 0.00028958 0.00032379 0.0015535 -0.0014913 0.0012071
0.0038423 -0.0016167 0.26471 0.029044
2000000000 0.13142 -0.18623 -0.0035971 0.00067803 0.0025351 0.0018338 -0.0022402 0.0036416
0.0013573 0.00043034 -0.00043533 0.00046635
-0.0035901 0.0006774 0.2483 0.059531 -0.0009299 0.0060089 0.0017916 0.00050009
0.0013184 -0.0011419 0.00062952 0.00017766
0.0025679 0.0018003 -0.00090516 0.0060298 0.018806 -0.23105 -0.0012111 -0.0013753
0.0021379 -0.001088 0.00158 0.001516
-0.0023214 0.0036725 0.0017979 0.00048087 -0.001153 -0.0013165 0.057972 -0.17715
-0.0003322 0.0035955 -0.00019986 0.0020995
0.0013714 0.00041432 0.0013239 -0.0011544 0.0021287 -0.0010764 -0.00036517 0.0035592
0.24873 -0.028482 0.00070135 -0.002654
