!Keysight Technologies,M9804A,MY58100912,A.14.10.03
!Date: Thursday, April 27, 2023 10:28:33
!Correction: S11(C  6-Port  ) 
!S12(C  6-Port  ) 
!S13(C  6-Port  ) 
!S14(C  6-Port  ) 
!S15(C  6-Port  ) 
!S16(C  6-Port  ) 
!S21(C  6-Port  ) 
!S22(C  6-Port  ) 
!S23(C  6-Port  ) 
!S24(C  6-Port  ) 
!S25(C  6-Port  ) 
!S26(C  6-Port  ) 
!S31(C  6-Port  ) 
!S32(C  6-Port  ) 
!S33(C  6-Port  ) 
!S34(C  6-Port  ) 
!S35(C  6-Port  ) 
!S36(C  6-Port  ) 
!S41(C  6-Port  ) 
!S42(C  6-Port  ) 
!S43(C  6-Port  ) 
!S44(C  6-Port  ) 
!S45(C  6-Port  ) 
!S46(C  6-Port  ) 
!S51(C  6-Port  ) 
!S52(C  6-Port  ) 
!S53(C  6-Port  ) 
!S54(C  6-Port  ) 
!S55(C  6-Port  ) 
!S56(C  6-Port  ) 
!S61(C  6-Port  ) 
!S62(C  6-Port  ) 
!S63(C  6-Port  ) 
!S64(C  6-Port  ) 
!S65(C  6-Port  ) 
!S66(C  6-Port  ) 
!S6P File: Measurement: :
# Hz S  RI   R 50
500000000 -0.33414 -0.057442 -0.010193 -0.0014577 -0.0080522 0.013166 -0.0039381 0.012214
0.012684 0.0054403 -0.0040689 0.008636
-0.01029 -0.0014059 -0.41444 -0.065721 0.0087886 -0.010658 0.0013297 0.012004
0.0084962 0.0026473 0.0017107 0.014017
-0.0079941 0.01305 0.0088697 -0.010783 -0.2668 0.19678 0.0069806 0.0037313
-0.0014812 0.0080013 0.0011439 0.012475
-0.003744 0.012251 0.0012827 0.012069 0.0069759 0.003673 -0.33071 0.041861
-0.018921 -0.0033049 0.017071 0.024956
0.012767 0.0052316 0.0082745 0.0026603 -0.0015526 0.00805 -0.019046 -0.0032749
-0.2442 -0.20197 -0.027865 0.0060294
-0.0037094 0.0086093 0.0016918 0.013824 0.0011425 0.012343 0.017122 0.024961
-0.027654 0.0059597 -0.26833 -0.12865
560000000 -0.31825 0.11035 -0.022355 -0.065657 0.0003099 0.013395 0.0054674 0.010682
0.011477 0.0049886 0.010278 0.0087708
-0.022342 -0.065427 -0.37486 0.09809 -0.041757 -0.039224 0.014183 0.0041499
-0.013873 -0.0044765 0.0052801 -0.0015125
0.00035519 0.013414 -0.042444 -0.039261 -0.18547 0.24943 -0.0012418 -0.0052883
0.017892 0.005558 0.0088293 -0.0063651
0.0052132 0.01086 0.014422 0.0039589 -0.0012049 -0.0051591 -0.30645 0.13454
0.0052038 -0.024492 0.0047337 -0.02087
0.011269 0.0051548 -0.013958 -0.0049051 0.018034 0.0058325 0.0053571 -0.02466
-0.30915 -0.022711 0.0098266 -0.048306
0.010153 0.0082666 0.0056651 -0.0010282 0.0083998 -0.0062687 0.0047766 -0.020829
0.0096629 -0.048113 -0.33126 0.019287
620000000 -0.2775 0.090026 -0.022786 0.0087572 0.0039689 0.0092372 0.0081072 -0.0040945
0.011331 -0.0017824 0.00036632 -0.0020573
-0.022797 0.0087129 -0.40308 0.045682 -0.018421 0.00031071 -0.0015043 -0.0017092
0.012037 -0.0066176 0.00086382 -0.003108
0.0039566 0.0092096 -0.018443 0.00036164 -0.15569 0.25792 -0.00055204 -0.0050239
-0.0037385 -0.0028471 0.0094159 -0.003157
0.0082618 -0.0042275 -0.0014547 -0.0017811 -0.00062654 -0.005086 -0.26547 0.14459
-0.038162 -0.019901 0.013047 0.026732
0.011361 -0.0016773 0.011933 -0.0066418 -0.0037229 -0.0029113 -0.038292 -0.019919
-0.22963 -0.055645 -0.04134 0.012783
0.00032949 -0.0020918 0.00083441 -0.0030872 0.0092989 -0.0032884 0.013192 0.026828
-0.041113 0.012788 -0.24878 -0.014269
680000000 -0.24065 0.18138 -0.026224 -0.015251 0.0048211 0.0051347 0.00092726 -0.0075305
-0.0014496 -0.011451 0.0050122 -0.0062288
-0.026186 -0.015228 -0.39077 0.14729 -0.032297 -0.0022873 -0.0016107 -0.00032255
-0.0018316 -0.0088389 -0.0013417 -0.0017557
0.0048627 0.0051436 -0.032272 -0.0022555 -0.10485 0.27967 -0.00087487 -0.00013097
-0.0017787 0.00064214 -0.0020926 -0.009014
0.00075532 -0.0073951 -0.0015774 -0.00046444 -0.0008945 -0.00011605 -0.22091 0.19629
-0.023358 -0.0081804 -0.0086044 -0.011486
-0.0014881 -0.011624 -0.001726 -0.0088732 -0.0016681 0.00063615 -0.02328 -0.0082013
-0.28009 0.047254 -0.0056312 -0.007804
0.0051709 -0.0063894 -0.0010681 -0.0019143 -0.0020018 -0.0092303 -0.0086737 -0.011476
-0.0057199 -0.0077573 -0.26139 0.092085
740000000 -0.19441 0.17405 -0.040024 0.026387 0.01372 -0.004857 -4.9501e-06 -0.0041857
-0.0048341 -0.0021565 -0.0059199 0.0028176
-0.040059 0.026351 -0.33597 0.16563 -0.03703 0.034583 4.5598e-05 -0.0061284
-0.011604 0.0074337 -0.0014467 -0.0057013
0.013603 -0.0048074 -0.036848 0.034658 -0.07073 0.27679 -0.001855 0.0031833
-0.0025708 -0.0053955 -0.0015069 0.00075854
-0.00013924 -0.0042419 7.3548e-05 -0.0060153 -0.0018528 0.003233 -0.2043 0.20334
-0.04141 -0.0082565 0.021324 0.015203
-0.0048836 -0.0021223 -0.011492 0.0075392 -0.0025409 -0.0054104 -0.041584 -0.0080546
-0.18216 0.075017 -0.04012 0.00043291
-0.005919 0.002882 -0.0015109 -0.0056699 -0.0014557 0.00092031 0.021366 0.01518
-0.040002 0.00028429 -0.25134 0.09494
800000000 -0.16355 0.21935 -0.022905 0.016156 0.0055942 -0.010436 -0.0047435 -0.0022087
-0.0043306 0.0021006 0.0046264 0.00048318
-0.0229 0.016096 -0.34271 0.23726 -0.0088307 0.034006 -0.0024211 0.0021133
-0.0010278 0.0024068 0.00087608 0.005388
0.0055616 -0.010448 -0.0087635 0.034049 -0.032311 0.30144 0.00071459 0.0014125
0.00010347 0.0033687 -0.0020243 0.00086447
-0.0046745 -0.0022379 -0.0023746 0.0020813 0.00073097 0.0014044 -0.17466 0.23093
-0.028545 0.013194 0.013477 -0.010361
-0.0041473 0.0019947 -0.00092901 0.0024562 0.00013356 0.0034329 -0.028555 0.013297
-0.2247 0.10176 -0.018134 0.020496
0.0044452 0.00039111 0.00081346 0.0051848 -0.002076 0.00084414 0.013454 -0.010366
-0.018149 0.020384 -0.24246 0.14524
860000000 -0.12932 0.23962 -0.018449 0.030589 -0.0029277 -0.010096 -0.0022237 0.00037727
0.0038495 0.0051304 -0.0036899 -0.0030787
-0.018516 0.030592 -0.29448 0.28054 0.0069611 0.034363 1.0023e-05 0.0019323
0.0035231 0.00028005 0.0028168 0.00014973
-0.0029461 -0.010132 0.0071125 0.034389 0.015729 0.30984 -0.00071851 -0.00012247
0.0025346 -0.0016391 0.0014587 0.0044609
-0.0021553 0.00055758 -2.9735e-05 0.0020879 -0.00073825 -0.00010829 -0.13796 0.24225
-0.018491 0.018051 -0.0062762 -0.0089032
0.0039234 0.0053706 0.0033777 0.00027787 0.0025718 -0.0016073 -0.018386 0.018173
-0.16772 0.15627 -0.024731 0.016307
-0.0036154 -0.0032119 0.002869 4.4495e-05 0.0014789 0.0044167 -0.0062718 -0.0089491
-0.024857 0.016277 -0.19161 0.19226
920000000 -0.10553 0.26303 0.0040655 0.038579 -0.0091449 -0.0048398 -0.0021547 0.0018124
0.00075728 0.0020536 0.0027106 -0.0013197
0.0040724 0.038535 -0.26689 0.30198 0.027875 0.023138 0.0013857 0.0015282
0.0072093 0.00016496 0.0042054 -0.0026422
-0.0091518 -0.0048338 0.027946 0.023101 0.060892 0.31107 0.0018508 0.0001608
0.00092352 -3.5856e-05 0.0010613 -0.0012049
-0.002144 0.0018243 0.0013902 0.0014778 0.0018674 0.00015931 -0.11369 0.25878
-0.011331 0.030796 0.0037755 -0.0068172
0.00073728 0.0020891 0.0072421 6.2946e-05 0.00091352 6.3112e-05 -0.011182 0.030788
-0.15766 0.16182 -0.0021581 0.027173
0.0028286 -0.0013452 0.0042138 -0.0026382 0.0010982 -0.0011966 0.0038011 -0.0068064
-0.0020986 0.027121 -0.19996 0.20354
980000000 -0.058834 0.28394 0.016706 0.030494 -0.0093183 0.0043042 0.0018913 0.0039259
0.0040393 -0.0013974 -0.0029591 -0.0022267
0.016725 0.030517 -0.21382 0.33727 0.033163 0.0058551 0.0020645 -1.9511e-05
0.0018548 -0.0060504 -0.00030983 -0.0024288
-0.0092878 0.0043551 0.033223 0.0057436 0.1066 0.30568 0.00079031 -0.0010969
0.00061073 -0.0018849 0.001658 -0.00022185
0.0019513 0.0039293 0.0020543 3.1324e-06 0.00078403 -0.0010907 -0.075115 0.26988
0.0070651 0.02977 -0.0092401 -0.0072243
0.0040877 -0.0015558 0.0019164 -0.0062033 0.00063952 -0.0018979 0.0071732 0.029749
-0.12373 0.19232 0.005175 0.01953
-0.0029753 -0.0023427 -0.00039824 -0.0024405 0.001654 -0.00023215 -0.0092823 -0.0072135
0.0051602 0.019556 -0.15691 0.24996
1040000000 -0.017439 0.29279 0.032881 0.019668 -0.0013543 0.0069796 0.0026054 0.00070259
3.0064e-05 -0.0034263 -4.3559e-05 -0.0014949
0.032867 0.01963 -0.17876 0.35059 0.030145 -0.014155 0.001668 -0.0018015
-0.0022178 -0.0025114 -0.00083609 -0.0027525
-0.0013237 0.0069964 0.030112 -0.014276 0.15236 0.29255 -0.00032866 -0.0016869
-0.0016118 -0.00098504 -0.00040515 -0.0011663
0.0026584 0.00078902 0.0016592 -0.00175 -0.00034791 -0.0017039 -0.047839 0.27954
0.018649 0.019085 -0.0022897 0.0014021
1.1703e-05 -0.003428 -0.0022105 -0.0024559 -0.0016138 -0.00098858 0.018665 0.019014
-0.090479 0.20048 0.013559 0.018833
-1.1503e-05 -0.0014431 -0.00073579 -0.0028303 -0.00040854 -0.0011761 -0.0022767 0.0014152
0.013644 0.018821 -0.13436 0.27039
1100000000 0.027627 0.30228 0.036581 -0.0030466 0.0029499 0.004143 0.0025608 -0.0010341
-0.0020141 -0.003009 -0.0038234 -0.00033877
0.036567 -0.003022 -0.13571 0.36898 0.01624 -0.027557 0.00012983 -0.0017911
-0.0033544 -0.00095344 -0.0034041 -0.00076678
0.0029599 0.0041218 0.016128 -0.027662 0.19793 0.2737 -0.0018908 3.7416e-05
-0.0018427 0.00038402 -0.001127 -0.00058485
0.0025398 -0.0010427 0.00012382 -0.0017904 -0.001876 3.5858e-05 -0.0078197 0.28496
0.024528 0.0062558 -0.0022064 0.00031742
-0.0020091 -0.00299 -0.0033483 -0.0009107 -0.0018515 0.00038758 0.024548 0.0062093
-0.070247 0.21394 0.019482 0.0091867
-0.0038636 -0.0003587 -0.0034557 -0.00068479 -0.0011063 -0.0005546 -0.0022184 0.00031427
0.019538 0.0092396 -0.088847 0.29879
1160000000 0.078795 0.29862 0.024958 -0.020028 0.0028798 -0.00053082 -0.00015472 -0.0024804
-0.0039877 -0.000781 -0.00088829 0.0042045
0.024964 -0.020022 -0.092324 0.37353 -0.0027815 -0.02937 -0.0016215 -0.0016209
-0.0028244 0.0024031 -0.0015344 0.0018915
0.0029106 -0.00054324 -0.0028823 -0.029395 0.24135 0.24422 -0.00087304 0.001666
-0.000713 0.0019048 -0.0010039 0.00039368
-0.00014162 -0.0024731 -0.0016617 -0.0016208 -0.00088379 0.0016536 0.031715 0.28229
0.021251 -0.0097059 -0.0030814 0.005211
-0.0040037 -0.0007539 -0.0028619 0.0024188 -0.00071342 0.0018938 0.02131 -0.0097279
-0.035464 0.22194 0.018633 4.4666e-05
-0.00093057 0.0041074 -0.0015867 0.0019484 -0.00099858 0.00037232 -0.0030747 0.0051981
0.018619 7.773e-05 -0.0422 0.30129
1220000000 0.12259 0.28873 0.011719 -0.029969 -0.0014957 -0.001136 -4.9122e-05 -0.00087344
-0.0028667 0.0022158 0.001022 0.0020687
0.011722 -0.029946 -0.048597 0.38686 -0.016434 -0.022105 -0.0026572 0.0004461
-0.00013753 0.0030221 -0.00087528 0.0019481
-0.0014889 -0.0011282 -0.016569 -0.022064 0.28072 0.20625 0.00068829 0.0017211
0.00051009 0.0011993 0.00030735 0.00059496
-6.0389e-05 -0.00090399 -0.002658 0.00048197 0.0006989 0.0017086 0.071383 0.2739
0.011319 -0.016456 0.0023882 0.0012771
-0.0028381 0.0022238 -0.00012247 0.0030392 0.00045982 0.0012341 0.011281 -0.016497
-0.011811 0.23032 0.014128 -0.012524
0.0010599 0.002039 -0.00090645 0.0019698 0.0002907 0.00062685 0.0023911 0.0012792
0.014188 -0.012582 -0.010958 0.31736
1280000000 0.17308 0.2686 -0.0069508 -0.028963 -0.0020634 0.0022705 -0.00083276 -0.0019874
-0.00081349 0.0030861 0.0025017 0.0013765
-0.0069174 -0.028946 -0.0026941 0.37898 -0.023825 -0.0093518 -0.00099874 0.0013785
0.0016023 0.0016424 0.00053247 0.0021369
-0.0020293 0.0022989 -0.0239 -0.0092683 0.31207 0.16334 0.00146 5.2526e-05
0.0011307 0.0003073 0.0003426 0.00024568
-0.00083716 -0.0019801 -0.0010257 0.0013752 0.001447 7.1088e-05 0.10854 0.25829
0.0018764 -0.019093 8.9818e-05 0.0001139
-0.00078543 0.0030801 0.0016001 0.0016553 0.0011385 0.0002963 0.0018283 -0.019073
0.025103 0.23368 0.003338 -0.014669
0.0025 0.0013505 0.00058389 0.0021377 0.00036776 0.00022024 8.3814e-05 0.00011354
0.00331 -0.014669 0.036434 0.32
1340000000 0.2105 0.23568 -0.016981 -0.019863 0.00060513 0.0046384 -0.0017225 -0.00082275
0.0013906 0.0027101 0.0017916 -0.0013399
-0.016946 -0.019838 0.036787 0.37183 -0.022021 0.0035591 -0.00022058 0.0020426
0.0019688 0.00088512 0.0011744 0.00084887
0.00061459 0.0046236 -0.022022 0.0036923 0.33501 0.11599 0.0011069 -0.00083648
0.00062784 -0.00054195 -9.8302e-07 0.00029265
-0.001717 -0.00081361 -0.00018693 0.0020394 0.0010993 -0.00083838 0.1418 0.23746
-0.0076577 -0.017014 0.00083966 0.00036249
0.0014163 0.0027077 0.0019628 0.00086159 0.00062652 -0.00053125 -0.0076882 -0.01701
0.054878 0.22867 -0.0032245 -0.013656
0.0017737 -0.0013177 0.0011691 0.00081327 4.5446e-07 0.00028093 0.00083761 0.00036073
-0.0031942 -0.013685 0.074174 0.31502
1400000000 0.24437 0.19902 -0.023351 -0.0083955 0.0051682 0.0034803 -0.0022002 0.00056723
0.0024289 0.00098137 0.00039807 -0.0016188
-0.023332 -0.0084055 0.074449 0.36007 -0.015588 0.012185 0.0012629 0.001339
0.001302 -0.00065169 0.0011749 0.00016837
0.0051926 0.003439 -0.015553 0.012294 0.34871 0.062721 9.9695e-05 -0.0016134
0.0001174 -0.00028515 0.00038571 0.00014837
-0.0022017 0.00056608 0.0012776 0.0013518 0.0001115 -0.0016202 0.17148 0.20883
-0.013856 -0.010569 -0.0010181 -0.0003591
0.0024361 0.00097238 0.0013014 -0.00065844 7.2555e-05 -0.00031304 -0.013898 -0.010521
0.087787 0.22458 -0.0095643 -0.0091097
0.00035474 -0.0016443 0.0011877 0.00017498 0.0004179 0.00012872 -0.0010231 -0.0003449
-0.0095721 -0.0091183 0.11826 0.30471
1460000000 0.26807 0.15588 -0.02077 0.0039164 0.0056891 -0.0016401 -0.0016225 0.001681
0.002147 -0.00035013 -0.00017538 -0.0010262
-0.020746 0.0039111 0.1095 0.33894 -0.0066777 0.015599 0.0017407 0.00022817
0.00098752 -0.001353 0.0012597 -0.00054035
0.0056957 -0.001652 -0.0066096 0.01564 0.35573 0.0083899 -0.0010791 -0.0013759
0.00012368 -0.00017569 0.00071523 -0.00016278
-0.0015875 0.0017063 0.0017135 0.00020424 -0.0010823 -0.0013804 0.19851 0.17957
-0.015489 -0.0041772 -0.0011585 0.0019248
0.0021537 -0.00036482 0.0010009 -0.001352 0.00011538 -0.0001669 -0.015505 -0.0041546
0.11741 0.21062 -0.011545 -0.0034735
-0.00019486 -0.0010595 0.0012679 -0.0005244 0.00074729 -0.00016294 -0.0011582 0.0019404
-0.011551 -0.003478 0.1521 0.28452
1520000000 0.28114 0.11436 -0.015416 0.0097195 0.003413 -0.0042738 5.9332e-05 0.0025565
0.0021852 -0.0018049 -0.0012126 -0.00022352
-0.015415 0.009701 0.14361 0.32472 0.0012691 0.013527 0.0016699 -0.00073903
0.00011032 -0.0011627 0.00035165 -0.0010924
0.0033888 -0.0042772 0.0013304 0.013544 0.34914 -0.04793 -0.0011081 -0.0004104
0.00066729 -0.00080505 0.00012513 -9.266e-05
3.4183e-05 0.002571 0.0016715 -0.00075269 -0.0011077 -0.00041406 0.22195 0.14111
-0.015488 0.0016845 0.0013369 0.0021031
0.0021657 -0.0017997 8.228e-05 -0.0011575 0.00065179 -0.00079785 -0.015496 0.0017396
0.14495 0.19765 -0.01162 0.00097427
-0.0011701 -0.00018942 0.00034869 -0.0010705 0.00010268 -9.0604e-05 0.0013438 0.0021041
-0.011653 0.00095744 0.18522 0.26417
1580000000 0.29171 0.068736 -0.0088779 0.01336 -0.00093068 -0.0049483 0.001466 0.001955
-3.4672e-05 -0.0021804 -0.00032922 0.00025111
-0.0088804 0.013353 0.17169 0.30039 0.0052213 0.0086927 0.00054667 -0.001568
-0.00056881 -0.001172 -0.00017547 -0.00089039
-0.00098546 -0.0049564 0.0052633 0.0086751 0.32939 -0.10548 -0.0016848 0.00056931
-0.00026851 -0.0011986 0.00021008 -0.00063975
0.0014727 0.0019572 0.00053232 -0.0015854 -0.001684 0.00053606 0.23607 0.10161
-0.01247 0.0070841 0.0021034 0.00087362
-5.4216e-05 -0.0021699 -0.00058414 -0.0011664 -0.0002386 -0.0012046 -0.012447 0.0070835
0.16945 0.18057 -0.0095902 0.0068512
-0.00034744 0.00025021 -0.00018385 -0.00090822 0.00021782 -0.00063543 0.0021103 0.00087256
-0.0095398 0.0068284 0.21762 0.238
1640000000 0.29478 0.027248 -0.0020111 0.012523 -0.0029017 -0.0026692 0.0026929 0.0010752
-0.00068077 -0.0016861 -0.00039315 0.00067106
-0.0020309 0.012506 0.20204 0.27545 0.0061261 0.0036809 -0.00058954 -0.0018059
-0.0011252 -0.0004427 -0.00052833 -0.00072294
-0.0028946 -0.0026562 0.0061521 0.0036511 0.30119 -0.15503 -0.00075799 0.0014551
-0.0010699 -0.0011005 -0.00015338 -0.0002548
0.0026829 0.0010596 -0.0006094 -0.0018004 -0.00076376 0.0014656 0.24878 0.052275
-0.008274 0.0090235 0.0025169 -0.00068266
-0.00070375 -0.0016793 -0.0011278 -0.00042515 -0.0010499 -0.0010814 -0.0082566 0.0091212
0.19303 0.15719 -0.0050521 0.0089677
-0.00038112 0.00068265 -0.00049997 -0.00071284 -0.00015168 -0.00027224 0.0025185 -0.00069098
-0.0051116 0.0090055 0.2434 0.20668
1700000000 0.28808 -0.018294 0.0016137 0.0099973 -0.0036065 7.9625e-05 0.003205 -0.001146
-0.002001 -0.00080572 0.00052446 0.00058522
0.0016021 0.0099993 0.22052 0.24392 0.0041022 0.00060715 -0.0014306 -0.00064791
-0.00087911 4.7999e-05 -0.0009932 -0.00048993
-0.0036402 0.00011474 0.0041052 0.00058646 0.25761 -0.19456 0.00043464 0.0017367
-0.002029 -0.0001919 -0.00046482 -0.00091551
0.0032263 -0.0011735 -0.0014406 -0.00066222 0.00044964 0.0017214 0.24524 0.0017841
-0.0051607 0.01014 0.0015614 -0.0019877
-0.0019998 -0.00077365 -0.00088823 4.9617e-05 -0.0020307 -0.00021954 -0.0051729 0.010085
0.21087 0.1378 -0.00049651 0.0095618
0.00051113 0.00055672 -0.00099464 -0.00050066 -0.0004939 -0.0009051 0.0015759 -0.0020019
-0.00042261 0.009493 0.25983 0.1725
1760000000 0.27687 -0.067212 0.0043842 0.006813 -0.0022356 0.00095056 0.0014729 -0.0034198
-0.0014027 0.00056346 0.00041193 -0.00051173
0.0043871 0.0068068 0.24715 0.20407 0.0018078 -0.0013916 -0.00123 8.1043e-05
-0.0010359 0.0010124 -0.00064345 0.00041071
-0.0022221 0.0010049 0.0018031 -0.0014117 0.20975 -0.22776 0.0011828 0.0011068
-0.0012762 0.0014088 -0.001182 -0.00064435
0.0014404 -0.0034221 -0.0012274 0.00011922 0.0011473 0.001096 0.23624 -0.049773
-0.0013555 0.0095066 -1.9337e-05 -0.0023862
-0.0014152 0.00055609 -0.0010537 0.0010151 -0.0013085 0.0014058 -0.0012754 0.0095775
0.22668 0.10369 0.0034237 0.0072563
0.00047987 -0.00047292 -0.00062124 0.00040702 -0.0011516 -0.00065454 -2.442e-05 -0.0023806
0.0034157 0.0073259 0.27272 0.13528
1820000000 0.25249 -0.10509 0.0048088 0.0030975 -2.3846e-05 0.0024824 -0.00090882 -0.0031583
-0.0013014 0.00099746 -4.8493e-05 -0.00018419
0.0047951 0.0031126 0.25749 0.17364 -0.00050871 -0.00020272 -0.0013774 0.00089419
1.6202e-05 0.001262 -0.00063405 0.00047702
-1e-05 0.0024811 -0.00050048 -0.00018692 0.15864 -0.24341 0.0016333 0.00037874
-0.0002579 0.0024232 -0.0014326 0.00041712
-0.00091751 -0.0031559 -0.0013865 0.00090343 0.0016054 0.00038361 0.2058 -0.097448
0.00076045 0.0081126 -0.0016035 -0.0015831
-0.0012979 0.001015 2.8723e-05 0.0012522 -0.00028198 0.0023841 0.00074216 0.0080746
0.24478 0.074939 0.0044909 0.0038646
-7.8889e-05 -0.00020308 -0.00062268 0.00052897 -0.0014376 0.00041273 -0.0015952 -0.0015918
0.0044853 0.0038089 0.27496 0.098626
1880000000 0.21731 -0.14566 0.0026481 0.00053987 -0.00069071 0.0021721 -0.0030179 -0.0023786
-0.00037551 0.0019667 0.00013734 -0.00054675
0.0026381 0.00054541 0.26196 0.12704 -0.0025906 0.0016724 -0.00022912 0.0017452
0.00063726 0.0012846 5.2635e-05 0.0010033
-0.000679 0.0021663 -0.0025713 0.0016893 0.10676 -0.25237 0.0017524 -0.00090992
0.0014858 0.0019977 -0.00095858 0.0013012
-0.0030128 -0.0022896 -0.00024187 0.0017518 0.0017735 -0.00091789 0.16457 -0.13732
0.0017803 0.0056326 -0.0022465 0.00013026
-0.00037172 0.0019209 0.0006412 0.0012679 0.0015203 0.0020427 0.0018535 0.0056825
0.24942 0.043611 0.0049262 0.0017233
0.00020245 -0.00058314 6.4195e-05 0.001003 -0.00095943 0.0013273 -0.0022506 0.00015298
0.0049839 0.0017446 0.27528 0.065467
1940000000 0.17793 -0.17176 0.00038168 -0.0013622 0.0014923 0.001969 -0.0038361 0.00049841
0.0013097 0.001164 -0.00073156 -0.00074114
0.00038772 -0.0013607 0.26288 0.095023 -0.0012033 0.0041233 0.0010059 0.0014152
0.0018754 0.00040805 0.00091767 0.00026975
0.0014957 0.0019927 -0.001217 0.0041163 0.061965 -0.24503 0.00045807 -0.0021455
0.0024301 0.00049335 0.00033338 0.0015915
-0.0038375 0.00044193 0.0010185 0.0014173 0.00046233 -0.00217 0.11172 -0.16783
0.0012112 0.0041584 -0.0014959 0.0012965
0.0013611 0.0011565 0.0018663 0.00039699 0.0023991 0.00044754 0.0011419 0.0040893
0.25332 0.0052477 0.0038395 -0.0015821
-0.00075497 -0.00070522 0.00094186 0.00026294 0.0003611 0.0015601 -0.0014986 0.0012738
0.0038616 -0.001678 0.26466 0.029066
2000000000 0.13135 -0.1862 -0.0036225 0.00066534 0.0025492 0.0018031 -0.0023368 0.0036752
0.0014191 0.00038987 -0.00046253 0.00049162
-0.0036165 0.0006488 0.24837 0.05945 -0.00092182 0.0059964 0.0017635 0.00049706
0.0013338 -0.0011442 0.00064811 0.00019038
0.002555 0.0017458 -0.00088055 0.00603 0.018794 -0.23116 -0.0011896 -0.0013441
0.0020878 -0.0010579 0.0016652 0.0014586
-0.0022437 0.003702 0.0018083 0.00049781 -0.0011667 -0.0013424 0.058038 -0.17712
-0.00040502 0.003611 -0.00021272 0.0020632
0.0014128 0.00041462 0.0013183 -0.0011316 0.0021275 -0.0011159 -0.00031245 0.0035848
0.24862 -0.028486 0.00072944 -0.0027466
