!Keysight Technologies,M9804A,MY58100912,A.14.10.03
!Date: Thursday, April 27, 2023 10:28:33
!Correction: S11(C  6-Port  ) 
!S12(C  6-Port  ) 
!S13(C  6-Port  ) 
!S14(C  6-Port  ) 
!S15(C  6-Port  ) 
!S16(C  6-Port  ) 
!S21(C  6-Port  ) 
!S22(C  6-Port  ) 
!S23(C  6-Port  ) 
!S24(C  6-Port  ) 
!S25(C  6-Port  ) 
!S26(C  6-Port  ) 
!S31(C  6-Port  ) 
!S32(C  6-Port  ) 
!S33(C  6-Port  ) 
!S34(C  6-Port  ) 
!S35(C  6-Port  ) 
!S36(C  6-Port  ) 
!S41(C  6-Port  ) 
!S42(C  6-Port  ) 
!S43(C  6-Port  ) 
!S44(C  6-Port  ) 
!S45(C  6-Port  ) 
!S46(C  6-Port  ) 
!S51(C  6-Port  ) 
!S52(C  6-Port  ) 
!S53(C  6-Port  ) 
!S54(C  6-Port  ) 
!S55(C  6-Port  ) 
!S56(C  6-Port  ) 
!S61(C  6-Port  ) 
!S62(C  6-Port  ) 
!S63(C  6-Port  ) 
!S64(C  6-Port  ) 
!S65(C  6-Port  ) 
!S66(C  6-Port  ) 
!S6P File: Measurement: :
# Hz S  RI   R 50
500000000 -0.33375 -0.057475 -0.010241 -0.0013777 -0.0080567 0.013189 -0.0037412 0.012158
0.012587 0.005345 -0.0038255 0.0084839
-0.010213 -0.0013718 -0.41463 -0.065768 0.0087771 -0.010712 0.0014326 0.011981
0.0083855 0.0026833 0.001854 0.013962
-0.0080555 0.01315 0.0087419 -0.010746 -0.26684 0.19671 0.0069884 0.0036853
-0.0014924 0.0080547 0.0011336 0.012394
-0.0037333 0.012169 0.0014499 0.012013 0.0069929 0.0036974 -0.33081 0.041847
-0.018912 -0.0032957 0.016901 0.024904
0.012625 0.0053403 0.0083946 0.0026581 -0.0015025 0.0080448 -0.018904 -0.0032711
-0.24435 -0.20204 -0.027556 0.0059121
-0.0038381 0.0085308 0.0018627 0.014038 0.0011482 0.01244 0.016938 0.024891
-0.027605 0.005914 -0.26859 -0.12869
560000000 -0.31858 0.11068 -0.022379 -0.065464 0.00026419 0.013307 0.0054144 0.010841
0.011491 0.0049954 0.01015 0.0089867
-0.022325 -0.065381 -0.37498 0.097662 -0.041657 -0.039068 0.014285 0.0041842
-0.013997 -0.0044031 0.0054128 -0.001508
0.00028544 0.013213 -0.041842 -0.039037 -0.18563 0.24949 -0.0011138 -0.0051473
0.017929 0.0053849 0.0088648 -0.0063838
0.0054599 0.010834 0.014341 0.0041516 -0.0011083 -0.0051516 -0.30641 0.1345
0.0052638 -0.024503 0.0046513 -0.020954
0.011564 0.0049888 -0.013998 -0.0044055 0.017941 0.0054174 0.005278 -0.024542
-0.30913 -0.022763 0.0095459 -0.048111
0.010197 0.0089515 0.0054133 -0.0015648 0.0088896 -0.0063055 0.0046484 -0.020972
0.0095604 -0.048086 -0.33154 0.019513
620000000 -0.27732 0.090127 -0.022773 0.0086564 0.0039737 0.0092666 0.0081985 -0.004253
0.011328 -0.0017088 0.00020569 -0.0021897
-0.022727 0.0086502 -0.4031 0.045774 -0.018399 0.00027805 -0.0015095 -0.0017957
0.01204 -0.0065974 0.00079412 -0.0031126
0.0039406 0.0091962 -0.018437 0.00033895 -0.15564 0.25798 -0.00058502 -0.0051118
-0.0038414 -0.0028733 0.0092987 -0.0031487
0.0082114 -0.0042802 -0.0014992 -0.0017872 -0.00056481 -0.0050917 -0.26554 0.14449
-0.038133 -0.019861 0.012922 0.026518
0.011307 -0.0017337 0.012025 -0.0066525 -0.0038822 -0.0029031 -0.038187 -0.019849
-0.22976 -0.055661 -0.041146 0.012963
0.00022786 -0.002148 0.00080661 -0.0031291 0.0093768 -0.0031282 0.012976 0.026574
-0.041181 0.012966 -0.24897 -0.0143
680000000 -0.24058 0.18138 -0.026315 -0.015133 0.0048412 0.005169 0.00090861 -0.0074189
-0.0015207 -0.011415 0.0050168 -0.0063482
-0.026266 -0.015147 -0.39085 0.14733 -0.032289 -0.0022606 -0.0015648 -0.00031165
-0.0018335 -0.0088498 -0.0012775 -0.0018323
0.0049237 0.0051715 -0.032323 -0.0022012 -0.10486 0.27972 -0.00080932 -0.00010056
-0.0017437 0.00062397 -0.0020404 -0.0091273
0.00092421 -0.0073978 -0.0015679 -0.00030575 -0.00082888 -0.00010445 -0.22093 0.19636
-0.023334 -0.0082453 -0.0085981 -0.011458
-0.0015452 -0.011457 -0.0018593 -0.0088632 -0.0017437 0.00061293 -0.023341 -0.0082274
-0.27995 0.047326 -0.0057139 -0.0078019
0.0050547 -0.006349 -0.0012893 -0.0018039 -0.0021028 -0.0090468 -0.0086221 -0.01149
-0.0057258 -0.0078043 -0.26135 0.092012
740000000 -0.1943 0.17435 -0.040089 0.026248 0.013677 -0.0047848 -6.2238e-05 -0.0041541
-0.0050227 -0.0022406 -0.0058636 0.0029468
-0.040062 0.026201 -0.33586 0.16576 -0.036988 0.034501 0.00012619 -0.0060642
-0.011552 0.0074681 -0.0012823 -0.0056363
0.013697 -0.0047665 -0.036926 0.034649 -0.070681 0.27673 -0.0018996 0.0032027
-0.0025905 -0.0053675 -0.0015327 0.00090675
-0.00011082 -0.0041326 0.00013144 -0.0060964 -0.0018808 0.0032069 -0.20432 0.2034
-0.041391 -0.0082617 0.021296 0.015382
-0.004985 -0.0021836 -0.011502 0.0075216 -0.002582 -0.0053406 -0.041429 -0.0081871
-0.18204 0.075337 -0.039931 0.00026676
-0.0058677 0.002962 -0.0013343 -0.0056408 -0.0015279 0.00083296 0.021316 0.015332
-0.039961 0.00024863 -0.25134 0.095231
800000000 -0.16361 0.21927 -0.022821 0.016149 0.0056116 -0.010426 -0.0047127 -0.0022548
-0.0043411 0.0021759 0.0045794 0.00035401
-0.022805 0.016136 -0.34265 0.23736 -0.0088268 0.034027 -0.0024175 0.002106
-0.0010129 0.0024282 0.0008691 0.005351
0.0055794 -0.010446 -0.0087313 0.034098 -0.032326 0.30143 0.00070194 0.0013807
0.00011537 0.0033858 -0.0021174 0.00084818
-0.0046944 -0.0022409 -0.0023979 0.0021022 0.00070194 0.0013906 -0.17463 0.23095
-0.028578 0.013208 0.013535 -0.010398
-0.0043343 0.0021854 -0.0010252 0.0024411 0.00012621 0.0034101 -0.028586 0.013279
-0.22459 0.10181 -0.018179 0.020411
0.0045889 0.00036163 0.00089017 0.005381 -0.0020721 0.00083764 0.01353 -0.010413
-0.018191 0.02038 -0.24261 0.14529
860000000 -0.1294 0.23951 -0.018541 0.030666 -0.0029805 -0.010115 -0.0021891 0.00041056
0.003889 0.0050678 -0.0035594 -0.0031129
-0.018538 0.030638 -0.2945 0.28046 0.0069623 0.034329 3.3079e-05 0.0019465
0.0034834 0.00029653 0.002836 0.00015095
-0.0030214 -0.010124 0.0070836 0.034348 0.015726 0.30984 -0.00068744 -6.3882e-05
0.002547 -0.0016571 0.0015141 0.0044076
-0.0021967 0.00042951 4.2607e-05 0.0019534 -0.00070068 -6.7681e-05 -0.13803 0.24227
-0.018468 0.018041 -0.0062261 -0.0087174
0.003923 0.0050804 0.0034988 0.00028308 0.0025496 -0.001664 -0.01845 0.018084
-0.16765 0.15618 -0.024721 0.016237
-0.0035793 -0.0030952 0.0028365 0.00013572 0.0014877 0.0044457 -0.0062601 -0.0087346
-0.02471 0.016198 -0.19124 0.19231
920000000 -0.10571 0.263 0.0040664 0.038619 -0.0091917 -0.0048513 -0.0022179 0.0017991
0.00079192 0.0020516 0.0027008 -0.0012757
0.0040539 0.038576 -0.26688 0.30198 0.027857 0.023148 0.001375 0.0014954
0.0071664 0.00016412 0.0041774 -0.0026765
-0.0092031 -0.0048436 0.027973 0.023094 0.060863 0.31106 0.0018289 0.00017318
0.00093323 3.4041e-06 0.0010722 -0.001184
-0.0022255 0.0017971 0.0013907 0.0014978 0.0018148 0.00016552 -0.11376 0.25868
-0.011271 0.0308 0.0036724 -0.0068216
0.000792 0.0020545 0.0071661 0.00011694 0.00094517 1.7678e-05 -0.011234 0.030843
-0.15752 0.16182 -0.0020238 0.027106
0.0026823 -0.001303 0.004186 -0.0026851 0.0010463 -0.0012014 0.0036769 -0.006832
-0.0020189 0.02708 -0.20004 0.20376
980000000 -0.05896 0.2839 0.016718 0.030456 -0.0092787 0.004295 0.001941 0.0038867
0.0039935 -0.0014355 -0.003001 -0.0023259
0.016709 0.030435 -0.21383 0.33729 0.033156 0.005849 0.002064 -4.5783e-05
0.0018271 -0.0061016 -0.00033182 -0.002468
-0.0092671 0.0043353 0.033224 0.0057577 0.10659 0.30568 0.00078464 -0.001107
0.00060821 -0.0019073 0.0016152 -0.00022166
0.0019662 0.0038864 0.0020683 -4.0544e-05 0.0007813 -0.0011109 -0.075062 0.26991
0.007032 0.029757 -0.0091672 -0.0072285
0.0039947 -0.0014646 0.0017933 -0.0061502 0.00060424 -0.0019064 0.0071177 0.029736
-0.12369 0.19232 0.0051678 0.019569
-0.0030014 -0.0023102 -0.000349 -0.0024457 0.001618 -0.00024293 -0.009174 -0.0072051
0.0051442 0.019565 -0.15679 0.24999
1040000000 -0.017486 0.29289 0.032876 0.019659 -0.0013232 0.0069806 0.0026369 0.0008209
1.2506e-05 -0.0034603 6.6378e-05 -0.0015434
0.032828 0.019652 -0.17869 0.3506 0.030127 -0.014149 0.0016304 -0.0017861
-0.0022151 -0.0025304 -0.00079648 -0.0027847
-0.0013221 0.0069765 0.030124 -0.01427 0.15236 0.29254 -0.00034491 -0.0016881
-0.0016113 -0.00099091 -0.00041036 -0.0011524
0.0026395 0.0008163 0.0016468 -0.0017801 -0.00033807 -0.0016892 -0.047887 0.27951
0.018649 0.019072 -0.0023132 0.0014147
3.9804e-06 -0.003465 -0.002243 -0.002528 -0.0015973 -0.001002 0.018681 0.019041
-0.090494 0.2005 0.013639 0.018793
5.3628e-05 -0.0015402 -0.00083254 -0.0027475 -0.00041621 -0.0011607 -0.0023142 0.0014139
0.013606 0.018794 -0.1343 0.27041
1100000000 0.027646 0.30236 0.036578 -0.0030205 0.0029525 0.0041465 0.0025297 -0.0010234
-0.0020104 -0.0029859 -0.0038383 -0.00028979
0.036538 -0.0030048 -0.1357 0.36901 0.016223 -0.027564 0.00011136 -0.0017801
-0.0033581 -0.00093975 -0.0034023 -0.0007226
0.0029749 0.0041192 0.016153 -0.027656 0.19793 0.27371 -0.0018891 2.7708e-05
-0.0018355 0.0003759 -0.0011372 -0.00059462
0.0025355 -0.0010276 0.00010704 -0.0017723 -0.001893 3.0575e-05 -0.0078277 0.28501
0.024496 0.0062504 -0.0021779 0.00030311
-0.0020195 -0.0029737 -0.0033645 -0.00091576 -0.0018281 0.0003873 0.024513 0.0062001
-0.070277 0.21394 0.019501 0.0092179
-0.0038383 -0.00027236 -0.0034111 -0.00070882 -0.0011187 -0.00058988 -0.0021867 0.00031414
0.019498 0.0092213 -0.088863 0.29863
1160000000 0.078866 0.29869 0.024926 -0.020015 0.00287 -0.00050745 -0.00010656 -0.0024805
-0.0039936 -0.00076024 -0.00095767 0.0041325
0.0249 -0.020007 -0.092305 0.37352 -0.0027876 -0.029376 -0.0016358 -0.00165
-0.0028133 0.0024281 -0.0015799 0.0019262
0.0028709 -0.00052499 -0.0029131 -0.029376 0.24135 0.24422 -0.00087653 0.0016741
-0.00071509 0.0018999 -0.0010002 0.000422
-0.00011774 -0.0024943 -0.0016391 -0.0016356 -0.00088493 0.0016688 0.031666 0.28226
0.021247 -0.0097169 -0.0031277 0.0052766
-0.0040032 -0.00072612 -0.0028231 0.0024422 -0.000707 0.0018982 0.02126 -0.0097346
-0.035513 0.22196 0.018559 7.1265e-05
-0.00091147 0.0041439 -0.0015686 0.0019364 -0.0010046 0.00040983 -0.0031149 0.0052701
0.018549 6.5626e-05 -0.042053 0.3013
1220000000 0.12262 0.28873 0.01173 -0.029959 -0.0014914 -0.0011419 -8.3417e-05 -0.00087448
-0.0028601 0.0022049 0.0010289 0.0020263
0.011736 -0.02993 -0.048611 0.38686 -0.016452 -0.022122 -0.0026697 0.00045861
-0.00013878 0.0030142 -0.00087909 0.0019357
-0.0014948 -0.0011382 -0.016572 -0.022069 0.28067 0.20628 0.00070089 0.001693
0.00051659 0.0012087 0.00030664 0.00058913
-8.621e-05 -0.00088085 -0.0026703 0.00047253 0.00069824 0.0017028 0.071391 0.27392
0.011322 -0.016448 0.002397 0.0012621
-0.0028543 0.0022244 -0.00012915 0.0030135 0.00051063 0.0012214 0.011294 -0.016463
-0.011865 0.23038 0.014145 -0.012572
0.001048 0.0020364 -0.00087474 0.0019519 0.00031109 0.000588 0.0023938 0.0012643
0.014143 -0.012581 -0.011007 0.3174
1280000000 0.17307 0.26858 -0.006935 -0.028936 -0.0020488 0.0022794 -0.00084332 -0.00203
-0.00081121 0.0030873 0.0025084 0.0013869
-0.0069173 -0.028914 -0.0027123 0.37895 -0.023835 -0.00934 -0.0010098 0.0013673
0.0016133 0.0016172 0.00054676 0.0021521
-0.0020227 0.0022866 -0.023913 -0.0092496 0.31204 0.16336 0.0014616 7.3698e-05
0.0011274 0.00029742 0.00036641 0.00020971
-0.00084682 -0.0020158 -0.0010033 0.0013743 0.0014583 6.8507e-05 0.10854 0.25826
0.001897 -0.019059 5.3643e-05 0.00012555
-0.00078042 0.0030963 0.001628 0.0016141 0.001116 0.00028291 0.0018614 -0.019058
0.025125 0.23376 0.0032869 -0.014652
0.0025156 0.0013773 0.00056087 0.0021416 0.00036357 0.00022978 6.4982e-05 0.00011597
0.0032902 -0.014652 0.036487 0.31998
1340000000 0.21045 0.2356 -0.016935 -0.019836 0.00059012 0.004631 -0.0017243 -0.00080923
0.001392 0.0026963 0.0017748 -0.0013307
-0.016909 -0.019829 0.036759 0.37181 -0.022022 0.0035784 -0.00019189 0.0020282
0.0019724 0.00087783 0.0011323 0.00084182
0.00060789 0.0046339 -0.022024 0.0036793 0.33501 0.11598 0.0011178 -0.00084909
0.0006348 -0.00054612 -1.0899e-05 0.00029862
-0.0017351 -0.00080428 -0.00019015 0.0020351 0.0011155 -0.00084689 0.14179 0.2375
-0.0076424 -0.017009 0.0008597 0.00034354
0.0014032 0.0026971 0.0019863 0.00086602 0.00062923 -0.00054961 -0.0076749 -0.016997
0.054919 0.22878 -0.0032457 -0.013633
0.0017683 -0.0013466 0.0011495 0.00083549 -1.3273e-05 0.00029459 0.00086811 0.00034227
-0.0032482 -0.013628 0.074209 0.31506
1400000000 0.24431 0.19901 -0.023321 -0.0084066 0.0051913 0.0034579 -0.0022136 0.0005583
0.0024301 0.00096331 0.00036043 -0.0016319
-0.023304 -0.0084125 0.074415 0.36005 -0.015587 0.012181 0.0012669 0.0013524
0.0012949 -0.00066888 0.0011873 0.00016088
0.0052083 0.0034274 -0.015549 0.012275 0.34867 0.062739 0.0001282 -0.0016067
0.00010133 -0.00028944 0.00038552 0.00010667
-0.0022068 0.0005748 0.0012727 0.0013502 0.00012742 -0.0016033 0.17147 0.20879
-0.013834 -0.010568 -0.0010471 -0.00036873
0.0024387 0.00095259 0.0012898 -0.00067376 8.2057e-05 -0.00029883 -0.013863 -0.010532
0.087845 0.22465 -0.0095672 -0.0090692
0.00035999 -0.0016348 0.0011956 0.00015252 0.00039554 0.00012267 -0.001048 -0.00037159
-0.009543 -0.0090678 0.11835 0.30472
1460000000 0.26797 0.15589 -0.020747 0.003896 0.0056958 -0.0016228 -0.0015792 0.0016926
0.0021616 -0.0003573 -0.00016272 -0.0010617
-0.020717 0.0038849 0.10944 0.33895 -0.006661 0.015605 0.0017288 0.0002133
0.0009805 -0.0013437 0.0012414 -0.00051958
0.0056895 -0.0016408 -0.0065981 0.015653 0.35572 0.0084472 -0.0010955 -0.0013785
0.00010817 -0.00018172 0.00071833 -0.00015058
-0.0015743 0.0016947 0.0017429 0.00020817 -0.0010954 -0.001378 0.1985 0.1796
-0.015494 -0.0041864 -0.0011207 0.0018825
0.0021601 -0.00037017 0.00097283 -0.0013508 0.0001173 -0.00018946 -0.015511 -0.0041616
0.11753 0.2107 -0.011521 -0.0034476
-0.00016355 -0.0010626 0.0012356 -0.00055011 0.00071352 -0.00015502 -0.0011222 0.0018897
-0.01153 -0.003447 0.15209 0.28449
1520000000 0.28104 0.11447 -0.01543 0.0096916 0.0034211 -0.0043008 3.4902e-05 0.0025562
0.0021668 -0.001785 -0.0011947 -0.00018959
-0.015416 0.0096707 0.14359 0.32471 0.0012664 0.013511 0.0016639 -0.000745
0.00011456 -0.0011487 0.00034631 -0.0010763
0.0033844 -0.0043168 0.0013349 0.013526 0.34916 -0.047893 -0.0011154 -0.00041337
0.00066111 -0.00079862 0.00010971 -8.92e-05
4.0487e-05 0.0025638 0.0016623 -0.00075083 -0.0011112 -0.00041581 0.22194 0.14106
-0.015484 0.0016778 0.0013006 0.002116
0.002169 -0.001798 9.879e-05 -0.0011578 0.00065517 -0.00080018 -0.015486 0.0017182
0.14505 0.19768 -0.011596 0.0009852
-0.0011967 -0.00018695 0.00033955 -0.0010829 0.00010523 -9.3045e-05 0.0013066 0.002119
-0.011586 0.00098043 0.18533 0.26415
1580000000 0.29169 0.06888 -0.0088929 0.013344 -0.00093232 -0.0049498 0.0014606 0.0019251
-1.6615e-05 -0.0021713 -0.00033238 0.00024445
-0.0088883 0.013337 0.17166 0.30043 0.0052162 0.0086996 0.00053992 -0.001576
-0.00056444 -0.0011751 -0.00017227 -0.00088792
-0.00096798 -0.0049533 0.0052699 0.0086853 0.32934 -0.10546 -0.0017099 0.00055382
-0.00028194 -0.0012048 0.00023229 -0.00060086
0.001467 0.0019202 0.00053277 -0.0015845 -0.0017031 0.00055185 0.23607 0.10164
-0.012478 0.0070601 0.0021219 0.00082513
-3.8499e-05 -0.0021733 -0.00058768 -0.0011673 -0.00027336 -0.001205 -0.012475 0.0070827
0.16958 0.18055 -0.009507 0.0068403
-0.0003348 0.00024842 -0.00017575 -0.00089367 0.00021337 -0.00060881 0.0021179 0.00082221
-0.0095013 0.0068298 0.21758 0.238
1640000000 0.29483 0.027373 -0.0020357 0.012521 -0.0028984 -0.0026817 0.0026755 0.0010838
-0.0006695 -0.0016835 -0.0003953 0.0006798
-0.0020415 0.012512 0.20202 0.27547 0.0061441 0.0036848 -0.00059862 -0.0018121
-0.0011248 -0.00045931 -0.00050759 -0.00071329
-0.0029096 -0.0026731 0.0061696 0.0036531 0.30123 -0.15499 -0.00076494 0.0014602
-0.0010604 -0.0011065 -0.00014271 -0.00021395
0.0026822 0.001065 -0.00060883 -0.0018158 -0.00075942 0.0014621 0.24877 0.052241
-0.0082768 0.0090244 0.0024874 -0.00064594
-0.00067534 -0.0016821 -0.001128 -0.00044706 -0.0010577 -0.001097 -0.0082437 0.0090708
0.19314 0.15712 -0.005049 0.0089478
-0.00039106 0.00068994 -0.00052034 -0.00071258 -0.00016075 -0.00023596 0.0024754 -0.00065031
-0.0050584 0.0089629 0.24347 0.20664
1700000000 0.2882 -0.018206 0.0016148 0.010019 -0.0036229 6.8456e-05 0.0032086 -0.0011506
-0.001993 -0.0008025 0.00050683 0.00059788
0.0016003 0.0099966 0.22051 0.24394 0.0040866 0.00060853 -0.0014178 -0.00064724
-0.00087419 4.6234e-05 -0.0010072 -0.00050254
-0.0036244 9.5578e-05 0.0040937 0.00058733 0.25766 -0.19459 0.00043428 0.0017655
-0.0019878 -0.00019104 -0.00046447 -0.00094624
0.0032013 -0.00116 -0.0014264 -0.00063738 0.00043271 0.0017638 0.24526 0.0018856
-0.0051756 0.010129 0.0015976 -0.0020663
-0.0020001 -0.00079323 -0.00087897 5.5446e-05 -0.0019984 -0.00019218 -0.0051719 0.010127
0.21093 0.13774 -0.00040368 0.009481
0.0005162 0.00059137 -0.0010034 -0.00049869 -0.00045615 -0.00094934 0.0015958 -0.0020708
-0.00040302 0.0094594 0.25978 0.17251
1760000000 0.277 -0.067223 0.0043852 0.0068115 -0.0022068 0.00095762 0.0014613 -0.0033915
-0.0014029 0.00056114 0.00044823 -0.00050845
0.004371 0.0068044 0.24713 0.20407 0.0018275 -0.0013888 -0.0012343 0.00010858
-0.0010525 0.0010231 -0.00061983 0.00039575
-0.0022061 0.00097215 0.0018224 -0.0014027 0.20986 -0.22776 0.0011882 0.0011012
-0.0012944 0.0014253 -0.001198 -0.00068953
0.0014479 -0.0034004 -0.0012403 0.00011341 0.00118 0.0011017 0.23619 -0.049831
-0.0013478 0.0095167 -2.5607e-05 -0.0023191
-0.0014028 0.00056637 -0.0010557 0.0010205 -0.0013153 0.0014336 -0.001312 0.0095297
0.22672 0.10361 0.0034055 0.0072872
0.0004485 -0.00050955 -0.00061897 0.00040898 -0.0011868 -0.00067019 -3.0527e-05 -0.0023024
0.0034193 0.0072855 0.27273 0.13512
1820000000 0.25261 -0.10513 0.0048207 0.0031109 -6.0983e-05 0.0024729 -0.00091843 -0.0031759
-0.0013034 0.00099968 -1.1562e-05 -0.00018056
0.0048116 0.0031126 0.25744 0.17365 -0.00050765 -0.00019131 -0.0013776 0.00090439
2.1705e-05 0.0012539 -0.00063137 0.00050667
-3.6702e-05 0.0024692 -0.00050712 -0.00019304 0.15864 -0.24341 0.0016509 0.00041305
-0.00026189 0.0024185 -0.0013976 0.00039756
-0.00093499 -0.0031666 -0.0013787 0.00090853 0.001643 0.00039641 0.20581 -0.097372
0.00074324 0.008101 -0.001616 -0.0016172
-0.0013003 0.0010032 3.62e-05 0.0012646 -0.00025976 0.0024055 0.00074381 0.0081084
0.24477 0.07485 0.0044736 0.0037888
-1.4342e-05 -0.0001751 -0.00062378 0.00051116 -0.0014009 0.00041679 -0.0016142 -0.0016096
0.0044518 0.0038063 0.27503 0.098724
1880000000 0.21734 -0.14577 0.0026623 0.00053758 -0.00064824 0.0021471 -0.0029792 -0.0023451
-0.00036706 0.0019538 0.00019941 -0.00058564
0.0026582 0.00054497 0.26192 0.12707 -0.0025734 0.001692 -0.00022199 0.0017572
0.00064531 0.0012802 6.0682e-05 0.00099558
-0.00061993 0.002158 -0.0025728 0.0017062 0.10679 -0.25228 0.0017475 -0.00093005
0.0014948 0.0019925 -0.00099681 0.0013252
-0.0029935 -0.0023097 -0.0002065 0.0017475 0.0017472 -0.0009304 0.16454 -0.13736
0.0017766 0.0056417 -0.002171 0.00019441
-0.00036636 0.0019476 0.0006496 0.0012876 0.0015169 0.0019882 0.0018213 0.0056323
0.24938 0.043603 0.0049488 0.0017563
0.00020004 -0.00058664 6.8619e-05 0.0010031 -0.00098912 0.0013081 -0.0021796 0.00023066
0.0049525 0.0017239 0.27522 0.065261
1940000000 0.17784 -0.17179 0.00037262 -0.0013525 0.001481 0.0020075 -0.0038698 0.00045539
0.001324 0.0011756 -0.00075497 -0.00069387
0.00037262 -0.001349 0.26283 0.09506 -0.0012294 0.004133 0.0010138 0.0014093
0.0018742 0.0004081 0.00090333 0.00027476
0.0014904 0.001983 -0.0012026 0.004144 0.061963 -0.24504 0.00048089 -0.0021439
0.0024066 0.00049903 0.00030805 0.001529
-0.0038845 0.00046809 0.0010258 0.0013993 0.00048183 -0.00214 0.11175 -0.16772
0.0011911 0.0041376 -0.0014808 0.0012535
0.0013401 0.0011569 0.0018876 0.00039786 0.0023861 0.00049537 0.0011778 0.0041422
0.2533 0.0052274 0.0038025 -0.0016127
-0.00076283 -0.0006796 0.00090225 0.00026933 0.00031807 0.0015447 -0.0014888 0.0012575
0.0038138 -0.001615 0.26467 0.028949
2000000000 0.13131 -0.18624 -0.0036088 0.00066904 0.0025366 0.001811 -0.0022879 0.0036532
0.0014104 0.00037286 -0.00045375 0.00041488
-0.0036035 0.00067025 0.24832 0.059462 -0.00093131 0.0060075 0.0017748 0.00049015
0.0013447 -0.0011596 0.00059358 0.0001553
0.0025646 0.0017817 -0.00088768 0.0060181 0.018788 -0.2311 -0.0011755 -0.0013603
0.0020902 -0.0010701 0.0015782 0.0015236
-0.0022684 0.0036833 0.001776 0.00048488 -0.0011691 -0.0013572 0.057955 -0.17717
-0.0003944 0.0036001 -0.0001932 0.0020912
0.001416 0.00037975 0.0013355 -0.0011573 0.0021093 -0.0010911 -0.00036858 0.0035879
0.24861 -0.028484 0.00073788 -0.0026485
