!Keysight Technologies,M9804A,MY58100912,A.14.10.03
!Date: Thursday, April 27, 2023 10:28:33
!Correction: S11(C  6-Port  ) 
!S12(C  6-Port  ) 
!S13(C  6-Port  ) 
!S14(C  6-Port  ) 
!S15(C  6-Port  ) 
!S16(C  6-Port  ) 
!S21(C  6-Port  ) 
!S22(C  6-Port  ) 
!S23(C  6-Port  ) 
!S24(C  6-Port  ) 
!S25(C  6-Port  ) 
!S26(C  6-Port  ) 
!S31(C  6-Port  ) 
!S32(C  6-Port  ) 
!S33(C  6-Port  ) 
!S34(C  6-Port  ) 
!S35(C  6-Port  ) 
!S36(C  6-Port  ) 
!S41(C  6-Port  ) 
!S42(C  6-Port  ) 
!S43(C  6-Port  ) 
!S44(C  6-Port  ) 
!S45(C  6-Port  ) 
!S46(C  6-Port  ) 
!S51(C  6-Port  ) 
!S52(C  6-Port  ) 
!S53(C  6-Port  ) 
!S54(C  6-Port  ) 
!S55(C  6-Port  ) 
!S56(C  6-Port  ) 
!S61(C  6-Port  ) 
!S62(C  6-Port  ) 
!S63(C  6-Port  ) 
!S64(C  6-Port  ) 
!S65(C  6-Port  ) 
!S66(C  6-Port  ) 
!S6P File: Measurement: :
# Hz S  RI   R 50
500000000 -0.33289 -0.056942 -0.010153 -0.0018411 -0.0083787 0.012987 -0.0039373 0.011608
0.013791 0.0052202 -0.0042751 0.0075388
-0.010086 -0.0017629 -0.41529 -0.066133 0.0083298 -0.010423 0.00084356 0.01182
0.009107 0.0018958 0.00097635 0.013431
-0.0083131 0.013035 0.0082897 -0.010472 -0.26703 0.19737 0.0070486 0.0034856
-0.0014952 0.0080094 0.00096687 0.012329
-0.0040921 0.011762 0.00093575 0.011968 0.0071008 0.0035459 -0.33203 0.042433
-0.019015 -0.0036722 0.015812 0.025972
0.013561 0.004911 0.0088804 0.0017916 -0.0015311 0.0079327 -0.01896 -0.0036708
-0.24358 -0.20277 -0.027903 0.0055126
-0.004351 0.0077275 0.0010824 0.013603 0.0010555 0.012399 0.015829 0.026006
-0.027903 0.0054541 -0.26981 -0.1267
560000000 -0.31923 0.11155 -0.02235 -0.065021 3.0033e-05 0.013238 0.0054007 0.010735
0.011291 0.0050705 0.00995 0.0097658
-0.022209 -0.064794 -0.37502 0.097287 -0.041615 -0.038889 0.014146 0.0033916
-0.013415 -0.0040035 0.0052677 -0.0018514
2.1873e-05 0.013221 -0.041751 -0.038822 -0.1855 0.24935 -0.00083306 -0.0052825
0.01758 0.0060109 0.0081978 -0.0062996
0.00552 0.010661 0.014109 0.003384 -0.00087875 -0.0053996 -0.306 0.13431
0.005844 -0.024827 0.004885 -0.021672
0.011251 0.0047701 -0.013607 -0.0038858 0.017593 0.0059793 0.0057939 -0.024718
-0.31117 -0.023491 0.0087675 -0.048952
0.0099563 0.0096853 0.0051618 -0.0018749 0.0081511 -0.0063512 0.0048963 -0.021644
0.0088014 -0.049003 -0.33158 0.01923
620000000 -0.27808 0.089545 -0.022971 0.0085607 0.0036078 0.0095102 0.0081763 -0.0042967
0.011411 -0.0015588 0.00028372 -0.0010473
-0.02298 0.0085846 -0.40323 0.045633 -0.018475 0.00043975 -0.0016868 -0.0018036
0.01225 -0.0061238 0.00081321 -0.0028156
0.0036013 0.0095315 -0.018519 0.00048137 -0.15558 0.25801 -0.00082032 -0.0052402
-0.0037692 -0.0026661 0.0097865 -0.0032802
0.0081798 -0.0041687 -0.0016074 -0.0017299 -0.00068644 -0.0051345 -0.26561 0.14463
-0.03856 -0.01982 0.013557 0.026765
0.011492 -0.0017522 0.012221 -0.0063342 -0.0038469 -0.0028302 -0.038526 -0.019724
-0.2289 -0.054986 -0.041996 0.01228
0.00054425 -0.0010415 0.00088379 -0.0028596 0.0098884 -0.0033674 0.013463 0.026708
-0.041944 0.012321 -0.24678 -0.015102
680000000 -0.24025 0.18077 -0.026285 -0.015387 0.004883 0.0048248 0.0010434 -0.0073305
-0.0015179 -0.011434 0.0050709 -0.007051
-0.026255 -0.015411 -0.3908 0.14702 -0.03241 -0.0025096 -0.0015587 -0.00061857
-0.001882 -0.0086583 -0.0014931 -0.0021068
0.0048761 0.0047907 -0.032431 -0.0024295 -0.10501 0.27948 -0.00073949 -0.00030432
-0.0017367 0.000736 -0.0022483 -0.0095346
0.0010781 -0.0074698 -0.0016297 -0.00063011 -0.00084113 -0.00036396 -0.22081 0.19595
-0.023634 -0.0082454 -0.008036 -0.011919
-0.0016626 -0.011374 -0.0018594 -0.0086074 -0.0016883 0.00078994 -0.023654 -0.0082202
-0.27983 0.047753 -0.0057079 -0.0075985
0.0046589 -0.007001 -0.0015519 -0.0020516 -0.0023839 -0.0094376 -0.0080782 -0.011848
-0.0057016 -0.0076116 -0.2609 0.091198
740000000 -0.1944 0.17445 -0.040063 0.026125 0.014094 -0.0045197 -0.00016958 -0.0037051
-0.0044436 -0.0026996 -0.0061503 0.0037932
-0.040023 0.026104 -0.336 0.16544 -0.036891 0.03457 0.00023834 -0.0062056
-0.012107 0.0076533 -0.0012949 -0.0057759
0.014092 -0.0045374 -0.036824 0.034746 -0.07063 0.27692 -0.0018107 0.0033601
-0.0024933 -0.0057394 -0.0015774 0.0011013
-9.0916e-05 -0.0036555 0.00023653 -0.006269 -0.00172 0.0033404 -0.20438 0.20388
-0.041025 -0.0088131 0.021314 0.016169
-0.0045898 -0.0028381 -0.012045 0.007859 -0.0026721 -0.0056868 -0.041074 -0.0087328
-0.18312 0.075768 -0.03949 -0.00051522
-0.0061081 0.0037566 -0.0012753 -0.005872 -0.0014693 0.0010433 0.021268 0.016081
-0.039421 -0.00048829 -0.25157 0.09618
800000000 -0.16404 0.21916 -0.023072 0.016079 0.005514 -0.010331 -0.0045728 -0.0024245
-0.0045619 0.0018857 0.0042022 0.00016175
-0.023054 0.01608 -0.34277 0.23711 -0.0088783 0.034064 -0.0023967 0.0020052
-0.0011745 0.0024141 0.00069097 0.0051234
0.0054613 -0.01032 -0.0088084 0.034138 -0.032261 0.30146 0.00077818 0.0012566
-0.00013958 0.0034096 -0.0021758 0.00072838
-0.0047371 -0.0024645 -0.0024522 0.0020387 0.00073683 0.0013318 -0.17445 0.2306
-0.028616 0.013266 0.013655 -0.010859
-0.0046092 0.0019998 -0.0011458 0.002468 -6.5892e-05 0.0034236 -0.028607 0.013326
-0.22432 0.1018 -0.01835 0.020422
0.0041031 0.00035792 0.00071936 0.0052252 -0.0020547 0.00091717 0.013715 -0.01082
-0.018342 0.020372 -0.24295 0.14461
860000000 -0.12956 0.23972 -0.018371 0.030544 -0.0029101 -0.010054 -0.0022355 0.00059364
0.0037294 0.005263 -0.0029184 -0.0029822
-0.018385 0.030517 -0.2944 0.28048 0.0069513 0.03433 -4.7144e-05 0.0021062
0.0036827 0.00028868 0.0029545 0.00015413
-0.0029423 -0.010059 0.0070699 0.034329 0.015703 0.3098 -0.00065996 -0.00012803
0.0025002 -0.0015942 0.0015125 0.0043599
-0.0021247 0.00053931 -3.2569e-05 0.0020792 -0.00065989 -0.00017882 -0.13791 0.24238
-0.018466 0.017947 -0.0059815 -0.0087788
0.0038567 0.0053242 0.0037136 0.00026797 0.0024673 -0.0015667 -0.018436 0.018003
-0.16805 0.1557 -0.024953 0.016389
-0.0030084 -0.0031605 0.0029626 0.00015744 0.0014375 0.0043343 -0.0060888 -0.0087884
-0.024923 0.016364 -0.19087 0.19243
920000000 -0.10595 0.26287 0.0040801 0.038546 -0.009144 -0.0048192 -0.0021528 0.0017246
0.00061556 0.0019054 0.0026722 -0.0011303
0.0040352 0.038523 -0.26703 0.30198 0.027873 0.023191 0.0013973 0.001465
0.0070864 1.5453e-05 0.0039957 -0.0027116
-0.0091526 -0.0047957 0.027967 0.023121 0.060857 0.31109 0.001905 0.00018301
0.00088855 5.9935e-05 0.0010209 -0.001187
-0.0022284 0.0018346 0.0013818 0.0014932 0.0019043 0.00018505 -0.1137 0.25866
-0.011585 0.030848 0.0037125 -0.0066659
0.00064867 0.001943 0.0071132 2.8735e-05 0.00087995 5.9672e-05 -0.011467 0.030841
-0.15738 0.16194 -0.0021363 0.027266
0.0026975 -0.0010805 0.003958 -0.0026556 0.0010396 -0.0011965 0.0037231 -0.006636
-0.0021779 0.027229 -0.2001 0.20372
980000000 -0.058961 0.28379 0.016621 0.030445 -0.0092982 0.004324 0.0019718 0.0038002
0.0041041 -0.0015053 -0.0029663 -0.0023591
0.016605 0.030459 -0.21392 0.33725 0.033165 0.0058918 0.0020876 -4.2242e-05
0.001825 -0.0060604 -0.00036388 -0.0024266
-0.0092837 0.0043402 0.033199 0.0057974 0.10658 0.30567 0.00074885 -0.0011253
0.00063844 -0.0018939 0.0016079 -0.00018249
0.0019189 0.003766 0.002058 -5.0526e-05 0.0007478 -0.0011237 -0.075107 0.26978
0.0071142 0.02977 -0.0094685 -0.0073681
0.0041004 -0.0015305 0.001784 -0.0060851 0.00064482 -0.0019001 0.007135 0.029768
-0.12341 0.19239 0.0052156 0.019385
-0.0030821 -0.0023248 -0.0003518 -0.0023869 0.0015955 -0.00019979 -0.0095514 -0.0073449
0.0052088 0.019383 -0.1571 0.25
1040000000 -0.017566 0.29274 0.032819 0.01962 -0.0013605 0.0069725 0.0025355 0.00075271
0.00022017 -0.0035127 -1.7356e-05 -0.0014005
0.032781 0.019645 -0.17886 0.35053 0.030143 -0.014131 0.0015417 -0.0018194
-0.002135 -0.0025521 -0.00088915 -0.0027478
-0.0013314 0.0069691 0.030109 -0.014235 0.1523 0.29255 -0.00038482 -0.0016702
-0.0015714 -0.0010081 -0.00046149 -0.001128
0.0026217 0.00082816 0.0015625 -0.0017874 -0.00039763 -0.0016727 -0.048039 0.27951
0.018554 0.019125 -0.0023773 0.0013792
0.000213 -0.0035376 -0.0021737 -0.0024981 -0.0015714 -0.001011 0.018635 0.019056
-0.090557 0.20023 0.013583 0.018953
7.867e-05 -0.0015608 -0.00086667 -0.0027316 -0.00043883 -0.0011336 -0.002341 0.0013674
0.013564 0.018945 -0.1343 0.2704
1100000000 0.027524 0.30234 0.036507 -0.0030099 0.0029239 0.0041155 0.0026106 -0.0011049
-0.0019823 -0.0028693 -0.0038638 -0.00051607
0.036486 -0.0030009 -0.13584 0.36891 0.016224 -0.027561 0.00015869 -0.0018475
-0.00333 -0.0009318 -0.0033727 -0.0008267
0.002938 0.0041153 0.01613 -0.027651 0.19793 0.2737 -0.0018808 6.4682e-05
-0.0018038 0.00039345 -0.0011102 -0.00055575
0.0025656 -0.0011259 0.00013835 -0.0018406 -0.0018898 5.5708e-05 -0.0079525 0.28494
0.024538 0.0062821 -0.0022876 0.00042575
-0.0020068 -0.0028904 -0.0033728 -0.00092451 -0.0017961 0.00040578 0.024529 0.0062669
-0.06996 0.21379 0.019391 0.0090521
-0.0038707 -0.00044281 -0.0033948 -0.00077934 -0.0011458 -0.00054219 -0.0022929 0.00042715
0.019375 0.0090307 -0.088644 0.29913
1160000000 0.078677 0.2986 0.024827 -0.019971 0.0028318 -0.00053962 -0.00024119 -0.002456
-0.0040564 -0.00078694 -0.0007906 0.0041219
0.024858 -0.019922 -0.092443 0.37349 -0.0027722 -0.02939 -0.0016855 -0.0015341
-0.0027411 0.0024604 -0.0014797 0.0018407
0.002861 -0.00055263 -0.0029113 -0.029395 0.2413 0.2442 -0.00087268 0.0016463
-0.00063761 0.0018822 -0.0010243 0.00035721
-0.00018634 -0.0024419 -0.0016594 -0.0015539 -0.00091413 0.001654 0.031546 0.28231
0.021318 -0.0097968 -0.0031188 0.0053511
-0.0040486 -0.00076473 -0.0027548 0.0024616 -0.00065023 0.0018744 0.021343 -0.0098352
-0.035637 0.22205 0.01837 2.4977e-05
-0.0007815 0.0040572 -0.0015274 0.001872 -0.0010123 0.00039198 -0.0030644 0.0053614
0.018362 7.537e-06 -0.042302 0.30141
1220000000 0.12248 0.28873 0.0117 -0.029951 -0.0014986 -0.0011645 -8.74e-06 -0.00091793
-0.0027575 0.0021874 0.00086362 0.00209
0.011719 -0.029898 -0.048726 0.38681 -0.016452 -0.022112 -0.0026808 0.00040516
-7.7193e-05 0.0029808 -0.00091347 0.0020135
-0.0014895 -0.00116 -0.016574 -0.022064 0.28069 0.20628 0.0006845 0.001719
0.0004878 0.0012492 0.00032352 0.00064914
-4.8985e-05 -0.00092689 -0.0026745 0.0004579 0.00068949 0.001708 0.071295 0.27395
0.011369 -0.016447 0.0022848 0.0013269
-0.0027734 0.0021913 -9.8866e-05 0.0029639 0.00048217 0.0012537 0.011336 -0.016445
-0.01184 0.23039 0.014254 -0.012609
0.00089866 0.0021264 -0.00089068 0.0019758 0.00031347 0.0006308 0.0022659 0.0013222
0.014228 -0.012602 -0.01094 0.3175
1280000000 0.17286 0.26867 -0.006903 -0.028895 -0.0020394 0.0022823 -0.00089482 -0.0019252
-0.00084864 0.0031442 0.002603 0.0014291
-0.0069081 -0.028868 -0.0028328 0.3789 -0.023844 -0.0093725 -0.00094809 0.0014411
0.001605 0.0017043 0.00051285 0.0020301
-0.0020417 0.0022964 -0.023915 -0.0092673 0.31204 0.16335 0.001478 4.2391e-05
0.0011895 0.00022615 0.00030054 0.00022682
-0.00085427 -0.0019175 -0.00097913 0.0014119 0.0014612 6.8146e-05 0.10847 0.25832
0.0018326 -0.01895 0.00013772 0.00011876
-0.00082947 0.0031562 0.0016126 0.001678 0.0011679 0.00022713 0.0018138 -0.018984
0.024987 0.23371 0.0033949 -0.014669
0.0025802 0.0013662 0.00053139 0.0020944 0.00033629 0.00021475 0.00013715 0.00015042
0.0034019 -0.014674 0.036409 0.31981
1340000000 0.21019 0.23576 -0.016921 -0.019771 0.00061175 0.0046507 -0.0017622 -0.00087434
0.0014045 0.0026224 0.001732 -0.0012676
-0.016884 -0.019774 0.036648 0.37182 -0.022021 0.0035772 -0.00023704 0.0020429
0.0019407 0.00087034 0.0011983 0.00083476
0.0006348 0.004643 -0.022022 0.0036857 0.33498 0.11609 0.001085 -0.00081688
0.00061944 -0.00054698 4.1939e-05 0.00025666
-0.0017993 -0.00083989 -0.0001885 0.0020541 0.0011095 -0.00083969 0.14186 0.23748
-0.0076123 -0.016937 0.00085596 0.00032218
0.0014227 0.0026425 0.0019451 0.00085913 0.00062322 -0.00055112 -0.0076718 -0.016925
0.054663 0.22879 -0.0032732 -0.013653
0.0017538 -0.001291 0.0011683 0.00080211 2.9184e-05 0.00025486 0.00087007 0.00029456
-0.0032737 -0.013644 0.074204 0.31501
1400000000 0.24423 0.19912 -0.023346 -0.008421 0.0051499 0.0034838 -0.0022254 0.00060737
0.0024499 0.00097707 0.00035799 -0.0016359
-0.023312 -0.0084148 0.074278 0.36003 -0.015575 0.012184 0.0012782 0.0013532
0.001306 -0.00066851 0.0011774 0.00018081
0.0051635 0.0034575 -0.015542 0.012291 0.34868 0.062749 0.00013858 -0.001659
8.7245e-05 -0.00038231 0.00035639 0.00019668
-0.0022177 0.00060033 0.0012738 0.0013506 0.00013745 -0.0016233 0.17147 0.20886
-0.013852 -0.010585 -0.0010032 -0.00036147
0.002458 0.0009525 0.00127 -0.00068021 6.6779e-05 -0.00037815 -0.013863 -0.010547
0.08783 0.22479 -0.0096112 -0.0090393
0.00031987 -0.0016487 0.0012035 0.00019697 0.00037609 0.00018655 -0.0010094 -0.00033081
-0.0096069 -0.0090539 0.1184 0.30467
1460000000 0.26785 0.15607 -0.020698 0.0039235 0.0057123 -0.0016404 -0.001631 0.0016531
0.0020576 -0.00035927 -0.00020838 -0.0010348
-0.020689 0.0038998 0.10929 0.33896 -0.0066982 0.015597 0.0017625 0.00027531
0.0010089 -0.0012882 0.001276 -0.00054171
0.005707 -0.0016721 -0.0066253 0.015649 0.3557 0.008468 -0.0010946 -0.0013799
0.00012739 -0.00018313 0.00066969 -0.000164
-0.0016369 0.001697 0.0017729 0.00023622 -0.001094 -0.0014009 0.19856 0.1796
-0.01541 -0.0042199 -0.0011043 0.0018001
0.0020682 -0.00034961 0.00099209 -0.0013055 0.00014463 -0.00019975 -0.015436 -0.0041851
0.11737 0.21082 -0.011514 -0.0034217
-0.0001664 -0.0010718 0.001222 -0.00051771 0.00065166 -0.00015424 -0.0010886 0.0017795
-0.01151 -0.0034078 0.15186 0.28444
1520000000 0.28093 0.11466 -0.01541 0.0096993 0.0034318 -0.0042762 7.4161e-05 0.0025622
0.0021682 -0.0017538 -0.0011954 -0.0002486
-0.015393 0.0096719 0.14348 0.32477 0.0012808 0.013547 0.0016594 -0.0007697
0.00010572 -0.0011822 0.00037886 -0.001024
0.0034067 -0.0042918 0.0013461 0.013551 0.3491 -0.047795 -0.0010976 -0.0004773
0.00061659 -0.00079997 0.00011123 -0.00014625
8.604e-05 0.0025411 0.0016561 -0.00076208 -0.0010916 -0.00046565 0.22184 0.14108
-0.015524 0.0017 0.0012784 0.0020972
0.0021651 -0.0017743 9.4477e-05 -0.0011907 0.00062654 -0.00079468 -0.015514 0.0017468
0.14508 0.19775 -0.01159 0.0010329
-0.0012127 -0.00021474 0.00039021 -0.0010296 0.00011455 -0.00015721 0.0012709 0.0021022
-0.011594 0.0010284 0.18521 0.26417
1580000000 0.29161 0.069113 -0.0088722 0.01332 -0.00095602 -0.004938 0.0014282 0.0019646
-2.4464e-05 -0.0021847 -0.00029586 0.00026937
-0.0088725 0.013313 0.17151 0.3005 0.0052151 0.0087123 0.00055737 -0.0015809
-0.00054607 -0.0011652 -0.00015661 -0.00090519
-0.00098294 -0.0049379 0.0052754 0.0087035 0.32941 -0.10536 -0.0017063 0.00058688
-0.00030676 -0.0012434 0.00030539 -0.00061335
0.0014547 0.0019828 0.00055609 -0.0016127 -0.001689 0.000567 0.23606 0.1017
-0.012455 0.007064 0.0020849 0.00081594
-5.1248e-05 -0.0021873 -0.00054282 -0.0011601 -0.00029851 -0.0012336 -0.012454 0.0070745
0.16965 0.18064 -0.0095215 0.0067198
-0.00028457 0.00024356 -0.00019565 -0.00089718 0.00027133 -0.00063429 0.0020937 0.00082203
-0.0095128 0.0067239 0.21758 0.23801
1640000000 0.29476 0.027607 -0.0020061 0.012486 -0.002928 -0.0027437 0.002662 0.0010534
-0.00065028 -0.0016847 -0.00047108 0.00066621
-0.0020269 0.01247 0.20191 0.27556 0.0061084 0.0036908 -0.00059465 -0.0017802
-0.0011605 -0.00046693 -0.00047135 -0.00073413
-0.0029504 -0.0027135 0.0061393 0.0036708 0.3012 -0.15489 -0.00076043 0.0014653
-0.001081 -0.001093 -0.00015934 -0.00025038
0.0026515 0.0010476 -0.00060111 -0.0017608 -0.00077829 0.0014771 0.24871 0.052243
-0.0083281 0.0090568 0.002444 -0.00071631
-0.0006705 -0.0016894 -0.001157 -0.00045923 -0.0011009 -0.0010786 -0.0082988 0.0090864
0.19309 0.15727 -0.0050558 0.0089567
-0.00045953 0.00066899 -0.0004919 -0.0007523 -0.00016875 -0.0002449 0.0024432 -0.00073629
-0.0050517 0.0089617 0.24324 0.20677
1700000000 0.28822 -0.017937 0.0015988 0.0099981 -0.0036382 3.6903e-05 0.0032332 -0.0011635
-0.0019739 -0.00083989 0.00052789 0.00055397
0.0015857 0.0099864 0.22039 0.244 0.0040887 0.00062713 -0.0014183 -0.00066472
-0.00085363 2.4721e-05 -0.0010342 -0.00047786
-0.0036294 5.4691e-05 0.0040981 0.00059775 0.25766 -0.1945 0.00046261 0.0017658
-0.0019939 -0.00023111 -0.00045718 -0.00083946
0.0032185 -0.0011881 -0.0014426 -0.00066789 0.00043262 0.0017353 0.24525 0.0019017
-0.0051559 0.010043 0.0016405 -0.0020397
-0.0019904 -0.00083155 -0.00087094 2.7964e-05 -0.0020007 -0.00023162 -0.0051354 0.01005
0.21097 0.1377 -0.00037573 0.009431
0.00053308 0.00056684 -0.0010072 -0.00045828 -0.00047461 -0.00086353 0.0016279 -0.0020546
-0.00036841 0.0094373 0.25979 0.17249
1760000000 0.277 -0.066962 0.0043534 0.0067775 -0.0022265 0.00096488 0.0015244 -0.0033801
-0.0013344 0.00053694 0.00036988 -0.00041778
0.0043502 0.0067853 0.24702 0.20416 0.0018097 -0.0014047 -0.0012382 0.0001217
-0.0010694 0.0010121 -0.00063847 0.00040203
-0.0022128 0.00097057 0.0017962 -0.0014136 0.20985 -0.2278 0.001161 0.0010276
-0.0012867 0.0014023 -0.0012429 -0.00066153
0.0015057 -0.0034386 -0.0012125 0.00011408 0.0011413 0.0010488 0.23622 -0.049863
-0.0013998 0.0094903 -0.00014639 -0.0022962
-0.0013111 0.00053631 -0.0010498 0.0010093 -0.0013084 0.0014188 -0.001371 0.0095072
0.22671 0.1036 0.0034583 0.0072795
0.0003916 -0.00043285 -0.00065261 0.00042396 -0.0012196 -0.00063295 -0.00016409 -0.0023086
0.0034586 0.007279 0.27284 0.13537
1820000000 0.25268 -0.10498 0.0048213 0.0030703 -2.7761e-05 0.0024879 -0.00085451 -0.0031402
-0.0013008 0.0010099 -4.5944e-05 -0.00023487
0.004822 0.0030703 0.25739 0.17372 -0.00048569 -0.00022185 -0.0013782 0.00090738
1.8861e-05 0.0012669 -0.00062419 0.00051392
-1.0772e-05 0.0024889 -0.00048728 -0.00021799 0.15865 -0.2434 0.0016116 0.00035897
-0.00032839 0.0024289 -0.0013697 0.00042451
-0.00086154 -0.0031504 -0.0013863 0.0009432 0.00166 0.00033798 0.20573 -0.097366
0.0006474 0.0080943 -0.0015499 -0.0015496
-0.0012752 0.0010262 3.9921e-05 0.0012828 -0.00028801 0.0024196 0.00067979 0.0080702
0.24464 0.074872 0.0044379 0.0038087
-6.2326e-05 -0.00018995 -0.00061495 0.00050844 -0.0014366 0.00038836 -0.001539 -0.0015315
0.004426 0.0037999 0.2751 0.098533
1880000000 0.21756 -0.14559 0.0026654 0.00056763 -0.00069144 0.0021566 -0.002897 -0.0024323
-0.00031111 0.0018382 0.00016465 -0.00055002
0.0026652 0.00056487 0.26183 0.12718 -0.0025617 0.0016473 -0.00022209 0.0017669
0.00065665 0.0012914 3.9114e-05 0.0010327
-0.00067536 0.0021652 -0.0025581 0.0016705 0.10691 -0.25233 0.0017148 -0.00095063
0.0015209 0.0020039 -0.00089252 0.0014242
-0.0029548 -0.0024002 -0.0002185 0.001767 0.0017006 -0.00093228 0.16454 -0.13729
0.0017408 0.0057059 -0.0022452 0.00024076
-0.0003024 0.0018815 0.00066389 0.0012771 0.0015071 0.0019944 0.0017644 0.0057058
0.24941 0.043613 0.0049843 0.0017079
0.0001392 -0.00061986 6.5084e-05 0.0010326 -0.00085931 0.0014063 -0.0022568 0.00024122
0.0049812 0.0017161 0.27514 0.065426
1940000000 0.17797 -0.17165 0.00031855 -0.001359 0.0014541 0.001963 -0.0039216 0.0004302
0.0013351 0.0011898 -0.0008887 -0.00070896
0.00031949 -0.0013683 0.26275 0.095152 -0.0012456 0.0041292 0.001023 0.0013472
0.0018785 0.00039522 0.00087986 0.00031563
0.0014567 0.0019606 -0.0012348 0.0041477 0.061917 -0.24496 0.00045586 -0.0021928
0.0023304 0.00044212 0.0003432 0.0015321
-0.0039103 0.0004232 0.0010032 0.0013512 0.00049878 -0.0022118 0.11179 -0.16769
0.0012086 0.0041043 -0.001404 0.0012842
0.0013525 0.0011393 0.0018887 0.00038852 0.0023594 0.0004435 0.0012185 0.0041138
0.25327 0.0052699 0.0038638 -0.0016542
-0.00083978 -0.00063191 0.00090632 0.00027594 0.0003298 0.0015285 -0.0013989 0.0013004
0.0038573 -0.0016598 0.26471 0.028977
2000000000 0.13152 -0.18615 -0.00357 0.00064206 0.0025324 0.0018282 -0.0022998 0.0036225
0.0013807 0.00045526 -0.0004134 0.00038944
-0.0035652 0.0006251 0.24828 0.059595 -0.0009255 0.0060388 0.0018003 0.00048903
0.0013223 -0.0011362 0.0005342 0.00020601
0.0025533 0.001822 -0.0008817 0.0060502 0.018884 -0.23106 -0.0011261 -0.0013704
0.0021239 -0.0011358 0.0015555 0.0015637
-0.0022905 0.0036807 0.0018266 0.00046966 -0.0011938 -0.0013605 0.058148 -0.17711
-0.00020787 0.0037271 -0.00026965 0.002145
0.0014003 0.00043721 0.0013135 -0.001178 0.0020742 -0.0010969 -0.00026498 0.0037084
0.24866 -0.028279 0.00067192 -0.0026384
