!Keysight Technologies,M9804A,MY58100912,A.14.10.03
!Date: Thursday, April 27, 2023 10:28:33
!Correction: S11(C  6-Port  ) 
!S12(C  6-Port  ) 
!S13(C  6-Port  ) 
!S14(C  6-Port  ) 
!S15(C  6-Port  ) 
!S16(C  6-Port  ) 
!S21(C  6-Port  ) 
!S22(C  6-Port  ) 
!S23(C  6-Port  ) 
!S24(C  6-Port  ) 
!S25(C  6-Port  ) 
!S26(C  6-Port  ) 
!S31(C  6-Port  ) 
!S32(C  6-Port  ) 
!S33(C  6-Port  ) 
!S34(C  6-Port  ) 
!S35(C  6-Port  ) 
!S36(C  6-Port  ) 
!S41(C  6-Port  ) 
!S42(C  6-Port  ) 
!S43(C  6-Port  ) 
!S44(C  6-Port  ) 
!S45(C  6-Port  ) 
!S46(C  6-Port  ) 
!S51(C  6-Port  ) 
!S52(C  6-Port  ) 
!S53(C  6-Port  ) 
!S54(C  6-Port  ) 
!S55(C  6-Port  ) 
!S56(C  6-Port  ) 
!S61(C  6-Port  ) 
!S62(C  6-Port  ) 
!S63(C  6-Port  ) 
!S64(C  6-Port  ) 
!S65(C  6-Port  ) 
!S66(C  6-Port  ) 
!S6P File: Measurement: :
# Hz S  RI   R 50
500000000 -0.33758 -0.035301 -0.0097242 -0.0034839 -0.0077929 0.011936 -0.0033928 0.011852
0.011572 0.0047002 -0.0040436 0.0089515
-0.0097103 -0.0035071 -0.41942 -0.049916 0.0069459 -0.011539 0.0014203 0.011791
0.0079207 0.0027841 0.00067474 0.013784
-0.0077292 0.011943 0.006965 -0.011583 -0.26544 0.21154 0.0065531 0.003172
5.5685e-05 0.0086158 -0.00018182 0.012196
-0.0035442 0.011756 0.0014079 0.011902 0.0065777 0.0031436 -0.32771 0.047811
-0.019786 -0.0043989 0.018242 0.027279
0.011615 0.0046644 0.0079301 0.002789 4.4274e-05 0.008594 -0.019874 -0.0043429
-0.22628 -0.18616 -0.02879 0.005474
-0.0042358 0.0085576 0.00055547 0.01382 -0.00028891 0.012161 0.01831 0.027249
-0.02872 0.0054894 -0.26051 -0.16232
560000000 -0.31627 0.1248 -0.023663 -0.062977 6.1402e-05 0.012175 0.0060906 0.0099306
0.010726 0.0043244 0.0099888 0.007687
-0.023644 -0.062847 -0.37682 0.10824 -0.041758 -0.03602 0.01318 0.0034668
-0.012983 -0.0044021 0.0043297 -0.00057947
3.2156e-05 0.012135 -0.041934 -0.035906 -0.18311 0.2593 -0.00024759 -0.0048944
0.019067 0.004317 0.0069545 -0.0056619
0.0061935 0.010039 0.013179 0.0035642 -0.00025397 -0.0049261 -0.30316 0.13619
0.0033083 -0.024561 0.0053614 -0.02019
0.010645 0.0041696 -0.01289 -0.0040485 0.018988 0.0041734 0.0032715 -0.024539
-0.28583 -0.010408 0.0078777 -0.051901
0.0098867 0.007788 0.0044092 -0.00052661 0.0069873 -0.005563 0.0054787 -0.020154
0.0079149 -0.051899 -0.33535 -0.0075875
620000000 -0.27359 0.10946 -0.023427 0.007555 0.0034798 0.0085109 0.0068343 -0.0053512
0.011245 -0.00064566 0.00071185 -0.0017956
-0.023421 0.0075825 -0.40261 0.062745 -0.01877 0.00016599 -0.0013047 -0.0020388
0.010357 -0.0070228 0.001271 -0.0023629
0.0035931 0.0085175 -0.018811 0.00023057 -0.15235 0.2687 -0.00155 -0.0052127
-0.0037469 -0.0033207 0.0086633 -0.0032762
0.0066686 -0.0054008 -0.0013857 -0.0020639 -0.0015323 -0.005249 -0.26178 0.14634
-0.038902 -0.018255 0.014388 0.02526
0.011397 -0.00080157 0.010357 -0.0069804 -0.0037745 -0.0032696 -0.038969 -0.018408
-0.20537 -0.049563 -0.042442 0.016563
0.00067215 -0.0018635 0.0011567 -0.0025248 0.0085432 -0.0033303 0.014271 0.025189
-0.042546 0.016529 -0.24793 -0.052097
680000000 -0.23332 0.19377 -0.027999 -0.013668 0.0048203 0.0049823 0.0012336 -0.0074505
-0.0032357 -0.01093 0.0049605 -0.0070457
-0.027956 -0.013685 -0.38715 0.1597 -0.032794 -0.0011439 -0.0016491 -0.00019952
-0.0026452 -0.0090424 -0.00070184 -0.0020408
0.0048335 0.0049573 -0.032814 -0.0010545 -0.10151 0.28797 -0.00062922 -1.995e-05
-0.0022144 0.00077497 -0.0026881 -0.0097232
0.0012496 -0.007363 -0.0016929 -0.00015888 -0.00063248 -8.8955e-06 -0.21812 0.19581
-0.023581 -0.0077134 -0.011073 -0.01099
-0.0031449 -0.01097 -0.0026151 -0.009008 -0.0021975 0.0008122 -0.023624 -0.0076704
-0.25341 0.048951 -0.0054172 -0.0094946
0.0047968 -0.0070431 -0.00069513 -0.0020187 -0.0027114 -0.009746 -0.011171 -0.011004
-0.0054288 -0.0094761 -0.26712 0.061893
740000000 -0.18953 0.18829 -0.038086 0.026825 0.012694 -0.0053011 -0.00069489 -0.0039685
-0.0043163 -0.0029335 -0.0062907 0.0036016
-0.038094 0.026846 -0.3349 0.17849 -0.03471 0.035166 -0.0010151 -0.0063417
-0.011306 0.0081013 -0.002924 -0.0069318
0.012699 -0.0053742 -0.034634 0.035265 -0.06805 0.28638 -0.0014001 0.0032146
-0.0026924 -0.0040979 -0.00078475 0.00016547
-0.00075638 -0.0039769 -0.001032 -0.0063648 -0.001418 0.0031817 -0.20217 0.20347
-0.042299 -0.0072259 0.023298 0.014212
-0.0043407 -0.0028398 -0.011397 0.0081892 -0.0027103 -0.004028 -0.042325 -0.0072796
-0.15619 0.072749 -0.044025 0.0010864
-0.0063737 0.0034925 -0.0028911 -0.0068405 -0.00086382 0.00011335 0.023307 0.014283
-0.044113 0.00099601 -0.2615 0.065626
800000000 -0.15706 0.22862 -0.02214 0.017417 0.0053692 -0.010592 -0.0048256 -0.0019627
-0.0040207 0.002526 0.0046394 0.00054783
-0.022153 0.017368 -0.33721 0.24861 -0.0076149 0.034145 -0.0021889 0.0021871
-0.00066361 0.0033446 0.0012377 0.0052516
0.0053712 -0.010593 -0.0074989 0.034191 -0.026928 0.30924 0.0011048 0.0015628
0.00060895 0.003508 -0.0017115 0.00072593
-0.0048087 -0.0019137 -0.002168 0.0021916 0.0011163 0.0015733 -0.17388 0.23093
-0.028224 0.012956 0.014242 -0.010411
-0.0040256 0.0025141 -0.0006549 0.0033625 0.00064415 0.0035084 -0.028239 0.012987
-0.20041 0.096836 -0.017993 0.018347
0.0045941 0.00060849 0.0012868 0.005259 -0.0016989 0.00076529 0.014251 -0.010414
-0.01801 0.018303 -0.25768 0.12354
860000000 -0.1224 0.24933 -0.016831 0.03113 -0.0033013 -0.010014 -0.002445 0.0012103
0.0040551 0.0050794 -0.0033882 -0.0032114
-0.016843 0.031071 -0.28915 0.29041 0.008437 0.034207 0.00015909 0.0021583
0.0043183 0.00051529 0.0033614 0.00018334
-0.0033151 -0.010013 0.0085596 0.0342 0.021269 0.31708 -0.00038064 -0.00025988
0.0027725 -0.0016109 0.0017288 0.0044801
-0.0023932 0.0012185 0.00016113 0.0021476 -0.00038955 -0.00027243 -0.13827 0.24272
-0.017527 0.018892 -0.006237 -0.0096747
0.0040946 0.0049934 0.0042923 0.00049596 0.0027574 -0.0015867 -0.017558 0.018891
-0.15114 0.14515 -0.025601 0.015736
-0.0033941 -0.0031584 0.0033339 0.00011629 0.0017037 0.0044647 -0.0062327 -0.0096629
-0.025619 0.015709 -0.20594 0.17128
920000000 -0.097109 0.27233 0.0055478 0.037519 -0.0094795 -0.0044453 -0.0017557 0.0021621
0.0012674 0.0017369 0.0025534 -0.0014008
0.0054886 0.037542 -0.26028 0.31098 0.028246 0.021527 0.0015977 0.00098437
0.0068908 -0.00067092 0.0040025 -0.0031421
-0.0095003 -0.0044054 0.02833 0.021441 0.067642 0.31752 0.0017925 -0.00016389
0.001227 -0.00049184 0.00068406 -0.0013012
-0.0017577 0.002135 0.0015913 0.00099459 0.0017872 -0.00016496 -0.11388 0.25903
-0.010096 0.030125 0.0031512 -0.0069336
0.0012397 0.0017176 0.0069317 -0.00063925 0.0012219 -0.00049504 -0.010054 0.030183
-0.14093 0.15114 -0.0015014 0.028441
0.002593 -0.0015034 0.0040319 -0.0031306 0.00070892 -0.0012822 0.0032128 -0.0069022
-0.0015286 0.028424 -0.21991 0.1846
980000000 -0.049635 0.29167 0.01801 0.029654 -0.0089347 0.004624 0.0023975 0.0035703
0.0040008 -0.001615 -0.0031542 -0.0021051
0.017959 0.029656 -0.2076 0.34461 0.033026 0.0043858 0.0020374 -0.00011758
0.001163 -0.006176 -0.0005314 -0.0021426
-0.008934 0.0046685 0.033061 0.0042508 0.11401 0.31076 0.00041097 -0.0012183
-2.6258e-05 -0.0021654 0.0014478 1.7056e-05
0.0024104 0.0035941 0.0020188 -8.0889e-05 0.00040392 -0.0012111 -0.075459 0.27041
0.0078757 0.028736 -0.0096365 -0.0071415
0.0039512 -0.0016512 0.0011512 -0.0061425 -2.9018e-05 -0.0021594 0.007945 0.028761
-0.1089 0.17862 0.0050267 0.019345
-0.0031242 -0.0020487 -0.00052777 -0.0021532 0.0014538 -6.2157e-06 -0.0096345 -0.007094
0.0050029 0.019371 -0.17628 0.23509
1040000000 -0.0069186 0.29986 0.033346 0.017513 -0.0012404 0.0068674 0.0027171 0.00072607
4.2555e-05 -0.0035773 -0.00050343 -0.0016331
0.033334 0.017522 -0.17211 0.35768 0.029052 -0.015187 0.0014901 -0.0017429
-0.0026333 -0.0024535 -0.0014654 -0.0028728
-0.0012058 0.0068849 0.029002 -0.01533 0.16036 0.29686 -0.00055609 -0.001433
-0.0016231 -0.00080895 -0.00055785 -0.0011514
0.0027449 0.00069804 0.0014832 -0.0017401 -0.00057152 -0.0014446 -0.047996 0.28043
0.018758 0.016885 -0.0029055 0.0018812
-2.0358e-05 -0.0035791 -0.0026715 -0.0024247 -0.0016249 -0.00080537 0.018807 0.016889
-0.078072 0.18701 0.013789 0.018393
-0.00048711 -0.0016542 -0.0015247 -0.0028948 -0.00054819 -0.0011603 -0.0029383 0.001847
0.01381 0.018357 -0.15905 0.25867
1100000000 0.038556 0.30713 0.035636 -0.004882 0.0028257 0.0037982 0.002526 -0.0013794
-0.0020339 -0.0030246 -0.0041157 6.7385e-05
0.035611 -0.0048627 -0.12854 0.37472 0.014657 -0.027964 -1.3977e-05 -0.0018261
-0.0032554 -0.0004041 -0.0035908 -0.00046268
0.0028466 0.0037692 0.014556 -0.028045 0.20694 0.27612 -0.0018134 0.00029451
-0.001698 0.00068482 -0.001086 -0.00032163
0.0025393 -0.001385 -1.6743e-05 -0.0018197 -0.0017983 0.00029522 -0.0074204 0.28524
0.023179 0.0045244 -0.0025523 0.00063178
-0.00206 -0.0030535 -0.0032498 -0.00038415 -0.001682 0.0006921 0.02321 0.0044773
-0.059981 0.19983 0.019458 0.0089733
-0.0041344 0.00012683 -0.0036112 -0.00041754 -0.0010654 -0.00029531 -0.0025622 0.00064761
0.019457 0.008985 -0.11202 0.2924
1160000000 0.090207 0.30182 0.023511 -0.02119 0.0025847 -0.00047872 -9.411e-05 -0.0024827
-0.0041058 -0.00051039 -0.001118 0.0041932
0.023514 -0.02115 -0.084605 0.37899 -0.0042359 -0.028961 -0.0017937 -0.0016624
-0.0024036 0.0026985 -0.0013149 0.0016751
0.0025536 -0.00048679 -0.0043736 -0.028976 0.24999 0.2447 -0.00059426 0.0017981
-0.00028899 0.0018882 -0.0010624 0.00021375
-0.00010499 -0.0024882 -0.0018029 -0.0016497 -0.00058078 0.0017998 0.031999 0.28234
0.019421 -0.010487 -0.003152 0.0056873
-0.0041335 -0.00049923 -0.0023839 0.0027369 -0.00031617 0.0018911 0.019417 -0.01051
-0.027079 0.20904 0.018125 0.0010123
-0.0010502 0.0042161 -0.0013003 0.0016567 -0.0010813 0.0002129 -0.0031418 0.0056935
0.018128 0.0010131 -0.064232 0.29648
1220000000 0.13472 0.29003 0.0097548 -0.030157 -0.0015931 -0.00070142 -6.3548e-05 -0.0011012
-0.0026352 0.0025671 0.0012852 0.0019552
0.0097624 -0.030118 -0.040152 0.39054 -0.017178 -0.020779 -0.0025086 0.00051978
0.00033513 0.0029623 -0.0007017 0.0018032
-0.0016027 -0.00069455 -0.017291 -0.020732 0.28878 0.20503 0.00092928 0.0016081
0.00064556 0.0011455 0.00038179 0.00081335
-4.6608e-05 -0.0011059 -0.0025039 0.00053535 0.00093463 0.0016237 0.071748 0.27371
0.0089738 -0.016181 0.0026274 0.0017385
-0.0025858 0.0025656 0.0003613 0.0029741 0.00065463 0.0011442 0.0089657 -0.016183
-0.0039379 0.21875 0.014188 -0.012802
0.0012968 0.0019662 -0.00070801 0.0018247 0.00040092 0.00082624 0.0026533 0.0017466
0.014182 -0.012791 -0.033986 0.31846
1280000000 0.18426 0.26753 -0.008491 -0.028232 -0.0017825 0.0026701 -0.0010723 -0.0020461
-0.00063431 0.0031455 0.0026781 0.0010876
-0.0084721 -0.028204 0.0059864 0.38127 -0.023778 -0.0080695 -0.00095754 0.0015491
0.0017736 0.0016103 0.00056889 0.0020801
-0.0017616 0.0026669 -0.023846 -0.0079645 0.3188 0.16086 0.00146 -0.00020616
0.0010554 3.4546e-05 0.00034631 0.00046058
-0.0010973 -0.0020427 -0.00094339 0.0015571 0.0014721 -0.000205 0.1082 0.25745
-0.0001874 -0.017633 0.00033489 0.0002681
-0.00061413 0.0031462 0.0017918 0.0015731 0.0010601 3.6022e-05 -0.00022607 -0.017632
0.032903 0.22288 0.0029821 -0.014773
0.0026783 0.0010747 0.00059759 0.0020898 0.00036284 0.00048211 0.00034025 0.00025063
0.0029898 -0.014773 0.01549 0.32265
1340000000 0.22121 0.23312 -0.018091 -0.018456 0.0010086 0.0044405 -0.0019851 -0.0008004
0.0015611 0.0026351 0.0017443 -0.0015364
-0.018051 -0.018442 0.04544 0.37242 -0.021391 0.0045833 4.7735e-05 0.0019332
0.0018015 0.00051489 0.0014094 0.00089054
0.0010454 0.004441 -0.021385 0.004684 0.34037 0.11277 0.00091149 -0.00097066
0.00062349 -0.00042612 0.00019392 0.00029378
-0.0019879 -0.00080024 5.4049e-05 0.0019584 0.00091631 -0.0009586 0.14106 0.23727
-0.0086078 -0.014243 0.0013129 0.00019204
0.0015781 0.0026278 0.001817 0.00050837 0.00062141 -0.00041899 -0.0086512 -0.014247
0.063506 0.21853 -0.003488 -0.013314
0.001741 -0.0015526 0.0013977 0.0008906 0.00020909 0.00028798 0.0013162 0.00020619
-0.0034862 -0.013309 0.055241 0.32126
1400000000 0.25382 0.19443 -0.023473 -0.0068377 0.0052156 0.0030288 -0.0020969 0.00078503
0.0025323 0.00072081 0.00027279 -0.0013355
-0.023442 -0.0068589 0.08244 0.35894 -0.014498 0.012581 0.0013893 0.0011793
0.000904 -0.00093981 0.0012262 0.00032894
0.0052314 0.0030016 -0.01445 0.012662 0.35299 0.059378 -5.3461e-06 -0.0014813
-4.2968e-06 -0.00036759 0.00037766 0.00023318
-0.0021027 0.00079788 0.0013799 0.0011808 -1.1396e-05 -0.0014848 0.17084 0.20875
-0.013444 -0.0077556 -0.00059548 -0.00072416
0.002537 0.00072037 0.00090321 -0.00093965 9.3045e-06 -0.00037609 -0.013484 -0.0077263
0.09693 0.21391 -0.0098653 -0.0083462
0.00026404 -0.0013284 0.0012413 0.0003113 0.00037107 0.00023017 -0.00060076 -0.0007125
-0.0098636 -0.0083499 0.10252 0.31241
1460000000 0.27622 0.14985 -0.02021 0.0052303 0.0055801 -0.0017968 -0.0015055 0.0018214
0.0020656 -0.00078665 -0.00023749 -0.00085509
-0.020193 0.005204 0.11629 0.3367 -0.005782 0.015227 0.0016753 8.4166e-05
0.00070768 -0.0011814 0.0012453 -0.00062669
0.005571 -0.0018046 -0.0057078 0.01528 0.35882 0.0052635 -0.0011924 -0.0011889
0.00027685 -0.00011686 0.00078131 -0.00050193
-0.0015017 0.0018343 0.00168 7.8704e-05 -0.0011974 -0.0012024 0.19772 0.17961
-0.013751 -0.0016543 -0.0010001 0.0016898
0.0020603 -0.00080242 0.00070645 -0.0011885 0.0002676 -0.00011276 -0.013752 -0.0016302
0.12714 0.1991 -0.01141 -0.002704
-0.0002248 -0.00082483 0.0012524 -0.000655 0.00079719 -0.00052326 -0.0010059 0.0017009
-0.01139 -0.0027183 0.13693 0.29243
1520000000 0.28784 0.10783 -0.014311 0.010655 0.0031588 -0.0042182 0.0002168 0.0026146
0.0017482 -0.0018119 -0.00117 -0.0002183
-0.014296 0.010636 0.14945 0.32175 0.0017019 0.012926 0.0015537 -0.00082907
2.4029e-05 -0.00080637 0.00032377 -0.0010607
0.0031589 -0.0042382 0.0017803 0.012926 0.3519 -0.050853 -0.00096131 -0.00030702
0.00055692 -0.00081591 -1.553e-06 -0.00013637
0.00023531 0.0026134 0.0015356 -0.00083367 -0.00097041 -0.00030177 0.22143 0.14135
-0.01244 0.0031328 0.0012487 0.0018629
0.0017302 -0.0018245 1.0599e-05 -0.00081212 0.00056452 -0.00081153 -0.012443 0.0031617
0.1557 0.18435 -0.011452 0.0015836
-0.0011808 -0.00021726 0.00032515 -0.0010767 -6.7179e-06 -0.00014243 0.0012452 0.0018469
-0.011455 0.0015767 0.17196 0.27478
1580000000 0.29655 0.061275 -0.0075829 0.01347 -0.00098596 -0.0048814 0.0014969 0.0018218
-0.00054623 -0.0021052 -0.00035555 0.00037401
-0.0075741 0.013449 0.17631 0.29685 0.0052532 0.008069 0.0004153 -0.0015346
-0.00038022 -0.00088872 -0.00026376 -0.00088151
-0.0010037 -0.0048957 0.0053015 0.0080506 0.33161 -0.10813 -0.0014222 0.0005065
-0.00028536 -0.0011336 0.00015499 -0.00059839
0.0014979 0.0018099 0.00039852 -0.0015297 -0.0014335 0.00048994 0.2359 0.10139
-0.0090752 0.006843 0.0020354 0.00057158
-0.00056715 -0.0021013 -0.00037807 -0.00089238 -0.00029813 -0.0011291 -0.0090644 0.0068592
0.18053 0.16563 -0.0089303 0.0070525
-0.0003735 0.00037281 -0.00025602 -0.00088218 0.0001351 -0.00063797 0.0020268 0.00058044
-0.0089294 0.0070517 0.20638 0.24889
1640000000 0.29778 0.019711 -0.00097117 0.012123 -0.0028541 -0.0026202 0.0025769 0.00091948
-0.00092009 -0.0011307 -0.00032793 0.00061319
-0.00098467 0.01211 0.20541 0.27182 0.0057992 0.0032958 -0.00074609 -0.0016028
-0.00084415 -0.00044006 -0.00053191 -0.00068903
-0.0028654 -0.002606 0.0058056 0.0032675 0.3034 -0.15726 -0.00078293 0.0013032
-0.0010666 -0.00081169 -0.00012908 -0.00040016
0.0025898 0.00090011 -0.00075804 -0.0015994 -0.00078126 0.0013081 0.24834 0.051703
-0.0053559 0.0071335 0.0023454 -0.0008251
-0.00093267 -0.0011242 -0.0008429 -0.00043081 -0.0010767 -0.0007975 -0.005328 0.0071551
0.2036 0.13996 -0.004093 0.0092439
-0.00031154 0.00063474 -0.00055754 -0.00068756 -0.00013281 -0.00041115 0.0023403 -0.00084125
-0.0041037 0.0092579 0.23401 0.21858
1700000000 0.2897 -0.025452 0.0023232 0.009154 -0.0035236 0.00012315 0.0028948 -0.0012018
-0.0018671 -0.00033992 0.00061333 0.00042356
0.0023138 0.0091563 0.22328 0.24038 0.0038085 0.00054424 -0.0013691 -0.00053389
-0.00071242 -9.3634e-05 -0.00097019 -0.00044181
-0.0035407 0.00013226 0.0038216 0.000512 0.26 -0.19706 0.00033096 0.001498
-0.0017605 -0.00018207 -0.00063176 -0.00099447
0.0028834 -0.001217 -0.0013691 -0.00052657 0.00033973 0.0014945 0.2448 0.0011012
-0.0035511 0.007011 0.0013648 -0.0021958
-0.0018658 -0.00033212 -0.00070989 -9.2226e-05 -0.0017698 -0.00018451 -0.0035341 0.0070174
0.22104 0.11797 0.00042566 0.0094547
0.00064607 0.00042218 -0.0009778 -0.00043764 -0.00063492 -0.0010029 0.0013491 -0.0021878
0.00043186 0.00946 0.25275 0.18452
1760000000 0.27666 -0.073688 0.0043803 0.0058559 -0.0023255 0.00096093 0.0012787 -0.0033467
-0.00095484 0.00073057 0.00028648 -0.00052835
0.0043684 0.0058509 0.24901 0.20059 0.0015645 -0.0011372 -0.0010879 0.00019466
-0.001148 0.00076326 -0.00060244 0.0005044
-0.0023177 0.00097874 0.0015843 -0.0011507 0.21106 -0.23025 0.0010602 0.0012202
-0.0011408 0.0013878 -0.0014319 -0.00042109
0.0012737 -0.003362 -0.001088 0.00020355 0.0010548 0.0012405 0.23479 -0.050942
-0.0014273 0.0062464 -0.00045754 -0.0023694
-0.00094153 0.0007389 -0.0011425 0.00076428 -0.0011367 0.0013746 -0.0014148 0.0062412
0.23572 0.081305 0.00423 0.0064325
0.00029502 -0.00052117 -0.00059871 0.00051694 -0.0014111 -0.0004121 -0.00046496 -0.0023698
0.0042365 0.0064365 0.26661 0.14698
1820000000 0.25137 -0.11054 0.0044406 0.0023609 -6.8124e-05 0.002494 -0.00097878 -0.0030214
-0.00074487 0.0006631 -4.2578e-06 -0.00013833
0.0044335 0.0023762 0.25878 0.17061 -0.00040934 8.8182e-06 -0.0012865 0.00083033
-0.00024051 0.0013076 -0.00054907 0.0005359
-5.2118e-05 0.0025072 -0.00040089 1.4274e-05 0.16083 -0.24608 0.0015843 0.00054076
-0.00038491 0.0021319 -0.0015228 0.00055063
-0.001017 -0.0030483 -0.0012755 0.00084719 0.0015812 0.00053671 0.20378 -0.09825
-0.00079597 0.0048934 -0.0018427 -0.0015608
-0.00073399 0.0006502 -0.00021845 0.0013099 -0.000377 0.0021283 -0.000786 0.0048962
0.25152 0.050044 0.0050555 0.0028848
-5.2076e-06 -0.00012711 -0.0005337 0.00052314 -0.0015241 0.00053628 -0.0018373 -0.0015533
0.0050488 0.0028825 0.27109 0.11129
1880000000 0.21575 -0.14993 0.0021794 0.00027917 -0.00031021 0.0021892 -0.0028446 -0.002157
-0.00018867 0.0013358 0.00034217 -0.00053613
0.0021689 0.00027593 0.26312 0.12415 -0.002251 0.0016779 -0.00019893 0.0016553
0.00053817 0.0014223 0.00021869 0.0010155
-0.00031191 0.0022051 -0.0022541 0.0016876 0.10891 -0.25575 0.0019624 -0.00091886
0.0014548 0.0020712 -0.00089637 0.0015584
-0.0028654 -0.0021398 -0.00019284 0.0016734 0.0019667 -0.00092929 0.16235 -0.13774
-0.00080602 0.0038409 -0.0025193 0.00070814
-0.00018869 0.0013574 0.00055635 0.0014245 0.0014665 0.002054 -0.00079731 0.0038536
0.25272 0.015582 0.0045671 0.00088606
0.00031993 -0.00053611 0.00022725 0.001006 -0.00088049 0.0015655 -0.0025161 0.00074274
0.0045721 0.00088288 0.27251 0.076848
1940000000 0.17621 -0.17504 -7.0335e-05 -0.0014219 0.0013817 0.0019081 -0.0036942 0.00055148
0.0011178 0.00098469 -0.00070221 -0.00065372
-6.639e-05 -0.0014227 0.26351 0.09232 -0.0011733 0.0038789 0.00092941 0.001344
0.0019855 0.00067768 0.00085886 0.00023648
0.0014122 0.001888 -0.0011462 0.0039012 0.062485 -0.24938 0.000391 -0.0023741
0.0024696 0.00055206 0.00037745 0.0016334
-0.00369 0.00058843 0.00093317 0.0013304 0.00037842 -0.0023688 0.10922 -0.16708
-0.0022141 0.0035366 -0.0014914 0.0018835
0.0011305 0.00097971 0.0019975 0.00067353 0.0024887 0.00055163 -0.0021997 0.0035532
0.25188 -0.024768 0.0031369 -0.0024482
-0.00071139 -0.00063372 0.0008517 0.00022603 0.00036065 0.0016638 -0.0014881 0.0018968
0.0031302 -0.0024383 0.26283 0.041236
2000000000 0.13015 -0.18888 -0.0038807 0.00064807 0.0023799 0.0015499 -0.00228 0.0035968
0.00090266 0.00030591 -0.00064829 0.00040965
-0.0038654 0.00064311 0.24919 0.056848 -0.00089072 0.005682 0.001661 0.00031446
0.0016345 -0.0013894 0.0004864 0.00015812
0.0023799 0.0014965 -0.00085253 0.0057067 0.018828 -0.23478 -0.0014381 -0.0015478
0.0021289 -0.0012159 0.0016977 0.0013652
-0.0022842 0.0035947 0.001639 0.00030624 -0.0014264 -0.0015251 0.056042 -0.17588
-0.003577 0.0044717 7.2748e-05 0.0023928
0.00092384 0.00032265 0.0016221 -0.0013938 0.0021316 -0.0012055 -0.0035595 0.0044913
0.24289 -0.05938 -0.00024598 -0.0030353
