!Keysight Technologies,M9804A,MY58100912,A.14.10.03
!Date: Thursday, April 27, 2023 10:28:33
!Correction: S11(C  6-Port  ) 
!S12(C  6-Port  ) 
!S13(C  6-Port  ) 
!S14(C  6-Port  ) 
!S15(C  6-Port  ) 
!S16(C  6-Port  ) 
!S21(C  6-Port  ) 
!S22(C  6-Port  ) 
!S23(C  6-Port  ) 
!S24(C  6-Port  ) 
!S25(C  6-Port  ) 
!S26(C  6-Port  ) 
!S31(C  6-Port  ) 
!S32(C  6-Port  ) 
!S33(C  6-Port  ) 
!S34(C  6-Port  ) 
!S35(C  6-Port  ) 
!S36(C  6-Port  ) 
!S41(C  6-Port  ) 
!S42(C  6-Port  ) 
!S43(C  6-Port  ) 
!S44(C  6-Port  ) 
!S45(C  6-Port  ) 
!S46(C  6-Port  ) 
!S51(C  6-Port  ) 
!S52(C  6-Port  ) 
!S53(C  6-Port  ) 
!S54(C  6-Port  ) 
!S55(C  6-Port  ) 
!S56(C  6-Port  ) 
!S61(C  6-Port  ) 
!S62(C  6-Port  ) 
!S63(C  6-Port  ) 
!S64(C  6-Port  ) 
!S65(C  6-Port  ) 
!S66(C  6-Port  ) 
!S6P File: Measurement: :
# Hz S  RI   R 50
500000000 -0.3368 -0.034221 -0.0094177 -0.0035776 -0.0076912 0.011562 -0.0032837 0.01155
0.012178 0.0043696 -0.0036414 0.0083085
-0.009475 -0.0034774 -0.41901 -0.048923 0.0074976 -0.011643 0.0014885 0.011854
0.0073821 0.0023588 0.00089666 0.01342
-0.0077179 0.011609 0.0074867 -0.011677 -0.26418 0.21145 0.0070581 0.0031868
8.0304e-05 0.0083545 0.00050818 0.01201
-0.0033251 0.011561 0.0015492 0.011898 0.0070397 0.0031794 -0.32685 0.048494
-0.01928 -0.0044677 0.017966 0.026579
0.011989 0.0044484 0.0073641 0.0022646 7.2634e-05 0.0082995 -0.019223 -0.0044397
-0.22595 -0.18415 -0.027945 0.0056114
-0.0037815 0.0081766 0.00090488 0.013467 0.00051818 0.012004 0.018009 0.02663
-0.0282 0.0053668 -0.26657 -0.14282
560000000 -0.31534 0.12475 -0.024216 -0.063013 0.00052247 0.012085 0.0062369 0.0096181
0.011197 0.0040337 0.0097221 0.0077128
-0.024195 -0.062823 -0.37661 0.10931 -0.041649 -0.037305 0.013562 0.0039211
-0.013807 -0.0052793 0.0045371 -0.00068315
0.00055033 0.012035 -0.041815 -0.037217 -0.18231 0.2591 -0.000602 -0.0050391
0.019144 0.0045268 0.0073392 -0.0060941
0.0061395 0.0096326 0.013599 0.0038708 -0.00057479 -0.0050344 -0.30225 0.13555
0.0043077 -0.024639 0.0050312 -0.019571
0.011294 0.0040637 -0.013761 -0.0050802 0.019022 0.0044718 0.0042891 -0.02465
-0.28483 -0.0092158 0.0081113 -0.051218
0.0096797 0.0077811 0.0046104 -0.00076257 0.0072676 -0.0059432 0.0051972 -0.019645
0.0080786 -0.051152 -0.33411 0.0073615
620000000 -0.27337 0.10949 -0.023105 0.0070878 0.0035708 0.008232 0.006563 -0.0056015
0.011253 -0.00087386 0.00050138 -0.0019897
-0.023081 0.0071684 -0.40239 0.063182 -0.018999 -0.00040083 -0.001228 -0.0020997
0.010086 -0.0069781 0.0010572 -0.0023661
0.0035625 0.0084512 -0.019039 -0.00032281 -0.15246 0.26751 -0.001455 -0.005273
-0.0041206 -0.0029791 0.0078384 -0.003349
0.0064996 -0.0056516 -0.0012933 -0.0020656 -0.001493 -0.0052401 -0.26082 0.14621
-0.038607 -0.018852 0.014208 0.024039
0.011447 -0.00092213 0.010043 -0.0070863 -0.0041834 -0.0030052 -0.038638 -0.01891
-0.2043 -0.04936 -0.041612 0.015708
0.0002099 -0.0022063 0.0010687 -0.0023303 0.0080942 -0.0033686 0.014093 0.024234
-0.041634 0.015346 -0.24853 -0.034114
680000000 -0.23265 0.19356 -0.027932 -0.013916 0.0047432 0.0050151 0.0010982 -0.0074927
-0.0035442 -0.011 0.0046607 -0.006826
-0.027882 -0.013924 -0.38693 0.15969 -0.032979 -0.0012373 -0.0015853 -0.00017235
-0.0029095 -0.0088952 -0.001052 -0.0020393
0.0047585 0.0050119 -0.033028 -0.0011465 -0.10222 0.28738 -0.00059446 0.00027007
-0.0024205 0.00088813 -0.0029473 -0.0097461
0.0011297 -0.0075238 -0.0015729 -0.00012471 -0.00058538 0.00028717 -0.2183 0.19524
-0.023744 -0.0083476 -0.010568 -0.010723
-0.0036065 -0.010994 -0.002933 -0.0089016 -0.0024207 0.00086383 -0.023753 -0.0083093
-0.25181 0.048299 -0.0049756 -0.009811
0.0046332 -0.0068276 -0.0011042 -0.0019973 -0.0029712 -0.0096787 -0.010578 -0.010806
-0.0050758 -0.0096167 -0.26391 0.076077
740000000 -0.18942 0.18852 -0.038645 0.026409 0.012418 -0.0051719 -0.00083977 -0.0039564
-0.0045461 -0.0029222 -0.0059692 0.0036649
-0.038566 0.026412 -0.33496 0.17851 -0.035071 0.035052 -0.00090608 -0.0062953
-0.011045 0.0082247 -0.002954 -0.0064923
0.012416 -0.0051792 -0.034963 0.035162 -0.068512 0.28658 -0.00156 0.0032841
-0.0027455 -0.0036748 -0.00091398 0.00010074
-0.00086735 -0.0039645 -0.00092362 -0.0063071 -0.0015738 0.0032775 -0.20232 0.20312
-0.042704 -0.0079532 0.022174 0.013554
-0.0046029 -0.0029883 -0.010952 0.008337 -0.0027428 -0.0036382 -0.042719 -0.0079313
-0.15683 0.072424 -0.042559 0.00052003
-0.0060081 0.0035862 -0.0028583 -0.0064312 -0.00082296 0.00010555 0.022305 0.013635
-0.042646 0.0004461 -0.25754 0.080998
800000000 -0.15738 0.22864 -0.02257 0.017261 0.0051337 -0.010516 -0.004851 -0.0020227
-0.0038157 0.0029839 0.0046339 0.00087149
-0.022528 0.017207 -0.33732 0.24888 -0.0077883 0.034175 -0.0020793 0.0021736
-0.00048972 0.003465 0.0011461 0.0053065
0.0051381 -0.010535 -0.0076929 0.034235 -0.027256 0.30974 0.0012015 0.0014643
0.0007094 0.0034696 -0.0018072 0.00083701
-0.0048361 -0.002004 -0.0020636 0.0021816 0.0012098 0.0014539 -0.17426 0.23074
-0.028647 0.012796 0.013686 -0.010148
-0.0038864 0.0030389 -0.00052707 0.0034652 0.0007204 0.0034701 -0.028639 0.012845
-0.20069 0.096129 -0.017964 0.017949
0.0046015 0.00089153 0.0011376 0.0052805 -0.0018264 0.00087764 0.013616 -0.010258
-0.017969 0.017908 -0.25055 0.13653
860000000 -0.12264 0.24977 -0.017187 0.031138 -0.0034701 -0.0097054 -0.0025943 0.0013866
0.0042495 0.0050841 -0.0030569 -0.0029211
-0.017179 0.031127 -0.28938 0.29075 0.0082953 0.034099 0.00026378 0.0020422
0.0045658 0.00031992 0.0034311 0.0004841
-0.003502 -0.0097398 0.0084084 0.034119 0.021511 0.31754 -0.00033537 -0.00030842
0.0028997 -0.0015098 0.0015314 0.004575
-0.0025844 0.0014538 0.00026013 0.0020171 -0.00034556 -0.00031249 -0.13854 0.24287
-0.018139 0.018986 -0.0061528 -0.0094973
0.0042047 0.0049674 0.0045513 0.00028495 0.0028707 -0.0015182 -0.018137 0.018992
-0.15234 0.14504 -0.02523 0.015495
-0.0031483 -0.0029106 0.0034471 0.00050872 0.0015676 0.0046062 -0.0062157 -0.009492
-0.025256 0.015452 -0.19998 0.18259
920000000 -0.096981 0.27306 0.0052344 0.037896 -0.0093838 -0.0040679 -0.0017286 0.0022914
0.0012621 0.0015624 0.0026699 -0.0015433
0.0052084 0.037866 -0.26037 0.31179 0.02802 0.021557 0.0015811 0.0010718
0.0067803 -0.00060174 0.0040423 -0.0030728
-0.0094015 -0.0040721 0.028075 0.021515 0.067957 0.3177 0.0017355 -0.00010965
0.0012631 -0.00037359 0.00091144 -0.0010847
-0.0017196 0.002313 0.0015908 0.0010602 0.0017376 -0.00010315 -0.11412 0.25927
-0.010373 0.03013 0.0028314 -0.0065913
0.0012613 0.0015408 0.0068007 -0.00067196 0.0012577 -0.00039569 -0.010325 0.030151
-0.14164 0.15109 -0.0018822 0.028215
0.0026702 -0.0015343 0.0039563 -0.0030624 0.00083037 -0.0011265 0.0027511 -0.0065787
-0.0019425 0.028172 -0.20988 0.19577
980000000 -0.049274 0.29243 0.018056 0.029878 -0.0086379 0.0047888 0.0025509 0.0036857
0.0039121 -0.0017633 -0.0031139 -0.0020655
0.018015 0.029893 -0.20712 0.34541 0.03284 0.0044757 0.0019711 -0.00010281
0.00099827 -0.0061123 -0.00054738 -0.0021576
-0.0086321 0.0048065 0.032868 0.0043737 0.11435 0.31063 0.00039783 -0.0012057
-4.3865e-06 -0.0020933 0.0015862 -9.6423e-06
0.0025549 0.0036759 0.0019981 -0.00012248 0.00039725 -0.0012069 -0.075719 0.27093
0.0073647 0.029006 -0.0094035 -0.0067597
0.00392 -0.0017786 0.00099574 -0.0061256 2.5722e-06 -0.0021085 0.0074079 0.028997
-0.11008 0.17882 0.0048113 0.019195
-0.0031202 -0.0020794 -0.00055339 -0.0021999 0.0015781 4.1518e-06 -0.0094084 -0.0066985
0.004687 0.019131 -0.16625 0.24403
1040000000 -0.0062169 0.30046 0.033376 0.017631 -0.00093166 0.0068668 0.0028755 0.00062949
-0.00010446 -0.0036141 -0.00039811 -0.0014824
0.033327 0.017667 -0.17138 0.35826 0.028952 -0.014937 0.0014889 -0.0016806
-0.0025851 -0.0022786 -0.0014222 -0.0028249
-0.00090721 0.0068544 0.028906 -0.015052 0.1604 0.29651 -0.0004982 -0.0013836
-0.0015625 -0.00075728 -0.0003952 -0.0012436
0.0028633 0.00062788 0.0015062 -0.0017111 -0.00050549 -0.0013768 -0.04787 0.28088
0.018353 0.0172 -0.0028093 0.0021916
-8.7672e-05 -0.0036467 -0.0025876 -0.0022189 -0.0015725 -0.00077517 0.018391 0.017179
-0.078846 0.18775 0.013484 0.018157
-0.0004169 -0.0015212 -0.001482 -0.002773 -0.0004447 -0.0012654 -0.002852 0.0022038
0.013491 0.018155 -0.14749 0.26604
1100000000 0.039372 0.30744 0.03563 -0.0046416 0.0030518 0.0036458 0.002511 -0.0015351
-0.0021307 -0.0030056 -0.0039859 2.9073e-05
0.035597 -0.0046261 -0.12769 0.37498 0.014687 -0.027548 -2.9006e-05 -0.0018257
-0.0030433 -0.00041361 -0.0034526 -0.00055112
0.0030792 0.0036305 0.01459 -0.027622 0.20649 0.27582 -0.0017388 0.00027124
-0.0016124 0.0006625 -0.0010219 -0.00043809
0.0025255 -0.00155 -2.3846e-05 -0.0018241 -0.0017577 0.00026062 -0.0071038 0.28564
0.022806 0.0050535 -0.0022403 0.00091624
-0.0021274 -0.0029945 -0.0030457 -0.00038721 -0.0016083 0.00066693 0.022824 0.005036
-0.060368 0.20096 0.01897 0.0087907
-0.004031 7.3374e-05 -0.0034577 -0.00050646 -0.00098668 -0.0004428 -0.0022329 0.00089292
0.018982 0.0088044 -0.10028 0.29727
1160000000 0.091084 0.30184 0.023674 -0.020908 0.0027122 -0.00065608 -0.00020271 -0.0025622
-0.0040102 -0.00045375 -0.0010242 0.004107
0.023678 -0.020853 -0.083747 0.37865 -0.0038822 -0.028626 -0.0017864 -0.0015715
-0.0023154 0.0025303 -0.0013543 0.0015794
0.0027285 -0.00067425 -0.0040148 -0.028622 0.24934 0.24476 -0.00057255 0.0017136
-0.00033361 0.0017345 -0.001085 0.000136
-0.00022116 -0.0025595 -0.0017908 -0.0015659 -0.00056995 0.0017023 0.032381 0.28247
0.019396 -0.0096579 -0.0027771 0.0055364
-0.004015 -0.00042476 -0.0022932 0.0025462 -0.00033167 0.0017521 0.019408 -0.0096993
-0.026783 0.21051 0.01753 0.00095399
-0.00098727 0.0041123 -0.0013491 0.0015618 -0.0010885 0.00010298 -0.0028082 0.0055757
0.017527 0.00094164 -0.052671 0.30052
1220000000 0.13555 0.28977 0.010074 -0.02988 -0.0015739 -0.00092456 -0.00017269 -0.0010685
-0.0024522 0.002549 0.0013279 0.0018615
0.010083 -0.029846 -0.039588 0.39001 -0.016672 -0.020634 -0.0024714 0.00047093
0.00027471 0.0027267 -0.00070542 0.0017479
-0.0015683 -0.00091486 -0.016792 -0.020592 0.28828 0.20569 0.00086824 0.0014961
0.00054238 0.0011115 0.00022248 0.00077121
-0.00017415 -0.0010606 -0.0024566 0.00048949 0.0008624 0.0014983 0.072084 0.27372
0.0093667 -0.015367 0.0028495 0.001602
-0.002441 0.0025839 0.00027877 0.0027268 0.00053464 0.0011031 0.0093592 -0.015364
-0.0029817 0.21992 0.013918 -0.012307
0.0013416 0.0018612 -0.00070528 0.0017387 0.00023646 0.0007598 0.0028376 0.0016161
0.013897 -0.012256 -0.021672 0.31985
1280000000 0.18478 0.26702 -0.0080011 -0.028119 -0.0018565 0.002398 -0.001126 -0.0019258
-0.0005645 0.0029773 0.0025894 0.00095309
-0.0079823 -0.028089 0.0059878 0.38055 -0.023207 -0.0082567 -0.00096706 0.0014444
0.001538 0.0015285 0.00051536 0.0019927
-0.0018516 0.002411 -0.023256 -0.0081621 0.31885 0.16183 0.0013217 -0.00019362
0.00096338 9.3983e-05 0.00033229 0.00043851
-0.0011295 -0.0019094 -0.00095102 0.0014543 0.0013323 -0.00018991 0.10847 0.25738
0.00075162 -0.017029 0.00049664 -5.3299e-06
-0.00054488 0.0029977 0.001543 0.0015211 0.00096595 0.0001071 0.00072679 -0.017027
0.034344 0.22346 0.0031389 -0.014166
0.0025963 0.00092198 0.00052993 0.0019714 0.00032758 0.00047681 0.00050599 5.4775e-06
0.0031232 -0.014197 0.026626 0.3224
1340000000 0.2215 0.23254 -0.017571 -0.018749 0.00075284 0.0042772 -0.0018716 -0.00071739
0.0014837 0.002544 0.001635 -0.0015316
-0.017535 -0.018749 0.045161 0.37199 -0.021124 0.0041028 -6.308e-05 0.0019133
0.0016556 0.00067619 0.001316 0.00089254
0.00076312 0.0042696 -0.021127 0.0042113 0.34106 0.11383 0.00088702 -0.00082043
0.00062133 -0.00033944 0.00028412 0.00027242
-0.001874 -0.00072243 -4.8206e-05 0.0019213 0.00087171 -0.00082733 0.14115 0.23713
-0.0073609 -0.014318 0.0013595 -8.6e-05
0.0015028 0.0025269 0.0016612 0.00064851 0.00061902 -0.00035196 -0.0073902 -0.014314
0.065033 0.21847 -0.0029686 -0.012917
0.0016101 -0.0015267 0.0013267 0.0009025 0.00028058 0.00027217 0.0013602 -8.3981e-05
-0.0029436 -0.012914 0.065893 0.3194
1400000000 0.25375 0.1939 -0.023208 -0.0073952 0.0048595 0.0030315 -0.0019648 0.00068429
0.0024108 0.00063088 0.00020319 -0.0012909
-0.023167 -0.0074112 0.081946 0.35881 -0.01455 0.012004 0.0013165 0.001244
0.0009451 -0.00075684 0.0012261 0.00030145
0.0048816 0.0030001 -0.014511 0.012085 0.35421 0.059821 0.00012415 -0.0014061
3.2042e-05 -0.00041894 0.00035401 0.00019819
-0.0019802 0.00069353 0.0013189 0.0012454 0.00011786 -0.0014107 0.17091 0.2087
-0.012318 -0.0084484 -0.00070043 -0.0009871
0.002402 0.00060081 0.00094402 -0.00075349 5.1607e-05 -0.00041105 -0.012346 -0.0084295
0.098152 0.21324 -0.009287 -0.0083821
0.000189 -0.0012618 0.0012375 0.00029931 0.00035136 0.00022098 -0.00069749 -0.00098686
-0.0092778 -0.0083774 0.11202 0.30938
1460000000 0.27601 0.14967 -0.020272 0.0045817 0.0053398 -0.0015878 -0.0015296 0.0017044
0.001885 -0.00071519 -0.00027732 -0.00079288
-0.020253 0.0045654 0.11588 0.33702 -0.0062479 0.014802 0.0016644 0.00016986
0.00084006 -0.0010933 0.0011992 -0.00060846
0.0053291 -0.0016242 -0.0061912 0.014844 0.36002 0.0049125 -0.0010359 -0.0012278
0.00026751 -0.00015762 0.00070752 -0.00050736
-0.0015172 0.0017269 0.0016671 0.00016699 -0.0010295 -0.0012224 0.19774 0.17964
-0.013123 -0.0030198 -0.0012325 0.0015177
0.0018753 -0.00072093 0.00083004 -0.0010799 0.00027158 -0.00014297 -0.01313 -0.0030109
0.12791 0.19793 -0.010979 -0.0030407
-0.00027878 -0.00077987 0.0012063 -0.00061474 0.00070681 -0.00052184 -0.0012379 0.001522
-0.010968 -0.0030483 0.14587 0.2888
1520000000 0.28768 0.10788 -0.014715 0.01019 0.0030628 -0.0039124 0.0001246 0.0025555
0.0017384 -0.0016097 -0.0011634 -0.00018607
-0.014712 0.010158 0.14929 0.32223 0.0011818 0.012829 0.0015789 -0.0007944
0.00012395 -0.0009093 0.00029954 -0.001052
0.0030436 -0.0039331 0.0012531 0.012834 0.35271 -0.051513 -0.00092553 -0.00040358
0.00053503 -0.00075676 -7.6712e-07 -0.0001044
0.00014096 0.0025551 0.0015755 -0.00080052 -0.00092606 -0.00039306 0.22152 0.14152
-0.012762 0.0016253 0.00095491 0.001819
0.0017219 -0.0016058 0.00011187 -0.00090661 0.00052537 -0.00076338 -0.012772 0.0016429
0.15583 0.18313 -0.011211 0.001047
-0.0011688 -0.00017163 0.00029825 -0.0010543 -3.4422e-05 -9.956e-05 0.00095101 0.0018214
-0.011198 0.0010341 0.18015 0.26976
1580000000 0.2965 0.061542 -0.0081963 0.013267 -0.00087526 -0.004594 0.0013659 0.0018275
-0.00048445 -0.0019818 -0.00037148 0.0004061
-0.0082003 0.013256 0.17651 0.29743 0.0048026 0.0082926 0.0004564 -0.0015499
-0.00039584 -0.0010483 -0.00029972 -0.00084119
-0.00089 -0.0045893 0.0048667 0.008271 0.33184 -0.10909 -0.001513 0.00043077
-0.00023774 -0.001087 0.00014805 -0.00053464
0.0013771 0.001832 0.00044621 -0.0015463 -0.0015199 0.00041772 0.23619 0.10156
-0.010182 0.0057613 0.0017821 0.00073824
-0.0005134 -0.0019853 -0.00040425 -0.001047 -0.00023825 -0.001108 -0.010176 0.0057905
0.18004 0.16468 -0.0090106 0.0064171
-0.00037961 0.00040044 -0.00028829 -0.00084364 0.00016669 -0.00054998 0.0017796 0.00072339
-0.0090358 0.0064016 0.21334 0.24326
1640000000 0.2981 0.020026 -0.0015871 0.012304 -0.002605 -0.0025428 0.0025329 0.0010122
-0.00074361 -0.0011164 -0.00034209 0.00068684
-0.0015981 0.01229 0.20593 0.27221 0.0055989 0.0036693 -0.00072519 -0.0016351
-0.00097427 -0.00048804 -0.00054155 -0.00064178
-0.0026057 -0.0025179 0.0056317 0.0036362 0.30336 -0.15799 -0.00087739 0.001294
-0.0010054 -0.00085748 -5.9773e-05 -0.00032212
0.0025191 0.0010023 -0.00073604 -0.0016304 -0.00087351 0.001294 0.24879 0.051757
-0.00685 0.0068831 0.0021971 -0.00063066
-0.00075906 -0.0011098 -0.00097111 -0.00048555 -0.00098991 -0.00084987 -0.0068404 0.0069001
0.20278 0.1394 -0.0045704 0.008699
-0.00033181 0.00070025 -0.00054325 -0.00063667 -6.2013e-05 -0.00032323 0.0022016 -0.00062949
-0.004572 0.0087199 0.24002 0.21226
1700000000 0.29026 -0.025468 0.0019277 0.0096769 -0.0033419 0.00011276 0.0029143 -0.0010673
-0.0018182 -0.00041572 0.00062974 0.00042659
0.001912 0.0096661 0.22396 0.24051 0.0037717 0.00086144 -0.0013715 -0.00056463
-0.00082577 -8.1122e-07 -0.00092405 -0.00040313
-0.0033502 0.00012983 0.0037971 0.00085643 0.25943 -0.19783 0.00029189 0.0015935
-0.0017527 -0.00026959 -0.00055779 -0.0009472
0.002899 -0.0010702 -0.0013803 -0.0005548 0.00030111 0.0015931 0.24531 0.00082758
-0.0048671 0.0075683 0.0013082 -0.0019525
-0.0018288 -0.00040132 -0.00082289 8.1822e-06 -0.0017482 -0.00027718 -0.0048561 0.007599
0.22019 0.11793 -0.00024829 0.0092319
0.00063675 0.00043027 -0.00091164 -0.00039083 -0.0005506 -0.00093781 0.0013121 -0.0019611
-0.00023547 0.0092163 0.25748 0.17783
1760000000 0.27724 -0.074063 0.004376 0.0064436 -0.0021446 0.00082783 0.0013796 -0.0032885
-0.0010243 0.00061567 0.00035266 -0.00052346
0.0043693 0.0064503 0.24971 0.20032 0.0017457 -0.0008634 -0.0011018 0.00018895
-0.0011292 0.00088278 -0.00057263 0.00051274
-0.0021464 0.00084658 0.0017479 -0.00087824 0.21029 -0.23052 0.0011242 0.0012629
-0.0011399 0.0013463 -0.0013141 -0.00038872
0.0013623 -0.0032928 -0.001106 0.00019291 0.0011072 0.0012794 0.23505 -0.051418
-0.0021965 0.0073181 -0.00038406 -0.0021158
-0.0010062 0.00062267 -0.0011149 0.00090336 -0.0011319 0.0013669 -0.0021724 0.0073341
0.235 0.081686 0.0035593 0.0066015
0.00034697 -0.00052918 -0.00057408 0.00052858 -0.0013058 -0.00037476 -0.00039277 -0.0021331
0.0035502 0.0065853 0.27049 0.14016
1820000000 0.25178 -0.11112 0.0047123 0.0028658 1.3091e-05 0.0023868 -0.00087026 -0.0030549
-0.00083198 0.00064834 3.2332e-05 -0.00018911
0.004703 0.0028699 0.25927 0.17003 -0.00015834 0.00011976 -0.0012967 0.00085154
-0.00010552 0.0013992 -0.00050288 0.00049949
2.2476e-05 0.0023716 -0.00015443 0.00013013 0.16031 -0.24598 0.0015605 0.00045938
-0.00039982 0.0021155 -0.0014102 0.00054004
-0.0008791 -0.0030388 -0.0012958 0.0008745 0.001555 0.00045952 0.20377 -0.098745
-0.00093006 0.0061191 -0.0016544 -0.0013541
-0.00083152 0.00066146 -8.561e-05 0.001402 -0.00039483 0.0021215 -0.00091813 0.0061359
0.25118 0.050741 0.0045182 0.0032919
5.087e-05 -0.00016515 -0.00050487 0.00050647 -0.0014598 0.00053204 -0.0016604 -0.0013538
0.0045336 0.0032704 0.27365 0.10426
1880000000 0.21581 -0.15067 0.0026026 0.00048683 -0.00037889 0.0020643 -0.0027962 -0.0022506
-0.0002316 0.0013876 0.00039208 -0.00056639
0.0025878 0.00048761 0.26331 0.12339 -0.0020687 0.0016932 -0.00017204 0.0016834
0.00068392 0.0013603 0.00021743 0.00099263
-0.00035917 0.0020425 -0.0020507 0.0017088 0.10828 -0.25523 0.0019177 -0.0010424
0.0014122 0.0020292 -0.00088831 0.0014381
-0.0028291 -0.0022409 -0.00015263 0.0016795 0.0019281 -0.0010306 0.16206 -0.13815
-0.00037669 0.0048644 -0.0022088 0.0008238
-0.00022698 0.0013944 0.00069464 0.0013728 0.0014112 0.0020156 -0.00036655 0.004873
0.25281 0.016314 0.0042618 0.0014849
0.00035623 -0.00060026 0.00022513 0.00098141 -0.00084813 0.0014429 -0.0021999 0.00084304
0.0042718 0.0014854 0.27416 0.070135
1940000000 0.17599 -0.17578 0.00039047 -0.0014212 0.0013634 0.0019264 -0.003739 0.00050225
0.0011283 0.0009975 -0.00071156 -0.00070825
0.00037925 -0.0014182 0.26335 0.091578 -0.001019 0.0038837 0.00096107 0.0013399
0.0020134 0.00050416 0.00081802 0.00022283
0.0013689 0.0019264 -0.0010053 0.0039023 0.062196 -0.24876 0.00029452 -0.0023967
0.0024526 0.00054859 0.00024918 0.0016055
-0.0037593 0.00054612 0.0009638 0.0013258 0.00027827 -0.0024276 0.10887 -0.16731
-0.0013659 0.004188 -0.0010968 0.0017955
0.0011241 0.00098395 0.0020215 0.00048918 0.0024664 0.00054784 -0.0013519 0.0041983
0.25245 -0.024113 0.003142 -0.0016899
-0.00071606 -0.00070557 0.00082588 0.00021893 0.00024709 0.0016168 -0.0011044 0.0017982
0.0031697 -0.0017171 0.26364 0.034368
2000000000 0.12976 -0.18947 -0.0035549 0.00044339 0.0024498 0.0015071 -0.002333 0.0035394
0.00096593 0.00026818 -0.00075854 0.00040576
-0.0035561 0.00043499 0.24874 0.056181 -0.00075051 0.0055512 0.0016168 0.00025912
0.0015125 -0.0015425 0.0005174 0.00012076
0.0024559 0.0015056 -0.00073376 0.0055684 0.01886 -0.23421 -0.0015767 -0.001487
0.0021114 -0.0012246 0.0016668 0.0013198
-0.0023267 0.0035425 0.0016207 0.00024866 -0.001557 -0.0014421 0.055627 -0.17589
-0.0026639 0.0045775 0.00033638 0.0021895
0.00095023 0.00026075 0.0014949 -0.0015549 0.0020831 -0.0012189 -0.0026655 0.004587
