!Keysight Technologies,M9804A,MY58100912,A.14.10.03
!Date: Thursday, April 27, 2023 10:28:33
!Correction: S11(C  6-Port  ) 
!S12(C  6-Port  ) 
!S13(C  6-Port  ) 
!S14(C  6-Port  ) 
!S15(C  6-Port  ) 
!S16(C  6-Port  ) 
!S21(C  6-Port  ) 
!S22(C  6-Port  ) 
!S23(C  6-Port  ) 
!S24(C  6-Port  ) 
!S25(C  6-Port  ) 
!S26(C  6-Port  ) 
!S31(C  6-Port  ) 
!S32(C  6-Port  ) 
!S33(C  6-Port  ) 
!S34(C  6-Port  ) 
!S35(C  6-Port  ) 
!S36(C  6-Port  ) 
!S41(C  6-Port  ) 
!S42(C  6-Port  ) 
!S43(C  6-Port  ) 
!S44(C  6-Port  ) 
!S45(C  6-Port  ) 
!S46(C  6-Port  ) 
!S51(C  6-Port  ) 
!S52(C  6-Port  ) 
!S53(C  6-Port  ) 
!S54(C  6-Port  ) 
!S55(C  6-Port  ) 
!S56(C  6-Port  ) 
!S61(C  6-Port  ) 
!S62(C  6-Port  ) 
!S63(C  6-Port  ) 
!S64(C  6-Port  ) 
!S65(C  6-Port  ) 
!S66(C  6-Port  ) 
!S6P File: Measurement: :
# Hz S  RI   R 50
500000000 -0.3368 -0.03408 -0.0093934 -0.0035818 -0.0076465 0.011462 -0.0032757 0.011583
0.011882 0.0043159 -0.0037237 0.0081367
-0.00945 -0.003563 -0.419 -0.049119 0.0075382 -0.011827 0.0014715 0.01183
0.00735 0.0023918 0.00074681 0.01341
-0.0077702 0.011537 0.0075173 -0.011718 -0.26403 0.21144 0.0070117 0.0030865
0.00010909 0.0082936 0.0005413 0.012027
-0.003301 0.011567 0.00146 0.01171 0.0070136 0.00301 -0.32703 0.048412
-0.019101 -0.0043358 0.017836 0.026703
0.012218 0.0043475 0.007047 0.0025465 -0.00023392 0.0084024 -0.019022 -0.004156
-0.22629 -0.18439 -0.027906 0.0056257
-0.0034197 0.0084456 0.00084341 0.012984 0.0006281 0.0118 0.017797 0.026618
-0.028028 0.0055699 -0.26691 -0.14332
560000000 -0.31556 0.12496 -0.023731 -0.06264 0.00024483 0.011997 0.006151 0.0098318
0.011309 0.0041935 0.0096335 0.0077062
-0.023714 -0.062445 -0.37649 0.10902 -0.041789 -0.037004 0.013687 0.0038145
-0.013673 -0.0052092 0.0045147 -0.00060873
0.00019494 0.0119 -0.042119 -0.036906 -0.18237 0.25885 -0.00075313 -0.0049081
0.018892 0.0045093 0.0072427 -0.0060248
0.0060568 0.0096344 0.013408 0.0037609 -0.00071035 -0.0049811 -0.30194 0.13568
0.004256 -0.024516 0.0053346 -0.019702
0.010794 0.0041347 -0.013159 -0.0042072 0.018764 0.0041337 0.0040717 -0.024591
-0.28479 -0.0091772 0.0080983 -0.051269
0.0098726 0.0075254 0.0042951 -0.00089925 0.0074153 -0.0060651 0.0051724 -0.019647
0.0081133 -0.051242 -0.33407 0.0071645
620000000 -0.27296 0.10962 -0.023206 0.0071644 0.0034476 0.0081764 0.0066021 -0.0057975
0.011527 -0.00079191 0.00037976 -0.0020151
-0.023151 0.007172 -0.40233 0.063056 -0.01915 -0.00033486 -0.0012416 -0.0019756
0.0099389 -0.0070493 0.00097559 -0.0022677
0.0035994 0.0081713 -0.019077 -0.00028443 -0.15277 0.26756 -0.0015872 -0.0050078
-0.0043763 -0.0032639 0.0080589 -0.003184
0.0065624 -0.0057116 -0.0013007 -0.0020048 -0.0015894 -0.0053381 -0.26103 0.14615
-0.03843 -0.019124 0.014156 0.024186
0.011466 -0.0009827 0.0099168 -0.0072076 -0.0041305 -0.0032094 -0.038409 -0.018926
-0.2043 -0.049 -0.041489 0.015451
0.00035447 -0.0019883 0.0010256 -0.0024001 0.0079669 -0.0033969 0.014291 0.024195
-0.041522 0.015428 -0.24895 -0.033913
680000000 -0.23259 0.19336 -0.027979 -0.013921 0.0047315 0.005036 0.001161 -0.007488
-0.0035236 -0.011065 0.0046334 -0.0068547
-0.027962 -0.013947 -0.38693 0.15974 -0.032998 -0.0012296 -0.0015874 -8.545e-05
-0.0028995 -0.008943 -0.0011407 -0.001989
0.0047387 0.0050313 -0.033013 -0.0011167 -0.10223 0.28738 -0.00060577 0.00033879
-0.0023868 0.00084347 -0.0029655 -0.0097026
0.0010782 -0.0074741 -0.0016283 -0.00011319 -0.00060041 0.00028893 -0.21829 0.19512
-0.023725 -0.0083429 -0.010521 -0.010791
-0.0035133 -0.011059 -0.0027606 -0.0089002 -0.0023564 0.00095036 -0.023758 -0.0083855
-0.2518 0.048273 -0.0050967 -0.009678
0.004798 -0.006701 -0.0012115 -0.002108 -0.0029723 -0.0096719 -0.010575 -0.010785
-0.0050766 -0.0096675 -0.26381 0.075989
740000000 -0.18927 0.18842 -0.038504 0.026482 0.012408 -0.0051587 -0.00081481 -0.0040397
-0.0045776 -0.0030511 -0.0059054 0.0037369
-0.038486 0.026465 -0.33505 0.17874 -0.034921 0.035058 -0.00088416 -0.0062682
-0.011033 0.0083161 -0.0030844 -0.0063817
0.012386 -0.0052324 -0.034898 0.035179 -0.068545 0.28674 -0.001524 0.0033116
-0.0027232 -0.0036974 -0.00094622 8.8951e-05
-0.00080448 -0.0039845 -0.00080499 -0.0062358 -0.0014605 0.0032881 -0.20228 0.20307
-0.042672 -0.0079784 0.022171 0.013687
-0.0046418 -0.0029247 -0.011139 0.0083314 -0.0027263 -0.0036288 -0.042677 -0.007995
-0.15684 0.072376 -0.042473 0.00043037
-0.0063814 0.0036051 -0.0028545 -0.006576 -0.00085072 -1.6508e-05 0.022207 0.01366
-0.042484 0.00035478 -0.25775 0.080553
800000000 -0.15732 0.22863 -0.022611 0.017222 0.0051954 -0.010507 -0.0048666 -0.0019903
-0.0039297 0.0030096 0.0044915 0.00090533
-0.022576 0.017257 -0.33736 0.24878 -0.0077686 0.034147 -0.0020645 0.0021637
-0.00048569 0.0034457 0.0011093 0.0052421
0.0050799 -0.01053 -0.0076757 0.034181 -0.027227 0.30974 0.0012154 0.0014283
0.0007185 0.0035073 -0.0018442 0.00081779
-0.0048845 -0.0020015 -0.0020671 0.0021738 0.0012034 0.0014353 -0.17427 0.23078
-0.028649 0.012779 0.013659 -0.010153
-0.0038311 0.0030359 -0.00050728 0.003448 0.00075044 0.0035225 -0.02867 0.012812
-0.20076 0.095953 -0.018005 0.017878
0.0046151 0.00088466 0.0011031 0.0052472 -0.001799 0.00086923 0.013653 -0.010145
-0.018019 0.017861 -0.25074 0.13631
860000000 -0.12266 0.24984 -0.017231 0.031241 -0.0035011 -0.0097247 -0.0026543 0.001508
0.0042563 0.0049814 -0.0031772 -0.0029852
-0.017224 0.031148 -0.28941 0.29069 0.0083236 0.034031 0.00024066 0.0020781
0.0046063 0.00029992 0.0033536 0.00043355
-0.0035018 -0.0097463 0.0084153 0.034055 0.021496 0.31751 -0.00033554 -0.00031319
0.0028593 -0.0015171 0.0015684 0.0046132
-0.0026088 0.0014164 0.00030231 0.0021224 -0.00035077 -0.00028014 -0.13865 0.24303
-0.018171 0.018906 -0.0062721 -0.0095188
0.004311 0.0051036 0.0047559 0.00037068 0.0028236 -0.0014993 -0.018162 0.018949
-0.15221 0.14487 -0.025422 0.015413
-0.0032777 -0.0028838 0.0031786 0.00039691 0.0015161 0.0045803 -0.0062611 -0.0095105
-0.025424 0.015423 -0.19995 0.18225
920000000 -0.097046 0.27307 0.0052239 0.037999 -0.0093462 -0.0040843 -0.0017284 0.0023443
0.001253 0.0015375 0.0026627 -0.0014508
0.0052317 0.03787 -0.26031 0.31176 0.028011 0.021605 0.0015558 0.0010266
0.0067854 -0.00063495 0.0039871 -0.0031988
-0.0093542 -0.0040577 0.028134 0.021542 0.067973 0.31768 0.0017332 -0.00011281
0.0012803 -0.00038925 0.000861 -0.0011556
-0.0017188 0.0023023 0.0015846 0.0010044 0.001754 -0.00011966 -0.11421 0.25926
-0.010423 0.030111 0.0027567 -0.0065728
0.0012511 0.0015041 0.0067108 -0.00074137 0.0012642 -0.0003992 -0.010395 0.030143
-0.14171 0.15105 -0.0019302 0.028233
0.0025094 -0.0015393 0.0039123 -0.0030112 0.0008001 -0.0011095 0.0027278 -0.0065705
-0.0019725 0.028238 -0.21007 0.19559
980000000 -0.049292 0.29249 0.017984 0.02995 -0.0086444 0.004803 0.0025489 0.0037179
0.0039238 -0.0017407 -0.0031043 -0.0021054
0.017994 0.029932 -0.20719 0.34542 0.032798 0.0044748 0.0020151 -0.0001364
0.00098898 -0.0061206 -0.00049416 -0.0021545
-0.008643 0.0048168 0.03285 0.0043777 0.11433 0.31063 0.00041911 -0.0012176
1.494e-05 -0.0021109 0.001583 2.5642e-05
0.002562 0.0036636 0.0020316 -0.00015047 0.00042075 -0.0011985 -0.075721 0.27093
0.0072792 0.029028 -0.0094388 -0.0067367
0.0039791 -0.0017888 0.0010091 -0.0061416 1.4428e-05 -0.0020751 0.0073335 0.029007
-0.11022 0.17874 0.0047154 0.019154
-0.0030591 -0.0021162 -0.00057302 -0.0022149 0.0015845 -3.0029e-05 -0.00945 -0.0067343
0.0046777 0.019159 -0.16664 0.2439
1040000000 -0.0062514 0.30043 0.033374 0.01771 -0.00093085 0.0068887 0.0028427 0.00061514
-7.4292e-05 -0.0036071 -0.00042985 -0.0014978
0.033341 0.017661 -0.17139 0.35822 0.028871 -0.014936 0.0014833 -0.0017357
-0.0026422 -0.0022161 -0.0014676 -0.0027862
-0.00092925 0.0068837 0.028874 -0.015039 0.1604 0.29649 -0.0005191 -0.0013709
-0.0015607 -0.00076231 -0.00042584 -0.0012624
0.0028417 0.00060036 0.0014861 -0.0017135 -0.00051314 -0.0013883 -0.04793 0.28083
0.018322 0.017243 -0.0028249 0.0021898
-7.9395e-05 -0.003677 -0.0026414 -0.0022596 -0.0015174 -0.00076103 0.018359 0.017208
-0.078909 0.18772 0.013514 0.018212
-0.00043307 -0.0015494 -0.0013961 -0.0027035 -0.00038662 -0.0012112 -0.002807 0.0022225
0.013504 0.018197 -0.14758 0.26608
1100000000 0.039348 0.30744 0.035634 -0.0046228 0.0030685 0.0036462 0.0025107 -0.0015031
-0.002105 -0.0029952 -0.0040084 5.678e-05
0.035599 -0.0046407 -0.12772 0.37495 0.014707 -0.027529 -2.902e-05 -0.0018141
-0.0030597 -0.00040078 -0.0034346 -0.0005518
0.0030906 0.0036202 0.014618 -0.027623 0.20647 0.27582 -0.0017752 0.00025061
-0.0016057 0.00065284 -0.00099046 -0.00043204
0.0025399 -0.0015271 -2.706e-05 -0.0018394 -0.0017483 0.00026069 -0.0071477 0.28559
0.022794 0.0050997 -0.0022056 0.00090721
-0.0021414 -0.0029889 -0.0030429 -0.00036868 -0.001589 0.00067768 0.022821 0.0050606
-0.060539 0.20091 0.018966 0.0088723
-0.0040577 0.0001182 -0.0034666 -0.00051187 -0.00099252 -0.00045479 -0.0022303 0.00092635
0.018966 0.0088732 -0.10051 0.29721
1160000000 0.091051 0.30183 0.02367 -0.020907 0.0027502 -0.00064037 -0.00021886 -0.0025775
-0.0040141 -0.00043912 -0.0010343 0.0041381
0.023695 -0.020875 -0.083787 0.37861 -0.0038662 -0.028616 -0.0018 -0.0016328
-0.0023191 0.002531 -0.0013493 0.0015839
0.0027377 -0.00066211 -0.0040244 -0.028632 0.24934 0.24476 -0.00057029 0.0017091
-0.00033468 0.0017427 -0.0011077 9.464e-05
-0.00022626 -0.0025752 -0.0017732 -0.0016051 -0.00057703 0.0016939 0.032297 0.28245
0.0194 -0.0096167 -0.002795 0.0055639
-0.004031 -0.00042332 -0.0023104 0.0025573 -0.00036132 0.0017611 0.019385 -0.0096491
-0.026891 0.21052 0.017532 0.00097107
-0.0009932 0.004084 -0.001362 0.0016441 -0.001105 0.00010316 -0.0027493 0.005576
0.017521 0.00095722 -0.052879 0.30044
1220000000 0.13548 0.28975 0.0101 -0.029896 -0.0015476 -0.00093921 -0.00017232 -0.0010791
-0.0024576 0.0025664 0.0013151 0.0018696
0.010099 -0.029874 -0.039616 0.39002 -0.016657 -0.020638 -0.0024668 0.00045879
0.000252 0.0027439 -0.0007227 0.0017145
-0.0015552 -0.00094127 -0.016754 -0.020572 0.28828 0.20568 0.00086429 0.001495
0.00053162 0.0010993 0.00022338 0.00074011
-0.00019121 -0.0010672 -0.0024622 0.00048215 0.0008439 0.0014898 0.072012 0.27369
0.0093885 -0.015339 0.0028566 0.0016076
-0.0024504 0.0025555 0.00029707 0.0027352 0.00052875 0.0011168 0.0093866 -0.015359
-0.0030133 0.2199 0.013931 -0.012238
0.0013467 0.0018804 -0.00067798 0.0017338 0.00023937 0.00073545 0.0028602 0.0016138
0.013918 -0.012241 -0.021872 0.31983
1280000000 0.18476 0.26706 -0.0079721 -0.028138 -0.0018425 0.0023641 -0.0011314 -0.0019211
-0.0005652 0.0029933 0.0025822 0.0009616
-0.0079694 -0.028107 0.005994 0.38061 -0.023186 -0.0082365 -0.00096555 0.0014498
0.0015319 0.0015306 0.00051805 0.0020039
-0.0018207 0.0024045 -0.02325 -0.0081381 0.31886 0.16181 0.0013268 -0.00018113
0.0009593 0.00010891 0.00033146 0.00045799
-0.0011296 -0.0019062 -0.000968 0.0014642 0.0013023 -0.00020467 0.10839 0.25739
0.00078534 -0.017011 0.00052431 -7.5695e-06
-0.00053962 0.0029839 0.0015514 0.0015519 0.00094334 0.00012459 0.00074002 -0.01702
0.034227 0.22347 0.0031565 -0.014168
0.0025887 0.00097761 0.00052533 0.001993 0.00035307 0.00043885 0.00052651 -1.0081e-07
0.0031641 -0.014177 0.026442 0.32244
1340000000 0.22142 0.23257 -0.017585 -0.018789 0.00075603 0.0042519 -0.0018698 -0.00074053
0.0014724 0.0025392 0.0016183 -0.0015221
-0.017557 -0.018777 0.045155 0.372 -0.021117 0.0040781 -5.6599e-05 0.0019201
0.0016651 0.00065973 0.0013286 0.00090556
0.00076603 0.0042777 -0.021113 0.0041868 0.34106 0.1138 0.0008949 -0.00082791
0.0006183 -0.00034735 0.00028385 0.00026924
-0.001852 -0.00071876 -4.1729e-05 0.0019193 0.0008984 -0.00081147 0.14111 0.23715
-0.0073261 -0.014328 0.0013687 -0.00010401
0.0015153 0.0025254 0.001691 0.00067047 0.00061769 -0.00034744 -0.0073662 -0.014329
0.064961 0.21849 -0.0029468 -0.012891
0.0016242 -0.0015427 0.00136 0.00088368 0.00025528 0.00024294 0.0013685 -0.00010458
-0.0029284 -0.012887 0.065741 0.31941
1400000000 0.25378 0.19398 -0.02321 -0.0074215 0.0048753 0.0030294 -0.0019823 0.00067889
0.0024218 0.00061069 0.00020701 -0.0012619
-0.023191 -0.0074107 0.08193 0.35882 -0.014555 0.011987 0.0013111 0.0012441
0.00095593 -0.00072787 0.001223 0.00030488
0.0048886 0.0030401 -0.014516 0.012082 0.35422 0.0598 9.8112e-05 -0.001408
5.2335e-05 -0.00040491 0.00035327 0.00019054
-0.0019878 0.00068204 0.0013194 0.0012473 9.48e-05 -0.0013841 0.17085 0.20874
-0.012291 -0.0084709 -0.00069251 -0.0010027
0.0024142 0.00059095 0.00094988 -0.00076506 4.1455e-05 -0.00041482 -0.012316 -0.008438
0.098061 0.21327 -0.0092666 -0.008426
0.00019015 -0.0012999 0.0012352 0.00031785 0.0003452 0.00018631 -0.00068808 -0.0010036
-0.0092718 -0.0084263 0.11188 0.30944
1460000000 0.27608 0.1497 -0.020287 0.0045666 0.0052988 -0.0015971 -0.001506 0.0017136
0.0018875 -0.00072368 -0.00028239 -0.00079537
-0.020279 0.0045527 0.11587 0.337 -0.0062469 0.014796 0.0016568 0.00017147
0.00084886 -0.0010663 0.0012055 -0.00061748
0.0053029 -0.0016183 -0.0061892 0.014852 0.36002 0.0048884 -0.0010347 -0.0012379
0.00027106 -0.00014869 0.00071287 -0.00050731
-0.0015278 0.0017084 0.0016597 0.00017312 -0.0010307 -0.0012237 0.19772 0.17971
-0.013117 -0.0030738 -0.0012438 0.0015133
0.0018488 -0.00072686 0.00084033 -0.0010886 0.00029126 -0.00014539 -0.013138 -0.0030453
0.12786 0.19794 -0.010958 -0.0030565
-0.00031361 -0.00079655 0.0012216 -0.00062152 0.00071143 -0.00050756 -0.001223 0.0015096
-0.01096 -0.0030663 0.14571 0.28885
1520000000 0.28771 0.10792 -0.01473 0.010179 0.0030714 -0.0039231 0.00013399 0.0025442
0.0017234 -0.0016191 -0.0011503 -0.00018028
-0.014739 0.010186 0.14928 0.32222 0.0011717 0.012853 0.0015773 -0.00078588
0.00012121 -0.00090201 0.00030453 -0.0010484
0.0030624 -0.0039555 0.0012565 0.012874 0.35274 -0.051562 -0.00092839 -0.00038526
0.00053602 -0.00077186 -1.5893e-05 -0.0001133
0.0001459 0.0025453 0.0015785 -0.0007927 -0.00091791 -0.00039778 0.22148 0.14159
-0.012784 0.0016043 0.00094615 0.0018255
0.0017099 -0.0016485 0.00011531 -0.00090997 0.00055212 -0.00076125 -0.012787 0.0016304
0.15579 0.18313 -0.011196 0.0010158
-0.0011695 -0.00017469 0.00029948 -0.001057 -2.0262e-05 -9.791e-05 0.00094419 0.0018211
-0.011188 0.0010041 0.18001 0.26988
1580000000 0.29651 0.061531 -0.0082036 0.013284 -0.00085615 -0.0046121 0.001361 0.0018323
-0.00050975 -0.0019849 -0.00037262 0.0004048
-0.0082005 0.013265 0.17649 0.29742 0.0048027 0.008293 0.00046785 -0.0015555
-0.00039725 -0.0010401 -0.00030178 -0.00083848
-0.000855 -0.0046155 0.0048649 0.0082784 0.33183 -0.10906 -0.0015097 0.00041523
-0.00022729 -0.0010886 0.00016389 -0.00054713
0.0013683 0.0018205 0.00045252 -0.0015505 -0.0015106 0.00041547 0.2362 0.10161
-0.010204 0.0057346 0.0017726 0.00073854
-0.00052058 -0.0019806 -0.00040559 -0.0010477 -0.00025261 -0.0011023 -0.010196 0.005786
0.17998 0.16469 -0.0090266 0.0063746
-0.00037351 0.0004031 -0.00027912 -0.00086459 0.00015665 -0.00053833 0.0017657 0.00072424
-0.0090292 0.0063843 0.21322 0.2434
1640000000 0.29811 0.020003 -0.001588 0.012336 -0.0025822 -0.002532 0.002523 0.0010117
-0.00075003 -0.0011231 -0.00033818 0.0006917
-0.0015777 0.012326 0.20591 0.27224 0.0056021 0.0037088 -0.00072117 -0.0016403
-0.00097034 -0.00048838 -0.00054732 -0.00063537
-0.002638 -0.0025216 0.0056291 0.0036741 0.30341 -0.15803 -0.00088886 0.0013128
-0.0010093 -0.00082565 -6.7936e-05 -0.00033034
0.0025149 0.00099868 -0.00073891 -0.0016323 -0.00089887 0.0012981 0.24879 0.051799
-0.0068785 0.0068859 0.0021851 -0.00062067
-0.00078242 -0.001123 -0.00098522 -0.00047856 -0.0010305 -0.00083534 -0.0068535 0.0068994
0.20269 0.13945 -0.0045975 0.0086982
-0.00032721 0.00067837 -0.00055104 -0.00063702 -6.1495e-05 -0.00033937 0.0021881 -0.00062125
-0.0045902 0.0086954 0.23999 0.2123
1700000000 0.29029 -0.025481 0.0019442 0.0096909 -0.0033503 0.00013201 0.0029021 -0.0010703
-0.0018232 -0.00042308 0.00062569 0.00045047
0.0019474 0.0096953 0.22396 0.24052 0.0037828 0.00088248 -0.0013779 -0.00056378
-0.00083167 -3.6772e-06 -0.00091601 -0.00039257
-0.0033259 0.00013169 0.0038013 0.0008613 0.25941 -0.19784 0.00030226 0.0015795
-0.0017667 -0.00029343 -0.0005145 -0.00092926
0.0029019 -0.0010824 -0.0013787 -0.00056289 0.0002982 0.0015946 0.2453 0.00088133
-0.0048708 0.0075868 0.0013178 -0.0019471
-0.0018067 -0.00041835 -0.00084228 1.7169e-06 -0.0017374 -0.00029744 -0.0048667 0.007602
0.22014 0.11797 -0.00025921 0.0092219
0.00066312 0.00042495 -0.00091952 -0.00037829 -0.00054665 -0.00093866 0.0013177 -0.0019504
-0.00025444 0.0092154 0.2574 0.17787
1760000000 0.27722 -0.074051 0.0043923 0.006458 -0.0021907 0.00081952 0.0013744 -0.0032713
-0.0010175 0.00060903 0.00036344 -0.00052607
0.0043829 0.0064534 0.2497 0.20035 0.0017411 -0.00086525 -0.0011141 0.00018792
-0.0011264 0.00089256 -0.00056944 0.00051794
-0.0021718 0.00082333 0.0017309 -0.00089653 0.21035 -0.23059 0.0011145 0.001276
-0.0011508 0.0013503 -0.0013279 -0.00039524
0.00136 -0.003301 -0.0010941 0.00018274 0.0011212 0.001284 0.23506 -0.05139
-0.0021849 0.0073304 -0.00037085 -0.0021166
-0.0010118 0.00064381 -0.0011264 0.00090097 -0.0011284 0.0013518 -0.002171 0.0073347
0.23494 0.081768 0.0035275 0.0065953
0.00036081 -0.00050237 -0.00055962 0.00052583 -0.0012946 -0.00035716 -0.0003756 -0.0021217
0.0035243 0.0065866 0.27043 0.14023
1820000000 0.25176 -0.11108 0.0047036 0.0028499 8.0172e-06 0.0023628 -0.00085417 -0.0030394
-0.00083576 0.00066182 5.1467e-05 -0.0001724
0.0047108 0.002847 0.25926 0.17005 -0.00016743 0.00010661 -0.0012915 0.00085359
-9.3617e-05 0.0013996 -0.00049569 0.00050953
9.1378e-06 0.0023927 -0.00015418 0.00013062 0.16034 -0.24597 0.0016006 0.00047081
-0.00038366 0.0021245 -0.0014511 0.00058008
-0.00088044 -0.0030397 -0.0012913 0.00088183 0.0015876 0.00047749 0.2038 -0.098691
-0.0009253 0.0061376 -0.0016496 -0.0013449
-0.00083493 0.00065582 -8.4664e-05 0.0014101 -0.00038747 0.0021286 -0.00091556 0.0061422
0.25114 0.050832 0.0044977 0.0032996
4.123e-05 -0.00017198 -0.00049383 0.00050801 -0.0014423 0.00056085 -0.0016431 -0.0013302
0.0045022 0.0032978 0.27361 0.10431
1880000000 0.21582 -0.15066 0.0026034 0.00047979 -0.00036436 0.0020525 -0.0027917 -0.0022633
-0.000223 0.0014019 0.00036437 -0.00059351
0.0026094 0.0004723 0.26332 0.1234 -0.0020506 0.0016984 -0.00016791 0.0016835
0.00069348 0.0013672 0.00022018 0.0009851
-0.0003586 0.0020217 -0.0020517 0.0017094 0.10832 -0.25526 0.0019292 -0.0010487
0.0014254 0.0020227 -0.00088366 0.0014583
-0.0028133 -0.0022536 -0.00014995 0.0016763 0.0019516 -0.0010529 0.16208 -0.13813
-0.00037401 0.004872 -0.0022164 0.00081622
-0.00021313 0.0014059 0.00068747 0.0013703 0.0013993 0.0020348 -0.00035779 0.0048828
0.25277 0.016401 0.0042371 0.0015052
0.00037521 -0.00058387 0.00023549 0.0009832 -0.00087513 0.0014606 -0.0022093 0.00083235
0.0042441 0.0015085 0.27411 0.070146
1940000000 0.17604 -0.17572 0.00038229 -0.0014316 0.0013497 0.0019191 -0.0037578 0.00051036
0.0011294 0.0010038 -0.00071006 -0.0007068
0.00039051 -0.0014229 0.26336 0.091599 -0.0010256 0.0038989 0.00095443 0.0013442
0.0020254 0.00051491 0.00083036 0.00021904
0.0013566 0.0018808 -0.0009923 0.0038968 0.06198 -0.2487 0.00028059 -0.0024181
0.0024238 0.00052678 0.00026043 0.0016366
-0.0037502 0.00050958 0.00096046 0.0013447 0.00025639 -0.002402 0.10888 -0.1673
-0.0013652 0.0041778 -0.0010855 0.001777
0.0011728 0.00099855 0.0020081 0.00050049 0.0024476 0.00051341 -0.0013374 0.0041819
0.25244 -0.024033 0.0031572 -0.0016767
-0.00068509 -0.00068764 0.0008304 0.0002116 0.00024878 0.0016517 -0.0010881 0.0017938
0.0031582 -0.0016784 0.26363 0.034477
2000000000 0.12976 -0.18942 -0.0035307 0.00043865 0.0024575 0.0014951 -0.0023558 0.0035543
0.00093514 0.00028512 -0.00074889 0.00043287
-0.0035557 0.00041493 0.24876 0.056201 -0.00077953 0.0055538 0.0016224 0.00026456
0.0014868 -0.0015547 0.00051792 0.00013312
0.0024528 0.0014914 -0.00072866 0.0055566 0.018665 -0.23418 -0.0015691 -0.0014596
0.0020711 -0.0012081 0.0016601 0.0013267
-0.0023045 0.0035729 0.0016199 0.000275 -0.0015422 -0.001448 0.055692 -0.17587
-0.0026639 0.0045995 0.00029682 0.0021664
0.00094778 0.00028733 0.0014954 -0.0015661 0.0020929 -0.001247 -0.0026625 0.0046037
