!Keysight Technologies,M9804A,MY58100912,A.14.10.03
!Date: Thursday, April 27, 2023 10:28:33
!Correction: S11(C  6-Port  ) 
!S12(C  6-Port  ) 
!S13(C  6-Port  ) 
!S14(C  6-Port  ) 
!S15(C  6-Port  ) 
!S16(C  6-Port  ) 
!S21(C  6-Port  ) 
!S22(C  6-Port  ) 
!S23(C  6-Port  ) 
!S24(C  6-Port  ) 
!S25(C  6-Port  ) 
!S26(C  6-Port  ) 
!S31(C  6-Port  ) 
!S32(C  6-Port  ) 
!S33(C  6-Port  ) 
!S34(C  6-Port  ) 
!S35(C  6-Port  ) 
!S36(C  6-Port  ) 
!S41(C  6-Port  ) 
!S42(C  6-Port  ) 
!S43(C  6-Port  ) 
!S44(C  6-Port  ) 
!S45(C  6-Port  ) 
!S46(C  6-Port  ) 
!S51(C  6-Port  ) 
!S52(C  6-Port  ) 
!S53(C  6-Port  ) 
!S54(C  6-Port  ) 
!S55(C  6-Port  ) 
!S56(C  6-Port  ) 
!S61(C  6-Port  ) 
!S62(C  6-Port  ) 
!S63(C  6-Port  ) 
!S64(C  6-Port  ) 
!S65(C  6-Port  ) 
!S66(C  6-Port  ) 
!S6P File: Measurement: :
# Hz S  RI   R 50
500000000 -0.33677 -0.033941 -0.010092 -0.0036456 -0.0080838 0.011792 -0.0036532 0.011721
0.012129 0.0046452 -0.003978 0.0083431
-0.010082 -0.0036191 -0.41912 -0.048914 0.0074664 -0.011552 0.001276 0.011888
0.0071859 0.002062 0.00053311 0.013054
-0.0080714 0.011816 0.0074362 -0.011579 -0.26466 0.21161 0.0068739 0.0032893
-0.00047366 0.0081827 0.00027383 0.012111
-0.0036404 0.011736 0.0013067 0.011904 0.0068744 0.0032841 -0.32724 0.048779
-0.019985 -0.0046029 0.017726 0.02646
0.012166 0.0046055 0.0072097 0.0020408 -0.00047527 0.0081797 -0.019992 -0.0045807
-0.22759 -0.18228 -0.028396 0.0047683
-0.0039398 0.0083599 0.00057448 0.013062 0.00027062 0.012101 0.017716 0.026448
-0.028397 0.0047597 -0.26862 -0.13851
560000000 -0.31602 0.12557 -0.02383 -0.06303 0.00017734 0.012526 0.0060957 0.0096184
0.010651 0.0043325 0.0097663 0.0074667
-0.023781 -0.062957 -0.37614 0.10928 -0.041943 -0.036785 0.013616 0.0040316
-0.013519 -0.0042333 0.0041025 -0.00072921
0.00021738 0.012498 -0.042056 -0.036713 -0.18304 0.2594 -0.00046373 -0.0048971
0.018802 0.0039558 0.0075217 -0.0060687
0.006129 0.0095835 0.013614 0.0040194 -0.00046455 -0.004903 -0.30255 0.13606
0.0036908 -0.024637 0.0052121 -0.019346
0.010674 0.0043095 -0.013563 -0.0042199 0.018813 0.0039629 0.0036658 -0.024653
-0.2863 -0.0082339 0.0074336 -0.050903
0.0097641 0.0074572 0.0041053 -0.00071775 0.0075119 -0.006073 0.0052142 -0.019346
0.0074493 -0.050903 -0.33461 0.011879
620000000 -0.27267 0.1103 -0.023302 0.0072514 0.0036455 0.0084727 0.0068671 -0.0054847
0.011353 -0.00067156 0.00051496 -0.0016529
-0.023285 0.0072401 -0.40234 0.062914 -0.019 -0.00040917 -0.0013372 -0.0020585
0.010149 -0.0073332 0.0010319 -0.0028558
0.0036503 0.00845 -0.019022 -0.00035824 -0.15291 0.26761 -0.0012892 -0.0052926
-0.0041403 -0.0031436 0.0083123 -0.0034565
0.0068691 -0.0055191 -0.0013548 -0.0020548 -0.001287 -0.0052915 -0.26078 0.14671
-0.039161 -0.018641 0.014205 0.024548
0.011389 -0.00069344 0.010146 -0.0073574 -0.0041429 -0.003161 -0.039193 -0.018622
-0.20518 -0.047068 -0.041127 0.015603
0.00055119 -0.0016154 0.0010057 -0.0028606 0.0082941 -0.0034554 0.014186 0.024508
-0.041148 0.015591 -0.25061 -0.027975
680000000 -0.2325 0.19397 -0.028005 -0.013575 0.0047682 0.0050402 0.0011509 -0.0073525
-0.0031069 -0.011155 0.0046908 -0.007168
-0.027981 -0.013585 -0.38686 0.15982 -0.032919 -0.0012092 -0.0016377 -0.00010699
-0.0026266 -0.0090233 -0.0010201 -0.0021122
0.0047853 0.0050228 -0.032952 -0.0011364 -0.10181 0.2875 -0.00073946 0.00019038
-0.0023589 0.00087416 -0.0031703 -0.009618
0.0011296 -0.0073741 -0.0016451 -0.0001061 -0.00074299 0.00018088 -0.21822 0.19551
-0.023776 -0.00802 -0.010519 -0.010455
-0.0031388 -0.011158 -0.0026532 -0.0090182 -0.0023588 0.00088199 -0.023803 -0.008004
-0.25258 0.051078 -0.0056927 -0.0093732
0.004675 -0.0071806 -0.0010276 -0.0021111 -0.0031676 -0.0096164 -0.010562 -0.010433
-0.0056946 -0.009369 -0.26341 0.080292
740000000 -0.18933 0.18894 -0.038222 0.026663 0.012576 -0.0052391 -0.00081866 -0.0040254
-0.0045686 -0.0029973 -0.0062127 0.0034045
-0.038213 0.026646 -0.33502 0.17874 -0.034969 0.035016 -0.00088554 -0.0061427
-0.011226 0.0083932 -0.0028639 -0.0064685
0.01258 -0.0052577 -0.034905 0.035148 -0.068522 0.28639 -0.0015891 0.0033404
-0.0027696 -0.0040419 -0.001091 0.00014782
-0.00083144 -0.0040177 -0.0009227 -0.0061523 -0.0015815 0.0033453 -0.20206 0.20322
-0.042645 -0.0072249 0.022661 0.013409
-0.0045886 -0.0029839 -0.011191 0.0084395 -0.0027726 -0.0040251 -0.042671 -0.0071731
-0.15602 0.073821 -0.042393 0.0010175
-0.0061818 0.0033738 -0.0029062 -0.0064745 -0.0010762 0.00015864 0.022672 0.013395
-0.042394 0.00096444 -0.25637 0.085724
800000000 -0.15695 0.22889 -0.022405 0.017352 0.0052892 -0.010557 -0.0047468 -0.0018952
-0.0039431 0.0028215 0.0044449 0.00083406
-0.02241 0.017338 -0.33732 0.24869 -0.0078122 0.03431 -0.0020652 0.0022723
-0.00067024 0.0036178 0.0011796 0.0053667
0.0052732 -0.010558 -0.0077121 0.034355 -0.027382 0.30963 0.0012314 0.0014681
0.00073943 0.0035055 -0.0018775 0.0010364
-0.0047503 -0.0018781 -0.0020568 0.0022752 0.0012381 0.0014704 -0.17407 0.23083
-0.028456 0.013132 0.013784 -0.0098975
-0.0039425 0.0028315 -0.00065012 0.0036172 0.00074572 0.0035162 -0.02844 0.013189
-0.19993 0.09845 -0.017791 0.018093
0.0044532 0.00084559 0.001215 0.005372 -0.0018748 0.0010484 0.013778 -0.0099083
-0.017806 0.018064 -0.24895 0.14075
860000000 -0.12242 0.24984 -0.0171 0.031231 -0.0034164 -0.0099314 -0.0025153 0.0014012
0.0041716 0.0051006 -0.0031336 -0.0030438
-0.017117 0.031207 -0.28959 0.29057 0.0083787 0.034343 0.00014549 0.0021973
0.0044381 0.00037886 0.0033977 8.3721e-05
-0.0034339 -0.0099242 0.0084995 0.034356 0.021064 0.3176 -0.00033137 -0.0002673
0.0026513 -0.0016388 0.0016679 0.0044632
-0.0025037 0.0014198 0.00015476 0.0021999 -0.00032991 -0.0002684 -0.13856 0.24298
-0.017903 0.019121 -0.0061155 -0.0095656
0.0042029 0.0050815 0.0044387 0.00037567 0.0026448 -0.0016416 -0.017874 0.019164
-0.15049 0.14649 -0.024621 0.015708
-0.0031552 -0.0030448 0.00341 6.3605e-05 0.0016701 0.0044681 -0.0061338 -0.0095522
-0.024631 0.015675 -0.19751 0.18545
920000000 -0.096796 0.27293 0.0054031 0.037824 -0.0095197 -0.0043138 -0.0016657 0.0022892
0.0014173 0.0015924 0.0025297 -0.0015318
0.0053853 0.037799 -0.26038 0.31147 0.028345 0.021684 0.0016461 0.0010313
0.0069534 -0.00077165 0.0039043 -0.0030483
-0.0095322 -0.0042799 0.028456 0.021605 0.067705 0.31803 0.0017562 -0.00018889
0.0012782 -0.00045243 0.00076432 -0.0011642
-0.0016598 0.0023064 0.0016498 0.0010123 0.0017542 -0.00018525 -0.1142 0.2593
-0.01011 0.030374 0.0028873 -0.0068046
0.0014084 0.001583 0.0069553 -0.00078587 0.0012791 -0.00045506 -0.010053 0.030409
-0.14017 0.1528 -0.0014804 0.027952
0.0025358 -0.0015386 0.0039049 -0.0030783 0.00075678 -0.0011682 0.0028865 -0.0068218
-0.0014989 0.027938 -0.20718 0.19896
980000000 -0.049252 0.29236 0.018058 0.029902 -0.0088794 0.0047048 0.0024817 0.003619
0.0039301 -0.0016818 -0.003018 -0.002059
0.018012 0.029895 -0.20762 0.34501 0.033202 0.0043987 0.0019805 -0.00012727
0.0010428 -0.0060945 -0.00047272 -0.0022168
-0.0088728 0.0047318 0.033282 0.004294 0.11419 0.31115 0.00041756 -0.0012224
-4.9345e-05 -0.0021732 0.0015456 9.1216e-06
0.0024867 0.0036202 0.0019968 -0.00014039 0.00042071 -0.0012243 -0.0758 0.27091
0.0078407 0.029016 -0.0094494 -0.0067964
0.0039311 -0.0017004 0.0010031 -0.0061013 -4.9454e-05 -0.0021753 0.0079013 0.029012
-0.10813 0.17988 0.0052376 0.018978
-0.0030356 -0.002047 -0.00045862 -0.0022319 0.0015516 9.3772e-06 -0.0094543 -0.0067946
0.0052135 0.01898 -0.16395 0.24609
1040000000 -0.0062962 0.30029 0.033608 0.017606 -0.0011249 0.006928 0.0028164 0.00064313
-8.0926e-05 -0.0035849 -0.00052715 -0.0015383
0.033578 0.017611 -0.1719 0.35815 0.029152 -0.01525 0.0014254 -0.001718
-0.0027025 -0.0023878 -0.0015149 -0.0027291
-0.0011145 0.0069347 0.029136 -0.015385 0.16062 0.29715 -0.00056192 -0.001406
-0.0015805 -0.00079342 -0.00039108 -0.0012245
0.0028139 0.00064204 0.0014363 -0.0017485 -0.00057102 -0.0014006 -0.048004 0.28108
0.01903 0.017067 -0.0031253 0.0019875
-0.00010018 -0.0036004 -0.0027162 -0.0023624 -0.0015739 -0.00079489 0.019077 0.017026
-0.077111 0.18827 0.013899 0.017863
-0.00054144 -0.0015277 -0.0015152 -0.0027495 -0.00038804 -0.0012235 -0.00312 0.0019922
0.013885 0.017874 -0.1442 0.26806
1100000000 0.039275 0.30742 0.035835 -0.004922 0.0030078 0.0037886 0.0024736 -0.0014695
-0.0021087 -0.0030258 -0.0039994 0.00012745
0.035808 -0.0048945 -0.12837 0.37513 0.014729 -0.028082 -7.1647e-05 -0.001799
-0.0032128 -0.00035189 -0.003511 -0.00039594
0.003022 0.0037832 0.014643 -0.028173 0.20722 0.27627 -0.0018107 0.00029526
-0.0016934 0.00070651 -0.0010583 -0.00038649
0.0024701 -0.0014801 -7.283e-05 -0.0018057 -0.0018113 0.00030035 -0.0071258 0.28592
0.023456 0.0045224 -0.0024923 0.00085509
-0.0021243 -0.0030313 -0.0032276 -0.00033131 -0.0016951 0.00069912 0.023479 0.0044808
-0.058898 0.20108 0.019222 0.0083333
-0.0040011 0.00013934 -0.0035095 -0.00039166 -0.0010497 -0.00038916 -0.0024957 0.00085628
0.01921 0.008342 -0.097216 0.29867
1160000000 0.090817 0.30203 0.023636 -0.02128 0.0027397 -0.00052553 -0.00017171 -0.0025255
-0.0040557 -0.0005095 -0.0010642 0.0040956
0.023644 -0.021251 -0.084204 0.37937 -0.0042546 -0.029023 -0.0018221 -0.0015662
-0.0023168 0.0026772 -0.001372 0.0017075
0.002729 -0.00054047 -0.0043634 -0.029035 0.25025 0.24474 -0.00056494 0.0017922
-0.00035463 0.0018459 -0.0011073 0.00013673
-0.00019451 -0.0025366 -0.0018126 -0.0015693 -0.00056522 0.001789 0.032529 0.28288
0.019652 -0.010598 -0.0028676 0.005554
-0.0040606 -0.00049501 -0.0023118 0.0027027 -0.00034639 0.0018504 0.01965 -0.010633
-0.025938 0.21041 0.01793 0.00041125
-0.0010546 0.0041019 -0.0013491 0.0017054 -0.0011145 0.00014034 -0.0028645 0.0055594
0.017916 0.00041878 -0.049819 0.30194
1220000000 0.13539 0.29014 0.0097998 -0.030258 -0.0015876 -0.00087548 -0.00013493 -0.0011134
-0.0025461 0.0025565 0.0013381 0.0019019
0.0098169 -0.030218 -0.03958 0.39083 -0.017252 -0.020773 -0.0024943 0.00053372
0.00035507 0.0029032 -0.00066068 0.0018156
-0.0015998 -0.00087948 -0.017355 -0.020718 0.28908 0.20497 0.00093658 0.0015917
0.00060798 0.0011436 0.0002376 0.00073863
-0.00014212 -0.0011127 -0.0024897 0.00054635 0.00093491 0.0015996 0.072501 0.27396
0.0091199 -0.016396 0.0027076 0.0017765
-0.0025307 0.0025748 0.00036541 0.0029168 0.00061411 0.0011529 0.0091074 -0.016408
-0.0022825 0.22 0.013679 -0.012955
0.0013359 0.0018934 -0.00064363 0.0018196 0.00023686 0.00073815 0.0027104 0.0017681
0.01367 -0.012948 -0.018384 0.3207
1280000000 0.18495 0.2674 -0.0085017 -0.028394 -0.0018521 0.0025728 -0.0011079 -0.0019335
-0.00061475 0.0031353 0.002632 0.00098336
-0.008487 -0.028371 0.0065969 0.38129 -0.02381 -0.0080172 -0.0009014 0.0015368
0.0017007 0.001527 0.00059114 0.0020098
-0.0018502 0.0025833 -0.023875 -0.0079118 0.31911 0.16067 0.001394 -0.00026105
0.0010143 6.7485e-05 0.00031819 0.00042966
-0.001114 -0.0019247 -0.00089104 0.0015417 0.0013893 -0.00025848 0.10898 0.25739
-0.00022509 -0.017875 0.00037718 0.00016946
-0.00059157 0.0031518 0.0017193 0.0015237 0.0010147 6.0501e-05 -0.00025702 -0.01788
0.034752 0.22385 0.0027058 -0.014859
0.0026277 0.00097426 0.00059916 0.002003 0.00032209 0.00043316 0.00037747 0.00016825
0.0027066 -0.014859 0.029929 0.32275
1340000000 0.22182 0.23287 -0.018149 -0.018568 0.00089461 0.004412 -0.0019405 -0.00072336
0.0015241 0.0025983 0.0016269 -0.00156
-0.018126 -0.01856 0.04602 0.37217 -0.02136 0.004598 2.8679e-05 0.0019097
0.0017282 0.00052845 0.0013974 0.00088708
0.0009055 0.0044009 -0.021361 0.0047175 0.34042 0.11268 0.00089033 -0.00092426
0.00055522 -0.00040702 0.00018552 0.00035516
-0.001936 -0.00072034 3.7708e-05 0.0019085 0.00088703 -0.00092243 0.1417 0.23685
-0.0087137 -0.014474 0.00127 0.00017787
0.0015282 0.0025896 0.0017457 0.0005236 0.00055275 -0.00040792 -0.0087495 -0.014457
0.06562 0.21912 -0.0038527 -0.01327
0.0016198 -0.0015769 0.0014134 0.00087678 0.00019005 0.00035556 0.001266 0.00017531
-0.0038588 -0.013271 0.069286 0.31923
1400000000 0.25427 0.19385 -0.023584 -0.0069299 0.0051424 0.0030844 -0.0019831 0.0007666
0.0025203 0.00067223 0.00018046 -0.0013164
-0.023551 -0.0069455 0.082842 0.35845 -0.014457 0.012541 0.0013631 0.0011645
0.00091418 -0.00089488 0.0012245 0.00024748
0.0051489 0.0030664 -0.014415 0.012624 0.35312 0.059385 1.5562e-05 -0.0014721
5.1324e-05 -0.00039373 0.00038694 0.00029503
-0.0019804 0.00076936 0.0013672 0.0011586 1.7686e-05 -0.0014771 0.17124 0.20816
-0.013656 -0.00784 -0.00060442 -0.0006811
0.0025201 0.00065934 0.00090992 -0.00089967 4.6962e-05 -0.00039496 -0.013682 -0.0078041
0.099079 0.21399 -0.010154 -0.0081989
0.0001659 -0.0013219 0.0012287 0.00024743 0.00038887 0.0003003 -0.00060319 -0.00067004
-0.010143 -0.0082089 0.11513 0.30873
1460000000 0.27644 0.14932 -0.020338 0.0051956 0.0055096 -0.0018331 -0.0014985 0.0017365
0.0020013 -0.00081483 -0.00032004 -0.00079057
-0.02032 0.005181 0.11649 0.33611 -0.0057821 0.015142 0.0016506 9.8061e-05
0.00072362 -0.0011623 0.0011628 -0.00065278
0.0055056 -0.0018532 -0.0057172 0.015181 0.3589 0.0051911 -0.0011777 -0.0011201
0.00026495 -0.00011189 0.00075206 -0.00050874
-0.0014926 0.0017408 0.0016438 8.3886e-05 -0.0011655 -0.0011302 0.19787 0.17902
-0.013835 -0.0016723 -0.00098697 0.0016212
0.0019958 -0.00082466 0.000717 -0.001172 0.00025754 -0.00010954 -0.013845 -0.0016488
0.1292 0.19871 -0.011614 -0.0024527
-0.00031283 -0.00078797 0.0011449 -0.00064638 0.00073395 -0.00050692 -0.0009906 0.0016304
-0.011612 -0.0024678 0.14865 0.28775
1520000000 0.28781 0.10735 -0.014444 0.010734 0.0030743 -0.0041789 0.00022079 0.0025489
0.0017445 -0.0017896 -0.0011577 -0.00012986
-0.014438 0.010718 0.14938 0.32118 0.0016759 0.012873 0.0015601 -0.0008109
3.3439e-05 -0.00084066 0.00028206 -0.0010572
0.0030568 -0.004198 0.0017445 0.01287 0.35195 -0.050803 -0.00090734 -0.00032023
0.00055293 -0.0008579 1.4203e-05 -0.00013982
0.00022074 0.0025566 0.0015549 -0.00082323 -0.00091329 -0.00031958 0.2213 0.14082
-0.012596 0.0031906 0.0012106 0.0018109
0.0017301 -0.0018096 1.776e-05 -0.00084311 0.00055262 -0.00085987 -0.012589 0.003217
0.1576 0.18353 -0.011465 0.0018923
-0.0011621 -0.00011128 0.00027054 -0.0010552 1.1879e-05 -0.00013889 0.0012047 0.0018098
-0.011466 0.0018851 0.18255 0.26833
1580000000 0.29627 0.060917 -0.007605 0.013592 -0.0010004 -0.0047563 0.001424 0.0017866
-0.00057604 -0.0020813 -0.00031802 0.00037392
-0.0076157 0.013582 0.17606 0.2964 0.0051745 0.0080534 0.00041129 -0.0015251
-0.00038822 -0.00092584 -0.00028411 -0.00086146
-0.0010161 -0.0047568 0.0052224 0.0080338 0.3317 -0.10839 -0.0014571 0.00044171
-0.00031773 -0.0011648 0.00017387 -0.00055336
0.0014237 0.001774 0.00040172 -0.0015282 -0.0014598 0.00044691 0.2356 0.101
-0.0091419 0.0069227 0.0019544 0.00056478
-0.00059358 -0.0020815 -0.00039565 -0.00092212 -0.0003228 -0.001163 -0.0091297 0.0069524
0.1821 0.16454 -0.0088574 0.0071905
-0.00031495 0.00037844 -0.00029221 -0.00086306 0.00017011 -0.00055845 0.0019516 0.00055224
-0.0088591 0.0071896 0.21525 0.24181
1640000000 0.29746 0.019681 -0.00094584 0.012215 -0.0027789 -0.0025622 0.0025461 0.0009599
-0.00093287 -0.0011262 -0.00031974 0.00058863
-0.00095713 0.01221 0.20506 0.27147 0.0057191 0.0033781 -0.00076427 -0.0016057
-0.00086853 -0.00044502 -0.00053662 -0.00062379
-0.0027904 -0.0025467 0.0057456 0.0033492 0.30332 -0.1571 -0.00085173 0.0012885
-0.0010501 -0.00079249 -0.00012085 -0.00033806
0.0025432 0.00094968 -0.00076864 -0.0015972 -0.00084129 0.0012898 0.2479 0.051521
-0.0054036 0.0071986 0.002251 -0.00083083
-0.00094131 -0.001125 -0.00087356 -0.00044093 -0.0010539 -0.00078891 -0.005383 0.0072125
0.20481 0.13862 -0.0040463 0.0092926
-0.0003133 0.00059323 -0.00054058 -0.00062634 -0.0001235 -0.00034333 0.0022503 -0.00084218
-0.0040534 0.0092876 0.24183 0.21077
1700000000 0.28952 -0.025458 0.0024133 0.009259 -0.0035061 0.00023599 0.0029142 -0.0011492
-0.0018349 -0.00028648 0.00056478 0.00038199
0.0023978 0.0092533 0.22279 0.24019 0.0037442 0.00055151 -0.0013684 -0.00053599
-0.00073455 -5.9569e-05 -0.00092856 -0.00040057
-0.003507 0.00025731 0.0037486 0.00052953 0.26004 -0.19708 0.00031378 0.0015564
-0.0017768 -0.00019961 -0.00054726 -0.00091973
0.0029088 -0.0011626 -0.0013784 -0.00052824 0.00031459 0.0015484 0.24437 0.0011041
-0.0035729 0.007043 0.0013329 -0.0021063
-0.0018323 -0.00025899 -0.00073301 -4.9977e-05 -0.0017825 -0.00019605 -0.0035563 0.0070537
0.22188 0.11652 0.00046422 0.0094488
0.00056788 0.00037683 -0.00093161 -0.00039005 -0.00055479 -0.00092432 0.0013331 -0.0021164
0.00046016 0.0094467 0.2591 0.1763
1760000000 0.27655 -0.073529 0.0044475 0.0058612 -0.0022627 0.00085552 0.0012676 -0.0033183
-0.0009402 0.00073788 0.00037162 -0.0004573
0.004433 0.0058586 0.2485 0.20052 0.0015189 -0.0012058 -0.0011068 0.00019723
-0.0011235 0.00076727 -0.00058685 0.00052771
-0.0022643 0.00087806 0.0015164 -0.0012221 0.2113 -0.2307 0.0010628 0.0013082
-0.0010893 0.0013151 -0.0014552 -0.00040088
0.0012539 -0.0033179 -0.0011021 0.00020143 0.0010618 0.0013111 0.23439 -0.050648
-0.0015413 0.0062634 -0.0005075 -0.0022935
-0.00093874 0.00074775 -0.0011191 0.00077329 -0.0010955 0.0013115 -0.0015296 0.006274
0.23614 0.07983 0.0041964 0.0064637
0.00036804 -0.00046107 -0.00058247 0.00053201 -0.0014605 -0.00040548 -0.00052164 -0.0022878
0.0041964 0.0064587 0.27214 0.13841
1820000000 0.25146 -0.11024 0.0044709 0.0023987 3.2835e-05 0.002476 -0.00092633 -0.0030406
-0.00071557 0.00066599 3.6582e-05 -0.00010741
0.0044624 0.0024009 0.25831 0.17069 -0.000338 0.00013302 -0.0012758 0.00085443
-0.00017472 0.0013417 -0.00054235 0.00052927
3.5805e-05 0.0024729 -0.00033512 0.00013324 0.161 -0.24573 0.0016018 0.00050021
-0.00032416 0.0022368 -0.0016119 0.00047478
-0.00094109 -0.0030337 -0.0012747 0.00085598 0.0015984 0.00050029 0.20361 -0.097777
-0.00089264 0.0050483 -0.0016957 -0.0014788
-0.00070727 0.00067595 -0.00016814 0.0013512 -0.00031889 0.0022424 -0.00087805 0.0050489
0.2516 0.048835 0.0050421 0.0029253
3.7537e-05 -0.00011096 -0.00053638 0.00053203 -0.0016094 0.00046559 -0.0017011 -0.0014624
0.0050389 0.0029235 0.27504 0.10221
1880000000 0.21597 -0.14973 0.0021856 0.00030503 -0.00032496 0.0022421 -0.0028164 -0.002175
-0.00017157 0.0013223 0.00038752 -0.00054106
0.0021808 0.00031191 0.26272 0.12435 -0.0023041 0.0017242 -0.00016247 0.0016365
0.00059123 0.0014005 0.00022923 0.0010313
-0.00031495 0.0022461 -0.0022865 0.0017372 0.10859 -0.2557 0.0019541 -0.001021
0.0014222 0.0020253 -0.00095416 0.0015439
-0.0028278 -0.0021651 -0.00015476 0.0016398 0.0019556 -0.001021 0.16251 -0.1372
-0.00084383 0.0040782 -0.0023865 0.00071079
-0.00015981 0.001321 0.00060158 0.0014038 0.0014311 0.0020255 -0.00083335 0.0040925
0.25262 0.014617 0.0045246 0.00094434
0.00038278 -0.00055129 0.00024091 0.0010298 -0.00095321 0.0015482 -0.0023781 0.00071541
0.0045301 0.00094269 0.2752 0.067827
1940000000 0.17666 -0.17499 1.4531e-05 -0.0013355 0.0014144 0.001883 -0.0037664 0.0005964
0.0010851 0.00095708 -0.00067383 -0.00070956
1.7431e-05 -0.0013249 0.26313 0.092686 -0.001176 0.0040042 0.00095908 0.0012929
0.0019986 0.00060882 0.00090182 0.00024474
0.0014234 0.0018719 -0.001152 0.004014 0.062526 -0.24906 0.00034283 -0.0024055
0.0024956 0.0004678 0.00044398 0.001762
-0.0037622 0.00061449 0.00096989 0.0012977 0.00036091 -0.002408 0.10975 -0.16675
-0.0020564 0.0038277 -0.0013541 0.0017673
0.0010926 0.00094364 0.0020065 0.0005893 0.0025047 0.00045083 -0.0020484 0.0038353
0.25181 -0.025469 0.0032205 -0.0022869
-0.00067913 -0.00070871 0.00090242 0.00023533 0.00044584 0.0017619 -0.0013462 0.0017713
0.0032241 -0.0022855 0.26451 0.031998
2000000000 0.13047 -0.18901 -0.0036999 0.00062356 0.0025563 0.0014376 -0.0022198 0.0035882
0.00092073 0.00034407 -0.00077354 0.00046291
-0.0037 0.00062519 0.24904 0.057219 -0.00077421 0.0057422 0.0016528 0.00034277
0.0015406 -0.0014065 0.00048862 -2.8338e-06
0.002562 0.0014233 -0.0007393 0.0057581 0.018945 -0.23462 -0.0015381 -0.0014651
0.0020715 -0.0012145 0.0017111 0.0012884
-0.0021982 0.0036007 0.0016593 0.00031952 -0.0015336 -0.0014531 0.05668 -0.17592
-0.0032543 0.0046141 4.9443e-05 0.0023293
0.00093111 0.00032878 0.0015248 -0.0014136 0.0020726 -0.001222 -0.0032488 0.0046263
