!Keysight Technologies,M9804A,MY58100912,A.14.10.03
!Date: Thursday, April 27, 2023 10:28:33
!Correction: S11(C  6-Port  ) 
!S12(C  6-Port  ) 
!S13(C  6-Port  ) 
!S14(C  6-Port  ) 
!S15(C  6-Port  ) 
!S16(C  6-Port  ) 
!S21(C  6-Port  ) 
!S22(C  6-Port  ) 
!S23(C  6-Port  ) 
!S24(C  6-Port  ) 
!S25(C  6-Port  ) 
!S26(C  6-Port  ) 
!S31(C  6-Port  ) 
!S32(C  6-Port  ) 
!S33(C  6-Port  ) 
!S34(C  6-Port  ) 
!S35(C  6-Port  ) 
!S36(C  6-Port  ) 
!S41(C  6-Port  ) 
!S42(C  6-Port  ) 
!S43(C  6-Port  ) 
!S44(C  6-Port  ) 
!S45(C  6-Port  ) 
!S46(C  6-Port  ) 
!S51(C  6-Port  ) 
!S52(C  6-Port  ) 
!S53(C  6-Port  ) 
!S54(C  6-Port  ) 
!S55(C  6-Port  ) 
!S56(C  6-Port  ) 
!S61(C  6-Port  ) 
!S62(C  6-Port  ) 
!S63(C  6-Port  ) 
!S64(C  6-Port  ) 
!S65(C  6-Port  ) 
!S66(C  6-Port  ) 
!S6P File: Measurement: :
# Hz S  RI   R 50
500000000 -0.33761 -0.035192 -0.0096187 -0.003557 -0.0077669 0.011811 -0.0033997 0.011827
0.011572 0.0046469 -0.0040245 0.0089026
-0.0095877 -0.0035546 -0.41936 -0.050033 0.0070087 -0.011547 0.0014051 0.011831
0.0078748 0.0027902 0.00065731 0.01376
-0.0077464 0.011811 0.0069934 -0.011572 -0.26535 0.21157 0.0066013 0.0031687
7.1148e-05 0.008614 -0.00016949 0.012192
-0.0033707 0.011822 0.0014365 0.011836 0.0065997 0.0031633 -0.32776 0.047804
-0.019806 -0.0043682 0.018259 0.027315
0.011595 0.0046129 0.007883 0.0027824 8.3296e-05 0.008622 -0.019803 -0.0043507
-0.22634 -0.18621 -0.028833 0.0055932
-0.0039825 0.008908 0.00069962 0.013763 -0.00017213 0.012201 0.018266 0.027293
-0.028811 0.0055631 -0.26004 -0.16371
560000000 -0.31634 0.12487 -0.023782 -0.063078 -2.9273e-05 0.012178 0.0061688 0.0099461
0.010685 0.0042394 0.0099925 0.0078162
-0.023706 -0.062993 -0.37685 0.10812 -0.041839 -0.035999 0.013241 0.0036327
-0.013312 -0.0043367 0.0042952 -0.00036569
-1.5236e-05 0.012166 -0.041986 -0.035916 -0.18312 0.25914 -0.00038857 -0.0048701
0.019203 0.0040776 0.0068623 -0.0056439
0.0061998 0.0099083 0.013253 0.0036148 -0.00038489 -0.0048736 -0.30307 0.13631
0.0032377 -0.024488 0.0054542 -0.020196
0.010708 0.0041931 -0.013371 -0.004304 0.019208 0.0040748 0.0032304 -0.024493
-0.28564 -0.010412 0.0078056 -0.051988
0.0099996 0.0077684 0.0043216 -0.0003447 0.0068627 -0.0056393 0.0054506 -0.020189
0.0078398 -0.051978 -0.33534 -0.0085477
620000000 -0.27353 0.10916 -0.023412 0.0075696 0.0035389 0.008573 0.0068112 -0.0053885
0.011315 -0.00077358 0.0008391 -0.0020014
-0.02338 0.0075591 -0.4026 0.062713 -0.018751 0.00019887 -0.0013509 -0.0020187
0.01038 -0.0070548 0.0012772 -0.0023845
0.0035506 0.0085512 -0.018777 0.00025211 -0.15252 0.26858 -0.0015675 -0.0052435
-0.0036815 -0.0032889 0.0088076 -0.00308
0.0068061 -0.0054036 -0.0013677 -0.0020102 -0.0015665 -0.0052346 -0.2617 0.14624
-0.038995 -0.018407 0.014413 0.025124
0.011311 -0.00081198 0.010366 -0.0070933 -0.0036886 -0.0032863 -0.039015 -0.01839
-0.20521 -0.049564 -0.042544 0.016631
0.00079222 -0.0020457 0.0012736 -0.0023645 0.0088121 -0.0030796 0.014409 0.025133
-0.042519 0.016604 -0.24794 -0.053655
680000000 -0.23333 0.19364 -0.028017 -0.013694 0.0048057 0.0049902 0.0011915 -0.007484
-0.0031863 -0.010936 0.0049181 -0.0070918
-0.027989 -0.013696 -0.38714 0.15967 -0.032778 -0.0011197 -0.0016679 -0.00022522
-0.0026942 -0.0090109 -0.00068851 -0.0020618
0.004815 0.0049824 -0.032807 -0.0010347 -0.10154 0.28795 -0.00065637 -3.2e-05
-0.0022642 0.00079142 -0.0027109 -0.0097834
0.0011623 -0.0074712 -0.0016718 -0.00022832 -0.00065584 -3.0089e-05 -0.21806 0.19576
-0.0236 -0.0077136 -0.011216 -0.011063
-0.0032554 -0.010912 -0.0027349 -0.0090113 -0.002265 0.00079325 -0.023623 -0.0076963
-0.25342 0.048773 -0.0053188 -0.0093963
0.0049008 -0.007098 -0.0006893 -0.0020516 -0.0027154 -0.0097907 -0.011203 -0.011079
-0.0053121 -0.0093932 -0.26715 0.060819
740000000 -0.18953 0.1883 -0.038121 0.026847 0.012714 -0.0052323 -0.00068838 -0.0039964
-0.0044259 -0.002827 -0.0062837 0.0035378
-0.038129 0.026815 -0.33491 0.1784 -0.034683 0.035199 -0.00099188 -0.0062996
-0.011313 0.0080744 -0.0029555 -0.0069288
0.012718 -0.0052594 -0.034603 0.035303 -0.068052 0.28644 -0.001409 0.0032196
-0.0027197 -0.004077 -0.00082236 0.00016022
-0.00068993 -0.003989 -0.0010104 -0.0063206 -0.0014074 0.0032294 -0.20222 0.20345
-0.042266 -0.0073292 0.023326 0.014296
-0.0044454 -0.0027875 -0.011287 0.0081475 -0.0027395 -0.0040883 -0.042303 -0.0072986
-0.15595 0.072504 -0.043936 0.0011078
-0.0062859 0.0035616 -0.0029764 -0.0069237 -0.00082482 0.00015867 0.023317 0.014286
-0.04393 0.0010803 -0.26188 0.064886
800000000 -0.1572 0.22848 -0.022186 0.017419 0.0053896 -0.010593 -0.0048161 -0.0019527
-0.0040134 0.0025488 0.0045991 0.00055783
-0.022176 0.017393 -0.33728 0.24857 -0.0076253 0.034158 -0.0021989 0.0022081
-0.00065876 0.0033985 0.0012149 0.0052696
0.0053599 -0.01061 -0.0075259 0.034204 -0.026931 0.30925 0.001099 0.0015873
0.00060462 0.0035086 -0.0017433 0.0007167
-0.004826 -0.0019475 -0.0021866 0.0022167 0.0010947 0.0015779 -0.17392 0.23092
-0.028264 0.012931 0.014268 -0.010388
-0.0040085 0.0026046 -0.00064574 0.0034138 0.00061294 0.0035217 -0.028278 0.012982
-0.20058 0.096854 -0.018042 0.018363
0.0046135 0.00054667 0.0012377 0.0052721 -0.0017382 0.000712 0.014255 -0.010397
-0.01805 0.01835 -0.25811 0.12267
860000000 -0.1225 0.24914 -0.016823 0.031109 -0.0032753 -0.010001 -0.0024672 0.0012295
0.0040249 0.0050719 -0.0033815 -0.0032155
-0.016836 0.031071 -0.28923 0.29037 0.0084046 0.03419 0.00010458 0.0021592
0.0042945 0.00060458 0.0033487 0.00017956
-0.0033166 -0.0099931 0.0085224 0.034201 0.021231 0.31707 -0.00039054 -0.00027155
0.0026937 -0.0015841 0.0017636 0.0044851
-0.002471 0.0012436 0.00011369 0.0021635 -0.00039233 -0.00026957 -0.1383 0.24272
-0.017532 0.01883 -0.00624 -0.0097345
0.0040621 0.0050664 0.0043 0.00058738 0.0026949 -0.0015903 -0.01751 0.01887
-0.15119 0.14505 -0.025755 0.015817
-0.0033918 -0.0032196 0.0033398 0.00017375 0.0017672 0.0044896 -0.006253 -0.0097323
-0.025751 0.015792 -0.20638 0.17063
920000000 -0.097214 0.27227 0.0055024 0.037557 -0.0094599 -0.0044458 -0.0017578 0.0021356
0.001266 0.0017592 0.0025674 -0.0013774
0.0054666 0.03751 -0.26024 0.31098 0.028255 0.021517 0.0015972 0.00096944
0.0068998 -0.00066479 0.0039463 -0.0031268
-0.0094751 -0.0044264 0.028369 0.021451 0.067634 0.31753 0.0017955 -0.00017728
0.0012231 -0.00050435 0.00063874 -0.0012976
-0.0017644 0.0021414 0.0016078 0.00096645 0.0017963 -0.00017323 -0.11391 0.259
-0.010125 0.030155 0.0031778 -0.0068676
0.0012898 0.0017439 0.0069093 -0.00067824 0.0012422 -0.00050527 -0.010069 0.030192
-0.14093 0.15114 -0.0014982 0.028492
0.0025703 -0.0013882 0.0039337 -0.0031458 0.00064275 -0.0012906 0.003172 -0.0068689
-0.0015157 0.028463 -0.22054 0.18377
980000000 -0.049779 0.2917 0.018009 0.029711 -0.0089614 0.0046436 0.0024058 0.0035857
0.0039721 -0.0016296 -0.0031663 -0.0021253
0.017982 0.029672 -0.20762 0.3446 0.033015 0.0043432 0.0020128 -0.00010476
0.0011781 -0.0061428 -0.00047077 -0.002169
-0.0089451 0.0046655 0.033068 0.0042527 0.11401 0.31077 0.00039985 -0.0012109
-3.7563e-05 -0.0021323 0.0014632 1.6602e-05
0.002412 0.0035666 0.0020168 -9.6494e-05 0.00039968 -0.0012224 -0.075557 0.27037
0.0078405 0.028751 -0.0096345 -0.0071532
0.0039794 -0.0016673 0.0011343 -0.0061479 -3.2134e-05 -0.0021373 0.0079033 0.028755
-0.1089 0.17848 0.0049585 0.019379
-0.0031756 -0.0021022 -0.00048441 -0.0021791 0.0014707 2.394e-05 -0.0096441 -0.007139
0.0049375 0.019371 -0.177 0.23456
1040000000 -0.0069929 0.29995 0.033367 0.017581 -0.0012324 0.0068963 0.0027419 0.00072445
4.565e-06 -0.0035495 -0.00049444 -0.0016613
0.033303 0.017547 -0.17218 0.3577 0.029033 -0.015245 0.0014328 -0.0017528
-0.002633 -0.0024484 -0.0014409 -0.002879
-0.0012126 0.0068806 0.029014 -0.015352 0.16034 0.29686 -0.00057499 -0.0014325
-0.0016171 -0.00078872 -0.0005395 -0.0011553
0.0027336 0.00069909 0.0014472 -0.0017422 -0.00057397 -0.0014381 -0.048081 0.28046
0.018756 0.016947 -0.0029011 0.0018659
1.7024e-06 -0.0035739 -0.002653 -0.0024094 -0.0016086 -0.00078986 0.018803 0.016928
-0.078136 0.18701 0.013805 0.018403
-0.00050289 -0.0016444 -0.0014742 -0.0028938 -0.00053679 -0.0011617 -0.0028965 0.0018708
0.013794 0.018407 -0.15992 0.25811
1100000000 0.038509 0.30719 0.035689 -0.0048472 0.0028456 0.0038136 0.002534 -0.0013677
-0.002051 -0.0030495 -0.0041255 4.9376e-05
0.035638 -0.0048443 -0.12855 0.37471 0.014658 -0.027986 -1.7555e-05 -0.0018317
-0.0032536 -0.00040769 -0.0036025 -0.00045352
0.0028632 0.0037982 0.014573 -0.028067 0.20692 0.27612 -0.0018119 0.00027832
-0.0016904 0.00069133 -0.0010906 -0.00031319
0.0025267 -0.0013824 -2.2601e-05 -0.0018372 -0.0018183 0.00027819 -0.0074478 0.28528
0.023182 0.0045386 -0.0025604 0.00063109
-0.0020754 -0.0030422 -0.0032634 -0.00038077 -0.001697 0.00070253 0.023205 0.004508
-0.060049 0.19974 0.019501 0.0089843
-0.0041381 6.8572e-05 -0.003617 -0.00044258 -0.0010923 -0.00031279 -0.0025664 0.00063202
0.019491 0.0089879 -0.11282 0.29205
1160000000 0.090162 0.30183 0.023553 -0.021195 0.0025987 -0.00046224 -8.5709e-05 -0.0024702
-0.004122 -0.00052171 -0.0011277 0.004241
0.023526 -0.021177 -0.084673 0.37896 -0.004241 -0.029004 -0.0018059 -0.0016591
-0.0024087 0.0027102 -0.0013285 0.0017183
0.0025971 -0.00048278 -0.0043614 -0.028994 0.24998 0.24471 -0.00059211 0.0018054
-0.0002964 0.001902 -0.0010615 0.0002181
-8.4111e-05 -0.0024815 -0.001806 -0.0016476 -0.00059658 0.0018023 0.031952 0.28234
0.01944 -0.01046 -0.0031467 0.0056922
-0.0041189 -0.00047844 -0.0024008 0.0027382 -0.00028757 0.001906 0.019441 -0.010482
-0.02715 0.20896 0.018152 0.0010466
-0.0011082 0.0042464 -0.0013277 0.0017119 -0.0010641 0.00021198 -0.0031387 0.0057037
0.018155 0.0010501 -0.065088 0.29618
1220000000 0.1347 0.29011 0.0098054 -0.030175 -0.0016006 -0.00071615 -6.2026e-05 -0.0011115
-0.0026155 0.0025561 0.0012811 0.001948
0.0098052 -0.030135 -0.040166 0.39059 -0.017171 -0.020803 -0.0025179 0.00049894
0.00034457 0.0029769 -0.00069845 0.0018096
-0.001599 -0.00071226 -0.017283 -0.020742 0.28878 0.20507 0.00093458 0.0016184
0.00065444 0.0011508 0.00037712 0.00081878
-6.2583e-05 -0.0011273 -0.0025159 0.00051541 0.00093584 0.0016275 0.071729 0.27378
0.0090052 -0.016154 0.0026568 0.0017562
-0.0025959 0.0025962 0.00035657 0.0029834 0.00065439 0.0011606 0.0089865 -0.016159
-0.0040713 0.21874 0.014194 -0.012829
0.0012915 0.0019435 -0.00069767 0.0018099 0.00037217 0.00081647 0.0026613 0.0017548
0.014187 -0.012818 -0.034859 0.31834
1280000000 0.18426 0.26756 -0.0084725 -0.028268 -0.0017915 0.0026421 -0.0010806 -0.0020499
-0.00063248 0.0031374 0.0026885 0.0011054
-0.0084474 -0.028227 0.0059319 0.38126 -0.023771 -0.0080564 -0.00095161 0.0015645
0.0017689 0.001604 0.00056858 0.002084
-0.0017695 0.0026489 -0.023839 -0.007959 0.3188 0.16093 0.001459 -0.00021168
0.0010507 3.6811e-05 0.00037048 0.00046669
-0.0010946 -0.0020412 -0.0009434 0.0015626 0.0014587 -0.00021262 0.10819 0.25745
-0.00017115 -0.017648 0.00035419 0.00025822
-0.00060178 0.0031447 0.0017836 0.0015948 0.0010429 3.6414e-05 -0.00020197 -0.017645
0.032809 0.22285 0.003014 -0.014775
0.0026972 0.0010879 0.00057353 0.0020955 0.00037196 0.00046771 0.00035652 0.00025963
0.003017 -0.014767 0.01472 0.3227
1340000000 0.22119 0.23316 -0.018085 -0.018503 0.0010081 0.004434 -0.0019832 -0.00081606
0.0015634 0.0026495 0.001732 -0.0015318
-0.018034 -0.018496 0.045423 0.37243 -0.02139 0.0045862 3.9971e-05 0.001939
0.0018024 0.00053521 0.0014104 0.00090171
0.001027 0.0044345 -0.021385 0.0046916 0.34035 0.11283 0.00092854 -0.00095724
0.00061551 -0.00042354 0.00020044 0.00028785
-0.0019958 -0.00080115 5.3827e-05 0.0019391 0.00092818 -0.00095864 0.14101 0.23729
-0.0085998 -0.01428 0.0013199 0.00018495
0.0015906 0.0026375 0.0018108 0.00053233 0.00061242 -0.00042484 -0.0086374 -0.014275
0.063376 0.21853 -0.0034624 -0.013362
0.0017205 -0.0015404 0.0014133 0.00089978 0.00019942 0.00028824 0.0013162 0.00018496
-0.0034614 -0.013364 0.05445 0.32136
1400000000 0.25389 0.19437 -0.023494 -0.0068947 0.0052024 0.0030422 -0.002084 0.0007713
0.0025368 0.00073336 0.00028282 -0.0013432
-0.023441 -0.0069066 0.082411 0.35894 -0.014511 0.012574 0.0013802 0.0011907
0.00091584 -0.00094256 0.0012531 0.0003381
0.0052081 0.0030134 -0.01447 0.012657 0.35297 0.059426 -1.43e-05 -0.0014792
1.7517e-05 -0.00036988 0.00040229 0.00026077
-0.0020875 0.00079391 0.0013879 0.001178 -1.8451e-05 -0.0014789 0.17084 0.20876
-0.013445 -0.0077807 -0.00060664 -0.00073608
0.0025427 0.00069632 0.00090352 -0.00094291 2.1241e-05 -0.00037159 -0.013462 -0.0077622
0.096823 0.21393 -0.0098753 -0.008398
0.00026364 -0.0013464 0.0012659 0.00033614 0.00040664 0.00025757 -0.00061112 -0.0007414
-0.0098573 -0.00839 0.10187 0.31266
1460000000 0.27623 0.1498 -0.020238 0.0052147 0.0055785 -0.0017738 -0.001506 0.0018222
0.0020535 -0.00077284 -0.00023159 -0.00085921
-0.020204 0.0051757 0.11628 0.33673 -0.005793 0.01523 0.0016573 7.9076e-05
0.00071747 -0.0011823 0.0012533 -0.000619
0.0055579 -0.0018011 -0.0057202 0.015278 0.35883 0.0052666 -0.0011841 -0.0012083
0.00028778 -0.00011042 0.00080277 -0.00050706
-0.0014961 0.0018377 0.0016676 7.619e-05 -0.001186 -0.0011977 0.19767 0.17966
-0.013747 -0.0016953 -0.0010089 0.0017086
0.0020432 -0.00080035 0.00070719 -0.0011745 0.00029106 -0.00011648 -0.013755 -0.0016667
0.127 0.19911 -0.011397 -0.0027302
-0.00024587 -0.0008513 0.0012604 -0.00063299 0.00079721 -0.00051173 -0.0010082 0.0017061
-0.011402 -0.002737 0.13626 0.29268
1520000000 0.28781 0.10771 -0.014342 0.010665 0.0031915 -0.0042072 0.00021174 0.0026193
0.0017489 -0.0018129 -0.0011739 -0.00022575
-0.014343 0.010617 0.14943 0.32178 0.0017041 0.012937 0.0015562 -0.00082398
1.6672e-05 -0.00081529 0.00033233 -0.0010672
0.0031608 -0.004219 0.0017806 0.012943 0.35189 -0.050773 -0.00096709 -0.00029703
0.00056981 -0.00081148 1.5974e-06 -0.00014033
0.00022632 0.0026209 0.0015557 -0.00082981 -0.00096039 -0.00030114 0.22142 0.14141
-0.01248 0.0031211 0.0012346 0.00185
0.001732 -0.0018156 1.0618e-05 -0.00081709 0.0005703 -0.00081461 -0.012492 0.003155
0.15556 0.18443 -0.011459 0.0015551
-0.0011765 -0.00020989 0.00031984 -0.0010723 5.243e-06 -0.00014158 0.0012368 0.0018454
-0.011457 0.0015567 0.17142 0.2752
1580000000 0.29634 0.061185 -0.0075943 0.013497 -0.00096452 -0.0048698 0.0014967 0.0018119
-0.0005523 -0.0021215 -0.00036606 0.00035483
-0.0076195 0.013462 0.1763 0.29688 0.0052424 0.0080968 0.00040827 -0.0015324
-0.00038598 -0.00089314 -0.00025288 -0.00089334
-0.00098266 -0.0048663 0.0052854 0.0080757 0.33162 -0.10814 -0.0014268 0.00049648
-0.00028354 -0.0011222 0.00014011 -0.00059673
0.0015019 0.0018053 0.00040439 -0.00153 -0.0014284 0.00050152 0.23589 0.1014
-0.0090952 0.0068428 0.0020206 0.0005886
-0.00056221 -0.0021 -0.00038284 -0.0008939 -0.00028634 -0.0011294 -0.0090872 0.0068591
0.18039 0.16571 -0.008928 0.0070427
-0.0003628 0.00036182 -0.00026873 -0.00089345 0.00013865 -0.00059989 0.0020229 0.0005858
-0.0089289 0.007043 0.20591 0.24929
1640000000 0.29756 0.019725 -0.00099359 0.012147 -0.0028438 -0.0026134 0.002584 0.00090289
-0.0009094 -0.0011293 -0.00032962 0.0006205
-0.0010295 0.01214 0.20539 0.27184 0.0057868 0.0033139 -0.00074755 -0.0016051
-0.00084172 -0.00043487 -0.00055179 -0.00068776
-0.002847 -0.0025946 0.0058099 0.0032766 0.30342 -0.15719 -0.00078737 0.0013065
-0.0010676 -0.00081911 -0.00014148 -0.00040368
0.0025817 0.00088983 -0.00074914 -0.0015978 -0.00078055 0.0012989 0.24833 0.051784
-0.0053636 0.0071388 0.0023421 -0.0008163
-0.00090916 -0.0011185 -0.0008537 -0.00043367 -0.0010768 -0.00081308 -0.0053573 0.0071694
0.20348 0.14007 -0.0041127 0.0092429
-0.00031979 0.00061974 -0.00055875 -0.00068551 -0.00014286 -0.00040481 0.0023468 -0.00082608
-0.004111 0.0092422 0.23354 0.21906
1700000000 0.28942 -0.025345 0.0023234 0.0091854 -0.003527 0.00011566 0.0028908 -0.0011943
-0.0018742 -0.00033868 0.0006214 0.00042653
0.002291 0.009194 0.22327 0.24041 0.0038164 0.00056044 -0.0013711 -0.00053649
-0.00071233 -8.7846e-05 -0.00097345 -0.00043491
-0.0035153 0.00012749 0.0038289 0.00053958 0.26003 -0.19703 0.00033455 0.0014946
-0.0017667 -0.00017756 -0.0006204 -0.0010033
0.0028781 -0.0012079 -0.0013741 -0.00052774 0.00033454 0.0014904 0.24482 0.0011446
-0.0035678 0.0070182 0.0013562 -0.002166
-0.0018707 -0.00033297 -0.00070879 -8.7111e-05 -0.0017675 -0.00018263 -0.0035605 0.0070322
0.22096 0.11809 0.0004072 0.0094567
0.00062897 0.00042251 -0.00097232 -0.00043416 -0.00062228 -0.0010005 0.001345 -0.0021687
0.00042042 0.0094641 0.25238 0.18497
1760000000 0.27649 -0.073444 0.0043855 0.0058794 -0.0023206 0.00092106 0.0012799 -0.0033503
-0.00094957 0.00073498 0.00030693 -0.00052215
0.0043793 0.005908 0.24899 0.20061 0.0015872 -0.0011436 -0.0010821 0.00020677
-0.0011445 0.00076751 -0.00060358 0.00051815
-0.0023112 0.00092335 0.0015849 -0.0011481 0.21108 -0.23021 0.0010579 0.0012362
-0.0011392 0.0013925 -0.0014555 -0.00042996
0.0012625 -0.003354 -0.0010863 0.0002054 0.0010546 0.0012372 0.23479 -0.05089
-0.0014298 0.006257 -0.00045585 -0.0023709
-0.00093589 0.00073324 -0.0011303 0.00078466 -0.0011375 0.0013864 -0.0014231 0.0062637
0.23564 0.081467 0.0042237 0.0064432
0.00030125 -0.00052972 -0.00060218 0.00051949 -0.0014594 -0.00042097 -0.00045889 -0.0023623
0.0042248 0.0064417 0.2663 0.14749
1820000000 0.25133 -0.11023 0.0044801 0.0024013 -6.5015e-05 0.0024883 -0.00095837 -0.0030409
-0.00073613 0.0006487 2.0334e-06 -0.00014249
0.004484 0.0024269 0.25877 0.17065 -0.00040102 8.4107e-06 -0.0012744 0.00083391
-0.00022854 0.0013079 -0.00053711 0.00053903
-4.9894e-05 0.0024759 -0.00039476 7.9721e-06 0.16086 -0.24608 0.0015732 0.00055241
-0.00037132 0.0021379 -0.0015197 0.00053933
-0.00097156 -0.0030194 -0.0012788 0.00084199 0.0015695 0.00055115 0.20379 -0.098196
-0.00079233 0.0049043 -0.00183 -0.0015397
-0.00073385 0.00064895 -0.0002097 0.0013129 -0.0003836 0.0021441 -0.00078171 0.0049142
0.25151 0.050193 0.0050518 0.0028905
-5.6843e-06 -0.00013929 -0.0005321 0.00054518 -0.0015233 0.00054917 -0.0018284 -0.001534
0.0050531 0.0028909 0.27083 0.11179
1880000000 0.21587 -0.14961 0.0022405 0.00028442 -0.00033224 0.0021865 -0.0028347 -0.0021683
-0.00019557 0.0013504 0.00035791 -0.00052944
0.0022537 0.00029315 0.26312 0.12417 -0.0022541 0.0016578 -0.00020138 0.0016703
0.00054132 0.0014177 0.0002281 0.0010164
-0.00033065 0.0021921 -0.0022393 0.0016615 0.10894 -0.25573 0.0019627 -0.00093526
0.0014418 0.002076 -0.00089193 0.0015806
-0.0028445 -0.0021528 -0.00019541 0.0016667 0.0019676 -0.0009285 0.16237 -0.13769
-0.00079127 0.0038735 -0.0025092 0.00072692
-0.00017988 0.0013576 0.00055737 0.0014144 0.0014423 0.0020713 -0.00078341 0.0038762
0.25273 0.015706 0.0045777 0.00089938
0.00035813 -0.00054148 0.00024172 0.0010043 -0.00089025 0.0015837 -0.0024995 0.0007233
0.0045734 0.00091369 0.27234 0.07732
1940000000 0.17644 -0.17483 -3.0999e-05 -0.0014291 0.0013878 0.0019126 -0.0036998 0.00056166
0.0011064 0.00099126 -0.00070383 -0.0006477
-1.581e-05 -0.0014397 0.26347 0.092365 -0.001191 0.0038835 0.00091558 0.0013497
0.0019764 0.00066809 0.00086336 0.00023408
0.0013827 0.0018996 -0.0011628 0.003896 0.062478 -0.24935 0.00037011 -0.0023707
0.0024726 0.00056459 0.0003856 0.0016645
-0.003691 0.00057621 0.0009184 0.0013456 0.00037509 -0.0023607 0.10926 -0.16706
-0.0021941 0.0035509 -0.0014777 0.0018758
0.0011138 0.00097812 0.0019858 0.00065183 0.002486 0.0005543 -0.0021767 0.0035581
0.2519 -0.024602 0.0031693 -0.0024561
-0.00071511 -0.00064425 0.00086357 0.00021946 0.00039777 0.0016601 -0.0014627 0.001875
0.0031732 -0.0024469 0.26273 0.041731
2000000000 0.13036 -0.18875 -0.0038508 0.00064471 0.0024047 0.0015391 -0.0022839 0.0036094
0.00090103 0.00032551 -0.00065079 0.00041577
-0.0038435 0.00061127 0.24921 0.056902 -0.00090036 0.0056879 0.0016488 0.00031877
0.0016319 -0.0014025 0.00048519 0.00016371
0.0024106 0.0015314 -0.00086522 0.0057082 0.018849 -0.23479 -0.0014449 -0.0015438
0.002128 -0.0012171 0.0017097 0.0013655
-0.0022539 0.0036303 0.0016525 0.00031275 -0.0014423 -0.0015459 0.056082 -0.17589
-0.0035479 0.0044555 6.5032e-05 0.0024136
0.00089736 0.00032747 0.0016222 -0.001419 0.0021312 -0.001227 -0.003536 0.0044634
