!Keysight Technologies,M9804A,MY58100912,A.14.10.03
!Date: Thursday, April 27, 2023 10:28:33
!Correction: S11(C  6-Port  ) 
!S12(C  6-Port  ) 
!S13(C  6-Port  ) 
!S14(C  6-Port  ) 
!S15(C  6-Port  ) 
!S16(C  6-Port  ) 
!S21(C  6-Port  ) 
!S22(C  6-Port  ) 
!S23(C  6-Port  ) 
!S24(C  6-Port  ) 
!S25(C  6-Port  ) 
!S26(C  6-Port  ) 
!S31(C  6-Port  ) 
!S32(C  6-Port  ) 
!S33(C  6-Port  ) 
!S34(C  6-Port  ) 
!S35(C  6-Port  ) 
!S36(C  6-Port  ) 
!S41(C  6-Port  ) 
!S42(C  6-Port  ) 
!S43(C  6-Port  ) 
!S44(C  6-Port  ) 
!S45(C  6-Port  ) 
!S46(C  6-Port  ) 
!S51(C  6-Port  ) 
!S52(C  6-Port  ) 
!S53(C  6-Port  ) 
!S54(C  6-Port  ) 
!S55(C  6-Port  ) 
!S56(C  6-Port  ) 
!S61(C  6-Port  ) 
!S62(C  6-Port  ) 
!S63(C  6-Port  ) 
!S64(C  6-Port  ) 
!S65(C  6-Port  ) 
!S66(C  6-Port  ) 
!S6P File: Measurement: :
# Hz S  RI   R 50
500000000 -0.33668 -0.034382 -0.0090811 -0.0035327 -0.0075506 0.011202 -0.0033559 0.011576
0.011972 0.004191 -0.0036735 0.0084794
-0.0090698 -0.0035302 -0.4189 -0.049495 0.0076035 -0.011973 0.0014652 0.011827
0.0073912 0.0028142 0.00065798 0.013428
-0.007524 0.011213 0.0075776 -0.011996 -0.26384 0.21078 0.0069704 0.0031203
0.00018269 0.0083722 0.00021986 0.012073
-0.0033854 0.011575 0.0015052 0.011883 0.0070101 0.0031097 -0.32656 0.048206
-0.019229 -0.0043458 0.018051 0.026647
0.012044 0.0040766 0.0073892 0.0027966 0.000183 0.0083968 -0.019239 -0.0043292
-0.22563 -0.18491 -0.028514 0.0057142
-0.0036542 0.0084426 0.00067386 0.013477 0.00022707 0.012086 0.018048 0.026602
-0.028489 0.0057186 -0.26504 -0.14961
560000000 -0.31525 0.12455 -0.023511 -0.06337 0.00020176 0.012059 0.0062517 0.0095983
0.011185 0.0043284 0.0098897 0.0073131
-0.02346 -0.063304 -0.3762 0.10798 -0.041685 -0.036782 0.013314 0.0037225
-0.013058 -0.0047197 0.0043529 -0.00074678
0.00023685 0.01207 -0.041794 -0.036715 -0.18245 0.25768 -0.0006707 -0.0050856
0.018693 0.0040691 0.007322 -0.0060793
0.0062625 0.0096462 0.013455 0.0036486 -0.00073665 -0.0051063 -0.30224 0.13539
0.0042821 -0.025154 0.0053558 -0.01999
0.011095 0.0044091 -0.013111 -0.004613 0.018692 0.0040011 0.0043001 -0.025141
-0.28425 -0.0097689 0.0086448 -0.051522
0.0099285 0.007294 0.0043227 -0.00077626 0.0073252 -0.0060941 0.0052894 -0.019929
0.0086583 -0.051584 -0.33408 0.0023113
620000000 -0.2726 0.10895 -0.023204 0.006902 0.003147 0.0081447 0.0067636 -0.0056595
0.011253 -0.00095562 0.00052969 -0.0020421
-0.023193 0.0068981 -0.40224 0.062412 -0.019265 -0.00041668 -0.0014644 -0.0021733
0.010164 -0.0070919 0.0010799 -0.0025657
0.0031485 0.0081708 -0.019275 -0.00034796 -0.15299 0.26725 -0.0017845 -0.0050982
-0.0041597 -0.0032649 0.0083967 -0.0033173
0.0068318 -0.0056913 -0.001468 -0.0021547 -0.0017877 -0.0050904 -0.26052 0.1457
-0.038898 -0.019347 0.014193 0.024258
0.011135 -0.00093427 0.010144 -0.0071357 -0.0041549 -0.0032984 -0.038917 -0.019295
-0.2032 -0.049497 -0.041248 0.015635
0.00054227 -0.0020105 0.0010597 -0.0025501 0.0084005 -0.0033474 0.014164 0.024133
-0.041119 0.01566 -0.24822 -0.040567
680000000 -0.2328 0.19273 -0.028104 -0.014181 0.0046729 0.0051038 0.00098018 -0.0075247
-0.0034213 -0.010955 0.0047741 -0.0069028
-0.028079 -0.014184 -0.38694 0.15869 -0.033315 -0.0013182 -0.00179 -0.00013175
-0.0030449 -0.0088958 -0.0012038 -0.0019312
0.0046845 0.0051031 -0.033349 -0.0012292 -0.10272 0.28679 -0.00057047 0.00036597
-0.0024384 0.0010218 -0.0029265 -0.0099158
0.0009703 -0.0075103 -0.0017887 -0.00010214 -0.00056314 0.00038003 -0.21828 0.1947
-0.023734 -0.0086671 -0.010839 -0.010807
-0.003427 -0.010943 -0.0030726 -0.0088939 -0.0024513 0.0010306 -0.023752 -0.0086324
-0.25129 0.047521 -0.005242 -0.010056
0.0047639 -0.0068955 -0.0012102 -0.001931 -0.0029287 -0.0099099 -0.010868 -0.010818
-0.0052557 -0.010064 -0.26464 0.070482
740000000 -0.18979 0.1877 -0.03877 0.026398 0.01247 -0.0050647 -0.00071178 -0.0039227
-0.0045259 -0.0024921 -0.0062756 0.0035478
-0.038775 0.02636 -0.33563 0.17786 -0.035262 0.035229 -0.0010123 -0.0060951
-0.011314 0.0080987 -0.0029416 -0.0064168
0.012454 -0.0051217 -0.035206 0.035347 -0.069386 0.28626 -0.0012981 0.0033657
-0.0022288 -0.0037032 -0.0012293 2.0566e-06
-0.00077131 -0.0039344 -0.0010073 -0.0061143 -0.0013415 0.0033849 -0.20246 0.20245
-0.043071 -0.0078442 0.022513 0.013779
-0.0045529 -0.0025055 -0.011396 0.0082066 -0.0022636 -0.0037357 -0.043127 -0.0077925
-0.15628 0.071244 -0.043537 0.00048013
-0.0062677 0.003569 -0.0029556 -0.0064229 -0.0012396 -7.2202e-06 0.02261 0.013802
-0.043509 0.00044385 -0.25862 0.075296
800000000 -0.15785 0.22817 -0.022862 0.017351 0.0052697 -0.010472 -0.0049941 -0.0020073
-0.0038798 0.0028283 0.0047154 0.00076351
-0.022847 0.017323 -0.33813 0.24831 -0.0079834 0.034518 -0.0020487 0.0022008
-0.00034615 0.0034616 0.0013018 0.0053403
0.0052695 -0.01049 -0.007885 0.03458 -0.028083 0.30974 0.0012265 0.0013892
0.00071138 0.0034073 -0.0018991 0.0009148
-0.0049925 -0.001988 -0.0020429 0.0022111 0.0012219 0.0013752 -0.17481 0.23013
-0.029035 0.012686 0.013563 -0.010077
-0.0038653 0.0028486 -0.00034917 0.0034706 0.00073741 0.0034096 -0.029037 0.012747
-0.2007 0.095361 -0.018478 0.017777
0.0047117 0.0007517 0.0013219 0.0053476 -0.0019069 0.00091721 0.013542 -0.010112
-0.018464 0.017729 -0.25339 0.1315
860000000 -0.12333 0.24953 -0.017517 0.031414 -0.0034292 -0.009888 -0.0025499 0.0015138
0.004406 0.0050166 -0.0031778 -0.0032412
-0.017518 0.031378 -0.29033 0.29062 0.0083432 0.034536 0.00032654 0.002105
0.0045961 2.6609e-05 0.0032692 0.00019145
-0.0034553 -0.0098673 0.0084451 0.034545 0.020673 0.31787 -0.00039426 -0.00039104
0.0028309 -0.0017143 0.0017044 0.0047041
-0.0025577 0.0015543 0.00032337 0.0021028 -0.00038914 -0.00039614 -0.13946 0.24263
-0.018483 0.019247 -0.0061489 -0.0095447
0.0044274 0.0050007 0.004617 2.5791e-05 0.0028443 -0.0017242 -0.01846 0.019281
-0.15239 0.14466 -0.025295 0.015666
-0.0031932 -0.0032399 0.0032628 0.00015808 0.0017129 0.0047026 -0.0061631 -0.0095272
-0.025363 0.015689 -0.20213 0.17813
920000000 -0.097632 0.27299 0.0051983 0.038227 -0.0094683 -0.0041336 -0.0016471 0.0024063
0.0013585 0.0016408 0.0025286 -0.0014869
0.0051657 0.038191 -0.26088 0.31173 0.028363 0.021957 0.0016932 0.0010862
0.0067394 -0.00066187 0.0039045 -0.0031288
-0.0094703 -0.0041066 0.028452 0.021888 0.067468 0.31826 0.0017197 -5.9401e-05
0.0012181 -0.00047876 0.00087352 -0.0011099
-0.0016342 0.0024067 0.0017085 0.0010889 0.0017151 -6.2075e-05 -0.11501 0.25941
-0.010646 0.030576 0.0028385 -0.0065635
0.0013587 0.0016049 0.0067841 -0.00072225 0.0012253 -0.00048031 -0.010569 0.030611
-0.14209 0.15095 -0.0018774 0.028454
0.0025467 -0.0015067 0.0038956 -0.0031433 0.00087074 -0.0011067 0.0028252 -0.0065509
-0.0018528 0.028406 -0.21379 0.19154
980000000 -0.049851 0.29254 0.018128 0.030233 -0.0088063 0.0048372 0.0026197 0.0036246
0.0039052 -0.0018678 -0.0031534 -0.0020111
0.018097 0.030198 -0.20794 0.3454 0.033256 0.0045248 0.0019885 -0.00019676
0.00096022 -0.0060835 -0.00054417 -0.0022064
-0.0087822 0.0048726 0.033289 0.0044083 0.11406 0.31124 0.00044731 -0.0011898
4.0378e-05 -0.0021001 0.001689 -3.4115e-05
0.0026362 0.0036075 0.0020044 -0.00018411 0.00044606 -0.0011846 -0.076335 0.27118
0.0077927 0.029497 -0.0095651 -0.0070017
0.0038949 -0.0018588 0.00094537 -0.0061154 3.8666e-05 -0.0020975 0.0078507 0.029493
-0.11022 0.17883 0.0048986 0.019265
-0.0031603 -0.0019993 -0.00057006 -0.0021934 0.001677 -2.85e-05 -0.0095577 -0.0069927
0.0048829 0.019282 -0.17034 0.24075
1040000000 -0.0066898 0.30063 0.033589 0.017928 -0.00097806 0.0069915 0.0028802 0.00051206
-0.00013189 -0.0037472 -0.00046782 -0.0016153
0.033524 0.017931 -0.17217 0.35849 0.029316 -0.015138 0.0013917 -0.0018077
-0.0026082 -0.0022611 -0.0014515 -0.0028448
-0.00094772 0.0070053 0.029263 -0.015267 0.16039 0.2972 -0.00051266 -0.0014099
-0.0015444 -0.000819 -0.00035208 -0.0013388
0.0028716 0.00050375 0.0014029 -0.0017916 -0.00051799 -0.0013963 -0.048384 0.2815
0.018881 0.017586 -0.0029867 0.0023574
-0.00015664 -0.0037212 -0.0026525 -0.0022651 -0.0015539 -0.00081663 0.018949 0.017564
-0.079449 0.18785 0.013566 0.018643
-0.00046528 -0.0016267 -0.0014737 -0.0028201 -0.00034452 -0.0013428 -0.0029759 0.0023693
0.013555 0.018607 -0.15168 0.26373
1100000000 0.038959 0.30771 0.036023 -0.0045888 0.0031452 0.0037559 0.0024479 -0.0015826
-0.0021689 -0.0029626 -0.0040368 9.8772e-05
0.035988 -0.0045631 -0.1283 0.37552 0.014866 -0.027992 -0.00010136 -0.001811
-0.0030723 -0.00025696 -0.0034692 -0.00049361
0.0031626 0.0037427 0.014763 -0.028082 0.20685 0.27642 -0.0017754 0.00029283
-0.001665 0.0006161 -0.0010916 -0.00056405
0.0024445 -0.0015945 -0.0001116 -0.0018088 -0.0017849 0.00028837 -0.0071881 0.28641
0.023549 0.0050782 -0.0022052 0.00095323
-0.0021812 -0.0029559 -0.003068 -0.00025756 -0.001668 0.00062366 0.023571 0.0050479
-0.060988 0.20128 0.019551 0.0090058
-0.0040313 0.00011418 -0.0034811 -0.00047518 -0.0010836 -0.00055719 -0.0022032 0.00093597
0.019554 0.0090116 -0.10461 0.29564
1160000000 0.090701 0.30221 0.024001 -0.021069 0.0028805 -0.00068899 -0.00030205 -0.002604
-0.0040812 -0.00043269 -0.0010531 0.0041368
0.023989 -0.02103 -0.084023 0.37936 -0.0040745 -0.029007 -0.0018121 -0.0015765
-0.002251 0.0025789 -0.0013194 0.0016616
0.0028802 -0.00068952 -0.0042235 -0.02902 0.24993 0.24507 -0.00052376 0.0017385
-0.00036124 0.0017778 -0.0012154 4.9557e-05
-0.00030539 -0.0026133 -0.0017988 -0.0015614 -0.0005376 0.0017251 0.032804 0.28321
0.019977 -0.010156 -0.0027823 0.0056455
-0.0040864 -0.00042692 -0.0022359 0.0025763 -0.00037291 0.0017785 0.019971 -0.010187
-0.027445 0.21095 0.017965 0.00095125
-0.0010205 0.0041291 -0.0013282 0.0016814 -0.0011962 4.5521e-05 -0.0027819 0.0056405
0.017948 0.00094363 -0.057053 0.29945
1220000000 0.13518 0.29017 0.010279 -0.030191 -0.0014725 -0.0010829 -0.00027101 -0.0010191
-0.0024898 0.0025738 0.0013085 0.0018753
0.010285 -0.030157 -0.039507 0.39078 -0.017015 -0.020841 -0.0024523 0.00053175
0.00033401 0.0027623 -0.00067041 0.0017218
-0.0014766 -0.0010676 -0.017132 -0.020784 0.28884 0.20555 0.00087809 0.0015242
0.00052167 0.0011463 0.0001907 0.00087667
-0.00026651 -0.001023 -0.0024577 0.00054907 0.00088307 0.0015315 0.072733 0.27403
0.0095188 -0.016081 0.0029671 0.0016278
-0.002495 0.0025914 0.0003499 0.0027461 0.00052998 0.0011459 0.0094848 -0.016096
-0.0034765 0.22064 0.01411 -0.012598
0.0013223 0.0018646 -0.00067301 0.0017386 0.00019359 0.00087514 0.0029695 0.0016199
0.014114 -0.0126 -0.026187 0.31975
1280000000 0.18468 0.26744 -0.0080056 -0.028483 -0.001932 0.0022933 -0.00112 -0.0018305
-0.00053242 0.0030289 0.0025941 0.00099878
-0.0079895 -0.028458 0.0065863 0.38105 -0.023633 -0.008164 -0.00086991 0.0014793
0.0015762 0.0015095 0.00051999 0.0020912
-0.0019215 0.0023002 -0.023703 -0.0080565 0.31919 0.1614 0.0013382 -0.00023571
0.00098115 0.00015689 0.00028089 0.00056961
-0.0011191 -0.0018262 -0.00086716 0.0014831 0.001324 -0.00022759 0.10918 0.2572
0.00037111 -0.017709 0.00045089 -4.1518e-05
-0.00050504 0.0030431 0.0015857 0.0014985 0.0009762 0.0001642 0.00034432 -0.017728
0.034082 0.22431 0.0031039 -0.014596
0.0025938 0.00099032 0.00052268 0.0020873 0.00029869 0.00056241 0.00046158 -4.4899e-05
0.0031041 -0.014599 0.022847 0.32296
1340000000 0.22149 0.23282 -0.01775 -0.019052 0.0006809 0.0042226 -0.0018223 -0.00069611
0.0015144 0.0025407 0.0016269 -0.0015645
-0.017723 -0.019049 0.045776 0.37197 -0.021242 0.0043728 1.1098e-05 0.001856
0.0016215 0.00065064 0.0013881 0.0009232
0.00068872 0.0042225 -0.02125 0.0044798 0.34092 0.11319 0.00086173 -0.0008635
0.00064649 -0.00034942 0.00027581 0.00033103
-0.0018213 -0.00068862 2.6727e-05 0.0018645 0.00086076 -0.00085278 0.14162 0.23662
-0.0081054 -0.014652 0.001329 -9.0606e-05
0.001515 0.0025368 0.001626 0.00064813 0.00064601 -0.00035055 -0.0081478 -0.014635
0.065202 0.21924 -0.003209 -0.013208
0.0016181 -0.0015719 0.0014059 0.00091539 0.00027587 0.00033772 0.0013328 -9.2514e-05
-0.0032074 -0.013214 0.062332 0.32045
1400000000 0.25376 0.19393 -0.023536 -0.0075504 0.004851 0.0030366 -0.0019062 0.00069419
0.002437 0.00064104 0.0001687 -0.0012854
-0.023503 -0.0075645 0.082591 0.35828 -0.014514 0.012269 0.0012898 0.0011699
0.00090749 -0.00076492 0.0012415 0.00029286
0.0048631 0.0030141 -0.014467 0.012358 0.35365 0.059385 3.5281e-05 -0.0013459
4.2028e-05 -0.00040685 0.00040849 0.00029101
-0.001912 0.00070412 0.0012959 0.0011643 4.3773e-05 -0.001347 0.17103 0.20803
-0.013081 -0.0082665 -0.00070671 -0.00093222
0.0024422 0.00062265 0.0008932 -0.00076067 3.6312e-05 -0.00041241 -0.013103 -0.0082449
0.098658 0.21385 -0.0095968 -0.008443
0.00016764 -0.0012914 0.0012492 0.00029231 0.00041092 0.00029413 -0.00071554 -0.00093016
-0.0095975 -0.0084593 0.10895 0.31079
1460000000 0.27583 0.14957 -0.02064 0.0046146 0.0053008 -0.0016014 -0.0015028 0.001638
0.0019337 -0.00078941 -0.00029286 -0.0007756
-0.020622 0.0045938 0.11604 0.336 -0.0060101 0.014943 0.0016242 0.00012531
0.00086788 -0.0011333 0.0011997 -0.00069333
0.0052897 -0.0016247 -0.0059421 0.014986 0.35927 0.0048534 -0.0010286 -0.0012135
0.00029409 -0.00017221 0.00079723 -0.00050146
-0.0014931 0.0016337 0.0016288 0.00012041 -0.001024 -0.0012184 0.19753 0.17897
-0.013626 -0.0024017 -0.0012078 0.0015712
0.0019225 -0.00081143 0.00086326 -0.0011248 0.00029077 -0.0001752 -0.013635 -0.0023766
0.12851 0.19819 -0.011234 -0.0029105
-0.00028666 -0.00076938 0.0011991 -0.00069726 0.00079953 -0.00050983 -0.0012093 0.0015541
-0.01123 -0.0029226 0.1431 0.29014
1520000000 0.28727 0.10785 -0.014998 0.0104 0.0030179 -0.0039471 9.7921e-05 0.0024912
0.0016892 -0.0016874 -0.0011562 -0.0001478
-0.014991 0.01038 0.14898 0.32124 0.0013971 0.012811 0.0015564 -0.0007722
0.00010352 -0.0008897 0.00027173 -0.0010983
0.0029934 -0.0039594 0.0014594 0.01281 0.35205 -0.051181 -0.00089657 -0.00038878
0.00049639 -0.0007992 1.2243e-05 -0.00016184
0.00011278 0.0024995 0.0015545 -0.00077701 -0.00089285 -0.00039557 0.22096 0.14091
-0.012805 0.0024258 0.0009977 0.001803
0.0016865 -0.0017049 9.3345e-05 -0.00088913 0.00049438 -0.00080252 -0.012802 0.0024557
0.15638 0.18313 -0.011334 0.0013126
-0.0011558 -0.0001379 0.00026665 -0.0010981 1.6285e-05 -0.00015635 0.0010006 0.0018126
-0.011337 0.0013014 0.17748 0.2715
1580000000 0.29594 0.061708 -0.0082645 0.013619 -0.00097857 -0.0045529 0.0013175 0.0017955
-0.00055213 -0.002044 -0.00031986 0.00036189
-0.0082767 0.013601 0.17563 0.29649 0.0049031 0.0081374 0.00045292 -0.0015179
-0.00041359 -0.0010325 -0.00031748 -0.00084678
-0.00098831 -0.0045547 0.0049593 0.0081156 0.33152 -0.1085 -0.0014968 0.00039733
-0.00030963 -0.0010803 0.00013413 -0.00062421
0.0013211 0.0017905 0.00044214 -0.0015192 -0.0014963 0.00039402 0.23527 0.10123
-0.0097416 0.0063867 0.0017219 0.00066583
-0.00056462 -0.0020408 -0.00042467 -0.0010413 -0.0003187 -0.0010784 -0.0097288 0.0064159
0.18052 0.16437 -0.0090381 0.0067043
-0.00031895 0.00036202 -0.00032795 -0.0008541 0.00013457 -0.00063166 0.0017169 0.00066056
-0.0090569 0.0067026 0.2111 0.24509
1640000000 0.29746 0.020363 -0.0014749 0.012581 -0.0026448 -0.0023618 0.0025012 0.0010446
-0.00083347 -0.0010963 -0.00035638 0.00064842
-0.0014812 0.012571 0.20461 0.27175 0.0055352 0.0035198 -0.00072095 -0.0016119
-0.00097584 -0.00044713 -0.00056329 -0.00058185
-0.0026529 -0.0023368 0.0055555 0.0034997 0.30329 -0.15753 -0.000904 0.0012961
-0.0010554 -0.00080623 -0.00011424 -0.00032049
0.0024999 0.0010326 -0.00073003 -0.0016137 -0.00090966 0.0012856 0.24772 0.051843
-0.0061788 0.007082 0.0021722 -0.00061066
-0.0008427 -0.0010945 -0.00098148 -0.00044564 -0.0010567 -0.00081035 -0.0061717 0.0071
0.20296 0.13898 -0.0043533 0.0089776
-0.00035428 0.00065143 -0.00056243 -0.00058939 -0.0001257 -0.00032499 0.0021668 -0.00061706
-0.0043624 0.0089763 0.23798 0.21439
1700000000 0.28969 -0.024779 0.0021385 0.0097823 -0.0032081 0.00019147 0.0029024 -0.0010319
-0.0018505 -0.0003413 0.00062255 0.0004445
0.0021246 0.0097714 0.22248 0.24051 0.0036803 0.00088005 -0.001352 -0.00054096
-0.00078441 1.1486e-05 -0.00089904 -0.00034024
-0.0032137 0.00021898 0.0036765 0.0008589 0.25942 -0.19707 0.00031722 0.0016496
-0.0016915 -0.00017966 -0.00057789 -0.00093967
0.002899 -0.0010519 -0.0013599 -0.00053948 0.00031217 0.0016445 0.24427 0.0015328
-0.0042749 0.0073505 0.0013088 -0.0019112
-0.0018594 -0.00032407 -0.00078473 1.934e-05 -0.0016886 -0.00017107 -0.0042603 0.0073603
0.22024 0.1174 7.1265e-05 0.0092951
0.00062899 0.00043847 -0.00090702 -0.00033996 -0.00058197 -0.00092819 0.0013008 -0.0019137
7.1892e-05 0.0092851 0.25594 0.18001
1760000000 0.27688 -0.073038 0.0044995 0.0064602 -0.0020774 0.00078177 0.001386 -0.0032678
-0.0009547 0.00070551 0.00036644 -0.00045648
0.0044902 0.0064532 0.24821 0.2009 0.0016556 -0.0007888 -0.0011111 0.00018168
-0.0010796 0.00086276 -0.00051083 0.0005468
-0.0020657 0.00079875 0.0016529 -0.00079012 0.21056 -0.22983 0.0011966 0.0013008
-0.0010751 0.0013345 -0.0013398 -0.00035991
0.0013594 -0.003275 -0.0011113 0.00018508 0.0011803 0.0013021 0.23445 -0.050267
-0.0018748 0.0068579 -0.00033583 -0.0020882
-0.00093856 0.00072472 -0.001076 0.00088653 -0.0010781 0.0013314 -0.0018643 0.0068717
0.23476 0.081184 0.0038262 0.0065284
0.00036215 -0.00046231 -0.00050184 0.00055242 -0.0013417 -0.00037542 -0.0003454 -0.002081
0.0038266 0.0065194 0.2691 0.14244
1820000000 0.25177 -0.11008 0.0048136 0.0028404 1.3318e-05 0.0022869 -0.00082671 -0.0030437
-0.00073809 0.00068379 7.767e-05 -0.00017859
0.0047939 0.0028451 0.2581 0.17115 -0.00014757 0.00017706 -0.0012757 0.00086405
-7.4007e-05 0.0013594 -0.00043323 0.0004821
2.9033e-05 0.0022935 -0.00015077 0.00018486 0.1609 -0.24558 0.0016236 0.00041266
-0.00033219 0.0020732 -0.0014432 0.00041234
-0.0008424 -0.0030301 -0.0012686 0.00088125 0.0016306 0.0004349 0.20378 -0.097417
-0.00091281 0.0056296 -0.0015638 -0.0014152
-0.0007386 0.00069702 -5.5884e-05 0.0013557 -0.00033454 0.0020729 -0.0008937 0.0056364
0.25074 0.050323 0.0047666 0.0030801
7.6768e-05 -0.00018182 -0.00042551 0.00048744 -0.0014361 0.00042866 -0.0015689 -0.0014081
0.0047649 0.0030881 0.27276 0.10653
1880000000 0.21625 -0.14965 0.0027399 0.00050451 -0.00034793 0.0019904 -0.0027657 -0.0022657
-0.00014169 0.0013507 0.00034302 -0.00059329
0.0027231 0.0005131 0.2626 0.12486 -0.0019811 0.0017098 -0.00016181 0.0016682
0.00066297 0.0012984 0.00024807 0.0008677
-0.00033894 0.0020031 -0.00198 0.0017245 0.10898 -0.25529 0.0019316 -0.0010653
0.0014359 0.0019845 -0.00095613 0.0013994
-0.0027774 -0.0022428 -0.00015433 0.0016702 0.0019372 -0.0010612 0.16274 -0.13699
-0.00060622 0.0045496 -0.0022557 0.00065511
-0.00012896 0.0013617 0.0006837 0.0013033 0.0014452 0.0019785 -0.00060035 0.0045461
0.25212 0.016046 0.0043817 0.001157
0.00033858 -0.00059874 0.00025956 0.00086613 -0.00093537 0.0014113 -0.0022485 0.00066158
0.0043766 0.0011618 0.27352 0.072218
1940000000 0.1766 -0.1749 0.00049953 -0.0014685 0.0013872 0.0017883 -0.0037408 0.00045775
0.0011546 0.00093351 -0.00072914 -0.00069829
0.00049578 -0.0014697 0.2632 0.093171 -0.00094789 0.0038418 0.00093176 0.0013265
0.0019251 0.0004933 0.00076349 0.00011737
0.0013838 0.0017914 -0.00093727 0.0038398 0.06248 -0.24892 0.00020529 -0.0023825
0.0023807 0.00045664 0.00024624 0.0016125
-0.0037403 0.00047721 0.0009442 0.0013247 0.00020785 -0.002373 0.10995 -0.16656
-0.0016736 0.0040647 -0.001291 0.0017384
0.0011727 0.00092679 0.0019309 0.00046906 0.0023879 0.00045389 -0.0016549 0.0040652
0.25156 -0.024092 0.0031014 -0.0020504
-0.0007392 -0.00069145 0.0007653 0.00010945 0.00024926 0.0016163 -0.0012874 0.0017344
0.0031081 -0.0020481 0.26329 0.036659
2000000000 0.13064 -0.18887 -0.0033768 0.00033564 0.0022926 0.0014366 -0.0023477 0.0035518
0.00090192 0.00023077 -0.00066055 0.00040538
-0.0033655 0.00033523 0.24925 0.057656 -0.0007534 0.0054997 0.001644 0.00026564
0.0014578 -0.0014633 0.0004001 0.00017338
0.0023099 0.0014301 -0.0007123 0.0055162 0.019011 -0.23431 -0.0015789 -0.001394
0.0020455 -0.001205 0.001606 0.0014085
-0.0023214 0.0035623 0.001654 0.00025316 -0.0015801 -0.0014024 0.056951 -0.17583
-0.0028726 0.0046491 0.0001447 0.002322
0.00090608 0.00021554 0.0014571 -0.0014707 0.0020372 -0.0012193 -0.0028638 0.0046538
