!Keysight Technologies,M9804A,MY58100912,A.14.10.03
!Date: Thursday, April 27, 2023 10:28:33
!Correction: S11(C  6-Port  ) 
!S12(C  6-Port  ) 
!S13(C  6-Port  ) 
!S14(C  6-Port  ) 
!S15(C  6-Port  ) 
!S16(C  6-Port  ) 
!S21(C  6-Port  ) 
!S22(C  6-Port  ) 
!S23(C  6-Port  ) 
!S24(C  6-Port  ) 
!S25(C  6-Port  ) 
!S26(C  6-Port  ) 
!S31(C  6-Port  ) 
!S32(C  6-Port  ) 
!S33(C  6-Port  ) 
!S34(C  6-Port  ) 
!S35(C  6-Port  ) 
!S36(C  6-Port  ) 
!S41(C  6-Port  ) 
!S42(C  6-Port  ) 
!S43(C  6-Port  ) 
!S44(C  6-Port  ) 
!S45(C  6-Port  ) 
!S46(C  6-Port  ) 
!S51(C  6-Port  ) 
!S52(C  6-Port  ) 
!S53(C  6-Port  ) 
!S54(C  6-Port  ) 
!S55(C  6-Port  ) 
!S56(C  6-Port  ) 
!S61(C  6-Port  ) 
!S62(C  6-Port  ) 
!S63(C  6-Port  ) 
!S64(C  6-Port  ) 
!S65(C  6-Port  ) 
!S66(C  6-Port  ) 
!S6P File: Measurement: :
# Hz S  RI   R 50
500000000 -0.33621 -0.034196 -0.0095583 -0.0034359 -0.0076987 0.011631 -0.003619 0.011554
0.011853 0.0045368 -0.0042615 0.007812
-0.0095155 -0.0034273 -0.41879 -0.04923 0.0075382 -0.011969 0.0012311 0.011781
0.0071522 0.0029132 -2.5419e-05 0.012892
-0.007602 0.011611 0.0075123 -0.011975 -0.26426 0.21145 0.006859 0.0031562
-3.0434e-05 0.0084202 4e-05 0.012298
-0.0037429 0.011564 0.0012239 0.01177 0.0068792 0.0031554 -0.32651 0.048789
-0.01888 -0.0046538 0.018349 0.027222
0.01182 0.0043956 0.0071781 0.0029409 -7.0976e-05 0.008387 -0.018927 -0.0044856
-0.22552 -0.18367 -0.027264 0.0058907
-0.0044018 0.0079044 -5.132e-05 0.013188 4.0135e-05 0.012139 0.018616 0.027225
-0.027234 0.005198 -0.26629 -0.14204
560000000 -0.31581 0.1246 -0.024091 -0.063079 0.00079498 0.012053 0.0058339 0.0097886
0.010836 0.0044107 0.0094537 0.0069053
-0.024019 -0.062867 -0.37679 0.10913 -0.041421 -0.037568 0.013521 0.0041377
-0.013148 -0.0049578 0.0040764 -0.00043325
0.00065391 0.012177 -0.041462 -0.037445 -0.18242 0.25953 -0.00079965 -0.0051501
0.01873 0.0044058 0.0074611 -0.0064202
0.00598 0.0098478 0.013437 0.0038343 -0.00083438 -0.0051359 -0.30172 0.13568
0.0037486 -0.024833 0.0056409 -0.019856
0.0112 0.0043049 -0.013389 -0.0050057 0.018892 0.0045253 0.003866 -0.025283
-0.28409 -0.0081723 0.00736 -0.052004
0.0092813 0.0071014 0.0043225 -0.00063276 0.0076443 -0.0065057 0.0052672 -0.019205
0.0072464 -0.051631 -0.33299 0.0081268
620000000 -0.27293 0.10934 -0.023064 0.0069746 0.0033088 0.0083099 0.0068153 -0.0052081
0.011447 -0.00097622 -7.6867e-05 -0.0018622
-0.023073 0.007012 -0.40238 0.062977 -0.019115 -0.00049632 -0.0012959 -0.0021549
0.010159 -0.0069624 0.0011631 -0.0023523
0.0033343 0.0083186 -0.019148 -0.00041242 -0.15262 0.26756 -0.0016402 -0.0052856
-0.0038235 -0.0029496 0.0082991 -0.0030673
0.0066518 -0.0051425 -0.0012041 -0.0021199 -0.0016501 -0.0052974 -0.26078 0.14591
-0.038422 -0.019524 0.014544 0.023709
0.011473 -0.001063 0.010083 -0.0070285 -0.0039545 -0.0031277 -0.039034 -0.019186
-0.20426 -0.047745 -0.041272 0.015925
-8.4132e-05 -0.001922 0.0011594 -0.0024337 0.0082571 -0.0031937 0.01421 0.023381
-0.040935 0.016325 -0.24896 -0.032259
680000000 -0.23295 0.19358 -0.02807 -0.014154 0.004835 0.004951 0.0010818 -0.0073462
-0.0032407 -0.010966 0.0049907 -0.007073
-0.028027 -0.014174 -0.38663 0.15958 -0.032773 -0.0012401 -0.0016166 5.5277e-05
-0.0027967 -0.0089274 -0.0012949 -0.0020388
0.0048146 0.0050255 -0.032832 -0.0011681 -0.1021 0.28722 -0.0006038 0.0002527
-0.0023031 0.00087178 -0.0030831 -0.009891
0.00099799 -0.0073461 -0.0016463 6.7487e-05 -0.00062922 0.00026446 -0.21828 0.19508
-0.023789 -0.0082893 -0.010805 -0.010697
-0.0033717 -0.01083 -0.0027957 -0.008961 -0.0022812 0.00083761 -0.023874 -0.008365
-0.25207 0.048284 -0.004507 -0.0095902
0.0048823 -0.0071158 -0.0014391 -0.0021474 -0.0029805 -0.0097224 -0.010815 -0.010319
-0.0049125 -0.0095496 -0.26257 0.075293
740000000 -0.18958 0.18842 -0.038767 0.02642 0.012441 -0.0052203 -0.00070744 -0.0039978
-0.0047452 -0.0030367 -0.0057118 0.0040153
-0.03876 0.026331 -0.33507 0.17837 -0.035256 0.035107 -0.00089036 -0.0062175
-0.011266 0.0082516 -0.0024137 -0.0063413
0.012344 -0.0052298 -0.035171 0.035215 -0.068558 0.28651 -0.0015163 0.0034688
-0.0026282 -0.003557 -0.0011903 0.00040504
-0.00069403 -0.0040302 -0.00090899 -0.0062237 -0.0015151 0.0034814 -0.20224 0.20293
-0.042591 -0.0080832 0.022969 0.013558
-0.0048057 -0.0029436 -0.01129 0.0083926 -0.002718 -0.0035902 -0.042673 -0.0080113
-0.15677 0.073037 -0.043205 0.000406
-0.0057193 0.0039333 -0.0025798 -0.0064448 -0.00093652 0.00045714 0.02264 0.013451
-0.042282 4.7742e-05 -0.25604 0.081327
800000000 -0.15723 0.2287 -0.022447 0.017313 0.0052114 -0.010439 -0.0048471 -0.0019671
-0.0039543 0.0030387 0.0047022 0.00064699
-0.022391 0.017315 -0.33744 0.24894 -0.007839 0.034223 -0.0021008 0.0022068
-0.00046641 0.0035278 0.0012923 0.0054103
0.0052318 -0.010429 -0.0077478 0.034271 -0.027259 0.30983 0.0012208 0.0014557
0.0007457 0.0035439 -0.0017153 0.00097727
-0.0048038 -0.0019903 -0.0021046 0.0022213 0.0012148 0.0014628 -0.17412 0.2309
-0.028701 0.012979 0.013531 -0.010038
-0.0039586 0.0030359 -0.00046687 0.003511 0.00076227 0.0035539 -0.028609 0.013004
-0.20051 0.096368 -0.018245 0.018061
0.0046798 0.00064755 0.0012702 0.0053795 -0.0017744 0.00094157 0.013441 -0.010008
-0.018201 0.01807 -0.2503 0.13723
860000000 -0.12266 0.24968 -0.017185 0.03127 -0.0034309 -0.0097125 -0.0025818 0.0014098
0.0042381 0.0051646 -0.0031015 -0.002729
-0.017199 0.031185 -0.2895 0.29079 0.0083175 0.034052 0.00037652 0.002109
0.0046565 0.00048193 0.0033214 0.00044773
-0.0035026 -0.0097608 0.0084216 0.034064 0.021393 0.31748 -0.00026883 -0.00031856
0.0028102 -0.001586 0.0015179 0.0047733
-0.0024861 0.0012662 0.00037824 0.0021223 -0.0002692 -0.00033062 -0.13866 0.24304
-0.017808 0.018894 -0.0063316 -0.0096342
0.0043023 0.005107 0.0046408 0.00043311 0.0028125 -0.0016061 -0.017753 0.018983
-0.15222 0.14531 -0.02524 0.01559
-0.0029763 -0.0027805 0.0033321 0.0003967 0.0014518 0.0047869 -0.0063901 -0.0098549
-0.025446 0.015423 -0.19999 0.18263
920000000 -0.09704 0.27328 0.0052723 0.037887 -0.0093053 -0.0040646 -0.0017198 0.0024129
0.0013015 0.0015387 0.0023767 -0.0013979
0.0052408 0.03787 -0.26025 0.31187 0.028053 0.021605 0.0015998 0.0010583
0.0068209 -0.00066311 0.0036133 -0.0030725
-0.0093061 -0.0040251 0.028148 0.021551 0.067904 0.31775 0.001761 -0.0001229
0.0012765 -0.00033886 0.00089874 -0.0012248
-0.0016948 0.0024074 0.0015983 0.0010665 0.0017485 -0.00012415 -0.11402 0.25931
-0.010446 0.03022 0.0026996 -0.0062962
0.001326 0.001459 0.0068093 -0.00070286 0.0012858 -0.00033599 -0.010347 0.030262
-0.14153 0.15092 -0.0017352 0.028141
0.0024638 -0.0014356 0.0036742 -0.0030945 0.00088553 -0.0012414 0.0027861 -0.0063131
-0.0018934 0.028117 -0.2099 0.19626
980000000 -0.049294 0.29248 0.017992 0.029916 -0.0086635 0.0048051 0.0025569 0.0037061
0.0039432 -0.0016802 -0.0029058 -0.0020614
0.017959 0.029925 -0.20724 0.34536 0.032811 0.0044777 0.0019946 -8.7646e-05
0.0010461 -0.0059982 -0.00041929 -0.00214
-0.0086355 0.004841 0.032839 0.0043965 0.11429 0.31062 0.00043439 -0.0011868
-6.72e-06 -0.0020397 0.0016642 -3.3974e-06
0.0025666 0.0036716 0.0020062 -9.5721e-05 0.00043971 -0.0011949 -0.075722 0.27089
0.0073258 0.029012 -0.0094028 -0.0067623
0.0039876 -0.0017001 0.0010386 -0.005989 -1.6685e-05 -0.0020373 0.0074049 0.029021
-0.11022 0.17892 0.0049251 0.019306
-0.0028947 -0.0020562 -0.00043456 -0.0021482 0.0016279 -1.0724e-05 -0.0093198 -0.0067341
0.0049888 0.019208 -0.16558 0.2436
1040000000 -0.0063089 0.30047 0.033357 0.017627 -0.00095303 0.0068386 0.0028677 0.00063393
-7.9245e-05 -0.0036335 -0.0004406 -0.0015322
0.033376 0.017613 -0.17135 0.35831 0.028935 -0.014919 0.0014677 -0.0017163
-0.0026065 -0.0022463 -0.0014054 -0.0027532
-0.00090395 0.0068426 0.02889 -0.015024 0.16035 0.29655 -0.000532 -0.0013603
-0.0015529 -0.00080053 -0.00041292 -0.0012432
0.0028433 0.00060254 0.0014758 -0.0017053 -0.00052713 -0.0013675 -0.047851 0.28091
0.018472 0.017239 -0.0028528 0.002076
-6.5721e-05 -0.0036453 -0.0026609 -0.0022312 -0.001576 -0.00078147 0.018528 0.017174
-0.078825 0.18796 0.013566 0.01838
-0.00045497 -0.0015174 -0.0014448 -0.0027964 -0.00038517 -0.0012815 -0.0028895 0.002114
0.013532 0.018305 -0.14685 0.26618
1100000000 0.039361 0.30751 0.035566 -0.004642 0.0030659 0.0036137 0.002475 -0.0015003
-0.0021299 -0.0030464 -0.0039851 -1.901e-05
0.035544 -0.0046257 -0.12769 0.37496 0.014718 -0.027561 -2.6021e-05 -0.0017835
-0.0030686 -0.00036718 -0.0034406 -0.00059281
0.0030791 0.0036022 0.014633 -0.027636 0.20648 0.27586 -0.0017307 0.00026113
-0.0016492 0.00067577 -0.0009827 -0.00044097
0.0024624 -0.0015026 -1.6547e-05 -0.0017916 -0.0017344 0.00026967 -0.0070892 0.28562
0.02282 0.0050897 -0.0022906 0.00085192
-0.0021491 -0.0030331 -0.0030671 -0.00036151 -0.0016566 0.00068547 0.022835 0.0050605
-0.060358 0.20111 0.018795 0.0087178
-0.0040192 -2.7389e-05 -0.0034764 -0.00054355 -0.0010054 -0.00043422 -0.0022946 0.00083583
0.018841 0.0088275 -0.10006 0.2971
1160000000 0.091006 0.3019 0.023593 -0.020889 0.0027304 -0.00063743 -0.00022825 -0.0025491
-0.0040272 -0.00043317 -0.0010042 0.0040909
0.023612 -0.020848 -0.083634 0.3787 -0.0038567 -0.028626 -0.0018208 -0.0016298
-0.0023022 0.0025163 -0.0014004 0.0016307
0.0027431 -0.0006481 -0.0039877 -0.028635 0.24925 0.24484 -0.0005718 0.0016997
-0.00033761 0.0017711 -0.0010772 0.00010486
-0.00022452 -0.0025882 -0.0018045 -0.0015887 -0.00056623 0.0017051 0.032388 0.2825
0.019405 -0.0096813 -0.0029232 0.0055123
-0.0040067 -0.00040472 -0.0023258 0.0025512 -0.00033893 0.0017666 0.019394 -0.0096878
-0.026659 0.21048 0.017549 0.00084611
-0.00099714 0.0040845 -0.0013865 0.0016266 -0.0010982 8.3377e-05 -0.002936 0.005584
0.01748 0.00093206 -0.05256 0.30008
1220000000 0.13552 0.28984 0.010062 -0.029832 -0.0015648 -0.00092808 -0.00019499 -0.0010519
-0.0024562 0.0025888 0.0013744 0.0018082
0.010081 -0.029789 -0.039512 0.38996 -0.016684 -0.020645 -0.0024366 0.00048383
0.00030319 0.0027888 -0.00063299 0.0017236
-0.0015776 -0.00092279 -0.016787 -0.02059 0.28823 0.20575 0.00087126 0.0015053
0.00054978 0.0011248 0.00026035 0.00077033
-0.00018278 -0.0010607 -0.0024415 0.00049603 0.00087117 0.0014996 0.071995 0.27368
0.0093397 -0.015413 0.002881 0.0016344
-0.0024553 0.0025901 0.00029846 0.0027696 0.00054084 0.0011256 0.0093077 -0.015428
-0.0028499 0.21983 0.013826 -0.012333
0.0013691 0.0018047 -0.00063337 0.0017386 0.00025059 0.00078725 0.0028805 0.0016218
0.013776 -0.012271 -0.021436 0.31989
1280000000 0.18477 0.267 -0.00793 -0.028095 -0.0018064 0.0023511 -0.0011217 -0.0019186
-0.00056346 0.0030213 0.0025924 0.0010113
-0.007897 -0.02806 0.0060629 0.3805 -0.023217 -0.0082622 -0.00096086 0.0014329
0.0015267 0.0015007 0.00050978 0.0020231
-0.001798 0.0023821 -0.023287 -0.0081573 0.31886 0.16184 0.0013119 -0.00017985
0.00090342 0.0001274 0.0003364 0.00048118
-0.0011304 -0.0019259 -0.00096092 0.0014375 0.0013166 -0.0001617 0.10839 0.25737
0.00071207 -0.017035 0.00049746 -6.7797e-05
-0.00053099 0.0030129 0.0015311 0.001504 0.00091547 0.00013339 0.00070193 -0.017052
0.034338 0.2234 0.0031712 -0.014131
0.0025856 0.00098858 0.0005275 0.0019685 0.00030694 0.00050328 0.00049497 -5.7805e-05
0.0032072 -0.014182 0.027074 0.32239
1340000000 0.22149 0.23265 -0.017493 -0.018725 0.00077373 0.0042633 -0.0018554 -0.00072419
0.0014718 0.0025442 0.0015924 -0.0015036
-0.017463 -0.018713 0.045095 0.37188 -0.021138 0.0040816 -5.5291e-05 0.0019352
0.0016183 0.00068431 0.0013975 0.00085592
0.0008061 0.0042493 -0.021142 0.0041964 0.341 0.11388 0.00089882 -0.00080942
0.00058727 -0.00034627 0.00025475 0.00026664
-0.0018759 -0.00070843 -3.7762e-05 0.0019394 0.00089321 -0.00081747 0.14116 0.23715
-0.0073846 -0.014289 0.0013269 -4.1715e-05
0.0014625 0.0025375 0.0016427 0.00067002 0.00057944 -0.0003495 -0.0073937 -0.01428
0.064996 0.21833 -0.0030436 -0.012834
0.0015927 -0.0014947 0.0013374 0.00085163 0.00026297 0.00027882 0.001341 -6.8846e-05
-0.0030202 -0.012853 0.066092 0.31941
1400000000 0.25382 0.19395 -0.023081 -0.0074326 0.0048657 0.0030204 -0.0019965 0.00067621
0.0023603 0.00061963 0.000213 -0.001279
-0.023069 -0.0074349 0.081885 0.35875 -0.014562 0.012006 0.001302 0.0012503
0.0009491 -0.00076979 0.0012227 0.00030448
0.0048821 0.00299 -0.014521 0.012098 0.35416 0.059885 0.00010451 -0.0014163
1.0995e-05 -0.0003988 0.00036084 0.00020454
-0.0020064 0.00068575 0.0013121 0.0012344 0.00010941 -0.0014085 0.17089 0.20876
-0.012353 -0.0083725 -0.00068929 -0.00095459
0.0023728 0.00059903 0.00095022 -0.00078607 8.5967e-06 -0.0003879 -0.012365 -0.0083474
0.09812 0.21322 -0.0092296 -0.0083446
0.00018989 -0.0013174 0.0012256 0.00028407 0.00037266 0.00020654 -0.0007039 -0.00097798
-0.0092187 -0.0083665 0.1122 0.30949
1460000000 0.27608 0.1497 -0.020217 0.0045088 0.0053125 -0.0016156 -0.0015202 0.0017083
0.0018284 -0.00068419 -0.00030082 -0.00078957
-0.020207 0.004476 0.1158 0.33697 -0.0062608 0.014829 0.0016517 0.00017417
0.00083427 -0.0010699 0.0012147 -0.00064351
0.0052964 -0.0016284 -0.0061965 0.014866 0.35999 0.0049756 -0.0010116 -0.0012057
0.00026341 -0.00016805 0.00073363 -0.0004502
-0.0015143 0.0017108 0.0016653 0.00016144 -0.0010042 -0.0012124 0.19771 0.17967
-0.013093 -0.0029834 -0.0012888 0.0015392
0.001829 -0.00071673 0.00083598 -0.0010725 0.0002756 -0.00018451 -0.013109 -0.0029472
0.12772 0.19796 -0.010888 -0.0030445
-0.00028712 -0.00079212 0.0011937 -0.00066042 0.00070089 -0.00047215 -0.0012618 0.0015543
-0.010885 -0.0030385 0.14597 0.28875
1520000000 0.28768 0.10786 -0.014741 0.010074 0.0030577 -0.0039169 0.00010928 0.0025434
0.0017369 -0.001637 -0.0011196 -0.00017263
-0.014734 0.010041 0.1492 0.32225 0.0012035 0.012856 0.001579 -0.00078501
0.00013602 -0.00091587 0.00028147 -0.0010425
0.0030259 -0.0039532 0.0012834 0.012861 0.35268 -0.051416 -0.00090828 -0.0003748
0.00055577 -0.0007679 -2.8907e-05 -7.8747e-05
0.00011364 0.002541 0.0015756 -0.00079409 -0.00091749 -0.00037455 0.22153 0.14156
-0.012731 0.0016658 0.00096122 0.0018573
0.0017466 -0.0016544 0.00013366 -0.00092061 0.00054317 -0.00077858 -0.012725 0.0016915
0.15576 0.1832 -0.011115 0.000948
-0.0011278 -0.00018609 0.00028947 -0.0010492 -3.3825e-05 -8.7861e-05 0.00096809 0.0018529
-0.011132 0.0009805 0.18044 0.26967
1580000000 0.29648 0.061533 -0.0082751 0.013166 -0.00087254 -0.0045949 0.0013531 0.0018651
-0.00049261 -0.0020077 -0.00036245 0.00036237
-0.0082658 0.01315 0.17645 0.29747 0.0048143 0.0082779 0.00046173 -0.0015385
-0.00037398 -0.001067 -0.00027967 -0.00085203
-0.00088939 -0.0046125 0.0048617 0.0082557 0.33189 -0.10902 -0.0015174 0.00045274
-0.0002289 -0.0010998 0.00016447 -0.00050343
0.001367 0.0018449 0.00045642 -0.0015484 -0.0015141 0.00044096 0.23619 0.10159
-0.010133 0.005744 0.0017559 0.0007554
-0.00050034 -0.0020072 -0.00039813 -0.001082 -0.00022679 -0.0010948 -0.01014 0.0057842
0.18005 0.16477 -0.0090273 0.0063986
-0.00034895 0.00036854 -0.00029141 -0.0008632 0.00017175 -0.00056407 0.001766 0.00073355
-0.0090188 0.0064012 0.21362 0.24315
1640000000 0.29808 0.020007 -0.001696 0.012282 -0.0026239 -0.0025143 0.0025143 0.0010328
-0.00076849 -0.0011142 -0.00035366 0.00067413
-0.0016885 0.012278 0.20589 0.27228 0.0056158 0.0036753 -0.00073098 -0.0016257
-0.00097635 -0.00049196 -0.00052772 -0.00064441
-0.0026042 -0.0024933 0.0056398 0.0036415 0.30342 -0.15791 -0.00088732 0.0012757
-0.0010207 -0.00087611 -9.2545e-05 -0.00036417
0.0025279 0.0010111 -0.00073753 -0.001623 -0.00089456 0.0012864 0.24875 0.051786
-0.0068379 0.0068453 0.002207 -0.00062962
-0.00077675 -0.0011058 -0.00099018 -0.0004741 -0.0010311 -0.00084647 -0.0068362 0.0068807
0.20282 0.13957 -0.0045893 0.0086083
-0.00033325 0.00069523 -0.00055066 -0.0006344 -8.344e-05 -0.00034612 0.0022339 -0.00065798
-0.0045845 0.0086015 0.2403 0.2121
1700000000 0.29026 -0.025452 0.0018471 0.0097017 -0.003347 0.00011566 0.0029165 -0.0010228
-0.0017672 -0.00039423 0.00066079 0.00042177
0.0018393 0.0097007 0.22397 0.24054 0.0037823 0.00085477 -0.0013719 -0.00056956
-0.00080301 8.0583e-06 -0.00089852 -0.00038443
-0.0033146 0.00015271 0.0037936 0.00083248 0.25956 -0.19779 0.00030458 0.0015788
-0.001736 -0.00028687 -0.00049387 -0.00088387
0.0029143 -0.0010444 -0.0013861 -0.00056282 0.00030279 0.0015719 0.24533 0.00088821
-0.0048523 0.0075298 0.001312 -0.0019513
-0.001787 -0.00038517 -0.0008173 -7.529e-07 -0.0017176 -0.00026965 -0.0048397 0.0075575
0.22036 0.11799 -0.00028103 0.0091077
0.00062898 0.00041024 -0.00090919 -0.00037679 -0.00048563 -0.00081892 0.001305 -0.0019379
-0.00025921 0.0091218 0.25762 0.17764
1760000000 0.27724 -0.074033 0.0043431 0.0065215 -0.0021795 0.00084166 0.001362 -0.0032859
-0.0010175 0.00065692 0.00035681 -0.00046513
0.0043285 0.0065131 0.24971 0.20035 0.0017014 -0.00088501 -0.0011047 0.00018507
-0.0011382 0.0008889 -0.00060343 0.00048609
-0.0021681 0.0008466 0.0017003 -0.00090142 0.21034 -0.23044 0.0011086 0.0013072
-0.001152 0.0013457 -0.0013699 -0.00044028
0.0013491 -0.0033036 -0.0010975 0.00019603 0.0011114 0.0013095 0.2351 -0.051309
-0.0021922 0.0072984 -0.00046308 -0.0021609
-0.0010143 0.00066212 -0.0011363 0.00090374 -0.0011624 0.0013536 -0.0021944 0.007299
0.23516 0.081707 0.0034367 0.0065295
0.00037342 -0.00048607 -0.00057777 0.00050724 -0.0013432 -0.00042759 -0.0004764 -0.002138
0.0034567 0.0065595 0.2706 0.13988
1820000000 0.25178 -0.1111 0.0047162 0.0029173 3.7493e-05 0.0023978 -0.00084259 -0.0030709
-0.00080335 0.00064807 4.7717e-05 -0.00014776
0.0047007 0.002907 0.25931 0.17005 -0.00017068 0.00015883 -0.0012981 0.00087457
-0.00010318 0.0014168 -0.0005071 0.00047957
1.2248e-05 0.0023839 -0.00017271 0.00014538 0.16047 -0.24587 0.0015523 0.00050566
-0.00042183 0.0021502 -0.0013793 0.00050945
-0.00084045 -0.003055 -0.0012853 0.0008836 0.0015397 0.00049253 0.20381 -0.098835
-0.00091315 0.0060814 -0.0016109 -0.0013655
-0.00078624 0.0006556 -8.8645e-05 0.0014232 -0.00041747 0.0021613 -0.00089453 0.0060918
0.25127 0.050691 0.0044656 0.0033385
5.4014e-05 -0.00012958 -0.00051903 0.00050114 -0.0014262 0.0004983 -0.0015859 -0.0013496
0.0044331 0.0033336 0.27362 0.10401
1880000000 0.21583 -0.15063 0.0026025 0.00055005 -0.0003438 0.0020472 -0.0028178 -0.0022459
-0.00024271 0.0013918 0.00037461 -0.00057693
0.0026036 0.00055091 0.26332 0.12338 -0.0020937 0.001708 -0.00014679 0.0016884
0.00066904 0.0013716 0.000223 0.00097505
-0.00037248 0.0020565 -0.0020852 0.0017173 0.10839 -0.2552 0.0019402 -0.0010444
0.001402 0.002021 -0.00093701 0.001367
-0.0028453 -0.0022124 -0.00013658 0.0016856 0.0019507 -0.00105 0.16213 -0.13815
-0.00037265 0.0048593 -0.0022654 0.00084631
-0.00027975 0.0013956 0.00068221 0.0013781 0.0013936 0.0020211 -0.00036574 0.0048754
0.25285 0.016227 0.0041843 0.0015225
0.00034645 -0.000598 0.00021335 0.00095692 -0.00088309 0.0013702 -0.0022685 0.00084158
0.004151 0.0014999 0.27418 0.069818
1940000000 0.176 -0.17573 0.00042948 -0.0013686 0.0013923 0.0019242 -0.0037618 0.00049748
0.0011432 0.00097517 -0.00073245 -0.00069367
0.00040578 -0.001392 0.26332 0.091627 -0.0010316 0.003951 0.00094359 0.0013398
0.0020297 0.0005241 0.00082724 0.00022516
0.0014227 0.0018872 -0.0010028 0.0039582 0.06215 -0.24868 0.00024913 -0.0024121
0.0024306 0.00051987 0.0002672 0.0015907
-0.0037834 0.00046524 0.00096074 0.0013297 0.00026642 -0.0023943 0.10891 -0.16731
-0.0013688 0.0041863 -0.0011451 0.0018568
0.0011554 0.00092816 0.0020391 0.0005112 0.0024274 0.00051416 -0.0013662 0.0041878
0.25245 -0.02421 0.003119 -0.0015822
-0.00074581 -0.00071434 0.0008328 0.00023265 0.00024454 0.0016012 -0.0011482 0.0018237
0.0031455 -0.0015924 0.2635 0.03418
2000000000 0.12981 -0.18941 -0.0035065 0.0004785 0.0024183 0.0015214 -0.0023326 0.0035899
0.00087368 0.00029864 -0.00076412 0.00035185
-0.0035017 0.00047698 0.24873 0.056207 -0.00078996 0.0055715 0.0016023 0.00028578
0.0014824 -0.0015512 0.00055368 0.00016112
0.002444 0.0014962 -0.00074497 0.0055958 0.018932 -0.23418 -0.0015093 -0.0014575
0.0021127 -0.001244 0.0016531 0.0012885
-0.0022774 0.003565 0.0016277 0.00029111 -0.0015222 -0.0014409 0.055655 -0.17582
-0.0027159 0.0046325 0.00017259 0.002149
0.00089372 0.00029493 0.0014718 -0.001553 0.0021054 -0.0012536 -0.0026875 0.0046244
