!Keysight Technologies,M9804A,MY58100912,A.14.10.03
!Date: Thursday, April 27, 2023 10:28:33
!Correction: S11(C  6-Port  ) 
!S12(C  6-Port  ) 
!S13(C  6-Port  ) 
!S14(C  6-Port  ) 
!S15(C  6-Port  ) 
!S16(C  6-Port  ) 
!S21(C  6-Port  ) 
!S22(C  6-Port  ) 
!S23(C  6-Port  ) 
!S24(C  6-Port  ) 
!S25(C  6-Port  ) 
!S26(C  6-Port  ) 
!S31(C  6-Port  ) 
!S32(C  6-Port  ) 
!S33(C  6-Port  ) 
!S34(C  6-Port  ) 
!S35(C  6-Port  ) 
!S36(C  6-Port  ) 
!S41(C  6-Port  ) 
!S42(C  6-Port  ) 
!S43(C  6-Port  ) 
!S44(C  6-Port  ) 
!S45(C  6-Port  ) 
!S46(C  6-Port  ) 
!S51(C  6-Port  ) 
!S52(C  6-Port  ) 
!S53(C  6-Port  ) 
!S54(C  6-Port  ) 
!S55(C  6-Port  ) 
!S56(C  6-Port  ) 
!S61(C  6-Port  ) 
!S62(C  6-Port  ) 
!S63(C  6-Port  ) 
!S64(C  6-Port  ) 
!S65(C  6-Port  ) 
!S66(C  6-Port  ) 
!S6P File: Measurement: :
# Hz S  RI   R 50
500000000 -0.33663 -0.034442 -0.0090877 -0.0035235 -0.0075511 0.0112 -0.0033993 0.011582
0.012022 0.0041183 -0.0036736 0.0084633
-0.0090778 -0.0035229 -0.41887 -0.049593 0.0075973 -0.011969 0.0014792 0.011852
0.0073784 0.002812 0.00064646 0.013438
-0.007536 0.011205 0.0075736 -0.011987 -0.26383 0.21076 0.0070299 0.0031022
0.00017701 0.0084175 0.00024244 0.012093
-0.0033895 0.011585 0.0015035 0.011872 0.0070241 0.0031013 -0.32654 0.048174
-0.019221 -0.0043115 0.018034 0.026632
0.01205 0.0040838 0.0073785 0.002794 0.00017115 0.0084117 -0.019227 -0.0043053
-0.2256 -0.18479 -0.028497 0.0057178
-0.0036646 0.0084659 0.00067358 0.013458 0.00024897 0.012092 0.018042 0.026624
-0.028502 0.0057121 -0.2652 -0.14922
560000000 -0.31525 0.12449 -0.023528 -0.063407 0.00020083 0.012069 0.0062523 0.0096968
0.011101 0.0043906 0.0098647 0.0072925
-0.023487 -0.063337 -0.37617 0.10803 -0.041645 -0.03679 0.013443 0.0036318
-0.013058 -0.0046277 0.0043369 -0.00068187
0.00024275 0.012069 -0.041801 -0.036726 -0.18253 0.25768 -0.0007088 -0.005064
0.018678 0.0039954 0.0073051 -0.0061178
0.0062762 0.0096744 0.013464 0.0036138 -0.00070615 -0.0050653 -0.30244 0.13536
0.0042288 -0.0252 0.005346 -0.01995
0.011105 0.0043967 -0.013099 -0.0045976 0.018687 0.0039983 0.0042251 -0.025202
-0.28418 -0.00984 0.0086597 -0.051527
0.0098945 0.007283 0.0043289 -0.00072416 0.0073013 -0.0061112 0.005348 -0.019944
0.008687 -0.051543 -0.33406 0.0026712
620000000 -0.27263 0.10886 -0.023208 0.0068851 0.0031355 0.0081908 0.0068218 -0.0056635
0.011116 -0.00089318 0.00047369 -0.0020556
-0.023203 0.0068815 -0.4022 0.062334 -0.019231 -0.000401 -0.0014668 -0.0021662
0.010138 -0.0070861 0.0010741 -0.0025429
0.0031572 0.0081751 -0.019255 -0.00035453 -0.15295 0.26724 -0.0018178 -0.0050998
-0.0041324 -0.003291 0.0083945 -0.0033155
0.0068329 -0.0056831 -0.0014763 -0.002155 -0.0018193 -0.0050961 -0.2606 0.1457
-0.038733 -0.019315 0.014195 0.02422
0.011121 -0.00090703 0.010137 -0.0071171 -0.004127 -0.003291 -0.038762 -0.019294
-0.20325 -0.049493 -0.041207 0.015625
0.00047965 -0.0020449 0.0010688 -0.0025516 0.008393 -0.0033134 0.014193 0.024204
-0.041205 0.015613 -0.24829 -0.040211
680000000 -0.23282 0.19269 -0.028104 -0.014192 0.0046933 0.0051299 0.00094495 -0.0074921
-0.0034021 -0.010926 0.0047873 -0.0068953
-0.02808 -0.014197 -0.38695 0.15861 -0.033314 -0.0013272 -0.0017846 -9.9183e-05
-0.0030623 -0.0088884 -0.001204 -0.0019432
0.0046938 0.0051169 -0.033347 -0.0012358 -0.10271 0.28678 -0.00055294 0.0003827
-0.0024408 0.0010475 -0.0029193 -0.0099177
0.00094739 -0.0074977 -0.0017889 -0.00010042 -0.00054922 0.00037899 -0.21833 0.19471
-0.023753 -0.0086799 -0.010838 -0.010814
-0.0034183 -0.010931 -0.0030804 -0.0088983 -0.0024464 0.0010474 -0.023769 -0.0086543
-0.25123 0.047433 -0.0052773 -0.0101
0.0047743 -0.0069276 -0.0012122 -0.0019416 -0.002917 -0.0099141 -0.010854 -0.010805
-0.0052723 -0.010103 -0.26467 0.070779
740000000 -0.18991 0.18765 -0.038772 0.026403 0.012457 -0.0050866 -0.00076633 -0.0039189
-0.0045702 -0.0025152 -0.006235 0.0035818
-0.038742 0.02637 -0.33563 0.17779 -0.035291 0.0352 -0.00098195 -0.0061127
-0.011427 0.0081373 -0.0029159 -0.0064255
0.012436 -0.0051052 -0.035209 0.035347 -0.069397 0.28621 -0.0013282 0.0033804
-0.0022472 -0.0037523 -0.0011923 2.4936e-05
-0.00076906 -0.0039312 -0.0010084 -0.0061251 -0.0013332 0.0033786 -0.20246 0.20243
-0.043082 -0.007816 0.022485 0.013769
-0.0045659 -0.0025311 -0.011386 0.008197 -0.0022467 -0.0037615 -0.043116 -0.0077877
-0.15625 0.07111 -0.04351 0.00050651
-0.0062312 0.0035924 -0.0029483 -0.0064258 -0.0011918 4.0603e-05 0.022494 0.013762
-0.04351 0.00047228 -0.25858 0.075555
800000000 -0.15795 0.22811 -0.022859 0.017355 0.0052965 -0.010473 -0.0049768 -0.0019947
-0.0038696 0.0028357 0.0047141 0.00078185
-0.022852 0.017325 -0.33814 0.24822 -0.0079817 0.034514 -0.0020508 0.0022007
-0.00034527 0.0034609 0.0013038 0.005333
0.0052693 -0.010492 -0.0078898 0.034575 -0.028076 0.30973 0.0012152 0.0013758
0.00073203 0.0034061 -0.0019186 0.00092663
-0.0049855 -0.0019771 -0.0020473 0.0022043 0.0012162 0.0013849 -0.17479 0.23017
-0.029043 0.012662 0.013543 -0.010071
-0.0038482 0.0028459 -0.00034631 0.0034713 0.00072526 0.0034076 -0.02905 0.012723
-0.20066 0.09528 -0.018521 0.017772
0.0047178 0.00078143 0.0013112 0.0053428 -0.0019171 0.00092934 0.013546 -0.010092
-0.018538 0.017756 -0.25326 0.13178
860000000 -0.12341 0.2495 -0.017505 0.031423 -0.0034294 -0.0098801 -0.0025453 0.0015318
0.0044102 0.0050218 -0.0031714 -0.0032419
-0.017509 0.031389 -0.29035 0.29055 0.0083272 0.034545 0.0003146 0.0021113
0.0046256 1.8508e-05 0.0032491 0.00018717
-0.0034596 -0.0098796 0.008444 0.034551 0.020625 0.31785 -0.000383 -0.00040107
0.0028463 -0.0017061 0.0016944 0.0046863
-0.002546 0.0015496 0.00032982 0.0021003 -0.00038388 -0.00040008 -0.13945 0.24269
-0.018495 0.019246 -0.0061488 -0.0095248
0.0044305 0.0049996 0.0046148 7.7418e-06 0.0028451 -0.0017166 -0.018482 0.019285
-0.15261 0.14453 -0.025309 0.01568
-0.0031884 -0.0032364 0.003253 0.00016767 0.0017103 0.0047003 -0.0061551 -0.009532
-0.02531 0.015663 -0.20196 0.17836
920000000 -0.097756 0.27294 0.0051979 0.038229 -0.0094576 -0.0041294 -0.001633 0.0023741
0.001362 0.0016003 0.0025087 -0.0014909
0.005177 0.038198 -0.26093 0.31166 0.028348 0.021952 0.0016963 0.0010973
0.0067741 -0.0006907 0.0039144 -0.0031131
-0.0094698 -0.0041052 0.028452 0.02189 0.067453 0.31825 0.0017075 -6.8465e-05
0.0012229 -0.00048804 0.00087023 -0.0011067
-0.0016289 0.0023838 0.0017136 0.001079 0.0017096 -5.7961e-05 -0.11496 0.25943
-0.010654 0.030552 0.0028244 -0.0065549
0.0013653 0.0016027 0.0067777 -0.0007128 0.0012315 -0.00048871 -0.010593 0.030592
-0.14225 0.15093 -0.0018972 0.028469
0.0025143 -0.0014905 0.0038978 -0.0031392 0.00087039 -0.0011112 0.0028162 -0.0065665
-0.0019123 0.028457 -0.21361 0.19173
980000000 -0.049933 0.2925 0.018121 0.030232 -0.0088055 0.0048465 0.0026271 0.0036
0.0038833 -0.0018588 -0.0031567 -0.0020181
0.018088 0.030236 -0.20797 0.34532 0.033257 0.0045285 0.0019895 -0.00017058
0.00097339 -0.00607 -0.00055322 -0.0021796
-0.0087807 0.0048714 0.033287 0.004415 0.11403 0.31121 0.0004302 -0.0011915
4.9429e-05 -0.0020978 0.0016851 -3.5074e-05
0.0026286 0.0035953 0.0020124 -0.00018114 0.00043911 -0.001188 -0.076302 0.27118
0.0077543 0.029486 -0.0095728 -0.0069911
0.0038815 -0.0018548 0.00093405 -0.0061027 3.9998e-05 -0.0021047 0.0078226 0.029487
-0.11039 0.17884 0.0048689 0.019276
-0.0031569 -0.0019964 -0.00056922 -0.0021955 0.001681 -4.7984e-05 -0.0095818 -0.0069786
0.004857 0.019273 -0.17013 0.24092
1040000000 -0.0068114 0.3006 0.033582 0.017949 -0.00097747 0.0070019 0.0028721 0.00050465
-0.00015714 -0.0037275 -0.00047727 -0.0016412
0.033562 0.017958 -0.1722 0.35836 0.029304 -0.015158 0.0013913 -0.0017673
-0.002602 -0.0022634 -0.0014347 -0.0028071
-0.00095228 0.0070022 0.029262 -0.015265 0.16034 0.29718 -0.00051093 -0.0014053
-0.0015326 -0.00083221 -0.00034908 -0.0013314
0.0028705 0.0005048 0.0014041 -0.0017915 -0.00051415 -0.0014082 -0.048326 0.28145
0.018872 0.017595 -0.0029823 0.0023735
-0.00017196 -0.0037149 -0.0026394 -0.0022572 -0.0015233 -0.00082027 0.018911 0.017559
-0.079624 0.18798 0.013553 0.018665
-0.00046815 -0.0016302 -0.0014752 -0.0028062 -0.0003476 -0.0013279 -0.0029851 0.0023836
0.013537 0.018664 -0.15144 0.2639
1100000000 0.038864 0.30772 0.036025 -0.0045871 0.0031474 0.0037626 0.002442 -0.0015824
-0.0021745 -0.0029704 -0.0040312 9.94e-05
0.035993 -0.0045553 -0.12837 0.37543 0.014871 -0.027996 -0.00010673 -0.0018056
-0.0030444 -0.00025772 -0.0034625 -0.00049129
0.0031611 0.0037501 0.014771 -0.02808 0.20681 0.27642 -0.0017677 0.00027682
-0.0016489 0.00063565 -0.0010954 -0.00056179
0.0024365 -0.0015865 -0.00011237 -0.0018146 -0.0017721 0.00027369 -0.0071729 0.28638
0.023518 0.0051216 -0.0022012 0.00096081
-0.0021797 -0.0029572 -0.0030644 -0.00024263 -0.0016586 0.00063938 0.023538 0.0050885
-0.061088 0.20151 0.019551 0.0090336
-0.0040281 0.00012285 -0.0034789 -0.00047258 -0.0010995 -0.00056154 -0.0022022 0.00096643
0.019537 0.0090428 -0.10436 0.29574
1160000000 0.090604 0.30219 0.023981 -0.021061 0.0028684 -0.00068465 -0.0002839 -0.0026067
-0.0040845 -0.00045843 -0.0010398 0.0041253
0.023992 -0.021016 -0.084091 0.37928 -0.0040679 -0.029012 -0.0018114 -0.0015674
-0.0022231 0.0025687 -0.001316 0.0016796
0.0028793 -0.00069576 -0.0042117 -0.029017 0.24987 0.24508 -0.00052296 0.0017314
-0.00036302 0.0017763 -0.0012169 4.8932e-05
-0.00030337 -0.0026078 -0.0018034 -0.001566 -0.00052909 0.0017384 0.032827 0.28318
0.019974 -0.010078 -0.0027734 0.0056516
-0.0040961 -0.00044073 -0.002231 0.0025899 -0.00036392 0.0017868 0.019972 -0.010116
-0.027461 0.21121 0.017979 0.00096732
-0.0010286 0.0041446 -0.0013187 0.0016799 -0.0012122 5.8232e-05 -0.0027708 0.0056608
0.017978 0.0009752 -0.056787 0.29953
1220000000 0.13507 0.29021 0.010275 -0.030184 -0.0014756 -0.0010645 -0.00025852 -0.0010266
-0.0025003 0.0025748 0.0013116 0.0018658
0.010287 -0.030145 -0.039589 0.39069 -0.017006 -0.020833 -0.002467 0.00053406
0.00034558 0.0027456 -0.00067924 0.0017225
-0.0014716 -0.0010599 -0.017122 -0.020782 0.28878 0.2056 0.00087993 0.0015301
0.00051265 0.0011236 0.0001878 0.00088218
-0.00026045 -0.0010273 -0.0024523 0.00054933 0.00087219 0.0015272 0.072725 0.27405
0.0095432 -0.016009 0.0029839 0.0016298
-0.0024935 0.0025846 0.00034959 0.0027552 0.00050781 0.0011224 0.0095345 -0.016025
-0.0033692 0.22084 0.01415 -0.012592
0.0013178 0.0018677 -0.00067242 0.0017294 0.00019076 0.00088164 0.002978 0.0016192
0.01415 -0.012578 -0.025888 0.31976
1280000000 0.18457 0.26749 -0.0080144 -0.028474 -0.001925 0.002299 -0.0011022 -0.0018411
-0.00051679 0.00303 0.0025883 0.001
-0.0079863 -0.028449 0.0065081 0.38102 -0.023645 -0.008159 -0.00088333 0.001482
0.0015626 0.0014867 0.00051805 0.0020826
-0.0019247 0.0023105 -0.023696 -0.008054 0.31914 0.16141 0.0013308 -0.00022525
0.00096852 0.00016861 0.00028227 0.00057215
-0.0011097 -0.0018323 -0.00086718 0.0014836 0.0013341 -0.00022375 0.10919 0.25718
0.00043594 -0.017663 0.00046796 -4.4956e-05
-0.00051035 0.0030394 0.0015886 0.0015005 0.00097693 0.00016079 0.00041461 -0.017666
0.034312 0.2245 0.0031456 -0.01461
0.0026019 0.00098251 0.00053626 0.0020858 0.0002847 0.00057108 0.0004685 -4.7426e-05
0.0031513 -0.014609 0.023127 0.32295
1340000000 0.22139 0.23288 -0.01775 -0.019048 0.00067195 0.0042314 -0.0018189 -0.00069092
0.0014938 0.0025325 0.0016195 -0.0015602
-0.017718 -0.019043 0.04569 0.37194 -0.021247 0.0043598 1.1537e-05 0.0018677
0.0016068 0.00065336 0.0014006 0.00092582
0.00069878 0.0042272 -0.021252 0.0044696 0.34088 0.11324 0.00086195 -0.00086019
0.00064767 -0.00034373 0.00027943 0.00032982
-0.0018271 -0.00068339 2.5806e-05 0.0018681 0.00085895 -0.00085807 0.14163 0.23662
-0.0080035 -0.01464 0.0013394 -9.8003e-05
0.0015072 0.0025368 0.0016318 0.00063728 0.00065502 -0.00034629 -0.0080422 -0.014629
0.065471 0.21926 -0.0031884 -0.013246
0.0016218 -0.0015674 0.001397 0.00091668 0.00028122 0.00033051 0.001336 -9.9688e-05
-0.0031831 -0.013244 0.062617 0.32039
1400000000 0.25365 0.19402 -0.023523 -0.0075529 0.0048452 0.0030291 -0.0019148 0.00069339
0.0024249 0.00061999 0.0001681 -0.0012845
-0.023491 -0.0075556 0.082488 0.35827 -0.014512 0.012262 0.0012984 0.0011707
0.00089788 -0.00074088 0.0012493 0.00030035
0.0048692 0.0030179 -0.014474 0.012356 0.35365 0.059457 4.4349e-05 -0.0013419
3.7091e-05 -0.00040846 0.00041078 0.00028966
-0.0019118 0.00070752 0.0013 0.0011647 4.255e-05 -0.0013389 0.17106 0.208
-0.01297 -0.0083124 -0.00069969 -0.00094905
0.0024365 0.00062722 0.00090514 -0.00076767 2.844e-05 -0.00040996 -0.012997 -0.0082856
0.098908 0.21375 -0.0095989 -0.0084955
0.00016388 -0.0012865 0.0012467 0.00028773 0.00041006 0.00029202 -0.00071464 -0.00094983
-0.0095906 -0.0084962 0.10914 0.3107
1460000000 0.27572 0.14967 -0.020625 0.004614 0.0052945 -0.0015939 -0.0015152 0.0016352
0.0019243 -0.00079071 -0.00028874 -0.00077744
-0.020607 0.0045961 0.11594 0.33602 -0.0060123 0.014936 0.001644 0.00013008
0.00087048 -0.0011095 0.0012077 -0.00068734
0.0053004 -0.0016093 -0.0059433 0.014984 0.35924 0.0049115 -0.0010309 -0.001211
0.0002987 -0.00016952 0.00080319 -0.00048948
-0.001497 0.0016344 0.0016316 0.00011972 -0.0010356 -0.0012177 0.19753 0.1789
-0.01356 -0.0025054 -0.0012181 0.0015324
0.0019325 -0.00080016 0.00087024 -0.0011302 0.0002921 -0.0001717 -0.013571 -0.0024777
0.1287 0.198 -0.011266 -0.0029493
-0.00029313 -0.0007732 0.0012047 -0.00070287 0.00080105 -0.00047871 -0.0011989 0.0015502
-0.011256 -0.0029507 0.14327 0.29008
1520000000 0.2872 0.10798 -0.014984 0.01039 0.0030181 -0.0039422 0.00010021 0.0025046
0.0016953 -0.0016845 -0.001144 -0.00014752
-0.014981 0.010365 0.14887 0.32123 0.0013894 0.012809 0.001557 -0.00077254
0.00010773 -0.00089567 0.00028092 -0.0010901
0.0030026 -0.0039607 0.0014597 0.012812 0.35205 -0.051111 -0.000876 -0.00039048
0.00049683 -0.00079023 8.8938e-06 -0.00015943
0.00010985 0.0025009 0.001556 -0.000781 -0.00088321 -0.00038799 0.22093 0.14086
-0.012804 0.0022982 0.0009786 0.0018023
0.0016819 -0.0016988 9.4512e-05 -0.00089358 0.00049484 -0.00079468 -0.012806 0.0023259
0.15643 0.1829 -0.011367 0.0012976
-0.0011588 -0.00014246 0.00026734 -0.0011031 8.2458e-06 -0.00016083 0.00097581 0.0017889
-0.011373 0.0012852 0.17766 0.27141
1580000000 0.29588 0.061858 -0.0082674 0.013609 -0.00097149 -0.0045594 0.0013237 0.0018077
-0.00054641 -0.0020246 -0.00031519 0.00036182
-0.0082785 0.013593 0.17555 0.29652 0.0048984 0.0081321 0.00044147 -0.0015251
-0.00041323 -0.0010487 -0.00032095 -0.00085386
-0.00099008 -0.0045564 0.0049496 0.0081175 0.33149 -0.10844 -0.0014988 0.00039793
-0.00030108 -0.0010798 0.000129 -0.00062357
0.0013285 0.0017987 0.00044086 -0.0015228 -0.0014984 0.00039257 0.23521 0.10119
-0.009805 0.0062906 0.0016931 0.00067134
-0.00055391 -0.0020474 -0.00042094 -0.0010323 -0.00030742 -0.0010797 -0.0097996 0.0063166
0.18046 0.16416 -0.0090977 0.006719
-0.00031636 0.0003634 -0.0003254 -0.0008479 0.00012832 -0.00062588 0.0016942 0.00066604
-0.009094 0.0067145 0.21125 0.24498
1640000000 0.29743 0.02052 -0.0014736 0.012571 -0.0026511 -0.0023571 0.0025036 0.0010395
-0.00081659 -0.0010966 -0.00035663 0.00064658
-0.0014822 0.012564 0.20453 0.27177 0.0055238 0.003534 -0.00073394 -0.0016095
-0.00098281 -0.0004551 -0.00056225 -0.00058744
-0.0026599 -0.0023433 0.0055601 0.0035024 0.3033 -0.15751 -0.00090951 0.0012939
-0.0010531 -0.00080766 -0.00011354 -0.0003242
0.0025127 0.0010282 -0.00072942 -0.0016107 -0.00090615 0.0012866 0.24763 0.051867
-0.0062991 0.0070307 0.0021522 -0.00059215
-0.00083809 -0.0010981 -0.00097422 -0.0004463 -0.0010592 -0.00080481 -0.0062883 0.0070565
0.20282 0.13885 -0.00439 0.0090082
-0.00035453 0.00065136 -0.00056576 -0.00058518 -0.00011436 -0.00032491 0.002154 -0.00059485
-0.00439 0.0090021 0.23813 0.21427
1700000000 0.28969 -0.024629 0.0021264 0.0097809 -0.0032101 0.0001977 0.0029088 -0.0010418
-0.0018505 -0.00034698 0.00062053 0.00044255
0.0021201 0.0097717 0.2224 0.24056 0.0036714 0.00087448 -0.0013612 -0.00054444
-0.00078898 1.8091e-05 -0.00089639 -0.00034858
-0.0032043 0.00021511 0.003676 0.0008596 0.25945 -0.19707 0.00030869 0.0016362
-0.0016876 -0.00018531 -0.00057485 -0.00093788
0.0028962 -0.0010535 -0.0013592 -0.00054474 0.00030983 0.0016314 0.24425 0.0015875
-0.0043917 0.0073628 0.0013043 -0.0018937
-0.0018597 -0.00032004 -0.00078728 1.6129e-05 -0.0016915 -0.00018744 -0.0043781 0.0073742
0.22006 0.11735 6.8779e-05 0.0093316
0.0006275 0.00043924 -0.0009072 -0.00033835 -0.00057965 -0.00093331 0.0013061 -0.0018995
6.4942e-05 0.0093372 0.25606 0.17991
1760000000 0.2769 -0.072885 0.0044933 0.0064632 -0.0020748 0.00079339 0.001376 -0.003269
-0.00094564 0.00069221 0.00036781 -0.00045247
0.0044862 0.0064575 0.24816 0.20095 0.0016555 -0.00077719 -0.0011041 0.00017157
-0.0010825 0.00087456 -0.00051056 0.00055017
-0.0020673 0.00080462 0.0016476 -0.00079422 0.21058 -0.22982 0.0011925 0.0013025
-0.0010699 0.0013306 -0.0013236 -0.00037937
0.0013606 -0.0032662 -0.0011101 0.00017591 0.0011934 0.0013015 0.23445 -0.050223
-0.0019597 0.0069268 -0.00032857 -0.002064
-0.00094221 0.00072062 -0.0010809 0.00087509 -0.001079 0.0013373 -0.0019465 0.0069327
0.23464 0.081197 0.0038349 0.0065658
0.00036451 -0.0004587 -0.00050802 0.0005561 -0.0013198 -0.00036827 -0.00033251 -0.0020646
0.0038418 0.0065623 0.26923 0.14229
1820000000 0.25182 -0.10996 0.0048006 0.002844 2.7542e-05 0.0022847 -0.00082839 -0.0030393
-0.00075426 0.00068809 8.148e-05 -0.00017552
0.0047889 0.0028454 0.25801 0.17121 -0.00014218 0.00018908 -0.0012661 0.00086084
-6.438e-05 0.0013614 -0.00042968 0.00048204
2.8079e-05 0.0022858 -0.00014047 0.0001927 0.16095 -0.24548 0.0016207 0.0004415
-0.00034397 0.002082 -0.0014477 0.00041921
-0.00084085 -0.0030296 -0.0012624 0.00086884 0.0016202 0.00045095 0.20381 -0.097385
-0.00095191 0.0057231 -0.0015409 -0.0014094
-0.00074154 0.00069418 -6.0555e-05 0.0013511 -0.00034569 0.0020824 -0.00093491 0.0057299
0.25065 0.050401 0.0047897 0.0031029
8.265e-05 -0.00017969 -0.00042602 0.00048587 -0.0014504 0.0004174 -0.0015522 -0.0014053
0.0047848 0.0031097 0.27287 0.10633
1880000000 0.21634 -0.14954 0.0027275 0.00050795 -0.00035352 0.0019948 -0.0027679 -0.0022592
-0.0001594 0.0013598 0.00034189 -0.00059357
0.0027152 0.00051301 0.26256 0.12492 -0.0019842 0.0017017 -0.00017262 0.0016534
0.00067901 0.0013073 0.00024897 0.00087286
-0.00034253 0.0020008 -0.0019788 0.0017198 0.10902 -0.25524 0.0019412 -0.0010676
0.0014378 0.001972 -0.00095982 0.0014009
-0.0027808 -0.0022478 -0.00015936 0.0016625 0.0019444 -0.0010648 0.16278 -0.13702
-0.00060024 0.0046406 -0.0022415 0.00066055
-0.00012376 0.0013531 0.00067558 0.0013029 0.0014567 0.0019814 -0.00058971 0.004647
0.25208 0.01611 0.004398 0.0011631
0.00033703 -0.00060109 0.00025527 0.00087276 -0.00096059 0.0013965 -0.0022382 0.00065996
0.0043937 0.0011707 0.27358 0.072054
1940000000 0.17668 -0.17479 0.00049465 -0.0014658 0.0013718 0.0018013 -0.0037271 0.00045178
0.0011632 0.00094245 -0.00073219 -0.00070056
0.00049211 -0.0014559 0.26316 0.093241 -0.00095801 0.0038311 0.00093058 0.0013239
0.0019249 0.00047516 0.00076078 0.00012012
0.0013901 0.0017931 -0.00094021 0.0038477 0.062486 -0.24889 0.00021264 -0.0023788
0.0023877 0.00043909 0.00024874 0.0016171
-0.003732 0.00047088 0.00093632 0.0013156 0.0002232 -0.0023827 0.10995 -0.16662
-0.0016215 0.0041321 -0.0012781 0.0017298
0.0011707 0.00092211 0.0019272 0.00046345 0.0023946 0.00043756 -0.0016121 0.0041498
0.25156 -0.024029 0.0031266 -0.0020643
-0.00074249 -0.00069567 0.00076235 0.00011119 0.00026053 0.0016119 -0.0012699 0.0017357
0.0031141 -0.002055 0.26335 0.036486
2000000000 0.1307 -0.18878 -0.0033747 0.00034139 0.002295 0.001437 -0.0023519 0.0035502
0.00091342 0.00022617 -0.00066492 0.00040338
-0.0033661 0.00033932 0.2492 0.057753 -0.00074207 0.0054951 0.0016438 0.0002693
0.0014585 -0.0014616 0.00039924 0.00017054
0.0023076 0.0014252 -0.00070704 0.0055061 0.019043 -0.2343 -0.0015669 -0.0014072
0.0020359 -0.0011951 0.0016071 0.0014044
-0.0023229 0.003563 0.0016485 0.00025341 -0.0015658 -0.0014088 0.056943 -0.17585
-0.0028122 0.0046942 0.00014192 0.0022958
0.00090743 0.00022267 0.0014528 -0.001477 0.0020384 -0.0012045 -0.0027941 0.0047068
