!Keysight Technologies,M9804A,MY58100912,A.14.10.03
!Date: Thursday, April 27, 2023 10:28:33
!Correction: S11(C  6-Port  ) 
!S12(C  6-Port  ) 
!S13(C  6-Port  ) 
!S14(C  6-Port  ) 
!S15(C  6-Port  ) 
!S16(C  6-Port  ) 
!S21(C  6-Port  ) 
!S22(C  6-Port  ) 
!S23(C  6-Port  ) 
!S24(C  6-Port  ) 
!S25(C  6-Port  ) 
!S26(C  6-Port  ) 
!S31(C  6-Port  ) 
!S32(C  6-Port  ) 
!S33(C  6-Port  ) 
!S34(C  6-Port  ) 
!S35(C  6-Port  ) 
!S36(C  6-Port  ) 
!S41(C  6-Port  ) 
!S42(C  6-Port  ) 
!S43(C  6-Port  ) 
!S44(C  6-Port  ) 
!S45(C  6-Port  ) 
!S46(C  6-Port  ) 
!S51(C  6-Port  ) 
!S52(C  6-Port  ) 
!S53(C  6-Port  ) 
!S54(C  6-Port  ) 
!S55(C  6-Port  ) 
!S56(C  6-Port  ) 
!S61(C  6-Port  ) 
!S62(C  6-Port  ) 
!S63(C  6-Port  ) 
!S64(C  6-Port  ) 
!S65(C  6-Port  ) 
!S66(C  6-Port  ) 
!S6P File: Measurement: :
# Hz S  RI   R 50
500000000 -0.33666 -0.034383 -0.0090863 -0.0035274 -0.00754 0.011197 -0.0033821 0.011582
0.012012 0.004099 -0.0036562 0.0084756
-0.009081 -0.0035187 -0.41891 -0.049543 0.0075794 -0.011971 0.0014746 0.01186
0.0073713 0.0028164 0.00063531 0.01344
-0.0075157 0.011199 0.0075537 -0.011987 -0.26386 0.21078 0.0069986 0.0031241
0.00018617 0.0084427 0.00024275 0.012086
-0.0033627 0.011582 0.0014961 0.011872 0.0070027 0.0031274 -0.32656 0.04818
-0.01925 -0.0043183 0.018045 0.026625
0.012017 0.0040755 0.0073767 0.0028017 0.00019769 0.0084362 -0.019265 -0.0043034
-0.22569 -0.18488 -0.028519 0.0057263
-0.0036328 0.0084839 0.00067529 0.013453 0.00023457 0.012091 0.018043 0.026622
-0.028529 0.0057237 -0.26512 -0.14941
560000000 -0.31529 0.12454 -0.02349 -0.063401 0.00021687 0.012095 0.006255 0.0096306
0.011068 0.0043955 0.0099108 0.0073255
-0.023458 -0.0633 -0.3762 0.10797 -0.041643 -0.036839 0.013412 0.0036953
-0.013055 -0.0045926 0.0043239 -0.0007664
0.00022595 0.012076 -0.041777 -0.036747 -0.18251 0.2577 -0.00070789 -0.0050443
0.018699 0.0040214 0.0073338 -0.0061042
0.0062876 0.0096164 0.013428 0.0036632 -0.00070648 -0.0050544 -0.30242 0.13538
0.0042127 -0.025159 0.0053191 -0.019956
0.011069 0.0043828 -0.013091 -0.0045617 0.018696 0.0040002 0.0041897 -0.025156
-0.28433 -0.0098353 0.0086412 -0.051531
0.0099347 0.0072992 0.004353 -0.00079986 0.007329 -0.0061024 0.0053018 -0.019959
0.0086604 -0.051527 -0.33403 0.0024668
620000000 -0.27261 0.10894 -0.023206 0.0069147 0.0031424 0.0082149 0.0068246 -0.0056838
0.01115 -0.00089467 0.00049913 -0.0020103
-0.023201 0.0069114 -0.4022 0.062372 -0.019238 -0.00041962 -0.0014689 -0.0021521
0.010163 -0.0070554 0.0010622 -0.0025805
0.0031535 0.0081892 -0.019253 -0.00036376 -0.15294 0.26725 -0.0018157 -0.0051056
-0.0041214 -0.0032814 0.0083975 -0.0033264
0.0068198 -0.0056714 -0.001475 -0.0021675 -0.0017968 -0.0050975 -0.26056 0.14566
-0.038821 -0.019278 0.014186 0.024246
0.011133 -0.00091336 0.010142 -0.0071008 -0.0041455 -0.0032834 -0.038816 -0.019265
-0.20334 -0.049501 -0.041225 0.015652
0.00048224 -0.0020245 0.0010682 -0.0025635 0.0083968 -0.0033216 0.014206 0.024221
-0.041247 0.01564 -0.24824 -0.040489
680000000 -0.2328 0.19272 -0.028096 -0.014205 0.0046964 0.0051186 0.00097951 -0.0074951
-0.0033842 -0.010926 0.0047743 -0.0068715
-0.02807 -0.014208 -0.38695 0.15865 -0.033311 -0.0013258 -0.0017673 -0.00011281
-0.0030424 -0.0088978 -0.0012328 -0.0019296
0.0047091 0.0051055 -0.03334 -0.0012345 -0.1027 0.2868 -0.00055097 0.00038299
-0.0024424 0.0010422 -0.0029178 -0.0099266
0.00096073 -0.0075213 -0.0017798 -9.6673e-05 -0.0005508 0.00037865 -0.2183 0.19471
-0.023766 -0.008618 -0.010823 -0.010817
-0.0034164 -0.010926 -0.0030685 -0.008905 -0.0024379 0.001039 -0.023777 -0.0086048
-0.25139 0.047568 -0.0052434 -0.010063
0.004735 -0.0068937 -0.001219 -0.001911 -0.0029355 -0.0099309 -0.010837 -0.01082
-0.0052257 -0.010067 -0.26468 0.070694
740000000 -0.18988 0.18766 -0.038763 0.026391 0.012435 -0.0050831 -0.0007254 -0.0039312
-0.004503 -0.0025036 -0.0062463 0.0035339
-0.038734 0.026346 -0.33564 0.17781 -0.035255 0.035232 -0.00098807 -0.0061327
-0.011406 0.0081326 -0.002952 -0.0064278
0.012428 -0.0051135 -0.035197 0.035355 -0.069415 0.28624 -0.0013228 0.0033762
-0.0022391 -0.0037459 -0.0012342 -6.5956e-07
-0.00073953 -0.0039262 -0.0010186 -0.0061325 -0.0013184 0.003379 -0.20244 0.2024
-0.04309 -0.0078177 0.022513 0.013797
-0.0045261 -0.0025035 -0.011368 0.0082036 -0.0022554 -0.0037474 -0.04313 -0.0077706
-0.15626 0.071219 -0.043523 0.0005095
-0.0062278 0.0035761 -0.0029699 -0.0064153 -0.001227 1.5608e-05 0.022537 0.013783
-0.043516 0.00046731 -0.25863 0.075357
800000000 -0.15789 0.22818 -0.022865 0.017363 0.0052916 -0.010471 -0.0049862 -0.0019933
-0.0038857 0.0028171 0.0047174 0.00077269
-0.022848 0.017342 -0.33814 0.24828 -0.0079915 0.034531 -0.0020491 0.002206
-0.00035829 0.0034531 0.0013009 0.0053257
0.0052708 -0.010477 -0.0078845 0.03458 -0.028068 0.30975 0.001209 0.0013929
0.00072301 0.0034055 -0.0019119 0.00092047
-0.0049919 -0.0019881 -0.0020408 0.0022117 0.0012085 0.0013867 -0.17479 0.23015
-0.029039 0.01271 0.013554 -0.010082
-0.003861 0.0028377 -0.00035106 0.0034603 0.00072844 0.0034109 -0.029025 0.012756
-0.20067 0.095431 -0.018464 0.017777
0.0047329 0.00074519 0.0013315 0.0053294 -0.0018995 0.00091233 0.013548 -0.010113
-0.018488 0.01775 -0.25333 0.13158
860000000 -0.12337 0.24952 -0.017507 0.031421 -0.0034305 -0.0098927 -0.0025649 0.0015304
0.0043981 0.0050115 -0.0031716 -0.0032414
-0.017506 0.031387 -0.29036 0.29056 0.0083191 0.034559 0.00032791 0.0021055
0.004605 3.4748e-05 0.003266 0.00018634
-0.0034463 -0.0098778 0.0084436 0.034553 0.020641 0.31785 -0.00038285 -0.00039803
0.0028435 -0.0017076 0.0017044 0.0046991
-0.0025496 0.0015481 0.0003245 0.0020976 -0.00038197 -0.00039782 -0.13946 0.24265
-0.018465 0.01927 -0.006132 -0.0095526
0.0044308 0.005001 0.0046096 -3.6426e-06 0.0028516 -0.0017187 -0.018448 0.019312
-0.15242 0.14469 -0.025304 0.015648
-0.0031975 -0.0032315 0.0032627 0.00018922 0.001707 0.0047075 -0.0061524 -0.0095449
-0.025304 0.015624 -0.20204 0.17826
920000000 -0.097694 0.27296 0.0052056 0.038226 -0.0094497 -0.0041418 -0.001641 0.0023895
0.00136 0.001627 0.0024996 -0.0014869
0.0051893 0.038194 -0.26091 0.31172 0.028344 0.021976 0.0017177 0.0010906
0.0067748 -0.00068075 0.0039042 -0.0031352
-0.0094674 -0.0041116 0.028449 0.021891 0.067459 0.31827 0.0017187 -5.4399e-05
0.0012335 -0.00048359 0.00086619 -0.0011082
-0.0016365 0.002398 0.0017204 0.0010742 0.0017207 -5.8822e-05 -0.11499 0.25938
-0.010609 0.030571 0.0028364 -0.0065599
0.0013635 0.0016208 0.0067719 -0.00070856 0.0012269 -0.00048896 -0.010561 0.030601
-0.14208 0.15097 -0.0018483 0.028458
0.0025029 -0.0014949 0.0039047 -0.0031553 0.0008743 -0.0011028 0.0028366 -0.0065757
-0.0018722 0.028446 -0.2137 0.19161
980000000 -0.049875 0.29251 0.018128 0.030238 -0.0087869 0.0048418 0.0026141 0.0035979
0.0038773 -0.0018536 -0.0031633 -0.0019954
0.018095 0.030238 -0.20794 0.34535 0.033227 0.0045205 0.0019982 -0.0001585
0.00098502 -0.0060839 -0.00054155 -0.0021997
-0.0087802 0.0048726 0.033293 0.0044085 0.11406 0.31121 0.00043586 -0.0011883
4.2417e-05 -0.0021003 0.0016866 -3.0781e-05
0.0026209 0.0036033 0.0020016 -0.00018724 0.00043632 -0.0011957 -0.076332 0.27117
0.0078158 0.029485 -0.0095656 -0.0070087
0.00388 -0.0018653 0.00094764 -0.006113 4.5009e-05 -0.0021039 0.0078546 0.02948
-0.11021 0.17882 0.0048992 0.019265
-0.003153 -0.0020002 -0.00057073 -0.0021963 0.0016878 -4.2401e-05 -0.0095849 -0.0069965
0.0048821 0.019261 -0.17023 0.24084
1040000000 -0.0067485 0.3006 0.033582 0.017948 -0.00095163 0.006992 0.0028688 0.00050631
-0.00015179 -0.0037205 -0.00046868 -0.0016255
0.033563 0.017958 -0.17221 0.35843 0.02928 -0.015117 0.0014271 -0.0017738
-0.0025847 -0.0022496 -0.0014451 -0.0028408
-0.00094065 0.0070057 0.029257 -0.015258 0.16037 0.29721 -0.00052144 -0.0014119
-0.0015295 -0.00083925 -0.0003376 -0.0013332
0.0028788 0.0005062 0.0014038 -0.0018009 -0.00052126 -0.0014083 -0.048374 0.28147
0.018925 0.017558 -0.0029898 0.0023557
-0.00016679 -0.003721 -0.0026241 -0.002242 -0.0015298 -0.00083218 0.018958 0.017523
-0.079458 0.18783 0.013567 0.018627
-0.000469 -0.001633 -0.0014734 -0.0028103 -0.00033296 -0.0013347 -0.0029939 0.0023653
0.013553 0.018622 -0.15157 0.26378
1100000000 0.038927 0.30771 0.036021 -0.0045831 0.0031552 0.0037621 0.0024371 -0.0015912
-0.0021685 -0.0029716 -0.0040243 9.5155e-05
0.035992 -0.0045534 -0.12833 0.37548 0.01486 -0.027987 -0.00010571 -0.0018073
-0.0030602 -0.0002619 -0.0034648 -0.00049189
0.0031698 0.0037375 0.014771 -0.028086 0.20686 0.27644 -0.0017687 0.00027322
-0.0016568 0.00063741 -0.0010998 -0.00056701
0.0024395 -0.0015877 -0.00011414 -0.001812 -0.0017738 0.00027344 -0.0071964 0.28639
0.023556 0.0050532 -0.0021971 0.00095747
-0.0021872 -0.0029687 -0.0030702 -0.00024982 -0.0016547 0.00063211 0.023572 0.0050155
-0.061001 0.20128 0.019545 0.0090017
-0.0040184 0.00011965 -0.0034774 -0.00047102 -0.0010956 -0.00056137 -0.0022063 0.00095128
0.019534 0.0089913 -0.10452 0.29565
1160000000 0.090662 0.30218 0.023983 -0.021059 0.0028906 -0.00068699 -0.00028915 -0.0026215
-0.0040916 -0.00045377 -0.0010559 0.004145
0.023999 -0.02102 -0.084066 0.37931 -0.0040903 -0.029004 -0.0017924 -0.0015595
-0.0022405 0.0025833 -0.0013151 0.0016697
0.0028807 -0.00070384 -0.0042154 -0.029018 0.24989 0.24508 -0.00051499 0.0017354
-0.00035707 0.0017841 -0.0012121 5.4556e-05
-0.00029893 -0.0026116 -0.0018131 -0.001563 -0.00051992 0.0017293 0.032811 0.28319
0.01997 -0.010169 -0.0027941 0.0056346
-0.0041006 -0.00044002 -0.0022422 0.0025902 -0.00035612 0.0017829 0.019956 -0.010212
-0.027482 0.21095 0.01795 0.00094566
-0.0010273 0.0041435 -0.0013138 0.0016806 -0.0012142 6.3497e-05 -0.0027759 0.0056504
0.017949 0.0009413 -0.056946 0.2995
1220000000 0.13514 0.2902 0.010279 -0.030185 -0.0014671 -0.0010619 -0.00026392 -0.0010167
-0.0025093 0.0025677 0.0013036 0.0018645
0.010291 -0.030149 -0.039554 0.39074 -0.017021 -0.020839 -0.002455 0.00054427
0.00033886 0.0027589 -0.0006791 0.0017313
-0.0014721 -0.0010619 -0.017122 -0.02078 0.28882 0.20561 0.00087598 0.0015249
0.0005252 0.0011291 0.00018943 0.00088701
-0.00026103 -0.0010215 -0.0024507 0.00054903 0.00087796 0.0015241 0.072707 0.27402
0.0094936 -0.016105 0.0029679 0.0016282
-0.002489 0.0025871 0.0003483 0.0027553 0.000525 0.0011356 0.0094743 -0.016119
-0.0035198 0.22063 0.014104 -0.012604
0.0013123 0.0018588 -0.00067414 0.0017347 0.00019484 0.00087289 0.0029669 0.0016216
0.014106 -0.012595 -0.026077 0.31976
1280000000 0.18465 0.26746 -0.0080096 -0.028483 -0.0019199 0.0022971 -0.0011081 -0.0018378
-0.00052785 0.0030333 0.0025822 0.00099559
-0.0079896 -0.028457 0.0065536 0.38104 -0.023634 -0.0081583 -0.00086993 0.0014863
0.0015725 0.0014958 0.00051757 0.002088
-0.0019194 0.0023142 -0.0237 -0.0080554 0.31917 0.16139 0.0013351 -0.00022283
0.00098017 0.00016882 0.00028197 0.00057044
-0.0011103 -0.0018328 -0.00086608 0.0014836 0.0013348 -0.00022945 0.10917 0.25719
0.00034416 -0.01773 0.00044696 -3.2031e-05
-0.00051075 0.003041 0.0015826 0.0014951 0.00098094 0.00016277 0.00031589 -0.01773
0.034075 0.22435 0.0030977 -0.014595
0.0025897 0.00098795 0.00053215 0.0020821 0.00028225 0.00056952 0.00044979 -3.5264e-05
0.0031075 -0.014592 0.022938 0.32295
1340000000 0.22145 0.23285 -0.01775 -0.01905 0.00067286 0.0042346 -0.0018214 -0.00069796
0.0015041 0.0025391 0.0016288 -0.001555
-0.017721 -0.019041 0.045726 0.37197 -0.021253 0.0043613 1.6989e-05 0.0018698
0.0016247 0.00065208 0.001387 0.00092059
0.00069252 0.0042285 -0.021251 0.0044681 0.3409 0.11322 0.00085907 -0.00086524
0.00065223 -0.0003473 0.00027559 0.00033132
-0.0018234 -0.00068724 2.7346e-05 0.0018653 0.00086345 -0.0008604 0.14161 0.2366
-0.0081291 -0.014651 0.0013282 -8.064e-05
0.0015206 0.0025376 0.0016223 0.00063694 0.00065064 -0.00034956 -0.0081599 -0.01464
0.065198 0.21927 -0.0032165 -0.013208
0.001618 -0.0015572 0.001399 0.00090756 0.00027884 0.00033363 0.0013317 -9.2464e-05
-0.0032178 -0.013209 0.062446 0.32043
1400000000 0.25372 0.19397 -0.023524 -0.0075478 0.0048544 0.0030417 -0.0019092 0.00069601
0.0024366 0.00062528 0.00017523 -0.0012862
-0.023492 -0.007559 0.08254 0.35828 -0.014509 0.012264 0.0012812 0.0011696
0.00091544 -0.00075526 0.0012422 0.00029584
0.0048623 0.0030193 -0.014466 0.012354 0.35363 0.059439 4.1775e-05 -0.0013351
3.567e-05 -0.00041038 0.00041051 0.00028747
-0.0019154 0.00069905 0.0012903 0.001171 4.1711e-05 -0.0013401 0.17098 0.20803
-0.013099 -0.008255 -0.00069804 -0.0009304
0.0024358 0.00061552 0.00090546 -0.00076732 2.9665e-05 -0.00041075 -0.013111 -0.0082267
0.098665 0.21387 -0.0096014 -0.0084337
0.00017136 -0.0012894 0.0012481 0.00028752 0.00041121 0.00029088 -0.0007015 -0.00093246
-0.0095973 -0.0084453 0.109 0.31075
1460000000 0.27577 0.14963 -0.020624 0.0046139 0.0052999 -0.0015998 -0.0015036 0.0016285
0.0019305 -0.00079695 -0.00028604 -0.0007733
-0.020616 0.0045924 0.11598 0.33602 -0.006008 0.014941 0.0016317 0.00012442
0.00086189 -0.001109 0.0011994 -0.00069195
0.0052996 -0.0016109 -0.0059401 0.01498 0.35926 0.0048846 -0.0010333 -0.0012054
0.00028448 -0.00016835 0.00079285 -0.00049229
-0.0015055 0.0016334 0.001633 0.00012516 -0.0010296 -0.0012217 0.1975 0.17895
-0.013627 -0.002386 -0.0012066 0.0015552
0.0019125 -0.00080524 0.00086167 -0.0011326 0.00028329 -0.00017729 -0.013648 -0.00235
0.12855 0.19822 -0.011234 -0.0029012
-0.00027443 -0.00076616 0.0011888 -0.00070093 0.00079409 -0.00048326 -0.0012021 0.0015619
-0.011234 -0.0029114 0.14321 0.29014
1520000000 0.28724 0.10793 -0.014997 0.010386 0.0030138 -0.0039489 0.00010099 0.002501
0.0016855 -0.0016942 -0.0011579 -0.0001535
-0.014991 0.01037 0.14892 0.32124 0.0013896 0.012805 0.001554 -0.00077001
9.9825e-05 -0.00089066 0.00027779 -0.0010907
0.0029994 -0.0039596 0.0014642 0.012812 0.35205 -0.051135 -0.00088646 -0.00039056
0.00049817 -0.00079276 1.3285e-05 -0.00015707
0.00010918 0.0024968 0.0015522 -0.00078137 -0.00088433 -0.0003909 0.2209 0.14091
-0.012802 0.0024506 0.0010013 0.0018039
0.0016777 -0.0017041 0.00010283 -0.00090123 0.00049542 -0.0007972 -0.012806 0.0024773
0.15642 0.18313 -0.011333 0.0013119
-0.0011556 -0.00014265 0.00026842 -0.0010986 1.3422e-05 -0.00015694 0.0010037 0.0018037
-0.011327 0.0012979 0.17757 0.27144
1580000000 0.29592 0.061766 -0.0082712 0.01361 -0.00097871 -0.0045629 0.0013233 0.0017951
-0.00053786 -0.0020403 -0.00032322 0.00036157
-0.0082786 0.013599 0.1756 0.29651 0.0048912 0.008136 0.00045157 -0.0015195
-0.00041031 -0.0010351 -0.00033057 -0.00085479
-0.00099518 -0.0045498 0.0049479 0.0081135 0.33148 -0.10847 -0.0015 0.00039606
-0.00029809 -0.0010773 0.00012986 -0.00061996
0.0013297 0.0017853 0.00043812 -0.0015229 -0.0014925 0.00039214 0.23523 0.10125
-0.0097139 0.0064162 0.0017239 0.00066278
-0.0005552 -0.0020384 -0.00042092 -0.0010294 -0.00030636 -0.0010834 -0.0097121 0.0064349
0.18054 0.16436 -0.0090426 0.0067077
-0.00032083 0.00036841 -0.00032841 -0.00085038 0.00012728 -0.00062524 0.0017227 0.00065607
-0.0090497 0.0067004 0.21115 0.24504
1640000000 0.29744 0.020442 -0.0014754 0.012576 -0.0026528 -0.0023593 0.0025033 0.001036
-0.00082437 -0.0010933 -0.00035244 0.0006483
-0.001493 0.012569 0.20458 0.27176 0.0055401 0.003529 -0.00072406 -0.0016108
-0.00097163 -0.00045313 -0.00056595 -0.00057912
-0.0026579 -0.002346 0.0055613 0.0034971 0.30329 -0.15751 -0.00089812 0.0012836
-0.0010578 -0.00081043 -0.00011569 -0.00032345
0.0025076 0.0010297 -0.00074252 -0.0016115 -0.0009118 0.0012791 0.24769 0.051872
-0.0061581 0.0070875 0.0021678 -0.00061838
-0.00083378 -0.0010957 -0.00098565 -0.00043837 -0.0010488 -0.00080602 -0.0061469 0.0071067
0.20297 0.13895 -0.0043481 0.0089779
-0.00035079 0.00065234 -0.00056628 -0.00058866 -0.00011781 -0.00032896 0.0021709 -0.00061875
-0.004355 0.0089697 0.23805 0.21433
1700000000 0.2897 -0.024695 0.0021206 0.0097817 -0.0032082 0.00020116 0.0028962 -0.0010346
-0.001856 -0.00033907 0.00062132 0.00044569
0.0021125 0.0097787 0.22245 0.24055 0.003665 0.00087726 -0.0013571 -0.000551
-0.00078518 1.0369e-05 -0.00090911 -0.00034621
-0.0032107 0.0002084 0.0036765 0.00085785 0.25942 -0.19709 0.00030826 0.001637
-0.0016739 -0.00018659 -0.00057551 -0.00092547
0.0028974 -0.0010471 -0.0013623 -0.00054165 0.00031092 0.0016372 0.24428 0.0015738
-0.0042463 0.0073368 0.0013015 -0.0019181
-0.0018634 -0.00032804 -0.00078741 1.3767e-05 -0.0016775 -0.00018097 -0.0042374 0.0073474
0.22022 0.11738 7.1289e-05 0.0092976
0.00062588 0.00044203 -0.00090671 -0.00033798 -0.0005758 -0.00092378 0.001301 -0.0019185
7.1693e-05 0.0092989 0.25598 0.17997
1760000000 0.27689 -0.07296 0.0044919 0.0064664 -0.0020734 0.00078493 0.0013778 -0.0032582
-0.00094095 0.00070812 0.00037102 -0.00046133
0.0044915 0.0064607 0.24819 0.20093 0.0016579 -0.00079216 -0.0011052 0.00017887
-0.0010792 0.00086665 -0.00051201 0.00055395
-0.0020751 0.00080169 0.0016534 -0.00079663 0.21058 -0.22983 0.0012034 0.0012985
-0.0010768 0.0013312 -0.0013343 -0.00037059
0.001367 -0.0032607 -0.001105 0.00018806 0.001198 0.0013053 0.23449 -0.050253
-0.0018562 0.006829 -0.00034608 -0.0020827
-0.0009359 0.00072495 -0.001077 0.00087727 -0.0010824 0.0013306 -0.001844 0.0068392
0.23472 0.081173 0.0038225 0.0065238
0.00037068 -0.00046802 -0.00050445 0.00055914 -0.001325 -0.00036909 -0.00034652 -0.0020797
0.003824 0.0065263 0.26915 0.14238
1820000000 0.25179 -0.11001 0.0048047 0.0028434 1.8435e-05 0.0022792 -0.00082367 -0.0030448
-0.00074472 0.00068622 8.662e-05 -0.00018068
0.0047847 0.0028414 0.25807 0.17119 -0.0001483 0.00018532 -0.0012711 0.00085745
-6.8839e-05 0.0013588 -0.00042841 0.00048228
3.8158e-05 0.0022796 -0.00015135 0.0001877 0.16093 -0.24553 0.0016082 0.00043275
-0.0003449 0.002076 -0.0014438 0.00042188
-0.00084375 -0.0030376 -0.0012629 0.0008724 0.0016114 0.00042652 0.20381 -0.097445
-0.0009028 0.0056008 -0.0015701 -0.0014092
-0.00073266 0.00069296 -5.575e-05 0.0013673 -0.00033894 0.0020682 -0.0008875 0.0056074
0.2507 0.050323 0.0047661 0.0030903
8.3415e-05 -0.00017955 -0.00042027 0.00048664 -0.0014384 0.00042092 -0.0015703 -0.0014028
0.0047705 0.0030858 0.27279 0.10641
1880000000 0.21631 -0.14962 0.002725 0.00051915 -0.00034552 0.0020035 -0.002767 -0.0022585
-0.00014925 0.001356 0.00033945 -0.00059831
0.002721 0.00051008 0.2626 0.12489 -0.0019932 0.0017013 -0.00017045 0.0016694
0.00066777 0.0013054 0.00025163 0.00087227
-0.00033497 0.001996 -0.001985 0.0017239 0.10899 -0.25526 0.0019404 -0.0010624
0.0014401 0.0019729 -0.00095143 0.0013987
-0.0027832 -0.0022529 -0.00015504 0.0016671 0.0019329 -0.0010677 0.16277 -0.13703
-0.00062161 0.004516 -0.0022577 0.00066822
-0.00012482 0.0013545 0.00067541 0.0013023 0.0014463 0.0019738 -0.00062028 0.0045138
0.25206 0.016093 0.0043802 0.0011523
0.00033434 -0.00060258 0.00025989 0.0008733 -0.00094234 0.0014044 -0.0022594 0.00066601
0.0043725 0.0011548 0.27353 0.072202
1940000000 0.17663 -0.17484 0.0004887 -0.001462 0.0013765 0.0017925 -0.0037329 0.00044696
0.00117 0.00093133 -0.00072899 -0.00069945
0.00048957 -0.0014636 0.26317 0.093219 -0.00095612 0.0038258 0.00093391 0.0013281
0.0019293 0.0004897 0.00076356 0.00012337
0.0013911 0.0017884 -0.00093301 0.0038407 0.062474 -0.24891 0.00021444 -0.0023843
0.0023865 0.00044796 0.00023983 0.0016173
-0.0037357 0.0004707 0.00094626 0.0013171 0.0002155 -0.0023788 0.10994 -0.16662
-0.0016923 0.0040426 -0.0012898 0.0017382
0.0011748 0.00092377 0.0019367 0.00047688 0.0023808 0.00044846 -0.00168 0.0040506
0.25153 -0.024052 0.0031029 -0.0020494
-0.00074163 -0.00069184 0.00076521 0.00011826 0.00024793 0.0016189 -0.0012805 0.001741
0.0030929 -0.0020505 0.26333 0.036608
2000000000 0.1307 -0.18883 -0.0033661 0.0003358 0.0022962 0.0014256 -0.0023388 0.0035431
0.00090373 0.00022077 -0.00066241 0.00040661
-0.0033643 0.00033685 0.24924 0.057727 -0.00074437 0.0054979 0.0016433 0.00026632
0.0014645 -0.0014607 0.00039493 0.00017173
0.002306 0.0014226 -0.0007023 0.0055178 0.019041 -0.23432 -0.0015654 -0.0014123
0.0020406 -0.0011973 0.0016102 0.0014064
-0.0023176 0.0035564 0.0016524 0.00025476 -0.0015607 -0.0014143 0.056903 -0.17583
-0.0029015 0.0046456 0.00014109 0.0023189
0.00090741 0.0002199 0.0014514 -0.0014785 0.0020439 -0.0012046 -0.0028995 0.0046673
