!Keysight Technologies,M9804A,MY58100912,A.14.10.03
!Date: Thursday, April 27, 2023 10:28:33
!Correction: S11(C  6-Port  ) 
!S12(C  6-Port  ) 
!S13(C  6-Port  ) 
!S14(C  6-Port  ) 
!S15(C  6-Port  ) 
!S16(C  6-Port  ) 
!S21(C  6-Port  ) 
!S22(C  6-Port  ) 
!S23(C  6-Port  ) 
!S24(C  6-Port  ) 
!S25(C  6-Port  ) 
!S26(C  6-Port  ) 
!S31(C  6-Port  ) 
!S32(C  6-Port  ) 
!S33(C  6-Port  ) 
!S34(C  6-Port  ) 
!S35(C  6-Port  ) 
!S36(C  6-Port  ) 
!S41(C  6-Port  ) 
!S42(C  6-Port  ) 
!S43(C  6-Port  ) 
!S44(C  6-Port  ) 
!S45(C  6-Port  ) 
!S46(C  6-Port  ) 
!S51(C  6-Port  ) 
!S52(C  6-Port  ) 
!S53(C  6-Port  ) 
!S54(C  6-Port  ) 
!S55(C  6-Port  ) 
!S56(C  6-Port  ) 
!S61(C  6-Port  ) 
!S62(C  6-Port  ) 
!S63(C  6-Port  ) 
!S64(C  6-Port  ) 
!S65(C  6-Port  ) 
!S66(C  6-Port  ) 
!S6P File: Measurement: :
# Hz S  RI   R 50
500000000 -0.33664 -0.034432 -0.0091011 -0.0035215 -0.0075624 0.011188 -0.0034133 0.011583
0.012036 0.0041067 -0.0036776 0.0084639
-0.0090958 -0.0035181 -0.4189 -0.049575 0.0075876 -0.011973 0.0014743 0.011854
0.0073676 0.0028146 0.00063556 0.013444
-0.0075265 0.011208 0.0075619 -0.011993 -0.26382 0.21075 0.0070287 0.0031043
0.00015504 0.0084175 0.00023993 0.012095
-0.0033635 0.01159 0.0014867 0.01187 0.0070275 0.003109 -0.32656 0.048177
-0.019279 -0.0043247 0.018022 0.026653
0.012022 0.0040729 0.0073828 0.0027987 0.00016049 0.0084205 -0.019273 -0.0043111
-0.22568 -0.1849 -0.028526 0.0057185
-0.0036391 0.0084847 0.00066554 0.013451 0.00024743 0.012091 0.018039 0.026635
-0.028525 0.0057049 -0.26519 -0.14931
560000000 -0.31528 0.12455 -0.023476 -0.063387 0.00020872 0.012081 0.0062472 0.009698
0.0111 0.0044057 0.0098786 0.0073067
-0.023443 -0.06332 -0.37623 0.10795 -0.041665 -0.036803 0.01345 0.0036344
-0.013082 -0.0046125 0.0043208 -0.00074082
0.00023042 0.012073 -0.041773 -0.036754 -0.18251 0.25768 -0.00071159 -0.0050574
0.018682 0.0040047 0.0073164 -0.0061009
0.0062848 0.0096352 0.013413 0.0036581 -0.00070705 -0.0050671 -0.30243 0.13536
0.0042007 -0.025177 0.0053496 -0.019947
0.011089 0.0043774 -0.013124 -0.004608 0.018688 0.0039907 0.0041793 -0.025172
-0.28435 -0.0098054 0.0086385 -0.051521
0.0099151 0.0073052 0.0043579 -0.00078583 0.0073173 -0.0061144 0.0053453 -0.01997
0.0086679 -0.051542 -0.33406 0.002588
620000000 -0.27265 0.10894 -0.023208 0.006916 0.0031405 0.0081749 0.0068254 -0.0056613
0.011125 -0.00087356 0.00048572 -0.0020263
-0.02321 0.0069132 -0.40221 0.062333 -0.019233 -0.00040065 -0.0014605 -0.0021627
0.01014 -0.0070811 0.0010756 -0.0025542
0.0031467 0.0081983 -0.019271 -0.0003623 -0.15296 0.26725 -0.0018189 -0.0050931
-0.0041152 -0.0032935 0.0084053 -0.0033198
0.0068188 -0.0056784 -0.0014759 -0.0021689 -0.0018233 -0.0050948 -0.26059 0.14572
-0.038783 -0.019288 0.014205 0.024237
0.011154 -0.00092035 0.01014 -0.0070937 -0.0041164 -0.0032882 -0.038794 -0.019263
-0.2034 -0.049466 -0.041254 0.015642
0.00047706 -0.0020281 0.0010617 -0.0025865 0.0084104 -0.0033178 0.014201 0.024243
-0.041268 0.015639 -0.24828 -0.040278
680000000 -0.2328 0.19268 -0.028103 -0.014207 0.0046721 0.0051153 0.00096131 -0.0075064
-0.003396 -0.010925 0.0047901 -0.006906
-0.028065 -0.014209 -0.38694 0.15863 -0.033301 -0.0013274 -0.0017849 -0.00010529
-0.0030451 -0.0088909 -0.0012 -0.0019419
0.0047057 0.0051069 -0.033346 -0.0012383 -0.10272 0.28677 -0.00055277 0.00037774
-0.0024388 0.0010395 -0.0029134 -0.0099223
0.00096156 -0.0075079 -0.0017839 -0.00010133 -0.0005574 0.00037907 -0.2183 0.1947
-0.023765 -0.0086252 -0.010829 -0.010799
-0.0034205 -0.010934 -0.0030764 -0.008899 -0.0024444 0.0010295 -0.023781 -0.0086029
-0.25138 0.047553 -0.0052519 -0.010064
0.0047515 -0.0068864 -0.0012209 -0.0019187 -0.002924 -0.0099206 -0.010844 -0.010804
-0.0052647 -0.010061 -0.26469 0.070691
740000000 -0.1899 0.18764 -0.038773 0.026381 0.012434 -0.0050797 -0.00076259 -0.0039312
-0.0045536 -0.0025469 -0.0062404 0.0035858
-0.038731 0.026338 -0.33562 0.1778 -0.035277 0.035218 -0.00099516 -0.006103
-0.011392 0.0081426 -0.0029195 -0.006416
0.012432 -0.0051167 -0.035202 0.035344 -0.0694 0.28621 -0.0013275 0.0033711
-0.0022622 -0.0037791 -0.0011977 3.6021e-05
-0.00075114 -0.0039361 -0.0010052 -0.0061265 -0.0013286 0.0033747 -0.20243 0.20242
-0.043088 -0.0077869 0.0225 0.013789
-0.0045091 -0.0025129 -0.011358 0.0081756 -0.0022756 -0.0037791 -0.043108 -0.0077464
-0.15626 0.071258 -0.043499 0.00053044
-0.006233 0.0035816 -0.0029757 -0.0063776 -0.0011969 2.7068e-05 0.022519 0.013769
-0.043491 0.00053998 -0.25861 0.075398
800000000 -0.15792 0.22815 -0.022858 0.017347 0.0052894 -0.010475 -0.0049755 -0.0019826
-0.0038831 0.0028297 0.0047049 0.00077718
-0.022855 0.017332 -0.33816 0.24825 -0.0079898 0.034519 -0.0020542 0.0021983
-0.00036092 0.003469 0.001291 0.0053475
0.0052639 -0.010479 -0.0078972 0.034574 -0.028079 0.30972 0.0012153 0.0013734
0.00072125 0.0034049 -0.0019239 0.00093216
-0.0049883 -0.0019799 -0.0020404 0.0022095 0.0012104 0.001375 -0.17479 0.23016
-0.029031 0.012706 0.013569 -0.010081
-0.0038797 0.0028248 -0.00035451 0.0034567 0.00072595 0.0034141 -0.029025 0.012766
-0.20066 0.095427 -0.01848 0.017783
0.0047137 0.00073974 0.0013283 0.0053375 -0.0019003 0.000928 0.01355 -0.010091
-0.018498 0.017763 -0.25332 0.13162
860000000 -0.1234 0.24949 -0.017503 0.031409 -0.0034291 -0.0098893 -0.0025431 0.0015469
0.0043946 0.0050099 -0.0031754 -0.0032523
-0.01751 0.03139 -0.29036 0.29054 0.0083191 0.03455 0.00032409 0.0021025
0.0046029 3.7177e-05 0.003244 0.00018523
-0.0034516 -0.0098772 0.0084523 0.034553 0.020636 0.31784 -0.00037891 -0.00039766
0.0028445 -0.001708 0.0017015 0.0046956
-0.0025441 0.0015455 0.0003296 0.0021007 -0.0003823 -0.0003975 -0.13945 0.24266
-0.018457 0.019274 -0.0061348 -0.0095233
0.0044276 0.0049969 0.0046147 5.2368e-06 0.0028549 -0.0017054 -0.01844 0.019314
-0.15245 0.14466 -0.0253 0.015666
-0.0031779 -0.0032363 0.0032661 0.00017769 0.0017079 0.0046876 -0.0061483 -0.0095229
-0.025292 0.015656 -0.20203 0.17826
920000000 -0.09773 0.27296 0.0052018 0.038217 -0.0094561 -0.0041408 -0.0016246 0.0023874
0.0013552 0.0015976 0.0025092 -0.0014971
0.0051824 0.038204 -0.26093 0.31169 0.028333 0.021968 0.0016976 0.0010794
0.0067712 -0.00067545 0.003906 -0.0031074
-0.0094701 -0.0041125 0.028445 0.021894 0.067459 0.31825 0.0017208 -6.9539e-05
0.0012291 -0.00048911 0.00086989 -0.001113
-0.0016275 0.0023911 0.0017098 0.0010819 0.0017106 -5.9863e-05 -0.11497 0.25942
-0.010592 0.030575 0.0028332 -0.0065666
0.0013697 0.0016161 0.0067708 -0.00072267 0.0012354 -0.00049271 -0.010533 0.030607
-0.14207 0.151 -0.0018643 0.028451
0.0025067 -0.0014941 0.0038967 -0.0031498 0.00087098 -0.0011073 0.0028273 -0.0065736
-0.001877 0.028447 -0.21367 0.19164
980000000 -0.049903 0.29249 0.01814 0.030239 -0.008782 0.0048449 0.0026205 0.0036145
0.0038985 -0.0018473 -0.0031454 -0.0020159
0.018089 0.030236 -0.20799 0.34531 0.033223 0.0045292 0.0020034 -0.00019085
0.00096354 -0.006082 -0.0005822 -0.0021879
-0.008786 0.0048657 0.033292 0.0044047 0.11403 0.31121 0.00044678 -0.0011872
4.5938e-05 -0.0021024 0.001681 -3.8995e-05
0.0026258 0.0035992 0.0019969 -0.00018 0.0004383 -0.0011923 -0.07632 0.27117
0.0078262 0.02948 -0.0095656 -0.0070052
0.0038758 -0.0018643 0.00094076 -0.0061195 4.513e-05 -0.0021121 0.0078943 0.029475
-0.11018 0.17881 0.0048967 0.019247
-0.0031648 -0.0019979 -0.00057027 -0.0021955 0.001683 -4.186e-05 -0.0095804 -0.006989
0.0048822 0.019248 -0.1702 0.24086
1040000000 -0.0067977 0.30059 0.033612 0.01794 -0.00096156 0.006992 0.0028667 0.0005265
-0.00013393 -0.0037186 -0.000455 -0.0016403
0.03356 0.017957 -0.17223 0.35843 0.029274 -0.015119 0.0013884 -0.0017989
-0.0026302 -0.0022455 -0.0014696 -0.0027903
-0.00094379 0.0070014 0.02927 -0.01527 0.16034 0.29719 -0.00051269 -0.0014014
-0.0015325 -0.00083523 -0.00034478 -0.0013362
0.0028743 0.00050061 0.0013967 -0.001793 -0.0005143 -0.0014057 -0.04835 0.28145
0.018929 0.01755 -0.0029894 0.0023577
-0.00016994 -0.0037167 -0.0026347 -0.0022632 -0.0015321 -0.00083678 0.018982 0.017521
-0.079433 0.18784 0.01356 0.01862
-0.00046644 -0.0016263 -0.0014849 -0.0028174 -0.00035284 -0.0013365 -0.0029841 0.0023626
0.013551 0.018627 -0.15148 0.26383
1100000000 0.038904 0.30772 0.036031 -0.004587 0.0031563 0.0037634 0.0024395 -0.0015824
-0.0021637 -0.0029738 -0.0040216 9.9752e-05
0.035997 -0.0045556 -0.12836 0.37547 0.014859 -0.02799 -0.00010882 -0.0018188
-0.0030619 -0.00025879 -0.0034742 -0.00048385
0.0031607 0.0037508 0.014772 -0.02808 0.20684 0.27644 -0.0017727 0.0002829
-0.0016666 0.00063893 -0.0011026 -0.00056433
0.0024291 -0.0015951 -0.00010977 -0.0018123 -0.0017708 0.00027699 -0.0071741 0.28638
0.023563 0.0050483 -0.002205 0.00094821
-0.0021935 -0.0029637 -0.0030645 -0.00025498 -0.0016622 0.00063238 0.023582 0.0050109
-0.060996 0.2013 0.019545 0.0089914
-0.0040243 0.00011554 -0.0034747 -0.00047091 -0.0010954 -0.00056246 -0.0022063 0.0009469
0.019536 0.0089961 -0.10444 0.2957
1160000000 0.090614 0.30217 0.023999 -0.02106 0.0028899 -0.00067529 -0.00030147 -0.0026055
-0.0040783 -0.00044986 -0.001037 0.0041404
0.023988 -0.021013 -0.084109 0.37932 -0.0041007 -0.028998 -0.0018051 -0.0015825
-0.0022527 0.0025754 -0.0013352 0.0016766
0.0028785 -0.00069551 -0.0042146 -0.029016 0.24987 0.24509 -0.00053159 0.0017329
-0.0003629 0.0017946 -0.0012127 5.4707e-05
-0.00030492 -0.0026147 -0.0018001 -0.0015635 -0.00052408 0.0017303 0.032831 0.28318
0.019962 -0.010179 -0.0027937 0.0056424
-0.0040971 -0.00044073 -0.0022324 0.002572 -0.00035644 0.0017862 0.019967 -0.010205
-0.027482 0.21093 0.017953 0.00093129
-0.0010202 0.0041525 -0.001326 0.0016824 -0.0012169 4.3861e-05 -0.0027796 0.0056446
0.017939 0.00094125 -0.056867 0.29952
1220000000 0.13509 0.29022 0.010283 -0.030179 -0.0014677 -0.001059 -0.00026404 -0.0010197
-0.0024986 0.0025789 0.0013136 0.0018706
0.01029 -0.030144 -0.03958 0.39072 -0.017014 -0.020839 -0.0024582 0.00052763
0.00033331 0.0027526 -0.00067967 0.0017272
-0.0014676 -0.0010532 -0.017118 -0.020778 0.28878 0.2056 0.00087741 0.0015316
0.00052005 0.001135 0.00019373 0.00087605
-0.00026727 -0.0010224 -0.0024523 0.00054782 0.00087161 0.0015299 0.072702 0.27401
0.0094964 -0.016102 0.0029573 0.0016319
-0.0024979 0.0025802 0.00035583 0.0027564 0.00052882 0.0011296 0.0094726 -0.016116
-0.0034904 0.22064 0.014104 -0.012602
0.0013133 0.0018607 -0.0006683 0.0017287 0.00018774 0.00087535 0.0029683 0.0016285
0.014098 -0.012601 -0.025977 0.31975
1280000000 0.18462 0.26746 -0.0080131 -0.028481 -0.001923 0.0022964 -0.0011094 -0.0018446
-0.0005245 0.0030302 0.0025946 0.0010025
-0.0079838 -0.028452 0.0065204 0.38102 -0.023636 -0.0081605 -0.00086412 0.001477
0.0015734 0.001508 0.00052055 0.0020895
-0.0019214 0.0023093 -0.023702 -0.0080548 0.31916 0.1614 0.0013345 -0.00022842
0.00098284 0.00015618 0.00028292 0.00056939
-0.0011141 -0.001831 -0.00086343 0.0014799 0.0013403 -0.00022973 0.10917 0.25716
0.00034343 -0.017724 0.00044756 -3.2294e-05
-0.00050372 0.0030365 0.0015837 0.0014912 0.0009791 0.00016126 0.00030572 -0.017737
0.034082 0.22435 0.0030939 -0.014589
0.0025901 0.00098729 0.00052548 0.0020829 0.00028356 0.00057005 0.00044717 -3.5562e-05
0.0030966 -0.014588 0.022997 0.32296
1340000000 0.22141 0.23289 -0.017752 -0.019049 0.00067502 0.0042295 -0.0018203 -0.00069456
0.001505 0.0025384 0.0016278 -0.0015618
-0.017717 -0.019041 0.045705 0.37194 -0.02125 0.0043583 1.188e-05 0.0018674
0.0016158 0.00064858 0.0013924 0.00092245
0.00068944 0.0042281 -0.021253 0.0044738 0.34088 0.11324 0.00086121 -0.00086322
0.00065457 -0.00034752 0.00027593 0.00032974
-0.0018301 -0.00068548 2.7668e-05 0.00186 0.00086428 -0.0008634 0.14158 0.2366
-0.0081375 -0.014646 0.0013295 -8.4413e-05
0.0015226 0.0025385 0.0016297 0.00063526 0.00065242 -0.00034806 -0.0081702 -0.014639
0.065206 0.21926 -0.0032187 -0.013206
0.001618 -0.0015637 0.0014059 0.00091913 0.00027908 0.00033134 0.0013224 -8.3175e-05
-0.003216 -0.013205 0.062498 0.32041
1400000000 0.2537 0.19401 -0.023528 -0.0075474 0.0048498 0.0030397 -0.0019132 0.00069145
0.0024397 0.00064 0.00017243 -0.0012765
-0.023489 -0.0075628 0.0825 0.35827 -0.01451 0.012264 0.0012904 0.0011742
0.00089667 -0.00075544 0.0012485 0.00030409
0.004866 0.0030151 -0.01447 0.012356 0.35364 0.059455 4.9418e-05 -0.0013411
3.1117e-05 -0.00041188 0.00040879 0.00028991
-0.0019186 0.00070499 0.001297 0.001157 4.3311e-05 -0.0013437 0.17098 0.20802
-0.013102 -0.0082486 -0.00069815 -0.00093184
0.0024386 0.00061899 0.00090367 -0.0007709 2.623e-05 -0.00041289 -0.013115 -0.0082238
0.098675 0.21388 -0.009612 -0.0084382
0.0001642 -0.001284 0.0012519 0.00028721 0.00040927 0.00029233 -0.00070291 -0.00093469
-0.0095954 -0.0084383 0.10907 0.31073
1460000000 0.27573 0.14966 -0.020634 0.0046152 0.0053065 -0.0015944 -0.0015017 0.0016333
0.0019304 -0.00079573 -0.00028478 -0.00077331
-0.020617 0.0045833 0.11597 0.33601 -0.0060176 0.014941 0.0016293 0.00013288
0.00087337 -0.0011216 0.0011995 -0.00069061
0.0052973 -0.0016129 -0.0059438 0.014988 0.35923 0.0049039 -0.0010285 -0.0012164
0.00029614 -0.00017576 0.00079988 -0.00048724
-0.001507 0.0016417 0.0016326 0.00011926 -0.0010353 -0.001215 0.19749 0.17895
-0.013641 -0.0023727 -0.001195 0.0015562
0.0019188 -0.0008119 0.00086417 -0.0011337 0.00028944 -0.00017105 -0.013641 -0.0023494
0.12854 0.19821 -0.011228 -0.0028962
-0.00027955 -0.00075801 0.0011925 -0.00068609 0.00081151 -0.00048669 -0.0012105 0.0015479
-0.011226 -0.002909 0.14321 0.29008
1520000000 0.28721 0.10797 -0.014997 0.010389 0.003015 -0.0039414 9.7656e-05 0.0024978
0.0016885 -0.0016897 -0.001145 -0.00015223
-0.014986 0.010365 0.14889 0.32124 0.0013903 0.012807 0.0015528 -0.00077259
0.00010113 -0.00088828 0.00027412 -0.0010951
0.0030052 -0.0039663 0.0014543 0.012803 0.35205 -0.051105 -0.00088737 -0.00038324
0.00049435 -0.00079043 8.715e-06 -0.00016046
0.00010309 0.0025016 0.001559 -0.00078192 -0.00089092 -0.00038829 0.22091 0.14093
-0.012795 0.0024582 0.0010048 0.0018025
0.0016752 -0.0017054 9.5995e-05 -0.00089336 0.00049095 -0.0007948 -0.012798 0.0024907
0.15643 0.18313 -0.011329 0.0013167
-0.0011549 -0.00014364 0.00026825 -0.0010986 7.6851e-06 -0.00016149 0.0010056 0.0017929
-0.01133 0.0013109 0.17759 0.27146
1580000000 0.2959 0.061812 -0.0082708 0.013607 -0.00096844 -0.0045608 0.001324 0.0017996
-0.00054471 -0.0020459 -0.00031845 0.00035992
-0.008275 0.013595 0.17556 0.29651 0.0048995 0.0081316 0.00045774 -0.0015178
-0.00041306 -0.0010376 -0.00031448 -0.00085076
-0.00099221 -0.0045585 0.0049532 0.0081164 0.33149 -0.10844 -0.0014924 0.00039109
-0.00029493 -0.0010741 0.00013183 -0.0006224
0.001327 0.0017994 0.00044605 -0.0015196 -0.0014929 0.00039311 0.23525 0.10127
-0.0097139 0.0064177 0.0017229 0.00066937
-0.00055835 -0.0020443 -0.00042488 -0.0010381 -0.00030484 -0.0010789 -0.0097057 0.0064438
0.18056 0.16436 -0.009043 0.0067114
-0.00032047 0.00036591 -0.00032422 -0.00085169 0.00012848 -0.00062695 0.0017262 0.00065928
-0.009046 0.0067079 0.2112 0.245
1640000000 0.29742 0.020504 -0.0014812 0.012575 -0.0026443 -0.0023526 0.0025014 0.0010384
-0.00083602 -0.0011039 -0.00035758 0.00064743
-0.0014847 0.012565 0.20453 0.27177 0.0055293 0.0035268 -0.00072521 -0.0016092
-0.00097511 -0.00045134 -0.00056008 -0.00059228
-0.0026582 -0.0023415 0.0055545 0.0034987 0.30331 -0.15751 -0.0009037 0.0012835
-0.0010584 -0.00080373 -0.00011232 -0.00032141
0.0025107 0.0010225 -0.00073516 -0.0016143 -0.00089996 0.0012914 0.24772 0.051896
-0.0061489 0.0070887 0.0021682 -0.00060535
-0.00084524 -0.0010948 -0.00098637 -0.00043775 -0.0010622 -0.00080932 -0.0061378 0.0071046
0.20298 0.13895 -0.0043474 0.0089762
-0.00034887 0.00065378 -0.00056703 -0.00058537 -0.00011517 -0.00032143 0.0021666 -0.00061442
-0.004357 0.0089708 0.23811 0.2143
1700000000 0.28971 -0.024648 0.0021258 0.0097796 -0.0032102 0.00019876 0.0029149 -0.0010427
-0.0018576 -0.00034031 0.00062411 0.00044524
0.0021127 0.0097677 0.22244 0.24056 0.0036696 0.00087342 -0.0013534 -0.00053818
-0.00078799 7.3916e-06 -0.00090462 -0.00034989
-0.0032054 0.00021876 0.0036714 0.00085508 0.25944 -0.19707 0.00031605 0.0016331
-0.0016821 -0.00019095 -0.00057262 -0.00093848
0.0028983 -0.001043 -0.001361 -0.00053609 0.0003187 0.0016337 0.24431 0.001574
-0.004236 0.0073276 0.001305 -0.0019104
-0.0018672 -0.00032812 -0.00078575 1.7419e-05 -0.0016875 -0.00018379 -0.0042209 0.0073435
0.22025 0.11737 6.4511e-05 0.0093005
0.00062562 0.00044079 -0.0009086 -0.00033753 -0.00057428 -0.00093307 0.0013051 -0.0019225
7.6199e-05 0.0092986 0.25605 0.17992
1760000000 0.2769 -0.072922 0.0044979 0.0064619 -0.0020712 0.00079443 0.0013751 -0.0032621
-0.00094532 0.0007206 0.00036852 -0.00045395
0.0044925 0.0064543 0.24817 0.20094 0.001651 -0.00077717 -0.0011142 0.00017249
-0.0010818 0.00086712 -0.00051208 0.00055074
-0.0020682 0.00080141 0.0016496 -0.00078668 0.21059 -0.2298 0.0011879 0.0013013
-0.0010785 0.0013302 -0.0013335 -0.00036807
0.0013676 -0.003264 -0.0011105 0.00017384 0.0011847 0.0012965 0.23449 -0.05026
-0.0018565 0.0068284 -0.00034096 -0.0020818
-0.00093812 0.0007204 -0.001085 0.00087507 -0.0010799 0.0013355 -0.0018359 0.0068326
0.23473 0.081148 0.0038284 0.0065335
0.00036724 -0.0004659 -0.00050774 0.00055788 -0.0013265 -0.00036632 -0.00034574 -0.0020837
0.0038366 0.0065252 0.26919 0.14233
1820000000 0.25182 -0.10995 0.0047983 0.002851 2.5658e-05 0.0022956 -0.00082514 -0.0030371
-0.00074424 0.00068805 8.3334e-05 -0.00017915
0.0047949 0.0028439 0.25804 0.17122 -0.00014397 0.00019138 -0.0012698 0.00086484
-7.0577e-05 0.0013552 -0.00043031 0.00048391
3.2385e-05 0.0022843 -0.00014591 0.00018451 0.16095 -0.24548 0.001614 0.00044037
-0.00034941 0.0020773 -0.0014517 0.00042134
-0.00083336 -0.003032 -0.0012649 0.00087084 0.0016053 0.00044093 0.20381 -0.097441
-0.00090325 0.005598 -0.0015701 -0.0014118
-0.00073912 0.00070058 -6.1675e-05 0.0013571 -0.00034706 0.0020795 -0.00089244 0.0056003
0.25069 0.050324 0.0047741 0.003087
8.1602e-05 -0.00018067 -0.00042253 0.00048882 -0.0014468 0.00041427 -0.0015729 -0.0014147
0.0047666 0.0030827 0.27283 0.10641
1880000000 0.21635 -0.1496 0.0027315 0.00051419 -0.00034613 0.002002 -0.0027691 -0.0022666
-0.00014491 0.001356 0.00034183 -0.00059469
0.0027197 0.00051662 0.26259 0.12492 -0.0019831 0.0017042 -0.00016726 0.0016669
0.00066244 0.0013081 0.00024457 0.00087134
-0.00033808 0.0019989 -0.0019793 0.001721 0.10901 -0.25526 0.0019433 -0.0010668
0.0014437 0.0019772 -0.00095763 0.001397
-0.0027732 -0.0022444 -0.00015617 0.0016719 0.0019413 -0.0010637 0.16276 -0.13703
-0.00062672 0.0045122 -0.00227 0.00066493
-0.00013393 0.0013595 0.00067489 0.0013012 0.0014488 0.0019764 -0.0006124 0.0045186
0.25207 0.016074 0.0043785 0.0011595
0.00033532 -0.00060442 0.00025566 0.00087368 -0.00095628 0.0013975 -0.0022616 0.0006713
0.004375 0.0011558 0.27355 0.072126
1940000000 0.17664 -0.1748 0.00049205 -0.0014657 0.0013747 0.0017964 -0.0037419 0.00044421
0.0011604 0.00092582 -0.00073218 -0.00070032
0.00049209 -0.001461 0.26317 0.093236 -0.00096282 0.0038361 0.00093863 0.0013221
0.0019294 0.00048118 0.00076167 0.00011582
0.001381 0.0017912 -0.00093945 0.0038414 0.06248 -0.24889 0.00021198 -0.0023817
0.002393 0.00044769 0.000257 0.001616
-0.0037308 0.00047185 0.00094397 0.0013211 0.00022522 -0.0023742 0.10991 -0.16662
-0.0016965 0.0040403 -0.0012832 0.0017395
0.0011699 0.00092264 0.0019324 0.00046496 0.0023894 0.0004443 -0.0016839 0.0040455
0.25153 -0.024041 0.0030976 -0.0020522
-0.00073732 -0.0006943 0.0007646 0.00011162 0.00025891 0.0016128 -0.0012849 0.0017466
0.0030976 -0.0020491 0.26333 0.036567
2000000000 0.13073 -0.18879 -0.0033767 0.00034646 0.0022962 0.0014421 -0.0023486 0.0035524
0.00090246 0.0002252 -0.00066186 0.00040529
-0.0033629 0.00033088 0.24923 0.05774 -0.00073795 0.0055025 0.001643 0.00026468
0.0014658 -0.0014622 0.00039996 0.00017153
0.0023038 0.0014256 -0.00070967 0.0055093 0.01906 -0.23431 -0.0015613 -0.0014114
0.0020435 -0.0011956 0.0016045 0.0014037
-0.0023202 0.0035562 0.0016549 0.00025274 -0.0015627 -0.0014086 0.056905 -0.17582
-0.0029135 0.0046478 0.00014857 0.0023199
0.00090433 0.00022178 0.0014539 -0.0014717 0.0020392 -0.0012086 -0.0029081 0.0046607
0.24277 -0.058718 -0.00017754 -0.0026456
