!Keysight Technologies,M9804A,MY58100912,A.14.10.03
!Date: Thursday, April 27, 2023 10:28:33
!Correction: S11(C  6-Port  ) 
!S12(C  6-Port  ) 
!S13(C  6-Port  ) 
!S14(C  6-Port  ) 
!S15(C  6-Port  ) 
!S16(C  6-Port  ) 
!S21(C  6-Port  ) 
!S22(C  6-Port  ) 
!S23(C  6-Port  ) 
!S24(C  6-Port  ) 
!S25(C  6-Port  ) 
!S26(C  6-Port  ) 
!S31(C  6-Port  ) 
!S32(C  6-Port  ) 
!S33(C  6-Port  ) 
!S34(C  6-Port  ) 
!S35(C  6-Port  ) 
!S36(C  6-Port  ) 
!S41(C  6-Port  ) 
!S42(C  6-Port  ) 
!S43(C  6-Port  ) 
!S44(C  6-Port  ) 
!S45(C  6-Port  ) 
!S46(C  6-Port  ) 
!S51(C  6-Port  ) 
!S52(C  6-Port  ) 
!S53(C  6-Port  ) 
!S54(C  6-Port  ) 
!S55(C  6-Port  ) 
!S56(C  6-Port  ) 
!S61(C  6-Port  ) 
!S62(C  6-Port  ) 
!S63(C  6-Port  ) 
!S64(C  6-Port  ) 
!S65(C  6-Port  ) 
!S66(C  6-Port  ) 
!S6P File: Measurement: :
# Hz S  RI   R 50
500000000 -0.33632 -0.034449 -0.0094317 -0.0033787 -0.0077826 0.011616 -0.0037087 0.011861
0.011856 0.0044467 -0.0039319 0.0084782
-0.0095447 -0.003569 -0.41872 -0.048532 0.0076428 -0.011785 0.001605 0.011785
0.0072112 0.0029401 0.0012284 0.013235
-0.0076352 0.011517 0.0075889 -0.011819 -0.2641 0.21138 0.0068456 0.0030506
6.8458e-05 0.0083439 0.00020479 0.011796
-0.0036767 0.011873 0.0017628 0.011802 0.006808 0.0030474 -0.32677 0.048454
-0.018532 -0.0041044 0.018321 0.025764
0.011764 0.0042322 0.0070328 0.003057 4.5143e-05 0.0082929 -0.018544 -0.0042675
-0.22677 -0.18463 -0.027929 0.0061955
-0.0046849 0.0083212 0.0010516 0.013212 9.8941e-05 0.011763 0.018557 0.026416
-0.026987 0.0062073 -0.26589 -0.14477
560000000 -0.3155 0.12435 -0.02416 -0.063115 0.00060509 0.012229 0.0064331 0.0098978
0.010525 0.0043355 0.0095308 0.0072771
-0.024058 -0.062754 -0.37647 0.10969 -0.04172 -0.037413 0.013485 0.0035785
-0.013173 -0.0054812 0.0045174 0.00015837
0.00060607 0.012013 -0.041931 -0.037391 -0.18233 0.2591 -0.00032882 -0.0048275
0.019042 0.0037015 0.0070945 -0.0060817
0.0057131 0.0097529 0.013541 0.003868 -0.0004565 -0.004919 -0.30177 0.13507
0.0041209 -0.024892 0.005409 -0.019804
0.010814 0.0046244 -0.013267 -0.005283 0.018717 0.004052 0.0042179 -0.024857
-0.28531 -0.0099094 0.0072624 -0.051363
0.009659 0.0070763 0.0044086 -0.00010264 0.0070377 -0.0060871 0.0056717 -0.019743
0.0078237 -0.052049 -0.33324 0.0074019
620000000 -0.2729 0.10949 -0.023129 0.0070513 0.0034466 0.0083923 0.006917 -0.0054189
0.011714 -0.0013069 3.5545e-05 -0.0014772
-0.023206 0.0070496 -0.40243 0.062928 -0.018965 -0.00044096 -0.0015732 -0.0018442
0.010564 -0.0072872 0.00099052 -0.0024681
0.0034357 0.0082261 -0.018993 -0.00037415 -0.15254 0.26749 -0.001568 -0.0049754
-0.0041123 -0.00351 0.0077007 -0.00342
0.0068019 -0.0055225 -0.0012992 -0.0020018 -0.0016677 -0.0050544 -0.26066 0.14611
-0.038875 -0.019655 0.014062 0.024678
0.011109 -0.00031516 0.010217 -0.007306 -0.0041328 -0.0034198 -0.038868 -0.019297
-0.20344 -0.048927 -0.041258 0.014653
8.1952e-05 -0.0017601 0.0011862 -0.0025564 0.0078623 -0.0033201 0.01392 0.025415
-0.040503 0.013684 -0.24962 -0.032956
680000000 -0.23263 0.19376 -0.028018 -0.01394 0.0047095 0.005189 0.00085215 -0.0075963
-0.0032771 -0.010869 0.0049951 -0.0079206
-0.027918 -0.013923 -0.38671 0.15969 -0.032914 -0.0012125 -0.0017173 -0.00019102
-0.0025592 -0.0088591 -0.0008458 -0.002462
0.0048951 0.0048743 -0.032956 -0.0011018 -0.10217 0.28723 -0.00050606 0.00049534
-0.0021942 0.00063892 -0.0029649 -0.0094393
0.0011472 -0.007542 -0.0016818 -9.2069e-05 -0.00054392 0.00034732 -0.21882 0.19551
-0.023769 -0.0087157 -0.01156 -0.010409
-0.0032646 -0.010963 -0.002901 -0.008978 -0.0021534 0.00066555 -0.024075 -0.0087204
-0.25129 0.049165 -0.0046943 -0.0098495
0.0050388 -0.0063057 -0.0010203 -0.0024024 -0.0030007 -0.0094012 -0.0118 -0.010703
-0.0040427 -0.0091324 -0.26476 0.074532
740000000 -0.18961 0.18872 -0.038829 0.02654 0.012301 -0.0051594 -0.00085993 -0.0039543
-0.0045672 -0.0032078 -0.0060764 0.0036684
-0.038741 0.026464 -0.33502 0.17851 -0.035305 0.034964 -0.00076187 -0.006295
-0.011 0.008997 -0.0026232 -0.0061059
0.012339 -0.0052254 -0.035233 0.03514 -0.06842 0.28646 -0.0017839 0.0036729
-0.0028679 -0.003739 -0.0015033 2.5915e-05
-0.00080369 -0.0038992 -0.00077523 -0.0063192 -0.0017477 0.0035544 -0.20222 0.20248
-0.042259 -0.0073101 0.022721 0.013523
-0.0045546 -0.0031268 -0.010972 0.0087749 -0.002701 -0.0037538 -0.042381 -0.0071977
-0.15803 0.073886 -0.042863 0.00084575
-0.0061071 0.0040468 -0.0026304 -0.0065495 -0.0012722 0.00010856 0.022876 0.013219
-0.04316 0.00020001 -0.25681 0.081152
800000000 -0.15729 0.22858 -0.022445 0.017295 0.0052416 -0.010431 -0.0048257 -0.0020465
-0.0038681 0.0029697 0.0047233 0.00061571
-0.022401 0.017289 -0.33728 0.24895 -0.0077736 0.034155 -0.002018 0.0024437
-0.00049398 0.0034669 0.0010618 0.0054209
0.0051854 -0.010474 -0.0077004 0.034208 -0.027225 0.30981 0.00124 0.0014593
0.00070057 0.0034788 -0.0017349 0.00076515
-0.0049185 -0.0020045 -0.0020682 0.0022992 0.0012388 0.001435 -0.17406 0.2307
-0.028912 0.012917 0.013869 -0.010017
-0.0039052 0.0030822 -0.00050685 0.003504 0.00070152 0.003514 -0.028906 0.013094
-0.20078 0.096253 -0.018379 0.017713
0.0046609 0.00050535 0.0012002 0.0053448 -0.0016465 0.00078087 0.013902 -0.0099199
-0.018196 0.017461 -0.2509 0.13673
860000000 -0.12271 0.24984 -0.01705 0.031165 -0.0034238 -0.0097369 -0.0022867 0.0013926
0.0045108 0.0051337 -0.0029973 -0.0025806
-0.01719 0.03114 -0.28933 0.29071 0.0083297 0.033996 0.00050366 0.0020025
0.0047278 0.00045245 0.0033087 0.00042297
-0.0035025 -0.0097099 0.008438 0.034026 0.021442 0.31751 -0.00023537 -0.00036448
0.0026739 -0.0014817 0.0016246 0.0048211
-0.0026583 0.0013992 0.00047374 0.0020113 -0.00023451 -0.00032643 -0.13806 0.24304
-0.017756 0.018611 -0.0065938 -0.0092455
0.0043412 0.0052488 0.0047053 0.00030037 0.0026755 -0.0015572 -0.017826 0.018575
-0.15185 0.14517 -0.024883 0.016174
-0.0029688 -0.0030784 0.0034471 0.00052874 0.0016119 0.0048028 -0.0065795 -0.0092188
-0.024751 0.016151 -0.20029 0.18191
920000000 -0.096995 0.27322 0.0053362 0.037918 -0.009349 -0.0040731 -0.0018139 0.0023905
0.00107 0.0014353 0.0026398 -0.0017348
0.0053009 0.037837 -0.26016 0.31184 0.028089 0.02158 0.0016535 0.0011413
0.0067094 -0.00060817 0.003724 -0.0027977
-0.0093077 -0.0040272 0.028171 0.021541 0.067949 0.31773 0.0017781 -8.6431e-05
0.0012003 -0.00034361 0.00080681 -0.0011213
-0.0017825 0.002405 0.0016102 0.0011119 0.0017629 -5.791e-05 -0.11424 0.25935
-0.010544 0.029855 0.0027665 -0.0065565
0.0013429 0.0015553 0.006711 -0.00072093 0.0011986 -0.00037625 -0.010522 0.029931
-0.14157 0.15069 -0.0020634 0.028101
0.0025371 -0.0015246 0.0037419 -0.0027834 0.00080326 -0.0011317 0.0027967 -0.0064782
-0.0021941 0.027902 -0.21014 0.19539
980000000 -0.049255 0.29257 0.01797 0.029901 -0.0086589 0.004768 0.0024773 0.0037467
0.0039721 -0.0017313 -0.0034811 -0.0021268
0.017959 0.029925 -0.20708 0.34536 0.03283 0.0044793 0.0018835 7.8644e-06
0.00097491 -0.0061098 -0.00067699 -0.0023371
-0.0086664 0.0048153 0.032861 0.0043631 0.11434 0.31062 0.00044607 -0.0011767
-1.516e-05 -0.0020846 0.0015587 -1.7348e-05
0.002607 0.0037077 0.0019075 -7.4927e-05 0.00046632 -0.0012051 -0.075762 0.27083
0.0073964 0.029025 -0.0095499 -0.0066146
0.0040192 -0.0017728 0.00096548 -0.0061278 6.2871e-06 -0.0020779 0.0075106 0.028993
-0.11019 0.17882 0.0048265 0.019305
-0.0029783 -0.0020229 -0.00066702 -0.0021792 0.0016304 -8.0379e-06 -0.0096092 -0.0066824
0.0047812 0.019024 -0.16724 0.2437
1040000000 -0.0063069 0.30051 0.033357 0.017634 -0.00096031 0.0068688 0.0027545 0.00056649
-3.8227e-05 -0.0037518 -0.00033318 -0.0014701
0.033392 0.017608 -0.17137 0.35824 0.028931 -0.014947 0.00142 -0.0016885
-0.0026369 -0.0022943 -0.001416 -0.0027206
-0.00091945 0.0068476 0.028891 -0.015051 0.1604 0.29651 -0.00055335 -0.0013748
-0.001518 -0.00083501 -0.00042924 -0.0013075
0.0028386 0.00059659 0.0014023 -0.0017031 -0.00055095 -0.0013561 -0.047821 0.28078
0.018374 0.017257 -0.0027745 0.0020043
-0.00015775 -0.0036921 -0.0026313 -0.0022985 -0.0015352 -0.00082092 0.018388 0.017255
-0.079154 0.18779 0.013569 0.018156
-0.00047754 -0.0015567 -0.0015007 -0.0028063 -0.00045781 -0.0013076 -0.002767 0.0020662
0.013562 0.018138 -0.1469 0.26509
1100000000 0.039466 0.30749 0.035604 -0.0046821 0.003057 0.0036316 0.0024948 -0.0015105
-0.0021248 -0.0030365 -0.0040256 -1.5588e-05
0.035588 -0.004674 -0.12773 0.37492 0.014687 -0.027566 1.389e-05 -0.0018488
-0.0031377 -0.00040589 -0.0034256 -0.00062309
0.0030666 0.0036162 0.014595 -0.027638 0.20652 0.27583 -0.0017581 0.00026428
-0.0016324 0.0006583 -0.0010544 -0.00047017
0.0024698 -0.0015035 -4.2972e-06 -0.0018524 -0.0017563 0.00027149 -0.007103 0.28572
0.022791 0.0051029 -0.0022831 0.000855
-0.0021659 -0.0030075 -0.0031057 -0.00041008 -0.0016335 0.00068837 0.022844 0.005074
-0.060523 0.20112 0.018914 0.0087546
-0.0039983 9.5496e-06 -0.0034597 -0.00058274 -0.0010365 -0.00044286 -0.002363 0.00085149
0.018745 0.0087356 -0.10035 0.2974
1160000000 0.091058 0.30185 0.02361 -0.020924 0.0027318 -0.0006529 -0.00015018 -0.0026058
-0.0040006 -0.00027014 -0.00085896 0.0039976
0.023647 -0.020899 -0.083766 0.37867 -0.0038643 -0.028607 -0.0017631 -0.0015778
-0.0023386 0.0024622 -0.0012623 0.0016579
0.0027479 -0.00065251 -0.0039968 -0.028602 0.2493 0.24478 -0.00056322 0.001701
-0.00035855 0.0017336 -0.0010694 6.1829e-05
-0.00022093 -0.0025911 -0.0017524 -0.0016226 -0.00059266 0.0016781 0.032458 0.28246
0.019333 -0.0095534 -0.0028923 0.0055365
-0.0040545 -0.00041769 -0.0022515 0.0025352 -0.0003678 0.0017288 0.019371 -0.0095986
-0.026968 0.21044 0.01761 0.0010413
-0.00099155 0.0041878 -0.0012966 0.0016041 -0.0010462 9.0401e-05 -0.0028704 0.0056558
0.017645 0.00095359 -0.052144 0.3001
1220000000 0.13553 0.28978 0.010052 -0.029899 -0.001573 -0.00091335 -0.00013171 -0.0010743
-0.0024539 0.0026078 0.0013847 0.0019118
0.010064 -0.029865 -0.039584 0.39001 -0.016694 -0.020616 -0.0024431 0.00046244
0.00021628 0.0027652 -0.00072397 0.0018491
-0.0015561 -0.00091555 -0.016804 -0.020568 0.28829 0.20573 0.00085952 0.0015194
0.00053649 0.0010944 0.00019981 0.00080691
-0.00019548 -0.0010625 -0.0024562 0.00046822 0.00087054 0.0015237 0.071955 0.27374
0.0093311 -0.015406 0.0028634 0.0016121
-0.002463 0.0025698 0.00024628 0.0027734 0.00053385 0.0011047 0.0092933 -0.015432
-0.0029723 0.21985 0.013821 -0.012445
0.0013157 0.0018279 -0.00063218 0.0017545 0.00023439 0.00080532 0.0028154 0.0015255
0.013837 -0.012303 -0.021907 0.32002
1280000000 0.18486 0.267 -0.0079965 -0.028102 -0.0017963 0.002395 -0.0010949 -0.001958
-0.00051397 0.0030334 0.0026157 0.00099206
-0.0079828 -0.028092 0.0060418 0.3806 -0.023211 -0.0082026 -0.00096439 0.0014568
0.0015407 0.0015076 0.00049406 0.0019913
-0.0018139 0.0024106 -0.023275 -0.0080978 0.3189 0.16184 0.0012792 -0.00018327
0.00094193 0.00014258 0.00034479 0.00045042
-0.001122 -0.0019398 -0.00095635 0.0014549 0.0012991 -0.00018391 0.10848 0.25732
0.00077455 -0.016969 0.00056593 2.5353e-05
-0.00050952 0.003009 0.0015317 0.0015039 0.00092783 0.00011663 0.0007134 -0.016985
0.034254 0.22349 0.0030037 -0.014112
0.0025903 0.00099216 0.00051002 0.0020477 0.00035523 0.00046511 0.00053596 5.3811e-06
0.0030006 -0.014211 0.026985 0.32281
1340000000 0.22146 0.2326 -0.017586 -0.018731 0.00074425 0.0042933 -0.0018317 -0.00069259
0.0014248 0.0025742 0.0015887 -0.001528
-0.017556 -0.018731 0.045158 0.372 -0.021126 0.0040936 -8.085e-05 0.0019411
0.0016464 0.000637 0.0013132 0.00079276
0.00077237 0.0042737 -0.021121 0.0042002 0.34108 0.11383 0.00088476 -0.00081966
0.00064352 -0.00036985 0.00018287 0.00020447
-0.0018763 -0.00073441 -4.0751e-05 0.0019326 0.00088612 -0.00082449 0.14115 0.23715
-0.0073334 -0.014305 0.0012828 -0.00011331
0.0014811 0.0025622 0.0016574 0.00063807 0.00061092 -0.00036654 -0.0073331 -0.014299
0.065042 0.21843 -0.0030753 -0.012928
0.0016051 -0.0015101 0.0013129 0.00083537 0.00018783 0.0002529 0.0012619 -5.6593e-05
-0.0030607 -0.012945 0.066026 0.31937
1400000000 0.25378 0.19391 -0.023169 -0.0073954 0.0048891 0.0030243 -0.0020104 0.00066116
0.0023136 0.00065638 0.00027796 -0.0012968
-0.023157 -0.0073884 0.08195 0.35881 -0.014539 0.012001 0.0012875 0.0012446
0.00095632 -0.00073554 0.0012538 0.00027258
0.0048833 0.0030168 -0.014515 0.012084 0.35422 0.059815 8.837e-05 -0.0014216
4.6961e-05 -0.00032254 0.00039616 0.00024366
-0.0020146 0.00069522 0.0012941 0.0012445 8.9874e-05 -0.0014042 0.17087 0.20867
-0.012325 -0.00842 -0.00068336 -0.00093226
0.0023649 0.0005772 0.00095099 -0.00077512 5.3888e-05 -0.00035251 -0.012342 -0.0084194
0.098152 0.21319 -0.0093777 -0.0082945
0.0001788 -0.0013197 0.0012434 0.00028684 0.00034715 0.0002255 -0.00067293 -0.00098829
-0.0093389 -0.0083605 0.11207 0.30952
1460000000 0.27607 0.14967 -0.020276 0.0045945 0.0052948 -0.0016076 -0.001506 0.0017025
0.0018122 -0.00075796 -0.00034461 -0.0007736
-0.020266 0.0045799 0.1159 0.33701 -0.0062561 0.014826 0.001643 0.00017646
0.0008309 -0.001056 0.00121 -0.00066951
0.0053192 -0.0016179 -0.0061981 0.014862 0.35999 0.0049098 -0.0010199 -0.001208
0.0002686 -0.00015045 0.00072258 -0.00045681
-0.0015207 0.0017303 0.0016517 0.00017538 -0.0010119 -0.0012329 0.19772 0.17965
-0.013068 -0.0030637 -0.0013067 0.0015291
0.0018374 -0.00071452 0.00081514 -0.0010674 0.00029635 -0.00015421 -0.013099 -0.0030157
0.12797 0.19785 -0.011092 -0.0029991
-0.00026064 -0.00081982 0.0012056 -0.00063693 0.00070397 -0.0005024 -0.0012883 0.001497
-0.011015 -0.0029912 0.14593 0.28888
1520000000 0.28771 0.10789 -0.014735 0.010165 0.0030599 -0.0039164 0.00011544 0.0025522
0.001765 -0.0016519 -0.0011746 -0.00014413
-0.014714 0.010178 0.1493 0.32219 0.0011921 0.012841 0.0015786 -0.00079317
0.00013945 -0.00090513 0.00030012 -0.0010541
0.0030513 -0.0039456 0.0012695 0.01285 0.35266 -0.051554 -0.00092448 -0.00038189
0.00054877 -0.00077443 -1.6372e-05 -7.7696e-05
0.00011392 0.0025513 0.001586 -0.00081099 -0.00093931 -0.00038487 0.2215 0.14151
-0.012729 0.0016136 0.0010546 0.0017942
0.0017308 -0.0016504 0.00013141 -0.00090538 0.00055199 -0.00076853 -0.012731 0.001643
0.15585 0.18306 -0.011153 0.0011375
-0.0011592 -0.00018081 0.00028716 -0.0010416 6.6449e-07 -8.6395e-05 0.00098754 0.0017743
-0.011163 0.0011144 0.18029 0.2699
1580000000 0.29653 0.061541 -0.0081824 0.013269 -0.00087811 -0.0045769 0.0013521 0.0018421
-0.0005351 -0.0019547 -0.00033702 0.0003938
-0.0081785 0.01325 0.17654 0.29741 0.0048292 0.0082988 0.00045932 -0.0015382
-0.00039977 -0.0010533 -0.00028789 -0.00085277
-0.00088149 -0.0046127 0.0048827 0.0082826 0.33187 -0.10907 -0.001529 0.00043843
-0.00023337 -0.0010801 0.00014613 -0.00058773
0.0013758 0.0018392 0.00045942 -0.0015571 -0.0015216 0.00043911 0.2362 0.10153
-0.010182 0.0057667 0.0017235 0.00073684
-0.00053877 -0.001966 -0.00039053 -0.0010484 -0.00024663 -0.0010638 -0.010155 0.0057799
0.18005 0.16466 -0.0090665 0.0063851
-0.00034564 0.00039343 -0.00028763 -0.00086076 0.00016584 -0.00058138 0.0017757 0.00074712
-0.0090752 0.0063275 0.21332 0.24315
1640000000 0.2981 0.019998 -0.001572 0.012306 -0.0026062 -0.0025325 0.0025271 0.0010188
-0.00077421 -0.0010927 -0.00036196 0.00073844
-0.0015792 0.012294 0.20594 0.27219 0.0055964 0.0036754 -0.00073812 -0.0016225
-0.00098484 -0.00048262 -0.0005662 -0.00062255
-0.0026043 -0.0025326 0.0056249 0.0036396 0.30338 -0.15791 -0.00088601 0.0012427
-0.00099791 -0.00082823 -0.00012746 -0.00033937
0.0025244 0.0010033 -0.00074636 -0.0016144 -0.00087094 0.0012323 0.24871 0.051776
-0.006888 0.0068923 0.0022213 -0.00061749
-0.00077311 -0.0011069 -0.001014 -0.0004645 -0.00099936 -0.00086074 -0.0068953 0.0069576
0.20279 0.13946 -0.0045073 0.0086907
-0.00033106 0.00072242 -0.00057027 -0.00062052 -0.00013312 -0.00029293 0.0022388 -0.00065417
-0.0045152 0.0087047 0.23998 0.21219
1700000000 0.29031 -0.025469 0.0019231 0.0096733 -0.00334 0.00012819 0.0029121 -0.0010693
-0.0018036 -0.00039831 0.00061863 0.00039145
0.0019207 0.0096566 0.22399 0.24049 0.0037366 0.00087625 -0.0013583 -0.00054827
-0.00081956 1.541e-05 -0.00089603 -0.00040835
-0.0033308 0.00012355 0.0037489 0.00085436 0.25929 -0.1978 0.00033719 0.001616
-0.0017501 -0.00024492 -0.00050448 -0.00091497
0.002891 -0.001056 -0.0013764 -0.00054401 0.00030936 0.0016208 0.24534 0.00082569
-0.0048361 0.007564 0.0012995 -0.0020035
-0.0018246 -0.00041023 -0.00081312 2.0995e-05 -0.0017392 -0.00023501 -0.0048261 0.0075485
0.22017 0.1179 -0.00026238 0.0091341
0.00067409 0.00043027 -0.0009033 -0.00037907 -0.00050115 -0.00094187 0.0012333 -0.0019954
-0.00028517 0.0091757 0.2573 0.17774
1760000000 0.27723 -0.074128 0.0043783 0.006457 -0.0022063 0.00082647 0.0013757 -0.0033158
-0.0009967 0.00060416 0.00043994 -0.00048849
0.0043938 0.006429 0.2497 0.2003 0.0017151 -0.00088415 -0.0011021 0.00021962
-0.0011402 0.00089111 -0.0005947 0.00053318
-0.0021889 0.0008447 0.0017087 -0.00090532 0.21037 -0.23057 0.001089 0.001299
-0.0011951 0.0013752 -0.001383 -0.00048292
0.0013498 -0.0033021 -0.0011049 0.00019156 0.0010876 0.0013078 0.23502 -0.051323
-0.0022207 0.0073858 -0.00048357 -0.0021422
-0.0010027 0.00062646 -0.0011213 0.00089455 -0.0011816 0.0013549 -0.0021538 0.0074069
0.23496 0.08168 0.0034492 0.0065508
0.0003617 -0.00051114 -0.0005716 0.0005341 -0.001416 -0.00047797 -0.00040255 -0.002154
0.0034817 0.0065768 0.27054 0.14011
1820000000 0.25181 -0.11113 0.0047249 0.002828 2.6966e-05 0.002387 -0.00084366 -0.0030424
-0.00081288 0.00063394 6.8426e-05 -0.0001299
0.0046923 0.0028352 0.25929 0.17005 -0.00015989 0.00010117 -0.0013438 0.00086048
-9.1773e-05 0.0013945 -0.00046361 0.000481
3.3738e-05 0.002385 -0.00016185 0.00013224 0.16036 -0.24589 0.0015431 0.00039958
-0.00034321 0.0021127 -0.0012848 0.00051463
-0.00086932 -0.0030279 -0.0013046 0.00088289 0.0015438 0.0003905 0.2038 -0.098806
-0.00090511 0.0060768 -0.0016366 -0.0013211
-0.00080345 0.00065832 -8.2289e-05 0.0013992 -0.00035383 0.0020805 -0.00093272 0.0060866
0.25125 0.050776 0.0045879 0.0032956
8.8361e-05 -0.00014286 -0.00047767 0.00046255 -0.0013186 0.00051781 -0.0016831 -0.0013439
0.0045597 0.0033201 0.27358 0.1043
1880000000 0.21582 -0.15064 0.0025722 0.00047713 -0.00041377 0.0020612 -0.002788 -0.002309
-0.00026671 0.0013995 0.00027398 -0.00062801
0.0025926 0.00049717 0.26334 0.12338 -0.0020995 0.00172 -0.00012003 0.0016703
0.00067094 0.0013727 0.00019219 0.0009265
-0.00035907 0.0020724 -0.002083 0.0017376 0.10814 -0.25517 0.0019363 -0.00094987
0.0012982 0.002056 -0.00095379 0.0013452
-0.0028287 -0.0022277 -0.00013707 0.0016672 0.001968 -0.00098191 0.16205 -0.13825
-0.00038154 0.0048539 -0.0022653 0.00081637
-0.00022386 0.0013873 0.00067806 0.0013641 0.001308 0.0020712 -0.00039391 0.0048209
0.25271 0.016322 0.0042572 0.001482
0.00034348 -0.00054391 0.00020806 0.00096446 -0.00096411 0.0014073 -0.0022251 0.00079855
0.0042605 0.0014481 0.27422 0.07
1940000000 0.176 -0.17588 0.00038995 -0.0014304 0.0013728 0.0018752 -0.0037943 0.00054616
0.001147 0.00095691 -0.0005957 -0.00082275
0.00040943 -0.0014379 0.26335 0.09157 -0.0010322 0.0038751 0.00089537 0.0013256
0.0020431 0.00051034 0.00085148 0.00018661
0.0014332 0.0018638 -0.001029 0.0038813 0.062123 -0.24877 0.00023095 -0.0023928
0.0024202 0.00047816 0.00026612 0.0014826
-0.0037543 0.000512 0.00093453 0.0013357 0.00020549 -0.0023956 0.1089 -0.16721
-0.0014746 0.0041568 -0.0012152 0.0018167
0.0011758 0.00097271 0.0020309 0.00049465 0.0024246 0.00047829 -0.0014336 0.0041935
0.25248 -0.024192 0.0032162 -0.0017221
-0.00073619 -0.00069648 0.00083816 0.00020231 0.00029902 0.0014812 -0.0012087 0.0018601
0.0032754 -0.0016894 0.26364 0.034285
2000000000 0.12982 -0.18951 -0.003558 0.00044874 0.0024547 0.0014876 -0.0023067 0.0035223
0.00093128 0.00029802 -0.00068315 0.00046051
-0.003525 0.00045841 0.24879 0.056192 -0.00074191 0.0056029 0.0016024 0.00026288
0.0015188 -0.0015577 0.0006073 0.0001258
0.0024603 0.0014881 -0.00070678 0.0056141 0.018923 -0.23418 -0.0015676 -0.0014202
0.0020757 -0.0012351 0.0016694 0.0012862
-0.0022905 0.0035545 0.0016199 0.00024144 -0.0015302 -0.0014729 0.055555 -0.176
-0.002614 0.0044949 0.0003681 0.0020972
0.00089292 0.00025394 0.001517 -0.0015834 0.0020773 -0.0012078 -0.002663 0.0044895
0.24378 -0.059085 0.0001012 -0.0023047
