!Keysight Technologies,M9804A,MY58100912,A.14.10.03
!Date: Thursday, April 27, 2023 10:28:33
!Correction: S11(C  6-Port  ) 
!S12(C  6-Port  ) 
!S13(C  6-Port  ) 
!S14(C  6-Port  ) 
!S15(C  6-Port  ) 
!S16(C  6-Port  ) 
!S21(C  6-Port  ) 
!S22(C  6-Port  ) 
!S23(C  6-Port  ) 
!S24(C  6-Port  ) 
!S25(C  6-Port  ) 
!S26(C  6-Port  ) 
!S31(C  6-Port  ) 
!S32(C  6-Port  ) 
!S33(C  6-Port  ) 
!S34(C  6-Port  ) 
!S35(C  6-Port  ) 
!S36(C  6-Port  ) 
!S41(C  6-Port  ) 
!S42(C  6-Port  ) 
!S43(C  6-Port  ) 
!S44(C  6-Port  ) 
!S45(C  6-Port  ) 
!S46(C  6-Port  ) 
!S51(C  6-Port  ) 
!S52(C  6-Port  ) 
!S53(C  6-Port  ) 
!S54(C  6-Port  ) 
!S55(C  6-Port  ) 
!S56(C  6-Port  ) 
!S61(C  6-Port  ) 
!S62(C  6-Port  ) 
!S63(C  6-Port  ) 
!S64(C  6-Port  ) 
!S65(C  6-Port  ) 
!S66(C  6-Port  ) 
!S6P File: Measurement: :
# Hz S  RI   R 50
500000000 -0.33769 -0.035121 -0.0096457 -0.0035947 -0.0077994 0.011837 -0.0033788 0.011812
0.011557 0.0046563 -0.0038804 0.0088985
-0.0096246 -0.0035434 -0.41941 -0.049991 0.0070042 -0.01154 0.0014202 0.011806
0.0078971 0.0027947 0.00074029 0.01366
-0.0077498 0.011829 0.0069805 -0.011566 -0.26533 0.21159 0.0065946 0.0031705
8.6436e-05 0.0085796 -0.00015077 0.012131
-0.0033698 0.011783 0.001434 0.011839 0.0066165 0.0031834 -0.32779 0.047854
-0.019764 -0.0044062 0.018218 0.027211
0.011633 0.0045937 0.0079009 0.0027759 6.9887e-05 0.008571 -0.019777 -0.0043911
-0.22648 -0.18588 -0.028752 0.0055943
-0.003979 0.0088451 0.00074905 0.01369 -0.00014171 0.012157 0.018233 0.027208
-0.028741 0.005582 -0.26039 -0.16216
560000000 -0.31626 0.12504 -0.023927 -0.063087 -3.0475e-05 0.012147 0.0061498 0.0099759
0.010714 0.0041368 0.0099846 0.007743
-0.023761 -0.06304 -0.3769 0.10835 -0.041863 -0.035995 0.013202 0.0036784
-0.013353 -0.0043721 0.0043754 -0.00043047
5.8102e-05 0.012195 -0.042028 -0.035967 -0.1831 0.25922 -0.00034556 -0.0049299
0.019219 0.0040994 0.0068901 -0.0056552
0.0061955 0.0099293 0.013221 0.0035992 -0.00035 -0.0048838 -0.30306 0.1363
0.0032486 -0.024489 0.0054064 -0.02006
0.010766 0.0042171 -0.013422 -0.0043454 0.019198 0.0040666 0.0031948 -0.024495
-0.28568 -0.010288 0.0078926 -0.051933
0.0099818 0.0078536 0.0043415 -0.0004347 0.0068955 -0.0056544 0.0054183 -0.020043
0.0078375 -0.05194 -0.33529 -0.0073567
620000000 -0.27342 0.10926 -0.023429 0.0075807 0.0035427 0.008601 0.0068033 -0.0053665
0.011351 -0.00083244 0.00081486 -0.0020727
-0.023411 0.0075518 -0.40261 0.062802 -0.01876 0.00021039 -0.0013527 -0.0020568
0.010377 -0.0070667 0.0012842 -0.0023398
0.0035596 0.0085328 -0.018786 0.0002631 -0.15251 0.2686 -0.0015396 -0.0052295
-0.0037219 -0.003284 0.0087927 -0.0031127
0.0068035 -0.0054164 -0.001384 -0.0020381 -0.0015461 -0.0052353 -0.26173 0.14636
-0.039023 -0.018447 0.014369 0.025112
0.011379 -0.00080007 0.010374 -0.0071023 -0.0037431 -0.0032839 -0.039033 -0.018454
-0.20518 -0.049346 -0.042437 0.016582
0.00088664 -0.0019201 0.0012959 -0.0023891 0.0087593 -0.0031308 0.014384 0.025056
-0.042447 0.016586 -0.24822 -0.052007
680000000 -0.23333 0.19376 -0.02802 -0.013648 0.0048218 0.0050015 0.0012105 -0.0074935
-0.0031836 -0.010929 0.0048771 -0.0070144
-0.028014 -0.013635 -0.38711 0.15975 -0.032784 -0.0011034 -0.0016589 -0.00020991
-0.0027091 -0.0090023 -0.00074489 -0.0020287
0.0048186 0.0049769 -0.032807 -0.0010256 -0.10151 0.28798 -0.00065799 -1.05e-05
-0.002269 0.00079608 -0.002734 -0.0097618
0.0011552 -0.0074856 -0.0016387 -0.00020676 -0.00065503 -1.1632e-05 -0.21801 0.19584
-0.02363 -0.0077176 -0.01121 -0.011053
-0.0032276 -0.010944 -0.002733 -0.0090114 -0.0022833 0.00078436 -0.023641 -0.0076989
-0.2534 0.048935 -0.0052635 -0.0093373
0.0048618 -0.0070799 -0.00076266 -0.0020528 -0.0027467 -0.0097629 -0.011228 -0.011041
-0.0052357 -0.0093274 -0.26685 0.062078
740000000 -0.18947 0.18844 -0.038102 0.02683 0.012731 -0.0052765 -0.00072462 -0.0039973
-0.004423 -0.0028291 -0.0062513 0.0035165
-0.038083 0.026811 -0.33486 0.17848 -0.034659 0.035191 -0.0010165 -0.0063455
-0.011315 0.0080659 -0.002976 -0.0069233
0.012713 -0.0052765 -0.034593 0.035291 -0.068019 0.28643 -0.0013907 0.0032374
-0.002698 -0.0040374 -0.00082433 0.00015578
-0.00070182 -0.0039935 -0.0010301 -0.006322 -0.0013898 0.0032314 -0.20218 0.20346
-0.042266 -0.0073278 0.023305 0.01421
-0.0044385 -0.0028298 -0.011259 0.0081274 -0.0027017 -0.0040334 -0.042268 -0.0072918
-0.15597 0.072485 -0.043669 0.0012136
-0.0062973 0.0035774 -0.0029877 -0.006933 -0.0008192 0.00019693 0.023341 0.014251
-0.043708 0.0011892 -0.26157 0.065979
800000000 -0.1571 0.22858 -0.022143 0.017437 0.0053731 -0.010591 -0.0048107 -0.0019651
-0.004008 0.0025877 0.0046274 0.00058671
-0.022136 0.017408 -0.33727 0.24862 -0.0076064 0.03415 -0.0021807 0.0021954
-0.00065309 0.0034291 0.0012233 0.0052736
0.0053466 -0.010611 -0.0075318 0.034201 -0.026886 0.30925 0.0011094 0.0015858
0.00061686 0.003511 -0.0017214 0.00075021
-0.0048233 -0.0019359 -0.0021752 0.0022059 0.0011042 0.0015825 -0.17387 0.23096
-0.028246 0.012942 0.014217 -0.010374
-0.0039926 0.0025813 -0.0006322 0.0034506 0.00061798 0.0035386 -0.028227 0.012997
-0.20045 0.097032 -0.017979 0.0184
0.0045992 0.0005593 0.0012447 0.0052751 -0.0017315 0.00074807 0.014214 -0.01041
-0.018013 0.018392 -0.25759 0.12369
860000000 -0.12235 0.24922 -0.016786 0.031075 -0.0032952 -0.010009 -0.0024676 0.0012161
0.0039969 0.0050664 -0.0033839 -0.0032214
-0.016781 0.03105 -0.28921 0.29041 0.0084173 0.034178 9.2681e-05 0.0021539
0.004311 0.00057687 0.0033645 0.00016725
-0.003314 -0.0099893 0.0085222 0.034195 0.021286 0.31707 -0.00040334 -0.00027161
0.0026887 -0.0015988 0.0017726 0.004475
-0.002479 0.0012192 9.8527e-05 0.0021548 -0.00040007 -0.00027523 -0.13823 0.24272
-0.017523 0.018826 -0.0062859 -0.0097449
0.0040436 0.005038 0.0043156 0.00056463 0.0026966 -0.001604 -0.017526 0.018852
-0.15111 0.14508 -0.025699 0.015723
-0.0033764 -0.0031955 0.0033769 0.00013938 0.0017761 0.0044677 -0.0062787 -0.0097289
-0.025728 0.015717 -0.20583 0.17158
920000000 -0.097049 0.2723 0.0055294 0.037505 -0.0094692 -0.0044327 -0.0017653 0.0021377
0.0012672 0.001761 0.0025677 -0.0013907
0.0054875 0.037465 -0.26026 0.311 0.028272 0.021498 0.0015912 0.00095019
0.0069315 -0.00065951 0.0039236 -0.0031406
-0.009474 -0.0044107 0.028354 0.021437 0.067677 0.31752 0.0017923 -0.00019039
0.0012331 -0.00051782 0.0006361 -0.0013063
-0.0017687 0.0021418 0.0016164 0.00096114 0.0017901 -0.00018122 -0.11384 0.25897
-0.010085 0.030147 0.0031524 -0.0068504
0.0012775 0.0017416 0.0069318 -0.00070066 0.0012494 -0.00050003 -0.010017 0.030196
-0.14078 0.15117 -0.0015205 0.028425
0.0025457 -0.0014048 0.0039213 -0.0031409 0.00063597 -0.0012949 0.0031559 -0.0068729
-0.0014824 0.028374 -0.21972 0.18468
980000000 -0.049651 0.29169 0.018023 0.029659 -0.0089654 0.0046374 0.0023988 0.0035631
0.003968 -0.0016606 -0.0031801 -0.0020999
0.017978 0.029626 -0.20761 0.34464 0.033027 0.0043475 0.0020095 -0.00010478
0.0011592 -0.0061367 -0.00049119 -0.0022032
-0.0089472 0.0046558 0.033057 0.0042465 0.11404 0.31077 0.00040123 -0.001215
-3.82e-05 -0.0021338 0.0014643 2.0969e-05
0.002413 0.0035654 0.0020142 -0.00010297 0.00040151 -0.0012103 -0.075474 0.2704
0.0078741 0.028747 -0.00963 -0.0071288
0.0039717 -0.0016501 0.0011191 -0.0061615 -3.736e-05 -0.0021241 0.0079384 0.028746
-0.10886 0.17852 0.0049559 0.019363
-0.0031696 -0.0020723 -0.0005098 -0.0021987 0.0014587 8.5674e-06 -0.0096331 -0.0071213
0.0049482 0.019358 -0.17612 0.23529
1040000000 -0.0068366 0.29991 0.033359 0.017517 -0.0012593 0.0068884 0.0027343 0.00070578
3.3813e-05 -0.0035581 -0.00050378 -0.0016202
0.033291 0.017511 -0.17213 0.35774 0.029041 -0.015243 0.0014336 -0.0017451
-0.0026066 -0.0023949 -0.0014652 -0.0028889
-0.0012235 0.0068845 0.029003 -0.01535 0.16036 0.29685 -0.00056638 -0.0014245
-0.0016152 -0.0007707 -0.00053209 -0.0011445
0.0027248 0.0006957 0.0014539 -0.0017372 -0.00057326 -0.0014244 -0.047986 0.28043
0.018759 0.01693 -0.0029071 0.0018666
1.5166e-05 -0.0035558 -0.0026362 -0.0024101 -0.0016087 -0.00077553 0.018799 0.016899
-0.078079 0.18705 0.013816 0.018346
-0.00050417 -0.0016354 -0.0014936 -0.0028607 -0.00053914 -0.00114 -0.002891 0.0018739
0.013802 0.018336 -0.15892 0.25874
1100000000 0.03859 0.30713 0.035645 -0.0048818 0.0028312 0.0037991 0.002524 -0.0013589
-0.0020526 -0.003045 -0.0041346 6.0935e-05
0.035603 -0.0048589 -0.12855 0.37474 0.014656 -0.027978 -2.7713e-05 -0.0018321
-0.0032506 -0.00038585 -0.0035966 -0.00044205
0.0028409 0.0037888 0.014553 -0.02806 0.20695 0.27608 -0.0018159 0.000283
-0.0016959 0.0007114 -0.0010735 -0.00030334
0.0025198 -0.0013709 -2.603e-05 -0.0018259 -0.0018121 0.00027404 -0.0074108 0.28525
0.02319 0.0045122 -0.0025577 0.00063393
-0.002065 -0.00305 -0.0032599 -0.00038474 -0.0016926 0.0007101 0.023212 0.0044801
-0.059943 0.19982 0.01949 0.0089337
-0.004108 6.5437e-05 -0.0035981 -0.0004244 -0.001087 -0.00029954 -0.0025581 0.00063802
0.019484 0.0089373 -0.11182 0.29245
1160000000 0.090244 0.30179 0.02351 -0.021198 0.0025751 -0.00046781 -8.7169e-05 -0.0024689
-0.0041137 -0.00052657 -0.001114 0.0042167
0.023483 -0.021176 -0.084611 0.37901 -0.0042376 -0.028989 -0.0018093 -0.0016606
-0.0024027 0.0027325 -0.0012989 0.0016913
0.00258 -0.00047531 -0.004372 -0.028977 0.25001 0.24468 -0.00058623 0.0018009
-0.00029066 0.0018993 -0.0010516 0.00022543
-9.0746e-05 -0.0024715 -0.0018079 -0.0016466 -0.00059175 0.0017994 0.032014 0.28233
0.01941 -0.010485 -0.0031475 0.0056873
-0.0041028 -0.00049621 -0.0023953 0.0027291 -0.0002921 0.0019029 0.01941 -0.010509
-0.027102 0.20901 0.01812 0.001014
-0.001076 0.0042458 -0.0013061 0.0017179 -0.0010494 0.00023348 -0.003147 0.0056999
0.018107 0.0010206 -0.064196 0.29652
1220000000 0.13476 0.29001 0.0097564 -0.030155 -0.0015985 -0.00069827 -5.6374e-05 -0.0011141
-0.0026083 0.0025579 0.0012902 0.00195
0.0097606 -0.030118 -0.04014 0.39059 -0.017165 -0.020787 -0.0025157 0.00050506
0.00034538 0.0029867 -0.00069094 0.0018108
-0.0016002 -0.00069323 -0.017275 -0.020723 0.28881 0.20503 0.00092674 0.0016257
0.00065215 0.0011538 0.00037531 0.00082556
-5.693e-05 -0.0011193 -0.0025135 0.00052214 0.00092415 0.0016284 0.071744 0.27372
0.0089787 -0.016151 0.0026481 0.0017496
-0.0025958 0.0025751 0.00036409 0.0029805 0.00063747 0.0011586 0.0089491 -0.016166
-0.0039712 0.21879 0.014141 -0.012855
0.0012955 0.0019413 -0.00068139 0.0018101 0.000378 0.00081402 0.0026527 0.0017489
0.014132 -0.012845 -0.033861 0.31847
1280000000 0.18427 0.26752 -0.0085004 -0.02821 -0.0017669 0.0026518 -0.0010786 -0.0020462
-0.00064343 0.0031432 0.0026946 0.0010792
-0.008477 -0.0282 0.006016 0.38128 -0.02377 -0.0080521 -0.00094766 0.0015592
0.0017801 0.001589 0.00057642 0.0020843
-0.0017619 0.002663 -0.023825 -0.0079476 0.3188 0.16089 0.001459 -0.00021954
0.0010378 3.6348e-05 0.00036269 0.00045184
-0.0010779 -0.0020428 -0.00094803 0.0015595 0.0014592 -0.00021411 0.10822 0.25745
-0.00019672 -0.017639 0.00034766 0.0002645
-0.00061784 0.0031501 0.0017848 0.0015881 0.0010466 3.716e-05 -0.00022466 -0.017645
0.032927 0.22289 0.0029752 -0.014776
0.0026864 0.0010827 0.00058819 0.002088 0.00036765 0.00045554 0.00034406 0.00026505
0.0029881 -0.014779 0.015631 0.32267
1340000000 0.22118 0.23309 -0.01808 -0.018466 0.0010242 0.0044425 -0.0019859 -0.00081308
0.0015703 0.002645 0.0017378 -0.0015286
-0.018047 -0.018454 0.045481 0.37242 -0.021389 0.0045865 3.8374e-05 0.0019452
0.0018137 0.00053212 0.0013962 0.00090172
0.001044 0.004442 -0.021388 0.0046964 0.34037 0.1128 0.00091082 -0.00095893
0.00060554 -0.00041614 0.00018968 0.00028306
-0.0019877 -0.0008046 4.7745e-05 0.0019371 0.00091142 -0.00095269 0.14107 0.23727
-0.0086263 -0.014257 0.0013111 0.00019745
0.0015833 0.0026431 0.0018058 0.00051181 0.00060143 -0.00041841 -0.008658 -0.014247
0.063504 0.21852 -0.0035085 -0.013342
0.0017287 -0.0015426 0.0014106 0.00088369 0.0001959 0.00027714 0.0013039 0.00020137
-0.0035053 -0.013356 0.055352 0.32123
1400000000 0.25384 0.19439 -0.023467 -0.0068485 0.0052089 0.0030272 -0.0020876 0.00077993
0.002529 0.0007254 0.00027822 -0.0013337
-0.023429 -0.0068564 0.082455 0.35895 -0.014497 0.012569 0.001381 0.0011894
0.00091138 -0.00093977 0.0012437 0.00032427
0.0052198 0.0030036 -0.014457 0.012651 0.35298 0.059372 -7.157e-06 -0.0014734
1.3407e-05 -0.000377 0.00038888 0.00024414
-0.0020848 0.00078939 0.0013915 0.0011834 -1.4407e-05 -0.001482 0.17087 0.20873
-0.013454 -0.0077543 -0.00059336 -0.00070745
0.0025343 0.00071621 0.00089714 -0.00095463 1.2442e-05 -0.00038007 -0.013475 -0.0077136
0.096963 0.21391 -0.0098864 -0.0083573
0.00026282 -0.0013417 0.001247 0.00032022 0.00040026 0.00024959 -0.00060078 -0.00071682
-0.0098765 -0.0083687 0.10266 0.31239
1460000000 0.27622 0.14987 -0.02019 0.0052431 0.0055752 -0.0017826 -0.0015083 0.0018268
0.0020655 -0.00078751 -0.00022857 -0.00084627
-0.020179 0.0052205 0.11632 0.33671 -0.0057752 0.015224 0.0016668 8.8226e-05
0.0007089 -0.0011784 0.0012415 -0.0006278
0.0055616 -0.0018051 -0.0057054 0.015282 0.35883 0.0052187 -0.0011939 -0.0011936
0.00027374 -0.00011593 0.00078251 -0.00051031
-0.0014914 0.0018273 0.0016712 7.5798e-05 -0.0011925 -0.0011994 0.19774 0.17962
-0.01372 -0.0016554 -0.001004 0.0017046
0.0020492 -0.00079148 0.00069789 -0.00118 0.00027462 -0.00011583 -0.013744 -0.0016272
0.12719 0.1991 -0.011408 -0.0027011
-0.00023117 -0.00085285 0.0012414 -0.00063316 0.00078664 -0.00051998 -0.00098951 0.0016958
-0.011408 -0.0027198 0.13703 0.29237
1520000000 0.28787 0.10781 -0.014296 0.010656 0.0031851 -0.0042227 0.00022226 0.0026261
0.0017496 -0.0018234 -0.0011651 -0.00021437
-0.014296 0.010631 0.14947 0.32174 0.0017206 0.012929 0.0015531 -0.00082574
1.8691e-05 -0.00081002 0.00032816 -0.0010582
0.0031643 -0.0042341 0.0017872 0.012942 0.35189 -0.050824 -0.00096155 -0.00029598
0.00056396 -0.00081359 1.8739e-06 -0.0001371
0.00022432 0.0026217 0.0015521 -0.00083361 -0.00095897 -0.00029678 0.22144 0.14133
-0.012456 0.0031387 0.0012529 0.0018591
0.0017437 -0.001821 1.2516e-05 -0.00081007 0.00056598 -0.00081703 -0.012453 0.0031679
0.1557 0.18436 -0.011453 0.0015898
-0.0011801 -0.00020794 0.00032136 -0.0010604 7.0211e-07 -0.00014038 0.0012534 0.0018542
-0.011454 0.0015781 0.17208 0.27472
1580000000 0.29653 0.061241 -0.0075698 0.013473 -0.00097349 -0.0048865 0.0014888 0.0018139
-0.00056009 -0.002113 -0.00036157 0.0003543
-0.0075656 0.013454 0.17634 0.29685 0.0052401 0.0080843 0.00041155 -0.0015294
-0.00036818 -0.0008931 -0.00026323 -0.00088278
-0.00099071 -0.0048693 0.0052949 0.0080573 0.33159 -0.10817 -0.0014217 0.00049855
-0.00028449 -0.0011224 0.00014068 -0.00058622
0.0015004 0.0018095 0.00040343 -0.0015312 -0.0014271 0.00050059 0.2359 0.10137
-0.0090725 0.0068324 0.0020265 0.00058045
-0.00056766 -0.0021225 -0.00038325 -0.00089006 -0.00029078 -0.0011215 -0.0090607 0.0068724
0.18053 0.16562 -0.0089142 0.0070552
-0.00036166 0.00035993 -0.00026713 -0.00088007 0.00013917 -0.000598 0.002032 0.00057122
-0.0089268 0.0070479 0.20646 0.24879
1640000000 0.29777 0.019715 -0.00096603 0.012116 -0.0028515 -0.0026126 0.0025906 0.00091388
-0.00092149 -0.0011275 -0.00032894 0.00061664
-0.00098848 0.012116 0.20543 0.27179 0.0057826 0.0032992 -0.00075187 -0.0016031
-0.00083892 -0.00044277 -0.00054307 -0.00068709
-0.0028756 -0.0026106 0.0058089 0.0032584 0.30341 -0.15725 -0.00078444 0.0013066
-0.0010682 -0.00080914 -0.00013014 -0.00039706
0.0025865 0.00089474 -0.00076222 -0.0016026 -0.00078816 0.0013043 0.24833 0.051692
-0.0053495 0.0071389 0.0023586 -0.00082746
-0.00091493 -0.0011215 -0.00084662 -0.00042858 -0.0010702 -0.00080673 -0.0053381 0.0071586
0.20363 0.13995 -0.0040891 0.0092509
-0.00032112 0.00061954 -0.0005478 -0.0006864 -0.00013511 -0.00039396 0.0023533 -0.0008494
-0.0040953 0.0092513 0.23406 0.21853
1700000000 0.2897 -0.025478 0.0023255 0.0091616 -0.0035363 0.00011421 0.0028814 -0.0012013
-0.0018702 -0.00033473 0.00062614 0.00041837
0.0023215 0.0091514 0.2233 0.24037 0.0038073 0.00054785 -0.0013725 -0.00052946
-0.0007113 -9.9264e-05 -0.00096347 -0.0004466
-0.0035388 0.00013594 0.0038268 0.00052642 0.26 -0.19707 0.00032575 0.0014987
-0.0017654 -0.00018985 -0.00061553 -0.0010241
0.0028832 -0.0012115 -0.0013742 -0.00052749 0.00032932 0.0014903 0.24478 0.0011026
-0.0035588 0.0070005 0.0013516 -0.002181
-0.0018681 -0.00033162 -0.00071324 -9.3401e-05 -0.0017678 -0.00018405 -0.0035408 0.0070173
0.22105 0.11795 0.00042435 0.0094675
0.00062723 0.00041381 -0.00096429 -0.00044123 -0.00062242 -0.0010208 0.0013542 -0.0021817
0.00042184 0.0094614 0.25279 0.18444
1760000000 0.27665 -0.073729 0.0043849 0.0058456 -0.0023283 0.00093188 0.0012809 -0.0033558
-0.00095122 0.00073145 0.00029865 -0.0005274
0.004376 0.0058451 0.24902 0.20058 0.0015737 -0.0011503 -0.0010807 0.00020288
-0.001148 0.00076564 -0.00061122 0.00050024
-0.0023177 0.00094393 0.0015655 -0.001159 0.21107 -0.23026 0.0010706 0.0012371
-0.0011447 0.0013761 -0.0014524 -0.00042021
0.0012542 -0.0033543 -0.0010779 0.00020334 0.0010582 0.0012406 0.2348 -0.050935
-0.0014285 0.0062405 -0.00046788 -0.0023713
-0.0009499 0.00074071 -0.0011504 0.000783 -0.0011438 0.001381 -0.0014121 0.0062467
0.23573 0.0813 0.0042439 0.006441
0.0002891 -0.00053339 -0.00061047 0.00051474 -0.0014623 -0.00043153 -0.00046585 -0.0023745
0.00424 0.0064356 0.26668 0.14695
1820000000 0.25138 -0.11054 0.0044502 0.0023841 -5.719e-05 0.0025096 -0.00097545 -0.0030188
-0.00074263 0.00065356 -5.1284e-06 -0.00012558
0.0044547 0.0023818 0.25878 0.17061 -0.00041359 2.4386e-05 -0.0012722 0.00083781
-0.00022541 0.0013188 -0.00054301 0.00054676
-4.718e-05 0.0025105 -0.00041493 2.4522e-05 0.16082 -0.24609 0.0015729 0.00055326
-0.00038036 0.0021362 -0.0015174 0.00053412
-0.00098916 -0.0030149 -0.0012728 0.00083459 0.0015747 0.00054618 0.20374 -0.098246
-0.00080322 0.0048926 -0.0018347 -0.0015604
-0.0007382 0.00066691 -0.00022082 0.0013192 -0.00037773 0.0021307 -0.00078791 0.0048846
0.25156 0.050047 0.0050571 0.0028746
-9.2836e-06 -0.00013725 -0.00053525 0.0005452 -0.0015058 0.00054201 -0.0018389 -0.0015509
0.005054 0.0028717 0.27109 0.11122
1880000000 0.21575 -0.14994 0.0021977 0.00026794 -0.00031182 0.0021944 -0.0028273 -0.0021535
-0.00019715 0.0013521 0.00036465 -0.00052289
0.0021962 0.00026826 0.26313 0.12414 -0.0022482 0.001666 -0.0001945 0.0016677
0.00054776 0.0014169 0.00021522 0.0010094
-0.0002932 0.0021954 -0.0022497 0.0016822 0.10891 -0.25576 0.001967 -0.00093117
0.0014385 0.0020639 -0.00089376 0.0015811
-0.002842 -0.0021417 -0.00018722 0.0016643 0.0019634 -0.00092914 0.16233 -0.13774
-0.00080993 0.0038374 -0.0025164 0.00071553
-0.00018303 0.0013573 0.00054975 0.0014156 0.0014418 0.0020607 -0.00079001 0.0038517
0.25274 0.01553 0.0045751 0.00089238
0.00036143 -0.00052617 0.00023181 0.0010142 -0.00089442 0.0015786 -0.0025146 0.00072149
0.0045731 0.00090131 0.27252 0.076788
1940000000 0.17621 -0.17503 -7.4776e-05 -0.001412 0.0013842 0.0018926 -0.003697 0.00055733
0.0011271 0.0009887 -0.00069351 -0.00064753
-7.2801e-05 -0.0014214 0.26349 0.092321 -0.0011798 0.0038884 0.00091199 0.0013343
0.0019838 0.0006818 0.0008727 0.00023755
0.0014157 0.0018844 -0.0011532 0.0039047 0.062434 -0.24938 0.00036437 -0.0023862
0.0024782 0.00055365 0.00038492 0.0016605
-0.0036889 0.00058252 0.00093077 0.0013445 0.00036093 -0.0023639 0.10922 -0.16709
-0.0022215 0.0035336 -0.0014934 0.0018902
0.0011318 0.00098238 0.0019941 0.00066424 0.0024868 0.00055571 -0.0022107 0.0035441
0.25189 -0.024797 0.0031474 -0.0024625
-0.00070305 -0.00064573 0.00086758 0.00023174 0.00040282 0.0016578 -0.0014844 0.0018939
0.003142 -0.00245 0.26287 0.041148
2000000000 0.1301 -0.18886 -0.0038823 0.00066964 0.0023973 0.001539 -0.0022735 0.0035967
0.00092338 0.00031575 -0.00064129 0.00040811
-0.0038766 0.00066841 0.24918 0.056848 -0.00089423 0.0056912 0.0016545 0.00031247
0.0016446 -0.0013932 0.00049928 0.00017285
0.0024123 0.0015226 -0.00085328 0.0057032 0.018829 -0.23481 -0.001451 -0.0015403
0.0021276 -0.0012323 0.0017032 0.0013541
-0.0022538 0.003618 0.0016526 0.00028448 -0.0014524 -0.0015381 0.05602 -0.17587
-0.0035895 0.0044588 6.8207e-05 0.0024468
0.00090506 0.00031239 0.0016375 -0.0014143 0.0021168 -0.0012246 -0.0035697 0.0044788
