!Keysight Technologies,M9804A,MY58100912,A.14.10.03
!Date: Thursday, April 27, 2023 10:28:33
!Correction: S11(C  6-Port  ) 
!S12(C  6-Port  ) 
!S13(C  6-Port  ) 
!S14(C  6-Port  ) 
!S15(C  6-Port  ) 
!S16(C  6-Port  ) 
!S21(C  6-Port  ) 
!S22(C  6-Port  ) 
!S23(C  6-Port  ) 
!S24(C  6-Port  ) 
!S25(C  6-Port  ) 
!S26(C  6-Port  ) 
!S31(C  6-Port  ) 
!S32(C  6-Port  ) 
!S33(C  6-Port  ) 
!S34(C  6-Port  ) 
!S35(C  6-Port  ) 
!S36(C  6-Port  ) 
!S41(C  6-Port  ) 
!S42(C  6-Port  ) 
!S43(C  6-Port  ) 
!S44(C  6-Port  ) 
!S45(C  6-Port  ) 
!S46(C  6-Port  ) 
!S51(C  6-Port  ) 
!S52(C  6-Port  ) 
!S53(C  6-Port  ) 
!S54(C  6-Port  ) 
!S55(C  6-Port  ) 
!S56(C  6-Port  ) 
!S61(C  6-Port  ) 
!S62(C  6-Port  ) 
!S63(C  6-Port  ) 
!S64(C  6-Port  ) 
!S65(C  6-Port  ) 
!S66(C  6-Port  ) 
!S6P File: Measurement: :
# Hz S  RI   R 50
500000000 -0.33727 -0.034992 -0.0094759 -0.0036445 -0.0074544 0.01172 -0.0035987 0.011319
0.011808 0.0042925 -0.0035416 0.0084304
-0.0094409 -0.0036618 -0.41879 -0.049751 0.0075319 -0.011607 0.0022545 0.011216
0.0075696 0.0029942 0.00063402 0.013197
-0.0077307 0.011847 0.0076169 -0.01223 -0.26381 0.21089 0.0072959 0.0024725
0.00030018 0.0085702 0.00023787 0.012012
-0.0029932 0.011277 0.0023939 0.012074 0.0071331 0.0032391 -0.32638 0.046623
-0.019219 -0.0045302 0.017842 0.026637
0.01114 0.0037805 0.007286 0.0028662 -0.00017787 0.0085662 -0.017893 -0.0042463
-0.22509 -0.18553 -0.028311 0.0055854
-0.0039701 0.0081741 0.0016902 0.01405 0.00062168 0.012562 0.019766 0.025287
-0.028336 0.0053109 -0.26495 -0.15016
560000000 -0.31549 0.12463 -0.02298 -0.062169 8.2019e-06 0.011873 0.0057527 0.0093494
0.011018 0.0037958 0.009921 0.0074154
-0.022723 -0.062506 -0.37494 0.10771 -0.041793 -0.036959 0.013521 0.0040126
-0.013059 -0.0047313 0.0043747 -0.00079763
-0.00043591 0.01244 -0.041812 -0.036527 -0.18223 0.25727 -0.0013221 -0.0049492
0.019083 0.00448 0.0072858 -0.0059889
0.0069974 0.0097524 0.013443 0.0040513 -0.00054597 -0.0044688 -0.30061 0.13664
0.0046853 -0.024954 0.0054723 -0.019923
0.011576 0.0035152 -0.013204 -0.0045899 0.018235 0.0034509 0.0036239 -0.026311
-0.2838 -0.0095056 0.0086289 -0.051817
0.010874 0.0066393 0.0045898 -0.0014754 0.0080638 -0.0068744 0.0056565 -0.019505
0.0078598 -0.051536 -0.33411 0.0016782
620000000 -0.27335 0.10847 -0.023018 0.0070532 0.0036225 0.0083935 0.0072115 -0.005843
0.011201 -0.0013329 0.00033158 -0.0019998
-0.023043 0.0070602 -0.40213 0.062557 -0.019024 -0.00032809 -0.0009392 -0.0026947
0.010126 -0.0069516 0.0011638 -0.0025288
0.0027862 0.008415 -0.019054 -0.00023833 -0.1526 0.26727 -0.0020471 -0.005372
-0.0038292 -0.0032379 0.0085156 -0.0034418
0.0060386 -0.0058962 -0.0016613 -0.0022627 -0.0016757 -0.0051379 -0.26321 0.14549
-0.038097 -0.019109 0.014089 0.024476
0.011496 1.6257e-06 0.010363 -0.0069637 -0.0039541 -0.003423 -0.036312 -0.019752
-0.20416 -0.049458 -0.041269 0.015381
0.00016998 -0.0016328 0.0010091 -0.0024634 0.0091208 -0.0033579 0.01221 0.022326
-0.041352 0.015369 -0.24805 -0.040565
680000000 -0.23309 0.19335 -0.028188 -0.014039 0.0047337 0.0051454 0.0016225 -0.0079956
-0.0034808 -0.010899 0.0049213 -0.0069245
-0.027965 -0.014177 -0.38691 0.15872 -0.033429 -0.0012688 -0.001484 -7.8538e-06
-0.0028769 -0.0088022 -0.0010355 -0.0019311
0.0050322 0.0053808 -0.033345 -0.0013527 -0.10288 0.28667 -0.00050987 0.00039585
-0.0024216 0.00098187 -0.0029088 -0.0098697
0.0012148 -0.0074258 -0.0015909 -0.00039269 -0.00074532 0.00013615 -0.21794 0.19396
-0.023672 -0.0089323 -0.010787 -0.010896
-0.0039096 -0.010897 -0.0031105 -0.0086191 -0.0026888 0.001138 -0.024049 -0.0087652
-0.25146 0.047886 -0.0054423 -0.0099428
0.0047271 -0.0062927 -0.0012116 -0.0020506 -0.0029009 -0.01016 -0.010137 -0.0092967
-0.0053715 -0.0098098 -0.26457 0.07032
740000000 -0.18961 0.1885 -0.039111 0.025921 0.012664 -0.005104 -0.00062146 -0.003917
-0.0046255 -0.0026329 -0.0061444 0.0035805
-0.038837 0.025998 -0.3356 0.1773 -0.035157 0.035215 -0.00089949 -0.0060026
-0.011015 0.0084851 -0.0027902 -0.0065084
0.012705 -0.0046768 -0.035023 0.035421 -0.069371 0.28628 -0.0013428 0.003529
-0.0024021 -0.0036923 -0.0011606 0.00013734
-0.0011189 -0.0041912 -0.00088249 -0.0059675 -0.0014787 0.0035651 -0.20194 0.20168
-0.043059 -0.0079399 0.022503 0.013793
-0.0049153 -0.0025963 -0.012052 0.0078578 -0.0018754 -0.003964 -0.042918 -0.0069195
-0.15677 0.070715 -0.043289 0.00014104
-0.0067798 0.0037165 -0.0028134 -0.0059517 -0.0016114 0.00055273 0.023457 0.013141
-0.043181 0.00030879 -0.25923 0.074796
800000000 -0.15798 0.22833 -0.022876 0.017314 0.0054539 -0.010278 -0.0050877 -0.002108
-0.0038899 0.0029158 0.0047555 0.00067886
-0.022923 0.017277 -0.3381 0.24829 -0.0079672 0.034658 -0.002061 0.0024283
-0.0002099 0.0034466 0.001253 0.0053899
0.005143 -0.0105 -0.0079445 0.034537 -0.027946 0.30978 0.0012058 0.0014534
0.00070256 0.0034378 -0.0018645 0.00094898
-0.005233 -0.0017828 -0.002098 0.0021828 0.0012652 0.0014857 -0.17502 0.23012
-0.028955 0.012797 0.013545 -0.010131
-0.0039763 0.0029306 -0.00041439 0.0034512 0.00076364 0.0034716 -0.029333 0.013118
-0.20068 0.095204 -0.018539 0.017856
0.0044643 0.00092051 0.0010531 0.0053531 -0.0016905 0.0010813 0.01357 -0.0097534
-0.018525 0.018059 -0.25355 0.13121
860000000 -0.12308 0.24953 -0.017562 0.031451 -0.0033544 -0.009868 -0.0023692 0.0017362
0.0044384 0.0050701 -0.0032235 -0.0031769
-0.017495 0.03137 -0.29028 0.29067 0.0083953 0.034499 0.000251 0.0022079
0.0048584 9.3366e-05 0.0033194 7.4046e-05
-0.0034995 -0.009679 0.0085311 0.034539 0.020723 0.31788 -0.00031724 -0.00040872
0.002889 -0.0017323 0.0016748 0.0046187
-0.0025772 0.0012613 0.00045761 0.0022654 -0.00047391 -0.00028129 -0.13903 0.24331
-0.018447 0.01949 -0.0061376 -0.0096779
0.0047128 0.0047143 0.0044854 6.9464e-05 0.0028276 -0.0017369 -0.018441 0.018794
-0.15201 0.14479 -0.025373 0.015775
-0.0037275 -0.0030803 0.0034571 8.8225e-05 0.0017191 0.0047071 -0.0066661 -0.0097982
-0.025362 0.01574 -0.20238 0.17799
920000000 -0.097791 0.27312 0.005183 0.038193 -0.0094296 -0.0041397 -0.0017996 0.0024297
0.0011751 0.0017697 0.0025532 -0.0014422
0.0052135 0.038213 -0.26091 0.31183 0.02836 0.02201 0.0018094 0.001117
0.0067814 -0.00064348 0.0039688 -0.0031027
-0.0095809 -0.0041124 0.028478 0.021877 0.067465 0.31825 0.001755 4.1648e-05
0.0012403 -0.00040586 0.00091809 -0.0011021
-0.0015751 0.0025511 0.0018341 0.0011143 0.0017515 -6.9935e-05 -0.11511 0.2593
-0.010577 0.030591 0.0028269 -0.0066471
0.0014408 0.0018652 0.006682 -0.00049898 0.0012478 -0.00023413 -0.010829 0.030546
-0.14189 0.151 -0.0019266 0.028488
0.0026257 -0.0017036 0.0040349 -0.0030753 0.00083145 -0.0011767 0.003354 -0.0062242
-0.0018514 0.028318 -0.21405 0.19117
980000000 -0.049626 0.29262 0.018111 0.03025 -0.0088218 0.0048632 0.0025771 0.003598
0.0038308 -0.0017432 -0.0031825 -0.0020342
0.017991 0.030241 -0.2078 0.34548 0.033287 0.0044857 0.0018924 -0.00027468
0.0010025 -0.0060831 -0.0005278 -0.0021956
-0.0087253 0.0048853 0.033305 0.0044094 0.11413 0.31127 0.00041432 -0.0012009
2.0494e-05 -0.0020305 0.0016971 -6.3186e-06
0.0026599 0.0036342 0.0019764 -0.00022157 0.00046695 -0.0011768 -0.076334 0.27137
0.0077349 0.02955 -0.0096002 -0.0070012
0.0037896 -0.001981 0.00096458 -0.0060709 2.945e-05 -0.0021917 0.0077568 0.029589
-0.11036 0.17884 0.0048581 0.019328
-0.0031952 -0.001968 -0.00069862 -0.0020463 0.0017412 1.5302e-05 -0.0098812 -0.0068412
0.0048496 0.019343 -0.17076 0.2405
1040000000 -0.0070452 0.30079 0.033638 0.017907 -0.00097272 0.0070342 0.0029866 0.00049659
-0.00014754 -0.0037429 -0.00048532 -0.0015738
0.033543 0.017805 -0.17188 0.35848 0.029287 -0.015144 0.0014999 -0.001828
-0.0026981 -0.0023304 -0.0014818 -0.0028052
-0.00091782 0.007021 0.02932 -0.015277 0.16045 0.29718 -0.00057907 -0.0014353
-0.0015885 -0.00084592 -0.00036833 -0.0013219
0.0028503 0.00067213 0.0014298 -0.0018192 -0.00050518 -0.0014259 -0.048232 0.28158
0.018864 0.017604 -0.00299 0.0023981
-0.00021591 -0.003495 -0.0026477 -0.0022633 -0.0015739 -0.0008316 0.01884 0.01768
-0.079573 0.18788 0.013614 0.018625
-0.0003545 -0.0017887 -0.0013732 -0.0028746 -0.0004219 -0.0013995 -0.0028759 0.002133
0.013675 0.018705 -0.152 0.26347
1100000000 0.03926 0.30755 0.036073 -0.0045607 0.0031753 0.0037934 0.0024619 -0.0015563
-0.0022083 -0.0029759 -0.0040253 0.00011169
0.036061 -0.0045898 -0.12821 0.37557 0.014845 -0.027981 -9.0139e-05 -0.0017856
-0.0030675 -0.00026571 -0.0034895 -0.00050799
0.0031631 0.0036773 0.014733 -0.028113 0.20694 0.27643 -0.0017812 0.00031424
-0.0016255 0.00062658 -0.0010647 -0.00055663
0.0025554 -0.0016333 -7.345e-05 -0.0017852 -0.0018142 0.00026832 -0.0071757 0.28652
0.023485 0.0051115 -0.0022012 0.00092442
-0.0024307 -0.003088 -0.0031671 -0.00028239 -0.001648 0.00053419 0.023543 0.0050076
-0.061006 0.20113 0.01952 0.009028
-0.0039721 9.6553e-05 -0.0033931 -0.00045349 -0.0011127 -0.00051801 -0.0024422 0.0010767
0.019445 0.0089773 -0.10496 0.29552
1160000000 0.090607 0.3023 0.024034 -0.021059 0.0027967 -0.00070865 -0.00031823 -0.0026261
-0.0041238 -0.00043032 -0.0010354 0.0041483
0.024008 -0.020978 -0.083814 0.37942 -0.004085 -0.029019 -0.0016941 -0.0015882
-0.0022063 0.0025809 -0.0013372 0.0016415
0.0029029 -0.00071588 -0.0042504 -0.029012 0.24999 0.24506 -0.00050425 0.0016982
-0.00038378 0.0017696 -0.0012177 4.9461e-05
-0.00026585 -0.0025749 -0.001718 -0.0015561 -0.00057444 0.0017179 0.032729 0.28314
0.020023 -0.010141 -0.0027872 0.0056342
-0.0041027 -0.00037262 -0.0022428 0.0026237 -0.0004154 0.001784 0.020047 -0.010197
-0.027359 0.21095 0.017952 0.00096618
-0.0011237 0.00393 -0.0014036 0.0015515 -0.0011478 0.00010885 -0.0026636 0.005517
0.017961 0.00093019 -0.05742 0.29936
1220000000 0.13527 0.29011 0.010299 -0.030234 -0.0014879 -0.0010763 -0.0002295 -0.0010161
-0.0024874 0.0025927 0.0013251 0.0018915
0.010347 -0.030191 -0.039369 0.39079 -0.017023 -0.020841 -0.0024648 0.00053439
0.0003373 0.002758 -0.00068069 0.0017768
-0.001512 -0.0010705 -0.017152 -0.020787 0.28889 0.2055 0.00089341 0.0015015
0.00054572 0.0011147 0.00020244 0.00089826
-0.00028969 -0.0010435 -0.0024609 0.0005317 0.00087107 0.0015304 0.072785 0.27409
0.0095207 -0.016088 0.0030088 0.0015966
-0.0025984 0.0025152 0.00030109 0.0027446 0.00050786 0.0011336 0.0094905 -0.016146
-0.0034696 0.22056 0.014171 -0.012573
0.0013026 0.0019123 -0.00069253 0.0017833 0.00010798 0.00081908 0.0029646 0.0017216
0.014185 -0.012619 -0.0265 0.31961
1280000000 0.1849 0.26745 -0.00796 -0.028524 -0.0019001 0.002285 -0.0011331 -0.0018518
-0.0005235 0.0030534 0.0025894 0.00099366
-0.0079336 -0.02853 0.00677 0.38107 -0.023623 -0.0081562 -0.00086668 0.0014626
0.0015776 0.0015085 0.00052377 0.00207
-0.0019188 0.0022768 -0.023694 -0.0080576 0.31922 0.16126 0.0013271 -0.00023309
0.00096482 0.0001264 0.00026979 0.00056846
-0.0011613 -0.0017873 -0.00082862 0.0014633 0.0013032 -0.00020057 0.10913 0.25723
0.00039478 -0.017722 0.00045548 -4.6195e-05
-0.00045955 0.0030639 0.0015118 0.0014896 0.00094052 0.00015687 0.00029638 -0.017713
0.03407 0.2243 0.0031283 -0.014598
0.0026129 0.00099601 0.00056005 0.0020134 0.00030722 0.00067285 0.00062171 -2.7925e-05
0.0031316 -0.014595 0.022377 0.32299
1340000000 0.22162 0.23269 -0.017821 -0.0191 0.00066301 0.0042113 -0.0018014 -0.00069446
0.001516 0.0025458 0.0016292 -0.0015518
-0.017782 -0.019077 0.046009 0.37198 -0.021261 0.0043659 1.7022e-05 0.0018846
0.0016286 0.00064129 0.0013933 0.00092687
0.00069813 0.0042253 -0.021258 0.0044912 0.34095 0.11311 0.00086085 -0.0008534
0.00063238 -0.00034575 0.00030984 0.0003469
-0.0017764 -0.00066426 3.8029e-05 0.0018567 0.00090598 -0.00088234 0.14173 0.23661
-0.0080788 -0.014653 0.0013312 -9.2713e-05
0.0016094 0.0024843 0.0016095 0.00060606 0.00064322 -0.00032326 -0.008107 -0.014637
0.065183 0.21922 -0.0032053 -0.013226
0.0015813 -0.0015797 0.0013555 0.00088215 0.00027857 0.00037449 0.0013522 -6.2313e-05
-0.0031979 -0.013206 0.062051 0.32043
1400000000 0.25397 0.19379 -0.023538 -0.0075466 0.0048489 0.0030273 -0.0019197 0.00067177
0.0024168 0.00064252 0.00018428 -0.0012884
-0.023514 -0.0075692 0.082764 0.35824 -0.014488 0.012297 0.0012877 0.0011809
0.00090352 -0.00076199 0.0012574 0.00029717
0.0049034 0.0030326 -0.014464 0.012362 0.35375 0.059351 3.3834e-05 -0.0013408
6.0458e-05 -0.00039291 0.00041432 0.00029694
-0.0019172 0.0007193 0.0013407 0.0011852 2.7673e-05 -0.00134 0.17107 0.20808
-0.013053 -0.008292 -0.00070278 -0.00095319
0.0024275 0.00062922 0.00087756 -0.00074673 2.7088e-05 -0.00036632 -0.013068 -0.0082945
0.098626 0.21382 -0.0095897 -0.008463
0.00010034 -0.0012967 0.0012157 0.00028519 0.00050147 0.00025431 -0.00073868 -0.00097186
-0.0095779 -0.0084578 0.10868 0.31085
1460000000 0.27595 0.14941 -0.020686 0.0046254 0.0052888 -0.0016372 -0.0015001 0.0016345
0.0019094 -0.00081962 -0.00025258 -0.00077725
-0.020652 0.0045993 0.11626 0.33596 -0.0060009 0.014947 0.0016425 0.00010394
0.00085498 -0.0011224 0.0012266 -0.00068433
0.0052899 -0.0016298 -0.005944 0.014974 0.35932 0.0048007 -0.00098513 -0.0012308
0.00028415 -0.00018729 0.00081326 -0.00051324
-0.0015201 0.0016619 0.0016248 0.0001267 -0.0010002 -0.0012003 0.1976 0.17893
-0.01361 -0.0024149 -0.0012389 0.0015369
0.0019047 -0.00080838 0.00086981 -0.001172 0.00030345 -0.00019824 -0.013594 -0.0023581
0.12854 0.19823 -0.011231 -0.0029393
-0.00021955 -0.00078765 0.001199 -0.00067802 0.00082903 -0.00051245 -0.0011284 0.0015526
-0.011233 -0.0029305 0.14284 0.29019
1520000000 0.28739 0.10765 -0.015046 0.010421 0.0030225 -0.0039461 0.00010314 0.002488
0.0016886 -0.0017093 -0.0011603 -0.00015422
-0.015049 0.010405 0.14915 0.32112 0.0013941 0.012809 0.0015395 -0.00074792
0.00010617 -0.00090912 0.00026899 -0.0010961
0.0030267 -0.00397 0.0015164 0.012828 0.35204 -0.051224 -0.00094053 -0.00038452
0.00052038 -0.00082766 2.3476e-05 -0.00016187
9.812e-05 0.0024488 0.0015671 -0.00079263 -0.00091099 -0.00033257 0.22099 0.14091
-0.012833 0.002403 0.00097919 0.0018026
0.0017009 -0.0017365 0.00011347 -0.00088241 0.00044398 -0.00081895 -0.012849 0.0024203
0.15636 0.18311 -0.011316 0.0013019
-0.0012027 -7.8986e-05 0.00022179 -0.0011144 0.00011931 -0.0001257 0.0010626 0.0018503
-0.011299 0.0012783 0.17724 0.27161
1580000000 0.29598 0.061443 -0.0082881 0.013658 -0.00092255 -0.0045122 0.0013049 0.0017857
-0.00055591 -0.0020347 -0.00031901 0.00035863
-0.0082874 0.01364 0.17574 0.29642 0.0049198 0.008131 0.00043947 -0.0015337
-0.00040363 -0.0010397 -0.00032946 -0.00084362
-0.00095936 -0.004508 0.0049855 0.0081053 0.33153 -0.10854 -0.0015226 0.00038825
-0.00030616 -0.0010805 0.00011598 -0.00060719
0.001394 0.0018197 0.00045438 -0.0015639 -0.0015143 0.00036335 0.2353 0.10113
-0.0097553 0.0063624 0.0016966 0.00067343
-0.00051283 -0.0019956 -0.00039265 -0.0010542 -0.00029033 -0.0010938 -0.0097629 0.006316
0.18052 0.16443 -0.0090485 0.0066918
-0.00036437 0.00038073 -0.00025726 -0.00086361 0.00015653 -0.00065562 0.0016937 0.00062754
-0.0090336 0.0067091 0.21089 0.24525
1640000000 0.29748 0.020095 -0.0014804 0.012624 -0.0026174 -0.0023688 0.002543 0.0010369
-0.00084175 -0.0010849 -0.00036133 0.00064162
-0.0014743 0.012617 0.20479 0.27161 0.0055556 0.0035345 -0.00070656 -0.0015938
-0.00098516 -0.00044212 -0.00057822 -0.00059118
-0.0026272 -0.0023404 0.0055631 0.0035356 0.30325 -0.15762 -0.00085461 0.0012801
-0.0010666 -0.00082733 -0.00012963 -0.00036249
0.0024858 0.0010211 -0.0007075 -0.0016023 -0.00092188 0.0013237 0.24771 0.051834
-0.006222 0.0070686 0.0021493 -0.00061471
-0.0008489 -0.0010773 -0.00099613 -0.00045163 -0.0010135 -0.00085511 -0.0062136 0.0071421
0.20303 0.13894 -0.0043633 0.0089613
-0.00034831 0.00065244 -0.00059566 -0.00060084 -0.0001826 -0.00033601 0.0021626 -0.00055393
-0.0043744 0.0089605 0.23784 0.21447
1700000000 0.28961 -0.025014 0.0021697 0.0098298 -0.0032137 0.0002193 0.0028687 -0.0010397
-0.0018439 -0.00031368 0.00061605 0.000454
0.0021607 0.0098092 0.22259 0.24041 0.0036713 0.00085499 -0.0013675 -0.000574
-0.00079017 2.6516e-05 -0.00091354 -0.00033907
-0.0032027 0.00024023 0.0036745 0.00083592 0.25947 -0.19718 0.00032549 0.0016578
-0.0016714 -0.00018769 -0.00055906 -0.0008928
0.0029017 -0.001085 -0.0013425 -0.00059057 0.00034568 0.0016967 0.24417 0.001518
-0.0043061 0.0073544 0.0013057 -0.0018968
-0.0018251 -0.00027466 -0.00078534 1.8487e-05 -0.0016895 -0.00015709 -0.0043556 0.0073454
0.22026 0.11735 6.3195e-05 0.0092875
0.00058849 0.00047787 -0.00092306 -0.00031863 -0.00050246 -0.00090466 0.0012743 -0.0019159
6.7469e-05 0.0092776 0.25568 0.18014
1760000000 0.27679 -0.073313 0.0045325 0.0064556 -0.0020836 0.00081742 0.0014115 -0.0032691
-0.00093109 0.0007355 0.00036088 -0.00047135
0.004525 0.0064609 0.24837 0.20078 0.0016508 -0.00077455 -0.0010877 0.0001969
-0.0010856 0.00089482 -0.00050331 0.00055917
-0.0020553 0.0007944 0.0016786 -0.00078793 0.21049 -0.22987 0.0012009 0.0013414
-0.0010769 0.0013331 -0.0013526 -0.00036054
0.0013011 -0.0032415 -0.0010932 0.00018691 0.0011957 0.0012704 0.23445 -0.050264
-0.0018911 0.006889 -0.00033215 -0.0020828
-0.00096816 0.00074471 -0.0010849 0.00090642 -0.0010807 0.0013589 -0.0018192 0.006915
0.23481 0.081134 0.0037928 0.006509
0.00041656 -0.00053609 -0.00049828 0.00057686 -0.0013041 -0.0004456 -0.00038491 -0.0021766
0.003822 0.0065422 0.26895 0.14268
1820000000 0.25165 -0.11017 0.0048343 0.0028365 -2.5329e-05 0.002278 -0.00081014 -0.003038
-0.00074064 0.00068669 7.0145e-05 -0.00018927
0.0048031 0.0028236 0.25818 0.17099 -0.00014341 0.0001608 -0.0012732 0.000894
-5.6829e-05 0.0013439 -0.00041373 0.00048784
-3.7159e-06 0.0022905 -0.00015016 0.00014492 0.1608 -0.24568 0.0016119 0.00042464
-0.00030124 0.0020424 -0.0014386 0.00043429
-0.00082907 -0.0030166 -0.0012615 0.00086144 0.0016628 0.00044046 0.20377 -0.097409
-0.00090205 0.0056562 -0.0015575 -0.0014011
-0.00071359 0.00068951 -6.3218e-05 0.0013426 -0.00030754 0.0020983 -0.00093003 0.0057557
0.25076 0.050238 0.0047346 0.0031062
4.7917e-05 -0.00016736 -0.00043673 0.00050932 -0.0013918 0.00049571 -0.0014698 -0.0012846
0.0047342 0.0030911 0.27259 0.10675
1880000000 0.21606 -0.1499 0.0027584 0.00047734 -0.00034898 0.0020041 -0.0027897 -0.0023161
-0.0001303 0.0013502 0.00033556 -0.00059459
0.0027611 0.00046218 0.26269 0.12473 -0.0020014 0.0016996 -0.0001321 0.0016199
0.0006589 0.0013083 0.00025288 0.00085799
-0.00033921 0.0020032 -0.0020104 0.0017133 0.10886 -0.25535 0.001918 -0.0011841
0.0014343 0.0019669 -0.00095751 0.0014088
-0.0027552 -0.0022541 -0.00012533 0.0017231 0.0019634 -0.0010657 0.1626 -0.13704
-0.0005845 0.0045728 -0.0022352 0.00065419
-0.000129 0.0013506 0.0007029 0.0013221 0.0014591 0.0019074 -0.00057561 0.0044653
0.25208 0.015988 0.0043774 0.0011858
0.0003538 -0.00066319 0.00028599 0.0007936 -0.00096582 0.0014268 -0.0022735 0.00063542
0.0043961 0.0012105 0.27337 0.072519
1940000000 0.1765 -0.17496 0.00053402 -0.0014884 0.0013978 0.0018276 -0.0037599 0.00043012
0.001159 0.00093949 -0.00072637 -0.00069214
0.00048608 -0.0014923 0.26327 0.093016 -0.00096821 0.0038875 0.0010065 0.0013277
0.0019346 0.00049292 0.00076737 0.00012363
0.0013274 0.0017498 -0.000957 0.0038408 0.062419 -0.24897 0.00033241 -0.0023057
0.0024098 0.00046204 0.0002411 0.0016269
-0.0037214 0.00048579 0.00095184 0.0013386 0.000194 -0.0022486 0.10995 -0.16657
-0.0016416 0.0040647 -0.0012765 0.0017283
0.0011412 0.00096616 0.0019476 0.0004821 0.0023217 0.00050483 -0.00156 0.0041479
0.25157 -0.024147 0.0031008 -0.0020282
-0.00079737 -0.00062668 0.00072491 0.00015276 0.0003806 0.00169 -0.0012949 0.0017754
0.0030805 -0.0019892 0.26319 0.036896
2000000000 0.13056 -0.18901 -0.0033206 0.00034986 0.0023305 0.0013823 -0.0023371 0.0034653
0.00086906 0.0002018 -0.0006593 0.00041456
-0.003319 0.00035131 0.24933 0.057533 -0.00077401 0.0055099 0.0016151 0.00025838
0.0014635 -0.0014853 0.00037822 0.00017693
0.0023251 0.001491 -0.00073155 0.0054983 0.01897 -0.23429 -0.001602 -0.0014835
0.0020601 -0.0012047 0.0016044 0.0014352
-0.0022656 0.0036282 0.0016185 0.00023765 -0.0015327 -0.0013928 0.056929 -0.17587
-0.002836 0.0046699 0.00012957 0.0022798
0.00090799 0.00028832 0.0014332 -0.0015386 0.0020617 -0.0011821 -0.0027885 0.0046596
