!Keysight Technologies,M9804A,MY58100912,A.14.10.03
!Date: Thursday, April 27, 2023 10:28:33
!Correction: S11(C  6-Port  ) 
!S12(C  6-Port  ) 
!S13(C  6-Port  ) 
!S14(C  6-Port  ) 
!S15(C  6-Port  ) 
!S16(C  6-Port  ) 
!S21(C  6-Port  ) 
!S22(C  6-Port  ) 
!S23(C  6-Port  ) 
!S24(C  6-Port  ) 
!S25(C  6-Port  ) 
!S26(C  6-Port  ) 
!S31(C  6-Port  ) 
!S32(C  6-Port  ) 
!S33(C  6-Port  ) 
!S34(C  6-Port  ) 
!S35(C  6-Port  ) 
!S36(C  6-Port  ) 
!S41(C  6-Port  ) 
!S42(C  6-Port  ) 
!S43(C  6-Port  ) 
!S44(C  6-Port  ) 
!S45(C  6-Port  ) 
!S46(C  6-Port  ) 
!S51(C  6-Port  ) 
!S52(C  6-Port  ) 
!S53(C  6-Port  ) 
!S54(C  6-Port  ) 
!S55(C  6-Port  ) 
!S56(C  6-Port  ) 
!S61(C  6-Port  ) 
!S62(C  6-Port  ) 
!S63(C  6-Port  ) 
!S64(C  6-Port  ) 
!S65(C  6-Port  ) 
!S66(C  6-Port  ) 
!S6P File: Measurement: :
# Hz S  RI   R 50
500000000 -0.33643 -0.034262 -0.0098552 -0.0036774 -0.0078475 0.011474 -0.0036377 0.011673
0.012264 0.0045408 -0.0038032 0.0084189
-0.009845 -0.0036667 -0.41881 -0.048894 0.0076794 -0.011741 0.001426 0.011812
0.0073313 0.002321 0.00080545 0.013194
-0.007825 0.011483 0.0076655 -0.011763 -0.26421 0.21121 0.0070095 0.0031692
-4.6969e-05 0.0084865 0.00066469 0.01187
-0.0036153 0.011684 0.0014472 0.011821 0.0070072 0.0031747 -0.32696 0.048364
-0.019626 -0.0044607 0.018 0.02639
0.012287 0.004501 0.0073396 0.0023034 -5.5937e-05 0.0084883 -0.019627 -0.0044497
-0.22714 -0.18293 -0.028527 0.0053201
-0.0037893 0.008424 0.00082334 0.013224 0.00067166 0.011863 0.017996 0.026377
-0.028524 0.0053162 -0.26765 -0.14105
560000000 -0.31559 0.12514 -0.023833 -0.063162 0.00039601 0.012268 0.0061222 0.0097041
0.010907 0.0041365 0.0097368 0.0074178
-0.023799 -0.063062 -0.37699 0.10968 -0.041658 -0.037377 0.013692 0.0040095
-0.013679 -0.0051429 0.0045441 -0.00030338
0.00041915 0.012242 -0.041787 -0.037306 -0.18245 0.25919 -0.00060794 -0.0050645
0.019025 0.0042697 0.0071786 -0.0060134
0.006157 0.0097134 0.013698 0.003978 -0.00060438 -0.0050653 -0.30262 0.13586
0.0038458 -0.024752 0.005394 -0.019652
0.010903 0.0041139 -0.013747 -0.0051223 0.019041 0.0042754 0.003838 -0.02475
-0.28492 -0.0086737 0.0077661 -0.051221
0.0097658 0.0073905 0.0045347 -0.0003115 0.007169 -0.0060117 0.0053988 -0.01965
0.007793 -0.05124 -0.33449 0.009331
620000000 -0.27264 0.10964 -0.022992 0.0071174 0.0033691 0.008189 0.006744 -0.0056741
0.011175 -0.00081208 0.00030248 -0.0021363
-0.022986 0.0071163 -0.40234 0.062828 -0.01896 -0.00060604 -0.0012033 -0.0020273
0.010147 -0.0071174 0.0011308 -0.0027729
0.0033876 0.0081787 -0.018984 -0.00056073 -0.15276 0.26736 -0.0014021 -0.0050805
-0.0039984 -0.0033243 0.0078742 -0.0033036
0.0067423 -0.0056861 -0.0012073 -0.0020272 -0.0013933 -0.0050872 -0.26099 0.14651
-0.038667 -0.019211 0.014139 0.024367
0.011168 -0.00083464 0.010143 -0.0071618 -0.0040021 -0.003317 -0.038684 -0.019172
-0.20477 -0.046932 -0.041145 0.015491
0.00028304 -0.002144 0.001128 -0.0027768 0.0078872 -0.0032977 0.014146 0.024369
-0.041174 0.015473 -0.24978 -0.031858
680000000 -0.23247 0.19353 -0.027866 -0.013864 0.0045669 0.0050314 0.0012033 -0.0074338
-0.0031695 -0.01109 0.0046197 -0.0071262
-0.027838 -0.013865 -0.38686 0.1596 -0.032828 -0.0013136 -0.0015443 -3.6086e-05
-0.0028248 -0.0089518 -0.0010676 -0.0021263
0.0045728 0.0050321 -0.032872 -0.0012281 -0.10208 0.28726 -0.00069461 0.00027836
-0.0023514 0.00079115 -0.0029165 -0.0096868
0.0011909 -0.0074531 -0.0015382 -2.6224e-05 -0.00069783 0.00028232 -0.21827 0.19556
-0.023647 -0.0082074 -0.01052 -0.010773
-0.0032168 -0.011093 -0.0028634 -0.0089574 -0.0023546 0.00079743 -0.023671 -0.0081951
-0.25212 0.049576 -0.0052565 -0.0097682
0.0045875 -0.0071394 -0.0010751 -0.0021172 -0.0029106 -0.0096891 -0.010541 -0.010772
-0.0052461 -0.0097691 -0.26388 0.078028
740000000 -0.18948 0.18821 -0.038555 0.026444 0.012258 -0.0050302 -0.0007299 -0.0040058
-0.0046403 -0.0029201 -0.0060809 0.0035066
-0.038507 0.026397 -0.33506 0.17859 -0.03513 0.034787 -0.00099049 -0.0062589
-0.011364 0.0080659 -0.0027717 -0.0064254
0.012253 -0.005066 -0.035079 0.034923 -0.068414 0.28653 -0.0016074 0.0033217
-0.0028042 -0.003888 -0.0010159 5.9222e-05
-0.00074002 -0.0040438 -0.0010294 -0.0062585 -0.0015996 0.0033289 -0.20203 0.20315
-0.04234 -0.007623 0.022431 0.013521
-0.0046448 -0.0028955 -0.011373 0.0081373 -0.0028154 -0.0038753 -0.042385 -0.0075669
-0.15583 0.072812 -0.043078 0.0008833
-0.0060649 0.0035384 -0.002786 -0.0064164 -0.0010296 4.6078e-05 0.02243 0.013488
-0.043053 0.00085781 -0.25688 0.082959
800000000 -0.1574 0.22841 -0.022655 0.017114 0.0051109 -0.010437 -0.0047479 -0.0020987
-0.003845 0.0027751 0.0044591 0.00092186
-0.022644 0.017095 -0.33733 0.24858 -0.0078952 0.034032 -0.0020745 0.0022244
-0.00051964 0.0034838 0.0011123 0.0052648
0.0050816 -0.010442 -0.0077987 0.034076 -0.027208 0.30954 0.0011989 0.0014766
0.00074102 0.0034641 -0.0019354 0.0009851
-0.0047502 -0.0020852 -0.0020801 0.0022259 0.0011989 0.0014735 -0.17391 0.23077
-0.028351 0.012703 0.013539 -0.010077
-0.0038398 0.0027961 -0.0005105 0.0034796 0.00075602 0.0034715 -0.028353 0.012758
-0.20007 0.097571 -0.017921 0.017585
0.0044442 0.00090263 0.0011159 0.0052709 -0.0019447 0.00098722 0.013563 -0.01009
-0.017924 0.01756 -0.25042 0.1386
860000000 -0.12281 0.24976 -0.017195 0.031137 -0.0034065 -0.0096703 -0.0026729 0.0014639
0.004242 0.0052124 -0.003071 -0.0029521
-0.017192 0.031107 -0.28956 0.29055 0.0081602 0.034 0.00027831 0.0022097
0.0047704 0.00038195 0.0033815 0.00023606
-0.0034319 -0.0096548 0.0082811 0.034002 0.021353 0.31721 -0.00027338 -0.00031428
0.0029128 -0.001537 0.0015588 0.0046784
-0.0026644 0.0014744 0.00027982 0.0022105 -0.00027121 -0.00031509 -0.13829 0.24283
-0.018042 0.01892 -0.0063321 -0.0093262
0.0042715 0.0052048 0.00478 0.00035856 0.0029229 -0.0015335 -0.018031 0.018967
-0.15135 0.1465 -0.024931 0.015644
-0.0030842 -0.0029353 0.0033812 0.00022011 0.0015537 0.0046668 -0.0063373 -0.0093234
-0.024922 0.015626 -0.19858 0.18394
920000000 -0.097175 0.27305 0.0051314 0.037832 -0.0092797 -0.0040726 -0.0017635 0.002349
0.0012659 0.0014741 0.0025626 -0.0014144
0.005103 0.037805 -0.26036 0.3115 0.027865 0.02162 0.00151 0.0011633
0.0068616 -0.00055378 0.0039525 -0.0030504
-0.009291 -0.0040432 0.027972 0.021544 0.067766 0.31746 0.0016824 -0.00010223
0.0011898 -0.00042128 0.0008089 -0.0010176
-0.0017436 0.0023733 0.001502 0.0011572 0.0016783 -0.00011189 -0.11412 0.25908
-0.010346 0.029961 0.0029366 -0.0064838
0.0012627 0.0014775 0.0068708 -0.00058037 0.0011979 -0.00041613 -0.010303 0.029997
-0.14047 0.15211 -0.0017147 0.027838
0.0025596 -0.0014287 0.0039523 -0.0030509 0.00079951 -0.0010222 0.0029243 -0.0064907
-0.0017382 0.027825 -0.20857 0.19682
980000000 -0.049478 0.29235 0.017901 0.029871 -0.0085784 0.0047419 0.0025278 0.0036222
0.004011 -0.0017958 -0.0031181 -0.002059
0.017871 0.029862 -0.20724 0.34501 0.032646 0.0045895 0.0020059 -0.00012604
0.0011683 -0.0061199 -0.00049683 -0.0022453
-0.0085756 0.004759 0.032725 0.0044792 0.11402 0.31037 0.00045051 -0.0012162
9.7003e-05 -0.0020624 0.0016472 1.3344e-05
0.0025468 0.0036272 0.0020116 -0.00015594 0.00044825 -0.0012195 -0.075294 0.27043
0.0076327 0.028815 -0.0093315 -0.0069761
0.0039959 -0.001806 0.0011528 -0.0061399 9.4181e-05 -0.0020709 0.0076785 0.028811
-0.10866 0.17964 0.0051451 0.018619
-0.0031227 -0.002054 -0.00052056 -0.0022404 0.0016483 -2.4145e-06 -0.0093355 -0.0069613
0.0051321 0.018609 -0.16558 0.24453
1040000000 -0.0064105 0.30036 0.033262 0.017692 -0.00091318 0.0067766 0.0028839 0.00059636
-3.8616e-05 -0.0037488 -0.00051913 -0.0015563
0.033241 0.017707 -0.1716 0.35784 0.02887 -0.014738 0.0014997 -0.0017134
-0.0026047 -0.0022873 -0.0015039 -0.0028187
-0.000914 0.0067819 0.028855 -0.014878 0.15995 0.29637 -0.00046809 -0.0013824
-0.0015171 -0.00085786 -0.00041953 -0.0013299
0.0028969 0.00060315 0.0014779 -0.0017457 -0.00046321 -0.0013884 -0.048019 0.28037
0.018115 0.016975 -0.0030839 0.0020141
-7.1311e-05 -0.0037436 -0.0026232 -0.0022975 -0.0015251 -0.00085374 0.018139 0.016948
-0.077902 0.18797 0.013228 0.017925
-0.0005194 -0.0015549 -0.001529 -0.0027844 -0.00041803 -0.0013378 -0.0030781 0.0020236
0.013205 0.017927 -0.14619 0.26691
1100000000 0.039229 0.30753 0.035531 -0.0044773 0.003004 0.0036186 0.0024773 -0.0014357
-0.0021689 -0.0028293 -0.0038636 0.00018092
0.035508 -0.004453 -0.12795 0.3745 0.014764 -0.027381 -1.6357e-05 -0.0017384
-0.0030899 -0.0003043 -0.0033467 -0.00042234
0.0030163 0.0036113 0.014678 -0.027473 0.206 0.27586 -0.001784 0.00020615
-0.0016602 0.00057174 -0.0010758 -0.00042887
0.0024755 -0.0014416 -2.4872e-05 -0.001747 -0.0017791 0.00020796 -0.0074563 0.28521
0.022446 0.0051959 -0.0023461 0.00097515
-0.002196 -0.0028242 -0.0030933 -0.00028962 -0.0016514 0.00057087 0.022464 0.0051601
-0.059741 0.20128 0.018809 0.0090179
-0.003861 0.00019822 -0.003357 -0.00040334 -0.0010699 -0.00042939 -0.002334 0.00097897
0.018801 0.0090157 -0.098652 0.2979
1160000000 0.090826 0.30187 0.023623 -0.020658 0.0027292 -0.00063183 -0.00015595 -0.0025816
-0.0039615 -0.00048191 -0.00099682 0.0040348
0.023642 -0.020606 -0.084244 0.37823 -0.0037348 -0.028542 -0.0017806 -0.0015783
-0.0023637 0.0025563 -0.001292 0.0015879
0.0027211 -0.0006413 -0.0038462 -0.028564 0.24876 0.24503 -0.00064991 0.0017202
-0.00040301 0.0018269 -0.0010384 0.00016491
-0.00016425 -0.002582 -0.0017962 -0.0015808 -0.00065687 0.0017282 0.031894 0.28232
0.019402 -0.009451 -0.0027372 0.0055647
-0.0039892 -0.00047427 -0.0023448 0.0025769 -0.00039289 0.0018236 0.019392 -0.0094843
-0.025874 0.21008 0.017492 0.00076461
-0.00095868 0.0040458 -0.0012919 0.0016127 -0.0010511 0.00017353 -0.0027269 0.0055746
0.017484 0.00075705 -0.05154 0.30065
1220000000 0.13516 0.28984 0.010155 -0.029666 -0.0015453 -0.00090014 -0.00011703 -0.001155
-0.0024086 0.0025228 0.0012584 0.0018238
0.010175 -0.029621 -0.040227 0.38972 -0.016528 -0.020668 -0.0024505 0.00045152
0.00025934 0.0027843 -0.00068546 0.0017347
-0.0015599 -0.00089636 -0.016627 -0.020618 0.28787 0.2062 0.00082023 0.0015694
0.00054717 0.0011824 0.00030553 0.00080404
-0.00013002 -0.0011506 -0.0024543 0.00045913 0.0008194 0.0015634 0.071494 0.2737
0.0093988 -0.015151 0.0028673 0.0016496
-0.0024088 0.0025323 0.00026879 0.002791 0.00055283 0.0011842 0.0093831 -0.01517
-0.0024874 0.21954 0.013696 -0.012266
0.0012688 0.0018218 -0.00068167 0.0017385 0.00030879 0.00080355 0.002876 0.001653
0.013692 -0.012266 -0.020446 0.31996
1280000000 0.18448 0.26705 -0.0077619 -0.028002 -0.0018612 0.0023999 -0.0011379 -0.0019519
-0.00057853 0.0029924 0.0025682 0.0010365
-0.0077347 -0.027972 0.0052505 0.38043 -0.023137 -0.0084136 -0.00098821 0.0014488
0.001574 0.0015664 0.00047026 0.002015
-0.0018507 0.0024094 -0.023195 -0.0083136 0.31873 0.16234 0.0013825 -0.00014809
0.0010099 0.00013092 0.00035805 0.00044176
-0.0011376 -0.0019372 -0.00098297 0.0014551 0.0013833 -0.0001495 0.10794 0.25748
0.00089672 -0.016988 0.00044998 1.1526e-05
-0.00056299 0.0029966 0.0015853 0.001561 0.0010186 0.00012779 0.00085389 -0.016999
0.034431 0.22306 0.0030073 -0.014148
0.0025685 0.0010255 0.00048279 0.0020078 0.00035713 0.00044666 0.00045224 1.1786e-05
0.003009 -0.014151 0.0278 0.32234
1340000000 0.22107 0.23282 -0.017317 -0.018792 0.00072851 0.0042953 -0.0019021 -0.00074931
0.0014423 0.0025121 0.0016526 -0.0014971
-0.017281 -0.018788 0.044415 0.37216 -0.021107 0.0039573 -4.6125e-05 0.0019328
0.0016787 0.00065544 0.0013555 0.00089606
0.00074421 0.0042896 -0.021112 0.0040686 0.34104 0.11428 0.00092942 -0.00084167
0.00060363 -0.00040543 0.00020836 0.00028669
-0.001909 -0.00073123 -4.1505e-05 0.0019219 0.00092454 -0.00084057 0.14072 0.23749
-0.0073115 -0.014386 0.0013139 -8.8403e-06
0.0014465 0.0025071 0.0016905 0.00064795 0.00060415 -0.00040811 -0.0073362 -0.014376
0.064829 0.2182 -0.0031096 -0.012774
0.0016373 -0.001503 0.0013668 0.00089253 0.00021155 0.00028868 0.0013134 -1.2301e-05
-0.0031068 -0.012776 0.067046 0.3192
1400000000 0.2534 0.19422 -0.022995 -0.0075887 0.0048907 0.0030486 -0.0019933 0.00071357
0.002386 0.00063917 0.00021741 -0.0013608
-0.022963 -0.0076021 0.081346 0.35913 -0.014641 0.011898 0.0013019 0.0012706
0.00097461 -0.0007656 0.0012188 0.00030514
0.0049114 0.0030313 -0.014597 0.011982 0.35432 0.0602 0.0001034 -0.0013864
1.3402e-05 -0.00039326 0.00035241 0.00017471
-0.0019882 0.00072235 0.0013155 0.0012697 0.0001124 -0.0013938 0.17064 0.20922
-0.012278 -0.0085268 -0.00068084 -0.00086254
0.0023883 0.0006235 0.00097772 -0.00076849 9.5643e-06 -0.00039364 -0.012306 -0.0085013
0.097964 0.21336 -0.0092935 -0.0081997
0.00020671 -0.0013738 0.0012245 0.00029603 0.00035292 0.00017739 -0.00068122 -0.00086363
-0.0092822 -0.0082007 0.11293 0.30907
1460000000 0.27576 0.15013 -0.020232 0.0042892 0.0053063 -0.0016147 -0.0015247 0.0017111
0.0018652 -0.00069763 -0.00028699 -0.00080878
-0.020221 0.0042666 0.11546 0.33743 -0.006358 0.014776 0.0016801 0.00015685
0.00086311 -0.0011347 0.0011956 -0.00061734
0.0052941 -0.001637 -0.0062908 0.01483 0.36013 0.0052366 -0.0010199 -0.0012284
0.00027788 -0.00011361 0.00068853 -0.00045713
-0.001523 0.0017168 0.0016838 0.00015133 -0.0010241 -0.0012309 0.19768 0.18011
-0.013135 -0.0031661 -0.0011603 0.0014939
0.0018563 -0.00070703 0.0008551 -0.0011462 0.00027392 -0.0001121 -0.013142 -0.0031303
0.12774 0.19826 -0.010806 -0.0028892
-0.00027672 -0.0008195 0.0011796 -0.00062721 0.00070909 -0.00046367 -0.001158 0.0015016
-0.010807 -0.0028967 0.14675 0.28847
1520000000 0.2876 0.1084 -0.014827 0.0099302 0.0030545 -0.0039323 0.00013603 0.0025485
0.001749 -0.0016272 -0.0011834 -0.00019113
-0.014831 0.0099167 0.14903 0.32264 0.0011089 0.012878 0.0015929 -0.00079519
0.00011331 -0.0009242 0.00031233 -0.0010485
0.0030418 -0.0039497 0.001182 0.012888 0.35279 -0.051228 -0.00094068 -0.00042293
0.00054835 -0.0007656 -5.0157e-05 -9.7199e-05
0.0001448 0.0025477 0.0015931 -0.00080865 -0.00094501 -0.0004302 0.22165 0.14192
-0.012895 0.0015609 0.0010072 0.0018112
0.0017379 -0.0016388 0.00010846 -0.00092555 0.00054491 -0.00076949 -0.012887 0.0015947
0.15589 0.18365 -0.011045 0.0010623
-0.0011898 -0.00018188 0.00030672 -0.001052 -5.0745e-05 -9.5745e-05 0.0010156 0.0018044
-0.011042 0.0010608 0.18093 0.26936
1580000000 0.29654 0.061995 -0.0083987 0.013125 -0.00087426 -0.0046159 0.0013737 0.0018043
-0.00043595 -0.0020256 -0.00038624 0.00040819
-0.0083982 0.013115 0.1764 0.29781 0.0047675 0.0083432 0.00043232 -0.0015484
-0.00041772 -0.0010569 -0.00026168 -0.000887
-0.00089775 -0.0046137 0.0048128 0.008325 0.33203 -0.10896 -0.0015421 0.00041628
-0.00022238 -0.0011285 0.00013347 -0.00054762
0.0013808 0.0017958 0.0004331 -0.00156 -0.0015416 0.0004227 0.23642 0.10189
-0.010396 0.0057975 0.0017911 0.00064936
-0.00045336 -0.002022 -0.00043117 -0.0010603 -0.00023215 -0.0011286 -0.010389 0.0058347
0.18032 0.16522 -0.0089026 0.0063046
-0.00038526 0.00041569 -0.00026674 -0.00089537 0.00012994 -0.00055245 0.0018018 0.00064355
-0.0089019 0.0063013 0.214 0.24278
1640000000 0.29825 0.020323 -0.0018307 0.012311 -0.0026032 -0.0024942 0.0025128 0.0010031
-0.0007801 -0.0011819 -0.00035645 0.00064526
-0.0018411 0.012309 0.20582 0.27254 0.0055559 0.0037549 -0.00072253 -0.0016356
-0.00098857 -0.00048932 -0.00054227 -0.00066416
-0.0026077 -0.0024816 0.0055873 0.0037254 0.30335 -0.15781 -0.00091756 0.0013436
-0.0010335 -0.00082054 -0.00012778 -0.00028685
0.00252 0.00098971 -0.0007357 -0.0016297 -0.00091602 0.0013477 0.24911 0.051877
-0.007003 0.0070722 0.0021418 -0.00068747
-0.00078759 -0.0011763 -0.00099351 -0.00048142 -0.0010345 -0.00082189 -0.0069897 0.0070917
0.20324 0.13997 -0.0045814 0.008594
-0.00035089 0.00065522 -0.00054344 -0.00065676 -0.00013053 -0.00029052 0.0021413 -0.00069825
-0.0045739 0.0085845 0.24057 0.21172
1700000000 0.29044 -0.025178 0.0017369 0.0098106 -0.0033191 0.00015607 0.0029138 -0.0010495
-0.0018093 -0.00042606 0.00063069 0.00042319
0.0017208 0.0098058 0.22395 0.24072 0.0037899 0.00093871 -0.0013846 -0.00055882
-0.00082852 1.1726e-05 -0.00092064 -0.00042533
-0.0033215 0.00016955 0.0038024 0.00092787 0.25944 -0.19769 0.00033374 0.00163
-0.0017512 -0.00024689 -0.00055127 -0.00086904
0.0029107 -0.0010546 -0.0013893 -0.00055595 0.00033046 0.0016348 0.24562 0.00076837
-0.0048282 0.0078081 0.0012874 -0.0019573
-0.0018125 -0.00041316 -0.00082549 1.4644e-05 -0.0017545 -0.00025179 -0.0048107 0.0078226
0.22092 0.11836 -0.00026246 0.0091313
0.00063669 0.0004156 -0.00092574 -0.0004117 -0.00055886 -0.00087168 0.0012905 -0.0019688
-0.00025438 0.009133 0.25788 0.17731
1760000000 0.2774 -0.073842 0.0043172 0.0066504 -0.0021614 0.00081267 0.0013771 -0.0032953
-0.0010234 0.00061461 0.00039032 -0.0005087
0.0043046 0.0066461 0.24965 0.20046 0.0017662 -0.00082293 -0.0011077 0.00017925
-0.0011345 0.00088633 -0.00061393 0.00050969
-0.0021565 0.00082824 0.0017648 -0.00083398 0.21031 -0.23034 0.0011415 0.001336
-0.0011577 0.001332 -0.0012873 -0.00042223
0.0013635 -0.0032975 -0.0011128 0.0001837 0.0011346 0.0013312 0.23517 -0.051639
-0.0020364 0.0074817 -0.00044876 -0.0020542
-0.001019 0.00062616 -0.0011333 0.00089563 -0.0011566 0.0013364 -0.0020229 0.0074884
0.23584 0.081845 0.0034099 0.0065751
0.00038878 -0.00051499 -0.00060192 0.00051872 -0.0012942 -0.00042426 -0.00045127 -0.0020546
0.0034119 0.0065641 0.27087 0.13964
1820000000 0.2519 -0.11096 0.0047586 0.0030087 1.4571e-05 0.0023294 -0.00087659 -0.0030861
-0.0008465 0.00068287 6.8507e-05 -0.00012905
0.0047514 0.0030051 0.25921 0.17014 -7.5315e-05 0.0001156 -0.0012912 0.00085803
-6.795e-05 0.0014169 -0.00052918 0.0005404
2.1176e-05 0.0023264 -7.272e-05 0.00011937 0.16055 -0.24561 0.0016329 0.00044436
-0.00033369 0.0021588 -0.0014253 0.00038446
-0.00088975 -0.0030708 -0.0012916 0.00086636 0.0016364 0.00044772 0.20381 -0.099028
-0.00060652 0.0061719 -0.0014725 -0.0013421
-0.00084784 0.00068647 -5.9365e-05 0.0014231 -0.00032319 0.0021663 -0.0005865 0.0061753
0.25212 0.050767 0.0045114 0.0033246
6.5805e-05 -0.00012541 -0.00052973 0.00054432 -0.0014285 0.00038986 -0.001483 -0.001335
0.0044971 0.0033327 0.27405 0.10363
1880000000 0.21588 -0.15055 0.0026887 0.00055584 -0.00042106 0.0020025 -0.0028476 -0.0022491
-0.00027814 0.0014051 0.0003148 -0.00063521
0.002687 0.00055528 0.26318 0.12343 -0.0020396 0.0016277 -0.00020294 0.0016409
0.00068192 0.0013321 0.00023064 0.00096439
-0.00041476 0.002013 -0.0020286 0.0016495 0.10858 -0.25507 0.0019286 -0.0010755
0.0014134 0.0019817 -0.00092673 0.0013225
-0.0028543 -0.0022288 -0.0001933 0.0016416 0.0019269 -0.00108 0.16188 -0.1385
-0.00013215 0.0046295 -0.0021064 0.00069754
-0.00026748 0.0014067 0.00069776 0.0013291 0.0014145 0.001993 -0.00012104 0.0046273
0.25375 0.015916 0.0042451 0.0014917
0.00030643 -0.00064187 0.0002438 0.00096245 -0.00091969 0.0013233 -0.0021016 0.00070403
0.0042508 0.0014872 0.27435 0.069317
1940000000 0.17603 -0.17554 0.00046562 -0.0014061 0.0013001 0.0019064 -0.003794 0.00050547
0.0011265 0.0010665 -0.00071033 -0.00061944
0.00045473 -0.0014128 0.26311 0.091681 -0.0010585 0.0038085 0.00090288 0.0013359
0.0020074 0.00048525 0.00084965 0.00024329
0.0012999 0.0018963 -0.0010366 0.0038281 0.062324 -0.24862 0.00020675 -0.0023454
0.0024275 0.00049058 0.00025517 0.0016395
-0.0037918 0.00052966 0.00091599 0.0013264 0.00020981 -0.0023533 0.10832 -0.16744
-0.0013765 0.0038184 -0.0011815 0.0015832
0.0011384 0.0010531 0.0020174 0.00047291 0.0024229 0.00048721 -0.0013632 0.0038232
0.25312 -0.024772 0.0031373 -0.0016718
-0.00071936 -0.00061196 0.0008538 0.00023838 0.00025985 0.0016287 -0.0011736 0.0015815
0.0031446 -0.0016814 0.26376 0.033757
2000000000 0.12974 -0.18913 -0.0035056 0.00039847 0.0023809 0.0015284 -0.0023029 0.0035716
0.0010238 0.00032205 -0.00069106 0.00045166
-0.0035075 0.00038723 0.2485 0.056372 -0.00083591 0.0055851 0.0016184 0.00032612
0.001463 -0.0015014 0.00052906 0.00011925
0.0023973 0.001518 -0.00079919 0.0055976 0.019058 -0.23404 -0.001539 -0.0013717
0.0020589 -0.0011718 0.0016518 0.0013462
-0.0022802 0.0035826 0.0016308 0.00031717 -0.0015363 -0.0013664 0.055037 -0.17563
-0.0029265 0.0043724 -3.6681e-05 0.0021862
0.0010201 0.00031305 0.001451 -0.001523 0.0020584 -0.0011728 -0.0029136 0.0043787
