!Keysight Technologies,M9804A,MY58100912,A.14.10.03
!Date: Thursday, April 27, 2023 10:28:33
!Correction: S11(C  6-Port  ) 
!S12(C  6-Port  ) 
!S13(C  6-Port  ) 
!S14(C  6-Port  ) 
!S15(C  6-Port  ) 
!S16(C  6-Port  ) 
!S21(C  6-Port  ) 
!S22(C  6-Port  ) 
!S23(C  6-Port  ) 
!S24(C  6-Port  ) 
!S25(C  6-Port  ) 
!S26(C  6-Port  ) 
!S31(C  6-Port  ) 
!S32(C  6-Port  ) 
!S33(C  6-Port  ) 
!S34(C  6-Port  ) 
!S35(C  6-Port  ) 
!S36(C  6-Port  ) 
!S41(C  6-Port  ) 
!S42(C  6-Port  ) 
!S43(C  6-Port  ) 
!S44(C  6-Port  ) 
!S45(C  6-Port  ) 
!S46(C  6-Port  ) 
!S51(C  6-Port  ) 
!S52(C  6-Port  ) 
!S53(C  6-Port  ) 
!S54(C  6-Port  ) 
!S55(C  6-Port  ) 
!S56(C  6-Port  ) 
!S61(C  6-Port  ) 
!S62(C  6-Port  ) 
!S63(C  6-Port  ) 
!S64(C  6-Port  ) 
!S65(C  6-Port  ) 
!S66(C  6-Port  ) 
!S6P File: Measurement: :
# Hz S  RI   R 50
500000000 -0.3368 -0.033994 -0.010088 -0.0036278 -0.008089 0.01179 -0.0036723 0.011737
0.012147 0.0046563 -0.0039614 0.0083454
-0.010055 -0.003609 -0.41912 -0.048903 0.0074594 -0.011542 0.001278 0.011881
0.0071849 0.0020574 0.00052926 0.013047
-0.008031 0.011804 0.0074406 -0.011571 -0.26468 0.21161 0.0068805 0.0032852
-0.00048811 0.0081863 0.00026967 0.012108
-0.003601 0.01174 0.0013015 0.011896 0.0068683 0.0032817 -0.32726 0.048749
-0.019995 -0.0046038 0.017718 0.026452
0.012171 0.0046187 0.0071979 0.0020453 -0.00047226 0.0081932 -0.019999 -0.0045763
-0.2276 -0.18232 -0.028408 0.0047659
-0.0039203 0.0083901 0.00056306 0.013069 0.00026305 0.012116 0.017705 0.026446
-0.028421 0.0047669 -0.2686 -0.13868
560000000 -0.31602 0.12561 -0.023799 -0.063064 0.0001706 0.012512 0.0060971 0.0096479
0.010642 0.0043121 0.0097599 0.0074675
-0.023731 -0.062944 -0.37619 0.10928 -0.041925 -0.036808 0.013648 0.0040328
-0.01354 -0.0042567 0.0041072 -0.00069258
0.00018259 0.012467 -0.042056 -0.036724 -0.18302 0.25943 -0.00049919 -0.0049009
0.0188 0.0039548 0.0075074 -0.0060982
0.0061268 0.0095788 0.013649 0.0039699 -0.00044917 -0.0048792 -0.30255 0.13611
0.0036852 -0.02464 0.0051922 -0.019403
0.010658 0.0042891 -0.013571 -0.0042219 0.018819 0.003939 0.0036591 -0.024626
-0.28629 -0.0082974 0.0074516 -0.050905
0.0097992 0.0074598 0.0041 -0.00071135 0.0075097 -0.0060912 0.0051951 -0.019391
0.0074609 -0.05091 -0.33461 0.011869
620000000 -0.27273 0.11029 -0.023295 0.007241 0.0036369 0.0084558 0.0068663 -0.0054902
0.011354 -0.00067795 0.00052984 -0.0016376
-0.023285 0.0072277 -0.40237 0.062924 -0.018993 -0.00040938 -0.0013426 -0.0020507
0.010156 -0.0073289 0.00102 -0.0028543
0.0036601 0.008413 -0.019009 -0.00035849 -0.15292 0.26759 -0.0012944 -0.0052919
-0.0041421 -0.0031559 0.0083046 -0.0034659
0.0069139 -0.0054974 -0.0013572 -0.002054 -0.0013083 -0.0052889 -0.26077 0.14668
-0.039169 -0.018656 0.014216 0.024522
0.011336 -0.00070664 0.010155 -0.0073679 -0.0041249 -0.0031663 -0.039179 -0.018612
-0.20514 -0.04714 -0.041134 0.015654
0.00052225 -0.0016306 0.0010068 -0.0028643 0.0083219 -0.0034695 0.014183 0.024541
-0.041142 0.015635 -0.25063 -0.027962
680000000 -0.23253 0.19394 -0.028023 -0.013562 0.0047715 0.0050289 0.0011527 -0.0073679
-0.0031092 -0.011169 0.0047096 -0.0071901
-0.027969 -0.013577 -0.38686 0.15978 -0.032925 -0.0012194 -0.0016395 -0.00010703
-0.0026329 -0.0090293 -0.0010273 -0.0021024
0.0047733 0.0050435 -0.032951 -0.0011435 -0.10184 0.28749 -0.00073751 0.00018809
-0.0023637 0.00087473 -0.0031493 -0.0096095
0.0011535 -0.0073939 -0.0016439 -9.9054e-05 -0.00073796 0.00018887 -0.21825 0.19552
-0.023796 -0.0080148 -0.010523 -0.010447
-0.0031334 -0.011178 -0.0026636 -0.0090393 -0.0023521 0.0008713 -0.023805 -0.0079992
-0.25265 0.051112 -0.0056804 -0.0093588
0.0046793 -0.0071962 -0.0010249 -0.0020923 -0.0031704 -0.0096215 -0.010541 -0.010461
-0.0056726 -0.0093608 -0.2634 0.080238
740000000 -0.18927 0.18889 -0.038223 0.026683 0.012586 -0.0052439 -0.0008199 -0.0040251
-0.0045653 -0.0030083 -0.0062125 0.0033572
-0.038211 0.026639 -0.33509 0.17873 -0.034994 0.03503 -0.00091114 -0.0061452
-0.011222 0.0083934 -0.0028675 -0.0064833
0.012577 -0.0052464 -0.034897 0.035141 -0.068493 0.28637 -0.0015861 0.0033328
-0.0027781 -0.0040458 -0.001089 0.00015291
-0.00083375 -0.0040142 -0.0009252 -0.0061414 -0.001599 0.0033431 -0.20205 0.20321
-0.042642 -0.0072395 0.022672 0.013404
-0.0046019 -0.002947 -0.0112 0.0084566 -0.0027834 -0.0040477 -0.042679 -0.0071864
-0.15601 0.073811 -0.0424 0.0010086
-0.006226 0.0033575 -0.0028963 -0.0064999 -0.0010963 0.00013869 0.022698 0.013409
-0.042386 0.00097739 -0.25639 0.085579
800000000 -0.15693 0.2289 -0.022401 0.017355 0.0052975 -0.010549 -0.0047448 -0.0018831
-0.0039444 0.002815 0.0044408 0.00084418
-0.022409 0.017347 -0.33731 0.2487 -0.0078067 0.034301 -0.0020613 0.0022755
-0.00067577 0.0036046 0.0011761 0.0053674
0.0052669 -0.010554 -0.0077117 0.034359 -0.027397 0.3096 0.0012346 0.0014672
0.00073205 0.0035031 -0.0018785 0.0010338
-0.0047647 -0.0018849 -0.0020573 0.0022795 0.0012321 0.0014636 -0.17409 0.2308
-0.028447 0.013139 0.013783 -0.0098932
-0.0039551 0.0028158 -0.00064961 0.003608 0.00074195 0.0035104 -0.028444 0.013201
-0.19997 0.098445 -0.017774 0.018073
0.0044308 0.00082281 0.0012041 0.005384 -0.0018784 0.0010328 0.01379 -0.0099207
-0.01778 0.01807 -0.249 0.14066
860000000 -0.12242 0.24985 -0.017113 0.031216 -0.0034032 -0.009929 -0.002506 0.0014165
0.0041752 0.0051046 -0.0031371 -0.0030416
-0.017127 0.031198 -0.28962 0.29055 0.0083815 0.03435 0.00015443 0.0021979
0.0044279 0.00037997 0.0034139 7.4169e-05
-0.0034377 -0.0099261 0.0084877 0.034349 0.021061 0.3176 -0.00033169 -0.00026746
0.0026434 -0.0016341 0.0016652 0.0044689
-0.0025054 0.0014341 0.00016836 0.0022084 -0.00033346 -0.00026728 -0.13854 0.24297
-0.017881 0.019129 -0.006125 -0.0095606
0.0042239 0.0050908 0.0044401 0.00035638 0.0026514 -0.0016297 -0.017862 0.019169
-0.15047 0.14652 -0.02463 0.015712
-0.0031584 -0.0030562 0.0034183 7.2998e-05 0.0016753 0.0044673 -0.0061311 -0.0095614
-0.024628 0.015682 -0.1975 0.18539
920000000 -0.096804 0.27294 0.0053973 0.037834 -0.0095114 -0.0042985 -0.0016702 0.0022936
0.0014046 0.0015939 0.0025361 -0.0015058
0.0053806 0.037789 -0.26039 0.31147 0.02835 0.021676 0.0016333 0.0010098
0.0069457 -0.00076557 0.003908 -0.0030608
-0.0095326 -0.0042739 0.028448 0.02161 0.067707 0.31805 0.0017605 -0.00018959
0.0012779 -0.00044673 0.00076202 -0.0011614
-0.0016791 0.0023026 0.0016413 0.0010114 0.0017621 -0.00018155 -0.11421 0.2593
-0.010107 0.030382 0.0028822 -0.006794
0.0014193 0.0015845 0.0069548 -0.00078001 0.0012801 -0.00044819 -0.010044 0.030417
-0.14018 0.15278 -0.0014777 0.027945
0.0025469 -0.0015279 0.0038966 -0.0030868 0.00076261 -0.0011636 0.002883 -0.0068068
-0.0014925 0.027933 -0.20724 0.19885
980000000 -0.049262 0.29236 0.018054 0.029899 -0.0088914 0.0047153 0.0024816 0.0036325
0.0039331 -0.0016785 -0.0030282 -0.0020595
0.018042 0.029878 -0.20761 0.34501 0.033232 0.0043872 0.0019947 -0.00015116
0.0010439 -0.0060955 -0.00043209 -0.002246
-0.008874 0.0047326 0.033266 0.0042969 0.11419 0.31115 0.00042445 -0.0012228
-4.8201e-05 -0.0021673 0.0015425 1.6155e-05
0.0024914 0.0036252 0.0020005 -0.00013723 0.00042071 -0.0012243 -0.075821 0.27089
0.007854 0.029018 -0.0094488 -0.0068068
0.0039398 -0.0016942 0.0010046 -0.0061013 -4.8718e-05 -0.0021659 0.0079117 0.029018
-0.1081 0.17988 0.0052288 0.019001
-0.0030253 -0.0020353 -0.0004531 -0.0022378 0.0015492 1.0902e-05 -0.0094578 -0.0067845
0.0052125 0.018986 -0.16404 0.24601
1040000000 -0.0063095 0.30032 0.033599 0.017597 -0.0011281 0.006943 0.0028177 0.00066186
-8.5194e-05 -0.003591 -0.00054575 -0.0015288
0.03357 0.017578 -0.17192 0.35816 0.029148 -0.015278 0.0014174 -0.0017505
-0.0026913 -0.0023857 -0.0014843 -0.0027835
-0.0011132 0.0069303 0.029136 -0.015377 0.16062 0.29716 -0.000565 -0.001397
-0.0015773 -0.00079057 -0.00038608 -0.0012291
0.0028157 0.00063765 0.0014369 -0.0017466 -0.00056969 -0.0013964 -0.048 0.28108
0.019025 0.01706 -0.0031304 0.0019777
-8.3746e-05 -0.0035899 -0.0027227 -0.0023591 -0.0015729 -0.00078875 0.019083 0.017026
-0.077093 0.18825 0.013902 0.017876
-0.00054621 -0.0015356 -0.0015097 -0.0027505 -0.00038509 -0.0012258 -0.0031211 0.0019842
0.013892 0.017877 -0.14429 0.268
1100000000 0.039246 0.30741 0.03584 -0.0049158 0.0030123 0.0037987 0.0024741 -0.0014667
-0.0021095 -0.0030259 -0.0040038 0.00012927
0.035815 -0.0048938 -0.12836 0.37514 0.014731 -0.028098 -7.3734e-05 -0.001809
-0.0032208 -0.00035185 -0.003498 -0.00041369
0.0030266 0.0037871 0.014644 -0.028174 0.20722 0.27628 -0.0018142 0.00029853
-0.001694 0.00069888 -0.0010421 -0.00038727
0.0024676 -0.0014741 -6.9758e-05 -0.0018081 -0.0018125 0.00029604 -0.0071422 0.28592
0.023454 0.0045159 -0.002497 0.00085077
-0.0021209 -0.0030195 -0.0032292 -0.00033078 -0.0016928 0.00070276 0.023484 0.0044678
-0.058925 0.20103 0.019229 0.0083381
-0.0039925 0.00014371 -0.0035143 -0.00039093 -0.0010428 -0.00038385 -0.0024951 0.00085161
0.01922 0.0083373 -0.097271 0.29864
1160000000 0.090808 0.30204 0.023631 -0.021287 0.0027316 -0.00052489 -0.00018606 -0.0025257
-0.0040563 -0.00051265 -0.0010818 0.0040993
0.023638 -0.02127 -0.084225 0.37936 -0.0042472 -0.029043 -0.0018187 -0.00159
-0.0023142 0.0026756 -0.0013542 0.0016903
0.0027373 -0.00054254 -0.0043678 -0.029036 0.25024 0.24474 -0.00056664 0.0017963
-0.0003567 0.0018521 -0.0011142 0.00013877
-0.00019414 -0.0025368 -0.0018163 -0.0015717 -0.000563 0.001794 0.0325 0.28288
0.019653 -0.010607 -0.0028723 0.0055549
-0.0040614 -0.00049565 -0.0023195 0.0027102 -0.00035497 0.0018577 0.019651 -0.010635
-0.025934 0.21039 0.017931 0.00042657
-0.0010458 0.0040978 -0.0013474 0.0017065 -0.0011158 0.00013987 -0.0028613 0.0055524
0.017932 0.00041864 -0.04986 0.30194
1220000000 0.13536 0.29014 0.0098066 -0.030262 -0.001599 -0.00087933 -0.00014651 -0.001113
-0.0025428 0.0025565 0.0013205 0.0019008
0.009826 -0.030233 -0.039595 0.39083 -0.017239 -0.020789 -0.0024911 0.00052689
0.00035952 0.0029083 -0.0006485 0.0018112
-0.0015926 -0.00087516 -0.017352 -0.020725 0.28908 0.20499 0.00093418 0.0015892
0.00060319 0.0011483 0.00024014 0.00072951
-0.00014708 -0.0011132 -0.0024851 0.00054436 0.0009355 0.0015978 0.072495 0.27399
0.0091067 -0.016401 0.0027023 0.0017716
-0.0025278 0.0025722 0.00036957 0.0029135 0.0006045 0.0011569 0.0090874 -0.01641
-0.0023205 0.21996 0.013674 -0.012964
0.00133 0.0018991 -0.00064993 0.0018205 0.00024181 0.00073714 0.0027046 0.0017676
0.013674 -0.012962 -0.01848 0.3207
1280000000 0.18493 0.26739 -0.0085003 -0.028395 -0.0018524 0.0025645 -0.0011113 -0.0019321
-0.00061384 0.0031384 0.0026292 0.0009822
-0.008478 -0.02838 0.006598 0.38129 -0.023813 -0.0080143 -0.00088937 0.0015374
0.0017074 0.001536 0.00058106 0.002006
-0.0018449 0.002579 -0.023873 -0.0079144 0.31913 0.16068 0.001392 -0.00026291
0.0010193 6.3806e-05 0.00032341 0.00043187
-0.0011114 -0.0019338 -0.00088781 0.0015364 0.0013919 -0.00026218 0.10897 0.2574
-0.0002345 -0.017875 0.0003716 0.00016718
-0.00059289 0.0031492 0.0017197 0.0015277 0.0010165 6.3414e-05 -0.00027507 -0.017882
0.034698 0.22379 0.0026991 -0.014875
0.0026273 0.00098675 0.0006033 0.0020031 0.00032425 0.00043276 0.00037059 0.0001685
0.0027052 -0.014867 0.029789 0.32276
1340000000 0.22184 0.23285 -0.018152 -0.018566 0.00089097 0.0043988 -0.0019344 -0.00072996
0.0015253 0.0025991 0.0016339 -0.0015655
-0.01811 -0.018564 0.046005 0.37218 -0.021372 0.0046048 3.07e-05 0.0019114
0.0017359 0.00052591 0.0013984 0.00088443
0.00091387 0.0044028 -0.021367 0.0047051 0.34043 0.11271 0.00089181 -0.00092554
0.00055524 -0.00040995 0.00018708 0.00035262
-0.00194 -0.00072132 3.4779e-05 0.0019087 0.00089114 -0.00092295 0.1417 0.23688
-0.0087258 -0.014461 0.0012734 0.00018211
0.0015384 0.0025912 0.0017529 0.00051969 0.00055718 -0.00041472 -0.0087625 -0.014449
0.065585 0.21911 -0.0038692 -0.013275
0.0016211 -0.0015767 0.0014114 0.00087713 0.00018904 0.00035314 0.0012679 0.0001822
-0.0038739 -0.013279 0.069204 0.31927
1400000000 0.25426 0.19385 -0.023587 -0.0069418 0.0051411 0.0030837 -0.0019845 0.0007646
0.0025248 0.00066932 0.00017303 -0.0013203
-0.023565 -0.0069458 0.082824 0.35847 -0.01447 0.012539 0.0013603 0.0011633
0.00091024 -0.00089505 0.0012254 0.00024885
0.0051471 0.0030626 -0.014419 0.012623 0.35314 0.059398 1.8403e-05 -0.001473
5.1679e-05 -0.00039396 0.00038642 0.00029726
-0.0019851 0.00077752 0.0013633 0.001158 1.4489e-05 -0.0014717 0.17125 0.20817
-0.013663 -0.0078224 -0.00060192 -0.00067132
0.0025266 0.0006479 0.00091565 -0.000904 5.6168e-05 -0.00039489 -0.013682 -0.0077991
0.099013 0.21398 -0.010163 -0.0081911
0.00017371 -0.0013283 0.0012267 0.00023875 0.00039057 0.00029232 -0.00060322 -0.00066615
-0.010151 -0.0081995 0.11509 0.30881
1460000000 0.27643 0.1493 -0.02033 0.0051999 0.0055093 -0.0018333 -0.0014874 0.0017404
0.0019956 -0.00081272 -0.00032976 -0.00079156
-0.020319 0.0051849 0.11646 0.33613 -0.0057931 0.015139 0.0016463 9.5328e-05
0.0007225 -0.0011623 0.0011658 -0.00065353
0.0055021 -0.0018504 -0.0057226 0.015181 0.3589 0.0051821 -0.0011677 -0.0011309
0.0002605 -0.00011032 0.00073789 -0.00051166
-0.001477 0.001748 0.0016421 9.2636e-05 -0.0011771 -0.0011253 0.19786 0.17904
-0.013835 -0.0016661 -0.00097262 0.0016292
0.0019958 -0.00082489 0.00072072 -0.0011709 0.00026436 -0.00011292 -0.013849 -0.0016332
0.12915 0.19873 -0.011617 -0.0024363
-0.00032934 -0.00078248 0.0011541 -0.00066831 0.00073999 -0.00051455 -0.0009829 0.0016316
-0.011615 -0.0024415 0.14862 0.2878
1520000000 0.2878 0.10736 -0.014451 0.010734 0.0030711 -0.0041828 0.00021739 0.0025512
0.0017405 -0.0017892 -0.0011573 -0.00012172
-0.014443 0.010708 0.14936 0.32121 0.0016692 0.012876 0.0015501 -0.00081217
3.3535e-05 -0.00083491 0.00027837 -0.0010599
0.0030514 -0.0041937 0.001742 0.012876 0.35196 -0.050781 -0.00091001 -0.00031998
0.00054864 -0.0008596 1.1588e-05 -0.00013913
0.00022968 0.0025554 0.0015487 -0.00082235 -0.00090664 -0.00032403 0.22132 0.14082
-0.01258 0.0031944 0.001209 0.0018195
0.0017311 -0.001806 3.1663e-05 -0.00084 0.00055244 -0.00085795 -0.012577 0.0032338
0.15759 0.18357 -0.011461 0.0019005
-0.0011576 -0.00012074 0.00027441 -0.0010644 1.1508e-05 -0.00013896 0.0012199 0.0018107
-0.011459 0.0018915 0.18252 0.26839
1580000000 0.29627 0.060931 -0.00762 0.013594 -0.0010006 -0.0047588 0.001418 0.0017805
-0.00058119 -0.0020832 -0.00031836 0.00037412
-0.0076171 0.013574 0.17609 0.2964 0.0051744 0.0080572 0.00041556 -0.001528
-0.00039008 -0.00092031 -0.00029084 -0.00086541
-0.0010248 -0.0047575 0.005221 0.0080389 0.3317 -0.10839 -0.001464 0.00044234
-0.00031472 -0.0011675 0.00017638 -0.00055522
0.0014234 0.0017773 0.00040987 -0.0015363 -0.0014608 0.00043985 0.2356 0.101
-0.0091295 0.0069259 0.0019565 0.00056396
-0.00059745 -0.0020851 -0.00040357 -0.00092743 -0.00032191 -0.0011693 -0.0091171 0.0069548
0.18206 0.16457 -0.0088386 0.0072007
-0.00032063 0.00038033 -0.00029016 -0.00086757 0.00017235 -0.00055587 0.0019598 0.00056116
-0.008841 0.0071966 0.21526 0.24182
1640000000 0.29745 0.019695 -0.00094934 0.012213 -0.002779 -0.0025606 0.0025412 0.00096192
-0.0009395 -0.0011263 -0.00031811 0.00058833
-0.00095164 0.012205 0.20504 0.2715 0.005718 0.0033851 -0.00075163 -0.0016048
-0.00086941 -0.00044215 -0.00052932 -0.00063006
-0.0027936 -0.0025454 0.005741 0.0033473 0.30331 -0.15711 -0.00084511 0.0012848
-0.0010419 -0.00078606 -0.00012114 -0.00033858
0.0025505 0.00095394 -0.0007632 -0.0016055 -0.00084878 0.0012953 0.2479 0.051522
-0.0053843 0.0071922 0.0022533 -0.00083441
-0.00094833 -0.0011142 -0.00087753 -0.00044177 -0.0010519 -0.00079174 -0.0053661 0.0072086
0.20481 0.13867 -0.0040309 0.0092789
-0.000316 0.00059677 -0.00053782 -0.00062252 -0.00012215 -0.00033776 0.0022532 -0.00084638
-0.0040377 0.0092765 0.24187 0.21072
1700000000 0.28957 -0.025443 0.0024165 0.0092616 -0.0035024 0.00023881 0.00291 -0.0011493
-0.001831 -0.00027981 0.00056509 0.00038224
0.0023994 0.0092584 0.2228 0.2402 0.0037484 0.0005593 -0.0013692 -0.00053264
-0.00073628 -5.8387e-05 -0.00092922 -0.00040427
-0.0035039 0.0002628 0.003758 0.00053531 0.26005 -0.19708 0.00031578 0.001555
-0.0017782 -0.00019583 -0.00055022 -0.00092348
0.0029104 -0.0011637 -0.0013797 -0.00053198 0.00030708 0.0015534 0.24436 0.0010852
-0.0035573 0.0070283 0.0013349 -0.0021121
-0.0018397 -0.00026592 -0.00073586 -5.3132e-05 -0.0017708 -0.00019536 -0.0035459 0.0070371
0.2219 0.11656 0.00046837 0.0094344
0.00057104 0.00038324 -0.00093208 -0.00039201 -0.00055692 -0.00092489 0.0013316 -0.0021253
0.00046947 0.0094442 0.25909 0.17628
1760000000 0.27653 -0.073538 0.0044471 0.0058635 -0.0022635 0.00085609 0.0012696 -0.0033167
-0.00093613 0.0007374 0.00037242 -0.00045886
0.0044482 0.0058609 0.2485 0.20053 0.0015167 -0.0012097 -0.0011054 0.00019762
-0.0011332 0.00076174 -0.00058774 0.00052897
-0.0022594 0.00086554 0.0015153 -0.0012079 0.2113 -0.23069 0.0010696 0.0012984
-0.0010904 0.0013158 -0.0014575 -0.00040889
0.0012572 -0.0033184 -0.0011026 0.00020094 0.001059 0.0013073 0.23439 -0.050641
-0.0015411 0.0062459 -0.00052695 -0.0022946
-0.00094101 0.00074362 -0.001124 0.00077799 -0.0010904 0.0013118 -0.00152 0.0062577
0.23613 0.079849 0.0041887 0.0064518
0.00037056 -0.00046355 -0.00058138 0.00053737 -0.001472 -0.00040625 -0.00051598 -0.0023017
0.004185 0.0064438 0.27207 0.13843
1820000000 0.25146 -0.11022 0.0044708 0.0023986 2.6308e-05 0.0024697 -0.00092981 -0.0030416
-0.00070868 0.00066875 3.9588e-05 -0.00011324
0.0044682 0.0023933 0.25832 0.17074 -0.00033754 0.00013361 -0.0012711 0.00085471
-0.00018065 0.0013468 -0.0005413 0.00052823
3.2205e-05 0.0024743 -0.00033421 0.00013871 0.16099 -0.24572 0.0016028 0.00049707
-0.00032426 0.002236 -0.0016151 0.00046671
-0.00094048 -0.0030317 -0.0012677 0.00086911 0.0016025 0.00049992 0.20358 -0.097786
-0.00090146 0.0050417 -0.0017005 -0.001478
-0.00070856 0.00067299 -0.00016853 0.0013494 -0.00031051 0.0022328 -0.0008818 0.0050291
0.25163 0.048853 0.0050276 0.0029252
3.7104e-05 -0.00010792 -0.00053641 0.00053386 -0.0016115 0.00046891 -0.0017074 -0.0014678
0.00503 0.0029214 0.27497 0.10228
1880000000 0.21597 -0.14975 0.0021822 0.00030914 -0.00032349 0.0022328 -0.0028167 -0.0021675
-0.000168 0.0013269 0.00039317 -0.00054481
0.0021827 0.00030661 0.26273 0.12436 -0.0022911 0.0017279 -0.00015619 0.0016474
0.00058912 0.0014048 0.00023324 0.0010305
-0.00031796 0.0022405 -0.0022911 0.0017446 0.10859 -0.25568 0.0019578 -0.0010162
0.0014313 0.0020295 -0.00095703 0.0015453
-0.0028268 -0.0021614 -0.00014903 0.0016439 0.0019568 -0.0010169 0.16249 -0.13717
-0.00085851 0.0040643 -0.0023895 0.00070735
-0.00016122 0.0013274 0.00059818 0.0014018 0.0014344 0.0020157 -0.00084846 0.0040713
0.25263 0.014599 0.0045193 0.00094443
0.00038958 -0.00054711 0.00024439 0.0010338 -0.00094813 0.0015447 -0.0023895 0.00071777
0.0045205 0.00094428 0.27514 0.067912
1940000000 0.17666 -0.17499 1.9366e-05 -0.00134 0.0014167 0.0018875 -0.0037644 0.00060116
0.0010732 0.0009524 -0.00067027 -0.00071218
2.401e-05 -0.001328 0.26312 0.092705 -0.0011764 0.0040014 0.00095889 0.0013061
0.0020012 0.000609 0.00090218 0.0002354
0.0014221 0.001879 -0.0011529 0.0040116 0.06253 -0.24906 0.00035689 -0.0024063
0.0024954 0.00046334 0.00045026 0.0017615
-0.0037583 0.00061787 0.00096928 0.0012964 0.00037277 -0.002408 0.10976 -0.16675
-0.0020688 0.0038247 -0.0013551 0.0017752
0.0010873 0.00094235 0.0019996 0.00058735 0.0024933 0.000462 -0.0020515 0.0038283
0.25178 -0.025454 0.0032177 -0.0022806
-0.00067529 -0.0007091 0.00090663 0.00023592 0.00045054 0.0017614 -0.0013431 0.0017807
0.0032189 -0.002287 0.26449 0.032104
2000000000 0.13048 -0.18902 -0.0036911 0.00062072 0.0025462 0.0014387 -0.0022164 0.0035861
0.00092559 0.00033968 -0.00076988 0.00046169
-0.0036956 0.00061771 0.24908 0.057246 -0.00077902 0.0057429 0.0016589 0.00033233
0.0015363 -0.0014025 0.000487 -3.2002e-06
0.0025641 0.0014035 -0.0007343 0.00575 0.018952 -0.2346 -0.0015367 -0.0014657
0.0020732 -0.0012204 0.0017106 0.0012733
-0.0022024 0.0035982 0.0016583 0.00032654 -0.001536 -0.0014676 0.056685 -0.17592
-0.003271 0.0046167 4.4817e-05 0.0023354
0.0009271 0.00033413 0.0015291 -0.0014291 0.0020785 -0.0012218 -0.003255 0.0046285
0.2429 -0.059915 -0.00019419 -0.0029655
