!Keysight Technologies,M9804A,MY58100912,A.14.10.03
!Date: Thursday, April 27, 2023 10:28:33
!Correction: S11(C  6-Port  ) 
!S12(C  6-Port  ) 
!S13(C  6-Port  ) 
!S14(C  6-Port  ) 
!S15(C  6-Port  ) 
!S16(C  6-Port  ) 
!S21(C  6-Port  ) 
!S22(C  6-Port  ) 
!S23(C  6-Port  ) 
!S24(C  6-Port  ) 
!S25(C  6-Port  ) 
!S26(C  6-Port  ) 
!S31(C  6-Port  ) 
!S32(C  6-Port  ) 
!S33(C  6-Port  ) 
!S34(C  6-Port  ) 
!S35(C  6-Port  ) 
!S36(C  6-Port  ) 
!S41(C  6-Port  ) 
!S42(C  6-Port  ) 
!S43(C  6-Port  ) 
!S44(C  6-Port  ) 
!S45(C  6-Port  ) 
!S46(C  6-Port  ) 
!S51(C  6-Port  ) 
!S52(C  6-Port  ) 
!S53(C  6-Port  ) 
!S54(C  6-Port  ) 
!S55(C  6-Port  ) 
!S56(C  6-Port  ) 
!S61(C  6-Port  ) 
!S62(C  6-Port  ) 
!S63(C  6-Port  ) 
!S64(C  6-Port  ) 
!S65(C  6-Port  ) 
!S66(C  6-Port  ) 
!S6P File: Measurement: :
# Hz S  RI   R 50
500000000 -0.33689 -0.034052 -0.01002 -0.0036354 -0.0080361 0.011735 -0.0036582 0.011652
0.012244 0.0044802 -0.0038445 0.0083125
-0.010009 -0.0036258 -0.41903 -0.049017 0.007472 -0.011565 0.0013067 0.011868
0.0071917 0.0021923 0.00052799 0.013089
-0.0080135 0.011749 0.0074547 -0.011588 -0.26477 0.2115 0.0068428 0.0033215
-0.00034646 0.0082861 0.00018711 0.012059
-0.0036369 0.011662 0.0013256 0.011873 0.0068514 0.0033214 -0.32721 0.048664
-0.019917 -0.0045248 0.017749 0.026504
0.012253 0.0044375 0.0072027 0.0021767 -0.00034337 0.0082726 -0.019916 -0.004519
-0.22785 -0.18229 -0.028565 0.0049568
-0.0038367 0.008329 0.00055527 0.013107 0.00020281 0.012058 0.017748 0.026505
-0.028558 0.0049522 -0.26855 -0.13917
560000000 -0.31588 0.12539 -0.023869 -0.063136 0.00023517 0.012593 0.0062589 0.0097398
0.010735 0.0043118 0.0097588 0.007346
-0.023842 -0.06306 -0.37632 0.10919 -0.041933 -0.036756 0.013604 0.0039917
-0.013604 -0.0041828 0.0041424 -0.00065402
0.00025908 0.012601 -0.042061 -0.036712 -0.18294 0.25934 -0.00043492 -0.0050165
0.018789 0.0039462 0.0075536 -0.0058785
0.0062647 0.0097408 0.013628 0.0039436 -0.00043702 -0.0050194 -0.30261 0.13621
0.003627 -0.024591 0.0051404 -0.01953
0.010758 0.0042821 -0.013637 -0.0041546 0.01879 0.0039337 0.0036105 -0.024592
-0.28627 -0.0084732 0.0075976 -0.051
0.0097798 0.0073553 0.0041338 -0.00068331 0.0075541 -0.0058906 0.0051458 -0.019531
0.0076216 -0.051014 -0.3347 0.011469
620000000 -0.27278 0.11012 -0.023325 0.0072623 0.0035429 0.0084443 0.0069052 -0.0054815
0.011242 -0.00052473 0.00048841 -0.0018556
-0.02331 0.0072623 -0.40234 0.06282 -0.018991 -0.00041005 -0.0013421 -0.0020081
0.010155 -0.0073549 0.0010125 -0.0028216
0.0035584 0.0084516 -0.01901 -0.0003649 -0.15291 0.26757 -0.0013196 -0.0051876
-0.0041687 -0.0032463 0.0082809 -0.0034231
0.0069068 -0.0054946 -0.0013422 -0.0020037 -0.0013103 -0.0051699 -0.26101 0.14665
-0.038818 -0.018688 0.014211 0.024655
0.011249 -0.00053991 0.010139 -0.0074081 -0.0041661 -0.0032545 -0.038826 -0.01866
-0.20551 -0.047162 -0.041276 0.015551
0.00049 -0.0018639 0.0010074 -0.0028317 0.0082853 -0.0034267 0.014192 0.024655
-0.041271 0.015523 -0.25061 -0.029088
680000000 -0.23257 0.19397 -0.027991 -0.01361 0.0047508 0.0050702 0.0011553 -0.0074234
-0.0031388 -0.011096 0.0047496 -0.0071433
-0.027965 -0.013624 -0.38683 0.1597 -0.032906 -0.0012263 -0.0016224 -7.4324e-05
-0.0026393 -0.0090558 -0.0009979 -0.0021399
0.0047631 0.0050629 -0.032945 -0.0011383 -0.10185 0.28748 -0.00072455 0.00018705
-0.0023811 0.00093147 -0.0030834 -0.0096302
0.0011512 -0.007434 -0.0016257 -6.5849e-05 -0.00072262 0.00018078 -0.21816 0.19553
-0.023705 -0.0081167 -0.010586 -0.010569
-0.0031758 -0.011081 -0.0026579 -0.0090678 -0.0023762 0.00092772 -0.023712 -0.0080897
-0.25276 0.050913 -0.0056803 -0.0093429
0.0047336 -0.0071659 -0.0010132 -0.002138 -0.0030784 -0.0096262 -0.010604 -0.010556
-0.0056684 -0.0093495 -0.26361 0.079651
740000000 -0.18939 0.18876 -0.038225 0.026731 0.012565 -0.005196 -0.00081163 -0.004041
-0.0046525 -0.0030171 -0.0062171 0.0033914
-0.038219 0.026686 -0.33507 0.17869 -0.035023 0.03503 -0.00085081 -0.0061656
-0.011227 0.0084558 -0.002897 -0.0066745
0.012573 -0.0052397 -0.034956 0.035165 -0.068559 0.2863 -0.0015283 0.0033683
-0.0028143 -0.004019 -0.00096981 0.00013874
-0.00082491 -0.0040492 -0.00087644 -0.0061648 -0.0015355 0.0033655 -0.20206 0.20313
-0.042654 -0.0073015 0.022609 0.013388
-0.0046603 -0.0029712 -0.011208 0.0085028 -0.0027998 -0.004018 -0.042669 -0.007245
-0.1558 0.073699 -0.042296 0.00095571
-0.0062391 0.0033984 -0.0029189 -0.00667 -0.00097808 0.00014466 0.022623 0.013382
-0.042271 0.00095861 -0.25653 0.085344
800000000 -0.15697 0.22878 -0.022415 0.017333 0.0052831 -0.010549 -0.0047713 -0.0018942
-0.0040135 0.0028157 0.0044412 0.00087592
-0.022403 0.017313 -0.33737 0.24863 -0.007852 0.034305 -0.0020515 0.0022539
-0.00070583 0.0035887 0.0012213 0.0053439
0.0052651 -0.010552 -0.0077626 0.034355 -0.027478 0.30956 0.0012376 0.001467
0.00070665 0.0034807 -0.0018942 0.001051
-0.0047712 -0.001888 -0.0020596 0.0022623 0.0012402 0.0014687 -0.17409 0.23072
-0.028466 0.013084 0.013808 -0.0099084
-0.0040187 0.002834 -0.00069062 0.0036092 0.00071665 0.0034807 -0.028462 0.013144
-0.2 0.098355 -0.017795 0.018039
0.0044469 0.00084541 0.0012322 0.0053478 -0.0018881 0.0010555 0.013813 -0.0099425
-0.017816 0.018023 -0.24917 0.14025
860000000 -0.12253 0.24974 -0.017127 0.031239 -0.0034382 -0.0099327 -0.0025189 0.00142
0.0042354 0.0050736 -0.0031948 -0.003063
-0.017127 0.031217 -0.28971 0.29049 0.008351 0.034362 0.00019327 0.0022203
0.0044442 0.00040187 0.0034054 4.937e-05
-0.0034604 -0.0099248 0.0084654 0.034356 0.020993 0.31758 -0.00033785 -0.00027093
0.0026497 -0.0015846 0.0016832 0.004426
-0.0025067 0.0014301 0.00019712 0.0022122 -0.00033804 -0.0002726 -0.13858 0.24286
-0.017889 0.019096 -0.0061501 -0.0095811
0.0042553 0.0050635 0.0044505 0.00039159 0.00266 -0.0015986 -0.017875 0.019113
-0.15066 0.14632 -0.024573 0.015715
-0.0032056 -0.00306 0.0034006 3.8666e-05 0.0016911 0.0044249 -0.0061627 -0.0095696
-0.02458 0.015695 -0.19764 0.18509
920000000 -0.096854 0.2729 0.0054096 0.037838 -0.0095044 -0.0043089 -0.0016757 0.0023015
0.0014138 0.0015439 0.0025342 -0.0016178
0.0053967 0.037809 -0.26045 0.31142 0.028354 0.021705 0.0016598 0.0010312
0.0069641 -0.00076365 0.0039239 -0.0030493
-0.0095121 -0.0042776 0.028452 0.02162 0.067634 0.31801 0.0017677 -0.00019245
0.0012741 -0.00045389 0.00073626 -0.0011455
-0.0016734 0.0023076 0.0016552 0.001023 0.0017725 -0.00018729 -0.11427 0.25922
-0.010127 0.030391 0.0029261 -0.0068131
0.0014118 0.0015304 0.0069646 -0.0007811 0.0012752 -0.00046215 -0.010082 0.030425
-0.14027 0.1527 -0.0015364 0.02801
0.0025419 -0.0016177 0.0039098 -0.003084 0.00074102 -0.0011507 0.0029161 -0.0068223
-0.0015563 0.02801 -0.20745 0.19864
980000000 -0.049382 0.2923 0.018043 0.029913 -0.008884 0.004717 0.0024747 0.0036232
0.0039634 -0.0016844 -0.0029893 -0.0020723
0.018031 0.029911 -0.20769 0.34494 0.033219 0.0044413 0.0020121 -0.00011691
0.0010567 -0.0060976 -0.00043791 -0.0022138
-0.0088749 0.0047518 0.03327 0.0043127 0.11411 0.31115 0.00041746 -0.0012269
-2.6089e-05 -0.0021757 0.0015552 1.5057e-06
0.0024906 0.0036357 0.0020077 -0.00013304 0.00041534 -0.001234 -0.075884 0.27085
0.0078426 0.029004 -0.0094507 -0.006831
0.0039592 -0.001699 0.0010133 -0.0061005 -3.0293e-05 -0.0021798 0.007891 0.029004
-0.10817 0.17976 0.0052759 0.018918
-0.0029997 -0.0020514 -0.00046062 -0.0022267 0.0015621 -7.7359e-07 -0.0094691 -0.0068099
0.0052607 0.018921 -0.1642 0.2458
1040000000 -0.0064312 0.30031 0.0336 0.01763 -0.0011491 0.006918 0.0027912 0.00064197
-9.5595e-05 -0.0036149 -0.000524 -0.0015674
0.033571 0.017628 -0.17205 0.35817 0.029179 -0.015227 0.0014652 -0.0017322
-0.0026706 -0.0024183 -0.0014378 -0.0027795
-0.0011305 0.0069389 0.029135 -0.015382 0.16058 0.29715 -0.00055007 -0.0013929
-0.0015673 -0.00078518 -0.00039611 -0.001235
0.0027951 0.00064757 0.0014435 -0.0017565 -0.00055591 -0.0013854 -0.04806 0.28104
0.018994 0.017094 -0.0031631 0.0019659
-0.00010813 -0.0036121 -0.0027021 -0.0023835 -0.0015742 -0.000792 0.019029 0.017065
-0.07718 0.18813 0.013868 0.017909
-0.00053187 -0.001556 -0.001479 -0.002776 -0.00039902 -0.0012391 -0.0031582 0.0019679
0.013859 0.017912 -0.14452 0.26787
1100000000 0.039135 0.30741 0.035855 -0.004897 0.003014 0.0037806 0.0024751 -0.0014752
-0.0020983 -0.003072 -0.0040319 0.00014172
0.035828 -0.0048714 -0.12846 0.37509 0.014762 -0.028075 -5.0703e-05 -0.0018127
-0.00322 -0.00037906 -0.0035345 -0.00038942
0.0030241 0.0037808 0.014663 -0.028167 0.20711 0.27632 -0.0018141 0.00031738
-0.0017062 0.00071585 -0.0010389 -0.00040533
0.0024783 -0.0014822 -6.474e-05 -0.001817 -0.0018136 0.00030956 -0.0071999 0.28587
0.023492 0.0045442 -0.0024688 0.00084742
-0.0021129 -0.0030595 -0.0032289 -0.0003589 -0.0017021 0.0007154 0.023504 0.0045103
-0.059071 0.20101 0.01926 0.0083402
-0.0040363 0.00016039 -0.0035466 -0.00037598 -0.0010438 -0.0004104 -0.0024706 0.00085317
0.019254 0.0083521 -0.097591 0.29852
1160000000 0.090702 0.30208 0.023681 -0.021288 0.0027515 -0.0005373 -0.00018736 -0.0025451
-0.0040522 -0.00052969 -0.001071 0.0040319
0.023681 -0.021261 -0.084325 0.37934 -0.0042188 -0.029023 -0.0017965 -0.0015851
-0.0023068 0.0026798 -0.0013433 0.0017089
0.0027454 -0.0005456 -0.0043557 -0.029048 0.2502 0.24478 -0.00057295 0.0017981
-0.00035174 0.0018348 -0.0011085 0.00012618
-0.00020269 -0.0025398 -0.001814 -0.0015933 -0.00057537 0.0018022 0.032462 0.28288
0.019677 -0.010583 -0.0028934 0.0055394
-0.0040566 -0.00049718 -0.0023084 0.0026997 -0.00035321 0.0018355 0.019666 -0.01062
-0.026073 0.21031 0.017936 0.00040191
-0.001052 0.0040494 -0.0013415 0.0017103 -0.0011174 0.00012281 -0.002887 0.0055576
0.017935 0.00040488 -0.050292 0.3018
1220000000 0.13524 0.29019 0.0098394 -0.030286 -0.0016042 -0.00089024 -0.00013259 -0.0011173
-0.0025498 0.002549 0.0013176 0.0019256
0.0098558 -0.030252 -0.03971 0.3908 -0.01725 -0.020795 -0.0024835 0.00053182
0.00035723 0.0029095 -0.00067938 0.0018269
-0.0016062 -0.00088698 -0.017356 -0.020742 0.28901 0.20498 0.00094925 0.001593
0.00062649 0.0011622 0.00024939 0.00078123
-0.00013387 -0.0011072 -0.0024841 0.00054969 0.00094424 0.0015938 0.072421 0.27399
0.0091314 -0.016378 0.0027002 0.0017637
-0.0025425 0.0025662 0.00036899 0.0029005 0.00063422 0.0011646 0.0091109 -0.016401
-0.0025004 0.21992 0.01368 -0.012992
0.0013243 0.0019216 -0.00067039 0.0018329 0.00024595 0.00078574 0.0027014 0.0017652
0.013677 -0.012988 -0.018781 0.32065
1280000000 0.18484 0.26745 -0.0084863 -0.02841 -0.0018617 0.0025591 -0.0011092 -0.0019392
-0.00061889 0.0031328 0.0026399 0.0010076
-0.0084608 -0.028387 0.0064552 0.38129 -0.023816 -0.0080194 -0.00090441 0.0015409
0.0017245 0.0015427 0.00058518 0.0020045
-0.0018469 0.0025659 -0.02388 -0.0079253 0.31908 0.16077 0.001408 -0.00026512
0.0010163 5.5721e-05 0.00031562 0.00046553
-0.0011105 -0.0019355 -0.00089856 0.0015445 0.0014074 -0.00026884 0.10889 0.25739
-0.00020805 -0.017894 0.00038083 0.00016699
-0.00060004 0.0031418 0.0017346 0.00153 0.0010278 6.0919e-05 -0.00024218 -0.017894
0.034524 0.2238 0.0026864 -0.014888
0.0026541 0.00098532 0.00060367 0.0020096 0.00031772 0.0004697 0.00038422 0.00016677
0.0026944 -0.014881 0.029525 0.32279
1340000000 0.22176 0.23292 -0.018156 -0.018607 0.00088611 0.0044017 -0.0019427 -0.00072945
0.0015213 0.0026077 0.0016311 -0.0015611
-0.018125 -0.0186 0.045909 0.37221 -0.021369 0.004603 2.5812e-05 0.0019046
0.0017339 0.00053641 0.0014018 0.00086747
0.000899 0.0043912 -0.021366 0.0047064 0.34039 0.11275 0.00088702 -0.00093138
0.00054893 -0.00040822 0.00019504 0.0003269
-0.001947 -0.00072617 3.4807e-05 0.0019005 0.00088794 -0.0009245 0.14162 0.23689
-0.0087164 -0.014486 0.0012613 0.00018364
0.0015242 0.002594 0.001745 0.00052759 0.00055307 -0.00040976 -0.0087441 -0.014475
0.065439 0.21909 -0.0039155 -0.013253
0.0016267 -0.001568 0.0014101 0.00086566 0.00019753 0.00032803 0.001257 0.00018156
-0.0039198 -0.013251 0.068901 0.31931
1400000000 0.25415 0.19391 -0.023615 -0.0069606 0.005114 0.003082 -0.0019793 0.00077561
0.0025376 0.00068821 0.00016986 -0.0013491
-0.023588 -0.0069723 0.082748 0.35848 -0.014487 0.012532 0.0013542 0.0011692
0.00090768 -0.0009005 0.0012188 0.00026909
0.0051302 0.0030602 -0.014444 0.012617 0.35309 0.059448 2.2197e-05 -0.001468
3.4641e-05 -0.00039517 0.00037349 0.00027557
-0.0019793 0.00078151 0.0013613 0.0011681 2.7154e-05 -0.0014705 0.17117 0.20821
-0.013663 -0.00785 -0.00059878 -0.00067347
0.0025377 0.00066244 0.000901 -0.00090052 3.5115e-05 -0.00039141 -0.013684 -0.007818
0.098822 0.21397 -0.010198 -0.0081681
0.00016349 -0.0013426 0.0012212 0.00025934 0.00037745 0.00027238 -0.00060058 -0.00067162
-0.010188 -0.0081602 0.11482 0.30886
1460000000 0.27634 0.14939 -0.020373 0.0051968 0.0055199 -0.0018144 -0.0014843 0.0017446
0.0020038 -0.00082321 -0.00033485 -0.00079887
-0.020365 0.0051681 0.11638 0.33615 -0.0058144 0.015132 0.0016418 0.00010815
0.00072824 -0.0011594 0.0011599 -0.0006432
0.0055178 -0.0018457 -0.005747 0.015179 0.35886 0.0052716 -0.0011758 -0.0011207
0.00026176 -0.00012121 0.0007422 -0.00049835
-0.0014812 0.001754 0.0016394 9.9517e-05 -0.0011737 -0.0011187 0.1978 0.17908
-0.013857 -0.001663 -0.00096819 0.001644
0.002006 -0.0008356 0.00072158 -0.0011687 0.00026081 -0.00011316 -0.013865 -0.0016326
0.12896 0.19879 -0.011619 -0.0023579
-0.00033702 -0.00079709 0.0011555 -0.00066423 0.00074602 -0.00050072 -0.00097766 0.0016401
-0.011624 -0.0023609 0.14844 0.28789
1520000000 0.28771 0.10741 -0.014466 0.010749 0.0030663 -0.0041617 0.00021644 0.0025596
0.0017496 -0.0018029 -0.0011746 -0.0001215
-0.014477 0.010729 0.14927 0.32122 0.0016625 0.012869 0.0015572 -0.00080677
2.516e-05 -0.00083944 0.00027656 -0.0010484
0.0030488 -0.0041754 0.0017325 0.012873 0.35195 -0.050735 -0.00091026 -0.00032535
0.00055318 -0.00084721 4.4912e-06 -0.00012855
0.00023437 0.0025515 0.0015509 -0.00081794 -0.00090927 -0.00033589 0.22129 0.14087
-0.012606 0.003209 0.0012281 0.0018046
0.0017445 -0.0018164 2.4539e-05 -0.00083502 0.00055132 -0.00084987 -0.012592 0.0032453
0.15734 0.18366 -0.011422 0.0019432
-0.0011712 -0.00011259 0.00027245 -0.001058 5.1511e-06 -0.00012981 0.0012286 0.0018011
-0.011425 0.0019423 0.1823 0.26845
1580000000 0.29617 0.061075 -0.0076197 0.013622 -0.00099769 -0.0047528 0.0014149 0.0017754
-0.00056922 -0.0021005 -0.00032191 0.00038475
-0.0076263 0.013606 0.17598 0.29643 0.0051637 0.0080707 0.0004083 -0.0015378
-0.0003941 -0.00093123 -0.00027951 -0.00088036
-0.0010242 -0.0047474 0.0052125 0.0080532 0.3317 -0.10832 -0.0014609 0.00044872
-0.00030815 -0.0011711 0.00017942 -0.00057069
0.0014171 0.0017719 0.00040869 -0.0015387 -0.0014588 0.00044137 0.23558 0.10107
-0.0091165 0.006939 0.0019503 0.00053734
-0.00058642 -0.0020965 -0.00039718 -0.00093242 -0.00030748 -0.0011727 -0.0091045 0.0069714
0.1819 0.16475 -0.0088038 0.0072225
-0.0003205 0.00038904 -0.00028819 -0.00087742 0.0001787 -0.00057327 0.0019578 0.00053309
-0.0088014 0.0072119 0.21505 0.24193
1640000000 0.29738 0.019825 -0.00094935 0.012233 -0.0027766 -0.0025514 0.002533 0.0009523
-0.00094263 -0.0011199 -0.00031096 0.00060459
-0.00094842 0.012232 0.20493 0.27155 0.005712 0.0033963 -0.0007449 -0.001605
-0.00087173 -0.00044275 -0.00053394 -0.00063517
-0.0027879 -0.0025389 0.0057323 0.0033637 0.30334 -0.15701 -0.00085444 0.0012967
-0.0010445 -0.00079461 -0.00010054 -0.00036519
0.0025351 0.00094356 -0.00076192 -0.0016064 -0.00085196 0.0012899 0.2479 0.051579
-0.0053612 0.0071956 0.0022512 -0.00085048
-0.00095132 -0.001111 -0.00086793 -0.00044112 -0.0010469 -0.00079353 -0.0053476 0.0072063
0.20469 0.13885 -0.0039727 0.0092774
-0.00030487 0.00060871 -0.00054147 -0.00062978 -0.00010555 -0.00036425 0.0022606 -0.00086181
-0.0039778 0.0092646 0.24162 0.21088
1700000000 0.28947 -0.02529 0.0024209 0.0092779 -0.0035059 0.00022535 0.0029174 -0.0011489
-0.0018358 -0.00027731 0.0005611 0.00038334
0.0024096 0.0092695 0.2227 0.24027 0.0037616 0.00056963 -0.0013789 -0.00053089
-0.00073646 -5.9386e-05 -0.00092869 -0.00040538
-0.0035083 0.00025448 0.0037647 0.00054643 0.26002 -0.19698 0.00031474 0.0015401
-0.0017637 -0.00021612 -0.00055401 -0.00093338
0.0029073 -0.0011635 -0.0013806 -0.00053147 0.00031643 0.0015452 0.24434 0.0011452
-0.0035545 0.0070116 0.0013305 -0.0021167
-0.0018414 -0.00026253 -0.00073427 -5.1881e-05 -0.0017671 -0.00020414 -0.0035413 0.0070293
0.2218 0.11675 0.00050789 0.0094002
0.00056634 0.00038105 -0.00093533 -0.00039924 -0.00056282 -0.00093134 0.0013239 -0.0021202
0.00050997 0.0094022 0.25881 0.17648
1760000000 0.27653 -0.073329 0.0044574 0.0058648 -0.0022881 0.00085684 0.001277 -0.0033069
-0.00094592 0.00074341 0.00035886 -0.00047455
0.0044582 0.0058655 0.24841 0.20061 0.0015137 -0.0011918 -0.0011128 0.00019756
-0.0011324 0.00076143 -0.00058978 0.00052587
-0.0022783 0.00087692 0.0015108 -0.0012071 0.21132 -0.23063 0.0010391 0.0013089
-0.0010827 0.0013124 -0.0014591 -0.0003816
0.0012606 -0.003315 -0.0011171 0.0002087 0.0010391 0.0013036 0.23438 -0.050575
-0.0015512 0.0062297 -0.00051447 -0.0023041
-0.00094071 0.00075667 -0.0011266 0.00076985 -0.0010773 0.0013107 -0.0015259 0.0062292
0.23618 0.080019 0.0041997 0.0064002
0.00035733 -0.0004802 -0.00058627 0.00053079 -0.0014585 -0.00037949 -0.00052065 -0.0022984
0.0042058 0.0064025 0.27185 0.13868
1820000000 0.25149 -0.1101 0.0044876 0.0023902 7.5638e-07 0.002479 -0.00093746 -0.0030411
-0.00071654 0.00066267 3.7325e-05 -0.00010907
0.0044857 0.0023846 0.25826 0.17083 -0.00034299 0.00014317 -0.0012774 0.00085882
-0.00017882 0.0013453 -0.00053879 0.00053684
1.4926e-05 0.0024768 -0.00034245 0.00014016 0.161 -0.24566 0.001579 0.00048733
-0.00033681 0.0022406 -0.0015912 0.0004778
-0.00094732 -0.0030333 -0.0012732 0.00086104 0.0015812 0.0004791 0.20357 -0.097748
-0.0009058 0.0050233 -0.0017127 -0.0014497
-0.00071218 0.00066505 -0.00016558 0.0013427 -0.00032958 0.0022375 -0.00089307 0.0050243
0.25167 0.048984 0.0049958 0.0028821
3.7778e-05 -0.00011136 -0.00053459 0.00054315 -0.0015871 0.00048552 -0.0017165 -0.0014478
0.0049972 0.0028813 0.27478 0.10249
1880000000 0.21604 -0.14956 0.0021932 0.0002948 -0.00034278 0.0022271 -0.0028306 -0.0021565
-0.0001764 0.0012985 0.00040309 -0.00057519
0.0021977 0.00029165 0.26267 0.12447 -0.0022894 0.001703 -0.00017215 0.0016431
0.00058214 0.0013975 0.00026047 0.0010296
-0.00032825 0.0022267 -0.0022754 0.0017193 0.10868 -0.25563 0.0019822 -0.0010306
0.0014302 0.0020171 -0.00093784 0.001536
-0.0028417 -0.0021384 -0.00016579 0.0016431 0.0019756 -0.0010298 0.16249 -0.1371
-0.00087124 0.0040543 -0.0023904 0.00069921
-0.00017119 0.0012983 0.00060617 0.0013966 0.0014454 0.0020105 -0.00085894 0.0040521
0.25266 0.014698 0.0044795 0.00092091
0.00039741 -0.00058009 0.00026416 0.0010235 -0.00093332 0.001538 -0.0023923 0.00070733
0.0044852 0.0009205 0.27502 0.068218
1940000000 0.17676 -0.17488 2.5577e-05 -0.0013547 0.0013986 0.0018932 -0.0037605 0.00058483
0.001059 0.00094718 -0.00066714 -0.00070751
2.9912e-05 -0.0013583 0.26312 0.092782 -0.0011824 0.0039789 0.00095966 0.0012987
0.0019949 0.00059755 0.00090819 0.00025568
0.0014101 0.0018827 -0.0011539 0.0039929 0.062567 -0.24907 0.00038429 -0.0024121
0.0025024 0.00046561 0.00045406 0.0017418
-0.0037675 0.00060863 0.00097141 0.0012891 0.00037866 -0.0024092 0.10979 -0.16671
-0.0020864 0.0038116 -0.0013467 0.0017725
0.0010646 0.00094436 0.0020037 0.00059012 0.0025082 0.0004617 -0.0020792 0.0038223
0.25183 -0.025429 0.0031681 -0.0022966
-0.00067726 -0.00070338 0.00091072 0.00023661 0.00045498 0.0017418 -0.0013485 0.0017777
0.0031626 -0.0022932 0.26445 0.032404
2000000000 0.13058 -0.18892 -0.0037075 0.00059936 0.002542 0.0014206 -0.0022305 0.0035803
0.00091645 0.00033236 -0.00077179 0.00045855
-0.0037024 0.00060115 0.24906 0.057331 -0.00077726 0.005725 0.0016553 0.00032359
0.0015526 -0.0013993 0.00048872 -1.0867e-06
0.0025474 0.0014096 -0.0007403 0.0057334 0.018971 -0.23456 -0.001531 -0.0014723
0.0020925 -0.0012106 0.001686 0.0012742
-0.0022154 0.003598 0.0016541 0.00031309 -0.0015345 -0.0014739 0.056703 -0.17589
-0.0032853 0.0046076 5.2532e-05 0.0023398
0.00092914 0.00033083 0.0015437 -0.0014184 0.0020907 -0.0012178 -0.003271 0.0046275
