!Keysight Technologies,M9804A,MY58100912,A.14.10.03
!Date: Thursday, April 27, 2023 10:28:33
!Correction: S11(C  6-Port  ) 
!S12(C  6-Port  ) 
!S13(C  6-Port  ) 
!S14(C  6-Port  ) 
!S15(C  6-Port  ) 
!S16(C  6-Port  ) 
!S21(C  6-Port  ) 
!S22(C  6-Port  ) 
!S23(C  6-Port  ) 
!S24(C  6-Port  ) 
!S25(C  6-Port  ) 
!S26(C  6-Port  ) 
!S31(C  6-Port  ) 
!S32(C  6-Port  ) 
!S33(C  6-Port  ) 
!S34(C  6-Port  ) 
!S35(C  6-Port  ) 
!S36(C  6-Port  ) 
!S41(C  6-Port  ) 
!S42(C  6-Port  ) 
!S43(C  6-Port  ) 
!S44(C  6-Port  ) 
!S45(C  6-Port  ) 
!S46(C  6-Port  ) 
!S51(C  6-Port  ) 
!S52(C  6-Port  ) 
!S53(C  6-Port  ) 
!S54(C  6-Port  ) 
!S55(C  6-Port  ) 
!S56(C  6-Port  ) 
!S61(C  6-Port  ) 
!S62(C  6-Port  ) 
!S63(C  6-Port  ) 
!S64(C  6-Port  ) 
!S65(C  6-Port  ) 
!S66(C  6-Port  ) 
!S6P File: Measurement: :
# Hz S  RI   R 50
500000000 -0.33667 -0.034518 -0.0095714 -0.0035695 -0.0076487 0.011501 -0.0034032 0.011748
0.012273 0.0047797 -0.0037396 0.008644
-0.0094433 -0.0036872 -0.4187 -0.049088 0.0075602 -0.011753 0.0014962 0.011683
0.0075483 0.0021899 0.0010683 0.013127
-0.0075654 0.011404 0.0075542 -0.011715 -0.26437 0.2112 0.0069869 0.0029791
0.00030612 0.008379 0.0010447 0.011632
-0.0031776 0.011712 0.0013765 0.011726 0.0069838 0.002992 -0.32724 0.048237
-0.019464 -0.0043655 0.017732 0.026311
0.012125 0.004705 0.0077508 0.0022282 0.00032253 0.0083583 -0.019444 -0.0043557
-0.22734 -0.18347 -0.028229 0.0053402
-0.0033462 0.0086756 0.00075146 0.01311 0.0010435 0.011624 0.01767 0.026292
-0.028226 0.0053459 -0.26799 -0.14025
560000000 -0.31547 0.12472 -0.023618 -0.063288 0.00035177 0.012158 0.0061755 0.0096766
0.010895 0.0040865 0.0097287 0.0075936
-0.023776 -0.063176 -0.37709 0.10953 -0.041804 -0.037306 0.013595 0.0041522
-0.013372 -0.0047995 0.0042062 -0.00080651
0.00047466 0.012251 -0.041712 -0.037462 -0.18236 0.25906 -0.00055389 -0.0050018
0.018854 0.0041917 0.007296 -0.0061239
0.0062474 0.0096611 0.013544 0.00399 -0.00054693 -0.0049938 -0.30222 0.1358
0.0039866 -0.024738 0.0053033 -0.019578
0.011135 0.0040328 -0.013247 -0.00521 0.018816 0.0042169 0.003957 -0.024735
-0.2853 -0.0086116 0.0079824 -0.051171
0.0097155 0.0075194 0.0042194 -0.00067353 0.007319 -0.00617 0.0052746 -0.019526
0.0080055 -0.051198 -0.33428 0.0096237
620000000 -0.27319 0.10968 -0.022901 0.0070886 0.0035143 0.0083088 0.0067492 -0.0055976
0.011485 -0.00098784 0.0003838 -0.0015563
-0.02292 0.0069941 -0.4023 0.062796 -0.018982 -0.00052044 -0.0012768 -0.0021132
0.010108 -0.0070612 0.0010256 -0.0028374
0.0036496 0.0081607 -0.019031 -0.00043407 -0.15269 0.26754 -0.0015973 -0.0051453
-0.0040342 -0.0036518 0.0080536 -0.0036094
0.0068563 -0.0055125 -0.0013142 -0.0021384 -0.0016119 -0.0051462 -0.26089 0.14632
-0.038516 -0.019238 0.014579 0.024416
0.011146 -0.0010098 0.01018 -0.0070824 -0.0039226 -0.0036667 -0.038461 -0.019148
-0.20495 -0.047026 -0.041223 0.015737
0.00029565 -0.0015894 0.00098539 -0.0028149 0.0080623 -0.0036055 0.0146 0.024453
-0.041255 0.015697 -0.25009 -0.030146
680000000 -0.23237 0.19336 -0.027758 -0.013926 0.0046797 0.0049524 0.001181 -0.0075605
-0.0033603 -0.010907 0.0047393 -0.0071282
-0.027747 -0.013899 -0.38703 0.15943 -0.032851 -0.0013114 -0.0015829 -7.1346e-05
-0.0028027 -0.0088966 -0.0010389 -0.0019689
0.0046879 0.0049776 -0.032862 -0.0012265 -0.10207 0.2872 -0.00068269 0.00034991
-0.0023002 0.00082962 -0.0028046 -0.0096434
0.0011919 -0.0074893 -0.0016033 -3.2684e-05 -0.0006823 0.00035152 -0.21821 0.19539
-0.023638 -0.008396 -0.010698 -0.010824
-0.0033996 -0.010959 -0.0028179 -0.0088866 -0.0023176 0.00082168 -0.023645 -0.0083685
-0.25192 0.049622 -0.0051711 -0.0098664
0.0045754 -0.0072193 -0.0010623 -0.0019851 -0.0027822 -0.009645 -0.010779 -0.010851
-0.0051661 -0.0098533 -0.26365 0.078579
740000000 -0.1895 0.18827 -0.038391 0.026294 0.012317 -0.0050102 -0.00053588 -0.0039974
-0.0046235 -0.0028441 -0.0061041 0.0034386
-0.038448 0.026184 -0.33507 0.17852 -0.035027 0.034799 -0.00090496 -0.0062558
-0.011349 0.0081026 -0.0030798 -0.0063812
0.01233 -0.0051583 -0.034974 0.034931 -0.068362 0.28651 -0.0014206 0.0032893
-0.0028076 -0.003811 -0.0012073 -3.2331e-06
-0.00064272 -0.004026 -0.00091593 -0.006264 -0.0014197 0.0032839 -0.20223 0.20309
-0.042358 -0.0078779 0.022162 0.013327
-0.0045972 -0.0029957 -0.01137 0.0081507 -0.0028267 -0.0038152 -0.042374 -0.0077672
-0.15632 0.072406 -0.042821 0.0010157
-0.0060945 0.0036955 -0.0029762 -0.0064502 -0.0011633 -5.0634e-05 0.022217 0.013316
-0.042819 0.00099515 -0.25674 0.083023
800000000 -0.15747 0.22847 -0.022622 0.017166 0.0051298 -0.010434 -0.0047865 -0.0020997
-0.0039203 0.0028392 0.0043675 0.00086873
-0.022653 0.017093 -0.33752 0.24845 -0.0079224 0.03399 -0.0020516 0.0022345
-0.00040803 0.0034222 0.0011869 0.0052607
0.0050887 -0.010439 -0.0078477 0.03405 -0.027191 0.30945 0.0012416 0.0014724
0.00075684 0.0034707 -0.0019413 0.00098575
-0.0047724 -0.0020518 -0.0020409 0.0022409 0.001244 0.001467 -0.17398 0.23072
-0.02844 0.012755 0.013361 -0.010043
-0.0038999 0.0029132 -0.00035729 0.0034571 0.00077902 0.0034952 -0.028434 0.012808
-0.20007 0.097279 -0.017969 0.017473
0.0043727 0.00085462 0.0012349 0.0053005 -0.0019435 0.0010061 0.01336 -0.01006
-0.017981 0.017472 -0.25052 0.13881
860000000 -0.12281 0.24963 -0.017225 0.031153 -0.0034676 -0.0096952 -0.0026057 0.0014876
0.0043167 0.0051348 -0.0032129 -0.002852
-0.017199 0.031045 -0.28974 0.29038 0.0081132 0.033944 0.00030545 0.002224
0.0048387 0.00019359 0.0033334 0.00030299
-0.0034793 -0.009693 0.008245 0.03397 0.021286 0.31718 -0.00030738 -0.00033904
0.0028957 -0.0015088 0.0015994 0.0046313
-0.0026269 0.0014754 0.00029771 0.0022295 -0.00030758 -0.00033807 -0.13844 0.24277
-0.0181 0.018876 -0.0063889 -0.0092401
0.0042815 0.0050689 0.0048413 0.00020489 0.0029036 -0.0015201 -0.0181 0.018938
-0.15136 0.14629 -0.025194 0.015621
-0.0032001 -0.0028927 0.003351 0.00022995 0.0015882 0.0046555 -0.0063971 -0.0092459
-0.025224 0.015626 -0.19847 0.18388
920000000 -0.097387 0.27296 0.0050685 0.037862 -0.0092855 -0.0040347 -0.0017369 0.0023637
0.0012422 0.0014656 0.0025079 -0.0013846
0.005038 0.037873 -0.26062 0.31134 0.027843 0.021608 0.0014967 0.0011748
0.0068432 -0.00062454 0.0038924 -0.002919
-0.0093068 -0.0040286 0.027975 0.021556 0.067724 0.31742 0.0016811 -8.4885e-05
0.0012533 -0.00044043 0.00075848 -0.00099879
-0.0017611 0.0023214 0.001495 0.0011224 0.0016766 -8.6878e-05 -0.11416 0.25912
-0.010384 0.029929 0.0028253 -0.0064387
0.0012847 0.0014727 0.0068286 -0.00066155 0.0012523 -0.0004428 -0.010303 0.029977
-0.14064 0.15199 -0.0018202 0.027864
0.0025276 -0.0013576 0.0038756 -0.0029489 0.00075908 -0.0010098 0.002828 -0.0064628
-0.0018373 0.027867 -0.20826 0.19712
980000000 -0.049527 0.29232 0.017853 0.02987 -0.0085566 0.0047286 0.002554 0.0036106
0.0039725 -0.0017817 -0.0031085 -0.0020405
0.017831 0.029866 -0.20735 0.34489 0.032705 0.0045709 0.0020236 -0.00016335
0.001058 -0.0061333 -0.00060339 -0.0021864
-0.0085552 0.0047657 0.032757 0.0044868 0.11397 0.31032 0.00043767 -0.0012356
3.0438e-05 -0.0020928 0.001636 -2.1387e-06
0.0025567 0.0036188 0.002016 -0.00016989 0.00044723 -0.001229 -0.075389 0.27051
0.0075824 0.028866 -0.0092978 -0.0069445
0.0039782 -0.001837 0.0010485 -0.0061699 4.3584e-05 -0.0021085 0.0076352 0.028871
-0.10889 0.17966 0.0051089 0.018656
-0.0031414 -0.0021122 -0.00063407 -0.0021812 0.0016396 -1.5721e-05 -0.0093185 -0.0069089
0.0051022 0.018674 -0.16519 0.2447
1040000000 -0.0066781 0.30033 0.03323 0.01768 -0.00092149 0.0068112 0.002866 0.00057311
-8.4346e-05 -0.0037659 -0.00054108 -0.0015193
0.033134 0.017683 -0.17172 0.35776 0.028864 -0.014783 0.0015086 -0.0016916
-0.0026625 -0.0022109 -0.0014813 -0.002755
-0.00090891 0.006796 0.028867 -0.014895 0.15992 0.29637 -0.00045604 -0.0014058
-0.0015211 -0.00086182 -0.00040159 -0.0013073
0.0028962 0.00056866 0.0014911 -0.0017273 -0.00044986 -0.0014102 -0.048167 0.28044
0.018063 0.017021 -0.0030543 0.002058
-4.0212e-05 -0.0037412 -0.0026643 -0.0022492 -0.0015178 -0.00085566 0.018101 0.016994
-0.078247 0.18802 0.013165 0.018072
-0.00052034 -0.0015176 -0.0015167 -0.0027163 -0.00041579 -0.0013161 -0.0030509 0.0020568
0.013167 0.018066 -0.14605 0.26714
1100000000 0.039073 0.30751 0.035564 -0.004445 0.0029957 0.0036554 0.0024983 -0.0014432
-0.0021911 -0.0027772 -0.0039059 0.00019737
0.035518 -0.0044322 -0.12807 0.37445 0.014793 -0.027387 -1.6166e-05 -0.0017691
-0.0030832 -0.0002559 -0.0033331 -0.00044324
0.0030082 0.0036217 0.014718 -0.027442 0.20593 0.27588 -0.0017718 0.00022289
-0.0016283 0.00056182 -0.0010614 -0.00043612
0.002482 -0.0014394 -2.5847e-05 -0.0017588 -0.0017761 0.0002339 -0.0074906 0.28531
0.022417 0.0052289 -0.0023212 0.0010531
-0.0021964 -0.0027674 -0.0030728 -0.0002461 -0.0016392 0.00056459 0.022418 0.0051912
-0.059957 0.20131 0.018658 0.009132
-0.0038819 0.00023524 -0.0033306 -0.00043235 -0.0010626 -0.00044115 -0.002318 0.0010384
0.018678 0.0091335 -0.098434 0.29812
1160000000 0.090607 0.30188 0.023642 -0.020567 0.0026947 -0.00061588 -0.00017207 -0.0025981
-0.0039928 -0.00047915 -0.0010242 0.0040283
0.023612 -0.020557 -0.08435 0.37815 -0.0036975 -0.028587 -0.0017664 -0.0015715
-0.0023335 0.0025509 -0.0013747 0.001627
0.0027127 -0.00064243 -0.0038093 -0.028597 0.24868 0.24497 -0.00063137 0.0017252
-0.0004022 0.0018237 -0.0010584 0.00021255
-0.00020333 -0.0025864 -0.0017874 -0.0015593 -0.00064236 0.0017306 0.031854 0.28237
0.019405 -0.0094205 -0.0026554 0.0055484
-0.0039763 -0.00045371 -0.0023115 0.0025603 -0.00039332 0.0018457 0.019399 -0.0094752
-0.025941 0.21028 0.017475 0.00098216
-0.00099743 0.0040541 -0.0013592 0.0016308 -0.0010695 0.00020972 -0.0026509 0.0055311
0.017521 0.00096918 -0.05117 0.30067
1220000000 0.13493 0.28998 0.010177 -0.029601 -0.0015421 -0.00090366 -0.00011725 -0.0011417
-0.0024037 0.0025143 0.0013102 0.0017827
0.010178 -0.029571 -0.04039 0.38966 -0.016511 -0.020711 -0.002437 0.00047214
0.00024918 0.0027541 -0.00070423 0.0017524
-0.0015486 -0.00088956 -0.01662 -0.020652 0.28779 0.2062 0.00083589 0.0015475
0.00054867 0.001168 0.00030533 0.00077356
-0.00012213 -0.0011304 -0.0024434 0.00047922 0.00082977 0.0015467 0.071544 0.27377
0.0094325 -0.015085 0.0029291 0.0016322
-0.0023931 0.0025531 0.00023968 0.0027705 0.00054098 0.0011749 0.0093852 -0.01512
-0.0025107 0.21975 0.013727 -0.012017
0.0013217 0.0017746 -0.00070924 0.0017474 0.00030909 0.00077042 0.0029154 0.0016163
0.013762 -0.012054 -0.020261 0.32006
1280000000 0.1843 0.26715 -0.0076981 -0.02794 -0.0018555 0.0023989 -0.0011384 -0.001936
-0.00058166 0.0029846 0.0025348 0.00098041
-0.0076686 -0.027915 0.0050853 0.38037 -0.023122 -0.0084002 -0.00099165 0.0014308
0.0015525 0.0015033 0.00048285 0.0019974
-0.0018342 0.0024052 -0.023201 -0.0083113 0.31863 0.16231 0.0013756 -0.00017322
0.00099534 0.0001436 0.00036531 0.00042724
-0.001147 -0.0019258 -0.00099256 0.0014286 0.0013815 -0.00017649 0.10798 0.2575
0.00094339 -0.016941 0.00050182 -5.3378e-05
-0.00055859 0.0029956 0.0015674 0.0015127 0.00098668 0.00012848 0.00089105 -0.016964
0.034524 0.22322 0.0031431 -0.013939
0.0025532 0.00096691 0.00050894 0.0020046 0.00036851 0.00044438 0.00048876 -5.4716e-05
0.003164 -0.013993 0.027927 0.32226
1340000000 0.22088 0.23298 -0.017242 -0.018795 0.00075186 0.0042795 -0.0018828 -0.00073685
0.0014614 0.0025165 0.0016151 -0.0014748
-0.017225 -0.018778 0.044166 0.37209 -0.021126 0.0039634 -5.4803e-05 0.0019155
0.0016631 0.00068056 0.0013228 0.00090537
0.00077109 0.0042761 -0.021146 0.0040566 0.34098 0.11431 0.00091159 -0.00083303
0.00056604 -0.00039642 0.00019933 0.00027469
-0.0018898 -0.00072675 -4.0637e-05 0.0019198 0.00090802 -0.00083538 0.14075 0.23747
-0.0072277 -0.014368 0.0013261 -0.00011292
0.001483 0.002509 0.0016567 0.00066739 0.00057304 -0.00039469 -0.0072771 -0.014356
0.064953 0.21833 -0.0028506 -0.012649
0.0016072 -0.0014925 0.0013359 0.00090351 0.00020258 0.00027962 0.0013099 -0.00010805
-0.0028813 -0.012713 0.067184 0.31931
1400000000 0.25331 0.19445 -0.02294 -0.0076004 0.0048825 0.00306 -0.0019845 0.00070787
0.0023785 0.00062971 0.00021979 -0.0013052
-0.022903 -0.0076083 0.081141 0.35912 -0.014669 0.011911 0.0013008 0.0012845
0.00098165 -0.00070756 0.0012167 0.00029789
0.0048896 0.0030294 -0.014618 0.011981 0.35419 0.060328 0.00010548 -0.0013943
3.5398e-05 -0.00038573 0.00034803 0.00018353
-0.0019821 0.00071753 0.0013119 0.001256 9.4144e-05 -0.0013973 0.17068 0.20914
-0.012197 -0.0085599 -0.00071762 -0.00094887
0.0023864 0.00060617 0.00096734 -0.00072216 3.4234e-05 -0.00038509 -0.012225 -0.0085326
0.098047 0.21344 -0.0090345 -0.0082184
0.00021532 -0.0013259 0.001218 0.00028783 0.00035224 0.00017642 -0.00071266 -0.00093125
-0.0090858 -0.0082688 0.11314 0.30914
1460000000 0.27567 0.15032 -0.020192 0.004249 0.0053252 -0.0016189 -0.0015178 0.0017003
0.0018471 -0.00070027 -0.00028025 -0.00080341
-0.020181 0.0042407 0.11517 0.33744 -0.0063604 0.01479 0.001678 0.00015616
0.0008557 -0.0010968 0.0011889 -0.00061122
0.0053167 -0.0016426 -0.0062902 0.014827 0.3601 0.0052935 -0.0010258 -0.0012304
0.00027064 -0.00012766 0.00067426 -0.00045985
-0.0015121 0.0017087 0.0016813 0.00013965 -0.0010279 -0.0012346 0.19766 0.18003
-0.01307 -0.0032464 -0.0012489 0.0014855
0.0018429 -0.00071999 0.00084421 -0.0011177 0.0002717 -0.00012925 -0.013085 -0.0032083
0.12789 0.19831 -0.010586 -0.0030564
-0.00028355 -0.00081292 0.001186 -0.0006288 0.00067481 -0.00046384 -0.0012393 0.001498
-0.010646 -0.0030743 0.14685 0.28855
1520000000 0.2875 0.10861 -0.014818 0.0098733 0.0030684 -0.0039333 0.00013556 0.0025445
0.001731 -0.0015989 -0.0011622 -0.00019387
-0.014814 0.009857 0.14879 0.32279 0.0010997 0.012888 0.0015924 -0.00080466
0.00013684 -0.00092933 0.00031254 -0.001039
0.0030425 -0.0039509 0.0011831 0.012902 0.35279 -0.051122 -0.00092044 -0.00041277
0.0005619 -0.00075899 -5.7208e-05 -8.8063e-05
0.00015083 0.0025542 0.001595 -0.00080802 -0.00092317 -0.00041248 0.22159 0.14187
-0.012886 0.0014444 0.00094653 0.0018312
0.0017191 -0.0015995 0.00013278 -0.00093455 0.00055787 -0.00076093 -0.012868 0.0014964
0.15603 0.18363 -0.010969 0.00082819
-0.0011615 -0.00019506 0.00029967 -0.0010447 -5.5638e-05 -9.2652e-05 0.00095591 0.0018441
-0.011032 0.00085098 0.18129 0.26944
1580000000 0.29645 0.062193 -0.0084438 0.013066 -0.00087058 -0.0046366 0.0013638 0.0018109
-0.00043353 -0.0020001 -0.00038029 0.00040099
-0.008439 0.01305 0.17616 0.29792 0.0047766 0.0083425 0.00044552 -0.0015477
-0.00038985 -0.0010735 -0.0002739 -0.00087127
-0.00090397 -0.0046472 0.0048192 0.008327 0.33202 -0.10889 -0.001541 0.00041657
-0.00024122 -0.0011239 0.00010299 -0.00052808
0.0013743 0.00181 0.00044073 -0.0015421 -0.0015387 0.0004176 0.23634 0.10187
-0.010444 0.00569 0.00176 0.00068016
-0.00045044 -0.0019944 -0.00039792 -0.0010597 -0.00025218 -0.0011313 -0.010424 0.0057288
0.18042 0.16515 -0.0089221 0.0060552
-0.00038002 0.00039302 -0.0002725 -0.00085796 9.8664e-05 -0.00054054 0.0017822 0.0006792
-0.0089582 0.0060986 0.21449 0.24267
1640000000 0.29812 0.020517 -0.0018816 0.012254 -0.0025952 -0.0025078 0.0025188 0.0010117
-0.00076064 -0.0011713 -0.00036519 0.0006542
-0.0018908 0.012247 0.20564 0.27271 0.0055932 0.0037479 -0.00072173 -0.0016315
-0.00099054 -0.00050533 -0.00054431 -0.00064289
-0.0026199 -0.0024934 0.005619 0.003704 0.30338 -0.15776 -0.00091605 0.0013412
-0.0010419 -0.00083853 -0.00012073 -0.00025772
0.0025183 0.0010007 -0.0007273 -0.0016287 -0.00092044 0.0013396 0.249 0.051882
-0.0070888 0.0070086 0.0021387 -0.00062014
-0.00078311 -0.0011594 -0.00099834 -0.00049438 -0.0010353 -0.00083394 -0.0070681 0.0070312
0.20333 0.13984 -0.0047043 0.008398
-0.00036044 0.00065048 -0.00055 -0.00064276 -0.00012515 -0.00025567 0.0021486 -0.00063961
-0.0047153 0.0084591 0.24097 0.21148
1700000000 0.29042 -0.024962 0.0016737 0.0098051 -0.0033835 0.00017834 0.0029257 -0.0010477
-0.0018092 -0.00044439 0.00061081 0.00043765
0.0016749 0.0097946 0.22382 0.24088 0.0037888 0.00090533 -0.0013654 -0.00055259
-0.00082914 1.6924e-05 -0.00092989 -0.0004145
-0.003388 0.00018532 0.0037875 0.0008845 0.25957 -0.19762 0.00031264 0.0016387
-0.0017598 -0.00026619 -0.00054045 -0.00084182
0.002918 -0.0010619 -0.0013767 -0.00054848 0.00030989 0.0016304 0.24557 0.00079143
-0.0049353 0.007801 0.0012944 -0.001945
-0.0018051 -0.00042689 -0.00083588 2.1697e-05 -0.0017539 -0.00026413 -0.0049273 0.0078066
0.22095 0.11823 -0.00045103 0.0090103
0.00061164 0.00044181 -0.00093105 -0.00040872 -0.00053536 -0.00084782 0.0012989 -0.0019559
-0.00043662 0.0090729 0.25821 0.17698
1760000000 0.27735 -0.07364 0.0042551 0.0066585 -0.002132 0.00083438 0.0013719 -0.00328
-0.0010512 0.00060453 0.00039715 -0.00051781
0.0042501 0.0066623 0.24951 0.20061 0.001756 -0.0008257 -0.0011071 0.00017803
-0.0011506 0.00089814 -0.00060808 0.00052506
-0.0021275 0.00084154 0.0017417 -0.00084513 0.21023 -0.23023 0.0011216 0.0013232
-0.001186 0.0012989 -0.0012224 -0.00044377
0.0013563 -0.0032807 -0.0011074 0.00017578 0.0011202 0.0013213 0.2351 -0.051606
-0.0021337 0.0075294 -0.00043267 -0.0019871
-0.0010511 0.00061242 -0.0011451 0.00090675 -0.0011861 0.0013191 -0.0021204 0.0075396
0.23579 0.081717 0.0031672 0.006554
0.000385 -0.00052014 -0.00060867 0.00052869 -0.0012299 -0.00042818 -0.00045086 -0.0019991
0.0032095 0.0066061 0.271 0.13917
1820000000 0.25194 -0.11067 0.0047233 0.0030429 3.2179e-05 0.0023215 -0.0008548 -0.003068
-0.00085707 0.00067285 7.7277e-05 -0.00012744
0.0047101 0.0030427 0.2591 0.17029 -0.00010022 0.00011071 -0.001288 0.00085754
-4.2233e-05 0.001418 -0.00052409 0.00054139
3.8508e-05 0.0023269 -0.0001144 0.00010372 0.16062 -0.24549 0.0016547 0.00045101
-0.00032472 0.0021487 -0.001421 0.00038243
-0.00087283 -0.003061 -0.0012921 0.00086135 0.0016705 0.00044693 0.20377 -0.098908
-0.00065798 0.0062517 -0.0014703 -0.0013229
-0.00085209 0.00067514 -2.8402e-05 0.0014318 -0.00032314 0.0021496 -0.00065558 0.0062677
0.25203 0.050671 0.0043075 0.0033856
7.6282e-05 -0.00013595 -0.00051827 0.00053841 -0.0014181 0.00037387 -0.0014693 -0.0013069
0.0043708 0.0034054 0.27414 0.10325
1880000000 0.21603 -0.15032 0.0026893 0.00061532 -0.0003935 0.0020094 -0.0028255 -0.002267
-0.00029898 0.0014036 0.00034104 -0.00063407
0.0026808 0.00060838 0.26306 0.12358 -0.0020656 0.0016668 -0.00019842 0.0016507
0.00071264 0.0013363 0.00022606 0.00096531
-0.00038096 0.0020191 -0.0020714 0.0016782 0.10854 -0.25501 0.0019239 -0.0010367
0.0013984 0.0020206 -0.00093935 0.0013624
-0.0028465 -0.0022581 -0.00018519 0.0016514 0.0019257 -0.0010394 0.16186 -0.13842
-0.00013536 0.0047538 -0.0020939 0.00072568
-0.00029374 0.0014025 0.00072976 0.0013343 0.0013962 0.0020201 -0.0001225 0.0047596
0.25358 0.015874 0.0040973 0.00162
0.00032415 -0.00063727 0.00022727 0.00096273 -0.00094153 0.001359 -0.0020942 0.00073954
0.0041572 0.0016199 0.27433 0.068939
1940000000 0.17612 -0.17525 0.00048335 -0.0013572 0.0013146 0.0019087 -0.0038215 0.000494
0.0011381 0.001065 -0.0006877 -0.00065824
0.00047637 -0.001365 0.263 0.091849 -0.001045 0.0038495 0.00091493 0.0013498
0.0020085 0.00047616 0.00083098 0.00025334
0.0013425 0.0018985 -0.0010344 0.0038673 0.06244 -0.24846 0.00021648 -0.0023697
0.0024432 0.00048084 0.00015641 0.0016761
-0.0038144 0.00051287 0.00091813 0.0013336 0.00022027 -0.0023595 0.10839 -0.16739
-0.0012909 0.0038968 -0.0011515 0.0016222
0.0011424 0.0010617 0.0020193 0.00045056 0.0024524 0.00048731 -0.0012721 0.0039048
0.25297 -0.024743 0.003042 -0.001465
-0.00070295 -0.00064809 0.0008277 0.00023506 0.00016831 0.0016346 -0.0011593 0.0016322
0.0031037 -0.0015039 0.26358 0.03348
2000000000 0.12995 -0.18896 -0.0034686 0.00042709 0.0024315 0.0015391 -0.0023048 0.0035636
0.0010123 0.00031329 -0.0007507 0.00045329
-0.0034667 0.00041737 0.24841 0.056523 -0.00079336 0.0056234 0.001628 0.00032186
0.0014619 -0.0015356 0.00050506 0.00011696
0.0024134 0.001487 -0.00076483 0.0056375 0.019075 -0.234 -0.0015098 -0.0013476
0.0020932 -0.0012201 0.0016648 0.0013367
-0.0023044 0.0035692 0.0016244 0.00030747 -0.0015221 -0.0013502 0.05514 -0.17561
-0.0028054 0.0044104 8.877e-06 0.0021635
0.0010121 0.00030727 0.0014384 -0.0015401 0.0021011 -0.0012275 -0.0028019 0.0044239
