!Keysight Technologies,M9804A,MY58100912,A.14.10.03
!Date: Thursday, April 27, 2023 10:28:33
!Correction: S11(C  6-Port  ) 
!S12(C  6-Port  ) 
!S13(C  6-Port  ) 
!S14(C  6-Port  ) 
!S15(C  6-Port  ) 
!S16(C  6-Port  ) 
!S21(C  6-Port  ) 
!S22(C  6-Port  ) 
!S23(C  6-Port  ) 
!S24(C  6-Port  ) 
!S25(C  6-Port  ) 
!S26(C  6-Port  ) 
!S31(C  6-Port  ) 
!S32(C  6-Port  ) 
!S33(C  6-Port  ) 
!S34(C  6-Port  ) 
!S35(C  6-Port  ) 
!S36(C  6-Port  ) 
!S41(C  6-Port  ) 
!S42(C  6-Port  ) 
!S43(C  6-Port  ) 
!S44(C  6-Port  ) 
!S45(C  6-Port  ) 
!S46(C  6-Port  ) 
!S51(C  6-Port  ) 
!S52(C  6-Port  ) 
!S53(C  6-Port  ) 
!S54(C  6-Port  ) 
!S55(C  6-Port  ) 
!S56(C  6-Port  ) 
!S61(C  6-Port  ) 
!S62(C  6-Port  ) 
!S63(C  6-Port  ) 
!S64(C  6-Port  ) 
!S65(C  6-Port  ) 
!S66(C  6-Port  ) 
!S6P File: Measurement: :
# Hz S  RI   R 50
500000000 -0.33685 -0.034081 -0.010023 -0.0036362 -0.008071 0.011741 -0.0036642 0.011689
0.012235 0.0044941 -0.003874 0.0083329
-0.010016 -0.0036271 -0.41904 -0.049026 0.0074756 -0.011576 0.0013017 0.01186
0.0071983 0.0021897 0.00052821 0.013083
-0.0080436 0.01175 0.007449 -0.011601 -0.26471 0.2115 0.0068562 0.0032725
-0.00034622 0.0082531 0.0002301 0.012054
-0.0036391 0.011699 0.001316 0.011877 0.0068661 0.0032721 -0.32724 0.048651
-0.019945 -0.0045311 0.017747 0.026498
0.012249 0.0044754 0.0072108 0.0021749 -0.0003474 0.008237 -0.019966 -0.004519
-0.22783 -0.18234 -0.028579 0.0049383
-0.0038742 0.0083515 0.00055052 0.013101 0.00026238 0.012041 0.017745 0.026457
-0.028574 0.0049177 -0.26842 -0.13946
560000000 -0.31591 0.12536 -0.023844 -0.063131 0.00020916 0.012573 0.0062423 0.0097516
0.010748 0.0043191 0.0097636 0.0073873
-0.023822 -0.063061 -0.37637 0.10913 -0.041915 -0.036761 0.013619 0.003987
-0.013592 -0.0041843 0.0041491 -0.00065719
0.00025374 0.012578 -0.04205 -0.036701 -0.18294 0.25932 -0.0004402 -0.0050103
0.018784 0.0039451 0.0075518 -0.0058901
0.0062668 0.0097609 0.013639 0.0039334 -0.00042747 -0.005015 -0.30261 0.13622
0.0036258 -0.02458 0.0051442 -0.019544
0.010778 0.004286 -0.013633 -0.0041551 0.018786 0.003943 0.0036074 -0.024578
-0.28628 -0.0084546 0.0076092 -0.05101
0.0098046 0.0073601 0.0041314 -0.00068596 0.0075636 -0.0058909 0.0051334 -0.019538
0.0076234 -0.051017 -0.33472 0.01125
620000000 -0.27278 0.1101 -0.023327 0.00728 0.0035338 0.0084513 0.0069241 -0.0054801
0.011241 -0.0005132 0.00049046 -0.0018329
-0.023318 0.0072698 -0.40237 0.062809 -0.01899 -0.00040705 -0.0013363 -0.0019971
0.010157 -0.0073539 0.0010081 -0.002826
0.0035669 0.008442 -0.01901 -0.0003586 -0.15291 0.26758 -0.0013142 -0.0051709
-0.0041546 -0.0032628 0.0082798 -0.0034285
0.0069201 -0.0054803 -0.001347 -0.0020018 -0.0013112 -0.0051605 -0.26102 0.14666
-0.038774 -0.018702 0.014218 0.024661
0.011259 -0.00054929 0.010145 -0.0074013 -0.0041475 -0.0032638 -0.038797 -0.018664
-0.20551 -0.047203 -0.041285 0.015589
0.00050131 -0.0018351 0.00099973 -0.0028336 0.008284 -0.0034243 0.014207 0.024652
-0.041288 0.015564 -0.2506 -0.029259
680000000 -0.23258 0.19396 -0.027987 -0.013637 0.0047515 0.0050732 0.0011556 -0.0074159
-0.0031412 -0.011084 0.0047445 -0.007159
-0.027958 -0.013628 -0.38686 0.15971 -0.032913 -0.0012356 -0.0016181 -6.5059e-05
-0.0026348 -0.009053 -0.0010043 -0.0021371
0.0047584 0.0050621 -0.032944 -0.0011459 -0.10185 0.28746 -0.00072417 0.00018227
-0.0023751 0.00093322 -0.0030742 -0.009628
0.0011488 -0.0074358 -0.0016252 -6.7165e-05 -0.00072525 0.00017884 -0.21816 0.19551
-0.023695 -0.0081168 -0.010622 -0.010551
-0.003171 -0.011075 -0.0026607 -0.0090607 -0.0023797 0.00092812 -0.023716 -0.0080915
-0.25277 0.050889 -0.0056705 -0.0093607
0.0047191 -0.0071602 -0.0010081 -0.0021397 -0.0030758 -0.0096304 -0.010627 -0.01055
-0.005661 -0.0093599 -0.2636 0.079549
740000000 -0.18943 0.18876 -0.038244 0.02671 0.012588 -0.0052048 -0.00081422 -0.0040363
-0.0046377 -0.0030094 -0.0062328 0.0034012
-0.03821 0.026683 -0.33508 0.17871 -0.035036 0.035016 -0.00084714 -0.0061622
-0.011212 0.0084561 -0.0029121 -0.0066682
0.012563 -0.0052359 -0.03497 0.035156 -0.06856 0.28629 -0.0015364 0.0033667
-0.0028007 -0.0040144 -0.00097398 0.00014519
-0.00081632 -0.0040546 -0.00086645 -0.0061553 -0.001542 0.0033785 -0.20208 0.20312
-0.042656 -0.0072858 0.022611 0.013386
-0.0046589 -0.0030096 -0.011197 0.0085097 -0.0028173 -0.0040063 -0.042685 -0.0072383
-0.15581 0.07368 -0.042303 0.00093951
-0.0062255 0.0034258 -0.0029198 -0.0066608 -0.00097258 0.00013848 0.022638 0.013369
-0.042288 0.00091296 -0.25653 0.08522
800000000 -0.157 0.22874 -0.022417 0.017328 0.0052844 -0.010542 -0.0047721 -0.0019038
-0.0040217 0.0028154 0.0044352 0.00087139
-0.02241 0.017309 -0.33737 0.24862 -0.007853 0.034291 -0.0020498 0.0022565
-0.00071719 0.0035934 0.0012148 0.0053555
0.0052619 -0.010564 -0.0077592 0.034355 -0.02747 0.30956 0.0012427 0.0014661
0.00071079 0.003486 -0.0018886 0.0010518
-0.0047775 -0.0018958 -0.0020553 0.0022557 0.0012428 0.0014643 -0.1741 0.23071
-0.028465 0.013071 0.013812 -0.0099155
-0.0040082 0.0028396 -0.00070619 0.0036088 0.00071099 0.0034886 -0.028462 0.013132
-0.20004 0.098291 -0.017809 0.018043
0.0044323 0.00085439 0.0012305 0.0053504 -0.0018926 0.0010531 0.013802 -0.0099236
-0.01783 0.018019 -0.24921 0.1402
860000000 -0.12254 0.24973 -0.017126 0.031246 -0.0034352 -0.0099341 -0.0025173 0.0014257
0.0042346 0.0050782 -0.0031916 -0.0030603
-0.017134 0.031228 -0.28971 0.2905 0.0083602 0.034355 0.00018677 0.002212
0.0044465 0.0004021 0.0033909 4.828e-05
-0.0034594 -0.0099338 0.0084697 0.034362 0.020981 0.31757 -0.00033756 -0.00027086
0.0026638 -0.0015827 0.0016778 0.004425
-0.0025096 0.0014368 0.00019256 0.0022196 -0.00033913 -0.00027226 -0.13859 0.24284
-0.017896 0.019068 -0.0061527 -0.0095799
0.0042591 0.0050674 0.0044496 0.00040172 0.0026577 -0.0015934 -0.017871 0.019111
-0.15068 0.14631 -0.024576 0.015708
-0.0032014 -0.0030569 0.0034028 4.2997e-05 0.0016803 0.0044235 -0.0061648 -0.0095849
-0.024579 0.015682 -0.19767 0.18503
920000000 -0.0969 0.27289 0.0054213 0.037837 -0.0095041 -0.0043053 -0.0016842 0.0022968
0.0013938 0.0015432 0.0025465 -0.0016107
0.0053915 0.037825 -0.26046 0.31138 0.02836 0.021687 0.0016549 0.0010346
0.0069703 -0.00074664 0.0039276 -0.0030638
-0.0095219 -0.0042864 0.028453 0.02162 0.067634 0.31801 0.0017681 -0.00019037
0.0012688 -0.00044601 0.00074631 -0.0011455
-0.0016768 0.0023088 0.0016527 0.0010201 0.0017699 -0.0001931 -0.11428 0.25921
-0.010129 0.030385 0.0029238 -0.0068246
0.0014061 0.0015319 0.0069782 -0.0007786 0.0012718 -0.00044142 -0.010091 0.030426
-0.14024 0.15268 -0.0015342 0.028024
0.0025555 -0.0016235 0.003914 -0.0030821 0.00074567 -0.001154 0.002922 -0.0068224
-0.001554 0.028012 -0.20754 0.19856
980000000 -0.049399 0.29228 0.018056 0.02993 -0.0089008 0.0047249 0.0024777 0.0036397
0.0039631 -0.0016814 -0.002994 -0.0020558
0.018009 0.029929 -0.20772 0.34493 0.033249 0.0044215 0.0020082 -0.00011068
0.0010587 -0.0060929 -0.00042674 -0.0022396
-0.0088821 0.0047379 0.03328 0.0043106 0.1141 0.31114 0.00041844 -0.0012342
-2.4609e-05 -0.0021718 0.0015596 -4.469e-06
0.0024927 0.00364 0.0020036 -0.00013462 0.00041894 -0.0012293 -0.075903 0.27085
0.0078302 0.029003 -0.0094537 -0.0068303
0.0039646 -0.0017064 0.0010166 -0.0061017 -2.9402e-05 -0.0021754 0.0078862 0.028996
-0.10819 0.17973 0.0052737 0.018935
-0.0029931 -0.002051 -0.00046486 -0.0022314 0.001562 2.4941e-06 -0.0094648 -0.0068128
0.005259 0.018928 -0.1643 0.24571
1040000000 -0.0064405 0.30031 0.033619 0.017643 -0.0011631 0.006938 0.0027887 0.00064498
-9.7029e-05 -0.0036085 -0.00053038 -0.0015421
0.033589 0.017664 -0.17208 0.35817 0.029194 -0.015277 0.0014589 -0.0017233
-0.0026753 -0.0024226 -0.0014561 -0.002802
-0.0011336 0.0069333 0.029149 -0.015381 0.16056 0.29716 -0.00055284 -0.0013976
-0.0015674 -0.00078732 -0.00039976 -0.0012284
0.0028038 0.00064298 0.001441 -0.0017443 -0.00054709 -0.0013982 -0.048076 0.28104
0.018992 0.017099 -0.0031603 0.0019639
-0.00011453 -0.003626 -0.002704 -0.0023936 -0.0015699 -0.00078145 0.019025 0.017074
-0.07718 0.18814 0.013881 0.017932
-0.00053764 -0.0015463 -0.0014762 -0.002774 -0.00039925 -0.0012298 -0.00316 0.0019721
0.013864 0.017921 -0.14467 0.26777
1100000000 0.039129 0.30741 0.035871 -0.004891 0.0030052 0.003786 0.0024785 -0.0014754
-0.0020971 -0.0030731 -0.0040471 0.00013889
0.035846 -0.0048528 -0.12847 0.37508 0.014771 -0.028091 -5.0505e-05 -0.0018106
-0.0032195 -0.00038149 -0.0035465 -0.00040404
0.0030243 0.0037797 0.014667 -0.028167 0.20712 0.27629 -0.0018138 0.00030574
-0.0017054 0.00071648 -0.0010436 -0.00040659
0.0024759 -0.0014772 -6.7733e-05 -0.0018207 -0.0018121 0.0003014 -0.007211 0.28587
0.023495 0.0045557 -0.0024743 0.00084535
-0.0021248 -0.0030718 -0.0032375 -0.00036244 -0.0017096 0.00072248 0.02351 0.0045219
-0.059076 0.20097 0.019264 0.0083607
-0.0040395 0.00015713 -0.0035515 -0.00037443 -0.0010459 -0.00041285 -0.0024731 0.00085377
0.019255 0.0083609 -0.097777 0.29845
1160000000 0.090691 0.30208 0.023692 -0.021286 0.0027385 -0.00053356 -0.00018455 -0.0025405
-0.0040512 -0.00053224 -0.0010849 0.004055
0.023691 -0.021247 -0.08436 0.37935 -0.0042091 -0.029046 -0.0017972 -0.0015861
-0.0023035 0.0026732 -0.00135 0.0016911
0.0027491 -0.00054844 -0.0043516 -0.02905 0.25018 0.24479 -0.00056632 0.0018058
-0.00035325 0.0018391 -0.0011179 0.00012579
-0.00020123 -0.0025378 -0.0018108 -0.0015919 -0.00057926 0.0017986 0.032447 0.2829
0.019674 -0.010579 -0.0028848 0.0055387
-0.0040569 -0.0005129 -0.0023089 0.0027012 -0.00036105 0.0018386 0.019665 -0.010613
-0.026106 0.2103 0.017941 0.00040908
-0.0010551 0.0040629 -0.0013574 0.0017055 -0.001108 0.0001276 -0.0028772 0.0055514
0.017943 0.00040758 -0.050434 0.30177
1220000000 0.13523 0.29019 0.0098442 -0.030293 -0.0016113 -0.00088997 -0.0001313 -0.0011119
-0.0025621 0.0025457 0.0013074 0.0019298
0.0098555 -0.030258 -0.039729 0.39081 -0.017241 -0.020798 -0.0024863 0.00054219
0.00035322 0.0029026 -0.00067294 0.0018284
-0.0016032 -0.00089034 -0.017353 -0.020742 0.28901 0.205 0.00094416 0.0015876
0.00062413 0.001157 0.0002476 0.00078138
-0.00013821 -0.0011138 -0.0024871 0.00054808 0.00094656 0.0015903 0.072413 0.27398
0.0091314 -0.016381 0.0027069 0.0017605
-0.0025375 0.0025574 0.00036968 0.0029121 0.00062117 0.0011591 0.009122 -0.016397
-0.0025229 0.21992 0.013681 -0.012985
0.0013261 0.0019242 -0.00066786 0.0018289 0.00024809 0.00078486 0.0027049 0.0017674
0.013682 -0.01298 -0.01891 0.32063
1280000000 0.18482 0.26745 -0.0084933 -0.02843 -0.0018586 0.002562 -0.0011053 -0.0019392
-0.00061623 0.0031337 0.0026436 0.0010003
-0.0084711 -0.028403 0.0064681 0.38131 -0.023814 -0.0080279 -0.00091251 0.0015453
0.0017204 0.0015401 0.00058085 0.0020114
-0.0018492 0.0025623 -0.023879 -0.0079228 0.31907 0.16076 0.0014093 -0.00026803
0.0010245 6.0637e-05 0.00031469 0.00046856
-0.0011199 -0.0019236 -0.00090591 0.0015483 0.0014079 -0.00026788 0.1089 0.25739
-0.00020282 -0.017887 0.00038491 0.00016779
-0.00059352 0.003137 0.0017339 0.0015302 0.0010251 6.4574e-05 -0.00023499 -0.017892
0.034494 0.22377 0.0026995 -0.014891
0.002647 0.00099459 0.0005931 0.0020126 0.00031438 0.00046759 0.00038682 0.00016779
0.0026962 -0.014883 0.029434 0.32279
1340000000 0.22173 0.23295 -0.018164 -0.018627 0.00087998 0.0044029 -0.0019432 -0.00074116
0.0015162 0.0026084 0.0016357 -0.0015621
-0.018137 -0.01862 0.045915 0.37224 -0.021356 0.0045893 2.2877e-05 0.0019071
0.001734 0.00053145 0.0013955 0.00087133
0.00089942 0.0044006 -0.021362 0.0047116 0.34038 0.11276 0.00088938 -0.00092946
0.00054952 -0.00040996 0.00019496 0.00032589
-0.0019524 -0.00073067 3.943e-05 0.0018957 0.00089655 -0.00093013 0.14161 0.2369
-0.0087059 -0.014488 0.00126 0.00018438
0.0015293 0.0025963 0.0017472 0.00052086 0.00054745 -0.00040984 -0.0087458 -0.014476
0.065388 0.2191 -0.0039236 -0.013251
0.0016268 -0.0015775 0.0014069 0.00086163 0.00019633 0.00032604 0.0012601 0.00018285
-0.0039149 -0.013258 0.068856 0.31933
1400000000 0.25415 0.19392 -0.023624 -0.0069686 0.0051045 0.0030809 -0.0019829 0.00077003
0.0025334 0.00068488 0.0001722 -0.0013383
-0.023592 -0.0069787 0.082752 0.3585 -0.014479 0.012531 0.0013584 0.0011715
0.00091013 -0.00090299 0.0012171 0.00026196
0.0051278 0.0030609 -0.014433 0.012623 0.3531 0.059447 2.7621e-05 -0.0014702
3.211e-05 -0.00039774 0.00037167 0.00026899
-0.001979 0.00077839 0.0013679 0.0011699 2.3498e-05 -0.001473 0.17115 0.20821
-0.01366 -0.0078453 -0.00060552 -0.00067575
0.0025363 0.00067497 0.00091005 -0.00091098 2.8128e-05 -0.00039852 -0.013689 -0.0078246
0.098795 0.21399 -0.010201 -0.0081599
0.00015836 -0.0013355 0.0012222 0.00025494 0.00037347 0.00027129 -0.00060415 -0.00067824
-0.010179 -0.008175 0.11477 0.30888
1460000000 0.27632 0.14941 -0.020387 0.005201 0.0055163 -0.0018229 -0.001487 0.0017423
0.0020099 -0.00082658 -0.00033212 -0.00079109
-0.02037 0.0051788 0.1164 0.33617 -0.0058139 0.015133 0.0016464 0.00010852
0.00072542 -0.0011716 0.0011563 -0.00064256
0.0055096 -0.0018417 -0.0057459 0.015178 0.35885 0.0052669 -0.001176 -0.0011225
0.0002617 -0.00012212 0.00073904 -0.00049611
-0.0014849 0.001745 0.0016514 0.0001027 -0.001174 -0.0011215 0.1978 0.17907
-0.013861 -0.0016674 -0.00097527 0.001639
0.0020009 -0.00082894 0.00071632 -0.0011718 0.00025977 -0.00011601 -0.013858 -0.001639
0.12892 0.19879 -0.011618 -0.0023572
-0.00033901 -0.00079542 0.0011581 -0.0006546 0.00074552 -0.00050326 -0.0009814 0.0016337
-0.01161 -0.0023528 0.1484 0.28791
1520000000 0.28771 0.10746 -0.014476 0.010764 0.0030711 -0.0041606 0.00022382 0.0025605
0.0017526 -0.0018062 -0.0011656 -0.00011845
-0.014477 0.010746 0.1493 0.32121 0.0016608 0.012867 0.0015557 -0.0008153
2.6495e-05 -0.00084072 0.00028295 -0.0010514
0.0030498 -0.0041755 0.0017322 0.012873 0.35195 -0.050722 -0.00090529 -0.00032863
0.00055463 -0.00084718 4.7103e-06 -0.00013006
0.00023102 0.0025561 0.0015536 -0.00081843 -0.00090921 -0.00033017 0.22126 0.14086
-0.012599 0.0032071 0.0012293 0.0017981
0.0017427 -0.0018133 1.8464e-05 -0.00083782 0.00055336 -0.00085184 -0.012599 0.0032406
0.15732 0.18368 -0.011424 0.0019535
-0.0011747 -0.00010933 0.00027367 -0.0010613 4.4167e-06 -0.00012889 0.0012369 0.0018038
-0.011418 0.0019414 0.18224 0.26849
1580000000 0.29615 0.06109 -0.0076124 0.01364 -0.00099847 -0.004746 0.001417 0.0017761
-0.0005633 -0.0021019 -0.00032217 0.00038485
-0.0076253 0.013627 0.176 0.29642 0.0051647 0.0080653 0.00041384 -0.0015348
-0.00039334 -0.00093101 -0.00028324 -0.00087732
-0.0010147 -0.0047499 0.0052107 0.0080472 0.3317 -0.10833 -0.001468 0.0004442
-0.00030639 -0.0011735 0.00018367 -0.00057068
0.0014269 0.0017748 0.00040595 -0.0015395 -0.0014637 0.00044553 0.23556 0.10107
-0.0091166 0.0069429 0.0019573 0.00054609
-0.00057881 -0.0020949 -0.00040051 -0.00092942 -0.000305 -0.0011749 -0.0091091 0.0069632
0.18187 0.16476 -0.0087975 0.0072244
-0.0003223 0.00039002 -0.00028598 -0.00087568 0.00018124 -0.00057509 0.0019501 0.00053731
-0.0088023 0.0072149 0.21498 0.24198
1640000000 0.29738 0.019864 -0.00093252 0.012254 -0.0027726 -0.0025505 0.0025319 0.00096122
-0.00094488 -0.0011202 -0.00030859 0.00060323
-0.00094803 0.012242 0.20495 0.27152 0.0057113 0.003402 -0.00075839 -0.001612
-0.00087087 -0.00044143 -0.00053738 -0.00063039
-0.002791 -0.0025386 0.0057354 0.0033682 0.30332 -0.15698 -0.00085427 0.0012924
-0.0010502 -0.00078957 -0.00010308 -0.0003629
0.0025469 0.00094297 -0.00076747 -0.0016037 -0.00085738 0.0012958 0.24789 0.051591
-0.0053698 0.0071837 0.0022492 -0.00085755
-0.00094832 -0.0011158 -0.00087208 -0.00043949 -0.0010547 -0.00079186 -0.0053532 0.007203
0.20466 0.13889 -0.0039692 0.0092734
-0.00030394 0.00060785 -0.00053948 -0.00062684 -0.00010578 -0.00036403 0.0022451 -0.00086156
-0.0039772 0.0092656 0.24154 0.21097
1700000000 0.28949 -0.025267 0.0024302 0.0092828 -0.0035087 0.0002268 0.0029221 -0.0011479
-0.0018336 -0.00027359 0.00055947 0.00038473
0.0024218 0.0092678 0.2227 0.24025 0.0037592 0.00057409 -0.0013809 -0.00053047
-0.00073654 -5.7351e-05 -0.00092981 -0.00040554
-0.0035075 0.00024202 0.0037644 0.00054832 0.26002 -0.19699 0.00032183 0.0015465
-0.001762 -0.00020355 -0.00056075 -0.00092865
0.0029108 -0.0011579 -0.0013824 -0.00052783 0.00031346 0.0015425 0.24435 0.0011601
-0.0035566 0.0070184 0.0013252 -0.0021102
-0.0018398 -0.00025927 -0.00073144 -5.1393e-05 -0.0017718 -0.00020417 -0.0035465 0.0070256
0.2218 0.11678 0.00050718 0.0094079
0.00056351 0.00038111 -0.00093598 -0.00039561 -0.00056714 -0.00092788 0.0013157 -0.0021169
0.00050784 0.0094098 0.25876 0.17662
1760000000 0.27653 -0.073312 0.0044783 0.0058623 -0.0022732 0.00085286 0.00127 -0.0033094
-0.00094292 0.00074925 0.00036029 -0.00047677
0.0044716 0.0058609 0.2484 0.2006 0.0015242 -0.0011946 -0.0011089 0.00019588
-0.0011361 0.00075589 -0.00059151 0.00052644
-0.0022798 0.00086643 0.0015161 -0.0012042 0.21131 -0.23063 0.0010426 0.0012978
-0.0010752 0.0013135 -0.0014532 -0.00038427
0.0012579 -0.0033109 -0.0011071 0.00020912 0.0010425 0.0013043 0.23436 -0.050577
-0.0015394 0.0062348 -0.00051681 -0.0022988
-0.00094258 0.00075577 -0.0011244 0.00077945 -0.0010839 0.0013082 -0.0015313 0.0062352
0.23616 0.080039 0.0042043 0.0064044
0.00035935 -0.0004816 -0.00058616 0.00053166 -0.0014567 -0.00037759 -0.00051378 -0.0022977
0.0042094 0.0064023 0.27177 0.13879
1820000000 0.25151 -0.11006 0.0044999 0.0023844 2.4031e-07 0.0024713 -0.00093935 -0.0030422
-0.00071616 0.00066144 4.1438e-05 -0.0001088
0.0044936 0.0023787 0.25826 0.17083 -0.00034356 0.00013656 -0.0012777 0.00085842
-0.00017397 0.001343 -0.00053866 0.00053897
8.2968e-06 0.0024742 -0.00033956 0.0001429 0.161 -0.24565 0.0015771 0.00047983
-0.00033599 0.0022463 -0.0015913 0.0004821
-0.00094625 -0.0030357 -0.0012739 0.00086467 0.0015826 0.00047394 0.20358 -0.09773
-0.00090839 0.0050258 -0.0017144 -0.001452
-0.00070764 0.00066783 -0.00016091 0.0013454 -0.00033038 0.0022362 -0.00089301 0.0050236
0.25166 0.04901 0.0049928 0.0028767
4.1219e-05 -0.00011004 -0.00053425 0.00054401 -0.0015881 0.00049497 -0.0017165 -0.001442
0.0050007 0.0028764 0.27476 0.1026
1880000000 0.21606 -0.14956 0.0021937 0.00028191 -0.00033638 0.0022242 -0.0028304 -0.002156
-0.0001832 0.0012993 0.00040114 -0.00057728
0.0021986 0.00028589 0.26268 0.12446 -0.0022808 0.001697 -0.00016656 0.0016416
0.00058616 0.0013951 0.00025319 0.0010212
-0.00033665 0.0022296 -0.0022814 0.0017205 0.10868 -0.25564 0.0019774 -0.0010318
0.0014392 0.0020133 -0.0009358 0.0015369
-0.0028468 -0.0021421 -0.00015852 0.0016431 0.0019769 -0.0010309 0.1625 -0.1371
-0.00087154 0.0040539 -0.0023897 0.00070074
-0.00016557 0.001302 0.00060162 0.0013989 0.0014409 0.0020176 -0.00086187 0.0040551
0.25266 0.014715 0.0044845 0.00092611
0.00039254 -0.00058381 0.00026171 0.0010229 -0.00093362 0.0015381 -0.0023903 0.00070766
0.0044797 0.0009203 0.27501 0.068275
1940000000 0.17678 -0.17486 2.1586e-05 -0.0013678 0.0014062 0.0018912 -0.0037635 0.00058547
0.0010583 0.00094867 -0.00066993 -0.00070867
2.7854e-05 -0.0013732 0.26314 0.092787 -0.001179 0.0039782 0.00095665 0.0012982
0.001999 0.00058808 0.00090575 0.00024631
0.0014147 0.0018851 -0.0011545 0.0039933 0.062565 -0.24907 0.00037889 -0.0024157
0.0025079 0.00046089 0.00046207 0.0017458
-0.0037664 0.00060358 0.00096979 0.0012906 0.00037997 -0.0024145 0.10979 -0.16669
-0.0020819 0.0038185 -0.0013419 0.0017712
0.0010692 0.00094585 0.0020022 0.00058216 0.0025096 0.00046392 -0.0020733 0.003824
0.25181 -0.025399 0.0031666 -0.0022958
-0.00068137 -0.00070238 0.0009073 0.00024354 0.00046115 0.0017432 -0.0013419 0.0017789
0.0031604 -0.0022921 0.26444 0.032441
2000000000 0.13061 -0.18892 -0.0037139 0.00060161 0.002539 0.0014276 -0.0022351 0.0035852
0.00092594 0.00033767 -0.00077247 0.00045849
-0.0037057 0.00059087 0.24906 0.057333 -0.00078706 0.0057233 0.0016551 0.00032532
0.0015534 -0.001397 0.00048734 -9.962e-07
0.0025528 0.0014142 -0.00074958 0.0057337 0.018975 -0.23456 -0.0015355 -0.0014774
0.0020947 -0.0012117 0.0016867 0.0012761
-0.0022096 0.0035962 0.0016524 0.00031411 -0.0015349 -0.0014748 0.056714 -0.17588
-0.0032822 0.0046136 5.5681e-05 0.0023425
0.00092739 0.00032637 0.0015405 -0.0014142 0.002089 -0.0012132 -0.0032654 0.0046168
