!Keysight Technologies,M9804A,MY58100912,A.14.10.03
!Date: Thursday, April 27, 2023 10:28:33
!Correction: S11(C  6-Port  ) 
!S12(C  6-Port  ) 
!S13(C  6-Port  ) 
!S14(C  6-Port  ) 
!S15(C  6-Port  ) 
!S16(C  6-Port  ) 
!S21(C  6-Port  ) 
!S22(C  6-Port  ) 
!S23(C  6-Port  ) 
!S24(C  6-Port  ) 
!S25(C  6-Port  ) 
!S26(C  6-Port  ) 
!S31(C  6-Port  ) 
!S32(C  6-Port  ) 
!S33(C  6-Port  ) 
!S34(C  6-Port  ) 
!S35(C  6-Port  ) 
!S36(C  6-Port  ) 
!S41(C  6-Port  ) 
!S42(C  6-Port  ) 
!S43(C  6-Port  ) 
!S44(C  6-Port  ) 
!S45(C  6-Port  ) 
!S46(C  6-Port  ) 
!S51(C  6-Port  ) 
!S52(C  6-Port  ) 
!S53(C  6-Port  ) 
!S54(C  6-Port  ) 
!S55(C  6-Port  ) 
!S56(C  6-Port  ) 
!S61(C  6-Port  ) 
!S62(C  6-Port  ) 
!S63(C  6-Port  ) 
!S64(C  6-Port  ) 
!S65(C  6-Port  ) 
!S66(C  6-Port  ) 
!S6P File: Measurement: :
# Hz S  RI   R 50
500000000 -0.33763 -0.035044 -0.0096325 -0.0035762 -0.0077806 0.011862 -0.003366 0.011802
0.01158 0.0046642 -0.0038737 0.008864
-0.0096147 -0.003554 -0.41943 -0.049963 0.0069958 -0.011538 0.0014097 0.01184
0.0078907 0.0028096 0.00070773 0.013682
-0.0077681 0.011848 0.006979 -0.011568 -0.26533 0.2116 0.0066064 0.0031894
7.7272e-05 0.0085968 -0.00015615 0.012184
-0.0033392 0.011803 0.0014276 0.011855 0.0066099 0.0031725 -0.32779 0.047887
-0.019763 -0.0043864 0.018223 0.027249
0.011586 0.0046528 0.0079004 0.002784 7.2503e-05 0.0085911 -0.019762 -0.0043751
-0.22651 -0.18587 -0.028731 0.0055962
-0.0038457 0.0088788 0.00074594 0.013707 -0.00014837 0.012157 0.018222 0.027223
-0.028746 0.0055828 -0.26047 -0.16191
560000000 -0.31632 0.12498 -0.023908 -0.063108 6.213e-06 0.012142 0.0061516 0.0099212
0.010723 0.0041184 0.0099478 0.0077721
-0.023863 -0.063034 -0.37698 0.10838 -0.041883 -0.036017 0.013258 0.0036253
-0.013412 -0.0043412 0.0043649 -0.00034891
-6.3764e-06 0.01214 -0.041977 -0.035974 -0.18313 0.25923 -0.00035737 -0.0048973
0.019238 0.004105 0.0068669 -0.0056899
0.006193 0.0099567 0.013258 0.0036048 -0.00034858 -0.0049069 -0.3031 0.13629
0.0032454 -0.024469 0.0054772 -0.020062
0.010786 0.0041034 -0.013416 -0.004342 0.019251 0.0041063 0.0032366 -0.024473
-0.28563 -0.010295 0.0078578 -0.051944
0.0099752 0.0077074 0.0043592 -0.00037186 0.0068911 -0.0056778 0.00546 -0.020087
0.0078659 -0.051937 -0.33529 -0.0071475
620000000 -0.27343 0.10928 -0.023412 0.0075789 0.0035212 0.0086119 0.0068196 -0.0053959
0.011366 -0.00086211 0.00093723 -0.0020316
-0.023401 0.0075843 -0.40261 0.062835 -0.018775 0.00023039 -0.0013652 -0.002041
0.010391 -0.0070663 0.0013132 -0.0023642
0.0035304 0.0086077 -0.018783 0.00027692 -0.15253 0.26865 -0.0015664 -0.0052287
-0.0037231 -0.0032866 0.0087624 -0.003147
0.0067848 -0.0054255 -0.0013851 -0.002049 -0.0015529 -0.0052407 -0.26169 0.14633
-0.039027 -0.018441 0.014374 0.025115
0.011436 -0.0008654 0.010386 -0.0071097 -0.0037271 -0.0032895 -0.039034 -0.018421
-0.20518 -0.049354 -0.042396 0.01655
0.00095382 -0.0019964 0.0012937 -0.0023796 0.0087813 -0.0031187 0.014389 0.025093
-0.042423 0.016539 -0.2479 -0.051849
680000000 -0.23329 0.19381 -0.028018 -0.013627 0.0048083 0.0050086 0.0012153 -0.0074653
-0.0031784 -0.010925 0.0048759 -0.0070537
-0.027977 -0.013641 -0.38711 0.15977 -0.032781 -0.0011096 -0.0016484 -0.00020492
-0.0027007 -0.0090209 -0.00073726 -0.0020241
0.0048209 0.0049947 -0.032815 -0.0010197 -0.10151 0.28798 -0.00065858 -1.4088e-05
-0.0022763 0.00079697 -0.0027226 -0.0097572
0.0011935 -0.0074833 -0.0016411 -0.00020301 -0.00066039 -1.1693e-05 -0.21802 0.19586
-0.023632 -0.0076803 -0.011169 -0.011031
-0.0032237 -0.010966 -0.0027346 -0.009016 -0.0022802 0.00079343 -0.02365 -0.0076682
-0.25335 0.049015 -0.0052806 -0.0093838
0.0048611 -0.0070484 -0.00074972 -0.0020322 -0.0027338 -0.0097692 -0.011184 -0.011031
-0.0052503 -0.0093661 -0.26689 0.062214
740000000 -0.18953 0.18843 -0.038104 0.026835 0.012742 -0.0052685 -0.00067932 -0.003966
-0.0043966 -0.0028039 -0.0062747 0.0035228
-0.038086 0.026791 -0.33488 0.17848 -0.034638 0.035162 -0.0010242 -0.0063498
-0.011279 0.0080171 -0.0029859 -0.0069016
0.012733 -0.0052843 -0.034585 0.035295 -0.068009 0.28647 -0.001392 0.0032354
-0.0026572 -0.0040421 -0.00085919 0.00016831
-0.00071296 -0.0039908 -0.0010231 -0.0063528 -0.0014068 0.003236 -0.20218 0.20347
-0.04227 -0.0073195 0.023334 0.014267
-0.0044811 -0.0028302 -0.011241 0.0080802 -0.0026726 -0.0040149 -0.042293 -0.0072645
-0.15601 0.072554 -0.043671 0.0012542
-0.0062295 0.0035883 -0.002988 -0.006886 -0.00083878 0.00017691 0.023355 0.014247
-0.043671 0.0012001 -0.26158 0.066035
800000000 -0.15706 0.22865 -0.022144 0.017439 0.0053656 -0.010593 -0.0048165 -0.0019394
-0.004022 0.0025918 0.0046013 0.00054238
-0.022127 0.017415 -0.33726 0.24865 -0.0076061 0.034157 -0.0021751 0.0022034
-0.00064723 0.0034308 0.0012154 0.0052724
0.0053542 -0.010611 -0.0075178 0.034201 -0.026891 0.30926 0.0011104 0.0015816
0.00062271 0.0035177 -0.0017356 0.00074842
-0.0048292 -0.0019445 -0.0021781 0.0022119 0.0011051 0.0015764 -0.17387 0.23096
-0.028226 0.01294 0.014223 -0.010378
-0.0040183 0.0026196 -0.00063106 0.0034595 0.00062533 0.0035295 -0.02823 0.013
-0.20046 0.097064 -0.017993 0.01838
0.0045909 0.00054328 0.0012415 0.0052835 -0.0017223 0.00074024 0.014229 -0.010392
-0.017984 0.018365 -0.25753 0.12386
860000000 -0.12237 0.24925 -0.016784 0.031074 -0.0033025 -0.010008 -0.0024764 0.0012252
0.003992 0.0050583 -0.0033601 -0.0032123
-0.016787 0.031049 -0.28919 0.29042 0.0084105 0.034191 0.00010595 0.0021523
0.0043157 0.0005718 0.0033615 0.0001578
-0.0033308 -0.01 0.0085217 0.034187 0.021267 0.31709 -0.00039965 -0.00027421
0.0026843 -0.0015949 0.0017586 0.0044689
-0.00247 0.0012234 0.00010658 0.0021468 -0.00039952 -0.00027864 -0.13821 0.24274
-0.017538 0.018831 -0.0062748 -0.0097264
0.0040169 0.0050272 0.004328 0.00054793 0.0026937 -0.001602 -0.017518 0.018865
-0.15111 0.14511 -0.025684 0.015723
-0.0033759 -0.003196 0.0033625 0.00014824 0.0017678 0.004471 -0.0062795 -0.0097059
-0.02572 0.015718 -0.20575 0.17169
920000000 -0.097021 0.27232 0.0055209 0.037504 -0.0094747 -0.0044478 -0.0017572 0.0021372
0.0012672 0.0017325 0.0025549 -0.0014148
0.0055018 0.037471 -0.26024 0.31101 0.028261 0.021513 0.0016163 0.00095524
0.006947 -0.00065543 0.0039233 -0.0031267
-0.0094911 -0.0044185 0.02835 0.021437 0.067678 0.31754 0.0017929 -0.00016883
0.0012418 -0.00051478 0.00064087 -0.0013062
-0.0017657 0.0021333 0.0016128 0.000966 0.0017953 -0.0001736 -0.11384 0.25901
-0.010085 0.030146 0.0031524 -0.0068698
0.0013101 0.0017307 0.0069416 -0.00068271 0.0012398 -0.00051873 -0.010018 0.030182
-0.14084 0.15116 -0.0015032 0.028428
0.0025424 -0.0014201 0.0039274 -0.0031433 0.00063509 -0.0013055 0.0031418 -0.0068722
-0.0015129 0.02841 -0.21965 0.18481
980000000 -0.049622 0.29172 0.018022 0.029649 -0.0089623 0.0046299 0.0023905 0.0035554
0.0039703 -0.0016618 -0.0031557 -0.002095
0.018 0.029638 -0.20758 0.34467 0.033013 0.0043754 0.0020269 -9.2627e-05
0.0011542 -0.0061389 -0.00051223 -0.0022044
-0.0089459 0.0046623 0.033051 0.0042441 0.11405 0.31078 0.00040335 -0.00121
-3.4674e-05 -0.0021289 0.0014625 6.6003e-06
0.0024209 0.0035573 0.0020126 -9.4644e-05 0.00039953 -0.0012072 -0.075468 0.27043
0.007867 0.028743 -0.0096208 -0.0071292
0.0039677 -0.0016509 0.0011087 -0.0061604 -4.3037e-05 -0.0021396 0.0079202 0.028747
-0.10883 0.17856 0.004998 0.01937
-0.0031715 -0.0020821 -0.00050943 -0.0021897 0.0014589 3.4357e-07 -0.0096362 -0.0071098
0.0049632 0.019359 -0.176 0.23539
1040000000 -0.0068597 0.29991 0.033344 0.017507 -0.0012573 0.006875 0.0027099 0.0007095
3.416e-05 -0.0035579 -0.00049823 -0.0016376
0.033309 0.0175 -0.17211 0.35775 0.029059 -0.01521 0.0014682 -0.001746
-0.0026088 -0.0024065 -0.0015002 -0.0028763
-0.0012301 0.0068861 0.029011 -0.01535 0.16038 0.29686 -0.00057528 -0.001423
-0.0016103 -0.00078264 -0.0005369 -0.0011465
0.0027268 0.0006865 0.0014495 -0.0017378 -0.00057396 -0.0014241 -0.047962 0.28044
0.018766 0.01693 -0.0029046 0.0018788
2.4605e-05 -0.0035505 -0.0026512 -0.002403 -0.0016271 -0.00078624 0.018802 0.016907
-0.078085 0.18706 0.01381 0.018327
-0.00050927 -0.0016345 -0.0015048 -0.0028614 -0.00053482 -0.0011448 -0.0028879 0.001878
0.013797 0.018326 -0.15881 0.2588
1100000000 0.038611 0.30715 0.03564 -0.0048971 0.0028405 0.0037917 0.0025145 -0.00137
-0.0020568 -0.003063 -0.0041219 5.1426e-05
0.03562 -0.0048695 -0.12853 0.37477 0.014655 -0.027975 -1.4598e-05 -0.0018308
-0.0032502 -0.00039249 -0.0035971 -0.00043353
0.0028463 0.0037898 0.014557 -0.028063 0.20698 0.27609 -0.0018052 0.00027778
-0.0016934 0.00070852 -0.0010852 -0.00029762
0.002513 -0.0013687 -2.5753e-05 -0.0018295 -0.0018047 0.0002791 -0.0073985 0.28524
0.023196 0.0045073 -0.002561 0.00063013
-0.0020618 -0.0030402 -0.0032717 -0.00038125 -0.0016994 0.00070588 0.023206 0.0044836
-0.059966 0.1998 0.019481 0.0089297
-0.0041213 6.4283e-05 -0.0035986 -0.00041349 -0.0010851 -0.00029321 -0.0025544 0.00064275
0.019465 0.0089342 -0.11174 0.29248
1160000000 0.090271 0.30178 0.023498 -0.021217 0.0025761 -0.00048144 -0.00010047 -0.0024821
-0.0041079 -0.00053491 -0.001093 0.0042338
0.023496 -0.021184 -0.084597 0.379 -0.0042423 -0.02896 -0.0017887 -0.0016607
-0.0024007 0.002728 -0.0013199 0.0016949
0.002575 -0.00048388 -0.0043698 -0.028982 0.25003 0.24468 -0.0005996 0.001792
-0.00028806 0.0018987 -0.0010435 0.00022586
-8.7295e-05 -0.0024822 -0.0018037 -0.0016506 -0.00059791 0.0017976 0.03202 0.28233
0.019412 -0.01049 -0.0031501 0.005684
-0.0041118 -0.00049858 -0.0024095 0.0027231 -0.00029644 0.0018943 0.019401 -0.010515
-0.027047 0.20905 0.018115 0.0010141
-0.0010646 0.0042324 -0.0013051 0.0017228 -0.0010486 0.00022995 -0.003129 0.0056953
0.0181 0.0010136 -0.064087 0.29655
1220000000 0.13475 0.29 0.0097397 -0.030154 -0.0016001 -0.00069786 -5.6076e-05 -0.0011162
-0.0026018 0.0025534 0.0012892 0.0019523
0.0097603 -0.03012 -0.040132 0.39061 -0.017167 -0.020776 -0.0025068 0.00050658
0.00034957 0.0029887 -0.00070159 0.0018027
-0.0015979 -0.00068479 -0.017276 -0.020729 0.28884 0.20505 0.0009284 0.0016267
0.00065079 0.0011618 0.00038197 0.00081415
-5.7601e-05 -0.001117 -0.0025083 0.00051918 0.00092459 0.0016337 0.071756 0.27372
0.0089741 -0.016156 0.002642 0.0017579
-0.0026007 0.0025833 0.00036618 0.0029772 0.00064856 0.0011597 0.0089481 -0.016173
-0.0039718 0.21876 0.014143 -0.012846
0.0013039 0.0019431 -0.00068597 0.001808 0.00038835 0.00081719 0.0026502 0.0017546
0.014138 -0.012853 -0.033773 0.31848
1280000000 0.1843 0.2675 -0.0084998 -0.028212 -0.0017695 0.0026534 -0.0010773 -0.0020443
-0.00064004 0.0031386 0.0026904 0.0010889
-0.0084737 -0.028192 0.0060115 0.38129 -0.023764 -0.0080389 -0.00095696 0.001552
0.0017769 0.0015811 0.00057219 0.0020766
-0.0017583 0.0026625 -0.023834 -0.0079378 0.31881 0.16087 0.0014636 -0.00021583
0.0010443 3.93e-05 0.00035894 0.00045573
-0.0010868 -0.0020372 -0.00094837 0.0015565 0.0014668 -0.0002198 0.10823 0.25745
-0.00019432 -0.017634 0.00034491 0.00025958
-0.00062297 0.0031449 0.001782 0.0015823 0.0010476 3.8467e-05 -0.00022658 -0.017643
0.032972 0.22291 0.0029808 -0.014763
0.0026946 0.0010685 0.00058546 0.0020809 0.00036638 0.00046156 0.00034284 0.00025873
0.0029887 -0.014768 0.015671 0.32267
1340000000 0.22122 0.23308 -0.018074 -0.018449 0.0010242 0.004435 -0.0019837 -0.00080707
0.0015704 0.0026463 0.0017233 -0.001537
-0.018037 -0.018445 0.045478 0.37241 -0.021391 0.0045922 4.2875e-05 0.0019382
0.0018083 0.00052946 0.0013989 0.00089709
0.0010488 0.0044348 -0.021394 0.0047011 0.34038 0.11278 0.00091734 -0.00096278
0.00061068 -0.00042091 0.00019576 0.00028099
-0.0019832 -0.00080285 5.4345e-05 0.0019334 0.00092102 -0.000956 0.14108 0.23726
-0.008635 -0.014252 0.0013079 0.00020458
0.0015829 0.0026347 0.0018088 0.00051476 0.00061175 -0.00042487 -0.0086642 -0.014248
0.063559 0.21854 -0.0035023 -0.013347
0.0017175 -0.0015484 0.0014091 0.00088807 0.00019622 0.00028064 0.0013134 0.00019549
-0.0034971 -0.013347 0.055451 0.32122
1400000000 0.25383 0.19438 -0.023461 -0.0068395 0.0052117 0.0030269 -0.0020877 0.0007836
0.0025276 0.00072142 0.00027044 -0.0013409
-0.023432 -0.0068482 0.082466 0.35895 -0.014508 0.012569 0.0013839 0.0011797
0.00090026 -0.00094642 0.0012441 0.00033142
0.005221 0.0030139 -0.014457 0.012657 0.353 0.059361 -9.149e-06 -0.0014746
1.5127e-05 -0.00038033 0.00038836 0.00023318
-0.0020904 0.00078406 0.0013884 0.0011785 -1.3336e-05 -0.001474 0.17086 0.20872
-0.013453 -0.0077496 -0.00058125 -0.00070638
0.0025366 0.00070787 0.00089371 -0.00094617 1.5678e-05 -0.00037495 -0.013479 -0.0077283
0.096972 0.21389 -0.0098838 -0.0083517
0.0002606 -0.0013415 0.0012484 0.00031765 0.00039767 0.00023681 -0.00060415 -0.00070273
-0.0098825 -0.0083657 0.10275 0.31238
1460000000 0.27626 0.14984 -0.020194 0.0052384 0.0055731 -0.0017812 -0.0015148 0.0018223
0.0020548 -0.0007841 -0.00022813 -0.00085595
-0.020178 0.0052178 0.11634 0.33671 -0.0057841 0.015224 0.0016797 8.9107e-05
0.00070597 -0.0011715 0.0012278 -0.00062729
0.005569 -0.0018058 -0.0057203 0.015278 0.35884 0.0052126 -0.0011909 -0.0011849
0.00027495 -0.00011253 0.00078148 -0.0005108
-0.0015016 0.001832 0.0016759 7.2777e-05 -0.0011922 -0.001194 0.19775 0.17959
-0.013743 -0.0016563 -0.001 0.0017004
0.002047 -0.000801 0.0007042 -0.0011857 0.00027337 -0.00011581 -0.013742 -0.0016313
0.12721 0.1991 -0.011401 -0.0027
-0.00024067 -0.0008602 0.0012371 -0.00062163 0.00078762 -0.00050849 -0.0010059 0.0017134
-0.011402 -0.0027041 0.13711 0.29234
1520000000 0.2879 0.1078 -0.014298 0.010657 0.0031894 -0.0042248 0.00022617 0.0026176
0.0017607 -0.001819 -0.0011671 -0.00021921
-0.014289 0.010642 0.14947 0.32176 0.0017203 0.012926 0.0015517 -0.00082182
1.8741e-05 -0.00080401 0.00032429 -0.0010515
0.0031705 -0.0042452 0.0017847 0.012935 0.35192 -0.050834 -0.00096269 -0.0002993
0.00056792 -0.00080979 7.6462e-06 -0.00013721
0.00023078 0.0026198 0.0015498 -0.00083543 -0.00095978 -0.0002935 0.22144 0.14132
-0.012457 0.0031288 0.001252 0.0018588
0.0017451 -0.0018347 1.2153e-05 -0.00080621 0.00057146 -0.00081479 -0.012462 0.0031712
0.15571 0.18433 -0.011452 0.0015893
-0.0011795 -0.00021542 0.00032303 -0.0010582 5.1477e-06 -0.00013901 0.0012531 0.0018502
-0.011449 0.001581 0.17217 0.27469
1580000000 0.29655 0.061254 -0.007566 0.013467 -0.00097656 -0.0048822 0.0014931 0.0018124
-0.00055807 -0.0021163 -0.00035995 0.00035334
-0.0075678 0.013453 0.17635 0.29684 0.0052454 0.0080818 0.00040457 -0.0015328
-0.00037284 -0.00089583 -0.00025678 -0.00088606
-0.00099034 -0.0048807 0.0052901 0.0080614 0.33161 -0.10818 -0.0014244 0.00050354
-0.0002823 -0.0011215 0.00013852 -0.00059497
0.0015 0.0018021 0.00040072 -0.0015296 -0.0014247 0.00050913 0.23591 0.10136
-0.0090814 0.0068389 0.0020257 0.00057669
-0.00057907 -0.0021196 -0.00037314 -0.00089098 -0.00028862 -0.0011249 -0.009058 0.0068686
0.18053 0.16561 -0.008925 0.0070663
-0.00035802 0.00035423 -0.00026693 -0.00088055 0.00013333 -0.00059719 0.0020326 0.00057067
-0.0089243 0.0070467 0.20652 0.24877
1640000000 0.2978 0.019685 -0.00097635 0.012111 -0.0028572 -0.0026193 0.0025762 0.00091135
-0.00092245 -0.0011286 -0.00032507 0.00061443
-0.00097375 0.012105 0.20542 0.27181 0.0057837 0.0032982 -0.00075332 -0.0016106
-0.00084123 -0.00043992 -0.00054084 -0.00069172
-0.0028775 -0.0026017 0.0058133 0.0032598 0.30343 -0.15726 -0.00077941 0.0013007
-0.0010687 -0.00080861 -0.00013579 -0.00039591
0.0025894 0.00089348 -0.0007516 -0.0016007 -0.00078597 0.0013055 0.24834 0.051696
-0.0053526 0.0071395 0.0023512 -0.00083072
-0.00092923 -0.0011126 -0.00085048 -0.00043169 -0.001077 -0.00080837 -0.0053338 0.0071599
0.20363 0.13993 -0.0041001 0.009256
-0.00032474 0.00062473 -0.00055472 -0.00068793 -0.00014164 -0.0003931 0.0023592 -0.0008402
-0.0041047 0.0092561 0.23414 0.21847
1700000000 0.28972 -0.025473 0.0023319 0.0091601 -0.0035314 0.0001005 0.0028822 -0.0012001
-0.001876 -0.00034173 0.00061673 0.00041854
0.00232 0.0091526 0.22329 0.24037 0.0038107 0.00055048 -0.0013654 -0.00053203
-0.00071098 -9.7896e-05 -0.00096398 -0.00045416
-0.003538 0.00012918 0.0038206 0.00052566 0.26 -0.19708 0.00033486 0.0015003
-0.0017653 -0.00019429 -0.00061416 -0.001015
0.0028796 -0.0012144 -0.0013801 -0.00052459 0.00032768 0.0014946 0.24481 0.0010914
-0.0035567 0.0070044 0.0013591 -0.0021827
-0.001879 -0.00033044 -0.00071257 -9.247e-05 -0.0017727 -0.00019532 -0.0035405 0.007016
0.22104 0.11794 0.00041056 0.009454
0.00062128 0.00041547 -0.00096389 -0.00043945 -0.00061593 -0.0010114 0.0013524 -0.0021844
0.00042738 0.0094613 0.25284 0.18438
1760000000 0.27668 -0.07374 0.0043862 0.0058576 -0.0023286 0.0009332 0.001277 -0.0033582
-0.0009535 0.00072948 0.00029632 -0.00052318
0.0043876 0.005841 0.249 0.20057 0.0015697 -0.0011425 -0.0010866 0.00020046
-0.0011523 0.00076382 -0.00061022 0.00051034
-0.0023251 0.000944 0.0015594 -0.0011588 0.21105 -0.2303 0.0010465 0.0012278
-0.0011419 0.0013831 -0.0014502 -0.00043445
0.0012632 -0.0033553 -0.0010822 0.00021237 0.0010587 0.0012319 0.23479 -0.050955
-0.0014263 0.0062496 -0.00046913 -0.0023712
-0.00094434 0.00074091 -0.0011409 0.00077213 -0.0011486 0.0013872 -0.0014136 0.0062545
0.23574 0.0813 0.0042389 0.0064286
0.0002969 -0.00052706 -0.00060372 0.00051469 -0.0014461 -0.00043321 -0.0004668 -0.0023693
0.004243 0.0064318 0.26671 0.14692
1820000000 0.25138 -0.11056 0.0044541 0.0023805 -5.7397e-05 0.002524 -0.00096851 -0.0030298
-0.00074914 0.00065471 -5.2868e-06 -0.00012956
0.0044409 0.002373 0.25878 0.17061 -0.0004141 3.1193e-05 -0.0012793 0.00082812
-0.00023095 0.0013185 -0.00053916 0.00054338
-4.3589e-05 0.0025107 -0.00041299 2.8262e-05 0.16083 -0.2461 0.0015692 0.00054931
-0.0003877 0.0021332 -0.0014956 0.00054704
-0.0009907 -0.003023 -0.0012754 0.00084132 0.0015707 0.00055029 0.20376 -0.098252
-0.00079245 0.0048848 -0.0018349 -0.0015584
-0.00073581 0.00066041 -0.00022011 0.0013198 -0.00037713 0.0021363 -0.0007874 0.0048904
0.25156 0.05001 0.0050586 0.0028811
-5.017e-06 -0.00013738 -0.00053855 0.0005501 -0.0014925 0.00053529 -0.0018421 -0.001554
0.0050608 0.0028746 0.27114 0.1112
1880000000 0.21578 -0.14999 0.0021951 0.00026519 -0.00030771 0.0022006 -0.0028351 -0.0021533
-0.00019547 0.0013534 0.00035811 -0.00051845
0.0021987 0.0002659 0.26312 0.12415 -0.0022496 0.0016776 -0.00019082 0.0016596
0.00054176 0.0014215 0.00022667 0.0010127
-0.00029892 0.0021913 -0.0022507 0.0016869 0.10891 -0.25579 0.0019598 -0.00093003
0.0014441 0.0020641 -0.00089037 0.001582
-0.0028432 -0.0021494 -0.00019147 0.0016634 0.0019565 -0.0009282 0.16231 -0.13777
-0.00081189 0.0038361 -0.0025222 0.00071292
-0.00018668 0.0013553 0.00055717 0.0014168 0.0014522 0.0020625 -0.00079538 0.0038482
0.25274 0.015538 0.0045678 0.00087658
0.00034861 -0.00052134 0.00023049 0.0010094 -0.00089335 0.0015849 -0.0025153 0.00072152
0.0045686 0.00089047 0.27256 0.076746
1940000000 0.1762 -0.17506 -7.3371e-05 -0.0014145 0.0013909 0.0019055 -0.0036959 0.00056039
0.0011303 0.00099146 -0.0006922 -0.00064353
-7.2801e-05 -0.0014134 0.26349 0.092311 -0.0011755 0.0038886 0.00092463 0.0013453
0.0019857 0.00067809 0.00086103 0.00024046
0.0013998 0.0018931 -0.0011492 0.0039023 0.062436 -0.24939 0.00035754 -0.0023595
0.0024745 0.00055512 0.00039021 0.0016492
-0.0036822 0.0005808 0.00093118 0.0013395 0.00036587 -0.0023643 0.10921 -0.1671
-0.0022219 0.0035246 -0.0014873 0.0018957
0.0011311 0.00097819 0.0020015 0.00066464 0.0024838 0.00055521 -0.002211 0.0035427
0.25191 -0.024845 0.0031509 -0.0024586
-0.00070019 -0.00064742 0.00086531 0.00022668 0.0003912 0.0016474 -0.0014818 0.0019029
0.0031373 -0.0024555 0.2629 0.041086
2000000000 0.1301 -0.18887 -0.0038866 0.00066889 0.0024024 0.0015362 -0.0022798 0.0035956
0.0009154 0.00031727 -0.00063576 0.00041635
-0.0038768 0.00066997 0.2492 0.056844 -0.00088532 0.0056917 0.0016477 0.00030227
0.001646 -0.0013899 0.00049738 0.00017561
0.0024056 0.0015188 -0.00084936 0.0057108 0.01885 -0.2348 -0.0014528 -0.0015338
0.0021147 -0.0012283 0.0017092 0.0013487
-0.0022684 0.0036001 0.0016559 0.00029199 -0.0014508 -0.001535 0.056002 -0.17587
-0.0035933 0.0044697 6.3684e-05 0.0024337
0.00092114 0.00031207 0.0016412 -0.0014063 0.0021181 -0.0012297 -0.0035847 0.0044817
0.24287 -0.059414 -0.00027793 -0.0030171
