!Keysight Technologies,M9804A,MY58100912,A.14.10.03
!Date: Thursday, April 27, 2023 10:28:33
!Correction: S11(C  6-Port  ) 
!S12(C  6-Port  ) 
!S13(C  6-Port  ) 
!S14(C  6-Port  ) 
!S15(C  6-Port  ) 
!S16(C  6-Port  ) 
!S21(C  6-Port  ) 
!S22(C  6-Port  ) 
!S23(C  6-Port  ) 
!S24(C  6-Port  ) 
!S25(C  6-Port  ) 
!S26(C  6-Port  ) 
!S31(C  6-Port  ) 
!S32(C  6-Port  ) 
!S33(C  6-Port  ) 
!S34(C  6-Port  ) 
!S35(C  6-Port  ) 
!S36(C  6-Port  ) 
!S41(C  6-Port  ) 
!S42(C  6-Port  ) 
!S43(C  6-Port  ) 
!S44(C  6-Port  ) 
!S45(C  6-Port  ) 
!S46(C  6-Port  ) 
!S51(C  6-Port  ) 
!S52(C  6-Port  ) 
!S53(C  6-Port  ) 
!S54(C  6-Port  ) 
!S55(C  6-Port  ) 
!S56(C  6-Port  ) 
!S61(C  6-Port  ) 
!S62(C  6-Port  ) 
!S63(C  6-Port  ) 
!S64(C  6-Port  ) 
!S65(C  6-Port  ) 
!S66(C  6-Port  ) 
!S6P File: Measurement: :
# Hz S  RI   R 50
500000000 -0.3365 -0.034254 -0.0098673 -0.0036251 -0.0077684 0.011424 -0.0035574 0.011664
0.012198 0.00457 -0.0037979 0.0083591
-0.0098723 -0.0036115 -0.41878 -0.048969 0.0076497 -0.011732 0.0013982 0.011849
0.0073135 0.0022634 0.00076082 0.013286
-0.0077369 0.011426 0.0076237 -0.01176 -0.26433 0.21117 0.0069636 0.0032389
-2.0399e-05 0.0085141 0.00068143 0.011964
-0.0035274 0.011687 0.0014222 0.011859 0.0069601 0.0032374 -0.32694 0.048375
-0.019677 -0.0044923 0.017955 0.02641
0.012197 0.0045294 0.0073312 0.0022498 -2.0771e-05 0.0085265 -0.019661 -0.0044877
-0.227 -0.18306 -0.028528 0.0051928
-0.0037673 0.0084031 0.00078515 0.013266 0.00067515 0.011953 0.017949 0.026394
-0.028535 0.0051866 -0.26783 -0.14086
560000000 -0.31567 0.12501 -0.023764 -0.063132 0.00040346 0.012302 0.006172 0.0095375
0.010925 0.0040985 0.0097639 0.0074243
-0.023729 -0.063046 -0.37672 0.10963 -0.041695 -0.03744 0.013465 0.0041072
-0.013537 -0.0051157 0.0045551 -0.00042981
0.00041066 0.012282 -0.041792 -0.037374 -0.18246 0.25921 -0.00059007 -0.0050893
0.018918 0.0043789 0.0071802 -0.0060519
0.0061735 0.0095249 0.013502 0.0040749 -0.00058781 -0.0050846 -0.3024 0.13577
0.0039904 -0.024774 0.0053135 -0.019523
0.010902 0.0040734 -0.013622 -0.0050975 0.018934 0.0043767 0.0039736 -0.024772
-0.28503 -0.0086677 0.0076582 -0.051213
0.0097801 0.0073934 0.0045625 -0.00042358 0.0071979 -0.0060447 0.0053007 -0.019547
0.0076638 -0.051221 -0.33452 0.0094174
620000000 -0.27279 0.10956 -0.023016 0.007128 0.0034011 0.0081476 0.0067376 -0.0055882
0.011249 -0.00087423 0.00051913 -0.0018577
-0.023017 0.0071211 -0.40235 0.062688 -0.018995 -0.00064576 -0.0012465 -0.002049
0.010103 -0.0071036 0.0011485 -0.002798
0.0033868 0.0081332 -0.01901 -0.00057976 -0.15277 0.26732 -0.0013962 -0.0051498
-0.0040478 -0.003232 0.0078163 -0.0032804
0.0067302 -0.0055994 -0.001253 -0.0020587 -0.0014023 -0.0051592 -0.26094 0.14648
-0.038752 -0.019188 0.014077 0.024192
0.011232 -0.0009265 0.010098 -0.0071184 -0.0040423 -0.0032219 -0.038778 -0.019161
-0.2046 -0.046923 -0.040918 0.015697
0.00052652 -0.0019349 0.0011228 -0.0027852 0.0078198 -0.0032745 0.014077 0.024192
-0.040944 0.015673 -0.24968 -0.031808
680000000 -0.23257 0.19346 -0.027866 -0.013907 0.0046054 0.0050111 0.0011956 -0.0074955
-0.0032297 -0.011107 0.0045752 -0.0071171
-0.02783 -0.013911 -0.38688 0.1595 -0.032829 -0.0013237 -0.0015659 -5.6576e-05
-0.0028007 -0.0089212 -0.0010564 -0.0020623
0.0046222 0.0050044 -0.032857 -0.0012415 -0.10207 0.28723 -0.00067181 0.00027731
-0.0023586 0.00079082 -0.0029064 -0.009647
0.001167 -0.0075032 -0.0015654 -4.6014e-05 -0.00067712 0.00027468 -0.21828 0.19554
-0.0237 -0.008202 -0.010499 -0.010789
-0.0032716 -0.011115 -0.0028189 -0.0089288 -0.002366 0.00078526 -0.023725 -0.0081824
-0.25198 0.049716 -0.0052086 -0.0097429
0.0045806 -0.0071453 -0.0010745 -0.0020678 -0.0029112 -0.0096504 -0.010506 -0.010787
-0.0052089 -0.0097417 -0.26383 0.078039
740000000 -0.18961 0.18814 -0.038571 0.026395 0.012257 -0.005021 -0.00068596 -0.0039982
-0.0045751 -0.0028858 -0.0059043 0.0034219
-0.038511 0.026364 -0.33504 0.17847 -0.035081 0.034795 -0.001022 -0.0062826
-0.011295 0.0080952 -0.0028223 -0.0063775
0.012252 -0.0050661 -0.035022 0.034924 -0.068468 0.28655 -0.0016026 0.003353
-0.0027564 -0.003873 -0.0010558 4.84e-06
-0.00067811 -0.0039927 -0.0010349 -0.0062697 -0.0015989 0.0033437 -0.20205 0.20315
-0.04239 -0.0076738 0.022441 0.013595
-0.0045932 -0.0028909 -0.01131 0.008135 -0.002746 -0.0038722 -0.042409 -0.0076387
-0.15571 0.072759 -0.043193 0.00083828
-0.005968 0.003429 -0.0028349 -0.006339 -0.0010551 1.081e-05 0.02245 0.013587
-0.04318 0.00077896 -0.25688 0.083271
800000000 -0.15741 0.22848 -0.022648 0.017148 0.0051095 -0.010406 -0.004734 -0.0020961
-0.003807 0.0028237 0.0044786 0.00081603
-0.022638 0.017152 -0.33746 0.24857 -0.007903 0.034015 -0.0020918 0.0022072
-0.00050239 0.0035004 0.0011378 0.0052026
0.0050885 -0.010408 -0.0078179 0.034061 -0.027221 0.30952 0.0012024 0.0014835
0.00076787 0.0034779 -0.0019377 0.00097233
-0.0047403 -0.0020866 -0.0020873 0.0022276 0.0011994 0.0014906 -0.17395 0.23075
-0.028373 0.012739 0.013513 -0.010126
-0.0038163 0.0028152 -0.00048925 0.0034871 0.00078155 0.0034849 -0.028366 0.012793
-0.20008 0.097612 -0.017958 0.017566
0.004491 0.00080696 0.0011482 0.0052098 -0.0019683 0.00097741 0.013509 -0.010153
-0.017977 0.017543 -0.25034 0.13862
860000000 -0.12289 0.24976 -0.017198 0.031135 -0.0034232 -0.0096514 -0.0026734 0.0014464
0.0042588 0.0052039 -0.0030851 -0.0029454
-0.017204 0.031107 -0.28969 0.29049 0.0081599 0.033987 0.0002819 0.002205
0.0047975 0.0003559 0.0033646 0.00020646
-0.0034371 -0.009655 0.0082709 0.033992 0.021319 0.3172 -0.00030153 -0.00030781
0.0029089 -0.0015424 0.0015717 0.0046608
-0.002662 0.0014599 0.00027674 0.0022162 -0.00030434 -0.00030817 -0.13834 0.2428
-0.018052 0.018903 -0.0063193 -0.0093202
0.0043186 0.0051921 0.0047871 0.00032826 0.0029069 -0.0015562 -0.018029 0.018946
-0.15122 0.14652 -0.024958 0.015677
-0.0031082 -0.002929 0.003372 0.00020103 0.0015671 0.0046685 -0.0063286 -0.009314
-0.024952 0.015652 -0.19862 0.18399
920000000 -0.097223 0.27297 0.0051199 0.037821 -0.0092726 -0.0040557 -0.0017389 0.0023747
0.0012752 0.0015467 0.0024948 -0.0014044
0.0050999 0.037803 -0.26046 0.3115 0.027893 0.021627 0.0015209 0.0011533
0.0067919 -0.00058413 0.0039367 -0.0029937
-0.009273 -0.0040387 0.027972 0.021554 0.067733 0.31748 0.0016958 -0.0001033
0.0011952 -0.00043337 0.00079001 -0.0010183
-0.0017404 0.0023646 0.0015197 0.0011554 0.0016894 -0.00010604 -0.11415 0.25909
-0.010335 0.029956 0.0028942 -0.0064561
0.0012681 0.0015522 0.006812 -0.00061614 0.0011933 -0.00044102 -0.010288 0.030006
-0.14051 0.15211 -0.0016938 0.027876
0.0024926 -0.0014166 0.0039305 -0.0030286 0.00079211 -0.0010083 0.0028879 -0.0064676
-0.001702 0.027867 -0.20846 0.19698
980000000 -0.049524 0.29233 0.017895 0.029868 -0.0085859 0.0047268 0.0025159 0.0036266
0.0039696 -0.0018012 -0.0030982 -0.0020587
0.01786 0.029869 -0.20737 0.34498 0.032671 0.0046015 0.0020099 -0.0001712
0.0011701 -0.0061163 -0.00054254 -0.0021927
-0.0085709 0.0047673 0.032722 0.0044724 0.11399 0.31036 0.0004499 -0.0012123
7.2048e-05 -0.0020573 0.0016273 3.6516e-05
0.0025378 0.0036189 0.0019926 -0.00017866 0.00045076 -0.0012163 -0.075292 0.27043
0.0076104 0.02884 -0.0093449 -0.0069708
0.0039641 -0.0018139 0.0011289 -0.0061507 6.3034e-05 -0.0020475 0.0076727 0.028846
-0.10872 0.17968 0.0051697 0.018648
-0.0031146 -0.0020457 -0.0005364 -0.0022089 0.0016232 3.4674e-05 -0.0093503 -0.0069521
0.0051442 0.018663 -0.16549 0.24462
1040000000 -0.0065033 0.30033 0.033257 0.017693 -0.00091729 0.006777 0.0029008 0.00061072
-3.5171e-05 -0.0037393 -0.00050624 -0.0015781
0.033208 0.017722 -0.17169 0.35782 0.028908 -0.014729 0.0014951 -0.0017635
-0.0025343 -0.002259 -0.0015276 -0.0027572
-0.00088913 0.0067918 0.028863 -0.014876 0.15991 0.29638 -0.00047866 -0.0013829
-0.0015335 -0.00082587 -0.00040534 -0.00131
0.0029072 0.00059492 0.0014783 -0.0017441 -0.00047363 -0.0013833 -0.048057 0.28041
0.018084 0.01697 -0.0030751 0.0020225
-5.226e-05 -0.0037463 -0.0025722 -0.0022685 -0.0015331 -0.00083181 0.018122 0.016962
-0.078003 0.18799 0.013243 0.017868
-0.00053072 -0.0015598 -0.0015356 -0.0027808 -0.00041217 -0.0013186 -0.0030598 0.0020338
0.013228 0.017885 -0.14605 0.26706
1100000000 0.039142 0.30754 0.03554 -0.0044587 0.003004 0.0036084 0.0024594 -0.0014335
-0.0021858 -0.002821 -0.0038281 0.00017198
0.035496 -0.0044338 -0.128 0.3745 0.014785 -0.027374 -3.1781e-05 -0.0017477
-0.0030831 -0.00030512 -0.0033398 -0.00040146
0.0030219 0.0036069 0.014685 -0.027471 0.20598 0.27586 -0.0017849 0.00020867
-0.0016425 0.00056248 -0.0010735 -0.00041301
0.0024761 -0.0014466 -3.6994e-05 -0.0017502 -0.0017811 0.00020546 -0.0074691 0.28522
0.022417 0.0051868 -0.0023266 0.00097012
-0.0021843 -0.0028025 -0.0030989 -0.00029658 -0.0016406 0.00056347 0.02243 0.0051613
-0.059708 0.20126 0.018815 0.0090126
-0.0038438 0.00019835 -0.0033416 -0.00039468 -0.0010716 -0.00041261 -0.0023175 0.00097508
0.018811 0.0090186 -0.09842 0.29798
1160000000 0.090733 0.30188 0.023639 -0.020617 0.0027272 -0.00063507 -0.00018505 -0.0025806
-0.0039731 -0.00049426 -0.0010009 0.0040465
0.023628 -0.020577 -0.084272 0.37821 -0.0037037 -0.028549 -0.0017775 -0.0015886
-0.0023497 0.0025509 -0.0013256 0.0016239
0.002729 -0.00064006 -0.0038337 -0.028567 0.24871 0.24502 -0.00064033 0.0017302
-0.00039798 0.0018252 -0.0010274 0.00016046
-0.00018353 -0.0025766 -0.0017992 -0.0015745 -0.00063831 0.0017382 0.031879 0.28231
0.019373 -0.0094501 -0.002739 0.0055329
-0.0039876 -0.00046755 -0.0023488 0.0025491 -0.0004079 0.0018199 0.019362 -0.0094704
-0.025896 0.21008 0.01752 0.00072205
-0.0010015 0.0040592 -0.0013117 0.0016222 -0.0010375 0.00016585 -0.0027329 0.0055381
0.017502 0.00072998 -0.051448 0.30066
1220000000 0.13505 0.28993 0.010176 -0.029627 -0.0015422 -0.00091058 -0.00014064 -0.0011464
-0.0024018 0.0025311 0.0012671 0.0018129
0.010186 -0.029587 -0.040271 0.38966 -0.01652 -0.020677 -0.002433 0.00044206
0.00025242 0.0027956 -0.00069847 0.0017248
-0.0015474 -0.00090429 -0.016621 -0.020632 0.2878 0.20622 0.00081484 0.0015633
0.00054782 0.0011825 0.00030837 0.0007916
-0.00013468 -0.0011434 -0.0024372 0.00045443 0.00082 0.0015684 0.071496 0.27367
0.0094045 -0.015137 0.0028717 0.0016518
-0.0023934 0.002539 0.00027611 0.0027863 0.0005461 0.0011829 0.0093905 -0.015157
-0.002462 0.21957 0.013714 -0.012279
0.0012755 0.0017986 -0.00068377 0.0017313 0.00031286 0.0007892 0.0028768 0.0016526
0.013708 -0.012277 -0.020313 0.32001
1280000000 0.18439 0.26711 -0.0077306 -0.027977 -0.0018532 0.0023992 -0.0011333 -0.0019378
-0.00057978 0.0029934 0.0025357 0.0010223
-0.0077076 -0.027944 0.0051718 0.38039 -0.023135 -0.0084195 -0.00098466 0.0014316
0.0015713 0.0015421 0.00045915 0.0019926
-0.0018461 0.0024028 -0.023203 -0.008324 0.31868 0.16235 0.001382 -0.00015882
0.0010045 0.00011567 0.00037926 0.00042752
-0.0011521 -0.0019351 -0.0009767 0.00144 0.0013704 -0.00015959 0.10793 0.25747
0.00089619 -0.016959 0.00043898 1.237e-05
-0.00056144 0.0029964 0.0015737 0.0015452 0.0010049 0.00011365 0.00086217 -0.016965
0.034439 0.22305 0.0030306 -0.014166
0.0025466 0.0010201 0.00048055 0.001989 0.00038052 0.00042752 0.00043701 8.5922e-06
0.0030292 -0.014155 0.027936 0.32228
1340000000 0.221 0.23291 -0.017258 -0.018794 0.00072872 0.0042749 -0.0018908 -0.00072913
0.0014288 0.0025045 0.0016518 -0.0014966
-0.017227 -0.018793 0.044319 0.3721 -0.021128 0.0039535 -5.6415e-05 0.0019157
0.0016782 0.00065626 0.0013443 0.00089715
0.00074123 0.0042736 -0.021126 0.0040623 0.34099 0.11432 0.00092044 -0.00083987
0.00061105 -0.00040396 0.00019752 0.0002958
-0.0018951 -0.00072562 -4.9669e-05 0.0019193 0.00092686 -0.00083447 0.14068 0.23747
-0.0072889 -0.014372 0.0013199 1.1745e-08
0.0014568 0.002504 0.001685 0.00064327 0.00061047 -0.00040759 -0.0073292 -0.014353
0.064795 0.21824 -0.0031265 -0.012777
0.0016393 -0.0015049 0.0013511 0.00089189 0.00019862 0.00029576 0.0013207 1.1722e-06
-0.0031149 -0.012787 0.067106 0.31924
1400000000 0.25337 0.19434 -0.022952 -0.007608 0.0049027 0.0030518 -0.0019926 0.00071194
0.0023784 0.00064691 0.0002357 -0.001359
-0.02292 -0.0076206 0.081223 0.3591 -0.014656 0.011892 0.0013054 0.0012585
0.00097942 -0.00073878 0.0012215 0.00029665
0.0049097 0.0030314 -0.014618 0.011981 0.35423 0.060239 0.00010778 -0.0013941
1.6167e-05 -0.00038842 0.00037062 0.00018638
-0.0019961 0.00071323 0.0013114 0.0012597 0.00011009 -0.0013967 0.1706 0.2092
-0.012264 -0.0085165 -0.00067913 -0.00085279
0.0023783 0.000636 0.00098163 -0.00075694 1.9401e-05 -0.00039133 -0.012295 -0.0084938
0.097975 0.21335 -0.0092919 -0.0081884
0.00022247 -0.0013549 0.0012182 0.00028364 0.00037323 0.00018346 -0.00068346 -0.00085353
-0.0092818 -0.008202 0.11301 0.3091
1460000000 0.27572 0.15023 -0.020208 0.0042418 0.0053028 -0.0016225 -0.0015321 0.00169
0.0018664 -0.00069934 -0.00028714 -0.00081367
-0.020198 0.004216 0.11533 0.33744 -0.0063654 0.014783 0.0016782 0.00015527
0.00086336 -0.0011266 0.0011956 -0.00062868
0.005299 -0.0016532 -0.0062951 0.014834 0.36011 0.0052764 -0.0010233 -0.00124
0.00027241 -0.00011833 0.00070092 -0.00048076
-0.0015303 0.0017033 0.0016774 0.00015293 -0.0010229 -0.0012356 0.19763 0.18011
-0.013138 -0.0031759 -0.0011667 0.0015026
0.0018592 -0.00071029 0.00085895 -0.0011353 0.00026644 -0.00012015 -0.013149 -0.0031469
0.1277 0.19829 -0.010811 -0.0028999
-0.00027674 -0.00081251 0.001176 -0.00063547 0.00069909 -0.00047398 -0.0011611 0.0015204
-0.010805 -0.0029014 0.14677 0.28842
1520000000 0.28759 0.10851 -0.014841 0.0098704 0.0030495 -0.0039313 0.00012855 0.002536
0.0017378 -0.0016178 -0.0011823 -0.00019106
-0.014838 0.0098548 0.14892 0.3227 0.0011026 0.01289 0.0016026 -0.00078985
0.00011906 -0.00092803 0.00031755 -0.0010412
0.0030426 -0.003953 0.0011778 0.012896 0.35279 -0.051149 -0.00093293 -0.00043365
0.00055204 -0.00076631 -5.3967e-05 -9.3186e-05
0.00014051 0.0025447 0.0015947 -0.00080304 -0.00093312 -0.00042989 0.22161 0.14196
-0.012881 0.0015553 0.0010107 0.0018178
0.0017295 -0.0016287 0.00011182 -0.00093124 0.00055076 -0.0007683 -0.012878 0.0015912
0.15588 0.18369 -0.011048 0.0010681
-0.0011762 -0.00019306 0.00031612 -0.0010424 -5.1478e-05 -9.4347e-05 0.0010075 0.0018076
-0.011043 0.0010578 0.18104 0.26934
1580000000 0.29652 0.062081 -0.008443 0.013072 -0.00088794 -0.0046246 0.0013694 0.0018097
-0.00044666 -0.0020159 -0.00039013 0.0004006
-0.0084471 0.013054 0.1763 0.29786 0.0047782 0.0083377 0.00043989 -0.0015494
-0.00040601 -0.0010497 -0.00027127 -0.00089052
-0.00090952 -0.0046103 0.004813 0.0083248 0.33205 -0.10893 -0.001537 0.00042099
-0.00021687 -0.00112 0.00012345 -0.0005379
0.0013736 0.0018047 0.00043127 -0.0015509 -0.0015333 0.00042515 0.23639 0.10193
-0.010388 0.0058018 0.0018016 0.00064512
-0.00045478 -0.0020176 -0.00041903 -0.0010536 -0.00022363 -0.0011255 -0.010385 0.0058334
0.18031 0.16524 -0.0089008 0.0063078
-0.0003897 0.00040873 -0.00027672 -0.00089472 0.0001191 -0.00054089 0.0018045 0.00064543
-0.0088953 0.0063016 0.21415 0.2427
1640000000 0.29821 0.020419 -0.0018857 0.012289 -0.0026029 -0.0024911 0.0025152 0.0010076
-0.00077082 -0.0011764 -0.00036361 0.00064039
-0.0019006 0.01228 0.20575 0.27261 0.0055729 0.003754 -0.00071879 -0.0016348
-0.00098416 -0.00049715 -0.00054207 -0.00066388
-0.0026177 -0.0024879 0.0056026 0.0037217 0.30336 -0.15777 -0.00089896 0.0013346
-0.0010217 -0.0008187 -0.00014361 -0.00027531
0.0025202 0.0010067 -0.00072828 -0.0016403 -0.00089705 0.001328 0.24909 0.051901
-0.0069992 0.0070589 0.0021499 -0.00069533
-0.00077669 -0.0011751 -0.00098759 -0.00048324 -0.0010279 -0.00081829 -0.0069843 0.0070784
0.20323 0.13997 -0.0045666 0.0085739
-0.00036036 0.00064766 -0.00054481 -0.00065649 -0.000143 -0.00027817 0.0021522 -0.0007053
-0.0045706 0.0085734 0.24064 0.21167
1700000000 0.29046 -0.02509 0.0016906 0.0098242 -0.0033319 0.00016632 0.0029271 -0.0010434
-0.0018085 -0.00042615 0.00062604 0.00043865
0.0016715 0.0098196 0.22389 0.24078 0.0037815 0.00093175 -0.0013758 -0.00056573
-0.00082363 6.8305e-06 -0.00092094 -0.00042664
-0.0033356 0.00018396 0.0037907 0.000902 0.25951 -0.19764 0.00032304 0.0016317
-0.0017357 -0.00024626 -0.00054793 -0.00086561
0.0029268 -0.001058 -0.001378 -0.00055283 0.00033026 0.0016429 0.24563 0.00079089
-0.004836 0.0077942 0.0012834 -0.0019741
-0.0018069 -0.0004166 -0.00082514 1.4695e-05 -0.0017402 -0.00024677 -0.0048229 0.0078099
0.22096 0.11837 -0.00025465 0.009104
0.00062849 0.00043431 -0.00092672 -0.00041948 -0.00055413 -0.00086827 0.0012856 -0.0019823
-0.0002624 0.0091132 0.25798 0.17722
1760000000 0.27737 -0.073733 0.0042821 0.0066774 -0.0021485 0.00082458 0.0013855 -0.0032944
-0.0010296 0.00062135 0.00038869 -0.00050108
0.004269 0.0066762 0.2496 0.20054 0.0017716 -0.00083445 -0.0011085 0.00016724
-0.0011318 0.00088575 -0.000614 0.00051083
-0.0021571 0.00084094 0.0017614 -0.0008493 0.21031 -0.23028 0.0011306 0.0013483
-0.0011513 0.001326 -0.001293 -0.00041305
0.0013674 -0.0033036 -0.0011171 0.00018484 0.0011364 0.0013416 0.23515 -0.051621
-0.002063 0.0074801 -0.00047358 -0.0020605
-0.0010212 0.00063245 -0.0011374 0.00089566 -0.0011467 0.0013345 -0.0020445 0.0074901
0.23582 0.081844 0.0034014 0.0065717
0.00038598 -0.00050381 -0.00061207 0.00051304 -0.0012996 -0.00041739 -0.00047975 -0.0020596
0.0034063 0.0065715 0.27089 0.13953
1820000000 0.25193 -0.11082 0.0047373 0.0030523 1.8959e-05 0.0023315 -0.00086271 -0.0030892
-0.000839 0.00066752 6.3728e-05 -0.00012289
0.004738 0.0030519 0.25916 0.17018 -8.111e-05 0.00011359 -0.0012908 0.00085882
-6.9735e-05 0.001414 -0.00053104 0.00053721
3.9656e-05 0.002309 -8.0132e-05 0.00011437 0.16059 -0.2456 0.0016418 0.00046949
-0.00032951 0.0021704 -0.0014271 0.00037985
-0.0008791 -0.0030909 -0.0012908 0.00086538 0.0016339 0.00046969 0.20381 -0.098972
-0.00061473 0.0061887 -0.0014806 -0.0013426
-0.00083111 0.00067524 -5.2316e-05 0.001426 -0.00032413 0.0021661 -0.0006012 0.0061857
0.25215 0.050797 0.0045091 0.0033311
6.0147e-05 -0.00012806 -0.00052658 0.00054181 -0.0014313 0.00038357 -0.0014817 -0.0013373
0.00451 0.0033311 0.2741 0.10355
1880000000 0.21596 -0.15045 0.0027166 0.00059826 -0.00040653 0.0020152 -0.0028289 -0.0022502
-0.00027597 0.001407 0.00032329 -0.00064168
0.0027085 0.00060216 0.26311 0.12349 -0.002058 0.0016414 -0.00020349 0.0016524
0.00067296 0.0013422 0.00023373 0.00097408
-0.00038247 0.002013 -0.0020471 0.0016634 0.1086 -0.25502 0.0019184 -0.0010635
0.0013984 0.001999 -0.00092347 0.0013532
-0.0028432 -0.0022314 -0.00019333 0.0016633 0.0019161 -0.0010607 0.16191 -0.13847
-0.00015441 0.0046617 -0.0021188 0.00071848
-0.00027242 0.0014171 0.0006868 0.001341 0.0013965 0.0019976 -0.00013576 0.004659
0.25375 0.01591 0.0042451 0.0015054
0.00031347 -0.00065901 0.00024489 0.00097217 -0.0009204 0.0013479 -0.0021119 0.00072452
0.0042328 0.0015044 0.27437 0.069227
1940000000 0.17609 -0.17541 0.00047663 -0.0013804 0.0012914 0.001889 -0.0037911 0.00050637
0.0011225 0.0010585 -0.00070914 -0.00064243
0.00047925 -0.001384 0.26306 0.091741 -0.0010594 0.0038287 0.00090777 0.001329
0.0020065 0.00048967 0.00085908 0.00024374
0.0013069 0.0018821 -0.0010406 0.0038422 0.062362 -0.24854 0.00021358 -0.0023578
0.0024327 0.00048458 0.00026506 0.0016365
-0.003783 0.00052343 0.00092102 0.0013249 0.00021539 -0.0023542 0.10833 -0.16743
-0.001363 0.0038215 -0.0011651 0.0016056
0.0011242 0.0010559 0.0020127 0.00047427 0.0024368 0.00047402 -0.0013482 0.0038291
0.25312 -0.024766 0.0031383 -0.0016503
-0.0007167 -0.0006237 0.00085873 0.00023695 0.00026228 0.0016256 -0.0011572 0.0016132
0.0031357 -0.001649 0.26377 0.033702
2000000000 0.12983 -0.18904 -0.0034888 0.00039631 0.0023932 0.0015202 -0.0022911 0.0035616
0.001017 0.00034108 -0.00071481 0.00046054
-0.003486 0.00039561 0.24843 0.056415 -0.00081473 0.0055865 0.0016277 0.00032169
0.0014628 -0.0014994 0.00052872 0.0001169
0.0024002 0.0015103 -0.00078101 0.0056012 0.01914 -0.23404 -0.001522 -0.0013806
0.0020798 -0.0011668 0.0016568 0.0013363
-0.002273 0.0035861 0.0016317 0.00031249 -0.0015206 -0.0013733 0.055096 -0.17565
-0.002902 0.004387 -1.6511e-05 0.002198
0.0010236 0.00032336 0.0014453 -0.0015207 0.0020734 -0.0011746 -0.0029009 0.0043928
