!Keysight Technologies,M9804A,MY58100912,A.14.10.03
!Date: Thursday, April 27, 2023 10:28:33
!Correction: S11(C  6-Port  ) 
!S12(C  6-Port  ) 
!S13(C  6-Port  ) 
!S14(C  6-Port  ) 
!S15(C  6-Port  ) 
!S16(C  6-Port  ) 
!S21(C  6-Port  ) 
!S22(C  6-Port  ) 
!S23(C  6-Port  ) 
!S24(C  6-Port  ) 
!S25(C  6-Port  ) 
!S26(C  6-Port  ) 
!S31(C  6-Port  ) 
!S32(C  6-Port  ) 
!S33(C  6-Port  ) 
!S34(C  6-Port  ) 
!S35(C  6-Port  ) 
!S36(C  6-Port  ) 
!S41(C  6-Port  ) 
!S42(C  6-Port  ) 
!S43(C  6-Port  ) 
!S44(C  6-Port  ) 
!S45(C  6-Port  ) 
!S46(C  6-Port  ) 
!S51(C  6-Port  ) 
!S52(C  6-Port  ) 
!S53(C  6-Port  ) 
!S54(C  6-Port  ) 
!S55(C  6-Port  ) 
!S56(C  6-Port  ) 
!S61(C  6-Port  ) 
!S62(C  6-Port  ) 
!S63(C  6-Port  ) 
!S64(C  6-Port  ) 
!S65(C  6-Port  ) 
!S66(C  6-Port  ) 
!S6P File: Measurement: :
# Hz S  RI   R 50
500000000 -0.32796 -0.057855 -0.011237 -0.0012575 -0.0082446 0.012645 -0.0039278 0.012551
0.011545 0.0047748 -0.0051687 0.0092881
-0.011101 -0.0011382 -0.41051 -0.071681 0.0070905 -0.0102 0.0010668 0.012264
0.0072725 0.0024256 0.0010334 0.013852
-0.008086 0.012503 0.0071225 -0.010427 -0.25598 0.1948 0.0063092 0.0034528
-0.0012955 0.0078013 0.00044034 0.011613
-0.0036796 0.012465 0.00097827 0.012231 0.0061375 0.0035953 -0.33011 0.043731
-0.02043 -0.0059649 0.015072 0.028566
0.011553 0.0048691 0.0073509 0.0024299 -0.0011745 0.0078683 -0.020544 -0.0060316
-0.25474 -0.1615 -0.027702 0.0049569
-0.004657 0.0092522 0.00094438 0.01387 0.0001533 0.011862 0.015112 0.028473
-0.027796 0.0050135 -0.25507 -0.15258
560000000 -0.31318 0.10758 -0.02361 -0.065164 0.00043878 0.012315 0.0048461 0.011319
0.0090198 0.0034225 0.010961 0.0091557
-0.023752 -0.065212 -0.37061 0.091517 -0.041925 -0.03794 0.013654 0.0032898
-0.012454 -0.0032357 0.0039224 -0.00080296
0.00044526 0.012554 -0.04176 -0.037803 -0.17895 0.24335 0.00013378 -0.0040583
0.017537 0.0045553 0.0081316 -0.0060956
0.0048843 0.011325 0.01353 0.0032524 0.00029747 -0.0042549 -0.30584 0.13485
0.0025729 -0.022879 0.0061475 -0.021249
0.0090625 0.0038088 -0.01238 -0.0030229 0.017307 0.0050323 0.0025783 -0.022847
-0.30791 0.01416 0.0060735 -0.04958
0.011102 0.0093285 0.003872 -0.00094892 0.0078183 -0.0068369 0.0061933 -0.02125
0.0060995 -0.049522 -0.32733 -0.0024196
620000000 -0.27348 0.085578 -0.024324 0.0097146 0.0032848 0.0090488 0.0083305 -0.0042879
0.011516 -0.00079645 0.00032528 -0.0017054
-0.024397 0.0096508 -0.40031 0.038578 -0.01954 0.0014815 -0.0017029 -0.0014228
0.011679 -0.0061384 0.00017908 -0.0026699
0.0032359 0.0088544 -0.019681 0.0015516 -0.15302 0.25162 -0.00032476 -0.0050344
-0.0035926 -0.0025748 0.0090794 -0.0023576
0.008365 -0.0043825 -0.0018284 -0.0012985 -0.00045561 -0.0050724 -0.26451 0.14512
-0.040501 -0.018534 0.01308 0.030684
0.011265 -0.00062821 0.011886 -0.0063178 -0.0035227 -0.002417 -0.040509 -0.018445
-0.2303 -0.02103 -0.043052 0.012952
0.00023974 -0.0018019 -6.2875e-05 -0.0024438 0.008976 -0.0025454 0.013158 0.03063
-0.043024 0.012881 -0.24282 -0.038628
680000000 -0.23825 0.17831 -0.025837 -0.013656 0.0049438 0.0051601 0.0014761 -0.0067778
-0.0023334 -0.011197 0.0061332 -0.0066261
-0.025986 -0.013648 -0.38973 0.14241 -0.031922 -0.0010261 -0.0012664 -0.0006041
-0.0018241 -0.0093151 -0.00040184 -0.0016881
0.0049766 0.0051359 -0.0319 -0.0010178 -0.10546 0.27476 -0.00072899 -0.00061387
-0.0016145 0.00033214 -0.0028483 -0.0090472
0.001695 -0.0068696 -0.001282 -0.00060247 -0.00072846 -0.00063374 -0.21993 0.20001
-0.025412 -0.0059049 -0.00826 -0.012179
-0.0025317 -0.011244 -0.0018935 -0.0094067 -0.0016643 0.00035759 -0.025433 -0.0059726
-0.27159 0.080103 -0.0068658 -0.0049835
0.006448 -0.0068652 -0.00046997 -0.0017517 -0.0027645 -0.0089609 -0.0081612 -0.012143
-0.0068046 -0.0050292 -0.2608 0.067389
740000000 -0.1913 0.17237 -0.040192 0.027272 0.013465 -0.0038748 -0.00015545 -0.004393
-0.0035636 -0.0013787 -0.0070206 0.0012335
-0.040236 0.027229 -0.33438 0.16226 -0.036431 0.034146 -4.9457e-05 -0.0065013
-0.010786 0.0066774 -0.0018429 -0.0066622
0.013451 -0.004039 -0.036459 0.034249 -0.071525 0.27386 -0.0020054 0.0028982
-0.0023937 -0.004591 -0.0011135 0.00039782
-0.00011577 -0.0043518 -4.206e-05 -0.0064732 -0.0020669 0.0029499 -0.20203 0.20542
-0.041313 -0.0051555 0.023265 0.01734
-0.0038416 -0.0012769 -0.010856 0.0067794 -0.0024335 -0.0045158 -0.04129 -0.0050368
-0.17668 0.10308 -0.040538 0.0013611
-0.0067245 0.001075 -0.0018486 -0.0065797 -0.0012561 0.00036376 0.023257 0.017313
-0.040429 0.0014129 -0.25291 0.072636
800000000 -0.16306 0.21657 -0.021509 0.016566 0.0053897 -0.01018 -0.0036575 -0.0026407
-0.0044922 0.0014315 0.0049876 0.00012774
-0.021554 0.016537 -0.34252 0.2322 -0.0079005 0.034072 -0.0023501 0.0019845
-0.00056603 0.0020291 0.0005585 0.005137
0.0054545 -0.01023 -0.0077819 0.034079 -0.034188 0.29964 0.00068694 0.0015627
-1.3096e-05 0.003282 -0.001403 0.00074334
-0.0037272 -0.0027046 -0.0024295 0.0019794 0.00068786 0.0015183 -0.1722 0.23478
-0.027322 0.015199 0.015903 -0.010275
-0.0045118 0.0015189 -0.00063535 0.0020251 -7.0753e-05 0.0034096 -0.027313 0.015285
-0.21167 0.13016 -0.017283 0.02036
0.0049997 0.00014825 0.00045137 0.0051515 -0.0013321 0.00069529 0.015945 -0.01028
-0.017323 0.020389 -0.25041 0.12525
860000000 -0.1275 0.23714 -0.017073 0.030384 -0.0031163 -0.0098601 -0.0016994 0.00044244
0.003727 0.0046016 -0.0038875 -0.0032672
-0.017056 0.030315 -0.29378 0.2765 0.0080494 0.033883 1.9264e-05 0.0021655
0.0037897 0.00084935 0.0032891 -2.4723e-05
-0.0031671 -0.0098129 0.0081527 0.033872 0.014502 0.30962 -0.00050391 -8.6993e-05
0.0024607 -0.0012492 0.0013673 0.0039954
-0.0017029 0.00051746 5.9908e-05 0.0021002 -0.00045876 -6.4884e-05 -0.13386 0.24516
-0.015863 0.019733 -0.0066376 -0.0098817
0.0036833 0.0046562 0.0037968 0.00085759 0.0024881 -0.0012548 -0.015841 0.019797
-0.15525 0.17653 -0.022392 0.016224
-0.0039443 -0.0033196 0.003359 -9.6023e-05 0.0013068 0.0039905 -0.006634 -0.0098202
-0.022378 0.016133 -0.19868 0.1746
920000000 -0.10507 0.25948 0.0054226 0.038631 -0.0089304 -0.0044898 -0.0019437 0.0013848
0.00074786 0.0014179 0.0028666 -0.0010872
0.005401 0.038607 -0.2671 0.29682 0.028248 0.022342 0.0014515 0.001248
0.007183 -0.00061137 0.0042117 -0.0024336
-0.0089729 -0.0044582 0.028372 0.022297 0.059996 0.31125 0.0020378 0.00012773
0.00079116 -0.00028724 0.00089097 -0.0013164
-0.0019317 0.0014179 0.0015492 0.0011981 0.0020241 0.00012886 -0.10959 0.26095
-0.0082478 0.030558 0.0046117 -0.0060412
0.00066883 0.001465 0.0071875 -0.00057163 0.00078204 -0.00031519 -0.008151 0.030591
-0.14245 0.18209 -0.00063896 0.027347
0.0029846 -0.0010143 0.0043505 -0.0024804 0.0008851 -0.0013339 0.0046048 -0.0060492
-0.00066549 0.027356 -0.21225 0.18573
980000000 -0.058738 0.28171 0.017185 0.029478 -0.0090596 0.0043495 0.0014923 0.0035423
0.0035896 -0.0016764 -0.003328 -0.0026693
0.017182 0.02941 -0.21558 0.3343 0.032931 0.004759 0.0019171 0.00010252
0.0018237 -0.0059734 -0.00029981 -0.0024163
-0.00905 0.0043692 0.032984 0.0046556 0.10651 0.3072 0.00064437 -0.0011067
0.00049296 -0.0018236 0.0012886 -0.00022838
0.0014494 0.0035166 0.0019743 0.00015122 0.00065324 -0.0011072 -0.070497 0.2719
0.010302 0.027987 -0.0092629 -0.0079952
0.0035938 -0.0016717 0.0017833 -0.0059917 0.00046784 -0.0018469 0.010361 0.028005
-0.10807 0.20804 0.0072365 0.01907
-0.0032157 -0.0026575 -0.00036841 -0.0023532 0.0013425 -0.00024867 -0.0092526 -0.0079191
0.0072019 0.019086 -0.17057 0.23571
1040000000 -0.017014 0.28938 0.032965 0.018668 -0.001243 0.0071698 0.0021238 0.00078524
0.00045781 -0.0033492 -0.00039423 -0.0013947
0.032871 0.018622 -0.18 0.34714 0.029356 -0.014647 0.0016089 -0.001706
-0.0021724 -0.0026107 -0.001063 -0.0029541
-0.0012508 0.0071699 0.029339 -0.014798 0.15369 0.29349 -0.00043841 -0.0015871
-0.0014742 -0.0010439 -0.00062972 -0.0011163
0.002161 0.0008017 0.0015855 -0.0017407 -0.00044326 -0.001569 -0.042431 0.28043
0.020743 0.016471 -0.001334 0.0010317
0.00042704 -0.0032958 -0.0021966 -0.0025698 -0.0015219 -0.0010252 0.020794 0.016424
-0.075235 0.21394 0.014344 0.017603
-0.00044101 -0.0013336 -0.0011088 -0.0029777 -0.00063065 -0.0011038 -0.0013024 0.0010351
0.014355 0.017642 -0.149 0.25669
1100000000 0.026535 0.2998 0.036049 -0.0039198 0.0031587 0.0039883 0.002284 -0.00070796
-0.0022094 -0.002887 -0.0040293 4.4871e-05
0.035984 -0.0039145 -0.13811 0.3671 0.015103 -0.027737 -9.2243e-06 -0.0018034
-0.0035819 -0.00089855 -0.0037635 -0.00063823
0.0031635 0.0039615 0.015036 -0.02783 0.19939 0.27453 -0.0018039 0.00013091
-0.0016813 0.0005808 -0.0010501 -0.00042935
0.0022687 -0.00070921 1.7715e-06 -0.0018238 -0.0018127 0.00012852 -0.0026428 0.28513
0.025083 0.0028072 -0.0023551 -0.00096286
-0.002225 -0.0028729 -0.0035703 -0.00087559 -0.001687 0.00055811 0.025098 0.002773
-0.05513 0.22578 0.01972 0.0072007
-0.004066 5.8241e-05 -0.0037358 -0.00061174 -0.0010853 -0.00041005 -0.002337 -0.00091748
0.019693 0.0072174 -0.10534 0.29104
1160000000 0.078628 0.2967 0.024004 -0.020574 0.0030519 -0.00061551 1.1663e-05 -0.002166
-0.0038066 -0.00077582 -0.001201 0.0043711
0.023972 -0.020574 -0.093136 0.3718 -0.0038044 -0.028715 -0.0014927 -0.0016811
-0.0028268 0.0025095 -0.0015692 0.002053
0.0030371 -0.00062581 -0.0039168 -0.028745 0.24409 0.24443 -0.0007847 0.001693
-0.00056763 0.0016889 -0.00082317 0.00035209
-1.3928e-05 -0.0021352 -0.0014881 -0.0016971 -0.0008015 0.0016724 0.037977 0.28149
0.02065 -0.012337 -0.0041264 0.0045206
-0.0037962 -0.00075678 -0.0027959 0.0024944 -0.00055532 0.001701 0.020635 -0.012369
-0.019714 0.23295 0.01797 -0.0017036
-0.0011535 0.0042845 -0.0015865 0.0021192 -0.00083244 0.00032566 -0.0041608 0.0045113
0.01798 -0.0016813 -0.056175 0.29436
1220000000 0.12181 0.28639 0.010916 -0.029971 -0.0014738 -0.001164 0.00030936 -0.00087732
-0.0025437 0.0021222 0.0010624 0.0021631
0.010925 -0.029959 -0.050228 0.3855 -0.016882 -0.021045 -0.0025732 0.00039394
-0.00010297 0.0031011 -0.00094496 0.0019848
-0.0014703 -0.0011715 -0.016987 -0.020989 0.28321 0.20537 0.00077777 0.0017403
0.00061442 0.0011652 0.00028392 0.00051321
0.00028408 -0.00087512 -0.0025842 0.00038405 0.00076657 0.0017345 0.077119 0.27171
0.0098033 -0.018616 0.001388 0.0010916
-0.0025569 0.0021703 -0.00010085 0.0031203 0.00062087 0.0011684 0.0097864 -0.018615
0.0047103 0.23876 0.012861 -0.01349
0.0011036 0.0021621 -0.00093783 0.0019722 0.00026448 0.00052354 0.0013809 0.0010899
0.012858 -0.013504 -0.027528 0.31331
1280000000 0.17223 0.26781 -0.0078042 -0.028661 -0.0018909 0.0021161 -0.00072084 -0.0022066
-0.0008046 0.0030407 0.0024946 0.0014941
-0.0077712 -0.028619 -0.0038224 0.37855 -0.023903 -0.008131 -0.0011835 0.0014112
0.0017085 0.0019353 0.00062912 0.0021235
-0.0018992 0.0021344 -0.02397 -0.0080293 0.31462 0.16281 0.0015509 0.00011481
0.0010861 0.00026943 0.00024842 0.00032735
-0.0007386 -0.0022051 -0.001185 0.0014187 0.0015414 0.00011504 0.11387 0.25494
-0.0003064 -0.020438 -0.0011913 0.00036799
-0.00083921 0.0030557 0.0017095 0.0019342 0.0010852 0.00027307 -0.00033619 -0.020448
0.040932 0.24145 0.0022308 -0.015458
0.002491 0.0014767 0.00067075 0.0021203 0.00028057 0.00032505 -0.0011876 0.00036429
0.0022255 -0.015425 0.020768 0.31835
1340000000 0.2102 0.23414 -0.017297 -0.019026 0.00051582 0.0043391 -0.0017686 -0.00093081
0.0013516 0.002588 0.0019922 -0.0013921
-0.01727 -0.019002 0.035952 0.37106 -0.021119 0.0045608 -0.0003499 0.0021431
0.001978 0.00081963 0.0012519 0.00088168
0.00054897 0.004321 -0.021118 0.0046585 0.33817 0.11402 0.0011902 -0.00090327
0.00060106 -0.00055483 0.0002044 0.00024044
-0.0017574 -0.0009359 -0.0003318 0.002154 0.0011796 -0.00091312 0.14631 0.23257
-0.0099004 -0.017112 0.00042811 0.001228
0.0013691 0.0025722 0.0019889 0.00082253 0.00061499 -0.00057124 -0.0099436 -0.017088
0.071058 0.23421 -0.0045888 -0.013726
0.001971 -0.0013992 0.0012768 0.00083698 0.00019217 0.00022557 0.00043767 0.0012007
-0.0046254 -0.013736 0.059526 0.31502
1400000000 0.24364 0.19771 -0.023457 -0.0076802 0.004909 0.0031921 -0.0023202 0.00050673
0.002366 0.0011013 0.00055728 -0.0014094
-0.023429 -0.0076982 0.073165 0.35969 -0.014422 0.012504 0.0013762 0.0016206
0.001429 -0.00069879 0.001154 0.00022711
0.0049216 0.0031716 -0.014375 0.012594 0.3514 0.060175 0.00012862 -0.0016139
0.00011598 -0.00036069 0.00029717 0.00029526
-0.0023131 0.00051648 0.0013868 0.0016055 0.00013356 -0.0016131 0.17396 0.20326
-0.015997 -0.010099 -0.0010382 0.00050215
0.0023549 0.0011156 0.0014122 -0.00071394 0.00011415 -0.00031945 -0.016009 -0.010059
0.1032 0.22856 -0.010561 -0.0086027
0.00058182 -0.0014282 0.0011492 0.00019701 0.00030762 0.00025021 -0.0010406 0.00053699
-0.010541 -0.0086071 0.10434 0.30681
1460000000 0.26845 0.15456 -0.020329 0.004786 0.0053333 -0.0016705 -0.0017153 0.001852
0.0021801 -0.00029956 -0.00024101 -0.0010812
-0.02031 0.0047699 0.10899 0.33866 -0.0054149 0.015309 0.0019307 0.00026079
0.0010093 -0.0015385 0.0013215 -0.00057329
0.0053505 -0.0017041 -0.0053639 0.015345 0.3586 0.0048022 -0.0011655 -0.001433
0.00019178 -0.00027411 0.00059818 -0.00032581
-0.0017172 0.0018673 0.0019469 0.0002469 -0.0011785 -0.0014343 0.19974 0.17413
-0.017281 -0.0027637 -0.00041144 0.0027767
0.0021633 -0.00030391 0.00099578 -0.001568 0.00017409 -0.00030403 -0.017297 -0.0027318
0.13306 0.21332 -0.012215 -0.0022371
-0.00028738 -0.0010872 0.0013192 -0.00056826 0.00056938 -0.00035742 -0.00040792 0.0027369
-0.012244 -0.0022413 0.13921 0.28733
1520000000 0.2809 0.11226 -0.014791 0.010139 0.0033075 -0.0039659 0.00012756 0.0027592
0.0022085 -0.0017726 -0.0011109 -0.00032101
-0.014786 0.010114 0.14286 0.32421 0.002097 0.012609 0.0019473 -0.00083479
3.459e-05 -0.0011851 0.00042964 -0.00098561
0.003284 -0.0039787 0.0021835 0.01262 0.35076 -0.053864 -0.0011519 -0.00047709
0.00056672 -0.00082041 0.00014423 -8.796e-05
0.00014587 0.0027709 0.0019222 -0.00085408 -0.0011654 -0.00046925 0.22096 0.13562
-0.016312 0.0035091 0.0020513 0.0022618
0.0021967 -0.0018007 2.0049e-05 -0.0011878 0.00053442 -0.00082863 -0.01631 0.0035561
0.16067 0.19826 -0.011901 0.0020424
-0.0011383 -0.00030058 0.00041106 -0.0009805 0.00016074 -6.2348e-05 0.0020514 0.0022689
-0.011899 0.0020284 0.17277 0.269
1580000000 0.29118 0.067292 -0.0081834 0.013508 -0.00099275 -0.004659 0.0016512 0.0020961
-5.8259e-06 -0.0021998 -0.00037727 0.00050422
-0.0081761 0.013505 0.17072 0.30074 0.0054306 0.0075663 0.00059322 -0.0018174
-0.00071322 -0.0010884 -0.0001379 -0.0007841
-0.00099236 -0.004687 0.0054593 0.0075472 0.3291 -0.11056 -0.0017998 0.0005958
-0.00029116 -0.0011962 0.00033379 -0.00054449
0.0016427 0.0020985 0.00059934 -0.0018096 -0.0017888 0.00060233 0.23341 0.098197
-0.012503 0.0088423 0.002801 0.00066771
-3.4292e-05 -0.0021907 -0.00071106 -0.0011059 -0.00028712 -0.0012232 -0.012487 0.0088808
0.18463 0.18082 -0.0090973 0.007631
-0.000407 0.00049681 -0.00014427 -0.00075146 0.00030959 -0.00054135 0.0028045 0.00062117
-0.0091149 0.0076349 0.20631 0.24488
1640000000 0.29449 0.025162 -0.0013702 0.012333 -0.0026935 -0.0024141 0.0029868 0.0010116
-0.00049489 -0.0018023 -0.00027436 0.00052852
-0.0013742 0.012316 0.20189 0.27552 0.0057191 0.0026704 -0.00073846 -0.0020082
-0.0010456 -0.00032085 -0.00040849 -0.00081755
-0.0027097 -0.002395 0.0057448 0.0026458 0.2995 -0.16093 -0.00070697 0.0016413
-0.00092005 -0.00095951 -6.3677e-05 -0.0004916
0.0030212 0.00099296 -0.00074116 -0.0020002 -0.00071357 0.0016288 0.24554 0.05032
-0.0078561 0.010607 0.0027614 -0.0011975
-0.00051847 -0.001804 -0.0010423 -0.00032585 -0.00093828 -0.00094618 -0.0078245 0.010637
0.20775 0.15456 -0.0043106 0.0096072
-0.00026804 0.00060307 -0.00042906 -0.00080241 -5.509e-05 -0.00050845 0.002753 -0.0011887
-0.0043062 0.0096047 0.2339 0.21407
1700000000 0.28648 -0.01993 0.0021496 0.0095673 -0.0033854 0.00025162 0.0033269 -0.0015402
-0.0021087 -0.0009211 0.00056239 0.00039695
0.0021365 0.0095717 0.21959 0.24461 0.0033769 -0.00013529 -0.0016906 -0.0006522
-0.00084886 0.00015902 -0.00088549 -0.00055888
-0.0033699 0.00026871 0.00339 -0.0001706 0.2541 -0.19938 0.00051122 0.001717
-0.0021239 -7.2003e-05 -0.00040065 -0.00095207
0.0033008 -0.0015582 -0.0016982 -0.00064719 0.00050125 0.0017039 0.24178 0.0028259
-0.0042686 0.011398 0.0016948 -0.0024141
-0.0021156 -0.00091784 -0.00084627 0.00016255 -0.0021222 -0.00010622 -0.0042461 0.011428
0.2247 0.13357 0.00050364 0.0095942
0.0005702 0.00040894 -0.0008839 -0.00055789 -0.00044931 -0.00094954 0.001712 -0.0024173
0.00051194 0.0095977 0.25123 0.18124
1760000000 0.27582 -0.06835 0.0045592 0.0061333 -0.0020363 0.00088316 0.0010968 -0.0037902
-0.0016527 0.00054295 0.00030164 -0.00062818
0.0045509 0.0061418 0.24747 0.2053 0.00080457 -0.001711 -0.0013829 0.00023732
-0.00093883 0.0010255 -0.00063654 0.00028477
-0.0020249 0.00089245 0.0008026 -0.0017311 0.20492 -0.23084 0.0014023 0.0011243
-0.0012095 0.0016257 -0.0013465 -0.00062003
0.0010847 -0.0037735 -0.0013809 0.00024892 0.0014017 0.0011241 0.23546 -0.046142
-0.00023361 0.010451 -0.0001009 -0.0027584
-0.0016644 0.00055028 -0.0009376 0.0010203 -0.0012148 0.001627 -0.0002115 0.010459
0.23997 0.099487 0.0042406 0.0068539
0.00031185 -0.00057919 -0.0006245 0.00029638 -0.0013326 -0.00065836 -0.00015405 -0.0027677
0.0042461 0.0068387 0.26611 0.14435
1820000000 0.25085 -0.10641 0.0047379 0.0024786 0.00013159 0.0021407 -0.0012225 -0.0031665
-0.0013828 0.0011695 -0.0002024 -0.00018037
0.0047468 0.0024816 0.25776 0.17451 -0.0013739 -5.6206e-05 -0.0013065 0.0011101
5.7749e-05 0.0011792 -0.00073321 0.00042743
0.00012237 0.0021211 -0.001366 -3.5328e-05 0.15327 -0.24472 0.0017542 0.00023934
3.0195e-05 0.0025039 -0.0017267 0.00034081
-0.0012479 -0.0031328 -0.0012982 0.0011085 0.0018047 0.00024071 0.20685 -0.093722
0.0018708 0.0084518 -0.001721 -0.0017183
-0.0013859 0.0011928 7.636e-05 0.0011681 4.0441e-05 0.002499 0.001902 0.0084645
0.25584 0.069059 0.0050323 0.0033254
-0.0002078 -0.00013714 -0.00073617 0.00040948 -0.0017064 0.0003466 -0.0017169 -0.0017105
0.0050419 0.0033318 0.26974 0.10843
1880000000 0.21525 -0.1457 0.0021916 1.1529e-06 -0.00082607 0.0021392 -0.0032512 -0.0020642
-0.00018395 0.0020373 7.3606e-05 -0.0005897
0.002188 1.6403e-05 0.26261 0.12883 -0.0034999 0.0023153 -0.00023446 0.0017306
0.00060578 0.001116 -2.148e-05 0.0010453
-0.00080204 0.0021669 -0.0034853 0.0023347 0.10113 -0.251 0.0014366 -0.0011358
0.0016954 0.0018653 -0.001164 0.0016768
-0.0032733 -0.0020282 -0.00024252 0.0017381 0.0014339 -0.001118 0.16904 -0.13367
0.0031491 0.005681 -0.0024766 0.00017712
-0.00016163 0.0020695 0.00060881 0.0011074 0.0016892 0.0018979 0.0031898 0.0056701
0.25948 0.038129 0.0049906 0.0011095
8.7721e-05 -0.00058614 -5.7624e-06 0.00107 -0.0011223 0.0016911 -0.0025098 0.00018001
0.0049819 0.0010993 0.27128 0.075427
1940000000 0.17703 -0.1723 -0.00011787 -0.0016396 0.0014035 0.0020864 -0.0036852 0.00074687
0.0016215 0.0013285 -0.00055676 -0.00055175
-0.000116 -0.0016154 0.26486 0.096174 -0.0015959 0.0051652 0.0010679 0.0012829
0.0017458 0.00038617 0.0010001 0.00039353
0.0014109 0.0021049 -0.0015463 0.0051814 0.059149 -0.24204 0.00019808 -0.0020106
0.0023739 0.00020892 0.00052603 0.0017616
-0.0036617 0.00075775 0.0010976 0.0012594 0.00023449 -0.0020285 0.11896 -0.16763
0.002589 0.0037283 -0.0015483 0.001307
0.0016472 0.001328 0.0017547 0.00035409 0.0024026 0.00020967 0.0025881 0.0037516
0.26279 -0.0011896 0.0036957 -0.0023739
-0.00058628 -0.00054431 0.0009585 0.00036137 0.00049944 0.0017572 -0.0015209 0.0013302
0.0037038 -0.0023699 0.26289 0.039129
2000000000 0.1295 -0.18608 -0.0040898 0.00054564 0.0028685 0.0015704 -0.0021299 0.003747
0.0014574 0.00025787 -0.00060874 0.00060399
-0.004082 0.00055109 0.25028 0.060362 -0.00060613 0.0070654 0.0014351 0.00044571
0.0011336 -0.0011459 0.00052162 0.00022799
0.0028654 0.0015355 -0.00055823 0.007071 0.017294 -0.22718 -0.0012508 -0.001117
0.0019293 -0.0013705 0.0018692 0.001421
-0.002045 0.0037466 0.001442 0.00045206 -0.0012684 -0.0010832 0.064452 -0.17949
0.00083653 0.0027614 -0.00011722 0.00229
0.0014457 0.00025874 0.0011568 -0.001165 0.001931 -0.0013912 0.00086366 0.0027494
0.25709 -0.034672 0.0003411 -0.0029051
