!Keysight Technologies,M9804A,MY58100912,A.14.10.03
!Date: Thursday, April 27, 2023 10:28:33
!Correction: S11(C  6-Port  ) 
!S12(C  6-Port  ) 
!S13(C  6-Port  ) 
!S14(C  6-Port  ) 
!S15(C  6-Port  ) 
!S16(C  6-Port  ) 
!S21(C  6-Port  ) 
!S22(C  6-Port  ) 
!S23(C  6-Port  ) 
!S24(C  6-Port  ) 
!S25(C  6-Port  ) 
!S26(C  6-Port  ) 
!S31(C  6-Port  ) 
!S32(C  6-Port  ) 
!S33(C  6-Port  ) 
!S34(C  6-Port  ) 
!S35(C  6-Port  ) 
!S36(C  6-Port  ) 
!S41(C  6-Port  ) 
!S42(C  6-Port  ) 
!S43(C  6-Port  ) 
!S44(C  6-Port  ) 
!S45(C  6-Port  ) 
!S46(C  6-Port  ) 
!S51(C  6-Port  ) 
!S52(C  6-Port  ) 
!S53(C  6-Port  ) 
!S54(C  6-Port  ) 
!S55(C  6-Port  ) 
!S56(C  6-Port  ) 
!S61(C  6-Port  ) 
!S62(C  6-Port  ) 
!S63(C  6-Port  ) 
!S64(C  6-Port  ) 
!S65(C  6-Port  ) 
!S66(C  6-Port  ) 
!S6P File: Measurement: :
# Hz S  RI   R 50
500000000 -0.32819 -0.057829 -0.011358 -0.0015657 -0.0081317 0.012731 -0.0039687 0.012484
0.011678 0.004626 -0.0052754 0.0097188
-0.010954 -0.00098636 -0.41009 -0.072337 0.007276 -0.010359 0.0010999 0.012015
0.0076222 0.0030848 0.001184 0.013634
-0.0080633 0.012684 0.0070866 -0.010498 -0.25615 0.19485 0.00619 0.0035701
-0.001332 0.007948 6.2992e-05 0.011489
-0.0036461 0.012379 0.0010204 0.012022 0.006196 0.0035661 -0.33007 0.043273
-0.020339 -0.0053631 0.015632 0.028094
0.011498 0.0044477 0.0072565 0.0029873 -0.0013736 0.0078588 -0.020224 -0.0052779
-0.25542 -0.16229 -0.027995 0.0059969
-0.0040556 0.0091854 0.0011143 0.013643 -0.00011223 0.011872 0.015427 0.028341
-0.027756 0.0050929 -0.25474 -0.15334
560000000 -0.31325 0.10727 -0.023407 -0.065027 0.00031191 0.012922 0.0040434 0.011538
0.0095481 0.0037881 0.011093 0.0096528
-0.023349 -0.066135 -0.37142 0.091122 -0.041587 -0.038108 0.013557 0.0036992
-0.012034 -0.0033836 0.0037259 -0.00025923
0.00066716 0.013054 -0.041486 -0.038367 -0.17896 0.24389 -0.00028418 -0.0038593
0.017565 0.0050385 0.0068759 -0.0066624
0.0037445 0.011373 0.013476 0.0033681 -0.00018645 -0.0039767 -0.3056 0.13426
0.001825 -0.022388 0.0058566 -0.020766
0.010226 0.0047371 -0.012664 -0.002669 0.017764 0.0051218 0.0020301 -0.022408
-0.30593 0.016736 0.0052948 -0.04963
0.010815 0.0093354 0.0033366 -0.0008368 0.0072188 -0.0062494 0.0060905 -0.020939
0.0056356 -0.049304 -0.32633 -0.002658
620000000 -0.27352 0.085804 -0.02456 0.0097332 0.0034013 0.0088499 0.0088378 -0.0043002
0.011248 -0.0010741 0.00030841 -0.0011279
-0.024497 0.0097885 -0.40052 0.038771 -0.01961 0.0014601 -0.0013744 -0.0014409
0.011243 -0.0059592 0.0009873 -0.00243
0.0034262 0.0087536 -0.01975 0.0014326 -0.15319 0.25179 -0.00042038 -0.0051292
-0.0033876 -0.0026979 0.0089731 -0.0030571
0.0082953 -0.0044209 -0.0014988 -0.0014262 -0.00042659 -0.0051723 -0.26501 0.14513
-0.039221 -0.018703 0.012738 0.030352
0.011971 -0.0006332 0.011691 -0.0064173 -0.0034335 -0.0026962 -0.039661 -0.018197
-0.23214 -0.020151 -0.043053 0.014145
0.00012361 -0.001024 0.00061761 -0.0023513 0.0089449 -0.0025875 0.012563 0.029877
-0.042058 0.014686 -0.24254 -0.041255
680000000 -0.23861 0.17826 -0.026015 -0.013707 0.0048215 0.0052922 0.0014045 -0.0070198
-0.0021831 -0.011433 0.0059489 -0.0066187
-0.025905 -0.013579 -0.38982 0.14234 -0.032013 -0.0010937 -0.0012994 -0.00038794
-0.0017359 -0.0096348 -0.00036431 -0.0015928
0.0048452 0.0052004 -0.031994 -0.0010621 -0.10547 0.27472 -0.00071614 -0.0006025
-0.0015993 0.00026135 -0.0025712 -0.0089271
0.0017502 -0.0072212 -0.0014153 -0.00040406 -0.00084002 -0.00061008 -0.21951 0.19941
-0.02568 -0.0050824 -0.0082102 -0.012568
-0.0026622 -0.011493 -0.0018925 -0.00956 -0.0015034 0.0002822 -0.02548 -0.0051946
-0.27132 0.079315 -0.0074109 -0.0050253
0.0061234 -0.0068807 -0.00054879 -0.0015113 -0.002624 -0.0088756 -0.0083157 -0.012604
-0.0073351 -0.0048046 -0.26104 0.067241
740000000 -0.19119 0.17219 -0.039716 0.027626 0.013403 -0.00392 0.00025241 -0.0042481
-0.0046766 -0.0020678 -0.0061646 0.0019009
-0.039992 0.027434 -0.33475 0.16168 -0.036479 0.034354 -1.4684e-05 -0.0068673
-0.010851 0.0071149 -0.0012358 -0.0071552
0.013308 -0.0041288 -0.036286 0.034394 -0.071571 0.27365 -0.0021184 0.0030257
-0.0025542 -0.0046752 -0.0011667 0.00040531
-7.9818e-06 -0.0042103 3.4055e-05 -0.0067169 -0.0020613 0.0031813 -0.20212 0.20529
-0.041185 -0.0048549 0.023166 0.016849
-0.0037998 -0.0027032 -0.011146 0.0072993 -0.0026621 -0.0048008 -0.040943 -0.0047153
-0.17719 0.10276 -0.039691 0.0014828
-0.0068698 0.0019413 -0.0012157 -0.0071884 -0.0012371 0.00065995 0.023219 0.016619
-0.040048 0.0015934 -0.25288 0.070786
800000000 -0.16353 0.21613 -0.021684 0.016616 0.0054476 -0.010198 -0.0039543 -0.002695
-0.0046508 0.0018241 0.0049029 0.00033421
-0.021704 0.016524 -0.34266 0.2323 -0.0079397 0.033999 -0.0024067 0.0018245
-0.00086728 0.0021096 0.00078667 0.0051327
0.0053709 -0.010255 -0.0078978 0.034045 -0.034178 0.29953 0.00057032 0.0014342
-6.7685e-05 0.0034873 -0.0014278 0.00054151
-0.0039131 -0.0026211 -0.0023867 0.0018509 0.00057311 0.0014655 -0.17229 0.23462
-0.027278 0.015348 0.015405 -0.010266
-0.004809 0.0013923 -0.00084869 0.0020908 1.2612e-05 0.0035205 -0.027209 0.015403
-0.21176 0.13054 -0.017158 0.021031
0.0047668 0.00018802 0.00092739 0.0052697 -0.0013176 0.00042737 0.015607 -0.010297
-0.01736 0.021091 -0.2514 0.12454
860000000 -0.12733 0.23694 -0.016961 0.030447 -0.0030839 -0.0098658 -0.0018494 0.00043185
0.0037178 0.0045947 -0.003892 -0.0033967
-0.01693 0.030217 -0.29399 0.27677 0.0079827 0.03393 3.8054e-05 0.0021461
0.0037252 0.00074474 0.0034214 0.00032544
-0.0031364 -0.0098639 0.008091 0.03393 0.014502 0.30957 -0.00040368 -3.4114e-05
0.0024155 -0.0011455 0.0012476 0.0038605
-0.0016294 0.00016133 3.9594e-05 0.0021391 -0.00046148 -9.0535e-05 -0.13397 0.24524
-0.016186 0.019403 -0.0066033 -0.0096713
0.0038215 0.004252 0.0037777 0.00088729 0.0024713 -0.0012411 -0.016191 0.019686
-0.15578 0.17609 -0.022232 0.016318
-0.003874 -0.0029264 0.0032982 -2.4407e-05 0.0013041 0.0038266 -0.006667 -0.0096175
-0.022399 0.016852 -0.19914 0.17428
920000000 -0.10496 0.25925 0.0052311 0.038683 -0.0089565 -0.0044327 -0.0019345 0.0012648
0.00090346 0.001498 0.0030243 -0.0012269
0.0052888 0.03861 -0.26741 0.2969 0.02816 0.022394 0.0013801 0.0011733
0.0072109 -0.00043029 0.0040697 -0.0027056
-0.008966 -0.0044503 0.028235 0.022311 0.059976 0.31125 0.0020651 0.00011498
0.00080948 -0.00029881 0.00086664 -0.0013728
-0.0019502 0.0013063 0.0014445 0.0010847 0.0020577 0.00010018 -0.10948 0.26077
-0.0082145 0.030676 0.0049171 -0.0063
0.00076459 0.0014246 0.0072018 -0.0004528 0.00078717 -0.00034854 -0.0081801 0.030638
-0.14275 0.18208 -0.00048611 0.027637
0.0031826 -0.0010202 0.0041964 -0.0025745 0.00090309 -0.0014468 0.0048734 -0.0063812
-0.00055837 0.02759 -0.2119 0.18552
980000000 -0.058754 0.28177 0.017171 0.029548 -0.0090654 0.0043637 0.0014754 0.0034807
0.0034589 -0.0014438 -0.0031468 -0.0025583
0.017131 0.029386 -0.21562 0.3344 0.032934 0.0047915 0.0020279 8.7949e-05
0.0017004 -0.0056514 -0.00016023 -0.0024424
-0.0090534 0.0043562 0.032988 0.004665 0.10649 0.30717 0.00067563 -0.0011192
0.00043719 -0.001793 0.0013622 -0.00027654
0.0015101 0.0036771 0.0020439 7.7038e-05 0.00067038 -0.0011346 -0.07062 0.27179
0.010196 0.027937 -0.0093181 -0.0079562
0.0036002 -0.001507 0.0017288 -0.0057104 0.00041342 -0.0017558 0.010287 0.027938
-0.10801 0.2082 0.0069998 0.018766
-0.0033357 -0.0025935 -7.0493e-05 -0.0023844 0.001408 -0.00029566 -0.0092316 -0.0079908
0.0068346 0.018702 -0.17044 0.23599
1040000000 -0.016987 0.28937 0.033052 0.018649 -0.0012297 0.0071594 0.0021372 0.00079746
0.00044699 -0.0034799 -0.00046853 -0.0012091
0.032954 0.018638 -0.17995 0.34717 0.029415 -0.01464 0.0015884 -0.0017266
-0.0022593 -0.0025738 -0.0011186 -0.0028357
-0.001224 0.0071575 0.02939 -0.014789 0.15371 0.29346 -0.00046981 -0.0015951
-0.0014685 -0.0010612 -0.00060027 -0.0010385
0.0020871 0.00080686 0.001611 -0.0017071 -0.00050377 -0.0015915 -0.042492 0.28036
0.020761 0.016566 -0.0013654 0.00093628
0.00046917 -0.003368 -0.0022712 -0.0025445 -0.0015356 -0.0010664 0.020764 0.016492
-0.0752 0.21365 0.014523 0.017501
-0.00034182 -0.001375 -0.001139 -0.0028909 -0.00063369 -0.0010302 -0.0014481 0.00089432
0.014487 0.017584 -0.1491 0.25631
1100000000 0.026453 0.29981 0.036035 -0.0039679 0.0031681 0.0039705 0.0022467 -0.00070635
-0.0021881 -0.0028694 -0.0041963 3.4512e-05
0.036027 -0.0039043 -0.13815 0.36706 0.015104 -0.027733 3.0051e-06 -0.0017508
-0.0035842 -0.00092007 -0.0038051 -0.00065864
0.0031656 0.0039754 0.015024 -0.027776 0.19935 0.2745 -0.0018546 0.00015675
-0.0016714 0.00059355 -0.0011335 -0.00044994
0.0022102 -0.00066724 2.7694e-05 -0.0017831 -0.0018322 0.00014524 -0.0026775 0.2851
0.02513 0.0028317 -0.0024023 -0.00099464
-0.0022148 -0.0028205 -0.0035632 -0.00092214 -0.0016128 0.00059637 0.025118 0.0028203
-0.055193 0.22568 0.01974 0.0072774
-0.0041716 0.00011071 -0.0038495 -0.00053693 -0.0010979 -0.00040113 -0.0023429 -0.0010104
0.019836 0.0071952 -0.10577 0.29093
1160000000 0.078609 0.29676 0.023984 -0.02056 0.003056 -0.0006172 4.5757e-06 -0.0021705
-0.0037682 -0.00086695 -0.0013445 0.0044199
0.024 -0.020601 -0.093185 0.37185 -0.0037722 -0.028718 -0.0014708 -0.0016848
-0.0027542 0.0025308 -0.0015823 0.0020332
0.0030609 -0.00064419 -0.0039076 -0.028719 0.24412 0.24445 -0.00084513 0.0016714
-0.00056641 0.0016772 -0.000882 0.00041087
-0.00011665 -0.0022027 -0.0014204 -0.0016852 -0.00086765 0.0017033 0.037982 0.2815
0.020583 -0.012255 -0.0040393 0.0045204
-0.0037739 -0.00081909 -0.0027099 0.0025389 -0.00055242 0.0016573 0.02058 -0.012335
-0.019819 0.23278 0.017955 -0.001605
-0.0012249 0.0042592 -0.0016008 0.0020131 -0.00084532 0.00035451 -0.0040586 0.0044974
0.018012 -0.0016083 -0.056126 0.2946
1220000000 0.12165 0.28637 0.010903 -0.030013 -0.0014504 -0.0011678 0.00033596 -0.00082839
-0.0025453 0.0022165 0.0010998 0.0021162
0.010916 -0.029959 -0.05021 0.38547 -0.016894 -0.021072 -0.0025467 0.00040618
-0.00012045 0.0031896 -0.00094086 0.0020397
-0.0014545 -0.0011776 -0.016991 -0.02103 0.28325 0.20535 0.00072744 0.0017193
0.000602 0.0011157 0.00023523 0.0004991
0.00031459 -0.00081346 -0.0025616 0.00040935 0.00073052 0.0017435 0.077094 0.27171
0.0098006 -0.018636 0.0013559 0.0011553
-0.0025903 0.0021439 -0.00011368 0.0031393 0.00060464 0.001127 0.0097549 -0.018624
0.0047589 0.23866 0.012718 -0.013506
0.0010776 0.0021997 -0.00096088 0.0020192 0.00029817 0.00052675 0.0013736 0.0011318
0.012825 -0.013486 -0.027558 0.31327
1280000000 0.17222 0.26783 -0.0077907 -0.028648 -0.0018543 0.0021135 -0.00073113 -0.0022276
-0.0008596 0.0030163 0.0024792 0.0015278
-0.0077487 -0.02867 -0.0038158 0.37854 -0.023907 -0.0081526 -0.0011666 0.00138
0.0017061 0.0019022 0.00066247 0.0021486
-0.0018467 0.0021317 -0.023966 -0.0080345 0.3146 0.16286 0.0015934 0.00010338
0.0011471 0.00024649 0.00026996 0.00025257
-0.00077738 -0.0021763 -0.0011285 0.001406 0.001588 9.1459e-05 0.11384 0.25494
-0.00034748 -0.020537 -0.00111 0.00039984
-0.00082285 0.0030296 0.0017613 0.0018794 0.0011506 0.00026609 -0.00040096 -0.02054
0.040795 0.24144 0.0023026 -0.015346
0.0024709 0.0014053 0.0006418 0.0021089 0.00030115 0.00027941 -0.0011634 0.0004198
0.0023361 -0.015392 0.021099 0.31843
1340000000 0.21016 0.23424 -0.017277 -0.019025 0.00049904 0.0043057 -0.0017548 -0.00098243
0.0013541 0.0025559 0.0019668 -0.0013704
-0.01727 -0.018993 0.036018 0.37104 -0.021149 0.0045622 -0.00036987 0.0021697
0.0019771 0.00083622 0.0012665 0.00083179
0.00044069 0.004322 -0.021148 0.0046766 0.33818 0.114 0.0011458 -0.00090409
0.00058823 -0.00048943 0.00019369 0.00019457
-0.0017216 -0.00096787 -0.00036012 0.0021564 0.0011583 -0.0008915 0.14637 0.2325
-0.0098706 -0.017071 0.00053542 0.0011998
0.001296 0.0025831 0.0020085 0.0008135 0.00059154 -0.00049219 -0.009883 -0.017103
0.070974 0.23416 -0.0046121 -0.013626
0.0018727 -0.001373 0.0012266 0.00085965 0.00019091 0.00021251 0.00055404 0.0012107
-0.0045835 -0.01363 0.059395 0.31492
1400000000 0.24365 0.19772 -0.023505 -0.0077178 0.0049203 0.0032359 -0.0023394 0.00046449
0.002412 0.0010629 0.0005739 -0.0015187
-0.023455 -0.0077335 0.073188 0.35966 -0.014402 0.012494 0.0013896 0.0016359
0.0014474 -0.00067514 0.0012029 0.00017159
0.0049173 0.0032085 -0.014379 0.012571 0.35142 0.060146 0.00016809 -0.0016751
0.00013269 -0.00025841 0.00039205 0.00023061
-0.0023072 0.00048356 0.0013768 0.0016293 0.00013495 -0.0016684 0.17392 0.20331
-0.01617 -0.010118 -0.0010186 0.00058278
0.002383 0.0010538 0.0014175 -0.00070264 0.00010593 -0.00025299 -0.016172 -0.010088
0.10305 0.22843 -0.010647 -0.0085631
0.00055545 -0.0014655 0.0011862 0.00017879 0.0004168 0.00018844 -0.0010518 0.00057678
-0.01063 -0.0086189 0.10416 0.30703
1460000000 0.26844 0.15455 -0.020346 0.004788 0.0053648 -0.0016186 -0.0017055 0.0018633
0.0021301 -0.00026425 -0.00016343 -0.00097209
-0.020314 0.0047363 0.10901 0.33866 -0.0054394 0.01532 0.0019472 0.00029301
0.0010288 -0.0015092 0.0012744 -0.00053627
0.0053252 -0.0016558 -0.0053659 0.015377 0.35862 0.004787 -0.0011693 -0.0014362
0.00021385 -0.000303 0.00062686 -0.00029457
-0.0016843 0.0018871 0.0019499 0.00026314 -0.0011751 -0.0014358 0.19967 0.17415
-0.017261 -0.002796 -0.00038339 0.0027476
0.0021655 -0.00030821 0.0010072 -0.0015322 0.00021145 -0.00027455 -0.017272 -0.0027613
0.13314 0.21342 -0.012202 -0.0023578
-0.00018352 -0.0009531 0.001306 -0.00054897 0.00062427 -0.00030373 -0.00042817 0.002754
-0.012177 -0.002389 0.13888 0.28751
1520000000 0.28092 0.11226 -0.014804 0.010162 0.0033206 -0.0039475 0.00011213 0.0027541
0.0022189 -0.0018008 -0.0010734 -0.00032539
-0.014819 0.010128 0.14288 0.3242 0.0021065 0.01261 0.0019476 -0.00084162
6.0848e-05 -0.0011995 0.00044546 -0.0009834
0.0032839 -0.0039448 0.0021844 0.012619 0.35078 -0.053967 -0.0011702 -0.00047444
0.00056251 -0.00089985 0.00011888 -0.00012333
0.00011806 0.0027923 0.0019324 -0.00083843 -0.0011505 -0.0004619 0.22093 0.13565
-0.016271 0.0034692 0.0019949 0.0023089
0.0021889 -0.0017312 3.5474e-05 -0.0012076 0.00055922 -0.00084034 -0.016286 0.0035194
0.16052 0.19831 -0.011768 0.0020962
-0.0010689 -0.00033406 0.00042983 -0.0010032 0.00014393 -0.00010595 0.0020053 0.0023111
-0.011757 0.0020689 0.17248 0.26891
1580000000 0.29116 0.067272 -0.008195 0.013523 -0.00097702 -0.0046556 0.0016316 0.0020924
-8.5234e-05 -0.0021668 -0.00032879 0.00050755
-0.0082148 0.013502 0.17072 0.30074 0.0054221 0.0075672 0.00061731 -0.001806
-0.00071979 -0.0010919 -0.00011836 -0.00078287
-0.00098469 -0.0046258 0.0054753 0.0075436 0.32904 -0.11064 -0.0017762 0.00058999
-0.00030916 -0.0012241 0.00037279 -0.00053809
0.001638 0.0021273 0.00059585 -0.0018057 -0.0017915 0.0005914 0.23342 0.098316
-0.012516 0.0088778 0.0028739 0.00067632
-5.0121e-05 -0.0021496 -0.00070677 -0.0010726 -0.00033728 -0.0012033 -0.012488 0.0089043
0.18449 0.18073 -0.0091824 0.0078466
-0.00035639 0.00045515 -0.00014169 -0.00076651 0.00034699 -0.000587 0.0028892 0.00063793
-0.0091848 0.0078433 0.20662 0.24506
1640000000 0.2945 0.02514 -0.0013578 0.012336 -0.0026909 -0.0024178 0.0029811 0.00099608
-0.00054746 -0.0018455 -0.0002862 0.00054603
-0.0013932 0.012313 0.20195 0.27549 0.0057468 0.0026463 -0.00074027 -0.002031
-0.0010811 -0.00034363 -0.00039837 -0.00078007
-0.0027368 -0.002438 0.0057966 0.0026412 0.29956 -0.16102 -0.00070782 0.0016522
-0.00096021 -0.00099744 -9.3591e-05 -0.00039168
0.0029996 0.00099213 -0.00075261 -0.0020176 -0.00073128 0.0016678 0.24555 0.050373
-0.0078836 0.010602 0.0027492 -0.0011646
-0.00052651 -0.0018552 -0.0010661 -0.000344 -0.00095415 -0.000991 -0.0078665 0.010622
0.20765 0.15454 -0.0043114 0.0096385
-0.00030004 0.00060861 -0.00040781 -0.00077814 -6.8836e-05 -0.00045601 0.0027646 -0.0011783
-0.0043282 0.0096317 0.23393 0.21421
1700000000 0.28652 -0.019959 0.002167 0.0096011 -0.0034079 0.00028315 0.0033017 -0.0015357
-0.0021179 -0.00093409 0.00053473 0.00040375
0.0021445 0.0095857 0.2196 0.24461 0.0033532 -0.00016684 -0.0016868 -0.00066275
-0.00084414 0.00016726 -0.00088654 -0.00055169
-0.003358 0.00024204 0.0033778 -0.00016722 0.25391 -0.19947 0.00057771 0.0017006
-0.0021819 -0.00015386 -0.00040042 -0.000902
0.0032917 -0.0015381 -0.0016878 -0.00065868 0.00053321 0.0017218 0.2418 0.0028785
-0.0042862 0.011345 0.0016195 -0.0024223
-0.0021081 -0.00094012 -0.00084459 0.00017053 -0.0021306 -0.00010093 -0.0042531 0.011388
0.22459 0.13365 0.00046952 0.0095625
0.00055813 0.00034984 -0.00088149 -0.00056519 -0.00034648 -0.0009 0.0016078 -0.0023917
0.00050133 0.0095813 0.2512 0.18134
1760000000 0.27581 -0.068303 0.0045715 0.0061283 -0.0020341 0.00083954 0.001126 -0.0038018
-0.0016277 0.00050663 0.00030437 -0.00065087
0.004552 0.0061466 0.24753 0.20532 0.00075604 -0.0017235 -0.0013797 0.00024143
-0.00091395 0.0010158 -0.00063586 0.00024332
-0.0020366 0.00084548 0.00077479 -0.0017086 0.2048 -0.23084 0.0013586 0.0010868
-0.0011504 0.0015454 -0.0013713 -0.00064282
0.0010863 -0.0038058 -0.0013864 0.0002478 0.0013965 0.0010909 0.23552 -0.046204
-0.00023988 0.010366 -0.00013898 -0.0028016
-0.0016402 0.00052059 -0.00092062 0.0010408 -0.0011304 0.0015973 -0.00023166 0.010362
0.23989 0.09958 0.0043299 0.0068395
0.00033172 -0.00068127 -0.00061886 0.00025213 -0.0013554 -0.00063909 -0.00010138 -0.0028128
0.0043308 0.0068489 0.26613 0.14441
1820000000 0.25077 -0.10633 0.0047361 0.0024841 0.00012088 0.0020782 -0.0012263 -0.0031436
-0.0014631 0.0011937 -0.00024121 -0.00021615
0.0047023 0.0024895 0.2578 0.17446 -0.0013366 -7.6183e-05 -0.0013138 0.001101
6.8498e-05 0.001181 -0.00076372 0.00037568
9.7761e-05 0.0021028 -0.0013367 -4.0008e-05 0.15334 -0.24462 0.0017128 0.00020293
-1.0891e-05 0.0024455 -0.0017766 0.00032936
-0.0012317 -0.0031792 -0.0012824 0.0011029 0.0017161 0.00019524 0.20697 -0.093791
0.001843 0.0084119 -0.0017363 -0.0017564
-0.001418 0.001251 8.6442e-05 0.0011753 3.1454e-06 0.0024347 0.0018848 0.0084236
0.25581 0.069095 0.005075 0.0033241
-0.0001279 -0.000199 -0.0007609 0.00038883 -0.0017581 0.00034219 -0.0017402 -0.0017572
0.0050678 0.0033189 0.26966 0.10845
1880000000 0.21527 -0.1456 0.0022331 5.0514e-05 -0.0007747 0.00218 -0.0032166 -0.0020529
-0.00017202 0.0020765 0.000171 -0.00055261
0.0022312 5.3277e-05 0.26261 0.12886 -0.0035317 0.0023644 -0.0001841 0.0017177
0.00063646 0.0011042 1.3204e-05 0.0010362
-0.00080576 0.0022135 -0.0035158 0.0023992 0.10091 -0.25092 0.001492 -0.0011452
0.0017234 0.0017867 -0.00114 0.0015698
-0.0031728 -0.0019931 -0.00014595 0.0017491 0.0014803 -0.0011694 0.16923 -0.13366
0.003149 0.0057868 -0.0024211 0.00019282
-0.00020008 0.0021113 0.00064157 0.0011013 0.0017506 0.0017983 0.0031494 0.0057715
0.25938 0.038382 0.0050295 0.0011374
0.00015582 -0.00052559 1.5093e-05 0.0010866 -0.0011139 0.0017281 -0.0024118 0.00017736
0.0050405 0.0011417 0.27124 0.075641
1940000000 0.17706 -0.1722 -0.00011304 -0.0016119 0.0014196 0.0021113 -0.0036645 0.00070639
0.0016129 0.0013148 -0.00063793 -0.0004488
-0.0001022 -0.0015753 0.26492 0.09619 -0.0015621 0.0051509 0.0011132 0.0012333
0.001766 0.00036683 0.00093219 0.00037948
0.0014356 0.0020896 -0.0015089 0.0051769 0.059131 -0.2421 0.00026964 -0.0021415
0.0024216 0.00012506 0.00040368 0.0016803
-0.003649 0.00075731 0.0011352 0.0012169 0.00027945 -0.0021333 0.11893 -0.1677
0.0025151 0.0037597 -0.0016548 0.0013132
0.0015953 0.001319 0.0017794 0.00034823 0.0024762 9.6299e-05 0.0025702 0.0037648
0.26277 -0.0011364 0.0036079 -0.0023447
-0.00063482 -0.00053146 0.00093812 0.00037175 0.00036938 0.0016634 -0.0016586 0.0013119
0.0036601 -0.0023421 0.26286 0.039194
2000000000 0.12966 -0.18609 -0.0040283 0.00055415 0.0028761 0.0015534 -0.0021078 0.0036732
0.0015553 0.00023986 -0.00065631 0.000631
-0.0040284 0.00053866 0.25035 0.060364 -0.00057362 0.0070601 0.0014757 0.00038799
0.001198 -0.0011388 0.00050169 0.00021896
0.0028929 0.0015457 -0.00052153 0.0071158 0.01734 -0.22718 -0.0012463 -0.0011127
0.0019941 -0.0013564 0.0018136 0.0014886
-0.0021521 0.0036898 0.0014792 0.00039554 -0.0012854 -0.0010583 0.064415 -0.17976
0.00094347 0.0026888 -0.00023788 0.0021401
0.0015547 0.00012355 0.0011761 -0.0011391 0.0019661 -0.0013695 0.00087492 0.002686
0.2572 -0.034573 0.00039648 -0.0030025
