!Keysight Technologies,M9804A,MY58100912,A.14.10.03
!Date: Thursday, April 27, 2023 10:28:33
!Correction: S11(C  6-Port  ) 
!S12(C  6-Port  ) 
!S13(C  6-Port  ) 
!S14(C  6-Port  ) 
!S15(C  6-Port  ) 
!S16(C  6-Port  ) 
!S21(C  6-Port  ) 
!S22(C  6-Port  ) 
!S23(C  6-Port  ) 
!S24(C  6-Port  ) 
!S25(C  6-Port  ) 
!S26(C  6-Port  ) 
!S31(C  6-Port  ) 
!S32(C  6-Port  ) 
!S33(C  6-Port  ) 
!S34(C  6-Port  ) 
!S35(C  6-Port  ) 
!S36(C  6-Port  ) 
!S41(C  6-Port  ) 
!S42(C  6-Port  ) 
!S43(C  6-Port  ) 
!S44(C  6-Port  ) 
!S45(C  6-Port  ) 
!S46(C  6-Port  ) 
!S51(C  6-Port  ) 
!S52(C  6-Port  ) 
!S53(C  6-Port  ) 
!S54(C  6-Port  ) 
!S55(C  6-Port  ) 
!S56(C  6-Port  ) 
!S61(C  6-Port  ) 
!S62(C  6-Port  ) 
!S63(C  6-Port  ) 
!S64(C  6-Port  ) 
!S65(C  6-Port  ) 
!S66(C  6-Port  ) 
!S6P File: Measurement: :
# Hz S  RI   R 50
500000000 -0.3284 -0.058142 -0.011354 -0.0018406 -0.0081458 0.012305 -0.0044928 0.012723
0.01196 0.0050113 -0.0057807 0.0097233
-0.011388 -0.0018681 -0.41021 -0.070883 0.00731 -0.010115 0.00098153 0.011846
0.0076378 0.002633 0.00070496 0.013085
-0.0082077 0.012314 0.0073581 -0.010183 -0.25591 0.19499 0.0060416 0.0032345
-0.0010171 0.0078912 -0.00018465 0.011376
-0.0041814 0.012611 0.00081402 0.011788 0.0059405 0.003205 -0.3303 0.043245
-0.019757 -0.0055091 0.015066 0.028063
0.011934 0.0052553 0.0074009 0.0026808 -0.0013596 0.0079373 -0.019923 -0.0055998
-0.25604 -0.16221 -0.027006 0.005108
-0.0054151 0.0099309 0.0011606 0.01305 -2.5687e-05 0.011148 0.015362 0.027808
-0.02707 0.0052233 -0.25476 -0.15333
560000000 -0.31375 0.10723 -0.023962 -0.06508 8.2952e-05 0.012343 0.0044451 0.010646
0.0089303 0.0030925 0.010834 0.0088148
-0.023771 -0.06518 -0.37053 0.091706 -0.0415 -0.037935 0.013314 0.0032914
-0.013613 -0.0032504 0.0032833 -0.00083157
0.00025602 0.012546 -0.041742 -0.038118 -0.17916 0.24365 0.0004967 -0.0039776
0.017607 0.0046559 0.0080265 -0.0066384
0.0042984 0.011677 0.013998 0.0026783 0.00021435 -0.0040909 -0.30612 0.13515
0.0028776 -0.022484 0.0061074 -0.021324
0.0093732 0.0035043 -0.013025 -0.0035953 0.017656 0.0049621 0.0031236 -0.022424
-0.3057 0.013921 0.0055879 -0.049697
0.0097654 0.0087015 0.0042118 -0.00067544 0.0078421 -0.0067483 0.0056405 -0.021407
0.0055723 -0.049491 -0.32662 -0.0038968
620000000 -0.27367 0.085332 -0.024498 0.0096406 0.0030868 0.0085954 0.0083596 -0.0041119
0.01199 -0.001029 3.7773e-05 -0.0014878
-0.024417 0.0096349 -0.40061 0.038644 -0.019855 0.0014108 -0.0015161 -0.0014091
0.011558 -0.0062301 0.00020504 -0.0027213
0.0030785 0.0086406 -0.019851 0.0015051 -0.15311 0.25198 -0.00018612 -0.0051803
-0.0035731 -0.0023449 0.0091044 -0.0023989
0.0079374 -0.0044762 -0.001736 -0.0015179 -0.00060272 -0.0050144 -0.26445 0.1448
-0.041133 -0.017996 0.013089 0.03037
0.012616 -0.00051233 0.011737 -0.0063199 -0.0035425 -0.0023497 -0.040659 -0.017606
-0.22976 -0.022136 -0.04381 0.013946
0.00099985 -0.0015263 0.00038434 -0.002561 0.0093859 -0.0021061 0.013027 0.029685
-0.04371 0.014017 -0.24308 -0.039665
680000000 -0.23841 0.17793 -0.025997 -0.013679 0.0050246 0.0051369 0.0012504 -0.0070448
-0.0021546 -0.011085 0.0057244 -0.0067562
-0.025955 -0.013699 -0.38975 0.14236 -0.031917 -0.0011336 -0.001275 -0.00061121
-0.0018862 -0.0092639 -0.00047355 -0.0018614
0.005111 0.0051173 -0.031951 -0.0010554 -0.10536 0.27463 -0.00078139 -0.00046909
-0.0017178 0.00040152 -0.0028894 -0.0090275
0.0013596 -0.0069605 -0.0012273 -0.00055543 -0.00076968 -0.00051942 -0.21991 0.19999
-0.025549 -0.0059068 -0.0084678 -0.012294
-0.0017854 -0.011208 -0.0017129 -0.0094135 -0.0016358 0.00019527 -0.025233 -0.0057884
-0.27115 0.079993 -0.0070012 -0.0053239
0.0054166 -0.0068314 -0.00044801 -0.0017087 -0.0029632 -0.0090805 -0.008627 -0.012569
-0.0068675 -0.0054017 -0.26187 0.066833
740000000 -0.1914 0.17248 -0.039947 0.027452 0.01335 -0.0039144 0.00020768 -0.0043308
-0.0035489 -0.002023 -0.0066485 0.001916
-0.039975 0.027438 -0.33472 0.16188 -0.036393 0.034241 -0.00018643 -0.0064903
-0.010628 0.0066145 -0.0013781 -0.0065485
0.013312 -0.0038592 -0.036435 0.034316 -0.071476 0.27379 -0.0018782 0.0028892
-0.0026456 -0.00497 -0.0010993 0.00067056
6.9302e-05 -0.0044262 6.1214e-05 -0.0064599 -0.0020011 0.0030576 -0.20163 0.2052
-0.041106 -0.0051328 0.023435 0.017334
-0.003929 -0.0019292 -0.010705 0.0065331 -0.0022837 -0.0048916 -0.041353 -0.0048223
-0.17629 0.10244 -0.040708 0.0017188
-0.0064907 0.0020455 -0.0015149 -0.0062056 -0.0012365 0.0006741 0.023456 0.017216
-0.041179 0.0013803 -0.25224 0.072701
800000000 -0.16307 0.21659 -0.021554 0.016724 0.0054228 -0.010167 -0.0038071 -0.0025413
-0.0044773 0.0016363 0.0047196 0.00035653
-0.021586 0.016703 -0.34252 0.23234 -0.0079158 0.034039 -0.0023965 0.0020653
-0.00070235 0.0019908 0.00049891 0.0053151
0.0054228 -0.010194 -0.0078129 0.034118 -0.034138 0.29962 0.00073434 0.0015923
-1.27e-05 0.0034456 -0.0013434 0.00069491
-0.0038424 -0.0025663 -0.0023307 0.0020518 0.00070979 0.0015649 -0.17244 0.23441
-0.026928 0.015425 0.015411 -0.010511
-0.0043053 0.0015759 -0.00067234 0.0020469 -2.3807e-05 0.0033603 -0.02721 0.01557
-0.21241 0.1303 -0.016852 0.020758
0.0045568 0.00019574 0.00064497 0.0054232 -0.0013291 0.0007665 0.01577 -0.010342
-0.016896 0.020853 -0.251 0.12507
860000000 -0.12738 0.23703 -0.017039 0.030261 -0.0031195 -0.0098407 -0.0018125 0.00044641
0.0035133 0.0043483 -0.0035886 -0.0033861
-0.017043 0.030279 -0.29376 0.27617 0.0080152 0.03372 -7.7268e-05 0.0021261
0.0038394 0.00054666 0.0034755 -0.00022079
-0.0031368 -0.00982 0.0081113 0.033725 0.01442 0.30958 -0.00039797 -0.00013704
0.0024651 -0.0012948 0.0012908 0.0038581
-0.0017114 0.00048154 -2.3239e-05 0.0023116 -0.00048549 -5.5814e-05 -0.13349 0.24511
-0.0159 0.019637 -0.0065277 -0.0099611
0.0035789 0.0046937 0.0035299 0.0008411 0.0023319 -0.0013074 -0.015878 0.020042
-0.15577 0.17583 -0.022192 0.017125
-0.0035807 -0.0033142 0.0034273 -8.0784e-05 0.001415 0.0039022 -0.0068028 -0.0098918
-0.022385 0.017274 -0.19837 0.17377
920000000 -0.105 0.25957 0.0054819 0.03872 -0.0089048 -0.0044607 -0.001908 0.0014466
0.00080556 0.0015438 0.0029783 -0.00091878
0.0054241 0.038656 -0.26709 0.29687 0.028297 0.022374 0.001446 0.0012371
0.0073752 -0.00050191 0.0041947 -0.0023818
-0.0089171 -0.0044355 0.02841 0.022318 0.060021 0.31128 0.0020261 9.9048e-05
0.0008272 -0.00021575 0.00086887 -0.0013276
-0.0019022 0.0015029 0.0015276 0.0012131 0.0020747 0.00011452 -0.10961 0.26103
-0.0083137 0.030586 0.0043548 -0.0060685
0.00068088 0.0014814 0.0072479 -0.000595 0.0007859 -0.00027644 -0.0082738 0.030659
-0.14195 0.18225 -0.00099375 0.027266
0.0029648 -0.0011417 0.0041518 -0.002508 0.00080888 -0.0013705 0.0043775 -0.005993
-0.00099579 0.027372 -0.21239 0.18553
980000000 -0.058599 0.28183 0.017189 0.029561 -0.009075 0.0043801 0.0014029 0.0035376
0.0036234 -0.0014507 -0.0034065 -0.0025083
0.017121 0.029496 -0.21563 0.33439 0.032925 0.0047284 0.0019455 5.0766e-05
0.0017267 -0.005731 -0.00029913 -0.0022996
-0.0090475 0.0043894 0.032964 0.0046391 0.1065 0.30716 0.00069165 -0.0011766
0.00043522 -0.0017781 0.0013396 -0.00021975
0.0014486 0.0035974 0.0019542 0.00011073 0.00067163 -0.0011118 -0.070464 0.27197
0.010277 0.028009 -0.0093093 -0.0079545
0.0036719 -0.0015223 0.001716 -0.0059148 0.00048674 -0.0017917 0.010278 0.028003
-0.10824 0.20826 0.0072783 0.018965
-0.0034645 -0.0026761 -0.00042274 -0.0023381 0.001235 -0.00026264 -0.0094934 -0.0080675
0.0072944 0.019137 -0.17089 0.23561
1040000000 -0.016978 0.2894 0.033028 0.018679 -0.0012271 0.0071829 0.0021373 0.00080799
0.00037288 -0.0035232 -0.00043982 -0.0013046
0.032936 0.018655 -0.18 0.34719 0.029422 -0.014689 0.0016672 -0.001726
-0.0021656 -0.0027415 -0.0012058 -0.002945
-0.0011859 0.0071881 0.029416 -0.014817 0.1537 0.29348 -0.00043286 -0.0015833
-0.0014556 -0.001043 -0.00062721 -0.0011368
0.0021181 0.00081112 0.0016145 -0.0017436 -0.00043705 -0.0015938 -0.042449 0.28041
0.020735 0.016523 -0.0013883 0.00096181
0.0003421 -0.0035071 -0.0022351 -0.0027187 -0.0014423 -0.0010871 0.020795 0.016452
-0.075431 0.21364 0.014425 0.017559
-0.00039436 -0.0013363 -0.0012704 -0.0029099 -0.00065616 -0.0011063 -0.0013163 0.00097574
0.014455 0.017467 -0.14942 0.25682
1100000000 0.026467 0.29985 0.036063 -0.0038641 0.0031985 0.0039539 0.0022474 -0.00073008
-0.0022243 -0.0028323 -0.0040713 0.00010555
0.036013 -0.003839 -0.1381 0.36723 0.015156 -0.027736 -3.3771e-05 -0.0017782
-0.0036011 -0.00086604 -0.0037457 -0.00063923
0.0031911 0.0039542 0.015076 -0.027829 0.19939 0.27453 -0.0018416 0.00010279
-0.0016989 0.00054699 -0.0011029 -0.00044078
0.0022704 -0.00070143 -1.4442e-05 -0.0017892 -0.0018427 0.00015705 -0.0025757 0.28514
0.025086 0.0028274 -0.0023185 -0.0010004
-0.0022046 -0.0028072 -0.0036224 -0.00088369 -0.0017446 0.00059551 0.025094 0.0028128
-0.055202 0.22571 0.019786 0.0072537
-0.0040276 3.5339e-05 -0.0037874 -0.00062462 -0.001108 -0.00045312 -0.002325 -0.00095391
0.019805 0.0072747 -0.10534 0.2906
1160000000 0.078617 0.29674 0.024056 -0.020568 0.0030386 -0.00059386 6.2875e-06 -0.0021467
-0.0038812 -0.00083149 -0.0011891 0.0043147
0.024004 -0.020558 -0.09312 0.37189 -0.0037558 -0.028748 -0.0014524 -0.0016812
-0.0027865 0.0024928 -0.001629 0.001998
0.0030545 -0.00061798 -0.0038548 -0.028748 0.24406 0.24443 -0.00083517 0.0016749
-0.00054589 0.0016641 -0.00092602 0.00035651
-1.5665e-07 -0.0021644 -0.0014608 -0.0016867 -0.00083152 0.001668 0.038017 0.28146
0.020662 -0.012262 -0.00401 0.0044636
-0.0039005 -0.00081916 -0.0028332 0.0024756 -0.00061113 0.0016763 0.020696 -0.012262
-0.01992 0.23305 0.018121 -0.0016494
-0.0012068 0.0043326 -0.001634 0.0020255 -0.00088738 0.00043428 -0.0038867 0.0045858
0.018103 -0.0017157 -0.056099 0.29437
1220000000 0.1217 0.28641 0.010927 -0.029986 -0.0014324 -0.0011701 0.00029674 -0.0008376
-0.0025539 0.0021715 0.0010771 0.0021759
0.010927 -0.029955 -0.050225 0.38555 -0.016858 -0.021057 -0.0025725 0.00042081
-0.00010851 0.0031251 -0.00095783 0.0020003
-0.0014388 -0.0011687 -0.016958 -0.021005 0.28323 0.20537 0.00077876 0.001741
0.00062584 0.0011523 0.00026908 0.0005013
0.00029636 -0.00082362 -0.0025669 0.00043086 0.00074102 0.001745 0.077142 0.27169
0.0098302 -0.018665 0.0014246 0.001057
-0.0025919 0.0021832 -7.9213e-05 0.0031434 0.00059384 0.0011516 0.0098058 -0.018653
0.0045199 0.23875 0.012927 -0.013616
0.0010591 0.0021672 -0.00094345 0.0019895 0.00019077 0.00049913 0.001429 0.0010967
0.012921 -0.013627 -0.0275 0.31336
1280000000 0.17225 0.26787 -0.0078116 -0.028662 -0.001885 0.0021074 -0.00070899 -0.0022004
-0.00080266 0.00306 0.0025051 0.0015014
-0.0077853 -0.028636 -0.003802 0.3786 -0.023903 -0.0081386 -0.0011893 0.0013892
0.0017452 0.0019146 0.00063025 0.0021228
-0.0018792 0.0021196 -0.023969 -0.0080476 0.31466 0.16285 0.0015745 0.00011966
0.0011624 0.00028064 0.00027523 0.00021348
-0.00072316 -0.0021821 -0.0012044 0.0014295 0.0016053 0.00011724 0.11385 0.25493
-0.00030843 -0.020519 -0.0011869 0.00031293
-0.00079434 0.0030356 0.0017453 0.0018659 0.0011618 0.00026618 -0.00030721 -0.020504
0.040923 0.24149 0.0022003 -0.015497
0.0024969 0.0014729 0.00064029 0.0021672 0.00027008 0.00034165 -0.0012528 0.0003548
0.0022056 -0.015522 0.0206 0.31837
1340000000 0.21021 0.2342 -0.017316 -0.019025 0.00049277 0.0043184 -0.0018106 -0.00094401
0.0013344 0.0026207 0.0019688 -0.0013633
-0.017275 -0.019019 0.036012 0.37111 -0.021133 0.0045546 -0.00035062 0.0021662
0.0019774 0.00087438 0.0012521 0.00084846
0.00051225 0.0043036 -0.021119 0.0046536 0.33821 0.11398 0.0011389 -0.00092904
0.00059405 -0.00052566 0.00024101 0.00026741
-0.0017952 -0.00092872 -0.00034646 0.0021569 0.0011658 -0.00087558 0.14631 0.23258
-0.0099236 -0.017157 0.00048035 0.0012386
0.0013381 0.002604 0.0019934 0.00084951 0.00059148 -0.00054408 -0.0099753 -0.017116
0.071115 0.23419 -0.0045784 -0.013762
0.0019362 -0.0014163 0.0013213 0.00082562 0.00019847 0.00024598 0.00050683 0.0012823
-0.0045713 -0.013776 0.059522 0.31516
1400000000 0.24367 0.19771 -0.02345 -0.0077092 0.0049004 0.0031919 -0.002319 0.00051587
0.0023749 0.0010846 0.00057315 -0.0014421
-0.023404 -0.0077233 0.073202 0.3597 -0.014441 0.012516 0.001384 0.0016399
0.0014372 -0.00071452 0.001131 0.00023774
0.0049049 0.0031678 -0.0144 0.012602 0.35144 0.060184 0.00012207 -0.0016409
0.00011472 -0.00033061 0.00028497 0.00031479
-0.0023415 0.00052403 0.0014018 0.001643 0.00013859 -0.0016255 0.17391 0.20321
-0.016046 -0.010051 -0.001025 0.00049534
0.0023603 0.0010262 0.0014432 -0.00074241 0.00012873 -0.00034295 -0.016036 -0.010011
0.10307 0.22839 -0.010563 -0.0085527
0.00056948 -0.0014538 0.0011601 0.00022747 0.00030151 0.00027806 -0.0010264 0.00045846
-0.010539 -0.0085621 0.10407 0.30671
1460000000 0.26843 0.15455 -0.020362 0.0047757 0.0053248 -0.0016729 -0.0017181 0.0018817
0.0021751 -0.00028372 -0.00021398 -0.0011193
-0.02035 0.0047573 0.10899 0.33864 -0.0054199 0.015298 0.0020029 0.00026401
0.0010084 -0.0015389 0.0013343 -0.00056679
0.0053179 -0.0017008 -0.0053594 0.015351 0.35867 0.0048197 -0.0011219 -0.0014686
0.00021018 -0.00029065 0.00062204 -0.00028382
-0.0016969 0.001869 0.0019929 0.00025217 -0.001177 -0.0014565 0.1997 0.1742
-0.017323 -0.0027487 -0.00036928 0.0028038
0.0021883 -0.00031219 0.0010095 -0.0015294 0.00021106 -0.0002897 -0.017324 -0.0026893
0.1332 0.21341 -0.012266 -0.0023951
-0.00022266 -0.0010895 0.0013296 -0.00055818 0.00058678 -0.00029803 -0.0003768 0.002779
-0.012278 -0.0024161 0.13921 0.2877
1520000000 0.28092 0.11231 -0.014791 0.010138 0.0033098 -0.003918 0.00012613 0.0027754
0.0022098 -0.0017367 -0.001158 -0.0003679
-0.014789 0.010112 0.14289 0.32421 0.0021038 0.012613 0.0019282 -0.00081778
3.3904e-05 -0.0011838 0.00041853 -0.0009615
0.0033107 -0.0039407 0.0021725 0.012622 0.35078 -0.053916 -0.001153 -0.00045596
0.00058384 -0.00080862 0.00019439 -0.00010207
0.0001371 0.0027771 0.0019285 -0.00082599 -0.0011763 -0.00047238 0.2209 0.13561
-0.016293 0.003529 0.0020345 0.002202
0.002217 -0.001754 2.2806e-05 -0.0012096 0.00054913 -0.000833 -0.016288 0.0035816
0.16063 0.19837 -0.011813 0.002026
-0.0011326 -0.00029041 0.00043182 -0.00094987 0.00017925 -0.00012057 0.0020189 0.0022021
-0.011806 0.0020109 0.17248 0.26886
1580000000 0.29118 0.067322 -0.008182 0.01352 -0.00098173 -0.0046858 0.0016335 0.002093
-9.5769e-05 -0.0021917 -0.00033998 0.00051271
-0.0081971 0.013519 0.17076 0.30072 0.005451 0.0075353 0.00061699 -0.0018039
-0.00070274 -0.0010889 -0.00012341 -0.00079716
-0.0010024 -0.0046573 0.005497 0.007519 0.32912 -0.11064 -0.0018346 0.00058924
-0.00030375 -0.0011864 0.00033959 -0.00054382
0.0016378 0.0020985 0.00058665 -0.0018026 -0.0018193 0.00057139 0.2334 0.098213
-0.012525 0.0088326 0.0027955 0.00071526
-9.452e-05 -0.0021896 -0.00072046 -0.0010866 -0.00030122 -0.0012104 -0.012514 0.008857
0.18452 0.18081 -0.009146 0.0076838
-0.00036937 0.00048425 -0.00017317 -0.00079102 0.00033041 -0.00052414 0.0028016 0.00073554
-0.0091632 0.0076794 0.20634 0.24507
1640000000 0.2945 0.025132 -0.0013538 0.012348 -0.0026605 -0.0024357 0.0029724 0.0010049
-0.00055233 -0.0018014 -0.00024907 0.00049313
-0.0013764 0.012334 0.20195 0.27553 0.0057783 0.0026704 -0.00074676 -0.0020092
-0.001085 -0.00033797 -0.00037971 -0.00078395
-0.0026744 -0.0024217 0.0057838 0.0026399 0.29958 -0.16103 -0.00073391 0.0016558
-0.00096854 -0.00099487 -0.00010126 -0.00040627
0.002978 0.00099091 -0.00074726 -0.0020108 -0.00069713 0.0016512 0.24554 0.050356
-0.0078666 0.010623 0.0027306 -0.001199
-0.00055701 -0.0017902 -0.0010695 -0.00031352 -0.00095022 -0.00095614 -0.0078386 0.010657
0.20769 0.15458 -0.0042946 0.0096034
-0.00021003 0.00052652 -0.00039222 -0.00076329 -0.00011265 -0.00044281 0.0027265 -0.0012119
-0.0043078 0.0095791 0.2339 0.21405
1700000000 0.28649 -0.019909 0.0021482 0.0095853 -0.0033992 0.00024418 0.0033199 -0.0015272
-0.0021227 -0.000948 0.00061402 0.00044959
0.0021384 0.009586 0.21962 0.24459 0.0033557 -0.00012345 -0.0016885 -0.00065179
-0.00085552 0.00014104 -0.00089825 -0.00053837
-0.0033715 0.00026699 0.0033725 -0.00014229 0.25401 -0.19936 0.00057406 0.0017551
-0.0021743 -9.895e-05 -0.00038976 -0.00090389
0.0033396 -0.0015499 -0.0016843 -0.00065192 0.00056336 0.0017745 0.24174 0.0029
-0.0043071 0.01139 0.0016616 -0.002364
-0.0021435 -0.00091172 -0.00085456 0.0001514 -0.0021811 -0.00012051 -0.0042996 0.011379
0.22461 0.13357 0.00047922 0.0096299
0.00061725 0.00042863 -0.00091103 -0.00053388 -0.00038927 -0.00090227 0.0016837 -0.0023641
0.00047229 0.0096303 0.25129 0.18133
1760000000 0.27577 -0.068279 0.0045537 0.0061375 -0.0020167 0.00079206 0.0010979 -0.0037705
-0.0016468 0.00052518 0.00033233 -0.00059025
0.0045549 0.0061456 0.24753 0.20531 0.00080629 -0.001717 -0.0013785 0.00026074
-0.00091473 0.00099625 -0.00059865 0.00029595
-0.0020355 0.00083221 0.00080272 -0.0017341 0.20489 -0.23079 0.0013721 0.0011326
-0.0012211 0.001578 -0.0013049 -0.00061768
0.0011137 -0.0037541 -0.0013689 0.00026775 0.0013538 0.0010883 0.23554 -0.046202
-0.00021168 0.010457 -0.00013109 -0.0027913
-0.0016608 0.00052151 -0.00091297 0.0010257 -0.0012074 0.0015688 -0.00021162 0.010432
0.23991 0.099571 0.0042911 0.0068376
0.00036497 -0.0005718 -0.00057392 0.00029206 -0.0014139 -0.00065077 -0.00012098 -0.0028269
0.0042959 0.0068238 0.26607 0.14436
1820000000 0.25084 -0.10644 0.0047723 0.0024691 0.00013965 0.0021128 -0.0012279 -0.0031503
-0.0014051 0.001216 -0.00022835 -0.0002295
0.0047664 0.0024734 0.25779 0.17445 -0.001359 -7.6984e-05 -0.0013092 0.0011423
4.2288e-05 0.0011831 -0.00073905 0.00044078
0.0001514 0.0021233 -0.0013647 -7.1756e-05 0.15323 -0.24478 0.0017526 0.00024273
-1.0569e-05 0.0025017 -0.0017229 0.00029858
-0.0012164 -0.0031244 -0.0013318 0.0011336 0.0017204 0.00025107 0.20699 -0.09376
0.00188 0.008423 -0.0017386 -0.001741
-0.0013953 0.0012217 6.3925e-05 0.0011831 8.7359e-07 0.0025279 0.0019397 0.0084466
0.25578 0.069032 0.0049914 0.0033562
-0.0002386 -0.00023271 -0.00073296 0.00042965 -0.0017096 0.00029283 -0.0017396 -0.0016663
0.0049946 0.0033556 0.26977 0.10834
1880000000 0.21528 -0.14564 0.0022077 4.2235e-05 -0.00083442 0.00218 -0.0032503 -0.0020418
-0.00019452 0.0020524 0.00012355 -0.00056278
0.002206 5.4616e-05 0.2626 0.12885 -0.0034693 0.0023588 -0.00021721 0.0017442
0.00059445 0.0011445 -3.1018e-05 0.0010569
-0.00079912 0.0021938 -0.0034701 0.0023861 0.10107 -0.25093 0.0015224 -0.0011507
0.001698 0.0018877 -0.0011091 0.0016709
-0.0032396 -0.0020093 -0.00018078 0.0017553 0.0014738 -0.001148 0.16919 -0.13373
0.003202 0.0057578 -0.0024366 0.00016061
-0.00020445 0.0020271 0.00062801 0.0011067 0.0016767 0.001891 0.003242 0.0057401
0.25942 0.038307 0.0050456 0.0010911
0.00013324 -0.00057716 -4.8993e-06 0.0010929 -0.0010937 0.0016609 -0.0024677 0.00017369
0.0050456 0.0011004 0.27118 0.075446
1940000000 0.17706 -0.17233 -0.00011377 -0.0016186 0.0013866 0.0020693 -0.0036972 0.00075877
0.001593 0.0013431 -0.00052865 -0.00043739
-0.00010255 -0.0016275 0.26489 0.09614 -0.001609 0.0051612 0.0010621 0.0012447
0.0017446 0.00033901 0.0009577 0.00044405
0.0013888 0.0020616 -0.0015739 0.0051664 0.059095 -0.24204 0.00029524 -0.0021134
0.002459 0.00013018 0.00046401 0.0018543
-0.003637 0.00075764 0.0010883 0.0012556 0.00024423 -0.002088 0.11901 -0.16778
0.0025415 0.0037164 -0.0016494 0.0012783
0.0016099 0.0013539 0.0017477 0.00032701 0.0024297 0.00015675 0.0025299 0.0037268
0.26281 -0.0012101 0.0036797 -0.0024062
-0.00057586 -0.00044849 0.00096714 0.00041184 0.00046273 0.0018599 -0.0017033 0.0012862
0.0036556 -0.0023686 0.26287 0.039162
2000000000 0.12965 -0.18618 -0.0040717 0.00058049 0.0029414 0.0015703 -0.0021734 0.0037934
0.0014284 0.00023022 -0.00062207 0.00067848
-0.0040755 0.00055099 0.25028 0.06036 -0.00060968 0.0071199 0.0014885 0.00051762
0.0011412 -0.0011355 0.00046058 0.00025573
0.0029265 0.0016103 -0.00054644 0.0071145 0.017267 -0.22717 -0.0012455 -0.00098202
0.0019282 -0.0013443 0.0017835 0.0015219
-0.0021247 0.0038209 0.0015183 0.00047437 -0.0011642 -0.0010933 0.06452 -0.17976
0.00095499 0.0027211 -0.00010476 0.0022416
0.0014159 0.00019395 0.0011654 -0.0011275 0.001927 -0.0013256 0.00094712 0.0026688
0.25718 -0.034643 0.000378 -0.0029597
