!Keysight Technologies,M9804A,MY58100912,A.14.10.03
!Date: Thursday, April 27, 2023 10:28:33
!Correction: S11(C  6-Port  ) 
!S12(C  6-Port  ) 
!S13(C  6-Port  ) 
!S14(C  6-Port  ) 
!S15(C  6-Port  ) 
!S16(C  6-Port  ) 
!S21(C  6-Port  ) 
!S22(C  6-Port  ) 
!S23(C  6-Port  ) 
!S24(C  6-Port  ) 
!S25(C  6-Port  ) 
!S26(C  6-Port  ) 
!S31(C  6-Port  ) 
!S32(C  6-Port  ) 
!S33(C  6-Port  ) 
!S34(C  6-Port  ) 
!S35(C  6-Port  ) 
!S36(C  6-Port  ) 
!S41(C  6-Port  ) 
!S42(C  6-Port  ) 
!S43(C  6-Port  ) 
!S44(C  6-Port  ) 
!S45(C  6-Port  ) 
!S46(C  6-Port  ) 
!S51(C  6-Port  ) 
!S52(C  6-Port  ) 
!S53(C  6-Port  ) 
!S54(C  6-Port  ) 
!S55(C  6-Port  ) 
!S56(C  6-Port  ) 
!S61(C  6-Port  ) 
!S62(C  6-Port  ) 
!S63(C  6-Port  ) 
!S64(C  6-Port  ) 
!S65(C  6-Port  ) 
!S66(C  6-Port  ) 
!S6P File: Measurement: :
# Hz S  RI   R 50
500000000 -0.3286 -0.057995 -0.011169 -0.0011715 -0.0081034 0.012371 -0.0038054 0.012509
0.012131 0.0043762 -0.005547 0.009655
-0.011014 -0.0011292 -0.41039 -0.071643 0.0070045 -0.010238 0.0012761 0.012368
0.0071223 0.0024443 0.0013329 0.014078
-0.0079908 0.012456 0.0070787 -0.010346 -0.2559 0.1951 0.0064037 0.0035387
-0.0014778 0.0080689 0.00035022 0.011472
-0.0038451 0.012702 0.0010737 0.012159 0.0062677 0.0035268 -0.33004 0.043386
-0.020384 -0.0059722 0.015445 0.028684
0.011924 0.0047099 0.0072981 0.0023129 -0.0015415 0.0078918 -0.020152 -0.0059882
-0.25474 -0.16165 -0.027436 0.0051791
-0.0051361 0.0098097 0.0010323 0.01384 0.00027807 0.011753 0.015339 0.028403
-0.027638 0.0047547 -0.25473 -0.15211
560000000 -0.31345 0.10716 -0.023373 -0.06455 0.00014081 0.012476 0.0046062 0.011447
0.0086559 0.0034589 0.011128 0.0091253
-0.023353 -0.064505 -0.37022 0.091789 -0.042186 -0.037932 0.014024 0.0032486
-0.012511 -0.0031813 0.0040288 -0.0005915
0.00011873 0.01236 -0.042411 -0.037988 -0.17877 0.24296 2.0646e-05 -0.004037
0.017464 0.0044422 0.0078796 -0.0063219
0.0044881 0.011506 0.013809 0.0031849 0.0003672 -0.0039632 -0.30582 0.1349
0.0029641 -0.022983 0.0059366 -0.021198
0.0088908 0.003764 -0.012667 -0.0030227 0.017511 0.0047073 0.0027969 -0.023011
-0.308 0.01428 0.0054426 -0.049369
0.010953 0.0091078 0.0036689 -0.00073582 0.0080428 -0.0064796 0.0060037 -0.021034
0.0058956 -0.049083 -0.3268 -0.0031174
620000000 -0.27344 0.085615 -0.024266 0.0098048 0.0034929 0.0091019 0.0082639 -0.0040766
0.012129 -0.00050946 0.00082816 -0.0013732
-0.024282 0.0097214 -0.40032 0.038624 -0.019696 0.0015001 -0.0020253 -0.001464
0.011753 -0.0063123 0.00029787 -0.0027655
0.0034167 0.0090186 -0.019795 0.0015387 -0.15315 0.25174 -0.00042024 -0.0050462
-0.003747 -0.0027522 0.009178 -0.0026288
0.0082294 -0.0041484 -0.0019377 -0.0013897 -0.00038334 -0.0054009 -0.26395 0.1451
-0.04013 -0.018545 0.013421 0.030586
0.011408 -0.001108 0.011883 -0.006321 -0.0035556 -0.002375 -0.040873 -0.017993
-0.23093 -0.020751 -0.044405 0.013816
0.00025278 -0.0016226 -8.5306e-05 -0.0029572 0.0089943 -0.0029765 0.013206 0.03121
-0.043933 0.013635 -0.24225 -0.038695
680000000 -0.23832 0.17809 -0.025801 -0.013781 0.0050305 0.0050962 0.0015059 -0.0068139
-0.0023567 -0.011147 0.0062178 -0.0066857
-0.02578 -0.013744 -0.38987 0.14236 -0.031944 -0.0010962 -0.0012896 -0.00057477
-0.0016635 -0.0093408 -0.0006205 -0.0017405
0.0050473 0.0051404 -0.032006 -0.0010667 -0.1055 0.27479 -0.00073077 -0.00059134
-0.001612 0.00029646 -0.0030335 -0.0091388
0.001556 -0.006884 -0.0013299 -0.00054564 -0.0008006 -0.00058688 -0.21973 0.19983
-0.025515 -0.005849 -0.008297 -0.012325
-0.0024247 -0.011189 -0.001692 -0.0093095 -0.0016084 0.00037936 -0.025383 -0.0057926
-0.2716 0.080206 -0.0069276 -0.0053002
0.0063284 -0.0067093 -0.00051442 -0.0017507 -0.0029564 -0.009016 -0.0079712 -0.012231
-0.0069718 -0.0051735 -0.2604 0.066484
740000000 -0.19126 0.17228 -0.039979 0.027273 0.013425 -0.0038854 -0.00014292 -0.0043932
-0.0032976 -0.0016462 -0.0068801 0.0014248
-0.040112 0.027293 -0.33457 0.16228 -0.036493 0.034205 5.2207e-05 -0.0065112
-0.01065 0.0069222 -0.0016484 -0.0063993
0.013445 -0.0039906 -0.0364 0.034276 -0.071619 0.27384 -0.0020019 0.0028391
-0.0027409 -0.0046013 -0.0011295 0.00044975
-5.3809e-05 -0.0044258 6.8225e-05 -0.006658 -0.0020154 0.002859 -0.20206 0.20548
-0.041108 -0.0049513 0.023462 0.017617
-0.0035777 -0.0015608 -0.010682 0.0071112 -0.0028145 -0.0046169 -0.041091 -0.0049837
-0.17655 0.10307 -0.040891 0.0010643
-0.0070161 0.0015533 -0.0019624 -0.0064051 -0.0010027 0.00034284 0.023209 0.01718
-0.040622 0.0020613 -0.2532 0.072979
800000000 -0.16328 0.21656 -0.021644 0.016468 0.0054609 -0.010264 -0.0037014 -0.0026637
-0.0043707 0.0015604 0.0048669 4.1451e-05
-0.021583 0.016449 -0.34244 0.23207 -0.0078542 0.034009 -0.0023294 0.0019412
-0.00058277 0.0020401 0.00058252 0.0051759
0.0054314 -0.010247 -0.0077485 0.034055 -0.034128 0.29961 0.00072928 0.0015071
3.1193e-06 0.0032999 -0.0014704 0.00071352
-0.0037383 -0.0026096 -0.0023172 0.0019144 0.00069757 0.0015248 -0.1722 0.23463
-0.027344 0.015264 0.015892 -0.010229
-0.0044911 0.0014713 -0.00062334 0.0019239 -5.6507e-05 0.0032771 -0.027315 0.015337
-0.21182 0.13023 -0.017333 0.020464
0.0049935 0.00016095 0.00055588 0.0051154 -0.0014231 0.00065862 0.015906 -0.010406
-0.017331 0.020544 -0.25041 0.12506
860000000 -0.12739 0.23703 -0.017067 0.030314 -0.0031124 -0.0098044 -0.0017467 0.000457
0.0036498 0.0046306 -0.0037988 -0.0032503
-0.017066 0.030309 -0.29392 0.27649 0.008018 0.033927 8.9198e-05 0.0021358
0.0037246 0.00075175 0.0031045 9.854e-05
-0.0031184 -0.0097929 0.0081265 0.033922 0.0145 0.30962 -0.00044595 -6.6368e-05
0.0025503 -0.0011528 0.0013048 0.0040714
-0.0017165 0.00050026 1.7417e-05 0.0020903 -0.00046412 -5.7184e-05 -0.13382 0.24523
-0.016029 0.019801 -0.0068153 -0.009833
0.0037895 0.0045075 0.0037243 0.00067369 0.0025295 -0.001154 -0.015701 0.019859
-0.15544 0.17659 -0.022699 0.016363
-0.0038076 -0.0033199 0.0032275 -7.4746e-05 0.0012608 0.0039197 -0.006808 -0.0097023
-0.022195 0.016489 -0.19855 0.17459
920000000 -0.10512 0.25926 0.0053112 0.038642 -0.0089931 -0.0044884 -0.0019807 0.0013733
0.00087066 0.0015003 0.0029958 -0.0012593
0.0053198 0.038596 -0.26732 0.2968 0.028238 0.022342 0.0015774 0.0012204
0.0072133 -0.00062937 0.0041301 -0.0023901
-0.0089742 -0.0044875 0.02831 0.022291 0.059993 0.31125 0.0020773 0.00016002
0.00080989 -0.00030247 0.00079819 -0.0013382
-0.0019508 0.0013692 0.0015703 0.0011879 0.0020506 0.00011128 -0.10948 0.26096
-0.0082213 0.030623 0.0046931 -0.0061796
0.00087492 0.001437 0.0071464 -0.0006904 0.00081566 -0.00031251 -0.0081516 0.030593
-0.14257 0.18232 -0.0010327 0.027445
0.0029338 -0.0010412 0.0042617 -0.0022018 0.00087356 -0.0012448 0.0046223 -0.006169
-0.00066706 0.027332 -0.21166 0.18577
980000000 -0.058706 0.28175 0.017209 0.029472 -0.0090991 0.0043556 0.0014545 0.0035235
0.0035835 -0.0015603 -0.0034254 -0.0027463
0.017167 0.029405 -0.21552 0.33443 0.032951 0.0047494 0.0019399 9.2361e-05
0.0017306 -0.0058444 -0.00035852 -0.0024049
-0.0090707 0.0043608 0.033001 0.0046642 0.10651 0.30719 0.0006372 -0.0011054
0.00048775 -0.0018301 0.0012034 -0.00028012
0.0014957 0.0035284 0.0019532 5.0624e-05 0.00064658 -0.0010928 -0.070546 0.2719
0.010284 0.028018 -0.0093082 -0.0080513
0.0035606 -0.0016042 0.0016961 -0.0059588 0.00046135 -0.0018521 0.010313 0.02797
-0.10809 0.20813 0.0070962 0.019124
-0.0033866 -0.0025909 -0.00040534 -0.0024709 0.0012913 -0.00025833 -0.0092371 -0.007926
0.0073318 0.019115 -0.17028 0.23623
1040000000 -0.017034 0.2894 0.032938 0.018683 -0.0012809 0.00717 0.0020665 0.00080513
0.00053197 -0.0033543 -0.00036972 -0.0014131
0.032845 0.018652 -0.18009 0.34718 0.029384 -0.014708 0.0016113 -0.001758
-0.0021495 -0.0025957 -0.001052 -0.0030129
-0.0012563 0.0071599 0.029343 -0.014807 0.15368 0.29351 -0.00047034 -0.0015989
-0.0014895 -0.0010746 -0.00065799 -0.0011392
0.0021098 0.00078099 0.0016065 -0.0017488 -0.00049282 -0.0015885 -0.042503 0.28044
0.020686 0.016496 -0.0013034 0.00099015
0.000376 -0.0033359 -0.0021804 -0.0026319 -0.0015368 -0.0010732 0.020772 0.016442
-0.075304 0.21394 0.014518 0.017631
-0.00046178 -0.0013318 -0.0010445 -0.0030251 -0.00060084 -0.0011138 -0.0013015 0.00095544
0.014477 0.017649 -0.14928 0.25651
1100000000 0.026566 0.29981 0.036057 -0.0039366 0.0031508 0.003954 0.0022794 -0.00071832
-0.0021896 -0.002908 -0.0040621 -1.7961e-05
0.036007 -0.0039166 -0.13809 0.36704 0.015103 -0.027743 1.4876e-05 -0.0017668
-0.0035733 -0.00092763 -0.0037985 -0.00060849
0.0031862 0.0039375 0.015035 -0.027811 0.19941 0.27452 -0.0018074 0.00013989
-0.0016651 0.00062095 -0.0011135 -0.0004261
0.0022553 -0.00070051 -1.2577e-05 -0.0017706 -0.0018086 0.00013291 -0.0027237 0.28515
0.025074 0.0028057 -0.0024062 -0.00095736
-0.00222 -0.0028793 -0.0035912 -0.00087624 -0.0016554 0.00057701 0.025083 0.0027498
-0.055183 0.2258 0.019722 0.0073095
-0.0040249 8.8743e-05 -0.0037669 -0.00057601 -0.0011045 -0.00045885 -0.0024201 -0.00097395
0.019616 0.0072038 -0.10517 0.2912
1160000000 0.078648 0.29675 0.023988 -0.02054 0.0030331 -0.00059989 1.4888e-05 -0.002164
-0.0037997 -0.00077565 -0.0011742 0.0043149
0.023946 -0.020519 -0.093081 0.37181 -0.0037697 -0.028775 -0.001477 -0.0016858
-0.0028092 0.0025378 -0.0015698 0.0020024
0.0030152 -0.00063347 -0.0038918 -0.02879 0.24413 0.24444 -0.00078209 0.0016893
-0.0005558 0.0017158 -0.00083656 0.00031985
1.1742e-05 -0.0021673 -0.0014777 -0.0016735 -0.00078078 0.0016813 0.037992 0.28149
0.020679 -0.012263 -0.0040728 0.0044961
-0.0038037 -0.00078531 -0.0028301 0.0025055 -0.00055142 0.0016839 0.02064 -0.012304
-0.019652 0.23289 0.018003 -0.0016235
-0.0011373 0.0043273 -0.0016494 0.0020719 -0.00083719 0.00035094 -0.0041355 0.0044931
0.017963 -0.0016969 -0.056227 0.29441
1220000000 0.12174 0.28638 0.010908 -0.030002 -0.0014443 -0.0011541 0.00028916 -0.0008532
-0.0025441 0.0021714 0.0010592 0.0022093
0.010891 -0.02997 -0.050202 0.38549 -0.016898 -0.021048 -0.0025722 0.00039945
-0.00012671 0.0031123 -0.00094791 0.0020085
-0.001453 -0.0011537 -0.016989 -0.021012 0.28324 0.20537 0.0007451 0.0017203
0.00062059 0.0011487 0.00025122 0.00051367
0.00030834 -0.00086443 -0.002575 0.00040404 0.0007658 0.0017101 0.077122 0.27168
0.0098034 -0.018647 0.0014381 0.0010905
-0.0025618 0.0021399 -9.7505e-05 0.0031027 0.00064855 0.0011314 0.0097632 -0.018654
0.004725 0.23877 0.012853 -0.01358
0.0011163 0.002195 -0.00094366 0.0019745 0.00028674 0.00050962 0.0013918 0.0010687
0.01292 -0.013506 -0.027437 0.31325
1280000000 0.17221 0.26785 -0.0078108 -0.028651 -0.0019016 0.0021184 -0.00074838 -0.0022221
-0.0008175 0.0030332 0.002528 0.0014599
-0.0077824 -0.028638 -0.0038597 0.37853 -0.023885 -0.0081297 -0.0011598 0.0014154
0.0016953 0.0019326 0.00065956 0.0021435
-0.0018693 0.0021547 -0.023941 -0.0080399 0.31456 0.16284 0.0015491 7.9652e-05
0.0011107 0.00024744 0.00029753 0.00036711
-0.00073028 -0.0022068 -0.0011637 0.0014237 0.0015544 0.0001057 0.11389 0.25491
-0.00030198 -0.020484 -0.0011746 0.00041873
-0.0008193 0.003058 0.0017229 0.001921 0.0011193 0.0002373 -0.00035054 -0.020482
0.040922 0.24141 0.0022707 -0.015464
0.0025377 0.001481 0.00066188 0.002138 0.00029173 0.00032819 -0.0011913 0.00040168
0.0022693 -0.015429 0.020827 0.31822
1340000000 0.21023 0.2341 -0.017294 -0.019022 0.00051122 0.00432 -0.0017627 -0.00094658
0.0013381 0.0025852 0.0019875 -0.0014012
-0.01725 -0.019023 0.035972 0.37107 -0.021114 0.0045681 -0.00035312 0.0021774
0.0019979 0.00081894 0.001272 0.00086042
0.00053322 0.0043311 -0.021112 0.004668 0.33816 0.11402 0.0011685 -0.00092709
0.00062211 -0.00053061 0.00020156 0.00027053
-0.0017666 -0.00094242 -0.00033861 0.0021591 0.0011846 -0.00091022 0.14629 0.2326
-0.0098909 -0.017103 0.00045096 0.0012591
0.0013585 0.0025987 0.0020295 0.00081386 0.00063385 -0.00054471 -0.0099626 -0.017106
0.071099 0.2342 -0.0045917 -0.013684
0.0019985 -0.001396 0.0012595 0.00088822 0.00020342 0.00028828 0.00046136 0.0011985
-0.004585 -0.013751 0.059627 0.31493
1400000000 0.24364 0.19772 -0.023476 -0.0076983 0.0048957 0.0032314 -0.0023004 0.00047351
0.0023662 0.0010917 0.00058889 -0.0014486
-0.023439 -0.0077101 0.073143 0.35967 -0.014403 0.012523 0.0014034 0.0016183
0.001444 -0.00068397 0.0011603 0.00022503
0.004904 0.0032097 -0.014361 0.012593 0.35142 0.060191 0.0001595 -0.001622
0.00014632 -0.00033377 0.00033986 0.00025099
-0.0023093 0.00051556 0.0014179 0.0016236 0.0001758 -0.0016096 0.17393 0.20331
-0.016012 -0.01009 -0.001073 0.00052701
0.0023621 0.0010901 0.0014342 -0.00070378 0.00012173 -0.00036327 -0.016041 -0.010058
0.10314 0.22852 -0.010552 -0.0085889
0.00057192 -0.0014529 0.0011905 0.00020108 0.0002933 0.0003124 -0.0010802 0.00050083
-0.010552 -0.0086181 0.10427 0.30694
1460000000 0.26839 0.15452 -0.020321 0.0047978 0.0053462 -0.001651 -0.0017245 0.0018443
0.0021689 -0.00028578 -0.00028123 -0.001109
-0.020311 0.0047649 0.10896 0.33868 -0.0054329 0.015297 0.0019294 0.00025981
0.0010095 -0.0015157 0.0013116 -0.00053694
0.0053465 -0.0016826 -0.0053546 0.015343 0.35863 0.0048131 -0.001184 -0.0014437
0.00020776 -0.00027294 0.00059209 -0.0003119
-0.0017118 0.0018431 0.001954 0.000251 -0.0011908 -0.0014268 0.19974 0.17418
-0.017286 -0.0027648 -0.00037659 0.0027272
0.0021868 -0.00031349 0.0010071 -0.0015434 0.0001804 -0.00026568 -0.017312 -0.0027391
0.13304 0.21334 -0.012205 -0.0022545
-0.00026841 -0.0010736 0.0013186 -0.00055894 0.00057873 -0.00030019 -0.00037046 0.0027388
-0.012243 -0.0022651 0.13921 0.28749
1520000000 0.28093 0.11225 -0.014768 0.010157 0.0033234 -0.0039672 0.00015004 0.0027449
0.0022021 -0.00176 -0.0011035 -0.00029059
-0.01478 0.01013 0.14285 0.32421 0.0020858 0.012632 0.0019386 -0.00084641
4.5149e-05 -0.0011749 0.00043926 -0.0009775
0.003302 -0.0039709 0.0021609 0.012634 0.35079 -0.053868 -0.0011498 -0.00046739
0.00057739 -0.00083476 0.00015969 -0.000117
0.00014495 0.0027779 0.0019275 -0.00085147 -0.0011549 -0.00047306 0.22094 0.13567
-0.016306 0.0035127 0.0020194 0.0022419
0.0021871 -0.0017772 2.5952e-05 -0.0011776 0.00054999 -0.00084135 -0.016297 0.0035657
0.16066 0.19825 -0.011911 0.0020858
-0.0010981 -0.00028603 0.00044055 -0.0009924 0.00012843 -9.3368e-05 0.0020129 0.0022352
-0.011915 0.0020408 0.17274 0.26888
1580000000 0.29118 0.067308 -0.0081971 0.013512 -0.00099923 -0.0046708 0.0016389 0.0021
-6.8515e-06 -0.0021939 -0.00040203 0.00051729
-0.0082024 0.013496 0.17071 0.30073 0.005427 0.0075326 0.00059094 -0.0017941
-0.0006987 -0.0010806 -0.00014737 -0.00076981
-0.0010196 -0.0046778 0.0054764 0.0075222 0.32903 -0.11054 -0.0018125 0.00060157
-0.00032745 -0.0012155 0.00026128 -0.00054915
0.001652 0.0020946 0.00058483 -0.0017978 -0.0018287 0.00058642 0.23344 0.098216
-0.012526 0.0088436 0.002869 0.00071854
-2.7658e-05 -0.002213 -0.00070006 -0.0010802 -0.00030302 -0.0012094 -0.012502 0.0088768
0.1846 0.18083 -0.009085 0.0076354
-0.00041293 0.00050917 -0.00015723 -0.00075287 0.00028483 -0.00052763 0.0028662 0.00067466
-0.0091077 0.0076561 0.20629 0.24497
1640000000 0.29448 0.025171 -0.0013751 0.012325 -0.0027413 -0.0023858 0.0030054 0.00099851
-0.00051807 -0.0018005 -0.0002514 0.00056035
-0.0013906 0.012317 0.20191 0.27549 0.0057345 0.0026792 -0.0007368 -0.002
-0.0010437 -0.00033737 -0.0004088 -0.00080649
-0.002732 -0.0024295 0.0057514 0.0026486 0.29961 -0.16094 -0.00072864 0.0016679
-0.00094533 -0.00099327 -2.2191e-05 -0.00047772
0.003006 0.0009898 -0.00073508 -0.0020103 -0.0006941 0.0016571 0.24551 0.050314
-0.0078325 0.01061 0.002708 -0.0011888
-0.00052014 -0.0018042 -0.00105 -0.00031521 -0.00094626 -0.00096029 -0.0078036 0.01061
0.20778 0.15456 -0.004311 0.0095951
-0.00026288 0.00055318 -0.00040369 -0.00081413 -6.5438e-05 -0.00044003 0.0027374 -0.0012062
-0.0043235 0.0096163 0.23386 0.21405
1700000000 0.28648 -0.019959 0.0021456 0.0095767 -0.0033925 0.00027775 0.0033363 -0.0015353
-0.0020797 -0.00091823 0.00055077 0.00041515
0.0021454 0.0095671 0.21959 0.24459 0.0033833 -0.00014681 -0.0016967 -0.0006529
-0.00085753 0.00016528 -0.00088127 -0.00057901
-0.003381 0.00028737 0.0033872 -0.00016059 0.25405 -0.19936 0.00052077 0.0016833
-0.0021418 -8.0391e-05 -0.00040419 -0.0009748
0.0033164 -0.0015593 -0.001698 -0.0006497 0.00051077 0.0017074 0.24183 0.0028427
-0.0042796 0.011405 0.0017209 -0.0023726
-0.0021151 -0.00089911 -0.00084452 0.00018374 -0.0021276 -7.946e-05 -0.0042515 0.011435
0.22468 0.13358 0.00043572 0.0096042
0.00055345 0.00040677 -0.00090431 -0.00056572 -0.00039446 -0.00097 0.0016842 -0.0023744
0.00048247 0.0096016 0.25117 0.18136
1760000000 0.27582 -0.068313 0.0045644 0.006146 -0.0020094 0.00085981 0.0011221 -0.0037861
-0.0016472 0.00055308 0.00037059 -0.00063426
0.004538 0.0061473 0.24749 0.20533 0.00080815 -0.0017333 -0.0013555 0.00022339
-0.00093756 0.0010225 -0.00056243 0.00026715
-0.0020212 0.00086136 0.00078445 -0.0017467 0.20498 -0.23091 0.0013813 0.0010735
-0.0011936 0.0015794 -0.0012597 -0.00070897
0.0011009 -0.003793 -0.0013604 0.00023224 0.0013867 0.0010418 0.23549 -0.046197
-0.00018059 0.010427 -0.00012983 -0.0028324
-0.0016566 0.00055637 -0.00092518 0.0010278 -0.0011838 0.0016289 -0.00017326 0.010416
0.23999 0.099482 0.0042817 0.0068329
0.00033562 -0.00060908 -0.00058485 0.00028444 -0.0012984 -0.0006705 -0.00010409 -0.0028382
0.0042672 0.0068612 0.26617 0.14429
1820000000 0.25081 -0.10645 0.0047309 0.0024926 0.00013119 0.002102 -0.001219 -0.0031474
-0.0013828 0.0011718 -0.00019238 -0.0001453
0.0047454 0.0024838 0.25776 0.17449 -0.0013336 -4.9924e-05 -0.0012939 0.0011016
6.6769e-05 0.0011802 -0.00072136 0.00041108
0.00016356 0.0020748 -0.0013393 -6.9252e-05 0.15335 -0.24454 0.0017619 0.00026227
2.8254e-05 0.002496 -0.0016866 0.00032811
-0.0012302 -0.003155 -0.0012833 0.001112 0.0017844 0.00024507 0.20688 -0.0937
0.0018445 0.0084614 -0.0017598 -0.0016821
-0.001373 0.0011859 8.8625e-05 0.0011861 3.8243e-05 0.0024547 0.001847 0.0084513
0.25582 0.069056 0.0050169 0.0033417
-0.0002042 -0.00015752 -0.00072962 0.0004191 -0.0017295 0.00028361 -0.0017479 -0.0017073
0.0049885 0.0033212 0.26972 0.10845
1880000000 0.21525 -0.14567 0.0022031 1.9738e-05 -0.00080115 0.0021588 -0.0032512 -0.0020582
-0.00019985 0.0020283 0.00010298 -0.00059559
0.002181 2.691e-05 0.26258 0.12885 -0.0035066 0.0023457 -0.00023207 0.0017254
0.00062293 0.0011072 -7.3812e-06 0.0010882
-0.00080355 0.0021574 -0.0034905 0.0023741 0.10114 -0.25103 0.0014421 -0.0011365
0.0016568 0.0018895 -0.0011454 0.0017978
-0.0032518 -0.0020453 -0.000212 0.0017396 0.0014179 -0.0011186 0.16904 -0.13364
0.0031684 0.0056996 -0.0024646 0.0001716
-0.000161 0.0020509 0.00062432 0.0011171 0.0016899 0.001837 0.003168 0.0056857
0.25945 0.038166 0.0050502 0.0011124
0.000115 -0.00059151 -6.5739e-06 0.0010568 -0.0010781 0.0016608 -0.002468 0.00011692
0.0050168 0.0011168 0.27139 0.075256
1940000000 0.17702 -0.17229 -0.00011973 -0.001617 0.0013744 0.0020989 -0.003699 0.00072091
0.0016251 0.0013213 -0.00057237 -0.0006217
-0.00010499 -0.0016115 0.26488 0.096194 -0.0015794 0.0051496 0.0010826 0.0012731
0.0017642 0.00038264 0.0010042 0.00037056
0.001453 0.0021278 -0.0015515 0.0051959 0.059133 -0.24209 0.00016701 -0.0020401
0.0023957 0.00018905 0.00051267 0.0017645
-0.0036799 0.00075032 0.0011043 0.0012827 0.00021313 -0.0020554 0.11885 -0.16762
0.0025151 0.0036751 -0.0016792 0.0012791
0.0016405 0.0013173 0.0017599 0.00036367 0.0024143 0.00021645 0.0025162 0.0037079
0.26278 -0.0012172 0.0036536 -0.0024297
-0.00061294 -0.00053258 0.00099095 0.00037295 0.00052427 0.0017762 -0.0016184 0.0013777
0.0036647 -0.0024028 0.26286 0.039048
2000000000 0.12956 -0.18613 -0.004097 0.0005445 0.0028716 0.0015726 -0.002134 0.0037219
0.001458 0.00025008 -0.00055629 0.00063209
-0.0040889 0.0005176 0.25026 0.060402 -0.00059074 0.00705 0.0014795 0.00046885
0.0011405 -0.001125 0.00052221 0.00023235
0.002853 0.0015235 -0.0005566 0.0070625 0.017352 -0.22725 -0.0012615 -0.0011027
0.0019446 -0.0013654 0.0019339 0.0013962
-0.0021209 0.0037711 0.0014659 0.00047435 -0.001243 -0.0011263 0.064513 -0.17956
0.00087259 0.0027636 -7.4909e-05 0.0022937
0.001445 0.00025127 0.0011306 -0.0011333 0.0019565 -0.0013864 0.00089291 0.0027633
0.25714 -0.03465 0.00038725 -0.0028856
