!Keysight Technologies,M9804A,MY58100912,A.14.10.03
!Date: Thursday, April 27, 2023 10:28:33
!Correction: S11(C  6-Port  ) 
!S12(C  6-Port  ) 
!S13(C  6-Port  ) 
!S14(C  6-Port  ) 
!S15(C  6-Port  ) 
!S16(C  6-Port  ) 
!S21(C  6-Port  ) 
!S22(C  6-Port  ) 
!S23(C  6-Port  ) 
!S24(C  6-Port  ) 
!S25(C  6-Port  ) 
!S26(C  6-Port  ) 
!S31(C  6-Port  ) 
!S32(C  6-Port  ) 
!S33(C  6-Port  ) 
!S34(C  6-Port  ) 
!S35(C  6-Port  ) 
!S36(C  6-Port  ) 
!S41(C  6-Port  ) 
!S42(C  6-Port  ) 
!S43(C  6-Port  ) 
!S44(C  6-Port  ) 
!S45(C  6-Port  ) 
!S46(C  6-Port  ) 
!S51(C  6-Port  ) 
!S52(C  6-Port  ) 
!S53(C  6-Port  ) 
!S54(C  6-Port  ) 
!S55(C  6-Port  ) 
!S56(C  6-Port  ) 
!S61(C  6-Port  ) 
!S62(C  6-Port  ) 
!S63(C  6-Port  ) 
!S64(C  6-Port  ) 
!S65(C  6-Port  ) 
!S66(C  6-Port  ) 
!S6P File: Measurement: :
# Hz S  RI   R 50
500000000 -0.32909 -0.058665 -0.012069 -0.0017753 -0.008487 0.012417 -0.0045165 0.014081
0.012402 0.004362 -0.0061395 0.0076735
-0.012094 -0.0016021 -0.41079 -0.07187 0.0074305 -0.010373 0.00077267 0.012909
0.0071167 0.0026257 0.00046208 0.012441
-0.0084042 0.012858 0.0074123 -0.010324 -0.2554 0.19494 0.0063222 0.0031241
-0.001702 0.007862 -0.00032911 0.011182
-0.0058364 0.012416 0.00026178 0.012344 0.0059072 0.0034217 -0.32963 0.043746
-0.020119 -0.0055439 0.015022 0.030195
0.012114 0.0046508 0.0070371 0.0019625 -0.0014792 0.0077014 -0.020772 -0.0051637
-0.25599 -0.16253 -0.027805 0.0037253
-0.0072871 0.0086039 0.00019994 0.013101 0.00012483 0.011049 0.01499 0.028717
-0.027567 0.0055119 -0.25485 -0.15119
560000000 -0.31319 0.10811 -0.023044 -0.06577 0.0013998 0.013072 0.0052836 0.011616
0.0097323 0.0041247 0.011128 0.009852
-0.023297 -0.065953 -0.37083 0.091188 -0.041451 -0.038868 0.014067 0.0031285
-0.011941 -0.0028408 0.0045757 -0.00033143
0.0012892 0.013314 -0.041474 -0.03867 -0.17786 0.24412 -0.00010666 -0.0043794
0.016614 0.0048884 0.00708 -0.0066242
0.0055873 0.010993 0.014019 0.0025342 7.9197e-06 -0.0050172 -0.3058 0.13455
0.0037853 -0.023715 0.0068594 -0.021717
0.010646 0.0020609 -0.013763 -0.0044335 0.018734 0.0039864 0.0011107 -0.022828
-0.30893 0.010731 0.0058256 -0.048196
0.011944 0.0087519 0.0052384 -0.002115 0.0069732 -0.0055195 0.0067179 -0.020908
0.0058322 -0.05013 -0.32762 -0.0013746
620000000 -0.27291 0.085939 -0.024289 0.0097554 0.0030934 0.0097528 0.0074348 -0.0033063
0.01153 -0.00028641 -0.00064495 -0.0018122
-0.024247 0.0096764 -0.40048 0.038525 -0.019503 0.0013786 -0.0012319 -0.0014017
0.011805 -0.0058634 0.00025105 -0.0029009
0.002953 0.0092439 -0.019507 0.0014021 -0.15283 0.25204 -0.0008849 -0.0046833
-0.0032597 -0.0026189 0.0079078 -0.0031656
0.007163 -0.0041081 -0.0015267 -0.0014925 -0.00074294 -0.0049282 -0.26587 0.1449
-0.03912 -0.020388 0.013625 0.02998
0.011539 0.00026435 0.011835 -0.0063705 -0.0028167 -0.0025369 -0.038277 -0.01776
-0.2304 -0.0163 -0.043797 0.013323
-0.00075712 -0.00096203 0.00036707 -0.0024728 0.0087159 -0.0018419 0.012721 0.0301
-0.039809 0.014534 -0.2432 -0.038506
680000000 -0.23809 0.17898 -0.025634 -0.013856 0.005155 0.0051136 0.002184 -0.0078623
-0.0021807 -0.01123 0.0066081 -0.0057687
-0.025517 -0.013506 -0.38979 0.14212 -0.031893 -0.0012568 -0.0012258 -0.00066655
-0.0017334 -0.0095593 -0.00038989 -0.0012986
0.0052028 0.0053791 -0.031891 -0.0011128 -0.10525 0.27456 -0.00091215 -0.0006612
-0.0014141 0.00040284 -0.0024095 -0.0086946
0.0028359 -0.0071667 -0.0011063 -0.00040433 -0.00072135 -0.00073839 -0.21952 0.20014
-0.024339 -0.0057337 -0.0086377 -0.011349
-0.0025792 -0.011821 -0.0018538 -0.0092572 -0.0015865 0.00046579 -0.025447 -0.0063313
-0.27264 0.078567 -0.0062729 -0.0059715
0.0073129 -0.0072705 -0.0003488 -0.0020408 -0.0028338 -0.0093545 -0.0084686 -0.01198
-0.0068567 -0.0068025 -0.26066 0.067618
740000000 -0.19172 0.17261 -0.040103 0.027651 0.013618 -0.0033952 0.00021022 -0.003591
-0.0039517 -0.0018353 -0.0063096 0.0017237
-0.040464 0.027769 -0.33441 0.16191 -0.03661 0.034298 1.1854e-05 -0.0062924
-0.01126 0.0059781 -0.001603 -0.0065481
0.013172 -0.0037787 -0.036719 0.034332 -0.071678 0.27336 -0.0019136 0.0032641
-0.002224 -0.0045365 -0.0010075 -0.00033355
-0.00060842 -0.0041069 -0.00025617 -0.0061416 -0.0022239 0.0029808 -0.20238 0.20503
-0.041227 -0.0046382 0.023326 0.016849
-0.0046493 -0.00067064 -0.011253 0.0070349 -0.0031782 -0.0044623 -0.040682 -0.0038462
-0.17592 0.10131 -0.041465 0.0020837
-0.007319 0.0014532 -0.0019129 -0.0064348 -0.0010299 -8.0201e-05 0.023025 0.016344
-0.04092 0.003284 -0.2519 0.070315
800000000 -0.16282 0.21606 -0.021455 0.016562 0.0053884 -0.010514 -0.0036744 -0.0027129
-0.0047909 0.0019075 0.0044249 0.00060919
-0.021489 0.016442 -0.3427 0.23216 -0.0080242 0.03402 -0.0023764 0.0018825
-0.00071594 0.0021554 0.00038319 0.0053414
0.0055806 -0.010398 -0.0078591 0.034057 -0.034256 0.29939 0.0007065 0.0013279
-0.00024818 0.0035516 -0.0011517 0.0012085
-0.0038276 -0.0026707 -0.0024133 0.002029 0.00090099 0.0014373 -0.1722 0.23486
-0.027495 0.015418 0.014963 -0.0098133
-0.0043017 0.0015669 -0.00074963 0.0020408 -0.00037329 0.0033769 -0.027392 0.015321
-0.21194 0.13021 -0.017275 0.021011
0.0048726 7.6016e-05 0.00025496 0.0052284 -0.0012202 0.00048588 0.01603 -0.010294
-0.017865 0.021191 -0.25239 0.1268
860000000 -0.12769 0.23725 -0.016945 0.03027 -0.0030107 -0.0095242 -0.0022385 0.00092434
0.0038658 0.0045508 -0.004564 -0.002952
-0.016872 0.030176 -0.29362 0.27644 0.0080546 0.033742 0.00022601 0.0022387
0.0030005 0.00065924 0.0036897 0.00066252
-0.0031059 -0.0096989 0.0082003 0.033797 0.014391 0.30956 -0.00062157 -1.53e-05
0.0024562 -0.0011286 0.0011999 0.0037471
-0.0021687 0.00025352 7.6602e-05 0.0022794 -0.00061796 -0.00019655 -0.13409 0.24502
-0.01605 0.019385 -0.0061895 -0.010193
0.0038504 0.0043293 0.0037584 0.00062845 0.0025322 -0.0010144 -0.016003 0.019395
-0.1558 0.17598 -0.022737 0.016684
-0.0040512 -0.0027601 0.0037256 0.00013047 0.0012265 0.0038852 -0.0078298 -0.009045
-0.022048 0.016879 -0.19913 0.17261
920000000 -0.105 0.25974 0.0053222 0.03856 -0.0090572 -0.0044852 -0.0019111 0.0011269
0.00055637 0.0017352 0.0030779 -0.0013562
0.0053973 0.038545 -0.26733 0.29688 0.028221 0.022369 0.0014472 0.0012882
0.0070243 -0.00035202 0.0036049 -0.0031323
-0.0090262 -0.004473 0.028273 0.02232 0.059929 0.3112 0.0020265 4.9006e-05
0.00075159 -0.00014497 0.00098973 -0.0015878
-0.0014882 0.0012882 0.0011628 0.0011786 0.0020599 0.0001161 -0.10925 0.26079
-0.008384 0.030727 0.0041771 -0.0061242
0.00058279 0.0017525 0.0070757 -5.1983e-06 0.00073417 -0.00012232 -0.0077408 0.030458
-0.14249 0.18308 -0.00031392 0.027032
0.0029288 -0.0012793 0.0037579 -0.0026986 0.00085565 -0.001435 0.0046824 -0.0061566
-0.00053371 0.027325 -0.21228 0.18522
980000000 -0.05851 0.28165 0.017116 0.029354 -0.0090473 0.0043145 0.0013882 0.0035274
0.0033732 -0.0013558 -0.0034636 -0.00292
0.017158 0.02945 -0.21567 0.3344 0.032907 0.0046876 0.0020363 6.3106e-05
0.0017004 -0.0057359 -0.00015194 -0.0021539
-0.0089856 0.0043892 0.033006 0.0046264 0.10643 0.30716 0.00063525 -0.0012058
0.00045823 -0.001766 0.0013259 -9.2402e-06
0.00133 0.0036945 0.0019064 1.308e-05 0.00063612 -0.0012079 -0.070383 0.27188
0.010221 0.028225 -0.0095381 -0.0081988
0.0036058 -0.0016011 0.001663 -0.0059919 0.00051104 -0.0019083 0.010094 0.027961
-0.10818 0.20845 0.0073838 0.018693
-0.0036874 -0.0023729 -0.00017565 -0.0023712 0.001275 -0.00018542 -0.0093511 -0.0077938
0.0072807 0.019171 -0.17111 0.23675
1040000000 -0.017155 0.28973 0.032947 0.018729 -0.001192 0.0071905 0.0023492 0.00058937
0.00045478 -0.0035342 -2.2713e-05 -0.0013029
0.03286 0.018783 -0.18002 0.34724 0.029376 -0.014654 0.0016015 -0.0015249
-0.0020642 -0.0026309 -0.0013885 -0.0028145
-0.0012044 0.007175 0.029361 -0.014774 0.15368 0.29349 -0.00046985 -0.0015464
-0.0015542 -0.0011075 -0.00075669 -0.0010503
0.0021875 0.00072683 0.001572 -0.0018055 -0.0005632 -0.001589 -0.04235 0.28032
0.02076 0.016485 -0.0014303 0.00084598
0.00016764 -0.0032435 -0.0020758 -0.0027355 -0.0015253 -0.00098387 0.020571 0.016086
-0.075888 0.21334 0.014623 0.018161
-0.00023283 -0.0016312 -0.0013341 -0.0029614 -0.00079525 -0.001085 -0.0017419 0.0011861
0.014334 0.017657 -0.14996 0.25606
1100000000 0.026507 0.29967 0.036035 -0.0039183 0.0032049 0.0040088 0.0021722 -0.00048804
-0.0020584 -0.0027651 -0.0043724 8.7636e-05
0.035992 -0.0039262 -0.13824 0.3671 0.015142 -0.027713 -1.5603e-05 -0.0016924
-0.003508 -0.00083173 -0.0038751 -0.00065718
0.0031506 0.0040044 0.015049 -0.027789 0.19936 0.2745 -0.0018625 0.00014485
-0.0016701 0.00054906 -0.0011567 -0.00030655
0.002293 -0.00073022 7.3766e-05 -0.0018616 -0.0018382 0.0001118 -0.0027264 0.2853
0.02503 0.0028679 -0.0024711 -0.00097586
-0.0022387 -0.0028433 -0.0035946 -0.00092265 -0.0017038 0.0005409 0.025243 0.0029252
-0.055125 0.22581 0.01967 0.0073332
-0.0042157 -2.4391e-05 -0.0037403 -0.00067012 -0.0010835 -0.00031906 -0.0026727 -0.00097139
0.019762 0.0073795 -0.10536 0.29084
1160000000 0.078528 0.29688 0.024106 -0.020461 0.0029819 -0.00068461 0.00012698 -0.0021958
-0.0039079 -0.00088478 -0.0012622 0.0041674
0.02406 -0.020416 -0.093132 0.37179 -0.0037951 -0.028768 -0.0015333 -0.0017118
-0.002673 0.0024495 -0.0015687 0.0017673
0.0030111 -0.00067569 -0.0039122 -0.028767 0.24405 0.2445 -0.00087985 0.0016312
-0.00055625 0.0016842 -0.00089986 0.00026107
5.3345e-07 -0.0020791 -0.0013327 -0.0016042 -0.00091926 0.0016465 0.038083 0.28143
0.020525 -0.012238 -0.0040267 0.0047873
-0.0039535 -0.00068195 -0.0027835 0.0023951 -0.00054334 0.0016946 0.020508 -0.012411
-0.020035 0.23306 0.018185 -0.0011891
-0.0010368 0.0042282 -0.0016151 0.0020469 -0.0009119 0.00041072 -0.0038322 0.0044519
0.018255 -0.0015269 -0.056271 0.29417
1220000000 0.12168 0.28633 0.010846 -0.030011 -0.0014081 -0.0011349 0.00015414 -0.00081407
-0.0025236 0.0021304 0.0010206 0.0020516
0.010859 -0.03002 -0.050287 0.38548 -0.016854 -0.021068 -0.0025624 0.00042025
-9.279e-05 0.0032088 -0.0010633 0.0019969
-0.0014469 -0.0011724 -0.016978 -0.021023 0.28321 0.20534 0.00073802 0.0017099
0.00062378 0.0010935 0.00022614 0.00061981
0.00032621 -0.00093173 -0.0026298 0.00040179 0.00072987 0.0017517 0.077098 0.27169
0.0098023 -0.018652 0.00141 0.0012145
-0.0026509 0.0021981 -0.00012376 0.0031606 0.00058214 0.0011458 0.0097158 -0.01852
0.0047021 0.23833 0.012963 -0.013427
0.0011942 0.0021325 -0.00086282 0.0020341 0.00016766 0.00054021 0.0013339 0.0011909
0.012837 -0.013681 -0.027467 0.31337
1280000000 0.17231 0.26803 -0.0076941 -0.028621 -0.001926 0.0020753 -0.00068895 -0.0021787
-0.00081562 0.0030193 0.0026419 0.0015138
-0.007693 -0.028607 -0.0037312 0.37846 -0.02388 -0.0081157 -0.0011726 0.0013541
0.0016445 0.0020136 0.00076304 0.0020798
-0.00191 0.0020961 -0.023953 -0.0080188 0.31463 0.16285 0.0015274 9.9716e-05
0.0010898 0.00027905 0.00028259 0.0002116
-0.00071063 -0.0021525 -0.0010995 0.0014609 0.0015729 6.6884e-05 0.11398 0.25503
-0.00028505 -0.020558 -0.001213 0.00058189
-0.00082734 0.0030114 0.0017493 0.0018857 0.0011047 0.0002427 -0.00030662 -0.020553
0.040581 0.2417 0.0021622 -0.015422
0.0026068 0.0013912 0.00058366 0.0021028 0.00018754 0.0004106 -0.0010706 0.00032644
0.0024801 -0.015409 0.020658 0.31856
1340000000 0.2102 0.23416 -0.017284 -0.019038 0.00052805 0.0043271 -0.0017905 -0.0010101
0.0013612 0.0025375 0.0019326 -0.0013536
-0.017249 -0.018966 0.036002 0.37106 -0.021122 0.0045673 -0.0003135 0.0022174
0.0019174 0.00087261 0.0011748 0.00091948
0.00053823 0.0043052 -0.021118 0.0046477 0.33821 0.11408 0.0012463 -0.00092831
0.000568 -0.00051798 0.00012619 0.00021482
-0.0017176 -0.00097616 -0.00035887 0.0021711 0.0011924 -0.00089752 0.14639 0.23248
-0.0097596 -0.017032 0.00055644 0.001176
0.00141 0.0025141 0.0020308 0.00078799 0.00067596 -0.00058757 -0.010054 -0.017111
0.071088 0.23419 -0.0044043 -0.013609
0.0018109 -0.0012607 0.0012033 0.00084141 0.000176 0.00027821 0.00023592 0.0011289
-0.0045671 -0.01358 0.059422 0.31501
1400000000 0.2436 0.19766 -0.023509 -0.0077331 0.0048799 0.003177 -0.002262 0.00055942
0.0023309 0.0010379 0.00062952 -0.001479
-0.023497 -0.0077592 0.073111 0.35966 -0.014422 0.012521 0.0013096 0.0015729
0.0014579 -0.00072525 0.001139 0.00018773
0.0049293 0.0031589 -0.014405 0.012637 0.35145 0.060217 0.00012061 -0.0016989
5.9884e-05 -0.00032062 0.00038801 0.00021156
-0.0022837 0.00055215 0.0014253 0.0015978 0.00014924 -0.001665 0.17391 0.20327
-0.016015 -0.010132 -0.0010535 0.00048887
0.0023799 0.0010492 0.0014013 -0.00070185 0.00014921 -0.00037355 -0.016074 -0.010123
0.10306 0.2285 -0.01045 -0.0086903
0.00050443 -0.0013954 0.0011461 0.00016192 0.00017184 0.00031492 -0.001004 0.00058856
-0.010503 -0.0086167 0.1039 0.30693
1460000000 0.26841 0.15455 -0.020377 0.0047996 0.0053289 -0.0016518 -0.0018333 0.0018094
0.0021639 -0.00022096 -0.00014809 -0.00094929
-0.020346 0.0048157 0.10902 0.33872 -0.0054427 0.015297 0.0020091 0.00032373
0.001002 -0.001516 0.0013143 -0.0006037
0.0053071 -0.0017052 -0.0053545 0.015304 0.35868 0.0047597 -0.0011679 -0.0014298
0.0001372 -0.00024508 0.00059677 -0.00029468
-0.00168 0.0018598 0.001911 0.00033311 -0.0011627 -0.0014173 0.19981 0.17408
-0.017314 -0.0027513 -0.00038816 0.0026374
0.0021454 -0.00026897 0.00091817 -0.0015348 0.00026765 -0.00020351 -0.0173 -0.0027177
0.13307 0.21348 -0.012302 -0.0023298
-0.00017158 -0.0010631 0.0013953 -0.00042954 0.00068367 -0.00048382 -0.00040202 0.0025523
-0.012245 -0.002463 0.13889 0.28749
1520000000 0.28101 0.11231 -0.014804 0.010169 0.0033482 -0.0039263 0.00017016 0.0027818
0.0022462 -0.0017762 -0.0011234 -0.00028091
-0.014793 0.010141 0.14287 0.3242 0.0021131 0.012618 0.0018905 -0.0009112
4.2395e-05 -0.0011866 0.00041485 -0.00098935
0.0033278 -0.0039513 0.0021922 0.012623 0.35083 -0.053913 -0.0011873 -0.00052688
0.00057229 -0.00086285 0.00017393 -0.00011023
3.0692e-05 0.0027882 0.0019675 -0.00089804 -0.0012378 -0.00048242 0.22088 0.1356
-0.016288 0.0035255 0.0020457 0.0022647
0.0022066 -0.0017561 6.4748e-05 -0.0011395 0.00055979 -0.00087061 -0.016308 0.0036263
0.16048 0.19828 -0.011705 0.002019
-0.0013093 -0.00032077 0.00041002 -0.00099958 0.00020772 -0.0001172 0.0019663 0.0022167
-0.011659 0.0021271 0.17229 0.26911
1580000000 0.29114 0.067365 -0.0082375 0.013561 -0.0010232 -0.0046371 0.0016847 0.002132
-3.4887e-05 -0.0021862 -0.00046937 0.0004673
-0.0082347 0.013538 0.1707 0.30075 0.0054301 0.0075447 0.00065366 -0.0018327
-0.00070468 -0.0011219 -0.0001138 -0.00079962
-0.0010168 -0.0046241 0.0054957 0.0075339 0.32907 -0.11057 -0.0017471 0.00065493
-0.00034203 -0.0012517 0.00033928 -0.00063393
0.0017499 0.0020602 0.00058727 -0.0018428 -0.0017923 0.00066105 0.23343 0.098447
-0.012508 0.0088771 0.0028388 0.00061058
-3.2857e-05 -0.0021942 -0.0007806 -0.0011215 -0.0003667 -0.001182 -0.012492 0.0089425
0.1845 0.18085 -0.0091619 0.0077812
-0.00032975 0.00064654 -7.6368e-05 -0.00072225 0.00034737 -0.00048649 0.0026716 0.00060523
-0.0090775 0.0077377 0.20628 0.24519
1640000000 0.29447 0.025158 -0.0013486 0.012395 -0.0026591 -0.0024126 0.0029599 0.001026
-0.00050023 -0.0018124 -0.00025767 0.00058108
-0.0013541 0.012373 0.20198 0.27553 0.0057616 0.0026704 -0.00080296 -0.0020314
-0.0010859 -0.00032397 -0.00039006 -0.00079863
-0.0027115 -0.0023955 0.0057791 0.0026403 0.29964 -0.16101 -0.0007123 0.0016355
-0.00091151 -0.0010606 -0.00016035 -0.00040188
0.0029886 0.00098057 -0.00075662 -0.0020333 -0.00065842 0.0015891 0.24563 0.050379
-0.0079262 0.010626 0.0027673 -0.0011075
-0.00050661 -0.0017689 -0.0011193 -0.00029547 -0.00087167 -0.00098899 -0.0078572 0.010667
0.20752 0.15452 -0.0043152 0.0096178
-0.00035239 0.00039506 -0.00045398 -0.00079683 -0.00014954 -0.00048986 0.0027256 -0.0010714
-0.0043806 0.009658 0.23386 0.21425
1700000000 0.2864 -0.019931 0.0021564 0.0096006 -0.0033624 0.00024386 0.0033062 -0.0015194
-0.0021571 -0.00096606 0.00057718 0.00039441
0.0021806 0.0095675 0.21957 0.2446 0.0033493 -0.00017983 -0.0016465 -0.00064596
-0.00086567 0.0001204 -0.0008986 -0.00054269
-0.0033209 0.00024988 0.0033481 -0.00018451 0.25389 -0.19957 0.00053228 0.0016181
-0.0021847 -8.7572e-05 -0.00035132 -0.00072285
0.0032066 -0.0015699 -0.0016955 -0.00060395 0.00048208 0.0017483 0.24165 0.0027842
-0.0042693 0.011267 0.0017262 -0.0022872
-0.0021209 -0.00089749 -0.00082763 0.00016448 -0.0020972 -0.00012233 -0.0041888 0.011325
0.22457 0.13352 0.00052385 0.0096162
0.00061582 0.00051045 -0.00085996 -0.00052306 -0.00042493 -0.00095733 0.0016343 -0.0023867
0.00061399 0.0095979 0.25125 0.18129
1760000000 0.27575 -0.06834 0.004546 0.0061257 -0.0020371 0.00090596 0.001005 -0.0038122
-0.0016339 0.00051306 0.00033753 -0.00063233
0.0045272 0.0061447 0.24754 0.20535 0.00083308 -0.0017196 -0.0014514 0.00019398
-0.00090428 0.001031 -0.00058983 0.00025012
-0.0020749 0.0009491 0.00080823 -0.0017311 0.20492 -0.23094 0.0014067 0.0010742
-0.0011833 0.0015624 -0.0014446 -0.00070149
0.0011054 -0.0037327 -0.0014369 0.0002349 0.0013877 0.0010913 0.23564 -0.045894
-0.00017172 0.010325 -0.0001817 -0.0028262
-0.0016548 0.00054251 -0.00092249 0.001009 -0.0012404 0.0015984 -0.00027771 0.010421
0.23987 0.099645 0.0043303 0.006903
0.00036463 -0.00060955 -0.0006283 0.00032314 -0.0012652 -0.0007551 -0.00033444 -0.0026753
0.004306 0.0068539 0.26607 0.14467
1820000000 0.25074 -0.1065 0.0047624 0.0024479 0.00012342 0.0021318 -0.0012171 -0.0031667
-0.0013955 0.0012245 -0.00017475 -0.0002157
0.0047359 0.0024531 0.2578 0.17447 -0.0014076 -7.0511e-05 -0.0013184 0.0011491
3.963e-05 0.0011751 -0.00072023 0.00041243
8.6804e-05 0.0021743 -0.001382 -6.4703e-05 0.15312 -0.24474 0.0016994 5.8101e-05
-3.9914e-05 0.0024749 -0.0017853 0.00047965
-0.0012841 -0.0031139 -0.0013285 0.0011888 0.0018483 0.00025582 0.20705 -0.094023
0.0019926 0.0084012 -0.0019419 -0.0016343
-0.0014128 0.0012324 4.48e-05 0.001208 2.6709e-05 0.0025832 0.001864 0.0083834
0.25591 0.069126 0.0049666 0.0032347
-0.00016828 -0.00034601 -0.00071933 0.00032554 -0.0017513 0.00030801 -0.0017996 -0.0016125
0.0049366 0.0033331 0.27004 0.10847
1880000000 0.21518 -0.14567 0.0022252 2.2435e-05 -0.0008414 0.0021521 -0.0031416 -0.0020568
-0.00022438 0.0020442 3.3126e-05 -0.00050785
0.0022407 2.9487e-05 0.26258 0.12885 -0.0035197 0.0023563 -0.00014566 0.0017369
0.00062359 0.0010927 4.7861e-05 0.001064
-0.00083636 0.0021551 -0.0035317 0.0023939 0.10104 -0.25099 0.0015099 -0.0011089
0.0017145 0.0018254 -0.0010753 0.001546
-0.003247 -0.0021337 -0.00023653 0.0017831 0.0013813 -0.0011371 0.16905 -0.13373
0.0031373 0.0058097 -0.0022239 0.00010181
-0.00015935 0.0020245 0.00061913 0.0010986 0.0016532 0.0018018 0.0032141 0.0058214
0.25921 0.038439 0.0051428 0.0010191
0.00011576 -0.00063094 2.8835e-05 0.0010652 -0.001173 0.0016346 -0.0020693 0.0001473
0.0052216 0.0010419 0.27114 0.075562
1940000000 0.17709 -0.17218 -0.00013044 -0.001623 0.0014288 0.002048 -0.0037918 0.00075193
0.0017138 0.0013242 -0.00057069 -0.00056696
-0.00015754 -0.0016119 0.26493 0.096152 -0.0016009 0.0051413 0.0010837 0.0013058
0.0018059 0.00038151 0.00093827 0.00038377
0.0013083 0.0021148 -0.0015896 0.0050943 0.059027 -0.24205 0.00024722 -0.0021806
0.0025032 7.4638e-05 0.00039149 0.0017596
-0.0035873 0.0006081 0.0010813 0.0011714 0.000341 -0.0020314 0.11923 -0.16777
0.002535 0.0037143 -0.0016142 0.0014176
0.001591 0.0012205 0.0017806 0.00025708 0.0023951 0.00014943 0.0025771 0.003627
0.26294 -0.0011059 0.0035166 -0.0023958
-0.00074652 -0.00038821 0.00093254 0.00029662 0.00048542 0.0017697 -0.0017791 0.001355
0.0033703 -0.0023582 0.26298 0.03923
2000000000 0.12955 -0.1862 -0.0040626 0.00056813 0.0028589 0.0016139 -0.0020631 0.0035167
0.0015087 0.00020566 -0.00088274 0.00050777
-0.004021 0.00052004 0.25026 0.060335 -0.00060364 0.007082 0.0015443 0.0003728
0.0012257 -0.0011201 0.00049763 0.00016112
0.0028586 0.0015482 -0.00061048 0.0070954 0.017269 -0.227 -0.0014697 -0.0010703
0.0019067 -0.001439 0.0018572 0.0013394
-0.0021674 0.0037495 0.0014356 0.00041781 -0.0013272 -0.0011098 0.064294 -0.18018
0.00070802 0.0027089 3.383e-05 0.0021617
0.0015515 0.00029924 0.0011417 -0.0011643 0.0018859 -0.0013573 0.00098208 0.002635
0.25711 -0.034552 0.00059624 -0.0028934
