!Keysight Technologies,M9804A,MY58100912,A.14.10.03
!Date: Thursday, April 27, 2023 10:28:33
!Correction: S11(C  6-Port  ) 
!S12(C  6-Port  ) 
!S13(C  6-Port  ) 
!S14(C  6-Port  ) 
!S15(C  6-Port  ) 
!S16(C  6-Port  ) 
!S21(C  6-Port  ) 
!S22(C  6-Port  ) 
!S23(C  6-Port  ) 
!S24(C  6-Port  ) 
!S25(C  6-Port  ) 
!S26(C  6-Port  ) 
!S31(C  6-Port  ) 
!S32(C  6-Port  ) 
!S33(C  6-Port  ) 
!S34(C  6-Port  ) 
!S35(C  6-Port  ) 
!S36(C  6-Port  ) 
!S41(C  6-Port  ) 
!S42(C  6-Port  ) 
!S43(C  6-Port  ) 
!S44(C  6-Port  ) 
!S45(C  6-Port  ) 
!S46(C  6-Port  ) 
!S51(C  6-Port  ) 
!S52(C  6-Port  ) 
!S53(C  6-Port  ) 
!S54(C  6-Port  ) 
!S55(C  6-Port  ) 
!S56(C  6-Port  ) 
!S61(C  6-Port  ) 
!S62(C  6-Port  ) 
!S63(C  6-Port  ) 
!S64(C  6-Port  ) 
!S65(C  6-Port  ) 
!S66(C  6-Port  ) 
!S6P File: Measurement: :
# Hz S  RI   R 50
500000000 -0.32892 -0.057806 -0.011364 -0.0012286 -0.0078432 0.012452 -0.0044376 0.012472
0.01195 0.0042068 -0.0050761 0.0090937
-0.011385 -0.0012645 -0.41057 -0.071615 0.0072365 -0.010496 0.001107 0.012025
0.0071455 0.0026002 0.0011471 0.013619
-0.0079128 0.012401 0.0072602 -0.010471 -0.256 0.19493 0.0060432 0.0035484
-0.0016494 0.0082957 0.00012281 0.011395
-0.0044856 0.012505 0.0011265 0.01249 0.006151 0.0034823 -0.33006 0.043421
-0.020238 -0.0062653 0.01527 0.029156
0.011277 0.0045203 0.0065802 0.0022755 -0.001405 0.0077448 -0.019743 -0.006245
-0.25444 -0.16094 -0.027785 0.0044052
-0.0056627 0.0093291 0.00089917 0.014803 0.00056994 0.011456 0.014789 0.028571
-0.027684 0.0045324 -0.25518 -0.15146
560000000 -0.31331 0.10704 -0.023656 -0.065259 0.00088729 0.012478 0.0033578 0.011347
0.0094795 0.0026858 0.010655 0.0097921
-0.023625 -0.065248 -0.37038 0.091081 -0.040895 -0.03802 0.012619 0.0031596
-0.012344 -0.0034377 0.003468 -0.00099223
0.00065201 0.012668 -0.041471 -0.037531 -0.17952 0.24423 0.0004382 -0.0046805
0.017529 0.0051292 0.0081244 -0.0064076
0.0041372 0.010642 0.012908 0.0028895 0.00041735 -0.0047602 -0.30522 0.13527
0.0011286 -0.023392 0.0063729 -0.021475
0.009019 0.0036042 -0.013089 -0.0023282 0.017699 0.0058033 0.0029208 -0.024013
-0.30725 0.016089 0.006337 -0.050061
0.010796 0.0082291 0.0034763 -0.0022354 0.0091708 -0.0065379 0.0056897 -0.020015
0.0052416 -0.050953 -0.32746 -0.0020729
620000000 -0.27299 0.085173 -0.024223 0.0094505 0.0031701 0.0087335 0.0084897 -0.0041093
0.011371 3.042e-05 0.00069768 -0.0026152
-0.024149 0.0094616 -0.40041 0.038536 -0.01971 0.0013944 -0.0014027 -0.0016899
0.011894 -0.0057393 0.00017927 -0.002894
0.0034104 0.008643 -0.019694 0.0013928 -0.15332 0.25167 -0.00044171 -0.0049874
-0.0034281 -0.0024761 0.0089405 -0.0025815
0.007719 -0.0034409 -0.0016073 -0.0011316 -0.00047387 -0.0048684 -0.26612 0.14507
-0.040462 -0.017696 0.013507 0.030733
0.011103 -0.0023953 0.011354 -0.00692 -0.0036924 -0.0027085 -0.037948 -0.018623
-0.22972 -0.021853 -0.043307 0.013264
-0.0012281 -0.00097235 -0.00039102 -0.0023876 0.0089192 -0.0020273 0.011639 0.028645
-0.042882 0.013282 -0.24278 -0.03794
680000000 -0.23865 0.17852 -0.026196 -0.01365 0.0048424 0.0052332 0.0018324 -0.0070795
-0.0024165 -0.011764 0.0062222 -0.0070724
-0.026188 -0.013766 -0.38978 0.14224 -0.031861 -0.0010656 -0.0010968 -0.00035321
-0.0017555 -0.0095534 -0.00030604 -0.0017947
0.0048477 0.0050042 -0.03189 -0.00097626 -0.10533 0.27477 -0.00072397 -0.00073787
-0.0014959 0.00041902 -0.0029735 -0.0092477
0.0016378 -0.0064128 -0.001411 -0.0003193 -0.00072221 -0.00066153 -0.21973 0.19924
-0.025395 -0.0060537 -0.0080345 -0.012158
-0.0020732 -0.011156 -0.0015103 -0.009267 -0.0014333 0.00051289 -0.026064 -0.0052532
-0.27051 0.080778 -0.0075441 -0.0053699
0.0059133 -0.0065673 -0.00018448 -0.002014 -0.002717 -0.0090416 -0.0076518 -0.011765
-0.0068053 -0.0054955 -0.26118 0.067864
740000000 -0.19139 0.1718 -0.04009 0.027587 0.013199 -0.0039044 -0.00028369 -0.0042947
-0.0040586 -0.001673 -0.0070378 0.0015025
-0.040055 0.027476 -0.33437 0.16156 -0.03616 0.034244 -0.00032077 -0.0065436
-0.010175 0.0065416 -0.0015802 -0.0067694
0.013336 -0.0038637 -0.036145 0.034552 -0.071411 0.27402 -0.0019707 0.0029405
-0.002228 -0.0046733 -0.0010684 0.00050831
-0.00029575 -0.0046092 -0.00016137 -0.0067636 -0.0020177 0.0029128 -0.20223 0.20551
-0.041231 -0.0052628 0.023288 0.017449
-0.0035136 -0.0019827 -0.010156 0.0069966 -0.002164 -0.0050387 -0.041384 -0.0058272
-0.17622 0.10365 -0.041315 0.0013171
-0.0067584 0.0017481 -0.0016002 -0.0067439 -0.0008681 0.00028924 0.022797 0.017467
-0.040882 2.743e-05 -0.25293 0.072846
800000000 -0.16302 0.2164 -0.021481 0.016432 0.0053909 -0.010167 -0.0037343 -0.0025001
-0.0044836 0.0015695 0.0049979 -3.2969e-06
-0.021446 0.016444 -0.34254 0.23216 -0.0079953 0.034048 -0.0022551 0.0020525
-0.00086738 0.0020374 0.00056186 0.0053247
0.0054522 -0.010247 -0.0077888 0.034016 -0.034199 0.29965 0.00065215 0.0015388
-5.899e-05 0.003488 -0.0013143 0.00076261
-0.0039272 -0.0027566 -0.0024429 0.0017858 0.00062389 0.0015503 -0.17242 0.23488
-0.027519 0.015207 0.015985 -0.010222
-0.0041711 0.001374 -0.00050341 0.0021895 -3.333e-06 0.0033833 -0.026967 0.015163
-0.2115 0.1305 -0.017552 0.02054
0.00521 -0.00041137 0.00087993 0.0048199 -0.0013634 0.00055665 0.015274 -0.0098027
-0.017736 0.020086 -0.25084 0.12531
860000000 -0.12749 0.23703 -0.017163 0.030247 -0.0031309 -0.0098648 -0.0017478 0.00047816
0.0037307 0.0043614 -0.0037344 -0.0032954
-0.017219 0.03023 -0.29383 0.27622 0.008001 0.033761 -0.0001261 0.0019676
0.0041558 0.00066535 0.0033298 8.8607e-05
-0.0031877 -0.0099269 0.0081005 0.033805 0.014475 0.3096 -0.00045768 -0.00015334
0.0025463 -0.0011936 0.0013344 0.0040034
-0.0017352 0.00041264 -5.1522e-05 0.0020706 -0.00044661 -0.00017422 -0.13377 0.24544
-0.015899 0.019493 -0.0067826 -0.0097859
0.0036023 0.0044278 0.0035986 0.00069866 0.0024002 -0.0012136 -0.01568 0.01973
-0.15471 0.17605 -0.022391 0.01645
-0.0038229 -0.0030227 0.0034574 0.00041192 0.0014173 0.0041416 -0.0069129 -0.010138
-0.022024 0.01636 -0.1986 0.17421
920000000 -0.10516 0.25941 0.0054507 0.038661 -0.0089996 -0.0044844 -0.0021014 0.0012781
0.00078875 0.0016112 0.0030256 -0.0011898
0.0053398 0.03863 -0.26711 0.2969 0.028274 0.022494 0.0013119 0.0012928
0.0071122 -0.00047509 0.0042023 -0.0024714
-0.0089614 -0.0044488 0.028377 0.022377 0.059975 0.31129 0.0019992 9.4964e-05
0.00092391 -0.0002819 0.00092646 -0.0013635
-0.0020379 0.0015504 0.0014064 0.0011958 0.0020107 9.764e-05 -0.10969 0.26063
-0.0082443 0.030539 0.0046536 -0.006081
0.00073517 0.0016025 0.0073847 -0.00040406 0.00081701 -0.00026368 -0.0081722 0.030464
-0.14207 0.18157 -0.00052447 0.027391
0.0028424 -0.0010584 0.004222 -0.00255 0.00083118 -0.0013736 0.0046782 -0.0062412
-0.00034205 0.027029 -0.21212 0.18532
980000000 -0.058754 0.28173 0.017002 0.029461 -0.0090543 0.004329 0.0013645 0.0034968
0.0034785 -0.0016152 -0.0032613 -0.0026808
0.017011 0.029435 -0.21568 0.3342 0.032922 0.0047248 0.0020203 -3.6734e-05
0.0018097 -0.0059677 -0.00039474 -0.0023448
-0.009095 0.00434 0.032985 0.0046114 0.10651 0.30716 0.00068759 -0.0011763
0.00048939 -0.0018102 0.0012142 -0.00024136
0.0015248 0.0034882 0.0019098 0.00014974 0.00068805 -0.0011602 -0.070605 0.27212
0.010305 0.028159 -0.0092811 -0.0079815
0.0035168 -0.0015673 0.0017241 -0.0059164 0.00042063 -0.0018 0.010231 0.028016
-0.10819 0.20797 0.0073384 0.019236
-0.0032723 -0.0022874 -0.00049835 -0.002367 0.0013646 -0.00019211 -0.0093674 -0.0079763
0.0070263 0.019117 -0.17056 0.23604
1040000000 -0.017081 0.28944 0.032889 0.018635 -0.0012734 0.0071621 0.0021914 0.00083482
0.00042 -0.0034697 -0.00033122 -0.0013748
0.032864 0.01861 -0.18005 0.347 0.029353 -0.014686 0.0016097 -0.0017077
-0.0022137 -0.0025499 -0.0011033 -0.0030168
-0.0012116 0.0071424 0.029361 -0.014801 0.15371 0.29348 -0.00046093 -0.0015546
-0.0015421 -0.0010834 -0.00063256 -0.0010965
0.0020822 0.00076263 0.0016474 -0.0017768 -0.00046674 -0.0015637 -0.042369 0.28042
0.020654 0.016429 -0.0012709 0.00096261
0.00050771 -0.0034716 -0.0021586 -0.0025715 -0.0014733 -0.001024 0.020866 0.016353
-0.075198 0.21427 0.014478 0.017692
-0.00031924 -0.0015985 -0.0011009 -0.0030611 -0.00066001 -0.0010923 -0.0014519 0.0010339
0.014314 0.017538 -0.14901 0.25652
1100000000 0.026488 0.29978 0.036082 -0.003873 0.0031776 0.0039402 0.0022558 -0.00065635
-0.0022025 -0.0029453 -0.0040559 6.8033e-05
0.036041 -0.0038758 -0.13805 0.36712 0.015128 -0.027754 3.3431e-05 -0.0018176
-0.0036462 -0.00089142 -0.0037111 -0.00060364
0.0031848 0.0039424 0.015016 -0.027822 0.19941 0.2745 -0.001826 0.00016634
-0.0017178 0.00056021 -0.0010787 -0.00039763
0.0021969 -0.00071722 6.7663e-06 -0.0017405 -0.0018279 0.00015121 -0.0026321 0.28524
0.025094 0.0028212 -0.0024188 -0.00094931
-0.0021897 -0.0028927 -0.0036443 -0.00094164 -0.0017858 0.00059503 0.025204 0.0027339
-0.055213 0.22584 0.019706 0.0072698
-0.0040309 -6.464e-05 -0.0037984 -0.0007704 -0.0010536 -0.00039255 -0.0022456 -0.00094476
0.019608 0.0070225 -0.10522 0.29086
1160000000 0.078619 0.2967 0.023903 -0.020579 0.003045 -0.00055939 4.8594e-05 -0.0022289
-0.0037729 -0.00060776 -0.0012178 0.0042629
0.023901 -0.020561 -0.093199 0.37186 -0.0037819 -0.028695 -0.0013721 -0.0016683
-0.0028502 0.002538 -0.0016126 0.0020117
0.0030125 -0.00059652 -0.0039091 -0.028717 0.24406 0.24438 -0.00083114 0.0016974
-0.0006326 0.0017187 -0.00086872 0.00034812
-1.2222e-05 -0.0021091 -0.0014638 -0.0017133 -0.00084309 0.001699 0.037978 0.28138
0.020714 -0.012345 -0.0040546 0.0045779
-0.0038975 -0.00080758 -0.002809 0.002511 -0.00056931 0.0016723 0.020745 -0.012244
-0.019731 0.23293 0.018125 -0.0017487
-0.0013124 0.0042895 -0.0014637 0.0019072 -0.00082534 0.00045355 -0.0039165 0.004497
0.018196 -0.0018564 -0.056385 0.29408
1220000000 0.12171 0.28642 0.0109 -0.029968 -0.0014025 -0.0011608 0.00027723 -0.00081061
-0.0026937 0.0022204 0.0011092 0.0021655
0.010892 -0.029933 -0.050273 0.38551 -0.016856 -0.021083 -0.00259 0.00037566
-0.00015 0.0031113 -0.00091365 0.0019922
-0.0014295 -0.0011563 -0.016946 -0.021022 0.28322 0.20546 0.00080541 0.001759
0.00062486 0.0011395 0.00024093 0.00054889
0.00032669 -0.00085078 -0.0026027 0.00043785 0.00080887 0.0017495 0.077033 0.27164
0.0097982 -0.018612 0.0014095 0.0011075
-0.0026079 0.0022172 -0.00010437 0.0031292 0.0006647 0.0011403 0.0097656 -0.018724
0.0047999 0.23884 0.012907 -0.013543
0.0011379 0.0022034 -0.00098312 0.0019864 0.00026528 0.00051855 0.001387 0.001025
0.012793 -0.013397 -0.027579 0.31337
1280000000 0.17229 0.26774 -0.0077884 -0.028661 -0.0018719 0.0020953 -0.00068396 -0.0022336
-0.00077485 0.0030453 0.0025001 0.0014653
-0.0077679 -0.028617 -0.0038241 0.37854 -0.023929 -0.008099 -0.001162 0.0013874
0.0016986 0.0019557 0.00067941 0.0021812
-0.0019082 0.0020931 -0.02397 -0.0079974 0.31463 0.1629 0.0015712 7.5479e-05
0.0011416 0.00024017 0.00032785 0.00029612
-0.00071945 -0.0021839 -0.0011858 0.0014175 0.0015734 7.6291e-05 0.1139 0.25501
-0.00029196 -0.020448 -0.0011458 0.00041605
-0.00078231 0.0030751 0.0016925 0.0019374 0.0011603 0.00026699 -0.0003157 -0.020427
0.040883 0.24154 0.002265 -0.015466
0.0025312 0.0015433 0.00064152 0.002197 0.00032153 0.00020012 -0.0011171 0.00037442
0.0021964 -0.015488 0.020691 0.3182
1340000000 0.21032 0.2341 -0.017308 -0.019056 0.00047796 0.004315 -0.0017494 -0.0008983
0.0014004 0.0026715 0.0020042 -0.0014659
-0.017258 -0.019038 0.036012 0.37109 -0.021153 0.0045296 -0.00034791 0.0021817
0.0019757 0.00086483 0.0012586 0.00088276
0.00054463 0.0043117 -0.021114 0.0046471 0.33815 0.11402 0.0011378 -0.00083591
0.00062546 -0.00044017 0.00017998 0.00025409
-0.0017695 -0.00085388 -0.0003105 0.0021354 0.0011509 -0.00085676 0.14636 0.2325
-0.009871 -0.017137 0.00049892 0.0012737
0.0013329 0.0026571 0.0020052 0.00085391 0.00058082 -0.00050622 -0.0099633 -0.017162
0.071289 0.23422 -0.0045803 -0.013671
0.0019169 -0.0014457 0.001259 0.00085233 9.5902e-05 0.00027859 0.00046425 0.0012202
-0.0045641 -0.013615 0.05948 0.31501
1400000000 0.24373 0.19774 -0.023438 -0.0076992 0.0049349 0.0031813 -0.0023025 0.00048047
0.0023563 0.0011393 0.00056279 -0.0014205
-0.023396 -0.0076969 0.073157 0.35968 -0.014426 0.012517 0.0013834 0.0016141
0.0014315 -0.00071104 0.0011699 0.00021211
0.0049531 0.0031938 -0.0144 0.012599 0.35151 0.060222 0.00013603 -0.0016119
9.6865e-05 -0.00036717 0.00031995 0.00027759
-0.0023441 0.00046458 0.0013668 0.0016066 0.00010973 -0.0016464 0.17389 0.20329
-0.015991 -0.010098 -0.0010455 0.00055238
0.0024437 0.0010254 0.0014504 -0.00071364 6.4677e-05 -0.00038938 -0.016054 -0.0099855
0.10313 0.22862 -0.010551 -0.0085369
0.00057975 -0.0015341 0.0011121 0.0001499 0.00021407 0.00031086 -0.0010174 0.00057401
-0.010588 -0.0087202 0.10436 0.30688
1460000000 0.26839 0.15456 -0.020361 0.0047696 0.0052622 -0.0016542 -0.0016858 0.0018453
0.0021183 -0.0003018 -0.00025417 -0.0010928
-0.020358 0.0047412 0.10895 0.33865 -0.0054443 0.015307 0.0019528 0.00029883
0.0009837 -0.0015469 0.001296 -0.00055372
0.0052473 -0.001655 -0.0053332 0.015371 0.35854 0.0047283 -0.0011363 -0.001441
0.0001513 -0.00028129 0.0005158 -0.00022853
-0.001664 0.0019314 0.0019695 0.00029454 -0.0011355 -0.0014484 0.19974 0.17414
-0.017238 -0.0027482 -0.00037072 0.0027006
0.0021658 -0.00027735 0.00099779 -0.0015687 0.00014716 -0.00021884 -0.017314 -0.0027866
0.13298 0.21331 -0.012225 -0.0023008
-0.00017811 -0.0010709 0.0013089 -0.0005772 0.00075414 -0.00026581 -0.0003679 0.0027767
-0.012255 -0.0023286 0.13916 0.28759
1520000000 0.28094 0.11231 -0.014793 0.010134 0.0033223 -0.0039458 5.4256e-05 0.0027656
0.0021952 -0.0017875 -0.0011063 -0.000291
-0.014773 0.010109 0.14286 0.3242 0.0020812 0.012636 0.0019067 -0.00084674
4.1074e-05 -0.0012068 0.00042957 -0.00099659
0.0032463 -0.0039794 0.0021257 0.012613 0.3507 -0.053889 -0.0011392 -0.00049404
0.00057684 -0.0008809 0.00016513 -9.2221e-05
8.4102e-05 0.0027503 0.0019145 -0.00084448 -0.0011203 -0.00046988 0.22093 0.13567
-0.016301 0.003521 0.0020144 0.0022549
0.0022008 -0.0017976 2.4505e-05 -0.0011869 0.00060223 -0.00078045 -0.016257 0.0035804
0.16059 0.19822 -0.01189 0.0020712
-0.0011833 -0.00026448 0.00038274 -0.00097562 0.00015673 -8.0574e-05 0.0020058 0.0023058
-0.011823 0.0019692 0.17275 0.26896
1580000000 0.29114 0.067363 -0.0081898 0.01352 -0.0010283 -0.0046991 0.0016285 0.0020985
-3.1748e-06 -0.0021678 -0.00041971 0.00053198
-0.0082011 0.013479 0.17071 0.30073 0.0054734 0.007522 0.00059823 -0.0017863
-0.00073577 -0.0010867 -0.0001453 -0.00076611
-0.0010075 -0.0046685 0.0055091 0.007539 0.32902 -0.1104 -0.0018465 0.00059031
-0.00030687 -0.001241 0.00027298 -0.00056086
0.0016567 0.0021176 0.00060715 -0.0018167 -0.0018025 0.00055316 0.2334 0.098185
-0.012569 0.0088504 0.0028887 0.00069208
-8.9127e-05 -0.0021801 -0.00071997 -0.0010787 -0.00025693 -0.0012462 -0.012527 0.0088796
0.18456 0.18082 -0.0090657 0.0076587
-0.00027892 0.00056024 -7.9305e-05 -0.00078604 0.00036717 -0.00059023 0.002853 0.00065831
-0.0090454 0.0076047 0.20633 0.24505
1640000000 0.29449 0.025156 -0.001375 0.01231 -0.0026948 -0.0024165 0.0030287 0.0010108
-0.00050219 -0.0017947 -0.00023807 0.0005697
-0.0013633 0.012309 0.20189 0.27551 0.0057685 0.002643 -0.00073392 -0.0019704
-0.0010356 -0.00031407 -0.000416 -0.00079131
-0.0026995 -0.0024356 0.0058006 0.0026321 0.29964 -0.161 -0.00075317 0.0016665
-0.00088038 -0.00095367 -3.9683e-05 -0.00048517
0.0029846 0.0009877 -0.0007959 -0.0019842 -0.00078413 0.0016165 0.24552 0.050345
-0.0078213 0.010578 0.0027057 -0.0012064
-0.0006115 -0.0017622 -0.0011 -0.00031387 -0.00095231 -0.0010742 -0.0078202 0.01065
0.20774 0.1546 -0.0043035 0.0096225
-0.00021913 0.00056295 -0.00040032 -0.00078223 -0.00010806 -0.00051876 0.0026723 -0.0011597
-0.0043042 0.009621 0.23386 0.21409
1700000000 0.28648 -0.019914 0.0021295 0.0095802 -0.0033459 0.00024491 0.0033043 -0.0015408
-0.0021988 -0.00093849 0.00055427 0.00041122
0.0021292 0.0095692 0.21961 0.24463 0.0033718 -0.00014827 -0.0016887 -0.00064483
-0.00083721 0.0001493 -0.0008958 -0.0005541
-0.0033185 0.0002418 0.0033871 -0.00011229 0.25393 -0.19964 0.0004961 0.0017326
-0.002119 -9.3166e-05 -0.00041307 -0.00096805
0.0033113 -0.0014924 -0.0016831 -0.0006004 0.00053989 0.0017887 0.24176 0.0028131
-0.0042991 0.011429 0.0017069 -0.0023747
-0.0021763 -0.00084363 -0.00086895 0.00018215 -0.0021679 -6.4504e-05 -0.0042638 0.01141
0.22466 0.13355 0.00045381 0.0096192
0.00055466 0.00035725 -0.00090387 -0.00057042 -0.00041293 -0.00087473 0.0017197 -0.0023287
0.00049634 0.0095523 0.25125 0.18134
1760000000 0.27582 -0.068414 0.004556 0.0061474 -0.0019982 0.00093889 0.0010772 -0.0038006
-0.001634 0.00053392 0.00035052 -0.00063281
0.0045803 0.0061108 0.24748 0.20531 0.00079958 -0.001716 -0.0013846 0.00023638
-0.00093056 0.0010354 -0.00059586 0.00024087
-0.0020308 0.00092129 0.00081955 -0.0017789 0.2049 -0.23066 0.0013467 0.00108
-0.0012268 0.0016311 -0.0013437 -0.00071669
0.0011094 -0.0038814 -0.0014008 0.00024509 0.0013693 0.0011023 0.23545 -0.046228
-0.00023629 0.010426 -0.00016109 -0.0028332
-0.001588 0.00055874 -0.0009089 0.001021 -0.0012424 0.0016485 -0.0002289 0.010416
0.23993 0.099447 0.0042582 0.0068022
0.00022599 -0.00054799 -0.00066664 0.0002919 -0.0013771 -0.00059349 -0.00015385 -0.0028461
0.0041953 0.0068198 0.26607 0.14435
1820000000 0.25092 -0.10646 0.0047799 0.0025208 8.4902e-05 0.0021784 -0.0012201 -0.0030582
-0.0013808 0.0011874 -0.00017125 -0.00019084
0.0047556 0.0025085 0.25774 0.17451 -0.001367 -0.00013713 -0.0013395 0.0011189
7.909e-05 0.0012006 -0.00072142 0.00039944
5.7176e-05 0.0021637 -0.0013857 -7.0546e-05 0.15326 -0.24478 0.0016997 0.00026003
1.5531e-05 0.0024956 -0.0017574 0.00024499
-0.0012057 -0.003152 -0.0012687 0.0011185 0.0017229 0.00024786 0.20695 -0.093713
0.0018381 0.0084445 -0.001735 -0.001696
-0.001279 0.001224 0.00012256 0.001217 -1.5045e-05 0.0025522 0.0018474 0.0084516
0.25585 0.069054 0.0050242 0.0033895
-5.67e-05 -0.000171 -0.00064871 0.0004156 -0.0015861 0.00035175 -0.0017555 -0.0017178
0.0050074 0.003382 0.2698 0.10843
1880000000 0.21529 -0.14554 0.0022194 1.878e-05 -0.00073336 0.002134 -0.0031709 -0.0019726
-0.00022 0.0020807 0.00011366 -0.00055871
0.0022373 6.0169e-05 0.2626 0.12889 -0.0034845 0.0023905 -0.00021092 0.0017362
0.00059847 0.0011081 -2.1311e-06 0.0010705
-0.0007667 0.0021629 -0.0034932 0.002403 0.10099 -0.25075 0.001359 -0.0012439
0.0016347 0.0018895 -0.0010519 0.0016927
-0.0032652 -0.0020316 -0.00023741 0.0016915 0.0014562 -0.0012249 0.16917 -0.13366
0.0031855 0.0057716 -0.0025025 0.00012379
-0.00022421 0.0020229 0.00060156 0.001042 0.0017148 0.0017872 0.0032111 0.0057769
0.25942 0.038233 0.005062 0.0010597
0.0001892 -0.00050461 9.4318e-06 0.001039 -0.0011479 0.001713 -0.0025103 9.6695e-05
0.0050321 0.001033 0.27136 0.075392
1940000000 0.17708 -0.17223 -0.00021541 -0.0016536 0.0013792 0.0021011 -0.003675 0.00076281
0.0016213 0.00134 -0.00056511 -0.00050364
-0.00010999 -0.001614 0.26487 0.096163 -0.0016153 0.0051393 0.0010903 0.001295
0.001746 0.00039076 0.00099226 0.00037778
0.001447 0.0021035 -0.0015404 0.005171 0.059115 -0.24206 0.00016836 -0.0019927
0.0024659 0.00020067 0.00049541 0.0017593
-0.003741 0.00087955 0.0010351 0.0013004 0.00020698 -0.0020625 0.11905 -0.16775
0.0025345 0.0037747 -0.0016028 0.0014067
0.0014495 0.0013105 0.0017253 0.00031707 0.002417 8.7519e-05 0.0026509 0.0038224
0.26273 -0.001185 0.0035778 -0.0023669
-0.00068778 -0.00047696 0.00094244 0.00025526 0.00044346 0.0016827 -0.0015474 0.0015212
0.0036298 -0.0023541 0.26281 0.039207
2000000000 0.12979 -0.18612 -0.0040598 0.00066461 0.0027982 0.0017359 -0.0021599 0.0036551
0.0014004 0.00015562 -0.00063301 0.00066174
-0.0040316 0.00062052 0.25025 0.060387 -0.00063671 0.006998 0.0015268 0.00048244
0.0012029 -0.0011646 0.00054232 0.00023378
0.0028243 0.0015823 -0.00052299 0.0071205 0.017575 -0.22743 -0.0011862 -0.00096113
0.0019186 -0.0013923 0.0018939 0.0014822
-0.0021 0.0036934 0.0014723 0.00051253 -0.0012434 -0.0009693 0.064566 -0.17965
0.00079145 0.0026723 -0.00019106 0.0022484
0.0014461 0.00015732 0.0011032 -0.0011091 0.0018515 -0.0013617 0.00099117 0.0026724
0.25723 -0.034792 0.00039199 -0.0029511
