!Keysight Technologies,M9804A,MY58100912,A.14.10.03
!Date: Thursday, April 27, 2023 10:28:33
!Correction: S11(C  6-Port  ) 
!S12(C  6-Port  ) 
!S13(C  6-Port  ) 
!S14(C  6-Port  ) 
!S15(C  6-Port  ) 
!S16(C  6-Port  ) 
!S21(C  6-Port  ) 
!S22(C  6-Port  ) 
!S23(C  6-Port  ) 
!S24(C  6-Port  ) 
!S25(C  6-Port  ) 
!S26(C  6-Port  ) 
!S31(C  6-Port  ) 
!S32(C  6-Port  ) 
!S33(C  6-Port  ) 
!S34(C  6-Port  ) 
!S35(C  6-Port  ) 
!S36(C  6-Port  ) 
!S41(C  6-Port  ) 
!S42(C  6-Port  ) 
!S43(C  6-Port  ) 
!S44(C  6-Port  ) 
!S45(C  6-Port  ) 
!S46(C  6-Port  ) 
!S51(C  6-Port  ) 
!S52(C  6-Port  ) 
!S53(C  6-Port  ) 
!S54(C  6-Port  ) 
!S55(C  6-Port  ) 
!S56(C  6-Port  ) 
!S61(C  6-Port  ) 
!S62(C  6-Port  ) 
!S63(C  6-Port  ) 
!S64(C  6-Port  ) 
!S65(C  6-Port  ) 
!S66(C  6-Port  ) 
!S6P File: Measurement: :
# Hz S  RI   R 50
500000000 -0.3284 -0.058084 -0.011367 -0.001315 -0.0081982 0.012397 -0.0038374 0.012522
0.011635 0.0048379 -0.0049545 0.0094365
-0.011371 -0.0013421 -0.41049 -0.071583 0.0071539 -0.010366 0.0010703 0.012267
0.007312 0.0024225 0.0010621 0.013907
-0.0080723 0.012403 0.0071676 -0.010362 -0.25585 0.19479 0.006236 0.0033635
-0.0013046 0.0079232 0.00039448 0.011561
-0.0039647 0.012604 0.0010493 0.012284 0.0062219 0.0033803 -0.33011 0.043758
-0.020465 -0.0059699 0.015173 0.028606
0.011607 0.004707 0.0073242 0.0024154 -0.0013642 0.0078954 -0.020373 -0.0059305
-0.25455 -0.16149 -0.027708 0.0050382
-0.0051647 0.0093522 0.0010677 0.013897 0.00032163 0.011557 0.015141 0.028567
-0.027708 0.0050406 -0.25488 -0.15234
560000000 -0.31338 0.10726 -0.023688 -0.064901 0.00038974 0.012497 0.0047361 0.011222
0.0090657 0.0035253 0.010886 0.0091712
-0.023648 -0.064837 -0.37015 0.091785 -0.041851 -0.037947 0.013687 0.0032298
-0.012379 -0.0032827 0.0039178 -0.00079616
0.00039538 0.012419 -0.041971 -0.037891 -0.17881 0.24347 0.00020873 -0.0041057
0.017476 0.0047285 0.008102 -0.0061699
0.0047579 0.011277 0.013694 0.003203 0.00024276 -0.0041352 -0.30585 0.13473
0.0025303 -0.022931 0.0062045 -0.021316
0.00902 0.003541 -0.012415 -0.0032912 0.017376 0.0047669 0.0025915 -0.022966
-0.30761 0.014329 0.0059119 -0.049557
0.010955 0.009204 0.0038746 -0.00081635 0.008154 -0.0062613 0.0061435 -0.021248
0.0059423 -0.049551 -0.32738 -0.0024118
620000000 -0.27327 0.08568 -0.024342 0.00972 0.0033102 0.0089658 0.0082943 -0.004415
0.011625 -0.00072814 0.00018608 -0.0018328
-0.024339 0.0097028 -0.4003 0.038671 -0.019685 0.0014624 -0.0018411 -0.0014561
0.011756 -0.0061673 9.8557e-05 -0.0026513
0.0033484 0.0089339 -0.019716 0.0015045 -0.15299 0.25167 -0.00034253 -0.0050567
-0.0035667 -0.0025822 0.0091124 -0.0023646
0.0082919 -0.0043448 -0.0018287 -0.001451 -0.00034272 -0.0050671 -0.26451 0.14525
-0.040667 -0.018588 0.0132 0.030738
0.011487 -0.00085765 0.011769 -0.0061621 -0.0036024 -0.0025476 -0.040598 -0.018596
-0.22999 -0.020837 -0.043326 0.012787
0.00028688 -0.0017621 6.2306e-05 -0.0026756 0.0091175 -0.0024162 0.013125 0.030773
-0.043327 0.012782 -0.24272 -0.038453
680000000 -0.23825 0.17819 -0.025891 -0.013652 0.0050538 0.0051564 0.0015133 -0.0067964
-0.0022886 -0.011194 0.0062709 -0.0067016
-0.025872 -0.013622 -0.38976 0.14242 -0.031925 -0.0010923 -0.0012805 -0.00056801
-0.0018171 -0.0093254 -0.00045269 -0.0016866
0.0050983 0.0051503 -0.031948 -0.0010115 -0.10548 0.27474 -0.0007428 -0.00062989
-0.0016249 0.00035579 -0.0028756 -0.0089971
0.0014658 -0.0067801 -0.001293 -0.00057766 -0.00075207 -0.00063208 -0.21985 0.20001
-0.025392 -0.0059139 -0.0081649 -0.012111
-0.0023127 -0.011192 -0.0018555 -0.0093445 -0.001644 0.00036456 -0.025422 -0.0058981
-0.27157 0.080102 -0.0068544 -0.005073
0.0062067 -0.006619 -0.00042011 -0.0017077 -0.0028999 -0.0090034 -0.0081951 -0.012136
-0.0068523 -0.0050634 -0.26079 0.067307
740000000 -0.19137 0.17245 -0.040201 0.027247 0.013483 -0.0039241 -0.00011949 -0.0043822
-0.0035475 -0.0012659 -0.0069922 0.0012115
-0.040222 0.027188 -0.33448 0.16215 -0.036467 0.034099 -5.7391e-05 -0.0064861
-0.010626 0.0068053 -0.0017791 -0.0066737
0.01348 -0.0039907 -0.036398 0.03422 -0.071528 0.27389 -0.0020079 0.0029125
-0.0024781 -0.0045655 -0.0010791 0.00041586
-0.00014881 -0.0043733 -6.0616e-05 -0.006491 -0.0020058 0.002929 -0.20203 0.20539
-0.041205 -0.0050691 0.023176 0.017247
-0.0036798 -0.0014285 -0.010686 0.0068253 -0.0025045 -0.0045731 -0.041238 -0.0049985
-0.1768 0.10325 -0.040383 0.00154
-0.0070235 0.0012985 -0.0018284 -0.0066295 -0.0011255 0.00039206 0.023225 0.017323
-0.040401 0.0015028 -0.25291 0.072539
800000000 -0.16307 0.21654 -0.02152 0.016567 0.0054446 -0.010236 -0.0037008 -0.0027219
-0.0044524 0.0014883 0.0050247 0.00012769
-0.021525 0.016529 -0.34252 0.23221 -0.0078766 0.034029 -0.0023623 0.0019375
-0.00057388 0.0021211 0.00054692 0.0052002
0.0054251 -0.010245 -0.007783 0.034071 -0.034147 0.29964 0.00069223 0.001524
-7.4697e-06 0.0033211 -0.0013669 0.00076561
-0.0036759 -0.0026768 -0.0023588 0.0019507 0.00070083 0.0015243 -0.1722 0.2347
-0.027336 0.015309 0.015942 -0.01035
-0.0045169 0.0014282 -0.00060163 0.0020592 -3.5015e-05 0.0033212 -0.027335 0.015312
-0.21156 0.13024 -0.017307 0.020514
0.0049964 0.00010316 0.000552 0.0051452 -0.0013729 0.00070736 0.01595 -0.01041
-0.017313 0.020492 -0.25025 0.12529
860000000 -0.12743 0.23711 -0.017072 0.030347 -0.0031376 -0.0098208 -0.0016641 0.00046223
0.0037445 0.0045953 -0.0038583 -0.0033066
-0.017098 0.030312 -0.29378 0.27657 0.0080517 0.033888 3.4145e-05 0.0021389
0.0038007 0.00091297 0.003213 -2.3981e-05
-0.0031618 -0.0098215 0.0081507 0.0339 0.014479 0.30965 -0.00050009 -9.1328e-05
0.0024622 -0.0012366 0.001343 0.0040131
-0.0017102 0.00047882 5.6679e-05 0.0021392 -0.00049961 -8.7841e-05 -0.13385 0.24525
-0.015869 0.019767 -0.0066091 -0.0098653
0.0037374 0.0046067 0.0037775 0.00087039 0.0024617 -0.0012299 -0.015806 0.019786
-0.15513 0.17653 -0.022538 0.016151
-0.003893 -0.0032724 0.0032661 -1.4212e-05 0.001347 0.004012 -0.0066476 -0.0098454
-0.022529 0.016131 -0.19871 0.17473
920000000 -0.10504 0.25939 0.0054221 0.038592 -0.0089536 -0.0044889 -0.0019557 0.0013829
0.00072494 0.0014114 0.0028755 -0.0011216
0.0053932 0.038567 -0.26715 0.29688 0.028292 0.022352 0.0014691 0.001234
0.0071619 -0.00059439 0.0041928 -0.0024589
-0.0089592 -0.0044753 0.028374 0.022303 0.060001 0.31129 0.0020309 0.00012102
0.00077491 -0.00028834 0.00089964 -0.0013243
-0.0019533 0.0013845 0.0014872 0.0012318 0.0020318 0.00012554 -0.10956 0.26094
-0.0082443 0.030574 0.0046403 -0.0060075
0.00075518 0.0013993 0.0071605 -0.00065152 0.00080097 -0.00028288 -0.0082085 0.030609
-0.14238 0.18218 -0.00064244 0.027333
0.0028682 -0.0011267 0.0042365 -0.0024364 0.00086232 -0.0013252 0.0046464 -0.0060492
-0.00065523 0.027326 -0.21219 0.18589
980000000 -0.058719 0.28175 0.017191 0.029439 -0.0090861 0.0043441 0.0014905 0.0035479
0.0035872 -0.0016508 -0.0033223 -0.0026234
0.017127 0.029421 -0.21559 0.33438 0.03295 0.0047573 0.0019214 0.00010977
0.0017675 -0.0059453 -0.00029857 -0.0024064
-0.0090674 0.0043639 0.032977 0.0046492 0.10651 0.30721 0.00063634 -0.001099
0.00049507 -0.0018254 0.001284 -0.00023828
0.0014798 0.0035458 0.0019334 0.0001013 0.00063924 -0.0011002 -0.070504 0.2719
0.010315 0.027978 -0.0092571 -0.0079234
0.0035852 -0.0016879 0.0017474 -0.0059801 0.00048798 -0.001821 0.010371 0.027973
-0.10812 0.20805 0.0072119 0.019086
-0.0033377 -0.0026557 -0.00033162 -0.0024167 0.0012949 -0.00023696 -0.0092702 -0.0079276
0.0071994 0.019086 -0.17048 0.23594
1040000000 -0.01697 0.28936 0.03296 0.018628 -0.0012813 0.0071588 0.0021157 0.00079542
0.00045038 -0.0033992 -0.00038983 -0.0013961
0.032886 0.018647 -0.17997 0.34717 0.029391 -0.014708 0.001604 -0.0017121
-0.002197 -0.0025897 -0.0010343 -0.0029215
-0.0012366 0.0071562 0.029353 -0.014806 0.15371 0.2935 -0.00044215 -0.0015889
-0.0014856 -0.0010564 -0.00064645 -0.0011055
0.0021041 0.00078969 0.0016128 -0.0017356 -0.00044544 -0.0015851 -0.042456 0.28043
0.020737 0.016447 -0.0013396 0.0010147
0.00041222 -0.0033853 -0.0022243 -0.0025989 -0.0014951 -0.0010515 0.020766 0.016414
-0.075204 0.2139 0.01444 0.017639
-0.00038985 -0.0014027 -0.0010746 -0.0029182 -0.0006373 -0.0010985 -0.0013212 0.0010202
0.014422 0.017642 -0.14896 0.25667
1100000000 0.026596 0.29978 0.036045 -0.0039344 0.0031514 0.0039792 0.002287 -0.00070601
-0.0022005 -0.0028903 -0.0040049 3.5213e-05
0.036014 -0.0039013 -0.13808 0.36707 0.015126 -0.027754 3.14e-06 -0.0018016
-0.0035881 -0.00087269 -0.0037705 -0.00060785
0.003164 0.0039709 0.015035 -0.027827 0.19941 0.27453 -0.0018158 0.00011625
-0.0016796 0.00057881 -0.0010611 -0.00044657
0.0022707 -0.00071733 2.8923e-06 -0.0018052 -0.0018169 0.00012601 -0.0026599 0.28511
0.025077 0.0028036 -0.0023689 -0.0009826
-0.0022103 -0.0028897 -0.0035946 -0.0008822 -0.001683 0.00058065 0.025102 0.0027569
-0.055096 0.2258 0.019659 0.0072051
-0.0040381 5.0146e-05 -0.0037785 -0.00058054 -0.0010633 -0.00044112 -0.0023962 -0.00097495
0.019644 0.0072076 -0.10515 0.29101
1160000000 0.078663 0.29668 0.023981 -0.020577 0.0030305 -0.00062362 1.9343e-05 -0.0021629
-0.0037837 -0.00076973 -0.0011816 0.0043314
0.023963 -0.020525 -0.093123 0.37182 -0.0037853 -0.028747 -0.0014907 -0.0016909
-0.0028326 0.0025196 -0.0015772 0.0020567
0.0030438 -0.00062922 -0.0039184 -0.028749 0.24409 0.24443 -0.00079316 0.0016821
-0.00056387 0.0016862 -0.00082115 0.00034941
-5.8442e-06 -0.0021722 -0.0014899 -0.0016892 -0.00079367 0.0016802 0.037998 0.2815
0.020649 -0.012329 -0.0041376 0.0045305
-0.0037968 -0.00075718 -0.0028125 0.0025123 -0.00056043 0.0016821 0.020624 -0.012353
-0.01971 0.23289 0.01802 -0.0016774
-0.001168 0.0043759 -0.001575 0.0020638 -0.00081987 0.00035815 -0.0041178 0.0045371
0.01802 -0.0016835 -0.056127 0.29445
1220000000 0.1218 0.28642 0.010901 -0.02999 -0.0014676 -0.001167 0.00029343 -0.00088003
-0.0025402 0.0021384 0.0010701 0.0021714
0.0109 -0.029935 -0.050208 0.38551 -0.016874 -0.021041 -0.0025733 0.00038614
-0.00011853 0.0031085 -0.00094719 0.0019846
-0.0014726 -0.0011618 -0.016985 -0.021004 0.28321 0.20536 0.00076796 0.001741
0.0006182 0.0011634 0.00027373 0.00050802
0.00029242 -0.00088146 -0.0025627 0.00039586 0.00077068 0.0017375 0.077109 0.27168
0.009795 -0.018604 0.001423 0.0010701
-0.0025313 0.0021379 -8.9342e-05 0.0031067 0.0006198 0.0011685 0.0097725 -0.018636
0.0047249 0.23871 0.01283 -0.013497
0.0010706 0.0021605 -0.00094201 0.0019805 0.00026765 0.00050722 0.0014095 0.0010615
0.012823 -0.013499 -0.027475 0.31334
1280000000 0.17225 0.26781 -0.0078043 -0.028652 -0.0018955 0.0021377 -0.00072816 -0.002212
-0.00080722 0.0030179 0.0025042 0.0014955
-0.0077862 -0.028628 -0.0038052 0.37853 -0.023921 -0.00814 -0.0011846 0.0014089
0.0017057 0.0019398 0.00062635 0.0021133
-0.0018852 0.0021353 -0.023969 -0.008039 0.31462 0.16279 0.001558 0.00010844
0.0010844 0.00025266 0.00026284 0.00032689
-0.00073596 -0.0022115 -0.0011767 0.0014141 0.0015559 0.0001067 0.11389 0.25493
-0.00029071 -0.020455 -0.0011918 0.00036619
-0.00079082 0.0030344 0.0017207 0.0019287 0.0010858 0.00025783 -0.00033068 -0.020455
0.040936 0.24146 0.0022429 -0.01545
0.0024926 0.0014845 0.00065881 0.0021416 0.00026769 0.00034173 -0.0012004 0.00040073
0.0022547 -0.015452 0.020877 0.31829
1340000000 0.2102 0.23413 -0.017291 -0.019014 0.00052718 0.0043416 -0.0017789 -0.00094261
0.0013582 0.0025996 0.0020032 -0.0014263
-0.017262 -0.019012 0.035979 0.37108 -0.021112 0.0045543 -0.00034467 0.0021419
0.0019846 0.00082962 0.0012612 0.00088517
0.00054188 0.004334 -0.021117 0.0046591 0.33816 0.11401 0.0011758 -0.00090493
0.00060654 -0.00055256 0.00019348 0.00024942
-0.001771 -0.00092771 -0.00033156 0.0021559 0.0011791 -0.00091018 0.14633 0.23259
-0.0099182 -0.017112 0.00044193 0.001263
0.0013717 0.002573 0.0019897 0.00081935 0.00060918 -0.00056154 -0.0099617 -0.017099
0.071077 0.2342 -0.0046405 -0.013739
0.002005 -0.0014087 0.0012616 0.00088209 0.0001838 0.00026115 0.00047064 0.0012498
-0.0046327 -0.013738 0.059673 0.31515
1400000000 0.24368 0.19771 -0.02346 -0.0076795 0.0049059 0.0031914 -0.0023142 0.00051419
0.0023641 0.001096 0.0005624 -0.0014304
-0.023421 -0.0076989 0.073169 0.35968 -0.014418 0.012516 0.0013979 0.0016335
0.0014314 -0.00070094 0.0011457 0.00023982
0.0049333 0.0031603 -0.014375 0.012596 0.35144 0.060164 0.00014915 -0.0016025
0.00011559 -0.00036243 0.00029664 0.00031707
-0.0023193 0.00051838 0.001403 0.0016309 0.00015581 -0.0016056 0.17396 0.20328
-0.015986 -0.010092 -0.0010704 0.00052555
0.0023638 0.0010915 0.0014284 -0.0007081 0.00011751 -0.00036814 -0.016023 -0.010055
0.10323 0.22854 -0.010544 -0.0085974
0.00055757 -0.001404 0.0011743 0.00022362 0.00031706 0.000286 -0.0010775 0.00054252
-0.010532 -0.0086002 0.10437 0.30682
1460000000 0.26842 0.15453 -0.020325 0.0047938 0.0053353 -0.0016716 -0.0017246 0.0018424
0.0021765 -0.00029336 -0.00024088 -0.0010748
-0.020295 0.0047709 0.109 0.33867 -0.0054161 0.015293 0.0019283 0.00025462
0.0010065 -0.0015416 0.0013195 -0.00058544
0.005326 -0.0016848 -0.0053524 0.015331 0.3586 0.004803 -0.0011805 -0.0014344
0.00020897 -0.00026899 0.00056691 -0.00034075
-0.0017143 0.0018458 0.0019354 0.00024953 -0.0011793 -0.0014277 0.19978 0.17415
-0.01728 -0.0027563 -0.00038816 0.0027536
0.0021813 -0.00030229 0.00099928 -0.0015544 0.00020627 -0.00027166 -0.017292 -0.0027247
0.13305 0.2133 -0.012267 -0.0022026
-0.00024883 -0.0010767 0.0013095 -0.00059181 0.00057058 -0.00033817 -0.00037766 0.0027585
-0.012256 -0.0022161 0.13933 0.28742
1520000000 0.28095 0.1123 -0.014788 0.010148 0.0033162 -0.0039729 0.00014336 0.0027649
0.0022023 -0.0017796 -0.0011053 -0.00029453
-0.014777 0.010122 0.14286 0.3242 0.0021067 0.012622 0.0019354 -0.0008433
2.636e-05 -0.0011845 0.00042477 -0.00097125
0.0032934 -0.0039734 0.0021705 0.012617 0.35075 -0.05387 -0.0011504 -0.00048064
0.00055483 -0.00082906 0.00016316 -8.8124e-05
0.00013439 0.0027699 0.0019354 -0.00085566 -0.0011529 -0.0004748 0.22094 0.13562
-0.016299 0.0035087 0.0020335 0.0022121
0.0021964 -0.0017944 1.8132e-05 -0.0011866 0.00055462 -0.00082986 -0.016297 0.0035502
0.16071 0.19824 -0.011914 0.0020504
-0.0011193 -0.00030002 0.00043415 -0.00098591 0.00015503 -8.7396e-05 0.0020145 0.002221
-0.01191 0.0020479 0.1728 0.26891
1580000000 0.2912 0.067292 -0.0081773 0.013515 -0.00098604 -0.0046809 0.0016365 0.0020895
8.4854e-08 -0.0022054 -0.00039942 0.00047015
-0.00818 0.013493 0.17073 0.30073 0.0054226 0.0075593 0.00059064 -0.0018003
-0.00069762 -0.0010952 -0.00015196 -0.00079678
-0.00099593 -0.0046837 0.0054723 0.0075298 0.32908 -0.11054 -0.0018214 0.00059338
-0.00028723 -0.0012098 0.00030425 -0.00057349
0.0016498 0.0020902 0.00057983 -0.0018072 -0.0018224 0.00060512 0.23345 0.098186
-0.012512 0.0088475 0.0028135 0.00069614
-2.1554e-05 -0.0022057 -0.0007118 -0.0010971 -0.00029132 -0.0012189 -0.01249 0.008891
0.18463 0.1808 -0.009144 0.0076783
-0.00039031 0.00050265 -0.00015936 -0.00077918 0.00027873 -0.00055152 0.0028311 0.00069401
-0.0091443 0.0076729 0.20642 0.24491
1640000000 0.29449 0.025186 -0.0013681 0.012336 -0.0027172 -0.0024211 0.0029954 0.0010144
-0.00049798 -0.0018027 -0.00027822 0.00055912
-0.0013779 0.012328 0.20189 0.2755 0.0057264 0.002663 -0.00073532 -0.0020061
-0.001041 -0.00031986 -0.00041627 -0.00081886
-0.0027186 -0.0024062 0.0057447 0.0026392 0.29948 -0.16091 -0.00071062 0.0016476
-0.00093611 -0.00096461 -4.8e-05 -0.0004855
0.0029884 0.00099147 -0.00074525 -0.0019946 -0.00070483 0.0016462 0.24551 0.050307
-0.0078589 0.010606 0.002734 -0.0012131
-0.00049896 -0.0018014 -0.0010483 -0.00030915 -0.00094832 -0.00095326 -0.0078247 0.010631
0.20777 0.15454 -0.0043042 0.0095872
-0.00027721 0.00053861 -0.00041868 -0.00080666 -3.7455e-05 -0.00048143 0.0027366 -0.0012145
-0.0043058 0.0095881 0.23397 0.21402
1700000000 0.28653 -0.019968 0.0021559 0.0095748 -0.0033936 0.00024345 0.0033143 -0.0015471
-0.0021047 -0.00093337 0.00054496 0.00039673
0.00215 0.0095656 0.21959 0.24459 0.003375 -0.00015074 -0.0016938 -0.00066767
-0.00083503 0.00015849 -0.00087382 -0.00057732
-0.0033876 0.0002754 0.0033812 -0.00015824 0.25409 -0.19942 0.00050989 0.0017026
-0.0020998 -6.8593e-05 -0.00040289 -0.00097285
0.0033077 -0.0015649 -0.0016935 -0.00065271 0.00050295 0.0016996 0.24177 0.0028112
-0.0042896 0.011404 0.0016768 -0.0023735
-0.0021141 -0.00090895 -0.00083279 0.00016325 -0.002107 -7.4154e-05 -0.004269 0.011426
0.22469 0.13354 0.00047065 0.0095939
0.00056583 0.00039657 -0.00088569 -0.00057161 -0.00041789 -0.00096785 0.0016859 -0.0023915
0.0004801 0.0095926 0.25121 0.18125
1760000000 0.27583 -0.068367 0.0045545 0.0061439 -0.0020251 0.00088687 0.0011027 -0.0037756
-0.0016558 0.00053876 0.00033012 -0.00059745
0.0045363 0.0061268 0.2475 0.20531 0.00081512 -0.001736 -0.0013643 0.00024074
-0.00094031 0.0010198 -0.00060424 0.0002842
-0.0020356 0.00089975 0.0008025 -0.0017301 0.20491 -0.23085 0.00141 0.0010836
-0.0012026 0.0016176 -0.0013134 -0.00064516
0.0010687 -0.0037758 -0.0013633 0.00024241 0.0014047 0.00108 0.23548 -0.046201
-0.00022034 0.010444 -0.00010214 -0.0027814
-0.0016571 0.00055801 -0.0009337 0.0010382 -0.0011883 0.0016142 -0.00016961 0.010456
0.23997 0.099484 0.0042523 0.0068485
0.00030043 -0.00062012 -0.00058732 0.00028638 -0.0013461 -0.00067152 -0.00010015 -0.0028309
0.0042526 0.0068447 0.26621 0.14433
1820000000 0.25081 -0.10646 0.0047481 0.0024758 0.00013647 0.0021144 -0.0012117 -0.0031565
-0.0013799 0.0011937 -0.000195 -0.00018245
0.0047404 0.0024718 0.25775 0.1745 -0.0013745 -5.0217e-05 -0.001295 0.0011052
6.0636e-05 0.0011852 -0.00072905 0.00043124
0.00015133 0.0021173 -0.0013793 -3.3667e-05 0.15328 -0.24468 0.0017825 0.00025546
3.0553e-05 0.0024882 -0.0017003 0.00032784
-0.0012388 -0.0031594 -0.0012851 0.0011102 0.0017821 0.0002374 0.20681 -0.093726
0.0018575 0.008467 -0.0017323 -0.0017185
-0.0013835 0.0011867 8.5952e-05 0.0011896 6.0294e-05 0.0024908 0.0018812 0.0084505
0.25581 0.069027 0.0050401 0.0033294
-0.000196 -0.00016587 -0.00071986 0.00042558 -0.0017346 0.00029514 -0.0017428 -0.0017058
0.0050424 0.0033343 0.26968 0.1084
1880000000 0.21527 -0.14572 0.0021958 1.0722e-06 -0.00081701 0.0021639 -0.003257 -0.0020456
-0.00018935 0.0020294 8.1088e-05 -0.00057784
0.0021873 7.3294e-06 0.2626 0.12882 -0.0034986 0.0023194 -0.00022872 0.0017329
0.00061154 0.0011175 -1.7303e-05 0.0010583
-0.00081329 0.002144 -0.0034976 0.0023488 0.10115 -0.251 0.001445 -0.0011249
0.0016873 0.0018714 -0.0011395 0.0017058
-0.0032788 -0.0020393 -0.00021328 0.0017304 0.0014518 -0.0011235 0.16905 -0.13365
0.0031692 0.0057039 -0.002469 0.00021313
-0.00017387 0.0020329 0.00062256 0.0011193 0.0017137 0.0018541 0.0031982 0.0056902
0.25945 0.038135 0.005014 0.0011234
7.1986e-05 -0.00057709 -6.3406e-06 0.0010547 -0.0011226 0.0016783 -0.0024423 0.00019945
0.0050152 0.0011313 0.27134 0.075425
1940000000 0.17703 -0.17234 -0.00011143 -0.0016371 0.001398 0.0021013 -0.0036781 0.0007273
0.0016284 0.0013284 -0.00057578 -0.00056178
-0.00011033 -0.0016411 0.26487 0.096159 -0.0015905 0.005176 0.0010897 0.0012777
0.0017618 0.00039554 0.0010044 0.00039693
0.0014239 0.0020906 -0.0015561 0.00519 0.05913 -0.24206 0.00020657 -0.0020385
0.0023923 0.00020104 0.00052909 0.001739
-0.0036583 0.00073892 0.001093 0.0012736 0.0002036 -0.0020404 0.11882 -0.16764
0.0025702 0.0037087 -0.0015877 0.0013154
0.0016393 0.0013169 0.0017609 0.00037564 0.0023839 0.0001899 0.0025618 0.0036929
0.2628 -0.0012222 0.0036561 -0.0023908
-0.00056584 -0.00056794 0.0010054 0.00036868 0.00050855 0.00173 -0.0016265 0.0013183
0.0036584 -0.0023782 0.26285 0.039119
2000000000 0.12957 -0.18611 -0.0040981 0.00055917 0.0028676 0.0015567 -0.0021091 0.0037737
0.0014647 0.00026898 -0.00058003 0.00062639
-0.0040837 0.00054612 0.25024 0.060372 -0.00061573 0.007054 0.0014228 0.00049288
0.0011245 -0.0011416 0.00050769 0.00025301
0.0028633 0.0015418 -0.00057427 0.0070678 0.01731 -0.22725 -0.0012548 -0.0010795
0.0019121 -0.0013654 0.0018757 0.0014397
-0.0021051 0.0037693 0.0014451 0.00048196 -0.0012503 -0.0010773 0.064566 -0.17946
0.00084991 0.0027889 -0.00011963 0.0023347
0.0014595 0.00024883 0.0011149 -0.0011421 0.0019181 -0.0013707 0.00086391 0.0027911
0.25707 -0.034696 0.00031016 -0.0028884
