!Keysight Technologies,M9804A,MY58100912,A.14.10.03
!Date: Thursday, April 27, 2023 10:28:33
!Correction: S11(C  6-Port  ) 
!S12(C  6-Port  ) 
!S13(C  6-Port  ) 
!S14(C  6-Port  ) 
!S15(C  6-Port  ) 
!S16(C  6-Port  ) 
!S21(C  6-Port  ) 
!S22(C  6-Port  ) 
!S23(C  6-Port  ) 
!S24(C  6-Port  ) 
!S25(C  6-Port  ) 
!S26(C  6-Port  ) 
!S31(C  6-Port  ) 
!S32(C  6-Port  ) 
!S33(C  6-Port  ) 
!S34(C  6-Port  ) 
!S35(C  6-Port  ) 
!S36(C  6-Port  ) 
!S41(C  6-Port  ) 
!S42(C  6-Port  ) 
!S43(C  6-Port  ) 
!S44(C  6-Port  ) 
!S45(C  6-Port  ) 
!S46(C  6-Port  ) 
!S51(C  6-Port  ) 
!S52(C  6-Port  ) 
!S53(C  6-Port  ) 
!S54(C  6-Port  ) 
!S55(C  6-Port  ) 
!S56(C  6-Port  ) 
!S61(C  6-Port  ) 
!S62(C  6-Port  ) 
!S63(C  6-Port  ) 
!S64(C  6-Port  ) 
!S65(C  6-Port  ) 
!S66(C  6-Port  ) 
!S6P File: Measurement: :
# Hz S  RI   R 50
500000000 -0.3386 -0.019093 -0.010362 -0.0030732 -0.0074323 0.012158 -0.0031472 0.012246
0.011698 0.0035247 -0.0026669 0.0085222
-0.010341 -0.0030708 -0.41895 -0.037211 0.0066268 -0.011904 0.0019606 0.01251
0.0069256 0.0017561 0.0026465 0.013583
-0.0073848 0.012138 0.0066202 -0.011853 -0.26183 0.22141 0.0074339 0.0036427
-0.00075444 0.0077998 0.0026387 0.011834
-0.0032349 0.012229 0.0020745 0.012453 0.0074375 0.0035874 -0.32987 0.061538
-0.018895 -0.0064541 0.01606 0.023775
0.011742 0.0035398 0.0069096 0.0018537 -0.00081539 0.0077599 -0.01892 -0.0064587
-0.23433 -0.16476 -0.02478 0.0048432
-0.002788 0.0083491 0.0026388 0.013655 0.0026468 0.011771 0.016067 0.023801
-0.024788 0.0048286 -0.28301 -0.082002
560000000 -0.31182 0.13605 -0.026758 -0.061088 0.00074777 0.011262 0.0054979 0.0095827
0.0095088 0.0042355 0.010247 0.0063688
-0.026706 -0.061029 -0.37508 0.1172 -0.04201 -0.034759 0.01328 0.0030825
-0.012417 -0.0041076 0.0029614 -0.00096049
0.00075795 0.011336 -0.04213 -0.034727 -0.18085 0.26551 -0.00047552 -0.004509
0.018431 0.0032075 0.0065306 -0.006744
0.0054977 0.0094508 0.013318 0.002947 -0.00033298 -0.004385 -0.3046 0.1472
0.0011798 -0.024083 0.0033399 -0.018516
0.009628 0.0042204 -0.012337 -0.003757 0.018361 0.0030955 0.0011888 -0.024046
-0.28528 0.0064244 0.0041261 -0.0466
0.010257 0.0064209 0.002933 -0.0010479 0.0065888 -0.0066295 0.0032595 -0.018567
0.0041995 -0.046599 -0.32973 0.056651
620000000 -0.27039 0.12188 -0.023243 0.0068509 0.003688 0.0081488 0.0074833 -0.0058518
0.010313 -0.0015896 0.00034403 -0.0031773
-0.023228 0.0068517 -0.40102 0.072569 -0.019587 0.00011147 -0.0012039 -0.0022705
0.01 -0.0066774 0.0013209 -0.002781
0.0037432 0.0082411 -0.019551 0.00013848 -0.14958 0.27576 -0.0013238 -0.0046341
-0.0035789 -0.0028479 0.0078804 -0.003495
0.0075873 -0.0058334 -0.0012334 -0.0022622 -0.0012268 -0.0045313 -0.26254 0.15961
-0.039288 -0.018127 0.011637 0.023124
0.010332 -0.0014807 0.0099845 -0.0067619 -0.0036646 -0.0029791 -0.039239 -0.01809
-0.20867 -0.029939 -0.038182 0.014748
0.00037733 -0.0027626 0.0012946 -0.0027257 0.0076811 -0.0035119 0.011697 0.023125
-0.038169 0.014696 -0.25616 0.029686
680000000 -0.22752 0.20303 -0.027925 -0.012511 0.0053025 0.0046226 0.0010605 -0.0070361
-0.0033921 -0.011019 0.0038759 -0.0066513
-0.027905 -0.012526 -0.38456 0.16651 -0.032445 0.00032699 -0.0015012 -0.00033664
-0.0025547 -0.0087434 -0.0016067 -0.0021636
0.0052967 0.0046494 -0.032454 0.00038762 -0.099083 0.29365 -0.0007704 -2.9271e-05
-0.0017578 0.00042057 -0.0036117 -0.0086891
0.0010437 -0.0070055 -0.001611 -0.00039333 -0.00086968 -8.8766e-05 -0.21688 0.20641
-0.025476 -0.0058115 -0.0090374 -0.0081759
-0.0034451 -0.010944 -0.0026122 -0.0087595 -0.0018231 0.00038684 -0.025473 -0.0057928
-0.24851 0.065711 -0.0065929 -0.0076221
0.0038193 -0.0065556 -0.0015108 -0.0020973 -0.0036641 -0.0086996 -0.0090618 -0.0081811
-0.0065911 -0.0076642 -0.2539 0.1228
740000000 -0.18453 0.19788 -0.03717 0.025898 0.011724 -0.0057873 -0.00064491 -0.0038421
-0.0050351 -0.0029228 -0.0059629 0.0032738
-0.037145 0.025843 -0.33329 0.18668 -0.033193 0.034759 -0.0010256 -0.0061721
-0.011274 0.0079139 -0.0020852 -0.0046118
0.011705 -0.005779 -0.033108 0.034823 -0.065448 0.2937 -0.0016493 0.0030243
-0.0029844 -0.0044354 -0.0022552 0.001129
-0.00061068 -0.0037989 -0.0010352 -0.0061712 -0.0016562 0.0030671 -0.19915 0.21533
-0.042087 -0.0039778 0.02176 0.012111
-0.0050589 -0.0029412 -0.011305 0.0081156 -0.0029182 -0.0043681 -0.042144 -0.0039419
-0.15739 0.086237 -0.039607 0.0026531
-0.0059729 0.0033568 -0.0022065 -0.004789 -0.0023183 0.0011278 0.021786 0.012106
-0.039615 0.0025915 -0.24189 0.13262
800000000 -0.15108 0.23554 -0.021702 0.017415 0.0042981 -0.010336 -0.0043901 -0.001557
-0.0033988 0.0026237 0.0037087 0.00069084
-0.021708 0.017388 -0.33325 0.25504 -0.006758 0.033531 -0.0021249 0.0023735
-0.00031966 0.0033382 0.0011805 0.0052677
0.0042914 -0.010346 -0.0067093 0.03355 -0.022376 0.31568 0.00090086 0.0015133
0.00039308 0.0035293 -0.0019702 0.001143
-0.0044502 -0.0015414 -0.0021506 0.0023645 0.00087479 0.001514 -0.16934 0.2416
-0.027026 0.015878 0.012293 -0.010098
-0.0033172 0.002718 -0.00030888 0.0033264 0.00038978 0.0035354 -0.027007 0.01593
-0.19419 0.11266 -0.016214 0.018424
0.0038194 0.00079439 0.0011477 0.0052394 -0.001951 0.0011324 0.012251 -0.010108
-0.016217 0.018398 -0.22949 0.17848
860000000 -0.11658 0.25598 -0.016212 0.03104 -0.0039836 -0.0091936 -0.0022486 0.0013837
0.0045 0.0047247 -0.0027391 -0.0026597
-0.016214 0.031009 -0.28611 0.29605 0.0090583 0.033031 0.0002239 0.0022127
0.0045219 7.5287e-05 0.0032258 0.00049155
-0.0039889 -0.009191 0.0091353 0.032996 0.026234 0.32258 -0.00039373 -2.5499e-05
0.0025335 -0.0012443 0.0015807 0.0041856
-0.0022918 0.0014001 0.00021039 0.0021793 -0.00038754 -3.0286e-05 -0.13259 0.25281
-0.015767 0.020714 -0.0057454 -0.0088954
0.0044913 0.0047739 0.0045981 3.1998e-05 0.0025285 -0.0012215 -0.015751 0.020784
-0.14375 0.15881 -0.022305 0.016042
-0.0027059 -0.0027016 0.0031531 0.00051014 0.0015644 0.0041882 -0.0057611 -0.0089198
-0.022313 0.016039 -0.18102 0.21894
920000000 -0.089682 0.27811 0.0060484 0.037072 -0.0091186 -0.0034767 -0.00142 0.0019984
0.0015472 0.0013279 0.002583 -0.0017935
0.0060286 0.037048 -0.25544 0.31691 0.028003 0.020316 0.001741 0.00095159
0.0068184 -0.00056214 0.0035191 -0.0029098
-0.0091202 -0.0034686 0.028043 0.020283 0.073903 0.3224 0.0019107 -5.7437e-05
0.0015066 -0.00049414 0.00095602 -0.00098899
-0.0014017 0.001998 0.001722 0.0009363 0.001911 -7.2742e-05 -0.10638 0.26852
-0.0077839 0.030554 0.002235 -0.0059146
0.0015817 0.0012879 0.0068489 -0.00060621 0.0014655 -0.00049446 -0.0077355 0.030598
-0.12957 0.16544 -0.0006613 0.025523
0.0025616 -0.0017663 0.0035401 -0.003004 0.00095852 -0.0010257 0.0022328 -0.0059071
-0.00067614 0.025512 -0.17976 0.23409
980000000 -0.042209 0.29602 0.018586 0.028754 -0.0081415 0.0048441 0.0022291 0.0032783
0.0039807 -0.0020183 -0.0030569 -0.0021383
0.018558 0.028755 -0.20314 0.34916 0.032243 0.0032941 0.0020798 -0.00025103
0.0013871 -0.0062071 -0.0006361 -0.002436
-0.0081141 0.0048696 0.032231 0.0032262 0.12054 0.31395 0.0005607 -0.0012786
0.0001469 -0.0022183 0.0014952 -0.00029181
0.0022588 0.0032677 0.0020964 -0.00029474 0.0005714 -0.00131 -0.06718 0.27816
0.010318 0.028251 -0.0084027 -0.0060072
0.0039414 -0.0019519 0.0013684 -0.0062052 0.00016522 -0.0021763 0.010379 0.028247
-0.098633 0.18887 0.0057623 0.018389
-0.003086 -0.0020336 -0.00066007 -0.0023603 0.0014979 -0.00023541 -0.0084221 -0.0060135
0.0057184 0.018379 -0.13574 0.27242
1040000000 0.001125 0.30305 0.032961 0.016036 -0.00082226 0.006594 0.0025617 0.00046929
6.5005e-06 -0.0032709 -0.00052565 -0.0013305
0.032944 0.016059 -0.16692 0.36212 0.027623 -0.0154 0.0014234 -0.0017896
-0.0024043 -0.002286 -0.0014238 -0.0027974
-0.0007964 0.006604 0.027564 -0.01545 0.16692 0.29916 -0.00059772 -0.0014915
-0.0015155 -0.00088589 -0.00028376 -0.0011401
0.0025488 0.0004766 0.0013879 -0.0018158 -0.00060171 -0.0014837 -0.038318 0.28695
0.020451 0.015641 -0.0024737 0.0014239
-3.9418e-05 -0.0032558 -0.002365 -0.0022436 -0.0015285 -0.0008644 0.02048 0.01561
-0.066402 0.19617 0.01352 0.015967
-0.00052708 -0.0013531 -0.0013799 -0.0027697 -0.00027018 -0.0011388 -0.0024699 0.0014455
0.013485 0.015963 -0.11028 0.29167
1100000000 0.04688 0.30897 0.034408 -0.005513 0.0029313 0.0035385 0.0022368 -0.0012312
-0.0021995 -0.0027528 -0.0034957 0.00047711
0.034386 -0.0054894 -0.12318 0.37807 0.013544 -0.027193 -0.00011721 -0.0017777
-0.0032789 -0.00042829 -0.0033126 -0.00013889
0.002942 0.0035173 0.013463 -0.027237 0.21338 0.27691 -0.0018103 0.00017941
-0.0017756 0.00054184 -0.00090042 -0.00034351
0.0022387 -0.0012034 -0.00014613 -0.0017728 -0.0017945 0.00019159 0.0032257 0.28946
0.023834 0.0026779 -0.0023495 0.00037029
-0.0022422 -0.0027077 -0.0032731 -0.0004103 -0.0017579 0.00057236 0.02386 0.0026435
-0.047275 0.20763 0.017716 0.0064494
-0.0034859 0.0005336 -0.0032918 -8.307e-05 -0.00086702 -0.00036301 -0.0023482 0.00037695
0.017705 0.0064506 -0.06383 0.31582
1160000000 0.097829 0.30242 0.0222 -0.021069 0.0024437 -0.00053604 -0.00016457 -0.0022139
-0.0037752 -0.0003523 -0.00062291 0.0037611
0.02222 -0.021031 -0.07889 0.38119 -0.00467 -0.027683 -0.0015965 -0.001441
-0.0023213 0.0023181 -0.0012423 0.0016486
0.0024592 -0.0005387 -0.0047712 -0.027655 0.25551 0.24469 -0.00074103 0.001656
-0.00057333 0.0017133 -0.00099085 4.593e-05
-0.00018084 -0.0022039 -0.0016095 -0.0014169 -0.00073557 0.0016615 0.042601 0.28432
0.019506 -0.011689 -0.0028365 0.0045966
-0.0038002 -0.00037814 -0.0023045 0.0023148 -0.00056709 0.0017084 0.019496 -0.011718
-0.013489 0.21531 0.016694 -0.0012088
-0.00060946 0.0037189 -0.0012882 0.0016356 -0.00099889 7.1821e-05 -0.0028295 0.0046099
0.016672 -0.0012065 -0.01671 0.31603
1220000000 0.14253 0.28913 0.0087362 -0.029133 -0.0015215 -0.00058174 3.246e-05 -0.00094002
-0.0022695 0.0023453 0.0013204 0.0017746
0.008757 -0.029098 -0.034761 0.39181 -0.016749 -0.01959 -0.0023587 0.00048011
0.00014291 0.0026725 -0.00054892 0.0017868
-0.0015197 -0.00056557 -0.016832 -0.019544 0.29429 0.20476 0.00066515 0.001743
0.00051774 0.0011813 0.00017891 0.00056047
4.6163e-05 -0.00093123 -0.0023627 0.00048872 0.00067489 0.0017423 0.082874 0.27351
0.0090023 -0.017397 0.0019313 0.0014447
-0.0022625 0.002354 0.00016708 0.0026712 0.00051663 0.0011759 0.0089752 -0.017427
0.010885 0.22203 0.011701 -0.012623
0.0013482 0.0017356 -0.00052643 0.0017918 0.0002057 0.00058291 0.0019323 0.0014468
0.011699 -0.012604 0.017031 0.32764
1280000000 0.19103 0.26527 -0.0085437 -0.026876 -0.0015757 0.0025309 -0.0010168 -0.0019449
-0.0005246 0.0027964 0.0022518 0.00086321
-0.008518 -0.026857 0.010587 0.38177 -0.022808 -0.0075214 -0.00094879 0.0013474
0.0015686 0.0015537 0.00067357 0.0017492
-0.0015609 0.0025338 -0.022846 -0.0074481 0.32396 0.15977 0.001504 2.4964e-05
0.0010051 0.00028569 0.00024059 0.00038524
-0.0010289 -0.001935 -0.00095432 0.0013447 0.0015169 2.3939e-05 0.11862 0.25428
-0.00012975 -0.018753 -0.00022904 0.00025854
-0.00051242 0.0027909 0.0015438 0.0015257 0.00098675 0.00028611 -0.0001592 -0.018775
0.047385 0.22319 0.0016996 -0.014285
0.0022466 0.00085528 0.00071216 0.0017292 0.00024236 0.00040362 -0.00021922 0.00026595
0.001716 -0.014273 0.062915 0.32521
1340000000 0.22715 0.23028 -0.0174 -0.01745 0.0011569 0.0040687 -0.0016866 -0.00080749
0.0014062 0.002418 0.0014136 -0.001399
-0.017369 -0.017443 0.049646 0.37283 -0.020402 0.004521 -0.00016397 0.0019584
0.001735 0.00069931 0.0012988 0.00067319
0.0011714 0.0040601 -0.0204 0.0046056 0.34533 0.11155 0.0011578 -0.00091178
0.0006747 -0.00046235 0.000189 0.00024735
-0.0016909 -0.00080889 -0.00015588 0.0019667 0.001184 -0.00092171 0.14974 0.23234
-0.0089502 -0.015783 0.0006649 0.00074312
0.0014134 0.0024044 0.0017497 0.00070023 0.00068806 -0.00046042 -0.0089913 -0.015783
0.077021 0.2166 -0.0045311 -0.012455
0.0014041 -0.0014201 0.0012867 0.00066846 0.00021997 0.00023505 0.00067528 0.00074193
-0.0045113 -0.012452 0.10131 0.31719
1400000000 0.25882 0.19084 -0.022291 -0.0064877 0.0049873 0.0026129 -0.0020899 0.00059543
0.0022349 0.00065169 0.00012865 -0.0013467
-0.022264 -0.0065019 0.086357 0.35917 -0.013814 0.011909 0.0012694 0.0013439
0.0011065 -0.00072741 0.0010811 0.00014076
0.0049997 0.0026154 -0.013781 0.011952 0.35825 0.057034 0.00019554 -0.0017248
5.9652e-05 -0.00036097 0.00032097 0.00016242
-0.0020971 0.00061085 0.0012565 0.0013372 0.00020083 -0.0017249 0.1778 0.20178
-0.014387 -0.0094057 -0.00043696 8.8179e-05
0.0022279 0.00065435 0.0010946 -0.0007318 6.1434e-05 -0.000351 -0.014418 -0.0093825
0.10903 0.20986 -0.0099671 -0.0075366
0.00010994 -0.001343 0.0010717 0.00011858 0.00033066 0.00017043 -0.00043187 9.0145e-05
-0.0099568 -0.0075304 0.14418 0.30267
1460000000 0.28006 0.14655 -0.019305 0.0047693 0.0051229 -0.0020878 -0.0015529 0.0016307
0.001815 -0.00061859 -0.00040214 -0.0008226
-0.019285 0.0047549 0.12011 0.33704 -0.0058052 0.014411 0.0017204 0.00019215
0.00085512 -0.0011866 0.0010913 -0.00055001
0.0051045 -0.0020939 -0.0057633 0.014422 0.36275 0.0020104 -0.0013166 -0.0013288
0.00012102 -0.00019106 0.00062345 -0.00030756
-0.0015519 0.0016463 0.0017376 0.00017481 -0.0013198 -0.0013398 0.20177 0.17165
-0.015526 -0.0031369 -0.00049369 0.0018843
0.0018381 -0.00061345 0.00086187 -0.0012072 0.00010036 -0.00017539 -0.01555 -0.0031122
0.13701 0.19348 -0.01119 -0.002142
-0.00038853 -0.00081609 0.0010733 -0.00056216 0.00059812 -0.00030599 -0.00048126 0.001878
-0.011197 -0.0021599 0.17613 0.27981
1520000000 0.2914 0.10432 -0.013785 0.0098897 0.0027501 -0.0039603 7.0269e-05 0.00257
0.0018345 -0.0015314 -0.0010305 -6.1153e-05
-0.013786 0.009872 0.15356 0.32185 0.001272 0.012467 0.0016822 -0.00084021
8.8309e-05 -0.0010897 0.0002708 -0.0009175
0.0027394 -0.0039779 0.0013167 0.012463 0.35509 -0.054651 -0.0012683 -0.00036446
0.00050193 -0.00085078 -2.6352e-05 -0.00011764
8.4633e-05 0.002571 0.001673 -0.00084597 -0.0012665 -0.00037854 0.22304 0.13354
-0.015105 0.0024218 0.0016646 0.0017502
0.0018307 -0.0015372 7.9293e-05 -0.0010847 0.00049821 -0.00085648 -0.015106 0.002462
0.16416 0.17809 -0.010951 0.0019079
-0.0010308 -5.3115e-05 0.00026633 -0.0009191 -4.1674e-05 -0.00012496 0.0016595 0.0017473
-0.01095 0.0018997 0.20827 0.25648
1580000000 0.29947 0.057856 -0.0076881 0.012655 -0.0010509 -0.0043533 0.0014623 0.0018683
-0.00016429 -0.0019397 -0.00026133 0.00041651
-0.007691 0.012635 0.18054 0.29639 0.0047149 0.0079769 0.00042976 -0.0016973
-0.0005379 -0.0010688 -0.000241 -0.0007839
-0.0010487 -0.004349 0.0047504 0.0079542 0.33381 -0.11241 -0.0016408 0.00079136
-0.00023341 -0.0010397 0.00017515 -0.00056938
0.001478 0.0018596 0.00042309 -0.0017013 -0.0016423 0.00077353 0.23491 0.094148
-0.012154 0.0073979 0.0021708 0.00034252
-0.00016743 -0.0019536 -0.00054527 -0.0010681 -0.00024043 -0.0010451 -0.012149 0.0074288
0.18706 0.15845 -0.0087641 0.0068369
-0.00025668 0.00039185 -0.00024014 -0.0007863 0.00018573 -0.00055672 0.0021867 0.00033188
-0.0087561 0.0068188 0.23779 0.22757
1640000000 0.3006 0.016278 -0.0014679 0.01162 -0.0025773 -0.002246 0.0026557 0.00089869
-0.0006904 -0.0014829 -0.00020027 0.00058613
-0.0014832 0.011608 0.20975 0.27079 0.0054122 0.0036388 -0.00083536 -0.0016828
-0.0010868 -0.0003771 -0.00052575 -0.00054044
-0.0025594 -0.0022506 0.0054575 0.0036164 0.30412 -0.16083 -0.00068655 0.0015236
-0.0011061 -0.00077708 -0.00022674 -0.00015597
0.0026572 0.00090637 -0.00085087 -0.0016724 -0.00067977 0.0015297 0.2453 0.046313
-0.0081804 0.0093384 0.0022261 -0.0011433
-0.00069334 -0.0014838 -0.0010948 -0.00037111 -0.0011193 -0.00077726 -0.0081579 0.0093699
0.20823 0.13327 -0.0044237 0.0086811
-0.00019191 0.00058569 -0.00051641 -0.00053721 -0.00019138 -0.00016863 0.0022234 -0.0011439
-0.0044184 0.0086871 0.26147 0.19477
1700000000 0.29226 -0.029575 0.0017344 0.0091181 -0.0031514 0.00029533 0.0029427 -0.0013013
-0.0018962 -0.00072924 0.00066865 0.00039362
0.0017209 0.0091119 0.22756 0.23869 0.0037445 0.00089255 -0.00148 -0.0004841
-0.00080611 0.00017947 -0.00085422 -0.00035576
-0.0031163 0.00027132 0.0037488 0.00087842 0.26082 -0.20043 0.00064914 0.0014813
-0.0017673 -0.00021507 -0.00057608 -0.00069196
0.0029458 -0.0013 -0.0014877 -0.00046127 0.00062146 0.0014942 0.24104 -0.0024215
-0.0049491 0.010486 0.0011154 -0.0021032
-0.0018732 -0.00072279 -0.00081497 0.00019654 -0.0017738 -0.00022415 -0.004937 0.010496
0.22463 0.1119 -0.0002021 0.0090861
0.00067214 0.00038212 -0.00086602 -0.0003455 -0.00060827 -0.00068657 0.0011146 -0.0021172
-0.00019758 0.0090818 0.27582 0.15887
1760000000 0.2786 -0.078225 0.0039588 0.0061012 -0.0020219 0.00081481 0.001042 -0.0034279
-0.0014107 0.00065464 0.00046398 -0.00044627
0.0039478 0.0060993 0.25261 0.19786 0.0017272 -0.0010437 -0.0011757 0.0002942
-0.00093023 0.00095196 -0.00054956 0.00048535
-0.0020352 0.0008379 0.0017068 -0.0010534 0.21144 -0.23391 0.0013644 0.00089194
-0.0011035 0.0015505 -0.0012201 -0.00024462
0.0010216 -0.0034308 -0.0011642 0.00029218 0.0013694 0.00089538 0.23086 -0.052064
-0.0011184 0.010091 -0.0005796 -0.0021859
-0.0013938 0.00066166 -0.00093244 0.00096848 -0.0011015 0.0015437 -0.001103 0.010105
0.23788 0.075882 0.0032498 0.0066799
0.00048988 -0.00044825 -0.00054448 0.00050292 -0.0011979 -0.00024951 -0.00058082 -0.002189
0.0032635 0.0066798 0.28605 0.12027
1820000000 0.25255 -0.11508 0.0042292 0.0026846 0.00013133 0.0022495 -0.0011876 -0.0028644
-0.001127 0.001038 -9.7829e-06 -0.0001365
0.0042221 0.002693 0.26172 0.16767 -5.2736e-05 7.0772e-05 -0.0011435 0.0010105
0.00012314 0.0012983 -0.00043311 0.00055786
0.00013396 0.0022504 -6.3197e-05 8.0196e-05 0.1608 -0.24844 0.0013912 0.00013469
-8.7499e-05 0.0021698 -0.0012723 0.00050298
-0.001212 -0.002855 -0.0011412 0.0010075 0.0013813 0.00012184 0.20111 -0.09709
0.0011713 0.0084394 -0.0015532 -0.001158
-0.0011357 0.0010109 0.00012584 0.0013056 -6.6106e-05 0.0021523 0.0011773 0.0084489
0.25378 0.04596 0.0042441 0.0035008
2.06e-05 -0.00011906 -0.00043889 0.00055999 -0.0012615 0.0004916 -0.0015534 -0.0011522
0.0042539 0.003495 0.28624 0.083242
1880000000 0.21588 -0.15482 0.0020898 0.00049579 -0.00044748 0.0017722 -0.002926 -0.0018813
-0.00024107 0.001809 0.00022562 -0.00053057
0.0020872 0.00050654 0.26525 0.12061 -0.0021678 0.0016324 -4.7077e-05 0.0015925
0.00070009 0.0010183 0.00022345 0.00089483
-0.00043481 0.0017815 -0.0021554 0.0016518 0.10783 -0.25822 0.0015043 -0.0011087
0.0015545 0.0016604 -0.00073119 0.0012881
-0.0029271 -0.00186 -5.715e-05 0.0015889 0.0014661 -0.0011296 0.16138 -0.13665
0.0024538 0.0059623 -0.0018976 0.00061045
-0.00024117 0.0017899 0.00069397 0.0010063 0.0015432 0.0016617 0.0024708 0.0059504
0.25508 0.011806 0.0040919 0.001782
0.00021784 -0.00053147 0.00022013 0.00088562 -0.00072873 0.001266 -0.0019042 0.00061421
0.0040941 0.0017807 0.28394 0.0488
1940000000 0.1754 -0.17951 1.5459e-05 -0.0010283 0.0013148 0.0018801 -0.0035549 0.00072663
0.0015505 0.0011539 -0.00065623 -0.00063954
1.3351e-05 -0.0010242 0.26456 0.089248 -0.0010065 0.0039495 0.00094827 0.0011167
0.0016863 0.00024611 0.00081091 0.00025015
0.0013135 0.0018904 -0.00098503 0.0039555 0.061646 -0.25055 7.3194e-05 -0.0017761
0.0022629 0.00030829 0.00040246 0.0015024
-0.0035604 0.00072713 0.00095774 0.0011121 6.0391e-05 -0.0017656 0.10978 -0.16626
0.0019238 0.0039509 -0.0011246 0.0014041
0.0015312 0.001126 0.0016942 0.0002398 0.0022422 0.00029672 0.001941 0.003967
0.25496 -0.02815 0.0032418 -0.0010873
-0.00063986 -0.00062772 0.00082774 0.00026093 0.00034349 0.0015216 -0.0011204 0.0014202
0.0032416 -0.0010816 0.27109 0.012587
2000000000 0.12879 -0.19333 -0.003634 0.0008054 0.0025321 0.001413 -0.0021389 0.0033583
0.0013399 -4.4567e-05 -0.0005802 0.00040013
-0.0036333 0.00080256 0.25004 0.053824 -0.00070239 0.0056659 0.0014955 0.00019941
0.0011042 -0.0012876 0.00033667 1.6687e-05
0.0024782 0.0014169 -0.00068288 0.005683 0.018509 -0.23578 -0.0011607 -0.00093098
0.001761 -0.001047 0.0015822 0.0011132
-0.0021349 0.0033438 0.0014916 0.00020944 -0.0011359 -0.00092438 0.057343 -0.17664
0.00025778 0.0030339 0.00018217 0.0019492
0.0013694 -3.9347e-05 0.0010903 -0.0013043 0.0017819 -0.0010209 0.00025107 0.0030298
0.24688 -0.06312 0.00042193 -0.0020846
