!Keysight Technologies,M9804A,MY58100912,A.14.10.03
!Date: Thursday, April 27, 2023 10:28:33
!Correction: S11(C  6-Port  ) 
!S12(C  6-Port  ) 
!S13(C  6-Port  ) 
!S14(C  6-Port  ) 
!S15(C  6-Port  ) 
!S16(C  6-Port  ) 
!S21(C  6-Port  ) 
!S22(C  6-Port  ) 
!S23(C  6-Port  ) 
!S24(C  6-Port  ) 
!S25(C  6-Port  ) 
!S26(C  6-Port  ) 
!S31(C  6-Port  ) 
!S32(C  6-Port  ) 
!S33(C  6-Port  ) 
!S34(C  6-Port  ) 
!S35(C  6-Port  ) 
!S36(C  6-Port  ) 
!S41(C  6-Port  ) 
!S42(C  6-Port  ) 
!S43(C  6-Port  ) 
!S44(C  6-Port  ) 
!S45(C  6-Port  ) 
!S46(C  6-Port  ) 
!S51(C  6-Port  ) 
!S52(C  6-Port  ) 
!S53(C  6-Port  ) 
!S54(C  6-Port  ) 
!S55(C  6-Port  ) 
!S56(C  6-Port  ) 
!S61(C  6-Port  ) 
!S62(C  6-Port  ) 
!S63(C  6-Port  ) 
!S64(C  6-Port  ) 
!S65(C  6-Port  ) 
!S66(C  6-Port  ) 
!S6P File: Measurement: :
# Hz S  RI   R 50
500000000 -0.33859 -0.019158 -0.010331 -0.0031136 -0.0073933 0.012119 -0.0032385 0.012221
0.011778 0.0035741 -0.0028002 0.0084117
-0.010273 -0.0030238 -0.41895 -0.037291 0.0066878 -0.011811 0.0020423 0.012424
0.0069878 0.0017803 0.002669 0.013601
-0.0072107 0.012117 0.0066549 -0.011819 -0.26173 0.22147 0.007469 0.0036025
-0.00080941 0.0076705 0.002641 0.011765
-0.0032964 0.012294 0.0020651 0.0124 0.0074752 0.003607 -0.32987 0.061525
-0.018966 -0.0064421 0.016088 0.023943
0.011599 0.0034701 0.0070213 0.001791 -0.00076226 0.0076652 -0.018984 -0.0064271
-0.23427 -0.16467 -0.024836 0.0046893
-0.0028531 0.0085079 0.0026332 0.013527 0.0026051 0.011767 0.016036 0.023949
-0.024868 0.0047042 -0.28288 -0.081984
560000000 -0.31199 0.13579 -0.026712 -0.061122 0.00072955 0.011332 0.0054984 0.0094627
0.009629 0.0042263 0.010221 0.0063708
-0.026447 -0.061112 -0.37504 0.11706 -0.042088 -0.034701 0.013208 0.0029341
-0.01232 -0.0036864 0.0029401 -0.0010451
0.00077309 0.0114 -0.042163 -0.034689 -0.18082 0.26545 -0.00036184 -0.0043781
0.018334 0.0030932 0.0066576 -0.0066371
0.0054175 0.0096048 0.013198 0.0028939 -0.00033094 -0.0043508 -0.30437 0.14707
0.001283 -0.024263 0.0033462 -0.018346
0.0097031 0.0043023 -0.01239 -0.0036499 0.018329 0.0031035 0.0012867 -0.024319
-0.28557 0.0061183 0.0042539 -0.046536
0.010226 0.0064471 0.0029041 -0.00097224 0.0066612 -0.0066738 0.0033429 -0.018399
0.0042311 -0.046522 -0.32988 0.056516
620000000 -0.27028 0.12194 -0.023277 0.0068264 0.0037152 0.0081701 0.0075355 -0.0057233
0.010342 -0.0015044 0.00041641 -0.0027662
-0.023232 0.0068864 -0.40108 0.072508 -0.019555 9.9241e-05 -0.0012219 -0.0022781
0.0099771 -0.0067551 0.0013306 -0.002739
0.0036836 0.0080896 -0.019565 0.00012637 -0.14944 0.27569 -0.0012773 -0.0044718
-0.0037482 -0.0030923 0.0075691 -0.0035691
0.0075662 -0.0057542 -0.0012527 -0.0022763 -0.0013001 -0.0044787 -0.26247 0.15967
-0.039318 -0.01823 0.011891 0.022907
0.010338 -0.0013173 0.0099721 -0.0067895 -0.0037212 -0.003154 -0.039333 -0.0182
-0.20886 -0.030168 -0.038331 0.014719
0.00044087 -0.0027216 0.0013568 -0.0027558 0.0076177 -0.003563 0.011843 0.022905
-0.038277 0.014695 -0.25572 0.02919
680000000 -0.22753 0.20305 -0.027929 -0.012496 0.0052982 0.0046649 0.0010705 -0.0070036
-0.0034068 -0.010958 0.0038742 -0.0065735
-0.027872 -0.012477 -0.3846 0.16648 -0.032469 0.00034013 -0.0016107 -0.00038404
-0.0025716 -0.0087168 -0.0014805 -0.0021291
0.0053023 0.0047047 -0.032471 0.00040443 -0.099123 0.29363 -0.00087494 -0.00010592
-0.0017734 0.0003996 -0.0036018 -0.0087265
0.0010683 -0.0069102 -0.0016138 -0.00040287 -0.00087214 -0.00011572 -0.21705 0.20634
-0.025617 -0.0058234 -0.0089514 -0.0081224
-0.0034702 -0.010923 -0.002614 -0.0087018 -0.0017735 0.00038942 -0.025642 -0.0057933
-0.24833 0.065723 -0.0065223 -0.007844
0.0038803 -0.0065814 -0.0014793 -0.0021564 -0.0035863 -0.0087312 -0.0089617 -0.0081441
-0.0065685 -0.0078204 -0.25389 0.12261
740000000 -0.18454 0.19792 -0.037138 0.025946 0.011691 -0.0057488 -0.00059135 -0.0038106
-0.0050319 -0.0029771 -0.005963 0.0033493
-0.037246 0.025907 -0.33332 0.18674 -0.033208 0.034741 -0.0010219 -0.0061678
-0.011258 0.0080637 -0.0022405 -0.0047557
0.011782 -0.0058086 -0.033164 0.034814 -0.065511 0.29367 -0.0016476 0.0030842
-0.0030674 -0.0043712 -0.00232 0.0010834
-0.00067847 -0.0038633 -0.0010217 -0.0061733 -0.001649 0.0030958 -0.19904 0.21541
-0.042153 -0.0039508 0.021717 0.012098
-0.0051934 -0.002788 -0.011253 0.0081176 -0.0030799 -0.0043749 -0.042176 -0.0038942
-0.15743 0.085868 -0.039924 0.0026132
-0.0058881 0.0032674 -0.0022557 -0.0046489 -0.0023296 0.0010744 0.021699 0.012136
-0.039957 0.0026001 -0.24179 0.13256
800000000 -0.15103 0.23555 -0.021725 0.017346 0.0043234 -0.010342 -0.0043877 -0.0015622
-0.0033798 0.0026068 0.0038442 0.00081036
-0.02168 0.017455 -0.33322 0.25502 -0.0067567 0.033516 -0.0021418 0.0023657
-0.00027907 0.0033241 0.0011334 0.0052475
0.0042999 -0.010359 -0.0066993 0.03354 -0.022356 0.31567 0.00090886 0.0015295
0.00036499 0.0035061 -0.0019402 0.001163
-0.0044295 -0.0016118 -0.0021215 0.0023708 0.00090712 0.0015341 -0.16935 0.24165
-0.027013 0.015828 0.012282 -0.010131
-0.0033392 0.0027912 -0.00025228 0.0033155 0.00037296 0.0035035 -0.027018 0.015892
-0.19425 0.11267 -0.016189 0.018445
0.003825 0.00077497 0.0011625 0.0052819 -0.0019563 0.0011789 0.012285 -0.010152
-0.016198 0.018457 -0.22953 0.17833
860000000 -0.1166 0.25594 -0.016232 0.031039 -0.0039941 -0.0091929 -0.0022541 0.0014123
0.0044735 0.004784 -0.0027514 -0.0026971
-0.016215 0.030993 -0.28613 0.29609 0.0090726 0.033016 0.0001852 0.0021939
0.0045283 5.4986e-05 0.0031455 0.00050682
-0.0039765 -0.0091856 0.009129 0.033011 0.026234 0.32257 -0.00037816 -1.018e-05
0.0025003 -0.0012104 0.0015476 0.0041686
-0.0022504 0.0013582 0.000191 0.0022144 -0.00037875 -8.7021e-06 -0.1326 0.25282
-0.015801 0.02068 -0.0057274 -0.0089043
0.0044706 0.0047711 0.0045282 2.8824e-05 0.0025064 -0.0012285 -0.015787 0.02072
-0.14391 0.15842 -0.022279 0.016214
-0.0027373 -0.0026147 0.0031185 0.00048189 0.0015402 0.0041709 -0.0057316 -0.0089134
-0.02228 0.016145 -0.18107 0.21878
920000000 -0.089648 0.27807 0.0060518 0.03711 -0.0091229 -0.0034903 -0.0014158 0.0019774
0.0015564 0.0013453 0.0026504 -0.001725
0.0060622 0.03706 -0.25543 0.31689 0.028025 0.020314 0.0017125 0.0009213
0.0068081 -0.00059682 0.0035485 -0.0029242
-0.0090953 -0.003468 0.028058 0.020266 0.073909 0.32238 0.0019232 -7.1838e-05
0.0014608 -0.00049648 0.0009714 -0.00098574
-0.0013953 0.0020009 0.0017393 0.0009268 0.0019196 -6.6375e-05 -0.10634 0.26853
-0.0077787 0.030534 0.0021713 -0.0059064
0.0016058 0.0013172 0.006797 -0.00062515 0.0014687 -0.00049676 -0.0077178 0.030566
-0.12965 0.16537 -0.00065958 0.02554
0.0025632 -0.0018166 0.003534 -0.0029297 0.00097006 -0.00099875 0.0021732 -0.0059199
-0.00070034 0.025513 -0.1799 0.23422
980000000 -0.042239 0.29606 0.018602 0.028764 -0.0081386 0.0048422 0.0022638 0.0032733
0.0039815 -0.0019597 -0.0030644 -0.0020843
0.018621 0.028713 -0.20308 0.34916 0.032248 0.0032964 0.0020968 -0.00028999
0.0014154 -0.0061823 -0.00061643 -0.0023798
-0.0081009 0.0048644 0.032258 0.0032236 0.12053 0.31394 0.00056696 -0.0013149
0.00013185 -0.0021903 0.0014924 -0.00024218
0.002258 0.0032918 0.0021163 -0.00027771 0.00057076 -0.0013077 -0.067182 0.27814
0.010325 0.028244 -0.0084134 -0.0060548
0.0039671 -0.002016 0.0014055 -0.0062294 0.00013109 -0.0021868 0.010396 0.028248
-0.098546 0.18872 0.0057599 0.018285
-0.003106 -0.0020985 -0.00062976 -0.0024109 0.0014902 -0.00025347 -0.0084261 -0.0060493
0.0057289 0.018267 -0.13579 0.27229
1040000000 0.0011595 0.30308 0.033014 0.016041 -0.00082041 0.0066106 0.0025497 0.00048192
-2.7346e-05 -0.0032845 -0.00053477 -0.001343
0.032951 0.016028 -0.16689 0.36209 0.02764 -0.015392 0.001371 -0.0018123
-0.0023375 -0.0022565 -0.0013627 -0.002804
-0.00079294 0.0066132 0.027583 -0.015458 0.16691 0.29915 -0.00059961 -0.0014835
-0.0015173 -0.00088021 -0.00026566 -0.0011343
0.0025727 0.00048233 0.0013907 -0.0017979 -0.00060271 -0.0014886 -0.038348 0.28692
0.020403 0.01567 -0.0024969 0.0014391
-5.7698e-05 -0.0032319 -0.002354 -0.0022667 -0.0015286 -0.00087122 0.020459 0.015649
-0.066382 0.19596 0.013499 0.015991
-0.00052276 -0.001345 -0.0013896 -0.0027903 -0.00025129 -0.0011428 -0.0024994 0.001448
0.013482 0.015985 -0.11038 0.29162
1100000000 0.046879 0.30897 0.034454 -0.0055132 0.0029412 0.0035365 0.0022495 -0.0011854
-0.0022153 -0.0027284 -0.0035047 0.00049947
0.034426 -0.0054941 -0.12318 0.378 0.013552 -0.027211 -0.00014494 -0.0017735
-0.0032757 -0.00043654 -0.0033008 -0.00012466
0.0029631 0.0035148 0.013474 -0.02726 0.21335 0.27688 -0.0018037 0.00018472
-0.0017475 0.00056571 -0.00084611 -0.0003699
0.0022617 -0.0011927 -0.00013897 -0.0017645 -0.001804 0.00018002 0.003264 0.28945
0.023885 0.0026961 -0.0023218 0.00034161
-0.0022504 -0.0027282 -0.0032924 -0.00043064 -0.0017614 0.00056865 0.023908 0.0026599
-0.047293 0.20753 0.017695 0.0064257
-0.0035211 0.00051775 -0.0033212 -0.00011621 -0.0008631 -0.00036203 -0.0023264 0.00034466
0.01767 0.0064317 -0.06399 0.31573
1160000000 0.097825 0.30243 0.02224 -0.021094 0.0024643 -0.00053137 -0.00017552 -0.0021949
-0.0037801 -0.00040193 -0.00064595 0.0037198
0.022211 -0.021102 -0.078886 0.38113 -0.0046542 -0.027677 -0.0015912 -0.001454
-0.0022961 0.0023196 -0.0013168 0.0016352
0.0024627 -0.00052785 -0.0047596 -0.02768 0.2555 0.24469 -0.00074135 0.0016567
-0.00053764 0.0017009 -0.001008 7.6697e-05
-0.00015531 -0.0022249 -0.0015866 -0.0014445 -0.00073701 0.0016401 0.0426 0.28431
0.019531 -0.011678 -0.0028299 0.0046192
-0.0037781 -0.00034981 -0.0022959 0.0023103 -0.00054868 0.0017045 0.019536 -0.011707
-0.013559 0.21517 0.016626 -0.0011688
-0.00059033 0.0037354 -0.001317 0.0016689 -0.00099977 9.575e-05 -0.002825 0.0046274
0.016614 -0.0011655 -0.016819 0.31595
1220000000 0.1425 0.28913 0.0087383 -0.029161 -0.0015242 -0.00058654 4.3393e-05 -0.00092055
-0.0022666 0.002333 0.0013317 0.0017521
0.0087514 -0.029144 -0.034837 0.39177 -0.016767 -0.019591 -0.0023675 0.0004691
0.00016152 0.0026716 -0.00053442 0.0017913
-0.0015252 -0.00056618 -0.016849 -0.019544 0.29425 0.20479 0.00066374 0.0017415
0.00051279 0.0011981 0.0001976 0.00057088
3.4517e-05 -0.00092795 -0.002378 0.00048203 0.00066018 0.0017373 0.082882 0.2735
0.0090033 -0.017423 0.0019095 0.001441
-0.0022499 0.00234 0.00017572 0.0026632 0.00051676 0.0011838 0.0089929 -0.017439
0.010833 0.22191 0.011694 -0.012634
0.0013601 0.0017673 -0.00052237 0.0017924 0.00020471 0.00057027 0.0019154 0.0014477
0.011693 -0.01263 0.016917 0.32756
1280000000 0.191 0.2653 -0.0085552 -0.02692 -0.0015828 0.002517 -0.0010221 -0.0019529
-0.00052421 0.002785 0.0022467 0.00085602
-0.0085446 -0.026906 0.010504 0.38179 -0.022816 -0.0075158 -0.00096258 0.0013473
0.0015448 0.001539 0.0007072 0.0017406
-0.001572 0.0025327 -0.022857 -0.0074339 0.32395 0.15977 0.0015351 2.2068e-05
0.00098836 0.00028306 0.00024418 0.00038325
-0.0010405 -0.001944 -0.00096657 0.0013389 0.0015331 3.1071e-05 0.11864 0.25427
-0.00012609 -0.01877 -0.0002408 0.00027544
-0.00051977 0.002798 0.0015486 0.0015327 0.00098485 0.00028335 -0.00015318 -0.018784
0.047256 0.22314 0.0016625 -0.014272
0.0022502 0.00085755 0.00070912 0.0017271 0.00024609 0.00038704 -0.0002416 0.00028081
0.0016789 -0.014259 0.062744 0.32518
1340000000 0.22713 0.23027 -0.017443 -0.017476 0.0011437 0.004068 -0.0016938 -0.00081846
0.0014137 0.002404 0.0014253 -0.0014195
-0.017427 -0.017475 0.049606 0.37285 -0.020408 0.0045324 -0.00017065 0.0019764
0.0017513 0.00070955 0.0012854 0.00067761
0.0011622 0.0040792 -0.020417 0.0046118 0.34533 0.11156 0.0011854 -0.00091798
0.00069369 -0.00047107 0.00020939 0.00024034
-0.0016991 -0.0008096 -0.00016623 0.0019717 0.0011866 -0.00092107 0.14971 0.23231
-0.0089486 -0.01579 0.0006877 0.00075959
0.001411 0.0024067 0.001763 0.00069876 0.00069138 -0.00047287 -0.0089811 -0.015779
0.076889 0.21657 -0.0044952 -0.012409
0.0013968 -0.0014143 0.0012907 0.00067387 0.00020678 0.00024218 0.00069528 0.00075394
-0.0045039 -0.012411 0.1012 0.31721
1400000000 0.25884 0.1909 -0.022345 -0.0064872 0.004989 0.0026308 -0.0021021 0.0005994
0.0022359 0.00065135 0.00012242 -0.0013474
-0.02233 -0.0064881 0.086322 0.35921 -0.013813 0.011917 0.0012609 0.0013485
0.0010917 -0.00071964 0.0010647 0.00012753
0.0049929 0.0026568 -0.013782 0.01197 0.35824 0.057039 0.0001959 -0.0017368
5.4739e-05 -0.00034436 0.00033093 0.00015645
-0.002086 0.00060238 0.0012731 0.0013451 0.00019787 -0.0017386 0.17777 0.20175
-0.014386 -0.0094138 -0.00042974 0.00010288
0.0022339 0.00065262 0.001103 -0.00073065 5.1313e-05 -0.00034611 -0.014419 -0.0093965
0.10888 0.20984 -0.0099547 -0.0074988
0.00011353 -0.0013525 0.001064 0.0001207 0.00032956 0.00014649 -0.0004246 9.7889e-05
-0.0099367 -0.0075082 0.14408 0.30267
1460000000 0.28006 0.14657 -0.019351 0.0048159 0.0051282 -0.0020764 -0.0015526 0.0016616
0.0018444 -0.00060109 -0.0004006 -0.00082421
-0.019325 0.0047975 0.1201 0.33707 -0.0058035 0.014417 0.0017342 0.00019797
0.00086241 -0.0011927 0.0010792 -0.00056419
0.0051303 -0.0020821 -0.0057433 0.014442 0.36275 0.002019 -0.0013159 -0.0013346
0.00010508 -0.00016598 0.00059234 -0.00029278
-0.0015559 0.0016528 0.0017428 0.00018406 -0.0013188 -0.0013369 0.20169 0.17162
-0.01557 -0.0031788 -0.0005036 0.0018833
0.0018172 -0.00061276 0.00085323 -0.0012003 9.8893e-05 -0.00018069 -0.015578 -0.0031424
0.13687 0.1935 -0.011177 -0.0021214
-0.00040195 -0.00083092 0.0010788 -0.00056884 0.00059968 -0.00030464 -0.00049557 0.0018824
-0.011156 -0.0021437 0.17613 0.27984
1520000000 0.29144 0.10434 -0.0138 0.0099452 0.0027484 -0.0039548 7.3938e-05 0.0025775
0.0018514 -0.0015228 -0.001032 -5.3856e-05
-0.013788 0.0099436 0.15356 0.32184 0.0012687 0.012464 0.0016899 -0.00083726
7.7308e-05 -0.0010812 0.00027395 -0.00092958
0.002756 -0.0039742 0.0013344 0.012459 0.35509 -0.054691 -0.0012833 -0.00036355
0.0004932 -0.00083722 -4.0005e-05 -0.00013197
8.1752e-05 0.0025725 0.0016837 -0.00084649 -0.0012827 -0.00036578 0.22295 0.13354
-0.015125 0.002408 0.0016628 0.0017432
0.0018315 -0.0015404 7.2115e-05 -0.0010898 0.00049582 -0.0008437 -0.015133 0.0024548
0.16403 0.17815 -0.010929 0.001898
-0.0010398 -4.8539e-05 0.00025963 -0.0009231 -3.4202e-05 -0.00013442 0.0016686 0.0017421
-0.010925 0.0018899 0.20821 0.2565
1580000000 0.29952 0.057865 -0.0076689 0.01271 -0.0010345 -0.0043626 0.0014779 0.001861
-0.00016175 -0.0019494 -0.00026392 0.00039477
-0.0076541 0.012698 0.18055 0.29639 0.0047134 0.0079724 0.00042922 -0.0016979
-0.00054111 -0.0010622 -0.00024363 -0.00078857
-0.0010597 -0.0043669 0.0047582 0.007959 0.3338 -0.11242 -0.001652 0.00077612
-0.00024693 -0.0010571 0.00017236 -0.0005446
0.0014737 0.0018549 0.00042923 -0.0017061 -0.0016549 0.00077541 0.23484 0.094212
-0.012179 0.0073848 0.0021706 0.00033018
-0.0001766 -0.0019369 -0.00053801 -0.0010568 -0.0002513 -0.0010571 -0.012178 0.0074235
0.1869 0.15856 -0.008739 0.00682
-0.00026355 0.00041249 -0.00024526 -0.00079383 0.00017328 -0.00054738 0.0021777 0.00032533
-0.0087466 0.0068194 0.23772 0.22767
1640000000 0.3006 0.016289 -0.0014278 0.011654 -0.0025681 -0.0022612 0.0026512 0.00090794
-0.00068519 -0.0014834 -0.00019319 0.00057997
-0.0014345 0.011633 0.20974 0.27076 0.0054323 0.0036495 -0.00084595 -0.0016761
-0.0010936 -0.00036831 -0.00052221 -0.00054006
-0.0025605 -0.0022686 0.005444 0.003614 0.30416 -0.16084 -0.00067864 0.0015438
-0.0011246 -0.00077356 -0.0002308 -0.00016102
0.0026657 0.0008958 -0.000854 -0.0016784 -0.00068511 0.0015446 0.24528 0.046402
-0.0081892 0.0093286 0.0022254 -0.001128
-0.00069924 -0.0014675 -0.0011034 -0.00037108 -0.001126 -0.00078346 -0.0081771 0.0093568
0.20814 0.13337 -0.004425 0.0086808
-0.00019405 0.00059956 -0.00051679 -0.00054377 -0.00022627 -0.00015645 0.0022181 -0.0011336
-0.0044213 0.0086759 0.26142 0.19481
1700000000 0.29225 -0.029599 0.0017921 0.0091239 -0.0031336 0.00026481 0.0029403 -0.0013014
-0.0018719 -0.00073845 0.00066922 0.00037253
0.0017856 0.009106 0.22752 0.23867 0.0037635 0.00090622 -0.0014798 -0.00046918
-0.00080103 0.00019214 -0.00085847 -0.00035311
-0.0031264 0.00026123 0.0037623 0.00087901 0.2608 -0.20046 0.0006408 0.0014983
-0.0017772 -0.00022668 -0.00061997 -0.00069845
0.0029326 -0.001296 -0.0014796 -0.00046372 0.00064358 0.0014992 0.24104 -0.0023427
-0.0049822 0.010479 0.0011192 -0.0021021
-0.0018881 -0.00072502 -0.00080776 0.00019592 -0.0017908 -0.00022638 -0.0049604 0.010488
0.22458 0.11203 -0.00017142 0.0090847
0.00066577 0.0003528 -0.0008601 -0.00034974 -0.00062903 -0.00069647 0.0011263 -0.0021066
-0.00017414 0.0090707 0.27571 0.15894
1760000000 0.27859 -0.078203 0.0039929 0.0060671 -0.0020091 0.00081713 0.001037 -0.0034315
-0.0013875 0.00065184 0.00049489 -0.00044649
0.0039804 0.0060653 0.25259 0.19787 0.0017368 -0.0010418 -0.0011562 0.00028968
-0.00092694 0.00096248 -0.00055154 0.00049861
-0.0020171 0.00080571 0.0017236 -0.0010619 0.21139 -0.23392 0.0013532 0.00087884
-0.001121 0.0015383 -0.0012348 -0.00025493
0.0010447 -0.0034254 -0.0011604 0.00029409 0.0013471 0.00087971 0.23092 -0.051983
-0.0011341 0.010108 -0.00057426 -0.0021861
-0.0013733 0.00064931 -0.00091679 0.00097177 -0.001126 0.0015294 -0.001122 0.010115
0.23788 0.076079 0.0032635 0.0066792
0.00048754 -0.00044645 -0.00054239 0.00050479 -0.0012426 -0.00023397 -0.00057576 -0.0021902
0.0032585 0.0066796 0.286 0.12041
1820000000 0.25253 -0.11508 0.0042472 0.0026484 0.00011243 0.0022724 -0.0012013 -0.0028638
-0.0011372 0.00099769 1.6627e-05 -0.00012133
0.0042427 0.0026389 0.26169 0.16766 -6.1443e-05 6.295e-05 -0.0011352 0.00099724
0.00012437 0.0012908 -0.00044366 0.0005569
0.00011665 0.0022482 -6.1892e-05 6.8804e-05 0.16078 -0.24842 0.0013935 9.4821e-05
-7.6874e-05 0.0021402 -0.0012704 0.00049618
-0.0011796 -0.0028707 -0.0011388 0.0010146 0.0014047 0.00010591 0.2012 -0.097037
0.0011609 0.0084782 -0.0015417 -0.0011649
-0.0011156 0.0010119 0.00012364 0.0012933 -8.3395e-05 0.0021528 0.0011905 0.0084821
0.25384 0.046137 0.0042771 0.0034776
7.1446e-06 -0.00011903 -0.00044111 0.0005609 -0.0012603 0.0005049 -0.0015378 -0.0011613
0.0042788 0.0034781 0.28617 0.083344
1880000000 0.21588 -0.1548 0.0020906 0.00046083 -0.00043141 0.0017691 -0.0029181 -0.0018709
-0.0002427 0.0017919 0.00023541 -0.00052612
0.0020792 0.00045251 0.26521 0.12067 -0.0021556 0.0016155 -5.4132e-05 0.0015928
0.00068058 0.0010058 0.00022644 0.00088322
-0.00045383 0.0017926 -0.0021608 0.0016357 0.10781 -0.2582 0.0014693 -0.0011229
0.0015415 0.0016324 -0.0007308 0.0012713
-0.0029355 -0.0018714 -4.8081e-05 0.0015957 0.001473 -0.0011191 0.16149 -0.13665
0.0024655 0.0059973 -0.0019078 0.00057485
-0.00023939 0.0018012 0.00068471 0.001004 0.0015378 0.001632 0.0024776 0.0059896
0.25522 0.011953 0.0041096 0.0017597
0.000227 -0.0005309 0.00023032 0.00088077 -0.00073449 0.001265 -0.0019065 0.00057464
0.0041084 0.0017471 0.28393 0.048927
1940000000 0.17544 -0.17948 -4.4235e-06 -0.0010614 0.0013044 0.0018888 -0.0035766 0.00073219
0.0015067 0.0011297 -0.0006374 -0.00063814
-1.287e-05 -0.0010744 0.26458 0.089275 -0.0010153 0.0039392 0.00094918 0.0011242
0.0016862 0.00024924 0.00082437 0.00025561
0.0013071 0.0018705 -0.0010112 0.0039467 0.061664 -0.25056 7.5366e-05 -0.0017575
0.0022443 0.00031203 0.00035611 0.0014973
-0.0035599 0.00072406 0.00095035 0.0011047 7.3659e-05 -0.0017574 0.10986 -0.16628
0.0019315 0.0039955 -0.0011303 0.0014013
0.0015303 0.0011294 0.0016988 0.00023791 0.0022451 0.00030715 0.0019553 0.0039943
0.25508 -0.028076 0.003261 -0.0011318
-0.00068419 -0.00063539 0.00083389 0.00026013 0.00037216 0.0015047 -0.0011323 0.0013998
0.0032642 -0.0011341 0.27115 0.01264
2000000000 0.12878 -0.19332 -0.0036573 0.00078464 0.0024955 0.0014382 -0.0021559 0.0033369
0.0013557 -2.8231e-05 -0.00058815 0.0004253
-0.0036723 0.00076696 0.25002 0.053847 -0.00073319 0.0056858 0.0014801 0.00021605
0.0011052 -0.0012918 0.00033704 2.316e-06
0.0025031 0.0013979 -0.0007126 0.0056985 0.018532 -0.23573 -0.0011753 -0.00090938
0.0017703 -0.0010279 0.0015837 0.0011163
-0.0021006 0.0033504 0.0014849 0.00021483 -0.0011806 -0.00091337 0.057353 -0.17672
0.00031763 0.0030341 0.00015533 0.0019559
0.0013615 -1.6491e-05 0.0011015 -0.0012935 0.0017705 -0.0010238 0.00032997 0.0030351
0.24708 -0.063102 0.00042184 -0.002104
