!Keysight Technologies,M9804A,MY58100912,A.14.10.03
!Date: Thursday, April 27, 2023 10:28:33
!Correction: S11(C  6-Port  ) 
!S12(C  6-Port  ) 
!S13(C  6-Port  ) 
!S14(C  6-Port  ) 
!S15(C  6-Port  ) 
!S16(C  6-Port  ) 
!S21(C  6-Port  ) 
!S22(C  6-Port  ) 
!S23(C  6-Port  ) 
!S24(C  6-Port  ) 
!S25(C  6-Port  ) 
!S26(C  6-Port  ) 
!S31(C  6-Port  ) 
!S32(C  6-Port  ) 
!S33(C  6-Port  ) 
!S34(C  6-Port  ) 
!S35(C  6-Port  ) 
!S36(C  6-Port  ) 
!S41(C  6-Port  ) 
!S42(C  6-Port  ) 
!S43(C  6-Port  ) 
!S44(C  6-Port  ) 
!S45(C  6-Port  ) 
!S46(C  6-Port  ) 
!S51(C  6-Port  ) 
!S52(C  6-Port  ) 
!S53(C  6-Port  ) 
!S54(C  6-Port  ) 
!S55(C  6-Port  ) 
!S56(C  6-Port  ) 
!S61(C  6-Port  ) 
!S62(C  6-Port  ) 
!S63(C  6-Port  ) 
!S64(C  6-Port  ) 
!S65(C  6-Port  ) 
!S66(C  6-Port  ) 
!S6P File: Measurement: :
# Hz S  RI   R 50
500000000 -0.33871 -0.018718 -0.010434 -0.0033117 -0.0071614 0.012094 -0.002922 0.011841
0.011345 0.0035461 -0.0023579 0.008078
-0.010421 -0.0033243 -0.41869 -0.037112 0.0068171 -0.012061 0.002068 0.012554
0.0069576 0.0021103 0.002662 0.013846
-0.0071438 0.012077 0.0068013 -0.012063 -0.2619 0.22139 0.0074195 0.0035803
-0.00034227 0.0080593 0.0026196 0.012033
-0.0029127 0.011837 0.0020969 0.012553 0.0074314 0.0035871 -0.32995 0.061736
-0.018574 -0.0064744 0.016139 0.023853
0.011348 0.0035105 0.0069457 0.0020923 -0.00033488 0.0080649 -0.018569 -0.0064741
-0.2351 -0.16543 -0.024339 0.0046215
-0.0023491 0.0080705 0.0026814 0.013822 0.0026322 0.012054 0.016141 0.023826
-0.02433 0.0046188 -0.28223 -0.081479
560000000 -0.3119 0.13598 -0.026664 -0.061044 0.00072049 0.011188 0.0054262 0.0097863
0.0092665 0.0044442 0.010178 0.0065195
-0.026607 -0.061001 -0.37552 0.11702 -0.041828 -0.03527 0.013525 0.0034822
-0.012208 -0.0042242 0.0032606 -0.00096018
0.00075173 0.011201 -0.04193 -0.035223 -0.18024 0.26616 -0.00078588 -0.0045937
0.018732 0.003383 0.0067075 -0.0064242
0.0054352 0.0097941 0.013524 0.0034457 -0.00078843 -0.0045923 -0.30472 0.1471
0.0011155 -0.024442 0.0032273 -0.018483
0.0093104 0.0044248 -0.012254 -0.0041849 0.018759 0.0033751 0.001097 -0.02443
-0.28562 0.0070275 0.004317 -0.046688
0.010183 0.0065137 0.0032854 -0.0009541 0.0066946 -0.0064327 0.0032243 -0.01849
0.0043554 -0.046689 -0.32955 0.057083
620000000 -0.2701 0.12166 -0.023266 0.0068661 0.0035087 0.0080698 0.0076042 -0.0057277
0.010268 -0.0015879 0.00063241 -0.002801
-0.023244 0.0068469 -0.40113 0.072564 -0.019541 4.0644e-05 -0.0010767 -0.0022936
0.0096866 -0.0066502 0.0012317 -0.0030503
0.0035369 0.0080714 -0.019542 5.6995e-05 -0.14936 0.27571 -0.0012532 -0.0046768
-0.0036366 -0.0028623 0.0079384 -0.0037765
0.007604 -0.0057205 -0.001082 -0.0022959 -0.0012554 -0.0046741 -0.26206 0.15961
-0.03951 -0.017813 0.012181 0.023199
0.010257 -0.0015822 0.009646 -0.0066895 -0.0036453 -0.002874 -0.03953 -0.017797
-0.20938 -0.030689 -0.038617 0.014428
0.0006129 -0.0028307 0.0012196 -0.0030661 0.0079192 -0.0037747 0.012193 0.023211
-0.038621 0.014395 -0.25537 0.02907
680000000 -0.22743 0.20293 -0.02786 -0.012548 0.0052819 0.004544 0.00104 -0.0071004
-0.0035735 -0.010971 0.0037265 -0.0065501
-0.027851 -0.01255 -0.38453 0.16652 -0.032404 0.00030255 -0.0015634 -0.00036324
-0.002659 -0.0087464 -0.0016318 -0.0021661
0.0052731 0.0045304 -0.032414 0.00036386 -0.099022 0.29372 -0.00077178 -0.00016778
-0.0018223 0.00031661 -0.0036956 -0.008609
0.001034 -0.0071222 -0.0015591 -0.00036608 -0.00077104 -0.00016816 -0.21708 0.206
-0.025553 -0.0057763 -0.0086607 -0.0082627
-0.0036032 -0.010978 -0.0026861 -0.0087349 -0.0018286 0.00031407 -0.025573 -0.0057637
-0.24832 0.06554 -0.0068918 -0.0078899
0.0037223 -0.0065387 -0.0016367 -0.0021737 -0.0036839 -0.0086131 -0.0086933 -0.008247
-0.0068892 -0.0078902 -0.25424 0.12306
740000000 -0.18439 0.19781 -0.037227 0.026063 0.011789 -0.005782 -0.00054114 -0.0039534
-0.0051524 -0.0027766 -0.0055104 0.0035161
-0.03723 0.026024 -0.3332 0.18655 -0.033075 0.034896 -0.0010545 -0.0062316
-0.01117 0.0081314 -0.0020303 -0.0048637
0.011781 -0.0057998 -0.033001 0.034962 -0.065375 0.29373 -0.0016448 0.0030458
-0.0032652 -0.0041757 -0.0021206 0.00099324
-0.00054049 -0.0039565 -0.0010679 -0.0062229 -0.0016515 0.0030459 -0.19916 0.21534
-0.042296 -0.0038911 0.021726 0.012107
-0.0051568 -0.002761 -0.011172 0.0082016 -0.0032741 -0.0041551 -0.042317 -0.0038647
-0.15696 0.086009 -0.039504 0.0028649
-0.0055168 0.0035162 -0.0020717 -0.004874 -0.002128 0.00096478 0.02173 0.0121
-0.039499 0.0028433 -0.24186 0.13323
800000000 -0.15108 0.23557 -0.021812 0.017392 0.0043009 -0.01031 -0.0044492 -0.0016897
-0.0033524 0.0028966 0.0038119 0.00061606
-0.021816 0.017369 -0.33327 0.25507 -0.0068044 0.033538 -0.0021608 0.0023392
-0.00033595 0.0033382 0.0012002 0.0053401
0.0042833 -0.010326 -0.0067477 0.033557 -0.022269 0.31567 0.00090377 0.0014792
0.00035724 0.0035366 -0.0019719 0.0011931
-0.0044443 -0.001678 -0.0021635 0.0023436 0.0009043 0.0014822 -0.16944 0.24172
-0.026973 0.015935 0.01222 -0.010022
-0.0033519 0.0029058 -0.000332 0.0033514 0.00036979 0.0035324 -0.026973 0.015989
-0.19422 0.11277 -0.016262 0.018369
0.0038197 0.00062271 0.0012091 0.0053577 -0.0019575 0.0011931 0.012221 -0.010041
-0.016268 0.018368 -0.22947 0.17864
860000000 -0.11659 0.2559 -0.016235 0.030986 -0.0039559 -0.009186 -0.0023481 0.001248
0.0046183 0.004799 -0.0028127 -0.0026168
-0.01624 0.030946 -0.28613 0.29607 0.0090781 0.032981 0.00020799 0.0021733
0.0045802 0.00015937 0.0032444 0.00057727
-0.0039669 -0.009182 0.0091326 0.032971 0.026284 0.32257 -0.000397 -7.0835e-05
0.0024719 -0.0012123 0.0015926 0.0042715
-0.0023425 0.001252 0.00021154 0.0021609 -0.00039524 -7.0458e-05 -0.13276 0.2527
-0.015768 0.02056 -0.0057659 -0.0088292
0.004641 0.0047872 0.0045712 0.00014038 0.0024789 -0.0012148 -0.01576 0.020606
-0.14385 0.1586 -0.022418 0.016331
-0.0028304 -0.0026135 0.0032579 0.00055558 0.001589 0.0042784 -0.0057746 -0.0088178
-0.022435 0.016285 -0.18062 0.21902
920000000 -0.089661 0.27803 0.0060064 0.037072 -0.0091729 -0.0035052 -0.0014214 0.0019996
0.001503 0.001357 0.0025756 -0.001797
0.0059597 0.037036 -0.25552 0.31687 0.027996 0.020259 0.0017516 0.00093623
0.0068439 -0.00058276 0.0035599 -0.0027626
-0.0091745 -0.0034932 0.028033 0.020215 0.073959 0.32241 0.001938 -5.1024e-05
0.0015202 -0.00052381 0.0008709 -0.00099161
-0.0014039 0.0020102 0.0017393 0.00092612 0.0019405 -4.9705e-05 -0.10631 0.26858
-0.0077522 0.030527 0.0021602 -0.0058747
0.0015335 0.0013388 0.0068422 -0.00060671 0.0015277 -0.00052271 -0.0077156 0.030561
-0.12951 0.16565 -0.00049624 0.025562
0.0025862 -0.0018036 0.0035898 -0.0027632 0.00088381 -0.00097721 0.0021544 -0.0058876
-0.0005258 0.025567 -0.17956 0.23427
980000000 -0.042097 0.29603 0.018667 0.028778 -0.0081121 0.004903 0.0022854 0.0032433
0.0039461 -0.0019092 -0.0031333 -0.0020906
0.018644 0.02874 -0.20298 0.34918 0.032303 0.0033003 0.0021185 -0.00025541
0.0013926 -0.0060764 -0.0006684 -0.002411
-0.0080961 0.0049134 0.032304 0.0032344 0.12059 0.31397 0.00054949 -0.001282
0.00013636 -0.0021739 0.0014989 -0.00020777
0.002284 0.0032477 0.0021175 -0.00027897 0.00055494 -0.0012831 -0.067098 0.27817
0.010309 0.028288 -0.0084769 -0.0060172
0.0039612 -0.0019137 0.0013634 -0.0060968 0.00013417 -0.0021794 0.010373 0.028283
-0.09853 0.18893 0.0056774 0.018228
-0.0031284 -0.0020849 -0.00065966 -0.0024031 0.0014952 -0.00021897 -0.0084807 -0.0060119
0.0056721 0.018244 -0.13569 0.27257
1040000000 0.0012037 0.30312 0.033023 0.016013 -0.00080335 0.0065911 0.0025285 0.00042304
-5.4247e-05 -0.0032956 -0.00053741 -0.0013474
0.032963 0.015997 -0.1669 0.36208 0.02764 -0.015408 0.0014169 -0.0018196
-0.0023344 -0.0022181 -0.0014754 -0.0027314
-0.00077356 0.0065886 0.027595 -0.015464 0.16696 0.29914 -0.0005918 -0.0014807
-0.0015411 -0.00088527 -0.00031147 -0.0011297
0.002535 0.00042874 0.001398 -0.0018284 -0.00059118 -0.0014747 -0.038285 0.28694
0.020415 0.015674 -0.0025286 0.0014705
-5.6026e-05 -0.0032897 -0.0023561 -0.002215 -0.0015367 -0.00087701 0.020445 0.015654
-0.066364 0.19604 0.013455 0.015976
-0.00054792 -0.0013474 -0.0014529 -0.002731 -0.00032241 -0.0011216 -0.0025288 0.0014785
0.013428 0.015995 -0.10991 0.29166
1100000000 0.046969 0.30905 0.0344 -0.0054798 0.002936 0.0035218 0.0022275 -0.0012012
-0.0022466 -0.0027447 -0.0035223 0.00051659
0.034373 -0.0054624 -0.12318 0.37811 0.013532 -0.027198 -0.00010618 -0.0017714
-0.0033024 -0.000441 -0.0033074 -0.00012388
0.0029423 0.0035088 0.013468 -0.027234 0.21342 0.27687 -0.0018006 0.00018592
-0.0017368 0.00058541 -0.00083222 -0.00033893
0.002231 -0.0011993 -0.00011792 -0.0017702 -0.0018031 0.00018087 0.0033075 0.28948
0.023906 0.0026439 -0.0023038 0.0004036
-0.0022608 -0.0027299 -0.0033154 -0.0004308 -0.001734 0.00058485 0.023919 0.0026078
-0.047202 0.2078 0.017718 0.0064418
-0.0035202 0.00051188 -0.0033083 -0.00011536 -0.00083065 -0.00033972 -0.0023029 0.00041263
0.0177 0.0064519 -0.063735 0.3158
1160000000 0.097852 0.30243 0.022199 -0.021065 0.0024632 -0.00053816 -0.0001627 -0.0022333
-0.0037788 -0.00042312 -0.00060959 0.003717
0.022189 -0.021063 -0.078818 0.3812 -0.0046525 -0.027697 -0.0015748 -0.0014395
-0.0022803 0.0023013 -0.0012712 0.0016441
0.0024714 -0.00054493 -0.0047497 -0.027679 0.25556 0.24462 -0.00070299 0.0016562
-0.00057289 0.0017193 -0.0010076 9.6267e-05
-0.00016313 -0.0022245 -0.0015871 -0.0014519 -0.00070892 0.0016492 0.042576 0.28426
0.019526 -0.011716 -0.0027931 0.0046218
-0.0037768 -0.0004 -0.002282 0.0023083 -0.0005792 0.0017273 0.019515 -0.011752
-0.013421 0.21546 0.016655 -0.0012199
-0.00060844 0.0037074 -0.0012478 0.0016525 -0.0010132 9.1261e-05 -0.0027985 0.0046481
0.016634 -0.0012093 -0.01655 0.31615
1220000000 0.14263 0.28916 0.0087449 -0.029118 -0.0015167 -0.00056239 3.4268e-05 -0.00091996
-0.0022611 0.0023454 0.0013583 0.0017454
0.0087502 -0.029103 -0.034719 0.39182 -0.016777 -0.019571 -0.002367 0.0004835
0.00017684 0.0026728 -0.00052621 0.0017839
-0.0015219 -0.00055349 -0.016845 -0.019516 0.29428 0.20472 0.0006851 0.0017278
0.00055787 0.0011671 0.00022855 0.0005818
3.8986e-05 -0.00091435 -0.0023663 0.0004858 0.00068595 0.0017323 0.082888 0.27358
0.0089523 -0.017437 0.001892 0.0014679
-0.0022507 0.0023626 0.00018861 0.0026743 0.00055031 0.001163 0.0089371 -0.017455
0.011107 0.22216 0.011612 -0.012577
0.0013638 0.001734 -0.0005144 0.001788 0.00022653 0.00057705 0.0018964 0.0014685
0.0116 -0.012579 0.017182 0.32763
1280000000 0.1911 0.26521 -0.0085296 -0.026854 -0.001577 0.0024992 -0.0010192 -0.0019322
-0.00053441 0.0028202 0.0022488 0.00084492
-0.0085078 -0.026845 0.010627 0.38179 -0.022805 -0.0075036 -0.00094318 0.0013552
0.0015378 0.001536 0.00064944 0.0017397
-0.0015712 0.0024984 -0.022828 -0.0074347 0.32399 0.15969 0.0015401 2.4124e-06
0.00097287 0.00028693 0.00021824 0.00034768
-0.0010191 -0.0019164 -0.00094611 0.0013529 0.0015395 1.032e-05 0.11869 0.25436
-0.00017468 -0.018807 -0.00024437 0.00024999
-0.00051598 0.0028214 0.0015403 0.0015309 0.00097511 0.00028934 -0.00021618 -0.018817
0.047583 0.22331 0.0016681 -0.014266
0.0022568 0.00083619 0.00066521 0.0017359 0.00021501 0.000349 -0.00024483 0.0002496
0.0016718 -0.014269 0.06296 0.32521
1340000000 0.22718 0.23021 -0.0174 -0.017429 0.0011381 0.0040811 -0.0016934 -0.00078668
0.0013971 0.0023863 0.0013923 -0.0014054
-0.017369 -0.017434 0.049694 0.37284 -0.020422 0.0045316 -0.00016851 0.0019661
0.0017595 0.00069576 0.0013151 0.00066344
0.0011507 0.0040792 -0.020414 0.0046006 0.34534 0.11151 0.0011648 -0.00090637
0.00070281 -0.00044905 0.00021422 0.00019943
-0.0016994 -0.00079467 -0.00015308 0.0019594 0.0011622 -0.00090947 0.14976 0.23239
-0.0090143 -0.015788 0.00067862 0.0007769
0.0014139 0.0023815 0.0017513 0.00069871 0.00070042 -0.00044535 -0.0090413 -0.015782
0.077261 0.21666 -0.004514 -0.012384
0.001399 -0.0014041 0.0013133 0.00065929 0.00021156 0.00020103 0.00068342 0.00077518
-0.0045121 -0.012386 0.10142 0.31718
1400000000 0.25887 0.19081 -0.022281 -0.006497 0.0050065 0.0026578 -0.0020743 0.00059661
0.0022322 0.00067935 0.00010312 -0.0013484
-0.022246 -0.0065094 0.086403 0.35914 -0.013811 0.011934 0.0012383 0.0013312
0.0011101 -0.00071595 0.0010796 0.00013588
0.0050113 0.002642 -0.013777 0.011985 0.35827 0.056984 0.00018783 -0.0017154
7.7723e-05 -0.00037667 0.0003109 0.00014984
-0.0020775 0.0006073 0.0012525 0.0013242 0.00018505 -0.0017191 0.17791 0.20179
-0.014448 -0.0093745 -0.00042909 9.4741e-05
0.0022336 0.00066078 0.0011046 -0.00071824 7.4429e-05 -0.00037868 -0.014472 -0.0093494
0.10926 0.20982 -0.0099422 -0.0074596
0.00010389 -0.0013391 0.0010754 0.00013903 0.00030778 0.0001535 -0.00042394 9.2918e-05
-0.0099273 -0.0074718 0.14436 0.30264
1460000000 0.28004 0.14651 -0.01928 0.0047589 0.0051518 -0.0020901 -0.0015311 0.0016453
0.0018144 -0.00059616 -0.00040103 -0.00079815
-0.01928 0.0047438 0.12016 0.337 -0.0057796 0.01439 0.0017207 0.00020434
0.0008382 -0.0011822 0.0010694 -0.0005491
0.0051459 -0.002095 -0.0057365 0.014414 0.36274 0.0020136 -0.0013211 -0.0013178
0.00012571 -0.00017174 0.00062826 -0.00026932
-0.0015382 0.0016475 0.0017231 0.00019506 -0.0013262 -0.0013109 0.20184 0.17163
-0.015586 -0.0030886 -0.00046823 0.0018807
0.0018058 -0.00060897 0.00082453 -0.0011857 0.00013099 -0.00017263 -0.015607 -0.0030616
0.13726 0.1934 -0.011093 -0.0021396
-0.00040146 -0.00080886 0.0010677 -0.00053512 0.00062791 -0.00028466 -0.00047373 0.0018606
-0.011104 -0.0021462 0.17634 0.27976
1520000000 0.29139 0.10434 -0.013788 0.0098793 0.0027081 -0.0039557 8.0581e-05 0.0025614
0.0018824 -0.0015363 -0.0010184 -6.426e-05
-0.013784 0.0098568 0.15359 0.32178 0.0012793 0.012461 0.0016764 -0.00083382
9.7025e-05 -0.0010817 0.00025882 -0.00091715
0.0027013 -0.0039584 0.0013247 0.012459 0.3551 -0.054735 -0.0012617 -0.0003602
0.00050158 -0.00083575 -2.845e-05 -0.0001189
8.7464e-05 0.0025554 0.0016754 -0.00083663 -0.0012618 -0.00035434 0.22312 0.13348
-0.015107 0.0024942 0.0016351 0.0017383
0.0018673 -0.0015516 9.4036e-05 -0.0010819 0.00049917 -0.00084218 -0.015116 0.0025273
0.16438 0.17795 -0.010882 0.0019159
-0.0010178 -6.2851e-05 0.00025574 -0.00092069 -3.2743e-05 -0.00012076 0.0016419 0.0017412
-0.010877 0.0019175 0.20846 0.25641
1580000000 0.29947 0.057896 -0.0077055 0.012643 -0.0010716 -0.0043259 0.0014638 0.0018659
-0.00017052 -0.0019464 -0.00025902 0.00039867
-0.007709 0.012622 0.18055 0.29635 0.0047146 0.0079743 0.00044669 -0.00169
-0.00051934 -0.001065 -0.00024061 -0.00077756
-0.0010879 -0.0043298 0.0047435 0.007961 0.33383 -0.11246 -0.001618 0.00077625
-0.000239 -0.0010306 0.00014225 -0.00054209
0.0014705 0.0018638 0.00044284 -0.0016886 -0.0016208 0.00078065 0.23495 0.094062
-0.012106 0.0074677 0.0021733 0.00031829
-0.0001849 -0.0019415 -0.0005304 -0.0010655 -0.00024702 -0.0010329 -0.012108 0.0074983
0.18722 0.15831 -0.0086632 0.0067764
-0.00025835 0.00039822 -0.0002508 -0.0007762 0.00014013 -0.00056272 0.0021768 0.00031486
-0.008665 0.0067745 0.23801 0.22746
1640000000 0.30063 0.01633 -0.0014963 0.011625 -0.00254 -0.0022556 0.0026503 0.00090848
-0.00067521 -0.0014667 -0.00017222 0.0006043
-0.0015022 0.011621 0.20975 0.27073 0.005415 0.0036358 -0.00082342 -0.0016758
-0.0010868 -0.00038205 -0.0005238 -0.00054498
-0.0025495 -0.0022461 0.0054307 0.0036106 0.30409 -0.16089 -0.0006778 0.0015458
-0.0011446 -0.00079647 -0.00021372 -0.00021113
0.0026556 0.00089982 -0.0008377 -0.0016762 -0.00068118 0.0015482 0.24529 0.04625
-0.0080914 0.0093576 0.0022254 -0.0011302
-0.0006822 -0.0014655 -0.0010945 -0.00037363 -0.0011509 -0.00079367 -0.0080752 0.009381
0.20835 0.13306 -0.0044127 0.0086259
-0.00016925 0.00060538 -0.00052636 -0.00054121 -0.0002152 -0.00021236 0.0022285 -0.0011333
-0.0044207 0.0086208 0.26163 0.19466
1700000000 0.29232 -0.029569 0.0017106 0.0091282 -0.0031596 0.00027009 0.0029395 -0.0012531
-0.001905 -0.00070734 0.00064765 0.0003777
0.0016994 0.0091221 0.22752 0.23864 0.0037483 0.00087182 -0.0014797 -0.00047641
-0.000807 0.00018687 -0.00084841 -0.00036094
-0.0031583 0.00028199 0.0037547 0.00085108 0.26079 -0.20051 0.00066046 0.0015019
-0.001772 -0.00021966 -0.00062223 -0.00070944
0.0029366 -0.0012588 -0.0014793 -0.00047271 0.00065863 0.0014994 0.24105 -0.0024819
-0.0048575 0.010492 0.0011048 -0.0021035
-0.001906 -0.00069798 -0.00080641 0.00018666 -0.0017878 -0.00021455 -0.0048486 0.01051
0.22467 0.11167 -0.00022262 0.0089957
0.00065135 0.00036891 -0.00084245 -0.00036048 -0.00062187 -0.00070925 0.0010987 -0.002112
-0.00022788 0.0089905 0.27594 0.1587
1760000000 0.27864 -0.078325 0.0039386 0.0060969 -0.0020127 0.00083453 0.0010444 -0.0034093
-0.0013962 0.00065672 0.00048266 -0.00044872
0.0039381 0.0060976 0.25262 0.19783 0.0016892 -0.001045 -0.0011734 0.00028638
-0.00094741 0.00096316 -0.00053883 0.00047908
-0.0019985 0.00084813 0.0016913 -0.0010499 0.21137 -0.23395 0.0013507 0.00090303
-0.0011161 0.001485 -0.0011622 -0.00023776
0.0010407 -0.0034074 -0.001171 0.00029416 0.0013511 0.00090447 0.23085 -0.052104
-0.0010184 0.010031 -0.00056376 -0.0021643
-0.0013838 0.00066602 -0.00093974 0.00097039 -0.0011146 0.0014885 -0.00099717 0.01004
0.23791 0.075684 0.0031931 0.0066732
0.00047999 -0.00045552 -0.00053479 0.00048148 -0.0011585 -0.0002316 -0.00055474 -0.0021644
0.003207 0.0066706 0.28615 0.12012
1820000000 0.25261 -0.11515 0.0042394 0.0027137 0.00012899 0.002292 -0.0012095 -0.0028611
-0.0011553 0.001 3.6441e-05 -0.00010469
0.004238 0.0027161 0.26172 0.16763 -7.5821e-05 7.0314e-05 -0.0011689 0.0010014
0.00011345 0.0012727 -0.00044732 0.00053679
0.00014156 0.002295 -7.1701e-05 7.6261e-05 0.16074 -0.24852 0.001406 0.00012159
-6.5486e-05 0.0021175 -0.0012385 0.00048733
-0.0012179 -0.0028514 -0.0011555 0.0010075 0.0014156 0.00013228 0.20116 -0.097061
0.0012283 0.0083918 -0.0015595 -0.0011494
-0.0011506 0.0010068 0.00012053 0.0012843 -5.6594e-05 0.0021198 0.0012394 0.0084009
0.25371 0.045778 0.0041936 0.0034703
3.1813e-05 -0.00011105 -0.00044644 0.00053924 -0.0012339 0.00048048 -0.0015616 -0.0011485
0.0041838 0.0034673 0.28623 0.083123
1880000000 0.21593 -0.15493 0.0021072 0.00049984 -0.00045378 0.0017827 -0.0029163 -0.0019027
-0.00022083 0.0017913 0.00025435 -0.00048903
0.0021011 0.00050428 0.26525 0.12059 -0.002219 0.0016294 -4.4714e-05 0.0015978
0.00069447 0.0010098 0.00021428 0.00087383
-0.00043328 0.0017847 -0.0022124 0.0016436 0.10776 -0.2583 0.0014767 -0.0011464
0.0015589 0.0016772 -0.0007743 0.0012738
-0.0029237 -0.0018919 -3.3128e-05 0.0015876 0.0014846 -0.0011457 0.16136 -0.13663
0.0024287 0.0058707 -0.0018751 0.00060274
-0.00021255 0.0017922 0.00070781 0.001008 0.0015776 0.001681 0.0024372 0.0058769
0.25498 0.011661 0.0040469 0.0018031
0.00024441 -0.00047777 0.00021429 0.00087547 -0.00075903 0.0012773 -0.0018811 0.00061461
0.0040504 0.0018079 0.28389 0.048648
1940000000 0.17533 -0.17957 2.3187e-05 -0.0010513 0.0013282 0.0018811 -0.0035658 0.00070788
0.0014906 0.0011515 -0.0006584 -0.00066279
1.4755e-05 -0.0010508 0.26458 0.089202 -0.00098073 0.0039884 0.00097805 0.0011238
0.0016891 0.00024766 0.00083679 0.00026171
0.0013327 0.0018615 -0.00095822 0.0039899 0.061703 -0.25057 5.2042e-05 -0.001749
0.0022717 0.00027551 0.00037958 0.0015396
-0.0035614 0.00071327 0.00098815 0.0011073 5.0415e-05 -0.001748 0.10973 -0.16621
0.001848 0.0038781 -0.001098 0.0013898
0.0014864 0.0011432 0.0016958 0.00023596 0.0022636 0.0002732 0.0018567 0.0038747
0.2548 -0.028275 0.0032072 -0.0010203
-0.00067029 -0.00066046 0.00083734 0.00026058 0.00038684 0.0015302 -0.0011061 0.0014048
0.0032003 -0.0010294 0.27103 0.012373
2000000000 0.12879 -0.19337 -0.0036324 0.00081988 0.002531 0.0013949 -0.0020948 0.0033148
0.001357 -9.6819e-06 -0.00063889 0.00039389
-0.0036334 0.00081242 0.25001 0.053768 -0.00071177 0.005675 0.0015012 0.00021377
0.0011081 -0.0012723 0.00036876 3.2988e-05
0.0025334 0.0013735 -0.00068605 0.0056746 0.018327 -0.23586 -0.0011252 -0.00095167
0.0017838 -0.0010275 0.0015965 0.0011043
-0.0020839 0.0033219 0.0015025 0.00021104 -0.0011302 -0.00094598 0.057372 -0.17667
0.00020355 0.0029728 0.00019119 0.0019969
0.0013447 -1.9734e-05 0.0010945 -0.0012841 0.0017694 -0.0010238 0.00020768 0.0029771
0.24673 -0.063189 0.000458 -0.0020295
