!Keysight Technologies,M9804A,MY58100912,A.14.10.03
!Date: Thursday, April 27, 2023 10:28:33
!Correction: S11(C  6-Port  ) 
!S12(C  6-Port  ) 
!S13(C  6-Port  ) 
!S14(C  6-Port  ) 
!S15(C  6-Port  ) 
!S16(C  6-Port  ) 
!S21(C  6-Port  ) 
!S22(C  6-Port  ) 
!S23(C  6-Port  ) 
!S24(C  6-Port  ) 
!S25(C  6-Port  ) 
!S26(C  6-Port  ) 
!S31(C  6-Port  ) 
!S32(C  6-Port  ) 
!S33(C  6-Port  ) 
!S34(C  6-Port  ) 
!S35(C  6-Port  ) 
!S36(C  6-Port  ) 
!S41(C  6-Port  ) 
!S42(C  6-Port  ) 
!S43(C  6-Port  ) 
!S44(C  6-Port  ) 
!S45(C  6-Port  ) 
!S46(C  6-Port  ) 
!S51(C  6-Port  ) 
!S52(C  6-Port  ) 
!S53(C  6-Port  ) 
!S54(C  6-Port  ) 
!S55(C  6-Port  ) 
!S56(C  6-Port  ) 
!S61(C  6-Port  ) 
!S62(C  6-Port  ) 
!S63(C  6-Port  ) 
!S64(C  6-Port  ) 
!S65(C  6-Port  ) 
!S66(C  6-Port  ) 
!S6P File: Measurement: :
# Hz S  RI   R 50
500000000 -0.33968 -0.017753 -0.010864 -0.0029528 -0.0075268 0.012836 -0.0036953 0.012326
0.011238 0.0046055 -0.0038422 0.0085531
-0.010903 -0.0030243 -0.42066 -0.03604 0.0061464 -0.011362 0.0018148 0.012294
0.0068264 0.0019976 0.002246 0.013945
-0.0074113 0.012668 0.0060433 -0.011223 -0.26289 0.22294 0.0070569 0.0037908
-0.001242 0.0081065 0.0022079 0.0123
-0.0034407 0.012509 0.0015775 0.012194 0.0070502 0.0038639 -0.33025 0.062684
-0.019426 -0.0069355 0.015595 0.023324
0.011255 0.0042878 0.0068786 0.0021068 -0.0012566 0.0082252 -0.019518 -0.0069483
-0.23642 -0.16344 -0.025417 0.0037397
-0.0032798 0.0091795 0.0022488 0.013499 0.0020518 0.012505 0.015405 0.023515
-0.025469 0.0037464 -0.28443 -0.080508
560000000 -0.31213 0.13808 -0.02748 -0.060469 0.0013422 0.011593 0.0058884 0.0095302
0.009019 0.0038403 0.011091 0.0071112
-0.027435 -0.060516 -0.37438 0.11766 -0.042642 -0.033989 0.013074 0.0033661
-0.012775 -0.0032505 0.0027197 -0.0013535
0.001061 0.011403 -0.042932 -0.033242 -0.18056 0.26775 8.1612e-05 -0.004496
0.01915 0.0036822 0.0070931 -0.006065
0.0054854 0.0097504 0.013264 0.0033345 -0.00015815 -0.0044591 -0.30409 0.14951
0.0012767 -0.023962 0.0026187 -0.018492
0.0091352 0.0038189 -0.01242 -0.0028102 0.018775 0.0040265 0.0013475 -0.024237
-0.28728 0.0082628 0.0025985 -0.045412
0.010897 0.0067905 0.0027379 -0.0012057 0.0070112 -0.0062578 0.0025187 -0.01824
0.0026705 -0.045447 -0.33054 0.059099
620000000 -0.27019 0.12357 -0.023753 0.0075469 0.0042801 0.0081626 0.0077507 -0.0054169
0.010724 -0.001679 0.0011979 -0.0033815
-0.023566 0.0075339 -0.40143 0.07415 -0.019499 0.00072951 -0.00087244 -0.0022083
0.0099938 -0.0066198 0.0012057 -0.0029498
0.0042256 0.0082424 -0.019434 0.00044949 -0.14868 0.27737 -0.00091623 -0.0049028
-0.0030312 -0.0027414 0.0077328 -0.0032788
0.0077727 -0.0054349 -0.00072031 -0.0021607 -0.0010814 -0.0047448 -0.2623 0.16095
-0.039735 -0.017447 0.011733 0.022612
0.010756 -0.0013391 0.0099588 -0.0065068 -0.0032014 -0.0026769 -0.039932 -0.017467
-0.21068 -0.029122 -0.037961 0.015844
0.00059887 -0.0028827 0.0012428 -0.0029116 0.0074576 -0.0037496 0.011654 0.022741
-0.037883 0.015772 -0.25452 0.031736
680000000 -0.22764 0.20535 -0.027853 -0.011528 0.005678 0.0044645 0.0011949 -0.0073543
-0.0029122 -0.011571 0.0038506 -0.0067456
-0.027827 -0.011545 -0.38396 0.168 -0.032123 0.00063755 -0.0013499 -0.00055446
-0.002358 -0.0088538 -0.0015771 -0.0021261
0.0056486 0.0045089 -0.032082 0.00067277 -0.098002 0.29492 -0.00096603 -0.00042809
-0.0018861 3.4913e-05 -0.0037967 -0.0085742
0.00098657 -0.0073035 -0.0013419 -0.00061101 -0.00084879 -0.0004752 -0.21675 0.20752
-0.026138 -0.0047026 -0.0089689 -0.0079514
-0.0030023 -0.011303 -0.0023247 -0.0088719 -0.0018241 3.3998e-05 -0.026145 -0.0046641
-0.2512 0.068447 -0.007844 -0.0067233
0.0040605 -0.0066937 -0.0015213 -0.0022034 -0.0036721 -0.0084522 -0.0088167 -0.0080448
-0.0078434 -0.0066619 -0.25401 0.12677
740000000 -0.184 0.20033 -0.036296 0.026588 0.011856 -0.0059915 -0.00081248 -0.0039893
-0.0059065 -0.0030289 -0.0056454 0.0032838
-0.036175 0.026356 -0.33253 0.18733 -0.032537 0.035182 -0.0009763 -0.0061002
-0.011056 0.008138 -0.0024353 -0.0050625
0.011896 -0.0059118 -0.032456 0.035174 -0.064383 0.29418 -0.0019548 0.0031752
-0.0032692 -0.0042207 -0.0017707 0.0011316
-0.00078866 -0.004037 -0.00093515 -0.0061401 -0.0018966 0.0031972 -0.19862 0.21642
-0.042103 -0.003189 0.022062 0.012374
-0.0052702 -0.0027834 -0.010786 0.008048 -0.0034145 -0.0044407 -0.042053 -0.0031095
-0.15658 0.089854 -0.038205 0.0032716
-0.0059798 0.0034675 -0.0024138 -0.0047899 -0.0017849 0.0012732 0.022018 0.012485
-0.038129 0.0031668 -0.24256 0.13732
800000000 -0.14959 0.23718 -0.021226 0.017953 0.0045278 -0.010485 -0.0044473 -0.001514
-0.0041631 0.0031679 0.003693 0.00078748
-0.021167 0.017828 -0.33258 0.25571 -0.0064876 0.033605 -0.0022576 0.0023526
-0.00084862 0.0034769 0.0011368 0.0053991
0.0045376 -0.010548 -0.0064235 0.033638 -0.021624 0.3158 0.00088667 0.0016468
0.00042899 0.0035488 -0.0016833 0.001264
-0.0043457 -0.0015434 -0.0022276 0.0023874 0.00088026 0.0016479 -0.16837 0.24272
-0.026508 0.016479 0.012411 -0.010007
-0.0038291 0.0031786 -0.00090321 0.0035206 0.00050988 0.0035553 -0.026489 0.016563
-0.1942 0.11576 -0.015112 0.019096
0.0038035 0.00086926 0.0010299 0.0054512 -0.0016412 0.0012513 0.012357 -0.0099974
-0.015125 0.01905 -0.22792 0.18158
860000000 -0.11454 0.25665 -0.015597 0.030841 -0.0038256 -0.0095898 -0.0019129 0.0011727
0.0046538 0.0044203 -0.0025962 -0.0020891
-0.015426 0.030712 -0.28502 0.29654 0.009374 0.032952 0.00022162 0.0023101
0.0049508 0.00027094 0.0034356 0.00051868
-0.0037725 -0.0095513 0.0094467 0.033067 0.026619 0.32264 -0.00044398 -5.2434e-05
0.002813 -0.0015195 0.0020717 0.0039999
-0.0018394 0.0012592 0.00020678 0.002221 -0.00042266 -0.00012208 -0.13194 0.25324
-0.01463 0.0204 -0.0055083 -0.0090001
0.0046076 0.0044341 0.0047702 3.9323e-05 0.00277 -0.0013818 -0.014717 0.020547
-0.14151 0.16083 -0.021196 0.017167
-0.0025541 -0.0024018 0.0034169 0.00037134 0.0020375 0.0039512 -0.0055612 -0.0091618
-0.021241 0.017158 -0.1791 0.22115
920000000 -0.088073 0.27798 0.0065426 0.036416 -0.0093715 -0.0039607 -0.0013546 0.0016913
0.0015685 0.0013857 0.0025676 -0.001829
0.0065179 0.036381 -0.25474 0.3169 0.02835 0.02 0.0017912 0.00082793
0.0071648 -0.00074097 0.0036333 -0.0031568
-0.0093163 -0.003913 0.028435 0.019942 0.074068 0.32281 0.0019021 -0.0001668
0.0015228 -0.00067134 0.00075157 -0.0014385
-0.0013396 0.0016647 0.0017841 0.00083453 0.001926 -0.00020584 -0.10566 0.26896
-0.0070425 0.030735 0.0024302 -0.006363
0.0015595 0.0014788 0.0070257 -0.0007341 0.0014911 -0.00067085 -0.0070193 0.030755
-0.12845 0.16734 -0.00014901 0.025539
0.0027634 -0.0018395 0.0034668 -0.0031411 0.00084285 -0.0013247 0.0024417 -0.0062744
-0.00019958 0.025511 -0.17833 0.23649
980000000 -0.041142 0.29555 0.018824 0.028311 -0.0085008 0.0047086 0.0019969 0.0029111
0.0038027 -0.0018472 -0.0030787 -0.0018398
0.01876 0.028243 -0.20289 0.34925 0.032608 0.0029188 0.0021533 -0.00033079
0.0013708 -0.0061858 -0.00067987 -0.0021337
-0.008531 0.0047089 0.032626 0.0029015 0.12091 0.31471 0.00043929 -0.0013652
2.8338e-06 -0.0021843 0.0012865 -0.00016331
0.001962 0.0029412 0.0020739 -0.00033775 0.00045151 -0.0013533 -0.066637 0.27849
0.010919 0.028438 -0.008498 -0.0060187
0.0038388 -0.0019198 0.0015071 -0.006222 -4.3735e-06 -0.0022171 0.010967 0.028438
-0.096099 0.19089 0.0067298 0.018631
-0.0030469 -0.0019631 -0.00048144 -0.0023026 0.0012108 -0.00021622 -0.0085142 -0.0058677
0.0067481 0.018599 -0.13316 0.2743
1040000000 0.0019815 0.30267 0.033001 0.015429 -0.0011841 0.006682 0.002406 0.00047327
-8.0911e-05 -0.0032299 -0.00066979 -0.0014215
0.033011 0.015412 -0.16685 0.36229 0.027679 -0.015967 0.0014058 -0.0017954
-0.0024449 -0.0024852 -0.0016417 -0.0027166
-0.0011044 0.0066522 0.027639 -0.016082 0.16768 0.30004 -0.00065161 -0.0014588
-0.0016854 -0.00087202 -0.00048268 -0.0010208
0.0023493 0.00047615 0.0013951 -0.0018405 -0.00063651 -0.0014471 -0.037614 0.2874
0.021537 0.015341 -0.0026779 0.0011043
-9.4328e-05 -0.0031298 -0.0024016 -0.0025213 -0.0015607 -0.00086284 0.021604 0.015352
-0.064104 0.19699 0.01413 0.015771
-0.00068756 -0.0013713 -0.0016228 -0.0025547 -0.00051487 -0.00089383 -0.0027047 0.0011
0.014128 0.015795 -0.10818 0.2934
1100000000 0.047351 0.3085 0.034366 -0.0062447 0.0026821 0.0035962 0.0021806 -0.0010891
-0.0021489 -0.002794 -0.003606 0.00057711
0.034341 -0.0061701 -0.12335 0.37839 0.013272 -0.027959 -9.1071e-05 -0.0018354
-0.003471 -0.00053081 -0.0032992 -0.00025892
0.0027095 0.0035877 0.013236 -0.027987 0.21494 0.27749 -0.001811 0.00027666
-0.0018014 0.00075936 -0.00096885 -0.00011714
0.0021494 -0.0010971 -0.0001372 -0.0018514 -0.0018313 0.00029064 0.0039224 0.28998
0.025051 0.0017574 -0.002635 -3.9093e-05
-0.0021321 -0.0028263 -0.0034657 -0.00054848 -0.0018316 0.00076873 0.025029 0.0017534
-0.044805 0.20814 0.018779 0.0057823
-0.0036064 0.00054131 -0.0033645 -0.00020353 -0.00088684 -0.00010783 -0.0025822 -2.0076e-05
0.018758 0.0057827 -0.061319 0.31645
1160000000 0.097966 0.30236 0.021858 -0.021898 0.0022203 -0.00026532 -0.00012528 -0.0020065
-0.0039467 -0.00046156 -0.00060898 0.0037431
0.021838 -0.021843 -0.078628 0.38234 -0.005459 -0.028192 -0.001754 -0.0014757
-0.0026144 0.00261 -0.0012164 0.0017984
0.0022294 -0.00024053 -0.0055689 -0.02813 0.25735 0.24447 -0.00070286 0.0017731
-0.00032019 0.0019744 -0.00069085 0.0002752
-0.00010885 -0.0019875 -0.001774 -0.0014643 -0.00067631 0.0017966 0.043449 0.28485
0.020007 -0.013435 -0.0030416 0.0044057
-0.0039604 -0.00050451 -0.0026347 0.0025224 -0.00039654 0.0020615 0.019966 -0.013454
-0.011969 0.21525 0.017117 -0.0023778
-0.00063611 0.0037254 -0.0012942 0.0016721 -0.0007241 0.00026298 -0.0030899 0.0044339
0.017106 -0.0023696 -0.014472 0.31697
1220000000 0.14276 0.28929 0.0078935 -0.029687 -0.0015528 -0.00026241 0.00011946 -0.00091161
-0.0023968 0.0023568 0.0014175 0.0018766
0.007873 -0.029654 -0.034202 0.39291 -0.017556 -0.019569 -0.002451 0.00050723
0.00019983 0.0030102 -0.00046992 0.0019836
-0.0015807 -0.00028681 -0.017625 -0.019558 0.29582 0.20357 0.0009428 0.0018145
0.00072715 0.0012084 0.00042121 0.00046574
0.00012276 -0.0009227 -0.0024567 0.00052059 0.00092726 0.0018091 0.083986 0.27392
0.0085205 -0.019212 0.0013493 0.0014675
-0.0023833 0.0023577 0.00023861 0.0030326 0.00074939 0.0011582 0.0085084 -0.019272
0.012121 0.22204 0.011655 -0.013951
0.0014298 0.0018429 -0.00043838 0.0020068 0.00041632 0.00053059 0.0013804 0.0014557
0.011661 -0.013945 0.019556 0.32844
1280000000 0.19152 0.26565 -0.0097343 -0.026974 -0.0014925 0.0029134 -0.00094962 -0.0019815
-0.00061843 0.0029921 0.0023539 0.00085484
-0.0097036 -0.026952 0.011777 0.38285 -0.023533 -0.0070199 -0.00088539 0.0014404
0.001857 0.0016643 0.00079727 0.0017405
-0.0015026 0.0028849 -0.023557 -0.0069533 0.32451 0.15799 0.0016284 -0.00010255
0.0011582 0.00016029 0.00024519 0.00021117
-0.00093284 -0.0019709 -0.00091062 0.0014599 0.0016399 -8.6781e-05 0.11994 0.25459
-0.0016463 -0.020158 -0.00064273 0.00061922
-0.00062011 0.0030089 0.0018448 0.0016693 0.0011933 0.00015835 -0.0016875 -0.02014
0.048455 0.22341 0.0010473 -0.015578
0.002397 0.0008474 0.00082542 0.0017305 0.00025984 0.00020319 -0.00064731 0.00055921
0.0010525 -0.015557 0.065174 0.32544
1340000000 0.22806 0.23049 -0.018509 -0.016735 0.0014564 0.0043765 -0.001716 -0.0009072
0.0015694 0.002583 0.0015249 -0.0014546
-0.018475 -0.016738 0.051402 0.37308 -0.020661 0.0053439 -8.7089e-05 0.0020508
0.0019694 0.00054961 0.0013842 0.0006019
0.0014594 0.0043742 -0.020663 0.0053665 0.34482 0.1098 0.0011926 -0.0010245
0.00049765 -0.00050772 6.7171e-05 0.0001953
-0.0017116 -0.00088914 -7.8649e-05 0.0020388 0.001188 -0.0010465 0.15124 0.23213
-0.011139 -0.016063 0.00045908 0.0012456
0.0015423 0.0025139 0.0019492 0.00055949 0.00056769 -0.00046353 -0.011165 -0.016048
0.078336 0.21706 -0.0058581 -0.013226
0.0014932 -0.0014879 0.0013545 0.00057505 0.00012391 0.00019064 0.0004962 0.0012599
-0.005839 -0.013242 0.10405 0.31691
1400000000 0.26002 0.19087 -0.022815 -0.0052628 0.0054578 0.0026479 -0.0021559 0.00060476
0.0023752 0.00079352 0.0001023 -0.001407
-0.022789 -0.0052913 0.088037 0.35889 -0.013631 0.012778 0.0013849 0.0012915
0.001152 -0.00094583 0.0010681 1.7759e-05
0.0054884 0.0026685 -0.013581 0.012823 0.35694 0.05619 2.7067e-05 -0.0018667
1.106e-05 -0.00043462 0.00034782 0.00019771
-0.0021522 0.0006155 0.0013825 0.0012789 1.4076e-05 -0.0018836 0.17918 0.20104
-0.016507 -0.0084972 -0.00033671 0.00062666
0.0023821 0.0007808 0.0011294 -0.00099061 6.282e-06 -0.00041849 -0.016561 -0.0084662
0.11041 0.21023 -0.011604 -0.007625
8.9147e-05 -0.0013936 0.0010824 3.5074e-05 0.00040258 0.00023405 -0.00034377 0.00065001
-0.011588 -0.0076247 0.14643 0.30178
1460000000 0.28127 0.14601 -0.019054 0.0061238 0.0055607 -0.0023031 -0.001564 0.0017149
0.0020532 -0.00073983 -0.00044074 -0.00086805
-0.019064 0.0061205 0.12156 0.33601 -0.005098 0.014919 0.0017303 0.00010433
0.00067758 -0.0012895 0.0010272 -0.00065754
0.0054954 -0.0023099 -0.005044 0.014941 0.36147 0.0020821 -0.0014884 -0.001272
0.00013081 -0.0002067 0.00060373 -0.00027934
-0.0015226 0.0017461 0.0017446 0.00010358 -0.0014496 -0.0012599 0.20295 0.17036
-0.016885 -0.0010821 -3.2877e-05 0.0022786
0.0020691 -0.00073723 0.00068653 -0.0013146 0.00015982 -0.00017432 -0.016909 -0.001036
0.13881 0.19381 -0.012553 -0.0013459
-0.00046833 -0.00083347 0.00098279 -0.00066455 0.00054719 -0.00029601 -4.2453e-05 0.0022304
-0.012537 -0.0013426 0.17816 0.27861
1520000000 0.29234 0.10315 -0.012896 0.010892 0.0029596 -0.0043805 0.00014354 0.0026469
0.0018194 -0.0017959 -0.0010979 -9.1854e-06
-0.012881 0.010869 0.15434 0.32049 0.0020622 0.012428 0.0016745 -0.00091639
-8.9987e-05 -0.0010159 0.00024997 -0.00094405
0.0029364 -0.0044139 0.0021047 0.012428 0.35454 -0.053864 -0.0013397 -0.00020333
0.00051586 -0.00085733 2.1381e-06 -0.0001656
0.00013941 0.0026259 0.0016655 -0.000921 -0.0013299 -0.00020695 0.22355 0.13188
-0.015052 0.0049213 0.0021155 0.0018681
0.0018123 -0.0017961 -0.00010198 -0.0010269 0.00051433 -0.00088168 -0.015019 0.004967
0.1663 0.17802 -0.011902 0.0032301
-0.0010898 -1.4796e-05 0.00022219 -0.000937 2.5082e-05 -0.00016834 0.0021335 0.0018714
-0.01191 0.003227 0.20965 0.25509
1580000000 0.29997 0.056482 -0.006351 0.01306 -0.0012071 -0.0047822 0.0015603 0.0019205
-0.00030754 -0.0021342 -0.00018923 0.00036712
-0.0063863 0.01305 0.18066 0.29506 0.0052821 0.0076006 0.00038996 -0.0017298
-0.00056262 -0.00090005 -0.00026355 -0.00074212
-0.0012378 -0.004779 0.0053005 0.0075936 0.33391 -0.11147 -0.001579 0.00096633
-0.00046809 -0.0011392 9.5655e-05 -0.00052068
0.0015702 0.0019134 0.00036214 -0.0017265 -0.0015828 0.0009747 0.23453 0.092567
-0.010721 0.0093694 0.002646 0.00018028
-0.0002985 -0.0021246 -0.0005805 -0.00090878 -0.00041679 -0.0011414 -0.010748 0.0093929
0.18935 0.15777 -0.0087626 0.0083516
-0.00025116 0.00037063 -0.00024719 -0.00074836 7.1953e-05 -0.00053422 0.0026603 0.00016384
-0.0087742 0.0083371 0.23866 0.22644
1640000000 0.30038 0.014939 -0.00019041 0.011259 -0.0028748 -0.0024239 0.0028014 0.00083339
-0.00086005 -0.0014638 -0.00026268 0.00054398
-0.00022353 0.011269 0.20935 0.26967 0.0057464 0.0031085 -0.00091167 -0.0016901
-0.00096622 -0.00031283 -0.00055141 -0.00052249
-0.0028966 -0.0024168 0.0057456 0.0031123 0.3049 -0.16034 -0.00052091 0.0015814
-0.0012138 -0.00076298 -0.00018046 -0.00029676
0.0027985 0.00080596 -0.00092482 -0.0016876 -0.00050478 0.0015813 0.24423 0.045216
-0.0058958 0.010115 0.0025204 -0.0013202
-0.00088507 -0.0014398 -0.00095956 -0.00028734 -0.0011842 -0.00077773 -0.0058875 0.010132
0.21058 0.13178 -0.0038112 0.010087
-0.00020886 0.00055599 -0.00053004 -0.00051746 -0.00019032 -0.000272 0.0025167 -0.001331
-0.0038018 0.010089 0.26228 0.19371
1700000000 0.2914 -0.030495 0.0026046 0.0081323 -0.003398 0.00026052 0.002935 -0.0014932
-0.0019345 -0.00052663 0.00065101 0.00035814
0.0025778 0.0081201 0.22674 0.23808 0.0036811 0.00040919 -0.0015518 -0.00040311
-0.00067342 0.00014181 -0.00086775 -0.00037985
-0.0033907 0.00028694 0.0036706 0.00038724 0.26122 -0.20031 0.00063917 0.0013746
-0.0017755 -3.8884e-05 -0.00050653 -0.00076338
0.0029045 -0.0014487 -0.0015578 -0.00040499 0.00063684 0.0013773 0.23968 -0.0025106
-0.0028117 0.0099585 0.0013548 -0.0024706
-0.0020104 -0.00054588 -0.00067099 0.00014135 -0.0017718 -8.7509e-05 -0.0027931 0.0099735
0.22625 0.10983 0.00085767 0.0099702
0.00067623 0.00033783 -0.00084963 -0.00038027 -0.0005423 -0.00080658 0.001356 -0.0025048
0.00085929 0.0099728 0.27651 0.1582
1760000000 0.27769 -0.0783 0.0040995 0.0048481 -0.0021183 0.0009867 0.00088979 -0.0035076
-0.0013587 0.00075126 0.00045538 -0.00048834
0.0040801 0.0048694 0.2519 0.19787 0.0014245 -0.0013502 -0.0011789 0.00036287
-0.00093354 0.00078631 -0.00056933 0.00046502
-0.0021426 0.0010305 0.0014205 -0.0013394 0.212 -0.23397 0.0012827 0.00081342
-0.0010435 0.0016432 -0.0013025 -0.00038959
0.00091363 -0.003516 -0.0012012 0.00036007 0.001275 0.00082852 0.22993 -0.051318
0.00021406 0.0085501 -0.00059167 -0.0027024
-0.0013118 0.00083405 -0.00090878 0.00079667 -0.0010117 0.0015865 0.00024628 0.0085852
0.23888 0.073374 0.0045712 0.0069422
0.00044138 -0.0004477 -0.0005551 0.00043935 -0.0012987 -0.00040254 -0.00057318 -0.0026738
0.0045646 0.0069344 0.28702 0.11955
1820000000 0.2518 -0.11475 0.0037223 0.0017033 -9.1299e-05 0.0023889 -0.0013177 -0.0028212
-0.00092182 0.0010958 -0.00010888 -6.4899e-05
0.0036869 0.0017055 0.26119 0.16802 -0.00037964 -4.5302e-05 -0.0010474 0.0010727
-6.1481e-05 0.0012308 -0.00051996 0.00052741
-6.8946e-05 0.0023544 -0.00039883 -6.5167e-05 0.16141 -0.24873 0.0013681 0.00016795
-4.6145e-05 0.002208 -0.0013836 0.00051713
-0.001357 -0.002764 -0.0010486 0.0010678 0.0014074 0.00014301 0.20077 -0.096132
0.001549 0.0066997 -0.0017659 -0.0014961
-0.00098335 0.0010702 -2.6265e-05 0.0012212 -2.8706e-05 0.0021709 0.001547 0.0066886
0.25378 0.043343 0.0054405 0.0031964
-5.261e-05 -0.0001003 -0.00051348 0.00053879 -0.0013393 0.00050881 -0.0017457 -0.0015016
0.0054185 0.003198 0.28732 0.08211
1880000000 0.21591 -0.15396 0.0012623 -1.2307e-07 -0.00046588 0.0021076 -0.002947 -0.0017915
-0.00012635 0.0015902 0.0001958 -0.00044831
0.0012584 2.7341e-05 0.26512 0.12125 -0.0024191 0.0016163 6.0471e-05 0.0016361
0.00053178 0.0010858 0.00018839 0.00093358
-0.00044737 0.0021395 -0.0024333 0.0016058 0.10876 -0.25878 0.0014647 -0.00097482
0.0016064 0.0015791 -0.00074646 0.0013742
-0.0029421 -0.0017748 5.4918e-05 0.0016357 0.0014643 -0.00095048 0.16199 -0.13562
0.0019184 0.0044949 -0.0024527 0.00037555
-8.9163e-05 0.0016185 0.00053943 0.0011173 0.0015849 0.0016179 0.0019643 0.0044948
0.25426 0.0096478 0.0050265 0.00091961
0.00016262 -0.00044686 0.00018328 0.00090783 -0.00079143 0.0013627 -0.002462 0.0004006
0.0050394 0.00091865 0.28493 0.047586
1940000000 0.17617 -0.17908 -0.00086938 -0.0010795 0.0014744 0.0020129 -0.0034557 0.00080024
0.0014784 0.0010322 -0.00058071 -0.0005476
-0.00087382 -0.0010489 0.26482 0.089713 -0.0012233 0.0038755 0.0010622 0.0010079
0.001738 0.00049885 0.00091634 0.00044903
0.0014651 0.0019861 -0.00121 0.0039102 0.062278 -0.25177 0.00014371 -0.0017789
0.0023353 0.00028188 0.00052874 0.0017814
-0.0034893 0.00081615 0.0010491 0.0010378 0.00020457 -0.0018418 0.11099 -0.16585
0.0009122 0.0031178 -0.0016402 0.0015478
0.0015216 0.0009965 0.0017317 0.00047949 0.0023696 0.00024285 0.00096712 0.0031411
0.25353 -0.029589 0.0035556 -0.0021405
-0.00055248 -0.00053846 0.00093669 0.00042218 0.00059291 0.0018004 -0.0016034 0.0015079
0.003572 -0.0021389 0.27199 0.010864
2000000000 0.12955 -0.19333 -0.0043186 0.0012675 0.002618 0.0014697 -0.0020397 0.003382
0.0011391 -2.7518e-05 -0.00054917 0.0004881
-0.0043185 0.0012771 0.25043 0.054247 -0.0010008 0.0057355 0.0014117 0.00016423
0.0012821 -0.0012419 0.00049242 -0.00011627
0.0026154 0.0015085 -0.00099271 0.0057748 0.018536 -0.23715 -0.0010815 -0.00097964
0.0017872 -0.0011586 0.0018778 0.00095338
-0.0020343 0.0034151 0.0014798 0.00016108 -0.0010863 -0.0010041 0.058718 -0.17687
-0.00071018 0.0027415 6.1215e-06 0.0023047
0.0011205 3.0829e-05 0.0013198 -0.0012624 0.0017845 -0.0011271 -0.00073253 0.0027629
