!Keysight Technologies,M9804A,MY58100912,A.14.10.03
!Date: Thursday, April 27, 2023 10:28:33
!Correction: S11(C  6-Port  ) 
!S12(C  6-Port  ) 
!S13(C  6-Port  ) 
!S14(C  6-Port  ) 
!S15(C  6-Port  ) 
!S16(C  6-Port  ) 
!S21(C  6-Port  ) 
!S22(C  6-Port  ) 
!S23(C  6-Port  ) 
!S24(C  6-Port  ) 
!S25(C  6-Port  ) 
!S26(C  6-Port  ) 
!S31(C  6-Port  ) 
!S32(C  6-Port  ) 
!S33(C  6-Port  ) 
!S34(C  6-Port  ) 
!S35(C  6-Port  ) 
!S36(C  6-Port  ) 
!S41(C  6-Port  ) 
!S42(C  6-Port  ) 
!S43(C  6-Port  ) 
!S44(C  6-Port  ) 
!S45(C  6-Port  ) 
!S46(C  6-Port  ) 
!S51(C  6-Port  ) 
!S52(C  6-Port  ) 
!S53(C  6-Port  ) 
!S54(C  6-Port  ) 
!S55(C  6-Port  ) 
!S56(C  6-Port  ) 
!S61(C  6-Port  ) 
!S62(C  6-Port  ) 
!S63(C  6-Port  ) 
!S64(C  6-Port  ) 
!S65(C  6-Port  ) 
!S66(C  6-Port  ) 
!S6P File: Measurement: :
# Hz S  RI   R 50
500000000 -0.34074 -0.018478 -0.011806 -0.0032409 -0.0077887 0.013396 -0.00368 0.012306
0.011051 0.0035605 -0.0032426 0.0087288
-0.011778 -0.0032303 -0.42058 -0.036645 0.0053794 -0.011281 0.0015837 0.01271
0.0065666 0.0025886 0.0017687 0.013803
-0.0077706 0.013383 0.0053672 -0.011287 -0.26489 0.22351 0.0070717 0.004068
-0.0014522 0.0088042 0.0020795 0.012431
-0.0036745 0.012297 0.0015945 0.012721 0.0070722 0.0040775 -0.33101 0.062475
-0.019954 -0.0065532 0.015418 0.023638
0.011062 0.0035407 0.0065744 0.0025737 -0.0014337 0.0088088 -0.019951 -0.0065344
-0.23686 -0.1646 -0.025869 0.0043614
-0.0032339 0.0087358 0.0017945 0.013801 0.002078 0.012434 0.015431 0.023622
-0.025873 0.0043552 -0.28465 -0.079894
560000000 -0.31333 0.13732 -0.027813 -0.060396 0.0013259 0.012234 0.0056576 0.0098565
0.009233 0.0045059 0.010601 0.0074345
-0.027758 -0.060315 -0.37651 0.11965 -0.043226 -0.033879 0.013597 0.00356
-0.012778 -0.0039292 0.003293 -0.00099947
0.0013383 0.012239 -0.043301 -0.033852 -0.18108 0.26903 -3.6596e-05 -0.0039277
0.019595 0.0046656 0.0064346 -0.0062219
0.0056405 0.0098343 0.013626 0.0035696 -4.1648e-05 -0.0039291 -0.30513 0.14932
4.249e-05 -0.024059 0.0028733 -0.018343
0.0092373 0.0045049 -0.01279 -0.0039271 0.01959 0.0046719 3.8766e-05 -0.024062
-0.28883 0.0093872 0.0021845 -0.046499
0.010591 0.0074181 0.0033047 -0.0010161 0.0064372 -0.0062268 0.0028792 -0.018349
0.0021946 -0.046495 -0.33054 0.059648
620000000 -0.27148 0.12367 -0.023747 0.0081182 0.0047659 0.0083513 0.0077304 -0.0051915
0.011388 -0.0013307 0.0015284 -0.0025049
-0.023727 0.0081134 -0.40225 0.074554 -0.019454 0.0012729 -0.000737 -0.0023004
0.010714 -0.0061761 0.0017369 -0.0025663
0.0047756 0.0083379 -0.019456 0.0012981 -0.14933 0.27874 -0.00072008 -0.0049926
-0.0028903 -0.002464 0.0084655 -0.0037942
0.007729 -0.0052156 -0.00073732 -0.0023044 -0.00072367 -0.0049939 -0.26298 0.16168
-0.039874 -0.017619 0.011997 0.023727
0.011385 -0.0013368 0.010704 -0.0061989 -0.0028914 -0.0024531 -0.039904 -0.017598
-0.21163 -0.028643 -0.039049 0.01543
0.0015217 -0.0025111 0.001743 -0.0025659 0.00847 -0.003791 0.012015 0.023709
-0.039031 0.015417 -0.25622 0.032226
680000000 -0.22824 0.20619 -0.027883 -0.010797 0.0057552 0.004594 0.0013626 -0.0072249
-0.0029054 -0.011377 0.0041218 -0.0070161
-0.02787 -0.010825 -0.38435 0.1693 -0.031802 0.00089995 -0.0011396 -0.0007408
-0.0022027 -0.0092357 -0.0013073 -0.0023098
0.00576 0.0045855 -0.031813 0.00095808 -0.097244 0.29588 -0.00080621 -0.00077705
-0.0014375 -0.00026158 -0.0032974 -0.008714
0.0013549 -0.0072289 -0.0011346 -0.000732 -0.00080071 -0.0007761 -0.21659 0.20811
-0.02617 -0.004404 -0.0092569 -0.0076791
-0.0029348 -0.011392 -0.002229 -0.0092373 -0.0014402 -0.00025845 -0.026198 -0.0043982
-0.25175 0.069751 -0.0075547 -0.0058752
0.0041014 -0.0070102 -0.0013183 -0.0023109 -0.0033097 -0.0087135 -0.009273 -0.0076857
-0.0075565 -0.0058916 -0.25395 0.1273
740000000 -0.18359 0.20139 -0.035664 0.027229 0.012343 -0.0058972 -0.00084463 -0.0039665
-0.0050594 -0.0029286 -0.0061543 0.0031248
-0.035661 0.027176 -0.33186 0.188 -0.032303 0.035462 -0.0010057 -0.0065456
-0.011444 0.0077775 -0.0022222 -0.005199
0.012352 -0.0059125 -0.032246 0.035542 -0.063456 0.29441 -0.0019112 0.0029982
-0.0033931 -0.0042851 -0.0020878 0.00094498
-0.00085671 -0.0039714 -0.0010126 -0.0065462 -0.0019094 0.0029928 -0.1985 0.21699
-0.042013 -0.0029695 0.022178 0.012744
-0.0050953 -0.0029252 -0.011433 0.0078276 -0.003385 -0.0042852 -0.042067 -0.0029209
-0.15744 0.090902 -0.038691 0.0040753
-0.0061499 0.0031515 -0.0022303 -0.0052132 -0.0020869 0.0009446 0.022187 0.012717
-0.038673 0.0040468 -0.24169 0.1378
800000000 -0.14911 0.23786 -0.02031 0.017891 0.0046888 -0.010599 -0.0042283 -0.0016452
-0.004069 0.002684 0.0033856 0.00070695
-0.020304 0.01785 -0.33157 0.25634 -0.0061394 0.033458 -0.0022694 0.0022849
-0.0009943 0.0033647 0.00088686 0.0054166
0.004664 -0.010606 -0.0060789 0.033477 -0.020951 0.31559 0.0006528 0.0017873
0.00023106 0.0036108 -0.0016611 0.0011996
-0.0042316 -0.0016466 -0.0022741 0.0022978 0.00065687 0.0017819 -0.16796 0.24312
-0.02626 0.017014 0.012679 -0.010077
-0.0040557 0.0027061 -0.00098525 0.0033623 0.00024499 0.0036252 -0.026264 0.017075
-0.19433 0.11746 -0.014959 0.019779
0.0033914 0.00068821 0.00090502 0.0054294 -0.0016565 0.0012061 0.01267 -0.010106
-0.014965 0.019759 -0.22821 0.18296
860000000 -0.11388 0.25706 -0.01472 0.030738 -0.0035295 -0.0097449 -0.0018821 0.0011118
0.0044268 0.0049038 -0.0025531 -0.0020769
-0.01473 0.030716 -0.28403 0.2963 0.0097291 0.032948 0.00012798 0.0021089
0.0046118 0.00082723 0.0031937 0.00084893
-0.0035494 -0.0097248 0.0098053 0.032934 0.027041 0.32223 -0.0002978 8.8305e-05
0.0026444 -0.0012222 0.001961 0.0038654
-0.0018683 0.0011053 0.00012796 0.0021092 -0.00029642 8.6893e-05 -0.13118 0.25343
-0.014601 0.021208 -0.0051032 -0.0088972
0.0044458 0.0048955 0.0046038 0.00080598 0.0026396 -0.0012264 -0.014596 0.02125
-0.14121 0.1627 -0.020561 0.017359
-0.0025602 -0.0020734 0.0032028 0.00085332 0.0019651 0.0038662 -0.005111 -0.0088849
-0.020564 0.017336 -0.17877 0.22182
920000000 -0.087129 0.27785 0.0071608 0.035887 -0.0091871 -0.0043564 -0.0013931 0.0015186
0.0016274 0.001474 0.0028496 -0.0018782
0.0071408 0.035854 -0.25391 0.31638 0.028522 0.019752 0.0017663 0.0010335
0.0072555 -0.00059576 0.0038094 -0.0031009
-0.0091923 -0.0043317 0.028584 0.019694 0.0741 0.32238 0.0020357 -0.00014476
0.0016257 -0.00055183 0.0008454 -0.0014628
-0.0013855 0.0015195 0.0017614 0.0010306 0.0020338 -0.00015212 -0.1049 0.26899
-0.0066044 0.030887 0.0026731 -0.0064922
0.0016351 0.0014808 0.0072516 -0.0006234 0.0016246 -0.00056436 -0.0065594 0.030932
-0.12773 0.16813 0.0005223 0.025611
0.0028406 -0.0018863 0.0038119 -0.0031029 0.00084805 -0.0014612 0.0026638 -0.0064908
0.00049826 0.025606 -0.17726 0.23704
980000000 -0.040515 0.29494 0.019053 0.027562 -0.0086532 0.0043881 0.0018017 0.002891
0.003964 -0.0019261 -0.0029557 -0.0022352
0.019044 0.027557 -0.20236 0.34829 0.032652 0.0026679 0.0021086 -0.00021929
0.0017632 -0.0062637 -0.00051359 -0.0024951
-0.0086446 0.004413 0.032687 0.0025872 0.12085 0.31453 0.00048707 -0.0013671
7.6386e-05 -0.0022957 0.00119 -0.00029204
0.0018243 0.0028921 0.0020864 -0.00023213 0.00049615 -0.0013688 -0.065899 0.27791
0.011816 0.028191 -0.0083023 -0.0063635
0.0039581 -0.0019231 0.001745 -0.0062889 6.3417e-05 -0.0023008 0.011873 0.028192
-0.094767 0.19151 0.0070323 0.018049
-0.0029652 -0.0022407 -0.0005295 -0.0024822 0.0011887 -0.00029305 -0.008305 -0.0063474
0.0070131 0.018039 -0.133 0.27406
1040000000 0.0020822 0.30188 0.03293 0.014799 -0.0014114 0.0063565 0.002156 0.00051987
-7.2993e-05 -0.0032488 -0.00087436 -0.0016278
0.032917 0.014787 -0.1669 0.36138 0.027692 -0.016278 0.00147 -0.001841
-0.0024209 -0.0027889 -0.0017017 -0.0028325
-0.001402 0.0063754 0.027654 -0.016378 0.16774 0.29998 -0.00065077 -0.0015562
-0.0016829 -0.00094676 -0.00068219 -0.0010184
0.0021707 0.0005193 0.0014437 -0.0018429 -0.00065411 -0.0015551 -0.037425 0.28663
0.021721 0.015052 -0.0028047 0.00075263
-8.7978e-05 -0.0032222 -0.0024393 -0.0027992 -0.0016826 -0.00094272 0.021757 0.015018
-0.063063 0.19684 0.014404 0.01517
-0.00088023 -0.0016373 -0.0017065 -0.0028093 -0.00068524 -0.001024 -0.002798 0.00075899
0.014384 0.015172 -0.10768 0.29352
1100000000 0.047133 0.30784 0.034074 -0.0067786 0.0022862 0.0035457 0.0020361 -0.00081451
-0.002101 -0.0027009 -0.0037262 0.0006009
0.034046 -0.0067558 -0.1238 0.37736 0.013147 -0.028261 -0.00012994 -0.0018114
-0.0037162 -0.00068618 -0.0035163 -0.000144
0.0022962 0.0035444 0.013088 -0.028311 0.21499 0.27746 -0.0019099 0.00019473
-0.0019767 0.00070328 -0.00095057 2.6427e-05
0.0020349 -0.00082275 -0.00013676 -0.0018131 -0.0019115 0.00019125 0.0037139 0.28918
0.02512 0.0014438 -0.0028745 -6.7734e-05
-0.0021198 -0.0026824 -0.0037346 -0.00067558 -0.001977 0.00070378 0.025133 0.0014058
-0.044092 0.20788 0.01866 0.0057999
-0.0037197 0.00060334 -0.0035213 -0.00012673 -0.00094942 2.9293e-05 -0.0028789 -5.8993e-05
0.018647 0.0057991 -0.060605 0.31656
1160000000 0.09759 0.30178 0.021288 -0.022306 0.0018549 -0.00018944 3.1291e-05 -0.0017865
-0.0039754 -0.00039799 -0.00069128 0.0039315
0.021302 -0.022289 -0.079712 0.382 -0.0057595 -0.02843 -0.0017089 -0.0015252
-0.0028916 0.0027362 -0.0013743 0.0018824
0.0018525 -0.00019182 -0.0058513 -0.028432 0.25759 0.24428 -0.00083518 0.0018478
-0.00045968 0.0021534 -0.00070345 0.00042606
3.1924e-05 -0.0017815 -0.0017251 -0.0015235 -0.00083988 0.0018517 0.042959 0.28446
0.020081 -0.013731 -0.0031315 0.0042349
-0.0039949 -0.00037923 -0.0028791 0.0027414 -0.00045362 0.0021435 0.020071 -0.013767
-0.010746 0.21443 0.017497 -0.0028181
-0.00066578 0.0039274 -0.0013653 0.0019128 -0.00069997 0.00042753 -0.0031132 0.0042474
0.017489 -0.0028171 -0.014007 0.3169
1220000000 0.14217 0.28895 0.0070657 -0.029835 -0.0019185 0.00010533 0.00036213 -0.00093519
-0.0024263 0.0023255 0.0014295 0.0020299
0.0070975 -0.029817 -0.035234 0.39287 -0.017966 -0.019601 -0.0024999 0.00046655
0.0001318 0.0032251 -0.00043642 0.0020619
-0.0019143 0.00011258 -0.018032 -0.019559 0.29591 0.20305 0.00083165 0.0019604
0.00078206 0.0013401 0.00056983 0.0005454
0.00036408 -0.00092896 -0.0024961 0.00046508 0.00083487 0.0019583 0.083319 0.27387
0.0084999 -0.019653 0.001078 0.0014509
-0.002419 0.0023356 0.00014532 0.0032166 0.00079118 0.0013358 0.0084719 -0.019678
0.012885 0.22082 0.011599 -0.014508
0.001443 0.0020259 -0.00043664 0.0020718 0.00057147 0.00054755 0.0010896 0.0014573
0.011601 -0.014507 0.019908 0.3279
1280000000 0.19083 0.26554 -0.010522 -0.026726 -0.0015269 0.0033727 -0.00084343 -0.0021213
-0.00068795 0.0029617 0.0025044 0.00093785
-0.010483 -0.026705 0.010917 0.3834 -0.024013 -0.0069236 -0.0010849 0.0015115
0.00201 0.001876 0.00089587 0.0017798
-0.0015215 0.0033703 -0.024052 -0.006851 0.3243 0.15751 0.0017989 -2.1582e-05
0.0013576 0.00016383 0.00037524 9.8465e-05
-0.00084316 -0.0021243 -0.0010835 0.0015194 0.0017964 -2.2185e-05 0.11934 0.25479
-0.0020679 -0.020677 -0.00083102 0.00064981
-0.00066012 0.0029668 0.0020166 0.0018671 0.0013536 0.00015377 -0.0021112 -0.020683
0.04845 0.22199 0.00075533 -0.016003
0.0025157 0.00093387 0.00090255 0.0017676 0.000377 9.9055e-05 -0.00082141 0.00065059
0.00075898 -0.016 0.065466 0.32533
1340000000 0.22732 0.23069 -0.019128 -0.015954 0.0016795 0.0048233 -0.0017878 -0.0010876
0.0014937 0.0025808 0.0016465 -0.001547
-0.019088 -0.015962 0.051006 0.37385 -0.020966 0.0057701 -5.6044e-05 0.0021634
0.0022235 0.00053105 0.0014566 0.00061989
0.0016909 0.0048127 -0.020952 0.0058442 0.34448 0.10928 0.0014039 -0.0011023
0.00068015 -0.00063753 6.5061e-05 0.00016125
-0.0017771 -0.0010781 -4.9906e-05 0.002165 0.0014028 -0.0010976 0.15095 0.23266
-0.011668 -0.016379 0.00032693 0.0014602
0.0015047 0.0025762 0.0022259 0.00051558 0.00067687 -0.00063084 -0.011713 -0.016369
0.077858 0.21583 -0.0063194 -0.01357
0.0016474 -0.0015454 0.0014627 0.00060628 6.6514e-05 0.00016163 0.0003319 0.0014531
-0.006314 -0.013573 0.10446 0.31642
1400000000 0.25942 0.1915 -0.022961 -0.0042654 0.0058285 0.0029333 -0.0022619 0.00059783
0.0023919 0.00079917 9.9513e-05 -0.0015605
-0.022932 -0.0042665 0.088038 0.35968 -0.013656 0.013259 0.0015138 0.00135
0.0012172 -0.0011439 0.0011079 -3.5273e-05
0.005835 0.0029197 -0.013615 0.013327 0.3561 0.055899 0.00010437 -0.00208
4.2671e-05 -0.00043615 0.00033006 0.00012824
-0.0022636 0.00061413 0.0015241 0.0013343 0.00010407 -0.0020776 0.17921 0.20155
-0.017205 -0.0084717 -0.00032535 0.00092844
0.0023967 0.00079485 0.0012214 -0.0011593 4.1342e-05 -0.00043437 -0.017233 -0.0084382
0.10948 0.20932 -0.012181 -0.0076379
8.4337e-05 -0.0015621 0.0011084 -5.1072e-05 0.00033283 0.00012788 -0.00032722 0.00092276
-0.012177 -0.0076526 0.14664 0.3013
1460000000 0.28112 0.14672 -0.018654 0.0070728 0.0059609 -0.0022675 -0.0016185 0.0018119
0.0021303 -0.00061414 -0.00055088 -0.00089126
-0.018646 0.0070521 0.12196 0.3366 -0.0048189 0.015439 0.0018729 2.3368e-05
0.0005688 -0.0014277 0.00098961 -0.00063107
0.0059519 -0.0022739 -0.0047653 0.015471 0.36077 0.0022275 -0.0016041 -0.0014448
0.00011632 -0.00022599 0.00063632 -0.00034234
-0.0016188 0.0018129 0.0018689 2.1988e-05 -0.0016083 -0.0014406 0.2032 0.17084
-0.01755 -0.00063441 4.5339e-05 0.0024438
0.002144 -0.00062083 0.00057176 -0.0014383 0.00011629 -0.00022493 -0.017567 -0.00059934
0.13755 0.19354 -0.013071 -0.0010896
-0.00055016 -0.00089447 0.0010011 -0.00063509 0.00063601 -0.0003355 3.1097e-05 0.002438
-0.013069 -0.0010994 0.17829 0.27822
1520000000 0.29265 0.10385 -0.01206 0.011435 0.0033775 -0.0046251 0.00016428 0.0027291
0.0019967 -0.0018581 -0.0011728 -3.2414e-05
-0.012061 0.011419 0.1548 0.32067 0.002469 0.012664 0.0016925 -0.0010787
-0.00018919 -0.0010356 0.00025169 -0.0009666
0.0033561 -0.0046348 0.0025245 0.012663 0.3538 -0.053459 -0.0015442 -0.00020899
0.0005389 -0.00087204 -1.9622e-05 -0.00019212
0.00017045 0.0027289 0.0016878 -0.0010843 -0.0015407 -0.00021807 0.22396 0.13207
-0.015342 0.0055984 0.0023176 0.0020024
0.0019804 -0.0018756 -0.00019195 -0.0010369 0.00053892 -0.00087574 -0.015343 0.0056364
0.16514 0.17813 -0.012195 0.0036812
-0.0011706 -2.6951e-05 0.00025034 -0.00096678 -1.9949e-05 -0.0001911 0.0023218 0.0019954
-0.012195 0.0036679 0.20956 0.25459
1580000000 0.30034 0.056848 -0.0054254 0.013037 -0.00092204 -0.0052632 0.0016287 0.0018782
-0.00027237 -0.0022851 -0.00021482 0.00049589
-0.0054208 0.013022 0.18104 0.29492 0.0057566 0.0075993 0.00024065 -0.0018306
-0.00064109 -0.00081755 -0.00027298 -0.00080447
-0.00094236 -0.0052594 0.0057859 0.0075734 0.3335 -0.11058 -0.0017257 0.0011154
-0.00041243 -0.0011641 0.00010135 -0.00066916
0.0016311 0.0018673 0.0002272 -0.0018245 -0.001727 0.001114 0.23494 0.092552
-0.010707 0.010157 0.0028535 0.0002004
-0.00028457 -0.0022785 -0.000649 -0.00082031 -0.00041669 -0.0011624 -0.010698 0.010196
0.18834 0.15838 -0.0089424 0.0088689
-0.00020906 0.00049696 -0.00027327 -0.00081035 9.9294e-05 -0.00067119 0.0028529 0.00020221
-0.0089571 0.0088538 0.23846 0.22605
1640000000 0.30085 0.014976 0.00055078 0.010823 -0.0029963 -0.002971 0.0028132 0.00082131
-0.00097712 -0.001563 -0.00013789 0.00056
0.00055273 0.010809 0.20948 0.26944 0.0060392 0.0028972 -0.0010353 -0.0016271
-0.00094292 -0.00020444 -0.00057249 -0.00059803
-0.0030037 -0.0029554 0.0060586 0.0028722 0.30494 -0.15935 -0.00044238 0.0017358
-0.0013764 -0.0007761 -0.00028738 -0.00028418
0.0028074 0.00081499 -0.0010504 -0.0016244 -0.00044479 0.0017322 0.24463 0.04508
-0.0054651 0.010794 0.0026935 -0.0014114
-0.00098652 -0.0015585 -0.00095373 -0.0001964 -0.0013698 -0.00076634 -0.0054536 0.010825
0.21007 0.13266 -0.0037392 0.010561
-0.00013285 0.00056229 -0.00057621 -0.00059403 -0.00029054 -0.00028337 0.0026928 -0.0014138
-0.0037433 0.010559 0.26201 0.19345
1700000000 0.29174 -0.030551 0.0029936 0.0074588 -0.0037933 -6.3367e-05 0.0029551 -0.0014594
-0.0021269 -0.00059121 0.00077892 0.00023093
0.002988 0.0074484 0.22668 0.23788 0.0039477 4.379e-05 -0.0015938 -0.00028518
-0.00062253 0.00011261 -0.00091391 -0.00036204
-0.0037902 -5.1873e-05 0.0039534 2.6869e-05 0.26208 -0.19952 0.00084072 0.0014657
-0.0019512 9.6294e-06 -0.00074658 -0.00075361
0.0029445 -0.0014802 -0.0015958 -0.00028351 0.00083782 0.0014623 0.23993 -0.0028787
-0.002124 0.010304 0.0014718 -0.0025851
-0.0021224 -0.0005881 -0.00062265 0.00011092 -0.0019476 1.5588e-05 -0.0021131 0.010321
0.22606 0.11067 0.0011569 0.010377
0.00078185 0.00022569 -0.00092144 -0.00035719 -0.0007525 -0.00075327 0.0014629 -0.0025888
0.0011413 0.01037 0.27623 0.15807
1760000000 0.27795 -0.078641 0.0041917 0.0041049 -0.0026088 0.00099533 0.00092537 -0.0035931
-0.0013794 0.000912 0.00033802 -0.00055809
0.0041848 0.0040983 0.25176 0.19785 0.0015104 -0.001718 -0.0011123 0.00045065
-0.00091988 0.00077336 -0.00058349 0.00049271
-0.0026055 0.0010055 0.0015134 -0.0017245 0.21274 -0.23338 0.0014597 0.00072254
-0.0010612 0.0018748 -0.0013386 -0.00017283
0.00091588 -0.0035989 -0.0011121 0.00045313 0.0014594 0.00072936 0.23001 -0.05174
0.00099596 0.0085784 -0.00042069 -0.0027968
-0.0013773 0.00091582 -0.00091859 0.0007782 -0.0010622 0.0018762 0.0010079 0.0085852
0.23909 0.074279 0.004982 0.0072994
0.00033632 -0.00056238 -0.00058248 0.00049664 -0.0013492 -0.00017219 -0.00042327 -0.0027934
0.0049891 0.0072925 0.28689 0.11971
1820000000 0.2519 -0.11507 0.0034579 0.0010389 -0.00034353 0.0025243 -0.001408 -0.0028937
-0.00089231 0.0011508 -0.00016042 -8.2263e-05
0.0034443 0.0010387 0.2611 0.16802 -0.00059687 -0.00055122 -0.0010013 0.0010776
-8.477e-05 0.0011734 -0.00048487 0.0005913
-0.0003259 0.0025253 -0.00060226 -0.00054921 0.16211 -0.24934 0.0012506 5.6699e-06
0.00016583 0.0022163 -0.0012263 0.0007315
-0.0014125 -0.0028843 -0.001 0.0010792 0.0012596 2.9313e-06 0.20098 -0.096475
0.0022335 0.0064025 -0.0017104 -0.0017706
-0.00088582 0.0011678 -8.0634e-05 0.0011713 0.00018329 0.0022139 0.002242 0.0064109
0.25421 0.043965 0.0060105 0.0033116
-0.00016255 -8.1842e-05 -0.00048093 0.00059562 -0.0012183 0.00073137 -0.0017162 -0.0017627
0.006009 0.0033089 0.28719 0.082205
1880000000 0.2156 -0.1543 0.0007492 -0.00048644 -0.00066628 0.002306 -0.0030854 -0.0017605
1.4337e-05 0.0016156 0.00018546 -0.00032028
0.00074158 -0.00049661 0.26512 0.12135 -0.0028635 0.0013987 7.2676e-05 0.0015548
0.00046458 0.0011572 0.00018139 0.00094965
-0.00065639 0.0023055 -0.0028634 0.0014126 0.10858 -0.25914 0.0013518 -0.0010499
0.0017264 0.0015498 -0.00068005 0.0014473
-0.0030832 -0.0017477 7.5558e-05 0.001565 0.0013481 -0.0010521 0.16179 -0.13608
0.0023877 0.0037798 -0.0025718 6.6691e-05
1.8403e-05 0.0016194 0.00046939 0.0011544 0.0017315 0.0015462 0.0023807 0.0037878
0.25486 0.010001 0.0055337 0.00076251
0.00018538 -0.00032214 0.00019195 0.00094728 -0.00068224 0.0014476 -0.0025666 7.812e-05
0.0055288 0.00076792 0.28484 0.047679
1940000000 0.17579 -0.17908 -0.0015149 -0.0012618 0.0014619 0.0023918 -0.003508 0.0008452
0.0015298 0.00093633 -0.00050499 -0.0003685
-0.0015237 -0.0012585 0.26491 0.08979 -0.0017137 0.0040342 0.0010196 0.0010184
0.0016666 0.00059432 0.00082367 0.00045345
0.0014616 0.002377 -0.0016911 0.0040454 0.062228 -0.25174 0.00016718 -0.001676
0.0023132 0.00013675 0.00051773 0.0016035
-0.0035073 0.00085713 0.0010251 0.0010082 0.00016427 -0.0016769 0.11053 -0.16614
0.00097722 0.0023194 -0.0019492 0.0013401
0.0015387 0.0009312 0.0016817 0.00059246 0.0023105 0.00013291 0.00098333 0.0023303
0.25422 -0.029681 0.0039821 -0.0025857
-0.00050653 -0.00036711 0.00082928 0.00044633 0.00051654 0.0016039 -0.0019466 0.0013426
0.0039678 -0.002577 0.27204 0.010862
2000000000 0.12937 -0.19314 -0.0050619 0.0014111 0.0027696 0.0018057 -0.0021131 0.0035114
0.001029 -0.00011041 -0.00034598 0.00036691
-0.0050641 0.0014111 0.25057 0.054249 -0.00128 0.0061064 0.0014202 0.00011977
0.001436 -0.0011388 0.00065073 6.9864e-05
0.0027623 0.0017899 -0.0012472 0.0061117 0.018506 -0.23693 -0.0010724 -0.0010291
0.0016621 -0.0012147 0.0019214 0.00088302
-0.0021062 0.0035064 0.0014213 0.00011177 -0.0010747 -0.001036 0.058149 -0.17699
-0.0011753 0.0020505 -0.00045581 0.0023215
0.0010367 -0.00011304 0.0014373 -0.0011478 0.0016669 -0.0012243 -0.0011653 0.0020659
0.24571 -0.063898 0.0005618 -0.0035962
