!Keysight Technologies,M9804A,MY58100912,A.14.10.03
!Date: Thursday, April 27, 2023 10:28:33
!Correction: S11(C  6-Port  ) 
!S12(C  6-Port  ) 
!S13(C  6-Port  ) 
!S14(C  6-Port  ) 
!S15(C  6-Port  ) 
!S16(C  6-Port  ) 
!S21(C  6-Port  ) 
!S22(C  6-Port  ) 
!S23(C  6-Port  ) 
!S24(C  6-Port  ) 
!S25(C  6-Port  ) 
!S26(C  6-Port  ) 
!S31(C  6-Port  ) 
!S32(C  6-Port  ) 
!S33(C  6-Port  ) 
!S34(C  6-Port  ) 
!S35(C  6-Port  ) 
!S36(C  6-Port  ) 
!S41(C  6-Port  ) 
!S42(C  6-Port  ) 
!S43(C  6-Port  ) 
!S44(C  6-Port  ) 
!S45(C  6-Port  ) 
!S46(C  6-Port  ) 
!S51(C  6-Port  ) 
!S52(C  6-Port  ) 
!S53(C  6-Port  ) 
!S54(C  6-Port  ) 
!S55(C  6-Port  ) 
!S56(C  6-Port  ) 
!S61(C  6-Port  ) 
!S62(C  6-Port  ) 
!S63(C  6-Port  ) 
!S64(C  6-Port  ) 
!S65(C  6-Port  ) 
!S66(C  6-Port  ) 
!S6P File: Measurement: :
# Hz S  RI   R 50
500000000 -0.33921 -0.017829 -0.010848 -0.0031461 -0.0072995 0.012634 -0.0032307 0.01231
0.011434 0.0036269 -0.002873 0.0087809
-0.010844 -0.003147 -0.41941 -0.035814 0.0062428 -0.011726 0.0019573 0.012587
0.0067421 0.0022253 0.002264 0.01381
-0.0072796 0.012635 0.0062324 -0.011736 -0.26259 0.22281 0.0073537 0.0036043
-0.00086798 0.0081848 0.0024738 0.012069
-0.0032331 0.012292 0.0019815 0.012604 0.0073566 0.003607 -0.32984 0.062989
-0.019376 -0.0063879 0.015818 0.023695
0.011436 0.0036203 0.006749 0.0022168 -0.00086861 0.0081833 -0.019371 -0.0063779
-0.23624 -0.16333 -0.025351 0.0042268
-0.0028588 0.0087799 0.0022822 0.013815 0.0024881 0.012061 0.015821 0.023696
-0.025343 0.0042178 -0.28379 -0.080262
560000000 -0.31171 0.13762 -0.026905 -0.060649 0.00091861 0.01154 0.0059547 0.0095925
0.0094043 0.0040273 0.010659 0.0067945
-0.026848 -0.060588 -0.3752 0.11871 -0.042336 -0.034442 0.013556 0.0029753
-0.01281 -0.0039866 0.0033333 -0.0013477
0.00094326 0.011545 -0.042417 -0.034405 -0.18027 0.26714 -0.00049464 -0.0040922
0.019198 0.0032433 0.0066289 -0.00629
0.0059507 0.0095712 0.013558 0.0029905 -0.00047957 -0.0040918 -0.30426 0.14879
0.00065664 -0.024336 0.0031548 -0.018752
0.0094041 0.004005 -0.012827 -0.0039397 0.0192 0.0032399 0.00064118 -0.024347
-0.28621 0.0090906 0.0030112 -0.046208
0.010672 0.0067815 0.003324 -0.0013659 0.0066266 -0.0062873 0.0031643 -0.018764
0.0030368 -0.046229 -0.32936 0.05862
620000000 -0.27028 0.12331 -0.023436 0.007117 0.0040034 0.008115 0.0074362 -0.0053391
0.010599 -0.0015848 0.00049051 -0.0029872
-0.023415 0.0071089 -0.40123 0.074274 -0.019481 0.00045409 -0.0011384 -0.0022834
0.010198 -0.0064975 0.0012202 -0.0027257
0.0040043 0.0081183 -0.019485 0.00048562 -0.14908 0.27693 -0.0011168 -0.00476
-0.0033651 -0.0027747 0.0079566 -0.0036196
0.0074381 -0.005349 -0.0011492 -0.0022848 -0.0011149 -0.0047607 -0.2622 0.16107
-0.039299 -0.017704 0.012016 0.022855
0.010586 -0.0016006 0.010205 -0.0065228 -0.0033703 -0.0027832 -0.03932 -0.017672
-0.21033 -0.028199 -0.038122 0.015273
0.00049217 -0.0029739 0.0012255 -0.0027322 0.0079713 -0.0036263 0.012012 0.022866
-0.038112 0.015254 -0.25552 0.030233
680000000 -0.2273 0.2047 -0.027891 -0.011873 0.0054666 0.0045586 0.00098252 -0.007276
-0.0031626 -0.01102 0.0039423 -0.0066459
-0.027872 -0.011871 -0.38412 0.16807 -0.032173 0.00058532 -0.0014402 -0.00046457
-0.0025097 -0.0087028 -0.0015807 -0.0020396
0.0054721 0.0045489 -0.032179 0.00063832 -0.098117 0.29475 -0.00083146 -0.00030556
-0.0017432 0.00019973 -0.0034878 -0.0086751
0.00098536 -0.0072717 -0.0014416 -0.00047026 -0.00083063 -0.00031278 -0.21668 0.20739
-0.025559 -0.0051198 -0.0092903 -0.0082197
-0.0031897 -0.011022 -0.002536 -0.0087119 -0.001739 0.0001971 -0.025573 -0.0050967
-0.24941 0.068057 -0.0068949 -0.0067924
0.0039226 -0.0066527 -0.0015827 -0.0020428 -0.0034853 -0.0086817 -0.0093037 -0.0082165
-0.006892 -0.0067918 -0.25337 0.12534
740000000 -0.18366 0.19963 -0.0366 0.02635 0.011879 -0.0058339 -0.00076662 -0.0039592
-0.0051161 -0.0025913 -0.0058445 0.0033564
-0.036603 0.02634 -0.33258 0.18764 -0.032678 0.034945 -0.0010664 -0.0060777
-0.011115 0.0078931 -0.0022741 -0.004598
0.011873 -0.0058494 -0.032628 0.035012 -0.064487 0.29403 -0.0016335 0.0030402
-0.0031539 -0.0045254 -0.0020648 0.0012134
-0.00075817 -0.0039638 -0.0010888 -0.0060796 -0.0016288 0.0030418 -0.19875 0.21636
-0.041626 -0.0033544 0.021782 0.012218
-0.0051155 -0.0025861 -0.011117 0.0079156 -0.0031546 -0.0045269 -0.041668 -0.003316
-0.15781 0.087831 -0.038616 0.0035989
-0.0058672 0.0033888 -0.0022819 -0.0045829 -0.0020561 0.0011967 0.021779 0.012232
-0.038616 0.0035784 -0.24107 0.13521
800000000 -0.14987 0.2367 -0.021159 0.01764 0.0044737 -0.010432 -0.0044182 -0.0016336
-0.0037218 0.002828 0.0035545 0.00059298
-0.021167 0.017617 -0.33241 0.25611 -0.0065348 0.033423 -0.0021211 0.0022831
-0.00053554 0.0034015 0.0012286 0.0053362
0.0044495 -0.010429 -0.0064649 0.033447 -0.021563 0.31581 0.00086112 0.0016066
0.000369 0.0034948 -0.0018232 0.0011694
-0.0044195 -0.0016246 -0.0021107 0.002288 0.00087279 0.0016139 -0.16838 0.24251
-0.026632 0.016179 0.012341 -0.010009
-0.0037129 0.002841 -0.0005257 0.0034075 0.00038185 0.0034986 -0.026629 0.01624
-0.19402 0.11531 -0.015424 0.018798
0.0035401 0.00059184 0.0012487 0.0053496 -0.0018269 0.0011687 0.012344 -0.010038
-0.01544 0.018772 -0.22849 0.18071
860000000 -0.11517 0.25669 -0.015765 0.030961 -0.0039513 -0.0093588 -0.0021697 0.0013302
0.004464 0.0046922 -0.0026212 -0.0024556
-0.01578 0.030937 -0.28508 0.29663 0.0092696 0.032882 0.00020836 0.0022305
0.0047608 0.00033631 0.0031369 0.0004932
-0.0039527 -0.0093419 0.0093363 0.032859 0.026741 0.32264 -0.00039201 2.047e-05
0.0025337 -0.00133 0.0017029 0.0039992
-0.0021765 0.0013402 0.00020964 0.0022265 -0.00039401 1.6659e-05 -0.13177 0.25338
-0.015378 0.020879 -0.0056557 -0.0090464
0.0044845 0.0046817 0.0047865 0.00031267 0.002544 -0.0013442 -0.015355 0.020919
-0.14213 0.16077 -0.02129 0.016253
-0.0026272 -0.0024516 0.0031453 0.00048641 0.001707 0.0039956 -0.0056689 -0.009047
-0.02129 0.016228 -0.17973 0.22084
920000000 -0.08833 0.27833 0.0063715 0.036599 -0.0091749 -0.0036927 -0.0013978 0.0018336
0.0014823 0.0014501 0.0026688 -0.0017416
0.0063275 0.036578 -0.25449 0.3172 0.028123 0.020051 0.0016885 0.00092756
0.0068718 -0.00074396 0.0035524 -0.0029976
-0.0091732 -0.0036749 0.028172 0.019984 0.074292 0.32258 0.0019325 -0.00014292
0.0014681 -0.00055405 0.00084946 -0.0011681
-0.0013983 0.0018408 0.001694 0.0009126 0.0019318 -0.00013654 -0.10554 0.26909
-0.0072606 0.030675 0.0022019 -0.0060304
0.0014841 0.001453 0.0068726 -0.0007769 0.0014663 -0.0005598 -0.007212 0.030708
-0.1285 0.16701 -0.00027528 0.025549
0.0026607 -0.0017488 0.0035481 -0.0030024 0.00085288 -0.0011696 0.0021931 -0.0060254
-0.00029379 0.025542 -0.17817 0.23589
980000000 -0.041271 0.29592 0.018702 0.028287 -0.0082993 0.0047725 0.0020651 0.0031525
0.0039191 -0.00187 -0.0030697 -0.0021588
0.018649 0.028257 -0.20247 0.3493 0.032255 0.003053 0.0020615 -0.00029324
0.0014608 -0.0061983 -0.00066721 -0.0024445
-0.0082839 0.0047861 0.03229 0.0029784 0.12097 0.31431 0.00047242 -0.001299
0.00010412 -0.0022132 0.0012856 -0.00033707
0.0020657 0.0031478 0.0020748 -0.00030481 0.00046593 -0.0012913 -0.066345 0.27848
0.01088 0.028086 -0.0083788 -0.0061176
0.0039154 -0.001889 0.0014551 -0.0062167 0.00010593 -0.0022184 0.010943 0.028072
-0.096736 0.19041 0.0059278 0.018157
-0.0030618 -0.0021579 -0.00068597 -0.0024261 0.001289 -0.00033959 -0.0083996 -0.0061095
0.0059173 0.018147 -0.13421 0.2739
1040000000 0.0020371 0.30299 0.032878 0.015613 -0.0010071 0.0065697 0.0024652 0.00048079
-4.369e-05 -0.003218 -0.00067966 -0.0014597
0.032816 0.015624 -0.16651 0.36227 0.027484 -0.015628 0.0014 -0.0018104
-0.0024782 -0.0023789 -0.0015419 -0.0027504
-0.00098904 0.0065812 0.027452 -0.015727 0.16752 0.29951 -0.00061952 -0.001491
-0.0015417 -0.00085997 -0.00040205 -0.0010899
0.0024606 0.00047948 0.0014097 -0.0018299 -0.00061986 -0.0014859 -0.037522 0.28714
0.020832 0.015315 -0.0026219 0.0012486
-6.142e-05 -0.0032087 -0.0024784 -0.0024026 -0.0015491 -0.00085822 0.020867 0.015273
-0.064609 0.19689 0.013682 0.01556
-0.00068502 -0.0014735 -0.0015617 -0.0027175 -0.00039706 -0.0010921 -0.00262 0.0012563
0.013661 0.015555 -0.1086 0.29263
1100000000 0.047524 0.30884 0.034242 -0.0058729 0.0027285 0.003582 0.0021954 -0.0010934
-0.0021882 -0.0026935 -0.0035403 0.00060191
0.034207 -0.0058534 -0.12282 0.37823 0.01328 -0.027451 -0.00016543 -0.0017714
-0.0034268 -0.00045739 -0.003358 -9.2891e-05
0.0027306 0.0035784 0.013207 -0.027498 0.2143 0.27707 -0.0018037 0.00021065
-0.0017579 0.00065557 -0.0008509 -0.00022626
0.0021848 -0.0010974 -0.00016311 -0.0017811 -0.0018085 0.00021065 0.0039599 0.28966
0.024227 0.0021152 -0.0025789 0.00023722
-0.0021953 -0.0026881 -0.0034248 -0.00044626 -0.0017686 0.00065117 0.024242 0.0020887
-0.045524 0.20811 0.017837 0.006149
-0.0035361 0.00061083 -0.0033629 -7.517e-05 -0.00085465 -0.00022003 -0.0025828 0.00024657
0.017827 0.0061528 -0.062026 0.31628
1160000000 0.098356 0.30241 0.021824 -0.021428 0.002298 -0.00033906 -7.5748e-05 -0.002101
-0.0038586 -0.00041211 -0.00052028 0.0037381
0.021806 -0.021387 -0.078531 0.38174 -0.0050448 -0.027729 -0.0016445 -0.0014459
-0.0024578 0.0024666 -0.0011091 0.0017216
0.0022811 -0.00033903 -0.0051213 -0.027737 0.25649 0.24448 -0.00073736 0.0017324
-0.00049347 0.0018498 -0.0008986 0.00014518
-9.3077e-05 -0.0020976 -0.0016473 -0.0014506 -0.00073958 0.0017156 0.043283 0.28457
0.01962 -0.012417 -0.0029926 0.0045621
-0.0038709 -0.000411 -0.0024461 0.0024722 -0.00048995 0.0018408 0.019622 -0.01245
-0.011732 0.21564 0.016705 -0.0018054
-0.00050336 0.0037361 -0.0011126 0.0017265 -0.00089582 0.00014841 -0.0029878 0.0045602
0.016698 -0.0018079 -0.01495 0.31658
1220000000 0.14306 0.28912 0.0081671 -0.029306 -0.0015432 -0.00034751 0.00013037 -0.00092248
-0.0023622 0.002337 0.0014362 0.0018248
0.0081747 -0.029278 -0.034256 0.39222 -0.017103 -0.019471 -0.0023927 0.00050034
0.00017931 0.0028523 -0.00044095 0.0018593
-0.0015474 -0.00033119 -0.017167 -0.019434 0.29501 0.20406 0.00074834 0.0017853
0.00058144 0.0012102 0.0003007 0.00056195
0.00013174 -0.00091347 -0.0023882 0.00050931 0.00074084 0.0017865 0.083588 0.27375
0.0087109 -0.018223 0.0016662 0.0014991
-0.0023519 0.0023323 0.00019572 0.0028615 0.00057759 0.0012082 0.0086914 -0.01824
0.012421 0.22217 0.011463 -0.013166
0.0014427 0.0018209 -0.00044104 0.0018658 0.00030209 0.00056068 0.0016652 0.0014936
0.011468 -0.013163 0.018762 0.32777
1280000000 0.19155 0.26539 -0.0091821 -0.02677 -0.0014634 0.0027431 -0.0010025 -0.0020019
-0.00058061 0.0028347 0.002282 0.0008347
-0.0091499 -0.026746 0.011286 0.38224 -0.023087 -0.007283 -0.00096825 0.001382
0.0016933 0.0015929 0.00071853 0.0017188
-0.001461 0.0027387 -0.023118 -0.0072083 0.32431 0.15893 0.0016485 -2.9627e-05
0.0011354 0.00018885 0.00027579 0.00028388
-0.0010074 -0.001997 -0.00095975 0.0013865 0.0016372 -3.2223e-05 0.11951 0.25449
-0.00095071 -0.019392 -0.00030992 0.00039828
-0.00058054 0.0028502 0.0017077 0.0015829 0.00113 0.00018712 -0.00098493 -0.019398
0.048606 0.22323 0.0012264 -0.014689
0.0022792 0.00083383 0.0007257 0.0017266 0.0002778 0.00028121 -0.00030948 0.00039614
0.0012288 -0.014686 0.064397 0.32514
1340000000 0.22795 0.23026 -0.017915 -0.016899 0.0013828 0.0041843 -0.00176 -0.00084809
0.0014087 0.0024752 0.0014037 -0.0014658
-0.017881 -0.016904 0.050645 0.37296 -0.020473 0.0048723 -0.00012576 0.0019795
0.0018669 0.0006131 0.0013012 0.00063572
0.0013957 0.0041789 -0.020461 0.0049472 0.34518 0.1107 0.001153 -0.0010159
0.00058251 -0.00051195 9.1288e-05 0.00018123
-0.0017577 -0.00084228 -0.00012118 0.0019856 0.0011537 -0.0010152 0.15073 0.23235
-0.010049 -0.015868 0.00060892 0.00099082
0.0014168 0.0024627 0.001871 0.00059715 0.00058296 -0.00050742 -0.010084 -0.015858
0.078228 0.21675 -0.0052055 -0.012513
0.001392 -0.0014708 0.0013047 0.00063801 9.3716e-05 0.00018333 0.00060883 0.00099249
-0.0052005 -0.012518 0.10298 0.31686
1400000000 0.25971 0.19071 -0.022448 -0.0057534 0.0052168 0.0026291 -0.0021294 0.00066907
0.0022871 0.000708 8.7491e-05 -0.0013679
-0.022416 -0.0057633 0.087264 0.35914 -0.01371 0.012271 0.0013121 0.001314
0.0011049 -0.00087375 0.0010422 8.6888e-05
0.0052209 0.0026143 -0.013674 0.012333 0.35767 0.056505 0.00012757 -0.0018047
5.6e-05 -0.00038886 0.0003057 0.00013228
-0.0021247 0.00067018 0.0013134 0.0013064 0.00012329 -0.0018074 0.17888 0.20145
-0.01542 -0.0088767 -0.00035214 0.00031471
0.002299 0.00069084 0.0011068 -0.00087163 5.7072e-05 -0.00038718 -0.015455 -0.0088454
0.11017 0.21003 -0.010656 -0.0073009
7.7551e-05 -0.0013753 0.0010481 8.3851e-05 0.00031141 0.00013307 -0.00035194 0.00031751
-0.010643 -0.0073178 0.14557 0.30217
1460000000 0.28098 0.14612 -0.019068 0.0055052 0.0053408 -0.0022515 -0.001515 0.0017068
0.0019339 -0.00059684 -0.00045621 -0.00080248
-0.019053 0.0054775 0.12103 0.33674 -0.0054567 0.014613 0.0017497 0.00013514
0.00074773 -0.0012591 0.0010343 -0.00055139
0.0053389 -0.002258 -0.0054061 0.014646 0.36217 0.002092 -0.0014351 -0.0013071
0.00011774 -0.00015213 0.00061095 -0.00025681
-0.001498 0.0017134 0.0017452 0.00012415 -0.0014271 -0.0013113 0.20278 0.17102
-0.016151 -0.0020719 -0.00025773 0.0020364
0.0019342 -0.00060674 0.00073928 -0.001254 0.00011399 -0.00015457 -0.01617 -0.0020418
0.13848 0.19364 -0.011548 -0.0015903
-0.00044624 -0.00079605 0.0010307 -0.00055801 0.00061497 -0.00025761 -0.00025835 0.0020416
-0.011538 -0.0016001 0.17749 0.27919
1520000000 0.29219 0.10351 -0.013205 0.010365 0.0028392 -0.0042052 0.00015142 0.0025839
0.0018859 -0.0016453 -0.0010491 -4.4544e-05
-0.013206 0.010349 0.15425 0.32131 0.0016381 0.012435 0.001669 -0.00086472
-1.561e-05 -0.0010155 0.00027378 -0.00090048
0.0028249 -0.0042106 0.0016965 0.012434 0.35494 -0.05434 -0.0013326 -0.00029384
0.00052542 -0.00088333 -4.1687e-06 -0.00015248
0.0001556 0.0025851 0.0016704 -0.00087814 -0.001328 -0.0002948 0.22371 0.13259
-0.014982 0.0036673 0.0019039 0.0017554
0.0018857 -0.0016574 -2.3356e-05 -0.001012 0.00052409 -0.00088688 -0.014991 0.0036928
0.1659 0.17797 -0.011088 0.0025377
-0.0010507 -4.0983e-05 0.00026912 -0.00089732 -6.1445e-06 -0.0001513 0.0019068 0.0017494
-0.011094 0.002531 0.20929 0.25574
1580000000 0.30001 0.056903 -0.0069237 0.012756 -0.0011688 -0.0045127 0.0015322 0.0018331
-0.00018683 -0.0020312 -0.00021483 0.00037235
-0.0069241 0.012742 0.18097 0.29587 0.0049391 0.0077839 0.00040349 -0.0016882
-0.00054455 -0.00094514 -0.00020228 -0.00078265
-0.001188 -0.0045083 0.0049692 0.0077693 0.33402 -0.11208 -0.0016205 0.00091411
-0.00030486 -0.001006 0.00020269 -0.00057638
0.0015283 0.0018282 0.00040568 -0.0016861 -0.0016198 0.00091649 0.23519 0.093125
-0.011384 0.0083421 0.0024057 0.00020879
-0.00019978 -0.0020343 -0.00054459 -0.00094049 -0.00030157 -0.0010128 -0.01137 0.0083784
0.18892 0.15792 -0.0085315 0.0074474
-0.00021302 0.00037628 -0.00020512 -0.00078162 0.00020199 -0.0005796 0.0023988 0.00020658
-0.0085297 0.0074442 0.23864 0.22692
1640000000 0.30072 0.015278 -0.00082634 0.011338 -0.0027336 -0.0023752 0.0027309 0.00084715
-0.00073033 -0.0014477 -0.00019598 0.00055035
-0.00084366 0.011329 0.21004 0.27024 0.0055671 0.0034227 -0.00085893 -0.0016647
-0.0010099 -0.0003239 -0.00051531 -0.00056921
-0.00274 -0.0023688 0.0055787 0.0033964 0.30455 -0.1605 -0.00064032 0.0015537
-0.0011712 -0.0008034 -0.0001699 -0.00022188
0.0027302 0.00084222 -0.00086436 -0.0016496 -0.00063578 0.0015546 0.24517 0.045383
-0.007006 0.0096979 0.0023397 -0.0012516
-0.00074034 -0.0014389 -0.001009 -0.000327 -0.001177 -0.00081039 -0.0069861 0.0097193
0.21022 0.13219 -0.0040175 0.0090935
-0.00018978 0.00055381 -0.00051677 -0.0005741 -0.00017173 -0.00022322 0.0023338 -0.0012704
-0.0040236 0.0090966 0.2623 0.19407
1700000000 0.29193 -0.030306 0.0021018 0.008548 -0.0033076 0.00025217 0.0029337 -0.0013716
-0.001923 -0.0006682 0.0006517 0.00034601
0.0020976 0.0085428 0.22765 0.23827 0.0037501 0.00070991 -0.0014736 -0.00044576
-0.00072596 0.00014996 -0.00087414 -0.00040515
-0.0033081 0.00025617 0.0037528 0.00070177 0.26115 -0.2002 0.00071104 0.0014895
-0.0017981 -0.00011883 -0.00061573 -0.00076836
0.0029214 -0.0013851 -0.0014698 -0.0004424 0.00071526 0.0014893 0.24063 -0.003031
-0.0038882 0.010179 0.0011775 -0.0022697
-0.0019257 -0.00065428 -0.00072246 0.00015534 -0.0018011 -0.000114 -0.0038722 0.010199
0.22611 0.11025 0.00029784 0.0092647
0.00065576 0.00034121 -0.00088187 -0.00039525 -0.00062368 -0.00076808 0.0011694 -0.0022809
0.00030323 0.0092615 0.27656 0.15821
1760000000 0.2783 -0.078617 0.0039768 0.0054395 -0.0021598 0.00089329 0.00099529 -0.0034782
-0.0014039 0.00068129 0.00044388 -0.00049238
0.0039682 0.0054355 0.25276 0.1976 0.0016829 -0.0012222 -0.0011634 0.00028387
-0.0009178 0.0008578 -0.00057468 0.00048007
-0.0021578 0.00090353 0.0016817 -0.0012338 0.2123 -0.23404 0.0013671 0.00081123
-0.0011144 0.0016059 -0.0012602 -0.00023721
0.00098274 -0.0034821 -0.0011654 0.00029518 0.0013657 0.0008057 0.23044 -0.052257
-0.00046113 0.0093285 -0.00056493 -0.0023348
-0.0013973 0.0006932 -0.00091479 0.00086613 -0.0011167 0.0016114 -0.00044166 0.0093369
0.23887 0.073874 0.0037392 0.0066447
0.00044129 -0.00049497 -0.00057134 0.00048555 -0.0012712 -0.00023523 -0.00056827 -0.0023418
0.0037378 0.0066414 0.2869 0.11961
1820000000 0.25225 -0.11535 0.0039345 0.0021774 -7.3665e-06 0.0023859 -0.0012486 -0.0028774
-0.0010674 0.0010289 -7.5043e-05 -8.2471e-05
0.0039339 0.0021725 0.26186 0.16741 -0.00026314 -4.2002e-05 -0.0011272 0.0010122
2.9927e-05 0.0012353 -0.00048657 0.00057276
-5.8057e-06 0.0023815 -0.00025888 -4.4045e-05 0.16115 -0.24887 0.0013734 7.7761e-05
-1.5817e-05 0.0021633 -0.0012411 0.00059684
-0.0012613 -0.0028679 -0.0011155 0.0010188 0.0013751 8.6415e-05 0.20091 -0.097107
0.0014143 0.0075617 -0.0015834 -0.0012698
-0.0010605 0.0010301 3.6352e-05 0.0012304 -1.192e-05 0.0021707 0.0014303 0.0075613
0.254 0.0438 0.0046742 0.0033129
-7.803e-05 -8.0543e-05 -0.00048149 0.00057679 -0.0012362 0.00059929 -0.001588 -0.0012627
0.0046707 0.0033068 0.28699 0.082287
1880000000 0.21573 -0.15479 0.0016206 0.00022368 -0.00045089 0.0020036 -0.002943 -0.0018521
-0.00021841 0.0017413 0.00021861 -0.00039491
0.0016242 0.00022771 0.26545 0.12042 -0.0023982 0.0015797 -2.056e-05 0.0015785
0.00060129 0.0010431 0.00021225 0.00093621
-0.00044551 0.0020053 -0.0023909 0.0016011 0.10806 -0.25901 0.0013925 -0.0010941
0.0015893 0.0015823 -0.00071049 0.0013474
-0.0029552 -0.0018361 -1.8307e-05 0.0015876 0.0013927 -0.0010968 0.16151 -0.13653
0.0022378 0.0051233 -0.0021146 0.00044419
-0.00020792 0.0017294 0.0006155 0.0010405 0.0015941 0.0015763 0.00225 0.0051266
0.2546 0.0099382 0.0043731 0.0013443
0.0002146 -0.00039382 0.00022179 0.00093181 -0.00070749 0.0013527 -0.0021134 0.00044926
0.0043729 0.0013378 0.28459 0.047763
1940000000 0.17558 -0.1796 -0.00049953 -0.0010479 0.0014611 0.0018985 -0.0035276 0.00077228
0.0014982 0.0011542 -0.00060597 -0.00055384
-0.00049863 -0.0010535 0.26479 0.088934 -0.0011156 0.0039896 0.00094412 0.0011257
0.0016389 0.00040793 0.00084895 0.00034131
0.0014599 0.0018985 -0.0011091 0.0040011 0.061892 -0.25127 1.2838e-05 -0.0016464
0.0022537 0.00028068 0.00044708 0.0015383
-0.0035217 0.00078566 0.00094633 0.0011232 1.4043e-05 -0.0016595 0.11003 -0.1664
0.0014329 0.0033871 -0.0013934 0.001416
0.0015044 0.0011414 0.0016419 0.00039999 0.0022611 0.00027811 0.0014404 0.0033921
0.25408 -0.029491 0.0032092 -0.0015295
-0.00060945 -0.00054711 0.0008525 0.00033157 0.00045249 0.00153 -0.0013938 0.0014213
0.0032077 -0.0015217 0.27171 0.011229
2000000000 0.12879 -0.19345 -0.0040874 0.0010947 0.0025653 0.0014189 -0.0020646 0.003388
0.0012589 2.5053e-05 -0.0004583 0.00038665
-0.0040843 0.0010884 0.25015 0.053505 -0.00080149 0.0057684 0.0014709 0.00023553
0.0012091 -0.0011994 0.00046335 5.2582e-05
0.002568 0.0014115 -0.00076909 0.0057761 0.018486 -0.23643 -0.0009963 -0.00094859
0.0017941 -0.0010214 0.0016809 0.0010902
-0.0020519 0.0033918 0.0014779 0.00023402 -0.0010019 -0.00093739 0.057734 -0.17692
-0.00037146 0.0028287 1.4249e-05 0.0020936
0.0012515 1.2086e-05 0.0011904 -0.0012075 0.001791 -0.0010299 -0.00036556 0.0028333
0.24569 -0.063726 0.00029195 -0.0024499
