!Keysight Technologies,M9804A,MY58100912,A.14.10.03
!Date: Thursday, April 27, 2023 10:28:33
!Correction: S11(C  6-Port  ) 
!S12(C  6-Port  ) 
!S13(C  6-Port  ) 
!S14(C  6-Port  ) 
!S15(C  6-Port  ) 
!S16(C  6-Port  ) 
!S21(C  6-Port  ) 
!S22(C  6-Port  ) 
!S23(C  6-Port  ) 
!S24(C  6-Port  ) 
!S25(C  6-Port  ) 
!S26(C  6-Port  ) 
!S31(C  6-Port  ) 
!S32(C  6-Port  ) 
!S33(C  6-Port  ) 
!S34(C  6-Port  ) 
!S35(C  6-Port  ) 
!S36(C  6-Port  ) 
!S41(C  6-Port  ) 
!S42(C  6-Port  ) 
!S43(C  6-Port  ) 
!S44(C  6-Port  ) 
!S45(C  6-Port  ) 
!S46(C  6-Port  ) 
!S51(C  6-Port  ) 
!S52(C  6-Port  ) 
!S53(C  6-Port  ) 
!S54(C  6-Port  ) 
!S55(C  6-Port  ) 
!S56(C  6-Port  ) 
!S61(C  6-Port  ) 
!S62(C  6-Port  ) 
!S63(C  6-Port  ) 
!S64(C  6-Port  ) 
!S65(C  6-Port  ) 
!S66(C  6-Port  ) 
!S6P File: Measurement: :
# Hz S  RI   R 50
500000000 -0.33926 -0.017431 -0.010935 -0.0033686 -0.0073167 0.012959 -0.0034817 0.012149
0.011097 0.0039241 -0.0025286 0.0090424
-0.011239 -0.0027494 -0.4199 -0.035747 0.005881 -0.01119 0.0019919 0.01247
0.0066915 0.0019514 0.0020387 0.013772
-0.0074778 0.012883 0.0063329 -0.011388 -0.2629 0.22337 0.0070184 0.0039119
-0.00089415 0.0083497 0.0019669 0.012169
-0.003584 0.01223 0.0016992 0.012726 0.0069662 0.003771 -0.33013 0.062258
-0.019592 -0.0069023 0.015546 0.023466
0.011145 0.0046158 0.0066379 0.0022364 -0.0014614 0.0081422 -0.01944 -0.0069924
-0.23638 -0.16325 -0.025229 0.0042566
-0.0035591 0.0085325 0.0020104 0.013527 0.0021591 0.011822 0.016474 0.023166
-0.025456 0.0038988 -0.28415 -0.079565
560000000 -0.31235 0.13838 -0.027917 -0.060554 0.0010013 0.011663 0.0064851 0.0095024
0.0092151 0.0039445 0.010492 0.0063564
-0.027509 -0.060711 -0.37481 0.11814 -0.042329 -0.033788 0.013282 0.0034353
-0.01242 -0.0032748 0.0038915 -0.00067205
0.0013063 0.011413 -0.042279 -0.033341 -0.18075 0.26754 -0.00057114 -0.0045507
0.018494 0.0035935 0.0066529 -0.00617
0.0059762 0.0095972 0.013557 0.0035308 -0.00043896 -0.0044312 -0.30411 0.14888
-0.00017409 -0.024215 0.0036597 -0.018576
0.0090846 0.0037603 -0.012141 -0.0033573 0.018694 0.0033394 0.00065046 -0.024258
-0.28684 0.0087919 0.0026519 -0.046378
0.010871 0.0071439 0.002479 -0.00077637 0.0072466 -0.0060245 0.0033745 -0.018238
0.002335 -0.04653 -0.3302 0.059478
620000000 -0.27036 0.12352 -0.023511 0.0076914 0.0041396 0.0082161 0.0077013 -0.0050598
0.010747 -0.0014903 0.00047876 -0.0027479
-0.023675 0.0073826 -0.40143 0.074152 -0.019486 0.00068494 -0.00068278 -0.0019839
0.01019 -0.0065066 0.001376 -0.0026605
0.0041569 0.0080874 -0.019557 0.00044079 -0.14901 0.27737 -0.0010747 -0.0050111
-0.003289 -0.0029246 0.0081446 -0.003556
0.0078151 -0.0053245 -0.00071802 -0.0023827 -0.0011417 -0.0050599 -0.26307 0.15996
-0.038987 -0.017356 0.012637 0.022918
0.010747 -0.0019012 0.0101 -0.0064081 -0.003146 -0.0026454 -0.039416 -0.016345
-0.21129 -0.029522 -0.038994 0.014867
0.0010545 -0.0031518 0.0013179 -0.0027953 0.0080931 -0.0036888 0.01224 0.021838
-0.038742 0.0154 -0.25517 0.031697
680000000 -0.22778 0.20544 -0.027913 -0.011481 0.0056138 0.0043436 0.0013789 -0.0076724
-0.002723 -0.01085 0.0040923 -0.0064256
-0.027839 -0.01151 -0.38412 0.16808 -0.0321 0.00063347 -0.0015229 -0.00029839
-0.002578 -0.0088811 -0.0021209 -0.0020853
0.0057143 0.0044657 -0.03223 0.00065495 -0.097902 0.29483 -0.00090117 -0.00020806
-0.0019676 2.6551e-06 -0.0038915 -0.008685
0.0011558 -0.0073807 -0.0014717 -0.00065114 -0.00099727 -0.00049435 -0.2161 0.20696
-0.025714 -0.0053139 -0.0089153 -0.0074217
-0.0030361 -0.011417 -0.00259 -0.0089145 -0.0017509 -8.8214e-05 -0.026353 -0.0051222
-0.25037 0.06852 -0.0077762 -0.0063012
0.0039082 -0.0066664 -0.0017843 -0.0021786 -0.0037151 -0.0087311 -0.0091874 -0.0074776
-0.0069249 -0.0064711 -0.25377 0.12745
740000000 -0.18372 0.2004 -0.036075 0.026445 0.011924 -0.005943 -0.0006578 -0.0039492
-0.0052059 -0.0028043 -0.0059835 0.0033028
-0.03639 0.026508 -0.33262 0.18758 -0.032642 0.035044 -0.0013617 -0.0058359
-0.011766 0.0079972 -0.0022855 -0.0049191
0.011826 -0.0060512 -0.032685 0.035254 -0.064302 0.29417 -0.0019563 0.0028988
-0.0034448 -0.0045267 -0.0020234 0.0012132
-0.00075875 -0.0039773 -0.0010469 -0.0062713 -0.0018665 0.0031912 -0.19866 0.21615
-0.041847 -0.0027563 0.021988 0.012154
-0.0056425 -0.0030121 -0.011433 0.008143 -0.0032932 -0.0043791 -0.041854 -0.0029384
-0.15657 0.089793 -0.038684 0.003125
-0.0058196 0.003523 -0.0022259 -0.004669 -0.0021047 0.001468 0.022313 0.011786
-0.038699 0.0038658 -0.24175 0.13649
800000000 -0.14961 0.2375 -0.021156 0.017809 0.0045712 -0.010433 -0.0043442 -0.001647
-0.0036519 0.0029707 0.0040442 0.00073251
-0.021285 0.017832 -0.33253 0.25584 -0.0065214 0.033608 -0.0022779 0.0023335
-0.00081024 0.0036778 0.0013113 0.0055237
0.0045301 -0.010489 -0.0064333 0.033632 -0.021615 0.31584 0.00089895 0.0016783
0.00052126 0.0035472 -0.0016275 0.0012843
-0.0044119 -0.001551 -0.0022651 0.0023826 0.0009324 0.0016819 -0.16836 0.24274
-0.026609 0.016527 0.012627 -0.0098366
-0.0040933 0.0031115 -0.0007083 0.0037388 0.00051431 0.0035203 -0.026661 0.016307
-0.19395 0.11605 -0.015185 0.019088
0.0036523 0.00075504 0.0012224 0.0055245 -0.0016747 0.0013487 0.012548 -0.0099494
-0.015214 0.01913 -0.22811 0.18209
860000000 -0.11466 0.25667 -0.015649 0.030736 -0.0037961 -0.0095769 -0.0018101 0.0012125
0.0046018 0.0045307 -0.0026208 -0.0022096
-0.015605 0.030702 -0.2851 0.29641 0.0093943 0.033015 0.00024838 0.00225
0.0048374 0.000272 0.0034637 0.00061243
-0.0038412 -0.0096331 0.0095504 0.033051 0.02657 0.32268 -0.0003072 -3.8238e-05
0.0026744 -0.0014884 0.0019973 0.0039931
-0.0018505 0.0010864 6.8173e-06 0.0022285 -0.00049214 -7.4142e-05 -0.13189 0.25316
-0.014876 0.020588 -0.0053863 -0.0090673
0.0047256 0.0044044 0.0046238 0.00026829 0.0028062 -0.0016168 -0.014668 0.020594
-0.14162 0.16023 -0.020734 0.016592
-0.0025342 -0.0021139 0.0033991 0.00035791 0.0020605 0.0039531 -0.0055682 -0.0089509
-0.020805 0.016606 -0.17965 0.22173
920000000 -0.088085 0.27811 0.0065543 0.036388 -0.0093009 -0.0039614 -0.0014109 0.0017114
0.0014787 0.0011846 0.0025171 -0.00173
0.0064976 0.036398 -0.25477 0.31696 0.028335 0.020023 0.0017228 0.00085083
0.0069948 -0.00093233 0.0035181 -0.0031348
-0.009355 -0.0039685 0.028378 0.019943 0.074095 0.32278 0.001913 -0.00022255
0.0014119 -0.00071419 0.00069869 -0.0012598
-0.0013583 0.0017032 0.0017743 0.00083937 0.0019255 -0.00023625 -0.10566 0.26892
-0.0071941 0.030512 0.002204 -0.0062793
0.0015842 0.0014459 0.0071405 -0.00073977 0.0015064 -0.00075368 -0.007081 0.030678
-0.1284 0.16722 -0.00022155 0.025486
0.0026165 -0.0017929 0.0035388 -0.0031847 0.0007506 -0.0014272 0.0023887 -0.006526
-0.00028041 0.025379 -0.17811 0.23679
980000000 -0.04098 0.29558 0.018732 0.028203 -0.0085035 0.0047248 0.0019735 0.0030709
0.0039197 -0.0019935 -0.003088 -0.0019281
0.018761 0.02824 -0.20285 0.34913 0.032592 0.0029365 0.0020458 -0.00022536
0.0014898 -0.0061768 -0.00063671 -0.002327
-0.0084676 0.0046718 0.032629 0.0028734 0.12091 0.31476 0.00041566 -0.0013
6.3353e-05 -0.0022166 0.0012577 -0.00022738
0.0020372 0.0029395 0.0020921 -0.00032666 0.00042322 -0.0013848 -0.066784 0.27841
0.01099 0.028522 -0.0083718 -0.0059587
0.0037758 -0.0019781 0.0013756 -0.0062447 5.7093e-05 -0.0021521 0.010899 0.028368
-0.09629 0.19087 0.006583 0.018397
-0.0031543 -0.0019087 -0.00068994 -0.002448 0.0013131 -0.00018193 -0.008245 -0.0058874
0.0065621 0.018252 -0.13365 0.27376
1040000000 0.0020054 0.30273 0.033056 0.015464 -0.0011322 0.0066608 0.0023117 0.00042853
-7.2252e-05 -0.003122 -0.00080425 -0.0014177
0.033001 0.015401 -0.1668 0.36243 0.027717 -0.016024 0.0013373 -0.0018263
-0.0025257 -0.0024541 -0.0016174 -0.002652
-0.0011718 0.006727 0.027627 -0.016018 0.16776 0.30005 -0.00068625 -0.0014772
-0.0016312 -0.00074416 -0.00055843 -0.0010018
0.0024038 0.00050338 0.0013561 -0.0018153 -0.00062699 -0.0014587 -0.037618 0.28741
0.02147 0.01539 -0.0026979 0.0012479
-3.5525e-05 -0.0032071 -0.0024139 -0.0026304 -0.0016816 -0.00082401 0.021409 0.015547
-0.064095 0.19716 0.014229 0.015642
-0.00068847 -0.0014016 -0.001549 -0.0026456 -0.00054537 -0.0010096 -0.0026389 0.0012231
0.014101 0.015559 -0.10825 0.29351
1100000000 0.04736 0.30851 0.034327 -0.0062435 0.0026524 0.0036235 0.0021391 -0.0011472
-0.0021413 -0.0028721 -0.0036103 0.00053399
0.034312 -0.0062088 -0.12337 0.37845 0.01331 -0.027971 -0.00011013 -0.0018081
-0.0034774 -0.00057596 -0.0034326 -0.00018853
0.0026995 0.003582 0.013239 -0.028003 0.2149 0.2775 -0.0018578 0.00026739
-0.0018433 0.00073288 -0.00096425 -0.00011713
0.0021737 -0.0011084 -0.0001124 -0.0018259 -0.0018251 0.00025159 0.0039882 0.29003
0.025003 0.0018933 -0.0026447 0.00014644
-0.0021681 -0.0028062 -0.0034676 -0.00056702 -0.0017806 0.00073321 0.025037 0.0019011
-0.045052 0.20835 0.018612 0.0058187
-0.0036034 0.00056888 -0.0033543 -0.00028317 -0.00091744 -0.00010686 -0.0026522 0.0001512
0.018748 0.0057859 -0.061273 0.31647
1160000000 0.098031 0.3023 0.021813 -0.021911 0.0021883 -0.00027725 -0.00013111 -0.0020101
-0.0040131 -0.0004687 -0.00063745 0.0037807
0.021822 -0.021858 -0.0787 0.38233 -0.0054445 -0.028164 -0.001708 -0.0015374
-0.0026377 0.0025755 -0.0013089 0.0017505
0.0021887 -0.00029354 -0.0054995 -0.028126 0.25741 0.24452 -0.00064076 0.0018116
-0.00034192 0.0020059 -0.000797 0.00019521
-0.00012465 -0.002033 -0.0017448 -0.0014638 -0.00066054 0.00183 0.043386 0.28487
0.019833 -0.013413 -0.0030667 0.0043561
-0.0039815 -0.00042583 -0.0026298 0.0026167 -0.00032526 0.0020627 0.019852 -0.013434
-0.012124 0.2153 0.016926 -0.0023751
-0.00057986 0.0037712 -0.0014143 0.0017836 -0.00075799 0.0002196 -0.0031013 0.0043262
0.01706 -0.0024477 -0.014469 0.31716
1220000000 0.14281 0.28927 0.0078445 -0.029691 -0.0016134 -0.00029445 0.00015733 -0.00090913
-0.0024497 0.0023356 0.0014466 0.0018835
0.0078706 -0.029664 -0.03421 0.39296 -0.017554 -0.019584 -0.0024305 0.00053809
0.00020005 0.002973 -0.00046347 0.0020081
-0.0015468 -0.00025169 -0.01767 -0.019536 0.29585 0.20351 0.00087933 0.0018209
0.00071014 0.0011265 0.00038684 0.00047759
0.00010921 -0.00090738 -0.0024318 0.00051375 0.00090445 0.0018079 0.083979 0.27392
0.0085213 -0.019176 0.0013819 0.0014794
-0.0024079 0.0023694 0.00019442 0.0029753 0.00068915 0.0011871 0.0085669 -0.019209
0.012069 0.22233 0.01156 -0.013884
0.0014287 0.0018718 -0.00041579 0.0019985 0.00043069 0.00049921 0.0013146 0.0014581
0.011603 -0.013926 0.019418 0.32829
1280000000 0.19151 0.26562 -0.0097439 -0.026947 -0.0014586 0.0029149 -0.00092963 -0.0019904
-0.0005971 0.0029881 0.0023865 0.00077788
-0.00972 -0.026915 0.011803 0.38288 -0.023529 -0.0070016 -0.00089307 0.0014655
0.0018327 0.0016485 0.00081635 0.0016748
-0.0015051 0.0029082 -0.023583 -0.0069618 0.32456 0.158 0.0016677 -0.00013235
0.0011738 0.00014063 0.00024539 0.00021049
-0.00092088 -0.00197 -0.00090144 0.0014661 0.0016601 -8.0167e-05 0.11985 0.25462
-0.0016905 -0.020152 -0.00054323 0.000539
-0.00058747 0.0030055 0.0018556 0.001662 0.0011458 0.00016384 -0.0017166 -0.02011
0.0485 0.22356 0.00094289 -0.015362
0.0023667 0.00082189 0.00081789 0.0017446 0.00025731 0.00021243 -0.00053911 0.0004811
0.00091535 -0.015504 0.065278 0.32551
1340000000 0.22797 0.23046 -0.018483 -0.016717 0.0014685 0.0044228 -0.001692 -0.00086619
0.0015423 0.0026025 0.0014739 -0.0015458
-0.018471 -0.016737 0.05139 0.37312 -0.02068 0.0053577 -7.9648e-05 0.0020385
0.0019507 0.0005673 0.0013569 0.00061206
0.0014606 0.004345 -0.020676 0.0054291 0.34484 0.1098 0.001209 -0.0010527
0.00053858 -0.00053104 3.6359e-05 0.00020522
-0.0017067 -0.00086728 -7.2793e-05 0.0020434 0.001181 -0.0010917 0.15119 0.23209
-0.011086 -0.016074 0.0005771 0.0012334
0.0015058 0.0025685 0.0019609 0.00057606 0.00058033 -0.00049645 -0.011095 -0.016061
0.078319 0.21729 -0.0057887 -0.012977
0.0014675 -0.0014797 0.0013703 0.00065274 4.9507e-05 0.00021205 0.00053108 0.0011957
-0.0058929 -0.013169 0.10408 0.31694
1400000000 0.25994 0.19083 -0.022816 -0.005238 0.0054694 0.0026677 -0.0021504 0.00059913
0.0023379 0.00078655 4.3433e-05 -0.0013625
-0.022783 -0.0052527 0.088073 0.3589 -0.013597 0.012792 0.0013676 0.0012796
0.0010823 -0.00090931 0.0010932 4.4144e-05
0.0055082 0.0026441 -0.013573 0.012853 0.35692 0.056213 2.411e-05 -0.0018748
-1.4507e-05 -0.00040876 0.00036318 0.0001925
-0.0021534 0.00062429 0.0013749 0.0012857 3.3981e-05 -0.001884 0.17921 0.20101
-0.016445 -0.0085593 -0.00030364 0.00061278
0.0023435 0.00076372 0.0010865 -0.00094726 2.4106e-07 -0.00041865 -0.016486 -0.0085107
0.11071 0.21031 -0.011445 -0.0075207
9.4989e-05 -0.0013879 0.0011071 4.5334e-05 0.00036456 0.00018342 -0.00031596 0.00057255
-0.011529 -0.0075599 0.14657 0.30185
1460000000 0.28125 0.146 -0.01908 0.0061588 0.0055404 -0.0022703 -0.00153 0.0017149
0.0020406 -0.00074651 -0.00048 -0.00083098
-0.019045 0.006147 0.1216 0.33603 -0.0050756 0.01495 0.0017711 7.9279e-05
0.00069329 -0.0013008 0.0010433 -0.00060525
0.0055444 -0.002314 -0.0050617 0.014916 0.36144 0.0021042 -0.0014893 -0.0012803
0.00011462 -0.00019819 0.00064275 -0.00027344
-0.0015465 0.0016957 0.0017662 9.4466e-05 -0.0014531 -0.0012726 0.20296 0.17037
-0.016803 -0.0011722 -9.7039e-05 0.002166
0.0020247 -0.00075259 0.00068067 -0.0013037 0.00013353 -0.00014556 -0.016839 -0.0011151
0.13907 0.19383 -0.012328 -0.0012609
-0.00046781 -0.00084412 0.0009967 -0.00060843 0.00057018 -0.000257 -3.9068e-05 0.0020998
-0.012477 -0.0012817 0.17825 0.27862
1520000000 0.29228 0.10325 -0.012871 0.010916 0.0029633 -0.004379 0.00017897 0.0026158
0.0018011 -0.0017762 -0.0010886 1.5769e-05
-0.012872 0.010881 0.15438 0.32047 0.0020671 0.012449 0.0016737 -0.00093453
-5.9319e-05 -0.0010133 0.00023207 -0.00092559
0.0029567 -0.0043931 0.0021382 0.012424 0.35447 -0.053854 -0.0013302 -0.00018594
0.00050884 -0.00085276 -4.8066e-05 -0.00014914
0.0001537 0.0026538 0.0016767 -0.00091293 -0.0013318 -0.00022893 0.22358 0.13189
-0.015007 0.0048196 0.0021099 0.0017798
0.0017949 -0.0018091 -9.6719e-05 -0.001021 0.00052307 -0.00085356 -0.015042 0.0048635
0.16651 0.17798 -0.011616 0.0031885
-0.0010911 -2.5071e-05 0.00022805 -0.00091895 -3.0293e-05 -0.00014123 0.0021236 0.0018222
-0.011695 0.0032385 0.20977 0.25525
1580000000 0.30001 0.056545 -0.0063528 0.01307 -0.0012326 -0.0047921 0.0015507 0.0019419
-0.00028725 -0.0020838 -0.00021399 0.00032347
-0.0063512 0.013058 0.18068 0.29502 0.0052894 0.0075844 0.00037221 -0.001729
-0.00055692 -0.00091032 -0.00023994 -0.00076902
-0.0012349 -0.0047975 0.0053191 0.0075674 0.33396 -0.11147 -0.0015733 0.0010029
-0.00036439 -0.0011029 0.00011066 -0.00058511
0.0015704 0.0019145 0.00037826 -0.0017235 -0.0015852 0.00097443 0.23459 0.092502
-0.010747 0.0092767 0.0025626 0.0001517
-0.00028796 -0.0021349 -0.00055522 -0.00087889 -0.00044907 -0.0011006 -0.010785 0.0093167
0.18944 0.15762 -0.0086436 0.0082296
-0.00020689 0.00036793 -0.00026687 -0.00076575 0.00014402 -0.00055416 0.0025667 0.00018106
-0.0087537 0.0083477 0.23885 0.22636
1640000000 0.30046 0.015002 -0.00017169 0.011259 -0.0029274 -0.0024503 0.0028389 0.00080666
-0.00084652 -0.0014143 -0.00020776 0.00053722
-0.00018912 0.011258 0.20937 0.26964 0.005686 0.0031115 -0.00091122 -0.0016841
-0.00097552 -0.000298 -0.00053445 -0.00054284
-0.0028786 -0.0023821 0.0056976 0.0030863 0.30473 -0.16028 -0.00046282 0.0015489
-0.0012153 -0.00074323 -0.00019796 -0.00025347
0.0028008 0.00081467 -0.00092337 -0.0016964 -0.00047525 0.0015569 0.24426 0.045218
-0.0059533 0.010039 0.0024507 -0.0013584
-0.00085215 -0.0014449 -0.00094702 -0.00030303 -0.0012362 -0.00072683 -0.0059421 0.010095
0.21068 0.13169 -0.0037286 0.0098531
-0.00023989 0.0005033 -0.00053815 -0.0005143 -0.00021173 -0.00024703 0.0024505 -0.00134
-0.0037902 0.0099588 0.26252 0.19373
1700000000 0.29155 -0.030458 0.0026234 0.0081182 -0.0033784 0.00025285 0.0029502 -0.0014757
-0.0019582 -0.00057722 0.00065141 0.00034634
0.0026014 0.0081176 0.22674 0.23808 0.0036752 0.00038592 -0.001548 -0.00040488
-0.00069084 0.00012967 -0.0008692 -0.0003642
-0.0033608 0.00030602 0.0036717 0.00038657 0.26135 -0.20034 0.00064593 0.001442
-0.0018717 -2.6141e-05 -0.00059726 -0.00079617
0.0029357 -0.0014738 -0.0015442 -0.00038415 0.00063443 0.0014155 0.23967 -0.0025429
-0.0029213 0.0099139 0.0013174 -0.0024872
-0.0019514 -0.00050917 -0.00069048 0.00014042 -0.0018108 -0.00012044 -0.0028683 0.0098991
0.22635 0.10963 0.00092166 0.0097643
0.00067878 0.00035987 -0.00086074 -0.00035183 -0.00058503 -0.00077852 0.0013177 -0.0025802
0.00093099 0.0098829 0.27678 0.15811
1760000000 0.27777 -0.078501 0.004092 0.0048333 -0.0021433 0.00095298 0.00090868 -0.0034876
-0.0013253 0.0007797 0.00040541 -0.00045788
0.0040933 0.0048231 0.25189 0.19783 0.0014401 -0.0013572 -0.0011967 0.00037713
-0.00096453 0.00080734 -0.00059761 0.00045134
-0.0021654 0.00099722 0.0014398 -0.0013488 0.21201 -0.23383 0.0012345 0.0007684
-0.001027 0.0016009 -0.0012983 -0.00041498
0.00088785 -0.0035215 -0.0011846 0.00036841 0.0012332 0.00085503 0.22994 -0.051383
0.00011343 0.0086092 -0.00058142 -0.0025813
-0.0013223 0.00077547 -0.00093084 0.00080714 -0.0010189 0.001613 0.00017667 0.0086062
0.23891 0.073241 0.0045314 0.006765
0.00045269 -0.00046868 -0.00059428 0.00045232 -0.0012379 -0.00046079 -0.00064427 -0.0026032
0.0045522 0.0068388 0.2871 0.11943
1820000000 0.25186 -0.11486 0.0037043 0.0016631 -2.5531e-05 0.0024426 -0.0012923 -0.0028613
-0.000943 0.0010731 -8.1167e-05 -6.7439e-05
0.003688 0.00166 0.26118 0.16801 -0.00041943 1.6713e-05 -0.0010399 0.00106
-4.6532e-05 0.0012275 -0.00050879 0.00053753
-5.2229e-05 0.0023701 -0.00042889 -5.7348e-05 0.16139 -0.24873 0.0014301 0.00010946
-2.9927e-05 0.0022015 -0.0013405 0.00052845
-0.00133 -0.0028028 -0.0010624 0.0010846 0.0013962 7.1709e-05 0.20077 -0.096199
0.0014688 0.0067296 -0.0017486 -0.0014719
-0.00096457 0.001076 -3.0394e-05 0.0012236 3.0965e-05 0.0022015 0.0014626 0.0067291
0.25379 0.043306 0.0053047 0.0031032
-9.3244e-05 -6.2808e-05 -0.000504 0.00054874 -0.0013177 0.00063019 -0.0018146 -0.0014826
0.0053895 0.0031418 0.28746 0.082177
1880000000 0.21582 -0.15411 0.0012386 8.3353e-06 -0.00042445 0.0020918 -0.0029556 -0.0017909
-0.00013165 0.0016041 0.0002025 -0.00045805
0.0012232 5.2766e-06 0.26511 0.12123 -0.0024123 0.0015972 4.9361e-05 0.0016252
0.00056841 0.0011033 0.0002135 0.00093319
-0.00044066 0.0020931 -0.0024253 0.0015888 0.10886 -0.25888 0.0014401 -0.00099671
0.001593 0.0015885 -0.0008054 0.0014386
-0.0029494 -0.0017988 6.5056e-05 0.001632 0.0015542 -0.00093918 0.16205 -0.13566
0.0018708 0.0045729 -0.0024532 0.00045171
-8.7964e-05 0.0015808 0.00057315 0.0011206 0.0015441 0.0016721 0.0019569 0.0045281
0.25415 0.009525 0.0048161 0.00083431
0.00016815 -0.00040708 0.00018729 0.00093098 -0.00087504 0.0014436 -0.0024957 0.00045178
0.0049614 0.00085951 0.2849 0.047312
1940000000 0.17605 -0.17924 -0.00091241 -0.0010423 0.0014538 0.0020071 -0.0034145 0.00080275
0.0015016 0.0010472 -0.0005128 -0.00056484
-0.00087705 -0.0010438 0.26481 0.089713 -0.0012029 0.0038911 0.001057 0.0010544
0.0017283 0.0004813 0.00094152 0.00042205
0.0014861 0.0020085 -0.0012116 0.0039108 0.062453 -0.25178 0.00013245 -0.001816
0.0022695 0.00025471 0.00054066 0.0017152
-0.0035155 0.00081852 0.0010608 0.0010394 8.8409e-05 -0.0018297 0.11091 -0.16576
0.00095399 0.0031327 -0.0015622 0.0015576
0.0014592 0.00099883 0.0017397 0.00047992 0.0023453 0.00021307 0.0010108 0.0031813
0.25354 -0.029685 0.0033713 -0.0021387
-0.00058483 -0.0005347 0.00093291 0.00043886 0.00054871 0.0017636 -0.0015105 0.0015226
0.0035688 -0.002252 0.27196 0.010632
2000000000 0.12939 -0.19332 -0.0043276 0.0012851 0.0025509 0.0015578 -0.0020264 0.0034314
0.0011497 7.568e-06 -0.00050853 0.00044316
-0.0043815 0.0012877 0.25044 0.054229 -0.0010272 0.0057628 0.0014556 0.00020515
0.0013084 -0.0012735 0.00056075 -0.00011557
0.0026113 0.0015008 -0.00098472 0.0057823 0.018427 -0.23701 -0.0010606 -0.00093827
0.0018089 -0.0011841 0.0018382 0.00091782
-0.002008 0.0033978 0.0014636 0.00015702 -0.0011438 -0.0010402 0.058827 -0.17697
-0.00067651 0.0028771 -3.8946e-05 0.0023056
0.0011511 1.7087e-05 0.0013114 -0.001277 0.0017453 -0.0011895 -0.00065295 0.0028416
0.24534 -0.063529 0.00022212 -0.0030032
