!Keysight Technologies,M9804A,MY58100912,A.14.10.03
!Date: Thursday, April 27, 2023 10:28:33
!Correction: S11(C  6-Port  ) 
!S12(C  6-Port  ) 
!S13(C  6-Port  ) 
!S14(C  6-Port  ) 
!S15(C  6-Port  ) 
!S16(C  6-Port  ) 
!S21(C  6-Port  ) 
!S22(C  6-Port  ) 
!S23(C  6-Port  ) 
!S24(C  6-Port  ) 
!S25(C  6-Port  ) 
!S26(C  6-Port  ) 
!S31(C  6-Port  ) 
!S32(C  6-Port  ) 
!S33(C  6-Port  ) 
!S34(C  6-Port  ) 
!S35(C  6-Port  ) 
!S36(C  6-Port  ) 
!S41(C  6-Port  ) 
!S42(C  6-Port  ) 
!S43(C  6-Port  ) 
!S44(C  6-Port  ) 
!S45(C  6-Port  ) 
!S46(C  6-Port  ) 
!S51(C  6-Port  ) 
!S52(C  6-Port  ) 
!S53(C  6-Port  ) 
!S54(C  6-Port  ) 
!S55(C  6-Port  ) 
!S56(C  6-Port  ) 
!S61(C  6-Port  ) 
!S62(C  6-Port  ) 
!S63(C  6-Port  ) 
!S64(C  6-Port  ) 
!S65(C  6-Port  ) 
!S66(C  6-Port  ) 
!S6P File: Measurement: :
# Hz S  RI   R 50
500000000 -0.34105 -0.018633 -0.011844 -0.0032453 -0.0081945 0.013099 -0.0024972 0.011884
0.011716 0.0046971 -0.0031629 0.0081647
-0.011831 -0.0032313 -0.42017 -0.037586 0.0057198 -0.011658 0.001884 0.0122
0.0066344 0.0020591 0.001888 0.013777
-0.0081991 0.013153 0.0056894 -0.011605 -0.26443 0.2225 0.0069368 0.0039947
-0.0014507 0.0085818 0.0019698 0.012265
-0.0024873 0.01178 0.0018083 0.012412 0.0070069 0.0040028 -0.33126 0.061601
-0.020172 -0.0071831 0.015585 0.023803
0.011594 0.0050078 0.0068175 0.002151 -0.0014045 0.008501 -0.020093 -0.0070158
-0.23713 -0.16621 -0.026433 0.0032349
-0.001879 0.0079298 0.0019982 0.013645 0.0019835 0.012209 0.014819 0.023658
-0.026427 0.0033441 -0.28373 -0.081358
560000000 -0.31314 0.13633 -0.027458 -0.061234 0.0011179 0.011602 0.0062221 0.0096274
0.0097274 0.0040424 0.012797 0.0064311
-0.02751 -0.061253 -0.37544 0.11746 -0.043004 -0.034369 0.013803 0.0039695
-0.012468 -0.003553 0.0049477 -0.00156
0.0011754 0.011664 -0.043026 -0.034383 -0.18125 0.2681 -8.871e-06 -0.0042736
0.018049 0.003355 0.006405 -0.0058298
0.0059926 0.010247 0.014188 0.0036222 0.00023974 -0.0040851 -0.30617 0.14996
0.00065274 -0.023498 0.0022054 -0.017569
0.0084358 0.0048318 -0.012511 -0.0029549 0.01832 0.003586 0.0016596 -0.02243
-0.2891 0.0048375 0.002966 -0.045159
0.011637 0.0059522 0.0042759 -0.0012895 0.0066096 -0.0061052 0.0031757 -0.017263
0.0030705 -0.045215 -0.33016 0.059051
620000000 -0.27173 0.12406 -0.023587 0.0081668 0.0047314 0.0089954 0.0083886 -0.0041873
0.011053 -0.00046281 0.00099234 -0.0020497
-0.023547 0.0081339 -0.40191 0.073662 -0.019471 0.0010737 -0.00088276 -0.0022389
0.010235 -0.0061336 0.001585 -0.0025238
0.0047169 0.0090314 -0.019469 0.00109 -0.14933 0.27781 -0.00040517 -0.0054088
-0.0032232 -0.0026294 0.0087914 -0.0034596
0.0084305 -0.0046764 -0.00071797 -0.0023573 -0.00041193 -0.0052385 -0.26305 0.15865
-0.039994 -0.017036 0.011856 0.022895
0.01018 -0.0015759 0.010133 -0.0062222 -0.0039621 -0.0026997 -0.04149 -0.016736
-0.21059 -0.03004 -0.039095 0.014831
0.0019177 -0.0023627 0.0017239 -0.0025621 0.0090612 -0.0037916 0.011928 0.022513
-0.038961 0.014891 -0.25645 0.029736
680000000 -0.22846 0.20487 -0.028262 -0.011392 0.0056045 0.0045842 0.0019337 -0.0075038
-0.0027926 -0.01099 0.0048156 -0.006891
-0.028279 -0.011342 -0.38453 0.16836 -0.032255 0.00095568 -0.0012425 -0.00057776
-0.0022208 -0.0090389 -0.0014038 -0.0024079
0.0056265 0.00454 -0.032265 0.00099878 -0.097741 0.29542 -0.00064957 -0.00066297
-0.0015105 -0.00012046 -0.003389 -0.0089439
0.0013578 -0.0075361 -0.0013089 -0.00056939 -0.00070118 -0.00065041 -0.21708 0.20807
-0.025721 -0.0044235 -0.0085576 -0.0074126
-0.0030239 -0.011158 -0.0022507 -0.0090446 -0.0015757 -0.00011127 -0.025695 -0.0040082
-0.2521 0.067734 -0.0084664 -0.0057626
0.0040374 -0.0072216 -0.0016371 -0.0023171 -0.0036032 -0.0088704 -0.007713 -0.0074215
-0.0084795 -0.005886 -0.25224 0.1257
740000000 -0.18351 0.20086 -0.036142 0.026818 0.012845 -0.0056167 -0.0011793 -0.0036524
-0.0057006 -0.0031967 -0.0062906 0.0028219
-0.036148 0.026796 -0.33241 0.18792 -0.032991 0.035481 -0.0018445 -0.0059108
-0.012058 0.0074262 -0.0033684 -0.0052327
0.012813 -0.0056683 -0.032962 0.035558 -0.063945 0.29378 -0.0020545 0.0029351
-0.0033022 -0.0049552 -0.0023332 0.00093617
-0.00086616 -0.0036437 -0.0017187 -0.005809 -0.0019245 0.0029123 -0.19905 0.21579
-0.042297 -0.0019205 0.022306 0.012189
-0.0050172 -0.0031607 -0.011629 0.0076929 -0.0031284 -0.0049375 -0.042424 -0.0021918
-0.15775 0.088011 -0.03908 0.006011
-0.0058299 0.003253 -0.0032141 -0.0050245 -0.002233 0.0011073 0.0222 0.012168
-0.03893 0.006196 -0.24292 0.13496
800000000 -0.14948 0.23719 -0.020632 0.017629 0.0045873 -0.01081 -0.0042726 -0.001675
-0.0037317 0.0027634 0.0034528 0.00043892
-0.02061 0.017637 -0.33218 0.25539 -0.0064544 0.033636 -0.0022734 0.0022082
-0.00098094 0.0034124 0.00083637 0.0053819
0.0045894 -0.010832 -0.0063942 0.033653 -0.021809 0.31527 0.00092652 0.0017032
0.00024032 0.0035595 -0.0016458 0.0013778
-0.0046542 -0.0018668 -0.0024556 0.0021752 0.00075739 0.0016282 -0.16878 0.24215
-0.026746 0.017038 0.012505 -0.010259
-0.0040297 0.0026149 -0.0011884 0.003475 5.4762e-05 0.0035666 -0.026667 0.01699
-0.19392 0.1159 -0.015542 0.02003
0.0027445 -4.9302e-06 0.00052529 0.0052875 -0.001954 0.0011676 0.012941 -0.010298
-0.015527 0.020026 -0.22861 0.18152
860000000 -0.1144 0.25642 -0.014953 0.030795 -0.0034248 -0.0099234 -0.0021863 0.0011082
0.0046913 0.0050649 -0.0029032 -0.0025473
-0.014954 0.030752 -0.28464 0.29602 0.0097122 0.033314 0.00013517 0.0025258
0.0043025 0.00071474 0.0030675 0.00071114
-0.0034376 -0.0099189 0.0097828 0.033318 0.026301 0.32237 -0.00051386 9.97e-05
0.0024158 -0.0013046 0.0019015 0.0039073
-0.0019677 0.0013572 0.00031165 0.0024762 -0.00045266 0.00014551 -0.13178 0.25273
-0.015025 0.020916 -0.0050239 -0.0090471
0.0047667 0.0050165 0.0044082 0.00068123 0.0024722 -0.0012348 -0.014948 0.021207
-0.14141 0.16168 -0.021173 0.017298
-0.0026283 -0.0022818 0.0032061 0.00052984 0.001995 0.004002 -0.0052251 -0.0091404
-0.021237 0.01731 -0.18 0.22051
920000000 -0.087938 0.27794 0.0067682 0.036406 -0.0094982 -0.0042583 -0.001071 0.0018948
0.0019823 0.0019043 0.0030975 -0.0019648
0.0067448 0.036371 -0.25487 0.31617 0.028687 0.020074 0.0018156 0.00090694
0.0074441 -0.00010448 0.0038261 -0.0033005
-0.0094988 -0.0042612 0.028728 0.020025 0.073617 0.32273 0.0020541 -0.00017164
0.0017665 -0.00052652 0.00083278 -0.0015149
-0.0011998 0.0016209 0.0017619 0.00090882 0.0020069 -0.00021231 -0.10609 0.26886
-0.006686 0.031317 0.0021987 -0.006814
0.002073 0.001611 0.0074979 -0.00027696 0.0017685 -0.000605 -0.0065373 0.031298
-0.12632 0.16783 0.00043519 0.025412
0.0028973 -0.0019813 0.0037797 -0.0033131 0.00081899 -0.0015585 0.0023397 -0.0066047
0.00056481 0.025405 -0.17893 0.2364
980000000 -0.040773 0.29485 0.019034 0.027996 -0.008809 0.0045833 0.0020367 0.0026589
0.0040527 -0.002306 -0.0031651 -0.0022765
0.019018 0.027944 -0.20317 0.34827 0.03301 0.0029142 0.00204 -0.0002692
0.001571 -0.006649 -0.00067116 -0.0024417
-0.0087812 0.0046161 0.033025 0.0028384 0.12045 0.31501 0.00038685 -0.0014422
8.3678e-05 -0.0024339 0.0010743 -0.00027703
0.0019542 0.0028348 0.0020375 -0.00032557 0.00043295 -0.001435 -0.066533 0.27793
0.011533 0.028602 -0.0084723 -0.0067558
0.0040411 -0.0023644 0.001609 -0.0066617 8.7595e-05 -0.0023757 0.01147 0.02861
-0.096287 0.19049 0.0068843 0.018719
-0.003164 -0.0020058 -0.0007181 -0.0023823 0.0010656 -0.00024095 -0.0084961 -0.0067585
0.0069178 0.018639 -0.1344 0.27342
1040000000 0.0014072 0.3023 0.033094 0.015234 -0.0014874 0.0066449 0.0021345 0.00070792
-0.00010739 -0.0034019 -0.00066788 -0.0015323
0.03306 0.015208 -0.16772 0.36153 0.028005 -0.016369 0.0012833 -0.0019429
-0.0023651 -0.0029297 -0.0015437 -0.0029592
-0.0014709 0.006642 0.027952 -0.016443 0.16758 0.30052 -0.00068555 -0.0015582
-0.001692 -0.00094883 -0.00064476 -0.0010155
0.0022634 0.00065688 0.0012511 -0.0018867 -0.0006862 -0.0015681 -0.038142 0.28725
0.022108 0.015444 -0.0027785 0.00068221
-0.00019029 -0.0034815 -0.0024186 -0.0028429 -0.0017072 -0.00097292 0.022131 0.015444
-0.063965 0.1963 0.014724 0.015371
-0.00065147 -0.0016893 -0.0015709 -0.0030124 -0.00064543 -0.0010218 -0.0028104 0.00065871
0.014676 0.015428 -0.10858 0.29297
1100000000 0.046896 0.308 0.034532 -0.006584 0.0025183 0.0037162 0.0021635 -0.00098713
-0.0021818 -0.0028213 -0.0038647 0.00050797
0.034501 -0.0065723 -0.12451 0.37808 0.013302 -0.028545 -0.00010031 -0.0018335
-0.00389 -0.00053785 -0.0035744 -0.00011119
0.0025425 0.0037019 0.013231 -0.028594 0.21522 0.27793 -0.0019594 0.00026692
-0.001942 0.00076218 -0.00098705 -8.6223e-06
0.0020686 -0.0010058 -0.000143 -0.0018581 -0.0019542 0.00027231 0.0034182 0.29003
0.025678 0.0014842 -0.0026933 4.2315e-05
-0.0021875 -0.0028454 -0.0039446 -0.00056374 -0.0019491 0.00078702 0.025701 0.0014344
-0.044965 0.20746 0.018896 0.0058039
-0.0038882 0.00057487 -0.0035928 -9.5585e-05 -0.00097353 -2.0866e-05 -0.0026906 1.31e-05
0.018922 0.0058049 -0.061686 0.31632
1160000000 0.09738 0.30188 0.021802 -0.022449 0.0020513 -0.00023305 6.1795e-05 -0.0017579
-0.004047 -0.0004027 -0.00066804 0.0038991
0.021783 -0.022455 -0.079936 0.38268 -0.0058448 -0.02862 -0.0016272 -0.0014745
-0.0027505 0.0027964 -0.001361 0.0018921
0.0020543 -0.00022062 -0.0059476 -0.028609 0.25811 0.24462 -0.00079559 0.0018192
-0.00041957 0.0021479 -0.00081813 0.0002348
-4.5615e-06 -0.0017206 -0.0016718 -0.0014407 -0.00077248 0.0018079 0.043123 0.28519
0.020511 -0.01417 -0.0033111 0.004016
-0.0040476 -0.00036946 -0.0026828 0.0028487 -0.00046155 0.0021112 0.020549 -0.014187
-0.012122 0.21429 0.017937 -0.0030054
-0.00068477 0.0038646 -0.0013864 0.0019158 -0.0008184 0.00026646 -0.0033754 0.0040199
0.017976 -0.0029313 -0.015312 0.31699
1220000000 0.14203 0.28929 0.0075783 -0.030245 -0.0017774 -0.00011619 0.00024071 -0.00088704
-0.0024863 0.0023742 0.0012665 0.0021329
0.0075738 -0.030245 -0.034955 0.39367 -0.018211 -0.019791 -0.0024528 0.00056595
0.0002104 0.0032748 -0.00052584 0.0021582
-0.0017748 -0.00011721 -0.018292 -0.019756 0.29646 0.20285 0.00082043 0.0019294
0.00079878 0.0013101 0.00046021 0.00057127
0.0003528 -0.00090543 -0.0024539 0.00052828 0.00080543 0.0019413 0.083852 0.27413
0.0085173 -0.020271 0.00088575 0.0015788
-0.002568 0.0023564 0.00021088 0.0032558 0.00078386 0.0012982 0.0085077 -0.020396
0.011666 0.22109 0.011998 -0.01476
0.0012459 0.0021498 -0.00049925 0.0021271 0.00043883 0.0005769 0.00093715 0.0015994
0.011963 -0.014718 0.018966 0.32807
1280000000 0.19087 0.26587 -0.010477 -0.027304 -0.001504 0.0032331 -0.00086617 -0.0019731
-0.00071725 0.0030312 0.0025974 0.0010168
-0.010463 -0.027306 0.011688 0.38391 -0.024207 -0.0068806 -0.0009489 0.0014824
0.0020885 0.0017873 0.0010229 0.0017492
-0.0015017 0.0032355 -0.02424 -0.0068059 0.32457 0.15701 0.0017692 1.0616e-06
0.0012131 0.00014714 0.00018794 0.00013085
-0.00091607 -0.0019793 -0.00094428 0.0015372 0.0017962 -3.4974e-05 0.12004 0.25473
-0.0021886 -0.021177 -0.00083538 0.00061174
-0.00069965 0.0030334 0.0020845 0.0017796 0.0012362 0.00015114 -0.0022685 -0.02119
0.047297 0.22243 0.0010503 -0.016507
0.0026306 0.00094632 0.0010302 0.0017604 0.00020328 0.00012095 -0.00085003 0.00054536
0.001066 -0.01648 0.064475 0.32543
1340000000 0.22748 0.2309 -0.019377 -0.016519 0.0015925 0.0046466 -0.001754 -0.0010192
0.0015461 0.0026518 0.0016059 -0.0016138
-0.019394 -0.016517 0.051882 0.37375 -0.02103 0.0059217 2.4447e-05 0.0020969
0.0021519 0.00038375 0.0013761 0.00057035
0.0016074 0.0046518 -0.021023 0.0059999 0.34427 0.10882 0.0012987 -0.001252
0.00071877 -0.00061477 6.5506e-05 0.00028574
-0.0017255 -0.00098197 4.4221e-05 0.0020949 0.0013523 -0.0012578 0.15134 0.23206
-0.012357 -0.016771 0.00017458 0.001505
0.00157 0.0026553 0.0022043 0.00038214 0.00072359 -0.00061727 -0.012412 -0.016754
0.076939 0.21667 -0.0066445 -0.014077
0.0015934 -0.0016026 0.0013878 0.00055349 8.0113e-05 0.00027771 0.00012456 0.0015268
-0.0066517 -0.014067 0.10359 0.31711
1400000000 0.25968 0.19127 -0.023469 -0.0045393 0.005745 0.0027966 -0.0022638 0.00064885
0.0025055 0.00085816 2.3742e-05 -0.001528
-0.023469 -0.0045542 0.088827 0.35905 -0.013625 0.013423 0.0014936 0.0012846
0.0011402 -0.0011749 0.0011303 -5.6174e-06
0.0057539 0.0027959 -0.013585 0.01348 0.35584 0.055577 2.2192e-05 -0.0019952
2.2062e-05 -0.00048467 0.00045947 0.00028274
-0.0022771 0.00068959 0.0014702 0.0012751 -2.7139e-05 -0.0019765 0.17933 0.20084
-0.017929 -0.0083933 -0.00041475 0.00099571
0.0024995 0.00087323 0.0011387 -0.0011927 3.0379e-05 -0.00049132 -0.017928 -0.0083597
0.10924 0.21014 -0.012632 -0.007834
4.2613e-05 -0.0015056 0.001107 -2.099e-06 0.00047215 0.00027856 -0.00042446 0.0010116
-0.012634 -0.0079041 0.14602 0.30163
1460000000 0.28122 0.1464 -0.01918 0.0072047 0.005913 -0.0023482 -0.001647 0.0017854
0.0021759 -0.00072229 -0.00054444 -0.00088178
-0.019164 0.0072086 0.1223 0.33553 -0.0046945 0.015453 0.0017749 9.5675e-06
0.00054065 -0.0014767 0.0010142 -0.00065046
0.0058979 -0.0023638 -0.0046374 0.015485 0.36037 0.0021597 -0.0017235 -0.0014042
0.00012199 -0.0001784 0.00070057 -0.00030523
-0.0016461 0.0017477 0.0017827 6.032e-07 -0.0016839 -0.0013743 0.20283 0.17019
-0.018121 -0.0001489 0.00012642 0.0026167
0.0021577 -0.00073608 0.00055344 -0.0014703 0.00014069 -0.0002 -0.018121 -0.00013085
0.13765 0.19419 -0.013618 -0.0011334
-0.00054318 -0.0008929 0.0010275 -0.00066981 0.00070104 -0.00033211 0.00014903 0.00257
-0.013628 -0.0011106 0.17782 0.27854
1520000000 0.29235 0.10335 -0.012465 0.011804 0.003188 -0.0046075 0.00023496 0.0027089
0.0020094 -0.0018898 -0.0012293 -2.8608e-05
-0.012459 0.011816 0.15463 0.31956 0.0026512 0.012594 0.0016338 -0.0010027
-0.00025525 -0.00098525 0.00017545 -0.00093713
0.0031652 -0.0046152 0.0027045 0.012586 0.35344 -0.053452 -0.0015067 -8.4612e-05
0.00047779 -0.001023 6.313e-05 -0.00025404
0.00021295 0.0027366 0.0016359 -0.0010202 -0.0015302 -0.00012304 0.2233 0.13169
-0.015522 0.0063772 0.0024932 0.0019467
0.001986 -0.0019119 -0.00026503 -0.00097933 0.00047768 -0.0010226 -0.015533 0.0064304
0.16521 0.17866 -0.012538 0.0040859
-0.0012305 -9.5494e-06 0.00017303 -0.00094449 7.3616e-05 -0.00025092 0.0024745 0.0019241
-0.012559 0.0040787 0.20874 0.2549
1580000000 0.29992 0.056546 -0.0054956 0.013581 -0.0010981 -0.005089 0.0016889 0.0019035
-0.00033432 -0.0023361 -0.0001724 0.00042887
-0.0054807 0.01359 0.18034 0.29399 0.0057572 0.0074559 0.0003201 -0.0017508
-0.00061395 -0.00076542 -0.00027921 -0.0008206
-0.0011093 -0.0050879 0.0057879 0.0074366 0.33324 -0.11055 -0.0015679 0.0010814
-0.00046972 -0.0011602 0.00012314 -0.00075817
0.0017178 0.0018871 0.00028943 -0.0017398 -0.0015675 0.0011066 0.23417 0.092325
-0.010235 0.010906 0.0028489 5.1301e-05
-0.00032017 -0.0023595 -0.00060323 -0.00078801 -0.00049089 -0.0011806 -0.010203 0.010947
0.1887 0.15866 -0.0091431 0.0093531
-0.00020531 0.00045298 -0.00025896 -0.00079642 0.00014319 -0.0007666 0.0028592 4.5042e-05
-0.0091323 0.0093449 0.23785 0.22656
1640000000 0.3001 0.014821 0.00079589 0.011181 -0.0029919 -0.0027119 0.0028209 0.00080259
-0.0010511 -0.0015383 -0.0002345 0.00050717
0.00081372 0.011191 0.20848 0.26883 0.0059142 0.0028077 -0.00099078 -0.0016309
-0.00088898 -0.00018528 -0.00059768 -0.00054882
-0.002984 -0.002722 0.0059262 0.0027767 0.30445 -0.15934 -0.00043335 0.0016789
-0.0013985 -0.00077237 -0.00027222 -0.00030674
0.0028058 0.00076039 -0.00099429 -0.0016223 -0.0004246 0.0016623 0.24367 0.045263
-0.0047036 0.011128 0.0027528 -0.0015194
-0.0010997 -0.0015432 -0.00088219 -0.00017612 -0.0014087 -0.00075832 -0.0046769 0.011186
0.21018 0.13265 -0.0035945 0.011022
-0.00022996 0.00055029 -0.00061064 -0.00053571 -0.0002822 -0.00029691 0.0027404 -0.0015366
-0.0035992 0.011 0.2614 0.19387
1700000000 0.2909 -0.030304 0.0033662 0.0075602 -0.003671 0.00011081 0.002895 -0.001574
-0.0022159 -0.00044515 0.00072613 0.00038447
0.0033795 0.0075528 0.22545 0.23768 0.0037722 6.5918e-05 -0.0015169 -0.00035005
-0.00057619 9.672e-05 -0.00093056 -0.00035361
-0.0036651 0.00012159 0.0037695 4.6009e-05 0.26144 -0.19914 0.000853 0.001382
-0.0019143 3.9901e-05 -0.000786 -0.00088704
0.0029056 -0.0015567 -0.0015306 -0.00034057 0.00081677 0.0014019 0.23908 -0.0021911
-0.0013299 0.010062 0.0014223 -0.0027467
-0.0021881 -0.00042819 -0.00057414 9.9022e-05 -0.0019043 4.1963e-05 -0.0013055 0.010094
0.22624 0.11042 0.0015022 0.010749
0.00070609 0.00033419 -0.00092414 -0.00033536 -0.00076247 -0.00085131 0.0014331 -0.0027295
0.0014974 0.010772 0.27576 0.15878
1760000000 0.27718 -0.077988 0.004358 0.0040009 -0.0025419 0.0008966 0.00094431 -0.003519
-0.0013441 0.0010151 0.00034131 -0.00059469
0.0043831 0.0039776 0.25053 0.19808 0.0014346 -0.0016933 -0.0011759 0.00040364
-0.00090927 0.00069802 -0.00048576 0.00053761
-0.0025466 0.00091988 0.0014265 -0.0017012 0.21293 -0.23301 0.0014025 0.00078648
-0.0010066 0.001775 -0.0014345 -0.00024675
0.00088671 -0.0035232 -0.0011784 0.00040957 0.0013762 0.00074304 0.22947 -0.050836
0.0014708 0.007943 -0.00059545 -0.002702
-0.0013576 0.0010108 -0.000905 0.00070314 -0.0010188 0.0017591 0.0014663 0.0079019
0.23886 0.073838 0.0053607 0.0074044
0.00033271 -0.00056992 -0.000511 0.0005313 -0.0014369 -0.00024664 -0.0005399 -0.0027516
0.0053864 0.0074012 0.28656 0.12014
1820000000 0.25159 -0.11402 0.003523 0.0009088 -0.00024352 0.0025796 -0.001349 -0.0028531
-0.00071603 0.0011839 -0.0001288 -0.00012533
0.0035246 0.00087948 0.26006 0.16875 -0.00061375 -0.00039328 -0.0010477 0.001073
-0.00011681 0.0010854 -0.000459 0.00055671
-0.00023116 0.002586 -0.00060412 -0.00040521 0.16233 -0.24889 0.0012191 -1.3443e-05
0.00013754 0.0021208 -0.0013812 0.00069921
-0.0013572 -0.0028027 -0.0010495 0.0010692 0.0012289 -3.2291e-05 0.20071 -0.095238
0.0021172 0.0055611 -0.0018565 -0.0018619
-0.00071262 0.0011863 -0.00012515 0.0010725 0.00014688 0.0021475 0.0021058 0.0056063
0.25377 0.043539 0.0064179 0.0031497
-0.00011197 -0.00014893 -0.0004364 0.00057373 -0.001357 0.00071046 -0.0019197 -0.0018579
0.0064319 0.0031621 0.28691 0.083036
1880000000 0.21578 -0.15333 0.00074747 -0.00047314 -0.00052319 0.0022259 -0.0030141 -0.0016424
8.2056e-06 0.0016478 0.00017359 -0.00042636
0.00074965 -0.00049099 0.26444 0.12247 -0.0027446 0.0015116 3.1187e-06 0.0016416
0.00040992 0.0011 0.00027667 0.00091807
-0.00053728 0.0022298 -0.0027393 0.0015154 0.10925 -0.25898 0.0014108 -0.00088611
0.0018478 0.0016393 -0.00055116 0.0015235
-0.0029842 -0.0017025 3.3365e-05 0.0016454 0.0014107 -0.00087894 0.16222 -0.13457
0.0020017 0.0034619 -0.0026413 0.00013431
2.2237e-05 0.0016347 0.00041919 0.0010852 0.0018277 0.001593 0.0020381 0.003451
0.2542 0.0097695 0.0058145 0.00047226
0.00013889 -0.00040709 0.00027934 0.00090567 -0.00052225 0.0015359 -0.0026227 0.00017681
0.005805 0.00050226 0.28512 0.048415
1940000000 0.17634 -0.17816 -0.001447 -0.0011945 0.0014989 0.0022462 -0.0034498 0.00074498
0.001517 0.0007847 -0.00046517 -0.00046804
-0.0014583 -0.001207 0.26474 0.091014 -0.0015607 0.0039626 0.0010531 0.001029
0.0016084 0.00061031 0.00086662 0.00033387
0.0015073 0.0022319 -0.0015324 0.0039674 0.062456 -0.25215 0.00012385 -0.0017166
0.0022632 0.00012108 0.00072086 0.0015796
-0.0034283 0.00075642 0.0010834 0.0010493 0.00018649 -0.0017495 0.11175 -0.16535
0.00065665 0.0021486 -0.0018733 0.001561
0.0015494 0.00076949 0.0016319 0.00060213 0.0022634 0.00011993 0.00065419 0.0020874
0.25338 -0.029681 0.0041787 -0.0029466
-0.00045574 -0.0004736 0.00086324 0.00032946 0.00071581 0.0015765 -0.0018331 0.0015728
0.004168 -0.0029709 0.27203 0.011567
2000000000 0.13034 -0.19273 -0.0047237 0.0013338 0.0026901 0.0016364 -0.0020715 0.0034182
0.00098963 -0.00021192 -0.00045359 0.00034579
-0.0047357 0.0013105 0.25094 0.055402 -0.0011705 0.0059651 0.0015264 9.31e-05
0.0013951 -0.0010403 0.00041295 2.6772e-05
0.002704 0.0016392 -0.0011444 0.0059839 0.018343 -0.23716 -0.0011434 -0.0010407
0.00161 -0.001152 0.0018171 0.00095691
-0.0020429 0.0034553 0.0015146 0.00010806 -0.0010947 -0.0010165 0.059299 -0.17673
-0.0014407 0.0021257 -0.00017889 0.0024807
0.0010434 -0.00020228 0.001402 -0.0010575 0.0015672 -0.0011364 -0.0014575 0.0021716
0.24478 -0.063376 0.00046153 -0.0040726
