!Keysight Technologies,M9804A,MY58100912,A.14.10.03
!Date: Thursday, April 27, 2023 10:28:33
!Correction: S11(C  6-Port  ) 
!S12(C  6-Port  ) 
!S13(C  6-Port  ) 
!S14(C  6-Port  ) 
!S15(C  6-Port  ) 
!S16(C  6-Port  ) 
!S21(C  6-Port  ) 
!S22(C  6-Port  ) 
!S23(C  6-Port  ) 
!S24(C  6-Port  ) 
!S25(C  6-Port  ) 
!S26(C  6-Port  ) 
!S31(C  6-Port  ) 
!S32(C  6-Port  ) 
!S33(C  6-Port  ) 
!S34(C  6-Port  ) 
!S35(C  6-Port  ) 
!S36(C  6-Port  ) 
!S41(C  6-Port  ) 
!S42(C  6-Port  ) 
!S43(C  6-Port  ) 
!S44(C  6-Port  ) 
!S45(C  6-Port  ) 
!S46(C  6-Port  ) 
!S51(C  6-Port  ) 
!S52(C  6-Port  ) 
!S53(C  6-Port  ) 
!S54(C  6-Port  ) 
!S55(C  6-Port  ) 
!S56(C  6-Port  ) 
!S61(C  6-Port  ) 
!S62(C  6-Port  ) 
!S63(C  6-Port  ) 
!S64(C  6-Port  ) 
!S65(C  6-Port  ) 
!S66(C  6-Port  ) 
!S6P File: Measurement: :
# Hz S  RI   R 50
500000000 -0.33917 -0.017399 -0.011108 -0.0032469 -0.0073882 0.012762 -0.003339 0.012366
0.011349 0.0040231 -0.0029464 0.0090092
-0.011063 -0.003207 -0.4201 -0.035916 0.0060131 -0.011545 0.0016478 0.012378
0.0065639 0.0021823 0.0018261 0.013441
-0.0074267 0.012752 0.0060657 -0.011457 -0.2632 0.22312 0.0069206 0.0038231
-0.00088265 0.0082654 0.0019464 0.01207
-0.0030872 0.012411 0.00155 0.012701 0.0070015 0.0040083 -0.33055 0.062644
-0.019646 -0.0064529 0.015272 0.023581
0.011005 0.004254 0.006838 0.0019101 -0.00083301 0.0083685 -0.01941 -0.0066349
-0.23686 -0.16328 -0.025904 0.0038312
-0.0028405 0.0089395 0.0016781 0.013934 0.0019043 0.012408 0.01518 0.023533
-0.025726 0.0043576 -0.28473 -0.079614
560000000 -0.31239 0.13767 -0.027268 -0.060513 0.00093867 0.011396 0.0058205 0.0098248
0.0095229 0.0041376 0.010906 0.0067131
-0.027302 -0.060421 -0.37613 0.1188 -0.0427 -0.03438 0.013268 0.0032532
-0.012525 -0.0040384 0.0034056 -0.00079337
0.00094431 0.011597 -0.042462 -0.034563 -0.18016 0.26738 -0.00031138 -0.004608
0.018567 0.0033608 0.0067856 -0.0059822
0.006032 0.0095917 0.01327 0.0034682 -0.00042353 -0.0045332 -0.30421 0.14874
-0.00029736 -0.024406 0.0035809 -0.018196
0.009212 0.0044698 -0.01232 -0.0034121 0.018847 0.0035448 -0.00014837 -0.024571
-0.28802 0.0084378 0.0037039 -0.046243
0.010537 0.0065437 0.0036542 -0.0007847 0.006638 -0.0060142 0.0039159 -0.018488
0.0030477 -0.046023 -0.33153 0.061532
620000000 -0.27046 0.1234 -0.023458 0.0075028 0.0043155 0.0081426 0.0075563 -0.0052481
0.011038 -0.001545 0.00049354 -0.0026715
-0.02341 0.0075359 -0.40147 0.074237 -0.019515 0.00061672 -0.00075927 -0.0021926
0.010278 -0.0066088 0.0012989 -0.0027405
0.004361 0.0081032 -0.019495 0.00072697 -0.14907 0.27729 -0.001195 -0.0048984
-0.0032415 -0.0028239 0.0080438 -0.0035902
0.0073079 -0.0055026 -0.00079255 -0.0023222 -0.0010847 -0.0049606 -0.26256 0.16058
-0.039154 -0.017098 0.011826 0.023067
0.010886 -0.0012615 0.010043 -0.0065604 -0.0031521 -0.0027328 -0.039207 -0.017323
-0.21094 -0.029884 -0.038109 0.014874
0.00034845 -0.0029588 0.0014802 -0.0026133 0.0080407 -0.0036348 0.012315 0.022442
-0.038516 0.015439 -0.25603 0.031995
680000000 -0.22773 0.20528 -0.027921 -0.011563 0.005661 0.0045775 0.0011426 -0.007392
-0.0031501 -0.010901 0.004478 -0.0068719
-0.027865 -0.011572 -0.38401 0.16826 -0.032155 0.00070742 -0.0014479 -0.00053992
-0.0026583 -0.0088894 -0.0016087 -0.0022388
0.0056134 0.0044371 -0.032152 0.00081412 -0.097961 0.2949 -0.00092663 -0.00039339
-0.0018309 -1.7895e-05 -0.0037485 -0.0086673
0.00090261 -0.0073459 -0.0014135 -0.00047644 -0.00082271 -0.00040767 -0.21653 0.20692
-0.025854 -0.0051706 -0.0095617 -0.0078274
-0.002997 -0.011053 -0.0028238 -0.0089954 -0.0019397 -0.00013833 -0.025724 -0.0050547
-0.25062 0.068148 -0.0068573 -0.0061677
0.0042389 -0.0067928 -0.0019785 -0.0020049 -0.0038244 -0.0085416 -0.009097 -0.0079639
-0.007495 -0.0063591 -0.25332 0.12583
740000000 -0.18357 0.20022 -0.036392 0.026582 0.0121 -0.0059747 -0.00085523 -0.0039615
-0.0051833 -0.0029389 -0.006086 0.0032804
-0.036453 0.026444 -0.33257 0.18739 -0.032794 0.035071 -0.0011765 -0.0060294
-0.011773 0.0076771 -0.0026694 -0.0051833
0.011998 -0.0059867 -0.032681 0.035182 -0.064439 0.29401 -0.0018312 0.0030773
-0.0030747 -0.0045251 -0.0019022 0.00091405
-0.000779 -0.0039804 -0.0011092 -0.0060768 -0.0018544 0.0031304 -0.19869 0.2164
-0.04188 -0.0032635 0.02192 0.01179
-0.0053038 -0.0028535 -0.011809 0.0080304 -0.0033709 -0.0044775 -0.042151 -0.0030318
-0.15715 0.089989 -0.038343 0.003249
-0.0058889 0.0032979 -0.0020379 -0.0047924 -0.0020036 0.0012939 0.022134 0.012006
-0.037993 0.003125 -0.24188 0.13604
800000000 -0.14945 0.23746 -0.021084 0.017907 0.004628 -0.010464 -0.0043859 -0.0015999
-0.0036714 0.0030258 0.0039271 0.00076843
-0.02105 0.017852 -0.33259 0.25591 -0.0065208 0.033659 -0.0022712 0.0023458
-0.00076578 0.0036125 0.0011599 0.0053735
0.0046161 -0.010459 -0.0064515 0.033717 -0.021588 0.31581 0.00090459 0.0016794
0.00050242 0.0035755 -0.0016508 0.0011256
-0.0043641 -0.0015097 -0.0022282 0.0024031 0.00093673 0.0017153 -0.16838 0.24269
-0.026547 0.016453 0.012651 -0.0097844
-0.0036558 0.0030223 -0.00080542 0.003693 0.0005101 0.0034749 -0.02662 0.016419
-0.19373 0.11607 -0.015354 0.018491
0.0039853 0.00055316 0.0011919 0.0055275 -0.0016863 0.0012758 0.012505 -0.009892
-0.015048 0.019094 -0.22818 0.18236
860000000 -0.11475 0.25661 -0.015493 0.030774 -0.0037968 -0.0096937 -0.0018998 0.0010611
0.004573 0.0043799 -0.0027361 -0.0021547
-0.015503 0.0307 -0.28503 0.29651 0.0094918 0.033 0.00022039 0.0022007
0.004802 0.00024831 0.0032882 0.00050356
-0.003823 -0.0096905 0.0095693 0.033035 0.026628 0.32266 -0.00034787 -0.00011087
0.0026356 -0.0015499 0.0019293 0.0039153
-0.001909 0.0011779 0.00018104 0.0022293 -0.00035984 -7.0702e-05 -0.13189 0.25305
-0.01497 0.020526 -0.0056556 -0.0091602
0.0046002 0.0044511 0.0045928 0.00036847 0.0026114 -0.0015899 -0.014951 0.020577
-0.14195 0.15987 -0.021028 0.01691
-0.0025101 -0.0023432 0.0034365 0.00043422 0.0020433 0.0039918 -0.0052969 -0.0093016
-0.02057 0.01671 -0.17972 0.2208
920000000 -0.088068 0.27809 0.0065788 0.036351 -0.0093576 -0.0039633 -0.0013639 0.0017775
0.0015576 0.0012986 0.0026222 -0.0018351
0.0065179 0.036326 -0.25469 0.31687 0.028335 0.019948 0.0017709 0.00084102
0.0070576 -0.00091071 0.003565 -0.0031278
-0.0093144 -0.0039354 0.028407 0.019914 0.074083 0.32273 0.0019158 -0.00018768
0.0014303 -0.00075734 0.00072537 -0.0012378
-0.0013439 0.0016491 0.0017857 0.00081902 0.0018957 -0.00022107 -0.10567 0.26911
-0.0071201 0.03074 0.0023967 -0.0063197
0.0015949 0.0012047 0.0070691 -0.00093252 0.0014418 -0.0007716 -0.0070165 0.030727
-0.12876 0.16755 -0.00031613 0.025143
0.0025572 -0.0018866 0.0035392 -0.0032016 0.00071932 -0.0013124 0.0021798 -0.0062944
-0.00055557 0.025524 -0.17782 0.23709
980000000 -0.041012 0.29556 0.018754 0.028222 -0.0085338 0.004759 0.0019848 0.0029577
0.0038229 -0.0019883 -0.0030343 -0.0019752
0.018736 0.028234 -0.20291 0.34917 0.032582 0.0029553 0.0021219 -0.00023041
0.0015552 -0.0061726 -0.00061003 -0.0023779
-0.0085212 0.0047566 0.032564 0.0028848 0.12089 0.31476 0.00044074 -0.0012957
3.4299e-05 -0.0022538 0.001239 -0.00027334
0.002001 0.0029373 0.0021085 -0.00028677 0.00044214 -0.001333 -0.066714 0.27841
0.010892 0.028363 -0.008351 -0.0058694
0.0038189 -0.0020825 0.0014972 -0.006191 8.7849e-05 -0.0022536 0.01099 0.028484
-0.096409 0.19088 0.0066761 0.018367
-0.003139 -0.0020455 -0.00061611 -0.0023928 0.0013023 -0.00026289 -0.008354 -0.0058908
0.006554 0.018242 -0.13402 0.27405
1040000000 0.0020514 0.30263 0.033036 0.015445 -0.0011598 0.0066272 0.0023565 0.00049245
-0.00012272 -0.0030847 -0.00076911 -0.0014076
0.03301 0.015455 -0.16686 0.36237 0.027706 -0.016009 0.0013982 -0.0018135
-0.0025307 -0.0024808 -0.001612 -0.002637
-0.0011499 0.0066379 0.027663 -0.01606 0.16776 0.30004 -0.00066228 -0.0014566
-0.0016562 -0.00075448 -0.00058187 -0.0010167
0.0023693 0.00046233 0.0014169 -0.0017995 -0.00064997 -0.0014652 -0.037558 0.28746
0.021483 0.015461 -0.0026937 0.0011767
-0.00011891 -0.0030516 -0.0024962 -0.0024644 -0.0016413 -0.00075242 0.02157 0.015414
-0.064244 0.19725 0.014164 0.015581
-0.00079877 -0.0013697 -0.0015881 -0.0026153 -0.00053111 -0.00096678 -0.0026403 0.001289
0.014091 0.015503 -0.10795 0.29361
1100000000 0.047344 0.30851 0.034315 -0.0062427 0.002656 0.0036141 0.002166 -0.001124
-0.0021221 -0.0028537 -0.0036311 0.0006225
0.034311 -0.0062077 -0.12337 0.37842 0.013272 -0.027964 -0.00010651 -0.0018248
-0.0034595 -0.00054416 -0.0033488 -0.00019857
0.002663 0.0036114 0.013209 -0.028013 0.21494 0.2775 -0.0018266 0.00028661
-0.0018239 0.00072559 -0.00093866 -0.0001703
0.0021724 -0.0011307 -9.9029e-05 -0.0018671 -0.0018287 0.00025034 0.0040074 0.29
0.025052 0.0018759 -0.0026104 0.00010265
-0.0020948 -0.0028498 -0.0034785 -0.00054694 -0.0018061 0.00072295 0.025091 0.0018687
-0.044993 0.20848 0.018753 0.0058166
-0.003594 0.00057966 -0.0033834 -0.0001113 -0.00093284 -8.6754e-05 -0.0026051 0.00013118
0.018679 0.0058554 -0.060895 0.31656
1160000000 0.098031 0.30228 0.021836 -0.021857 0.0022096 -0.00030055 -7.5822e-05 -0.0020017
-0.0039615 -0.00046745 -0.00060938 0.003786
0.021843 -0.021837 -0.078713 0.38236 -0.0054641 -0.028159 -0.001736 -0.0014455
-0.0026071 0.002559 -0.0012981 0.0017567
0.0022253 -0.00030517 -0.005544 -0.028146 0.25743 0.24449 -0.00065092 0.0018042
-0.00035779 0.0020354 -0.00076867 0.00020634
-0.00010808 -0.001996 -0.001745 -0.0014961 -0.00065316 0.0018245 0.043456 0.28487
0.019834 -0.013377 -0.0030907 0.0042546
-0.003984 -0.00048531 -0.0026315 0.0025559 -0.00036686 0.002037 0.019909 -0.013353
-0.012086 0.21541 0.016828 -0.0024236
-0.00059338 0.0037876 -0.0012854 0.0017989 -0.00078458 0.00025252 -0.0030812 0.0044717
0.016964 -0.0023443 -0.014381 0.31717
1220000000 0.1428 0.28927 0.007847 -0.029714 -0.001606 -0.00029699 0.00012732 -0.0009389
-0.0024413 0.0023002 0.0014104 0.001909
0.0078703 -0.029673 -0.034198 0.39296 -0.017573 -0.019593 -0.0024192 0.00054162
0.00021573 0.0029456 -0.00046845 0.0019426
-0.0015971 -0.00026452 -0.017635 -0.019551 0.29582 0.20353 0.00091157 0.0017983
0.00072325 0.0011341 0.00037372 0.00046519
0.00010976 -0.00093151 -0.0024422 0.00053738 0.00091147 0.0017997 0.084009 0.27389
0.0085597 -0.019178 0.0013137 0.0014697
-0.0024295 0.002338 0.00020358 0.0029638 0.00069283 0.0011473 0.0085488 -0.019246
0.012293 0.22233 0.011506 -0.013801
0.0014304 0.0018996 -0.00044513 0.0019974 0.0003579 0.00046713 0.001345 0.0015217
0.011545 -0.013818 0.019548 0.32817
1280000000 0.19155 0.26561 -0.0097489 -0.026933 -0.0014744 0.0029318 -0.00093613 -0.0019663
-0.00067883 0.0030389 0.002395 0.00081842
-0.0097395 -0.026922 0.011796 0.3829 -0.023532 -0.0070253 -0.00092067 0.0014689
0.0018029 0.0016437 0.00084244 0.0016842
-0.0014627 0.0029341 -0.023573 -0.0069394 0.32452 0.15799 0.0016455 -9.9501e-05
0.0011799 0.00014433 0.00030003 9.9667e-05
-0.00093101 -0.0019935 -0.00091651 0.0014536 0.0016526 -0.0001077 0.11987 0.25457
-0.0016434 -0.020177 -0.00053761 0.00048986
-0.00060765 0.0029794 0.0018318 0.0016313 0.0011842 0.00016626 -0.0017019 -0.020155
0.048682 0.22359 0.00094566 -0.015481
0.0024338 0.00082397 0.00081963 0.0017185 0.0002422 0.00021434 -0.00054731 0.00047981
0.00091055 -0.015376 0.065347 0.32561
1340000000 0.22798 0.23046 -0.018515 -0.016712 0.0014422 0.0043677 -0.0017017 -0.00085984
0.001512 0.002593 0.0014464 -0.001523
-0.018462 -0.016712 0.051395 0.37312 -0.020699 0.0053413 -5.4558e-05 0.0020394
0.001965 0.00056473 0.0013431 0.00061573
0.0014709 0.0043687 -0.020689 0.0054225 0.3448 0.10971 0.0012097 -0.0010458
0.00056321 -0.00055679 0.00010735 0.00014676
-0.0017108 -0.00088929 -6.0275e-05 0.0020471 0.0012046 -0.0010419 0.15121 0.23213
-0.011084 -0.016059 0.000555 0.0012249
0.001552 0.0025518 0.0019881 0.00054167 0.00052334 -0.00056064 -0.011112 -0.016076
0.078535 0.21716 -0.0058003 -0.013113
0.001475 -0.0015383 0.0013673 0.00062902 6.0886e-05 0.00021728 0.00058037 0.0012254
-0.0058571 -0.013034 0.10403 0.31707
1400000000 0.25998 0.19086 -0.022809 -0.0052212 0.0054731 0.0026777 -0.002165 0.00061399
0.0023787 0.00082038 6.937e-05 -0.0014034
-0.022776 -0.0052404 0.088109 0.35891 -0.013596 0.012797 0.0013685 0.0013068
0.001082 -0.00093355 0.0010999 3.9909e-05
0.0054838 0.0026388 -0.013561 0.012858 0.35686 0.056169 2.6819e-05 -0.0018736
-1.9007e-06 -0.00042164 0.00034226 0.0002026
-0.0021554 0.00060536 0.0013899 0.0012902 3.6428e-05 -0.0018707 0.17923 0.20105
-0.01648 -0.0085347 -0.00032597 0.00057498
0.0023815 0.00077079 0.0011023 -0.00095312 1.8375e-05 -0.00039314 -0.016506 -0.008486
0.11079 0.21021 -0.011486 -0.0074986
6.5397e-05 -0.0013703 0.0010891 2.5578e-05 0.00037838 0.00015302 -0.00032426 0.0006009
-0.011418 -0.0074847 0.14655 0.30183
1460000000 0.28126 0.14605 -0.01905 0.0061832 0.0055392 -0.0023043 -0.0015661 0.0016891
0.0020234 -0.0007279 -0.00047053 -0.00085379
-0.019023 0.0061495 0.12159 0.33603 -0.0050869 0.014957 0.0017642 6.8633e-05
0.00069053 -0.0013083 0.0010263 -0.00059846
0.0055177 -0.0023058 -0.0050442 0.014969 0.36147 0.002057 -0.0015188 -0.0012743
9.7493e-05 -0.00019297 0.0006102 -0.00030634
-0.0015442 0.001691 0.0017599 7.2455e-05 -0.0015053 -0.001285 0.203 0.17039
-0.016848 -0.001134 -3.0804e-05 0.0021255
0.0020598 -0.00075185 0.00068359 -0.0013317 0.00010202 -0.00016567 -0.016856 -0.0011165
0.13906 0.19373 -0.012293 -0.0012588
-0.00047057 -0.00082463 0.0010145 -0.00060999 0.00061438 -0.00028579 -9.6806e-05 0.0021977
-0.012313 -0.0012634 0.1785 0.27881
1520000000 0.29231 0.10328 -0.012875 0.010921 0.0029546 -0.0043935 0.00014758 0.002628
0.0018112 -0.0017659 -0.0010398 -9.2122e-06
-0.012861 0.010897 0.15439 0.32049 0.0020877 0.012451 0.0016823 -0.00092583
-7.6479e-05 -0.00098295 0.00025244 -0.00092515
0.0029616 -0.0044153 0.0021295 0.012425 0.35448 -0.053878 -0.0013414 -0.00018233
0.00051686 -0.00086878 -3.4606e-05 -0.00012354
0.0001618 0.0026414 0.0016829 -0.00093004 -0.0013484 -0.0001888 0.22358 0.13188
-0.015044 0.0048605 0.002126 0.0017743
0.0018237 -0.0017735 -8.2959e-05 -0.00099138 0.00049834 -0.00085769 -0.01502 0.004893
0.16639 0.17792 -0.011658 0.0031714
-0.0010876 -3.4832e-07 0.00023126 -0.00093146 -4.3107e-05 -0.00014197 0.0020845 0.001771
-0.01164 0.0031267 0.20973 0.25518
1580000000 0.30004 0.056534 -0.0063146 0.013066 -0.0012295 -0.0047989 0.0015662 0.0019089
-0.00029819 -0.0020869 -0.00022708 0.00034729
-0.0063287 0.013059 0.1807 0.29503 0.0052747 0.0075676 0.00037362 -0.0017444
-0.00056261 -0.00090508 -0.00024179 -0.0007645
-0.0012314 -0.0047848 0.0053185 0.0075514 0.33388 -0.11148 -0.0015568 0.00099448
-0.00038766 -0.001087 0.00011915 -0.00055241
0.0015542 0.0019096 0.00036692 -0.0017352 -0.0015924 0.00099993 0.23461 0.09252
-0.010748 0.0092844 0.0025492 0.00018435
-0.00030328 -0.0021041 -0.00056538 -0.00091363 -0.00040101 -0.0010967 -0.010725 0.0093747
0.18938 0.15762 -0.0086892 0.0082039
-0.00021053 0.00033522 -0.00025822 -0.00077149 0.00012632 -0.00056359 0.0025663 0.00017328
-0.0086148 0.008174 0.23882 0.22634
1640000000 0.30044 0.014964 -0.00017678 0.011245 -0.0029239 -0.0024448 0.0028088 0.00081057
-0.00084135 -0.0014197 -0.0002564 0.00055099
-0.00019314 0.011243 0.20938 0.26966 0.0057155 0.003096 -0.00091633 -0.0016987
-0.00096444 -0.00029367 -0.000545 -0.00054511
-0.002959 -0.002429 0.0057169 0.0030685 0.30483 -0.16027 -0.00045289 0.0015645
-0.0012119 -0.00072413 -0.00020821 -0.00030965
0.0028104 0.00080405 -0.00092902 -0.0016686 -0.00045231 0.0015823 0.24426 0.045175
-0.0059313 0.010067 0.0024493 -0.0013234
-0.00085443 -0.0014304 -0.00096383 -0.00029759 -0.0011758 -0.00074612 -0.0058928 0.010067
0.21059 0.13178 -0.003786 0.0098235
-0.00021276 0.00054406 -0.00054374 -0.00053612 -0.00021304 -0.00026011 0.0024798 -0.0013673
-0.00377 0.0098268 0.26249 0.19371
1700000000 0.29159 -0.030453 0.0026012 0.0080972 -0.0034068 0.00030032 0.0029378 -0.0014566
-0.0019417 -0.0005786 0.00074436 0.00035364
0.0026001 0.008109 0.22678 0.23808 0.003627 0.00038969 -0.0015428 -0.00039364
-0.0006842 0.000118 -0.00083582 -0.00037276
-0.0034182 0.00028004 0.003643 0.00037157 0.26123 -0.20035 0.00061465 0.0014731
-0.001854 -6.6378e-05 -0.00057852 -0.00081209
0.002906 -0.001496 -0.001545 -0.00039229 0.00063949 0.0014349 0.23966 -0.0025629
-0.0028979 0.0099088 0.0012408 -0.0024488
-0.001955 -0.00054412 -0.00067981 0.00013668 -0.001829 -5.2302e-05 -0.0028671 0.0099169
0.22634 0.10973 0.00087063 0.0097713
0.00066638 0.00032009 -0.00086812 -0.00036646 -0.00058069 -0.00079145 0.0012963 -0.0024615
0.00090437 0.0097671 0.27677 0.15794
1760000000 0.27778 -0.078443 0.0040836 0.0048219 -0.0021682 0.00097868 0.00091873 -0.0035168
-0.0013285 0.00075815 0.00035365 -0.0004365
0.004072 0.0048224 0.25189 0.19783 0.0014196 -0.0013578 -0.0011952 0.0003843
-0.00096575 0.00080063 -0.00061831 0.00045129
-0.0021565 0.0010029 0.0014128 -0.0013693 0.21206 -0.23392 0.001235 0.00081116
-0.0010235 0.0015767 -0.0012951 -0.00040599
0.00092189 -0.0035009 -0.0011954 0.00039738 0.001285 0.00084973 0.22987 -0.051385
0.0001432 0.0085757 -0.0005681 -0.0025644
-0.0013166 0.0007782 -0.00095674 0.00080876 -0.0010177 0.0015858 0.00014378 0.0085871
0.23899 0.073356 0.0044953 0.0067386
0.00040627 -0.00045302 -0.00059362 0.0004509 -0.0013116 -0.00039218 -0.00061937 -0.0026075
0.0044863 0.0067391 0.28717 0.11931
1820000000 0.25185 -0.11491 0.003722 0.0016637 -9.1229e-05 0.0024544 -0.0013209 -0.0028055
-0.00095435 0.0010543 -3.3135e-05 -7.5794e-05
0.0037009 0.0016662 0.26122 0.16802 -0.00045977 -3.8133e-05 -0.0010675 0.0010512
-2.7331e-05 0.0012301 -0.00049991 0.00056003
-8.7171e-05 0.002455 -0.00043568 -1.5214e-05 0.16137 -0.24879 0.0013766 0.00013429
-3.4242e-05 0.0021877 -0.0013198 0.00052587
-0.0013454 -0.0028039 -0.0010656 0.0010625 0.0013384 0.00014263 0.20083 -0.096174
0.0014792 0.0067303 -0.0018078 -0.0014217
-0.00095398 0.0010451 -1.8492e-05 0.0012391 -4.7114e-05 0.0021857 0.0014893 0.0067349
0.25388 0.043311 0.0052465 0.003127
-7.3406e-05 -7.3077e-05 -0.00050553 0.00057633 -0.001336 0.00054064 -0.0017777 -0.0014494
0.0052649 0.0031218 0.28739 0.082055
1880000000 0.21583 -0.15411 0.0012234 1.4131e-06 -0.00045114 0.0021175 -0.0029415 -0.0017632
-0.000129 0.0016268 0.00018668 -0.00044085
0.0012142 3.2408e-06 0.26518 0.12123 -0.0024476 0.0016077 4.9088e-05 0.0016159
0.00056217 0.001095 0.00019125 0.00095543
-0.00044999 0.0021064 -0.0024224 0.0016243 0.10878 -0.25886 0.0014582 -0.0010239
0.0016004 0.0016113 -0.00080514 0.001447
-0.0029472 -0.0017601 6.1061e-05 0.0016266 0.0014522 -0.0010123 0.16192 -0.13565
0.0019078 0.0045308 -0.0024222 0.00034762
-0.00012174 0.0016009 0.00056776 0.0011169 0.0015875 0.0016258 0.001893 0.0045478
0.25432 0.0095089 0.0048328 0.00081171
0.00018408 -0.00046933 0.00022019 0.00093927 -0.00079613 0.0014822 -0.0024346 0.00041408
0.0048134 0.000877 0.28506 0.047246
1940000000 0.17603 -0.17921 -0.00090328 -0.0010267 0.0014188 0.0020143 -0.0034742 0.000771
0.0015059 0.0010494 -0.00051359 -0.0005195
-0.00091271 -0.0010345 0.2648 0.089731 -0.0012144 0.0038787 0.0010431 0.0010467
0.0017364 0.00048847 0.00089473 0.00044622
0.0014514 0.0019742 -0.0011995 0.0038765 0.062409 -0.25185 0.00011708 -0.0017481
0.0023323 0.00026091 0.0004692 0.0018265
-0.003467 0.00079064 0.0010638 0.0010058 0.00015249 -0.0017743 0.11091 -0.16574
0.00098717 0.0031953 -0.0015476 0.0015227
0.0015038 0.0010296 0.0017564 0.00047646 0.0022903 0.00026915 0.00098148 0.0032212
0.25367 -0.029715 0.0034307 -0.0021274
-0.00051914 -0.00053128 0.00091578 0.00044021 0.00049433 0.001713 -0.001507 0.0015518
0.0034374 -0.0021282 0.27211 0.010648
2000000000 0.12932 -0.19331 -0.0043169 0.0013111 0.0025591 0.0015129 -0.0021104 0.003424
0.0011131 1.6341e-05 -0.00052893 0.00045926
-0.0043262 0.0013008 0.2505 0.054212 -0.0010075 0.0057835 0.0014271 0.00016294
0.0012942 -0.0012869 0.00052172 -0.00011328
0.0025708 0.0015159 -0.00097689 0.005764 0.018453 -0.23702 -0.0011424 -0.00097039
0.0017816 -0.0012007 0.0017967 0.00088414
-0.0020481 0.0033836 0.0014647 0.00017105 -0.0011328 -0.00096871 0.058697 -0.17697
-0.00068265 0.002825 -5.4561e-06 0.0023065
0.0011375 -5.2781e-06 0.0012938 -0.0012802 0.0017592 -0.0011961 -0.00069123 0.0028187
0.24533 -0.063677 0.00023215 -0.002982
