!Keysight Technologies,M9804A,MY58100912,A.14.10.03
!Date: Thursday, April 27, 2023 10:28:33
!Correction: S11(C  6-Port  ) 
!S12(C  6-Port  ) 
!S13(C  6-Port  ) 
!S14(C  6-Port  ) 
!S15(C  6-Port  ) 
!S16(C  6-Port  ) 
!S21(C  6-Port  ) 
!S22(C  6-Port  ) 
!S23(C  6-Port  ) 
!S24(C  6-Port  ) 
!S25(C  6-Port  ) 
!S26(C  6-Port  ) 
!S31(C  6-Port  ) 
!S32(C  6-Port  ) 
!S33(C  6-Port  ) 
!S34(C  6-Port  ) 
!S35(C  6-Port  ) 
!S36(C  6-Port  ) 
!S41(C  6-Port  ) 
!S42(C  6-Port  ) 
!S43(C  6-Port  ) 
!S44(C  6-Port  ) 
!S45(C  6-Port  ) 
!S46(C  6-Port  ) 
!S51(C  6-Port  ) 
!S52(C  6-Port  ) 
!S53(C  6-Port  ) 
!S54(C  6-Port  ) 
!S55(C  6-Port  ) 
!S56(C  6-Port  ) 
!S61(C  6-Port  ) 
!S62(C  6-Port  ) 
!S63(C  6-Port  ) 
!S64(C  6-Port  ) 
!S65(C  6-Port  ) 
!S66(C  6-Port  ) 
!S6P File: Measurement: :
# Hz S  RI   R 50
500000000 -0.34009 -0.01871 -0.011383 -0.0034128 -0.0078542 0.013451 -0.004003 0.011731
0.011229 0.0043219 -0.0032036 0.0091988
-0.012097 -0.0032195 -0.42019 -0.036865 0.0055752 -0.011248 0.0019127 0.012578
0.0063063 0.0028628 0.0019657 0.013986
-0.0086514 0.013719 0.0057074 -0.011236 -0.26474 0.2235 0.0069655 0.0039522
-0.0014108 0.0085399 0.0022963 0.01225
-0.0015458 0.011534 0.0027338 0.012528 0.0070959 0.0041119 -0.33051 0.061972
-0.020271 -0.0066386 0.015312 0.023804
0.01197 0.0051275 0.0065032 0.0022238 -0.001657 0.0090046 -0.020129 -0.005955
-0.23651 -0.16424 -0.026712 0.0038113
-0.0016479 0.0073127 0.0024324 0.013325 0.0018286 0.012539 0.016222 0.023131
-0.026519 0.0038194 -0.28511 -0.080053
560000000 -0.31345 0.13685 -0.028887 -0.060545 0.002298 0.011576 0.0065658 0.0091959
0.0099423 0.0052136 0.010692 0.0075808
-0.028183 -0.060144 -0.37671 0.11958 -0.04281 -0.034111 0.012787 0.0039171
-0.0132 -0.0033082 0.0037344 -0.00098768
0.0015326 0.011498 -0.04378 -0.034177 -0.18047 0.26878 0.00047326 -0.0044505
0.019672 0.0045975 0.0062199 -0.0059746
0.0056186 0.010201 0.013147 0.0036776 0.00080616 -0.004233 -0.30547 0.14895
8.2108e-05 -0.024363 0.0025441 -0.018188
0.0082945 0.0052464 -0.014611 -0.0033293 0.018471 0.004069 -0.00022592 -0.024439
-0.28708 0.0089921 0.0030455 -0.046761
0.011058 0.0070279 0.0035208 -0.00012806 0.0085599 -0.0059396 0.0040476 -0.018121
0.0024679 -0.045323 -0.33152 0.059587
620000000 -0.27124 0.12378 -0.02368 0.0083073 0.0049208 0.0084337 0.0073888 -0.0049913
0.010962 -0.00064479 0.0015655 -0.0023019
-0.023482 0.0080987 -0.40225 0.074534 -0.019536 0.0012273 -0.00057827 -0.0022573
0.010756 -0.0058212 0.001784 -0.0024891
0.0055519 0.0084141 -0.019341 0.0012918 -0.14907 0.2786 -0.00056678 -0.005015
-0.0030414 -0.0025954 0.0085928 -0.0033207
0.0085738 -0.005058 -0.00051625 -0.002556 -0.00057952 -0.0050213 -0.26356 0.16156
-0.040604 -0.018058 0.011918 0.023419
0.010847 -0.0019274 0.010474 -0.0061309 -0.0036073 -0.0026206 -0.039499 -0.018958
-0.21047 -0.027791 -0.038897 0.015204
0.0017278 -0.0029696 0.0016338 -0.0028779 0.008518 -0.003418 0.012494 0.023343
-0.038926 0.014985 -0.25685 0.031784
680000000 -0.22777 0.20568 -0.02796 -0.010921 0.0058839 0.0046305 0.0012433 -0.0066787
-0.0028654 -0.011364 0.0040471 -0.0071598
-0.028138 -0.010728 -0.38457 0.16947 -0.031823 0.0010694 -0.0014311 -0.00070691
-0.0023229 -0.0095077 -0.0012642 -0.0022277
0.0055377 0.004847 -0.032079 0.001197 -0.097211 0.29594 -0.001043 -0.00061558
-0.0012914 -0.00031308 -0.0032525 -0.0086351
0.0010895 -0.0068921 -0.0013662 -0.00079623 -0.00056398 -0.00069169 -0.21566 0.20847
-0.026242 -0.003979 -0.0089818 -0.0076454
-0.0034798 -0.01111 -0.0025076 -0.0093084 -0.0013715 -0.00036449 -0.026525 -0.0048453
-0.25175 0.069845 -0.0070005 -0.0060711
0.0038686 -0.0063432 -0.001521 -0.0020599 -0.0029724 -0.0088275 -0.0097511 -0.007137
-0.0075205 -0.006099 -0.25408 0.12715
740000000 -0.18348 0.2009 -0.035921 0.027064 0.012623 -0.0060293 -0.00065798 -0.0040521
-0.0053363 -0.0022317 -0.0056683 0.0030996
-0.036118 0.026633 -0.33163 0.18818 -0.032425 0.035207 -0.00079398 -0.0063466
-0.011238 0.0065667 -0.0023493 -0.0049011
0.013078 -0.0060252 -0.032568 0.035596 -0.063354 0.29442 -0.0022234 0.0031014
-0.0031123 -0.0039352 -0.0020599 0.0011402
-0.00032074 -0.0037091 -0.00073365 -0.0064244 -0.0017058 0.0027831 -0.19823 0.21685
-0.042219 -0.0028964 0.022185 0.012624
-0.0054907 -0.0028631 -0.011782 0.0067393 -0.0036018 -0.0040641 -0.042355 -0.0030588
-0.15865 0.089609 -0.039035 0.0039544
-0.0054505 0.0029876 -0.0022452 -0.0054444 -0.0016492 0.00054145 0.02298 0.012455
-0.039031 0.003715 -0.24166 0.13737
800000000 -0.14872 0.23756 -0.020284 0.017699 0.0046573 -0.010751 -0.0042792 -0.0018029
-0.0037472 0.0027228 0.0033874 0.00085784
-0.020465 0.017492 -0.33175 0.25619 -0.0062322 0.033464 -0.0023199 0.0023176
-0.0010997 0.0035317 0.00085503 0.0054329
0.004459 -0.010428 -0.0061521 0.033476 -0.020972 0.31548 0.00063339 0.0016592
0.00024149 0.0037616 -0.0016355 0.0012953
-0.0046731 -0.001743 -0.0024837 0.002298 0.00076123 0.0017596 -0.16792 0.2432
-0.026255 0.016522 0.012708 -0.010105
-0.0039079 0.0027351 -0.0012197 0.0034647 6.3824e-05 0.0032902 -0.026465 0.016761
-0.19436 0.11742 -0.014938 0.01959
0.0024273 0.00089237 0.0006628 0.0056493 -0.0015619 0.0014038 0.012959 -0.0099752
-0.014524 0.019658 -0.2283 0.18256
860000000 -0.11412 0.25687 -0.014617 0.030792 -0.0035205 -0.0096428 -0.001759 0.0010585
0.0044408 0.00494 -0.0024665 -0.0019802
-0.014736 0.030735 -0.28387 0.2964 0.0097886 0.032991 0.00021347 0.0022055
0.0044496 0.00068136 0.0032448 0.00084621
-0.0034255 -0.0098009 0.0098623 0.032907 0.027097 0.32232 -0.00026125 0.00011956
0.0024826 -0.0012342 0.0019872 0.0039501
-0.001736 0.0012658 0.00042472 0.0021637 -0.00028143 0.00017556 -0.13116 0.25332
-0.014453 0.020827 -0.0052978 -0.008884
0.0044137 0.0048019 0.0045871 0.00046282 0.0028044 -0.001071 -0.014456 0.021018
-0.14085 0.16223 -0.020481 0.017319
-0.0021611 -0.002222 0.0033972 0.00054841 0.0019864 0.0040211 -0.0052439 -0.0088345
-0.02055 0.017868 -0.17888 0.22171
920000000 -0.086893 0.27771 0.0069986 0.035899 -0.0092062 -0.0043305 -0.0014296 0.0015288
0.0016301 0.0013413 0.0028546 -0.0017272
0.0070717 0.035797 -0.25393 0.31635 0.028523 0.019788 0.0017001 0.0010674
0.0072083 -0.00064073 0.0037513 -0.0030329
-0.0092191 -0.0042153 0.028607 0.019691 0.074131 0.32239 0.0020325 -0.00013937
0.001555 -0.00052686 0.00083843 -0.001427
-0.0014271 0.0015089 0.0016219 0.0010761 0.0020462 -0.0001599 -0.10502 0.26885
-0.0065596 0.030858 0.0026399 -0.0065805
0.0018676 0.0014294 0.0074077 -0.00071302 0.0015274 -0.00057546 -0.0064546 0.03094
-0.12743 0.16832 0.00061731 0.025518
0.0026103 -0.0018084 0.0037801 -0.0031814 0.00075063 -0.0014827 0.0028402 -0.0065808
0.00060847 0.025663 -0.17718 0.23663
980000000 -0.040552 0.29465 0.018946 0.027553 -0.0087211 0.0043898 0.00171 0.0027513
0.0039036 -0.0019227 -0.0029915 -0.002262
0.018954 0.027585 -0.20248 0.34817 0.032605 0.0026378 0.0020867 -0.0002955
0.0017419 -0.006358 -0.00052942 -0.0025012
-0.0086253 0.0044208 0.03262 0.002557 0.1208 0.31451 0.0005006 -0.00137
4.0802e-05 -0.0023191 0.0011351 -0.00037337
0.0017726 0.0027754 0.0020271 -0.00031631 0.00042764 -0.0013923 -0.065896 0.27788
0.011774 0.028127 -0.0082231 -0.0063907
0.0039249 -0.0022162 0.0016777 -0.0065244 2.9629e-05 -0.0023682 0.011799 0.028144
-0.094775 0.19131 0.0069211 0.018126
-0.0030066 -0.0020762 -0.00068746 -0.0025289 0.0011049 -0.0003746 -0.0082877 -0.0065447
0.0066273 0.017752 -0.13304 0.27413
1040000000 0.0020685 0.3021 0.033076 0.014741 -0.0014788 0.0063784 0.0022224 0.00046263
-7.4978e-05 -0.0032823 -0.00090728 -0.0016831
0.032896 0.014783 -0.16676 0.36129 0.027674 -0.016295 0.0015046 -0.0018518
-0.0024869 -0.0028171 -0.0017024 -0.0027592
-0.0014399 0.0064037 0.027728 -0.016376 0.16776 0.29993 -0.00066933 -0.0015515
-0.0017214 -0.00099812 -0.00065674 -0.0010296
0.0023326 0.00050131 0.0013274 -0.0018748 -0.00060901 -0.0015723 -0.037393 0.28661
0.021568 0.01508 -0.0027848 0.00077761
-0.00014907 -0.0031975 -0.0022647 -0.0026716 -0.0017295 -0.00089046 0.021685 0.015024
-0.062843 0.19672 0.014385 0.015191
-0.00099358 -0.0018555 -0.0017099 -0.0026984 -0.00064219 -0.00084465 -0.0027058 0.00092082
0.014408 0.015076 -0.10781 0.29335
1100000000 0.046905 0.30786 0.03407 -0.0067458 0.0023545 0.0035709 0.0020255 -0.00080647
-0.0022019 -0.0027394 -0.0037473 0.00057853
0.03397 -0.0067621 -0.12387 0.37743 0.013165 -0.02823 -0.00011061 -0.0017129
-0.0038048 -0.00069257 -0.0035722 -0.00015043
0.0023308 0.0035354 0.013056 -0.028283 0.21497 0.27742 -0.0018994 0.00018879
-0.0020542 0.00069875 -0.00094597 2.6674e-05
0.0019821 -0.00080075 -0.00012116 -0.0017875 -0.0018742 0.00015127 0.0036241 0.28917
0.025149 0.0014911 -0.0028423 -4.0002e-05
-0.0021348 -0.002888 -0.0037661 -0.00065771 -0.0019929 0.00064217 0.025207 0.0014599
-0.044004 0.208 0.018628 0.0058237
-0.0036427 0.00073425 -0.0036432 -0.0002145 -0.00096851 4.68e-05 -0.0028063 -6.5492e-05
0.018608 0.0058244 -0.06076 0.31654
1160000000 0.097592 0.30183 0.021322 -0.022321 0.0017957 -0.00022555 -1.832e-05 -0.0017224
-0.0039551 -0.00038171 -0.00068726 0.0039182
0.021341 -0.022297 -0.079642 0.38206 -0.0057258 -0.028408 -0.0017323 -0.0015539
-0.0029271 0.0027836 -0.0013754 0.0018771
0.001778 -0.00028223 -0.0058931 -0.028425 0.25755 0.24421 -0.00085888 0.0018724
-0.00045402 0.0021223 -0.00071313 0.00039329
7.7152e-05 -0.0016153 -0.0016419 -0.0014701 -0.00086653 0.0018962 0.042959 0.28448
0.020123 -0.013713 -0.0031889 0.0042716
-0.0040025 -0.00026505 -0.0028756 0.0028247 -0.00067667 0.002132 0.020159 -0.013718
-0.010861 0.2145 0.017388 -0.002737
-0.00078463 0.0038981 -0.0013265 0.0018377 -0.00059629 0.00041777 -0.0032407 0.0040688
0.017535 -0.0028802 -0.014098 0.31691
1220000000 0.1422 0.28898 0.0070654 -0.029829 -0.001918 0.00011674 0.00031359 -0.00096229
-0.0023979 0.0023074 0.0014403 0.0020601
0.0071032 -0.029826 -0.035232 0.39297 -0.017952 -0.019579 -0.0025142 0.0005013
0.00013948 0.0031981 -0.00044616 0.0020755
-0.0019064 0.00013065 -0.018009 -0.01956 0.29585 0.20308 0.00084651 0.0019515
0.00084631 0.0013675 0.00059966 0.00054322
0.00031285 -0.0010126 -0.0025591 0.00047481 0.00088417 0.0019559 0.083315 0.27383
0.0084624 -0.019663 0.0010726 0.0014463
-0.0024663 0.0022823 0.00013633 0.0032168 0.00087273 0.0013233 0.0084565 -0.019661
0.012841 0.2208 0.011695 -0.0145
0.0013018 0.0020162 -0.00050228 0.0020155 0.000562 0.00054531 0.0011701 0.0014836
0.011603 -0.014467 0.019741 0.32785
1280000000 0.191 0.26566 -0.010529 -0.026752 -0.0014653 0.0034035 -0.00082836 -0.0021305
-0.00064065 0.0029738 0.0025214 0.00089222
-0.010453 -0.026719 0.010928 0.38338 -0.023943 -0.0069167 -0.0010735 0.0014962
0.0019994 0.0018216 0.00090041 0.0017769
-0.0015245 0.0034031 -0.02398 -0.0068733 0.32426 0.15762 0.0018067 -4.6044e-05
0.0013324 0.00014884 0.00039382 0.00012749
-0.00090509 -0.002137 -0.0010438 0.0015656 0.0017627 8.4503e-06 0.11922 0.25485
-0.0020403 -0.020651 -0.00083387 0.00069208
-0.00065068 0.0029381 0.0020286 0.0018301 0.001376 9.7501e-05 -0.0021211 -0.020619
0.048402 0.22202 0.00077059 -0.016005
0.0025719 0.00091553 0.00095398 0.001749 0.00034165 0.00017991 -0.00084653 0.00060668
0.00068093 -0.015958 0.065367 0.32533
1340000000 0.22739 0.23069 -0.019166 -0.015967 0.0016492 0.0048159 -0.0017855 -0.001086
0.0015125 0.002616 0.0016501 -0.0015416
-0.019115 -0.015982 0.051092 0.37387 -0.020964 0.0057505 -7.1433e-05 0.0021642
0.002207 0.00052792 0.0014565 0.00062779
0.0016353 0.0047646 -0.020948 0.0058164 0.34444 0.10934 0.0013665 -0.001092
0.00064357 -0.00059533 7.224e-05 0.00016624
-0.0017437 -0.0010358 -5.2851e-05 0.0021156 0.0013823 -0.00111 0.15094 0.23266
-0.011588 -0.016375 0.00034331 0.0014434
0.0015009 0.0025385 0.0022337 0.00054327 0.00071839 -0.00060139 -0.011627 -0.016352
0.077723 0.21585 -0.0062509 -0.013534
0.0015959 -0.0015232 0.0013728 0.00063639 3.9732e-05 4.6342e-05 0.00044029 0.0014797
-0.0062752 -0.013518 0.10436 0.31646
1400000000 0.25942 0.19143 -0.022989 -0.0042837 0.0057825 0.0029323 -0.0022862 0.00059788
0.0023988 0.00082243 0.00011111 -0.001546
-0.022957 -0.0042861 0.088052 0.35966 -0.013676 0.013247 0.0015075 0.0013686
0.0012294 -0.0011623 0.0011001 -3.4996e-05
0.0058564 0.0029102 -0.01363 0.013311 0.35609 0.055894 0.00010992 -0.0020693
4.1221e-05 -0.00045938 0.00034116 0.00012335
-0.0022723 0.00059344 0.0015717 0.0013572 0.00011173 -0.0021328 0.17924 0.20158
-0.017166 -0.0084622 -0.0003227 0.00088925
0.0024257 0.00084447 0.0011794 -0.0011405 -1.2171e-05 -0.00048718 -0.01722 -0.0084427
0.10946 0.20939 -0.012106 -0.007643
-3.3675e-06 -0.0016193 0.0011673 -7.7216e-05 0.00044238 0.00015984 -0.00034478 0.00089613
-0.012109 -0.0076527 0.14651 0.30138
1460000000 0.28111 0.14673 -0.018639 0.0071212 0.0059307 -0.0022636 -0.0015967 0.0017992
0.0021797 -0.00060108 -0.00053802 -0.0008849
-0.018672 0.0070825 0.12197 0.33653 -0.0048788 0.015431 0.0018767 4.7649e-05
0.0006009 -0.0014366 0.001006 -0.00063812
0.0059077 -0.0022984 -0.0047996 0.015479 0.36081 0.0021918 -0.0016012 -0.0014364
0.00011154 -0.00017014 0.00064618 -0.00030507
-0.0016045 0.0018194 0.0018569 2.0311e-05 -0.0016151 -0.0014114 0.20321 0.17084
-0.017526 -0.00066985 4.1524e-05 0.0024281
0.0021165 -0.00060266 0.00061204 -0.0014714 0.00014164 -0.00022367 -0.017546 -0.00060533
0.1375 0.19352 -0.01302 -0.001133
-0.00041091 -0.0009592 0.00099781 -0.00059563 0.00051956 -0.00029645 1.3479e-05 0.0025188
-0.013018 -0.0011374 0.17822 0.27831
1520000000 0.29262 0.10383 -0.012087 0.011443 0.0033766 -0.0045935 0.00013925 0.0027062
0.0019621 -0.0019049 -0.0011633 -2.3315e-05
-0.012069 0.011391 0.15476 0.32064 0.0024599 0.012674 0.0016797 -0.001083
-0.0002028 -0.0010335 0.00022942 -0.00096518
0.0033937 -0.0046323 0.0024989 0.012669 0.35383 -0.053442 -0.0015402 -0.00019035
0.00053235 -0.00087991 -3.6141e-05 -0.00020758
0.00013569 0.0026727 0.0016823 -0.0010821 -0.0015521 -0.0002045 0.22394 0.13206
-0.015336 0.005567 0.0022992 0.0019806
0.0019749 -0.0018504 -0.00020718 -0.0010126 0.00060012 -0.00087291 -0.015312 0.0056211
0.16511 0.17818 -0.012158 0.0036356
-0.0012543 -1.2118e-06 0.00024335 -0.00096614 -9.873e-05 -0.00016954 0.0023334 0.0019363
-0.012146 0.0036051 0.20947 0.25471
1580000000 0.30016 0.056808 -0.005434 0.013035 -0.00098143 -0.0052446 0.001627 0.0019051
-0.00028173 -0.0022759 -0.00024819 0.00050447
-0.0054296 0.013023 0.181 0.29495 0.0056829 0.0075843 0.00023445 -0.0017998
-0.00066281 -0.00081714 -0.00027781 -0.00080216
-0.00093212 -0.0052318 0.0057515 0.0076255 0.33343 -0.11072 -0.0017234 0.0011162
-0.00041969 -0.0012019 7.2142e-05 -0.00063246
0.0017237 0.001948 0.00024613 -0.0018835 -0.0016285 0.0011052 0.23494 0.092553
-0.010712 0.010097 0.0028456 0.00019421
-0.00025624 -0.0022838 -0.00064795 -0.000869 -0.00038176 -0.0011771 -0.010736 0.010159
0.18833 0.15835 -0.008921 0.0088274
-0.00022406 0.00048029 -0.00028553 -0.00082837 0.00021366 -0.00062246 0.0028354 0.00016244
-0.0089312 0.008839 0.23839 0.22616
1640000000 0.30077 0.014963 0.00055892 0.010835 -0.0029808 -0.0029705 0.0027967 0.00077541
-0.00093989 -0.0015566 -0.00014659 0.00055294
0.00054078 0.010814 0.20941 0.2695 0.0060402 0.0029439 -0.0010541 -0.0016578
-0.00094344 -0.00020973 -0.00057323 -0.00060263
-0.0030454 -0.0029704 0.0060423 0.0029242 0.30501 -0.15929 -0.00046023 0.0016662
-0.0013676 -0.00077245 -0.00026926 -0.00031364
0.0027847 0.00080522 -0.0010474 -0.0015842 -0.0004409 0.0017467 0.24462 0.045081
-0.0054995 0.010777 0.0026834 -0.0013996
-0.00092261 -0.0015264 -0.00095745 -0.00021952 -0.0013674 -0.00072261 -0.0054236 0.010792
0.21009 0.13269 -0.0037571 0.010501
-0.00023978 0.00064166 -0.00054612 -0.00062252 -0.00014196 -0.00028507 0.0026695 -0.0013734
-0.0037024 0.010526 0.26197 0.19354
1700000000 0.29162 -0.03048 0.0029999 0.007457 -0.0037262 -4.6594e-05 0.00295 -0.0014767
-0.0021441 -0.00062625 0.00077963 0.00023493
0.0029861 0.0074787 0.22666 0.23794 0.0039451 7.1785e-05 -0.0015977 -0.000282
-0.00063694 8.9419e-05 -0.00093398 -0.00035437
-0.0037924 -1.5903e-05 0.0039263 4.979e-05 0.26198 -0.19951 0.00081777 0.0014906
-0.001903 3.2086e-06 -0.00076806 -0.00076233
0.0029187 -0.001442 -0.0016059 -0.00030299 0.00085093 0.0014221 0.23993 -0.0028506
-0.0021834 0.010289 0.0014484 -0.0025665
-0.0021324 -0.00058467 -0.00064112 0.00010032 -0.0019798 6.939e-05 -0.0021535 0.01029
0.226 0.11064 0.0011131 0.010354
0.00082819 0.00024095 -0.00094247 -0.00035756 -0.00077637 -0.00073082 0.0015132 -0.0025993
0.0011721 0.010344 0.27614 0.15815
1760000000 0.2779 -0.078543 0.0042128 0.0041205 -0.0026411 0.00099794 0.00091802 -0.0036095
-0.001428 0.00090463 0.00029684 -0.00056253
0.0041868 0.0040952 0.25181 0.19796 0.0015109 -0.001701 -0.0011353 0.00043698
-0.00092665 0.00078461 -0.00060937 0.00047689
-0.0026732 0.0010317 0.0015161 -0.0017056 0.21277 -0.23356 0.0014076 0.00068533
-0.0010872 0.0019285 -0.001292 -0.0002503
0.00088385 -0.0036045 -0.0011333 0.00046577 0.0013925 0.00076201 0.23003 -0.051605
0.00098581 0.008554 -0.00044593 -0.0027692
-0.0014399 0.00093369 -0.00095181 0.00077173 -0.0011005 0.0018634 0.00093259 0.0086428
0.23905 0.074295 0.0049044 0.0072468
0.00038104 -0.00060498 -0.00055256 0.0005129 -0.0012543 -0.0002293 -0.00045993 -0.0027822
0.0049501 0.0072801 0.28687 0.11982
1820000000 0.2519 -0.11489 0.003457 0.001014 -0.00033733 0.0025738 -0.0014445 -0.0028872
-0.00090347 0.0011424 -0.00016404 -9.0894e-05
0.0034698 0.0010531 0.26118 0.1681 -0.00059887 -0.00054413 -0.00099666 0.0010726
-0.00010126 0.0011528 -0.00047516 0.00059989
-0.00034341 0.0025445 -0.00061217 -0.00052318 0.16195 -0.24934 0.001296 3.186e-05
0.00015305 0.0021636 -0.0012365 0.00072254
-0.0014039 -0.0029303 -0.0010351 0.0010681 0.0012445 3.7373e-05 0.20095 -0.096476
0.0022081 0.0063583 -0.0016898 -0.0017717
-0.00081777 0.0011101 -0.00010179 0.0011574 0.000151 0.0022539 0.0022541 0.0063661
0.25427 0.043983 0.0059805 0.0033123
-0.00020151 -8.0117e-05 -0.00048554 0.00061487 -0.0011796 0.00084845 -0.0017459 -0.0017022
0.0060052 0.0033019 0.28714 0.082321
1880000000 0.21571 -0.15415 0.00080344 -0.00049747 -0.00075722 0.0023451 -0.0030065 -0.0017217
-2.4199e-05 0.0016257 0.0002093 -0.00032375
0.00078051 -0.00050623 0.26521 0.12138 -0.0028738 0.0013923 9.0341e-05 0.0015614
0.00047677 0.0011423 0.00017173 0.00094419
-0.00062411 0.0022837 -0.0028927 0.0014111 0.10845 -0.25897 0.0013249 -0.001055
0.0017576 0.0015269 -0.00068577 0.0014266
-0.0030015 -0.0017629 -1.9595e-05 0.0015789 0.0014586 -0.0011256 0.16182 -0.13601
0.0023174 0.0037888 -0.0025389 8.5625e-05
-1.3595e-05 0.0016323 0.00042138 0.0011709 0.0018664 0.0015103 0.0023331 0.0038361
0.25484 0.0099971 0.0055198 0.0007672
0.00014057 -0.00032269 0.00023313 0.00091912 -0.00073578 0.0014033 -0.002494 9.2002e-05
0.0055414 0.00076754 0.28484 0.047898
1940000000 0.17591 -0.17888 -0.0015589 -0.0012724 0.0014298 0.0024284 -0.0034497 0.00089058
0.0015093 0.00095834 -0.00051802 -0.00040791
-0.0015387 -0.0012536 0.26499 0.089788 -0.0017115 0.0040413 0.0010259 0.0010307
0.0016662 0.00060728 0.0008321 0.00041991
0.0014292 0.0023452 -0.0016643 0.0040866 0.06219 -0.25185 0.00018033 -0.0016994
0.0023301 0.00015791 0.00050734 0.0015996
-0.0034917 0.00087057 0.0010711 0.0010249 0.00012803 -0.001589 0.11062 -0.16618
0.0010585 0.0023131 -0.0018727 0.0013345
0.0015119 0.00097682 0.0017233 0.00059279 0.0023181 0.000148 0.0010303 0.0023688
0.25429 -0.029593 0.0039664 -0.0025243
-0.00050081 -0.00046491 0.00081196 0.00035364 0.00043642 0.0015554 -0.0019095 0.0014264
0.003922 -0.0024981 0.27208 0.010922
2000000000 0.12949 -0.19309 -0.0050339 0.0013734 0.002772 0.0017116 -0.00214 0.0035373
0.0010461 -7.942e-05 -0.0003796 0.000373
-0.0050613 0.0014014 0.25066 0.054179 -0.0012284 0.005948 0.0013961 8.1991e-05
0.001439 -0.0011587 0.0006139 6.4844e-05
0.0027858 0.0018364 -0.0012277 0.0060939 0.018653 -0.23694 -0.0010591 -0.0010246
0.0015996 -0.001269 0.0019294 0.00083825
-0.0021242 0.0035338 0.0013183 7.1492e-05 -0.0012324 -0.00090939 0.058071 -0.17705
-0.0011245 0.0020975 -0.00048479 0.0022789
0.00094938 -6.4213e-05 0.0013957 -0.0012381 0.0015966 -0.0012185 -0.0011233 0.0021077
0.24579 -0.063851 0.00054574 -0.0035328
