!Keysight Technologies,M9804A,MY58100912,A.14.10.03
!Date: Thursday, April 27, 2023 10:28:33
!Correction: S11(C  6-Port  ) 
!S12(C  6-Port  ) 
!S13(C  6-Port  ) 
!S14(C  6-Port  ) 
!S15(C  6-Port  ) 
!S16(C  6-Port  ) 
!S21(C  6-Port  ) 
!S22(C  6-Port  ) 
!S23(C  6-Port  ) 
!S24(C  6-Port  ) 
!S25(C  6-Port  ) 
!S26(C  6-Port  ) 
!S31(C  6-Port  ) 
!S32(C  6-Port  ) 
!S33(C  6-Port  ) 
!S34(C  6-Port  ) 
!S35(C  6-Port  ) 
!S36(C  6-Port  ) 
!S41(C  6-Port  ) 
!S42(C  6-Port  ) 
!S43(C  6-Port  ) 
!S44(C  6-Port  ) 
!S45(C  6-Port  ) 
!S46(C  6-Port  ) 
!S51(C  6-Port  ) 
!S52(C  6-Port  ) 
!S53(C  6-Port  ) 
!S54(C  6-Port  ) 
!S55(C  6-Port  ) 
!S56(C  6-Port  ) 
!S61(C  6-Port  ) 
!S62(C  6-Port  ) 
!S63(C  6-Port  ) 
!S64(C  6-Port  ) 
!S65(C  6-Port  ) 
!S66(C  6-Port  ) 
!S6P File: Measurement: :
# Hz S  RI   R 50
500000000 -0.33721 -0.017718 -0.010657 -0.0032884 -0.0071865 0.012465 -0.0030402 0.012425
0.011041 0.0039968 -0.0028535 0.0094312
-0.0102 -0.0030464 -0.41967 -0.036462 0.0060815 -0.011513 0.0016937 0.012194
0.0070684 0.0022636 0.0023121 0.013477
-0.0070131 0.013178 0.006316 -0.011751 -0.26321 0.22323 0.0069542 0.0037105
-0.0010988 0.0081272 0.0021761 0.011853
-0.0026255 0.01159 0.0020182 0.011947 0.0066131 0.0037409 -0.33012 0.062244
-0.019578 -0.0062274 0.015317 0.02325
0.012692 0.0029458 0.0065729 0.0024849 -0.00064028 0.0086602 -0.01985 -0.0061099
-0.23655 -0.16404 -0.026242 0.004876
-0.0026894 0.0067926 0.0025515 0.013307 0.0012524 0.011772 0.015898 0.023199
-0.025344 0.0049549 -0.28508 -0.080739
560000000 -0.31398 0.13746 -0.027195 -0.060094 0.0011095 0.011415 0.0054142 0.010102
0.0089389 0.0042028 0.010015 0.006576
-0.028251 -0.059222 -0.37492 0.11847 -0.042734 -0.034369 0.013561 0.0028316
-0.01197 -0.0030479 0.0034568 -0.0011121
0.00049599 0.011059 -0.042304 -0.03441 -0.18007 0.26763 -7.581e-05 -0.0044235
0.018821 0.0039911 0.0070245 -0.0060115
0.0058672 0.0096039 0.013715 0.0031138 -0.00033821 -0.0047591 -0.3042 0.14872
0.00074233 -0.024282 0.0032381 -0.018496
0.0088738 0.0047125 -0.013016 -0.0036903 0.018733 0.0041871 0.00044777 -0.024254
-0.28841 0.0094628 0.0032187 -0.045954
0.0099744 0.0061255 0.0040999 -0.00054842 0.0070626 -0.006514 0.0032739 -0.018216
0.0024954 -0.046231 -0.33038 0.058755
620000000 -0.27031 0.12319 -0.023092 0.0074071 0.0042771 0.0082176 0.0077684 -0.0054192
0.011199 -0.0011919 0.00066171 -0.0028491
-0.023151 0.0076957 -0.40127 0.074002 -0.019506 0.00063145 -0.00086671 -0.0026483
0.010196 -0.0064205 0.0012432 -0.0029399
0.0043063 0.0078395 -0.019534 0.00067559 -0.14892 0.27729 -0.00093538 -0.005153
-0.003598 -0.0026425 0.008116 -0.0035318
0.0079367 -0.0052964 -0.0011839 -0.0021749 -0.0011793 -0.0050398 -0.26271 0.16099
-0.039777 -0.018001 0.011843 0.023403
0.010566 -0.001333 0.010422 -0.0065647 -0.0033207 -0.0027448 -0.039398 -0.017724
-0.21047 -0.028346 -0.039158 0.014623
0.00063653 -0.0031646 0.0011096 -0.0032082 0.0082217 -0.0038733 0.011654 0.023421
-0.038815 0.014662 -0.2564 0.030293
680000000 -0.22708 0.2049 -0.027955 -0.011447 0.0054814 0.0046314 0.0012417 -0.0072852
-0.0029844 -0.011448 0.003872 -0.0066325
-0.027503 -0.011714 -0.38402 0.16829 -0.032156 0.00075865 -0.0015638 -0.00047504
-0.0024857 -0.0088506 -0.0015184 -0.0021922
0.0058006 0.0045762 -0.032176 0.00088473 -0.097913 0.29475 -0.001096 -0.00030372
-0.0018269 -7.999e-05 -0.0036623 -0.008684
0.0010382 -0.0071585 -0.0011826 -0.00072046 -0.00096935 -0.00039579 -0.21639 0.20727
-0.026098 -0.0051026 -0.0089527 -0.0082283
-0.0031527 -0.011255 -0.0027789 -0.0089803 -0.0016203 -0.00017006 -0.026075 -0.0049402
-0.2512 0.068469 -0.0073885 -0.0068578
0.003921 -0.0064136 -0.0016018 -0.0016608 -0.0038268 -0.0082618 -0.0096403 -0.0077049
-0.0069513 -0.0068948 -0.25352 0.12654
740000000 -0.18343 0.20005 -0.03646 0.026413 0.011885 -0.0059839 -0.00070328 -0.0041081
-0.0049704 -0.0023822 -0.005842 0.003186
-0.036295 0.02627 -0.3334 0.18756 -0.032739 0.035152 -0.00098615 -0.0060133
-0.011603 0.0075665 -0.0021633 -0.0045851
0.0119 -0.0061133 -0.032857 0.03465 -0.064309 0.294 -0.0020176 0.0031268
-0.0030999 -0.0045255 -0.0021096 0.0012644
-0.00075586 -0.0042708 -0.0015881 -0.0059947 -0.0019708 0.0030928 -0.19855 0.21615
-0.041952 -0.0026251 0.022288 0.012325
-0.0046035 -0.0018165 -0.011985 0.007594 -0.0034551 -0.0046607 -0.041971 -0.0027614
-0.15655 0.089342 -0.038496 0.0031611
-0.0063627 0.002461 -0.0028903 -0.0051351 -0.002102 0.0013341 0.021912 0.011986
-0.038915 0.003036 -0.2418 0.13785
800000000 -0.14901 0.23705 -0.020964 0.017835 0.0046458 -0.010368 -0.0043327 -0.0015596
-0.003716 0.0029886 0.0038647 0.00093023
-0.021219 0.017778 -0.33246 0.25573 -0.0065243 0.033708 -0.0022838 0.0024976
-0.00077626 0.0037281 0.0010585 0.005593
0.0048443 -0.010581 -0.0064327 0.033703 -0.021664 0.31588 0.00088888 0.0017018
0.0005186 0.0036131 -0.00166 0.0012439
-0.004466 -0.0014948 -0.0021995 0.0023691 0.00090988 0.0016541 -0.16838 0.24247
-0.026589 0.016742 0.012346 -0.00994
-0.0039201 0.0029217 -0.00068802 0.0034731 0.00043055 0.0036665 -0.026708 0.01681
-0.19418 0.11595 -0.015345 0.019246
0.0038706 0.001022 0.0015424 0.0054582 -0.0016652 0.0013337 0.012757 -0.009755
-0.015436 0.019217 -0.22842 0.18131
860000000 -0.11486 0.25654 -0.015637 0.030835 -0.0037892 -0.0097713 -0.0017958 0.0012606
0.0046163 0.0045863 -0.0025045 -0.0022262
-0.015589 0.030484 -0.28516 0.2965 0.0095299 0.033036 0.00018435 0.0020746
0.0047741 0.00065675 0.0033604 0.00052226
-0.0038027 -0.0095233 0.0094738 0.033054 0.026619 0.32267 -0.00026608 -0.00011327
0.0026608 -0.0013995 0.0020581 0.0039522
-0.0022425 0.0012963 -4.923e-06 0.0023305 -0.00039827 -3.5582e-05 -0.13167 0.25326
-0.014962 0.020649 -0.0055783 -0.0092781
0.0042913 0.004689 0.0043309 0.00049562 0.0025496 -0.0016082 -0.014949 0.020557
-0.14196 0.16027 -0.021028 0.017311
-0.0027003 -0.0020415 0.0030528 0.00017932 0.0020475 0.0038811 -0.0055435 -0.0091421
-0.020717 0.017195 -0.17912 0.22064
920000000 -0.088357 0.27804 0.0064394 0.036418 -0.0093092 -0.003969 -0.0013749 0.0017836
0.0015443 0.0013395 0.0027802 -0.0018541
0.0064337 0.03644 -0.25473 0.31673 0.02834 0.019995 0.0017887 0.00094898
0.0070373 -0.000828 0.0034943 -0.00322
-0.0093754 -0.0038361 0.028379 0.019936 0.074064 0.32271 0.0019348 -0.00017683
0.0014061 -0.00066039 0.00067138 -0.0012964
-0.0014421 0.0016919 0.0017499 0.00090716 0.001946 -0.00024903 -0.10573 0.26905
-0.0070618 0.030763 0.0023175 -0.0066012
0.0018405 0.0015535 0.0070746 -0.00086065 0.0015806 -0.00062977 -0.0070112 0.030658
-0.1285 0.1674 -0.00035203 0.025717
0.0023495 -0.0016407 0.0037283 -0.0029297 0.00079207 -0.0012921 0.0022545 -0.006277
-0.00019068 0.025609 -0.17815 0.23645
980000000 -0.041027 0.29562 0.018714 0.028251 -0.0085361 0.0047596 0.0020118 0.002992
0.0038315 -0.0019532 -0.0030291 -0.0021711
0.018814 0.028133 -0.20299 0.34905 0.03256 0.0029872 0.0021497 -0.00025894
0.0015025 -0.0062176 -0.00048513 -0.0023177
-0.0085033 0.0046806 0.032509 0.0028803 0.12086 0.31473 0.00044365 -0.0013131
-2.1206e-07 -0.002205 0.0013269 -0.00030454
0.0020487 0.002957 0.0020846 -0.00031409 0.00042681 -0.0013091 -0.066864 0.27853
0.011068 0.028385 -0.0081314 -0.0058429
0.0038927 -0.0021343 0.0014781 -0.0060803 3.9097e-05 -0.0022458 0.011265 0.028591
-0.096148 0.19104 0.0067349 0.018473
-0.0031247 -0.0022323 -0.0007928 -0.0024009 0.0012814 -0.00018532 -0.0082889 -0.006026
0.0066083 0.018607 -0.13368 0.27327
1040000000 0.0018272 0.30265 0.033085 0.015456 -0.0011788 0.0066172 0.0024205 0.00051903
-3.3351e-05 -0.0031472 -0.00068609 -0.0014033
0.033069 0.01547 -0.16694 0.36234 0.027692 -0.015955 0.0014405 -0.0018626
-0.0025008 -0.0025552 -0.0016054 -0.0026124
-0.0011452 0.006653 0.027676 -0.016015 0.16771 0.30001 -0.00065256 -0.0014617
-0.001621 -0.00085307 -0.00053864 -0.0010203
0.0023687 0.00051828 0.0014465 -0.0017798 -0.00068242 -0.0014577 -0.037585 0.28742
0.021594 0.015367 -0.0026205 0.0011504
1.1444e-05 -0.0032919 -0.002393 -0.0025125 -0.0016452 -0.00076631 0.021602 0.01534
-0.063889 0.1971 0.014385 0.015815
-0.00089957 -0.0012723 -0.0016208 -0.0025649 -0.00054647 -0.00099075 -0.0026165 0.0011497
0.014257 0.015723 -0.10848 0.29315
1100000000 0.047262 0.30855 0.034376 -0.006147 0.0026623 0.0036045 0.0021167 -0.0010777
-0.0021192 -0.0028293 -0.0036092 0.00053323
0.034375 -0.0061767 -0.1235 0.37842 0.013267 -0.027941 -0.00010509 -0.0018189
-0.0035042 -0.00056627 -0.0034329 -0.0002231
0.0026733 0.0036253 0.013182 -0.027982 0.21485 0.27749 -0.00188 0.00024655
-0.0018364 0.00074663 -0.00093417 -4.101e-05
0.0021271 -0.0010512 -0.00014877 -0.0018198 -0.0018456 0.00027342 0.0038851 0.28994
0.02509 0.0017216 -0.0025922 -7.2334e-05
-0.0019205 -0.0029813 -0.0035024 -0.00052264 -0.0018824 0.00075194 0.025152 0.0017177
-0.044714 0.20805 0.018911 0.0057862
-0.0036745 0.00059392 -0.0033307 -0.00019813 -0.00099262 -0.00010523 -0.0026136 4.2104e-05
0.018839 0.0058518 -0.061327 0.31642
1160000000 0.098004 0.30235 0.021853 -0.021906 0.0022336 -0.00028183 -6.7501e-05 -0.0020428
-0.0040039 -0.00049117 -0.00071992 0.0037454
0.021891 -0.021857 -0.078741 0.38235 -0.0054428 -0.028116 -0.0017173 -0.0014722
-0.0026598 0.0026132 -0.0014215 0.0017655
0.0022043 -0.00031889 -0.0055106 -0.028143 0.25732 0.24456 -0.00063817 0.0017998
-0.00035023 0.0020452 -0.0008352 0.00019898
-4.7622e-05 -0.0020189 -0.0017227 -0.0014824 -0.00067379 0.0018173 0.043422 0.28485
0.020036 -0.013541 -0.0029569 0.0042596
-0.0039688 -0.00042103 -0.0027452 0.0025359 -0.00037361 0.0020429 0.019966 -0.013596
-0.011778 0.21479 0.017161 -0.0024648
-0.00062924 0.003699 -0.0011287 0.0018962 -0.00083615 0.00023679 -0.0030251 0.0042969
0.017149 -0.0025067 -0.014943 0.3172
1220000000 0.14271 0.28932 0.0078734 -0.029739 -0.0015798 -0.00028863 8.0358e-05 -0.00091267
-0.0024252 0.0023704 0.0014147 0.0018375
0.0078707 -0.029689 -0.034287 0.3929 -0.017538 -0.019608 -0.0024406 0.0005189
0.00017242 0.0029804 -0.00040134 0.0019495
-0.001598 -0.00030496 -0.017616 -0.019552 0.2958 0.20358 0.00091946 0.0018111
0.00071488 0.0012202 0.00038402 0.00041865
0.00012518 -0.00095065 -0.0024558 0.0005664 0.0008705 0.0017865 0.083934 0.27386
0.0084666 -0.019339 0.0012696 0.0014419
-0.0023589 0.0024192 0.00019566 0.003 0.0007208 0.0011552 0.0084698 -0.019356
0.012097 0.22173 0.011719 -0.014008
0.0014271 0.0019288 -0.00051403 0.0020208 0.00040105 0.00048728 0.0012359 0.0014529
0.011661 -0.014033 0.019074 0.32821
1280000000 0.19149 0.26582 -0.0097576 -0.026972 -0.0014516 0.0028963 -0.0009205 -0.0019564
-0.00064155 0.0029904 0.0024229 0.00083029
-0.0097306 -0.026979 0.011751 0.38292 -0.023485 -0.0070134 -0.00092275 0.0014818
0.0018554 0.0016925 0.00083271 0.0017374
-0.0014814 0.0029162 -0.023542 -0.0069324 0.32448 0.15812 0.0016434 -7.9334e-05
0.0011956 0.00016027 0.00031526 0.00021718
-0.00093292 -0.0019057 -0.00088468 0.0015053 0.0016517 -8.3787e-05 0.11981 0.25455
-0.001749 -0.020283 -0.0006633 0.00054695
-0.00054571 0.002957 0.0018416 0.0016772 0.0011938 0.0001318 -0.0018329 -0.020263
0.048281 0.22313 0.0010448 -0.015646
0.0024068 0.00082159 0.00072727 0.0017071 0.00025627 0.00016779 -0.00065289 0.00053111
0.001046 -0.015576 0.065107 0.32555
1340000000 0.22805 0.23056 -0.018532 -0.016737 0.0014762 0.0043834 -0.0017102 -0.00090524
0.0015195 0.0025312 0.001505 -0.0014546
-0.018492 -0.016774 0.051347 0.37314 -0.020677 0.005316 -6.8298e-05 0.002029
0.0019674 0.00058428 0.0013459 0.00062893
0.0014368 0.0043823 -0.020643 0.0053772 0.34486 0.10985 0.0011788 -0.0010706
0.00054532 -0.00054267 0.00011483 0.00021826
-0.0016912 -0.00081061 -6.8385e-05 0.0019972 0.0011954 -0.0010536 0.15119 0.23214
-0.011226 -0.016107 0.00045658 0.0012511
0.001418 0.0025363 0.0020396 0.00054113 0.00056682 -0.00057472 -0.011248 -0.016129
0.078044 0.21699 -0.0059306 -0.013197
0.0015624 -0.0014906 0.0013547 0.00058342 5.3346e-05 0.00020588 0.00045934 0.001267
-0.0058309 -0.013224 0.10377 0.31705
1400000000 0.26 0.19084 -0.022887 -0.005243 0.005461 0.0026568 -0.0021664 0.00062797
0.0024085 0.00077531 8.8782e-05 -0.0013891
-0.022851 -0.0052424 0.088015 0.35889 -0.013606 0.012745 0.0013798 0.0012823
0.0010953 -0.00095758 0.0010785 7.212e-06
0.0054606 0.0026162 -0.01355 0.012819 0.3569 0.056224 2.0265e-05 -0.0018775
1.3352e-05 -0.00044094 0.00034573 0.00020042
-0.0021679 0.00060726 0.0013755 0.0012763 3.2898e-05 -0.0018535 0.17913 0.20105
-0.016626 -0.0084817 -0.00039792 0.00064918
0.002443 0.00082873 0.0010494 -0.00098128 3.0242e-05 -0.00042044 -0.016664 -0.0084381
0.11015 0.21017 -0.011618 -0.0076516
2.1454e-05 -0.001372 0.0011483 -1.3326e-05 0.00034216 0.00019002 -0.00036906 0.00063785
-0.011623 -0.0076494 0.1461 0.30197
1460000000 0.28131 0.14613 -0.019115 0.0061687 0.0055489 -0.0022472 -0.0015322 0.0017252
0.0020656 -0.00072615 -0.00047146 -0.00089671
-0.01908 0.0062104 0.12155 0.33603 -0.0051182 0.014936 0.0017604 0.00010492
0.00069034 -0.0013107 0.0010124 -0.00062902
0.0055129 -0.0023036 -0.0050439 0.014933 0.36153 0.0021308 -0.0014826 -0.0012779
0.00011947 -0.00022157 0.00062685 -0.00032552
-0.001509 0.0016893 0.001757 8.412e-05 -0.001494 -0.0012846 0.20293 0.17046
-0.016959 -0.0010398 -2.1755e-05 0.0023046
0.0020615 -0.00069199 0.00067876 -0.0013129 0.00016154 -0.00019338 -0.01699 -0.0010048
0.13849 0.19387 -0.012572 -0.0013332
-0.00044548 -0.000893 0.00099819 -0.00066839 0.00060265 -0.00030682 -0.00011712 0.0023035
-0.012536 -0.0013721 0.17788 0.27879
1520000000 0.29227 0.10322 -0.012915 0.010926 0.0029349 -0.0043978 0.00015279 0.0026479
0.0018764 -0.0018164 -0.0010976 -5.6113e-05
-0.012897 0.010918 0.15431 0.32047 0.0020699 0.012417 0.00168 -0.00091622
-0.00011111 -0.0010271 0.00024774 -0.00089893
0.0029589 -0.0043634 0.0020916 0.012412 0.35457 -0.053898 -0.0013527 -0.00019568
0.00053216 -0.00087982 -8.8139e-06 -0.00015854
0.00018446 0.0026438 0.0016788 -0.00091593 -0.0013403 -0.00019736 0.2235 0.1319
-0.01508 0.0049824 0.0021103 0.0018758
0.0018302 -0.0017875 -9.0016e-05 -0.0010166 0.00053751 -0.00087472 -0.01507 0.0050116
0.16602 0.17818 -0.011892 0.0032787
-0.0010531 3.7086e-06 0.00017093 -0.00088038 -3.4186e-05 -0.00016582 0.0021626 0.0018781
-0.011875 0.0032429 0.20939 0.25532
1580000000 0.3 0.056488 -0.006341 0.013102 -0.0012487 -0.004787 0.001606 0.0019059
-0.00031339 -0.0021174 -0.0002276 0.00037627
-0.0063366 0.013108 0.18059 0.29507 0.0052485 0.0075828 0.00039763 -0.0017163
-0.00058012 -0.00086966 -0.00025106 -0.00072705
-0.0012351 -0.0047274 0.0052802 0.0075506 0.33387 -0.11146 -0.0015722 0.00096696
-0.00043291 -0.0011359 0.00010896 -0.00049531
0.0015669 0.0018339 0.0003689 -0.0017453 -0.001584 0.0010208 0.23455 0.092581
-0.010721 0.0094574 0.0026688 0.00021287
-0.00025989 -0.002164 -0.00059958 -0.00091759 -0.00039146 -0.0011386 -0.010714 0.0094639
0.18913 0.15797 -0.0088324 0.008401
-0.00031504 0.00032187 -0.00021026 -0.00082546 0.00012528 -0.00055388 0.0026558 0.00023016
-0.0088071 0.0083978 0.2386 0.22661
1640000000 0.30034 0.014928 -0.00018586 0.011257 -0.0029021 -0.0024374 0.0028191 0.00080931
-0.0009011 -0.0014519 -0.00023504 0.00053483
-0.00016039 0.011271 0.20928 0.26969 0.005694 0.0031374 -0.00090427 -0.0016864
-0.00094585 -0.00029597 -0.00053344 -0.00053483
-0.0029191 -0.0024355 0.0056869 0.0030972 0.30489 -0.16026 -0.00047404 0.0015669
-0.0012271 -0.00076949 -0.00014412 -0.00024714
0.0027832 0.00079364 -0.00088881 -0.0016775 -0.00048246 0.0015684 0.24425 0.045288
-0.0058659 0.010215 0.002568 -0.0013672
-0.00089247 -0.001466 -0.00099655 -0.00026528 -0.0012127 -0.00076754 -0.0058263 0.010215
0.2105 0.13209 -0.00376 0.010063
-0.0002287 0.00063076 -0.0005946 -0.00054393 -0.00025869 -0.00028451 0.002557 -0.0013485
-0.0038006 0.010072 0.26221 0.19393
1700000000 0.29135 -0.030422 0.0026204 0.0081363 -0.0034145 0.00025642 0.0029079 -0.001512
-0.0019747 -0.00057341 0.00067066 0.00034527
0.0026045 0.0081365 0.22665 0.23812 0.0036124 0.00042174 -0.0015355 -0.00041417
-0.00065037 0.00013362 -0.00085487 -0.00038546
-0.0034044 0.0003161 0.0036284 0.00039002 0.26119 -0.20038 0.00063157 0.0014863
-0.0018391 -5.7441e-05 -0.00057912 -0.00083617
0.0028981 -0.0015026 -0.001527 -0.0004083 0.00068204 0.0014384 0.2397 -0.0024808
-0.002731 0.010001 0.0013919 -0.0024988
-0.0019381 -0.00053405 -0.00064572 0.0001398 -0.0017741 -3.5648e-05 -0.0027201 0.010006
0.22631 0.11004 0.00092742 0.0099712
0.00065608 0.00037054 -0.00084201 -0.00035667 -0.00051206 -0.00074764 0.0013764 -0.0025476
0.00093739 0.0099529 0.27651 0.1583
1760000000 0.27773 -0.078247 0.0041163 0.0048329 -0.0021558 0.00097465 0.0009053 -0.0035212
-0.0013429 0.00080815 0.00044063 -0.00046269
0.0040997 0.0048823 0.25182 0.19796 0.0014203 -0.0013327 -0.0011935 0.00036559
-0.00093134 0.00080117 -0.0005636 0.00041955
-0.0021548 0.0010108 0.0013873 -0.0013087 0.21206 -0.2339 0.001274 0.00078989
-0.00098843 0.0015861 -0.0012606 -0.00042389
0.00087303 -0.0034871 -0.0012487 0.00038204 0.0012457 0.00081031 0.22996 -0.051327
0.00032414 0.0085978 -0.00048486 -0.0026908
-0.0013641 0.00080334 -0.00095122 0.00078068 -0.00099263 0.0015708 0.00033113 0.0086029
0.23895 0.073561 0.0046612 0.006966
0.00042256 -0.00040721 -0.00060538 0.00045423 -0.0012919 -0.00034061 -0.00053032 -0.0027082
0.0046264 0.0069486 0.28707 0.11968
1820000000 0.25176 -0.11469 0.0037427 0.0016846 -4.2861e-05 0.0024176 -0.0013429 -0.0028126
-0.00094316 0.0010721 -5.3164e-05 -8.4218e-05
0.0037232 0.0016726 0.26118 0.16812 -0.0004152 -7.3764e-06 -0.0010742 0.0010529
-3.909e-05 0.001188 -0.00052841 0.00053754
-6.9021e-05 0.0024346 -0.00039435 -6.5069e-06 0.1614 -0.24863 0.0013458 0.0001292
-6.4529e-05 0.0021481 -0.0013218 0.00049669
-0.0014097 -0.0028287 -0.0011107 0.0010211 0.0013797 0.00011081 0.20087 -0.096125
0.0015656 0.0066643 -0.0018012 -0.001571
-0.001012 0.0010803 -9.403e-06 0.0011861 2.2237e-05 0.0021655 0.0016007 0.0066744
0.25385 0.043457 0.0054548 0.0031677
-5.8903e-05 -4.2635e-07 -0.00046587 0.00052068 -0.0013483 0.00052015 -0.00175 -0.001521
0.005477 0.0031802 0.28728 0.082373
1880000000 0.21578 -0.15388 0.0012392 -1.8698e-06 -0.00040091 0.0021019 -0.0029329 -0.0017352
-0.00010271 0.0016272 0.00017819 -0.00047707
0.0012457 2.5092e-05 0.26517 0.12137 -0.0024328 0.0016135 5.3828e-05 0.0016443
0.00053003 0.0010946 0.00017319 0.0009039
-0.00038944 0.0020759 -0.0023766 0.0016342 0.10879 -0.25877 0.0014103 -0.00095968
0.001596 0.0016068 -0.00083282 0.0013944
-0.0028878 -0.0016616 3.5622e-05 0.0016441 0.001447 -0.00094279 0.16201 -0.13568
0.0019841 0.0044063 -0.0024843 0.00038346
-3.9087e-05 0.0016743 0.00054895 0.0010891 0.001589 0.0016153 0.0020076 0.0043771
0.25429 0.0096262 0.0050449 0.00087839
0.00026273 -0.00056808 0.00022019 0.00093139 -0.00082326 0.001394 -0.0024837 0.00036265
0.005025 0.00086287 0.28481 0.047631
1940000000 0.17622 -0.17911 -0.00087334 -0.0010438 0.0014911 0.0019733 -0.0035144 0.00078616
0.0015355 0.0010138 -0.00058586 -0.00054774
-0.00095191 -0.0010579 0.26487 0.089817 -0.0011619 0.0038482 0.0010149 0.0010223
0.0017195 0.00051277 0.00094741 0.00044215
0.0014402 0.0020717 -0.0011921 0.0038454 0.06246 -0.25182 0.00015943 -0.0017919
0.0023106 0.00024553 0.00058764 0.0018015
-0.0034359 0.00077412 0.0010557 0.0010599 0.00015967 -0.0018053 0.11089 -0.16583
0.0009644 0.0030146 -0.0016742 0.0015604
0.0015116 0.00095596 0.0016771 0.00050967 0.002303 0.00028307 0.00098862 0.0029953
0.25359 -0.029589 0.0035468 -0.0022031
-0.00060255 -0.00041694 0.00079855 0.00051132 0.00052217 0.0016939 -0.0016783 0.0015065
0.0035798 -0.0021615 0.27195 0.010995
2000000000 0.12957 -0.19333 -0.0042679 0.0012319 0.0025538 0.0014987 -0.0020209 0.0033192
0.0011505 2.7769e-05 -0.00053562 0.0004353
-0.0042753 0.0012911 0.25056 0.05425 -0.0010035 0.0057017 0.0014462 0.00017912
0.0013472 -0.0012165 0.00054278 -8.2019e-05
0.00258 0.0015609 -0.00097255 0.0056579 0.018358 -0.23708 -0.0011305 -0.00096791
0.0018091 -0.0010863 0.0018923 0.0009598
-0.00197 0.0034562 0.0014717 9.1711e-05 -0.001136 -0.0010247 0.058652 -0.17693
-0.00078261 0.0026936 -0.00017093 0.002337
0.0011295 4.5001e-05 0.0013702 -0.0013007 0.0018038 -0.001183 -0.0007469 0.0026753
0.2453 -0.063528 0.000311 -0.003094
