!Keysight Technologies,M9804A,MY58100912,A.14.10.03
!Date: Thursday, April 27, 2023 10:28:33
!Correction: S11(C  6-Port  ) 
!S12(C  6-Port  ) 
!S13(C  6-Port  ) 
!S14(C  6-Port  ) 
!S15(C  6-Port  ) 
!S16(C  6-Port  ) 
!S21(C  6-Port  ) 
!S22(C  6-Port  ) 
!S23(C  6-Port  ) 
!S24(C  6-Port  ) 
!S25(C  6-Port  ) 
!S26(C  6-Port  ) 
!S31(C  6-Port  ) 
!S32(C  6-Port  ) 
!S33(C  6-Port  ) 
!S34(C  6-Port  ) 
!S35(C  6-Port  ) 
!S36(C  6-Port  ) 
!S41(C  6-Port  ) 
!S42(C  6-Port  ) 
!S43(C  6-Port  ) 
!S44(C  6-Port  ) 
!S45(C  6-Port  ) 
!S46(C  6-Port  ) 
!S51(C  6-Port  ) 
!S52(C  6-Port  ) 
!S53(C  6-Port  ) 
!S54(C  6-Port  ) 
!S55(C  6-Port  ) 
!S56(C  6-Port  ) 
!S61(C  6-Port  ) 
!S62(C  6-Port  ) 
!S63(C  6-Port  ) 
!S64(C  6-Port  ) 
!S65(C  6-Port  ) 
!S66(C  6-Port  ) 
!S6P File: Measurement: :
# Hz S  RI   R 50
500000000 -0.3408 -0.018366 -0.011836 -0.0032099 -0.007797 0.013439 -0.0036509 0.012316
0.010994 0.0035868 -0.0032485 0.0087573
-0.011811 -0.0032222 -0.42068 -0.036624 0.0053043 -0.011269 0.0016172 0.012692
0.0065454 0.0026248 0.0018441 0.0138
-0.0077862 0.013437 0.005292 -0.011264 -0.26496 0.2236 0.0070581 0.0040618
-0.0014206 0.0088338 0.0020594 0.012395
-0.0036478 0.012316 0.0016301 0.01271 0.0070715 0.0040673 -0.33094 0.062635
-0.019933 -0.0064965 0.015422 0.023685
0.011043 0.0035733 0.0065444 0.0026057 -0.001426 0.0088367 -0.019932 -0.0064973
-0.23711 -0.16444 -0.025872 0.0043836
-0.0032544 0.0087586 0.001832 0.013798 0.0020769 0.012396 0.015418 0.023674
-0.025884 0.0043428 -0.2849 -0.079627
560000000 -0.31337 0.13732 -0.027867 -0.060301 0.0012294 0.012249 0.0056664 0.0097626
0.0091155 0.0045312 0.01065 0.0074911
-0.027852 -0.060271 -0.3766 0.11976 -0.043281 -0.033743 0.013516 0.0035515
-0.012716 -0.0038289 0.0033531 -0.00093899
0.0013984 0.012243 -0.043341 -0.033746 -0.1811 0.26904 6.9706e-05 -0.0039092
0.01954 0.0045663 0.0063761 -0.0062057
0.0056303 0.0098366 0.013557 0.0035512 6.4095e-05 -0.0039069 -0.30499 0.14938
0.0001312 -0.024042 0.0028522 -0.018352
0.0092109 0.0045549 -0.012757 -0.0038386 0.019561 0.0045564 0.00011336 -0.024058
-0.2888 0.0094946 0.0020279 -0.046341
0.010635 0.0074319 0.003333 -0.00094759 0.0063805 -0.0062097 0.0028306 -0.018361
0.0020298 -0.046352 -0.33058 0.059785
620000000 -0.27147 0.12382 -0.0238 0.0081636 0.0047931 0.0083886 0.0078062 -0.0052447
0.011354 -0.0012469 0.0015202 -0.0023879
-0.023768 0.0081613 -0.4023 0.074727 -0.019415 0.0013382 -0.00072718 -0.0023211
0.010775 -0.0061695 0.0017977 -0.0025361
0.0047884 0.0083743 -0.019421 0.001368 -0.14929 0.27889 -0.00074246 -0.0050113
-0.0028427 -0.0024876 0.0085422 -0.0038421
0.0077744 -0.0052673 -0.00073896 -0.0023245 -0.00073762 -0.005011 -0.26292 0.16173
-0.039854 -0.017643 0.012027 0.023703
0.011379 -0.0012556 0.010782 -0.0062034 -0.0028461 -0.0024768 -0.039877 -0.017627
-0.21153 -0.028377 -0.038971 0.015429
0.0015228 -0.0024596 0.0017896 -0.0025389 0.0085333 -0.0038388 0.012025 0.023682
-0.038958 0.015436 -0.25626 0.032495
680000000 -0.22826 0.20629 -0.027891 -0.010721 0.0058025 0.0046021 0.0013114 -0.0072433
-0.0028572 -0.011386 0.0041534 -0.0070271
-0.027848 -0.010736 -0.38436 0.16944 -0.031781 0.00093331 -0.0011407 -0.00075293
-0.0021578 -0.0092816 -0.0012873 -0.0023966
0.0058057 0.0046017 -0.031795 0.00097708 -0.097188 0.29592 -0.00081761 -0.00079404
-0.0014395 -0.00029762 -0.0032986 -0.0087351
0.0013239 -0.007216 -0.0011432 -0.00074596 -0.00081885 -0.00079 -0.21657 0.20804
-0.026062 -0.0043692 -0.0091816 -0.0077238
-0.0028897 -0.011389 -0.0021958 -0.0092854 -0.0014493 -0.0003003 -0.026097 -0.0043661
-0.25161 0.069884 -0.0075689 -0.0058266
0.004163 -0.0070852 -0.0012967 -0.0023869 -0.0033105 -0.0087325 -0.0092011 -0.0077199
-0.0075579 -0.0058249 -0.25399 0.12775
740000000 -0.18349 0.20156 -0.035608 0.027252 0.012408 -0.0059138 -0.00088306 -0.0039735
-0.0050791 -0.0029563 -0.0061648 0.0031086
-0.035615 0.02719 -0.33184 0.18815 -0.0323 0.035445 -0.00098869 -0.0065356
-0.011506 0.0077036 -0.0021884 -0.0052099
0.012375 -0.0059318 -0.032233 0.03553 -0.06337 0.29445 -0.0019316 0.002991
-0.0034286 -0.0043276 -0.0020775 0.00093654
-0.00088137 -0.0039821 -0.0010083 -0.0065334 -0.0019342 0.0029922 -0.19848 0.21699
-0.041978 -0.0029889 0.022201 0.012679
-0.0051883 -0.0029667 -0.011487 0.0077885 -0.003431 -0.0043152 -0.041989 -0.002939
-0.15752 0.090949 -0.038544 0.0041446
-0.006123 0.0031034 -0.0022262 -0.00521 -0.0020635 0.00091522 0.022216 0.012661
-0.038511 0.0041391 -0.24175 0.13805
800000000 -0.14907 0.23792 -0.020256 0.017857 0.0046791 -0.010629 -0.0042465 -0.0016593
-0.0041107 0.0027047 0.003334 0.00069919
-0.020263 0.017836 -0.33147 0.25639 -0.0060837 0.033433 -0.0022813 0.0023064
-0.0010291 0.0033848 0.00091049 0.0054368
0.0046736 -0.010624 -0.006021 0.03345 -0.02083 0.31558 0.00065884 0.0017943
0.00020935 0.0036508 -0.001635 0.0012324
-0.004248 -0.0016543 -0.0022661 0.0023147 0.00067142 0.0017926 -0.16795 0.24308
-0.026226 0.016966 0.012638 -0.010114
-0.0041148 0.0027002 -0.0010074 0.0033867 0.00022419 0.0036525 -0.026225 0.017026
-0.1941 0.11755 -0.014862 0.019792
0.0033326 0.0006822 0.00092604 0.0054479 -0.0016356 0.0012314 0.01263 -0.010141
-0.014877 0.01976 -0.22808 0.18319
860000000 -0.11378 0.25716 -0.014685 0.030709 -0.0035371 -0.0097483 -0.0018916 0.0011123
0.0044633 0.0049423 -0.0025281 -0.0020731
-0.014704 0.030674 -0.28395 0.29638 0.0097639 0.032914 9.6016e-05 0.0021353
0.0046558 0.00093153 0.0032435 0.00085164
-0.0035456 -0.0097423 0.0098347 0.032902 0.027067 0.32221 -0.00029856 8.0851e-05
0.0026561 -0.0011921 0.0019684 0.0038531
-0.0018973 0.0011008 9.7818e-05 0.0021244 -0.00029766 7.8795e-05 -0.13122 0.25343
-0.014574 0.021172 -0.005102 -0.008896
0.0044407 0.004904 0.0046499 0.00090888 0.0026478 -0.0011855 -0.014549 0.021216
-0.14105 0.1627 -0.020482 0.017348
-0.002549 -0.0020365 0.0032306 0.00083682 0.0019749 0.0038578 -0.0051055 -0.0088979
-0.020493 0.017308 -0.17866 0.22194
920000000 -0.087007 0.27786 0.0071771 0.035848 -0.0092145 -0.0043698 -0.0013774 0.0015014
0.0016467 0.0014607 0.0028448 -0.0018936
0.0071605 0.035799 -0.25384 0.31641 0.028534 0.019698 0.0017446 0.0010332
0.0072893 -0.00066099 0.003813 -0.0030799
-0.0092044 -0.0043578 0.028581 0.01964 0.074149 0.32237 0.0020262 -0.00015328
0.0016424 -0.0005731 0.00082844 -0.0014547
-0.0013928 0.0015096 0.0017408 0.0010239 0.0020295 -0.00015058 -0.10487 0.26902
-0.006602 0.030865 0.002649 -0.0064806
0.0016815 0.0014684 0.0073013 -0.00068682 0.0016427 -0.000576 -0.0065579 0.030892
-0.12754 0.16816 0.00053903 0.025599
0.0028335 -0.001912 0.0038144 -0.0031155 0.00083936 -0.0014642 0.0026414 -0.0064817
0.00052222 0.025578 -0.17703 0.23722
980000000 -0.040394 0.29494 0.019069 0.027538 -0.008686 0.0043851 0.0018275 0.0029024
0.0040317 -0.0019456 -0.002921 -0.0022887
0.019051 0.027486 -0.2023 0.34831 0.032665 0.0026457 0.0020731 -0.00021395
0.0017664 -0.0063071 -0.00051867 -0.0024788
-0.0086392 0.0043989 0.032679 0.0025584 0.12086 0.31453 0.00048658 -0.0013656
6.8627e-05 -0.0023238 0.0011703 -0.0003128
0.0018221 0.0029081 0.0020811 -0.00023918 0.00048781 -0.0013673 -0.065886 0.27793
0.011772 0.028121 -0.0083181 -0.0063342
0.0040139 -0.0019551 0.0017551 -0.006314 6.1928e-05 -0.0023243 0.011834 0.028112
-0.09469 0.19146 0.0070613 0.018033
-0.0029483 -0.0022762 -0.00050948 -0.0024936 0.0011828 -0.00031483 -0.0083207 -0.0063298
0.0070427 0.018043 -0.13279 0.27414
1040000000 0.0022066 0.30186 0.032921 0.014755 -0.0014459 0.0063463 0.0021816 0.00051819
-8.0898e-05 -0.0032489 -0.0008724 -0.0016553
0.032875 0.014732 -0.16687 0.36139 0.027688 -0.016329 0.0014545 -0.0018147
-0.0024431 -0.0028079 -0.0016931 -0.0027891
-0.0014252 0.0063555 0.027631 -0.016395 0.16774 0.29999 -0.00065859 -0.0015571
-0.0016823 -0.00093246 -0.0007044 -0.0010178
0.0021756 0.00051694 0.001452 -0.0018457 -0.00065357 -0.0015522 -0.037422 0.28665
0.021659 0.01498 -0.0028084 0.00076243
-9.0098e-05 -0.0032453 -0.0024505 -0.0028144 -0.0016933 -0.0009252 0.021698 0.014954
-0.063027 0.19677 0.014405 0.015147
-0.000892 -0.0016351 -0.0017113 -0.0028073 -0.00070375 -0.0010101 -0.0028064 0.00076148
0.014395 0.015149 -0.1075 0.29366
1100000000 0.047212 0.30782 0.034052 -0.0068138 0.0022749 0.0035295 0.0020432 -0.00083884
-0.002127 -0.0027103 -0.0037531 0.00058507
0.03401 -0.0068038 -0.12373 0.3774 0.013134 -0.028279 -0.00013701 -0.0018104
-0.0037659 -0.00068441 -0.0035416 -0.00013121
0.0022805 0.0035249 0.013056 -0.028326 0.21504 0.27746 -0.001898 0.00018197
-0.001965 0.00072067 -0.00094432 3.7038e-05
0.0020396 -0.00082742 -0.00013916 -0.0018159 -0.0018972 0.00017994 0.0037501 0.28921
0.024986 0.0014489 -0.0028928 -5.4775e-05
-0.002139 -0.0026958 -0.0037687 -0.00066942 -0.0019697 0.00072262 0.025006 0.0013986
-0.044062 0.2078 0.018653 0.0057686
-0.0037415 0.00061263 -0.0035379 -0.00013171 -0.00094629 3.5836e-05 -0.0028951 -5.0854e-05
0.018648 0.0057723 -0.060404 0.31666
1160000000 0.097648 0.30173 0.021228 -0.022329 0.0018114 -0.0001957 4.4944e-05 -0.0017963
-0.0039714 -0.00038738 -0.00065851 0.0039355
0.021216 -0.022305 -0.079665 0.382 -0.0057857 -0.028441 -0.0017245 -0.0015142
-0.0028857 0.0027575 -0.0013729 0.0019177
0.0018191 -0.00018958 -0.0058916 -0.028436 0.25759 0.24424 -0.00081898 0.0018475
-0.00042693 0.0021535 -0.00070368 0.00043889
2.4878e-05 -0.0017888 -0.0017311 -0.0015272 -0.00082611 0.0018478 0.042964 0.28446
0.019948 -0.013674 -0.0031297 0.0042272
-0.003994 -0.00035765 -0.0028793 0.0027676 -0.00044162 0.0021521 0.019955 -0.013721
-0.010842 0.21437 0.017493 -0.0028528
-0.0006596 0.0039357 -0.0013639 0.0019111 -0.00070204 0.00044202 -0.0031257 0.0042376
0.017489 -0.0028557 -0.013779 0.31699
1220000000 0.14219 0.28891 0.0069974 -0.029836 -0.0019657 0.00011282 0.00035162 -0.00093013
-0.0024285 0.00235 0.0014354 0.0020425
0.0070242 -0.029806 -0.035199 0.3929 -0.018003 -0.019592 -0.0024997 0.00047471
0.00014048 0.003227 -0.00044581 0.0020702
-0.0019547 0.00014017 -0.018079 -0.019545 0.29595 0.20304 0.00082624 0.0019555
0.00079017 0.0013189 0.00057973 0.00053071
0.00035089 -0.00093704 -0.0025024 0.00047728 0.00082751 0.0019579 0.083349 0.27388
0.0084103 -0.01953 0.0010752 0.0014566
-0.0024172 0.0023606 0.00015783 0.003228 0.00079832 0.0013219 0.0083969 -0.019553
0.012792 0.22076 0.011607 -0.014542
0.0014383 0.0020299 -0.00043748 0.0020668 0.00057864 0.00052944 0.0010761 0.0014587
0.011591 -0.014527 0.020144 0.32796
1280000000 0.19085 0.2655 -0.010567 -0.026697 -0.0015491 0.0034132 -0.00084821 -0.0021262
-0.00066262 0.0029682 0.0025125 0.00092758
-0.010538 -0.026675 0.010974 0.38338 -0.024043 -0.0069017 -0.0010959 0.0015139
0.0020224 0.0018554 0.00090091 0.0017617
-0.0015361 0.0034167 -0.024081 -0.0068201 0.32434 0.15749 0.001793 -1.6358e-05
0.0013553 0.00014959 0.00040135 9.5916e-05
-0.00084642 -0.0021186 -0.0010866 0.0015044 0.0017943 -1.4872e-05 0.11937 0.25477
-0.002067 -0.020497 -0.000827 0.00066133
-0.00064444 0.0029765 0.0020303 0.0018487 0.0013517 0.00015649 -0.0021038 -0.020522
0.048356 0.22199 0.00072554 -0.016014
0.0025225 0.00092341 0.00090325 0.0017613 0.00040078 9.5857e-05 -0.00082532 0.00067182
0.00073123 -0.016012 0.065692 0.32528
1340000000 0.2273 0.23066 -0.019155 -0.015911 0.0016792 0.0048634 -0.0017789 -0.0010601
0.001502 0.0025697 0.0016585 -0.0015589
-0.019118 -0.015911 0.051022 0.37385 -0.020965 0.0057968 -5.3156e-05 0.0021499
0.0022193 0.00048906 0.0014627 0.00061541
0.0017023 0.004855 -0.020958 0.0058806 0.34448 0.10927 0.0013838 -0.0010973
0.00067263 -0.00064436 6.4024e-05 0.00016181
-0.0017883 -0.00107 -4.1904e-05 0.0021429 0.0013875 -0.0010946 0.15093 0.23267
-0.011575 -0.016235 0.00032279 0.0014588
0.0015194 0.0025726 0.0022253 0.00048034 0.0006714 -0.00064528 -0.011614 -0.016225
0.077785 0.2159 -0.006357 -0.013603
0.0016565 -0.0015554 0.0014652 0.00059974 6.2289e-05 0.00016375 0.00032989 0.0014588
-0.006356 -0.013592 0.10466 0.31638
1400000000 0.25943 0.19151 -0.022957 -0.0042075 0.0058533 0.0029432 -0.0022555 0.00061085
0.0023974 0.00079114 9.4545e-05 -0.0015747
-0.022924 -0.0042145 0.088071 0.35969 -0.013631 0.013308 0.001512 0.0013302
0.001205 -0.0011665 0.0011054 -4.4617e-05
0.0058623 0.0029331 -0.013592 0.013364 0.35621 0.055887 0.00010971 -0.0020774
3.2751e-05 -0.00044406 0.0003368 0.00012332
-0.0022535 0.00062136 0.0015202 0.0013299 0.00010661 -0.0020815 0.1792 0.20157
-0.017035 -0.0083986 -0.0003199 0.00093046
0.0023952 0.0007853 0.0011991 -0.0011738 3.3418e-05 -0.00045138 -0.017064 -0.0083579
0.10945 0.20943 -0.012225 -0.0076422
8.9517e-05 -0.0015674 0.0011087 -5.3891e-05 0.00033328 0.00012033 -0.00031605 0.00092735
-0.012211 -0.0076353 0.14679 0.30119
1460000000 0.28113 0.14672 -0.018613 0.0071122 0.006005 -0.0022644 -0.0016155 0.0017986
0.002137 -0.0006176 -0.00056208 -0.00088024
-0.018603 0.0070949 0.12198 0.33658 -0.0047897 0.015478 0.0018705 1.8792e-05
0.00055588 -0.001429 0.00099175 -0.00062742
0.0059985 -0.0022782 -0.0047318 0.015502 0.36078 0.0021761 -0.0015917 -0.0014388
0.00012034 -0.00021777 0.00062345 -0.00032779
-0.0016262 0.0017974 0.0018705 2.5693e-05 -0.0015986 -0.0014482 0.20318 0.17087
-0.017383 -0.00065109 4.6316e-05 0.0024415
0.0021258 -0.00063785 0.00054815 -0.001428 0.00011688 -0.00021884 -0.0174 -0.00061292
0.13761 0.19365 -0.013099 -0.0010686
-0.00055066 -0.00088783 0.0009897 -0.00064167 0.00061841 -0.00033021 4.3303e-05 0.0024408
-0.013098 -0.0010695 0.17836 0.27812
1520000000 0.29271 0.10386 -0.012016 0.011456 0.0034154 -0.004642 0.00016301 0.0027153
0.001982 -0.0018552 -0.001173 -2.7479e-05
-0.012019 0.011434 0.15486 0.32072 0.0025296 0.012657 0.0016875 -0.0010811
-0.00018895 -0.0010186 0.00025277 -0.00096839
0.0034015 -0.0046492 0.0025807 0.012654 0.35388 -0.053485 -0.0015283 -0.00019867
0.00052583 -0.00088519 -3.1473e-05 -0.00018484
0.00016506 0.0027156 0.0016822 -0.0010895 -0.0015262 -0.00020527 0.22399 0.13214
-0.015208 0.0054763 0.0023342 0.0020014
0.0019714 -0.0018667 -0.00019964 -0.0010196 0.00053147 -0.00088181 -0.015205 0.0055165
0.16527 0.17825 -0.012214 0.0037215
-0.0011744 -2.7454e-05 0.0002482 -0.00096943 -3.0177e-05 -0.00018785 0.0023318 0.0019948
-0.012218 0.0037189 0.20959 0.25451
1580000000 0.3004 0.056786 -0.0053734 0.013022 -0.0009103 -0.0052918 0.0016239 0.0018754
-0.0002882 -0.00226 -0.00021673 0.00049822
-0.0053819 0.013012 0.18112 0.29491 0.0058034 0.0075634 0.00023934 -0.0018176
-0.00063137 -0.00081045 -0.00026839 -0.00081191
-0.00092556 -0.0052745 0.0058299 0.0075496 0.33353 -0.11068 -0.001734 0.0011192
-0.000419 -0.0011641 7.8096e-05 -0.00066656
0.0016222 0.0018663 0.00023028 -0.0018245 -0.001735 0.0011084 0.23501 0.092566
-0.010645 0.0099819 0.0028527 0.00018652
-0.00030378 -0.002257 -0.00063795 -0.00080656 -0.00042594 -0.0011588 -0.010635 0.010022
0.18854 0.15845 -0.0089604 0.0089169
-0.00021076 0.00050421 -0.00027148 -0.00080731 7.476e-05 -0.00066804 0.0028574 0.00018603
-0.008965 0.0089111 0.23852 0.22595
1640000000 0.3009 0.014909 0.00058565 0.010798 -0.0029993 -0.0029887 0.0027986 0.00081416
-0.00098511 -0.0015405 -0.00013563 0.00057138
0.00057569 0.010792 0.20953 0.26948 0.0060513 0.002862 -0.0010336 -0.0016242
-0.00092648 -0.00021349 -0.00056132 -0.00058847
-0.003011 -0.0029728 0.0060625 0.0028354 0.30487 -0.15942 -0.00043153 0.0017249
-0.0013392 -0.00075928 -0.00029262 -0.00026608
0.0028094 0.00081844 -0.0010459 -0.0016202 -0.00043064 0.0017195 0.2447 0.045061
-0.0055256 0.010627 0.002699 -0.0014269
-0.00097927 -0.001535 -0.00094044 -0.00021139 -0.0013515 -0.00075236 -0.0054999 0.010649
0.21025 0.13266 -0.0037116 0.010588
-0.00013148 0.00056818 -0.0005745 -0.00059086 -0.00029611 -0.00026549 0.0026905 -0.0014332
-0.0037139 0.010594 0.26207 0.19337
1700000000 0.29176 -0.030632 0.0030051 0.0074244 -0.0038295 -9.5754e-05 0.0029582 -0.0014703
-0.0020975 -0.00058859 0.00077909 0.00023567
0.0029948 0.0074142 0.2268 0.23787 0.0039532 -1.1135e-05 -0.0015944 -0.00028004
-0.00062667 0.00010202 -0.00093154 -0.00035337
-0.003824 -8.606e-05 0.0039428 -2.6775e-05 0.26206 -0.19959 0.00082603 0.0014716
-0.0019622 2.1932e-05 -0.00076599 -0.00076589
0.0029588 -0.0014713 -0.0015942 -0.00027866 0.00082524 0.0014768 0.23999 -0.0029539
-0.0022597 0.010182 0.0014683 -0.0025974
-0.0021104 -0.00056548 -0.00062838 0.00010518 -0.0019609 2.3316e-05 -0.0022345 0.010203
0.22626 0.11061 0.0011746 0.010406
0.00078256 0.00022895 -0.00092818 -0.00035344 -0.00077315 -0.00076334 0.0014615 -0.0025944
0.0011966 0.010416 0.27631 0.15796
1760000000 0.27795 -0.07874 0.0041933 0.0040743 -0.0026252 0.0010004 0.00092718 -0.0035976
-0.0013728 0.00090097 0.00033348 -0.00056818
0.0041866 0.0040717 0.25184 0.19778 0.0014993 -0.0017312 -0.0011086 0.00044881
-0.00092861 0.0007615 -0.00058355 0.00049978
-0.0026196 0.0010033 0.0014861 -0.0017424 0.21271 -0.23343 0.0014557 0.00071301
-0.0010664 0.0018714 -0.0013102 -0.00016422
0.00091782 -0.0036003 -0.0011094 0.0004511 0.0014605 0.00071335 0.23003 -0.051823
0.00083372 0.0085566 -0.00044778 -0.0028132
-0.00138 0.00090781 -0.00092374 0.00077393 -0.0010635 0.0018731 0.00085281 0.0085596
0.23921 0.074176 0.0050386 0.0072992
0.00033232 -0.00057687 -0.00058147 0.00050077 -0.0013157 -0.0001603 -0.00045097 -0.0028124
0.0050414 0.0072868 0.28696 0.11959
1820000000 0.25189 -0.11514 0.0034358 0.0010169 -0.00037206 0.0025374 -0.0014021 -0.0028964
-0.000882 0.0011484 -0.00017278 -8.3953e-05
0.0034331 0.0010085 0.26116 0.16798 -0.00064097 -0.00054978 -0.0009956 0.0010804
-0.00010969 0.0011937 -0.00048168 0.00059971
-0.00036422 0.0025473 -0.00064991 -0.00054686 0.16201 -0.24935 0.0012602 1.4191e-05
0.00016728 0.0022247 -0.0012044 0.00073848
-0.001414 -0.0028944 -0.00099357 0.001075 0.001256 1.2043e-05 0.2009 -0.096563
0.0020917 0.006453 -0.0017097 -0.0017601
-0.00087129 0.00115 -9.0501e-05 0.0011926 0.00017435 0.0022219 0.0021152 0.006449
0.25433 0.04388 0.0060475 0.0033047
-0.00017257 -7.6146e-05 -0.00047922 0.00060066 -0.0012065 0.00073755 -0.0017206 -0.0017485
0.0060515 0.0032976 0.28727 0.082091
1880000000 0.21556 -0.15439 0.00071832 -0.00051175 -0.00071195 0.0023152 -0.0030873 -0.0017528
2.0596e-06 0.0016096 0.00020152 -0.00031576
0.00072334 -0.00051231 0.26514 0.12124 -0.0029121 0.0014046 7.1364e-05 0.0015569
0.00046279 0.0011681 0.00018797 0.00095859
-0.00069113 0.0023216 -0.0029044 0.0014175 0.1086 -0.25913 0.0013346 -0.0010482
0.0017298 0.0015356 -0.00067465 0.0014706
-0.0030772 -0.0017475 7.2787e-05 0.0015588 0.0013367 -0.0010536 0.16171 -0.13613
0.0022994 0.0038936 -0.0025784 8.5061e-05
1.2841e-05 0.0016056 0.00046587 0.0011727 0.0017247 0.0015321 0.0023066 0.0038944
0.25492 0.0098768 0.0055642 0.00073743
0.00019605 -0.00031474 0.00019256 0.00095464 -0.00066706 0.00147 -0.0025737 9.2155e-05
0.0055643 0.00073077 0.28488 0.047499
1940000000 0.17574 -0.17913 -0.0015535 -0.0012591 0.0014502 0.0024228 -0.0035241 0.00085278
0.0015068 0.00095251 -0.00049355 -0.00034849
-0.0015507 -0.0012572 0.26487 0.08974 -0.0017312 0.0040658 0.0010136 0.001011
0.0016741 0.0006056 0.00082254 0.00046651
0.0014519 0.0024003 -0.0017134 0.0040755 0.062202 -0.25168 0.0001435 -0.0017025
0.0023132 0.00011737 0.00052868 0.0015904
-0.0035139 0.00086074 0.0010174 0.0010085 0.00014501 -0.0017087 0.11044 -0.16611
0.00094525 0.0024503 -0.0019335 0.0013458
0.0015347 0.00094297 0.0016751 0.00060075 0.0023248 0.00011461 0.00094336 0.0024461
0.25423 -0.029745 0.003999 -0.002602
-0.00049641 -0.00034662 0.00083034 0.00045654 0.00052485 0.001591 -0.0019321 0.0013514
0.0040027 -0.0026141 0.27202 0.010775
2000000000 0.12932 -0.19319 -0.0050811 0.0014176 0.002756 0.0018414 -0.002147 0.0034865
0.0010501 -0.00010163 -0.00034008 0.0003765
-0.0050728 0.0014101 0.25057 0.054228 -0.0012647 0.0061439 0.0014042 0.00010534
0.0014585 -0.0011518 0.00065864 8.1655e-05
0.0027634 0.0018385 -0.0012326 0.0061542 0.018551 -0.23698 -0.0010926 -0.0010099
0.0016659 -0.0012141 0.0019567 0.00088172
-0.0021224 0.0035008 0.001406 9.9292e-05 -0.0010957 -0.00099948 0.058078 -0.1769
-0.0011453 0.0021696 -0.00044306 0.0023361
0.001038 -0.00010647 0.0014508 -0.0011627 0.0016613 -0.0012199 -0.0011455 0.0021806
0.24575 -0.064004 0.00053751 -0.0036301
