!Keysight Technologies,M9804A,MY58100912,A.14.10.03
!Date: Thursday, April 27, 2023 10:28:33
!Correction: S11(C  6-Port  ) 
!S12(C  6-Port  ) 
!S13(C  6-Port  ) 
!S14(C  6-Port  ) 
!S15(C  6-Port  ) 
!S16(C  6-Port  ) 
!S21(C  6-Port  ) 
!S22(C  6-Port  ) 
!S23(C  6-Port  ) 
!S24(C  6-Port  ) 
!S25(C  6-Port  ) 
!S26(C  6-Port  ) 
!S31(C  6-Port  ) 
!S32(C  6-Port  ) 
!S33(C  6-Port  ) 
!S34(C  6-Port  ) 
!S35(C  6-Port  ) 
!S36(C  6-Port  ) 
!S41(C  6-Port  ) 
!S42(C  6-Port  ) 
!S43(C  6-Port  ) 
!S44(C  6-Port  ) 
!S45(C  6-Port  ) 
!S46(C  6-Port  ) 
!S51(C  6-Port  ) 
!S52(C  6-Port  ) 
!S53(C  6-Port  ) 
!S54(C  6-Port  ) 
!S55(C  6-Port  ) 
!S56(C  6-Port  ) 
!S61(C  6-Port  ) 
!S62(C  6-Port  ) 
!S63(C  6-Port  ) 
!S64(C  6-Port  ) 
!S65(C  6-Port  ) 
!S66(C  6-Port  ) 
!S6P File: Measurement: :
# Hz S  RI   R 50
500000000 -0.34077 -0.018457 -0.011837 -0.0032247 -0.0077973 0.013411 -0.0036742 0.01229
0.011034 0.003579 -0.0032446 0.0087573
-0.011822 -0.0032227 -0.42056 -0.036629 0.0053563 -0.011298 0.0015918 0.012732
0.0065689 0.0026113 0.0017816 0.013798
-0.0077816 0.013404 0.0053521 -0.011309 -0.26491 0.22353 0.0070732 0.0040875
-0.0014291 0.0088135 0.0021125 0.012434
-0.0036789 0.012291 0.0015991 0.012733 0.0070742 0.0040837 -0.33098 0.062545
-0.019923 -0.0065064 0.015451 0.023629
0.011029 0.0035571 0.0065749 0.0025839 -0.0014491 0.0088127 -0.019966 -0.0065327
-0.23695 -0.16446 -0.025905 0.0043228
-0.0032432 0.0087181 0.0017603 0.013807 0.0020764 0.012441 0.015426 0.023633
-0.025883 0.0043419 -0.28468 -0.079773
560000000 -0.31334 0.13734 -0.027874 -0.060359 0.0013501 0.012243 0.0056267 0.0098365
0.0092444 0.0045247 0.010599 0.0074489
-0.02783 -0.060286 -0.37649 0.11972 -0.043265 -0.033902 0.013627 0.0035624
-0.012828 -0.003899 0.0033127 -0.00096028
0.0013614 0.012223 -0.043346 -0.03386 -0.18107 0.26906 -3.7783e-05 -0.0039078
0.019598 0.0046411 0.0064294 -0.0062285
0.0056385 0.0098504 0.01363 0.0035424 -4.1709e-05 -0.0039128 -0.30505 0.14932
5.2765e-05 -0.024065 0.0028428 -0.018318
0.0092385 0.0045256 -0.012793 -0.0038979 0.019604 0.0046501 3.4403e-05 -0.024057
-0.28878 0.0095233 0.0021413 -0.04647
0.010597 0.0074401 0.0032668 -0.0010136 0.0064429 -0.0062063 0.0028522 -0.018338
0.0021579 -0.046484 -0.33054 0.059724
620000000 -0.27149 0.12372 -0.023757 0.0081274 0.0047536 0.0083677 0.007761 -0.0052119
0.011354 -0.0013471 0.0015051 -0.0025622
-0.02373 0.0081228 -0.40224 0.074599 -0.01945 0.0012836 -0.00073726 -0.0023053
0.010722 -0.0061831 0.0017483 -0.0025435
0.0047867 0.008346 -0.019458 0.0013084 -0.14932 0.27879 -0.00070891 -0.004976
-0.0028747 -0.0024734 0.008485 -0.0038146
0.0077502 -0.0052033 -0.000738 -0.0023039 -0.00071369 -0.0049834 -0.2629 0.1617
-0.039872 -0.017607 0.01198 0.023766
0.011348 -0.0013521 0.010716 -0.0062064 -0.0028956 -0.0024631 -0.03996 -0.017604
-0.21157 -0.028541 -0.039025 0.015349
0.0015461 -0.002546 0.0017306 -0.0025609 0.0084887 -0.0037829 0.011991 0.023723
-0.039049 0.015367 -0.25648 0.032314
680000000 -0.22825 0.20623 -0.027879 -0.010789 0.0057735 0.0045858 0.0013537 -0.007198
-0.0029106 -0.011392 0.0041284 -0.0070077
-0.027847 -0.0108 -0.38435 0.16931 -0.031807 0.00091111 -0.0011212 -0.00073511
-0.0022142 -0.0092312 -0.0013158 -0.002342
0.0057735 0.004578 -0.031815 0.00096051 -0.097214 0.29587 -0.00080706 -0.00076857
-0.0014523 -0.00025893 -0.0032923 -0.0087121
0.0013563 -0.0072078 -0.0011301 -0.00073187 -0.00079967 -0.00076893 -0.21657 0.20809
-0.026138 -0.004409 -0.0092287 -0.0076799
-0.0029248 -0.011385 -0.002211 -0.0092461 -0.0014229 -0.00027066 -0.02617 -0.004379
-0.25162 0.069788 -0.0075016 -0.0058801
0.0041103 -0.0070356 -0.0013118 -0.0023149 -0.0033004 -0.0087231 -0.0092848 -0.007657
-0.0075099 -0.0059015 -0.25394 0.12749
740000000 -0.18356 0.20146 -0.035645 0.027248 0.01237 -0.0059148 -0.0008625 -0.0039629
-0.005109 -0.0029287 -0.0061424 0.0031431
-0.035633 0.027192 -0.33184 0.18804 -0.032295 0.035489 -0.0009855 -0.0065574
-0.011455 0.0077862 -0.0021927 -0.0052317
0.012354 -0.005916 -0.032234 0.035551 -0.063457 0.29444 -0.0019048 0.0029861
-0.0034066 -0.0042897 -0.0020897 0.00094225
-0.0008593 -0.0039657 -0.0010087 -0.0065515 -0.0019056 0.0029899 -0.1985 0.21696
-0.041963 -0.0029844 0.022169 0.012717
-0.0050961 -0.0029373 -0.011436 0.0078251 -0.0033954 -0.0043039 -0.042056 -0.0029209
-0.15738 0.090837 -0.038666 0.0041049
-0.0061568 0.0031529 -0.0022253 -0.0052086 -0.0021 0.00094978 0.022195 0.012711
-0.038663 0.0040796 -0.24174 0.13793
800000000 -0.14907 0.23789 -0.020306 0.017871 0.0046991 -0.010607 -0.0042404 -0.0016685
-0.0040841 0.002679 0.0033594 0.00069806
-0.0203 0.017855 -0.33156 0.25634 -0.0061329 0.033456 -0.0022775 0.0022946
-0.00098218 0.0033858 0.00091173 0.00543
0.0046742 -0.010612 -0.0060739 0.033481 -0.02089 0.3156 0.00066654 0.0017775
0.00023284 0.0036177 -0.0016624 0.0011922
-0.004231 -0.0016614 -0.0022705 0.002301 0.00066476 0.001783 -0.16795 0.2431
-0.026242 0.016979 0.012665 -0.010095
-0.0040668 0.0027016 -0.00097784 0.0033573 0.00023434 0.0036128 -0.026255 0.017094
-0.19421 0.11742 -0.014915 0.019763
0.0033921 0.00069239 0.00091413 0.0054325 -0.0016614 0.0012081 0.012679 -0.010084
-0.014939 0.019749 -0.22814 0.18302
860000000 -0.11384 0.25709 -0.014718 0.030736 -0.0035301 -0.0097381 -0.0018915 0.001114
0.0044429 0.0049151 -0.0025438 -0.0020619
-0.014717 0.030717 -0.28402 0.29633 0.009738 0.032934 0.0001183 0.0021219
0.0046153 0.00083713 0.0031942 0.0008687
-0.0035453 -0.0097215 0.0097958 0.032919 0.027035 0.32221 -0.00030244 8.3905e-05
0.0026422 -0.0012231 0.0019622 0.0038637
-0.0018784 0.0011172 0.00011976 0.0021098 -0.00030152 8.8117e-05 -0.1312 0.25344
-0.014596 0.021199 -0.0051113 -0.0088968
0.0044611 0.0049043 0.0046252 0.00082191 0.0026377 -0.0012245 -0.014585 0.021285
-0.14116 0.16263 -0.020582 0.017334
-0.002557 -0.002074 0.0032034 0.00084123 0.0019602 0.0038628 -0.0050991 -0.0088904
-0.020588 0.017306 -0.17873 0.22184
920000000 -0.087076 0.27784 0.0071632 0.035877 -0.0091883 -0.0043631 -0.0013958 0.0015181
0.0016444 0.0014968 0.0028344 -0.001881
0.0071437 0.035847 -0.25391 0.3164 0.028516 0.01973 0.0017547 0.0010474
0.0072396 -0.00060088 0.0038213 -0.0031055
-0.0091942 -0.0043401 0.028574 0.019689 0.074116 0.32237 0.0020316 -0.00014998
0.0016247 -0.00056605 0.00083409 -0.0014757
-0.0013894 0.0015247 0.0017579 0.0010311 0.0020297 -0.00014972 -0.10492 0.269
-0.0066215 0.030856 0.0026568 -0.0064761
0.001634 0.0014753 0.0072577 -0.00063137 0.0016317 -0.00056385 -0.0065469 0.030928
-0.12774 0.16803 0.00049019 0.025588
0.0028437 -0.0018852 0.0038113 -0.0031155 0.00084235 -0.0014792 0.0026676 -0.0064924
0.00046752 0.025584 -0.1772 0.2371
980000000 -0.040476 0.29495 0.019051 0.027548 -0.0086529 0.0044056 0.0018283 0.0028977
0.0039798 -0.0019288 -0.0029503 -0.0022837
0.019023 0.027556 -0.20233 0.34834 0.032671 0.0026399 0.0020807 -0.00021546
0.0017525 -0.0062933 -0.00050948 -0.0024776
-0.0086472 0.0044084 0.032693 0.0025844 0.12086 0.31451 0.00049007 -0.0013754
7.4911e-05 -0.0023053 0.0011828 -0.00030186
0.0018191 0.0028992 0.0020959 -0.00023583 0.00049491 -0.0013714 -0.065903 0.27794
0.01179 0.028166 -0.008291 -0.0063554
0.003958 -0.0019393 0.0017499 -0.0062931 8.1417e-05 -0.0022977 0.011892 0.028203
-0.09481 0.19145 0.0070046 0.01803
-0.0029508 -0.0022604 -0.00052967 -0.0024826 0.0011918 -0.00029882 -0.0082885 -0.0063409
0.0069888 0.018033 -0.13295 0.27408
1040000000 0.0021393 0.30183 0.032919 0.014792 -0.001415 0.0063816 0.0021805 0.00051038
-7.4534e-05 -0.0032385 -0.0008894 -0.0016353
0.032907 0.014808 -0.16686 0.36139 0.027672 -0.016317 0.0014597 -0.0018169
-0.0024591 -0.0027957 -0.00168 -0.0027959
-0.0014107 0.00636 0.027664 -0.016375 0.16774 0.29999 -0.00065341 -0.0015574
-0.0016837 -0.00093955 -0.0006928 -0.0010178
0.0021778 0.00052365 0.0014512 -0.0018463 -0.00065533 -0.0015542 -0.037416 0.28664
0.021675 0.015024 -0.0028061 0.00075424
-9.6383e-05 -0.0032349 -0.0024362 -0.002802 -0.0016703 -0.00093536 0.021785 0.015009
-0.063114 0.19683 0.014382 0.015175
-0.00088952 -0.0016254 -0.0017042 -0.0028092 -0.00069183 -0.0010206 -0.0028 0.00076339
0.014382 0.015174 -0.10761 0.29362
1100000000 0.04716 0.30782 0.034056 -0.0067753 0.0022779 0.0035523 0.0020516 -0.00082946
-0.0021063 -0.0027044 -0.0037374 0.00059423
0.034031 -0.0067492 -0.12377 0.3774 0.013153 -0.028281 -0.00013592 -0.0018095
-0.003718 -0.00069848 -0.0035084 -0.00014644
0.0022942 0.0035475 0.013091 -0.028318 0.21502 0.27746 -0.0019024 0.0001931
-0.0019719 0.00071644 -0.00094627 3.6822e-05
0.0020502 -0.0008264 -0.00013761 -0.0018117 -0.001906 0.00019272 0.0037233 0.28919
0.025064 0.0014429 -0.002879 -5.4268e-05
-0.0021212 -0.0026926 -0.00373 -0.00067423 -0.0019733 0.00070663 0.025145 0.0013812
-0.044112 0.20791 0.018638 0.005799
-0.0037209 0.00060498 -0.0035163 -0.00013522 -0.00094981 3.239e-05 -0.0028696 -6.1945e-05
0.018634 0.0058047 -0.060533 0.3166
1160000000 0.097635 0.30174 0.021274 -0.022298 0.0018404 -0.00017899 4.1949e-05 -0.0017932
-0.0039781 -0.00036977 -0.00067942 0.0039385
0.021289 -0.022256 -0.079656 0.382 -0.0057697 -0.028472 -0.0017289 -0.0015184
-0.0028961 0.002732 -0.001351 0.0019153
0.0018438 -0.00019333 -0.0058492 -0.02845 0.25759 0.24426 -0.00084267 0.0018561
-0.0004463 0.0021478 -0.00069273 0.00042251
2.8898e-05 -0.001787 -0.0017324 -0.00152 -0.00084746 0.0018542 0.042965 0.28446
0.020026 -0.01369 -0.0031139 0.0042324
-0.0039982 -0.0003727 -0.0028878 0.0027432 -0.00045308 0.0021611 0.020091 -0.013794
-0.010807 0.21449 0.017495 -0.0028194
-0.00067394 0.0039349 -0.0013643 0.0019136 -0.00070002 0.00042648 -0.00312 0.0042293
0.017492 -0.0028171 -0.013907 0.31696
1220000000 0.14218 0.28892 0.0070656 -0.029828 -0.0019261 0.00012023 0.00036005 -0.00094011
-0.0024198 0.002338 0.001429 0.0020255
0.0070864 -0.029785 -0.035182 0.39287 -0.01798 -0.019629 -0.0025022 0.00046719
0.00014211 0.0032098 -0.00044144 0.0020621
-0.0019285 0.0001183 -0.018035 -0.019577 0.29593 0.20304 0.00083931 0.001954
0.00078935 0.0013461 0.00057462 0.00054223
0.00035666 -0.00093494 -0.0024995 0.00047546 0.00083239 0.0019535 0.083305 0.27385
0.0084595 -0.019593 0.0011 0.0014493
-0.0024169 0.0023425 0.000146 0.0032183 0.00078659 0.0013417 0.00847 -0.019701
0.012864 0.22091 0.011611 -0.014494
0.0014411 0.0020282 -0.00043022 0.0020687 0.0005767 0.00054916 0.0010854 0.0014404
0.0116 -0.014487 0.020055 0.32796
1280000000 0.19085 0.26553 -0.010512 -0.026709 -0.0015279 0.003384 -0.00084324 -0.0021271
-0.00066784 0.0029649 0.0025112 0.00093256
-0.010485 -0.026693 0.010962 0.38335 -0.024034 -0.0069295 -0.0010862 0.0015183
0.0020065 0.0018664 0.00089217 0.0017655
-0.0015205 0.0033825 -0.02407 -0.0068548 0.32433 0.15746 0.0017997 -3.0733e-05
0.0013383 0.00016043 0.00036876 9.6982e-05
-0.00085151 -0.002113 -0.0010735 0.0015229 0.0018009 -1.9342e-05 0.11933 0.25479
-0.0020727 -0.020598 -0.00082204 0.0006439
-0.00066318 0.00297 0.0020181 0.0018694 0.0013519 0.00015884 -0.0021166 -0.020696
0.048503 0.22208 0.00075665 -0.015994
0.0025213 0.00093317 0.00089688 0.0017751 0.00037582 0.00010225 -0.0008387 0.00064102
0.00076341 -0.015982 0.065581 0.32533
1340000000 0.22733 0.23065 -0.019112 -0.015961 0.0016855 0.0048203 -0.0017771 -0.0010803
0.001492 0.0025738 0.0016542 -0.001546
-0.019075 -0.01596 0.051014 0.3738 -0.020981 0.0057788 -5.9777e-05 0.0021514
0.0022233 0.00051326 0.0014706 0.00061373
0.001701 0.0048109 -0.020968 0.0058565 0.34447 0.10925 0.0014025 -0.001102
0.00067353 -0.00063436 6.4993e-05 0.00015873
-0.0017917 -0.0010709 -4.2572e-05 0.0021557 0.0014019 -0.0010975 0.15095 0.23268
-0.011629 -0.016315 0.0003344 0.0014462
0.001498 0.0025824 0.0022282 0.00050826 0.00067971 -0.00063707 -0.011718 -0.016362
0.077912 0.21589 -0.006327 -0.013583
0.0016502 -0.0015545 0.0014699 0.00060738 6.6769e-05 0.00015617 0.00031645 0.0014559
-0.0063119 -0.013576 0.10456 0.31642
1400000000 0.25939 0.19148 -0.022945 -0.0042723 0.0058424 0.0029332 -0.0022615 0.00060647
0.0023924 0.00080814 9.4259e-05 -0.0015681
-0.022919 -0.0042866 0.088025 0.35964 -0.013679 0.01328 0.0015067 0.0013301
0.0012189 -0.001147 0.0011067 -3.5514e-05
0.0058449 0.0029189 -0.013628 0.013341 0.35611 0.055888 0.00010512 -0.002067
3.5173e-05 -0.00043607 0.00032881 0.00013481
-0.0022671 0.00061305 0.0015131 0.0013323 0.00011026 -0.0020732 0.17919 0.20158
-0.017114 -0.0084303 -0.00031665 0.00091111
0.0023894 0.00079661 0.0012265 -0.0011585 4.4136e-05 -0.00044313 -0.017236 -0.0084316
0.10957 0.20934 -0.012187 -0.0076558
9.2015e-05 -0.0015574 0.0011143 -4.9169e-05 0.0003273 0.00012532 -0.00033228 0.00093108
-0.012171 -0.0076528 0.14667 0.30125
1460000000 0.28112 0.1467 -0.01865 0.0070458 0.0059671 -0.0022636 -0.0016168 0.0018076
0.0021387 -0.00062171 -0.00055916 -0.00090072
-0.018631 0.0070309 0.12193 0.33656 -0.0048346 0.015458 0.001865 9.177e-06
0.00057477 -0.0014318 0.0009987 -0.00062912
0.0059513 -0.0022773 -0.0047721 0.01549 0.36075 0.0022144 -0.0016051 -0.0014352
0.00012157 -0.00021597 0.00063224 -0.00033584
-0.0016121 0.001809 0.0018664 2.2398e-05 -0.0016046 -0.0014377 0.20321 0.17087
-0.017469 -0.00063559 3.3847e-05 0.0024354
0.0021299 -0.00062047 0.00056849 -0.0014457 0.0001156 -0.00022525 -0.017577 -0.00058715
0.13763 0.19348 -0.013081 -0.0011007
-0.00057215 -0.00088348 0.00099261 -0.00064851 0.00063935 -0.00034422 4.326e-05 0.0024624
-0.013069 -0.0011031 0.17832 0.27816
1520000000 0.29263 0.10382 -0.01207 0.011419 0.0033793 -0.0046248 0.00016793 0.0027317
0.0019835 -0.0018592 -0.0011754 -3.1035e-05
-0.012073 0.011398 0.15479 0.32067 0.0024803 0.012681 0.0016859 -0.0010748
-0.00018382 -0.0010414 0.00024956 -0.00096959
0.0033605 -0.0046446 0.0025349 0.012674 0.3538 -0.053433 -0.001541 -0.00021505
0.00053606 -0.00087653 -2.243e-05 -0.00019214
0.00017134 0.0027227 0.0016883 -0.0010773 -0.0015367 -0.00021584 0.224 0.13208
-0.015267 0.0055361 0.002313 0.0019943
0.0019804 -0.0018696 -0.00020253 -0.0010449 0.00054192 -0.00088055 -0.015342 0.0056474
0.16518 0.17806 -0.012213 0.0036871
-0.0011707 -3.094e-05 0.00024582 -0.00096771 -2.1795e-05 -0.00019357 0.0023261 0.0020022
-0.012202 0.0036746 0.20961 0.25455
1580000000 0.30032 0.056834 -0.0054325 0.013034 -0.00092354 -0.0052601 0.0016227 0.0018675
-0.00029067 -0.0022717 -0.00021534 0.00049961
-0.005444 0.013014 0.18105 0.29494 0.0057703 0.0076103 0.00023809 -0.0018177
-0.00064279 -0.00081682 -0.00026698 -0.00081281
-0.00094734 -0.0052495 0.0058083 0.0075844 0.33352 -0.1106 -0.0017261 0.0011117
-0.00041233 -0.0011626 9.085e-05 -0.00066789
0.0016312 0.0018725 0.00023694 -0.0018145 -0.0017333 0.0011119 0.23499 0.092559
-0.010674 0.010067 0.0028409 0.00019707
-0.00028082 -0.0022759 -0.0006532 -0.00082076 -0.00042002 -0.0011652 -0.010698 0.010193
0.18835 0.15832 -0.0089644 0.008874
-0.0002113 0.00049846 -0.00027556 -0.00080944 9.6146e-05 -0.00067367 0.0028595 0.00020709
-0.0089527 0.0088551 0.2385 0.22597
1640000000 0.30084 0.014953 0.00053353 0.010816 -0.0030066 -0.0029625 0.0028084 0.0008266
-0.00097744 -0.0015499 -0.00013905 0.00056375
0.00051664 0.01082 0.2095 0.26949 0.006064 0.0028987 -0.0010341 -0.0016183
-0.00094511 -0.00020867 -0.00057498 -0.00060263
-0.0030157 -0.0029509 0.0060714 0.0028626 0.30492 -0.15935 -0.00043775 0.0017321
-0.0013655 -0.00075517 -0.00029574 -0.00027571
0.0028079 0.00081578 -0.0010367 -0.0016235 -0.00044649 0.0017289 0.24468 0.045031
-0.0054922 0.010702 0.0026914 -0.0014071
-0.00098494 -0.0015593 -0.00095496 -0.00019493 -0.0013802 -0.00077059 -0.0054554 0.010814
0.21004 0.13262 -0.0037402 0.01058
-0.00013332 0.0005621 -0.00057745 -0.0005941 -0.0002952 -0.00028157 0.0027048 -0.0014086
-0.0037403 0.010568 0.26204 0.19339
1700000000 0.29171 -0.030581 0.002988 0.0074732 -0.0037949 -7.2082e-05 0.0029557 -0.0014634
-0.0021112 -0.00057816 0.00077596 0.00023127
0.0029716 0.0074632 0.22673 0.2379 0.0039729 2.6498e-05 -0.0015942 -0.00028666
-0.00062524 0.00010724 -0.00092172 -0.00036345
-0.0037948 -4.672e-05 0.0039668 4.8478e-06 0.26213 -0.19953 0.00083944 0.0014662
-0.0019384 1.7895e-05 -0.00077451 -0.00077343
0.0029556 -0.0014704 -0.0015963 -0.0002827 0.00083585 0.0014684 0.23993 -0.0029309
-0.0022029 0.010229 0.0014585 -0.0025766
-0.002134 -0.00058047 -0.00062318 0.00011366 -0.0019575 1.6538e-05 -0.0021295 0.010317
0.22603 0.11066 0.0011478 0.010394
0.00078326 0.00022766 -0.00091886 -0.00035644 -0.00075534 -0.00075271 0.0014707 -0.0025957
0.0011559 0.010387 0.27627 0.15798
1760000000 0.27795 -0.078651 0.0041928 0.0041235 -0.0026147 0.00098692 0.0009301 -0.0035918
-0.0013676 0.0008983 0.00034052 -0.0005646
0.0041865 0.0041164 0.25183 0.19786 0.0015315 -0.0017251 -0.0011146 0.00044062
-0.00092642 0.00077385 -0.00058347 0.00049544
-0.0026086 0.0010042 0.0015154 -0.0017449 0.21274 -0.23339 0.001461 0.00072055
-0.001061 0.0018671 -0.0013233 -0.00016538
0.00091689 -0.0035938 -0.0011154 0.0004457 0.0014565 0.00072363 0.22998 -0.05179
0.00090567 0.0085464 -0.00042693 -0.0027853
-0.0013779 0.00090517 -0.00091356 0.00077949 -0.0010647 0.0018721 0.00099426 0.0085975
0.23908 0.074314 0.0050083 0.0073115
0.00033592 -0.00056653 -0.00058254 0.00049434 -0.0013394 -0.00016623 -0.00041667 -0.0028039
0.0050074 0.0073041 0.28693 0.11964
1820000000 0.25189 -0.11508 0.0034645 0.0010512 -0.00033364 0.0025174 -0.0014122 -0.002892
-0.00089378 0.0011522 -0.00017728 -8.6208e-05
0.0034563 0.0010517 0.26118 0.168 -0.00060409 -0.00056962 -0.0010105 0.0010687
-9.6719e-05 0.0011758 -0.00048088 0.00058724
-0.00033484 0.0025202 -0.00061643 -0.00056918 0.16208 -0.24934 0.0012523 8.131e-06
0.00015422 0.0022067 -0.0012234 0.00072956
-0.0014168 -0.0028778 -0.0010039 0.0010724 0.0012613 -5.657e-06 0.20088 -0.09651
0.0021465 0.006428 -0.0017204 -0.001758
-0.00088929 0.0011694 -7.7876e-05 0.0011763 0.00018304 0.0022094 0.0022388 0.0064296
0.25426 0.044054 0.0060193 0.0033086
-0.00016521 -8.3645e-05 -0.00048146 0.0005935 -0.0012228 0.0007343 -0.0017059 -0.0017755
0.0060118 0.0032985 0.28724 0.08214
1880000000 0.21558 -0.1543 0.0007544 -0.00048918 -0.00066909 0.0023018 -0.0030837 -0.0017633
9.0442e-06 0.0016147 0.00019536 -0.0003109
0.00075573 -0.00048928 0.26517 0.1213 -0.0028733 0.0013816 7.329e-05 0.0015617
0.00047551 0.0011556 0.00019057 0.00095324
-0.00066362 0.0023049 -0.0028751 0.0013967 0.10861 -0.25917 0.0013501 -0.0010547
0.0017153 0.0015345 -0.00067525 0.0014469
-0.0030898 -0.001749 8.1002e-05 0.0015658 0.0013483 -0.0010527 0.16173 -0.13603
0.0023309 0.0038329 -0.0025599 6.7319e-05
2.4249e-05 0.0016182 0.00046668 0.0011559 0.0017253 0.0015356 0.0024043 0.0038067
0.25493 0.010028 0.0055619 0.00075046
0.00018269 -0.00032018 0.00018915 0.00095153 -0.00067014 0.001447 -0.0025752 5.6818e-05
0.0055492 0.00075482 0.28483 0.047608
1940000000 0.17579 -0.17908 -0.0015084 -0.0012646 0.0014444 0.0023776 -0.0035088 0.0008458
0.0015245 0.00094885 -0.00050618 -0.00037059
-0.0015089 -0.0012618 0.26495 0.089743 -0.0017158 0.0040304 0.0010222 0.0010118
0.0016734 0.00059694 0.00082769 0.00044659
0.0014621 0.0023801 -0.0016991 0.0040472 0.0622 -0.25172 0.00014999 -0.0016756
0.0023004 0.0001365 0.00051317 0.0016024
-0.0034989 0.00085405 0.0010301 0.0010046 0.00016196 -0.001681 0.1105 -0.16609
0.00095458 0.0024047 -0.0019259 0.0013524
0.0015417 0.00093649 0.001663 0.00058791 0.0023095 0.00012978 0.0010105 0.0023409
0.25431 -0.029638 0.0039888 -0.0025905
-0.00051146 -0.00036114 0.00082697 0.00044984 0.00052349 0.0016009 -0.0019434 0.0013362
0.0039735 -0.0025936 0.27205 0.010865
2000000000 0.12935 -0.19315 -0.0050463 0.0014032 0.0027613 0.0018056 -0.0021188 0.0035071
0.0010238 -0.00011176 -0.00034434 0.00036548
-0.0050446 0.0013912 0.25057 0.054187 -0.0012872 0.006104 0.0014239 0.00011351
0.001443 -0.0011383 0.00065267 7.5027e-05
0.0027661 0.0017918 -0.0012552 0.006128 0.018544 -0.23693 -0.0010732 -0.0010287
0.0016567 -0.0012061 0.001938 0.00085969
-0.002106 0.0035184 0.001423 0.00010959 -0.0010854 -0.0010359 0.058169 -0.1769
-0.0011673 0.002125 -0.00043966 0.0023173
0.0010306 -0.00011063 0.0014294 -0.001151 0.001658 -0.0012139 -0.0011519 0.0020761
0.24585 -0.063932 0.00054558 -0.0036107
