!Keysight Technologies,M9804A,MY58100912,A.14.10.03
!Date: Thursday, April 27, 2023 10:28:33
!Correction: S11(C  6-Port  ) 
!S12(C  6-Port  ) 
!S13(C  6-Port  ) 
!S14(C  6-Port  ) 
!S15(C  6-Port  ) 
!S16(C  6-Port  ) 
!S21(C  6-Port  ) 
!S22(C  6-Port  ) 
!S23(C  6-Port  ) 
!S24(C  6-Port  ) 
!S25(C  6-Port  ) 
!S26(C  6-Port  ) 
!S31(C  6-Port  ) 
!S32(C  6-Port  ) 
!S33(C  6-Port  ) 
!S34(C  6-Port  ) 
!S35(C  6-Port  ) 
!S36(C  6-Port  ) 
!S41(C  6-Port  ) 
!S42(C  6-Port  ) 
!S43(C  6-Port  ) 
!S44(C  6-Port  ) 
!S45(C  6-Port  ) 
!S46(C  6-Port  ) 
!S51(C  6-Port  ) 
!S52(C  6-Port  ) 
!S53(C  6-Port  ) 
!S54(C  6-Port  ) 
!S55(C  6-Port  ) 
!S56(C  6-Port  ) 
!S61(C  6-Port  ) 
!S62(C  6-Port  ) 
!S63(C  6-Port  ) 
!S64(C  6-Port  ) 
!S65(C  6-Port  ) 
!S66(C  6-Port  ) 
!S6P File: Measurement: :
# Hz S  RI   R 50
500000000 -0.33991 -0.019294 -0.011487 -0.0033507 -0.0078605 0.013073 -0.0035336 0.012341
0.01133 0.0043477 -0.0027571 0.0085333
-0.01146 -0.0033111 -0.42003 -0.037147 0.0058409 -0.0114 0.0018039 0.012743
0.0066635 0.0026075 0.0022019 0.013988
-0.0077795 0.013077 0.0058363 -0.011408 -0.26471 0.22277 0.0072131 0.0041214
-0.0011093 0.0087406 0.0023307 0.012224
-0.003593 0.012357 0.0018159 0.012736 0.0072206 0.0041254 -0.33101 0.062238
-0.02 -0.0067788 0.015056 0.024444
0.011399 0.0043966 0.0067486 0.0026078 -0.0010202 0.0086278 -0.020089 -0.0068198
-0.23662 -0.16556 -0.025819 0.0038129
-0.0028181 0.008439 0.0022645 0.013926 0.0024059 0.012136 0.015305 0.024054
-0.025862 0.00404 -0.28395 -0.080012
560000000 -0.31358 0.13687 -0.027552 -0.06081 0.0010644 0.011877 0.0055769 0.009855
0.0087327 0.0049745 0.010618 0.0070245
-0.027511 -0.060819 -0.37636 0.11847 -0.042536 -0.034363 0.013472 0.0033766
-0.013116 -0.0035468 0.0038564 -0.00055974
0.0010447 0.011931 -0.042615 -0.034261 -0.18115 0.26811 -5.0249e-07 -0.0041267
0.018809 0.0037904 0.0064661 -0.0056513
0.0055842 0.0098699 0.013421 0.0034072 -1.195e-05 -0.0041635 -0.30511 0.14847
7.5647e-05 -0.024064 0.0030762 -0.018709
0.0086542 0.0049426 -0.012632 -0.003409 0.018731 0.0037827 8.9328e-06 -0.023995
-0.28761 0.0077488 0.0022744 -0.046814
0.010712 0.0070592 0.0039507 -0.00058697 0.0064941 -0.0058003 0.0028241 -0.018727
0.0022362 -0.046418 -0.33083 0.058072
620000000 -0.2716 0.12319 -0.023775 0.0079189 0.0045113 0.0083117 0.0079237 -0.0054356
0.010519 -0.00084845 0.00087369 -0.0026779
-0.023741 0.0078659 -0.40213 0.0738 -0.01962 0.0010601 -0.00069146 -0.0024448
0.010498 -0.006334 0.0017596 -0.0027143
0.0045078 0.0083164 -0.019654 0.0011032 -0.14937 0.27815 -0.0006145 -0.0050863
-0.0034003 -0.0027307 0.0083823 -0.0034804
0.0079234 -0.0052395 -0.00072721 -0.0024123 -0.00060476 -0.0050961 -0.26271 0.16005
-0.040184 -0.017217 0.01233 0.023602
0.010545 -0.0011528 0.010518 -0.006242 -0.003364 -0.0027371 -0.04038 -0.017296
-0.21076 -0.029589 -0.039249 0.01464
0.0010918 -0.0026071 0.001784 -0.0023739 0.0087173 -0.0032093 0.012554 0.023006
-0.039804 0.014898 -0.25673 0.03068
680000000 -0.22877 0.20576 -0.028167 -0.010947 0.0058277 0.0046265 0.0014261 -0.0073434
-0.0028337 -0.010844 0.0044609 -0.0069732
-0.028118 -0.010951 -0.38444 0.16834 -0.032135 0.00082988 -0.0012578 -0.00060247
-0.0023195 -0.0090547 -0.0016756 -0.0020955
0.0058201 0.0046047 -0.032162 0.00087366 -0.097693 0.29529 -0.00073219 -0.00047876
-0.0015137 -0.00034108 -0.0037388 -0.0087577
0.0014182 -0.0073844 -0.0012442 -0.00059215 -0.00074329 -0.0004667 -0.21673 0.20668
-0.025834 -0.0043233 -0.0089094 -0.0075481
-0.002793 -0.010929 -0.0022291 -0.0090583 -0.0015084 -0.00031542 -0.025902 -0.0043166
-0.25152 0.067784 -0.0081588 -0.0064272
0.0043945 -0.0069871 -0.0015983 -0.0021993 -0.0036865 -0.0088644 -0.0089638 -0.0076987
-0.0080022 -0.0062669 -0.25415 0.12621
740000000 -0.18381 0.20067 -0.036076 0.027197 0.012461 -0.0059812 -0.00075381 -0.0039833
-0.0055909 -0.0030673 -0.0059461 0.0030112
-0.036002 0.027219 -0.33219 0.18748 -0.032795 0.03546 -0.0011132 -0.0064019
-0.011764 0.0079819 -0.0021842 -0.0052602
0.012394 -0.0060002 -0.032746 0.035536 -0.06403 0.29379 -0.0018578 0.002979
-0.0034009 -0.0050565 -0.0021744 0.0015122
-0.00073981 -0.0040274 -0.0011206 -0.0063599 -0.0019082 0.0029992 -0.19893 0.21607
-0.042342 -0.0028784 0.022704 0.012454
-0.00535 -0.003119 -0.011744 0.0080857 -0.0034681 -0.005028 -0.042349 -0.0028065
-0.15812 0.08843 -0.03903 0.0047732
-0.0058551 0.0031521 -0.0021885 -0.0051227 -0.0021059 0.0013568 0.022725 0.012333
-0.038467 0.0045537 -0.24131 0.13596
800000000 -0.1493 0.23726 -0.020389 0.017722 0.0048683 -0.010698 -0.0043579 -0.0016177
-0.0037995 0.0023696 0.0038685 0.00044747
-0.020413 0.017688 -0.33199 0.25555 -0.0063259 0.033733 -0.002303 0.0022063
-0.00092803 0.0034043 0.0010946 0.0054931
0.0048614 -0.010708 -0.0062509 0.033751 -0.021577 0.31537 0.00073897 0.0017051
0.00029616 0.0034916 -0.0016225 0.0012845
-0.0044004 -0.0015915 -0.0022851 0.0022273 0.0007516 0.0017022 -0.16865 0.24236
-0.026559 0.01682 0.012817 -0.010172
-0.0039723 0.0023348 -0.00094973 0.0033429 0.00032847 0.0034777 -0.02655 0.016917
-0.19465 0.11595 -0.015194 0.019739
0.0037554 0.0005345 0.0011792 0.0053408 -0.0017218 0.0011667 0.012776 -0.010031
-0.015151 0.019749 -0.22823 0.1812
860000000 -0.11427 0.25645 -0.014939 0.030727 -0.0035787 -0.0099636 -0.0019021 0.0012468
0.0043844 0.0049015 -0.0024768 -0.0023354
-0.014955 0.0307 -0.28473 0.296 0.0096062 0.03332 0.00012803 0.0023679
0.0045135 0.00081792 0.003296 0.0005709
-0.0035955 -0.0099608 0.0096854 0.033295 0.026259 0.32235 -0.00037769 8.2767e-05
0.0023962 -0.0013677 0.0020213 0.0038888
-0.001877 0.0012385 0.00014896 0.0023859 -0.00038011 6.522e-05 -0.13201 0.25277
-0.014789 0.021449 -0.0051189 -0.0088991
0.0043562 0.0048425 0.0044814 0.00070536 0.0023735 -0.0013803 -0.014808 0.021526
-0.14186 0.16156 -0.020709 0.017202
-0.0026074 -0.0022707 0.0034357 0.00065381 0.0021152 0.0038955 -0.0050998 -0.0089629
-0.020703 0.017176 -0.17964 0.22089
920000000 -0.087811 0.27764 0.0068779 0.03626 -0.0094732 -0.0043872 -0.0013673 0.0016752
0.0019202 0.0018523 0.002966 -0.0017199
0.0068702 0.03623 -0.25474 0.31617 0.028709 0.020055 0.0018285 0.00092278
0.0074404 -0.00046158 0.0037152 -0.0031383
-0.0094793 -0.0043751 0.028764 0.019982 0.073613 0.32271 0.0019984 -0.00013024
0.0017699 -0.0005988 0.00082146 -0.0014774
-0.0013383 0.0016905 0.0018301 0.00092737 0.00199 -0.0001417 -0.10591 0.26885
-0.0068567 0.031252 0.0025805 -0.0064043
0.0019141 0.0018697 0.0075444 -0.00050698 0.0017982 -0.00056237 -0.0068034 0.031248
-0.12722 0.1672 0.0005437 0.025245
0.0029234 -0.0018282 0.0037938 -0.0032074 0.00088038 -0.0014361 0.0025266 -0.0064947
0.00046157 0.025365 -0.17835 0.23628
980000000 -0.040952 0.29497 0.018972 0.027938 -0.0088336 0.0045092 0.0020338 0.0027712
0.0039626 -0.0022101 -0.0031698 -0.0022135
0.018917 0.027943 -0.20324 0.34825 0.032975 0.0029149 0.0021961 -0.00032686
0.0016885 -0.0065389 -0.00069532 -0.0024816
-0.0088446 0.0045239 0.032994 0.0028133 0.12044 0.31501 0.00050523 -0.0013948
8.6869e-05 -0.0024056 0.0012083 -0.00028633
0.0020362 0.0027468 0.0022036 -0.00036508 0.00049187 -0.0013824 -0.066854 0.27793
0.011524 0.028498 -0.0085104 -0.006394
0.0039535 -0.0022458 0.0017058 -0.0066007 6.6531e-05 -0.0024144 0.011618 0.028472
-0.096349 0.19051 0.0068857 0.0186
-0.0032109 -0.002181 -0.000626 -0.002511 0.0011737 -0.00032514 -0.0084168 -0.0062711
0.0067619 0.018566 -0.13408 0.27321
1040000000 0.0016686 0.30196 0.033154 0.01509 -0.0014917 0.006592 0.0022178 0.00047902
-0.00013868 -0.00327 -0.0008909 -0.0016384
0.033101 0.015116 -0.16766 0.36156 0.027969 -0.016412 0.0013148 -0.0018799
-0.0025321 -0.0028874 -0.0017152 -0.0029853
-0.0014935 0.0066102 0.027928 -0.016505 0.16759 0.30055 -0.00070543 -0.0015321
-0.0016773 -0.00084698 -0.00062782 -0.0010039
0.0022107 0.00048171 0.0012898 -0.0018918 -0.00070468 -0.0015179 -0.038155 0.28721
0.022048 0.015427 -0.0029058 0.00074171
-0.00012424 -0.0033218 -0.0025188 -0.0028925 -0.0017191 -0.00086988 0.022107 0.015431
-0.064117 0.19619 0.014603 0.015501
-0.0009473 -0.001676 -0.0016961 -0.0029837 -0.00064408 -0.00099488 -0.0028923 0.00071594
0.014635 0.015534 -0.10855 0.29261
1100000000 0.04682 0.30799 0.034492 -0.0065599 0.0025209 0.0037359 0.0020443 -0.00093495
-0.0022002 -0.002777 -0.0037005 0.00057619
0.034456 -0.0065176 -0.12445 0.37811 0.013339 -0.028573 -0.00017229 -0.0017929
-0.0039194 -0.00052188 -0.0035315 -4.6148e-05
0.0025387 0.0037443 0.013274 -0.028611 0.21526 0.27796 -0.0019337 0.00027472
-0.0019645 0.00079742 -0.0010006 3.8426e-06
0.0020417 -0.00093681 -0.00019408 -0.001795 -0.0019245 0.00027893 0.0033494 0.29
0.025666 0.0015741 -0.0027895 -4.5319e-05
-0.0022182 -0.0028209 -0.0039207 -0.00053794 -0.0019669 0.00080506 0.025719 0.0015054
-0.045361 0.20737 0.018873 0.0059173
-0.003777 0.00060842 -0.0035328 -6.3691e-05 -0.0010084 4.7768e-06 -0.0027973 -5.046e-05
0.018869 0.005904 -0.061722 0.31627
1160000000 0.097433 0.30188 0.021799 -0.022447 0.0020696 -0.00019331 -5.2135e-05 -0.001827
-0.0039574 -0.00042749 -0.00071798 0.0039547
0.021795 -0.022395 -0.079926 0.38264 -0.0059038 -0.028614 -0.001668 -0.0014874
-0.0027344 0.0027659 -0.0013888 0.0019249
0.0020651 -0.00019583 -0.0059748 -0.028617 0.25819 0.24462 -0.00076584 0.0018344
-0.00048629 0.0020963 -0.00069226 0.0002861
-3.6161e-05 -0.0018182 -0.0016854 -0.0014775 -0.00075622 0.001825 0.042963 0.28528
0.020496 -0.014064 -0.0032412 0.0041162
-0.0040121 -0.00042895 -0.0027204 0.0027637 -0.00047036 0.0021107 0.020481 -0.014096
-0.012005 0.21434 0.017712 -0.0029197
-0.00071204 0.0039717 -0.0013683 0.001971 -0.0007347 0.00028823 -0.0032408 0.0041819
0.017737 -0.0028974 -0.015321 0.3168
1220000000 0.14198 0.28918 0.0074532 -0.03024 -0.0017738 -0.00010192 0.00029404 -0.00087235
-0.0025042 0.0023554 0.0014816 0.0020571
0.0074752 -0.030194 -0.034986 0.39372 -0.01824 -0.019778 -0.0024744 0.0005535
0.00025545 0.0032276 -0.00041543 0.0020805
-0.0017668 -0.00011159 -0.0183 -0.019745 0.29655 0.20288 0.00084944 0.0019811
0.00073615 0.0012913 0.00040889 0.00051335
0.00029826 -0.00087284 -0.0024767 0.00055485 0.00084805 0.0019637 0.083866 0.27423
0.0085625 -0.020262 0.0011459 0.0014925
-0.0025471 0.0023542 0.00025802 0.0032184 0.00076433 0.0012942 0.0085613 -0.020299
0.011496 0.22125 0.011854 -0.014705
0.0014444 0.0020891 -0.00039193 0.0021083 0.00041593 0.00051049 0.0011021 0.001501
0.011816 -0.014687 0.01876 0.32822
1280000000 0.19083 0.26578 -0.010505 -0.027301 -0.0015311 0.0032379 -0.00086173 -0.0020331
-0.00073532 0.0030371 0.0025101 0.0008713
-0.010474 -0.02727 0.011675 0.38392 -0.02425 -0.0068335 -0.00093546 0.0015219
0.0020702 0.0017568 0.00094627 0.0017653
-0.0015321 0.0032359 -0.024278 -0.0067707 0.32466 0.15696 0.0017981 -2.161e-05
0.0012381 0.00020591 0.0002545 0.00024046
-0.00086511 -0.0020235 -0.00091693 0.0015344 0.0017921 -2.488e-05 0.11994 0.25472
-0.0022595 -0.021193 -0.00069326 0.00062974
-0.00069007 0.0030746 0.0020889 0.0017477 0.0012729 0.00020809 -0.0023046 -0.021207
0.047456 0.22274 0.00099265 -0.016298
0.002475 0.00084693 0.0009131 0.0017706 0.00025881 0.00021871 -0.00069593 0.00061368
0.00093728 -0.016298 0.06468 0.32573
1340000000 0.22745 0.23092 -0.019402 -0.01641 0.0016461 0.004671 -0.0017714 -0.0010164
0.0015355 0.0026319 0.0015563 -0.0015783
-0.019369 -0.01641 0.051868 0.3738 -0.021047 0.0059807 -6.9506e-06 0.0020848
0.0021424 0.0004055 0.001436 0.00057429
0.00165 0.0046622 -0.02103 0.0060545 0.34427 0.10875 0.0013584 -0.0012052
0.00070877 -0.00062365 -8.9585e-06 0.00023264
-0.001781 -0.0010095 8.7413e-06 0.0020895 0.0013551 -0.0012024 0.15126 0.23214
-0.012267 -0.016669 0.00027582 0.0014832
0.001556 0.0026458 0.0021668 0.00041862 0.00070866 -0.00064935 -0.012301 -0.016644
0.077131 0.21665 -0.0065393 -0.013839
0.0015523 -0.0015962 0.0014429 0.00058572 4.3959e-05 0.00024797 0.00028439 0.0014754
-0.0065213 -0.01387 0.10362 0.31694
1400000000 0.25972 0.19131 -0.023416 -0.0044888 0.0057898 0.0028514 -0.0022616 0.00063642
0.0024297 0.00089153 7.2215e-05 -0.0014794
-0.02339 -0.0045102 0.088864 0.35907 -0.013594 0.013473 0.0014889 0.0012755
0.0011171 -0.0011503 0.001132 -1.5443e-05
0.0057813 0.0028336 -0.013549 0.013527 0.35588 0.05557 3.4349e-06 -0.0020507
-2.6414e-06 -0.00045605 0.000384 0.00020733
-0.002241 0.00065007 0.0014823 0.0012703 1.1131e-06 -0.0020233 0.17934 0.20094
-0.017804 -0.0083387 -0.00034591 0.00096729
0.0024641 0.00086781 0.0011092 -0.0011572 -8.4185e-07 -0.00045806 -0.017804 -0.0083077
0.10937 0.21023 -0.012443 -0.0078374
6.5686e-05 -0.0014942 0.0011209 -3.0553e-05 0.00035418 0.00025035 -0.0003442 0.00096136
-0.012451 -0.0078287 0.14612 0.30172
1460000000 0.28124 0.14641 -0.019135 0.0072027 0.005888 -0.002351 -0.0016318 0.0017804
0.002212 -0.00075818 -0.00053282 -0.0008413
-0.019122 0.0071868 0.12229 0.33552 -0.004637 0.015508 0.0017398 -1.0317e-05
0.00053442 -0.0014634 0.0010261 -0.00064929
0.0058718 -0.0023596 -0.0045959 0.015525 0.36032 0.0021349 -0.0016965 -0.0013634
0.00012611 -0.00022188 0.0007422 -0.00027912
-0.0016087 0.00178 0.001751 -1.6164e-05 -0.0016965 -0.0013417 0.20292 0.1701
-0.017994 -0.00019318 6.6043e-05 0.0024902
0.0022054 -0.00077432 0.00054259 -0.0014891 0.00010352 -0.00021495 -0.018013 -0.00015745
0.13774 0.19413 -0.013452 -0.0011404
-0.00053986 -0.0008221 0.0010196 -0.00067052 0.00073834 -0.000315 8.3357e-05 0.0024642
-0.013445 -0.0011112 0.17779 0.27858
1520000000 0.29248 0.10341 -0.012408 0.011777 0.0032308 -0.0046275 0.00017354 0.0027256
0.0019567 -0.001919 -0.0011519 3.9523e-05
-0.012404 0.011765 0.15468 0.31961 0.0026613 0.012576 0.0016449 -0.00098305
-0.00023851 -0.00095275 0.00021093 -0.00096093
0.0032155 -0.0046247 0.0027147 0.012571 0.35334 -0.053391 -0.0015008 -0.00012219
0.0005141 -0.00096114 2.5044e-05 -0.00023059
0.00017484 0.0027032 0.0016429 -0.0009967 -0.0014929 -0.00013186 0.22331 0.13156
-0.01542 0.0063042 0.0024236 0.0019736
0.0019484 -0.001935 -0.00023316 -0.00096315 0.0005152 -0.00093231 -0.0154 0.0063324
0.16546 0.17857 -0.012441 0.0039434
-0.0011377 3.503e-05 0.00022775 -0.0009677 2.7815e-05 -0.00022526 0.002409 0.0019716
-0.012424 0.0039327 0.20896 0.25505
1580000000 0.30001 0.056463 -0.0054518 0.013546 -0.0010796 -0.005117 0.0016635 0.0018966
-0.0003322 -0.0023144 -0.00020489 0.0003787
-0.0054563 0.013542 0.18043 0.29397 0.0058066 0.0074152 0.00028639 -0.0017363
-0.00061263 -0.00078331 -0.00028935 -0.0008025
-0.0011014 -0.0051107 0.0058327 0.0074002 0.33326 -0.11062 -0.0015992 0.001118
-0.00042062 -0.0011061 0.00016754 -0.00066397
0.0016525 0.001889 0.00028113 -0.001739 -0.0015955 0.0011132 0.23409 0.092272
-0.010243 0.010794 0.002849 7.7947e-05
-0.00036517 -0.0023252 -0.00060769 -0.00078234 -0.00041314 -0.0010905 -0.010229 0.010802
0.18879 0.15844 -0.0090471 0.0091958
-0.00017381 0.00039919 -0.00028289 -0.00080988 0.00018142 -0.00067549 0.0028792 7.3382e-05
-0.0090336 0.0092005 0.23807 0.22644
1640000000 0.30013 0.014798 0.00079968 0.011147 -0.0030313 -0.0027778 0.0028489 0.00077051
-0.0010451 -0.0015163 -0.00020556 0.00048502
0.00078699 0.011141 0.20852 0.26882 0.005928 0.0027636 -0.0009701 -0.0016287
-0.00088191 -0.0001883 -0.00059928 -0.00054129
-0.0030323 -0.002739 0.0059557 0.0027476 0.30442 -0.15929 -0.000374 0.0016626
-0.0013417 -0.00076726 -0.00033348 -0.00029885
0.0028424 0.00075992 -0.00098849 -0.0016151 -0.00038437 0.0016591 0.2436 0.045215
-0.0047298 0.011015 0.0026452 -0.0014864
-0.0010614 -0.0015156 -0.0008931 -0.00019118 -0.0013204 -0.0007521 -0.0046952 0.011025
0.2103 0.13248 -0.0035997 0.010834
-0.00019269 0.0005183 -0.00061023 -0.00052471 -0.00032332 -0.00030293 0.0026353 -0.0014513
-0.0036157 0.010821 0.26157 0.19402
1700000000 0.29097 -0.030383 0.0033537 0.0075216 -0.0036882 7.7452e-05 0.0029445 -0.0015063
-0.002164 -0.0004613 0.00068267 0.00030999
0.0033425 0.0075181 0.2255 0.23762 0.0037673 2.0087e-05 -0.0015155 -0.00034004
-0.0005538 8.4911e-05 -0.00092389 -0.00031276
-0.0036717 8.6641e-05 0.0037824 4.3136e-06 0.26155 -0.19913 0.00084331 0.0013878
-0.0018627 6.0749e-05 -0.00076778 -0.00087804
0.0029322 -0.001499 -0.0015271 -0.00032993 0.00083158 0.0013784 0.23894 -0.0022929
-0.0014038 0.009955 0.0014504 -0.0026527
-0.0021747 -0.00044354 -0.00056622 8.7434e-05 -0.0018431 5.5642e-05 -0.0014037 0.0099483
0.22618 0.11027 0.0014278 0.010612
0.00070149 0.00029437 -0.00091128 -0.00030311 -0.00077183 -0.0008696 0.0014388 -0.00264
0.0014647 0.01059 0.27591 0.15863
1760000000 0.27722 -0.078037 0.0043403 0.0039599 -0.0025517 0.0009173 0.0008802 -0.0035528
-0.0013793 0.0009822 0.00033077 -0.0004973
0.0043475 0.0039507 0.25054 0.19803 0.0014035 -0.0016958 -0.0011454 0.00039844
-0.00091902 0.00070002 -0.00055694 0.00051963
-0.0025379 0.0009127 0.0013873 -0.0016928 0.21293 -0.23296 0.0013249 0.00071485
-0.0010739 0.0017313 -0.0014852 -0.00024208
0.00085462 -0.0035371 -0.001154 0.00040959 0.0013162 0.00072068 0.22931 -0.050737
0.0013393 0.007906 -0.00049307 -0.0028306
-0.0013696 0.0010064 -0.00091874 0.00072136 -0.0010643 0.0016971 0.0013401 0.007906
0.23888 0.073748 0.005311 0.007251
0.00032128 -0.00050186 -0.00055444 0.00052139 -0.0014895 -0.00021024 -0.0004879 -0.0028344
0.0053294 0.0072456 0.28652 0.12004
1820000000 0.2516 -0.11414 0.003491 0.0009099 -0.00023476 0.0025655 -0.0013793 -0.0028266
-0.00079698 0.0011804 -0.00011166 -4.5967e-05
0.003494 0.00091689 0.26005 0.16874 -0.00061409 -0.00037547 -0.00107 0.0010264
-0.00011557 0.0010863 -0.00043282 0.00057667
-0.00022627 0.0025678 -0.0006191 -0.00035744 0.16246 -0.24882 0.0012172 -1.3725e-05
0.00015329 0.0021339 -0.0013235 0.00066118
-0.0013824 -0.0028222 -0.0010479 0.0010419 0.0012483 1.4154e-05 0.20061 -0.095162
0.0020473 0.0056493 -0.001842 -0.001768
-0.00079813 0.0012098 -0.00010211 0.0011086 0.00013068 0.0021434 0.0020498 0.0056449
0.25377 0.043552 0.0062294 0.0031571
-0.00011134 -6.8646e-05 -0.00042955 0.00057038 -0.0013266 0.00066382 -0.001834 -0.0017236
0.0062343 0.0031537 0.28706 0.08283
1880000000 0.21574 -0.15336 0.0007041 -0.00048385 -0.00056731 0.0022835 -0.0030249 -0.0017125
6.3108e-05 0.001577 0.0001466 -0.00038983
0.00069519 -0.00049153 0.26442 0.12242 -0.0028038 0.0015105 2.6303e-05 0.0015896
0.00042954 0.0010911 0.00026037 0.00087558
-0.00056404 0.0023085 -0.0027756 0.0015385 0.10929 -0.25908 0.0014073 -0.00093881
0.0017721 0.0015966 -0.00058514 0.0016094
-0.0030089 -0.0017277 4.1991e-05 0.0015978 0.0014155 -0.00092502 0.16223 -0.13466
0.0019116 0.0034431 -0.0026063 0.00012874
9.2863e-05 0.001591 0.00044354 0.0010919 0.0017596 0.0016287 0.0018716 0.0034539
0.25406 0.009682 0.0057233 0.00051724
0.0001509 -0.00037704 0.00026344 0.00088226 -0.00053504 0.001631 -0.0026362 0.0001525
0.0056647 0.0005382 0.28486 0.048135
1940000000 0.17623 -0.1783 -0.0014429 -0.0012183 0.0014876 0.0022105 -0.0035008 0.00085741
0.0015011 0.00086533 -0.00042811 -0.00045445
-0.0014507 -0.001212 0.26472 0.090982 -0.0015435 0.0039746 0.0010001 0.0010436
0.0015783 0.00060199 0.00088176 0.0003691
0.0015097 0.0022026 -0.0015043 0.0039822 0.062544 -0.25218 0.00018799 -0.0016929
0.0022399 0.00015152 0.00071958 0.0015572
-0.0034731 0.00083618 0.0010126 0.0010309 0.00016667 -0.0017071 0.11181 -0.16506
0.00056258 0.0023363 -0.0018712 0.0015011
0.0015286 0.00084805 0.0016185 0.00060434 0.0022927 0.00017105 0.00057709 0.0023622
0.25332 -0.029615 0.0040202 -0.0028233
-0.00043781 -0.00049848 0.00088801 0.00034814 0.00072423 0.0015603 -0.0018718 0.0015306
0.0040469 -0.0028176 0.27213 0.011363
2000000000 0.13017 -0.1928 -0.0047958 0.0013463 0.0026293 0.0016058 -0.0021166 0.003472
0.00098972 -0.00014028 -0.00044327 0.00035836
-0.0047803 0.0013374 0.25088 0.055398 -0.0012319 0.0059918 0.0014935 0.00016526
0.0013463 -0.0010111 0.00041182 -1.4865e-05
0.0026434 0.0015811 -0.0012014 0.0059815 0.018417 -0.23727 -0.00099227 -0.00097587
0.001664 -0.00112 0.0017377 0.00093117
-0.0021186 0.0034558 0.0014833 0.00012918 -0.0010063 -0.00098095 0.059601 -0.17673
-0.0014462 0.0022929 -0.00027094 0.0023744
0.001013 -0.00018565 0.0013672 -0.0010405 0.0017183 -0.0011352 -0.0013978 0.0023041
0.24479 -0.063499 0.00047727 -0.003911
