!Keysight Technologies,M9804A,MY58100912,A.14.10.03
!Date: Thursday, April 27, 2023 10:28:33
!Correction: S11(C  6-Port  ) 
!S12(C  6-Port  ) 
!S13(C  6-Port  ) 
!S14(C  6-Port  ) 
!S15(C  6-Port  ) 
!S16(C  6-Port  ) 
!S21(C  6-Port  ) 
!S22(C  6-Port  ) 
!S23(C  6-Port  ) 
!S24(C  6-Port  ) 
!S25(C  6-Port  ) 
!S26(C  6-Port  ) 
!S31(C  6-Port  ) 
!S32(C  6-Port  ) 
!S33(C  6-Port  ) 
!S34(C  6-Port  ) 
!S35(C  6-Port  ) 
!S36(C  6-Port  ) 
!S41(C  6-Port  ) 
!S42(C  6-Port  ) 
!S43(C  6-Port  ) 
!S44(C  6-Port  ) 
!S45(C  6-Port  ) 
!S46(C  6-Port  ) 
!S51(C  6-Port  ) 
!S52(C  6-Port  ) 
!S53(C  6-Port  ) 
!S54(C  6-Port  ) 
!S55(C  6-Port  ) 
!S56(C  6-Port  ) 
!S61(C  6-Port  ) 
!S62(C  6-Port  ) 
!S63(C  6-Port  ) 
!S64(C  6-Port  ) 
!S65(C  6-Port  ) 
!S66(C  6-Port  ) 
!S6P File: Measurement: :
# Hz S  RI   R 50
500000000 -0.33982 -0.018936 -0.01167 -0.0032927 -0.0077233 0.012983 -0.0036257 0.012268
0.011438 0.0043237 -0.0025857 0.0084972
-0.01176 -0.0033494 -0.42014 -0.037088 0.0058876 -0.011339 0.0019061 0.012741
0.0066507 0.0025877 0.0024001 0.013895
-0.0078295 0.013029 0.0058409 -0.01139 -0.26463 0.22269 0.0071745 0.0041602
-0.0012708 0.0086834 0.0024353 0.012165
-0.0038945 0.012318 0.0020939 0.012429 0.0070759 0.0041788 -0.33096 0.062172
-0.020055 -0.0067579 0.015336 0.023914
0.010826 0.0045119 0.0063918 0.0026458 -0.0011176 0.0086387 -0.019984 -0.0068377
-0.23658 -0.16551 -0.026161 0.0039652
-0.0031165 0.0084429 0.002595 0.013713 0.0019831 0.012164 0.015387 0.024087
-0.026129 0.0042352 -0.28333 -0.080746
560000000 -0.31382 0.13696 -0.027606 -0.060199 0.0011389 0.011979 0.0055372 0.010046
0.0089204 0.0045062 0.010625 0.0070588
-0.026868 -0.060871 -0.3756 0.11817 -0.04247 -0.034217 0.013311 0.0033812
-0.01293 -0.0034958 0.0039811 -0.00051385
0.00086531 0.012046 -0.042753 -0.033903 -0.18114 0.268 -3.263e-05 -0.0039808
0.018779 0.0038385 0.0064422 -0.0057311
0.0061661 0.0096137 0.013718 0.0033532 3.7955e-06 -0.0042356 -0.30503 0.14832
-0.00020598 -0.023941 0.0028182 -0.018534
0.0083187 0.0039213 -0.012932 -0.0036272 0.018965 0.0038605 -0.00034668 -0.024204
-0.2888 0.0078636 0.0021859 -0.046662
0.011139 0.0071674 0.0036602 -0.0004903 0.0064873 -0.0056132 0.0031671 -0.018851
0.0020138 -0.046685 -0.33146 0.058573
620000000 -0.27184 0.12306 -0.024029 0.0077357 0.004411 0.0082203 0.0079452 -0.005064
0.010727 -0.0010885 0.0011586 -0.0026194
-0.02393 0.0075594 -0.40221 0.073723 -0.01963 0.00098176 -0.00069532 -0.0023435
0.010461 -0.006198 0.0018605 -0.0025512
0.0044028 0.0082755 -0.019642 0.001002 -0.14941 0.27796 -0.00078654 -0.0050115
-0.0032253 -0.0028508 0.0087355 -0.0032832
0.0080655 -0.0045898 -0.00035728 -0.0022412 -0.00081059 -0.0049983 -0.2625 0.15996
-0.04028 -0.0174 0.012259 0.023256
0.0099232 -0.0020193 0.010111 -0.0063782 -0.0030267 -0.0027951 -0.040316 -0.017009
-0.2111 -0.029368 -0.039654 0.014818
2.7254e-05 -0.001683 0.0020716 -0.0022843 0.0084363 -0.0034341 0.01253 0.023347
-0.039625 0.014668 -0.25588 0.030134
680000000 -0.22811 0.20578 -0.028066 -0.011007 0.0057192 0.0048164 0.0012099 -0.0074213
-0.002658 -0.010917 0.0044417 -0.0069366
-0.027892 -0.010836 -0.38439 0.1683 -0.032187 0.00084009 -0.0012599 -0.00059042
-0.0021976 -0.0090468 -0.0015111 -0.0022254
0.0057558 0.0048086 -0.03219 0.00086233 -0.097811 0.29527 -0.00072393 -0.00043216
-0.0015068 -0.00033665 -0.0036819 -0.0089369
0.0014666 -0.0076328 -0.0013489 -0.00066881 -0.00066096 -0.00045757 -0.21682 0.2068
-0.025841 -0.0043856 -0.0088637 -0.0078118
-0.0022901 -0.011646 -0.0023615 -0.0091569 -0.001532 -0.00031342 -0.025757 -0.0043069
-0.25171 0.068038 -0.0081721 -0.0062533
0.0047874 -0.0074642 -0.0014272 -0.002286 -0.0037931 -0.0087807 -0.0090906 -0.0076908
-0.0078664 -0.0061883 -0.25401 0.12604
740000000 -0.18393 0.20046 -0.036129 0.027254 0.012443 -0.0059133 -0.00078451 -0.0040762
-0.0052729 -0.0030419 -0.0058785 0.0030775
-0.036185 0.027144 -0.33244 0.1874 -0.03289 0.035335 -0.001113 -0.0062746
-0.012005 0.0080729 -0.0021999 -0.0051723
0.01234 -0.0060539 -0.032702 0.03544 -0.063983 0.29366 -0.0019393 0.0030634
-0.0033849 -0.0050124 -0.0020643 0.0013378
-0.00082259 -0.0041112 -0.001308 -0.0061726 -0.0020236 0.0029941 -0.19869 0.21611
-0.042261 -0.0027415 0.022696 0.01234
-0.005138 -0.002973 -0.012167 0.0076189 -0.0032895 -0.0050796 -0.042316 -0.0027205
-0.15773 0.088738 -0.03874 0.0049687
-0.006204 0.003046 -0.0022402 -0.0051934 -0.002353 0.0011868 0.022762 0.012555
-0.039024 0.0051422 -0.24176 0.13568
800000000 -0.14926 0.23726 -0.020451 0.017822 0.0048876 -0.010672 -0.0044083 -0.0015972
-0.0039561 0.0023733 0.0037674 0.00045851
-0.020372 0.017779 -0.33213 0.25547 -0.0063433 0.033673 -0.0022828 0.0022677
-0.00096106 0.0033565 0.0011003 0.005266
0.0048638 -0.010673 -0.0063141 0.033762 -0.021637 0.31535 0.00077896 0.0016892
0.0002836 0.0034536 -0.0017387 0.0011802
-0.004261 -0.0016689 -0.0022696 0.0022509 0.00082452 0.0017196 -0.16871 0.24236
-0.026533 0.016839 0.012798 -0.010034
-0.0041953 0.0023769 -0.0011143 0.00335 0.00025147 0.0034153 -0.026589 0.016814
-0.19464 0.11616 -0.015209 0.019812
0.0041198 0.00095153 0.001231 0.0055201 -0.0016858 0.0013271 0.012782 -0.01013
-0.015304 0.019832 -0.22843 0.18134
860000000 -0.11425 0.25643 -0.014989 0.030802 -0.0035594 -0.0099382 -0.0018956 0.0012988
0.0042325 0.0048599 -0.0025227 -0.0023029
-0.015029 0.030739 -0.28477 0.29599 0.009666 0.033319 0.00014501 0.0023817
0.0044657 0.00078383 0.0034113 0.00065129
-0.0035725 -0.0099596 0.009675 0.033355 0.026273 0.32238 -0.00035828 8.307e-05
0.0023854 -0.0013797 0.0020967 0.0039058
-0.001751 0.0012017 8.0267e-05 0.0023257 -0.0003869 8.8554e-05 -0.13208 0.25278
-0.01481 0.021392 -0.0050365 -0.0090124
0.0042734 0.0049041 0.0044553 0.00092698 0.0024457 -0.0013012 -0.01479 0.021414
-0.14174 0.16168 -0.020632 0.017445
-0.0026827 -0.0020788 0.0033875 0.00052615 0.0021425 0.003871 -0.0049955 -0.008969
-0.020705 0.017301 -0.17988 0.22098
920000000 -0.087776 0.27762 0.0069181 0.036215 -0.0094702 -0.0043528 -0.001348 0.0016896
0.001911 0.0018653 0.0028878 -0.0017939
0.0068556 0.036315 -0.25483 0.31621 0.028711 0.020077 0.0018019 0.00094706
0.0075887 -0.00041158 0.0038523 -0.0031249
-0.0094181 -0.0044 0.028713 0.019999 0.073604 0.32271 0.0019967 -0.0001292
0.0017726 -0.0005443 0.00089765 -0.001438
-0.0013542 0.0016484 0.0017611 0.00091183 0.0019723 -0.00012354 -0.10595 0.26884
-0.006853 0.031175 0.0025292 -0.0064593
0.0017977 0.0016622 0.0076777 -0.00049995 0.0017597 -0.00053552 -0.0067638 0.031295
-0.12695 0.16734 0.00057669 0.025339
0.0033028 -0.0017226 0.0038814 -0.0032617 0.0008232 -0.001479 0.0026105 -0.0064889
0.00067192 0.025357 -0.17858 0.23623
980000000 -0.041002 0.29502 0.018959 0.028033 -0.0088755 0.0045256 0.0020943 0.0027957
0.0039985 -0.0022507 -0.0031935 -0.002198
0.018861 0.027982 -0.20333 0.34832 0.032952 0.0028602 0.0022332 -0.00039112
0.00175 -0.0065619 -0.00066138 -0.0024757
-0.0088445 0.0045685 0.032954 0.0028215 0.12044 0.31499 0.00051775 -0.0014085
0.00010795 -0.0023825 0.0011724 -0.00031755
0.002137 0.0027778 0.0022702 -0.00039506 0.00051102 -0.0014007 -0.06689 0.278
0.011553 0.028475 -0.0084223 -0.0062434
0.0040045 -0.0021443 0.0017125 -0.0065369 7.4374e-05 -0.0024061 0.011597 0.028502
-0.096238 0.19056 0.0068274 0.018677
-0.0030712 -0.0019502 -0.00048488 -0.0025478 0.0012079 -0.00029214 -0.0085049 -0.0063866
0.0068308 0.018658 -0.13427 0.27332
1040000000 0.0016438 0.30192 0.033141 0.015138 -0.0015113 0.0066351 0.0022493 0.00047404
-8.9924e-05 -0.003323 -0.00087031 -0.0017117
0.033143 0.015197 -0.1676 0.3615 0.027992 -0.016402 0.0012594 -0.0018816
-0.0024843 -0.0029505 -0.0016557 -0.0029943
-0.0014994 0.0066522 0.027961 -0.016501 0.16759 0.30053 -0.00072297 -0.0015375
-0.0016938 -0.00087859 -0.00065633 -0.00099772
0.0022545 0.00044237 0.0012639 -0.00191 -0.00070391 -0.0015503 -0.038105 0.28721
0.022076 0.015418 -0.0028285 0.00067107
-0.00017712 -0.0032564 -0.0025117 -0.0028971 -0.0016871 -0.00088454 0.022165 0.015414
-0.064056 0.19619 0.014734 0.015551
-0.00095198 -0.0016736 -0.0016394 -0.0030845 -0.00063732 -0.0010271 -0.0028415 0.0006522
0.01469 0.01557 -0.10841 0.29269
1100000000 0.046771 0.30807 0.03455 -0.0065226 0.0025395 0.0037519 0.0020422 -0.00094361
-0.0022306 -0.0028246 -0.0037805 0.0005724
0.034477 -0.0064568 -0.12443 0.37808 0.013366 -0.028558 -0.00020041 -0.0017882
-0.0039279 -0.00055728 -0.0035451 -5.9558e-05
0.0025448 0.0037609 0.013299 -0.028607 0.21522 0.27794 -0.0019255 0.00027274
-0.0019839 0.00077586 -0.0010153 -8.3801e-06
0.002041 -0.00095654 -0.00020929 -0.0017717 -0.0019268 0.00027421 0.0033746 0.28997
0.025732 0.0015209 -0.0027677 -0.00012116
-0.0022452 -0.0028032 -0.0039116 -0.00062226 -0.0019579 0.0007787 0.025768 0.0014533
-0.045214 0.20727 0.019058 0.0058917
-0.003803 0.00058307 -0.0035695 -0.00011053 -0.0010188 6.4892e-06 -0.0027402 -8.6535e-05
0.018979 0.0058893 -0.061732 0.31627
1160000000 0.097457 0.30195 0.021802 -0.022474 0.0020807 -0.00020923 -4.8104e-05 -0.0018164
-0.0040353 -0.00042331 -0.0007331 0.0039773
0.021828 -0.022434 -0.07986 0.38264 -0.005872 -0.028608 -0.0016771 -0.0014963
-0.0027379 0.0027691 -0.0014024 0.0019798
0.0020662 -0.00020537 -0.0059449 -0.028609 0.25813 0.24458 -0.000777 0.0018312
-0.00048935 0.0020825 -0.00073641 0.00031128
-5.2934e-05 -0.0017958 -0.0017222 -0.0014844 -0.00076882 0.0018407 0.042976 0.28525
0.020477 -0.014088 -0.0032804 0.0041135
-0.0041242 -0.00035812 -0.0027796 0.0027597 -0.00051214 0.0021306 0.02049 -0.014135
-0.011904 0.21422 0.017932 -0.0029955
-0.00071884 0.0039401 -0.0013201 0.0018738 -0.00072599 0.00031247 -0.0032763 0.0040602
0.017874 -0.0029867 -0.015288 0.31682
1220000000 0.142 0.28918 0.0075037 -0.030279 -0.0017759 -0.00012728 0.00028574 -0.00085593
-0.0025533 0.002353 0.0014209 0.0020784
0.0074943 -0.030237 -0.03496 0.39367 -0.018196 -0.019797 -0.0024792 0.00056032
0.00023058 0.0032489 -0.00041321 0.002123
-0.0017506 -0.00011807 -0.01828 -0.019757 0.2965 0.20287 0.00086156 0.0019646
0.00073834 0.0012913 0.00041047 0.00052578
0.00032221 -0.00083217 -0.0025161 0.00057039 0.00086427 0.0019544 0.083866 0.27415
0.0085307 -0.020308 0.001033 0.0014562
-0.0025122 0.0022856 0.00023462 0.0032006 0.0007477 0.0012887 0.0085212 -0.020323
0.011504 0.22112 0.011909 -0.014856
0.0014299 0.0020845 -0.00042865 0.0020333 0.00041908 0.00053718 0.0010527 0.0014575
0.011932 -0.014923 0.01876 0.32818
1280000000 0.19088 0.26581 -0.010463 -0.027313 -0.0015332 0.003218 -0.00086481 -0.002049
-0.0006909 0.0030876 0.0024815 0.00089084
-0.010469 -0.027277 0.011647 0.38393 -0.024239 -0.006856 -0.00089743 0.001516
0.0020895 0.0017671 0.00092733 0.0018087
-0.0014998 0.0032172 -0.024277 -0.0067569 0.32461 0.15703 0.001806 -1.0378e-05
0.0012774 0.00019323 0.00025385 0.000212
-0.0008783 -0.0020507 -0.00090642 0.0015206 0.0017789 -2.5766e-05 0.11989 0.25474
-0.0023082 -0.021226 -0.00075451 0.00062322
-0.00070033 0.003112 0.0021023 0.0017996 0.0012584 0.00022867 -0.0023391 -0.021242
0.047446 0.2227 0.00095649 -0.016485
0.0024807 0.00090743 0.00097847 0.0017769 0.00026444 0.00023304 -0.0007845 0.00063044
0.00097263 -0.01645 0.064765 0.32573
1340000000 0.22746 0.23088 -0.019412 -0.016434 0.0016174 0.0046124 -0.0017672 -0.0010148
0.0015448 0.002637 0.0015906 -0.0015847
-0.019377 -0.016451 0.051887 0.37379 -0.021042 0.0059503 -1.234e-05 0.0020562
0.0021812 0.00043194 0.0014404 0.00059306
0.0016025 0.0046276 -0.021009 0.0060312 0.34426 0.1088 0.0013654 -0.0012086
0.00072724 -0.00062783 5.1647e-05 0.00023419
-0.0017447 -0.001004 1.6324e-05 0.0020614 0.001366 -0.0011941 0.15127 0.23211
-0.012296 -0.016678 0.00022555 0.0015413
0.0015284 0.0026008 0.0021754 0.00039575 0.00069029 -0.00063802 -0.012321 -0.01666
0.076998 0.21662 -0.0066444 -0.014042
0.0015918 -0.0016163 0.00145 0.00060894 6.4206e-05 0.00021631 0.0002265 0.0015113
-0.0066148 -0.014054 0.1037 0.317
1400000000 0.25976 0.19123 -0.023434 -0.0045176 0.0057766 0.0028565 -0.0022575 0.00063743
0.0024639 0.00089082 9.94e-05 -0.0014999
-0.023408 -0.0045635 0.088873 0.35905 -0.013605 0.013446 0.0014633 0.0012836
0.0011408 -0.0011424 0.0011217 -2.4183e-05
0.0057611 0.0028334 -0.013561 0.013501 0.35588 0.055594 3.6514e-06 -0.002028
1.4489e-05 -0.0004592 0.00035802 0.00024124
-0.0022651 0.00065318 0.0014668 0.0012795 6.4897e-06 -0.0020157 0.17928 0.20093
-0.017824 -0.0083504 -0.00038464 0.0010592
0.0024321 0.00084242 0.0011311 -0.0011586 1.8374e-05 -0.00043329 -0.017835 -0.0083228
0.1093 0.21016 -0.012643 -0.0078872
8.4982e-05 -0.0014875 0.0011321 -1.737e-05 0.00037744 0.00019085 -0.00037091 0.0010653
-0.01265 -0.0079156 0.14608 0.30165
1460000000 0.28126 0.14639 -0.01917 0.0072126 0.0058733 -0.002334 -0.0016186 0.0017861
0.0022121 -0.00076491 -0.00054339 -0.00085794
-0.019155 0.007176 0.12228 0.3355 -0.0046816 0.015481 0.0017537 -3.5677e-06
0.00054281 -0.0014901 0.0010169 -0.00067748
0.0058684 -0.0023661 -0.0046287 0.015511 0.36037 0.0021847 -0.0016969 -0.0013631
0.00011581 -0.00023796 0.00076242 -0.00032727
-0.001608 0.0017841 0.0017566 -1.8838e-05 -0.001706 -0.0013746 0.20288 0.17013
-0.018016 -0.00017516 0.00010144 0.0025297
0.0021519 -0.00081242 0.00055839 -0.0014804 0.00011474 -0.00021613 -0.01802 -0.00014119
0.13763 0.19409 -0.01366 -0.0010871
-0.00054836 -0.00085137 0.0010297 -0.00068397 0.00075434 -0.00030767 7.648e-05 0.0025369
-0.013653 -0.0011069 0.1778 0.27843
1520000000 0.29243 0.10332 -0.012432 0.011774 0.0032265 -0.0046131 0.00017414 0.0026976
0.0019617 -0.0019376 -0.0011683 3.0609e-05
-0.012448 0.011763 0.15465 0.31957 0.0026269 0.012595 0.0016386 -0.00098689
-0.00023481 -0.00098154 0.00021925 -0.0009828
0.0031935 -0.0046162 0.0026828 0.012587 0.35339 -0.05339 -0.0014936 -0.00012753
0.00050793 -0.00097214 3.4504e-05 -0.00022137
0.00018597 0.0027222 0.00163 -0.00097956 -0.0014623 -0.00014674 0.22326 0.13156
-0.015432 0.0063422 0.0024787 0.0020091
0.0019627 -0.0019308 -0.00023418 -0.0009664 0.00051575 -0.00098212 -0.015454 0.006375
0.16537 0.17854 -0.012632 0.0040637
-0.0011499 3.5596e-05 0.00018983 -0.00098923 1.7298e-05 -0.0002262 0.0024874 0.0020164
-0.012601 0.0040691 0.20893 0.25486
1580000000 0.29995 0.056451 -0.0054739 0.013572 -0.0010994 -0.0051011 0.0016524 0.0018973
-0.00034771 -0.0023153 -0.00019911 0.00041368
-0.0054901 0.013569 0.18036 0.29397 0.0057707 0.0074261 0.00029377 -0.00174
-0.00061364 -0.0007954 -0.00028437 -0.00080914
-0.0011154 -0.0050712 0.0058131 0.0074023 0.33326 -0.11064 -0.0016061 0.0011251
-0.00042185 -0.0011099 0.00018106 -0.00067301
0.0016558 0.0018906 0.00028514 -0.001741 -0.0015998 0.0011157 0.23408 0.092363
-0.010259 0.010816 0.0029467 8.9154e-05
-0.00038829 -0.0023234 -0.00062584 -0.00078794 -0.00044067 -0.0011238 -0.010231 0.010854
0.18869 0.15846 -0.0091565 0.0093844
-0.00018825 0.00039854 -0.00028388 -0.00081149 0.00019084 -0.00062461 0.002957 6.4877e-05
-0.0091345 0.0093893 0.23791 0.22633
1640000000 0.30004 0.014799 0.00078868 0.011183 -0.0030076 -0.0027561 0.0028268 0.00078386
-0.0010589 -0.0015235 -0.00019779 0.00049718
0.00077526 0.01117 0.20849 0.26884 0.0059342 0.0027961 -0.00097579 -0.0016446
-0.0008916 -0.00017628 -0.00060189 -0.00052494
-0.0030555 -0.0027219 0.0059395 0.0027581 0.30443 -0.1593 -0.00038994 0.0016556
-0.0013754 -0.00076377 -0.00034347 -0.00030975
0.0028933 0.00077606 -0.0010008 -0.0016282 -0.00040085 0.0016563 0.24365 0.045225
-0.0047032 0.011049 0.0027004 -0.0014969
-0.00104 -0.0014804 -0.00088886 -0.00017667 -0.0013648 -0.00075477 -0.0046694 0.011077
0.21023 0.13251 -0.0036243 0.011037
-0.0001999 0.0005717 -0.0006136 -0.00055619 -0.00033476 -0.00029919 0.0026786 -0.0015077
-0.0036277 0.011047 0.26143 0.19389
1700000000 0.29091 -0.030368 0.0033696 0.0075523 -0.0036668 0.00011293 0.0029457 -0.0014962
-0.0021805 -0.00044081 0.00070532 0.0003165
0.0033604 0.0075413 0.22546 0.23766 0.0037756 3.9972e-05 -0.0015342 -0.00033692
-0.00055755 9.8748e-05 -0.0009061 -0.00031686
-0.0036693 8.5946e-05 0.0038016 2.902e-05 0.26155 -0.19917 0.00083275 0.0013965
-0.001888 5.1787e-05 -0.00075972 -0.00086634
0.0029512 -0.0014897 -0.0015445 -0.00035661 0.00084651 0.0013864 0.23893 -0.0022909
-0.0013741 0.0099834 0.001458 -0.0026792
-0.0021775 -0.00044789 -0.00054492 8.7523e-05 -0.0018692 7.6649e-05 -0.0013548 0.0099911
0.22614 0.11033 0.0015136 0.010768
0.00068192 0.00034102 -0.00092318 -0.00029812 -0.00077012 -0.00087826 0.0014841 -0.0026958
0.0015155 0.010774 0.27579 0.15868
1760000000 0.27719 -0.077931 0.0043693 0.003952 -0.0025511 0.00089421 0.00088219 -0.0035429
-0.001373 0.0010093 0.00034369 -0.00050271
0.00436 0.0039705 0.25054 0.19807 0.0014105 -0.0017003 -0.0011614 0.00041371
-0.00091825 0.00071011 -0.00055798 0.00051585
-0.002556 0.00089454 0.0013933 -0.0017127 0.21293 -0.23302 0.0013469 0.00073699
-0.001061 0.0017601 -0.0014897 -0.00021927
0.00085774 -0.0035599 -0.0011581 0.00042539 0.0013487 0.00076258 0.22935 -0.050739
0.001377 0.007933 -0.00048803 -0.0028709
-0.0013808 0.0010264 -0.00091564 0.00071044 -0.0010483 0.001754 0.0013901 0.0079397
0.23885 0.073824 0.0054454 0.0074116
0.00034388 -0.00049112 -0.00053878 0.00051166 -0.001493 -0.00025032 -0.00048996 -0.0028763
0.0054565 0.0073983 0.2864 0.12014
1820000000 0.25161 -0.1141 0.0035287 0.00092653 -0.00027179 0.0025662 -0.0013786 -0.0028345
-0.00079184 0.0012091 -0.00010109 -9.5174e-05
0.0035216 0.00094613 0.26007 0.16878 -0.00062111 -0.00038913 -0.0010606 0.0010449
-0.00011088 0.0010975 -0.00043003 0.00056709
-0.00024168 0.0026144 -0.00060352 -0.00036959 0.1624 -0.2489 0.0012399 1.5181e-05
0.00016511 0.0021569 -0.0013181 0.00068926
-0.0013402 -0.0028432 -0.0010429 0.0010634 0.0012648 -3.3351e-06 0.20058 -0.095192
0.0021005 0.0056142 -0.0018653 -0.0018035
-0.00075185 0.0011946 -0.00010352 0.0010941 0.00017105 0.0021771 0.0020989 0.0056347
0.25378 0.043607 0.006431 0.0032307
-8.2382e-05 -7.0796e-05 -0.00042585 0.00057689 -0.0013418 0.00071744 -0.0018362 -0.0018024
0.0064184 0.0032356 0.28705 0.082915
1880000000 0.21585 -0.15328 0.00073545 -0.00048193 -0.00054155 0.0023036 -0.0030012 -0.0017373
7.4207e-05 0.0015995 0.00013991 -0.00040153
0.00073378 -0.0004612 0.26446 0.12246 -0.0027786 0.0015228 4.2654e-05 0.0015812
0.00042741 0.0010878 0.00025453 0.00088135
-0.00058428 0.0023169 -0.0027581 0.0015153 0.10926 -0.25906 0.0013995 -0.00095084
0.0017803 0.0015851 -0.00055052 0.0016294
-0.0030384 -0.0017229 7.6732e-05 0.0016035 0.0014094 -0.00097032 0.16223 -0.13467
0.0019298 0.0033855 -0.0026812 0.00014452
7.6342e-05 0.0015788 0.00041989 0.0010892 0.0018067 0.0015775 0.0019278 0.0034081
0.25406 0.0097281 0.005882 0.00052524
8.6477e-05 -0.00043809 0.00027151 0.00088294 -0.00055974 0.0016188 -0.0026805 0.00013342
0.0058865 0.00052839 0.28487 0.048244
1940000000 0.17637 -0.17822 -0.0014098 -0.0012037 0.0014891 0.0022458 -0.0034775 0.00085444
0.0015191 0.00086135 -0.0004747 -0.00049158
-0.0014214 -0.0012132 0.26476 0.091012 -0.0015384 0.0039879 0.0010355 0.0010415
0.0015984 0.0006148 0.00086844 0.00035957
0.0015395 0.0021931 -0.0015015 0.0039867 0.062498 -0.25214 0.00017514 -0.0017252
0.002271 0.00012986 0.00071443 0.0015707
-0.0034642 0.00080921 0.0010427 0.0010463 0.00016528 -0.0017157 0.11176 -0.16509
0.00056269 0.0022963 -0.0019146 0.0015259
0.0015105 0.00085344 0.001593 0.00059075 0.0022617 0.00013193 0.00057586 0.0022983
0.2533 -0.029538 0.0041685 -0.0028929
-0.00046982 -0.00051035 0.00087459 0.00035225 0.00067914 0.0015637 -0.0019298 0.0015278
0.0041671 -0.0028963 0.27211 0.011594
2000000000 0.13024 -0.19272 -0.0047944 0.0013234 0.0026272 0.0015927 -0.0021149 0.0034353
0.0010013 -0.00016199 -0.00048211 0.00038492
-0.0047791 0.0013432 0.25094 0.055395 -0.0012381 0.0059724 0.0014813 0.00013686
0.0013667 -0.0010171 0.00038528 -3.0346e-06
0.0026415 0.0015794 -0.0011769 0.0059888 0.018361 -0.23727 -0.0010508 -0.00095888
0.0016575 -0.0011497 0.0017402 0.00092778
-0.0021024 0.0034242 0.0014916 0.0001262 -0.0010429 -0.00097476 0.05959 -0.17669
-0.0014531 0.0022485 -0.00029067 0.0024092
0.00095901 -0.00021777 0.0013697 -0.001031 0.0016462 -0.0011545 -0.0014705 0.0022731
0.2448 -0.063417 0.00058788 -0.0040431
