!Keysight Technologies,M9804A,MY58100912,A.14.10.03
!Date: Thursday, April 27, 2023 10:28:33
!Correction: S11(C  6-Port  ) 
!S12(C  6-Port  ) 
!S13(C  6-Port  ) 
!S14(C  6-Port  ) 
!S15(C  6-Port  ) 
!S16(C  6-Port  ) 
!S21(C  6-Port  ) 
!S22(C  6-Port  ) 
!S23(C  6-Port  ) 
!S24(C  6-Port  ) 
!S25(C  6-Port  ) 
!S26(C  6-Port  ) 
!S31(C  6-Port  ) 
!S32(C  6-Port  ) 
!S33(C  6-Port  ) 
!S34(C  6-Port  ) 
!S35(C  6-Port  ) 
!S36(C  6-Port  ) 
!S41(C  6-Port  ) 
!S42(C  6-Port  ) 
!S43(C  6-Port  ) 
!S44(C  6-Port  ) 
!S45(C  6-Port  ) 
!S46(C  6-Port  ) 
!S51(C  6-Port  ) 
!S52(C  6-Port  ) 
!S53(C  6-Port  ) 
!S54(C  6-Port  ) 
!S55(C  6-Port  ) 
!S56(C  6-Port  ) 
!S61(C  6-Port  ) 
!S62(C  6-Port  ) 
!S63(C  6-Port  ) 
!S64(C  6-Port  ) 
!S65(C  6-Port  ) 
!S66(C  6-Port  ) 
!S6P File: Measurement: :
# Hz S  RI   R 50
500000000 -0.33941 -0.01765 -0.011226 -0.003196 -0.0077271 0.012845 -0.003374 0.012603
0.011229 0.004394 -0.0032709 0.0091785
-0.011184 -0.0031241 -0.42012 -0.036319 0.006138 -0.011548 0.0017843 0.012406
0.006944 0.0021888 0.0022971 0.013622
-0.0076493 0.012845 0.0060999 -0.011497 -0.2629 0.22286 0.0071216 0.0037538
-0.0010664 0.0080306 0.0022155 0.011975
-0.0033337 0.012637 0.0018034 0.012387 0.0071196 0.0037362 -0.3302 0.062383
-0.019888 -0.0064932 0.015424 0.023124
0.011241 0.004384 0.0069649 0.0021281 -0.0010869 0.0080292 -0.019879 -0.0064978
-0.23666 -0.16355 -0.026041 0.0044179
-0.0033116 0.0092624 0.0023626 0.01358 0.0022571 0.011948 0.015477 0.023092
-0.026089 0.0043722 -0.28472 -0.080659
560000000 -0.31262 0.13854 -0.027025 -0.060993 0.0012754 0.011673 0.0054585 0.0096646
0.009312 0.0038483 0.010466 0.0068276
-0.027062 -0.060985 -0.37494 0.11863 -0.042911 -0.033784 0.013712 0.0034092
-0.012217 -0.0032689 0.0033039 -0.0011393
0.001223 0.01156 -0.042918 -0.033641 -0.18049 0.26735 -0.00017391 -0.0043803
0.018656 0.0038167 0.0068854 -0.0060062
0.0053251 0.0095636 0.013679 0.0034892 -0.0001677 -0.004398 -0.30389 0.14886
0.00081975 -0.024421 0.0029022 -0.018366
0.0093549 0.0036969 -0.012221 -0.0031256 0.018676 0.0037679 0.00078786 -0.024423
-0.28843 0.0091934 0.0028177 -0.046074
0.010479 0.0068139 0.0032447 -0.0011633 0.0069003 -0.0059535 0.0028823 -0.018428
0.0028627 -0.04606 -0.33011 0.059101
620000000 -0.27083 0.1238 -0.023822 0.0076619 0.0042202 0.0081872 0.0077982 -0.0051087
0.010424 -0.0017451 0.00069081 -0.0030719
-0.023762 0.0076893 -0.40149 0.074134 -0.019572 0.00055162 -0.00087417 -0.0021872
0.01003 -0.0066467 0.0013408 -0.003083
0.0041848 0.0081761 -0.019587 0.00056433 -0.14922 0.27725 -0.0011556 -0.0049418
-0.0028777 -0.0028376 0.0079774 -0.0036189
0.0079258 -0.0050429 -0.00082515 -0.0022011 -0.0011453 -0.0049587 -0.26224 0.16048
-0.039852 -0.016865 0.011762 0.023296
0.010215 -0.0017091 0.0099676 -0.0066289 -0.0028879 -0.0028567 -0.039846 -0.016839
-0.21092 -0.030018 -0.038632 0.014615
0.00061207 -0.0031651 0.0013142 -0.0030942 0.0080491 -0.0036074 0.011702 0.023277
-0.038574 0.014583 -0.25602 0.030842
680000000 -0.22775 0.20531 -0.027896 -0.011581 0.0056077 0.0044831 0.0010697 -0.0073578
-0.0028923 -0.011376 0.0040779 -0.0067044
-0.027841 -0.011616 -0.3841 0.16791 -0.032204 0.00060557 -0.0014013 -0.00069809
-0.0024069 -0.0087952 -0.0015409 -0.0021053
0.0056694 0.004449 -0.032202 0.0006481 -0.098023 0.2949 -0.0008817 -0.00066604
-0.0017251 -4.7238e-05 -0.0035556 -0.0085551
0.0010888 -0.0073402 -0.001398 -0.00072856 -0.00087773 -0.00064764 -0.2166 0.20755
-0.026032 -0.004716 -0.0087374 -0.008083
-0.0029293 -0.011403 -0.0023946 -0.0088531 -0.001722 -2.5848e-05 -0.026024 -0.0047184
-0.25105 0.068365 -0.0072792 -0.0067464
0.0039846 -0.0066957 -0.0015326 -0.0020809 -0.003555 -0.0085611 -0.0087676 -0.0081145
-0.0072683 -0.0068177 -0.25378 0.1266
740000000 -0.18391 0.20014 -0.036187 0.026532 0.011882 -0.005889 -0.00089169 -0.0040199
-0.0053285 -0.002728 -0.0058289 0.0032291
-0.036179 0.02643 -0.33256 0.18725 -0.032469 0.035185 -0.00087194 -0.0061253
-0.011305 0.0081054 -0.0021332 -0.0048612
0.011874 -0.005863 -0.032401 0.03522 -0.064492 0.29419 -0.0018081 0.0032271
-0.0034381 -0.0046261 -0.0019133 0.0013239
-0.00086069 -0.0040037 -0.00086258 -0.0061031 -0.0018292 0.0032277 -0.19857 0.2164
-0.042221 -0.0029149 0.022267 0.012489
-0.0054034 -0.0026626 -0.01123 0.0081213 -0.0034134 -0.0046369 -0.042254 -0.0028679
-0.15666 0.088978 -0.038703 0.0034973
-0.0058967 0.0032314 -0.0022098 -0.0048193 -0.001945 0.0013703 0.022258 0.012469
-0.038655 0.0034405 -0.24186 0.1374
800000000 -0.14965 0.23734 -0.0212 0.017797 0.0045455 -0.010562 -0.0042748 -0.0015463
-0.003782 0.0031463 0.003782 0.00087777
-0.021214 0.017775 -0.33262 0.25563 -0.0064234 0.033564 -0.0022669 0.0024475
-0.00083871 0.0035952 0.0010182 0.005469
0.0045081 -0.010536 -0.0063696 0.033576 -0.021622 0.31579 0.0008994 0.0016603
0.00059625 0.0035907 -0.001716 0.0013007
-0.0042874 -0.0015899 -0.002252 0.0024511 0.00090955 0.0016636 -0.16849 0.2426
-0.02653 0.016668 0.012446 -0.010094
-0.003822 0.0031763 -0.00081479 0.0035867 0.00057329 0.0036036 -0.026548 0.016705
-0.19469 0.11625 -0.015308 0.019225
0.0038185 0.00091879 0.0010377 0.0054627 -0.0017089 0.0012922 0.012447 -0.010103
-0.015326 0.019178 -0.22826 0.18174
860000000 -0.11462 0.2567 -0.015422 0.030838 -0.003774 -0.0095336 -0.0019313 0.0012655
0.004625 0.004623 -0.0024751 -0.0023988
-0.015436 0.03078 -0.28519 0.29643 0.0094238 0.033034 0.0001998 0.0022698
0.0047002 0.00022515 0.0033404 0.00044789
-0.0037916 -0.0095419 0.0094863 0.033005 0.02663 0.32271 -0.00042558 -1.3974e-05
0.0026225 -0.0014543 0.0020774 0.0039426
-0.0019093 0.0012457 0.00018159 0.0022819 -0.00043907 -1.8848e-05 -0.13188 0.25315
-0.01485 0.020576 -0.005464 -0.0092103
0.0046105 0.004531 0.0047238 0.00020063 0.00263 -0.0014669 -0.014824 0.020613
-0.14141 0.16042 -0.02108 0.017086
-0.0025799 -0.0022794 0.0033531 0.00046541 0.0020723 0.003944 -0.0054957 -0.0091949
-0.021136 0.017009 -0.17919 0.22096
920000000 -0.088047 0.27802 0.0065081 0.036405 -0.0093644 -0.0039739 -0.0013578 0.001661
0.0015217 0.0014604 0.0027743 -0.001857
0.0065042 0.036383 -0.25481 0.31679 0.028322 0.01997 0.0017851 0.00084203
0.0070823 -0.00076303 0.0034715 -0.0030613
-0.0093866 -0.0039698 0.028378 0.019921 0.074081 0.32277 0.0019268 -0.00012843
0.001517 -0.00064784 0.00065027 -0.0013863
-0.0013397 0.0016532 0.0017715 0.00084096 0.0019275 -0.00012894 -0.10569 0.26902
-0.0069534 0.030816 0.0024635 -0.0064731
0.0015285 0.0014438 0.0071006 -0.00077006 0.0015148 -0.0006535 -0.0069017 0.030835
-0.12838 0.16741 -0.00024731 0.025623
0.0027188 -0.0018093 0.0034813 -0.0030628 0.00064425 -0.0013646 0.0024811 -0.0064633
-0.00026191 0.025587 -0.17846 0.23678
980000000 -0.041002 0.29553 0.018781 0.028337 -0.0084812 0.0047132 0.0019964 0.0029455
0.0038182 -0.0019121 -0.0029591 -0.0020515
0.01879 0.028324 -0.20286 0.34917 0.032615 0.0029304 0.0020857 -0.00035918
0.0014798 -0.006165 -0.00062799 -0.0022791
-0.0084512 0.0047162 0.032626 0.0028851 0.1209 0.31471 0.00044578 -0.0013533
1.4071e-05 -0.0021442 0.0012709 -0.00020632
0.0019969 0.0029396 0.0021006 -0.00035039 0.00044692 -0.0013517 -0.066739 0.27842
0.011014 0.028451 -0.0083492 -0.0058985
0.0038383 -0.0019328 0.0014469 -0.0062103 9.3525e-06 -0.0021668 0.011078 0.028469
-0.095945 0.19098 0.0069417 0.018544
-0.0029601 -0.00206 -0.0006539 -0.0022567 0.0012824 -0.00022454 -0.0083759 -0.0058715
0.0069219 0.018536 -0.13301 0.2738
1040000000 0.001954 0.30267 0.033075 0.015426 -0.0011041 0.0066879 0.0023291 0.00052363
-0.00017741 -0.0031272 -0.00074301 -0.0013266
0.033024 0.015413 -0.16681 0.36229 0.027693 -0.01598 0.0013507 -0.0018345
-0.0025475 -0.0026638 -0.0016965 -0.0027131
-0.0010794 0.0066539 0.027683 -0.016042 0.16775 0.30008 -0.00069396 -0.0014217
-0.0017205 -0.00086766 -0.00049215 -0.00099435
0.0023329 0.00053878 0.0013575 -0.0018301 -0.0006771 -0.0014228 -0.037598 0.28739
0.021596 0.01535 -0.0026308 0.00114
-0.00019843 -0.0030736 -0.0025405 -0.0026333 -0.0016967 -0.000852 0.021656 0.015336
-0.063797 0.19728 0.01416 0.015715
-0.00069121 -0.0013248 -0.001675 -0.0027074 -0.00050179 -0.00099999 -0.0026347 0.0011523
0.014114 0.015767 -0.10812 0.29341
1100000000 0.047299 0.30848 0.034372 -0.0062089 0.0026787 0.0036112 0.0021392 -0.0010955
-0.0021262 -0.0028404 -0.0036573 0.00049625
0.034351 -0.0061942 -0.12337 0.37839 0.013312 -0.02793 -0.00014556 -0.0018306
-0.0035035 -0.0005513 -0.0033927 -0.00029255
0.0026835 0.0036089 0.013252 -0.027974 0.21491 0.2775 -0.0018343 0.00029723
-0.0018248 0.00076482 -0.0010094 -0.00011968
0.0021359 -0.0010969 -0.00017116 -0.0018201 -0.0018411 0.0002905 0.0039134 0.28998
0.025087 0.0017004 -0.0025447 -5.6141e-05
-0.0021224 -0.0028438 -0.0034995 -0.00055178 -0.001816 0.00076072 0.025111 0.0016688
-0.044698 0.20805 0.018975 0.0058268
-0.0036707 0.00055324 -0.0033501 -0.00027971 -0.00099172 -0.00012952 -0.0025394 -6.4137e-05
0.018972 0.0058335 -0.061379 0.31652
1160000000 0.097933 0.30227 0.021897 -0.021868 0.0022536 -0.00024774 -0.00011992 -0.0020005
-0.0039475 -0.00048457 -0.00064061 0.003712
0.021897 -0.021871 -0.078693 0.38233 -0.0054191 -0.028196 -0.0017718 -0.0014868
-0.0027004 0.0026194 -0.0013355 0.0017722
0.0022446 -0.00026591 -0.0055004 -0.028174 0.25734 0.24448 -0.0006878 0.0018083
-0.00034036 0.0020516 -0.00077745 0.00027307
-0.00011682 -0.0019844 -0.001755 -0.0014745 -0.00067996 0.0018052 0.043391 0.28486
0.02006 -0.013507 -0.0030376 0.004297
-0.0039433 -0.00047528 -0.0027081 0.0026414 -0.00033938 0.0020662 0.020059 -0.013536
-0.01187 0.21495 0.017141 -0.0024738
-0.00063551 0.0036811 -0.0013275 0.0017898 -0.00074679 0.00026238 -0.0030329 0.0043229
0.017146 -0.0024642 -0.014561 0.3171
1220000000 0.14274 0.28935 0.0078652 -0.029693 -0.0015994 -0.00027694 0.00011733 -0.00092638
-0.0023903 0.0024269 0.0014236 0.001913
0.0078971 -0.029646 -0.03425 0.39288 -0.017578 -0.01959 -0.002441 0.00052566
0.00016478 0.0030418 -0.00045233 0.0019691
-0.0016022 -0.0002745 -0.017636 -0.019534 0.29583 0.20355 0.00091938 0.0018152
0.00068606 0.0012318 0.00044308 0.00043969
0.00010163 -0.00094968 -0.0024429 0.00053163 0.0009172 0.0018296 0.083921 0.2739
0.0084913 -0.019338 0.0012937 0.0014268
-0.0023508 0.0024179 0.0001823 0.003022 0.00067533 0.0012214 0.0084631 -0.019349
0.01231 0.2218 0.01162 -0.013938
0.0014475 0.0018777 -0.00043265 0.0020061 0.00046062 0.00046081 0.0013003 0.001423
0.011619 -0.013907 0.019332 0.32825
1280000000 0.19149 0.26568 -0.0097233 -0.02697 -0.0014932 0.0028753 -0.0009233 -0.001988
-0.00060949 0.0029951 0.0023931 0.00085446
-0.0096846 -0.026942 0.011783 0.38284 -0.023513 -0.007027 -0.00089263 0.0014651
0.0018768 0.0016426 0.0008144 0.0016869
-0.0014718 0.0028796 -0.023547 -0.0069608 0.32448 0.15803 0.0016756 -9.4066e-05
0.001196 0.00013114 0.00021178 0.00023778
-0.00092633 -0.0019776 -0.00089114 0.0014642 0.0016728 -9.7261e-05 0.11983 0.25456
-0.0018068 -0.020273 -0.00063295 0.00053218
-0.00062088 0.0029991 0.0019083 0.0016436 0.0011937 0.00012153 -0.0018422 -0.020297
0.048269 0.22317 0.0010756 -0.015642
0.0024195 0.00085297 0.00079808 0.0016935 0.00019309 0.00025156 -0.00061956 0.00052503
0.0011016 -0.015654 0.064993 0.32561
1340000000 0.22797 0.23056 -0.018478 -0.016758 0.0014149 0.0043694 -0.001709 -0.00088091
0.0015522 0.0025203 0.0014533 -0.0014549
-0.018456 -0.016753 0.051337 0.37309 -0.020668 0.0053171 -8.0247e-05 0.0020381
0.001986 0.00051766 0.0013703 0.000628
0.0014373 0.0043665 -0.020654 0.0053874 0.34487 0.1098 0.0012092 -0.0010316
0.00062508 -0.00059021 4.0442e-05 0.00019841
-0.0016974 -0.00089493 -7.6064e-05 0.0020326 0.0012045 -0.001037 0.15116 0.23215
-0.011242 -0.016149 0.00042068 0.0012497
0.0015595 0.0025251 0.0020089 0.0005057 0.00063499 -0.00059764 -0.011274 -0.01614
0.078047 0.21684 -0.0059221 -0.013267
0.0014423 -0.0014402 0.0013804 0.00061495 4.566e-05 0.00019699 0.000436 0.0012696
-0.0059016 -0.013292 0.1039 0.31691
1400000000 0.25998 0.1909 -0.022831 -0.0052834 0.0054705 0.0026709 -0.0021536 0.00060409
0.0023899 0.00080711 0.00011221 -0.0014205
-0.022799 -0.0052944 0.08802 0.3589 -0.013602 0.01278 0.0013807 0.0012934
0.00113 -0.0009557 0.0011024 1.1426e-05
0.0054551 0.0026673 -0.01356 0.012828 0.35688 0.056236 1.406e-05 -0.0018756
6.3853e-05 -0.00039339 0.00043981 0.0001575
-0.0021601 0.00062382 0.0013918 0.0012887 7.7109e-06 -0.0018808 0.17916 0.20108
-0.016636 -0.0084984 -0.00038644 0.00063924
0.0023921 0.00077674 0.0011172 -0.00095246 6.388e-05 -0.00039234 -0.016657 -0.0084694
0.11018 0.21011 -0.011645 -0.00761
9.8807e-05 -0.0014079 0.0011149 6.7471e-06 0.00044278 0.00016601 -0.000393 0.00064688
-0.011629 -0.0076113 0.14644 0.30179
1460000000 0.28129 0.14603 -0.019084 0.006114 0.0054946 -0.0023333 -0.0015384 0.0017364
0.0020788 -0.0007175 -0.00047286 -0.00088568
-0.019071 0.0061016 0.12151 0.33602 -0.0050937 0.014949 0.0017275 9.4438e-05
0.00067883 -0.0013235 0.0010019 -0.00059669
0.0054966 -0.0023202 -0.005038 0.014967 0.36154 0.002094 -0.0014735 -0.0012942
9.6706e-05 -0.0002127 0.00062389 -0.00026012
-0.0015524 0.0017386 0.001738 9.139e-05 -0.0014701 -0.0012884 0.20291 0.17042
-0.016993 -0.0010184 -5.3169e-05 0.0022777
0.0020804 -0.00070929 0.00068064 -0.0013266 8.6697e-05 -0.00020774 -0.017019 -0.00098788
0.13847 0.19389 -0.012607 -0.0013648
-0.00045695 -0.00087906 0.00099287 -0.00060228 0.00060683 -0.00026623 -6.0111e-05 0.0022688
-0.012598 -0.0013886 0.17809 0.27876
1520000000 0.29237 0.10319 -0.012891 0.010887 0.0029722 -0.0043653 0.00015904 0.0026238
0.0018523 -0.0017858 -0.0010898 -5.1526e-05
-0.012894 0.010865 0.15432 0.32051 0.0020585 0.012434 0.0016715 -0.00092221
-0.00011844 -0.0010284 0.0002443 -0.00092375
0.0029643 -0.0043771 0.0021041 0.012432 0.35452 -0.053846 -0.0013149 -0.00015673
0.00048389 -0.00087862 -4.225e-05 -0.00013905
0.00016066 0.0026226 0.0016629 -0.00091833 -0.0013222 -0.00015854 0.2235 0.13193
-0.015069 0.0050186 0.0021308 0.0019275
0.0018392 -0.0017998 -0.00011887 -0.0010339 0.00049083 -0.00089419 -0.015083 0.0050574
0.16608 0.17814 -0.011896 0.0033131
-0.0011091 -2.1621e-05 0.00024255 -0.00092791 -3.7199e-05 -0.00013393 0.0021512 0.0019263
-0.011895 0.0032957 0.20958 0.25516
1580000000 0.29998 0.056496 -0.0063794 0.013055 -0.0012237 -0.0047917 0.0015589 0.0019203
-0.00028029 -0.0021574 -0.00023328 0.00035542
-0.0063826 0.013054 0.18063 0.29507 0.0052544 0.0075598 0.00039024 -0.0017269
-0.00057595 -0.00089653 -0.00025189 -0.00074597
-0.001234 -0.0047801 0.0052767 0.0075469 0.33394 -0.11151 -0.001606 0.0010015
-0.00041796 -0.0011677 0.00015123 -0.000528
0.001566 0.0019086 0.00038881 -0.0017271 -0.0016019 0.0010066 0.23457 0.092595
-0.01073 0.0094916 0.0026706 0.00020421
-0.00029617 -0.0021484 -0.0005681 -0.00088801 -0.00040258 -0.0011564 -0.010716 0.0095318
0.18919 0.15801 -0.0087972 0.008405
-0.00023281 0.00035674 -0.00027035 -0.00075448 0.00014084 -0.00053988 0.0026613 0.00019176
-0.0087914 0.0083951 0.23877 0.22651
1640000000 0.30039 0.014978 -0.00020886 0.011263 -0.0028692 -0.0024332 0.0028087 0.00082846
-0.00089172 -0.0014515 -0.00022522 0.00054257
-0.00021655 0.011257 0.20934 0.26969 0.0057067 0.0031367 -0.0009183 -0.0016916
-0.00095749 -0.00030307 -0.0005292 -0.00052553
-0.0028875 -0.0024087 0.0057125 0.0031106 0.30481 -0.1603 -0.00046972 0.0015439
-0.001181 -0.00073522 -0.00019869 -0.0002675
0.0028042 0.0008183 -0.00092266 -0.0016937 -0.00047638 0.001545 0.24426 0.045285
-0.0058252 0.010213 0.0025833 -0.0013584
-0.00089383 -0.0014282 -0.00095835 -0.00029547 -0.0011796 -0.00073707 -0.005805 0.010233
0.21057 0.1321 -0.003743 0.010085
-0.00023194 0.00054616 -0.00053786 -0.00051443 -0.00020082 -0.00027709 0.00258 -0.0013666
-0.0037569 0.010078 0.26229 0.19385
1700000000 0.29145 -0.030485 0.002587 0.0081368 -0.0034199 0.00026306 0.0029064 -0.00145
-0.0019871 -0.00054785 0.00066791 0.00033591
0.0025843 0.0081324 0.22673 0.23809 0.0036616 0.00038656 -0.0015527 -0.00040388
-0.00068254 0.00013389 -0.00084186 -0.00038638
-0.0034128 0.00028001 0.0036622 0.00037483 0.26126 -0.20028 0.00064959 0.001431
-0.0018159 -8.8808e-05 -0.00054847 -0.00080246
0.0029048 -0.0014569 -0.001543 -0.00040246 0.00065153 0.0014348 0.23978 -0.0025335
-0.0027005 0.010013 0.0013934 -0.0025065
-0.0019794 -0.00053 -0.00068248 0.00013589 -0.0018128 -9.4144e-05 -0.0026823 0.010022
0.22634 0.11001 0.00096218 0.0099939
0.0006801 0.00035277 -0.00084685 -0.00037925 -0.00052431 -0.00078733 0.0013982 -0.0025074
0.00096859 0.0099887 0.27657 0.15822
1760000000 0.27765 -0.078322 0.0040963 0.0048582 -0.0021717 0.0010055 0.00090521 -0.003503
-0.0013343 0.00082447 0.00045876 -0.00046425
0.0040789 0.004855 0.25188 0.1979 0.0014075 -0.0013295 -0.0012155 0.00035224
-0.00092783 0.00079048 -0.00055146 0.00043124
-0.0021619 0.0010133 0.0014026 -0.00133 0.21197 -0.23379 0.0012653 0.00078689
-0.0010262 0.0015737 -0.0012277 -0.00045737
0.00090158 -0.0034961 -0.0012065 0.00035795 0.0012629 0.00078633 0.22998 -0.051386
0.00031629 0.0085718 -0.00052808 -0.002695
-0.0013379 0.00083446 -0.00092827 0.00080115 -0.0010369 0.0015715 0.00033534 0.0085776
0.23906 0.073532 0.0046526 0.0069526
0.00042096 -0.00047199 -0.00056281 0.00043757 -0.0012477 -0.00045969 -0.00053324 -0.0027077
0.0046422 0.0069596 0.28709 0.1196
1820000000 0.25182 -0.1148 0.0037167 0.0016945 -5.118e-05 0.0023912 -0.0013478 -0.0027853
-0.00096224 0.0010674 -8.2733e-05 -8.2861e-05
0.0037127 0.0016919 0.26119 0.16802 -0.00037982 -4.9964e-05 -0.0010715 0.0010697
-3.6868e-05 0.0012205 -0.00052808 0.00054305
-4.1033e-05 0.0023993 -0.00038352 -3.2267e-05 0.16143 -0.24869 0.0013934 0.00014279
-6.1453e-06 0.0021819 -0.0013323 0.00053118
-0.0013515 -0.0027696 -0.0010693 0.0010741 0.0013783 0.00014219 0.20084 -0.096141
0.0016052 0.0066261 -0.0017888 -0.0015852
-0.00096555 0.0010739 -2.819e-05 0.0012072 -4.4609e-06 0.0021982 0.0016152 0.0066219
0.25392 0.043422 0.0055008 0.0031959
-7.045e-05 -9.1711e-05 -0.00051927 0.00054845 -0.00135 0.00052286 -0.0017948 -0.0015757
0.0054857 0.0031764 0.28728 0.082292
1880000000 0.2159 -0.15397 0.0012688 1.5006e-05 -0.00046492 0.0020845 -0.0029386 -0.001783
-9.0379e-05 0.0015992 0.00016225 -0.00046184
0.0012609 2.5799e-05 0.26512 0.12125 -0.002421 0.001591 6.149e-05 0.0016346
0.00053633 0.0011114 0.00016643 0.00090836
-0.00046161 0.0020815 -0.0024124 0.0016018 0.10876 -0.25877 0.0014501 -0.00098877
0.0015583 0.0015668 -0.00083487 0.001377
-0.0029536 -0.0017765 6.5639e-05 0.0016319 0.0014409 -0.00098025 0.16194 -0.13568
0.0019778 0.0043914 -0.0024813 0.00039353
-8.7296e-05 0.0015997 0.00053586 0.001111 0.0015472 0.0015655 0.0019948 0.0043826
0.25433 0.0095411 0.0050693 0.0008695
0.00017254 -0.00044122 0.00017523 0.00089838 -0.00079356 0.0013427 -0.0024578 0.00038779
0.0050709 0.0008657 0.28483 0.047464
1940000000 0.17618 -0.17903 -0.00087914 -0.0010524 0.0014776 0.0020106 -0.0034741 0.00082039
0.001495 0.0010157 -0.00059782 -0.00054417
-0.00087198 -0.0010455 0.26481 0.08973 -0.0012237 0.0039207 0.0010629 0.0010323
0.0017316 0.00049486 0.00093971 0.00042787
0.0014897 0.0019942 -0.0012112 0.003904 0.062316 -0.25178 0.00018408 -0.0017843
0.0023539 0.00031397 0.0005523 0.001765
-0.0034464 0.00083502 0.0010755 0.0010286 0.00018797 -0.0017788 0.11095 -0.16577
0.00097356 0.0030467 -0.0016401 0.0015458
0.0015044 0.0010152 0.0017355 0.00048807 0.0023448 0.00028209 0.00099218 0.0030471
0.25363 -0.029645 0.0035765 -0.0022039
-0.00059426 -0.00054491 0.00094428 0.00042901 0.00052666 0.0017763 -0.00166 0.0015637
0.0035695 -0.0021932 0.27194 0.010839
2000000000 0.12957 -0.1933 -0.004295 0.0012694 0.0026046 0.0014862 -0.0020619 0.0033907
0.0011162 -8.7475e-06 -0.00052281 0.00043554
-0.0042997 0.0012685 0.25044 0.054259 -0.0010179 0.0057069 0.0014806 0.00017218
0.001344 -0.0012588 0.0005318 -8.0362e-05
0.0026037 0.0014755 -0.00095306 0.0057254 0.018483 -0.23706 -0.0011305 -0.0009748
0.001752 -0.0012457 0.0018394 0.00092542
-0.0020381 0.0034035 0.0014747 0.00017817 -0.0011335 -0.00099257 0.058708 -0.17692
-0.00075248 0.002683 -0.00018093 0.0023032
0.0011187 -1.2889e-05 0.0013232 -0.0012669 0.001762 -0.0012694 -0.00074211 0.0026898
0.24534 -0.063525 0.00033112 -0.0031127
