!Keysight Technologies,M9804A,MY58100912,A.14.10.03
!Date: Thursday, April 27, 2023 10:28:33
!Correction: S11(C  6-Port  ) 
!S12(C  6-Port  ) 
!S13(C  6-Port  ) 
!S14(C  6-Port  ) 
!S15(C  6-Port  ) 
!S16(C  6-Port  ) 
!S21(C  6-Port  ) 
!S22(C  6-Port  ) 
!S23(C  6-Port  ) 
!S24(C  6-Port  ) 
!S25(C  6-Port  ) 
!S26(C  6-Port  ) 
!S31(C  6-Port  ) 
!S32(C  6-Port  ) 
!S33(C  6-Port  ) 
!S34(C  6-Port  ) 
!S35(C  6-Port  ) 
!S36(C  6-Port  ) 
!S41(C  6-Port  ) 
!S42(C  6-Port  ) 
!S43(C  6-Port  ) 
!S44(C  6-Port  ) 
!S45(C  6-Port  ) 
!S46(C  6-Port  ) 
!S51(C  6-Port  ) 
!S52(C  6-Port  ) 
!S53(C  6-Port  ) 
!S54(C  6-Port  ) 
!S55(C  6-Port  ) 
!S56(C  6-Port  ) 
!S61(C  6-Port  ) 
!S62(C  6-Port  ) 
!S63(C  6-Port  ) 
!S64(C  6-Port  ) 
!S65(C  6-Port  ) 
!S66(C  6-Port  ) 
!S6P File: Measurement: :
# Hz S  RI   R 50
500000000 -0.33921 -0.017749 -0.010865 -0.0031386 -0.007299 0.012644 -0.0032142 0.012326
0.011441 0.0036403 -0.0028605 0.0088018
-0.010846 -0.0031584 -0.41944 -0.035787 0.0062401 -0.011729 0.0019619 0.012607
0.0067495 0.0022313 0.0022647 0.013825
-0.0072935 0.01264 0.0062199 -0.011741 -0.2626 0.22283 0.0073675 0.0036033
-0.00086467 0.0081976 0.0024722 0.012065
-0.0032041 0.012306 0.0019806 0.012618 0.007363 0.0036056 -0.32978 0.063057
-0.019344 -0.0063386 0.015821 0.023686
0.011449 0.0036331 0.0067506 0.0022389 -0.0008693 0.0081928 -0.019346 -0.0063332
-0.23628 -0.16315 -0.025344 0.0042651
-0.0028593 0.0087758 0.0022764 0.013831 0.0024898 0.012063 0.015832 0.023682
-0.025352 0.0042559 -0.28384 -0.080187
560000000 -0.31169 0.13765 -0.026893 -0.060659 0.00091797 0.011551 0.0059902 0.0095781
0.0094339 0.0039751 0.010666 0.0068007
-0.026864 -0.060601 -0.37524 0.11874 -0.042321 -0.034439 0.013533 0.0029982
-0.01276 -0.0040087 0.0033073 -0.0013554
0.00095296 0.011544 -0.042391 -0.034402 -0.18029 0.26719 -0.00048953 -0.0041289
0.019195 0.003278 0.0066542 -0.006289
0.0059836 0.0095544 0.013557 0.0030059 -0.00049906 -0.0041325 -0.30418 0.14879
0.00067625 -0.024324 0.0031733 -0.018754
0.0094444 0.0039677 -0.012805 -0.0039862 0.019197 0.0032576 0.00065991 -0.024325
-0.28611 0.0092553 0.0030479 -0.046207
0.010676 0.0068048 0.0032991 -0.0013813 0.0066495 -0.0062884 0.0031663 -0.018773
0.003055 -0.046213 -0.32938 0.058694
620000000 -0.27027 0.1234 -0.023408 0.0071293 0.0039856 0.0081293 0.0074628 -0.0053406
0.010574 -0.0016124 0.00050558 -0.0029752
-0.023422 0.0071106 -0.40125 0.074322 -0.01947 0.00047518 -0.0011413 -0.0022881
0.010199 -0.0064858 0.0012274 -0.0027121
0.0040077 0.0080994 -0.019481 0.00050261 -0.14908 0.277 -0.0011367 -0.0047756
-0.003356 -0.0027938 0.0079707 -0.0036255
0.0074602 -0.0053561 -0.0011432 -0.0022903 -0.0011274 -0.0047607 -0.26212 0.16105
-0.039247 -0.017678 0.012015 0.022845
0.010565 -0.0016509 0.01019 -0.0065155 -0.0033581 -0.0028007 -0.039274 -0.017656
-0.21026 -0.028099 -0.038111 0.015286
0.00049648 -0.0029979 0.001214 -0.0027271 0.0079656 -0.0036249 0.012037 0.022853
-0.038125 0.015265 -0.25555 0.030379
680000000 -0.22725 0.20471 -0.027901 -0.011852 0.0054718 0.0045715 0.00096968 -0.0072668
-0.0031835 -0.011031 0.0039182 -0.0066351
-0.027882 -0.011864 -0.38411 0.16812 -0.032165 0.00059355 -0.0014505 -0.00047852
-0.0025291 -0.0087098 -0.0015601 -0.0020393
0.0054779 0.0045541 -0.032175 0.00063932 -0.098088 0.29477 -0.00085066 -0.00030214
-0.0017562 0.00020156 -0.0034762 -0.0086758
0.0009673 -0.0072622 -0.0014543 -0.00047457 -0.0008455 -0.00030563 -0.21663 0.20735
-0.025503 -0.005155 -0.0092844 -0.0082242
-0.0032167 -0.011046 -0.0025377 -0.0087085 -0.0017552 0.00020266 -0.025529 -0.0051417
-0.2492 0.068071 -0.0068842 -0.0068211
0.003906 -0.0066443 -0.0015622 -0.0020323 -0.0034792 -0.0086726 -0.009312 -0.0082183
-0.0068899 -0.0068278 -0.25338 0.12548
740000000 -0.1836 0.19964 -0.036625 0.026358 0.011902 -0.0058394 -0.00076499 -0.0039592
-0.0051098 -0.0026013 -0.0058624 0.0033796
-0.036603 0.026317 -0.33257 0.18772 -0.032682 0.034941 -0.0010941 -0.0060806
-0.011139 0.0079177 -0.0022464 -0.0046193
0.011894 -0.0058556 -0.03264 0.035026 -0.064465 0.29405 -0.0016343 0.0030436
-0.0031532 -0.0045051 -0.002055 0.0012063
-0.00076402 -0.0039669 -0.0011151 -0.0060653 -0.0016286 0.0030347 -0.1987 0.2163
-0.041621 -0.0033997 0.02177 0.012209
-0.0051459 -0.0025996 -0.011093 0.0079732 -0.0031722 -0.0045037 -0.041654 -0.0033624
-0.15774 0.087817 -0.03862 0.0035687
-0.005859 0.003372 -0.0022841 -0.0046054 -0.0020682 0.0012126 0.021785 0.012205
-0.038612 0.0035456 -0.24102 0.13529
800000000 -0.14985 0.23668 -0.021164 0.017646 0.0044578 -0.010428 -0.0044362 -0.0016287
-0.003725 0.0028568 0.0035423 0.00058925
-0.021163 0.017617 -0.33237 0.25615 -0.0065241 0.033417 -0.0021104 0.0022895
-0.00053444 0.0034032 0.0012317 0.0053508
0.0044489 -0.010432 -0.0064601 0.033438 -0.021524 0.31581 0.00087149 0.00161
0.0003829 0.0034884 -0.0018147 0.0011661
-0.0044258 -0.0016273 -0.0021073 0.0022922 0.00087083 0.0016152 -0.16837 0.24244
-0.026641 0.016137 0.012331 -0.010014
-0.0037155 0.0028677 -0.00051884 0.0034224 0.00039909 0.003503 -0.026643 0.016187
-0.19389 0.11524 -0.015415 0.018764
0.0035588 0.00057529 0.0012408 0.0053521 -0.0018134 0.0011757 0.012332 -0.010032
-0.015431 0.018771 -0.22842 0.18073
860000000 -0.11519 0.25667 -0.015752 0.030973 -0.0039588 -0.0093607 -0.0021891 0.0013389
0.0044738 0.0047116 -0.002622 -0.002467
-0.015758 0.030931 -0.28503 0.29664 0.0092822 0.03287 0.00021849 0.0022369
0.0047949 0.00031816 0.003137 0.00049121
-0.0039579 -0.0093468 0.0093417 0.032867 0.02676 0.32265 -0.00039302 1.5258e-05
0.0025345 -0.0013423 0.0017058 0.0039905
-0.002175 0.001339 0.00022302 0.0022207 -0.0003956 1.1363e-05 -0.13177 0.25336
-0.015395 0.020843 -0.0056631 -0.0090655
0.0044994 0.0047013 0.0047776 0.00030437 0.0025316 -0.0013564 -0.01539 0.020884
-0.1421 0.16064 -0.021293 0.01623
-0.0026356 -0.0024635 0.0031524 0.00048495 0.0017131 0.0040013 -0.0056722 -0.0090747
-0.021297 0.01621 -0.17968 0.2209
920000000 -0.088331 0.27834 0.0063741 0.036603 -0.0091746 -0.0036903 -0.0014105 0.0018395
0.001495 0.001462 0.002675 -0.0017665
0.0063428 0.036567 -0.25447 0.31721 0.028133 0.02003 0.0017027 0.00092683
0.006881 -0.00077789 0.0035579 -0.0029752
-0.0091677 -0.0036752 0.02817 0.01998 0.074304 0.32257 0.0019266 -0.00014
0.0014625 -0.00055757 0.00085181 -0.0011726
-0.0013967 0.0018398 0.0016998 0.00091548 0.0019232 -0.00014285 -0.10559 0.26902
-0.007287 0.030648 0.0021765 -0.0060212
0.001504 0.0014551 0.0068717 -0.00080144 0.001462 -0.00055835 -0.0072403 0.030679
-0.12854 0.16691 -0.0002951 0.025528
0.0026777 -0.0017461 0.0035482 -0.0030052 0.00085944 -0.001179 0.0021797 -0.0060178
-0.0003115 0.025525 -0.17806 0.23597
980000000 -0.041304 0.29596 0.018705 0.028263 -0.0083115 0.0047698 0.0020587 0.0031499
0.0039142 -0.0018834 -0.0030477 -0.0021809
0.018673 0.028238 -0.20247 0.34932 0.03227 0.0030487 0.0020771 -0.00027419
0.00148 -0.0062081 -0.00069867 -0.0024282
-0.008289 0.0047843 0.032274 0.0029642 0.12098 0.3143 0.00046221 -0.001291
0.00010003 -0.0022053 0.0012811 -0.00034256
0.0020627 0.0031553 0.0020694 -0.00029687 0.00046781 -0.0012915 -0.066409 0.27849
0.01083 0.028055 -0.008385 -0.0061024
0.0039217 -0.0019002 0.0014392 -0.0062277 0.0001024 -0.0022019 0.010889 0.028055
-0.096792 0.19033 0.0059158 0.01814
-0.0030571 -0.0021714 -0.00068942 -0.0024367 0.0012939 -0.00033207 -0.0083878 -0.0060897
0.0058984 0.018137 -0.13415 0.27393
1040000000 0.0020203 0.30304 0.032874 0.015575 -0.0010138 0.0065784 0.0024613 0.00047776
-7.6646e-05 -0.0032115 -0.00066053 -0.0014803
0.032821 0.015577 -0.16647 0.3623 0.027493 -0.015664 0.0014363 -0.0018164
-0.0024657 -0.0024049 -0.0015616 -0.0027038
-0.00099662 0.006582 0.027438 -0.015729 0.16754 0.29951 -0.00061752 -0.0014843
-0.0015391 -0.00084457 -0.00040385 -0.0010876
0.0024663 0.00048695 0.0014142 -0.001825 -0.00061921 -0.0014803 -0.037577 0.28716
0.02076 0.015314 -0.002628 0.0012758
-6.1278e-05 -0.0032147 -0.0024967 -0.0023929 -0.0015493 -0.00084463 0.020796 0.015283
-0.064739 0.19688 0.013654 0.01554
-0.00067478 -0.0014683 -0.0015578 -0.0027139 -0.00040207 -0.0010866 -0.0026249 0.0012763
0.013642 0.01555 -0.10855 0.29265
1100000000 0.047526 0.30889 0.034236 -0.0059093 0.0027185 0.0035787 0.002197 -0.0010954
-0.0022063 -0.002692 -0.0035353 0.00059371
0.034199 -0.0058834 -0.1228 0.37826 0.013281 -0.027454 -0.00015198 -0.0017659
-0.0034046 -0.00044449 -0.0033656 -7.7577e-05
0.0027257 0.0035727 0.013201 -0.027501 0.21431 0.27707 -0.0017981 0.00020893
-0.0017557 0.0006622 -0.00084846 -0.00022082
0.0021895 -0.001099 -0.00016048 -0.001782 -0.0018 0.00021432 0.0039033 0.28972
0.024152 0.0021548 -0.0025849 0.00026191
-0.0022104 -0.0026787 -0.0034269 -0.00043606 -0.0017595 0.00066728 0.024173 0.0021191
-0.045659 0.20814 0.01781 0.0061707
-0.0035341 0.00061582 -0.003363 -7.6314e-05 -0.00084441 -0.00021558 -0.0025866 0.00026051
0.017798 0.0061745 -0.061975 0.3163
1160000000 0.098381 0.30246 0.021815 -0.021456 0.0022719 -0.00035087 -7.2436e-05 -0.0021281
-0.0038802 -0.00041105 -0.00050915 0.0037421
0.021805 -0.021426 -0.078516 0.38178 -0.0050393 -0.027742 -0.0016282 -0.0014378
-0.0024256 0.0024587 -0.0011177 0.0017361
0.0022748 -0.00034848 -0.0051281 -0.027736 0.25654 0.24446 -0.00072541 0.0017222
-0.00049033 0.0018432 -0.00088593 0.00014204
-8.4362e-05 -0.0021158 -0.001637 -0.00145 -0.00073604 0.0017255 0.043287 0.28464
0.01956 -0.012337 -0.002973 0.0045711
-0.0038607 -0.00038967 -0.0024389 0.0024662 -0.00049956 0.0018434 0.019553 -0.012366
-0.011895 0.21575 0.016702 -0.001794
-0.00051418 0.0037432 -0.0011035 0.0017297 -0.00090501 0.00014931 -0.0029726 0.0045817
0.016682 -0.001784 -0.014889 0.31661
1220000000 0.14314 0.28916 0.0081383 -0.029316 -0.0015506 -0.00033255 0.00012289 -0.0009327
-0.0023623 0.0023379 0.0014455 0.0018291
0.0081586 -0.029289 -0.034248 0.39226 -0.017101 -0.019463 -0.0023868 0.0005067
0.00020512 0.002844 -0.00044354 0.0018627
-0.0015526 -0.00033204 -0.017166 -0.019424 0.29507 0.20406 0.00073695 0.0017851
0.0005834 0.0012037 0.00030039 0.00055522
0.00011852 -0.00092757 -0.0023777 0.00050802 0.00074193 0.0017771 0.08364 0.27381
0.0087017 -0.018111 0.0016841 0.0015009
-0.0023567 0.0023536 0.00021487 0.0028416 0.00057618 0.0011988 0.0086884 -0.018141
0.012347 0.22235 0.011475 -0.013135
0.0014452 0.0018235 -0.00043413 0.0018607 0.00030242 0.00055733 0.0016854 0.0015066
0.011461 -0.013138 0.018869 0.32779
1280000000 0.19165 0.26539 -0.0092081 -0.026754 -0.001465 0.0027586 -0.0010185 -0.002005
-0.00056406 0.0028487 0.0022825 0.00083279
-0.0091861 -0.026736 0.011313 0.38225 -0.023086 -0.0072739 -0.0009677 0.0013836
0.0016915 0.0015782 0.00071795 0.0017234
-0.0014533 0.0027629 -0.023122 -0.0071965 0.32432 0.1589 0.0016444 -3.4417e-05
0.0011153 0.00018203 0.00027744 0.00028522
-0.001016 -0.0020008 -0.00096051 0.0013837 0.0016353 -3.3165e-05 0.11957 0.25454
-0.00089829 -0.019275 -0.00028829 0.00039077
-0.00056163 0.0028475 0.0017066 0.0015682 0.0011209 0.00018765 -0.00093618 -0.019286
0.048627 0.22347 0.0012473 -0.014673
0.0022877 0.00082294 0.00072286 0.0017164 0.00027589 0.00028391 -0.00028683 0.0003937
0.0012519 -0.014668 0.064474 0.32513
1340000000 0.228 0.23023 -0.01791 -0.016877 0.0013882 0.0041999 -0.0017635 -0.00083766
0.0014193 0.0024711 0.0014068 -0.0014683
-0.017885 -0.016873 0.050664 0.37298 -0.020459 0.0048946 -0.00013116 0.0019882
0.0018532 0.0006074 0.0012964 0.00063969
0.0014057 0.0041897 -0.020455 0.0049565 0.34519 0.11065 0.0011444 -0.0010177
0.00057931 -0.00050733 9.1225e-05 0.00018585
-0.0017627 -0.00082715 -0.00012242 0.001985 0.0011353 -0.0010136 0.15083 0.23234
-0.0099228 -0.015799 0.00062585 0.00098438
0.0014199 0.002463 0.0018568 0.00060334 0.00058334 -0.00051409 -0.0099594 -0.015789
0.078388 0.21697 -0.0051732 -0.01251
0.001403 -0.0014757 0.0012992 0.00062949 9.5954e-05 0.00017968 0.00062685 0.00098174
-0.0051593 -0.012516 0.103 0.31685
1400000000 0.25973 0.19068 -0.022434 -0.0057267 0.0052135 0.0026213 -0.0021144 0.00066813
0.0022828 0.00069089 7.7226e-05 -0.0013666
-0.0224 -0.0057398 0.087314 0.35916 -0.013694 0.012289 0.0013065 0.0013048
0.0010999 -0.00086819 0.0010406 9.2326e-05
0.0052238 0.0026158 -0.013669 0.012337 0.35766 0.056493 0.00012562 -0.0017992
6.1249e-05 -0.00038691 0.00030516 0.00013172
-0.0021146 0.00067302 0.0013143 0.0013027 0.00012243 -0.0018014 0.17893 0.20141
-0.015273 -0.0088783 -0.00034208 0.0002899
0.002293 0.00067764 0.0010882 -0.00086855 5.6982e-05 -0.00039057 -0.015296 -0.008853
0.11043 0.21016 -0.010628 -0.0073137
7.4656e-05 -0.0013722 0.0010436 9.1931e-05 0.0003087 0.00013146 -0.00033985 0.00028728
-0.010617 -0.0073302 0.14563 0.30212
1460000000 0.28099 0.14607 -0.019046 0.0055122 0.0053599 -0.0022519 -0.001501 0.0017125
0.0019228 -0.00060608 -0.00045735 -0.00079183
-0.019025 0.0054832 0.12106 0.33674 -0.0054385 0.014619 0.0017453 0.00012895
0.00075413 -0.0012371 0.0010286 -0.00055675
0.0053407 -0.0022685 -0.0053897 0.01464 0.36215 0.0020729 -0.0014428 -0.0013036
0.00011636 -0.00015091 0.00060713 -0.00024489
-0.0014945 0.0017194 0.0017482 0.00012413 -0.0014283 -0.0013095 0.20284 0.17095
-0.016017 -0.0021696 -0.00026156 0.0020149
0.0019185 -0.00060942 0.00074561 -0.00125 0.0001136 -0.00015101 -0.016028 -0.0021317
0.13883 0.19365 -0.011522 -0.0016059
-0.00045135 -0.00079119 0.0010312 -0.00055471 0.00061279 -0.00025575 -0.00026212 0.0020275
-0.011525 -0.0016275 0.17755 0.27913
1520000000 0.29218 0.10348 -0.013186 0.010355 0.0028399 -0.0042083 0.00016839 0.0025897
0.0018686 -0.0016377 -0.0010459 -3.4173e-05
-0.013181 0.010334 0.15427 0.32133 0.0016542 0.012426 0.00167 -0.00087028
-5.2948e-06 -0.0010123 0.00027928 -0.00089985
0.0028305 -0.0042143 0.0017003 0.012429 0.35493 -0.054347 -0.0013265 -0.00029569
0.00052989 -0.00087995 -5.5558e-06 -0.00015451
0.00016511 0.0025857 0.0016586 -0.00087332 -0.0013183 -0.00029505 0.22375 0.13253
-0.014933 0.003505 0.0018844 0.0017389
0.0018658 -0.001646 -1.0244e-05 -0.0010144 0.00052793 -0.00088336 -0.014932 0.0035481
0.16618 0.17781 -0.011097 0.0025092
-0.0010515 -3.9674e-05 0.00027141 -0.00090218 -5.6391e-06 -0.0001534 0.0018912 0.0017339
-0.011099 0.0025066 0.20933 0.2557
1580000000 0.3 0.056892 -0.0069127 0.012732 -0.0011725 -0.0045213 0.0015329 0.0018176
-0.00018871 -0.0020107 -0.00021063 0.0003774
-0.0069214 0.012722 0.18101 0.29585 0.0049395 0.0077758 0.00040351 -0.0016898
-0.00053244 -0.0009546 -0.00020604 -0.00078532
-0.0011851 -0.0045175 0.0049758 0.0077588 0.33401 -0.11209 -0.0016216 0.00090695
-0.00030922 -0.0010102 0.0002058 -0.00057803
0.0015326 0.0018263 0.00039874 -0.0016864 -0.0016229 0.00091025 0.23518 0.093065
-0.011424 0.0081831 0.0023833 0.00020421
-0.00019221 -0.0020111 -0.00053884 -0.00095412 -0.00030641 -0.0010118 -0.011416 0.0082161
0.1891 0.15767 -0.0085512 0.0074307
-0.00020783 0.00038052 -0.0002073 -0.00078581 0.00020434 -0.00057981 0.0023835 0.00019706
-0.0085416 0.0074233 0.23866 0.22687
1640000000 0.30072 0.015258 -0.00083282 0.011316 -0.0027357 -0.002365 0.0027155 0.00084013
-0.00072273 -0.0014384 -0.00019143 0.00054355
-0.00083876 0.011313 0.21006 0.27023 0.0055604 0.0034097 -0.00086089 -0.0016547
-0.0010141 -0.00033444 -0.00051671 -0.00057506
-0.0027396 -0.002358 0.0055707 0.0033937 0.30455 -0.16052 -0.00063717 0.0015419
-0.0011718 -0.00080464 -0.00017112 -0.00022136
0.0027308 0.00083869 -0.00086943 -0.0016586 -0.00064744 0.0015495 0.24516 0.045327
-0.0071202 0.0095855 0.0023078 -0.0012547
-0.00072702 -0.0014361 -0.0010089 -0.00033072 -0.001172 -0.00080517 -0.0070982 0.0096127
0.21026 0.13186 -0.0040461 0.0090836
-0.00019057 0.00054803 -0.00051829 -0.00057374 -0.00017086 -0.00022437 0.0023085 -0.0012649
-0.0040524 0.0090778 0.26231 0.19406
1700000000 0.29196 -0.030337 0.0020935 0.0085433 -0.0033122 0.00024672 0.002934 -0.0013738
-0.0019045 -0.0006683 0.00065686 0.00034262
0.0020873 0.008533 0.22767 0.23826 0.0037468 0.00070948 -0.0014665 -0.00043954
-0.00073505 0.00015083 -0.00088213 -0.00039614
-0.0033118 0.00026252 0.0037451 0.00069161 0.26115 -0.2002 0.0007068 0.0014978
-0.0018087 -0.00012648 -0.00061927 -0.00077151
0.0029185 -0.0013804 -0.0014735 -0.00043297 0.00069877 0.0014933 0.24059 -0.0030616
-0.0040254 0.01014 0.0011577 -0.0022538
-0.0019067 -0.00066102 -0.00073076 0.00015712 -0.0017997 -0.00012497 -0.0040085 0.010158
0.22601 0.10999 0.00027141 0.009275
0.00065797 0.00033922 -0.00088335 -0.00039056 -0.00062683 -0.00077184 0.0011519 -0.0022647
0.00027754 0.009265 0.27662 0.15817
1760000000 0.2783 -0.078677 0.0039651 0.0054437 -0.0021579 0.00090793 0.00098199 -0.0034664
-0.0013972 0.00067401 0.00044026 -0.00049451
0.0039587 0.0054352 0.25279 0.19756 0.0016706 -0.0012216 -0.0011626 0.00028843
-0.00092487 0.00086432 -0.0005775 0.0004843
-0.0021507 0.00090334 0.0016638 -0.001235 0.21228 -0.23407 0.0013737 0.00080675
-0.0011171 0.001613 -0.0012631 -0.00022722
0.00096992 -0.0034723 -0.001154 0.00030193 0.0013741 0.00081226 0.23041 -0.052291
-0.00058315 0.0093602 -0.00058346 -0.0023194
-0.0013953 0.00067314 -0.00092111 0.00086813 -0.0011174 0.0016064 -0.00055821 0.0093707
0.23866 0.073722 0.0037166 0.0066474
0.00043785 -0.00049893 -0.00057356 0.00048659 -0.0012671 -0.00022182 -0.0005975 -0.0023165
0.003718 0.0066541 0.28695 0.11957
1820000000 0.25223 -0.11541 0.0039309 0.0021783 3.606e-06 0.0023836 -0.0012618 -0.0028661
-0.0010775 0.0010151 -7.7306e-05 -7.6181e-05
0.0039225 0.0021889 0.26186 0.16739 -0.00027372 -4.1061e-05 -0.0011197 0.0010062
3.73e-05 0.0012435 -0.00048478 0.0005701
-2.3882e-06 0.0023982 -0.00027396 -3.6239e-05 0.16114 -0.24891 0.0013923 9.0227e-05
-1.5445e-05 0.0021764 -0.0012359 0.00059173
-0.0012626 -0.0028653 -0.0011131 0.0010141 0.0013872 9.2659e-05 0.20087 -0.097111
0.0013162 0.0076355 -0.0015668 -0.0012402
-0.0010738 0.0010299 3.9056e-05 0.0012448 -3.1946e-06 0.0021735 0.0013363 0.0076454
0.25377 0.043759 0.0046754 0.0033352
-8.3616e-05 -7.3982e-05 -0.00048124 0.00057521 -0.0012322 0.00060354 -0.0015702 -0.0012429
0.0046736 0.0033323 0.28704 0.082262
1880000000 0.21569 -0.15486 0.0016177 0.00023037 -0.00044787 0.0020125 -0.0029492 -0.001846
-0.00023088 0.0017379 0.00021785 -0.00038744
0.0016173 0.0002327 0.26546 0.1204 -0.0024007 0.0015879 -2.3225e-05 0.0015812
0.00061872 0.0010465 0.00021283 0.00093305
-0.00043331 0.002008 -0.0023969 0.0016032 0.10803 -0.25901 0.0014041 -0.0011053
0.0015991 0.0015763 -0.00070931 0.0013555
-0.0029494 -0.0018344 -1.4041e-05 0.0015803 0.0013927 -0.0011045 0.16145 -0.13653
0.0022019 0.0052249 -0.002092 0.00047078
-0.00022026 0.0017417 0.00062432 0.0010389 0.0015994 0.0015723 0.0022139 0.00522
0.25441 0.010016 0.0043874 0.0013678
0.00021443 -0.00039211 0.0002206 0.00093142 -0.00070295 0.0013492 -0.0020902 0.00046897
0.0043879 0.0013642 0.28462 0.047692
1940000000 0.17552 -0.17967 -0.00049275 -0.001045 0.0014709 0.0019022 -0.0035243 0.0007809
0.0015016 0.0011608 -0.00060432 -0.00055646
-0.00049748 -0.0010441 0.26479 0.088909 -0.0011155 0.0040017 0.000941 0.0011324
0.0016461 0.00039632 0.0008461 0.00034088
0.00147 0.0018954 -0.0010962 0.0040079 0.061875 -0.25132 -1.968e-06 -0.0016624
0.0022581 0.00026736 0.00044287 0.0015317
-0.0035281 0.00079351 0.00093827 0.0011229 1.2486e-05 -0.0016614 0.10999 -0.16635
0.0014362 0.0035011 -0.0013684 0.0014173
0.0015047 0.0011532 0.0016535 0.0003892 0.0022534 0.00026125 0.0014518 0.0034925
0.25397 -0.029355 0.0032253 -0.0015164
-0.00060685 -0.00055461 0.00084905 0.00033575 0.00044748 0.0015189 -0.0013569 0.001416
0.0032209 -0.0015138 0.27173 0.011158
2000000000 0.12868 -0.19345 -0.0040865 0.0011127 0.002559 0.0014348 -0.0020611 0.0033999
0.0012681 2.7975e-05 -0.0004644 0.00037871
-0.0040738 0.0011018 0.25017 0.05348 -0.00078904 0.0057768 0.0014747 0.00023871
0.0012053 -0.0012052 0.00046089 5.4652e-05
0.0025714 0.0014265 -0.0007558 0.0057836 0.018456 -0.23646 -0.00099469 -0.00093165
0.0017937 -0.0010201 0.0016767 0.0010862
-0.0020461 0.0033981 0.001477 0.00023762 -0.00099664 -0.00092669 0.057748 -0.17687
-0.00032531 0.0029239 3.4052e-05 0.0020684
0.0012679 2.2191e-05 0.0011932 -0.0012151 0.0017915 -0.0010131 -0.00031944 0.0029277
0.24569 -0.06357 0.00030828 -0.0024623
