!Keysight Technologies,M9804A,MY58100912,A.14.10.03
!Date: Thursday, April 27, 2023 10:28:33
!Correction: S11(C  6-Port  ) 
!S12(C  6-Port  ) 
!S13(C  6-Port  ) 
!S14(C  6-Port  ) 
!S15(C  6-Port  ) 
!S16(C  6-Port  ) 
!S21(C  6-Port  ) 
!S22(C  6-Port  ) 
!S23(C  6-Port  ) 
!S24(C  6-Port  ) 
!S25(C  6-Port  ) 
!S26(C  6-Port  ) 
!S31(C  6-Port  ) 
!S32(C  6-Port  ) 
!S33(C  6-Port  ) 
!S34(C  6-Port  ) 
!S35(C  6-Port  ) 
!S36(C  6-Port  ) 
!S41(C  6-Port  ) 
!S42(C  6-Port  ) 
!S43(C  6-Port  ) 
!S44(C  6-Port  ) 
!S45(C  6-Port  ) 
!S46(C  6-Port  ) 
!S51(C  6-Port  ) 
!S52(C  6-Port  ) 
!S53(C  6-Port  ) 
!S54(C  6-Port  ) 
!S55(C  6-Port  ) 
!S56(C  6-Port  ) 
!S61(C  6-Port  ) 
!S62(C  6-Port  ) 
!S63(C  6-Port  ) 
!S64(C  6-Port  ) 
!S65(C  6-Port  ) 
!S66(C  6-Port  ) 
!S6P File: Measurement: :
# Hz S  RI   R 50
500000000 -0.33952 -0.01777 -0.011024 -0.0032935 -0.0072056 0.012622 -0.0030302 0.012361
0.01126 0.0040458 -0.0028031 0.0089365
-0.011033 -0.0033005 -0.4198 -0.036074 0.0062346 -0.011473 0.0018429 0.012557
0.0067296 0.0019501 0.0020712 0.013675
-0.0072109 0.012576 0.0062426 -0.011491 -0.26304 0.22297 0.0071366 0.0039913
-0.00086761 0.0082693 0.0019769 0.012311
-0.0030699 0.012335 0.0018684 0.012544 0.0071277 0.004005 -0.3305 0.062683
-0.01956 -0.0069137 0.015298 0.023444
0.011243 0.0040794 0.0067408 0.001951 -0.00083726 0.0082569 -0.019545 -0.0068983
-0.23654 -0.16283 -0.025367 0.0034306
-0.0028617 0.008926 0.0020795 0.013672 0.0019707 0.012325 0.015292 0.023442
-0.025386 0.0034354 -0.28473 -0.079599
560000000 -0.31218 0.13789 -0.027047 -0.060732 0.0010339 0.011607 0.0059571 0.0093772
0.0094942 0.00377 0.010693 0.0069348
-0.02699 -0.060667 -0.37627 0.11882 -0.042388 -0.03443 0.013058 0.0032613
-0.011694 -0.0036489 0.0032922 -0.00062831
0.0010183 0.011585 -0.04248 -0.03436 -0.18061 0.2675 -0.00010589 -0.004513
0.01832 0.0037101 0.0067747 -0.006358
0.0059423 0.0093462 0.013045 0.0032871 -0.00010731 -0.0045116 -0.30439 0.14885
8.0834e-05 -0.024354 0.0037731 -0.018146
0.0094639 0.0038295 -0.011806 -0.0036148 0.018315 0.0036985 8.4874e-05 -0.024351
-0.28766 0.0089472 0.0032802 -0.046575
0.01072 0.0069443 0.0033179 -0.00071435 0.0067698 -0.0063279 0.0037863 -0.018173
0.0033082 -0.046528 -0.33173 0.060415
620000000 -0.27024 0.12291 -0.023517 0.007585 0.004279 0.00809 0.0074753 -0.0054118
0.011018 -0.0018359 0.00050376 -0.0028361
-0.023471 0.0075902 -0.4013 0.074266 -0.019535 0.00064937 -0.00076308 -0.0024028
0.01011 -0.0064042 0.0014377 -0.0027618
0.0042969 0.0080843 -0.019547 0.00068001 -0.14911 0.27745 -0.0012649 -0.0050769
-0.0030963 -0.0028265 0.0080314 -0.003724
0.007444 -0.0054258 -0.00076377 -0.0024354 -0.0012669 -0.0050851 -0.26294 0.16076
-0.039093 -0.017317 0.011953 0.022829
0.011032 -0.0018674 0.01011 -0.0063798 -0.003108 -0.0028067 -0.039135 -0.017281
-0.21113 -0.029418 -0.038368 0.015156
0.00049255 -0.002796 0.0014483 -0.0027946 0.0080242 -0.0037075 0.011954 0.022854
-0.038336 0.015141 -0.25579 0.03168
680000000 -0.22773 0.20543 -0.027869 -0.011547 0.0057276 0.0045244 0.001079 -0.0074856
-0.0031236 -0.011256 0.0042682 -0.0067966
-0.02784 -0.011547 -0.38395 0.16826 -0.032174 0.00072963 -0.0014633 -0.00069974
-0.0025834 -0.0090023 -0.0016101 -0.0021163
0.0057155 0.0045125 -0.032183 0.00077792 -0.097896 0.29486 -0.0008057 -0.00038932
-0.0017841 -0.00011117 -0.0037384 -0.0085368
0.0010689 -0.0074859 -0.0014701 -0.00071571 -0.00081211 -0.00039023 -0.21659 0.20736
-0.025619 -0.0050431 -0.0096971 -0.0079847
-0.0031349 -0.01122 -0.0025827 -0.0089941 -0.0017869 -0.00011552 -0.025628 -0.0050317
-0.25039 0.068083 -0.0075322 -0.0061577
0.0042608 -0.006774 -0.0015771 -0.0021184 -0.003739 -0.0085306 -0.0096976 -0.0079783
-0.0074998 -0.0061597 -0.25355 0.12585
740000000 -0.1837 0.20012 -0.036516 0.026404 0.012099 -0.006029 -0.0010475 -0.0041015
-0.0051833 -0.0024295 -0.0060841 0.0032283
-0.036478 0.026412 -0.33292 0.18737 -0.032677 0.034887 -0.0013297 -0.0060189
-0.011859 0.0080099 -0.0023377 -0.0050497
0.012059 -0.0060358 -0.032631 0.034951 -0.064224 0.294 -0.0019289 0.0028085
-0.0034322 -0.0045369 -0.0019811 0.00097307
-0.0010448 -0.0040681 -0.0013585 -0.0060154 -0.0019218 0.0028 -0.19899 0.21647
-0.04205 -0.002623 0.021783 0.011748
-0.0051849 -0.0024202 -0.011794 0.0080678 -0.0034467 -0.0045148 -0.042074 -0.0025622
-0.15819 0.089279 -0.038382 0.0037133
-0.0061086 0.0031984 -0.0023427 -0.0049984 -0.0019734 0.00095286 0.021805 0.011742
-0.038331 0.0036655 -0.24216 0.13633
800000000 -0.14935 0.23744 -0.021082 0.017941 0.0046421 -0.010474 -0.0043137 -0.0015006
-0.0035936 0.0028228 0.0040859 0.00077237
-0.021067 0.017907 -0.33256 0.25589 -0.006479 0.03366 -0.0022717 0.002412
-0.00064338 0.0036698 0.0012084 0.0053658
0.0046284 -0.010483 -0.0064187 0.033683 -0.021567 0.31582 0.00093755 0.0016418
0.00054738 0.0035992 -0.0016184 0.0011015
-0.0042938 -0.0014959 -0.0022584 0.0024173 0.0009418 0.0016443 -0.16853 0.24273
-0.026327 0.016205 0.012413 -0.0098468
-0.0035977 0.0028319 -0.00064757 0.0036672 0.00054954 0.0036091 -0.026329 0.016272
-0.19395 0.11642 -0.014625 0.018795
0.0040579 0.00077551 0.0012057 0.0053794 -0.0016211 0.0011024 0.012419 -0.0098566
-0.014646 0.018762 -0.22845 0.1821
860000000 -0.11462 0.25669 -0.015488 0.030849 -0.0037617 -0.0096611 -0.001749 0.001289
0.0048685 0.0045165 -0.0028071 -0.0021068
-0.015493 0.030842 -0.28501 0.2965 0.0094959 0.033041 0.00013062 0.0022519
0.0049876 0.00047623 0.0033334 0.00032756
-0.0037794 -0.0096456 0.00957 0.033025 0.026668 0.32269 -0.0003275 -4.4991e-05
0.0027644 -0.0014604 0.0020003 0.0038876
-0.0017372 0.0012855 0.00013095 0.0022542 -0.00033214 -4.271e-05 -0.1319 0.25323
-0.014665 0.020697 -0.0056067 -0.0093476
0.0048971 0.0044902 0.0049675 0.00044399 0.0027508 -0.0014565 -0.014655 0.02075
-0.14109 0.16038 -0.020774 0.016828
-0.0028082 -0.0020582 0.0033345 0.0003364 0.001999 0.0038881 -0.0056151 -0.0093404
-0.02076 0.016805 -0.17942 0.22077
920000000 -0.088027 0.27806 0.0065977 0.036371 -0.0093347 -0.0039695 -0.0012539 0.0016507
0.0016188 0.0012821 0.0025819 -0.0018248
0.006573 0.03636 -0.2546 0.31687 0.028382 0.01997 0.0017956 0.00084125
0.0069549 -0.00075324 0.0035359 -0.0030012
-0.0093411 -0.0039449 0.028445 0.019922 0.074108 0.32273 0.0018952 -0.00019033
0.001433 -0.00073355 0.00067123 -0.0011902
-0.001261 0.0016602 0.0017988 0.0008366 0.0019039 -0.00018566 -0.10559 0.26902
-0.0071199 0.030551 0.0023639 -0.0064188
0.0016028 0.0012731 0.0069274 -0.00078837 0.0014385 -0.00074322 -0.007081 0.030588
-0.12853 0.16719 -0.00016675 0.025403
0.0025666 -0.0018336 0.0035185 -0.0029972 0.00067886 -0.0011978 0.0023646 -0.0064239
-0.00018256 0.02537 -0.17764 0.23697
980000000 -0.041019 0.29561 0.018781 0.028213 -0.0085147 0.0047565 0.0020436 0.0030204
0.0039067 -0.00195 -0.0031434 -0.0019478
0.018726 0.028219 -0.2029 0.34914 0.03254 0.0029429 0.0020717 -0.00029603
0.0014983 -0.0061818 -0.00056945 -0.0024001
-0.0085105 0.0047601 0.032576 0.0028888 0.12089 0.31476 0.00041188 -0.0013212
3.3556e-05 -0.0022403 0.0012481 -0.00024861
0.0020446 0.003008 0.0020881 -0.00030091 0.00041511 -0.001318 -0.066749 0.27851
0.011017 0.028515 -0.0083267 -0.005951
0.0038856 -0.0019598 0.0014761 -0.0062111 3.2111e-05 -0.0022449 0.011065 0.0285
-0.096481 0.19087 0.0064816 0.018322
-0.0031378 -0.0019469 -0.00059245 -0.0023868 0.0012457 -0.00025257 -0.0083358 -0.0059466
0.0064657 0.018317 -0.13362 0.27375
1040000000 0.0019759 0.30254 0.033027 0.015424 -0.0011322 0.0066245 0.0024073 0.00047154
-0.00010308 -0.00313 -0.00082685 -0.0013823
0.032989 0.015461 -0.16689 0.36233 0.027673 -0.016002 0.0013935 -0.0017931
-0.0024501 -0.002452 -0.0015715 -0.0026897
-0.0011262 0.0066097 0.027661 -0.016074 0.16776 0.30005 -0.00067836 -0.001462
-0.0016579 -0.00080214 -0.00057549 -0.001039
0.0024089 0.00048189 0.0014025 -0.0018284 -0.00067953 -0.0014652 -0.037563 0.28741
0.021425 0.015458 -0.0026463 0.0011453
-0.00010875 -0.0031107 -0.0024708 -0.0024722 -0.001649 -0.00080445 0.021458 0.015427
-0.064231 0.19738 0.013971 0.015524
-0.00082865 -0.0013699 -0.0015657 -0.0026693 -0.00057407 -0.0010468 -0.0026464 0.0011406
0.013946 0.015509 -0.10773 0.29355
1100000000 0.047316 0.30858 0.03436 -0.0062124 0.0026576 0.003626 0.0021463 -0.0011176
-0.0021569 -0.0028653 -0.0036386 0.00062323
0.034327 -0.00618 -0.12335 0.3784 0.013256 -0.027961 -0.0001076 -0.001787
-0.003469 -0.0005617 -0.0034691 -0.00016208
0.0026571 0.0036177 0.013201 -0.028003 0.21492 0.2775 -0.0018299 0.00026277
-0.0018361 0.00073268 -0.00094301 -0.00012771
0.0021382 -0.0011156 -0.00010126 -0.0017948 -0.0018315 0.00026161 0.0039654 0.28995
0.025047 0.0018777 -0.0025698 0.00013936
-0.0021705 -0.0028506 -0.0034733 -0.00055578 -0.0018277 0.00073246 0.025059 0.0018384
-0.044937 0.20842 0.018588 0.0058969
-0.0036305 0.00063151 -0.00348 -0.0001401 -0.00094473 -0.00012597 -0.0025766 0.00013552
0.018566 0.0058961 -0.061135 0.31656
1160000000 0.098093 0.30231 0.021834 -0.02189 0.0022248 -0.00030826 -4.3398e-05 -0.0020111
-0.0039527 -0.00048091 -0.00064915 0.0038291
0.021832 -0.021854 -0.078689 0.38234 -0.005488 -0.028158 -0.0017272 -0.0014435
-0.0026222 0.0025651 -0.0012687 0.001808
0.0022258 -0.00033335 -0.0055523 -0.028149 0.25744 0.24452 -0.00063369 0.0018201
-0.00035812 0.0020027 -0.00078504 0.00022522
-5.1851e-05 -0.002024 -0.0017132 -0.0014435 -0.0006437 0.0018236 0.043515 0.28486
0.019874 -0.013305 -0.0030179 0.0043685
-0.0039527 -0.00046701 -0.0026142 0.0025567 -0.00034989 0.0019938 0.019878 -0.013335
-0.012001 0.21538 0.016725 -0.0023479
-0.00062322 0.003845 -0.0012872 0.0018172 -0.00078587 0.00022933 -0.003023 0.0043713
0.016697 -0.0023454 -0.014458 0.31722
1220000000 0.14278 0.28929 0.0078479 -0.029722 -0.0016051 -0.00028584 0.00011944 -0.0009271
-0.0024249 0.0023398 0.0014327 0.0019166
0.0078546 -0.029685 -0.034179 0.39292 -0.017588 -0.019595 -0.0024591 0.0005206
0.00020257 0.0029583 -0.00045349 0.0019696
-0.0016011 -0.00028509 -0.017652 -0.019544 0.29581 0.20352 0.00089143 0.0017928
0.00070261 0.0011647 0.00038327 0.00047103
0.00010869 -0.00092044 -0.0024482 0.00053333 0.00089987 0.0018009 0.08399 0.27392
0.0085298 -0.019157 0.0013425 0.0015351
-0.0024165 0.002341 0.00021932 0.0029632 0.00070501 0.0011689 0.0085118 -0.019174
0.012206 0.22228 0.011452 -0.013844
0.0014446 0.0019186 -0.00044981 0.0019746 0.00038618 0.00047243 0.0013343 0.00153
0.011452 -0.013823 0.019381 0.32828
1280000000 0.19158 0.26568 -0.0097641 -0.026934 -0.0014686 0.0029041 -0.00095004 -0.0019941
-0.00062467 0.0029741 0.0024193 0.00079729
-0.0097347 -0.026911 0.011837 0.38289 -0.02353 -0.0070158 -0.00093935 0.0014685
0.001838 0.001649 0.00083272 0.0016543
-0.0014613 0.0029037 -0.02357 -0.0069518 0.32454 0.15796 0.0016546 -9.0085e-05
0.0011937 0.00013971 0.000219 0.00013921
-0.00096557 -0.0019779 -0.00093946 0.0014724 0.0016605 -9.2955e-05 0.11991 0.25453
-0.0016909 -0.020166 -0.00047048 0.00056128
-0.00062081 0.002978 0.0018372 0.0016401 0.0012031 0.00015148 -0.0017211 -0.020172
0.048634 0.22359 0.00099263 -0.015392
0.0024269 0.00080068 0.00085591 0.0016456 0.00022522 0.00013679 -0.00047846 0.00057284
0.00099625 -0.015372 0.06511 0.3256
1340000000 0.22802 0.23046 -0.018519 -0.016711 0.0014366 0.0043772 -0.001714 -0.00089494
0.0015492 0.0025298 0.0014394 -0.0015238
-0.018493 -0.016713 0.051412 0.37313 -0.020683 0.0053387 -5.1416e-05 0.0020212
0.0019638 0.00052269 0.0013359 0.00064484
0.0014475 0.0043726 -0.02068 0.0054124 0.34483 0.10973 0.001224 -0.0010607
0.00057042 -0.00058004 3.3012e-05 0.00015917
-0.0017143 -0.00089034 -5.0074e-05 0.0020273 0.0012303 -0.0010623 0.15126 0.23213
-0.011042 -0.016072 0.00055177 0.0011982
0.001547 0.0025288 0.0019711 0.00050442 0.0005714 -0.00058324 -0.011072 -0.016065
0.078561 0.21715 -0.0057307 -0.013143
0.0014392 -0.0015204 0.0013462 0.0006399 3.4663e-05 0.0001541 0.00055391 0.0012154
-0.0057175 -0.013133 0.10399 0.317
1400000000 0.26002 0.19085 -0.022818 -0.0052206 0.0054609 0.0026601 -0.0021429 0.00060126
0.0023772 0.00075308 6.9454e-05 -0.0013748
-0.022787 -0.0052396 0.088122 0.3589 -0.013593 0.012817 0.0013948 0.0012836
0.0010679 -0.0009326 0.0011077 1.1797e-05
0.0054616 0.0026434 -0.013564 0.012868 0.35687 0.056164 3.3888e-05 -0.0018727
1.5725e-05 -0.00043021 0.00034132 0.00019628
-0.0021306 0.00060776 0.0013907 0.0012816 3.624e-05 -0.0018732 0.17927 0.20104
-0.016437 -0.0085502 -0.00032482 0.00056376
0.0023568 0.00075598 0.0010783 -0.0009579 1.9102e-05 -0.00043902 -0.016472 -0.0085208
0.11074 0.21034 -0.011306 -0.0074681
5.7723e-05 -0.0013858 0.0011116 1.1295e-05 0.00034334 0.00019603 -0.00032125 0.00058345
-0.011282 -0.0074834 0.14648 0.30189
1460000000 0.28132 0.14599 -0.019057 0.0061764 0.0055253 -0.0022805 -0.0015409 0.0016934
0.0020076 -0.00072797 -0.00043349 -0.00083226
-0.019049 0.0061513 0.12161 0.33602 -0.0050712 0.014952 0.0017576 5.9375e-05
0.00069793 -0.0012962 0.0010428 -0.00062918
0.0055135 -0.0023006 -0.0050239 0.014973 0.36147 0.001993 -0.0015027 -0.0012763
0.0001287 -0.00016578 0.0005945 -0.00030769
-0.0015332 0.0016912 0.0017543 6.1751e-05 -0.0014979 -0.0012681 0.20295 0.17037
-0.01683 -0.0011802 -4.7409e-05 0.0021043
0.001999 -0.00071761 0.0006922 -0.0012994 0.0001392 -0.00016591 -0.016857 -0.0011408
0.13895 0.19387 -0.012232 -0.0012806
-0.00042943 -0.0008248 0.0010382 -0.00063072 0.00059225 -0.00032494 -3.3518e-05 0.0021251
-0.012213 -0.0012924 0.17849 0.27882
1520000000 0.29237 0.10322 -0.01288 0.010915 0.0029565 -0.0044021 0.00014695 0.0026456
0.0018204 -0.0018009 -0.0011267 -2.1929e-05
-0.012876 0.0109 0.15439 0.32048 0.0020943 0.012443 0.0016803 -0.00092329
-5.1445e-05 -0.0009943 0.000234 -0.00092972
0.0029447 -0.0044179 0.0021394 0.01244 0.35453 -0.053874 -0.0013569 -0.00016969
0.00052073 -0.00083515 -4.5682e-05 -0.00016651
0.00015746 0.0026364 0.0016727 -0.0009267 -0.0013584 -0.00016922 0.22355 0.13184
-0.014983 0.0048501 0.0021031 0.0017384
0.0018051 -0.0018038 -4.8472e-05 -0.0010022 0.00052277 -0.00083877 -0.014982 0.0048962
0.1664 0.17803 -0.011619 0.0031417
-0.0011253 2.6801e-06 0.00022601 -0.00093922 -4.4358e-05 -0.00016571 0.0021141 0.0017313
-0.011602 0.0031237 0.20983 0.2552
1580000000 0.30004 0.056414 -0.0063162 0.013042 -0.0012514 -0.0047884 0.0015791 0.0019149
-0.0002953 -0.0020827 -0.00017049 0.00033734
-0.0063254 0.013026 0.18069 0.29502 0.005293 0.0075704 0.00037758 -0.0017455
-0.0005465 -0.00091302 -0.00023689 -0.00077446
-0.0012684 -0.0047772 0.0053193 0.00755 0.3339 -0.11143 -0.0015536 0.00097685
-0.00038629 -0.0010969 0.00015939 -0.00054073
0.0015815 0.001905 0.00037716 -0.0017411 -0.0015606 0.00096774 0.2346 0.092511
-0.010735 0.0092835 0.0025482 0.00021533
-0.00029504 -0.0020956 -0.00056188 -0.00092309 -0.00038867 -0.0010946 -0.010718 0.0093273
0.18944 0.15763 -0.0086248 0.0082217
-0.00017285 0.00033127 -0.00023745 -0.00077778 0.00015452 -0.00054448 0.0025612 0.00019876
-0.0086376 0.0082022 0.23888 0.22638
1640000000 0.30042 0.014913 -0.00020639 0.011245 -0.0029691 -0.0023982 0.0028175 0.00083555
-0.00086446 -0.0013704 -0.00024659 0.0005117
-0.00021764 0.011236 0.20938 0.26964 0.0057039 0.0030937 -0.00089761 -0.0016916
-0.00095912 -0.00028627 -0.00055233 -0.00053613
-0.0029623 -0.0023896 0.0057132 0.0030685 0.3048 -0.16025 -0.00042506 0.0015498
-0.0011631 -0.00073601 -0.0002031 -0.00030743
0.0028307 0.00083115 -0.00090307 -0.001686 -0.00042548 0.0015495 0.24426 0.045192
-0.0059332 0.01006 0.0024278 -0.0012962
-0.00085809 -0.0013691 -0.00097205 -0.00028116 -0.0011738 -0.00073215 -0.0059013 0.01009
0.21073 0.13175 -0.0038167 0.009829
-0.00025818 0.00052143 -0.0005536 -0.00052942 -0.00020533 -0.00031249 0.0024324 -0.0013257
-0.0038292 0.0098193 0.26246 0.19373
1700000000 0.29157 -0.030477 0.0025967 0.008107 -0.0034065 0.00025407 0.0029575 -0.0015056
-0.0019148 -0.00054316 0.00071965 0.00035504
0.0025835 0.008094 0.22676 0.23806 0.0036319 0.00037363 -0.0015265 -0.00041113
-0.00066002 0.00012294 -0.00083807 -0.00036979
-0.0034127 0.00027435 0.0036383 0.00034956 0.26127 -0.20035 0.00063341 0.0014562
-0.0018402 -3.8957e-05 -0.00055187 -0.00079758
0.002946 -0.0015065 -0.0015288 -0.00040308 0.00062957 0.0014537 0.23969 -0.0025309
-0.0028791 0.0099103 0.0012939 -0.0024729
-0.0019239 -0.00054057 -0.00066332 0.00012655 -0.0018394 -4.5591e-05 -0.0028577 0.0099255
0.22643 0.10973 0.00086958 0.0097465
0.00072023 0.00034941 -0.00083944 -0.000357 -0.00056104 -0.00079749 0.0012866 -0.0024834
0.00086899 0.0097434 0.27676 0.15813
1760000000 0.27776 -0.07847 0.0040748 0.0048137 -0.0021444 0.00096078 0.00094869 -0.003513
-0.0013156 0.00075042 0.00038857 -0.00045189
0.0040575 0.0048151 0.2519 0.19782 0.001393 -0.0013427 -0.0012064 0.00038809
-0.00096055 0.00078806 -0.00060678 0.00045507
-0.00215 0.00097223 0.0013836 -0.0013473 0.21196 -0.23387 0.0012366 0.00079241
-0.0010222 0.0015501 -0.0013156 -0.00037927
0.00092317 -0.0035155 -0.0011987 0.00039097 0.0012338 0.00079221 0.22995 -0.051391
0.00013538 0.0085768 -0.00056323 -0.0025392
-0.0013127 0.00075528 -0.00095111 0.00078883 -0.0010148 0.0015585 0.0001503 0.0085859
0.23904 0.073264 0.0044526 0.0067473
0.00039227 -0.00045928 -0.00059956 0.00046218 -0.0013274 -0.00037484 -0.00058658 -0.0025437
0.0044424 0.0067378 0.28725 0.11931
1820000000 0.25177 -0.11492 0.0036993 0.0016725 -9.9995e-05 0.0024752 -0.0012858 -0.0028435
-0.00093451 0.0010704 -1.0945e-05 -4.7325e-05
0.0036873 0.0016719 0.26123 0.16801 -0.00046702 -2.4552e-05 -0.0010841 0.0010672
-4.2186e-05 0.001224 -0.00050336 0.00056197
-7.9434e-05 0.0024627 -0.00046557 -2.4966e-05 0.1614 -0.24873 0.001361 0.00013567
-3.3945e-05 0.0021793 -0.0013395 0.00057544
-0.0012919 -0.0028364 -0.0010846 0.0010701 0.0013646 0.00013076 0.20077 -0.096204
0.0014154 0.0067068 -0.0017848 -0.0014487
-0.00092572 0.0010681 -2.7889e-05 0.0012267 -2.2682e-05 0.0021838 0.0014311 0.0067085
0.2539 0.043246 0.0052308 0.0030937
-1.89e-05 -5.2092e-05 -0.00050883 0.00056107 -0.0013446 0.00058203 -0.0017937 -0.0014501
0.0052152 0.0030885 0.28742 0.081976
1880000000 0.21581 -0.15413 0.0012248 1.8774e-05 -0.00047294 0.002151 -0.0029575 -0.0017491
-0.0001287 0.0016369 0.00020483 -0.00046166
0.0012206 1.9719e-05 0.26519 0.12121 -0.0024406 0.0016155 4.8034e-05 0.0016148
0.00056643 0.0011323 0.00020102 0.00095747
-0.00046018 0.0021549 -0.0024344 0.0016274 0.10885 -0.25879 0.0014741 -0.00099692
0.0016031 0.0016178 -0.0008279 0.001435
-0.0029517 -0.0017367 5.3314e-05 0.0016227 0.0014922 -0.00099218 0.16191 -0.13565
0.0018673 0.0045139 -0.0024786 0.00037029
-0.00011269 0.0016485 0.000571 0.001118 0.0016053 0.0016141 0.0018748 0.0045161
0.25431 0.0094235 0.004818 0.00080722
0.00018847 -0.00046903 0.00020596 0.00095528 -0.00082797 0.00144 -0.0024938 0.00038381
0.0048028 0.00081418 0.28496 0.047151
1940000000 0.17601 -0.17918 -0.00087634 -0.0010206 0.0014408 0.0019921 -0.0034584 0.00076483
0.001487 0.0010339 -0.00049752 -0.00052733
-0.00087354 -0.0010243 0.26481 0.08968 -0.0012234 0.0038728 0.001046 0.0010039
0.0017384 0.00047363 0.00089704 0.00043068
0.0014451 0.0019787 -0.0012102 0.003875 0.062442 -0.25183 0.00012911 -0.0017873
0.0022919 0.00028694 0.00045449 0.0017611
-0.0034528 0.00077951 0.0010512 0.0010073 0.00013386 -0.0017883 0.11091 -0.16576
0.00094014 0.0031812 -0.001558 0.0014778
0.0014992 0.0010188 0.0017464 0.00046005 0.0022876 0.00028749 0.00094235 0.0031833
0.25359 -0.029822 0.0034227 -0.0021118
-0.00050651 -0.00052909 0.00089513 0.00042297 0.0004566 0.0017669 -0.0015551 0.0014875
0.0034198 -0.0021025 0.27216 0.010624
2000000000 0.12935 -0.1934 -0.0042855 0.0013074 0.002547 0.0015733 -0.0020494 0.0034298
0.0010938 2.4518e-06 -0.00054973 0.00043648
-0.0042873 0.0012933 0.25047 0.054176 -0.0010203 0.0057375 0.0014323 0.00018636
0.0013094 -0.001301 0.00053754 -0.00012301
0.0025647 0.0015706 -0.000984 0.0057392 0.018444 -0.23706 -0.0011198 -0.00092084
0.0017856 -0.0011747 0.001824 0.00095552
-0.0020205 0.0034229 0.0014408 0.0001789 -0.0011207 -0.00092981 0.058709 -0.17697
-0.00071762 0.0028413 -5.3081e-06 0.0022648
0.0010965 2.9831e-06 0.0013024 -0.001307 0.0017779 -0.0011819 -0.00070372 0.0028516
0.24526 -0.063722 0.00024072 -0.0029539
