!Keysight Technologies,M9804A,MY58100912,A.14.10.03
!Date: Thursday, April 27, 2023 10:28:33
!Correction: S11(C  6-Port  ) 
!S12(C  6-Port  ) 
!S13(C  6-Port  ) 
!S14(C  6-Port  ) 
!S15(C  6-Port  ) 
!S16(C  6-Port  ) 
!S21(C  6-Port  ) 
!S22(C  6-Port  ) 
!S23(C  6-Port  ) 
!S24(C  6-Port  ) 
!S25(C  6-Port  ) 
!S26(C  6-Port  ) 
!S31(C  6-Port  ) 
!S32(C  6-Port  ) 
!S33(C  6-Port  ) 
!S34(C  6-Port  ) 
!S35(C  6-Port  ) 
!S36(C  6-Port  ) 
!S41(C  6-Port  ) 
!S42(C  6-Port  ) 
!S43(C  6-Port  ) 
!S44(C  6-Port  ) 
!S45(C  6-Port  ) 
!S46(C  6-Port  ) 
!S51(C  6-Port  ) 
!S52(C  6-Port  ) 
!S53(C  6-Port  ) 
!S54(C  6-Port  ) 
!S55(C  6-Port  ) 
!S56(C  6-Port  ) 
!S61(C  6-Port  ) 
!S62(C  6-Port  ) 
!S63(C  6-Port  ) 
!S64(C  6-Port  ) 
!S65(C  6-Port  ) 
!S66(C  6-Port  ) 
!S6P File: Measurement: :
# Hz S  RI   R 50
500000000 -0.33957 -0.017829 -0.011151 -0.003027 -0.0073102 0.012864 -0.0032967 0.012645
0.01121 0.0043789 -0.0032695 0.0092618
-0.011143 -0.0030073 -0.41996 -0.0366 0.0058828 -0.011493 0.0018138 0.012285
0.0069105 0.0020741 0.0024004 0.013491
-0.0071812 0.01284 0.005858 -0.011546 -0.263 0.22334 0.0070672 0.003671
-0.0011427 0.008008 0.0022565 0.011836
-0.0034389 0.012585 0.0019376 0.012227 0.0069621 0.0036231 -0.33015 0.062478
-0.01986 -0.0064358 0.015395 0.02317
0.010833 0.0043506 0.0068292 0.0023569 -0.0011787 0.0079657 -0.019809 -0.0064168
-0.23657 -0.16354 -0.026142 0.0044616
-0.0035366 0.0090496 0.0025517 0.013324 0.0021225 0.011571 0.01545 0.023276
-0.026179 0.004518 -0.28486 -0.08068
560000000 -0.31245 0.13799 -0.027056 -0.060261 0.0010602 0.011583 0.0053851 0.0095744
0.0093095 0.0036568 0.010489 0.0068795
-0.027032 -0.060398 -0.37436 0.11761 -0.042973 -0.033685 0.013696 0.0034006
-0.012268 -0.0030142 0.0031672 -0.0011056
0.0010441 0.011639 -0.042948 -0.033616 -0.18034 0.26732 -0.00016172 -0.0044272
0.018657 0.0036631 0.0069847 -0.0060457
0.005833 0.0096116 0.013463 0.0032329 -0.00025198 -0.0041626 -0.30384 0.14881
0.00088659 -0.024495 0.002947 -0.018397
0.0092903 0.0035161 -0.012891 -0.0027785 0.018648 0.0033582 0.00093738 -0.024449
-0.2883 0.0089437 0.0029844 -0.045978
0.010718 0.0071695 0.0030733 -0.0012232 0.0070165 -0.0061834 0.0029802 -0.018337
0.0030363 -0.045983 -0.33017 0.059168
620000000 -0.271 0.12332 -0.023622 0.0074226 0.0040054 0.008121 0.0079707 -0.0050605
0.010165 -0.0016574 0.00061158 -0.0031308
-0.023508 0.0074162 -0.40133 0.073956 -0.01956 0.00044456 -0.0007477 -0.0022013
0.0099717 -0.0065039 0.0012635 -0.0030474
0.0039833 0.0080058 -0.019555 0.00048585 -0.14924 0.27698 -0.0010716 -0.0049756
-0.0028411 -0.0029467 0.0080913 -0.0035448
0.0078642 -0.0052277 -0.00094997 -0.0022742 -0.0011524 -0.0049681 -0.26219 0.16048
-0.039802 -0.016699 0.01161 0.023416
0.01051 -0.0019638 0.010315 -0.0066568 -0.0028133 -0.0027529 -0.039875 -0.016769
-0.21122 -0.030206 -0.038664 0.014371
0.0012817 -0.0033139 0.0015702 -0.0029609 0.0080816 -0.0034181 0.011615 0.023441
-0.038751 0.014357 -0.25603 0.030574
680000000 -0.22772 0.20532 -0.027902 -0.01155 0.0056062 0.0045565 0.0010699 -0.0073358
-0.0029678 -0.011453 0.0039839 -0.00668
-0.027836 -0.011567 -0.38409 0.168 -0.032181 0.00059149 -0.0014477 -0.00072911
-0.0023539 -0.0089135 -0.0014995 -0.0021302
0.0056764 0.0044494 -0.032189 0.00062564 -0.098002 0.29484 -0.00085373 -0.00060162
-0.0016714 -3.9402e-05 -0.0035857 -0.0086665
0.0011484 -0.0074404 -0.0014718 -0.00066118 -0.00085245 -0.00057714 -0.21645 0.20756
-0.025854 -0.0046446 -0.0088163 -0.0081408
-0.0030182 -0.011491 -0.0024859 -0.0089159 -0.0016288 2.0297e-05 -0.025974 -0.0046247
-0.2509 0.068573 -0.0074583 -0.006791
0.0038998 -0.006553 -0.0016389 -0.0020729 -0.0037089 -0.0085838 -0.0088596 -0.0080539
-0.007483 -0.0068091 -0.25367 0.1267
740000000 -0.18382 0.20006 -0.036279 0.026584 0.01192 -0.0058817 -0.00087705 -0.0039996
-0.0054725 -0.0026794 -0.0059725 0.0032247
-0.036295 0.02651 -0.33261 0.18732 -0.032598 0.035114 -0.00082243 -0.0061282
-0.01111 0.0079074 -0.0020994 -0.0047232
0.011919 -0.0059151 -0.032477 0.035216 -0.064497 0.29413 -0.0018232 0.0032478
-0.0033219 -0.0044225 -0.0019392 0.0013059
-0.00081373 -0.0040059 -0.00094195 -0.0061253 -0.0018721 0.0031738 -0.1986 0.21648
-0.042277 -0.0028923 0.022205 0.0123
-0.0051626 -0.0025611 -0.011304 0.0080298 -0.0033823 -0.0045702 -0.042346 -0.0028811
-0.1569 0.089076 -0.038661 0.0032848
-0.0059798 0.0032494 -0.0021389 -0.0048243 -0.002 0.0013296 0.022274 0.012289
-0.038641 0.0031961 -0.2416 0.13793
800000000 -0.1496 0.23725 -0.021121 0.017872 0.0045975 -0.010504 -0.0043438 -0.0015929
-0.0038531 0.0031925 0.0038385 0.00091059
-0.021121 0.017834 -0.33251 0.2558 -0.0064322 0.03367 -0.0022521 0.002395
-0.00089686 0.0035847 0.0010026 0.0055383
0.0046028 -0.010561 -0.0063851 0.033689 -0.021628 0.3158 0.0008592 0.0016239
0.00052203 0.0035918 -0.00165 0.0012747
-0.0042948 -0.0014858 -0.0023047 0.0024421 0.00088729 0.0016683 -0.16843 0.24259
-0.026498 0.016666 0.012386 -0.010055
-0.0038418 0.0031061 -0.00069617 0.0036015 0.00053236 0.0036176 -0.026511 0.016727
-0.19481 0.11611 -0.015359 0.019172
0.0037732 0.0008376 0.001205 0.005523 -0.0016438 0.0012734 0.012379 -0.01004
-0.015344 0.019158 -0.22825 0.18141
860000000 -0.11474 0.25665 -0.015502 0.03081 -0.0038076 -0.0095857 -0.0019234 0.0011954
0.0045479 0.0045514 -0.0025542 -0.0022701
-0.015538 0.03076 -0.28523 0.29629 0.0094157 0.032987 0.00024233 0.0022274
0.0046651 9.2894e-05 0.0033039 0.00048166
-0.0038328 -0.0096135 0.0094836 0.032967 0.026604 0.32268 -0.00041806 -2.4958e-05
0.0026103 -0.0015343 0.0020608 0.0039405
-0.0019267 0.0012293 0.0001239 0.0021574 -0.00040123 -7.9445e-05 -0.13187 0.25309
-0.014829 0.020505 -0.0054928 -0.0092521
0.0046906 0.0045153 0.0046286 0.0001096 0.0026047 -0.0015525 -0.014815 0.02055
-0.14121 0.16026 -0.021196 0.017207
-0.0024948 -0.0021944 0.0033652 0.00067596 0.0019395 0.0039581 -0.0055013 -0.0092384
-0.021209 0.017224 -0.17909 0.22114
920000000 -0.088056 0.27809 0.0065546 0.036447 -0.0093582 -0.0040183 -0.0013364 0.001653
0.0015483 0.0014451 0.0027372 -0.0017989
0.0065101 0.036407 -0.25477 0.31686 0.028378 0.019975 0.0017516 0.00085513
0.0071319 -0.00078948 0.0035098 -0.0030911
-0.0093342 -0.0040068 0.028418 0.019932 0.074045 0.32279 0.0019673 -0.00014023
0.0015435 -0.00070611 0.0006161 -0.0012965
-0.001324 0.0016446 0.0017618 0.00079653 0.0019149 -0.00021346 -0.10569 0.26908
-0.0069359 0.030803 0.0024206 -0.0065394
0.0014332 0.0014137 0.0069857 -0.00079061 0.0014659 -0.00061885 -0.0068638 0.030827
-0.12842 0.16742 -0.00027944 0.025595
0.002722 -0.0017632 0.0035053 -0.003128 0.00074848 -0.00126 0.0024187 -0.0065613
-0.00033064 0.025572 -0.17822 0.23685
980000000 -0.041072 0.29559 0.018807 0.028286 -0.008451 0.0047541 0.0020203 0.0029551
0.0038697 -0.0019161 -0.0029473 -0.0021013
0.018772 0.028262 -0.20283 0.34913 0.032621 0.0029508 0.002091 -0.00035431
0.001522 -0.0062139 -0.00060149 -0.0022841
-0.0084462 0.0047602 0.032634 0.0028805 0.1209 0.31472 0.00045034 -0.0013255
3.6603e-05 -0.0022011 0.0013399 -0.00025729
0.0019904 0.0030095 0.0021218 -0.00036667 0.00049402 -0.0013079 -0.066745 0.27844
0.011102 0.028461 -0.0083196 -0.0058213
0.0038194 -0.0019334 0.001511 -0.0062166 2.4224e-05 -0.0022165 0.01113 0.028473
-0.096073 0.19096 0.0068303 0.018571
-0.0030901 -0.0020599 -0.00063863 -0.0024058 0.0012902 -0.00029638 -0.0083425 -0.0058695
0.0067603 0.018581 -0.13317 0.2735
1040000000 0.0020019 0.30271 0.033057 0.015473 -0.0011569 0.0066937 0.0023525 0.00053595
-0.00015444 -0.0030516 -0.00066568 -0.0013475
0.033002 0.015459 -0.16684 0.3623 0.02773 -0.015996 0.0013582 -0.001829
-0.0024943 -0.0026117 -0.001664 -0.0026065
-0.0011711 0.006661 0.027669 -0.016067 0.16768 0.30005 -0.0006639 -0.0014319
-0.0016966 -0.00076985 -0.000537 -0.0010492
0.002333 0.00044838 0.0014013 -0.00184 -0.00067956 -0.0014377 -0.0376 0.2874
0.021584 0.01539 -0.0026126 0.00115
-2.6692e-05 -0.0031618 -0.0023704 -0.0025871 -0.0016648 -0.00084425 0.02162 0.015353
-0.063783 0.19711 0.014307 0.015857
-0.00071605 -0.0013827 -0.0016034 -0.0026299 -0.00054221 -0.00102 -0.0026215 0.0011447
0.014346 0.015889 -0.10817 0.29331
1100000000 0.047306 0.30853 0.034392 -0.0062462 0.0026693 0.0036184 0.0021414 -0.0010846
-0.0021306 -0.0028498 -0.0036488 0.00054465
0.034385 -0.0062252 -0.12341 0.37837 0.013293 -0.027973 -0.00014738 -0.0018184
-0.0034883 -0.00055455 -0.003406 -0.00029065
0.0026752 0.0035953 0.013219 -0.028017 0.21487 0.27753 -0.0018665 0.00027136
-0.0017864 0.00072064 -0.00097041 -5.5738e-05
0.0021598 -0.0011352 -0.00014529 -0.0018538 -0.0018439 0.00026506 0.0038955 0.28994
0.025126 0.0017163 -0.0025444 -6.6434e-05
-0.0021066 -0.0028705 -0.0034852 -0.00056348 -0.0017777 0.00070774 0.025145 0.0016838
-0.044711 0.20818 0.018953 0.0058178
-0.0037079 0.00053148 -0.0033948 -0.00022734 -0.00090936 -9.4577e-05 -0.0025253 -4.1807e-05
0.018916 0.0058229 -0.061369 0.31652
1160000000 0.097913 0.30235 0.021823 -0.02193 0.0022331 -0.00029685 -0.0001041 -0.0019607
-0.0039322 -0.00049731 -0.00065457 0.0036821
0.021804 -0.021906 -0.078746 0.38226 -0.0054023 -0.028141 -0.0017492 -0.0014816
-0.0026634 0.00263 -0.0013823 0.0017273
0.0022386 -0.00025054 -0.0055151 -0.028109 0.25739 0.24446 -0.00067021 0.0018379
-0.00036928 0.0020268 -0.00075841 0.00021081
-0.00012063 -0.0020338 -0.0017363 -0.0014872 -0.00066623 0.0018078 0.043402 0.28487
0.020027 -0.01355 -0.0030043 0.0043554
-0.0040139 -0.0005143 -0.0027012 0.0025975 -0.00037721 0.002064 0.020062 -0.013579
-0.011957 0.21506 0.01718 -0.0024218
-0.00063334 0.0038019 -0.0014052 0.0018504 -0.00074288 0.00021774 -0.0030088 0.0043474
0.01716 -0.0024206 -0.014739 0.31705
1220000000 0.14271 0.28932 0.0078833 -0.029723 -0.0016081 -0.00030533 9.1201e-05 -0.00094717
-0.0023471 0.0023881 0.0014307 0.0018806
0.0078889 -0.029706 -0.034262 0.3929 -0.017547 -0.019615 -0.0024443 0.00050406
0.00021033 0.0030508 -0.00041726 0.0020001
-0.0016056 -0.00030583 -0.017622 -0.019572 0.29581 0.20357 0.00091604 0.0017991
0.00074382 0.0012514 0.00041759 0.00043774
0.00012129 -0.00094002 -0.0024472 0.00052055 0.00091774 0.0017829 0.083914 0.27392
0.0084509 -0.019354 0.0012893 0.0014066
-0.0023852 0.0023847 0.00020327 0.0030222 0.00073502 0.0012202 0.0084399 -0.019378
0.01226 0.22172 0.011704 -0.013956
0.0014231 0.001921 -0.00045104 0.0020062 0.00037261 0.00053102 0.001279 0.001416
0.011704 -0.01398 0.019386 0.32818
1280000000 0.1915 0.26567 -0.009757 -0.027026 -0.0014704 0.002895 -0.0009223 -0.0019808
-0.00064518 0.0030188 0.0024087 0.0008739
-0.0097387 -0.026998 0.011754 0.38289 -0.02352 -0.0070309 -0.00090266 0.0014591
0.0018787 0.0016655 0.0007974 0.0017404
-0.0014769 0.0029178 -0.02356 -0.0069658 0.32453 0.15809 0.001655 -9.1485e-05
0.001166 0.00016618 0.00025267 0.00028167
-0.00093414 -0.0019804 -0.00089875 0.0014659 0.0016493 -8.6219e-05 0.11984 0.25456
-0.0017522 -0.020256 -0.00066281 0.00051117
-0.00063951 0.003008 0.0018652 0.0016797 0.0011978 0.0001181 -0.0018019 -0.02026
0.048438 0.2232 0.0010625 -0.01569
0.0024022 0.00084515 0.00083493 0.0017273 0.00028367 0.00018602 -0.00067521 0.00051125
0.0010535 -0.015675 0.06511 0.32576
1340000000 0.22799 0.23052 -0.018504 -0.016758 0.0014478 0.0043636 -0.0016832 -0.00092242
0.0015411 0.0025425 0.0014626 -0.0014069
-0.018481 -0.016756 0.051375 0.37309 -0.020653 0.0053091 -7.912e-05 0.0020397
0.0019864 0.0005319 0.0013676 0.00061091
0.0014517 0.0043449 -0.020665 0.0053861 0.34489 0.10982 0.0012171 -0.0010428
0.00056951 -0.0005552 6.277e-05 0.00017944
-0.001722 -0.00090058 -8.6035e-05 0.0020348 0.0012038 -0.0010388 0.15114 0.23214
-0.011226 -0.016154 0.00046767 0.0012377
0.0015697 0.0025566 0.0020017 0.00053952 0.00057235 -0.00054712 -0.011259 -0.016147
0.078037 0.21691 -0.0059274 -0.01329
0.0014684 -0.001486 0.0013592 0.0006322 4.0416e-05 0.00018841 0.00048411 0.0012466
-0.0059156 -0.013288 0.10382 0.31697
1400000000 0.25999 0.1909 -0.022864 -0.0052552 0.0054757 0.0026535 -0.0021626 0.00061468
0.0023689 0.00078235 9.468e-05 -0.0013901
-0.022845 -0.0052708 0.088027 0.35889 -0.013615 0.012749 0.0013791 0.0012892
0.0011209 -0.00094944 0.0011217 9.8766e-06
0.0054872 0.0026449 -0.013576 0.012811 0.35684 0.056211 1.5942e-06 -0.0018805
6.1534e-05 -0.00039974 0.00040275 0.00017944
-0.0021462 0.00060976 0.0013823 0.0012938 1.8145e-05 -0.0018791 0.17915 0.20107
-0.016636 -0.0084855 -0.00040702 0.00066148
0.0023947 0.00076787 0.0011275 -0.00097169 4.0628e-05 -0.00041605 -0.016657 -0.0084517
0.11012 0.21005 -0.011617 -0.0076198
7.3872e-05 -0.0013859 0.0010847 5.2044e-05 0.00031297 0.0002198 -0.00041553 0.00064981
-0.011576 -0.00763 0.14629 0.30172
1460000000 0.2813 0.14604 -0.01909 0.0061596 0.005544 -0.0023175 -0.0015541 0.0017427
0.0020748 -0.00071199 -0.00047229 -0.00087351
-0.019083 0.0061387 0.12155 0.33602 -0.0050895 0.014909 0.00174 0.00011072
0.0006675 -0.0013327 0.0010239 -0.00061708
0.0055404 -0.0023284 -0.0050472 0.014929 0.36153 0.0021329 -0.0014718 -0.00127
7.9435e-05 -0.00018225 0.00067178 -0.00027217
-0.0015405 0.0017352 0.0017414 0.00011199 -0.0014778 -0.0012793 0.20292 0.17042
-0.016984 -0.0010471 -9.8498e-05 0.0022934
0.0020704 -0.00070453 0.00065317 -0.0013064 0.00013313 -0.00022908 -0.016977 -0.000995
0.13859 0.1939 -0.012616 -0.0013891
-0.00045888 -0.00090461 0.0010092 -0.00064137 0.00063547 -0.00029696 -6.8404e-05 0.0022621
-0.0126 -0.0013711 0.17819 0.2788
1520000000 0.29235 0.10319 -0.012893 0.010937 0.0029499 -0.0043582 0.00014448 0.002635
0.0018283 -0.0018031 -0.0011081 -2.3405e-05
-0.012902 0.010931 0.15431 0.32048 0.0020365 0.012442 0.0016744 -0.00092052
-9.7906e-05 -0.001023 0.00022173 -0.00092073
0.0029278 -0.0043727 0.0020743 0.012421 0.35456 -0.053939 -0.0013486 -0.00017602
0.00048998 -0.00086911 -1.2947e-05 -0.0001429
0.00016701 0.0026324 0.0016714 -0.00092007 -0.0013525 -0.00018029 0.22352 0.13196
-0.015104 0.0049876 0.0021694 0.0018851
0.0018425 -0.0018027 -0.00010321 -0.0010191 0.0005011 -0.00087184 -0.015098 0.0050392
0.16607 0.17818 -0.011889 0.0032784
-0.0011052 -3.2237e-05 0.00022297 -0.00092518 -3.4565e-05 -0.00017581 0.0021742 0.0018924
-0.011888 0.0032569 0.20949 0.25524
1580000000 0.29996 0.056485 -0.0063537 0.013089 -0.0012325 -0.0048041 0.0015656 0.0019099
-0.00027734 -0.0021317 -0.00023406 0.00035559
-0.0063573 0.013089 0.18062 0.29503 0.0052599 0.0075669 0.00039469 -0.0017257
-0.00055728 -0.00088454 -0.00026408 -0.00075101
-0.0012311 -0.0047932 0.0052969 0.0075591 0.33393 -0.11147 -0.0015857 0.0010134
-0.00037446 -0.001141 0.00010658 -0.00052768
0.0015535 0.0019061 0.00037316 -0.0017179 -0.0015919 0.0010171 0.23457 0.092567
-0.010722 0.0094924 0.0026718 0.00021758
-0.00029553 -0.0021273 -0.00057649 -0.00086965 -0.0004055 -0.0011338 -0.010712 0.0095174
0.18911 0.15799 -0.00879 0.0083842
-0.00021024 0.00036612 -0.00025034 -0.00074989 0.00011394 -0.0005138 0.0026692 0.00022468
-0.0087874 0.0083869 0.23869 0.22647
1640000000 0.30034 0.014975 -0.00016439 0.011281 -0.0028751 -0.0024024 0.002807 0.00081339
-0.00088487 -0.0014363 -0.00023705 0.00054161
-0.00018528 0.011286 0.2093 0.2697 0.0057133 0.0031343 -0.00091419 -0.0016926
-0.00096982 -0.00029165 -0.00052416 -0.00052417
-0.002893 -0.0023975 0.0057426 0.0031075 0.30483 -0.16024 -0.00046066 0.0015397
-0.0011757 -0.00074852 -0.00018534 -0.0002503
0.0028017 0.00080577 -0.00091037 -0.0016895 -0.00050036 0.0015377 0.24425 0.04529
-0.0058221 0.010203 0.0025709 -0.0013525
-0.00089389 -0.0014376 -0.00096548 -0.00028256 -0.0011918 -0.00076953 -0.0058088 0.010222
0.21059 0.13207 -0.0037689 0.010099
-0.00023282 0.00054409 -0.00053974 -0.00053104 -0.00012238 -0.00028773 0.0025895 -0.0013646
-0.00379 0.010096 0.26228 0.19382
1700000000 0.29141 -0.030454 0.0026323 0.0081433 -0.0034503 0.00033001 0.0029108 -0.0014613
-0.0019799 -0.0005634 0.00069694 0.00035726
0.0026132 0.0081364 0.22668 0.23813 0.0036389 0.00040311 -0.0015483 -0.00040516
-0.00067227 0.00013506 -0.00086573 -0.00037094
-0.0034659 0.00030336 0.0036555 0.00038719 0.26124 -0.20026 0.00064068 0.0014436
-0.0018196 -7.4465e-05 -0.0005218 -0.0008271
0.0028978 -0.0014657 -0.0015598 -0.00041622 0.00063846 0.0014367 0.2398 -0.0025099
-0.0027189 0.010023 0.0013929 -0.0025093
-0.0019966 -0.00053498 -0.00067587 0.00014304 -0.0018577 -6.9966e-05 -0.0026988 0.010031
0.22632 0.11003 0.00096996 0.0099462
0.00067645 0.00035632 -0.00086466 -0.00036766 -0.00056765 -0.00078973 0.001383 -0.0025159
0.00096151 0.0099553 0.2766 0.15825
1760000000 0.27765 -0.078271 0.0040988 0.0048392 -0.0021374 0.00096933 0.00090499 -0.0034912
-0.0013336 0.00082619 0.00041745 -0.0004449
0.0040822 0.0048336 0.25185 0.19793 0.0014624 -0.0013342 -0.0012163 0.00038405
-0.00093237 0.00078019 -0.00056893 0.000437
-0.0021136 0.00099586 0.0014714 -0.001324 0.21199 -0.23372 0.0012445 0.00082299
-0.0010398 0.0015677 -0.001278 -0.00042799
0.00090122 -0.0035054 -0.0011929 0.00036802 0.0012539 0.00083417 0.22996 -0.051375
0.00034603 0.0085667 -0.00052827 -0.0026807
-0.0013605 0.00084081 -0.0009327 0.00079805 -0.0010393 0.0016029 0.00035486 0.0085838
0.23901 0.073557 0.0046255 0.0070029
0.00039293 -0.00046066 -0.00056337 0.00044576 -0.0012809 -0.00037666 -0.00053216 -0.0026797
0.0046135 0.0069898 0.28703 0.11957
1820000000 0.2518 -0.11471 0.0037256 0.0016675 -4.0396e-05 0.0024197 -0.0013309 -0.0027756
-0.00096766 0.0010737 -7.781e-05 -9.4009e-05
0.0037111 0.0016603 0.26119 0.16808 -0.00041299 -5.514e-05 -0.0010705 0.0010754
-5.496e-05 0.0012158 -0.00052049 0.0005297
-3.7084e-05 0.0024148 -0.00041125 -5.8026e-05 0.16141 -0.24874 0.0013764 0.00013467
-4.2691e-06 0.0021943 -0.0013452 0.00049386
-0.0013541 -0.002769 -0.0010696 0.0010663 0.0014019 0.00014529 0.20084 -0.096144
0.0015888 0.0066203 -0.0018046 -0.0015863
-0.00094795 0.0010994 -3.3664e-05 0.0012249 1.0448e-06 0.0021841 0.0015974 0.0066225
0.25394 0.043393 0.0054857 0.0031848
-7.7294e-05 -8.8893e-05 -0.00051529 0.00055852 -0.0013488 0.00049621 -0.001795 -0.0015685
0.0054854 0.0031843 0.28731 0.082294
1880000000 0.21587 -0.1539 0.0012423 -1.4215e-05 -0.00046095 0.0020595 -0.002941 -0.0017819
-0.00011475 0.001612 0.00021071 -0.00045577
0.0012343 -2.524e-05 0.26514 0.1213 -0.0023944 0.0015728 5.3592e-05 0.0016175
0.0005302 0.0010958 0.00017114 0.00093047
-0.00045305 0.0020737 -0.0023945 0.0016066 0.10881 -0.25876 0.0014281 -0.00096787
0.001531 0.0015876 -0.00079474 0.0013202
-0.0029248 -0.0017705 7.351e-05 0.0016335 0.0014423 -0.00095746 0.16194 -0.13566
0.0019838 0.0044034 -0.0024851 0.00036561
-8.0275e-05 0.0016137 0.00053597 0.0011051 0.0015652 0.0015854 0.0019863 0.0044089
0.25432 0.0095943 0.0050448 0.00084434
0.00018895 -0.00047967 0.00017497 0.00092864 -0.00076251 0.001341 -0.0024769 0.00036758
0.0050429 0.00084355 0.28483 0.04756
1940000000 0.17623 -0.17901 -0.00090468 -0.0010645 0.0014718 0.0019843 -0.0034414 0.00080794
0.0015047 0.0010234 -0.00058584 -0.00053604
-0.00090874 -0.0010671 0.26485 0.089747 -0.0012106 0.0039131 0.0010733 0.0010347
0.0017286 0.00050243 0.0009405 0.00045845
0.0014824 0.0019898 -0.0011989 0.0039143 0.062372 -0.2518 0.00023485 -0.0018296
0.0023755 0.00028556 0.00053541 0.001814
-0.0034399 0.00081024 0.0010604 0.0010524 0.00016811 -0.0017666 0.11097 -0.16577
0.00099856 0.0030359 -0.0016696 0.0015537
0.0014985 0.0010003 0.0017242 0.00051449 0.002332 0.00027242 0.00101 0.0030473
0.25363 -0.029612 0.0035859 -0.0021961
-0.00059688 -0.00051854 0.00095507 0.00044033 0.00056351 0.0017424 -0.0016471 0.0015491
0.0035616 -0.0021842 0.27194 0.010851
2000000000 0.12957 -0.19334 -0.0043111 0.0012753 0.0026204 0.0014873 -0.0020897 0.0034051
0.0011208 -2.4241e-05 -0.00052957 0.00046038
-0.0043028 0.0012672 0.25047 0.054277 -0.00102 0.0057501 0.0014689 0.0001622
0.0013202 -0.0012439 0.00053959 -8.7368e-05
0.0026573 0.0014697 -0.00099649 0.0057748 0.018472 -0.23711 -0.0011331 -0.00099607
0.0017939 -0.0012042 0.0018235 0.0009154
-0.002055 0.0034137 0.001463 0.00014368 -0.0010998 -0.00097943 0.058675 -0.17691
-0.00078015 0.0026949 -0.00014987 0.0023034
0.0011176 -1.8826e-05 0.0013289 -0.0012562 0.0018401 -0.0011852 -0.00076554 0.0026859
0.2453 -0.063506 0.00031828 -0.0030769
