!Keysight Technologies,M9804A,MY58100912,A.14.10.03
!Date: Thursday, April 27, 2023 10:28:33
!Correction: S11(C  6-Port  ) 
!S12(C  6-Port  ) 
!S13(C  6-Port  ) 
!S14(C  6-Port  ) 
!S15(C  6-Port  ) 
!S16(C  6-Port  ) 
!S21(C  6-Port  ) 
!S22(C  6-Port  ) 
!S23(C  6-Port  ) 
!S24(C  6-Port  ) 
!S25(C  6-Port  ) 
!S26(C  6-Port  ) 
!S31(C  6-Port  ) 
!S32(C  6-Port  ) 
!S33(C  6-Port  ) 
!S34(C  6-Port  ) 
!S35(C  6-Port  ) 
!S36(C  6-Port  ) 
!S41(C  6-Port  ) 
!S42(C  6-Port  ) 
!S43(C  6-Port  ) 
!S44(C  6-Port  ) 
!S45(C  6-Port  ) 
!S46(C  6-Port  ) 
!S51(C  6-Port  ) 
!S52(C  6-Port  ) 
!S53(C  6-Port  ) 
!S54(C  6-Port  ) 
!S55(C  6-Port  ) 
!S56(C  6-Port  ) 
!S61(C  6-Port  ) 
!S62(C  6-Port  ) 
!S63(C  6-Port  ) 
!S64(C  6-Port  ) 
!S65(C  6-Port  ) 
!S66(C  6-Port  ) 
!S6P File: Measurement: :
# Hz S  RI   R 50
500000000 -0.34082 -0.018412 -0.011803 -0.0032298 -0.0078047 0.013427 -0.0036661 0.012331
0.011056 0.0035707 -0.003267 0.0087824
-0.011785 -0.0032271 -0.42065 -0.036622 0.0053376 -0.011265 0.0016003 0.012703
0.0065462 0.0026499 0.0017947 0.013785
-0.0077788 0.013426 0.0053246 -0.011283 -0.26492 0.22354 0.0070695 0.0040758
-0.0014428 0.0088692 0.0020686 0.012404
-0.0036447 0.012315 0.0016156 0.012726 0.0070744 0.0040678 -0.33096 0.062579
-0.019935 -0.006507 0.015426 0.02365
0.011056 0.0035636 0.0065578 0.0026406 -0.0014334 0.0088725 -0.019953 -0.0064932
-0.23686 -0.16444 -0.02588 0.0043775
-0.0032462 0.0087675 0.0017991 0.013797 0.0020669 0.012407 0.015431 0.02365
-0.025887 0.0043745 -0.28478 -0.079752
560000000 -0.31339 0.1373 -0.027862 -0.060337 0.001375 0.012221 0.0055993 0.0098399
0.0091997 0.0045569 0.010635 0.0074638
-0.027834 -0.060281 -0.3766 0.11971 -0.043248 -0.033809 0.013605 0.0036148
-0.012759 -0.0038601 0.003343 -0.00099457
0.0014044 0.012232 -0.043316 -0.033783 -0.18109 0.26913 -1.1757e-05 -0.0039797
0.019533 0.0045833 0.0064127 -0.0061868
0.0056182 0.0098309 0.013597 0.0035961 -1.2911e-05 -0.0039778 -0.30501 0.14936
9.9611e-05 -0.024071 0.0028521 -0.018365
0.0091759 0.004548 -0.012789 -0.0038623 0.019544 0.0045843 8.545e-05 -0.024089
-0.28876 0.009423 0.0020837 -0.046377
0.010634 0.0074201 0.0033371 -0.00099884 0.0064188 -0.0061973 0.0028404 -0.01837
0.0020894 -0.046384 -0.3305 0.059733
620000000 -0.27147 0.12378 -0.023783 0.0081687 0.0047444 0.0083689 0.0077764 -0.0052725
0.011365 -0.0012302 0.0015135 -0.0024477
-0.023773 0.0081451 -0.40227 0.074653 -0.019417 0.0013147 -0.00072997 -0.0023179
0.010775 -0.0061833 0.0017803 -0.0025523
0.0047571 0.0083685 -0.019418 0.0013367 -0.14931 0.27881 -0.00076911 -0.0049797
-0.002802 -0.0025332 0.0084981 -0.0038346
0.0077811 -0.0052697 -0.00073959 -0.0023156 -0.00076747 -0.0049746 -0.26296 0.16172
-0.039811 -0.017633 0.011983 0.02371
0.01134 -0.0012584 0.010765 -0.0062152 -0.0028085 -0.0025223 -0.039842 -0.017605
-0.21158 -0.028507 -0.038936 0.015369
0.0014976 -0.0024589 0.0017843 -0.0025521 0.0084919 -0.0038431 0.011988 0.023717
-0.038931 0.015336 -0.25626 0.032327
680000000 -0.22827 0.20627 -0.027886 -0.010739 0.0057933 0.004606 0.001341 -0.0072156
-0.0028755 -0.011369 0.0041773 -0.0070677
-0.027856 -0.010751 -0.38436 0.16942 -0.031787 0.00091818 -0.0011244 -0.00073705
-0.0021744 -0.0092666 -0.0013041 -0.0023704
0.0057986 0.0045944 -0.031798 0.00096691 -0.097202 0.2959 -0.00081077 -0.0007846
-0.00145 -0.00029804 -0.0033069 -0.0087054
0.0013266 -0.007214 -0.0011263 -0.00073353 -0.00080325 -0.00078557 -0.21659 0.20806
-0.026083 -0.0044182 -0.0092038 -0.0076811
-0.0028925 -0.011374 -0.0022056 -0.0092741 -0.0014455 -0.00028816 -0.026116 -0.0044003
-0.2516 0.06983 -0.0075554 -0.0058278
0.0041698 -0.0070816 -0.0013053 -0.0023756 -0.0033059 -0.0087095 -0.0092038 -0.0076958
-0.0075473 -0.0058267 -0.25394 0.12763
740000000 -0.18353 0.20154 -0.03563 0.027222 0.012383 -0.0059089 -0.00086341 -0.003976
-0.0051777 -0.0029828 -0.0061258 0.0031177
-0.035622 0.027178 -0.33181 0.18811 -0.032287 0.035456 -0.0010103 -0.0065397
-0.011466 0.0078131 -0.0022028 -0.0051862
0.012381 -0.0059265 -0.032253 0.03554 -0.063434 0.29444 -0.0019094 0.0029929
-0.0034505 -0.0042702 -0.0020974 0.00092851
-0.00087124 -0.0039846 -0.001017 -0.006539 -0.0019173 0.0029911 -0.19847 0.21699
-0.04196 -0.0029648 0.022192 0.012715
-0.0051771 -0.0029681 -0.011458 0.0078505 -0.0034676 -0.004256 -0.041993 -0.002925
-0.15744 0.090985 -0.038566 0.0041332
-0.0061313 0.0030991 -0.002213 -0.0051749 -0.0020894 0.00092901 0.022195 0.012699
-0.038562 0.0040927 -0.24173 0.13795
800000000 -0.14908 0.23791 -0.020273 0.017854 0.0046807 -0.010613 -0.0042502 -0.0016619
-0.0041107 0.002679 0.0033211 0.00067816
-0.020269 0.01784 -0.33151 0.25635 -0.0061109 0.033432 -0.0022645 0.0023004
-0.0010122 0.0033769 0.00091521 0.0054191
0.0046676 -0.010611 -0.0060505 0.033443 -0.020865 0.31559 0.0006603 0.0017774
0.00023084 0.0036058 -0.0016384 0.0011939
-0.0042489 -0.0016652 -0.002266 0.0022984 0.00066009 0.0017725 -0.16796 0.24308
-0.026221 0.016977 0.012659 -0.010109
-0.0040995 0.0026872 -0.00099918 0.0033753 0.00022961 0.0036142 -0.02623 0.017039
-0.19417 0.11744 -0.014873 0.019795
0.0033388 0.00067201 0.00092572 0.0054331 -0.0016399 0.0011884 0.012662 -0.010128
-0.014867 0.019775 -0.22811 0.18315
860000000 -0.11382 0.25716 -0.014705 0.030709 -0.0035303 -0.0097511 -0.0019035 0.0010949
0.0044364 0.0048884 -0.0025419 -0.0020475
-0.014714 0.030676 -0.28394 0.29634 0.0097508 0.032921 0.00011757 0.0020836
0.0046409 0.00086712 0.0031822 0.00085131
-0.0035435 -0.0097363 0.0098289 0.032909 0.027063 0.32221 -0.0002922 7.098e-05
0.0026591 -0.0012098 0.0019627 0.0038567
-0.0018985 0.001086 0.00012454 0.0020817 -0.00029157 7.1467e-05 -0.13121 0.25343
-0.014577 0.021174 -0.0051231 -0.0089056
0.004457 0.004898 0.0046561 0.00085604 0.0026591 -0.0012235 -0.014556 0.021221
-0.14115 0.16269 -0.020535 0.017312
-0.0025416 -0.0020351 0.0031917 0.00084333 0.0019685 0.0038607 -0.005132 -0.0089122
-0.020553 0.017287 -0.17866 0.22194
920000000 -0.087029 0.27785 0.007174 0.035841 -0.0092023 -0.0043773 -0.0013931 0.0015183
0.0016725 0.0014647 0.0028366 -0.0019069
0.0071419 0.03581 -0.25386 0.31639 0.028522 0.01972 0.0017526 0.0010337
0.0072738 -0.00064146 0.0038069 -0.0031034
-0.0091998 -0.0043499 0.02858 0.019652 0.074133 0.32237 0.0020228 -0.00015404
0.0016444 -0.00057103 0.00082586 -0.001482
-0.0013877 0.001512 0.0017434 0.0010312 0.0020277 -0.00015473 -0.10489 0.26901
-0.0066089 0.030854 0.0026611 -0.0064975
0.001673 0.0014645 0.0072949 -0.00068258 0.00164 -0.00057746 -0.0065743 0.030902
-0.12767 0.16815 0.00054494 0.02559
0.002836 -0.0019072 0.0037957 -0.0031256 0.00082539 -0.0014794 0.0026513 -0.0064951
0.00052069 0.025577 -0.17707 0.23721
980000000 -0.040415 0.29493 0.019088 0.027522 -0.0086522 0.0043753 0.0018107 0.0029082
0.0040213 -0.001923 -0.0029458 -0.0022831
0.019055 0.027511 -0.20232 0.34835 0.032656 0.0026546 0.0020971 -0.00022445
0.0017588 -0.0062997 -0.00050893 -0.002465
-0.0086421 0.0043961 0.03268 0.002575 0.12087 0.3145 0.00048022 -0.0013623
8.4121e-05 -0.0022993 0.0011855 -0.00030775
0.0018244 0.0029067 0.0020895 -0.00023564 0.00048845 -0.0013697 -0.065889 0.27793
0.011753 0.028159 -0.0083125 -0.0063354
0.0040115 -0.0019313 0.0017505 -0.0063072 7.8187e-05 -0.0023034 0.011808 0.02816
-0.094798 0.19149 0.0070271 0.01802
-0.0029535 -0.0022705 -0.00051397 -0.0024905 0.0011817 -0.00030623 -0.00832 -0.0063336
0.0070023 0.018021 -0.13283 0.27413
1040000000 0.002187 0.30184 0.032927 0.014736 -0.0014243 0.0063394 0.0021644 0.00052661
-7.2206e-05 -0.003239 -0.00088099 -0.0016506
0.032883 0.014749 -0.16684 0.36139 0.02768 -0.016288 0.0014745 -0.0018367
-0.0024626 -0.0028062 -0.0016966 -0.0027972
-0.0014089 0.0063531 0.02764 -0.016387 0.16773 0.29999 -0.00065992 -0.0015561
-0.0016837 -0.00092771 -0.00070322 -0.0010142
0.0021749 0.00052212 0.0014502 -0.001839 -0.00065164 -0.0015557 -0.037409 0.28664
0.02166 0.015028 -0.0028147 0.00075063
-8.7637e-05 -0.0032377 -0.0024574 -0.0028065 -0.0016913 -0.00093445 0.021704 0.014998
-0.063081 0.19685 0.014396 0.015155
-0.0008851 -0.0016359 -0.0017158 -0.0028109 -0.00070208 -0.0010147 -0.0028116 0.00076033
0.014382 0.015152 -0.10754 0.29362
1100000000 0.047202 0.30783 0.034054 -0.0068094 0.0022774 0.0035316 0.0020371 -0.00082889
-0.0021307 -0.0027008 -0.0037413 0.00060562
0.034027 -0.0067899 -0.12375 0.37739 0.01314 -0.028265 -0.00012544 -0.0018148
-0.003753 -0.00069105 -0.0035366 -0.00012395
0.0022806 0.0035307 0.013077 -0.028317 0.21504 0.27747 -0.0019034 0.00018352
-0.0019659 0.00071725 -0.00094201 3.2209e-05
0.0020388 -0.00082025 -0.00013658 -0.0018133 -0.0019064 0.00017789 0.0037372 0.2892
0.025031 0.0014646 -0.0028831 -4.4768e-05
-0.0021295 -0.0026964 -0.0037609 -0.00068664 -0.0019726 0.00070055 0.025045 0.0014264
-0.044087 0.20789 0.018638 0.0057883
-0.0037363 0.00061595 -0.003542 -0.00012085 -0.00094331 3.0564e-05 -0.0028904 -3.5788e-05
0.018621 0.0057915 -0.060472 0.31662
1160000000 0.097635 0.30173 0.021243 -0.022336 0.0018354 -0.00018513 3.1286e-05 -0.0018074
-0.0039833 -0.00038165 -0.00066303 0.0039302
0.021235 -0.022299 -0.079646 0.382 -0.005783 -0.028431 -0.001703 -0.0015376
-0.0029036 0.0027416 -0.0013764 0.0019198
0.0018249 -0.00018975 -0.0058726 -0.028444 0.25759 0.24425 -0.00082945 0.0018506
-0.0004523 0.0021596 -0.00070475 0.00044171
3.4641e-05 -0.0017983 -0.0017241 -0.0015292 -0.00082916 0.0018504 0.042956 0.28445
0.019995 -0.013661 -0.0031367 0.0042441
-0.003984 -0.0003719 -0.0028824 0.0027538 -0.00044627 0.0021463 0.019991 -0.013703
-0.010794 0.21448 0.017493 -0.0028287
-0.00066111 0.0039298 -0.0013604 0.001912 -0.00071041 0.00044601 -0.0031207 0.004263
0.017492 -0.0028236 -0.013801 0.31696
1220000000 0.14217 0.28892 0.007021 -0.029839 -0.0019446 0.00012101 0.00034611 -0.00094175
-0.0024217 0.0023394 0.0014365 0.0020323
0.0070424 -0.029809 -0.035198 0.39286 -0.017991 -0.019603 -0.002499 0.00046713
0.00014493 0.0032089 -0.00044487 0.0020661
-0.0019482 0.00012745 -0.018059 -0.019557 0.29594 0.20305 0.00082922 0.0019561
0.00078774 0.001322 0.00057442 0.00053511
0.00035059 -0.0009463 -0.0025022 0.00047123 0.00082358 0.0019581 0.083329 0.27386
0.0084605 -0.019559 0.0011049 0.0014595
-0.0024184 0.0023537 0.00015735 0.0032196 0.00079361 0.0013206 0.0084415 -0.019586
0.012869 0.22088 0.011607 -0.014508
0.0014418 0.0020268 -0.00042995 0.0020639 0.00057591 0.000533 0.0011032 0.0014531
0.011595 -0.014502 0.020097 0.32792
1280000000 0.19084 0.2655 -0.010548 -0.026708 -0.0015409 0.0034026 -0.0008485 -0.0021219
-0.00067252 0.0029738 0.0025177 0.0009249
-0.010517 -0.026687 0.010951 0.38337 -0.024033 -0.0069105 -0.0010963 0.0015053
0.0020093 0.0018678 0.00089675 0.0017646
-0.001535 0.0034092 -0.024069 -0.0068353 0.32433 0.15747 0.0017945 -2.6123e-05
0.0013544 0.00015825 0.00038221 9.271e-05
-0.00085321 -0.0021211 -0.0010932 0.0015187 0.0018 -2.12e-05 0.11935 0.25479
-0.0020301 -0.020563 -0.00081714 0.00064699
-0.00065863 0.0029691 0.0020262 0.0018549 0.0013517 0.00015685 -0.002081 -0.020572
0.048488 0.22205 0.00073835 -0.015996
0.0025188 0.00091814 0.00089877 0.0017663 0.00037898 9.1561e-05 -0.00081128 0.00065109
0.00074592 -0.015983 0.065617 0.32531
1340000000 0.2273 0.23066 -0.019146 -0.015921 0.001687 0.0048383 -0.0017902 -0.0010729
0.0015012 0.0025786 0.0016607 -0.0015508
-0.019108 -0.015927 0.051006 0.37382 -0.020982 0.0057815 -5.2866e-05 0.0021514
0.002222 0.00050123 0.0014606 0.00061306
0.0016969 0.004833 -0.020963 0.0058556 0.34445 0.10925 0.0013976 -0.0010979
0.00068754 -0.0006427 6.9913e-05 0.00015973
-0.0017884 -0.0010675 -4.9493e-05 0.0021568 0.001398 -0.0010962 0.15093 0.23268
-0.011589 -0.016307 0.00033581 0.0014422
0.0015176 0.0025838 0.0022308 0.00049926 0.00068761 -0.00063523 -0.011629 -0.016301
0.07787 0.2159 -0.0063333 -0.013575
0.0016478 -0.0015516 0.0014602 0.00060424 7.1679e-05 0.00015928 0.00033511 0.0014435
-0.0063154 -0.013579 0.10463 0.3164
1400000000 0.25942 0.19151 -0.022961 -0.0042179 0.0058434 0.0029439 -0.0022592 0.00060691
0.0023982 0.00079901 9.7689e-05 -0.0015764
-0.022927 -0.0042483 0.088049 0.35966 -0.013648 0.013275 0.0015198 0.0013335
0.0012146 -0.0011531 0.0011058 -3.5071e-05
0.0058438 0.0029218 -0.013615 0.01334 0.35616 0.055878 0.00010789 -0.0020719
2.9756e-05 -0.00044087 0.00033173 0.00012924
-0.0022591 0.00062003 0.0015198 0.0013342 0.00010673 -0.00207 0.1792 0.20158
-0.017066 -0.0084443 -0.00031515 0.00090942
0.0024033 0.00078984 0.0012063 -0.0011549 3.0351e-05 -0.00043797 -0.01711 -0.0084096
0.10957 0.20938 -0.01219 -0.0076479
8.8138e-05 -0.001562 0.0011111 -4.811e-05 0.00033508 0.00013184 -0.00032257 0.00090842
-0.01219 -0.0076428 0.14677 0.3012
1460000000 0.28112 0.14674 -0.018626 0.0071084 0.0059936 -0.0022712 -0.0016166 0.001792
0.0021337 -0.00062469 -0.00054948 -0.00088562
-0.018617 0.0070825 0.12194 0.33658 -0.0048093 0.015465 0.0018825 1.6804e-05
0.00056781 -0.0014276 0.00099481 -0.00062723
0.0059866 -0.0022753 -0.0047591 0.015488 0.36076 0.002188 -0.0015939 -0.0014525
0.00011944 -0.00021302 0.00062987 -0.00032762
-0.0016172 0.0017994 0.0018781 1.5779e-05 -0.0016026 -0.0014481 0.2032 0.17088
-0.017424 -0.00066933 3.1782e-05 0.002433
0.0021374 -0.00063047 0.00056545 -0.0014319 0.0001137 -0.0002192 -0.017446 -0.00063668
0.13766 0.19354 -0.013088 -0.0010715
-0.00055707 -0.00089183 0.0009921 -0.00063969 0.0006182 -0.00031805 3.1444e-05 0.0024231
-0.013069 -0.0010914 0.17838 0.27813
1520000000 0.29268 0.10386 -0.012031 0.011451 0.0034069 -0.0046309 0.00016345 0.0027148
0.0019809 -0.0018591 -0.0011698 -2.8777e-05
-0.012033 0.011426 0.1548 0.32067 0.0024936 0.012667 0.0016874 -0.0010817
-0.00019409 -0.0010324 0.00025973 -0.00096861
0.0033855 -0.0046398 0.0025492 0.01266 0.35382 -0.053452 -0.0015299 -0.00021642
0.00053613 -0.00087479 -2.7325e-05 -0.00018445
0.00016888 0.0027157 0.0016857 -0.0010873 -0.0015331 -0.00021367 0.22399 0.13212
-0.01526 0.0054789 0.0023122 0.0019851
0.0019735 -0.0018669 -0.00020391 -0.0010303 0.00053308 -0.00088141 -0.015257 0.0055247
0.16528 0.17813 -0.012199 0.0036939
-0.0011744 -1.8244e-05 0.00024257 -0.00097118 -2.8098e-05 -0.000185 0.0023159 0.0019865
-0.012209 0.0036835 0.20964 0.25451
1580000000 0.30037 0.056814 -0.005386 0.013039 -0.00091779 -0.0052718 0.0016206 0.0018728
-0.00028324 -0.0022608 -0.0002137 0.00050143
-0.0054032 0.013022 0.18106 0.29494 0.0057778 0.0075937 0.00023661 -0.001826
-0.00063957 -0.00082141 -0.00027286 -0.00081368
-0.00093502 -0.0052614 0.0058045 0.0075657 0.33349 -0.11062 -0.0017322 0.0011068
-0.00042142 -0.001166 8.3434e-05 -0.00065926
0.0016243 0.0018704 0.00022616 -0.0018216 -0.0017265 0.0011118 0.23501 0.092565
-0.010699 0.010019 0.0028398 0.00019459
-0.00028895 -0.0022606 -0.00063643 -0.00081744 -0.0004178 -0.0011713 -0.010687 0.010051
0.18847 0.15832 -0.0089584 0.0088858
-0.00021127 0.00050201 -0.00027368 -0.00081472 8.0099e-05 -0.00066419 0.0028493 0.00018713
-0.0089557 0.0088829 0.23851 0.22596
1640000000 0.30089 0.014917 0.00057757 0.010801 -0.0029907 -0.0029849 0.0028095 0.00082326
-0.00097561 -0.0015473 -0.00013467 0.00056485
0.00055604 0.010811 0.2095 0.26948 0.0060459 0.0028906 -0.0010327 -0.0016252
-0.00093896 -0.0002137 -0.00057468 -0.00059726
-0.0030046 -0.0029611 0.0060585 0.0028605 0.30487 -0.15936 -0.00042635 0.0017205
-0.001352 -0.0007635 -0.00029409 -0.00026871
0.0028066 0.00081392 -0.001038 -0.0016248 -0.0004283 0.0017218 0.2447 0.045046
-0.0055552 0.01068 0.0026829 -0.0014157
-0.00098107 -0.0015405 -0.00093854 -0.00021141 -0.001351 -0.00076612 -0.0055352 0.010706
0.21014 0.13258 -0.0037205 0.010569
-0.00013027 0.00056633 -0.0005782 -0.00059788 -0.00029713 -0.00026942 0.0026883 -0.0014173
-0.0037221 0.010568 0.26207 0.19337
1700000000 0.29174 -0.030617 0.0030053 0.0074404 -0.0038227 -9.7719e-05 0.0029588 -0.0014593
-0.0021105 -0.00058346 0.0007774 0.00023295
0.002988 0.0074411 0.22675 0.23788 0.0039532 2.069e-05 -0.0015852 -0.0002846
-0.00062884 0.00010187 -0.00092501 -0.00035839
-0.0038119 -7.5522e-05 0.0039579 -7.3549e-07 0.26208 -0.19953 0.00082839 0.0014807
-0.0019654 7.8587e-06 -0.00076355 -0.00076384
0.0029534 -0.0014743 -0.0015934 -0.00027292 0.00081821 0.001474 0.23998 -0.0029433
-0.0022579 0.010239 0.0014591 -0.0025793
-0.0021113 -0.00057412 -0.00062695 0.00010862 -0.0019562 2.2379e-05 -0.0022361 0.010254
0.22612 0.11058 0.0011643 0.010387
0.00078114 0.00022898 -0.00092883 -0.00035494 -0.00077277 -0.00076628 0.0014589 -0.0025811
0.0011649 0.010392 0.27628 0.15794
1760000000 0.27796 -0.078705 0.0042071 0.0040903 -0.0026147 0.00098889 0.00092761 -0.0035962
-0.0013886 0.00089462 0.00033143 -0.00057082
0.0041933 0.0040863 0.25183 0.19782 0.00151 -0.0017231 -0.0011121 0.00044485
-0.0009229 0.00076762 -0.00058259 0.00049531
-0.0026101 0.00099869 0.0014995 -0.0017295 0.21276 -0.23337 0.0014592 0.00071446
-0.0010617 0.001865 -0.0013197 -0.00016338
0.00090405 -0.003598 -0.0011034 0.00044932 0.0014593 0.00071993 0.23001 -0.051827
0.00085575 0.0086008 -0.00043305 -0.002787
-0.0013776 0.00090303 -0.00091379 0.00077366 -0.0010592 0.001869 0.00087287 0.0086043
0.23909 0.074196 0.005015 0.0073003
0.00033122 -0.00057457 -0.00058248 0.00049967 -0.0013168 -0.00016589 -0.00044385 -0.0027949
0.0050189 0.0072939 0.28692 0.11963
1820000000 0.25187 -0.11513 0.0034512 0.0010234 -0.00035762 0.0025361 -0.0014087 -0.0029008
-0.00088576 0.0011507 -0.00016886 -7.8495e-05
0.0034458 0.0010179 0.26115 0.168 -0.00061886 -0.0005551 -0.00099786 0.0010705
-9.3239e-05 0.0011848 -0.00048207 0.0005894
-0.00034854 0.0025419 -0.00062862 -0.00055396 0.16205 -0.24933 0.0012612 6.3875e-06
0.00016403 0.0022242 -0.0012039 0.00073599
-0.0014203 -0.0028925 -0.00099415 0.001079 0.0012655 1.1021e-05 0.20088 -0.096553
0.0021269 0.0064645 -0.0017032 -0.0017533
-0.00088113 0.0011505 -8.7125e-05 0.0011821 0.00017332 0.0022173 0.0021522 0.0064768
0.25422 0.043944 0.006031 0.003313
-0.00017345 -7.7728e-05 -0.00047653 0.00059406 -0.0012068 0.00074595 -0.0017118 -0.0017539
0.0060391 0.0033145 0.28722 0.082111
1880000000 0.21556 -0.15435 0.00073369 -0.0005193 -0.00068894 0.0023005 -0.0030789 -0.0017574
4.9038e-06 0.0016103 0.00020001 -0.00031043
0.00073192 -0.00051201 0.26513 0.12127 -0.0028866 0.0014005 7.262e-05 0.0015615
0.00047899 0.001163 0.00018456 0.00095445
-0.00068295 0.0022996 -0.0028804 0.0014136 0.1086 -0.25913 0.0013547 -0.001051
0.0017278 0.001536 -0.00067951 0.0014752
-0.0030813 -0.0017483 7.9541e-05 0.0015552 0.0013518 -0.0010516 0.16172 -0.1361
0.0023449 0.0038984 -0.0025711 8.3887e-05
1.9984e-05 0.0016139 0.00047665 0.0011574 0.001733 0.0015418 0.0023527 0.0038904
0.25487 0.009969 0.0055565 0.00075493
0.00019778 -0.00031776 0.0001945 0.00095364 -0.00068749 0.0014695 -0.0025636 8.6347e-05
0.0055566 0.00075605 0.28484 0.047537
1940000000 0.17575 -0.17912 -0.0015429 -0.0012656 0.0014491 0.0023966 -0.0035174 0.00085187
0.001535 0.00094877 -0.00049365 -0.00035713
-0.0015426 -0.0012612 0.26489 0.08974 -0.0017122 0.0040505 0.0010224 0.001012
0.0016774 0.00060622 0.00082229 0.00045143
0.0014475 0.002378 -0.0016954 0.0040514 0.062193 -0.25169 0.0001453 -0.0017063
0.0023089 0.00011972 0.0005276 0.0015818
-0.0035131 0.00086597 0.0010236 0.0010155 0.0001518 -0.0017019 0.11044 -0.1661
0.00098284 0.0024333 -0.0019316 0.0013411
0.0015378 0.00094936 0.0016799 0.00059152 0.0023065 0.00011562 0.00098772 0.0024287
0.25423 -0.029637 0.003999 -0.0026068
-0.00049761 -0.00035405 0.00082634 0.000448 0.00052845 0.0015799 -0.0019239 0.0013501
0.0039974 -0.0026019 0.27202 0.010802
2000000000 0.12932 -0.1932 -0.0050758 0.0014039 0.0027505 0.001833 -0.00214 0.0034998
0.0010417 -0.00010211 -0.00033385 0.00037163
-0.0050693 0.001403 0.25057 0.054223 -0.0012643 0.0061464 0.0014113 0.00011025
0.0014517 -0.0011576 0.00066075 7.6817e-05
0.0027527 0.0018243 -0.001248 0.0061303 0.018501 -0.23691 -0.0010856 -0.00099802
0.001667 -0.0012123 0.0019535 0.00087366
-0.0021289 0.0035034 0.0014118 0.00010397 -0.0010847 -0.00099128 0.058097 -0.17691
-0.0011198 0.0021437 -0.00044305 0.0023238
0.0010386 -0.00010829 0.0014368 -0.0011657 0.0016612 -0.0012167 -0.00111 0.0021445
0.24581 -0.06388 0.00053316 -0.0036196
