!Keysight Technologies,M9804A,MY58100912,A.14.10.03
!Date: Thursday, April 27, 2023 10:28:33
!Correction: S11(C  6-Port  ) 
!S12(C  6-Port  ) 
!S13(C  6-Port  ) 
!S14(C  6-Port  ) 
!S15(C  6-Port  ) 
!S16(C  6-Port  ) 
!S21(C  6-Port  ) 
!S22(C  6-Port  ) 
!S23(C  6-Port  ) 
!S24(C  6-Port  ) 
!S25(C  6-Port  ) 
!S26(C  6-Port  ) 
!S31(C  6-Port  ) 
!S32(C  6-Port  ) 
!S33(C  6-Port  ) 
!S34(C  6-Port  ) 
!S35(C  6-Port  ) 
!S36(C  6-Port  ) 
!S41(C  6-Port  ) 
!S42(C  6-Port  ) 
!S43(C  6-Port  ) 
!S44(C  6-Port  ) 
!S45(C  6-Port  ) 
!S46(C  6-Port  ) 
!S51(C  6-Port  ) 
!S52(C  6-Port  ) 
!S53(C  6-Port  ) 
!S54(C  6-Port  ) 
!S55(C  6-Port  ) 
!S56(C  6-Port  ) 
!S61(C  6-Port  ) 
!S62(C  6-Port  ) 
!S63(C  6-Port  ) 
!S64(C  6-Port  ) 
!S65(C  6-Port  ) 
!S66(C  6-Port  ) 
!S6P File: Measurement: :
# Hz S  RI   R 50
500000000 -0.33943 -0.017535 -0.011198 -0.0031475 -0.0076867 0.012918 -0.0034125 0.012624
0.01104 0.0043028 -0.0030257 0.0086375
-0.011158 -0.0031988 -0.42009 -0.036323 0.0060457 -0.011563 0.0017426 0.012396
0.0069566 0.0020433 0.002486 0.013662
-0.0076467 0.012838 0.0060752 -0.011557 -0.26295 0.22287 0.0071041 0.0037725
-0.00096983 0.0078796 0.0022696 0.012105
-0.0033996 0.012623 0.0017646 0.012396 0.0071194 0.0037461 -0.33027 0.062373
-0.019578 -0.0065736 0.015527 0.023499
0.011241 0.0042198 0.0069498 0.0021976 -0.0010634 0.0080467 -0.019836 -0.0065077
-0.23681 -0.16346 -0.025512 0.0044656
-0.0032116 0.009222 0.0022338 0.01361 0.0021973 0.01196 0.015417 0.023023
-0.025636 0.0043397 -0.28433 -0.079751
560000000 -0.31267 0.13804 -0.027066 -0.060956 0.00128 0.011663 0.0055 0.0096837
0.0090727 0.0040344 0.010647 0.0069905
-0.027051 -0.060809 -0.37484 0.11872 -0.042911 -0.033795 0.013656 0.0033359
-0.011839 -0.0035565 0.0032907 -0.0011821
0.0011855 0.011647 -0.042977 -0.033754 -0.18045 0.26739 -0.00014133 -0.0044229
0.018504 0.0039976 0.0067927 -0.0060288
0.0055496 0.0097111 0.01365 0.0033459 -0.00013172 -0.0043674 -0.30391 0.14877
0.00055971 -0.024334 0.0028841 -0.018755
0.0092476 0.0038884 -0.012322 -0.0033896 0.018673 0.0037708 0.00071914 -0.024411
-0.28846 0.0093832 0.0027637 -0.045943
0.010496 0.0067777 0.0033407 -0.0011423 0.0068444 -0.0060011 0.0028937 -0.018327
0.003007 -0.046258 -0.32994 0.05933
620000000 -0.27051 0.12364 -0.023772 0.0075591 0.0042321 0.0082074 0.0077673 -0.0051817
0.011137 -0.0016214 0.0010008 -0.0031167
-0.02371 0.0075941 -0.4015 0.074084 -0.019582 0.00054753 -0.00090214 -0.0022052
0.010207 -0.0064834 0.001417 -0.0032117
0.0043013 0.0082802 -0.019582 0.00059473 -0.14919 0.27726 -0.0011723 -0.0049154
-0.0028549 -0.0025306 0.0078161 -0.0039846
0.0077775 -0.0052053 -0.0009188 -0.0021994 -0.0011731 -0.0049131 -0.26232 0.16045
-0.039847 -0.017182 0.011899 0.023043
0.010508 -0.0015749 0.010119 -0.006743 -0.0029175 -0.0028911 -0.039721 -0.016848
-0.21088 -0.029347 -0.03873 0.015083
0.0007645 -0.0030019 0.0013925 -0.0031251 0.0079886 -0.0036521 0.011806 0.023259
-0.039139 0.015331 -0.25585 0.031234
680000000 -0.2277 0.20538 -0.027896 -0.011588 0.0055988 0.0045043 0.0010725 -0.0073409
-0.0030031 -0.01135 0.0040206 -0.0066474
-0.027875 -0.011587 -0.38407 0.16793 -0.032192 0.00060767 -0.0014153 -0.00069636
-0.0023988 -0.0088872 -0.0015966 -0.0021778
0.0056048 0.0045009 -0.0322 0.00064513 -0.098021 0.29485 -0.00086603 -0.00067512
-0.0017616 2.0667e-05 -0.0037019 -0.0086128
0.0010264 -0.0073743 -0.001392 -0.00070505 -0.00086929 -0.00067688 -0.21659 0.20748
-0.026036 -0.0048594 -0.0087996 -0.0080304
-0.0029188 -0.011353 -0.0024701 -0.0088156 -0.0017284 -6.0596e-05 -0.025954 -0.004801
-0.25109 0.068502 -0.0074484 -0.006827
0.0041101 -0.0067107 -0.001564 -0.0020794 -0.0035531 -0.0085267 -0.0087721 -0.0080903
-0.0073588 -0.006678 -0.25357 0.12657
740000000 -0.18402 0.20028 -0.036235 0.026495 0.011889 -0.0059283 -0.00090536 -0.0040419
-0.0050979 -0.0025867 -0.0059876 0.0033822
-0.03622 0.026441 -0.33238 0.18731 -0.032468 0.035214 -0.00091364 -0.0061404
-0.011503 0.0079081 -0.0019162 -0.0048573
0.011902 -0.0059291 -0.032437 0.035295 -0.064482 0.29419 -0.0018322 0.0032344
-0.0033794 -0.0047942 -0.0019574 0.001324
-0.00091218 -0.0040619 -0.00093167 -0.0061141 -0.0018336 0.0032167 -0.19858 0.2164
-0.042062 -0.0028377 0.022017 0.012384
-0.0052232 -0.0026887 -0.011426 0.008098 -0.0034413 -0.0046629 -0.042195 -0.0028298
-0.15681 0.089421 -0.039081 0.0036954
-0.0058506 0.0033283 -0.0020195 -0.0049072 -0.001881 0.001379 0.022221 0.012468
-0.039151 0.0033433 -0.24201 0.13699
800000000 -0.1496 0.23726 -0.021179 0.017832 0.0045469 -0.010572 -0.0042822 -0.0015502
-0.0037175 0.0028622 0.0037187 0.00077272
-0.021163 0.01778 -0.33263 0.25566 -0.0064245 0.033567 -0.0022703 0.0024369
-0.00067995 0.003682 0.0012117 0.0054107
0.0045511 -0.010592 -0.0063458 0.033593 -0.021614 0.31576 0.00090622 0.0016609
0.00064161 0.0035394 -0.0017277 0.0012394
-0.0042902 -0.0015429 -0.0022781 0.0024572 0.00090206 0.0016704 -0.16848 0.2426
-0.026497 0.016695 0.012474 -0.0099667
-0.0037213 0.0031816 -0.00083904 0.0036121 0.00058121 0.0036173 -0.026553 0.016709
-0.19438 0.1164 -0.015158 0.019319
0.0037624 0.00084457 0.0010649 0.0054351 -0.001735 0.0012786 0.01245 -0.010109
-0.015285 0.019303 -0.22826 0.18162
860000000 -0.11448 0.25671 -0.01541 0.030913 -0.0037699 -0.0095222 -0.0019285 0.0012625
0.0046437 0.0045999 -0.0026243 -0.002279
-0.015384 0.030849 -0.28523 0.29645 0.0094189 0.033027 0.00021582 0.0022437
0.004587 0.00020253 0.003232 0.00050134
-0.003783 -0.0094953 0.0094804 0.03301 0.026644 0.32269 -0.00043215 -2.1772e-05
0.0026671 -0.0014322 0.0020071 0.0040087
-0.0019343 0.001256 0.00020233 0.0022483 -0.00043084 -2.1545e-05 -0.13186 0.25315
-0.015031 0.020644 -0.0055267 -0.0092341
0.0045746 0.0046161 0.0046682 0.00019123 0.0026203 -0.001467 -0.014832 0.020579
-0.14179 0.16059 -0.021033 0.017037
-0.0024423 -0.0023622 0.0033593 0.00050069 0.0020712 0.0039597 -0.0055067 -0.0092011
-0.020662 0.016978 -0.17901 0.22101
920000000 -0.088056 0.27801 0.0065341 0.036349 -0.0093652 -0.003989 -0.0013599 0.0016606
0.0015911 0.0014316 0.0026862 -0.0018454
0.0065057 0.036314 -0.25472 0.31679 0.028353 0.019964 0.0017903 0.00084653
0.0070509 -0.00078454 0.0034987 -0.0030919
-0.0093643 -0.0039639 0.028417 0.019903 0.074098 0.32276 0.0019385 -0.00013347
0.0014429 -0.00067417 0.00073021 -0.0012683
-0.0013647 0.0016488 0.0017939 0.00085305 0.0019263 -0.00012308 -0.10566 0.26906
-0.0069402 0.030784 0.0022838 -0.0063593
0.0015603 0.0014691 0.0070531 -0.00074957 0.0015061 -0.00066064 -0.0068635 0.030853
-0.12838 0.16746 -0.00037105 0.02578
0.0027746 -0.0018468 0.0034454 -0.0031197 0.00065207 -0.0014242 0.00246 -0.0064803
-0.00022984 0.025681 -0.17811 0.23659
980000000 -0.040979 0.29554 0.018809 0.028327 -0.0084578 0.0046895 0.0020005 0.0029469
0.0038686 -0.001981 -0.0031697 -0.0020205
0.01882 0.028305 -0.20283 0.34919 0.032611 0.0029442 0.0020959 -0.00033229
0.0015097 -0.0061505 -0.00062097 -0.0023333
-0.0084472 0.0046937 0.032651 0.0028685 0.1209 0.3147 0.00044242 -0.0013611
4.9745e-05 -0.0022183 0.0012848 -0.00030034
0.0020182 0.0029486 0.0020848 -0.00033521 0.00043577 -0.0013555 -0.066746 0.27841
0.011064 0.028409 -0.008181 -0.006014
0.0038231 -0.0019404 0.0014566 -0.0061767 1.8435e-05 -0.0021538 0.01108 0.028466
-0.0961 0.19107 0.0066493 0.018568
-0.0030115 -0.0020515 -0.00063896 -0.0022767 0.001277 -0.00021399 -0.0083154 -0.0058776
0.006743 0.018531 -0.13352 0.27405
1040000000 0.0019641 0.30258 0.033111 0.015432 -0.0011042 0.0066885 0.0023208 0.00051748
-2.8739e-05 -0.0032024 -0.00069892 -0.001415
0.03309 0.015396 -0.1668 0.36232 0.027715 -0.015955 0.0013688 -0.0018469
-0.002454 -0.0025622 -0.0016134 -0.002599
-0.001105 0.0066649 0.027698 -0.016036 0.16777 0.30007 -0.00068468 -0.0014202
-0.0016942 -0.00084875 -0.00055705 -0.00097273
0.0023342 0.00050941 0.0013795 -0.0018277 -0.00068564 -0.0014191 -0.037597 0.28738
0.021612 0.01538 -0.0026832 0.0011148
-0.00014607 -0.0031211 -0.0025492 -0.0026327 -0.0017263 -0.00085717 0.021655 0.015316
-0.06374 0.19717 0.014347 0.015743
-0.00075539 -0.0013889 -0.0016308 -0.0027362 -0.00048904 -0.0010074 -0.0026353 0.0011439
0.014252 0.01572 -0.10824 0.2935
1100000000 0.047351 0.30847 0.034361 -0.0062153 0.0026898 0.0036003 0.002138 -0.0010923
-0.0021125 -0.0028375 -0.0035827 0.00051236
0.034342 -0.0061995 -0.12336 0.37838 0.013299 -0.027928 -0.00014732 -0.0018285
-0.0034826 -0.00053792 -0.0033654 -0.00017443
0.002702 0.003592 0.01324 -0.027964 0.21491 0.27748 -0.0018377 0.00030512
-0.0018264 0.0007663 -0.00095285 -8.0951e-05
0.002138 -0.0010951 -0.00015389 -0.0018183 -0.0018427 0.00029676 0.0039176 0.28997
0.025096 0.0017148 -0.002572 1.1416e-05
-0.0021228 -0.0028326 -0.0035269 -0.00052913 -0.0018285 0.00076606 0.025106 0.0016651
-0.044601 0.20813 0.018883 0.0057662
-0.0036217 0.00053119 -0.0033758 -0.00025399 -0.0010089 -0.00011557 -0.0025559 -4.4318e-05
0.018916 0.0058086 -0.061135 0.31644
1160000000 0.09795 0.3023 0.021876 -0.021874 0.0022566 -0.00024652 -0.00010582 -0.0020018
-0.0039949 -0.00051661 -0.00065425 0.0037655
0.021889 -0.021864 -0.078702 0.38232 -0.0054409 -0.028184 -0.0017573 -0.0014848
-0.0026411 0.0025454 -0.0014012 0.0017225
0.0022322 -0.00026579 -0.00552 -0.028184 0.25735 0.24447 -0.00068818 0.0018164
-0.00036386 0.0020514 -0.00076996 0.000334
-9.5419e-05 -0.0020042 -0.0017507 -0.0014731 -0.00068967 0.0018035 0.04339 0.28487
0.01998 -0.013574 -0.0030668 0.0042746
-0.0039402 -0.00049045 -0.0026633 0.0026229 -0.00033249 0.0020562 0.020037 -0.013536
-0.011823 0.21493 0.017101 -0.0024757
-0.00064223 0.0037284 -0.0013083 0.0018156 -0.00076992 0.00024337 -0.0030077 0.0042759
0.017107 -0.0024296 -0.014571 0.31723
1220000000 0.14273 0.28935 0.0078643 -0.029708 -0.0015903 -0.00026462 9.5713e-05 -0.00092734
-0.0024011 0.0023538 0.0014044 0.0019009
0.0078857 -0.029666 -0.034222 0.39291 -0.017579 -0.019589 -0.0024433 0.00051264
0.00020402 0.0030223 -0.0004721 0.0019869
-0.0015939 -0.00026623 -0.017624 -0.019552 0.29586 0.20356 0.00089372 0.0018007
0.00074995 0.0011883 0.00035591 0.00048809
9.9922e-05 -0.00093072 -0.0024507 0.00053217 0.00091604 0.0018194 0.083942 0.27389
0.0084443 -0.019346 0.0012707 0.001433
-0.0023903 0.0023917 0.00017832 0.003036 0.00068054 0.0012284 0.0084604 -0.019326
0.012273 0.22172 0.011701 -0.014034
0.0014076 0.001886 -0.00044047 0.0019621 0.00046138 0.0004666 0.0012896 0.0014363
0.011651 -0.014032 0.019456 0.32837
1280000000 0.1915 0.26568 -0.0097255 -0.026951 -0.0014856 0.0028819 -0.00092353 -0.0019812
-0.00062048 0.0030326 0.0023922 0.00083249
-0.0096872 -0.02693 0.011785 0.38285 -0.02352 -0.0070074 -0.00089197 0.001475
0.0018472 0.0016784 0.00077372 0.0017117
-0.0014889 0.0028802 -0.023563 -0.0069244 0.3245 0.158 0.0016732 -9.8415e-05
0.001231 0.000138 0.00024272 0.00023902
-0.00093457 -0.0019693 -0.00089722 0.0014716 0.0016755 -9.0817e-05 0.11985 0.25453
-0.0017765 -0.020319 -0.00061618 0.00049497
-0.00058835 0.0030403 0.0019106 0.0016755 0.0011952 0.00013581 -0.0018134 -0.020313
0.048389 0.22308 0.0010753 -0.015634
0.002396 0.00083358 0.00086536 0.0017195 0.00020962 0.00024106 -0.00064076 0.00055776
0.0010531 -0.015671 0.065261 0.32561
1340000000 0.22801 0.23055 -0.018487 -0.016745 0.0014215 0.0043715 -0.0017184 -0.00089437
0.0015326 0.0025441 0.0014891 -0.001464
-0.01846 -0.016727 0.051343 0.37311 -0.020671 0.0053185 -8.2152e-05 0.002025
0.0019591 0.0005769 0.0013509 0.00061563
0.0014282 0.0043517 -0.020664 0.0053953 0.34488 0.10982 0.0012089 -0.0010396
0.00053312 -0.00053113 1.6263e-05 0.00022714
-0.0017201 -0.00089691 -6.5073e-05 0.0020264 0.001202 -0.0010346 0.15119 0.23214
-0.01125 -0.016104 0.00043286 0.001271
0.0015515 0.0025229 0.0020091 0.00050599 0.00063316 -0.00059248 -0.011288 -0.016141
0.078107 0.21692 -0.0059089 -0.013264
0.0014798 -0.0014515 0.0013625 0.00062319 4.9408e-05 0.00021801 0.0004159 0.0012564
-0.0059087 -0.013201 0.10395 0.31692
1400000000 0.26003 0.19091 -0.022833 -0.0052611 0.0054698 0.0026784 -0.0021482 0.00060586
0.0023745 0.00077679 9.6739e-05 -0.0014081
-0.022807 -0.0052823 0.088042 0.3589 -0.013592 0.012769 0.0013721 0.0012929
0.0011117 -0.00097597 0.0011183 1.6864e-05
0.0054849 0.0026788 -0.013564 0.012836 0.3569 0.056217 2.6392e-05 -0.0018719
2.3754e-05 -0.0004269 0.00039685 0.00018455
-0.0021431 0.00060346 0.0013867 0.0012899 1.6224e-05 -0.0018727 0.17914 0.20106
-0.016621 -0.0084891 -0.00039223 0.00065748
0.0023849 0.00080013 0.0011272 -0.00096027 5.9056e-05 -0.00039022 -0.016648 -0.0084608
0.11021 0.21014 -0.011654 -0.0075886
0.00011656 -0.0014267 0.0011018 7.6904e-06 0.00042949 0.00015701 -0.00037211 0.00065225
-0.011634 -0.0076245 0.14651 0.30185
1460000000 0.28129 0.14599 -0.01908 0.0061115 0.0054875 -0.0023429 -0.001546 0.0017566
0.0020786 -0.00073442 -0.00045999 -0.00085774
-0.019074 0.0061003 0.12153 0.33603 -0.0050959 0.014942 0.0017438 9.7002e-05
0.00068119 -0.0013141 0.001007 -0.0006236
0.005481 -0.0023464 -0.005054 0.014951 0.36154 0.0020998 -0.0014675 -0.0012829
0.00012621 -0.00018829 0.00064126 -0.0002769
-0.0015429 0.0017589 0.0017474 8.9852e-05 -0.0014826 -0.0012877 0.2029 0.17043
-0.016986 -0.0010231 -6.4667e-05 0.002283
0.002078 -0.00070189 0.00066017 -0.001315 9.3185e-05 -0.0001918 -0.017005 -0.00099907
0.13855 0.19387 -0.01263 -0.0013437
-0.00046951 -0.00090279 0.0009734 -0.00062301 0.00062968 -0.00027306 -3.213e-05 0.002291
-0.012569 -0.001355 0.17818 0.27873
1520000000 0.29238 0.10318 -0.012879 0.0109 0.0029684 -0.0043632 0.00013981 0.002629
0.0018441 -0.0017869 -0.0010829 -2.3912e-05
-0.012888 0.010875 0.15434 0.32051 0.0020686 0.012429 0.0016692 -0.0009239
-0.00010704 -0.0010227 0.00023357 -0.00093034
0.0029382 -0.0043916 0.0021224 0.012439 0.35454 -0.053835 -0.0013008 -0.00015375
0.00050056 -0.00088082 -4.0517e-05 -0.00015696
0.00014474 0.0026212 0.0016757 -0.00093792 -0.0013094 -0.00015941 0.22351 0.1319
-0.015085 0.0050133 0.0021269 0.0018877
0.0018305 -0.0017912 -0.00011816 -0.0010338 0.00047843 -0.00089038 -0.015082 0.0050629
0.16608 0.17813 -0.011893 0.0032886
-0.001064 -2.8761e-05 0.00023155 -0.00091328 -3.5257e-05 -0.00012528 0.0021257 0.0019049
-0.011886 0.0032812 0.2096 0.25518
1580000000 0.30002 0.056459 -0.0063694 0.013059 -0.0012117 -0.0047949 0.0015616 0.0019159
-0.00030065 -0.0021159 -0.00020058 0.00035109
-0.0063765 0.013053 0.18064 0.29505 0.0052426 0.0075484 0.00038276 -0.0017173
-0.00057295 -0.0008661 -0.00027088 -0.00075417
-0.0012264 -0.0047882 0.0052958 0.0075394 0.33396 -0.11154 -0.0016013 0.00099657
-0.00041654 -0.001141 0.0001243 -0.00055179
0.0015645 0.0019157 0.00037767 -0.0017207 -0.0016046 0.0010149 0.23456 0.092586
-0.010702 0.0094814 0.002672 0.00023263
-0.00029995 -0.0021498 -0.0005797 -0.0009072 -0.00040289 -0.0011664 -0.010691 0.0095217
0.18923 0.15797 -0.0087882 0.0084109
-0.00023704 0.0003522 -0.0002448 -0.00074193 0.00014762 -0.00053758 0.0026803 0.00019667
-0.0087972 0.0084198 0.23875 0.22642
1640000000 0.30037 0.014969 -0.00021624 0.011263 -0.002868 -0.0024382 0.0028076 0.00081796
-0.00088454 -0.0014619 -0.00022689 0.00055217
-0.0002224 0.011259 0.20934 0.26969 0.0056917 0.0031313 -0.00091533 -0.0016845
-0.00094824 -0.0002857 -0.00053107 -0.00051977
-0.0028728 -0.0024114 0.0057106 0.0031112 0.30478 -0.16034 -0.00046918 0.0015509
-0.0012116 -0.00073813 -0.00016749 -0.00028311
0.0028069 0.00080989 -0.00091673 -0.0016889 -0.00047922 0.0015561 0.24426 0.045278
-0.0058372 0.010221 0.0025748 -0.0013612
-0.00087856 -0.0014492 -0.0009564 -0.0002758 -0.0011844 -0.00071989 -0.0058013 0.010237
0.21055 0.13209 -0.0037549 0.010097
-0.0002263 0.00055756 -0.00053198 -0.00051921 -0.00020634 -0.00027855 0.0025868 -0.001375
-0.0037708 0.010086 0.26235 0.19376
1700000000 0.29146 -0.030501 0.0025946 0.0081304 -0.0034251 0.00026548 0.0029109 -0.0014452
-0.0019768 -0.00054955 0.00068016 0.00035482
0.0025903 0.0081279 0.22676 0.23808 0.0036669 0.00036844 -0.0015613 -0.00041132
-0.00067077 0.0001388 -0.00085674 -0.00037289
-0.003422 0.00025704 0.0036801 0.00037328 0.26129 -0.20031 0.00064917 0.0014339
-0.0018352 -7.8361e-05 -0.00058826 -0.00077651
0.0029063 -0.0014558 -0.0015434 -0.00041359 0.00066051 0.0014302 0.23977 -0.0025336
-0.0027093 0.010011 0.0013877 -0.0025277
-0.0019954 -0.00055038 -0.00067233 0.00013766 -0.0018163 -8.447e-05 -0.0026833 0.010037
0.22636 0.11001 0.00096094 0.0099784
0.0006912 0.00032706 -0.00084348 -0.00037353 -0.00052553 -0.00079188 0.0013845 -0.0025091
0.00095429 0.0099767 0.27665 0.15819
1760000000 0.27767 -0.078346 0.0040848 0.0048566 -0.0021714 0.00098181 0.00091156 -0.0035242
-0.001337 0.00081195 0.00041776 -0.0004753
0.00408 0.0048503 0.25189 0.19786 0.0014272 -0.0013479 -0.0012051 0.00036875
-0.00093508 0.00078319 -0.00057847 0.00041599
-0.002144 0.0009963 0.0014443 -0.0013415 0.21198 -0.23382 0.0012716 0.00079825
-0.0010494 0.0015583 -0.0012414 -0.00043311
0.00090765 -0.0035177 -0.0012008 0.00036509 0.0012651 0.00078353 0.22997 -0.051387
0.00033942 0.0085792 -0.00053555 -0.0027125
-0.0013146 0.00084261 -0.00092007 0.00079301 -0.0010307 0.0015588 0.00034743 0.0085704
0.23904 0.073451 0.0046608 0.0069395
0.00045061 -0.0004544 -0.00054133 0.00045285 -0.0012339 -0.00045989 -0.00052146 -0.0026923
0.0046573 0.0069795 0.2871 0.11948
1820000000 0.25182 -0.11479 0.0037104 0.0016854 -3.7046e-05 0.00238 -0.0013407 -0.0027881
-0.00093395 0.0010804 -6.454e-05 -8.7594e-05
0.0036998 0.0016875 0.2612 0.16804 -0.00037479 -3.3738e-05 -0.0010619 0.0010697
-3.0905e-05 0.0012094 -0.00050889 0.00054687
-3.8781e-05 0.0023729 -0.00040357 -2.6408e-05 0.16142 -0.24868 0.0013768 0.00014988
-8.4212e-07 0.0021793 -0.0013584 0.00051215
-0.0013535 -0.0027772 -0.001062 0.00108 0.0013937 0.00015009 0.20082 -0.096152
0.0015897 0.0066127 -0.0018077 -0.0015854
-0.00096564 0.0010714 -4.6702e-05 0.0012191 -1.8643e-05 0.0022119 0.0015957 0.0066372
0.25395 0.043366 0.0054606 0.0031992
-8.0096e-05 -8.8793e-05 -0.0005225 0.00053642 -0.0013431 0.00053554 -0.0017943 -0.0015827
0.0054788 0.0031846 0.28733 0.082155
1880000000 0.2159 -0.154 0.0012713 1.4416e-05 -0.00047895 0.0020918 -0.002945 -0.0017793
-0.00010538 0.0016081 0.00021012 -0.00047191
0.0012754 1.2008e-05 0.26513 0.12124 -0.0024227 0.0015803 5.2202e-05 0.0016348
0.00052068 0.0010967 0.00017459 0.00091271
-0.00048012 0.0020963 -0.0024289 0.001597 0.10877 -0.2588 0.0014547 -0.00098243
0.0015509 0.0016245 -0.0008392 0.0014388
-0.0029556 -0.0017711 5.9716e-05 0.0016297 0.0014445 -0.00098657 0.16195 -0.13567
0.0019755 0.0043988 -0.0025001 0.00032843
-0.00010049 0.0016025 0.00053022 0.0011045 0.0015475 0.0015564 0.0020006 0.0043917
0.25435 0.0095353 0.0050675 0.00085377
0.00019015 -0.00047628 0.00018512 0.00091991 -0.00080251 0.0013779 -0.0024714 0.00038323
0.0050671 0.00086441 0.28488 0.047379
1940000000 0.17619 -0.17905 -0.00088423 -0.001063 0.0014808 0.0020098 -0.0034775 0.00081385
0.0015051 0.0010156 -0.00056459 -0.00053919
-0.00088028 -0.0010566 0.26482 0.08973 -0.0012251 0.0039348 0.0010595 0.001038
0.0017256 0.00051215 0.00094684 0.00046149
0.0014972 0.0019573 -0.0012102 0.0039184 0.062341 -0.25176 0.00019671 -0.0017915
0.0023395 0.00029131 0.00053577 0.0017826
-0.0034701 0.0008192 0.0010633 0.0010356 0.00018728 -0.0017766 0.11094 -0.16577
0.00098033 0.0030476 -0.0016629 0.0015933
0.0014987 0.0009964 0.001719 0.00047357 0.0023441 0.00029506 0.00098444 0.0030379
0.2536 -0.029673 0.0035311 -0.0021945
-0.00058971 -0.00053997 0.00095895 0.00043748 0.00052767 0.0017746 -0.001653 0.0015592
0.0035488 -0.0022028 0.27193 0.010819
2000000000 0.12957 -0.19334 -0.0042999 0.0012851 0.0025878 0.0014771 -0.0020792 0.0034006
0.0011064 -8.9169e-06 -0.00052056 0.00048817
-0.0043087 0.0012841 0.25045 0.054265 -0.0010255 0.0057254 0.0014961 0.00016783
0.0013158 -0.0012555 0.00053852 -8.3686e-05
0.0026046 0.0014742 -0.00099505 0.005752 0.018451 -0.23709 -0.0011212 -0.00099013
0.0017881 -0.0011584 0.0018218 0.00099512
-0.002053 0.0033874 0.0014869 0.00018029 -0.001118 -0.00097453 0.058735 -0.17692
-0.00077918 0.0026816 -0.00013058 0.002319
0.001125 -1.7366e-05 0.0013364 -0.0012597 0.0017754 -0.0012477 -0.00076383 0.0027169
0.24531 -0.063582 0.00034742 -0.0030834
