!Keysight Technologies,M9804A,MY58100912,A.14.10.03
!Date: Thursday, April 27, 2023 10:28:33
!Correction: S11(C  6-Port  ) 
!S12(C  6-Port  ) 
!S13(C  6-Port  ) 
!S14(C  6-Port  ) 
!S15(C  6-Port  ) 
!S16(C  6-Port  ) 
!S21(C  6-Port  ) 
!S22(C  6-Port  ) 
!S23(C  6-Port  ) 
!S24(C  6-Port  ) 
!S25(C  6-Port  ) 
!S26(C  6-Port  ) 
!S31(C  6-Port  ) 
!S32(C  6-Port  ) 
!S33(C  6-Port  ) 
!S34(C  6-Port  ) 
!S35(C  6-Port  ) 
!S36(C  6-Port  ) 
!S41(C  6-Port  ) 
!S42(C  6-Port  ) 
!S43(C  6-Port  ) 
!S44(C  6-Port  ) 
!S45(C  6-Port  ) 
!S46(C  6-Port  ) 
!S51(C  6-Port  ) 
!S52(C  6-Port  ) 
!S53(C  6-Port  ) 
!S54(C  6-Port  ) 
!S55(C  6-Port  ) 
!S56(C  6-Port  ) 
!S61(C  6-Port  ) 
!S62(C  6-Port  ) 
!S63(C  6-Port  ) 
!S64(C  6-Port  ) 
!S65(C  6-Port  ) 
!S66(C  6-Port  ) 
!S6P File: Measurement: :
# Hz S  RI   R 50
500000000 -0.33883 -0.017761 -0.010248 -0.0030668 -0.0072748 0.012516 -0.0033352 0.012048
0.011324 0.0039572 -0.0033695 0.008712
-0.011077 -0.0033185 -0.41918 -0.035921 0.0064922 -0.011657 0.0020519 0.012264
0.0072919 0.0024145 0.0024822 0.013404
-0.0079047 0.012933 0.0065471 -0.011488 -0.26216 0.2227 0.0070455 0.0034084
-0.00090444 0.0082855 0.0023149 0.011425
-0.0013764 0.01098 0.0025341 0.012229 0.0071554 0.0035283 -0.32932 0.062251
-0.019404 -0.0062557 0.016286 0.022986
0.012099 0.0045094 0.0071296 0.0019397 -0.0008641 0.0088271 -0.01949 -0.0060447
-0.23583 -0.16419 -0.024998 0.0046164
-0.0014146 0.006882 0.0024209 0.01314 0.0022292 0.011883 0.016675 0.023371
-0.025658 0.0045024 -0.28268 -0.081101
560000000 -0.31255 0.13715 -0.028096 -0.060318 0.0014204 0.010661 0.0057025 0.0090692
0.010174 0.0039009 0.010349 0.007212
-0.027115 -0.060373 -0.37583 0.11941 -0.042524 -0.034586 0.013444 0.0033426
-0.012282 -0.0037533 0.0032437 -0.0019438
0.0007475 0.010981 -0.043106 -0.034566 -0.17999 0.26656 4.7902e-05 -0.0047064
0.018829 0.0037563 0.0071143 -0.0061359
0.0059478 0.0098455 0.01265 0.0033009 0.00038475 -0.0042586 -0.30446 0.14882
0.00027772 -0.02477 0.0036677 -0.018542
0.0090966 0.0051264 -0.012712 -0.0027595 0.018369 0.0028245 7.2567e-05 -0.024814
-0.28655 0.0096622 0.0027953 -0.046393
0.010992 0.0060244 0.003212 0.00013396 0.0080022 -0.0062542 0.0036552 -0.018483
0.0032677 -0.04685 -0.33011 0.05879
620000000 -0.27 0.12303 -0.023154 0.007432 0.0041875 0.0079423 0.0070645 -0.0049985
0.010269 -0.0016102 0.0013496 -0.003064
-0.023076 0.0070824 -0.40109 0.074283 -0.019654 0.000503 -0.0011629 -0.0022722
0.0098244 -0.0062121 0.001202 -0.0029122
0.0045686 0.0079107 -0.019499 0.00063207 -0.14893 0.2766 -0.0011904 -0.004957
-0.00334 -0.0024099 0.0083733 -0.0033249
0.0082748 -0.0054704 -0.001075 -0.0022174 -0.0011009 -0.0048031 -0.26246 0.16108
-0.039696 -0.018539 0.012101 0.02336
0.0097478 -0.0015539 0.010163 -0.0065667 -0.0038182 -0.0026741 -0.039514 -0.018121
-0.2091 -0.026814 -0.03845 0.01509
0.0012012 -0.0030371 0.0013191 -0.0028308 0.0082071 -0.0036618 0.011712 0.022774
-0.038504 0.014752 -0.25516 0.030374
680000000 -0.22712 0.20442 -0.027697 -0.011873 0.005621 0.0045555 0.0011863 -0.0073318
-0.0029346 -0.011394 0.0037074 -0.0062533
-0.027942 -0.011805 -0.38403 0.16821 -0.032074 0.00076617 -0.0014765 -0.0003995
-0.0026722 -0.0089843 -0.0015616 -0.0020702
0.0052978 0.0048698 -0.032212 0.00092384 -0.098132 0.29481 -0.00094473 -0.00031595
-0.0015955 0.00019545 -0.0036389 -0.008676
0.00095664 -0.0068868 -0.0015153 -0.00030637 -0.00066861 -0.00036152 -0.21615 0.20716
-0.025857 -0.0052932 -0.0091637 -0.0080087
-0.0036318 -0.010878 -0.002769 -0.0086909 -0.0016545 0.00017778 -0.025996 -0.0049437
-0.24983 0.067586 -0.0065134 -0.0066946
0.0040991 -0.0060437 -0.0017376 -0.0017378 -0.0033233 -0.0087986 -0.0085548 -0.0080434
-0.0061992 -0.0071756 -0.25341 0.1251
740000000 -0.18369 0.19922 -0.036567 0.026147 0.011963 -0.0060314 -0.00048753 -0.0039242
-0.005446 -0.0023137 -0.0056352 0.0030845
-0.036922 0.025541 -0.33222 0.18787 -0.032734 0.034949 -0.001001 -0.0064248
-0.011142 0.0078521 -0.002089 -0.0046672
0.012495 -0.0059771 -0.032757 0.035115 -0.064556 0.294 -0.0016056 0.0030389
-0.003238 -0.004426 -0.0021883 0.0011103
-0.00027568 -0.0038136 -0.0011695 -0.0060084 -0.0016363 0.0027961 -0.19846 0.2163
-0.041871 -0.0031682 0.021796 0.012011
-0.0056416 -0.002978 -0.011123 0.0073827 -0.0032665 -0.0044448 -0.041703 -0.0034523
-0.15842 0.088218 -0.039299 0.0024028
-0.0056307 0.003347 -0.0023653 -0.0049242 -0.0021094 0.00063437 0.022098 0.012082
-0.038721 0.003805 -0.24126 0.13549
800000000 -0.14953 0.23646 -0.021384 0.017346 0.0044366 -0.010458 -0.0043001 -0.0017097
-0.0037423 0.0028566 0.0037795 0.00052736
-0.021421 0.017291 -0.33253 0.256 -0.0065764 0.033531 -0.0021311 0.0023066
-0.00056503 0.0035649 0.0012981 0.0054615
0.0043286 -0.010289 -0.0065235 0.033465 -0.021593 0.31581 0.00085076 0.0015615
0.00041616 0.0035264 -0.001685 0.0012412
-0.004929 -0.0015659 -0.0023548 0.0022991 0.00095225 0.0015384 -0.16834 0.24269
-0.026685 0.016241 0.012346 -0.0098246
-0.0033674 0.0029482 -0.00053289 0.0035189 0.00035911 0.0034073 -0.026623 0.015874
-0.19376 0.11567 -0.015587 0.018778
0.0030123 0.00087807 0.00093757 0.0054166 -0.0017029 0.001279 0.012325 -0.0098694
-0.015776 0.018771 -0.22891 0.17993
860000000 -0.11547 0.25659 -0.015722 0.030793 -0.0038258 -0.0093727 -0.0021561 0.0011867
0.0043854 0.0048817 -0.0028258 -0.0023978
-0.015805 0.030831 -0.28485 0.29683 0.0093723 0.032917 0.00020446 0.002076
0.0043947 0.0004176 0.0033384 0.00059995
-0.0038663 -0.0094438 0.0094066 0.03294 0.026801 0.32268 -0.00035097 -9.1277e-06
0.002458 -0.0012763 0.0017317 0.004023
-0.0019449 0.0012962 0.00037499 0.0020367 -0.00036375 4.9894e-05 -0.13179 0.25313
-0.015366 0.020726 -0.005836 -0.009153
0.0044374 0.0048983 0.0042552 0.00026634 0.0026661 -0.0012832 -0.01513 0.02057
-0.14263 0.16058 -0.021513 0.016591
-0.0024324 -0.0028164 0.0033985 0.00047135 0.001765 0.0039156 -0.0056484 -0.0088765
-0.020843 0.016146 -0.17976 0.22043
920000000 -0.088253 0.27814 0.0062533 0.036657 -0.0092387 -0.0037154 -0.0014897 0.00187
0.0016174 0.0013586 0.0025045 -0.0017597
0.0063531 0.03658 -0.2546 0.31716 0.028089 0.020076 0.0015787 0.00094916
0.0068471 -0.00057364 0.003682 -0.0029477
-0.0091488 -0.0036209 0.02818 0.019961 0.074218 0.32253 0.001922 -0.00012232
0.0014976 -0.00049682 0.00085067 -0.0011687
-0.0014379 0.0019755 0.0017853 0.00091138 0.001912 -0.00011556 -0.10562 0.26889
-0.0072356 0.030447 0.0023195 -0.0062093
0.0017239 0.0014331 0.0070245 -0.00053801 0.001299 -0.00055088 -0.0072546 0.030671
-0.12811 0.16723 -0.00023104 0.025584
0.002519 -0.0016894 0.0036417 -0.0030606 0.00080753 -0.0011581 0.0023485 -0.0061945
0.00013944 0.025506 -0.17797 0.23591
980000000 -0.041393 0.29568 0.018679 0.028271 -0.0083236 0.0047912 0.0020378 0.0030981
0.0039099 -0.0020097 -0.0029542 -0.0022198
0.018651 0.028331 -0.20246 0.34911 0.032213 0.0030433 0.0020406 -0.00034044
0.0016059 -0.0062255 -0.00053547 -0.0023792
-0.0082716 0.0048145 0.032231 0.0029393 0.12089 0.31428 0.00049329 -0.0012991
0.00014874 -0.0022169 0.0013961 -0.00031053
0.0019763 0.0030721 0.0020023 -0.00040238 0.00045253 -0.0013109 -0.066416 0.27843
0.010893 0.028107 -0.0083206 -0.0061074
0.0038186 -0.0021894 0.0013308 -0.006381 7.0334e-05 -0.0021967 0.010851 0.028202
-0.096773 0.1906 0.0059615 0.018175
-0.0030162 -0.0020831 -0.0008831 -0.0025444 0.0013559 -0.00027351 -0.0081845 -0.006198
0.0057939 0.018041 -0.13489 0.27336
1040000000 0.0018814 0.30297 0.03292 0.015665 -0.001011 0.006576 0.0024191 0.00044505
2.0281e-05 -0.0031801 -0.00053788 -0.0015374
0.032923 0.015574 -0.16646 0.36239 0.027482 -0.015596 0.0014243 -0.0017743
-0.0025072 -0.0024242 -0.0015106 -0.002677
-0.00097151 0.0066193 0.027491 -0.015769 0.16757 0.29947 -0.00061616 -0.0014951
-0.00154 -0.00093327 -0.00040344 -0.001164
0.0025087 0.00038268 0.0015658 -0.0017172 -0.0005488 -0.0014631 -0.037617 0.28709
0.02083 0.015282 -0.0026108 0.0012112
-0.00015046 -0.0031738 -0.0022553 -0.0024038 -0.0015337 -0.00082506 0.020948 0.015212
-0.06443 0.19709 0.013797 0.015747
-0.0007094 -0.0015048 -0.0014996 -0.0026562 -0.00036589 -0.00087328 -0.0025346 0.0012204
0.013945 0.015927 -0.10906 0.29233
1100000000 0.047402 0.30882 0.034313 -0.0058326 0.0027913 0.0035745 0.00215 -0.0011108
-0.0022277 -0.0027279 -0.0035285 0.00065129
0.0343 -0.0057881 -0.12284 0.37827 0.013295 -0.027456 -0.00010632 -0.0017746
-0.0034442 -0.00049521 -0.0033512 -0.00011221
0.002757 0.003502 0.013236 -0.027484 0.2142 0.27702 -0.0017941 0.00019658
-0.0016962 0.00068832 -0.00084873 -0.00013117
0.0022089 -0.0010472 -0.00017201 -0.0017717 -0.0017832 0.00013938 0.0038704 0.28964
0.024215 0.0021677 -0.0026063 0.00016852
-0.0021737 -0.00284 -0.0033545 -0.00043085 -0.0017843 0.00057766 0.024273 0.0021559
-0.045307 0.20795 0.01781 0.0060882
-0.0035077 0.0005364 -0.003431 -0.00012311 -0.00081298 -0.00018826 -0.0026555 0.00023077
0.017979 0.0061046 -0.062251 0.3163
1160000000 0.098238 0.30245 0.021934 -0.021414 0.0023327 -0.00037672 2.8224e-05 -0.0020436
-0.0038503 -0.00038323 -0.00061813 0.0037787
0.021943 -0.021403 -0.078507 0.38181 -0.0049868 -0.027758 -0.0016537 -0.0013968
-0.0025057 0.0023933 -0.0011788 0.0016968
0.0022947 -0.00038088 -0.0051248 -0.027749 0.25647 0.24449 -0.00072993 0.0017461
-0.00057154 0.0018431 -0.00082466 3.2699e-05
5.3461e-06 -0.0019988 -0.0015362 -0.0014573 -0.00078293 0.0017185 0.043304 0.28455
0.019661 -0.012456 -0.0029956 0.0046393
-0.003843 -0.00036982 -0.0024811 0.0025265 -0.00066323 0.0018577 0.019598 -0.012495
-0.011664 0.21545 0.016757 -0.001754
-0.00058303 0.0038465 -0.0011547 0.0016552 -0.00082843 6.4863e-05 -0.0030375 0.0045755
0.016866 -0.0017714 -0.015399 0.31646
1220000000 0.14297 0.28924 0.0082207 -0.029376 -0.0015166 -0.00034929 0.00011756 -0.00091244
-0.0024202 0.0023555 0.0013983 0.0017922
0.0082413 -0.029292 -0.034264 0.39224 -0.0171 -0.019464 -0.002356 0.00046713
0.00013614 0.0028142 -0.00046311 0.0018643
-0.0015057 -0.00036505 -0.017172 -0.019439 0.29501 0.20407 0.0007493 0.0017829
0.00057435 0.001193 0.00032 0.00060437
5.8493e-05 -0.00095276 -0.0024066 0.00050056 0.00077081 0.0018132 0.083487 0.27371
0.0087516 -0.018207 0.0016148 0.0014915
-0.0024499 0.0023428 0.00021322 0.0029537 0.0006642 0.001239 0.0085664 -0.018286
0.012228 0.22196 0.011631 -0.013259
0.0012516 0.0018151 -0.00045563 0.0018233 0.00031028 0.00055482 0.0017512 0.0014652
0.011543 -0.013253 0.018242 0.32772
1280000000 0.19164 0.26556 -0.009132 -0.026828 -0.0014502 0.0027183 -0.00096769 -0.0020323
-0.00059824 0.0028237 0.002283 0.00083938
-0.0090942 -0.026829 0.011186 0.3822 -0.02307 -0.0073055 -0.00096623 0.0014162
0.0017245 0.0015007 0.0007624 0.001764
-0.0014683 0.0027779 -0.023106 -0.0072648 0.32425 0.15904 0.001682 -3.359e-05
0.0010619 0.00017825 0.00035923 0.00030749
-0.0010529 -0.0019667 -0.00092845 0.0014072 0.0016511 -2.5497e-05 0.11942 0.25445
-0.00098287 -0.019369 -0.00035947 0.00042095
-0.00053545 0.0028279 0.0017511 0.0015834 0.0010737 0.000126 -0.0010291 -0.019417
0.048312 0.22305 0.0013322 -0.014778
0.002306 0.00090939 0.00069399 0.0016542 0.00029073 0.00038174 -0.00039097 0.00036724
0.001291 -0.014817 0.064061 0.32512
1340000000 0.228 0.23039 -0.01794 -0.017008 0.0013691 0.0041793 -0.0017182 -0.00086017
0.0014075 0.0025195 0.0014453 -0.0014826
-0.017917 -0.016955 0.050593 0.37297 -0.020489 0.0049028 -0.00010787 0.0019903
0.0019217 0.00062459 0.0012893 0.00062499
0.0013412 0.0041742 -0.020476 0.0049554 0.34525 0.11079 0.0011845 -0.00099172
0.00061276 -0.00044605 0.00011504 0.00017836
-0.0017327 -0.00083832 -0.00010501 0.001987 0.0011531 -0.0010127 0.15067 0.23231
-0.010053 -0.015904 0.0005926 0.001013
0.0013257 0.0024683 0.0019117 0.00064395 0.00060886 -0.00055631 -0.010063 -0.015904
0.078041 0.21656 -0.0052315 -0.012707
0.0014563 -0.0014329 0.0013229 0.00066864 4.4281e-05 0.00010575 0.00056696 0.0010762
-0.0051752 -0.012653 0.10253 0.31696
1400000000 0.25981 0.19075 -0.022512 -0.0058051 0.0051862 0.0025939 -0.0021513 0.00062997
0.0022816 0.00076025 9.7985e-05 -0.0013653
-0.022495 -0.0058234 0.087224 0.35912 -0.013708 0.01225 0.0012775 0.001302
0.001096 -0.00089579 0.0010324 7.7607e-05
0.005228 0.0025629 -0.013665 0.012338 0.35766 0.056602 8.372e-05 -0.0018799
5.8569e-05 -0.00040549 0.00027951 0.00014111
-0.0021385 0.00069128 0.0013498 0.0013038 0.00012186 -0.0018721 0.17877 0.20153
-0.015424 -0.0089204 -0.00036604 0.00034213
0.002353 0.00078097 0.0011511 -0.00088745 6.9739e-05 -0.00039454 -0.015461 -0.0088833
0.10993 0.20995 -0.010697 -0.0074322
-2.907e-05 -0.001383 0.0010416 9.1207e-05 0.00042736 0.00010681 -0.00036764 0.00032099
-0.010687 -0.0074212 0.1451 0.3022
1460000000 0.28107 0.1461 -0.019127 0.0055222 0.0053544 -0.0022012 -0.0015259 0.0017041
0.0019724 -0.00061026 -0.00044004 -0.00086738
-0.019127 0.005522 0.12101 0.33679 -0.0054614 0.014618 0.0017327 0.00013944
0.00075242 -0.0012769 0.0010339 -0.00058652
0.0053315 -0.0022169 -0.0054514 0.014673 0.36221 0.0020452 -0.0014104 -0.0013136
0.00017793 -0.00019258 0.00063222 -0.00015783
-0.0015104 0.0016791 0.0017465 0.00017023 -0.001431 -0.0012863 0.20272 0.17112
-0.01619 -0.0020383 -0.00023471 0.0020523
0.0018908 -0.00061913 0.00077075 -0.0012431 0.00021089 -0.00017635 -0.016209 -0.0020301
0.13824 0.19353 -0.011666 -0.0016802
-0.00039295 -0.00084377 0.0010363 -0.00055718 0.00049828 -0.00018391 -0.00029911 0.0020694
-0.011665 -0.0016917 0.17714 0.27933
1520000000 0.2923 0.10345 -0.013246 0.01038 0.002804 -0.00418 0.00017128 0.0026009
0.0018987 -0.0016402 -0.0010398 -6.6929e-05
-0.013272 0.010369 0.15419 0.32135 0.0016143 0.01244 0.0016824 -0.000859
-3.0544e-05 -0.00099449 0.0002806 -0.0008963
0.002807 -0.0042057 0.0016598 0.012433 0.35496 -0.054396 -0.0013307 -0.00025723
0.00053203 -0.00086684 -2.6059e-06 -0.00011275
0.00013202 0.0026338 0.0016736 -0.00088531 -0.0013398 -0.00027132 0.22372 0.1327
-0.014976 0.0036353 0.0018952 0.0017995
0.0018723 -0.0015531 -4.7726e-05 -0.00098365 0.00059348 -0.00086613 -0.015015 0.0036847
0.16572 0.17797 -0.011256 0.0025057
-0.0010839 -0.00012242 0.00026469 -0.00091141 -4.6734e-05 -7.1741e-05 0.0018961 0.0017682
-0.011283 0.0024675 0.20905 0.25587
1580000000 0.29991 0.056832 -0.0069334 0.012796 -0.0012079 -0.0045074 0.0015237 0.0018648
-0.00023084 -0.0020558 -0.00026069 0.00038692
-0.00694 0.012761 0.18095 0.29592 0.0049233 0.0078154 0.00042385 -0.0016891
-0.00059396 -0.00094535 -0.00020088 -0.00078765
-0.0011486 -0.0044978 0.004965 0.0078283 0.33398 -0.11202 -0.0016205 0.00095313
-0.00032471 -0.0010826 0.00016845 -0.00055443
0.0016523 0.0018266 0.00041017 -0.0017049 -0.001595 0.00093836 0.23522 0.093218
-0.01144 0.0083305 0.002426 0.00025163
-0.00014226 -0.0020734 -0.00057006 -0.00097241 -0.00033311 -0.0010719 -0.011394 0.0083457
0.18873 0.15798 -0.0086572 0.0075046
-0.00031949 0.00039761 -0.00018732 -0.00079696 0.00027044 -0.00055134 0.002438 0.0002592
-0.0086575 0.0075105 0.23837 0.2272
1640000000 0.30061 0.015146 -0.00084728 0.011362 -0.0026866 -0.0023629 0.0027399 0.00087732
-0.00077667 -0.0014875 -0.00016927 0.00052191
-0.00085072 0.011357 0.21001 0.27029 0.0055648 0.0034337 -0.00084643 -0.0016515
-0.0010214 -0.00032276 -0.00048876 -0.00055311
-0.0027015 -0.0023185 0.0055854 0.0034185 0.30448 -0.16056 -0.00057526 0.0015344
-0.001145 -0.00083539 -0.00016584 -0.00021795
0.0027025 0.00088938 -0.00084731 -0.001675 -0.00059071 0.0015159 0.24529 0.045453
-0.0070197 0.0097283 0.0023606 -0.001253
-0.00074584 -0.0014321 -0.00099884 -0.00030874 -0.0011313 -0.00078548 -0.007003 0.0097685
0.21002 0.1322 -0.004095 0.0092261
-0.00027083 0.00054906 -0.00053589 -0.00057304 -0.00011081 -0.00023217 0.002398 -0.0012586
-0.0040991 0.0091845 0.26203 0.19428
1700000000 0.29177 -0.030361 0.0021404 0.0085773 -0.0032544 0.00022984 0.0029223 -0.0014033
-0.0019273 -0.00067225 0.00066115 0.00035547
0.0021467 0.0085795 0.2276 0.23833 0.0037622 0.00073268 -0.0014936 -0.00045981
-0.00071054 0.00016344 -0.0008873 -0.00038211
-0.0032846 0.00025221 0.0037653 0.00068788 0.26121 -0.20014 0.00065144 0.0014919
-0.0018029 -0.00011452 -0.00058066 -0.00078775
0.0029339 -0.0014133 -0.0014446 -0.00046228 0.00075186 0.0014298 0.24073 -0.0029984
-0.0039172 0.010206 0.0011852 -0.002266
-0.0019408 -0.00066879 -0.00071185 0.00013364 -0.0017863 -6.9707e-05 -0.0038806 0.010211
0.22603 0.11026 0.00024262 0.0093707
0.00060121 0.0003606 -0.00090586 -0.00044583 -0.00060507 -0.00080255 0.0011721 -0.0023132
0.00029942 0.0093436 0.2763 0.15852
1760000000 0.27819 -0.078586 0.0040184 0.0054717 -0.002177 0.00081082 0.00097199 -0.0034399
-0.0013614 0.00070472 0.00044266 -0.0004929
0.0039961 0.0054697 0.25276 0.19766 0.0016623 -0.0012069 -0.0011831 0.00031182
-0.00092428 0.00084899 -0.00057102 0.00047099
-0.0021536 0.00088989 0.001687 -0.0012228 0.21216 -0.23393 0.0013802 0.00082331
-0.0011715 0.0015835 -0.001308 -0.00031251
0.00091025 -0.0034016 -0.0011585 0.00029196 0.0013128 0.00079567 0.23061 -0.052292
-0.00044657 0.0093601 -0.00055016 -0.0023683
-0.0014058 0.00070539 -0.00089548 0.00085658 -0.0011327 0.0015788 -0.00040133 0.0094221
0.23867 0.074028 0.0037834 0.0068463
0.00053146 -0.00054522 -0.0005731 0.00049707 -0.0012327 -0.00036559 -0.00058582 -0.002321
0.0037331 0.0068004 0.28668 0.11995
1820000000 0.25218 -0.11513 0.0039806 0.0021744 -1.0857e-05 0.0023406 -0.0012728 -0.0028609
-0.0010409 0.0010239 -7.4272e-05 -8.4861e-05
0.0040007 0.0021615 0.26185 0.16745 -0.00025956 -8.267e-05 -0.0011402 0.0010158
5.0733e-05 0.0012183 -0.00049312 0.00057672
-1.181e-05 0.0023457 -0.00027587 -5.1577e-05 0.16112 -0.24907 0.001391 9.8122e-05
2.4412e-05 0.0021925 -0.0012807 0.00060308
-0.0012278 -0.0028525 -0.0011201 0.0010327 0.0013274 0.00015358 0.20098 -0.097193
0.0014284 0.0075655 -0.0015718 -0.0013263
-0.0010245 0.0010341 3.0424e-05 0.0012353 -2.3811e-05 0.0022381 0.0014502 0.0076258
0.25389 0.043937 0.0047814 0.0034479
-8.5623e-05 -0.00011651 -0.0004756 0.00059289 -0.001335 0.00069502 -0.0015826 -0.0012837
0.0047969 0.0035362 0.28678 0.082673
1880000000 0.21576 -0.15466 0.0016603 0.00022416 -0.00054659 0.0020673 -0.0029457 -0.0018515
-0.00019031 0.0017536 0.00021999 -0.0004185
0.0016692 0.00024531 0.26549 0.12049 -0.0024173 0.0015815 -3.7315e-05 0.0016089
0.00057617 0.0010305 0.00021409 0.00091723
-0.00041008 0.0019741 -0.0023595 0.0015797 0.10797 -0.25883 0.0014187 -0.0010229
0.0015083 0.0015731 -0.00072965 0.0012969
-0.0028801 -0.0019235 -6.586e-05 0.0015899 0.0013689 -0.0011679 0.16148 -0.13665
0.0023171 0.0051088 -0.0021549 0.00041464
-0.00014757 0.0016681 0.00054918 0.0010225 0.001683 0.001525 0.0023102 0.0051182
0.25454 0.010232 0.0045155 0.0014173
0.0002091 -0.000377 0.00024476 0.00087337 -0.00067595 0.0012987 -0.0021457 0.00042257
0.0045251 0.0014543 0.28448 0.048296
1940000000 0.17574 -0.17943 -0.00043725 -0.0010813 0.001462 0.0018905 -0.003524 0.00085554
0.0014702 0.0011565 -0.00058889 -0.00054462
-0.00048322 -0.0011185 0.26484 0.088936 -0.0011747 0.003999 0.00093785 0.0011107
0.0016124 0.00038251 0.00086805 0.00032732
0.0014228 0.0018521 -0.0011526 0.0040421 0.061766 -0.25128 5.2109e-05 -0.00173
0.0022599 0.00025211 0.00047032 0.0014558
-0.0033858 0.00083009 0.00097856 0.001068 -1.7251e-05 -0.0016778 0.10999 -0.16647
0.0014716 0.00341 -0.0014356 0.0013724
0.0015536 0.0011839 0.0016437 0.00037561 0.0022416 0.00024541 0.0014852 0.0034279
0.25401 -0.029258 0.0034408 -0.0015201
-0.00059205 -0.00065303 0.00084964 0.00035196 0.00039371 0.0015752 -0.001381 0.0013985
0.0034311 -0.001512 0.27175 0.011721
2000000000 0.12899 -0.19337 -0.0040505 0.0011248 0.0025639 0.0014168 -0.0020509 0.0033549
0.0012729 1.0955e-05 -0.0005055 0.00042929
-0.0040168 0.0010948 0.25015 0.053498 -0.00080392 0.0056868 0.0015192 0.0002234
0.0012038 -0.0011815 0.00049324 3.7961e-05
0.0026512 0.0014119 -0.00077979 0.0057732 0.018457 -0.2365 -0.001046 -0.0008763
0.0016767 -0.0010662 0.0016891 0.0010662
-0.0020426 0.0034769 0.0015579 0.0002762 -0.0010648 -0.00080468 0.057598 -0.17688
-0.00033999 0.0028316 -5.6727e-05 0.002152
0.0012444 0.00015444 0.0011886 -0.0010981 0.0017087 -0.0010372 -0.0003393 0.0028479
0.24571 -0.06349 0.00042477 -0.0025899
