!Keysight Technologies,M9804A,MY58100912,A.14.10.03
!Date: Thursday, April 27, 2023 10:28:33
!Correction: S11(C  6-Port  ) 
!S12(C  6-Port  ) 
!S13(C  6-Port  ) 
!S14(C  6-Port  ) 
!S15(C  6-Port  ) 
!S16(C  6-Port  ) 
!S21(C  6-Port  ) 
!S22(C  6-Port  ) 
!S23(C  6-Port  ) 
!S24(C  6-Port  ) 
!S25(C  6-Port  ) 
!S26(C  6-Port  ) 
!S31(C  6-Port  ) 
!S32(C  6-Port  ) 
!S33(C  6-Port  ) 
!S34(C  6-Port  ) 
!S35(C  6-Port  ) 
!S36(C  6-Port  ) 
!S41(C  6-Port  ) 
!S42(C  6-Port  ) 
!S43(C  6-Port  ) 
!S44(C  6-Port  ) 
!S45(C  6-Port  ) 
!S46(C  6-Port  ) 
!S51(C  6-Port  ) 
!S52(C  6-Port  ) 
!S53(C  6-Port  ) 
!S54(C  6-Port  ) 
!S55(C  6-Port  ) 
!S56(C  6-Port  ) 
!S61(C  6-Port  ) 
!S62(C  6-Port  ) 
!S63(C  6-Port  ) 
!S64(C  6-Port  ) 
!S65(C  6-Port  ) 
!S66(C  6-Port  ) 
!S6P File: Measurement: :
# Hz S  RI   R 50
500000000 -0.33922 -0.017839 -0.010864 -0.0031423 -0.0072877 0.012649 -0.0032353 0.012281
0.011432 0.0036325 -0.0028718 0.0087854
-0.010844 -0.003138 -0.41941 -0.03584 0.0062381 -0.011741 0.0019716 0.012605
0.0067324 0.0022208 0.0022636 0.013812
-0.0072868 0.012638 0.0062288 -0.011749 -0.26259 0.22279 0.0073563 0.0036005
-0.00087004 0.0081764 0.0024827 0.012067
-0.0032325 0.012292 0.0019839 0.012598 0.0073516 0.0035978 -0.32985 0.062956
-0.019374 -0.0063998 0.015824 0.023699
0.011433 0.0036271 0.0067528 0.002221 -0.00086109 0.0081842 -0.019383 -0.0063841
-0.23624 -0.16333 -0.025342 0.0042198
-0.0028695 0.0087807 0.0022763 0.013811 0.0024902 0.012065 0.015828 0.023694
-0.02533 0.0041946 -0.28376 -0.080284
560000000 -0.31177 0.13761 -0.026898 -0.060655 0.00094626 0.01156 0.0059396 0.0095687
0.0094068 0.0040215 0.010668 0.0067881
-0.026833 -0.060589 -0.37519 0.11872 -0.042354 -0.034477 0.013559 0.0030107
-0.012835 -0.0039755 0.0033347 -0.0013537
0.00095196 0.011534 -0.042415 -0.034417 -0.18023 0.26714 -0.00049435 -0.0041023
0.019207 0.0032432 0.0066329 -0.006285
0.005949 0.0095733 0.013569 0.0029874 -0.00048785 -0.0040954 -0.30431 0.14878
0.0006574 -0.024328 0.0031579 -0.018759
0.0094188 0.0039912 -0.012811 -0.003926 0.019186 0.0032382 0.00064175 -0.02434
-0.28618 0.0090742 0.0030308 -0.046217
0.010682 0.0067906 0.0033118 -0.001366 0.006645 -0.0062991 0.0031552 -0.018768
0.0030405 -0.046224 -0.32936 0.058558
620000000 -0.27029 0.12331 -0.023425 0.0071207 0.0039978 0.0081307 0.0074502 -0.0053501
0.010604 -0.0015858 0.00048917 -0.0029921
-0.023402 0.0071109 -0.40124 0.07425 -0.019478 0.00044399 -0.0011398 -0.0022688
0.010198 -0.0065013 0.0012162 -0.0027249
0.0039951 0.0081145 -0.019484 0.00048146 -0.14909 0.27691 -0.0011187 -0.0047516
-0.003369 -0.0027811 0.0079531 -0.003613
0.007444 -0.00535 -0.0011513 -0.0022792 -0.0011107 -0.0047445 -0.26224 0.16105
-0.039294 -0.017707 0.011997 0.022866
0.010584 -0.0015985 0.010197 -0.0065081 -0.0033689 -0.0027952 -0.039316 -0.017661
-0.2103 -0.02821 -0.038101 0.015258
0.00047457 -0.0029891 0.0012214 -0.0027352 0.0079508 -0.0036358 0.011992 0.022859
-0.0381 0.015252 -0.25553 0.030209
680000000 -0.2273 0.20471 -0.027891 -0.011871 0.0054667 0.0045684 0.00097624 -0.007267
-0.0031615 -0.011027 0.0039289 -0.0066367
-0.02787 -0.011876 -0.38411 0.16805 -0.032176 0.00059372 -0.0014297 -0.00047226
-0.0025189 -0.0087033 -0.0015803 -0.0020419
0.0054657 0.0045583 -0.032185 0.00064395 -0.098121 0.29475 -0.00082956 -0.00030221
-0.0017417 0.00021032 -0.0034794 -0.0086789
0.00098698 -0.0072674 -0.0014291 -0.00047127 -0.00082908 -0.00029924 -0.21671 0.20741
-0.025558 -0.0051087 -0.0092941 -0.0082185
-0.0031971 -0.011022 -0.0025249 -0.0087022 -0.001745 0.00019835 -0.025573 -0.0050887
-0.24938 0.068019 -0.0068931 -0.0068086
0.0039219 -0.0066493 -0.0015743 -0.0020381 -0.0034869 -0.0086854 -0.0093154 -0.0082254
-0.0068836 -0.0068092 -0.25337 0.12532
740000000 -0.18365 0.19962 -0.036606 0.026364 0.011883 -0.0058181 -0.00076149 -0.0039588
-0.0051052 -0.0025826 -0.0058426 0.0033481
-0.03661 0.026327 -0.33256 0.18761 -0.032687 0.034947 -0.0010741 -0.0060958
-0.011132 0.0078847 -0.0022704 -0.0046274
0.011872 -0.0058514 -0.032642 0.035014 -0.06449 0.29402 -0.0016329 0.0030395
-0.0031511 -0.0045123 -0.0020633 0.0012056
-0.00075761 -0.0039659 -0.0010958 -0.0060866 -0.0016285 0.0030352 -0.19875 0.21637
-0.041618 -0.0033589 0.021774 0.012231
-0.0051055 -0.0025826 -0.011126 0.0079207 -0.0031555 -0.0045199 -0.041655 -0.0033152
-0.15779 0.087775 -0.038613 0.003587
-0.005852 0.0033824 -0.0022765 -0.0045821 -0.0020691 0.0012041 0.021795 0.012215
-0.038623 0.0035409 -0.24106 0.13516
800000000 -0.14984 0.23673 -0.021171 0.017631 0.0044675 -0.010416 -0.0044265 -0.0016313
-0.003714 0.002827 0.0035463 0.00058912
-0.021161 0.017609 -0.33241 0.2561 -0.0065268 0.033424 -0.0021228 0.0022841
-0.00053731 0.0034012 0.0012283 0.0053446
0.0044548 -0.010426 -0.0064793 0.033443 -0.021582 0.31581 0.00086837 0.0016113
0.0003742 0.0034929 -0.0018255 0.0011753
-0.0044154 -0.0016203 -0.0021265 0.0022864 0.00086989 0.0016126 -0.16838 0.24252
-0.026625 0.016182 0.012337 -0.01001
-0.0037183 0.0028338 -0.0005214 0.0034001 0.00038355 0.0035 -0.026626 0.016233
-0.19401 0.11528 -0.015425 0.018788
0.0035608 0.00058452 0.0012406 0.0053505 -0.0018149 0.0011748 0.012336 -0.010017
-0.015447 0.01877 -0.22851 0.18067
860000000 -0.11517 0.25669 -0.015775 0.030955 -0.003943 -0.0093667 -0.002172 0.0013253
0.0044615 0.0046977 -0.0026319 -0.0024546
-0.015782 0.030916 -0.28507 0.29662 0.0092685 0.032879 0.00021189 0.0022298
0.0047723 0.00032595 0.0031428 0.00050381
-0.0039567 -0.009349 0.0093328 0.032865 0.026758 0.32265 -0.00039124 2.0316e-05
0.0025366 -0.0013405 0.0017067 0.004005
-0.0021721 0.001328 0.00020915 0.0022298 -0.00039241 1.9064e-05 -0.13175 0.2534
-0.015369 0.020862 -0.0056496 -0.0090531
0.004482 0.004673 0.004767 0.00030753 0.0025452 -0.0013477 -0.015348 0.020908
-0.14216 0.16071 -0.021303 0.016244
-0.0026312 -0.0024549 0.0031438 0.00048564 0.0017069 0.0040001 -0.0056674 -0.0090523
-0.021313 0.016233 -0.17975 0.22081
920000000 -0.08833 0.27835 0.0063435 0.036608 -0.0091783 -0.0037071 -0.0014078 0.0018247
0.0014784 0.0014603 0.0026616 -0.0017426
0.0063214 0.036563 -0.25449 0.31719 0.02812 0.020062 0.0016969 0.00092884
0.0068783 -0.00075055 0.0035537 -0.0029882
-0.0091703 -0.0036797 0.028172 0.019996 0.074274 0.32256 0.0019325 -0.00012982
0.0014691 -0.00055379 0.00085918 -0.0011694
-0.0014119 0.001835 0.0016923 0.00091257 0.0019388 -0.0001415 -0.10551 0.26907
-0.0072555 0.030652 0.0022124 -0.0060272
0.0014845 0.0014619 0.0068742 -0.00077108 0.0014665 -0.00055495 -0.0072159 0.030695
-0.12854 0.16697 -0.000292 0.02556
0.0026567 -0.0017559 0.0035438 -0.0029964 0.00085567 -0.0011709 0.002196 -0.0060331
-0.00028846 0.025552 -0.17818 0.23589
980000000 -0.041271 0.29589 0.018682 0.028281 -0.0083007 0.0047735 0.0020569 0.0031308
0.0039111 -0.0018698 -0.0030578 -0.0021744
0.018654 0.028253 -0.20246 0.34932 0.032251 0.0030599 0.0020569 -0.00028632
0.0014828 -0.0061868 -0.00067119 -0.0024146
-0.0082889 0.0047897 0.032284 0.002986 0.12096 0.31429 0.00047056 -0.001303
0.00010225 -0.0022033 0.0012887 -0.00033009
0.0020563 0.003133 0.0020759 -0.00030489 0.00047112 -0.0012945 -0.06631 0.27847
0.010876 0.028075 -0.0083839 -0.006116
0.0039248 -0.0018791 0.0014522 -0.0062065 0.00010187 -0.0022109 0.010933 0.028067
-0.09677 0.19038 0.0059139 0.018177
-0.0030558 -0.0021573 -0.00068706 -0.002433 0.0012877 -0.00033585 -0.0083923 -0.0061079
0.0059003 0.018166 -0.13422 0.27388
1040000000 0.0020239 0.30298 0.032861 0.015613 -0.0010055 0.0065767 0.0024561 0.00047129
-6.0896e-05 -0.0032035 -0.00068026 -0.0014769
0.032813 0.015602 -0.16648 0.36227 0.027482 -0.015628 0.0014158 -0.0018115
-0.0024409 -0.0023966 -0.001529 -0.0027204
-0.00099043 0.0065846 0.027454 -0.015722 0.16752 0.29949 -0.00061633 -0.0014897
-0.001539 -0.00085764 -0.00040315 -0.0010913
0.0024473 0.00048171 0.0014188 -0.001832 -0.00062137 -0.0014859 -0.037485 0.28709
0.020817 0.015312 -0.0026168 0.0012477
-5.846e-05 -0.0032078 -0.0024764 -0.0023937 -0.0015404 -0.00086001 0.020854 0.015277
-0.064639 0.19688 0.013672 0.015566
-0.00068454 -0.0014722 -0.0015566 -0.0027149 -0.00040481 -0.0010971 -0.0026089 0.0012538
0.013661 0.015572 -0.10865 0.29262
1100000000 0.047511 0.30881 0.034246 -0.0058748 0.0027286 0.0035807 0.0021895 -0.0010883
-0.0021924 -0.0026913 -0.0035417 0.00059608
0.034215 -0.0058494 -0.12282 0.37825 0.013285 -0.02744 -0.00014947 -0.0017701
-0.0034148 -0.00046296 -0.0033629 -8.5706e-05
0.0027315 0.0035799 0.013217 -0.027503 0.21426 0.27707 -0.0018059 0.0002116
-0.0017619 0.00065524 -0.00084961 -0.00021669
0.0021871 -0.001093 -0.00016239 -0.001777 -0.0018063 0.00021357 0.0039551 0.28961
0.024218 0.0021299 -0.0025866 0.00022948
-0.0021937 -0.0026821 -0.0034307 -0.00044516 -0.001765 0.00066011 0.024241 0.0020946
-0.045539 0.20811 0.017846 0.0061638
-0.0035386 0.0006091 -0.0033655 -7.6304e-05 -0.00084665 -0.00022368 -0.0025888 0.00024096
0.017833 0.0061739 -0.062062 0.31627
1160000000 0.0983 0.30238 0.021821 -0.021431 0.0022993 -0.00034388 -7.9799e-05 -0.0021005
-0.0038701 -0.00041983 -0.00051344 0.0037267
0.021817 -0.021402 -0.078514 0.38173 -0.0050342 -0.027735 -0.0016322 -0.0014415
-0.0024363 0.0024665 -0.0011016 0.001735
0.00229 -0.00034563 -0.0051209 -0.027739 0.25648 0.24448 -0.00073427 0.0017261
-0.00049555 0.0018439 -0.00089179 0.00013905
-9.1052e-05 -0.0020929 -0.0016415 -0.0014512 -0.00074728 0.0017312 0.043288 0.28452
0.01961 -0.012402 -0.0029948 0.0045647
-0.0038713 -0.00039336 -0.0024522 0.0024656 -0.00049952 0.0018351 0.019603 -0.012435
-0.011763 0.21564 0.016728 -0.0018049
-0.00049946 0.0037385 -0.0011083 0.0017283 -0.00090131 0.00014264 -0.0029879 0.0045726
0.016719 -0.0017988 -0.014977 0.31659
1220000000 0.14301 0.28912 0.00817 -0.029316 -0.0015409 -0.00034494 0.00013906 -0.00092296
-0.0023661 0.002322 0.0014353 0.0018212
0.008187 -0.029289 -0.034266 0.39224 -0.017096 -0.019473 -0.0023882 0.00049996
0.00018714 0.0028581 -0.00044005 0.0018651
-0.0015419 -0.00033674 -0.017167 -0.019431 0.29502 0.20407 0.00075058 0.0017901
0.0005765 0.0012119 0.00030114 0.00056408
0.00013222 -0.00091821 -0.0023858 0.00050434 0.00074991 0.0017916 0.083569 0.2737
0.0087201 -0.018216 0.0016609 0.0015081
-0.0023606 0.0023404 0.00019608 0.0028605 0.00058118 0.0012155 0.0086994 -0.018235
0.012388 0.22215 0.011486 -0.01317
0.0014459 0.0018204 -0.00043973 0.0018665 0.00030087 0.00056381 0.0016628 0.0015032
0.011469 -0.013161 0.018739 0.32776
1280000000 0.1915 0.2654 -0.0091935 -0.026778 -0.0014626 0.0027404 -0.0010046 -0.0020031
-0.00058651 0.0028444 0.0022733 0.00084126
-0.0091625 -0.026755 0.011291 0.38224 -0.023074 -0.0072834 -0.00097336 0.0013921
0.0016913 0.001588 0.00072713 0.0017209
-0.0014541 0.0027453 -0.023117 -0.0072129 0.32429 0.15895 0.0016471 -3.1233e-05
0.0011295 0.0001875 0.00027486 0.00028342
-0.0010047 -0.0019978 -0.00096208 0.0013913 0.0016374 -3.2194e-05 0.11947 0.25446
-0.00093841 -0.019391 -0.00030968 0.00040302
-0.00056589 0.0028425 0.0017059 0.0015834 0.0011282 0.00018348 -0.00097371 -0.019392
0.048553 0.22323 0.0012307 -0.014702
0.0022858 0.00083018 0.00073129 0.0017205 0.00027433 0.00028837 -0.00030703 0.00040475
0.0012311 -0.01471 0.064364 0.32515
1340000000 0.22791 0.23031 -0.017917 -0.016915 0.0013855 0.0041886 -0.0017509 -0.00084777
0.0014053 0.002481 0.0013983 -0.0014703
-0.017892 -0.01692 0.050641 0.37296 -0.020468 0.0048675 -0.00012646 0.0019789
0.001878 0.00061587 0.0013024 0.00063789
0.0013923 0.0041809 -0.020458 0.0049433 0.34518 0.1107 0.0011553 -0.0010119
0.00058234 -0.00051131 9.4236e-05 0.00018142
-0.0017552 -0.0008501 -0.00011665 0.0019876 0.0011457 -0.0010179 0.15069 0.23234
-0.010034 -0.015868 0.0006179 0.00099184
0.0014112 0.0024698 0.001874 0.00059904 0.0005883 -0.00050959 -0.010071 -0.015858
0.078188 0.21675 -0.0052108 -0.012531
0.0013969 -0.0014672 0.001313 0.00063108 9.5063e-05 0.00018258 0.00062065 0.00098875
-0.0051999 -0.012534 0.10297 0.31687
1400000000 0.25971 0.19077 -0.022447 -0.0057657 0.0052112 0.0026286 -0.0021277 0.00066503
0.0022876 0.00070589 7.9812e-05 -0.001375
-0.022422 -0.0057798 0.087256 0.35914 -0.013713 0.012265 0.0013059 0.0013117
0.0011103 -0.00086122 0.0010441 9.4519e-05
0.00522 0.0026062 -0.01368 0.012324 0.35765 0.056515 0.00011542 -0.0018076
5.8757e-05 -0.00038978 0.00030644 0.00013151
-0.002126 0.00066706 0.0013118 0.0013083 0.00012343 -0.0018086 0.17882 0.20147
-0.015412 -0.0088825 -0.00034578 0.00031524
0.0022901 0.00070817 0.0011101 -0.00088302 5.7529e-05 -0.0003874 -0.015443 -0.0088574
0.11013 0.21005 -0.010662 -0.0073161
7.6374e-05 -0.0013696 0.0010435 8.0807e-05 0.00030898 0.00013179 -0.00034462 0.00031475
-0.010651 -0.0073188 0.14557 0.30218
1460000000 0.28098 0.14617 -0.019075 0.0055035 0.0053383 -0.0022431 -0.0015078 0.0017129
0.0019458 -0.00060926 -0.00045242 -0.00079992
-0.01906 0.0054762 0.12102 0.33675 -0.0054535 0.014613 0.0017461 0.00012133
0.00075085 -0.0012568 0.0010287 -0.00055032
0.0053381 -0.002254 -0.0054111 0.014642 0.36215 0.0020974 -0.0014344 -0.0013131
0.00011446 -0.00015296 0.00061386 -0.00025188
-0.0015091 0.0017126 0.0017458 0.00012194 -0.0014316 -0.0013102 0.20276 0.17105
-0.016159 -0.0020877 -0.00025746 0.0020313
0.0019418 -0.0006047 0.00075054 -0.0012605 0.00011097 -0.00015237 -0.016166 -0.0020508
0.13849 0.19369 -0.011549 -0.0015901
-0.00044955 -0.00079487 0.0010388 -0.00056029 0.00061384 -0.00025179 -0.00025065 0.0020385
-0.011548 -0.0015939 0.17749 0.27919
1520000000 0.29224 0.10357 -0.013208 0.010366 0.002842 -0.0042001 0.00014663 0.0025946
0.0018883 -0.001644 -0.001046 -4.8206e-05
-0.013205 0.010342 0.15424 0.32132 0.0016373 0.012436 0.0016671 -0.00087707
-1.5491e-05 -0.001013 0.0002764 -0.00090575
0.0028266 -0.0042067 0.0016893 0.012432 0.35494 -0.054327 -0.0013266 -0.00028897
0.00052403 -0.00088016 -4.732e-06 -0.00015063
0.00015594 0.0025877 0.0016686 -0.00087748 -0.0013306 -0.00028725 0.2237 0.13262
-0.014995 0.0036617 0.0019016 0.0017533
0.0018844 -0.0016595 -2.5621e-05 -0.0010164 0.00051971 -0.00088575 -0.014997 0.0036913
0.1659 0.178 -0.011101 0.0025367
-0.0010485 -4.3484e-05 0.00027068 -0.00090131 -7.01e-06 -0.00015231 0.0019014 0.0017424
-0.011096 0.0025297 0.20929 0.25572
1580000000 0.30007 0.056904 -0.0069243 0.012761 -0.0011727 -0.0045137 0.00153 0.0018326
-0.00018326 -0.0020364 -0.00021531 0.00037578
-0.0069239 0.012747 0.18098 0.29587 0.0049357 0.0077864 0.00040476 -0.0016892
-0.00054234 -0.00095257 -0.00020205 -0.00078911
-0.0011904 -0.0045059 0.0049651 0.0077773 0.33401 -0.11206 -0.0016151 0.00091947
-0.00030418 -0.0010047 0.00020282 -0.00057895
0.0015303 0.0018243 0.00040408 -0.0016951 -0.001616 0.0009187 0.23519 0.093171
-0.011396 0.0083402 0.0024055 0.00020749
-0.00019348 -0.0020349 -0.00055364 -0.00094492 -0.00030523 -0.0010097 -0.011381 0.0083681
0.18894 0.15795 -0.0085398 0.0074546
-0.00021384 0.00037891 -0.00021232 -0.0007781 0.00020108 -0.00058228 0.0024018 0.00020182
-0.0085387 0.0074433 0.23861 0.22691
1640000000 0.30076 0.015257 -0.00082602 0.01134 -0.0027337 -0.0023675 0.002734 0.00084039
-0.00073777 -0.0014463 -0.00019356 0.0005523
-0.00083552 0.011323 0.21003 0.27023 0.0055588 0.003422 -0.00086473 -0.0016603
-0.0010029 -0.00032569 -0.00051077 -0.0005794
-0.0027363 -0.0023661 0.0055827 0.0033971 0.30455 -0.1605 -0.00063744 0.0015532
-0.0011717 -0.00080573 -0.00016755 -0.00022369
0.0027336 0.00083602 -0.00086876 -0.0016526 -0.00063196 0.0015529 0.24522 0.045383
-0.0070114 0.0096993 0.002329 -0.0012637
-0.00074186 -0.0014382 -0.0010122 -0.00031599 -0.001172 -0.00080248 -0.006999 0.0097228
0.21024 0.13218 -0.004023 0.0091018
-0.00018958 0.00055116 -0.00051675 -0.0005734 -0.00016975 -0.00022588 0.0023299 -0.0012684
-0.0040281 0.0091004 0.26227 0.19407
1700000000 0.29196 -0.030338 0.0021 0.0085542 -0.0033138 0.00024633 0.0029452 -0.0013746
-0.0019294 -0.00066375 0.00065074 0.00034441
0.0020891 0.0085435 0.22762 0.23827 0.0037546 0.00071394 -0.0014721 -0.00044136
-0.00072023 0.00015184 -0.0008774 -0.00039818
-0.0033049 0.0002669 0.0037569 0.00070028 0.26114 -0.20018 0.00071704 0.0014889
-0.0017989 -0.00011939 -0.00061562 -0.00077092
0.0029335 -0.0013869 -0.0014726 -0.0004423 0.00070828 0.0014912 0.24064 -0.0030301
-0.0038767 0.010183 0.0011725 -0.0022735
-0.0019269 -0.00065579 -0.0007249 0.00015742 -0.0017977 -0.00011281 -0.0038714 0.010207
0.22612 0.11023 0.00029745 0.0092707
0.00065361 0.00034137 -0.00088412 -0.00039135 -0.00062176 -0.00077113 0.0011704 -0.0022758
0.00029987 0.0092672 0.27655 0.15821
1760000000 0.27829 -0.078654 0.0039751 0.0054377 -0.0021702 0.00089812 0.00099075 -0.003482
-0.001392 0.00069021 0.00044373 -0.0004915
0.0039663 0.0054256 0.25277 0.1976 0.0016861 -0.0012308 -0.00116 0.0002938
-0.00091308 0.00085868 -0.00057111 0.00048263
-0.0021541 0.00090002 0.0016817 -0.0012446 0.2123 -0.23405 0.0013638 0.00081567
-0.0011102 0.0016033 -0.0012702 -0.00023504
0.0009734 -0.0034794 -0.0011583 0.00030017 0.0013605 0.00081068 0.23049 -0.052275
-0.00044676 0.009333 -0.00056738 -0.0023373
-0.0013905 0.00069905 -0.00091815 0.00086512 -0.0011086 0.0016068 -0.0004321 0.0093345
0.23886 0.073862 0.0037337 0.0066435
0.00044013 -0.00049834 -0.00056879 0.00048671 -0.001266 -0.00023028 -0.00057829 -0.002332
0.0037339 0.0066503 0.28687 0.11962
1820000000 0.25223 -0.11538 0.003933 0.0021779 -6.0033e-06 0.0023835 -0.001248 -0.0028825
-0.0010638 0.0010328 -7.8134e-05 -8.0244e-05
0.0039224 0.0021782 0.26183 0.16741 -0.00026188 -3.9674e-05 -0.0011262 0.0010095
2.5204e-05 0.0012367 -0.00048348 0.00057633
5.2028e-06 0.0023791 -0.00026206 -3.9695e-05 0.16116 -0.24887 0.0013774 8.5451e-05
-2.0518e-05 0.0021691 -0.0012369 0.00059992
-0.0012595 -0.0028807 -0.0011186 0.0010121 0.0013764 8.8096e-05 0.20091 -0.09716
0.0014225 0.0075544 -0.0015797 -0.0012655
-0.0010604 0.0010313 4.2933e-05 0.0012319 -1.3677e-05 0.0021706 0.0014333 0.0075625
0.25398 0.043789 0.0046794 0.0033178
-8.0844e-05 -7.8865e-05 -0.00047833 0.00057833 -0.001235 0.00060654 -0.0015805 -0.0012621
0.0046804 0.0033249 0.28696 0.082324
1880000000 0.2157 -0.15479 0.0016234 0.00023084 -0.00044576 0.0020075 -0.0029518 -0.0018519
-0.00021327 0.0017387 0.00021501 -0.0003923
0.0016132 0.00023186 0.26545 0.12042 -0.0024001 0.001587 -2.6608e-05 0.0015835
0.00060384 0.0010401 0.00021781 0.0009359
-0.00044595 0.0020107 -0.002388 0.001598 0.10806 -0.259 0.0014012 -0.0010845
0.001588 0.0015849 -0.00071146 0.0013472
-0.0029572 -0.0018324 -1.3698e-05 0.001586 0.0014029 -0.001091 0.16149 -0.13655
0.002248 0.0051222 -0.0021146 0.00045081
-0.00020285 0.0017393 0.00061045 0.001037 0.0015919 0.0015853 0.002257 0.0051103
0.25458 0.009933 0.0043835 0.0013458
0.00021397 -0.00039496 0.00022371 0.00093154 -0.00070712 0.0013427 -0.0021055 0.00045495
0.0043847 0.0013443 0.28456 0.047767
1940000000 0.17556 -0.17959 -0.00049952 -0.0010538 0.0014622 0.0019016 -0.0035219 0.00077367
0.001503 0.0011476 -0.00060595 -0.00055076
-0.00049918 -0.0010507 0.26479 0.08892 -0.0011158 0.0039892 0.00094193 0.0011247
0.0016366 0.00040694 0.00085127 0.00034088
0.0014666 0.0018874 -0.001099 0.0039986 0.061913 -0.25129 1.3041e-05 -0.0016602
0.0022493 0.00027794 0.00045306 0.0015304
-0.0035245 0.00078746 0.00094938 0.0011222 1.3148e-05 -0.0016618 0.11002 -0.16642
0.0014441 0.0033822 -0.0013864 0.0014178
0.0015068 0.0011406 0.0016333 0.00038761 0.0022618 0.00026462 0.0014479 0.0033758
0.25407 -0.029495 0.0032204 -0.0015241
-0.00060944 -0.00054562 0.00085122 0.0003341 0.00045127 0.00153 -0.0013785 0.0014156
0.0032124 -0.0015255 0.27168 0.011258
2000000000 0.12882 -0.19343 -0.0040827 0.0011018 0.0025627 0.0014249 -0.0020669 0.0033924
0.001253 1.918e-05 -0.0004573 0.00038549
-0.0040789 0.0010909 0.25014 0.053504 -0.00079475 0.0057664 0.0014731 0.00023908
0.0012007 -0.001198 0.00045869 5.0307e-05
0.002564 0.001404 -0.0007667 0.0057803 0.018479 -0.23642 -0.00099376 -0.0009546
0.0018051 -0.001021 0.0016737 0.0010814
-0.0020545 0.0034042 0.0014756 0.00022747 -0.0010007 -0.00093504 0.05771 -0.17691
-0.00037834 0.0028256 1.1695e-05 0.002088
0.0012544 2.3591e-05 0.0012016 -0.0012082 0.0017924 -0.0010166 -0.00037328 0.0028285
0.24567 -0.063709 0.00030286 -0.0024654
