!Keysight Technologies,M9804A,MY58100912,A.14.10.03
!Date: Thursday, April 27, 2023 10:28:33
!Correction: S11(C  6-Port  ) 
!S12(C  6-Port  ) 
!S13(C  6-Port  ) 
!S14(C  6-Port  ) 
!S15(C  6-Port  ) 
!S16(C  6-Port  ) 
!S21(C  6-Port  ) 
!S22(C  6-Port  ) 
!S23(C  6-Port  ) 
!S24(C  6-Port  ) 
!S25(C  6-Port  ) 
!S26(C  6-Port  ) 
!S31(C  6-Port  ) 
!S32(C  6-Port  ) 
!S33(C  6-Port  ) 
!S34(C  6-Port  ) 
!S35(C  6-Port  ) 
!S36(C  6-Port  ) 
!S41(C  6-Port  ) 
!S42(C  6-Port  ) 
!S43(C  6-Port  ) 
!S44(C  6-Port  ) 
!S45(C  6-Port  ) 
!S46(C  6-Port  ) 
!S51(C  6-Port  ) 
!S52(C  6-Port  ) 
!S53(C  6-Port  ) 
!S54(C  6-Port  ) 
!S55(C  6-Port  ) 
!S56(C  6-Port  ) 
!S61(C  6-Port  ) 
!S62(C  6-Port  ) 
!S63(C  6-Port  ) 
!S64(C  6-Port  ) 
!S65(C  6-Port  ) 
!S66(C  6-Port  ) 
!S6P File: Measurement: :
# Hz S  RI   R 50
500000000 -0.34098 -0.018438 -0.011681 -0.0032787 -0.0080718 0.013097 -0.0025703 0.011751
0.011743 0.0050064 -0.0018955 0.0078144
-0.011609 -0.0032213 -0.42008 -0.037698 0.0057152 -0.011666 0.0017161 0.012356
0.0068192 0.0020478 0.0018994 0.013606
-0.0081389 0.01302 0.0056395 -0.011662 -0.26444 0.22253 0.0069974 0.0040516
-0.0014129 0.0085088 0.002073 0.012216
-0.0024431 0.011573 0.0017643 0.01237 0.0069637 0.0040585 -0.33118 0.061818
-0.020038 -0.0069013 0.015139 0.023877
0.011689 0.0048429 0.0068466 0.0021725 -0.0014108 0.0085669 -0.019982 -0.0068705
-0.23666 -0.16648 -0.026198 0.003317
-0.0019461 0.0075761 0.0018447 0.013575 0.001975 0.012275 0.01514 0.023758
-0.026298 0.0033178 -0.28397 -0.081356
560000000 -0.31332 0.1361 -0.027796 -0.061118 0.0011107 0.011709 0.0059465 0.010231
0.0083714 0.0049147 0.011584 0.0059433
-0.027857 -0.061085 -0.37548 0.11777 -0.043007 -0.034367 0.014193 0.0036553
-0.01223 -0.0029845 0.0042294 -0.0013269
0.0010697 0.011661 -0.043031 -0.034346 -0.1812 0.26807 0.0002322 -0.00419
0.018196 0.0036125 0.0065254 -0.0061345
0.0058309 0.010422 0.014162 0.003647 0.00026201 -0.0042363 -0.30539 0.14947
0.0012343 -0.023302 0.0026023 -0.018109
0.0087052 0.0050971 -0.012372 -0.0031596 0.018154 0.0035555 0.0011376 -0.023346
-0.28906 0.0048248 0.0027166 -0.04546
0.011643 0.0061799 0.0043501 -0.0012714 0.0064206 -0.0061419 0.0026724 -0.018124
0.0028126 -0.045605 -0.33153 0.058502
620000000 -0.2716 0.12389 -0.02362 0.0081469 0.0046954 0.0090062 0.0083379 -0.0045022
0.010174 -0.0015481 0.0019205 -0.0024032
-0.02359 0.0081228 -0.40195 0.073658 -0.019473 0.0010511 -0.00070956 -0.0023376
0.010197 -0.0061511 0.0017102 -0.0025645
0.0046964 0.0088971 -0.019479 0.0010803 -0.14928 0.27781 -0.00029046 -0.0051391
-0.0040214 -0.0027291 0.009129 -0.0038341
0.0083539 -0.0049346 -0.00075689 -0.0023967 -0.00029006 -0.0052194 -0.26254 0.15978
-0.041017 -0.017031 0.012139 0.022905
0.0099964 -0.0013922 0.010156 -0.0061637 -0.0040336 -0.0027693 -0.041052 -0.017113
-0.20986 -0.029173 -0.03972 0.015364
0.0017551 -0.0024704 0.0017111 -0.0025448 0.0091569 -0.0038119 0.012242 0.022919
-0.039772 0.015402 -0.25636 0.029329
680000000 -0.22866 0.20491 -0.028247 -0.011276 0.0056993 0.0045544 0.0014689 -0.0076269
-0.002996 -0.011191 0.003968 -0.0071619
-0.028278 -0.011274 -0.38449 0.16841 -0.032258 0.00091923 -0.0013057 -0.00062327
-0.0022411 -0.009028 -0.0016378 -0.0022798
0.0056715 0.0046003 -0.032248 0.000964 -0.097805 0.29537 -0.0007448 -0.00072379
-0.0015778 -6.5096e-05 -0.0036126 -0.0087901
0.0012714 -0.0073838 -0.0013094 -0.00059239 -0.00077776 -0.00072804 -0.21631 0.20765
-0.025641 -0.0041554 -0.0084438 -0.0078037
-0.0029423 -0.011107 -0.0022607 -0.0090146 -0.0015603 -6.0122e-05 -0.025646 -0.0041478
-0.25197 0.067846 -0.0084008 -0.005827
0.0041987 -0.007108 -0.0016612 -0.0023087 -0.0037044 -0.0088281 -0.0083613 -0.0079472
-0.0084046 -0.0058106 -0.25278 0.12594
740000000 -0.18348 0.20071 -0.036148 0.026799 0.012833 -0.0056126 -0.00085135 -0.0035143
-0.0050741 -0.0030536 -0.0057918 0.0032174
-0.036145 0.026709 -0.33232 0.18792 -0.032983 0.035523 -0.0016879 -0.0057233
-0.01168 0.0075984 -0.0031284 -0.0049919
0.012827 -0.0056379 -0.032954 0.035575 -0.06397 0.29379 -0.0019147 0.0029194
-0.0031116 -0.0049026 -0.0022599 0.0011066
-0.00088367 -0.0037642 -0.0016532 -0.0057693 -0.0019653 0.0029037 -0.19922 0.21603
-0.042578 -0.0020775 0.022168 0.012244
-0.004995 -0.0030969 -0.011585 0.0075062 -0.0031183 -0.004956 -0.042603 -0.0020319
-0.1577 0.088171 -0.039093 0.0060352
-0.0058759 0.0032374 -0.0031856 -0.0049378 -0.0022422 0.0011055 0.022231 0.012286
-0.039118 0.0059763 -0.24286 0.13522
800000000 -0.14944 0.23718 -0.020621 0.017607 0.0045959 -0.010824 -0.0046056 -0.0019436
-0.0039903 0.0024843 0.0026552 6.4587e-05
-0.020582 0.017581 -0.33216 0.25538 -0.0064602 0.033634 -0.0024469 0.0021384
-0.0012093 0.0034468 0.00051654 0.0053344
0.0045971 -0.010816 -0.0064021 0.033655 -0.021843 0.31527 0.00076107 0.001579
3.8455e-05 0.003557 -0.0019719 0.0011652
-0.0046919 -0.0017702 -0.0024561 0.0022023 0.00076376 0.0015842 -0.16857 0.24193
-0.026823 0.016887 0.012783 -0.010569
-0.0039943 0.0026711 -0.001121 0.0035083 4.3599e-05 0.0035916 -0.026804 0.016901
-0.1939 0.11608 -0.015743 0.020017
0.0028051 7.0496e-05 0.00055973 0.0053033 -0.0019941 0.0011163 0.012815 -0.010631
-0.015757 0.019969 -0.22876 0.1809
860000000 -0.11435 0.25643 -0.014959 0.030806 -0.0034214 -0.009911 -0.0020194 0.0014112
0.0046866 0.0051637 -0.0025575 -0.002312
-0.014966 0.030753 -0.28459 0.29601 0.009716 0.033332 0.00031734 0.0025305
0.0043777 0.00072667 0.0031872 0.00055006
-0.003433 -0.0099036 0.0097735 0.033322 0.026301 0.32238 -0.00046177 0.00019328
0.0024695 -0.0012267 0.0020086 0.0040211
-0.0019893 0.0013327 0.00030562 0.0024564 -0.00047172 0.00019494 -0.13205 0.25281
-0.014974 0.021297 -0.0051485 -0.0089113
0.004732 0.0049253 0.0043894 0.00068616 0.0024753 -0.0012267 -0.015055 0.021382
-0.14138 0.16185 -0.020876 0.017372
-0.0026185 -0.0022084 0.0031918 0.00056251 0.0020479 0.0040358 -0.005145 -0.0088313
-0.020915 0.017351 -0.17995 0.22061
920000000 -0.088025 0.27794 0.0068162 0.036404 -0.0094994 -0.0042815 -0.0011739 0.0015837
0.0020419 0.0015066 0.0028735 -0.0019495
0.0067964 0.036374 -0.25484 0.31613 0.028688 0.020081 0.0017689 0.00094059
0.0074811 -0.00023059 0.0038001 -0.0032586
-0.0095144 -0.004253 0.02874 0.020022 0.073607 0.32273 0.002015 -0.00021366
0.0017374 -0.00060147 0.00080691 -0.0015524
-0.0012588 0.0016267 0.0017595 0.00092521 0.0020218 -0.00022866 -0.10584 0.26889
-0.0066154 0.031098 0.0024894 -0.0067553
0.0020644 0.0017337 0.0074867 -0.00028629 0.0017632 -0.00060857 -0.0065383 0.031158
-0.12685 0.16765 0.0004732 0.025195
0.002868 -0.0019482 0.0037886 -0.0032928 0.00081063 -0.0015556 0.0025043 -0.0067208
0.00048942 0.025167 -0.17881 0.23605
980000000 -0.040735 0.2948 0.019037 0.027964 -0.0087804 0.0045834 0.0019104 0.0028356
0.0040202 -0.0022994 -0.0030965 -0.0020142
0.019013 0.027936 -0.20316 0.34823 0.032997 0.0029182 0.00207 -0.00028465
0.001621 -0.0066437 -0.00069949 -0.0023911
-0.0087629 0.0045964 0.033033 0.0028288 0.12046 0.31501 0.00042017 -0.0014131
0.00011934 -0.0023684 0.0010973 -0.00024583
0.0019657 0.0028265 0.0020398 -0.0003017 0.00041193 -0.0014177 -0.066633 0.27792
0.011369 0.028712 -0.0085446 -0.0067124
0.0040004 -0.002453 0.0015847 -0.0066341 8.7889e-05 -0.0023739 0.011365 0.028693
-0.096358 0.19063 0.0069437 0.018865
-0.0031448 -0.0020361 -0.00069774 -0.0023709 0.0010732 -0.00022769 -0.0086003 -0.0067555
0.006914 0.018878 -0.13464 0.27351
1040000000 0.0013476 0.3024 0.033088 0.015226 -0.0014863 0.006644 0.002279 0.00067197
-0.0001749 -0.0035715 -0.00069246 -0.0017373
0.033052 0.015178 -0.16767 0.36149 0.027971 -0.016334 0.0012905 -0.0018873
-0.0023862 -0.0028437 -0.001554 -0.0030011
-0.0014809 0.0066814 0.027944 -0.016439 0.16758 0.30051 -0.00068621 -0.001552
-0.0017217 -0.00099893 -0.0006522 -0.0010239
0.0023044 0.00073133 0.0012641 -0.0018878 -0.00068235 -0.0015528 -0.03812 0.2874
0.022167 0.015474 -0.002739 0.0006907
-0.00011832 -0.0033627 -0.0024431 -0.0028665 -0.0016881 -0.0010073 0.022253 0.015518
-0.063919 0.19619 0.014764 0.015369
-0.0006748 -0.0017459 -0.0015622 -0.003005 -0.00064151 -0.0010318 -0.0026998 0.0007219
0.01474 0.015401 -0.10846 0.29283
1100000000 0.046868 0.3079 0.034547 -0.0066153 0.0025117 0.0037076 0.0020472 -0.0010311
-0.0021844 -0.002799 -0.0038642 0.0005763
0.034528 -0.0066057 -0.12451 0.37805 0.013293 -0.028539 -0.00013724 -0.0018626
-0.003939 -0.0005585 -0.0035842 -9.3669e-05
0.0025246 0.0036925 0.013232 -0.028596 0.21521 0.27795 -0.0019538 0.00027577
-0.0019188 0.00079471 -0.0009764 -2.3838e-05
0.0020338 -0.0010315 -0.00015012 -0.0018613 -0.0019604 0.00027433 0.0033419 0.29003
0.025616 0.0015229 -0.0026821 4.4615e-05
-0.002237 -0.002847 -0.0039258 -0.00056832 -0.0019202 0.00081107 0.025619 0.0014587
-0.044971 0.2075 0.018854 0.0058735
-0.0038717 0.00058682 -0.0035799 -8.3203e-05 -0.00097814 -2.1887e-05 -0.0026916 2.5072e-05
0.018811 0.0058852 -0.061884 0.31617
1160000000 0.097325 0.3019 0.021793 -0.022455 0.0020651 -0.00023669 -1.9573e-06 -0.0016984
-0.0040162 -0.00044163 -0.00067567 0.0038381
0.0218 -0.022439 -0.079957 0.38269 -0.0058806 -0.028603 -0.0016331 -0.0014415
-0.0027143 0.0028459 -0.0014206 0.0019331
0.0020434 -0.00022921 -0.0059592 -0.028612 0.25811 0.24464 -0.00078888 0.0017892
-0.00045713 0.0020957 -0.00084536 0.00028352
1.0553e-05 -0.0016841 -0.0016534 -0.0014229 -0.00078166 0.0017834 0.043088 0.28525
0.020524 -0.014126 -0.0033225 0.0039919
-0.0040206 -0.0003619 -0.0026768 0.0028443 -0.00043804 0.0021003 0.020499 -0.014156
-0.012194 0.21422 0.017932 -0.0030508
-0.00067696 0.0038869 -0.001415 0.0019112 -0.00083481 0.00028769 -0.0033334 0.0040139
0.017942 -0.0030378 -0.015382 0.31693
1220000000 0.14204 0.28929 0.0075684 -0.030288 -0.001776 -0.0001077 0.0003657 -0.00091786
-0.0025876 0.0023576 0.0012396 0.002178
0.0075762 -0.030256 -0.034997 0.39365 -0.018221 -0.019788 -0.0024636 0.00052044
0.00019605 0.0032626 -0.0005003 0.0021263
-0.0017766 -9.8787e-05 -0.01829 -0.019743 0.29646 0.20288 0.00080693 0.0019534
0.0007868 0.0012997 0.00045015 0.00057976
0.00035911 -0.00094414 -0.0024713 0.00053226 0.00080304 0.001966 0.083844 0.27409
0.0085033 -0.020316 0.00091588 0.0015618
-0.0025803 0.0023586 0.00021217 0.0032707 0.00079663 0.0012955 0.0084941 -0.020325
0.01153 0.22114 0.01192 -0.014696
0.0012377 0.0021598 -0.0004814 0.0021357 0.00045901 0.00057445 0.00093709 0.0015647
0.011888 -0.014702 0.018909 0.32805
1280000000 0.19086 0.26591 -0.010486 -0.027313 -0.0015052 0.0032314 -0.00095658 -0.0019747
-0.00069743 0.0030259 0.0026493 0.00093891
-0.010449 -0.027297 0.011674 0.38396 -0.0242 -0.0068782 -0.0009372 0.0015461
0.0020666 0.0017922 0.0010118 0.0017603
-0.0015026 0.0032341 -0.024241 -0.0067996 0.32456 0.15703 0.0018234 -4.4172e-05
0.0012333 0.00015734 0.00017196 0.00012806
-0.0009464 -0.0019547 -0.00094876 0.0015417 0.0018254 -4.323e-05 0.11996 0.25473
-0.0022725 -0.021158 -0.00085873 0.00063871
-0.00072325 0.0030125 0.0020723 0.0017974 0.0012302 0.00015387 -0.0023166 -0.021193
0.047366 0.22258 0.0011017 -0.01643
0.0026364 0.0009615 0.0010274 0.0017437 0.00017189 0.00012811 -0.00086816 0.00060648
0.0011233 -0.016398 0.064494 0.32555
1340000000 0.2275 0.23091 -0.019428 -0.016522 0.001588 0.0046443 -0.001711 -0.00099
0.0015152 0.0026521 0.0015751 -0.0015865
-0.019386 -0.016524 0.051878 0.37381 -0.021037 0.0059327 4.1961e-05 0.0020725
0.0022239 0.00039964 0.0013808 0.00056567
0.0016039 0.004656 -0.02102 0.006007 0.34427 0.10884 0.0013363 -0.0012588
0.0007276 -0.00063246 8.9602e-05 0.00027988
-0.0017012 -0.0010097 3.1474e-05 0.0020618 0.0013295 -0.001253 0.15133 0.23209
-0.012273 -0.016766 0.00015667 0.0015051
0.0015667 0.0026318 0.0021976 0.00038709 0.00073061 -0.00062925 -0.012325 -0.016735
0.076953 0.21651 -0.0066485 -0.014084
0.0015768 -0.0016171 0.0013841 0.00057487 9.1985e-05 0.0002871 0.0001628 0.0015112
-0.0066447 -0.014113 0.10363 0.31712
1400000000 0.25968 0.19128 -0.023499 -0.0045408 0.0057598 0.0028157 -0.0022969 0.00066563
0.0025264 0.00089079 6.003e-05 -0.0015249
-0.023465 -0.0045436 0.088846 0.35909 -0.013618 0.013407 0.0014751 0.0012976
0.0011127 -0.0011979 0.0011081 -4.0724e-06
0.0057531 0.0027978 -0.013573 0.013471 0.35588 0.055602 -2.0028e-05 -0.0019704
2.9963e-05 -0.00046123 0.00046008 0.00025637
-0.0022956 0.0006783 0.00147 0.0012951 -1.9089e-05 -0.0019673 0.17938 0.20084
-0.017936 -0.0084345 -0.00043134 0.00097884
0.0024889 0.00087823 0.0011271 -0.0011963 2.0762e-05 -0.00046241 -0.017959 -0.0084189
0.10921 0.21025 -0.012641 -0.0078316
2.5873e-05 -0.0015118 0.0011267 -2.4147e-06 0.00045893 0.0002716 -0.00041104 0.00095364
-0.012663 -0.0078448 0.14603 0.30166
1460000000 0.28123 0.14644 -0.019187 0.0072189 0.0059195 -0.0023464 -0.0016534 0.0017761
0.0021301 -0.00073366 -0.00055469 -0.00089545
-0.019181 0.0071919 0.12233 0.33557 -0.0046889 0.015439 0.0017871 4.2902e-06
0.00057866 -0.0014763 0.0010184 -0.00063659
0.0059052 -0.0023752 -0.0046415 0.015474 0.36037 0.0021432 -0.0016849 -0.0013795
0.0001285 -0.00022319 0.00069327 -0.00031947
-0.0016384 0.0017819 0.0017891 4.6244e-06 -0.0016773 -0.0013836 0.20282 0.17012
-0.018078 -0.00012737 0.00013269 0.0026
0.0021684 -0.00074201 0.00055382 -0.0014853 0.00012928 -0.00021404 -0.018111 -9.3022e-05
0.13762 0.19413 -0.013629 -0.0011452
-0.00053446 -0.00091803 0.00099235 -0.00064773 0.00069614 -0.00032413 0.00011668 0.0026061
-0.013596 -0.0011602 0.17778 0.27856
1520000000 0.29235 0.10332 -0.012459 0.011832 0.0031941 -0.0045998 0.00020494 0.0027428
0.00202 -0.0019077 -0.0012245 -1.0663e-05
-0.012461 0.011816 0.1547 0.31958 0.0026556 0.012586 0.0016449 -0.0010064
-0.00026892 -0.00098711 0.00017745 -0.00094103
0.0031836 -0.0045985 0.0027005 0.012566 0.35345 -0.05345 -0.0015447 -0.00011703
0.00047871 -0.0010103 7.639e-05 -0.00025971
0.00021053 0.0027293 0.0016311 -0.001009 -0.0015474 -0.00011677 0.22326 0.13168
-0.015516 0.0063732 0.0024586 0.0019689
0.0019938 -0.0019202 -0.00025972 -0.00098167 0.00046632 -0.0010215 -0.015514 0.0064203
0.16525 0.17866 -0.012536 0.0040916
-0.0012308 -1.3436e-06 0.00018411 -0.00094971 7.6142e-05 -0.00025622 0.0024765 0.0019635
-0.012543 0.0040793 0.20871 0.25492
1580000000 0.29991 0.05656 -0.0054969 0.0136 -0.0010997 -0.0050903 0.0017043 0.0018987
-0.00031156 -0.0023574 -0.00020052 0.00045197
-0.0055003 0.013577 0.1804 0.29399 0.0057459 0.0074517 0.00029266 -0.0017615
-0.00059736 -0.00076964 -0.00026233 -0.00080284
-0.0011218 -0.005085 0.005784 0.007432 0.33325 -0.11057 -0.0015696 0.0011093
-0.00046998 -0.0011828 0.00013137 -0.00074817
0.001708 0.001889 0.00028254 -0.0017487 -0.001567 0.0011091 0.23423 0.092326
-0.010237 0.010893 0.0028114 5.8923e-05
-0.00031669 -0.0023364 -0.00061564 -0.00077703 -0.00047252 -0.0011806 -0.010214 0.010934
0.18871 0.15867 -0.0091143 0.0093164
-0.00019623 0.00047062 -0.00027347 -0.00079828 0.00013398 -0.00075644 0.0028225 2.3046e-05
-0.0091215 0.0093261 0.23786 0.22658
1640000000 0.30011 0.014817 0.0008168 0.011193 -0.0029818 -0.0027134 0.0028006 0.00076585
-0.0010904 -0.0015399 -0.0002298 0.00054002
0.00081813 0.011189 0.20853 0.26883 0.0058968 0.0028039 -0.00099797 -0.0016392
-0.00088276 -0.00018516 -0.00060317 -0.00053945
-0.0029895 -0.0027076 0.0059117 0.0027819 0.30445 -0.15934 -0.00043254 0.0016607
-0.0014057 -0.000757 -0.00027048 -0.00031524
0.0028059 0.00076434 -0.00099884 -0.0016203 -0.00043182 0.0016678 0.24363 0.04524
-0.0047261 0.011148 0.0027465 -0.0015185
-0.001108 -0.0015421 -0.00087755 -0.00017873 -0.0014028 -0.00075842 -0.0047058 0.011161
0.21018 0.13266 -0.0035995 0.010996
-0.00021679 0.00053835 -0.00060509 -0.00053109 -0.00028583 -0.00030361 0.0027372 -0.0015112
-0.0036034 0.010996 0.26137 0.1939
1700000000 0.29089 -0.03028 0.0033871 0.0075575 -0.0036698 0.00010046 0.0029106 -0.0015571
-0.0021774 -0.00044529 0.00070824 0.00034503
0.0033767 0.0075516 0.22548 0.23765 0.0037686 8.3049e-05 -0.0015119 -0.00034386
-0.00057855 0.00010615 -0.00094622 -0.00032991
-0.0036581 0.00011648 0.0037697 6.2187e-05 0.26146 -0.19914 0.0008165 0.0013926
-0.0019014 4.1887e-05 -0.00075951 -0.0008585
0.0029004 -0.0015783 -0.0015059 -0.00033922 0.00083437 0.0013925 0.23908 -0.0021596
-0.001313 0.010065 0.0014222 -0.0027235
-0.0021839 -0.00042752 -0.00056885 0.00010025 -0.0019104 3.7107e-05 -0.0013014 0.010079
0.22623 0.11039 0.0015136 0.01075
0.00070479 0.00035612 -0.0009503 -0.000337 -0.00077326 -0.00085508 0.0014377 -0.002735
0.0015158 0.010754 0.27574 0.1588
1760000000 0.27718 -0.077995 0.0043948 0.0039834 -0.0025471 0.00091134 0.00090362 -0.0035046
-0.0013577 0.00099869 0.00033879 -0.00056697
0.0043845 0.0039814 0.25055 0.19806 0.0014289 -0.0016983 -0.0011836 0.00040199
-0.00090616 0.00069173 -0.0005202 0.00052342
-0.0025355 0.00090351 0.0014282 -0.0017011 0.21292 -0.233 0.0013778 0.00074017
-0.0010057 0.0017611 -0.0014376 -0.00024653
0.00089588 -0.0035023 -0.0011773 0.00041356 0.0013707 0.00074562 0.22946 -0.050866
0.0013925 0.007896 -0.00055863 -0.0027057
-0.001349 0.0010059 -0.00090443 0.00070414 -0.0010071 0.0017561 0.001418 0.0078968
0.23886 0.073819 0.0053627 0.0074033
0.00034679 -0.0005872 -0.0005118 0.00053121 -0.0014342 -0.00024828 -0.00057173 -0.0027281
0.00537 0.0073961 0.28651 0.12012
1820000000 0.25159 -0.11399 0.0035192 0.00088555 -0.00024027 0.0025856 -0.0013392 -0.0027918
-0.00072099 0.0011897 -0.00011405 -0.00015151
0.0035144 0.00088243 0.26006 0.16871 -0.00060507 -0.00039074 -0.0010494 0.0010587
-0.00013559 0.001082 -0.00043991 0.00057854
-0.00023152 0.0025708 -0.00060982 -0.00038576 0.16235 -0.24891 0.0012257 -4.2954e-05
0.00011115 0.0021365 -0.0013734 0.00068792
-0.001335 -0.0028145 -0.0010559 0.0010613 0.0012177 -3.4918e-05 0.2007 -0.095198
0.0021232 0.0056593 -0.0018733 -0.0018672
-0.00072407 0.0011909 -0.00012873 0.0010821 0.00013238 0.0021269 0.0021353 0.0056473
0.25373 0.043553 0.0063796 0.0031186
-0.00011743 -0.00015565 -0.00043648 0.00056467 -0.0013609 0.00070205 -0.0018743 -0.0018513
0.0063912 0.0031251 0.28693 0.083045
1880000000 0.21579 -0.15334 0.00075234 -0.00048985 -0.00054184 0.0022437 -0.0030052 -0.0017099
1.896e-05 0.0016244 0.00015011 -0.00039658
0.00076038 -0.0004917 0.26444 0.12249 -0.0027329 0.0015084 2.9147e-05 0.0016267
0.00040417 0.0010939 0.00027647 0.00090239
-0.00052663 0.002227 -0.0027315 0.0015223 0.10924 -0.259 0.0014015 -0.00088545
0.0018379 0.0015989 -0.00052766 0.0015312
-0.0030182 -0.0017116 2.2453e-05 0.0016276 0.0014128 -0.00089374 0.16227 -0.13457
0.0020428 0.0034405 -0.0026903 0.00019622
3.5803e-05 0.0016232 0.00041293 0.0011047 0.0018339 0.0015998 0.0020369 0.0034404
0.25424 0.0097428 0.0058282 0.00056596
0.00016831 -0.00039041 0.00029152 0.00089779 -0.00053603 0.0015376 -0.0026629 0.00021899
0.005835 0.00055801 0.28503 0.048371
1940000000 0.17638 -0.17817 -0.0014412 -0.0012052 0.0015053 0.0022288 -0.0034228 0.00076183
0.0015152 0.00077609 -0.0004602 -0.00048541
-0.0014332 -0.0012063 0.26477 0.091022 -0.0015568 0.0039528 0.001081 0.0010352
0.0016235 0.00060318 0.00085787 0.00034129
0.0015209 0.0022256 -0.0015367 0.003981 0.062455 -0.25214 0.00017026 -0.0017625
0.0022538 0.00011842 0.00071646 0.0015968
-0.0034314 0.00077246 0.0010787 0.0010418 0.00015698 -0.0017679 0.11169 -0.16536
0.00058437 0.0021345 -0.0017985 0.001496
0.0015125 0.00075521 0.0016306 0.00058359 0.0022606 0.00011669 0.00059329 0.0021464
0.25328 -0.029656 0.0041488 -0.0029974
-0.00048841 -0.00048906 0.00086739 0.0003309 0.00073018 0.0015809 -0.0017874 0.0014982
0.0041475 -0.0029965 0.27198 0.011543
2000000000 0.13034 -0.1927 -0.0047546 0.0013242 0.0027003 0.0016264 -0.0021018 0.0034245
0.001073 -0.00019681 -0.00048197 0.00037245
-0.0047465 0.0013115 0.25097 0.05539 -0.0011609 0.005967 0.0015225 0.00010053
0.00142 -0.0010562 0.00038803 7.6861e-06
0.0026905 0.0016311 -0.0011376 0.0059643 0.01834 -0.23719 -0.0010896 -0.00098279
0.0015877 -0.0011063 0.0017279 0.00089361
-0.0021068 0.0034092 0.0015326 9.9894e-05 -0.0010784 -0.00095774 0.059495 -0.17668
-0.0013694 0.0022961 -0.00028606 0.0023891
0.0010671 -0.00018973 0.0013998 -0.0010539 0.0015803 -0.0011055 -0.001355 0.0022767
0.24482 -0.063218 0.00042223 -0.0039759
