!Keysight Technologies,M9804A,MY58100912,A.14.10.03
!Date: Thursday, April 27, 2023 10:28:33
!Correction: S11(C  6-Port  ) 
!S12(C  6-Port  ) 
!S13(C  6-Port  ) 
!S14(C  6-Port  ) 
!S15(C  6-Port  ) 
!S16(C  6-Port  ) 
!S21(C  6-Port  ) 
!S22(C  6-Port  ) 
!S23(C  6-Port  ) 
!S24(C  6-Port  ) 
!S25(C  6-Port  ) 
!S26(C  6-Port  ) 
!S31(C  6-Port  ) 
!S32(C  6-Port  ) 
!S33(C  6-Port  ) 
!S34(C  6-Port  ) 
!S35(C  6-Port  ) 
!S36(C  6-Port  ) 
!S41(C  6-Port  ) 
!S42(C  6-Port  ) 
!S43(C  6-Port  ) 
!S44(C  6-Port  ) 
!S45(C  6-Port  ) 
!S46(C  6-Port  ) 
!S51(C  6-Port  ) 
!S52(C  6-Port  ) 
!S53(C  6-Port  ) 
!S54(C  6-Port  ) 
!S55(C  6-Port  ) 
!S56(C  6-Port  ) 
!S61(C  6-Port  ) 
!S62(C  6-Port  ) 
!S63(C  6-Port  ) 
!S64(C  6-Port  ) 
!S65(C  6-Port  ) 
!S66(C  6-Port  ) 
!S6P File: Measurement: :
# Hz S  RI   R 50
500000000 -0.34082 -0.018403 -0.011843 -0.003214 -0.0077886 0.013412 -0.0036747 0.012303
0.011055 0.0036107 -0.0032606 0.0087813
-0.011834 -0.003211 -0.42058 -0.036639 0.0053342 -0.011301 0.0015966 0.012751
0.0064845 0.0026419 0.0017893 0.013789
-0.0077791 0.013423 0.005321 -0.011322 -0.26493 0.22357 0.007074 0.0040831
-0.001477 0.0088901 0.0020654 0.012398
-0.0036564 0.012313 0.0016094 0.012714 0.0070789 0.0040701 -0.33093 0.062553
-0.019959 -0.0065177 0.015421 0.023656
0.010991 0.003576 0.0066027 0.0026105 -0.0014009 0.0088165 -0.019941 -0.0064932
-0.23681 -0.16448 -0.025884 0.004398
-0.0032295 0.0087405 0.0017835 0.013826 0.0021317 0.01247 0.015478 0.023625
-0.025896 0.0043418 -0.28481 -0.079743
560000000 -0.31334 0.13735 -0.027848 -0.060298 0.0013728 0.01223 0.0056152 0.0098563
0.0092062 0.0045738 0.010635 0.0074553
-0.027774 -0.060213 -0.37656 0.11978 -0.043334 -0.033911 0.013613 0.0036516
-0.012743 -0.0038491 0.0033335 -0.00099263
0.001332 0.01224 -0.043362 -0.033874 -0.18103 0.26909 -5.6513e-05 -0.0039468
0.019552 0.0045488 0.0064201 -0.006186
0.005602 0.0098558 0.013666 0.0034813 -5.7292e-05 -0.00389 -0.30493 0.1493
8.5505e-05 -0.02416 0.0028444 -0.018341
0.0092683 0.0044997 -0.012866 -0.0038568 0.019604 0.0045316 9.5359e-05 -0.024133
-0.28879 0.0093899 0.0020675 -0.046386
0.010627 0.0074377 0.0032936 -0.0010018 0.0065059 -0.0062066 0.0028407 -0.01834
0.0021053 -0.046398 -0.33047 0.059728
620000000 -0.27146 0.12375 -0.023753 0.0081028 0.0047085 0.0083483 0.0077715 -0.0053005
0.011316 -0.0012525 0.0015028 -0.0024503
-0.02373 0.0080916 -0.40224 0.074611 -0.019439 0.0012989 -0.00074051 -0.0022932
0.010746 -0.0061986 0.0017932 -0.0025567
0.0047534 0.0083311 -0.019446 0.0013205 -0.14929 0.27881 -0.00073257 -0.0049816
-0.0028128 -0.0025212 0.0084931 -0.0038365
0.0077356 -0.0052072 -0.00074408 -0.0023023 -0.00070677 -0.0049791 -0.26296 0.16166
-0.039831 -0.017585 0.011981 0.023707
0.011341 -0.0013538 0.010722 -0.0062119 -0.0028807 -0.0025024 -0.039862 -0.01756
-0.21152 -0.02863 -0.038923 0.015354
0.0014912 -0.0025821 0.0017285 -0.0025509 0.0084398 -0.0037942 0.012009 0.023686
-0.038912 0.015257 -0.25628 0.032301
680000000 -0.22823 0.20624 -0.027868 -0.010777 0.0057645 0.0045937 0.0013405 -0.0071805
-0.0028773 -0.011334 0.0041791 -0.0070665
-0.02785 -0.01079 -0.38435 0.16936 -0.031796 0.00091613 -0.0011375 -0.00072375
-0.002164 -0.0092759 -0.0012972 -0.0023699
0.0057795 0.004586 -0.031814 0.00097239 -0.0972 0.2959 -0.00081309 -0.000764
-0.0014459 -0.00031144 -0.0033053 -0.0086974
0.0013701 -0.0072144 -0.001118 -0.00073698 -0.00080762 -0.00079407 -0.2166 0.20807
-0.026054 -0.0044141 -0.0091833 -0.007694
-0.0029286 -0.011388 -0.0022312 -0.0092448 -0.0014429 -0.00025451 -0.026127 -0.0043787
-0.25156 0.069777 -0.0075542 -0.0058329
0.0041115 -0.0070304 -0.0013216 -0.0023321 -0.0032951 -0.0087275 -0.0091965 -0.0076477
-0.0075831 -0.0058156 -0.25395 0.12757
740000000 -0.18354 0.20143 -0.035635 0.027228 0.012384 -0.005882 -0.00089075 -0.0039745
-0.0051742 -0.002956 -0.0061354 0.0031082
-0.035636 0.027189 -0.33184 0.18806 -0.032276 0.03546 -0.00098565 -0.0065348
-0.011451 0.007751 -0.0021859 -0.0051613
0.012384 -0.0059037 -0.032234 0.035531 -0.063454 0.29447 -0.0019209 0.0029835
-0.0034405 -0.0042657 -0.0020982 0.00093017
-0.00086564 -0.0039498 -0.0010059 -0.0065609 -0.0018941 0.0029813 -0.19846 0.21696
-0.041947 -0.0029888 0.022171 0.012711
-0.0051374 -0.0029168 -0.011456 0.0078455 -0.0033931 -0.0042874 -0.041953 -0.0029118
-0.1574 0.091009 -0.038589 0.0041108
-0.0061325 0.0031387 -0.0021892 -0.0052401 -0.002097 0.00095361 0.02217 0.012736
-0.038593 0.004164 -0.24175 0.13788
800000000 -0.14907 0.2379 -0.0203 0.017889 0.0046913 -0.010612 -0.0042321 -0.0016622
-0.004133 0.0026633 0.0033243 0.00067617
-0.020291 0.017858 -0.33155 0.25635 -0.0061304 0.033471 -0.0022643 0.0022852
-0.00098723 0.0033532 0.00091526 0.0054212
0.0046768 -0.01061 -0.0060725 0.033485 -0.020857 0.31561 0.00067141 0.001767
0.00022028 0.0035945 -0.0016436 0.0011891
-0.0042462 -0.0016634 -0.002281 0.0022894 0.00067118 0.0017861 -0.16796 0.24307
-0.026243 0.016979 0.012655 -0.010111
-0.004096 0.0027186 -0.00096635 0.0033964 0.00024728 0.0036017 -0.026259 0.017037
-0.19416 0.1174 -0.014865 0.019787
0.0033656 0.00070075 0.00092633 0.0054263 -0.0016777 0.0012047 0.012654 -0.010128
-0.014869 0.019764 -0.22812 0.18307
860000000 -0.11382 0.25713 -0.014701 0.030743 -0.0035429 -0.0097537 -0.0018836 0.0011152
0.0044181 0.0048755 -0.002539 -0.0020539
-0.014709 0.030706 -0.284 0.29637 0.0097332 0.032931 0.00010733 0.0021261
0.004648 0.00085796 0.0031702 0.00085755
-0.0035518 -0.0097324 0.0098086 0.03293 0.027035 0.3222 -0.00030174 8.3258e-05
0.0026483 -0.0012244 0.0019684 0.0038573
-0.0018749 0.00111 0.00010802 0.0021328 -0.00030304 8.1042e-05 -0.1312 0.25346
-0.01457 0.021192 -0.0051259 -0.0089025
0.004479 0.0049082 0.00463 0.00083274 0.0026491 -0.0012251 -0.01456 0.02125
-0.14108 0.16271 -0.020552 0.01731
-0.0025497 -0.0020569 0.0031924 0.00084975 0.0019598 0.0038641 -0.0051391 -0.0089163
-0.020577 0.017277 -0.17871 0.22185
920000000 -0.087041 0.27785 0.0071652 0.03586 -0.0091906 -0.0043716 -0.0013841 0.0015039
0.0016505 0.0014701 0.0028387 -0.0019029
0.0071295 0.03582 -0.25391 0.31639 0.028525 0.019751 0.0017424 0.0010425
0.0072877 -0.00063942 0.0037981 -0.0030986
-0.0091988 -0.0043459 0.028578 0.019686 0.074127 0.32241 0.0020251 -0.0001443
0.0016428 -0.00056743 0.00083112 -0.0014839
-0.0013897 0.0015219 0.0017611 0.0010353 0.0020239 -0.0001487 -0.10489 0.26898
-0.006606 0.030864 0.0026559 -0.0064899
0.0016538 0.0015125 0.007269 -0.00064107 0.0016395 -0.00056555 -0.0065683 0.030886
-0.12766 0.16814 0.00053995 0.025591
0.0028374 -0.0018845 0.0037963 -0.0031198 0.00082617 -0.001494 0.0026666 -0.006504
0.00050407 0.02557 -0.17713 0.23716
980000000 -0.040425 0.29495 0.019075 0.027549 -0.00866 0.0043789 0.0018242 0.0029073
0.0040066 -0.0019288 -0.0029397 -0.0022813
0.019043 0.027513 -0.2023 0.34835 0.032664 0.0026707 0.002082 -0.00021714
0.0017887 -0.0062676 -0.00052396 -0.0024735
-0.0086412 0.0043991 0.032699 0.0025903 0.12087 0.31452 0.0004908 -0.0013705
9.0042e-05 -0.0022955 0.0011903 -0.00031272
0.0018205 0.0029164 0.0020867 -0.00022456 0.00049064 -0.001362 -0.065904 0.27793
0.011763 0.028164 -0.0083096 -0.0063334
0.0039853 -0.0019375 0.001748 -0.006302 8.7571e-05 -0.0023097 0.011847 0.028158
-0.094823 0.19148 0.007021 0.018023
-0.0029578 -0.002279 -0.00052158 -0.0025036 0.0012014 -0.0003178 -0.0083106 -0.0063384
0.006985 0.01801 -0.13288 0.27412
1040000000 0.0021602 0.30184 0.032935 0.014782 -0.0014314 0.0063543 0.0021841 0.00051558
-7.8399e-05 -0.0032549 -0.00087266 -0.0016355
0.032894 0.014774 -0.16684 0.36141 0.027699 -0.016289 0.001453 -0.0018137
-0.0024323 -0.0027882 -0.0017068 -0.0027877
-0.0014092 0.0063662 0.027664 -0.016379 0.16774 0.30001 -0.00065534 -0.0015575
-0.0016829 -0.00092976 -0.00069831 -0.0010158
0.0021758 0.00052345 0.0014541 -0.0018374 -0.00064855 -0.0015522 -0.037414 0.28663
0.021664 0.015022 -0.0028154 0.00075123
-8.9236e-05 -0.003242 -0.0024645 -0.0027965 -0.0016966 -0.00093394 0.021705 0.014994
-0.063084 0.19686 0.014397 0.015154
-0.0008904 -0.001629 -0.0017227 -0.0028024 -0.00069907 -0.0010119 -0.0028081 0.00077331
0.014394 0.015168 -0.10758 0.29363
1100000000 0.04717 0.30783 0.034047 -0.0067738 0.0022901 0.003546 0.0020385 -0.00082593
-0.0021275 -0.0027129 -0.0037287 0.00059963
0.034017 -0.0067479 -0.12377 0.37741 0.013155 -0.028271 -0.00013844 -0.0018021
-0.0037354 -0.00069354 -0.003534 -0.00012948
0.0022825 0.003546 0.013088 -0.028328 0.21506 0.27748 -0.0019037 0.00019751
-0.0019669 0.00070546 -0.00094517 3.0039e-05
0.0020466 -0.00083302 -0.00011772 -0.0018228 -0.0019053 0.00018979 0.0037162 0.28919
0.025037 0.0014579 -0.0028817 -4.9194e-05
-0.0021223 -0.0026963 -0.0037106 -0.00068131 -0.0019705 0.00071209 0.025058 0.001414
-0.044086 0.20788 0.018639 0.0057916
-0.0037176 0.00061057 -0.0035145 -0.00013608 -0.00094316 3.4422e-05 -0.0028717 -5.4359e-05
0.01863 0.0058062 -0.06049 0.31664
1160000000 0.097634 0.30175 0.02127 -0.022317 0.0018571 -0.00018726 4.3319e-05 -0.0017997
-0.0039685 -0.00038505 -0.00066413 0.0039318
0.021255 -0.022292 -0.07964 0.382 -0.0057734 -0.028447 -0.0017213 -0.001509
-0.0028845 0.0027456 -0.0013807 0.0019058
0.0018341 -0.00019253 -0.0058565 -0.028454 0.25761 0.24426 -0.00082584 0.0018552
-0.00044353 0.00216 -0.00070486 0.00043781
3.1797e-05 -0.001787 -0.0017294 -0.0015283 -0.00085469 0.0018548 0.042962 0.28447
0.020009 -0.013658 -0.0031374 0.0042458
-0.0039793 -0.00036013 -0.0028719 0.0027531 -0.00044748 0.0021444 0.020006 -0.013688
-0.010791 0.21447 0.017506 -0.0028243
-0.00066334 0.0039367 -0.0013377 0.0019112 -0.00069911 0.00042851 -0.0031291 0.0042449
0.017497 -0.0028317 -0.013846 0.31696
1220000000 0.14219 0.28894 0.0070576 -0.029835 -0.0019278 0.00010977 0.00035661 -0.00094334
-0.0024174 0.0023405 0.0014354 0.0020302
0.0070738 -0.029804 -0.035176 0.39285 -0.017988 -0.019627 -0.0025016 0.0004639
0.00013884 0.0032174 -0.00045239 0.002058
-0.0019288 0.00012001 -0.018053 -0.019582 0.29598 0.20305 0.00083643 0.0019499
0.00078586 0.0013248 0.00057141 0.00053477
0.00034838 -0.0009327 -0.0025083 0.00046447 0.00082803 0.0019474 0.083329 0.27386
0.0084758 -0.019555 0.0010972 0.0014553
-0.0024233 0.0023487 0.00014804 0.0032197 0.00078254 0.0013237 0.0084628 -0.019589
0.012856 0.22085 0.011602 -0.0145
0.0014329 0.0020229 -0.00043611 0.0020652 0.0005747 0.00053244 0.0011005 0.0014546
0.011602 -0.014495 0.020065 0.32794
1280000000 0.19087 0.26552 -0.010521 -0.026722 -0.0015249 0.0033915 -0.00084351 -0.0021214
-0.00068969 0.0029661 0.0025136 0.0009299
-0.010496 -0.026694 0.010977 0.38335 -0.024043 -0.0069221 -0.0010957 0.0015086
0.0020125 0.0018644 0.00088705 0.0017755
-0.0015178 0.0033912 -0.024082 -0.0068531 0.32435 0.15744 0.0018065 -2.5229e-05
0.0013467 0.00016531 0.0003796 9.2995e-05
-0.00084467 -0.002112 -0.0010883 0.0015139 0.0017942 -2.459e-05 0.11934 0.2548
-0.0020376 -0.020574 -0.00081753 0.00065155
-0.00065565 0.0029634 0.0020265 0.0018593 0.0013514 0.0001485 -0.0020666 -0.020587
0.048475 0.22203 0.00074609 -0.015983
0.0025258 0.00092143 0.00089801 0.0017719 0.00036921 0.00011293 -0.00082287 0.00063056
0.00075666 -0.015985 0.0656 0.32533
1340000000 0.22731 0.23067 -0.019121 -0.015964 0.0016925 0.0048215 -0.0017827 -0.0010759
0.0014956 0.0025854 0.0016628 -0.0015369
-0.019089 -0.015952 0.051021 0.37379 -0.020993 0.0057877 -6.3411e-05 0.002153
0.0022201 0.00051317 0.0014549 0.00061414
0.0016949 0.0048155 -0.020984 0.0058576 0.34449 0.10924 0.0013841 -0.0010914
0.00068215 -0.00063094 6.8213e-05 0.0001616
-0.0017861 -0.0010736 -4.3153e-05 0.0021588 0.0014119 -0.0011152 0.15092 0.23266
-0.011592 -0.016299 0.00032979 0.0014362
0.0014973 0.0025732 0.0022281 0.00050323 0.00067737 -0.0006258 -0.011627 -0.016278
0.077869 0.21587 -0.0063233 -0.013587
0.0016486 -0.0015513 0.0014643 0.00061145 6.5064e-05 0.0001528 0.00033705 0.0014444
-0.0063199 -0.013577 0.10458 0.31641
1400000000 0.25944 0.19149 -0.02296 -0.0042622 0.0058487 0.0029331 -0.0022684 0.00061217
0.0023941 0.00080871 9.93e-05 -0.0015675
-0.022927 -0.0042768 0.08803 0.35963 -0.013681 0.013284 0.0015039 0.0013389
0.0012189 -0.0011472 0.0011123 -4.1766e-05
0.0058489 0.0029247 -0.01364 0.013352 0.35612 0.055881 0.00010467 -0.0020753
3.1858e-05 -0.00044222 0.00032989 0.00013133
-0.0022684 0.00060612 0.001513 0.0013335 0.00010504 -0.0020771 0.17917 0.20158
-0.017076 -0.0084386 -0.00032157 0.00091018
0.0023968 0.00079315 0.0012103 -0.0011584 3.6699e-05 -0.00044033 -0.017104 -0.0083967
0.10955 0.20939 -0.01219 -0.0076312
8.9364e-05 -0.0015634 0.0011094 -4.4128e-05 0.00033138 0.00013869 -0.00033187 0.00091413
-0.012191 -0.0076576 0.14671 0.30123
1460000000 0.28113 0.14668 -0.018643 0.0070616 0.0059638 -0.0022599 -0.0016199 0.0018007
0.0021359 -0.00062169 -0.00055119 -0.00088165
-0.018642 0.0070426 0.12193 0.33656 -0.004831 0.015471 0.0018746 2.5598e-05
0.00057361 -0.0014345 0.00099525 -0.00063304
0.0059502 -0.0022783 -0.0047764 0.015509 0.36074 0.0021773 -0.001604 -0.0014437
0.00011598 -0.00021165 0.00063148 -0.00032298
-0.0016182 0.0018006 0.0018732 2.1299e-05 -0.0016037 -0.0014497 0.2032 0.17088
-0.017435 -0.00066732 1.8357e-05 0.0024317
0.002142 -0.00062365 0.00056761 -0.0014361 0.00011485 -0.00021435 -0.017449 -0.00063555
0.13765 0.19353 -0.013078 -0.0010856
-0.00055651 -0.00088875 0.0010095 -0.00064706 0.00062502 -0.00033776 3.5369e-05 0.0024303
-0.013072 -0.0010893 0.17833 0.27815
1520000000 0.29265 0.10385 -0.012064 0.011434 0.0033766 -0.0046279 0.00016566 0.0027282
0.0019859 -0.0018608 -0.0011719 -2.4471e-05
-0.012058 0.011417 0.15479 0.32065 0.0024864 0.012684 0.0016949 -0.0010804
-0.00018859 -0.0010318 0.00025443 -0.00096994
0.0033667 -0.0046345 0.0025353 0.012684 0.3538 -0.053402 -0.0015406 -0.00020804
0.00053432 -0.00088694 -2.4934e-05 -0.00018534
0.00017752 0.0027312 0.0016882 -0.0010772 -0.0015429 -0.00020471 0.22396 0.1321
-0.015272 0.0054874 0.0023198 0.0019915
0.0019741 -0.0018754 -0.00019058 -0.001036 0.00053985 -0.00088741 -0.015274 0.0055298
0.16523 0.17812 -0.012202 0.0036969
-0.0011735 -2.2657e-05 0.00025475 -0.00097218 -2.8271e-05 -0.00019203 0.0023168 0.0019886
-0.012198 0.0036882 0.20962 0.25454
1580000000 0.30035 0.056822 -0.0054234 0.013036 -0.00092677 -0.0052609 0.0016311 0.0018706
-0.00028984 -0.0022581 -0.00021539 0.00049904
-0.0054279 0.013026 0.18103 0.29494 0.0057746 0.0076093 0.00023843 -0.0018139
-0.000631 -0.00081929 -0.00027387 -0.00081217
-0.00094475 -0.0052564 0.0058146 0.0075839 0.33354 -0.11063 -0.0017343 0.0011014
-0.00041289 -0.0011666 8.5413e-05 -0.00066086
0.001633 0.0018665 0.00024052 -0.0018267 -0.0017211 0.0011138 0.235 0.092576
-0.010695 0.010024 0.0028386 0.00019985
-0.00029582 -0.0022667 -0.00063965 -0.00082084 -0.00041921 -0.0011587 -0.010686 0.010059
0.18845 0.15833 -0.0089557 0.0088847
-0.00021135 0.00050214 -0.00027598 -0.00081405 9.6548e-05 -0.00066451 0.0028338 0.0001968
-0.0089501 0.0088871 0.23851 0.22597
1640000000 0.30085 0.014935 0.00054381 0.010824 -0.0029981 -0.0029702 0.0027938 0.00082293
-0.00097979 -0.0015496 -0.00013308 0.00056465
0.00053883 0.010818 0.20948 0.26948 0.0060597 0.0028942 -0.001043 -0.0016252
-0.00094118 -0.000208 -0.00057538 -0.00059423
-0.0030034 -0.0029555 0.006081 0.0028656 0.30486 -0.15931 -0.00042398 0.0017307
-0.0013528 -0.00077038 -0.00029236 -0.00026864
0.0028123 0.00081509 -0.001038 -0.0016232 -0.00044903 0.0017371 0.24469 0.045049
-0.0055378 0.010686 0.002687 -0.0014096
-0.00099326 -0.0015448 -0.0009426 -0.0001989 -0.0013558 -0.00075925 -0.0055229 0.01071
0.21013 0.13258 -0.0037136 0.010568
-0.00013887 0.00056195 -0.00058015 -0.00059825 -0.00029694 -0.00027974 0.0026786 -0.0014182
-0.0037254 0.010568 0.26207 0.19338
1700000000 0.29173 -0.030591 0.0029938 0.0074598 -0.0038014 -7.636e-05 0.0029511 -0.0014606
-0.0021122 -0.00057708 0.00077887 0.00023484
0.0029815 0.0074472 0.22673 0.2379 0.0039753 2.4646e-05 -0.0015986 -0.0002872
-0.00062701 0.00011066 -0.00093139 -0.00036491
-0.0038033 -5.0612e-05 0.0039718 6.9112e-08 0.26217 -0.19953 0.0008213 0.0014514
-0.0019552 1.9457e-05 -0.00076659 -0.00076943
0.0029533 -0.0014722 -0.0016015 -0.00027948 0.00083564 0.0014671 0.23996 -0.0029202
-0.0022459 0.010242 0.0014562 -0.0025729
-0.0021105 -0.00056949 -0.00063001 0.00011176 -0.0019454 2.7944e-05 -0.0022308 0.01025
0.22609 0.11059 0.0011691 0.010387
0.0007803 0.00022418 -0.00092651 -0.00035955 -0.00077046 -0.00074625 0.001463 -0.0025906
0.0011598 0.010388 0.27629 0.15795
1760000000 0.27795 -0.078677 0.0041995 0.0041151 -0.0026176 0.00097816 0.00092115 -0.0036027
-0.0013865 0.0009012 0.00033609 -0.00057184
0.0041878 0.0041152 0.25182 0.19785 0.0015293 -0.0017365 -0.0011101 0.00044958
-0.00092095 0.0007703 -0.00059014 0.00049609
-0.0025979 0.00099311 0.0015242 -0.0017415 0.21276 -0.23338 0.0014644 0.00074051
-0.0010506 0.0018661 -0.0013143 -0.00015814
0.00091905 -0.0036076 -0.0011156 0.00045194 0.0014549 0.00072593 0.23002 -0.051812
0.00086113 0.0086029 -0.00043805 -0.0027902
-0.0013654 0.00088771 -0.00091008 0.00077533 -0.0010669 0.0018691 0.00087771 0.008603
0.23906 0.074216 0.0050094 0.0072946
0.0003341 -0.00057012 -0.00058302 0.00049952 -0.0013307 -0.00016394 -0.00044411 -0.0027873
0.0050039 0.0072819 0.28693 0.11961
1820000000 0.25189 -0.11509 0.0034667 0.0010411 -0.00034387 0.0025195 -0.0013995 -0.0028905
-0.00088087 0.0011477 -0.00017454 -7.7132e-05
0.0034615 0.0010417 0.26115 0.16802 -0.00060967 -0.00057291 -0.0010035 0.0010786
-8.9782e-05 0.0011844 -0.00047944 0.00059336
-0.00034253 0.0025198 -0.00061717 -0.000575 0.16207 -0.24937 0.0012463 -1.017e-06
0.0001694 0.0022141 -0.0012079 0.00073667
-0.0014186 -0.0028778 -0.001002 0.0010767 0.0012604 9.4272e-06 0.20093 -0.096533
0.0021371 0.0064601 -0.0017026 -0.0017661
-0.00088623 0.001161 -8.8586e-05 0.0011752 0.00017411 0.0022164 0.002157 0.0064634
0.25421 0.043983 0.006029 0.0033167
-0.00018094 -8.4882e-05 -0.00047966 0.00059233 -0.0012165 0.00072131 -0.0017024 -0.0017735
0.0060198 0.0033102 0.2872 0.082095
1880000000 0.21559 -0.15435 0.00075564 -0.00050385 -0.00068252 0.0022915 -0.0030828 -0.0017636
5.4259e-06 0.0016092 0.00020174 -0.00031675
0.00075728 -0.00049595 0.26515 0.12133 -0.0028804 0.0013665 7.4393e-05 0.0015455
0.0004642 0.0011583 0.00018702 0.00095329
-0.00067208 0.0023006 -0.0028732 0.0013762 0.10859 -0.25917 0.0013471 -0.0010543
0.0017301 0.0015349 -0.00068699 0.0014697
-0.0030896 -0.0017502 7.9832e-05 0.0015562 0.0013453 -0.0010493 0.16174 -0.1361
0.0023423 0.003904 -0.0025632 8.1314e-05
2.536e-05 0.0016154 0.00047697 0.0011585 0.0017251 0.0015365 0.0023505 0.0039025
0.25485 0.0099917 0.0055545 0.00075795
0.00019496 -0.00031532 0.00019265 0.00095465 -0.00067741 0.001445 -0.002562 8.7707e-05
0.0055392 0.00074727 0.28481 0.047554
1940000000 0.17576 -0.1791 -0.0015163 -0.0012669 0.0014394 0.0023883 -0.0035283 0.00084371
0.0015209 0.00094299 -0.00049656 -0.00036296
-0.0015209 -0.0012724 0.26495 0.089744 -0.0017206 0.0040148 0.0010129 0.0010098
0.0016646 0.00060714 0.00082413 0.00044963
0.0014551 0.0023798 -0.0017075 0.0040315 0.062198 -0.25172 0.00015939 -0.0016884
0.0023029 0.00012363 0.00052128 0.0015801
-0.0035004 0.00085633 0.001023 0.0010069 0.00015721 -0.0016919 0.11044 -0.16609
0.00097716 0.0024238 -0.0019338 0.0013437
0.0015388 0.00094002 0.0016668 0.00058742 0.0023213 0.00013555 0.00098021 0.0024193
0.25423 -0.029631 0.0039992 -0.0025946
-0.00051159 -0.00036774 0.00082476 0.00044302 0.00051558 0.0016015 -0.0019212 0.0013281
0.0039954 -0.0025958 0.272 0.010849
2000000000 0.12938 -0.19317 -0.0050449 0.0013938 0.0027479 0.0018076 -0.002103 0.0034791
0.0010494 -9.2606e-05 -0.0003367 0.00037023
-0.0050443 0.0013825 0.25058 0.054206 -0.0012841 0.006116 0.0014177 0.00011986
0.0014468 -0.0011476 0.0006584 7.8747e-05
0.0027565 0.0018047 -0.0012574 0.0061241 0.018538 -0.23695 -0.0010901 -0.00098412
0.0016629 -0.0011925 0.0019506 0.00087076
-0.00211 0.0035211 0.0014203 9.7139e-05 -0.0010942 -0.0010317 0.058142 -0.17692
-0.0011109 0.0021384 -0.00044787 0.002326
0.0010335 -9.5077e-05 0.0014334 -0.0011514 0.001657 -0.0011917 -0.0011 0.00214
0.24581 -0.063876 0.00053658 -0.0036147
