!Keysight Technologies,M9804A,MY58100912,A.14.10.03
!Date: Thursday, April 27, 2023 10:28:33
!Correction: S11(C  6-Port  ) 
!S12(C  6-Port  ) 
!S13(C  6-Port  ) 
!S14(C  6-Port  ) 
!S15(C  6-Port  ) 
!S16(C  6-Port  ) 
!S21(C  6-Port  ) 
!S22(C  6-Port  ) 
!S23(C  6-Port  ) 
!S24(C  6-Port  ) 
!S25(C  6-Port  ) 
!S26(C  6-Port  ) 
!S31(C  6-Port  ) 
!S32(C  6-Port  ) 
!S33(C  6-Port  ) 
!S34(C  6-Port  ) 
!S35(C  6-Port  ) 
!S36(C  6-Port  ) 
!S41(C  6-Port  ) 
!S42(C  6-Port  ) 
!S43(C  6-Port  ) 
!S44(C  6-Port  ) 
!S45(C  6-Port  ) 
!S46(C  6-Port  ) 
!S51(C  6-Port  ) 
!S52(C  6-Port  ) 
!S53(C  6-Port  ) 
!S54(C  6-Port  ) 
!S55(C  6-Port  ) 
!S56(C  6-Port  ) 
!S61(C  6-Port  ) 
!S62(C  6-Port  ) 
!S63(C  6-Port  ) 
!S64(C  6-Port  ) 
!S65(C  6-Port  ) 
!S66(C  6-Port  ) 
!S6P File: Measurement: :
# Hz S  RI   R 50
500000000 -0.3394 -0.020363 -0.011095 -0.0034915 -0.0080559 0.012875 -0.0035928 0.012587
0.011702 0.0044663 -0.0028998 0.0093707
-0.011079 -0.0034893 -0.42019 -0.036965 0.0062593 -0.011118 0.0013305 0.012732
0.0072085 0.0019765 0.0020523 0.013347
-0.0080473 0.012864 0.0062399 -0.011131 -0.26348 0.22174 0.0068741 0.0040634
-0.0011247 0.0079885 0.0019318 0.011932
-0.0035886 0.01258 0.0013342 0.012754 0.0068591 0.0040745 -0.33171 0.060492
-0.020066 -0.0066559 0.015338 0.02354
0.011715 0.0044233 0.0071832 0.0019651 -0.0011282 0.0080173 -0.020089 -0.0066285
-0.23504 -0.16753 -0.025918 0.0051578
-0.0028441 0.0093455 0.0020536 0.01339 0.0019237 0.011955 0.015351 0.023546
-0.025933 0.0051521 -0.2839 -0.084264
560000000 -0.31325 0.1362 -0.027347 -0.06053 0.0007709 0.011575 0.004891 0.010203
0.0089913 0.0043544 0.010319 0.0069997
-0.027281 -0.060486 -0.37618 0.11703 -0.041987 -0.034293 0.013457 0.0038752
-0.011629 -0.0037902 0.0024604 -0.00044602
0.00079549 0.01157 -0.042056 -0.034263 -0.18174 0.26752 4.1607e-05 -0.004642
0.018626 0.0047483 0.0069528 -0.0073765
0.0048928 0.010156 0.013436 0.0038731 4.7442e-05 -0.0046396 -0.30525 0.14704
0.0008152 -0.024429 0.0029541 -0.018219
0.0089845 0.0043612 -0.011638 -0.0038488 0.01868 0.0047809 0.00071118 -0.024449
-0.28867 0.0052458 0.0036741 -0.047371
0.010311 0.00697 0.0024743 -0.00045696 0.0069172 -0.0073725 0.0029854 -0.018261
0.0037019 -0.047359 -0.33059 0.056114
620000000 -0.2713 0.12167 -0.02382 0.0079667 0.0040745 0.0083904 0.0079512 -0.0059642
0.010723 -8.6922e-05 0.00073468 -0.0018991
-0.023795 0.0079622 -0.40173 0.072712 -0.019443 0.00050159 -0.00060891 -0.0024668
0.010131 -0.0060719 0.0016328 -0.0026851
0.0040672 0.008372 -0.019451 0.00052918 -0.14948 0.27687 -0.0010346 -0.0050678
-0.0028657 -0.0032067 0.0082881 -0.0038195
0.0079786 -0.005962 -0.00061447 -0.0024604 -0.0010302 -0.0050632 -0.26315 0.15958
-0.039983 -0.017093 0.012494 0.024874
0.010786 -5.4662e-05 0.010133 -0.0060745 -0.0029123 -0.00319 -0.039956 -0.017111
-0.21239 -0.032706 -0.040169 0.014677
0.00079464 -0.001904 0.0016458 -0.0026756 0.0082484 -0.0038624 0.012537 0.02484
-0.040165 0.014642 -0.25784 0.027513
680000000 -0.22851 0.20431 -0.027881 -0.011534 0.0056006 0.0045535 0.0010174 -0.0071591
-0.0030821 -0.011431 0.0040942 -0.0069346
-0.027855 -0.01154 -0.38455 0.1669 -0.032195 0.00045991 -0.0013797 -0.00069847
-0.0020531 -0.0091131 -0.0013711 -0.002281
0.005609 0.0045419 -0.032202 0.00051363 -0.09825 0.29437 -0.00079245 -0.00060349
-0.0015888 -3.6589e-05 -0.0036725 -0.0087632
0.00099886 -0.0071498 -0.0013763 -0.00069267 -0.00078508 -0.00060018 -0.21666 0.20705
-0.025788 -0.0047318 -0.0091834 -0.0075589
-0.0031054 -0.011412 -0.0020814 -0.0091 -0.0016025 -6.6167e-05 -0.025823 -0.0047772
-0.2517 0.066081 -0.0073135 -0.0067711
0.0041073 -0.0069497 -0.0013583 -0.0022825 -0.0036734 -0.0087573 -0.0091897 -0.007575
-0.0073247 -0.0067676 -0.25436 0.12266
740000000 -0.18459 0.19893 -0.03629 0.026666 0.012154 -0.0058582 -0.00071483 -0.0039191
-0.0053108 -0.003058 -0.0060672 0.0030183
-0.036289 0.026639 -0.33266 0.18669 -0.032948 0.035345 -0.0010333 -0.0064796
-0.011379 0.0079203 -0.0025289 -0.0050939
0.012129 -0.0058998 -0.032904 0.035417 -0.064868 0.29317 -0.0017328 0.0030699
-0.0031974 -0.0044621 -0.0022137 0.00095384
-0.00072476 -0.0039277 -0.0010312 -0.006485 -0.0017404 0.0030732 -0.19913 0.21589
-0.042285 -0.0027396 0.022446 0.012516
-0.0053559 -0.0030356 -0.01138 0.0079633 -0.0031781 -0.0044898 -0.042309 -0.0027024
-0.15724 0.086469 -0.040164 0.0038693
-0.0060408 0.0030378 -0.0025112 -0.0051034 -0.0022403 0.00096778 0.022453 0.01251
-0.040139 0.0038711 -0.24151 0.13307
800000000 -0.15006 0.23631 -0.020854 0.017597 0.0046465 -0.010721 -0.0043434 -0.0014564
-0.0034604 0.0025506 0.0037354 0.00084566
-0.020853 0.017581 -0.33295 0.25475 -0.0065343 0.033622 -0.0023581 0.0023346
-0.00075022 0.0035221 0.00094918 0.005485
0.0046294 -0.010719 -0.0064758 0.033641 -0.022185 0.31512 0.00070342 0.001708
0.00034784 0.0035614 -0.0016674 0.0013798
-0.0043525 -0.0014498 -0.0023586 0.0023477 0.00070774 0.0017136 -0.16912 0.24188
-0.026696 0.017016 0.012804 -0.010099
-0.0034375 0.0025362 -0.00072783 0.0035292 0.00034562 0.0035319 -0.026687 0.017076
-0.19583 0.11357 -0.01584 0.019443
0.0037309 0.00082205 0.00095948 0.005503 -0.00167 0.0013719 0.012835 -0.010113
-0.015842 0.019419 -0.22997 0.17843
860000000 -0.11522 0.25609 -0.015445 0.030917 -0.0036943 -0.0096616 -0.0020434 0.0012246
0.0044511 0.0049985 -0.0026183 -0.002251
-0.015447 0.03089 -0.28576 0.29553 0.0094005 0.033412 0.0001401 0.0020457
0.0043502 0.00048192 0.0030801 0.00056902
-0.0037039 -0.0096416 0.0094619 0.033388 0.025799 0.3223 -0.00037791 2.9176e-05
0.0025442 -0.0011845 0.0020287 0.0039046
-0.0020356 0.0012376 0.00016273 0.0020567 -0.00037361 3.3555e-05 -0.13243 0.2526
-0.015346 0.021247 -0.0053004 -0.0091168
0.0044762 0.0049988 0.0043374 0.00047453 0.0025609 -0.001186 -0.015338 0.021314
-0.1433 0.15902 -0.021115 0.017419
-0.0026515 -0.0022633 0.0030805 0.0005593 0.002015 0.0039058 -0.005315 -0.0091109
-0.021138 0.017425 -0.18078 0.21843
920000000 -0.08881 0.27727 0.0065314 0.036507 -0.0093324 -0.0041299 -0.0012274 0.0016996
0.001619 0.0015062 0.0027902 -0.0019675
0.0064896 0.036493 -0.25532 0.31615 0.028564 0.020371 0.0018996 0.00098963
0.0072697 -0.00052179 0.0039588 -0.0031002
-0.009337 -0.0041063 0.028616 0.020311 0.073336 0.32271 0.0020535 -0.0001431
0.0014787 -0.00049732 0.00091745 -0.0011505
-0.0012429 0.0016975 0.0019213 0.00098671 0.0020546 -0.00014457 -0.10606 0.2687
-0.0071179 0.031375 0.002453 -0.0065689
0.0016327 0.0014995 0.0072717 -0.00054617 0.0014796 -0.00048377 -0.0070695 0.031416
-0.1299 0.16618 0.00036687 0.025983
0.00279 -0.0019671 0.0039464 -0.0031216 0.00093875 -0.0011489 0.0024454 -0.006559
0.00035124 0.025956 -0.17943 0.23328
980000000 -0.041908 0.29487 0.018873 0.028284 -0.0086346 0.0046793 0.0020819 0.0029379
0.0039664 -0.0020167 -0.0031299 -0.0023134
0.018832 0.028265 -0.2035 0.34833 0.032952 0.0030412 0.0022222 -0.00037303
0.0016389 -0.0063899 -0.00055851 -0.0026772
-0.0086365 0.0046993 0.032981 0.0029494 0.12024 0.3147 0.00056633 -0.0013189
0.00013255 -0.0023893 0.0011988 -0.00048216
0.0020847 0.0029316 0.00223 -0.00035813 0.00057549 -0.001321 -0.066916 0.27789
0.011651 0.028896 -0.0082794 -0.0066365
0.0039559 -0.002023 0.001603 -0.0064198 0.00012265 -0.002392 0.01171 0.02889
-0.09754 0.1896 0.0065421 0.018362
-0.0031241 -0.0023124 -0.00058791 -0.0026523 0.0011679 -0.00047064 -0.0083084 -0.0066453
0.0065291 0.018348 -0.13653 0.27184
1040000000 0.00085987 0.30196 0.033291 0.015589 -0.001308 0.006617 0.0022472 0.00042096
1.5843e-05 -0.0032175 -0.00090125 -0.0015267
0.033247 0.015608 -0.16774 0.36178 0.028068 -0.016079 0.0013237 -0.0019778
-0.0024093 -0.0027632 -0.0015599 -0.0029212
-0.0012944 0.0066216 0.02803 -0.016171 0.16716 0.30017 -0.0006759 -0.0016132
-0.0015299 -0.00096131 -0.00059048 -0.0010256
0.0022353 0.00040561 0.0013365 -0.0019696 -0.00068021 -0.001615 -0.038328 0.2869
0.022137 0.015836 -0.0027128 0.00082808
2.1676e-05 -0.003229 -0.0024562 -0.0027679 -0.0015301 -0.00099148 0.022182 0.015801
-0.065397 0.196 0.014317 0.015647
-0.00088974 -0.0015202 -0.0015931 -0.0029111 -0.00059071 -0.0010294 -0.0027017 0.00082806
0.014303 0.015644 -0.11095 0.29158
1100000000 0.046157 0.30825 0.034628 -0.0061883 0.0026668 0.0037108 0.0020701 -0.00097672
-0.0020783 -0.0026993 -0.0036708 0.00065177
0.034596 -0.0061603 -0.12429 0.37807 0.013495 -0.028259 -0.00019616 -0.0017502
-0.0036275 -0.00047881 -0.0034719 -2.8628e-05
0.002674 0.0037048 0.013428 -0.028314 0.21454 0.27765 -0.0019678 0.0002667
-0.0019841 0.00062758 -0.00088265 -0.0001846
0.0020688 -0.00098356 -0.0002016 -0.0017551 -0.0019592 0.00027702 0.0032569 0.28961
0.025798 0.0018326 -0.0026781 8.154e-05
-0.0020955 -0.0026915 -0.0036463 -0.00047174 -0.0019915 0.00062386 0.025819 0.0017989
-0.046462 0.20743 0.018808 0.0062248
-0.0036699 0.0006614 -0.003486 -1.5394e-05 -0.00089348 -0.00020145 -0.0026721 8.5577e-05
0.018799 0.0062262 -0.06425 0.31552
1160000000 0.096695 0.3021 0.021923 -0.022135 0.0022338 -0.00027258 -0.0001088 -0.001917
-0.0039422 -0.00044585 -0.00077096 0.0038957
0.021924 -0.022091 -0.079889 0.38214 -0.0055137 -0.028513 -0.001677 -0.0014911
-0.002645 0.002694 -0.0014659 0.001839
0.0022277 -0.00026018 -0.0055989 -0.028516 0.25726 0.24445 -0.00077795 0.0018529
-0.00055611 0.00212 -0.00094604 0.00030237
-0.00011736 -0.0019226 -0.001675 -0.001485 -0.00077143 0.00186 0.042768 0.28458
0.020745 -0.0138 -0.0032072 0.0044613
-0.0039383 -0.00043126 -0.0026625 0.0027055 -0.00053851 0.0021258 0.020746 -0.013818
-0.01308 0.21399 0.017783 -0.0022678
-0.00076132 0.00389 -0.0014611 0.0018654 -0.00095296 0.00030704 -0.0031924 0.0044785
0.017778 -0.0022693 -0.017375 0.31602
1220000000 0.14153 0.28947 0.0078531 -0.029965 -0.0016902 -0.00025701 0.00024162 -0.00081554
-0.0023809 0.0023906 0.0014191 0.0019028
0.0078713 -0.029942 -0.035097 0.39307 -0.017911 -0.019855 -0.002426 0.00057974
0.00018419 0.0031249 -0.000426 0.0020163
-0.0017028 -0.00024761 -0.017968 -0.019816 0.29556 0.20336 0.00086039 0.0019579
0.0007073 0.0013386 0.00046535 0.00067336
0.0002379 -0.00082119 -0.0024287 0.00059526 0.00085983 0.0019587 0.08339 0.27375
0.0090001 -0.019996 0.0013122 0.0014007
-0.0023681 0.0024084 0.00018288 0.0031243 0.00071368 0.0013457 0.0089665 -0.020009
0.010901 0.22096 0.011942 -0.014386
0.0014284 0.0018899 -0.00042717 0.0020253 0.00047263 0.00066172 0.0013179 0.0013902
0.011938 -0.014388 0.016526 0.32746
1280000000 0.19049 0.26599 -0.0099339 -0.027191 -0.0015577 0.0030366 -0.00089077 -0.0019672
-0.00064268 0.0030487 0.0024643 0.00092403
-0.0099038 -0.02718 0.01116 0.38313 -0.02394 -0.0070641 -0.00094317 0.0014739
0.0018845 0.0017286 0.00091943 0.0018276
-0.001553 0.0030455 -0.023969 -0.0069943 0.32406 0.15779 0.0018125 -1.6442e-05
0.0012594 0.00021025 0.00039936 0.00023823
-0.00088982 -0.0019589 -0.00093821 0.0014711 0.0018024 -1.1015e-05 0.11939 0.25411
-0.0016037 -0.02124 -0.0008251 0.00052197
-0.00062359 0.0030514 0.0018919 0.0017308 0.0012624 0.00020586 -0.0016542 -0.021249
0.047112 0.22242 0.00095406 -0.016055
0.0024714 0.0009188 0.00093274 0.0018205 0.00039539 0.00023024 -0.00082304 0.00051666
0.00096245 -0.016058 0.062462 0.32542
1340000000 0.22706 0.23105 -0.018826 -0.016733 0.0015061 0.0045037 -0.0016795 -0.00094853
0.0015155 0.0026261 0.0015915 -0.0015377
-0.018795 -0.01673 0.050877 0.37331 -0.020978 0.0055661 -6.178e-05 0.0020497
0.0020497 0.00055932 0.00143 0.00063563
0.0015142 0.0044914 -0.020963 0.005643 0.34407 0.10964 0.0013214 -0.0011338
0.0007414 -0.00050225 0.00010375 0.00025297
-0.0016834 -0.00093352 -5.3496e-05 0.0020484 0.0013219 -0.0011246 0.15036 0.23173
-0.011602 -0.017024 0.00033832 0.0013652
0.0015335 0.0026164 0.0020482 0.00055191 0.00074784 -0.00050809 -0.011643 -0.017005
0.076709 0.21629 -0.0060821 -0.013569
0.0015695 -0.0015434 0.001439 0.00062897 0.00010625 0.00025355 0.00034329 0.0013633
-0.0060759 -0.01357 0.10127 0.31723
1400000000 0.2593 0.19143 -0.023102 -0.00508 0.0055375 0.0028294 -0.0021543 0.00060609
0.0024007 0.0008508 0.00010548 -0.0014822
-0.023075 -0.0050885 0.087787 0.35892 -0.013719 0.013072 0.0014004 0.0012921
0.0011718 -0.0010013 0.0010742 -1.1681e-05
0.0055409 0.0028104 -0.013681 0.013135 0.35616 0.056337 8.4783e-05 -0.0019936
5.8307e-05 -0.00045503 0.00034899 0.00021858
-0.0021479 0.00062074 0.0014085 0.0012852 8.5824e-05 -0.0019937 0.17813 0.20066
-0.017418 -0.0091188 -0.00037868 0.00079506
0.0024102 0.00083948 0.0011746 -0.0010168 5.8069e-05 -0.00044634 -0.017446 -0.0090843
0.10878 0.20933 -0.012002 -0.0076528
9.9066e-05 -0.0014837 0.001077 -1.5215e-05 0.00035569 0.00021403 -0.00037408 0.00079097
-0.011992 -0.0076642 0.14409 0.30246
1460000000 0.28068 0.14657 -0.01917 0.0064826 0.005667 -0.0023192 -0.0015427 0.0016827
0.0021674 -0.00068864 -0.00042472 -0.00089658
-0.019158 0.006468 0.12116 0.33588 -0.0049743 0.015201 0.0017698 9.1657e-05
0.00069008 -0.0013794 0.0010258 -0.00061385
0.0056629 -0.0023356 -0.0049254 0.015233 0.36067 0.0023893 -0.001587 -0.001399
8.7014e-05 -0.00018826 0.00065031 -0.00028083
-0.0015399 0.0016978 0.0017784 8.9811e-05 -0.0015963 -0.0014066 0.20149 0.17024
-0.018 -0.0011404 -1.5782e-05 0.0024237
0.0021723 -0.0006991 0.0006836 -0.0013875 9.5912e-05 -0.00019042 -0.018008 -0.0011051
0.13682 0.19303 -0.012958 -0.0012524
-0.00042448 -0.00090767 0.0010235 -0.00062027 0.00064731 -0.00028479 -1.1369e-05 0.0024239
-0.012947 -0.0012613 0.1759 0.27933
1520000000 0.29191 0.1038 -0.012793 0.011233 0.0030602 -0.0044292 0.00012901 0.0026109
0.0019586 -0.0017888 -0.0011371 1.8337e-05
-0.0128 0.011208 0.15382 0.32032 0.0022954 0.012622 0.0016761 -0.0009533
-0.00011923 -0.0010845 0.00021631 -0.00096721
0.0030399 -0.0044421 0.0023347 0.012619 0.35379 -0.053245 -0.0014388 -0.00019939
0.0004918 -0.00097579 2.5766e-05 -0.00019606
0.00012285 0.0026147 0.0016738 -0.00095851 -0.0014358 -0.00020081 0.22204 0.13227
-0.015952 0.0054275 0.0022819 0.0019813
0.0019533 -0.0018021 -0.00013089 -0.0010863 0.00049101 -0.00098097 -0.015954 0.0054696
0.16409 0.17752 -0.01208 0.0036131
-0.0011408 1.5531e-05 0.00020864 -0.0009669 2.2693e-05 -0.000193 0.002289 0.0019786
-0.012077 0.0035984 0.2075 0.25615
1580000000 0.29946 0.057078 -0.0061134 0.013284 -0.0011127 -0.0049234 0.0015644 0.0018504
-0.00025052 -0.0021949 -0.00019058 0.00038981
-0.0061149 0.013272 0.17996 0.2948 0.0055525 0.0076088 0.00036906 -0.0017747
-0.00059667 -0.00089049 -0.00029273 -0.00077542
-0.0011314 -0.0049224 0.0055896 0.0075897 0.33349 -0.11084 -0.0016393 0.0010591
-0.00044678 -0.001172 0.00011296 -0.0005597
0.0015595 0.0018442 0.00035705 -0.0017794 -0.0016408 0.001061 0.23306 0.093408
-0.011197 0.010204 0.0027593 0.00016651
-0.00025921 -0.0021996 -0.00061013 -0.00088797 -0.00045959 -0.0011813 -0.011186 0.010244
0.18688 0.15757 -0.0088878 0.0087021
-0.00019024 0.00039344 -0.00029711 -0.00077033 0.00011081 -0.00056315 0.0027642 0.00016201
-0.0088932 0.0087009 0.23688 0.22766
1640000000 0.29991 0.015551 0.00016416 0.011264 -0.0029298 -0.0025507 0.0027441 0.00082371
-0.00090823 -0.0015689 -0.00016556 0.00057187
0.00015674 0.011254 0.20841 0.26968 0.0058711 0.0030144 -0.0009646 -0.0016896
-0.00098953 -0.00025522 -0.00056122 -0.00051517
-0.0029397 -0.0025506 0.0058832 0.0029793 0.30452 -0.15946 -0.00051608 0.0016536
-0.0013008 -0.00080997 -0.00019338 -0.00025562
0.0027425 0.00081379 -0.00097277 -0.0016957 -0.00052308 0.0016522 0.24307 0.046683
-0.0058971 0.010986 0.0025992 -0.0013996
-0.00092331 -0.0015695 -0.00099477 -0.00024989 -0.0013042 -0.00081071 -0.0058647 0.011009
0.20779 0.13206 -0.0036501 0.010431
-0.00016364 0.0005737 -0.00055204 -0.00050919 -0.00019795 -0.00025522 0.002593 -0.0014055
-0.0036631 0.010435 0.26052 0.19518
1700000000 0.29096 -0.029751 0.0028723 0.0079137 -0.0035239 0.00021043 0.0029149 -0.0014573
-0.0021197 -0.00063411 0.00068587 0.00029395
0.0028612 0.0079117 0.22581 0.2383 0.0038049 0.00024708 -0.0015735 -0.00041514
-0.00064371 0.00011013 -0.00089238 -0.00034099
-0.0035219 0.00022276 0.0038092 0.00022743 0.26151 -0.19951 0.00084481 0.0014328
-0.001909 2.6569e-05 -0.00071676 -0.00074594
0.0029166 -0.0014651 -0.0015795 -0.00041492 0.00085317 0.001429 0.23915 -0.00082953
-0.0024702 0.010542 0.0013778 -0.002508
-0.0021247 -0.00061933 -0.00064551 0.00011309 -0.0019017 2.4791e-05 -0.0024496 0.010555
0.22351 0.11052 0.0011929 0.010171
0.00068778 0.00029501 -0.00089127 -0.00032352 -0.00071081 -0.00074226 0.0013802 -0.0025205
0.0011894 0.01017 0.27522 0.15979
1760000000 0.27733 -0.077483 0.0041237 0.0045553 -0.0023918 0.00084982 0.00091767 -0.0035087
-0.0014656 0.00087464 0.00036214 -0.00050345
0.0041147 0.0045377 0.25086 0.19832 0.0015502 -0.0016215 -0.0012283 0.00040145
-0.0009347 0.00082779 -0.00057123 0.00049932
-0.0023971 0.00086226 0.0015422 -0.0016302 0.21264 -0.2331 0.001295 0.00073152
-0.0010767 0.0017153 -0.0013639 -0.00018897
0.0009193 -0.0035059 -0.0012206 0.00040616 0.001289 0.00073299 0.23002 -0.049485
0.00068286 0.0089875 -0.00055779 -0.0026865
-0.0014654 0.000879 -0.00093479 0.00083215 -0.0010928 0.0017285 0.00070422 0.0089913
0.23601 0.074797 0.0049057 0.0070632
0.00036369 -0.00050967 -0.00056209 0.00050122 -0.0013612 -0.00019231 -0.00056142 -0.0026885
0.0049079 0.0070648 0.28589 0.12129
1820000000 0.25187 -0.11374 0.0036435 0.0014982 -0.0002143 0.0025641 -0.0013119 -0.0028378
-0.00099345 0.0011916 -0.00010162 -6.0555e-05
0.0036362 0.0014999 0.26038 0.16881 -0.00052554 -0.00038419 -0.0010492 0.0010986
3.8438e-06 0.0011743 -0.00044989 0.00056739
-0.00020461 0.0025633 -0.00052976 -0.00038257 0.16203 -0.24869 0.0013599 8.606e-05
0.00027422 0.0022264 -0.001253 0.00060086
-0.0013198 -0.0028274 -0.001048 0.0010955 0.0013636 8.8754e-05 0.20192 -0.094296
0.0020205 0.0069719 -0.0016679 -0.0016496
-0.0009792 0.0011957 7.8283e-06 0.0011675 0.00027448 0.0022142 0.0020358 0.0069628
0.2512 0.04548 0.0058346 0.0031047
-9.5256e-05 -5.8063e-05 -0.00044967 0.00056945 -0.0012501 0.00061118 -0.0016743 -0.0016411
0.0058505 0.0030987 0.28653 0.084009
1880000000 0.21601 -0.15331 0.0010964 -0.00012498 -0.00048387 0.0021857 -0.0030024 -0.001817
-5.0029e-05 0.0017473 0.000158 -0.00043935
0.0011027 -0.00011774 0.26456 0.12225 -0.0027601 0.0014832 5.9097e-05 0.0015835
0.00048956 0.0010302 0.00020389 0.00083206
-0.00047996 0.0021936 -0.0027352 0.0014966 0.1088 -0.25882 0.0013744 -0.0010879
0.0017382 0.0015185 -0.00069574 0.0013164
-0.0030003 -0.0018014 6.3883e-05 0.0015853 0.0013736 -0.0010925 0.16351 -0.13471
0.0024009 0.0046001 -0.0023849 0.00022724
-3.5664e-05 0.0017421 0.00048653 0.0010292 0.0017526 0.0015259 0.0024059 0.0045961
0.25209 0.012301 0.0053608 0.00069995
0.00015046 -0.00044105 0.00020582 0.00084061 -0.00069645 0.0013058 -0.002378 0.00023049
0.0053608 0.00068513 0.28451 0.049291
1940000000 0.17628 -0.17815 -0.0010494 -0.0010506 0.0016125 0.0021261 -0.0034926 0.00076789
0.0016216 0.0010007 -0.00057065 -0.00044264
-0.0010574 -0.0010444 0.26459 0.090878 -0.0014628 0.0040971 0.00099926 0.001049
0.0016137 0.00048352 0.00085827 0.00030458
0.0016127 0.0021221 -0.001441 0.0041112 0.062108 -0.25144 6.4787e-05 -0.0016488
0.0021843 4.7882e-05 0.00051737 0.00156
-0.0034943 0.00077496 0.0010039 0.0010449 6.7242e-05 -0.0016462 0.11258 -0.16576
0.0014544 0.0030221 -0.0017784 0.001374
0.0016227 0.00098225 0.0016044 0.00047326 0.0021757 4.3184e-05 0.0014706 0.0030045
0.25216 -0.026333 0.0037741 -0.0025051
-0.0005728 -0.00043919 0.00086503 0.00030533 0.00051149 0.0015508 -0.0017733 0.0013788
0.0037718 -0.0025041 0.27165 0.012604
2000000000 0.13007 -0.19267 -0.0044108 0.0012734 0.0027732 0.0015056 -0.0021297 0.0034009
0.0011782 -0.00015778 -0.00049433 0.00040116
-0.0044017 0.0012703 0.25068 0.055353 -0.0010917 0.0059625 0.0014729 0.00017626
0.0012469 -0.0010873 0.00039366 5.0241e-05
0.0027735 0.0014928 -0.0010701 0.0059758 0.018536 -0.23678 -0.00097625 -0.00094645
0.0016018 -0.0011029 0.0017027 0.0011268
-0.0021031 0.0034073 0.00149 0.00016027 -0.00097373 -0.00094867 0.059913 -0.17763
-0.00035603 0.0024782 -0.00029228 0.0022832
0.0011852 -0.00017121 0.0012425 -0.0010857 0.001617 -0.0011235 -0.00035206 0.0024791
0.24472 -0.060146 0.00030302 -0.0035318
