!Keysight Technologies,M9804A,MY58100912,A.14.10.03
!Date: Thursday, April 27, 2023 10:28:33
!Correction: S11(C  6-Port  ) 
!S12(C  6-Port  ) 
!S13(C  6-Port  ) 
!S14(C  6-Port  ) 
!S15(C  6-Port  ) 
!S16(C  6-Port  ) 
!S21(C  6-Port  ) 
!S22(C  6-Port  ) 
!S23(C  6-Port  ) 
!S24(C  6-Port  ) 
!S25(C  6-Port  ) 
!S26(C  6-Port  ) 
!S31(C  6-Port  ) 
!S32(C  6-Port  ) 
!S33(C  6-Port  ) 
!S34(C  6-Port  ) 
!S35(C  6-Port  ) 
!S36(C  6-Port  ) 
!S41(C  6-Port  ) 
!S42(C  6-Port  ) 
!S43(C  6-Port  ) 
!S44(C  6-Port  ) 
!S45(C  6-Port  ) 
!S46(C  6-Port  ) 
!S51(C  6-Port  ) 
!S52(C  6-Port  ) 
!S53(C  6-Port  ) 
!S54(C  6-Port  ) 
!S55(C  6-Port  ) 
!S56(C  6-Port  ) 
!S61(C  6-Port  ) 
!S62(C  6-Port  ) 
!S63(C  6-Port  ) 
!S64(C  6-Port  ) 
!S65(C  6-Port  ) 
!S66(C  6-Port  ) 
!S6P File: Measurement: :
# Hz S  RI   R 50
500000000 -0.3394 -0.020374 -0.011108 -0.0034801 -0.0080568 0.012876 -0.0036318 0.01261
0.011719 0.0044829 -0.0029172 0.0093808
-0.011077 -0.0034769 -0.4202 -0.036992 0.0062286 -0.011123 0.0013056 0.012654
0.0072175 0.001986 0.0020758 0.013322
-0.0080435 0.01288 0.0062176 -0.011156 -0.2635 0.22174 0.0068393 0.0040552
-0.0011058 0.0079811 0.0019079 0.011922
-0.0035735 0.0126 0.0013378 0.012735 0.0068502 0.0040654 -0.33171 0.060478
-0.020062 -0.0066406 0.015342 0.023506
0.01172 0.0043947 0.0071903 0.001976 -0.0011068 0.0080128 -0.020048 -0.0066376
-0.23505 -0.1675 -0.025917 0.0051683
-0.0028275 0.0093688 0.0020718 0.013351 0.0019154 0.011924 0.015355 0.023488
-0.025952 0.0051444 -0.28391 -0.084235
560000000 -0.31324 0.13619 -0.027363 -0.060526 0.00080407 0.011587 0.0048668 0.010088
0.0089754 0.0043342 0.010333 0.0069824
-0.027311 -0.060463 -0.37612 0.11704 -0.042019 -0.034301 0.013422 0.0039332
-0.011633 -0.0037681 0.0024509 -0.00045423
0.00079206 0.011577 -0.042109 -0.034268 -0.18174 0.26747 8.4017e-05 -0.0046189
0.018605 0.0047149 0.0069603 -0.0073702
0.0049093 0.010168 0.013446 0.0039095 5.2299e-05 -0.0046463 -0.3051 0.14712
0.00088457 -0.024407 0.0029247 -0.018221
0.0089997 0.0043724 -0.011662 -0.0038293 0.018664 0.0047496 0.0008621 -0.024413
-0.28865 0.0052203 0.0036615 -0.047348
0.010316 0.0069693 0.002495 -0.00043649 0.0069417 -0.0073684 0.0029052 -0.018219
0.0037087 -0.047343 -0.33057 0.056162
620000000 -0.27131 0.12169 -0.023818 0.007976 0.0040672 0.0083935 0.008011 -0.0059325
0.010665 -6.7408e-05 0.00071237 -0.0018956
-0.023796 0.0079708 -0.40171 0.072718 -0.019416 0.00047104 -0.00060765 -0.0024309
0.010115 -0.0060974 0.0016261 -0.0026834
0.0040855 0.0083703 -0.019434 0.00052884 -0.14943 0.27683 -0.0010089 -0.0050529
-0.0028796 -0.0032308 0.0082822 -0.0038384
0.0079438 -0.0059784 -0.0006192 -0.0024608 -0.0010158 -0.005052 -0.26309 0.15963
-0.040008 -0.017087 0.012475 0.024853
0.010844 -4.7343e-05 0.010142 -0.0060925 -0.0029308 -0.0032159 -0.040021 -0.017082
-0.21231 -0.032774 -0.040145 0.014685
0.0007989 -0.0018587 0.0016437 -0.0026807 0.0082808 -0.0038286 0.012443 0.024879
-0.040108 0.01463 -0.2578 0.027503
680000000 -0.22851 0.20435 -0.027877 -0.011538 0.0056137 0.0045443 0.0009963 -0.0071614
-0.0030874 -0.011423 0.0041079 -0.0069414
-0.027857 -0.011534 -0.38454 0.16693 -0.032184 0.00044071 -0.0013711 -0.00068928
-0.002055 -0.0091046 -0.0013678 -0.0022808
0.0056152 0.004535 -0.032193 0.00051074 -0.098251 0.29437 -0.00078787 -0.00058644
-0.0015832 -4.5165e-05 -0.0036714 -0.0087599
0.0010005 -0.0071395 -0.0013715 -0.00069405 -0.00078567 -0.00058481 -0.21659 0.20707
-0.025773 -0.0047045 -0.0091615 -0.0075783
-0.0030935 -0.011414 -0.0020895 -0.0091034 -0.0015977 -5.4178e-05 -0.025786 -0.0046809
-0.25169 0.066101 -0.0073297 -0.0067527
0.0040882 -0.0069435 -0.0013594 -0.0022832 -0.0036822 -0.008749 -0.0092027 -0.0075811
-0.007343 -0.006769 -0.25438 0.1227
740000000 -0.18458 0.19898 -0.036297 0.026652 0.012133 -0.0058772 -0.00072385 -0.0039398
-0.0053514 -0.0030615 -0.0060454 0.0030293
-0.036287 0.026641 -0.33263 0.18668 -0.032932 0.035331 -0.00102 -0.0064658
-0.011351 0.0079304 -0.002532 -0.0051071
0.012127 -0.0058856 -0.032882 0.035413 -0.06482 0.29316 -0.0017465 0.003095
-0.0031799 -0.0044251 -0.0022112 0.00094709
-0.00071838 -0.0039299 -0.0010469 -0.0064941 -0.0017382 0.0030771 -0.19912 0.21586
-0.042284 -0.002756 0.022448 0.012512
-0.0053345 -0.0030279 -0.011388 0.007964 -0.0031847 -0.0044695 -0.042317 -0.0027069
-0.15722 0.086466 -0.040161 0.0038641
-0.006044 0.003061 -0.0025075 -0.0051018 -0.0022257 0.00095108 0.022472 0.012497
-0.040105 0.0038199 -0.24153 0.13313
800000000 -0.15005 0.23634 -0.020835 0.017594 0.0046311 -0.010716 -0.0043494 -0.0014457
-0.0034591 0.0025641 0.0037293 0.00084311
-0.020833 0.017576 -0.33297 0.25476 -0.0065474 0.033615 -0.0023522 0.0023379
-0.00076699 0.0035147 0.00094119 0.005474
0.0046282 -0.010725 -0.0064781 0.033638 -0.022184 0.31512 0.00070363 0.0017027
0.00034311 0.0035582 -0.0016729 0.0013835
-0.0043464 -0.0014447 -0.0023479 0.0023377 0.00071286 0.0017074 -0.16909 0.24187
-0.026724 0.016984 0.01279 -0.010103
-0.0034311 0.0025302 -0.00072448 0.0035369 0.00035021 0.0035489 -0.026717 0.017057
-0.19584 0.11364 -0.015847 0.019426
0.003735 0.00081643 0.00096587 0.0054931 -0.0016788 0.001386 0.012784 -0.010127
-0.015855 0.019386 -0.22993 0.17853
860000000 -0.11522 0.25609 -0.01542 0.030918 -0.0037021 -0.0096486 -0.002035 0.0012281
0.0044321 0.0049899 -0.0026307 -0.0022533
-0.015443 0.03089 -0.28575 0.29555 0.009386 0.033389 0.00019036 0.002052
0.0043568 0.00046344 0.0030837 0.00056223
-0.0037067 -0.0096425 0.0094616 0.033384 0.025794 0.3223 -0.00037359 4.1751e-05
0.0025598 -0.00119 0.002026 0.0038973
-0.0020259 0.0012304 0.00015603 0.0020543 -0.00037283 3.1804e-05 -0.13245 0.25263
-0.015357 0.021242 -0.0052913 -0.0091285
0.0044812 0.0049928 0.0043519 0.00048556 0.0025596 -0.0011966 -0.015334 0.021287
-0.1433 0.15906 -0.021107 0.017408
-0.0026323 -0.0022638 0.0030796 0.00056281 0.002028 0.0039018 -0.0053027 -0.0091185
-0.021129 0.017401 -0.18074 0.21856
920000000 -0.088811 0.2773 0.0065432 0.03651 -0.0093417 -0.0041273 -0.0012405 0.0016975
0.0016204 0.0015126 0.002792 -0.001967
0.0065148 0.036491 -0.25533 0.31612 0.028559 0.020365 0.0018997 0.00098572
0.0072602 -0.00052247 0.0039515 -0.0031134
-0.0093353 -0.0041085 0.028624 0.020306 0.07333 0.3227 0.002058 -0.00014895
0.0014785 -0.00051023 0.00091887 -0.0011519
-0.001234 0.0016956 0.0019157 0.00099245 0.0020551 -0.00014675 -0.10606 0.26871
-0.0071218 0.031378 0.0024475 -0.0065656
0.0016263 0.0014955 0.0072697 -0.00055491 0.0014763 -0.00049239 -0.0070769 0.031421
-0.12989 0.16619 0.00034881 0.025961
0.002771 -0.0019785 0.003944 -0.0031197 0.00092464 -0.0011533 0.0024493 -0.0065937
0.00030923 0.025952 -0.1794 0.23337
980000000 -0.041901 0.29487 0.018882 0.028288 -0.0086483 0.0046856 0.0020868 0.0029452
0.0039826 -0.0020153 -0.0031181 -0.0023173
0.018847 0.028281 -0.2035 0.34832 0.032946 0.0030417 0.002216 -0.0003627
0.0016265 -0.006395 -0.00055322 -0.0026747
-0.0086295 0.0046982 0.032986 0.0029523 0.12023 0.31469 0.00055997 -0.0013185
0.00013605 -0.0023891 0.0011911 -0.00048056
0.0020866 0.0029342 0.0022304 -0.00035778 0.00056597 -0.0013172 -0.066938 0.27788
0.011641 0.028906 -0.0082717 -0.0066257
0.003944 -0.002026 0.0016044 -0.0064211 0.00012474 -0.0023938 0.011702 0.028903
-0.09757 0.18961 0.0065605 0.018359
-0.003142 -0.0023152 -0.00059683 -0.0026575 0.0011832 -0.00047936 -0.0082792 -0.0065971
0.006538 0.018334 -0.13649 0.27184
1040000000 0.00084971 0.30197 0.033304 0.015583 -0.0013188 0.0066142 0.0022455 0.00040716
2.3348e-05 -0.0032084 -0.00090481 -0.0015274
0.033271 0.015602 -0.16773 0.36177 0.028061 -0.016081 0.0013242 -0.0019763
-0.0024258 -0.0027418 -0.0015698 -0.002919
-0.001303 0.0066272 0.028032 -0.016176 0.16715 0.30015 -0.00067186 -0.0016014
-0.0015349 -0.00095501 -0.00058473 -0.0010187
0.0022359 0.00040456 0.0013381 -0.0019638 -0.00067716 -0.0016062 -0.038341 0.28691
0.022123 0.015846 -0.0027138 0.00084056
7.8484e-06 -0.0032311 -0.0024591 -0.0027659 -0.0015307 -0.00096832 0.022169 0.01582
-0.065399 0.19602 0.014305 0.015656
-0.00089189 -0.0015121 -0.0015898 -0.0028978 -0.00059488 -0.0010232 -0.0027132 0.00084163
0.014303 0.015651 -0.1109 0.29161
1100000000 0.046168 0.30826 0.034633 -0.0061947 0.0026607 0.0037173 0.0020804 -0.00096671
-0.0020801 -0.0027018 -0.0036742 0.00065961
0.034609 -0.0061744 -0.1243 0.37807 0.013472 -0.028232 -0.00019736 -0.0017547
-0.0036249 -0.00047209 -0.003478 -3.1512e-05
0.0026668 0.0037111 0.013425 -0.028316 0.21451 0.27764 -0.0019669 0.00027686
-0.0019844 0.00062456 -0.00088574 -0.00017997
0.0020707 -0.00097907 -0.00019 -0.0017454 -0.0019666 0.00027597 0.003232 0.28964
0.02579 0.0018412 -0.0026684 9.5132e-05
-0.0020956 -0.002686 -0.003636 -0.00046397 -0.001986 0.00062934 0.025811 0.0018082
-0.046478 0.20745 0.018813 0.0062205
-0.0036661 0.00067178 -0.0034802 -1.0864e-05 -0.00088925 -0.00018035 -0.0026711 0.00010659
0.018802 0.0062286 -0.064188 0.31555
1160000000 0.096691 0.30209 0.021931 -0.022128 0.002235 -0.00026665 -0.0001148 -0.0019153
-0.003932 -0.00045039 -0.00076824 0.0038941
0.021944 -0.022105 -0.079887 0.38216 -0.0055094 -0.028478 -0.0016568 -0.001489
-0.0026527 0.0026966 -0.001467 0.0018433
0.0022197 -0.0002766 -0.0056004 -0.028521 0.25725 0.24447 -0.00076726 0.0018636
-0.00054876 0.0021059 -0.00094232 0.00030821
-0.00011349 -0.0019272 -0.0016674 -0.0014777 -0.00076964 0.0018613 0.042767 0.28462
0.02075 -0.01378 -0.0031983 0.0044675
-0.0039476 -0.00042773 -0.0026393 0.0027077 -0.00054886 0.0021205 0.020742 -0.013814
-0.013095 0.21401 0.017781 -0.0022815
-0.00075229 0.0039003 -0.0014592 0.0018612 -0.00094492 0.0003102 -0.003188 0.0044599
0.01777 -0.0022771 -0.017358 0.31599
1220000000 0.14154 0.28946 0.0078611 -0.029963 -0.0016828 -0.0002546 0.00024206 -0.00081414
-0.0023797 0.0024024 0.001422 0.0019061
0.0078667 -0.029941 -0.035088 0.39308 -0.017894 -0.019819 -0.0024318 0.00058245
0.00018344 0.0031206 -0.00042386 0.0020145
-0.0016924 -0.00024326 -0.01797 -0.019812 0.29554 0.20337 0.00085672 0.0019578
0.00071281 0.0013492 0.00046609 0.00066608
0.0002464 -0.00081946 -0.0024271 0.00059322 0.00085755 0.0019526 0.083388 0.27377
0.0089925 -0.019978 0.0013159 0.001394
-0.0023696 0.002405 0.00019702 0.003126 0.00070993 0.0013384 0.0089623 -0.019994
0.010896 0.22101 0.011956 -0.014378
0.0014269 0.001899 -0.00042224 0.0020092 0.0004675 0.00067953 0.0013195 0.0014058
0.011954 -0.014378 0.016529 0.32745
1280000000 0.1905 0.266 -0.0099394 -0.027195 -0.0015464 0.0030307 -0.00088669 -0.0019681
-0.00063868 0.0030446 0.0024708 0.00092804
-0.0099207 -0.027178 0.011161 0.38313 -0.023897 -0.0070381 -0.00093857 0.0014659
0.001884 0.0017297 0.00092783 0.0018271
-0.0015459 0.0030379 -0.023967 -0.0069823 0.32407 0.15781 0.0018008 -2.3485e-05
0.0012598 0.00021473 0.0003977 0.00024332
-0.00089318 -0.0019616 -0.00093665 0.0014707 0.0018021 -1.6182e-05 0.1194 0.25415
-0.0015965 -0.021209 -0.00081543 0.00051356
-0.00061956 0.0030441 0.0018905 0.0017238 0.0012642 0.00020808 -0.0016358 -0.021224
0.047156 0.22247 0.00096404 -0.016061
0.0024663 0.00090923 0.00092988 0.0018207 0.00040053 0.00023775 -0.0008191 0.00052151
0.00097153 -0.016051 0.062514 0.3254
1340000000 0.22706 0.23105 -0.018837 -0.016733 0.0015092 0.004476 -0.0016837 -0.00093341
0.001515 0.0026246 0.0015847 -0.0015467
-0.018802 -0.016732 0.050906 0.37329 -0.020933 0.0055756 -7.2413e-05 0.0020512
0.0020325 0.00055922 0.001431 0.00063158
0.001515 0.0044929 -0.020961 0.0056406 0.3441 0.10964 0.0013243 -0.0011393
0.00073021 -0.00050712 0.00010088 0.00025546
-0.0016843 -0.00093879 -5.9007e-05 0.0020529 0.001322 -0.0011309 0.1504 0.23175
-0.01159 -0.016994 0.00033744 0.0013607
0.0015316 0.0026219 0.0020386 0.00054857 0.00074207 -0.0005084 -0.011625 -0.016988
0.076803 0.21633 -0.0060772 -0.013569
0.0015746 -0.0015498 0.0014434 0.00062509 0.00010507 0.00025616 0.00033967 0.001357
-0.0060726 -0.01358 0.10132 0.31725
1400000000 0.25931 0.19144 -0.023106 -0.0050656 0.0055343 0.0027995 -0.00215 0.0006114
0.0024071 0.00084447 0.00010215 -0.001481
-0.023075 -0.0050861 0.087787 0.35891 -0.013685 0.013063 0.0014003 0.0012925
0.0011639 -0.0009944 0.0010735 -1.3717e-05
0.0055437 0.0028069 -0.013685 0.013134 0.35621 0.056314 8.1315e-05 -0.0019929
5.9601e-05 -0.00045266 0.0003462 0.00021262
-0.0021563 0.00061868 0.0014162 0.0012854 8.1284e-05 -0.0019926 0.17818 0.20068
-0.01739 -0.0091025 -0.00037632 0.00078666
0.0023981 0.00084631 0.0011627 -0.0010144 5.8303e-05 -0.00045191 -0.01742 -0.0090697
0.10891 0.20933 -0.012002 -0.0076633
0.00010435 -0.0014861 0.0010806 -8.504e-06 0.00034945 0.00021223 -0.00037788 0.00079352
-0.011997 -0.0076782 0.14419 0.30244
1460000000 0.28068 0.14658 -0.019176 0.0064902 0.0056608 -0.0023274 -0.0015333 0.0016907
0.0021711 -0.00068451 -0.00042425 -0.00089855
-0.019162 0.0064736 0.12118 0.33587 -0.004956 0.01517 0.0017783 0.00010295
0.00068994 -0.0013803 0.0010259 -0.00060994
0.0056569 -0.002341 -0.0049251 0.015226 0.3607 0.0023673 -0.0015735 -0.0013952
8.8503e-05 -0.00018881 0.0006497 -0.00028316
-0.0015395 0.0016945 0.0017795 9.1964e-05 -0.0015839 -0.0013965 0.20154 0.17025
-0.01796 -0.0011447 -2.1917e-05 0.0024132
0.0021652 -0.00070025 0.00068087 -0.0013818 9.4228e-05 -0.00018965 -0.017971 -0.0011112
0.13691 0.19296 -0.012957 -0.0012593
-0.00042892 -0.00089501 0.0010294 -0.00061298 0.00064763 -0.00028987 -6.4829e-06 0.0024092
-0.01296 -0.0012773 0.17599 0.27928
1520000000 0.29191 0.1038 -0.012796 0.011238 0.0030461 -0.0044288 0.00012266 0.002606
0.0019492 -0.0017931 -0.0011379 1.6072e-05
-0.01279 0.011207 0.15381 0.32026 0.0022856 0.012585 0.0016866 -0.00095824
-0.00012264 -0.0010804 0.00021876 -0.00096508
0.0030469 -0.0044406 0.0023362 0.012621 0.35378 -0.053317 -0.0014409 -0.00018728
0.00048877 -0.00097836 2.4882e-05 -0.00019566
0.00013201 0.0026137 0.0016756 -0.00096116 -0.0014378 -0.00019194 0.22209 0.13225
-0.015922 0.0054058 0.0022745 0.0019864
0.0019472 -0.0018012 -0.00013156 -0.0010833 0.0004881 -0.00097811 -0.015915 0.0054382
0.16415 0.17746 -0.012092 0.0036059
-0.0011385 2.1503e-05 0.00020859 -0.00096689 2.3026e-05 -0.00019571 0.0022767 0.0019831
-0.012096 0.0036071 0.20755 0.25613
1580000000 0.29947 0.057071 -0.0061041 0.013284 -0.0011362 -0.0049139 0.0015566 0.0018555
-0.00024861 -0.0021927 -0.00018989 0.00038948
-0.0061081 0.013274 0.17995 0.29479 0.00554 0.0075737 0.00036642 -0.001778
-0.00059413 -0.00088602 -0.00029069 -0.00077651
-0.001134 -0.0049195 0.005585 0.0075808 0.33343 -0.11086 -0.0016437 0.0010632
-0.00044712 -0.0011782 0.00011008 -0.00055836
0.001568 0.0018434 0.00036177 -0.0017779 -0.0016301 0.0010544 0.23309 0.093366
-0.011176 0.010162 0.0027491 0.0001717
-0.0002551 -0.0021994 -0.00060753 -0.00088424 -0.00044882 -0.0011765 -0.011172 0.010199
0.18688 0.15747 -0.0089007 0.0087018
-0.00018965 0.00039277 -0.00029707 -0.00077078 0.00010868 -0.00056124 0.0027584 0.00015871
-0.0089026 0.0087075 0.23692 0.22763
1640000000 0.29992 0.015534 0.00017223 0.011256 -0.0029384 -0.0025472 0.0027394 0.00081891
-0.00090401 -0.0015669 -0.00016482 0.00056955
0.00016112 0.011255 0.20841 0.26966 0.0058475 0.0029931 -0.00096249 -0.00169
-0.00099295 -0.00025734 -0.00055474 -0.00051031
-0.0029384 -0.0025536 0.0058818 0.0029877 0.30451 -0.15949 -0.00052419 0.0016474
-0.0013011 -0.00081811 -0.00019258 -0.00025138
0.002733 0.00081615 -0.00097537 -0.0016855 -0.00052668 0.0016581 0.24307 0.046638
-0.0059118 0.010947 0.0025986 -0.0014022
-0.0009094 -0.0015635 -0.00099405 -0.00025307 -0.0013062 -0.00082129 -0.0058964 0.010969
0.20775 0.13201 -0.0036534 0.010436
-0.00016272 0.00057144 -0.00055843 -0.00051277 -0.00019362 -0.0002523 0.0025924 -0.0014109
-0.0036637 0.010442 0.26055 0.19516
1700000000 0.29096 -0.029758 0.0028769 0.0079064 -0.0035194 0.00022442 0.0029161 -0.0014591
-0.0021077 -0.00063856 0.00068622 0.00029025
0.0028674 0.0079084 0.22579 0.23829 0.0037677 0.00024918 -0.0015815 -0.00041738
-0.00064725 0.00011213 -0.00089194 -0.00033243
-0.0035162 0.0002232 0.0038125 0.00023296 0.26141 -0.19952 0.00083906 0.001438
-0.0019052 2.8261e-05 -0.00071742 -0.00074637
0.0029156 -0.0014711 -0.0015724 -0.00041667 0.00083969 0.0014372 0.23914 -0.00085213
-0.0024973 0.01052 0.0013787 -0.0025197
-0.0021216 -0.00062135 -0.00064571 0.00011186 -0.0019088 3.0327e-05 -0.0024842 0.010526
0.22345 0.11051 0.0011957 0.010178
0.00068819 0.00029016 -0.00089513 -0.00032746 -0.000723 -0.00074601 0.001368 -0.0025145
0.001193 0.010181 0.27526 0.15977
1760000000 0.27734 -0.077491 0.0041211 0.0045361 -0.002397 0.00086351 0.00091559 -0.0035065
-0.0014704 0.0008717 0.0003593 -0.00050451
0.0041098 0.0045329 0.25086 0.19832 0.0015205 -0.0016071 -0.0012207 0.00040733
-0.0009398 0.00082888 -0.00056847 0.00049831
-0.0023988 0.00086617 0.0015509 -0.0016308 0.21263 -0.23305 0.0012977 0.00072834
-0.0010802 0.0017208 -0.0013652 -0.00018767
0.00090704 -0.0035111 -0.0012145 0.0004093 0.00129 0.00073283 0.23 -0.049486
0.0006454 0.0089854 -0.00055457 -0.0026831
-0.0014621 0.00086807 -0.00093145 0.00082821 -0.0010863 0.0017278 0.00065781 0.0089869
0.23592 0.074807 0.0049147 0.0070836
0.00035927 -0.00050948 -0.00056363 0.00050339 -0.0013676 -0.00018505 -0.0005577 -0.0026841
0.0049137 0.007082 0.28589 0.12128
1820000000 0.25186 -0.11377 0.0036405 0.0014887 -0.00020191 0.0025728 -0.0013076 -0.0028338
-0.00098866 0.0011927 -0.00010136 -6.6718e-05
0.0036393 0.0014928 0.26038 0.1688 -0.00054419 -0.00036219 -0.0010479 0.0010986
5.2436e-06 0.0011765 -0.00045619 0.00056455
-0.00020964 0.0025647 -0.00052092 -0.00038335 0.16199 -0.24869 0.0013476 9.4917e-05
0.00027603 0.0022336 -0.0012619 0.00060538
-0.0013147 -0.0028291 -0.0010446 0.0010977 0.0013701 0.00010092 0.20188 -0.094297
0.001975 0.0069817 -0.0016743 -0.0016383
-0.0009782 0.0011983 8.8764e-07 0.0011745 0.00027923 0.0022258 0.0019923 0.0069927
0.25115 0.045564 0.0058517 0.0031116
-9.9129e-05 -5.7623e-05 -0.00044776 0.00056816 -0.0012541 0.0006061 -0.0016845 -0.0016239
0.005854 0.003108 0.28654 0.083981
1880000000 0.21602 -0.15333 0.0011033 -0.00013268 -0.00047744 0.0021841 -0.0029964 -0.0018161
-5.0694e-05 0.0017347 0.00015754 -0.00044033
0.0010934 -0.00012672 0.26456 0.12224 -0.0027445 0.0015165 5.7715e-05 0.0015855
0.00049064 0.0010292 0.00020136 0.00083446
-0.00048308 0.002182 -0.0027406 0.0014987 0.10883 -0.25875 0.0013864 -0.0010937
0.0017365 0.0015155 -0.00070236 0.0013181
-0.0030018 -0.0018102 6.6889e-05 0.0015813 0.0013847 -0.0010914 0.16349 -0.13469
0.002365 0.0046237 -0.0023824 0.00023448
-2.8535e-05 0.0017425 0.00049187 0.0010312 0.0017537 0.0015108 0.0023809 0.004622
0.2521 0.012352 0.0053729 0.00069746
0.000157 -0.00044646 0.00020809 0.00083559 -0.00069577 0.0013163 -0.0023726 0.00023567
0.0053693 0.00069699 0.28453 0.049255
1940000000 0.17628 -0.17817 -0.0010685 -0.0010448 0.0016171 0.0021288 -0.0034874 0.00078346
0.0016198 0.00099521 -0.00057544 -0.00044397
-0.0010656 -0.0010476 0.2646 0.090861 -0.0014555 0.0041276 0.0010013 0.0010521
0.0016126 0.00048507 0.00086118 0.00030816
0.0016217 0.0021261 -0.0014406 0.004102 0.062109 -0.25145 6.9001e-05 -0.0016581
0.0021866 3.5626e-05 0.00051994 0.0015692
-0.0034907 0.00078145 0.0010006 0.0010458 6.8518e-05 -0.0016531 0.11258 -0.16576
0.0014449 0.003051 -0.0017745 0.0013924
0.0016354 0.00098299 0.0016231 0.00047272 0.0021866 3.5376e-05 0.0014551 0.0030452
0.25219 -0.026289 0.0037802 -0.0025232
-0.00057063 -0.0004368 0.00086376 0.0003014 0.00052526 0.0015618 -0.001774 0.0013857
0.0037717 -0.0025172 0.27166 0.012566
2000000000 0.13004 -0.19267 -0.004413 0.0012759 0.0027808 0.0015137 -0.0021279 0.0034138
0.0011792 -0.00015225 -0.00049056 0.00040084
-0.004409 0.0012689 0.25068 0.055336 -0.0010827 0.0059946 0.0014811 0.00017205
0.0012434 -0.001093 0.00039009 4.9953e-05
0.0027746 0.0014888 -0.0010569 0.0059727 0.018547 -0.23671 -0.00099705 -0.00092456
0.0015937 -0.0011035 0.001694 0.0011232
-0.0021063 0.0034095 0.0014806 0.00016192 -0.00099311 -0.00093526 0.059897 -0.17761
-0.00034913 0.0025111 -0.00029583 0.0022848
0.001183 -0.00016173 0.00124 -0.0010974 0.0015909 -0.0011158 -0.00034267 0.0025182
0.24483 -0.060162 0.0003059 -0.0035351
