!Keysight Technologies,M9804A,MY58100912,A.14.10.03
!Date: Thursday, April 27, 2023 10:28:33
!Correction: S11(C  6-Port  ) 
!S12(C  6-Port  ) 
!S13(C  6-Port  ) 
!S14(C  6-Port  ) 
!S15(C  6-Port  ) 
!S16(C  6-Port  ) 
!S21(C  6-Port  ) 
!S22(C  6-Port  ) 
!S23(C  6-Port  ) 
!S24(C  6-Port  ) 
!S25(C  6-Port  ) 
!S26(C  6-Port  ) 
!S31(C  6-Port  ) 
!S32(C  6-Port  ) 
!S33(C  6-Port  ) 
!S34(C  6-Port  ) 
!S35(C  6-Port  ) 
!S36(C  6-Port  ) 
!S41(C  6-Port  ) 
!S42(C  6-Port  ) 
!S43(C  6-Port  ) 
!S44(C  6-Port  ) 
!S45(C  6-Port  ) 
!S46(C  6-Port  ) 
!S51(C  6-Port  ) 
!S52(C  6-Port  ) 
!S53(C  6-Port  ) 
!S54(C  6-Port  ) 
!S55(C  6-Port  ) 
!S56(C  6-Port  ) 
!S61(C  6-Port  ) 
!S62(C  6-Port  ) 
!S63(C  6-Port  ) 
!S64(C  6-Port  ) 
!S65(C  6-Port  ) 
!S66(C  6-Port  ) 
!S6P File: Measurement: :
# Hz S  RI   R 50
500000000 -0.33964 -0.020639 -0.011408 -0.0032538 -0.0079106 0.012915 -0.0040712 0.012272
0.011711 0.0045599 -0.0027387 0.0093223
-0.011383 -0.0036506 -0.41964 -0.038993 0.0056462 -0.011192 0.0015311 0.012426
0.0071516 0.0019519 0.0019576 0.01344
-0.0078824 0.012693 0.0061675 -0.011956 -0.2636 0.22205 0.0069766 0.0040217
-0.0011681 0.0079513 0.0019085 0.011965
-0.0035671 0.012155 0.0017699 0.012974 0.0066623 0.0039192 -0.33168 0.060741
-0.020136 -0.0068075 0.015272 0.023503
0.011391 0.0048022 0.007103 0.0024067 -0.00064051 0.0078564 -0.020018 -0.0071356
-0.23498 -0.16779 -0.025901 0.0051059
-0.0030869 0.0088363 0.0015422 0.014283 0.0017924 0.011836 0.015098 0.023869
-0.026037 0.0049229 -0.2838 -0.084433
560000000 -0.31411 0.13559 -0.026543 -0.060911 0.0011413 0.011964 0.0056351 0.0094881
0.0090199 0.0042976 0.010228 0.0069048
-0.027176 -0.060992 -0.37617 0.11819 -0.043441 -0.033411 0.013083 0.0039444
-0.011605 -0.0036485 0.002476 -0.00048636
0.00077289 0.012064 -0.043156 -0.034847 -0.18132 0.26573 0.00012955 -0.0044108
0.01858 0.0047674 0.00696 -0.0073411
0.0055081 0.009658 0.013121 0.0029806 -8.8412e-05 -0.0042828 -0.30545 0.14847
0.00083163 -0.024445 0.0030233 -0.01827
0.0090305 0.0050391 -0.012163 -0.0048267 0.018466 0.0034512 0.0011607 -0.023983
-0.289 0.0046656 0.003609 -0.047507
0.010609 0.0062779 0.004178 -0.0010253 0.0074879 -0.0066721 0.0025314 -0.018494
0.0038129 -0.047247 -0.33049 0.056056
620000000 -0.27123 0.12165 -0.023709 0.007732 0.003923 0.0085233 0.0078649 -0.005427
0.010483 -0.00031958 0.00087226 -0.0019343
-0.023852 0.0076404 -0.40167 0.072456 -0.019451 0.00058483 -0.00066797 -0.0022511
0.01011 -0.0059882 0.0016052 -0.0027039
0.0041063 0.0083942 -0.019431 0.00072773 -0.14957 0.27659 -0.00095486 -0.0049388
-0.0027547 -0.0031127 0.0082954 -0.0038295
0.0079823 -0.0052684 -0.00084064 -0.0024492 -0.0009901 -0.0048414 -0.26356 0.16018
-0.040186 -0.01702 0.012612 0.02498
0.010952 -0.0014225 0.010381 -0.0061559 -0.0030139 -0.002888 -0.040417 -0.017603
-0.21243 -0.033238 -0.040551 0.014671
0.00059332 -0.0022615 0.0018255 -0.0032041 0.0081359 -0.0038447 0.011552 0.023108
-0.039791 0.014545 -0.25806 0.027468
680000000 -0.22838 0.20384 -0.027819 -0.011506 0.0056858 0.0046138 0.0013286 -0.0072871
-0.0030513 -0.011546 0.0040666 -0.0069381
-0.027862 -0.011631 -0.38484 0.16688 -0.032233 0.00051861 -0.0014294 -0.00067247
-0.002006 -0.0090583 -0.0013413 -0.0022893
0.0055027 0.0047475 -0.032404 0.00062953 -0.098378 0.29433 -0.00097439 -0.00047738
-0.0015253 2.4691e-05 -0.0036869 -0.0087541
0.0010003 -0.0070286 -0.0013907 -0.00062101 -0.00077825 -0.00051646 -0.2171 0.2074
-0.02584 -0.0045489 -0.0092897 -0.00755
-0.0032772 -0.011641 -0.0022161 -0.0091188 -0.001571 -7.9477e-05 -0.026374 -0.0040064
-0.2523 0.066219 -0.0073896 -0.0067656
0.0041744 -0.0079631 -0.0012542 -0.0023085 -0.0035921 -0.0086866 -0.0087401 -0.0076725
-0.0074191 -0.0067108 -0.2544 0.12234
740000000 -0.18417 0.19883 -0.036745 0.026746 0.012168 -0.0060276 -0.00080054 -0.0039524
-0.0054798 -0.0030879 -0.0060624 0.0029712
-0.036744 0.026449 -0.33237 0.18643 -0.032706 0.035355 -0.0010977 -0.0063372
-0.011312 0.0078259 -0.0025129 -0.0051308
0.012471 -0.0061164 -0.032871 0.035591 -0.064757 0.2936 -0.0019636 0.0032069
-0.0031589 -0.0044628 -0.0022072 0.0010173
-0.00069848 -0.0040781 -0.0012409 -0.0063312 -0.0018997 0.0030132 -0.19927 0.21585
-0.042384 -0.0026354 0.022439 0.012506
-0.0047732 -0.0036246 -0.011768 0.0078431 -0.0034012 -0.0046517 -0.0427 -0.0026903
-0.15744 0.086921 -0.040232 0.0041134
-0.0057422 0.003084 -0.0022509 -0.0052197 -0.0020968 0.0011809 0.022913 0.012668
-0.040145 0.0037056 -0.24147 0.1328
800000000 -0.14995 0.23627 -0.020967 0.017571 0.0046663 -0.010702 -0.0043965 -0.0015201
-0.0035793 0.0025563 0.0037261 0.00077613
-0.020864 0.017528 -0.33302 0.2547 -0.0064426 0.03363 -0.0022652 0.0023098
-0.00082084 0.0034257 0.00095767 0.0054953
0.0046641 -0.010652 -0.006529 0.03371 -0.02223 0.31508 0.00078429 0.001602
0.00027498 0.0035332 -0.0016783 0.0013733
-0.00426 -0.0015927 -0.0023131 0.0022913 0.00077801 0.0016751 -0.16885 0.24204
-0.026729 0.017102 0.012868 -0.010079
-0.0035798 0.002546 -0.00074641 0.0035024 0.00029743 0.0035403 -0.026758 0.01694
-0.19619 0.11365 -0.015822 0.0196
0.0040114 0.00059372 0.0010901 0.0056472 -0.0018318 0.0013776 0.012656 -0.010213
-0.015934 0.019494 -0.23006 0.17842
860000000 -0.11534 0.25577 -0.015362 0.030996 -0.0037267 -0.0096074 -0.0018998 0.0012262
0.004358 0.0049363 -0.0026786 -0.0022669
-0.015438 0.030733 -0.28591 0.2954 0.0093611 0.03337 0.00017507 0.0023322
0.0043091 0.00041842 0.0030992 0.00058021
-0.0036866 -0.009764 0.0095039 0.03335 0.025772 0.32233 -0.00044865 7.8457e-05
0.0025076 -0.0012323 0.0020314 0.003912
-0.0018893 0.0010744 0.00015741 0.0023835 -0.00044958 5.9267e-05 -0.13238 0.25277
-0.015302 0.021179 -0.00527 -0.0090089
0.0045019 0.0047954 0.0042936 0.00064602 0.0024697 -0.0011134 -0.014991 0.021247
-0.14323 0.15925 -0.021107 0.017499
-0.0026368 -0.0020047 0.0034029 0.00041015 0.0020457 0.0040409 -0.0053023 -0.0090007
-0.021205 0.017666 -0.18082 0.21833
920000000 -0.088936 0.27733 0.006528 0.036559 -0.0094385 -0.0041535 -0.0012806 0.0016858
0.0016023 0.0015406 0.0027796 -0.0019818
0.0064816 0.036509 -0.25553 0.31608 0.028575 0.020326 0.0019009 0.00096206
0.0072398 -0.00044844 0.0040224 -0.003094
-0.0093838 -0.0041023 0.028598 0.020149 0.073336 0.3227 0.0020087 -9.6957e-05
0.0014843 -0.00048433 0.00094131 -0.0011525
-0.0013181 0.001644 0.001994 0.0010009 0.0019829 -5.1479e-05 -0.10609 0.2686
-0.0070187 0.031426 0.0024725 -0.0065478
0.0016172 0.0016076 0.007223 -0.00057245 0.0016237 -0.00049332 -0.0070025 0.031562
-0.12991 0.16639 0.00051653 0.026063
0.00248 -0.0017018 0.0038649 -0.0028758 0.00091203 -0.0014739 0.0028781 -0.0064669
0.00031132 0.026097 -0.17958 0.23302
980000000 -0.041947 0.29493 0.018853 0.02843 -0.0085745 0.0046291 0.002071 0.0028995
0.0040236 -0.001964 -0.003161 -0.0022819
0.018756 0.028366 -0.20366 0.34839 0.033003 0.0030612 0.0022065 -0.0004346
0.0016662 -0.0064402 -0.00061744 -0.0026394
-0.0086373 0.004661 0.032954 0.0029764 0.12022 0.31465 0.00054356 -0.001398
0.00017243 -0.0024056 0.0011889 -0.00046762
0.0021025 0.002905 0.0022435 -0.00031821 0.00061025 -0.0013796 -0.066861 0.2778
0.011775 0.028991 -0.0082878 -0.006695
0.0039482 -0.0018727 0.0016164 -0.0063197 9.4034e-05 -0.0022997 0.011637 0.029056
-0.097374 0.18987 0.0066313 0.018475
-0.0029904 -0.0022409 -0.00057404 -0.0023923 0.0012093 -0.00035909 -0.0085408 -0.0063073
0.0065557 0.018409 -0.1366 0.27185
1040000000 0.00075215 0.30203 0.033221 0.015613 -0.0012535 0.0066717 0.0022641 0.00040816
4.49e-05 -0.0031784 -0.00087648 -0.0015643
0.033199 0.015539 -0.16779 0.3616 0.028163 -0.016092 0.0013821 -0.0019148
-0.0023815 -0.0027662 -0.0015649 -0.0028894
-0.001261 0.0066352 0.028092 -0.016244 0.1672 0.30024 -0.00070018 -0.0016036
-0.0015363 -0.00093278 -0.00059279 -0.0010558
0.0022085 0.00038974 0.0013909 -0.0018906 -0.00070875 -0.0015716 -0.038318 0.28687
0.022211 0.015817 -0.0026962 0.000788
-9.51e-05 -0.0032536 -0.0025217 -0.0026926 -0.0016467 -0.0010606 0.022319 0.015716
-0.065142 0.19601 0.014405 0.015658
-0.00081512 -0.0016926 -0.0018101 -0.0030065 -0.00059388 -0.00098684 -0.002741 0.00076956
0.014492 0.015723 -0.11112 0.29159
1100000000 0.046116 0.30824 0.034638 -0.0061995 0.0027048 0.0036845 0.0020637 -0.00096349
-0.0020693 -0.0027139 -0.0036398 0.00063174
0.034655 -0.0061464 -0.12437 0.37808 0.01348 -0.028272 -0.0001666 -0.0017366
-0.0036423 -0.00053165 -0.0034579 -2.6196e-05
0.002695 0.0036854 0.013423 -0.028354 0.21458 0.27761 -0.0019252 0.00027679
-0.0019773 0.00062131 -0.00089187 -0.00018942
0.0019986 -0.00097215 -0.00012583 -0.0017806 -0.0019948 0.00026304 0.0032354 0.28955
0.025937 0.0017482 -0.0026696 5.5449e-05
-0.0021259 -0.0027084 -0.0036942 -0.00036962 -0.0019922 0.00058185 0.025946 0.0017097
-0.046123 0.20739 0.018927 0.0062234
-0.003675 0.00063184 -0.0034591 9.4439e-05 -0.0009715 -0.00018954 -0.0027617 2.0327e-06
0.018872 0.0062619 -0.064413 0.31541
1160000000 0.096735 0.30211 0.021961 -0.022084 0.0021949 -0.00029381 -0.00014432 -0.0018892
-0.003975 -0.00045349 -0.00076074 0.0038968
0.021982 -0.022025 -0.079952 0.38215 -0.0054851 -0.028609 -0.0017144 -0.0014541
-0.0027036 0.0026514 -0.0014849 0.0018479
0.0021832 -0.00027671 -0.0056061 -0.02854 0.25716 0.24445 -0.00085159 0.0018852
-0.00059967 0.0020857 -0.00094709 0.00029973
-0.00011534 -0.0019512 -0.0016728 -0.0014364 -0.00079439 0.0018944 0.042653 0.28455
0.020826 -0.013965 -0.003224 0.0044209
-0.0038904 -0.00043609 -0.0026552 0.0026913 -0.00050265 0.0021688 0.020947 -0.013972
-0.01265 0.21385 0.017907 -0.0022898
-0.0005834 0.0039703 -0.0014026 0.001887 -0.00092612 0.00031997 -0.0031978 0.0044902
0.017856 -0.002242 -0.017487 0.31603
1220000000 0.14147 0.28944 0.0079104 -0.029983 -0.0016937 -0.00027291 0.00021464 -0.0008
-0.0023914 0.002402 0.0014183 0.0019022
0.0079258 -0.029973 -0.035126 0.39305 -0.017848 -0.019883 -0.0024376 0.00058699
0.00017151 0.0031314 -0.00045972 0.0020413
-0.0016683 -0.00027837 -0.017939 -0.019846 0.29562 0.20337 0.00087479 0.0019229
0.00072658 0.001362 0.00045077 0.00070012
0.00020995 -0.00080538 -0.0024126 0.00059993 0.00087112 0.0019137 0.083297 0.27376
0.0089877 -0.020153 0.0012719 0.0013713
-0.0023888 0.0023492 0.00018806 0.0031316 0.0006596 0.0013844 0.0089361 -0.020177
0.011119 0.22064 0.012015 -0.014502
0.0013686 0.0018297 -0.00051518 0.00197 0.00048273 0.00065927 0.0013036 0.0014056
0.012011 -0.014517 0.016422 0.32745
1280000000 0.19046 0.26597 -0.0098554 -0.027229 -0.0015656 0.0029893 -0.00086685 -0.0019675
-0.000652 0.0030701 0.0024523 0.00091889
-0.0098495 -0.027205 0.011112 0.3831 -0.023961 -0.0070502 -0.00093081 0.0014551
0.0018777 0.0017787 0.00091203 0.0018292
-0.0015552 0.0030271 -0.023957 -0.0069961 0.32401 0.15769 0.0018099 -2.678e-05
0.0012884 0.00020752 0.00039805 0.00022375
-0.00084115 -0.0019583 -0.00096049 0.0014822 0.0018133 -5.409e-06 0.11935 0.25414
-0.0017243 -0.021405 -0.00087031 0.00051427
-0.0005832 0.0030349 0.0018558 0.0017545 0.0012551 0.00024511 -0.0016842 -0.02133
0.047172 0.22198 0.00097306 -0.016181
0.0023943 0.00088493 0.00092915 0.0018691 0.00026907 0.00027611 -0.00089198 0.0005143
0.0010126 -0.016161 0.062306 0.32538
1340000000 0.22703 0.23107 -0.018803 -0.016744 0.00146 0.0044452 -0.0016966 -0.0009513
0.0015041 0.0026455 0.0015816 -0.0015254
-0.018776 -0.016764 0.050821 0.37334 -0.020944 0.0055546 -8.9803e-05 0.0020479
0.0020715 0.00059718 0.0014505 0.00064105
0.0015269 0.0044807 -0.020973 0.0056074 0.3441 0.10959 0.0013155 -0.0011053
0.00074686 -0.0004813 0.00012127 0.00024914
-0.0016714 -0.0009404 -6.7071e-05 0.0020083 0.0013385 -0.0011171 0.15038 0.23174
-0.011775 -0.017093 0.00027797 0.0013698
0.0014864 0.0026146 0.0020567 0.00056186 0.00074424 -0.00051601 -0.011779 -0.017083
0.076592 0.21583 -0.0060875 -0.013715
0.0015652 -0.0015283 0.0014566 0.00057997 0.00012465 0.00020941 0.00030918 0.0013951
-0.0060706 -0.01369 0.10117 0.3172
1400000000 0.25931 0.19143 -0.023099 -0.0051158 0.0055305 0.0028413 -0.0021794 0.0006083
0.0023997 0.00084233 0.00010782 -0.0014735
-0.023075 -0.0051405 0.087741 0.35892 -0.013754 0.013079 0.0013998 0.0012678
0.0011773 -0.0010187 0.001098 -4.4629e-06
0.0055246 0.0028131 -0.013748 0.013133 0.35615 0.056266 7.7611e-05 -0.0019735
4.4842e-05 -0.00046451 0.00034544 0.00024034
-0.0021823 0.00061844 0.0013949 0.0012605 8.6667e-05 -0.0019926 0.17813 0.20076
-0.017612 -0.0090892 -0.00042662 0.00083574
0.0024395 0.00084973 0.0011917 -0.0010351 9.8626e-05 -0.00044242 -0.017667 -0.0090212
0.10853 0.20896 -0.012091 -0.0077394
9.1604e-05 -0.0014462 0.001097 -1.3469e-05 0.00035477 0.00024435 -0.00043294 0.00087464
-0.012101 -0.0077508 0.14409 0.30247
1460000000 0.28066 0.14659 -0.019202 0.0064231 0.005661 -0.0022797 -0.0015596 0.0016805
0.002177 -0.00067222 -0.00041999 -0.00089752
-0.019195 0.0064341 0.1211 0.33589 -0.0049752 0.015254 0.001749 9.9935e-05
0.00068558 -0.0014148 0.0010247 -0.00062017
0.0056386 -0.0022582 -0.004944 0.015296 0.36071 0.0024884 -0.0015614 -0.00141
9.0995e-05 -0.00021431 0.00063412 -0.00028167
-0.0015626 0.001669 0.0017669 9.1989e-05 -0.001586 -0.0013841 0.2015 0.17031
-0.018138 -0.0010244 -3.7628e-05 0.0024745
0.0021605 -0.00071941 0.00064044 -0.0013829 8.0912e-05 -0.00026851 -0.018152 -0.00095833
0.13641 0.19282 -0.013071 -0.0012962
-0.00040264 -0.00087379 0.0010093 -0.00063867 0.0007014 -0.0002857 -4.1748e-05 0.0024741
-0.013056 -0.0013167 0.1758 0.27939
1520000000 0.29181 0.10376 -0.012842 0.011214 0.0030547 -0.0044315 0.00014143 0.0026302
0.001965 -0.0018115 -0.0011444 -1.9833e-06
-0.012847 0.011157 0.15379 0.32033 0.0022631 0.012654 0.0016748 -0.00095263
-0.00014103 -0.0010995 0.00020337 -0.00096497
0.0030157 -0.0044673 0.0023375 0.012652 0.35375 -0.053308 -0.0014579 -0.00022354
0.00050191 -0.00098181 2.0915e-05 -0.00020595
0.00012364 0.0025889 0.0016729 -0.00095772 -0.0014806 -0.00018588 0.22207 0.13228
-0.016016 0.0055955 0.0022984 0.0020648
0.0019808 -0.0018637 -0.00013333 -0.0011246 0.00047283 -0.0010051 -0.016002 0.0056577
0.16366 0.17748 -0.012203 0.0036226
-0.0011059 3.1577e-05 0.00017877 -0.00094377 -5.9374e-06 -0.00017021 0.0022973 0.0020543
-0.012206 0.0035968 0.20739 0.25622
1580000000 0.29942 0.057062 -0.0061535 0.013291 -0.001098 -0.0049052 0.0015528 0.0018723
-0.0002448 -0.0022045 -0.00020015 0.00037825
-0.0061468 0.01326 0.17992 0.29483 0.0055905 0.0076175 0.00036038 -0.0017807
-0.00062433 -0.0008726 -0.00030094 -0.00078356
-0.00112 -0.0048877 0.0056319 0.0076021 0.33349 -0.11081 -0.0016352 0.0010391
-0.00046992 -0.001177 0.00012914 -0.00055821
0.0015565 0.0018843 0.000356 -0.001748 -0.0016278 0.0010506 0.23314 0.09341
-0.011171 0.01037 0.0028067 0.00022694
-0.00026003 -0.0022414 -0.00063326 -0.00089764 -0.00038738 -0.0011454 -0.011176 0.01042
0.18648 0.15766 -0.0089873 0.0087741
-0.00018875 0.0003847 -0.00028523 -0.00077421 0.00010607 -0.00056277 0.0027834 0.00019107
-0.008993 0.0087761 0.2368 0.22774
1640000000 0.29989 0.015567 0.00011338 0.011259 -0.002936 -0.0025748 0.0027484 0.00082659
-0.00090953 -0.0016021 -0.00017899 0.00057726
0.00011512 0.011262 0.2084 0.26974 0.0058933 0.0030199 -0.00095451 -0.0017067
-0.00098694 -0.0002373 -0.00055497 -0.00050931
-0.0029433 -0.002577 0.0058805 0.0030035 0.30464 -0.1594 -0.00047506 0.0016507
-0.0013181 -0.00081334 -0.00019857 -0.00025896
0.002749 0.00078574 -0.00095912 -0.001676 -0.00052544 0.0016718 0.2431 0.046655
-0.0058052 0.011123 0.0026784 -0.0013852
-0.00091059 -0.0015911 -0.00099972 -0.00021665 -0.0013485 -0.00078576 -0.0057856 0.011118
0.20747 0.13227 -0.0037212 0.010523
-0.00021175 0.00057277 -0.00058654 -0.00051988 -0.00021358 -0.00029118 0.0026742 -0.001395
-0.0037238 0.01052 0.26049 0.19526
1700000000 0.2909 -0.029689 0.0028741 0.0079474 -0.0034492 0.00019245 0.0029237 -0.0014583
-0.0021432 -0.00062759 0.00068968 0.00031658
0.002839 0.0079512 0.22578 0.23832 0.0038252 0.00026114 -0.0015763 -0.00041229
-0.00062775 0.00012352 -0.00088812 -0.00032596
-0.003473 0.00020086 0.0038247 0.00020277 0.26143 -0.19961 0.00083495 0.001418
-0.0019207 3.3417e-05 -0.00071433 -0.00074742
0.0029199 -0.0014978 -0.0015726 -0.00042337 0.00087527 0.0014059 0.23912 -0.00082013
-0.0023205 0.010603 0.0014589 -0.0025307
-0.0021399 -0.00065919 -0.00061182 0.0001228 -0.0019022 6.2883e-05 -0.0023021 0.010609
0.22329 0.11079 0.0011764 0.010277
0.00067825 0.00031078 -0.00089069 -0.00033615 -0.00067384 -0.00075122 0.0014323 -0.0025605
0.0011755 0.010274 0.2752 0.15987
1760000000 0.27735 -0.077476 0.0041549 0.0045669 -0.0024397 0.00084173 0.00087492 -0.0035128
-0.0014857 0.00088535 0.00036709 -0.00049154
0.0041283 0.0046075 0.25087 0.19839 0.0015641 -0.0016512 -0.001219 0.00037407
-0.00091927 0.00081509 -0.00056115 0.00048871
-0.0024245 0.00082863 0.0015719 -0.0015968 0.21259 -0.23305 0.0013555 0.00071847
-0.0010707 0.0017218 -0.0013375 -0.00019769
0.00090148 -0.0035135 -0.0012188 0.00041994 0.0013475 0.00070923 0.23 -0.049473
0.00082338 0.0089809 -0.00051235 -0.0027451
-0.0015015 0.00089377 -0.00090663 0.00083511 -0.0010244 0.0017596 0.00081004 0.0089577
0.23588 0.07509 0.0049305 0.0071688
0.00042742 -0.00051138 -0.00050672 0.00048367 -0.001349 -0.00015671 -0.00049431 -0.0027359
0.0049367 0.0071614 0.28587 0.12136
1820000000 0.25183 -0.11377 0.0036712 0.0015224 -0.00019674 0.002536 -0.0012841 -0.0028541
-0.00097546 0.0012147 -8.2157e-05 -5.524e-05
0.0036448 0.0014998 0.26037 0.16886 -0.00052271 -0.00038971 -0.0010713 0.0010884
1.0401e-05 0.0011512 -0.00046084 0.00056838
-0.00018062 0.0025189 -0.00054786 -0.00040881 0.16209 -0.24889 0.0013681 5.375e-05
0.00026097 0.0022377 -0.0012453 0.00060468
-0.001319 -0.0028619 -0.0010377 0.0010977 0.0013293 3.8477e-05 0.20193 -0.094274
0.0021317 0.0069255 -0.0016486 -0.001724
-0.0009792 0.0012243 3.1816e-05 0.0011611 0.00022499 0.0022013 0.0021335 0.0069018
0.25117 0.045785 0.0059042 0.0031776
-6.8049e-05 -8.9122e-05 -0.00045998 0.00057364 -0.0012413 0.00060746 -0.0016323 -0.0017335
0.0059051 0.003182 0.2865 0.084053
1880000000 0.21594 -0.15322 0.0011342 -8.6576e-05 -0.00053232 0.002122 -0.0029985 -0.0018034
-3.0687e-05 0.0017521 0.00015805 -0.00046545
0.0011006 -0.00010333 0.26456 0.1223 -0.002743 0.0014637 5.9848e-05 0.0015895
0.00045771 0.0010085 0.00021506 0.000837
-0.00047588 0.0021997 -0.0027434 0.0015213 0.10871 -0.25883 0.0014103 -0.0010776
0.001756 0.0015181 -0.00068681 0.0013048
-0.0030209 -0.0017985 4.0729e-05 0.0015889 0.0013733 -0.001053 0.16353 -0.13472
0.0024593 0.0044907 -0.0024077 0.00015638
-2.7265e-05 0.0017222 0.00048685 0.0010155 0.0017754 0.0014479 0.0024843 0.0045068
0.25218 0.012567 0.0054539 0.00074228
0.00011439 -0.0004814 0.00020422 0.00084452 -0.00070799 0.0013159 -0.0024093 0.00018867
0.0054388 0.00073442 0.28453 0.049322
1940000000 0.17629 -0.17822 -0.0010398 -0.0010228 0.0015653 0.0021437 -0.003487 0.00081418
0.0016257 0.00098306 -0.00056812 -0.00045843
-0.00096254 -0.0010536 0.2646 0.090886 -0.0014754 0.0041079 0.0009918 0.0010726
0.001575 0.00050656 0.00086511 0.00032105
0.0016205 0.0021198 -0.0014576 0.0041004 0.062272 -0.2513 6.2128e-05 -0.0016729
0.0021852 5.6493e-05 0.00050366 0.0015626
-0.0035226 0.00080876 0.0010002 0.0010774 0.00010126 -0.0016328 0.11268 -0.16584
0.0014884 0.0028893 -0.0018494 0.0013396
0.0015979 0.00094231 0.0015654 0.00043331 0.002182 0.00010238 0.0015529 0.0029396
0.25229 -0.026147 0.0038515 -0.0025099
-0.00057144 -0.00054926 0.00085488 0.00025977 0.00046276 0.0015517 -0.0018575 0.0013351
0.0038452 -0.0025004 0.27163 0.012635
2000000000 0.1301 -0.1926 -0.0043292 0.0012171 0.0027033 0.0014406 -0.0021764 0.0033533
0.0011575 -0.00017315 -0.00049007 0.00041042
-0.0043917 0.0012585 0.2507 0.055387 -0.0011656 0.0059415 0.0015159 0.00018603
0.0012306 -0.0010619 0.00041534 5.1077e-05
0.0026897 0.001596 -0.0011223 0.0060171 0.018428 -0.2368 -0.0009865 -0.00089287
0.0015958 -0.0011001 0.0017193 0.0011206
-0.0020993 0.0034095 0.0014693 0.00017003 -0.0010614 -0.00095214 0.059778 -0.1777
-0.00037559 0.0023556 -0.00036613 0.0022844
0.0011475 -0.0001813 0.0012371 -0.0010543 0.0015993 -0.0011731 -0.00037808 0.0023076
0.24488 -0.060049 0.00036226 -0.0035474
