!Keysight Technologies,M9804A,MY58100912,A.14.10.03
!Date: Thursday, April 27, 2023 10:28:33
!Correction: S11(C  6-Port  ) 
!S12(C  6-Port  ) 
!S13(C  6-Port  ) 
!S14(C  6-Port  ) 
!S15(C  6-Port  ) 
!S16(C  6-Port  ) 
!S21(C  6-Port  ) 
!S22(C  6-Port  ) 
!S23(C  6-Port  ) 
!S24(C  6-Port  ) 
!S25(C  6-Port  ) 
!S26(C  6-Port  ) 
!S31(C  6-Port  ) 
!S32(C  6-Port  ) 
!S33(C  6-Port  ) 
!S34(C  6-Port  ) 
!S35(C  6-Port  ) 
!S36(C  6-Port  ) 
!S41(C  6-Port  ) 
!S42(C  6-Port  ) 
!S43(C  6-Port  ) 
!S44(C  6-Port  ) 
!S45(C  6-Port  ) 
!S46(C  6-Port  ) 
!S51(C  6-Port  ) 
!S52(C  6-Port  ) 
!S53(C  6-Port  ) 
!S54(C  6-Port  ) 
!S55(C  6-Port  ) 
!S56(C  6-Port  ) 
!S61(C  6-Port  ) 
!S62(C  6-Port  ) 
!S63(C  6-Port  ) 
!S64(C  6-Port  ) 
!S65(C  6-Port  ) 
!S66(C  6-Port  ) 
!S6P File: Measurement: :
# Hz S  RI   R 50
500000000 -0.32802 -0.063931 -0.010728 -0.00099595 -0.0083518 0.012268 -0.0044117 0.012141
0.012982 0.0062856 -0.0044357 0.008802
-0.01027 -0.0012373 -0.40899 -0.074136 0.0085804 -0.01085 0.00042149 0.012207
0.0094355 0.0031535 0.00090519 0.01353
-0.0085611 0.012024 0.0085412 -0.01067 -0.25688 0.19086 0.0062288 0.0033139
-0.0014518 0.0078247 0.0005777 0.012147
-0.0040172 0.012257 0.00056904 0.011965 0.0062823 0.0032457 -0.32708 0.041114
-0.019603 -0.0047717 0.015085 0.02689
0.012985 0.0063992 0.0091222 0.0030108 -0.0014097 0.0078326 -0.019832 -0.0045155
-0.21978 -0.23385 -0.027939 0.0032183
-0.0046833 0.0093557 0.00051348 0.013765 0.00052987 0.012352 0.015623 0.026816
-0.028308 0.0036491 -0.2621 -0.14708
560000000 -0.31676 0.10281 -0.021922 -0.068203 0.00022224 0.013431 0.0054429 0.010927
0.011521 0.0053392 0.011443 0.0099125
-0.021465 -0.067928 -0.3715 0.09022 -0.041132 -0.038868 0.014116 0.0039946
-0.014402 -0.0048999 0.0040144 -0.0010122
0.00022067 0.013069 -0.041253 -0.0387 -0.18208 0.24048 -0.00060704 -0.0055054
0.018895 0.0057085 0.0080687 -0.0054552
0.0053178 0.01138 0.014063 0.0037882 -0.00055301 -0.0053912 -0.30362 0.1325
0.0051215 -0.022945 0.0057127 -0.021193
0.0124 0.0053264 -0.014238 -0.005078 0.018808 0.0057994 0.0051638 -0.022724
-0.30298 -0.050602 0.011689 -0.050453
0.011391 0.0094634 0.0040141 -0.0013102 0.0078378 -0.0055528 0.0057246 -0.021562
0.011572 -0.050412 -0.33111 0.0067031
620000000 -0.27445 0.081504 -0.023399 0.0091892 0.0033864 0.0091822 0.0077854 -0.0042601
0.012393 -0.00081017 -7.0853e-05 -0.0027495
-0.023134 0.0091776 -0.39949 0.03605 -0.018957 0.00026411 -0.001925 -0.0020172
0.012733 -0.0051496 0.00028869 -0.0038531
0.0035218 0.008961 -0.018935 0.00026499 -0.15482 0.25019 -0.001111 -0.0048288
-0.0040343 -0.0030003 0.0090996 -0.0031429
0.0075979 -0.0042596 -0.0018401 -0.0021603 -0.0011656 -0.0048864 -0.26255 0.14141
-0.038771 -0.021248 0.012593 0.028212
0.012822 -0.00098589 0.012619 -0.0052931 -0.0040343 -0.0030119 -0.038421 -0.021164
-0.21732 -0.087855 -0.043056 0.01222
0.00012827 -0.0025364 0.0005994 -0.0033882 0.0091312 -0.0030131 0.012563 0.028595
-0.043512 0.011679 -0.24459 -0.032364
680000000 -0.2413 0.17401 -0.026358 -0.01501 0.0046707 0.0055362 0.0011977 -0.0076879
-0.0018578 -0.011341 0.0060731 -0.0064138
-0.02618 -0.015046 -0.39029 0.13755 -0.03269 -0.0021101 -0.0020077 -0.00037983
-0.0012333 -0.0094925 -0.00071801 -0.0016028
0.0046281 0.0055187 -0.032722 -0.0020211 -0.10771 0.27292 -0.00099841 -2.1475e-05
-0.0012512 0.00087839 -0.0027547 -0.0086236
0.0014489 -0.0075135 -0.0018522 -0.00029822 -0.00093961 -4.3493e-05 -0.21856 0.19337
-0.023031 -0.0082446 -0.0091339 -0.011179
-0.0021596 -0.011438 -0.0013154 -0.0096775 -0.0012819 0.00092932 -0.022837 -0.0082912
-0.28314 0.014017 -0.005183 -0.0072402
0.0061468 -0.0068873 -0.00089446 -0.0016861 -0.0026762 -0.0087681 -0.0090518 -0.011933
-0.0052354 -0.0072589 -0.26073 0.072759
740000000 -0.19507 0.1668 -0.040888 0.026527 0.013755 -0.0038991 0.00012234 -0.003906
-0.0042733 -0.0025781 -0.0066771 0.0029076
-0.040707 0.026386 -0.33693 0.15743 -0.03712 0.033953 -0.00023388 -0.005756
-0.01285 0.0068949 -0.0016347 -0.0067608
0.013853 -0.0038861 -0.037061 0.033991 -0.074641 0.27328 -0.0018424 0.0031547
-0.0017127 -0.0047975 -0.0017609 0.00071252
-3.8246e-06 -0.0037957 -0.00025057 -0.0059369 -0.001804 0.0031485 -0.2032 0.2001
-0.041862 -0.0084955 0.022131 0.016023
-0.0038298 -0.0020476 -0.012634 0.0066128 -0.0017097 -0.0048917 -0.041938 -0.0084712
-0.17889 0.045514 -0.043732 0.00088987
-0.0065113 0.0030331 -0.0017637 -0.0065565 -0.0016265 0.00071774 0.022193 0.016277
-0.043694 0.00037167 -0.25253 0.077883
800000000 -0.16635 0.21317 -0.022471 0.016035 0.0056422 -0.010304 -0.0043864 -0.0024921
-0.004188 0.0017867 0.0049826 0.00036534
-0.022606 0.015948 -0.34465 0.22854 -0.0088128 0.034145 -0.0021533 0.0020105
-0.00046042 0.0024804 0.00121 0.0051833
0.0056188 -0.010204 -0.0086758 0.034354 -0.03623 0.29927 0.00099465 0.0012004
5.8989e-05 0.0033637 -0.0015952 0.00045371
-0.0043711 -0.0025992 -0.00211 0.0020701 0.0010371 0.0012179 -0.17404 0.22777
-0.028801 0.012521 0.014536 -0.010253
-0.0043804 0.0017617 -0.00051051 0.0024635 9.8142e-05 0.00338 -0.02898 0.012569
-0.23167 0.072044 -0.017851 0.019826
0.004726 4.4741e-05 0.0012231 0.0052108 -0.0017533 0.0004966 0.014377 -0.010388
-0.017915 0.019854 -0.24837 0.12965
860000000 -0.13229 0.2342 -0.018355 0.03042 -0.0030796 -0.0099666 -0.0019919 0.00054253
0.0044638 0.0053083 -0.0041871 -0.0026093
-0.018322 0.030351 -0.29797 0.27287 0.0073387 0.03434 4.969e-05 0.0019923
0.0040819 0.00071145 0.0037783 0.00032215
-0.0031275 -0.010004 0.0074513 0.034396 0.011955 0.3094 -0.00042276 -0.00046962
0.0025549 -0.0016035 0.0016435 0.0042277
-0.0020367 0.00067523 -3.3236e-05 0.0020117 -0.00043051 -0.00046203 -0.13783 0.23941
-0.018451 0.017299 -0.0064788 -0.01036
0.0045385 0.0051992 0.0041097 0.00052805 0.0025285 -0.0016272 -0.018324 0.017399
-0.17656 0.1319 -0.027035 0.016801
-0.0043152 -0.0026715 0.0035784 0.00043226 0.0015955 0.0042075 -0.0066437 -0.010058
-0.027008 0.016856 -0.19805 0.17632
920000000 -0.10961 0.25791 0.0043171 0.039168 -0.0092605 -0.0045812 -0.0018249 0.0016758
6.7503e-05 0.0016981 0.0031523 -0.0012389
0.004234 0.039176 -0.27117 0.29515 0.02783 0.023002 0.0015169 0.0010719
0.0069416 0.00017104 0.0039876 -0.0027449
-0.0092778 -0.0045893 0.027951 0.022947 0.058108 0.31164 0.0017291 -5.0705e-05
0.00047595 -0.00038729 0.00083847 -0.0015254
-0.0018206 0.0015444 0.0015186 0.001008 0.0017159 -5.1802e-05 -0.11388 0.25634
-0.012523 0.030445 0.0043232 -0.0063434
0.00022777 0.0018613 0.0070136 8.6841e-05 0.00051857 -0.0003974 -0.012539 0.03049
-0.17038 0.13725 -0.0029649 0.028472
0.003069 -0.0012103 0.0039933 -0.0030091 0.00084472 -0.0014699 0.0043157 -0.0064546
-0.003233 0.028186 -0.2071 0.19129
980000000 -0.063682 0.27957 0.016367 0.030481 -0.00932 0.0046175 0.0016784 0.0036027
0.0038744 -0.0014832 -0.0038011 -0.002583
0.016336 0.03044 -0.21952 0.33216 0.032936 0.005422 0.0018524 -0.00028171
0.001922 -0.006102 -0.00058466 -0.0027311
-0.0093141 0.0046601 0.033028 0.0053179 0.10459 0.30647 0.00048601 -0.0010804
0.00034771 -0.0017359 0.0014551 -0.0003019
0.0017209 0.0035437 0.0018128 -0.00023113 0.00046927 -0.0010811 -0.075741 0.26778
0.0063386 0.030031 -0.0095473 -0.0076517
0.0039123 -0.0014777 0.0018505 -0.0059903 0.00037647 -0.0017333 0.0064954 0.02995
-0.13931 0.17225 0.0043136 0.020818
-0.0037544 -0.0027288 -0.00047143 -0.0028842 0.0014507 -0.00032105 -0.0094386 -0.0076571
0.0045692 0.020777 -0.16697 0.2396
1040000000 -0.022688 0.28973 0.032998 0.019996 -0.0011506 0.0074571 0.0024689 0.00086813
0.00029003 -0.0033116 0.00026378 -0.0016723
0.033 0.01997 -0.1847 0.34667 0.029687 -0.01421 0.0014377 -0.001744
-0.0022349 -0.0024629 -0.0011392 -0.0029199
-0.0010983 0.007438 0.029706 -0.014352 0.15096 0.29402 -0.00049613 -0.001384
-0.0015055 -0.00098797 -0.00059879 -0.0011249
0.0026232 0.00078765 0.0014013 -0.0017325 -0.00050683 -0.0013914 -0.048769 0.27779
0.018751 0.019679 -0.0021537 0.0012383
0.0001696 -0.0033661 -0.0022748 -0.0025182 -0.0014993 -0.0010008 0.01866 0.019568
-0.10816 0.18128 0.013776 0.02004
0.00023372 -0.0015569 -0.0011142 -0.0029619 -0.00062751 -0.0011716 -0.0022076 0.001266
0.013843 0.019805 -0.146 0.26031
1100000000 0.021965 0.30024 0.036631 -0.0026635 0.0033984 0.0041933 0.0024763 -0.0010975
-0.0022795 -0.003368 -0.0043096 0.00012032
0.036611 -0.0026621 -0.14118 0.36664 0.015552 -0.027458 -0.00010482 -0.0019011
-0.0032879 -0.00098561 -0.003776 -0.00068002
0.0034311 0.0041453 0.015492 -0.027571 0.19757 0.27497 -0.0017351 0.00029707
-0.0016586 0.00062615 -0.001164 -0.0004203
0.0024714 -0.0010286 -9.4055e-05 -0.0018762 -0.0017342 0.00028954 -0.0085481 0.28321
0.024426 0.0064935 -0.0026195 0.00016096
-0.0021945 -0.0032493 -0.0032811 -0.0008849 -0.0016549 0.00062893 0.024482 0.0064628
-0.089218 0.19763 0.019515 0.0095593
-0.0043322 -6.4772e-06 -0.0037448 -0.00068302 -0.0011185 -0.00047121 -0.0025934 0.00011287
0.019517 0.0096825 -0.10094 0.29294
1160000000 0.073318 0.29728 0.025204 -0.019936 0.0033655 -0.00061793 -0.00023341 -0.0023836
-0.0041233 -0.00094631 -0.0011799 0.0041336
0.025209 -0.019935 -0.097452 0.37181 -0.0033847 -0.028668 -0.0016162 -0.0014889
-0.0026444 0.002548 -0.0016115 0.0020837
0.0033496 -0.00064787 -0.0035206 -0.02871 0.24113 0.24515 -0.00062877 0.0016716
-0.00038843 0.0017968 -0.00091498 0.00025927
-9.2801e-05 -0.0023897 -0.0015536 -0.0015238 -0.00062037 0.0016679 0.03056 0.28054
0.021644 -0.0092046 -0.0035088 0.0050572
-0.0041846 -0.00095674 -0.0026636 0.0025268 -0.00037472 0.0017767 0.021551 -0.0092608
-0.055366 0.20812 0.019706 0.0011352
-0.0011115 0.0041764 -0.0016412 0.0021131 -0.00094066 0.00022821 -0.0033857 0.0050247
0.019699 0.0011237 -0.05369 0.2957
1220000000 0.11702 0.28875 0.012132 -0.029953 -0.0011083 -0.0014329 5.7254e-05 -0.0010762
-0.0027303 0.0023015 0.0011399 0.0020467
0.01216 -0.029909 -0.053303 0.38652 -0.016582 -0.021125 -0.0024716 0.00046284
3.2008e-05 0.0030397 -0.00077562 0.0019073
-0.0011155 -0.001433 -0.016692 -0.021067 0.28083 0.20717 0.00083216 0.001525
0.00053601 0.0011216 0.0003008 0.00058073
-3.3084e-05 -0.0010342 -0.002495 0.00050849 0.00082945 0.0015144 0.070119 0.27285
0.011287 -0.016395 0.0021042 0.0016596
-0.0027114 0.0022905 5.314e-05 0.0030576 0.00056353 0.0011513 0.011326 -0.01632
-0.03308 0.21995 0.014923 -0.01259
0.0011693 0.002141 -0.00076626 0.0019436 0.00027828 0.00060703 0.0020895 0.0016529
0.014883 -0.012573 -0.023403 0.31477
1280000000 0.16765 0.26915 -0.0067247 -0.029175 -0.0019114 0.0018161 -0.00096849 -0.002093
-0.00098133 0.0033538 0.0025081 0.0012858
-0.006726 -0.029118 -0.0065891 0.37868 -0.023608 -0.0082225 -0.000818 0.0014628
0.0017052 0.0018139 0.00057443 0.0021172
-0.0019144 0.0018176 -0.02369 -0.0081086 0.31252 0.16393 0.0014336 -0.00013855
0.0010932 0.00031126 0.00033425 0.00036331
-0.00090454 -0.0020822 -0.0008263 0.0014196 0.0014253 -0.00013976 0.10688 0.25699
0.001899 -0.019036 -6.8686e-05 0.00011689
-0.0010046 0.003339 0.0016939 0.0017694 0.001039 0.00032332 0.0018508 -0.019081
0.0036769 0.22544 0.0039197 -0.015355
0.0026044 0.0013131 0.00063125 0.0021165 0.00036039 0.00031399 -1.1009e-05 0.00013317
0.0040149 -0.015294 0.024368 0.3184
1340000000 0.2052 0.23747 -0.016715 -0.020031 0.00038493 0.0041201 -0.0018972 -0.00084608
0.0015451 0.002764 0.0018091 -0.0013064
-0.016685 -0.020031 0.032671 0.37204 -0.020912 0.0044284 -0.00020615 0.0019227
0.0018091 0.00083389 0.0012671 0.00075501
0.00038833 0.0041135 -0.020924 0.004546 0.33548 0.11647 0.00082065 -0.00088804
0.00052476 -0.00057457 0.0001581 0.00019709
-0.0019369 -0.0007544 -0.00012529 0.001928 0.00082107 -0.00088676 0.14009 0.2375
-0.0074233 -0.016661 0.0010875 0.00044772
0.0015781 0.0027115 0.0018711 0.0008313 0.00055783 -0.00058466 -0.0074403 -0.01665
0.033007 0.22398 -0.0027859 -0.014201
0.0018679 -0.0013273 0.0012498 0.0007629 0.0001552 0.00024152 0.0011015 0.00041426
-0.0028288 -0.014223 0.062223 0.31503
1400000000 0.24009 0.20112 -0.023342 -0.0087622 0.0047725 0.0031129 -0.0022023 0.00082318
0.0025455 0.00099974 0.00037443 -0.0014387
-0.023291 -0.0087363 0.071288 0.36033 -0.01419 0.012354 0.0012693 0.0013487
0.0011619 -0.00062792 0.0010895 0.00030583
0.0047666 0.0030913 -0.014154 0.012431 0.34969 0.062575 -4.6686e-05 -0.0013425
0.00017289 -0.000152 0.00034132 0.00021759
-0.0021686 0.00078017 0.0012459 0.001343 -3.9341e-05 -0.0013295 0.17022 0.20906
-0.013758 -0.010246 -0.00092325 -0.00038888
0.0026149 0.0010147 0.0011474 -0.00064318 0.00015851 -0.00014439 -0.013802 -0.010229
0.06638 0.22254 -0.0095244 -0.0091923
0.00033486 -0.0013848 0.0011375 0.0002959 0.00035366 0.00019883 -0.00088177 -0.00035603
-0.0096633 -0.0091105 0.10774 0.30607
1460000000 0.26389 0.15822 -0.020712 0.0038061 0.005167 -0.001572 -0.001429 0.0016909
0.0021976 -0.00041498 -0.00017517 -0.00093473
-0.020669 0.0037669 0.10613 0.33894 -0.0052593 0.014956 0.0016546 0.00026468
0.0011209 -0.0012392 0.0012578 -0.00058232
0.005179 -0.0016365 -0.0051958 0.015037 0.35618 0.0074999 -0.0010662 -0.0010666
0.00029601 -0.00019753 0.00065077 -0.00030412
-0.0014856 0.0017524 0.001663 0.00026089 -0.001069 -0.0010658 0.19726 0.1804
-0.01504 -0.0037801 -0.00091449 0.0019261
0.002158 -0.00045131 0.0011229 -0.0012448 0.00026484 -0.00019647 -0.015068 -0.0037849
0.0956 0.21104 -0.011648 -0.0031188
-0.00016368 -0.00094574 0.0012511 -0.00061928 0.00062109 -0.00028504 -0.00097257 0.0019402
-0.011535 -0.0031509 0.14159 0.28613
1520000000 0.27772 0.11757 -0.015487 0.009538 0.0031737 -0.0039525 0.00013902 0.0026494
0.002388 -0.0019073 -0.0011905 -0.00020846
-0.015469 0.0095178 0.14049 0.32561 0.0021778 0.012247 0.0016799 -0.00067441
0.00019715 -0.0010561 0.00036448 -0.00096264
0.0031332 -0.0039667 0.0022404 0.01225 0.3491 -0.049137 -0.00075142 -0.00034695
0.00076822 -0.00090346 0.0001234 -0.00014876
0.00014329 0.0026228 0.0016792 -0.00069759 -0.00075016 -0.00035176 0.22138 0.14231
-0.014976 0.0016836 0.0013012 0.0019995
0.0023549 -0.0018716 0.00021254 -0.0010516 0.00076668 -0.00091435 -0.015018 0.0017413
0.12432 0.20036 -0.011768 0.0012668
-0.0012197 -0.00020933 0.00034158 -0.00096884 0.00011937 -0.00018367 0.0013178 0.0019972
-0.011827 0.0013011 0.17519 0.26799
1580000000 0.28851 0.071912 -0.0089609 0.013288 -0.0011678 -0.0045619 0.0015552 0.001846
-0.00015453 -0.0022217 -0.00024143 0.0003861
-0.0089573 0.013261 0.16871 0.30097 0.0054138 0.0071204 0.00063965 -0.0015648
-0.00040168 -0.0011563 -0.0001826 -0.00078577
-0.0011543 -0.0045366 0.0054753 0.0070997 0.3287 -0.10673 -0.0013936 0.00021237
-0.00037419 -0.0013796 0.00026202 -0.00052946
0.0015914 0.0018817 0.00061513 -0.0015853 -0.001401 0.00021914 0.23605 0.10268
-0.011803 0.006966 0.002123 0.00087583
-0.0001639 -0.0022392 -0.00043718 -0.0011531 -0.00038152 -0.0013847 -0.011785 0.0069666
0.14952 0.18564 -0.0093937 0.0074097
-0.00023336 0.0003841 -0.00017194 -0.00081044 0.00027821 -0.00060431 0.0021259 0.00086831
-0.0092757 0.0073664 0.20889 0.24249
1640000000 0.29189 0.031171 -0.0020916 0.012394 -0.0028121 -0.0022354 0.0027249 0.0010112
-0.00057222 -0.0017015 -0.00039541 0.00051388
-0.002093 0.012393 0.1986 0.27693 0.0054463 0.0021871 -0.00051405 -0.0018703
-0.00092636 -0.00062784 -0.00044384 -0.00067905
-0.0028172 -0.0022172 0.0054619 0.0021635 0.29923 -0.15585 -0.00079331 0.0011921
-0.0010817 -0.0011487 -0.00010129 -0.00038635
0.0027193 0.0010235 -0.00053231 -0.0018711 -0.00082086 0.0012118 0.24902 0.053669
-0.0078311 0.0083825 0.0026388 -0.00069151
-0.00058373 -0.0016666 -0.00094272 -0.00061396 -0.0010889 -0.0011211 -0.0078159 0.0084617
0.17354 0.16459 -0.0044477 0.0094576
-0.00037776 0.00050166 -0.000455 -0.00070381 -0.00011029 -0.00042465 0.0025605 -0.00071571
-0.0045543 0.0094915 0.23482 0.21264
1700000000 0.28644 -0.013853 0.0014887 0.0098665 -0.0034534 0.00036269 0.0031276 -0.0012072
-0.0020816 -0.00070346 0.0006316 0.00032827
0.0014679 0.0098766 0.2178 0.24554 0.0028053 -0.00040768 -0.0014718 -0.00070031
-0.00088482 -0.00010916 -0.00077494 -0.00049979
-0.0034769 0.00041479 0.0028082 -0.00043512 0.25562 -0.19474 2.049e-05 0.0015913
-0.0021573 -0.00017029 -0.00038164 -0.00090897
0.0031537 -0.0011851 -0.0014881 -0.00069864 7.6797e-06 0.0016072 0.24638 0.0031515
-0.0051219 0.0094355 0.0017241 -0.0020814
-0.0021096 -0.00070551 -0.00090944 -7.1309e-05 -0.002152 -0.00018021 -0.0050831 0.0094365
0.19313 0.14732 0.00028158 0.0096807
0.000646 0.00036875 -0.00079465 -0.00051201 -0.00039185 -0.00089624 0.0017501 -0.0020906
0.00033168 0.0097047 0.253 0.17929
1760000000 0.27557 -0.06264 0.0041095 0.006721 -0.0019786 0.0012492 0.0013495 -0.0034839
-0.001308 0.00053259 0.00025417 -0.00057714
0.0040868 0.0067149 0.24413 0.206 0.00018741 -0.0017248 -0.0012517 2.7588e-05
-0.0012006 0.00095108 -0.00058721 0.00036385
-0.0019999 0.001263 0.0002028 -0.0017452 0.20681 -0.22678 0.0010644 0.0013294
-0.0012188 0.0014983 -0.0012498 -0.00061471
0.0013072 -0.0034923 -0.0012406 9.6864e-06 0.0010487 0.0013364 0.23731 -0.049165
-0.0015003 0.0089539 -8.6062e-05 -0.0025401
-0.0012751 0.00053154 -0.0011971 0.0009571 -0.001213 0.0015219 -0.0015176 0.0089681
0.20984 0.11512 0.0042676 0.0070709
0.00033839 -0.00059473 -0.00055055 0.00034572 -0.0012758 -0.00065825 -0.00013122 -0.0025426
0.0041824 0.0070812 0.26657 0.14199
1820000000 0.25255 -0.10037 0.0045378 0.0031236 0.00028191 0.0023762 -0.0008838 -0.0031004
-0.0012092 0.00088903 -7.2987e-05 -0.00015271
0.004543 0.003109 0.25517 0.17645 -0.0019939 0.00013259 -0.0014961 0.0009884
-8.018e-05 0.001335 -0.00064588 0.00040332
0.00030718 0.0023988 -0.0020015 0.0001384 0.15676 -0.24149 0.0017343 0.00074409
-0.00027201 0.0024019 -0.00174 0.00016924
-0.00091627 -0.003048 -0.0014817 0.0010128 0.0017223 0.00073131 0.20742 -0.09663
0.00039348 0.0077681 -0.0018345 -0.0018156
-0.0012415 0.00093723 -5.9665e-05 0.0013397 -0.00029293 0.002385 0.00043187 0.0077681
0.23002 0.088552 0.0051199 0.0031813
-7.4911e-05 -0.00013626 -0.00066949 0.00044021 -0.001647 0.00017512 -0.0017748 -0.0018242
0.005191 0.0032113 0.27045 0.10698
1880000000 0.21835 -0.14167 0.0024541 0.00075449 -0.00031837 0.0022468 -0.002816 -0.0023014
-0.00021989 0.0018329 0.00026196 -0.00053015
0.0024389 0.00074636 0.25977 0.12982 -0.0038898 0.0028181 -0.00024444 0.0018757
0.00062596 0.0014381 2.933e-05 0.0010202
-0.00031284 0.0022284 -0.0038697 0.0028194 0.10532 -0.24959 0.002112 -0.0010559
0.0016438 0.0020393 -0.0010276 0.0015012
-0.0028794 -0.0023621 -0.00027639 0.0018702 0.0020982 -0.001046 0.16652 -0.13735
0.001528 0.0054958 -0.0023486 0.00037246
-0.00019775 0.0017718 0.00060918 0.0014442 0.0016913 0.002047 0.0014698 0.0054994
0.23665 0.058816 0.0053815 0.0013278
0.00030905 -0.00050464 7.3877e-05 0.0009704 -0.0010613 0.0014962 -0.0024205 0.00032485
0.0052833 0.0013176 0.27148 0.072734
1940000000 0.17925 -0.16797 0.0002344 -0.0011495 0.0017749 0.0018137 -0.003917 0.00024739
0.0011723 0.00090797 -0.00038416 -0.00047192
0.00022864 -0.0011274 0.26116 0.098661 -0.0018713 0.0057165 0.0010849 0.0013526
0.0020952 0.0004351 0.0010516 0.00040399
0.0017417 0.0018288 -0.0018681 0.0057371 0.06154 -0.24145 0.00055577 -0.0025373
0.0024399 0.00040079 0.00040457 0.0018283
-0.0038632 0.00020185 0.0011223 0.0013477 0.00056059 -0.002503 0.11358 -0.16785
0.00077779 0.0038429 -0.0016259 0.0015287
0.0011821 0.00094733 0.0021004 0.0004171 0.0023874 0.00040405 0.00084359 0.0038966
0.2425 0.022291 0.0039018 -0.0024393
-0.00047213 -0.00049014 0.00096955 0.00045303 0.00044914 0.0017739 -0.0014431 0.0015546
0.0040043 -0.0023853 0.26193 0.037259
2000000000 0.13369 -0.18326 -0.003446 0.00092711 0.002913 0.0014122 -0.0024 0.0037065
0.00086028 0.00047976 -0.00088893 0.0003496
-0.0034399 0.0008979 0.24789 0.063358 -0.00061125 0.0078698 0.0016899 0.00031916
0.0012332 -0.001427 0.0003726 9.0622e-05
0.0029007 0.001406 -0.00055289 0.0078777 0.020224 -0.22752 -0.0016721 -0.0016431
0.0019385 -0.0011089 0.0015671 0.0015523
-0.00246 0.0037757 0.0016649 0.00030638 -0.0016574 -0.0015783 0.060189 -0.17792
-0.00061772 0.0033019 0.00021171 0.0022818
0.00091111 0.00047125 0.0012102 -0.0014297 0.0019551 -0.0010959 -0.00065327 0.0032673
0.24104 -0.010541 0.00068166 -0.0032303
