!Keysight Technologies,M9804A,MY58100912,A.14.10.03
!Date: Thursday, April 27, 2023 10:28:33
!Correction: S11(C  6-Port  ) 
!S12(C  6-Port  ) 
!S13(C  6-Port  ) 
!S14(C  6-Port  ) 
!S15(C  6-Port  ) 
!S16(C  6-Port  ) 
!S21(C  6-Port  ) 
!S22(C  6-Port  ) 
!S23(C  6-Port  ) 
!S24(C  6-Port  ) 
!S25(C  6-Port  ) 
!S26(C  6-Port  ) 
!S31(C  6-Port  ) 
!S32(C  6-Port  ) 
!S33(C  6-Port  ) 
!S34(C  6-Port  ) 
!S35(C  6-Port  ) 
!S36(C  6-Port  ) 
!S41(C  6-Port  ) 
!S42(C  6-Port  ) 
!S43(C  6-Port  ) 
!S44(C  6-Port  ) 
!S45(C  6-Port  ) 
!S46(C  6-Port  ) 
!S51(C  6-Port  ) 
!S52(C  6-Port  ) 
!S53(C  6-Port  ) 
!S54(C  6-Port  ) 
!S55(C  6-Port  ) 
!S56(C  6-Port  ) 
!S61(C  6-Port  ) 
!S62(C  6-Port  ) 
!S63(C  6-Port  ) 
!S64(C  6-Port  ) 
!S65(C  6-Port  ) 
!S66(C  6-Port  ) 
!S6P File: Measurement: :
# Hz S  RI   R 50
500000000 -0.32754 -0.064286 -0.010393 -0.0011694 -0.0083553 0.012151 -0.0044086 0.012147
0.013132 0.0063142 -0.0052566 0.0091833
-0.010322 -0.0011751 -0.40865 -0.074675 0.0086308 -0.010944 0.00061722 0.012001
0.0095677 0.0031985 0.00042522 0.013785
-0.008306 0.012207 0.0086161 -0.010973 -0.25695 0.19077 0.0063622 0.0032337
-0.0013109 0.0078936 0.00052111 0.012463
-0.0043448 0.012317 0.00065572 0.012037 0.0063442 0.0032479 -0.32699 0.040945
-0.020127 -0.0049632 0.015796 0.026594
0.013212 0.0064364 0.0094685 0.003288 -0.0013561 0.0079773 -0.020057 -0.0047087
-0.21957 -0.23278 -0.028418 0.0038615
-0.0050044 0.0091817 0.00066736 0.013828 0.00057288 0.012373 0.01592 0.026603
-0.028756 0.0037098 -0.26113 -0.14719
560000000 -0.31612 0.10404 -0.021793 -0.068291 0.00050063 0.013205 0.0053403 0.010593
0.010995 0.0052239 0.011008 0.0091238
-0.021194 -0.067766 -0.37137 0.090375 -0.041321 -0.038949 0.013918 0.004017
-0.01432 -0.0049379 0.0043327 -0.0011725
0.00013465 0.01325 -0.041487 -0.038891 -0.18214 0.24039 -0.00046721 -0.0055388
0.018836 0.0058218 0.0078086 -0.005488
0.0052135 0.010873 0.013983 0.0039461 -0.00047238 -0.0055339 -0.30391 0.13193
0.004983 -0.022742 0.0056489 -0.021631
0.010859 0.0053437 -0.014262 -0.0049745 0.018664 0.0057931 0.0051813 -0.022713
-0.30185 -0.050209 0.011273 -0.049046
0.011135 0.0095419 0.0041565 -0.0011601 0.008041 -0.0056167 0.0059166 -0.021712
0.010804 -0.0497 -0.33218 0.00621
620000000 -0.27462 0.081415 -0.023348 0.0091517 0.0034004 0.0091491 0.0079244 -0.0045469
0.012238 -0.00087818 -0.00012061 -0.0023726
-0.023215 0.0092477 -0.39951 0.035928 -0.018975 0.00024658 -0.0020363 -0.0020532
0.012717 -0.0052033 0.00058822 -0.0035726
0.0034485 0.0091979 -0.019002 0.00028944 -0.15489 0.25016 -0.0012879 -0.0048615
-0.0039518 -0.0031673 0.0091059 -0.0028757
0.0079677 -0.0046532 -0.0020484 -0.0020491 -0.0012887 -0.0048505 -0.26217 0.14127
-0.038733 -0.020768 0.012183 0.028331
0.012546 -0.00094504 0.012862 -0.0053799 -0.0039172 -0.0029946 -0.038918 -0.020973
-0.21739 -0.087985 -0.042594 0.01207
0.00017208 -0.002755 0.00029 -0.0034567 0.0088976 -0.0029966 0.012816 0.028731
-0.043698 0.01193 -0.24466 -0.032337
680000000 -0.24141 0.17413 -0.026285 -0.015144 0.0046667 0.0054753 0.00094751 -0.0076705
-0.002317 -0.011166 0.0057271 -0.0060806
-0.02613 -0.015001 -0.39034 0.13756 -0.03263 -0.0021018 -0.0020131 -0.00038112
-0.001325 -0.0093458 -0.00048414 -0.0016825
0.0047077 0.0055568 -0.03268 -0.0020202 -0.10768 0.27292 -0.00087114 -1.0471e-05
-0.0013037 0.00085257 -0.0027093 -0.0088693
0.001314 -0.0074144 -0.002017 -0.00036295 -0.00087683 -1.8495e-05 -0.21869 0.19344
-0.022719 -0.0080498 -0.0092072 -0.012233
-0.0017558 -0.011564 -0.0013769 -0.009417 -0.0012826 0.00083481 -0.022839 -0.0080113
-0.28302 0.014035 -0.0052938 -0.0068462
0.0059344 -0.0064172 -0.00063962 -0.0017427 -0.002551 -0.0088836 -0.0091225 -0.011894
-0.0054204 -0.0069013 -0.26191 0.072829
740000000 -0.19531 0.16673 -0.041036 0.026591 0.013732 -0.003934 3.322e-05 -0.0039547
-0.0042819 -0.002587 -0.006598 0.0031027
-0.040925 0.026345 -0.33703 0.15711 -0.037123 0.033887 -0.00034029 -0.0059139
-0.01261 0.0067208 -0.0014139 -0.0063895
0.013826 -0.0039309 -0.037048 0.03405 -0.074562 0.27327 -0.0018123 0.0030371
-0.0016462 -0.0049344 -0.0017066 0.0007007
2.5223e-05 -0.003822 -0.00036299 -0.005927 -0.0018359 0.0030269 -0.20335 0.19982
-0.042016 -0.0085004 0.022227 0.016127
-0.0038858 -0.0024275 -0.012777 0.0066711 -0.0015949 -0.00492 -0.042087 -0.0085073
-0.17883 0.0467 -0.043729 8.5903e-05
-0.0064183 0.0031718 -0.0017752 -0.0066338 -0.0015778 0.00057018 0.022079 0.016092
-0.043758 0.00017854 -0.25206 0.078231
800000000 -0.16613 0.2134 -0.022532 0.015835 0.0056056 -0.010289 -0.0043505 -0.0024635
-0.0039824 0.0017861 0.0048673 0.00018108
-0.022505 0.015981 -0.34465 0.22832 -0.0088458 0.034171 -0.0021112 0.0020303
-0.00035832 0.0025159 0.0011875 0.0050607
0.0056188 -0.010232 -0.0087478 0.034244 -0.036242 0.29926 0.0010668 0.0012402
2.8125e-05 0.0033926 -0.0016852 0.00050139
-0.0045006 -0.0024835 -0.0020895 0.0020373 0.0010553 0.0012394 -0.17404 0.22781
-0.028912 0.012594 0.014737 -0.010353
-0.0041798 0.0018808 -0.00031603 0.0024622 8.4629e-05 0.0033876 -0.028899 0.012591
-0.23153 0.072267 -0.018422 0.020112
0.0043527 0.00011383 0.0011316 0.0050432 -0.0017467 0.00051794 0.014646 -0.010363
-0.018178 0.020319 -0.24857 0.13017
860000000 -0.13247 0.23418 -0.018227 0.030498 -0.003067 -0.009966 -0.0021141 0.00052913
0.0042286 0.0052074 -0.0037062 -0.0025878
-0.018346 0.030381 -0.29792 0.27288 0.0073372 0.03435 7.2277e-05 0.0019583
0.0040144 0.00058873 0.0038721 0.00028178
-0.0031129 -0.0099787 0.0074682 0.034374 0.011915 0.30936 -0.00044278 -0.00046888
0.0025105 -0.0016376 0.0017257 0.0042186
-0.0019612 0.00044466 6.9462e-05 0.0019506 -0.00044879 -0.00047016 -0.13775 0.23945
-0.018358 0.017226 -0.0064498 -0.0099921
0.0042973 0.0052214 0.004076 0.00066334 0.0025914 -0.0016285 -0.018301 0.017329
-0.17688 0.13205 -0.026464 0.016347
-0.0038942 -0.0028369 0.0036558 0.00013436 0.0016329 0.0042199 -0.0067928 -0.0099931
-0.026527 0.016597 -0.1981 0.17693
920000000 -0.10943 0.25791 0.004283 0.039136 -0.009265 -0.0046094 -0.0017625 0.0016119
0.00014613 0.0016291 0.0030073 -0.0012412
0.0042706 0.039114 -0.27117 0.29504 0.027839 0.02299 0.0015452 0.0010757
0.0069221 0.00017298 0.0040147 -0.0027851
-0.0092738 -0.0045913 0.027957 0.022939 0.058097 0.31164 0.0017386 -5.273e-05
0.00051319 -0.00035516 0.00089047 -0.0014663
-0.0017705 0.001726 0.0015394 0.0010733 0.0017463 -5.515e-05 -0.11394 0.25636
-0.012608 0.030376 0.0042982 -0.0063139
0.00025762 0.0014823 0.0069522 0.00017462 0.00050842 -0.00036159 -0.012534 0.030395
-0.17023 0.13735 -0.0033989 0.028107
0.0031376 -0.0012247 0.0041258 -0.0029826 0.00085356 -0.0014857 0.0043763 -0.0064249
-0.0034039 0.028119 -0.20732 0.19151
980000000 -0.06384 0.2797 0.016398 0.03055 -0.0093166 0.0046226 0.0016191 0.0036354
0.0038593 -0.0015986 -0.0036037 -0.0025508
0.016312 0.03058 -0.21936 0.33215 0.032947 0.0054375 0.0018297 -0.00021806
0.0019134 -0.0061031 -0.00067085 -0.0026993
-0.0092964 0.0046385 0.033023 0.0053406 0.10456 0.30644 0.00046746 -0.0010923
0.00037532 -0.0017793 0.0014388 -0.00028232
0.001612 0.0036706 0.0018226 -0.00025368 0.00047072 -0.0010946 -0.075767 0.26771
0.0063593 0.030067 -0.0094541 -0.0077861
0.003898 -0.0013396 0.001867 -0.0061457 0.00037821 -0.0017495 0.0063787 0.030085
-0.13941 0.17217 0.0047762 0.020813
-0.0035782 -0.0026808 -0.00064623 -0.0027452 0.0014333 -0.0003021 -0.0093918 -0.0077827
0.00461 0.020801 -0.16695 0.23937
1040000000 -0.02263 0.28957 0.032963 0.02005 -0.001174 0.0074652 0.0024793 0.00076001
0.00032808 -0.0034607 -9.0497e-07 -0.0014757
0.032947 0.020017 -0.18468 0.34666 0.029698 -0.014204 0.0014633 -0.0017192
-0.0022187 -0.0023784 -0.0011799 -0.0030167
-0.001153 0.0074345 0.029701 -0.014326 0.15089 0.29405 -0.00050217 -0.0014117
-0.0014809 -0.00096461 -0.00063596 -0.0011504
0.0025389 0.00077017 0.0014531 -0.0017444 -0.00050154 -0.0014039 -0.048809 0.2778
0.018663 0.0195 -0.0021377 0.0013479
0.00022722 -0.0034602 -0.0022416 -0.0023894 -0.0014982 -0.00097193 0.018691 0.019533
-0.10784 0.1814 0.013533 0.019824
0.00013261 -0.0015083 -0.0011665 -0.0029954 -0.00066558 -0.0011754 -0.0021599 0.0013413
0.013585 0.019838 -0.14595 0.26047
1100000000 0.022064 0.30036 0.036662 -0.0026285 0.003392 0.0041808 0.0024655 -0.0010753
-0.0023362 -0.0032305 -0.0042332 -7.8311e-07
0.036648 -0.0025651 -0.14114 0.3666 0.015568 -0.027453 -9.7869e-05 -0.0018863
-0.003356 -0.00097973 -0.0038013 -0.00069333
0.0034266 0.0041405 0.015483 -0.027562 0.19756 0.27498 -0.0017455 0.00029854
-0.0016392 0.0006314 -0.0011508 -0.00043693
0.0025093 -0.001049 -0.00010889 -0.0018923 -0.0017437 0.00029644 -0.0085137 0.2832
0.024376 0.006588 -0.0026537 0.00014213
-0.0023133 -0.0031951 -0.0033449 -0.00096103 -0.0016291 0.00065302 0.024392 0.0065426
-0.08909 0.19762 0.01951 0.0098721
-0.0041914 -1.1999e-05 -0.0038169 -0.00064596 -0.0011151 -0.00042904 -0.002543 0.00011117
0.019535 0.0097873 -0.10105 0.29291
1160000000 0.073136 0.29728 0.025125 -0.019893 0.0033943 -0.00059762 -0.00020681 -0.0024631
-0.0041226 -0.001084 -0.0011432 0.0043281
0.025138 -0.019853 -0.097534 0.37176 -0.0033831 -0.028662 -0.0016202 -0.0014621
-0.0026459 0.0024937 -0.0014327 0.0020939
0.0033618 -0.00062675 -0.0035072 -0.028672 0.24108 0.24517 -0.00060838 0.0016733
-0.00040071 0.0017554 -0.00092842 0.00022818
-0.00020177 -0.0024094 -0.0016429 -0.0014629 -0.00061428 0.001666 0.030551 0.28049
0.021678 -0.0093032 -0.0034675 0.0049915
-0.0041903 -0.0010512 -0.0026489 0.0025457 -0.00037976 0.0017578 0.021674 -0.0092974
-0.055137 0.20835 0.019635 0.0010398
-0.0011466 0.0042439 -0.0014391 0.0021018 -0.00094338 0.00023727 -0.0034821 0.0050426
0.019618 0.00098847 -0.053736 0.29581
1220000000 0.11701 0.28876 0.012155 -0.029957 -0.0011342 -0.0014316 9.0479e-05 -0.0010533
-0.0027377 0.0023436 0.0011717 0.0019772
0.012169 -0.029934 -0.053331 0.38643 -0.016589 -0.021126 -0.0024697 0.00049291
2.7707e-05 0.0031003 -0.00082877 0.001926
-0.0011473 -0.0014297 -0.01671 -0.02108 0.28081 0.2072 0.00081726 0.0015282
0.0005565 0.0011245 0.00028878 0.00061917
4.9882e-05 -0.0010389 -0.0024722 0.00049992 0.00081946 0.0015313 0.070133 0.27288
0.011301 -0.016258 0.002155 0.0016738
-0.0027131 0.0023734 4.7824e-05 0.0030909 0.00054249 0.0011212 0.011236 -0.016287
-0.033046 0.21977 0.015016 -0.012443
0.0011595 0.0020483 -0.00081993 0.0019281 0.00029933 0.00062701 0.002092 0.0016689
0.015071 -0.012481 -0.023282 0.31486
1280000000 0.1676 0.26916 -0.0067264 -0.029157 -0.0019162 0.0017899 -0.00097156 -0.0021005
-0.00097629 0.0033448 0.0024796 0.0013684
-0.0066889 -0.029118 -0.0065492 0.37873 -0.023614 -0.0082511 -0.000858 0.0014585
0.0016646 0.0017442 0.00065868 0.0021276
-0.001912 0.0017979 -0.023693 -0.0081523 0.31247 0.16394 0.001442 -0.00013988
0.0010713 0.00030637 0.00027617 0.00034976
-0.00099133 -0.0021223 -0.00085883 0.0014714 0.0014411 -0.0001459 0.10686 0.25701
0.0019165 -0.019052 -8.359e-06 0.00014936
-0.00096361 0.0033362 0.0016587 0.0017463 0.001058 0.00029125 0.0018981 -0.019075
0.0037401 0.22556 0.0039471 -0.015277
0.0025497 0.0014107 0.00075876 0.0021351 0.0002961 0.00037811 -5.0754e-05 9.849e-05
0.0039905 -0.015303 0.024332 0.31833
1340000000 0.20519 0.23748 -0.01673 -0.020036 0.00037757 0.0041359 -0.0018809 -0.00083491
0.0015573 0.0027617 0.0017465 -0.0013682
-0.016682 -0.020007 0.032646 0.37203 -0.020926 0.0044258 -0.00018654 0.0019124
0.0018498 0.00083815 0.0012242 0.00078328
0.00041492 0.0041338 -0.020938 0.0045366 0.33542 0.11652 0.00081682 -0.00088699
0.00054356 -0.00055412 0.00017722 0.00026648
-0.0018648 -0.00081878 -0.00017827 0.0018968 0.00081923 -0.00089008 0.14006 0.23753
-0.0073911 -0.016661 0.0011266 0.00044282
0.0015991 0.002781 0.0018537 0.0007948 0.00053392 -0.00055424 -0.0074319 -0.016674
0.032991 0.22387 -0.0027837 -0.014197
0.0017407 -0.0014686 0.0012447 0.0007576 0.0001648 0.00023019 0.001129 0.00044564
-0.0027223 -0.01419 0.062383 0.31503
1400000000 0.24 0.20115 -0.023339 -0.0087302 0.0047558 0.003095 -0.0021884 0.00080777
0.0025505 0.0010242 0.00041708 -0.0013816
-0.023314 -0.0087405 0.071248 0.36028 -0.014218 0.012358 0.0012779 0.0013582
0.0011465 -0.00064887 0.001121 0.00025736
0.0047765 0.0030807 -0.014175 0.01245 0.34967 0.062631 -1.4287e-05 -0.0013377
0.00018639 -0.00017426 0.00036164 0.00018591
-0.0021969 0.00080194 0.0012774 0.0013547 -2.0703e-05 -0.0013479 0.17021 0.20912
-0.013742 -0.010228 -0.00093265 -0.00037879
0.0025769 0.00098606 0.0011324 -0.00063756 0.00016462 -0.00018378 -0.013743 -0.010213
0.066483 0.22267 -0.0095672 -0.0091833
0.0003844 -0.001351 0.0011494 0.0002729 0.0003727 0.0002099 -0.00097554 -0.00040358
-0.0096095 -0.0091867 0.10788 0.30596
1460000000 0.26393 0.1582 -0.020741 0.0038004 0.0051792 -0.0015703 -0.0014223 0.0017196
0.0021909 -0.00035902 -0.00020326 -0.00095745
-0.020711 0.003793 0.10612 0.33893 -0.0052712 0.014955 0.0016208 0.00026613
0.0011426 -0.0012482 0.001241 -0.00049608
0.0051713 -0.0016017 -0.005193 0.015012 0.35616 0.0075368 -0.0010421 -0.0010658
0.00028448 -0.00017446 0.00064292 -0.00031771
-0.0014285 0.0017387 0.0016165 0.00025568 -0.0010521 -0.0010726 0.19715 0.18042
-0.015045 -0.0037979 -0.00091854 0.0019206
0.002135 -0.00038523 0.0011587 -0.0012576 0.00030239 -0.00017888 -0.015043 -0.00377
0.095872 0.21102 -0.011535 -0.0031733
-0.00020491 -0.00091024 0.001215 -0.00053188 0.00065672 -0.00030108 -0.00092283 0.0018145
-0.011575 -0.0032229 0.14141 0.28614
1520000000 0.27771 0.1176 -0.015481 0.0095404 0.0031685 -0.0039548 0.00012112 0.0026535
0.0023507 -0.0018769 -0.0011159 -0.00023015
-0.015463 0.0095169 0.14044 0.32558 0.0021756 0.012247 0.0016746 -0.00070244
0.00020966 -0.0010385 0.00037151 -0.00098277
0.0031482 -0.0039735 0.00224 0.012246 0.34911 -0.049069 -0.00074456 -0.00034486
0.00075358 -0.00092328 8.2714e-05 -0.00017353
0.00012339 0.0026593 0.0016733 -0.00071589 -0.00074623 -0.00034386 0.22135 0.14234
-0.015033 0.0017143 0.0013214 0.0019983
0.0023527 -0.0019751 0.00021045 -0.0010544 0.0007791 -0.00092629 -0.015023 0.0017535
0.12426 0.20038 -0.011814 0.0013021
-0.0011394 -0.00014892 0.000382 -0.00098906 0.00012434 -0.00017378 0.0013448 0.0020212
-0.0118 0.0013 0.17526 0.26792
1580000000 0.2885 0.071993 -0.0089789 0.013273 -0.0011558 -0.0045565 0.0015605 0.0018323
-0.00014445 -0.0022398 -0.00025945 0.00036077
-0.0089653 0.013266 0.16868 0.30093 0.0054069 0.0071039 0.00063876 -0.0015527
-0.00040367 -0.0011854 -0.00014657 -0.00076844
-0.00118 -0.0045656 0.0054599 0.0070812 0.32867 -0.10674 -0.0014241 0.000232
-0.00039468 -0.0013967 0.00026715 -0.00056896
0.0015802 0.0018313 0.00061608 -0.0015663 -0.0014197 0.00024146 0.23601 0.1027
-0.011767 0.0069487 0.0021158 0.0008262
-0.00017902 -0.002203 -0.00041952 -0.0011928 -0.00040055 -0.0013764 -0.011767 0.0070032
0.14975 0.18556 -0.0093991 0.0074685
-0.00028005 0.00032294 -0.00016384 -0.0007785 0.00029269 -0.00056627 0.0021221 0.00083552
-0.0094095 0.0074098 0.20881 0.24244
1640000000 0.29186 0.031204 -0.0021132 0.012394 -0.0028261 -0.0022244 0.0027186 0.0010286
-0.00061479 -0.0017019 -0.00029074 0.0005207
-0.0021167 0.012391 0.19858 0.27694 0.0054547 0.0021832 -0.0005195 -0.0018779
-0.00094221 -0.00062113 -0.00043344 -0.0006795
-0.0028347 -0.0022195 0.0054739 0.0021548 0.29923 -0.1558 -0.00077212 0.0011938
-0.0010851 -0.0011247 -8.0017e-05 -0.0003978
0.0027486 0.0010192 -0.00053296 -0.0018787 -0.00077826 0.0011893 0.24902 0.053633
-0.007809 0.008393 0.0026117 -0.00073335
-0.00057852 -0.0017258 -0.00093672 -0.00060943 -0.001097 -0.0011239 -0.0078326 0.0084219
0.17368 0.16464 -0.0045158 0.0094202
-0.0003031 0.00046699 -0.00045307 -0.00069534 -8.8903e-05 -0.00039675 0.0026455 -0.000712
-0.0044984 0.0094107 0.23487 0.21259
1700000000 0.2864 -0.013757 0.0014725 0.0098636 -0.0034778 0.00034938 0.0031199 -0.0012001
-0.0020681 -0.00072401 0.00056783 0.00037402
0.0014449 0.0098588 0.21776 0.24556 0.0027993 -0.00041176 -0.0014693 -0.0006612
-0.0008975 -0.00013093 -0.00079937 -0.00049399
-0.0034677 0.00037622 0.0028097 -0.00042749 0.25562 -0.1947 3.2996e-05 0.0016148
-0.0021579 -0.00020752 -0.00039112 -0.00088624
0.0031301 -0.001236 -0.0014793 -0.00066795 3.7389e-05 0.0016167 0.24637 0.0031514
-0.0050709 0.0094447 0.0017331 -0.0020582
-0.0020818 -0.00069928 -0.00089697 -0.00011512 -0.0021642 -0.00019027 -0.0050609 0.0094516
0.19313 0.14727 0.00029994 0.0097186
0.00056138 0.00032751 -0.00079686 -0.00050968 -0.0003932 -0.00087138 0.0016733 -0.0020676
0.00032145 0.0097034 0.25307 0.17921
1760000000 0.27559 -0.062603 0.0041189 0.0067354 -0.0019843 0.0012646 0.0013444 -0.0035147
-0.0013071 0.000533 0.00030844 -0.00057986
0.0041113 0.0067152 0.24408 0.20602 0.00019639 -0.0017308 -0.0012449 2.2105e-05
-0.001203 0.00095171 -0.00055074 0.00037277
-0.0019751 0.0012821 0.00017896 -0.0017313 0.20685 -0.22679 0.0010662 0.0013434
-0.0012176 0.001501 -0.0012727 -0.00062805
0.0013125 -0.003508 -0.0012453 2.588e-05 0.0010625 0.0013295 0.23727 -0.049133
-0.0015204 0.0089821 -0.00012807 -0.0025635
-0.0012964 0.00052057 -0.0011956 0.00097443 -0.001211 0.0014926 -0.0015197 0.0089649
0.20993 0.11508 0.0042479 0.0070304
0.00032867 -0.00056841 -0.00055709 0.00038062 -0.0012702 -0.00060299 -0.00011669 -0.0025997
0.0042615 0.0070518 0.26668 0.14192
1820000000 0.25257 -0.10026 0.0045365 0.0031329 0.00026679 0.0023847 -0.00086254 -0.0031209
-0.0012215 0.00092733 -0.0001454 -0.0001084
0.0045332 0.0031228 0.25515 0.17649 -0.0019985 0.00011425 -0.0014857 0.00098985
-9.6842e-05 0.001356 -0.00068975 0.00039818
0.00026438 0.0023948 -0.0020059 0.00013432 0.15676 -0.24151 0.0016858 0.00074085
-0.00027542 0.0024083 -0.0016694 0.00018499
-0.00084032 -0.0031161 -0.0014832 0.00099171 0.0017117 0.00074649 0.20746 -0.096702
0.00041236 0.0077382 -0.0018209 -0.0017821
-0.0012095 0.00090625 -7.8916e-05 0.0013594 -0.00026745 0.0023963 0.00044886 0.0077346
0.23015 0.088448 0.0051337 0.0032241
-0.00013486 -0.00011032 -0.00067567 0.00038924 -0.0017036 0.00015716 -0.0017949 -0.0017859
0.0050995 0.0032209 0.27044 0.10684
1880000000 0.21835 -0.14161 0.0024139 0.00074939 -0.00031318 0.0022832 -0.0028309 -0.0022932
-0.00024783 0.001777 0.00023497 -0.00054299
0.0024064 0.00075761 0.25969 0.12984 -0.0038808 0.0028274 -0.00025329 0.0018589
0.00062072 0.0014211 5.0624e-06 0.0010042
-0.00032951 0.0022877 -0.0038733 0.0028543 0.10537 -0.24961 0.0021066 -0.0010671
0.0016806 0.0020872 -0.0011116 0.0015037
-0.0028483 -0.0022872 -0.00023378 0.0018585 0.002114 -0.0010769 0.16646 -0.1373
0.0015043 0.0055251 -0.0023835 0.00027421
-0.0001905 0.0017881 0.00063239 0.00142 0.0016904 0.0020644 0.0015046 0.0055131
0.23661 0.05881 0.0053703 0.0012117
0.00027371 -0.00052142 2.8496e-05 0.0010187 -0.001118 0.001521 -0.0024165 0.00026374
0.0053455 0.0012715 0.27156 0.072746
1940000000 0.17926 -0.16803 0.00024838 -0.0011469 0.0017678 0.0018052 -0.0038954 0.00024756
0.0011702 0.00093298 -0.00042143 -0.00050001
0.00024555 -0.0011722 0.26115 0.098659 -0.0018724 0.0057143 0.0010866 0.0013729
0.0020942 0.00046283 0.00097353 0.00036949
0.001755 0.0017871 -0.0018398 0.0057329 0.061526 -0.24142 0.0005571 -0.0025267
0.0024043 0.00039134 0.00039257 0.0017629
-0.0038817 0.00024651 0.001094 0.0013603 0.00055797 -0.0025271 0.11349 -0.16791
0.00081258 0.0038784 -0.0014368 0.0016493
0.0011573 0.00094359 0.0021022 0.00044934 0.0024368 0.00039405 0.00080204 0.00389
0.24264 0.022154 0.0039657 -0.0023134
-0.00043447 -0.00049349 0.0010264 0.00036212 0.00043937 0.0017828 -0.0014545 0.0015811
0.0039665 -0.0023148 0.26194 0.037223
2000000000 0.13381 -0.18307 -0.0034029 0.00095204 0.0029244 0.0013349 -0.0024576 0.003731
0.00088237 0.00045522 -0.00085381 0.00037542
-0.003398 0.00092982 0.24785 0.063399 -0.00059838 0.0078355 0.0016876 0.00027533
0.0012331 -0.0014103 0.00041309 0.00015925
0.0028975 0.0013345 -0.00055008 0.0078685 0.020275 -0.22749 -0.0016265 -0.0016655
0.0019569 -0.0011186 0.0015459 0.001504
-0.0024387 0.0038407 0.0016986 0.00025378 -0.0016243 -0.0016957 0.060099 -0.17779
-0.00069546 0.0032508 3.7403e-05 0.0022069
0.00097165 0.0004524 0.0012623 -0.0014365 0.0019378 -0.0011061 -0.00067571 0.0032492
0.24093 -0.010689 0.00065241 -0.0032746
