!Keysight Technologies,M9804A,MY58100912,A.14.10.03
!Date: Thursday, April 27, 2023 10:28:33
!Correction: S11(C  6-Port  ) 
!S12(C  6-Port  ) 
!S13(C  6-Port  ) 
!S14(C  6-Port  ) 
!S15(C  6-Port  ) 
!S16(C  6-Port  ) 
!S21(C  6-Port  ) 
!S22(C  6-Port  ) 
!S23(C  6-Port  ) 
!S24(C  6-Port  ) 
!S25(C  6-Port  ) 
!S26(C  6-Port  ) 
!S31(C  6-Port  ) 
!S32(C  6-Port  ) 
!S33(C  6-Port  ) 
!S34(C  6-Port  ) 
!S35(C  6-Port  ) 
!S36(C  6-Port  ) 
!S41(C  6-Port  ) 
!S42(C  6-Port  ) 
!S43(C  6-Port  ) 
!S44(C  6-Port  ) 
!S45(C  6-Port  ) 
!S46(C  6-Port  ) 
!S51(C  6-Port  ) 
!S52(C  6-Port  ) 
!S53(C  6-Port  ) 
!S54(C  6-Port  ) 
!S55(C  6-Port  ) 
!S56(C  6-Port  ) 
!S61(C  6-Port  ) 
!S62(C  6-Port  ) 
!S63(C  6-Port  ) 
!S64(C  6-Port  ) 
!S65(C  6-Port  ) 
!S66(C  6-Port  ) 
!S6P File: Measurement: :
# Hz S  RI   R 50
500000000 -0.32688 -0.064767 -0.010679 -0.0017503 -0.0084202 0.012531 -0.0045909 0.011984
0.013501 0.0064493 -0.0048846 0.009422
-0.010476 -0.001513 -0.40979 -0.074928 0.0082503 -0.010895 0.00082109 0.01181
0.0094506 0.0029606 0.0010123 0.014262
-0.0086213 0.01238 0.007897 -0.010619 -0.25745 0.19065 0.0063941 0.0033792
-0.0019077 0.0078907 0.00065087 0.012589
-0.0038272 0.011839 0.00089166 0.011848 0.0064094 0.0028511 -0.32605 0.040883
-0.020655 -0.004961 0.017161 0.026543
0.012817 0.0060294 0.0087611 0.0029 -0.0015279 0.008188 -0.020689 -0.004845
-0.2196 -0.23388 -0.028523 0.0042935
-0.0050713 0.0088769 0.00054643 0.014204 0.00039724 0.012177 0.016936 0.026891
-0.028826 0.0038846 -0.25925 -0.14614
560000000 -0.31697 0.10407 -0.021585 -0.06718 0.0002848 0.013057 0.0054656 0.010491
0.010773 0.0035697 0.0114 0.010128
-0.021293 -0.066933 -0.37068 0.090237 -0.041678 -0.039294 0.01401 0.0028808
-0.013873 -0.0045423 0.0037961 -0.0015981
9.9142e-05 0.013404 -0.041409 -0.038987 -0.18203 0.24029 -0.00052951 -0.0051876
0.018011 0.0057557 0.0074842 -0.0052749
0.0058706 0.010638 0.014636 0.0040102 -0.00065494 -0.0052555 -0.30371 0.13087
0.0054138 -0.021665 0.0061216 -0.021613
0.011152 0.0050431 -0.013127 -0.0052386 0.018389 0.0060591 0.0055034 -0.021492
-0.29946 -0.053356 0.012011 -0.050073
0.011797 0.0092285 0.0041933 -0.0012215 0.0078417 -0.0056407 0.005824 -0.021895
0.011799 -0.050195 -0.32955 0.0069518
620000000 -0.27552 0.080986 -0.023397 0.0088717 0.003339 0.0088521 0.0079679 -0.0040415
0.011795 -0.0019474 0.00047626 -0.00096334
-0.023321 0.0088305 -0.3997 0.035667 -0.018914 0.00013299 -0.001718 -0.002068
0.012263 -0.0054414 0.0010739 -0.0030039
0.0034403 0.009182 -0.018985 0.00012063 -0.15467 0.25021 -0.0013256 -0.004979
-0.0035926 -0.0033386 0.0083417 -0.0033172
0.0084129 -0.0042296 -0.0014048 -0.002093 -0.0012525 -0.0051732 -0.26313 0.14102
-0.038753 -0.02114 0.011895 0.027851
0.012385 -0.00067279 0.012044 -0.0052576 -0.0038112 -0.0027668 -0.038631 -0.021258
-0.21543 -0.086288 -0.043386 0.013124
0.00031386 -0.0020208 0.00083498 -0.0029546 0.0087717 -0.0033341 0.012305 0.027847
-0.043342 0.012466 -0.24456 -0.03239
680000000 -0.24165 0.17357 -0.026059 -0.015178 0.0046277 0.0054228 0.001328 -0.0070295
-0.0021947 -0.012106 0.0052571 -0.0063636
-0.026182 -0.015197 -0.39025 0.13753 -0.032627 -0.0021817 -0.0018764 -0.00020894
-0.0013963 -0.0098697 -0.0010574 -0.0013287
0.0047771 0.0054327 -0.032561 -0.0021084 -0.10766 0.27284 -0.00080366 2.8634e-05
-0.0013803 0.0005351 -0.0030824 -0.0086955
0.0015689 -0.0070916 -0.0018073 -0.00035194 -0.00071667 0.00012755 -0.21953 0.19315
-0.022294 -0.0074706 -0.0090794 -0.011506
-0.0022763 -0.011462 -0.0017687 -0.0098468 -0.001295 0.00057429 -0.022587 -0.0073828
-0.28272 0.0136 -0.0056486 -0.0074214
0.0054205 -0.0066075 -0.0009407 -0.0017794 -0.0029129 -0.0087086 -0.0089492 -0.011436
-0.0056183 -0.0071102 -0.26225 0.075282
740000000 -0.19497 0.16686 -0.041227 0.026264 0.01376 -0.0038646 0.00013148 -0.0038021
-0.0037443 -0.0025042 -0.0063999 0.0029868
-0.041169 0.026468 -0.33657 0.15755 -0.037121 0.034121 0.00031249 -0.005802
-0.012295 0.0069762 -0.001472 -0.0059116
0.013712 -0.0039398 -0.03724 0.034295 -0.074577 0.27332 -0.0017038 0.0031615
-0.0015241 -0.0049553 -0.001569 0.00038407
-0.00018231 -0.0038428 -9.6596e-05 -0.0058703 -0.00168 0.0030834 -0.20312 0.20037
-0.041843 -0.0097008 0.022526 0.016236
-0.0045753 -0.001969 -0.012564 0.0069237 -0.0012298 -0.0049744 -0.041786 -0.0095687
-0.18164 0.048257 -0.043656 -1.4302e-05
-0.0065395 0.0032245 -0.0013065 -0.0057421 -0.0021369 0.00040253 0.022294 0.016491
-0.043223 0.0002277 -0.2522 0.077731
800000000 -0.16615 0.21301 -0.022643 0.016003 0.0056896 -0.010226 -0.0044689 -0.0024667
-0.0037662 0.0018971 0.0047386 5.773e-05
-0.022581 0.016042 -0.34485 0.22846 -0.0088858 0.034258 -0.0021424 0.002156
-0.00042408 0.0023724 0.00084957 0.0052809
0.0054956 -0.010302 -0.0089282 0.034329 -0.036176 0.29913 0.0011631 0.0012977
-6.6452e-05 0.0032701 -0.0016945 0.00063279
-0.0045346 -0.0024757 -0.002094 0.0019888 0.0011619 0.0012569 -0.17421 0.22747
-0.028783 0.012739 0.014281 -0.010839
-0.0035648 0.001931 -0.00040783 0.0025797 -6.0278e-05 0.0034155 -0.028852 0.012988
-0.2324 0.071423 -0.017338 0.020899
0.0044284 0.00023575 0.00091269 0.0051672 -0.001232 0.00056671 0.014569 -0.010985
-0.017458 0.020946 -0.2488 0.12891
860000000 -0.13229 0.23426 -0.01823 0.030489 -0.0031081 -0.0099299 -0.0020323 0.00052116
0.0040759 0.0052182 -0.0038383 -0.003088
-0.018335 0.030401 -0.2981 0.27293 0.0073282 0.034415 0.0001304 0.0020813
0.0037458 0.00042171 0.003582 0.00034651
-0.0031084 -0.01004 0.0074383 0.034416 0.011824 0.30931 -0.00045762 -0.00046379
0.0025942 -0.0015296 0.0016587 0.0042376
-0.0019166 0.00064903 0.00017247 0.0019339 -0.00044374 -0.00044989 -0.13792 0.23921
-0.018355 0.01724 -0.0068688 -0.0094435
0.004071 0.0054252 0.0038158 0.00053828 0.0026225 -0.001639 -0.018094 0.017184
-0.17675 0.13246 -0.027396 0.016064
-0.0035867 -0.0033722 0.003476 0.00026309 0.0015353 0.0041262 -0.0069353 -0.009528
-0.027205 0.016235 -0.19735 0.17803
920000000 -0.10951 0.25818 0.004261 0.039131 -0.0092693 -0.0045879 -0.0019197 0.0014803
0.0001936 0.0017854 0.0032558 -0.0011545
0.0043535 0.039135 -0.27117 0.29507 0.027828 0.02306 0.0014998 0.0011161
0.0071946 6.0174e-05 0.0041808 -0.0030906
-0.0092176 -0.0045589 0.027958 0.022979 0.058065 0.3116 0.0017495 -8.9905e-05
0.00053328 -0.00042216 0.00092156 -0.0014894
-0.0017897 0.0016483 0.0014676 0.001049 0.0017915 -9.8268e-05 -0.114 0.25618
-0.012514 0.030664 0.0040587 -0.0067709
0.00017147 0.0016328 0.0070992 0.00015776 0.00048194 -0.00029478 -0.012677 0.030818
-0.17016 0.1372 -0.0031417 0.028809
0.0032837 -0.0012592 0.0039771 -0.0030589 0.00094721 -0.0015449 0.0043065 -0.0067402
-0.003106 0.028705 -0.20777 0.19116
980000000 -0.06355 0.27944 0.016347 0.030507 -0.0093388 0.0046239 0.0017537 0.0036529
0.0037887 -0.001567 -0.003649 -0.0027871
0.016363 0.03048 -0.2195 0.33207 0.032936 0.0054304 0.0018989 -7.3566e-05
0.0016814 -0.0062109 -0.0004299 -0.0025556
-0.0093307 0.0046116 0.033009 0.0053423 0.10448 0.30645 0.00045948 -0.0010977
0.00044538 -0.0017545 0.0014195 -0.00031699
0.0017533 0.0036429 0.0018281 -0.00018876 0.00046399 -0.0011048 -0.075778 0.26753
0.0064608 0.030287 -0.0093853 -0.0078827
0.0038875 -0.0015305 0.0020702 -0.0060713 0.00037957 -0.0017467 0.0066251 0.030172
-0.13946 0.17216 0.0045003 0.020442
-0.003659 -0.0028366 -0.00052374 -0.0027058 0.0013886 -0.00024988 -0.0095386 -0.0079337
0.0046194 0.02067 -0.16685 0.23921
1040000000 -0.022829 0.28987 0.032949 0.020063 -0.0011784 0.0074682 0.002498 0.00060668
0.00041125 -0.0033583 -0.00026698 -0.0014327
0.032933 0.020053 -0.18485 0.34671 0.029685 -0.014203 0.0014761 -0.0016985
-0.0023093 -0.0025357 -0.0011723 -0.0029271
-0.0011171 0.0074588 0.029705 -0.0143 0.15088 0.29403 -0.00054076 -0.0013868
-0.0015421 -0.0010255 -0.00065034 -0.0011691
0.0025748 0.00071895 0.001491 -0.00172 -0.00053184 -0.0013809 -0.04862 0.27775
0.018381 0.019487 -0.0021657 0.0012913
0.00064303 -0.0033536 -0.0023221 -0.0023813 -0.0015272 -0.00099189 0.018228 0.019466
-0.1078 0.18103 0.013365 0.020115
-0.00036467 -0.0014122 -0.0013349 -0.0029165 -0.00070576 -0.0011269 -0.0020775 0.0014702
0.013185 0.019981 -0.14591 0.2601
1100000000 0.021902 0.30013 0.036656 -0.0026831 0.0034141 0.0041453 0.0025458 -0.00096429
-0.0023485 -0.003168 -0.0042627 -0.00015851
0.0366 -0.0027011 -0.14121 0.36659 0.015561 -0.027481 -3.1487e-05 -0.0017925
-0.0035666 -0.00096246 -0.0037441 -0.00055005
0.0034342 0.0041414 0.015506 -0.027569 0.19749 0.27492 -0.0017145 0.00031174
-0.0016912 0.00074579 -0.0010874 -0.00045829
0.0025264 -0.001016 -0.00010596 -0.0018488 -0.0017658 0.00033375 -0.0086208 0.28313
0.024483 0.0064691 -0.0027809 3.3089e-05
-0.002377 -0.0031073 -0.0034725 -0.00098261 -0.0016567 0.00065535 0.02451 0.0064868
-0.088902 0.19759 0.019654 0.0093433
-0.0042099 -0.00011747 -0.0036323 -0.00058038 -0.0010707 -0.00042961 -0.0028267 -5.7511e-05
0.019653 0.0094702 -0.10108 0.29273
1160000000 0.073177 0.29742 0.025155 -0.019958 0.0033678 -0.00064227 -0.00010687 -0.0024804
-0.0040265 -0.00086636 -0.0010665 0.0042002
0.025203 -0.019861 -0.097551 0.37175 -0.0034031 -0.028707 -0.0016132 -0.0015483
-0.0027373 0.002438 -0.0014588 0.0020425
0.0033549 -0.0006368 -0.0035111 -0.028737 0.24102 0.24516 -0.00061305 0.0016808
-0.00049198 0.0017861 -0.00097899 0.00026847
-0.00013273 -0.0024515 -0.001634 -0.0015361 -0.00062804 0.0017035 0.030301 0.28051
0.021784 -0.0096292 -0.0037056 0.0049989
-0.0040865 -0.0009021 -0.0027889 0.0024083 -0.00046406 0.0018564 0.021734 -0.009655
-0.05492 0.20837 0.019555 0.0010437
-0.0011735 0.0043122 -0.0015386 0.0020971 -0.0009184 0.0002514 -0.0037663 0.0051756
0.019206 0.00099377 -0.053449 0.29626
1220000000 0.11686 0.28866 0.012173 -0.02991 -0.0011114 -0.001416 -9.1386e-07 -0.00099455
-0.0028 0.0022285 0.0011136 0.0020179
0.012119 -0.029951 -0.053364 0.38654 -0.016571 -0.021122 -0.0024634 0.00050405
8.4306e-06 0.0030348 -0.000839 0.0019538
-0.001126 -0.0014075 -0.016681 -0.021075 0.2808 0.2072 0.00085119 0.0014703
0.00058979 0.001108 0.00023935 0.00061079
-7.4583e-05 -0.0010467 -0.0025045 0.00051094 0.00087047 0.0014965 0.070093 0.27286
0.011299 -0.016296 0.0023096 0.0016708
-0.0028246 0.0022144 5.0514e-05 0.0030519 0.00058092 0.0010832 0.011279 -0.016292
-0.032925 0.21998 0.015015 -0.012306
0.0011774 0.0020745 -0.00083294 0.0019872 0.00019987 0.00060114 0.0022701 0.0015729
0.015144 -0.012271 -0.023282 0.31488
1280000000 0.1677 0.26932 -0.0066786 -0.02923 -0.0018863 0.0017505 -0.0010516 -0.0020762
-0.00098485 0.0033621 0.0026373 0.001329
-0.0066004 -0.029179 -0.0065998 0.37869 -0.02361 -0.0082353 -0.00085557 0.0014078
0.0016978 0.0017564 0.00062473 0.0019816
-0.0018982 0.0017495 -0.023685 -0.0081553 0.31247 0.16398 0.0014085 -0.00016119
0.0010322 0.00024342 0.00022105 0.000349
-0.0010293 -0.0020481 -0.00084264 0.0014134 0.0014139 -0.00015695 0.10676 0.257
0.0019741 -0.018928 1.0981e-05 0.00010851
-0.00096658 0.0033699 0.0016928 0.0017987 0.0010827 0.0002853 0.0018807 -0.019034
0.0036931 0.22577 0.0038303 -0.015367
0.0026047 0.0013472 0.00065984 0.0020719 0.00024014 0.00034302 -6.0224e-05 0.00019032
0.00374 -0.015476 0.024501 0.31853
1340000000 0.20504 0.23747 -0.016692 -0.020013 0.00035855 0.0041367 -0.0018842 -0.00080029
0.001401 0.002852 0.0018409 -0.0013785
-0.016692 -0.01996 0.03258 0.37208 -0.02091 0.0044206 -0.00016681 0.0019155
0.0018826 0.00089363 0.0011927 0.00080104
0.0003917 0.0041386 -0.020913 0.0045271 0.3354 0.11649 0.0008344 -0.00091554
0.0005684 -0.0004935 0.00012874 0.00019121
-0.001879 -0.0007254 -0.00013839 0.0019325 0.00080095 -0.00094126 0.14009 0.23752
-0.0074721 -0.016747 0.0010952 0.00046345
0.0014671 0.0028371 0.0018823 0.0007931 0.00053741 -0.00055328 -0.0074884 -0.016692
0.032976 0.22402 -0.0028051 -0.014157
0.0018143 -0.0014141 0.0011759 0.00074151 0.00013618 0.00021645 0.0011053 0.00049356
-0.0027543 -0.014113 0.06226 0.31514
1400000000 0.24 0.20121 -0.023371 -0.0087344 0.0047808 0.0030749 -0.0021283 0.00076105
0.002572 0.00098201 0.00044365 -0.0013195
-0.02331 -0.0087647 0.071265 0.36034 -0.014217 0.012316 0.0012441 0.001345
0.0011639 -0.0006435 0.0011257 0.00022535
0.0047793 0.0030464 -0.014163 0.012421 0.34963 0.062682 -1.4742e-05 -0.001289
0.00017307 -0.0002173 0.0003239 0.00024288
-0.002171 0.00075953 0.00125 0.0013353 2.7279e-06 -0.0012755 0.17013 0.20911
-0.013744 -0.010289 -0.00088288 -0.00038844
0.0025753 0.0010148 0.0011396 -0.00064972 0.00023337 -0.00016343 -0.013786 -0.010202
0.066511 0.22262 -0.0095567 -0.009172
0.00040232 -0.0013812 0.0012119 0.0002552 0.00028677 0.00027234 -0.00088134 -0.00045302
-0.0095401 -0.0091901 0.10789 0.30597
1460000000 0.26387 0.15831 -0.020705 0.0037765 0.0051738 -0.0015759 -0.0014766 0.0017506
0.0021821 -0.00039045 -0.00022014 -0.00084603
-0.020685 0.0037754 0.10602 0.33897 -0.0052686 0.014961 0.0016427 0.00027202
0.0011001 -0.0012694 0.0012551 -0.00053154
0.0051703 -0.0016049 -0.0051959 0.015032 0.35614 0.0075886 -0.001033 -0.0010581
0.0003336 -0.00017435 0.0007254 -0.0003311
-0.0014393 0.0017832 0.001663 0.00022392 -0.0010519 -0.0010827 0.19715 0.18032
-0.015114 -0.0038152 -0.00094295 0.0018394
0.0021592 -0.00041539 0.0010643 -0.0012827 0.00027378 -0.00018839 -0.015078 -0.0038283
0.095823 0.21079 -0.011647 -0.0030882
-7.6736e-05 -0.00086256 0.0011975 -0.00047975 0.00068841 -0.000331 -0.00093106 0.0018959
-0.011632 -0.0030556 0.14139 0.28611
1520000000 0.27765 0.1177 -0.015472 0.0095287 0.003153 -0.003963 0.0001139 0.0026783
0.0023593 -0.0018543 -0.0011964 -0.00019318
-0.015463 0.0095263 0.14043 0.32566 0.0021954 0.01224 0.001695 -0.00065344
0.00020262 -0.0010405 0.00034685 -0.00098463
0.0031466 -0.0039803 0.0022516 0.012254 0.34907 -0.04906 -0.00073969 -0.00029969
0.00074879 -0.00091817 0.00010846 -0.0001
0.00019105 0.0026071 0.0016964 -0.00067638 -0.00076016 -0.00029342 0.22134 0.14233
-0.014977 0.0017364 0.0014199 0.002083
0.0023053 -0.0018943 0.00021013 -0.0010445 0.00073445 -0.00090551 -0.015036 0.0017749
0.12435 0.20056 -0.011794 0.0011658
-0.0011352 -0.00017851 0.00038149 -0.00099091 0.00011101 -0.00016981 0.00142 0.0020474
-0.011715 0.0011951 0.17534 0.26807
1580000000 0.28855 0.072063 -0.0089898 0.013299 -0.0011371 -0.0045074 0.0015669 0.0017669
-0.00022159 -0.0022988 -0.00024403 0.00042215
-0.0089594 0.01326 0.16866 0.30098 0.0054066 0.0071001 0.00060962 -0.0015631
-0.00040454 -0.0011887 -0.00022318 -0.00079499
-0.0011692 -0.0045151 0.0054602 0.0070993 0.32865 -0.10672 -0.0014232 0.00021966
-0.00033956 -0.0014458 0.00024292 -0.00053963
0.0015401 0.0018383 0.00058899 -0.0015816 -0.001451 0.00018963 0.23598 0.1028
-0.011832 0.0070196 0.0021756 0.00083919
-0.00021724 -0.0022469 -0.00041571 -0.0011891 -0.00036426 -0.0014484 -0.011785 0.0070634
0.14976 0.1854 -0.0092801 0.0074334
-0.00027249 0.00049568 -0.00022627 -0.00073953 0.00028324 -0.00047853 0.0022032 0.00086197
-0.0093541 0.0074996 0.20869 0.24234
1640000000 0.29188 0.031195 -0.0020724 0.012384 -0.0028504 -0.0023064 0.0027161 0.00099367
-0.00057523 -0.0017124 -0.00036086 0.00048734
-0.0021043 0.012373 0.19855 0.27698 0.0054539 0.0021913 -0.00051447 -0.0018487
-0.00093938 -0.000569 -0.00041279 -0.00068408
-0.0028493 -0.0022599 0.0054782 0.0021788 0.29927 -0.15578 -0.00076507 0.0011862
-0.0011017 -0.001128 -0.00015428 -0.00042672
0.002766 0.0010199 -0.00051483 -0.001835 -0.00076157 0.0011994 0.24909 0.053635
-0.0078046 0.0084146 0.0025195 -0.00064956
-0.00059334 -0.0016953 -0.00092746 -0.00056769 -0.0010749 -0.0011081 -0.0077927 0.0083692
0.17357 0.16461 -0.0045184 0.0094267
-0.00031725 0.00047122 -0.00044877 -0.00072574 -0.0001614 -0.00046666 0.0024824 -0.00062739
-0.004528 0.0093938 0.23492 0.21258
1700000000 0.28643 -0.013774 0.0014511 0.0098495 -0.0034609 0.00031122 0.0031196 -0.0012151
-0.0021218 -0.00078087 0.00056199 0.00037855
0.0014472 0.0098632 0.21773 0.24561 0.0028082 -0.00041907 -0.0014735 -0.00071054
-0.00087508 -0.00015712 -0.00081991 -0.00047231
-0.0034955 0.00032759 0.0027846 -0.00043384 0.25561 -0.19475 4.9777e-05 0.0015752
-0.0021841 -0.0002266 -0.00040478 -0.00086175
0.0030662 -0.0012859 -0.0014939 -0.00071798 4.035e-05 0.0016212 0.2463 0.0031743
-0.0050369 0.0094571 0.0017297 -0.0021844
-0.0021167 -0.00072101 -0.00084794 -0.00015801 -0.0021867 -0.00019004 -0.0050524 0.0094518
0.19348 0.14726 0.00024255 0.0096367
0.00059243 0.00037318 -0.00083441 -0.00045749 -0.00042594 -0.00084822 0.0017663 -0.0021277
0.00029729 0.0095491 0.25303 0.17919
1760000000 0.27559 -0.062641 0.0041277 0.0067228 -0.0020291 0.0012996 0.0013156 -0.0034953
-0.0013039 0.00050222 0.00031677 -0.00055522
0.0041068 0.0067119 0.24405 0.20607 0.00020103 -0.0017255 -0.0012708 3.2287e-05
-0.0012332 0.000971 -0.000594 0.00028522
-0.0019824 0.0013064 0.0001678 -0.0017241 0.20687 -0.22687 0.0010649 0.0013568
-0.0012076 0.0015038 -0.0013414 -0.00067144
0.0013238 -0.0034686 -0.0012896 5.5093e-05 0.0010642 0.0013955 0.23733 -0.049118
-0.0014886 0.0089297 -0.0002125 -0.0025439
-0.001308 0.00052324 -0.0012323 0.00096514 -0.001211 0.0014915 -0.0014952 0.0089627
0.20987 0.11499 0.0042622 0.0070944
0.00034747 -0.00059358 -0.00056944 0.00031977 -0.0013298 -0.00067231 -0.00021448 -0.0025248
0.0043064 0.0071303 0.2667 0.14181
1820000000 0.25259 -0.10031 0.0045513 0.0031152 0.00026694 0.0023792 -0.00086841 -0.0031117
-0.0012793 0.00091333 -0.0001386 -0.00014143
0.0045436 0.0031012 0.25516 0.17657 -0.002004 0.00014405 -0.001479 0.00097286
-7.6147e-05 0.0013202 -0.00067022 0.0004227
0.00022828 0.0023837 -0.0020221 0.00016293 0.15688 -0.24138 0.0017427 0.00072476
-0.00032514 0.0023799 -0.001685 0.00017947
-0.0009046 -0.0031067 -0.0014395 0.001013 0.0017057 0.00065922 0.20747 -0.096712
0.00037445 0.007785 -0.0017364 -0.0017993
-0.0012493 0.00094671 -9.0984e-05 0.0013157 -0.00026396 0.0023956 0.0003925 0.0076885
0.23008 0.088574 0.0051518 0.0033096
-0.00014919 -7.0228e-05 -0.00065335 0.00044169 -0.0016554 0.00018637 -0.0017636 -0.0016914
0.0051415 0.0032764 0.27054 0.10689
1880000000 0.21839 -0.14162 0.0023767 0.00074271 -0.00041586 0.0023179 -0.0028378 -0.0023483
-0.00026136 0.001752 0.0001872 -0.0004623
0.0023933 0.00075829 0.25971 0.12986 -0.0039049 0.0028072 -0.00024429 0.0018698
0.0006204 0.0014487 2.8644e-05 0.0010497
-0.00038179 0.0022708 -0.0038945 0.0028112 0.10531 -0.24963 0.0021912 -0.001065
0.0016691 0.0020636 -0.00091047 0.0015106
-0.0029052 -0.0022883 -0.00027013 0.0019171 0.0021899 -0.0010518 0.16637 -0.13737
0.0014549 0.0055987 -0.0024352 0.000473
-0.00028044 0.0017806 0.00063456 0.0014611 0.0016895 0.0020484 0.0014869 0.0055172
0.23664 0.058646 0.0052105 0.0013675
0.00021312 -0.00039899 2.6818e-05 0.0010303 -0.00092876 0.0015192 -0.0024289 0.00036386
0.0052116 0.0013683 0.27172 0.072746
1940000000 0.17933 -0.16782 0.00024327 -0.0011123 0.0017302 0.0017119 -0.0038177 0.00019782
0.0012857 0.00094523 -0.00042191 -0.00060573
0.00023934 -0.0010995 0.26114 0.09877 -0.0018792 0.0057058 0.0010842 0.0013087
0.0021231 0.00045791 0.00099139 0.00031951
0.0017393 0.0017138 -0.0018457 0.0057111 0.061502 -0.24126 0.00059116 -0.002628
0.0023765 0.00036541 0.00038449 0.0017487
-0.0038346 0.0002353 0.0011055 0.0013028 0.0005515 -0.0026321 0.1135 -0.16786
0.00081312 0.0038737 -0.0015446 0.0015852
0.0012947 0.00087732 0.0021064 0.00041295 0.002348 0.0003365 0.00087908 0.0038465
0.24254 0.022181 0.0039621 -0.0024649
-0.0005484 -0.0006315 0.0010201 0.00041917 0.00039785 0.0017507 -0.0014676 0.0017654
0.0039799 -0.0024841 0.26151 0.037179
2000000000 0.1337 -0.18302 -0.0034624 0.00093186 0.0028572 0.0013796 -0.0025048 0.0036227
0.00093348 0.00039599 -0.00072709 0.00041157
-0.0034725 0.00092029 0.24787 0.063428 -0.00061105 0.0078482 0.001627 0.0003011
0.0012684 -0.0014321 0.00047892 7.5894e-05
0.0028402 0.0013517 -0.00056756 0.0078755 0.0202 -0.22752 -0.0015684 -0.0015321
0.0020423 -0.0010253 0.0017392 0.0014068
-0.0024543 0.0036984 0.001689 0.00021999 -0.0016879 -0.0015007 0.060306 -0.17777
-0.00059467 0.0033619 -6.9777e-06 0.002158
0.00095256 0.00044574 0.0012579 -0.0014463 0.001908 -0.0010292 -0.00057123 0.0034357
0.24111 -0.010689 0.0007062 -0.0034787
