!Keysight Technologies,M9804A,MY58100912,A.14.10.03
!Date: Thursday, April 27, 2023 10:28:33
!Correction: S11(C  6-Port  ) 
!S12(C  6-Port  ) 
!S13(C  6-Port  ) 
!S14(C  6-Port  ) 
!S15(C  6-Port  ) 
!S16(C  6-Port  ) 
!S21(C  6-Port  ) 
!S22(C  6-Port  ) 
!S23(C  6-Port  ) 
!S24(C  6-Port  ) 
!S25(C  6-Port  ) 
!S26(C  6-Port  ) 
!S31(C  6-Port  ) 
!S32(C  6-Port  ) 
!S33(C  6-Port  ) 
!S34(C  6-Port  ) 
!S35(C  6-Port  ) 
!S36(C  6-Port  ) 
!S41(C  6-Port  ) 
!S42(C  6-Port  ) 
!S43(C  6-Port  ) 
!S44(C  6-Port  ) 
!S45(C  6-Port  ) 
!S46(C  6-Port  ) 
!S51(C  6-Port  ) 
!S52(C  6-Port  ) 
!S53(C  6-Port  ) 
!S54(C  6-Port  ) 
!S55(C  6-Port  ) 
!S56(C  6-Port  ) 
!S61(C  6-Port  ) 
!S62(C  6-Port  ) 
!S63(C  6-Port  ) 
!S64(C  6-Port  ) 
!S65(C  6-Port  ) 
!S66(C  6-Port  ) 
!S6P File: Measurement: :
# Hz S  RI   R 50
500000000 -0.33872 -0.038467 -0.010437 -0.0037884 -0.0080007 0.012782 -0.0042651 0.012161
0.012499 0.0036322 -0.0050231 0.0086418
-0.010442 -0.0031141 -0.41853 -0.051877 0.0078928 -0.011122 0.0012138 0.011917
0.0078648 0.0023761 0.0011103 0.013029
-0.0081748 0.0128 0.0078693 -0.011295 -0.26574 0.20964 0.0073277 0.0039315
-0.0015296 0.007399 0.0012766 0.012381
-0.0047488 0.011877 0.0012435 0.011901 0.0074111 0.0039294 -0.33089 0.043654
-0.018656 -0.0056706 0.015502 0.025042
0.012755 0.0043506 0.0077958 0.0026 -0.001597 0.0074339 -0.018635 -0.00544
-0.22666 -0.19116 -0.025665 0.00475
-0.0055059 0.0087645 0.00092362 0.012801 0.0013353 0.012158 0.015576 0.024807
-0.026023 0.0047159 -0.27021 -0.12642
560000000 -0.3175 0.12572 -0.024087 -0.062669 -0.00012103 0.012162 0.0065981 0.011046
0.0098641 0.0024729 0.011534 0.0079626
-0.023704 -0.062733 -0.37584 0.10724 -0.042545 -0.036735 0.014427 0.0032852
-0.014707 -0.0034949 0.0031232 -0.00053915
-0.00039784 0.012068 -0.042486 -0.03629 -0.18232 0.25693 -0.0003564 -0.0040005
0.020544 0.0039312 0.0074475 -0.0055578
0.0066324 0.010736 0.014756 0.0030453 -0.00059237 -0.0040196 -0.3053 0.13395
0.0043313 -0.024373 0.0041866 -0.0213
0.0096743 0.0043577 -0.014605 -0.0033459 0.020525 0.0039685 0.0041414 -0.024638
-0.29135 -0.016483 0.0086321 -0.050601
0.010766 0.0069708 0.0036091 -0.00063464 0.0071425 -0.0053229 0.0046249 -0.021223
0.0092657 -0.050959 -0.32872 0.023822
620000000 -0.27436 0.10855 -0.023508 0.008385 0.0037108 0.0087685 0.0084044 -0.0052878
0.011236 0.00013264 0.0009586 -0.0021542
-0.023628 0.0083295 -0.40249 0.060114 -0.018838 0.00034604 -0.001848 -0.0021082
0.011641 -0.0063533 0.0012698 -0.0031851
0.0036307 0.0087362 -0.018875 0.00037119 -0.15314 0.26731 -0.0013809 -0.0051697
-0.0032966 -0.0034445 0.0091837 -0.0025795
0.0085759 -0.00551 -0.0019935 -0.0020783 -0.0013109 -0.0048997 -0.26534 0.14398
-0.03798 -0.018946 0.011861 0.025833
0.011384 0.00034474 0.012034 -0.0065234 -0.0032308 -0.0036278 -0.037334 -0.019175
-0.20856 -0.054714 -0.041016 0.012713
0.00071986 -0.0030336 0.0012309 -0.0031185 0.0093164 -0.0024535 0.011338 0.025596
-0.041158 0.013569 -0.25244 -0.013468
680000000 -0.23397 0.19341 -0.027222 -0.013962 0.0052012 0.0050564 0.0014925 -0.0071677
-0.0027652 -0.011432 0.0039123 -0.0073733
-0.027116 -0.01398 -0.38734 0.15777 -0.032726 -0.0011361 -0.0015754 -0.00040638
-0.001905 -0.0091375 -0.0018519 -0.0022636
0.0054546 0.0049504 -0.032749 -0.0010658 -0.10196 0.28675 -0.0009837 -0.00012043
-0.001912 0.00026029 -0.003287 -0.0097087
0.0011876 -0.007016 -0.0016009 -0.00029147 -0.00098064 -0.00012629 -0.22092 0.1943
-0.02382 -0.0071886 -0.0090113 -0.010383
-0.0028805 -0.011473 -0.0020697 -0.0091134 -0.0019454 0.00031254 -0.023839 -0.0070727
-0.25897 0.042846 -0.0063635 -0.0081039
0.0045169 -0.0067889 -0.0017251 -0.0024096 -0.0033093 -0.0097719 -0.0089867 -0.010455
-0.0059761 -0.0084796 -0.26068 0.092404
740000000 -0.18997 0.18842 -0.038138 0.026753 0.01299 -0.0050535 -0.00055 -0.0039797
-0.0044808 -0.0029476 -0.0060113 0.0029663
-0.038078 0.026545 -0.33509 0.17699 -0.03531 0.034955 -0.00092355 -0.0061642
-0.011335 0.0083151 -0.0021917 -0.0062511
0.013077 -0.0051899 -0.035219 0.035184 -0.068354 0.28461 -0.0018852 0.0033222
-0.003159 -0.0048437 -0.0012745 0.00077249
-0.00037957 -0.0040722 -0.00075829 -0.0063668 -0.001727 0.0033572 -0.20342 0.20202
-0.043964 -0.0066529 0.023427 0.014337
-0.004449 -0.0034301 -0.011391 0.0082885 -0.0031358 -0.0050532 -0.043827 -0.0062648
-0.16055 0.070155 -0.043595 0.00086011
-0.0060291 0.0029175 -0.002274 -0.0063013 -0.0012418 0.00068962 0.023419 0.014309
-0.043979 0.00088236 -0.24757 0.097619
800000000 -0.15687 0.22844 -0.022361 0.016779 0.0054472 -0.010653 -0.0046803 -0.001793
-0.0040771 0.0023825 0.0047714 0.0010036
-0.02237 0.01681 -0.33823 0.24621 -0.0079072 0.034208 -0.0023966 0.0023323
-0.00088018 0.0031486 0.00098438 0.0056086
0.0053886 -0.010761 -0.0078396 0.034286 -0.027903 0.3081 0.0011195 0.0014566
0.00053332 0.0034071 -0.0016739 0.0011056
-0.0047566 -0.0016344 -0.0024252 0.0024557 0.0011191 0.0015691 -0.17515 0.22991
-0.028209 0.013817 0.013624 -0.0098032
-0.0045028 0.0029618 -0.0010088 0.0032545 0.00051428 0.003396 -0.028404 0.013875
-0.20633 0.093776 -0.016721 0.018934
0.0044875 0.00068241 0.00080457 0.0056944 -0.001653 0.0011422 0.013723 -0.010261
-0.016847 0.018794 -0.24101 0.14832
860000000 -0.12214 0.24813 -0.017113 0.030791 -0.0032937 -0.010139 -0.0022084 0.0011971
0.0040526 0.0051372 -0.0034427 -0.0028842
-0.017028 0.030701 -0.29035 0.28835 0.0081557 0.034382 -7.1287e-05 0.0021691
0.0044334 4.9082e-05 0.0033407 0.00050412
-0.0032829 -0.010269 0.0082417 0.034403 0.019977 0.31605 -0.00048898 -0.00020655
0.0026992 -0.0015805 0.0018145 0.0042863
-0.002281 0.00088728 -0.0001021 0.0020932 -0.00051919 -0.00024292 -0.13892 0.241
-0.017927 0.018893 -0.0057608 -0.0092411
0.0042517 0.0045557 0.004528 -3.6086e-05 0.0027331 -0.0016144 -0.017736 0.018958
-0.15453 0.14502 -0.024923 0.015636
-0.0031169 -0.0028871 0.0032738 0.00047547 0.0018968 0.0043051 -0.0056482 -0.0090932
-0.025151 0.015493 -0.19025 0.19154
920000000 -0.09741 0.27089 0.0053941 0.037699 -0.0095927 -0.0046753 -0.0017535 0.0018558
0.0011193 0.0017811 0.0029822 -0.0018287
0.0055123 0.037725 -0.2617 0.30957 0.028452 0.021906 0.0015403 0.000943
0.0072977 -0.00079041 0.0040203 -0.002853
-0.0096038 -0.0046763 0.028543 0.021847 0.066363 0.31697 0.0018789 -0.000204
0.0013636 -0.00064815 0.00091165 -0.0012509
-0.0016944 0.0018857 0.0015455 0.00092818 0.001904 -0.00018221 -0.11528 0.25841
-0.010492 0.030177 0.0031963 -0.0065477
0.0010317 0.0016604 0.0072352 -0.00078931 0.001346 -0.00062217 -0.010666 0.030297
-0.14396 0.1496 -0.002206 0.027057
0.0027848 -0.0018407 0.0038438 -0.0029267 0.00087538 -0.001261 0.0032802 -0.0067126
-0.0020329 0.026765 -0.19844 0.20645
980000000 -0.050392 0.29011 0.017701 0.029853 -0.0091822 0.004574 0.0020462 0.0034641
0.0038931 -0.0016895 -0.0033242 -0.0022465
0.017649 0.029797 -0.20892 0.34344 0.033463 0.0046118 0.0019363 -0.00017857
0.0014148 -0.0062197 -0.00050946 -0.0023082
-0.0092347 0.004604 0.03353 0.0045377 0.11287 0.31047 0.00047488 -0.0011887
0.00017033 -0.0022116 0.0014228 -0.00022151
0.0019919 0.0034098 0.0019725 -0.0001956 0.00046585 -0.001198 -0.076957 0.26982
0.008167 0.030309 -0.0091324 -0.0070868
0.0039473 -0.0017235 0.0014384 -0.00622 0.0001783 -0.002232 0.0083593 0.030311
-0.11379 0.17946 0.0056016 0.020036
-0.0033049 -0.00232 -0.00050986 -0.0024125 0.0014385 -0.00028422 -0.0089617 -0.006921
0.0056015 0.019996 -0.15515 0.24971
1040000000 -0.008364 0.29837 0.033379 0.017743 -0.0014718 0.0070109 0.002583 0.00079655
-5.1143e-05 -0.0035686 -0.00048257 -0.0016819
0.033305 0.017766 -0.1735 0.35667 0.029508 -0.015334 0.0013761 -0.0017493
-0.0026059 -0.0025014 -0.0014717 -0.002836
-0.001438 0.0070139 0.029491 -0.015446 0.15928 0.29683 -0.00056672 -0.0014815
-0.0016468 -0.00091728 -0.00062629 -0.0012024
0.0025577 0.0007236 0.0014103 -0.0017825 -0.00055993 -0.0014839 -0.049289 0.28008
0.019916 0.017828 -0.0025333 0.0016365
-0.00012619 -0.003542 -0.0025837 -0.0025437 -0.0016492 -0.00093642 0.019887 0.01781
-0.081213 0.18603 0.01373 0.018738
-0.00046605 -0.0016127 -0.0014595 -0.0028009 -0.0006112 -0.001158 -0.0024765 0.0015404
0.01407 0.018916 -0.13344 0.27132
1100000000 0.03706 0.30609 0.035933 -0.0047373 0.0028835 0.0039691 0.0023103 -0.0013268
-0.0020491 -0.0031372 -0.0039991 0.00018891
0.035932 -0.0046793 -0.13024 0.37412 0.015039 -0.028449 -7.1523e-05 -0.0018587
-0.0035183 -0.00057243 -0.0035649 -0.00051366
0.0029004 0.0039559 0.014944 -0.028532 0.20613 0.27621 -0.0019328 0.00032776
-0.001832 0.00065396 -0.0011052 -0.00041779
0.0023058 -0.0013206 -7.1026e-05 -0.0018814 -0.00192 0.00031844 -0.0086698 0.2851
0.024961 0.0046763 -0.0025676 0.00032427
-0.002188 -0.0031503 -0.0035621 -0.00056667 -0.0017907 0.00066045 0.025002 0.0045566
-0.063805 0.20023 0.019264 0.0087078
-0.0039953 0.0002944 -0.0035269 -0.00047855 -0.0011396 -0.00031823 -0.0026107 0.00034092
0.019149 0.0087979 -0.087576 0.30023
1160000000 0.08826 0.30106 0.02377 -0.02141 0.0026455 -0.00039915 -0.00025499 -0.0023119
-0.0043255 -0.00063292 -0.00077597 0.0040869
0.023746 -0.021395 -0.086147 0.37865 -0.0043356 -0.029487 -0.0017571 -0.0016495
-0.0026272 0.0026581 -0.0013049 0.0020217
0.0026346 -0.0004066 -0.0044553 -0.029489 0.24933 0.24468 -0.00065018 0.0018113
-0.0005316 0.0019553 -0.0010161 0.00019336
-0.00027289 -0.0023306 -0.0017209 -0.0016568 -0.00064642 0.0018063 0.030858 0.2824
0.020975 -0.011332 -0.0030333 0.0051815
-0.004339 -0.00059148 -0.0025657 0.002697 -0.00050555 0.0019771 0.02091 -0.011361
-0.02982 0.20921 0.018465 0.00022703
-0.00081345 0.004112 -0.0013535 0.0020593 -0.0010108 0.00016333 -0.0028315 0.0051921
0.018501 0.00023638 -0.040904 0.30324
1220000000 0.13274 0.29006 0.0098166 -0.030464 -0.0015977 -0.00076473 -1.5222e-05 -0.00092927
-0.0026344 0.0025741 0.0012881 0.0022029
0.0098795 -0.030447 -0.041415 0.39075 -0.01752 -0.021203 -0.0025221 0.00052886
0.00021367 0.0030681 -0.00075362 0.0019863
-0.001604 -0.00074576 -0.017622 -0.021139 0.2883 0.2048 0.00092807 0.001658
0.0007022 0.00124 0.00030569 0.000747
-4.1309e-05 -0.00086766 -0.00252 0.00056505 0.0009193 0.0016742 0.071067 0.27373
0.0098765 -0.017751 0.002157 0.0015292
-0.0026911 0.002536 0.00018892 0.0031209 0.00071747 0.0012469 0.0098951 -0.017766
-0.0069761 0.21945 0.014096 -0.013346
0.0014584 0.0022127 -0.00067111 0.001976 0.00030335 0.00074016 0.0021778 0.0015156
0.014098 -0.013375 -0.0093751 0.31958
1280000000 0.18261 0.26788 -0.0087442 -0.028621 -0.0018855 0.0026989 -0.00090522 -0.0019821
-0.00076262 0.0032038 0.0024904 0.0011489
-0.0087492 -0.02856 0.0051664 0.3816 -0.024271 -0.008122 -0.00091626 0.0015449
0.0018374 0.0017436 0.00062798 0.0020858
-0.0018596 0.0027169 -0.024338 -0.0080055 0.3181 0.16043 0.0015533 -0.00011506
0.0011358 0.00020989 0.00032132 0.00034999
-0.00099705 -0.0019712 -0.00089393 0.0015315 0.0015582 -0.00013068 0.10795 0.25711
4.4248e-05 -0.019516 7.8756e-06 5.5253e-05
-0.00068433 0.0031939 0.0018504 0.0017735 0.0011385 0.00019405 1.9922e-05 -0.019491
0.029983 0.22361 0.0029031 -0.015618
0.0025321 0.0010932 0.00065489 0.0020843 0.0003427 0.00034764 -2.2779e-05 8.39e-05
0.0028481 -0.015672 0.038413 0.32115
1340000000 0.21972 0.23363 -0.018419 -0.018431 0.001036 0.0046146 -0.0017414 -0.00084669
0.0016435 0.0026782 0.0016791 -0.0014405
-0.018384 -0.018441 0.044755 0.37264 -0.021728 0.0048847 7.5758e-06 0.001953
0.0019977 0.00065281 0.0013992 0.00083869
0.0010468 0.0045881 -0.021734 0.0049961 0.33916 0.11254 0.0010931 -0.0010406
0.00072271 -0.00039542 0.00018621 0.00033812
-0.0017223 -0.0008559 2.4069e-05 0.0019682 0.0010924 -0.0010388 0.14063 0.23648
-0.0093658 -0.016078 0.00087706 0.00054834
0.0016174 0.0026525 0.0019932 0.00062051 0.00073511 -0.00038975 -0.009419 -0.016076
0.060588 0.21939 -0.0041545 -0.013916
0.001679 -0.0014711 0.0014144 0.00085477 0.00019788 0.0003498 0.0009576 0.00060225
-0.0040983 -0.013996 0.077159 0.31644
1400000000 0.25282 0.19491 -0.023757 -0.0066535 0.0053836 0.0030812 -0.0021339 0.00072092
0.002551 0.00081535 8.8679e-05 -0.0015014
-0.023751 -0.006693 0.081964 0.35889 -0.014661 0.012947 0.0013814 0.0012303
0.0011459 -0.00093877 0.0012301 8.9347e-05
0.0053962 0.0030442 -0.014605 0.01303 0.3518 0.059554 -2.173e-05 -0.0015972
7.1138e-05 -0.00041481 0.00045864 0.00025831
-0.0021838 0.00072568 0.0013715 0.0012079 -1.7781e-05 -0.0016246 0.16995 0.20751
-0.015076 -0.0088856 -0.0006435 -0.00028134
0.0025972 0.00081467 0.0011465 -0.00097369 0.00010498 -0.00038574 -0.01513 -0.0088299
0.093949 0.21466 -0.01088 -0.0089428
6.0835e-05 -0.0014984 0.0012454 5.0578e-05 0.00050802 0.00020859 -0.00077109 -0.00028447
-0.010764 -0.0088737 0.12213 0.305
1460000000 0.27498 0.1504 -0.020339 0.0056282 0.0057577 -0.0019765 -0.0015402 0.001759
0.0021931 -0.00069881 -0.0005007 -0.0009699
-0.020315 0.0056108 0.11565 0.33641 -0.0056934 0.015623 0.0017024 9.3074e-05
0.00074822 -0.0013303 0.001137 -0.00070209
0.0057338 -0.0019939 -0.0056188 0.015668 0.35754 0.0059019 -0.0013236 -0.0011928
0.00031453 -0.00026197 0.00067287 -0.0003391
-0.0015449 0.0017818 0.0016998 0.00010807 -0.0012954 -0.001184 0.19609 0.17836
-0.015725 -0.0018474 -0.00076883 0.0020541
0.0022017 -0.0007075 0.00074282 -0.0013053 0.00030583 -0.00030407 -0.015747 -0.0018244
0.12357 0.19977 -0.012386 -0.0026838
-0.00044163 -0.00097023 0.0011483 -0.00075423 0.00053324 -0.00032182 -0.00069278 0.002117
-0.012501 -0.0026413 0.15514 0.28369
1520000000 0.28648 0.10835 -0.014218 0.010957 0.003217 -0.0044226 8.7012e-05 0.0026195
0.0019384 -0.0018236 -0.0011751 -6.3363e-06
-0.014224 0.010969 0.14862 0.32147 0.0019695 0.01308 0.0016026 -0.00081879
-3.936e-05 -0.00098743 0.0002426 -0.0010334
0.0032391 -0.0043954 0.0020571 0.01307 0.35099 -0.049889 -0.0010856 -0.00028884
0.00061098 -0.00094972 -2.3212e-05 -0.00012003
9.7166e-05 0.002616 0.0015623 -0.00083057 -0.0010776 -0.00028268 0.21911 0.14048
-0.014315 0.0039102 0.0016081 0.0020543
0.0018895 -0.0018192 -4.6341e-05 -0.00098263 0.0006157 -0.00092169 -0.014317 0.0039563
0.15161 0.18545 -0.012202 0.0023103
-0.0011752 -5.3017e-05 0.00025846 -0.0010686 7.7987e-05 -0.00019763 0.0015233 0.0019279
-0.012149 0.002279 0.18841 0.26283
1580000000 0.29505 0.062111 -0.0072309 0.013766 -0.00089664 -0.004917 0.0014865 0.0019066
-0.00040456 -0.0021513 -0.00025711 0.00035857
-0.0072521 0.013729 0.17524 0.29663 0.0055197 0.0080864 0.00042638 -0.001606
-0.00049953 -0.000954 -0.00023065 -0.000878
-0.00092791 -0.0049177 0.0055385 0.0080621 0.33123 -0.10727 -0.0015372 0.00063602
-0.00032106 -0.001155 0.00017809 -0.00062068
0.0015057 0.0018895 0.0004168 -0.0015794 -0.0015373 0.00063297 0.23291 0.1013
-0.010102 0.0083313 0.0021703 0.00051367
-0.0004303 -0.0021558 -0.0005102 -0.00094019 -0.00029553 -0.001175 -0.010089 0.0083588
0.17608 0.16695 -0.0093178 0.0080107
-0.00027475 0.00032435 -0.00029581 -0.00089462 0.00014641 -0.00065118 0.002193 0.00067473
-0.0094033 0.007895 0.22001 0.2357
1640000000 0.29628 0.021126 -0.00049928 0.012129 -0.0028779 -0.0026136 0.0027524 0.00094174
-0.00092335 -0.0013573 -0.00028526 0.00054593
-0.00053857 0.012119 0.20418 0.27194 0.0059903 0.0032616 -0.00076325 -0.0016921
-0.00095906 -0.00036241 -0.00060414 -0.00059423
-0.0029302 -0.0026182 0.0060118 0.0032229 0.30291 -0.15627 -0.00068493 0.0014296
-0.0012976 -0.00083889 -0.00026581 -0.00030657
0.0027482 0.00093359 -0.00077438 -0.0017078 -0.00066382 0.0014206 0.24498 0.052828
-0.005694 0.0088416 0.0024891 -0.00075164
-0.00092599 -0.0013422 -0.00097744 -0.00034198 -0.0012739 -0.00083159 -0.005662 0.0088497
0.19839 0.14202 -0.0043399 0.0099611
-0.00022509 0.00059151 -0.00058779 -0.00061512 -0.0001821 -0.00036569 0.0024945 -0.00086819
-0.004262 0.010047 0.24547 0.20501
1700000000 0.28876 -0.023494 0.0026882 0.0089002 -0.0035164 1.768e-05 0.0029503 -0.0013366
-0.0019555 -0.00050209 0.00065387 0.00035127
0.0026472 0.0088794 0.22195 0.24079 0.0039035 0.00033007 -0.0015178 -0.00057091
-0.00067032 -2.69e-05 -0.00093819 -0.00041154
-0.0035436 1.7186e-05 0.0039091 0.00030574 0.25996 -0.19607 0.00044858 0.0014953
-0.0018487 -7.3328e-05 -0.00045089 -0.00097283
0.0029528 -0.0013264 -0.0015108 -0.0005432 0.00042199 0.0014807 0.24199 0.0036267
-0.0031597 0.0084806 0.001606 -0.002291
-0.0019961 -0.00049871 -0.00068164 -9.0411e-06 -0.0018481 -9.0637e-05 -0.0031454 0.0084741
0.21545 0.12132 0.00077438 0.010034
0.0006892 0.00034956 -0.00094591 -0.00041441 -0.00053701 -0.00094372 0.0015772 -0.0022011
0.000688 0.009987 0.26173 0.17017
1760000000 0.27639 -0.071384 0.0044757 0.0054388 -0.0024464 0.00095543 0.0011866 -0.0034352
-0.0012819 0.00082988 0.00042048 -0.00054111
0.0044475 0.0054338 0.24771 0.2014 0.0015734 -0.001484 -0.001145 0.00022223
-0.001027 0.00083157 -0.00048166 0.00049937
-0.0024299 0.00092181 0.0015576 -0.0014863 0.2119 -0.22993 0.0012923 0.0010488
-0.00098123 0.0016298 -0.0012659 -0.00036349
0.0011232 -0.0034484 -0.0011402 0.00022665 0.00135 0.00098169 0.23314 -0.047334
-0.00056093 0.0073815 -0.00029622 -0.0025952
-0.0012551 0.00079108 -0.00098656 0.00080879 -0.00097209 0.0015805 -0.00054076 0.0073348
0.2295 0.085903 0.0047685 0.0070538
0.00037174 -0.0005365 -0.0004496 0.0004978 -0.0012555 -0.00041368 -0.0001971 -0.0026048
0.0047612 0.0072416 0.27404 0.13252
1820000000 0.25207 -0.10821 0.0042776 0.0020784 -0.00023354 0.002562 -0.0010226 -0.003017
-0.00084424 0.00090107 -3.8765e-05 -0.00016287
0.004285 0.0020712 0.25774 0.17181 -0.00048884 -0.00018209 -0.0012471 0.00096738
-0.00010689 0.001267 -0.00043343 0.00050878
-0.00017792 0.0026 -0.00049646 -0.00018752 0.16126 -0.24552 0.0015233 0.00042301
-0.00014478 0.002245 -0.0014118 0.00038037
-0.0010576 -0.0030751 -0.0012359 0.00096918 0.0015503 0.0004015 0.20379 -0.094113
0.00018529 0.0056016 -0.0016119 -0.0016165
-0.00081886 0.00088451 -0.00010377 0.001257 -0.00012398 0.0022309 0.0002438 0.0056593
0.24599 0.056653 0.0056595 0.0033273
-6.1933e-05 -0.00022094 -0.00044008 0.00052669 -0.0013608 0.0003239 -0.0016744 -0.0016421
0.0055905 0.0032287 0.27668 0.096039
1880000000 0.21726 -0.14833 0.0019492 7.9554e-05 -0.00043905 0.0023655 -0.0029627 -0.0020566
-9.4968e-05 0.0014618 3.1385e-05 -0.00054314
0.0019436 8.6744e-05 0.26248 0.12559 -0.0025603 0.0016532 -9.7567e-05 0.0016675
0.00050891 0.0012819 0.000152 0.0007802
-0.00042918 0.0023472 -0.0025604 0.0016374 0.10861 -0.2555 0.00181 -0.00096099
0.0014702 0.0018752 -0.00093453 0.0013586
-0.0029982 -0.0020995 -9.3745e-05 0.0016272 0.0018987 -0.00096997 0.16386 -0.13444
0.00035772 0.0042164 -0.0024788 0.00018348
-4.6512e-05 0.0014892 0.00054001 0.0012581 0.0014985 0.0018921 0.00033888 0.0041385
0.24792 0.024194 0.005502 0.00085586
9.4397e-05 -0.00048434 0.00016243 0.00080142 -0.00088439 0.0013972 -0.0024638 0.00027264
0.0054681 0.0010182 0.27601 0.06145
1940000000 0.17815 -0.17393 -0.00029667 -0.0013556 0.0016649 0.0021433 -0.0038665 0.00058661
0.0012588 0.0008671 -0.00070262 -0.00046375
-0.0002685 -0.0013411 0.26326 0.09395 -0.0013387 0.0039997 0.00096608 0.0012557
0.0018497 0.00050385 0.00081645 0.00018689
0.0016547 0.0020865 -0.0013404 0.0039981 0.062666 -0.24922 0.00032801 -0.0021313
0.0024744 0.00025207 0.00040773 0.0015683
-0.0038544 0.00055932 0.00096495 0.0012599 0.00028288 -0.0020807 0.11182 -0.16493
-0.00084619 0.0033059 -0.001765 0.0014193
0.0012964 0.00086088 0.0018097 0.00051926 0.0024229 0.00022514 -0.00082672 0.0032985
0.24924 -0.014522 0.0038912 -0.0029401
-0.00064595 -0.00044611 0.00085544 0.00018657 0.00030832 0.0016797 -0.001765 0.001476
0.0039145 -0.0029897 0.26492 0.02565
2000000000 0.13216 -0.189 -0.0040119 0.00075574 0.002544 0.001433 -0.0023704 0.0036957
0.0009107 0.00018836 -0.00065566 0.00039223
-0.0039601 0.00077157 0.24954 0.058459 -0.00099728 0.0059726 0.0015647 0.00039845
0.0013478 -0.0012662 0.00033392 0.00013571
0.0026024 0.0014611 -0.00094885 0.0059516 0.018708 -0.23417 -0.0013731 -0.0012609
0.0018617 -0.0011488 0.0015669 0.0013562
-0.0021712 0.0036552 0.0015953 0.00032559 -0.0013873 -0.001269 0.059074 -0.17542
-0.0021881 0.00386 -0.00016862 0.0026666
0.0010028 0.00024413 0.0014095 -0.0012873 0.0018586 -0.0011457 -0.0021521 0.0038611
0.24261 -0.047835 6.9289e-05 -0.0035276
