!Keysight Technologies,M9804A,MY58100912,A.14.10.03
!Date: Thursday, April 27, 2023 10:28:33
!Correction: S11(C  6-Port  ) 
!S12(C  6-Port  ) 
!S13(C  6-Port  ) 
!S14(C  6-Port  ) 
!S15(C  6-Port  ) 
!S16(C  6-Port  ) 
!S21(C  6-Port  ) 
!S22(C  6-Port  ) 
!S23(C  6-Port  ) 
!S24(C  6-Port  ) 
!S25(C  6-Port  ) 
!S26(C  6-Port  ) 
!S31(C  6-Port  ) 
!S32(C  6-Port  ) 
!S33(C  6-Port  ) 
!S34(C  6-Port  ) 
!S35(C  6-Port  ) 
!S36(C  6-Port  ) 
!S41(C  6-Port  ) 
!S42(C  6-Port  ) 
!S43(C  6-Port  ) 
!S44(C  6-Port  ) 
!S45(C  6-Port  ) 
!S46(C  6-Port  ) 
!S51(C  6-Port  ) 
!S52(C  6-Port  ) 
!S53(C  6-Port  ) 
!S54(C  6-Port  ) 
!S55(C  6-Port  ) 
!S56(C  6-Port  ) 
!S61(C  6-Port  ) 
!S62(C  6-Port  ) 
!S63(C  6-Port  ) 
!S64(C  6-Port  ) 
!S65(C  6-Port  ) 
!S66(C  6-Port  ) 
!S6P File: Measurement: :
# Hz S  RI   R 50
500000000 -0.33748 -0.037459 -0.0097445 -0.0023511 -0.008036 0.012987 -0.0031324 0.011052
0.013674 0.0050206 -0.0030495 0.0069054
-0.0097461 -0.0023579 -0.41814 -0.051332 0.0076642 -0.01074 0.0021793 0.01108
0.0084024 0.0024513 0.0023217 0.012662
-0.008008 0.012988 0.0076466 -0.010767 -0.26589 0.20963 0.0072943 0.0032357
-0.001132 0.0078422 0.0014847 0.011954
-0.0031996 0.011032 0.002176 0.011065 0.0072706 0.0032517 -0.33047 0.044247
-0.019249 -0.0063717 0.015751 0.025744
0.013782 0.0047396 0.0084269 0.0024055 -0.001148 0.0078432 -0.019104 -0.0064335
-0.22489 -0.19452 -0.02548 0.0048086
-0.0027635 0.0072066 0.0031208 0.01215 0.0015557 0.011764 0.015567 0.026368
-0.026926 0.004513 -0.26866 -0.12835
560000000 -0.31768 0.12463 -0.02377 -0.062632 -0.00041828 0.012682 0.0057934 0.010452
0.0098054 0.004605 0.009141 0.0079364
-0.023739 -0.062563 -0.37731 0.10638 -0.041032 -0.037065 0.014465 0.0036686
-0.013153 -0.0036575 0.0030844 0.0012243
-0.00037507 0.012696 -0.041185 -0.037009 -0.18381 0.25785 -0.00071959 -0.0040129
0.019617 0.0044374 0.0061075 -0.0060938
0.0058919 0.010412 0.01447 0.0036351 -0.0007156 -0.0040697 -0.30572 0.13382
0.0047945 -0.023036 0.0054955 -0.02205
0.0099983 0.0046101 -0.013143 -0.0041642 0.019895 0.0046148 0.0044868 -0.023011
-0.28768 -0.022288 0.0094878 -0.050444
0.0096435 0.0080727 0.0034535 0.0011714 0.0058865 -0.0063048 0.0055528 -0.02219
0.009675 -0.05063 -0.32986 0.019215
620000000 -0.2745 0.10632 -0.023262 0.0081598 0.0034057 0.0087295 0.0083635 -0.004882
0.011762 -0.00053994 0.00093465 -0.0029321
-0.023238 0.0081441 -0.4027 0.0597 -0.018816 0.00031417 -0.0018784 -0.0021623
0.011808 -0.0063727 0.0011342 -0.0031378
0.0034551 0.008748 -0.01883 0.00037143 -0.15346 0.26689 -0.0013313 -0.0055007
-0.0035936 -0.0028282 0.0085514 -0.0029741
0.0083343 -0.0049845 -0.0019043 -0.0021556 -0.0013608 -0.0054832 -0.2651 0.14232
-0.03862 -0.018106 0.011676 0.024792
0.012015 -0.00034079 0.011784 -0.0064602 -0.003574 -0.0026854 -0.038518 -0.018046
-0.20662 -0.055731 -0.04075 0.015234
0.00088614 -0.0026268 0.0013687 -0.0030589 0.008761 -0.0030699 0.011928 0.024558
-0.04015 0.015804 -0.2517 -0.017282
680000000 -0.23421 0.19313 -0.026897 -0.013866 0.0053285 0.0052526 0.00084449 -0.0067191
-0.0032295 -0.01108 0.0049366 -0.0053562
-0.026865 -0.013863 -0.38773 0.15749 -0.032441 -0.0011387 -0.0018368 -2.5304e-05
-0.0019659 -0.0089299 -0.0013369 -0.001843
0.0053492 0.0052216 -0.032484 -0.0010576 -0.10192 0.28665 -0.00097669 0.00028656
-0.0016643 0.00067563 -0.0025722 -0.0091121
0.00085899 -0.0067102 -0.0018202 -2.5874e-06 -0.00098544 0.00029334 -0.22109 0.19505
-0.022911 -0.0076134 -0.0088744 -0.010893
-0.0033545 -0.011125 -0.0020284 -0.0089527 -0.0016699 0.00053627 -0.022975 -0.00782
-0.25937 0.040196 -0.0063062 -0.0084399
0.0051424 -0.0054623 -0.0012613 -0.0018945 -0.0024587 -0.0092983 -0.0084942 -0.011392
-0.006397 -0.0080469 -0.25939 0.090554
740000000 -0.19102 0.18732 -0.037953 0.026763 0.012751 -0.0046426 -0.0001749 -0.0044453
-0.0054394 -0.0029954 -0.0066637 0.0030443
-0.037964 0.026719 -0.33564 0.17708 -0.035263 0.034795 -0.00060443 -0.0060929
-0.011811 0.0071219 -0.0019312 -0.0062148
0.012771 -0.0046695 -0.035177 0.034943 -0.068625 0.28468 -0.0019515 0.0033014
-0.0024948 -0.0044822 -0.0016735 0.00086273
-0.00021089 -0.0044099 -0.00060065 -0.0061141 -0.0019644 0.0033409 -0.20369 0.20204
-0.043362 -0.0063682 0.022973 0.014682
-0.0054439 -0.0029287 -0.011883 0.0072727 -0.0025743 -0.0046488 -0.043418 -0.0063357
-0.16117 0.067453 -0.043047 0.00098533
-0.0064662 0.0035407 -0.0017226 -0.0060239 -0.0019188 0.0011179 0.022976 0.014953
-0.043059 0.00035109 -0.24814 0.095165
800000000 -0.15786 0.22821 -0.022792 0.01662 0.0051956 -0.010434 -0.0048731 -0.0014476
-0.0042765 0.002832 0.0040345 0.00093163
-0.022793 0.016569 -0.33822 0.24601 -0.007898 0.033896 -0.0025991 0.002476
-0.00058055 0.0032532 0.0009532 0.0055633
0.0051601 -0.010454 -0.0078035 0.033956 -0.027835 0.30779 0.0010882 0.0015884
0.00026538 0.0037052 -0.001646 0.00096426
-0.0048885 -0.0014647 -0.0025755 0.002469 0.00109 0.0015674 -0.17513 0.22987
-0.028495 0.013785 0.013272 -0.0097975
-0.0043437 0.0027257 -0.00043131 0.0032388 0.00033136 0.0036895 -0.028498 0.013839
-0.20617 0.091231 -0.017247 0.019024
0.0040292 0.00071976 0.00093134 0.005518 -0.0016982 0.00084235 0.013349 -0.0098137
-0.017411 0.018894 -0.24307 0.14626
860000000 -0.12267 0.24825 -0.01718 0.030643 -0.0033935 -0.0097843 -0.002591 0.00071244
0.0042961 0.0045653 -0.0039124 -0.0024225
-0.017191 0.030584 -0.29049 0.28829 0.0080851 0.034167 9.8823e-05 0.0021825
0.0043403 0.00012879 0.0030491 0.0011171
-0.0034246 -0.009785 0.0082072 0.034176 0.020058 0.31581 -0.00058707 -0.00012744
0.0027527 -0.001575 0.0014938 0.0043897
-0.002587 0.00073199 9.7597e-05 0.0022097 -0.00059551 -0.00010947 -0.13902 0.24061
-0.018029 0.018426 -0.0060215 -0.0093088
0.0043573 0.0045604 0.0043504 0.00018145 0.0027916 -0.0015139 -0.017939 0.018558
-0.15577 0.14164 -0.02488 0.015911
-0.0040433 -0.0022581 0.003038 0.00087862 0.0014332 0.0044256 -0.0062907 -0.009591
-0.024797 0.016132 -0.19233 0.19
920000000 -0.0977 0.27076 0.0053481 0.037843 -0.0094073 -0.0044451 -0.001724 0.0019445
0.0014912 0.0017138 0.0027039 -0.0017331
0.0052916 0.03779 -0.26149 0.30935 0.028233 0.021878 0.0014104 0.0010578
0.0074634 -0.00024086 0.0038484 -0.0028152
-0.0094141 -0.0044389 0.028336 0.021814 0.06623 0.31645 0.0018929 -0.00015878
0.0013618 -0.00040547 0.00084765 -0.0012642
-0.0017492 0.0019433 0.0014483 0.0010634 0.0018903 -0.00016508 -0.11507 0.25801
-0.010247 0.030271 0.0031296 -0.006481
0.0014611 0.0017003 0.0074817 -0.00031464 0.0013806 -0.00040749 -0.010207 0.030303
-0.14493 0.14684 -0.0022882 0.027184
0.002624 -0.0017248 0.0038392 -0.0026323 0.00088186 -0.0012665 0.0032159 -0.0064468
-0.0023756 0.027425 -0.1996 0.20453
980000000 -0.050808 0.28966 0.017518 0.029792 -0.0089748 0.0044917 0.0019938 0.0032778
0.0039248 -0.0016016 -0.0032877 -0.002243
0.017485 0.029754 -0.20889 0.34309 0.03311 0.0046996 0.0019975 -0.00022544
0.0015507 -0.0061084 -0.00066666 -0.002214
-0.0089522 0.0045239 0.033148 0.0046005 0.11254 0.30982 0.00044376 -0.0013315
0.00012015 -0.0021008 0.0012148 -0.0001678
0.0020201 0.0032747 0.0019984 -0.000225 0.00045417 -0.0013258 -0.076785 0.2691
0.0076978 0.02988 -0.0091785 -0.0074287
0.0039217 -0.0016652 0.001543 -0.0061774 0.00012633 -0.0021096 0.0077447 0.029867
-0.11594 0.17788 0.0047736 0.020141
-0.0034109 -0.0022232 -0.00071756 -0.0023294 0.0012514 -0.00020259 -0.0091206 -0.0074655
0.0045922 0.020141 -0.1566 0.24829
1040000000 -0.0089618 0.29846 0.033217 0.017784 -0.0012742 0.0069242 0.0025828 0.0009119
3.2011e-05 -0.003306 -0.00024058 -0.001407
0.033146 0.017773 -0.17348 0.35608 0.029342 -0.015068 0.0014328 -0.0016949
-0.0026691 -0.0023873 -0.0012869 -0.0027757
-0.0012358 0.0069308 0.029315 -0.015184 0.15871 0.29615 -0.00055081 -0.0014013
-0.0016128 -0.00092741 -0.00043518 -0.0010073
0.0025849 0.00088215 0.0014603 -0.0017031 -0.0005501 -0.0013999 -0.049477 0.27929
0.019077 0.017737 -0.0025887 0.0016834
1.5924e-06 -0.0032724 -0.0027071 -0.0023813 -0.001614 -0.00092598 0.019101 0.017716
-0.083738 0.18476 0.013383 0.018647
-0.00038752 -0.0014752 -0.0014588 -0.002918 -0.00049497 -0.0011091 -0.0025348 0.0017222
0.01344 0.018615 -0.13513 0.27002
1100000000 0.036311 0.30589 0.035681 -0.0044699 0.0028063 0.0037625 0.0024148 -0.0012755
-0.0022735 -0.0030061 -0.0039157 0.00012273
0.03565 -0.004454 -0.13003 0.37336 0.015004 -0.027956 1.0548e-05 -0.0018214
-0.003566 -0.00070001 -0.0035735 -0.00037651
0.0028253 0.0037531 0.014898 -0.028037 0.20513 0.27568 -0.0018897 0.00021678
-0.0017623 0.00059112 -0.0011376 -0.00028328
0.0024102 -0.0012822 9.9295e-06 -0.0018167 -0.0018881 0.00021136 -0.0089579 0.28445
0.024139 0.0049681 -0.0024867 0.00014509
-0.0022332 -0.0029672 -0.0035728 -0.00067194 -0.0017501 0.0006098 0.02415 0.0049631
-0.066012 0.19949 0.019019 0.0089916
-0.0038907 0.0001182 -0.0035525 -0.00036705 -0.0011213 -0.00031572 -0.0024919 0.00012395
0.018962 0.0089931 -0.089716 0.29871
1160000000 0.087431 0.30098 0.023538 -0.020922 0.0026354 -0.00040628 -0.00014108 -0.0023554
-0.0041414 -0.00059218 -0.00090333 0.0041018
0.023525 -0.020906 -0.086601 0.37768 -0.0038926 -0.029025 -0.0017668 -0.0017817
-0.0026151 0.0024801 -0.0015472 0.0019459
0.0026482 -0.00041235 -0.0040417 -0.029037 0.24789 0.24465 -0.00070984 0.0018552
-0.00049435 0.0019339 -0.00086469 0.00016157
-0.00016785 -0.0023604 -0.0017798 -0.0017643 -0.000704 0.0018445 0.030115 0.28156
0.020499 -0.010488 -0.0029992 0.0053667
-0.0041324 -0.00053652 -0.002628 0.0024762 -0.0005291 0.0019721 0.020505 -0.010505
-0.031799 0.20883 0.017946 0.00048146
-0.00086244 0.0041957 -0.0014439 0.002034 -0.00087133 0.00022329 -0.0030878 0.0054155
0.017887 0.00044387 -0.04285 0.30198
1220000000 0.13189 0.29006 0.010037 -0.030027 -0.0015889 -0.00076292 -6.7639e-05 -0.0008348
-0.0027254 0.0025735 0.0012926 0.0021198
0.010048 -0.030011 -0.042215 0.3896 -0.017002 -0.021097 -0.0025122 0.0005002
9.4154e-05 0.0029371 -0.00080671 0.0018682
-0.0015864 -0.00075273 -0.017122 -0.021042 0.28696 0.20551 0.00081176 0.0016192
0.00072225 0.0012517 0.0002713 0.00072783
-6.2328e-05 -0.00083983 -0.0025131 0.00050495 0.00080291 0.0016072 0.06989 0.27327
0.0098675 -0.016857 0.0022637 0.0014703
-0.0027032 0.0025817 0.00012154 0.0029459 0.00070397 0.0012504 0.0098472 -0.016873
-0.008602 0.21854 0.013981 -0.012711
0.0013019 0.0021123 -0.00085758 0.0018647 0.00030342 0.00076896 0.0023124 0.0015358
0.01392 -0.012725 -0.011103 0.31868
1280000000 0.1817 0.26792 -0.0082351 -0.028176 -0.0018285 0.0027065 -0.00090352 -0.0019554
-0.00063247 0.0029935 0.0026346 0.0010582
-0.0082153 -0.028153 0.0036764 0.38058 -0.023778 -0.0083785 -0.0010005 0.0014144
0.0017682 0.001678 0.00061082 0.0020169
-0.0018084 0.0026925 -0.02385 -0.0082764 0.3172 0.16152 0.001516 -7.3796e-05
0.001096 0.00012834 0.00038238 0.00031797
-0.00090717 -0.0019518 -0.0009958 0.0014196 0.0015269 -7.4331e-05 0.10672 0.25712
0.0006907 -0.018568 3.0494e-05 0.00020303
-0.00063223 0.0029894 0.0017924 0.0016595 0.0010903 0.0001449 0.00064642 -0.018566
0.028012 0.22289 0.0030041 -0.014746
0.002604 0.001078 0.00065236 0.0020044 0.00031684 0.00031486 3.6631e-05 0.00023343
0.0030001 -0.014785 0.036276 0.32084
1340000000 0.21864 0.23412 -0.017758 -0.018454 0.00098695 0.0044832 -0.0017938 -0.00087424
0.0015318 0.002554 0.0016427 -0.0014159
-0.017737 -0.018447 0.042964 0.37237 -0.021594 0.0043257 -3.0472e-05 0.0019822
0.0018659 0.00068298 0.0013282 0.00081307
0.0010069 0.0044897 -0.021601 0.0044422 0.33895 0.11394 0.0011559 -0.00099865
0.00075698 -0.00038112 0.00025279 0.00023805
-0.0017867 -0.00086417 -1.9698e-05 0.0019734 0.001152 -0.0010114 0.13946 0.23719
-0.0084832 -0.0157 0.0010917 0.00053409
0.0015503 0.0025596 0.0018655 0.00069213 0.00073992 -0.00038509 -0.0085212 -0.015699
0.058025 0.2185 -0.0035571 -0.013171
0.0016305 -0.0014686 0.0013211 0.00082091 0.00019819 0.00022262 0.0011298 0.00053531
-0.0034883 -0.01319 0.074784 0.31603
1400000000 0.25172 0.19566 -0.023191 -0.0070336 0.0052719 0.0030584 -0.002141 0.00066803
0.0024864 0.0008198 0.0002276 -0.0014826
-0.023163 -0.0070395 0.080213 0.3592 -0.014801 0.012451 0.0013093 0.0012528
0.0011771 -0.00079372 0.0012114 0.00012274
0.0052888 0.0030383 -0.014757 0.012548 0.35216 0.060652 4.5981e-06 -0.0015813
4.8988e-05 -0.00043674 0.00049248 0.00031009
-0.0021349 0.00066776 0.0013143 0.0012432 1.1549e-05 -0.0015753 0.16918 0.20848
-0.014011 -0.0091191 -0.00066072 -0.00053361
0.0025044 0.00080181 0.0011551 -0.0008298 3.7963e-05 -0.00043635 -0.014044 -0.0091119
0.091155 0.2145 -0.0099507 -0.0085979
0.00020306 -0.0014718 0.0012462 0.00014734 0.00054463 0.00030702 -0.00061917 -0.00053648
-0.0099521 -0.0086152 0.11939 0.30537
1460000000 0.27403 0.15157 -0.020087 0.004966 0.0055924 -0.0019535 -0.0016746 0.0017844
0.0020438 -0.00055105 -0.00042876 -0.00097707
-0.020044 0.0049697 0.11426 0.33749 -0.0061617 0.015392 0.0017211 0.00018995
0.00080124 -0.0011935 0.0011944 -0.00059778
0.0055932 -0.0019887 -0.0060934 0.015441 0.35815 0.0065347 -0.0012204 -0.0012204
0.00030404 -0.00024459 0.00058952 -0.00038157
-0.0016761 0.0017959 0.0017286 0.00017259 -0.0012412 -0.001214 0.19571 0.17943
-0.01492 -0.0026235 -0.0009022 0.001888
0.0020518 -0.00055501 0.0007897 -0.0012085 0.00027365 -0.00026023 -0.014921 -0.0025779
0.1207 0.20004 -0.011548 -0.0027942
-0.00041056 -0.00098069 0.0011825 -0.00059454 0.00054505 -0.00038068 -0.00090684 0.0019192
-0.011593 -0.0027827 0.15277 0.28439
1520000000 0.28604 0.10968 -0.014353 0.010364 0.0032338 -0.0041935 0.00013783 0.0025875
0.001978 -0.0016817 -0.0010799 -0.00013273
-0.01434 0.01034 0.1477 0.32283 0.001521 0.013118 0.0016156 -0.0008552
-6.8779e-06 -0.0010088 0.00031213 -0.00098919
0.0032124 -0.0042071 0.0016 0.013133 0.35144 -0.049569 -0.0011354 -0.00035621
0.00056854 -0.00086811 5.0877e-05 -0.00013256
0.00014334 0.0025863 0.0016245 -0.00086183 -0.001115 -0.00035855 0.2193 0.14175
-0.014109 0.0027548 0.0014016 0.0018775
0.0019729 -0.0017127 -1.5245e-05 -0.0010143 0.00059528 -0.00088267 -0.014113 0.0027884
0.14868 0.18658 -0.011397 0.0016476
-0.0011239 -0.00010899 0.00029121 -0.00099739 5.7508e-05 -0.00014136 0.001406 0.0018764
-0.011391 0.001646 0.18603 0.26418
1580000000 0.29499 0.063532 -0.0077396 0.013279 -0.00082344 -0.0048445 0.0014954 0.0019101
-0.00035329 -0.0020788 -0.00034589 0.00039421
-0.0077344 0.013252 0.17497 0.29807 0.00523 0.0083524 0.00045097 -0.0015897
-0.00045215 -0.001049 -0.00024681 -0.00090178
-0.0008402 -0.0048531 0.0052846 0.00834 0.33148 -0.1072 -0.0015464 0.00063551
-0.00024414 -0.0011515 0.00010059 -0.00059891
0.0015243 0.0019181 0.00043984 -0.0016008 -0.0015578 0.00062846 0.23346 0.10222
-0.010676 0.0072706 0.0019472 0.00069496
-0.00036157 -0.0020789 -0.0004441 -0.0010391 -0.00025606 -0.0011445 -0.010651 0.0072837
0.17322 0.16858 -0.009005 0.0071128
-0.00029042 0.00042637 -0.00025041 -0.00088529 0.00013036 -0.00057354 0.0019612 0.00071651
-0.0090417 0.0071257 0.21859 0.23724
1640000000 0.29658 0.022498 -0.0011979 0.012045 -0.0028064 -0.0026522 0.0027501 0.0010113
-0.00075493 -0.0014277 -0.00035577 0.00058809
-0.0012147 0.012021 0.20433 0.27318 0.0059565 0.0036174 -0.00071765 -0.0016776
-0.00098466 -0.00040617 -0.00052557 -0.00067018
-0.0028115 -0.0026395 0.005984 0.0035809 0.30301 -0.15607 -0.00071282 0.0014313
-0.001203 -0.00086989 -0.00017239 -0.00031099
0.0027661 0.0009972 -0.00071518 -0.0016647 -0.00070572 0.0014297 0.2459 0.053506
-0.0066609 0.0083009 0.0024546 -0.00071171
-0.00076098 -0.0014237 -0.00098284 -0.00040076 -0.001184 -0.00085766 -0.006638 0.0083253
0.1961 0.1442 -0.0044522 0.0091807
-0.00033994 0.00060552 -0.00053222 -0.00067125 -0.00014887 -0.00030584 0.0024605 -0.00073049
-0.0044263 0.0092039 0.24387 0.20605
1700000000 0.28945 -0.022658 0.0021038 0.0092055 -0.0035006 -4.8176e-05 0.0029843 -0.0012994
-0.0018724 -0.00066447 0.00058175 0.00044118
0.0020799 0.009202 0.22259 0.24159 0.0040414 0.00053422 -0.0014487 -0.00061116
-0.0007263 -1.0395e-05 -0.00097777 -0.00048876
-0.0034987 -3.5721e-05 0.0040535 0.00050885 0.26034 -0.19606 0.00044737 0.001432
-0.0018676 -0.00022059 -0.00057294 -0.00082465
0.0029794 -0.0013384 -0.0014636 -0.00060502 0.0004213 0.0014524 0.24295 0.0036146
-0.0041359 0.0085495 0.0013987 -0.0022414
-0.0018871 -0.00064631 -0.0007314 -1.1534e-05 -0.0018553 -0.00024783 -0.0041326 0.008591
0.21381 0.12395 0.00014742 0.0093175
0.00057687 0.00048993 -0.00097592 -0.00046981 -0.00052344 -0.00079488 0.00139 -0.0022493
0.00011115 0.0092787 0.26054 0.17177
1760000000 0.27704 -0.070987 0.0042524 0.0059446 -0.0023873 0.00090765 0.0012776 -0.0034011
-0.0012614 0.00071305 0.00046685 -0.0005503
0.0042342 0.005951 0.24837 0.20167 0.0017643 -0.001383 -0.0011435 0.0002494
-0.0010366 0.00088826 -0.00053152 0.00046307
-0.0023826 0.00092412 0.0017639 -0.0014002 0.21197 -0.23012 0.0012876 0.0010324
-0.0010217 0.0015349 -0.0012669 -0.00040816
0.0012751 -0.0034238 -0.0011375 0.00025045 0.0012709 0.0010195 0.23384 -0.047871
-0.0012164 0.0078877 -0.00023063 -0.0023486
-0.0012628 0.00072131 -0.0010331 0.00089182 -0.0010298 0.0015289 -0.0012178 0.007886
0.22845 0.088741 0.0040048 0.0069127
0.00042612 -0.00062921 -0.00054208 0.00038748 -0.0011939 -0.00044539 -0.00020687 -0.0023322
0.003999 0.0069085 0.27302 0.13362
1820000000 0.25259 -0.10814 0.0044334 0.0025242 -0.00018714 0.0025612 -0.0010304 -0.0030414
-0.0010392 0.00077169 -3.0942e-05 -0.00015002
0.004417 0.0025357 0.25836 0.1717 -0.00036251 -0.00018238 -0.00129 0.00097378
-8.9969e-05 0.0012628 -0.00053487 0.00055259
-0.00018408 0.0025594 -0.00036224 -0.00018474 0.16091 -0.24553 0.0013593 0.00050407
-0.00031284 0.0022101 -0.0013831 0.00044088
-0.001045 -0.003031 -0.0012804 0.00098567 0.0013797 0.00049828 0.20407 -0.094966
2.9771e-05 0.006445 -0.0016714 -0.0014819
-0.0010159 0.00077469 -6.4368e-05 0.0012852 -0.00025616 0.0022385 7.3121e-05 0.0064432
0.24572 0.059542 0.00496 0.0032654
1.1302e-05 -0.00017788 -0.00053423 0.0005688 -0.0013944 0.00041574 -0.0017087 -0.0014719
0.0049658 0.0032314 0.2757 0.097828
1880000000 0.2173 -0.14834 0.0022517 0.00030068 -0.0003638 0.0022435 -0.0029417 -0.00219
-0.00027013 0.0015738 0.00023817 -0.0006806
0.0022525 0.00030569 0.26273 0.12508 -0.0024306 0.0016043 -0.0001643 0.0016755
0.00059274 0.0012928 0.00014997 0.00094372
-0.00034872 0.002224 -0.0024146 0.0016175 0.10832 -0.25513 0.001765 -0.00099688
0.0014828 0.0019725 -0.00085731 0.0014422
-0.0029588 -0.0021849 -0.00014639 0.001676 0.0017539 -0.00099637 0.16351 -0.13528
0.00060168 0.0046134 -0.0023474 0.00050875
-0.00024503 0.00157 0.00060271 0.0012827 0.001478 0.0019551 0.00060522 0.004616
0.24823 0.026715 0.0049527 0.0013494
0.00018754 -0.00062737 0.00015403 0.00093087 -0.00082581 0.0014073 -0.0023109 0.00044558
0.0048998 0.0013252 0.27523 0.063108
1940000000 0.17806 -0.17376 9.6875e-06 -0.0013896 0.0015524 0.0019768 -0.0038824 0.00064368
0.0011985 0.0010086 -0.00060655 -0.00057657
1.0099e-05 -0.0013824 0.26312 0.093364 -0.0012376 0.0039513 0.00099543 0.0013475
0.0018906 0.00050348 0.00086182 0.0003156
0.0015701 0.0019472 -0.0012031 0.0039502 0.062707 -0.24827 0.00047144 -0.0020172
0.0024163 0.00042773 0.00049197 0.001539
-0.0038478 0.00065845 0.0010204 0.0013355 0.00045672 -0.002022 0.11103 -0.16529
-0.00038812 0.003548 -0.001292 0.0015403
0.0012174 0.0010053 0.0019075 0.00046977 0.0024441 0.00045409 -0.00039811 0.0035598
0.24987 -0.012181 0.0036812 -0.0023314
-0.00062673 -0.00063856 0.0008861 0.00027548 0.00042326 0.0015112 -0.0013242 0.0015474
0.0036292 -0.0023903 0.26411 0.027432
2000000000 0.13203 -0.18866 -0.0038483 0.00071502 0.0024827 0.0015872 -0.0023172 0.0036828
0.0010978 0.00034472 -0.00064251 0.0005219
-0.003847 0.00070725 0.24891 0.057893 -0.00096586 0.0058925 0.0016308 0.00038553
0.0013607 -0.001258 0.00039374 0.00010559
0.0025082 0.001574 -0.00091786 0.0059108 0.018963 -0.23375 -0.0012737 -0.0012758
0.0019459 -0.0011224 0.0014906 0.0011564
-0.0022692 0.0037089 0.0016471 0.00037703 -0.0012742 -0.0012991 0.058127 -0.17509
-0.0019045 0.0038093 -0.0002513 0.0021608
0.0011006 0.00027249 0.0013573 -0.0012637 0.001983 -0.0011024 -0.0019068 0.0038253
0.24341 -0.045991 0.0001595 -0.0030434
