!Keysight Technologies,M9804A,MY58100912,A.14.10.03
!Date: Thursday, April 27, 2023 10:28:33
!Correction: S11(C  6-Port  ) 
!S12(C  6-Port  ) 
!S13(C  6-Port  ) 
!S14(C  6-Port  ) 
!S15(C  6-Port  ) 
!S16(C  6-Port  ) 
!S21(C  6-Port  ) 
!S22(C  6-Port  ) 
!S23(C  6-Port  ) 
!S24(C  6-Port  ) 
!S25(C  6-Port  ) 
!S26(C  6-Port  ) 
!S31(C  6-Port  ) 
!S32(C  6-Port  ) 
!S33(C  6-Port  ) 
!S34(C  6-Port  ) 
!S35(C  6-Port  ) 
!S36(C  6-Port  ) 
!S41(C  6-Port  ) 
!S42(C  6-Port  ) 
!S43(C  6-Port  ) 
!S44(C  6-Port  ) 
!S45(C  6-Port  ) 
!S46(C  6-Port  ) 
!S51(C  6-Port  ) 
!S52(C  6-Port  ) 
!S53(C  6-Port  ) 
!S54(C  6-Port  ) 
!S55(C  6-Port  ) 
!S56(C  6-Port  ) 
!S61(C  6-Port  ) 
!S62(C  6-Port  ) 
!S63(C  6-Port  ) 
!S64(C  6-Port  ) 
!S65(C  6-Port  ) 
!S66(C  6-Port  ) 
!S6P File: Measurement: :
# Hz S  RI   R 50
500000000 -0.33746 -0.036628 -0.0098783 -0.001414 -0.0079938 0.013713 -0.0039778 0.011169
0.014128 0.0040638 -0.0040313 0.0074984
-0.0098763 -0.0014334 -0.4177 -0.050714 0.0078806 -0.010434 0.0014884 0.011464
0.0081946 0.0027688 0.0019882 0.012875
-0.0079559 0.013731 0.0078716 -0.010447 -0.26651 0.21042 0.0074068 0.0037401
-0.0013179 0.0084924 0.0016607 0.012451
-0.0040049 0.011189 0.0015126 0.011487 0.0074143 0.0037628 -0.33125 0.043936
-0.018874 -0.0062428 0.015245 0.024623
0.014132 0.0040614 0.0081678 0.0027177 -0.0013524 0.0084815 -0.018908 -0.0062507
-0.22843 -0.19026 -0.026114 0.0045178
-0.0040301 0.0074456 0.0020077 0.012885 0.0016691 0.012478 0.015239 0.024631
-0.026094 0.0045258 -0.2717 -0.12602
560000000 -0.31827 0.12337 -0.024792 -0.063008 -0.00010377 0.012428 0.005615 0.010398
0.010346 0.0055249 0.0095661 0.0081887
-0.024756 -0.062923 -0.37768 0.10857 -0.041452 -0.036967 0.013842 0.0042483
-0.012882 -0.0047463 0.003443 0.0015902
-7.2943e-05 0.012431 -0.04157 -0.036914 -0.18351 0.25898 -0.00040848 -0.0044781
0.019485 0.005458 0.0065989 -0.0060001
0.0056705 0.010378 0.013877 0.0042354 -0.00043464 -0.0044764 -0.30602 0.13489
0.005095 -0.023471 0.0047273 -0.021885
0.010393 0.0054975 -0.012945 -0.0047559 0.019492 0.0054677 0.0050778 -0.02347
-0.28881 -0.016733 0.0095065 -0.049537
0.0095263 0.0081242 0.0033604 0.0016425 0.0065873 -0.0060029 0.0046879 -0.021897
0.0095546 -0.049496 -0.33103 0.023163
620000000 -0.27515 0.10682 -0.023391 0.0085157 0.0035241 0.0091663 0.0087707 -0.0049677
0.011557 -0.0012716 0.0016826 -0.0022222
-0.023378 0.0085382 -0.40302 0.060296 -0.018789 0.00050895 -0.0016602 -0.0019243
0.011492 -0.0065433 0.0014185 -0.0025396
0.0035669 0.0091719 -0.018796 0.00054897 -0.15327 0.26768 -0.0008345 -0.005227
-0.0035031 -0.0032629 0.0088848 -0.0026661
0.0087799 -0.0049707 -0.0016565 -0.0019346 -0.00083261 -0.0052179 -0.26502 0.14431
-0.038512 -0.01971 0.010981 0.025212
0.011526 -0.0012599 0.011478 -0.0065682 -0.0035197 -0.0032768 -0.038563 -0.019616
-0.20937 -0.0501 -0.03964 0.013651
0.0016751 -0.0022179 0.0013843 -0.0025959 0.0088584 -0.0026783 0.011 0.025224
-0.039662 0.01362 -0.25276 -0.011823
680000000 -0.2342 0.19383 -0.026977 -0.013495 0.0052812 0.0053342 0.0014979 -0.0066203
-0.0029778 -0.011451 0.0051498 -0.006047
-0.026952 -0.013493 -0.38746 0.15838 -0.032138 -0.00096642 -0.0013928 -0.00014417
-0.0019456 -0.0090276 -0.0012765 -0.0016676
0.0053239 0.0053157 -0.032167 -0.00088822 -0.10135 0.28734 -0.00097752 -0.00018614
-0.0018081 0.00039837 -0.0027061 -0.0091677
0.0014695 -0.0065818 -0.0014197 -0.00013009 -0.00099875 -0.0001802 -0.22032 0.1956
-0.023102 -0.0072388 -0.0090911 -0.010493
-0.0029817 -0.011452 -0.0019927 -0.0090681 -0.0018235 0.00039087 -0.023122 -0.0072265
-0.25827 0.044276 -0.0063206 -0.0082416
0.0051799 -0.006075 -0.0012982 -0.0016831 -0.0027279 -0.0091613 -0.0089866 -0.010515
-0.0063201 -0.0082573 -0.25894 0.094352
740000000 -0.18995 0.1884 -0.037998 0.026847 0.012997 -0.0052563 -0.00051615 -0.0044744
-0.0046687 -0.0024467 -0.006738 0.0023142
-0.037995 0.026775 -0.33442 0.17693 -0.035044 0.034981 -0.00055662 -0.0065188
-0.01219 0.0075578 -0.0016092 -0.0059298
0.012992 -0.005282 -0.034955 0.03513 -0.067943 0.28499 -0.0021942 0.0031894
-0.0026139 -0.0049108 -0.0020355 0.00068514
-0.00050872 -0.0044528 -0.00056975 -0.0065138 -0.0021961 0.0031887 -0.20317 0.20287
-0.04369 -0.0063306 0.02316 0.014637
-0.0047187 -0.0024253 -0.012178 0.0076602 -0.0026296 -0.0049346 -0.043726 -0.0062934
-0.16031 0.072296 -0.042954 0.0010736
-0.0067695 0.0023375 -0.0016175 -0.0059475 -0.0020434 0.0006693 0.023176 0.014644
-0.042895 0.0010511 -0.24793 0.1003
800000000 -0.15701 0.22838 -0.022183 0.016447 0.0052078 -0.010623 -0.0048086 -0.0016642
-0.0043052 0.0029406 0.0039396 0.0007921
-0.022167 0.016411 -0.33749 0.24634 -0.0078191 0.033675 -0.0025019 0.0021977
-0.0010363 0.0033214 0.0010442 0.0052754
0.0051878 -0.010642 -0.0077272 0.033737 -0.027292 0.30774 0.0010453 0.0015898
0.00038562 0.0036594 -0.0017498 0.00085892
-0.00484 -0.0016543 -0.0025187 0.0022068 0.0010383 0.0016015 -0.17471 0.23053
-0.027983 0.013775 0.01318 -0.010043
-0.0042976 0.0029519 -0.0010244 0.0033265 0.00038786 0.0036508 -0.027975 0.013829
-0.20456 0.096066 -0.016299 0.018744
0.0039381 0.00077305 0.0010565 0.0053 -0.0017447 0.00087201 0.013201 -0.010048
-0.016296 0.018731 -0.24185 0.1495
860000000 -0.12226 0.24819 -0.016955 0.030517 -0.0033064 -0.0098265 -0.0025186 0.00083056
0.0041506 0.0048993 -0.003196 -0.0023578
-0.016953 0.030476 -0.29013 0.28843 0.0079631 0.034001 0.00016066 0.0020875
0.004627 0.00016823 0.0035579 0.0010185
-0.0033286 -0.0098213 0.0080717 0.034013 0.020282 0.3156 -0.00051648 -0.00014244
0.0028638 -0.0014261 0.0016143 0.0043254
-0.0025181 0.00082654 0.00016245 0.0020892 -0.00051014 -0.00014597 -0.13852 0.24079
-0.017409 0.018744 -0.0062406 -0.0093152
0.0041977 0.0048833 0.0046317 0.00014837 0.0028622 -0.0014359 -0.017399 0.018782
-0.1533 0.14577 -0.024313 0.016032
-0.0032024 -0.0023237 0.0035557 0.0010368 0.0016138 0.0043227 -0.0062454 -0.0093075
-0.024319 0.016002 -0.19016 0.1932
920000000 -0.097404 0.27094 0.0053691 0.037496 -0.0093079 -0.0045406 -0.0017622 0.0019541
0.0017633 0.0018127 0.0030714 -0.0015152
0.0053665 0.037439 -0.26144 0.30942 0.028136 0.02172 0.0014379 0.0012246
0.0072893 -5.8622e-05 0.0041953 -0.0029467
-0.0093026 -0.0045211 0.028239 0.021675 0.066471 0.31643 0.0018981 -0.00011702
0.0014022 -0.00036981 0.00086297 -0.0012907
-0.0017593 0.0019666 0.0014438 0.0012208 0.0019014 -0.000118 -0.11435 0.25808
-0.010237 0.030215 0.0036338 -0.0066275
0.0017848 0.0017985 0.0072839 -0.0001007 0.0014048 -0.00037597 -0.010185 0.030234
-0.14138 0.15005 -0.0023582 0.026926
0.0030492 -0.0015248 0.0041797 -0.0029431 0.00086407 -0.001296 0.0036224 -0.0066417
-0.0023621 0.026919 -0.19672 0.20791
980000000 -0.050308 0.28972 0.017463 0.029534 -0.009086 0.0044317 0.0019695 0.0032925
0.003773 -0.0017451 -0.0034123 -0.0020972
0.01745 0.02953 -0.20874 0.34305 0.032904 0.0046502 0.001886 -0.00019213
0.0015417 -0.0061284 -0.00061189 -0.0022175
-0.0090643 0.0044598 0.032934 0.0045484 0.11264 0.30975 0.0004783 -0.0013128
9.2966e-05 -0.0022297 0.0012004 -0.00022149
0.0019851 0.0033021 0.0018936 -0.00018632 0.00048685 -0.0013133 -0.076565 0.26879
0.0078521 0.029585 -0.008897 -0.0070122
0.0037637 -0.0017424 0.001493 -0.0061604 9.0972e-05 -0.0022179 0.0079104 0.029589
-0.11205 0.1798 0.005251 0.019621
-0.0034142 -0.0020858 -0.00064368 -0.0022122 0.0012016 -0.00023801 -0.0089117 -0.0069896
0.0052356 0.019592 -0.15387 0.25025
1040000000 -0.008347 0.298 0.033031 0.017609 -0.0013968 0.0067433 0.0025325 0.00097708
-8.2429e-05 -0.0034353 -0.00031003 -0.001336
0.033015 0.017587 -0.1734 0.35604 0.029209 -0.014996 0.0013776 -0.0016866
-0.0025455 -0.0025471 -0.0014438 -0.0028073
-0.0013647 0.0067499 0.029169 -0.015094 0.15878 0.29623 -0.00059258 -0.0014134
-0.0017106 -0.00081902 -0.00055786 -0.0010682
0.0025299 0.00096203 0.0013914 -0.0016833 -0.00058806 -0.0014208 -0.049126 0.27944
0.019005 0.017594 -0.0026197 0.001486
-0.0001024 -0.0034264 -0.0025777 -0.0025474 -0.0017168 -0.00081005 0.019049 0.017568
-0.079987 0.18611 0.01337 0.018143
-0.00032511 -0.0013279 -0.0014649 -0.0027883 -0.00056277 -0.001069 -0.0026133 0.0014899
0.013349 0.018136 -0.13239 0.27209
1100000000 0.036657 0.30592 0.035466 -0.0046048 0.0027007 0.0038838 0.0024731 -0.0012509
-0.0020531 -0.0030259 -0.0039417 0.00019431
0.035445 -0.004581 -0.13005 0.37327 0.014983 -0.027881 5.9227e-05 -0.0018404
-0.0034815 -0.00066728 -0.0035111 -0.00041097
0.0027168 0.0038773 0.014892 -0.027964 0.20534 0.27578 -0.0018711 0.00022533
-0.0017701 0.00062202 -0.0011144 -0.00022303
0.0024765 -0.001264 5.7997e-05 -0.0018365 -0.001872 0.00022563 -0.00888 0.28441
0.024256 0.0048128 -0.0025712 0.00022878
-0.0020635 -0.0030204 -0.0034953 -0.00065708 -0.0017724 0.00062111 0.024267 0.0047736
-0.06206 0.20026 0.0189 0.0084438
-0.0039443 0.00020075 -0.0035117 -0.00038342 -0.0011105 -0.00021807 -0.0025863 0.00023429
0.018896 0.0084504 -0.086491 0.30027
1160000000 0.087758 0.30082 0.023367 -0.020972 0.0024766 -0.00038051 2.2373e-05 -0.0023676
-0.0040895 -0.00072886 -0.00079009 0.0040501
0.023375 -0.020947 -0.086583 0.37771 -0.003978 -0.029045 -0.0016784 -0.001789
-0.0026166 0.0025425 -0.0013442 0.0018085
0.0024817 -0.00038709 -0.0041272 -0.029045 0.24822 0.24474 -0.00077702 0.0018003
-0.00046442 0.0020406 -0.00077046 0.00016778
7.5689e-06 -0.0023728 -0.0016692 -0.0017653 -0.00078273 0.0017997 0.030324 0.28183
0.020499 -0.010588 -0.0031614 0.0052366
-0.004101 -0.00070098 -0.0026099 0.0025633 -0.00047252 0.0020528 0.020504 -0.010616
-0.028346 0.2093 0.017875 0.00032429
-0.00075282 0.0040548 -0.0013253 0.0018342 -0.00075899 0.00016959 -0.003151 0.0052372
0.01788 0.0003217 -0.040187 0.30378
1220000000 0.13221 0.28985 0.0098079 -0.029915 -0.001625 -0.00065725 -9.3854e-05 -0.00096546
-0.0026906 0.0024858 0.0013436 0.0021979
0.0098272 -0.029891 -0.042232 0.38984 -0.017042 -0.021021 -0.0026062 0.00050575
0.00016731 0.0031113 -0.00070123 0.0019287
-0.0016267 -0.00065605 -0.017166 -0.02097 0.28734 0.20554 0.00081523 0.0016546
0.00070279 0.0012453 0.00037148 0.00064936
-0.00010519 -0.00096829 -0.0026144 0.00052109 0.00082021 0.0016599 0.07018 0.27355
0.0099678 -0.016935 0.0021598 0.0015957
-0.0026921 0.0025032 0.00017951 0.0031042 0.00070435 0.001234 0.0099409 -0.01694
-0.0054097 0.21818 0.013714 -0.012848
0.001352 0.0021947 -0.00069247 0.0019351 0.00037585 0.0006477 0.0021681 0.0015979
0.013721 -0.012842 -0.0080453 0.31931
1280000000 0.18196 0.26773 -0.0084155 -0.028139 -0.0018001 0.0028092 -0.00085111 -0.002047
-0.00071477 0.0030235 0.002644 0.0010278
-0.0083757 -0.028112 0.0037817 0.3809 -0.023854 -0.0083512 -0.00095969 0.0014413
0.0017477 0.0017796 0.00057572 0.0020325
-0.0017854 0.0028084 -0.023918 -0.0082435 0.31765 0.16128 0.0015442 -7.6482e-05
0.0011478 0.00016007 0.00037021 0.000289
-0.00085508 -0.002033 -0.00094785 0.0014453 0.001542 -7.9638e-05 0.10708 0.2574
0.00053529 -0.018747 3.8597e-05 0.00016157
-0.00069801 0.0030266 0.0017573 0.0017789 0.0011505 0.00015446 0.00049433 -0.018752
0.030909 0.22215 0.0027998 -0.014885
0.0026468 0.0010183 0.00058043 0.0020227 0.00036953 0.00028759 3.4679e-05 0.00015596
0.0028031 -0.014888 0.039015 0.32097
1340000000 0.21888 0.23383 -0.017876 -0.018314 0.0011375 0.0045865 -0.0018752 -0.00087238
0.001514 0.0026242 0.0016851 -0.0014635
-0.017839 -0.018305 0.043165 0.37276 -0.02157 0.0044774 -4.1783e-05 0.0020729
0.0019658 0.00064678 0.001393 0.00077112
0.0011618 0.0045745 -0.021565 0.0045858 0.33917 0.11368 0.0011707 -0.0010054
0.00071446 -0.00051095 0.00016376 0.00016822
-0.0018732 -0.00086592 -3.7251e-05 0.0020789 0.0011702 -0.0010039 0.13991 0.23725
-0.0086261 -0.015919 0.00097292 0.00068229
0.0015345 0.0026119 0.0019667 0.0006275 0.00071712 -0.00050662 -0.0086586 -0.01591
0.060964 0.21773 -0.003938 -0.013352
0.0016667 -0.0014775 0.0014096 0.00074818 0.00016885 0.0001725 0.00097346 0.00067931
-0.0039341 -0.01334 0.077735 0.31602
1400000000 0.25195 0.19555 -0.023253 -0.0068111 0.0053909 0.0030585 -0.0021285 0.00072654
0.0024752 0.00087554 0.00022078 -0.0014473
-0.023222 -0.0068154 0.080607 0.35959 -0.014727 0.012555 0.001317 0.0012648
0.0011581 -0.00090334 0.0011844 0.00018324
0.0054136 0.0030342 -0.014685 0.012655 0.35228 0.060434 -5.7917e-06 -0.0017057
6.544e-05 -0.00044415 0.00035172 0.00028366
-0.0021281 0.00073966 0.0013401 0.0012513 -6.0623e-06 -0.0017066 0.16982 0.20851
-0.014259 -0.0091819 -0.00060092 -0.00037896
0.0024807 0.0008653 0.0011536 -0.00092168 5.9522e-05 -0.00044963 -0.014291 -0.0091418
0.094004 0.21363 -0.01013 -0.0087696
0.00021994 -0.001452 0.0011791 0.0001801 0.00035594 0.00028339 -0.00059925 -0.00038273
-0.010136 -0.0087839 0.12218 0.3048
1460000000 0.27432 0.15147 -0.019948 0.0052089 0.0058006 -0.0020432 -0.0016329 0.0017961
0.002066 -0.00057583 -0.00034812 -0.00095017
-0.019942 0.0051892 0.11479 0.33768 -0.0060282 0.015428 0.0017525 0.00011014
0.00076054 -0.0012649 0.0011305 -0.00059911
0.0057864 -0.0020637 -0.0059598 0.015466 0.3582 0.0063135 -0.0013325 -0.0012553
0.00020214 -0.00021327 0.00060694 -0.00037671
-0.0016238 0.0018081 0.0017759 0.00011708 -0.0013354 -0.0012542 0.19636 0.17924
-0.015147 -0.0025384 -0.00076756 0.0019419
0.0020655 -0.00058358 0.00076058 -0.0012804 0.00020903 -0.00020978 -0.015161 -0.0025133
0.12364 0.1991 -0.011832 -0.0027217
-0.00034473 -0.00094922 0.0011339 -0.00061237 0.00061135 -0.00039137 -0.00076335 0.0019366
-0.01183 -0.0027526 0.15553 0.28362
1520000000 0.28641 0.10949 -0.014153 0.010456 0.0033102 -0.004332 0.00018554 0.0026538
0.0019864 -0.0016659 -0.0011462 -8.9959e-05
-0.014151 0.010439 0.14831 0.32291 0.0017112 0.013091 0.0016226 -0.00083024
-1.8593e-06 -0.0009806 0.00031744 -0.00099085
0.0032918 -0.0043443 0.0017747 0.013095 0.35154 -0.049745 -0.001167 -0.0003378
0.00063572 -0.00085924 2.4254e-05 -7.3704e-05
0.00020068 0.0026625 0.0016215 -0.00084589 -0.0011713 -0.00034651 0.21972 0.14126
-0.014258 0.0029507 0.0015072 0.0019098
0.0019711 -0.0016792 -5.0508e-07 -0.00097807 0.00062705 -0.00086699 -0.014265 0.0029945
0.15154 0.18491 -0.011535 0.0017146
-0.0011391 -8.4833e-05 0.00032122 -0.00099351 2.5814e-05 -7.0941e-05 0.0015224 0.0019061
-0.011534 0.0017147 0.18847 0.26315
1580000000 0.29539 0.063191 -0.0074863 0.013215 -0.00087806 -0.0049206 0.0015232 0.0018694
-0.00031538 -0.0021128 -0.00034109 0.00035211
-0.0074913 0.013196 0.17558 0.29798 0.0053143 0.008278 0.00044217 -0.0016327
-0.0004714 -0.00098526 -0.00024285 -0.00091731
-0.0008972 -0.0049125 0.0053648 0.0082513 0.33156 -0.10746 -0.0015812 0.00065178
-0.00020032 -0.0011283 0.00024102 -0.00050933
0.0015367 0.0018623 0.00042955 -0.0016387 -0.0015842 0.0006551 0.23371 0.10168
-0.010752 0.0075553 0.0021421 0.00062779
-0.00033071 -0.0021075 -0.00048657 -0.00097825 -0.00019858 -0.0011167 -0.010737 0.007585
0.176 0.1666 -0.0090488 0.0074457
-0.00033783 0.00035261 -0.00024573 -0.00091275 0.00023646 -0.00050715 0.0021372 0.00061887
-0.0090539 0.0074513 0.22066 0.23588
1640000000 0.29693 0.02192 -0.00098279 0.011927 -0.0028029 -0.0027064 0.0027463 0.0009473
-0.00080268 -0.0014718 -0.0003562 0.0005579
-0.0010036 0.011925 0.20489 0.27296 0.0059576 0.0034773 -0.00070257 -0.0016531
-0.00095423 -0.00039757 -0.00048812 -0.00073453
-0.0028194 -0.0026898 0.005981 0.0034515 0.30316 -0.15612 -0.00066238 0.0014864
-0.00124 -0.00092331 -0.00011915 -0.00030966
0.0027413 0.00093228 -0.00072007 -0.0016508 -0.0006544 0.001494 0.24595 0.052795
-0.0065442 0.0085025 0.0024398 -0.00079286
-0.00082828 -0.0014761 -0.00095814 -0.00038319 -0.0012295 -0.00091384 -0.0065376 0.0085274
0.19874 0.1418 -0.0045205 0.0093915
-0.00034948 0.0005633 -0.00048395 -0.0007233 -0.0001188 -0.00031434 0.0024401 -0.00079609
-0.0045346 0.0093951 0.24596 0.20456
1700000000 0.28972 -0.023214 0.0022127 0.0089874 -0.0036765 -2.3507e-06 0.0029669 -0.0013391
-0.0019995 -0.00058947 0.00058844 0.00045875
0.002206 0.0089766 0.2231 0.24129 0.0040485 0.00042566 -0.001438 -0.00060742
-0.00069776 -4.0118e-05 -0.00099392 -0.00043668
-0.0036742 1.838e-05 0.0040554 0.00040803 0.26023 -0.19609 0.00040814 0.0015443
-0.0018591 -0.00025432 -0.00041886 -0.00085088
0.0029636 -0.0013451 -0.0014349 -0.00059893 0.00040195 0.0015327 0.24273 0.0030442
-0.0039837 0.0087974 0.001521 -0.0022366
-0.0020015 -0.00057999 -0.00070198 -3.7713e-05 -0.0018591 -0.00025376 -0.0039707 0.008812
0.21599 0.12123 0.00015703 0.0096787
0.0005928 0.00045543 -0.0009921 -0.00043738 -0.00043388 -0.00084798 0.0015135 -0.0022509
0.00015344 0.0096828 0.26222 0.16999
1760000000 0.27712 -0.071759 0.0043032 0.0057281 -0.0024268 0.0010156 0.0012042 -0.0034478
-0.0013385 0.00070723 0.00041639 -0.00059768
0.0042978 0.0057187 0.24882 0.20128 0.0016873 -0.0014812 -0.001146 0.00020373
-0.0010756 0.00082896 -0.00062176 0.00045166
-0.0024201 0.0010337 0.0016728 -0.0014898 0.21197 -0.23029 0.001312 0.00099739
-0.0010362 0.0015435 -0.0013642 -0.0004296
0.0011793 -0.0034531 -0.0011505 0.0002015 0.0013254 0.0010005 0.23357 -0.0484
-0.0010097 0.0079114 -0.00038849 -0.0025202
-0.0013356 0.0007235 -0.0010735 0.000838 -0.00102 0.0015476 -0.00099148 0.0079132
0.23048 0.085632 0.0040622 0.0070261
0.00041774 -0.000606 -0.00061093 0.00046273 -0.0013547 -0.00042525 -0.00039756 -0.0025158
0.0040787 0.0070149 0.27447 0.13203
1820000000 0.25238 -0.10863 0.0042715 0.0023023 -0.00015648 0.0026699 -0.0011474 -0.0029953
-0.0010623 0.00090138 -2.522e-05 -0.00013764
0.0042705 0.0023046 0.25868 0.17126 -0.00042196 -0.00014042 -0.0013139 0.00092651
-0.00015787 0.001269 -0.00058703 0.00056877
-0.00014678 0.002667 -0.00042091 -0.00013649 0.16108 -0.24532 0.0013743 0.00040329
-0.00026866 0.0022493 -0.0013966 0.00046656
-0.0011595 -0.0029878 -0.0013137 0.00093532 0.0013669 0.00039927 0.20363 -0.095042
0.00038748 0.0064265 -0.001609 -0.0015068
-0.0010547 0.00091198 -0.00014724 0.0012717 -0.0002756 0.002254 0.00040295 0.0064457
0.24724 0.056266 0.0050738 0.0033471
-2.7494e-05 -0.00012843 -0.00058731 0.00058189 -0.0014008 0.00048702 -0.001609 -0.0014962
0.0050579 0.0033506 0.27661 0.095809
1880000000 0.21719 -0.14885 0.0020408 0.00015372 -0.00033964 0.0022852 -0.0030055 -0.0021535
-0.0001814 0.0015562 0.00031337 -0.00052199
0.0020353 0.00015278 0.26294 0.12453 -0.0025178 0.0016406 -0.00020805 0.0017034
0.00051731 0.0013 0.00013812 0.00096045
-0.00033688 0.0022858 -0.0025183 0.0016646 0.10838 -0.25546 0.0018045 -0.00088736
0.0014625 0.0019703 -0.00097718 0.0013537
-0.0030059 -0.0021408 -0.00020044 0.0016923 0.0018015 -0.0008821 0.16307 -0.13532
0.00078647 0.0046162 -0.0024557 0.00029872
-0.00017042 0.0015503 0.00052046 0.0012935 0.0014603 0.0019612 0.00081551 0.0045978
0.24948 0.023269 0.0051069 0.0012729
0.00030796 -0.00051996 0.00015189 0.00097071 -0.00097454 0.0013647 -0.0024641 0.00030362
0.0051179 0.0012766 0.27588 0.061602
1940000000 0.17771 -0.17419 -0.00023377 -0.0013364 0.0015512 0.0019836 -0.0037312 0.00061768
0.0013372 0.001096 -0.00057719 -0.00062282
-0.00023282 -0.0013366 0.26315 0.092842 -0.0012749 0.0039778 0.00097577 0.001271
0.0018778 0.00054758 0.00092445 0.00037963
0.0015636 0.001978 -0.0012493 0.0039951 0.062646 -0.24854 0.00034967 -0.0021199
0.0024125 0.00034532 0.00052333 0.0015827
-0.0037274 0.00063767 0.00098893 0.0012654 0.00035289 -0.0021178 0.11078 -0.16554
-0.00027886 0.0033698 -0.0014971 0.0016553
0.0013516 0.001069 0.001877 0.00053611 0.0024169 0.00034285 -0.00029449 0.0033788
0.25063 -0.016165 0.0036665 -0.0022527
-0.00058502 -0.00061737 0.00091656 0.00037125 0.00052286 0.0015821 -0.0014883 0.0016547
0.003654 -0.0022589 0.26496 0.025696
2000000000 0.13171 -0.18883 -0.0040512 0.00086754 0.0024766 0.0015854 -0.0023527 0.0035678
0.00099208 0.00025165 -0.00056838 0.00041778
-0.0040505 0.00086525 0.24885 0.057429 -0.00093416 0.0059008 0.0016043 0.00031736
0.0014129 -0.0012319 0.000527 0.00012903
0.0024864 0.0015635 -0.0009012 0.0059137 0.019057 -0.23407 -0.0012993 -0.0013249
0.0019894 -0.0011212 0.0016442 0.0011298
-0.00233 0.0035799 0.0016196 0.00030736 -0.001298 -0.0013166 0.05788 -0.1751
-0.0018277 0.003828 -0.00011389 0.0022582
0.00099736 0.0002337 0.0013974 -0.0012584 0.0019809 -0.0011301 -0.0017817 0.0038246
