!Keysight Technologies,M9804A,MY58100912,A.14.10.03
!Date: Thursday, April 27, 2023 10:28:33
!Correction: S11(C  6-Port  ) 
!S12(C  6-Port  ) 
!S13(C  6-Port  ) 
!S14(C  6-Port  ) 
!S15(C  6-Port  ) 
!S16(C  6-Port  ) 
!S21(C  6-Port  ) 
!S22(C  6-Port  ) 
!S23(C  6-Port  ) 
!S24(C  6-Port  ) 
!S25(C  6-Port  ) 
!S26(C  6-Port  ) 
!S31(C  6-Port  ) 
!S32(C  6-Port  ) 
!S33(C  6-Port  ) 
!S34(C  6-Port  ) 
!S35(C  6-Port  ) 
!S36(C  6-Port  ) 
!S41(C  6-Port  ) 
!S42(C  6-Port  ) 
!S43(C  6-Port  ) 
!S44(C  6-Port  ) 
!S45(C  6-Port  ) 
!S46(C  6-Port  ) 
!S51(C  6-Port  ) 
!S52(C  6-Port  ) 
!S53(C  6-Port  ) 
!S54(C  6-Port  ) 
!S55(C  6-Port  ) 
!S56(C  6-Port  ) 
!S61(C  6-Port  ) 
!S62(C  6-Port  ) 
!S63(C  6-Port  ) 
!S64(C  6-Port  ) 
!S65(C  6-Port  ) 
!S66(C  6-Port  ) 
!S6P File: Measurement: :
# Hz S  RI   R 50
500000000 -0.33755 -0.036747 -0.0099594 -0.0014368 -0.008041 0.013708 -0.0039839 0.011181
0.014059 0.0041934 -0.0040026 0.0075469
-0.010009 -0.0014074 -0.41773 -0.050754 0.0078974 -0.010399 0.0015007 0.011448
0.0081699 0.0028445 0.0020207 0.012836
-0.0080438 0.01374 0.0078868 -0.010427 -0.2665 0.21036 0.0074236 0.0036933
-0.0013318 0.0085296 0.0017117 0.012434
-0.0039522 0.011218 0.0015298 0.01145 0.0074243 0.0036913 -0.33129 0.043922
-0.018852 -0.0063305 0.015246 0.024576
0.014128 0.0041106 0.008181 0.0027572 -0.001337 0.0085062 -0.018881 -0.0062954
-0.22845 -0.19024 -0.026116 0.0044463
-0.0039581 0.0075917 0.0020417 0.012843 0.0017002 0.012422 0.01525 0.024599
-0.026097 0.004434 -0.27162 -0.12622
560000000 -0.31829 0.12318 -0.024812 -0.062972 -0.00015707 0.012424 0.0056665 0.010402
0.010356 0.0056433 0.009464 0.008119
-0.024807 -0.062945 -0.37768 0.10854 -0.041416 -0.036968 0.01379 0.0043145
-0.012853 -0.0048629 0.0034109 0.0016448
-0.00011017 0.012378 -0.041546 -0.036907 -0.18354 0.25893 -0.00042567 -0.0044984
0.019495 0.0054603 0.0065512 -0.0059787
0.0056678 0.010412 0.013866 0.0042853 -0.00043942 -0.0044816 -0.30606 0.13484
0.0049854 -0.023501 0.0046764 -0.021847
0.010401 0.005617 -0.012882 -0.0048105 0.019508 0.0054554 0.0049849 -0.023538
-0.28868 -0.016738 0.0095206 -0.049426
0.0095076 0.0080182 0.0033808 0.0015847 0.0065749 -0.006002 0.0046614 -0.021868
0.0095717 -0.04937 -0.33089 0.022868
620000000 -0.27505 0.10674 -0.023371 0.0085123 0.0035275 0.0091185 0.008807 -0.0050526
0.011577 -0.0011139 0.0017752 -0.002212
-0.023362 0.0084878 -0.40303 0.06019 -0.018767 0.00048187 -0.0016556 -0.0019416
0.011483 -0.0065144 0.0013929 -0.0026099
0.0035708 0.0090796 -0.018789 0.00053248 -0.15327 0.2676 -0.00081275 -0.0052127
-0.0035334 -0.0033349 0.0088841 -0.0027673
0.0088142 -0.005016 -0.0016563 -0.001947 -0.00080269 -0.0052235 -0.26491 0.14435
-0.038604 -0.019882 0.011088 0.025178
0.01154 -0.0011737 0.011478 -0.0065447 -0.0035312 -0.0033223 -0.038588 -0.019783
-0.20957 -0.050063 -0.039631 0.013704
0.0017896 -0.0023197 0.0013832 -0.002612 0.008886 -0.0027558 0.011068 0.025188
-0.039679 0.013689 -0.25287 -0.01207
680000000 -0.23424 0.19385 -0.026974 -0.01345 0.0053203 0.0053506 0.0014403 -0.0065937
-0.0029687 -0.011421 0.0051021 -0.006036
-0.026969 -0.013453 -0.38748 0.15834 -0.032134 -0.00095757 -0.0014215 -0.00012135
-0.0019444 -0.0090471 -0.0012726 -0.0016376
0.0053049 0.0053428 -0.032167 -0.0008746 -0.10137 0.28733 -0.00098728 -0.00017882
-0.0017997 0.0004023 -0.0027206 -0.0090976
0.0013976 -0.0066052 -0.0014242 -0.0001107 -0.00099235 -0.00017441 -0.22026 0.19558
-0.023082 -0.0071691 -0.0090821 -0.010392
-0.0030074 -0.011411 -0.0019805 -0.0090369 -0.0018051 0.00041407 -0.023098 -0.0071978
-0.25824 0.044239 -0.0062998 -0.0082451
0.0050918 -0.0060597 -0.0012735 -0.0016473 -0.002702 -0.0091334 -0.009103 -0.010401
-0.0062925 -0.0082507 -0.25896 0.09434
740000000 -0.19001 0.18834 -0.037992 0.02682 0.012967 -0.0052723 -0.0005056 -0.0044688
-0.0045501 -0.0023614 -0.0067555 0.0022379
-0.037981 0.026806 -0.33446 0.17687 -0.035033 0.034994 -0.00055475 -0.0065383
-0.012067 0.0075477 -0.0015754 -0.0059114
0.012964 -0.0053083 -0.034948 0.035108 -0.067947 0.28495 -0.0022001 0.003157
-0.0025914 -0.0048577 -0.0020154 0.00064031
-0.00047361 -0.0044797 -0.00057865 -0.006528 -0.0021862 0.003173 -0.20316 0.20285
-0.043704 -0.0064087 0.023159 0.01467
-0.0045866 -0.0023653 -0.012085 0.0076284 -0.0026283 -0.0048707 -0.043712 -0.006307
-0.16025 0.072079 -0.042944 0.0010316
-0.0067519 0.0022644 -0.0016321 -0.0059612 -0.0020313 0.0006424 0.023195 0.014636
-0.042966 0.00098606 -0.24792 0.1002
800000000 -0.15708 0.22827 -0.022169 0.016444 0.0052072 -0.010643 -0.0048471 -0.0016765
-0.004382 0.0029359 0.0038795 0.00078925
-0.022173 0.016429 -0.33752 0.24628 -0.0078289 0.033673 -0.002522 0.002186
-0.0010673 0.0033527 0.00098852 0.0053084
0.0051911 -0.010645 -0.007728 0.033739 -0.027341 0.30768 0.0010365 0.0015965
0.00036706 0.0036695 -0.0017441 0.00088053
-0.0048575 -0.0016669 -0.0025118 0.0021956 0.0010368 0.0016008 -0.17479 0.2305
-0.028012 0.013793 0.013152 -0.010025
-0.0043816 0.0029464 -0.0010736 0.0033332 0.0003573 0.0036664 -0.028 0.013845
-0.20469 0.096078 -0.016324 0.018803
0.0039041 0.00077919 0.0010338 0.0052963 -0.0017537 0.00086433 0.013134 -0.010052
-0.016339 0.018813 -0.242 0.14944
860000000 -0.12231 0.24817 -0.016951 0.030523 -0.0033005 -0.0098268 -0.0025353 0.00079828
0.0041965 0.0048807 -0.003219 -0.002305
-0.016955 0.030488 -0.29016 0.28837 0.0079472 0.034004 0.00016332 0.0020955
0.0046265 0.00019249 0.003528 0.0010547
-0.0033378 -0.0098174 0.008072 0.034014 0.020244 0.31558 -0.0005227 -0.00014896
0.0028557 -0.0014266 0.0016065 0.0043234
-0.0025244 0.00079557 0.000167 0.0020887 -0.00052309 -0.00015067 -0.13854 0.24075
-0.017412 0.01874 -0.0062332 -0.0093318
0.0042185 0.0048585 0.0046462 0.00015957 0.0028585 -0.0014263 -0.0174 0.018777
-0.15333 0.14566 -0.024378 0.016014
-0.0032355 -0.0023195 0.003571 0.0010448 0.0016113 0.004342 -0.006249 -0.0093198
-0.024377 0.015976 -0.19016 0.19297
920000000 -0.097482 0.27093 0.0053845 0.037477 -0.009294 -0.0045459 -0.0017592 0.0019586
0.0017699 0.0018293 0.0030637 -0.0014645
0.0053693 0.037441 -0.26149 0.30936 0.028121 0.021734 0.0014306 0.001226
0.0072557 -6.9655e-05 0.004164 -0.002933
-0.0093159 -0.004526 0.028235 0.021668 0.066439 0.31639 0.0018949 -0.00012328
0.0013843 -0.00036358 0.00086644 -0.0012836
-0.0017504 0.001971 0.0014355 0.0012077 0.0018955 -0.00011899 -0.11439 0.2581
-0.010266 0.030281 0.0035691 -0.0065905
0.0017908 0.0018235 0.0072589 -9.0119e-05 0.0014018 -0.00037833 -0.010174 0.03028
-0.14134 0.15011 -0.0023954 0.026965
0.0030736 -0.0015119 0.0041739 -0.0029526 0.00085626 -0.001289 0.0035852 -0.0066144
-0.0024455 0.02698 -0.19682 0.20784
980000000 -0.050339 0.28968 0.017455 0.02954 -0.0090747 0.0044241 0.0019828 0.0032885
0.0037557 -0.001722 -0.0034299 -0.0021214
0.017435 0.029507 -0.20881 0.34298 0.032878 0.0046358 0.0018937 -0.00017092
0.0015323 -0.0061499 -0.00059658 -0.0022064
-0.0090627 0.0044411 0.032935 0.0045464 0.11259 0.30973 0.00049622 -0.0013154
0.00010361 -0.0022276 0.001213 -0.00022576
0.0020047 0.0033018 0.0019093 -0.0001965 0.00049328 -0.0013158 -0.076554 0.26879
0.0078527 0.029581 -0.0089174 -0.0069955
0.0037476 -0.0017453 0.0015011 -0.0061693 0.00010892 -0.0022271 0.0079107 0.02958
-0.11212 0.17978 0.0052309 0.01959
-0.003427 -0.0021042 -0.00063283 -0.0022113 0.0012031 -0.00023764 -0.0089235 -0.006985
0.0052148 0.019569 -0.15388 0.2502
1040000000 -0.0084755 0.29806 0.033051 0.017626 -0.0013837 0.0067541 0.0025096 0.00095429
-0.00011362 -0.0034532 -0.00033725 -0.0012974
0.033019 0.017594 -0.17348 0.35601 0.029187 -0.014971 0.0013979 -0.0016339
-0.0025251 -0.0025519 -0.0014499 -0.0027987
-0.0013613 0.0067526 0.029183 -0.01508 0.15874 0.29621 -0.00059788 -0.001425
-0.001731 -0.00083296 -0.00057291 -0.0010568
0.002505 0.00095378 0.0013882 -0.0016722 -0.00059545 -0.0014247 -0.049143 0.27945
0.018979 0.017617 -0.002632 0.0014867
-0.00012296 -0.0034309 -0.0025635 -0.002539 -0.0017154 -0.00082977 0.019021 0.01758
-0.080042 0.18606 0.013382 0.018165
-0.00034924 -0.0012958 -0.0014729 -0.002777 -0.0005656 -0.0010588 -0.0026214 0.0014958
0.013368 0.018168 -0.13251 0.272
1100000000 0.036621 0.30592 0.035471 -0.0045925 0.0027079 0.0038939 0.0024941 -0.0012573
-0.0020299 -0.0030483 -0.0039579 0.00016544
0.035449 -0.0045773 -0.1301 0.37325 0.014984 -0.027878 6.679e-05 -0.0018317
-0.0034709 -0.00068328 -0.0035115 -0.00041853
0.0027204 0.00387 0.014904 -0.027966 0.20528 0.27578 -0.0018664 0.00023383
-0.0017663 0.00061548 -0.0011046 -0.00022443
0.0024906 -0.0012653 5.5373e-05 -0.0018355 -0.0018724 0.00022916 -0.0088694 0.28439
0.024268 0.004818 -0.0025804 0.00023644
-0.0020433 -0.0030302 -0.0034971 -0.00066458 -0.0017677 0.00061477 0.024271 0.0047748
-0.062157 0.20024 0.018913 0.0084401
-0.0039596 0.00017842 -0.003522 -0.0003924 -0.0010999 -0.00022403 -0.0025843 0.00023769
0.01891 0.0084317 -0.086572 0.3002
1160000000 0.087675 0.30086 0.023389 -0.02095 0.0024941 -0.00036759 1.4326e-05 -0.0023559
-0.0041164 -0.00071552 -0.00075021 0.004069
0.023393 -0.020926 -0.086664 0.37769 -0.0039903 -0.029052 -0.0016644 -0.0017501
-0.0026101 0.0025481 -0.0013096 0.0017931
0.0024816 -0.000398 -0.0041117 -0.029051 0.24817 0.24475 -0.00078006 0.0017981
-0.00047224 0.0020491 -0.00077426 0.0001572
-1.4541e-05 -0.002345 -0.001678 -0.0017557 -0.00078568 0.0017925 0.030292 0.28185
0.020495 -0.010613 -0.0031478 0.0052274
-0.00412 -0.00068851 -0.0025972 0.0025603 -0.00045758 0.0020597 0.020496 -0.010635
-0.028479 0.20927 0.017828 0.00035671
-0.00070286 0.0040824 -0.0013109 0.0018055 -0.00077327 0.00016693 -0.0031424 0.0052353
0.017813 0.00036008 -0.040348 0.30373
1220000000 0.13212 0.28992 0.0098271 -0.029919 -0.0016222 -0.00065479 -8.2214e-05 -0.00098351
-0.0026966 0.0024837 0.0013106 0.002201
0.00984 -0.029891 -0.042297 0.38979 -0.017053 -0.021038 -0.0026088 0.00050841
0.00016572 0.0031218 -0.00070028 0.0019414
-0.0016168 -0.00064855 -0.017159 -0.020968 0.28728 0.20553 0.00082324 0.0016703
0.00070853 0.001228 0.0003718 0.00065781
-8.2073e-05 -0.00099448 -0.0026047 0.00050594 0.00081189 0.0016695 0.070181 0.27353
0.0099641 -0.016924 0.0021622 0.0015917
-0.0026888 0.0024967 0.00018204 0.0031168 0.00070277 0.001236 0.0099516 -0.016943
-0.0055265 0.21816 0.013726 -0.012864
0.0013146 0.0021876 -0.00069081 0.0019319 0.00037751 0.00064628 0.002159 0.0015968
0.013734 -0.012863 -0.0081288 0.31935
1280000000 0.18191 0.26778 -0.0083912 -0.028141 -0.0018151 0.0027991 -0.0008533 -0.0020238
-0.00071994 0.0030201 0.0026591 0.0010518
-0.0083681 -0.028124 0.0036986 0.38087 -0.023839 -0.0083566 -0.00095082 0.0014514
0.0017649 0.0017743 0.00056599 0.0020284
-0.0017992 0.0028067 -0.023913 -0.0082542 0.3176 0.16133 0.0015429 -8.2124e-05
0.0011454 0.00016768 0.00036726 0.00030269
-0.00086346 -0.002016 -0.00095434 0.0014606 0.0015376 -8.3798e-05 0.10705 0.25741
0.00053063 -0.018786 6.6201e-05 0.00017976
-0.00070664 0.003034 0.0017645 0.0017704 0.0011447 0.00016804 0.00049444 -0.018774
0.030877 0.22213 0.0027905 -0.014887
0.002671 0.0010417 0.00057854 0.0020092 0.00037114 0.00029829 6.3001e-05 0.00017496
0.0027966 -0.014884 0.038933 0.32094
1340000000 0.21882 0.2339 -0.017871 -0.018326 0.0011397 0.0045655 -0.0018705 -0.00087262
0.0015286 0.0026312 0.0016613 -0.0014658
-0.017834 -0.01833 0.043098 0.37273 -0.021575 0.0044725 -5.3259e-05 0.0020771
0.0019823 0.0006575 0.0013973 0.00076781
0.0011625 0.0045712 -0.021562 0.0045788 0.33914 0.11371 0.0011677 -0.0010069
0.00073341 -0.00050934 0.00017318 0.00016956
-0.001863 -0.00086457 -3.9787e-05 0.0020824 0.0011659 -0.0010027 0.13989 0.23723
-0.0086018 -0.015904 0.00094801 0.00067035
0.0015447 0.0026151 0.0019694 0.00064382 0.00072287 -0.00051584 -0.0086385 -0.015892
0.060874 0.21779 -0.0039307 -0.013363
0.0016563 -0.001483 0.0014107 0.00076145 0.00017208 0.00016903 0.00095211 0.00066335
-0.0039253 -0.013371 0.077602 0.31606
1400000000 0.25189 0.19564 -0.02326 -0.0068193 0.0053998 0.0030579 -0.0021277 0.00073873
0.0024713 0.0008665 0.0002454 -0.0014445
-0.023229 -0.0068206 0.08053 0.35957 -0.014737 0.012563 0.0013274 0.0012516
0.0011553 -0.00090579 0.0011771 0.00017052
0.0054072 0.0030376 -0.014692 0.012652 0.35225 0.060476 -1.5638e-05 -0.0017213
6.9982e-05 -0.00045699 0.00035412 0.00026749
-0.0021337 0.00075465 0.0013373 0.0012509 -6.5887e-06 -0.0017238 0.16979 0.20856
-0.014262 -0.0091791 -0.00059271 -0.00036044
0.0024813 0.00085038 0.0011508 -0.00091582 7.234e-05 -0.00045045 -0.014292 -0.0091528
0.093937 0.21362 -0.010117 -0.0087556
0.00024702 -0.0014433 0.0011856 0.00017659 0.0003556 0.00027464 -0.00059133 -0.0003629
-0.010106 -0.0087569 0.1221 0.30481
1460000000 0.27428 0.15151 -0.019978 0.0052022 0.0058109 -0.0020346 -0.0016278 0.001772
0.0020894 -0.00058604 -0.00035531 -0.00094634
-0.019959 0.0051785 0.11472 0.33768 -0.0060288 0.015423 0.00177 0.00012624
0.0007496 -0.0012839 0.0011404 -0.00060521
0.00581 -0.0020501 -0.0059506 0.015468 0.35817 0.0063645 -0.0013346 -0.001241
0.0001991 -0.00020954 0.00062054 -0.00038333
-0.0016172 0.0017705 0.0017658 0.00011802 -0.0013296 -0.0012552 0.19636 0.17923
-0.015172 -0.0025504 -0.00077967 0.0019394
0.0020829 -0.00059167 0.00074855 -0.0012879 0.00020116 -0.00021635 -0.015181 -0.0025162
0.12355 0.19919 -0.011813 -0.00273
-0.00037194 -0.00095582 0.0011365 -0.00061838 0.00061463 -0.00039105 -0.00078413 0.0019395
-0.011807 -0.002732 0.1555 0.28366
1520000000 0.2864 0.10959 -0.01416 0.010454 0.0033084 -0.0043321 0.00018357 0.0026677
0.0019966 -0.0016711 -0.0011223 -8.4891e-05
-0.014153 0.010434 0.14825 0.32293 0.0017053 0.013091 0.0016232 -0.00083275
8.4824e-06 -0.00097834 0.00032585 -0.00099183
0.0032867 -0.0043431 0.001778 0.013101 0.35149 -0.049709 -0.0011659 -0.00034512
0.00062474 -0.00085041 2.3673e-05 -8.033e-05
0.00018963 0.0026863 0.0016196 -0.00084571 -0.0011713 -0.00033756 0.2197 0.14128
-0.014268 0.002971 0.0015028 0.0019142
0.0019768 -0.0016789 -2.164e-06 -0.00098138 0.00063102 -0.00085801 -0.014258 0.0030001
0.15146 0.18493 -0.01152 0.0017199
-0.0011257 -8.9487e-05 0.00031492 -0.00098968 2.7733e-05 -7.8138e-05 0.0015084 0.0019165
-0.011518 0.0017153 0.18841 0.2632
1580000000 0.29534 0.063264 -0.0074969 0.013223 -0.00087937 -0.0049174 0.0015326 0.0018668
-0.00032025 -0.0021174 -0.00035034 0.00034653
-0.0074946 0.013209 0.17552 0.29801 0.0053152 0.0082835 0.00043789 -0.001623
-0.00047728 -0.00097783 -0.00023112 -0.00092264
-0.00089684 -0.004916 0.0053699 0.0082608 0.33155 -0.1074 -0.0015781 0.00065014
-0.00020659 -0.001116 0.00023959 -0.00050029
0.001535 0.0018535 0.00043568 -0.0016229 -0.0015817 0.00064855 0.2337 0.10168
-0.010757 0.0075411 0.0021479 0.00062296
-0.00033617 -0.0021174 -0.00047713 -0.00096678 -0.00021214 -0.0011211 -0.010748 0.0075799
0.17594 0.16666 -0.0090558 0.0074586
-0.00034482 0.00035281 -0.00024887 -0.00092282 0.00023241 -0.00050279 0.0021424 0.00061778
-0.0090722 0.0074521 0.22057 0.23594
1640000000 0.29691 0.022002 -0.0010007 0.011931 -0.0028135 -0.0026942 0.0027391 0.0009599
-0.00080417 -0.0014712 -0.00035503 0.0005597
-0.0010064 0.011925 0.20484 0.273 0.0059588 0.0034898 -0.00071846 -0.0016591
-0.00095232 -0.00037985 -0.00048251 -0.00072324
-0.0028287 -0.0026741 0.0059787 0.0034537 0.30318 -0.15606 -0.00065433 0.0015002
-0.0012468 -0.00091688 -0.000124 -0.00031083
0.0027419 0.00095499 -0.00072785 -0.0016512 -0.00066097 0.0014884 0.24595 0.052825
-0.0065427 0.0085198 0.0024429 -0.00078914
-0.00081372 -0.0014614 -0.00095646 -0.00038412 -0.001247 -0.00092424 -0.0065261 0.008539
0.19872 0.14188 -0.0045207 0.0093693
-0.0003475 0.0005599 -0.00048575 -0.00072332 -0.00012261 -0.00031293 0.002443 -0.00080312
-0.0045296 0.0093667 0.24587 0.20465
1700000000 0.28972 -0.023109 0.0022136 0.0089844 -0.0036652 -1.0616e-05 0.0029657 -0.0013427
-0.0020129 -0.00059657 0.0005866 0.00045717
0.0022066 0.0089767 0.22305 0.24132 0.0040533 0.00043954 -0.0014288 -0.00059566
-0.00069434 -3.4642e-05 -0.00099764 -0.00044945
-0.0036719 5.0189e-06 0.004053 0.00041472 0.26027 -0.19602 0.00041087 0.0015141
-0.0018501 -0.0002617 -0.00044335 -0.00083899
0.002956 -0.0013528 -0.0014254 -0.00059553 0.00040905 0.0015269 0.24272 0.0030263
-0.00398 0.0087899 0.0015014 -0.0022249
-0.0020177 -0.00058628 -0.00069748 -3.555e-05 -0.0018544 -0.0002652 -0.0039628 0.0088134
0.21595 0.1213 0.00014855 0.0096803
0.00060034 0.0004563 -0.0010001 -0.00044482 -0.00044168 -0.00084859 0.0014968 -0.0022377
0.0001512 0.0096899 0.26216 0.17003
1760000000 0.27715 -0.071691 0.0043007 0.0057328 -0.0024322 0.0010193 0.0011969 -0.0034423
-0.001336 0.00070752 0.00042067 -0.00058383
0.0042948 0.0057284 0.24878 0.20135 0.001696 -0.0014812 -0.0011581 0.00020242
-0.0010783 0.000826 -0.00060751 0.0004603
-0.0024263 0.0010388 0.0016853 -0.0014889 0.21201 -0.23024 0.0013209 0.0010122
-0.0010299 0.0015436 -0.001335 -0.00044053
0.0011716 -0.0034488 -0.0011589 0.00020614 0.0013162 0.0010075 0.23357 -0.048378
-0.00098839 0.0079246 -0.00036316 -0.0025433
-0.0013337 0.00071749 -0.0010725 0.00082514 -0.0010344 0.0015423 -0.00097479 0.0079223
0.23045 0.085695 0.0040781 0.0070059
0.00042666 -0.00059153 -0.00059973 0.00046502 -0.0013399 -0.00044093 -0.00037817 -0.0025291
0.0040888 0.0070014 0.27446 0.13208
1820000000 0.25242 -0.10852 0.0042882 0.0023105 -0.00016923 0.0026559 -0.0011499 -0.0029997
-0.0010678 0.00089969 -2.0612e-05 -0.00012099
0.0042688 0.0023102 0.25864 0.1713 -0.00042495 -0.00013644 -0.00131 0.00093686
-0.00016002 0.0012716 -0.00059579 0.00057622
-0.00015912 0.0026663 -0.00042372 -0.00013689 0.16111 -0.2453 0.0013704 0.00039687
-0.00027478 0.0022496 -0.0014064 0.00052453
-0.001181 -0.0029933 -0.0013071 0.00093614 0.0013729 0.00039338 0.2036 -0.095045
0.00035333 0.0064601 -0.0016406 -0.001479
-0.0010605 0.00091531 -0.00014703 0.0012704 -0.00027159 0.0022536 0.00038739 0.0064511
0.2472 0.056382 0.0050621 0.0033622
-2.4709e-05 -0.00011765 -0.00058853 0.00057506 -0.0014039 0.00051002 -0.0016403 -0.0014836
0.0050764 0.0033756 0.27656 0.095902
1880000000 0.2172 -0.14876 0.0020398 0.00015 -0.00033618 0.0022885 -0.0029824 -0.0021592
-0.00017059 0.0015319 0.00031524 -0.00050494
0.0020321 0.00015481 0.2629 0.1246 -0.0025253 0.0016544 -0.0002104 0.0016821
0.00052147 0.0012789 0.00015256 0.00097179
-0.0003221 0.0022823 -0.0025256 0.0016699 0.10841 -0.25539 0.0017845 -0.00087001
0.0014532 0.0019651 -0.0009604 0.0013411
-0.0029816 -0.0021471 -0.00020202 0.0016939 0.0017852 -0.00087126 0.16304 -0.13528
0.00077588 0.0046138 -0.0024093 0.00029298
-0.00016049 0.0015445 0.00052904 0.0012871 0.0014575 0.0019685 0.00079118 0.0046154
0.24943 0.023359 0.0051271 0.0012937
0.00029477 -0.00051385 0.00016484 0.00096553 -0.00095101 0.0013615 -0.0024127 0.00029998
0.0051141 0.0012872 0.27587 0.061678
1940000000 0.17776 -0.17413 -0.000227 -0.0013253 0.0015521 0.0020003 -0.0037381 0.00064362
0.0013411 0.0010967 -0.00052611 -0.00063211
-0.00022578 -0.0013269 0.26313 0.092904 -0.0012751 0.0039714 0.00098743 0.0012682
0.001888 0.00054955 0.00089858 0.00037493
0.0015567 0.0019931 -0.0012525 0.0039835 0.062698 -0.24853 0.00034737 -0.0021401
0.0024252 0.00033498 0.00051614 0.0016076
-0.0037544 0.00066987 0.0009875 0.0012621 0.00034517 -0.0021533 0.11081 -0.16559
-0.00026335 0.0033406 -0.0015617 0.0016354
0.0013497 0.0010899 0.0018881 0.00053405 0.0024166 0.00033072 -0.00025903 0.00335
0.25065 -0.016054 0.0036548 -0.0022526
-0.00052901 -0.00061753 0.00091337 0.00037862 0.0005124 0.0015996 -0.0015477 0.0016423
0.0036679 -0.0022473 0.26495 0.025798
2000000000 0.13179 -0.18874 -0.0040478 0.00087333 0.0024754 0.0015679 -0.0023459 0.0035392
0.0010076 0.00022163 -0.00059534 0.00042317
-0.0040432 0.00087431 0.24883 0.057479 -0.00094542 0.0059016 0.0016078 0.000313
0.0014023 -0.001257 0.0005252 0.00012774
0.0024838 0.001546 -0.00090225 0.005917 0.019065 -0.23403 -0.0013011 -0.001309
0.0019755 -0.0011242 0.0016725 0.0011326
-0.0023044 0.0035204 0.0016133 0.00030104 -0.0013078 -0.0013077 0.057807 -0.17506
-0.0017955 0.0038403 -3.7747e-05 0.0023169
0.0010153 0.00021748 0.0013904 -0.0012613 0.0019658 -0.0011341 -0.0018062 0.0038358
0.24378 -0.049747 0.00029857 -0.0031562
