!Keysight Technologies,M9804A,MY58100912,A.14.10.03
!Date: Thursday, April 27, 2023 10:28:33
!Correction: S11(C  6-Port  ) 
!S12(C  6-Port  ) 
!S13(C  6-Port  ) 
!S14(C  6-Port  ) 
!S15(C  6-Port  ) 
!S16(C  6-Port  ) 
!S21(C  6-Port  ) 
!S22(C  6-Port  ) 
!S23(C  6-Port  ) 
!S24(C  6-Port  ) 
!S25(C  6-Port  ) 
!S26(C  6-Port  ) 
!S31(C  6-Port  ) 
!S32(C  6-Port  ) 
!S33(C  6-Port  ) 
!S34(C  6-Port  ) 
!S35(C  6-Port  ) 
!S36(C  6-Port  ) 
!S41(C  6-Port  ) 
!S42(C  6-Port  ) 
!S43(C  6-Port  ) 
!S44(C  6-Port  ) 
!S45(C  6-Port  ) 
!S46(C  6-Port  ) 
!S51(C  6-Port  ) 
!S52(C  6-Port  ) 
!S53(C  6-Port  ) 
!S54(C  6-Port  ) 
!S55(C  6-Port  ) 
!S56(C  6-Port  ) 
!S61(C  6-Port  ) 
!S62(C  6-Port  ) 
!S63(C  6-Port  ) 
!S64(C  6-Port  ) 
!S65(C  6-Port  ) 
!S66(C  6-Port  ) 
!S6P File: Measurement: :
# Hz S  RI   R 50
500000000 -0.33738 -0.037876 -0.010622 -0.0027897 -0.008319 0.013254 -0.004613 0.012386
0.012964 0.0033563 -0.0051701 0.0089356
-0.010615 -0.0027811 -0.41896 -0.050906 0.0076847 -0.01071 0.0017 0.011709
0.007595 0.0019542 0.0020762 0.012999
-0.0083191 0.013273 0.0076851 -0.010738 -0.26589 0.20996 0.007332 0.0036187
-0.0018765 0.0075918 0.0013427 0.012138
-0.0045769 0.01241 0.0017056 0.011735 0.0073234 0.0036131 -0.33062 0.043494
-0.018559 -0.0054953 0.016061 0.024128
0.012945 0.0033634 0.00759 0.0019383 -0.0018459 0.0076072 -0.018586 -0.0054641
-0.22829 -0.18986 -0.025973 0.005118
-0.0051205 0.0089652 0.0021082 0.012997 0.001345 0.012124 0.016047 0.024105
-0.025933 0.0051057 -0.27103 -0.12609
560000000 -0.3175 0.12464 -0.024583 -0.063855 0.00064065 0.012405 0.0052101 0.010496
0.010163 0.0041649 0.010614 0.0073635
-0.024531 -0.063785 -0.37769 0.10854 -0.041423 -0.03722 0.013696 0.004341
-0.01343 -0.0040534 0.0023595 0.00078983
0.00062236 0.01238 -0.041529 -0.037167 -0.18351 0.25841 -0.00057891 -0.0045772
0.019469 0.005069 0.0068114 -0.0064627
0.0052287 0.010508 0.013737 0.0043358 -0.00059214 -0.0045862 -0.30505 0.13408
0.0042639 -0.02341 0.003919 -0.020775
0.01018 0.0041733 -0.013436 -0.0040017 0.019498 0.0050373 0.0042511 -0.023382
-0.29029 -0.015102 0.0085818 -0.04901
0.010672 0.0073249 0.00232 0.00077628 0.0068126 -0.0064639 0.0039194 -0.020747
0.0085857 -0.04904 -0.33088 0.023451
620000000 -0.27527 0.1078 -0.023549 0.0083115 0.003232 0.0089868 0.0079349 -0.0046417
0.011851 -0.00090335 0.001797 -0.002631
-0.023535 0.0083268 -0.40284 0.06069 -0.018659 0.00024471 -0.0016048 -0.0017896
0.011261 -0.0067002 0.0013344 -0.0029138
0.0032226 0.0089667 -0.018676 0.00029742 -0.15263 0.26729 -0.0011972 -0.0044305
-0.0034187 -0.0036046 0.0084118 -0.0021423
0.007937 -0.0046878 -0.001622 -0.0017847 -0.0011769 -0.0044217 -0.26506 0.14475
-0.037687 -0.019084 0.011226 0.025817
0.011885 -0.00091495 0.011229 -0.0067464 -0.0034504 -0.003562 -0.037752 -0.018995
-0.21035 -0.053462 -0.039635 0.013091
0.0017843 -0.0026452 0.0013261 -0.0029007 0.008432 -0.0021337 0.011244 0.025838
-0.039646 0.01307 -0.25304 -0.01054
680000000 -0.23423 0.19393 -0.02725 -0.013772 0.0052365 0.0050732 0.0014956 -0.0070073
-0.0026571 -0.011578 0.0048335 -0.0066338
-0.027234 -0.013771 -0.38745 0.15833 -0.032657 -0.0010188 -0.0018228 -0.0002748
-0.0018807 -0.0087763 -0.0015122 -0.0021687
0.005264 0.0050566 -0.032695 -0.00093383 -0.1019 0.28722 -0.00096962 -0.00020271
-0.001907 0.00041867 -0.0030845 -0.0096451
0.0014809 -0.0070275 -0.0018181 -0.0002802 -0.000962 -0.00019864 -0.22041 0.19508
-0.023783 -0.007294 -0.0093346 -0.010216
-0.0026986 -0.011587 -0.0019174 -0.0087801 -0.0018957 0.0004264 -0.023814 -0.0072436
-0.2579 0.044988 -0.006656 -0.0081245
0.0048122 -0.0066301 -0.0015255 -0.0021565 -0.0030956 -0.0096488 -0.0093175 -0.010217
-0.0066539 -0.0081381 -0.25892 0.093923
740000000 -0.1898 0.1881 -0.038331 0.026884 0.012865 -0.0055373 -0.00037043 -0.0039346
-0.0043654 -0.0028776 -0.0062108 0.0026486
-0.038303 0.026856 -0.33505 0.17687 -0.035064 0.03483 -0.00073457 -0.0066777
-0.011966 0.0088802 -0.0018823 -0.0066944
0.012854 -0.0055404 -0.035003 0.034971 -0.068123 0.28492 -0.0017501 0.0031628
-0.0029464 -0.0049649 -0.0015267 0.00068733
-0.00037841 -0.0039321 -0.00076657 -0.0067017 -0.0017605 0.0031451 -0.20322 0.20267
-0.043515 -0.0064158 0.023495 0.014474
-0.0043999 -0.0028571 -0.011909 0.0089254 -0.0029357 -0.0049629 -0.043542 -0.0063664
-0.16011 0.071193 -0.043259 0.0012978
-0.0062335 0.0026416 -0.0018961 -0.0067232 -0.001519 0.00068649 0.023506 0.014469
-0.043258 0.001299 -0.24704 0.10022
800000000 -0.15708 0.22822 -0.022386 0.016794 0.0052374 -0.010653 -0.0048517 -0.0017639
-0.004584 0.002719 0.0041883 0.00051813
-0.022378 0.016772 -0.33791 0.24666 -0.0079032 0.034108 -0.0023681 0.0022058
-0.0010558 0.0031714 0.0011595 0.0052176
0.005219 -0.010653 -0.0078058 0.034164 -0.027862 0.30809 0.0010219 0.001509
0.00031452 0.0035048 -0.0019408 0.0009931
-0.0048732 -0.0017551 -0.0023689 0.0022326 0.0010204 0.0015251 -0.1751 0.23033
-0.028444 0.013808 0.013176 -0.0099656
-0.0045714 0.0027464 -0.001047 0.0031771 0.00032562 0.0035118 -0.028417 0.013866
-0.20525 0.095597 -0.016715 0.018934
0.0041722 0.00048652 0.0011786 0.0052209 -0.0019302 0.0009862 0.013177 -0.010007
-0.016712 0.018918 -0.24213 0.14845
860000000 -0.1224 0.24839 -0.01701 0.030575 -0.0033402 -0.01011 -0.0024259 0.00082793
0.0040147 0.0049563 -0.0030964 -0.0027012
-0.017022 0.030534 -0.29018 0.2888 0.0080322 0.034385 0.00023496 0.0020573
0.0046793 -0.00023301 0.0031662 0.00090036
-0.0033721 -0.010108 0.0081625 0.034388 0.019883 0.31603 -0.00061639 -0.00016742
0.0027599 -0.0017345 0.0018167 0.0041213
-0.0024312 0.00083948 0.0002312 0.002071 -0.00061846 -0.00016951 -0.13884 0.24119
-0.01767 0.018688 -0.005823 -0.009285
0.0040144 0.0049508 0.0046648 -0.00025006 0.0027629 -0.001743 -0.017637 0.018719
-0.15353 0.14531 -0.024484 0.015777
-0.0030932 -0.0027017 0.0031769 0.00090684 0.0018177 0.0041259 -0.0058258 -0.0092932
-0.024478 0.015743 -0.18968 0.19376
920000000 -0.097294 0.27088 0.0053979 0.037688 -0.0095334 -0.0046995 -0.0016991 0.0017932
0.0014138 0.001769 0.0028662 -0.0017668
0.0053719 0.037661 -0.26154 0.30987 0.028414 0.021903 0.001444 0.0011804
0.0074528 -0.00044301 0.0040503 -0.0029862
-0.0095569 -0.0046629 0.02852 0.021824 0.066431 0.31697 0.0018246 -8.9163e-05
0.001351 -0.00048015 0.00077294 -0.0012563
-0.0017196 0.0017919 0.0014676 0.001181 0.0018264 -8.4872e-05 -0.11489 0.25846
-0.010488 0.030467 0.0034138 -0.0069364
0.0014134 0.0017542 0.0074546 -0.00046343 0.0013578 -0.00049246 -0.010415 0.030487
-0.14222 0.15051 -0.0029617 0.026538
0.0028567 -0.0017995 0.0040437 -0.0030054 0.00077153 -0.0012562 0.0034389 -0.0069623
-0.0029867 0.026525 -0.19729 0.20761
980000000 -0.050194 0.29012 0.017723 0.029776 -0.0091398 0.0044921 0.0020235 0.0032678
0.0039184 -0.0016876 -0.0033072 -0.0022165
0.017678 0.029756 -0.20873 0.34351 0.033388 0.0046272 0.0020132 -0.0002422
0.0014852 -0.0060827 -0.00047319 -0.0023184
-0.0091332 0.0045159 0.033458 0.0045139 0.11282 0.31042 0.00047591 -0.0012434
0.0001384 -0.0022032 0.0013781 -0.00021626
0.002022 0.0032494 0.0020159 -0.00023971 0.00047262 -0.0012453 -0.076684 0.2696
0.007984 0.030038 -0.0090519 -0.0069339
0.0039224 -0.0017097 0.0014511 -0.0060942 0.00013351 -0.0022209 0.0080386 0.030013
-0.1122 0.18013 0.0053705 0.020074
-0.0033079 -0.0021972 -0.00048986 -0.0023074 0.0013775 -0.00021808 -0.0090734 -0.0069156
0.0053677 0.020062 -0.15414 0.2509
1040000000 -0.0082399 0.29827 0.033358 0.017666 -0.0014333 0.0069374 0.0025158 0.00074629
-0.00014219 -0.0033416 -0.00052327 -0.0014652
0.033301 0.017684 -0.17331 0.35656 0.029428 -0.015308 0.0013262 -0.0017826
-0.0026771 -0.0025063 -0.0016117 -0.0027876
-0.001412 0.0069467 0.029409 -0.015453 0.15924 0.29678 -0.00057657 -0.0014833
-0.0016698 -0.00081657 -0.00058411 -0.0011484
0.0025118 0.00072847 0.0013498 -0.0017804 -0.00056766 -0.0014793 -0.049129 0.28018
0.019575 0.017912 -0.0027031 0.0015104
-0.00014483 -0.0033454 -0.0026874 -0.0024622 -0.0016723 -0.00081677 0.019601 0.017884
-0.079862 0.18739 0.013578 0.018347
-0.00051844 -0.0014647 -0.0016277 -0.0027529 -0.0005836 -0.0011518 -0.0026961 0.0015092
0.013562 0.018331 -0.1327 0.27205
1100000000 0.037182 0.30609 0.035806 -0.0047231 0.0028643 0.0039615 0.0024342 -0.001261
-0.0019703 -0.0030193 -0.003819 0.00028571
0.035767 -0.0046978 -0.13002 0.37402 0.014953 -0.028388 4.1581e-06 -0.0017941
-0.0034968 -0.00057151 -0.0034716 -0.0003169
0.0028708 0.0039505 0.014862 -0.028479 0.20607 0.27615 -0.0018621 0.0003338
-0.0017769 0.0006774 -0.0010454 -0.00028117
0.0024293 -0.0012758 -5.0645e-06 -0.0017965 -0.001857 0.0003289 -0.0085571 0.28513
0.024843 0.0046211 -0.0026554 0.00033315
-0.0019804 -0.0030188 -0.0035097 -0.0005368 -0.0017696 0.00067465 0.024854 0.004594
-0.062025 0.20119 0.019336 0.0086372
-0.0038218 0.0002989 -0.0034827 -0.0002966 -0.001051 -0.00027379 -0.0026591 0.00032552
0.019329 0.0086401 -0.086678 0.30074
1160000000 0.088253 0.30101 0.023663 -0.021328 0.002629 -0.00035274 -0.00017711 -0.0024299
-0.0042095 -0.00076138 -0.0008191 0.0042469
0.023654 -0.021284 -0.086097 0.37848 -0.0042894 -0.029419 -0.0017362 -0.0017529
-0.0026075 0.0026299 -0.0013583 0.0019572
0.0026237 -0.00036851 -0.004409 -0.02943 0.24919 0.24469 -0.00069019 0.0018254
-0.00046025 0.0020165 -0.00090968 0.00014696
-0.00018497 -0.0024397 -0.0017358 -0.0017304 -0.0006984 0.0018286 0.030978 0.28234
0.02109 -0.011091 -0.0029439 0.0053328
-0.0041908 -0.00074844 -0.002614 0.0026712 -0.00044768 0.0020128 0.021082 -0.011104
-0.028078 0.2098 0.018133 0.0001618
-0.00080516 0.0042498 -0.0013611 0.0019686 -0.00091577 0.00014424 -0.00295 0.005351
0.01813 0.00015331 -0.0404 0.30376
1220000000 0.13274 0.28998 0.009788 -0.030396 -0.0015782 -0.00074802 7.9898e-06 -0.00094251
-0.0026305 0.0025022 0.0013932 0.0020457
0.0097928 -0.03035 -0.041386 0.39055 -0.017476 -0.021119 -0.0025454 0.00052733
0.00021631 0.0030579 -0.00070406 0.0019897
-0.0015889 -0.00074546 -0.017585 -0.021065 0.28816 0.20496 0.00088589 0.0017168
0.00064293 0.0012477 0.0003349 0.00063981
1.0645e-05 -0.00094462 -0.0025547 0.00054336 0.00088329 0.0017152 0.071128 0.27356
0.0099159 -0.017647 0.0021645 0.0016172
-0.0026121 0.0025151 0.00022928 0.0030616 0.00063867 0.0012511 0.0099007 -0.017637
-0.0049923 0.21914 0.013933 -0.013281
0.0014131 0.002038 -0.00070386 0.0019963 0.00033355 0.00063531 0.0021709 0.0016178
0.013928 -0.013272 -0.0082919 0.31981
1280000000 0.1826 0.26776 -0.0087249 -0.02847 -0.0018684 0.0026736 -0.00092267 -0.0020018
-0.00077831 0.0031716 0.0025846 0.0010292
-0.0086878 -0.028449 0.0049914 0.38134 -0.024245 -0.0081285 -0.00090804 0.0015226
0.0017655 0.0017207 0.00068471 0.0020741
-0.0018513 0.0026762 -0.024298 -0.0080238 0.31796 0.16054 0.001626 -0.00011857
0.0011496 0.00021072 0.00031983 0.000372
-0.00093046 -0.0019954 -0.00090414 0.0015307 0.0016265 -0.00011709 0.10783 0.25701
0.00015125 -0.01941 1.7443e-05 0.00024669
-0.00076181 0.0031818 0.0017809 0.0017083 0.0011475 0.00021559 0.0001211 -0.019418
0.031737 0.22296 0.0028566 -0.015291
0.0025792 0.0010204 0.00070499 0.0020705 0.00032255 0.00037526 1.8526e-05 0.00026476
0.0028581 -0.015285 0.039473 0.32158
1340000000 0.2196 0.23364 -0.018329 -0.018453 0.0010449 0.004631 -0.0017762 -0.00083196
0.0015658 0.002637 0.0016635 -0.0014856
-0.018294 -0.018437 0.044581 0.37259 -0.021705 0.00481 -2.9507e-05 0.0020136
0.0019428 0.00062658 0.0014352 0.00073654
0.0010612 0.0046291 -0.021704 0.004929 0.33909 0.11281 0.001096 -0.0010822
0.00076308 -0.00051288 0.00018692 0.00026007
-0.0017842 -0.00082225 -1.3792e-05 0.0020064 0.0010999 -0.0010808 0.14044 0.23651
-0.009354 -0.016138 0.00086751 0.00053631
0.0015695 0.0026286 0.0019482 0.00061774 0.00075499 -0.00051685 -0.0093842 -0.016137
0.062202 0.2184 -0.0042288 -0.013699
0.0016564 -0.0014936 0.0014476 0.00073245 0.00018549 0.00025906 0.000879 0.00053517
-0.0042182 -0.0137 0.078161 0.31624
1400000000 0.25262 0.195 -0.02368 -0.0066442 0.0054072 0.0031227 -0.002126 0.00070607
0.0025772 0.00087117 0.00017726 -0.0014687
-0.023651 -0.0066509 0.081757 0.35893 -0.014644 0.012883 0.0013188 0.0012241
0.0011079 -0.00095296 0.001178 0.0001059
0.0054269 0.0030902 -0.014598 0.012976 0.35184 0.059875 1.4716e-05 -0.0016911
7.9281e-05 -0.00043631 0.00039563 0.00028781
-0.0021292 0.00071784 0.0013369 0.0012189 5.2531e-06 -0.0016893 0.16983 0.20767
-0.015011 -0.0088859 -0.00066904 -0.00031904
0.0025844 0.00084549 0.0011047 -0.00096386 7.6795e-05 -0.00043602 -0.015041 -0.0088707
0.095318 0.21369 -0.01061 -0.0086708
0.00016719 -0.0014765 0.0011797 9.3746e-05 0.00039841 0.00029166 -0.00066375 -0.00032062
-0.010599 -0.0086775 0.12278 0.30483
1460000000 0.27478 0.15061 -0.020237 0.0055885 0.0057899 -0.0019866 -0.0015764 0.0017777
0.0022063 -0.0006615 -0.00040194 -0.00095101
-0.020227 0.005563 0.11555 0.33656 -0.0057098 0.015593 0.0016672 0.00012142
0.00073148 -0.0012787 0.0011782 -0.00065517
0.0057865 -0.0020163 -0.0056364 0.015647 0.35776 0.0061187 -0.001355 -0.0011622
0.00016308 -0.00024511 0.00064262 -0.0003201
-0.0015777 0.0017915 0.0016746 0.0001135 -0.0013523 -0.0011701 0.19611 0.17849
-0.015628 -0.0019208 -0.00070582 0.0019864
0.002196 -0.00068137 0.00073173 -0.0012807 0.00016073 -0.00024512 -0.01566 -0.0018888
0.12488 0.19878 -0.012221 -0.00257
-0.00041569 -0.0009567 0.0011793 -0.00066399 0.00065015 -0.00031839 -0.00069899 0.0019818
-0.012219 -0.0025719 0.15574 0.28353
1520000000 0.28642 0.10867 -0.014185 0.010906 0.0032775 -0.0043448 0.00012984 0.0026028
0.0019382 -0.0017888 -0.0010677 -2.5414e-05
-0.014188 0.010884 0.14857 0.32166 0.0019688 0.013073 0.0016051 -0.00082042
-3.7304e-05 -0.00094799 0.0002923 -0.0010263
0.0032629 -0.0043604 0.0020365 0.013079 0.35109 -0.049637 -0.001098 -0.00027961
0.00065448 -0.00083907 2.7562e-05 -0.00013038
0.00014145 0.0026044 0.0016025 -0.00082522 -0.001099 -0.00027129 0.21914 0.14062
-0.014286 0.0037513 0.0015222 0.0019734
0.0019366 -0.0018014 -4.4915e-05 -0.00095376 0.00064488 -0.00084125 -0.014286 0.0037992
0.15288 0.18435 -0.011811 0.0020956
-0.0010733 -3.0302e-05 0.00028532 -0.001026 2.4768e-05 -0.00013116 0.0015177 0.0019656
-0.011807 0.0020842 0.18874 0.26286
1580000000 0.29516 0.062467 -0.0072655 0.013661 -0.00091933 -0.0049827 0.0014975 0.0018954
-0.00034936 -0.0021362 -0.00022978 0.00038498
-0.007274 0.013642 0.1753 0.29686 0.0054744 0.008091 0.00044103 -0.0015712
-0.00049284 -0.0009191 -0.00028347 -0.00085693
-0.00094358 -0.0049685 0.0055247 0.0080733 0.33138 -0.10727 -0.0014898 0.00067528
-0.00029538 -0.0011068 0.00019081 -0.00050822
0.0015097 0.0018878 0.00043323 -0.0015741 -0.0014918 0.00067237 0.23299 0.10139
-0.010194 0.0080842 0.0021901 0.00059151
-0.00036328 -0.0021328 -0.00049905 -0.00092111 -0.00030033 -0.0011076 -0.010183 0.0081528
0.17705 0.16577 -0.0091726 0.0077668
-0.00022552 0.00038846 -0.00029034 -0.0008563 0.00018778 -0.00051392 0.0021828 0.00057585
-0.0091712 0.0077635 0.22071 0.23568
1640000000 0.29652 0.021503 -0.00061034 0.012079 -0.0028912 -0.0026734 0.0027188 0.00093249
-0.00089818 -0.0014653 -0.00028721 0.00051691
-0.00062221 0.012071 0.20429 0.27207 0.0060288 0.0032664 -0.00070415 -0.0017003
-0.00089682 -0.00035996 -0.00054362 -0.00065074
-0.0029068 -0.002659 0.0060403 0.0032352 0.30314 -0.15614 -0.00062637 0.0014291
-0.0011873 -0.0008148 -0.00014157 -0.00031259
0.0027115 0.00091088 -0.00071629 -0.0017027 -0.00063744 0.0014326 0.24511 0.052824
-0.005838 0.0086259 0.0024677 -0.00081138
-0.00091439 -0.0014649 -0.00089955 -0.00035075 -0.0011813 -0.00080889 -0.0058027 0.008667
0.19951 0.14071 -0.0043183 0.0097245
-0.0002821 0.00052109 -0.00054373 -0.00063142 -0.00014486 -0.00031154 0.0024584 -0.00082238
-0.0043209 0.0097208 0.24608 0.20444
1700000000 0.2891 -0.023369 0.0026081 0.0088874 -0.0036137 -3.0408e-05 0.0029985 -0.0013596
-0.0019989 -0.00051737 0.00053986 0.00032451
0.0026009 0.008879 0.22218 0.24085 0.003967 0.00035259 -0.0014408 -0.00056262
-0.00067915 -2.1751e-05 -0.00092416 -0.0004278
-0.0036102 -1.0455e-05 0.0039769 0.00034337 0.26013 -0.19588 0.00050326 0.0015441
-0.0018413 -0.00021634 -0.00055995 -0.00092804
0.0029905 -0.0013776 -0.0014414 -0.00056003 0.00050027 0.0015398 0.24204 0.003517
-0.0033833 0.008499 0.0014891 -0.0022935
-0.001999 -0.00049954 -0.00067726 -1.5205e-05 -0.0018419 -0.00020852 -0.0033329 0.0085159
0.21643 0.11989 0.00044357 0.0097227
0.00054758 0.00032151 -0.00092935 -0.0004163 -0.0005676 -0.00092521 0.0014799 -0.0022956
0.0004482 0.0097226 0.26228 0.1699
1760000000 0.27669 -0.071394 0.0044465 0.005483 -0.002402 0.001 0.0012134 -0.0034536
-0.0012821 0.0008294 0.00034358 -0.0004891
0.0044435 0.0054889 0.24787 0.20135 0.0015291 -0.0014646 -0.001183 0.00020731
-0.0010566 0.00077674 -0.00052039 0.00045918
-0.0023945 0.0010164 0.001529 -0.0014732 0.21183 -0.23001 0.0011422 0.0010354
-0.0010142 0.0014777 -0.0012732 -0.00036798
0.0011945 -0.0034665 -0.0011838 0.00021063 0.0011339 0.0010417 0.23307 -0.047383
-0.00082067 0.0073905 -0.00028598 -0.0024639
-0.0012782 0.00083918 -0.001047 0.00078379 -0.0010115 0.0014771 -0.00078151 0.0073895
0.23048 0.08423 0.0043579 0.0070445
0.00034289 -0.00049291 -0.00051107 0.0004721 -0.0012725 -0.00036755 -0.00030311 -0.0024574
0.0043554 0.0070339 0.27468 0.13191
1820000000 0.25232 -0.1083 0.0042788 0.0021135 -0.00013317 0.0026027 -0.0010814 -0.0030255
-0.00089371 0.00094114 -6.0278e-05 -3.1544e-05
0.0042694 0.0021157 0.2579 0.17168 -0.00048018 -0.0001501 -0.0012481 0.00095879
-0.00014439 0.0012608 -0.00057091 0.00052118
-0.00011215 0.0026026 -0.00047847 -0.00014442 0.16139 -0.24564 0.0014648 0.0004197
-0.00026386 0.0022167 -0.0015248 0.00037752
-0.0011059 -0.0030283 -0.0012418 0.00096783 0.0014659 0.00042453 0.20369 -0.094238
0.00010351 0.0058843 -0.0016663 -0.0015366
-0.00088098 0.00095727 -0.00013748 0.0012607 -0.00025889 0.002235 0.00012945 0.005864
0.24678 0.05493 0.0052257 0.0033002
-6.4026e-05 -3.3534e-05 -0.00056527 0.00052783 -0.0015305 0.00038453 -0.0016671 -0.0015185
0.0052302 0.0032992 0.27669 0.095574
1880000000 0.2173 -0.14847 0.0019276 7.8388e-05 -0.0003647 0.0023399 -0.0029417 -0.0021311
-7.5404e-05 0.0014479 0.00031012 -0.00057783
0.0019269 7.8103e-05 0.2625 0.12534 -0.00258 0.0016864 -0.00016917 0.0016626
0.00050193 0.0012612 0.00011747 0.00091855
-0.00035521 0.0023302 -0.0025773 0.0017052 0.10851 -0.25555 0.0016963 -0.00090262
0.0013744 0.0019394 -0.0010536 0.001455
-0.0029526 -0.002121 -0.00015956 0.0016538 0.0016972 -0.000897 0.16373 -0.13448
0.00042452 0.0043533 -0.0024552 0.00039132
-6.8826e-05 0.001456 0.0005047 0.0012589 0.00138 0.001948 0.00043935 0.0043248
0.24871 0.022309 0.0052011 0.0010664
0.00030135 -0.00057736 0.0001273 0.00091973 -0.0010531 0.0014591 -0.0024522 0.00039897
0.0051982 0.0010594 0.27621 0.06107
1940000000 0.1781 -0.174 -0.00033285 -0.0013134 0.0015653 0.0019977 -0.0038155 0.00064627
0.0012654 0.00098338 -0.00046676 -0.0006158
-0.0003275 -0.0013164 0.26317 0.093697 -0.0012804 0.00397 0.00096899 0.0013077
0.0018167 0.00057962 0.00090941 0.00038272
0.0015778 0.0019887 -0.0012606 0.0039895 0.062771 -0.2488 0.00042252 -0.002109
0.0024358 0.00035647 0.00044282 0.0016796
-0.0038014 0.00066786 0.00098387 0.001297 0.00041954 -0.0021104 0.11183 -0.16508
-0.00066714 0.0035306 -0.0014675 0.0015199
0.0012712 0.00097199 0.0018248 0.000564 0.0024363 0.00035365 -0.00067766 0.0035068
0.2497 -0.016662 0.0037355 -0.0023925
-0.00047327 -0.00061189 0.00091325 0.00037278 0.0004477 0.0016802 -0.0014613 0.0015241
0.0037433 -0.0024023 0.26479 0.025256
2000000000 0.13205 -0.1891 -0.003954 0.00080217 0.0025616 0.0016044 -0.0021643 0.0035393
0.0010409 0.00029816 -0.0007129 0.00029663
-0.003954 0.00079774 0.24933 0.058188 -0.00096838 0.0058875 0.0016682 0.00037367
0.0014475 -0.0012017 0.00055293 7.9997e-05
0.0025561 0.0015859 -0.00092244 0.0058899 0.019015 -0.23435 -0.0012651 -0.0013038
0.0020213 -0.0010606 0.0017617 0.001416
-0.0021526 0.0035556 0.0016705 0.00036616 -0.0012646 -0.0013007 0.058758 -0.17548
-0.0020545 0.0038923 -0.00023799 0.0023538
0.0010451 0.00029911 0.0014358 -0.0012157 0.0020162 -0.0010692 -0.002072 0.0038922
0.24286 -0.050208 0.00017879 -0.0032642
