!Keysight Technologies,M9804A,MY58100912,A.14.10.03
!Date: Thursday, April 27, 2023 10:28:33
!Correction: S11(C  6-Port  ) 
!S12(C  6-Port  ) 
!S13(C  6-Port  ) 
!S14(C  6-Port  ) 
!S15(C  6-Port  ) 
!S16(C  6-Port  ) 
!S21(C  6-Port  ) 
!S22(C  6-Port  ) 
!S23(C  6-Port  ) 
!S24(C  6-Port  ) 
!S25(C  6-Port  ) 
!S26(C  6-Port  ) 
!S31(C  6-Port  ) 
!S32(C  6-Port  ) 
!S33(C  6-Port  ) 
!S34(C  6-Port  ) 
!S35(C  6-Port  ) 
!S36(C  6-Port  ) 
!S41(C  6-Port  ) 
!S42(C  6-Port  ) 
!S43(C  6-Port  ) 
!S44(C  6-Port  ) 
!S45(C  6-Port  ) 
!S46(C  6-Port  ) 
!S51(C  6-Port  ) 
!S52(C  6-Port  ) 
!S53(C  6-Port  ) 
!S54(C  6-Port  ) 
!S55(C  6-Port  ) 
!S56(C  6-Port  ) 
!S61(C  6-Port  ) 
!S62(C  6-Port  ) 
!S63(C  6-Port  ) 
!S64(C  6-Port  ) 
!S65(C  6-Port  ) 
!S66(C  6-Port  ) 
!S6P File: Measurement: :
# Hz S  RI   R 50
500000000 -0.33746 -0.03679 -0.0099521 -0.0014236 -0.0080497 0.013697 -0.0039742 0.011168
0.014137 0.0039959 -0.0040979 0.0074228
-0.00992 -0.001447 -0.41771 -0.050794 0.0078957 -0.01042 0.0014779 0.011447
0.0081746 0.0027519 0.0019307 0.012846
-0.0080261 0.013723 0.00789 -0.010427 -0.2665 0.21033 0.0074085 0.0037023
-0.0013353 0.0084803 0.0016558 0.012416
-0.0039587 0.011195 0.0015258 0.01145 0.0074041 0.0037027 -0.3313 0.043952
-0.018877 -0.0062947 0.015262 0.02467
0.014124 0.0040219 0.0081736 0.0027616 -0.0013414 0.0085035 -0.018891 -0.0062911
-0.22846 -0.19031 -0.026143 0.0044876
-0.004014 0.0075238 0.0020361 0.012846 0.0016602 0.012415 0.015245 0.024654
-0.026115 0.0044734 -0.27159 -0.12621
560000000 -0.31838 0.12319 -0.024813 -0.062944 -0.00018443 0.012433 0.0056546 0.010453
0.010494 0.0055898 0.009557 0.0083291
-0.024745 -0.062874 -0.37765 0.10848 -0.0414 -0.036994 0.013843 0.0043049
-0.012929 -0.0048281 0.0036039 0.0016506
-0.00014265 0.012388 -0.041547 -0.03693 -0.18353 0.2589 -0.00042847 -0.0044825
0.019535 0.0054104 0.0065731 -0.0060136
0.0056814 0.010421 0.013847 0.0042916 -0.0004267 -0.0044812 -0.30601 0.13482
0.004973 -0.023566 0.0046362 -0.021893
0.010439 0.005608 -0.012893 -0.0047961 0.019524 0.0054291 0.0049902 -0.023557
-0.28891 -0.016866 0.0095005 -0.049481
0.0095361 0.0081782 0.0034027 0.0016427 0.006534 -0.0060087 0.0046503 -0.021872
0.0095106 -0.049469 -0.33085 0.02294
620000000 -0.27503 0.10675 -0.023366 0.0085129 0.0035451 0.0091356 0.0087502 -0.0050477
0.011531 -0.0011033 0.00176 -0.0022521
-0.023345 0.0085149 -0.40302 0.060131 -0.018775 0.00047283 -0.0016468 -0.001948
0.011482 -0.006502 0.0014074 -0.0025666
0.0035897 0.0091237 -0.018806 0.00051441 -0.15331 0.26758 -0.00083223 -0.0052004
-0.0035103 -0.0033302 0.0088492 -0.0027019
0.0087656 -0.005077 -0.0016639 -0.0019431 -0.00080564 -0.0052041 -0.2649 0.14431
-0.038541 -0.019771 0.010974 0.025186
0.011545 -0.0011427 0.011483 -0.0065445 -0.0035197 -0.0033513 -0.038574 -0.019783
-0.20934 -0.050212 -0.039585 0.013712
0.0018138 -0.0022644 0.001385 -0.0026192 0.0088831 -0.0027374 0.011034 0.025195
-0.039605 0.013679 -0.25287 -0.012178
680000000 -0.23429 0.1938 -0.026999 -0.013463 0.0053247 0.005355 0.0014838 -0.006583
-0.0029559 -0.011409 0.0052411 -0.0060138
-0.026966 -0.013462 -0.38748 0.15829 -0.032129 -0.00097171 -0.0014216 -0.00012836
-0.0019288 -0.0090526 -0.0012346 -0.0016911
0.0053324 0.0053538 -0.032155 -0.00087887 -0.10138 0.2873 -0.00097753 -0.0001738
-0.0017787 0.0003956 -0.0026647 -0.0091659
0.0014513 -0.0065864 -0.0014368 -0.00011236 -0.00098327 -0.00017871 -0.22027 0.19556
-0.023099 -0.007241 -0.0090547 -0.010429
-0.0030011 -0.01141 -0.0019664 -0.0090478 -0.0017852 0.00040769 -0.02311 -0.0072077
-0.25826 0.044185 -0.0062725 -0.0082719
0.0051452 -0.0060294 -0.0012711 -0.0016435 -0.0027098 -0.0091429 -0.0090559 -0.010417
-0.0062546 -0.0082782 -0.25886 0.094116
740000000 -0.19004 0.18829 -0.038 0.026805 0.012956 -0.005279 -0.00053996 -0.0044781
-0.004572 -0.0023652 -0.0067945 0.0023241
-0.03797 0.026768 -0.33445 0.17681 -0.035052 0.034981 -0.00056632 -0.0065023
-0.012116 0.0075749 -0.0015786 -0.0059454
0.012964 -0.0052964 -0.034975 0.035102 -0.067964 0.28496 -0.0022059 0.0031718
-0.0026064 -0.0048598 -0.0020288 0.00067432
-0.00052915 -0.004473 -0.00057511 -0.0065234 -0.002205 0.0031601 -0.20314 0.20282
-0.043696 -0.0063411 0.02312 0.014675
-0.0045784 -0.0023732 -0.012084 0.0076496 -0.002596 -0.0048655 -0.04373 -0.0062939
-0.16026 0.07203 -0.042907 0.0010671
-0.006803 0.0022852 -0.0016004 -0.0059649 -0.0020151 0.00063658 0.023167 0.014659
-0.042917 0.0010421 -0.24801 0.10021
800000000 -0.1571 0.2282 -0.022181 0.016427 0.0052098 -0.01064 -0.0048171 -0.0016908
-0.0043619 0.0029218 0.0038916 0.00074468
-0.022189 0.016424 -0.33755 0.24623 -0.007835 0.033677 -0.002514 0.0021614
-0.001079 0.0033288 0.0010154 0.0052582
0.0051817 -0.010656 -0.0077363 0.033734 -0.027364 0.30769 0.0010381 0.0015961
0.00035984 0.0036527 -0.0017725 0.00082328
-0.0048324 -0.0016696 -0.002505 0.0021962 0.0010362 0.0016074 -0.17477 0.23048
-0.02801 0.01375 0.013203 -0.010048
-0.0043675 0.0029399 -0.0010645 0.0033433 0.00036297 0.0036626 -0.028014 0.01382
-0.20464 0.095923 -0.016342 0.018717
0.0038997 0.00078453 0.001027 0.0052883 -0.0017557 0.0008664 0.013168 -0.010059
-0.016345 0.018722 -0.24193 0.14927
860000000 -0.12236 0.24811 -0.016958 0.030504 -0.0032974 -0.009824 -0.002521 0.00081194
0.0041304 0.0048757 -0.003204 -0.0023153
-0.016973 0.030491 -0.2902 0.28835 0.0079452 0.034001 0.00015127 0.0020868
0.0046352 0.00017292 0.0035713 0.0010411
-0.0033352 -0.0098168 0.0080766 0.034009 0.020232 0.31559 -0.00052706 -0.00014917
0.00285 -0.0014107 0.0016233 0.0043419
-0.0025282 0.00080985 0.00016265 0.0020965 -0.00052699 -0.00014996 -0.13854 0.24073
-0.017436 0.01872 -0.0062759 -0.0092993
0.0041906 0.0048611 0.0046313 0.00015948 0.0028448 -0.0014263 -0.017415 0.018761
-0.15344 0.1457 -0.024363 0.015997
-0.003217 -0.0023247 0.0035775 0.0010481 0.0016073 0.0043405 -0.0062558 -0.0093009
-0.024378 0.015966 -0.19023 0.19309
920000000 -0.097483 0.27088 0.0053849 0.037467 -0.0092862 -0.0045536 -0.001743 0.001969
0.0018042 0.0017695 0.0030888 -0.0015147
0.005358 0.037449 -0.26152 0.30932 0.028126 0.021737 0.00142 0.0012002
0.0072688 -4.0986e-05 0.0041906 -0.0029259
-0.0093131 -0.0045341 0.028237 0.02167 0.066402 0.3164 0.0018915 -0.00011985
0.0014019 -0.0003883 0.00086623 -0.0012917
-0.0017488 0.0019622 0.001425 0.0012118 0.0018976 -0.00012022 -0.11439 0.25805
-0.010195 0.030216 0.0036458 -0.0066371
0.0017956 0.0017844 0.0072686 -8.9456e-05 0.0014024 -0.000392 -0.010153 0.030265
-0.14151 0.14987 -0.0023501 0.026918
0.0030864 -0.0015089 0.0041605 -0.0029541 0.00086647 -0.0012912 0.0036112 -0.0066413
-0.0023541 0.026918 -0.19686 0.20768
980000000 -0.050412 0.28964 0.017464 0.029551 -0.0090807 0.0044248 0.0019752 0.0033042
0.0037454 -0.0017369 -0.0033951 -0.0021086
0.017416 0.029547 -0.20888 0.34299 0.032886 0.0046428 0.0019024 -0.00018567
0.0015366 -0.0061287 -0.00059654 -0.0021784
-0.009071 0.0044425 0.032936 0.0045541 0.11257 0.30975 0.0004817 -0.0013178
9.8258e-05 -0.0022203 0.0011968 -0.00022119
0.0019853 0.0033076 0.0019081 -0.00019121 0.00048324 -0.0013176 -0.076582 0.26875
0.0078456 0.029584 -0.0089191 -0.0070056
0.0037374 -0.0017511 0.0014958 -0.0061779 0.00010892 -0.0022265 0.0079171 0.029578
-0.11215 0.17974 0.0052315 0.019613
-0.003416 -0.002105 -0.00062783 -0.0022021 0.001205 -0.00022843 -0.0089336 -0.0069911
0.0052266 0.0196 -0.15401 0.25018
1040000000 -0.0084911 0.298 0.033058 0.017626 -0.0013781 0.0067488 0.0025172 0.00098299
-7.9037e-05 -0.003444 -0.00032524 -0.0013393
0.033014 0.017648 -0.1735 0.35599 0.029183 -0.014969 0.0013786 -0.0016692
-0.0025312 -0.0025376 -0.001419 -0.0027601
-0.0013624 0.0067526 0.02918 -0.015085 0.15872 0.29623 -0.00059101 -0.0014218
-0.0017239 -0.00082814 -0.00056672 -0.0010718
0.0025016 0.00095741 0.0013845 -0.0016665 -0.0005999 -0.001425 -0.049154 0.27941
0.018999 0.017623 -0.0026195 0.0014888
-0.0001179 -0.0034412 -0.0025639 -0.0025478 -0.0017129 -0.0008288 0.019046 0.017592
-0.080091 0.18607 0.013341 0.018165
-0.00033558 -0.0013038 -0.001479 -0.0027662 -0.00056525 -0.0010675 -0.0026192 0.0014877
0.013333 0.018168 -0.13253 0.27194
1100000000 0.036538 0.30591 0.035485 -0.0045867 0.0027121 0.0038939 0.0024898 -0.0012395
-0.0020496 -0.0030222 -0.0039505 0.0001938
0.035445 -0.004558 -0.13016 0.37322 0.014996 -0.027876 6.4393e-05 -0.0018336
-0.0034848 -0.00067952 -0.0035201 -0.00040314
0.0027207 0.0038852 0.014905 -0.02796 0.20526 0.27578 -0.0018707 0.00023634
-0.0017785 0.00062003 -0.0011115 -0.00020787
0.0024853 -0.0012556 6.6498e-05 -0.00184 -0.0018738 0.00023489 -0.0089164 0.28436
0.024246 0.0048251 -0.002583 0.00021571
-0.0020611 -0.0030265 -0.0034887 -0.00067804 -0.0017681 0.00062131 0.024269 0.0047931
-0.062221 0.20024 0.01889 0.0084696
-0.0039536 0.00019138 -0.0035245 -0.00039208 -0.0010926 -0.00021898 -0.0025692 0.00023561
0.01888 0.0084736 -0.086731 0.30014
1160000000 0.087611 0.30085 0.023402 -0.020955 0.0024932 -0.00037493 1.1669e-05 -0.002353
-0.0041047 -0.00072705 -0.00076827 0.0040519
0.023402 -0.020909 -0.08669 0.3777 -0.0039791 -0.029053 -0.0016771 -0.0017825
-0.0026071 0.0025444 -0.0013281 0.0018176
0.0024913 -0.0003967 -0.0041032 -0.029049 0.24814 0.24478 -0.00078157 0.0017885
-0.0004654 0.0020505 -0.00078333 0.00015134
3.9889e-06 -0.0023591 -0.0016783 -0.0017565 -0.0007864 0.0017863 0.030263 0.28184
0.020508 -0.010573 -0.0031444 0.0052445
-0.0041205 -0.0007112 -0.0026005 0.0025398 -0.00046209 0.0020577 0.020503 -0.010611
-0.028446 0.20931 0.017858 0.00035262
-0.00073018 0.0040816 -0.0013092 0.0018174 -0.00078292 0.00015939 -0.0031282 0.0052369
0.017854 0.00036207 -0.040388 0.30369
1220000000 0.13206 0.28993 0.0098523 -0.029926 -0.0016218 -0.00065828 -8.0947e-05 -0.00097875
-0.0026835 0.0024838 0.0013372 0.0022005
0.0098584 -0.02989 -0.042346 0.38977 -0.017041 -0.021033 -0.0026084 0.00049702
0.00016998 0.0031088 -0.00070273 0.0019285
-0.0016178 -0.00064974 -0.017156 -0.020977 0.28727 0.20557 0.00081356 0.0016673
0.00069441 0.0012359 0.00036437 0.00065269
-8.9153e-05 -0.00099009 -0.0026037 0.00050375 0.0008182 0.0016666 0.070154 0.27354
0.0099759 -0.016919 0.002165 0.0016009
-0.0026793 0.0024897 0.00018206 0.0031121 0.00069458 0.001242 0.009953 -0.016934
-0.005561 0.21817 0.013737 -0.012849
0.0013273 0.0021952 -0.00069594 0.0019356 0.0003725 0.00065151 0.002168 0.0015915
0.013726 -0.012845 -0.0082449 0.3193
1280000000 0.18183 0.26781 -0.0083885 -0.028152 -0.0018085 0.002794 -0.00085367 -0.0020291
-0.00072333 0.0030225 0.0026395 0.001038
-0.0083677 -0.028132 0.0036522 0.38086 -0.023834 -0.0083598 -0.00095345 0.0014473
0.0017624 0.0017797 0.0005702 0.0020239
-0.001799 0.0028028 -0.023908 -0.0082675 0.31757 0.16136 0.0015413 -8.2159e-05
0.0011468 0.00015507 0.00037133 0.00030161
-0.00086706 -0.0020187 -0.0009548 0.0014586 0.0015361 -8.1037e-05 0.10704 0.25742
0.00054102 -0.018766 4.1517e-05 0.00015788
-0.00069643 0.0030303 0.0017542 0.0017754 0.0011482 0.00016013 0.00050057 -0.018767
0.030805 0.22218 0.0028101 -0.014866
0.0026645 0.0010287 0.00057468 0.0020278 0.00036746 0.00030474 5.4297e-05 0.00016697
0.0028142 -0.014856 0.038818 0.32099
1340000000 0.21875 0.23395 -0.017859 -0.018344 0.0011337 0.0045704 -0.0018682 -0.00088012
0.0015116 0.0026236 0.0016621 -0.0014739
-0.017834 -0.018341 0.043045 0.37272 -0.021568 0.0044713 -5.0066e-05 0.0020848
0.0019562 0.00066606 0.0014065 0.00076585
0.0011472 0.0045696 -0.021565 0.0045777 0.33913 0.11374 0.0011689 -0.0010054
0.00071228 -0.00051145 0.00016264 0.00015617
-0.0018704 -0.00087036 -4.5509e-05 0.0020892 0.0011636 -0.001004 0.13987 0.23724
-0.0085951 -0.015911 0.00097164 0.00067549
0.0015413 0.0026186 0.0019679 0.00064027 0.000721 -0.00051175 -0.0086327 -0.015899
0.06082 0.21778 -0.0039318 -0.013351
0.0016516 -0.0014876 0.0014077 0.0007645 0.00017126 0.00016611 0.00096152 0.00067333
-0.0039241 -0.013355 0.077531 0.31605
1400000000 0.25182 0.19569 -0.023257 -0.0068335 0.005387 0.0030516 -0.0021224 0.00072898
0.002481 0.00086924 0.00022931 -0.0014579
-0.023226 -0.0068476 0.080444 0.35955 -0.014739 0.012556 0.0013269 0.001248
0.001164 -0.00090418 0.0011966 0.00018161
0.0054004 0.0030296 -0.014703 0.012645 0.35224 0.060506 -1.6778e-05 -0.0017151
7.3324e-05 -0.00045048 0.00036009 0.00028388
-0.0021268 0.00075114 0.0013401 0.0012476 -1.2548e-05 -0.0017191 0.16978 0.20856
-0.014259 -0.0091902 -0.00059707 -0.00038215
0.0024829 0.00085585 0.0011542 -0.00091421 7.5008e-05 -0.00044757 -0.014286 -0.0091613
0.093878 0.21368 -0.010115 -0.0087609
0.00023339 -0.001446 0.001187 0.00016767 0.00035434 0.00027628 -0.00059867 -0.00037331
-0.010111 -0.0087638 0.12202 0.30486
1460000000 0.27423 0.15159 -0.019977 0.0051863 0.0058155 -0.0020256 -0.0016369 0.0017748
0.0020782 -0.00057209 -0.00035049 -0.00095698
-0.019966 0.0051683 0.11467 0.3377 -0.0060415 0.015419 0.0017604 0.00013154
0.0007624 -0.0012741 0.0011305 -0.00059769
0.0057997 -0.0020561 -0.0059654 0.015461 0.35817 0.0064184 -0.0013329 -0.0012483
0.00020472 -0.00020778 0.0006154 -0.00038425
-0.0016171 0.0017817 0.0017649 0.00012165 -0.0013276 -0.0012513 0.19635 0.17923
-0.015156 -0.0025612 -0.00078755 0.0019292
0.0020804 -0.00059039 0.00075035 -0.0012895 0.00021041 -0.0002195 -0.015165 -0.0025159
0.12353 0.19916 -0.011822 -0.002737
-0.00036933 -0.00095581 0.0011364 -0.00061268 0.00062251 -0.00039465 -0.00078807 0.0019322
-0.011813 -0.0027415 0.15542 0.28367
1520000000 0.28636 0.10967 -0.014169 0.010444 0.0033097 -0.0043295 0.00018744 0.0026742
0.0019863 -0.0016589 -0.0011294 -9.6529e-05
-0.014174 0.01043 0.14819 0.32295 0.001701 0.013102 0.0016217 -0.00083326
3.4967e-06 -0.00097999 0.00032082 -0.00099123
0.003283 -0.0043368 0.0017658 0.013101 0.3515 -0.049676 -0.0011727 -0.00033998
0.00062728 -0.00085937 2.6622e-05 -6.9367e-05
0.00019045 0.0026689 0.0016208 -0.00084428 -0.0011687 -0.00033791 0.21968 0.14129
-0.014257 0.0029441 0.0015168 0.0019108
0.0019739 -0.0016682 9.4838e-06 -0.00098613 0.00062752 -0.00085891 -0.014247 0.002988
0.15145 0.185 -0.011522 0.0017055
-0.0011234 -8.3879e-05 0.00031773 -0.00099058 3.0387e-05 -7.3726e-05 0.0015125 0.0019131
-0.011516 0.001701 0.18836 0.26327
1580000000 0.29532 0.06334 -0.0074997 0.013229 -0.00086612 -0.0049106 0.001526 0.001861
-0.00031835 -0.002119 -0.0003555 0.00035588
-0.0075078 0.013212 0.17546 0.29804 0.0053102 0.0082867 0.00044677 -0.0016288
-0.00046923 -0.00098288 -0.00023509 -0.00092506
-0.00089331 -0.0049139 0.0053643 0.0082563 0.33155 -0.10735 -0.0015672 0.00065329
-0.00020596 -0.0011187 0.00023844 -0.00050947
0.0015353 0.0018512 0.00043547 -0.0016256 -0.001573 0.00065209 0.23368 0.1017
-0.010761 0.0075461 0.0021334 0.00062356
-0.0003346 -0.0021167 -0.00048775 -0.00097949 -0.0002096 -0.0011232 -0.01076 0.0075795
0.17589 0.16669 -0.0090439 0.0074374
-0.00035225 0.00035216 -0.00023973 -0.00092454 0.00023665 -0.00050582 0.0021429 0.00061129
-0.0090436 0.0074392 0.2205 0.23598
1640000000 0.29688 0.022083 -0.0010088 0.011936 -0.0028002 -0.0027044 0.0027462 0.00095601
-0.00078951 -0.0014694 -0.00036352 0.000548
-0.001016 0.011939 0.20479 0.27305 0.0059589 0.0034934 -0.00071606 -0.0016482
-0.00095057 -0.00038828 -0.0004806 -0.0007291
-0.0028101 -0.0026771 0.005985 0.0034624 0.3032 -0.156 -0.00066455 0.0014935
-0.0012473 -0.0009268 -0.00012517 -0.00030955
0.0027539 0.00094722 -0.00073305 -0.0016541 -0.00066195 0.0014928 0.24594 0.052841
-0.0065503 0.0085147 0.0024523 -0.00077378
-0.00081118 -0.0014747 -0.00096307 -0.0003755 -0.0012439 -0.00091318 -0.0065255 0.0085322
0.19867 0.14193 -0.0045324 0.0093678
-0.00035905 0.00055606 -0.00049153 -0.00072308 -0.00012385 -0.00031379 0.0024487 -0.00079326
-0.0045262 0.0093708 0.24582 0.20471
1700000000 0.28973 -0.023035 0.0022046 0.0089847 -0.0036627 -7.4768e-06 0.0029653 -0.0013442
-0.0020098 -0.00059683 0.00059367 0.00045375
0.0021989 0.0089877 0.22299 0.24137 0.0040569 0.00044804 -0.0014284 -0.00059807
-0.00069592 -4.4067e-05 -0.000987 -0.00044532
-0.0036596 1.0736e-05 0.0040633 0.00041941 0.26024 -0.19597 0.00040403 0.0015323
-0.0018562 -0.00025578 -0.00041702 -0.00086297
0.0029659 -0.0013527 -0.0014321 -0.00059659 0.00040329 0.0015249 0.24273 0.0030652
-0.0039885 0.0087996 0.0015165 -0.0022488
-0.0020216 -0.00058104 -0.00069917 -3.5894e-05 -0.0018581 -0.00026855 -0.0039752 0.0088132
0.21594 0.12136 0.00013734 0.0096628
0.00060365 0.00044789 -0.00099462 -0.00044873 -0.00044005 -0.00085286 0.0015111 -0.0022417
0.00014909 0.0096678 0.26208 0.17015
1760000000 0.27714 -0.071607 0.0043109 0.0057396 -0.0024328 0.0010198 0.0012015 -0.0034327
-0.00133 0.00071377 0.00041117 -0.00060244
0.0042903 0.0057396 0.24875 0.2014 0.0016983 -0.0014695 -0.0011593 0.00020072
-0.0010779 0.00081536 -0.00060937 0.00045507
-0.0024196 0.0010356 0.001686 -0.0014846 0.21202 -0.2302 0.0013152 0.00099228
-0.0010317 0.0015364 -0.0013618 -0.00043851
0.0011742 -0.0034417 -0.0011659 0.00021297 0.0013143 0.0010046 0.23354 -0.048385
-0.0010021 0.0079166 -0.00038356 -0.0024993
-0.0013266 0.00072473 -0.0010794 0.00083297 -0.0010331 0.0015422 -0.00099087 0.0079249
0.23039 0.085748 0.004057 0.007011
0.00041367 -0.00059495 -0.00059849 0.00046732 -0.0013518 -0.00043445 -0.00038205 -0.0025196
0.0040537 0.0070097 0.27443 0.13215
1820000000 0.25244 -0.10844 0.0042803 0.0023192 -0.00016944 0.0026526 -0.0011474 -0.0029952
-0.0010668 0.00091262 -3.1512e-05 -0.00012942
0.004276 0.0023192 0.2586 0.17132 -0.00042022 -0.00013719 -0.0013097 0.00093578
-0.00015261 0.0012767 -0.00059053 0.000572
-0.00015274 0.0026586 -0.00041981 -0.00013909 0.16114 -0.2453 0.0013855 0.00039749
-0.00026414 0.0022504 -0.0014162 0.00045962
-0.0011666 -0.0029855 -0.0013113 0.00093454 0.0013919 0.00039822 0.20361 -0.095002
0.0003857 0.0064463 -0.0016103 -0.0015194
-0.0010619 0.00091994 -0.00014783 0.0012737 -0.00026111 0.0022448 0.00040346 0.0064374
0.24721 0.05643 0.0050607 0.003347
-2.4747e-05 -0.0001215 -0.00059042 0.00058195 -0.0014104 0.00049143 -0.0016297 -0.0014965
0.00507 0.0033564 0.27654 0.095987
1880000000 0.21725 -0.14869 0.0020396 0.00016616 -0.00034236 0.0022854 -0.0029852 -0.002162
-0.00017478 0.0015416 0.00032408 -0.00052606
0.0020356 0.00016482 0.26287 0.12466 -0.0025287 0.0016433 -0.00021609 0.0016961
0.00051793 0.001298 0.00015228 0.0009547
-0.00032341 0.002279 -0.0025186 0.0016566 0.10845 -0.25535 0.0017829 -0.00087837
0.0014451 0.0019738 -0.00096777 0.0013535
-0.002995 -0.002147 -0.00020393 0.0016854 0.0017765 -0.0008811 0.16305 -0.13527
0.0008024 0.0046271 -0.0024605 0.0003073
-0.0001566 0.0015471 0.00052656 0.0012812 0.0014514 0.0019682 0.00080155 0.0046292
0.24944 0.023431 0.0051107 0.0012735
0.00030386 -0.00051738 0.00016162 0.00096352 -0.0009516 0.0013509 -0.00243 0.00029447
0.0051041 0.0012761 0.27586 0.061753
1940000000 0.1778 -0.17406 -0.00021512 -0.0013462 0.0015587 0.0019978 -0.0037228 0.00063732
0.0013578 0.0010743 -0.00057663 -0.0006334
-0.00021412 -0.0013371 0.26314 0.09294 -0.0012744 0.0039671 0.00098207 0.0012769
0.0018845 0.00054098 0.00092229 0.00037866
0.0015636 0.0019868 -0.0012445 0.0039804 0.062746 -0.24853 0.00035133 -0.0021341
0.0024127 0.00033955 0.00051993 0.0015785
-0.0037318 0.00066882 0.0010007 0.00127 0.00035009 -0.0021506 0.11081 -0.16552
-0.000288 0.003373 -0.0015011 0.0016234
0.0013725 0.0010811 0.0018861 0.00052262 0.0024267 0.00033376 -0.0002673 0.003364
0.25059 -0.015959 0.0036516 -0.0022338
-0.00055169 -0.00063008 0.00091402 0.00037883 0.00051108 0.0015985 -0.0015173 0.001635
0.0036647 -0.0022219 0.26492 0.02582
2000000000 0.13185 -0.18871 -0.0040514 0.00085882 0.0024737 0.0015791 -0.0023505 0.0035582
0.00099076 0.00024489 -0.00057678 0.00041995
-0.0040513 0.000848 0.24879 0.057529 -0.00094503 0.0059142 0.0016106 0.00033015
0.0014047 -0.0012481 0.00052968 0.0001197
0.0024834 0.0015652 -0.00090745 0.0059194 0.019103 -0.23403 -0.001313 -0.0012945
0.0019756 -0.0011148 0.0016491 0.0011226
-0.0023292 0.0035555 0.0016148 0.00030724 -0.0013085 -0.0012883 0.057821 -0.17508
-0.0018291 0.0038303 -0.00011964 0.0022848
0.001 0.00022767 0.0013928 -0.0012642 0.0019652 -0.0011246 -0.0018293 0.003834
0.24378 -0.049669 0.00028472 -0.0031676
