!Keysight Technologies,M9804A,MY58100912,A.14.10.03
!Date: Thursday, April 27, 2023 10:28:33
!Correction: S11(C  6-Port  ) 
!S12(C  6-Port  ) 
!S13(C  6-Port  ) 
!S14(C  6-Port  ) 
!S15(C  6-Port  ) 
!S16(C  6-Port  ) 
!S21(C  6-Port  ) 
!S22(C  6-Port  ) 
!S23(C  6-Port  ) 
!S24(C  6-Port  ) 
!S25(C  6-Port  ) 
!S26(C  6-Port  ) 
!S31(C  6-Port  ) 
!S32(C  6-Port  ) 
!S33(C  6-Port  ) 
!S34(C  6-Port  ) 
!S35(C  6-Port  ) 
!S36(C  6-Port  ) 
!S41(C  6-Port  ) 
!S42(C  6-Port  ) 
!S43(C  6-Port  ) 
!S44(C  6-Port  ) 
!S45(C  6-Port  ) 
!S46(C  6-Port  ) 
!S51(C  6-Port  ) 
!S52(C  6-Port  ) 
!S53(C  6-Port  ) 
!S54(C  6-Port  ) 
!S55(C  6-Port  ) 
!S56(C  6-Port  ) 
!S61(C  6-Port  ) 
!S62(C  6-Port  ) 
!S63(C  6-Port  ) 
!S64(C  6-Port  ) 
!S65(C  6-Port  ) 
!S66(C  6-Port  ) 
!S6P File: Measurement: :
# Hz S  RI   R 50
500000000 -0.33738 -0.03789 -0.010631 -0.0027923 -0.0082945 0.013287 -0.0046162 0.012429
0.012997 0.0034055 -0.0052026 0.0089934
-0.010626 -0.0027619 -0.41893 -0.050947 0.0076453 -0.010765 0.0016831 0.011699
0.0076058 0.0020092 0.002092 0.012976
-0.0082842 0.013296 0.0076639 -0.010797 -0.26594 0.21 0.0073348 0.0035804
-0.0018281 0.0075724 0.0013865 0.012069
-0.004615 0.012401 0.0016758 0.011716 0.0072968 0.0036028 -0.33061 0.043583
-0.018559 -0.005465 0.01607 0.024059
0.012972 0.0033322 0.0076519 0.0019675 -0.0018217 0.0075708 -0.018574 -0.0054543
-0.22834 -0.18965 -0.025985 0.005128
-0.005175 0.0089403 0.0020734 0.012991 0.0013488 0.012111 0.016038 0.024105
-0.025977 0.0051563 -0.27108 -0.126
560000000 -0.31749 0.12468 -0.024622 -0.063903 0.0006448 0.012408 0.0051816 0.010548
0.010256 0.0042591 0.010614 0.0074255
-0.024607 -0.063794 -0.37775 0.10849 -0.041451 -0.037193 0.013704 0.0042956
-0.013456 -0.0039216 0.0024083 0.00089642
0.00069198 0.01233 -0.041548 -0.037205 -0.18351 0.25842 -0.0005424 -0.0045775
0.019452 0.0049699 0.00681 -0.0064756
0.0051973 0.010545 0.013718 0.0042926 -0.00056906 -0.0045836 -0.30501 0.13401
0.0042823 -0.023376 0.003956 -0.020745
0.010207 0.0042073 -0.01348 -0.0039494 0.019449 0.0049956 0.0043045 -0.023355
-0.2903 -0.015056 0.0086097 -0.049011
0.01063 0.0073415 0.002344 0.00085636 0.0067836 -0.0064815 0.0039439 -0.020761
0.0086625 -0.04906 -0.3309 0.023605
620000000 -0.27523 0.10782 -0.023552 0.0083176 0.0032314 0.0090055 0.0079596 -0.0046371
0.011859 -0.00093765 0.001754 -0.0026398
-0.023549 0.0083177 -0.40288 0.060717 -0.018683 0.00020546 -0.00159 -0.0018093
0.011221 -0.0067488 0.0013836 -0.0028891
0.00324 0.0090002 -0.018703 0.00026658 -0.15273 0.26725 -0.0011195 -0.0044369
-0.0034966 -0.0035775 0.0085137 -0.0020925
0.0079638 -0.004696 -0.0016035 -0.0017777 -0.0011338 -0.0044414 -0.26495 0.14479
-0.037719 -0.019047 0.01125 0.025858
0.011838 -0.00094706 0.01124 -0.0067538 -0.0034527 -0.0035367 -0.037713 -0.019025
-0.21031 -0.053342 -0.039648 0.013045
0.0017061 -0.0026757 0.0013619 -0.0028923 0.008513 -0.0020746 0.011224 0.025896
-0.039633 0.012997 -0.25307 -0.010366
680000000 -0.23425 0.19405 -0.027262 -0.013781 0.0052459 0.0050556 0.0014928 -0.0070403
-0.0027022 -0.011608 0.004865 -0.006588
-0.027221 -0.013777 -0.38743 0.15838 -0.032628 -0.001007 -0.0018072 -0.0002617
-0.0018738 -0.0087867 -0.0015194 -0.0021604
0.0052817 0.0050532 -0.032674 -0.00093892 -0.10188 0.28721 -0.0009562 -0.00020097
-0.0019127 0.00043444 -0.0031057 -0.009651
0.0014896 -0.0070209 -0.001816 -0.00026145 -0.000952 -0.00018838 -0.22035 0.19507
-0.023779 -0.0073083 -0.0093408 -0.010167
-0.0027214 -0.011583 -0.0019291 -0.0087846 -0.0019173 0.00045315 -0.023783 -0.0072815
-0.2578 0.04505 -0.0066406 -0.0081041
0.0048216 -0.0066593 -0.0015247 -0.0021771 -0.0031044 -0.0096679 -0.0093744 -0.010171
-0.0066458 -0.0081061 -0.25894 0.093987
740000000 -0.18983 0.18815 -0.038249 0.026884 0.01284 -0.0054709 -0.0003447 -0.0039488
-0.0044041 -0.0028987 -0.0062434 0.0026267
-0.038227 0.026858 -0.33497 0.17694 -0.035081 0.034823 -0.00076273 -0.0066886
-0.011891 0.0088204 -0.0019012 -0.0066832
0.012856 -0.0055291 -0.035036 0.034974 -0.068114 0.28491 -0.0017482 0.0031434
-0.002899 -0.0049111 -0.0015236 0.00073165
-0.00036395 -0.0039296 -0.0007604 -0.0067025 -0.0017726 0.0031531 -0.20315 0.20262
-0.043507 -0.0064423 0.023457 0.014522
-0.004438 -0.0028283 -0.011944 0.0089086 -0.0029129 -0.0049613 -0.043571 -0.0063604
-0.16004 0.071199 -0.043241 0.0012613
-0.0062434 0.0026323 -0.0018833 -0.0066651 -0.0015229 0.0007141 0.023477 0.014499
-0.043208 0.0012564 -0.247 0.10024
800000000 -0.15702 0.22823 -0.022366 0.01676 0.0052435 -0.01065 -0.0048446 -0.0017616
-0.0045994 0.002699 0.0041883 0.0004979
-0.022352 0.016749 -0.33789 0.24666 -0.0078975 0.034109 -0.002374 0.0022172
-0.0010458 0.0031934 0.0011663 0.0052097
0.0052202 -0.010664 -0.0078043 0.034149 -0.027835 0.30812 0.0010207 0.0015068
0.00029522 0.0035283 -0.0019329 0.0009721
-0.004867 -0.0017646 -0.0023562 0.0022384 0.0010253 0.0015102 -0.17509 0.23025
-0.028444 0.013811 0.01319 -0.0099597
-0.0045757 0.0027385 -0.0010588 0.0031828 0.00030901 0.0035285 -0.028448 0.013874
-0.20518 0.095685 -0.0167 0.018919
0.004208 0.00051193 0.0011738 0.0052351 -0.0019368 0.00099203 0.013186 -0.0099882
-0.01669 0.01888 -0.24205 0.14857
860000000 -0.12237 0.24841 -0.017009 0.030574 -0.0033457 -0.010125 -0.0024407 0.00085944
0.0040248 0.0049273 -0.003084 -0.0027014
-0.017011 0.030546 -0.29015 0.28882 0.0080514 0.034392 0.00021562 0.0020574
0.0046662 -0.00021679 0.0031802 0.00091707
-0.0033856 -0.010118 0.0081693 0.03438 0.019893 0.31605 -0.00062184 -0.00016976
0.0027409 -0.00173 0.0018196 0.0041089
-0.0024243 0.00084091 0.00023268 0.0020563 -0.00061968 -0.00016654 -0.13888 0.24114
-0.017704 0.018702 -0.0058006 -0.0092977
0.004051 0.0049456 0.0046477 -0.00023733 0.0027547 -0.0017449 -0.017678 0.018758
-0.15357 0.14531 -0.024455 0.015738
-0.0030967 -0.0026924 0.0032038 0.00089644 0.0018386 0.0041198 -0.0058186 -0.0093093
-0.024468 0.015717 -0.18964 0.19395
920000000 -0.097254 0.27089 0.0054014 0.037671 -0.0095357 -0.0046889 -0.0017249 0.0018137
0.0014026 0.0017553 0.0028697 -0.0017928
0.0053758 0.03765 -0.2615 0.30988 0.028412 0.021907 0.0014351 0.0011807
0.007471 -0.00043292 0.0040668 -0.0029653
-0.0095554 -0.0046673 0.028517 0.021818 0.06643 0.317 0.0018187 -7.7529e-05
0.0013538 -0.00048348 0.00077842 -0.0012654
-0.0017211 0.0018006 0.0014603 0.001179 0.0018119 -8.0268e-05 -0.11496 0.25844
-0.010478 0.030477 0.0034362 -0.0069366
0.0014186 0.0017571 0.0074959 -0.00047384 0.0013603 -0.00048812 -0.01042 0.03051
-0.14219 0.15059 -0.0029467 0.026559
0.0028869 -0.0017849 0.0040478 -0.0030032 0.00078333 -0.001268 0.003417 -0.006963
-0.0029594 0.026555 -0.19719 0.20769
980000000 -0.050155 0.29013 0.017728 0.029767 -0.0091372 0.0044998 0.0020275 0.0032651
0.0039184 -0.0017025 -0.0033074 -0.0022114
0.017696 0.029771 -0.20872 0.34353 0.033387 0.0046161 0.0020182 -0.00024745
0.0014957 -0.0060585 -0.00046407 -0.0022937
-0.0091417 0.0045137 0.033464 0.0045052 0.11285 0.31042 0.00047899 -0.0012375
0.00012463 -0.0022084 0.0013824 -0.00020851
0.0020284 0.0032572 0.0020209 -0.00023038 0.00046902 -0.0012397 -0.076772 0.26961
0.007976 0.030047 -0.0090584 -0.0069059
0.0039285 -0.0017063 0.0014516 -0.0060849 0.00012062 -0.0022167 0.0080457 0.030049
-0.11211 0.18015 0.0054128 0.02006
-0.0032896 -0.0021931 -0.00049893 -0.0023098 0.001392 -0.00022749 -0.0090626 -0.0068899
0.0053996 0.020053 -0.15405 0.25096
1040000000 -0.0081872 0.29826 0.033358 0.017655 -0.0014269 0.0069325 0.0025119 0.00073752
-0.00015284 -0.0033789 -0.00052291 -0.0014821
0.033326 0.017678 -0.17332 0.35657 0.029419 -0.01531 0.001323 -0.0017962
-0.0026505 -0.0024983 -0.001562 -0.002768
-0.0014149 0.0069461 0.029408 -0.01545 0.15925 0.2968 -0.00057273 -0.0014798
-0.0016815 -0.00082937 -0.00058067 -0.001154
0.0025176 0.00072718 0.0013307 -0.0017828 -0.000572 -0.0014808 -0.049178 0.28024
0.019586 0.017905 -0.0026921 0.0015146
-0.00015926 -0.0033595 -0.0026973 -0.002475 -0.0016668 -0.00083241 0.019632 0.017888
-0.079852 0.18736 0.013563 0.018354
-0.00051099 -0.0014618 -0.0016144 -0.0027658 -0.00058385 -0.0011567 -0.0026939 0.001515
0.013541 0.018351 -0.13261 0.27211
1100000000 0.037212 0.30609 0.035809 -0.0047414 0.0028585 0.003956 0.0024399 -0.0012699
-0.0019965 -0.0030064 -0.0038263 0.00027756
0.035779 -0.0047053 -0.13 0.37404 0.014938 -0.028376 -9.6552e-07 -0.0018059
-0.0035033 -0.0005527 -0.0034715 -0.00031062
0.0028627 0.0039556 0.014854 -0.028471 0.2061 0.27614 -0.0018629 0.00033224
-0.0017719 0.00068146 -0.0010554 -0.00027336
0.0024311 -0.0012795 1.2038e-07 -0.0017906 -0.0018597 0.00033567 -0.0086131 0.28522
0.024846 0.0046136 -0.0026559 0.00031474
-0.0020012 -0.0030067 -0.0035204 -0.00052458 -0.0017789 0.00066687 0.024865 0.0045856
-0.061972 0.2012 0.019343 0.0086163
-0.0038204 0.00029524 -0.0034832 -0.00029789 -0.0010546 -0.00027783 -0.0026516 0.00034068
0.019327 0.0086369 -0.086522 0.30081
1160000000 0.088277 0.301 0.023666 -0.021339 0.0026259 -0.00036107 -0.00017902 -0.0024338
-0.0041734 -0.00076131 -0.00080762 0.004245
0.023665 -0.021288 -0.086077 0.37852 -0.0042947 -0.029415 -0.0017336 -0.0017473
-0.0025948 0.0026459 -0.0013487 0.0019698
0.0026152 -0.00036279 -0.0044143 -0.029431 0.24922 0.24468 -0.00069505 0.0018256
-0.00044777 0.0020158 -0.00090671 0.00014063
-0.00019444 -0.0024442 -0.0017311 -0.0017296 -0.00069571 0.0018205 0.030984 0.28245
0.021087 -0.011092 -0.0029303 0.0053277
-0.004199 -0.00074844 -0.0026015 0.0026452 -0.00044108 0.0020146 0.021082 -0.011124
-0.028033 0.20982 0.018124 0.00014307
-0.00080503 0.0042633 -0.0013631 0.0019777 -0.00091329 0.00015705 -0.0029279 0.0053192
0.018121 0.000149 -0.040299 0.3038
1220000000 0.13276 0.28997 0.0097753 -0.030389 -0.0015732 -0.00074894 5.9336e-06 -0.00094288
-0.0026237 0.0025 0.0013912 0.0020361
0.0097901 -0.030345 -0.041385 0.39057 -0.017484 -0.021125 -0.0025513 0.00052674
0.00022536 0.0030683 -0.00070974 0.0019947
-0.0015864 -0.00075223 -0.017579 -0.021075 0.2882 0.20496 0.00087923 0.0017099
0.00063456 0.0012511 0.00033317 0.00063293
-1.1849e-06 -0.00095384 -0.0025527 0.00054592 0.00088514 0.001714 0.071191 0.27367
0.0099038 -0.017629 0.0021707 0.0016013
-0.0026211 0.002507 0.00023504 0.0030446 0.00064768 0.0012613 0.0098864 -0.017652
-0.0049775 0.21917 0.013918 -0.013286
0.0013977 0.0020364 -0.00071018 0.0019927 0.00032476 0.00063174 0.0021711 0.0016096
0.01391 -0.01329 -0.0082206 0.31987
1280000000 0.18263 0.26775 -0.0087366 -0.028464 -0.0018637 0.0026632 -0.00092522 -0.0019951
-0.00078715 0.0031641 0.0025772 0.0010247
-0.0087133 -0.02844 0.005004 0.38135 -0.024227 -0.0081268 -0.00089982 0.0015248
0.0017781 0.0017086 0.00069842 0.0020517
-0.0018548 0.0026711 -0.024308 -0.0080238 0.31797 0.16053 0.0016232 -0.00010518
0.0011591 0.00022764 0.00031779 0.00038088
-0.0009319 -0.0019879 -0.00090145 0.0015295 0.0016182 -0.00010683 0.10793 0.2571
0.0001612 -0.019402 2.7664e-05 0.00026085
-0.00076281 0.0031708 0.0017829 0.0016985 0.0011535 0.00023298 0.00011103 -0.019409
0.031842 0.22302 0.0028472 -0.015286
0.0025844 0.0010142 0.00070146 0.0020672 0.00032732 0.00038091 3.2913e-05 0.00025437
0.0028591 -0.015292 0.039551 0.32157
1340000000 0.21964 0.2336 -0.018337 -0.018435 0.0010472 0.0046353 -0.0017791 -0.00083164
0.0015549 0.0026285 0.0016534 -0.0014869
-0.018306 -0.018425 0.044607 0.37255 -0.021708 0.0048204 -2.4871e-05 0.0020052
0.0019526 0.0006174 0.0014471 0.0007517
0.0010711 0.0046269 -0.02171 0.0049277 0.33909 0.11281 0.0010924 -0.0010746
0.00075591 -0.0005242 0.00019586 0.0002588
-0.0017761 -0.00081868 -1.6068e-05 0.0020069 0.0010896 -0.0010748 0.1406 0.23654
-0.0093601 -0.016142 0.00086486 0.00053841
0.0015706 0.0026418 0.00194 0.00061786 0.00075696 -0.00052084 -0.009394 -0.016133
0.062257 0.21842 -0.0042388 -0.013683
0.0016478 -0.001496 0.0014475 0.00072867 0.00018167 0.00025665 0.00086766 0.00053623
-0.004227 -0.013688 0.078211 0.31621
1400000000 0.25262 0.19498 -0.023684 -0.0066277 0.0054121 0.0031172 -0.0021187 0.00070552
0.0025683 0.00086916 0.00017588 -0.001475
-0.023646 -0.0066403 0.081799 0.35891 -0.014645 0.012885 0.0013196 0.0012213
0.0011063 -0.00095048 0.0011776 0.00012367
0.0054239 0.0030911 -0.014601 0.012977 0.3519 0.059841 1.1436e-05 -0.0016847
8.4875e-05 -0.00043874 0.00039814 0.00029776
-0.0021149 0.00071969 0.0013322 0.00121 9.6062e-06 -0.0016829 0.16999 0.20764
-0.015002 -0.0088801 -0.00066503 -0.00031593
0.0025747 0.00085421 0.0010938 -0.00095429 8.1836e-05 -0.00044019 -0.015024 -0.0088582
0.095421 0.2137 -0.010618 -0.0086737
0.00015368 -0.0014707 0.0011781 0.0001055 0.00040266 0.00029335 -0.00066515 -0.00031483
-0.010609 -0.0086868 0.12286 0.30483
1460000000 0.27483 0.15057 -0.020235 0.0056065 0.0057947 -0.0019917 -0.0015706 0.0017706
0.0021947 -0.00067171 -0.00041789 -0.00095812
-0.020207 0.0055815 0.11559 0.33656 -0.0057021 0.015588 0.0016607 0.0001262
0.00072888 -0.001274 0.0011752 -0.00064385
0.0057998 -0.0020245 -0.0056444 0.015643 0.35774 0.0060918 -0.0013508 -0.0011825
0.00015522 -0.00025245 0.00064284 -0.0003188
-0.00156 0.0017955 0.0016738 0.00011341 -0.0013566 -0.0011772 0.19621 0.17841
-0.015631 -0.0019263 -0.00070619 0.0019751
0.0021961 -0.00068581 0.00071611 -0.0012886 0.00015656 -0.00024784 -0.015654 -0.001887
0.125 0.19877 -0.012221 -0.002555
-0.00041023 -0.00096982 0.0011744 -0.00065508 0.00065706 -0.00030342 -0.00070069 0.0019764
-0.012218 -0.0025448 0.15583 0.28354
1520000000 0.28644 0.10862 -0.014178 0.010916 0.0032836 -0.0043484 0.00013782 0.0026025
0.0019454 -0.0017946 -0.0010619 -3.635e-05
-0.014174 0.010893 0.1486 0.32164 0.0019677 0.013071 0.0015982 -0.00080699
-4.0295e-05 -0.00094327 0.00029559 -0.0010173
0.0032593 -0.0043658 0.0020463 0.013076 0.35113 -0.049671 -0.0010938 -0.00028666
0.0006461 -0.00083054 2.6119e-05 -0.00013507
0.0001421 0.0026011 0.0015987 -0.00082187 -0.0011024 -0.00029033 0.21921 0.14049
-0.014273 0.0037348 0.0015262 0.0019777
0.001931 -0.0017982 -4.9989e-05 -0.00094697 0.00064784 -0.00083969 -0.014265 0.0037801
0.15296 0.18433 -0.011786 0.0021061
-0.0010587 -1.6769e-05 0.00028834 -0.0010188 2.4348e-05 -0.00013391 0.0015254 0.0019678
-0.011799 0.0020974 0.18886 0.26283
1580000000 0.2952 0.062422 -0.0072529 0.013661 -0.00091777 -0.0049813 0.001498 0.001893
-0.00034632 -0.0021399 -0.00022267 0.00037729
-0.0072611 0.013643 0.17533 0.29685 0.0054755 0.0080984 0.00044549 -0.0015648
-0.00048195 -0.0009199 -0.00026907 -0.0008592
-0.0009462 -0.0049795 0.0055205 0.0080713 0.33142 -0.10732 -0.0014863 0.00065981
-0.00029296 -0.0011242 0.00019322 -0.00051727
0.0015112 0.0018819 0.00043132 -0.0015652 -0.0014943 0.00066504 0.23301 0.10125
-0.010193 0.0080802 0.0021823 0.00057753
-0.00035688 -0.0021383 -0.0004934 -0.00092091 -0.00030136 -0.0011186 -0.010187 0.0080997
0.17717 0.16571 -0.0091584 0.00777
-0.00022379 0.00038268 -0.00028127 -0.00086028 0.00018646 -0.00051368 0.0021788 0.00057973
-0.0091628 0.0077736 0.22083 0.23556
1640000000 0.29653 0.021417 -0.0005959 0.012075 -0.0028887 -0.0026834 0.0027172 0.00092571
-0.0009018 -0.0014547 -0.00029263 0.00051472
-0.0006054 0.012067 0.20431 0.27205 0.0060252 0.0032678 -0.00070485 -0.0016996
-0.00089014 -0.00036152 -0.0005374 -0.00064275
-0.0029041 -0.0026542 0.0060496 0.0032351 0.30313 -0.15614 -0.00063488 0.0014203
-0.0011867 -0.00081745 -0.00012603 -0.00030094
0.0027224 0.00091665 -0.00071253 -0.0017008 -0.00064192 0.0014336 0.24508 0.052695
-0.0058477 0.0086143 0.0024658 -0.00081554
-0.00091532 -0.0014625 -0.0009025 -0.00036369 -0.0011861 -0.00080644 -0.0058309 0.0086377
0.19958 0.14065 -0.0042978 0.0097345
-0.00028798 0.00051531 -0.00054116 -0.00063977 -0.00012734 -0.00029651 0.0024675 -0.00082123
-0.0043123 0.0097317 0.24617 0.20437
1700000000 0.28908 -0.02342 0.0026044 0.008877 -0.0036079 -1.8773e-05 0.0029898 -0.0013596
-0.0019964 -0.00051954 0.00054435 0.00032801
0.0025984 0.008863 0.22217 0.2408 0.0039725 0.00035677 -0.0014425 -0.00056969
-0.00067577 -2.235e-05 -0.00092276 -0.00042068
-0.0036086 -3.7575e-06 0.0039744 0.00033965 0.26011 -0.19589 0.00049647 0.0015367
-0.0018606 -0.00021707 -0.00055279 -0.0009225
0.002986 -0.00137 -0.0014569 -0.0005692 0.0004883 0.0015387 0.24197 0.0034262
-0.0033921 0.0084939 0.0014771 -0.0022953
-0.0020015 -0.00050782 -0.0006753 -1.7187e-05 -0.0018657 -0.00021439 -0.0033737 0.0085016
0.21649 0.1198 0.00045467 0.0097232
0.00054489 0.00031855 -0.00092389 -0.00041994 -0.0005565 -0.00091446 0.0014784 -0.0023022
0.00045268 0.0097205 0.26239 0.16982
1760000000 0.27667 -0.071447 0.0044401 0.0054778 -0.0024016 0.0010073 0.0012109 -0.0034545
-0.0013017 0.00083625 0.00034284 -0.00048573
0.0044426 0.0054733 0.24789 0.20132 0.0015291 -0.0014508 -0.0011847 0.00019484
-0.001053 0.00076737 -0.00051371 0.00046096
-0.0023937 0.0010275 0.0015266 -0.0014589 0.21184 -0.23003 0.0011461 0.001041
-0.0010065 0.0014689 -0.0012367 -0.00037445
0.0011941 -0.0034605 -0.0011859 0.0002061 0.0011452 0.0010439 0.23297 -0.047442
-0.00081859 0.007395 -0.00029722 -0.0024607
-0.0012723 0.00083986 -0.0010487 0.00079313 -0.001004 0.0014768 -0.00081087 0.0073942
0.23055 0.084105 0.0043622 0.0070043
0.00034316 -0.0004888 -0.00051021 0.00047057 -0.001233 -0.00036712 -0.00030056 -0.0024669
0.0043624 0.0070164 0.27472 0.13179
1820000000 0.25228 -0.10837 0.0042754 0.0020969 -0.00011863 0.0025851 -0.0010795 -0.0030308
-0.00089637 0.00094541 -7.0826e-05 -3.3066e-05
0.0042686 0.0021081 0.25788 0.17164 -0.00047988 -0.00014247 -0.0012408 0.000954
-0.00014915 0.0012585 -0.0005682 0.00052472
-9.4713e-05 0.0025908 -0.00047396 -0.00013581 0.16137 -0.24562 0.0014909 0.00040717
-0.00025726 0.0022274 -0.0015276 0.00037173
-0.0011072 -0.003019 -0.0012422 0.00096184 0.0014832 0.00042556 0.2036 -0.094224
0.00010323 0.0058903 -0.0016709 -0.0015246
-0.00088441 0.00094817 -0.00013494 0.0012722 -0.0002597 0.0022377 0.00012302 0.0058886
0.24683 0.05483 0.0052313 0.0032772
-7.4183e-05 -3.4315e-05 -0.00056632 0.00052744 -0.0015333 0.00037536 -0.0016779 -0.0015241
0.0052335 0.0032678 0.27674 0.095501
1880000000 0.21727 -0.14851 0.0019207 8.3815e-05 -0.00038115 0.0023098 -0.0029499 -0.0021273
-8.1165e-05 0.0014597 0.00030314 -0.00056948
0.0019186 8.0758e-05 0.26249 0.12531 -0.0025771 0.0016781 -0.00016906 0.0016546
0.00049815 0.0012644 0.00012057 0.00091738
-0.00035467 0.0023206 -0.0025672 0.0017068 0.10848 -0.25557 0.0016958 -0.00090345
0.0013713 0.0019497 -0.0010468 0.0014438
-0.0029584 -0.0021112 -0.00015437 0.0016602 0.0016978 -0.00090277 0.16366 -0.13444
0.00042105 0.0043567 -0.0024574 0.00038869
-5.9231e-05 0.0014623 0.00051009 0.0012587 0.0013654 0.0019481 0.00042983 0.0043543
0.24872 0.022161 0.0051865 0.0010447
0.00031495 -0.00056913 0.00012643 0.00091833 -0.0010484 0.0014524 -0.0024552 0.00040812
0.0051867 0.0010425 0.27623 0.061001
1940000000 0.17807 -0.17404 -0.00033947 -0.0013155 0.0015857 0.0019891 -0.0038125 0.00064549
0.0012532 0.00099189 -0.00046105 -0.00061377
-0.00033948 -0.0013065 0.26316 0.09366 -0.0012896 0.0039803 0.00097475 0.0013152
0.001814 0.00059069 0.00090921 0.00037985
0.0015867 0.0019728 -0.0012657 0.003992 0.062762 -0.24884 0.00040844 -0.0021135
0.0024358 0.00037503 0.00044562 0.0016878
-0.003804 0.00067337 0.00098837 0.0013047 0.00040593 -0.0021167 0.11179 -0.16501
-0.00065987 0.0035324 -0.0014587 0.0015369
0.0012609 0.00097886 0.0018284 0.00056664 0.0024397 0.00035101 -0.00065781 0.0035382
0.24968 -0.016786 0.0037118 -0.0024038
-0.00047015 -0.00060884 0.00090855 0.00037485 0.00043273 0.0016893 -0.001453 0.0015409
0.0037122 -0.0024062 0.26479 0.02516
2000000000 0.132 -0.1891 -0.0039727 0.00080575 0.0025465 0.0016097 -0.0021739 0.0035489
0.0010199 0.00030251 -0.00071105 0.00031388
-0.003971 0.00079778 0.24931 0.058169 -0.00097088 0.0058874 0.0016677 0.00037293
0.0014467 -0.0012018 0.00055823 7.0574e-05
0.0025605 0.0015896 -0.0009323 0.0058931 0.018973 -0.23436 -0.0012602 -0.0012873
0.0020149 -0.0010726 0.0017531 0.0014171
-0.0021362 0.0035557 0.0016701 0.00035915 -0.001259 -0.0012879 0.058772 -0.17539
-0.002061 0.0038938 -0.00023994 0.0023643
0.0010369 0.00030054 0.0014311 -0.0012209 0.0020255 -0.0010574 -0.0020494 0.0039136
0.24286 -0.050306 0.0001601 -0.0032621
