!Keysight Technologies,M9804A,MY58100912,A.14.10.03
!Date: Thursday, April 27, 2023 10:28:33
!Correction: S11(C  6-Port  ) 
!S12(C  6-Port  ) 
!S13(C  6-Port  ) 
!S14(C  6-Port  ) 
!S15(C  6-Port  ) 
!S16(C  6-Port  ) 
!S21(C  6-Port  ) 
!S22(C  6-Port  ) 
!S23(C  6-Port  ) 
!S24(C  6-Port  ) 
!S25(C  6-Port  ) 
!S26(C  6-Port  ) 
!S31(C  6-Port  ) 
!S32(C  6-Port  ) 
!S33(C  6-Port  ) 
!S34(C  6-Port  ) 
!S35(C  6-Port  ) 
!S36(C  6-Port  ) 
!S41(C  6-Port  ) 
!S42(C  6-Port  ) 
!S43(C  6-Port  ) 
!S44(C  6-Port  ) 
!S45(C  6-Port  ) 
!S46(C  6-Port  ) 
!S51(C  6-Port  ) 
!S52(C  6-Port  ) 
!S53(C  6-Port  ) 
!S54(C  6-Port  ) 
!S55(C  6-Port  ) 
!S56(C  6-Port  ) 
!S61(C  6-Port  ) 
!S62(C  6-Port  ) 
!S63(C  6-Port  ) 
!S64(C  6-Port  ) 
!S65(C  6-Port  ) 
!S66(C  6-Port  ) 
!S6P File: Measurement: :
# Hz S  RI   R 50
500000000 -0.33804 -0.03876 -0.010653 -0.0032207 -0.007948 0.013013 -0.00426 0.011994
0.013452 0.0030773 -0.0047802 0.0085636
-0.010543 -0.0034667 -0.41882 -0.052314 0.0077908 -0.010663 0.0016347 0.012106
0.0076675 0.0020609 0.001389 0.013396
-0.0081496 0.013048 0.0075993 -0.011075 -0.26566 0.21013 0.0071688 0.0035694
-0.0017199 0.0079243 0.00088277 0.012093
-0.0045962 0.011203 0.0012709 0.011836 0.0070928 0.0039749 -0.33028 0.044703
-0.018609 -0.0054965 0.015904 0.025715
0.013425 0.003221 0.0074968 0.0021241 -0.0015506 0.0077532 -0.018614 -0.0055066
-0.22648 -0.19039 -0.025382 0.0051699
-0.0047041 0.007223 0.0012762 0.0129 0.00094695 0.012554 0.016092 0.025602
-0.025425 0.0050332 -0.27077 -0.12556
560000000 -0.3173 0.12432 -0.024151 -0.062891 -2.3539e-05 0.01269 0.0058027 0.010769
0.010137 0.0048272 0.01067 0.0077616
-0.024143 -0.062887 -0.37773 0.10846 -0.041935 -0.03698 0.013843 0.0041561
-0.013358 -0.0042018 0.0031256 -0.00011391
0.00012039 0.012077 -0.041967 -0.037825 -0.18294 0.25778 -0.00072741 -0.0045938
0.019586 0.0051123 0.0074852 -0.0064036
0.0056624 0.010904 0.013582 0.0048459 -0.00068662 -0.0043572 -0.30543 0.13388
0.0042641 -0.023611 0.0039767 -0.021963
0.010011 0.0040121 -0.013591 -0.0045208 0.01924 0.0050408 0.0041586 -0.023584
-0.29046 -0.015207 0.0090521 -0.048584
0.010385 0.0079804 0.0032364 -0.00012382 0.0074296 -0.0063647 0.0039245 -0.022005
0.0087683 -0.048476 -0.32963 0.022799
620000000 -0.27506 0.10708 -0.023338 0.0083134 0.0033924 0.0088613 0.0078464 -0.0050708
0.012058 -0.00024743 0.0012341 -0.0023632
-0.023491 0.0082523 -0.40283 0.060132 -0.018906 0.00037547 -0.0017284 -0.0018847
0.011787 -0.0064909 0.0014577 -0.0027085
0.0034248 0.0088261 -0.018927 0.00041993 -0.15346 0.26729 -0.0015709 -0.0049212
-0.0030454 -0.0028417 0.0085952 -0.0023812
0.0079856 -0.0052022 -0.0016958 -0.0020816 -0.0015177 -0.0048612 -0.26528 0.145
-0.03733 -0.019214 0.010742 0.026002
0.011722 -0.00049206 0.011496 -0.0063169 -0.0030267 -0.0029173 -0.037282 -0.019283
-0.20881 -0.054074 -0.039479 0.013098
0.0012012 -0.0024803 0.001455 -0.0030045 0.0084018 -0.0022663 0.010675 0.026219
-0.039487 0.013286 -0.25292 -0.012224
680000000 -0.23401 0.19296 -0.02704 -0.01379 0.0051557 0.0051023 0.0014207 -0.0070059
-0.0028009 -0.011566 0.0051988 -0.006923
-0.027029 -0.013862 -0.38748 0.15785 -0.032521 -0.0010718 -0.0017302 -0.00034575
-0.001948 -0.0089556 -0.0016401 -0.0018652
0.0051424 0.0052124 -0.032576 -0.00097386 -0.10201 0.28707 -0.00086807 2.956e-05
-0.001831 0.0003966 -0.0030265 -0.0092669
0.0016563 -0.0069482 -0.001738 -0.00044 -0.00088493 2.3893e-06 -0.2204 0.19515
-0.023637 -0.0072424 -0.0095109 -0.010352
-0.003014 -0.011325 -0.0019608 -0.008958 -0.0018739 0.00033706 -0.023724 -0.0072296
-0.25786 0.044101 -0.006131 -0.0082779
0.0051365 -0.0072009 -0.00157 -0.0019463 -0.002991 -0.0093249 -0.0096342 -0.010346
-0.006097 -0.0082566 -0.25976 0.093
740000000 -0.19027 0.18807 -0.038349 0.0266 0.012907 -0.0053719 -0.00041219 -0.0040005
-0.0040818 -0.0031324 -0.0066175 0.0025731
-0.038311 0.026568 -0.33498 0.17723 -0.035534 0.034841 -0.00076542 -0.0064301
-0.01138 0.0078753 -0.0018078 -0.0058671
0.012821 -0.0052918 -0.035521 0.034879 -0.068364 0.28458 -0.001866 0.0032538
-0.0025344 -0.0044569 -0.0015839 0.00049264
-0.00045578 -0.0039491 -0.00099128 -0.0061866 -0.0018853 0.0031735 -0.20317 0.20246
-0.043282 -0.0069495 0.023156 0.014585
-0.0044 -0.0029385 -0.011459 0.0082325 -0.0026385 -0.0048223 -0.043298 -0.0068684
-0.16033 0.071442 -0.042597 0.00077311
-0.0065948 0.0028946 -0.0022949 -0.0060886 -0.0015057 0.00054785 0.023255 0.014602
-0.042575 0.00090647 -0.24797 0.09864
800000000 -0.15745 0.22775 -0.022513 0.016668 0.005277 -0.010694 -0.0046498 -0.0018416
-0.0044292 0.0028142 0.0047335 0.00052805
-0.022593 0.016546 -0.33817 0.24622 -0.0079029 0.033977 -0.0024328 0.0022104
-0.0010841 0.0032624 0.0010873 0.0052814
0.0052569 -0.010619 -0.0078097 0.034095 -0.027866 0.30813 0.0010751 0.0015397
0.00028821 0.0035706 -0.0017877 0.00096494
-0.0047347 -0.001944 -0.0024764 0.0022983 0.0010648 0.0015381 -0.17491 0.23015
-0.028416 0.013822 0.013434 -0.010032
-0.0045885 0.0027826 -0.0011343 0.0033747 0.00035997 0.0035411 -0.028443 0.013866
-0.20516 0.09496 -0.016704 0.018883
0.0042887 0.00063593 0.00086992 0.0053879 -0.0018232 0.00088485 0.013417 -0.0099898
-0.01674 0.018805 -0.24213 0.14738
860000000 -0.12264 0.24811 -0.017191 0.030618 -0.0032718 -0.010045 -0.0021835 0.0010442
0.0042313 0.0051725 -0.0032218 -0.0027997
-0.01726 0.030548 -0.29042 0.28825 0.0079791 0.034242 0.00011278 0.002049
0.004541 0.00019061 0.003267 0.00065557
-0.0033898 -0.010079 0.0080928 0.034246 0.020018 0.31599 -0.0004784 -0.00019614
0.0028358 -0.0015005 0.0017908 0.0043264
-0.0022366 0.00089637 8.4137e-05 0.0020835 -0.00048125 -0.00018057 -0.13885 0.2413
-0.017448 0.019041 -0.0059684 -0.0094499
0.004057 0.0049334 0.0043698 0.00021216 0.0028298 -0.001491 -0.017356 0.019053
-0.15394 0.14494 -0.024681 0.015696
-0.0031241 -0.0026122 0.0034699 0.0004423 0.0017767 0.0043205 -0.0060637 -0.009317
-0.024658 0.015785 -0.18963 0.19185
920000000 -0.09759 0.27083 0.0053573 0.037608 -0.0094173 -0.0046083 -0.0017596 0.0019149
0.0014313 0.0015667 0.0026247 -0.0015837
0.0052237 0.037499 -0.26178 0.30954 0.028235 0.021887 0.00148 0.0011303
0.0072854 -0.00063865 0.0040037 -0.0030387
-0.0093885 -0.0046101 0.028329 0.021786 0.066334 0.31681 0.0018197 -0.00013978
0.00133 -0.0005542 0.00088044 -0.0012158
-0.0016777 0.0018802 0.0015013 0.0011079 0.0018285 -0.00013477 -0.11507 0.25819
-0.010548 0.03016 0.0033366 -0.0067758
0.0013358 0.0015764 0.0073765 -0.00068758 0.0013219 -0.00051886 -0.010494 0.030213
-0.14348 0.15022 -0.0025147 0.026762
0.00273 -0.0017592 0.0039249 -0.0030027 0.00083261 -0.0012381 0.0032096 -0.0068196
-0.0026313 0.026868 -0.19808 0.20696
980000000 -0.050396 0.29001 0.017623 0.0298 -0.0090646 0.0045684 0.0020543 0.0034168
0.003861 -0.0017887 -0.0032612 -0.0020876
0.017581 0.029692 -0.20901 0.34328 0.033139 0.0046999 0.0020026 -0.00016022
0.0015441 -0.0061568 -0.00048895 -0.0022425
-0.0090605 0.0045961 0.033186 0.0045823 0.11271 0.31018 0.00047457 -0.0012214
0.00017451 -0.0021661 0.0013779 -0.00019036
0.002057 0.0034862 0.0019513 -0.00020939 0.00046508 -0.0012257 -0.076748 0.26946
0.0079866 0.029984 -0.0089561 -0.0068777
0.0038893 -0.0017766 0.0015125 -0.0062828 0.00013114 -0.0021673 0.0080233 0.029984
-0.11295 0.17986 0.0053678 0.019955
-0.003486 -0.0020621 -0.00064678 -0.0022573 0.0013869 -0.00020059 -0.0089688 -0.0068534
0.0053232 0.019997 -0.15495 0.25026
1040000000 -0.0084954 0.29835 0.033197 0.017805 -0.0013903 0.0069343 0.002515 0.00082295
-0.00016927 -0.0034713 -0.00049958 -0.0013628
0.03315 0.017788 -0.17365 0.35641 0.029346 -0.015064 0.0013799 -0.0017607
-0.0026102 -0.0024682 -0.0015792 -0.0028301
-0.0013817 0.0069347 0.029275 -0.015215 0.15896 0.29657 -0.00056935 -0.001477
-0.0016621 -0.00085335 -0.00054101 -0.0011397
0.0025113 0.0007946 0.0013703 -0.001771 -0.00055942 -0.0014744 -0.049203 0.27992
0.019479 0.017762 -0.0027071 0.0016305
-9.2629e-05 -0.0033859 -0.0026144 -0.0024806 -0.0016945 -0.00087143 0.019515 0.0177
-0.080239 0.18637 0.013508 0.018302
-0.00055925 -0.001639 -0.0015187 -0.0029379 -0.00053837 -0.0011391 -0.002662 0.0016573
0.01349 0.018332 -0.13393 0.27159
1100000000 0.036784 0.30609 0.035729 -0.0045497 0.0028302 0.0038898 0.0024219 -0.0013095
-0.0020897 -0.0030981 -0.0038464 0.00026533
0.035692 -0.0045481 -0.1302 0.37375 0.014996 -0.02808 -1.6938e-05 -0.0018678
-0.0035137 -0.00062068 -0.0034765 -0.00045042
0.0028582 0.0039013 0.014905 -0.028155 0.20563 0.27606 -0.0018188 0.00028186
-0.0017669 0.0006066 -0.0010647 -0.00032796
0.0024388 -0.0013349 -1.8469e-05 -0.0018564 -0.001831 0.00029242 -0.0086535 0.28495
0.024605 0.0047685 -0.0024689 0.0003798
-0.0020652 -0.003098 -0.0034969 -0.00059328 -0.0017693 0.00062546 0.024632 0.004717
-0.062773 0.20065 0.019024 0.0087413
-0.0038618 0.00025767 -0.0034603 -0.00034884 -0.001074 -0.00031074 -0.0025037 0.0003633
0.019024 0.0087326 -0.087404 0.30054
1160000000 0.08801 0.30103 0.023678 -0.02108 0.0026177 -0.00041469 -0.00022496 -0.0024586
-0.0042374 -0.00071731 -0.00082375 0.0041793
0.023646 -0.021051 -0.086417 0.37808 -0.0040602 -0.029121 -0.0017326 -0.001723
-0.0026922 0.0024773 -0.0013061 0.0019776
0.0026231 -0.00041511 -0.0041755 -0.029149 0.24863 0.24483 -0.0007078 0.0018429
-0.00051886 0.0020171 -0.00098825 0.00012338
-0.00018395 -0.0024673 -0.001721 -0.0017144 -0.00069334 0.0018366 0.030742 0.28212
0.020875 -0.010922 -0.0029061 0.0052886
-0.0041763 -0.00068671 -0.0026108 0.0025135 -0.00051825 0.0020097 0.02086 -0.010943
-0.028876 0.20961 0.017978 0.00029044
-0.00079457 0.0042022 -0.001283 0.0019178 -0.00092799 0.00017807 -0.0029222 0.0052954
0.01797 0.00028742 -0.04071 0.30331
1220000000 0.13241 0.28997 0.0099648 -0.030111 -0.0015679 -0.00075254 -4.8714e-05 -0.00093199
-0.0026506 0.0024387 0.0012732 0.0020763
0.0099956 -0.03008 -0.041913 0.39013 -0.017193 -0.021048 -0.0025134 0.00050681
0.0001541 0.0029848 -0.00077009 0.0018867
-0.0015882 -0.0007458 -0.01731 -0.021003 0.2876 0.20538 0.00087003 0.0016507
0.00062634 0.0012452 0.00031049 0.00066475
-4.0625e-05 -0.0009517 -0.0025057 0.00056827 0.00085742 0.0016564 0.070815 0.27362
0.0099449 -0.017304 0.0021979 0.0015738
-0.0026282 0.0024869 0.00019337 0.0030316 0.00061626 0.0012443 0.0099124 -0.017306
-0.0059358 0.21914 0.013863 -0.012989
0.0012727 0.0021041 -0.00074292 0.0019439 0.00030897 0.00062971 0.0021992 0.0015777
0.013843 -0.013002 -0.0091839 0.31919
1280000000 0.18218 0.26783 -0.0084048 -0.028389 -0.0018402 0.0026166 -0.0009461 -0.001965
-0.00074796 0.0031029 0.0025036 0.0011262
-0.0084009 -0.028368 0.0042828 0.38101 -0.023911 -0.008246 -0.00095503 0.0014942
0.0017408 0.0017068 0.00056023 0.0020529
-0.0018191 0.0026088 -0.023965 -0.0081276 0.31773 0.16126 0.0015203 -7.9337e-05
0.0011045 0.00023958 0.00027399 0.0003129
-0.00095324 -0.0019823 -0.00091397 0.0014909 0.0015331 -8.9647e-05 0.10756 0.25728
0.00037215 -0.019033 -1.0502e-05 0.00017134
-0.00075755 0.0030926 0.0018018 0.0017516 0.0011 0.00023758 0.00033024 -0.019039
0.03099 0.22293 0.0028355 -0.015055
0.0025078 0.0010535 0.00054757 0.002047 0.00030569 0.000323 2.7535e-05 0.00018046
0.0028334 -0.015053 0.038312 0.32135
1340000000 0.2192 0.23388 -0.017952 -0.01848 0.0010736 0.0044992 -0.0018188 -0.00082581
0.0015075 0.00262 0.0016261 -0.0014541
-0.017925 -0.018497 0.043737 0.37254 -0.021568 0.0045843 -5.0204e-05 0.0019563
0.0019277 0.00068387 0.0013325 0.0007933
0.0010833 0.0044818 -0.021556 0.0046897 0.33925 0.11353 0.0010954 -0.0010357
0.00079154 -0.00043824 0.00020331 0.00027307
-0.0018184 -0.0007945 -5.0115e-05 0.0019649 0.0010956 -0.0010213 0.14039 0.23681
-0.0088952 -0.01599 0.00096156 0.00046136
0.0015393 0.0025996 0.0019365 0.00064718 0.00078592 -0.00040742 -0.008953 -0.015975
0.061224 0.21831 -0.0038322 -0.013614
0.0016335 -0.0014801 0.0013332 0.00075576 0.00025576 0.0002659 0.00098553 0.00048267
-0.0038125 -0.013599 0.076838 0.31614
1400000000 0.25218 0.19531 -0.023452 -0.0069265 0.0053073 0.0030198 -0.0021151 0.00070595
0.0025517 0.00086718 0.00018095 -0.0014426
-0.02341 -0.0069402 0.080934 0.35916 -0.014642 0.012609 0.0013183 0.0012299
0.0011316 -0.00089738 0.0012276 0.00013667
0.0052945 0.0029916 -0.014599 0.012713 0.35229 0.060337 2.2174e-05 -0.001676
3.9095e-05 -0.00042195 0.0004469 0.00028852
-0.0021094 0.0006981 0.0013312 0.0012307 1.941e-05 -0.0016567 0.16988 0.20792
-0.014595 -0.0090515 -0.00066492 -0.00036628
0.0025284 0.00089328 0.0010962 -0.00091393 2.5333e-05 -0.00042097 -0.014624 -0.0090356
0.094274 0.21388 -0.010368 -0.0087169
0.00016432 -0.0014876 0.001197 0.00016828 0.00041214 0.00028851 -0.00070855 -0.000391
-0.010356 -0.0087279 0.12157 0.30521
1460000000 0.27461 0.15112 -0.020158 0.0051972 0.0056508 -0.0019478 -0.0016233 0.0017173
0.0021474 -0.00061457 -0.00031832 -0.00094573
-0.020158 0.0051919 0.11486 0.33711 -0.0059535 0.015396 0.001687 0.00017338
0.00074812 -0.0012664 0.0011837 -0.00063093
0.0056149 -0.0019798 -0.005875 0.015425 0.35826 0.0061642 -0.0013362 -0.0012295
0.00021643 -0.00030001 0.00054497 -0.00037074
-0.0016396 0.0017307 0.0016748 0.00014941 -0.001345 -0.0012124 0.1963 0.17874
-0.015331 -0.0022962 -0.00083942 0.0019207
0.0021577 -0.00065883 0.00073506 -0.0012824 0.00019011 -0.00032765 -0.015363 -0.0022476
0.12358 0.199 -0.011934 -0.0026745
-0.00036661 -0.00093283 0.0011888 -0.00064641 0.00053607 -0.00041332 -0.00083304 0.0019129
-0.011917 -0.0026606 0.15494 0.28394
1520000000 0.28638 0.10913 -0.014311 0.01056 0.003199 -0.0042582 0.00010219 0.0026263
0.0019652 -0.0017937 -0.0011528 -6.4041e-05
-0.0143 0.010541 0.14812 0.32234 0.0016882 0.013019 0.0015829 -0.00078191
1.6714e-06 -0.00095057 0.00027242 -0.0010252
0.0031936 -0.0042726 0.0017704 0.013014 0.35145 -0.049884 -0.0011148 -0.00030113
0.00062208 -0.00082569 1.6906e-05 -0.00012258
0.00010392 0.0026294 0.00159 -0.0007829 -0.0011034 -0.00030504 0.2194 0.14082
-0.014323 0.003269 0.0014899 0.0019527
0.001935 -0.0017849 -9.6639e-06 -0.00097946 0.00060598 -0.00084575 -0.014322 0.0033139
0.15152 0.18463 -0.011735 0.0018665
-0.0011604 -4.862e-05 0.00023582 -0.0010321 5.3136e-05 -0.00011111 0.0014881 0.0019637
-0.011717 0.0018835 0.18805 0.2635
1580000000 0.29511 0.063001 -0.0075781 0.013432 -0.00085922 -0.0048268 0.0014967 0.0018912
-0.00034213 -0.0021564 -0.00034109 0.00043748
-0.0075806 0.013419 0.17515 0.29756 0.0052711 0.0081878 0.00047588 -0.0015702
-0.00049483 -0.00097548 -0.00026826 -0.00085677
-0.00091152 -0.0048263 0.0053379 0.0081718 0.33137 -0.10739 -0.0015499 0.00065006
-0.00021658 -0.001142 0.00016943 -0.00051481
0.0015113 0.0018727 0.00046516 -0.0015739 -0.0015403 0.00063781 0.23331 0.10154
-0.010507 0.0077494 0.002107 0.00064631
-0.00037381 -0.0021427 -0.00050814 -0.00096976 -0.00024847 -0.0011452 -0.010485 0.0077867
0.17594 0.16639 -0.0092377 0.007469
-0.0002878 0.00042161 -0.00023702 -0.00087643 0.00018106 -0.00048077 0.0021205 0.00064716
-0.0092407 0.0074683 0.22006 0.23627
1640000000 0.2967 0.02194 -0.00094983 0.012074 -0.0027911 -0.00263 0.0027115 0.00096162
-0.00082363 -0.0014765 -0.00032767 0.00059953
-0.00096278 0.012078 0.20434 0.27277 0.0059281 0.0034436 -0.00070065 -0.0017048
-0.00095638 -0.00038377 -0.00055398 -0.00065335
-0.0027946 -0.0026377 0.005954 0.0034144 0.30306 -0.15602 -0.00065191 0.0014678
-0.0012931 -0.00084832 -0.00014298 -0.00036639
0.0027045 0.0009516 -0.00070941 -0.0017004 -0.00065546 0.0014546 0.2455 0.05287
-0.0063315 0.0085591 0.0024581 -0.00075306
-0.00083946 -0.0014401 -0.00097781 -0.00036582 -0.0012923 -0.00088132 -0.0062998 0.0085822
0.19837 0.14178 -0.0044261 0.0094202
-0.00029621 0.00060155 -0.00054272 -0.00063905 -0.00016856 -0.00033777 0.0024877 -0.00078464
-0.004426 0.0094408 0.24546 0.20517
1700000000 0.28935 -0.023098 0.0023195 0.0090849 -0.0035124 -2.5715e-06 0.0029654 -0.0013079
-0.0019663 -0.00058773 0.00064403 0.00035373
0.0023003 0.0090785 0.22244 0.24132 0.0039774 0.00049178 -0.0014551 -0.00058356
-0.00069482 -1.2639e-05 -0.00092407 -0.00042877
-0.0035266 1.3352e-05 0.0039771 0.00045062 0.26021 -0.1958 0.00047969 0.0015575
-0.0018064 -0.00011712 -0.00049997 -0.0009375
0.0029565 -0.0013181 -0.0014613 -0.00057802 0.0004642 0.0015655 0.24243 0.0033886
-0.0037398 0.0086272 0.0015183 -0.0022412
-0.0019837 -0.00057016 -0.00068591 1.4036e-05 -0.0018199 -0.00013063 -0.0037176 0.0086274
0.21548 0.12125 0.00030758 0.0095883
0.00064765 0.00038431 -0.00092322 -0.00044587 -0.00055761 -0.00096384 0.0015479 -0.0022464
0.00029463 0.0095794 0.26182 0.17054
1760000000 0.27695 -0.071308 0.0043504 0.0057831 -0.0023461 0.00099413 0.0012205 -0.0034358
-0.001265 0.00075101 0.00037571 -0.00056605
0.0043098 0.0057851 0.24818 0.20161 0.0016339 -0.0013826 -0.0011765 0.0001827
-0.0010325 0.00085236 -0.00051251 0.00045925
-0.0023827 0.0010114 0.0016545 -0.0014135 0.21215 -0.22988 0.0013106 0.00099351
-0.0010605 0.0015509 -0.0011658 -0.00030026
0.0011926 -0.0034532 -0.0011754 0.00019409 0.0012893 0.0009763 0.23332 -0.047739
-0.00092604 0.0077123 -0.0002578 -0.0025323
-0.0012728 0.00076687 -0.0010187 0.00084726 -0.0010652 0.0015581 -0.00093294 0.0077007
0.22984 0.085942 0.0042573 0.0069581
0.00032583 -0.00057073 -0.00049837 0.00045494 -0.0012095 -0.00036744 -0.00025943 -0.0024868
0.0042473 0.0069604 0.27416 0.13258
1820000000 0.25239 -0.10826 0.0043196 0.00236 -0.00016402 0.0024947 -0.0010889 -0.0030675
-0.00091986 0.00089606 -0.00010863 -0.00015791
0.0043281 0.0023621 0.25816 0.17174 -0.00049087 -0.00016938 -0.0013069 0.00094996
-0.0001245 0.0012541 -0.00051857 0.00051076
-0.00013819 0.0025061 -0.00048498 -0.00018502 0.16119 -0.2457 0.0013679 0.00041542
-0.00022179 0.0021324 -0.0013854 0.00039457
-0.0010591 -0.0030161 -0.0012944 0.00096827 0.0013809 0.00043991 0.20375 -0.094644
0.00020358 0.0061886 -0.0016808 -0.0015825
-0.0009327 0.00091561 -9.0628e-05 0.0012733 -0.00022596 0.0021761 0.00019967 0.0061794
0.24641 0.05668 0.0051423 0.0033681
-8.3772e-05 -0.00017119 -0.00049184 0.00053267 -0.0013756 0.00043017 -0.0017258 -0.0015321
0.00514 0.003348 0.27632 0.096351
1880000000 0.21734 -0.14843 0.0021212 0.00024054 -0.00035747 0.0022492 -0.0029587 -0.0021923
-0.00011341 0.001497 0.00020188 -0.00062588
0.0021088 0.00023818 0.26266 0.12528 -0.0025438 0.0017188 -0.00016229 0.0016479
0.00056118 0.0012519 9.6701e-05 0.00086403
-0.00034937 0.0022633 -0.0025363 0.0017184 0.10833 -0.25528 0.001736 -0.0010203
0.0014785 0.0018861 -0.001033 0.0012887
-0.0029651 -0.0021553 -0.00013165 0.00165 0.0017395 -0.0010122 0.16357 -0.13477
0.00060161 0.0045231 -0.0024672 0.00038918
-0.00011376 0.0015012 0.00055733 0.0012629 0.001449 0.001904 0.0006422 0.0045279
0.24872 0.023937 0.0049736 0.0011925
0.00013472 -0.00059112 0.0001035 0.00085442 -0.0010075 0.0012924 -0.0023937 0.00032254
0.0050006 0.0011732 0.27595 0.062004
1940000000 0.17791 -0.17398 -6.9025e-05 -0.0013283 0.0015903 0.001944 -0.003791 0.00054658
0.0012502 0.00099968 -0.00057931 -0.0005193
-0.00013573 -0.0013417 0.26324 0.093585 -0.0012199 0.0040255 0.0010157 0.0012877
0.0018304 0.00054609 0.00086701 0.00030269
0.001602 0.0019543 -0.0011776 0.0040405 0.062827 -0.24851 0.00044843 -0.0021558
0.002416 0.00036366 0.0002789 0.0015883
-0.0038118 0.00061757 0.0010295 0.0012646 0.00044178 -0.0021656 0.11162 -0.16515
-0.00044466 0.0035554 -0.00151 0.0014672
0.001262 0.00094817 0.0018575 0.00051787 0.0023932 0.00040571 -0.00039781 0.0035622
0.24998 -0.015162 0.0036078 -0.0022464
-0.00061386 -0.0005193 0.00086899 0.00035306 0.00031355 0.0015885 -0.0014453 0.0014731
0.0036432 -0.0022685 0.26483 0.02622
2000000000 0.13195 -0.18875 -0.0039547 0.00076797 0.0024737 0.0014824 -0.002224 0.003692
0.00095804 0.00023607 -0.00057942 0.00029788
-0.0039476 0.0008023 0.24916 0.0581 -0.00087564 0.0058763 0.0016307 0.00037514
0.0013812 -0.0012864 0.0004654 0.00015641
0.0025025 0.0014564 -0.00082659 0.0058855 0.019196 -0.23398 -0.0013216 -0.0013051
0.0019337 -0.0011017 0.0016314 0.0012812
-0.0022716 0.0037418 0.0016007 0.0004025 -0.0013339 -0.0013015 0.058479 -0.17534
-0.0019355 0.0038207 -0.00019595 0.0023642
0.00096046 0.00020913 0.0013404 -0.0013013 0.0019027 -0.0010937 -0.0019214 0.0038992
0.24336 -0.048885 0.00014611 -0.0031129
