!Keysight Technologies,M9804A,MY58100912,A.14.10.03
!Date: Thursday, April 27, 2023 10:28:33
!Correction: S11(C  6-Port  ) 
!S12(C  6-Port  ) 
!S13(C  6-Port  ) 
!S14(C  6-Port  ) 
!S15(C  6-Port  ) 
!S16(C  6-Port  ) 
!S21(C  6-Port  ) 
!S22(C  6-Port  ) 
!S23(C  6-Port  ) 
!S24(C  6-Port  ) 
!S25(C  6-Port  ) 
!S26(C  6-Port  ) 
!S31(C  6-Port  ) 
!S32(C  6-Port  ) 
!S33(C  6-Port  ) 
!S34(C  6-Port  ) 
!S35(C  6-Port  ) 
!S36(C  6-Port  ) 
!S41(C  6-Port  ) 
!S42(C  6-Port  ) 
!S43(C  6-Port  ) 
!S44(C  6-Port  ) 
!S45(C  6-Port  ) 
!S46(C  6-Port  ) 
!S51(C  6-Port  ) 
!S52(C  6-Port  ) 
!S53(C  6-Port  ) 
!S54(C  6-Port  ) 
!S55(C  6-Port  ) 
!S56(C  6-Port  ) 
!S61(C  6-Port  ) 
!S62(C  6-Port  ) 
!S63(C  6-Port  ) 
!S64(C  6-Port  ) 
!S65(C  6-Port  ) 
!S66(C  6-Port  ) 
!S6P File: Measurement: :
# Hz S  RI   R 50
500000000 -0.33841 -0.038005 -0.010485 -0.0023712 -0.0082192 0.013128 -0.0042748 0.012187
0.013231 0.0036478 -0.0042327 0.0079482
-0.010069 -0.002355 -0.41863 -0.050918 0.0076538 -0.010916 0.0014228 0.011975
0.0075975 0.0025261 0.0016269 0.013017
-0.0086592 0.013338 0.0073784 -0.010754 -0.26584 0.20975 0.0071629 0.0036358
-0.0014643 0.0081368 0.0011064 0.012568
-0.0037286 0.012121 0.0015104 0.011949 0.0072616 0.0037648 -0.33032 0.04442
-0.018372 -0.0056676 0.015866 0.025028
0.013513 0.0045164 0.0078866 0.003151 -0.0016344 0.0082027 -0.018994 -0.0055072
-0.22717 -0.19173 -0.025135 0.0046282
-0.0036724 0.008818 0.0019378 0.013322 0.0014888 0.012658 0.01614 0.025318
-0.025603 0.0046864 -0.26918 -0.12641
560000000 -0.31803 0.12338 -0.024378 -0.063194 0.0001663 0.013469 0.0057931 0.011
0.01006 0.0053271 0.010238 0.0066754
-0.024449 -0.062986 -0.37619 0.10811 -0.041539 -0.036207 0.013884 0.0033623
-0.014348 -0.0035376 0.0030308 0.00017917
-0.00037205 0.011897 -0.042044 -0.036759 -0.18334 0.25802 7.0008e-05 -0.0047935
0.019926 0.0043309 0.0061438 -0.0062822
0.0058959 0.010986 0.014009 0.0028963 0.00017608 -0.005075 -0.30592 0.13403
0.0040095 -0.023969 0.0050644 -0.021551
0.0094945 0.0048828 -0.014177 -0.0038004 0.019588 0.0044043 0.0043062 -0.02411
-0.29009 -0.01785 0.0076463 -0.048912
0.01012 0.0064741 0.0024825 -0.00043423 0.0059419 -0.0058762 0.0047056 -0.022165
0.0083305 -0.048378 -0.32934 0.021176
620000000 -0.27465 0.10796 -0.023294 0.0080194 0.0035163 0.0088531 0.0083813 -0.0052735
0.011861 0.00032967 0.0011034 -0.0031096
-0.023267 0.0079913 -0.40269 0.060255 -0.018767 0.00037039 -0.0017027 -0.0019367
0.011454 -0.0066729 0.0017971 -0.0029417
0.0038428 0.0081312 -0.018737 0.00029776 -0.15314 0.26774 -0.0012649 -0.0050445
-0.002976 -0.0032852 0.0093238 -0.0030069
0.0093161 -0.004778 -0.0014834 -0.0018516 -0.0015571 -0.0047657 -0.26463 0.14357
-0.038417 -0.018904 0.012142 0.025892
0.011299 -0.00080763 0.011625 -0.0070919 -0.003042 -0.0032064 -0.038119 -0.018729
-0.20808 -0.055316 -0.041073 0.01301
0.0010599 -0.0024985 0.0016824 -0.0029676 0.0092462 -0.0024477 0.012214 0.025147
-0.040848 0.014053 -0.25223 -0.013619
680000000 -0.23425 0.19371 -0.027154 -0.013618 0.005256 0.0051977 0.0014929 -0.0068821
-0.0030182 -0.011584 0.0044089 -0.0065124
-0.027013 -0.013718 -0.38734 0.15803 -0.032836 -0.0011198 -0.0016444 -0.0002195
-0.002065 -0.0090986 -0.0015301 -0.0019415
0.0054185 0.0052181 -0.032677 -0.00090017 -0.10203 0.28676 -0.00090274 5.7322e-05
-0.0020452 0.00037293 -0.003394 -0.0093167
0.00095167 -0.0069507 -0.0018807 -9.6388e-05 -0.00085411 1.9217e-05 -0.22085 0.19434
-0.023909 -0.0072056 -0.009697 -0.0097365
-0.0027939 -0.010988 -0.0019471 -0.0093098 -0.001871 0.00034923 -0.023904 -0.0070776
-0.25938 0.043436 -0.0057666 -0.0084124
0.0043898 -0.006712 -0.0016196 -0.0017744 -0.0032606 -0.0096514 -0.0092065 -0.01003
-0.0060526 -0.0085895 -0.26067 0.093848
740000000 -0.18997 0.1884 -0.03828 0.026732 0.01313 -0.0052994 -0.00042963 -0.0040127
-0.004459 -0.0033746 -0.0065579 0.0028324
-0.038366 0.026748 -0.33524 0.17712 -0.035231 0.035099 -0.00058586 -0.0060989
-0.011441 0.0079146 -0.0023792 -0.0063439
0.013008 -0.0053152 -0.035326 0.035068 -0.068516 0.28482 -0.0019038 0.0035326
-0.0026628 -0.0049539 -0.0013888 0.00062771
-0.00042596 -0.0040629 -0.00092047 -0.0062332 -0.0018905 0.0036318 -0.20306 0.20221
-0.04338 -0.0068611 0.02352 0.014689
-0.0039105 -0.0025959 -0.011512 0.0079321 -0.0025412 -0.0052469 -0.04374 -0.0069453
-0.16173 0.069158 -0.043556 0.000749
-0.0062617 0.0027098 -0.0024047 -0.0062888 -0.0020001 0.0010976 0.023517 0.014961
-0.043201 0.00051681 -0.24734 0.098056
800000000 -0.15741 0.22875 -0.022527 0.016949 0.0054716 -0.010713 -0.0047662 -0.0016112
-0.0039714 0.0029708 0.0041718 0.0010648
-0.022536 0.016884 -0.33822 0.24632 -0.0079552 0.034131 -0.0024875 0.0023464
-0.00091454 0.0034676 0.00081701 0.005575
0.0053196 -0.010691 -0.0079082 0.034276 -0.028002 0.30799 0.0010459 0.0016073
0.00045931 0.0035136 -0.0015961 0.0011685
-0.0051787 -0.0015506 -0.0025143 0.0024369 0.0010435 0.0014917 -0.17526 0.2301
-0.028396 0.014204 0.013236 -0.0098847
-0.0045006 0.003352 -0.00080204 0.0034424 0.00043763 0.0035762 -0.028222 0.013944
-0.20543 0.094335 -0.017375 0.019359
0.0039941 0.00098552 0.00075694 0.0055501 -0.0020122 0.00074099 0.013259 -0.0097548
-0.017201 0.019198 -0.24207 0.14846
860000000 -0.12204 0.24833 -0.017269 0.030774 -0.0032947 -0.010135 -0.0024758 0.0010864
0.0042271 0.0050163 -0.0034569 -0.0027086
-0.017329 0.030735 -0.2907 0.28826 0.0081277 0.034337 9.3965e-05 0.0020939
0.0045093 -9.1928e-05 0.0035062 0.00079822
-0.003295 -0.010019 0.0082443 0.034443 0.019992 0.31614 -0.00053351 -0.00024343
0.0028698 -0.0016418 0.0017432 0.0042808
-0.002501 0.00096679 -0.00013808 0.0022615 -0.00060049 -0.00027543 -0.13929 0.24081
-0.018272 0.01888 -0.0057065 -0.0093068
0.0044141 0.0048926 0.0045876 7.0538e-05 0.0030641 -0.001499 -0.018036 0.018843
-0.15414 0.14433 -0.024613 0.015557
-0.0038729 -0.0024647 0.0034701 0.0010908 0.0018264 0.0044305 -0.0058011 -0.0093339
-0.024717 0.015742 -0.19067 0.19224
920000000 -0.097088 0.27096 0.0055358 0.037632 -0.0095452 -0.0046061 -0.0016351 0.0019268
0.0011403 0.0018924 0.002749 -0.0019733
0.0054629 0.037602 -0.2617 0.30962 0.028473 0.021976 0.0016318 0.0010881
0.0074474 -0.00075717 0.0039545 -0.0028019
-0.009535 -0.0046063 0.02861 0.02186 0.066334 0.31705 0.0018936 -0.00011744
0.0013362 -0.00047875 0.0007577 -0.0012995
-0.0016762 0.0019103 0.0016024 0.0010895 0.0018948 -0.00021745 -0.11525 0.25832
-0.010441 0.030527 0.0031333 -0.0068128
0.0012253 0.0018246 0.0073292 -0.00070768 0.0013484 -0.00044693 -0.010466 0.030613
-0.14402 0.14927 -0.0025575 0.027349
0.0027395 -0.0016582 0.0040723 -0.0027348 0.00077227 -0.0013668 0.0033628 -0.006826
-0.0026086 0.027133 -0.19862 0.20632
980000000 -0.050244 0.28966 0.017799 0.02978 -0.0092343 0.004518 0.0019808 0.0033315
0.0040062 -0.0016752 -0.003181 -0.0022504
0.017728 0.029692 -0.20888 0.34338 0.03341 0.0045791 0.0019539 -0.00024947
0.0014742 -0.006253 -0.00037823 -0.0023887
-0.0091856 0.004507 0.033529 0.0045612 0.11279 0.31046 0.0004689 -0.0012492
0.00016582 -0.0022009 0.0015862 -0.00028294
0.0021057 0.0033363 0.0019139 -0.00023926 0.00047389 -0.001264 -0.077042 0.26956
0.0082592 0.030336 -0.0088179 -0.0070509
0.0039028 -0.0017452 0.0015939 -0.0062133 0.00019616 -0.0022641 0.0082256 0.030307
-0.11358 0.17902 0.005682 0.019485
-0.0032343 -0.0023487 -0.00058193 -0.0021705 0.0014307 -0.0002631 -0.008985 -0.0072175
0.0055539 0.020067 -0.15468 0.25039
1040000000 -0.0082952 0.29834 0.033401 0.017702 -0.0014068 0.0069936 0.002517 0.00074403
-0.00012426 -0.003576 -0.0004467 -0.0015865
0.033381 0.01772 -0.17352 0.35659 0.029553 -0.015355 0.0013388 -0.0017577
-0.0025817 -0.0026709 -0.0015425 -0.0027902
-0.0014212 0.0070029 0.029458 -0.015456 0.15927 0.29686 -0.00056859 -0.0014782
-0.0016412 -0.00092224 -0.00063527 -0.0011455
0.0025332 0.00066419 0.0014227 -0.001851 -0.00059937 -0.0014896 -0.049294 0.28012
0.019685 0.017954 -0.0025482 0.0013372
-7.3106e-05 -0.0036451 -0.0026185 -0.0026717 -0.0016473 -0.00085586 0.019717 0.017893
-0.081182 0.18609 0.013824 0.018475
-0.00066804 -0.0014741 -0.0016044 -0.002893 -0.00067726 -0.0011035 -0.0025592 0.0015245
0.013553 0.018464 -0.13366 0.27118
1100000000 0.037118 0.30615 0.036065 -0.0046858 0.0028597 0.0039024 0.0023095 -0.001321
-0.0021408 -0.0030902 -0.0039654 0.00018541
0.036054 -0.0046758 -0.13009 0.37414 0.01502 -0.028463 -7.2596e-05 -0.0018101
-0.0035839 -0.00062849 -0.003626 -0.00038409
0.0028974 0.0039359 0.014939 -0.028556 0.20614 0.27626 -0.0019109 0.00031208
-0.0018124 0.00063407 -0.0010726 -0.00031509
0.0023147 -0.0012877 -3.5551e-05 -0.0018238 -0.0019258 0.0002931 -0.0086916 0.28515
0.024978 0.0045752 -0.0026963 0.00036957
-0.0020398 -0.00301 -0.0035941 -0.00057034 -0.0018154 0.00060937 0.025037 0.004574
-0.063632 0.20041 0.019588 0.0086982
-0.0040543 0.00020123 -0.0035243 -0.00041197 -0.0010934 -0.00030688 -0.0026673 0.00033165
0.019334 0.008543 -0.087807 0.30018
1160000000 0.088183 0.30111 0.023714 -0.021392 0.0026185 -0.00042408 -0.00025456 -0.0023198
-0.0043277 -0.00062724 -0.00082504 0.0042022
0.023698 -0.021307 -0.086259 0.37868 -0.0043291 -0.029455 -0.0017776 -0.0017353
-0.0025435 0.0026238 -0.0013981 0.0019737
0.00264 -0.00038263 -0.0044496 -0.029461 0.24931 0.24471 -0.00068212 0.0018195
-0.00051602 0.0020122 -0.0011049 0.00025794
-0.00031229 -0.0023644 -0.0017459 -0.00168 -0.00071655 0.0017631 0.030924 0.28239
0.021052 -0.011274 -0.0029534 0.0050987
-0.0043106 -0.00064721 -0.0025913 0.0026632 -0.0005195 0.0020594 0.02099 -0.011251
-0.029998 0.20969 0.018501 0.00011152
-0.0010206 0.0041961 -0.0014507 0.0020272 -0.0010245 0.00027918 -0.0028979 0.0051974
0.018489 -1.6188e-05 -0.040761 0.30331
1220000000 0.13279 0.29002 0.0098674 -0.030474 -0.0015862 -0.00075279 -2.3903e-05 -0.00088452
-0.0027005 0.0025079 0.0013659 0.0021992
0.0098714 -0.030444 -0.041426 0.39076 -0.017517 -0.021191 -0.0025445 0.00049786
0.00021991 0.0031007 -0.0006839 0.0019369
-0.0016024 -0.00074837 -0.017633 -0.021132 0.28827 0.20485 0.00088904 0.0016646
0.00070662 0.0012279 0.00035781 0.00077909
-8.1174e-05 -0.00087765 -0.0025387 0.00052373 0.00091254 0.0016564 0.071046 0.27372
0.0099949 -0.017759 0.0021687 0.0015365
-0.0026913 0.0025916 0.00022888 0.0031441 0.00071521 0.0012087 0.0099549 -0.017766
-0.0070668 0.21932 0.01416 -0.013434
0.0013887 0.0021274 -0.00069135 0.0019469 0.00027968 0.00071132 0.002271 0.0014918
0.014093 -0.013478 -0.0093212 0.31976
1280000000 0.18265 0.2679 -0.0087528 -0.028569 -0.0019311 0.0026943 -0.00094074 -0.0019624
-0.00067027 0.0031965 0.0025298 0.0010344
-0.0087067 -0.028559 0.0051442 0.38163 -0.024338 -0.0081345 -0.00093549 0.0015336
0.001868 0.0017615 0.00061504 0.002073
-0.0018806 0.0027255 -0.024355 -0.0080187 0.31809 0.16042 0.0015527 -0.00010256
0.0011939 0.00017558 0.0002617 0.00035743
-0.0009668 -0.00197 -0.00095335 0.0015158 0.0015573 -0.00014965 0.10799 0.25707
-5.9072e-05 -0.019437 8.5511e-05 0.00024497
-0.00062765 0.0031526 0.0018596 0.0016521 0.0011471 0.00020373 -2.9387e-05 -0.019477
0.029849 0.22348 0.0027615 -0.015558
0.0026205 0.0010462 0.00064212 0.0020914 0.00036494 0.00033539 5.3662e-05 0.00016226
0.0028198 -0.015466 0.038616 0.32149
1340000000 0.21976 0.23357 -0.01842 -0.018501 0.00107 0.0045555 -0.0017402 -0.00084426
0.001658 0.0026282 0.0016371 -0.0014639
-0.018417 -0.018471 0.044739 0.37266 -0.021739 0.0048937 1.0402e-06 0.0019825
0.0019581 0.00061845 0.0013959 0.00078884
0.0010459 0.0045943 -0.021738 0.0049992 0.33909 0.11255 0.0011173 -0.0010191
0.00071571 -0.00044789 0.00020521 0.00033365
-0.0016986 -0.00078142 3.874e-05 0.0019536 0.0011375 -0.0010351 0.14063 0.23654
-0.0094327 -0.016111 0.00089915 0.00057016
0.0017037 0.0026935 0.0019738 0.00064439 0.00070543 -0.00045081 -0.0094253 -0.016109
0.060697 0.21919 -0.0041006 -0.014082
0.0016394 -0.0014835 0.0014364 0.00082323 0.00024345 0.00033536 0.00097787 0.00060585
-0.0040956 -0.013994 0.076992 0.31639
1400000000 0.25283 0.1949 -0.023769 -0.0066802 0.005414 0.0031111 -0.0021579 0.00069849
0.0026105 0.0008708 8.6669e-05 -0.0015272
-0.023719 -0.0066825 0.081995 0.35887 -0.014627 0.012952 0.0013802 0.0012083
0.0011593 -0.00092877 0.0012484 0.00011365
0.0054004 0.003065 -0.014572 0.013034 0.35185 0.059561 -3.551e-05 -0.0016681
0.00010016 -0.00042152 0.00044245 0.00024838
-0.0021615 0.00073393 0.0013597 0.0012191 -8.715e-05 -0.0016636 0.16996 0.20754
-0.015144 -0.0089585 -0.00069477 -0.00018098
0.0025898 0.00082611 0.0011518 -0.00092858 4.7154e-05 -0.0003567 -0.015144 -0.0088947
0.093945 0.21466 -0.010771 -0.00897
0.00012504 -0.0014477 0.0012855 0.00010973 0.00044801 0.00028429 -0.00072127 -0.00026152
-0.010857 -0.0089703 0.12175 0.30521
1460000000 0.27497 0.1504 -0.020332 0.0056236 0.005709 -0.0020148 -0.0015283 0.0017634
0.0022131 -0.00072525 -0.00048197 -0.0009868
-0.020304 0.0056003 0.11565 0.33642 -0.0057198 0.015656 0.0016932 0.00016466
0.00075897 -0.0012855 0.0011908 -0.00056284
0.0056964 -0.0020277 -0.0056247 0.01569 0.35748 0.0059076 -0.0012684 -0.0011611
0.00032372 -0.00028867 0.00066607 -0.00039391
-0.0015713 0.0018016 0.0016784 0.00012996 -0.001248 -0.001155 0.19609 0.17836
-0.015716 -0.0018482 -0.00074715 0.0019485
0.0022104 -0.00063361 0.00076169 -0.0012394 0.00031685 -0.00024901 -0.015686 -0.0017969
0.12367 0.19986 -0.012352 -0.0025921
-0.00043507 -0.00097821 0.0011208 -0.00068463 0.00064349 -0.00038382 -0.00075982 0.0019917
-0.012511 -0.0026805 0.15498 0.2836
1520000000 0.28647 0.10837 -0.014224 0.010987 0.0032569 -0.0043839 0.000136 0.0026194
0.0019016 -0.0018531 -0.0011771 -3.1977e-05
-0.014235 0.011011 0.14861 0.32146 0.0019835 0.01307 0.0015871 -0.00083965
-3.9343e-05 -0.00097747 0.00027564 -0.0010466
0.0032576 -0.0043926 0.002072 0.013077 0.35091 -0.049872 -0.0010973 -0.00031164
0.00063334 -0.00093897 2.0185e-05 -0.00017709
0.00013673 0.0025554 0.0016053 -0.00085711 -0.001127 -0.00031679 0.21908 0.14057
-0.014273 0.0039251 0.0015469 0.0020723
0.0018466 -0.0018487 -7.1064e-05 -0.00094557 0.00061414 -0.00094079 -0.014313 0.003981
0.15157 0.1855 -0.012139 0.0022962
-0.0011565 -0.00011388 0.00026482 -0.0010914 7.5298e-05 -0.00013288 0.0015476 0.0020295
-0.012021 0.0021948 0.18816 0.26294
1580000000 0.29512 0.062165 -0.0072457 0.013768 -0.00090254 -0.0048991 0.0014508 0.0018913
-0.00038608 -0.0021786 -0.00026223 0.00036055
-0.0072448 0.013742 0.17525 0.29665 0.0055048 0.0080818 0.00042962 -0.0015655
-0.0004863 -0.00098629 -0.0002727 -0.00089781
-0.00092734 -0.0048823 0.0055442 0.0080511 0.33119 -0.10725 -0.0014926 0.000686
-0.00029053 -0.0011957 0.00019814 -0.00061755
0.0015105 0.0018348 0.0003997 -0.0016259 -0.0015725 0.0006772 0.233 0.10126
-0.01014 0.0084043 0.0022338 0.0005488
-0.00043797 -0.0021932 -0.0005354 -0.00099375 -0.00035674 -0.0011822 -0.010059 0.0084101
0.17597 0.16687 -0.0093475 0.0079925
-0.00030211 0.00031958 -0.00032999 -0.0008949 0.00025526 -0.00055855 0.0022293 0.00053264
-0.0093138 0.008085 0.21998 0.23585
1640000000 0.29628 0.021214 -0.0005254 0.012133 -0.0029159 -0.0026264 0.0027659 0.00094818
-0.000909 -0.0013821 -0.00022656 0.0005434
-0.00052905 0.012122 0.20416 0.27194 0.0060039 0.0032444 -0.00072893 -0.0017099
-0.00096118 -0.00036534 -0.00057144 -0.00063207
-0.0029124 -0.0026225 0.006025 0.0032201 0.30297 -0.15623 -0.0006665 0.0014538
-0.0012709 -0.00086911 -0.00023003 -0.00036673
0.0027626 0.00092071 -0.00071306 -0.0017066 -0.00067705 0.0014531 0.24493 0.052811
-0.0056842 0.0087201 0.0024656 -0.00072829
-0.00088325 -0.0013781 -0.0009672 -0.00035988 -0.0012933 -0.00084962 -0.0056835 0.0087302
0.19834 0.14195 -0.0042601 0.0099391
-0.0002926 0.00054438 -0.00054026 -0.00067082 -0.00016693 -0.00037005 0.0024727 -0.00079248
-0.0042565 0.0099889 0.24549 0.20501
1700000000 0.28877 -0.023485 0.0026592 0.0088981 -0.0035599 2.2956e-05 0.0029113 -0.0013364
-0.0020128 -0.00053063 0.0006768 0.00036936
0.0026506 0.0088909 0.22197 0.24081 0.0039006 0.00033542 -0.0014792 -0.0005448
-0.0006489 -2.0522e-05 -0.00094796 -0.00038118
-0.0035263 2.7017e-05 0.0039199 0.0003184 0.25997 -0.19601 0.00046847 0.0015272
-0.0018123 -7.2198e-05 -0.00051773 -0.00086377
0.0029051 -0.001341 -0.0015044 -0.00056126 0.00041643 0.00147 0.24203 0.0036182
-0.0031721 0.0085028 0.001618 -0.0022388
-0.0020044 -0.00051029 -0.00068365 -3.4869e-05 -0.0018942 -8.0904e-05 -0.0030946 0.0085508
0.21545 0.12132 0.00075832 0.010051
0.00062589 0.00035653 -0.00093888 -0.00035621 -0.00051673 -0.00090253 0.0015772 -0.0023454
0.00063173 0.010015 0.26183 0.17024
1760000000 0.27642 -0.07137 0.0044699 0.0054236 -0.0024792 0.00093677 0.0011593 -0.0034066
-0.0012612 0.00075316 0.00042983 -0.00050944
0.0044615 0.0054194 0.24769 0.2014 0.0015458 -0.0014671 -0.0011911 0.00023457
-0.0010392 0.00081202 -0.00045852 0.00049542
-0.0024603 0.00091781 0.0015444 -0.001483 0.21195 -0.22989 0.00124 0.0010511
-0.0010726 0.0016168 -0.0012995 -0.00036931
0.0011174 -0.0033971 -0.001195 0.00025939 0.0013068 0.0010238 0.23302 -0.047369
-0.00059103 0.0073044 -0.00032521 -0.0025133
-0.0012782 0.0008548 -0.0010321 0.00080737 -0.0010266 0.00157 -0.00057411 0.0072705
0.22959 0.085963 0.0046255 0.007147
0.00044645 -0.00056543 -0.00043544 0.00052632 -0.0013381 -0.00031007 -0.00029327 -0.0024787
0.0047627 0.0070892 0.27418 0.13254
1820000000 0.25204 -0.10814 0.004283 0.002079 -0.00025924 0.0025933 -0.0010597 -0.0030467
-0.00083685 0.00090953 -5.6515e-05 -0.00020761
0.0042719 0.0020865 0.25772 0.17181 -0.00050548 -0.00017471 -0.0012624 0.0009775
-0.00010696 0.0012636 -0.00043726 0.00054776
-0.00018839 0.0025475 -0.00049567 -0.00020536 0.16126 -0.24552 0.0014114 0.0004372
-0.00013671 0.0021731 -0.0013437 0.00040389
-0.0010398 -0.0030448 -0.0012562 0.00093455 0.001476 0.00035188 0.20373 -0.094091
9.0518e-05 0.0056211 -0.001533 -0.0016948
-0.00085258 0.00089897 -9.8854e-05 0.0012282 -0.00011599 0.0022541 0.00014324 0.0056234
0.24584 0.056719 0.0056758 0.0032285
-0.00010301 -0.00019775 -0.00048295 0.00053799 -0.0014306 0.00033245 -0.0016361 -0.0016475
0.0056225 0.0033154 0.27643 0.096067
1880000000 0.21721 -0.14825 0.0019697 7.9659e-05 -0.00044746 0.0022992 -0.0028736 -0.0020895
-9.1888e-05 0.0014984 0.00020218 -0.00046859
0.0019358 8.565e-05 0.26246 0.12561 -0.0025736 0.0016052 -8.1743e-05 0.0016746
0.00053363 0.0012852 0.00017836 0.00079196
-0.00036924 0.0023292 -0.0025606 0.0016062 0.10851 -0.25557 0.0018342 -0.0010556
0.001526 0.0018503 -0.0010389 0.0012912
-0.0029514 -0.0020359 -6.605e-05 0.0016726 0.0018129 -0.00099037 0.1639 -0.13442
0.0004478 0.0041967 -0.0024629 0.00029538
-9.0604e-05 0.0015571 0.00056105 0.0012794 0.001506 0.0018738 0.00041986 0.0041347
0.24797 0.024235 0.0054356 0.00085713
0.00022223 -0.00049585 0.00022156 0.00080863 -0.0008465 0.001328 -0.0025454 0.0003106
0.0055254 0.00088422 0.27618 0.061649
1940000000 0.1782 -0.17386 -0.00026436 -0.0013422 0.0016539 0.0020716 -0.0038077 0.0005116
0.0013012 0.00088853 -0.00063422 -0.00042318
-0.00023424 -0.0013773 0.26328 0.093979 -0.0013304 0.0039732 0.0010182 0.0012576
0.0018568 0.00053229 0.00081302 0.00029166
0.0016362 0.0020198 -0.0013034 0.0039614 0.062683 -0.2492 0.00045259 -0.0021079
0.0024515 0.0002885 0.00051917 0.0015213
-0.0037423 0.00046041 0.0011054 0.0012403 0.00042565 -0.0021297 0.11194 -0.16487
-0.00079155 0.0033169 -0.0015738 0.0015916
0.0013665 0.00091644 0.0019004 0.00056356 0.0023687 0.0003202 -0.00081907 0.0033614
0.2492 -0.014438 0.0038996 -0.0027842
-0.00063936 -0.00048946 0.00077548 0.00025359 0.00056163 0.0016763 -0.0015074 0.0015045
0.0038814 -0.0028483 0.26496 0.025755
2000000000 0.13205 -0.18895 -0.0039538 0.00074508 0.0025746 0.0014694 -0.0022526 0.0037329
0.00099248 0.00018095 -0.00065288 0.00050783
-0.003974 0.00077446 0.24955 0.058466 -0.00098828 0.0059313 0.0016193 0.00033819
0.00141 -0.0012218 0.00035744 0.00016626
0.0026182 0.0013648 -0.00094315 0.0059579 0.018608 -0.23424 -0.0013472 -0.0013224
0.0019159 -0.0011136 0.0017113 0.0013133
-0.0022325 0.0037403 0.0015662 0.00032871 -0.0013575 -0.001314 0.05905 -0.17556
-0.002311 0.0038118 -0.000272 0.0025113
0.00093962 0.00023016 0.001344 -0.0012608 0.001891 -0.0011836 -0.0020572 0.0037908
