!Keysight Technologies,M9804A,MY58100912,A.14.10.03
!Date: Thursday, April 27, 2023 10:28:33
!Correction: S11(C  6-Port  ) 
!S12(C  6-Port  ) 
!S13(C  6-Port  ) 
!S14(C  6-Port  ) 
!S15(C  6-Port  ) 
!S16(C  6-Port  ) 
!S21(C  6-Port  ) 
!S22(C  6-Port  ) 
!S23(C  6-Port  ) 
!S24(C  6-Port  ) 
!S25(C  6-Port  ) 
!S26(C  6-Port  ) 
!S31(C  6-Port  ) 
!S32(C  6-Port  ) 
!S33(C  6-Port  ) 
!S34(C  6-Port  ) 
!S35(C  6-Port  ) 
!S36(C  6-Port  ) 
!S41(C  6-Port  ) 
!S42(C  6-Port  ) 
!S43(C  6-Port  ) 
!S44(C  6-Port  ) 
!S45(C  6-Port  ) 
!S46(C  6-Port  ) 
!S51(C  6-Port  ) 
!S52(C  6-Port  ) 
!S53(C  6-Port  ) 
!S54(C  6-Port  ) 
!S55(C  6-Port  ) 
!S56(C  6-Port  ) 
!S61(C  6-Port  ) 
!S62(C  6-Port  ) 
!S63(C  6-Port  ) 
!S64(C  6-Port  ) 
!S65(C  6-Port  ) 
!S66(C  6-Port  ) 
!S6P File: Measurement: :
# Hz S  RI   R 50
500000000 -0.33733 -0.03791 -0.01066 -0.0028028 -0.0083134 0.013263 -0.004636 0.012419
0.01295 0.0034102 -0.005212 0.0089326
-0.010629 -0.0028105 -0.41889 -0.050879 0.0076604 -0.010776 0.0016896 0.011663
0.0076455 0.0020336 0.0020655 0.012936
-0.0083029 0.013269 0.0076808 -0.010799 -0.26591 0.21003 0.007311 0.0035571
-0.0018016 0.0075663 0.0013813 0.012077
-0.0046009 0.012408 0.0017201 0.01167 0.0073051 0.0035827 -0.33059 0.043598
-0.018581 -0.0054651 0.016087 0.024068
0.012971 0.0033906 0.0076489 0.0020037 -0.0018196 0.0076095 -0.018583 -0.0054523
-0.2284 -0.18961 -0.025961 0.0051628
-0.0051763 0.0089258 0.0021558 0.013033 0.0013943 0.012104 0.016093 0.024047
-0.025989 0.0052011 -0.27107 -0.12577
560000000 -0.31758 0.12478 -0.024613 -0.063819 0.00065378 0.01231 0.0051271 0.010536
0.01021 0.004279 0.010611 0.0073784
-0.024603 -0.063779 -0.37765 0.10864 -0.041426 -0.03725 0.013623 0.0043283
-0.013445 -0.0039882 0.0022794 0.0008653
0.00066576 0.012334 -0.041586 -0.037224 -0.18343 0.25848 -0.00055126 -0.0046109
0.019439 0.0050228 0.0068185 -0.0065017
0.005153 0.010531 0.013696 0.0043546 -0.00055914 -0.0046235 -0.30503 0.13398
0.0043186 -0.023401 0.003956 -0.020752
0.010254 0.0042692 -0.013475 -0.0039628 0.019436 0.0049877 0.0042819 -0.023397
-0.29023 -0.014969 0.0085929 -0.048927
0.010655 0.0073523 0.0022918 0.00086611 0.0068105 -0.0064909 0.0039526 -0.020743
0.0086253 -0.04895 -0.33085 0.023796
620000000 -0.2752 0.10787 -0.023547 0.0083335 0.0032013 0.0090126 0.007933 -0.0046799
0.011897 -0.00095741 0.0017108 -0.0025991
-0.023537 0.0083377 -0.40288 0.060753 -0.018652 0.00022222 -0.0015861 -0.0018005
0.011207 -0.0067438 0.0013934 -0.0028712
0.0032688 0.0089898 -0.018697 0.00027626 -0.15259 0.26722 -0.0011364 -0.0044296
-0.0035109 -0.0035561 0.0084993 -0.0020046
0.0079402 -0.0046815 -0.0016161 -0.0017835 -0.0011379 -0.0044406 -0.26493 0.14484
-0.037725 -0.019074 0.011233 0.025852
0.011861 -0.00093996 0.011256 -0.0067976 -0.0034741 -0.0035604 -0.037746 -0.019038
-0.21034 -0.053209 -0.039585 0.013028
0.0017275 -0.0025714 0.001379 -0.002922 0.0084799 -0.0020597 0.011276 0.025814
-0.039625 0.013027 -0.25305 -0.010289
680000000 -0.23426 0.19411 -0.027256 -0.013777 0.0052667 0.0050637 0.0014725 -0.0070274
-0.0027455 -0.011584 0.0048373 -0.0066222
-0.027238 -0.013783 -0.38744 0.15839 -0.032641 -0.001033 -0.0018123 -0.00026482
-0.001901 -0.0088081 -0.0015412 -0.0021711
0.0052489 0.0050385 -0.032684 -0.00094266 -0.10188 0.28723 -0.00096353 -0.0001965
-0.0019101 0.00042671 -0.0031217 -0.0096441
0.0014563 -0.0070244 -0.0018126 -0.0002626 -0.00094914 -0.00018463 -0.22031 0.19512
-0.02376 -0.0072769 -0.0093336 -0.010194
-0.0027615 -0.011563 -0.0019223 -0.0087991 -0.001913 0.0004239 -0.023783 -0.0072691
-0.25768 0.045139 -0.0066817 -0.008123
0.0048396 -0.006581 -0.0015313 -0.0021661 -0.0031086 -0.0096421 -0.009355 -0.010191
-0.0066739 -0.0081382 -0.25898 0.094079
740000000 -0.18974 0.18822 -0.038243 0.026913 0.012884 -0.0054752 -0.00036628 -0.0039484
-0.0044715 -0.0028746 -0.0062151 0.0025812
-0.038233 0.026846 -0.33497 0.17688 -0.035088 0.034844 -0.00075212 -0.0066959
-0.011898 0.0088646 -0.00186 -0.0066555
0.012867 -0.0055407 -0.035013 0.034979 -0.068112 0.28497 -0.0017646 0.0031497
-0.0028934 -0.0049033 -0.0015333 0.00072142
-0.00037605 -0.0039454 -0.00076623 -0.0067259 -0.0017575 0.0031525 -0.20313 0.20261
-0.043536 -0.0064521 0.023479 0.014509
-0.0044603 -0.0028386 -0.011864 0.0089154 -0.0029219 -0.0048936 -0.043572 -0.0064052
-0.16001 0.071173 -0.043271 0.0013402
-0.0062444 0.0026328 -0.0018233 -0.0066697 -0.001551 0.0007321 0.023511 0.014511
-0.043225 0.0013294 -0.2469 0.10021
800000000 -0.15698 0.22824 -0.022352 0.016782 0.0052477 -0.010658 -0.0048213 -0.0017674
-0.0045902 0.0027086 0.0042174 0.00051483
-0.022333 0.01677 -0.33787 0.24674 -0.0078775 0.034116 -0.0023586 0.00223
-0.0010283 0.0031917 0.0011745 0.0052465
0.0052203 -0.010656 -0.0077851 0.034152 -0.027797 0.30814 0.0010216 0.001505
0.00030864 0.0035328 -0.001933 0.00099779
-0.004855 -0.0017543 -0.0023459 0.0022369 0.0010283 0.0015142 -0.17506 0.23028
-0.028461 0.013829 0.013201 -0.0099545
-0.0045674 0.0027358 -0.0010234 0.0032011 0.00031062 0.0035295 -0.028462 0.013891
-0.20507 0.095821 -0.016671 0.018943
0.0042074 0.00048848 0.0011985 0.0052467 -0.0019232 0.0010114 0.01319 -0.0099669
-0.016691 0.018925 -0.242 0.1486
860000000 -0.12232 0.24848 -0.017003 0.03058 -0.0033648 -0.010108 -0.002452 0.0008614
0.0040287 0.0049663 -0.0030717 -0.0027059
-0.017007 0.03056 -0.29013 0.28887 0.0080507 0.034373 0.00020836 0.0020413
0.0046611 -0.00020973 0.0031999 0.00088209
-0.003373 -0.0101 0.0081591 0.034381 0.019907 0.31605 -0.00062635 -0.00016367
0.0027259 -0.00172 0.0018447 0.0040981
-0.0024477 0.00086181 0.00022293 0.0020585 -0.00062729 -0.00016161 -0.13887 0.24115
-0.017709 0.018701 -0.0057866 -0.0092921
0.0040353 0.0049458 0.0046781 -0.00023952 0.0027277 -0.0017307 -0.017681 0.018744
-0.15352 0.14533 -0.024427 0.015772
-0.0030847 -0.002696 0.0031984 0.00087082 0.0018482 0.0040926 -0.0057848 -0.009278
-0.024436 0.01578 -0.18956 0.19398
920000000 -0.097226 0.2709 0.0053946 0.037664 -0.00956 -0.0046887 -0.0017468 0.0018226
0.001408 0.0017622 0.0028978 -0.0018117
0.0053845 0.037647 -0.26145 0.3099 0.02844 0.021892 0.00144 0.0011722
0.0074997 -0.00041674 0.0040556 -0.0029869
-0.0095579 -0.0046572 0.028529 0.021818 0.066462 0.31703 0.0018103 -8.6074e-05
0.0013679 -0.00048825 0.00079043 -0.0012719
-0.0017366 0.0018195 0.0014692 0.0011815 0.0018193 -7.8662e-05 -0.11493 0.25842
-0.010456 0.03046 0.0034384 -0.0069368
0.001416 0.0017675 0.0074915 -0.00046503 0.0013595 -0.00048952 -0.010403 0.030504
-0.14209 0.15063 -0.0029301 0.026575
0.002865 -0.0018106 0.0040471 -0.0029826 0.00077536 -0.0012573 0.0034226 -0.0069376
-0.0029463 0.026571 -0.19709 0.20777
980000000 -0.05013 0.29015 0.017741 0.029776 -0.0091514 0.0044918 0.0020151 0.003278
0.0039223 -0.0017028 -0.0032868 -0.002203
0.017703 0.029774 -0.20867 0.34356 0.033407 0.0046261 0.0020023 -0.00025042
0.0014735 -0.0060567 -0.00049867 -0.0023312
-0.0091322 0.004528 0.033458 0.0044949 0.11287 0.31042 0.00047681 -0.0012433
0.00012816 -0.0022211 0.0013876 -0.00021397
0.0020229 0.0032575 0.0020159 -0.0002344 0.00046849 -0.001237 -0.076745 0.26964
0.0079895 0.030053 -0.0090401 -0.0068986
0.0039134 -0.0017056 0.0014291 -0.0061042 0.00011824 -0.0022209 0.0080609 0.030049
-0.11208 0.18015 0.0054167 0.020046
-0.0032972 -0.0022004 -0.0004963 -0.00232 0.0013838 -0.00020917 -0.0090542 -0.0068778
0.0054146 0.020047 -0.15398 0.25104
1040000000 -0.0081662 0.29825 0.033383 0.017653 -0.0014387 0.0069435 0.0025143 0.00073624
-0.00013882 -0.003376 -0.00049239 -0.0014565
0.033353 0.017666 -0.17328 0.35663 0.029455 -0.015311 0.0013194 -0.0017917
-0.0026651 -0.0024871 -0.0016114 -0.0027695
-0.001412 0.0069506 0.029411 -0.015445 0.15928 0.29678 -0.00057294 -0.0014826
-0.0016707 -0.00083615 -0.00058734 -0.0011578
0.002506 0.00071824 0.0013435 -0.0017908 -0.00057087 -0.0014823 -0.049148 0.28022
0.019589 0.017888 -0.0027075 0.0015212
-0.00016481 -0.0033659 -0.002721 -0.0024914 -0.0016824 -0.00082941 0.019644 0.017864
-0.079737 0.18741 0.013574 0.018326
-0.00051536 -0.0014643 -0.0016019 -0.002775 -0.00058565 -0.0011598 -0.0026931 0.0015206
0.013546 0.018335 -0.13248 0.27222
1100000000 0.037241 0.30608 0.035802 -0.004741 0.0028545 0.0039526 0.0024401 -0.0012722
-0.0019899 -0.003019 -0.0038065 0.00027103
0.035783 -0.0047095 -0.12999 0.37407 0.014949 -0.028372 3.7733e-06 -0.0017951
-0.0035089 -0.00055516 -0.0034709 -0.00032912
0.0028701 0.0039506 0.014849 -0.028467 0.20613 0.27614 -0.0018501 0.00033297
-0.0017726 0.0006791 -0.0010568 -0.00028133
0.0024343 -0.0012848 -1.6468e-06 -0.0017933 -0.0018548 0.00033391 -0.0085683 0.28523
0.02485 0.0045971 -0.0026531 0.00032033
-0.0019999 -0.0030096 -0.0035177 -0.00054311 -0.001776 0.00067482 0.02487 0.0045638
-0.06189 0.20122 0.019347 0.0086231
-0.0038148 0.00029083 -0.0034722 -0.00030572 -0.0010536 -0.00028692 -0.0026547 0.00033052
0.019332 0.0086291 -0.086394 0.30087
1160000000 0.08836 0.30099 0.023663 -0.021352 0.0026133 -0.0003739 -0.00018369 -0.0024453
-0.0041832 -0.00076004 -0.00082878 0.0042651
0.023668 -0.021298 -0.086033 0.37851 -0.0042892 -0.029405 -0.001739 -0.0017484
-0.0025906 0.0026537 -0.0013815 0.0019577
0.0026166 -0.00037697 -0.0044175 -0.029428 0.24923 0.24465 -0.00069185 0.0018292
-0.00044639 0.0020187 -0.00091564 0.00014683
-0.00019007 -0.0024516 -0.0017383 -0.0017392 -0.00068816 0.0018225 0.031025 0.28246
0.021086 -0.011111 -0.0029267 0.0053176
-0.0041978 -0.00073712 -0.0025995 0.002653 -0.00044657 0.0020115 0.021087 -0.011138
-0.027978 0.20982 0.018115 0.00015557
-0.00079444 0.0042658 -0.0013613 0.001978 -0.00091448 0.00014432 -0.0029281 0.0053266
0.018108 0.00015046 -0.040133 0.30386
1220000000 0.1328 0.28994 0.0097656 -0.03038 -0.0015725 -0.00074402 6.8121e-06 -0.00094837
-0.0026259 0.0024911 0.0013926 0.0020424
0.0097811 -0.030344 -0.041361 0.3906 -0.017469 -0.021106 -0.0025483 0.00053461
0.00022395 0.0030623 -0.00071772 0.0019715
-0.0015792 -0.0007462 -0.017584 -0.021055 0.2882 0.20492 0.00089127 0.0017082
0.00063891 0.0012546 0.0003245 0.00063751
3.4437e-06 -0.0009545 -0.0025443 0.0005525 0.00088762 0.001706 0.071237 0.27368
0.0099108 -0.017638 0.0021624 0.0016102
-0.0026173 0.0025051 0.000234 0.0030526 0.00063611 0.0012436 0.0098887 -0.017655
-0.0048706 0.21917 0.013904 -0.013285
0.0013999 0.0020245 -0.00070681 0.0019901 0.00032408 0.00063926 0.0021751 0.0016092
0.013902 -0.013276 -0.0081018 0.31983
1280000000 0.18271 0.26773 -0.0087331 -0.028463 -0.00188 0.0026655 -0.00093065 -0.001988
-0.00077963 0.0031677 0.0025805 0.0010291
-0.0087171 -0.02844 0.0050563 0.38137 -0.024219 -0.0081157 -0.00091374 0.0015238
0.0017735 0.0017089 0.00070784 0.0020467
-0.0018622 0.0026806 -0.024288 -0.0080044 0.318 0.16048 0.0016251 -0.00010844
0.0011507 0.00021186 0.00031971 0.00037476
-0.00093929 -0.0019889 -0.00090396 0.0015225 0.0016281 -0.00011376 0.10798 0.25709
0.00012821 -0.019407 2.4365e-05 0.0002586
-0.00076162 0.0031746 0.0017883 0.0017012 0.0011468 0.00020419 9.3787e-05 -0.019412
0.031891 0.22301 0.0028375 -0.01529
0.0025929 0.0010109 0.00072063 0.0020519 0.00032114 0.00037166 2.6302e-05 0.00026358
0.0028479 -0.015297 0.039652 0.32154
1340000000 0.21968 0.23358 -0.018352 -0.018418 0.0010489 0.004632 -0.001781 -0.00082675
0.001552 0.0026419 0.0016569 -0.0014892
-0.018317 -0.018418 0.044621 0.37257 -0.021702 0.0048209 -2.4167e-05 0.0020062
0.0019395 0.00062403 0.0014421 0.00073956
0.0010725 0.0046312 -0.021709 0.0049282 0.33911 0.11279 0.0010913 -0.001085
0.00075743 -0.00051927 0.00017762 0.00025364
-0.0017828 -0.00081564 -1.7558e-05 0.0019991 0.001091 -0.0010773 0.14063 0.23653
-0.0093611 -0.01614 0.00086358 0.00054134
0.0015765 0.0026361 0.0019422 0.00060752 0.00075637 -0.0005192 -0.0093962 -0.016136
0.062353 0.21836 -0.0042292 -0.013678
0.0016565 -0.0014953 0.0014427 0.00072569 0.00018798 0.00025542 0.00086926 0.00053976
-0.004217 -0.013666 0.078328 0.31618
1400000000 0.25268 0.19498 -0.02368 -0.0066147 0.0054218 0.0031165 -0.0021135 0.00070883
0.0025758 0.00086272 0.00015706 -0.0014652
-0.023648 -0.0066345 0.081846 0.35893 -0.01464 0.012889 0.0013178 0.0012172
0.0011076 -0.00096093 0.0011781 0.00011465
0.0054299 0.0030934 -0.014602 0.012977 0.35191 0.059801 1.1661e-05 -0.0016889
8.8048e-05 -0.00043657 0.00040125 0.00029438
-0.0021088 0.00071775 0.0013288 0.0012106 1.1046e-05 -0.0016853 0.17002 0.20761
-0.01499 -0.008878 -0.00066319 -0.00031591
0.0025756 0.00085312 0.0010997 -0.00096619 8.5355e-05 -0.00043544 -0.015023 -0.0088527
0.095501 0.21366 -0.010613 -0.0086793
0.00015392 -0.0014693 0.0011832 0.00010113 0.00039999 0.00029878 -0.000661 -0.00031455
-0.010604 -0.0086747 0.12297 0.3048
1460000000 0.27486 0.15053 -0.020238 0.0056132 0.0057975 -0.0019955 -0.0015662 0.0017749
0.0021987 -0.00066584 -0.00041124 -0.00095762
-0.020216 0.0055886 0.11562 0.33655 -0.0057014 0.015589 0.0016691 0.00012858
0.00073005 -0.0012705 0.0011662 -0.00064343
0.0057892 -0.0020232 -0.0056261 0.01563 0.35773 0.0060541 -0.001351 -0.0011853
0.00015212 -0.00025072 0.0006505 -0.00030767
-0.0015643 0.0017782 0.00167 0.00011869 -0.001349 -0.0011796 0.19626 0.17838
-0.015629 -0.0019254 -0.0007052 0.0019676
0.0021943 -0.00068042 0.00071895 -0.001275 0.00016232 -0.00024994 -0.01564 -0.0018873
0.12506 0.19873 -0.012217 -0.0025492
-0.0004164 -0.00094737 0.001168 -0.00065486 0.0006458 -0.00031107 -0.00069885 0.0019633
-0.012223 -0.0025378 0.15591 0.2835
1520000000 0.28647 0.10859 -0.01417 0.010914 0.0032819 -0.0043489 0.00014331 0.0026056
0.0019468 -0.0017867 -0.001054 -3.3235e-05
-0.014158 0.010894 0.14863 0.32162 0.001967 0.013069 0.0016022 -0.00081748
-3.9966e-05 -0.00094154 0.0002891 -0.0010196
0.0032538 -0.0043665 0.0020391 0.013067 0.35111 -0.049708 -0.0011016 -0.00029694
0.00065811 -0.00082809 1.3889e-05 -0.00012818
0.00014165 0.0026072 0.0015978 -0.00082344 -0.0010962 -0.00028967 0.21923 0.14044
-0.014268 0.003744 0.0015273 0.0019781
0.0019429 -0.0018023 -4.3366e-05 -0.00094933 0.00065206 -0.00083144 -0.014269 0.0037811
0.15303 0.18423 -0.011788 0.0021096
-0.0010592 -1.6444e-05 0.0002774 -0.0010159 1.549e-05 -0.00013217 0.0015229 0.0019803
-0.011792 0.0021053 0.18895 0.26278
1580000000 0.29523 0.062367 -0.0072548 0.013659 -0.00092074 -0.0049746 0.0015014 0.0018857
-0.00034283 -0.0021308 -0.00022476 0.0003776
-0.0072487 0.013652 0.17537 0.29683 0.0054756 0.0080922 0.0004365 -0.0015607
-0.00048164 -0.00092813 -0.00027274 -0.00085966
-0.00094087 -0.0049797 0.0055207 0.008077 0.33137 -0.10733 -0.0014902 0.00066419
-0.00028994 -0.001116 0.00019049 -0.00051195
0.0015093 0.0018857 0.00043502 -0.0015662 -0.0014862 0.00065925 0.23302 0.10121
-0.010204 0.0080821 0.0021804 0.00058152
-0.00036834 -0.0021427 -0.00049597 -0.00091796 -0.0002973 -0.0011129 -0.010187 0.008106
0.17724 0.16563 -0.0091533 0.0077775
-0.00022129 0.0003797 -0.00028571 -0.00085995 0.00019319 -0.00051497 0.0021799 0.00058076
-0.0091501 0.0077771 0.22094 0.2355
1640000000 0.29656 0.021365 -0.00058627 0.012068 -0.0029 -0.0026735 0.002715 0.00092843
-0.00090052 -0.0014599 -0.00029725 0.00051505
-0.00060524 0.01206 0.20435 0.27204 0.0060278 0.0032679 -0.00069999 -0.0017035
-0.00088888 -0.00036468 -0.00053704 -0.00064656
-0.0029126 -0.0026652 0.0060505 0.0032301 0.30311 -0.15617 -0.00064384 0.0014299
-0.0011967 -0.00081291 -0.0001322 -0.00028093
0.0027148 0.00092038 -0.00071147 -0.0016981 -0.00064399 0.0014274 0.24508 0.052642
-0.0058547 0.0086179 0.0024704 -0.0008257
-0.00091035 -0.0014565 -0.00090038 -0.00035418 -0.001194 -0.00080945 -0.0058324 0.008637
0.19964 0.14054 -0.0042986 0.0097283
-0.00029154 0.0005208 -0.00054689 -0.00063472 -0.00013184 -0.00028153 0.0024701 -0.00082256
-0.0043031 0.0097236 0.24629 0.20429
1700000000 0.28913 -0.02349 0.0026141 0.0088713 -0.0036052 -2.6859e-05 0.0029855 -0.0013586
-0.0020017 -0.00051584 0.00053295 0.00032563
0.0026019 0.0088648 0.22222 0.24078 0.0039678 0.00035256 -0.001449 -0.00056341
-0.00067396 -2.3629e-05 -0.00091912 -0.0004234
-0.0036041 -8.4262e-06 0.0039728 0.00032833 0.2601 -0.19594 0.00050408 0.0015359
-0.0018561 -0.0002161 -0.00054985 -0.00090466
0.0029806 -0.0013687 -0.0014496 -0.00056906 0.00050387 0.0015415 0.24195 0.003394
-0.0033805 0.0084961 0.0014787 -0.0022857
-0.0020001 -0.0005059 -0.00067405 -2.1114e-05 -0.0018493 -0.00021123 -0.0033691 0.0085095
0.21655 0.1197 0.00045595 0.0097121
0.00054495 0.00031944 -0.00092709 -0.00041353 -0.00055506 -0.00089978 0.0014772 -0.0022962
0.00045585 0.0097142 0.26244 0.16971
1760000000 0.27668 -0.07152 0.0044463 0.0054637 -0.0024179 0.001006 0.0012103 -0.0034572
-0.0012807 0.00083359 0.00034528 -0.00048548
0.0044363 0.0054656 0.24792 0.20129 0.0015291 -0.0014538 -0.0011837 0.00020003
-0.001063 0.00077986 -0.00051111 0.00046152
-0.002411 0.0010235 0.0015282 -0.001464 0.21181 -0.23006 0.0011515 0.0010441
-0.00099937 0.0014585 -0.0012397 -0.00038464
0.0011971 -0.0034597 -0.0011852 0.00021229 0.0011389 0.0010451 0.23297 -0.047476
-0.00082751 0.0073914 -0.00029817 -0.0024673
-0.0012756 0.00083761 -0.0010475 0.00079071 -0.0010077 0.0014677 -0.00080911 0.0073911
0.23059 0.084015 0.0043649 0.0070178
0.00033747 -0.00048957 -0.000515 0.00046417 -0.0012429 -0.00038274 -0.00030256 -0.0024627
0.0043684 0.0070127 0.27477 0.13171
1820000000 0.25228 -0.10842 0.0042666 0.0020931 -0.00011997 0.0025871 -0.001088 -0.0030272
-0.00088767 0.00094347 -7.3018e-05 -3.3913e-05
0.0042638 0.0020995 0.25792 0.17163 -0.00048056 -0.00013925 -0.0012484 0.00094929
-0.00014043 0.0012678 -0.00057107 0.00052508
-0.00010165 0.0025943 -0.00048189 -0.00013498 0.16129 -0.24564 0.001476 0.00041775
-0.00025767 0.0022324 -0.0015285 0.00037744
-0.0011037 -0.0030224 -0.0012407 0.00095502 0.0014761 0.00041792 0.20357 -0.094243
0.00010713 0.0058919 -0.0016759 -0.0015351
-0.00087882 0.0009485 -0.00014043 0.0012654 -0.00025063 0.002232 0.00011949 0.0058882
0.24684 0.054713 0.0052333 0.0032697
-7.2103e-05 -3.5208e-05 -0.0005678 0.00052909 -0.0015217 0.00039291 -0.001685 -0.0015259
0.0052288 0.0032679 0.27681 0.095398
1880000000 0.21726 -0.14858 0.0019077 7.4201e-05 -0.00036674 0.0023181 -0.0029564 -0.0021225
-8.5872e-05 0.0014613 0.00031131 -0.00056002
0.0018996 7.7282e-05 0.26251 0.12527 -0.0025863 0.0016879 -0.00017572 0.0016576
0.00050076 0.001269 0.00011453 0.00092021
-0.00034845 0.0023244 -0.0025839 0.0017072 0.10848 -0.25559 0.0017039 -0.00089628
0.0013576 0.0019593 -0.0010424 0.0014636
-0.0029552 -0.0021041 -0.00016116 0.0016597 0.0017032 -0.00089325 0.16364 -0.13447
0.00041708 0.00436 -0.0024621 0.00038689
-6.8564e-05 0.0014639 0.00050924 0.0012621 0.0013668 0.0019545 0.00042165 0.0043615
0.24875 0.022063 0.0051836 0.0010448
0.00030585 -0.00057151 0.00012203 0.00091317 -0.0010335 0.0014602 -0.0024595 0.00039226
0.0051865 0.0010416 0.27627 0.060868
1940000000 0.17803 -0.17408 -0.00034955 -0.0013135 0.0015722 0.0020061 -0.0038091 0.00065075
0.0012524 0.00098696 -0.00046322 -0.0006082
-0.00034563 -0.0013138 0.26318 0.093649 -0.0012992 0.0039838 0.00098387 0.0013148
0.0018157 0.00059451 0.00090206 0.0003828
0.0015879 0.0019905 -0.0012647 0.0039933 0.062759 -0.24884 0.00040917 -0.0021292
0.0024375 0.00036531 0.0004208 0.0016979
-0.0037965 0.00067466 0.00099642 0.0013116 0.0004071 -0.0021218 0.11177 -0.16504
-0.00066409 0.0035451 -0.0014588 0.0015325
0.001269 0.00097904 0.0018235 0.00056953 0.0024404 0.00035625 -0.0006549 0.0035376
0.24968 -0.016908 0.0037017 -0.0024264
-0.00046943 -0.00060213 0.00090805 0.00037245 0.00044214 0.0016877 -0.001452 0.0015368
0.0037024 -0.0024193 0.26481 0.025098
2000000000 0.13196 -0.18916 -0.0039686 0.00080218 0.0025537 0.0016238 -0.0021733 0.0035416
0.0010211 0.00031644 -0.00071885 0.00031304
-0.0039683 0.00080667 0.24933 0.058114 -0.00096953 0.0058875 0.0016734 0.00037302
0.0014444 -0.0012056 0.00055656 6.5603e-05
0.0025684 0.0015992 -0.0009272 0.0059026 0.018942 -0.23435 -0.0012557 -0.0013016
0.0020271 -0.0010568 0.0017472 0.001411
-0.0021487 0.0035516 0.0016725 0.00036271 -0.0012552 -0.0013004 0.058759 -0.17539
-0.0020568 0.0038922 -0.00022074 0.002364
0.0010309 0.00030637 0.0014297 -0.0012124 0.0020223 -0.0010595 -0.002047 0.0039039
