!Keysight Technologies,M9804A,MY58100912,A.14.10.03
!Date: Thursday, April 27, 2023 10:28:33
!Correction: S11(C  6-Port  ) 
!S12(C  6-Port  ) 
!S13(C  6-Port  ) 
!S14(C  6-Port  ) 
!S15(C  6-Port  ) 
!S16(C  6-Port  ) 
!S21(C  6-Port  ) 
!S22(C  6-Port  ) 
!S23(C  6-Port  ) 
!S24(C  6-Port  ) 
!S25(C  6-Port  ) 
!S26(C  6-Port  ) 
!S31(C  6-Port  ) 
!S32(C  6-Port  ) 
!S33(C  6-Port  ) 
!S34(C  6-Port  ) 
!S35(C  6-Port  ) 
!S36(C  6-Port  ) 
!S41(C  6-Port  ) 
!S42(C  6-Port  ) 
!S43(C  6-Port  ) 
!S44(C  6-Port  ) 
!S45(C  6-Port  ) 
!S46(C  6-Port  ) 
!S51(C  6-Port  ) 
!S52(C  6-Port  ) 
!S53(C  6-Port  ) 
!S54(C  6-Port  ) 
!S55(C  6-Port  ) 
!S56(C  6-Port  ) 
!S61(C  6-Port  ) 
!S62(C  6-Port  ) 
!S63(C  6-Port  ) 
!S64(C  6-Port  ) 
!S65(C  6-Port  ) 
!S66(C  6-Port  ) 
!S6P File: Measurement: :
# Hz S  RI   R 50
500000000 -0.33738 -0.036739 -0.0099147 -0.0014721 -0.0080305 0.013705 -0.0039735 0.011179
0.014188 0.0039899 -0.0040816 0.0074287
-0.0098818 -0.0014905 -0.41773 -0.050803 0.0078842 -0.01041 0.0014925 0.011431
0.0081733 0.0027224 0.0019488 0.012832
-0.0080075 0.013697 0.0078812 -0.010438 -0.2665 0.21035 0.0074048 0.00368
-0.0013752 0.0084965 0.0016663 0.012403
-0.0039887 0.011156 0.0015007 0.011453 0.0074153 0.0037051 -0.33127 0.043941
-0.018895 -0.0062975 0.015268 0.024686
0.014162 0.0039701 0.0081909 0.0027316 -0.0013372 0.0085033 -0.018876 -0.0062965
-0.22841 -0.19031 -0.026127 0.0044868
-0.004075 0.0074524 0.0019942 0.012841 0.0016786 0.012425 0.015253 0.02462
-0.026115 0.0044624 -0.27159 -0.12618
560000000 -0.31841 0.12328 -0.024808 -0.062896 -0.00015373 0.012409 0.005657 0.01046
0.010496 0.0055333 0.0095747 0.0082818
-0.024759 -0.062815 -0.37753 0.1085 -0.041437 -0.036985 0.01386 0.0043106
-0.012862 -0.004751 0.0035897 0.0016167
-0.00015736 0.012432 -0.041559 -0.036908 -0.18355 0.25889 -0.00043046 -0.0044715
0.019528 0.0054931 0.0065868 -0.0060042
0.0056781 0.010442 0.013875 0.0042873 -0.00044949 -0.0044837 -0.30601 0.1348
0.0049824 -0.023599 0.0046926 -0.021905
0.010493 0.0055701 -0.012919 -0.0048 0.019513 0.0054122 0.0049434 -0.023557
-0.28888 -0.016871 0.0094968 -0.049482
0.0095565 0.0082604 0.00352 0.0016096 0.0065486 -0.0060059 0.004669 -0.021873
0.0095165 -0.049533 -0.33086 0.022975
620000000 -0.27503 0.10672 -0.023358 0.0085166 0.0035544 0.0091161 0.0087535 -0.0050484
0.011466 -0.0011793 0.0017773 -0.0022647
-0.023351 0.0085234 -0.40301 0.060173 -0.018775 0.00046462 -0.0016547 -0.0019311
0.011463 -0.0064935 0.0014018 -0.0025618
0.0035643 0.0091378 -0.018795 0.0005278 -0.15329 0.2676 -0.00080716 -0.0052103
-0.0035693 -0.0033159 0.0088675 -0.0026835
0.0087299 -0.0050946 -0.0016538 -0.0019325 -0.00079725 -0.0052044 -0.26491 0.1443
-0.03853 -0.019742 0.01093 0.025209
0.011515 -0.0011007 0.011479 -0.006537 -0.0035317 -0.0033324 -0.038572 -0.019775
-0.20941 -0.050119 -0.03956 0.013675
0.0017827 -0.0022391 0.0013922 -0.0025955 0.0088861 -0.0027361 0.011064 0.025165
-0.039626 0.013613 -0.25286 -0.012054
680000000 -0.23428 0.19387 -0.02698 -0.013452 0.0053067 0.0053602 0.0014669 -0.0065651
-0.0029968 -0.0114 0.0052634 -0.0060483
-0.026933 -0.013463 -0.38748 0.15831 -0.032126 -0.00096028 -0.0014169 -0.00013333
-0.0019447 -0.0090199 -0.0012383 -0.0016956
0.0053634 0.0053476 -0.03216 -0.00089238 -0.10137 0.28731 -0.0009723 -0.00018562
-0.0018194 0.00040944 -0.00267 -0.0091908
0.0014768 -0.0065646 -0.001421 -0.00012466 -0.00098812 -0.00017792 -0.22027 0.19556
-0.023104 -0.0072055 -0.0090694 -0.010416
-0.0029882 -0.011419 -0.001966 -0.0090482 -0.0017813 0.00041285 -0.023118 -0.0071912
-0.25827 0.044122 -0.0062496 -0.0082933
0.0052118 -0.0060334 -0.0012575 -0.0016645 -0.0027001 -0.0091343 -0.0090651 -0.010415
-0.0062458 -0.0082525 -0.25886 0.094143
740000000 -0.19001 0.18832 -0.037963 0.026799 0.012952 -0.0052686 -0.00050367 -0.0044635
-0.0046234 -0.0024818 -0.0067647 0.0023058
-0.037962 0.026757 -0.33442 0.1768 -0.035015 0.034972 -0.0005713 -0.0065284
-0.01206 0.0075512 -0.0015968 -0.0059289
0.012962 -0.0052711 -0.034947 0.035098 -0.067957 0.28495 -0.0022003 0.003165
-0.0026479 -0.0048808 -0.0020412 0.00067644
-0.00055195 -0.0044648 -0.00058405 -0.0065182 -0.0021884 0.0031604 -0.20317 0.20283
-0.043638 -0.0063391 0.023138 0.014675
-0.0045949 -0.0023661 -0.012104 0.0076353 -0.0026177 -0.0048481 -0.043713 -0.0063084
-0.1603 0.072322 -0.04292 0.001103
-0.0068185 0.0023179 -0.0016014 -0.0059287 -0.0020345 0.0006472 0.023152 0.014661
-0.042929 0.0010899 -0.248 0.1002
800000000 -0.15711 0.22822 -0.022182 0.016433 0.0052114 -0.010642 -0.0048064 -0.0016847
-0.0043589 0.0028949 0.0039174 0.00073608
-0.022175 0.016402 -0.33752 0.24623 -0.0078309 0.033685 -0.002508 0.0021726
-0.0010732 0.0033062 0.0010272 0.0052421
0.0051685 -0.010668 -0.0077266 0.033734 -0.027366 0.30768 0.0010446 0.001602
0.00035252 0.0036672 -0.0017687 0.0008285
-0.0048111 -0.0016858 -0.0025047 0.0021829 0.0010361 0.0016032 -0.17475 0.23051
-0.028018 0.01379 0.013188 -0.010057
-0.0043491 0.0029325 -0.0010663 0.0033439 0.00036278 0.0036754 -0.028004 0.013818
-0.20465 0.095932 -0.01637 0.018714
0.0039205 0.00071864 0.0010347 0.0052792 -0.0017502 0.00086857 0.013174 -0.01004
-0.01639 0.01868 -0.24193 0.14926
860000000 -0.12231 0.24812 -0.016962 0.030518 -0.0033078 -0.0098286 -0.0025329 0.00080984
0.00419 0.0048571 -0.0031794 -0.0023107
-0.016972 0.030488 -0.29017 0.28837 0.0079508 0.034015 0.00016695 0.0020865
0.0046777 0.00017883 0.0035656 0.0010257
-0.0033297 -0.0098191 0.0080665 0.034011 0.020241 0.31559 -0.00052744 -0.00014817
0.0028717 -0.0013992 0.0016208 0.0043439
-0.0025301 0.00082285 0.00016586 0.0020875 -0.00052447 -0.00015106 -0.13856 0.24071
-0.017419 0.018744 -0.0062607 -0.0092902
0.0041623 0.0048565 0.0046368 0.00015443 0.0028461 -0.0014297 -0.017414 0.018768
-0.15341 0.14573 -0.024353 0.016025
-0.0032087 -0.0022987 0.0035641 0.0010281 0.0016158 0.0043282 -0.0062652 -0.0093028
-0.024368 0.016019 -0.19024 0.19317
920000000 -0.097443 0.27088 0.0053874 0.037482 -0.0092921 -0.0045604 -0.0017516 0.001966
0.0018121 0.0017735 0.0030954 -0.0015225
0.0053571 0.037453 -0.26149 0.30932 0.028128 0.021751 0.0014439 0.0011957
0.0072251 -6.3383e-05 0.0042006 -0.002951
-0.0093037 -0.0045196 0.028239 0.021672 0.066429 0.31641 0.001896 -0.00011632
0.0014017 -0.00038502 0.00086859 -0.0012878
-0.0017375 0.0019535 0.0014366 0.0012023 0.0018861 -0.00012644 -0.1144 0.25809
-0.010214 0.030218 0.0036437 -0.0066507
0.0018087 0.0017486 0.0072629 -7.2897e-05 0.0013976 -0.00038758 -0.010158 0.030271
-0.14156 0.14993 -0.0023487 0.026928
0.0030829 -0.0015264 0.0041658 -0.0029566 0.00085949 -0.0012886 0.0036169 -0.0066317
-0.0023677 0.026892 -0.19681 0.20778
980000000 -0.050406 0.28965 0.017452 0.029554 -0.0090678 0.0044203 0.0019785 0.0032989
0.003761 -0.0017384 -0.0033933 -0.0020896
0.017419 0.029553 -0.20882 0.34298 0.032872 0.0046648 0.0019205 -0.00018455
0.0015051 -0.0061831 -0.00059468 -0.0022137
-0.0090643 0.0044469 0.032942 0.0045483 0.11258 0.30973 0.00048974 -0.0013142
0.00010041 -0.0022353 0.0012075 -0.00021759
0.0019891 0.0033028 0.0019086 -0.00018658 0.00048965 -0.0013132 -0.076561 0.26876
0.0078496 0.029592 -0.0089134 -0.0069975
0.0037468 -0.0017477 0.0015022 -0.0061596 0.00010793 -0.0022336 0.0079128 0.029586
-0.11215 0.17975 0.0052329 0.019633
-0.0034034 -0.0020946 -0.00062151 -0.0021973 0.0012087 -0.00023194 -0.0089242 -0.0069913
0.0052032 0.01962 -0.15399 0.25021
1040000000 -0.0084361 0.29795 0.033051 0.017637 -0.0013791 0.0067453 0.0024917 0.00097426
-7.0237e-05 -0.0034191 -0.00033226 -0.0013173
0.033026 0.017647 -0.17348 0.356 0.029195 -0.014941 0.001404 -0.0016689
-0.0025697 -0.0025463 -0.0014483 -0.002795
-0.0013711 0.0067442 0.029178 -0.015079 0.15872 0.29622 -0.00059546 -0.0014246
-0.0017127 -0.00081476 -0.0005619 -0.0010646
0.0025078 0.00096367 0.0013902 -0.0016633 -0.00059668 -0.0014238 -0.049152 0.27943
0.018996 0.017618 -0.0026208 0.0014916
-0.00010348 -0.0034382 -0.0025646 -0.0025421 -0.0017223 -0.00084088 0.019034 0.017594
-0.080071 0.18612 0.013368 0.018171
-0.0003276 -0.0013181 -0.0014619 -0.0027675 -0.00057244 -0.0010682 -0.0026205 0.0014982
0.013333 0.018172 -0.13255 0.27196
1100000000 0.036554 0.30592 0.035476 -0.0045834 0.0027169 0.0038815 0.0024794 -0.0012476
-0.0020384 -0.0030155 -0.0039541 0.00020208
0.035455 -0.0045588 -0.13013 0.37322 0.014988 -0.027867 7.2601e-05 -0.0018405
-0.0034998 -0.00068404 -0.0035209 -0.00041278
0.0027272 0.0038765 0.014894 -0.027957 0.20527 0.27579 -0.0018653 0.00023151
-0.0017701 0.00061699 -0.0011063 -0.00021161
0.0024839 -0.0012498 6.2706e-05 -0.0018314 -0.0018705 0.00023585 -0.0088912 0.28438
0.024256 0.0048223 -0.0025828 0.00022625
-0.0020573 -0.0030228 -0.0034861 -0.00066628 -0.0017691 0.00061245 0.024267 0.0047897
-0.062173 0.20025 0.018887 0.0084709
-0.0039435 0.00020411 -0.003528 -0.00039053 -0.0010979 -0.00022209 -0.0025745 0.00022764
0.018901 0.0084602 -0.086671 0.30018
1160000000 0.087661 0.30082 0.023383 -0.020939 0.002503 -0.00037768 2.3076e-06 -0.0023609
-0.0040963 -0.00069526 -0.00078562 0.0040406
0.023382 -0.020916 -0.086668 0.37767 -0.0039924 -0.029039 -0.0016595 -0.0017698
-0.0026298 0.0025339 -0.0013376 0.001795
0.0024877 -0.00039027 -0.0041066 -0.029048 0.24815 0.24477 -0.00077686 0.0017931
-0.0004598 0.0020481 -0.0007805 0.00015904
4.2507e-06 -0.00237 -0.0016747 -0.0017599 -0.00077768 0.0017932 0.030276 0.28184
0.02051 -0.010573 -0.0031401 0.0052402
-0.0041134 -0.00070197 -0.0025971 0.0025585 -0.00046112 0.0020514 0.020486 -0.010609
-0.028432 0.20931 0.017851 0.00035277
-0.00074571 0.0040704 -0.0013209 0.0018084 -0.00078313 0.00016554 -0.0031232 0.0052351
0.017844 0.00035136 -0.040319 0.30374
1220000000 0.1321 0.2899 0.0098339 -0.029918 -0.0016164 -0.00065456 -9.2236e-05 -0.0009846
-0.0026809 0.0024909 0.001333 0.0022033
0.0098497 -0.029887 -0.042318 0.38979 -0.017042 -0.021025 -0.0025979 0.00050301
0.00016778 0.0030986 -0.00069847 0.0019188
-0.0016277 -0.00065612 -0.017158 -0.020971 0.28726 0.20556 0.0008186 0.0016673
0.00070381 0.0012534 0.00037142 0.00064106
-8.53e-05 -0.00097367 -0.0026085 0.00052044 0.00082841 0.0016679 0.070166 0.27353
0.0099675 -0.016919 0.0021597 0.0015982
-0.0026801 0.0024957 0.00019004 0.0031076 0.00069882 0.0012302 0.0099491 -0.016937
-0.005518 0.21818 0.013737 -0.012844
0.0013441 0.0021961 -0.00069646 0.0019312 0.00037273 0.00064837 0.0021673 0.0016011
0.013731 -0.01285 -0.0081838 0.31932
1280000000 0.18185 0.26778 -0.0083999 -0.028146 -0.0018115 0.0028045 -0.00085789 -0.0020288
-0.00072258 0.0030203 0.0026469 0.0010343
-0.0083778 -0.028124 0.0036803 0.38085 -0.023851 -0.008371 -0.00096938 0.0014443
0.0017565 0.0017906 0.00056051 0.0020324
-0.0017892 0.0028073 -0.023909 -0.0082606 0.31758 0.16136 0.0015379 -8.0298e-05
0.0011524 0.00017264 0.00037552 0.00028714
-0.00086383 -0.0020272 -0.00095271 0.0014511 0.0015409 -8.2107e-05 0.10705 0.2574
0.00052954 -0.018758 4.0032e-05 0.00016352
-0.00071076 0.0030269 0.0017697 0.001783 0.0011474 0.00016587 0.00050317 -0.018774
0.030799 0.22216 0.0028025 -0.014884
0.0026472 0.0010278 0.00057967 0.0020264 0.00036652 0.00029733 5.6372e-05 0.00016411
0.0028139 -0.01487 0.038861 0.32098
1340000000 0.2188 0.23392 -0.01786 -0.018331 0.0011366 0.0045751 -0.0018699 -0.00087524
0.0015114 0.0026068 0.001671 -0.0014715
-0.01783 -0.018334 0.043073 0.37271 -0.021565 0.004458 -4.7662e-05 0.0020703
0.001971 0.0006541 0.0013979 0.0007604
0.0011497 0.0045699 -0.021572 0.0045804 0.33913 0.11372 0.001169 -0.0010023
0.0007253 -0.00049933 0.00016251 0.00016256
-0.0018707 -0.00086761 -3.773e-05 0.0020874 0.0011665 -0.00099719 0.13986 0.23722
-0.008603 -0.015906 0.00097314 0.00068139
0.0015296 0.0026194 0.0019618 0.00064597 0.00071805 -0.00051422 -0.0086343 -0.015899
0.060845 0.21778 -0.0039322 -0.013367
0.0016572 -0.0014838 0.0014094 0.00075402 0.00017207 0.00017027 0.00096087 0.00067447
-0.0039142 -0.013377 0.077589 0.31605
1400000000 0.25182 0.19566 -0.023258 -0.0068241 0.0053869 0.0030585 -0.0021311 0.00074073
0.0024695 0.00086754 0.00023324 -0.0014466
-0.023238 -0.0068434 0.080499 0.35956 -0.014731 0.01255 0.0013265 0.0012533
0.00116 -0.00091301 0.0011884 0.00017477
0.0054094 0.0030313 -0.014689 0.012644 0.35223 0.060487 -2.2153e-05 -0.0017239
7.2164e-05 -0.00044718 0.0003527 0.00028732
-0.0021225 0.00073689 0.0013353 0.0012439 -2.1797e-05 -0.001722 0.16979 0.20855
-0.014266 -0.0091952 -0.00060031 -0.00038073
0.002477 0.00086247 0.00115 -0.00091679 6.5032e-05 -0.00044982 -0.01429 -0.0091601
0.093923 0.21365 -0.010125 -0.0087684
0.00022814 -0.0014476 0.0011968 0.00017281 0.0003516 0.00027808 -0.00059497 -0.00037104
-0.010115 -0.0087701 0.12206 0.30485
1460000000 0.27426 0.15156 -0.019976 0.0051946 0.0058004 -0.0020239 -0.0016358 0.0017765
0.0020755 -0.00058636 -0.00034653 -0.0009538
-0.019961 0.00517 0.11469 0.33769 -0.0060292 0.015419 0.0017696 0.00012462
0.00075525 -0.0012719 0.0011282 -0.00060498
0.0057868 -0.0020576 -0.0059598 0.015466 0.35817 0.0063888 -0.0013302 -0.0012635
0.00020713 -0.00022058 0.00061231 -0.00038314
-0.0016332 0.0017932 0.0017655 0.00012247 -0.0013217 -0.0012511 0.19635 0.17923
-0.015154 -0.0025367 -0.00079159 0.0019421
0.0020723 -0.00058238 0.00075598 -0.0012835 0.00020211 -0.0002159 -0.015177 -0.0025145
0.12353 0.19913 -0.011833 -0.002726
-0.00034669 -0.00094244 0.0011428 -0.00061998 0.00061894 -0.00038698 -0.00078993 0.0019351
-0.011827 -0.0027532 0.15549 0.28364
1520000000 0.28636 0.10958 -0.014176 0.01045 0.003302 -0.0043233 0.00018441 0.0026724
0.0019835 -0.0016597 -0.0011392 -9.0686e-05
-0.014165 0.010434 0.14821 0.32293 0.0017019 0.013097 0.0016321 -0.0008268
-2.9893e-06 -0.00097935 0.00032084 -0.00099024
0.0032855 -0.00434 0.0017742 0.0131 0.35149 -0.049693 -0.0011688 -0.00034281
0.00063992 -0.0008589 2.6037e-05 -7.0813e-05
0.00019618 0.0026705 0.0016175 -0.00084593 -0.001172 -0.00034118 0.21969 0.1413
-0.014266 0.0029529 0.0015106 0.00191
0.0019828 -0.0016751 -3.1502e-06 -0.00098395 0.00062507 -0.00086009 -0.01426 0.0029904
0.15146 0.18499 -0.011532 0.0017203
-0.0011321 -8.7272e-05 0.0003086 -0.00099162 2.7535e-05 -7.589e-05 0.0015082 0.0019181
-0.011531 0.0017197 0.1884 0.26322
1580000000 0.29533 0.063311 -0.007503 0.013225 -0.00087206 -0.0049137 0.0015266 0.0018545
-0.00031686 -0.0021171 -0.00035271 0.0003543
-0.0075128 0.013212 0.1755 0.29803 0.0053125 0.0082848 0.00044472 -0.0016262
-0.00046709 -0.00097678 -0.00023788 -0.00091319
-0.0008876 -0.0049036 0.0053654 0.0082616 0.33154 -0.10735 -0.0015756 0.00065587
-0.00019982 -0.0011237 0.000231 -0.00051064
0.0015263 0.0018557 0.00043535 -0.0016295 -0.0015776 0.00064266 0.2337 0.10168
-0.010767 0.0075504 0.0021388 0.00062307
-0.00032996 -0.0021156 -0.00048003 -0.00097531 -0.00020243 -0.0011217 -0.010753 0.0075764
0.1759 0.16667 -0.00904 0.0074474
-0.00035344 0.00035377 -0.00024328 -0.00092466 0.00023519 -0.00050435 0.0021388 0.00061185
-0.0090531 0.0074393 0.22053 0.23594
1640000000 0.2969 0.022024 -0.0010078 0.011938 -0.0027948 -0.0026946 0.0027447 0.00096488
-0.00078073 -0.0014755 -0.00035492 0.00054557
-0.0010074 0.011928 0.20482 0.27302 0.0059467 0.0034892 -0.00072111 -0.0016532
-0.00094622 -0.00038661 -0.00048817 -0.00072873
-0.0028183 -0.0026813 0.0059861 0.0034573 0.30317 -0.15602 -0.00066404 0.0014918
-0.0012328 -0.00091837 -0.00012092 -0.00030181
0.0027535 0.00095485 -0.00072185 -0.0016442 -0.00066495 0.0014957 0.24594 0.052838
-0.0065408 0.008509 0.0024562 -0.00077739
-0.00081025 -0.0014678 -0.00095633 -0.00037934 -0.0012398 -0.00091123 -0.0065242 0.0085383
0.19867 0.14193 -0.0045274 0.0093762
-0.00035617 0.00055155 -0.00049522 -0.00073223 -0.00012292 -0.00031431 0.0024522 -0.00078996
-0.0045242 0.0093748 0.24586 0.20467
1700000000 0.28971 -0.023084 0.0022082 0.0089854 -0.0036568 -1.3559e-05 0.0029682 -0.0013399
-0.0020134 -0.00058548 0.00059827 0.00045694
0.0021993 0.0089862 0.22302 0.24134 0.0040487 0.00044172 -0.0014282 -0.00059946
-0.00070009 -4.2958e-05 -0.00098879 -0.00044411
-0.0036654 5.3351e-06 0.0040619 0.00041857 0.26022 -0.19598 0.00040343 0.0015287
-0.0018561 -0.0002675 -0.00041894 -0.00086326
0.0029593 -0.0013537 -0.0014333 -0.00059443 0.00040136 0.0015165 0.24276 0.0030497
-0.0039863 0.0088052 0.0015254 -0.0022485
-0.0020141 -0.00058631 -0.00069705 -3.9126e-05 -0.0018601 -0.00027095 -0.0039709 0.0088133
0.21597 0.12133 0.00014962 0.0096751
0.00060114 0.00045072 -0.00099678 -0.00044248 -0.00044664 -0.00085069 0.0015091 -0.0022478
0.00014472 0.0096971 0.26212 0.17008
1760000000 0.27713 -0.071628 0.0043082 0.0057374 -0.002423 0.0010206 0.0012081 -0.0034375
-0.0013294 0.00072742 0.00041797 -0.00060405
0.0042959 0.005732 0.24876 0.20136 0.0016922 -0.0014725 -0.0011624 0.00020483
-0.0010762 0.00082843 -0.00061118 0.00045251
-0.0024146 0.0010362 0.0016861 -0.0014887 0.212 -0.2302 0.0013095 0.0010059
-0.0010315 0.0015499 -0.0013469 -0.00042816
0.0011844 -0.0034366 -0.0011618 0.00020274 0.0013181 0.0010103 0.23355 -0.048405
-0.00099724 0.0079213 -0.00038082 -0.0024973
-0.0013304 0.00071353 -0.0010666 0.00083023 -0.0010258 0.0015457 -0.0009845 0.0079274
0.23042 0.085722 0.0040623 0.0070148
0.00041381 -0.00060855 -0.00060298 0.00046592 -0.0013466 -0.00043907 -0.00038356 -0.0025219
0.0040623 0.0070151 0.27445 0.13213
1820000000 0.2524 -0.10851 0.0042838 0.0023113 -0.00016873 0.0026559 -0.0011427 -0.0029923
-0.0010656 0.00090235 -3.4572e-05 -0.00013099
0.0042696 0.0023131 0.25862 0.17131 -0.00042019 -0.00013822 -0.0013109 0.00092311
-0.00015476 0.0012661 -0.00058717 0.00057134
-0.00014642 0.0026573 -0.0004226 -0.00013784 0.16112 -0.2453 0.0013836 0.00039243
-0.00026111 0.0022465 -0.0014112 0.0004566
-0.0011649 -0.002986 -0.0013036 0.00093744 0.0013801 0.00039679 0.20363 -0.095019
0.00038488 0.0064216 -0.0016124 -0.0015124
-0.0010616 0.00092044 -0.00015136 0.0012709 -0.00026921 0.0022507 0.00039456 0.0064499
0.24721 0.056378 0.0050778 0.0033468
-2.6789e-05 -0.0001234 -0.0005886 0.00057919 -0.0014051 0.00050917 -0.0016228 -0.001504
0.0050767 0.0033518 0.27654 0.095936
1880000000 0.21724 -0.14871 0.0020386 0.00016204 -0.00034877 0.0022843 -0.0029834 -0.0021606
-0.00016981 0.001558 0.00032133 -0.00053277
0.0020245 0.00016478 0.26289 0.12462 -0.0025293 0.0016435 -0.00021107 0.0016886
0.00051829 0.0012975 0.00015106 0.0009578
-0.00032627 0.0022855 -0.0025134 0.0016582 0.10844 -0.25537 0.0017814 -0.00087102
0.0014385 0.0019741 -0.00096565 0.0013589
-0.0029997 -0.0021361 -0.00020814 0.0016936 0.0017794 -0.00087738 0.16306 -0.1353
0.00078112 0.004626 -0.0024586 0.00029882
-0.0001615 0.0015468 0.00053301 0.0012827 0.0014478 0.0019786 0.00080111 0.0046333
0.24945 0.023379 0.0051157 0.0012798
0.00031708 -0.00052219 0.00016323 0.00096179 -0.00094793 0.0013585 -0.0024416 0.00030206
0.0051226 0.0012891 0.27585 0.061735
1940000000 0.17779 -0.1741 -0.00021787 -0.001342 0.0015573 0.0019933 -0.0037347 0.00063662
0.0013449 0.0010721 -0.00058146 -0.00063439
-0.00021595 -0.0013463 0.26313 0.092911 -0.001277 0.0039715 0.000977 0.0012673
0.0018805 0.00054382 0.00092488 0.00037631
0.0015697 0.0019874 -0.0012441 0.0039803 0.062722 -0.24852 0.00034443 -0.0021432
0.0023974 0.0003374 0.00051533 0.0015898
-0.0037291 0.00064746 0.00098763 0.0012713 0.00035274 -0.0021526 0.11079 -0.16554
-0.0002675 0.0033509 -0.0015019 0.0016318
0.0013692 0.0010695 0.0018844 0.0005253 0.0024184 0.00033718 -0.00027298 0.0033669
0.25061 -0.016014 0.0036598 -0.002249
-0.00057842 -0.00062511 0.00091385 0.0003722 0.00051427 0.0016073 -0.0015097 0.0016324
0.0036465 -0.0022617 0.26494 0.025774
2000000000 0.1318 -0.18876 -0.004049 0.00086283 0.00247 0.0015798 -0.0023496 0.003552
0.0010018 0.00025031 -0.00056932 0.00042867
-0.0040347 0.00085967 0.24884 0.057494 -0.00094815 0.0059112 0.001612 0.0003231
0.0014087 -0.0012418 0.00053188 0.00012027
0.0024812 0.0015699 -0.00090647 0.0059243 0.019089 -0.23403 -0.0013113 -0.0012931
0.0019681 -0.0011164 0.0016412 0.0011245
-0.0023326 0.0035754 0.0016121 0.00032077 -0.0013082 -0.0013018 0.057829 -0.1751
-0.0018438 0.0038322 -0.00011842 0.0022832
0.0010031 0.00024037 0.0013923 -0.0012563 0.0019725 -0.0011373 -0.0018045 0.003851
