!Keysight Technologies,M9804A,MY58100912,A.14.10.03
!Date: Thursday, April 27, 2023 10:28:33
!Correction: S11(C  6-Port  ) 
!S12(C  6-Port  ) 
!S13(C  6-Port  ) 
!S14(C  6-Port  ) 
!S15(C  6-Port  ) 
!S16(C  6-Port  ) 
!S21(C  6-Port  ) 
!S22(C  6-Port  ) 
!S23(C  6-Port  ) 
!S24(C  6-Port  ) 
!S25(C  6-Port  ) 
!S26(C  6-Port  ) 
!S31(C  6-Port  ) 
!S32(C  6-Port  ) 
!S33(C  6-Port  ) 
!S34(C  6-Port  ) 
!S35(C  6-Port  ) 
!S36(C  6-Port  ) 
!S41(C  6-Port  ) 
!S42(C  6-Port  ) 
!S43(C  6-Port  ) 
!S44(C  6-Port  ) 
!S45(C  6-Port  ) 
!S46(C  6-Port  ) 
!S51(C  6-Port  ) 
!S52(C  6-Port  ) 
!S53(C  6-Port  ) 
!S54(C  6-Port  ) 
!S55(C  6-Port  ) 
!S56(C  6-Port  ) 
!S61(C  6-Port  ) 
!S62(C  6-Port  ) 
!S63(C  6-Port  ) 
!S64(C  6-Port  ) 
!S65(C  6-Port  ) 
!S66(C  6-Port  ) 
!S6P File: Measurement: :
# Hz S  RI   R 50
500000000 -0.33774 -0.038752 -0.010494 -0.0033353 -0.0080196 0.012692 -0.0041316 0.011367
0.01311 0.0036977 -0.0044555 0.0074674
-0.010116 -0.0032312 -0.4187 -0.052469 0.0079091 -0.011017 0.0015355 0.011981
0.0075435 0.0019465 0.0013348 0.013299
-0.0079922 0.012818 0.0074939 -0.011099 -0.26586 0.20994 0.0073788 0.0039601
-0.0016976 0.0076483 0.0012997 0.012721
-0.0045915 0.012055 0.0011288 0.01179 0.0075296 0.0038251 -0.33078 0.044716
-0.01875 -0.0056545 0.015322 0.025009
0.013157 0.0028149 0.0077811 0.0023282 -0.0020337 0.007707 -0.018623 -0.0058113
-0.22684 -0.1899 -0.025627 0.0045846
-0.0049322 0.0081986 0.0010001 0.012954 0.0012562 0.012319 0.01531 0.025124
-0.02584 0.0047229 -0.27109 -0.12692
560000000 -0.31682 0.12422 -0.024125 -0.063355 0.00050135 0.012311 0.0058418 0.010627
0.0096445 0.0041474 0.01028 0.0079373
-0.023911 -0.063429 -0.37751 0.1078 -0.041486 -0.036885 0.013305 0.0037192
-0.013545 -0.0038142 0.0030297 0.00022613
0.00024016 0.012139 -0.041469 -0.03711 -0.18341 0.25788 -8.9115e-06 -0.0048057
0.019305 0.0050823 0.0071194 -0.0062849
0.0060089 0.010822 0.01361 0.0040945 0.00010917 -0.0045181 -0.30594 0.13417
0.0043312 -0.024026 0.0041563 -0.021674
0.010396 0.0043471 -0.013577 -0.0044737 0.018859 0.0053479 0.0044593 -0.024146
-0.29147 -0.013404 0.0084993 -0.049137
0.01104 0.0075323 0.0034727 0.00041415 0.0070219 -0.0062445 0.0041361 -0.021613
0.0085005 -0.04918 -0.32966 0.022628
620000000 -0.27476 0.10762 -0.023394 0.0081942 0.0034298 0.0088891 0.0079328 -0.0052159
0.011797 4.6428e-05 0.001102 -0.0024847
-0.023178 0.0084268 -0.40276 0.060076 -0.018861 0.00038417 -0.0015564 -0.001833
0.011748 -0.0064422 0.001485 -0.0028057
0.0033611 0.0089554 -0.018957 0.00036269 -0.15349 0.26744 -0.0014471 -0.0048034
-0.0032448 -0.0031652 0.008911 -0.0024467
0.0077391 -0.0053242 -0.0016325 -0.0021982 -0.0015261 -0.0048213 -0.26505 0.14527
-0.037952 -0.019955 0.011777 0.026059
0.012211 -7.3807e-05 0.011429 -0.0062002 -0.0029164 -0.0031004 -0.03753 -0.019631
-0.20888 -0.052906 -0.039827 0.012769
0.0011682 -0.0027804 0.0015754 -0.0031958 0.0085672 -0.0025362 0.010887 0.026156
-0.040005 0.012629 -0.25215 -0.011894
680000000 -0.23398 0.19341 -0.026944 -0.013861 0.0050045 0.0051176 0.0016 -0.0071024
-0.0026704 -0.011193 0.0049603 -0.0070743
-0.026973 -0.013944 -0.3874 0.15794 -0.032588 -0.0010587 -0.0016251 -0.00047422
-0.0020361 -0.0090553 -0.0015867 -0.0019888
0.0050428 0.0051872 -0.032614 -0.00096449 -0.10203 0.28709 -0.00092664 -0.00015822
-0.0019406 0.00034961 -0.0031369 -0.0092999
0.0014106 -0.0069709 -0.0015366 -0.00049122 -0.0009341 -0.00011766 -0.22018 0.19493
-0.023944 -0.0073413 -0.0090481 -0.010327
-0.0030358 -0.011483 -0.0019752 -0.0090078 -0.0018944 0.00041251 -0.023984 -0.0073464
-0.25779 0.044276 -0.0063333 -0.0083789
0.0048504 -0.0071958 -0.0014605 -0.0020404 -0.0031095 -0.0092991 -0.0092369 -0.010603
-0.0061804 -0.0084372 -0.25905 0.093013
740000000 -0.19009 0.18804 -0.038296 0.027031 0.012829 -0.005311 -0.00028842 -0.0039646
-0.0043386 -0.0029897 -0.0068876 0.0028763
-0.038597 0.026422 -0.33512 0.17717 -0.035261 0.034784 -0.0010609 -0.006659
-0.011058 0.009118 -0.0022602 -0.0068002
0.012841 -0.0053767 -0.035367 0.034824 -0.06838 0.28472 -0.0018127 0.0032976
-0.0030702 -0.0048629 -0.0012415 0.00079037
-0.00041649 -0.0038448 -0.0011357 -0.0064158 -0.0017831 0.0033114 -0.20284 0.20226
-0.043517 -0.0062439 0.023535 0.014208
-0.0042078 -0.003013 -0.01105 0.0085523 -0.0029264 -0.0048571 -0.04368 -0.006404
-0.15893 0.069374 -0.043504 0.0015211
-0.0067222 0.0027984 -0.0024839 -0.0062131 -0.0013281 0.00064476 0.023417 0.014491
-0.043418 0.0016169 -0.24705 0.098466
800000000 -0.15714 0.22805 -0.022553 0.016627 0.0052751 -0.010625 -0.0047074 -0.0019051
-0.004495 0.002738 0.0042658 0.00058409
-0.022423 0.016726 -0.33809 0.24611 -0.0079145 0.033994 -0.0024529 0.0022738
-0.0011423 0.0033509 0.00095455 0.0054254
0.0052648 -0.010603 -0.0078231 0.034106 -0.027842 0.30816 0.0010865 0.0015667
0.00028154 0.0035938 -0.0019037 0.00093906
-0.0047193 -0.0017551 -0.0024491 0.002321 0.0010767 0.0015669 -0.17481 0.23009
-0.028454 0.013685 0.013281 -0.010144
-0.0044298 0.0026558 -0.0012074 0.0032986 0.00029668 0.0035337 -0.028394 0.013709
-0.20539 0.094737 -0.017021 0.019004
0.0044919 0.00066721 0.00084121 0.0054368 -0.0018743 0.00098649 0.013648 -0.01018
-0.017058 0.018861 -0.24211 0.14697
860000000 -0.1222 0.24829 -0.017227 0.030681 -0.0032813 -0.01006 -0.0021705 0.0010984
0.004043 0.0053045 -0.0033021 -0.0025921
-0.017151 0.030591 -0.29037 0.28831 0.0080127 0.034185 7.0037e-05 0.0020657
0.0043919 0.00022127 0.0033018 0.00088447
-0.0033025 -0.010022 0.0080849 0.034212 0.020061 0.31598 -0.00047504 -0.00019193
0.0028036 -0.0015033 0.0017219 0.0044003
-0.0021778 0.0010384 4.7933e-05 0.0020607 -0.00048818 -0.00018056 -0.13874 0.24124
-0.017598 0.018778 -0.0056549 -0.0092132
0.0043483 0.0050256 0.0044553 0.00018311 0.0028513 -0.0014858 -0.017637 0.018874
-0.15438 0.14444 -0.024992 0.015632
-0.0032488 -0.0027247 0.0033087 0.00070964 0.0017274 0.0043309 -0.0057991 -0.0092257
-0.024741 0.015485 -0.18935 0.19283
920000000 -0.097496 0.27088 0.005266 0.037624 -0.0093957 -0.0046384 -0.0017125 0.001926
0.0012347 0.0015504 0.0026237 -0.0015834
0.0052694 0.037558 -0.2617 0.30957 0.02827 0.021874 0.0015325 0.0011798
0.0073069 -0.00074488 0.0040358 -0.0028603
-0.0094414 -0.0045882 0.028339 0.021792 0.066398 0.31682 0.0018326 -0.00014647
0.0013478 -0.00052324 0.0008985 -0.0011953
-0.0017558 0.0018771 0.001533 0.0010711 0.0018397 -0.00017021 -0.11499 0.25824
-0.010635 0.030234 0.0032321 -0.0066618
0.0014246 0.0017342 0.007315 -0.00067345 0.0013906 -0.00054228 -0.010628 0.03025
-0.14321 0.14967 -0.003054 0.026823
0.002756 -0.0018116 0.0040519 -0.0029812 0.0008761 -0.0012337 0.0032457 -0.0065633
-0.0030449 0.026715 -0.19824 0.20736
980000000 -0.050426 0.2901 0.017569 0.029795 -0.0090643 0.0045581 0.002035 0.0034449
0.0038738 -0.0017594 -0.0034014 -0.0020731
0.017565 0.029792 -0.20902 0.34329 0.0331 0.0046547 0.0019778 -0.00016753
0.0015037 -0.0060656 -0.00053452 -0.002299
-0.0090562 0.0046185 0.033156 0.0045602 0.11274 0.31017 0.00046246 -0.0012321
0.00015912 -0.002147 0.0013844 -0.00021281
0.0020617 0.0034394 0.0019566 -0.0002115 0.00045629 -0.0012303 -0.076636 0.26957
0.0079844 0.030071 -0.0089356 -0.0068685
0.0040145 -0.0018197 0.0015428 -0.0062188 0.00017948 -0.0022208 0.0079513 0.030066
-0.11316 0.17969 0.0052517 0.020137
-0.0034065 -0.0021758 -0.00065926 -0.0022659 0.0013654 -0.00019819 -0.0088244 -0.0067915
0.0051653 0.020134 -0.15483 0.25016
1040000000 -0.0085011 0.29833 0.033142 0.017823 -0.0013828 0.0069553 0.0024958 0.0007483
-0.00018239 -0.003551 -0.0005141 -0.0015715
0.033161 0.017833 -0.17355 0.35639 0.029281 -0.015065 0.0013877 -0.0017394
-0.002639 -0.0024736 -0.0015906 -0.0028484
-0.0013826 0.0069621 0.029277 -0.015208 0.15899 0.29654 -0.00057552 -0.0014782
-0.0016609 -0.00085041 -0.00058129 -0.0011619
0.0025652 0.00073679 0.0013617 -0.0017704 -0.00058061 -0.0014705 -0.049153 0.27994
0.019436 0.017769 -0.0025522 0.0015264
-0.00011249 -0.0034188 -0.002679 -0.0024636 -0.0016392 -0.00090576 0.019515 0.017724
-0.080297 0.18685 0.013636 0.018298
-0.00042424 -0.0016019 -0.001543 -0.0028189 -0.00057983 -0.0011978 -0.0025164 0.0016815
0.013664 0.018223 -0.13357 0.27115
1100000000 0.036871 0.30609 0.035723 -0.0045354 0.0028657 0.0039204 0.0024005 -0.001316
-0.0020656 -0.0031569 -0.0039935 0.00023092
0.035735 -0.0044975 -0.13018 0.37378 0.015008 -0.028066 -1.8771e-05 -0.0018467
-0.0034826 -0.00059244 -0.0035757 -0.0003462
0.0028582 0.0039185 0.014913 -0.028162 0.20565 0.27601 -0.0018257 0.00026939
-0.0018085 0.00061728 -0.0010889 -0.0003238
0.0024046 -0.001361 -4.3985e-05 -0.0018481 -0.001837 0.00028001 -0.008704 0.28493
0.024628 0.0047214 -0.0025649 0.0003309
-0.002035 -0.0031067 -0.0035041 -0.0006105 -0.0018081 0.00061825 0.024588 0.0047253
-0.062918 0.20096 0.019213 0.0086202
-0.0038597 0.0002085 -0.0034674 -0.0003242 -0.001117 -0.0003506 -0.0024962 0.00026825
0.019218 0.0085686 -0.087759 0.3003
1160000000 0.088117 0.30099 0.023693 -0.021059 0.0026641 -0.00042892 -0.00022543 -0.0024488
-0.0043287 -0.00072976 -0.00085416 0.0042595
0.02368 -0.021005 -0.086312 0.37808 -0.0040622 -0.029113 -0.001748 -0.001716
-0.0026166 0.0025257 -0.0013428 0.0019832
0.002646 -0.00043196 -0.0041801 -0.029167 0.24865 0.2448 -0.0007093 0.0018501
-0.00053149 0.0020017 -0.0010287 0.00019081
-0.00021094 -0.0024917 -0.0017493 -0.0016941 -0.0006961 0.0018394 0.030782 0.28213
0.020855 -0.01093 -0.003049 0.0052308
-0.0042846 -0.00072498 -0.0026324 0.0025122 -0.0005491 0.0019936 0.020868 -0.010903
-0.029108 0.20958 0.017963 0.00022522
-0.0007802 0.0041992 -0.0013471 0.0019968 -0.0010249 0.00010519 -0.0028997 0.0052124
0.017962 0.0001818 -0.040998 0.30307
1220000000 0.13245 0.28991 0.0099854 -0.030141 -0.0015586 -0.00075098 -4.2149e-05 -0.00094257
-0.0027178 0.0024779 0.0013086 0.0021405
0.010007 -0.030107 -0.041795 0.39011 -0.017174 -0.021078 -0.0025247 0.00052812
0.00014883 0.0030257 -0.00074384 0.0019476
-0.0015513 -0.00075118 -0.0173 -0.021016 0.2876 0.20533 0.00087489 0.0016766
0.00063273 0.0012377 0.00031485 0.00073666
-4.8863e-05 -0.00092844 -0.0025395 0.00053127 0.00086336 0.001667 0.070843 0.27363
0.0099747 -0.0173 0.0021311 0.0015146
-0.0026576 0.0024212 0.00019669 0.0030037 0.00061689 0.0012145 0.009941 -0.017272
-0.0061288 0.21921 0.013884 -0.013017
0.0012343 0.0021206 -0.00076698 0.0019105 0.00035794 0.00067805 0.0021622 0.0014651
0.013897 -0.012974 -0.009378 0.31921
1280000000 0.18221 0.2678 -0.0084328 -0.028429 -0.0018275 0.0026145 -0.00094807 -0.0019786
-0.00073473 0.0031275 0.0025338 0.0010895
-0.0083887 -0.028373 0.004349 0.38102 -0.023908 -0.0082783 -0.00091951 0.0014772
0.0017225 0.0017544 0.00060035 0.0020618
-0.0018263 0.0026268 -0.023978 -0.0081424 0.31772 0.16123 0.0015293 -8.995e-05
0.0010923 0.00026615 0.00036221 0.00030679
-0.00093169 -0.00196 -0.00090987 0.0015091 0.0015249 -6.5894e-05 0.10767 0.25724
0.00038595 -0.018997 1.2676e-05 0.00012789
-0.00070836 0.00316 0.0017481 0.0017367 0.0011374 0.00024058 0.00035427 -0.019016
0.030856 0.22309 0.0029271 -0.015021
0.0025068 0.0010449 0.00059195 0.0020689 0.00028212 0.00033005 3.6582e-05 0.00015235
0.0028647 -0.015021 0.038273 0.32122
1340000000 0.21925 0.23379 -0.017934 -0.018533 0.0010669 0.0045092 -0.0018078 -0.00082887
0.0014819 0.0026147 0.0017126 -0.0014782
-0.017921 -0.018539 0.043814 0.37253 -0.021563 0.0045713 -4.5434e-05 0.0019817
0.0019155 0.00069515 0.0013739 0.0007549
0.0010686 0.0044596 -0.021568 0.0046931 0.33929 0.11347 0.0011143 -0.001041
0.00079205 -0.00044464 0.0002068 0.00027911
-0.0018098 -0.0007947 -5.3628e-05 0.0019736 0.0010961 -0.0010355 0.14044 0.23681
-0.0088579 -0.01601 0.00095842 0.00048532
0.0015786 0.0026112 0.0019399 0.00068077 0.00078722 -0.0004055 -0.0089459 -0.015988
0.061188 0.2184 -0.0038082 -0.013595
0.0016652 -0.0014967 0.0013595 0.00074106 0.000224 0.00024559 0.00091281 0.00056587
-0.00383 -0.013582 0.076903 0.31611
1400000000 0.25218 0.19527 -0.023462 -0.0069369 0.0052495 0.003023 -0.0020778 0.00069332
0.0025449 0.00088139 0.0002234 -0.001455
-0.023422 -0.0069628 0.080975 0.35913 -0.01465 0.012602 0.0013301 0.0012378
0.0011107 -0.00089547 0.0012303 0.00015393
0.0052773 0.0030001 -0.014614 0.012706 0.35228 0.060221 5.4543e-05 -0.0016434
3.7132e-05 -0.00046773 0.00038764 0.00025542
-0.0020973 0.00072449 0.0013463 0.0012374 3.1552e-05 -0.0016773 0.16986 0.20792
-0.014551 -0.0090845 -0.0007392 -0.00036691
0.0025626 0.00086687 0.0011461 -0.00087477 1.5893e-05 -0.00045214 -0.014552 -0.0090722
0.094243 0.21403 -0.010262 -0.0086204
0.00015853 -0.0014483 0.0012121 0.00012086 0.00045419 0.00026392 -0.00077443 -0.0004017
-0.010282 -0.0086631 0.12146 0.30515
1460000000 0.27463 0.15106 -0.020148 0.0052056 0.0056365 -0.0019576 -0.0015803 0.0016921
0.0021209 -0.00063195 -0.00035535 -0.00094704
-0.020171 0.0052023 0.11495 0.3371 -0.005955 0.015398 0.001676 0.0001596
0.00076733 -0.0012798 0.0011849 -0.00064936
0.005639 -0.0019669 -0.0058691 0.015462 0.35824 0.0061172 -0.0012898 -0.0012347
0.00019965 -0.00029749 0.00061614 -0.00044026
-0.001586 0.0017209 0.001686 0.00014314 -0.0013282 -0.0012069 0.1963 0.17875
-0.015314 -0.0023678 -0.0008769 0.0019364
0.0021232 -0.00069822 0.00077291 -0.0013013 0.00018843 -0.00030975 -0.01533 -0.0023101
0.12362 0.19907 -0.0119 -0.0026327
-0.00039136 -0.00089346 0.001151 -0.0006619 0.00057713 -0.00035353 -0.00083449 0.0019347
-0.01193 -0.0025895 0.1549 0.28385
1520000000 0.28641 0.10902 -0.014316 0.010561 0.0031907 -0.0042608 0.00011239 0.0026267
0.0019503 -0.0018144 -0.0011356 -3.2268e-05
-0.014314 0.010541 0.14815 0.32226 0.0016813 0.013011 0.0015889 -0.00078659
-6.7902e-06 -0.00097608 0.00028509 -0.0010221
0.0031901 -0.0042754 0.0017567 0.013021 0.35147 -0.049967 -0.0011095 -0.00029351
0.00060913 -0.0008423 3.4996e-05 -0.00012941
0.00013451 0.002609 0.0016123 -0.00079155 -0.0011164 -0.00032819 0.2194 0.14082
-0.014309 0.0032591 0.001496 0.001976
0.0019272 -0.0017751 -9.1391e-06 -0.00097338 0.00060707 -0.00087091 -0.014319 0.003263
0.15167 0.1847 -0.011666 0.001942
-0.0010721 -6.1645e-05 0.00027417 -0.0010291 -3.3536e-06 -0.00012474 0.001511 0.0019934
-0.01168 0.0018955 0.18809 0.26341
1580000000 0.29516 0.062909 -0.0075681 0.013441 -0.00085155 -0.0048276 0.0014595 0.0018687
-0.00038781 -0.002141 -0.00028972 0.00044935
-0.0075872 0.013442 0.17518 0.29755 0.0052836 0.0082097 0.00048705 -0.0015832
-0.00048898 -0.00099123 -0.00027335 -0.00086422
-0.00087335 -0.0048189 0.0053407 0.0081936 0.33138 -0.10744 -0.0015327 0.000638
-0.00022123 -0.0010902 0.00017996 -0.00053647
0.0014732 0.0018787 0.00048659 -0.0015849 -0.0015343 0.00064888 0.23329 0.10151
-0.010521 0.0077548 0.0021542 0.00059517
-0.00038209 -0.0021608 -0.00050053 -0.00099994 -0.00022431 -0.0010909 -0.010486 0.0077384
0.17603 0.16655 -0.0091461 0.0074187
-0.00028337 0.00043614 -0.00024922 -0.00083812 0.0002226 -0.00051242 0.0020993 0.00061899
-0.0091443 0.0074497 0.22013 0.23615
1640000000 0.29672 0.021785 -0.00093564 0.012083 -0.0027894 -0.0026534 0.002693 0.00095942
-0.00083932 -0.0014246 -0.00026069 0.00054072
-0.00097285 0.012078 0.20444 0.27269 0.0059362 0.0034621 -0.00070773 -0.0017085
-0.00097916 -0.00038626 -0.00055835 -0.00065397
-0.0028153 -0.0026469 0.0059553 0.0034181 0.30309 -0.15606 -0.00068591 0.0014653
-0.0013232 -0.00087264 -0.00016874 -0.0003245
0.0026965 0.00096898 -0.00073493 -0.0017202 -0.00067406 0.0014633 0.24551 0.052848
-0.0063527 0.0085424 0.0024377 -0.00078999
-0.00085597 -0.001464 -0.00097755 -0.0003883 -0.0013618 -0.00086925 -0.0062726 0.0085658
0.19846 0.14175 -0.0043928 0.0094079
-0.00027869 0.00059788 -0.00057376 -0.00063804 -0.00014048 -0.00032591 0.0024597 -0.0007923
-0.0044434 0.0093983 0.2455 0.20502
1700000000 0.28939 -0.023176 0.0023121 0.0090956 -0.0035395 -1.1852e-05 0.0029664 -0.0012883
-0.0019922 -0.00055399 0.00072582 0.00041144
0.0023075 0.0090764 0.22247 0.24124 0.0039871 0.00049284 -0.0014783 -0.00057509
-0.00072645 -4.8449e-06 -0.00091602 -0.00041433
-0.0035194 2.0405e-05 0.0039916 0.00045567 0.26017 -0.19581 0.00047077 0.0015747
-0.0018599 -0.00012336 -0.0005278 -0.0008917
0.0029582 -0.0013065 -0.0014928 -0.00057088 0.00044707 0.0016054 0.24246 0.0033826
-0.0037203 0.0086536 0.0015164 -0.0022656
-0.001986 -0.00056387 -0.0007299 -9.9667e-06 -0.0018328 -0.000108 -0.0036734 0.0086668
0.21558 0.12132 0.00032399 0.0095067
0.0006762 0.00038529 -0.00091843 -0.00038975 -0.00053018 -0.00091119 0.0015281 -0.0022651
0.00030986 0.009496 0.26177 0.17054
1760000000 0.27696 -0.071426 0.0043365 0.0057889 -0.0023805 0.0010292 0.001221 -0.0034204
-0.0012813 0.00076506 0.00035238 -0.00053739
0.004348 0.0057724 0.24826 0.20157 0.001645 -0.001382 -0.0011852 0.00021169
-0.0010468 0.00083736 -0.00054444 0.00046176
-0.0023415 0.0010305 0.0016405 -0.0013857 0.21211 -0.22991 0.0012791 0.0010236
-0.0010584 0.0015246 -0.0011964 -0.00028565
0.0012184 -0.0034366 -0.0011611 0.0002138 0.0012913 0.0010209 0.23339 -0.047724
-0.00093309 0.0077688 -0.00022073 -0.0024826
-0.0012549 0.00081235 -0.0010451 0.00087418 -0.0010724 0.0015338 -0.00094987 0.0077408
0.22988 0.08591 0.004235 0.006928
0.00036272 -0.00057479 -0.00050033 0.00045233 -0.001174 -0.0003004 -0.00026497 -0.0025061
0.004239 0.006903 0.27431 0.13262
1820000000 0.25235 -0.10838 0.0043302 0.0023698 -0.00016395 0.0025031 -0.0010422 -0.0030261
-0.00092519 0.00094116 -3.5357e-05 -0.00011434
0.0043045 0.0023757 0.2582 0.17164 -0.00048361 -0.00015473 -0.0012665 0.00099053
-0.00010973 0.0013144 -0.00044738 0.00053815
-0.00012898 0.0025333 -0.00048927 -0.0001466 0.16113 -0.24579 0.00144 0.00041285
-0.00015798 0.0021944 -0.0013977 0.00040808
-0.001056 -0.0030078 -0.0013067 0.00099972 0.0014169 0.000446 0.20381 -0.09472
0.00020995 0.0061637 -0.0016547 -0.0015317
-0.00092443 0.00094012 -0.00011102 0.0012994 -0.00020763 0.0021665 0.00023631 0.0061437
0.24647 0.056493 0.0050079 0.0033374
-7.2003e-05 -0.00013679 -0.00049612 0.00054003 -0.0013831 0.00039616 -0.0016602 -0.0016019
0.0050152 0.0033265 0.27638 0.096491
1880000000 0.21729 -0.1485 0.0021265 0.00023516 -0.00036127 0.0022741 -0.0029978 -0.0021731
-0.00010536 0.0015149 0.00014003 -0.00059867
0.0021067 0.00024154 0.26267 0.12525 -0.0025499 0.0017175 -0.00015455 0.0016864
0.00055173 0.0013032 0.00010619 0.00086996
-0.0003509 0.0022844 -0.0025406 0.0017565 0.10825 -0.2553 0.0017526 -0.0010013
0.0014376 0.0019108 -0.00097682 0.0012902
-0.0029888 -0.0022277 -0.0001444 0.0016919 0.0017669 -0.0010367 0.16353 -0.13476
0.00053919 0.0044941 -0.0023934 0.00035425
-8.82e-05 0.0014869 0.00055702 0.0012857 0.0014778 0.0019499 0.00058505 0.0044727
0.24879 0.023765 0.0049389 0.0011979
0.00017442 -0.00065523 8.6616e-05 0.00084673 -0.0009534 0.0012974 -0.0024071 0.00043425
0.0049141 0.0011878 0.27603 0.062067
1940000000 0.17792 -0.17401 -8.8936e-05 -0.0013352 0.0016079 0.001928 -0.0038066 0.0005381
0.0013201 0.00097083 -0.00062578 -0.00054485
-9.1122e-05 -0.0013291 0.26327 0.093472 -0.0012034 0.0039991 0.0010532 0.0012649
0.0018742 0.00056836 0.00083474 0.00032483
0.0016357 0.0019364 -0.0011878 0.0040048 0.062853 -0.24853 0.0004909 -0.0021888
0.002444 0.00035576 0.00031895 0.0016048
-0.0037787 0.00053519 0.0010218 0.0012858 0.00041099 -0.0021847 0.11153 -0.16523
-0.00044861 0.0034706 -0.0015227 0.0014199
0.0013159 0.00096584 0.0018701 0.00053609 0.002432 0.00034622 -0.00049978 0.0034858
0.25 -0.015241 0.00361 -0.0022949
-0.00061183 -0.00055026 0.00081906 0.00029123 0.0002849 0.0016169 -0.0014829 0.0014719
0.0036096 -0.0022776 0.26477 0.026228
2000000000 0.13192 -0.18886 -0.0039492 0.00075862 0.0024777 0.0014774 -0.0023573 0.0036459
0.00092288 0.00016151 -0.00066857 0.00029932
-0.0039333 0.00076507 0.24915 0.05804 -0.00084274 0.0058404 0.0016273 0.00032985
0.0013758 -0.0013391 0.00039089 0.00014076
0.002469 0.0014378 -0.00079835 0.0058674 0.019095 -0.23403 -0.0013156 -0.0012975
0.0019023 -0.0011755 0.0015554 0.0013642
-0.0022301 0.0037134 0.0016341 0.00032001 -0.0013422 -0.0013069 0.058509 -0.17532
-0.0020258 0.0039164 -0.0002372 0.0025392
0.00095575 0.00021479 0.0013762 -0.0013508 0.0019273 -0.0011564 -0.0020323 0.0039389
0.24315 -0.048939 0.0001276 -0.0030206
