!Keysight Technologies,M9804A,MY58100912,A.14.10.03
!Date: Thursday, April 27, 2023 10:28:33
!Correction: S11(C  6-Port  ) 
!S12(C  6-Port  ) 
!S13(C  6-Port  ) 
!S14(C  6-Port  ) 
!S15(C  6-Port  ) 
!S16(C  6-Port  ) 
!S21(C  6-Port  ) 
!S22(C  6-Port  ) 
!S23(C  6-Port  ) 
!S24(C  6-Port  ) 
!S25(C  6-Port  ) 
!S26(C  6-Port  ) 
!S31(C  6-Port  ) 
!S32(C  6-Port  ) 
!S33(C  6-Port  ) 
!S34(C  6-Port  ) 
!S35(C  6-Port  ) 
!S36(C  6-Port  ) 
!S41(C  6-Port  ) 
!S42(C  6-Port  ) 
!S43(C  6-Port  ) 
!S44(C  6-Port  ) 
!S45(C  6-Port  ) 
!S46(C  6-Port  ) 
!S51(C  6-Port  ) 
!S52(C  6-Port  ) 
!S53(C  6-Port  ) 
!S54(C  6-Port  ) 
!S55(C  6-Port  ) 
!S56(C  6-Port  ) 
!S61(C  6-Port  ) 
!S62(C  6-Port  ) 
!S63(C  6-Port  ) 
!S64(C  6-Port  ) 
!S65(C  6-Port  ) 
!S66(C  6-Port  ) 
!S6P File: Measurement: :
# Hz S  RI   R 50
500000000 -0.33758 -0.036989 -0.010027 -0.0014415 -0.008082 0.013707 -0.0039109 0.0112
0.014061 0.0041179 -0.003975 0.0075341
-0.010025 -0.0014678 -0.41771 -0.050802 0.0079204 -0.010377 0.0015333 0.011401
0.0081205 0.0028024 0.0020061 0.012821
-0.0080979 0.013715 0.0079108 -0.010411 -0.2665 0.21028 0.0074238 0.0036877
-0.0013766 0.0085187 0.0016508 0.012413
-0.0039538 0.011215 0.0015397 0.011424 0.0074223 0.0037053 -0.33126 0.043892
-0.018857 -0.0063653 0.015247 0.02462
0.014092 0.0039751 0.0081145 0.0027849 -0.0013438 0.008507 -0.01884 -0.0063604
-0.22838 -0.19042 -0.026116 0.0043948
-0.004034 0.0075453 0.0020508 0.012828 0.0016935 0.012413 0.015258 0.024572
-0.02612 0.0043695 -0.27154 -0.12662
560000000 -0.31822 0.12308 -0.024806 -0.063028 -0.00015916 0.012319 0.005644 0.010406
0.010391 0.0056415 0.0094722 0.0080983
-0.0247 -0.06294 -0.3778 0.10841 -0.041403 -0.037033 0.013773 0.0043426
-0.012829 -0.0047619 0.0033666 0.0015895
-0.00016302 0.01232 -0.041494 -0.036999 -0.18358 0.25887 -0.00044033 -0.0044815
0.0195 0.0054619 0.0065352 -0.00603
0.0056392 0.010405 0.013762 0.00426 -0.00043393 -0.0044974 -0.30604 0.13479
0.0049931 -0.023492 0.0046361 -0.021878
0.010511 0.0057159 -0.012946 -0.0047743 0.019539 0.0053978 0.0049499 -0.023511
-0.28869 -0.016835 0.0095353 -0.049351
0.0095838 0.0081761 0.003399 0.0016333 0.0065274 -0.0060149 0.004656 -0.021843
0.0095996 -0.049356 -0.33089 0.022654
620000000 -0.27489 0.10675 -0.023339 0.0084931 0.003616 0.0090824 0.0087782 -0.0050547
0.011535 -0.0010469 0.0017985 -0.002288
-0.023335 0.0085142 -0.40303 0.060079 -0.018781 0.0004383 -0.001629 -0.001973
0.011465 -0.006469 0.0013826 -0.0026262
0.0036198 0.0090908 -0.01881 0.00050197 -0.15334 0.26753 -0.00074039 -0.0051896
-0.0035286 -0.0033378 0.0089191 -0.0027791
0.0087034 -0.005244 -0.0016519 -0.0019688 -0.00075301 -0.0051846 -0.26482 0.14433
-0.038552 -0.019919 0.011121 0.025117
0.011457 -0.00082976 0.011435 -0.0065283 -0.0035236 -0.0033711 -0.038556 -0.01993
-0.20964 -0.050189 -0.03974 0.013702
0.0018581 -0.0021613 0.0013814 -0.0026368 0.0089133 -0.0027717 0.011188 0.025118
-0.039776 0.013651 -0.25281 -0.012498
680000000 -0.23449 0.19381 -0.027045 -0.013466 0.0052845 0.005398 0.0014268 -0.0066275
-0.0029743 -0.011422 0.0051443 -0.0059859
-0.027015 -0.013495 -0.38751 0.15822 -0.03212 -0.00093567 -0.0014644 -0.0001025
-0.0019326 -0.0090415 -0.0012587 -0.0016292
0.0053347 0.005383 -0.032166 -0.00086453 -0.10139 0.28731 -0.0010076 -0.00017562
-0.0017943 0.00041759 -0.002697 -0.0091
0.001566 -0.0066176 -0.0014422 -0.00012167 -0.0009957 -0.00017509 -0.2203 0.19554
-0.023099 -0.0071986 -0.0090827 -0.010339
-0.0030324 -0.011483 -0.0019617 -0.0090517 -0.0018024 0.00039693 -0.023119 -0.0071593
-0.25831 0.044042 -0.0062277 -0.0082775
0.0050286 -0.0060468 -0.0012711 -0.0015956 -0.0027032 -0.0090856 -0.0090981 -0.010364
-0.0062279 -0.0082658 -0.25892 0.093951
740000000 -0.1901 0.18827 -0.038001 0.026816 0.012949 -0.0052535 -0.00048965 -0.0044812
-0.0045384 -0.0024021 -0.0067993 0.0022385
-0.038017 0.026718 -0.33454 0.17672 -0.035061 0.034972 -0.00059073 -0.0065032
-0.012051 0.0075733 -0.0015956 -0.0059216
0.012971 -0.0052953 -0.034979 0.035097 -0.068015 0.28493 -0.0021909 0.0031215
-0.0026036 -0.0048517 -0.002029 0.00063873
-0.00053468 -0.0044506 -0.00059979 -0.0064979 -0.0021945 0.0031346 -0.20313 0.20275
-0.043714 -0.006359 0.023178 0.014637
-0.0044307 -0.0023302 -0.01205 0.0076328 -0.0026001 -0.0048588 -0.043742 -0.0063059
-0.16023 0.071986 -0.043016 0.0010901
-0.0068119 0.0022573 -0.0015701 -0.0058586 -0.002032 0.0006516 0.023198 0.01463
-0.04301 0.001067 -0.24809 0.099946
800000000 -0.15716 0.22815 -0.022212 0.016449 0.0052285 -0.010634 -0.0048379 -0.0016756
-0.0044137 0.0029107 0.0039296 0.00076751
-0.022179 0.016452 -0.33759 0.24621 -0.0078257 0.033685 -0.0025173 0.0021632
-0.0011057 0.003322 0.0010123 0.0052554
0.0052199 -0.010663 -0.0077299 0.03374 -0.027398 0.30767 0.0010418 0.001621
0.00035074 0.0036678 -0.0017366 0.00085513
-0.0047848 -0.0016819 -0.0024944 0.0021638 0.0010379 0.0016164 -0.17483 0.23044
-0.02804 0.013782 0.013196 -0.0099915
-0.0044005 0.0029007 -0.0010918 0.0033336 0.00036276 0.0036682 -0.028021 0.013839
-0.20475 0.09591 -0.016385 0.018761
0.0039846 0.00077194 0.0010303 0.0052695 -0.0017358 0.00086711 0.013145 -0.010001
-0.016391 0.018747 -0.24205 0.14919
860000000 -0.12238 0.24801 -0.016972 0.030523 -0.0032975 -0.0098185 -0.0025308 0.00079491
0.0042117 0.0048793 -0.0032087 -0.0022931
-0.016961 0.030482 -0.29026 0.2883 0.0079421 0.03401 0.00014567 0.0020925
0.0046369 0.00017771 0.0035766 0.0010634
-0.0033151 -0.0098294 0.0080582 0.034019 0.020176 0.31557 -0.00053498 -0.00014625
0.0028483 -0.001423 0.0016198 0.0043662
-0.0025752 0.00081207 0.00014062 0.0021065 -0.00054297 -0.00014513 -0.13855 0.24069
-0.017409 0.018722 -0.0062879 -0.0093234
0.0042238 0.0048398 0.0046518 0.00015759 0.0028446 -0.0014136 -0.017404 0.018769
-0.15344 0.14561 -0.024397 0.015953
-0.0031421 -0.0022539 0.0035467 0.0010678 0.0016149 0.0043528 -0.0062589 -0.0093286
-0.024389 0.015933 -0.19031 0.19295
920000000 -0.097511 0.27084 0.0053714 0.037482 -0.0092924 -0.0045722 -0.0017498 0.0019451
0.0017855 0.0018368 0.0030853 -0.0014975
0.0053622 0.037462 -0.26153 0.3093 0.028127 0.021744 0.0013903 0.0011808
0.0072282 -5.0625e-05 0.0041683 -0.0029413
-0.009303 -0.0045483 0.028241 0.021688 0.066356 0.3164 0.0018897 -0.00012569
0.0013864 -0.00036764 0.00085571 -0.0012821
-0.0017212 0.0018963 0.0014185 0.001196 0.0018976 -0.00014233 -0.11446 0.25807
-0.010274 0.030281 0.0036443 -0.0066396
0.0017424 0.0017924 0.0072426 -6.2325e-05 0.0013863 -0.00037693 -0.010196 0.030326
-0.14149 0.14998 -0.0023938 0.02699
0.0030718 -0.0015035 0.0041516 -0.0029507 0.00085844 -0.0012942 0.0035855 -0.0065989
-0.0024272 0.026996 -0.19702 0.2076
980000000 -0.050532 0.28961 0.01744 0.029566 -0.0090829 0.0044247 0.0019813 0.003337
0.0037451 -0.0017335 -0.0034001 -0.0021022
0.017408 0.02956 -0.2089 0.34293 0.03289 0.0046523 0.0019072 -0.00019911
0.0015511 -0.0061727 -0.00058889 -0.0022052
-0.009075 0.0044352 0.032948 0.0045739 0.11251 0.30974 0.00049427 -0.0013092
0.0001072 -0.0022365 0.0012178 -0.00023388
0.0019914 0.0033703 0.0019042 -0.00018367 0.00049221 -0.0013065 -0.076597 0.26871
0.0078477 0.029585 -0.0089374 -0.0069801
0.0037471 -0.001765 0.0015111 -0.0061717 0.00010652 -0.002229 0.0079229 0.029586
-0.11225 0.17971 0.0052234 0.019598
-0.0033827 -0.0020919 -0.00060744 -0.0021557 0.001214 -0.00022669 -0.0089476 -0.0069773
0.005209 0.019573 -0.1541 0.25006
1040000000 -0.0085877 0.29803 0.03305 0.017649 -0.0013735 0.0067576 0.0024826 0.00097403
-0.00010928 -0.0034333 -0.00036491 -0.0012748
0.033036 0.017659 -0.17355 0.35597 0.029194 -0.014955 0.0013713 -0.0016644
-0.0025182 -0.0025675 -0.0014521 -0.0027911
-0.0013611 0.0067667 0.029194 -0.015069 0.15865 0.29625 -0.00060245 -0.0014357
-0.0017248 -0.00083191 -0.00057975 -0.0010639
0.0024825 0.00093181 0.0013891 -0.0016674 -0.00059726 -0.0014307 -0.04918 0.2794
0.018993 0.017624 -0.0026167 0.0014772
-0.00013075 -0.0034464 -0.0025474 -0.0025242 -0.00172 -0.00083424 0.019029 0.017607
-0.080142 0.18606 0.013355 0.018206
-0.00035899 -0.0012684 -0.001463 -0.0027598 -0.00058138 -0.0010608 -0.0026305 0.0014823
0.013326 0.018204 -0.13278 0.27182
1100000000 0.036437 0.30591 0.035487 -0.0045751 0.0027152 0.0038962 0.0025113 -0.0012426
-0.0020378 -0.0030339 -0.0039521 0.00015764
0.035457 -0.0045374 -0.13019 0.37316 0.015012 -0.027872 6.8745e-05 -0.0018434
-0.0034776 -0.00069877 -0.0035137 -0.00041813
0.0027318 0.0038776 0.014926 -0.027962 0.20519 0.2758 -0.0018652 0.00023527
-0.0017692 0.00060337 -0.0010928 -0.00022588
0.0025081 -0.001231 6.7124e-05 -0.0018387 -0.0018608 0.00024082 -0.0089467 0.28434
0.02427 0.0048367 -0.0025853 0.00023116
-0.0020618 -0.0030411 -0.0034852 -0.00066702 -0.0017672 0.00061463 0.024298 0.0048088
-0.062279 0.2002 0.018911 0.0084704
-0.0039389 0.0001995 -0.0035346 -0.00038806 -0.0010871 -0.00022979 -0.0025897 0.00023257
0.018921 0.0084683 -0.086815 0.30014
1160000000 0.087542 0.30086 0.023401 -0.020955 0.0024975 -0.00037517 -1.7792e-05 -0.0023374
-0.0041224 -0.00071429 -0.00073303 0.0040927
0.023422 -0.020924 -0.086741 0.37763 -0.0039651 -0.029068 -0.0016806 -0.0017469
-0.002614 0.00253 -0.0012898 0.0017947
0.0025145 -0.00039916 -0.0040939 -0.029074 0.24808 0.24483 -0.00078221 0.001785
-0.00047659 0.0020563 -0.0007853 0.00016371
-2.728e-05 -0.002377 -0.0016797 -0.0017347 -0.00078653 0.0017854 0.030229 0.28187
0.020516 -0.010616 -0.0031211 0.0052097
-0.0041314 -0.00069688 -0.0026185 0.0025655 -0.00046793 0.0020636 0.020506 -0.010647
-0.028545 0.20929 0.01782 0.00039406
-0.00072241 0.0041309 -0.0013018 0.0017982 -0.00079358 0.00016457 -0.0031078 0.0052156
0.017823 0.00038605 -0.040643 0.30365
1220000000 0.13197 0.28998 0.0098713 -0.029921 -0.0016188 -0.00065776 -7.4148e-05 -0.00099794
-0.0027078 0.0024793 0.0012938 0.002202
0.0098901 -0.029881 -0.04239 0.38973 -0.017046 -0.021044 -0.0026061 0.0004903
0.00016292 0.0031174 -0.0007034 0.0019304
-0.0016255 -0.00065878 -0.017146 -0.020986 0.28719 0.20561 0.00082327 0.0016725
0.00069678 0.001238 0.00036468 0.0006392
-5.9115e-05 -0.00099205 -0.0026031 0.00050764 0.00082679 0.00167 0.070117 0.27349
0.0099829 -0.016926 0.0021528 0.001607
-0.0026915 0.0024958 0.0001682 0.0031143 0.00070143 0.0012405 0.0099577 -0.016939
-0.0056101 0.21813 0.01378 -0.012854
0.0012997 0.0021862 -0.00070477 0.0019515 0.00037213 0.00065846 0.0021572 0.0016009
0.013774 -0.012862 -0.0083964 0.3193
1280000000 0.18172 0.26787 -0.0083884 -0.028169 -0.0018257 0.002785 -0.00086708 -0.0020134
-0.00073711 0.0030334 0.002669 0.0010549
-0.0083595 -0.028143 0.0035391 0.38084 -0.023836 -0.0083796 -0.00094842 0.0014629
0.0017453 0.0017926 0.00057051 0.0020169
-0.0017994 0.0027928 -0.023908 -0.0082803 0.31752 0.16144 0.001534 -8.5063e-05
0.0011456 0.00017344 0.00036173 0.00031263
-0.00087436 -0.0020164 -0.00095206 0.0014598 0.0015301 -8.3848e-05 0.10697 0.25746
0.00054738 -0.018805 6.9279e-05 0.00016915
-0.00072528 0.0030417 0.0017643 0.001772 0.00115 0.00016309 0.00049254 -0.018813
0.030774 0.22217 0.0028211 -0.014878
0.002665 0.0010501 0.0005846 0.0020185 0.00036155 0.00031881 6.9557e-05 0.0001838
0.002824 -0.014872 0.038717 0.32095
1340000000 0.21871 0.23401 -0.017847 -0.018377 0.0011299 0.0045663 -0.0018552 -0.00089056
0.0015368 0.0026306 0.0016572 -0.0014744
-0.017822 -0.01838 0.042943 0.37273 -0.021572 0.0044725 -6.4382e-05 0.0020894
0.0019748 0.00066485 0.001399 0.00077049
0.0011372 0.00455 -0.021579 0.0045772 0.33909 0.11381 0.0011615 -0.00099559
0.00072246 -0.00051442 0.00017637 0.00017101
-0.0018448 -0.00086936 -5.2362e-05 0.0020841 0.0011605 -0.0009938 0.13987 0.23722
-0.0086069 -0.015906 0.00094514 0.00066115
0.0015458 0.002646 0.0019892 0.00064652 0.00072504 -0.00051576 -0.008636 -0.015896
0.060768 0.21776 -0.0039084 -0.01339
0.0016231 -0.0014931 0.0014127 0.00077968 0.00017825 0.00016497 0.00093774 0.00065121
-0.0038987 -0.013385 0.077412 0.31609
1400000000 0.2517 0.19575 -0.023267 -0.0068603 0.0053866 0.0030504 -0.0021352 0.00074572
0.0024843 0.00087278 0.00025702 -0.001434
-0.023245 -0.0068639 0.080368 0.3596 -0.014748 0.012558 0.0013307 0.0012489
0.0011576 -0.00091131 0.0011858 0.0001662
0.0053993 0.0030267 -0.014705 0.012645 0.3522 0.060583 -1.6924e-05 -0.0017406
7.5241e-05 -0.00044202 0.00034148 0.00028424
-0.002135 0.00074519 0.0013445 0.001245 -1.8995e-05 -0.0017335 0.16971 0.2086
-0.014265 -0.0092019 -0.00059037 -0.00035991
0.0024963 0.00085409 0.0011564 -0.0009195 7.7823e-05 -0.00045017 -0.0143 -0.0091627
0.093814 0.21365 -0.01009 -0.0087742
0.00024258 -0.0014314 0.0011863 0.00015769 0.00034644 0.00027103 -0.00059445 -0.00035562
-0.010084 -0.0087835 0.12193 0.3049
1460000000 0.27421 0.15169 -0.020023 0.0051681 0.0057976 -0.0020006 -0.0016201 0.0017537
0.0020921 -0.00057411 -0.00037584 -0.00095441
-0.020017 0.0051339 0.11458 0.33776 -0.0060399 0.015417 0.0017618 0.00014048
0.00075421 -0.0012897 0.0011523 -0.00061779
0.0057738 -0.002027 -0.0059686 0.015468 0.35815 0.0064987 -0.0013227 -0.0012369
0.00020741 -0.00021048 0.00060845 -0.00039929
-0.0016084 0.001756 0.0017601 0.00014583 -0.0013248 -0.001239 0.19635 0.17925
-0.015171 -0.0025578 -0.00080509 0.0019393
0.0020919 -0.00059268 0.00074559 -0.0013047 0.00020494 -0.00020779 -0.015197 -0.0025159
0.12341 0.19918 -0.011827 -0.0027501
-0.00038382 -0.00095643 0.0011599 -0.00062682 0.00062244 -0.00039744 -0.00079645 0.0019321
-0.011814 -0.0027693 0.15531 0.28377
1520000000 0.2863 0.10974 -0.014194 0.010443 0.0032828 -0.0043125 0.00017852 0.0026891
0.0019852 -0.0016544 -0.0011174 -0.00010619
-0.014191 0.010418 0.1481 0.32299 0.0016957 0.013103 0.0016225 -0.00083539
7.9101e-06 -0.00098514 0.00031922 -0.00099423
0.0032593 -0.0043377 0.001779 0.013111 0.35149 -0.049589 -0.0011692 -0.00033975
0.00062318 -0.00085556 2.7142e-05 -7.2408e-05
0.00019289 0.0026816 0.0016208 -0.00084632 -0.0011767 -0.0003391 0.21965 0.1413
-0.014271 0.0029723 0.0015053 0.0019313
0.0019646 -0.0016705 -1.8887e-06 -0.00098874 0.00062441 -0.00086186 -0.014268 0.0030107
0.1513 0.18496 -0.011519 0.0016869
-0.0011123 -0.0001195 0.00030933 -0.00098931 2.8308e-05 -7.3873e-05 0.0015051 0.0019298
-0.011515 0.0016785 0.1882 0.26334
1580000000 0.29526 0.06345 -0.0075342 0.013254 -0.0008593 -0.004902 0.0015305 0.0018581
-0.00031662 -0.0021328 -0.00035475 0.00034251
-0.0075421 0.013242 0.17541 0.29808 0.005316 0.008292 0.00044746 -0.0016096
-0.00048648 -0.00097281 -0.00023358 -0.00093127
-0.00088388 -0.0049044 0.0053681 0.0082706 0.33157 -0.10727 -0.0015663 0.0006412
-0.00020167 -0.0011142 0.00023378 -0.00050897
0.0015498 0.0018553 0.00043516 -0.0016217 -0.0015684 0.00063696 0.23369 0.10171
-0.010776 0.0075445 0.002141 0.00062082
-0.00032405 -0.0021175 -0.00049772 -0.00097268 -0.00020491 -0.0011187 -0.010758 0.0075808
0.17575 0.16674 -0.0090792 0.007437
-0.00035307 0.00035107 -0.00022995 -0.00093729 0.00023581 -0.00051764 0.0021473 0.00061673
-0.0090845 0.0074331 0.22042 0.23607
1640000000 0.29685 0.022202 -0.0010261 0.011956 -0.0028121 -0.0027014 0.0027334 0.0009839
-0.00079444 -0.0014775 -0.00034913 0.00054752
-0.0010277 0.011943 0.20472 0.2731 0.0059655 0.0034973 -0.00071954 -0.0016563
-0.00095977 -0.00038958 -0.00048347 -0.00071443
-0.0028212 -0.0026955 0.0059889 0.0034709 0.30324 -0.1559 -0.00066978 0.0014933
-0.0012487 -0.0009194 -0.00012554 -0.00030448
0.002729 0.00095482 -0.0007322 -0.0016515 -0.00066614 0.0014916 0.24594 0.052874
-0.0065451 0.008537 0.0024543 -0.00077394
-0.00079408 -0.0014833 -0.00096279 -0.00038348 -0.0012563 -0.00092825 -0.0065225 0.0085654
0.19852 0.142 -0.0045444 0.0093524
-0.00034943 0.00056436 -0.00049038 -0.00071247 -0.00012646 -0.00030637 0.0024492 -0.00077801
-0.0045459 0.0093397 0.24573 0.20481
1700000000 0.28969 -0.022926 0.0022117 0.0090063 -0.0036593 -1.1057e-05 0.0029729 -0.0013406
-0.0020254 -0.00059878 0.00059557 0.00045474
0.0022031 0.0090009 0.22296 0.24142 0.0040529 0.00045883 -0.0014196 -0.00059073
-0.00069732 -3.257e-05 -0.00099469 -0.00046881
-0.003643 4.1491e-06 0.0040601 0.00043138 0.26026 -0.19586 0.00041959 0.0015113
-0.0018504 -0.00026467 -0.00043806 -0.00085916
0.0029774 -0.0013698 -0.0014249 -0.00059093 0.00040962 0.0015162 0.24272 0.0030573
-0.0039761 0.0088046 0.0015112 -0.0022242
-0.0020295 -0.00059379 -0.00069879 -2.7837e-05 -0.001852 -0.00026299 -0.0039531 0.0088191
0.21579 0.12144 0.0001066 0.0096885
0.00060773 0.0004392 -0.00099783 -0.00045742 -0.00045102 -0.00085223 0.0014995 -0.0022199
0.00010935 0.0096895 0.26203 0.17022
1760000000 0.27717 -0.071457 0.0043138 0.0057609 -0.0024311 0.0010312 0.0011882 -0.0034192
-0.0013472 0.00071978 0.00043362 -0.00059716
0.0043007 0.0057591 0.24867 0.20145 0.0017068 -0.0014684 -0.0011721 0.00020705
-0.001081 0.0008195 -0.00059509 0.00046294
-0.0024351 0.0010439 0.0016932 -0.0014834 0.21208 -0.23012 0.0013112 0.0010135
-0.0010387 0.0015393 -0.0013363 -0.00043196
0.0011502 -0.0034274 -0.0011682 0.00020523 0.00132 0.0010103 0.23357 -0.048303
-0.00098301 0.0079416 -0.00035676 -0.0025278
-0.0013345 0.00072892 -0.0010673 0.00083063 -0.0010409 0.0015375 -0.00096164 0.0079562
0.23028 0.085903 0.0040604 0.0070155
0.00041519 -0.00059569 -0.0005938 0.00046924 -0.0013382 -0.00043497 -0.00034804 -0.0025293
0.0040756 0.0070072 0.27434 0.13229
1820000000 0.25248 -0.10832 0.0042985 0.0023197 -0.00017569 0.0026517 -0.0011525 -0.0030073
-0.0010658 0.00090495 -1.8568e-05 -0.00011112
0.0042874 0.0023298 0.25856 0.1714 -0.00041944 -0.0001342 -0.0013061 0.00093336
-0.00014769 0.0012673 -0.00059992 0.00057008
-0.00015557 0.0026387 -0.00041644 -0.00013854 0.1612 -0.24522 0.0013863 0.00038722
-0.0002593 0.0022519 -0.0014086 0.00050611
-0.001143 -0.0030134 -0.0013052 0.00094088 0.0013882 0.00039352 0.20362 -0.095005
0.000398 0.0064512 -0.0016295 -0.0014989
-0.0010354 0.00091658 -0.00013692 0.0012774 -0.00025716 0.0022486 0.00041267 0.0064495
0.24709 0.056582 0.0050483 0.0033978
-2.6493e-05 -0.00011144 -0.00059732 0.0005771 -0.0014103 0.00052357 -0.0016497 -0.0014997
0.0050436 0.0033938 0.27646 0.096131
1880000000 0.2173 -0.14856 0.0020649 0.00016741 -0.00033669 0.002288 -0.002966 -0.0021537
-0.00015595 0.0015505 0.00030493 -0.0005078
0.0020603 0.00016605 0.26283 0.12474 -0.0025399 0.0016402 -0.00022309 0.0016751
0.00051966 0.001272 0.00016136 0.00096926
-0.00031884 0.002288 -0.0025361 0.0016543 0.10853 -0.2553 0.0017637 -0.00088826
0.0014326 0.0019713 -0.00093665 0.0013647
-0.0029925 -0.0021317 -0.00021617 0.0016873 0.0017697 -0.00088417 0.16304 -0.1352
0.00077255 0.0046103 -0.0024235 0.00027145
-0.00013931 0.0015617 0.00052592 0.0012753 0.0014462 0.0019636 0.00079141 0.0046118
0.24935 0.023624 0.005119 0.0013216
0.00029363 -0.00052893 0.00016954 0.00097558 -0.00094103 0.0013557 -0.0023981 0.00029116
0.0051283 0.0013249 0.27584 0.061882
1940000000 0.17793 -0.17395 -0.0001935 -0.0013467 0.0015548 0.0020042 -0.0037672 0.00064737
0.0013525 0.0010856 -0.00053465 -0.00061444
-0.00019406 -0.0013467 0.2631 0.093024 -0.001289 0.0039612 0.0010092 0.0012739
0.001886 0.00054364 0.00089521 0.00039489
0.0015598 0.0019882 -0.0012629 0.0039779 0.062846 -0.24849 0.00037704 -0.0021675
0.0024309 0.00033805 0.00050447 0.0016203
-0.0037394 0.00061849 0.0010251 0.0012623 0.00038245 -0.002165 0.11092 -0.16552
-0.00024016 0.003338 -0.0015533 0.0016058
0.0013736 0.0010498 0.0018939 0.000522 0.0024394 0.00033825 -0.00020966 0.0033423
0.2506 -0.015761 0.0036673 -0.0022236
-0.00054259 -0.0006017 0.00089335 0.00038305 0.00050902 0.0016198 -0.0015777 0.0015903
0.0036573 -0.0022384 0.26493 0.025998
2000000000 0.13187 -0.18867 -0.004043 0.00083844 0.002483 0.001581 -0.0023262 0.0035112
0.0010194 0.00021576 -0.00060363 0.00043747
-0.0040511 0.00082374 0.24879 0.057599 -0.00095929 0.0059156 0.0016116 0.00031737
0.0014023 -0.0012456 0.00052534 0.00012025
0.0024958 0.0015726 -0.00092351 0.0059285 0.019192 -0.23398 -0.0013131 -0.0012941
0.0019665 -0.0011328 0.0016635 0.0011145
-0.0022909 0.0035857 0.0016108 0.00031569 -0.0013037 -0.0012964 0.057826 -0.17505
-0.0018265 0.0037777 -5.3643e-05 0.0023203
0.0010487 0.00024389 0.0014017 -0.0012601 0.0019733 -0.0011156 -0.00182 0.0037889
0.2438 -0.049485 0.00030797 -0.0031523
