!Keysight Technologies,M9804A,MY58100912,A.14.10.03
!Date: Thursday, April 27, 2023 10:28:33
!Correction: S11(C  6-Port  ) 
!S12(C  6-Port  ) 
!S13(C  6-Port  ) 
!S14(C  6-Port  ) 
!S15(C  6-Port  ) 
!S16(C  6-Port  ) 
!S21(C  6-Port  ) 
!S22(C  6-Port  ) 
!S23(C  6-Port  ) 
!S24(C  6-Port  ) 
!S25(C  6-Port  ) 
!S26(C  6-Port  ) 
!S31(C  6-Port  ) 
!S32(C  6-Port  ) 
!S33(C  6-Port  ) 
!S34(C  6-Port  ) 
!S35(C  6-Port  ) 
!S36(C  6-Port  ) 
!S41(C  6-Port  ) 
!S42(C  6-Port  ) 
!S43(C  6-Port  ) 
!S44(C  6-Port  ) 
!S45(C  6-Port  ) 
!S46(C  6-Port  ) 
!S51(C  6-Port  ) 
!S52(C  6-Port  ) 
!S53(C  6-Port  ) 
!S54(C  6-Port  ) 
!S55(C  6-Port  ) 
!S56(C  6-Port  ) 
!S61(C  6-Port  ) 
!S62(C  6-Port  ) 
!S63(C  6-Port  ) 
!S64(C  6-Port  ) 
!S65(C  6-Port  ) 
!S66(C  6-Port  ) 
!S6P File: Measurement: :
# Hz S  RI   R 50
500000000 -0.33811 -0.039137 -0.010171 -0.0024476 -0.0084265 0.013098 -0.0039016 0.012183
0.012954 0.0049939 -0.0036119 0.0095536
-0.01046 -0.0026982 -0.41827 -0.051077 0.0075677 -0.010692 0.001727 0.011859
0.0079499 0.0034541 0.0021692 0.013646
-0.0083353 0.012918 0.0074965 -0.010711 -0.26618 0.20978 0.007303 0.0035588
-0.0015465 0.0086498 0.0013931 0.012476
-0.0039329 0.012513 0.0018056 0.011847 0.0072517 0.0035471 -0.33108 0.043641
-0.01815 -0.0054515 0.015935 0.024766
0.01306 0.004527 0.0081554 0.0030075 -0.0013768 0.0085187 -0.018141 -0.0054846
-0.22732 -0.19185 -0.025631 0.0052467
-0.0041641 0.0094228 0.0022721 0.013347 0.0013652 0.012267 0.015897 0.024775
-0.025551 0.0052362 -0.26906 -0.12648
560000000 -0.31719 0.12467 -0.02436 -0.063467 -0.00013939 0.012056 0.0059819 0.010656
0.0091006 0.004643 0.010618 0.0056349
-0.02404 -0.062714 -0.37636 0.10796 -0.042177 -0.036544 0.013813 0.0031664
-0.013999 -0.003951 0.0020168 -0.000687
0.00030878 0.011986 -0.042244 -0.036358 -0.18361 0.25741 8.1178e-05 -0.004443
0.01989 0.0044997 0.0072326 -0.0067315
0.0062112 0.010475 0.014001 0.0033633 4.8688e-05 -0.0043932 -0.30574 0.13415
0.0041774 -0.024321 0.0045617 -0.021356
0.0094721 0.0046634 -0.014018 -0.0039322 0.020196 0.0042568 0.0040518 -0.024147
-0.28921 -0.017108 0.0075161 -0.04958
0.010604 0.006308 0.0027524 0.00026179 0.0069768 -0.006547 0.0043554 -0.021593
0.0075351 -0.049591 -0.32903 0.020954
620000000 -0.27602 0.10816 -0.023423 0.0081205 0.0041439 0.0084842 0.009255 -0.0046482
0.011746 -0.00061502 0.0016443 -0.0020425
-0.023398 0.0082678 -0.40274 0.060176 -0.018623 0.00034867 -0.001517 -0.0018114
0.011947 -0.0068823 0.0016113 -0.0027715
0.0036795 0.0086222 -0.018759 0.00042165 -0.15273 0.26714 -0.00064744 -0.0047737
-0.0032383 -0.0035384 0.010259 -0.0026427
0.0084792 -0.004419 -0.0014961 -0.0018749 -0.00067214 -0.0046845 -0.26469 0.14421
-0.037408 -0.018989 0.012618 0.026111
0.012295 -0.0003057 0.011764 -0.0069977 -0.0030988 -0.0037318 -0.037592 -0.019109
-0.2089 -0.056134 -0.040731 0.014028
0.00066241 -0.0018692 0.0015928 -0.0026449 0.0099552 -0.0028707 0.012573 0.025581
-0.040803 0.014118 -0.25126 -0.013329
680000000 -0.23339 0.19338 -0.027069 -0.013689 0.0053416 0.0053673 0.0010366 -0.0073252
-0.0031439 -0.010942 0.0037343 -0.0069791
-0.027047 -0.013879 -0.38731 0.15793 -0.032712 -0.0010044 -0.001918 -0.00017094
-0.001927 -0.0090398 -0.0018115 -0.0017057
0.0054147 0.0050473 -0.032728 -0.00092264 -0.10199 0.28681 -0.0010783 -5.3184e-05
-0.0020813 0.00061555 -0.0036224 -0.0095211
0.0012403 -0.0069649 -0.0018771 -0.00013874 -0.0010902 -0.00010975 -0.22074 0.19345
-0.024248 -0.0069832 -0.0096378 -0.010947
-0.0027278 -0.011356 -0.0018689 -0.0090653 -0.0018557 0.00055907 -0.024101 -0.0067987
-0.25866 0.042926 -0.0064876 -0.0082942
0.0043489 -0.0074474 -0.0017173 -0.0019737 -0.0033905 -0.0096629 -0.0096842 -0.010719
-0.0064733 -0.0082417 -0.26076 0.091326
740000000 -0.19017 0.18822 -0.038344 0.026799 0.012944 -0.0053454 -0.00037516 -0.0039814
-0.0036938 -0.0025055 -0.0063271 0.0025429
-0.038289 0.026826 -0.33513 0.17676 -0.035388 0.034965 -0.00066755 -0.0062504
-0.011702 0.0078514 -0.0020212 -0.0061939
0.013039 -0.0052243 -0.035366 0.035198 -0.068377 0.28461 -0.0017318 0.0035133
-0.0026182 -0.0050758 -0.0012428 0.0011341
-0.0005508 -0.0037166 -0.00063106 -0.0062114 -0.001766 0.003553 -0.20305 0.20227
-0.043993 -0.0066825 0.02358 0.015299
-0.0037638 -0.0024869 -0.011692 0.0077541 -0.0026762 -0.0049805 -0.04386 -0.0066321
-0.15932 0.070203 -0.04345 9.9805e-05
-0.0065562 0.0028392 -0.002076 -0.0061104 -0.0014322 0.0010396 0.023756 0.01491
-0.04355 0.00011808 -0.24787 0.099689
800000000 -0.15716 0.22825 -0.022525 0.016735 0.0054119 -0.010713 -0.0050256 -0.0017105
-0.0044492 0.0030024 0.0040112 0.00098506
-0.022558 0.016699 -0.33826 0.2462 -0.0080316 0.034203 -0.0025246 0.0022924
-0.00094409 0.0034882 0.00079127 0.0052972
0.0052309 -0.01064 -0.0079111 0.034242 -0.027851 0.3081 0.00099824 0.0015942
0.0004483 0.003664 -0.0021442 0.0015288
-0.0050621 -0.0019634 -0.0025111 0.0023217 0.00092184 0.001575 -0.17536 0.22969
-0.02858 0.013646 0.012708 -0.010303
-0.0045547 0.0028049 -0.0010218 0.003424 0.00040278 0.0037007 -0.028612 0.013627
-0.20652 0.094195 -0.016727 0.01864
0.0037658 0.00051314 0.00086402 0.0054013 -0.0020219 0.001283 0.012912 -0.01016
-0.016791 0.018545 -0.2439 0.14727
860000000 -0.1221 0.24844 -0.017237 0.03078 -0.00331 -0.010077 -0.0024822 0.001043
0.0045195 0.0054021 -0.0038728 -0.002914
-0.017254 0.030704 -0.29064 0.28832 0.0081266 0.034454 9.2721e-05 0.0022436
0.0044591 0.00024131 0.0031778 0.0012036
-0.0033263 -0.010108 0.0082175 0.034472 0.01991 0.3161 -0.00047823 -0.00023519
0.0029697 -0.0014858 0.0019067 0.0042737
-0.0023404 0.0011109 4.587e-05 0.0021546 -0.00048837 -0.00023307 -0.1392 0.24084
-0.017783 0.019368 -0.0056512 -0.009097
0.0043964 0.0052816 0.0045378 9.003e-05 0.0029954 -0.0015187 -0.0177 0.019236
-0.15396 0.14487 -0.024419 0.01652
-0.0034366 -0.0025064 0.003377 0.0011472 0.0017934 0.0043096 -0.0058299 -0.0091058
-0.024385 0.016482 -0.19051 0.19188
920000000 -0.097147 0.27075 0.0055418 0.037744 -0.0095503 -0.0046782 -0.0016419 0.0018607
0.0011366 0.0019593 0.0030716 -0.0015147
0.0054584 0.037702 -0.26168 0.30949 0.028497 0.02194 0.0015948 0.0010436
0.0071911 -0.00054113 0.004005 -0.003028
-0.0095724 -0.0046588 0.028576 0.021875 0.066311 0.31704 0.0018729 -0.00019637
0.0012142 -0.00055234 0.00097111 -0.0013024
-0.0017113 0.0019502 0.0016237 0.00095063 0.0019172 -0.00014217 -0.11525 0.25822
-0.010722 0.030324 0.0033329 -0.0067822
0.0011847 0.0018412 0.0072712 -0.00048329 0.0013149 -0.00045676 -0.010782 0.030406
-0.14463 0.14979 -0.002799 0.026936
0.0027251 -0.0016107 0.0041307 -0.0029102 0.00086751 -0.0012969 0.0034298 -0.0068643
-0.0029505 0.026891 -0.19783 0.2066
980000000 -0.050425 0.28979 0.017687 0.029801 -0.0092118 0.0045354 0.002063 0.0034045
0.0039739 -0.0017492 -0.0034034 -0.002331
0.017705 0.029763 -0.20898 0.34332 0.033459 0.0046478 0.0019668 -0.00021606
0.0017111 -0.0061927 -0.00056809 -0.0020986
-0.0092023 0.0045593 0.03352 0.0045113 0.11281 0.31045 0.00051359 -0.0011876
0.00035778 -0.002194 0.0013813 -7.4003e-05
0.0021215 0.0033753 0.0019646 -0.00019237 0.00048324 -0.0012001 -0.077115 0.26971
0.008124 0.030353 -0.0091129 -0.0073002
0.0040599 -0.0016877 0.0017075 -0.0063378 0.00029216 -0.0022214 0.0081809 0.030307
-0.11359 0.17865 0.0054178 0.020273
-0.0032523 -0.0022769 -0.00055505 -0.002311 0.0014573 -0.00019464 -0.0090624 -0.0069855
0.0054445 0.020206 -0.15527 0.24963
1040000000 -0.0085035 0.29828 0.0334 0.017733 -0.0014346 0.0069834 0.0025369 0.00064767
-1.8658e-05 -0.003669 -0.0005657 -0.0015787
0.033417 0.01773 -0.17349 0.35665 0.02953 -0.015296 0.0014235 -0.0018954
-0.0025734 -0.0026571 -0.0015787 -0.0028787
-0.0013776 0.007016 0.029483 -0.015422 0.1592 0.29685 -0.00059123 -0.0015035
-0.0017692 -0.00096949 -0.00064037 -0.0012063
0.0024838 0.00066518 0.001404 -0.0018598 -0.00056323 -0.0014954 -0.049281 0.28005
0.019863 0.017693 -0.0025192 0.0016677
1.0982e-05 -0.0036609 -0.0025728 -0.0026374 -0.0017315 -0.00094154 0.019892 0.017593
-0.081177 0.18577 0.01362 0.018358
-0.00062817 -0.0015151 -0.0015824 -0.0028973 -0.00063457 -0.001194 -0.0024754 0.0015912
0.013576 0.018315 -0.13359 0.2713
1100000000 0.037147 0.3061 0.036064 -0.0046601 0.0029007 0.0039492 0.0023174 -0.0012759
-0.0019913 -0.0029769 -0.0041736 0.00024392
0.036064 -0.0046671 -0.13015 0.37418 0.015059 -0.02844 -3.681e-05 -0.0017834
-0.0034871 -0.0005287 -0.0036573 -0.00036537
0.0028946 0.0039445 0.014965 -0.028522 0.20611 0.27624 -0.0018957 0.00033251
-0.0017529 0.00061608 -0.0011172 -0.00026676
0.0023139 -0.0013038 -7.1336e-05 -0.0018132 -0.0019046 0.00030553 -0.0087653 0.28519
0.025078 0.0046703 -0.002697 0.00023839
-0.0021077 -0.0030278 -0.0035436 -0.00061748 -0.0017978 0.0006243 0.0251 0.0046094
-0.06395 0.20025 0.019637 0.0087791
-0.00412 0.00022732 -0.0036832 -0.00037006 -0.001114 -0.00027152 -0.0027774 0.00032881
0.019625 0.0087487 -0.08826 0.29989
1160000000 0.088233 0.30113 0.023704 -0.02133 0.0026358 -0.00040996 -0.00029428 -0.0023942
-0.0042643 -0.00067251 -0.00099255 0.0041222
0.023721 -0.021292 -0.086289 0.37867 -0.0043383 -0.029445 -0.0017256 -0.0017313
-0.0025769 0.0026312 -0.0013427 0.0018459
0.0026324 -0.00040688 -0.0044667 -0.029461 0.24928 0.24473 -0.00064452 0.001809
-0.0004856 0.0020378 -0.0010037 0.00020519
-0.00028291 -0.0023723 -0.0016981 -0.0016917 -0.00062789 0.001804 0.030796 0.28237
0.021015 -0.011229 -0.0030088 0.0052546
-0.0042786 -0.00066529 -0.0025258 0.0026647 -0.00048239 0.0020059 0.020985 -0.011266
-0.030117 0.2095 0.018683 0.00029866
-0.00096919 0.0041754 -0.0014177 0.0019714 -0.0010642 0.00025098 -0.0029448 0.005225
0.01876 0.00026557 -0.041232 0.30325
1220000000 0.13276 0.29003 0.0098671 -0.030464 -0.0015831 -0.00075017 -5.203e-05 -0.00090659
-0.0027456 0.0025495 0.0014012 0.0021061
0.0098971 -0.030423 -0.041439 0.39078 -0.017498 -0.021165 -0.0025362 0.0004966
0.00018558 0.0031464 -0.00073629 0.0019493
-0.0015852 -0.00074342 -0.017616 -0.021113 0.28827 0.20483 0.00088999 0.0016606
0.00073659 0.0012598 0.00025417 0.0007139
-7.2861e-05 -0.00088239 -0.0025735 0.00052786 0.0008898 0.0016549 0.071078 0.27379
0.009886 -0.017804 0.002359 0.001559
-0.0026597 0.0026201 0.00022931 0.0031281 0.00076161 0.0012024 0.0098773 -0.017749
-0.0070721 0.21904 0.013905 -0.013332
0.001397 0.0021641 -0.0007134 0.0019456 0.00026789 0.00070711 0.0023598 0.0014669
0.013883 -0.013278 -0.0088857 0.31953
1280000000 0.18262 0.26788 -0.0087532 -0.028589 -0.0018965 0.0027102 -0.00090639 -0.001951
-0.00059914 0.0032227 0.0026403 0.0011
-0.0087205 -0.028564 0.0051554 0.3816 -0.024292 -0.0081289 -0.00095609 0.0015057
0.0018448 0.0016749 0.0006848 0.0020272
-0.0018895 0.0027343 -0.024358 -0.0080201 0.31805 0.16045 0.001556 -0.00015387
0.0011289 0.0001306 0.0004087 0.00038902
-0.00093979 -0.0019701 -0.00094444 0.001544 0.0015429 -0.00012972 0.10794 0.25712
2.8293e-05 -0.019389 -7.8426e-05 0.00030055
-0.00064935 0.003187 0.001855 0.0016862 0.0011501 0.00018285 1.3297e-05 -0.019454
0.030115 0.22358 0.0028041 -0.015498
0.0026409 0.001069 0.00071381 0.0021094 0.00040979 0.00034635 -5.1574e-05 0.00036517
0.002822 -0.01548 0.038301 0.32169
1340000000 0.21975 0.23362 -0.018419 -0.018517 0.0010273 0.0045676 -0.0017154 -0.0007861
0.0015984 0.0026609 0.0016997 -0.001471
-0.018383 -0.018482 0.044712 0.37262 -0.021751 0.00488 -1.3762e-05 0.0019744
0.0019966 0.00064145 0.0014098 0.00086746
0.0010327 0.0045663 -0.021751 0.0049758 0.33911 0.11254 0.0011231 -0.0010494
0.00073517 -0.00038253 0.0002111 0.00034087
-0.0017193 -0.00079722 2.2691e-05 0.0019784 0.0011196 -0.0010556 0.14064 0.23657
-0.0093638 -0.016164 0.00096851 0.00066285
0.00163 0.0026452 0.0019812 0.0006642 0.00072045 -0.00039901 -0.0093531 -0.016165
0.060579 0.21921 -0.0040932 -0.014039
0.0016787 -0.0014252 0.0014123 0.00085685 0.00022755 0.00035067 0.0010142 0.00057568
-0.004118 -0.014065 0.077264 0.31633
1400000000 0.25275 0.19494 -0.023762 -0.0066997 0.0054018 0.0030796 -0.0021268 0.00070278
0.0026194 0.00083913 0.0001119 -0.0014643
-0.023733 -0.0066777 0.081942 0.35884 -0.014648 0.01293 0.0013929 0.0012262
0.0011494 -0.00094735 0.0012249 0.00012486
0.0053864 0.0030785 -0.014598 0.013034 0.35176 0.059577 -3.1235e-05 -0.0016258
8.7859e-05 -0.00046558 0.00046051 0.00025184
-0.0021187 0.00073829 0.0013813 0.0012054 -3.0746e-05 -0.0016271 0.16994 0.20751
-0.015113 -0.008903 -0.00071696 -0.00026879
0.0026169 0.00081037 0.0011506 -0.00094992 7.4392e-05 -0.00041472 -0.015138 -0.008866
0.093826 0.21477 -0.010776 -0.0089439
0.0001765 -0.0014719 0.0012783 8.0538e-05 0.00048946 0.00024418 -0.00079309 -0.00023897
-0.010778 -0.0089746 0.12174 0.30498
1460000000 0.27497 0.15044 -0.020307 0.0056057 0.0057247 -0.0020046 -0.0016037 0.0017782
0.0021363 -0.00063633 -0.00049325 -0.00093389
-0.020288 0.00559 0.11565 0.33642 -0.0057013 0.015625 0.0016957 0.0001683
0.00077177 -0.0012635 0.0011816 -0.00067231
0.0057085 -0.0020398 -0.0056158 0.015674 0.35745 0.0059248 -0.0012734 -0.0011768
0.00034728 -0.00026429 0.00064617 -0.00040475
-0.0015678 0.001772 0.0016895 0.00014486 -0.0012725 -0.0011645 0.19616 0.17831
-0.01572 -0.0018331 -0.00088456 0.0019892
0.0021567 -0.00064799 0.0007366 -0.0012775 0.00035182 -0.00028614 -0.015736 -0.0018048
0.12358 0.19987 -0.012484 -0.0025087
-0.00044031 -0.00097075 0.0011727 -0.00067911 0.00064893 -0.00040532 -0.00081159 0.00195
-0.012466 -0.0025514 0.15501 0.28389
1520000000 0.28644 0.1084 -0.014232 0.011002 0.0032578 -0.0043626 0.0001051 0.0025932
0.0018962 -0.0018496 -0.0011374 -0.00010463
-0.014219 0.01098 0.14857 0.32145 0.0019844 0.013077 0.0015815 -0.00081751
-6.9262e-05 -0.00095644 0.00025895 -0.0010485
0.0032375 -0.0043809 0.0020602 0.013078 0.35094 -0.049802 -0.0011232 -0.00028121
0.00063502 -0.00093714 4.2585e-05 -0.0001432
0.00010907 0.0025725 0.0015573 -0.00083481 -0.0011214 -0.00029451 0.21908 0.14053
-0.014302 0.0038641 0.0015998 0.0019993
0.0018664 -0.0018589 -7.7285e-05 -0.00095005 0.00064174 -0.00093464 -0.014323 0.0039134
0.15153 0.1854 -0.012103 0.0021824
-0.0011508 -8.7012e-05 0.00026525 -0.0010562 4.5069e-05 -0.00015902 0.0015545 0.00195
-0.012073 0.0022117 0.18815 0.26298
1580000000 0.29508 0.062189 -0.0072383 0.013751 -0.00090049 -0.0048775 0.0015048 0.001832
-0.00041625 -0.0021852 -0.00024778 0.00037331
-0.0072527 0.013748 0.17517 0.29668 0.0054997 0.0081007 0.00039895 -0.001608
-0.00051199 -0.0010167 -0.00031185 -0.00088643
-0.00091311 -0.0048739 0.005551 0.0080774 0.33121 -0.10724 -0.0014822 0.00067371
-0.00035916 -0.0011925 0.00023883 -0.0006212
0.0015345 0.0018332 0.0003942 -0.0015995 -0.0014735 0.0006675 0.23299 0.10129
-0.010132 0.0084153 0.0022356 0.00048003
-0.00044684 -0.0021752 -0.00053033 -0.00099872 -0.00033428 -0.0011968 -0.010121 0.0084239
0.17592 0.16699 -0.0092919 0.0080536
-0.00028836 0.000255 -0.00028606 -0.00088899 0.00027941 -0.00063529 0.0021721 0.00063956
-0.0092971 0.0079944 0.21972 0.23594
1640000000 0.29626 0.021242 -0.00052764 0.012133 -0.0028934 -0.0026204 0.0027581 0.00094819
-0.0008323 -0.001414 -0.00034908 0.00050507
-0.00054571 0.012117 0.20414 0.27195 0.0059874 0.0032414 -0.00072665 -0.0017141
-0.00095301 -0.00038317 -0.00060818 -0.00065584
-0.0029057 -0.0026006 0.0060193 0.0032158 0.30296 -0.1562 -0.00066524 0.0014796
-0.0012794 -0.00091055 -0.00021885 -0.00032982
0.0027423 0.00095545 -0.00073832 -0.0017093 -0.00067006 0.0014505 0.24497 0.052779
-0.0056639 0.0086841 0.0024724 -0.00071278
-0.0009004 -0.0013871 -0.00094453 -0.00034146 -0.0013029 -0.00087289 -0.0056319 0.0087472
0.19837 0.14187 -0.0043453 0.010061
-0.00025359 0.00055843 -0.00059784 -0.00064747 -0.00017863 -0.0003593 0.002523 -0.00079413
-0.0043946 0.010092 0.24548 0.20499
1700000000 0.28879 -0.023485 0.0026398 0.0088924 -0.0035133 7.3828e-06 0.0028913 -0.0013024
-0.0020367 -0.00049684 0.00070238 0.00042257
0.0026415 0.0088846 0.22192 0.2408 0.0039056 0.00033585 -0.0014818 -0.00056765
-0.00070257 -1.7019e-05 -0.00090681 -0.00037754
-0.0034913 3.0457e-05 0.0039262 0.00028014 0.25999 -0.19599 0.00045255 0.0015017
-0.0019057 -0.00011663 -0.00050503 -0.00088058
0.0029391 -0.0013454 -0.0014955 -0.00053036 0.00044643 0.0015041 0.24198 0.0036572
-0.0031698 0.0085117 0.0015835 -0.0023391
-0.0019952 -0.00048869 -0.00071104 1.3437e-05 -0.0018711 -8.1012e-05 -0.0031594 0.0084453
0.21538 0.12129 0.00056448 0.010031
0.00063889 0.00031098 -0.00090837 -0.00038624 -0.00052674 -0.00085615 0.0014902 -0.0022968
0.00062857 0.010034 0.26186 0.17022
1760000000 0.27642 -0.071345 0.0044778 0.0054294 -0.0024593 0.0008969 0.0011287 -0.0034203
-0.001324 0.0007745 0.00040399 -0.00045193
0.004459 0.0054409 0.24769 0.20144 0.0015634 -0.0014627 -0.0011998 0.00026464
-0.0010452 0.00078279 -0.00049051 0.0005132
-0.0024996 0.00093538 0.0015611 -0.001491 0.21192 -0.22982 0.0012656 0.0011047
-0.00098889 0.001577 -0.0012874 -0.00044525
0.0010812 -0.0033757 -0.0011962 0.0002573 0.0012826 0.0010821 0.23311 -0.047351
-0.00056299 0.0072859 -0.00032862 -0.0025704
-0.0012889 0.00084271 -0.0010386 0.00081942 -0.0010471 0.0016118 -0.00054376 0.0073703
0.22955 0.086019 0.0046538 0.0071109
0.00041354 -0.00051326 -0.00048021 0.00050413 -0.0013214 -0.00037865 -0.00024198 -0.0025289
0.0045921 0.0070875 0.27396 0.13265
1820000000 0.25202 -0.10809 0.0042682 0.0020948 -0.00019548 0.002613 -0.00097524 -0.0030168
-0.00082926 0.00092465 -5.9321e-05 -0.00030933
0.0042671 0.0020897 0.2577 0.17183 -0.00051544 -0.00018909 -0.0012519 0.00096826
-0.00012185 0.0012649 -0.00046789 0.00051358
-0.00018737 0.0025638 -0.00052373 -0.00018427 0.16123 -0.2455 0.0014886 0.00042324
-0.00016163 0.0022499 -0.0013951 0.0004248
-0.0010484 -0.0029813 -0.0012714 0.00097403 0.0014636 0.0004059 0.20369 -0.094114
0.00010645 0.0056417 -0.0016586 -0.0015665
-0.00089205 0.00093857 -0.00012798 0.0012479 -0.00011763 0.0021832 0.00015293 0.0056134
0.24578 0.056775 0.005647 0.0032844
-5.1684e-05 -0.00024416 -0.00045552 0.00054936 -0.0013993 0.0003738 -0.0016991 -0.001634
0.0056876 0.003327 0.27665 0.096272
1880000000 0.21726 -0.14819 0.0019551 8.8614e-05 -0.00045853 0.0023054 -0.0030958 -0.0021258
-6.4508e-05 0.0015408 0.00019708 -0.00053735
0.0019472 0.00012237 0.26242 0.12562 -0.0025576 0.0015918 -0.00013631 0.00169
0.00059221 0.0013052 0.00021792 0.00077527
-0.00039515 0.0022956 -0.002561 0.0015936 0.10859 -0.25561 0.0018766 -0.00099604
0.0016063 0.001857 -0.0008889 0.0012953
-0.0030516 -0.0021097 -8.0173e-05 0.0016953 0.0019076 -0.0010268 0.16395 -0.13438
0.00049571 0.0040542 -0.0025054 0.00023351
-0.00012777 0.001531 0.00058539 0.0013059 0.0015548 0.0018519 0.00037877 0.0040585
0.24805 0.024197 0.0053229 0.00090059
0.00017858 -0.00041265 0.00022418 0.00080258 -0.0008866 0.0012419 -0.0024759 0.0003512
0.0053447 0.00084164 0.27594 0.061591
1940000000 0.17819 -0.17383 -0.00022471 -0.0013473 0.0016714 0.0020224 -0.0037001 0.0004842
0.0013471 0.0009646 -0.00059842 -0.00047236
-0.00021848 -0.0013215 0.26329 0.093967 -0.001354 0.0039479 0.00099445 0.001248
0.0018531 0.0005848 0.00084728 0.00028995
0.0016893 0.0020489 -0.001332 0.0039626 0.062728 -0.24918 0.00032471 -0.0020518
0.002426 0.00032915 0.00054165 0.0016339
-0.0037194 0.00054034 0.0010278 0.0012484 0.00035643 -0.0020899 0.11208 -0.16483
-0.00082266 0.0034406 -0.0016545 0.0015059
0.0013666 0.00093955 0.0018814 0.00055839 0.0024776 0.00029668 -0.00054187 0.0034771
0.24918 -0.014367 0.0039509 -0.0029387
-0.00064368 -0.0005046 0.00084282 0.00023014 0.00055958 0.0016212 -0.0017161 0.0014272
0.0038852 -0.0028564 0.26501 0.02596
2000000000 0.1321 -0.18891 -0.0039606 0.00079762 0.0025788 0.0014219 -0.0023024 0.0037279
0.00086064 0.00010907 -0.00054716 0.00058761
-0.0039491 0.00076261 0.24952 0.058504 -0.00097341 0.00591 0.0016885 0.00034878
0.0014043 -0.00123 0.00040879 0.00014261
0.0025561 0.0013964 -0.00094547 0.0059313 0.018677 -0.23431 -0.0013486 -0.0013712
0.0018343 -0.0011465 0.001637 0.0012277
-0.0023457 0.0036306 0.0016988 0.00030662 -0.0013163 -0.0013245 0.058765 -0.17507
-0.002261 0.0039041 -5.4921e-05 0.0025459
0.00092951 0.00014141 0.0014032 -0.0012427 0.0018819 -0.0011207 -0.002382 0.0039976
0.24266 -0.047444 5.9112e-05 -0.0034001
