!Keysight Technologies,M9804A,MY58100912,A.14.10.03
!Date: Thursday, April 27, 2023 10:28:33
!Correction: S11(C  6-Port  ) 
!S12(C  6-Port  ) 
!S13(C  6-Port  ) 
!S14(C  6-Port  ) 
!S15(C  6-Port  ) 
!S16(C  6-Port  ) 
!S21(C  6-Port  ) 
!S22(C  6-Port  ) 
!S23(C  6-Port  ) 
!S24(C  6-Port  ) 
!S25(C  6-Port  ) 
!S26(C  6-Port  ) 
!S31(C  6-Port  ) 
!S32(C  6-Port  ) 
!S33(C  6-Port  ) 
!S34(C  6-Port  ) 
!S35(C  6-Port  ) 
!S36(C  6-Port  ) 
!S41(C  6-Port  ) 
!S42(C  6-Port  ) 
!S43(C  6-Port  ) 
!S44(C  6-Port  ) 
!S45(C  6-Port  ) 
!S46(C  6-Port  ) 
!S51(C  6-Port  ) 
!S52(C  6-Port  ) 
!S53(C  6-Port  ) 
!S54(C  6-Port  ) 
!S55(C  6-Port  ) 
!S56(C  6-Port  ) 
!S61(C  6-Port  ) 
!S62(C  6-Port  ) 
!S63(C  6-Port  ) 
!S64(C  6-Port  ) 
!S65(C  6-Port  ) 
!S66(C  6-Port  ) 
!S6P File: Measurement: :
# Hz S  RI   R 50
500000000 -0.33741 -0.036772 -0.0098664 -0.0015058 -0.008043 0.013698 -0.0039751 0.01118
0.014117 0.0040342 -0.0041151 0.0073983
-0.0099011 -0.001454 -0.41766 -0.050872 0.0079113 -0.010422 0.0014915 0.011435
0.0081606 0.0027616 0.0019187 0.012817
-0.0080239 0.013725 0.0079037 -0.010441 -0.26651 0.21032 0.0074029 0.0037048
-0.001351 0.0085112 0.001635 0.012392
-0.0039507 0.011156 0.0014957 0.011457 0.00739 0.0037027 -0.3313 0.043952
-0.018872 -0.0063099 0.015254 0.024701
0.014134 0.0039782 0.0081671 0.0026938 -0.0013369 0.0084668 -0.018879 -0.00631
-0.22845 -0.19039 -0.026158 0.0044592
-0.0040145 0.0074706 0.0019838 0.012836 0.0016426 0.012406 0.01524 0.024649
-0.026124 0.0044413 -0.27162 -0.12627
560000000 -0.31843 0.12319 -0.02476 -0.062836 -0.00019236 0.012427 0.0056515 0.010457
0.010422 0.0056026 0.0096065 0.008372
-0.024754 -0.06282 -0.37745 0.10844 -0.041334 -0.036962 0.013838 0.0042878
-0.01288 -0.0047985 0.0035956 0.0016113
-0.0001696 0.012408 -0.041496 -0.036908 -0.18352 0.25895 -0.00042653 -0.0044765
0.019519 0.0054418 0.0065591 -0.0060315
0.0056718 0.010448 0.013875 0.004284 -0.00039909 -0.0045077 -0.30602 0.13479
0.0050066 -0.023541 0.0046117 -0.021894
0.01048 0.005575 -0.012958 -0.0047916 0.01952 0.0054595 0.0049963 -0.023543
-0.28882 -0.016877 0.0095084 -0.049466
0.0095457 0.0082378 0.0036077 0.0016354 0.006569 -0.0060373 0.0046456 -0.021864
0.0095415 -0.049425 -0.33088 0.022935
620000000 -0.27498 0.1067 -0.023355 0.0085368 0.003516 0.0091734 0.0087639 -0.0050596
0.011541 -0.0011128 0.0017957 -0.0021907
-0.02334 0.0085046 -0.40301 0.060131 -0.01878 0.00050002 -0.0016501 -0.0019559
0.011477 -0.0064955 0.0014025 -0.0025628
0.0035634 0.009123 -0.018788 0.00052925 -0.15334 0.26762 -0.00078819 -0.0052096
-0.0035356 -0.0033557 0.0088737 -0.0026841
0.0087349 -0.0050871 -0.0016697 -0.0019371 -0.0008443 -0.0052122 -0.26484 0.14432
-0.038559 -0.019854 0.010951 0.025169
0.011554 -0.001111 0.011484 -0.0065424 -0.0035074 -0.0033004 -0.038597 -0.019843
-0.20938 -0.050166 -0.039588 0.013741
0.0017745 -0.0022396 0.0013967 -0.0025861 0.0088919 -0.0026867 0.01108 0.025138
-0.039685 0.013685 -0.25288 -0.012266
680000000 -0.23432 0.19381 -0.026969 -0.013482 0.0053549 0.0053442 0.0014696 -0.0065824
-0.0029607 -0.011393 0.0052619 -0.0060105
-0.026956 -0.013469 -0.38746 0.15823 -0.032118 -0.0010113 -0.0014285 -0.00012583
-0.0019232 -0.0090445 -0.0012049 -0.0016945
0.0053512 0.0053578 -0.032151 -0.00091557 -0.10138 0.28726 -0.00098306 -0.00017628
-0.0017796 0.00040879 -0.0026559 -0.0091743
0.0014691 -0.0065863 -0.0014187 -0.00013249 -0.00095895 -0.00019087 -0.22029 0.19555
-0.023094 -0.0072298 -0.0090254 -0.010426
-0.0030021 -0.011417 -0.0019607 -0.0090446 -0.0018177 0.00039754 -0.023099 -0.0071987
-0.25827 0.044157 -0.0062538 -0.0082968
0.0051786 -0.0060167 -0.0012453 -0.0016753 -0.0026638 -0.0091741 -0.0090883 -0.010391
-0.0062316 -0.008281 -0.25884 0.09397
740000000 -0.19005 0.18827 -0.037988 0.026784 0.013005 -0.005231 -0.00051831 -0.0044842
-0.0045745 -0.0023982 -0.0068239 0.0023233
-0.037969 0.026774 -0.33446 0.17675 -0.03501 0.034959 -0.00056603 -0.0065023
-0.012087 0.0075635 -0.0015274 -0.0059243
0.012961 -0.0052537 -0.034945 0.035095 -0.067986 0.28499 -0.0021953 0.0031592
-0.0026151 -0.0048556 -0.0020611 0.00069938
-0.00054071 -0.0044782 -0.00057017 -0.0065028 -0.0022166 0.0031893 -0.20316 0.20282
-0.043701 -0.0063482 0.023113 0.014684
-0.0046121 -0.0023889 -0.012095 0.007604 -0.0025869 -0.0048952 -0.043716 -0.0063019
-0.16024 0.072017 -0.042896 0.0010872
-0.0068054 0.0023174 -0.0015753 -0.0058999 -0.0020433 0.00070488 0.023186 0.014658
-0.042918 0.0010473 -0.24808 0.1001
800000000 -0.15713 0.22818 -0.022197 0.016428 0.0051981 -0.010647 -0.004819 -0.0016857
-0.0043778 0.0029172 0.0039153 0.00070953
-0.022186 0.016415 -0.33755 0.24619 -0.0078279 0.033659 -0.0025098 0.0021764
-0.0010922 0.0033286 0.0010293 0.0052242
0.0051799 -0.010662 -0.0077425 0.033727 -0.027401 0.30767 0.0010364 0.0016126
0.00035719 0.003669 -0.0017784 0.0007859
-0.0048216 -0.0016844 -0.0024981 0.0021605 0.001039 0.00159 -0.17477 0.23049
-0.028016 0.013764 0.013237 -0.010055
-0.0043554 0.0029322 -0.0010789 0.003333 0.00035989 0.0036465 -0.028035 0.013826
-0.20466 0.095916 -0.016363 0.018697
0.0039162 0.00073956 0.0010384 0.0052522 -0.0017715 0.0007921 0.013181 -0.010039
-0.016353 0.018747 -0.24188 0.14913
860000000 -0.12238 0.24808 -0.01697 0.030507 -0.0032867 -0.0098295 -0.0025285 0.00079966
0.0041616 0.0048676 -0.0031612 -0.0023185
-0.016973 0.030481 -0.29021 0.28832 0.0079538 0.033993 0.0001507 0.002088
0.0046344 0.00018 0.0035696 0.0010333
-0.0033315 -0.0098151 0.0080592 0.034011 0.020212 0.31559 -0.00053264 -0.0001514
0.0028433 -0.0014105 0.001631 0.0043655
-0.0025334 0.00081828 0.00016606 0.0021018 -0.00053751 -0.00014353 -0.13856 0.24069
-0.017426 0.018717 -0.0063024 -0.009258
0.0041797 0.0048541 0.0046419 0.00015672 0.0028492 -0.0014148 -0.017406 0.018765
-0.15346 0.14567 -0.024353 0.015972
-0.003218 -0.0023027 0.0035817 0.0010297 0.0016337 0.0043721 -0.0062734 -0.0093165
-0.024377 0.015945 -0.19029 0.19311
920000000 -0.097464 0.27087 0.0053748 0.037479 -0.0092928 -0.0045482 -0.0017383 0.0019567
0.0017955 0.0017871 0.0030904 -0.0015385
0.0053531 0.037451 -0.26151 0.30928 0.02814 0.021735 0.0014173 0.0011939
0.0072515 -3.1008e-05 0.0041977 -0.0029281
-0.0093005 -0.0045274 0.028236 0.021674 0.066395 0.31641 0.0018948 -0.00013053
0.0013932 -0.0003827 0.00085551 -0.0012979
-0.0017533 0.0019521 0.0014365 0.0012084 0.0018922 -0.00012947 -0.11441 0.25808
-0.010217 0.030244 0.0036747 -0.0066825
0.0018122 0.0017747 0.0072771 -6.6574e-05 0.0014067 -0.00038406 -0.010166 0.030288
-0.14152 0.1499 -0.0023372 0.026921
0.0030793 -0.0015195 0.0041701 -0.002954 0.00085425 -0.0012955 0.0036253 -0.0066463
-0.0023787 0.026952 -0.19692 0.20757
980000000 -0.050461 0.28963 0.017449 0.029571 -0.0090887 0.0044187 0.0019863 0.0033128
0.00374 -0.0017383 -0.0033582 -0.002101
0.017411 0.029561 -0.20886 0.34296 0.032898 0.0046646 0.001906 -0.00019525
0.0015392 -0.0061338 -0.000627 -0.0021777
-0.009075 0.0044473 0.032941 0.0045604 0.11255 0.30975 0.0004918 -0.0013191
0.0001005 -0.0022326 0.0012099 -0.00021745
0.0019874 0.0033103 0.0019139 -0.00017365 0.00049367 -0.0013112 -0.076584 0.26873
0.0078534 0.02958 -0.0089289 -0.0069965
0.0037387 -0.0017525 0.0015072 -0.0061613 9.9335e-05 -0.0022212 0.0079091 0.029581
-0.1122 0.1797 0.0052396 0.019627
-0.0034066 -0.0021018 -0.00060315 -0.0021895 0.0012075 -0.00021488 -0.0089334 -0.0069848
0.0052226 0.01958 -0.15407 0.25015
1040000000 -0.0084922 0.29795 0.033056 0.017653 -0.0013927 0.0067538 0.0025067 0.00097787
-8.8491e-05 -0.0034447 -0.00030116 -0.001327
0.033026 0.017654 -0.17352 0.35599 0.029222 -0.014975 0.0013685 -0.0016638
-0.0025271 -0.0025371 -0.0014616 -0.0027538
-0.0013606 0.0067456 0.029182 -0.015079 0.15871 0.29624 -0.00059456 -0.0014303
-0.0017204 -0.00082609 -0.00055987 -0.0010793
0.0025088 0.00095791 0.0013901 -0.0016557 -0.00058899 -0.0014224 -0.049167 0.27943
0.01899 0.017624 -0.0026069 0.001473
-9.7439e-05 -0.0034373 -0.0025592 -0.0025309 -0.0017236 -0.00082033 0.01904 0.017602
-0.080121 0.18608 0.013346 0.018141
-0.00033607 -0.0013082 -0.0014575 -0.0027727 -0.00057021 -0.0010821 -0.0026157 0.0014874
0.01333 0.018178 -0.1326 0.27188
1100000000 0.036505 0.30591 0.035483 -0.0045743 0.0027103 0.0038819 0.0024902 -0.0012344
-0.0020474 -0.0030359 -0.0039351 0.00019507
0.035458 -0.0045495 -0.13017 0.37321 0.01501 -0.027873 6.3883e-05 -0.0018385
-0.0034823 -0.00068266 -0.003538 -0.00039507
0.0027272 0.0038821 0.014906 -0.027955 0.20523 0.27579 -0.0018696 0.00023409
-0.0017736 0.00061848 -0.0010996 -0.00022
0.002493 -0.0012543 6.2259e-05 -0.0018366 -0.0018639 0.00023038 -0.0089164 0.28436
0.024248 0.004836 -0.0025795 0.00022706
-0.0020619 -0.0030151 -0.0034907 -0.00065966 -0.0017752 0.00063313 0.024278 0.004792
-0.062274 0.20021 0.018884 0.0084822
-0.0039523 0.00019976 -0.0035347 -0.00038541 -0.0011051 -0.0002135 -0.0025808 0.0002414
0.018889 0.0084698 -0.086737 0.30017
1160000000 0.087589 0.30084 0.023387 -0.020946 0.0024802 -0.00038617 1.1062e-06 -0.0023473
-0.0041052 -0.00072533 -0.00077076 0.0040676
0.023389 -0.020914 -0.086721 0.37767 -0.0039575 -0.029054 -0.0016793 -0.0017687
-0.0026084 0.0025451 -0.0013609 0.0018274
0.0024962 -0.00039376 -0.004105 -0.029061 0.24812 0.24478 -0.00077583 0.0017894
-0.00046334 0.0020477 -0.00079244 0.00016194
4.7031e-07 -0.0023672 -0.0016763 -0.0017619 -0.0007814 0.001794 0.030254 0.28186
0.020507 -0.010587 -0.0031424 0.0052386
-0.0041204 -0.00070631 -0.0026063 0.0025549 -0.00046936 0.002057 0.020502 -0.010618
-0.028498 0.20929 0.017864 0.00034089
-0.00073273 0.0040782 -0.0013369 0.0018188 -0.00078791 0.00017478 -0.0031249 0.0052251
0.017834 0.00037796 -0.040378 0.30372
1220000000 0.13202 0.28991 0.0098509 -0.029922 -0.0016389 -0.00066067 -7.4667e-05 -0.00098367
-0.0026929 0.0024749 0.0013431 0.0022046
0.0098594 -0.029879 -0.042367 0.38976 -0.017035 -0.02102 -0.0026062 0.00049371
0.00017444 0.0031091 -0.00071425 0.0019138
-0.001624 -0.00065548 -0.017155 -0.020975 0.28727 0.20559 0.00081729 0.0016632
0.00069917 0.0012334 0.00035853 0.0006455
-8.6785e-05 -0.00098152 -0.0026019 0.00051295 0.00081478 0.0016599 0.070157 0.27353
0.0099805 -0.016913 0.0021654 0.0015974
-0.0026788 0.0024954 0.00018389 0.0031091 0.00069469 0.0012365 0.0099559 -0.016932
-0.0056006 0.21815 0.013744 -0.012844
0.0013318 0.002197 -0.00069921 0.0019241 0.00036198 0.00064655 0.0021659 0.0015984
0.013739 -0.012854 -0.008302 0.3193
1280000000 0.1818 0.26782 -0.0083969 -0.028148 -0.0017982 0.002798 -0.00086379 -0.0020209
-0.00072454 0.0030208 0.0026318 0.0010402
-0.008373 -0.028122 0.0036117 0.38086 -0.023845 -0.0083758 -0.00095305 0.0014603
0.0017556 0.0017794 0.00056989 0.0020421
-0.0017949 0.0027998 -0.02391 -0.0082703 0.31756 0.16138 0.0015383 -8.0054e-05
0.0011441 0.00016502 0.00037656 0.00030735
-0.00086662 -0.0020295 -0.00096103 0.0014541 0.0015367 -6.9586e-05 0.10703 0.25743
0.00054471 -0.018778 2.911e-05 0.00014562
-0.00070554 0.0030289 0.0017769 0.0017799 0.001143 0.00015751 0.00049779 -0.018786
0.030755 0.22219 0.0028193 -0.014895
0.002667 0.0010246 0.00057838 0.0020328 0.00037577 0.00031025 7.0891e-05 0.00017099
0.0028087 -0.014861 0.038768 0.32102
1340000000 0.21872 0.23396 -0.017855 -0.018338 0.0011262 0.0045717 -0.0018617 -0.00087933
0.0015233 0.002624 0.0016628 -0.0014715
-0.017827 -0.018345 0.043021 0.37271 -0.021568 0.0044613 -6.1349e-05 0.002088
0.0019656 0.0006525 0.0013854 0.00076799
0.0011513 0.004559 -0.021575 0.0045757 0.33912 0.11376 0.00117 -0.00099777
0.00072052 -0.00051552 0.00016397 0.0001528
-0.0018681 -0.00086972 -3.8812e-05 0.002079 0.0011783 -0.0010061 0.13987 0.23723
-0.0086002 -0.015908 0.00098367 0.00067423
0.0015347 0.0026211 0.0019602 0.00064824 0.0007096 -0.00051339 -0.0086369 -0.015898
0.060812 0.21782 -0.0039193 -0.01333
0.0016491 -0.0014838 0.0014068 0.00075879 0.0001678 0.0001562 0.00095207 0.00066586
-0.0039133 -0.013358 0.077469 0.31605
1400000000 0.25179 0.1957 -0.023263 -0.0068337 0.0053889 0.0030573 -0.0021257 0.0007415
0.0024759 0.0008679 0.00022798 -0.0014465
-0.023226 -0.0068496 0.080427 0.35956 -0.014739 0.012541 0.0013266 0.0012518
0.0011597 -0.00090172 0.001192 0.00017389
0.0054079 0.0030279 -0.014694 0.012639 0.35222 0.060515 -1.8466e-05 -0.0017207
7.5724e-05 -0.00044424 0.00035947 0.00029801
-0.0021218 0.00074271 0.0013346 0.0012508 -2.8171e-05 -0.001705 0.16978 0.20857
-0.014257 -0.0091989 -0.00059916 -0.00039232
0.0024871 0.00086036 0.0011504 -0.00091553 6.8012e-05 -0.00044977 -0.014279 -0.0091694
0.093866 0.21369 -0.010124 -0.008777
0.00023456 -0.0014474 0.001189 0.00017235 0.00035714 0.00029611 -0.00058649 -0.00037374
-0.010103 -0.0087701 0.12198 0.3049
1460000000 0.27421 0.15161 -0.019986 0.0051833 0.0057924 -0.0020326 -0.0016265 0.0017693
0.0020801 -0.00058407 -0.00034773 -0.00095054
-0.019969 0.0051603 0.11463 0.3377 -0.0060268 0.015418 0.0017583 0.0001342
0.00075873 -0.0012784 0.0011282 -0.00060399
0.0057863 -0.002058 -0.0059648 0.015464 0.35817 0.0064403 -0.0013267 -0.0012496
0.00020523 -0.00022409 0.00061172 -0.00038328
-0.0016208 0.0017802 0.0017591 0.00012015 -0.0013305 -0.0012616 0.19635 0.17925
-0.015165 -0.0025567 -0.00079345 0.0019425
0.0020785 -0.00058424 0.00076159 -0.0012764 0.00021095 -0.00022101 -0.015184 -0.0025192
0.12349 0.19919 -0.011825 -0.0027232
-0.00036671 -0.00094317 0.0011434 -0.00061327 0.00060277 -0.00038731 -0.00078166 0.0019317
-0.011816 -0.0027348 0.15538 0.28367
1520000000 0.28632 0.10968 -0.014185 0.01045 0.0033079 -0.0043266 0.00018752 0.0026815
0.001986 -0.0016524 -0.0011429 -9.9399e-05
-0.014175 0.010432 0.14816 0.32294 0.0016982 0.013101 0.0016215 -0.0008418
8.2271e-06 -0.00097952 0.00032202 -0.00098722
0.003278 -0.004341 0.001771 0.013101 0.3515 -0.049652 -0.0011671 -0.0003323
0.00062968 -0.00085404 2.8993e-05 -6.478e-05
0.00020086 0.0026694 0.0016161 -0.00085013 -0.001173 -0.00034034 0.21967 0.1413
-0.014258 0.0029499 0.0015125 0.0019102
0.0019751 -0.0016654 -8.492e-06 -0.00098786 0.00062043 -0.00086452 -0.014258 0.0029949
0.15142 0.185 -0.011531 0.0016955
-0.001132 -9.0715e-05 0.00031156 -0.00099323 2.6321e-05 -6.6697e-05 0.0015115 0.0019168
-0.011513 0.001689 0.18834 0.2633
1580000000 0.29529 0.063368 -0.0075084 0.013223 -0.00086219 -0.0049154 0.0015258 0.0018526
-0.00032123 -0.0021117 -0.0003591 0.00035243
-0.0075082 0.013212 0.17543 0.29805 0.0053092 0.00828 0.00044399 -0.001621
-0.00046667 -0.00097958 -0.00024992 -0.00090743
-0.00089111 -0.0049005 0.0053603 0.0082628 0.33156 -0.10733 -0.0015755 0.00065509
-0.00020646 -0.001121 0.00023261 -0.00052061
0.0015311 0.0018499 0.00043519 -0.001635 -0.0015765 0.00065247 0.23369 0.1017
-0.010773 0.0075393 0.0021281 0.00062421
-0.00033833 -0.0021201 -0.00047724 -0.00098198 -0.00020247 -0.001116 -0.010759 0.007574
0.17583 0.16673 -0.0090216 0.0074335
-0.00035583 0.00035603 -0.0002467 -0.00091878 0.0002304 -0.00052463 0.0021459 0.00061035
-0.0090474 0.0074435 0.22049 0.236
1640000000 0.29686 0.022106 -0.0010053 0.011944 -0.0027972 -0.0027025 0.0027362 0.00096319
-0.00080055 -0.0014714 -0.00036442 0.00054541
-0.001022 0.01194 0.20476 0.27305 0.0059542 0.0034931 -0.00071704 -0.0016572
-0.00095893 -0.00039185 -0.00049204 -0.00073367
-0.0028152 -0.0026844 0.0059863 0.0034684 0.3032 -0.15598 -0.00067015 0.0014964
-0.0012428 -0.00091716 -0.00012318 -0.00029906
0.0027456 0.0009531 -0.00071592 -0.0016548 -0.00067977 0.0014856 0.24593 0.052849
-0.0065465 0.0085121 0.0024696 -0.00077108
-0.00080393 -0.0014779 -0.00095963 -0.00037913 -0.0012474 -0.00092072 -0.0065314 0.0085458
0.19864 0.14196 -0.0045214 0.0093837
-0.00035281 0.00055065 -0.00049589 -0.00073091 -0.00012402 -0.00030411 0.0024515 -0.000791
-0.0045199 0.00936 0.24583 0.20469
1700000000 0.28972 -0.023008 0.0022065 0.0089955 -0.0036504 -1.4106e-05 0.0029655 -0.001346
-0.002014 -0.00060644 0.00059816 0.0004532
0.0021971 0.0089866 0.22298 0.24138 0.0040503 0.00043791 -0.001422 -0.00059689
-0.00069445 -4e-05 -0.00098645 -0.00043821
-0.0036598 9.7912e-06 0.0040648 0.00042495 0.26026 -0.19594 0.00041336 0.0015201
-0.0018606 -0.00026859 -0.00040839 -0.00087575
0.0029687 -0.0013564 -0.0014426 -0.00059493 0.00041214 0.0015549 0.24273 0.0030654
-0.0039958 0.0088003 0.001516 -0.0022623
-0.0020148 -0.00059087 -0.00069753 -3.9741e-05 -0.0018632 -0.00024713 -0.0039709 0.0088149
0.21589 0.12139 0.00014465 0.0096629
0.000598 0.00044656 -0.00098657 -0.00044218 -0.00041616 -0.00086871 0.0015044 -0.0022338
0.00013755 0.0096758 0.2621 0.17014
1760000000 0.27712 -0.071576 0.0043005 0.0057419 -0.0024287 0.0010203 0.0011897 -0.0034352
-0.0013288 0.00071337 0.00040327 -0.00061153
0.0042961 0.0057377 0.24871 0.20141 0.0016963 -0.0014658 -0.0011678 0.0002005
-0.0010774 0.00082386 -0.00061947 0.00045344
-0.002415 0.0010407 0.0016901 -0.001482 0.21202 -0.23017 0.0013166 0.0010036
-0.0010366 0.0015348 -0.0013543 -0.00042333
0.0011846 -0.0034398 -0.001153 0.00020823 0.0013036 0.00098886 0.23356 -0.048373
-0.0010041 0.0079254 -0.00039375 -0.0024684
-0.0013334 0.00072526 -0.0010698 0.00083277 -0.0010315 0.0015438 -0.00098972 0.0079333
0.23035 0.085811 0.0040526 0.0070254
0.00041044 -0.00060693 -0.00060919 0.00045893 -0.0013583 -0.00043566 -0.00036847 -0.0025299
0.0040671 0.0069962 0.27443 0.13219
1820000000 0.25245 -0.10841 0.0042845 0.002315 -0.00015448 0.0026575 -0.0011487 -0.0029983
-0.0010661 0.00090846 -3.2836e-05 -0.00013026
0.0042719 0.0023234 0.25859 0.17135 -0.00041908 -0.00015095 -0.0013115 0.00093288
-0.00015196 0.001272 -0.00058845 0.0005747
-0.00015728 0.0026495 -0.00041724 -0.00014211 0.16116 -0.24529 0.0013838 0.00039147
-0.00026503 0.0022355 -0.0014105 0.00042919
-0.0011583 -0.0029887 -0.0013043 0.00093947 0.0014045 0.00040155 0.20363 -0.095015
0.00038672 0.0064334 -0.0016117 -0.0015364
-0.0010579 0.00091684 -0.00013581 0.001277 -0.00025337 0.0022671 0.00040097 0.006436
0.24719 0.05646 0.005064 0.0033422
-2.804e-05 -0.00012488 -0.00058568 0.00057667 -0.0014098 0.00044404 -0.0016348 -0.0014899
0.005054 0.0033596 0.27651 0.09602
1880000000 0.21726 -0.14866 0.002047 0.0001617 -0.00033985 0.0022867 -0.0029795 -0.0021567
-0.00016381 0.0015432 0.00032395 -0.00053571
0.0020421 0.00016031 0.26287 0.12467 -0.0025208 0.0016412 -0.00021187 0.0016859
0.0005214 0.0012891 0.00013992 0.00094816
-0.00032199 0.0022964 -0.0025143 0.0016558 0.10848 -0.25536 0.0017656 -0.00088314
0.0014458 0.00197 -0.00096506 0.001362
-0.0030024 -0.0021286 -0.00020717 0.001698 0.0017755 -0.00089599 0.16305 -0.13526
0.00078931 0.0046282 -0.0024779 0.00030768
-0.0001566 0.0015523 0.00052673 0.0012901 0.0014337 0.0019679 0.00078239 0.0046342
0.24942 0.023478 0.0050953 0.0012752
0.00031777 -0.00052364 0.00015953 0.00095294 -0.00095474 0.0013638 -0.0024217 0.00029812
0.0051211 0.0012824 0.27581 0.061819
1940000000 0.17782 -0.17404 -0.00021274 -0.0013477 0.0015463 0.0019856 -0.0037321 0.00064688
0.0013522 0.0010796 -0.00059523 -0.00061841
-0.00021271 -0.0013431 0.26312 0.092963 -0.0012793 0.003959 0.0009953 0.0012722
0.0018791 0.00054491 0.00093334 0.00036906
0.0015642 0.0019865 -0.0012481 0.0039747 0.062751 -0.24851 0.00035968 -0.002157
0.0024225 0.00034167 0.00050925 0.0015696
-0.0037317 0.00064749 0.00098883 0.0012746 0.0003583 -0.0021343 0.11085 -0.16554
-0.00026657 0.0033622 -0.0014767 0.0016115
0.0013586 0.0010638 0.0018922 0.00051389 0.0024202 0.00033838 -0.00025238 0.0033594
0.25059 -0.015911 0.0036616 -0.0022375
-0.00056765 -0.00062892 0.00092291 0.00036841 0.00051598 0.0015783 -0.0015382 0.0016191
0.0036432 -0.002244 0.26492 0.025851
2000000000 0.13184 -0.18869 -0.0040471 0.00085549 0.0024598 0.0015914 -0.0023424 0.0035484
0.0009976 0.00023531 -0.00056846 0.00040909
-0.0040394 0.0008547 0.24878 0.057533 -0.00094646 0.00591 0.0016065 0.00032757
0.0014035 -0.0012459 0.00052754 0.00011419
0.0024823 0.0015809 -0.00090019 0.0059152 0.019125 -0.23401 -0.0013149 -0.0012938
0.001972 -0.0011197 0.0016182 0.0011311
-0.0023236 0.003586 0.0016122 0.00032266 -0.0013044 -0.0012955 0.057801 -0.17508
-0.0018471 0.0038212 -0.00018039 0.0022682
0.00099947 0.00022403 0.0013956 -0.001256 0.0019802 -0.0011198 -0.0018262 0.0038238
0.24379 -0.049637 0.00025453 -0.0031915
