!Keysight Technologies,M9804A,MY58100912,A.14.10.03
!Date: Thursday, April 27, 2023 10:28:33
!Correction: S11(C  6-Port  ) 
!S12(C  6-Port  ) 
!S13(C  6-Port  ) 
!S14(C  6-Port  ) 
!S15(C  6-Port  ) 
!S16(C  6-Port  ) 
!S21(C  6-Port  ) 
!S22(C  6-Port  ) 
!S23(C  6-Port  ) 
!S24(C  6-Port  ) 
!S25(C  6-Port  ) 
!S26(C  6-Port  ) 
!S31(C  6-Port  ) 
!S32(C  6-Port  ) 
!S33(C  6-Port  ) 
!S34(C  6-Port  ) 
!S35(C  6-Port  ) 
!S36(C  6-Port  ) 
!S41(C  6-Port  ) 
!S42(C  6-Port  ) 
!S43(C  6-Port  ) 
!S44(C  6-Port  ) 
!S45(C  6-Port  ) 
!S46(C  6-Port  ) 
!S51(C  6-Port  ) 
!S52(C  6-Port  ) 
!S53(C  6-Port  ) 
!S54(C  6-Port  ) 
!S55(C  6-Port  ) 
!S56(C  6-Port  ) 
!S61(C  6-Port  ) 
!S62(C  6-Port  ) 
!S63(C  6-Port  ) 
!S64(C  6-Port  ) 
!S65(C  6-Port  ) 
!S66(C  6-Port  ) 
!S6P File: Measurement: :
# Hz S  RI   R 50
500000000 -0.33775 -0.038426 -0.010373 -0.0030184 -0.008083 0.013144 -0.0042264 0.012124
0.013516 0.0030398 -0.004794 0.0087355
-0.010364 -0.003015 -0.4185 -0.051998 0.0076417 -0.010955 0.0015178 0.012048
0.0077354 0.0021066 0.0013072 0.013398
-0.0080604 0.013148 0.0076196 -0.010985 -0.2658 0.21002 0.0070362 0.0036073
-0.0017187 0.0079386 0.00085999 0.012109
-0.0042283 0.012105 0.0015402 0.012073 0.0070358 0.0036152 -0.33032 0.044732
-0.018556 -0.0054347 0.015869 0.025738
0.013457 0.0029532 0.0077423 0.002082 -0.0016859 0.0079467 -0.01853 -0.0054124
-0.22643 -0.1904 -0.025424 0.0051974
-0.0047715 0.0086433 0.0013664 0.013424 0.00086181 0.012127 0.01587 0.02571
-0.025407 0.0051816 -0.27082 -0.1255
560000000 -0.31702 0.12445 -0.024055 -0.062918 -9.3065e-05 0.011995 0.005837 0.010852
0.010409 0.0047653 0.010629 0.0077361
-0.024005 -0.062832 -0.37755 0.10793 -0.041788 -0.03744 0.013946 0.0041278
-0.01322 -0.0040953 0.0031516 -0.00019148
-6.2648e-05 0.011997 -0.041927 -0.03739 -0.18275 0.25806 -0.00058105 -0.0047478
0.019426 0.0049002 0.0075744 -0.006425
0.0059494 0.010792 0.013917 0.0040501 -0.00055328 -0.0047387 -0.30549 0.13392
0.0043587 -0.023697 0.0040198 -0.021944
0.010419 0.004773 -0.013298 -0.0041689 0.019449 0.0048993 0.004327 -0.0237
-0.29095 -0.015364 0.00911 -0.048792
0.010679 0.0076997 0.003134 -0.00012539 0.0075341 -0.0064139 0.0040109 -0.021967
0.0091058 -0.048753 -0.32957 0.022898
620000000 -0.27465 0.10742 -0.023321 0.008347 0.0032294 0.0088735 0.0078731 -0.0050166
0.012044 -0.00029016 0.0012076 -0.002406
-0.023315 0.0083454 -0.40281 0.060122 -0.018952 0.00042101 -0.0017003 -0.0019133
0.011789 -0.0064217 0.0014576 -0.0027348
0.003258 0.0088745 -0.018975 0.00046308 -0.15359 0.26736 -0.0015415 -0.0049365
-0.0031006 -0.0029246 0.0085704 -0.0023718
0.0078877 -0.0051008 -0.0017035 -0.0019029 -0.0015556 -0.0049258 -0.2652 0.14479
-0.037391 -0.019287 0.010747 0.025954
0.012062 -0.00024129 0.011779 -0.0064613 -0.0030844 -0.0029238 -0.037406 -0.019235
-0.20899 -0.053877 -0.039424 0.01307
0.0011839 -0.0023387 0.0014573 -0.0026962 0.0085751 -0.0023815 0.010742 0.025999
-0.039453 0.013058 -0.25293 -0.012118
680000000 -0.23408 0.19318 -0.027005 -0.013935 0.0051454 0.0050327 0.0014957 -0.0069256
-0.0027992 -0.01156 0.0051801 -0.0068838
-0.02696 -0.013937 -0.3875 0.15778 -0.032597 -0.0010799 -0.0016879 -0.00032714
-0.0019442 -0.0089969 -0.0016471 -0.0018725
0.0051621 0.0050207 -0.032636 -0.00098912 -0.10206 0.28706 -0.00088665 -3.2519e-06
-0.0018092 0.00038663 -0.0030152 -0.0092742
0.0015083 -0.0069132 -0.0016735 -0.00031084 -0.00087149 1.1337e-05 -0.22047 0.1951
-0.023685 -0.0072858 -0.0094878 -0.01037
-0.0028021 -0.011571 -0.0019694 -0.0089967 -0.0017867 0.00040681 -0.023711 -0.0072561
-0.25784 0.044063 -0.0061601 -0.0082429
0.0051665 -0.0069225 -0.0016461 -0.0018601 -0.0030322 -0.0092701 -0.0095419 -0.010354
-0.0061591 -0.0082432 -0.25964 0.093135
740000000 -0.19016 0.18826 -0.038502 0.026428 0.012931 -0.0053606 -0.00057775 -0.0039245
-0.0040737 -0.0030768 -0.006641 0.0026117
-0.038477 0.026387 -0.3347 0.17701 -0.03543 0.03494 -0.00074574 -0.0063624
-0.011509 0.007916 -0.001845 -0.005849
0.012895 -0.0053902 -0.035351 0.035089 -0.068397 0.28468 -0.0018987 0.0032061
-0.0025713 -0.004503 -0.0015802 0.00050326
-0.00055142 -0.0039432 -0.00079029 -0.0063924 -0.0019106 0.0031964 -0.20329 0.20249
-0.04331 -0.0069693 0.023167 0.0146
-0.0040927 -0.0029943 -0.011534 0.0079522 -0.0025469 -0.0045096 -0.043344 -0.0068927
-0.16064 0.071652 -0.042621 0.00081073
-0.0066466 0.0026008 -0.0018415 -0.005885 -0.0015636 0.0004833 0.023161 0.014569
-0.042608 0.00078784 -0.24793 0.09849
800000000 -0.15723 0.22789 -0.02241 0.016675 0.0053458 -0.010662 -0.0046379 -0.0018624
-0.0044348 0.0028285 0.0047652 0.00045966
-0.0224 0.016659 -0.33808 0.24616 -0.0078814 0.033997 -0.0024212 0.0022887
-0.0010341 0.0032923 0.0011199 0.0052614
0.0053166 -0.010689 -0.0078047 0.034047 -0.027821 0.30813 0.0010852 0.001567
0.00032449 0.0035717 -0.0017506 0.00095291
-0.0046381 -0.0018606 -0.0024221 0.0022675 0.0010875 0.001563 -0.17492 0.23019
-0.028417 0.013847 0.013445 -0.010037
-0.0044605 0.0028814 -0.0010657 0.0033474 0.00033101 0.0035817 -0.028395 0.013926
-0.20506 0.09493 -0.016698 0.018827
0.0047428 0.00047871 0.0011098 0.0052917 -0.0017805 0.00096762 0.01341 -0.010079
-0.016714 0.018824 -0.24209 0.14729
860000000 -0.12241 0.24835 -0.017097 0.030616 -0.0032757 -0.010065 -0.0022218 0.0010052
0.0042243 0.0051028 -0.0032371 -0.0027884
-0.017096 0.030589 -0.29038 0.28822 0.0079588 0.034247 9.6024e-05 0.0020383
0.00456 0.00014989 0.0032524 0.0006695
-0.0033117 -0.01006 0.0080811 0.034254 0.019986 0.31598 -0.00050104 -0.00022355
0.0028128 -0.0015056 0.0017766 0.0043053
-0.0022234 0.00098861 0.00011211 0.0020432 -0.00050022 -0.00023357 -0.13883 0.24119
-0.017516 0.018936 -0.0059451 -0.0094888
0.004248 0.0050681 0.0045354 0.00013724 0.002819 -0.0015177 -0.017514 0.018983
-0.15393 0.14474 -0.024725 0.015658
-0.0032414 -0.0027916 0.0032532 0.00065968 0.0017921 0.0043199 -0.0059587 -0.0094762
-0.024735 0.015654 -0.18962 0.19184
920000000 -0.097536 0.27079 0.0053035 0.037569 -0.0093851 -0.0046079 -0.0017271 0.0019005
0.0014354 0.0015427 0.0026284 -0.0015933
0.0052842 0.037543 -0.26172 0.30959 0.02824 0.02185 0.0014679 0.0011326
0.0072211 -0.00063023 0.0040199 -0.0030185
-0.0094056 -0.0045824 0.028336 0.02179 0.066348 0.31678 0.0018215 -0.00014108
0.0013143 -0.00054636 0.00087878 -0.0012388
-0.0017288 0.0019061 0.0014771 0.0011121 0.0018205 -0.00015785 -0.11497 0.2582
-0.010543 0.03011 0.0033425 -0.0067398
0.0014278 0.0015376 0.0072733 -0.00065395 0.0013143 -0.00054175 -0.010471 0.030134
-0.14359 0.1502 -0.0025433 0.026696
0.0026177 -0.0015974 0.0039907 -0.0030462 0.00088434 -0.001219 0.0033271 -0.0067713
-0.0025434 0.026693 -0.198 0.20701
980000000 -0.050456 0.29004 0.017582 0.029819 -0.009072 0.0045553 0.0020888 0.0034125
0.0038431 -0.0018139 -0.0032672 -0.0020815
0.017545 0.029827 -0.20907 0.34329 0.033161 0.0046688 0.0019665 -0.00017424
0.0015328 -0.006213 -0.00052565 -0.0022206
-0.0090504 0.0045824 0.033198 0.0045539 0.1127 0.31016 0.00046475 -0.0012335
0.00015704 -0.0021678 0.0013875 -0.00018461
0.0020884 0.0034129 0.0019829 -0.00018515 0.00046894 -0.0012305 -0.076718 0.26947
0.0079635 0.029973 -0.0089453 -0.0068431
0.0038303 -0.0018172 0.0015094 -0.0062037 0.00016506 -0.0021657 0.0080235 0.02996
-0.11293 0.17987 0.0053656 0.019965
-0.0032629 -0.0020695 -0.00053164 -0.0022222 0.0013756 -0.00018679 -0.0089563 -0.0068363
0.0053677 0.019962 -0.15498 0.25029
1040000000 -0.0085164 0.29826 0.033221 0.017823 -0.0013903 0.0069319 0.0025047 0.0008236
-0.00017365 -0.0034139 -0.00049107 -0.0014102
0.033191 0.017851 -0.17359 0.35643 0.029338 -0.015087 0.0013209 -0.0017263
-0.0026447 -0.0024368 -0.001591 -0.0028041
-0.0013535 0.0069322 0.029298 -0.015199 0.15895 0.29658 -0.00058478 -0.0014858
-0.0016794 -0.00083559 -0.00053813 -0.001141
0.0025108 0.00081721 0.0013271 -0.0017454 -0.00057734 -0.0014861 -0.049216 0.27995
0.019455 0.017776 -0.0027182 0.0016196
-0.00019168 -0.0034287 -0.0026482 -0.002427 -0.0016782 -0.00086307 0.019496 0.017738
-0.080232 0.18645 0.01348 0.018228
-0.00049562 -0.0013784 -0.001594 -0.0028114 -0.00054551 -0.0011437 -0.0027001 0.0016372
0.013481 0.018253 -0.13394 0.27156
1100000000 0.036785 0.30611 0.035733 -0.0045285 0.0028198 0.0039066 0.0024243 -0.0013069
-0.0021176 -0.0030827 -0.0038408 0.000256
0.035709 -0.0044989 -0.13019 0.37377 0.015005 -0.028078 -2.8679e-05 -0.0018491
-0.0035149 -0.00059923 -0.0035213 -0.00044405
0.0028435 0.0038986 0.014907 -0.028162 0.20564 0.27606 -0.0018367 0.00028659
-0.0017575 0.00062612 -0.0010773 -0.00034247
0.002415 -0.0013083 -2.9633e-05 -0.0018459 -0.0018352 0.00027698 -0.0086374 0.28494
0.024584 0.0047692 -0.0024788 0.00034161
-0.0021405 -0.0030723 -0.0035227 -0.00057034 -0.0017664 0.00061739 0.024626 0.0047256
-0.06276 0.20068 0.019041 0.008734
-0.0038404 0.00027688 -0.0035081 -0.00044058 -0.0010731 -0.00034119 -0.0024705 0.00035479
0.019029 0.0087461 -0.087311 0.30049
1160000000 0.087953 0.30101 0.023658 -0.021057 0.0026455 -0.00041038 -0.00021716 -0.0024386
-0.0042328 -0.00068937 -0.00077272 0.0041435
0.023658 -0.021002 -0.086395 0.37808 -0.0040421 -0.029149 -0.0017571 -0.0017182
-0.0026797 0.0024897 -0.0012928 0.0019833
0.0026476 -0.00041673 -0.004187 -0.029149 0.24858 0.2448 -0.00070261 0.0018347
-0.00051094 0.0020227 -0.00096182 0.00011862
-0.00024471 -0.002453 -0.0017528 -0.0017167 -0.00069891 0.0018403 0.030701 0.2821
0.020862 -0.010914 -0.0029063 0.0052858
-0.0042511 -0.0007028 -0.0026756 0.0025108 -0.00051189 0.0020194 0.020864 -0.010954
-0.028867 0.20959 0.01798 0.00026564
-0.00077875 0.0041771 -0.0013028 0.0020035 -0.00098399 0.00013215 -0.0029256 0.0052881
0.017964 0.00027156 -0.040738 0.30334
1220000000 0.1324 0.28999 0.0099845 -0.030116 -0.0015767 -0.00074418 -2.9984e-05 -0.00091292
-0.0026363 0.0024424 0.0012679 0.002047
0.0099987 -0.030071 -0.04189 0.39014 -0.017168 -0.021059 -0.0025366 0.00052331
0.00014067 0.0030218 -0.00076795 0.0018996
-0.0015763 -0.00073908 -0.017292 -0.021013 0.2876 0.2054 0.00086707 0.0016566
0.00065045 0.0012606 0.00033502 0.00066478
-4.1036e-05 -0.00092668 -0.0025322 0.00052457 0.00086687 0.00167 0.070805 0.2736
0.0099372 -0.017284 0.0021883 0.0015855
-0.0026295 0.002448 0.00016245 0.0030206 0.00063446 0.0012509 0.0099183 -0.0173
-0.0059186 0.21914 0.013886 -0.012994
0.0012939 0.0020601 -0.00076607 0.0018987 0.00031101 0.00067536 0.0021919 0.0015781
0.013876 -0.012987 -0.0092136 0.3192
1280000000 0.18213 0.26783 -0.0084235 -0.028384 -0.0018485 0.0026379 -0.00092915 -0.00195
-0.00072973 0.0031032 0.0025201 0.0011118
-0.0084019 -0.028359 0.0042656 0.38104 -0.023913 -0.0082432 -0.00093705 0.0014939
0.0017451 0.0017239 0.00055923 0.0020424
-0.0018384 0.0026415 -0.023979 -0.0081316 0.31767 0.16125 0.0015341 -6.6307e-05
0.0011146 0.00024574 0.00028629 0.00031496
-0.00093451 -0.0019475 -0.00092548 0.0014956 0.0015342 -6.2499e-05 0.10756 0.25729
0.00037171 -0.019036 -1.1219e-05 0.00018229
-0.00071133 0.0030978 0.0017532 0.0017241 0.0011055 0.00024021 0.00033142 -0.019046
0.030973 0.22289 0.0028342 -0.015065
0.0025207 0.0011038 0.00057153 0.0020466 0.0002743 0.00031577 -6.1371e-06 0.00017072
0.0028388 -0.015065 0.038284 0.32132
1340000000 0.21919 0.23384 -0.017949 -0.018491 0.001071 0.0045034 -0.0018175 -0.00082725
0.001515 0.0026005 0.0016207 -0.0014551
-0.017915 -0.018499 0.043706 0.37256 -0.021569 0.0045689 -4.7775e-05 0.0019599
0.0019314 0.00068008 0.0013356 0.00079238
0.0010951 0.0044985 -0.021571 0.0046839 0.33925 0.11353 0.0010939 -0.0010371
0.00078079 -0.00043503 0.00019008 0.00027091
-0.0018212 -0.00082438 -3.9971e-05 0.0019691 0.0010948 -0.0010422 0.14036 0.23681
-0.0088921 -0.015985 0.00094429 0.00046192
0.0015428 0.0026068 0.0019325 0.00068054 0.00077698 -0.00044258 -0.0089381 -0.015962
0.061207 0.21832 -0.003834 -0.013621
0.0016124 -0.0014691 0.0013472 0.00078572 0.00019736 0.00027499 0.00095244 0.00045911
-0.0038293 -0.013616 0.076845 0.31609
1400000000 0.25213 0.19534 -0.02345 -0.0069303 0.0052788 0.0030079 -0.0021085 0.00070884
0.0025451 0.00086563 0.00018658 -0.0014505
-0.02342 -0.0069557 0.080911 0.35917 -0.01464 0.012609 0.0013237 0.0012339
0.0011222 -0.00090551 0.0012079 0.00012592
0.0052971 0.0029829 -0.014605 0.01271 0.35227 0.06034 3.1686e-05 -0.0016622
4.1551e-05 -0.00042529 0.00042458 0.00026647
-0.0021089 0.00072163 0.0013294 0.0012305 4.3253e-05 -0.0016665 0.16993 0.20794
-0.014605 -0.0090675 -0.00066601 -0.00037571
0.0025588 0.00085211 0.0011239 -0.00090678 3.3071e-05 -0.00042861 -0.014642 -0.0090289
0.09427 0.21387 -0.01035 -0.0087196
0.00017035 -0.0014541 0.0012278 0.00012075 0.00044852 0.00028157 -0.00066585 -0.0003637
-0.010359 -0.0087318 0.12159 0.3052
1460000000 0.27453 0.15114 -0.020182 0.0052229 0.0056389 -0.0019493 -0.0016024 0.0017223
0.0021378 -0.00060197 -0.00030354 -0.00096066
-0.020165 0.0051977 0.11485 0.33714 -0.0059528 0.015389 0.0016716 0.00016683
0.00074465 -0.0012671 0.0011818 -0.00062445
0.0056311 -0.0019748 -0.0058882 0.015422 0.35823 0.0061689 -0.0013201 -0.0012113
0.00022091 -0.00030064 0.00055667 -0.00039537
-0.0015833 0.0017227 0.0016849 0.00016241 -0.0013097 -0.0012215 0.19628 0.17877
-0.015338 -0.0023012 -0.00084401 0.0019297
0.0021371 -0.00062062 0.00073237 -0.0012801 0.0002161 -0.00030497 -0.015357 -0.0022525
0.12358 0.19898 -0.011943 -0.0026707
-0.00031428 -0.00095265 0.0011748 -0.00063912 0.00055011 -0.0003836 -0.00083774 0.0019316
-0.01193 -0.0026801 0.15497 0.28395
1520000000 0.28632 0.10913 -0.014311 0.010557 0.0032042 -0.0042709 0.00010376 0.0026362
0.0019731 -0.0017857 -0.0011474 -5.8265e-05
-0.014312 0.010538 0.1481 0.32233 0.0016953 0.013018 0.00159 -0.00077057
1.3691e-05 -0.00095775 0.00027504 -0.0010135
0.0031888 -0.0042918 0.0017679 0.013029 0.35144 -0.049871 -0.0011273 -0.00030047
0.00062351 -0.00082527 2.4556e-05 -0.00011341
0.00012075 0.0026281 0.0015897 -0.0007793 -0.0011267 -0.00030749 0.21941 0.14083
-0.014318 0.0032713 0.0014775 0.0019521
0.0019639 -0.0017882 1.0053e-05 -0.00095353 0.00062146 -0.00083548 -0.01432 0.0033074
0.15158 0.18464 -0.011761 0.0018889
-0.0011511 -5.3976e-05 0.00026444 -0.001014 1.7225e-05 -0.00011902 0.0014838 0.0019443
-0.011749 0.0018714 0.18805 0.26347
1580000000 0.29512 0.063031 -0.0075729 0.013426 -0.00088337 -0.0048343 0.0014871 0.0019039
-0.00033441 -0.0021609 -0.00034814 0.00044109
-0.0075851 0.01341 0.17513 0.29758 0.0052685 0.0081996 0.00047161 -0.0015628
-0.00049262 -0.00099088 -0.00025953 -0.00085583
-0.00090358 -0.004832 0.0053273 0.0081802 0.33137 -0.10738 -0.0015437 0.00064929
-0.00021796 -0.0011554 0.00017362 -0.0005177
0.0014983 0.0018977 0.00046664 -0.0015628 -0.0015461 0.00066587 0.23331 0.10152
-0.010506 0.0077507 0.0021384 0.00063684
-0.0003468 -0.0021615 -0.00050193 -0.0009823 -0.00022758 -0.0011495 -0.010501 0.0077836
0.17596 0.16637 -0.0092335 0.0074611
-0.00034087 0.00044446 -0.00026373 -0.0008524 0.00017082 -0.00052008 0.0021244 0.00063681
-0.0092355 0.0074604 0.22009 0.23627
1640000000 0.29668 0.021948 -0.00094923 0.012085 -0.0028086 -0.0026426 0.0026977 0.00095955
-0.00081886 -0.0014721 -0.00032429 0.00060076
-0.00095621 0.012077 0.20433 0.27275 0.005914 0.0034428 -0.00070685 -0.0017079
-0.00095349 -0.00038017 -0.00055483 -0.00064824
-0.0028156 -0.0026284 0.0059474 0.0034147 0.30312 -0.15604 -0.000656 0.0014736
-0.0012993 -0.00083551 -0.00016811 -0.00036527
0.002701 0.00094525 -0.00071018 -0.0017022 -0.00066573 0.0014743 0.24547 0.05287
-0.0063323 0.0085485 0.0024636 -0.00074368
-0.00083494 -0.0014624 -0.00096717 -0.00036829 -0.0013042 -0.00083696 -0.0063104 0.0085762
0.19839 0.14179 -0.0044226 0.0094238
-0.00032431 0.00060241 -0.00055524 -0.00065356 -0.00014655 -0.00037303 0.0024649 -0.0007457
-0.0044275 0.009426 0.2455 0.20514
1700000000 0.28935 -0.023043 0.0023114 0.0090921 -0.003517 -1.0914e-05 0.0029745 -0.0013256
-0.0019733 -0.00060606 0.00063003 0.00034584
0.0023037 0.0090758 0.22239 0.2413 0.0039797 0.00047271 -0.0014594 -0.00058078
-0.00069547 -1.1399e-05 -0.00092969 -0.00043346
-0.0035231 5.2819e-06 0.0039899 0.00045534 0.26021 -0.19582 0.00047144 0.0015339
-0.0018131 -0.00012197 -0.00049349 -0.00094328
0.0029683 -0.0013385 -0.0014661 -0.00057961 0.00047825 0.0015358 0.2424 0.0034099
-0.0037252 0.0086197 0.0015071 -0.0022256
-0.0019667 -0.00059532 -0.0006899 -9.8024e-06 -0.0018186 -0.00012358 -0.0037087 0.0086351
0.21549 0.12124 0.00029667 0.0095893
0.0006435 0.00033794 -0.0009262 -0.00042223 -0.00051041 -0.00094361 0.0015115 -0.0022371
0.00029371 0.0095912 0.26183 0.17056
1760000000 0.277 -0.071288 0.0043626 0.0057784 -0.0023575 0.00099451 0.0012269 -0.0034457
-0.0012729 0.00075519 0.00037144 -0.00058634
0.0043498 0.0057721 0.24818 0.20162 0.0016352 -0.0013876 -0.001164 0.00019072
-0.0010352 0.00083876 -0.00050524 0.00044557
-0.0023502 0.0010114 0.0016351 -0.0013992 0.21217 -0.22991 0.0012984 0.0010088
-0.0010785 0.0015552 -0.0011676 -0.00029538
0.0012067 -0.0034573 -0.0011627 0.0001917 0.0012988 0.00098833 0.23333 -0.047785
-0.00091008 0.0077235 -0.00027022 -0.0025299
-0.0012703 0.00074491 -0.0010233 0.00084757 -0.0010731 0.0015607 -0.00089497 0.0077257
0.22981 0.085939 0.0042463 0.0069482
0.00036438 -0.00057764 -0.00050252 0.00045334 -0.0011681 -0.00030777 -0.00027941 -0.0025397
0.0042547 0.0069377 0.27413 0.13254
1820000000 0.25238 -0.10824 0.0043296 0.002354 -0.00014791 0.0024595 -0.0010595 -0.0030622
-0.000912 0.00089967 -9.948e-05 -0.00016496
0.0043161 0.0023572 0.25816 0.17173 -0.00048112 -0.00017294 -0.0013092 0.00095126
-0.00012384 0.0012452 -0.00051914 0.00051407
-0.00014198 0.0024619 -0.00047965 -0.00016913 0.16125 -0.24566 0.0013737 0.00041952
-0.00022434 0.0021449 -0.0014131 0.00039496
-0.0010752 -0.003044 -0.0013093 0.00095922 0.0013805 0.00042206 0.20374 -0.094659
0.00021646 0.0061948 -0.0016895 -0.0015991
-0.00091055 0.00090507 -0.00011768 0.0012546 -0.00022835 0.0021396 0.00023665 0.0062026
0.2464 0.056671 0.0051304 0.0033703
-0.00010167 -0.0001616 -0.00051917 0.0005146 -0.001404 0.00039764 -0.0016957 -0.0015913
0.0051435 0.0033708 0.27633 0.096332
1880000000 0.21741 -0.1484 0.002118 0.00022941 -0.00035225 0.0022438 -0.0029647 -0.0022193
-0.00011354 0.0014909 0.00017962 -0.00062121
0.0021051 0.00023465 0.26264 0.12528 -0.002548 0.0016914 -0.00015723 0.0016493
0.00055949 0.0012526 8.7598e-05 0.00086379
-0.00033629 0.0022603 -0.0025425 0.0017065 0.10835 -0.25531 0.0017281 -0.0010077
0.0014699 0.0018904 -0.001037 0.0012969
-0.0030022 -0.0021955 -0.00014991 0.0016406 0.0017357 -0.0010181 0.16358 -0.13471
0.00058012 0.0045357 -0.0024392 0.00038112
-9.8259e-05 0.0015032 0.00057318 0.001244 0.0014946 0.0018956 0.00058124 0.0045375
0.24871 0.023909 0.0049947 0.001219
0.00018986 -0.00062486 0.00010332 0.00086655 -0.0010338 0.0012955 -0.0024479 0.00038946
0.0049808 0.0012031 0.27598 0.061976
1940000000 0.17801 -0.17399 -9.5042e-05 -0.0013468 0.0016018 0.0019465 -0.0037818 0.0005514
0.0012574 0.00098873 -0.00059864 -0.00052207
-9.9634e-05 -0.0013548 0.26322 0.093565 -0.0012196 0.0040268 0.0010197 0.001264
0.0018264 0.00054782 0.00085595 0.00030332
0.0016111 0.0019394 -0.0011879 0.0040418 0.062773 -0.2485 0.00043604 -0.0021754
0.0024055 0.00038219 0.00029123 0.001595
-0.0037838 0.00058379 0.0010272 0.0012569 0.00045189 -0.0021734 0.11157 -0.16511
-0.00045792 0.003533 -0.0015067 0.0014954
0.0012777 0.0009882 0.0018336 0.00052921 0.0024133 0.0003914 -0.00045615 0.0035431
0.24995 -0.015167 0.0036209 -0.0022271
-0.00059265 -0.00051741 0.0008656 0.00029078 0.00029046 0.0015963 -0.0015101 0.0014906
0.0036069 -0.0022428 0.26485 0.026218
2000000000 0.13197 -0.18869 -0.0039724 0.0007788 0.0024871 0.0014736 -0.0022997 0.0037041
0.00092415 0.00020421 -0.0006102 0.00032053
-0.0039695 0.00077481 0.2491 0.058075 -0.00087006 0.0058705 0.0016323 0.00035743
0.0013866 -0.0012841 0.000463 0.00015917
0.00249 0.0014554 -0.00082655 0.0058832 0.019199 -0.23395 -0.0013032 -0.0013003
0.0019613 -0.0010988 0.0016449 0.001277
-0.0022925 0.0037061 0.0016214 0.00033211 -0.0013063 -0.0013158 0.058474 -0.17544
-0.0019418 0.0037983 -0.00019025 0.0023829
0.00093134 0.00018732 0.0013636 -0.0013151 0.0019449 -0.0011188 -0.001921 0.0038085
