!Keysight Technologies,M9804A,MY58100912,A.14.10.03
!Date: Thursday, April 27, 2023 10:28:33
!Correction: S11(C  6-Port  ) 
!S12(C  6-Port  ) 
!S13(C  6-Port  ) 
!S14(C  6-Port  ) 
!S15(C  6-Port  ) 
!S16(C  6-Port  ) 
!S21(C  6-Port  ) 
!S22(C  6-Port  ) 
!S23(C  6-Port  ) 
!S24(C  6-Port  ) 
!S25(C  6-Port  ) 
!S26(C  6-Port  ) 
!S31(C  6-Port  ) 
!S32(C  6-Port  ) 
!S33(C  6-Port  ) 
!S34(C  6-Port  ) 
!S35(C  6-Port  ) 
!S36(C  6-Port  ) 
!S41(C  6-Port  ) 
!S42(C  6-Port  ) 
!S43(C  6-Port  ) 
!S44(C  6-Port  ) 
!S45(C  6-Port  ) 
!S46(C  6-Port  ) 
!S51(C  6-Port  ) 
!S52(C  6-Port  ) 
!S53(C  6-Port  ) 
!S54(C  6-Port  ) 
!S55(C  6-Port  ) 
!S56(C  6-Port  ) 
!S61(C  6-Port  ) 
!S62(C  6-Port  ) 
!S63(C  6-Port  ) 
!S64(C  6-Port  ) 
!S65(C  6-Port  ) 
!S66(C  6-Port  ) 
!S6P File: Measurement: :
# Hz S  RI   R 50
500000000 -0.33696 -0.038883 -0.0096107 -0.0028437 -0.0082808 0.013071 -0.0036196 0.011322
0.013846 0.0036277 -0.0038383 0.0082523
-0.0092448 -0.002943 -0.41806 -0.051693 0.007703 -0.010731 0.0016178 0.011822
0.0082236 0.0022975 0.0020282 0.013194
-0.0080238 0.013205 0.0076518 -0.010736 -0.26597 0.2098 0.0074008 0.0033128
-0.00097014 0.0083098 0.0015688 0.012028
-0.0038635 0.011586 0.0017208 0.0118 0.0074249 0.0033089 -0.33021 0.044207
-0.019568 -0.005713 0.016369 0.02577
0.013975 0.0032116 0.0082568 0.0023283 -0.0010126 0.0082867 -0.019612 -0.0056576
-0.22507 -0.19457 -0.0269 0.005417
-0.0043836 0.0085173 0.0021705 0.013188 0.0014929 0.012002 0.016595 0.025821
-0.026916 0.0054492 -0.26734 -0.12854
560000000 -0.31832 0.12575 -0.023531 -0.062937 -0.00034916 0.012859 0.0057879 0.010855
0.010137 0.0059249 0.010323 0.0083174
-0.023436 -0.062537 -0.37619 0.10671 -0.041301 -0.036807 0.013856 0.0035262
-0.013882 -0.0046186 0.004715 0.00075378
-0.00038365 0.013158 -0.041471 -0.036704 -0.18365 0.2579 -0.00040461 -0.0043333
0.019737 0.005526 0.0063273 -0.005952
0.0060167 0.011063 0.013927 0.0035376 -0.00042762 -0.0043541 -0.30571 0.13365
0.0048656 -0.024179 0.0048836 -0.021481
0.010823 0.0057768 -0.013776 -0.0045761 0.019785 0.0055814 0.0047385 -0.024338
-0.29029 -0.020435 0.009012 -0.049693
0.010694 0.0084228 0.0044778 0.00077273 0.0063426 -0.0060468 0.004987 -0.021484
0.0089856 -0.049692 -0.32959 0.019667
620000000 -0.27543 0.10714 -0.02321 0.0082183 0.0034538 0.009079 0.0079691 -0.0049126
0.010657 -0.00090577 0.00069179 -0.0023533
-0.023257 0.0083479 -0.40259 0.059843 -0.018582 0.00027846 -0.0018325 -0.0017882
0.0115 -0.0068054 0.0014789 -0.0030842
0.0033284 0.0090051 -0.018612 0.00031651 -0.15327 0.267 -0.001158 -0.0050999
-0.0038276 -0.003317 0.0092113 -0.0029795
0.0076934 -0.0051446 -0.0018135 -0.001806 -0.0011304 -0.0050847 -0.26451 0.14275
-0.038676 -0.018821 0.011961 0.025131
0.01105 -0.00032526 0.011543 -0.0069111 -0.0038138 -0.0033248 -0.038633 -0.018542
-0.20585 -0.056468 -0.041406 0.014307
0.0006181 -0.0025118 0.0014646 -0.0031182 0.0092462 -0.0030134 0.011956 0.025163
-0.041474 0.014268 -0.25192 -0.017522
680000000 -0.23401 0.1932 -0.027074 -0.014114 0.0052135 0.0050595 0.0016335 -0.006387
-0.0028826 -0.011645 0.0051171 -0.0069844
-0.026989 -0.014068 -0.38772 0.1574 -0.032535 -0.001303 -0.0016682 -0.00023161
-0.0020318 -0.0091349 -0.0014674 -0.0023654
0.0054247 0.0048984 -0.032557 -0.0012081 -0.10209 0.2866 -0.00089009 -2.795e-05
-0.0019747 0.00035743 -0.0029123 -0.0093591
0.0017942 -0.0065665 -0.0016794 -0.00017103 -0.00090211 -1.5858e-05 -0.22115 0.19441
-0.023172 -0.0073696 -0.0088097 -0.010312
-0.0028042 -0.011686 -0.0020695 -0.0091765 -0.0019617 0.0003569 -0.023199 -0.0074365
-0.25907 0.040208 -0.0054426 -0.0088075
0.0055238 -0.0071473 -0.0014652 -0.0022923 -0.0029369 -0.0093527 -0.008851 -0.010431
-0.0054973 -0.0088287 -0.25928 0.089883
740000000 -0.19034 0.1876 -0.03809 0.026406 0.012758 -0.0050601 -0.0005678 -0.003935
-0.0043618 -0.0027209 -0.0061661 0.0025184
-0.038155 0.02652 -0.33508 0.17695 -0.035212 0.034823 -0.00065284 -0.0062675
-0.011505 0.0073801 -0.0018877 -0.0061083
0.012876 -0.0050297 -0.035154 0.034976 -0.068537 0.2846 -0.0019103 0.0035175
-0.0026924 -0.0047783 -0.0016948 0.001112
-0.00059299 -0.0038485 -0.00065415 -0.0062422 -0.0019211 0.0035113 -0.20364 0.20188
-0.043337 -0.0064401 0.022929 0.014454
-0.004227 -0.0029024 -0.011532 0.0075314 -0.0026825 -0.0048757 -0.043249 -0.0062459
-0.16103 0.06652 -0.042809 0.0014789
-0.0060606 0.002944 -0.0019383 -0.0060881 -0.0017306 0.0010864 0.022922 0.014476
-0.042794 0.0014777 -0.24873 0.095139
800000000 -0.15742 0.22819 -0.022374 0.016882 0.0053271 -0.010517 -0.0048342 -0.0017586
-0.004207 0.0030054 0.0041482 0.0010293
-0.022545 0.01667 -0.33816 0.24629 -0.0078726 0.033883 -0.0024982 0.0022184
-0.00074543 0.0035156 0.00096883 0.0053954
0.0050912 -0.010573 -0.0077505 0.033974 -0.027883 0.30782 0.00098918 0.0015165
0.0004184 0.0036557 -0.0019284 0.00071648
-0.0048768 -0.0020634 -0.0025147 0.0023054 0.0010055 0.0015338 -0.17507 0.22978
-0.028271 0.013868 0.013487 -0.010124
-0.0043875 0.0028944 -0.00074102 0.0035239 0.00041017 0.0036412 -0.028283 0.013889
-0.20665 0.091451 -0.017113 0.019085
0.0038037 0.00061701 0.001001 0.0054223 -0.0019449 0.0006721 0.013529 -0.010297
-0.017141 0.019105 -0.24242 0.14505
860000000 -0.12305 0.24805 -0.017343 0.030803 -0.0033443 -0.0098427 -0.0026734 0.00091206
0.0042808 0.0049695 -0.003678 -0.0027175
-0.017368 0.030634 -0.29056 0.28844 0.0079661 0.034152 7.7733e-05 0.0020833
0.0043643 0.00018559 0.0031096 0.00066212
-0.0033462 -0.0098866 0.0080857 0.034177 0.020104 0.31577 -0.0006383 -0.00013599
0.0028976 -0.0014934 0.0016258 0.0045092
-0.0026336 0.0011239 5.1696e-05 0.0021028 -0.00064952 -0.00014893 -0.13939 0.24031
-0.018089 0.018451 -0.0063249 -0.0091357
0.0042219 0.0050518 0.0044246 0.00020331 0.0028955 -0.0014871 -0.018127 0.018487
-0.1557 0.14221 -0.025217 0.015471
-0.0034428 -0.0027044 0.0031474 0.00065389 0.0016692 0.0045036 -0.0062879 -0.0089844
-0.025227 0.015462 -0.19123 0.1911
920000000 -0.09763 0.27071 0.0053652 0.037902 -0.0093035 -0.0044398 -0.0016705 0.0019762
0.0014196 0.0017342 0.0027692 -0.0015036
0.0052963 0.037765 -0.26149 0.30948 0.02823 0.021879 0.0014622 0.0010394
0.0074662 -9.8315e-05 0.003943 -0.0028503
-0.0093127 -0.0044777 0.028327 0.021811 0.066305 0.31644 0.0018881 -0.00012185
0.0013213 -0.0004125 0.00086436 -0.0011935
-0.001823 0.0020297 0.0014389 0.0010604 0.0018831 -0.00011574 -0.11508 0.2579
-0.010398 0.030064 0.0034026 -0.0066842
0.0013572 0.0016436 0.0075091 -0.00014544 0.0013312 -0.00041417 -0.010349 0.030029
-0.14512 0.14775 -0.0024355 0.027089
0.002752 -0.001518 0.0039514 -0.0028917 0.00086444 -0.0011987 0.0033864 -0.0067646
-0.0024867 0.027006 -0.19947 0.20438
980000000 -0.051024 0.28987 0.017491 0.0297 -0.0090297 0.0045759 0.0019718 0.0033301
0.003847 -0.0015856 -0.0031597 -0.0022344
0.017486 0.029711 -0.20896 0.34314 0.033042 0.0047218 0.0018942 -0.00024277
0.0014519 -0.0062214 -0.00042885 -0.0022546
-0.0090217 0.0046032 0.03308 0.0045993 0.11257 0.30975 0.00043959 -0.0012049
0.00011513 -0.0021738 0.0014113 -0.00015355
0.002027 0.0033551 0.0018903 -0.00024662 0.00043874 -0.00121 -0.077031 0.26899
0.0077975 0.029851 -0.0089681 -0.0071014
0.0038922 -0.0015629 0.0014355 -0.0062188 0.00010638 -0.002148 0.0078353 0.029914
-0.11577 0.17781 0.0049565 0.01966
-0.0031389 -0.0022111 -0.00051166 -0.002242 0.0013831 -0.00014898 -0.0089598 -0.0070837
0.0049162 0.019627 -0.15639 0.24819
1040000000 -0.0091153 0.29813 0.033203 0.017743 -0.0013338 0.0068203 0.0026239 0.00067955
-5.8807e-05 -0.0034746 -0.00035299 -0.0014604
0.033129 0.017716 -0.17346 0.35613 0.029249 -0.015035 0.0014291 -0.0017789
-0.0026233 -0.0025334 -0.001431 -0.0028124
-0.001274 0.0068319 0.029215 -0.015153 0.15869 0.2961 -0.00053577 -0.0014715
-0.0016176 -0.00089388 -0.00062204 -0.0011477
0.0025258 0.00073024 0.0014636 -0.0017679 -0.00053998 -0.0014703 -0.049453 0.27936
0.019075 0.01773 -0.0024153 0.0015161
-9.3324e-05 -0.00344 -0.00263 -0.0025333 -0.0016226 -0.00090336 0.019142 0.017688
-0.083499 0.18472 0.013249 0.018406
-0.00037647 -0.0013907 -0.0014769 -0.0027848 -0.00060155 -0.0011591 -0.0023972 0.0015378
0.01325 0.0184 -0.13531 0.26979
1100000000 0.036545 0.30604 0.035607 -0.0045025 0.0028303 0.0038237 0.0024013 -0.0012493
-0.0021565 -0.0029311 -0.0040532 0.00021954
0.035631 -0.0045013 -0.13006 0.37346 0.014985 -0.027963 4.509e-06 -0.0017886
-0.0034938 -0.00068166 -0.0036638 -0.0003129
0.0028322 0.0038118 0.014888 -0.028047 0.20517 0.27564 -0.0018597 0.0002461
-0.0017307 0.00060933 -0.0010868 -0.00023842
0.0024275 -0.0012931 -1.0799e-05 -0.001784 -0.0018713 0.00024995 -0.0091008 0.28443
0.024246 0.004949 -0.0025382 0.00020008
-0.002099 -0.0029116 -0.0034926 -0.00065296 -0.0017343 0.00060516 0.024268 0.0049231
-0.065664 0.19959 0.018925 0.0088642
-0.0041111 0.00017476 -0.0036884 -0.00028463 -0.0010775 -0.00026449 -0.0025445 0.00021648
0.018909 0.0088442 -0.089398 0.29898
1160000000 0.087583 0.30102 0.023597 -0.020923 0.0025829 -0.0004577 -0.00015494 -0.0024033
-0.0040919 -0.00064421 -0.000913 0.0041594
0.023571 -0.020868 -0.08664 0.37767 -0.0039278 -0.02903 -0.001753 -0.0017409
-0.0025745 0.0024579 -0.0013734 0.0018455
0.0026123 -0.00046475 -0.0040759 -0.029023 0.24793 0.24463 -0.00069896 0.001764
-0.00048798 0.0019167 -0.00097012 0.00024203
-0.00022122 -0.0023791 -0.0017443 -0.0017468 -0.00070559 0.0017635 0.030057 0.28165
0.020541 -0.010438 -0.002988 0.0052945
-0.00412 -0.00060794 -0.0025575 0.0024882 -0.00049051 0.0019206 0.020565 -0.010473
-0.031574 0.20871 0.017913 0.00051862
-0.00081509 0.0041337 -0.0014106 0.0018891 -0.0009896 0.00022864 -0.0029875 0.0053293
0.017907 0.00048876 -0.042747 0.30195
1220000000 0.13217 0.29001 0.010018 -0.029993 -0.0016188 -0.00073181 1.628e-06 -0.00086653
-0.0026195 0.0025201 0.0013913 0.0020746
0.010026 -0.029994 -0.042149 0.38966 -0.017006 -0.021051 -0.0025211 0.0004845
0.00012553 0.0030043 -0.00075947 0.0018286
-0.0016189 -0.00073313 -0.017128 -0.021002 0.28701 0.20548 0.00079902 0.0016346
0.00071736 0.0012186 0.00029656 0.000698
-1.3453e-05 -0.00086823 -0.0025127 0.00051589 0.00080139 0.0016294 0.070025 0.27335
0.0099505 -0.01687 0.0023849 0.0015072
-0.0026092 0.0025286 0.00013722 0.003 0.00072314 0.0012102 0.009949 -0.01686
-0.0085766 0.21844 0.013838 -0.012738
0.0013572 0.0020643 -0.00078108 0.0018155 0.00027504 0.00072279 0.0023835 0.0014848
0.01384 -0.012734 -0.011036 0.31874
1280000000 0.18182 0.26775 -0.0082889 -0.028248 -0.0018629 0.0026478 -0.00095392 -0.0020522
-0.00065933 0.0030186 0.0025417 0.0010964
-0.0082291 -0.028225 0.0037865 0.38063 -0.023795 -0.0083666 -0.00097942 0.0014485
0.001743 0.0017137 0.0006304 0.0020448
-0.0018638 0.0026304 -0.023857 -0.0082689 0.31729 0.16152 0.0015323 -9.0832e-05
0.001117 0.00017738 0.00036711 0.00031115
-0.00096423 -0.0020215 -0.0010049 0.0014352 0.0015237 -9.2022e-05 0.10674 0.25712
0.00075881 -0.018558 8.3495e-06 0.00021759
-0.00064662 0.003037 0.0017502 0.0017116 0.0011108 0.00015644 0.00069239 -0.018573
0.028053 0.22271 0.0028503 -0.014778
0.0025606 0.0010471 0.00063819 0.0020361 0.00037088 0.00029419 1.263e-05 0.00025657
0.002881 -0.014759 0.036609 0.32088
1340000000 0.21877 0.23386 -0.01776 -0.018474 0.00096893 0.0044969 -0.0017209 -0.00084881
0.0016114 0.0025243 0.0016189 -0.0013801
-0.017741 -0.018477 0.043057 0.37241 -0.021551 0.0043836 -0.00010693 0.0019876
0.0018492 0.00072359 0.0013643 0.00086921
0.00097166 0.0044865 -0.021557 0.0044959 0.33901 0.11397 0.0011234 -0.00098696
0.00074618 -0.00036932 0.0002335 0.0002727
-0.0016998 -0.00084539 -7.62e-05 0.0019701 0.0011282 -0.00099135 0.1396 0.23727
-0.0083807 -0.01573 0.0011377 0.00044004
0.0016154 0.0025177 0.0018569 0.00069608 0.0007605 -0.00038667 -0.0084163 -0.015739
0.057908 0.21852 -0.0035388 -0.013267
0.0016035 -0.0013919 0.0013708 0.0008588 0.00024535 0.00027381 0.001135 0.00041482
-0.0035359 -0.013234 0.074751 0.31599
1400000000 0.25168 0.19552 -0.023251 -0.007068 0.0052591 0.0030591 -0.002134 0.00069248
0.0024923 0.00082848 0.00021587 -0.0014352
-0.023209 -0.0070799 0.080342 0.35922 -0.014764 0.012439 0.0013092 0.0012561
0.001178 -0.00083351 0.0012388 0.00014608
0.0052725 0.0030314 -0.014716 0.012534 0.35217 0.060618 4.5954e-05 -0.0016098
5.0412e-05 -0.00040947 0.00051135 0.00025307
-0.00214 0.00070182 0.001316 0.0012612 3.9727e-05 -0.0016092 0.16918 0.20846
-0.013983 -0.0091617 -0.00071524 -0.00048423
0.0024899 0.00082138 0.001177 -0.00084092 3.9518e-05 -0.0004145 -0.014018 -0.0091347
0.091245 0.21452 -0.010006 -0.008566
0.00022472 -0.0014371 0.0012449 0.00015525 0.00052197 0.00026223 -0.00071468 -0.00046466
-0.010002 -0.0085627 0.11969 0.3052
1460000000 0.27397 0.15144 -0.020077 0.0049762 0.0056104 -0.0019193 -0.0016072 0.0017632
0.0020732 -0.00050873 -0.00038671 -0.00097029
-0.020076 0.0049557 0.11435 0.33746 -0.0061364 0.015381 0.0017086 0.00016734
0.00079843 -0.0012695 0.0011754 -0.00055715
0.0055997 -0.0019259 -0.0060729 0.015425 0.3582 0.0064747 -0.0012602 -0.0012174
0.00025335 -0.00023098 0.00060062 -0.00035557
-0.0015889 0.00176 0.0017219 0.00014602 -0.0012609 -0.0012124 0.19584 0.17951
-0.014891 -0.0027901 -0.00090734 0.0018354
0.0020698 -0.00054288 0.00079522 -0.0012867 0.00024244 -0.00024541 -0.01491 -0.0027538
0.12074 0.20017 -0.011604 -0.0027542
-0.00040383 -0.00097261 0.001168 -0.00055972 0.00059818 -0.0003642 -0.00092539 0.0018427
-0.011607 -0.0027477 0.15288 0.28421
1520000000 0.28601 0.10967 -0.01434 0.010352 0.0032257 -0.0042352 0.00010308 0.0025903
0.0019321 -0.001729 -0.0010808 -8.5404e-05
-0.014339 0.010333 0.14786 0.32279 0.0015503 0.013111 0.001612 -0.00080133
6.3795e-07 -0.00098453 0.00035703 -0.0010077
0.0032101 -0.0042431 0.0016193 0.01311 0.35148 -0.049658 -0.0011023 -0.00035335
0.00062763 -0.00086527 5.541e-05 -0.00013408
0.00013089 0.0026066 0.0016106 -0.00080436 -0.0011129 -0.00035467 0.21935 0.14174
-0.014114 0.0027428 0.0013501 0.0018873
0.0019347 -0.0017305 -1.2824e-05 -0.00099564 0.00061915 -0.00087718 -0.014121 0.002778
0.14891 0.18643 -0.011429 0.0016086
-0.0010831 -7.3519e-05 0.00033983 -0.0010079 5.2268e-05 -0.00013447 0.0013562 0.0018869
-0.011414 0.0015991 0.18623 0.26403
1580000000 0.29494 0.063465 -0.0077319 0.013257 -0.0008207 -0.0048567 0.0014754 0.0019069
-0.00031654 -0.0020361 -0.0003051 0.0003581
-0.0077406 0.013242 0.1751 0.29797 0.0052244 0.0083115 0.00043958 -0.0015733
-0.00048112 -0.001031 -0.0002439 -0.00090328
-0.00084801 -0.0048584 0.0052793 0.0082841 0.3314 -0.10738 -0.0015033 0.00062669
-0.0002204 -0.0010796 0.00012477 -0.00053761
0.0014674 0.0019143 0.00043293 -0.0015985 -0.0015154 0.00062505 0.2336 0.10228
-0.010709 0.0072943 0.0020888 0.00067091
-0.00032417 -0.002033 -0.00049483 -0.0010171 -0.00023552 -0.0010899 -0.010694 0.0073191
0.17336 0.16851 -0.0089117 0.007104
-0.00030447 0.00039313 -0.00026217 -0.00090162 0.00012735 -0.00054597 0.0020903 0.00066349
-0.0089235 0.0071198 0.21863 0.23714
1640000000 0.29666 0.022425 -0.0012127 0.012046 -0.0028053 -0.0026687 0.0026803 0.0010006
-0.00075696 -0.0014286 -0.00033007 0.00062137
-0.0012208 0.012044 0.20443 0.27309 0.0059408 0.0035585 -0.00071106 -0.00169
-0.00099016 -0.00039646 -0.00052426 -0.00066375
-0.0028135 -0.0026378 0.0059652 0.0035317 0.303 -0.15612 -0.00067947 0.001475
-0.0012269 -0.00083525 -0.00020811 -0.00034053
0.0026891 0.00095799 -0.00072002 -0.0016932 -0.00068884 0.001478 0.24597 0.053427
-0.0067614 0.0082011 0.002482 -0.00074785
-0.00077924 -0.0014468 -0.00099059 -0.00038536 -0.0012259 -0.00082758 -0.0067433 0.0082651
0.19633 0.14401 -0.0045009 0.0092279
-0.00030269 0.00062477 -0.00053782 -0.00066402 -0.00019722 -0.00034671 0.002463 -0.00074623
-0.0045015 0.0092149 0.24396 0.20596
1700000000 0.28963 -0.022698 0.0021024 0.0092035 -0.0034985 -1.7302e-05 0.0029635 -0.0012739
-0.001877 -0.00061656 0.00062003 0.00047632
0.0020803 0.0092032 0.22266 0.24149 0.0040307 0.00048932 -0.0014771 -0.00060014
-0.00072872 -2.9405e-05 -0.00098045 -0.00046035
-0.0035326 -1.2207e-05 0.0040396 0.00047293 0.26023 -0.19605 0.00042336 0.0014749
-0.001838 -0.00020017 -0.00053091 -0.0008552
0.0029438 -0.0012788 -0.0014815 -0.00058773 0.00042802 0.0014774 0.24318 0.003511
-0.0041232 0.0087001 0.0014222 -0.0023117
-0.0019029 -0.00059354 -0.00073491 -1.8156e-05 -0.0018293 -0.00020431 -0.0040995 0.0087073
0.21385 0.1238 0.00022981 0.0093646
0.00061419 0.00049768 -0.00097112 -0.00044774 -0.0005151 -0.00086752 0.0014287 -0.0023088
0.00022381 0.0093573 0.2606 0.17157
1760000000 0.27717 -0.071136 0.004265 0.005992 -0.0023462 0.00086519 0.0012032 -0.0033608
-0.0013297 0.0007322 0.00040898 -0.00056307
0.0042538 0.0059822 0.24842 0.2016 0.0017324 -0.0013903 -0.0011947 0.00018797
-0.0010788 0.00086868 -0.00056902 0.00046862
-0.0023401 0.00088194 0.0017305 -0.0014028 0.21182 -0.23001 0.0012316 0.0010002
-0.0010823 0.0014773 -0.0011872 -0.00039412
0.001237 -0.0034215 -0.0011828 0.00020144 0.0012225 0.0010049 0.23381 -0.047976
-0.0012073 0.0079094 -0.0002375 -0.0023997
-0.0013247 0.0007488 -0.0010681 0.00087891 -0.0010676 0.0014921 -0.0012004 0.0079412
0.22857 0.088606 0.0039781 0.006855
0.00038442 -0.00060075 -0.00057251 0.00047314 -0.0011857 -0.00036986 -0.00025053 -0.0024107
0.003983 0.0068635 0.27321 0.1335
1820000000 0.25262 -0.10835 0.0043967 0.0025096 -0.00020662 0.0025362 -0.0010498 -0.0030917
-0.001037 0.00078293 -6.5806e-05 -0.00014029
0.004393 0.00252 0.2584 0.17159 -0.00043359 -0.00017287 -0.0012883 0.00092833
-9.6873e-05 0.0012669 -0.00053211 0.00052105
-0.00019179 0.0025522 -0.00043429 -0.0001702 0.16076 -0.2455 0.0014968 0.0004239
-0.00027008 0.0021851 -0.0014604 0.00037566
-0.0010961 -0.0030576 -0.0012946 0.00094576 0.0015058 0.0004202 0.20418 -0.095075
7.4444e-05 0.0064944 -0.0017554 -0.0015297
-0.0010166 0.00079138 -9.0217e-05 0.0012628 -0.00027628 0.0021929 9.7618e-05 0.0064813
0.24551 0.059512 0.0049585 0.0032373
-6.2174e-05 -0.00015369 -0.00052518 0.00052744 -0.0014851 0.00038226 -0.0017386 -0.0014639
0.0049657 0.0032404 0.27572 0.097765
1880000000 0.2173 -0.14875 0.0022666 0.00026697 -0.00037115 0.0022778 -0.0029997 -0.0021485
-0.00024768 0.0016005 0.00021777 -0.00059873
0.0022347 0.00026324 0.26278 0.12494 -0.0024541 0.0016616 -0.00015939 0.0016399
0.00061595 0.0012828 7.0622e-05 0.00091953
-0.00035229 0.0022691 -0.0024502 0.0016726 0.10838 -0.25511 0.0017755 -0.0010091
0.0014325 0.0019464 -0.00085714 0.0013472
-0.0030069 -0.0021418 -0.00014229 0.0016347 0.001777 -0.001006 0.16349 -0.13528
0.00074826 0.0045396 -0.002316 0.00041755
-0.0002129 0.0015977 0.00062728 0.0012758 0.0014297 0.001951 0.00072947 0.0045285
0.24827 0.026586 0.0048381 0.0012389
0.0002598 -0.000671 0.00010629 0.00092782 -0.00085299 0.0013713 -0.0023182 0.00037722
0.0048286 0.0012544 0.27528 0.06311
1940000000 0.17774 -0.17399 1.0935e-06 -0.0013453 0.001484 0.0019587 -0.00387 0.00057199
0.0011817 0.00098559 -0.00060305 -0.00060391
-6.2716e-06 -0.001351 0.26314 0.093255 -0.0012137 0.0039625 0.00099526 0.0012705
0.0018667 0.00048598 0.00087672 0.00029811
0.0015308 0.0019798 -0.0011817 0.003975 0.062754 -0.24835 0.00038345 -0.0020942
0.0024457 0.00039829 0.00034885 0.0016163
-0.0038812 0.00061574 0.0009965 0.0012496 0.00040203 -0.0020968 0.11114 -0.16538
-0.00037134 0.0036357 -0.0014918 0.0014809
0.001203 0.00096826 0.0018811 0.00045585 0.0024441 0.00038567 -0.00034576 0.0036166
0.24978 -0.012308 0.0037158 -0.0022185
-0.00062425 -0.00060101 0.00089514 0.00028483 0.00033839 0.0015711 -0.0014073 0.0015068
0.0037261 -0.0022408 0.26399 0.027463
2000000000 0.13169 -0.18873 -0.0039033 0.00071353 0.0024821 0.0015445 -0.0022478 0.0036812
0.0010043 0.00036207 -0.00067066 0.00049841
-0.0038896 0.00070204 0.24888 0.05777 -0.00090831 0.0059115 0.0016802 0.00041395
0.0013305 -0.0012833 0.0003916 0.00012596
0.0024911 0.0015059 -0.00088211 0.0059179 0.018952 -0.23367 -0.0013348 -0.001321
0.0020062 -0.0011771 0.0016074 0.0013004
-0.0021846 0.0036768 0.0016528 0.00038002 -0.0013526 -0.0013136 0.057961 -0.17517
-0.0017991 0.0038703 -8.5024e-05 0.0023932
0.0010119 0.0003912 0.0013215 -0.0012931 0.0020046 -0.0011866 -0.0017927 0.0039033
0.24351 -0.045893 7.8216e-05 -0.0030898
