!Keysight Technologies,M9804A,MY58100912,A.14.10.03
!Date: Thursday, April 27, 2023 10:28:33
!Correction: S11(C  6-Port  ) 
!S12(C  6-Port  ) 
!S13(C  6-Port  ) 
!S14(C  6-Port  ) 
!S15(C  6-Port  ) 
!S16(C  6-Port  ) 
!S21(C  6-Port  ) 
!S22(C  6-Port  ) 
!S23(C  6-Port  ) 
!S24(C  6-Port  ) 
!S25(C  6-Port  ) 
!S26(C  6-Port  ) 
!S31(C  6-Port  ) 
!S32(C  6-Port  ) 
!S33(C  6-Port  ) 
!S34(C  6-Port  ) 
!S35(C  6-Port  ) 
!S36(C  6-Port  ) 
!S41(C  6-Port  ) 
!S42(C  6-Port  ) 
!S43(C  6-Port  ) 
!S44(C  6-Port  ) 
!S45(C  6-Port  ) 
!S46(C  6-Port  ) 
!S51(C  6-Port  ) 
!S52(C  6-Port  ) 
!S53(C  6-Port  ) 
!S54(C  6-Port  ) 
!S55(C  6-Port  ) 
!S56(C  6-Port  ) 
!S61(C  6-Port  ) 
!S62(C  6-Port  ) 
!S63(C  6-Port  ) 
!S64(C  6-Port  ) 
!S65(C  6-Port  ) 
!S66(C  6-Port  ) 
!S6P File: Measurement: :
# Hz S  RI   R 50
500000000 -0.33753 -0.036697 -0.0099403 -0.001489 -0.0080254 0.013714 -0.0039961 0.011178
0.014091 0.0040638 -0.0040492 0.0075032
-0.0099787 -0.0014272 -0.41774 -0.050759 0.0079221 -0.010397 0.0014996 0.011449
0.0081765 0.002761 0.0020071 0.012817
-0.0080281 0.013721 0.0078834 -0.010428 -0.26646 0.21039 0.0074234 0.0037017
-0.0013174 0.0084564 0.0016707 0.012406
-0.003963 0.011211 0.0015185 0.011457 0.0074226 0.0036994 -0.33125 0.043928
-0.018931 -0.0063045 0.015273 0.024602
0.014101 0.0040871 0.0081869 0.0027661 -0.0013147 0.0084626 -0.018901 -0.0062807
-0.22842 -0.19023 -0.026174 0.0044776
-0.0039803 0.0075605 0.0020212 0.012833 0.0017098 0.01242 0.015294 0.024605
-0.026168 0.0044669 -0.27169 -0.12616
560000000 -0.31828 0.12319 -0.024797 -0.062946 -0.00020833 0.012444 0.0056537 0.010402
0.010427 0.0056005 0.0095523 0.0081194
-0.02476 -0.062924 -0.37772 0.10844 -0.04135 -0.036976 0.013788 0.0043241
-0.012898 -0.0048521 0.0033844 0.001659
-0.00012558 0.012401 -0.041502 -0.036923 -0.18354 0.25898 -0.00041042 -0.0045072
0.019503 0.0054822 0.0066286 -0.0060234
0.0056986 0.010382 0.013791 0.0042627 -0.00041053 -0.0045044 -0.30607 0.13483
0.0050502 -0.023555 0.0046209 -0.021894
0.010411 0.0056085 -0.012946 -0.0048531 0.019561 0.0054626 0.0049733 -0.02355
-0.28877 -0.016804 0.0095408 -0.049456
0.0094964 0.0080698 0.0034713 0.0016605 0.0065497 -0.005991 0.0046301 -0.021876
0.009523 -0.049471 -0.33094 0.022933
620000000 -0.27495 0.10672 -0.023369 0.0085404 0.0035493 0.0091404 0.0087335 -0.0050798
0.01155 -0.0011763 0.0017534 -0.0021835
-0.023344 0.008519 -0.40302 0.060237 -0.018772 0.00049808 -0.0016712 -0.001925
0.011488 -0.0064985 0.0014064 -0.0025814
0.0035976 0.0091023 -0.018795 0.00053294 -0.15329 0.26767 -0.00085428 -0.0052091
-0.003508 -0.0032822 0.0088791 -0.0027461
0.0088062 -0.0050708 -0.0016617 -0.001944 -0.00086257 -0.0052051 -0.26497 0.14432
-0.038551 -0.01972 0.011027 0.025182
0.011574 -0.0011069 0.011488 -0.006557 -0.0034869 -0.0033264 -0.038579 -0.019726
-0.20931 -0.050195 -0.039555 0.013718
0.0017511 -0.0022359 0.0013945 -0.002604 0.0088559 -0.0027368 0.010997 0.025214
-0.039557 0.013736 -0.25278 -0.012024
680000000 -0.23423 0.19385 -0.026981 -0.013449 0.0053164 0.0053514 0.0014781 -0.0065847
-0.0029866 -0.011401 0.0051574 -0.0060175
-0.026973 -0.013443 -0.38749 0.15835 -0.032143 -0.00097097 -0.0014061 -0.00011041
-0.0019205 -0.0090516 -0.0012701 -0.0016443
0.0052994 0.0053474 -0.032169 -0.00088554 -0.10136 0.28731 -0.00095557 -0.00017585
-0.001791 0.00038843 -0.0026999 -0.0091293
0.0014196 -0.0066039 -0.0014223 -0.0001188 -0.00098126 -0.00019225 -0.22026 0.19563
-0.02309 -0.0072235 -0.009055 -0.0104
-0.003002 -0.011433 -0.001974 -0.0090502 -0.001798 0.00039443 -0.023087 -0.0071753
-0.25825 0.04427 -0.0063013 -0.0082248
0.0050987 -0.0060378 -0.0012602 -0.0016441 -0.0027019 -0.0091389 -0.0090498 -0.010412
-0.0063055 -0.0081951 -0.25898 0.094319
740000000 -0.18994 0.18838 -0.037981 0.026839 0.012986 -0.0052483 -0.00053865 -0.004455
-0.0045867 -0.0023983 -0.0067593 0.0022618
-0.037961 0.026793 -0.33446 0.17689 -0.03503 0.034991 -0.00056167 -0.00654
-0.012096 0.0075417 -0.0015827 -0.0059426
0.01296 -0.0052934 -0.03496 0.035123 -0.067959 0.28499 -0.002198 0.0031707
-0.0025917 -0.0048814 -0.0020118 0.00064442
-0.00049225 -0.0044715 -0.00057346 -0.0065202 -0.0022086 0.003161 -0.20317 0.20287
-0.043712 -0.0063481 0.023155 0.014642
-0.0045723 -0.0023586 -0.012081 0.0076148 -0.0026156 -0.0048739 -0.043746 -0.0062956
-0.16026 0.072203 -0.04295 0.0010521
-0.0067855 0.002275 -0.0015976 -0.0059092 -0.0020374 0.000664 0.023178 0.014675
-0.042901 0.00099751 -0.24799 0.10018
800000000 -0.15707 0.22828 -0.022186 0.01642 0.0051887 -0.01064 -0.0048327 -0.001682
-0.0043241 0.0029181 0.0038819 0.00079409
-0.022175 0.016411 -0.33753 0.24627 -0.0078241 0.033675 -0.0025191 0.0021863
-0.0010473 0.0033444 0.0010004 0.005312
0.0051759 -0.010658 -0.0077317 0.033734 -0.027333 0.30772 0.0010327 0.0015935
0.00036979 0.0036473 -0.0017553 0.00085923
-0.0048544 -0.0016668 -0.0025143 0.0021981 0.0010355 0.001602 -0.17473 0.23051
-0.027996 0.013764 0.013195 -0.010035
-0.0043477 0.0029563 -0.0010494 0.0033516 0.00036989 0.0036483 -0.02799 0.013815
-0.20458 0.096028 -0.016329 0.018804
0.0038876 0.00076298 0.001016 0.0053161 -0.0017684 0.00084829 0.013185 -0.010048
-0.016322 0.018754 -0.24194 0.14941
860000000 -0.12227 0.24818 -0.016935 0.03052 -0.0033068 -0.0098129 -0.0025366 0.00081592
0.0041343 0.004875 -0.0032092 -0.0023191
-0.016928 0.030488 -0.29015 0.28841 0.0079679 0.033999 0.00018014 0.0021059
0.0046438 0.00017917 0.0035354 0.001069
-0.0033364 -0.0098105 0.0080675 0.034013 0.020264 0.3156 -0.00052017 -0.00014394
0.0028483 -0.0014172 0.0016137 0.0043324
-0.0025368 0.0008137 0.00017143 0.0020881 -0.00052453 -0.00014746 -0.13854 0.24076
-0.017436 0.018732 -0.0062243 -0.0093175
0.0041986 0.0048647 0.0046397 0.00016843 0.0028508 -0.0014191 -0.017412 0.018785
-0.15342 0.14572 -0.024301 0.016042
-0.0032371 -0.002278 0.0035364 0.0010434 0.0016138 0.004331 -0.0062605 -0.0093127
-0.024324 0.016008 -0.1902 0.19311
920000000 -0.097426 0.27089 0.0053919 0.037475 -0.0092986 -0.0045424 -0.0017627 0.001943
0.0017777 0.0017752 0.0030618 -0.0015054
0.0053662 0.037432 -0.26147 0.30937 0.028145 0.021727 0.0014539 0.001236
0.0072889 -5.5102e-05 0.0041605 -0.002907
-0.0093129 -0.0045287 0.028247 0.021663 0.066455 0.31642 0.001894 -0.00012324
0.0013982 -0.00037445 0.0008524 -0.0012864
-0.0017485 0.0019552 0.0014388 0.0012145 0.0018934 -0.00012422 -0.11436 0.25808
-0.010206 0.030214 0.0035944 -0.0066154
0.0017844 0.0018041 0.0072821 -9.4869e-05 0.0014032 -0.00038464 -0.010162 0.030257
-0.14141 0.14995 -0.0023676 0.026956
0.003049 -0.001484 0.0041534 -0.0029449 0.00086781 -0.0012908 0.003601 -0.0066227
-0.002365 0.026911 -0.19678 0.20788
980000000 -0.050335 0.2897 0.017459 0.029551 -0.0090893 0.0044201 0.0019698 0.0032877
0.0037656 -0.0017343 -0.0034019 -0.0021175
0.017443 0.02952 -0.20881 0.34301 0.032902 0.0046489 0.001899 -0.00016215
0.0015348 -0.0061316 -0.00063393 -0.002196
-0.0090652 0.0044468 0.032936 0.0045439 0.11262 0.30974 0.0004889 -0.0013086
9.9303e-05 -0.0022304 0.0011983 -0.00022638
0.001987 0.0033077 0.0019077 -0.00019484 0.00048392 -0.0013149 -0.076555 0.26879
0.0078505 0.029573 -0.0089219 -0.0069967
0.0037517 -0.0017324 0.0014983 -0.0061593 0.0001015 -0.0022206 0.0079067 0.029585
-0.11208 0.17975 0.0052525 0.019604
-0.0034213 -0.0020963 -0.00062052 -0.0021864 0.0012041 -0.00021376 -0.0089275 -0.0069904
0.005233 0.019599 -0.15389 0.25023
1040000000 -0.0084202 0.29803 0.033046 0.017615 -0.0013994 0.006743 0.0025064 0.00096001
-8.1847e-05 -0.0034453 -0.00032165 -0.0013337
0.033016 0.017596 -0.17347 0.35603 0.029214 -0.014988 0.0014169 -0.0016435
-0.0025436 -0.0025532 -0.0014669 -0.0027598
-0.0013642 0.0067439 0.029174 -0.015089 0.15875 0.29622 -0.00059695 -0.0014131
-0.0017205 -0.00082754 -0.00056951 -0.0010673
0.0025046 0.0009573 0.0013922 -0.0016603 -0.00059501 -0.0014175 -0.049141 0.27945
0.018986 0.017614 -0.0026104 0.001496
-0.00011115 -0.0034366 -0.0025632 -0.002548 -0.0017282 -0.0008195 0.019032 0.017582
-0.080013 0.1861 0.013389 0.018177
-0.00034187 -0.0013014 -0.0014681 -0.0027772 -0.0005756 -0.0010572 -0.0026136 0.0014907
0.013368 0.018165 -0.1325 0.27203
1100000000 0.036628 0.30591 0.035475 -0.0045986 0.0026998 0.0038803 0.0024812 -0.0012545
-0.0020408 -0.0030303 -0.0039421 0.00017911
0.035444 -0.0045914 -0.13009 0.37327 0.01499 -0.027876 7.5589e-05 -0.001833
-0.0034769 -0.00067413 -0.0035164 -0.00040187
0.0027185 0.0038775 0.014888 -0.027964 0.20533 0.27578 -0.001867 0.00023556
-0.001775 0.00061671 -0.0011157 -0.00020749
0.0024934 -0.0012627 5.6009e-05 -0.0018437 -0.0018681 0.00023125 -0.0088706 0.28437
0.02425 0.0048158 -0.0025813 0.00023529
-0.0020514 -0.0030283 -0.0034892 -0.00066219 -0.0017784 0.0006246 0.024263 0.0047711
-0.062131 0.20027 0.018916 0.0084438
-0.0039486 0.00017995 -0.0035173 -0.00039051 -0.001105 -0.00021541 -0.0025801 0.00022879
0.018887 0.0084445 -0.086571 0.3002
1160000000 0.087711 0.30084 0.023377 -0.020955 0.0024765 -0.00037902 1.9264e-05 -0.0023766
-0.0041075 -0.00071732 -0.00075328 0.0040464
0.023388 -0.020941 -0.086638 0.37769 -0.0039787 -0.029053 -0.0016561 -0.0017673
-0.0026147 0.0025473 -0.0013435 0.0018254
0.0024857 -0.00039505 -0.0041139 -0.029053 0.2482 0.24476 -0.00078406 0.0017935
-0.00046885 0.0020469 -0.00076549 0.00016337
-3.7884e-07 -0.0023459 -0.0016718 -0.0017634 -0.00079015 0.0017906 0.030306 0.28184
0.020509 -0.01059 -0.0031495 0.0052398
-0.0041251 -0.00068544 -0.0026115 0.002566 -0.00046438 0.0020576 0.020491 -0.010631
-0.028433 0.20926 0.017867 0.0003555
-0.00071547 0.0040665 -0.0013198 0.0018095 -0.00077265 0.00015855 -0.0031513 0.0052435
0.017843 0.00034759 -0.040272 0.30375
1220000000 0.13215 0.28987 0.0098177 -0.029918 -0.0016318 -0.00065066 -9.1183e-05 -0.00098211
-0.0026889 0.0024879 0.0013351 0.0022097
0.0098349 -0.029889 -0.042282 0.38982 -0.017049 -0.021019 -0.0026053 0.0005096
0.00017399 0.003113 -0.00071769 0.0019356
-0.0016244 -0.00064452 -0.017161 -0.020975 0.28732 0.20554 0.00081843 0.0016703
0.00070386 0.0012362 0.00036716 0.0006502
-9.0832e-05 -0.00098633 -0.0026078 0.00051825 0.00081645 0.0016613 0.070178 0.27353
0.0099688 -0.016925 0.0021576 0.0015989
-0.0026851 0.0025055 0.00018885 0.0031112 0.00070476 0.0012418 0.0099451 -0.016947
-0.0054623 0.21819 0.01373 -0.01285
0.0013255 0.0022007 -0.00069351 0.001946 0.00037095 0.00065852 0.0021576 0.0015961
0.013718 -0.01285 -0.0081127 0.31933
1280000000 0.18192 0.26776 -0.0084141 -0.028147 -0.0018056 0.0028056 -0.00085662 -0.0020353
-0.00072168 0.0030208 0.0026554 0.0010423
-0.0083831 -0.028114 0.0037274 0.38089 -0.023849 -0.0083592 -0.00094998 0.0014461
0.0017656 0.0017832 0.00055558 0.0020209
-0.0018047 0.0028159 -0.023908 -0.0082446 0.31761 0.16131 0.0015443 -7.8173e-05
0.0011443 0.00015361 0.00037091 0.00029574
-0.00086863 -0.0020211 -0.00094706 0.0014412 0.0015441 -8.2618e-05 0.10707 0.2574
0.00052828 -0.018761 5.1228e-05 0.00016285
-0.00070595 0.0030282 0.0017794 0.0017733 0.0011595 0.0001586 0.00048737 -0.018764
0.030877 0.22214 0.00281 -0.014897
0.002651 0.0010337 0.00057705 0.002022 0.00037492 0.00029705 4.7556e-05 0.00016158
0.0028094 -0.014889 0.038935 0.32094
1340000000 0.21884 0.23387 -0.017861 -0.018314 0.0011328 0.0045849 -0.0018723 -0.00087138
0.0015186 0.0026226 0.0016701 -0.001476
-0.017832 -0.018321 0.043122 0.37273 -0.021568 0.0044786 -4.741e-05 0.0020831
0.001964 0.0006522 0.0013933 0.00075914
0.0011529 0.0045691 -0.021572 0.0045924 0.33915 0.11369 0.0011784 -0.0010114
0.00071741 -0.00051387 0.00017288 0.00017055
-0.0018689 -0.00087243 -3.3713e-05 0.0020786 0.0011627 -0.0010082 0.13989 0.23723
-0.0086095 -0.015909 0.00096253 0.00067553
0.0015464 0.0026153 0.0019781 0.00064125 0.00071402 -0.00050995 -0.0086435 -0.015907
0.060878 0.21774 -0.0039424 -0.013352
0.0016514 -0.0014892 0.001408 0.00075917 0.000169 0.00016009 0.00096316 0.00067604
-0.0039322 -0.013353 0.077606 0.31605
1400000000 0.25188 0.19559 -0.023258 -0.0068091 0.005398 0.0030553 -0.0021197 0.00073371
0.0024759 0.00087605 0.00023647 -0.0014546
-0.023225 -0.0068135 0.080549 0.35957 -0.014731 0.012563 0.0013292 0.0012614
0.0011545 -0.00090834 0.0011757 0.00017532
0.0054118 0.0030298 -0.014692 0.01265 0.35224 0.060442 -5.4334e-06 -0.0017096
6.8804e-05 -0.00045517 0.00035939 0.00027494
-0.0021211 0.00074986 0.0013323 0.0012427 -1.7554e-05 -0.0017148 0.16981 0.20854
-0.014263 -0.0091849 -0.00059671 -0.00037151
0.0024798 0.00085374 0.001153 -0.00091226 5.9777e-05 -0.00045591 -0.014304 -0.0091481
0.093967 0.21364 -0.01012 -0.0087551
0.00023513 -0.0014533 0.0011936 0.00017291 0.00036001 0.00027667 -0.00059353 -0.0003756
-0.01012 -0.0087692 0.12214 0.30482
1460000000 0.27431 0.15151 -0.019965 0.0052025 0.0057923 -0.0020306 -0.0016376 0.0017829
0.0020803 -0.00058198 -0.00034922 -0.00095491
-0.01996 0.0051851 0.11474 0.33768 -0.0060232 0.015419 0.0017566 0.0001264
0.00075976 -0.0012713 0.0011337 -0.00059997
0.0058011 -0.0020537 -0.0059638 0.015471 0.35817 0.0063537 -0.0013521 -0.0012496
0.00021123 -0.00021199 0.00061828 -0.00038366
-0.0016216 0.0017734 0.0017673 0.0001213 -0.0013318 -0.0012486 0.19637 0.17924
-0.01516 -0.0025439 -0.00078091 0.0019455
0.0020792 -0.00060398 0.00075543 -0.0012871 0.00020571 -0.00020904 -0.015167 -0.0024952
0.12356 0.19911 -0.011827 -0.0027317
-0.00037007 -0.0009505 0.0011294 -0.000617 0.00061987 -0.00038441 -0.00077229 0.0019425
-0.011822 -0.00273 0.15553 0.28364
1520000000 0.28638 0.10953 -0.014161 0.010456 0.0032983 -0.0043279 0.00019106 0.0026617
0.0019976 -0.0016544 -0.0011293 -9.435e-05
-0.014156 0.010436 0.14827 0.32292 0.0017135 0.013097 0.0016236 -0.00083183
5.695e-06 -0.00098118 0.0003192 -0.00098975
0.0032788 -0.0043442 0.0017778 0.013103 0.3515 -0.049735 -0.0011743 -0.00033963
0.00062857 -0.00085563 2.2367e-05 -7.6313e-05
0.00019612 0.0026691 0.001619 -0.00084216 -0.0011741 -0.00034183 0.21971 0.14127
-0.014257 0.0029564 0.0015057 0.0019071
0.001981 -0.0016747 -1.4033e-07 -0.00098209 0.00062796 -0.00086203 -0.01426 0.0029964
0.1515 0.18494 -0.011522 0.0017164
-0.0011253 -8.7606e-05 0.00031518 -0.00099518 2.0533e-05 -7.5917e-05 0.0015116 0.0019069
-0.011524 0.0017141 0.18844 0.26321
1580000000 0.29533 0.06325 -0.0074906 0.013222 -0.00086515 -0.004917 0.0015293 0.0018665
-0.00032097 -0.0021144 -0.00035012 0.00034606
-0.0074941 0.013204 0.17554 0.298 0.0053168 0.0082817 0.00043965 -0.0016314
-0.00047149 -0.00098148 -0.00023811 -0.00091601
-0.00089247 -0.0049107 0.0053674 0.0082582 0.33155 -0.10742 -0.0015767 0.00065517
-0.0001993 -0.0011211 0.00024391 -0.00050093
0.0015309 0.0018579 0.00043241 -0.001623 -0.0015785 0.00065174 0.2337 0.10167
-0.010764 0.0075586 0.0021416 0.00062188
-0.00032798 -0.0021115 -0.00048129 -0.00097656 -0.00020699 -0.0011229 -0.010738 0.0075869
0.17595 0.16663 -0.0090531 0.0074484
-0.00034764 0.00034888 -0.00024105 -0.00091896 0.00024159 -0.00050525 0.0021446 0.00061569
-0.0090544 0.0074468 0.2206 0.23591
1640000000 0.29691 0.021967 -0.00099536 0.011931 -0.0028051 -0.0026985 0.0027457 0.00095076
-0.0007997 -0.0014739 -0.00035774 0.00055355
-0.001002 0.011917 0.20485 0.27301 0.0059543 0.0034885 -0.00071322 -0.0016557
-0.00095503 -0.00038919 -0.00048429 -0.00072719
-0.0028201 -0.0026901 0.0059834 0.0034576 0.30317 -0.15606 -0.00065401 0.0014898
-0.0012362 -0.00092414 -0.00012704 -0.00031529
0.0027409 0.00094614 -0.00071715 -0.0016493 -0.00066472 0.0014901 0.24596 0.052794
-0.0065464 0.0085131 0.002449 -0.00078568
-0.00081579 -0.0014705 -0.00095836 -0.00037414 -0.0012521 -0.00091622 -0.0065314 0.0085332
0.1987 0.14187 -0.0045236 0.0093837
-0.00034729 0.000564 -0.00049404 -0.00072537 -0.00013041 -0.00030835 0.0024411 -0.00079377
-0.0045304 0.0093864 0.24593 0.20461
1700000000 0.28969 -0.023146 0.0022092 0.0089821 -0.003664 -6.1157e-06 0.0029723 -0.0013423
-0.0020087 -0.00059385 0.00058999 0.00045592
0.0022072 0.0089759 0.22307 0.24132 0.0040533 0.00043886 -0.0014359 -0.0005981
-0.0006987 -4.039e-05 -0.001 -0.00044631
-0.0036685 -1.9135e-06 0.0040598 0.00041999 0.26022 -0.19603 0.0004121 0.0015289
-0.0018583 -0.00025378 -0.00043711 -0.00084851
0.0029608 -0.0013519 -0.0014343 -0.00059124 0.00040334 0.0015261 0.24274 0.0030317
-0.0039911 0.008803 0.001519 -0.0022391
-0.0020106 -0.000587 -0.00069695 -3.7129e-05 -0.0018521 -0.00024262 -0.0039571 0.0088157
0.21601 0.12128 0.00015634 0.0096832
0.00059101 0.00045451 -0.00099929 -0.00043975 -0.00042892 -0.00084712 0.0015088 -0.0022508
0.00015373 0.0096771 0.26218 0.17002
1760000000 0.27714 -0.071702 0.0043028 0.0057288 -0.0024337 0.0010202 0.0012002 -0.0034468
-0.0013361 0.00071769 0.00041625 -0.00060227
0.0042884 0.0057348 0.24879 0.20132 0.0016922 -0.0014798 -0.0011484 0.00020884
-0.0010792 0.0008227 -0.00061068 0.00045461
-0.0024331 0.0010342 0.001691 -0.0014892 0.21198 -0.23027 0.0013151 0.0010089
-0.0010286 0.0015416 -0.0013547 -0.00044161
0.0011761 -0.0034442 -0.0011607 0.00021559 0.0013131 0.0010144 0.23355 -0.048411
-0.001009 0.0079047 -0.00038184 -0.0025213
-0.001336 0.00072186 -0.0010668 0.00082481 -0.0010216 0.0015454 -0.00098205 0.0079104
0.23044 0.085677 0.0040607 0.0070206
0.00041898 -0.00059371 -0.0006054 0.00046444 -0.0013506 -0.00043434 -0.00039168 -0.0025089
0.0040689 0.0070191 0.27448 0.13209
1820000000 0.25239 -0.10857 0.0042845 0.002305 -0.00016331 0.0026654 -0.0011417 -0.0029968
-0.0010602 0.00089398 -2.6088e-05 -0.00012522
0.0042791 0.0023143 0.25867 0.17131 -0.00042692 -0.00013969 -0.0013135 0.0009238
-0.00015595 0.0012654 -0.00059395 0.00057911
-0.00015793 0.0026663 -0.00042195 -0.00013582 0.1611 -0.24532 0.0013779 0.00039326
-0.00027962 0.0022605 -0.0014025 0.00049482
-0.0011632 -0.002999 -0.001303 0.00093306 0.001373 0.00040237 0.20361 -0.095028
0.0003856 0.0064456 -0.0016239 -0.0014881
-0.0010555 0.00091378 -0.00014929 0.0012742 -0.00026658 0.0022622 0.00039337 0.0064588
0.24721 0.056333 0.0050787 0.0033593
-2.1741e-05 -0.00011885 -0.00058954 0.00058069 -0.0014064 0.00048208 -0.0016242 -0.001488
0.0050706 0.0033541 0.27658 0.095894
1880000000 0.21718 -0.14876 0.0020295 0.00015774 -0.00034824 0.0022958 -0.0029904 -0.0021542
-0.00017237 0.001554 0.00031494 -0.00051139
0.0020322 0.00015835 0.26294 0.12457 -0.0025254 0.0016361 -0.00020927 0.0016937
0.00052307 0.0012909 0.00014214 0.00096214
-0.00033456 0.002294 -0.0025201 0.0016642 0.10843 -0.25543 0.0018022 -0.00087291
0.0014601 0.0019658 -0.00096194 0.0013529
-0.0029968 -0.0021384 -0.0001993 0.0016908 0.0017977 -0.00087495 0.16307 -0.13532
0.0007948 0.0046177 -0.0024387 0.00029538
-0.00016229 0.0015467 0.00053676 0.0012879 0.0014545 0.0019629 0.00080908 0.0046049
0.24947 0.023317 0.005116 0.0012789
0.00031122 -0.00050836 0.00015827 0.00096514 -0.00095869 0.0013434 -0.0024441 0.00029997
0.0051046 0.0012829 0.27586 0.061671
1940000000 0.17774 -0.17415 -0.00022723 -0.0013507 0.0015518 0.0019868 -0.0037282 0.0006206
0.0013506 0.0010861 -0.00055691 -0.00063265
-0.00022499 -0.0013371 0.26315 0.092883 -0.0012707 0.003971 0.0009705 0.0012735
0.0018858 0.00054738 0.00091295 0.0003799
0.0015676 0.0019904 -0.0012469 0.0039881 0.062678 -0.24853 0.00034155 -0.0021305
0.0024216 0.0003459 0.000512 0.001587
-0.0037453 0.00065916 0.00099244 0.0012705 0.0003443 -0.0021215 0.11079 -0.16554
-0.00028363 0.0033622 -0.0015261 0.0016465
0.0013545 0.0010818 0.0018884 0.00053542 0.0024031 0.00033468 -0.00028304 0.0033678
0.25061 -0.016073 0.0036656 -0.0022529
-0.00054462 -0.00062298 0.00091756 0.00037289 0.00052358 0.0015878 -0.0014969 0.0016539
0.0036567 -0.002253 0.26496 0.025743
2000000000 0.13173 -0.18877 -0.0040591 0.00087405 0.0024775 0.0015715 -0.0023518 0.0035629
0.00099416 0.00024817 -0.00057937 0.00041972
-0.0040517 0.00086775 0.24885 0.057442 -0.00093475 0.0059171 0.001605 0.00032055
0.0014068 -0.0012421 0.00052599 0.00012448
0.0024863 0.001557 -0.00090408 0.0059289 0.019052 -0.23403 -0.0013032 -0.0013049
0.001967 -0.0011148 0.0016527 0.001122
-0.0023142 0.0035513 0.0016202 0.00030223 -0.0013019 -0.0013071 0.057873 -0.17512
-0.0018278 0.0038229 -8.4219e-05 0.0022816
0.001003 0.00022286 0.0013933 -0.0012589 0.0019727 -0.0011287 -0.001806 0.003836
