!Keysight Technologies,M9804A,MY58100912,A.14.10.03
!Date: Thursday, April 27, 2023 10:28:33
!Correction: S11(C  6-Port  ) 
!S12(C  6-Port  ) 
!S13(C  6-Port  ) 
!S14(C  6-Port  ) 
!S15(C  6-Port  ) 
!S16(C  6-Port  ) 
!S21(C  6-Port  ) 
!S22(C  6-Port  ) 
!S23(C  6-Port  ) 
!S24(C  6-Port  ) 
!S25(C  6-Port  ) 
!S26(C  6-Port  ) 
!S31(C  6-Port  ) 
!S32(C  6-Port  ) 
!S33(C  6-Port  ) 
!S34(C  6-Port  ) 
!S35(C  6-Port  ) 
!S36(C  6-Port  ) 
!S41(C  6-Port  ) 
!S42(C  6-Port  ) 
!S43(C  6-Port  ) 
!S44(C  6-Port  ) 
!S45(C  6-Port  ) 
!S46(C  6-Port  ) 
!S51(C  6-Port  ) 
!S52(C  6-Port  ) 
!S53(C  6-Port  ) 
!S54(C  6-Port  ) 
!S55(C  6-Port  ) 
!S56(C  6-Port  ) 
!S61(C  6-Port  ) 
!S62(C  6-Port  ) 
!S63(C  6-Port  ) 
!S64(C  6-Port  ) 
!S65(C  6-Port  ) 
!S66(C  6-Port  ) 
!S6P File: Measurement: :
# Hz S  RI   R 50
500000000 -0.33695 -0.039 -0.0099571 -0.0028349 -0.0080977 0.01313 -0.0038996 0.012204
0.012832 0.0043835 -0.0042545 0.009269
-0.0102 -0.0025733 -0.41872 -0.050809 0.0074731 -0.010643 0.0019269 0.012083
0.0077192 0.0026952 0.0024246 0.013694
-0.008121 0.012943 0.0076552 -0.010645 -0.2662 0.20966 0.0074246 0.0038736
-0.0018135 0.0085543 0.001487 0.012717
-0.0043122 0.012365 0.0016133 0.011836 0.0073811 0.0036933 -0.33106 0.043781
-0.01777 -0.0058592 0.015994 0.024838
0.013094 0.004448 0.0078107 0.0025825 -0.0017471 0.0088303 -0.018017 -0.0058757
-0.22754 -0.19182 -0.025354 0.0047902
-0.0043307 0.0092522 0.0025522 0.012704 0.0013564 0.012351 0.01558 0.024392
-0.024676 0.0047773 -0.26884 -0.1266
560000000 -0.31734 0.12453 -0.023836 -0.063132 -9.064e-05 0.012539 0.0067481 0.010277
0.0094958 0.0045364 0.010355 0.0065709
-0.024121 -0.063006 -0.37609 0.10774 -0.041518 -0.036861 0.014102 0.0039519
-0.014029 -0.0037583 0.0032424 0.00026166
0.00019851 0.01229 -0.041853 -0.036249 -0.18371 0.25765 -0.00038879 -0.0043646
0.019981 0.0042234 0.006527 -0.0062917
0.0065866 0.010842 0.014194 0.0033808 -9.0636e-05 -0.0045293 -0.30597 0.13446
0.0040897 -0.0239 0.0043259 -0.020935
0.0093475 0.0048225 -0.012983 -0.0043965 0.019871 0.0050414 0.0044331 -0.023556
-0.2893 -0.016885 0.0081992 -0.049543
0.010259 0.0066727 0.0034491 0.00042091 0.0062854 -0.0065087 0.0041546 -0.020841
0.0080434 -0.049664 -0.32987 0.022396
620000000 -0.2769 0.10735 -0.023311 0.008327 0.0034997 0.0084549 0.0081326 -0.0046243
0.012338 0.00019942 0.00052423 -0.0019896
-0.023386 0.0080911 -0.40273 0.060307 -0.018675 0.00032736 -0.0015871 -0.0020847
0.011858 -0.0068511 0.0017102 -0.0029346
0.0030009 0.008484 -0.018636 0.00039689 -0.15322 0.26743 -0.00090409 -0.0049348
-0.0028382 -0.0036351 0.0095269 -0.0024387
0.0080568 -0.0047626 -0.0014131 -0.0021003 -0.00095595 -0.0050537 -0.26513 0.14405
-0.036614 -0.018891 0.011862 0.025597
0.012146 -0.00012098 0.011636 -0.0068095 -0.0029657 -0.0032269 -0.036718 -0.019086
-0.20886 -0.055596 -0.039853 0.013991
0.00052207 -0.0025446 0.0016702 -0.0030146 0.0094781 -0.0028069 0.012348 0.025346
-0.039681 0.014351 -0.25215 -0.014035
680000000 -0.23322 0.1935 -0.026955 -0.013796 0.0056056 0.0052066 0.0013253 -0.0070072
-0.0028005 -0.01119 0.004704 -0.007469
-0.026879 -0.013912 -0.3873 0.15771 -0.032654 -0.0011579 -0.001828 -0.00012129
-0.0017297 -0.009045 -0.0014272 -0.0022514
0.0054733 0.0050186 -0.032659 -0.0011633 -0.10193 0.28669 -0.00082742 6.8397e-05
-0.0018931 0.00040012 -0.0031446 -0.0098499
0.0013506 -0.0070336 -0.0017187 -0.00017405 -0.0008591 -2.6595e-05 -0.22076 0.19389
-0.024023 -0.0070013 -0.0092705 -0.010454
-0.0029508 -0.011499 -0.0018564 -0.0090313 -0.0019102 0.00028868 -0.023898 -0.0067904
-0.25894 0.042798 -0.006308 -0.0083155
0.0048122 -0.0073 -0.0014209 -0.0022482 -0.0032384 -0.0097286 -0.0094101 -0.010413
-0.0062574 -0.0083997 -0.26005 0.091549
740000000 -0.19021 0.18809 -0.038269 0.026911 0.012959 -0.0051739 -0.00071791 -0.0038928
-0.003981 -0.0023543 -0.0065495 0.0027125
-0.038363 0.026892 -0.33525 0.17669 -0.035316 0.035077 -0.00077447 -0.0062046
-0.01144 0.0079404 -0.0021752 -0.0060344
0.012733 -0.0053684 -0.035292 0.035218 -0.068734 0.28465 -0.0019986 0.0036553
-0.002504 -0.0047724 -0.0017678 0.0011066
-0.00083688 -0.0038313 -0.0007731 -0.0062623 -0.0018907 0.003639 -0.20326 0.20219
-0.043703 -0.0065923 0.023294 0.015009
-0.0040487 -0.0023566 -0.011602 0.0078992 -0.0026086 -0.0051127 -0.043753 -0.0065517
-0.15976 0.069122 -0.043631 0.00073735
-0.0067888 0.002751 -0.0020754 -0.0063448 -0.0019189 0.0012209 0.023343 0.014857
-0.043471 0.00076542 -0.24823 0.098701
800000000 -0.15714 0.22846 -0.022563 0.0168 0.0053222 -0.010602 -0.0050402 -0.0019552
-0.0044049 0.0028922 0.0037649 0.00050934
-0.022595 0.016729 -0.33833 0.24615 -0.0080373 0.034214 -0.0025864 0.0021157
-0.001048 0.0033205 0.00063546 0.0052234
0.0052931 -0.010667 -0.0079608 0.034256 -0.027855 0.3081 0.00093293 0.0014473
0.00029581 0.0036583 -0.0020982 0.0010217
-0.0049652 -0.0019421 -0.0026041 0.0022485 0.00095491 0.0014635 -0.17547 0.22961
-0.028459 0.013834 0.013129 -0.010385
-0.004383 0.0027833 -0.0011274 0.0033929 0.00027667 0.0037097 -0.028464 0.013926
-0.20614 0.094081 -0.01708 0.018644
0.0038578 0.00061854 0.00054618 0.0053938 -0.0020771 0.0011142 0.013121 -0.010363
-0.017114 0.018801 -0.24297 0.14747
860000000 -0.12226 0.24843 -0.01736 0.030535 -0.003312 -0.010109 -0.0025486 0.0010209
0.0042486 0.0052038 -0.0034874 -0.0024415
-0.017325 0.030559 -0.29059 0.28822 0.0080484 0.034369 0.00017923 0.0020921
0.0046021 0.00010782 0.0034197 0.0011028
-0.0033083 -0.010049 0.008194 0.034364 0.01993 0.3161 -0.00055162 -0.00018972
0.0029105 -0.0015066 0.0018269 0.0044062
-0.0025493 0.0010223 0.00020203 0.0020083 -0.00051228 -0.00018118 -0.1394 0.24075
-0.018144 0.019159 -0.0058741 -0.0090461
0.0042033 0.0051917 0.00448 7.9595e-05 0.0029158 -0.0015889 -0.018162 0.019021
-0.15486 0.14423 -0.0243 0.016527
-0.0033164 -0.0024638 0.0032815 0.00086055 0.0017906 0.0043582 -0.0057339 -0.009258
-0.024428 0.016599 -0.19067 0.19205
920000000 -0.097112 0.27087 0.005513 0.03773 -0.0095242 -0.0046835 -0.0015855 0.0019899
0.001207 0.0015577 0.0027897 -0.0015539
0.0054449 0.03774 -0.26158 0.30946 0.028466 0.021915 0.0015926 0.0010472
0.0075241 -0.00052548 0.0041764 -0.0027619
-0.0095593 -0.0046429 0.028601 0.021908 0.066269 0.31699 0.0019072 -0.00017594
0.0013251 -0.00052558 0.00088107 -0.0012691
-0.0016668 0.0020236 0.0016164 0.0010332 0.0018964 -0.00017455 -0.11527 0.25821
-0.010744 0.030226 0.0033818 -0.0067627
0.0011914 0.0016969 0.0074424 -0.00048639 0.0013189 -0.00046082 -0.010731 0.030335
-0.14426 0.14929 -0.0028642 0.02685
0.0028377 -0.0016653 0.0041146 -0.002891 0.00087902 -0.0013321 0.0034825 -0.0067536
-0.0027001 0.026705 -0.19735 0.20625
980000000 -0.050484 0.28977 0.017693 0.02982 -0.0092724 0.004542 0.0020234 0.0032946
0.0040291 -0.0016333 -0.0032839 -0.0022232
0.017651 0.029829 -0.20899 0.34323 0.033442 0.0045948 0.0020291 -0.00027045
0.0017068 -0.0062178 -0.000603 -0.0023662
-0.0092365 0.0045922 0.033468 0.0045265 0.11275 0.31047 0.00049134 -0.0012426
0.00028443 -0.0021605 0.0013684 -0.00021186
0.0020502 0.003261 0.0019986 -0.00022213 0.00049503 -0.001192 -0.077055 0.26961
0.0079834 0.030408 -0.009091 -0.0071742
0.0039413 -0.0017051 0.0016333 -0.0063401 0.00031104 -0.0021529 0.0081705 0.030456
-0.11379 0.17918 0.0053864 0.02033
-0.0033783 -0.0022223 -0.00068303 -0.0022968 0.0013429 -0.00019667 -0.009056 -0.0072792
0.0052392 0.02028 -0.15488 0.2497
1040000000 -0.008472 0.29825 0.033462 0.017712 -0.0014223 0.0070171 0.0025815 0.00071874
2.1387e-05 -0.0035426 -0.00060568 -0.0015219
0.033465 0.017722 -0.17344 0.35655 0.029568 -0.015359 0.0014409 -0.0018729
-0.0024584 -0.0025875 -0.0014741 -0.0029576
-0.0013919 0.0069825 0.029491 -0.015451 0.1592 0.29684 -0.00052225 -0.0014534
-0.0016286 -0.0009227 -0.00059432 -0.0012316
0.0025659 0.00066246 0.0014372 -0.001864 -0.00053088 -0.0014712 -0.049337 0.28008
0.019692 0.01783 -0.0025166 0.0016248
9.1362e-05 -0.0036565 -0.0025825 -0.0026331 -0.0016639 -0.00098943 0.019744 0.017769
-0.081702 0.18597 0.01361 0.018502
-0.00056814 -0.0014941 -0.0016392 -0.0029158 -0.00054199 -0.0012017 -0.0025408 0.0016029
0.013553 0.018501 -0.13344 0.27134
1100000000 0.037075 0.30613 0.036071 -0.0046794 0.0028959 0.0039644 0.0023229 -0.0012851
-0.0020271 -0.0030845 -0.0040938 0.00021009
0.036061 -0.0046516 -0.13016 0.3742 0.015081 -0.028431 -6.8477e-05 -0.0018043
-0.0034994 -0.00062697 -0.0035863 -0.000381
0.0028985 0.0039464 0.014978 -0.028529 0.20612 0.27627 -0.0019181 0.00027953
-0.0017811 0.00061961 -0.001093 -0.0002792
0.0023171 -0.0013242 -7.2784e-05 -0.0017802 -0.0019113 0.000293 -0.0087092 0.28519
0.025068 0.0045717 -0.0026406 0.00036912
-0.0020918 -0.0030809 -0.0035405 -0.00062714 -0.0018091 0.00058738 0.025078 0.0045547
-0.064039 0.20039 0.019575 0.0086778
-0.0041548 0.00020272 -0.0036721 -0.00039418 -0.0011183 -0.00030731 -0.0026781 0.00035343
0.01959 0.0086692 -0.088308 0.30015
1160000000 0.088217 0.30114 0.023746 -0.021432 0.0026196 -0.00039771 -0.00022357 -0.0023188
-0.0042866 -0.00064959 -0.0010322 0.0041818
0.023762 -0.021339 -0.086234 0.37869 -0.0043314 -0.02948 -0.0017155 -0.0017048
-0.0025764 0.0027116 -0.001383 0.002059
0.0026298 -0.000408 -0.0044332 -0.029465 0.24926 0.24476 -0.0006689 0.0017981
-0.00044141 0.0020263 -0.0010588 0.00024595
-0.00025117 -0.0023572 -0.0017451 -0.0017083 -0.00066247 0.0018349 0.030851 0.28241
0.020986 -0.011198 -0.0030276 0.0051406
-0.0042463 -0.00069439 -0.0026095 0.0027429 -0.00047459 0.0020214 0.021012 -0.011221
-0.030269 0.20943 0.018742 0.00023893
-0.00091296 0.0042448 -0.0013 0.001903 -0.00098251 0.00021764 -0.0029907 0.0051539
0.018752 0.00029242 -0.041117 0.30315
1220000000 0.13271 0.29008 0.0098939 -0.030488 -0.0015802 -0.00074095 -9.5376e-05 -0.00088647
-0.0026811 0.0025827 0.0013392 0.0021498
0.0098795 -0.030436 -0.041393 0.3908 -0.017485 -0.021149 -0.0025679 0.00053796
0.0001975 0.0031267 -0.00073188 0.0019317
-0.0015737 -0.00073837 -0.0176 -0.021109 0.28828 0.20489 0.00085404 0.0016791
0.00073578 0.0012024 0.00025043 0.00071808
-6.4732e-05 -0.00085732 -0.0025766 0.00053712 0.00083922 0.0016717 0.071055 0.27378
0.0098753 -0.01776 0.0023461 0.0015201
-0.0026459 0.0026559 0.00020687 0.0031165 0.00071839 0.0011818 0.0098853 -0.017771
-0.0070272 0.21907 0.014019 -0.013239
0.0013893 0.0022052 -0.00066407 0.0019381 0.00021616 0.00073669 0.0023482 0.0015247
0.014034 -0.013288 -0.0091259 0.3196
1280000000 0.18269 0.26792 -0.0087274 -0.028603 -0.0018813 0.0027227 -0.00091837 -0.0019564
-0.00068705 0.003161 0.0026101 0.0010646
-0.0087107 -0.028593 0.0051311 0.38163 -0.024318 -0.0081235 -0.00093903 0.0014944
0.0018649 0.0017541 0.00071408 0.0020735
-0.001876 0.0027325 -0.024339 -0.0079924 0.31803 0.16041 0.0015292 -0.00014275
0.0011138 0.00018541 0.00037619 0.00032316
-0.0009524 -0.0019548 -0.00095054 0.0015255 0.0015575 -0.0001428 0.10801 0.25706
5.8296e-05 -0.019476 -2.0851e-05 0.00026837
-0.00069419 0.003186 0.0018396 0.0017121 0.0011372 0.00016568 1.9796e-05 -0.019477
0.03002 0.22356 0.0027857 -0.015517
0.0026043 0.0010266 0.00082883 0.0021019 0.00034651 0.00034485 6.0208e-05 0.00030585
0.0027487 -0.015528 0.038605 0.32171
1340000000 0.21975 0.23366 -0.018415 -0.018467 0.0010418 0.0045517 -0.001718 -0.00081075
0.0016356 0.002661 0.0016947 -0.0014432
-0.018379 -0.018486 0.044753 0.37263 -0.02173 0.004849 -1.1977e-05 0.0019784
0.0019484 0.00063741 0.0014403 0.00083691
0.0010533 0.004554 -0.021744 0.0049779 0.33915 0.11261 0.0011198 -0.0010369
0.00074175 -0.00041506 0.00026865 0.00033055
-0.0017165 -0.00081982 -3.1703e-06 0.0019697 0.0011243 -0.0010288 0.14062 0.23657
-0.0093336 -0.01615 0.00091285 0.000599
0.0015956 0.0025936 0.0019239 0.0006315 0.0007259 -0.00040796 -0.0093962 -0.016146
0.060514 0.21933 -0.0041568 -0.01406
0.0016608 -0.0014655 0.0014562 0.0008376 0.00026471 0.00029229 0.00092187 0.0005871
-0.0041413 -0.01404 0.076988 0.31617
1400000000 0.25284 0.19494 -0.023767 -0.0066693 0.0053705 0.0031033 -0.0021309 0.00074758
0.0025816 0.00086196 0.00016187 -0.0014827
-0.023752 -0.0066799 0.081942 0.35885 -0.014668 0.012957 0.0013735 0.001223
0.0011546 -0.00093481 0.0012991 0.0001491
0.0054049 0.0030809 -0.014594 0.013037 0.35178 0.059563 -1.478e-05 -0.0016776
9.9942e-05 -0.00041512 0.00050583 0.00025748
-0.0021091 0.00073639 0.0013985 0.0012 -5.7585e-07 -0.0016573 0.16992 0.20752
-0.015094 -0.0089182 -0.000733 -0.00029837
0.0026442 0.00084276 0.0011747 -0.00094899 9.1609e-05 -0.00045933 -0.015099 -0.0089038
0.093851 0.21469 -0.01079 -0.0089834
0.00022694 -0.0014828 0.0013033 0.0001188 0.00054369 0.00028007 -0.00075544 -0.00028758
-0.010772 -0.0090119 0.12176 0.30507
1460000000 0.27497 0.15042 -0.020341 0.0056232 0.0057598 -0.0020168 -0.0015792 0.0017766
0.0022033 -0.00066615 -0.00045303 -0.00097386
-0.020316 0.0056086 0.11561 0.33642 -0.0057141 0.015608 0.0016925 0.00014203
0.0007651 -0.0013073 0.0011694 -0.00064015
0.0057225 -0.0020224 -0.0056613 0.015665 0.35741 0.0059188 -0.0012778 -0.0011516
0.00031747 -0.00026221 0.00064301 -0.0003567
-0.0015891 0.0017658 0.001706 0.00012651 -0.0012848 -0.0011601 0.19614 0.17831
-0.015747 -0.001829 -0.00083218 0.0020009
0.0021546 -0.00072575 0.00074175 -0.0012691 0.00030642 -0.00026465 -0.015735 -0.0018203
0.12346 0.19994 -0.012377 -0.0025232
-0.00048837 -0.00099398 0.001149 -0.00062614 0.00061101 -0.00032959 -0.00080558 0.0019823
-0.01238 -0.0025209 0.15502 0.28373
1520000000 0.28645 0.10837 -0.014244 0.011041 0.0032767 -0.0043236 0.00011826 0.0025711
0.0018985 -0.0018501 -0.001176 -5.5878e-05
-0.014228 0.011013 0.14856 0.32143 0.001976 0.013089 0.0015703 -0.00080855
-5.5205e-05 -0.00093376 0.00027391 -0.0010624
0.0032473 -0.0043772 0.0020385 0.013074 0.35086 -0.049777 -0.0011281 -0.00028616
0.0006538 -0.00092488 7.7298e-05 -0.00013694
0.00011623 0.002573 0.0015689 -0.0008278 -0.0011235 -0.00030895 0.2191 0.14056
-0.014278 0.0038873 0.001577 0.0020121
0.0019017 -0.0018479 -6.5786e-05 -0.00094932 0.00063634 -0.00094031 -0.014267 0.0039159
0.15153 0.18546 -0.012114 0.0021922
-0.0011264 -4.2471e-05 0.00028404 -0.0010521 4.8695e-05 -0.0001367 0.0015674 0.0020237
-0.012122 0.0021794 0.18803 0.26293
1580000000 0.2951 0.062208 -0.0072219 0.013791 -0.00090562 -0.0048915 0.0015393 0.0018547
-0.00042776 -0.002196 -0.00026039 0.00026134
-0.0072419 0.013772 0.17516 0.29668 0.0054932 0.0080615 0.00041741 -0.0016001
-0.0005142 -0.0010009 -0.00029658 -0.00091432
-0.0008987 -0.0049063 0.0055769 0.0080515 0.33126 -0.10731 -0.0014819 0.00065255
-0.00035672 -0.0011701 0.00024541 -0.00059988
0.0015487 0.0018228 0.00041508 -0.0016003 -0.0014901 0.00065955 0.23299 0.1013
-0.010117 0.0083774 0.0022584 0.00056959
-0.00047375 -0.0022167 -0.00051713 -0.00098157 -0.00035372 -0.0011671 -0.010088 0.0083845
0.17589 0.16693 -0.0092966 0.0080371
-0.00027716 0.00031149 -0.00029705 -0.00090303 0.00020724 -0.00063068 0.0022794 0.0005854
-0.0093008 0.0080232 0.2199 0.23598
1640000000 0.29622 0.021274 -0.00051859 0.012147 -0.0029138 -0.0026562 0.0027526 0.0009141
-0.00087939 -0.001399 -0.00026505 0.00059635
-0.00052779 0.012137 0.20411 0.27196 0.0060007 0.0032311 -0.00072521 -0.00172
-0.00095795 -0.00037017 -0.0005625 -0.00064481
-0.0029117 -0.0026045 0.006029 0.0032101 0.30302 -0.15622 -0.0006596 0.0014501
-0.0013126 -0.0008826 -0.00015219 -0.00037399
0.0027578 0.00093017 -0.00072886 -0.0017175 -0.00065039 0.0014771 0.24496 0.052773
-0.0056656 0.0086965 0.0024233 -0.000789
-0.00089472 -0.0013858 -0.00096775 -0.00036594 -0.0013121 -0.00085239 -0.0056603 0.0087159
0.19839 0.14204 -0.004335 0.010033
-0.00024973 0.00060319 -0.00057903 -0.00067356 -0.00014068 -0.00040501 0.0024453 -0.00076227
-0.0043108 0.010005 0.24527 0.2049
1700000000 0.28878 -0.023446 0.0026678 0.0088849 -0.003458 1.9626e-05 0.0029461 -0.0012795
-0.0020146 -0.00049991 0.00067768 0.00032117
0.0026516 0.0088779 0.22192 0.24084 0.0039083 0.00031789 -0.0015209 -0.00053762
-0.00068749 -1.3855e-05 -0.0009242 -0.00038962
-0.0035334 3.1613e-05 0.0039113 0.00032297 0.25999 -0.19602 0.00042179 0.0014692
-0.0018619 -9.3311e-05 -0.00053387 -0.00082485
0.0029361 -0.001321 -0.0015168 -0.00053271 0.00040443 0.0014768 0.24193 0.0036572
-0.0032237 0.0084613 0.0016068 -0.0022474
-0.0019952 -0.00047796 -0.0006882 4.4577e-06 -0.0018615 -0.00012437 -0.0032149 0.0084786
0.21535 0.1212 0.00054593 0.010111
0.00063091 0.0003394 -0.00093045 -0.00035281 -0.00057891 -0.00079445 0.0015769 -0.0022985
0.0005065 0.010104 0.26182 0.17037
1760000000 0.27639 -0.071341 0.0045034 0.0054161 -0.0024867 0.00092487 0.001121 -0.0034272
-0.0012981 0.00081835 0.00037657 -0.00051048
0.0044803 0.0054201 0.24768 0.20148 0.0015586 -0.001461 -0.0011814 0.00026024
-0.0010473 0.00081186 -0.0004803 0.00050384
-0.0024761 0.00092969 0.0015641 -0.001482 0.21189 -0.22984 0.0012385 0.001098
-0.0010193 0.0016172 -0.0012939 -0.00040413
0.0010741 -0.0034092 -0.0011734 0.00025717 0.0012635 0.0010573 0.23312 -0.047352
-0.00054946 0.0073308 -0.00028098 -0.0026381
-0.0013127 0.00087545 -0.0010462 0.00084399 -0.0010255 0.0015969 -0.00049852 0.0073204
0.22957 0.086139 0.0046926 0.0070561
0.0003928 -0.00051268 -0.00050324 0.00048905 -0.0013703 -0.00038931 -0.00028898 -0.0026176
0.0047247 0.0070439 0.27409 0.13261
1820000000 0.25207 -0.10808 0.0042832 0.0020727 -0.00023095 0.0026022 -0.001038 -0.003027
-0.00090564 0.00090415 -5.8217e-05 -0.00019748
0.0042797 0.0020597 0.25772 0.17187 -0.00050813 -0.00018271 -0.0012701 0.00096878
-0.0001198 0.001236 -0.00046645 0.0005234
-0.00021394 0.0025632 -0.00051413 -0.00016275 0.16136 -0.24545 0.0014655 0.00038542
-0.00013789 0.0022078 -0.0014136 0.00039914
-0.0011165 -0.0030038 -0.0012627 0.00099579 0.0014609 0.00047748 0.20365 -0.094132
0.0001148 0.0055595 -0.0016604 -0.0014932
-0.00091424 0.00089136 -0.0001192 0.0012482 -0.00016606 0.0021733 5.3674e-05 0.0056104
0.24582 0.05683 0.0055312 0.0032906
-5.8808e-05 -0.00020063 -0.00044271 0.00054178 -0.0013497 0.00032895 -0.0016473 -0.0014898
0.0055477 0.003258 0.27664 0.096281
1880000000 0.21726 -0.14816 0.0019266 0.00011092 -0.00038723 0.002309 -0.0029465 -0.0020793
-6.0199e-05 0.0015106 0.00010716 -0.00042976
0.0019711 0.0001286 0.26246 0.12567 -0.0025471 0.0015932 -4.398e-05 0.0016675
0.00057337 0.0012903 0.00018799 0.00083547
-0.00036259 0.0023203 -0.0025534 0.0016245 0.10851 -0.25567 0.0018665 -0.0009905
0.0015288 0.0018838 -0.00090304 0.0013456
-0.0029303 -0.0020711 -5.6148e-05 0.0016393 0.001821 -0.0010533 0.16394 -0.13441
0.00041049 0.0040823 -0.0024575 0.00019322
-6.7751e-05 0.001544 0.00059425 0.0012483 0.0016136 0.0018666 0.00047486 0.0040666
0.24786 0.024176 0.0054881 0.00092398
0.00022487 -0.0004994 0.00020586 0.00079419 -0.00079565 0.0013373 -0.002519 0.00017202
0.0054663 0.00098105 0.27589 0.061607
1940000000 0.17818 -0.17382 -0.00021696 -0.0013681 0.0016632 0.0020956 -0.0037026 0.00054293
0.0013532 0.00097498 -0.00062864 -0.00055375
-0.00023582 -0.0013371 0.26333 0.094 -0.0013117 0.0039859 0.0009969 0.0012691
0.0018751 0.00057685 0.00083402 0.00025179
0.0016762 0.0020533 -0.0012985 0.0040007 0.062933 -0.24922 0.00034511 -0.0020413
0.0024537 0.0002944 0.00053667 0.0016343
-0.0037319 0.00052276 0.00099984 0.0012572 0.00043609 -0.002056 0.11213 -0.16498
-0.00060986 0.003396 -0.0017688 0.0015346
0.0013631 0.00093013 0.0019038 0.00055766 0.0024737 0.00032125 -0.00058426 0.0033376
0.24935 -0.014237 0.0037675 -0.0029343
-0.00065586 -0.00046692 0.00086977 0.00023632 0.00063917 0.0016342 -0.0017548 0.0015961
0.0038004 -0.0029609 0.26519 0.025771
2000000000 0.13215 -0.18895 -0.0039875 0.00078717 0.0025668 0.0013986 -0.0023216 0.0036427
0.00091753 0.00015275 -0.00064353 0.00053496
-0.0039624 0.00079395 0.24957 0.058501 -0.00099841 0.0059368 0.0017002 0.00032109
0.0014177 -0.001224 0.0003916 0.00011637
0.0026073 0.0013946 -0.00093377 0.0059359 0.018694 -0.23424 -0.0012935 -0.0013751
0.0018998 -0.0011458 0.0015872 0.0012004
-0.0022423 0.0036199 0.0017186 0.00032665 -0.0013322 -0.0013949 0.058949 -0.17515
-0.0023509 0.0039553 -4.7386e-05 0.002492
0.00095334 0.00021146 0.001406 -0.0012307 0.0019225 -0.0011511 -0.0023158 0.0040873
0.24251 -0.047548 0.00015089 -0.0034448
