!Keysight Technologies,M9804A,MY58100912,A.14.10.03
!Date: Thursday, April 27, 2023 10:28:33
!Correction: S11(C  6-Port  ) 
!S12(C  6-Port  ) 
!S13(C  6-Port  ) 
!S14(C  6-Port  ) 
!S15(C  6-Port  ) 
!S16(C  6-Port  ) 
!S21(C  6-Port  ) 
!S22(C  6-Port  ) 
!S23(C  6-Port  ) 
!S24(C  6-Port  ) 
!S25(C  6-Port  ) 
!S26(C  6-Port  ) 
!S31(C  6-Port  ) 
!S32(C  6-Port  ) 
!S33(C  6-Port  ) 
!S34(C  6-Port  ) 
!S35(C  6-Port  ) 
!S36(C  6-Port  ) 
!S41(C  6-Port  ) 
!S42(C  6-Port  ) 
!S43(C  6-Port  ) 
!S44(C  6-Port  ) 
!S45(C  6-Port  ) 
!S46(C  6-Port  ) 
!S51(C  6-Port  ) 
!S52(C  6-Port  ) 
!S53(C  6-Port  ) 
!S54(C  6-Port  ) 
!S55(C  6-Port  ) 
!S56(C  6-Port  ) 
!S61(C  6-Port  ) 
!S62(C  6-Port  ) 
!S63(C  6-Port  ) 
!S64(C  6-Port  ) 
!S65(C  6-Port  ) 
!S66(C  6-Port  ) 
!S6P File: Measurement: :
# Hz S  RI   R 50
500000000 -0.3374 -0.037916 -0.01065 -0.0028023 -0.0083041 0.013275 -0.0046252 0.012439
0.012986 0.0034203 -0.0052095 0.0088867
-0.010616 -0.0027931 -0.41893 -0.050941 0.0076735 -0.010754 0.0016913 0.011674
0.007592 0.0019977 0.002132 0.012989
-0.0082927 0.013285 0.007652 -0.01079 -0.26592 0.21 0.0073172 0.0035981
-0.0018839 0.0076243 0.0014432 0.012106
-0.004574 0.012445 0.0017048 0.011691 0.0073194 0.0035923 -0.33058 0.043587
-0.018538 -0.0054341 0.016081 0.024073
0.013011 0.0033658 0.0075772 0.0019787 -0.0018486 0.0075882 -0.018571 -0.0054495
-0.22843 -0.1897 -0.025937 0.0051869
-0.0051532 0.0089879 0.0021399 0.013003 0.0014109 0.012086 0.016065 0.024063
-0.025942 0.0051995 -0.27107 -0.12583
560000000 -0.31758 0.12477 -0.024643 -0.063873 0.00066036 0.012319 0.0051156 0.010563
0.010201 0.0041953 0.010658 0.0073651
-0.024619 -0.06381 -0.37765 0.1086 -0.041481 -0.037281 0.013691 0.0043849
-0.013436 -0.0039316 0.0023373 0.00086253
0.00063371 0.012302 -0.0416 -0.037162 -0.18343 0.25848 -0.00058449 -0.0046442
0.019416 0.0049614 0.0067795 -0.0064985
0.0051457 0.010572 0.013694 0.0043511 -0.00056969 -0.0046459 -0.30492 0.13408
0.0043012 -0.023421 0.0039374 -0.020763
0.010272 0.0042489 -0.013497 -0.0038995 0.019483 0.0049392 0.0042892 -0.023373
-0.29032 -0.015002 0.0085587 -0.048947
0.010635 0.0073803 0.0023824 0.00086387 0.0067853 -0.0064953 0.0039738 -0.020754
0.008562 -0.049017 -0.33089 0.023696
620000000 -0.27527 0.1078 -0.023556 0.008371 0.0032173 0.0090154 0.0079338 -0.0046327
0.011824 -0.00091991 0.0017721 -0.0026632
-0.023539 0.0083719 -0.40286 0.060741 -0.018673 0.00023086 -0.0015793 -0.0018184
0.011222 -0.0067296 0.0014122 -0.0029366
0.0032465 0.0090297 -0.018695 0.00027223 -0.15259 0.26723 -0.0011396 -0.0044879
-0.0034835 -0.0035558 0.0085165 -0.0020864
0.0078886 -0.0046855 -0.0015859 -0.0018028 -0.0011589 -0.0044473 -0.26493 0.14483
-0.0377 -0.019038 0.011237 0.025885
0.011855 -0.00094141 0.011227 -0.0067792 -0.0034753 -0.0035894 -0.037733 -0.019011
-0.21039 -0.053291 -0.039572 0.012964
0.0017113 -0.0026662 0.0014146 -0.0029115 0.0085382 -0.002095 0.011202 0.025865
-0.039573 0.012941 -0.25304 -0.010208
680000000 -0.23424 0.19409 -0.027247 -0.013786 0.0052615 0.0050682 0.0014643 -0.0070563
-0.0027399 -0.011594 0.0048545 -0.0065953
-0.027218 -0.013782 -0.38746 0.15841 -0.032648 -0.0010293 -0.0018006 -0.00026401
-0.0018749 -0.0087442 -0.0015244 -0.002141
0.0052753 0.0050462 -0.032686 -0.00093711 -0.10189 0.28723 -0.0009567 -0.00020162
-0.0019301 0.00046149 -0.0031249 -0.0096136
0.0014383 -0.0070489 -0.0018067 -0.00028715 -0.0009655 -0.0001946 -0.22028 0.19504
-0.023779 -0.0072911 -0.0093149 -0.010158
-0.0028028 -0.011608 -0.0019166 -0.0087612 -0.0019122 0.00043884 -0.023804 -0.0072719
-0.25769 0.045154 -0.0066703 -0.0081282
0.0047938 -0.0065886 -0.0015388 -0.0021806 -0.0031185 -0.0096296 -0.0093728 -0.010158
-0.0067053 -0.0081162 -0.25889 0.094102
740000000 -0.18977 0.18818 -0.038275 0.02691 0.012874 -0.0055158 -0.00036898 -0.0039236
-0.0044641 -0.0029023 -0.0062578 0.0026172
-0.038244 0.026834 -0.335 0.17691 -0.035076 0.034812 -0.00075987 -0.0067058
-0.011858 0.0088672 -0.001836 -0.0066545
0.012866 -0.0055687 -0.035033 0.034941 -0.068096 0.28493 -0.0017685 0.0031312
-0.002899 -0.0048897 -0.0015377 0.00077936
-0.00039433 -0.0039319 -0.00076668 -0.006701 -0.0017504 0.0031354 -0.20314 0.20262
-0.043515 -0.0064567 0.023473 0.014516
-0.0044518 -0.0028547 -0.01185 0.0089298 -0.002915 -0.0048867 -0.043539 -0.0064281
-0.16006 0.0711 -0.043229 0.0013466
-0.0062295 0.0026421 -0.0019063 -0.006604 -0.0015524 0.0007358 0.0235 0.014489
-0.04323 0.0012725 -0.24692 0.10031
800000000 -0.15698 0.22823 -0.022316 0.016793 0.0052448 -0.010626 -0.0048419 -0.0017627
-0.0045471 0.0027406 0.0042046 0.00050657
-0.022315 0.016763 -0.33787 0.24674 -0.0078876 0.034132 -0.0023589 0.0022177
-0.0010234 0.0032151 0.0011676 0.0052208
0.0052214 -0.010643 -0.0077935 0.034177 -0.027823 0.30814 0.0010239 0.0015112
0.00031704 0.0035251 -0.0019288 0.0010045
-0.0048505 -0.0017582 -0.0023603 0.0022323 0.0010293 0.00152 -0.17507 0.23029
-0.028456 0.0138 0.013187 -0.0099545
-0.0045429 0.0027199 -0.0010147 0.0032336 0.00032597 0.0035195 -0.028441 0.013867
-0.20515 0.095827 -0.016688 0.018893
0.0042091 0.0004816 0.0011826 0.0052077 -0.0019224 0.000985 0.013193 -0.0099614
-0.016681 0.018881 -0.24206 0.14865
860000000 -0.1223 0.24847 -0.016996 0.030597 -0.0033553 -0.010113 -0.0024583 0.00087913
0.004022 0.0049571 -0.0030778 -0.0026841
-0.017005 0.030559 -0.29016 0.28884 0.0080461 0.034378 0.00019486 0.0020366
0.0046686 -0.00019617 0.0031655 0.00087955
-0.0033854 -0.010109 0.0081603 0.03438 0.019891 0.31604 -0.00063373 -0.00016127
0.0027156 -0.0017325 0.0018429 0.0041096
-0.0024409 0.00087236 0.00020214 0.0020476 -0.00062902 -0.00017077 -0.13889 0.24116
-0.017703 0.018697 -0.0058003 -0.0092636
0.0040452 0.0049795 0.0046472 -0.00024017 0.002736 -0.0017399 -0.017712 0.018777
-0.15358 0.1453 -0.024454 0.015825
-0.0030929 -0.0027005 0.0031958 0.00087386 0.0018346 0.0041048 -0.0057772 -0.0092856
-0.024392 0.015813 -0.1896 0.19389
920000000 -0.097246 0.27092 0.005401 0.037667 -0.0095413 -0.0046928 -0.001717 0.0018169
0.0013929 0.0017839 0.0028676 -0.0018091
0.0053849 0.037628 -0.2615 0.30988 0.028437 0.021896 0.0014563 0.0011744
0.0074618 -0.00040918 0.0040572 -0.002972
-0.0095582 -0.0046648 0.028526 0.021809 0.066457 0.31702 0.0018173 -7.935e-05
0.0013591 -0.00047668 0.00077384 -0.0012779
-0.0017256 0.001808 0.0014569 0.0011807 0.0018198 -7.3268e-05 -0.11494 0.25844
-0.01046 0.03046 0.0034181 -0.0069448
0.0014109 0.0017897 0.0074874 -0.00046133 0.0013504 -0.00048797 -0.010422 0.030497
-0.14218 0.15056 -0.0029162 0.02654
0.0028826 -0.0017782 0.0040637 -0.0029801 0.00078083 -0.0012606 0.0034136 -0.0069591
-0.0029283 0.026553 -0.19712 0.20774
980000000 -0.050162 0.29016 0.017734 0.029783 -0.0091478 0.0044941 0.002015 0.0032678
0.0039193 -0.001712 -0.0033018 -0.0022215
0.017715 0.029759 -0.2087 0.34354 0.03341 0.0046388 0.0020155 -0.00024886
0.0014771 -0.0060677 -0.00049404 -0.0023048
-0.0091332 0.0045237 0.033468 0.0045039 0.11287 0.31042 0.00047702 -0.0012352
0.00011627 -0.0022102 0.0013726 -0.00020929
0.002022 0.0032453 0.0020185 -0.00024327 0.00047384 -0.0012435 -0.07675 0.26961
0.0079919 0.030051 -0.0090418 -0.0069235
0.0039158 -0.0017233 0.0014554 -0.0060989 0.00011412 -0.0022188 0.0080604 0.030039
-0.11209 0.18017 0.0054326 0.020052
-0.0033046 -0.0021907 -0.00048391 -0.0023192 0.0013794 -0.00021288 -0.0090503 -0.0069039
0.0054191 0.020038 -0.15399 0.25099
1040000000 -0.0081884 0.29829 0.033373 0.017672 -0.0014446 0.006938 0.0025089 0.00073613
-0.00015259 -0.0033694 -0.00049788 -0.0014819
0.033341 0.01764 -0.17333 0.35658 0.029455 -0.015309 0.0013222 -0.0017994
-0.0026726 -0.0024803 -0.0016098 -0.0027437
-0.0014174 0.00696 0.029407 -0.015438 0.15926 0.2968 -0.00057228 -0.0014842
-0.0016694 -0.00082283 -0.00057299 -0.0011494
0.002504 0.0007123 0.0013392 -0.0017889 -0.0005707 -0.0014739 -0.049163 0.28024
0.019605 0.017898 -0.0026976 0.0015218
-0.00015557 -0.0033571 -0.0026931 -0.0024801 -0.0016825 -0.00082829 0.01964 0.017871
-0.079786 0.18739 0.013579 0.018314
-0.00051968 -0.0014709 -0.0016028 -0.0027646 -0.00058521 -0.001161 -0.0026897 0.0015257
0.013554 0.018313 -0.13253 0.27218
1100000000 0.037237 0.30609 0.035799 -0.0047356 0.0028487 0.0039536 0.0024388 -0.0012672
-0.0019828 -0.0030151 -0.0038178 0.00028618
0.035768 -0.0047209 -0.13001 0.37404 0.014942 -0.028376 -5.3193e-06 -0.0017969
-0.003514 -0.00057624 -0.0034821 -0.00032394
0.0028584 0.003954 0.014848 -0.028466 0.20613 0.27614 -0.0018529 0.00033524
-0.0017801 0.00067631 -0.00106 -0.000275
0.0024331 -0.0012787 -1.5867e-06 -0.0018012 -0.0018504 0.00033279 -0.008577 0.28523
0.024853 0.0046099 -0.0026517 0.00033343
-0.0019955 -0.0029949 -0.0035221 -0.00054191 -0.001777 0.00067595 0.02487 0.0045702
-0.061909 0.20123 0.01936 0.0086268
-0.0038213 0.00030798 -0.0034781 -0.00030122 -0.0010551 -0.00027948 -0.0026527 0.00033568
0.019331 0.0086428 -0.086434 0.30086
1160000000 0.088341 0.30101 0.023667 -0.02133 0.0026149 -0.00038265 -0.00017535 -0.0024494
-0.0041864 -0.00075832 -0.00080583 0.0042483
0.023669 -0.021322 -0.086072 0.37849 -0.0042785 -0.029419 -0.0017281 -0.0017561
-0.0025938 0.002664 -0.0013869 0.0019557
0.0026091 -0.00037051 -0.004412 -0.029438 0.24923 0.24467 -0.00069505 0.0018351
-0.00045882 0.0020089 -0.00090191 0.0001404
-0.00018375 -0.002448 -0.0017316 -0.0017337 -0.00069594 0.0018211 0.031014 0.28245
0.021093 -0.011115 -0.0029382 0.0053231
-0.0041898 -0.00071052 -0.0025793 0.0026721 -0.00045816 0.0020117 0.021089 -0.011137
-0.027936 0.20985 0.018125 0.00013428
-0.00078119 0.0042586 -0.0013621 0.0019647 -0.00090765 0.00014649 -0.0029281 0.0053268
0.018103 0.00014304 -0.0402 0.30385
1220000000 0.13278 0.28994 0.009769 -0.030388 -0.0015816 -0.00074528 8.207e-06 -0.00094098
-0.0026196 0.002508 0.0014013 0.0020356
0.0097794 -0.030359 -0.041371 0.39055 -0.017477 -0.021106 -0.0025425 0.0005368
0.00022245 0.0030694 -0.00071466 0.001997
-0.0015857 -0.00074384 -0.017594 -0.02106 0.2882 0.20493 0.00089409 0.0017019
0.00064994 0.0012584 0.00033369 0.00063654
7.5559e-06 -0.00094153 -0.0025499 0.00055109 0.00089411 0.0017126 0.071238 0.27368
0.0099132 -0.017639 0.0021597 0.0016086
-0.0026131 0.0025218 0.00024675 0.0030781 0.00064966 0.0012459 0.0098885 -0.017654
-0.0049282 0.21915 0.013905 -0.013294
0.0014052 0.0020337 -0.00069206 0.001998 0.00033215 0.00063785 0.0021622 0.0016104
0.013905 -0.013304 -0.0081079 0.31986
1280000000 0.18268 0.26774 -0.0087331 -0.028465 -0.0018698 0.0026658 -0.00093103 -0.0019904
-0.00077813 0.0031737 0.0025875 0.0010322
-0.0087138 -0.028439 0.0050264 0.38136 -0.024229 -0.0081215 -0.00091217 0.0015229
0.0017757 0.0017037 0.00070187 0.0020623
-0.0018539 0.0026673 -0.024308 -0.0080305 0.31801 0.16049 0.0016183 -0.00011049
0.0011489 0.00020351 0.00032291 0.00037167
-0.00093266 -0.001983 -0.00090267 0.0015339 0.0016179 -0.00010201 0.10797 0.25709
0.00015073 -0.019407 2.3235e-05 0.00025772
-0.00076555 0.0031699 0.0017898 0.0017145 0.0011483 0.0002192 0.0001089 -0.019412
0.031876 0.22301 0.0028442 -0.015294
0.0025849 0.0010233 0.00070808 0.0020531 0.00032053 0.00037811 3.242e-05 0.00026668
0.0028508 -0.015284 0.039629 0.32154
1340000000 0.21966 0.2336 -0.018345 -0.018414 0.0010423 0.0046312 -0.0017817 -0.00082591
0.0015586 0.0026369 0.0016566 -0.0014837
-0.018314 -0.018407 0.044624 0.37255 -0.021705 0.0048231 -2.5104e-05 0.0020126
0.0019478 0.00061822 0.0014423 0.00072596
0.0010653 0.0046235 -0.021698 0.004935 0.33911 0.1128 0.0010924 -0.0010751
0.00074286 -0.00051098 0.00017813 0.00025094
-0.0017828 -0.00082151 -1.867e-05 0.0020056 0.0010973 -0.0010822 0.14062 0.23653
-0.0093663 -0.016136 0.0008585 0.00053819
0.0015736 0.0026231 0.0019536 0.00061449 0.00075855 -0.00051447 -0.0094016 -0.016124
0.062337 0.2184 -0.0042476 -0.013665
0.0016493 -0.0015002 0.0014514 0.00073697 0.00019329 0.00025505 0.00086642 0.00053793
-0.0042322 -0.013657 0.078288 0.3162
1400000000 0.25266 0.19497 -0.023686 -0.0066138 0.0054315 0.0031097 -0.0021156 0.00070863
0.0025654 0.00086315 0.00016378 -0.0014678
-0.023649 -0.0066282 0.081832 0.35892 -0.014647 0.012896 0.0013227 0.0012199
0.0011076 -0.00095468 0.0011774 0.00010112
0.0054344 0.0030875 -0.014596 0.012981 0.35194 0.059816 8.5626e-06 -0.0016841
8.3605e-05 -0.00044088 0.00039294 0.00028795
-0.0021054 0.00071814 0.0013343 0.0012151 1.2865e-05 -0.0016757 0.17001 0.20763
-0.014995 -0.0088915 -0.00066541 -0.00031528
0.0025753 0.00085717 0.001098 -0.00095188 8.3197e-05 -0.00043537 -0.015014 -0.0088555
0.095465 0.21367 -0.010618 -0.0086588
0.00015043 -0.001477 0.0011823 0.00010987 0.00039059 0.000286 -0.00066171 -0.00031279
-0.010606 -0.00867 0.12294 0.30482
1460000000 0.27486 0.15052 -0.020229 0.0056083 0.0058103 -0.002005 -0.0015636 0.0017751
0.0022012 -0.00067323 -0.00042394 -0.00095732
-0.020219 0.0055835 0.1156 0.33655 -0.0057004 0.015592 0.0016655 0.00012613
0.00071569 -0.0012686 0.0011791 -0.00064936
0.0057939 -0.0020225 -0.0056306 0.015648 0.35774 0.0060656 -0.0013404 -0.0011812
0.00016574 -0.00024728 0.00065806 -0.000319
-0.0015664 0.0017794 0.0016646 0.00011324 -0.001347 -0.0011755 0.19626 0.17839
-0.015621 -0.0019212 -0.0007028 0.0019641
0.0021943 -0.0006868 0.00071948 -0.0012837 0.00016352 -0.00025464 -0.015642 -0.0018913
0.12506 0.19875 -0.012222 -0.0025485
-0.00041692 -0.00095116 0.0011697 -0.00064606 0.0006443 -0.00032247 -0.00070716 0.0019594
-0.012222 -0.0025492 0.15588 0.2835
1520000000 0.28648 0.10862 -0.01417 0.010915 0.0032792 -0.0043421 0.00014077 0.0026066
0.0019387 -0.0017889 -0.0010583 -4.309e-05
-0.014165 0.010899 0.14862 0.32165 0.0019641 0.013075 0.0015997 -0.00081935
-3.641e-05 -0.00094011 0.00028718 -0.001025
0.003256 -0.0043742 0.0020421 0.013075 0.35113 -0.049686 -0.0010956 -0.00029363
0.00065096 -0.00082977 1.7337e-05 -0.00013961
0.0001512 0.0026043 0.0015943 -0.00081949 -0.0010937 -0.00028445 0.21923 0.14046
-0.014267 0.0037468 0.0015269 0.0019776
0.0019379 -0.0018033 -5.0991e-05 -0.00094358 0.00065238 -0.00083593 -0.014262 0.0037754
0.153 0.18427 -0.01179 0.0021124
-0.0010543 -2.7062e-05 0.00028551 -0.0010272 1.8214e-05 -0.00014293 0.0015249 0.0019696
-0.011788 0.0021065 0.18893 0.26281
1580000000 0.29524 0.062369 -0.0072482 0.013664 -0.00092291 -0.0049838 0.0015028 0.0018893
-0.00034723 -0.002148 -0.00021565 0.0003774
-0.0072467 0.013643 0.17536 0.29683 0.0054807 0.0080968 0.00044005 -0.001564
-0.00048261 -0.00091909 -0.00027587 -0.00085776
-0.00094578 -0.0049833 0.0055278 0.0080648 0.33139 -0.10735 -0.0014822 0.00065501
-0.00030118 -0.0011179 0.00020098 -0.0005086
0.0015075 0.0018888 0.00042722 -0.0015718 -0.0014831 0.00065927 0.23302 0.10122
-0.010209 0.0080778 0.0021809 0.00057867
-0.00036521 -0.0021478 -0.00048418 -0.00091845 -0.00029938 -0.0011191 -0.010187 0.0081178
0.17718 0.16565 -0.0091446 0.0077813
-0.00021274 0.00038111 -0.00028687 -0.0008571 0.00018879 -0.0005139 0.002181 0.00056809
-0.0091458 0.0077775 0.2209 0.23553
1640000000 0.29653 0.021401 -0.00059272 0.012069 -0.0028986 -0.0026843 0.0027142 0.00092893
-0.00090382 -0.0014481 -0.00029742 0.0005196
-0.00060009 0.012058 0.20432 0.27205 0.0060243 0.0032608 -0.00070306 -0.0017013
-0.0008903 -0.00036169 -0.00054307 -0.000642
-0.0029149 -0.0026803 0.0060465 0.003226 0.30313 -0.15615 -0.00065418 0.001431
-0.0011908 -0.00080851 -0.00013488 -0.0003086
0.0027191 0.00091712 -0.00071372 -0.0016974 -0.00065402 0.0014276 0.24509 0.052661
-0.005854 0.0086186 0.0024674 -0.00081815
-0.00091567 -0.0014507 -0.00088879 -0.00036016 -0.0011879 -0.00081957 -0.0058322 0.0086301
0.19965 0.14056 -0.0042983 0.0097296
-0.00028925 0.00052127 -0.00053864 -0.00063874 -0.00013154 -0.00030892 0.0024725 -0.0008214
-0.0042926 0.0097274 0.24623 0.20432
1700000000 0.28915 -0.023471 0.0026072 0.0088705 -0.0036143 -2.8892e-05 0.0029894 -0.0013573
-0.0019979 -0.00051059 0.00054189 0.00032384
0.0025969 0.0088688 0.22221 0.24079 0.0039657 0.00036124 -0.0014442 -0.00056791
-0.00067389 -2.0227e-05 -0.00092512 -0.00042496
-0.003608 -4.8178e-06 0.0039779 0.0003326 0.26011 -0.19594 0.00048971 0.0015412
-0.0018583 -0.00020711 -0.00055639 -0.00092243
0.0029815 -0.0013755 -0.0014457 -0.00056228 0.00049652 0.001544 0.24197 0.0033991
-0.0033855 0.0084982 0.001481 -0.0022877
-0.0020002 -0.00049264 -0.0006781 -1.914e-05 -0.0018652 -0.00021713 -0.0033719 0.008501
0.21649 0.11974 0.000456 0.0097143
0.00054713 0.00032366 -0.00093121 -0.00041823 -0.00055673 -0.00091748 0.0014751 -0.0022926
0.00046303 0.0097151 0.26242 0.16975
1760000000 0.27668 -0.071514 0.0044406 0.0054647 -0.0024082 0.0010008 0.0012037 -0.0034495
-0.0012919 0.0008291 0.00034525 -0.00049556
0.0044267 0.0054664 0.2479 0.20128 0.0015263 -0.0014532 -0.0011903 0.00019989
-0.0010564 0.00077794 -0.00051346 0.00046254
-0.0024071 0.0010136 0.0015261 -0.0014741 0.21181 -0.23006 0.0011323 0.0010409
-0.001 0.0014551 -0.0012424 -0.00037079
0.0011938 -0.0034574 -0.0011887 0.00020252 0.0011366 0.0010433 0.23296 -0.04746
-0.00082992 0.0073935 -0.00029634 -0.002467
-0.0012859 0.00084412 -0.0010497 0.00079043 -0.00099976 0.0014679 -0.0008109 0.0073977
0.23059 0.084035 0.0043648 0.0070109
0.00033884 -0.0004933 -0.00050864 0.00046551 -0.001241 -0.0003744 -0.00030374 -0.0024699
0.0043649 0.0070172 0.27478 0.13175
1820000000 0.25228 -0.10841 0.0042654 0.0020979 -0.00012285 0.0025875 -0.001084 -0.0030285
-0.00088916 0.00094952 -6.5471e-05 -3.2959e-05
0.0042581 0.0021017 0.25791 0.17163 -0.00047814 -0.0001341 -0.0012433 0.00095025
-0.00014896 0.0012662 -0.00056881 0.00052462
-0.00011299 0.0025902 -0.00047839 -0.00013311 0.16137 -0.24566 0.0014869 0.00040936
-0.0002747 0.0022412 -0.0015316 0.00036772
-0.0011028 -0.0030211 -0.0012375 0.00096587 0.001492 0.00040731 0.20358 -0.09425
9.8904e-05 0.005892 -0.0016769 -0.0015326
-0.00087436 0.00095413 -0.00013568 0.0012652 -0.00026193 0.0022428 0.00011913 0.0058923
0.24686 0.054733 0.0052294 0.0032714
-6.1584e-05 -3.4321e-05 -0.00056487 0.00053005 -0.0015363 0.0003738 -0.0016834 -0.0015271
0.0052231 0.0032759 0.27679 0.095416
1880000000 0.21726 -0.14856 0.0019179 7.3593e-05 -0.00037364 0.0023324 -0.002942 -0.0021234
-9.5091e-05 0.0014538 0.00030487 -0.00056186
0.001909 7.2619e-05 0.2625 0.12528 -0.0025821 0.0016961 -0.00016704 0.0016553
0.00050435 0.0012684 0.00011275 0.00091401
-0.00036861 0.0023332 -0.0025736 0.0017058 0.10849 -0.25557 0.0017045 -0.00091373
0.0013714 0.001953 -0.0010537 0.0014614
-0.0029619 -0.0021105 -0.00016078 0.0016545 0.0016967 -0.00090378 0.16364 -0.13444
0.00042081 0.0043527 -0.0024642 0.00039578
-7.465e-05 0.0014593 0.00050951 0.0012596 0.0013685 0.0019477 0.00043491 0.0043624
0.24873 0.0221 0.0051806 0.0010465
0.00030017 -0.00056764 0.00012394 0.00090918 -0.00104 0.0014585 -0.0024672 0.00040156
0.0051811 0.0010495 0.27625 0.060907
1940000000 0.17805 -0.17407 -0.00033928 -0.0013054 0.0015716 0.001984 -0.0038023 0.00066123
0.0012557 0.00099428 -0.00046503 -0.00059989
-0.00033172 -0.0013077 0.26315 0.093644 -0.0012873 0.0039847 0.00097538 0.0013155
0.0018195 0.00058722 0.00090684 0.00038664
0.0015827 0.0019748 -0.0012585 0.0039967 0.062734 -0.24882 0.00040122 -0.0021049
0.0024257 0.00036112 0.00043324 0.0016966
-0.0038074 0.00067738 0.00099382 0.0013016 0.00040819 -0.0021233 0.11177 -0.16504
-0.00066255 0.003537 -0.0014647 0.0015403
0.0012549 0.00097754 0.001827 0.00056547 0.0024325 0.00035164 -0.00066032 0.0035306
0.24971 -0.016881 0.0037077 -0.0024114
-0.00046936 -0.00060365 0.00090969 0.0003691 0.00043892 0.0016959 -0.0014566 0.0015543
0.0036987 -0.0024128 0.2648 0.025103
2000000000 0.132 -0.18915 -0.003972 0.00080458 0.002561 0.0015997 -0.0021686 0.0035474
0.0010251 0.00031039 -0.00069604 0.0003132
-0.0039647 0.00081011 0.24933 0.058132 -0.00097513 0.0058748 0.0016606 0.00037629
0.0014421 -0.0011995 0.00055833 7.6495e-05
0.0025727 0.0015797 -0.00091614 0.005896 0.018977 -0.23435 -0.0012623 -0.0012988
0.002016 -0.0010537 0.001765 0.0014056
-0.0021464 0.0035556 0.0016637 0.00035687 -0.0012682 -0.0012918 0.058776 -0.17542
-0.0020445 0.0039043 -0.00022823 0.0023646
0.0010249 0.00030073 0.0014374 -0.0012197 0.0020141 -0.0010622 -0.0020365 0.0039075
0.24284 -0.05038 0.0001593 -0.003263
