!Keysight Technologies,M9804A,MY58100912,A.14.10.03
!Date: Thursday, April 27, 2023 10:28:33
!Correction: S11(C  6-Port  ) 
!S12(C  6-Port  ) 
!S13(C  6-Port  ) 
!S14(C  6-Port  ) 
!S15(C  6-Port  ) 
!S16(C  6-Port  ) 
!S21(C  6-Port  ) 
!S22(C  6-Port  ) 
!S23(C  6-Port  ) 
!S24(C  6-Port  ) 
!S25(C  6-Port  ) 
!S26(C  6-Port  ) 
!S31(C  6-Port  ) 
!S32(C  6-Port  ) 
!S33(C  6-Port  ) 
!S34(C  6-Port  ) 
!S35(C  6-Port  ) 
!S36(C  6-Port  ) 
!S41(C  6-Port  ) 
!S42(C  6-Port  ) 
!S43(C  6-Port  ) 
!S44(C  6-Port  ) 
!S45(C  6-Port  ) 
!S46(C  6-Port  ) 
!S51(C  6-Port  ) 
!S52(C  6-Port  ) 
!S53(C  6-Port  ) 
!S54(C  6-Port  ) 
!S55(C  6-Port  ) 
!S56(C  6-Port  ) 
!S61(C  6-Port  ) 
!S62(C  6-Port  ) 
!S63(C  6-Port  ) 
!S64(C  6-Port  ) 
!S65(C  6-Port  ) 
!S66(C  6-Port  ) 
!S6P File: Measurement: :
# Hz S  RI   R 50
500000000 -0.3388 -0.037672 -0.011108 -0.0020418 -0.0083663 0.013722 -0.0036986 0.011629
0.013618 0.0027614 -0.0041062 0.0081032
-0.011129 -0.0020441 -0.41887 -0.051065 0.0077294 -0.010448 0.0016373 0.011743
0.0077562 0.0022107 0.00086857 0.013371
-0.0082459 0.013653 0.0075332 -0.010737 -0.26544 0.21017 0.0075054 0.003561
-0.0018174 0.0077861 0.0010088 0.012828
-0.0041245 0.01245 0.002011 0.011856 0.0074938 0.0037529 -0.33144 0.044534
-0.018122 -0.0061921 0.015472 0.025565
0.012812 0.0034938 0.0077007 0.002622 -0.0017329 0.0079255 -0.01857 -0.0061791
-0.2273 -0.18932 -0.025528 0.0044282
-0.0047931 0.0092201 0.0021471 0.013496 0.0015979 0.012501 0.015124 0.025065
-0.025041 0.0041839 -0.27107 -0.12666
560000000 -0.31744 0.12499 -0.024354 -0.063545 0.00086316 0.0125 0.0059374 0.010627
0.010662 0.0039579 0.010805 0.0074631
-0.024261 -0.063587 -0.37648 0.10735 -0.041401 -0.037138 0.013862 0.0036512
-0.013511 -0.0037036 0.002548 -0.00048528
0.00053213 0.012956 -0.041732 -0.036873 -0.1829 0.25796 -0.00062375 -0.0044815
0.020038 0.0045818 0.0074867 -0.0065058
0.0063978 0.010153 0.013854 0.0041199 -0.00082303 -0.0048791 -0.30569 0.13425
0.0050563 -0.024073 0.0039954 -0.021835
0.010484 0.0037636 -0.01325 -0.0044657 0.019193 0.0051832 0.0051429 -0.023681
-0.29066 -0.017684 0.0087594 -0.049157
0.0099302 0.0059892 0.0030031 -0.0004414 0.006523 -0.0059577 0.0048059 -0.021523
0.008378 -0.048941 -0.32912 0.023266
620000000 -0.27464 0.10636 -0.023081 0.0082135 0.0039727 0.0090966 0.0087268 -0.0051422
0.011102 -0.00031012 0.0013121 -0.0025058
-0.023025 0.0081522 -0.40262 0.060226 -0.018609 0.00026864 -0.001489 -0.0022227
0.011589 -0.0063386 0.0017426 -0.0028808
0.0036007 0.0091827 -0.018699 0.0006021 -0.1531 0.26729 -0.00056044 -0.0052214
-0.0031162 -0.0028428 0.0085016 -0.0025074
0.0080379 -0.0039007 -0.001612 -0.0018686 -0.00095273 -0.0050141 -0.26378 0.14504
-0.037876 -0.019788 0.01175 0.025871
0.013091 -0.00046963 0.01188 -0.0067317 -0.0034091 -0.0033446 -0.038108 -0.02015
-0.20839 -0.05388 -0.040381 0.012935
0.0022448 -0.0024514 0.001776 -0.0030448 0.0093644 -0.0029165 0.012419 0.025757
-0.039021 0.013258 -0.251 -0.012034
680000000 -0.23324 0.19485 -0.027075 -0.013993 0.0048699 0.0049621 0.0011176 -0.0066796
-0.0027282 -0.011233 0.0051971 -0.007131
-0.027063 -0.013952 -0.38756 0.15772 -0.03281 -0.00096407 -0.0017409 -6.3804e-05
-0.0019005 -0.0089856 -0.0015415 -0.002008
0.0054121 0.0048199 -0.032671 -0.0011543 -0.10229 0.28719 -0.00095987 9.9905e-05
-0.0019787 0.00026414 -0.00331 -0.0090585
0.0012417 -0.0079107 -0.001665 -0.00066146 -0.001274 1.3799e-05 -0.22043 0.19463
-0.023693 -0.0074545 -0.0090543 -0.010546
-0.0037538 -0.011377 -0.0022068 -0.0088564 -0.0018162 0.00058054 -0.023772 -0.0069605
-0.25794 0.044567 -0.0062333 -0.0080375
0.0044635 -0.0064717 -0.0018157 -0.002182 -0.0032772 -0.0091025 -0.0092399 -0.010058
-0.005846 -0.0087323 -0.25932 0.092166
740000000 -0.18996 0.18833 -0.038365 0.026252 0.013187 -0.0053604 -0.00038095 -0.0040111
-0.0043873 -0.0027231 -0.0064154 0.0032138
-0.038387 0.026202 -0.33466 0.17627 -0.035294 0.035005 -0.00066574 -0.0064286
-0.010877 0.008012 -0.0024328 -0.0063915
0.013551 -0.0049944 -0.035024 0.035357 -0.06831 0.28466 -0.0018343 0.0033187
-0.0029772 -0.0046139 -0.0014159 0.00057849
2.48e-05 -0.0038594 -0.0002578 -0.0062965 -0.001813 0.0035596 -0.20272 0.20238
-0.042866 -0.0065338 0.023138 0.014361
-0.0046689 -0.0031808 -0.01208 0.0070125 -0.0024856 -0.004855 -0.043617 -0.006547
-0.16098 0.070078 -0.042919 0.00076679
-0.0056227 0.0029219 -0.0015297 -0.0054906 -0.001546 0.00059723 0.023694 0.014737
-0.042282 0.0011157 -0.2476 0.098685
800000000 -0.15693 0.22785 -0.022676 0.016431 0.0051553 -0.010463 -0.0052024 -0.0015118
-0.0041413 0.0026302 0.0046483 0.00075278
-0.022675 0.016423 -0.33819 0.24611 -0.0080017 0.034092 -0.0025726 0.0023501
-0.0010686 0.003372 0.0010457 0.005466
0.0050223 -0.010569 -0.0079925 0.034048 -0.027863 0.30833 0.0010686 0.0017575
0.00038042 0.0036431 -0.0018611 0.00097731
-0.0049683 -0.0020005 -0.002558 0.00224 0.00072246 0.0016153 -0.17531 0.23008
-0.02819 0.013933 0.013648 -0.0098762
-0.0046816 0.0025847 -0.00099561 0.003171 0.00038434 0.0038076 -0.028569 0.01396
-0.20506 0.094539 -0.017048 0.018936
0.0034657 0.00057009 0.0007007 0.005343 -0.0022599 0.0013559 0.012894 -0.0097022
-0.01685 0.019062 -0.24185 0.14763
860000000 -0.12255 0.2486 -0.017155 0.030643 -0.0034069 -0.010092 -0.0025402 0.00070573
0.0043183 0.0050495 -0.0031358 -0.0025682
-0.017163 0.030636 -0.29053 0.2884 0.0079244 0.034247 3.4372e-05 0.0022035
0.0044313 9.033e-05 0.0030588 0.00072118
-0.0032941 -0.010038 0.0081023 0.034137 0.020045 0.31598 -0.00054621 -0.00032327
0.0028458 -0.001483 0.0017 0.0043561
-0.0023221 0.0012106 0.00032651 0.0019358 -0.0004002 -0.0002786 -0.13881 0.2408
-0.01745 0.018828 -0.005927 -0.0093819
0.0043909 0.0050439 0.004671 -4.8923e-05 0.002987 -0.0014873 -0.017697 0.018746
-0.1541 0.14478 -0.024986 0.015524
-0.0030265 -0.002555 0.0030314 0.0005993 0.0017086 0.0043633 -0.0060487 -0.0096218
-0.024173 0.015623 -0.19038 0.19242
920000000 -0.097149 0.27093 0.005283 0.037718 -0.0093991 -0.0046569 -0.0015668 0.0019835
0.0014293 0.0017542 0.0027393 -0.0016431
0.0052236 0.037674 -0.26166 0.30963 0.028285 0.021857 0.0013795 0.0011823
0.0073958 -0.00066616 0.0039998 -0.0028151
-0.0094025 -0.0044786 0.028423 0.021779 0.066401 0.31677 0.00187 -0.00016258
0.0013868 -0.00047726 0.00092729 -0.0011535
-0.0018917 0.0018223 0.0017094 0.0012107 0.0018514 -0.00011681 -0.11514 0.25856
-0.010553 0.030383 0.0035354 -0.0065063
0.0011408 0.0014274 0.0072295 -0.00057364 0.001312 -0.00046562 -0.010436 0.030325
-0.14298 0.14974 -0.0028774 0.026639
0.0025283 -0.0015277 0.004385 -0.0029631 0.00084651 -0.0012139 0.0033423 -0.0064272
-0.0025676 0.027436 -0.1981 0.20772
980000000 -0.050466 0.29003 0.017598 0.029843 -0.0090995 0.0045857 0.0020661 0.0033049
0.0037632 -0.0017029 -0.0032613 -0.0022114
0.01754 0.029827 -0.20896 0.34331 0.033142 0.004663 0.0019155 -0.00030011
0.0014965 -0.0062066 -0.0004662 -0.00227
-0.0090917 0.0045562 0.033192 0.004578 0.11279 0.3102 0.00047368 -0.0012611
0.00013459 -0.0022735 0.0014367 -0.00017785
0.0022777 0.0034301 0.001942 -0.00024813 0.0003907 -0.0012713 -0.076797 0.26933
0.0078624 0.030116 -0.0088988 -0.0068849
0.0039748 -0.0017912 0.0015131 -0.0060334 0.00023035 -0.0021968 0.0080206 0.030152
-0.11299 0.1798 0.0053715 0.019968
-0.002858 -0.0022898 -0.00062928 -0.0023093 0.0014062 -0.00015536 -0.0090279 -0.0070719
0.0050555 0.019861 -0.15528 0.25006
1040000000 -0.0083433 0.29817 0.033237 0.017842 -0.0012521 0.0069326 0.0025539 0.0007304
-6.2878e-05 -0.0034304 -0.0004663 -0.0015809
0.033189 0.017849 -0.17345 0.35648 0.029336 -0.015056 0.0013615 -0.001813
-0.0026676 -0.0024365 -0.001455 -0.0027981
-0.0012641 0.0070043 0.029358 -0.015188 0.15905 0.29657 -0.00061228 -0.0014704
-0.0017346 -0.00090604 -0.00053901 -0.0011286
0.0023635 0.00083424 0.001347 -0.0017764 -0.00060409 -0.0015138 -0.049213 0.28001
0.019412 0.01771 -0.002532 0.0016144
7.2973e-05 -0.0032566 -0.0025843 -0.0023527 -0.0016665 -0.00089282 0.019362 0.01777
-0.080592 0.18682 0.013629 0.018399
-0.00072434 -0.0012709 -0.001579 -0.0028611 -0.00065501 -0.0011163 -0.0025613 0.0017775
0.01367 0.018045 -0.13347 0.27146
1100000000 0.037027 0.3063 0.035803 -0.00445 0.0028459 0.0039357 0.0023877 -0.001246
-0.0019772 -0.0031209 -0.0039108 0.0003483
0.035773 -0.0044164 -0.13008 0.37377 0.014992 -0.028031 -1.5425e-05 -0.0017935
-0.0034648 -0.00065353 -0.0035034 -0.00034572
0.0028489 0.0038496 0.014862 -0.028161 0.20569 0.27601 -0.0018656 0.00028229
-0.0018076 0.00061086 -0.0010822 -0.00031989
0.0025557 -0.0013003 3.7601e-05 -0.0018443 -0.0018887 0.00027756 -0.0086576 0.28505
0.024558 0.0048418 -0.002465 0.00039469
-0.0020753 -0.0029866 -0.0035083 -0.0005822 -0.0017338 0.00062988 0.02468 0.0047698
-0.063216 0.20065 0.019354 0.008849
-0.0038336 -0.00018571 -0.0035389 -0.00055203 -0.0010269 -0.00031547 -0.0024842 0.00030258
0.019091 0.0086736 -0.087405 0.3002
1160000000 0.088075 0.30101 0.023609 -0.021053 0.0026624 -0.00048706 -0.00018295 -0.002453
-0.0042611 -0.00084663 -0.00076188 0.0041715
0.023605 -0.021012 -0.086319 0.37808 -0.0041174 -0.0291 -0.0016884 -0.0017682
-0.0026867 0.0025333 -0.0013882 0.0020064
0.0026595 -0.00037314 -0.0041993 -0.029124 0.24864 0.24482 -0.00071356 0.0018212
-0.00054639 0.0019674 -0.00095337 0.00015926
-0.00020991 -0.0025594 -0.0017905 -0.0017691 -0.00073169 0.0017717 0.030757 0.28234
0.020871 -0.010876 -0.0029074 0.0052248
-0.0042079 -0.00076778 -0.0025918 0.0025371 -0.00051683 0.0020322 0.020921 -0.010857
-0.029016 0.2095 0.017905 0.00051765
-0.0009876 0.0042607 -0.0014628 0.0019997 -0.0010446 0.00020512 -0.0030366 0.0054222
0.017929 0.00019213 -0.040288 0.30298
1220000000 0.13261 0.28995 0.010057 -0.030124 -0.0015499 -0.0007305 -0.00010777 -0.00089685
-0.0026567 0.0024923 0.0013102 0.0020766
0.010061 -0.030106 -0.04175 0.39012 -0.017152 -0.021054 -0.002561 0.00051548
0.00015435 0.0030004 -0.00075774 0.0019
-0.0015803 -0.00078167 -0.01731 -0.02099 0.28768 0.20527 0.00087781 0.0016547
0.00064894 0.0012376 0.00030982 0.00068606
-8.0058e-05 -0.00086238 -0.0024617 0.00054963 0.00083018 0.0017095 0.070842 0.27372
0.0099131 -0.017294 0.0022544 0.0015371
-0.0027323 0.0025395 0.00012418 0.0030165 0.00068616 0.0012349 0.0098774 -0.017283
-0.0060914 0.21905 0.013842 -0.012853
0.0013313 0.0021049 -0.00076346 0.0019124 0.00035582 0.0007597 0.002297 0.001529
0.013915 -0.013016 -0.0093426 0.31921
1280000000 0.18229 0.26781 -0.0084063 -0.028374 -0.001826 0.0025959 -0.00089867 -0.0019686
-0.00076504 0.0031834 0.0025454 0.001123
-0.008379 -0.028331 0.004392 0.38108 -0.023909 -0.0082431 -0.0009378 0.0014609
0.001741 0.0018113 0.00062494 0.0020309
-0.0018114 0.0026715 -0.023957 -0.0081281 0.31777 0.16118 0.0014984 -4.8877e-05
0.0010722 0.00028031 0.00030683 0.00034727
-0.00092073 -0.0020066 -0.00097413 0.0014452 0.0015265 -0.0001499 0.10772 0.25732
0.00035501 -0.019074 2.0163e-05 0.00014103
-0.00070495 0.0030901 0.0017846 0.001718 0.0010842 0.00016676 0.00037852 -0.018933
0.030772 0.22311 0.0028152 -0.015128
0.0025272 0.0010657 0.00063448 0.0020667 0.00027718 0.00034518 9.2049e-05 0.00017322
0.0028449 -0.015094 0.038288 0.32124
1340000000 0.21932 0.23371 -0.017949 -0.018542 0.0010734 0.0045102 -0.0017953 -0.00078684
0.0015152 0.0026849 0.0016135 -0.0014671
-0.01791 -0.018547 0.043804 0.37253 -0.021546 0.0045511 -1.6481e-05 0.0019945
0.0019226 0.00073762 0.0013003 0.00072926
0.0010999 0.0044685 -0.021596 0.004681 0.33928 0.11344 0.001087 -0.0010338
0.00076669 -0.00038684 0.00022956 0.00024392
-0.0017872 -0.00076743 5.4534e-05 0.0019644 0.0010073 -0.0010327 0.14049 0.23685
-0.0088583 -0.016034 0.00095873 0.00043764
0.0014988 0.0025828 0.0019074 0.00067949 0.00077896 -0.00040872 -0.0089802 -0.016003
0.061265 0.21844 -0.0038361 -0.013648
0.001653 -0.0015615 0.0013455 0.00070852 0.00024625 0.0003346 0.0010462 0.00058757
-0.0038285 -0.013692 0.076726 0.31595
1400000000 0.25228 0.19524 -0.023464 -0.0069569 0.0053008 0.0029693 -0.0020922 0.00071777
0.0025623 0.00090639 0.00017605 -0.0014719
-0.023436 -0.0069696 0.081014 0.35915 -0.014667 0.012616 0.0012793 0.0012218
0.0010979 -0.00088945 0.0011765 0.00015523
0.005324 0.0029954 -0.014612 0.012655 0.35229 0.060241 -8.736e-06 -0.0017061
5.3306e-05 -0.00043359 0.00042157 0.00022792
-0.0021163 0.00073167 0.0012689 0.0012501 3.2499e-05 -0.0017293 0.16994 0.20793
-0.01455 -0.009027 -0.00069592 -0.000352
0.0026045 0.00090817 0.0011155 -0.00090003 -2.0101e-05 -0.0004568 -0.014567 -0.009066
0.094243 0.21399 -0.010206 -0.0086617
0.00017001 -0.0014648 0.0012223 0.00021155 0.00040016 0.00021639 -0.00064277 -0.00030569
-0.010282 -0.0086278 0.1215 0.30514
1460000000 0.27461 0.15102 -0.020192 0.0052149 0.0056371 -0.0019617 -0.0016212 0.0017203
0.0021454 -0.00064126 -0.00037419 -0.00098163
-0.020185 0.0051895 0.115 0.33712 -0.0059727 0.015393 0.0017164 0.00016931
0.00076069 -0.0012967 0.0011599 -0.00067102
0.0056423 -0.0019962 -0.005909 0.015451 0.3583 0.0060737 -0.00127 -0.001229
0.00025572 -0.00031676 0.0005913 -0.00044762
-0.0016182 0.001769 0.0017081 0.00012439 -0.001336 -0.0012458 0.1963 0.17874
-0.01532 -0.0023418 -0.00080891 0.0019449
0.0020621 -0.00057156 0.0008126 -0.0012824 0.0002285 -0.00032293 -0.015286 -0.0023325
0.1237 0.19905 -0.011915 -0.0026544
-0.00038343 -0.00098029 0.0011202 -0.00061471 0.00059312 -0.00035055 -0.00088316 0.0019471
-0.011824 -0.0027395 0.15502 0.28407
1520000000 0.28643 0.10897 -0.014348 0.010581 0.0032065 -0.0042746 0.00014503 0.0025516
0.0019658 -0.0017504 -0.0011281 -2.1266e-05
-0.014338 0.010559 0.14822 0.32228 0.0017272 0.013027 0.0016066 -0.00077675
3.3392e-05 -0.00095112 0.00031553 -0.0010263
0.003212 -0.0042487 0.001784 0.013039 0.35143 -0.049979 -0.0010863 -0.00031168
0.00060435 -0.00085043 1.8991e-05 -7.5232e-05
0.00017269 0.0025879 0.0016318 -0.00082213 -0.0011058 -0.00032316 0.21944 0.14083
-0.014317 0.0031822 0.0014505 0.0019152
0.0019316 -0.0017903 -5.414e-05 -0.00097678 0.00058921 -0.00091792 -0.014372 0.0032918
0.15167 0.18484 -0.011636 0.0017886
-0.0011665 -3.764e-05 0.00033565 -0.0010092 6.9389e-05 -0.00010527 0.001569 0.0018543
-0.011613 0.0018303 0.1878 0.26337
1580000000 0.29524 0.062892 -0.0076081 0.013429 -0.00084653 -0.0047763 0.0014881 0.0018768
-0.00034244 -0.0021938 -0.00029467 0.00047331
-0.0076151 0.013414 0.17523 0.29757 0.0052841 0.0081959 0.0004788 -0.0016079
-0.00049798 -0.0009943 -0.00025471 -0.00088039
-0.00091121 -0.0047844 0.0053423 0.0081931 0.33131 -0.10749 -0.001555 0.00064933
-0.00020103 -0.0010732 0.00019426 -0.00053931
0.0015765 0.0019024 0.00045812 -0.001621 -0.0015542 0.00062747 0.23331 0.10152
-0.010576 0.0077323 0.0021191 0.00060612
-0.00038863 -0.0020591 -0.0004504 -0.0010568 -0.00023459 -0.0011383 -0.01045 0.0078489
0.17595 0.1666 -0.0092079 0.0074283
-0.00027723 0.00027795 -0.00024795 -0.00090396 0.00016988 -0.00047886 0.002027 0.00055099
-0.0091932 0.0074432 0.22005 0.23634
1640000000 0.2967 0.021738 -0.00094065 0.012081 -0.002799 -0.0027001 0.0026624 0.00089722
-0.0008669 -0.0013777 -0.00031828 0.0006031
-0.00094425 0.012065 0.20447 0.27269 0.005923 0.0034596 -0.00071982 -0.0017126
-0.00097917 -0.00038999 -0.00057195 -0.00066878
-0.0028274 -0.0026824 0.005933 0.0034471 0.30306 -0.15611 -0.00067863 0.0014625
-0.0012893 -0.00082987 -0.00017366 -0.00043883
0.0026479 0.00094361 -0.00072298 -0.0016907 -0.0006643 0.0014769 0.24552 0.052872
-0.0063245 0.0086216 0.0024888 -0.00081604
-0.00082733 -0.0014953 -0.00095947 -0.00036692 -0.0013099 -0.00086407 -0.006335 0.0085403
0.19851 0.14184 -0.0043742 0.0093642
-0.00028059 0.00066581 -0.00053574 -0.00066956 -0.00013976 -0.00042692 0.0025273 -0.00075675
-0.0044315 0.0094448 0.24556 0.20514
1700000000 0.28934 -0.023293 0.0023156 0.0090871 -0.0035144 1.5357e-05 0.0029141 -0.0012867
-0.00199 -0.00057334 0.00066881 0.00037977
0.0023142 0.0090838 0.22249 0.24123 0.0039549 0.00047194 -0.0014836 -0.00061424
-0.0007158 -1.571e-05 -0.00091896 -0.00041431
-0.0034773 2.6325e-05 0.004003 0.00045185 0.26009 -0.19595 0.00040206 0.0015093
-0.0018163 -0.0001655 -0.00058194 -0.00095268
0.0029653 -0.0013056 -0.0014875 -0.00059899 0.00043578 0.0014945 0.24241 0.0033537
-0.0037332 0.008658 0.0014812 -0.002302
-0.0019955 -0.00054589 -0.00074654 -2.8067e-05 -0.0017973 -0.00017991 -0.0037732 0.008726
0.21551 0.12119 0.00027633 0.009594
0.00063482 0.00031949 -0.00094446 -0.00043024 -0.00062648 -0.00090642 0.0013931 -0.0023627
0.00022249 0.009537 0.26191 0.17039
1760000000 0.27694 -0.071451 0.0043551 0.0057846 -0.0023743 0.00098066 0.001158 -0.0034291
-0.0013196 0.00078032 0.00037506 -0.00063228
0.0043418 0.0057825 0.24834 0.20154 0.001643 -0.0014236 -0.0012218 0.0002098
-0.0010995 0.00085386 -0.0005084 0.0004428
-0.0024029 0.001009 0.0016652 -0.00144 0.21216 -0.23 0.0012953 0.0010061
-0.0010984 0.0015358 -0.0012583 -0.00032052
0.0011267 -0.0034103 -0.0012224 0.00023167 0.0013645 0.0010584 0.23349 -0.047705
-0.00095977 0.0077675 -0.00027152 -0.0024954
-0.0013341 0.00072426 -0.0010584 0.000875 -0.0010201 0.0015761 -0.0008595 0.0076454
0.22984 0.085841 0.0041265 0.0069477
0.00041582 -0.00040947 -0.00049017 0.00051623 -0.0012032 -0.00041986 -0.00030901 -0.0024775
0.0041855 0.0070153 0.27423 0.13257
1820000000 0.25232 -0.10844 0.0043068 0.0023523 -0.00014248 0.0025389 -0.001024 -0.0030606
-0.00094968 0.00093683 -2.5874e-05 -0.0002012
0.0043012 0.0023543 0.2582 0.17161 -0.00048407 -0.00014288 -0.0012616 0.00096245
-0.00012467 0.0013118 -0.00047929 0.00052375
-0.00015074 0.0025422 -0.00050725 -0.00014876 0.16115 -0.24573 0.0013086 0.00042216
-0.00020499 0.002206 -0.0014085 0.00037387
-0.00096193 -0.0029876 -0.0012544 0.00099674 0.0013036 0.00028468 0.20394 -0.094662
0.00017408 0.0061422 -0.0016531 -0.0015526
-0.00090084 0.00090789 -0.00010178 0.0012724 -0.00020779 0.0021843 0.00022995 0.006242
0.24644 0.05643 0.0050333 0.0033245
-6.9802e-05 -0.0002554 -0.00052198 0.00050642 -0.0014604 0.00052078 -0.0016474 -0.0016438
0.0050462 0.0033195 0.27632 0.09631
1880000000 0.21724 -0.14861 0.0021414 0.00025197 -0.00031587 0.0022799 -0.0028144 -0.0020703
-0.000113 0.0014461 0.00023131 -0.00060934
0.0021395 0.00024936 0.26271 0.12523 -0.002534 0.0017184 -5.6521e-05 0.0017109
0.00057249 0.0012584 9.2007e-05 0.00083668
-0.00033544 0.0022647 -0.0025378 0.001711 0.10824 -0.25532 0.0017344 -0.0010486
0.0014535 0.0018756 -0.0010466 0.0012846
-0.0029953 -0.0022804 -0.00011981 0.0016716 0.0017947 -0.00095636 0.16356 -0.13471
0.00055355 0.0043689 -0.0024425 0.00045835
-8.4858e-05 0.0014934 0.00059255 0.0012922 0.0014834 0.0019291 0.00065087 0.0044968
0.24876 0.023623 0.004926 0.0011807
0.00016624 -0.00048211 0.00012831 0.00090138 -0.00091065 0.0012395 -0.0023246 0.00043036
0.0048689 0.0011642 0.27588 0.062086
1940000000 0.17785 -0.17404 -0.0001051 -0.0013001 0.0015758 0.0019667 -0.0038039 0.00056016
0.0012768 0.00099201 -0.00058131 -0.00052033
-8.5795e-05 -0.0013088 0.26327 0.093481 -0.0012463 0.0040424 0.0010349 0.001316
0.0018193 0.00055781 0.00084042 0.00035018
0.0016226 0.0019864 -0.0011773 0.0040598 0.062824 -0.24854 0.00048379 -0.0021575
0.00242 0.00039929 0.00030133 0.0016089
-0.0036867 0.00069341 0.0011012 0.0013209 0.00037551 -0.0021188 0.11166 -0.16547
-0.00041139 0.0036254 -0.0015192 0.0014891
0.0013031 0.00099269 0.0018891 0.00054149 0.0024069 0.00037162 -0.00045306 0.0034191
0.24989 -0.015198 0.0036181 -0.0022032
-0.00056308 -0.00066707 0.00080425 0.00022934 0.00025815 0.0015439 -0.0015139 0.0016303
0.00373 -0.0022223 0.26486 0.026176
2000000000 0.13194 -0.18887 -0.003869 0.00077793 0.0024704 0.0014758 -0.0022245 0.003668
0.0010164 0.00011489 -0.00057646 0.00037894
-0.003858 0.00076822 0.24923 0.058037 -0.00085481 0.005853 0.0016884 0.00026779
0.0014487 -0.0013962 0.00041488 0.00014666
0.0025411 0.0014287 -0.00081177 0.0058842 0.019017 -0.234 -0.0014298 -0.0012621
0.0019754 -0.0011481 0.0015731 0.0013619
-0.0023455 0.0035986 0.0016307 0.00020689 -0.0014354 -0.0012837 0.05856 -0.1752
-0.0019089 0.0038436 -0.0001621 0.0024497
0.00094373 0.00014244 0.0014205 -0.001409 0.0019393 -0.0011514 -0.0019761 0.0039606
0.24322 -0.048926 5.2363e-05 -0.003031
