!Keysight Technologies,M9804A,MY58100912,A.14.10.03
!Date: Thursday, April 27, 2023 10:28:33
!Correction: S11(C  6-Port  ) 
!S12(C  6-Port  ) 
!S13(C  6-Port  ) 
!S14(C  6-Port  ) 
!S15(C  6-Port  ) 
!S16(C  6-Port  ) 
!S21(C  6-Port  ) 
!S22(C  6-Port  ) 
!S23(C  6-Port  ) 
!S24(C  6-Port  ) 
!S25(C  6-Port  ) 
!S26(C  6-Port  ) 
!S31(C  6-Port  ) 
!S32(C  6-Port  ) 
!S33(C  6-Port  ) 
!S34(C  6-Port  ) 
!S35(C  6-Port  ) 
!S36(C  6-Port  ) 
!S41(C  6-Port  ) 
!S42(C  6-Port  ) 
!S43(C  6-Port  ) 
!S44(C  6-Port  ) 
!S45(C  6-Port  ) 
!S46(C  6-Port  ) 
!S51(C  6-Port  ) 
!S52(C  6-Port  ) 
!S53(C  6-Port  ) 
!S54(C  6-Port  ) 
!S55(C  6-Port  ) 
!S56(C  6-Port  ) 
!S61(C  6-Port  ) 
!S62(C  6-Port  ) 
!S63(C  6-Port  ) 
!S64(C  6-Port  ) 
!S65(C  6-Port  ) 
!S66(C  6-Port  ) 
!S6P File: Measurement: :
# Hz S  RI   R 50
500000000 -0.33737 -0.039042 -0.0099575 -0.0031996 -0.0080675 0.012906 -0.0043319 0.012002
0.013423 0.0032015 -0.0049059 0.0087059
-0.0099141 -0.0032144 -0.41817 -0.051847 0.0077389 -0.010938 0.0014073 0.01211
0.0074915 0.0022071 0.0011888 0.013339
-0.0080214 0.012883 0.0077878 -0.010988 -0.266 0.21003 0.0072645 0.0036258
-0.0017694 0.0080925 0.0010334 0.01213
-0.0043823 0.01189 0.001504 0.012171 0.0072794 0.0036315 -0.33033 0.044883
-0.018844 -0.0054974 0.015776 0.025675
0.013512 0.0031632 0.007516 0.0021211 -0.0017614 0.0080718 -0.018834 -0.0055341
-0.22651 -0.19016 -0.025853 0.0050659
-0.0047814 0.0085049 0.0013658 0.013456 0.0010753 0.012175 0.015755 0.02577
-0.025861 0.0050512 -0.27096 -0.12578
560000000 -0.31711 0.12377 -0.023864 -0.063501 -9.0528e-05 0.012219 0.006237 0.010558
0.010208 0.0042923 0.01059 0.0076463
-0.023814 -0.063403 -0.37736 0.10743 -0.041768 -0.03697 0.014047 0.0037769
-0.013385 -0.0041213 0.0034987 -0.000228
-3.0456e-05 0.012213 -0.041817 -0.036884 -0.18313 0.25759 -0.00044469 -0.0044823
0.019179 0.0048624 0.0075268 -0.0064608
0.0060923 0.010583 0.014038 0.003779 -0.00042934 -0.0045024 -0.30557 0.1339
0.0045458 -0.023683 0.004036 -0.021844
0.0099577 0.0042696 -0.013312 -0.0040991 0.019041 0.0048804 0.0044786 -0.023762
-0.29106 -0.01502 0.0087041 -0.049157
0.010612 0.0074737 0.0034675 -0.00018093 0.0075459 -0.0065676 0.0040672 -0.021836
0.0087206 -0.04916 -0.32907 0.022609
620000000 -0.27455 0.10751 -0.023301 0.0083728 0.0032961 0.00901 0.0078038 -0.0052021
0.012081 -6.2324e-05 0.0011585 -0.0026153
-0.023242 0.0083139 -0.40278 0.060072 -0.01892 0.00047778 -0.0016834 -0.0019033
0.01173 -0.0064575 0.0014409 -0.0027885
0.0033181 0.0090246 -0.018947 0.00050908 -0.15349 0.26738 -0.0014789 -0.0049138
-0.0032623 -0.0030063 0.0086957 -0.0025968
0.0077788 -0.0051448 -0.0017043 -0.0019107 -0.0014709 -0.0049232 -0.26486 0.14487
-0.03797 -0.019561 0.011459 0.025993
0.012137 -0.00015969 0.011734 -0.0065418 -0.0032174 -0.0030186 -0.03798 -0.01949
-0.20848 -0.053094 -0.040448 0.012799
0.001141 -0.0026515 0.0014323 -0.0027973 0.0086722 -0.0025868 0.011418 0.025933
-0.040463 0.012796 -0.25206 -0.012302
680000000 -0.23425 0.19344 -0.027137 -0.01392 0.0051018 0.0050372 0.0016297 -0.006865
-0.0026691 -0.011419 0.0049071 -0.0066905
-0.027097 -0.013872 -0.38747 0.15773 -0.032554 -0.0010857 -0.0016561 -0.00029202
-0.0019322 -0.0089679 -0.0016876 -0.0018131
0.0050993 0.0050299 -0.0326 -0.00099544 -0.10205 0.28709 -0.00082648 -4.4242e-05
-0.0018532 0.0004232 -0.0030064 -0.0093716
0.001519 -0.0069296 -0.0016674 -0.00028742 -0.00082339 -4.5008e-05 -0.22072 0.1952
-0.02367 -0.0073452 -0.0093314 -0.010316
-0.0028371 -0.011417 -0.0019587 -0.0089654 -0.0018606 0.00040873 -0.023674 -0.0073336
-0.25802 0.043845 -0.0063318 -0.0082016
0.0050076 -0.0066385 -0.0016372 -0.0018239 -0.0029956 -0.0093654 -0.0092836 -0.010338
-0.0063172 -0.0082156 -0.25922 0.093393
740000000 -0.19011 0.18818 -0.038323 0.026378 0.012897 -0.0052992 -0.0004321 -0.0039199
-0.0040994 -0.0028574 -0.0067591 0.0027925
-0.038314 0.026481 -0.33473 0.17691 -0.035435 0.034867 -0.00070189 -0.0063663
-0.011392 0.0082536 -0.0019615 -0.0062237
0.012937 -0.0053043 -0.03535 0.035013 -0.068414 0.28467 -0.0019782 0.0033431
-0.0026523 -0.004566 -0.0015187 0.00062458
-0.00044269 -0.003918 -0.00072646 -0.0063849 -0.0019823 0.003335 -0.20299 0.20297
-0.043198 -0.0072998 0.023232 0.015067
-0.0040392 -0.0029244 -0.011303 0.0083283 -0.0026412 -0.00457 -0.043214 -0.0072413
-0.1609 0.071619 -0.042499 0.00062011
-0.0067701 0.0029086 -0.0019016 -0.0061661 -0.0015329 0.00061412 0.023206 0.015054
-0.04249 0.00056838 -0.24727 0.099109
800000000 -0.1572 0.22793 -0.02247 0.016645 0.0052754 -0.010617 -0.0046691 -0.0017741
-0.0044522 0.0026268 0.0044326 0.0006108
-0.02247 0.016687 -0.33809 0.24613 -0.0079146 0.033976 -0.0024683 0.0022164
-0.00096248 0.0033871 0.00098663 0.0051396
0.0052148 -0.01063 -0.0078481 0.034027 -0.027852 0.30812 0.0010191 0.0016059
0.00037111 0.0035225 -0.0018901 0.00095684
-0.004688 -0.0017359 -0.0024609 0.0022103 0.0010141 0.0016103 -0.17492 0.23044
-0.02844 0.013545 0.013251 -0.0097393
-0.004477 0.0026313 -0.00099494 0.0033559 0.00037619 0.0035103 -0.028441 0.013614
-0.20512 0.095287 -0.0167 0.018452
0.0043783 0.0006855 0.00099973 0.0051225 -0.0019132 0.00094653 0.013225 -0.0097823
-0.016695 0.01842 -0.24238 0.14783
860000000 -0.12243 0.24833 -0.017185 0.030601 -0.0033118 -0.010045 -0.0022581 0.0010216
0.0042174 0.0050176 -0.0034496 -0.0028105
-0.017177 0.030631 -0.29046 0.28817 0.0079673 0.034216 4.0864e-05 0.0020141
0.004672 0.00011154 0.0031957 0.0005322
-0.003338 -0.010018 0.0080792 0.034219 0.019972 0.31596 -0.00051679 -0.0002094
0.0028556 -0.0015123 0.0016898 0.0043353
-0.0022032 0.0010455 6.6456e-05 0.0020158 -0.00051427 -0.00020861 -0.13885 0.24135
-0.017562 0.018872 -0.0060464 -0.0093274
0.0042788 0.0050393 0.0047154 6.3649e-05 0.0028727 -0.001506 -0.017547 0.018938
-0.15428 0.14493 -0.02427 0.015543
-0.0034553 -0.0027424 0.0032036 0.00055981 0.0016768 0.0043319 -0.0060731 -0.0093369
-0.024278 0.01553 -0.19014 0.19193
920000000 -0.097512 0.27074 0.0052956 0.037538 -0.0093623 -0.0046285 -0.0017443 0.0018129
0.0013078 0.0016331 0.0027701 -0.0017084
0.005287 0.037537 -0.26176 0.30955 0.028248 0.021844 0.0014905 0.001115
0.0073094 -0.00069681 0.0039989 -0.0029394
-0.0093742 -0.0046181 0.028337 0.02179 0.066352 0.31683 0.0018022 -0.00014046
0.0013929 -0.00055749 0.00087743 -0.0012138
-0.0017316 0.0018299 0.0015003 0.0011291 0.0018066 -0.00013884 -0.11506 0.2582
-0.010419 0.030153 0.0032571 -0.0068115
0.0013489 0.0016252 0.0073306 -0.0007366 0.0014052 -0.00055267 -0.010362 0.030199
-0.14366 0.14999 -0.0023069 0.026817
0.0026955 -0.0017633 0.0039885 -0.0029824 0.00086725 -0.0012001 0.0032405 -0.0068084
-0.0023123 0.026801 -0.19826 0.20675
980000000 -0.050454 0.28999 0.017608 0.029795 -0.0090663 0.0045779 0.0020894 0.0033837
0.0038958 -0.0018146 -0.0032571 -0.0020747
0.017581 0.029794 -0.20906 0.34327 0.033152 0.0046744 0.0019975 -0.00015458
0.0015632 -0.0061667 -0.00049548 -0.0021486
-0.0090501 0.0045951 0.033194 0.0045695 0.11271 0.31016 0.00046445 -0.0012164
0.00019187 -0.0021282 0.0014175 -0.00016804
0.0020804 0.0033844 0.0020111 -0.00018354 0.00047129 -0.0012223 -0.076665 0.26937
0.0080209 0.03004 -0.0088627 -0.00705
0.0039618 -0.0017925 0.0015288 -0.0061476 0.00019368 -0.0021156 0.0080971 0.030039
-0.11309 0.17994 0.0054525 0.020072
-0.0032939 -0.0020478 -0.00047531 -0.0021919 0.001425 -0.00016403 -0.0088595 -0.0070288
0.0054496 0.020064 -0.15478 0.24989
1040000000 -0.008603 0.29829 0.033192 0.017803 -0.0014008 0.0069464 0.0025353 0.00081271
-6.5904e-05 -0.0033476 -0.00047996 -0.0015515
0.033173 0.017855 -0.17361 0.35636 0.029342 -0.015092 0.0013711 -0.0017169
-0.0026511 -0.0024095 -0.0015226 -0.002872
-0.0013803 0.0069331 0.029283 -0.01521 0.15892 0.2966 -0.00059084 -0.0014651
-0.0016636 -0.00083708 -0.00060639 -0.0011902
0.0025399 0.00078477 0.0013407 -0.0017235 -0.00058898 -0.0014634 -0.049192 0.27998
0.019489 0.017892 -0.0026365 0.00151
-4.5247e-05 -0.0033824 -0.0026724 -0.0024058 -0.001664 -0.00083994 0.019515 0.017859
-0.080341 0.1868 0.013728 0.018217
-0.000492 -0.0015545 -0.0015441 -0.0028938 -0.00060349 -0.0011841 -0.00265 0.0015129
0.013711 0.018226 -0.13377 0.2712
1100000000 0.036751 0.30605 0.035726 -0.0045745 0.0028392 0.0039049 0.0024165 -0.0013271
-0.0020739 -0.0031262 -0.0039109 0.00019876
0.035708 -0.0045385 -0.1302 0.37371 0.015015 -0.028079 3.763e-07 -0.0018345
-0.003506 -0.00063037 -0.0035151 -0.00037551
0.0028533 0.0039049 0.014908 -0.028173 0.20562 0.27607 -0.0018366 0.00031512
-0.0018024 0.0006184 -0.0010586 -0.00030129
0.0024271 -0.0013239 -2.3346e-05 -0.0018532 -0.0018355 0.00031428 -0.0086996 0.28491
0.024664 0.0047618 -0.0025611 0.00019613
-0.0021056 -0.0031066 -0.0035283 -0.00061273 -0.0018084 0.00062434 0.024671 0.0047158
-0.062829 0.20092 0.019304 0.0085925
-0.0038779 0.00025041 -0.0034923 -0.0003526 -0.0010671 -0.00028697 -0.00257 0.0002131
0.019283 0.0085959 -0.087532 0.30011
1160000000 0.087945 0.30099 0.02369 -0.021043 0.0026152 -0.00040698 -0.00019397 -0.0024477
-0.0042515 -0.00068733 -0.00077317 0.0042065
0.023686 -0.020985 -0.086445 0.37808 -0.004039 -0.029127 -0.0017313 -0.001732
-0.0026474 0.0025215 -0.00132 0.0019461
0.0026275 -0.00040994 -0.0041867 -0.029137 0.24857 0.2448 -0.00069032 0.0018185
-0.00048496 0.0020043 -0.00094446 0.00012307
-0.00020654 -0.0024348 -0.0017487 -0.0017376 -0.00069781 0.0018196 0.030686 0.28209
0.020831 -0.010966 -0.0028739 0.005217
-0.0042763 -0.00071146 -0.0026626 0.0025647 -0.0004923 0.0020144 0.020823 -0.010999
-0.028818 0.20964 0.018173 0.00023299
-0.00073127 0.0042867 -0.0013315 0.0019393 -0.00093466 0.00012593 -0.0028579 0.0052407
0.018157 0.0002374 -0.040797 0.30313
1220000000 0.13233 0.28998 0.0099775 -0.030148 -0.0015557 -0.00073013 -4.2144e-05 -0.0009667
-0.0026246 0.0024523 0.001288 0.0020547
0.0099901 -0.030099 -0.041936 0.39012 -0.01719 -0.02105 -0.0025393 0.00051221
0.00016595 0.003036 -0.00077399 0.0018987
-0.0015615 -0.00072969 -0.017302 -0.021004 0.28759 0.20539 0.00084581 0.0016513
0.00068224 0.0012079 0.00027736 0.00063956
-6.0679e-05 -0.00091816 -0.0025313 0.00051546 0.00084109 0.0016519 0.070775 0.27359
0.0099657 -0.017308 0.002141 0.0015129
-0.0026309 0.0024533 0.0001716 0.0030334 0.00067513 0.0012031 0.0099551 -0.017338
-0.0059309 0.21908 0.013995 -0.012983
0.0012517 0.0020785 -0.00075436 0.0019065 0.0002843 0.0006394 0.002146 0.0015113
0.013988 -0.012975 -0.0093046 0.3191
1280000000 0.18206 0.26788 -0.0084256 -0.028388 -0.0018412 0.0026181 -0.00092772 -0.0019894
-0.00076248 0.0031018 0.0025485 0.0010986
-0.0084144 -0.028348 0.0042143 0.38101 -0.023919 -0.0082638 -0.00095171 0.0014779
0.0017463 0.0017685 0.00057693 0.0020187
-0.0018383 0.0026434 -0.023989 -0.0081648 0.31771 0.16123 0.0015348 -7.7725e-05
0.0011101 0.00022217 0.00031594 0.00031258
-0.0009449 -0.0019844 -0.00093415 0.0014806 0.0015289 -7.6312e-05 0.10755 0.2573
0.00039329 -0.019053 -2.5024e-07 0.00020064
-0.00072187 0.0031304 0.0017562 0.0017569 0.0011077 0.00023573 0.0003491 -0.019069
0.031013 0.22289 0.0028634 -0.015074
0.0025504 0.0010493 0.00059868 0.0019957 0.00032074 0.00030117 -1.0964e-06 0.00019577
0.0028625 -0.015067 0.038406 0.32119
1340000000 0.21912 0.23388 -0.017946 -0.01849 0.0010713 0.0045044 -0.0018058 -0.00084137
0.0015388 0.0026326 0.0016453 -0.0014609
-0.017909 -0.0185 0.04367 0.37252 -0.021557 0.0045655 -5.1428e-05 0.001982
0.0019174 0.00066578 0.0013853 0.00081305
0.0010932 0.0044843 -0.021559 0.0046829 0.33922 0.11356 0.0011108 -0.0010211
0.00077062 -0.00042098 0.00020509 0.00030062
-0.0018067 -0.00082734 -4.2184e-05 0.0019818 0.0011057 -0.0010189 0.14035 0.23682
-0.0089055 -0.016002 0.00096631 0.00046925
0.0015375 0.0026158 0.001918 0.00065632 0.00077475 -0.00041652 -0.0089444 -0.015994
0.06118 0.21832 -0.0037394 -0.01352
0.0016633 -0.0014693 0.0013843 0.00078895 0.00020477 0.00031004 0.00097742 0.00045832
-0.0037513 -0.013515 0.0769 0.31594
1400000000 0.25209 0.19537 -0.023441 -0.0069309 0.0052941 0.0030217 -0.0021094 0.00070571
0.0025508 0.00088674 0.00019677 -0.001438
-0.023408 -0.0069516 0.080893 0.35914 -0.014627 0.012608 0.0013227 0.0012415
0.0011149 -0.00089617 0.0011908 0.00014399
0.0053088 0.002997 -0.014591 0.012704 0.35228 0.060332 2.391e-05 -0.0016595
5.4337e-05 -0.00042775 0.0003943 0.0002934
-0.0021126 0.00071415 0.0013261 0.0012375 2.0701e-05 -0.0016643 0.16985 0.20792
-0.014638 -0.0090625 -0.00068191 -0.00038239
0.0025506 0.00088937 0.0011121 -0.00090777 4.5628e-05 -0.00043943 -0.014654 -0.0090355
0.094337 0.21383 -0.010374 -0.0087001
0.00019315 -0.0014323 0.0011954 0.00015137 0.00040477 0.0002895 -0.00068612 -0.00037308
-0.010373 -0.0087223 0.1217 0.3052
1460000000 0.27449 0.15119 -0.020171 0.0052233 0.0056691 -0.0019454 -0.0016046 0.0017318
0.0021267 -0.00062428 -0.00037513 -0.00091946
-0.020159 0.0051955 0.11481 0.33712 -0.0059547 0.015391 0.0016795 0.0001619
0.00074253 -0.0012704 0.0011796 -0.00064334
0.0056415 -0.001971 -0.0058828 0.015443 0.35821 0.0062069 -0.0013282 -0.0011956
0.00018773 -0.0002913 0.00056416 -0.00040598
-0.0015996 0.0017536 0.0016802 0.00015696 -0.0013193 -0.0012096 0.19623 0.17879
-0.015364 -0.002284 -0.00088098 0.0019118
0.0021045 -0.00064363 0.00073051 -0.0012792 0.00019559 -0.00030214 -0.015371 -0.0022437
0.12365 0.19899 -0.011935 -0.0026832
-0.00038949 -0.00091748 0.0011846 -0.00063646 0.00056031 -0.00042928 -0.00085849 0.0019259
-0.011935 -0.0027004 0.15491 0.28375
1520000000 0.28627 0.10921 -0.014306 0.010549 0.0032118 -0.0042784 0.00011639 0.0026381
0.0019538 -0.0017891 -0.0011516 -4.1481e-05
-0.014296 0.010527 0.14807 0.32233 0.001692 0.013035 0.0015928 -0.00077368
5.4032e-07 -0.00096822 0.00026491 -0.0010033
0.003195 -0.0043071 0.0017685 0.013037 0.35143 -0.049788 -0.0011213 -0.0003047
0.00059235 -0.00085142 2.5734e-05 -0.00011377
0.00011271 0.002643 0.0015855 -0.00077377 -0.0011154 -0.00031044 0.2194 0.14084
-0.014299 0.0032859 0.0014962 0.0019552
0.0019461 -0.0018041 -6.4472e-06 -0.00096704 0.00059111 -0.00085569 -0.0143 0.0033277
0.15155 0.18459 -0.011698 0.0019499
-0.0011671 -5.5291e-05 0.00025591 -0.0010182 2.5928e-05 -0.00011691 0.0014945 0.0019388
-0.011699 0.0019497 0.18812 0.26336
1580000000 0.29505 0.063091 -0.007574 0.01342 -0.00086159 -0.0048292 0.001477 0.0018938
-0.00035172 -0.0021169 -0.00030236 0.00040327
-0.0075829 0.013408 0.1751 0.29757 0.0052774 0.0081946 0.00047224 -0.0015539
-0.0004974 -0.00098315 -0.00025387 -0.0008485
-0.00088329 -0.0048403 0.0053307 0.0081775 0.33139 -0.10734 -0.0015611 0.00066841
-0.00022968 -0.0011265 0.00016722 -0.00050355
0.0014677 0.0018952 0.00045885 -0.0015533 -0.0015664 0.00067423 0.23327 0.10152
-0.010503 0.0077374 0.0021055 0.00063754
-0.00034915 -0.0021255 -0.0005038 -0.00098577 -0.00021607 -0.0011285 -0.010491 0.0077664
0.17592 0.16636 -0.0092374 0.0075006
-0.00029665 0.00040643 -0.00026397 -0.00085628 0.00016035 -0.00051898 0.0020976 0.0006241
-0.0092366 0.007497 0.22008 0.2362
1640000000 0.29668 0.022021 -0.00096027 0.012083 -0.0028015 -0.0026475 0.0026986 0.00093987
-0.00084311 -0.0014642 -0.00027822 0.0005918
-0.00097766 0.012074 0.2043 0.27276 0.0059223 0.0034454 -0.00069141 -0.0017037
-0.00097273 -0.00037699 -0.00054562 -0.00065683
-0.0028354 -0.0026353 0.0059475 0.0034079 0.30306 -0.15596 -0.00066622 0.0014527
-0.0012781 -0.00088819 -0.00016631 -0.00037362
0.0027022 0.00094035 -0.00070327 -0.001702 -0.00066516 0.0014582 0.24546 0.052879
-0.0062761 0.0085627 0.0024829 -0.00078422
-0.00084169 -0.0014691 -0.00097209 -0.00036418 -0.0012786 -0.00088789 -0.0062725 0.0085862
0.19838 0.1418 -0.0044034 0.0093924
-0.00028555 0.00060912 -0.00054919 -0.00066144 -0.00016967 -0.00037282 0.0024798 -0.00078217
-0.0044077 0.009386 0.24545 0.20518
1700000000 0.28936 -0.022937 0.0023067 0.0090828 -0.0035457 -7.5064e-06 0.0029976 -0.0013311
-0.0019828 -0.00060548 0.00063063 0.00038057
0.0022926 0.0090789 0.22237 0.24131 0.0039726 0.00048151 -0.0014603 -0.00058956
-0.00068098 -1.5494e-05 -0.00093522 -0.00044652
-0.0035425 -1.8589e-06 0.0039817 0.00045675 0.26027 -0.19576 0.00045962 0.0015191
-0.0017654 -0.00013449 -0.00053346 -0.00098411
0.0029743 -0.0013504 -0.0014572 -0.00057674 0.00046067 0.0015226 0.24242 0.0034036
-0.0037185 0.0086251 0.001559 -0.0022396
-0.0020014 -0.00059162 -0.00067825 -6.2597e-06 -0.0017677 -0.00013553 -0.0036944 0.0086519
0.21545 0.12124 0.00033013 0.0096139
0.00065576 0.00037393 -0.00093978 -0.00043642 -0.00052976 -0.00097283 0.0015553 -0.002239
0.00033303 0.0096143 0.26184 0.17052
1760000000 0.277 -0.071228 0.0043498 0.0057807 -0.0023609 0.00097832 0.0012269 -0.0034485
-0.0012734 0.00075158 0.00035665 -0.00059258
0.0043396 0.005776 0.24817 0.20163 0.0016539 -0.0013919 -0.001167 0.00017913
-0.0010086 0.00082097 -0.00053145 0.00043835
-0.0023525 0.0010112 0.0016503 -0.0014069 0.21221 -0.22989 0.0012929 0.00091922
-0.0010255 0.0015185 -0.0011732 -0.00037498
0.0012129 -0.0034595 -0.0011605 0.00018297 0.0012853 0.00091933 0.23338 -0.047709
-0.00097031 0.0077233 -0.00021375 -0.0024937
-0.0012699 0.00076464 -0.0010047 0.00083354 -0.0010218 0.0015161 -0.00095481 0.0077298
0.22972 0.085874 0.0042295 0.0070162
0.00035975 -0.00057882 -0.00051821 0.0004488 -0.0011772 -0.0003556 -0.00021275 -0.0024836
0.0042324 0.0070067 0.27427 0.13255
1820000000 0.25243 -0.10822 0.0043198 0.0023552 -0.0001336 0.0024826 -0.0010477 -0.0030627
-0.00090343 0.00089187 -0.0001226 -0.00018234
0.0043109 0.0023563 0.25813 0.17177 -0.00046903 -0.00017493 -0.0012961 0.00095321
-0.00010862 0.0012491 -0.0005226 0.00051884
-0.00012736 0.002503 -0.000473 -0.00017039 0.16143 -0.24572 0.0014062 0.00046321
-0.00022905 0.0021791 -0.001387 0.00044779
-0.0010373 -0.0030635 -0.0012904 0.00096658 0.0014083 0.00046523 0.20378 -0.094623
0.00016884 0.0061917 -0.0016791 -0.0015811
-0.00089882 0.00091849 -9.6716e-05 0.0012528 -0.00022752 0.0021693 0.00018646 0.0061951
0.24635 0.056607 0.005096 0.0033424
-8.2312e-05 -0.00016642 -0.00051143 0.00052704 -0.0013951 0.0004623 -0.0016951 -0.0015718
0.0050946 0.0033479 0.27631 0.096357
1880000000 0.21741 -0.14839 0.0021039 0.00023858 -0.00035745 0.002285 -0.0029482 -0.0021879
-0.00011782 0.0014931 0.00018685 -0.00057892
0.0021014 0.00022964 0.26261 0.12531 -0.0025626 0.0016952 -0.00015513 0.0016626
0.00054307 0.0012611 9.5943e-05 0.00088534
-0.00033325 0.0022886 -0.0025517 0.0017235 0.1084 -0.25533 0.0017411 -0.00094835
0.0014286 0.00191 -0.001001 0.0013172
-0.0029859 -0.0021709 -0.00014333 0.0016596 0.0017455 -0.00094499 0.16359 -0.13471
0.00062377 0.0044923 -0.0024565 0.00035112
-0.00011823 0.0015021 0.00056869 0.0012626 0.0014181 0.0019035 0.00063139 0.0044909
0.24875 0.023917 0.0050168 0.0011891
0.00018085 -0.00061292 0.00010261 0.00087651 -0.0009877 0.0013285 -0.0024723 0.00036444
0.0050131 0.00119 0.27586 0.061976
1940000000 0.17806 -0.17388 -9.9554e-05 -0.0013494 0.0015776 0.0019513 -0.0037716 0.0005957
0.0012575 0.001019 -0.00059071 -0.00052966
-9.7958e-05 -0.0013262 0.26319 0.093569 -0.001226 0.004012 0.0010012 0.0012905
0.0018257 0.00053539 0.00083834 0.00030257
0.0015844 0.0019338 -0.0011884 0.0040295 0.062843 -0.24853 0.00047248 -0.0022182
0.0024415 0.00034297 0.00026152 0.0016005
-0.0037917 0.00065039 0.0010166 0.0012823 0.00048848 -0.0022254 0.11167 -0.1652
-0.00036007 0.0035387 -0.0014594 0.001501
0.0012599 0.001001 0.0018384 0.00052145 0.002433 0.00035116 -0.00035519 0.0035379
0.25 -0.015099 0.0036734 -0.0022672
-0.00061431 -0.00052503 0.00083346 0.00030611 0.00027687 0.0016013 -0.001457 0.0015255
0.003672 -0.0022642 0.26473 0.026158
2000000000 0.13204 -0.1887 -0.0039689 0.00078194 0.0024489 0.0014422 -0.0022841 0.003645
0.00099722 0.00022269 -0.00061773 0.00024047
-0.0039397 0.00077116 0.2491 0.058116 -0.00087974 0.0058837 0.0016417 0.000322
0.0013848 -0.0013 0.00045404 0.00014276
0.0024599 0.0014326 -0.00084713 0.0058879 0.019194 -0.234 -0.0012768 -0.0013134
0.0019093 -0.0010737 0.0016316 0.001351
-0.0023126 0.0037086 0.0016265 0.00032298 -0.0012833 -0.001325 0.058463 -0.17537
-0.0019227 0.0038313 -0.00022108 0.0023322
0.00093834 0.00019961 0.0013702 -0.0013178 0.0019116 -0.0010889 -0.0019149 0.0038447
