!Keysight Technologies,M9804A,MY58100912,A.14.10.03
!Date: Thursday, April 27, 2023 10:28:33
!Correction: S11(C  6-Port  ) 
!S12(C  6-Port  ) 
!S13(C  6-Port  ) 
!S14(C  6-Port  ) 
!S15(C  6-Port  ) 
!S16(C  6-Port  ) 
!S21(C  6-Port  ) 
!S22(C  6-Port  ) 
!S23(C  6-Port  ) 
!S24(C  6-Port  ) 
!S25(C  6-Port  ) 
!S26(C  6-Port  ) 
!S31(C  6-Port  ) 
!S32(C  6-Port  ) 
!S33(C  6-Port  ) 
!S34(C  6-Port  ) 
!S35(C  6-Port  ) 
!S36(C  6-Port  ) 
!S41(C  6-Port  ) 
!S42(C  6-Port  ) 
!S43(C  6-Port  ) 
!S44(C  6-Port  ) 
!S45(C  6-Port  ) 
!S46(C  6-Port  ) 
!S51(C  6-Port  ) 
!S52(C  6-Port  ) 
!S53(C  6-Port  ) 
!S54(C  6-Port  ) 
!S55(C  6-Port  ) 
!S56(C  6-Port  ) 
!S61(C  6-Port  ) 
!S62(C  6-Port  ) 
!S63(C  6-Port  ) 
!S64(C  6-Port  ) 
!S65(C  6-Port  ) 
!S66(C  6-Port  ) 
!S6P File: Measurement: :
# Hz S  RI   R 50
500000000 -0.3369 -0.038591 -0.0092571 -0.0029134 -0.0080658 0.013197 -0.003902 0.01155
0.014087 0.0033561 -0.0043005 0.0085129
-0.0092633 -0.0027729 -0.41789 -0.051818 0.0078289 -0.010796 0.0015025 0.012025
0.0083096 0.0021895 0.0019265 0.013457
-0.0080886 0.013263 0.0078561 -0.010861 -0.26584 0.20974 0.0072748 0.0032912
-0.0010607 0.0081107 0.0013419 0.012032
-0.0037204 0.011741 0.0015984 0.012125 0.0072256 0.0033129 -0.33008 0.044146
-0.019439 -0.0053993 0.016867 0.025713
0.014216 0.0033899 0.0082041 0.0020689 -0.0010671 0.0081042 -0.019447 -0.0054184
-0.22507 -0.19464 -0.026565 0.0056967
-0.0041772 0.0086788 0.0019706 0.013529 0.0012746 0.012022 0.016932 0.025735
-0.026609 0.005688 -0.2666 -0.1287
560000000 -0.3183 0.12528 -0.02356 -0.062703 -0.00041756 0.013166 0.0059468 0.011109
0.010599 0.0058835 0.010626 0.0084218
-0.023625 -0.06257 -0.37611 0.10705 -0.041317 -0.036852 0.013741 0.0035052
-0.013548 -0.0047147 0.0043486 0.00084287
-0.00051423 0.013155 -0.041483 -0.036835 -0.18335 0.25794 -0.00026411 -0.0045545
0.019716 0.0054039 0.0063079 -0.0061675
0.0059208 0.011086 0.01365 0.0035488 -0.00027372 -0.0045563 -0.30582 0.13332
0.0046034 -0.024261 0.0045487 -0.021545
0.010754 0.0058338 -0.013571 -0.0047845 0.019836 0.0054794 0.004529 -0.024347
-0.29077 -0.020434 0.0089183 -0.049659
0.010453 0.0083593 0.0042967 0.00082191 0.0062734 -0.0061581 0.0045964 -0.021582
0.0090171 -0.049649 -0.33006 0.019251
620000000 -0.27538 0.10712 -0.023264 0.0084333 0.0032858 0.0090443 0.0077403 -0.0050881
0.011058 -0.00033471 0.0005282 -0.0025251
-0.023226 0.0083412 -0.40262 0.059883 -0.018541 0.00036662 -0.0018091 -0.0017462
0.011692 -0.0068125 0.0016833 -0.0030184
0.0033863 0.0088114 -0.018535 0.00040347 -0.15337 0.26706 -0.0013242 -0.0050061
-0.0033405 -0.0034217 0.0091851 -0.002932
0.0078831 -0.0051656 -0.0018027 -0.001713 -0.0013512 -0.0049877 -0.26478 0.14293
-0.038082 -0.01862 0.011833 0.02536
0.010964 -0.00059659 0.011661 -0.0068769 -0.003324 -0.0035184 -0.038067 -0.018562
-0.20659 -0.056974 -0.040837 0.013952
0.00062426 -0.0025759 0.0017052 -0.0030427 0.0092014 -0.0028485 0.011859 0.025406
-0.040855 0.013925 -0.252 -0.017738
680000000 -0.23423 0.19306 -0.027061 -0.014025 0.0054014 0.0049014 0.001862 -0.0065084
-0.0027102 -0.011629 0.0055138 -0.0070715
-0.027012 -0.014005 -0.38777 0.15747 -0.032515 -0.0013639 -0.0016634 -0.00024743
-0.0019364 -0.0091949 -0.0014058 -0.0023544
0.0054702 0.0050463 -0.032557 -0.0012363 -0.10213 0.28645 -0.00091013 -9.9851e-05
-0.0018639 0.00035599 -0.0029285 -0.0094733
0.0017915 -0.0064439 -0.0016894 -0.00028284 -0.00091879 -0.00014604 -0.22122 0.19444
-0.023177 -0.0072835 -0.0088078 -0.010442
-0.0027489 -0.011575 -0.0019483 -0.0091636 -0.0018779 0.00041824 -0.023202 -0.0073283
-0.25917 0.040325 -0.0054066 -0.0086801
0.005385 -0.006909 -0.001445 -0.0023265 -0.002962 -0.0095449 -0.0088086 -0.010485
-0.0053667 -0.0087019 -0.25935 0.089639
740000000 -0.19046 0.18744 -0.038176 0.026601 0.012936 -0.0049881 -0.00056318 -0.0038863
-0.0042177 -0.002736 -0.0060798 0.0028745
-0.038072 0.026542 -0.33505 0.17683 -0.035161 0.03488 -0.00057288 -0.0061635
-0.011371 0.0075169 -0.0019691 -0.0059652
0.012833 -0.0049823 -0.035129 0.035007 -0.068444 0.28463 -0.0019576 0.0035551
-0.0027274 -0.0048368 -0.0017064 0.0011463
-0.00053202 -0.0039412 -0.00055597 -0.0061951 -0.001947 0.0035811 -0.20361 0.20201
-0.043256 -0.0064234 0.022946 0.014517
-0.0041555 -0.0028583 -0.011503 0.0075027 -0.0028018 -0.0049125 -0.043239 -0.0064052
-0.16101 0.066544 -0.043143 0.0013949
-0.0060898 0.0029808 -0.001787 -0.0059409 -0.0016485 0.0012346 0.022951 0.014563
-0.043144 0.0012989 -0.24859 0.095202
800000000 -0.1574 0.22815 -0.022561 0.016694 0.0051088 -0.010554 -0.0048453 -0.002055
-0.0043213 0.0029036 0.0038712 0.00058842
-0.022477 0.01668 -0.33827 0.24622 -0.0080097 0.033914 -0.0025882 0.002088
-0.00096638 0.0034911 0.00071975 0.0052163
0.0051796 -0.010608 -0.0079068 0.034009 -0.028026 0.30792 0.00093927 0.0014221
0.0003106 0.0036946 -0.0020935 0.00060095
-0.0047824 -0.0019327 -0.0026007 0.0020985 0.00090436 0.0013989 -0.17502 0.22975
-0.028358 0.013826 0.013532 -0.010371
-0.0043252 0.0028651 -0.00093409 0.0034873 0.0002987 0.0036929 -0.028362 0.013894
-0.20667 0.091516 -0.017433 0.019123
0.0040742 0.00061275 0.00069874 0.0052196 -0.0022571 0.00062729 0.013516 -0.010459
-0.017394 0.019101 -0.2425 0.14475
860000000 -0.12297 0.24797 -0.017355 0.030697 -0.0033354 -0.0099366 -0.0026731 0.0010838
0.0041267 0.0050333 -0.0034038 -0.0027087
-0.017262 0.030613 -0.2906 0.28846 0.0078929 0.034136 0.00012334 0.0020252
0.0044029 9.6744e-05 0.0031244 0.00056614
-0.0033301 -0.0098451 0.0080155 0.034162 0.020076 0.31573 -0.00061108 -0.00015272
0.0028968 -0.0014876 0.001599 0.0044727
-0.0028207 0.0010795 0.00014382 0.0019942 -0.00059051 -0.00013646 -0.13933 0.24047
-0.018086 0.018623 -0.0061231 -0.009086
0.0042155 0.0049999 0.0043642 0.00016864 0.002883 -0.001476 -0.018049 0.0187
-0.15591 0.14241 -0.024918 0.015464
-0.0034564 -0.002478 0.0030116 0.000508 0.0016619 0.0043966 -0.006127 -0.0090427
-0.024978 0.015452 -0.19143 0.19082
920000000 -0.09762 0.27073 0.0053444 0.037814 -0.0092775 -0.0045141 -0.0018038 0.0019998
0.0012942 0.0016347 0.0027078 -0.0015042
0.0053961 0.037727 -0.26145 0.30949 0.028191 0.021881 0.0015205 0.0010407
0.0075378 -0.00015517 0.0040829 -0.0029578
-0.0093152 -0.0044217 0.028307 0.021807 0.066293 0.31643 0.0018698 -0.00012629
0.0013277 -0.00043127 0.00087933 -0.0011648
-0.001822 0.0019481 0.0015495 0.00098817 0.001871 -9.6822e-05 -0.11505 0.25781
-0.010481 0.029943 0.0033388 -0.0068948
0.0014367 0.0017016 0.0075668 -0.00020828 0.0013308 -0.00048244 -0.01043 0.029972
-0.14546 0.14729 -0.0025893 0.026941
0.0026938 -0.0015902 0.0040066 -0.0030088 0.00089207 -0.0011459 0.0033276 -0.0069195
-0.0026223 0.026904 -0.19953 0.20419
980000000 -0.051093 0.2898 0.017492 0.029751 -0.0090228 0.0045792 0.0020047 0.0033833
0.0038859 -0.0015825 -0.0031396 -0.0022113
0.017469 0.029763 -0.20887 0.34316 0.033022 0.0047239 0.0018997 -0.00022397
0.0015264 -0.0062246 -0.00044244 -0.0022387
-0.009016 0.0045684 0.033104 0.0046174 0.11256 0.30976 0.00043139 -0.0012025
0.00014745 -0.0022006 0.0013897 -0.00012516
0.0020562 0.0033878 0.0019321 -0.00021253 0.00041735 -0.0012158 -0.076953 0.26898
0.007851 0.029931 -0.0089756 -0.0071158
0.0038663 -0.0015613 0.0015014 -0.0061991 0.00015123 -0.0021989 0.007918 0.029941
-0.11565 0.17775 0.0051008 0.019632
-0.0030855 -0.0021748 -0.00040035 -0.0022515 0.0013857 -0.00013259 -0.0090051 -0.0070876
0.005053 0.019672 -0.15655 0.2483
1040000000 -0.0090064 0.29811 0.033184 0.017727 -0.0012841 0.0068132 0.0025168 0.00073477
-8.8177e-05 -0.0034371 -0.00037162 -0.0013504
0.033167 0.01778 -0.17332 0.3561 0.029238 -0.015002 0.0014695 -0.0017582
-0.0025773 -0.0024565 -0.0014364 -0.0027573
-0.0012434 0.0068198 0.029245 -0.015152 0.15865 0.2961 -0.0005388 -0.0014943
-0.001608 -0.00089544 -0.00062081 -0.0011927
0.0025215 0.00073792 0.001487 -0.0017474 -0.00054754 -0.0014956 -0.04936 0.27933
0.019087 0.01771 -0.0023672 0.001499
-0.00010202 -0.0034276 -0.0026225 -0.0024506 -0.0016212 -0.00090185 0.019131 0.01766
-0.083659 0.18482 0.013231 0.018507
-0.00046031 -0.0013352 -0.0014133 -0.0027489 -0.00063643 -0.0011806 -0.0023663 0.001502
0.013229 0.018489 -0.13547 0.2697
1100000000 0.036499 0.30613 0.035653 -0.0045228 0.0028376 0.0038307 0.0024365 -0.001286
-0.0020701 -0.0029617 -0.0041238 0.00017787
0.035648 -0.0044748 -0.13003 0.37337 0.014975 -0.027951 8.7701e-06 -0.0018028
-0.0034577 -0.00063365 -0.0037139 -0.00031769
0.0028364 0.0038008 0.014892 -0.028052 0.20515 0.27565 -0.0018847 0.00025286
-0.0017188 0.00060197 -0.0010869 -0.00022944
0.0024613 -0.0012882 1.1902e-05 -0.0017984 -0.0018897 0.00025658 -0.0090668 0.28441
0.024265 0.0049084 -0.0025375 0.00021272
-0.0021241 -0.0029021 -0.0034869 -0.00061002 -0.0017073 0.00061365 0.024281 0.0048797
-0.065603 0.19968 0.018929 0.0088121
-0.0040654 0.00010256 -0.0036896 -0.00028292 -0.001071 -0.00025323 -0.002525 0.00020723
0.01893 0.008814 -0.089348 0.29905
1160000000 0.087545 0.30095 0.023565 -0.020905 0.002617 -0.00046444 -0.00020635 -0.0023854
-0.00412 -0.00064284 -0.00084982 0.0041143
0.02353 -0.020844 -0.086608 0.37758 -0.0039566 -0.02902 -0.0017339 -0.001733
-0.002532 0.0024714 -0.001403 0.0018181
0.0025948 -0.00044528 -0.0040598 -0.029048 0.24793 0.24465 -0.00070869 0.001758
-0.00047133 0.0019252 -0.0010379 0.00016767
-0.00025582 -0.0023998 -0.001752 -0.0017372 -0.00071266 0.0017478 0.030117 0.28164
0.020542 -0.01049 -0.0029778 0.0052492
-0.0041287 -0.000594 -0.0025687 0.0024855 -0.00048435 0.0019102 0.02056 -0.010514
-0.03173 0.20884 0.017945 0.00054894
-0.000812 0.0041886 -0.0014104 0.0018991 -0.0010432 0.00021335 -0.0029715 0.0052515
0.01793 0.00055801 -0.042893 0.30196
1220000000 0.13215 0.29001 0.010023 -0.030036 -0.0016042 -0.0007449 -1.1105e-05 -0.00085931
-0.0025931 0.0024962 0.0013457 0.0020809
0.010043 -0.029989 -0.042162 0.38956 -0.017021 -0.021073 -0.0025175 0.00051007
0.00011233 0.0029805 -0.00079201 0.0018625
-0.0016356 -0.00073273 -0.017142 -0.021035 0.287 0.20551 0.00080748 0.0016306
0.00071632 0.0011999 0.00029134 0.00071942
-5.8479e-06 -0.00088487 -0.0025085 0.00050633 0.00082552 0.001633 0.069948 0.27334
0.0099779 -0.01691 0.0023568 0.0015503
-0.002599 0.0025409 0.00013938 0.003008 0.00072534 0.0012073 0.0099376 -0.016933
-0.0085354 0.21842 0.013881 -0.0128
0.0013549 0.0020637 -0.00080601 0.0018789 0.0002976 0.00073393 0.0023581 0.0015512
0.013877 -0.012765 -0.011029 0.31873
1280000000 0.18174 0.26781 -0.0082795 -0.028235 -0.0018832 0.002637 -0.00096789 -0.0020183
-0.00065359 0.0030771 0.0025633 0.0010412
-0.0082314 -0.028196 0.0037191 0.38058 -0.02379 -0.00835 -0.00096485 0.0014382
0.001759 0.0017266 0.00062 0.0019791
-0.0018576 0.0026179 -0.023874 -0.0082816 0.3173 0.16154 0.0015171 -8.592e-05
0.0011161 0.0001727 0.00036213 0.00031354
-0.00097698 -0.002016 -0.00097291 0.0014375 0.0015035 -7.1053e-05 0.10674 0.25712
0.00067451 -0.018564 9.1568e-06 0.00021469
-0.00066478 0.0030494 0.0017515 0.0016986 0.001102 0.00016777 0.00063967 -0.018582
0.028105 0.22263 0.0029295 -0.014739
0.0026096 0.0010563 0.00062509 0.0019941 0.00039214 0.00031869 2.4785e-06 0.00024479
0.0029354 -0.014723 0.036476 0.32087
1340000000 0.21876 0.23386 -0.017784 -0.018484 0.00094696 0.0044872 -0.0016931 -0.00085041
0.0015784 0.0025223 0.0016322 -0.0013828
-0.017751 -0.018466 0.043002 0.37239 -0.021577 0.0043735 -9.4949e-05 0.0019718
0.00186 0.00072688 0.0013568 0.00086388
0.00097749 0.0045039 -0.021603 0.0044943 0.33902 0.11398 0.0011218 -0.00099217
0.00079034 -0.00038125 0.00023152 0.00026529
-0.0016773 -0.00084599 -7.17e-05 0.0019649 0.0011254 -0.00099895 0.13958 0.23727
-0.0084442 -0.015698 0.0011367 0.00045135
0.0015932 0.0025126 0.0018716 0.00071021 0.00077786 -0.00038142 -0.0084795 -0.015692
0.057944 0.21849 -0.0034992 -0.013233
0.0016131 -0.001417 0.0013703 0.00086 0.00021741 0.000277 0.0011261 0.00043571
-0.0034974 -0.013236 0.07467 0.31603
1400000000 0.25165 0.19556 -0.023239 -0.0070622 0.0052542 0.0030624 -0.002147 0.00069247
0.0024862 0.00083781 0.00022976 -0.0014288
-0.023222 -0.0070565 0.080264 0.35921 -0.01476 0.012424 0.0013131 0.0012616
0.0011718 -0.00083255 0.001233 0.00016241
0.0052809 0.0030466 -0.014755 0.012534 0.35215 0.060626 6.4992e-05 -0.0015943
4.4499e-05 -0.00038395 0.00053829 0.00028327
-0.0021685 0.00069662 0.0013239 0.0012545 5.1406e-05 -0.0015818 0.16919 0.20841
-0.014048 -0.0091172 -0.00071558 -0.00050705
0.0024948 0.00082877 0.0011553 -0.00084168 4.6588e-05 -0.00038904 -0.014074 -0.0090825
0.091203 0.21442 -0.0099971 -0.0085644
0.0002209 -0.0014475 0.0012418 0.00014545 0.00054681 0.00028223 -0.00071996 -0.00049212
-0.0099753 -0.0085919 0.11961 0.30515
1460000000 0.27397 0.15147 -0.020074 0.004994 0.0055858 -0.0019023 -0.0015767 0.0017554
0.00207 -0.00054639 -0.00039326 -0.00096948
-0.020059 0.0049679 0.11432 0.33749 -0.0061458 0.015383 0.0017091 0.00016241
0.00080326 -0.0012685 0.0011959 -0.00055681
0.0056165 -0.0018963 -0.0060982 0.015461 0.35821 0.0065097 -0.0012671 -0.001231
0.00024068 -0.00025563 0.00060571 -0.00034494
-0.0015991 0.0017542 0.0017202 0.00015129 -0.0012646 -0.001233 0.19579 0.17948
-0.014893 -0.0026811 -0.00091254 0.001869
0.0020612 -0.00055368 0.00078562 -0.001264 0.00023975 -0.00023866 -0.014918 -0.0026639
0.12066 0.20006 -0.011562 -0.0027227
-0.00040368 -0.0009962 0.0012037 -0.00054435 0.00059937 -0.0003598 -0.00092596 0.0018413
-0.011569 -0.0027212 0.15289 0.28425
1520000000 0.28598 0.10966 -0.014334 0.010363 0.0032321 -0.0042237 0.00010375 0.0025943
0.0019535 -0.0017108 -0.0010948 -8.3284e-05
-0.014319 0.010345 0.1478 0.32279 0.0015482 0.013119 0.0016157 -0.00080689
-1.8045e-05 -0.00099078 0.00036232 -0.0010051
0.003231 -0.0042376 0.0016226 0.013148 0.3515 -0.049643 -0.0011191 -0.00032591
0.00062231 -0.00087574 6.654e-05 -0.00012414
0.00011817 0.002607 0.0016077 -0.00081795 -0.0011272 -0.00031926 0.21932 0.14169
-0.014091 0.0027989 0.0013698 0.0018692
0.0019617 -0.0017226 -6.7992e-06 -0.00098732 0.0006166 -0.00087299 -0.014104 0.0028544
0.14878 0.18645 -0.011428 0.0016276
-0.0010928 -5.1291e-05 0.00033286 -0.0010101 6.835e-05 -0.00012394 0.0013805 0.0018768
-0.011427 0.0016176 0.18621 0.26404
1580000000 0.29494 0.063498 -0.0077199 0.013255 -0.00081983 -0.0048428 0.0014769 0.0019154
-0.00032822 -0.0020405 -0.00029693 0.00037393
-0.0077227 0.013229 0.17506 0.29802 0.0052168 0.008321 0.0004531 -0.0015826
-0.00048405 -0.0010259 -0.00024062 -0.0009091
-0.00082493 -0.0048663 0.0052866 0.0083321 0.33144 -0.10737 -0.0015301 0.00065209
-0.00024319 -0.0010963 0.00015066 -0.00055477
0.0014744 0.0018961 0.00045183 -0.0015869 -0.0015305 0.00062838 0.23351 0.10228
-0.010644 0.0073537 0.0020595 0.00065048
-0.00033862 -0.0020304 -0.00048861 -0.0010134 -0.00025037 -0.0011059 -0.010616 0.0073663
0.17328 0.1686 -0.0089198 0.0070992
-0.00033518 0.00040232 -0.00024632 -0.00090911 0.00013731 -0.00055277 0.0020629 0.00065462
-0.008922 0.007099 0.2186 0.23722
1640000000 0.29665 0.022438 -0.0011962 0.012036 -0.0028036 -0.0026628 0.0026747 0.00096849
-0.0007518 -0.001444 -0.00031964 0.00062867
-0.0012029 0.012024 0.20442 0.2731 0.0059293 0.0035612 -0.00072332 -0.0017023
-0.00097808 -0.00038921 -0.00053664 -0.00065485
-0.0028127 -0.0026596 0.0059787 0.0035462 0.30301 -0.15611 -0.00069435 0.0014749
-0.0012077 -0.00086023 -0.00019304 -0.00031583
0.0027042 0.00096375 -0.0007292 -0.0016862 -0.00069538 0.0014873 0.2459 0.053461
-0.006642 0.0082091 0.0024787 -0.00074068
-0.00077027 -0.0014341 -0.00098993 -0.00038118 -0.0012279 -0.00084564 -0.0066549 0.0082589
0.19624 0.14415 -0.0045118 0.0091926
-0.00029186 0.0006229 -0.00052595 -0.00065947 -0.0001827 -0.00032316 0.0024888 -0.00074778
-0.0045127 0.0091769 0.24398 0.206
1700000000 0.28961 -0.022656 0.0020995 0.0092063 -0.0035277 -2.9627e-05 0.0029526 -0.0012608
-0.0018995 -0.00060866 0.0006136 0.0004969
0.002089 0.009192 0.22265 0.24151 0.0040577 0.00049239 -0.001476 -0.0006202
-0.00072579 -3.4186e-05 -0.00095196 -0.00045617
-0.0035328 -4.8287e-05 0.0040821 0.00046626 0.26032 -0.19608 0.00042606 0.0014322
-0.0018387 -0.00021227 -0.00051901 -0.00088172
0.002937 -0.0012817 -0.0014894 -0.00059343 0.00041647 0.0014366 0.24311 0.0036202
-0.0041059 0.0086618 0.0014351 -0.002351
-0.0019074 -0.00057844 -0.00074527 -1.9681e-05 -0.001851 -0.00021259 -0.0040704 0.0086559
0.21385 0.12396 0.00024458 0.0093512
0.00060251 0.00047621 -0.00093392 -0.0004691 -0.00051733 -0.00086621 0.0014255 -0.0023332
0.00026417 0.0093644 0.2605 0.17158
1760000000 0.2772 -0.071085 0.0042547 0.0059608 -0.0023594 0.00087434 0.0012383 -0.0033953
-0.0013414 0.00073022 0.00039917 -0.0005811
0.0042565 0.0059644 0.24843 0.20162 0.0017438 -0.0013877 -0.0011749 0.0002046
-0.0010724 0.00086474 -0.00055291 0.00047308
-0.002355 0.00089669 0.0017635 -0.0014165 0.21186 -0.23002 0.001267 0.00099581
-0.001024 0.00149 -0.0011911 -0.00034579
0.0012406 -0.0033893 -0.0011848 0.00020947 0.0012485 0.000992 0.2338 -0.047861
-0.0011558 0.0077948 -0.0002117 -0.0023418
-0.0013324 0.0007396 -0.0010537 0.00086855 -0.0010292 0.0014616 -0.0011719 0.007814
0.22868 0.088625 0.0039719 0.0069124
0.00041053 -0.00059831 -0.00054326 0.00048403 -0.0011811 -0.00034586 -0.00021533 -0.0023421
0.0039634 0.0069045 0.27319 0.13352
1820000000 0.25264 -0.10833 0.0044045 0.0025097 -0.00018851 0.0025277 -0.0010675 -0.0030706
-0.0010205 0.00078025 -6.1916e-05 -0.00015021
0.0043978 0.002513 0.25838 0.1716 -0.00041793 -0.00016292 -0.0012805 0.00093068
-7.45e-05 0.0012627 -0.00053573 0.00053005
-0.00019964 0.0025325 -0.00040113 -0.00018249 0.16077 -0.24549 0.0014571 0.00041752
-0.00028351 0.002186 -0.0014735 0.00037922
-0.0011 -0.0030888 -0.0012675 0.00092177 0.0014684 0.00040732 0.20417 -0.094971
2.0097e-05 0.0064528 -0.0017261 -0.001561
-0.0010238 0.00078097 -7.2141e-05 0.0012585 -0.00024115 0.0021818 6.2898e-05 0.0064572
0.24556 0.059579 0.0049708 0.0032149
-5.335e-05 -0.00015433 -0.00053631 0.00052033 -0.0014955 0.00040122 -0.0017359 -0.0015448
0.004999 0.0032231 0.27562 0.097874
1880000000 0.21732 -0.14869 0.0022343 0.00026211 -0.00035977 0.0022814 -0.0029988 -0.0021633
-0.0002552 0.0015933 0.00025021 -0.00065027
0.0022212 0.00025782 0.26276 0.12497 -0.0024375 0.0016346 -0.00012921 0.0016289
0.00062298 0.0012918 0.00010003 0.00092439
-0.00037486 0.0022794 -0.002432 0.0016293 0.10836 -0.25513 0.001785 -0.0010177
0.0014076 0.0019781 -0.00087649 0.0014017
-0.0030218 -0.0021362 -0.00012741 0.0016134 0.0017905 -0.0010224 0.1635 -0.13521
0.00069418 0.0044844 -0.0023145 0.00051019
-0.00023941 0.0016068 0.00063616 0.001267 0.0014354 0.0019366 0.00064845 0.0044783
0.24831 0.026539 0.0048452 0.0013269
0.00027347 -0.00061727 0.00012594 0.0009487 -0.0008591 0.0013788 -0.002293 0.00049452
0.0047905 0.0013153 0.27528 0.063098
1940000000 0.17779 -0.17396 6.4185e-06 -0.0013571 0.0015187 0.0019874 -0.0038647 0.0006101
0.001198 0.00098306 -0.00059792 -0.00059858
4.7431e-06 -0.001363 0.26316 0.093251 -0.001203 0.0039531 0.00099805 0.0012413
0.0018686 0.00047815 0.00086721 0.00028546
0.0015214 0.0019516 -0.0011817 0.0039459 0.062762 -0.24837 0.00040468 -0.0021092
0.0024075 0.00042252 0.00030214 0.0015635
-0.0038884 0.00058138 0.00099309 0.0012465 0.00039871 -0.0021439 0.11129 -0.16528
-0.00044114 0.0036383 -0.0014094 0.0013398
0.0011749 0.00095965 0.001873 0.00048341 0.002422 0.00040406 -0.00039239 0.0036338
0.24978 -0.012323 0.0036982 -0.002303
-0.00065694 -0.00060106 0.00085776 0.00029234 0.00028919 0.0015843 -0.0014024 0.0013251
0.0037124 -0.0022931 0.26393 0.027515
2000000000 0.13169 -0.1887 -0.0038899 0.00071027 0.0024963 0.0015195 -0.0022277 0.0036521
0.00098099 0.00038852 -0.00066579 0.00048134
-0.0038889 0.00069747 0.24889 0.057799 -0.00092522 0.0059036 0.0017066 0.00035418
0.0013482 -0.0012557 0.00037865 0.00014357
0.002513 0.0015225 -0.00089191 0.0058864 0.018993 -0.23364 -0.0013586 -0.0013407
0.0020529 -0.0011697 0.0015466 0.0013497
-0.0021626 0.0036752 0.0016941 0.00028963 -0.0014096 -0.001285 0.058009 -0.17518
-0.0017625 0.0039608 -0.00021498 0.0024659
0.0010288 0.00039466 0.0013868 -0.0013316 0.0019585 -0.001175 -0.0017884 0.0039309
0.2435 -0.045884 4.7225e-05 -0.0029639
