!Keysight Technologies,M9804A,MY58100912,A.14.10.03
!Date: Thursday, April 27, 2023 10:28:33
!Correction: S11(C  6-Port  ) 
!S12(C  6-Port  ) 
!S13(C  6-Port  ) 
!S14(C  6-Port  ) 
!S15(C  6-Port  ) 
!S16(C  6-Port  ) 
!S21(C  6-Port  ) 
!S22(C  6-Port  ) 
!S23(C  6-Port  ) 
!S24(C  6-Port  ) 
!S25(C  6-Port  ) 
!S26(C  6-Port  ) 
!S31(C  6-Port  ) 
!S32(C  6-Port  ) 
!S33(C  6-Port  ) 
!S34(C  6-Port  ) 
!S35(C  6-Port  ) 
!S36(C  6-Port  ) 
!S41(C  6-Port  ) 
!S42(C  6-Port  ) 
!S43(C  6-Port  ) 
!S44(C  6-Port  ) 
!S45(C  6-Port  ) 
!S46(C  6-Port  ) 
!S51(C  6-Port  ) 
!S52(C  6-Port  ) 
!S53(C  6-Port  ) 
!S54(C  6-Port  ) 
!S55(C  6-Port  ) 
!S56(C  6-Port  ) 
!S61(C  6-Port  ) 
!S62(C  6-Port  ) 
!S63(C  6-Port  ) 
!S64(C  6-Port  ) 
!S65(C  6-Port  ) 
!S66(C  6-Port  ) 
!S6P File: Measurement: :
# Hz S  RI   R 50
500000000 -0.33747 -0.037942 -0.010656 -0.002792 -0.0083076 0.013307 -0.0046003 0.012413
0.012956 0.0033733 -0.0052181 0.0089594
-0.010625 -0.0027985 -0.41896 -0.050936 0.0076412 -0.010747 0.0016866 0.011679
0.0075987 0.0019571 0.0020959 0.012985
-0.0083043 0.013258 0.0076219 -0.010793 -0.26593 0.21002 0.0073166 0.0035982
-0.0018463 0.0075588 0.0013905 0.012084
-0.0045666 0.012437 0.0017119 0.011708 0.0073226 0.0035899 -0.33057 0.043617
-0.018579 -0.0055035 0.016053 0.024123
0.012997 0.0033312 0.0076192 0.0019644 -0.0018548 0.0075676 -0.018565 -0.005513
-0.2283 -0.18961 -0.025966 0.0051415
-0.0051437 0.0089668 0.0021516 0.013 0.0013871 0.012091 0.016074 0.024099
-0.025985 0.0051344 -0.27111 -0.12583
560000000 -0.31757 0.12473 -0.024663 -0.063871 0.00059693 0.012362 0.0051833 0.010564
0.010233 0.0043175 0.010615 0.0073661
-0.024589 -0.063806 -0.37769 0.10858 -0.041411 -0.037318 0.013693 0.0043692
-0.013444 -0.004035 0.0023323 0.00091621
0.00065415 0.012374 -0.041591 -0.037244 -0.18347 0.25848 -0.0005785 -0.0046375
0.019482 0.0049753 0.0067887 -0.0064761
0.0051983 0.010499 0.013672 0.0043447 -0.000584 -0.004651 -0.30497 0.13408
0.0042766 -0.023375 0.0039586 -0.020732
0.010337 0.0041927 -0.013489 -0.0039675 0.019529 0.0049474 0.0042276 -0.023375
-0.29028 -0.015012 0.0086049 -0.048928
0.01065 0.0073624 0.0023481 0.00088945 0.0067934 -0.0064712 0.0039195 -0.020732
0.0086335 -0.048961 -0.33087 0.023672
620000000 -0.27528 0.10785 -0.023542 0.0083365 0.0032649 0.0089451 0.0079186 -0.00463
0.011928 -0.00094541 0.0016927 -0.0026845
-0.023536 0.008323 -0.40289 0.060759 -0.018683 0.00023091 -0.001597 -0.0017858
0.011212 -0.006755 0.0014177 -0.0029262
0.0032663 0.0089579 -0.018694 0.00027228 -0.15268 0.26727 -0.0011826 -0.0044223
-0.0034319 -0.0035761 0.0085162 -0.0020981
0.0079314 -0.0046334 -0.0016107 -0.0017988 -0.0011908 -0.0044306 -0.26492 0.14484
-0.037715 -0.019086 0.011178 0.025847
0.011866 -0.00099287 0.011223 -0.0067909 -0.0034107 -0.0035719 -0.037734 -0.019061
-0.21035 -0.053322 -0.03953 0.013003
0.0017772 -0.0026939 0.0014122 -0.0029068 0.0085149 -0.0021251 0.011194 0.025836
-0.039553 0.012987 -0.25298 -0.010382
680000000 -0.23423 0.19406 -0.027279 -0.013796 0.00525 0.0050431 0.0014667 -0.0070296
-0.002747 -0.011574 0.0048296 -0.0065903
-0.027257 -0.013774 -0.38748 0.15839 -0.032645 -0.001029 -0.0018271 -0.00027872
-0.00188 -0.0087604 -0.001533 -0.002191
0.0052707 0.0050665 -0.032678 -0.00094296 -0.10191 0.28721 -0.0009831 -0.00019386
-0.0019138 0.0004359 -0.0031308 -0.009627
0.0014659 -0.0070298 -0.0018155 -0.00027133 -0.00097138 -0.00019979 -0.22033 0.19508
-0.023811 -0.0073053 -0.009361 -0.010174
-0.0027743 -0.011594 -0.0018946 -0.0087837 -0.001912 0.00044864 -0.02381 -0.0072877
-0.25781 0.045118 -0.0066786 -0.0081105
0.0048337 -0.0065806 -0.0015341 -0.0021549 -0.0031269 -0.0096475 -0.0093351 -0.01019
-0.0066704 -0.0081043 -0.25888 0.094174
740000000 -0.18978 0.18822 -0.038304 0.026856 0.012876 -0.005526 -0.0003309 -0.0039173
-0.0044085 -0.002863 -0.0062959 0.0025964
-0.038243 0.026841 -0.33499 0.17699 -0.035131 0.034839 -0.00074798 -0.0067153
-0.011942 0.0088534 -0.0018221 -0.0066173
0.012853 -0.0055568 -0.035044 0.034974 -0.068165 0.28491 -0.0017621 0.0031363
-0.0028896 -0.0049202 -0.0015673 0.00077157
-0.00039068 -0.0039029 -0.00076573 -0.0066909 -0.0017877 0.0031418 -0.20316 0.20262
-0.043545 -0.0064119 0.023488 0.014509
-0.004403 -0.0028274 -0.011928 0.0089233 -0.0029215 -0.0049159 -0.043568 -0.0063533
-0.1599 0.071091 -0.043343 0.0013032
-0.0062775 0.0026201 -0.0018421 -0.0066061 -0.0015758 0.00079233 0.023485 0.014485
-0.043349 0.0012663 -0.24686 0.10033
800000000 -0.15699 0.22822 -0.022351 0.016749 0.0052476 -0.01064 -0.0048533 -0.0017727
-0.0045691 0.0026988 0.0041736 0.00051729
-0.022348 0.016775 -0.33786 0.24667 -0.0078889 0.034111 -0.0023749 0.0022237
-0.0010399 0.0031913 0.0011565 0.0052284
0.0052176 -0.010667 -0.0077931 0.034168 -0.027828 0.30812 0.001025 0.0015018
0.00030578 0.0035198 -0.0019308 0.00097392
-0.0048415 -0.0017743 -0.0023648 0.002234 0.0010284 0.0015071 -0.17506 0.23026
-0.028456 0.013792 0.0132 -0.0099506
-0.0045847 0.0027229 -0.0010237 0.0032225 0.00029942 0.0035265 -0.028453 0.013862
-0.20516 0.095693 -0.016665 0.018898
0.0042053 0.00049185 0.0011999 0.0052149 -0.0019237 0.00097312 0.013217 -0.0099751
-0.01667 0.018888 -0.24204 0.14861
860000000 -0.12232 0.24842 -0.016987 0.030587 -0.0033543 -0.010129 -0.0024166 0.00085179
0.0040682 0.0049418 -0.0031238 -0.002694
-0.017006 0.030566 -0.29018 0.28885 0.0080492 0.034369 0.00021379 0.0020602
0.0046522 -0.00021416 0.0031833 0.00086744
-0.0033797 -0.010112 0.0081625 0.034373 0.019886 0.31605 -0.00062036 -0.00017844
0.0027493 -0.0017571 0.0018414 0.0041141
-0.0024278 0.00085789 0.00021372 0.0020628 -0.00062403 -0.00018153 -0.13886 0.24115
-0.017675 0.018718 -0.0058073 -0.009323
0.0040688 0.0049161 0.0046536 -0.00021863 0.0027447 -0.0017629 -0.017656 0.018773
-0.15353 0.14532 -0.024431 0.015703
-0.0031198 -0.0026937 0.0031631 0.00085974 0.0018471 0.0041151 -0.005814 -0.0093052
-0.024419 0.015705 -0.18951 0.19394
920000000 -0.09723 0.27091 0.0054056 0.037659 -0.0095349 -0.004701 -0.0017284 0.0017965
0.0014219 0.0017635 0.0028879 -0.0017858
0.0053728 0.037646 -0.26152 0.3099 0.028409 0.021883 0.0014698 0.001177
0.0074568 -0.00043801 0.0040674 -0.0029925
-0.0095651 -0.0046731 0.028521 0.021813 0.066444 0.31702 0.0018097 -8.1193e-05
0.0013604 -0.00048192 0.00079527 -0.001274
-0.0017157 0.0017981 0.0014605 0.0011863 0.0018168 -8.3016e-05 -0.11494 0.25844
-0.010462 0.030473 0.0034269 -0.0069436
0.0014407 0.0017557 0.0074898 -0.00047903 0.0013696 -0.00047532 -0.010405 0.030516
-0.1421 0.15056 -0.0029259 0.026596
0.002885 -0.0017976 0.0040546 -0.0029786 0.00079704 -0.0012671 0.0034113 -0.0069414
-0.0029498 0.026549 -0.1972 0.20768
980000000 -0.050147 0.29015 0.017741 0.029781 -0.0091429 0.0045042 0.0020098 0.0032549
0.0039196 -0.0016916 -0.0032919 -0.0021994
0.017691 0.02976 -0.20872 0.34356 0.033419 0.0046024 0.0020363 -0.00023787
0.0014784 -0.0060943 -0.00046708 -0.0023103
-0.0091318 0.0045175 0.033473 0.0044995 0.11288 0.31042 0.00047271 -0.0012318
0.00013795 -0.0022101 0.0013833 -0.0002108
0.0020215 0.0032594 0.0020161 -0.00024125 0.00047564 -0.0012274 -0.076759 0.26962
0.0079743 0.030053 -0.0090577 -0.0069305
0.0039125 -0.0017339 0.0014527 -0.0060957 0.0001313 -0.0022117 0.0080363 0.030044
-0.1121 0.18014 0.0054238 0.020047
-0.0033142 -0.002194 -0.00048934 -0.0023095 0.0013793 -0.00021176 -0.0090699 -0.0069045
0.0053864 0.020043 -0.15401 0.25098
1040000000 -0.0081744 0.29828 0.033367 0.017656 -0.0014421 0.0069635 0.0024901 0.00073714
-0.00013296 -0.0033475 -0.00050941 -0.0014829
0.033311 0.017685 -0.17333 0.3566 0.029415 -0.015334 0.0013636 -0.0017912
-0.0026953 -0.0024882 -0.0015771 -0.0027885
-0.0014149 0.0069556 0.029407 -0.015445 0.15926 0.2968 -0.00057275 -0.001473
-0.001673 -0.0008279 -0.00058294 -0.0011569
0.0025059 0.00072405 0.0013372 -0.0017766 -0.00057737 -0.001476 -0.049162 0.28024
0.019588 0.017905 -0.002704 0.001503
-0.00014836 -0.0033835 -0.002688 -0.002488 -0.0016703 -0.00082781 0.019634 0.017885
-0.079789 0.18736 0.013562 0.018348
-0.00051914 -0.0014722 -0.0016095 -0.0027632 -0.00058785 -0.0011562 -0.0027028 0.0015193
0.01355 0.018335 -0.13253 0.27216
1100000000 0.037221 0.30607 0.035809 -0.0047367 0.0028435 0.0039788 0.0024323 -0.0012677
-0.0019806 -0.0030011 -0.0038186 0.0002803
0.035778 -0.0047098 -0.13001 0.37404 0.014936 -0.028385 1.2834e-05 -0.0018029
-0.0035102 -0.00056414 -0.0034661 -0.0003269
0.0028559 0.0039611 0.01485 -0.028467 0.20611 0.27613 -0.0018534 0.00033686
-0.0017732 0.00066543 -0.0010432 -0.0002886
0.0024265 -0.0012817 1.2153e-05 -0.0018079 -0.0018512 0.00033873 -0.0085926 0.28522
0.024845 0.004619 -0.0026593 0.00032134
-0.001996 -0.003011 -0.0035073 -0.00053618 -0.0017786 0.00067565 0.024862 0.0045829
-0.061948 0.20121 0.019324 0.008614
-0.0038208 0.00030255 -0.0034874 -0.00030458 -0.0010513 -0.00027835 -0.00265 0.00032829
0.019316 0.0086129 -0.086487 0.30083
1160000000 0.08834 0.30101 0.023676 -0.021342 0.002612 -0.00034896 -0.00018468 -0.0024456
-0.0041803 -0.00074348 -0.00083276 0.0042594
0.023651 -0.021295 -0.086073 0.37852 -0.0042949 -0.029441 -0.001713 -0.0017427
-0.0026183 0.0026478 -0.0013736 0.0019563
0.0026021 -0.00036493 -0.0044156 -0.029436 0.24922 0.24466 -0.00069387 0.0018255
-0.00045498 0.0020185 -0.00091295 0.00015402
-0.00019177 -0.0024461 -0.0017391 -0.0017276 -0.0006997 0.0018221 0.031002 0.28245
0.02109 -0.011098 -0.0029284 0.0053246
-0.0041797 -0.00073842 -0.0025998 0.0026617 -0.00045155 0.0020298 0.021076 -0.011137
-0.027975 0.20985 0.018127 0.0001398
-0.00079433 0.004257 -0.0013773 0.0019861 -0.00091027 0.00014785 -0.0029177 0.0053325
0.018121 0.00013237 -0.040173 0.30382
1220000000 0.13278 0.28996 0.0097681 -0.030389 -0.0015873 -0.00073791 5.7529e-07 -0.00095121
-0.0026226 0.0025072 0.001394 0.0020574
0.0097766 -0.030346 -0.041396 0.39055 -0.017485 -0.021114 -0.0025443 0.00053002
0.00023353 0.0030526 -0.00071108 0.0019946
-0.0015816 -0.00074148 -0.017598 -0.021052 0.28818 0.20493 0.00088522 0.0017056
0.00064481 0.0012476 0.00032303 0.00063522
3.37e-06 -0.00094374 -0.0025523 0.00054073 0.00088924 0.0017091 0.071212 0.27369
0.0098956 -0.017632 0.0021554 0.0016046
-0.0026138 0.0025185 0.00024782 0.0030617 0.00064863 0.0012512 0.0098762 -0.017647
-0.0049459 0.21919 0.013895 -0.0133
0.0013994 0.0020314 -0.0007042 0.0020066 0.00032901 0.0006485 0.0021595 0.0015995
0.013893 -0.013288 -0.0081144 0.31984
1280000000 0.18266 0.26775 -0.0087426 -0.028463 -0.0018697 0.0026612 -0.00092598 -0.0019932
-0.00078426 0.0031602 0.0025938 0.0010305
-0.0087098 -0.028448 0.0050082 0.38136 -0.02424 -0.008134 -0.00090374 0.0015266
0.0017724 0.0017114 0.00068492 0.0020658
-0.0018454 0.0026681 -0.024312 -0.0080326 0.31802 0.1605 0.0016264 -0.00010769
0.0011471 0.00022458 0.00032208 0.00037349
-0.0009313 -0.0019879 -0.00089742 0.0015279 0.0016246 -0.0001033 0.10796 0.25709
0.00015719 -0.019402 3.3396e-05 0.00025974
-0.00075903 0.0031724 0.0017815 0.001704 0.0011485 0.0002215 0.00012604 -0.019403
0.031836 0.22302 0.0028517 -0.015291
0.0025869 0.0010103 0.00069653 0.0020741 0.00032151 0.00036432 2.8217e-05 0.00025335
0.0028494 -0.015286 0.039592 0.32157
1340000000 0.21965 0.2336 -0.018342 -0.018424 0.0010413 0.0046179 -0.0017829 -0.00081391
0.0015546 0.0026371 0.001661 -0.0014884
-0.018312 -0.018415 0.044611 0.37257 -0.0217 0.0048121 -2.3577e-05 0.0020034
0.0019505 0.00062298 0.0014461 0.000742
0.0010728 0.0046221 -0.021705 0.0049254 0.3391 0.1128 0.001096 -0.0010713
0.0007526 -0.00052283 0.00019879 0.00025787
-0.0017791 -0.00081511 -1.1482e-05 0.0020032 0.0010943 -0.0010706 0.1406 0.23652
-0.0093538 -0.016142 0.00087134 0.00053604
0.0015801 0.0026306 0.0019527 0.00060648 0.00075422 -0.00052203 -0.0094003 -0.01612
0.062274 0.21841 -0.0042379 -0.013669
0.0016505 -0.0015 0.0014525 0.00072766 0.00019786 0.00025445 0.00086603 0.00053353
-0.0042407 -0.013677 0.078278 0.31619
1400000000 0.25265 0.19498 -0.023684 -0.0066247 0.0054218 0.0031073 -0.0021125 0.00071377
0.0025747 0.0008693 0.00016426 -0.0014689
-0.023647 -0.0066357 0.081814 0.35892 -0.014642 0.012889 0.0013334 0.00122
0.0011106 -0.00093948 0.0011778 0.00010948
0.0054363 0.0030877 -0.014597 0.012976 0.35191 0.059825 8.9277e-06 -0.0016758
8.3522e-05 -0.00043165 0.00038101 0.00029515
-0.0021151 0.00072116 0.0013333 0.0012167 1.3296e-05 -0.001679 0.16999 0.20762
-0.015003 -0.0088897 -0.00066053 -0.00031797
0.0025842 0.00085057 0.0011017 -0.00095721 7.7987e-05 -0.0004317 -0.015035 -0.008854
0.095423 0.21367 -0.010614 -0.00867
0.00015531 -0.0014731 0.0011835 9.8516e-05 0.00039121 0.00029117 -0.00066738 -0.00031449
-0.010607 -0.0086777 0.12287 0.30481
1460000000 0.27485 0.15054 -0.020231 0.0055991 0.0057964 -0.0020024 -0.001568 0.0017769
0.0021992 -0.0006633 -0.00042412 -0.00095769
-0.020227 0.0055849 0.1156 0.33655 -0.0057083 0.015606 0.0016668 0.00013254
0.00071674 -0.0012746 0.0011673 -0.00064698
0.0058019 -0.0020338 -0.0056345 0.015652 0.35773 0.0060811 -0.0013485 -0.0011673
0.00015618 -0.00024595 0.00064906 -0.00030862
-0.0015631 0.0017769 0.0016678 0.00011566 -0.0013505 -0.0011617 0.19624 0.17838
-0.015624 -0.0019381 -0.00070062 0.0019776
0.0021824 -0.00067445 0.00071282 -0.0012865 0.00016148 -0.00024517 -0.015646 -0.0018921
0.12502 0.19876 -0.012221 -0.0025461
-0.00043071 -0.0009565 0.001177 -0.00064681 0.00065444 -0.0003146 -0.00069782 0.0019776
-0.012226 -0.0025629 0.15585 0.28352
1520000000 0.28645 0.10861 -0.014168 0.010914 0.00328 -0.0043584 0.00013455 0.0026085
0.0019442 -0.0017929 -0.0010611 -2.9135e-05
-0.014172 0.010895 0.14861 0.32163 0.0019758 0.013069 0.0016022 -0.00080982
-4.1124e-05 -0.00094717 0.00029766 -0.0010184
0.003264 -0.0043691 0.0020508 0.013075 0.35109 -0.049667 -0.0010938 -0.0002916
0.00064422 -0.00083092 2.5533e-05 -0.00014539
0.00014405 0.0026064 0.001599 -0.00082071 -0.001101 -0.00029712 0.21921 0.14046
-0.014271 0.0037392 0.0015163 0.0019847
0.001935 -0.0018033 -4.5124e-05 -0.00094822 0.00064415 -0.00083462 -0.01427 0.0037791
0.15302 0.18429 -0.011791 0.002103
-0.001057 -2.4299e-05 0.00028095 -0.0010301 3.2864e-05 -0.00014617 0.0015204 0.001976
-0.011793 0.0021007 0.18888 0.26282
1580000000 0.29524 0.062388 -0.0072529 0.013663 -0.00092127 -0.0049896 0.0014977 0.0018845
-0.00034776 -0.0021417 -0.00021876 0.00037589
-0.007264 0.013644 0.17535 0.29683 0.0054741 0.0081006 0.00043649 -0.0015677
-0.00048376 -0.00092067 -0.00027528 -0.00085546
-0.00094622 -0.0049793 0.0055217 0.0080745 0.33137 -0.10733 -0.0014815 0.00067017
-0.00029578 -0.0011218 0.00020039 -0.00050666
0.0015028 0.0018796 0.00043343 -0.0015707 -0.0014784 0.00066295 0.23301 0.10123
-0.0102 0.0080772 0.0021707 0.00057934
-0.00035915 -0.00214 -0.00049785 -0.00092918 -0.00029995 -0.0011215 -0.010177 0.0081169
0.17716 0.16568 -0.0091483 0.0077784
-0.00022022 0.00037369 -0.00028671 -0.00085848 0.00019662 -0.00050933 0.0021818 0.00057453
-0.0091537 0.0077858 0.22086 0.23555
1640000000 0.29653 0.021404 -0.00060363 0.012069 -0.0028951 -0.0026893 0.0027087 0.00092217
-0.00090634 -0.0014645 -0.00029586 0.00050772
-0.00060478 0.01206 0.20432 0.27204 0.0060244 0.0032625 -0.00070771 -0.0016985
-0.00089131 -0.00036029 -0.00054277 -0.00064142
-0.0029085 -0.0026624 0.0060499 0.0032283 0.30312 -0.15615 -0.0006578 0.0014361
-0.0011919 -0.00080375 -0.0001286 -0.00030516
0.0027176 0.00091762 -0.00071854 -0.0017022 -0.0006517 0.0014254 0.24507 0.052675
-0.0058517 0.0086196 0.0024682 -0.00082107
-0.00091249 -0.0014525 -0.00090661 -0.00035628 -0.0011961 -0.00080972 -0.0058242 0.0086387
0.19963 0.14059 -0.0043052 0.0097256
-0.0002851 0.00051911 -0.00054006 -0.00064131 -0.00013368 -0.00031324 0.0024691 -0.00083293
-0.0043028 0.009729 0.24621 0.20432
1700000000 0.28913 -0.023449 0.0026149 0.0088834 -0.0036121 -1.3612e-05 0.0029894 -0.0013601
-0.0019985 -0.00051808 0.00054382 0.00033058
0.0026079 0.008871 0.22221 0.2408 0.0039669 0.00035273 -0.0014415 -0.00057452
-0.00067287 -2.2954e-05 -0.00091988 -0.0004237
-0.0036153 -6.654e-06 0.0039751 0.00032787 0.26011 -0.19593 0.00049769 0.0015415
-0.0018576 -0.00022004 -0.00054595 -0.00092059
0.0029874 -0.0013806 -0.001449 -0.00056439 0.00049174 0.0015479 0.24197 0.0034112
-0.0033875 0.0084922 0.0014815 -0.0022816
-0.0020037 -0.00050397 -0.00067755 -1.9453e-05 -0.0018552 -0.00022124 -0.0033721 0.0085064
0.21651 0.11975 0.00045726 0.0097134
0.00055015 0.00032786 -0.0009224 -0.00041239 -0.00055313 -0.00092191 0.0014751 -0.0022986
0.00045711 0.0097131 0.2624 0.16976
1760000000 0.27668 -0.071485 0.0044506 0.0054687 -0.0024192 0.0010004 0.0012117 -0.0034535
-0.0012879 0.00083414 0.00034865 -0.00048363
0.0044403 0.0054738 0.2479 0.20131 0.0015269 -0.0014636 -0.0011873 0.00019553
-0.0010572 0.00077204 -0.00051354 0.00046098
-0.0024077 0.0010113 0.0015239 -0.0014738 0.21183 -0.23007 0.0011394 0.0010415
-0.001003 0.0014713 -0.0012368 -0.00036262
0.0011963 -0.003453 -0.001188 0.00020129 0.0011316 0.0010389 0.23297 -0.047451
-0.0008247 0.0073946 -0.00029303 -0.0024716
-0.0012874 0.00083731 -0.0010552 0.00078372 -0.0010036 0.0014669 -0.00080986 0.0074074
0.23057 0.084063 0.0043717 0.00702
0.00033908 -0.00049378 -0.00050926 0.00046939 -0.0012418 -0.00035221 -0.00029373 -0.0024716
0.0043674 0.0070195 0.27475 0.13176
1820000000 0.25228 -0.10839 0.0042702 0.0021075 -0.00011971 0.0025937 -0.0010859 -0.0030195
-0.00089052 0.000947 -6.8901e-05 -3.6388e-05
0.0042742 0.0021002 0.2579 0.17164 -0.00048659 -0.00014019 -0.0012478 0.00095584
-0.00014469 0.0012649 -0.00057468 0.00052559
-9.3073e-05 0.0025987 -0.00048331 -0.00013729 0.16139 -0.24567 0.0014971 0.00040848
-0.00026933 0.002219 -0.0015371 0.00037361
-0.0011027 -0.0030192 -0.0012459 0.00096408 0.0014921 0.00041615 0.20359 -0.094242
0.00010169 0.0058896 -0.0016681 -0.0015354
-0.00088478 0.00095256 -0.00013349 0.0012555 -0.00026238 0.0022328 0.00012168 0.0058983
0.24684 0.054759 0.005225 0.0032708
-6.616e-05 -3.5155e-05 -0.00056501 0.00053149 -0.0015367 0.00037491 -0.0016737 -0.0015314
0.0052264 0.0032682 0.27678 0.095419
1880000000 0.21727 -0.14855 0.0019088 6.465e-05 -0.0003812 0.0023339 -0.0029512 -0.0021151
-7.4075e-05 0.0014544 0.00031562 -0.00056654
0.0019059 6.8163e-05 0.26251 0.12529 -0.0025925 0.0016826 -0.00016974 0.0016465
0.00050159 0.0012655 0.00011484 0.00091524
-0.00037199 0.0023278 -0.0025878 0.0017029 0.10848 -0.25557 0.0016898 -0.00090033
0.0013691 0.0019483 -0.0010577 0.0014419
-0.0029625 -0.0021058 -0.00016347 0.0016538 0.0016927 -0.0009116 0.16366 -0.13445
0.00042829 0.0043629 -0.0024564 0.00039397
-7.2441e-05 0.0014601 0.00050257 0.0012601 0.0013597 0.0019412 0.00043482 0.0043643
0.2487 0.022148 0.0051983 0.0010498
0.00030586 -0.00056709 0.0001238 0.00091834 -0.0010665 0.0014459 -0.0024512 0.00040215
0.0051907 0.0010561 0.27624 0.060943
1940000000 0.17805 -0.17406 -0.00033108 -0.0013103 0.0015774 0.0020046 -0.0038102 0.0006508
0.0012585 0.00098977 -0.00046931 -0.00060992
-0.00033829 -0.0013121 0.26317 0.093654 -0.0012907 0.0039829 0.00097498 0.0013049
0.0018148 0.00058775 0.00090354 0.00038104
0.001577 0.0019837 -0.0012649 0.003999 0.062772 -0.2488 0.00039674 -0.0021226
0.0024334 0.00036788 0.00042654 0.0016883
-0.003803 0.00067524 0.0009898 0.0013068 0.00040783 -0.0021313 0.11178 -0.16503
-0.00066951 0.0035229 -0.0014563 0.0015404
0.0012596 0.00098302 0.0018217 0.00056874 0.0024368 0.00034196 -0.0006608 0.0035295
0.24968 -0.016829 0.0037145 -0.0024085
-0.00046994 -0.00060948 0.00090616 0.00037225 0.00042396 0.0016767 -0.0014484 0.0015478
0.0037216 -0.002406 0.26479 0.025131
2000000000 0.13202 -0.18915 -0.003971 0.00081839 0.0025617 0.0016022 -0.0021591 0.0035476
0.001034 0.0002935 -0.00069513 0.00031558
-0.0039685 0.00080828 0.24934 0.058147 -0.0009615 0.0058759 0.0016632 0.00037129
0.0014441 -0.0012039 0.00055798 7.9791e-05
0.0025749 0.001585 -0.00092683 0.0058913 0.018972 -0.23436 -0.0012636 -0.0012904
0.0020199 -0.0010624 0.0017592 0.0014243
-0.0021408 0.0035577 0.0016659 0.00035958 -0.0012532 -0.0012913 0.05879 -0.17542
-0.0020582 0.003897 -0.00023221 0.0023665
0.001032 0.00029024 0.001439 -0.0012201 0.0020091 -0.001063 -0.0020398 0.0039104
