!Keysight Technologies,M9804A,MY58100912,A.14.10.03
!Date: Thursday, April 27, 2023 10:28:33
!Correction: S11(C  6-Port  ) 
!S12(C  6-Port  ) 
!S13(C  6-Port  ) 
!S14(C  6-Port  ) 
!S15(C  6-Port  ) 
!S16(C  6-Port  ) 
!S21(C  6-Port  ) 
!S22(C  6-Port  ) 
!S23(C  6-Port  ) 
!S24(C  6-Port  ) 
!S25(C  6-Port  ) 
!S26(C  6-Port  ) 
!S31(C  6-Port  ) 
!S32(C  6-Port  ) 
!S33(C  6-Port  ) 
!S34(C  6-Port  ) 
!S35(C  6-Port  ) 
!S36(C  6-Port  ) 
!S41(C  6-Port  ) 
!S42(C  6-Port  ) 
!S43(C  6-Port  ) 
!S44(C  6-Port  ) 
!S45(C  6-Port  ) 
!S46(C  6-Port  ) 
!S51(C  6-Port  ) 
!S52(C  6-Port  ) 
!S53(C  6-Port  ) 
!S54(C  6-Port  ) 
!S55(C  6-Port  ) 
!S56(C  6-Port  ) 
!S61(C  6-Port  ) 
!S62(C  6-Port  ) 
!S63(C  6-Port  ) 
!S64(C  6-Port  ) 
!S65(C  6-Port  ) 
!S66(C  6-Port  ) 
!S6P File: Measurement: :
# Hz S  RI   R 50
500000000 -0.33639 -0.032371 -0.0094879 -0.0038572 -0.0077493 0.011498 -0.0035485 0.011665
0.012293 0.0044572 -0.004141 0.0082113
-0.0094732 -0.0038573 -0.41891 -0.048305 0.007559 -0.011892 0.0015374 0.010867
0.0077734 0.0028602 0.0012468 0.012205
-0.0077168 0.011501 0.0075392 -0.011901 -0.26417 0.2118 0.0068248 0.002827
0.0004276 0.0086435 0.00070142 0.011655
-0.003541 0.01168 0.0015563 0.010885 0.0068299 0.0028296 -0.3269 0.049136
-0.019318 -0.0049764 0.017492 0.025021
0.012267 0.00446 0.0077836 0.0028478 0.00043026 0.0086362 -0.019322 -0.0049583
-0.22676 -0.17971 -0.027394 0.0042876
-0.0041481 0.0082633 0.0012721 0.012202 0.00071315 0.011637 0.017495 0.025019
-0.027393 0.004285 -0.27266 -0.12637
560000000 -0.31395 0.12618 -0.024425 -0.063522 0.00048201 0.011985 0.0062286 0.010061
0.011638 0.0037892 0.0095924 0.0073908
-0.024344 -0.063473 -0.37615 0.11015 -0.041972 -0.036275 0.014412 0.0038604
-0.012578 -0.0046776 0.0050134 -0.0006114
0.00050712 0.011983 -0.042109 -0.036187 -0.18214 0.25896 -0.0010115 -0.0048771
0.018736 0.0038188 0.0070821 -0.0060744
0.0061985 0.010031 0.014424 0.0038248 -0.0010033 -0.0048639 -0.30156 0.13672
0.0046309 -0.024983 0.0054095 -0.019642
0.011665 0.0037333 -0.012639 -0.0046314 0.018747 0.0038038 0.0046105 -0.02498
-0.28489 -0.006747 0.0078584 -0.050899
0.0096438 0.0073864 0.0050274 -0.00063047 0.0070863 -0.0060707 0.005428 -0.019636
0.0078767 -0.050902 -0.33225 0.021495
620000000 -0.27241 0.11099 -0.023158 0.0068888 0.0034663 0.0080521 0.0070819 -0.0059134
0.010816 -0.00069746 0.00053386 -0.0018205
-0.023151 0.0068722 -0.4024 0.06407 -0.019013 -0.00035208 -0.0016917 -0.0021248
0.010472 -0.0068149 0.00041762 -0.0028456
0.0034962 0.0080481 -0.019026 -0.00030223 -0.15264 0.26848 -0.0021559 -0.004827
-0.0032599 -0.0034238 0.0079773 -0.0038838
0.0070668 -0.0058783 -0.0016978 -0.0021161 -0.0021291 -0.0048277 -0.25982 0.14665
-0.038711 -0.019068 0.015071 0.02385
0.010803 -0.0008416 0.010447 -0.0068541 -0.0032604 -0.0034126 -0.038702 -0.019036
-0.20407 -0.04542 -0.039849 0.014089
0.00045679 -0.0018153 0.00042115 -0.0028567 0.0080123 -0.0038712 0.015115 0.023878
-0.039889 0.014077 -0.25113 -0.015332
680000000 -0.2314 0.19331 -0.027919 -0.014221 0.0048618 0.0050313 0.00048109 -0.0077671
-0.003399 -0.010688 0.0043408 -0.0073859
-0.027899 -0.014219 -0.38659 0.1607 -0.03291 -0.0011129 -0.0016269 -0.00052424
-0.0029332 -0.0086489 -0.00088588 -0.0022592
0.0048747 0.0050136 -0.032948 -0.0010347 -0.10188 0.2879 -0.00066785 0.00014335
-0.0023931 0.00086395 -0.0028629 -0.0095208
0.00046813 -0.0077698 -0.0016293 -0.00052062 -0.00066669 0.0001396 -0.2179 0.19582
-0.023482 -0.0087091 -0.011107 -0.010189
-0.0034316 -0.010669 -0.0029694 -0.008661 -0.0023945 0.00086767 -0.023486 -0.0086868
-0.24982 0.051438 -0.0049857 -0.0094045
0.0043296 -0.0074031 -0.00089757 -0.0022483 -0.0028733 -0.0095239 -0.011125 -0.010192
-0.0049898 -0.0094086 -0.26226 0.088899
740000000 -0.18873 0.18887 -0.038383 0.026307 0.012449 -0.0051849 -0.00073029 -0.0041072
-0.0043569 -0.0023269 -0.0062963 0.0032532
-0.038373 0.026272 -0.33483 0.17948 -0.034647 0.034971 -0.00080706 -0.0065339
-0.011421 0.0085222 -0.002636 -0.0060009
0.012449 -0.0052152 -0.034595 0.035095 -0.068116 0.28701 -0.0011062 0.0034013
-0.0028477 -0.0037009 -0.00093736 0.00041883
-0.00075359 -0.0041199 -0.00081557 -0.0065057 -0.0011077 0.003412 -0.20144 0.20322
-0.042363 -0.0077977 0.022886 0.012595
-0.0043347 -0.0023202 -0.011418 0.0085684 -0.0028468 -0.0036961 -0.042389 -0.00774
-0.15631 0.073656 -0.042645 0.0014681
-0.0063109 0.0032804 -0.0026892 -0.0060177 -0.00093776 0.00039531 0.022881 0.012623
-0.042646 0.0014353 -0.25093 0.09538
800000000 -0.15722 0.22894 -0.02249 0.017301 0.0051167 -0.010433 -0.0048505 -0.0019199
-0.0041262 0.0028261 0.0044033 0.00083137
-0.0225 0.017266 -0.33694 0.24944 -0.0076694 0.033992 -0.001997 0.0021439
-0.00027733 0.0034747 0.0012793 0.0053148
0.00509 -0.010455 -0.0075696 0.03404 -0.026794 0.30989 0.0012175 0.001504
0.0007613 0.0035629 -0.0019327 0.00094137
-0.0048746 -0.0019157 -0.0019987 0.0021528 0.0012149 0.001495 -0.17373 0.23122
-0.028675 0.012494 0.013004 -0.0096486
-0.0041201 0.0028497 -0.00026051 0.0034883 0.00076866 0.0035738 -0.028677 0.01255
-0.19854 0.097938 -0.01791 0.017299
0.0044071 0.00083604 0.0012884 0.0053186 -0.0019355 0.00094676 0.012994 -0.0096598
-0.017923 0.017285 -0.24462 0.15022
860000000 -0.12205 0.25051 -0.01695 0.03137 -0.0034179 -0.0096943 -0.0026361 0.0013278
0.004395 0.0050707 -0.0027349 -0.0028518
-0.016965 0.031345 -0.28875 0.29141 0.0083433 0.033981 0.00026808 0.0020286
0.0045169 0.00011376 0.0034577 0.00038603
-0.0034443 -0.009686 0.0084633 0.03398 0.021868 0.31763 -0.00033146 -0.00029849
0.00288 -0.0015884 0.0014412 0.0044303
-0.0026397 0.0013324 0.00027671 0.002032 -0.00033224 -0.00029783 -0.13816 0.24317
-0.017997 0.018405 -0.0063024 -0.0091884
0.0043861 0.0050462 0.0045232 8.0036e-05 0.0028885 -0.0015859 -0.017986 0.018438
-0.15074 0.14592 -0.023527 0.015393
-0.0027339 -0.0028283 0.0034627 0.00038377 0.0014463 0.0044263 -0.0062896 -0.0091897
-0.023522 0.015373 -0.194 0.19325
920000000 -0.096703 0.27379 0.0053585 0.038032 -0.0093574 -0.0039842 -0.0016592 0.002476
0.0013234 0.0015774 0.0024996 -0.0012848
0.0053086 0.038008 -0.25983 0.31224 0.027963 0.021477 0.0017039 0.0010903
0.0066778 -0.00088972 0.0035543 -0.002699
-0.0093748 -0.0039561 0.028062 0.021405 0.068344 0.3177 0.0017632 -9.7691e-05
0.0013077 -0.00054298 0.00072821 -0.0010406
-0.0016559 0.0024765 0.0016997 0.0011036 0.0017527 -0.00010617 -0.11362 0.25953
-0.010496 0.02971 0.0025379 -0.0062017
0.0013183 0.001582 0.0067 -0.0009143 0.0013008 -0.0005468 -0.010435 0.029753
-0.13973 0.15251 -0.0021468 0.02743
0.0025337 -0.0012899 0.0035356 -0.0027277 0.0007267 -0.0010454 0.0025462 -0.0061857
-0.0021612 0.027415 -0.20072 0.20726
980000000 -0.048676 0.29305 0.01813 0.029839 -0.0086599 0.0047943 0.002562 0.0037237
0.0040526 -0.0017787 -0.0028446 -0.0021321
0.018078 0.029824 -0.20678 0.34564 0.032654 0.0044079 0.0019964 -3.8667e-05
0.0009375 -0.0060637 -0.00051543 -0.0022428
-0.0086483 0.0048146 0.032724 0.0043057 0.11462 0.31068 0.00035871 -0.0011699
-5.6795e-06 -0.0020588 0.0015799 -8.559e-05
0.0025826 0.0037244 0.0019773 -4.961e-05 0.00035337 -0.0011686 -0.075232 0.27107
0.0072152 0.028367 -0.0093381 -0.0064019
0.0040531 -0.0017941 0.00092823 -0.0060563 -7.4182e-06 -0.0020771 0.0072732 0.028371
-0.10873 0.1796 0.0051974 0.018597
-0.0028496 -0.002108 -0.00052049 -0.0022653 0.0015695 -8.8878e-05 -0.0093423 -0.0063834
0.0051925 0.01859 -0.15778 0.25162
1040000000 -0.0055606 0.3011 0.033243 0.01751 -0.00099236 0.0068052 0.0028989 0.00064764
0.00014298 -0.0036706 -0.00060462 -0.0013423
0.033197 0.017528 -0.17088 0.35836 0.028764 -0.01486 0.001491 -0.0016797
-0.0026481 -0.0020341 -0.0014581 -0.0025788
-0.00097629 0.0068107 0.028744 -0.014999 0.16065 0.29647 -0.00052739 -0.0013856
-0.0015289 -0.00078228 -0.0003522 -0.0010524
0.0029274 0.00063369 0.0014848 -0.0016744 -0.00051932 -0.0013883 -0.047522 0.28094
0.018011 0.016962 -0.0029645 0.0022659
0.00012887 -0.0036817 -0.0026397 -0.0020111 -0.001531 -0.00079175 0.018054 0.016943
-0.07791 0.18858 0.013226 0.017911
-0.00062295 -0.0013322 -0.0014862 -0.0025964 -0.00035655 -0.0010513 -0.0029641 0.0022795
0.01322 0.017918 -0.13602 0.27278
1100000000 0.040309 0.30797 0.035584 -0.0047292 0.0030129 0.0036213 0.0025741 -0.001607
-0.0020872 -0.0030079 -0.0038549 2.7121e-05
0.035555 -0.0046972 -0.12727 0.37505 0.014544 -0.0274 5.1832e-05 -0.0018349
-0.0030113 -0.00034093 -0.0033896 -0.0004596
0.0030249 0.0036178 0.014461 -0.027482 0.20674 0.27578 -0.0017402 0.00027617
-0.0015512 0.00064424 -0.00093852 -0.00039863
0.002593 -0.0016108 3.2793e-05 -0.0018335 -0.001741 0.00027216 -0.006824 0.2856
0.022223 0.0050504 -0.0020623 0.0010509
-0.0021013 -0.003001 -0.0030108 -0.0003192 -0.0015452 0.00063659 0.022232 0.0050186
-0.059078 0.20173 0.018415 0.0084839
-0.0038535 4.9455e-05 -0.0033959 -0.00045034 -0.00092996 -0.00040198 -0.002068 0.0010516
0.01841 0.0084884 -0.089138 0.30217
1160000000 0.09211 0.30208 0.023518 -0.020921 0.0027022 -0.00064025 -9.987e-05 -0.0026294
-0.004086 -0.00035015 -0.00083477 0.0040825
0.023518 -0.02088 -0.083346 0.37872 -0.0038514 -0.028498 -0.0017501 -0.0016377
-0.0022238 0.0025304 -0.0012733 0.0016029
0.0026976 -0.00065428 -0.0039704 -0.028518 0.24952 0.24485 -0.00054668 0.0016241
-0.00030343 0.0016963 -0.0010488 0.00011836
-9.6285e-05 -0.0026271 -0.0017695 -0.0016231 -0.00054697 0.0016241 0.032607 0.28255
0.01885 -0.0094519 -0.0026252 0.0057291
-0.0040826 -0.00034729 -0.0022018 0.0025613 -0.00029519 0.0016892 0.018837 -0.0094749
-0.02547 0.21129 0.017168 0.00067576
-0.00083498 0.0040879 -0.0012575 0.0015991 -0.0010509 0.00012561 -0.0026129 0.0057265
0.017161 0.00066752 -0.042388 0.30506
1220000000 0.13653 0.28979 0.0099875 -0.029827 -0.0015532 -0.00088878 -0.00019561 -0.0011222
-0.0024859 0.0025834 0.001321 0.00187
0.0099946 -0.029797 -0.03938 0.39002 -0.016572 -0.020586 -0.0024802 0.00043942
0.00035125 0.0027265 -0.0006978 0.0017444
-0.001557 -0.00089245 -0.016676 -0.020535 0.2885 0.20583 0.00089794 0.0014869
0.00060124 0.0010278 0.0002484 0.00068427
-0.00018727 -0.0011162 -0.0024849 0.00045327 0.00089547 0.0015003 0.072217 0.27371
0.0090636 -0.014855 0.0030097 0.0016944
-0.0024702 0.0025845 0.00036424 0.0027303 0.00061229 0.0010201 0.0090418 -0.014872
-0.0015643 0.22065 0.013286 -0.012016
0.0013274 0.0018672 -0.00068591 0.0017412 0.00025451 0.00068705 0.0030147 0.0016921
0.013281 -0.01201 -0.010278 0.32147
1280000000 0.18576 0.26684 -0.0079876 -0.028063 -0.0018495 0.0023288 -0.0011222 -0.0019563
-0.00051457 0.0030931 0.0025016 0.00095331
-0.0079597 -0.028037 0.0062412 0.38069 -0.023029 -0.0082645 -0.00097309 0.0014288
0.0015695 0.0014677 0.00048294 0.0019366
-0.0018386 0.0023267 -0.023088 -0.0081638 0.31915 0.16189 0.0012985 -0.00018524
0.00085852 6.6897e-05 0.00030913 0.00042712
-0.0011211 -0.0019502 -0.0009603 0.0014357 0.001294 -0.00018178 0.10853 0.2576
0.0006071 -0.016322 0.00078195 1.7358e-05
-0.00050691 0.0030983 0.0015765 0.0014632 0.00086237 6.1768e-05 0.00057836 -0.016327
0.035601 0.22408 0.0029133 -0.013986
0.0025149 0.00093794 0.00049523 0.0019301 0.00031269 0.00042647 0.00077788 1.5033e-05
0.002915 -0.013983 0.037287 0.3228
1340000000 0.22225 0.23224 -0.017559 -0.018714 0.0008192 0.0042684 -0.0018887 -0.00067067
0.0014622 0.0024828 0.001566 -0.001531
-0.017524 -0.018698 0.045485 0.37208 -0.021055 0.0040126 -7.0082e-05 0.0019047
0.0016161 0.00065759 0.0013225 0.00085612
0.00083665 0.0042546 -0.021069 0.0041248 0.34148 0.11368 0.00087078 -0.00082098
0.00052602 -0.00037692 0.00018437 0.00019082
-0.001893 -0.00067851 -6.6925e-05 0.0019071 0.00087742 -0.00082691 0.14136 0.23738
-0.0070182 -0.013682 0.0014877 -0.00023462
0.0014808 0.0024785 0.0016144 0.00064198 0.000524 -0.00037758 -0.0070444 -0.013673
0.066524 0.21904 -0.0031663 -0.012512
0.0015646 -0.0015343 0.0013295 0.00084258 0.00018622 0.00019051 0.0014771 -0.00023823
-0.0031667 -0.012513 0.076365 0.31824
1400000000 0.25446 0.1936 -0.023146 -0.0073783 0.0049172 0.0030728 -0.0020403 0.00070651
0.0024023 0.00056044 0.0001466 -0.0013229
-0.02312 -0.0073805 0.082225 0.35892 -0.014533 0.011901 0.0013214 0.0012373
0.00085453 -0.00074133 0.001187 0.00028821
0.0049341 0.0030459 -0.014492 0.011999 0.3545 0.05957 6.771e-05 -0.0013949
-4.3618e-05 -0.00028542 0.00031932 0.00019399
-0.002037 0.00071211 0.0013252 0.0012331 7.4247e-05 -0.0014028 0.17121 0.20911
-0.011803 -0.0080248 -0.00053602 -0.0010505
0.0024119 0.00053967 0.00085088 -0.00075949 -5.1945e-05 -0.00028458 -0.011824 -0.0080018
0.099792 0.21379 -0.009251 -0.0081501
0.00013462 -0.0013225 0.0011909 0.00027042 0.00031984 0.00019413 -0.00053802 -0.0010516
-0.0092385 -0.008159 0.12125 0.307
1460000000 0.27673 0.14929 -0.020326 0.0045505 0.005324 -0.0016603 -0.0015291 0.0017364
0.0018556 -0.00077841 -0.00035547 -0.00089326
-0.020311 0.0045374 0.11629 0.33707 -0.0062782 0.014721 0.001689 0.0001435
0.00083568 -0.0010561 0.0011529 -0.00061668
0.005321 -0.0016838 -0.0062033 0.01477 0.36011 0.0046864 -0.0010673 -0.001167
0.00022593 -0.00010928 0.0005892 -0.00036684
-0.0015222 0.0017423 0.0016882 0.00013304 -0.0010731 -0.0011786 0.19827 0.18003
-0.012442 -0.0029989 -0.001217 0.0012666
0.0018457 -0.00078789 0.00083071 -0.0010642 0.00022547 -0.00011379 -0.012454 -0.0029741
0.12974 0.19859 -0.010677 -0.0030252
-0.00037435 -0.00087503 0.0011448 -0.00063983 0.00058252 -0.00035785 -0.0012264 0.0012541
-0.010677 -0.003033 0.15445 0.28583
1520000000 0.28834 0.10741 -0.014737 0.010194 0.003089 -0.0039082 0.00013311 0.0025519
0.0015953 -0.0016674 -0.0011129 -0.00011599
-0.014737 0.010168 0.14969 0.32216 0.0011037 0.012846 0.0015723 -0.00080579
0.0001297 -0.00089533 0.00028131 -0.00099631
0.0030821 -0.0039254 0.0011707 0.012853 0.35293 -0.051868 -0.0008529 -0.00038583
0.00060082 -0.00077874 -4.023e-05 -3.5537e-05
0.00015212 0.0025537 0.0015718 -0.00081829 -0.00084667 -0.00037626 0.22231 0.14177
-0.012125 0.0013185 0.00080464 0.0016397
0.001579 -0.0016846 0.0001283 -0.00090043 0.00059959 -0.00078737 -0.012142 0.00134
0.15777 0.18343 -0.010905 0.0010737
-0.0011194 -0.00011068 0.00026898 -0.001001 -4.3527e-05 -3.3212e-05 0.00080209 0.0016442
-0.010908 0.0010646 0.18798 0.26527
1580000000 0.29727 0.06103 -0.0082467 0.013318 -0.00093525 -0.0046078 0.0013949 0.0018352
-0.00050314 -0.0018923 -0.00032511 0.00038392
-0.0082482 0.013296 0.17687 0.29735 0.0047638 0.008274 0.00042261 -0.0015377
-0.00035865 -0.0010025 -0.00027963 -0.00086058
-0.00094509 -0.0046168 0.0048101 0.0082649 0.33208 -0.10952 -0.0014428 0.00043973
-0.00023727 -0.0010687 0.00014532 -0.00051372
0.0014002 0.0018301 0.00041182 -0.0015403 -0.0014403 0.00044239 0.23717 0.10158
-0.0098538 0.0052296 0.001658 0.00073163
-0.00052763 -0.0019034 -0.00036551 -0.0010034 -0.00024317 -0.0010691 -0.0098429 0.0052586
0.18213 0.16472 -0.008878 0.0064308
-0.00032751 0.00038418 -0.00028778 -0.00086339 0.00014651 -0.00051491 0.0016603 0.00073197
-0.0088843 0.0064232 0.2202 0.2383
1640000000 0.29882 0.019089 -0.0015901 0.012396 -0.0025596 -0.0023541 0.0025887 0.00099249
-0.00078298 -0.0010178 -0.00028853 0.00071751
-0.0015995 0.01238 0.20636 0.27199 0.0055821 0.0037439 -0.00070312 -0.0015937
-0.00094462 -0.00051477 -0.00054381 -0.00063405
-0.0025627 -0.0023429 0.0056162 0.0037128 0.30331 -0.15851 -0.00086406 0.0012466
-0.00097646 -0.00081979 -9.0002e-05 -0.00027642
0.0025869 0.00097301 -0.00071732 -0.0015851 -0.00085979 0.0012388 0.24985 0.051349
-0.0068439 0.0063233 0.0020201 -0.00057421
-0.00080019 -0.0010158 -0.00095582 -0.00050214 -0.00097975 -0.00081322 -0.0068266 0.0063459
0.20512 0.13909 -0.0046381 0.0084944
-0.00028131 0.00072235 -0.00054042 -0.00062978 -9.2583e-05 -0.00028066 0.0020184 -0.00058521
-0.0046416 0.0084961 0.24606 0.20688
1700000000 0.29056 -0.026548 0.0019591 0.0096836 -0.0032657 9.0927e-05 0.0029149 -0.0010736
-0.0016941 -0.00039261 0.00062985 0.00042891
0.0019515 0.0096742 0.22431 0.24024 0.0038484 0.0009579 -0.0013617 -0.00052194
-0.00083626 -2.2731e-05 -0.00091798 -0.00041047
-0.0032618 0.0001067 0.0038607 0.00093522 0.25951 -0.1979 0.00026445 0.00154
-0.0017839 -0.00032368 -0.00053663 -0.00096115
0.0029088 -0.0010946 -0.0013645 -0.00051056 0.00026425 0.0015341 0.24623 -8.6467e-05
-0.0050197 0.0071222 0.0013046 -0.0018038
-0.0016897 -0.00039094 -0.00083676 -1.7756e-05 -0.0017903 -0.0003286 -0.0050028 0.007137
0.22255 0.11729 -0.00019691 0.0090514
0.00063809 0.00042304 -0.00092025 -0.00040236 -0.0005404 -0.00096076 0.0013019 -0.0018148
-0.00019623 0.0090566 0.26227 0.17192
1760000000 0.27729 -0.075146 0.0044041 0.0065 -0.0020943 0.00076179 0.0013397 -0.0033076
-0.00094655 0.00054804 0.00047083 -0.00043646
0.0043929 0.0064964 0.25005 0.20001 0.0017222 -0.00083457 -0.0010605 0.00016465
-0.0011581 0.00084556 -0.00059369 0.00055635
-0.0021066 0.00076323 0.0017258 -0.0008444 0.21023 -0.23093 0.0010472 0.0012768
-0.0012184 0.0011882 -0.001362 -0.00045396
0.0013193 -0.0033155 -0.0010635 0.00017617 0.0010566 0.0012748 0.23555 -0.052675
-0.0024875 0.0069559 -0.00053323 -0.001983
-0.00094553 0.00054576 -0.0011486 0.00086042 -0.0012123 0.0011844 -0.0024703 0.0069766
0.23752 0.080256 0.0033437 0.0065279
0.00047028 -0.00043513 -0.00058576 0.00055822 -0.0013636 -0.00045167 -0.00053643 -0.0019808
0.0033483 0.0065287 0.27482 0.1341
1820000000 0.2514 -0.1122 0.0047678 0.0028078 -3.3197e-05 0.0022388 -0.0009108 -0.0030551
-0.0007992 0.00049752 4.8823e-05 -0.00012775
0.0047678 0.0028095 0.25952 0.16958 -7.8115e-05 0.00014488 -0.00133 0.00077095
-0.00011041 0.0013842 -0.0004938 0.00052247
-3.4978e-05 0.0022367 -7.8767e-05 0.00014954 0.16006 -0.2463 0.0015593 0.00047004
-0.00041025 0.0020543 -0.0013 0.00055791
-0.00092307 -0.0030499 -0.0013256 0.00078539 0.0015542 0.00046991 0.20355 -0.10026
-0.0012108 0.005833 -0.0015317 -0.0011823
-0.00079263 0.00050219 -9.3672e-05 0.0013938 -0.00039742 0.0020582 -0.001197 0.0058419
0.25362 0.048807 0.0043474 0.0033045
5.1229e-05 -0.00012981 -0.0004866 0.00052464 -0.0013026 0.0005665 -0.0015331 -0.0011783
0.0043508 0.0033024 0.27685 0.097667
1880000000 0.21517 -0.15139 0.0026535 0.00041453 -0.00032921 0.0019747 -0.0028303 -0.0022379
-0.00040125 0.0013482 0.00027096 -0.00063042
0.0026512 0.00041698 0.26349 0.12296 -0.0019177 0.0016813 -0.00022295 0.0016687
0.00066756 0.0013331 0.00021642 0.00093273
-0.00032925 0.001977 -0.0019136 0.0016912 0.10833 -0.25527 0.0018801 -0.0010174
0.0014081 0.0019991 -0.0008692 0.0014336
-0.0028553 -0.0022285 -0.00021395 0.0016749 0.0018859 -0.001016 0.16127 -0.13935
-0.00090924 0.0046513 -0.0021339 0.00082484
-0.00038807 0.0013444 0.00067307 0.0013336 0.0014155 0.0020047 -0.00089676 0.0046726
0.25468 0.01367 0.0041199 0.0014565
0.00026652 -0.00062861 0.00022603 0.0009295 -0.00085738 0.0014447 -0.0021306 0.00083202
0.0041131 0.0014658 0.27653 0.063633
1940000000 0.17537 -0.17621 0.0004004 -0.0014609 0.001264 0.0019004 -0.0037639 0.00051597
0.0010734 0.0010479 -0.00072053 -0.0005954
0.00040198 -0.0014673 0.26345 0.091023 -0.00085037 0.0037682 0.00090403 0.0013262
0.0019964 0.00052256 0.00081084 0.00021265
0.0012842 0.0018668 -0.00082151 0.0037855 0.062342 -0.24873 0.00032944 -0.0023939
0.002402 0.00058806 0.00035007 0.0016156
-0.0037568 0.00053367 0.00091646 0.0013283 0.0003296 -0.0024042 0.10787 -0.16792
-0.0018434 0.0042389 -0.00098782 0.0018007
0.0010806 0.0010519 0.0020062 0.00049717 0.0023988 0.00058281 -0.001835 0.0042457
0.25366 -0.027374 0.0030446 -0.0015752
-0.00072377 -0.00058485 0.0008156 0.0002052 0.00033145 0.0016028 -0.00099184 0.0017972
0.0030441 -0.0015671 0.2653 0.027525
2000000000 0.12908 -0.18944 -0.0035318 0.00039945 0.0022717 0.001625 -0.0022809 0.0035155
0.0010467 0.00035937 -0.00061858 0.00044907
-0.0035244 0.00039444 0.2486 0.05562 -0.00082343 0.0053751 0.0016442 0.00026208
0.0015658 -0.0015991 0.00045824 8.743e-05
0.0022835 0.001616 -0.00078163 0.0053937 0.018896 -0.23453 -0.001445 -0.001433
0.0020849 -0.0012998 0.001633 0.0011752
-0.002271 0.0035232 0.0016451 0.00024417 -0.0014475 -0.0014334 0.054377 -0.17583
-0.0032631 0.0049284 0.00032769 0.0020758
0.0010606 0.00034946 0.0015574 -0.0016073 0.0020964 -0.0013051 -0.0032529 0.0049387
