!Keysight Technologies,M9804A,MY58100912,A.14.10.03
!Date: Thursday, April 27, 2023 10:28:33
!Correction: S11(C  6-Port  ) 
!S12(C  6-Port  ) 
!S13(C  6-Port  ) 
!S14(C  6-Port  ) 
!S15(C  6-Port  ) 
!S16(C  6-Port  ) 
!S21(C  6-Port  ) 
!S22(C  6-Port  ) 
!S23(C  6-Port  ) 
!S24(C  6-Port  ) 
!S25(C  6-Port  ) 
!S26(C  6-Port  ) 
!S31(C  6-Port  ) 
!S32(C  6-Port  ) 
!S33(C  6-Port  ) 
!S34(C  6-Port  ) 
!S35(C  6-Port  ) 
!S36(C  6-Port  ) 
!S41(C  6-Port  ) 
!S42(C  6-Port  ) 
!S43(C  6-Port  ) 
!S44(C  6-Port  ) 
!S45(C  6-Port  ) 
!S46(C  6-Port  ) 
!S51(C  6-Port  ) 
!S52(C  6-Port  ) 
!S53(C  6-Port  ) 
!S54(C  6-Port  ) 
!S55(C  6-Port  ) 
!S56(C  6-Port  ) 
!S61(C  6-Port  ) 
!S62(C  6-Port  ) 
!S63(C  6-Port  ) 
!S64(C  6-Port  ) 
!S65(C  6-Port  ) 
!S66(C  6-Port  ) 
!S6P File: Measurement: :
# Hz S  RI   R 50
500000000 -0.33648 -0.03219 -0.0095348 -0.0039482 -0.0077499 0.011524 -0.003561 0.011463
0.01201 0.0044093 -0.0042137 0.007871
-0.0098699 -0.0039894 -0.41882 -0.048015 0.0076863 -0.01189 0.0014236 0.010938
0.0079881 0.002806 0.00092326 0.012273
-0.0075905 0.01134 0.0076477 -0.01186 -0.26421 0.21182 0.0068824 0.0029325
0.00070083 0.0084707 0.00070554 0.011859
-0.0036724 0.011686 0.0013925 0.01097 0.0068134 0.002892 -0.32697 0.049168
-0.019326 -0.0050985 0.017401 0.024643
0.011867 0.0047258 0.0080131 0.0027974 0.00064027 0.0085887 -0.01932 -0.0050925
-0.22694 -0.17917 -0.027207 0.0045143
-0.0043945 0.0078471 0.00088335 0.012277 0.00064025 0.011778 0.017421 0.024602
-0.027207 0.0045194 -0.2729 -0.12675
560000000 -0.31402 0.12635 -0.024419 -0.063283 0.00041282 0.011891 0.0064975 0.00993
0.01181 0.0035604 0.009471 0.0074272
-0.02397 -0.062967 -0.37592 0.1103 -0.041832 -0.03631 0.014526 0.003233
-0.012748 -0.0052726 0.0050565 -0.00050522
0.00021272 0.012042 -0.042061 -0.036032 -0.18242 0.25927 -0.0010944 -0.0045801
0.018842 0.003928 0.0070929 -0.0061586
0.0065296 0.0098227 0.014485 0.0037126 -0.0011166 -0.004953 -0.30188 0.13755
0.0043621 -0.024791 0.0052066 -0.019886
0.011343 0.0034936 -0.012689 -0.0051306 0.018851 0.0039578 0.0043686 -0.024787
-0.28488 -0.0064865 0.0076978 -0.051013
0.0096063 0.0076105 0.0048028 -0.00054895 0.0071861 -0.006171 0.0051906 -0.019857
0.0077196 -0.051023 -0.33195 0.021889
620000000 -0.27228 0.11054 -0.023046 0.0069521 0.0033901 0.0081427 0.0067014 -0.0057057
0.010874 -0.0011422 0.0007213 -0.0023642
-0.022988 0.0067113 -0.40232 0.064112 -0.019027 -0.00044004 -0.0016544 -0.0022518
0.010437 -0.0068039 0.00062477 -0.0026384
0.0032712 0.0081713 -0.019041 -0.00037429 -0.15258 0.26845 -0.0016334 -0.0052112
-0.0034027 -0.002794 0.0078672 -0.0036546
0.0068692 -0.0057747 -0.0016042 -0.0021903 -0.0018208 -0.0050022 -0.25916 0.14715
-0.039539 -0.018956 0.014522 0.023791
0.011075 -0.0010457 0.010317 -0.006892 -0.0034167 -0.0032154 -0.039559 -0.018915
-0.2036 -0.045919 -0.039305 0.013598
0.00080747 -0.002472 0.00050064 -0.0026867 0.0078565 -0.0037472 0.014508 0.023875
-0.039338 0.013552 -0.24943 -0.015003
680000000 -0.23142 0.19323 -0.027816 -0.014201 0.004906 0.0051029 0.00056026 -0.0076665
-0.0032506 -0.010772 0.0042436 -0.0074573
-0.027769 -0.014211 -0.38655 0.16069 -0.032937 -0.0010825 -0.0017533 -0.00055729
-0.0030573 -0.0086152 -0.00078586 -0.0022671
0.0050036 0.005015 -0.03296 -0.001009 -0.10184 0.28793 -0.00074936 0.00014708
-0.0024185 0.00091639 -0.002869 -0.009547
0.00058149 -0.0078488 -0.0017057 -0.00060078 -0.00075392 0.00013738 -0.21805 0.19599
-0.023753 -0.0084675 -0.010827 -0.010165
-0.0032089 -0.010872 -0.002979 -0.0086442 -0.0023918 0.00092965 -0.023783 -0.0084491
-0.24955 0.05164 -0.0050118 -0.0094768
0.0041497 -0.0072563 -0.00086209 -0.0022899 -0.0029017 -0.0095821 -0.010843 -0.010163
-0.0050149 -0.0094863 -0.26202 0.089478
740000000 -0.18874 0.18898 -0.038456 0.026282 0.012411 -0.0052197 -0.00077686 -0.0040361
-0.004443 -0.002233 -0.0063037 0.003189
-0.038558 0.026016 -0.33472 0.1793 -0.034555 0.035037 -0.00081405 -0.0064065
-0.011646 0.0084548 -0.0025768 -0.0059164
0.012449 -0.0053156 -0.03451 0.03512 -0.068196 0.28701 -0.0012065 0.0034502
-0.0027788 -0.0038445 -0.0011074 0.00052234
-0.00079662 -0.0040479 -0.00088307 -0.0065145 -0.0012292 0.0034161 -0.20128 0.20363
-0.042668 -0.0077299 0.022739 0.012477
-0.0042689 -0.0021606 -0.01146 0.0084604 -0.0027912 -0.0038135 -0.042665 -0.0076851
-0.15583 0.073385 -0.04252 0.0015078
-0.0064912 0.0031047 -0.0025832 -0.005837 -0.0011365 0.00052783 0.022712 0.012477
-0.042474 0.0014166 -0.25057 0.096416
800000000 -0.15728 0.22891 -0.022592 0.01722 0.0051243 -0.010467 -0.0048777 -0.0019321
-0.0041205 0.0029185 0.0043766 0.00095577
-0.022604 0.01717 -0.33701 0.24953 -0.0076958 0.033996 -0.0020048 0.0021779
-0.0003296 0.0033719 0.0013301 0.005221
0.0050995 -0.010497 -0.0075945 0.034026 -0.026755 0.30991 0.0011956 0.0015052
0.00071044 0.0034697 -0.0019481 0.00095771
-0.0048955 -0.0019626 -0.0019956 0.0021901 0.0012217 0.00148 -0.17367 0.23126
-0.028598 0.012571 0.012926 -0.0096358
-0.0041248 0.002935 -0.00021581 0.0034399 0.00073102 0.0034889 -0.0286 0.012634
-0.19856 0.098346 -0.018003 0.017244
0.0042946 0.00087 0.0013567 0.0052851 -0.0019659 0.00095632 0.012925 -0.0096706
-0.018014 0.017232 -0.24442 0.1504
860000000 -0.12211 0.25052 -0.016986 0.031333 -0.0034659 -0.0096565 -0.0025847 0.0013192
0.0043413 0.0049951 -0.0028355 -0.0028397
-0.016924 0.031402 -0.28873 0.29143 0.0082963 0.033899 0.00037061 0.0020083
0.0045953 -2.7229e-06 0.0032721 0.00041403
-0.0034153 -0.0096202 0.0084497 0.033909 0.021879 0.31765 -0.0003558 -0.00027839
0.0027487 -0.0016326 0.0014867 0.0044889
-0.0026235 0.0013102 0.00033065 0.0021266 -0.00034463 -0.00031952 -0.13798 0.24319
-0.017851 0.018321 -0.0063061 -0.0091192
0.0044449 0.0050799 0.0046782 0.00016613 0.0027955 -0.001745 -0.017865 0.018348
-0.15039 0.14591 -0.023868 0.015648
-0.0027061 -0.0029344 0.0032862 0.0003096 0.001432 0.0045426 -0.0063 -0.0091063
-0.023857 0.015633 -0.19397 0.1931
920000000 -0.096604 0.27384 0.0052981 0.038006 -0.0093567 -0.0040254 -0.0016316 0.0024774
0.0011946 0.0016511 0.0026223 -0.0011738
0.0053444 0.03792 -0.25988 0.3124 0.027922 0.0215 0.0016987 0.0010877
0.0066875 -0.00087833 0.0036548 -0.0026623
-0.0093233 -0.0039948 0.028022 0.021439 0.068348 0.31774 0.0017909 -0.00012279
0.0013119 -0.00053406 0.00077599 -0.00098595
-0.0016309 0.0024527 0.0017128 0.0010695 0.0017887 -0.00010799 -0.1134 0.25958
-0.010461 0.029729 0.0024769 -0.0061584
0.0012052 0.001663 0.0067255 -0.00084279 0.001331 -0.0004902 -0.010419 0.029771
-0.13951 0.15258 -0.0022689 0.027441
0.002472 -0.001334 0.0036614 -0.0026575 0.00083073 -0.0010132 0.0024828 -0.0061175
-0.0022849 0.027424 -0.2003 0.20744
980000000 -0.048728 0.29309 0.018102 0.029855 -0.0086225 0.0047986 0.002575 0.0036666
0.0040328 -0.0017531 -0.0028701 -0.0021255
0.018039 0.029828 -0.20671 0.34569 0.03267 0.0043641 0.0019879 -5.7304e-05
0.00095422 -0.0060732 -0.0005313 -0.0021954
-0.0086689 0.0048472 0.032727 0.0042726 0.11466 0.31068 0.0003671 -0.001159
7.7293e-06 -0.0020667 0.0016314 -8.4918e-05
0.0025911 0.0037038 0.0019611 -8.0248e-05 0.00035187 -0.0011818 -0.075112 0.27107
0.0072386 0.028373 -0.0093251 -0.0063531
0.004049 -0.0017788 0.00088226 -0.0060513 -2.2083e-05 -0.0020557 0.0073023 0.02837
-0.10859 0.17984 0.0051657 0.018744
-0.002922 -0.002208 -0.00060863 -0.0021767 0.0016457 -6.1261e-05 -0.009326 -0.0063421
0.0051703 0.018738 -0.15753 0.25192
1040000000 -0.0054944 0.30115 0.033255 0.017524 -0.00096726 0.0068549 0.0029074 0.00067065
3.5946e-05 -0.00367 -0.00064259 -0.001347
0.033213 0.017555 -0.17078 0.35842 0.028703 -0.01491 0.001473 -0.0016873
-0.0026074 -0.0021229 -0.0014294 -0.0026349
-0.0009731 0.0068294 0.02871 -0.015027 0.16071 0.29645 -0.00050462 -0.0013734
-0.0015224 -0.00072737 -0.00036765 -0.0010759
0.002919 0.00065486 0.0014503 -0.0016889 -0.00050713 -0.0013647 -0.047402 0.28095
0.018098 0.016968 -0.0030141 0.0021915
4.9534e-05 -0.0036477 -0.0026289 -0.0020808 -0.0015637 -0.00074239 0.018141 0.016951
-0.077753 0.18877 0.013304 0.017912
-0.00058099 -0.0014137 -0.0014323 -0.0025934 -0.00034347 -0.0010765 -0.0030221 0.0022079
0.013279 0.0179 -0.13585 0.27313
1100000000 0.040401 0.30798 0.035542 -0.0047233 0.0030278 0.0036719 0.0025705 -0.001622
-0.0021457 -0.002981 -0.0038101 4.9056e-05
0.035501 -0.0046973 -0.12719 0.37508 0.014575 -0.027421 3.5092e-05 -0.0018343
-0.0030134 -0.0003531 -0.0033797 -0.00049502
0.0030068 0.003608 0.014483 -0.027496 0.20674 0.27576 -0.0017542 0.00030072
-0.0015665 0.00065938 -0.00089125 -0.00041223
0.0025564 -0.0016152 3.585e-05 -0.0018286 -0.00175 0.00028099 -0.0067568 0.28558
0.022276 0.004959 -0.0020722 0.0010473
-0.0020945 -0.0029465 -0.0029901 -0.00032984 -0.0015625 0.00067307 0.0223 0.0049363
-0.0588 0.20178 0.018409 0.0084743
-0.0038565 9.3565e-05 -0.0033651 -0.00046964 -0.00092596 -0.00037887 -0.0020718 0.0010389
0.018399 0.0084847 -0.088965 0.30234
1160000000 0.092179 0.30201 0.023497 -0.020827 0.002664 -0.00061888 -0.00011745 -0.0026334
-0.0041163 -0.00037767 -0.0008521 0.0040204
0.023467 -0.020825 -0.083203 0.37871 -0.0038486 -0.028523 -0.0017488 -0.0015853
-0.0021919 0.0025422 -0.0012887 0.001489
0.0026785 -0.00064781 -0.0039606 -0.028518 0.24959 0.24479 -0.0005436 0.0016395
-0.00033895 0.0017368 -0.0010849 6.7423e-05
-0.00013093 -0.0026294 -0.0017769 -0.0015739 -0.00053462 0.0016759 0.032657 0.28254
0.018851 -0.0095535 -0.0026143 0.0056799
-0.0041309 -0.0003299 -0.002185 0.0025825 -0.00032765 0.0017267 0.018845 -0.0095609
-0.025274 0.21121 0.017158 0.00072111
-0.00081468 0.0040441 -0.0012703 0.0015144 -0.0010913 6.5936e-05 -0.0025976 0.0056957
0.017166 0.00070228 -0.042005 0.30535
1220000000 0.13669 0.28974 0.010037 -0.029712 -0.0015306 -0.00089532 -0.00023269 -0.0011161
-0.0024874 0.0025917 0.0013059 0.0018548
0.010047 -0.029691 -0.039298 0.38993 -0.016585 -0.020575 -0.0024798 0.00045821
0.00034405 0.0027261 -0.00066721 0.0017537
-0.0015416 -0.00087446 -0.016701 -0.020521 0.28857 0.20579 0.00089123 0.0014973
0.00059592 0.001046 0.00025823 0.00072055
-0.00024094 -0.0011216 -0.0024913 0.0004585 0.00088583 0.0014868 0.072255 0.2737
0.0090157 -0.014932 0.0030123 0.0016856
-0.002487 0.0026325 0.00034244 0.0027522 0.00060172 0.0010498 0.0089965 -0.01495
-0.0013346 0.22055 0.013213 -0.012008
0.0012785 0.0018272 -0.00067781 0.0017611 0.00024843 0.00070649 0.0030161 0.0016857
0.013229 -0.011991 -0.0098645 0.32147
1280000000 0.18583 0.26676 -0.0079067 -0.027964 -0.0018338 0.0023176 -0.0011216 -0.0019376
-0.00049645 0.0031027 0.0025016 0.00094283
-0.0078508 -0.027935 0.0063205 0.38061 -0.023063 -0.0082545 -0.00097505 0.001411
0.0015816 0.0014667 0.00045117 0.0019351
-0.0018029 0.0023064 -0.023123 -0.0081627 0.31919 0.16183 0.0013055 -0.00017268
0.0008766 9.5434e-05 0.00031356 0.00046058
-0.0011516 -0.0019264 -0.0009518 0.0014231 0.0013012 -0.00017912 0.10859 0.25761
0.00051979 -0.016353 0.00078236 9.8122e-06
-0.000483 0.0031235 0.0015951 0.0014769 0.00084975 8.7975e-05 0.00048459 -0.016359
0.035746 0.22396 0.0029387 -0.013949
0.002487 0.00093388 0.00048415 0.0019148 0.00030325 0.00047487 0.00078979 7.1605e-06
0.0029411 -0.013939 0.037674 0.3229
1340000000 0.22226 0.2322 -0.017402 -0.018699 0.00081468 0.0042252 -0.0019057 -0.00065022
0.0014526 0.0024673 0.0015667 -0.0015031
-0.017369 -0.018716 0.045456 0.37203 -0.02108 0.0040591 -7.2353e-05 0.0018938
0.0015921 0.00065044 0.0012995 0.00084995
0.00081969 0.0042242 -0.021083 0.0041505 0.34153 0.11365 0.00088325 -0.00083247
0.00054563 -0.00036193 0.00019983 0.00020501
-0.0019111 -0.00066007 -5.7167e-05 0.0019027 0.00089189 -0.00084305 0.14145 0.2374
-0.0071107 -0.013645 0.001483 -0.00022763
0.0014891 0.0024516 0.001603 0.00063372 0.00054642 -0.00036881 -0.0071425 -0.013636
0.066569 0.21901 -0.0031538 -0.012495
0.0015664 -0.0015094 0.0013197 0.00084116 0.00019336 0.00018639 0.0014719 -0.00023078
-0.0031507 -0.012501 0.076772 0.31831
1400000000 0.25448 0.1936 -0.023019 -0.00746 0.0049183 0.0030418 -0.0020213 0.00070787
0.0023746 0.00055437 0.00016305 -0.0013006
-0.022993 -0.0074652 0.082217 0.3589 -0.014537 0.011936 0.0013005 0.001212
0.00086105 -0.0007447 0.0011756 0.00027692
0.0049382 0.0030302 -0.014489 0.012021 0.35454 0.059527 7.3981e-05 -0.0013883
-4.9548e-05 -0.00031834 0.000346 0.00025867
-0.0020185 0.00071198 0.0013077 0.001222 7.3965e-05 -0.0013807 0.17132 0.20909
-0.011875 -0.0079495 -0.0005597 -0.0010326
0.0023811 0.00052438 0.00084799 -0.00074057 -2.919e-05 -0.00030504 -0.011898 -0.0079247
0.099795 0.21377 -0.0091997 -0.0081438
0.00015717 -0.0013025 0.0011796 0.00026106 0.00033159 0.00022678 -0.00056243 -0.0010395
-0.0091946 -0.0081624 0.12164 0.30701
1460000000 0.27678 0.14933 -0.02026 0.004396 0.0053213 -0.0016749 -0.0015143 0.0017269
0.0018554 -0.00078952 -0.00031355 -0.00087768
-0.020234 0.004358 0.11629 0.3371 -0.0062244 0.014726 0.0016545 0.00013825
0.00083729 -0.0010466 0.0011688 -0.00062073
0.005308 -0.0017244 -0.006161 0.01478 0.36008 0.0046374 -0.001068 -0.0011448
0.00023733 -0.00010187 0.00055706 -0.00035922
-0.0015089 0.0017316 0.00166 0.00012366 -0.0010584 -0.0011646 0.19838 0.17998
-0.012459 -0.002888 -0.0012284 0.0012781
0.0018279 -0.00079513 0.00082533 -0.0010588 0.00023798 -9.0018e-05 -0.012474 -0.002863
0.1298 0.19861 -0.010645 -0.0030722
-0.00036707 -0.00089865 0.001177 -0.00060553 0.00055715 -0.00035963 -0.0012235 0.0012894
-0.010637 -0.0030741 0.15486 0.28577
1520000000 0.28841 0.10742 -0.014787 0.010022 0.0030701 -0.0039082 0.00014409 0.0025241
0.001593 -0.0016264 -0.0011173 -0.00015162
-0.014773 0.0099875 0.14975 0.32219 0.0011245 0.012842 0.0015621 -0.00079736
0.00014308 -0.00088194 0.00026597 -0.00099911
0.0030716 -0.0039089 0.0011993 0.012833 0.353 -0.051895 -0.00085299 -0.00038325
0.00060548 -0.00077425 -5.3053e-05 -6.0715e-05
0.0001381 0.0025202 0.0015597 -0.00080747 -0.00086163 -0.00036328 0.22236 0.1417
-0.012078 0.0014138 0.00082596 0.0016742
0.001553 -0.0016413 0.00013053 -0.00088675 0.00061381 -0.00076554 -0.012081 0.0014381
0.15791 0.18348 -0.01092 0.0010201
-0.0011003 -0.00013795 0.0002628 -0.00099895 -4.7032e-05 -6.8593e-05 0.00082838 0.001671
-0.010911 0.0010188 0.18844 0.26515
1580000000 0.29742 0.060992 -0.0083721 0.013199 -0.00094195 -0.0046216 0.0013813 0.0018249
-0.00049478 -0.0019027 -0.00033175 0.0003588
-0.0083842 0.013177 0.17697 0.29738 0.0047878 0.008261 0.00043023 -0.0015185
-0.00035954 -0.00099087 -0.00027837 -0.00084597
-0.00094938 -0.0046342 0.0048358 0.0082417 0.33207 -0.1096 -0.0014454 0.0004305
-0.00026591 -0.0010412 0.00014254 -0.00051107
0.0013881 0.0018044 0.00042237 -0.0015157 -0.0014273 0.00042486 0.23723 0.10152
-0.0097767 0.0053013 0.001675 0.00072835
-0.00048791 -0.0018803 -0.00036342 -0.0009939 -0.00028335 -0.0010521 -0.0097639 0.0053248
0.18228 0.16476 -0.0089257 0.0063895
-0.00035421 0.00039323 -0.00028437 -0.00085575 0.00011772 -0.00051814 0.0016781 0.00072845
-0.0089274 0.0063896 0.2206 0.23812
1640000000 0.29897 0.019027 -0.0017612 0.01239 -0.0025537 -0.0023509 0.0025675 0.0010057
-0.00076196 -0.0010086 -0.00030442 0.0007077
-0.001763 0.012379 0.20646 0.27196 0.0056022 0.0036988 -0.00069315 -0.0015938
-0.00094493 -0.00051188 -0.00053823 -0.00060915
-0.0025535 -0.0023319 0.0056323 0.0036825 0.3033 -0.15846 -0.00084715 0.0012285
-0.00097992 -0.00083616 -6.6193e-05 -0.00026377
0.0025764 0.00098376 -0.00069813 -0.0015879 -0.00085543 0.0012228 0.24986 0.051279
-0.0067453 0.0063288 0.0020412 -0.00058099
-0.00078559 -0.0010032 -0.00094534 -0.00050935 -0.00098074 -0.00084958 -0.0067273 0.0063458
0.20535 0.13906 -0.0047016 0.0084781
-0.00032017 0.00069379 -0.00055253 -0.00060909 -6.9321e-05 -0.00027001 0.0020459 -0.00058302
-0.0047068 0.0084848 0.2465 0.20655
1700000000 0.29073 -0.026724 0.0018168 0.0097695 -0.003244 0.00011114 0.00291 -0.0010674
-0.0016722 -0.00040261 0.00063506 0.0004582
0.0018119 0.0097637 0.22441 0.24018 0.0038292 0.00095598 -0.0013528 -0.00053578
-0.00083611 -2.3255e-05 -0.00089811 -0.00040874
-0.0032093 0.00010261 0.0038392 0.00093342 0.2595 -0.19802 0.00025108 0.0015087
-0.0017745 -0.00034226 -0.00051916 -0.00091978
0.0028996 -0.0010605 -0.0013553 -0.00053122 0.00025752 0.0015182 0.24626 -0.00011193
-0.0049518 0.0071113 0.0013215 -0.0018413
-0.0016754 -0.0003875 -0.00084389 -2.2393e-05 -0.0017662 -0.00034221 -0.0049395 0.0071255
0.22277 0.11722 -0.00023299 0.0090532
0.00066093 0.00042743 -0.00089639 -0.00040504 -0.00051579 -0.00092607 0.001313 -0.001838
-0.00022751 0.0090509 0.2626 0.17152
1760000000 0.27737 -0.075344 0.0043478 0.0066329 -0.002103 0.00075079 0.0013626 -0.003315
-0.00094674 0.00053573 0.00046834 -0.00042824
0.0043336 0.0066158 0.25009 0.19991 0.0016948 -0.00084402 -0.0010753 0.00016146
-0.0011578 0.00085118 -0.00059852 0.0005429
-0.0021001 0.00075647 0.0016997 -0.00085274 0.21021 -0.2309 0.0010578 0.0013268
-0.0012293 0.0012289 -0.0013371 -0.00042373
0.0013596 -0.0033252 -0.0010695 0.00016271 0.0010525 0.0013049 0.23556 -0.052737
-0.0024324 0.006892 -0.00052054 -0.001991
-0.00093269 0.00055771 -0.001151 0.00086429 -0.0012129 0.00122 -0.0024216 0.0069028
0.23773 0.080136 0.0032958 0.0065388
0.00046628 -0.0004047 -0.000593 0.00055633 -0.001341 -0.00039343 -0.00053062 -0.001991
0.0032976 0.0065358 0.275 0.13362
1820000000 0.25137 -0.11245 0.0047826 0.0029307 -3.9421e-05 0.0022307 -0.00089985 -0.0030371
-0.00083357 0.00047484 7.3768e-05 -0.00016319
0.0047819 0.002925 0.25953 0.16947 -9.7701e-05 0.00013941 -0.0013491 0.00078163
-0.00010797 0.0013743 -0.00049235 0.00051003
-1.1748e-05 0.0022422 -9.1675e-05 0.00013432 0.16009 -0.24644 0.0015564 0.00047581
-0.00042525 0.0020522 -0.0013456 0.00050809
-0.00092072 -0.0030168 -0.0013502 0.00078588 0.0015618 0.00049108 0.20357 -0.10025
-0.0011893 0.0057576 -0.0015511 -0.0012019
-0.00082685 0.00050856 -8.7474e-05 0.0013817 -0.00042682 0.0020586 -0.0011799 0.0057642
0.2538 0.048629 0.0043023 0.0033191
7.0354e-05 -0.0001503 -0.0004837 0.00051474 -0.0012985 0.00050927 -0.0015492 -0.0011943
0.0042948 0.003325 0.27689 0.097124
1880000000 0.21504 -0.15165 0.0026884 0.00051832 -0.00031627 0.0019175 -0.002828 -0.0022427
-0.00040177 0.0013511 0.00023287 -0.00065309
0.0026828 0.00051226 0.26344 0.12287 -0.0019351 0.0017078 -0.00022506 0.0016776
0.00067365 0.0013434 0.00021224 0.00091546
-0.00031635 0.0019126 -0.0019158 0.001732 0.10825 -0.25522 0.0018771 -0.00098604
0.0014067 0.0019855 -0.00093192 0.0014282
-0.0028692 -0.0022266 -0.00022771 0.001674 0.0018729 -0.00098013 0.16126 -0.13947
-0.00091394 0.0045753 -0.0021733 0.00080992
-0.00037978 0.0013761 0.00067856 0.0013437 0.0014192 0.0019976 -0.00090137 0.0045863
0.25479 0.01347 0.0040774 0.0015027
0.00024993 -0.00065638 0.00021929 0.00092012 -0.00089261 0.0014035 -0.0021589 0.00082459
0.0040705 0.0015024 0.27647 0.063132
1940000000 0.17517 -0.17633 0.00046302 -0.0014169 0.0012313 0.0019435 -0.00378 0.00052938
0.0010555 0.0010477 -0.00075961 -0.00062638
0.0004711 -0.0014001 0.26339 0.090977 -0.00088777 0.003738 0.00090546 0.0013477
0.0019966 0.00050042 0.00081687 0.00021882
0.0012915 0.0018734 -0.00083803 0.0037424 0.062303 -0.24882 0.00028845 -0.0024306
0.0023949 0.00056377 0.00033452 0.0015647
-0.0037862 0.00054345 0.00090986 0.0013263 0.00028298 -0.0024123 0.10782 -0.16794
-0.0019086 0.0041812 -0.001026 0.0017946
0.0010542 0.0010473 0.0020155 0.00048649 0.0024175 0.0005536 -0.0018995 0.0041912
0.25368 -0.027601 0.0030377 -0.0015123
-0.00076124 -0.00062472 0.00082518 0.00019729 0.00034934 0.0015938 -0.0010205 0.0018056
0.0030286 -0.0015105 0.26522 0.027154
2000000000 0.12885 -0.18947 -0.0034151 0.00041594 0.0022474 0.0015805 -0.0023017 0.0034967
0.0010778 0.00034784 -0.00064285 0.00040542
-0.0033947 0.00042033 0.24858 0.055591 -0.00080377 0.0053683 0.0016698 0.00026329
0.0015678 -0.0015723 0.00048705 0.00012768
0.0023044 0.0016259 -0.00075868 0.0053674 0.018889 -0.23458 -0.0014584 -0.0013855
0.0021032 -0.0012628 0.0015802 0.00122
-0.0022804 0.0035849 0.0016727 0.0002724 -0.0014651 -0.0013737 0.054363 -0.17582
-0.0033744 0.004932 0.00027318 0.0021292
0.0010683 0.00039819 0.0015647 -0.0015757 0.0020967 -0.001269 -0.0033647 0.0049368
