!Keysight Technologies,M9804A,MY58100912,A.14.10.03
!Date: Thursday, April 27, 2023 10:28:33
!Correction: S11(C  6-Port  ) 
!S12(C  6-Port  ) 
!S13(C  6-Port  ) 
!S14(C  6-Port  ) 
!S15(C  6-Port  ) 
!S16(C  6-Port  ) 
!S21(C  6-Port  ) 
!S22(C  6-Port  ) 
!S23(C  6-Port  ) 
!S24(C  6-Port  ) 
!S25(C  6-Port  ) 
!S26(C  6-Port  ) 
!S31(C  6-Port  ) 
!S32(C  6-Port  ) 
!S33(C  6-Port  ) 
!S34(C  6-Port  ) 
!S35(C  6-Port  ) 
!S36(C  6-Port  ) 
!S41(C  6-Port  ) 
!S42(C  6-Port  ) 
!S43(C  6-Port  ) 
!S44(C  6-Port  ) 
!S45(C  6-Port  ) 
!S46(C  6-Port  ) 
!S51(C  6-Port  ) 
!S52(C  6-Port  ) 
!S53(C  6-Port  ) 
!S54(C  6-Port  ) 
!S55(C  6-Port  ) 
!S56(C  6-Port  ) 
!S61(C  6-Port  ) 
!S62(C  6-Port  ) 
!S63(C  6-Port  ) 
!S64(C  6-Port  ) 
!S65(C  6-Port  ) 
!S66(C  6-Port  ) 
!S6P File: Measurement: :
# Hz S  RI   R 50
500000000 -0.33673 -0.032777 -0.0095348 -0.0038246 -0.0076418 0.011578 -0.003859 0.011348
0.011947 0.0045991 -0.0043769 0.0080357
-0.010083 -0.0043167 -0.41877 -0.047971 0.0076847 -0.011825 0.0017047 0.011077
0.0076241 0.0025654 0.00094238 0.012443
-0.0080283 0.012154 0.0078629 -0.011655 -0.26366 0.21172 0.0067593 0.0027132
0.00032304 0.0084995 0.000734 0.011838
-0.0033606 0.011051 0.0014344 0.010619 0.0071042 0.0031736 -0.32676 0.049996
-0.019197 -0.0051419 0.017176 0.025015
0.011625 0.0033231 0.0083035 0.0028001 -0.001218 0.0082182 -0.01908 -0.0054993
-0.22687 -0.17907 -0.027288 0.0042481
-0.0047969 0.0068587 0.00099443 0.012125 0.00096223 0.011368 0.01716 0.02577
-0.027073 0.0044333 -0.27361 -0.12686
560000000 -0.31459 0.12659 -0.023748 -0.06232 0.00043815 0.012107 0.0072615 0.0097131
0.011365 0.0034802 0.0094817 0.0073544
-0.023706 -0.061931 -0.37537 0.11003 -0.042282 -0.036355 0.013968 0.0044335
-0.012262 -0.0046194 0.0049991 -0.00049399
-9.1339e-05 0.012472 -0.042277 -0.036359 -0.18154 0.25867 -0.0010607 -0.0049302
0.018328 0.0042813 0.007021 -0.0060635
0.0065475 0.009809 0.013989 0.0028882 -0.0010115 -0.0050215 -0.30238 0.13659
0.0048799 -0.02455 0.0052696 -0.019774
0.012263 0.0031415 -0.01303 -0.0037059 0.01996 0.0034725 0.0051636 -0.02539
-0.28475 -0.0064983 0.0077165 -0.050938
0.0099926 0.0076553 0.0050658 -0.000697 0.0065943 -0.0061578 0.0053577 -0.020109
0.0072492 -0.050939 -0.33235 0.021148
620000000 -0.27301 0.10988 -0.022871 0.0068363 0.0035064 0.008458 0.0064542 -0.0053134
0.010949 -0.0012588 0.00057609 -0.0019503
-0.023014 0.006972 -0.4023 0.064146 -0.018953 -0.0002644 -0.0019087 -0.0021171
0.010523 -0.0069217 0.00036873 -0.0027368
0.0031511 0.0083773 -0.018823 -0.00019896 -0.15226 0.26832 -0.001798 -0.0053073
-0.0032424 -0.0033208 0.0078103 -0.0035649
0.006343 -0.006227 -0.0016412 -0.0022424 -0.0018005 -0.005167 -0.25937 0.1461
-0.038892 -0.018683 0.014991 0.023874
0.010837 0.00012151 0.010698 -0.007028 -0.0038497 -0.0033435 -0.038611 -0.018866
-0.20405 -0.045221 -0.039703 0.013795
0.00066765 -0.0016312 0.00068985 -0.0026408 0.0082352 -0.0033127 0.015804 0.024072
-0.040134 0.013759 -0.25078 -0.015856
680000000 -0.23188 0.19398 -0.027803 -0.014143 0.0048053 0.0050219 0.00065093 -0.0079927
-0.0032294 -0.011041 0.0042583 -0.0074328
-0.027936 -0.013968 -0.3865 0.16084 -0.032818 -0.0010879 -0.0016565 -0.00060617
-0.0027525 -0.0085355 -0.00074902 -0.0024026
0.005137 0.0052752 -0.032853 -0.00078145 -0.10171 0.28775 -0.00050905 -1.4554e-05
-0.0020945 0.00096823 -0.0028033 -0.0095753
0.0004171 -0.0076362 -0.0017457 -0.0001671 -0.00096355 0.00030359 -0.21797 0.19604
-0.023175 -0.0086472 -0.010894 -0.010378
-0.0037114 -0.010449 -0.0030273 -0.0087603 -0.002034 0.0007702 -0.023256 -0.0088659
-0.24957 0.051637 -0.0051291 -0.0094232
0.0048542 -0.0069308 -0.0010009 -0.002221 -0.0028359 -0.0097544 -0.011258 -0.010723
-0.0050444 -0.0092608 -0.26241 0.088729
740000000 -0.18895 0.18929 -0.038682 0.026246 0.012636 -0.0052806 -0.00084353 -0.0040674
-0.0043521 -0.0019105 -0.0062773 0.0033079
-0.038646 0.025935 -0.33486 0.17939 -0.034865 0.035103 -0.00073877 -0.0063087
-0.011733 0.0081917 -0.0027263 -0.0059796
0.012984 -0.0048918 -0.034522 0.03496 -0.068284 0.28691 -0.0012312 0.0035986
-0.0028794 -0.0039563 -0.0010203 0.00055088
-0.0011514 -0.0045897 -0.000882 -0.0063087 -0.0011194 0.0036777 -0.20099 0.20335
-0.042718 -0.0076608 0.022833 0.012512
-0.0050585 -0.0024187 -0.011558 0.0081688 -0.0029158 -0.0046565 -0.043015 -0.0081326
-0.1556 0.073032 -0.042744 0.0015901
-0.0064969 0.003134 -0.0027113 -0.0058368 -0.0016725 0.0010607 0.023326 0.013288
-0.042756 0.0014155 -0.25074 0.095548
800000000 -0.15724 0.22909 -0.022462 0.017429 0.0052797 -0.010448 -0.0048358 -0.0020167
-0.004129 0.0029576 0.0043906 0.00081824
-0.022493 0.017337 -0.33689 0.24965 -0.0077065 0.034003 -0.0020852 0.0021177
-0.00034231 0.0034235 0.0013023 0.0052436
0.0050833 -0.010344 -0.0075417 0.034197 -0.026799 0.30991 0.0012226 0.0014993
0.000748 0.0035289 -0.001966 0.00092372
-0.0051213 -0.0016045 -0.0021003 0.0023039 0.0011774 0.0014634 -0.17374 0.23115
-0.028627 0.012453 0.01298 -0.0096833
-0.0042471 0.0029017 -0.00026529 0.0033207 0.0011348 0.0034268 -0.028779 0.012383
-0.19879 0.097873 -0.017898 0.017317
0.0039904 0.001119 0.0010699 0.005766 -0.0019055 0.00070317 0.012737 -0.0096413
-0.017947 0.017018 -0.24459 0.14999
860000000 -0.12228 0.25052 -0.016806 0.031453 -0.0034591 -0.0096821 -0.002776 0.0013839
0.0044505 0.005064 -0.0028103 -0.0028328
-0.017087 0.031378 -0.2886 0.29149 0.0083672 0.034057 0.00024969 0.0021194
0.0047019 0.00014942 0.0034231 0.00031446
-0.0034387 -0.0095069 0.0084133 0.033987 0.021799 0.31768 -0.00040024 -0.0002705
0.0028125 -0.0016969 0.001523 0.0044283
-0.0026814 0.0011213 0.00034859 0.0020292 -0.00039413 -0.0003553 -0.13828 0.24326
-0.017664 0.018329 -0.0062717 -0.0090799
0.0047279 0.0048307 0.0045815 0.00020764 0.0026162 -0.0015579 -0.017537 0.018193
-0.15019 0.14561 -0.023601 0.015461
-0.0031928 -0.0026737 0.0035545 0.00015504 0.0016639 0.0045554 -0.0062404 -0.0096762
-0.024325 0.01555 -0.19398 0.19303
920000000 -0.096776 0.27384 0.0054024 0.038087 -0.0092189 -0.0040174 -0.0016715 0.002465
0.0012431 0.0016989 0.0025145 -0.0012501
0.0054597 0.037921 -0.25969 0.31234 0.027966 0.021446 0.0016672 0.0010504
0.0066603 -0.00079305 0.0036648 -0.0026961
-0.0093706 -0.0039513 0.028129 0.021437 0.068339 0.3177 0.0017647 -0.00013731
0.0012469 -0.00048574 0.00072092 -0.001003
-0.0015245 0.0025509 0.0017309 0.0010695 0.0018575 -0.00012386 -0.11359 0.25948
-0.010527 0.029758 0.0025369 -0.0061848
0.0015323 0.0018205 0.0066591 -0.0006915 0.0013172 -0.00056853 -0.01062 0.029886
-0.13978 0.15254 -0.0020555 0.027461
0.0025088 -0.0012602 0.0037238 -0.0029126 0.00098431 -0.0011186 0.0025368 -0.0060638
-0.0021866 0.027524 -0.20067 0.20711
980000000 -0.048536 0.2932 0.018136 0.029714 -0.0086957 0.0047492 0.0025229 0.0037291
0.0040648 -0.001738 -0.0028757 -0.0021974
0.018135 0.029853 -0.2068 0.34545 0.032652 0.0044064 0.0019913 -0.0001423
0.00092623 -0.006036 -0.00055337 -0.0022541
-0.0085985 0.0048463 0.032687 0.0042717 0.1146 0.31063 0.00039476 -0.0011901
-2.0706e-06 -0.0020561 0.0015962 -0.00010352
0.0026389 0.0036647 0.0019731 -0.00021446 0.00037967 -0.0011994 -0.075232 0.27113
0.0072289 0.028462 -0.0093929 -0.0064102
0.004173 -0.0018608 0.00097841 -0.0060404 2.7803e-05 -0.0020406 0.0072404 0.0285
-0.10879 0.17957 0.0051686 0.018632
-0.0031514 -0.0021451 -0.00069211 -0.0025087 0.0015541 -0.00012911 -0.0094775 -0.006388
0.0052712 0.018664 -0.15781 0.2516
1040000000 -0.0058042 0.30118 0.033273 0.017496 -0.00099238 0.0068832 0.002899 0.00062261
5.6276e-05 -0.0036692 -0.00060875 -0.001371
0.0333 0.017474 -0.17089 0.35834 0.028704 -0.014853 0.0015522 -0.0016213
-0.0026364 -0.0021242 -0.0014092 -0.0025972
-0.00095179 0.0067966 0.028682 -0.014965 0.16064 0.29648 -0.00048123 -0.0013515
-0.0015689 -0.0007865 -0.00037146 -0.0010821
0.002842 0.00074319 0.0015126 -0.0017008 -0.00052503 -0.0014108 -0.047571 0.28096
0.018032 0.017006 -0.0030122 0.0022046
-0.00014494 -0.0035655 -0.0025234 -0.002246 -0.0015218 -0.00072144 0.018093 0.016908
-0.078009 0.18856 0.013291 0.017898
-0.00054051 -0.0015219 -0.0013859 -0.00268 -0.00047042 -0.0011853 -0.0029855 0.0020894
0.013213 0.0179 -0.13615 0.27285
1100000000 0.040533 0.30792 0.035603 -0.0046894 0.0029935 0.0036782 0.0025296 -0.0016055
-0.0020724 -0.002972 -0.0038735 -2.1073e-05
0.035604 -0.004731 -0.12737 0.37507 0.01457 -0.027424 2.8889e-05 -0.0018419
-0.0030124 -0.00035113 -0.0033575 -0.00047724
0.0030313 0.0035905 0.014518 -0.027497 0.20669 0.27578 -0.0017223 0.00028347
-0.0015874 0.00068992 -0.00090665 -0.00037811
0.0027003 -0.0015517 1.9815e-05 -0.0017948 -0.0017573 0.00033213 -0.0067873 0.28565
0.022221 0.0050417 -0.0020459 0.001051
-0.0021342 -0.0031022 -0.0029202 -0.00034086 -0.0016882 0.00058693 0.022322 0.0051343
-0.059174 0.20164 0.018427 0.008547
-0.0037935 5.5615e-05 -0.003455 -0.00046694 -0.0010192 -0.00037672 -0.002143 0.0010032
0.018405 0.0085035 -0.08931 0.30205
1160000000 0.09192 0.30211 0.023547 -0.020994 0.0026835 -0.00066202 -0.0001238 -0.0025498
-0.0041335 -0.00038422 -0.00081848 0.0040583
0.023578 -0.020892 -0.083548 0.3788 -0.0038281 -0.028487 -0.0017471 -0.0016503
-0.0021679 0.0025444 -0.0012366 0.0015627
0.0026834 -0.00068055 -0.0040189 -0.028429 0.24948 0.24485 -0.00058301 0.0016775
-0.00033136 0.0016937 -0.0010762 7.4918e-05
-8.8179e-05 -0.0025683 -0.0017161 -0.0016538 -0.00053296 0.0016151 0.032639 0.28252
0.018875 -0.0094564 -0.0026192 0.0056915
-0.0041669 -0.00033156 -0.0021477 0.002594 -0.00042888 0.0016716 0.018883 -0.0095182
-0.025538 0.21129 0.017203 0.00067334
-0.000846 0.0038396 -0.0012893 0.0015037 -0.00093198 0.00021589 -0.0025793 0.0057738
0.017108 0.00059428 -0.042389 0.30506
1220000000 0.13656 0.28978 0.010017 -0.02985 -0.0015423 -0.00089865 -0.00024589 -0.0010738
-0.00246 0.0025733 0.0013204 0.0018791
0.010028 -0.02984 -0.039388 0.38999 -0.016575 -0.020581 -0.0025069 0.00044134
0.00033437 0.0027675 -0.00066844 0.001758
-0.0015826 -0.00090432 -0.016674 -0.020513 0.28846 0.20582 0.00085787 0.0014774
0.00062069 0.0010429 0.00027819 0.0006969
-0.00021738 -0.0010967 -0.0024622 0.00046801 0.00085907 0.0015278 0.072275 0.27375
0.009074 -0.014855 0.0030286 0.0017222
-0.0025113 0.0025309 0.00033959 0.0027524 0.00056841 0.00094737 0.0090446 -0.014827
-0.0015851 0.22057 0.01328 -0.011985
0.0012592 0.0018687 -0.0006303 0.0017531 0.00022149 0.00076937 0.0029683 0.0017321
0.01329 -0.012018 -0.01033 0.3214
1280000000 0.18572 0.26687 -0.008013 -0.028082 -0.0018634 0.0023532 -0.0011064 -0.0019376
-0.00052027 0.0030956 0.0025286 0.00093425
-0.0079551 -0.028045 0.0062026 0.38076 -0.023054 -0.0082939 -0.00098822 0.0014506
0.0015675 0.0014674 0.00047656 0.0019278
-0.001841 0.0023639 -0.02313 -0.0081886 0.31908 0.16188 0.0013141 -0.00014871
0.00089156 8.0209e-05 0.00031495 0.00046277
-0.0011869 -0.0019343 -0.00095935 0.0014458 0.0012253 -0.0001709 0.10848 0.25758
0.00064982 -0.01631 0.00078883 1.2984e-05
-0.00047371 0.0030841 0.0015508 0.0014759 0.00089751 9.5253e-05 0.00060306 -0.01632
0.035567 0.22418 0.0029245 -0.013987
0.0025453 0.00088859 0.0004494 0.0019014 0.00031585 0.00031314 0.00078712 -3.677e-05
0.0029317 -0.013992 0.037152 0.32282
1340000000 0.22229 0.23218 -0.017597 -0.018732 0.00077271 0.0042885 -0.001921 -0.00065269
0.0014726 0.0024834 0.0015707 -0.0015332
-0.017609 -0.018715 0.045459 0.37209 -0.021071 0.0040272 -8.7712e-05 0.0019338
0.0016175 0.00064969 0.0013163 0.00084807
0.00080804 0.0042707 -0.021064 0.0041213 0.34151 0.11376 0.00085612 -0.00084266
0.00052404 -0.00038102 0.00019815 0.00015197
-0.0018634 -0.00062369 -3.7373e-05 0.0018651 0.00094249 -0.00083925 0.14138 0.23732
-0.0070081 -0.013677 0.0015003 -0.00023082
0.0015108 0.0025115 0.0016436 0.00061485 0.00051492 -0.00034415 -0.0069773 -0.013636
0.06646 0.21903 -0.003163 -0.01253
0.0015639 -0.0015104 0.0012908 0.0008095 0.00018902 0.00014347 0.0015578 -0.0001943
-0.003186 -0.012565 0.076261 0.31828
1400000000 0.25443 0.19358 -0.023162 -0.0073979 0.0049113 0.0030538 -0.0020676 0.00067792
0.0023833 0.00053957 0.00015695 -0.0013263
-0.023134 -0.0073757 0.082197 0.35891 -0.014562 0.011937 0.0013098 0.0012233
0.00086321 -0.00074647 0.0011995 0.00027379
0.0049593 0.003058 -0.014504 0.011993 0.35449 0.059555 7.6744e-05 -0.0013735
-2.7218e-05 -0.00029007 0.00032949 0.00018588
-0.0020276 0.00071175 0.0013539 0.001275 3.1945e-05 -0.0013837 0.17119 0.20911
-0.011799 -0.0080258 -0.00053519 -0.0010791
0.0024299 0.00050524 0.00089751 -0.00074974 1.8876e-05 -0.00034351 -0.01183 -0.0080408
0.099736 0.21376 -0.0092365 -0.0081554
0.00010256 -0.0013259 0.001211 0.000301 0.00027343 0.00018834 -0.00056207 -0.0010725
-0.0092681 -0.0081577 0.12113 0.307
1460000000 0.27673 0.14932 -0.020336 0.0045721 0.0053394 -0.0016836 -0.0015396 0.0017724
0.0018648 -0.0007812 -0.00034441 -0.00090022
-0.02032 0.0045689 0.11628 0.3371 -0.0062565 0.014744 0.0016983 0.00016466
0.00083067 -0.0010394 0.0011748 -0.00061899
0.0053321 -0.0017096 -0.0062172 0.014788 0.36016 0.0047069 -0.0010256 -0.0011355
0.00021812 -0.00012022 0.00059851 -0.0003809
-0.0015571 0.0017846 0.0016799 0.00011349 -0.0010227 -0.001113 0.19829 0.18001
-0.012437 -0.0030174 -0.00122 0.0012563
0.0018325 -0.00075194 0.00080628 -0.0010519 0.0002259 -0.00013303 -0.012421 -0.0030003
0.1297 0.19854 -0.010684 -0.0030288
-0.00030215 -0.0009143 0.0012201 -0.00061629 0.0005249 -0.00030069 -0.0012263 0.0012292
-0.010671 -0.0030309 0.15439 0.2858
1520000000 0.28832 0.10747 -0.014746 0.010211 0.0030752 -0.0039522 0.00013961 0.002551
0.0015936 -0.0016632 -0.0011265 -0.00013689
-0.014753 0.010191 0.14968 0.32215 0.0011195 0.012827 0.0015621 -0.00079772
0.00012272 -0.00089275 0.00028101 -0.0010045
0.0030736 -0.0039249 0.001161 0.012856 0.35293 -0.051908 -0.00082637 -0.0003885
0.00057526 -0.00074311 -4.6765e-05 -4.6316e-05
0.00012065 0.0024972 0.001565 -0.000785 -0.00088172 -0.00034164 0.2223 0.14174
-0.012143 0.0012949 0.00079028 0.0016284
0.0015945 -0.0016797 0.00014218 -0.00088916 0.00053731 -0.00073679 -0.012128 0.0013168
0.15774 0.18344 -0.010922 0.0010838
-0.0011783 -6.6036e-05 0.00031555 -0.0010222 -6.7521e-05 -7.9595e-05 0.00081043 0.0016682
-0.010903 0.0010973 0.18794 0.26523
1580000000 0.29729 0.06097 -0.0082221 0.013348 -0.00091853 -0.0046277 0.0013781 0.001821
-0.00050488 -0.0019188 -0.00032937 0.00039699
-0.0082372 0.013342 0.17685 0.29734 0.0047774 0.0082394 0.00043532 -0.0015412
-0.00033615 -0.00099167 -0.00027888 -0.0008623
-0.00095453 -0.0045819 0.0048126 0.0082704 0.33218 -0.10952 -0.0014626 0.00045277
-0.00025537 -0.0010608 0.00013329 -0.0005077
0.0014609 0.0018691 0.000428 -0.0015603 -0.0014281 0.00041221 0.23716 0.10157
-0.0098447 0.0052514 0.0016724 0.00071624
-0.00054336 -0.0018824 -0.00031829 -0.0010384 -0.00020883 -0.0010446 -0.0098847 0.0052724
0.18206 0.16476 -0.0088763 0.00643
-0.00034371 0.0002975 -0.00025643 -0.00087158 0.00012969 -0.00056983 0.0016611 0.00073953
-0.0089097 0.0064123 0.22015 0.23835
1640000000 0.29882 0.019039 -0.0015806 0.012392 -0.0026076 -0.0023332 0.0026094 0.0010106
-0.0007957 -0.0010123 -0.00027967 0.00070358
-0.0015905 0.012402 0.20635 0.27201 0.0055656 0.0037463 -0.00072064 -0.0015788
-0.00094676 -0.00051367 -0.0005385 -0.00063353
-0.0025891 -0.002343 0.005619 0.0037254 0.30333 -0.15845 -0.00088327 0.0012639
-0.0009333 -0.00086208 -7.6281e-05 -0.00028074
0.0026253 0.00094591 -0.00069418 -0.0015896 -0.00081084 0.0012633 0.24987 0.05134
-0.0068398 0.0063072 0.0020142 -0.00057183
-0.00069771 -0.0010035 -0.00094176 -0.00048016 -0.00095096 -0.00084319 -0.0068078 0.0063791
0.20511 0.13909 -0.0046682 0.0084968
-0.00034191 0.00070183 -0.00058525 -0.0006573 -0.00011937 -0.00032759 0.0020009 -0.00056924
-0.0046634 0.0085184 0.24607 0.20687
1700000000 0.29054 -0.02656 0.001975 0.0096955 -0.0031863 7.5215e-05 0.0029046 -0.001082
-0.0016661 -0.00036406 0.00064463 0.00044635
0.0019775 0.0097154 0.22428 0.24023 0.0038427 0.0009634 -0.0013505 -0.000549
-0.00083143 -1.5825e-06 -0.00091926 -0.00040241
-0.003221 0.00013266 0.003838 0.00092747 0.25943 -0.19803 0.0003243 0.0015925
-0.0017569 -0.00032196 -0.00054331 -0.00094705
0.0028845 -0.0011318 -0.0013768 -0.00050267 0.00027744 0.0016186 0.24619 -8.5711e-05
-0.0050289 0.0071359 0.0013007 -0.0018254
-0.0017145 -0.00035755 -0.00083511 -3.7196e-06 -0.0017361 -0.00026263 -0.0050148 0.0071234
0.2225 0.11732 -0.0001861 0.0090612
0.00063066 0.00049134 -0.00093642 -0.00033455 -0.00064334 -0.00095761 0.0013158 -0.0018242
-0.00017888 0.0090683 0.26222 0.17196
1760000000 0.27724 -0.075242 0.004418 0.0064759 -0.0021315 0.0007257 0.0013799 -0.0033294
-0.00095072 0.00057376 0.00046206 -0.00045042
0.0044058 0.0064877 0.25001 0.20002 0.0017477 -0.00085127 -0.0010499 0.00020889
-0.001144 0.00085207 -0.00059857 0.0005562
-0.0021409 0.00073636 0.0017243 -0.00087411 0.21032 -0.23085 0.00099628 0.0013353
-0.0012152 0.001257 -0.00135 -0.00042557
0.00136 -0.0033007 -0.0010554 0.00020959 0.0010288 0.0012779 0.2356 -0.052647
-0.0024697 0.0069964 -0.0005309 -0.0019615
-0.00088456 0.00054675 -0.0011656 0.00088876 -0.0012293 0.0013088 -0.0024431 0.0070155
0.23744 0.080335 0.0033284 0.0065357
0.00039267 -0.00045701 -0.0005443 0.00055096 -0.0012698 -0.00049571 -0.00056603 -0.0019627
0.003312 0.0065127 0.27477 0.13415
1820000000 0.25142 -0.11221 0.0047942 0.0027951 -5.6602e-05 0.0022537 -0.00090178 -0.0030096
-0.00080727 0.00048178 5.6915e-05 -0.00016002
0.0047811 0.0027818 0.25951 0.16959 -9.9585e-05 0.00013839 -0.0013419 0.00080195
-0.00010323 0.001374 -0.0004871 0.00053026
-0.00011284 0.002252 -8.1173e-05 0.00013683 0.15992 -0.24643 0.0015574 0.00049001
-0.00044364 0.0020461 -0.0013328 0.0005483
-0.00099562 -0.0030151 -0.00131 0.00075761 0.0015704 0.00054069 0.20356 -0.10021
-0.0012182 0.0058414 -0.0015388 -0.0012026
-0.00084461 0.00052284 -6.1894e-05 0.0013826 -0.00044138 0.0021516 -0.0012071 0.0058824
0.25363 0.048841 0.004347 0.0033031
7.7786e-05 -0.00014961 -0.00048914 0.00049227 -0.0013167 0.00057505 -0.0015589 -0.0011887
0.0043434 0.0033115 0.27681 0.097709
1880000000 0.21521 -0.15149 0.0026725 0.00041007 -0.00041663 0.0019741 -0.0028524 -0.0022059
-0.00038737 0.0013324 0.00025225 -0.00063043
0.0026761 0.0003819 0.26346 0.12299 -0.0019974 0.0016774 -0.00020044 0.0016803
0.00066708 0.0013451 0.0002178 0.00090985
-0.00032933 0.001987 -0.001969 0.0017119 0.1082 -0.2553 0.0019119 -0.0010014
0.0014387 0.0019951 -0.00089997 0.0014169
-0.0028489 -0.002245 -0.00024587 0.0016853 0.0019022 -0.0010415 0.16127 -0.13936
-0.00091147 0.0046861 -0.0021229 0.00081781
-0.00036446 0.0013398 0.0006743 0.0013701 0.0014592 0.0020602 -0.0008466 0.0046322
0.25465 0.01369 0.0041265 0.0014758
0.00027029 -0.00057203 0.00023038 0.00094132 -0.00083922 0.0014322 -0.0020774 0.00087908
0.0041295 0.0015175 0.27652 0.063773
1940000000 0.17541 -0.17615 0.00038556 -0.0014517 0.0012015 0.0019089 -0.003772 0.00064736
0.001063 0.0010677 -0.00073011 -0.00061135
0.0003868 -0.0014632 0.26342 0.091044 -0.00089204 0.0037706 0.00086644 0.0013674
0.0020099 0.0004966 0.00082142 0.00020882
0.001291 0.001847 -0.00084719 0.0037858 0.062341 -0.24882 0.00026147 -0.0024286
0.0023872 0.0005569 0.00039292 0.0015325
-0.0037214 0.00060428 0.00095638 0.0013754 0.00027066 -0.0023209 0.10783 -0.16776
-0.0018387 0.0042593 -0.00097615 0.0017774
0.0011006 0.0010972 0.0020042 0.00054711 0.0024097 0.0006269 -0.0018901 0.0042887
0.25364 -0.02731 0.0030458 -0.0015398
-0.00073108 -0.00059425 0.00086126 0.00016672 0.00043494 0.0016141 -0.001072 0.0017079
0.003028 -0.001564 0.26534 0.027571
2000000000 0.12909 -0.18956 -0.0035228 0.00040706 0.0023575 0.0015042 -0.0022699 0.0035048
0.0011117 0.00037903 -0.00065439 0.00044017
-0.0034894 0.00042142 0.24855 0.055691 -0.00079579 0.0053851 0.0016701 0.00028224
0.0015686 -0.0015443 0.00047518 0.00011093
0.0023219 0.0016759 -0.00075773 0.0054419 0.018926 -0.23451 -0.001347 -0.0013633
0.0020833 -0.0012707 0.0016403 0.0011807
-0.002312 0.0034923 0.0016153 0.0002925 -0.0015538 -0.00143 0.054386 -0.17582
-0.0032582 0.0049386 0.00031771 0.002111
0.0011036 0.00037844 0.0015295 -0.0015862 0.0021615 -0.0012359 -0.0032206 0.0049893
