!Keysight Technologies,M9804A,MY58100912,A.14.10.03
!Date: Thursday, April 27, 2023 10:28:33
!Correction: S11(C  6-Port  ) 
!S12(C  6-Port  ) 
!S13(C  6-Port  ) 
!S14(C  6-Port  ) 
!S15(C  6-Port  ) 
!S16(C  6-Port  ) 
!S21(C  6-Port  ) 
!S22(C  6-Port  ) 
!S23(C  6-Port  ) 
!S24(C  6-Port  ) 
!S25(C  6-Port  ) 
!S26(C  6-Port  ) 
!S31(C  6-Port  ) 
!S32(C  6-Port  ) 
!S33(C  6-Port  ) 
!S34(C  6-Port  ) 
!S35(C  6-Port  ) 
!S36(C  6-Port  ) 
!S41(C  6-Port  ) 
!S42(C  6-Port  ) 
!S43(C  6-Port  ) 
!S44(C  6-Port  ) 
!S45(C  6-Port  ) 
!S46(C  6-Port  ) 
!S51(C  6-Port  ) 
!S52(C  6-Port  ) 
!S53(C  6-Port  ) 
!S54(C  6-Port  ) 
!S55(C  6-Port  ) 
!S56(C  6-Port  ) 
!S61(C  6-Port  ) 
!S62(C  6-Port  ) 
!S63(C  6-Port  ) 
!S64(C  6-Port  ) 
!S65(C  6-Port  ) 
!S66(C  6-Port  ) 
!S6P File: Measurement: :
# Hz S  RI   R 50
500000000 -0.33603 -0.0318 -0.0098358 -0.0042041 -0.0077481 0.011343 -0.0037435 0.01188
0.012244 0.0042199 -0.0043288 0.0071297
-0.010067 -0.0039996 -0.41891 -0.047854 0.0077883 -0.01182 0.0013161 0.010864
0.0080498 0.0028376 0.0012513 0.012401
-0.0078564 0.011614 0.0077067 -0.01195 -0.26408 0.21181 0.0068053 0.0027963
0.0003002 0.0083947 0.00058095 0.011954
-0.0038076 0.011434 0.0017149 0.010897 0.0069667 0.0027547 -0.32688 0.049421
-0.018867 -0.0052456 0.016392 0.025062
0.01223 0.0042558 0.0077106 0.0027698 0.00022411 0.0085153 -0.019427 -0.0055523
-0.22681 -0.17779 -0.02619 0.0050024
-0.004148 0.0073822 0.001284 0.011972 0.00078055 0.011599 0.017459 0.025424
-0.026574 0.004851 -0.27379 -0.12696
560000000 -0.31361 0.12637 -0.024306 -0.0629 9.7391e-05 0.011802 0.0062436 0.0098449
0.011737 0.0041711 0.0095345 0.0077456
-0.024327 -0.062931 -0.37575 0.11035 -0.041651 -0.036715 0.013754 0.0035516
-0.013081 -0.0043461 0.0044371 -0.00077461
3.1378e-05 0.012011 -0.042016 -0.03692 -0.1824 0.25968 -0.00067572 -0.0049485
0.018682 0.0038044 0.0069936 -0.006904
0.006701 0.0099608 0.013683 0.0032973 -0.00091475 -0.00509 -0.30173 0.13688
0.0051415 -0.025436 0.0057298 -0.019895
0.011387 0.0033335 -0.013176 -0.0049449 0.019121 0.004224 0.0049434 -0.024889
-0.28379 -0.0063226 0.0079357 -0.04973
0.009926 0.008098 0.0055934 -0.0005167 0.00649 -0.0061632 0.0051516 -0.019735
0.0073797 -0.049666 -0.33176 0.021317
620000000 -0.27231 0.11062 -0.023013 0.0067862 0.0034185 0.0080483 0.0072564 -0.0056717
0.010612 -0.00083339 0.00087442 -0.0022913
-0.022999 0.0067259 -0.40238 0.064162 -0.019163 -0.00024543 -0.0016151 -0.0021606
0.010372 -0.0067445 0.00085289 -0.0025707
0.0033177 0.0081559 -0.019134 -0.00012039 -0.15259 0.26889 -0.0018841 -0.00514
-0.0033965 -0.0033331 0.0081615 -0.0034624
0.0071255 -0.0056234 -0.0018144 -0.0023168 -0.0024624 -0.0051853 -0.25981 0.14629
-0.039216 -0.019675 0.014626 0.022752
0.011189 -0.00060698 0.010461 -0.0067065 -0.0032409 -0.0029709 -0.038509 -0.018255
-0.20348 -0.042976 -0.038571 0.014677
0.00099933 -0.0023363 0.00081515 -0.0025137 0.0081771 -0.0033567 0.01488 0.023294
-0.039329 0.014997 -0.24931 -0.015468
680000000 -0.23147 0.1931 -0.027771 -0.014231 0.0050006 0.00506 0.00049777 -0.007912
-0.0029708 -0.010551 0.0041245 -0.0071161
-0.027771 -0.014192 -0.3865 0.1607 -0.032877 -0.0010635 -0.0017037 -0.00067827
-0.002888 -0.0086288 -0.0011318 -0.0024929
0.0049567 0.005092 -0.032907 -0.00099721 -0.1018 0.28794 -0.00063477 -3.6536e-05
-0.0021932 0.0011882 -0.0024709 -0.0097993
0.00044305 -0.0078007 -0.0017652 -0.00056739 -0.00069823 -4.8682e-05 -0.21795 0.19572
-0.023797 -0.008823 -0.010478 -0.010179
-0.0033147 -0.010737 -0.0029912 -0.0085879 -0.0023661 0.00096172 -0.023191 -0.008465
-0.25053 0.051626 -0.0047864 -0.0087749
0.0043163 -0.0072686 -0.00084582 -0.0025182 -0.0027396 -0.0096624 -0.011082 -0.010543
-0.0049714 -0.0088846 -0.26174 0.090628
740000000 -0.18871 0.18883 -0.038505 0.026226 0.012541 -0.0052316 -0.00079564 -0.0039797
-0.0046385 -0.0024579 -0.0062051 0.0036956
-0.038478 0.026175 -0.33484 0.17934 -0.034488 0.035216 -0.00081123 -0.0064674
-0.011377 0.008553 -0.0024871 -0.0059175
0.012372 -0.0052466 -0.03428 0.035277 -0.068461 0.28717 -0.0010146 0.0034683
-0.0029436 -0.0037476 -0.00091184 0.00079974
-0.0007521 -0.0040851 -0.00091211 -0.0065167 -0.0011421 0.003466 -0.20113 0.20338
-0.042888 -0.0079046 0.022639 0.012877
-0.004622 -0.0023668 -0.011409 0.0088323 -0.0029637 -0.0039723 -0.042553 -0.0074775
-0.15598 0.073733 -0.042119 -0.00014461
-0.0064299 0.0035466 -0.002426 -0.006056 -0.0010424 0.00065996 0.022764 0.012787
-0.042248 9.9451e-05 -0.25147 0.096839
800000000 -0.15726 0.2289 -0.022596 0.01728 0.0051066 -0.010493 -0.0048375 -0.0019415
-0.0039471 0.0030625 0.0045683 0.00061586
-0.022613 0.017241 -0.33686 0.24954 -0.0076263 0.033964 -0.0020183 0.0021981
-0.00023235 0.0035078 0.0012547 0.0052222
0.0050862 -0.010472 -0.007552 0.034044 -0.026753 0.30991 0.0011995 0.001521
0.00079643 0.0035617 -0.0018541 0.00089601
-0.0048944 -0.0020598 -0.0019032 0.0021623 0.0012422 0.0014804 -0.17363 0.23124
-0.028443 0.012619 0.012692 -0.009767
-0.0039326 0.0029622 -0.00019632 0.0034029 0.00080164 0.0034302 -0.028547 0.012534
-0.19815 0.098278 -0.01789 0.01752
0.0043896 0.00069053 0.0014098 0.0052875 -0.0018688 0.00093141 0.013068 -0.0095474
-0.018011 0.017745 -0.24413 0.14934
860000000 -0.12213 0.25049 -0.016985 0.031395 -0.0034969 -0.0096302 -0.0026111 0.0013462
0.0045065 0.0050334 -0.0027953 -0.0030417
-0.017039 0.031344 -0.28885 0.29148 0.0082777 0.033885 0.00036664 0.002105
0.0045324 0.00013055 0.0031459 0.00028798
-0.0035014 -0.0096228 0.0083606 0.033935 0.02183 0.31763 -0.00043397 -0.00025242
0.0027529 -0.0018015 0.0014896 0.0044338
-0.0025864 0.0012599 0.0005106 0.0020675 -0.00041154 -0.00030643 -0.13792 0.24332
-0.017597 0.018135 -0.0062789 -0.0094981
0.0043587 0.0050176 0.0046146 8.9635e-05 0.0028244 -0.0017104 -0.017845 0.018193
-0.15051 0.14605 -0.024199 0.015645
-0.0027736 -0.0030372 0.0031548 0.00044192 0.001488 0.0045509 -0.0064238 -0.0092179
-0.024082 0.015615 -0.19325 0.19301
920000000 -0.096539 0.27394 0.0053697 0.037995 -0.0093242 -0.0039918 -0.0016242 0.0024603
0.0014933 0.0015207 0.0023983 -0.0012207
0.0053804 0.037969 -0.25962 0.31234 0.027996 0.021503 0.0016918 0.0010896
0.0067288 -0.00092938 0.0035596 -0.0029576
-0.0093356 -0.00394 0.028077 0.021445 0.068352 0.31775 0.0017636 -0.00012064
0.0013725 -0.00056186 0.00083147 -0.001118
-0.0016189 0.0024192 0.0016801 0.0010683 0.0017505 -0.00012092 -0.11347 0.25953
-0.010535 0.029915 0.0026411 -0.0061027
0.0012339 0.0017334 0.0066707 -0.0008313 0.0013105 -0.0004497 -0.010447 0.029875
-0.13955 0.15233 -0.0022483 0.027477
0.0026225 -0.0012153 0.003637 -0.002849 0.00083946 -0.0010856 0.0024581 -0.0062184
-0.0022153 0.027439 -0.20051 0.20778
980000000 -0.048757 0.29317 0.01804 0.02987 -0.0086442 0.0047699 0.002536 0.0037157
0.0041509 -0.0017695 -0.0028335 -0.0021179
0.017978 0.029827 -0.20676 0.34576 0.032686 0.0043749 0.0019392 -4.8243e-05
0.0010779 -0.006013 -0.00048312 -0.0021864
-0.0086754 0.0048117 0.032721 0.0042807 0.11466 0.31066 0.00035652 -0.0011723
-5.9923e-06 -0.0020595 0.0016278 -0.0001039
0.002568 0.0037043 0.0019256 -6.6513e-05 0.00038649 -0.0011886 -0.075172 0.27113
0.0072175 0.02842 -0.0093959 -0.0062759
0.0040613 -0.0017216 0.00092715 -0.0061326 -4.1777e-06 -0.0020452 0.0073553 0.028348
-0.10835 0.17971 0.0051562 0.018252
-0.002737 -0.0020277 -0.00048868 -0.0021784 0.0015812 -0.00010136 -0.0093665 -0.0063713
0.0052179 0.018569 -0.15727 0.25154
1040000000 -0.0054568 0.30123 0.033228 0.017541 -0.0010101 0.0068663 0.0029448 0.00064981
2.6769e-05 -0.0037565 -0.00061461 -0.0014179
0.033134 0.017563 -0.17078 0.35849 0.028752 -0.01488 0.0014131 -0.00168
-0.0025864 -0.0020936 -0.0014529 -0.0025968
-0.00094218 0.006877 0.0287 -0.014973 0.16072 0.2965 -0.00048937 -0.0013696
-0.0015209 -0.00076975 -0.00034772 -0.0011401
0.0029146 0.0006402 0.0014399 -0.0016542 -0.00049603 -0.0013457 -0.047396 0.28097
0.018063 0.01695 -0.0029429 0.0021283
4.7551e-05 -0.0037585 -0.0026424 -0.0021133 -0.0015461 -0.00074498 0.018125 0.016893
-0.077687 0.18886 0.013414 0.017899
-0.00050865 -0.0014176 -0.0013724 -0.0025559 -0.00030795 -0.0011173 -0.0029575 0.0022516
0.013293 0.017844 -0.13591 0.27339
1100000000 0.040349 0.30798 0.035525 -0.004702 0.0030092 0.003668 0.0025426 -0.0015815
-0.0020743 -0.0029849 -0.003752 8.324e-06
0.03548 -0.0046812 -0.12719 0.37511 0.014585 -0.027414 3.0501e-05 -0.0018638
-0.0030657 -0.00031353 -0.0033452 -0.00050199
0.0030296 0.0036468 0.014495 -0.027488 0.20674 0.27578 -0.0017641 0.00028922
-0.0016356 0.00069104 -0.00094509 -0.00039921
0.0025718 -0.0016069 2.5848e-05 -0.0018381 -0.0017639 0.00028419 -0.0067131 0.28563
0.022257 0.005005 -0.0022143 0.0010175
-0.0021039 -0.0029727 -0.0030041 -0.00032808 -0.0015916 0.00068563 0.022258 0.0049958
-0.058922 0.20172 0.018398 0.0084468
-0.0037638 5.8528e-05 -0.0033777 -0.00045408 -0.00090816 -0.00032628 -0.0021545 0.0011158
0.018423 0.0084609 -0.088998 0.3023
1160000000 0.092188 0.30207 0.023528 -0.020894 0.0026994 -0.00063031 -0.00013705 -0.0025481
-0.0040996 -0.00030357 -0.00086691 0.0040228
0.023515 -0.020882 -0.083216 0.37875 -0.003856 -0.028527 -0.0017523 -0.0015802
-0.002196 0.0025623 -0.0013123 0.0014859
0.0027058 -0.00063605 -0.0039781 -0.028535 0.24953 0.24481 -0.0005312 0.0016495
-0.0003614 0.0017436 -0.0010679 8.9992e-05
-0.00011582 -0.0025876 -0.0017591 -0.0015518 -0.00055935 0.0016538 0.032647 0.28257
0.018814 -0.0095727 -0.0026672 0.0056719
-0.0041368 -0.0003468 -0.0022383 0.002556 -0.00033994 0.001736 0.018843 -0.0095859
-0.025278 0.21114 0.01717 0.00059669
-0.00084865 0.0040112 -0.0012805 0.0014414 -0.0010062 4.2032e-05 -0.0026574 0.0057205
0.017287 0.00053886 -0.042206 0.30487
1220000000 0.13656 0.28974 0.010014 -0.029747 -0.0015329 -0.0009053 -0.000233 -0.0010921
-0.0025145 0.0025705 0.0012757 0.00177
0.010037 -0.029696 -0.039299 0.38991 -0.016569 -0.020566 -0.0024671 0.00045382
0.00033259 0.0027568 -0.00064594 0.0016752
-0.0015593 -0.00089686 -0.016689 -0.02053 0.28851 0.2058 0.00089567 0.0015169
0.00059428 0.0010399 0.00023119 0.00071149
-0.00023429 -0.0010879 -0.0024774 0.00046929 0.00089285 0.0014972 0.072247 0.27373
0.0090439 -0.014894 0.0030486 0.0017039
-0.0024838 0.0026201 0.00035501 0.0027462 0.00064783 0.0010336 0.0090077 -0.01491
-0.001483 0.22062 0.013289 -0.012007
0.0012599 0.0018497 -0.00065758 0.0017334 0.00024207 0.00070545 0.0030253 0.0016897
0.013256 -0.01208 -0.0098168 0.32158
1280000000 0.18579 0.2668 -0.0078935 -0.027978 -0.001857 0.0023148 -0.0011249 -0.0019425
-0.00049732 0.0030699 0.0024737 0.00093651
-0.007858 -0.027949 0.006291 0.38066 -0.023087 -0.0082576 -0.00095356 0.0014115
0.0015956 0.0014178 0.00052885 0.0019187
-0.0018237 0.0023584 -0.023134 -0.0081474 0.31919 0.16184 0.0013004 -0.0001631
0.0008622 0.00012226 0.00034918 0.00042017
-0.0011454 -0.0019288 -0.00096035 0.0014108 0.0012929 -0.0001732 0.10856 0.2576
0.00055537 -0.016345 0.00074784 2.1854e-05
-0.00047064 0.0031032 0.0015812 0.0014633 0.00088724 7.1076e-05 0.00048737 -0.016346
0.035654 0.22406 0.0028642 -0.014018
0.0024896 0.000937 0.00050698 0.0019304 0.00028969 0.00045564 0.00078435 6.7396e-05
0.0029282 -0.013961 0.037747 0.32302
1340000000 0.22229 0.23225 -0.017436 -0.018698 0.00076753 0.00423 -0.0018973 -0.00068105
0.0014691 0.0024623 0.0015275 -0.0014921
-0.017399 -0.018694 0.045476 0.372 -0.021085 0.0040284 -5.2645e-05 0.0018975
0.0016059 0.0006568 0.0012802 0.00084026
0.00080862 0.0042159 -0.021059 0.0041349 0.34153 0.11366 0.00088978 -0.0008514
0.00050683 -0.00034665 0.00016463 0.0001577
-0.0018835 -0.00065748 -5.7555e-05 0.0019147 0.00089022 -0.00082296 0.14142 0.23744
-0.0070786 -0.013624 0.0015128 -0.00019923
0.0014489 0.0024489 0.0015802 0.00066018 0.00053369 -0.00035036 -0.007131 -0.013633
0.066545 0.21898 -0.0031935 -0.012487
0.0015822 -0.0014984 0.0013125 0.00079013 0.00020749 0.00017918 0.0014316 -0.00024851
-0.0031048 -0.012518 0.07671 0.31841
1400000000 0.25451 0.19364 -0.02302 -0.0074488 0.0049099 0.0030599 -0.0020389 0.00070104
0.0023672 0.00053797 0.0001472 -0.0013366
-0.022995 -0.0074722 0.082196 0.35891 -0.014533 0.011944 0.0013005 0.0012362
0.00085944 -0.00073958 0.0012003 0.00030784
0.0049327 0.0030301 -0.014501 0.012041 0.35451 0.059449 4.1899e-05 -0.0013943
-3.1448e-05 -0.00033562 0.00034935 0.00020563
-0.0020247 0.00071262 0.0013173 0.0012168 5.7262e-05 -0.0013846 0.17129 0.2091
-0.011882 -0.0079832 -0.00052646 -0.0010355
0.0023883 0.00054187 0.00085723 -0.00075803 -1.6316e-05 -0.00030901 -0.011871 -0.0079321
0.099794 0.2139 -0.0093124 -0.0082541
0.00016383 -0.0013204 0.0011687 0.00030976 0.0003036 0.0002523 -0.00053496 -0.0010231
-0.0092804 -0.0081822 0.12166 0.30702
1460000000 0.27682 0.14931 -0.020269 0.0044003 0.0053302 -0.0016892 -0.0015332 0.0017352
0.0018449 -0.00075665 -0.00034946 -0.0008913
-0.020252 0.0043673 0.11631 0.33709 -0.0062177 0.014718 0.0016455 0.00015296
0.00083569 -0.0010522 0.0011669 -0.00063116
0.0053431 -0.0017155 -0.0061569 0.014761 0.36006 0.0047013 -0.0010185 -0.0011467
0.00025137 -0.00010349 0.00060621 -0.00036357
-0.0015366 0.0017358 0.001659 0.00013756 -0.0010121 -0.0011592 0.19835 0.17998
-0.012425 -0.0029273 -0.0012396 0.0013034
0.001817 -0.00078716 0.00081966 -0.0010425 0.00022856 -9.9723e-05 -0.012454 -0.0028914
0.12979 0.19862 -0.010699 -0.0030518
-0.00039844 -0.00090401 0.0011523 -0.00063225 0.00058885 -0.00035485 -0.0012236 0.0012729
-0.010726 -0.0030743 0.15486 0.2857
1520000000 0.28845 0.1074 -0.014785 0.010015 0.0030451 -0.0039195 0.00011773 0.0025189
0.0016021 -0.0016392 -0.0010882 -0.00012962
-0.01477 0.009992 0.14973 0.32217 0.0011393 0.012835 0.0015577 -0.0008048
0.00014858 -0.00088918 0.00025426 -0.0010038
0.0030336 -0.0039047 0.0012114 0.012834 0.35297 -0.051894 -0.00083478 -0.00038903
0.00059972 -0.00075 -7.2023e-05 -5.4953e-05
0.00014062 0.0025252 0.0015616 -0.00080254 -0.0008276 -0.00036191 0.22237 0.14173
-0.012095 0.0013486 0.00086772 0.0016627
0.001583 -0.0016731 0.00011851 -0.00090367 0.00058883 -0.00077563 -0.012075 0.0014026
0.15798 0.18347 -0.010935 0.0011047
-0.0011079 -0.00013555 0.00027154 -0.0010151 -3.1214e-05 -5.7123e-05 0.0008362 0.0016487
-0.010927 0.0011038 0.18846 0.26512
1580000000 0.2974 0.060949 -0.0083581 0.013206 -0.00093448 -0.0046107 0.0013897 0.0018122
-0.0005241 -0.0018854 -0.0003243 0.00036124
-0.0083741 0.013187 0.17696 0.29736 0.0047818 0.0082552 0.00044303 -0.0015086
-0.00034934 -0.0010173 -0.00028914 -0.00084915
-0.00097442 -0.0046139 0.0048324 0.0082378 0.33214 -0.10961 -0.0014526 0.00044793
-0.00024624 -0.0010761 0.00013712 -0.00051765
0.0013868 0.0018213 0.0004168 -0.0015254 -0.0014389 0.00043111 0.23721 0.10152
-0.0097962 0.0053008 0.0016901 0.00073846
-0.00050885 -0.0018978 -0.00035488 -0.00099688 -0.00027068 -0.0010632 -0.0097918 0.0053343
0.18236 0.1647 -0.008966 0.0064675
-0.00033015 0.0003712 -0.0002768 -0.00083327 9.5638e-05 -0.00050726 0.0017038 0.00072286
-0.0089569 0.0064856 0.22061 0.23813
1640000000 0.29891 0.018979 -0.0017423 0.012367 -0.0025469 -0.002345 0.0025835 0.0010159
-0.00076557 -0.0010145 -0.00029344 0.00071982
-0.0017425 0.012373 0.20647 0.27195 0.0055752 0.0037066 -0.0006904 -0.0015721
-0.00095399 -0.0005198 -0.00054273 -0.0006088
-0.0025694 -0.0023144 0.0056299 0.0036869 0.30328 -0.15854 -0.00084258 0.0012332
-0.00096785 -0.00086801 -7.1658e-05 -0.00027567
0.0025784 0.00099767 -0.0006961 -0.0015842 -0.0008497 0.0012432 0.24986 0.051272
-0.006758 0.0063156 0.0020497 -0.00061782
-0.00079259 -0.0010032 -0.00094926 -0.00050148 -0.00095529 -0.00084034 -0.0067485 0.0063416
0.20537 0.13901 -0.0046587 0.0085685
-0.00029595 0.00069497 -0.00055021 -0.00061486 -9.1168e-05 -0.00026187 0.0020419 -0.00061521
-0.0046556 0.0086372 0.24645 0.20662
1700000000 0.29069 -0.026677 0.0018385 0.0097637 -0.0032217 8.5812e-05 0.0029037 -0.0010581
-0.0016729 -0.00039881 0.00063429 0.00043889
0.001814 0.009762 0.22436 0.24017 0.0038164 0.00093245 -0.0013451 -0.0005447
-0.00084304 -1.3074e-05 -0.00090196 -0.00041776
-0.0031997 0.00011901 0.003826 0.00092022 0.2595 -0.19804 0.00027325 0.0015555
-0.001721 -0.00033545 -0.00051206 -0.00092253
0.0029194 -0.0010675 -0.0013604 -0.00053036 0.00024166 0.001579 0.24626 -0.00011097
-0.0049665 0.0071404 0.0012985 -0.0018673
-0.0016468 -0.00035056 -0.00083862 -1.9046e-05 -0.0017681 -0.00033591 -0.0049464 0.0071165
0.22276 0.11714 -0.00019318 0.0090885
0.00068755 0.00046521 -0.00093482 -0.00037464 -0.00060375 -0.00094632 0.0012998 -0.0018585
-0.00016798 0.0090761 0.26254 0.17159
1760000000 0.27733 -0.075289 0.0043684 0.0066318 -0.0021357 0.000744 0.001359 -0.0033126
-0.00091397 0.00057924 0.00047492 -0.00040379
0.0043585 0.0066192 0.25009 0.19993 0.0017194 -0.00086593 -0.0010534 0.00017594
-0.0011702 0.00087527 -0.00060655 0.00051795
-0.0021377 0.00076348 0.0017104 -0.00089524 0.21024 -0.23091 0.0010887 0.0013383
-0.0012129 0.001269 -0.0013622 -0.0004563
0.0013367 -0.0033169 -0.0010598 0.00017363 0.001082 0.0013414 0.23556 -0.052715
-0.0024069 0.0068977 -0.00055797 -0.0020055
-0.00096005 0.00059046 -0.001164 0.00086795 -0.0012265 0.0012339 -0.0024028 0.0069287
0.23764 0.080145 0.0033352 0.0065286
0.00048431 -0.00041799 -0.00059159 0.00055968 -0.0013655 -0.00043428 -0.00056739 -0.0019895
0.0033597 0.0065591 0.27499 0.13362
1820000000 0.25139 -0.11235 0.0047886 0.0029163 -4.9755e-05 0.0022536 -0.00090954 -0.0030621
-0.00084501 0.0005202 0.00010196 -0.00015358
0.0047811 0.0029157 0.25951 0.16949 -0.00010574 0.00014441 -0.0013237 0.00077739
-0.00010989 0.0013877 -0.00049159 0.00054836
-5.0475e-05 0.0022281 -0.00010338 0.00014475 0.16009 -0.2465 0.0015871 0.00052299
-0.00039562 0.0021007 -0.0012837 0.00060009
-0.00092468 -0.0030411 -0.0013325 0.0007915 0.0015258 0.00046767 0.20358 -0.10031
-0.0011628 0.005776 -0.0015224 -0.0011343
-0.00082855 0.0005024 -0.00011456 0.0013766 -0.0004135 0.0020531 -0.0011851 0.0057587
0.25372 0.048595 0.0043989 0.0033584
4.8309e-05 -0.00012279 -0.00047752 0.0005379 -0.0012621 0.00053038 -0.0015854 -0.0011758
0.0043569 0.0033871 0.27681 0.097223
1880000000 0.21511 -0.15158 0.0026966 0.00051609 -0.00030159 0.0019572 -0.0028176 -0.00226
-0.00041709 0.001397 0.00019819 -0.00062204
0.0026966 0.00051733 0.26342 0.12287 -0.0019028 0.0016646 -0.00020648 0.0016738
0.00066498 0.0013519 0.00018167 0.00092027
-0.0003022 0.0019695 -0.0019107 0.0016881 0.10832 -0.25534 0.0018612 -0.0010462
0.0014757 0.0020034 -0.00094178 0.0013595
-0.0028657 -0.002206 -0.0001949 0.0016973 0.0019243 -0.0010018 0.16132 -0.13944
-0.00090241 0.0045847 -0.0021844 0.00086837
-0.00038085 0.0013368 0.00067835 0.0013506 0.0014237 0.002049 -0.00089244 0.0045951
0.25467 0.013495 0.0041083 0.0014098
0.00023742 -0.00065354 0.00020281 0.0009346 -0.00082174 0.0014604 -0.00216 0.00082283
0.0041058 0.001428 0.27654 0.063106
1940000000 0.17526 -0.17627 0.00045567 -0.0014151 0.0012822 0.0018616 -0.0037042 0.00048027
0.001089 0.0010471 -0.00076923 -0.00065177
0.00044876 -0.0014079 0.26342 0.090972 -0.0008442 0.0037326 0.00094016 0.0013612
0.0020109 0.00050268 0.00083884 0.00018572
0.00128 0.0018485 -0.00081719 0.0037343 0.06228 -0.2488 0.0002625 -0.0024234
0.0024017 0.00055672 0.00038632 0.0015444
-0.0037616 0.00052999 0.00092738 0.0013444 0.00027964 -0.0024416 0.10777 -0.168
-0.0018864 0.0041991 -0.0010583 0.0018273
0.0010924 0.0010314 0.0020093 0.00050327 0.0023873 0.00053971 -0.0019302 0.0041551
0.25362 -0.027513 0.0030384 -0.001566
-0.00070788 -0.00062798 0.00084436 0.00019011 0.00034184 0.0015489 -0.00097201 0.0018362
0.0030319 -0.0015374 0.26531 0.027115
2000000000 0.12892 -0.18952 -0.0034232 0.00042448 0.0022915 0.0016198 -0.0022544 0.0035595
0.0011146 0.00040221 -0.00063352 0.00043427
-0.0033955 0.00042969 0.24854 0.055603 -0.00078956 0.0053973 0.0016716 0.00026589
0.001568 -0.0015685 0.0004572 0.00012618
0.0023151 0.0015546 -0.00074692 0.0053898 0.018991 -0.23441 -0.001438 -0.0013945
0.0020563 -0.0012378 0.0016238 0.0013593
-0.0022494 0.0035448 0.0016872 0.00026885 -0.001403 -0.0013478 0.054353 -0.17582
-0.0033586 0.0049881 0.00024548 0.0021525
0.0011163 0.00035995 0.0015718 -0.0015763 0.0020813 -0.0012364 -0.0033946 0.0049205
