!Keysight Technologies,M9804A,MY58100912,A.14.10.03
!Date: Thursday, April 27, 2023 10:28:33
!Correction: S11(C  6-Port  ) 
!S12(C  6-Port  ) 
!S13(C  6-Port  ) 
!S14(C  6-Port  ) 
!S15(C  6-Port  ) 
!S16(C  6-Port  ) 
!S21(C  6-Port  ) 
!S22(C  6-Port  ) 
!S23(C  6-Port  ) 
!S24(C  6-Port  ) 
!S25(C  6-Port  ) 
!S26(C  6-Port  ) 
!S31(C  6-Port  ) 
!S32(C  6-Port  ) 
!S33(C  6-Port  ) 
!S34(C  6-Port  ) 
!S35(C  6-Port  ) 
!S36(C  6-Port  ) 
!S41(C  6-Port  ) 
!S42(C  6-Port  ) 
!S43(C  6-Port  ) 
!S44(C  6-Port  ) 
!S45(C  6-Port  ) 
!S46(C  6-Port  ) 
!S51(C  6-Port  ) 
!S52(C  6-Port  ) 
!S53(C  6-Port  ) 
!S54(C  6-Port  ) 
!S55(C  6-Port  ) 
!S56(C  6-Port  ) 
!S61(C  6-Port  ) 
!S62(C  6-Port  ) 
!S63(C  6-Port  ) 
!S64(C  6-Port  ) 
!S65(C  6-Port  ) 
!S66(C  6-Port  ) 
!S6P File: Measurement: :
# Hz S  RI   R 50
500000000 -0.32657 -0.061282 -0.010711 -0.0015195 -0.0082481 0.01269 -0.0044186 0.012079
0.013615 0.0057286 -0.0056973 0.0080078
-0.010686 -0.0015316 -0.40956 -0.072142 0.0079261 -0.01011 0.00053067 0.012477
0.0081298 0.002928 0.00032054 0.01413
-0.0081128 0.01259 0.007886 -0.010195 -0.25511 0.19429 0.0069692 0.0036341
-0.0021641 0.0085417 0.001956 0.01266
-0.0047345 0.011894 0.00045415 0.01217 0.0069197 0.0038101 -0.32632 0.044052
-0.021316 -0.0045713 0.014563 0.027536
0.01358 0.0058138 0.0085615 0.0031662 -0.0019822 0.0085229 -0.021345 -0.0045581
-0.21137 -0.24685 -0.030447 0.0031841
-0.0059759 0.0085154 0.00015032 0.014034 0.0018509 0.012875 0.014851 0.027435
-0.031295 0.0035771 -0.26079 -0.14561
560000000 -0.3155 0.10554 -0.022266 -0.065825 0.00032452 0.012567 0.0060179 0.010726
0.011363 0.0051878 0.011619 0.0094648
-0.022018 -0.065721 -0.3697 0.091788 -0.04138 -0.038996 0.013061 0.0033243
-0.01371 -0.0051067 0.0037451 -0.0011033
0.00045306 0.012802 -0.04167 -0.038955 -0.18001 0.24334 -1.9834e-06 -0.0058813
0.018866 0.0077986 0.007377 -0.0066629
0.0060816 0.010357 0.013237 0.0033438 -6.5578e-05 -0.0058954 -0.30335 0.13326
0.0064258 -0.022549 0.0060516 -0.021178
0.0115 0.0051712 -0.014148 -0.0051379 0.018798 0.0081277 0.0063851 -0.022622
-0.2987 -0.063365 0.012204 -0.050163
0.011784 0.0092359 0.0041898 -0.00087904 0.0071199 -0.0064633 0.0056935 -0.020969
0.01256 -0.050182 -0.32868 0.0042764
620000000 -0.27505 0.082989 -0.02352 0.0089067 0.0031059 0.0087554 0.0080828 -0.00404
0.012025 -0.00035162 1.7996e-05 -0.00108
-0.023458 0.0088464 -0.39878 0.037328 -0.019312 0.00060355 -0.0015881 -0.0021425
0.012346 -0.005197 0.0001293 -0.0030304
0.0030619 0.0089766 -0.019352 0.00063583 -0.15363 0.25176 -0.001043 -0.0053365
-0.0041666 -0.0022691 0.008806 -0.0028179
0.0080417 -0.0036196 -0.0016525 -0.0021155 -0.00092253 -0.0052551 -0.26141 0.14097
-0.040217 -0.019018 0.012712 0.027645
0.011635 -0.00071095 0.012535 -0.0054065 -0.0041644 -0.002251 -0.040267 -0.018899
-0.21016 -0.10193 -0.047031 0.014629
-0.00039409 -0.00039196 0.00020881 -0.0031626 0.0087265 -0.002708 0.012529 0.027648
-0.046763 0.014368 -0.24268 -0.034745
680000000 -0.23995 0.17536 -0.026017 -0.014306 0.0050431 0.0054401 0.0017633 -0.0073808
-0.001654 -0.011116 0.0068959 -0.0066609
-0.026021 -0.014336 -0.38924 0.13922 -0.032231 -0.0014047 -0.0015393 -0.00011237
-0.0012905 -0.0095808 -0.00028878 -0.0017843
0.0050479 0.0053712 -0.032306 -0.0013211 -0.10615 0.27508 -0.0010551 0.00018781
-0.0010485 0.00055634 -0.0028662 -0.0086413
0.0017067 -0.0073846 -0.0018527 -8.5962e-05 -0.0011925 0.00019901 -0.21799 0.19551
-0.023558 -0.007885 -0.008637 -0.011633
-0.0013441 -0.011168 -0.0012759 -0.0096346 -0.00097524 0.00055288 -0.023593 -0.0079025
-0.2827 0.0035631 -0.0050503 -0.0075623
0.0070369 -0.0073448 -0.00040771 -0.0016274 -0.0028118 -0.0086618 -0.0085489 -0.011408
-0.004914 -0.007272 -0.26105 0.072146
740000000 -0.19406 0.16802 -0.040971 0.027085 0.01334 -0.0040863 -1.8572e-05 -0.0040605
-0.0034804 -0.0010884 -0.0068889 0.0027434
-0.04087 0.026848 -0.33542 0.15871 -0.036537 0.034156 -0.00011239 -0.0059543
-0.013459 0.0067572 -0.001408 -0.0057849
0.013338 -0.0041087 -0.036375 0.034205 -0.072698 0.27457 -0.001811 0.0031754
-0.0012688 -0.0058689 -0.0012826 0.00052625
-8.4499e-05 -0.0040407 -0.000297 -0.0060235 -0.0017255 0.0032107 -0.20063 0.2018
-0.043031 -0.0099662 0.022923 0.017029
-0.0036406 -0.0011479 -0.012873 0.0067985 -0.001251 -0.0059494 -0.043134 -0.0099168
-0.18241 0.041132 -0.04417 -0.002379
-0.0069945 0.0026907 -0.001626 -0.0057368 -0.0013186 0.00044097 0.023124 0.016628
-0.04442 -0.0027134 -0.24996 0.07606
800000000 -0.16552 0.21414 -0.022287 0.016194 0.0056336 -0.010322 -0.0039724 -0.0023603
-0.0040097 0.00089139 0.0046514 0.0013249
-0.022294 0.016283 -0.34377 0.22942 -0.0083623 0.034153 -0.0021309 0.0021487
-0.00014162 0.0019923 0.00067707 0.0057176
0.0055955 -0.010342 -0.0082882 0.034227 -0.034448 0.30088 0.0011995 0.0013921
6.0524e-05 0.003037 -0.0014193 0.0011673
-0.0041756 -0.0024256 -0.0021447 0.0021675 0.0010868 0.0014253 -0.17276 0.22953
-0.028467 0.012542 0.014135 -0.0098244
-0.003713 0.0011792 6.0152e-05 0.0019948 0.0002344 0.00302 -0.028451 0.012636
-0.23679 0.061057 -0.017909 0.020739
0.0046376 0.0010477 0.00047803 0.0055882 -0.0014948 0.001031 0.014413 -0.0097617
-0.018158 0.021159 -0.25035 0.12933
860000000 -0.13085 0.23536 -0.018018 0.030573 -0.0033499 -0.0098368 -0.0021317 0.00061103
0.0041394 0.0054682 -0.0044305 -0.0035479
-0.017963 0.030472 -0.29639 0.27416 0.0077413 0.034017 1.8814e-05 0.0022205
0.0039812 0.00060496 0.0035283 0.00021917
-0.00334 -0.0097958 0.0079002 0.03403 0.01427 0.31078 -0.00049728 -0.00048268
0.0026508 -0.0015434 0.0014525 0.0039022
-0.0019605 0.00057074 1.7526e-05 0.0020807 -0.00044211 -0.00043843 -0.13579 0.24078
-0.018111 0.017509 -0.0066147 -0.010001
0.0040239 0.0055 0.0040629 0.00075839 0.0026083 -0.0015046 -0.018106 0.017525
-0.17896 0.12536 -0.026927 0.015847
-0.0042315 -0.0034753 0.0035291 7.5529e-05 0.0015763 0.0038833 -0.0067557 -0.0099594
-0.02702 0.015669 -0.19798 0.17518
920000000 -0.10803 0.25877 0.0047899 0.039235 -0.0091855 -0.0043815 -0.0015511 0.0018288
0.0001009 0.0014146 0.0034325 -0.00078419
0.0048269 0.039245 -0.27006 0.29576 0.027959 0.022447 0.0013925 0.0010789
0.0070229 0.00028281 0.0041474 -0.0027484
-0.0092036 -0.004362 0.028096 0.02246 0.060383 0.31232 0.0018366 -0.00012506
0.00045046 -0.00039787 0.00113 -0.0015324
-0.0016043 0.0018427 0.0014662 0.0010506 0.0018375 -7.3972e-05 -0.11211 0.25722
-0.012866 0.030433 0.0043766 -0.0064586
4.187e-05 0.0014525 0.0069909 0.00010027 0.00050284 -0.00043985 -0.012861 0.030451
-0.1752 0.12867 -0.0035253 0.028571
0.0034643 -0.00099602 0.0039062 -0.0027954 0.0010832 -0.0015475 0.0043971 -0.0066119
-0.0039459 0.028645 -0.20827 0.1891
980000000 -0.061799 0.28075 0.016786 0.030193 -0.0091748 0.004646 0.0019823 0.0036956
0.0040606 -0.0015359 -0.0038265 -0.0028088
0.016734 0.03012 -0.21844 0.33339 0.032743 0.0049508 0.0019004 -0.00016547
0.0019718 -0.0064281 -0.00081727 -0.0027453
-0.0091536 0.0046772 0.032808 0.0048552 0.10694 0.30763 0.00038454 -0.0011419
0.00036319 -0.0017208 0.0012748 -0.00025087
0.0019745 0.0036978 0.0018716 -0.0001709 0.00036703 -0.0011465 -0.073872 0.26916
0.0068164 0.03041 -0.0098221 -0.0080946
0.0039362 -0.001472 0.0019941 -0.0064208 0.00037094 -0.0017087 0.0068991 0.030421
-0.14474 0.16627 0.0044564 0.02079
-0.0038137 -0.0026471 -0.00073788 -0.0025643 0.0012318 -0.00020853 -0.010047 -0.0080606
0.0047019 0.021061 -0.1684 0.2375
1040000000 -0.020813 0.28982 0.033 0.019433 -0.0010351 0.0073619 0.002397 0.00075389
0.00026828 -0.0035663 9.179e-05 -0.0013546
0.032995 0.019356 -0.183 0.3471 0.029195 -0.014439 0.0014523 -0.0017695
-0.0023528 -0.0025305 -0.00098349 -0.002957
-0.0010029 0.0073496 0.029182 -0.014534 0.15383 0.29411 -0.00054219 -0.0013823
-0.0016227 -0.00087447 -0.00054286 -0.00098699
0.0023288 0.00070074 0.0014961 -0.0017894 -0.00051675 -0.0013601 -0.046494 0.27846
0.018302 0.019427 -0.0021452 0.0013924
0.00026995 -0.0036008 -0.0022315 -0.0024206 -0.0016057 -0.00088682 0.018335 0.019415
-0.11305 0.17516 0.013379 0.020507
-1.6582e-05 -0.0012257 -0.0011843 -0.0029029 -0.0005383 -0.0010207 -0.0020067 0.0014494
0.013365 0.020429 -0.14636 0.25939
1100000000 0.023622 0.30063 0.036418 -0.0030297 0.003373 0.0040869 0.0024291 -0.00091662
-0.0021624 -0.0031335 -0.0042703 -0.0001032
0.036386 -0.0030608 -0.14042 0.36754 0.015 -0.027407 -0.00017396 -0.0018421
-0.0034193 -0.0010148 -0.0037323 -0.00073448
0.0033845 0.0040712 0.014903 -0.027504 0.19992 0.27486 -0.0016992 0.00033493
-0.001696 0.000689 -0.0010748 -0.00042522
0.0024521 -0.00092837 -0.00013468 -0.0018572 -0.0016949 0.00032475 -0.0065722 0.28374
0.024224 0.0066398 -0.0027073 0.00020547
-0.002203 -0.0030936 -0.0034681 -0.0009787 -0.0017202 0.00068441 0.024236 0.0065929
-0.096861 0.19273 0.019867 0.0097291
-0.0043141 1.5979e-05 -0.0037572 -0.00070152 -0.0011217 -0.00039712 -0.0026576 0.00014249
0.019531 0.0099624 -0.10288 0.2917
1160000000 0.075455 0.29749 0.024796 -0.020131 0.0032172 -0.00064103 -3.6957e-05 -0.0023113
-0.0041167 -0.00088766 -0.00093023 0.0043045
0.024779 -0.020107 -0.095534 0.37263 -0.0038526 -0.028371 -0.0014729 -0.0014625
-0.0026537 0.0025612 -0.0014598 0.0019174
0.0032041 -0.00065841 -0.0039811 -0.028376 0.24411 0.24459 -0.00055693 0.0015878
-0.00043225 0.0017825 -0.00093563 0.00019465
-5.8541e-05 -0.0023895 -0.0015032 -0.0014572 -0.00057024 0.001616 0.03292 0.28088
0.021962 -0.009461 -0.0037829 0.0051487
-0.0040819 -0.00085977 -0.0026737 0.0026396 -0.00042451 0.0018071 0.021933 -0.0094904
-0.060639 0.20527 0.019174 0.0016613
-0.001018 0.0042524 -0.0013403 0.0019221 -0.00089497 0.00021598 -0.0039874 0.0052866
0.019385 0.001584 -0.053715 0.29488
1220000000 0.11896 0.28808 0.011751 -0.029849 -0.0011998 -0.0012471 8.1108e-05 -0.0011262
-0.0027915 0.0022495 0.0013254 0.0020705
0.011758 -0.029829 -0.05177 0.38679 -0.016699 -0.020633 -0.0024934 0.00049613
4.6784e-05 0.0030024 -0.00082824 0.0019718
-0.0012048 -0.0012574 -0.016822 -0.020583 0.28318 0.20573 0.00083958 0.001481
0.00046386 0.0010512 0.00023145 0.00056402
8.4955e-05 -0.001052 -0.0024585 0.00051938 0.00083994 0.0014345 0.072278 0.27241
0.011366 -0.016498 0.0021267 0.0016784
-0.0027671 0.0022299 0.00010703 0.0030032 0.00050556 0.0010326 0.011355 -0.016542
-0.039896 0.2166 0.015375 -0.012433
0.0013192 0.0021104 -0.00074165 0.001969 0.00023395 0.00055352 0.0021453 0.0016839
0.015456 -0.01254 -0.025018 0.31387
1280000000 0.16959 0.26904 -0.007092 -0.028985 -0.0017314 0.0018313 -0.0009823 -0.0020787
-0.00099525 0.0032129 0.0022781 0.0014611
-0.0070778 -0.028928 -0.0049248 0.3795 -0.023503 -0.007843 -0.00090987 0.0014081
0.001692 0.0018364 0.00055058 0.0020629
-0.0017275 0.0018474 -0.023578 -0.007747 0.3144 0.16283 0.001352 -0.00013853
0.0011511 0.00033215 0.00013034 0.00015807
-0.00097588 -0.0021296 -0.00091188 0.0013675 0.0013567 -0.00012613 0.109 0.25695
0.0022458 -0.019071 -0.00024208 0.00012287
-0.0010358 0.0032621 0.0016844 0.0018414 0.001125 0.00036266 0.0022068 -0.019088
-0.0028047 0.2248 0.0041124 -0.015508
0.0023238 0.0013871 0.00048634 0.0021025 0.00012284 0.00024822 -0.00017416 1.1596e-05
0.0041112 -0.015504 0.023781 0.31754
1340000000 0.20737 0.23632 -0.016794 -0.019649 0.00053688 0.0041184 -0.0018582 -0.00078189
0.0015593 0.0029396 0.0018051 -0.0014718
-0.016776 -0.019635 0.034837 0.37205 -0.020548 0.0047398 -0.00021414 0.0019021
0.0018777 0.00091423 0.0011292 0.00073768
0.00053696 0.0041135 -0.02056 0.0048362 0.33758 0.11459 0.00089555 -0.00090071
0.00068524 -0.0004967 0.00014214 0.00031273
-0.0019099 -0.00073288 -0.00021176 0.0019223 0.00089496 -0.00091613 0.1422 0.23659
-0.0076656 -0.016665 0.0010351 0.000457
0.001515 0.0029566 0.0019115 0.0009158 0.00068361 -0.00045926 -0.0077103 -0.016644
0.026484 0.22201 -0.0031612 -0.013758
0.0018363 -0.0013806 0.0011421 0.00074044 0.00012687 0.00029872 0.0010045 0.00044874
-0.0030893 -0.01357 0.061897 0.31497
1400000000 0.24147 0.2 -0.023246 -0.0084827 0.0048474 0.0029029 -0.0021612 0.00085097
0.0025692 0.0010365 0.00040546 -0.001326
-0.023207 -0.008488 0.072723 0.36045 -0.013813 0.012386 0.0012997 0.0012951
0.0012052 -0.00066292 0.0011513 0.00020195
0.0048595 0.002883 -0.01376 0.012476 0.35093 0.060692 -2.8946e-05 -0.0013797
0.00012367 -0.00013428 0.00041171 0.0002542
-0.0021175 0.00083328 0.0013014 0.0012753 -5.8121e-05 -0.0013764 0.17173 0.20821
-0.013668 -0.01039 -0.00089301 -0.00027896
0.0025979 0.0010155 0.0011751 -0.00071978 8.745e-05 -0.0001808 -0.013674 -0.010368
0.059858 0.22275 -0.0091714 -0.0093117
0.00037101 -0.0013504 0.0011243 0.00021638 0.00035486 0.00023774 -0.0010177 -0.00014302
-0.0093029 -0.0096078 0.10638 0.30592
1460000000 0.26592 0.15705 -0.020508 0.0040636 0.0050386 -0.0017112 -0.0015041 0.0017667
0.0021979 -0.00032759 -0.00026749 -0.00086975
-0.020488 0.00405 0.10823 0.33906 -0.0049593 0.014832 0.0016158 0.00022974
0.0010488 -0.0013561 0.0011907 -0.0005054
0.0050556 -0.0017422 -0.0048836 0.014876 0.35772 0.0055888 -0.0010714 -0.0011235
0.00040055 -0.00025412 0.00050223 -0.00042388
-0.0015421 0.0017886 0.0016323 0.00025194 -0.0010361 -0.0011073 0.19919 0.17952
-0.015094 -0.0039057 -0.00077997 0.0019302
0.0022073 -0.00037226 0.0010588 -0.0013402 0.00040736 -0.00024295 -0.01514 -0.0038751
0.090048 0.21146 -0.011938 -0.0029835
-0.00023104 -0.00094567 0.0012171 -0.00053911 0.00047881 -0.0004237 -0.00065608 0.0017418
-0.011948 -0.0028991 0.14154 0.28652
1520000000 0.27893 0.11542 -0.015248 0.009621 0.0030518 -0.0039149 0.0001813 0.0026105
0.0024408 -0.0018768 -0.0010219 -0.00011471
-0.015244 0.0096028 0.14229 0.32491 0.0023066 0.012018 0.0016541 -0.000692
0.0002167 -0.00096759 0.00041851 -0.00099973
0.0030504 -0.0039384 0.0023807 0.012025 0.34993 -0.052008 -0.00082397 -0.00036482
0.00067581 -0.00087605 0.00018262 -6.4882e-05
0.00021558 0.002622 0.0016543 -0.00069912 -0.00081824 -0.00038929 0.22283 0.14068
-0.014963 0.0018807 0.0015298 0.0018815
0.0024287 -0.0019022 0.00018772 -0.00095075 0.00068809 -0.00089616 -0.014959 0.0019174
0.11823 0.20159 -0.011677 0.0010611
-0.0010854 -9.8375e-05 0.00038831 -0.00098279 0.00019683 -6.4687e-05 0.0013676 0.001819
-0.011677 0.001049 0.17441 0.26773
1580000000 0.28955 0.070441 -0.0088124 0.013265 -0.0011837 -0.0046098 0.0015616 0.0018873
-0.00013569 -0.0023236 -0.00024525 0.00039466
-0.0088071 0.013266 0.17026 0.30075 0.0053558 0.006803 0.0006024 -0.0015294
-0.00038981 -0.0011586 -0.00017833 -0.00071816
-0.0012115 -0.0046015 0.0053752 0.0067818 0.32878 -0.10895 -0.0014274 0.0003108
-0.00036873 -0.0013101 0.00028717 -0.00056674
0.0015565 0.0018144 0.00057393 -0.001515 -0.0014421 0.00038301 0.23703 0.10162
-0.011828 0.006997 0.0020248 0.00068062
-0.00015377 -0.0023317 -0.00039252 -0.0011789 -0.00040082 -0.0012765 -0.011826 0.00702
0.14447 0.1877 -0.0092564 0.0074562
-0.00020792 0.00040221 -0.00017282 -0.0006922 0.00024307 -0.00058209 0.0019818 0.0008494
-0.0093439 0.0074567 0.2082 0.24296
1640000000 0.29298 0.028995 -0.0019777 0.012351 -0.002825 -0.0021114 0.0027505 0.0010095
-0.0005906 -0.0017667 -0.00032035 0.00046376
-0.0019882 0.012338 0.20081 0.27596 0.0053627 0.0021182 -0.00045635 -0.0017817
-0.00092032 -0.0005348 -0.00044768 -0.00068869
-0.0028204 -0.0021001 0.0053779 0.0020798 0.2994 -0.15844 -0.00078809 0.0013256
-0.001127 -0.0010219 -0.00022913 -0.00036668
0.0027435 0.0010356 -0.00047036 -0.0017922 -0.00074947 0.0012628 0.25032 0.051907
-0.0078542 0.0084986 0.0024742 -0.00056239
-0.00059665 -0.0017847 -0.00092916 -0.00055577 -0.001103 -0.00099063 -0.0078349 0.0085514
0.16881 0.16667 -0.0046108 0.0095263
-0.00029872 0.00048621 -0.00045342 -0.00073308 -0.00020838 -0.00040912 0.0025945 -0.0006327
-0.0045076 0.0096685 0.23474 0.21283
1700000000 0.28632 -0.015767 0.0016068 0.0097447 -0.0033042 0.00034803 0.0030771 -0.0012253
-0.0022076 -0.00066866 0.0006174 0.00051633
0.0016103 0.0097346 0.21899 0.24475 0.0027074 -0.00045589 -0.0014566 -0.00069416
-0.00082364 -0.00021969 -0.00090753 -0.00048643
-0.0033066 0.00037551 0.0027031 -0.00047397 0.25486 -0.19665 0.00023201 0.0015645
-0.0021181 -0.00024361 -0.00033759 -0.00084116
0.0031059 -0.0012614 -0.001446 -0.00068674 0.00024088 0.0016365 0.24683 0.0012743
-0.0049967 0.0095357 0.0017909 -0.0021347
-0.0022123 -0.00067597 -0.00080136 -0.00020051 -0.0020939 -0.00022229 -0.0049673 0.0095446
0.1884 0.1503 0.00048327 0.0096643
0.00054772 0.00052913 -0.00088695 -0.00043088 -0.00036768 -0.00086005 0.0016675 -0.0022082
0.00037859 0.0095212 0.25239 0.17937
1760000000 0.2761 -0.064392 0.0041572 0.0065959 -0.0021175 0.00124 0.0012725 -0.0034313
-0.0013456 0.00053206 7.6301e-05 -0.0005289
0.0041365 0.0065827 0.24606 0.20523 4.836e-05 -0.0017418 -0.0012785 7.2487e-05
-0.0012012 0.00094788 -0.00053556 0.00032005
-0.0021068 0.0012569 3.6969e-05 -0.0017359 0.20662 -0.22852 0.0010975 0.0013359
-0.0011539 0.0015093 -0.001224 -0.00081162
0.001173 -0.0034523 -0.0012961 6.1786e-05 0.0011209 0.0013921 0.23792 -0.050467
-0.0015093 0.0088694 -0.00022683 -0.0025071
-0.0013124 0.00053543 -0.0011933 0.00094766 -0.0011816 0.001559 -0.0015089 0.0088648
0.206 0.11874 0.0042298 0.0070388
0.0001724 -0.00051359 -0.00054596 0.00028827 -0.0012611 -0.00076371 -0.00025484 -0.0022501
0.004303 0.007118 0.26651 0.14267
1820000000 0.25225 -0.10268 0.0045534 0.0029726 0.00025172 0.0023834 -0.00097726 -0.0031476
-0.0012449 0.00089176 -1.6853e-05 9.0406e-05
0.0045497 0.0029778 0.25644 0.17498 -0.002109 8.2607e-05 -0.0015567 0.00087767
-9.761e-05 0.001232 -0.00073552 0.00042089
0.00024186 0.0023972 -0.0021151 8.8734e-05 0.1561 -0.24349 0.0016723 0.00058405
-0.00029973 0.0023636 -0.0016921 0.00028899
-0.00094853 -0.0030919 -0.0015208 0.00087436 0.0016232 0.00046484 0.20736 -0.098554
0.00055041 0.0076507 -0.0016759 -0.0017745
-0.0012371 0.00091403 -7.9567e-05 0.0012333 -0.00024099 0.0023114 0.00058139 0.0076678
0.22669 0.092044 0.0053337 0.0032889
-5.0828e-05 -1.7375e-05 -0.00072477 0.00044041 -0.0017673 0.00024571 -0.0014876 -0.0019166
0.005338 0.0032512 0.27035 0.10713
1880000000 0.2175 -0.14291 0.0023562 0.00062555 -0.00027751 0.0021935 -0.003015 -0.0023504
-0.00020941 0.0016655 0.00024158 -0.00073032
0.0023525 0.00062435 0.26095 0.12898 -0.0039411 0.0029209 -0.00022338 0.001862
0.00059579 0.0014348 0.00010595 0.000971
-0.00026762 0.0022411 -0.0039101 0.0029634 0.10428 -0.2506 0.0020088 -0.0011316
0.0017083 0.0020515 -0.0010296 0.001367
-0.0030596 -0.0024031 -0.00025639 0.0018822 0.0019696 -0.0010718 0.16627 -0.13848
0.0018736 0.0054201 -0.0020702 0.00032003
-0.00016244 0.0016029 0.00060224 0.0014369 0.0016274 0.0020635 0.001874 0.0053806
0.23394 0.063325 0.0057119 0.0012859
0.00022915 -0.00054543 4.9153e-05 0.0010389 -0.00098816 0.0013896 -0.0023796 0.00021999
0.0056662 0.0012746 0.27168 0.073886
1940000000 0.17883 -0.16969 0.00020586 -0.0012054 0.0018228 0.0018076 -0.0039188 0.00021788
0.0011164 0.00088595 -0.00058097 -0.00067991
0.00020569 -0.0012236 0.26275 0.09713 -0.0018957 0.0057969 0.00097279 0.0014436
0.0019979 0.00043641 0.00087713 0.00034428
0.0017932 0.0018046 -0.0018445 0.0058245 0.060801 -0.24296 0.00043537 -0.0022503
0.0022213 0.0003426 0.00019813 0.0018231
-0.0039666 0.00034477 0.0010362 0.001416 0.00053437 -0.0023713 0.113 -0.16925
0.00064735 0.0035287 -0.0018518 0.0015835
0.0010483 0.00094838 0.0020246 0.00041583 0.0022997 0.00034468 0.00064182 0.0035355
0.24078 0.02615 0.004112 -0.0027648
-0.00061175 -0.0007825 0.00086206 0.0003608 0.00018179 0.0018769 -0.0015194 0.0017832
0.0042321 -0.0027856 0.26277 0.037656
2000000000 0.13231 -0.18426 -0.0036956 0.00093457 0.0028507 0.0012104 -0.0025315 0.0038258
0.00077623 0.00055488 -0.00097136 0.00044057
-0.003664 0.00092363 0.24857 0.061844 -0.00042728 0.0079454 0.0016182 0.00033751
0.0011995 -0.001344 0.00058065 0.00011081
0.0028722 0.0012148 -0.0003679 0.0079521 0.01917 -0.22831 -0.0014953 -0.0015665
0.002144 -0.00098644 0.0018828 0.0014396
-0.0024382 0.0038151 0.0016275 0.00037391 -0.0015792 -0.0014636 0.05985 -0.17852
-0.00085581 0.0033651 0.00019804 0.0022708
0.00077378 0.00051428 0.0011763 -0.0013475 0.0021022 -0.00098 -0.00082902 0.0033684
0.23923 -0.006408 0.0008831 -0.0036008
