!Keysight Technologies,M9804A,MY58100912,A.14.10.03
!Date: Thursday, April 27, 2023 10:28:33
!Correction: S11(C  6-Port  ) 
!S12(C  6-Port  ) 
!S13(C  6-Port  ) 
!S14(C  6-Port  ) 
!S15(C  6-Port  ) 
!S16(C  6-Port  ) 
!S21(C  6-Port  ) 
!S22(C  6-Port  ) 
!S23(C  6-Port  ) 
!S24(C  6-Port  ) 
!S25(C  6-Port  ) 
!S26(C  6-Port  ) 
!S31(C  6-Port  ) 
!S32(C  6-Port  ) 
!S33(C  6-Port  ) 
!S34(C  6-Port  ) 
!S35(C  6-Port  ) 
!S36(C  6-Port  ) 
!S41(C  6-Port  ) 
!S42(C  6-Port  ) 
!S43(C  6-Port  ) 
!S44(C  6-Port  ) 
!S45(C  6-Port  ) 
!S46(C  6-Port  ) 
!S51(C  6-Port  ) 
!S52(C  6-Port  ) 
!S53(C  6-Port  ) 
!S54(C  6-Port  ) 
!S55(C  6-Port  ) 
!S56(C  6-Port  ) 
!S61(C  6-Port  ) 
!S62(C  6-Port  ) 
!S63(C  6-Port  ) 
!S64(C  6-Port  ) 
!S65(C  6-Port  ) 
!S66(C  6-Port  ) 
!S6P File: Measurement: :
# Hz S  RI   R 50
500000000 -0.32593 -0.061776 -0.0099266 -0.001502 -0.0080472 0.01245 -0.004522 0.012009
0.013175 0.0067003 -0.0054637 0.0083515
-0.010098 -0.0014273 -0.409 -0.072522 0.0078606 -0.010445 0.00062132 0.012138
0.008946 0.0033019 0.00013716 0.013739
-0.0080696 0.012523 0.0078681 -0.010445 -0.25559 0.1939 0.0071522 0.0032808
-0.0021609 0.0087034 0.0017325 0.012213
-0.004538 0.011205 0.00021282 0.011925 0.0068537 0.0038372 -0.32713 0.044277
-0.021083 -0.0055996 0.013429 0.027037
0.013831 0.006416 0.0092274 0.0032424 -0.0017552 0.0088187 -0.021186 -0.0051613
-0.21052 -0.24465 -0.028451 0.0033577
-0.0052098 0.007396 0.00040989 0.01393 0.0018037 0.013078 0.01467 0.027131
-0.029378 0.003329 -0.26042 -0.1462
560000000 -0.31579 0.10473 -0.02205 -0.06606 0.00044986 0.012705 0.0064641 0.010991
0.010924 0.0045632 0.012141 0.01071
-0.022197 -0.065928 -0.36974 0.091017 -0.041131 -0.038706 0.013051 0.0030388
-0.013398 -0.0059515 0.0055849 -0.00067889
0.00042479 0.012604 -0.041305 -0.038576 -0.18044 0.2428 0.00038358 -0.0054501
0.018344 0.0080584 0.0070498 -0.0060848
0.0064913 0.010451 0.013058 0.0025642 0.00062432 -0.0054525 -0.30335 0.13222
0.0067374 -0.022914 0.0073724 -0.021086
0.010652 0.0053874 -0.013195 -0.0050939 0.017585 0.0082921 0.0070086 -0.023285
-0.29559 -0.058812 0.0095212 -0.052645
0.011461 0.0091541 0.0041285 -0.0010913 0.007625 -0.0069066 0.005741 -0.020166
0.0099805 -0.051446 -0.3281 0.0041161
620000000 -0.2749 0.082375 -0.023704 0.0087109 0.0031092 0.0085645 0.007527 -0.0039362
0.011674 -0.00010795 -5.0714e-05 -0.00091195
-0.02374 0.0087098 -0.39886 0.037038 -0.019421 0.00063945 -0.0020958 -0.002036
0.013418 -0.0049308 -0.0002343 -0.0035163
0.0032137 0.0085429 -0.019412 0.00069533 -0.15369 0.25148 -0.0011126 -0.0051225
-0.0043837 -0.0017221 0.0095324 -0.0028631
0.0082706 -0.0040605 -0.0022372 -0.0022241 -0.000763 -0.0055834 -0.26006 0.14206
-0.041571 -0.02039 0.013073 0.028512
0.0114 -0.00041745 0.013435 -0.0050159 -0.0048552 -0.0020214 -0.041483 -0.020938
-0.20843 -0.09835 -0.045512 0.01167
-0.00020925 -0.0012304 -0.00039816 -0.0033412 0.0089806 -0.003024 0.013968 0.028704
-0.046795 0.010618 -0.24317 -0.034343
680000000 -0.23983 0.17597 -0.026092 -0.014063 0.0048244 0.005489 0.0017314 -0.0073205
-0.0015573 -0.010948 0.0061173 -0.0063391
-0.026059 -0.014069 -0.38908 0.13935 -0.032204 -0.0014244 -0.0018 -0.00083983
-0.0015704 -0.0090348 -0.00031343 -0.0015233
0.0047904 0.0055315 -0.032315 -0.0012986 -0.10634 0.27498 -0.0013212 -0.00022667
-0.0011456 0.00078268 -0.0030481 -0.0090238
0.0016014 -0.0069196 -0.0016791 -0.00049385 -0.0012757 -0.00014447 -0.21845 0.19558
-0.022902 -0.0077775 -0.0088095 -0.012817
-0.0018726 -0.010713 -0.0015207 -0.0091128 -0.00098531 0.00063988 -0.022636 -0.0078071
-0.28404 0.0030127 -0.0048064 -0.0053763
0.0064407 -0.0056339 -0.00034849 -0.0015673 -0.0031589 -0.0089952 -0.0092222 -0.011677
-0.0055623 -0.0055067 -0.26041 0.071554
740000000 -0.19431 0.16774 -0.041088 0.026922 0.013375 -0.0042659 -0.00036931 -0.004005
-0.0046663 -0.0021639 -0.0060759 0.0020226
-0.041075 0.026831 -0.3349 0.15869 -0.036603 0.034235 -0.00011902 -0.0061527
-0.013893 0.0060765 -0.00094485 -0.0055148
0.013313 -0.0043542 -0.036591 0.034386 -0.072474 0.27463 -0.0017613 0.0030782
-0.00037169 -0.0060443 -0.0015622 0.00096921
-0.0001882 -0.0043794 -5.1268e-05 -0.0059938 -0.0017555 0.0031498 -0.20084 0.20155
-0.042935 -0.011042 0.023512 0.017273
-0.0047558 -0.0020236 -0.013325 0.0061733 -0.00030295 -0.0056301 -0.043078 -0.01086
-0.18103 0.039309 -0.044562 -0.0032741
-0.0068063 0.0023407 -0.0014645 -0.0052605 -0.0016191 0.00078961 0.023278 0.01708
-0.044189 -0.0034865 -0.25079 0.078112
800000000 -0.16567 0.21429 -0.022651 0.016297 0.005519 -0.010199 -0.0043001 -0.00243
-0.0039939 0.0012146 0.0038098 0.00073299
-0.022615 0.016289 -0.34401 0.22934 -0.0085134 0.034151 -0.0022292 0.0021187
-0.00055008 0.0019718 0.00025323 0.0052647
0.005486 -0.010172 -0.0084435 0.034238 -0.034527 0.30087 0.0010441 0.0011445
-4.7784e-05 0.0032488 -0.001846 0.00044827
-0.0046919 -0.0021866 -0.0022027 0.002213 0.00093678 0.0013526 -0.17313 0.22908
-0.028059 0.012703 0.01375 -0.011013
-0.0036438 0.001505 -0.00024173 0.002072 0.00011569 0.0033747 -0.028061 0.012981
-0.23677 0.062804 -0.017689 0.021934
0.0040428 0.0013644 0.00053274 0.0055673 -0.0015235 0.00077746 0.014102 -0.011006
-0.017944 0.021267 -0.2502 0.12641
860000000 -0.13095 0.23513 -0.017939 0.030342 -0.0034021 -0.0098474 -0.0018288 0.00058881
0.0040137 0.0049816 -0.0036194 -0.0029813
-0.017965 0.030301 -0.29625 0.27383 0.007712 0.034036 0.0003184 0.0021284
0.0038756 0.00047738 0.0036021 0.00023058
-0.003443 -0.0098676 0.0078312 0.034045 0.01407 0.31073 -0.00044786 -0.00032681
0.0024526 -0.0015884 0.0016619 0.0043357
-0.0015459 0.00029413 4.6761e-05 0.0021164 -0.00047914 -0.00045019 -0.13607 0.24094
-0.01827 0.017809 -0.0063239 -0.0092117
0.003721 0.0047798 0.0036875 0.00043977 0.0023082 -0.0015399 -0.018105 0.017643
-0.18012 0.12507 -0.027166 0.015957
-0.0037965 -0.0033662 0.0035466 0.00034115 0.0015046 0.0043002 -0.0067183 -0.0091778
-0.027258 0.016409 -0.19863 0.17726
920000000 -0.10801 0.25862 0.0048803 0.039364 -0.0092275 -0.0043212 -0.0018764 0.0017326
0.00045904 0.0013097 0.0031253 -0.0010085
0.0048262 0.039339 -0.26999 0.29567 0.027967 0.022574 0.0013327 0.001057
0.0074979 -0.00023659 0.0039715 -0.0030975
-0.0092343 -0.0042926 0.028113 0.022496 0.060258 0.31237 0.0017324 -6.7484e-05
0.00069295 -0.00047359 0.00086712 -0.0014751
-0.0017678 0.0019102 0.0014406 0.0011399 0.0018707 2.9196e-05 -0.112 0.25683
-0.01291 0.03007 0.0046058 -0.0064672
0.00062011 0.0013163 0.0076144 -0.00020816 0.00067071 -0.00049686 -0.0128 0.030499
-0.17328 0.12856 -0.0027985 0.028187
0.0030533 -0.00085357 0.0042793 -0.0031162 0.0010616 -0.0013772 0.004438 -0.0067071
-0.002903 0.028006 -0.20874 0.18889
980000000 -0.062193 0.28086 0.016699 0.030273 -0.0091941 0.0046197 0.00183 0.0034681
0.0039495 -0.0014542 -0.0034457 -0.0029224
0.01666 0.030268 -0.21846 0.33327 0.032681 0.0049868 0.0019279 -0.00024593
0.0021064 -0.0059564 -0.00054102 -0.002758
-0.0091749 0.0046513 0.032782 0.0048829 0.10678 0.30757 0.00046575 -0.001218
0.00020485 -0.0017476 0.0014523 -0.00030562
0.0017672 0.0035768 0.0019887 -0.00023551 0.00039717 -0.0011682 -0.074106 0.26912
0.0065488 0.030274 -0.0095581 -0.0082849
0.0036876 -0.0013893 0.0020441 -0.0061106 0.00023823 -0.0017371 0.0066007 0.0301
-0.1459 0.16725 0.0049208 0.020694
-0.0034216 -0.003057 -0.00054005 -0.0028059 0.001416 -0.00035041 -0.0093367 -0.0080284
0.0048081 0.020811 -0.16736 0.23825
1040000000 -0.020994 0.28969 0.032966 0.019554 -0.0010364 0.0073948 0.0024403 0.00082327
0.00025287 -0.0034398 -0.00018822 -0.0011009
0.032965 0.01955 -0.18317 0.34714 0.029175 -0.014426 0.001333 -0.0017011
-0.0024347 -0.0024742 -0.0011842 -0.002686
-0.0010343 0.0074085 0.02917 -0.014566 0.15368 0.29417 -0.00060133 -0.0012731
-0.0015899 -0.00093198 -0.000769 -0.00097638
0.002368 0.00060961 0.0013868 -0.0017913 -0.00057046 -0.0012911 -0.046505 0.27824
0.018286 0.019356 -0.0024433 0.001666
0.00025186 -0.0036309 -0.0024438 -0.0024613 -0.0015791 -0.00097585 0.018397 0.019499
-0.11273 0.1755 0.013028 0.020102
-0.0004109 -0.0010516 -0.0012498 -0.0029628 -0.00080379 -0.00091397 -0.0026288 0.0013567
0.013108 0.019767 -0.1477 0.25948
1100000000 0.023471 0.30069 0.036438 -0.0030546 0.0033611 0.0040927 0.0023993 -0.00087476
-0.0022064 -0.0031007 -0.004045 -0.00018741
0.036407 -0.0030246 -0.14043 0.36743 0.015046 -0.027415 -6.1429e-05 -0.001836
-0.0033105 -0.0010129 -0.0035761 -0.00062424
0.0033829 0.0040588 0.014976 -0.027527 0.19976 0.27489 -0.001706 0.00034198
-0.0017866 0.00068966 -0.0010258 -0.00044396
0.0024595 -0.0008115 -7.9699e-05 -0.0017645 -0.0017005 0.00032034 -0.0068195 0.28372
0.024542 0.0066783 -0.0026885 7.4114e-05
-0.002278 -0.0030961 -0.0033606 -0.00086858 -0.0016521 0.00067388 0.024552 0.0066571
-0.095936 0.19291 0.020398 0.010382
-0.003926 -7.7056e-05 -0.0034958 -0.00054979 -0.0010233 -0.00046517 -0.0027441 0.00028375
0.020208 0.01031 -0.10252 0.29144
1160000000 0.075374 0.2975 0.02481 -0.020021 0.0032249 -0.00062513 -5.4968e-05 -0.0025163
-0.0042627 -0.00084367 -0.00099905 0.0041038
0.024823 -0.01998 -0.095685 0.37262 -0.0038394 -0.02834 -0.0015449 -0.0015032
-0.0028727 0.0026908 -0.0015739 0.0019997
0.003191 -0.00061571 -0.0039735 -0.028345 0.24394 0.24466 -0.00063676 0.0015573
-0.00046729 0.0018215 -0.00082186 0.00028419
-4.7939e-05 -0.0025381 -0.0015647 -0.0015408 -0.00060309 0.0015874 0.032979 0.28069
0.021645 -0.009715 -0.0035731 0.0051312
-0.0041284 -0.00094827 -0.0027119 0.0025281 -0.00052119 0.0017163 0.021727 -0.0096766
-0.060761 0.20494 0.019088 0.00062987
-0.0011038 0.0041483 -0.0015466 0.0021123 -0.00081815 0.00021351 -0.0033809 0.0049626
0.019196 0.00079726 -0.053566 0.29651
1220000000 0.1188 0.28823 0.011718 -0.029869 -0.0012219 -0.0012614 0.00010335 -0.00098013
-0.0027162 0.0022023 0.00093073 0.0022098
0.01173 -0.029828 -0.051923 0.38671 -0.016704 -0.020637 -0.0024445 0.00054249
8.1258e-05 0.0030652 -0.0009535 0.0019267
-0.0012126 -0.0012828 -0.01683 -0.020598 0.28303 0.20584 0.00084654 0.0014792
0.00057236 0.00099956 6.5803e-05 0.00057207
5.581e-05 -0.00090602 -0.0024606 0.00053438 0.00081907 0.0014549 0.072032 0.27248
0.011535 -0.016143 0.0020209 0.0014988
-0.0028945 0.0022379 7.9862e-05 0.0031197 0.00063662 0.001025 0.011403 -0.016218
-0.039715 0.21697 0.015413 -0.011987
0.0012882 0.0020862 -0.00087493 0.0018317 -5.0175e-05 0.00056766 0.0019405 0.0014333
0.015443 -0.012034 -0.024486 0.31256
1280000000 0.16942 0.269 -0.0071118 -0.028962 -0.0017344 0.0018051 -0.0010152 -0.0022086
-0.0010444 0.0032267 0.0027081 0.0013468
-0.0070863 -0.028939 -0.0051144 0.37946 -0.023534 -0.0078497 -0.00087923 0.0014036
0.0016544 0.0018679 0.00054081 0.0019691
-0.0017377 0.0018413 -0.023597 -0.0077404 0.31429 0.16292 0.0014276 -9.6414e-05
0.0010219 0.00032175 0.00024296 0.00033866
-0.0010066 -0.0021972 -0.00092052 0.0013873 0.0014805 -5.3226e-05 0.10887 0.25694
0.002123 -0.019072 -0.00020439 2.3342e-05
-0.00094236 0.003179 0.0017384 0.0017761 0.00098623 0.00037271 0.0021533 -0.01888
-0.0025678 0.22424 0.0037637 -0.01561
0.0023404 0.0015082 0.00052987 0.0021413 0.00030685 0.00030531 -0.00022114 3.1994e-05
0.0034727 -0.015375 0.02298 0.31874
1340000000 0.20719 0.23643 -0.016746 -0.019676 0.00051859 0.004151 -0.0018177 -0.00075996
0.0014413 0.002835 0.0018841 -0.001382
-0.016713 -0.01965 0.034606 0.37204 -0.020593 0.004741 -0.00020828 0.0018631
0.0018696 0.00090115 0.0011344 0.00073693
0.00055235 0.0041154 -0.020616 0.0048256 0.33745 0.11481 0.00081976 -0.00093404
0.00063086 -0.00052422 8.0715e-05 0.00020668
-0.0018955 -0.00075283 -0.00016642 0.001931 0.0008534 -0.00096596 0.14212 0.23682
-0.0073659 -0.016749 0.00094273 0.00062517
0.0015553 0.0029354 0.0019006 0.00085871 0.00060351 -0.00045535 -0.0075147 -0.01683
0.026418 0.22266 -0.0026499 -0.0141
0.0018499 -0.0014847 0.0011502 0.00064973 0.00016204 0.00015502 0.0010251 0.00071655
-0.0024221 -0.014172 0.06147 0.31478
1400000000 0.24129 0.20005 -0.023253 -0.0084623 0.0048611 0.0029011 -0.0022556 0.00081023
0.0026095 0.0010259 0.00030657 -0.001306
-0.023218 -0.0084565 0.07261 0.36041 -0.013825 0.01236 0.0012969 0.0013834
0.0012211 -0.00067603 0.0010804 0.00024349
0.0048773 0.0029009 -0.013777 0.012468 0.3508 0.060865 -6.0576e-05 -0.0013619
0.0001838 -0.0002247 0.00028717 0.00022927
-0.0021637 0.00082764 0.0012528 0.0013034 -0.00010683 -0.0013235 0.17164 0.20807
-0.013899 -0.010214 -0.0006718 -0.00047004
0.0026126 0.0010358 0.0012916 -0.00072581 0.00014795 -0.00024282 -0.013838 -0.010164
0.059777 0.22265 -0.0096302 -0.0091401
0.00026368 -0.0013161 0.0010485 0.00024071 0.00039058 0.00026245 -0.00072713 -0.00048374
-0.0098144 -0.0091731 0.10702 0.30614
1460000000 0.26579 0.1572 -0.020531 0.0040503 0.0050299 -0.0017115 -0.001468 0.0018023
0.002149 -0.00041871 -0.00019299 -0.00090398
-0.020503 0.0040175 0.10804 0.33909 -0.0049697 0.014826 0.0016192 0.00022223
0.0010797 -0.0012581 0.0012614 -0.00062015
0.0050316 -0.0017494 -0.0049163 0.014867 0.3577 0.0057827 -0.0010523 -0.0011541
0.00035917 -0.00026015 0.00055901 -0.00036142
-0.0015039 0.0017708 0.0016571 0.00022591 -0.0010036 -0.0011408 0.199 0.17966
-0.015018 -0.0038884 -0.0010537 0.0018858
0.0020897 -0.00035621 0.0010802 -0.0012387 0.00033466 -0.00022312 -0.015061 -0.0039275
0.090044 0.21148 -0.011815 -0.0033653
-0.00015848 -0.00081215 0.0012347 -0.00057263 0.00058464 -0.00036093 -0.00099577 0.0018324
-0.011543 -0.0033426 0.14068 0.28638
1520000000 0.27881 0.11562 -0.015248 0.0096102 0.003088 -0.0039415 0.00018153 0.002613
0.0024344 -0.0017785 -0.0010348 -0.00024588
-0.015238 0.0095867 0.14213 0.32495 0.0022963 0.012012 0.0016839 -0.00067945
0.00018274 -0.00095591 0.00041037 -0.00095843
0.0030577 -0.0039555 0.0023683 0.012013 0.34991 -0.051772 -0.00085827 -0.00032761
0.00062615 -0.00088117 0.00014664 -9.6668e-05
0.00021466 0.0026373 0.0016511 -0.00068354 -0.00084943 -0.00034707 0.22273 0.14091
-0.015004 0.0018023 0.0014207 0.0020846
0.0024574 -0.0018609 0.00021584 -0.00099765 0.00060056 -0.00087493 -0.015061 0.0019009
0.11822 0.2017 -0.011709 0.0012545
-0.0010886 -0.00020557 0.00038677 -0.00094668 9.1899e-05 -9.3062e-05 0.0014537 0.0019783
-0.011678 0.0013321 0.17443 0.26802
1580000000 0.28947 0.070593 -0.0088146 0.013268 -0.0012137 -0.0046184 0.0015711 0.0018379
-0.00016661 -0.0023218 -0.00016438 0.00046751
-0.0088047 0.013232 0.17012 0.3008 0.005362 0.0067972 0.00053807 -0.0015111
-0.00042362 -0.0011042 -0.00013512 -0.00078063
-0.0012376 -0.0046105 0.0054034 0.0067953 0.3288 -0.10882 -0.0014175 0.00035014
-0.00036906 -0.0013253 0.00020383 -0.00051764
0.0015535 0.0018047 0.00058866 -0.0015343 -0.0014302 0.00040042 0.23714 0.10167
-0.011855 0.0070092 0.0021258 0.00073343
-0.0001664 -0.0023133 -0.00043088 -0.0011105 -0.00040879 -0.0013178 -0.01183 0.006976
0.14438 0.18762 -0.009341 0.0070683
-0.00011281 0.00045639 -9.201e-05 -0.00082284 0.00028328 -0.00051694 0.0020691 0.000812
-0.009381 0.0071398 0.20784 0.24326
1640000000 0.29291 0.029146 -0.0019594 0.012339 -0.0028276 -0.0021393 0.0027936 0.001041
-0.00057053 -0.0017371 -0.00040379 0.00042921
-0.0019712 0.012319 0.20063 0.27604 0.0053493 0.0021161 -0.00047997 -0.0018339
-0.00090633 -0.00054471 -0.00040899 -0.00072622
-0.0028176 -0.0021092 0.0053606 0.0020722 0.29944 -0.1582 -0.0007519 0.0013245
-0.0011123 -0.00094144 -0.00016083 -0.00037061
0.0027703 0.0010173 -0.00052733 -0.0018021 -0.00076125 0.0012945 0.25021 0.05193
-0.0079423 0.0085129 0.0025302 -0.00051383
-0.00055338 -0.0017068 -0.00089209 -0.0005537 -0.00109 -0.00095384 -0.0078779 0.0085583
0.16871 0.16692 -0.0044986 0.0097771
-0.00040621 0.00037143 -0.00044107 -0.00066009 -0.00024725 -0.00039601 0.0026101 -0.00065756
-0.0044948 0.0097183 0.2348 0.21264
1700000000 0.28633 -0.015553 0.0016209 0.0097445 -0.0033262 0.00035907 0.0031393 -0.0012549
-0.0021847 -0.00067337 0.00058912 0.00044339
0.0016056 0.0097345 0.21891 0.24485 0.0027363 -0.00044399 -0.001446 -0.00068291
-0.00081419 -0.0001735 -0.00085791 -0.00046397
-0.0033237 0.00036387 0.0027563 -0.00045142 0.25504 -0.19642 0.00019895 0.0017035
-0.0020571 -0.00020099 -0.00030682 -0.00086589
0.0031329 -0.001289 -0.0014237 -0.00068847 0.00015216 0.0016812 0.24678 0.0015145
-0.0049767 0.0095234 0.0016328 -0.0021432
-0.0022144 -0.00072904 -0.00085198 -0.0001781 -0.0021174 -0.0001939 -0.0049685 0.0095196
0.18844 0.1503 0.00034361 0.0096566
0.00058419 0.00051237 -0.00082439 -0.00046204 -0.00023705 -0.00079203 0.0016349 -0.0020957
0.00037812 0.0096974 0.25193 0.17975
1760000000 0.27604 -0.064268 0.0041151 0.006573 -0.0021085 0.0012013 0.0012848 -0.0033986
-0.0013603 0.00058962 0.00022333 -0.00043747
0.0041049 0.0065877 0.24591 0.20536 6.2988e-05 -0.0017344 -0.0012642 -5.335e-06
-0.0012337 0.00095731 -0.00056121 0.00026963
-0.0020819 0.0012287 3.9588e-05 -0.0017303 0.20679 -0.22833 0.0010756 0.0012447
-0.0011559 0.001548 -0.0012622 -0.00082727
0.0012762 -0.0033526 -0.0012795 5.1113e-05 0.0011259 0.0013412 0.23814 -0.050427
-0.0013341 0.0089793 -0.00010133 -0.0023598
-0.0013495 0.00064326 -0.0012023 0.0010004 -0.001153 0.0015214 -0.0013805 0.0089284
0.20623 0.11886 0.0044691 0.0070566
0.00031434 -0.0005908 -0.00056312 0.00033224 -0.0012279 -0.00082143 -0.00018849 -0.0023621
0.0043291 0.0070919 0.26637 0.14275
1820000000 0.25228 -0.1025 0.004536 0.0029647 0.00021997 0.0023582 -0.00096211 -0.0031285
-0.0012007 0.0009012 -7.7094e-05 6.4406e-06
0.0045372 0.0029752 0.25632 0.17515 -0.0021114 9.1484e-05 -0.0015088 0.00098269
-6.0449e-05 0.0012671 -0.00076545 0.0004798
0.00021474 0.0023299 -0.0021298 0.00010523 0.15624 -0.24336 0.001878 0.00064495
-0.00019808 0.0022912 -0.0016943 0.00030738
-0.00098997 -0.0032066 -0.0015107 0.00092307 0.0017862 0.00056419 0.20739 -0.09849
0.00043487 0.0075647 -0.0016263 -0.0018329
-0.0011118 0.00087736 -7.9865e-05 0.0012425 -0.0002221 0.0023773 0.0004954 0.007575
0.22664 0.091996 0.0052012 0.0032603
-0.00015101 2.7493e-05 -0.0007396 0.00046835 -0.0017308 0.00036237 -0.0016339 -0.0017725
0.0053379 0.003215 0.27048 0.10713
1880000000 0.21761 -0.14281 0.0023835 0.0006674 -0.0001781 0.0022293 -0.0030021 -0.002345
-0.00017166 0.0015519 0.00034209 -0.00053609
0.0023928 0.00067316 0.26091 0.12909 -0.0039202 0.0028888 -0.0003574 0.0017487
0.00059618 0.0013537 2.2919e-05 0.00096199
-0.00015983 0.0022835 -0.0039058 0.0029353 0.1045 -0.2505 0.0018292 -0.0011712
0.001544 0.0020604 -0.0010921 0.0013948
-0.0030126 -0.0023125 -0.00024108 0.0017929 0.0018939 -0.0011544 0.16604 -0.13844
0.0015677 0.0054037 -0.0022913 0.00026922
-0.00026436 0.0016119 0.00062967 0.0013915 0.0015911 0.0019249 0.0016521 0.0054229
0.23385 0.06328 0.0057524 0.001256
0.00036468 -0.00056742 1.4659e-05 0.00089737 -0.0010318 0.0013823 -0.0023678 0.00027405
0.0055455 0.0013413 0.27153 0.073828
1940000000 0.17876 -0.16956 0.00012504 -0.0012165 0.0017363 0.0018005 -0.0039108 0.00015245
0.0010181 0.00090221 -0.00066682 -0.00060736
0.00013054 -0.0012008 0.26261 0.097275 -0.0019194 0.005813 0.0011259 0.0014368
0.0019987 0.00046733 0.00091741 0.00043897
0.0017839 0.0018027 -0.0018651 0.0058375 0.060991 -0.24281 0.00052611 -0.002292
0.0023028 0.00034647 0.00023386 0.0016693
-0.0038195 0.00015811 0.0011177 0.001462 0.00061093 -0.0023347 0.11351 -0.16907
0.00097784 0.0036254 -0.0015115 0.0014451
0.0011403 0.00090747 0.0020243 0.00045527 0.0023209 0.00035083 0.00087572 0.0036639
0.241 0.026315 0.0042299 -0.0028118
-0.00063447 -0.00073661 0.00091836 0.00041221 0.00012297 0.0017509 -0.0013531 0.0014661
0.0043665 -0.0028463 0.26283 0.038014
2000000000 0.13251 -0.18419 -0.0035862 0.00092219 0.0028133 0.0012107 -0.0023853 0.0038789
0.00091673 0.00047121 -0.00098695 0.00045089
-0.0035798 0.00089605 0.24862 0.061969 -0.00046316 0.0079261 0.0016986 0.00040163
0.0011921 -0.0013607 0.00056951 5.1542e-05
0.0027939 0.0011543 -0.00043316 0.0079236 0.019346 -0.22819 -0.0014323 -0.0016003
0.0020698 -0.0010011 0.0017788 0.0015933
-0.0023812 0.0035927 0.0016598 0.0003842 -0.001491 -0.0015351 0.059805 -0.17877
-0.00099906 0.0033511 8.5233e-05 0.0021753
0.00090319 0.00038759 0.0011714 -0.0013437 0.0020886 -0.001008 -0.00087538 0.0032204
