!Keysight Technologies,M9804A,MY58100912,A.14.10.03
!Date: Thursday, April 27, 2023 10:28:33
!Correction: S11(C  6-Port  ) 
!S12(C  6-Port  ) 
!S13(C  6-Port  ) 
!S14(C  6-Port  ) 
!S15(C  6-Port  ) 
!S16(C  6-Port  ) 
!S21(C  6-Port  ) 
!S22(C  6-Port  ) 
!S23(C  6-Port  ) 
!S24(C  6-Port  ) 
!S25(C  6-Port  ) 
!S26(C  6-Port  ) 
!S31(C  6-Port  ) 
!S32(C  6-Port  ) 
!S33(C  6-Port  ) 
!S34(C  6-Port  ) 
!S35(C  6-Port  ) 
!S36(C  6-Port  ) 
!S41(C  6-Port  ) 
!S42(C  6-Port  ) 
!S43(C  6-Port  ) 
!S44(C  6-Port  ) 
!S45(C  6-Port  ) 
!S46(C  6-Port  ) 
!S51(C  6-Port  ) 
!S52(C  6-Port  ) 
!S53(C  6-Port  ) 
!S54(C  6-Port  ) 
!S55(C  6-Port  ) 
!S56(C  6-Port  ) 
!S61(C  6-Port  ) 
!S62(C  6-Port  ) 
!S63(C  6-Port  ) 
!S64(C  6-Port  ) 
!S65(C  6-Port  ) 
!S66(C  6-Port  ) 
!S6P File: Measurement: :
# Hz S  RI   R 50
500000000 -0.3257 -0.060666 -0.010079 -0.0014627 -0.0084275 0.012015 -0.0046418 0.012011
0.013726 0.0061596 -0.0052991 0.0086162
-0.01007 -0.0014621 -0.40852 -0.072378 0.0077844 -0.010655 0.00082624 0.01146
0.0088171 0.0036955 0.00060232 0.014355
-0.0083598 0.011978 0.0078018 -0.01073 -0.25528 0.19373 0.0063692 0.0033083
-0.0020838 0.0084731 0.0015475 0.012203
-0.0044989 0.012071 0.0010238 0.011378 0.0063542 0.0032478 -0.32528 0.04327
-0.020735 -0.0049075 0.01544 0.028371
0.013561 0.0059951 0.0087006 0.0037791 -0.0021022 0.0085408 -0.020701 -0.0049466
-0.21137 -0.24475 -0.029967 0.0046718
-0.005108 0.0085136 0.00094431 0.013355 0.00096198 0.012006 0.016131 0.027146
-0.029446 0.0040263 -0.25943 -0.14357
560000000 -0.31403 0.10541 -0.021559 -0.067237 0.0010966 0.013509 0.0054493 0.010541
0.010754 0.0045055 0.011102 0.010518
-0.021522 -0.067166 -0.36967 0.091599 -0.041166 -0.038575 0.01333 0.0037719
-0.012948 -0.0056002 0.0041708 -0.0012704
0.0010946 0.013455 -0.041339 -0.038511 -0.17973 0.2435 -0.00027343 -0.0055659
0.017754 0.0069948 0.0073179 -0.0057904
0.0056582 0.010497 0.013377 0.0037618 -0.00030951 -0.0055775 -0.30268 0.13396
0.0075836 -0.022359 0.0053128 -0.021062
0.010447 0.0048037 -0.013053 -0.005693 0.017681 0.0072403 0.0075258 -0.02267
-0.2965 -0.064085 0.011636 -0.050895
0.011282 0.010134 0.0044077 -0.0010744 0.0080062 -0.0054576 0.005809 -0.020803
0.011459 -0.050257 -0.32846 0.0037752
620000000 -0.2748 0.083429 -0.023889 0.0090274 0.0032781 0.0090251 0.0080202 -0.0042725
0.013008 -0.00068915 0.00065949 -0.0015502
-0.023882 0.0090087 -0.39894 0.037282 -0.01925 0.00073576 -0.0015088 -0.0022974
0.012707 -0.0053142 0.00072749 -0.002912
0.0033065 0.0089896 -0.019284 0.00077503 -0.15325 0.25182 -0.0012734 -0.0056203
-0.0039828 -0.0021964 0.0089443 -0.0027742
0.0080372 -0.0044032 -0.0015461 -0.0022519 -0.0011865 -0.0057138 -0.26243 0.14147
-0.040346 -0.01897 0.013418 0.028195
0.01282 -0.00056181 0.012366 -0.0052759 -0.0038942 -0.0019211 -0.038162 -0.018672
-0.20984 -0.10066 -0.046108 0.013425
0.00030596 -0.0017049 0.00058917 -0.0030973 0.0089383 -0.0033094 0.011588 0.027262
-0.046339 0.012621 -0.24251 -0.034673
680000000 -0.24008 0.17517 -0.026019 -0.014465 0.0047961 0.0053848 0.0018602 -0.007327
-0.0013126 -0.011721 0.0071416 -0.0078588
-0.025982 -0.014469 -0.38919 0.13942 -0.032114 -0.001542 -0.0012574 -0.00045978
-0.0011672 -0.0095436 -0.00066566 -0.0024146
0.0047309 0.0054311 -0.03218 -0.0013936 -0.10607 0.27482 -0.00067821 1.5119e-05
-0.0010984 0.00060725 -0.0025195 -0.0089363
0.0017428 -0.0072105 -0.0013348 -0.00022333 -0.00068056 0.00010808 -0.21802 0.19501
-0.023387 -0.0080305 -0.0091585 -0.01169
-0.0015998 -0.011717 -0.0013114 -0.0096196 -0.0010147 0.00056609 -0.023717 -0.0075523
-0.2833 0.0034638 -0.0046729 -0.0070374
0.0061443 -0.006788 -0.00083262 -0.0018712 -0.0028912 -0.0088621 -0.0082412 -0.011534
-0.0053279 -0.0075421 -0.25955 0.0706
740000000 -0.19364 0.16834 -0.040659 0.026889 0.013382 -0.0036602 -0.00013332 -0.0037193
-0.0030667 -0.0021213 -0.006569 0.0030851
-0.040618 0.026851 -0.33511 0.1586 -0.036561 0.034352 0.00038764 -0.0057647
-0.013556 0.0065497 -0.00074092 -0.005715
0.013325 -0.0037365 -0.036504 0.034493 -0.072578 0.27494 -0.0020102 0.0032311
-0.00090944 -0.0051591 -0.001973 0.00077328
-0.00022004 -0.0037876 0.00025662 -0.005706 -0.0020386 0.0031907 -0.20109 0.20199
-0.041635 -0.0098267 0.022674 0.016254
-0.0032464 -0.0023939 -0.013532 0.0065926 -0.00092016 -0.0052888 -0.041868 -0.0099485
-0.17997 0.039913 -0.044753 -0.00061925
-0.0067712 0.0031208 -0.0011433 -0.0051648 -0.0020522 0.0004652 0.022417 0.017204
-0.044123 -0.00083975 -0.25017 0.075198
800000000 -0.16538 0.21455 -0.022488 0.016179 0.005388 -0.010221 -0.0042437 -0.0027772
-0.0040436 0.0013735 0.0044528 0.00066703
-0.022496 0.016151 -0.34405 0.22948 -0.0084813 0.034147 -0.0020661 0.0020285
-0.00022377 0.0018663 0.00086053 0.0057178
0.0053842 -0.010249 -0.0083573 0.034206 -0.034675 0.3009 0.0010473 0.001176
-0.00011936 0.0031465 -0.0015819 0.00022545
-0.0042539 -0.0026254 -0.0019716 0.0021164 0.0010829 0.0011975 -0.17274 0.22933
-0.028458 0.012981 0.01493 -0.010869
-0.0040729 0.0014615 -0.00023309 0.0019625 -0.00010651 0.0032744 -0.028502 0.012797
-0.23589 0.061517 -0.018273 0.021648
0.0045311 0.00055658 0.00098855 0.0054737 -0.001662 0.00053586 0.014696 -0.010321
-0.018373 0.021131 -0.24807 0.12674
860000000 -0.13061 0.2353 -0.017927 0.030402 -0.0032449 -0.0099241 -0.0020158 0.00077469
0.0039256 0.0050594 -0.0038052 -0.0029841
-0.017952 0.030367 -0.29639 0.27408 0.0076865 0.03382 0.00032006 0.0023675
0.0035428 0.00040278 0.0036187 -0.00011658
-0.0032993 -0.0098854 0.0078396 0.033882 0.014366 0.31071 -0.00039283 -0.00030059
0.0023927 -0.0018795 0.001666 0.0042315
-0.0021012 0.00064621 0.00013695 0.002387 -0.00044494 -0.00030209 -0.13601 0.24057
-0.018327 0.017826 -0.0072875 -0.0095132
0.0040896 0.0050497 0.0038034 0.00026537 0.002357 -0.0019143 -0.017953 0.017874
-0.18036 0.12532 -0.027071 0.016513
-0.0039061 -0.0029187 0.0033059 -4.7854e-05 0.0017232 0.0041207 -0.0068784 -0.0095426
-0.027447 0.016223 -0.19732 0.17525
920000000 -0.10791 0.25862 0.0046628 0.039101 -0.009115 -0.0042984 -0.0020662 0.0017533
0.00034413 0.001487 0.0034574 -0.0011754
0.0046081 0.039051 -0.27 0.29573 0.027957 0.022435 0.0014795 0.0011969
0.0071621 0.00035993 0.0041327 -0.0025828
-0.0091682 -0.00429 0.02808 0.022398 0.06045 0.31239 0.0016927 -1.721e-05
0.00069297 -0.00027841 0.00090675 -0.0014472
-0.0019364 0.0017038 0.0014457 0.0011676 0.0016842 -4.2132e-05 -0.11208 0.25697
-0.012751 0.030683 0.0044345 -0.0065667
0.00036702 0.0013425 0.0074153 0.00023442 0.00071622 -0.00036339 -0.01259 0.030896
-0.17397 0.12852 -0.0034251 0.029225
0.0032223 -0.00091763 0.0043662 -0.0026907 0.00097613 -0.0013472 0.0044976 -0.0065079
-0.0035619 0.028973 -0.20846 0.18962
980000000 -0.06198 0.28088 0.016796 0.030272 -0.0091794 0.0046513 0.0019289 0.003562
0.0038589 -0.0013372 -0.0034494 -0.0026656
0.01676 0.030224 -0.21824 0.33331 0.032745 0.0049506 0.0020036 -0.00023449
0.0018611 -0.0060642 -0.00060153 -0.0027234
-0.0091606 0.0046754 0.032792 0.0048307 0.10701 0.30762 0.00041555 -0.001209
0.00020004 -0.0016715 0.0014214 -0.00026882
0.0018882 0.0035345 0.0020532 -0.00019326 0.000413 -0.0011967 -0.073857 0.26918
0.0067821 0.030076 -0.0095386 -0.0078029
0.0038251 -0.0013374 0.001993 -0.0060809 0.00023867 -0.0016528 0.0067107 0.03024
-0.14606 0.16699 0.0052412 0.020879
-0.0033801 -0.002477 -0.00065112 -0.0023342 0.0014102 -0.00025966 -0.0096915 -0.0080954
0.0052872 0.020583 -0.16811 0.23765
1040000000 -0.020638 0.28971 0.033038 0.019432 -0.0010426 0.0073692 0.0023194 0.00078783
0.00045038 -0.003336 -0.00032779 -0.001495
0.032959 0.019404 -0.183 0.34714 0.029197 -0.014488 0.0013939 -0.0016803
-0.002518 -0.0023547 -0.0012431 -0.002915
-0.0010573 0.0073808 0.029195 -0.014608 0.15387 0.29411 -0.00057253 -0.0013482
-0.0015816 -0.0010039 -0.00071278 -0.0010523
0.002397 0.00068062 0.0013878 -0.0017097 -0.00057575 -0.0013447 -0.046392 0.27835
0.018579 0.019589 -0.0022204 0.0013416
0.00031996 -0.0034968 -0.0024357 -0.0025187 -0.0015858 -0.001006 0.018464 0.01934
-0.11294 0.17541 0.013596 0.020419
-0.00036937 -0.0013955 -0.0012681 -0.0030857 -0.00076402 -0.0010552 -0.0022328 0.0011752
0.013835 0.020189 -0.14639 0.25884
1100000000 0.023566 0.30077 0.036372 -0.003053 0.0033682 0.004099 0.002415 -0.00093339
-0.0021587 -0.0029275 -0.004133 -1.6555e-05
0.036315 -0.0030399 -0.14036 0.36747 0.014998 -0.027402 -9.7072e-05 -0.0017992
-0.0033816 -0.00092315 -0.0037362 -0.00065892
0.0033587 0.0040621 0.014894 -0.027498 0.19996 0.27482 -0.0017519 0.00032796
-0.0016891 0.00077675 -0.0011302 -0.00046809
0.0024309 -0.00085329 -0.00010063 -0.0017514 -0.0017501 0.00033566 -0.00678 0.28361
0.024577 0.0068279 -0.0025411 -0.00015927
-0.0021919 -0.0030838 -0.003402 -0.0009718 -0.0016631 0.00077119 0.024597 0.0067001
-0.096944 0.19289 0.019787 0.01068
-0.0042227 -0.00010239 -0.0037515 -0.00057939 -0.0011563 -0.00037302 -0.0027303 -0.00028983
0.019898 0.01066 -0.10196 0.29161
1160000000 0.07553 0.29761 0.024842 -0.020101 0.0032447 -0.00062964 -0.00010575 -0.0022975
-0.0041699 -0.00099574 -0.0013361 0.0043415
0.024806 -0.020078 -0.095328 0.37271 -0.0038661 -0.028383 -0.0015625 -0.0015112
-0.0027264 0.0024295 -0.0017016 0.0021942
0.003254 -0.00064502 -0.003988 -0.028405 0.24413 0.24457 -0.00061134 0.001584
-0.00036637 0.0017559 -0.00089708 0.00030471
-0.00014183 -0.002349 -0.001579 -0.0015552 -0.0006214 0.0015801 0.033106 0.28101
0.021708 -0.0093828 -0.0037773 0.0051415
-0.004202 -0.00091961 -0.0027268 0.0024198 -0.00037868 0.0017319 0.021788 -0.009357
-0.06035 0.20489 0.019345 0.0011127
-0.0012029 0.004115 -0.0015493 0.0021361 -0.00095766 0.00023555 -0.0037215 0.0050397
0.019001 0.0010577 -0.054137 0.29577
1220000000 0.11897 0.28804 0.011695 -0.029893 -0.0012068 -0.0012421 4.2007e-05 -0.0011624
-0.0027 0.0022689 0.0013192 0.0019754
0.011695 -0.02986 -0.051796 0.38674 -0.01669 -0.020628 -0.0024837 0.0005023
6.8255e-05 0.0031336 -0.00065013 0.0018123
-0.0012181 -0.0012516 -0.01682 -0.020575 0.28323 0.2057 0.00086716 0.0015367
0.0005942 0.0011323 0.00014343 0.0004625
9.4716e-05 -0.0011209 -0.002468 0.00050435 0.00085457 0.0015383 0.07231 0.27244
0.011441 -0.016403 0.0021251 0.0016358
-0.0027183 0.0022514 7.3324e-05 0.003128 0.00059193 0.0011344 0.011347 -0.016402
-0.039827 0.21692 0.015272 -0.012286
0.0011637 0.0020229 -0.00081764 0.0018972 0.00021707 0.00058207 0.0021773 0.0017923
0.015325 -0.01225 -0.024573 0.31365
1280000000 0.16963 0.26911 -0.0070165 -0.028906 -0.0017489 0.0018228 -0.00092844 -0.0020862
-0.0012763 0.0033381 0.0025047 0.0014385
-0.0069796 -0.028888 -0.0048999 0.37945 -0.023515 -0.0078059 -0.00076703 0.0013872
0.0016515 0.0018743 0.00049524 0.0020733
-0.0017114 0.0018458 -0.023586 -0.0077055 0.31447 0.1628 0.0014009 -9.192e-05
0.0010673 0.00030973 0.00033651 0.00027205
-0.00098837 -0.0021213 -0.00081987 0.001433 0.0014083 -8.7501e-05 0.10903 0.25695
0.0021797 -0.019105 -0.00015962 1.3353e-05
-0.0011871 0.0033894 0.001726 0.0018715 0.0010454 0.00028086 0.0021647 -0.01911
-0.002807 0.2245 0.0038637 -0.015419
0.0026773 0.0013744 0.00068864 0.0019803 0.00021647 0.00036658 -0.00018129 0.00018727
0.0041657 -0.015232 0.023786 0.31848
1340000000 0.20737 0.23627 -0.016817 -0.019627 0.00051157 0.0041327 -0.0019422 -0.00072743
0.0015393 0.0027717 0.0018688 -0.001477
-0.016772 -0.019615 0.034853 0.37208 -0.020588 0.0046849 -0.00019727 0.0019537
0.0018264 0.00082143 0.0011446 0.00069253
0.00051398 0.0041464 -0.020599 0.004801 0.33756 0.11454 0.00088196 -0.00094481
0.00062647 -0.00054636 0.00012738 0.00020403
-0.0019089 -0.00073933 -0.00020409 0.001909 0.00087727 -0.00094657 0.14231 0.23652
-0.0076172 -0.016745 0.0010988 0.00067801
0.0015076 0.0027847 0.0018376 0.00088855 0.00065343 -0.00051606 -0.0076416 -0.016757
0.02642 0.22195 -0.0027745 -0.013951
0.0017039 -0.0014592 0.0011923 0.00075618 0.00010716 0.00019191 0.00099691 0.00051726
-0.0031378 -0.013912 0.061478 0.31467
1400000000 0.24141 0.19993 -0.023288 -0.0084737 0.0048003 0.0029103 -0.0021826 0.00079342
0.0025758 0.0010369 0.00037215 -0.0013922
-0.023253 -0.0084819 0.072792 0.3604 -0.013828 0.012398 0.0012519 0.0012987
0.0011976 -0.00069312 0.0011353 0.0002055
0.0048102 0.0028851 -0.013795 0.012489 0.35101 0.060651 -6.8496e-05 -0.0013623
0.00013893 -0.00016176 0.00045401 0.00032608
-0.0021866 0.00081055 0.0013006 0.0013046 -5.1452e-05 -0.0013661 0.17171 0.2081
-0.013917 -0.010381 -0.00076883 -0.00029769
0.0026281 0.0010141 0.0011868 -0.00068626 0.0001084 -0.00015462 -0.013853 -0.010281
0.059623 0.22252 -0.0097111 -0.0093169
0.00040124 -0.0013267 0.0011182 0.0002743 0.00042886 0.00031949 -0.00069147 -0.00032285
-0.0094672 -0.009232 0.10704 0.30647
1460000000 0.26601 0.15703 -0.020559 0.004032 0.0050324 -0.0017386 -0.0015229 0.001733
0.0020958 -0.00032354 -0.0002052 -0.00091812
-0.020545 0.0040072 0.10829 0.33904 -0.0049586 0.014823 0.0016542 0.00025294
0.0010525 -0.0012817 0.0012781 -0.00053777
0.0050285 -0.0017601 -0.0048812 0.014882 0.35774 0.0054969 -0.0010245 -0.0010941
0.0002628 -0.00022569 0.00053248 -0.00038876
-0.0015101 0.0017451 0.0016285 0.00023663 -0.0010329 -0.0010866 0.19926 0.17944
-0.01511 -0.003834 -0.00096094 0.0019189
0.0020987 -0.00036968 0.0010441 -0.0012867 0.00032105 -0.00015755 -0.015142 -0.0038073
0.089946 0.21156 -0.011606 -0.003087
-0.00020508 -0.00092581 0.0012852 -0.00048974 0.00066913 -0.00027481 -0.0009839 0.00183
-0.011668 -0.0031796 0.14073 0.28649
1520000000 0.27896 0.11543 -0.01523 0.0096269 0.0030587 -0.0039103 0.0001929 0.0026398
0.0024014 -0.0018744 -0.0010007 -0.00016871
-0.015226 0.0096037 0.14238 0.32487 0.0023402 0.012022 0.0016506 -0.00066957
0.00017832 -0.0010013 0.00035895 -0.00097239
0.0030425 -0.0039215 0.0024062 0.012032 0.34997 -0.052077 -0.00086285 -0.00035171
0.00067372 -0.00094232 6.6048e-05 -0.00010895
0.00018992 0.0026731 0.0016543 -0.00068047 -0.00084759 -0.00035699 0.22269 0.1407
-0.015044 0.0017763 0.0015972 0.0020067
0.002428 -0.0019164 0.00017524 -0.00099822 0.0006306 -0.00094802 -0.015082 0.0018391
0.11803 0.20151 -0.011659 0.0011998
-0.0010503 -0.00017222 0.00035272 -0.00099019 7.9046e-05 -0.00010487 0.0014357 0.0020953
-0.011626 0.001219 0.17452 0.26761
1580000000 0.28955 0.070363 -0.0088085 0.013241 -0.0012192 -0.004583 0.001536 0.00186
-0.00011861 -0.0023224 -0.00023539 0.00041036
-0.0088139 0.01322 0.17031 0.30074 0.0053658 0.0068319 0.00058248 -0.0015045
-0.00041354 -0.0011429 -0.00020152 -0.00077347
-0.0012298 -0.0045737 0.0054005 0.0067974 0.32874 -0.109 -0.0014445 0.00035908
-0.00040464 -0.001354 0.00022167 -0.00059916
0.0015529 0.0018369 0.00055729 -0.0014925 -0.0014592 0.0003693 0.23727 0.10164
-0.011877 0.0071453 0.0019767 0.00063082
-0.00020596 -0.0023273 -0.00040788 -0.0011078 -0.00044389 -0.0012818 -0.011825 0.0071458
0.144 0.1877 -0.009299 0.0074212
-0.00013549 0.0003658 -0.00017147 -0.00077123 0.00027323 -0.00059934 0.0020744 0.00073513
-0.0091617 0.007479 0.20826 0.24291
1640000000 0.29298 0.028888 -0.0019604 0.012334 -0.0028294 -0.0020967 0.0027897 0.001099
-0.00051792 -0.0017816 -0.0004082 0.00037063
-0.0019658 0.012322 0.20089 0.27589 0.0053331 0.0021011 -0.00051886 -0.0017923
-0.000933 -0.00054368 -0.00045998 -0.00070095
-0.002845 -0.0020849 0.0053564 0.0020801 0.2994 -0.1585 -0.00074307 0.0012849
-0.0010995 -0.00098854 -0.00024308 -0.00042658
0.0027754 0.0011018 -0.00054279 -0.0018074 -0.00074826 0.0012815 0.25029 0.0518
-0.0078434 0.0085076 0.0025688 -0.00037121
-0.00057264 -0.0018252 -0.00095015 -0.00053199 -0.0011489 -0.0010205 -0.0078193 0.0085172
0.16878 0.16691 -0.0043915 0.0096236
-0.00035348 0.0005116 -0.00041948 -0.00073151 -4.7444e-05 -0.00035272 0.0025254 -0.00059564
-0.0045499 0.0094418 0.23472 0.21277
1700000000 0.28636 -0.01582 0.0016003 0.0097324 -0.0033281 0.00030172 0.0031211 -0.0013361
-0.0022098 -0.00070521 0.00059302 0.00052295
0.0015929 0.0097236 0.21904 0.24469 0.0027288 -0.00045199 -0.0014279 -0.00072617
-0.00083649 -0.00018917 -0.00083164 -0.00043335
-0.0033138 0.00033316 0.0027264 -0.00046948 0.25493 -0.19662 0.00021211 0.0016665
-0.002177 -0.00022039 -0.00042237 -0.00081295
0.0031186 -0.0013623 -0.0014187 -0.00071268 0.00021852 0.00166 0.24679 0.0014391
-0.0050478 0.0096242 0.0018051 -0.0022607
-0.0022202 -0.00071774 -0.00084005 -0.00017238 -0.0021732 -0.00017997 -0.0049198 0.0096236
0.18834 0.1504 0.00039373 0.009582
0.00058825 0.00038965 -0.0007907 -0.00045158 -0.00032817 -0.00083046 0.0016555 -0.0021148
0.00040065 0.0097025 0.25223 0.17932
1760000000 0.27609 -0.06442 0.0041579 0.0065986 -0.002079 0.00122 0.0013041 -0.0034688
-0.0013482 0.00052445 9.7992e-05 -0.00055692
0.0041524 0.0065952 0.24614 0.2052 5.8607e-05 -0.0017545 -0.0012738 4.2948e-05
-0.0012148 0.00092416 -0.00058682 0.00028291
-0.0020752 0.0012344 4.98e-05 -0.0017676 0.20662 -0.22862 0.001089 0.0012725
-0.0011614 0.0014926 -0.001321 -0.00086483
0.0012904 -0.003481 -0.0012854 4.1105e-05 0.0010807 0.0012816 0.23812 -0.050631
-0.001233 0.0089356 -0.0002199 -0.002488
-0.0012693 0.00054867 -0.0011877 0.00096234 -0.0011745 0.0014588 -0.0013207 0.0089827
0.20612 0.11876 0.004466 0.0070224
0.00015767 -0.00055113 -0.00057152 0.00030685 -0.0013279 -0.000774 -3.5584e-05 -0.0024658
0.0043555 0.0071013 0.26652 0.14245
1820000000 0.25219 -0.1027 0.0045538 0.0029749 0.0002398 0.0023719 -0.00094024 -0.0031039
-0.0011935 0.00093311 -2.3707e-05 3.652e-05
0.0045513 0.002975 0.25647 0.17492 -0.0020706 7.5343e-05 -0.0015058 0.00094736
-8.1519e-05 0.0012377 -0.00076792 0.00044503
0.00028795 0.0023624 -0.0020737 8.4558e-05 0.15617 -0.24346 0.0018207 0.00058671
-0.00027146 0.0022887 -0.001773 0.00031065
-0.00091957 -0.0030948 -0.0015067 0.00095819 0.0018048 0.00059699 0.2075 -0.098679
0.0005276 0.0077626 -0.0015578 -0.0016674
-0.001221 0.00095439 -0.0001016 0.0012307 -0.00025269 0.0023478 0.0006206 0.0078029
0.2267 0.092015 0.005372 0.0034592
-6.6006e-05 6.438e-05 -0.00072607 0.0004349 -0.0016762 0.00022743 -0.0016011 -0.0017264
0.0053276 0.0033397 0.2707 0.10719
1880000000 0.21751 -0.14298 0.0023733 0.00065759 -0.00020264 0.0022428 -0.0029274 -0.0024071
-0.00024928 0.0016568 0.00039935 -0.00053146
0.0023765 0.00064995 0.26101 0.12892 -0.0039004 0.0029045 -0.00028585 0.0018627
0.00057169 0.0013745 7.1995e-05 0.0010227
-0.00019587 0.0022484 -0.0039087 0.0029425 0.10433 -0.25057 0.0019654 -0.0010171
0.0016171 0.0020336 -0.0010486 0.0013706
-0.0029186 -0.0024264 -0.00027192 0.0018401 0.0019617 -0.0010391 0.16608 -0.1383
0.0016576 0.00537 -0.0023421 0.00012903
-0.00021904 0.0016321 0.00058022 0.001407 0.0016238 0.0020292 0.0016184 0.0053422
0.23388 0.063189 0.0055722 0.0010476
0.00039202 -0.0005103 1.4848e-05 0.0010766 -0.0011262 0.001529 -0.0023051 0.00035271
0.0055373 0.0012381 0.2717 0.0736
1940000000 0.17879 -0.16973 0.00019558 -0.0011811 0.0018499 0.0017769 -0.0038748 0.00027372
0.0011328 0.00086441 -0.00059535 -0.00067489
0.00019322 -0.0011757 0.26275 0.097144 -0.0019171 0.0058223 0.0011052 0.0014604
0.0020096 0.0004917 0.00087598 0.00042167
0.0018771 0.0017584 -0.0019109 0.0058307 0.060672 -0.243 0.00063079 -0.0024056
0.0022656 0.00043836 0.00018477 0.0019468
-0.0038641 0.00031658 0.00112 0.0014337 0.00064279 -0.0023939 0.11328 -0.16943
0.00086045 0.0034136 -0.0016556 0.001517
0.0011228 0.00094368 0.0020331 0.00043563 0.00228 0.00037945 0.00098355 0.003554
0.241 0.026099 0.0042562 -0.0027073
-0.00069472 -0.00068376 0.00090372 0.00044091 0.00023219 0.0018297 -0.001547 0.0013193
0.0043228 -0.0029342 0.26283 0.037525
2000000000 0.13229 -0.18418 -0.003609 0.00099609 0.0030001 0.0012445 -0.0023733 0.0037887
0.00083462 0.0005409 -0.00095746 0.00057599
-0.0036055 0.00098438 0.24866 0.061759 -0.00044444 0.0078652 0.0016604 0.00034563
0.0011678 -0.0013238 0.00057112 0.00013873
0.0029824 0.0012588 -0.00037914 0.0078996 0.019194 -0.22836 -0.0013924 -0.0016274
0.0021027 -0.00098758 0.0017049 0.0013952
-0.0023391 0.0037545 0.0016766 0.00032323 -0.001387 -0.0016083 0.059374 -0.17898
-0.00094678 0.0033694 0.00024683 0.0021684
0.0008253 0.0005547 0.0012207 -0.0013347 0.0021474 -0.0010884 -0.00092734 0.0031919
0.23909 -0.0064044 0.00084285 -0.003547
