!Keysight Technologies,M9804A,MY58100912,A.14.10.03
!Date: Thursday, April 27, 2023 10:28:33
!Correction: S11(C  6-Port  ) 
!S12(C  6-Port  ) 
!S13(C  6-Port  ) 
!S14(C  6-Port  ) 
!S15(C  6-Port  ) 
!S16(C  6-Port  ) 
!S21(C  6-Port  ) 
!S22(C  6-Port  ) 
!S23(C  6-Port  ) 
!S24(C  6-Port  ) 
!S25(C  6-Port  ) 
!S26(C  6-Port  ) 
!S31(C  6-Port  ) 
!S32(C  6-Port  ) 
!S33(C  6-Port  ) 
!S34(C  6-Port  ) 
!S35(C  6-Port  ) 
!S36(C  6-Port  ) 
!S41(C  6-Port  ) 
!S42(C  6-Port  ) 
!S43(C  6-Port  ) 
!S44(C  6-Port  ) 
!S45(C  6-Port  ) 
!S46(C  6-Port  ) 
!S51(C  6-Port  ) 
!S52(C  6-Port  ) 
!S53(C  6-Port  ) 
!S54(C  6-Port  ) 
!S55(C  6-Port  ) 
!S56(C  6-Port  ) 
!S61(C  6-Port  ) 
!S62(C  6-Port  ) 
!S63(C  6-Port  ) 
!S64(C  6-Port  ) 
!S65(C  6-Port  ) 
!S66(C  6-Port  ) 
!S6P File: Measurement: :
# Hz S  RI   R 50
500000000 -0.32577 -0.061212 -0.0102 -0.0019132 -0.008729 0.012271 -0.0046896 0.012092
0.013407 0.0058619 -0.0055622 0.0091129
-0.010466 -0.0017562 -0.40997 -0.071682 0.0079843 -0.010519 0.00089488 0.011745
0.0092967 0.00345 0.00080392 0.014721
-0.0084542 0.012273 0.0077952 -0.010534 -0.25496 0.19362 0.0070539 0.0034499
-0.002372 0.0081342 0.0016544 0.012646
-0.0046066 0.011833 0.00096531 0.011745 0.0070864 0.0035326 -0.32582 0.043139
-0.020642 -0.0047389 0.016278 0.026063
0.01321 0.0057465 0.0087351 0.0027213 -0.0026761 0.0080848 -0.02061 -0.0047045
-0.21057 -0.24495 -0.029675 0.0037909
-0.0051299 0.0084162 0.0017789 0.01418 0.00186 0.012619 0.016233 0.025984
-0.029705 0.003864 -0.25667 -0.14639
560000000 -0.31427 0.10662 -0.022195 -0.06691 0.00090906 0.013595 0.006128 0.010388
0.011409 0.0057807 0.01117 0.010768
-0.021419 -0.0668 -0.36754 0.089586 -0.041505 -0.03862 0.012842 0.0035788
-0.013716 -0.0054523 0.0049249 -0.0018465
0.00087196 0.013322 -0.0415 -0.036615 -0.17911 0.24323 0.0001208 -0.0057432
0.017813 0.0069895 0.0082147 -0.005467
0.0057145 0.011141 0.013298 0.0030563 0.00015073 -0.0052238 -0.3036 0.13402
0.0081198 -0.021947 0.0051129 -0.021539
0.011512 0.0058014 -0.013911 -0.0047179 0.018432 0.0070975 0.0082482 -0.022265
-0.29963 -0.061363 0.010576 -0.05079
0.010661 0.010767 0.0042915 -0.00087706 0.0075055 -0.0053947 0.0053142 -0.021379
0.010542 -0.05079 -0.32799 0.0031594
620000000 -0.2745 0.08281 -0.023959 0.0091565 0.0035748 0.0090616 0.0082936 -0.0042357
0.01267 1.8444e-05 0.00069499 -0.0010855
-0.023903 0.0091609 -0.39881 0.037495 -0.019216 0.00088549 -0.0016229 -0.0023276
0.012638 -0.0049279 0.0010978 -0.0028669
0.0035745 0.0090103 -0.019184 0.0008386 -0.15304 0.25215 -0.0010311 -0.0052309
-0.0039079 -0.0021885 0.0092803 -0.0025329
0.0083492 -0.0045854 -0.0017158 -0.0020696 -0.0013139 -0.0052405 -0.26131 0.14228
-0.039398 -0.020848 0.013647 0.027774
0.012527 0.00051493 0.012848 -0.0050263 -0.0037352 -0.0023181 -0.039533 -0.020885
-0.21349 -0.098092 -0.046015 0.013473
0.00096537 -0.0013596 0.0010906 -0.0030425 0.0086146 -0.0031489 0.013197 0.027435
-0.046095 0.01357 -0.24192 -0.032865
680000000 -0.23962 0.17544 -0.026084 -0.014801 0.0049523 0.0050784 0.0015288 -0.0073445
-0.0014031 -0.01127 0.0057755 -0.0073379
-0.026117 -0.014676 -0.38931 0.13938 -0.032243 -0.0015629 -0.0015206 -0.00059782
-0.0014151 -0.0094343 -0.00087246 -0.0022129
0.0050246 0.0051214 -0.032353 -0.001382 -0.10612 0.27504 -0.0010428 -7.5487e-05
-0.0014314 0.00074309 -0.0029692 -0.0092694
0.0014307 -0.0074626 -0.0015072 -0.00058056 -0.00091445 -0.00020905 -0.21805 0.19583
-0.023323 -0.0074603 -0.009083 -0.011671
-0.0015762 -0.01147 -0.00128 -0.0091874 -0.0013002 0.00079339 -0.02332 -0.0073125
-0.28398 0.00172 -0.0052764 -0.0078907
0.0061952 -0.007111 -0.00069804 -0.0022004 -0.002858 -0.0092453 -0.0091541 -0.011627
-0.0052398 -0.0077653 -0.26035 0.070857
740000000 -0.1934 0.16851 -0.040798 0.026813 0.013438 -0.0039429 6.5842e-07 -0.0039358
-0.0040364 -0.002526 -0.0065869 0.0031585
-0.040807 0.026956 -0.33511 0.1585 -0.036361 0.034381 0.0002651 -0.0057438
-0.012768 0.006808 -0.0013406 -0.0056781
0.01337 -0.0039678 -0.036235 0.034522 -0.072677 0.27504 -0.0021471 0.0031836
-0.001167 -0.0054839 -0.0017393 0.00073819
0.00018756 -0.004136 0.00011809 -0.0057333 -0.0019736 0.0030645 -0.2009 0.20154
-0.041984 -0.010474 0.022385 0.017135
-0.0040368 -0.0023 -0.013038 0.0070904 -0.0011635 -0.0055144 -0.042102 -0.010535
-0.17941 0.040171 -0.044219 -0.0015997
-0.006342 0.0030673 -0.001287 -0.0052348 -0.001745 0.0008792 0.022415 0.017037
-0.044116 -0.001566 -0.25223 0.075179
800000000 -0.16535 0.21451 -0.02244 0.016144 0.0054229 -0.01023 -0.0043854 -0.0026856
-0.0048258 0.0013174 0.0040844 0.00080177
-0.02238 0.016177 -0.34374 0.22956 -0.0082887 0.034158 -0.0022366 0.0020868
-0.00027661 0.0021079 0.00059657 0.0054333
0.0054531 -0.010207 -0.008254 0.034203 -0.034474 0.30098 0.0010113 0.0012222
-0.00024122 0.0032934 -0.0016431 0.00073914
-0.004303 -0.0025563 -0.0023671 0.0020296 0.0010032 0.0013167 -0.17274 0.22923
-0.02899 0.013308 0.014754 -0.010572
-0.0046541 0.001307 -3.3404e-05 0.0020147 -0.00022131 0.0031334 -0.028939 0.013321
-0.23583 0.061541 -0.019185 0.021738
0.0040629 0.00063696 0.00043465 0.0055239 -0.0016962 0.00068234 0.014638 -0.010725
-0.019263 0.021736 -0.24965 0.12851
860000000 -0.13067 0.23559 -0.017824 0.030612 -0.0033031 -0.0098807 -0.0020614 0.0004094
0.004112 0.0053019 -0.0036528 -0.0036777
-0.017984 0.0305 -0.29636 0.27428 0.0077029 0.033909 0.000166 0.0020965
0.0037113 0.00079195 0.0037334 -6.7724e-05
-0.0032951 -0.0098313 0.007812 0.033953 0.014505 0.31083 -0.00058685 -0.00040588
0.0024989 -0.0017953 0.0017679 0.0042411
-0.0021154 0.00060265 0.0003151 0.0022645 -0.00049751 -0.0004156 -0.1359 0.24051
-0.018206 0.017269 -0.006483 -0.0090719
0.0038568 0.0052344 0.0037471 0.00023389 0.0025529 -0.0018647 -0.018002 0.01724
-0.18048 0.12415 -0.026483 0.016029
-0.0036209 -0.0035649 0.0035582 -3.7e-06 0.0016251 0.0041279 -0.0062424 -0.0091617
-0.026448 0.016036 -0.19792 0.17676
920000000 -0.10784 0.25872 0.0047323 0.039292 -0.009192 -0.0043533 -0.0019375 0.0018796
0.00029797 0.0015375 0.0032002 -0.0010525
0.0046476 0.039177 -0.26993 0.29592 0.027897 0.022458 0.0014686 0.0011642
0.0069764 0.00028637 0.0040126 -0.0028591
-0.0091977 -0.0043062 0.028028 0.022395 0.060556 0.31243 0.0017345 -7.6327e-05
0.00056812 -0.00018694 0.0011156 -0.0014551
-0.0019444 0.0019112 0.0013462 0.0012096 0.0017189 -7.1662e-05 -0.11224 0.25746
-0.012656 0.030732 0.0040347 -0.0063856
0.00034316 0.0015968 0.0071509 9.5918e-05 0.00057713 -0.00017617 -0.01254 0.030875
-0.17506 0.12755 -0.0030667 0.029202
0.0030517 -0.001252 0.0039829 -0.0029736 0.0010431 -0.0013461 0.0041446 -0.0063845
-0.0031122 0.029151 -0.20905 0.18855
980000000 -0.061845 0.28103 0.016782 0.030345 -0.0091041 0.0046162 0.0019391 0.0036913
0.0039334 -0.0013953 -0.0036573 -0.0027894
0.016836 0.030281 -0.21818 0.33348 0.032773 0.0049137 0.0020185 -0.0002243
0.0020808 -0.0061359 -0.00072507 -0.0026882
-0.0091146 0.0046838 0.03284 0.0048024 0.10714 0.30765 0.00047357 -0.0011647
0.0002372 -0.0016936 0.0014037 -0.00033734
0.0018118 0.0036944 0.0020144 -0.0002112 0.00044131 -0.0011901 -0.07358 0.26935
0.0069033 0.030109 -0.0095246 -0.008188
0.0040618 -0.0012549 0.0018878 -0.0059697 0.00024747 -0.0017129 0.0068843 0.030104
-0.14588 0.1664 0.0050232 0.02065
-0.0034128 -0.0028738 -0.00067788 -0.0024478 0.0013524 -0.00040885 -0.0096099 -0.0081723
0.0049988 0.020639 -0.16726 0.23891
1040000000 -0.020464 0.29003 0.03297 0.019439 -0.0010797 0.0073855 0.002374 0.00081026
0.00038743 -0.0034213 2.5992e-05 -0.0014594
0.032995 0.019484 -0.18275 0.34718 0.02917 -0.014433 0.0014172 -0.001671
-0.0025449 -0.002498 -0.0011378 -0.0029403
-0.0010354 0.0073736 0.029182 -0.014609 0.154 0.2941 -0.0005833 -0.0013678
-0.0015133 -0.0010201 -0.00058676 -0.00098714
0.0023513 0.00071223 0.0014767 -0.0016703 -0.00057293 -0.0013615 -0.046237 0.27841
0.018476 0.019456 -0.002279 0.0010669
0.00028574 -0.0034007 -0.002421 -0.0025469 -0.0015128 -0.00095944 0.018531 0.019421
-0.1134 0.17491 0.013578 0.020255
4.5285e-05 -0.0015079 -0.0011842 -0.002843 -0.00059892 -0.0010208 -0.0022688 0.0010722
0.01357 0.020227 -0.14657 0.25887
1100000000 0.023794 0.30066 0.036402 -0.0031975 0.0034104 0.0040471 0.0023669 -0.00090345
-0.0022532 -0.0030135 -0.0041291 -0.00010623
0.036393 -0.0031343 -0.14025 0.36751 0.01497 -0.027419 -0.00016059 -0.0018123
-0.0033905 -0.00094184 -0.0037408 -0.0003931
0.0034142 0.0040394 0.01497 -0.027537 0.20007 0.2748 -0.0017321 0.00032056
-0.0016287 0.00073034 -0.0010101 -0.00046058
0.0024241 -0.00092307 -0.00012871 -0.0018317 -0.0017462 0.00028058 -0.0065353 0.28373
0.024548 0.0066559 -0.0026717 -0.0001679
-0.0022662 -0.003022 -0.0034153 -0.00087382 -0.0015763 0.00067084 0.024582 0.0066217
-0.09705 0.19271 0.019605 0.010454
-0.0041533 -0.00011269 -0.0037689 -0.00057716 -0.0010005 -0.00045478 -0.0026584 -0.00012999
0.019577 0.010478 -0.10201 0.29132
1160000000 0.07576 0.2975 0.024907 -0.020154 0.0032481 -0.00062471 1.7422e-05 -0.0022922
-0.0041908 -0.00081541 -0.0013139 0.0043184
0.024903 -0.020153 -0.095221 0.37279 -0.0038375 -0.028357 -0.0014956 -0.0015223
-0.0026772 0.0025178 -0.0016952 0.0019464
0.0032132 -0.00060032 -0.0040026 -0.028321 0.24429 0.2445 -0.00062658 0.0016081
-0.00036427 0.0017266 -0.00098933 0.0002612
-2.4449e-05 -0.0023125 -0.0015387 -0.0014872 -0.00062959 0.001625 0.03342 0.28094
0.021912 -0.0093507 -0.003732 0.005015
-0.0041893 -0.00084369 -0.0026747 0.0025713 -0.00034263 0.0017208 0.0219 -0.0094072
-0.06071 0.20481 0.019605 0.0012552
-0.0012814 0.0042819 -0.0015638 0.0019691 -0.0010008 0.00022551 -0.0037149 0.0050173
0.019602 0.0012302 -0.054504 0.29593
1220000000 0.11911 0.28795 0.011701 -0.029931 -0.0011541 -0.0012795 6.3416e-05 -0.0010892
-0.0027992 0.0022954 0.0011368 0.002104
0.011733 -0.029882 -0.051596 0.38679 -0.016701 -0.020621 -0.0024804 0.00053193
3.8237e-06 0.0030857 -0.00072565 0.0018793
-0.0011861 -0.0012959 -0.016828 -0.020599 0.28336 0.20561 0.00088188 0.0014944
0.00056708 0.0011864 0.00029265 0.00055045
0.00010017 -0.0010636 -0.0024784 0.00053631 0.00088817 0.0014822 0.072416 0.27233
0.011417 -0.016425 0.0020276 0.0017389
-0.002759 0.002273 1.3698e-05 0.0031321 0.00065923 0.0011246 0.011426 -0.016444
-0.039956 0.21668 0.015215 -0.01254
0.0011835 0.0020759 -0.00071177 0.0019028 0.0002288 0.00056253 0.0020551 0.0017083
0.015215 -0.012563 -0.024652 0.31388
1280000000 0.16982 0.26894 -0.0070675 -0.029034 -0.0017913 0.0018046 -0.00089284 -0.0021057
-0.0010498 0.0033034 0.0024845 0.001458
-0.0070107 -0.029005 -0.0047672 0.3795 -0.023498 -0.0077563 -0.00083395 0.0013617
0.0017441 0.0017887 0.00059264 0.0020135
-0.0017381 0.0018001 -0.023548 -0.0076948 0.31456 0.16269 0.0014097 -0.00010152
0.0009946 0.00032943 0.00025678 0.00034194
-0.0009442 -0.0020894 -0.00078082 0.0014071 0.0013854 -0.00010281 0.10917 0.25689
0.0021675 -0.019109 -0.00021798 4.6795e-05
-0.0010686 0.0033847 0.0017963 0.0018022 0.0010377 0.00033572 0.0021447 -0.019107
-0.0029973 0.22434 0.003971 -0.015494
0.0025487 0.0013609 0.00063671 0.0020607 0.00029815 0.0003508 -0.00025117 6.17e-05
0.0039938 -0.015459 0.023932 0.31816
1340000000 0.20754 0.23616 -0.016869 -0.019641 0.0005127 0.0040727 -0.0019014 -0.00076667
0.0014568 0.0028042 0.0018823 -0.0014806
-0.016806 -0.0197 0.03512 0.37201 -0.020586 0.0046808 -0.00021833 0.0019726
0.0018306 0.00081501 0.0012144 0.00078788
0.00056426 0.0041433 -0.020573 0.0047931 0.33768 0.11436 0.00087574 -0.00093581
0.00063415 -0.00052038 0.0001126 0.00018388
-0.0019251 -0.00075432 -0.0001962 0.0019834 0.00084599 -0.00095261 0.14241 0.23636
-0.0075824 -0.016781 0.00098861 0.00063819
0.0014723 0.0028173 0.0018484 0.00080635 0.00057789 -0.00044374 -0.0076272 -0.016813
0.026191 0.22215 -0.0028091 -0.014056
0.0018234 -0.0014701 0.0011728 0.00078152 0.00013539 0.00023886 0.00097814 0.00064952
-0.0028196 -0.014075 0.062162 0.31476
1400000000 0.24147 0.19978 -0.023398 -0.0084363 0.0048439 0.0029556 -0.0022464 0.00081448
0.0026216 0.0010342 0.00037852 -0.0013016
-0.023365 -0.0084914 0.072981 0.36043 -0.013838 0.012387 0.0012709 0.0013395
0.0012056 -0.00071173 0.0011349 0.00026402
0.0048059 0.002897 -0.013802 0.01248 0.35105 0.060503 -5.036e-05 -0.0013561
7.7301e-05 -0.00014933 0.00043151 0.00027699
-0.0022235 0.00083678 0.001275 0.0013214 -5.7916e-05 -0.0013458 0.17176 0.20801
-0.013935 -0.010307 -0.00076157 -0.00022039
0.0026393 0.0010515 0.0011832 -0.00072063 0.00011733 -0.00016408 -0.013964 -0.010266
0.059484 0.22236 -0.009744 -0.0092503
0.0003788 -0.0013452 0.001105 0.00024762 0.00046115 0.00027378 -0.00078583 -0.00024716
-0.0097165 -0.0092171 0.10698 0.30589
1460000000 0.26609 0.1569 -0.020613 0.0040997 0.0050596 -0.0017486 -0.0015366 0.0017617
0.0021398 -0.00029274 -0.00024443 -0.00091894
-0.020588 0.0040824 0.10849 0.33903 -0.0049663 0.014841 0.0016545 0.00025774
0.0010542 -0.001264 0.0011903 -0.00050115
0.0050058 -0.0017589 -0.0049059 0.014885 0.35784 0.0054376 -0.0010473 -0.0010834
0.00027847 -0.00022267 0.00068535 -0.00024245
-0.0015054 0.001757 0.0016793 0.00025387 -0.0010471 -0.0010857 0.1992 0.17927
-0.015087 -0.0038266 -0.00094451 0.0019422
0.0021921 -0.00033796 0.0010057 -0.0013154 0.00030354 -0.0002218 -0.015094 -0.0037783
0.08988 0.21151 -0.011917 -0.0033016
-0.000267 -0.00098834 0.0012094 -0.00053952 0.00073349 -0.00024635 -0.00095054 0.0019604
-0.011883 -0.0033225 0.1413 0.28638
1520000000 0.27893 0.1152 -0.015254 0.0097368 0.0030457 -0.0039241 0.00017947 0.0026703
0.0024607 -0.0019578 -0.0011094 -0.00017179
-0.01526 0.0096948 0.14252 0.32474 0.0023025 0.012003 0.001673 -0.00067923
0.00016764 -0.0010184 0.00038683 -0.00099171
0.0030363 -0.0039181 0.0023707 0.012022 0.35002 -0.052339 -0.00086342 -0.00033028
0.00061528 -0.00095527 0.00016638 -0.00011062
0.00019287 0.0026894 0.0016677 -0.00069608 -0.00088112 -0.00035515 0.22273 0.14071
-0.015125 0.0018798 0.0015648 0.0020416
0.0024312 -0.0019454 0.00019661 -0.0010321 0.00057723 -0.00094802 -0.015117 0.0019209
0.11781 0.20154 -0.011764 0.0013559
-0.0010876 -0.00015661 0.00037267 -0.0009441 0.00016442 -0.00011142 0.0015598 0.0020422
-0.01177 0.0013589 0.1745 0.26747
1580000000 0.28957 0.070213 -0.0087746 0.013367 -0.0011721 -0.0045933 0.0015743 0.0018504
-0.00016586 -0.0022894 -0.00023795 0.00038066
-0.0087711 0.013328 0.17046 0.30074 0.005338 0.0068022 0.000584 -0.0015101
-0.00045372 -0.001112 -0.00020955 -0.00075185
-0.0012098 -0.0045879 0.0053955 0.0068042 0.32874 -0.10921 -0.0014566 0.00036459
-0.00038801 -0.0013253 0.00024041 -0.00057779
0.0015778 0.0018401 0.00058551 -0.0015136 -0.0014628 0.00038002 0.23714 0.10154
-0.01185 0.007133 0.0021332 0.00070436
-0.00016891 -0.0022925 -0.00044656 -0.0011115 -0.00038144 -0.0013806 -0.011838 0.0071757
0.14399 0.18777 -0.0093496 0.0075824
-0.00022169 0.00038194 -0.00020138 -0.00074271 0.00018555 -0.00051641 0.002135 0.00069447
-0.0093354 0.0075541 0.20817 0.24297
1640000000 0.29308 0.028732 -0.0018255 0.012393 -0.002804 -0.0021418 0.0027917 0.0010513
-0.00056942 -0.0018503 -0.00032279 0.00038357
-0.0018549 0.01237 0.2011 0.27577 0.0053765 0.0021187 -0.00049959 -0.0018092
-0.00092256 -0.00053267 -0.00041792 -0.00072178
-0.0028299 -0.0021281 0.0053859 0.0020847 0.29941 -0.15868 -0.00076269 0.0013144
-0.0011814 -0.0010457 -7.4687e-05 -0.00035194
0.0027625 0.001029 -0.00049977 -0.0017959 -0.00077333 0.0012998 0.25037 0.05177
-0.0077648 0.0085444 0.0025406 -0.00070802
-0.00060479 -0.001826 -0.00093581 -0.0005624 -0.0011161 -0.0010158 -0.0077485 0.0085783
0.16865 0.16697 -0.0043554 0.0096891
-0.00028963 0.00034939 -0.00040865 -0.00070233 -6.6872e-05 -0.00038316 0.0025574 -0.00070868
-0.004352 0.0096946 0.23466 0.21244
1700000000 0.28627 -0.015965 0.0017422 0.0097347 -0.0032903 0.00035619 0.0030635 -0.001293
-0.0022269 -0.00070202 0.00058407 0.00039159
0.0017191 0.0097461 0.21917 0.24458 0.0027188 -0.00042374 -0.0014549 -0.00072286
-0.00080981 -0.00016776 -0.00077919 -0.00047648
-0.0033036 0.0003665 0.0027582 -0.00042345 0.25477 -0.1968 0.00025657 0.0016447
-0.0020735 -0.00022608 -0.00038597 -0.00089072
0.0030717 -0.0013133 -0.0014469 -0.00069951 0.00023562 0.0017093 0.24679 0.001339
-0.0049535 0.0096219 0.0017058 -0.0021473
-0.0022463 -0.00067144 -0.0008475 -0.00014164 -0.0021947 -0.00017494 -0.0049493 0.009631
0.18823 0.1504 0.00034048 0.0098203
0.00055506 0.0003775 -0.00081247 -0.00049583 -0.00037535 -0.00090293 0.0016898 -0.0021638
0.00034215 0.0098142 0.25227 0.17951
1760000000 0.2761 -0.064556 0.004265 0.0065283 -0.002034 0.0011939 0.0012787 -0.0034845
-0.0012461 0.00053045 0.00017491 -0.00058224
0.0042544 0.0065359 0.24634 0.20511 8.5805e-05 -0.0017558 -0.0012366 1.9476e-05
-0.0011447 0.00095674 -0.0006011 0.00025468
-0.0020239 0.0012093 8.014e-05 -0.0017099 0.20659 -0.22871 0.0011351 0.00129
-0.00115 0.001536 -0.0012955 -0.0008003
0.0012578 -0.0034986 -0.0012334 6.4445e-05 0.0011738 0.0012903 0.23828 -0.050559
-0.0013385 0.0089488 -6.0756e-05 -0.0024968
-0.0012526 0.00051579 -0.0011246 0.00097052 -0.0010717 0.0014856 -0.0013176 0.0089768
0.20605 0.11891 0.0045551 0.0071035
0.000206 -0.00058022 -0.00055586 0.00026394 -0.0012803 -0.00077997 -8.6944e-05 -0.0025234
0.0045717 0.0071036 0.26643 0.1426
1820000000 0.25224 -0.10286 0.0046104 0.0028736 0.00023107 0.0023516 -0.00093605 -0.0031219
-0.0012783 0.00089784 -0.00014788 3.1004e-05
0.0046262 0.002896 0.25659 0.17479 -0.0020625 4.7725e-05 -0.001448 0.00094253
-8.4604e-05 0.0012157 -0.00074374 0.00044967
0.00027498 0.0023404 -0.0020358 0.00011426 0.15607 -0.24376 0.0016616 0.00062595
-0.00027667 0.0023287 -0.0016431 0.00022779
-0.00096531 -0.0030917 -0.0014803 0.00095273 0.001705 0.00062827 0.20746 -0.098908
0.00068282 0.0076692 -0.0017109 -0.0017669
-0.0012507 0.00092307 -0.00010309 0.0012086 -0.00030789 0.0023852 0.00072958 0.007631
0.22667 0.091993 0.0054583 0.0033684
-0.00010951 2.898e-05 -0.00072763 0.00046858 -0.0016263 0.00020164 -0.0016922 -0.0017293
0.0054731 0.003358 0.27052 0.10715
1880000000 0.21745 -0.14297 0.0023474 0.00056029 -0.00012132 0.0022174 -0.0028817 -0.0023624
-0.00025135 0.0016388 0.00042745 -0.00049499
0.002348 0.00058888 0.26114 0.1288 -0.003883 0.0029113 -0.00026585 0.0018526
0.00055676 0.0013818 5.9457e-05 0.0010572
-0.00013411 0.0022827 -0.0039432 0.0028897 0.10407 -0.25059 0.0019311 -0.0011654
0.0016904 0.0020164 -0.0011204 0.0014275
-0.0029094 -0.0023341 -0.00027037 0.0018759 0.0018962 -0.0011314 0.16622 -0.13831
0.0016135 0.0054019 -0.0021814 0.00016296
-0.00026697 0.0016599 0.00054904 0.0013645 0.0016798 0.0020214 0.0016494 0.0054409
0.23369 0.063407 0.0060541 0.0012081
0.0004252 -0.00047386 4.0085e-05 0.0010712 -0.0010508 0.0015706 -0.0022467 0.00017858
0.0060485 0.0012087 0.27184 0.073918
1940000000 0.17883 -0.16983 0.00012536 -0.0012447 0.0018784 0.0018745 -0.0038744 0.00038442
0.0011015 0.00092907 -0.0006672 -0.00070462
0.00013835 -0.0012449 0.26295 0.096924 -0.0019218 0.0057901 0.0011077 0.0014673
0.0019936 0.00046025 0.00091818 0.00032049
0.0018382 0.0017929 -0.0019069 0.0058106 0.060507 -0.24298 0.00075181 -0.0023641
0.0023235 0.00036307 0.00026455 0.0016905
-0.0038966 0.00044227 0.0011098 0.0014302 0.00070544 -0.0024378 0.11364 -0.16946
0.0010621 0.003681 -0.0016566 0.001451
0.0011192 0.00090893 0.0020294 0.00042563 0.0023571 0.00033072 0.0010466 0.0036543
0.24107 0.026219 0.0043518 -0.0028888
-0.00069721 -0.00067372 0.00094785 0.00034451 0.00020987 0.0017446 -0.0016341 0.0014785
0.0043439 -0.0028825 0.26289 0.037369
2000000000 0.13226 -0.18459 -0.0036718 0.00090996 0.0029564 0.0011797 -0.002446 0.0037413
0.00079369 0.00050961 -0.00092282 0.00052167
-0.0035785 0.00089635 0.2488 0.061581 -0.00044955 0.0078781 0.0016576 0.00029358
0.0011868 -0.0013668 0.00057555 0.00012334
0.0029718 0.0011456 -0.00036077 0.0078955 0.018938 -0.22832 -0.0014951 -0.0016194
0.0021054 -0.0011176 0.0018182 0.0015338
-0.002478 0.0036848 0.001686 0.00029865 -0.0014487 -0.0016248 0.059183 -0.17888
-0.00097588 0.0031622 -0.0002206 0.0021245
0.00079865 0.00047693 0.0011867 -0.0013664 0.002076 -0.0011133 -0.00096757 0.0031716
0.23897 -0.0063903 0.00087103 -0.0039367
