!Keysight Technologies,M9804A,MY58100912,A.14.10.03
!Date: Thursday, April 27, 2023 10:28:33
!Correction: S11(C  6-Port  ) 
!S12(C  6-Port  ) 
!S13(C  6-Port  ) 
!S14(C  6-Port  ) 
!S15(C  6-Port  ) 
!S16(C  6-Port  ) 
!S21(C  6-Port  ) 
!S22(C  6-Port  ) 
!S23(C  6-Port  ) 
!S24(C  6-Port  ) 
!S25(C  6-Port  ) 
!S26(C  6-Port  ) 
!S31(C  6-Port  ) 
!S32(C  6-Port  ) 
!S33(C  6-Port  ) 
!S34(C  6-Port  ) 
!S35(C  6-Port  ) 
!S36(C  6-Port  ) 
!S41(C  6-Port  ) 
!S42(C  6-Port  ) 
!S43(C  6-Port  ) 
!S44(C  6-Port  ) 
!S45(C  6-Port  ) 
!S46(C  6-Port  ) 
!S51(C  6-Port  ) 
!S52(C  6-Port  ) 
!S53(C  6-Port  ) 
!S54(C  6-Port  ) 
!S55(C  6-Port  ) 
!S56(C  6-Port  ) 
!S61(C  6-Port  ) 
!S62(C  6-Port  ) 
!S63(C  6-Port  ) 
!S64(C  6-Port  ) 
!S65(C  6-Port  ) 
!S66(C  6-Port  ) 
!S6P File: Measurement: :
# Hz S  RI   R 50
500000000 -0.32673 -0.06063 -0.01048 -0.0014875 -0.0083207 0.011913 -0.0046253 0.012222
0.013236 0.0057227 -0.0052416 0.0091733
-0.010376 -0.0013653 -0.40872 -0.072364 0.0077684 -0.010742 0.0010479 0.011584
0.0085603 0.003598 0.00076165 0.013951
-0.0082484 0.012093 0.0076865 -0.010701 -0.25531 0.19377 0.0064203 0.0033739
-0.0022643 0.0084469 0.00095471 0.012174
-0.0046143 0.012417 0.0012966 0.01178 0.0063901 0.003342 -0.32493 0.043269
-0.020772 -0.0050575 0.016691 0.027097
0.012601 0.0052046 0.0083404 0.0035334 -0.0022014 0.0084699 -0.020815 -0.0049862
-0.21126 -0.24484 -0.030104 0.0041779
-0.0054569 0.0090951 0.0010867 0.013786 0.00098528 0.012165 0.016702 0.027005
-0.029969 0.0040093 -0.25894 -0.14514
560000000 -0.31357 0.10442 -0.021804 -0.06701 0.0011151 0.013153 0.0051588 0.010676
0.010556 0.004982 0.011636 0.009341
-0.02187 -0.067132 -0.36969 0.091643 -0.041315 -0.038533 0.013438 0.0036485
-0.012281 -0.005348 0.0040265 -0.0011652
0.00096428 0.012843 -0.041474 -0.038425 -0.1798 0.24348 -0.00031884 -0.0054882
0.01738 0.0071413 0.0081361 -0.0057462
0.0051451 0.010911 0.013596 0.0038189 -0.00033814 -0.0054937 -0.30232 0.13399
0.0076763 -0.022452 0.0054201 -0.02062
0.010644 0.0044631 -0.012326 -0.0054942 0.017616 0.0072048 0.0076726 -0.022359
-0.29776 -0.064891 0.012998 -0.050959
0.011552 0.0096626 0.0038027 -0.00097043 0.0080737 -0.0056691 0.0056431 -0.020696
0.013045 -0.05066 -0.32843 0.0036937
620000000 -0.27428 0.083081 -0.023679 0.008928 0.0032973 0.0089052 0.0082355 -0.0044444
0.012476 5.5002e-05 0.00083583 -0.0014759
-0.023523 0.0088146 -0.3989 0.037361 -0.019294 0.00068914 -0.0014734 -0.0021544
0.012173 -0.0049742 0.00099427 -0.0028928
0.0035109 0.0086903 -0.019269 0.00068881 -0.15318 0.25187 -0.0010267 -0.0055908
-0.0039844 -0.002118 0.0089903 -0.0032212
0.0083642 -0.0045665 -0.0014192 -0.0020979 -0.00098083 -0.005604 -0.26212 0.14113
-0.038748 -0.018221 0.012214 0.026737
0.01222 -0.0003213 0.012076 -0.0052343 -0.0040641 -0.0021541 -0.038825 -0.018426
-0.21109 -0.10244 -0.045158 0.01466
0.00084168 -0.0019238 0.00063773 -0.0030759 0.0090743 -0.0031649 0.012264 0.026918
-0.04497 0.014852 -0.24196 -0.03714
680000000 -0.23992 0.17566 -0.026038 -0.014481 0.0046533 0.0054155 0.0015653 -0.007079
-0.0018166 -0.01196 0.0057172 -0.0064676
-0.026085 -0.014466 -0.38928 0.13947 -0.032192 -0.0014724 -0.0014128 -0.00039019
-0.0014353 -0.0095483 -0.0010102 -0.0017288
0.0047183 0.005412 -0.032251 -0.001338 -0.10611 0.27496 -0.00067269 1.5017e-05
-0.0010639 0.00065135 -0.0030781 -0.0087805
0.0016027 -0.0073113 -0.0014536 -0.00032741 -0.00064555 7.088e-05 -0.21764 0.19537
-0.02346 -0.0075799 -0.0083357 -0.011302
-0.0016687 -0.011613 -0.0013483 -0.0094974 -0.0010541 0.00069844 -0.023748 -0.0076015
-0.28335 0.0030415 -0.0063585 -0.0073494
0.0057792 -0.0064943 -0.00089413 -0.0018693 -0.0029831 -0.0087789 -0.0082427 -0.011297
-0.006323 -0.007292 -0.26211 0.073223
740000000 -0.1933 0.16834 -0.040956 0.026957 0.013339 -0.0038761 -0.00017331 -0.0038321
-0.0031402 -0.0025782 -0.0067128 0.0028902
-0.040898 0.026765 -0.33503 0.15869 -0.036468 0.034293 0.00029847 -0.005749
-0.013612 0.0064289 -0.00096725 -0.0051768
0.013415 -0.0039876 -0.036395 0.03444 -0.072489 0.27492 -0.0018985 0.0032024
-0.0008039 -0.0054826 -0.0018186 0.00048304
-0.00013919 -0.0039611 0.00013343 -0.0057834 -0.001915 0.0031875 -0.20125 0.20211
-0.041816 -0.0098983 0.022687 0.017186
-0.0032364 -0.00214 -0.013666 0.0065442 -0.00095955 -0.0055733 -0.041877 -0.010046
-0.18136 0.038137 -0.04404 -0.0014593
-0.00673 0.0026768 -0.00089863 -0.0054651 -0.0019077 0.0006583 0.022428 0.017158
-0.043696 -0.0011986 -0.25071 0.075933
800000000 -0.16524 0.21463 -0.022386 0.016215 0.0054669 -0.010155 -0.0042832 -0.0024729
-0.004146 0.0014789 0.0044167 0.00042215
-0.022308 0.016185 -0.3439 0.22957 -0.0084133 0.034151 -0.0020463 0.002108
-0.00028302 0.0020088 0.00087552 0.0052687
0.0054253 -0.010257 -0.008322 0.034215 -0.034602 0.30093 0.001058 0.0012871
-2.6791e-06 0.0032457 -0.001692 0.00046966
-0.0043931 -0.0026176 -0.0020337 0.0021497 0.0010624 0.0012984 -0.17303 0.22931
-0.028444 0.013021 0.014366 -0.010592
-0.0040325 0.0014777 -0.00019871 0.002005 -7.4205e-05 0.0032108 -0.02829 0.013084
-0.23611 0.06116 -0.018248 0.021903
0.0045508 0.00074313 0.001001 0.0054873 -0.0016624 0.00053381 0.014275 -0.010543
-0.018317 0.021981 -0.2493 0.12746
860000000 -0.13059 0.23525 -0.017958 0.030418 -0.0033213 -0.0098759 -0.0020325 0.00052857
0.0039689 0.0052867 -0.0038345 -0.0031383
-0.017943 0.030407 -0.29631 0.27428 0.007726 0.03389 0.00023978 0.0023131
0.003645 0.00033074 0.0033318 8.4514e-05
-0.0033484 -0.0099025 0.0078185 0.033928 0.014439 0.31079 -0.00044137 -0.00032625
0.0022794 -0.0019216 0.0016011 0.004191
-0.0019047 0.00063247 0.00019545 0.0023778 -0.00045423 -0.00033172 -0.13575 0.24064
-0.018079 0.017683 -0.0064615 -0.0096049
0.0041471 0.0051035 0.0037524 0.00025882 0.0023286 -0.0019387 -0.018191 0.017719
-0.18047 0.12498 -0.027691 0.016677
-0.0038784 -0.00292 0.0033809 0.00011595 0.0016834 0.0041742 -0.0063553 -0.0095443
-0.027585 0.01656 -0.19831 0.17568
920000000 -0.10783 0.25846 0.0046297 0.039196 -0.0091698 -0.0043163 -0.0019187 0.0017636
0.00023528 0.0013104 0.0031864 -0.0008796
0.0045989 0.039129 -0.26994 0.29584 0.027951 0.022464 0.0013839 0.0011958
0.0072125 0.00023321 0.0041811 -0.002759
-0.0091818 -0.0043026 0.028058 0.02241 0.060541 0.31239 0.0016678 -4.6184e-05
0.00064361 -0.0003635 0.00090179 -0.0013128
-0.001857 0.0016912 0.0013807 0.0011489 0.0016687 -5.4796e-05 -0.11204 0.25714
-0.012513 0.03082 0.0042784 -0.0064053
0.00036099 0.0013576 0.0073991 0.00026143 0.00067579 -0.00035199 -0.012576 0.03089
-0.17422 0.12799 -0.0030865 0.029302
0.0033004 -0.00084831 0.0041619 -0.0027719 0.00092062 -0.0013069 0.0043236 -0.0063114
-0.0030975 0.029289 -0.20871 0.18908
980000000 -0.06195 0.28104 0.016746 0.030329 -0.0091935 0.0046498 0.0018554 0.003482
0.0038667 -0.0013101 -0.003449 -0.0026204
0.01674 0.030277 -0.21821 0.33349 0.032751 0.0049541 0.002038 -0.00028127
0.0019397 -0.0060763 -0.00055874 -0.0023669
-0.0091456 0.00466 0.032799 0.0048479 0.10707 0.30765 0.00043057 -0.0012284
0.00022728 -0.0016717 0.0013845 -0.00028261
0.0019724 0.003552 0.0020524 -0.00022227 0.00044279 -0.0012245 -0.073847 0.26928
0.0066007 0.030188 -0.0096316 -0.0080931
0.0038132 -0.0013482 0.0018789 -0.0060367 0.00021459 -0.0016487 0.006604 0.030169
-0.14566 0.16712 0.0053598 0.020518
-0.0034167 -0.0025016 -0.00062356 -0.0023253 0.0013686 -0.00026144 -0.009559 -0.008072
0.0052831 0.020521 -0.16831 0.23804
1040000000 -0.020581 0.28965 0.033036 0.019407 -0.0010811 0.0073437 0.0024378 0.00072449
0.00028393 -0.0033534 -7.793e-05 -0.0014767
0.032951 0.019383 -0.18287 0.3472 0.029223 -0.014503 0.0014339 -0.0016863
-0.0024372 -0.0025256 -0.0012034 -0.0030389
-0.0010047 0.0073753 0.029191 -0.014605 0.15397 0.29408 -0.00056387 -0.0013265
-0.0015792 -0.0010235 -0.00071347 -0.0010966
0.0023503 0.00065863 0.0014167 -0.0016994 -0.00056254 -0.0013276 -0.046343 0.27832
0.01847 0.019404 -0.0022036 0.0011749
0.00034837 -0.0034961 -0.0024776 -0.0024114 -0.0015889 -0.00098932 0.018547 0.01939
-0.11299 0.17558 0.013894 0.02025
-0.00017727 -0.0014188 -0.0012275 -0.0031099 -0.00068688 -0.0010852 -0.0022311 0.0011961
0.013788 0.020103 -0.14649 0.25809
1100000000 0.023639 0.30085 0.036382 -0.0030842 0.0033501 0.0040713 0.0023607 -0.00082869
-0.002164 -0.0031285 -0.0043731 -6.5803e-05
0.03636 -0.0030381 -0.14026 0.36753 0.014995 -0.027406 -0.0001288 -0.0017731
-0.0033809 -0.00099339 -0.003821 -0.00055547
0.0033492 0.0040557 0.014896 -0.027506 0.20003 0.27479 -0.001753 0.00035158
-0.0016607 0.00079791 -0.001151 -0.00040659
0.0024626 -0.00088631 -0.00010316 -0.0017634 -0.0017609 0.00035124 -0.0066674 0.28358
0.024562 0.0067117 -0.0026868 -0.00032975
-0.0021754 -0.0030807 -0.003407 -0.00097964 -0.0016784 0.00078393 0.024606 0.0066436
-0.096837 0.19292 0.020298 0.010457
-0.0042793 -0.00022359 -0.0037667 -0.00063135 -0.0011525 -0.00039743 -0.002626 -0.00033255
0.02029 0.010469 -0.10205 0.29131
1160000000 0.075524 0.29761 0.02482 -0.020127 0.0032366 -0.0006455 -0.00010212 -0.002322
-0.0041954 -0.00099079 -0.001168 0.0041404
0.02477 -0.020085 -0.095185 0.37274 -0.0038455 -0.02838 -0.0015148 -0.0016041
-0.0027483 0.0023737 -0.0014745 0.001979
0.0032433 -0.00064453 -0.0039673 -0.02838 0.24424 0.24453 -0.00063817 0.0016043
-0.00037721 0.0017047 -0.00097208 0.00022079
-0.0001871 -0.002352 -0.0015474 -0.0015944 -0.00062894 0.001604 0.033133 0.28098
0.021737 -0.0093214 -0.0037606 0.0050604
-0.004191 -0.0009731 -0.0026963 0.0024463 -0.00037389 0.0017295 0.021731 -0.0093366
-0.060579 0.20456 0.018931 0.0014171
-0.001138 0.0041846 -0.0015468 0.0021513 -0.00093082 0.00022924 -0.0037335 0.005014
0.018899 0.00131 -0.053368 0.29586
1220000000 0.11906 0.28796 0.011693 -0.0299 -0.0011966 -0.0012788 6.0639e-05 -0.0011115
-0.0027312 0.0021924 0.0011914 0.0020502
0.011715 -0.029895 -0.051671 0.38678 -0.016709 -0.020622 -0.0024286 0.00051209
7.5503e-05 0.0031173 -0.00080821 0.0019543
-0.0012039 -0.0012694 -0.016823 -0.020555 0.28328 0.20565 0.0008658 0.0015067
0.00060649 0.0011508 0.00021138 0.00054586
0.00013014 -0.001137 -0.0024384 0.00052208 0.00086315 0.0015067 0.072388 0.27244
0.011364 -0.016392 0.0021378 0.0017482
-0.0027577 0.0022658 2.9512e-05 0.0031511 0.00058836 0.0011288 0.011347 -0.01642
-0.03981 0.21661 0.01548 -0.012466
0.0011692 0.0020128 -0.00085179 0.0018958 0.00020286 0.00057178 0.0021773 0.0018589
0.015342 -0.012416 -0.025148 0.31398
1280000000 0.16973 0.26913 -0.0070168 -0.028919 -0.0017305 0.001844 -0.00092216 -0.0021439
-0.0011652 0.0033999 0.0026883 0.0013907
-0.0069825 -0.028895 -0.0047559 0.37946 -0.0235 -0.0078056 -0.00085046 0.0013909
0.0016537 0.001854 0.00067359 0.002036
-0.0017207 0.0018237 -0.023578 -0.0077136 0.31453 0.16274 0.0014298 -9.9563e-05
0.0010489 0.00028939 0.00023001 0.00035793
-0.0010126 -0.0020784 -0.00081945 0.0014086 0.0014259 -8.2866e-05 0.10902 0.25689
0.0021769 -0.019094 -0.00021482 5.2535e-05
-0.0011279 0.003369 0.0016728 0.0018129 0.0010481 0.0002909 0.0021446 -0.019121
-0.0028007 0.22437 0.0040668 -0.0154
0.0027561 0.001419 0.00069454 0.0020469 0.00019265 0.00037395 -0.0003011 0.00013188
0.0041087 -0.015428 0.023788 0.31838
1340000000 0.20744 0.23615 -0.016839 -0.019652 0.00048766 0.0041388 -0.0019082 -0.00073295
0.0015005 0.0027985 0.0018106 -0.0013851
-0.016822 -0.01962 0.034977 0.37207 -0.020588 0.0046958 -0.00020943 0.0019151
0.0018546 0.00090379 0.0011555 0.00079547
0.00049352 0.0041508 -0.020589 0.0048088 0.33763 0.11445 0.00086431 -0.00097896
0.00063714 -0.00051002 9.308e-05 0.00022923
-0.0018843 -0.00078226 -0.00020539 0.0018969 0.00087457 -0.00097738 0.14234 0.23649
-0.007613 -0.016772 0.00098637 0.00058064
0.0015425 0.0028197 0.0018655 0.00088132 0.00062468 -0.00051458 -0.0076195 -0.016768
0.026114 0.22205 -0.0029246 -0.014067
0.0016994 -0.0014944 0.0011433 0.00076463 6.4093e-05 0.00021725 0.0010542 0.00055354
-0.0029055 -0.013963 0.06196 0.31458
1400000000 0.24148 0.19986 -0.023312 -0.0084709 0.0047958 0.0028901 -0.0021964 0.00077273
0.0026193 0.001008 0.00043005 -0.0013329
-0.02327 -0.0084873 0.072925 0.36041 -0.013837 0.012398 0.0012725 0.0013105
0.0012091 -0.00068876 0.001159 0.00024881
0.0047989 0.0028678 -0.013789 0.012486 0.35105 0.060564 -6.6006e-05 -0.0013575
9.5201e-05 -0.00015991 0.00037841 0.00035748
-0.0021873 0.0008269 0.0012967 0.0013114 -6.0528e-05 -0.0013598 0.17176 0.20802
-0.013816 -0.010255 -0.00071991 -0.0002771
0.002594 0.00098148 0.0011848 -0.0006645 8.279e-05 -0.00019793 -0.01386 -0.010217
0.059436 0.22254 -0.0095573 -0.0092977
0.0004599 -0.0013375 0.0011509 0.00023443 0.00040472 0.00030634 -0.00073754 -0.00024461
-0.0096221 -0.0092809 0.10698 0.30629
1460000000 0.26607 0.15696 -0.020576 0.0040292 0.0049923 -0.0017407 -0.0015415 0.0017842
0.002098 -0.00035423 -0.00021327 -0.00093704
-0.020552 0.0040262 0.10838 0.33902 -0.0049562 0.014836 0.0016226 0.00024529
0.0010766 -0.0013106 0.0012495 -0.0005079
0.0049995 -0.0017633 -0.0048879 0.014886 0.35781 0.0054156 -0.0010249 -0.0011279
0.00032203 -0.00016908 0.00069634 -0.00031048
-0.0015248 0.001734 0.0016324 0.00023873 -0.0010308 -0.0011179 0.19923 0.17945
-0.015128 -0.0038569 -0.00096933 0.0018421
0.0021497 -0.00037775 0.0010802 -0.0013089 0.00030607 -0.00017803 -0.01516 -0.0038305
0.089965 0.21163 -0.011818 -0.0032413
-0.00023867 -0.00093023 0.001274 -0.00048283 0.00066662 -0.0003235 -0.00094243 0.0018554
-0.011742 -0.0031983 0.1411 0.28607
1520000000 0.27903 0.11529 -0.015253 0.0096303 0.0030615 -0.0039078 0.00017028 0.0026479
0.0024659 -0.0018807 -0.0010337 -0.00022171
-0.015259 0.0096056 0.14246 0.32487 0.0023383 0.012027 0.0016477 -0.00068181
0.00018624 -0.00098998 0.00038079 -0.00098925
0.0030297 -0.0039236 0.0024002 0.012042 0.34996 -0.052225 -0.00083808 -0.00032351
0.00063987 -0.00094758 5.2602e-05 -5.139e-05
0.00018338 0.002686 0.00166 -0.00068278 -0.00083663 -0.00031623 0.22276 0.14065
-0.015025 0.0018255 0.0014359 0.0021036
0.0024224 -0.0018719 0.00018437 -0.001005 0.0006491 -0.00095756 -0.015019 0.0018688
0.11787 0.20165 -0.011727 0.0012475
-0.0010203 -0.00020434 0.00036152 -0.0010008 5.068e-05 -8.929e-05 0.0013946 0.0020362
-0.011792 0.0012334 0.17446 0.26752
1580000000 0.28957 0.070279 -0.0088185 0.013259 -0.001197 -0.004553 0.0015487 0.0018373
-0.00014248 -0.0023084 -0.00019324 0.00036069
-0.0088314 0.013261 0.17044 0.30072 0.00538 0.0067937 0.00055431 -0.0015148
-0.0004169 -0.0011477 -0.00014812 -0.00075358
-0.0012237 -0.0045608 0.0054093 0.0067782 0.32871 -0.10912 -0.0014943 0.00036444
-0.00043244 -0.0013286 0.00025637 -0.00061685
0.0015597 0.0018049 0.00057301 -0.0015156 -0.0014999 0.00035109 0.23721 0.10168
-0.011859 0.0071262 0.0021143 0.00077914
-0.00018039 -0.0023571 -0.00043775 -0.0011317 -0.00042734 -0.0013221 -0.011843 0.00716
0.14394 0.18781 -0.0093356 0.0077086
-0.00014393 0.00040928 -0.00015235 -0.00075161 0.0002744 -0.00054303 0.0021745 0.00079291
-0.0093071 0.0076955 0.20808 0.24298
1640000000 0.29304 0.028725 -0.0019495 0.012371 -0.0028166 -0.0021098 0.0027808 0.0011147
-0.00054613 -0.0017868 -0.00036973 0.00044234
-0.0019671 0.012357 0.20103 0.27586 0.005349 0.0021098 -0.000513 -0.0018113
-0.0009237 -0.00052372 -0.00043614 -0.00074715
-0.0028623 -0.0020523 0.0053615 0.0020687 0.29937 -0.15862 -0.00070922 0.0012679
-0.0010916 -0.0010054 -7.0646e-05 -0.00038792
0.0027619 0.001125 -0.00053516 -0.0018049 -0.00070487 0.0012647 0.25037 0.0517
-0.0077825 0.0084598 0.0025546 -0.00060278
-0.00055959 -0.0017746 -0.00094473 -0.00050897 -0.0011033 -0.0010048 -0.0077873 0.008515
0.16884 0.16702 -0.004557 0.0095726
-0.00038277 0.00044751 -0.00042845 -0.00073931 -9.1252e-05 -0.00038279 0.0025073 -0.00067487
-0.004584 0.0095551 0.23489 0.21275
1700000000 0.2863 -0.015897 0.0016169 0.0097528 -0.0032994 0.00032075 0.0031281 -0.0013255
-0.0022096 -0.00072667 0.00059271 0.0003775
0.0016163 0.0097357 0.21918 0.24465 0.002727 -0.00044665 -0.0014209 -0.00072859
-0.00082008 -0.00017885 -0.00077985 -0.00044811
-0.0033405 0.00032357 0.0027226 -0.00046319 0.25483 -0.19673 0.00022271 0.0016434
-0.0021466 -0.00021262 -0.00032763 -0.0008292
0.0031118 -0.001377 -0.0014008 -0.00071919 0.00023037 0.0016452 0.24674 0.0014373
-0.004981 0.0096082 0.0016801 -0.0021129
-0.0022339 -0.00070769 -0.00083423 -0.00016923 -0.0021545 -0.00021002 -0.0049155 0.0096202
0.18846 0.15034 0.000343 0.009873
0.00064563 0.00041365 -0.00078422 -0.00045368 -0.00031798 -0.0008091 0.001684 -0.0020748
0.00037826 0.0099152 0.25227 0.1793
1760000000 0.27605 -0.06456 0.004188 0.0065967 -0.0020701 0.001239 0.0013014 -0.0034958
-0.0013031 0.00048922 0.00021071 -0.00055753
0.0041761 0.0065902 0.24627 0.20512 5.8383e-05 -0.001769 -0.001279 4.2873e-06
-0.0011836 0.00094954 -0.00057436 0.00026067
-0.0020649 0.0012446 4.5961e-05 -0.0017775 0.20655 -0.22869 0.001059 0.0012659
-0.001149 0.0014884 -0.0013125 -0.00081265
0.0013161 -0.0034409 -0.0012731 2.304e-05 0.0010731 0.0012643 0.23821 -0.050733
-0.0012864 0.0089821 -0.00010103 -0.0025392
-0.0012608 0.00054115 -0.0011644 0.00094951 -0.0011441 0.0014831 -0.001332 0.0089786
0.20618 0.11881 0.0044564 0.0072238
0.00014296 -0.00059388 -0.00056821 0.00029618 -0.0013144 -0.00081293 -4.4413e-05 -0.0025619
0.0044757 0.0072005 0.26684 0.14252
1820000000 0.25217 -0.10284 0.0045911 0.002963 0.00028999 0.0023406 -0.00087821 -0.0031049
-0.0012192 0.00093283 -8.5505e-05 3.662e-05
0.0045924 0.0029684 0.25659 0.17484 -0.0020623 8.466e-05 -0.0015018 0.00096443
-0.00010058 0.0012242 -0.00071507 0.00043982
0.00030755 0.0023506 -0.0020641 7.6207e-05 0.15604 -0.24358 0.0017615 0.0005893
-0.00029904 0.0023418 -0.0016591 0.00025654
-0.0009792 -0.0031178 -0.0015394 0.00095737 0.0017329 0.00057981 0.20747 -0.098792
0.00053702 0.0077138 -0.0015852 -0.0017386
-0.0012484 0.00093377 -0.00010445 0.0012378 -0.0002946 0.0023289 0.00060089 0.007726
0.2267 0.091931 0.0054433 0.0035361
-8.95e-05 -4.3198e-07 -0.00069602 0.00041077 -0.0016599 0.00022423 -0.0015965 -0.0017364
0.0054635 0.0035215 0.27039 0.10741
1880000000 0.2174 -0.14299 0.0023695 0.0006451 -0.00018061 0.0022531 -0.0028764 -0.0023933
-0.0002034 0.0016227 0.00040139 -0.00053543
0.0023563 0.00064209 0.26109 0.1288 -0.0039305 0.0029282 -0.00028152 0.0018251
0.00058415 0.0013726 7.2013e-05 0.0010631
-0.00018953 0.0022453 -0.0039296 0.0029687 0.10418 -0.25054 0.0019238 -0.0010699
0.0016146 0.0020123 -0.0010928 0.0014822
-0.0029046 -0.0023622 -0.00026699 0.0018573 0.001919 -0.0010794 0.16613 -0.1384
0.001648 0.0053058 -0.0023898 0.000351
-0.00017329 0.0016755 0.00057679 0.0013989 0.0016396 0.0020228 0.0016739 0.0053043
0.23378 0.063162 0.005757 0.0013189
0.00036904 -0.00052378 2.5197e-05 0.0010867 -0.0010921 0.0014924 -0.0023616 0.0003235
0.0058007 0.0012885 0.27151 0.073588
1940000000 0.17874 -0.16983 0.00019969 -0.0012134 0.001837 0.001767 -0.0038815 0.00033782
0.0011031 0.00095199 -0.00070822 -0.00071689
0.00021244 -0.0012183 0.26281 0.09701 -0.0019384 0.005802 0.0010903 0.0014558
0.0020146 0.00046416 0.00088923 0.00040415
0.0018575 0.0017437 -0.0019105 0.005809 0.06059 -0.2431 0.00066681 -0.0023891
0.0022422 0.00035795 0.00014029 0.001835
-0.0039221 0.00035298 0.0011476 0.00144 0.00067299 -0.0023723 0.11336 -0.16953
0.00093797 0.0035483 -0.0014859 0.0013228
0.001112 0.00092301 0.0020273 0.00044809 0.0022445 0.00038846 0.00096861 0.003621
0.24102 0.026117 0.0044708 -0.0028525
-0.00069105 -0.00071389 0.00088992 0.00037558 0.00016469 0.0018215 -0.0014722 0.0013614
0.0044328 -0.0028846 0.26289 0.037568
2000000000 0.13225 -0.18424 -0.0036067 0.00095278 0.0029704 0.0012559 -0.0023594 0.0037199
0.0008436 0.00053617 -0.00081886 0.00053944
-0.0036203 0.00094444 0.2487 0.061598 -0.00042431 0.0078425 0.0016832 0.00029986
0.0012372 -0.0013201 0.0005763 0.00012642
0.0029727 0.0012224 -0.00035959 0.0078825 0.019079 -0.22835 -0.0014667 -0.0015287
0.0021397 -0.0010336 0.0017173 0.0014252
-0.002242 0.0037124 0.0016678 0.00031077 -0.0014678 -0.0015202 0.059377 -0.17901
-0.00090153 0.003166 -0.00019027 0.0020915
0.00083095 0.00048909 0.0012076 -0.0013382 0.0021389 -0.0010475 -0.00087756 0.003134
0.23892 -0.0065596 0.00090152 -0.0037245
