!Keysight Technologies,M9804A,MY58100912,A.14.10.03
!Date: Thursday, April 27, 2023 10:28:33
!Correction: S11(C  6-Port  ) 
!S12(C  6-Port  ) 
!S13(C  6-Port  ) 
!S14(C  6-Port  ) 
!S15(C  6-Port  ) 
!S16(C  6-Port  ) 
!S21(C  6-Port  ) 
!S22(C  6-Port  ) 
!S23(C  6-Port  ) 
!S24(C  6-Port  ) 
!S25(C  6-Port  ) 
!S26(C  6-Port  ) 
!S31(C  6-Port  ) 
!S32(C  6-Port  ) 
!S33(C  6-Port  ) 
!S34(C  6-Port  ) 
!S35(C  6-Port  ) 
!S36(C  6-Port  ) 
!S41(C  6-Port  ) 
!S42(C  6-Port  ) 
!S43(C  6-Port  ) 
!S44(C  6-Port  ) 
!S45(C  6-Port  ) 
!S46(C  6-Port  ) 
!S51(C  6-Port  ) 
!S52(C  6-Port  ) 
!S53(C  6-Port  ) 
!S54(C  6-Port  ) 
!S55(C  6-Port  ) 
!S56(C  6-Port  ) 
!S61(C  6-Port  ) 
!S62(C  6-Port  ) 
!S63(C  6-Port  ) 
!S64(C  6-Port  ) 
!S65(C  6-Port  ) 
!S66(C  6-Port  ) 
!S6P File: Measurement: :
# Hz S  RI   R 50
500000000 -0.3355 -0.052754 -0.010117 -0.0011662 -0.0084544 0.013379 -0.0034089 0.011293
0.013042 0.0055028 -0.0035237 0.0066338
-0.010037 -0.0011515 -0.41631 -0.063603 0.0075435 -0.010361 0.0014632 0.011207
0.0081502 0.0028055 0.0011938 0.012897
-0.0084136 0.013397 0.0075446 -0.010359 -0.26807 0.20009 0.0064513 0.0033152
-0.0016044 0.0085436 0.00012822 0.012405
-0.0033984 0.01135 0.0013246 0.01132 0.0064599 0.003352 -0.33174 0.043402
-0.019291 -0.0044554 0.016876 0.026039
0.013019 0.0055097 0.0080903 0.0027388 -0.0015883 0.0085297 -0.019266 -0.0044431
-0.24854 -0.19526 -0.027448 0.0050719
-0.0032611 0.0067757 0.0011408 0.013031 0.00012049 0.012388 0.016871 0.026037
-0.027369 0.0049908 -0.27265 -0.11876
560000000 -0.3197 0.11266 -0.02315 -0.064361 -0.00023554 0.01374 0.0050054 0.010966
0.010659 0.0047498 0.010791 0.0084338
-0.023209 -0.064442 -0.37635 0.099213 -0.04195 -0.037512 0.013798 0.0034109
-0.012745 -0.0034594 0.0046237 -0.00087281
-8.2994e-05 0.013739 -0.042088 -0.037517 -0.18582 0.2519 0.00016846 -0.0047582
0.018128 0.0054025 0.0076358 -0.0055035
0.0051354 0.010961 0.013769 0.0033223 0.00015558 -0.0047923 -0.30713 0.13575
0.0050819 -0.023607 0.004684 -0.021934
0.010772 0.0046761 -0.01281 -0.0035556 0.01811 0.0054255 0.0050663 -0.023596
-0.31171 -0.016435 0.0087513 -0.047534
0.010868 0.0085431 0.0045691 -0.00095676 0.007655 -0.0055111 0.0047065 -0.021996
0.0087796 -0.047527 -0.33227 0.024623
620000000 -0.27727 0.092954 -0.023175 0.0089698 0.0041238 0.009361 0.008482 -0.004764
0.01252 -0.0010597 0.00020105 -0.0025782
-0.023104 0.0089081 -0.40387 0.049671 -0.018499 0.0011175 -0.0012985 -0.0017919
0.012501 -0.0059024 0.0013304 -0.0025481
0.0041647 0.0093486 -0.018513 0.0011818 -0.15563 0.26116 -0.00075763 -0.0052433
-0.002594 -0.0023599 0.0088836 -0.0028326
0.0084644 -0.004687 -0.0012896 -0.0017181 -0.00077911 -0.0051778 -0.26722 0.14657
-0.038304 -0.019424 0.011714 0.027513
0.012479 -0.0011873 0.012515 -0.006029 -0.0025377 -0.0024181 -0.038328 -0.019404
-0.23012 -0.045999 -0.038566 0.012019
0.00023366 -0.0026136 0.0014633 -0.0025083 0.0088759 -0.0028286 0.011692 0.027434
-0.038609 0.012121 -0.25138 -0.0050601
680000000 -0.23853 0.18473 -0.026096 -0.014019 0.005354 0.0051948 0.0010293 -0.0074714
-0.0018785 -0.01194 0.0058922 -0.0073236
-0.026039 -0.014013 -0.38987 0.15068 -0.031985 -0.0020165 -0.0012162 -0.00085732
-0.0015537 -0.0094302 -0.00081949 -0.0021444
0.0053493 0.0051793 -0.032049 -0.0019554 -0.10315 0.28126 -0.00070084 -0.00054376
-0.001537 -1.6699e-05 -0.0028345 -0.009253
0.0010717 -0.0074822 -0.0012112 -0.00097375 -0.0006921 -0.00057848 -0.22085 0.19766
-0.023449 -0.007719 -0.0086131 -0.011924
-0.0019066 -0.01201 -0.0016144 -0.0093952 -0.0015531 1.5186e-05 -0.023457 -0.0077051
-0.27871 0.055739 -0.0086757 -0.0066305
0.0058306 -0.0074339 -0.0009464 -0.0022175 -0.0028228 -0.0092793 -0.0086071 -0.011893
-0.0087125 -0.006666 -0.25798 0.098076
740000000 -0.1934 0.17805 -0.03882 0.027141 0.013801 -0.0046762 -0.00087741 -0.0042367
-0.0047979 -0.00322 -0.0066798 0.0025319
-0.038747 0.027109 -0.33531 0.16892 -0.036261 0.034902 3.0636e-05 -0.0055949
-0.013075 0.0067712 -0.00094012 -0.0047064
0.013756 -0.0046969 -0.036178 0.034992 -0.069162 0.27853 -0.0025261 0.0032729
-0.0026079 -0.00631 -0.0021662 0.0013816
-0.00080151 -0.004174 5.0985e-05 -0.0056474 -0.0024962 0.0033056 -0.20405 0.20596
-0.042121 -0.007835 0.022244 0.016274
-0.0047813 -0.0032733 -0.013209 0.0069225 -0.002604 -0.0063767 -0.042151 -0.0077791
-0.17963 0.083069 -0.040871 -0.00078705
-0.0067046 0.0025343 -0.00095018 -0.0047443 -0.002185 0.0013238 0.022233 0.016166
-0.040901 -0.00070281 -0.24943 0.10559
800000000 -0.16162 0.22114 -0.022637 0.016004 0.0054265 -0.010542 -0.0042661 -0.0021933
-0.0045979 0.0021672 0.0041163 6.5228e-05
-0.022604 0.015919 -0.34084 0.23942 -0.0086585 0.033884 -0.0025242 0.0021003
-0.0015195 0.0027693 0.0005399 0.0049908
0.0053883 -0.010572 -0.0085947 0.033961 -0.03094 0.30197 0.000815 0.0015231
-0.00024434 0.0036542 -0.0021211 0.00084226
-0.0043083 -0.0022405 -0.0025725 0.0020576 0.00078432 0.001525 -0.17356 0.23263
-0.028435 0.013219 0.013833 -0.010256
-0.0046224 0.0022418 -0.001546 0.0028069 -0.00024035 0.0036548 -0.028434 0.013279
-0.2203 0.11283 -0.016896 0.019621
0.0041568 3.6702e-05 0.00050732 0.005001 -0.0020927 0.000812 0.013891 -0.010207
-0.016856 0.019609 -0.24059 0.15161
860000000 -0.1269 0.24121 -0.017562 0.03022 -0.0028287 -0.010235 -0.0021779 0.00050701
0.0041491 0.0055067 -0.0035322 -0.0021844
-0.017546 0.030235 -0.29248 0.28182 0.0075023 0.034345 1.401e-05 0.002029
0.0037363 0.00098409 0.0036119 0.00065445
-0.0028491 -0.010212 0.0075979 0.034342 0.016611 0.31031 -0.00070848 3.8075e-05
0.0024137 -0.0013351 0.0017503 0.0044274
-0.0021408 0.00051345 7.1406e-05 0.0020428 -0.00069307 4.2289e-05 -0.13719 0.24298
-0.017303 0.017805 -0.0066336 -0.0086015
0.0042029 0.0054976 0.0037639 0.00096936 0.0024197 -0.0013271 -0.017297 0.017829
-0.16346 0.16278 -0.023798 0.017859
-0.0035442 -0.0021507 0.0035742 0.00058097 0.0017437 0.0044507 -0.0067825 -0.0086287
-0.023828 0.017898 -0.18789 0.19694
920000000 -0.10302 0.2642 0.0047876 0.038037 -0.0092831 -0.0051294 -0.0018442 0.0015117
0.0018144 0.0018278 0.0026343 -0.0017294
0.0048031 0.037996 -0.26534 0.30316 0.028131 0.022624 0.0015693 0.0013229
0.0080908 -0.00027392 0.0043179 -0.00284
-0.0092865 -0.0051158 0.028219 0.022578 0.061712 0.31167 0.0020321 4.5407e-05
0.0011828 -0.00035542 0.00069993 -0.0013851
-0.0018817 0.0015131 0.0015383 0.0012923 0.0020236 4.032e-05 -0.11238 0.25908
-0.010938 0.030262 0.003331 -0.0069741
0.0018372 0.0019131 0.0080118 -0.0002668 0.00119 -0.00035485 -0.010872 0.030288
-0.15276 0.16674 -0.0017837 0.026433
0.0026245 -0.00174 0.0042808 -0.0028616 0.00070501 -0.0013905 0.0033804 -0.0070113
-0.0018231 0.026396 -0.19602 0.21059
980000000 -0.056656 0.28392 0.01693 0.029648 -0.0094876 0.0039758 0.0017499 0.0035115
0.0039717 -0.0019413 -0.0028726 -0.00236
0.016902 0.029699 -0.21227 0.3378 0.033364 0.0053843 0.0021248 -5.2986e-05
0.0017832 -0.0060499 -0.00016543 -0.0023441
-0.0094746 0.0040057 0.0334 0.0052859 0.10746 0.30628 0.00072893 -0.001222
0.00057694 -0.0019866 0.0014645 -0.00014667
0.0017554 0.0034579 0.0021332 -0.00010277 0.00073367 -0.0012265 -0.074424 0.27015
0.0073292 0.029861 -0.0089305 -0.0070351
0.0039628 -0.0019991 0.0017166 -0.0061508 0.00058534 -0.0019982 0.0073938 0.029853
-0.11881 0.1978 0.00659 0.019415
-0.0028928 -0.0023633 -0.00018048 -0.0023512 0.0014668 -0.00014545 -0.0089742 -0.0070035
0.006534 0.019419 -0.15304 0.25285
1040000000 -0.015419 0.29314 0.032886 0.018755 -0.001679 0.0069984 0.0024467 0.0009058
0.00027148 -0.0037477 -0.00033382 -0.0016664
0.032869 0.018796 -0.17763 0.35135 0.030055 -0.014598 0.0016602 -0.0017438
-0.0021459 -0.0027955 -0.00094128 -0.0029528
-0.0016571 0.0069898 0.030034 -0.014704 0.15345 0.2934 -0.00046132 -0.0016322
-0.0016369 -0.00096855 -0.00066602 -0.0010058
0.0024522 0.00091321 0.0016448 -0.0017576 -0.00046094 -0.0016418 -0.047165 0.2797
0.019193 0.018749 -0.0025134 0.00089713
0.00027647 -0.0037262 -0.0021613 -0.0028155 -0.0016456 -0.00095285 0.01925 0.018713
-0.086016 0.20336 0.013982 0.017923
-0.00034657 -0.001678 -0.00098308 -0.002944 -0.00065297 -0.0010033 -0.0024889 0.00088747
0.013958 0.017925 -0.12986 0.27341
1100000000 0.029049 0.30239 0.036217 -0.0036209 0.0025785 0.0041692 0.0025208 -0.00086948
-0.0021721 -0.0030493 -0.0040042 -0.00014156
0.036184 -0.0035861 -0.13461 0.36948 0.01597 -0.028031 0.00015805 -0.0017703
-0.0038645 -0.0010207 -0.003635 -0.0004196
0.0026064 0.0041586 0.015889 -0.028112 0.19958 0.27414 -0.0019652 1.7889e-05
-0.0017346 0.00050023 -0.0010171 -0.00032989
0.0025143 -0.00089775 0.00015596 -0.0017818 -0.0019679 1.4418e-05 -0.0072115 0.28494
0.025037 0.0056879 -0.0023366 -1.2613e-05
-0.0021763 -0.0030487 -0.0038763 -0.0010187 -0.0017447 0.00049272 0.025061 0.0056608
-0.065156 0.21609 0.019648 0.0082736
-0.0039805 -0.00013318 -0.0036503 -0.00040414 -0.0010142 -0.0003282 -0.0023377 -5.7705e-06
0.019619 0.0083196 -0.083713 0.30199
1160000000 0.080027 0.29845 0.024294 -0.020682 0.0026685 -0.00030927 -4.7111e-05 -0.0023936
-0.0037951 -0.0008865 -0.001118 0.0041995
0.024321 -0.020635 -0.091373 0.37437 -0.0033434 -0.029781 -0.0017394 -0.0017857
-0.0028783 0.0026214 -0.0016897 0.0019479
0.0026659 -0.00031398 -0.0034849 -0.029791 0.24302 0.24405 -0.00088628 0.0018201
-0.00065575 0.0020313 -0.00091069 0.00037596
-7.4209e-05 -0.0023902 -0.0017406 -0.0017601 -0.00089667 0.0018071 0.031926 0.28232
0.021504 -0.010605 -0.0034384 0.0052221
-0.0038024 -0.00085151 -0.0028815 0.0026222 -0.00065954 0.0020375 0.021504 -0.010626
-0.030651 0.22301 0.018035 -0.0011295
-0.0011012 0.0042509 -0.0016789 0.0019602 -0.00089419 0.00037781 -0.0034332 0.0052455
0.018071 -0.0011351 -0.037704 0.30463
1220000000 0.12396 0.289 0.010909 -0.030155 -0.0016398 -0.00069894 0.00019105 -0.00093478
-0.0027924 0.0021788 0.00099605 0.0019999
0.010906 -0.030098 -0.047345 0.38765 -0.017063 -0.022043 -0.0027141 0.00040461
-0.00011184 0.0033267 -0.00088797 0.0020615
-0.0016367 -0.00069208 -0.017185 -0.021998 0.28223 0.20544 0.00071477 0.0018789
0.00066743 0.0013456 0.00038264 0.0005621
0.00020569 -0.00095269 -0.0027248 0.00042587 0.0007104 0.0018899 0.072058 0.27404
0.010995 -0.017438 0.0017899 0.001468
-0.0027981 0.002204 -8.2086e-05 0.0033297 0.00065714 0.0013446 0.010972 -0.01745
-0.0071317 0.23109 0.013925 -0.013526
0.0010036 0.0020055 -0.00085777 0.0020833 0.00038974 0.00057017 0.0017994 0.0014522
0.013911 -0.013511 -0.0052757 0.31899
1280000000 0.17437 0.26855 -0.0079074 -0.028738 -0.0019665 0.0027259 -0.0008874 -0.0021411
-0.00081248 0.0032074 0.0025778 0.0013855
-0.0078963 -0.028718 -0.0012154 0.37978 -0.024424 -0.0090346 -0.0010851 0.0015255
0.0018612 0.0018094 0.00061385 0.0020484
-0.0019497 0.0027302 -0.02448 -0.0089389 0.313 0.16196 0.0016615 1.0566e-05
0.0012681 0.00024783 0.00031474 7.4575e-05
-0.00089626 -0.0021009 -0.0010656 0.0015464 0.0016616 1.0881e-05 0.10902 0.25822
0.0010833 -0.019826 -0.00017935 0.00045818
-0.00078847 0.0032097 0.001846 0.0018339 0.0012685 0.00025794 0.0010428 -0.019836
0.029195 0.23426 0.0027346 -0.015578
0.0025874 0.0013808 0.00060674 0.0020567 0.00031579 7.6433e-05 -0.00020137 0.00048402
0.0027481 -0.015606 0.041435 0.32039
1340000000 0.21187 0.23588 -0.017803 -0.019051 0.00094231 0.0049707 -0.0018014 -0.00099137
0.0014076 0.0027271 0.0017807 -0.0013694
-0.017747 -0.019049 0.038443 0.37218 -0.022243 0.0042557 -0.00012246 0.0021177
0.0022183 0.00073388 0.0011953 0.00082368
0.00096686 0.0049673 -0.022253 0.004362 0.33497 0.11476 0.0011812 -0.00090925
0.00060709 -0.00072353 -4.0476e-06 0.00026183
-0.0017978 -0.00099375 -0.00012385 0.0021295 0.0011952 -0.00089367 0.14255 0.23744
-0.0087729 -0.017021 0.00070597 0.0006824
0.0014426 0.0027267 0.0021924 0.00068783 0.00060352 -0.00072408 -0.0088013 -0.017007
0.05879 0.22943 -0.0043758 -0.014164
0.0017644 -0.0013875 0.0012125 0.00081213 -3.1354e-06 0.00026507 0.00073241 0.00067144
-0.0043676 -0.014174 0.079345 0.31496
1400000000 0.2458 0.19871 -0.023612 -0.0073076 0.0056048 0.0034925 -0.0023618 0.00067765
0.0024964 0.00097178 0.00037269 -0.0016014
-0.023595 -0.0072955 0.076214 0.3599 -0.015481 0.012823 0.0014509 0.0013429
0.0013321 -0.00088809 0.0011999 7.9458e-05
0.005619 0.003469 -0.015442 0.012934 0.34823 0.062095 8.1048e-05 -0.0018009
9.8564e-05 -0.00041316 0.00032488 0.00017618
-0.0023619 0.00070465 0.0014588 0.0013309 7.5928e-05 -0.001794 0.17228 0.2085
-0.014926 -0.010061 -0.00070186 -3.4864e-05
0.0025088 0.00096794 0.0013254 -0.00089545 0.00010041 -0.00042277 -0.014954 -0.010033
0.091666 0.22498 -0.010809 -0.0087244
0.00036611 -0.0016085 0.0012058 7.4372e-05 0.0003249 0.00015728 -0.00072452 -3.2473e-05
-0.010754 -0.0087275 0.12338 0.3036
1460000000 0.26966 0.15514 -0.020386 0.0050567 0.0061258 -0.0017548 -0.0015525 0.001836
0.0022624 -0.00042737 -0.00052731 -0.0010387
-0.020388 0.0050242 0.11109 0.33833 -0.0062708 0.016129 0.0017272 0.00011173
0.00087118 -0.0014718 0.0012955 -0.00057716
0.0061204 -0.0017784 -0.0061966 0.016171 0.35505 0.0084278 -0.0013495 -0.0013844
8.2379e-05 -0.0001715 0.0006439 -0.00026593
-0.0015533 0.0018231 0.001742 0.00012303 -0.0013388 -0.0013768 0.19911 0.17891
-0.016319 -0.0031019 -0.00067945 0.0020573
0.0022702 -0.00044615 0.00084596 -0.0014641 8.5277e-05 -0.00016429 -0.016325 -0.0030627
0.12121 0.21065 -0.012475 -0.0026537
-0.00052077 -0.0010202 0.0012768 -0.00060116 0.00065376 -0.00026091 -0.00066145 0.0020626
-0.012495 -0.0026455 0.15651 0.28289
1520000000 0.28254 0.11355 -0.014579 0.01044 0.0036169 -0.0045458 0.00012486 0.0026648
0.0021512 -0.0019769 -0.0012407 -0.00015395
-0.014563 0.01042 0.14488 0.32392 0.0018671 0.013717 0.0016895 -0.0008716
-2.0312e-05 -0.0011204 0.00035058 -0.0010162
0.0035905 -0.0045695 0.0019488 0.013717 0.34888 -0.047266 -0.0011306 -0.0003508
0.00064225 -0.00083593 3.8375e-05 -0.00023992
0.0001372 0.0026796 0.0016739 -0.00088956 -0.0011336 -0.00035724 0.22226 0.14017
-0.01552 0.002948 0.0017118 0.0021717
0.0021365 -0.0019852 -2.9098e-05 -0.0011411 0.00064003 -0.00085414 -0.015521 0.0029803
0.14944 0.19747 -0.012183 0.0021128
-0.0012429 -0.00012827 0.00033946 -0.0010194 4.3287e-05 -0.00025945 0.0016868 0.0021623
-0.012181 0.0020927 0.18885 0.26213
1580000000 0.29281 0.067248 -0.0077258 0.013543 -0.00089859 -0.005366 0.00163 0.0019805
-0.00016393 -0.0021953 -0.0002862 0.00030189
-0.007747 0.013539 0.17258 0.2993 0.0057807 0.0084813 0.00043935 -0.0016132
-0.00058541 -0.0010666 -0.00017731 -0.00088978
-0.00090684 -0.0053643 0.0058288 0.0084649 0.32979 -0.10466 -0.0017316 0.00064883
-0.0003476 -0.001322 0.00026492 -0.00058886
0.0016433 0.0019446 0.00043258 -0.0016097 -0.0017414 0.00066255 0.23594 0.10063
-0.011849 0.0080817 0.0022544 0.00061165
-0.00018252 -0.0022106 -0.00060644 -0.0010658 -0.00035106 -0.0013065 -0.011842 0.0081169
0.17394 0.17975 -0.009344 0.0076816
-0.00028157 0.00029817 -0.0001835 -0.00089871 0.00027252 -0.000582 0.0022813 0.00062018
-0.0093561 0.0076909 0.22044 0.23534
1640000000 0.2953 0.025943 -0.0010411 0.012146 -0.0030812 -0.0029269 0.0027641 0.0010441
-0.00084778 -0.0016876 -0.00031265 0.00063582
-0.0010654 0.012135 0.20245 0.27447 0.0064489 0.0033553 -0.00064586 -0.001769
-0.0010024 -0.00038788 -0.00054834 -0.00070061
-0.0031082 -0.0029055 0.00647 0.0033231 0.30202 -0.15439 -0.00058954 0.0015173
-0.0011359 -0.00094969 -0.00021862 -0.00025659
0.002772 0.0010605 -0.00066801 -0.001782 -0.00059717 0.0015031 0.24814 0.051422
-0.0072803 0.0095619 0.0025996 -0.00086142
-0.00086286 -0.0016862 -0.0010046 -0.00039302 -0.0011427 -0.00094857 -0.0072655 0.0095893
0.19746 0.1557 -0.0045637 0.0098022
-0.00031859 0.00064801 -0.00055168 -0.00069621 -0.0002305 -0.0002583 0.002574 -0.0008852
-0.0045385 0.0097732 0.24612 0.20426
1700000000 0.28833 -0.019568 0.002291 0.0091641 -0.0039927 -6.43e-05 0.0032555 -0.0013305
-0.0020048 -0.00063431 0.00053606 0.00044183
0.002292 0.0091611 0.22076 0.24308 0.0041514 0.00017659 -0.0014917 -0.00054296
-0.00078019 5.2945e-05 -0.00099845 -0.00049866
-0.0040019 -5.5876e-05 0.004162 0.00014861 0.25871 -0.19468 0.00049498 0.0016367
-0.002034 -9.7811e-05 -0.00043431 -0.00075707
0.0032428 -0.001372 -0.0014854 -0.00054219 0.00049245 0.0016388 0.24444 0.0015207
-0.0042179 0.0099276 0.0016775 -0.0023444
-0.0020057 -0.0006379 -0.00078578 5.8846e-05 -0.0020375 -9.7419e-05 -0.0041919 0.0099466
0.21492 0.13522 0.00025565 0.0099966
0.00053273 0.00044175 -0.0010093 -0.00049995 -0.00044933 -0.00074816 0.0016694 -0.0023128
0.00026122 0.010025 0.26199 0.17027
1760000000 0.2767 -0.068364 0.0044786 0.0058058 -0.0025391 0.0010957 0.0011754 -0.0035436
-0.0014638 0.00070831 0.00037268 -0.00041727
0.0044632 0.0058177 0.24719 0.20335 0.0016741 -0.0017025 -0.0012503 0.00015677
-0.0011131 0.00085115 -0.0007325 0.00044979
-0.0025342 0.0011167 0.0016689 -0.0017065 0.21058 -0.22806 0.0011346 0.0010714
-0.0012767 0.001517 -0.0012623 -0.00067072
0.0011601 -0.0034978 -0.0012687 0.00018165 0.0011264 0.0010603 0.23542 -0.049812
-0.00064856 0.0089041 -0.00030281 -0.0026264
-0.0014379 0.00074339 -0.0011154 0.00086472 -0.0012872 0.0015125 -0.00063475 0.0089024
0.23041 0.10057 0.0041799 0.0072574
0.00037085 -0.00041743 -0.00070205 0.0004548 -0.0012682 -0.00069054 -0.00029957 -0.0026828
0.0041863 0.007234 0.27493 0.1326
1820000000 0.25209 -0.10578 0.0043313 0.0022134 -0.00028923 0.0026195 -0.00097569 -0.0031905
-0.001032 0.0010856 -6.9574e-05 -2.8237e-05
0.0043292 0.002205 0.25747 0.17316 -0.00080084 -0.00048175 -0.0013068 0.00096606
-8.8438e-05 0.0012595 -0.00062221 0.00057562
-0.00028225 0.0026156 -0.00080888 -0.00047463 0.15965 -0.24399 0.0015406 0.00041546
-0.00017115 0.0024566 -0.0015395 0.0004544
-0.0010095 -0.0032174 -0.0012977 0.00097702 0.0015503 0.00042578 0.20512 -0.096933
0.00083557 0.0074357 -0.0017715 -0.0016638
-0.0010249 0.0010888 -7.723e-05 0.0012694 -0.00016454 0.0024651 0.00086244 0.0074383
0.24757 0.071429 0.0051304 0.003704
-5.6524e-05 -1.2517e-05 -0.00062426 0.00058407 -0.0015409 0.00047485 -0.0017844 -0.0016025
0.0051054 0.0037104 0.27691 0.095945
1880000000 0.217 -0.14632 0.0020079 1.7166e-05 -0.00068163 0.0023607 -0.0030323 -0.0021222
-0.00028645 0.0018479 2.6792e-05 -0.00064457
0.0020091 1.8833e-05 0.26215 0.12654 -0.0027991 0.0014769 -0.00024659 0.0017674
0.00052911 0.001387 7.5715e-05 0.00098691
-0.00066983 0.0023711 -0.0027927 0.0015064 0.10785 -0.25342 0.0017364 -0.00092541
0.0016333 0.0019975 -0.0010745 0.0013506
-0.00304 -0.002059 -0.00023127 0.0017902 0.0017321 -0.00093925 0.16439 -0.13695
0.0016854 0.0052355 -0.0024332 0.00028309
-0.00024889 0.0018565 0.00054955 0.0013897 0.0016418 0.0019774 0.0016976 0.0052213
0.25163 0.039836 0.0053228 0.0012066
3.5339e-05 -0.00065984 6.5754e-05 0.00096685 -0.001056 0.0013514 -0.0024035 0.00026054
0.0053543 0.0012023 0.27663 0.062281
1940000000 0.17773 -0.17167 -0.00046703 -0.001378 0.0014512 0.002425 -0.0036721 0.00032378
0.0014407 0.0010638 -0.00049727 -0.00059639
-0.00048437 -0.0013787 0.26284 0.09458 -0.0016542 0.0041625 0.0011583 0.0012424
0.0019762 0.00059931 0.0010854 0.00047227
0.0014464 0.0024235 -0.0016468 0.0041948 0.062137 -0.24616 0.00050288 -0.0022315
0.0024954 0.00025714 0.00061935 0.0016814
-0.0037127 0.00031691 0.001158 0.0012515 0.00049561 -0.0022208 0.11208 -0.1675
0.00094779 0.0036675 -0.0013077 0.0016461
0.0014223 0.0010506 0.0019946 0.00059173 0.0024821 0.00025399 0.00095877 0.0036655
0.25468 0.0012192 0.0042275 -0.0019972
-0.00051581 -0.00059683 0.0010866 0.00047918 0.00062691 0.0016967 -0.0013654 0.0016949
0.0041852 -0.0019633 0.26601 0.026057
2000000000 0.13154 -0.18653 -0.0043075 0.00084079 0.0027813 0.0017298 -0.0023691 0.0038959
0.0012439 0.00039049 -0.00059794 0.00046924
-0.0042854 0.00083987 0.24867 0.058938 -0.00103 0.0060927 0.0015959 0.00039045
0.0015067 -0.0011691 0.00064468 0.00013068
0.0028029 0.0017329 -0.0010047 0.0060936 0.018986 -0.2324 -0.0012063 -0.0013821
0.0020908 -0.0011439 0.0016402 0.0014745
-0.0023021 0.0039549 0.0015865 0.00040379 -0.0012123 -0.001391 0.058798 -0.17694
-0.00052134 0.0036967 -0.00021966 0.002236
0.0012768 0.00034377 0.001498 -0.0011622 0.0020899 -0.0011535 -0.00051811 0.0036867
0.24954 -0.032163 0.00082825 -0.0031794
