!Keysight Technologies,M9804A,MY58100912,A.14.10.03
!Date: Thursday, April 27, 2023 10:28:33
!Correction: S11(C  6-Port  ) 
!S12(C  6-Port  ) 
!S13(C  6-Port  ) 
!S14(C  6-Port  ) 
!S15(C  6-Port  ) 
!S16(C  6-Port  ) 
!S21(C  6-Port  ) 
!S22(C  6-Port  ) 
!S23(C  6-Port  ) 
!S24(C  6-Port  ) 
!S25(C  6-Port  ) 
!S26(C  6-Port  ) 
!S31(C  6-Port  ) 
!S32(C  6-Port  ) 
!S33(C  6-Port  ) 
!S34(C  6-Port  ) 
!S35(C  6-Port  ) 
!S36(C  6-Port  ) 
!S41(C  6-Port  ) 
!S42(C  6-Port  ) 
!S43(C  6-Port  ) 
!S44(C  6-Port  ) 
!S45(C  6-Port  ) 
!S46(C  6-Port  ) 
!S51(C  6-Port  ) 
!S52(C  6-Port  ) 
!S53(C  6-Port  ) 
!S54(C  6-Port  ) 
!S55(C  6-Port  ) 
!S56(C  6-Port  ) 
!S61(C  6-Port  ) 
!S62(C  6-Port  ) 
!S63(C  6-Port  ) 
!S64(C  6-Port  ) 
!S65(C  6-Port  ) 
!S66(C  6-Port  ) 
!S6P File: Measurement: :
# Hz S  RI   R 50
500000000 -0.33477 -0.052701 -0.01013 -0.0012414 -0.0085986 0.013399 -0.0034789 0.011717
0.01267 0.0053642 -0.0029494 0.0073904
-0.010022 -0.0011361 -0.41642 -0.063592 0.0077413 -0.010342 0.0012762 0.011251
0.0080512 0.0027987 0.0013879 0.013018
-0.0086001 0.013322 0.0076784 -0.010346 -0.26788 0.19991 0.0064505 0.0033973
-0.0018477 0.008477 0.00027101 0.01234
-0.0034872 0.01181 0.0012807 0.011391 0.0064935 0.003434 -0.33237 0.043009
-0.019328 -0.0041988 0.01619 0.025847
0.012749 0.0055571 0.0081965 0.0027458 -0.0018336 0.0084531 -0.019334 -0.0042443
-0.24932 -0.19489 -0.027496 0.0057893
-0.0029779 0.0078512 0.0015666 0.013181 0.00036888 0.012383 0.01601 0.025608
-0.027573 0.0056275 -0.27422 -0.11914
560000000 -0.32016 0.11379 -0.022928 -0.064383 -2.7716e-06 0.013613 0.0051691 0.010577
0.010962 0.0042439 0.010682 0.0087817
-0.022977 -0.064299 -0.37606 0.099103 -0.041783 -0.037627 0.013439 0.003271
-0.013071 -0.003482 0.0047861 -0.0011267
0.00011556 0.013472 -0.041908 -0.037638 -0.18586 0.25189 -0.00013577 -0.004846
0.017759 0.0054464 0.0075077 -0.005857
0.0053535 0.010515 0.013373 0.0033502 -0.00015346 -0.0048322 -0.3072 0.13573
0.0050431 -0.024183 0.0048412 -0.021822
0.011059 0.0043323 -0.012965 -0.0031407 0.017688 0.0056372 0.005349 -0.024156
-0.31339 -0.016535 0.008295 -0.048226
0.010558 0.0088082 0.0040735 -0.0011444 0.0076142 -0.0057663 0.0048018 -0.021784
0.008307 -0.047951 -0.33231 0.025099
620000000 -0.27735 0.092794 -0.02307 0.0089242 0.0042354 0.0094915 0.0081963 -0.0045262
0.0129 -0.0014046 0.00031815 -0.0019905
-0.023055 0.008892 -0.40382 0.049554 -0.018402 0.0011316 -0.0012215 -0.0017327
0.012451 -0.0059109 0.0017258 -0.002598
0.0042161 0.0095079 -0.018435 0.0011668 -0.15547 0.26106 -0.00061362 -0.0050518
-0.0023696 -0.0025769 0.0090665 -0.0029605
0.0082102 -0.0043433 -0.001221 -0.001743 -0.00060988 -0.0050816 -0.26707 0.1468
-0.038129 -0.019986 0.012439 0.027666
0.012715 -0.001656 0.0125 -0.0059531 -0.0023345 -0.0025547 -0.038093 -0.019838
-0.23105 -0.046196 -0.03909 0.01193
0.00051225 -0.0021134 0.001687 -0.0026181 0.0091793 -0.0029903 0.012377 0.027564
-0.039306 0.011946 -0.25087 -0.0064145
680000000 -0.23876 0.18467 -0.026143 -0.014044 0.0053039 0.0051254 0.001405 -0.0073874
-0.0016982 -0.012136 0.0056953 -0.0075141
-0.026134 -0.014042 -0.39012 0.15054 -0.032079 -0.0021012 -0.0012141 -0.0010616
-0.0014397 -0.0092105 -0.00083697 -0.0020525
0.0053083 0.0050861 -0.032107 -0.0020245 -0.10332 0.28108 -0.00054114 -0.00076097
-0.0014633 0.00029926 -0.0027534 -0.0095617
0.0013853 -0.0073879 -0.0011918 -0.00101 -0.00047986 -0.00072178 -0.22102 0.19731
-0.023666 -0.0070457 -0.0083404 -0.011805
-0.0015435 -0.011971 -0.0014614 -0.0091967 -0.0014241 0.00029408 -0.023741 -0.0070129
-0.27892 0.055773 -0.0082789 -0.0068738
0.0056088 -0.0073517 -0.00096901 -0.0019862 -0.0027585 -0.009515 -0.0084941 -0.011612
-0.0083011 -0.0068585 -0.25935 0.099124
740000000 -0.19338 0.17819 -0.038894 0.026738 0.014016 -0.0045251 -0.00043382 -0.0042201
-0.0051013 -0.0027846 -0.0061303 0.0030128
-0.038791 0.026689 -0.3354 0.16892 -0.036198 0.034772 -0.00017189 -0.0057721
-0.0129 0.0070032 -0.0015612 -0.0048756
0.013903 -0.0044969 -0.036131 0.034908 -0.069212 0.27851 -0.0022149 0.0032388
-0.0029721 -0.0063139 -0.0019313 0.0013025
-0.00040439 -0.004238 -0.00025302 -0.0058044 -0.0022553 0.0032387 -0.20409 0.20566
-0.042051 -0.007749 0.022329 0.015867
-0.0052245 -0.003083 -0.012813 0.0071565 -0.0029946 -0.0062165 -0.04211 -0.007656
-0.18043 0.083706 -0.040044 -0.00040239
-0.0059211 0.0029662 -0.0017872 -0.0050209 -0.0017668 0.0012851 0.022277 0.015824
-0.040081 -0.00048658 -0.24985 0.1041
800000000 -0.16163 0.22134 -0.022644 0.01605 0.0053884 -0.010435 -0.0044471 -0.0021428
-0.0048009 0.0023007 0.0040979 0.0001577
-0.022635 0.016042 -0.34085 0.23917 -0.0086663 0.033875 -0.0026903 0.0021176
-0.0016343 0.0027282 0.00053889 0.0050234
0.0053294 -0.010463 -0.0085741 0.033941 -0.030984 0.30195 0.00072292 0.0015474
-0.00017941 0.0036614 -0.0021247 0.00092158
-0.0044121 -0.0021121 -0.0026401 0.0021523 0.00076481 0.0015498 -0.17358 0.2325
-0.028549 0.013448 0.01369 -0.010196
-0.0046896 0.0023762 -0.0015894 0.0027273 -0.00017535 0.0036404 -0.02853 0.01351
-0.22089 0.11169 -0.017227 0.019959
0.0040428 0.00030333 0.0005787 0.0050673 -0.0021153 0.00084387 0.013632 -0.010265
-0.017208 0.020058 -0.24095 0.15155
860000000 -0.12696 0.24111 -0.017444 0.030309 -0.0027862 -0.010194 -0.0019164 0.00044167
0.004198 0.0056634 -0.0035671 -0.002275
-0.01747 0.030268 -0.29243 0.28195 0.0074966 0.03435 0.00017562 0.0020721
0.0037707 0.0010374 0.003489 0.0008468
-0.0028007 -0.010194 0.0076024 0.03437 0.016551 0.3103 -0.00063002 1.7109e-06
0.0023337 -0.001258 0.0016267 0.0044073
-0.0019699 0.00045302 0.0001837 0.0021225 -0.0006556 2.5911e-05 -0.13694 0.24303
-0.01754 0.017642 -0.0062634 -0.0086981
0.0041255 0.0056188 0.0037917 0.0010026 0.0023056 -0.001257 -0.017495 0.017634
-0.16337 0.16256 -0.023991 0.017732
-0.0035929 -0.0023281 0.0036233 0.00083256 0.0016614 0.0044434 -0.0061804 -0.0086897
-0.024037 0.017715 -0.18819 0.19706
920000000 -0.10307 0.26411 0.0047161 0.037997 -0.0092024 -0.0051056 -0.0019612 0.0016754
0.001685 0.0016593 0.0026651 -0.0016099
0.004701 0.037936 -0.26525 0.30305 0.028154 0.022669 0.0015979 0.0014341
0.0079193 -0.00023435 0.0042235 -0.0027971
-0.0092295 -0.0050805 0.028251 0.022617 0.061656 0.31166 0.0020202 0.00013227
0.0011593 -0.00034611 0.00068728 -0.0013334
-0.00192 0.0016385 0.0016086 0.0014278 0.0020388 0.00011572 -0.11266 0.25924
-0.010959 0.030168 0.0032676 -0.0069056
0.0017206 0.0017202 0.0079537 -0.00029412 0.001152 -0.00033597 -0.010906 0.030219
-0.15218 0.16706 -0.0015525 0.026103
0.0026641 -0.0015294 0.0042023 -0.0028764 0.00069301 -0.0013715 0.0032484 -0.0068962
-0.0015847 0.026053 -0.19631 0.21014
980000000 -0.056874 0.28396 0.016903 0.029759 -0.0095276 0.003976 0.0016324 0.0033946
0.0037975 -0.0019649 -0.0031246 -0.0021687
0.016872 0.029712 -0.21228 0.3378 0.03336 0.0053982 0.0020626 -7.5978e-05
0.0018306 -0.0062404 -0.0003254 -0.0024158
-0.0095072 0.0040112 0.033401 0.0053041 0.10739 0.30627 0.00068733 -0.0012269
0.00056683 -0.0020041 0.0013846 -0.00013819
0.0016059 0.0033808 0.0020626 -7.2049e-05 0.00067754 -0.0012199 -0.074611 0.27007
0.007224 0.029913 -0.0089941 -0.0070663
0.0038501 -0.0019342 0.0017803 -0.0062269 0.00053587 -0.0019993 0.0072354 0.029902
-0.11921 0.19763 0.0064847 0.01978
-0.0030915 -0.0022669 -0.00031742 -0.0023982 0.0013679 -0.00014004 -0.0090314 -0.0070633
0.0064909 0.019766 -0.15311 0.25287
1040000000 -0.015572 0.29306 0.032829 0.018882 -0.0016773 0.0069518 0.0024838 0.00098495
0.00032947 -0.0036078 -0.00028051 -0.0016927
0.03275 0.018842 -0.17768 0.35132 0.030082 -0.014585 0.0016104 -0.0017873
-0.0019339 -0.0028441 -0.00091427 -0.0030121
-0.0016442 0.006928 0.030051 -0.014698 0.15339 0.2934 -0.00045772 -0.0016786
-0.0016183 -0.00099727 -0.00061778 -0.0010637
0.0024733 0.00097015 0.0015878 -0.0017698 -0.00043871 -0.0016857 -0.047337 0.27972
0.019166 0.018738 -0.0025337 0.00091193
0.00036911 -0.0035228 -0.001975 -0.0027913 -0.0015727 -0.0010044 0.019205 0.018772
-0.085627 0.20287 0.014102 0.017859
-0.00030512 -0.001697 -0.00094907 -0.0030346 -0.0006386 -0.0010718 -0.0025577 0.0008459
0.014037 0.017918 -0.12963 0.2732
1100000000 0.029009 0.30237 0.036239 -0.0036351 0.0026247 0.004159 0.0025032 -0.0008967
-0.0021464 -0.0030156 -0.0039822 -2.0447e-05
0.036218 -0.0035976 -0.13475 0.36942 0.015994 -0.028043 0.00018429 -0.0018711
-0.0038467 -0.0010382 -0.003606 -0.00048059
0.0026552 0.0041767 0.015907 -0.028126 0.19956 0.27414 -0.0019895 4.1094e-05
-0.0018104 0.0004433 -0.0010409 -0.0002983
0.002512 -0.00091198 0.00018663 -0.0018684 -0.0019839 4.4396e-05 -0.0071153 0.28496
0.025018 0.0056935 -0.0023515 6.2854e-05
-0.0021975 -0.0029656 -0.0038741 -0.001019 -0.001816 0.00045643 0.025031 0.0056409
-0.065173 0.21593 0.019303 0.0083036
-0.0040152 -8.7416e-05 -0.003625 -0.00051461 -0.0010552 -0.00029832 -0.0023381 8.2421e-05
0.019292 0.0083045 -0.0841 0.30216
1160000000 0.079973 0.29855 0.024319 -0.020597 0.0026294 -0.00032711 1.8288e-05 -0.0023664
-0.0038411 -0.00093306 -0.0011421 0.0041676
0.024301 -0.02058 -0.091478 0.37432 -0.0033436 -0.029762 -0.0017161 -0.0017257
-0.0029118 0.0026591 -0.0016505 0.0019811
0.0026488 -0.00032417 -0.0034854 -0.02977 0.24302 0.24409 -0.00092492 0.0018189
-0.00067189 0.0020239 -0.00089782 0.00039161
6.3244e-06 -0.00234 -0.0017289 -0.0016799 -0.00092385 0.0018183 0.03192 0.28236
0.02155 -0.010539 -0.0034237 0.0051809
-0.0038085 -0.000859 -0.0029285 0.0027418 -0.00068061 0.0020207 0.021528 -0.010547
-0.030682 0.223 0.018202 -0.001134
-0.0010209 0.0041064 -0.0015662 0.0020578 -0.00090587 0.00036816 -0.0034501 0.0051858
0.01821 -0.0011432 -0.038029 0.30457
1220000000 0.12392 0.289 0.010905 -0.030139 -0.0016362 -0.00073178 0.00015759 -0.00093011
-0.0027055 0.0021194 0.0009553 0.0020656
0.010917 -0.030127 -0.047388 0.38763 -0.017071 -0.022054 -0.002701 0.00041864
-7.2553e-05 0.0033001 -0.00089172 0.0020002
-0.0016436 -0.00071797 -0.017192 -0.02201 0.28218 0.2055 0.00071775 0.0018876
0.00064324 0.0013638 0.00046303 0.00058346
0.00019373 -0.0009486 -0.0026998 0.00040878 0.0007241 0.0018985 0.071957 0.27405
0.011006 -0.017466 0.0018232 0.0014392
-0.002693 0.0021608 -8.2043e-05 0.0032674 0.00062699 0.0013534 0.010978 -0.017488
-0.0071977 0.23105 0.013828 -0.013479
0.00096908 0.0020617 -0.00088305 0.0020014 0.00045842 0.00058853 0.0018301 0.0014461
0.01383 -0.013471 -0.0053772 0.31879
1280000000 0.17427 0.26866 -0.0078826 -0.028727 -0.0019382 0.0027179 -0.0008478 -0.0021161
-0.00086663 0.0031888 0.0026362 0.0013698
-0.0078634 -0.028698 -0.001357 0.37972 -0.024407 -0.0090774 -0.0011163 0.0014965
0.0018182 0.0018563 0.00061338 0.0020225
-0.0019491 0.0027219 -0.024472 -0.0089824 0.31288 0.16201 0.0016572 8.0378e-05
0.0012576 0.00029102 0.00028497 0.0001236
-0.00089137 -0.0021332 -0.0010969 0.0015171 0.0016638 8.6541e-05 0.10907 0.25823
0.001039 -0.019816 -0.00016754 0.0004888
-0.00087415 0.0031993 0.0018564 0.0018426 0.0012526 0.00028909 0.0010103 -0.019785
0.029055 0.23404 0.0027108 -0.015622
0.0026738 0.0013699 0.00063711 0.0020356 0.00028165 0.00010144 -0.00015479 0.0004867
0.0027047 -0.015599 0.041261 0.32045
1340000000 0.21179 0.23587 -0.017777 -0.019064 0.00093684 0.0049457 -0.0018651 -0.00099504
0.0014292 0.0027471 0.0017598 -0.0013731
-0.01775 -0.01904 0.038399 0.37218 -0.022274 0.0042381 -0.00011272 0.0021084
0.0021834 0.00074305 0.0011664 0.00082424
0.00094337 0.0049479 -0.022278 0.0043599 0.33496 0.11481 0.0012108 -0.00094004
0.0006375 -0.00071651 -4.6427e-05 0.00019119
-0.0018321 -0.001007 -0.00010555 0.0021063 0.0012073 -0.00093374 0.14251 0.23748
-0.008711 -0.017064 0.00075096 0.0006801
0.0014558 0.0027559 0.0022013 0.00073833 0.0006434 -0.00072239 -0.0087686 -0.017039
0.05873 0.22934 -0.0043738 -0.014215
0.0017672 -0.0013665 0.0011798 0.00080341 -2.8779e-05 0.00018487 0.00076032 0.00069511
-0.0043775 -0.01424 0.079172 0.31487
1400000000 0.24581 0.19875 -0.023649 -0.0073288 0.005592 0.0035159 -0.0023356 0.00067481
0.0024908 0.0009777 0.00032661 -0.0016323
-0.023614 -0.0073596 0.076151 0.35996 -0.015488 0.012829 0.0014408 0.0013645
0.0013174 -0.00089024 0.0011885 7.6205e-05
0.0056096 0.0034725 -0.015451 0.012916 0.3481 0.062135 5.0145e-05 -0.0017249
8.7802e-05 -0.00043149 0.00028901 0.00020006
-0.0023356 0.00067452 0.0014516 0.0013532 6.8367e-05 -0.0017219 0.17224 0.20848
-0.014942 -0.010091 -0.00074832 -9.1841e-05
0.002479 0.000966 0.0013068 -0.00089175 8.4275e-05 -0.00044519 -0.014973 -0.010064
0.091688 0.22489 -0.010742 -0.0087351
0.00030975 -0.0016324 0.0011886 9.6072e-05 0.00029674 0.00019158 -0.00073771 -0.00011388
-0.010714 -0.0087356 0.12331 0.30343
1460000000 0.26954 0.15521 -0.02038 0.005022 0.0061011 -0.001784 -0.0016363 0.0018279
0.00227 -0.00045572 -0.00044207 -0.0010683
-0.020351 0.0050173 0.11099 0.33833 -0.0062694 0.01613 0.0017505 0.00012892
0.0008529 -0.0014343 0.0012948 -0.00058206
0.0061102 -0.0018237 -0.0061968 0.016183 0.35501 0.0084621 -0.0013056 -0.0013702
5.3341e-05 -0.00018138 0.00066045 -0.00026607
-0.0016122 0.0018227 0.0017451 0.00012003 -0.0013089 -0.0013755 0.1991 0.1789
-0.016256 -0.0031271 -0.00065656 0.0020897
0.0022469 -0.00045317 0.00084121 -0.0014438 5.0486e-05 -0.0001876 -0.016269 -0.0030889
0.12108 0.21076 -0.012472 -0.0025632
-0.00043161 -0.0010813 0.0012872 -0.00058621 0.00065852 -0.0002793 -0.00065234 0.0020826
-0.012485 -0.0025731 0.15635 0.28291
1520000000 0.28254 0.11351 -0.014565 0.010447 0.0036585 -0.0045429 0.00015337 0.002639
0.002167 -0.0019492 -0.0012346 -0.00019992
-0.01457 0.010432 0.14484 0.32392 0.0018856 0.013715 0.0016581 -0.00089078
-1.1546e-05 -0.0011643 0.0003413 -0.0010404
0.0036299 -0.0045526 0.001958 0.013727 0.34882 -0.04722 -0.0011572 -0.00037473
0.00070346 -0.0008784 6.7764e-05 -0.00034339
0.00015509 0.0026411 0.0016597 -0.00089852 -0.0011504 -0.00037231 0.22219 0.14025
-0.01553 0.0029297 0.0016355 0.002119
0.0021739 -0.001964 -6.7751e-06 -0.0011675 0.00069806 -0.00088409 -0.015537 0.00296
0.14941 0.19758 -0.012134 0.0020068
-0.0012211 -0.00017119 0.00033154 -0.0010399 5.5158e-05 -0.00034553 0.0016115 0.0021133
-0.012134 0.0019966 0.18877 0.26217
1580000000 0.2927 0.067331 -0.0077593 0.013543 -0.00090306 -0.0053877 0.001615 0.001949
-0.00016427 -0.0022505 -0.00024515 0.00038231
-0.0077567 0.013518 0.17253 0.29934 0.0057844 0.0084889 0.00043944 -0.0016124
-0.00063265 -0.0010774 -0.00017099 -0.00087438
-0.00091082 -0.0053774 0.0058428 0.0084694 0.32976 -0.10463 -0.0017364 0.00069548
-0.00041957 -0.0013044 0.00024163 -0.00055604
0.0016072 0.0019281 0.00044328 -0.0016012 -0.001768 0.00069039 0.23592 0.10067
-0.011867 0.0081 0.0022934 0.00062186
-0.00016688 -0.0022492 -0.00065486 -0.001075 -0.0004285 -0.0012872 -0.011831 0.0081401
0.17379 0.17974 -0.0093849 0.0077499
-0.00024691 0.00040861 -0.00018299 -0.00088721 0.0002303 -0.00059327 0.0023141 0.00062093
-0.009392 0.0077325 0.22053 0.23534
1640000000 0.29526 0.025935 -0.0010614 0.012175 -0.0031287 -0.0029472 0.0027973 0.0010644
-0.00083501 -0.001696 -0.00039437 0.00057964
-0.0010715 0.012166 0.20239 0.27448 0.0064385 0.0033572 -0.000667 -0.001778
-0.00099454 -0.00039651 -0.00056217 -0.00073782
-0.0031613 -0.0029549 0.0064761 0.0033261 0.30201 -0.15431 -0.00065954 0.0014845
-0.0011814 -0.00096344 -0.00018984 -0.00030837
0.0028074 0.0010339 -0.00067893 -0.0017802 -0.00064027 0.0014641 0.24814 0.051476
-0.0073147 0.0095539 0.0025981 -0.00085423
-0.0008438 -0.0016898 -0.0010046 -0.00037908 -0.0011844 -0.00094799 -0.0073125 0.0095682
0.19738 0.15573 -0.0045361 0.0097848
-0.00039666 0.00056136 -0.00055464 -0.00071961 -0.00020033 -0.00027325 0.0026144 -0.00088016
-0.004529 0.0097888 0.24588 0.20443
1700000000 0.28831 -0.019472 0.0022594 0.0091702 -0.004007 -8.3645e-05 0.0032039 -0.0013454
-0.0020234 -0.00064898 0.00053208 0.00044225
0.0022537 0.0091676 0.22071 0.24309 0.0041761 0.00016227 -0.001496 -0.00057755
-0.00078118 3.9793e-05 -0.00098331 -0.00049044
-0.0040017 -8.2802e-05 0.0041839 0.00014103 0.25876 -0.19461 0.00052357 0.0016143
-0.0019728 -0.00012902 -0.0004553 -0.00081241
0.0031902 -0.0013629 -0.001488 -0.0005562 0.00052394 0.0016015 0.24447 0.0015696
-0.0041986 0.0099459 0.0016291 -0.0023799
-0.0020419 -0.00063112 -0.0007915 4.115e-05 -0.0019652 -0.00012159 -0.0041708 0.009964
0.2149 0.13524 0.00024996 0.0099628
0.00052883 0.00048308 -0.0010084 -0.00046519 -0.00045543 -0.00078135 0.001589 -0.0023678
0.0002488 0.0099589 0.26205 0.17015
1760000000 0.27662 -0.068326 0.0045036 0.0058194 -0.0025023 0.0011451 0.0012677 -0.0034953
-0.0014413 0.00074348 0.000318 -0.00042324
0.0044913 0.0058149 0.24713 0.20339 0.0017107 -0.0017246 -0.0012452 0.00019194
-0.0011202 0.00086287 -0.00068517 0.00045644
-0.0024927 0.0011667 0.0017039 -0.0017293 0.21068 -0.22807 0.0011448 0.0010872
-0.0013348 0.001533 -0.0012575 -0.00060133
0.0012555 -0.0034828 -0.0012456 0.00019754 0.0011442 0.0011022 0.23534 -0.049798
-0.00068191 0.0088836 -0.00023316 -0.0025948
-0.001443 0.00077075 -0.0011226 0.00087417 -0.0013464 0.0015468 -0.00068749 0.0088878
0.23031 0.10058 0.0041542 0.0073261
0.000312 -0.00046843 -0.00066248 0.00045466 -0.0012841 -0.00062854 -0.00021879 -0.0026173
0.0041596 0.007323 0.27488 0.13279
1820000000 0.2522 -0.10577 0.0043443 0.0022722 -0.00028387 0.00265 -0.001028 -0.0031845
-0.0010454 0.0010586 2.3215e-06 2.439e-05
0.004336 0.0022636 0.25743 0.17318 -0.00075637 -0.00046768 -0.001322 0.00094414
-8.8016e-05 0.0012497 -0.00065253 0.00061706
-0.00026825 0.0026821 -0.00075716 -0.00046687 0.15991 -0.24377 0.0015659 0.00035879
-6.3026e-05 0.002436 -0.0015277 0.00047906
-0.0010551 -0.0031743 -0.0013093 0.00095604 0.0015965 0.00034295 0.20521 -0.096967
0.00086176 0.0074322 -0.0018329 -0.0016056
-0.0010343 0.001067 -6.1492e-05 0.0012511 -7.6642e-05 0.0024498 0.00089401 0.0074363
0.24755 0.071442 0.0050671 0.0036357
-3.0715e-05 1.7404e-05 -0.00066395 0.00063039 -0.0014909 0.0005486 -0.0018666 -0.0015923
0.0050742 0.0036473 0.27673 0.096201
1880000000 0.2169 -0.1462 0.0019911 -5.3326e-06 -0.00061752 0.0023411 -0.0029606 -0.0020753
-0.00020896 0.0018447 8.732e-06 -0.00069066
0.0020039 -7.9102e-06 0.26212 0.12661 -0.0028055 0.0015228 -0.00021205 0.0017806
0.0005302 0.0014095 6.282e-05 0.00095963
-0.00060722 0.00233 -0.0028084 0.0015437 0.10773 -0.25337 0.0017437 -0.00088068
0.0015497 0.0020224 -0.0010745 0.0013472
-0.003023 -0.0020616 -0.00021688 0.0017786 0.0017203 -0.00086398 0.16431 -0.13676
0.0017119 0.0052175 -0.0023662 0.00017549
-0.00021567 0.0018455 0.00054343 0.0013906 0.001575 0.0020179 0.0016955 0.0052516
0.25155 0.039902 0.0053828 0.0011968
7.5805e-05 -0.00069289 9.3075e-05 0.00096976 -0.0010609 0.0013296 -0.0023474 0.00018283
0.0053799 0.0011855 0.27673 0.062196
1940000000 0.17776 -0.17165 -0.00050888 -0.0014299 0.0014444 0.0023641 -0.0038214 0.00041964
0.0013615 0.0010722 -0.00047128 -0.00059796
-0.00049736 -0.001411 0.26281 0.094643 -0.0016553 0.0041684 0.0011216 0.0012931
0.0019646 0.00057459 0.0010439 0.0004284
0.0014427 0.0023887 -0.0016172 0.0041732 0.062297 -0.24609 0.00045811 -0.0022734
0.0025064 0.00024313 0.00061631 0.0016779
-0.0038258 0.00040873 0.0011636 0.0012841 0.00044287 -0.0022712 0.11222 -0.1673
0.00094216 0.0037849 -0.0014527 0.0017174
0.0014046 0.0010444 0.0019775 0.00056466 0.0024853 0.00025901 0.00097096 0.0037762
0.25461 0.0013329 0.0041009 -0.0020383
-0.00048232 -0.00059653 0.0010393 0.00043625 0.00060526 0.0016877 -0.0014782 0.0016864
0.004109 -0.0020284 0.26598 0.026134
2000000000 0.13163 -0.18648 -0.0042582 0.00088807 0.0028416 0.0017435 -0.0022403 0.0038342
0.0012583 0.00037794 -0.00074385 0.00040824
-0.0042677 0.00087622 0.24862 0.059021 -0.0010398 0.0060797 0.0016238 0.000444
0.0014512 -0.0011198 0.00058389 4.5129e-05
0.0028975 0.0017443 -0.0010068 0.006079 0.019168 -0.23231 -0.0012166 -0.0014006
0.0020922 -0.0011364 0.0017014 0.0014453
-0.0022198 0.0038658 0.001615 0.00047583 -0.001214 -0.0013671 0.058631 -0.1769
-0.00052983 0.0035706 -0.00020478 0.0022631
0.001227 0.00036912 0.0014331 -0.0011368 0.0020917 -0.0011161 -0.00051443 0.0035624
0.24958 -0.032092 0.00085084 -0.0031723
