!Keysight Technologies,M9804A,MY58100912,A.14.10.03
!Date: Thursday, April 27, 2023 10:28:33
!Correction: S11(C  6-Port  ) 
!S12(C  6-Port  ) 
!S13(C  6-Port  ) 
!S14(C  6-Port  ) 
!S15(C  6-Port  ) 
!S16(C  6-Port  ) 
!S21(C  6-Port  ) 
!S22(C  6-Port  ) 
!S23(C  6-Port  ) 
!S24(C  6-Port  ) 
!S25(C  6-Port  ) 
!S26(C  6-Port  ) 
!S31(C  6-Port  ) 
!S32(C  6-Port  ) 
!S33(C  6-Port  ) 
!S34(C  6-Port  ) 
!S35(C  6-Port  ) 
!S36(C  6-Port  ) 
!S41(C  6-Port  ) 
!S42(C  6-Port  ) 
!S43(C  6-Port  ) 
!S44(C  6-Port  ) 
!S45(C  6-Port  ) 
!S46(C  6-Port  ) 
!S51(C  6-Port  ) 
!S52(C  6-Port  ) 
!S53(C  6-Port  ) 
!S54(C  6-Port  ) 
!S55(C  6-Port  ) 
!S56(C  6-Port  ) 
!S61(C  6-Port  ) 
!S62(C  6-Port  ) 
!S63(C  6-Port  ) 
!S64(C  6-Port  ) 
!S65(C  6-Port  ) 
!S66(C  6-Port  ) 
!S6P File: Measurement: :
# Hz S  RI   R 50
500000000 -0.33482 -0.053465 -0.009926 -0.0010261 -0.0084523 0.013134 -0.0039621 0.012401
0.012156 0.0057605 -0.0036135 0.0088615
-0.010205 -0.0010428 -0.4163 -0.063456 0.0077491 -0.010791 0.0012795 0.012468
0.00812 0.0030204 0.0014281 0.013987
-0.0084821 0.013544 0.0077438 -0.010772 -0.26798 0.19937 0.0070913 0.0037708
-0.0017532 0.0085044 0.00066864 0.01232
-0.0038274 0.012365 0.0011995 0.012458 0.0069609 0.0038776 -0.33269 0.042661
-0.018925 -0.0039557 0.016127 0.02444
0.012202 0.0050163 0.0079449 0.0028457 -0.00179 0.0085866 -0.018891 -0.0039776
-0.25011 -0.19626 -0.026272 0.0049979
-0.0037319 0.0082562 0.0011345 0.014523 0.0010018 0.012822 0.016248 0.024666
-0.026402 0.0054673 -0.27284 -0.12191
560000000 -0.31987 0.11379 -0.02268 -0.065743 0.00060932 0.013434 0.0054176 0.011371
0.011094 0.0045503 0.0098481 0.0075358
-0.022302 -0.065274 -0.37619 0.098769 -0.041669 -0.037432 0.013271 0.0038206
-0.013664 -0.0032116 0.0032447 -0.0021288
0.00014908 0.013515 -0.041824 -0.037405 -0.18624 0.25164 -0.0001664 -0.0048198
0.018513 0.0048831 0.0080153 -0.0053749
0.0050789 0.011081 0.013191 0.0038071 -0.00027569 -0.0050063 -0.30701 0.13574
0.0050788 -0.023509 0.0045782 -0.021187
0.011838 0.00475 -0.013695 -0.0034407 0.018169 0.0050411 0.0051798 -0.023952
-0.31115 -0.015581 0.0075962 -0.046698
0.0098562 0.0085181 0.0041608 -0.0023789 0.0081295 -0.0050816 0.005015 -0.02121
0.0078304 -0.047094 -0.33272 0.024175
620000000 -0.27733 0.093643 -0.022822 0.0091294 0.0041228 0.0096811 0.0082775 -0.0045463
0.012637 -0.0011963 0.00083982 -0.0024836
-0.022743 0.0091025 -0.40368 0.049439 -0.018368 0.0010667 -0.0012976 -0.001809
0.012403 -0.0059212 0.0013291 -0.0031884
0.0041232 0.0095403 -0.018395 0.0011119 -0.1556 0.2609 -0.00058489 -0.0052025
-0.0029055 -0.0028176 0.0090899 -0.0027877
0.007832 -0.0042092 -0.0014243 -0.0017382 -0.00049964 -0.0050279 -0.26673 0.14638
-0.038811 -0.020292 0.013234 0.027154
0.012802 -0.00077369 0.012584 -0.0058085 -0.0026246 -0.002545 -0.038103 -0.01916
-0.23306 -0.046537 -0.040562 0.013271
0.00089815 -0.0024747 0.001387 -0.002926 0.0090992 -0.0026436 0.012973 0.027042
-0.040802 0.013191 -0.25114 -0.0064871
680000000 -0.23899 0.1847 -0.026202 -0.014339 0.00535 0.0049397 0.0012623 -0.0077519
-0.0020697 -0.01174 0.0046548 -0.0072592
-0.026175 -0.014286 -0.39018 0.15016 -0.032171 -0.0021194 -0.0014053 -0.00089148
-0.0013516 -0.0093927 -0.0011548 -0.0023448
0.0054361 0.0049326 -0.03223 -0.0020428 -0.10343 0.28106 -0.00060338 -0.00047183
-0.0014476 0.00027284 -0.0030311 -0.0092406
0.0018731 -0.0080083 -0.0012384 -0.00087057 -0.00057953 -0.00054406 -0.22084 0.19788
-0.02324 -0.0070145 -0.0093522 -0.011764
-0.0022041 -0.011655 -0.0015152 -0.0093533 -0.0014904 0.00030081 -0.023518 -0.0072643
-0.27912 0.055214 -0.0084007 -0.0075147
0.0048014 -0.0077468 -0.001059 -0.0024524 -0.0030012 -0.0092798 -0.0094757 -0.011824
-0.0082741 -0.0077192 -0.26026 0.097249
740000000 -0.19263 0.17779 -0.038979 0.026824 0.013823 -0.0047742 -0.00010818 -0.0043859
-0.0052881 -0.0031768 -0.0050992 0.0028679
-0.039029 0.026832 -0.33531 0.16839 -0.03645 0.034783 0.00010095 -0.0061157
-0.012573 0.0071332 -0.00091546 -0.005703
0.013779 -0.0048853 -0.036373 0.034912 -0.069036 0.2782 -0.0020877 0.0031367
-0.0031332 -0.006336 -0.0012564 0.0013816
3.6145e-05 -0.0040498 5.789e-05 -0.0059406 -0.0021915 0.0031338 -0.20402 0.20534
-0.042338 -0.0075798 0.022916 0.015864
-0.005483 -0.0028226 -0.012597 0.0072848 -0.0030079 -0.0062641 -0.042587 -0.0074168
-0.17941 0.084486 -0.041201 -0.00016312
-0.005253 0.0030742 -0.001065 -0.0056018 -0.0016082 0.0015327 0.02277 0.01578
-0.041007 9.7672e-05 -0.24826 0.10355
800000000 -0.16176 0.22171 -0.022617 0.016065 0.0054151 -0.010504 -0.0047384 -0.0021234
-0.005128 0.0022515 0.0037127 0.00054643
-0.022638 0.016119 -0.34097 0.23919 -0.0087043 0.033853 -0.0026152 0.0021647
-0.0017643 0.0028448 0.00047497 0.0054278
0.005341 -0.010453 -0.0086178 0.033926 -0.031066 0.30194 0.0006571 0.001637
-0.00025197 0.0036692 -0.0022671 0.00097572
-0.0047573 -0.0022576 -0.0026625 0.0020844 0.00071441 0.0015688 -0.17376 0.23243
-0.02847 0.01379 0.013666 -0.010414
-0.0051542 0.0026083 -0.0017283 0.0028372 -0.00016138 0.0036223 -0.02835 0.0139
-0.22132 0.11163 -0.017432 0.020495
0.0038827 0.00053037 0.00050087 0.0052295 -0.002132 0.00086678 0.013711 -0.010279
-0.017532 0.020473 -0.24093 0.15173
860000000 -0.12678 0.24114 -0.017525 0.030344 -0.0027148 -0.01027 -0.0016149 0.00028315
0.0041837 0.0055617 -0.0035482 -0.0025459
-0.017583 0.030266 -0.29252 0.28211 0.0074508 0.034401 0.00028056 0.0019843
0.0035477 0.001119 0.0033762 0.00066004
-0.0028143 -0.0103 0.0075487 0.034414 0.016452 0.31024 -0.00063603 -3.3747e-05
0.0024068 -0.0012283 0.0016508 0.0042444
-0.0017969 0.00035216 0.00019331 0.001953 -0.00071621 -8.2492e-05 -0.13689 0.24269
-0.017582 0.017732 -0.0060475 -0.0086722
0.0041995 0.0056597 0.0035758 0.0010326 0.0024807 -0.0012729 -0.017631 0.017512
-0.16341 0.1623 -0.024131 0.017391
-0.0038986 -0.0025378 0.0033415 0.00085381 0.0015059 0.0043905 -0.0062097 -0.008466
-0.024152 0.017521 -0.18923 0.19653
920000000 -0.10295 0.26411 0.0047503 0.037956 -0.0091467 -0.0051889 -0.0020368 0.0017783
0.0016398 0.0018544 0.0026435 -0.0014901
0.0046539 0.037921 -0.26515 0.30301 0.028125 0.022674 0.0015943 0.0014697
0.0078746 -5.34e-05 0.0042895 -0.0029734
-0.0091276 -0.005154 0.028233 0.022598 0.061541 0.31166 0.0020218 0.00020804
0.0012465 -0.00034163 0.00069729 -0.0013503
-0.001939 0.0016388 0.0016832 0.0013878 0.0020773 0.000123 -0.11266 0.25926
-0.010786 0.030461 0.0033016 -0.0072033
0.0016484 0.0018125 0.0079252 -9.3591e-05 0.0012537 -0.0004149 -0.010608 0.030466
-0.15235 0.167 -0.0016775 0.026492
0.0027686 -0.0015699 0.0042296 -0.0029759 0.00073816 -0.0014157 0.0033303 -0.0071007
-0.0015985 0.026469 -0.19663 0.20984
980000000 -0.057158 0.28392 0.017022 0.029866 -0.0094894 0.0040016 0.0017933 0.0034287
0.0037866 -0.0017736 -0.0027685 -0.0023059
0.016927 0.029784 -0.21229 0.33783 0.033345 0.0054564 0.002002 -0.00017579
0.0017871 -0.0062569 -0.00016212 -0.0023311
-0.0095163 0.0040405 0.033424 0.00535 0.10737 0.30629 0.00069301 -0.0012594
0.00055043 -0.0020602 0.0014409 -0.00020276
0.0016659 0.0033794 0.0020515 -0.00012402 0.00067241 -0.0012411 -0.074493 0.27001
0.0073602 0.029979 -0.0087026 -0.006837
0.0038537 -0.0018015 0.0017623 -0.0061956 0.00056258 -0.0020458 0.0073866 0.029924
-0.11904 0.1978 0.0064543 0.019915
-0.0028776 -0.0023712 -0.00014962 -0.0023737 0.001443 -0.00018328 -0.0087172 -0.0069114
0.0063362 0.019841 -0.15271 0.25306
1040000000 -0.015772 0.29297 0.032864 0.019047 -0.0017012 0.006913 0.0024849 0.0010263
0.00035432 -0.0034667 -0.00010584 -0.0015907
0.032799 0.018994 -0.17768 0.35129 0.030106 -0.014547 0.0015974 -0.0017251
-0.0019558 -0.0028065 -0.00087104 -0.0030577
-0.0016587 0.0069292 0.030094 -0.014695 0.15331 0.29342 -0.00045621 -0.0016595
-0.0015904 -0.00094681 -0.00057259 -0.0010112
0.0025193 0.00085283 0.0016043 -0.0016994 -0.00043995 -0.0017044 -0.047116 0.27983
0.019438 0.018797 -0.0026186 0.00081338
0.00038888 -0.0034709 -0.0019521 -0.0028074 -0.0015579 -0.0009405 0.019466 0.018773
-0.085539 0.20321 0.01411 0.017805
-5.9591e-05 -0.0015169 -0.00088831 -0.0029991 -0.00056321 -0.001023 -0.0025324 0.00079997
0.014245 0.017881 -0.12992 0.27347
1100000000 0.028958 0.30244 0.036276 -0.0035948 0.0027102 0.0041437 0.0025407 -0.00093362
-0.0022197 -0.0030329 -0.0040397 -0.00016215
0.036256 -0.0035826 -0.13476 0.36934 0.016037 -0.028047 0.00016747 -0.0018827
-0.003936 -0.0011124 -0.0036535 -0.00057377
0.0027032 0.0041641 0.015955 -0.028143 0.19949 0.27414 -0.0019799 2.5727e-05
-0.0018575 0.00043009 -0.0010267 -0.00035128
0.0025092 -0.00089954 0.00011766 -0.001874 -0.0019701 2.2619e-05 -0.0071894 0.28492
0.025207 0.0056132 -0.0025343 2.851e-05
-0.0021606 -0.0030743 -0.0039427 -0.0010767 -0.0018342 0.00042574 0.025248 0.0055442
-0.065053 0.21583 0.019322 0.0082085
-0.0040388 -0.00016645 -0.0036668 -0.00051398 -0.0010599 -0.00031692 -0.0025011 6.783e-05
0.019312 0.0081943 -0.084378 0.30224
1160000000 0.079739 0.29851 0.02428 -0.020611 0.0026017 -0.00036314 -5.3924e-05 -0.0022673
-0.003862 -0.00093441 -0.0011293 0.0041286
0.024246 -0.020589 -0.091585 0.37431 -0.0033625 -0.029784 -0.0016875 -0.0016298
-0.0028781 0.0026268 -0.0015691 0.0018575
0.0026238 -0.00037468 -0.0034679 -0.029819 0.24297 0.24411 -0.00095626 0.0018694
-0.00067881 0.0020774 -0.0008682 0.00038436
1.0684e-05 -0.0023212 -0.001746 -0.0016785 -0.00094095 0.0018393 0.032044 0.2824
0.02156 -0.010686 -0.0033664 0.0050049
-0.0039172 -0.00092368 -0.0028738 0.0026249 -0.00070703 0.0020329 0.021658 -0.010646
-0.030341 0.22271 0.018684 -0.0011848
-0.0010625 0.0040343 -0.0015938 0.0019133 -0.0009351 0.00040235 -0.0033017 0.0048863
0.01861 -0.0011489 -0.038039 0.3045
1220000000 0.12388 0.28918 0.010936 -0.030169 -0.0016336 -0.00077474 0.00018691 -0.00096549
-0.0027549 0.0022545 0.0009655 0.002112
0.010959 -0.030137 -0.04752 0.38753 -0.017073 -0.022087 -0.0027128 0.00041703
-0.00011036 0.0033384 -0.00085444 0.0020564
-0.0016431 -0.00076322 -0.017181 -0.022038 0.28209 0.20558 0.00070763 0.0018751
0.00067771 0.0013294 0.00043612 0.00057109
0.00021669 -0.00085663 -0.0026999 0.00041215 0.00074232 0.0018659 0.071907 0.27395
0.011071 -0.017567 0.0017186 0.0014734
-0.002722 0.0022342 -0.00014305 0.0033604 0.0006983 0.0013684 0.011108 -0.017617
-0.0070169 0.23089 0.013951 -0.013666
0.0010531 0.0021146 -0.00086208 0.0020828 0.0004535 0.00053676 0.0017296 0.0014469
0.014004 -0.013653 -0.0053898 0.31899
1280000000 0.17422 0.26869 -0.0078551 -0.028791 -0.0019904 0.0027025 -0.00086838 -0.0020902
-0.00085673 0.0031959 0.0026526 0.0013848
-0.0078516 -0.028756 -0.0014346 0.37971 -0.024414 -0.0091041 -0.0010484 0.0015224
0.0018794 0.0019232 0.00060575 0.0020522
-0.0019433 0.0027074 -0.024488 -0.0089957 0.31289 0.16204 0.001628 7.7871e-05
0.0012649 0.00031155 0.00031965 0.00011275
-0.00083534 -0.0021277 -0.0010588 0.0015632 0.0016488 4.6e-05 0.10913 0.25822
0.00099176 -0.019943 -0.00026743 0.00030123
-0.00084764 0.0032466 0.0018988 0.0018792 0.0012496 0.00030979 0.00092648 -0.019924
0.028946 0.23366 0.002651 -0.015703
0.0026143 0.0013839 0.00067561 0.00205 0.00029507 0.00011667 -0.00025869 0.00034743
0.0027119 -0.015757 0.040996 0.32051
1340000000 0.21182 0.23592 -0.017759 -0.019121 0.00089009 0.0049115 -0.0018174 -0.0010191
0.0013739 0.002751 0.0017274 -0.0013269
-0.017733 -0.019126 0.038322 0.37219 -0.022288 0.0042169 -9.9909e-05 0.0021239
0.0021956 0.00078544 0.001237 0.00077053
0.00090964 0.0049025 -0.0223 0.0043278 0.33496 0.11482 0.0012015 -0.00096593
0.00065653 -0.00070863 -2.0069e-05 0.00017866
-0.0018107 -0.00094248 -7.4932e-05 0.0021312 0.0012312 -0.00096639 0.14243 0.23744
-0.0088563 -0.017155 0.00064843 0.0007519
0.0014747 0.0027341 0.0021957 0.00077531 0.00065476 -0.00071206 -0.0089091 -0.017187
0.058633 0.22918 -0.0043879 -0.014483
0.0017702 -0.001306 0.0012288 0.00077419 -3.0851e-05 0.00018352 0.00068296 0.00073669
-0.0043939 -0.014475 0.079142 0.31505
1400000000 0.24582 0.19883 -0.023634 -0.0073496 0.0055832 0.0035362 -0.0023468 0.0006747
0.0025103 0.00099262 0.00031189 -0.001571
-0.023612 -0.0073693 0.076042 0.35995 -0.015527 0.012824 0.001459 0.0013645
0.0013806 -0.0008844 0.0011627 9.1286e-05
0.0056117 0.003527 -0.015491 0.012917 0.34806 0.06218 4.2972e-05 -0.0017162
0.00013507 -0.00041824 0.00033173 0.00018014
-0.00233 0.00064955 0.001428 0.0013567 5.4346e-05 -0.0017399 0.17217 0.2085
-0.015097 -0.010097 -0.00072666 -5.2005e-05
0.0024618 0.00099552 0.0013837 -0.0008857 0.00012454 -0.00043794 -0.01511 -0.010076
0.09142 0.22472 -0.010884 -0.008789
0.00025904 -0.0016387 0.0012002 9.4583e-05 0.00035022 0.00016134 -0.00080266 -7.3136e-05
-0.010836 -0.0087401 0.1233 0.30322
1460000000 0.26953 0.15524 -0.020414 0.0049812 0.0060934 -0.0018169 -0.0016153 0.0018337
0.0022402 -0.00040814 -0.00042078 -0.001113
-0.020388 0.0049735 0.11093 0.33839 -0.006293 0.016145 0.0017488 0.00012108
0.00087763 -0.001479 0.0012604 -0.0005861
0.0060939 -0.0018461 -0.0062235 0.016199 0.35506 0.0084921 -0.0012798 -0.0014156
0.00012505 -0.00022488 0.00066556 -0.00020268
-0.0016829 0.0018416 0.0017647 0.00011214 -0.0013005 -0.001402 0.19895 0.17893
-0.016525 -0.0030956 -0.00062228 0.0022092
0.0022589 -0.00044402 0.00085059 -0.0014842 0.00012075 -0.00021208 -0.016512 -0.0030545
0.12076 0.21064 -0.012739 -0.0026385
-0.00039339 -0.0010305 0.0012121 -0.00058065 0.00069504 -0.00020632 -0.00060429 0.002238
-0.012755 -0.0026157 0.15635 0.28284
1520000000 0.28252 0.11348 -0.014611 0.010436 0.0037045 -0.0045212 0.00014246 0.0026267
0.0022185 -0.0020244 -0.0012508 -0.00021776
-0.014612 0.010405 0.14476 0.32394 0.0018581 0.013716 0.0016737 -0.00087526
-5.4939e-05 -0.001165 0.00031617 -0.0010582
0.0036786 -0.0045324 0.0019327 0.01372 0.34874 -0.047179 -0.0011766 -0.00035085
0.00069286 -0.00088973 5.5464e-05 -0.0002839
0.00020964 0.0026075 0.0016364 -0.00089034 -0.0011737 -0.00036508 0.22214 0.14034
-0.015659 0.0031196 0.0016547 0.0021727
0.0021786 -0.0020043 -4.476e-05 -0.0011515 0.00067392 -0.00088623 -0.01566 0.0031848
0.14895 0.19757 -0.012241 0.0021177
-0.0012488 -0.00020031 0.00033406 -0.0010477 5.9501e-05 -0.00029603 0.0016849 0.0021747
-0.012217 0.0020986 0.18862 0.26216
1580000000 0.29265 0.067387 -0.0077898 0.013511 -0.0008877 -0.0054051 0.0016062 0.0019984
-0.0001901 -0.0022367 -0.00027664 0.00034188
-0.0077815 0.013507 0.17247 0.29936 0.0057715 0.008538 0.00044424 -0.0015971
-0.00061053 -0.0010459 -0.00020906 -0.00087349
-0.00090537 -0.0053856 0.0058334 0.0085145 0.32968 -0.10455 -0.0017344 0.00067853
-0.0004191 -0.0012837 0.00022891 -0.00067078
0.0015879 0.0019837 0.0004656 -0.0016083 -0.0017095 0.00069238 0.23592 0.10067
-0.011866 0.0082504 0.0023227 0.00068681
-0.00016473 -0.0022595 -0.00063564 -0.0010582 -0.00038568 -0.0012994 -0.011852 0.008279
0.17362 0.17985 -0.0096164 0.0079136
-0.00026413 0.00037798 -0.00023736 -0.00090693 0.00018185 -0.00065811 0.0023092 0.00067967
-0.0095411 0.0079324 0.22026 0.23538
1640000000 0.29514 0.025965 -0.0010679 0.012201 -0.0030817 -0.0029558 0.0027585 0.0010032
-0.00085787 -0.0017178 -0.0004085 0.00054451
-0.0010867 0.012202 0.20235 0.27451 0.0064692 0.0033499 -0.00064608 -0.0017818
-0.0010254 -0.00034707 -0.00054333 -0.00072477
-0.0030964 -0.0029358 0.0064986 0.0033215 0.30207 -0.15423 -0.00064467 0.0014752
-0.0011766 -0.00098471 -0.00021379 -0.00018297
0.0027954 0.00099895 -0.00068679 -0.0017796 -0.00064774 0.0014789 0.24812 0.051622
-0.0071922 0.0097426 0.0027145 -0.00092635
-0.0008688 -0.0016889 -0.0010236 -0.00033651 -0.0011508 -0.00094675 -0.0072011 0.0097788
0.19713 0.15594 -0.0045336 0.0099938
-0.00043159 0.00054538 -0.00053243 -0.00071289 -0.00019408 -0.0002533 0.0027133 -0.00090176
-0.0045382 0.0099861 0.24554 0.20447
1700000000 0.28825 -0.019348 0.0022685 0.0092421 -0.0039693 -6.8821e-05 0.0031477 -0.0013252
-0.0021151 -0.00066343 0.00052018 0.00046863
0.0022645 0.0092344 0.22063 0.24313 0.0041882 0.0001629 -0.0015029 -0.0005905
-0.00078923 2.2936e-05 -0.00099003 -0.00049871
-0.0039558 -4.7049e-05 0.0041988 0.00013873 0.2588 -0.19448 0.00055816 0.0015718
-0.0020132 -0.00017405 -0.00048194 -0.00084926
0.0031151 -0.0013648 -0.0014935 -0.00058127 0.00051303 0.0015956 0.24459 0.0015991
-0.0040294 0.010038 0.0016228 -0.0024115
-0.0020935 -0.00067478 -0.00077092 2.1559e-05 -0.0020347 -0.00016798 -0.0039876 0.010055
0.21487 0.13545 0.00017305 0.01013
0.00049689 0.00048387 -0.0010114 -0.00048818 -0.00047219 -0.00083559 0.001584 -0.0023863
0.00017018 0.010162 0.26185 0.17039
1760000000 0.27662 -0.068157 0.0044806 0.0058358 -0.002482 0.0011483 0.0013316 -0.0035603
-0.001446 0.00072478 0.000355 -0.00043589
0.0044679 0.0058349 0.24709 0.20345 0.001726 -0.0016763 -0.0012071 0.00021485
-0.0010653 0.0008775 -0.00069069 0.0004366
-0.0024908 0.0011786 0.0017165 -0.0016982 0.21073 -0.22786 0.001174 0.0010543
-0.0012842 0.0014902 -0.0013245 -0.00060588
0.0012913 -0.0035406 -0.0012135 0.00020374 0.0011939 0.0010558 0.23542 -0.049787
-0.00057916 0.0089603 -0.00018221 -0.0025734
-0.0014735 0.00074912 -0.0010696 0.00089437 -0.001314 0.0015359 -0.00054525 0.0089351
0.2302 0.1008 0.0042508 0.0074837
0.00032847 -0.0004934 -0.00068036 0.0004537 -0.0013253 -0.00062163 -0.00015041 -0.0026047
0.0042476 0.007456 0.27465 0.1329
1820000000 0.25214 -0.10558 0.0043673 0.0022762 -0.00035077 0.0026582 -0.0010367 -0.0030891
-0.0010787 0.0011068 -4.3432e-06 -5.7842e-05
0.0043589 0.0022694 0.25738 0.17325 -0.00073905 -0.00046505 -0.0013635 0.00097619
-9.0211e-05 0.0012204 -0.00063778 0.0005894
-0.00033402 0.0026313 -0.00074776 -0.00047673 0.16005 -0.24379 0.0015943 0.00038569
-0.00011872 0.0024956 -0.001448 0.00058271
-0.0010339 -0.0031457 -0.0013372 0.00099075 0.0016177 0.00034597 0.20527 -0.096841
0.0010464 0.0073631 -0.0018236 -0.0016605
-0.0010461 0.001102 -7.7526e-05 0.0012298 -0.00012469 0.0024794 0.0010681 0.0074125
0.24756 0.071647 0.0051781 0.0037759
-2.9359e-05 -1.692e-05 -0.00063959 0.00055932 -0.0014521 0.00055769 -0.00185 -0.0017073
0.0051926 0.0037812 0.27665 0.096454
1880000000 0.21703 -0.14613 0.0020495 -7.8683e-06 -0.00059707 0.0023155 -0.002936 -0.0021867
-0.00023334 0.0018314 5.9195e-05 -0.00052056
0.0020517 -3.5563e-07 0.26209 0.12669 -0.0027787 0.0015325 -0.00019798 0.0017924
0.00053361 0.0013534 4.9522e-05 0.00098327
-0.00061303 0.0023618 -0.0027841 0.001551 0.10777 -0.25331 0.0017802 -0.00086026
0.0015591 0.0019823 -0.0011258 0.0013712
-0.003023 -0.0020894 -0.00018688 0.0017678 0.0017789 -0.00086241 0.16436 -0.13684
0.0016678 0.0051668 -0.0024211 0.00019369
-0.00025379 0.0018097 0.00055281 0.0013508 0.0015843 0.0019832 0.0017125 0.0051507
0.25147 0.040088 0.005618 0.0013012
9.7283e-05 -0.00056221 6.8558e-05 0.0009981 -0.0011332 0.0014024 -0.0024115 0.00022156
0.0055891 0.001296 0.2766 0.062522
1940000000 0.17778 -0.1715 -0.00050987 -0.0014539 0.0013763 0.0023276 -0.0037783 0.0005207
0.0014212 0.0010723 -0.00055983 -0.00068934
-0.00050814 -0.0014606 0.26283 0.094667 -0.0016565 0.004127 0.0010912 0.001301
0.0019178 0.00057471 0.001056 0.00039375
0.0013963 0.0023034 -0.0016268 0.004124 0.062327 -0.24607 0.0004355 -0.0022878
0.0024699 0.00029091 0.00063852 0.0017164
-0.0037263 0.00043902 0.0011097 0.0012868 0.00044611 -0.0022599 0.11232 -0.16733
0.001048 0.0037118 -0.0015216 0.0017529
0.0014439 0.0010675 0.0019203 0.0005554 0.0024337 0.00030901 0.0010955 0.0036567
0.25468 0.0015003 0.0041907 -0.0019741
-0.00057432 -0.00068253 0.0010619 0.00040579 0.00061144 0.0016855 -0.0015062 0.0017114
0.0042062 -0.0019772 0.26594 0.0263
2000000000 0.13185 -0.18644 -0.0042455 0.00084605 0.0027582 0.001793 -0.0023617 0.0038312
0.0012398 0.00035967 -0.0007066 0.000459
-0.0042253 0.00086414 0.2486 0.059041 -0.0010756 0.0059919 0.0015482 0.00050117
0.0014806 -0.0010861 0.00062928 7.9989e-05
0.0027424 0.0018028 -0.0010384 0.0060166 0.019231 -0.2324 -0.0011743 -0.0013528
0.0021215 -0.0011639 0.0018116 0.0014372
-0.0023769 0.0038514 0.001578 0.00045349 -0.001234 -0.0013523 0.058698 -0.177
-0.00052288 0.0033884 -0.00029518 0.0022654
0.0012054 0.00029351 0.0014638 -0.0011057 0.0020948 -0.0011297 -0.00050807 0.0034017
0.24963 -0.031969 0.0011069 -0.0032541
