!Keysight Technologies,M9804A,MY58100912,A.14.10.03
!Date: Thursday, April 27, 2023 10:28:33
!Correction: S11(C  6-Port  ) 
!S12(C  6-Port  ) 
!S13(C  6-Port  ) 
!S14(C  6-Port  ) 
!S15(C  6-Port  ) 
!S16(C  6-Port  ) 
!S21(C  6-Port  ) 
!S22(C  6-Port  ) 
!S23(C  6-Port  ) 
!S24(C  6-Port  ) 
!S25(C  6-Port  ) 
!S26(C  6-Port  ) 
!S31(C  6-Port  ) 
!S32(C  6-Port  ) 
!S33(C  6-Port  ) 
!S34(C  6-Port  ) 
!S35(C  6-Port  ) 
!S36(C  6-Port  ) 
!S41(C  6-Port  ) 
!S42(C  6-Port  ) 
!S43(C  6-Port  ) 
!S44(C  6-Port  ) 
!S45(C  6-Port  ) 
!S46(C  6-Port  ) 
!S51(C  6-Port  ) 
!S52(C  6-Port  ) 
!S53(C  6-Port  ) 
!S54(C  6-Port  ) 
!S55(C  6-Port  ) 
!S56(C  6-Port  ) 
!S61(C  6-Port  ) 
!S62(C  6-Port  ) 
!S63(C  6-Port  ) 
!S64(C  6-Port  ) 
!S65(C  6-Port  ) 
!S66(C  6-Port  ) 
!S6P File: Measurement: :
# Hz S  RI   R 50
500000000 -0.33477 -0.052611 -0.0097586 -0.00094077 -0.0084906 0.013426 -0.0033652 0.011577
0.012619 0.00553 -0.0035821 0.0070118
-0.0099151 -0.00096102 -0.41628 -0.063379 0.0076964 -0.010579 0.0012017 0.011565
0.008501 0.0027546 0.00090773 0.013268
-0.0082694 0.013265 0.0076491 -0.010558 -0.26782 0.19978 0.0065557 0.0036185
-0.0017763 0.0086104 0.00026297 0.012642
-0.0035994 0.011509 0.0013853 0.011595 0.0065852 0.003653 -0.33247 0.042787
-0.019246 -0.0045086 0.016386 0.025022
0.012316 0.0055022 0.0085883 0.0029227 -0.0018591 0.0085858 -0.019142 -0.0045021
-0.24897 -0.19635 -0.026735 0.0046155
-0.003906 0.0072858 0.0011711 0.01315 0.00020818 0.012608 0.016484 0.02496
-0.02674 0.0046266 -0.27244 -0.12037
560000000 -0.32057 0.11312 -0.023248 -0.06496 0.00012359 0.013525 0.0050835 0.01124
0.010875 0.0051523 0.010421 0.0087035
-0.023404 -0.064726 -0.37567 0.099449 -0.041766 -0.037384 0.012933 0.0039273
-0.012991 -0.0032381 0.0045847 -0.0013622
0.00026348 0.013574 -0.041898 -0.037402 -0.18617 0.25177 -9.9926e-05 -0.0049959
0.017934 0.0049365 0.0077874 -0.0052902
0.005293 0.01113 0.012994 0.0040088 -0.00010502 -0.0049756 -0.3067 0.1358
0.0054674 -0.023842 0.0045522 -0.021669
0.011132 0.0048435 -0.013085 -0.0031236 0.017981 0.0050189 0.0055136 -0.023819
-0.31091 -0.017387 0.0072613 -0.046891
0.01031 0.0085682 0.0045666 -0.00081042 0.0077303 -0.0053184 0.0046605 -0.021636
0.007157 -0.046964 -0.33251 0.023823
620000000 -0.27768 0.092899 -0.022933 0.0089008 0.0038936 0.0094379 0.0079738 -0.0042197
0.012529 -0.0017554 0.00025289 -0.001758
-0.022996 0.0088847 -0.40387 0.049472 -0.018475 0.0011322 -0.0013983 -0.001727
0.012423 -0.0059386 0.0014439 -0.002469
0.003928 0.0093459 -0.018541 0.0010981 -0.15574 0.26102 -0.0007392 -0.0049428
-0.0024566 -0.0025772 0.0089822 -0.0023695
0.007847 -0.0042581 -0.0013637 -0.0018482 -0.00075459 -0.0049798 -0.26664 0.14615
-0.038459 -0.019088 0.012906 0.027021
0.013118 -0.0017683 0.012302 -0.0059522 -0.0025078 -0.0025777 -0.038613 -0.019027
-0.23144 -0.047414 -0.040384 0.013385
0.00050507 -0.0019964 0.0013595 -0.0025868 0.0088297 -0.0023816 0.013133 0.027036
-0.040523 0.013254 -0.25048 -0.0065288
680000000 -0.23896 0.18449 -0.026151 -0.014112 0.0055417 0.0051288 0.0015801 -0.0070646
-0.0016647 -0.011784 0.0057536 -0.0077085
-0.026119 -0.014057 -0.39009 0.15035 -0.032062 -0.0020675 -0.0010845 -0.0009105
-0.0015874 -0.0093004 -0.00084754 -0.0025997
0.0054992 0.0051118 -0.032128 -0.0019242 -0.10328 0.28109 -0.00040176 -0.00060581
-0.0015217 0.0001217 -0.0029409 -0.0094916
0.0015228 -0.0073784 -0.0011898 -0.00086031 -0.000398 -0.00056988 -0.22115 0.19773
-0.023862 -0.0073189 -0.0091227 -0.011447
-0.0018602 -0.011806 -0.0015649 -0.0092668 -0.0015234 0.00016295 -0.023847 -0.0072729
-0.27893 0.055518 -0.0085429 -0.0074276
0.0054612 -0.0074391 -0.0010354 -0.0024054 -0.0029235 -0.0094216 -0.0090601 -0.011456
-0.0085643 -0.0074033 -0.25968 0.097134
740000000 -0.19347 0.17815 -0.038922 0.026839 0.013901 -0.0044537 -0.00052809 -0.0040707
-0.0053433 -0.0032938 -0.0057537 0.0032381
-0.038983 0.026793 -0.33526 0.16878 -0.036416 0.034936 -2.9626e-05 -0.0058429
-0.012774 0.0068105 -0.0013217 -0.0052398
0.013845 -0.0045965 -0.036429 0.035036 -0.069062 0.27842 -0.0023199 0.003161
-0.0029233 -0.0062777 -0.0018568 0.0014363
-0.00051273 -0.004022 -0.00013673 -0.0059213 -0.0022994 0.0031677 -0.20392 0.20559
-0.041974 -0.0077954 0.022352 0.016128
-0.0051166 -0.0030866 -0.012598 0.007002 -0.0028593 -0.0061981 -0.042068 -0.0077707
-0.18003 0.083851 -0.040455 -0.00037659
-0.0057775 0.0030883 -0.0014989 -0.0054246 -0.0017908 0.0013826 0.022474 0.016081
-0.040566 -0.00036599 -0.24961 0.10403
800000000 -0.16196 0.2211 -0.022649 0.016132 0.0055104 -0.010541 -0.0042552 -0.0020943
-0.0046723 0.0021858 0.0041228 0.00018207
-0.022866 0.015995 -0.34084 0.23919 -0.0086398 0.033874 -0.0025573 0.0022019
-0.0015591 0.0026629 0.00050587 0.0051783
0.0053097 -0.010538 -0.0085106 0.033973 -0.031038 0.30189 0.00083685 0.0015119
-0.00022247 0.0035733 -0.0022226 0.00078364
-0.004456 -0.0021605 -0.0025974 0.002283 0.00084036 0.0015122 -0.17359 0.23249
-0.028433 0.013627 0.013898 -0.010403
-0.0048538 0.0021122 -0.0015317 0.0026585 -0.0001902 0.0035473 -0.028405 0.013768
-0.22113 0.11216 -0.017231 0.020004
0.0039025 0.00011419 0.00062326 0.0052693 -0.0020776 0.00074795 0.013932 -0.010328
-0.01727 0.020045 -0.24087 0.15131
860000000 -0.12704 0.24107 -0.01756 0.030275 -0.0028011 -0.010214 -0.002048 0.00050226
0.0038806 0.0055301 -0.003532 -0.0022092
-0.017562 0.030267 -0.29254 0.28198 0.0073751 0.034371 0.00020304 0.002095
0.0036567 0.00094981 0.0033931 0.00084921
-0.0028531 -0.0102 0.0075528 0.034419 0.016486 0.31024 -0.00066357 4.3884e-05
0.0023286 -0.0012768 0.0016844 0.0042854
-0.0018936 0.00042073 0.00014319 0.0021455 -0.00068229 4.5192e-05 -0.13701 0.24285
-0.017508 0.01767 -0.0061224 -0.008234
0.0040057 0.0055468 0.0036906 0.00093109 0.0023279 -0.0012563 -0.017454 0.017708
-0.16359 0.16271 -0.024056 0.017602
-0.0036104 -0.0024491 0.003509 0.00093581 0.001649 0.0043572 -0.0062243 -0.0082745
-0.02409 0.017615 -0.18818 0.19696
920000000 -0.10322 0.26406 0.004699 0.037962 -0.0092212 -0.0051224 -0.0018532 0.0015446
0.0016593 0.0018242 0.0027312 -0.0016551
0.0046787 0.037937 -0.26535 0.30305 0.028117 0.022688 0.0016168 0.0014556
0.0079234 -0.00032904 0.0041589 -0.0029027
-0.0092533 -0.0050907 0.028229 0.022605 0.061572 0.31167 0.0020379 0.00013549
0.0012667 -0.00036657 0.00069913 -0.001378
-0.0019265 0.0016501 0.0015883 0.0014504 0.0020438 0.00012866 -0.11262 0.25921
-0.010883 0.030205 0.0033775 -0.0069973
0.0016747 0.0018935 0.0079059 -0.00027458 0.0012537 -0.00035311 -0.010776 0.030206
-0.15256 0.16708 -0.0017011 0.026255
0.0026888 -0.0016462 0.0041519 -0.002894 0.00069565 -0.0013591 0.0034385 -0.0069943
-0.0016656 0.026289 -0.19643 0.21007
980000000 -0.056784 0.28386 0.016866 0.029854 -0.009501 0.0040269 0.0016831 0.0034794
0.0038424 -0.0018033 -0.0027128 -0.0022568
0.016935 0.029816 -0.21238 0.33789 0.033318 0.005442 0.0020856 -7.9291e-05
0.001795 -0.0061672 -0.00016805 -0.0024212
-0.0094674 0.0040496 0.03339 0.0053542 0.10735 0.30628 0.00066835 -0.0012372
0.00058108 -0.0020117 0.0014138 -0.00019325
0.0016891 0.0033539 0.0020904 -6.7827e-05 0.00065882 -0.0012494 -0.07448 0.27004
0.0073106 0.029962 -0.0087791 -0.0069934
0.0038247 -0.0018406 0.0017637 -0.0061997 0.00055995 -0.002005 0.0073562 0.029989
-0.119 0.19762 0.0063095 0.020034
-0.0028375 -0.002207 -9.0284e-05 -0.0024576 0.0014116 -0.00019307 -0.0088146 -0.0069464
0.006317 0.020055 -0.15304 0.25308
1040000000 -0.015458 0.29296 0.03282 0.018911 -0.0016689 0.0069314 0.0024358 0.00085745
0.00032666 -0.0035717 -0.00015871 -0.0015309
0.032836 0.018898 -0.17775 0.35134 0.030065 -0.014573 0.0015839 -0.0017553
-0.0018862 -0.0028496 -0.00091216 -0.0030038
-0.0016257 0.0069553 0.03007 -0.014681 0.15333 0.29341 -0.00043833 -0.0016902
-0.0015837 -0.0010037 -0.00062518 -0.001059
0.0024888 0.00093764 0.0015942 -0.0017385 -0.00043468 -0.0016779 -0.047269 0.27971
0.019249 0.018672 -0.0026356 0.0008283
0.00034882 -0.0034687 -0.0018924 -0.0028526 -0.0015444 -0.0010115 0.019334 0.018646
-0.085678 0.20282 0.013998 0.017971
-0.00014842 -0.0016052 -0.00091876 -0.0030161 -0.00061452 -0.0010688 -0.0025988 0.00082609
0.014041 0.017958 -0.12999 0.27362
1100000000 0.028865 0.30236 0.036213 -0.0036126 0.0026277 0.0041838 0.0025478 -0.00090191
-0.0021622 -0.0030318 -0.0040535 -0.00016173
0.036191 -0.0035909 -0.13481 0.36938 0.016005 -0.028039 0.00017904 -0.0018571
-0.0038346 -0.0010736 -0.0036813 -0.0005139
0.002655 0.0041792 0.015922 -0.028131 0.1995 0.27416 -0.001962 5.3406e-05
-0.0018025 0.00042048 -0.0010399 -0.00031755
0.0025229 -0.00093883 0.00017002 -0.0018544 -0.0019681 4.7058e-05 -0.0072191 0.28494
0.025111 0.0057112 -0.0024453 -7.8833e-06
-0.0021892 -0.0030417 -0.0038559 -0.0010866 -0.0018145 0.0004271 0.025152 0.0056638
-0.064868 0.21582 0.019357 0.0083075
-0.0040353 -8.045e-05 -0.0036224 -0.00055764 -0.0010587 -0.00031723 -0.0024484 6.6631e-06
0.019354 0.0083197 -0.084117 0.30198
1160000000 0.079853 0.29851 0.024297 -0.020639 0.0026642 -0.00032492 -5.8186e-05 -0.0023511
-0.0038499 -0.00093462 -0.0011133 0.0041369
0.024297 -0.020602 -0.091582 0.3743 -0.0033402 -0.029755 -0.0017622 -0.0016598
-0.0029159 0.002637 -0.001596 0.0020248
0.0026766 -0.00036176 -0.0034756 -0.029773 0.24298 0.2441 -0.00093066 0.0017928
-0.00073333 0.0020402 -0.00093582 0.00041621
-3.1315e-05 -0.0023333 -0.0017432 -0.0016886 -0.00092145 0.0017983 0.031921 0.28232
0.021583 -0.010654 -0.0034618 0.0051268
-0.0038282 -0.00091188 -0.0029075 0.0026584 -0.00072048 0.0020482 0.021607 -0.010678
-0.030544 0.22292 0.018424 -0.0012963
-0.0011481 0.0040915 -0.0015618 0.0019744 -0.00091032 0.00041005 -0.0034863 0.0051039
0.018441 -0.0013073 -0.03771 0.30466
1220000000 0.12382 0.28905 0.010962 -0.030177 -0.001656 -0.00074814 0.0002455 -0.00094754
-0.002728 0.0022018 0.00088277 0.0020948
0.010948 -0.030121 -0.047503 0.38759 -0.017076 -0.022061 -0.0027332 0.00037745
-7.9439e-05 0.003334 -0.00092124 0.0021184
-0.0016585 -0.00072675 -0.017216 -0.022024 0.28213 0.20556 0.00072554 0.0018843
0.00068771 0.0013429 0.00047542 0.00056359
0.00019484 -0.00092247 -0.0027107 0.00041679 0.00073124 0.0018884 0.071922 0.27398
0.011001 -0.017549 0.0017905 0.0014306
-0.0027335 0.0022383 -0.0001282 0.003355 0.00069918 0.0013393 0.010978 -0.017578
-0.0071921 0.23084 0.013953 -0.013499
0.00089824 0.0020944 -0.00088118 0.0021379 0.00046597 0.00057493 0.0018154 0.0014307
0.013952 -0.013505 -0.0053724 0.31895
1280000000 0.17419 0.26871 -0.0078991 -0.028714 -0.0019411 0.0026886 -0.00093306 -0.0021635
-0.00085904 0.0032226 0.0026957 0.0014395
-0.0078521 -0.028727 -0.0013999 0.37974 -0.024407 -0.0090797 -0.0010347 0.0015633
0.0018722 0.0018832 0.00064645 0.0020164
-0.0019572 0.0026974 -0.024488 -0.0089895 0.31288 0.16208 0.0016582 1.2804e-05
0.0012433 0.00029297 0.00029245 0.00015021
-0.00091047 -0.0021233 -0.0010658 0.0015299 0.001665 1.7459e-05 0.10898 0.25822
0.00098844 -0.019882 -0.00017637 0.00047024
-0.00078134 0.0031901 0.0019156 0.001884 0.0012412 0.00029025 0.00093918 -0.019922
0.029023 0.23381 0.0026788 -0.015789
0.0026678 0.001415 0.00064224 0.0020601 0.0003144 0.00014035 -0.00024188 0.00044849
0.0027052 -0.015806 0.041239 0.3206
1340000000 0.21181 0.2359 -0.01778 -0.019121 0.00089385 0.0049595 -0.0017861 -0.0010373
0.0013927 0.0027024 0.0017481 -0.0013573
-0.017722 -0.019089 0.038326 0.37223 -0.02224 0.004235 -0.0001599 0.0021063
0.0022059 0.00076705 0.0012136 0.00085563
0.00090593 0.0049612 -0.022274 0.0043642 0.33495 0.11482 0.0012148 -0.00093896
0.00064071 -0.00069753 -3.3958e-05 0.00020401
-0.001788 -0.00098499 -9.1916e-05 0.0020877 0.0012125 -0.00095001 0.14251 0.23749
-0.0088323 -0.017139 0.00070956 0.00071304
0.0014567 0.0027369 0.0022181 0.00077452 0.00066215 -0.00068785 -0.0089001 -0.017168
0.058541 0.22913 -0.0044144 -0.014292
0.0017253 -0.0013577 0.0011961 0.00083287 -4.8661e-05 0.00020886 0.00071331 0.00072254
-0.0044002 -0.014296 0.079166 0.31489
1400000000 0.24578 0.19884 -0.02361 -0.0073469 0.0055695 0.0035007 -0.0023385 0.00070379
0.0024882 0.0010241 0.00032725 -0.0016294
-0.023583 -0.0073698 0.076103 0.35995 -0.015498 0.012854 0.0014577 0.0013275
0.0013621 -0.00086169 0.001162 8.4584e-05
0.0055944 0.0034858 -0.015467 0.012919 0.34811 0.062185 4.8279e-05 -0.0017837
9.9724e-05 -0.00041864 0.00030565 0.00018262
-0.0023296 0.00069694 0.0014409 0.0013618 5.059e-05 -0.0017776 0.17214 0.2085
-0.015034 -0.010126 -0.00076469 -2.8584e-05
0.0024977 0.00099452 0.0013663 -0.00088076 8.7589e-05 -0.0004345 -0.015095 -0.010081
0.091445 0.22481 -0.010838 -0.0088568
0.0003368 -0.0016162 0.0012142 9.5501e-05 0.00033042 0.00018724 -0.00077078 -3.3716e-05
-0.010819 -0.0088732 0.1235 0.3034
1460000000 0.26956 0.15523 -0.020436 0.0049946 0.006103 -0.0017913 -0.0015846 0.0017687
0.0022506 -0.00048105 -0.00043307 -0.0010601
-0.020395 0.0049786 0.11097 0.33834 -0.0062891 0.016114 0.0017467 0.00016923
0.00083981 -0.0014386 0.0012922 -0.00061978
0.0060747 -0.0018302 -0.0061922 0.01617 0.35504 0.0084524 -0.0012842 -0.0013593
0.00010675 -0.00017946 0.00068506 -0.00028909
-0.0015913 0.0018128 0.0017258 0.00013544 -0.0012858 -0.0013658 0.19907 0.17894
-0.016387 -0.0031205 -0.00063947 0.0021132
0.0022524 -0.00045929 0.00084568 -0.0014559 0.00010568 -0.00017726 -0.016453 -0.0030728
0.12083 0.21065 -0.01269 -0.0025773
-0.00043868 -0.001048 0.0012785 -0.000593 0.00069021 -0.00028719 -0.00063836 0.0021486
-0.012712 -0.0025753 0.15641 0.28274
1520000000 0.28248 0.11352 -0.014614 0.010424 0.0036475 -0.0045288 0.00014769 0.0026663
0.0022025 -0.0019556 -0.0012397 -0.00022235
-0.014607 0.010409 0.14482 0.32397 0.0018834 0.013718 0.0016557 -0.00090693
-5.194e-06 -0.0011709 0.00034007 -0.0010261
0.003656 -0.0045431 0.0019609 0.013723 0.34876 -0.047164 -0.0011688 -0.00037164
0.00066988 -0.00089675 5.8614e-05 -0.0003134
0.0001533 0.0026337 0.0016626 -0.00088387 -0.001168 -0.00036604 0.22215 0.14032
-0.015639 0.0030461 0.0016851 0.0021845
0.0021909 -0.0019787 -2.6376e-05 -0.0011865 0.00067824 -0.00090271 -0.015665 0.0031292
0.14904 0.19765 -0.012274 0.0020872
-0.0012343 -0.00021287 0.00033975 -0.0010565 4.9726e-05 -0.00031835 0.0017119 0.0021931
-0.012272 0.0020815 0.18873 0.26201
1580000000 0.29262 0.067319 -0.0077988 0.013524 -0.00091354 -0.0053999 0.0015576 0.0019061
-0.00014709 -0.0022741 -0.00029326 0.00036681
-0.0077883 0.013511 0.17251 0.29932 0.0057794 0.0084982 0.00044466 -0.0015808
-0.00064129 -0.0010619 -0.00018098 -0.00088187
-0.00093037 -0.0054026 0.0058363 0.0084721 0.32968 -0.10464 -0.0017695 0.00070753
-0.00044599 -0.0013014 0.0002181 -0.00064269
0.00163 0.0019213 0.0004071 -0.0015957 -0.0017628 0.00069756 0.23599 0.1007
-0.011879 0.0082434 0.0022763 0.00062576
-0.00016301 -0.0022553 -0.00066301 -0.0010574 -0.00044914 -0.0012906 -0.011865 0.0083135
0.17363 0.17992 -0.0094908 0.0078968
-0.00030199 0.00032572 -0.00018539 -0.00084697 0.00023006 -0.00063651 0.0022792 0.00063212
-0.0094951 0.0078883 0.22026 0.23526
1640000000 0.29518 0.025943 -0.0010961 0.012207 -0.0031203 -0.0029422 0.0027923 0.0010345
-0.00083214 -0.0016733 -0.0003841 0.00054651
-0.0010807 0.012197 0.20235 0.27454 0.0064729 0.0033524 -0.00066229 -0.0018017
-0.0010295 -0.00039048 -0.00052409 -0.00070015
-0.0031006 -0.0029448 0.0064947 0.0033042 0.30202 -0.15423 -0.00062627 0.0014435
-0.001185 -0.00097311 -0.0002176 -0.00022631
0.0027704 0.0010395 -0.00066317 -0.0018114 -0.00061884 0.0014499 0.24813 0.051535
-0.0072845 0.009675 0.0026783 -0.00084773
-0.00086519 -0.0017136 -0.0010404 -0.00037401 -0.0011886 -0.00098243 -0.0072555 0.0097428
0.19719 0.15601 -0.0045664 0.0099657
-0.00035497 0.0005881 -0.0005632 -0.00070722 -0.00022745 -0.00021505 0.0027087 -0.00084732
-0.0045607 0.0099564 0.24574 0.20434
1700000000 0.28821 -0.019348 0.0022575 0.0092181 -0.0039749 -8.5063e-05 0.0031586 -0.0013584
-0.0020899 -0.00068472 0.00050888 0.00050875
0.0022443 0.0092122 0.22073 0.24314 0.00418 0.00016594 -0.0014801 -0.00058549
-0.0007812 2.9209e-05 -0.0010403 -0.00050097
-0.0039605 -7.2416e-05 0.0041777 0.00014074 0.25875 -0.19444 0.00052728 0.0015976
-0.0019955 -0.00016126 -0.00045356 -0.00079875
0.0031971 -0.0013689 -0.0014889 -0.00056794 0.00052666 0.0015925 0.24455 0.0016155
-0.0040964 0.010025 0.0015903 -0.0023893
-0.002081 -0.00066409 -0.00078132 3.8501e-05 -0.0019942 -0.00017028 -0.0040419 0.010058
0.21494 0.1355 0.00022562 0.010075
0.000484 0.00048663 -0.0010035 -0.00048604 -0.00047453 -0.00080401 0.0015895 -0.00243
0.00022479 0.010066 0.26187 0.17029
1760000000 0.27659 -0.068228 0.0044884 0.0058349 -0.0025141 0.0011658 0.0013353 -0.0035165
-0.0014317 0.00076141 0.00031433 -0.0004935
0.0044937 0.0058231 0.2471 0.20345 0.0016774 -0.0017022 -0.0012352 0.00021193
-0.0011091 0.00089038 -0.00067135 0.00043549
-0.0024882 0.0011847 0.0016775 -0.0017155 0.21065 -0.22794 0.0011768 0.0010703
-0.0013177 0.0015365 -0.0013127 -0.00063685
0.0012368 -0.0034729 -0.0012379 0.00019884 0.0011957 0.0010749 0.2354 -0.04982
-0.00062127 0.0089239 -0.0001645 -0.0026037
-0.0014686 0.00077831 -0.0011088 0.00088114 -0.0013114 0.0015459 -0.0005714 0.0089288
0.23038 0.10076 0.0042004 0.0074455
0.0003561 -0.00049599 -0.00066355 0.00042908 -0.0012865 -0.0006685 -0.00013185 -0.0026172
0.0042005 0.0074231 0.2745 0.13289
1820000000 0.25222 -0.10558 0.0043476 0.0022663 -0.00035254 0.0026412 -0.0010663 -0.0031002
-0.0010879 0.0010759 4.6699e-05 -5.334e-05
0.004342 0.0022644 0.25743 0.17326 -0.00074274 -0.0004674 -0.0013578 0.00094543
-8.1006e-05 0.0012187 -0.00063846 0.00058322
-0.00029578 0.0026505 -0.00076654 -0.00045604 0.16005 -0.24382 0.0015784 0.00034842
-9.0859e-05 0.0024427 -0.0014708 0.0005179
-0.0010768 -0.003145 -0.0013559 0.00095901 0.0015853 0.00033917 0.20522 -0.096977
0.00099038 0.0074222 -0.0018362 -0.0016627
-0.001074 0.0010942 -6.9636e-05 0.0012178 -7.1796e-05 0.0024584 0.001051 0.00742
0.24765 0.071577 0.0052077 0.0037197
8.6549e-06 -6.257e-05 -0.00064588 0.00058612 -0.0014804 0.00051145 -0.0018633 -0.0016965
0.005178 0.0037115 0.27673 0.096329
1880000000 0.21696 -0.14602 0.0020458 -6.0981e-06 -0.00054558 0.0023237 -0.0029079 -0.002124
-0.00018332 0.0018224 3.1106e-05 -0.0005709
0.0020352 9.3653e-06 0.26212 0.12664 -0.0028095 0.0015439 -0.00019794 0.0018034
0.00054473 0.0013736 6.7159e-05 0.00097023
-0.00054625 0.0023523 -0.0027995 0.0015586 0.10773 -0.25339 0.0017321 -0.00088393
0.0015706 0.0019675 -0.0011283 0.0013525
-0.0029735 -0.0020893 -0.00020133 0.0018222 0.0017436 -0.00087926 0.16442 -0.13684
0.0017879 0.005181 -0.0024134 0.0001507
-0.00016835 0.0018349 0.00053688 0.001373 0.0015755 0.0019647 0.0018129 0.0051604
0.25164 0.039957 0.0055297 0.0012495
9.1494e-05 -0.00062506 7.5938e-05 0.00094941 -0.0011294 0.0013672 -0.0023688 0.00017421
0.0055507 0.0012746 0.27661 0.06244
1940000000 0.17785 -0.17156 -0.00050138 -0.0014653 0.0014017 0.0023374 -0.003812 0.00050738
0.0013559 0.0011001 -0.00048411 -0.00068415
-0.00050219 -0.0014605 0.26283 0.094639 -0.0016271 0.0041512 0.001153 0.0012672
0.0019318 0.00055443 0.0010488 0.0004596
0.0014009 0.0023021 -0.0016341 0.0041605 0.062401 -0.24606 0.00047977 -0.0022962
0.0024712 0.00025787 0.00067257 0.001736
-0.0038098 0.00044858 0.0011264 0.0012963 0.00047448 -0.0023017 0.11211 -0.16729
0.0010656 0.0037293 -0.0014423 0.001648
0.0013919 0.0010745 0.0019256 0.00055166 0.0024669 0.00027089 0.0011206 0.0037049
0.25479 0.0013232 0.00416 -0.0020068
-0.00048716 -0.00064789 0.0010804 0.00042515 0.00065799 0.0017012 -0.0014836 0.0016251
0.0041466 -0.0020154 0.26591 0.02636
2000000000 0.13179 -0.18643 -0.00424 0.00085298 0.0028448 0.0017391 -0.0022559 0.0037333
0.0012299 0.00033703 -0.0007312 0.00048729
-0.0042289 0.00085603 0.24866 0.05906 -0.0010564 0.006081 0.0016276 0.00045662
0.0014773 -0.0011205 0.00058128 9.9433e-05
0.002822 0.0017265 -0.001001 0.0060868 0.019274 -0.23227 -0.0011414 -0.0013503
0.0020883 -0.0011911 0.0017582 0.0015026
-0.0022396 0.0038167 0.0016303 0.00047761 -0.0011562 -0.0013441 0.058704 -0.17698
-0.00053117 0.0034346 -0.000283 0.0022415
0.0012489 0.0003471 0.0014447 -0.0011086 0.0020955 -0.0012023 -0.00050632 0.0034387
0.24959 -0.032157 0.0010876 -0.0032591
