!Keysight Technologies,M9804A,MY58100912,A.14.10.03
!Date: Thursday, April 27, 2023 10:28:33
!Correction: S11(C  6-Port  ) 
!S12(C  6-Port  ) 
!S13(C  6-Port  ) 
!S14(C  6-Port  ) 
!S15(C  6-Port  ) 
!S16(C  6-Port  ) 
!S21(C  6-Port  ) 
!S22(C  6-Port  ) 
!S23(C  6-Port  ) 
!S24(C  6-Port  ) 
!S25(C  6-Port  ) 
!S26(C  6-Port  ) 
!S31(C  6-Port  ) 
!S32(C  6-Port  ) 
!S33(C  6-Port  ) 
!S34(C  6-Port  ) 
!S35(C  6-Port  ) 
!S36(C  6-Port  ) 
!S41(C  6-Port  ) 
!S42(C  6-Port  ) 
!S43(C  6-Port  ) 
!S44(C  6-Port  ) 
!S45(C  6-Port  ) 
!S46(C  6-Port  ) 
!S51(C  6-Port  ) 
!S52(C  6-Port  ) 
!S53(C  6-Port  ) 
!S54(C  6-Port  ) 
!S55(C  6-Port  ) 
!S56(C  6-Port  ) 
!S61(C  6-Port  ) 
!S62(C  6-Port  ) 
!S63(C  6-Port  ) 
!S64(C  6-Port  ) 
!S65(C  6-Port  ) 
!S66(C  6-Port  ) 
!S6P File: Measurement: :
# Hz S  RI   R 50
500000000 -0.33433 -0.052497 -0.010451 -0.00045585 -0.0083562 0.013573 -0.003998 0.01202
0.013106 0.0055308 -0.0033646 0.0088442
-0.010181 -0.0013026 -0.41677 -0.063689 0.0080412 -0.010281 0.0017836 0.012037
0.0080937 0.0028183 0.0014219 0.013666
-0.0084117 0.013528 0.0079275 -0.010623 -0.26786 0.19962 0.0068002 0.0035514
-0.0019255 0.0085789 0.00060089 0.012114
-0.0042352 0.011829 0.0016644 0.012213 0.0068351 0.0035449 -0.33208 0.042441
-0.019261 -0.0037609 0.016533 0.024982
0.012218 0.0055916 0.0079347 0.003032 -0.0017754 0.0086521 -0.019249 -0.0039968
-0.24923 -0.19487 -0.027628 0.005715
-0.0037387 0.0079466 0.00095574 0.014024 0.00079588 0.011823 0.017052 0.024576
-0.027968 0.0056355 -0.27336 -0.12146
560000000 -0.32001 0.1135 -0.022944 -0.065566 0.00038671 0.013925 0.00539 0.011391
0.011134 0.0041939 0.011131 0.007793
-0.02298 -0.064895 -0.37662 0.098765 -0.041307 -0.037546 0.012339 0.0034968
-0.014016 -0.0029296 0.003409 -0.0026409
0.0003891 0.013477 -0.042411 -0.037473 -0.18616 0.25203 0.00010082 -0.0053204
0.018103 0.0047413 0.0073332 -0.0053088
0.005729 0.011338 0.013314 0.0033186 -0.00014815 -0.0052452 -0.30653 0.13499
0.005165 -0.024114 0.005081 -0.021342
0.011701 0.0039907 -0.013666 -0.003132 0.018717 0.0046186 0.0045194 -0.024023
-0.31094 -0.016332 0.0083311 -0.047275
0.010932 0.0079149 0.0037438 -0.0024915 0.0073263 -0.00493 0.0048299 -0.021414
0.0083917 -0.046988 -0.33309 0.024343
620000000 -0.27651 0.093542 -0.022616 0.0089342 0.0042312 0.0095534 0.0081832 -0.0041296
0.012893 -0.00055311 0.0011424 -0.0021932
-0.022739 0.0089913 -0.40365 0.04918 -0.018462 0.0010493 -0.0013706 -0.0017366
0.012626 -0.0058268 0.0014914 -0.0029278
0.0042022 0.0095212 -0.018398 0.001057 -0.15587 0.26097 -0.0001622 -0.0053994
-0.0031213 -0.002097 0.0097861 -0.0034791
0.0077512 -0.0044124 -0.0015213 -0.0020995 -0.00027206 -0.0053599 -0.26615 0.14603
-0.039054 -0.019621 0.013496 0.027459
0.013559 -1.6991e-05 0.012909 -0.0056248 -0.0027677 -0.0022622 -0.039035 -0.019585
-0.23286 -0.047963 -0.041799 0.011893
0.00071909 -0.002505 0.0011518 -0.003499 0.0093961 -0.003407 0.013523 0.027309
-0.041948 0.012683 -0.24995 -0.0063289
680000000 -0.23902 0.1854 -0.026209 -0.013886 0.0055101 0.0052943 0.0018866 -0.0076997
-0.0020605 -0.012049 0.0047413 -0.0073261
-0.026093 -0.014148 -0.39021 0.15021 -0.032106 -0.0020951 -0.0013661 -0.00078072
-0.0012575 -0.0092768 -0.00089217 -0.0022738
0.0057784 0.0053027 -0.032071 -0.0020794 -0.10335 0.28121 -0.00085959 -0.00051161
-0.0016084 0.00027437 -0.0030972 -0.0088221
0.0019193 -0.0076349 -0.0009552 -0.00072695 -0.00081234 -0.0004621 -0.22054 0.19756
-0.023105 -0.0071134 -0.0095992 -0.011406
-0.0024498 -0.011799 -0.0014211 -0.0092879 -0.0016031 0.00027683 -0.023141 -0.0068971
-0.28005 0.055053 -0.0078487 -0.0066751
0.0051298 -0.0071464 -0.00096705 -0.0016426 -0.0029353 -0.009099 -0.0097352 -0.011551
-0.0077741 -0.0063955 -0.2601 0.095758
740000000 -0.19337 0.17754 -0.039396 0.026837 0.013871 -0.004862 -0.00026699 -0.0040493
-0.0050577 -0.0029918 -0.0062751 0.0031315
-0.039641 0.027008 -0.3359 0.16832 -0.036369 0.034494 0.00014411 -0.006335
-0.013259 0.007598 -0.0010039 -0.0057033
0.013769 -0.0049314 -0.036381 0.034979 -0.069166 0.27813 -0.0020838 0.003156
-0.0030307 -0.0057677 -0.0018024 0.0014366
-0.00046729 -0.0041263 -0.00020562 -0.0063266 -0.0021862 0.0031543 -0.20369 0.20528
-0.042814 -0.0065411 0.022694 0.015499
-0.0044716 -0.0027382 -0.012977 0.0074034 -0.0029921 -0.005951 -0.04286 -0.0064795
-0.18007 0.081201 -0.04179 0.001477
-0.0062643 0.0030734 -0.0014704 -0.0058566 -0.0015498 0.0013624 0.022893 0.015532
-0.041192 0.0014941 -0.24769 0.10278
800000000 -0.16198 0.22109 -0.022713 0.015893 0.0053493 -0.010361 -0.0045517 -0.0021584
-0.0047482 0.0021929 0.0041351 7.1663e-05
-0.022717 0.015866 -0.34118 0.23889 -0.0088639 0.033836 -0.0026184 0.0020321
-0.0018091 0.002946 0.00063733 0.0050522
0.0054844 -0.010534 -0.0086944 0.033981 -0.031166 0.30191 0.00076116 0.0014672
-0.00022291 0.0036559 -0.0019773 0.0007397
-0.0045124 -0.0020413 -0.0024637 0.0020875 0.00073921 0.0015056 -0.17355 0.23197
-0.028572 0.013636 0.014059 -0.010657
-0.0048784 0.002079 -0.0018374 0.0026081 -0.00019027 0.0035464 -0.028622 0.01372
-0.22102 0.11196 -0.017649 0.020177
0.0039804 0.00038324 0.00059314 0.0052476 -0.0020152 0.00077073 0.014058 -0.010567
-0.01748 0.020101 -0.24011 0.15111
860000000 -0.12687 0.24104 -0.017755 0.030333 -0.0027539 -0.010274 -0.0019564 0.00056014
0.0039342 0.005336 -0.0037114 -0.002442
-0.017737 0.030279 -0.2925 0.28193 0.0076239 0.034359 0.00025474 0.002027
0.0035188 0.000948 0.0032201 0.0012037
-0.0028604 -0.010309 0.007496 0.034357 0.016551 0.3103 -0.00067786 4.4225e-05
0.0024606 -0.00118 0.0016354 0.0044917
-0.0019615 0.00034408 4.483e-05 0.0020115 -0.00070064 6.2766e-05 -0.13699 0.24281
-0.017616 0.017463 -0.0061286 -0.0083866
0.0039039 0.0055556 0.0037306 0.00088481 0.0025026 -0.0012215 -0.01766 0.017436
-0.16316 0.16239 -0.024657 0.017603
-0.0036718 -0.0025548 0.0032766 0.00076891 0.0018069 0.0044083 -0.0061253 -0.0082765
-0.024728 0.017533 -0.18907 0.19693
920000000 -0.10314 0.26406 0.0047961 0.038229 -0.0092331 -0.0052121 -0.0017088 0.0016988
0.001703 0.0017909 0.0027544 -0.0017112
0.0046493 0.03823 -0.26547 0.30313 0.02801 0.022557 0.0016368 0.0013552
0.0081768 -0.00011057 0.0041702 -0.0030309
-0.0091989 -0.0051332 0.028258 0.022643 0.06147 0.31156 0.0020696 2.275e-05
0.001286 -0.00033943 0.00060734 -0.00153
-0.0016531 0.0017844 0.0017535 0.001498 0.0020776 2.1128e-05 -0.11238 0.25919
-0.01063 0.030418 0.0034455 -0.0071304
0.0015482 0.0018435 0.0080998 -0.00019307 0.0012178 -0.00040749 -0.010633 0.030414
-0.15279 0.16666 -0.0016106 0.026212
0.0027854 -0.0017579 0.0041689 -0.0028968 0.0005956 -0.0014125 0.0034303 -0.0070383
-0.0013273 0.02655 -0.19656 0.2097
980000000 -0.05694 0.28393 0.016835 0.029965 -0.0095367 0.0040243 0.0015719 0.0033833
0.0039129 -0.0016015 -0.0029648 -0.0021588
0.016881 0.029933 -0.21249 0.33788 0.033415 0.0054572 0.0020642 -0.00016643
0.0019079 -0.0061063 -9.5419e-05 -0.0021881
-0.0094862 0.0040475 0.033416 0.0053822 0.10735 0.30623 0.00075147 -0.0012018
0.0005697 -0.0019535 0.0014506 -9.0952e-05
0.001482 0.0033296 0.0020696 -0.0001415 0.00072188 -0.0012417 -0.074711 0.26984
0.0073925 0.02981 -0.0092029 -0.0070768
0.0039607 -0.0016477 0.0018568 -0.0061161 0.00054999 -0.0019301 0.0074023 0.029784
-0.1189 0.19733 0.0066744 0.019575
-0.0031325 -0.0020855 -0.00017284 -0.0025342 0.0014562 -0.00013311 -0.0092048 -0.0071604
0.0062756 0.019213 -0.15341 0.25284
1040000000 -0.015745 0.29323 0.03273 0.019088 -0.0017461 0.0070199 0.0025803 0.0009344
0.0003609 -0.0034599 -0.00010524 -0.001606
0.032714 0.019153 -0.17771 0.35131 0.030092 -0.01456 0.0016251 -0.0016546
-0.0020061 -0.0027491 -0.00093718 -0.0031224
-0.0016909 0.0069761 0.030054 -0.01466 0.15328 0.2934 -0.00046899 -0.0016967
-0.0015907 -0.00098872 -0.00066011 -0.00097909
0.0025891 0.00094293 0.0016399 -0.0016823 -0.00047299 -0.0016761 -0.047204 0.27978
0.019317 0.018883 -0.0024085 0.00094881
0.00031033 -0.0035281 -0.002079 -0.0027138 -0.0015888 -0.00089611 0.01944 0.018864
-0.086117 0.20323 0.014043 0.01815
5.0536e-06 -0.0016875 -0.00086493 -0.0030784 -0.00066491 -0.0010057 -0.0024907 0.0010008
0.014032 0.018384 -0.13 0.27338
1100000000 0.028893 0.30238 0.036312 -0.0035267 0.0026856 0.0042017 0.0024886 -0.00096436
-0.0021738 -0.0029847 -0.0040119 -0.00012288
0.03623 -0.0035083 -0.13477 0.36938 0.016076 -0.028059 0.000157 -0.0018894
-0.003964 -0.0010459 -0.003562 -0.00053099
0.0026996 0.0041991 0.015989 -0.02808 0.19946 0.27412 -0.0020387 4e-05
-0.0017763 0.00042699 -0.0010356 -0.00022129
0.0024571 -0.0010001 0.00018398 -0.001886 -0.002015 2.522e-05 -0.0072687 0.28499
0.025332 0.0056447 -0.002491 -7.5653e-05
-0.0021844 -0.0030213 -0.0038947 -0.0011024 -0.0017979 0.00038257 0.025415 0.005574
-0.065278 0.21574 0.019549 0.0081515
-0.0041091 -9.12e-05 -0.0036344 -0.00060255 -0.0011167 -0.00027914 -0.0024301 -0.00016612
0.019596 0.0080907 -0.084508 0.30189
1160000000 0.079691 0.29859 0.02445 -0.020531 0.0026672 -0.00035911 -4.0466e-05 -0.0022679
-0.0039565 -0.001011 -0.0012505 0.0040685
0.024476 -0.020491 -0.091397 0.37437 -0.0033033 -0.029774 -0.0016763 -0.0017142
-0.002802 0.002617 -0.0016474 0.0019402
0.0026712 -0.00038184 -0.003408 -0.029845 0.24296 0.24416 -0.00092196 0.0018183
-0.00071 0.0020292 -0.00081973 0.00043492
-1.3106e-05 -0.0022062 -0.0017191 -0.0016296 -0.00094071 0.0018397 0.031969 0.28245
0.021676 -0.01063 -0.0033154 0.0050316
-0.0040162 -0.0009004 -0.0029032 0.002705 -0.00067232 0.0020893 0.021678 -0.010663
-0.030435 0.2227 0.018305 -0.0011123
-0.0012609 0.0040898 -0.0015108 0.001954 -0.0008206 0.00039683 -0.0033151 0.0050048
0.018528 -0.0011484 -0.03806 0.30453
1220000000 0.12386 0.28913 0.011041 -0.030171 -0.0016578 -0.00079123 0.00016197 -0.00086964
-0.0026682 0.0022261 0.00098969 0.0020497
0.011055 -0.030146 -0.047485 0.38753 -0.017065 -0.022097 -0.0026975 0.00042193
-7.5583e-05 0.0033746 -0.00087561 0.0020104
-0.0016047 -0.0007725 -0.017137 -0.022063 0.28211 0.20553 0.00072598 0.0018849
0.00063508 0.0013251 0.0003462 0.00058137
0.00015028 -0.000929 -0.0026992 0.00041491 0.00073466 0.0018989 0.071917 0.27398
0.011097 -0.017597 0.0017515 0.0013467
-0.0027217 0.0021554 -5.6427e-05 0.0032947 0.00062659 0.001331 0.011045 -0.017651
-0.0071824 0.23078 0.014007 -0.013628
0.00096294 0.0020039 -0.00090211 0.0019773 0.00039884 0.00055423 0.0017575 0.0014309
0.013967 -0.01364 -0.0055636 0.31907
1280000000 0.1742 0.26882 -0.0077252 -0.028808 -0.0020021 0.0026237 -0.00079974 -0.0020605
-0.00080812 0.0032078 0.0025982 0.0014122
-0.0077224 -0.028774 -0.0014496 0.37959 -0.024406 -0.0091323 -0.0010074 0.0015854
0.0019049 0.0019295 0.00059008 0.0020507
-0.001996 0.0026352 -0.024488 -0.0090417 0.31288 0.16206 0.0016142 4.8029e-05
0.0012826 0.00031426 0.00035558 6.4454e-05
-0.00085922 -0.0020624 -0.0010027 0.0015774 0.0016684 2.2802e-05 0.10898 0.25824
0.00093079 -0.020012 -0.00024496 0.00051393
-0.00086103 0.0032252 0.0019073 0.0018922 0.0012952 0.0002977 0.00088223 -0.01999
0.028885 0.23375 0.0027782 -0.015764
0.0027221 0.001376 0.00064526 0.0020308 0.00027769 8.5004e-05 -0.0003312 0.0004553
0.0026995 -0.015877 0.041034 0.32061
1340000000 0.21182 0.2359 -0.017718 -0.019219 0.00094594 0.0048838 -0.0018603 -0.00098002
0.0014606 0.0027128 0.0018601 -0.0013293
-0.017724 -0.019194 0.038277 0.3721 -0.022292 0.0042036 -9.8774e-05 0.002146
0.0022034 0.00083518 0.0012553 0.00081608
0.00092343 0.0048717 -0.022287 0.0042965 0.33503 0.11489 0.0012002 -0.00092469
0.0006967 -0.00061505 -1.7771e-05 0.00024764
-0.0018403 -0.00097385 -0.00010336 0.0021239 0.0011704 -0.00093779 0.14253 0.2375
-0.0089387 -0.017252 0.00063297 0.00068506
0.0014902 0.0027404 0.0021677 0.00082906 0.00070241 -0.00061858 -0.0089475 -0.017207
0.058542 0.2292 -0.0042974 -0.014483
0.0018079 -0.0012785 0.0012273 0.00084272 4.0023e-05 0.00025732 0.00064743 0.00067464
-0.004274 -0.014533 0.079076 0.31499
1400000000 0.24584 0.19881 -0.023634 -0.0075107 0.0055215 0.0035463 -0.002349 0.00061467
0.0024646 0.0010076 0.0003396 -0.0016167
-0.023589 -0.0075162 0.075984 0.35989 -0.015568 0.01279 0.0014056 0.0013476
0.0014074 -0.00085927 0.0012441 0.00014767
0.0055693 0.0034893 -0.015508 0.012865 0.34815 0.062098 0.00010014 -0.0017077
9.2545e-05 -0.00043656 0.00037136 0.00022085
-0.0023533 0.00063171 0.0014303 0.0013466 9.7686e-05 -0.0017224 0.17227 0.20848
-0.015173 -0.010082 -0.00074532 -3.9652e-05
0.0024854 0.00099801 0.0014138 -0.00086149 0.0001145 -0.00045075 -0.015187 -0.010039
0.0913 0.2246 -0.010876 -0.0087621
0.00028933 -0.0016188 0.0012471 0.00011985 0.00035168 0.00017011 -0.00079544 1.4981e-05
-0.010931 -0.0087972 0.12327 0.30342
1460000000 0.26962 0.15519 -0.020494 0.0048804 0.0061048 -0.0017788 -0.0016251 0.0018914
0.0022335 -0.00040468 -0.00038508 -0.001125
-0.020466 0.0048789 0.11081 0.33836 -0.0063379 0.016098 0.0017797 0.00015273
0.00086705 -0.0014547 0.0012282 -0.00062627
0.006062 -0.0018236 -0.0062599 0.016143 0.35497 0.0084901 -0.0012661 -0.0014557
0.00015162 -0.00021065 0.00062287 -0.00020161
-0.0016394 0.0018532 0.001764 0.00014119 -0.0012933 -0.0014382 0.19905 0.17892
-0.016525 -0.003078 -0.00068764 0.0022341
0.0022232 -0.00039827 0.00083641 -0.0014943 0.00013817 -0.00023552 -0.016518 -0.0030716
0.12064 0.2106 -0.012744 -0.0027754
-0.0004399 -0.0011558 0.0011869 -0.00062282 0.00069232 -0.00019413 -0.00064053 0.0022132
-0.012742 -0.0027745 0.15625 0.28293
1520000000 0.28255 0.1135 -0.014717 0.010392 0.0036627 -0.0044621 0.00016435 0.0026243
0.0021645 -0.0020118 -0.001249 -0.0001496
-0.014726 0.010371 0.14468 0.32399 0.0018242 0.013742 0.0016204 -0.00088965
-3.7617e-05 -0.0011988 0.00035711 -0.0010135
0.0036597 -0.00451 0.0018773 0.013758 0.34874 -0.047159 -0.0012563 -0.00041409
0.00066244 -0.00094421 5.7834e-05 -0.00026735
0.00017375 0.0026405 0.0016387 -0.00088567 -0.0012164 -0.00041363 0.22223 0.14031
-0.01565 0.0032218 0.0016932 0.0021792
0.0022082 -0.0019761 -1.1442e-05 -0.0011906 0.00065604 -0.00096198 -0.015655 0.0032515
0.14882 0.19759 -0.012261 0.002208
-0.0012644 -0.00014596 0.00034246 -0.001031 0.00010316 -0.00025873 0.0016892 0.0021716
-0.012271 0.0021568 0.1886 0.2621
1580000000 0.29267 0.067238 -0.007914 0.013538 -0.00097496 -0.0053934 0.0015855 0.0019474
-0.00016619 -0.0022125 -0.00026287 0.00037178
-0.0079025 0.013519 0.17236 0.29948 0.0057751 0.0085118 0.00050255 -0.0016127
-0.00065023 -0.0010137 -0.00020978 -0.00086151
-0.0009291 -0.0053668 0.0057779 0.0085281 0.32999 -0.10455 -0.0017435 0.00072106
-0.00040285 -0.0013422 0.00020581 -0.00059392
0.0015793 0.001974 0.0004794 -0.0016142 -0.0017091 0.00071299 0.23583 0.10068
-0.011772 0.0083188 0.002345 0.00070471
-0.0001817 -0.0022898 -0.00063329 -0.0010407 -0.00038797 -0.0012057 -0.011782 0.0083163
0.17346 0.18002 -0.0095621 0.007893
-0.00028901 0.0003324 -0.00021454 -0.00086137 0.00015597 -0.0005411 0.0023161 0.00069745
-0.0095739 0.0078496 0.22014 0.23544
1640000000 0.29511 0.025935 -0.0011671 0.012245 -0.0030969 -0.0028361 0.0027738 0.0010061
-0.00083128 -0.0017036 -0.00045735 0.00052854
-0.0011786 0.012238 0.20231 0.27464 0.0063752 0.0033976 -0.00065759 -0.0017825
-0.0010368 -0.00035583 -0.00054621 -0.00071599
-0.0030792 -0.0028663 0.0064923 0.003404 0.3018 -0.15433 -0.00059007 0.0014897
-0.0011832 -0.001012 -0.00018424 -0.00025926
0.0028347 0.0010259 -0.0006733 -0.0017889 -0.00059877 0.0014573 0.24808 0.051579
-0.0071837 0.0097726 0.0026765 -0.00089205
-0.00086904 -0.0017151 -0.0010281 -0.00037043 -0.0011307 -0.0010667 -0.0072056 0.0098097
0.197 0.15598 -0.0045765 0.0099412
-0.00042227 0.0005072 -0.00055432 -0.00072814 -0.00017717 -0.00027935 0.0027255 -0.00086928
-0.0046034 0.0099669 0.24546 0.20442
1700000000 0.28818 -0.019362 0.0022103 0.0093302 -0.0038316 -5.1853e-05 0.0031277 -0.0013337
-0.0020093 -0.00067394 0.00058916 0.00052643
0.002235 0.0093103 0.22061 0.24323 0.0042701 0.00020363 -0.0014747 -0.00059635
-0.00073838 7.1655e-05 -0.0010104 -0.00046162
-0.0038846 2.3108e-05 0.004208 0.00014904 0.2589 -0.19459 0.0005415 0.001664
-0.0020701 -2.4915e-05 -0.00052619 -0.00084034
0.0031222 -0.0013392 -0.0015015 -0.00056087 0.00058465 0.001649 0.24452 0.0016472
-0.0039627 0.0099799 0.0016661 -0.0023841
-0.0021019 -0.00066422 -0.00078203 4.3922e-05 -0.0020067 -5.115e-05 -0.0039727 0.010031
0.21476 0.13568 0.00018976 0.010122
0.00060306 0.00052034 -0.00096684 -0.0004698 -0.00050436 -0.00077875 0.0016472 -0.0024112
0.00022778 0.010196 0.26177 0.17038
1760000000 0.27643 -0.068136 0.0044813 0.0059194 -0.0024428 0.00097079 0.0013073 -0.0035027
-0.0015067 0.00069054 0.00037512 -0.00045706
0.0044501 0.0059207 0.24712 0.20353 0.0018063 -0.0017505 -0.0012566 0.00017449
-0.0010652 0.0008686 -0.00067806 0.000433
-0.002498 0.001049 0.0017534 -0.0017139 0.2108 -0.22788 0.0012419 0.00098246
-0.00125 0.0015518 -0.0012595 -0.00064621
0.0012917 -0.0035503 -0.001231 0.00019685 0.0012244 0.00095162 0.23541 -0.049756
-0.00059137 0.0087726 -0.00017693 -0.0026805
-0.0014771 0.00073703 -0.0010716 0.00090329 -0.0012444 0.0014526 -0.00055834 0.0088726
0.23015 0.10083 0.004185 0.007516
0.00031139 -0.00051921 -0.00065681 0.00041164 -0.0011964 -0.00056772 -0.00018403 -0.0026805
0.0042847 0.0074639 0.2743 0.13299
1820000000 0.25212 -0.10556 0.0044403 0.0023222 -0.00036416 0.0026753 -0.00094002 -0.0031382
-0.0011006 0.0011483 -3.0594e-05 -0.00012605
0.0044146 0.0023356 0.25745 0.17331 -0.00078562 -0.000432 -0.0013269 0.0010381
-9.2651e-05 0.0012218 -0.00058943 0.00058094
-0.0002566 0.0026386 -0.00075209 -0.00042164 0.15983 -0.24386 0.0015487 0.00053494
-0.00016181 0.0024398 -0.0014702 0.00054536
-0.0010294 -0.0031479 -0.0013218 0.0010108 0.0014932 0.0005308 0.2053 -0.096893
0.00096099 0.0074257 -0.0018492 -0.0016319
-0.0010605 0.0011458 -5.3868e-05 0.0012518 -0.00021382 0.0024351 0.0010185 0.0073762
0.24743 0.071794 0.0052351 0.0037327
-3.4025e-05 -3.4899e-05 -0.00058881 0.00062913 -0.0014009 0.00046222 -0.001816 -0.0016397
0.005251 0.0036608 0.27681 0.096414
1880000000 0.21694 -0.14597 0.0021146 5.3603e-05 -0.0006046 0.0022214 -0.0029937 -0.0021917
-0.00021952 0.0017923 7.5801e-05 -0.00049371
0.0021276 3.2571e-05 0.26211 0.12669 -0.0027655 0.001457 -0.00021369 0.0018031
0.00053209 0.0013773 3.3201e-05 0.00098217
-0.00062237 0.002215 -0.0026953 0.0014384 0.1077 -0.25331 0.0018322 -0.0009298
0.0016579 0.0019893 -0.0011169 0.0013177
-0.0029957 -0.0021486 -0.00021086 0.0018251 0.0018036 -0.00085356 0.16439 -0.13686
0.0016756 0.0051127 -0.0024968 0.00018277
-0.00019073 0.0017724 0.00053069 0.0013463 0.0016177 0.0019864 0.0017129 0.0050599
0.25153 0.040103 0.0054847 0.0014082
0.0001267 -0.00065013 8.5971e-05 0.00096341 -0.001314 0.0012221 -0.0024754 0.00027052
0.0055272 0.0013076 0.27626 0.062664
1940000000 0.17778 -0.17144 -0.00044644 -0.0014328 0.0013379 0.0023588 -0.0037684 0.00045564
0.0015134 0.0011117 -0.00053737 -0.00078002
-0.00042697 -0.0014487 0.26285 0.094657 -0.0016411 0.0040739 0.0011449 0.0012935
0.0019363 0.00058885 0.0011144 0.00036982
0.0013799 0.002377 -0.00163 0.0041145 0.062232 -0.24608 0.0003853 -0.002226
0.0024929 0.00030728 0.00055558 0.0017525
-0.003665 0.00049439 0.001149 0.001288 0.00045699 -0.0022743 0.11225 -0.16744
0.0010575 0.0036299 -0.0015555 0.0016641
0.001415 0.0011129 0.0019456 0.00055878 0.0024678 0.00025494 0.001005 0.0036069
0.25471 0.0015903 0.0043463 -0.0020333
-0.00069243 -0.00061276 0.0010537 0.00042307 0.00063497 0.0016956 -0.0013797 0.0017075
0.0042203 -0.0019193 0.2662 0.026471
2000000000 0.13181 -0.18652 -0.0041502 0.00077494 0.0028177 0.0018079 -0.002367 0.0039146
0.0012141 0.0003911 -0.00063364 0.00043812
-0.0041594 0.00081124 0.24863 0.059096 -0.0010645 0.0059828 0.0016146 0.00041621
0.0014264 -0.0010807 0.00065351 8.2393e-05
0.0027944 0.0017791 -0.0010636 0.0059646 0.019013 -0.2323 -0.0011685 -0.0013445
0.0020672 -0.001155 0.0018964 0.0014144
-0.0023561 0.0039264 0.001639 0.0004012 -0.0011945 -0.0013809 0.05856 -0.17703
-0.00049503 0.0033907 -0.00013266 0.0023449
0.0012343 0.00035709 0.0014297 -0.0010728 0.0021735 -0.0010848 -0.0005246 0.0033681
0.24972 -0.03189 0.00097209 -0.0031606
