!Keysight Technologies,M9804A,MY58100912,A.14.10.03
!Date: Thursday, April 27, 2023 10:28:33
!Correction: S11(C  6-Port  ) 
!S12(C  6-Port  ) 
!S13(C  6-Port  ) 
!S14(C  6-Port  ) 
!S15(C  6-Port  ) 
!S16(C  6-Port  ) 
!S21(C  6-Port  ) 
!S22(C  6-Port  ) 
!S23(C  6-Port  ) 
!S24(C  6-Port  ) 
!S25(C  6-Port  ) 
!S26(C  6-Port  ) 
!S31(C  6-Port  ) 
!S32(C  6-Port  ) 
!S33(C  6-Port  ) 
!S34(C  6-Port  ) 
!S35(C  6-Port  ) 
!S36(C  6-Port  ) 
!S41(C  6-Port  ) 
!S42(C  6-Port  ) 
!S43(C  6-Port  ) 
!S44(C  6-Port  ) 
!S45(C  6-Port  ) 
!S46(C  6-Port  ) 
!S51(C  6-Port  ) 
!S52(C  6-Port  ) 
!S53(C  6-Port  ) 
!S54(C  6-Port  ) 
!S55(C  6-Port  ) 
!S56(C  6-Port  ) 
!S61(C  6-Port  ) 
!S62(C  6-Port  ) 
!S63(C  6-Port  ) 
!S64(C  6-Port  ) 
!S65(C  6-Port  ) 
!S66(C  6-Port  ) 
!S6P File: Measurement: :
# Hz S  RI   R 50
500000000 -0.33443 -0.052695 -0.01027 -0.00099203 -0.0084771 0.01341 -0.0036129 0.012031
0.012267 0.0058865 -0.0036156 0.0081071
-0.010161 -0.0010773 -0.4166 -0.063488 0.0076416 -0.010628 0.0012453 0.011607
0.0083111 0.0028992 0.0011288 0.013417
-0.0085305 0.013337 0.0076242 -0.010641 -0.2679 0.19983 0.0066324 0.0035678
-0.0018052 0.008546 0.00031049 0.012626
-0.0036565 0.01199 0.0013149 0.01161 0.0066039 0.0035297 -0.33263 0.042644
-0.01927 -0.004537 0.016125 0.024618
0.012341 0.0057378 0.0082636 0.0028365 -0.0018368 0.0085336 -0.019275 -0.0045132
-0.24936 -0.19587 -0.026918 0.0046679
-0.0035237 0.0079138 0.0011971 0.013458 0.00026409 0.01251 0.016157 0.024739
-0.026702 0.0047969 -0.27247 -0.12137
560000000 -0.32058 0.11378 -0.022819 -0.065084 0.0003959 0.013531 0.0053075 0.010762
0.010569 0.005046 0.010112 0.0086507
-0.022824 -0.06484 -0.37593 0.099144 -0.041785 -0.037506 0.012971 0.003842
-0.013347 -0.002975 0.0038914 -0.0014411
0.00040876 0.013527 -0.041875 -0.037428 -0.18617 0.25182 -0.00024803 -0.005074
0.017804 0.0047784 0.007951 -0.0055096
0.0054147 0.010727 0.012908 0.003776 -0.0002128 -0.0050495 -0.30691 0.1358
0.0055929 -0.023777 0.0048598 -0.02162
0.010569 0.0046079 -0.013507 -0.0028425 0.017799 0.0047832 0.0056374 -0.023824
-0.31105 -0.017502 0.0076058 -0.046596
0.010289 0.0086645 0.0041621 -0.0014395 0.0080371 -0.0053679 0.0048123 -0.021635
0.0071984 -0.046951 -0.33293 0.024198
620000000 -0.27756 0.092944 -0.022957 0.0089042 0.0042119 0.0094906 0.0083584 -0.0041559
0.012675 -0.0021744 0.0009487 -0.0021482
-0.022961 0.0088735 -0.40385 0.049502 -0.018393 0.0011382 -0.0011976 -0.0017357
0.012378 -0.0060521 0.0015251 -0.0026159
0.0041559 0.0095277 -0.018441 0.0011926 -0.1555 0.26101 -0.000449 -0.0050183
-0.0026705 -0.0027202 0.009313 -0.0025595
0.008354 -0.004129 -0.0012345 -0.0017852 -0.0004756 -0.0050217 -0.26661 0.14633
-0.038545 -0.019297 0.013526 0.026576
0.012714 -0.0020514 0.012404 -0.0060638 -0.00267 -0.0027077 -0.038476 -0.019234
-0.23153 -0.046938 -0.040701 0.013943
0.00079707 -0.0019444 0.0015339 -0.0026033 0.0091717 -0.0026475 0.013424 0.026802
-0.040937 0.013297 -0.2496 -0.006243
680000000 -0.23913 0.18461 -0.026202 -0.014107 0.0053347 0.0051221 0.0014731 -0.0072722
-0.001705 -0.011627 0.005365 -0.0072092
-0.026152 -0.014153 -0.39013 0.15044 -0.032135 -0.0020284 -0.0012171 -0.00087382
-0.0015425 -0.0092678 -0.001092 -0.0020932
0.0053656 0.0050915 -0.032189 -0.0019623 -0.10339 0.28115 -0.00054303 -0.00059133
-0.0014525 0.00020202 -0.002963 -0.0091637
0.0013915 -0.0072874 -0.0012758 -0.00091114 -0.00056559 -0.00058235 -0.22105 0.19755
-0.023864 -0.0072369 -0.0092592 -0.011064
-0.0017532 -0.011719 -0.0015541 -0.0092421 -0.0014391 0.00020834 -0.023846 -0.0071952
-0.27874 0.055411 -0.0086181 -0.0073716
0.005305 -0.0074076 -0.00098421 -0.0022896 -0.0030415 -0.0092468 -0.0094134 -0.011287
-0.0083652 -0.0074737 -0.26082 0.098112
740000000 -0.19335 0.1781 -0.039076 0.026815 0.013994 -0.0045912 -0.00029451 -0.0043075
-0.0055619 -0.0032046 -0.0056982 0.0028598
-0.039014 0.026666 -0.33513 0.16883 -0.036411 0.034911 -5.2041e-05 -0.0058676
-0.012684 0.006915 -0.0015723 -0.005145
0.01398 -0.0046128 -0.036361 0.035042 -0.069097 0.27844 -0.0022746 0.0031346
-0.0030492 -0.0061144 -0.0018483 0.001168
-0.00031103 -0.0043086 -7.4587e-05 -0.0058477 -0.002288 0.0031254 -0.20394 0.20565
-0.042147 -0.0078165 0.022513 0.015982
-0.0055318 -0.003317 -0.012614 0.0069824 -0.003106 -0.0061694 -0.042176 -0.0077736
-0.17967 0.084047 -0.040775 -0.00025774
-0.0055595 0.0030532 -0.0014544 -0.0052309 -0.001867 0.001237 0.022452 0.015948
-0.040759 -0.00037493 -0.24944 0.10356
800000000 -0.16148 0.22134 -0.02266 0.016075 0.0054693 -0.010383 -0.0044735 -0.0019729
-0.0047495 0.0022426 0.0042001 0.00063303
-0.022646 0.016049 -0.34089 0.23922 -0.0086521 0.033956 -0.0025966 0.0022237
-0.0015944 0.0027277 0.0005525 0.0053698
0.0054093 -0.010418 -0.0085788 0.034015 -0.03097 0.30204 0.00072447 0.0016179
-0.00021963 0.0036223 -0.0021274 0.0010461
-0.0045046 -0.0020459 -0.0026192 0.0022723 0.00074048 0.0016216 -0.17375 0.23253
-0.028477 0.013649 0.01352 -0.010241
-0.0047059 0.0022193 -0.0015642 0.0027075 -0.00020604 0.0036095 -0.02847 0.013684
-0.22089 0.11198 -0.017274 0.020161
0.0039969 0.00051132 0.00045941 0.0053669 -0.0021781 0.0010565 0.013464 -0.01024
-0.01731 0.020099 -0.24107 0.15237
860000000 -0.12688 0.24106 -0.017568 0.030266 -0.0028598 -0.010241 -0.0018838 0.0002693
0.0040443 0.0055364 -0.0037106 -0.0023561
-0.017519 0.030268 -0.29248 0.28203 0.0074173 0.034391 0.0001677 0.0020312
0.0037739 0.00096236 0.0033417 0.0010154
-0.0028369 -0.010234 0.0075333 0.034391 0.016457 0.31026 -0.00066732 -3.8286e-05
0.0023982 -0.0012411 0.0015398 0.0043442
-0.001868 0.00036002 0.00023868 0.0020611 -0.00065202 -2.699e-05 -0.1368 0.24288
-0.017483 0.017817 -0.0060091 -0.0085222
0.0040611 0.005514 0.0037298 0.00096339 0.0023596 -0.0012414 -0.017436 0.017805
-0.16354 0.16263 -0.023843 0.017478
-0.0036781 -0.0024261 0.0033206 0.00089274 0.0015219 0.0042699 -0.0060453 -0.0086593
-0.023853 0.017491 -0.18879 0.19662
920000000 -0.10317 0.2641 0.0047449 0.038004 -0.0091742 -0.0051425 -0.0018342 0.0017343
0.0017979 0.0018648 0.0028554 -0.0016233
0.0047152 0.03799 -0.26524 0.30308 0.028141 0.022689 0.001612 0.001409
0.0079751 -0.0002812 0.0040305 -0.0029594
-0.0092242 -0.0050998 0.02824 0.022627 0.061634 0.3117 0.0020527 0.00012853
0.0012276 -0.00036844 0.00073082 -0.0013721
-0.0018954 0.0017207 0.0016523 0.0014906 0.0020558 0.00014096 -0.11269 0.25928
-0.010731 0.030336 0.0032763 -0.0068662
0.0017976 0.0018354 0.0079047 -0.00027974 0.0012235 -0.00038635 -0.010668 0.030386
-0.15242 0.16682 -0.001512 0.026165
0.0027293 -0.0015618 0.0041464 -0.0028864 0.00073276 -0.0013436 0.0033789 -0.0068196
-0.0015804 0.026157 -0.19634 0.21026
980000000 -0.056776 0.28392 0.017017 0.029769 -0.0095007 0.0040161 0.0015587 0.0033443
0.0037462 -0.0017918 -0.0030364 -0.0022394
0.016973 0.029784 -0.21228 0.33788 0.033347 0.0054726 0.0020259 -8.7036e-05
0.0017768 -0.0061703 -0.00018849 -0.002418
-0.0094819 0.0040339 0.033398 0.0053458 0.10738 0.30629 0.0006642 -0.0012728
0.00057559 -0.0020424 0.0013334 -0.00019436
0.0016296 0.0033594 0.0020482 -8.6184e-05 0.00066817 -0.0012673 -0.074517 0.27003
0.0072326 0.029957 -0.0088552 -0.0070548
0.0037517 -0.0017896 0.0017285 -0.0061758 0.00056507 -0.0020313 0.0072796 0.029952
-0.11928 0.19754 0.0063346 0.020164
-0.0029218 -0.0022093 -0.00022103 -0.0023932 0.0013644 -0.00021478 -0.0088466 -0.0069782
0.0062124 0.020017 -0.15282 0.25309
1040000000 -0.015611 0.29304 0.03285 0.018915 -0.0016812 0.0068549 0.0025502 0.0009722
0.00037206 -0.0035563 -4.9141e-05 -0.0018192
0.032786 0.018923 -0.17769 0.3513 0.0301 -0.014537 0.0015433 -0.0017592
-0.0018878 -0.0028161 -0.00095369 -0.0030718
-0.0016354 0.0069216 0.030062 -0.014676 0.15338 0.2934 -0.00044811 -0.0016685
-0.0015231 -0.00099656 -0.00060202 -0.0010452
0.0024951 0.00096182 0.0015517 -0.0017477 -0.00044723 -0.0016678 -0.047273 0.27975
0.019218 0.018764 -0.0025493 0.00082733
0.00036579 -0.003505 -0.0019609 -0.0028076 -0.0015364 -0.0010015 0.019261 0.018758
-0.085732 0.20273 0.014046 0.017988
-5.8567e-05 -0.001675 -0.00096541 -0.0030113 -0.00060862 -0.0010517 -0.0026087 0.00089491
0.014024 0.017988 -0.12991 0.27355
1100000000 0.028936 0.30229 0.036211 -0.0036585 0.0026379 0.0041761 0.0024857 -0.00093845
-0.0021464 -0.0029934 -0.0040619 -1.2639e-05
0.036168 -0.0036254 -0.13477 0.36939 0.016002 -0.028021 0.00013463 -0.0018754
-0.0038579 -0.0010734 -0.0036317 -0.00044733
0.0026486 0.0041685 0.015912 -0.028123 0.19954 0.27415 -0.0019712 5.3823e-05
-0.0018342 0.00045766 -0.0010329 -0.00030975
0.0025072 -0.00094467 0.00015734 -0.0018791 -0.001973 4.2563e-05 -0.0071849 0.28493
0.025104 0.0056826 -0.0024715 3.4549e-05
-0.0022301 -0.0030084 -0.0038611 -0.0010476 -0.0018451 0.00043997 0.025122 0.0056387
-0.065081 0.21592 0.019246 0.0082824
-0.0040975 -6.1004e-05 -0.003673 -0.00047297 -0.0010393 -0.00028922 -0.0024362 3.1723e-05
0.0192 0.008214 -0.084115 0.3019
1160000000 0.079856 0.29859 0.024318 -0.020602 0.0026128 -0.00032267 2.91e-05 -0.0023002
-0.0038565 -0.00090705 -0.0011664 0.0041322
0.024285 -0.020563 -0.09152 0.37432 -0.0033318 -0.029707 -0.0017294 -0.0017431
-0.0029168 0.0026611 -0.0016557 0.0019615
0.0026238 -0.00033848 -0.003467 -0.029736 0.24299 0.24408 -0.00093224 0.0018317
-0.00071288 0.0020242 -0.00088819 0.00036779
2.9191e-06 -0.0022993 -0.0017092 -0.0017147 -0.00093431 0.0018183 0.031989 0.28234
0.021597 -0.010569 -0.0033917 0.0052207
-0.0038036 -0.00088755 -0.0029493 0.0026555 -0.00071109 0.002015 0.021581 -0.010573
-0.030552 0.22291 0.018269 -0.0011788
-0.0010597 0.0040779 -0.0016344 0.0020019 -0.00089261 0.0003979 -0.0034649 0.0051406
0.018364 -0.0012753 -0.037995 0.30469
1220000000 0.12393 0.28901 0.010903 -0.030165 -0.0016406 -0.00074252 0.00017645 -0.0009278
-0.0027338 0.0021565 0.00093481 0.0020896
0.010933 -0.030121 -0.047454 0.38759 -0.017053 -0.022059 -0.0027297 0.00041269
-8.7849e-05 0.00328 -0.00085697 0.0020785
-0.0016461 -0.00072714 -0.017171 -0.022013 0.28213 0.20554 0.0007354 0.0018926
0.00069091 0.0013476 0.00048668 0.00053799
0.00019749 -0.00096893 -0.0027268 0.00043189 0.00074665 0.001904 0.071933 0.27398
0.011039 -0.017556 0.0017842 0.001443
-0.0027249 0.002183 -9.8588e-05 0.0032658 0.00068956 0.001332 0.011022 -0.017566
-0.0072549 0.23095 0.013807 -0.013491
0.00093991 0.0020899 -0.00088055 0.0020746 0.00048544 0.00054506 0.0018161 0.0014706
0.013827 -0.013452 -0.0054265 0.31884
1280000000 0.17424 0.26868 -0.0078704 -0.028748 -0.001959 0.0026934 -0.00086845 -0.0021592
-0.00083491 0.0032087 0.002618 0.0013593
-0.0078529 -0.02871 -0.0014039 0.37972 -0.024402 -0.0090735 -0.0010871 0.0015231
0.0018746 0.0018608 0.00063504 0.0020215
-0.0019484 0.0027154 -0.024474 -0.0089789 0.3129 0.16203 0.0016647 4.4923e-05
0.0012454 0.00029297 0.00028606 0.00011678
-0.00087138 -0.0021382 -0.001073 0.0015171 0.0016532 5.3244e-05 0.10904 0.25814
0.0010384 -0.019869 -0.00019864 0.00046146
-0.00084089 0.0032302 0.0018797 0.0018704 0.0012524 0.00029897 0.00099068 -0.019856
0.029078 0.23388 0.0026628 -0.015619
0.002688 0.0013663 0.00063854 0.0020314 0.00030897 0.00011568 -0.00018323 0.00045343
0.0026364 -0.015681 0.041179 0.32053
1340000000 0.21176 0.23589 -0.01774 -0.019065 0.00092889 0.0049327 -0.0018256 -0.00099734
0.0014129 0.0027563 0.001767 -0.0013127
-0.017703 -0.019054 0.038372 0.37213 -0.022266 0.004237 -0.0001119 0.0021301
0.0022019 0.00074931 0.0011913 0.00085025
0.00094044 0.0049163 -0.022267 0.0043419 0.33496 0.11481 0.0012258 -0.00093329
0.00065655 -0.00071324 -2.7748e-05 0.00021177
-0.0018302 -0.00099697 -9.3883e-05 0.0021291 0.001226 -0.00092834 0.1425 0.23744
-0.0087724 -0.017176 0.00076809 0.00069816
0.001437 0.0027462 0.0021989 0.00074598 0.00066266 -0.00071305 -0.0088128 -0.01716
0.058621 0.22921 -0.004468 -0.014166
0.0017575 -0.0013458 0.001185 0.00082302 -4.0971e-05 0.00018779 0.00074024 0.00071877
-0.0044908 -0.014237 0.079224 0.31503
1400000000 0.24581 0.19879 -0.023639 -0.0073416 0.0056069 0.0035371 -0.0023374 0.00068603
0.0024925 0.0010024 0.00031605 -0.001629
-0.023613 -0.0073491 0.076092 0.35995 -0.015495 0.012829 0.0014355 0.0013445
0.0013477 -0.00087369 0.0011841 8.0614e-05
0.0056088 0.0034982 -0.015453 0.012913 0.34812 0.062185 4.6931e-05 -0.001737
0.00011653 -0.00043397 0.00033431 0.00016873
-0.0023434 0.00068046 0.0014489 0.0013339 4.8757e-05 -0.001744 0.17219 0.20846
-0.015023 -0.010112 -0.00077007 -0.00012435
0.0025031 0.00099133 0.0013355 -0.00087992 0.0001153 -0.00044658 -0.015055 -0.010084
0.091529 0.22484 -0.010729 -0.0087378
0.00030043 -0.0016401 0.0011899 6.6489e-05 0.00033126 0.00017888 -0.00075809 -0.00010645
-0.010731 -0.0087206 0.12336 0.30339
1460000000 0.26955 0.15524 -0.020381 0.0050282 0.0061049 -0.0017978 -0.0016079 0.001828
0.0022687 -0.00046388 -0.00040326 -0.0010131
-0.020371 0.0049952 0.11096 0.33835 -0.0062857 0.016128 0.0017546 0.00012936
0.00082118 -0.0014576 0.0012834 -0.00059645
0.0060912 -0.0018232 -0.0062031 0.016187 0.35506 0.0084409 -0.0012974 -0.0013803
9.4541e-05 -0.00017349 0.00064381 -0.00028525
-0.0016033 0.0018103 0.0017625 0.00011955 -0.0012942 -0.0013702 0.19903 0.17894
-0.016384 -0.0031211 -0.0005994 0.0021107
0.0022591 -0.00044739 0.0008359 -0.0014579 7.6877e-05 -0.00015389 -0.01639 -0.0030901
0.12089 0.21073 -0.012543 -0.0025122
-0.00040938 -0.0010123 0.0012668 -0.00059804 0.00067643 -0.00027968 -0.00061219 0.0020957
-0.012574 -0.0024967 0.15644 0.28286
1520000000 0.2825 0.11355 -0.014595 0.010457 0.00365 -0.0045312 0.00015577 0.0026264
0.0021946 -0.0019515 -0.0012295 -0.00020441
-0.01457 0.010438 0.1448 0.32392 0.0018702 0.013714 0.001642 -0.00089086
-5.5364e-06 -0.0011652 0.00035544 -0.0010302
0.0036426 -0.0045463 0.001954 0.013713 0.34878 -0.047203 -0.0011793 -0.00037086
0.00066626 -0.00090434 7.9249e-05 -0.00030834
0.00016748 0.0026401 0.0016438 -0.0009074 -0.001175 -0.00037229 0.22216 0.1403
-0.015646 0.0030376 0.0016463 0.0021172
0.0021724 -0.0019727 -1.6132e-05 -0.0011685 0.00066509 -0.00089466 -0.015641 0.0030751
0.14913 0.19766 -0.012129 0.0020542
-0.0012241 -0.00020644 0.00033657 -0.0010354 3.9149e-05 -0.00030259 0.0016461 0.0021181
-0.01211 0.0020758 0.18871 0.26218
1580000000 0.29269 0.067357 -0.0077774 0.013525 -0.00089608 -0.0053879 0.0015927 0.0019274
-0.00014085 -0.0022625 -0.00028608 0.00036981
-0.0077925 0.013503 0.17251 0.29937 0.0057747 0.0085 0.00044131 -0.0015969
-0.00063 -0.0010609 -0.00019605 -0.00088314
-0.00093739 -0.0053873 0.0058243 0.0084915 0.32971 -0.10463 -0.0017724 0.00068954
-0.00044555 -0.0012814 0.00025676 -0.00061053
0.0016122 0.0019217 0.00042765 -0.0016069 -0.0017702 0.00069366 0.23594 0.10072
-0.011878 0.0082295 0.0022889 0.0006452
-0.00016274 -0.0022745 -0.00065555 -0.001064 -0.00043702 -0.0012905 -0.011868 0.0082699
0.17373 0.17988 -0.0093694 0.0078055
-0.00028818 0.00037762 -0.00019731 -0.00087158 0.00024243 -0.00060844 0.0022866 0.00063567
-0.0093797 0.007823 0.22042 0.23532
1640000000 0.29524 0.025935 -0.0010678 0.012178 -0.0031104 -0.0029742 0.0028016 0.0010227
-0.00081049 -0.0016721 -0.00044364 0.00055125
-0.0010708 0.012169 0.20237 0.27452 0.0064459 0.0033566 -0.00065489 -0.0017827
-0.0010158 -0.00039461 -0.00054053 -0.00070726
-0.0031351 -0.0029642 0.0064869 0.0033259 0.30204 -0.1543 -0.00060667 0.001483
-0.0011758 -0.00097605 -0.00019495 -0.00027669
0.0028108 0.0010112 -0.00067471 -0.0017811 -0.00060743 0.0014674 0.2482 0.051521
-0.0072595 0.0096878 0.0026363 -0.00088878
-0.00084036 -0.0016777 -0.0010151 -0.00038421 -0.0011737 -0.00097283 -0.0072417 0.0097025
0.19725 0.15595 -0.0044643 0.0098241
-0.00039399 0.00055857 -0.00054754 -0.00072236 -0.00019848 -0.00027291 0.0026314 -0.00088508
-0.0044459 0.0098579 0.2458 0.20441
1700000000 0.28834 -0.019428 0.0022523 0.0091924 -0.0039907 -9.7235e-05 0.0031789 -0.0013294
-0.0020739 -0.00066291 0.00055625 0.00046099
0.0022436 0.0091897 0.22069 0.24311 0.0041845 0.00018513 -0.0014771 -0.00056532
-0.00078429 3.2703e-05 -0.001009 -0.00049461
-0.0039913 -5.8568e-05 0.004188 0.00015701 0.2588 -0.19448 0.00054419 0.0016076
-0.0020078 -0.00014069 -0.00043043 -0.00082584
0.0031938 -0.0013448 -0.001484 -0.00055997 0.00052965 0.0016029 0.24447 0.0015757
-0.0041222 0.010029 0.0015874 -0.0023657
-0.0020632 -0.00065678 -0.00077559 3.9084e-05 -0.0019888 -0.00016524 -0.0041016 0.010039
0.21497 0.13544 0.00024932 0.0099412
0.00051117 0.00048367 -0.0010233 -0.00048699 -0.00047003 -0.00080705 0.0016157 -0.0023851
0.00033202 0.0099566 0.26194 0.17018
1760000000 0.27659 -0.068307 0.0044828 0.0058083 -0.0024959 0.0011396 0.0013161 -0.0035012
-0.0014378 0.00076642 0.0002613 -0.00046478
0.0044713 0.0057959 0.24714 0.20342 0.0016847 -0.001694 -0.001237 0.00021197
-0.0011143 0.00086977 -0.00067685 0.00044179
-0.0024971 0.0011571 0.0016804 -0.0017068 0.21063 -0.22797 0.0011577 0.0011101
-0.0013305 0.0015095 -0.0012328 -0.00066329
0.0012947 -0.0034783 -0.001235 0.00019823 0.0011576 0.0011198 0.23542 -0.049817
-0.00056851 0.0089069 -0.00020823 -0.0026182
-0.0014378 0.0007733 -0.0011148 0.00089025 -0.0013373 0.0015252 -0.0005628 0.0089046
0.23045 0.10076 0.0041715 0.0072826
0.00030445 -0.00046992 -0.00068441 0.00044526 -0.0012587 -0.00067801 -0.00020543 -0.0026142
0.0042008 0.0072939 0.27476 0.13284
1820000000 0.25224 -0.10574 0.0043381 0.0022698 -0.00032543 0.0026645 -0.0010429 -0.0030902
-0.0010539 0.0010927 -1.9201e-05 -3.9768e-05
0.004345 0.0022596 0.2574 0.17318 -0.00075019 -0.00047369 -0.0013526 0.00095645
-9.2674e-05 0.0012352 -0.00063591 0.00059825
-0.00031267 0.0026575 -0.00076072 -0.00047735 0.15997 -0.24386 0.0015532 0.000337
-0.00010588 0.0024268 -0.0014616 0.00052631
-0.0010607 -0.0031092 -0.001351 0.00097201 0.0015706 0.00032522 0.20524 -0.097015
0.00094449 0.0074317 -0.0018461 -0.001618
-0.0010667 0.0010889 -8.0167e-05 0.0012251 -9.9406e-05 0.0024365 0.00097284 0.0074335
0.24766 0.071571 0.0051567 0.0036019
-2.5304e-06 -4.8522e-05 -0.00063505 0.00059941 -0.001453 0.0005602 -0.0018488 -0.0016404
0.0051688 0.0035897 0.27663 0.096253
1880000000 0.21693 -0.14617 0.0020335 -1.0208e-06 -0.00059135 0.0023302 -0.0029919 -0.0021288
-0.00020517 0.0018435 9.0263e-05 -0.00063625
0.0020281 1.1331e-05 0.2621 0.12664 -0.0028108 0.0015314 -0.0002116 0.001806
0.00053016 0.0013861 6.3703e-05 0.00096499
-0.00058143 0.0023205 -0.002803 0.0015342 0.1077 -0.25344 0.0017737 -0.00085371
0.0015722 0.0020073 -0.0011329 0.0013268
-0.0029959 -0.002103 -0.00020722 0.0018147 0.0017564 -0.00083627 0.16438 -0.13684
0.0017667 0.0051438 -0.0023313 0.00026769
-0.00019468 0.0018416 0.00055306 0.0013837 0.0015692 0.0019937 0.0017736 0.0051384
0.25175 0.039861 0.0054154 0.0011968
4.3178e-05 -0.00058597 7.8203e-05 0.00097151 -0.0011092 0.0013017 -0.0023567 0.00026057
0.0054306 0.0011937 0.27667 0.062153
1940000000 0.17771 -0.17161 -0.0005195 -0.0014493 0.0014142 0.002334 -0.0038086 0.00046792
0.0013521 0.001096 -0.00048584 -0.0006016
-0.00051892 -0.0014461 0.26282 0.094625 -0.001637 0.0041419 0.0010859 0.001269
0.0019331 0.00056916 0.0010795 0.00044171
0.0014255 0.0023342 -0.0016023 0.0041423 0.062372 -0.24611 0.00042254 -0.0023145
0.0024772 0.00026499 0.00063617 0.0016947
-0.0037903 0.00049987 0.0011222 0.00125 0.00041897 -0.0023277 0.11218 -0.16733
0.0010026 0.0037501 -0.0014905 0.0016316
0.0013867 0.001082 0.0019447 0.00054809 0.0024677 0.00025736 0.0010156 0.0037325
0.25482 0.0012784 0.0040821 -0.0020362
-0.00051842 -0.00065084 0.0010777 0.00045275 0.00063603 0.0017049 -0.001493 0.0016135
0.0040673 -0.0020719 0.26591 0.026274
2000000000 0.13172 -0.18644 -0.0042393 0.00085638 0.0028443 0.001765 -0.0023184 0.0037699
0.0012251 0.00032563 -0.00070971 0.00045734
-0.0042283 0.00086321 0.24858 0.059041 -0.001026 0.0060691 0.001639 0.00044437
0.0014779 -0.001124 0.0005502 8.653e-05
0.0028774 0.001759 -0.00099413 0.0060936 0.019227 -0.23229 -0.0011664 -0.0013671
0.00211 -0.0011532 0.0017356 0.0014884
-0.0022498 0.0037779 0.0016455 0.00046953 -0.0011601 -0.0014031 0.058609 -0.17696
-0.00053436 0.0034696 -0.00017653 0.0022803
0.0012434 0.00032418 0.0014604 -0.0011315 0.0021057 -0.0011656 -0.00052159 0.0034782
0.24962 -0.032293 0.00093819 -0.0032274
