!Keysight Technologies,M9804A,MY58100912,A.14.10.03
!Date: Thursday, April 27, 2023 10:28:33
!Correction: S11(C  6-Port  ) 
!S12(C  6-Port  ) 
!S13(C  6-Port  ) 
!S14(C  6-Port  ) 
!S15(C  6-Port  ) 
!S16(C  6-Port  ) 
!S21(C  6-Port  ) 
!S22(C  6-Port  ) 
!S23(C  6-Port  ) 
!S24(C  6-Port  ) 
!S25(C  6-Port  ) 
!S26(C  6-Port  ) 
!S31(C  6-Port  ) 
!S32(C  6-Port  ) 
!S33(C  6-Port  ) 
!S34(C  6-Port  ) 
!S35(C  6-Port  ) 
!S36(C  6-Port  ) 
!S41(C  6-Port  ) 
!S42(C  6-Port  ) 
!S43(C  6-Port  ) 
!S44(C  6-Port  ) 
!S45(C  6-Port  ) 
!S46(C  6-Port  ) 
!S51(C  6-Port  ) 
!S52(C  6-Port  ) 
!S53(C  6-Port  ) 
!S54(C  6-Port  ) 
!S55(C  6-Port  ) 
!S56(C  6-Port  ) 
!S61(C  6-Port  ) 
!S62(C  6-Port  ) 
!S63(C  6-Port  ) 
!S64(C  6-Port  ) 
!S65(C  6-Port  ) 
!S66(C  6-Port  ) 
!S6P File: Measurement: :
# Hz S  RI   R 50
500000000 -0.33437 -0.052756 -0.0098363 -0.001517 -0.0079807 0.01308 -0.0049468 0.011882
0.012905 0.0045579 -0.0050187 0.0080454
-0.0098392 -0.0015518 -0.41576 -0.062604 0.0083551 -0.010778 0.0014991 0.011665
0.0081324 0.0023238 0.0013667 0.013215
-0.0078485 0.012994 0.0085138 -0.010439 -0.2667 0.1996 0.0066387 0.003499
-0.0016303 0.0081547 0.00029301 0.012596
-0.0054016 0.012191 0.0016244 0.011855 0.0067302 0.0037793 -0.3319 0.0435
-0.01837 -0.0046361 0.017731 0.026196
0.013234 0.0045621 0.0077523 0.0021439 -0.0016217 0.0079263 -0.018499 -0.0047589
-0.2474 -0.1916 -0.027151 0.0055981
-0.0056437 0.0080053 0.0020558 0.012735 0.00038301 0.012317 0.016544 0.024387
-0.026105 0.0061669 -0.27126 -0.11896
560000000 -0.31697 0.11369 -0.022985 -0.064241 -0.00010266 0.012762 0.004819 0.011222
0.011999 0.0050888 0.0096937 0.0084439
-0.023166 -0.063929 -0.37693 0.099604 -0.041655 -0.037739 0.012878 0.0034392
-0.013347 -0.0035866 0.0048042 -0.00065045
-0.00055558 0.012177 -0.041811 -0.038122 -0.18562 0.25072 -6.3173e-06 -0.0049473
0.017818 0.0054024 0.0076685 -0.0060354
0.0049686 0.010609 0.013497 0.0031195 -8.8975e-05 -0.004744 -0.30666 0.13587
0.0055257 -0.024113 0.0046972 -0.020543
0.010708 0.0041054 -0.011763 -0.0045488 0.018092 0.0054238 0.0056497 -0.024368
-0.31213 -0.015234 0.0097877 -0.049624
0.011161 0.0086982 0.0040031 -0.00040405 0.0079047 -0.0060425 0.0045245 -0.021505
0.009139 -0.047676 -0.3312 0.026373
620000000 -0.27775 0.095339 -0.023356 0.008645 0.0033624 0.0094518 0.0083462 -0.0045369
0.012324 -0.0010519 -3.2577e-08 -0.0023831
-0.023262 0.0085915 -0.40348 0.049963 -0.018426 0.00062095 -0.0012582 -0.0019361
0.011835 -0.0059368 0.0012042 -0.0032904
0.0032134 0.0093839 -0.018454 0.00079077 -0.1553 0.26038 -0.00073453 -0.0050366
-0.0034542 -0.0028856 0.0089376 -0.002777
0.008407 -0.0048732 -0.0013705 -0.0020705 -0.00057144 -0.004996 -0.26532 0.14664
-0.03889 -0.021143 0.012341 0.026821
0.011714 -0.00011049 0.01234 -0.0059906 -0.0035759 -0.0029527 -0.038684 -0.020644
-0.22979 -0.044303 -0.040122 0.011008
0.00079386 -0.0026378 0.0014507 -0.0032107 0.0088635 -0.0029156 0.012263 0.026665
-0.04001 0.0107 -0.25297 -0.007051
680000000 -0.2383 0.18472 -0.026205 -0.014391 0.0052213 0.0054039 0.0016403 -0.0074239
-0.001963 -0.01193 0.0057053 -0.0074717
-0.026138 -0.01419 -0.38967 0.15083 -0.032261 -0.0020037 -0.001161 -0.00076574
-0.0017126 -0.0092858 -0.0010818 -0.0017303
0.0052269 0.0052498 -0.032314 -0.0019533 -0.10363 0.28089 -0.00078166 -0.00032994
-0.0017531 0.00010843 -0.0031379 -0.0091948
0.0015078 -0.0078861 -0.0011415 -0.00079646 -0.00070846 -0.00049171 -0.22046 0.19814
-0.023383 -0.0084192 -0.0087618 -0.011641
-0.001853 -0.011753 -0.0017358 -0.0092026 -0.001844 0.00016285 -0.023476 -0.0082813
-0.278 0.055215 -0.0080693 -0.0081609
0.0059125 -0.0074669 -0.0010113 -0.001791 -0.0031321 -0.009246 -0.0088485 -0.011199
-0.0084522 -0.008354 -0.25898 0.096173
740000000 -0.19339 0.17811 -0.039388 0.026429 0.013776 -0.0047662 -0.00053181 -0.00443
-0.0050405 -0.0040598 -0.0065207 0.0034203
-0.039381 0.02617 -0.33516 0.1692 -0.036626 0.034347 8.6701e-05 -0.0056939
-0.012187 0.0076202 -0.0012151 -0.0062156
0.013756 -0.0047763 -0.036392 0.034549 -0.069274 0.2784 -0.0022104 0.0033244
-0.0032103 -0.0060128 -0.0014866 0.0015403
-0.00038228 -0.0044394 -0.0001773 -0.0058914 -0.0020733 0.0033151 -0.20337 0.20477
-0.042339 -0.0077998 0.022543 0.01506
-0.0051051 -0.0038173 -0.011665 0.0080064 -0.0032369 -0.0059676 -0.042286 -0.0078353
-0.18038 0.082766 -0.041758 0.00072832
-0.0064459 0.0030906 -0.0013898 -0.0061723 -0.0013912 0.0016034 0.022665 0.014889
-0.041741 0.0010014 -0.24795 0.10229
800000000 -0.16184 0.22108 -0.022775 0.016019 0.0056571 -0.01057 -0.0043494 -0.0021855
-0.0048346 0.0020973 0.0042117 0.00056925
-0.022569 0.015927 -0.34083 0.23963 -0.008503 0.033919 -0.0025337 0.0019819
-0.0013828 0.0027984 0.00082611 0.0051447
0.0055669 -0.01061 -0.0084953 0.033999 -0.030841 0.30226 0.00083411 0.0014645
-2.5953e-06 0.0034471 -0.0017174 0.0010638
-0.0045123 -0.0021462 -0.0025844 0.0021317 0.00088288 0.0015475 -0.17383 0.23265
-0.028847 0.012958 0.013687 -0.0099191
-0.0046478 0.0022911 -0.0013476 0.0028522 -4.618e-05 0.003488 -0.028869 0.012858
-0.22074 0.1114 -0.017211 0.019594
0.0044837 7.6682e-05 0.00078281 0.0049823 -0.0016807 0.001045 0.013909 -0.009734
-0.017538 0.018783 -0.24024 0.15127
860000000 -0.12706 0.24147 -0.017712 0.030521 -0.0029189 -0.010188 -0.0016632 0.00064874
0.0041269 0.0053848 -0.0035003 -0.0028244
-0.017725 0.030557 -0.29243 0.28278 0.0074162 0.034376 0.00040819 0.0017746
0.003928 0.00092275 0.0031241 0.00022883
-0.0029244 -0.01018 0.0075232 0.034338 0.016563 0.31064 -0.00051508 -0.00016087
0.0023236 -0.0012118 0.0014869 0.0041319
-0.0017378 0.00077462 0.00041464 0.0018447 -0.00058606 -0.0001372 -0.13675 0.24318
-0.018216 0.017823 -0.006172 -0.0089383
0.0039088 0.0053933 0.0038238 0.00096724 0.0023098 -0.0010982 -0.018199 0.017738
-0.16399 0.16178 -0.023918 0.01688
-0.0035484 -0.003123 0.0032023 0.00043076 0.0015633 0.0041184 -0.0057825 -0.0092011
-0.024193 0.016926 -0.19003 0.19503
920000000 -0.10323 0.26482 0.0045254 0.038261 -0.0091367 -0.0049892 -0.0017927 0.0018719
0.001761 0.0018147 0.0027782 -0.0014511
0.0045562 0.038211 -0.26534 0.30383 0.028037 0.022781 0.0014864 0.0013669
0.0078077 -0.0003709 0.0041474 -0.0027811
-0.0092042 -0.004878 0.028125 0.022716 0.06202 0.31194 0.0020066 2.5663e-05
0.0013053 -0.00043355 0.00091485 -0.0011685
-0.0019029 0.0018901 0.0015258 0.0014465 0.0019919 1.2595e-05 -0.11283 0.25947
-0.011125 0.030444 0.0033728 -0.0065799
0.00197 0.0016939 0.0078091 -0.00045065 0.0013196 -0.00047608 -0.011037 0.030404
-0.1522 0.16616 -0.0022258 0.026041
0.0027834 -0.0016056 0.0039948 -0.0026796 0.00086745 -0.0012132 0.0035298 -0.0069337
-0.0024842 0.025865 -0.19702 0.20964
980000000 -0.05672 0.2847 0.016892 0.030101 -0.0093557 0.0041617 0.0018708 0.0036417
0.0038006 -0.0017995 -0.0031175 -0.0021873
0.016908 0.030035 -0.21216 0.33838 0.03328 0.0053737 0.0020659 -0.00010237
0.001748 -0.0061032 -0.00028331 -0.00238
-0.009332 0.004172 0.033332 0.0052832 0.10777 0.30628 0.00074365 -0.0011693
0.00050842 -0.0019573 0.0014849 -0.00012643
0.001846 0.0034648 0.0020346 -0.00017943 0.00069316 -0.001137 -0.074666 0.27081
0.0071041 0.030104 -0.0087463 -0.0069066
0.003958 -0.0018497 0.0015849 -0.0060184 0.00053252 -0.0020067 0.0071601 0.030129
-0.11936 0.19679 0.0062436 0.019486
-0.0031361 -0.0022857 -0.00017325 -0.0023934 0.0014734 -0.00019847 -0.0087482 -0.006735
0.0055995 0.019317 -0.15282 0.25274
1040000000 -0.015338 0.29388 0.032775 0.019099 -0.0015955 0.0070549 0.0026922 0.00085583
0.00042616 -0.0036621 -0.00022943 -0.0017227
0.032734 0.019114 -0.17729 0.35201 0.02988 -0.014422 0.0015533 -0.0016809
-0.0019996 -0.0026958 -0.0010132 -0.0029576
-0.0016273 0.0070594 0.029898 -0.014553 0.15357 0.29339 -0.00040734 -0.0015894
-0.001468 -0.00099475 -0.00058161 -0.001081
0.0026831 0.00086771 0.0015102 -0.0016097 -0.0004184 -0.0016199 -0.047158 0.28053
0.019355 0.018906 -0.0026603 0.0010807
0.0003981 -0.003655 -0.002141 -0.0027919 -0.0014694 -0.0010271 0.019382 0.018871
-0.086111 0.20384 0.0136 0.017633
-0.00035533 -0.0017526 -0.00093921 -0.0028959 -0.00058954 -0.0010788 -0.0025108 0.0012684
0.014181 0.017614 -0.13058 0.27303
1100000000 0.029729 0.30278 0.036336 -0.0033988 0.0027956 0.0041875 0.0024164 -0.0010338
-0.0021075 -0.0030663 -0.0039793 -3.5422e-05
0.036333 -0.0034236 -0.13411 0.37006 0.015934 -0.027853 3.4563e-05 -0.0017933
-0.0036781 -0.00087955 -0.003612 -0.00058313
0.0028278 0.0042184 0.015813 -0.027889 0.19958 0.27408 -0.0019334 6.7487e-05
-0.0017807 0.00053916 -0.0011139 -0.00050275
0.0023966 -0.0010618 7.6478e-05 -0.0018575 -0.0019268 0.00010556 -0.0067426 0.28556
0.024946 0.0057109 -0.002361 0.00017387
-0.0021544 -0.0030795 -0.0036506 -0.00088942 -0.0017413 0.00054191 0.024963 0.0057187
-0.065597 0.21645 0.019413 0.008239
-0.0040068 -3.9818e-05 -0.0036293 -0.00049156 -0.0011005 -0.0004984 -0.0023805 0.00030801
0.01951 0.008285 -0.084908 0.30171
1160000000 0.080711 0.29879 0.024459 -0.020461 0.0027826 -0.00035137 -5.3153e-05 -0.0024523
-0.0039875 -0.00085051 -0.00095287 0.0041557
0.024472 -0.020437 -0.090802 0.37451 -0.0032438 -0.029528 -0.0015942 -0.0016681
-0.0027884 0.0024781 -0.0015065 0.0019645
0.0027761 -0.00039392 -0.0033568 -0.029528 0.2429 0.2441 -0.0008719 0.0018038
-0.0007199 0.001879 -0.00088069 0.00019938
-8.9261e-05 -0.0024867 -0.0015299 -0.0017319 -0.00091039 0.0017974 0.032561 0.2828
0.021526 -0.01014 -0.0031964 0.0050741
-0.0040263 -0.00084647 -0.0027737 0.0025865 -0.00068443 0.0018897 0.021536 -0.010152
-0.031025 0.22379 0.01815 -0.00072827
-0.0010042 0.004121 -0.0014984 0.0019641 -0.00089748 0.0002233 -0.0031373 0.0051596
0.018226 -0.00046387 -0.037969 0.30423
1220000000 0.12482 0.28891 0.011142 -0.030077 -0.0015486 -0.00092695 5.7916e-05 -0.00095253
-0.0026712 0.0021682 0.00098807 0.0020049
0.01113 -0.030051 -0.046761 0.38767 -0.016842 -0.021912 -0.0026365 0.00046191
-1.1564e-05 0.0031323 -0.00087478 0.0018883
-0.0015438 -0.00090442 -0.01694 -0.021874 0.2822 0.20583 0.00068407 0.0017997
0.00058776 0.0012823 0.00024861 0.00045859
7.1235e-05 -0.00096692 -0.0026652 0.00046915 0.00070577 0.0017632 0.072651 0.27419
0.011116 -0.017156 0.002013 0.0014765
-0.0026773 0.0022212 -2.3066e-05 0.0031245 0.00059712 0.0013026 0.011085 -0.017213
-0.0071621 0.23193 0.013583 -0.01302
0.00099699 0.0019937 -0.00087355 0.0019009 0.00026543 0.0005248 0.0021432 0.0014104
0.013557 -0.013021 -0.0063528 0.31883
1280000000 0.1751 0.26824 -0.0075543 -0.028856 -0.0019522 0.0025309 -0.00077749 -0.0020627
-0.00075408 0.0032271 0.0025095 0.0013712
-0.0075279 -0.028822 -0.0007409 0.37944 -0.024121 -0.0090428 -0.00097539 0.0014872
0.0017281 0.001849 0.00053369 0.0020752
-0.0019671 0.0024955 -0.024191 -0.0089456 0.31308 0.16232 0.0016233 6.0446e-05
0.0011727 0.00033812 0.00033194 0.00025557
-0.00079569 -0.0020563 -0.00099645 0.0015255 0.0016102 7.6458e-05 0.10959 0.2581
0.0013154 -0.019675 -0.00013189 0.00021924
-0.00075477 0.0032446 0.0017557 0.00178 0.0011982 0.00032544 0.0012786 -0.019682
0.029743 0.23466 0.0029635 -0.01524
0.002497 0.0012869 0.00052451 0.002001 0.00035639 0.00022926 -0.00015979 0.00027847
0.0028628 -0.015277 0.040649 0.32034
1340000000 0.2125 0.23544 -0.017471 -0.0193 0.0007795 0.0047703 -0.0018041 -0.00089539
0.0013973 0.0026096 0.001794 -0.0013876
-0.017442 -0.019298 0.038755 0.37196 -0.022016 0.0040052 -7.9747e-05 0.0020591
0.0019914 0.0008054 0.0012507 0.0007953
0.00080411 0.0047442 -0.022029 0.0041251 0.33543 0.11519 0.0011508 -0.00091518
0.00064259 -0.00066708 7.2488e-06 0.00024583
-0.0018298 -0.00087589 -9.2266e-05 0.0020405 0.0011524 -0.00092467 0.14283 0.23721
-0.0083416 -0.017035 0.00090421 0.00055505
0.0013793 0.0026112 0.002017 0.0007706 0.00062404 -0.00062558 -0.0083809 -0.017
0.059591 0.22985 -0.003853 -0.013916
0.0018032 -0.0013776 0.0012867 0.00074735 5.0185e-05 0.00024701 0.00083417 0.00053743
-0.0038505 -0.013895 0.078608 0.3152
1400000000 0.24627 0.19806 -0.023526 -0.007756 0.0053456 0.0033691 -0.002223 0.00058289
0.002422 0.00098412 0.00035195 -0.0015794
-0.023473 -0.0077728 0.076428 0.3597 -0.015378 0.012542 0.0013849 0.001317
0.00128 -0.00078245 0.0012062 0.00014487
0.0053901 0.0033373 -0.015343 0.012609 0.34896 0.062114 8.0904e-05 -0.0016565
9.5011e-05 -0.00041287 0.000391 0.00017696
-0.0022387 0.00061565 0.0013983 0.0013269 9.7341e-05 -0.0016385 0.17251 0.20818
-0.014522 -0.010233 -0.00084506 -0.00017449
0.0024152 0.00096315 0.0012769 -0.00079542 9.7535e-05 -0.00039995 -0.014571 -0.010223
0.092699 0.22499 -0.01019 -0.0087349
0.0003596 -0.0016036 0.0011827 0.00014868 0.00040206 0.00011117 -0.0007901 -0.00018677
-0.010122 -0.0087267 0.12245 0.30384
1460000000 0.26975 0.15451 -0.020546 0.004602 0.0058916 -0.0018059 -0.0015926 0.0017563
0.002139 -0.00042848 -0.00039745 -0.00096758
-0.020505 0.0045754 0.11111 0.33816 -0.0063517 0.015765 0.0017202 0.00014589
0.00091679 -0.0014096 0.0011901 -0.00059258
0.0058952 -0.0018572 -0.0062747 0.015818 0.35569 0.0080509 -0.0011739 -0.0013098
0.00020714 -0.00022242 0.00065563 -0.00023264
-0.0015774 0.0018048 0.0017364 0.00012174 -0.0011974 -0.001314 0.19912 0.17861
-0.015956 -0.0036211 -0.00076725 0.001954
0.0021235 -0.00044498 0.00093719 -0.0014454 0.00019221 -0.0002285 -0.015964 -0.0035844
0.12192 0.21033 -0.011928 -0.0028197
-0.00034679 -0.00093158 0.001208 -0.00059275 0.00075081 -0.00024082 -0.0008534 0.0019929
-0.011904 -0.0029039 0.15595 0.28313
1520000000 0.28248 0.11303 -0.014941 0.010198 0.0034795 -0.0043866 8.4358e-05 0.0026062
0.0020796 -0.0018935 -0.0011029 -9.4681e-05
-0.014935 0.010189 0.14502 0.32385 0.0015811 0.013485 0.001625 -0.00078608
4.8698e-05 -0.0011368 0.0003283 -0.0010495
0.0034806 -0.0043517 0.0016651 0.013516 0.34921 -0.047952 -0.0011168 -0.00043428
0.00067748 -0.00091205 1.3985e-05 -0.00023396
0.00010461 0.0026088 0.001632 -0.00079734 -0.0011212 -0.00041616 0.2222 0.14002
-0.015494 0.0024435 0.0014967 0.0021075
0.0020585 -0.0018945 1.4636e-05 -0.0011512 0.00068772 -0.00088839 -0.015487 0.002497
0.14995 0.19677 -0.01185 0.0017391
-0.0011612 -0.00011263 0.00033464 -0.0010235 2.8899e-05 -0.00024829 0.0015044 0.0020459
-0.011787 0.0015959 0.18862 0.26251
1580000000 0.29266 0.067003 -0.0081996 0.01347 -0.00097105 -0.0050787 0.0014876 0.0019451
-0.00014457 -0.0021501 -0.00021543 0.00035743
-0.0082104 0.013448 0.17271 0.29924 0.0054392 0.0084719 0.00049693 -0.0015751
-0.00060063 -0.0010619 -0.00017317 -0.00085428
-0.0010177 -0.0050842 0.0054872 0.0084691 0.3298 -0.10544 -0.0017424 0.00061297
-0.00035109 -0.0011908 0.00020282 -0.00043875
0.0015055 0.0019393 0.00049164 -0.0015706 -0.0017059 0.00059954 0.23586 0.10034
-0.012094 0.0075018 0.0020589 0.00074049
-0.00014139 -0.0021636 -0.00062125 -0.0010781 -0.00035677 -0.001209 -0.01208 0.0074989
0.17411 0.17886 -0.0094402 0.0072623
-0.0002232 0.00031414 -0.00019157 -0.00086945 0.00021877 -0.00052206 0.0020981 0.00072572
-0.0094161 0.007221 0.22036 0.23569
1640000000 0.29516 0.025806 -0.0014704 0.012358 -0.0029502 -0.0026422 0.0027585 0.0011244
-0.00069229 -0.001606 -0.00035047 0.00059793
-0.0014622 0.012364 0.20259 0.2744 0.0061546 0.0034967 -0.00063753 -0.0017549
-0.0010596 -0.00039071 -0.00058298 -0.00069822
-0.0029513 -0.002636 0.0061847 0.0034596 0.30163 -0.1549 -0.00071887 0.0015013
-0.0011042 -0.00093265 -0.00015734 -0.0003671
0.0027476 0.0010961 -0.00065121 -0.0017221 -0.00074071 0.0015064 0.24815 0.051296
-0.0078089 0.0093186 0.0025011 -0.0007593
-0.00072141 -0.0015917 -0.0010626 -0.00039638 -0.0011081 -0.00096682 -0.0077784 0.0093554
0.19722 0.15507 -0.0046377 0.0092286
-0.00031352 0.00057176 -0.00058068 -0.0006867 -8.9635e-05 -0.00036191 0.0024951 -0.000803
-0.0046249 0.0092046 0.24586 0.20466
1700000000 0.28832 -0.019578 0.0020437 0.0095636 -0.003679 6.5115e-05 0.0032165 -0.0012599
-0.0019677 -0.00066168 0.00063308 0.00046806
0.0020036 0.0095544 0.22103 0.24299 0.0040596 0.00049248 -0.0014613 -0.00061008
-0.00081979 8.3528e-05 -0.00092881 -0.00049516
-0.0036637 8.1192e-05 0.0040562 0.00045512 0.2585 -0.19472 0.0005418 0.0016465
-0.0019019 -6.2816e-05 -0.00043088 -0.00090039
0.0031883 -0.0012489 -0.0014593 -0.00060218 0.00056868 0.0016438 0.2445 0.0013953
-0.0048115 0.010013 0.0016369 -0.002181
-0.001996 -0.00068179 -0.00081274 8.5108e-05 -0.0019076 -9.2286e-05 -0.0047646 0.010063
0.21453 0.1347 -9.276e-05 0.0095939
0.00053857 0.000416 -0.00096895 -0.00048151 -0.00046776 -0.00093301 0.0016138 -0.0021141
-0.00012619 0.0096435 0.26199 0.17038
1760000000 0.27667 -0.068405 0.004398 0.0062478 -0.0023539 0.00099309 0.0013262 -0.0033984
-0.0015071 0.00066184 0.00034337 -0.00048632
0.0044226 0.006244 0.24731 0.20313 0.0017381 -0.0014661 -0.0011852 0.00014947
-0.0010355 0.00093523 -0.00062894 0.00039015
-0.002312 0.0010097 0.0017669 -0.0014648 0.21052 -0.22826 0.0011935 0.0010597
-0.0012303 0.0014433 -0.0011524 -0.00061813
0.0012651 -0.0034225 -0.0011865 0.00015227 0.0011789 0.0010221 0.23521 -0.049854
-0.0011565 0.0093098 -0.00010857 -0.0025437
-0.0014611 0.00066338 -0.0010189 0.00095888 -0.001236 0.0014858 -0.0011301 0.0092749
0.22971 0.10026 0.0038117 0.0071582
0.00034845 -0.00048184 -0.00063715 0.00039642 -0.0012283 -0.00059697 -0.0001906 -0.0025483
0.0036867 0.0070838 0.27449 0.13262
1820000000 0.2523 -0.1059 0.0045775 0.0026303 -0.00030132 0.002488 -0.00094132 -0.0031393
-0.0011449 0.0010178 1.3348e-06 -0.00010691
0.0045712 0.0026577 0.25761 0.17299 -0.00060035 -0.00030895 -0.0013369 0.00092641
-9.5711e-06 0.0012604 -0.00057889 0.00053693
-0.00028072 0.0025388 -0.000599 -0.00029051 0.15963 -0.24399 0.0015769 0.00036711
-0.00016913 0.0023872 -0.0014079 0.00035022
-0.0010132 -0.0031304 -0.0013262 0.00089808 0.0016136 0.00027641 0.20509 -0.096966
0.00072384 0.0078659 -0.0016922 -0.0014733
-0.0011691 0.0010386 -4.0516e-06 0.0012514 -0.0001502 0.0023691 0.00076506 0.0078656
0.24696 0.071623 0.004632 0.0038015
-3.5318e-05 -0.00010479 -0.00057909 0.00054499 -0.0014129 0.00035029 -0.0015951 -0.0016221
0.0047169 0.003811 0.27646 0.096609
1880000000 0.21699 -0.14654 0.002395 0.00023078 -0.00040917 0.0021376 -0.0029258 -0.0022642
-0.000256 0.0018663 8.3748e-05 -0.00065452
0.0023697 0.00020581 0.26222 0.12632 -0.002468 0.0016413 -0.00022111 0.0017484
0.00059106 0.0012778 9.9168e-05 0.00097783
-0.00041471 0.0021322 -0.0025004 0.0016369 0.10753 -0.25305 0.0018004 -0.00081771
0.0015371 0.0020039 -0.0011186 0.0013727
-0.0029444 -0.0022324 -0.00022539 0.001737 0.0017537 -0.0008633 0.16422 -0.13694
0.0016109 0.0056509 -0.0024129 0.00021615
-0.00024787 0.0018627 0.00062077 0.0012758 0.001532 0.0020434 0.0017044 0.0055955
0.25106 0.039986 0.0049416 0.0014065
5.0554e-05 -0.00057579 0.00010051 0.000947 -0.0010831 0.0013382 -0.0024266 0.00032289
0.0049403 0.0014902 0.27639 0.062507
1940000000 0.17756 -0.1721 -0.00012404 -0.0014138 0.0013724 0.0021221 -0.0037929 0.00047618
0.0014566 0.0011224 -0.00042108 -0.00057595
-0.00011146 -0.0014256 0.26285 0.094392 -0.001393 0.0039858 0.0010203 0.0013719
0.0019241 0.00046664 0.0010437 0.00037908
0.0013938 0.0020866 -0.0013472 0.0040916 0.06213 -0.2461 0.00052106 -0.0022396
0.00248 0.00032577 0.0005694 0.0017023
-0.0038221 0.00053112 0.0010827 0.0013765 0.00055698 -0.0021297 0.11213 -0.16729
0.0010775 0.0041749 -0.0015214 0.0015695
0.001413 0.0011578 0.0019124 0.00046852 0.0024603 0.00032922 0.0011032 0.0041683
0.25418 0.0016931 0.0037696 -0.0016628
-0.00051546 -0.00056251 0.0010657 0.00037462 0.0005861 0.0015307 -0.001468 0.0016022
0.0037224 -0.0016869 0.26555 0.026518
2000000000 0.13152 -0.18678 -0.0038998 0.00067108 0.0026027 0.0015438 -0.0023411 0.0038125
0.0012623 0.00038479 -0.00061772 0.0004643
-0.0038617 0.00063698 0.2487 0.058674 -0.00088302 0.0058444 0.0016622 0.00052244
0.0013143 -0.0011448 0.00045977 0.00017488
0.0026276 0.0015007 -0.00083461 0.0057783 0.019094 -0.23223 -0.0012078 -0.0013467
0.0020556 -0.0012636 0.0015054 0.001468
-0.0023505 0.0038184 0.001667 0.00047601 -0.0012156 -0.0014271 0.058553 -0.17717
-0.00020219 0.0035853 -0.00020365 0.0023339
0.00133 0.00035998 0.0013295 -0.0011235 0.0020495 -0.0012612 -0.00018461 0.0035577
0.24968 -0.03175 0.00059819 -0.0027847
