!Keysight Technologies,M9804A,MY58100912,A.14.10.03
!Date: Thursday, April 27, 2023 10:28:33
!Correction: S11(C  6-Port  ) 
!S12(C  6-Port  ) 
!S13(C  6-Port  ) 
!S14(C  6-Port  ) 
!S15(C  6-Port  ) 
!S16(C  6-Port  ) 
!S21(C  6-Port  ) 
!S22(C  6-Port  ) 
!S23(C  6-Port  ) 
!S24(C  6-Port  ) 
!S25(C  6-Port  ) 
!S26(C  6-Port  ) 
!S31(C  6-Port  ) 
!S32(C  6-Port  ) 
!S33(C  6-Port  ) 
!S34(C  6-Port  ) 
!S35(C  6-Port  ) 
!S36(C  6-Port  ) 
!S41(C  6-Port  ) 
!S42(C  6-Port  ) 
!S43(C  6-Port  ) 
!S44(C  6-Port  ) 
!S45(C  6-Port  ) 
!S46(C  6-Port  ) 
!S51(C  6-Port  ) 
!S52(C  6-Port  ) 
!S53(C  6-Port  ) 
!S54(C  6-Port  ) 
!S55(C  6-Port  ) 
!S56(C  6-Port  ) 
!S61(C  6-Port  ) 
!S62(C  6-Port  ) 
!S63(C  6-Port  ) 
!S64(C  6-Port  ) 
!S65(C  6-Port  ) 
!S66(C  6-Port  ) 
!S6P File: Measurement: :
# Hz S  RI   R 50
500000000 -0.3342 -0.052012 -0.009908 -0.0011025 -0.0079676 0.012996 -0.0053153 0.011843
0.012695 0.0048084 -0.0049481 0.0079127
-0.00985 -0.0010344 -0.41579 -0.06288 0.008428 -0.010455 0.00122 0.012078
0.0082115 0.0025369 0.0015118 0.012743
-0.0079606 0.013122 0.0082766 -0.010734 -0.26677 0.19964 0.00679 0.0038022
-0.0014775 0.0081063 0.00041431 0.011942
-0.0049602 0.011938 0.0013861 0.011856 0.0067733 0.0037634 -0.33097 0.044732
-0.019167 -0.0044772 0.017262 0.025205
0.01273 0.0047288 0.0081629 0.0023818 -0.0017978 0.0082336 -0.019259 -0.0049369
-0.2471 -0.19288 -0.026816 0.0062319
-0.0052235 0.0079929 0.0012767 0.013214 0.00037651 0.012335 0.01731 0.026366
-0.027351 0.0057153 -0.27162 -0.12074
560000000 -0.31775 0.11376 -0.02301 -0.064734 -0.00039692 0.012795 0.004585 0.010748
0.011585 0.0052527 0.0099599 0.0086026
-0.022819 -0.064722 -0.37617 0.099744 -0.042067 -0.038259 0.013649 0.0032921
-0.013053 -0.0042158 0.0044143 -0.00079605
-0.00020217 0.012733 -0.041901 -0.037939 -0.18505 0.25077 -0.00028477 -0.0048242
0.018272 0.005607 0.0080858 -0.0057244
0.0047167 0.010996 0.013357 0.0032564 -0.00022964 -0.0048029 -0.30615 0.13604
0.0052727 -0.024677 0.0047455 -0.021022
0.011488 0.0050826 -0.013019 -0.0045493 0.018349 0.0061498 0.0053322 -0.024634
-0.31138 -0.012435 0.0095382 -0.048979
0.010037 0.0085524 0.0047315 -0.0006195 0.0080215 -0.005931 0.0043807 -0.020698
0.0095992 -0.049891 -0.33063 0.02719
620000000 -0.27804 0.094377 -0.023067 0.0084871 0.0033519 0.0093059 0.0081114 -0.0042155
0.012813 -0.001144 0.00057972 -0.0025609
-0.023039 0.008484 -0.40346 0.049927 -0.018432 0.00065935 -0.0012551 -0.0019706
0.012099 -0.005979 0.0013348 -0.00316
0.0034128 0.0094202 -0.018443 0.00063889 -0.15523 0.2603 -0.00071131 -0.0050086
-0.0033729 -0.0028823 0.0089201 -0.0030105
0.0075826 -0.0044803 -0.0013333 -0.0019065 -0.00068413 -0.0050301 -0.26546 0.14676
-0.038468 -0.020946 0.012078 0.027198
0.012659 -0.0013178 0.012077 -0.0061826 -0.0033463 -0.0029259 -0.038664 -0.020814
-0.22988 -0.044471 -0.039708 0.010982
8.0987e-05 -0.0025524 0.0010949 -0.0031228 0.0087158 -0.0031329 0.012392 0.026373
-0.040013 0.011071 -0.2535 -0.0070626
680000000 -0.23827 0.18452 -0.026184 -0.014318 0.0053151 0.0053476 0.0015366 -0.0074936
-0.002001 -0.011795 0.0052668 -0.007483
-0.026194 -0.014352 -0.38964 0.15085 -0.032204 -0.0020085 -0.0013121 -0.00078922
-0.0017561 -0.0092794 -0.0010948 -0.0019092
0.0052561 0.005381 -0.032286 -0.0019199 -0.10352 0.28085 -0.00084045 -0.00034585
-0.0018319 0.00018517 -0.0030727 -0.0094073
0.0015237 -0.0073154 -0.0012856 -0.00082106 -0.00078726 -0.00031148 -0.2206 0.1978
-0.023571 -0.0085468 -0.0089166 -0.011583
-0.00197 -0.011814 -0.0018307 -0.0093029 -0.0018953 0.00016709 -0.023746 -0.0083943
-0.27814 0.055322 -0.0081625 -0.0082038
0.0054988 -0.0076217 -0.0011419 -0.0017856 -0.0028069 -0.0093435 -0.0088118 -0.011732
-0.0081277 -0.0081267 -0.25944 0.096926
740000000 -0.19319 0.17812 -0.039393 0.026447 0.013629 -0.0048739 -0.00038518 -0.0042687
-0.0047846 -0.0034991 -0.0064469 0.0033326
-0.039353 0.026368 -0.33528 0.16974 -0.036722 0.034497 -2.4072e-05 -0.0054137
-0.011616 0.0075426 -0.0010168 -0.0059833
0.013755 -0.0047805 -0.036633 0.034394 -0.069364 0.27849 -0.002253 0.0033851
-0.0032611 -0.0059605 -0.0013545 0.0016292
-0.00041559 -0.0042291 -0.00033561 -0.0057676 -0.0022006 0.0034374 -0.20335 0.20543
-0.042112 -0.0078804 0.022647 0.014758
-0.004764 -0.0034427 -0.011683 0.0074286 -0.0032172 -0.0065592 -0.042684 -0.0079878
-0.1809 0.083138 -0.041636 0.00091863
-0.0064822 0.0033659 -0.0011682 -0.0060646 -0.0014795 0.0016936 0.022602 0.015485
-0.041107 0.00074646 -0.24751 0.10185
800000000 -0.16176 0.22097 -0.022656 0.016104 0.0056599 -0.01054 -0.004537 -0.0022409
-0.0049 0.0021434 0.0042853 0.00053382
-0.022676 0.016085 -0.34079 0.23963 -0.0085855 0.033924 -0.0024752 0.0019973
-0.0015081 0.0028577 0.00055998 0.005159
0.0056259 -0.010594 -0.0084619 0.034001 -0.030909 0.3023 0.00090048 0.001481
-0.00010365 0.0034866 -0.0017059 0.0010058
-0.0044005 -0.0020716 -0.0024387 0.0020825 0.00088214 0.0014883 -0.174 0.23299
-0.028456 0.012934 0.013705 -0.0099655
-0.0048779 0.0021873 -0.001462 0.0029113 -1.3022e-05 0.0035131 -0.028676 0.012491
-0.22149 0.11108 -0.017407 0.019152
0.0043618 0.00057418 0.00083166 0.0052304 -0.0016113 0.00092089 0.01362 -0.0095271
-0.017371 0.019483 -0.24052 0.15118
860000000 -0.12689 0.24142 -0.017768 0.030678 -0.0029188 -0.01024 -0.0017038 0.00061102
0.0041926 0.0053872 -0.0033958 -0.002833
-0.017793 0.030655 -0.29244 0.28266 0.0074317 0.034359 0.00024651 0.0018691
0.0040647 0.0011257 0.0033076 0.00014182
-0.0029461 -0.010202 0.0075862 0.03437 0.016596 0.31064 -0.00058492 -0.00014772
0.0022932 -0.0011156 0.0016163 0.0041532
-0.0016749 0.00055056 0.00032869 0.0019228 -0.00056861 -0.00014375 -0.13689 0.2429
-0.018214 0.017902 -0.0059778 -0.0090148
0.0041876 0.0053709 0.0040611 0.0011116 0.0021897 -0.0011477 -0.017898 0.01777
-0.16377 0.16208 -0.024083 0.01723
-0.0035671 -0.0027792 0.0031365 8.7003e-05 0.0016082 0.0042261 -0.0063634 -0.0089229
-0.024203 0.017078 -0.18882 0.19515
920000000 -0.10314 0.2648 0.0045958 0.038261 -0.0091841 -0.0049475 -0.0018039 0.001944
0.0017504 0.0018205 0.0027233 -0.0015803
0.0045559 0.038254 -0.26513 0.30382 0.028047 0.022768 0.0013548 0.0013593
0.0078216 -0.00047101 0.0040302 -0.0025041
-0.0091514 -0.0049484 0.028178 0.022703 0.062007 0.31196 0.0019574 -2.6215e-05
0.0013594 -0.00050447 0.00085921 -0.0012156
-0.0017826 0.001948 0.0014693 0.001303 0.0019435 -1.5918e-05 -0.11281 0.25962
-0.011 0.030432 0.0034715 -0.0067615
0.001714 0.0018427 0.0078549 -0.000433 0.0013645 -0.00050086 -0.010919 0.030568
-0.15229 0.16618 -0.0024309 0.025869
0.0027451 -0.0015591 0.0040976 -0.002749 0.00076173 -0.0012561 0.0034311 -0.0068456
-0.0021123 0.026215 -0.19699 0.20965
980000000 -0.056775 0.28481 0.016863 0.030078 -0.0093937 0.0041382 0.001875 0.0035146
0.0037772 -0.0018381 -0.0033405 -0.0022926
0.016812 0.030067 -0.21214 0.33843 0.033293 0.005389 0.0021043 -0.00015014
0.0016725 -0.006171 -0.00045126 -0.0025261
-0.0093799 0.0041732 0.033314 0.0052969 0.10779 0.30628 0.00073575 -0.0011381
0.00050387 -0.0019875 0.0014694 -0.00022605
0.0018847 0.0035562 0.0021127 -0.00011663 0.00074405 -0.0011422 -0.074542 0.27068
0.0071919 0.030099 -0.0086616 -0.0067557
0.0037628 -0.0018304 0.0016177 -0.006113 0.00045982 -0.0019714 0.0070664 0.029909
-0.11942 0.19691 0.0056781 0.019311
-0.00321 -0.0022777 -0.00027738 -0.0024333 0.0015032 -0.00015369 -0.0088591 -0.0066796
0.0060066 0.019638 -0.15294 0.25333
1040000000 -0.015334 0.29377 0.032829 0.019046 -0.0016282 0.0070257 0.0026532 0.00083021
0.00033648 -0.0036124 -0.00021636 -0.0017829
0.032764 0.019064 -0.17717 0.35198 0.029929 -0.014466 0.0015829 -0.0016417
-0.0020185 -0.0027176 -0.00090332 -0.002983
-0.0015623 0.0070408 0.029883 -0.014573 0.1536 0.29337 -0.00043265 -0.001625
-0.0014985 -0.0010094 -0.00057155 -0.0010932
0.0026928 0.000836 0.001571 -0.0016135 -0.00044634 -0.001621 -0.047229 0.28058
0.019377 0.018948 -0.0025436 0.0011311
0.00031566 -0.0036208 -0.0021348 -0.0028181 -0.001469 -0.00093415 0.01945 0.018813
-0.085798 0.20334 0.014032 0.01756
-0.00022686 -0.0017341 -0.00098116 -0.002823 -0.00051936 -0.0011612 -0.0025855 0.0010747
0.013798 0.017532 -0.13079 0.27302
1100000000 0.029842 0.30274 0.036349 -0.0034824 0.0027885 0.0042147 0.0024234 -0.0010915
-0.0021245 -0.0031092 -0.003971 -9.5198e-05
0.036315 -0.003465 -0.1341 0.36999 0.015901 -0.027833 8.8785e-05 -0.0018482
-0.0036656 -0.00089667 -0.0036111 -0.00059141
0.0028229 0.0041813 0.015838 -0.02792 0.1996 0.27407 -0.0019244 9.6215e-05
-0.0017428 0.00052008 -0.0010768 -0.00050311
0.0023903 -0.0010748 4.4542e-05 -0.0018433 -0.0019273 9.6123e-05 -0.0068412 0.28553
0.024904 0.0057236 -0.002399 0.00027846
-0.0021639 -0.0030593 -0.0036246 -0.00077722 -0.0017667 0.00050062 0.024937 0.0057236
-0.065636 0.21641 0.019472 0.0082138
-0.0040033 -5.282e-06 -0.0036428 -0.00056991 -0.0011173 -0.00042775 -0.0023473 0.00013175
0.019434 0.0083096 -0.085188 0.30174
1160000000 0.080755 0.2988 0.024478 -0.020458 0.0027845 -0.00036052 -5.4881e-05 -0.0024315
-0.0039651 -0.00081638 -0.00091033 0.0042207
0.024446 -0.020403 -0.090773 0.37453 -0.0032181 -0.029536 -0.0015511 -0.0017
-0.002808 0.002522 -0.0016159 0.0018786
0.0027778 -0.0003863 -0.0033455 -0.029541 0.2429 0.24411 -0.00091985 0.0017678
-0.00068071 0.001876 -0.00087279 0.0002217
-2.9099e-05 -0.0024768 -0.0015533 -0.0017235 -0.00091047 0.0017678 0.032501 0.28292
0.021472 -0.010196 -0.0031578 0.0050899
-0.0039749 -0.00079744 -0.0027936 0.0025756 -0.00067389 0.0018763 0.021419 -0.010213
-0.030943 0.22374 0.018201 -0.00053563
-0.00088468 0.0041958 -0.0014907 0.0019603 -0.00086457 0.00032083 -0.0031636 0.0051733
0.018189 -0.00069038 -0.038031 0.304
1220000000 0.12482 0.28893 0.011107 -0.030066 -0.0015403 -0.0009063 3.9791e-05 -0.00097292
-0.0026365 0.0021773 0.00099336 0.0020277
0.011111 -0.03003 -0.046769 0.38767 -0.016805 -0.021919 -0.0026613 0.00044085
-4.8736e-05 0.0031296 -0.0008636 0.0019029
-0.0015596 -0.00090375 -0.016958 -0.021856 0.2822 0.20581 0.0006837 0.001784
0.00061443 0.0012915 0.00027333 0.00053864
1.9794e-05 -0.00096713 -0.0026681 0.00046866 0.00067182 0.0017934 0.07258 0.27422
0.011123 -0.017176 0.0020846 0.0014871
-0.0026469 0.0021879 -4.4363e-05 0.0031221 0.0006447 0.0012652 0.011074 -0.017217
-0.007087 0.23193 0.013567 -0.013026
0.00096081 0.0020008 -0.00087142 0.0018906 0.00021378 0.00047334 0.0019735 0.0014107
0.013545 -0.01294 -0.0060969 0.31879
1280000000 0.1751 0.26825 -0.0075549 -0.028804 -0.0019968 0.0025099 -0.00077701 -0.002085
-0.00078617 0.0031652 0.0024777 0.00131
-0.00753 -0.028772 -0.00071289 0.37946 -0.024128 -0.009053 -0.00094353 0.0015129
0.0017142 0.0018176 0.00056572 0.0020416
-0.001936 0.0025358 -0.024184 -0.0089381 0.31312 0.16235 0.0016195 8.1132e-05
0.0011753 0.00031481 0.00035699 0.00022453
-0.00079879 -0.0020868 -0.00096903 0.0015008 0.0016287 6.4877e-05 0.10957 0.25804
0.0013021 -0.019672 -0.00011345 0.00029187
-0.00078965 0.0031688 0.0017404 0.0017956 0.0011746 0.00030546 0.0013046 -0.019654
0.029757 0.23467 0.0028703 -0.015173
0.0024921 0.0013469 0.0005333 0.002016 0.00035543 0.0002576 -0.00011495 0.00020521
0.0028942 -0.015248 0.040785 0.32049
1340000000 0.21248 0.23537 -0.017489 -0.019321 0.00080514 0.0047939 -0.0018838 -0.00087641
0.0013625 0.002572 0.001804 -0.0013955
-0.017443 -0.019301 0.038785 0.37196 -0.022004 0.0040326 -0.00012259 0.0020538
0.0019824 0.00081255 0.0012946 0.00077999
0.00082226 0.0047789 -0.022012 0.0041187 0.33538 0.11518 0.0011588 -0.00093901
0.00059969 -0.00063438 3.6104e-05 0.00026535
-0.0018197 -0.00087495 -0.00011109 0.0020606 0.0011561 -0.00093768 0.14288 0.23722
-0.008343 -0.017033 0.00083148 0.00052519
0.001383 0.0025636 0.0020029 0.000777 0.00063062 -0.00061848 -0.008376 -0.017005
0.059625 0.22986 -0.0039212 -0.013875
0.0017944 -0.0014279 0.0012631 0.00075829 6.2974e-05 0.00030681 0.00085793 0.00059242
-0.0038176 -0.013866 0.07874 0.31485
1400000000 0.24631 0.1981 -0.023499 -0.0077585 0.0053626 0.0033562 -0.0022419 0.00057927
0.0024269 0.00098403 0.00034058 -0.0016289
-0.023471 -0.0077684 0.076445 0.35973 -0.015396 0.012523 0.0013736 0.001335
0.0012656 -0.00078874 0.0011713 0.00012486
0.0053644 0.0033448 -0.015351 0.012636 0.34896 0.062128 9.7815e-05 -0.0016263
0.00010328 -0.00038121 0.00037008 0.0001185
-0.0022414 0.00060971 0.0013848 0.00132 0.00011077 -0.0016106 0.17248 0.20821
-0.014551 -0.010244 -0.00079143 -0.00017752
0.0024351 0.00097591 0.001274 -0.00077539 8.7821e-05 -0.00041172 -0.014587 -0.01023
0.09269 0.22497 -0.010194 -0.0086908
0.00032298 -0.0016164 0.0011854 0.0001355 0.00032051 0.00020137 -0.00085681 -0.0001882
-0.010119 -0.008678 0.12259 0.30397
1460000000 0.26973 0.15449 -0.020528 0.0045859 0.0058955 -0.001809 -0.0015975 0.0017892
0.0021517 -0.0004686 -0.00032512 -0.00098671
-0.020514 0.0045684 0.11111 0.33816 -0.0063186 0.015778 0.0017328 0.00014139
0.00091299 -0.0014322 0.0012281 -0.00059863
0.00589 -0.0018287 -0.0062831 0.015823 0.35573 0.0080344 -0.0011742 -0.0013364
0.00015565 -0.00022966 0.00073383 -0.00025145
-0.0015847 0.0017646 0.0017232 0.00013624 -0.0011887 -0.0013604 0.19913 0.17859
-0.015962 -0.0035848 -0.00084013 0.0020005
0.0021313 -0.00046477 0.00091 -0.0014349 0.00021677 -0.00023436 -0.015975 -0.0035803
0.12194 0.21036 -0.01196 -0.0028552
-0.00033617 -0.00099498 0.0012155 -0.00059831 0.00071911 -0.00024681 -0.00081511 0.001961
-0.011953 -0.002859 0.15572 0.28323
1520000000 0.28247 0.11303 -0.01494 0.010172 0.00346 -0.0042921 9.8876e-05 0.0025959
0.0020637 -0.0019025 -0.0011238 -0.00011165
-0.014943 0.010156 0.14504 0.32382 0.0015751 0.013522 0.0016476 -0.0007769
4.075e-05 -0.0011429 0.00033543 -0.0010294
0.0034549 -0.0043901 0.0016453 0.013515 0.34922 -0.047938 -0.0010885 -0.00044161
0.00071704 -0.00088231 3.0604e-05 -0.00021257
8.9062e-05 0.0025942 0.0016341 -0.00078246 -0.0010962 -0.00040522 0.22225 0.14
-0.015478 0.0024555 0.0015086 0.0020555
0.002054 -0.0019103 2.4659e-05 -0.0011392 0.00067327 -0.00085103 -0.015478 0.0024827
0.14996 0.19676 -0.011802 0.0016819
-0.0011146 -7.7035e-05 0.00033223 -0.0010376 5.621e-05 -0.00018832 0.0015158 0.0021221
-0.011837 0.0016335 0.18879 0.26243
1580000000 0.29266 0.066983 -0.0081947 0.013457 -0.00096742 -0.0051157 0.0014868 0.001944
-0.00014137 -0.002151 -0.00020185 0.00035348
-0.00819 0.013438 0.17271 0.29921 0.0054355 0.0084762 0.00049827 -0.00156
-0.00061015 -0.0010632 -0.00014802 -0.00089114
-0.0010061 -0.0050839 0.0054802 0.0084587 0.3298 -0.10546 -0.0017255 0.00060036
-0.00034938 -0.0012145 0.00026946 -0.00050794
0.001484 0.0019449 0.00049485 -0.0015842 -0.0017039 0.00058801 0.23586 0.10034
-0.012065 0.0075025 0.002073 0.00076322
-0.00017245 -0.0021503 -0.00060142 -0.0010605 -0.0003465 -0.0012422 -0.01209 0.0075372
0.17417 0.17885 -0.0094019 0.0072541
-0.00022173 0.00038159 -0.00018549 -0.00086324 0.00021024 -0.00047932 0.0021258 0.00073315
-0.0093935 0.0072518 0.22045 0.23589
1640000000 0.2952 0.025791 -0.0014549 0.012342 -0.0029581 -0.002667 0.0027344 0.001085
-0.00074029 -0.0016324 -0.00036911 0.00060221
-0.0014761 0.012358 0.20262 0.27438 0.0061581 0.003497 -0.00062612 -0.0017559
-0.0010618 -0.00039604 -0.00054223 -0.00066731
-0.0029977 -0.0026533 0.0061777 0.0034618 0.30166 -0.15485 -0.00075286 0.0015305
-0.0011098 -0.000979 -0.00011786 -0.00030422
0.0027782 0.0010843 -0.00064604 -0.0017458 -0.00076041 0.0015417 0.24814 0.051321
-0.0078173 0.009313 0.0024973 -0.00080705
-0.0007638 -0.0016127 -0.0010621 -0.00040174 -0.0010787 -0.00096021 -0.0077905 0.0093479
0.19728 0.15502 -0.0046086 0.0091791
-0.00033147 0.00060747 -0.0005811 -0.00070394 -0.00011025 -0.00038134 0.0024806 -0.00076939
-0.0046778 0.0091733 0.24574 0.20468
1700000000 0.28835 -0.019599 0.002038 0.0095485 -0.0036642 8.3152e-05 0.0032014 -0.0012594
-0.0019645 -0.00067225 0.00057523 0.00044489
0.0020298 0.0095643 0.22104 0.24296 0.00406 0.00047758 -0.0014555 -0.00060818
-0.00081276 8.0627e-05 -0.0009543 -0.000467
-0.0036845 9.1534e-05 0.0040929 0.00046176 0.25846 -0.19476 0.00058716 0.0016458
-0.0018926 -6.3722e-05 -0.00047138 -0.00094613
0.0031953 -0.0012693 -0.0014674 -0.00060784 0.00059651 0.0016795 0.24446 0.0013436
-0.0047853 0.010071 0.0016413 -0.0021207
-0.0019719 -0.00064669 -0.00081464 7.7856e-05 -0.0019255 -6.9885e-05 -0.0047765 0.010049
0.21453 0.13472 -0.00011967 0.0096624
0.00058795 0.00044204 -0.00092567 -0.00047478 -0.00048732 -0.00094442 0.0016742 -0.0021542
-9.9929e-05 0.0096471 0.26217 0.17028
1760000000 0.27668 -0.06847 0.0044332 0.0062519 -0.0023371 0.0010083 0.001295 -0.0034478
-0.0014799 0.00066337 0.00036282 -0.00048372
0.0044082 0.0062394 0.24732 0.20312 0.0017538 -0.0014323 -0.0012056 0.00014818
-0.0010282 0.00095194 -0.00063954 0.00038887
-0.002321 0.00099386 0.0017555 -0.0014704 0.21036 -0.22828 0.0011929 0.0010043
-0.001219 0.0014502 -0.0012061 -0.00064942
0.0012725 -0.003421 -0.001195 0.00015106 0.0011647 0.0010248 0.23517 -0.049927
-0.0011261 0.009222 -0.00012602 -0.0025394
-0.0014606 0.00066611 -0.0010382 0.00096078 -0.001235 0.0014499 -0.0011175 0.0092153
0.22978 0.10022 0.0037156 0.0070894
0.00031408 -0.00050145 -0.0006236 0.00040268 -0.0012004 -0.00060613 -0.00019274 -0.0026255
0.0037102 0.0071279 0.27437 0.13269
1820000000 0.25225 -0.10586 0.0045769 0.0026584 -0.00028045 0.0024917 -0.00098322 -0.0031308
-0.0011921 0.0010332 -4.3281e-05 -3.846e-05
0.0045539 0.0026562 0.25762 0.17298 -0.00057803 -0.00028784 -0.0013263 0.00089848
-2.8697e-05 0.0012581 -0.0005745 0.00056819
-0.00027119 0.002529 -0.00060589 -0.00028396 0.15957 -0.24399 0.0015961 0.00030001
-0.00021477 0.0023636 -0.0014415 0.00037879
-0.00097558 -0.0031252 -0.0013125 0.00090176 0.0015825 0.00034115 0.20509 -0.097016
0.00068711 0.0078523 -0.0016201 -0.0016103
-0.0011964 0.0010567 -1.6622e-05 0.0012672 -0.00019201 0.0023985 0.00071302 0.0079188
0.24709 0.071543 0.0048013 0.0037354
6.0626e-05 -4.9164e-05 -0.00055072 0.00057285 -0.0013705 0.00032772 -0.0015851 -0.0015095
0.004782 0.0036893 0.27665 0.096515
1880000000 0.21702 -0.14659 0.002397 0.00022263 -0.0004415 0.0021761 -0.002921 -0.0022651
-0.00021952 0.0017877 8.7555e-05 -0.00063502
0.0023971 0.00020283 0.26229 0.12631 -0.0025157 0.0016095 -0.00023729 0.0017575
0.00065165 0.0012874 8.1961e-05 0.00096958
-0.00041785 0.0021263 -0.0024654 0.0016652 0.10751 -0.25315 0.0017536 -0.00089932
0.0015643 0.0020405 -0.0010947 0.0012562
-0.0029789 -0.0022511 -0.00025187 0.0017516 0.0017454 -0.00084807 0.16417 -0.13684
0.0016381 0.0057047 -0.0023746 0.00032965
-0.00021489 0.0018114 0.00062321 0.0012829 0.0015641 0.0020591 0.0016271 0.0056213
0.25105 0.039988 0.0049388 0.0015288
6.7721e-05 -0.00058583 7.9639e-05 0.00096438 -0.001135 0.0013012 -0.0023769 0.00029113
0.0049204 0.0016276 0.27644 0.062495
1940000000 0.17757 -0.17218 -0.00010601 -0.0013616 0.0013833 0.0021262 -0.0037926 0.00042275
0.0014188 0.001149 -0.00042366 -0.00061659
-9.4456e-05 -0.0014247 0.26287 0.094391 -0.0013569 0.0040699 0.0010425 0.0013448
0.0018858 0.00042974 0.0010804 0.000367
0.0013673 0.0021054 -0.0013508 0.0040521 0.062072 -0.24597 0.00050502 -0.0021688
0.0024671 0.0003573 0.00062924 0.0015657
-0.0037537 0.00051225 0.0010467 0.0013526 0.00055997 -0.0022027 0.11206 -0.16729
0.001156 0.0041519 -0.0015168 0.0015108
0.0014235 0.001165 0.0019057 0.00043061 0.0024812 0.00042675 0.0011156 0.004123
0.25425 0.0017604 0.0038207 -0.0017428
-0.00045491 -0.00052907 0.0010789 0.00034878 0.00065697 0.0017017 -0.0016133 0.0015397
0.0037979 -0.0017493 0.2654 0.02639
2000000000 0.13161 -0.18667 -0.0038593 0.00066183 0.0026157 0.0015157 -0.0023519 0.0038033
0.0012567 0.00042514 -0.00065604 0.00050955
-0.0038408 0.00066441 0.24874 0.05865 -0.00086217 0.0058014 0.0016505 0.00046618
0.0012758 -0.0011083 0.00040906 0.0001369
0.0026103 0.0015236 -0.00081758 0.0058438 0.019121 -0.2322 -0.0011597 -0.0014128
0.0020137 -0.0011969 0.0014593 0.0014364
-0.0023113 0.0039292 0.0016746 0.00048288 -0.0010669 -0.001382 0.058595 -0.17715
-0.00030192 0.0036207 -0.00017451 0.0023152
0.0012691 0.0004114 0.0013197 -0.0011012 0.0020393 -0.0011619 -0.00017801 0.0037037
0.24964 -0.031862 0.00070034 -0.0026925
