!Keysight Technologies,M9804A,MY58100912,A.14.10.03
!Date: Thursday, April 27, 2023 10:28:33
!Correction: S11(C  6-Port  ) 
!S12(C  6-Port  ) 
!S13(C  6-Port  ) 
!S14(C  6-Port  ) 
!S15(C  6-Port  ) 
!S16(C  6-Port  ) 
!S21(C  6-Port  ) 
!S22(C  6-Port  ) 
!S23(C  6-Port  ) 
!S24(C  6-Port  ) 
!S25(C  6-Port  ) 
!S26(C  6-Port  ) 
!S31(C  6-Port  ) 
!S32(C  6-Port  ) 
!S33(C  6-Port  ) 
!S34(C  6-Port  ) 
!S35(C  6-Port  ) 
!S36(C  6-Port  ) 
!S41(C  6-Port  ) 
!S42(C  6-Port  ) 
!S43(C  6-Port  ) 
!S44(C  6-Port  ) 
!S45(C  6-Port  ) 
!S46(C  6-Port  ) 
!S51(C  6-Port  ) 
!S52(C  6-Port  ) 
!S53(C  6-Port  ) 
!S54(C  6-Port  ) 
!S55(C  6-Port  ) 
!S56(C  6-Port  ) 
!S61(C  6-Port  ) 
!S62(C  6-Port  ) 
!S63(C  6-Port  ) 
!S64(C  6-Port  ) 
!S65(C  6-Port  ) 
!S66(C  6-Port  ) 
!S6P File: Measurement: :
# Hz S  RI   R 50
500000000 -0.33476 -0.052598 -0.010373 -0.0013403 -0.0082357 0.013086 -0.0055581 0.011922
0.013123 0.0046664 -0.0057865 0.0079593
-0.010384 -0.001281 -0.41633 -0.063298 0.0080506 -0.010619 0.00091502 0.011812
0.0082854 0.0024704 0.00077499 0.013355
-0.0082185 0.013113 0.0080536 -0.010645 -0.26676 0.19951 0.0066141 0.0038909
-0.0015541 0.0084204 0.00023383 0.01274
-0.0055337 0.011888 0.00088633 0.011835 0.0065865 0.0038944 -0.3317 0.044399
-0.019101 -0.0051039 0.016879 0.02587
0.013296 0.0044871 0.0083432 0.0024548 -0.0015741 0.0084521 -0.019068 -0.0051532
-0.24623 -0.19324 -0.026879 0.0050588
-0.0055942 0.0077617 0.00077772 0.013293 0.00015795 0.012706 0.016823 0.025756
-0.026836 0.0051408 -0.27115 -0.12089
560000000 -0.31838 0.11437 -0.023213 -0.064925 8.3779e-05 0.012368 0.005209 0.011106
0.011745 0.0045901 0.0097177 0.0095197
-0.023143 -0.06482 -0.37614 0.099959 -0.041383 -0.038184 0.013085 0.0036277
-0.012811 -0.0038745 0.0040388 -0.0010728
9.7255e-05 0.012367 -0.041535 -0.03821 -0.18524 0.25116 -0.00025252 -0.0053211
0.018552 0.0057596 0.0081119 -0.0061989
0.0051601 0.011176 0.013132 0.0036263 -0.00024137 -0.0053054 -0.30673 0.13612
0.005263 -0.024643 0.0046021 -0.020899
0.011774 0.0046762 -0.012776 -0.0039795 0.018562 0.0057849 0.005255 -0.02465
-0.30921 -0.01326 0.0095107 -0.048269
0.0096332 0.0090741 0.0040697 -0.0011078 0.0081061 -0.0062161 0.0047351 -0.020962
0.0093199 -0.048462 -0.33274 0.025315
620000000 -0.27801 0.094607 -0.023144 0.0085582 0.0034707 0.0094373 0.0078799 -0.0046178
0.012133 -0.0011523 0.00028942 -0.0029935
-0.023134 0.008551 -0.40339 0.049797 -0.018405 0.00073936 -0.001353 -0.0021105
0.011848 -0.0059908 0.0011295 -0.0032456
0.0034805 0.0093915 -0.018427 0.0007826 -0.15517 0.26011 -0.00082219 -0.0051281
-0.0030816 -0.0027173 0.0090383 -0.002837
0.0078707 -0.0046163 -0.0013596 -0.0021202 -0.00082991 -0.0051414 -0.26626 0.14651
-0.037902 -0.02065 0.011935 0.026064
0.012139 -0.0011698 0.011815 -0.0060263 -0.0030877 -0.0027007 -0.037939 -0.020615
-0.23105 -0.04604 -0.039451 0.012423
0.00014195 -0.0029221 0.0011911 -0.0032442 0.0089298 -0.0028223 0.012005 0.026074
-0.039505 0.012395 -0.25276 -0.0081595
680000000 -0.23831 0.18389 -0.026263 -0.014334 0.0051716 0.0052939 0.0018766 -0.0074526
-0.0019415 -0.011637 0.0057457 -0.0075747
-0.026224 -0.014332 -0.38973 0.1507 -0.032261 -0.0020191 -0.0013573 -0.00073942
-0.0016357 -0.0092664 -0.00098271 -0.0017686
0.0052046 0.0053166 -0.032305 -0.0019394 -0.10364 0.28081 -0.00075729 -0.00053153
-0.0018576 0.00027159 -0.0029366 -0.0090482
0.0018398 -0.0074749 -0.0013551 -0.000739 -0.00076394 -0.00053328 -0.21996 0.19825
-0.023913 -0.0080753 -0.0087232 -0.011574
-0.0018919 -0.011593 -0.0016443 -0.0092394 -0.0018514 0.0002805 -0.023935 -0.0080592
-0.27803 0.054352 -0.0085154 -0.0076051
0.0055911 -0.0076208 -0.0010249 -0.00176 -0.0029809 -0.009067 -0.0086054 -0.011588
-0.0085902 -0.0076975 -0.25938 0.096104
740000000 -0.1929 0.17795 -0.03949 0.02655 0.013737 -0.0048381 -0.00050285 -0.0040278
-0.0045832 -0.0036882 -0.0070473 0.0034045
-0.039412 0.026523 -0.33509 0.16949 -0.036673 0.034401 -0.00042212 -0.0056591
-0.011999 0.007501 -0.0014598 -0.0056857
0.013684 -0.0048581 -0.036612 0.034532 -0.069487 0.2784 -0.0021129 0.0030981
-0.0030226 -0.0059695 -0.0012907 0.0015243
-0.0005103 -0.0040766 -0.00041927 -0.0056503 -0.0021244 0.0031117 -0.20401 0.2053
-0.04182 -0.0085343 0.021756 0.014899
-0.004505 -0.0037526 -0.011942 0.0075713 -0.0030281 -0.0059757 -0.041846 -0.00843
-0.18247 0.083984 -0.039954 0.00046422
-0.0071316 0.0032709 -0.0016316 -0.0057188 -0.0013488 0.0014198 0.021826 0.014868
-0.040053 0.00033953 -0.24919 0.10135
800000000 -0.16171 0.22094 -0.022513 0.016068 0.0056503 -0.010507 -0.004388 -0.0021572
-0.0048217 0.0023725 0.0045475 0.00031264
-0.022504 0.016088 -0.34079 0.23949 -0.0085702 0.033953 -0.00239 0.0019714
-0.0014737 0.0029744 0.00096657 0.0049383
0.005653 -0.010518 -0.0084765 0.033995 -0.031013 0.30224 0.00089797 0.0014788
-5.3954e-05 0.0036295 -0.0016363 0.0010615
-0.0043953 -0.0021707 -0.0023996 0.0019804 0.00089506 0.0014796 -0.17432 0.23281
-0.027963 0.012764 0.013333 -0.010238
-0.004844 0.0023518 -0.0014265 0.0029492 -5.9096e-05 0.0036359 -0.027968 0.012833
-0.22198 0.11166 -0.016713 0.019635
0.0046168 0.0002041 0.0011267 0.0049158 -0.0015979 0.00096838 0.013506 -0.010352
-0.016669 0.019687 -0.24079 0.14974
860000000 -0.1271 0.24133 -0.017863 0.030564 -0.0029216 -0.010241 -0.0017905 0.00070894
0.0039932 0.0055624 -0.003313 -0.002979
-0.017861 0.030551 -0.29243 0.28276 0.0074477 0.034405 0.00029528 0.001944
0.0039099 0.001363 0.0035246 -3.3738e-05
-0.0029387 -0.010229 0.0075471 0.034399 0.016518 0.31056 -0.0005208 -0.00013035
0.0022203 -0.0011889 0.0016971 0.0041233
-0.0017869 0.000684 0.00031748 0.0019364 -0.00051822 -0.00012996 -0.13688 0.24294
-0.017784 0.018201 -0.0057232 -0.0090532
0.0039862 0.0055309 0.0039513 0.0013277 0.0022397 -0.0011876 -0.017761 0.018238
-0.16448 0.16264 -0.024674 0.016861
-0.0033842 -0.0028951 0.0036066 0.00013852 0.001739 0.0041715 -0.0057166 -0.0089283
-0.024485 0.016782 -0.18927 0.19466
920000000 -0.10317 0.26454 0.0045966 0.038365 -0.0091562 -0.0049632 -0.0018606 0.0017513
0.0017425 0.0018642 0.0027955 -0.0015404
0.0045644 0.038336 -0.26527 0.30373 0.028062 0.022767 0.0014142 0.0013383
0.0079847 -0.00044836 0.0039536 -0.0027187
-0.0091823 -0.0049346 0.028154 0.022699 0.061936 0.31191 0.0020171 3.2845e-05
0.001239 -0.00044409 0.00085598 -0.0012898
-0.001848 0.0017351 0.0014136 0.0013665 0.0020104 3.9477e-05 -0.11275 0.25966
-0.010947 0.03026 0.0032715 -0.0065373
0.001761 0.0018534 0.0080082 -0.00051032 0.0012321 -0.00044258 -0.010895 0.030302
-0.15283 0.16658 -0.0020824 0.026127
0.0028035 -0.0015934 0.0039457 -0.0027136 0.0008696 -0.0012767 0.003205 -0.006492
-0.0019732 0.026109 -0.19756 0.20901
980000000 -0.056878 0.28462 0.0169 0.030103 -0.0093475 0.0041471 0.0019136 0.0034134
0.0038382 -0.0017912 -0.0030179 -0.0022476
0.016858 0.030078 -0.21229 0.33834 0.033282 0.005469 0.0020698 -0.00022694
0.0017213 -0.0060312 -0.0003126 -0.0024669
-0.0093359 0.0041668 0.033345 0.0053421 0.10767 0.30624 0.00074517 -0.0011594
0.00049907 -0.0019123 0.0016354 -0.00019509
0.0019238 0.0033978 0.0020683 -0.00021232 0.00074816 -0.0011615 -0.074607 0.2707
0.0071198 0.029863 -0.0088535 -0.0067985
0.0037985 -0.0018113 0.0017123 -0.0060802 0.00049035 -0.001909 0.0071784 0.029871
-0.11951 0.19743 0.0063658 0.019399
-0.003052 -0.0021538 -0.00032619 -0.0024493 0.0016352 -0.00017034 -0.0089031 -0.0067727
0.0064015 0.019386 -0.15324 0.25209
1040000000 -0.015566 0.29382 0.032785 0.019002 -0.0016529 0.0070193 0.0026414 0.00083101
0.00019748 -0.0035786 -0.00023419 -0.0016605
0.032744 0.019021 -0.17738 0.3519 0.029934 -0.014392 0.0015522 -0.0016918
-0.002149 -0.0026803 -0.00088529 -0.0029284
-0.0016254 0.0070203 0.029899 -0.014538 0.15346 0.29334 -0.00044381 -0.0016311
-0.0015558 -0.00095737 -0.00047245 -0.0010605
0.0026379 0.00083678 0.0015546 -0.0016948 -0.00044872 -0.0016317 -0.047169 0.28046
0.019305 0.018804 -0.0026911 0.0011493
0.00015254 -0.0035433 -0.0021597 -0.0026648 -0.0015621 -0.00095179 0.019362 0.018783
-0.085957 0.20325 0.013885 0.017473
-0.00029532 -0.0016617 -0.00089908 -0.0029398 -0.00049048 -0.00107 -0.0027395 0.0011527
0.013812 0.017399 -0.13111 0.27272
1100000000 0.029557 0.30278 0.036325 -0.0034808 0.0028093 0.0042132 0.0024493 -0.0010791
-0.0021361 -0.0029765 -0.0039937 -7.3643e-05
0.036287 -0.0034656 -0.13432 0.36995 0.01594 -0.027799 0.00012402 -0.0018618
-0.003639 -0.00081703 -0.0036238 -0.00061753
0.0028293 0.0041976 0.015844 -0.027893 0.19944 0.27407 -0.0019058 5.932e-05
-0.0017601 0.00048944 -0.0011456 -0.00050278
0.0024491 -0.0010885 0.00012332 -0.0018694 -0.0019015 6.3907e-05 -0.006867 0.28544
0.024954 0.0057566 -0.0021981 0.00013748
-0.0021441 -0.0029755 -0.0036432 -0.00080165 -0.0017677 0.00048748 0.024962 0.0057189
-0.065556 0.21661 0.019598 0.0083851
-0.003968 -6.2088e-05 -0.0035979 -0.00057563 -0.0011452 -0.00050029 -0.0022288 0.00017303
0.019623 0.0083669 -0.085354 0.3014
1160000000 0.080602 0.29891 0.024559 -0.020539 0.0027722 -0.00040958 -5.3346e-05 -0.0024116
-0.0040051 -0.00081368 -0.0010007 0.004105
0.024549 -0.020498 -0.0909 0.37453 -0.003145 -0.029511 -0.0015296 -0.0017396
-0.0028461 0.0024917 -0.0015175 0.0019677
0.0027728 -0.00041852 -0.0032842 -0.029536 0.24273 0.24415 -0.00091741 0.001767
-0.00061681 0.0019045 -0.00079867 0.00025698
-6.333e-05 -0.0024228 -0.0015216 -0.0017277 -0.00091078 0.0017622 0.032428 0.28282
0.021479 -0.010239 -0.0033882 0.0051446
-0.0040245 -0.00079798 -0.002838 0.0025062 -0.00061781 0.001895 0.021483 -0.010273
-0.030983 0.22377 0.018198 -0.00077197
-0.00095984 0.0041043 -0.0015484 0.0020159 -0.00081874 0.00025325 -0.0033827 0.0051231
0.018183 -0.00071259 -0.038396 0.30405
1220000000 0.12471 0.28907 0.011173 -0.030125 -0.0015434 -0.0009316 8.5678e-05 -0.00092223
-0.0027204 0.002157 0.0010705 0.0020273
0.011178 -0.030084 -0.046874 0.3877 -0.016776 -0.021919 -0.0026522 0.00045469
-7.8989e-05 0.0031206 -0.00082549 0.0019521
-0.0015445 -0.00091961 -0.016884 -0.021878 0.2821 0.20589 0.00067771 0.0017876
0.00061879 0.0012512 0.00022337 0.00052034
8.227e-05 -0.0009318 -0.0026425 0.00047292 0.00067745 0.0017961 0.07247 0.2741
0.011123 -0.017264 0.001985 0.0013498
-0.0027112 0.0021732 -5.3696e-05 0.0031292 0.0006133 0.0012437 0.011097 -0.017279
-0.0071905 0.23201 0.013669 -0.013153
0.0010738 0.0020004 -0.00083543 0.001951 0.0002197 0.00053755 0.0020044 0.0013755
0.013693 -0.013137 -0.0065181 0.3189
1280000000 0.17502 0.26842 -0.007562 -0.028879 -0.0019518 0.0024896 -0.00081404 -0.0020774
-0.00079066 0.0032034 0.0025002 0.0013697
-0.0075418 -0.028859 -0.00080745 0.3795 -0.024053 -0.0090718 -0.0010267 0.0014845
0.0016923 0.0018013 0.00056679 0.0020642
-0.001928 0.0024869 -0.02413 -0.0089713 0.31303 0.16242 0.0016226 4.0121e-05
0.0012117 0.00029502 0.00033659 0.00018862
-0.00079955 -0.0020791 -0.0010223 0.0014882 0.0016259 3.9639e-05 0.10953 0.25802
0.0012966 -0.019535 -0.00014768 0.00022064
-0.00078679 0.0032112 0.0017091 0.0017907 0.0012223 0.00028633 0.0012596 -0.019549
0.029654 0.23466 0.0030645 -0.015283
0.0025179 0.001416 0.00058023 0.0020693 0.00033681 0.00020356 -0.00016121 0.00020456
0.0030625 -0.015282 0.040292 0.32039
1340000000 0.21256 0.23552 -0.017558 -0.019355 0.00075371 0.0047341 -0.00181 -0.00093868
0.0013913 0.0026972 0.0018318 -0.0013922
-0.017529 -0.01935 0.038697 0.37195 -0.022012 0.0040053 -0.00010124 0.0020532
0.0019891 0.00083194 0.0012598 0.00069318
0.00077483 0.004733 -0.022022 0.0041096 0.3354 0.11539 0.0011516 -0.00095657
0.00063578 -0.00061347 6.8311e-05 0.00019162
-0.0018188 -0.00092156 -0.0001019 0.0020544 0.001157 -0.0009568 0.14276 0.2372
-0.0084081 -0.017045 0.00079889 0.00060327
0.0014102 0.0026906 0.0020036 0.00081715 0.00063627 -0.00061784 -0.0084468 -0.01703
0.059566 0.22965 -0.0039902 -0.013834
0.0017981 -0.0014033 0.0012839 0.00068445 7.2157e-05 0.00019824 0.00082582 0.00061645
-0.0039784 -0.013859 0.07851 0.31521
1400000000 0.24637 0.19813 -0.023595 -0.007756 0.0053457 0.003373 -0.0022193 0.00058536
0.0024142 0.00097224 0.00031822 -0.0015663
-0.023556 -0.0077706 0.076349 0.35968 -0.015409 0.012468 0.0014064 0.0013508
0.0012844 -0.00076 0.0012289 0.00018406
0.0053573 0.0033495 -0.015368 0.012561 0.34898 0.062185 0.00011995 -0.001643
7.4559e-05 -0.00043965 0.00037886 0.00020283
-0.0022261 0.00058706 0.0014211 0.0013505 0.00011529 -0.0016419 0.17235 0.20819
-0.014552 -0.010236 -0.00083052 -0.00028565
0.0024234 0.00095689 0.00128 -0.00077136 7.7733e-05 -0.00043504 -0.014576 -0.010211
0.092658 0.22473 -0.010269 -0.0087597
0.00029445 -0.001554 0.0012216 0.00018717 0.00037045 0.00021155 -0.00080196 -0.00027092
-0.010295 -0.0087985 0.12234 0.30376
1460000000 0.26978 0.15443 -0.020558 0.004641 0.0059264 -0.0018071 -0.0016202 0.0017654
0.0021604 -0.00048644 -0.00034577 -0.0010066
-0.020548 0.0046263 0.11105 0.33813 -0.0063837 0.015749 0.0017248 0.00014024
0.00093866 -0.0014347 0.001236 -0.00060705
0.0059183 -0.0018304 -0.0063096 0.015794 0.35572 0.0081968 -0.0012452 -0.0013476
0.00023441 -0.00020869 0.0006435 -0.00026179
-0.0016123 0.0017744 0.0017366 0.00013655 -0.0012447 -0.0013504 0.19906 0.17864
-0.015993 -0.0035383 -0.00071431 0.0019899
0.0021705 -0.00049677 0.00092267 -0.0014454 0.0002316 -0.00021537 -0.015994 -0.003509
0.12182 0.21024 -0.012019 -0.0028159
-0.0003499 -0.00098073 0.0012391 -0.00061134 0.00066096 -0.00030695 -0.00071832 0.0020051
-0.012002 -0.0028621 0.1558 0.28325
1520000000 0.28246 0.11293 -0.014983 0.010234 0.0034444 -0.0043646 0.00010971 0.0026287
0.0020958 -0.0019009 -0.0011172 -0.00014028
-0.014984 0.010219 0.1449 0.32382 0.0015279 0.013534 0.0016502 -0.00077766
1.3378e-05 -0.0011568 0.00034494 -0.0010244
0.0034255 -0.0043799 0.0015959 0.013537 0.34919 -0.047822 -0.0011137 -0.00041495
0.00066113 -0.00087097 8.8895e-05 -0.00020447
0.00011377 0.0026223 0.0016583 -0.00079095 -0.0011146 -0.00041591 0.22213 0.14003
-0.015456 0.002486 0.0014708 0.0021067
0.0020815 -0.0019117 6.5154e-06 -0.0011667 0.00066574 -0.00087145 -0.015467 0.0025227
0.14966 0.19671 -0.011866 0.0016282
-0.0011221 -0.00011894 0.00032973 -0.0010264 9.6737e-05 -0.00018966 0.001502 0.0021024
-0.011865 0.0016494 0.1884 0.26263
1580000000 0.29253 0.06688 -0.0081823 0.013526 -0.00093991 -0.0050574 0.0015113 0.0019445
-0.00014437 -0.0021657 -0.00023754 0.00031007
-0.0081873 0.013516 0.17257 0.29921 0.0054181 0.0084956 0.00049902 -0.0015997
-0.00060314 -0.0010434 -0.00018121 -0.00089614
-0.00095423 -0.0050687 0.0054673 0.0084775 0.32985 -0.10537 -0.0017172 0.00055732
-0.00034655 -0.0012491 0.00021221 -0.00048172
0.001528 0.0019404 0.00047914 -0.0016093 -0.0017193 0.00056083 0.23574 0.10045
-0.012088 0.0075501 0.002139 0.00077438
-0.00017166 -0.0021687 -0.00061353 -0.0010475 -0.00034417 -0.0012534 -0.012079 0.0075825
0.17387 0.17886 -0.0094345 0.0072745
-0.00022414 0.00031258 -0.00017651 -0.00089899 0.0001898 -0.00048999 0.0021122 0.00079676
-0.0094654 0.0072324 0.22014 0.23583
1640000000 0.29488 0.025725 -0.0014356 0.01239 -0.0029325 -0.0026362 0.0027783 0.0011094
-0.00075293 -0.0016595 -0.00036107 0.00055682
-0.0014548 0.012387 0.20242 0.27444 0.006129 0.0035544 -0.00061783 -0.0017355
-0.0010513 -0.00035576 -0.00059714 -0.00074452
-0.0029513 -0.0026301 0.0061532 0.0035253 0.30166 -0.15485 -0.0007452 0.0015733
-0.0010914 -0.00092748 -0.00015217 -0.00039888
0.0027922 0.0010951 -0.00063215 -0.001745 -0.00074618 0.0015697 0.24807 0.051444
-0.0077283 0.0092697 0.0024112 -0.00073636
-0.00075207 -0.0016582 -0.0010448 -0.00034961 -0.0010898 -0.00093648 -0.0077175 0.0093031
0.19693 0.15521 -0.0047213 0.0091203
-0.00033856 0.00056847 -0.00058673 -0.00073003 -0.00011768 -0.00036693 0.0024416 -0.00077864
-0.0046785 0.009129 0.24539 0.20488
1700000000 0.28804 -0.019477 0.0020879 0.0095452 -0.0036217 1.2367e-05 0.0032049 -0.0012887
-0.0019928 -0.00065719 0.00058108 0.0004646
0.0020839 0.0095392 0.22086 0.24308 0.0040864 0.00050355 -0.0014799 -0.00060293
-0.00082548 9.4218e-05 -0.00092158 -0.00043311
-0.0036113 2.4122e-05 0.0040974 0.00048264 0.25848 -0.19459 0.00054931 0.0016244
-0.001973 -0.00010751 -0.00040059 -0.00085158
0.0031946 -0.0012993 -0.0014913 -0.0005927 0.00054456 0.0016266 0.2445 0.001553
-0.0047137 0.010047 0.001714 -0.0021248
-0.0020033 -0.0006417 -0.00082924 0.00010745 -0.0019606 -0.00010111 -0.0046932 0.010055
0.21428 0.1349 -0.00012303 0.0097259
0.00058999 0.00046354 -0.00093036 -0.00041121 -0.00041153 -0.000852 0.0016974 -0.0020932
-0.00015599 0.0097532 0.26182 0.17054
1760000000 0.27647 -0.068175 0.0044815 0.006252 -0.0023518 0.001037 0.0013061 -0.0033991
-0.0014759 0.00071571 0.00040456 -0.00049052
0.0044791 0.0062518 0.24719 0.20328 0.0017795 -0.0014604 -0.0011912 0.00015254
-0.001033 0.00094676 -0.00063402 0.00038513
-0.0023471 0.0010559 0.0017638 -0.0014719 0.21041 -0.22814 0.0012281 0.00098676
-0.001247 0.0014603 -0.0012952 -0.00063719
0.0013085 -0.0034157 -0.0011865 0.00015769 0.0012287 0.00099399 0.23524 -0.049835
-0.0011285 0.0091969 -0.00013712 -0.0026527
-0.0014566 0.00072756 -0.001021 0.00095506 -0.001252 0.0014626 -0.0011003 0.0091936
0.22952 0.10054 0.003734 0.0070994
0.00043281 -0.00049032 -0.00061992 0.00039935 -0.0012813 -0.00062415 -0.00012931 -0.0026794
0.0037665 0.0071082 0.27407 0.13294
1820000000 0.25216 -0.10545 0.0045943 0.0026245 -0.00030205 0.002481 -0.0010297 -0.0031847
-0.0011517 0.00098119 -5.5183e-06 7.5123e-08
0.0045781 0.0026287 0.25757 0.17315 -0.00056289 -0.00028995 -0.0013396 0.00089069
-3.2751e-06 0.0012658 -0.00052974 0.00056048
-0.00027063 0.0025027 -0.00056111 -0.00029339 0.15965 -0.24402 0.0015331 0.00029379
-0.00020022 0.0023476 -0.0013481 0.00034519
-0.0010536 -0.0031704 -0.0013314 0.00089878 0.0015272 0.00029469 0.20513 -0.096892
0.00066495 0.0078074 -0.0014604 -0.0014886
-0.0011621 0.00098381 -3.9247e-06 0.0012764 -0.00019091 0.0023488 0.00067138 0.0078109
0.24684 0.0718 0.0047874 0.0039262
-1.3678e-05 -7.5633e-06 -0.00052313 0.00056651 -0.0013598 0.00034846 -0.0015049 -0.0014545
0.0047592 0.0039207 0.27654 0.096821
1880000000 0.21723 -0.14617 0.0024453 0.00018699 -0.00039204 0.0021764 -0.0029271 -0.0022826
-0.00021827 0.0018208 4.7314e-06 -0.00055162
0.0024482 0.0001855 0.26229 0.12647 -0.0024698 0.0016214 -0.00023623 0.0017177
0.00059297 0.0012933 8.1035e-05 0.00097403
-0.00038668 0.0021881 -0.0024555 0.0016378 0.10766 -0.253 0.0017157 -0.00090849
0.001539 0.002082 -0.0010876 0.0014277
-0.002936 -0.0022612 -0.00023535 0.0016998 0.0017191 -0.00090348 0.16426 -0.13688
0.0016587 0.0055842 -0.0024749 0.00019233
-0.00019622 0.001826 0.00061393 0.0012873 0.001534 0.002076 0.0016932 0.0055673
0.25106 0.040262 0.004909 0.0015538
2.2092e-05 -0.00057162 9.1748e-05 0.00096382 -0.0010866 0.0014329 -0.0024211 0.00014951
0.004951 0.0015669 0.27606 0.063045
1940000000 0.17794 -0.17162 -8.8428e-05 -0.0014276 0.0013741 0.0021528 -0.0036942 0.00039289
0.0014282 0.0011117 -0.00050857 -0.00062396
-8.4736e-05 -0.0014244 0.26292 0.094468 -0.0013776 0.0040257 0.0010756 0.001366
0.0018587 0.00045003 0.001036 0.00033643
0.0014077 0.0021389 -0.0013484 0.0040513 0.062151 -0.246 0.00051066 -0.0021474
0.0023847 0.00031985 0.00068891 0.0016582
-0.0037032 0.00040241 0.0010836 0.0013542 0.00051025 -0.0021427 0.11218 -0.16722
0.0010471 0.0042664 -0.0015137 0.0016219
0.0014328 0.0010909 0.0018625 0.00043508 0.0023875 0.00031928 0.0010616 0.0042696
0.25422 0.0020043 0.0038081 -0.0015927
-0.00051601 -0.00064803 0.0010303 0.00032725 0.00065887 0.0016914 -0.0015042 0.0016942
0.0037389 -0.0015604 0.2657 0.026904
2000000000 0.13192 -0.18633 -0.0038967 0.00066131 0.0025921 0.0015451 -0.0022859 0.0038209
0.0012779 0.00039755 -0.00065576 0.0004848
-0.0038948 0.00067544 0.24875 0.058761 -0.00090987 0.005808 0.0016703 0.00044463
0.0013628 -0.0010939 0.00049294 0.00022901
0.0025751 0.0015409 -0.00088297 0.0058138 0.019162 -0.23217 -0.001174 -0.0014811
0.0021618 -0.0012065 0.0015709 0.0016051
-0.0022753 0.0038133 0.0016565 0.00044235 -0.0011708 -0.0014755 0.058369 -0.17716
-0.00032018 0.0035841 -8.0813e-05 0.0023595
0.0013025 0.00037417 0.0013556 -0.0011402 0.0021494 -0.0012095 -0.00030904 0.0035581
0.24968 -0.03156 0.00066384 -0.0027445
