!Keysight Technologies,M9804A,MY58100912,A.14.10.03
!Date: Thursday, April 27, 2023 10:28:33
!Correction: S11(C  6-Port  ) 
!S12(C  6-Port  ) 
!S13(C  6-Port  ) 
!S14(C  6-Port  ) 
!S15(C  6-Port  ) 
!S16(C  6-Port  ) 
!S21(C  6-Port  ) 
!S22(C  6-Port  ) 
!S23(C  6-Port  ) 
!S24(C  6-Port  ) 
!S25(C  6-Port  ) 
!S26(C  6-Port  ) 
!S31(C  6-Port  ) 
!S32(C  6-Port  ) 
!S33(C  6-Port  ) 
!S34(C  6-Port  ) 
!S35(C  6-Port  ) 
!S36(C  6-Port  ) 
!S41(C  6-Port  ) 
!S42(C  6-Port  ) 
!S43(C  6-Port  ) 
!S44(C  6-Port  ) 
!S45(C  6-Port  ) 
!S46(C  6-Port  ) 
!S51(C  6-Port  ) 
!S52(C  6-Port  ) 
!S53(C  6-Port  ) 
!S54(C  6-Port  ) 
!S55(C  6-Port  ) 
!S56(C  6-Port  ) 
!S61(C  6-Port  ) 
!S62(C  6-Port  ) 
!S63(C  6-Port  ) 
!S64(C  6-Port  ) 
!S65(C  6-Port  ) 
!S66(C  6-Port  ) 
!S6P File: Measurement: :
# Hz S  RI   R 50
500000000 -0.33465 -0.053114 -0.0098186 -0.0017682 -0.0084805 0.013248 -0.0054704 0.012424
0.013072 0.0048058 -0.0052463 0.008496
-0.009713 -0.0015613 -0.41645 -0.06222 0.0082102 -0.010512 0.00149 0.011951
0.007895 0.0023348 0.00109 0.013614
-0.0085453 0.013032 0.0082027 -0.010451 -0.26665 0.19936 0.0066787 0.0035111
-0.0018365 0.0084523 0.00078779 0.01238
-0.0050812 0.012036 0.0011958 0.011546 0.0068438 0.0036088 -0.3315 0.043293
-0.019109 -0.0048198 0.017472 0.024521
0.013465 0.0056035 0.0084089 0.0025862 -0.0018819 0.0083449 -0.018786 -0.0047342
-0.24673 -0.19393 -0.027065 0.005093
-0.0049358 0.0085924 0.0019107 0.013112 0.00059392 0.012134 0.017594 0.024695
-0.02674 0.0051191 -0.27006 -0.12226
560000000 -0.31771 0.11418 -0.022828 -0.064291 -0.00015716 0.01279 0.0052188 0.010725
0.011266 0.0050172 0.010322 0.0082938
-0.023315 -0.064073 -0.3765 0.099102 -0.0416 -0.038039 0.01306 0.0036889
-0.012262 -0.0038841 0.003939 -0.0012082
-0.00015732 0.012125 -0.040634 -0.038047 -0.18537 0.25087 -0.00037388 -0.0048158
0.019177 0.0059323 0.0078543 -0.0060125
0.0049995 0.010735 0.013252 0.0033305 -0.0005002 -0.0048555 -0.30685 0.13569
0.0051368 -0.024396 0.0055025 -0.021236
0.011187 0.0049537 -0.012924 -0.0041731 0.019046 0.006242 0.0050608 -0.024143
-0.30837 -0.014858 0.007932 -0.047797
0.010434 0.00847 0.0048661 -0.00031091 0.0076632 -0.005591 0.0051215 -0.021403
0.0085888 -0.047153 -0.33237 0.024469
620000000 -0.27825 0.09489 -0.0232 0.0084974 0.0034978 0.0094494 0.0087112 -0.0047876
0.011512 -0.00064771 0.0010224 -0.0022177
-0.023289 0.0084896 -0.40344 0.049545 -0.018412 0.00066397 -0.0013444 -0.0020355
0.012066 -0.0062367 0.0012805 -0.0029782
0.0033834 0.0095043 -0.01847 0.00064739 -0.15529 0.2603 -0.00055338 -0.0049654
-0.0031458 -0.0028103 0.0091643 -0.002715
0.0085969 -0.0047936 -0.0011743 -0.0019492 -0.00072344 -0.0048621 -0.26593 0.14649
-0.038839 -0.020441 0.013263 0.026837
0.011769 -0.00046007 0.012141 -0.0061489 -0.0030463 -0.0028455 -0.038932 -0.020428
-0.22991 -0.045299 -0.041516 0.011507
0.0012179 -0.0024242 0.0014384 -0.0029276 0.0086576 -0.0029448 0.012462 0.026446
-0.040127 0.012186 -0.25128 -0.0060623
680000000 -0.23818 0.18379 -0.026237 -0.014396 0.0054786 0.0051697 0.0018063 -0.0074683
-0.0016623 -0.011818 0.0055482 -0.0073737
-0.026163 -0.014336 -0.38967 0.15055 -0.032232 -0.0018912 -0.0012536 -0.00070828
-0.0016377 -0.0091508 -0.001098 -0.0020355
0.0053207 0.0053559 -0.032317 -0.0018165 -0.10366 0.28093 -0.00068064 -0.00036739
-0.0018636 0.00033368 -0.0031428 -0.0095152
0.0016695 -0.0074626 -0.0011337 -0.00070566 -0.00085902 -0.00041261 -0.22086 0.19866
-0.023545 -0.0077935 -0.009176 -0.01156
-0.0019289 -0.011643 -0.0015628 -0.0094125 -0.0018245 0.00027702 -0.023395 -0.0077374
-0.279 0.054558 -0.0079187 -0.0089431
0.0054674 -0.007104 -0.0010803 -0.0019027 -0.0030955 -0.0092272 -0.0091114 -0.011815
-0.0080468 -0.008358 -0.26112 0.096861
740000000 -0.19302 0.1777 -0.039345 0.026493 0.013873 -0.004791 -0.00053113 -0.0044265
-0.0040447 -0.0034605 -0.006598 0.0034049
-0.039275 0.026547 -0.33505 0.16906 -0.036595 0.034421 -0.00033696 -0.0057875
-0.012163 0.0074688 -0.0010294 -0.0061477
0.013512 -0.004644 -0.036467 0.034605 -0.069428 0.27843 -0.0021122 0.0032451
-0.0031287 -0.0060365 -0.0015151 0.0013744
-0.00028093 -0.0041029 -0.00049392 -0.0057586 -0.0021891 0.0034066 -0.20367 0.20478
-0.04237 -0.0079116 0.022054 0.015239
-0.0045681 -0.0032418 -0.012043 0.0072531 -0.0031269 -0.0060465 -0.042139 -0.0079731
-0.18174 0.083212 -0.040506 -0.00028944
-0.0068554 0.0034272 -0.0013955 -0.0064141 -0.0014378 0.0016391 0.02208 0.014761
-0.040339 0.00036977 -0.24903 0.10099
800000000 -0.16173 0.22088 -0.022584 0.01608 0.0056046 -0.010468 -0.0044453 -0.0019431
-0.0047581 0.0021412 0.0041165 0.00024923
-0.02263 0.016098 -0.34089 0.23948 -0.0086533 0.033894 -0.0023465 0.0021052
-0.0013013 0.0028164 0.00077295 0.0050887
0.005561 -0.010564 -0.0084855 0.033982 -0.031086 0.30224 0.0008787 0.0014797
-5.3626e-05 0.0035234 -0.0019372 0.0010694
-0.0045754 -0.0021681 -0.0023069 0.0019921 0.00082926 0.0015234 -0.17386 0.23279
-0.028689 0.012941 0.013563 -0.0102
-0.0046809 0.0025861 -0.0015058 0.0028904 -8.9063e-05 0.0034676 -0.028475 0.013132
-0.22109 0.11105 -0.017346 0.019544
0.0043615 0.00021437 0.0010483 0.0052155 -0.0017779 0.00082654 0.013977 -0.010159
-0.017639 0.019007 -0.24032 0.15007
860000000 -0.12705 0.2414 -0.01795 0.030795 -0.0029778 -0.01022 -0.001886 0.00079351
0.0037716 0.0053448 -0.0035964 -0.0030159
-0.018075 0.030735 -0.29243 0.2827 0.0074074 0.034358 0.00027641 0.0020855
0.0039929 0.0013315 0.0031135 0.00030419
-0.0029847 -0.010167 0.0075471 0.034442 0.01651 0.31058 -0.00065177 -5.864e-05
0.0022207 -0.0012067 0.0014559 0.0041464
-0.0018228 0.00079037 0.00023776 0.001963 -0.00060971 -0.00013609 -0.13709 0.24311
-0.017882 0.017741 -0.0060283 -0.0088011
0.0038396 0.0055045 0.0037379 0.0012226 0.0021975 -0.0011863 -0.017879 0.018002
-0.16405 0.16316 -0.024272 0.016509
-0.0037204 -0.0031353 0.0030492 0.0003144 0.0017923 0.0042707 -0.0058906 -0.0086404
-0.024052 0.016515 -0.19051 0.19489
920000000 -0.10347 0.26464 0.0044202 0.038365 -0.0091572 -0.0049523 -0.0017731 0.0018551
0.0016678 0.0017672 0.0029659 -0.0015418
0.0044141 0.038407 -0.26532 0.30384 0.028046 0.022813 0.0015991 0.001371
0.0077979 -0.00043234 0.0039684 -0.0026495
-0.009261 -0.0049621 0.028099 0.022769 0.061957 0.31192 0.0020038 8.2529e-05
0.001265 -0.00053289 0.00093213 -0.0011611
-0.0019533 0.0019013 0.0015562 0.00134 0.001977 9.7456e-05 -0.11266 0.25969
-0.010918 0.030396 0.0034099 -0.0064427
0.0017662 0.0019084 0.0078724 -0.00030131 0.0013524 -0.00050109 -0.010946 0.03038
-0.15272 0.16616 -0.0024855 0.025971
0.0029906 -0.0016281 0.004175 -0.0028104 0.00081434 -0.0012106 0.0033431 -0.0065032
-0.0021263 0.026176 -0.19758 0.20914
980000000 -0.056956 0.28475 0.016935 0.030101 -0.0093187 0.0041414 0.0018044 0.0034285
0.0038524 -0.001734 -0.0030669 -0.0022829
0.016843 0.030163 -0.2123 0.33838 0.033286 0.0054563 0.0020499 -0.00020779
0.0016027 -0.0059254 -0.00035615 -0.002317
-0.009325 0.0041822 0.033329 0.0053212 0.10766 0.30625 0.00071985 -0.0011805
0.00049591 -0.0019832 0.0014738 -0.00022733
0.0017722 0.0034483 0.0020735 -0.00014657 0.00071907 -0.0011967 -0.074676 0.27056
0.0071077 0.030009 -0.0089427 -0.0068883
0.0037365 -0.0019164 0.0016423 -0.0061582 0.00049136 -0.001955 0.0072605 0.030082
-0.11979 0.19685 0.0058316 0.019497
-0.0031059 -0.0021852 -0.00032811 -0.0023759 0.0014733 -0.00021583 -0.0088771 -0.0066369
0.0058112 0.019424 -0.15361 0.25241
1040000000 -0.01545 0.29394 0.032757 0.019185 -0.0016537 0.0070654 0.0026614 0.00090552
0.0003148 -0.0034113 -0.00025972 -0.0018135
0.032752 0.019183 -0.17729 0.35197 0.029923 -0.014443 0.0015984 -0.0016785
-0.0020243 -0.002714 -0.00091969 -0.003062
-0.0016253 0.0071014 0.029943 -0.014539 0.15347 0.29332 -0.00045576 -0.0016356
-0.0015009 -0.00097613 -0.00049283 -0.0011684
0.0026661 0.00086867 0.0015532 -0.0016829 -0.00044311 -0.0016373 -0.047163 0.28052
0.019222 0.018791 -0.0026929 0.0011192
0.00019113 -0.0034947 -0.0020449 -0.0028735 -0.0014761 -0.00098505 0.019286 0.018794
-0.08617 0.20292 0.014022 0.01777
-0.00029541 -0.0016259 -0.00098398 -0.0030386 -0.00051525 -0.001145 -0.0026122 0.0012309
0.013967 0.017725 -0.13107 0.27256
1100000000 0.029507 0.3028 0.03634 -0.0034235 0.0027983 0.0042274 0.0024539 -0.0010965
-0.0022281 -0.0030296 -0.0038918 -9.4646e-05
0.0363 -0.003438 -0.13426 0.37 0.015916 -0.027791 7.704e-05 -0.0018346
-0.0037329 -0.00084849 -0.0036365 -0.00060544
0.0028242 0.004226 0.015845 -0.02791 0.19939 0.27407 -0.0018812 8.7211e-05
-0.0017155 0.00048531 -0.0011001 -0.00052113
0.0024278 -0.0010341 4.5945e-05 -0.0017886 -0.0019034 8.8929e-05 -0.0068434 0.28547
0.02489 0.0057495 -0.0023414 0.00013175
-0.0021982 -0.0029361 -0.0036648 -0.00083439 -0.001719 0.00053134 0.024877 0.0057081
-0.065769 0.21662 0.019484 0.0084654
-0.0038792 -2.6617e-05 -0.0035968 -0.00053553 -0.0010599 -0.00051484 -0.002337 0.0002288
0.019416 0.0083565 -0.085232 0.30137
1160000000 0.080501 0.2989 0.024602 -0.020571 0.0028081 -0.00038781 -8.945e-05 -0.0024086
-0.0040654 -0.00089408 -0.00095246 0.0041341
0.024583 -0.020521 -0.090931 0.37462 -0.0032066 -0.029523 -0.0015278 -0.0017641
-0.0028925 0.0024965 -0.0015642 0.0020887
0.0027815 -0.00040245 -0.0032735 -0.029517 0.24272 0.24417 -0.00093328 0.0018008
-0.00068992 0.0019409 -0.00088247 0.00031773
-2.8661e-05 -0.0024056 -0.0015546 -0.0017468 -0.0009287 0.001793 0.03237 0.28275
0.021588 -0.010136 -0.0032947 0.0050232
-0.0039982 -0.00080244 -0.0027869 0.002539 -0.00069998 0.0019364 0.021641 -0.010165
-0.031197 0.22393 0.018226 -0.00068306
-0.0010636 0.0040732 -0.0015827 0.0018939 -0.00086955 0.0002726 -0.0033428 0.0050376
0.018341 -0.000502 -0.038467 0.30402
1220000000 0.1247 0.28906 0.011201 -0.030186 -0.001557 -0.00097541 8.6678e-05 -0.00090062
-0.0027365 0.002167 0.0010655 0.001999
0.011201 -0.030117 -0.046913 0.38769 -0.016798 -0.021916 -0.0026784 0.00048212
-0.00011086 0.0031178 -0.00086512 0.0018972
-0.0015894 -0.00096204 -0.016906 -0.021892 0.28204 0.20588 0.00069154 0.0018241
0.00060072 0.0012676 0.0002917 0.0005326
5.4826e-05 -0.00091953 -0.0026684 0.0004645 0.00067126 0.0018318 0.072522 0.27404
0.011132 -0.01716 0.0020256 0.0014782
-0.0027194 0.002175 -6.8536e-05 0.0031326 0.0006012 0.0012792 0.011132 -0.017201
-0.0072634 0.232 0.013616 -0.013116
0.0010916 0.0020443 -0.00084172 0.0019203 0.00021027 0.00056937 0.0021491 0.0014445
0.013547 -0.013117 -0.0064678 0.31889
1280000000 0.175 0.26847 -0.0075601 -0.028914 -0.0020016 0.002479 -0.00078825 -0.0020709
-0.00077468 0.0032334 0.0024706 0.0012739
-0.0075458 -0.028877 -0.00087211 0.37951 -0.024056 -0.0090796 -0.00099966 0.0014593
0.0017262 0.0017934 0.00064285 0.0020375
-0.0019683 0.0024835 -0.024116 -0.0089705 0.31304 0.16248 0.0016133 3.388e-05
0.0011865 0.00030138 0.00040295 0.00018519
-0.00082004 -0.0020569 -0.0010297 0.0014694 0.0016277 2.537e-05 0.10959 0.25803
0.0013194 -0.019569 -0.00019755 0.00020814
-0.00074789 0.0032618 0.0017213 0.0018025 0.0012087 0.00028805 0.0013066 -0.019589
0.029715 0.23479 0.0028625 -0.015439
0.0024762 0.0012804 0.00060361 0.0020321 0.00041297 0.00021509 -0.00014172 0.00026221
0.0028593 -0.015443 0.040304 0.3205
1340000000 0.21258 0.23549 -0.017554 -0.01938 0.00073796 0.004758 -0.0017662 -0.00093772
0.0013877 0.0026868 0.0018159 -0.0013226
-0.017499 -0.01939 0.038686 0.372 -0.022011 0.0039963 -0.00011683 0.0020471
0.0019904 0.00086503 0.001249 0.00073775
0.00078935 0.0047372 -0.022011 0.0040765 0.33538 0.11533 0.0012187 -0.00093745
0.00067072 -0.00059323 1.8072e-05 0.00024774
-0.0017968 -0.00090777 -0.00011173 0.0020822 0.0011846 -0.00093361 0.14271 0.23724
-0.0084002 -0.017048 0.00078124 0.00057674
0.0013824 0.0026681 0.0019795 0.00081281 0.0006528 -0.00058584 -0.0084376 -0.01704
0.059546 0.2297 -0.0039988 -0.013907
0.0018426 -0.0014261 0.0012876 0.00071409 6.7913e-05 0.00023194 0.00078903 0.00061505
-0.0039093 -0.013875 0.078475 0.31509
1400000000 0.24634 0.19819 -0.023614 -0.0077545 0.0053444 0.0033862 -0.002237 0.00060775
0.0023888 0.00095757 0.0003215 -0.0015703
-0.023556 -0.0077749 0.076347 0.35969 -0.015414 0.012484 0.0014072 0.0013553
0.0013068 -0.00077954 0.0012255 0.00017142
0.005328 0.0033691 -0.015381 0.012581 0.34894 0.062236 0.00010606 -0.0016892
0.00011172 -0.00042951 0.00043752 0.00012856
-0.0022358 0.00058556 0.0014044 0.0013254 0.00012068 -0.0016688 0.17232 0.2082
-0.014516 -0.010197 -0.00082901 -0.00023968
0.002425 0.00096245 0.0012913 -0.00078826 0.0001038 -0.0004018 -0.014529 -0.010164
0.092558 0.2247 -0.010334 -0.0087875
0.00035151 -0.0015738 0.0012297 0.00017537 0.00040118 0.00021908 -0.00079132 -0.00031098
-0.010301 -0.0088158 0.12228 0.30403
1460000000 0.26976 0.15441 -0.020598 0.004608 0.0059045 -0.0018185 -0.0016175 0.001766
0.0021766 -0.00045072 -0.00045328 -0.00092545
-0.020575 0.0045873 0.11103 0.33814 -0.0063697 0.015731 0.0017372 0.00015615
0.00093632 -0.0014393 0.0012359 -0.00055444
0.0059171 -0.0018206 -0.006294 0.015784 0.3557 0.0081564 -0.0012283 -0.001326
0.00024218 -0.0002407 0.00065748 -0.00019193
-0.0016048 0.001739 0.0017563 0.00015703 -0.0012525 -0.0013477 0.19901 0.17864
-0.015964 -0.0035641 -0.00077336 0.001995
0.0021609 -0.00048671 0.00090673 -0.001441 0.000257 -0.00023705 -0.01599 -0.0035084
0.12174 0.21019 -0.011973 -0.0028797
-0.00036342 -0.00097032 0.0012173 -0.00058026 0.00069117 -0.00025212 -0.00075983 0.0020609
-0.011938 -0.0028326 0.15558 0.28315
1520000000 0.28243 0.11289 -0.014968 0.010265 0.0034459 -0.0042931 0.00011421 0.0026327
0.0021106 -0.0019017 -0.0011583 -0.00017648
-0.014974 0.010231 0.14487 0.3238 0.0015405 0.013477 0.0016473 -0.00080476
2.3001e-05 -0.0011576 0.00031273 -0.001029
0.0034281 -0.004327 0.0015999 0.013503 0.34927 -0.04789 -0.0011131 -0.00041982
0.00062075 -0.00087585 5.1046e-09 -0.00023789
0.00011748 0.0026387 0.0016559 -0.00082033 -0.001121 -0.00041057 0.22209 0.14008
-0.015458 0.0024377 0.0015306 0.0020538
0.0020667 -0.0019293 1.0705e-05 -0.0011576 0.00061911 -0.00085824 -0.015475 0.0025137
0.14956 0.19669 -0.011808 0.0016717
-0.0011391 -0.00010462 0.00032713 -0.0010404 6.318e-05 -0.00022235 0.0015413 0.0020508
-0.011837 0.0015973 0.18838 0.26266
1580000000 0.29248 0.066784 -0.008187 0.013522 -0.000958 -0.0050849 0.0015096 0.0019526
-0.0001367 -0.0021859 -0.00026539 0.00035336
-0.008191 0.0135 0.17255 0.29922 0.0054066 0.0085144 0.00049306 -0.0015791
-0.00062811 -0.0010692 -0.00020266 -0.0008618
-0.00098162 -0.0051058 0.0054584 0.0084975 0.32981 -0.10536 -0.0017478 0.00058359
-0.00032144 -0.0012174 0.00029491 -0.00049902
0.0015256 0.0019428 0.00048598 -0.0015755 -0.0017339 0.00057666 0.2357 0.10051
-0.012082 0.00756 0.0020904 0.0007331
-0.00014734 -0.0022203 -0.00063628 -0.0010542 -0.00030111 -0.0012263 -0.012082 0.0075678
0.17378 0.17893 -0.0094718 0.0072756
-0.0002778 0.00033444 -0.00018623 -0.00088786 0.00029193 -0.00049575 0.0021033 0.0007362
-0.0094199 0.0072953 0.22022 0.23592
1640000000 0.29483 0.025754 -0.0014125 0.012385 -0.0028699 -0.0026432 0.0027684 0.0010917
-0.00078517 -0.0016486 -0.00032452 0.00055638
-0.0014373 0.012384 0.20239 0.27446 0.0061693 0.0035441 -0.0006119 -0.0017691
-0.0010653 -0.00038196 -0.00056685 -0.00071091
-0.0028949 -0.002628 0.006191 0.0034952 0.30168 -0.15483 -0.00068264 0.0015562
-0.001094 -0.00096839 -0.00019325 -0.00034194
0.0027521 0.0010679 -0.00064531 -0.0017739 -0.00072627 0.0015736 0.24803 0.051474
-0.0077777 0.0092717 0.0024577 -0.00073546
-0.0007792 -0.0016462 -0.0010729 -0.000378 -0.0011169 -0.0010073 -0.0077357 0.0093126
0.19681 0.15517 -0.0047054 0.0091763
-0.00034562 0.00056018 -0.00057707 -0.0007023 -0.00018814 -0.00033291 0.0025483 -0.00075902
-0.0047563 0.0092015 0.24552 0.20483
1700000000 0.288 -0.019429 0.0020767 0.0095581 -0.0036769 1.0972e-05 0.0032185 -0.0012511
-0.0019991 -0.00068733 0.00054239 0.0004385
0.0020585 0.0095778 0.22082 0.2431 0.0040793 0.00050596 -0.0014924 -0.00058335
-0.000819 0.00010133 -0.00094148 -0.00046708
-0.0036987 7.195e-05 0.0040871 0.00049992 0.25851 -0.1946 0.00055582 0.00166
-0.0019508 -8.5854e-05 -0.00044955 -0.00089336
0.0032115 -0.0012914 -0.0014818 -0.0005973 0.00057581 0.0016746 0.24451 0.0016592
-0.0047456 0.010044 0.0016426 -0.002203
-0.00198 -0.00068318 -0.00081981 0.00010199 -0.0019573 -7.3584e-05 -0.0047587 0.010061
0.21422 0.135 -0.00014528 0.0096037
0.00055495 0.00047868 -0.00096485 -0.00047454 -0.00040801 -0.000992 0.0016424 -0.0021348
-6.0252e-05 0.0096147 0.26164 0.17052
1760000000 0.27642 -0.068066 0.0044878 0.0062451 -0.0022921 0.0010439 0.0012655 -0.0034093
-0.0014034 0.0006818 0.00036227 -0.00044985
0.0045005 0.0062447 0.24719 0.20333 0.0017771 -0.0014352 -0.0011745 0.00012981
-0.0010088 0.00094105 -0.00065516 0.00034793
-0.0022281 0.0010335 0.0018153 -0.0014248 0.2104 -0.22811 0.0012422 0.0010487
-0.0012515 0.0015202 -0.0012162 -0.00062513
0.0012526 -0.0033946 -0.0011895 0.00017632 0.0011546 0.0010518 0.23534 -0.049763
-0.0011287 0.0092111 -0.00014656 -0.002553
-0.0014422 0.0007257 -0.0010055 0.00097431 -0.0012611 0.0014935 -0.0010959 0.0092647
0.22944 0.10052 0.003748 0.0071162
0.00037289 -0.00047462 -0.00061561 0.00038043 -0.0012512 -0.00061528 -0.00016342 -0.0025962
0.0037162 0.0071492 0.27415 0.13298
1820000000 0.25219 -0.1054 0.0046217 0.0026004 -0.00028866 0.0024757 -0.001047 -0.0032123
-0.0011679 0.0010272 -4.2779e-05 -8.0996e-05
0.0045811 0.0026149 0.25755 0.17321 -0.00054874 -0.00031074 -0.0013235 0.00087629
-6.697e-06 0.0012343 -0.00057524 0.00055959
-0.00028727 0.0024743 -0.00058421 -0.00029848 0.15962 -0.24388 0.0015375 0.00029255
-0.00018364 0.0023065 -0.001472 0.00039769
-0.0010514 -0.0031856 -0.0013169 0.00087477 0.0015512 0.00030249 0.20506 -0.096854
0.00069308 0.0077415 -0.0015707 -0.001578
-0.001115 0.0010132 1.6472e-05 0.0012532 -0.00017312 0.002346 0.00065078 0.0077554
0.24686 0.071828 0.0046617 0.0038338
2.9021e-05 -0.00011468 -0.00056146 0.00058953 -0.0014361 0.00031705 -0.00158 -0.0015397
0.0047076 0.0037425 0.27628 0.096776
1880000000 0.21719 -0.14608 0.0024001 0.00018636 -0.00037732 0.0021467 -0.0029612 -0.0022623
-0.00020961 0.0018298 0.00010375 -0.00049414
0.002408 0.00021189 0.26226 0.12654 -0.0024959 0.0016218 -0.00024026 0.0017433
0.00060674 0.0012768 0.00013344 0.00096078
-0.00040253 0.0021597 -0.0024782 0.0016691 0.10755 -0.253 0.00177 -0.00092636
0.0016363 0.0020045 -0.00099196 0.0012544
-0.0030048 -0.0022303 -0.0003028 0.0017681 0.0017075 -0.00089111 0.16443 -0.13694
0.0016642 0.0056187 -0.0024109 0.00022007
-0.00023558 0.0018335 0.0005811 0.0012433 0.0015773 0.002002 0.0016674 0.0056339
0.25103 0.040335 0.0050551 0.0015181
0.00010877 -0.00047488 0.00014177 0.00092969 -0.001039 0.0013244 -0.0023539 0.00025985
0.0050589 0.0015513 0.27639 0.063173
1940000000 0.17795 -0.17175 -0.0001248 -0.0014795 0.0013453 0.002085 -0.0037309 0.00042502
0.0014019 0.0011483 -0.00053653 -0.00053531
-0.00010912 -0.0014727 0.26292 0.094517 -0.0013673 0.0040525 0.0010548 0.001337
0.0018982 0.00046815 0.0010439 0.00036953
0.0014043 0.0021277 -0.0013743 0.0040552 0.062129 -0.24587 0.0004527 -0.0021098
0.0024654 0.00039527 0.00060219 0.0017096
-0.0037536 0.00048545 0.001088 0.0013685 0.00046772 -0.0021242 0.11208 -0.16734
0.001122 0.0041058 -0.001489 0.0015943
0.001411 0.0011347 0.0018897 0.00044721 0.0024646 0.00040505 0.0010299 0.0041018
0.25428 0.0020952 0.0038331 -0.0015985
-0.00049079 -0.00055399 0.001098 0.00034216 0.00065609 0.0017098 -0.0015277 0.0016236
0.0038374 -0.0015742 0.26562 0.026841
2000000000 0.13195 -0.18644 -0.0039313 0.00056755 0.0026306 0.0015166 -0.0022988 0.0039155
0.0012046 0.00037744 -0.00060399 0.00043775
-0.0038804 0.0006285 0.24883 0.058762 -0.00089366 0.0057812 0.0016161 0.00054996
0.0012809 -0.0010923 0.00052133 0.00014052
0.0026523 0.0015349 -0.00086456 0.0058199 0.019106 -0.23232 -0.0011892 -0.0014416
0.0021234 -0.0012077 0.0016063 0.0014497
-0.002394 0.0038441 0.0016171 0.00045188 -0.0011618 -0.0015611 0.05856 -0.17708
-0.00025548 0.0036182 -0.00019666 0.0023092
0.0012208 0.00034869 0.0013168 -0.0011205 0.0021607 -0.0011742 -0.0003103 0.0036204
0.24969 -0.031493 0.00072125 -0.002708
