!Keysight Technologies,M9804A,MY58100912,A.14.10.03
!Date: Thursday, April 27, 2023 10:28:33
!Correction: S11(C  6-Port  ) 
!S12(C  6-Port  ) 
!S13(C  6-Port  ) 
!S14(C  6-Port  ) 
!S15(C  6-Port  ) 
!S16(C  6-Port  ) 
!S21(C  6-Port  ) 
!S22(C  6-Port  ) 
!S23(C  6-Port  ) 
!S24(C  6-Port  ) 
!S25(C  6-Port  ) 
!S26(C  6-Port  ) 
!S31(C  6-Port  ) 
!S32(C  6-Port  ) 
!S33(C  6-Port  ) 
!S34(C  6-Port  ) 
!S35(C  6-Port  ) 
!S36(C  6-Port  ) 
!S41(C  6-Port  ) 
!S42(C  6-Port  ) 
!S43(C  6-Port  ) 
!S44(C  6-Port  ) 
!S45(C  6-Port  ) 
!S46(C  6-Port  ) 
!S51(C  6-Port  ) 
!S52(C  6-Port  ) 
!S53(C  6-Port  ) 
!S54(C  6-Port  ) 
!S55(C  6-Port  ) 
!S56(C  6-Port  ) 
!S61(C  6-Port  ) 
!S62(C  6-Port  ) 
!S63(C  6-Port  ) 
!S64(C  6-Port  ) 
!S65(C  6-Port  ) 
!S66(C  6-Port  ) 
!S6P File: Measurement: :
# Hz S  RI   R 50
500000000 -0.33426 -0.052258 -0.010207 -0.0010423 -0.008174 0.013205 -0.0053642 0.011902
0.013073 0.0047487 -0.0057653 0.0080587
-0.010197 -0.0010481 -0.41641 -0.063213 0.0080119 -0.010543 0.0010912 0.011884
0.0081824 0.0024208 0.00090159 0.013378
-0.0080712 0.013248 0.0080067 -0.010573 -0.26671 0.19958 0.0066739 0.0038817
-0.001657 0.0085009 0.00032835 0.01269
-0.0054184 0.011907 0.0010983 0.011878 0.0066578 0.0038771 -0.33144 0.04424
-0.018787 -0.0050382 0.017066 0.025943
0.013085 0.0046314 0.008219 0.0024759 -0.0017041 0.0084326 -0.018766 -0.0050151
-0.24654 -0.19337 -0.026593 0.0052611
-0.0056506 0.0079259 0.00082978 0.013508 0.00027011 0.012675 0.017299 0.025989
-0.026513 0.0051939 -0.27096 -0.12041
560000000 -0.31783 0.11469 -0.023047 -0.065024 -1.8855e-05 0.012718 0.0049541 0.011144
0.011612 0.0045371 0.0097695 0.0093807
-0.022938 -0.064899 -0.37596 0.099784 -0.041503 -0.038198 0.013037 0.0035996
-0.012713 -0.0035538 0.0039824 -0.0010116
-6.9337e-05 0.012586 -0.041537 -0.038003 -0.18511 0.25103 -0.00033848 -0.0053756
0.018373 0.0057257 0.0078587 -0.0061533
0.0051881 0.010954 0.013141 0.0036258 -0.00031879 -0.0053674 -0.30633 0.13634
0.0054346 -0.024716 0.0045083 -0.020913
0.011664 0.0046728 -0.012831 -0.0037512 0.018515 0.0057852 0.0054208 -0.024594
-0.30914 -0.013153 0.009092 -0.048323
0.0098904 0.0094916 0.0040187 -0.0012222 0.0079303 -0.0060829 0.0044534 -0.020778
0.0090689 -0.048444 -0.33253 0.025216
620000000 -0.27768 0.094561 -0.023141 0.0086114 0.0036662 0.0095395 0.0078735 -0.0046097
0.01225 -0.001361 0.00036105 -0.0025584
-0.0231 0.0085851 -0.40343 0.049858 -0.018415 0.00078371 -0.0014751 -0.0020402
0.011986 -0.0060856 0.001036 -0.0031317
0.0036637 0.0095286 -0.018443 0.00083206 -0.15518 0.26027 -0.00085759 -0.004976
-0.0031321 -0.0027648 0.0087832 -0.0026793
0.0079449 -0.0044992 -0.0014011 -0.0020333 -0.00081171 -0.0050208 -0.2661 0.14653
-0.038135 -0.020529 0.01171 0.026209
0.01232 -0.0013542 0.011964 -0.0060806 -0.003195 -0.0027245 -0.038174 -0.020431
-0.23079 -0.04593 -0.039486 0.012619
0.00025765 -0.0025495 0.0010142 -0.0030749 0.0088126 -0.0025868 0.011912 0.026303
-0.039677 0.012571 -0.25279 -0.0081115
680000000 -0.23841 0.18392 -0.026338 -0.014386 0.0051932 0.0053352 0.0017306 -0.0072908
-0.0018441 -0.011724 0.0053761 -0.0074003
-0.026292 -0.01439 -0.38971 0.15075 -0.032262 -0.0019648 -0.0014305 -0.0007498
-0.0016159 -0.0092088 -0.0011204 -0.0017866
0.0051636 0.0052709 -0.032304 -0.001931 -0.10363 0.28082 -0.00077577 -0.00057442
-0.0018671 0.0003294 -0.0029501 -0.0090845
0.0017751 -0.0074602 -0.001346 -0.00072314 -0.00079236 -0.00053919 -0.2198 0.19836
-0.023882 -0.0080531 -0.0087342 -0.011421
-0.0018414 -0.011587 -0.0016379 -0.0092197 -0.0019087 0.00031382 -0.023933 -0.008034
-0.27867 0.054742 -0.0082545 -0.0077953
0.0055657 -0.0074176 -0.0011086 -0.0017383 -0.0029777 -0.0090666 -0.0088954 -0.011476
-0.0083074 -0.0078287 -0.25977 0.096628
740000000 -0.19272 0.17791 -0.03954 0.026566 0.013771 -0.0049608 -0.00041215 -0.0039306
-0.0045121 -0.0036322 -0.0070191 0.0035345
-0.039522 0.026506 -0.33506 0.16955 -0.036778 0.03444 -0.000491 -0.0058455
-0.011599 0.0074734 -0.0015163 -0.0060461
0.013763 -0.0048877 -0.036622 0.034499 -0.069411 0.27833 -0.0020308 0.0031175
-0.003146 -0.0058021 -0.0011785 0.0015085
-0.00046853 -0.004 -0.00052468 -0.0057703 -0.0020549 0.003116 -0.20416 0.2052
-0.041647 -0.0084281 0.021676 0.014791
-0.0046073 -0.0037265 -0.011817 0.0075888 -0.0031163 -0.0058233 -0.041704 -0.0082849
-0.18227 0.083808 -0.040086 0.00043756
-0.0071151 0.0034102 -0.001481 -0.0059567 -0.0012136 0.0015021 0.021725 0.014721
-0.040089 0.00042051 -0.24907 0.10109
800000000 -0.16164 0.22113 -0.02251 0.016159 0.005615 -0.010472 -0.00443 -0.002072
-0.0048044 0.0024413 0.0045216 0.0001879
-0.022484 0.016124 -0.3408 0.23957 -0.0086062 0.033988 -0.0023754 0.0020387
-0.001492 0.0029544 0.00092869 0.00508
0.0055852 -0.01048 -0.0085236 0.034019 -0.030978 0.30227 0.00089395 0.0015273
-8.8141e-05 0.0036503 -0.0016529 0.0010377
-0.0044118 -0.0021456 -0.002378 0.0020363 0.00089245 0.0015253 -0.17421 0.23284
-0.028062 0.012833 0.013467 -0.01022
-0.0048215 0.0024457 -0.0014633 0.0030125 -8.3238e-05 0.0036405 -0.028026 0.01291
-0.22189 0.11161 -0.016782 0.019914
0.0046134 0.00020225 0.0010713 0.0050304 -0.0016408 0.0010503 0.013481 -0.010189
-0.016867 0.019873 -0.24046 0.14972
860000000 -0.12706 0.24149 -0.017882 0.030584 -0.0029334 -0.010236 -0.0018164 0.00058686
0.003929 0.0055296 -0.003323 -0.002993
-0.017856 0.030558 -0.29241 0.28269 0.0074098 0.034361 0.00025936 0.0018913
0.003945 0.0013246 0.0033552 -2.2316e-05
-0.0029478 -0.010223 0.0075357 0.034386 0.016519 0.31058 -0.00054155 -0.00014333
0.0022296 -0.0011828 0.0016354 0.0040768
-0.0018452 0.00070199 0.00026282 0.0019351 -0.00053513 -0.00013652 -0.13686 0.24281
-0.017882 0.018123 -0.005735 -0.0089518
0.0040025 0.0055811 0.0039907 0.0013553 0.002249 -0.0012042 -0.017886 0.018177
-0.16427 0.16248 -0.024549 0.016816
-0.0033926 -0.0029569 0.0033867 -5.3217e-05 0.0016134 0.0040649 -0.0056582 -0.0089595
-0.024577 0.016829 -0.18935 0.19461
920000000 -0.10318 0.26456 0.0045969 0.038388 -0.0091827 -0.0049687 -0.0018837 0.0018013
0.00175 0.0018727 0.0027953 -0.0014287
0.0045835 0.038349 -0.26528 0.30375 0.028026 0.022766 0.0014099 0.0012955
0.0079811 -0.00046731 0.004063 -0.0026854
-0.0091907 -0.0049298 0.028136 0.022687 0.061954 0.31193 0.0019962 4.5676e-05
0.0012513 -0.0004258 0.00086734 -0.0012385
-0.0019099 0.0018207 0.0014227 0.0013411 0.0020118 5.85e-05 -0.11271 0.2597
-0.010934 0.030323 0.0032982 -0.0064318
0.0017332 0.0018639 0.0079546 -0.00046873 0.0012327 -0.00045922 -0.010903 0.030348
-0.15251 0.16648 -0.0020949 0.026212
0.002748 -0.0015116 0.0039481 -0.0027408 0.00085276 -0.0012452 0.0032646 -0.0064366
-0.0020739 0.026226 -0.19736 0.20917
980000000 -0.056826 0.28471 0.016882 0.030068 -0.0093713 0.0041597 0.0018679 0.0033772
0.003837 -0.0017829 -0.0031306 -0.002252
0.01686 0.030057 -0.21226 0.33838 0.033232 0.0054305 0.0021064 -0.00021132
0.0016979 -0.006007 -0.00032966 -0.0023735
-0.009351 0.0041989 0.033307 0.005329 0.10766 0.30625 0.00074642 -0.0011598
0.00049733 -0.0018977 0.0015489 -0.00015507
0.001892 0.0034037 0.0020824 -0.00019632 0.00074414 -0.0011609 -0.074607 0.27071
0.0071304 0.029883 -0.0088826 -0.0068068
0.0038505 -0.0018 0.001656 -0.0060529 0.00048266 -0.0019119 0.0072 0.029866
-0.11944 0.19758 0.0064748 0.01943
-0.0031151 -0.0022476 -0.00035931 -0.0025125 0.0015651 -0.00015816 -0.0088976 -0.0067938
0.0064377 0.019397 -0.15368 0.25217
1040000000 -0.015502 0.29383 0.032709 0.018964 -0.0016403 0.0070445 0.0026562 0.00075736
0.00022702 -0.003585 -0.00019618 -0.0017274
0.032703 0.018964 -0.17735 0.35191 0.029894 -0.014391 0.0015841 -0.0017252
-0.0020114 -0.0027115 -0.00092926 -0.0029954
-0.0016212 0.0070461 0.029885 -0.014544 0.1535 0.29335 -0.00042977 -0.0016167
-0.0015251 -0.00092682 -0.00048305 -0.001115
0.0026217 0.00078248 0.0015518 -0.001731 -0.00043591 -0.0016259 -0.047145 0.28041
0.019348 0.018834 -0.0026295 0.001082
0.0002462 -0.0035633 -0.0021359 -0.0027058 -0.0015235 -0.00095539 0.019389 0.01882
-0.085938 0.20311 0.013804 0.017552
-0.00027565 -0.0017417 -0.00090122 -0.0030191 -0.00047218 -0.0011018 -0.0026535 0.0011045
0.013731 0.017547 -0.13097 0.27251
1100000000 0.029621 0.30275 0.036313 -0.0035013 0.0027919 0.0042179 0.0024265 -0.0010787
-0.0021432 -0.0029451 -0.0039804 -0.0001199
0.036273 -0.0034694 -0.1343 0.36998 0.015914 -0.027806 0.00010758 -0.0018433
-0.0036284 -0.00079247 -0.0035987 -0.00061211
0.0028065 0.0042129 0.015838 -0.0279 0.19949 0.27409 -0.0019007 5.7731e-05
-0.0017459 0.00049005 -0.0011769 -0.00048564
0.002432 -0.0010891 0.00011279 -0.0018396 -0.0019014 6.2284e-05 -0.0068408 0.28541
0.024876 0.0057959 -0.0022402 0.00016661
-0.002183 -0.002946 -0.0036778 -0.00077723 -0.001753 0.00048751 0.024889 0.0057405
-0.065577 0.21659 0.019576 0.0084102
-0.0039771 -6.9629e-05 -0.0036043 -0.00056878 -0.0011698 -0.00049671 -0.0022312 0.00015638
0.019518 0.0083784 -0.085186 0.3015
1160000000 0.080672 0.29884 0.024521 -0.020581 0.0027777 -0.00038501 -2.564e-05 -0.0024139
-0.0039844 -0.00078571 -0.0010048 0.0041324
0.024514 -0.020552 -0.090841 0.37453 -0.003194 -0.029522 -0.0015614 -0.0017549
-0.0028301 0.0024894 -0.0015169 0.0019544
0.0027647 -0.0003914 -0.0032919 -0.029532 0.24278 0.24414 -0.00090207 0.0017775
-0.00063155 0.0019257 -0.00082196 0.000232
-5.491e-05 -0.0024091 -0.0015458 -0.0017389 -0.00089295 0.0017691 0.032464 0.28285
0.0215 -0.010218 -0.0033845 0.0051176
-0.0040074 -0.00078774 -0.0028331 0.0024986 -0.00063382 0.001894 0.021489 -0.010236
-0.030914 0.22378 0.01807 -0.00071784
-0.00098801 0.0041245 -0.0015468 0.0019989 -0.00085246 0.00025201 -0.0033999 0.0051437
0.018147 -0.00077709 -0.037958 0.30399
1220000000 0.12477 0.289 0.011147 -0.030127 -0.0015393 -0.00089742 8.7617e-05 -0.00089924
-0.0026899 0.0021489 0.0010723 0.0019953
0.011162 -0.03009 -0.046839 0.38771 -0.016791 -0.021909 -0.0026378 0.00048029
-5.9387e-05 0.00314 -0.00082441 0.0019584
-0.0015574 -0.00090812 -0.016892 -0.02188 0.28213 0.20587 0.0006929 0.0017922
0.00065037 0.0012582 0.00021023 0.00058346
7.8665e-05 -0.00090873 -0.002655 0.00048298 0.00068424 0.0017891 0.072459 0.27411
0.011117 -0.017298 0.0019791 0.0013832
-0.0027117 0.0021828 -6.6064e-05 0.0031302 0.00064067 0.0012421 0.011101 -0.017308
-0.0070907 0.23206 0.01368 -0.013199
0.0010622 0.0020374 -0.0008524 0.0019579 0.0002178 0.00055905 0.0019681 0.0013827
0.013694 -0.013176 -0.0064562 0.3187
1280000000 0.17501 0.26834 -0.0075649 -0.02885 -0.0019506 0.0025098 -0.00081744 -0.0020551
-0.00078264 0.00322 0.0024744 0.001384
-0.0075415 -0.028825 -0.0008072 0.37951 -0.024052 -0.0090475 -0.0010243 0.0014753
0.0017066 0.0017971 0.00057088 0.0020283
-0.0019419 0.0025034 -0.024138 -0.0089554 0.31304 0.1624 0.0016221 2.9185e-05
0.0011914 0.00029007 0.00034276 0.00016943
-0.00082279 -0.0020688 -0.0010098 0.0014743 0.0016214 3.9176e-05 0.10955 0.25805
0.0013119 -0.019548 -0.00014857 0.00022832
-0.00077423 0.0032334 0.001719 0.0018013 0.001193 0.00027896 0.0012721 -0.019548
0.029712 0.23472 0.0030639 -0.015262
0.0024779 0.001396 0.00058227 0.0020232 0.00034361 0.00018785 -0.0001582 0.00021401
0.0030683 -0.015262 0.040419 0.32039
1340000000 0.21247 0.23541 -0.017548 -0.01933 0.00076476 0.0047639 -0.0017988 -0.00092668
0.0013529 0.0026777 0.0018636 -0.0013835
-0.017515 -0.019321 0.038708 0.37197 -0.022001 0.0040282 -0.00010682 0.0020541
0.0019938 0.00082351 0.0012654 0.00073085
0.00079488 0.0047488 -0.022017 0.0041366 0.33542 0.11538 0.0011439 -0.00095708
0.0006295 -0.00063143 5.8059e-05 0.00017347
-0.001803 -0.00092153 -0.00010142 0.0020578 0.0011515 -0.00096506 0.14277 0.23718
-0.0084125 -0.01706 0.00081586 0.00063965
0.00139 0.0026763 0.0020049 0.00081409 0.00063702 -0.00062516 -0.0084466 -0.017061
0.059709 0.22967 -0.0040293 -0.013922
0.0018243 -0.0013948 0.0012803 0.00069887 7.6108e-05 0.00018455 0.00080971 0.00064514
-0.0040276 -0.013889 0.0785 0.31514
1400000000 0.24621 0.19806 -0.02358 -0.0077594 0.0053569 0.0033634 -0.0022079 0.00060547
0.0024161 0.0009749 0.00036291 -0.0015703
-0.02355 -0.007757 0.076393 0.3597 -0.0154 0.012474 0.0014058 0.0013492
0.0012733 -0.00076192 0.0012317 0.0001612
0.0053663 0.0033465 -0.015366 0.012565 0.34899 0.062176 0.00011939 -0.0016538
4.7487e-05 -0.00044986 0.00033803 0.0002122
-0.0022051 0.00060552 0.0014052 0.0013445 0.00011581 -0.0016601 0.17241 0.20819
-0.014568 -0.010227 -0.00076129 -0.00022313
0.0024186 0.00097156 0.0012846 -0.00077 6.938e-05 -0.00044824 -0.014596 -0.010192
0.092709 0.22475 -0.010334 -0.0088053
0.00031545 -0.0015629 0.0012258 0.00017958 0.00037335 0.00021955 -0.00075278 -0.00024634
-0.010325 -0.008838 0.12227 0.30383
1460000000 0.26963 0.15448 -0.02057 0.0046362 0.0059285 -0.0018039 -0.0016172 0.0017616
0.0021129 -0.00049135 -0.00034188 -0.00098687
-0.020552 0.0046174 0.11107 0.33813 -0.0063712 0.015755 0.0017315 0.00014194
0.00091867 -0.0014475 0.0012315 -0.00061764
0.0059233 -0.001829 -0.0063037 0.015798 0.3557 0.0081834 -0.0012462 -0.0013372
0.00020643 -0.00024715 0.00067596 -0.00027735
-0.0016013 0.0017789 0.0017302 0.0001357 -0.0012471 -0.0013388 0.19909 0.17862
-0.015965 -0.003518 -0.0007262 0.0019982
0.0021387 -0.00048715 0.00092565 -0.0014461 0.00021023 -0.00022742 -0.015991 -0.0034941
0.12189 0.21019 -0.011998 -0.002815
-0.00035012 -0.00099656 0.001221 -0.00061952 0.00062944 -0.00027931 -0.00072542 0.0020134
-0.012001 -0.0028243 0.15567 0.28319
1520000000 0.2824 0.11306 -0.014978 0.010236 0.0034389 -0.0043742 0.00010382 0.0026227
0.002089 -0.0019059 -0.0011527 -8.6257e-05
-0.014978 0.010215 0.14494 0.32384 0.0015432 0.013523 0.00165 -0.00076534
1.5691e-06 -0.001157 0.00031173 -0.0010319
0.0034317 -0.0043979 0.0016174 0.013525 0.34918 -0.047828 -0.0011267 -0.00040375
0.00067696 -0.00088856 2.3208e-05 -0.0001955
0.00010656 0.0026271 0.001642 -0.00078772 -0.001128 -0.00040186 0.22218 0.14004
-0.015453 0.0025078 0.0015124 0.0020434
0.0020689 -0.0019145 2.3985e-06 -0.0011647 0.00066816 -0.00089482 -0.01546 0.0025453
0.14975 0.19665 -0.011891 0.001669
-0.0011232 -0.00011064 0.00031891 -0.0010247 4.819e-05 -0.0002039 0.0015124 0.0020288
-0.01188 0.0016699 0.18852 0.26255
1580000000 0.29258 0.067023 -0.0081743 0.013526 -0.00094071 -0.0050618 0.0015078 0.0019427
-0.00013254 -0.0021628 -0.00020473 0.0003288
-0.0081726 0.013515 0.17262 0.29921 0.0054089 0.0084843 0.00048295 -0.0015875
-0.00061314 -0.0010552 -0.0001567 -0.00090804
-0.00095579 -0.0050663 0.005461 0.0084784 0.32988 -0.1054 -0.0017165 0.00057428
-0.00034839 -0.0012169 0.00025127 -0.00050384
0.0014982 0.001939 0.00048339 -0.0015943 -0.0017136 0.00057266 0.23578 0.10041
-0.012056 0.0075537 0.0021406 0.00075065
-0.0001556 -0.0021621 -0.0006188 -0.0010379 -0.00034392 -0.001225 -0.012041 0.0075986
0.17386 0.17879 -0.0094073 0.0073027
-0.00024207 0.00031679 -0.00016531 -0.00090357 0.0002507 -0.00050688 0.0021244 0.00075222
-0.0094164 0.0073116 0.22009 0.23584
1640000000 0.29505 0.025853 -0.0014143 0.012389 -0.0029207 -0.0026517 0.0027748 0.0011016
-0.00074077 -0.0016705 -0.00038554 0.00059469
-0.0014171 0.012385 0.20244 0.27447 0.006133 0.0035505 -0.00063385 -0.0017411
-0.0010415 -0.00038558 -0.0005853 -0.00071157
-0.0029257 -0.0026446 0.0061587 0.0035165 0.30161 -0.15488 -0.00074692 0.0015675
-0.0010848 -0.00093059 -0.00011769 -0.00034549
0.0027762 0.0010934 -0.00063277 -0.0017449 -0.00075108 0.00156 0.24809 0.051419
-0.0077431 0.0092876 0.0024682 -0.00075032
-0.00075968 -0.0016459 -0.001058 -0.00037235 -0.0010819 -0.00093027 -0.0077258 0.0093248
0.19697 0.15509 -0.0046769 0.0092369
-0.00036183 0.00057143 -0.00058024 -0.00070077 -0.00013403 -0.00035864 0.0024837 -0.00074193
-0.0046644 0.0092109 0.24568 0.2047
1700000000 0.2883 -0.019474 0.002104 0.0095381 -0.0036268 4.2798e-05 0.0032253 -0.0012669
-0.0020123 -0.00066937 0.00058662 0.00043845
0.0020967 0.0095284 0.2209 0.24306 0.0040771 0.0005005 -0.0014656 -0.00060476
-0.00081893 0.00010057 -0.00090605 -0.00044752
-0.0036225 4.3334e-05 0.0040849 0.00047694 0.25851 -0.1946 0.00053392 0.0016522
-0.0019901 -9.4371e-05 -0.00037232 -0.00087609
0.0032113 -0.0012947 -0.0014799 -0.00060221 0.0005351 0.0016422 0.2445 0.0015109
-0.0046753 0.010019 0.0016708 -0.0021194
-0.0019997 -0.00065367 -0.00081853 0.00010001 -0.0020029 -8.9098e-05 -0.0046575 0.010033
0.21432 0.13488 -7.6166e-05 0.0096696
0.00058019 0.00044386 -0.00093332 -0.000442 -0.00042661 -0.00086444 0.0016593 -0.0021255
-8.2771e-05 0.0096674 0.26169 0.17049
1760000000 0.27668 -0.068277 0.0044853 0.006222 -0.0023386 0.0010386 0.0012825 -0.0034341
-0.0014616 0.00069721 0.00040058 -0.00044849
0.0044815 0.0062212 0.24723 0.20325 0.0017533 -0.0014578 -0.0011954 0.0001627
-0.0010287 0.00093741 -0.00063422 0.00040723
-0.0023228 0.0010412 0.0017567 -0.0014734 0.21039 -0.22819 0.0012239 0.0010309
-0.0012682 0.0014639 -0.0012609 -0.00060361
0.0012919 -0.0034344 -0.0011937 0.00016063 0.001219 0.0010241 0.23526 -0.04984
-0.0011283 0.0091877 -0.00010802 -0.0026754
-0.0014456 0.00071428 -0.0010177 0.00093515 -0.0012717 0.0014718 -0.0011028 0.0092097
0.2295 0.10053 0.0038698 0.0071299
0.00039534 -0.0004687 -0.0006257 0.00041543 -0.001247 -0.00060904 -9.3836e-05 -0.0026713
0.0038745 0.0071286 0.27423 0.13276
1820000000 0.25231 -0.10568 0.0045701 0.0026068 -0.00032818 0.0024825 -0.00099375 -0.0031981
-0.0011728 0.0010152 -3.8692e-05 -3.8897e-05
0.0045591 0.002612 0.25758 0.17314 -0.00058115 -0.00029559 -0.0013195 0.0008836
-1.0415e-05 0.0012713 -0.00053612 0.0005267
-0.00029957 0.0024818 -0.00057449 -0.00028599 0.1596 -0.24405 0.0015564 0.00031191
-0.00018689 0.0023413 -0.001384 0.00033885
-0.0010183 -0.0031645 -0.0013156 0.00089285 0.0015524 0.00030583 0.2051 -0.096933
0.00069764 0.007769 -0.0015457 -0.0014756
-0.0011675 0.0010255 8.3327e-06 0.0012862 -0.00018012 0.0023485 0.00069908 0.0077554
0.24695 0.071785 0.0047615 0.0038538
-2.3163e-05 -3.7916e-05 -0.00052968 0.00053937 -0.0013743 0.00036447 -0.0015612 -0.001457
0.0047559 0.0038785 0.2765 0.096766
1880000000 0.21719 -0.14643 0.002407 0.00020091 -0.00037597 0.0021419 -0.0029438 -0.0022327
-0.00025483 0.0018203 5.1782e-05 -0.0005455
0.0024174 0.00019419 0.26227 0.12646 -0.0024707 0.0016287 -0.0002447 0.00174
0.00058734 0.0012934 0.00011535 0.00099351
-0.00037902 0.0021584 -0.002461 0.0016505 0.10763 -0.25298 0.0016697 -0.00088929
0.0015054 0.0020452 -0.0011303 0.0014568
-0.0029636 -0.0022552 -0.00023886 0.0017399 0.001682 -0.00089501 0.16433 -0.1369
0.0016641 0.0056065 -0.0023899 0.00013361
-0.00022654 0.0017909 0.0005838 0.0012792 0.0014964 0.0020486 0.0016666 0.0056275
0.25104 0.040285 0.0049957 0.0015497
2.5854e-05 -0.0005504 0.00012419 0.0010035 -0.0011313 0.0014857 -0.0023738 0.00013205
0.0050192 0.0014959 0.27612 0.062775
1940000000 0.17778 -0.17184 -0.00011275 -0.0013976 0.001366 0.0021442 -0.0037428 0.00043492
0.0014292 0.0010986 -0.00045163 -0.00059634
-0.00011111 -0.0013987 0.26291 0.094478 -0.0013861 0.0040461 0.0010731 0.0013433
0.0018954 0.00046187 0.001057 0.00035986
0.001371 0.0021343 -0.0013597 0.0040572 0.062127 -0.24598 0.00051604 -0.0021824
0.0024034 0.0003182 0.00063234 0.001645
-0.0037393 0.00043309 0.00108 0.0013313 0.0005181 -0.0021701 0.11208 -0.16727
0.0010633 0.0042371 -0.0014988 0.0017214
0.0014434 0.0010969 0.0019026 0.00044922 0.0023913 0.00031236 0.0010441 0.0041888
0.2543 0.0019313 0.0037582 -0.0016301
-0.0005043 -0.00062612 0.001028 0.00035148 0.00062442 0.0016768 -0.0015055 0.0017377
0.0037589 -0.001581 0.26567 0.026749
2000000000 0.13168 -0.18655 -0.0038929 0.00066384 0.0026261 0.0015224 -0.0023169 0.003792
0.0013048 0.00038285 -0.00061433 0.00050757
-0.0038716 0.00065028 0.24879 0.058745 -0.00090451 0.0057891 0.0016765 0.00044032
0.0013541 -0.0011039 0.00053144 0.00022134
0.0026225 0.0014856 -0.00087126 0.0058032 0.019178 -0.23224 -0.0011812 -0.0014647
0.0021367 -0.0012346 0.0015925 0.0015373
-0.0022828 0.0038043 0.0016822 0.00043737 -0.0012019 -0.0014779 0.058486 -0.1772
-0.0002889 0.0036412 -7.9038e-05 0.0022104
0.001308 0.00036023 0.001333 -0.0011186 0.0021174 -0.0012211 -0.00023751 0.0036786
0.2497 -0.031613 0.0007144 -0.0027407
