!Keysight Technologies,M9804A,MY58100912,A.14.10.03
!Date: Thursday, April 27, 2023 10:28:33
!Correction: S11(C  6-Port  ) 
!S12(C  6-Port  ) 
!S13(C  6-Port  ) 
!S14(C  6-Port  ) 
!S15(C  6-Port  ) 
!S16(C  6-Port  ) 
!S21(C  6-Port  ) 
!S22(C  6-Port  ) 
!S23(C  6-Port  ) 
!S24(C  6-Port  ) 
!S25(C  6-Port  ) 
!S26(C  6-Port  ) 
!S31(C  6-Port  ) 
!S32(C  6-Port  ) 
!S33(C  6-Port  ) 
!S34(C  6-Port  ) 
!S35(C  6-Port  ) 
!S36(C  6-Port  ) 
!S41(C  6-Port  ) 
!S42(C  6-Port  ) 
!S43(C  6-Port  ) 
!S44(C  6-Port  ) 
!S45(C  6-Port  ) 
!S46(C  6-Port  ) 
!S51(C  6-Port  ) 
!S52(C  6-Port  ) 
!S53(C  6-Port  ) 
!S54(C  6-Port  ) 
!S55(C  6-Port  ) 
!S56(C  6-Port  ) 
!S61(C  6-Port  ) 
!S62(C  6-Port  ) 
!S63(C  6-Port  ) 
!S64(C  6-Port  ) 
!S65(C  6-Port  ) 
!S66(C  6-Port  ) 
!S6P File: Measurement: :
# Hz S  RI   R 50
500000000 -0.3356 -0.05169 -0.010094 -0.0018998 -0.0083117 0.012994 -0.0055988 0.0124
0.01305 0.0052183 -0.0053111 0.0087547
-0.01052 -0.0011349 -0.41604 -0.063382 0.0083193 -0.010243 0.00070842 0.011786
0.0080113 0.0025453 0.0014516 0.013665
-0.0086818 0.013295 0.0081718 -0.010276 -0.26644 0.1996 0.0066002 0.0035362
-0.0018323 0.0081792 0.00079022 0.012139
-0.0036106 0.012024 0.0018253 0.011952 0.0070474 0.0035478 -0.33066 0.043864
-0.018788 -0.0045574 0.018324 0.025609
0.011976 0.0057887 0.0084719 0.0028426 -0.001877 0.0082066 -0.019181 -0.0045057
-0.24778 -0.19322 -0.027891 0.0056607
-0.0032464 0.0088076 0.0017819 0.014557 0.0010856 0.012152 0.018132 0.025919
-0.027388 0.0058509 -0.27014 -0.1205
560000000 -0.3183 0.11491 -0.023677 -0.06462 -0.00047815 0.012486 0.0046851 0.010991
0.011304 0.00481 0.010803 0.0090653
-0.023089 -0.064763 -0.3744 0.10063 -0.041201 -0.037785 0.012955 0.0033664
-0.012464 -0.0032589 0.0039303 -0.00056258
6.4589e-05 0.012698 -0.041936 -0.037648 -0.1857 0.25126 -0.00018934 -0.0049657
0.017897 0.0055556 0.0075851 -0.0056782
0.0058947 0.01114 0.012839 0.0031299 -0.00037496 -0.0047719 -0.30675 0.13612
0.0060652 -0.024177 0.0044836 -0.02131
0.010905 0.0040242 -0.013298 -0.0040793 0.01808 0.0056396 0.0061069 -0.024721
-0.311 -0.014536 0.010238 -0.047473
0.010412 0.0086661 0.0044911 -2.0989e-05 0.00783 -0.0057473 0.0043844 -0.02113
0.0090265 -0.047723 -0.33372 0.024152
620000000 -0.27817 0.094665 -0.023099 0.0088929 0.0035537 0.0094318 0.0088368 -0.0047709
0.011758 0.00013195 0.0014204 -0.0024309
-0.022945 0.0084566 -0.40337 0.049695 -0.018433 0.00059023 -0.0011247 -0.002019
0.011885 -0.0057277 0.0014987 -0.0030433
0.0035674 0.0098221 -0.01843 0.0006979 -0.15528 0.26036 -0.00054698 -0.0049239
-0.0031063 -0.0027231 0.0091233 -0.0029249
0.0085013 -0.0038063 -0.0012228 -0.001999 -0.00049089 -0.0050573 -0.26594 0.1466
-0.038311 -0.020823 0.01276 0.026481
0.013045 -0.0015279 0.011759 -0.0060431 -0.0035912 -0.0029833 -0.038043 -0.020981
-0.23008 -0.044556 -0.040546 0.011856
0.0012445 -0.002338 0.0013706 -0.0031188 0.0092389 -0.0028793 0.012608 0.026897
-0.040332 0.011363 -0.25153 -0.0085165
680000000 -0.23787 0.18446 -0.026496 -0.014682 0.0051856 0.0052791 0.00197 -0.0074491
-0.0018721 -0.011918 0.0056054 -0.006948
-0.026398 -0.014572 -0.38971 0.15054 -0.032266 -0.00193 -0.001056 -0.00043786
-0.0014253 -0.0093113 -0.0007701 -0.0019234
0.0050132 0.0049362 -0.032409 -0.0018581 -0.10385 0.281 -0.0008231 -0.00031622
-0.0017816 0.00037036 -0.0029959 -0.0094968
0.0011391 -0.0081557 -0.0013086 -0.00069844 -0.00069966 -0.00052457 -0.2211 0.19766
-0.023148 -0.0071316 -0.0088043 -0.01126
-0.0018229 -0.01204 -0.0015527 -0.0092842 -0.0017508 0.00038785 -0.023209 -0.0073888
-0.27845 0.054799 -0.0079752 -0.0079399
0.004564 -0.0070193 -0.0010035 -0.0022922 -0.0033337 -0.0094338 -0.0086977 -0.011435
-0.0081842 -0.007885 -0.25992 0.097203
740000000 -0.19258 0.17773 -0.039531 0.026665 0.013441 -0.0046867 -7.7692e-05 -0.0041075
-0.0045223 -0.0035996 -0.0067649 0.0036208
-0.03961 0.026639 -0.33506 0.16917 -0.036513 0.034596 -0.00040513 -0.0056464
-0.011753 0.0072411 -0.00185 -0.006315
0.013658 -0.0049026 -0.036436 0.034707 -0.069481 0.27815 -0.0020853 0.0035075
-0.003256 -0.0056858 -0.0012067 0.0014969
-0.0003316 -0.0040894 -0.00050404 -0.005854 -0.0019876 0.0030738 -0.20316 0.205
-0.042441 -0.0073233 0.022792 0.015016
-0.0050692 -0.0039605 -0.012102 0.0072476 -0.0033435 -0.0060476 -0.042467 -0.0071266
-0.18182 0.082159 -0.041425 -7.9489e-05
-0.0061058 0.0030438 -0.0012432 -0.0064984 -0.001434 0.0010937 0.022798 0.014805
-0.041278 0.00077081 -0.24732 0.10136
800000000 -0.16233 0.22112 -0.022859 0.016013 0.0057097 -0.010536 -0.0046099 -0.0021611
-0.004903 0.0025973 0.0043255 0.00032839
-0.023063 0.015844 -0.34087 0.23959 -0.0085223 0.033968 -0.0024392 0.0018994
-0.0015865 0.0028272 0.00079872 0.0050306
0.0053021 -0.010401 -0.0084666 0.034006 -0.03098 0.30228 0.00082913 0.0014717
-0.00010691 0.0035654 -0.0016921 0.00097986
-0.0050569 -0.0019715 -0.0024814 0.0021716 0.00088365 0.0015941 -0.17402 0.23267
-0.028616 0.012874 0.013458 -0.0097654
-0.0048408 0.0024345 -0.0015638 0.0028757 -5.1775e-06 0.003491 -0.028842 0.012782
-0.22177 0.1105 -0.017718 0.018832
0.0032324 0.00087063 0.00079778 0.0053767 -0.0017683 0.0010884 0.013326 -0.0098551
-0.017599 0.019029 -0.24125 0.15067
860000000 -0.12728 0.24125 -0.017836 0.030579 -0.0029023 -0.010143 -0.0015868 0.00088484
0.0038683 0.0053541 -0.0035911 -0.0030311
-0.017967 0.030762 -0.29254 0.28264 0.0074868 0.034429 0.00052136 0.0020945
0.0039949 0.0013592 0.0031204 0.00034388
-0.0029583 -0.0102 0.0075517 0.034373 0.01648 0.31066 -0.00060095 2.5583e-05
0.0024156 -0.0010991 0.0015904 0.004204
-0.0016624 0.00077933 0.00023125 0.0016866 -0.00060555 -2.8609e-05 -0.13701 0.24311
-0.017999 0.017843 -0.0061405 -0.0089238
0.0039166 0.0054905 0.0037947 0.0015704 0.0024525 -0.0011304 -0.017817 0.017827
-0.16428 0.16241 -0.024109 0.017197
-0.0034002 -0.0033236 0.0034086 0.00036061 0.0014402 0.004102 -0.0061072 -0.0090164
-0.02434 0.01643 -0.1904 0.19445
920000000 -0.10326 0.26474 0.0045555 0.038406 -0.0092091 -0.0049471 -0.001974 0.0020136
0.0017421 0.0018248 0.0028504 -0.0014847
0.0044125 0.038183 -0.26534 0.30363 0.028026 0.022807 0.0014343 0.0015811
0.0078052 -0.00033389 0.004065 -0.0026864
-0.0091996 -0.0049175 0.028184 0.022684 0.061885 0.312 0.0019266 5.5352e-05
0.0013192 -0.00052639 0.00078862 -0.0012452
-0.0019493 0.0017645 0.0016051 0.0014224 0.0019261 4.2456e-05 -0.11305 0.25961
-0.011055 0.030481 0.0035245 -0.0066862
0.001825 0.0020283 0.007896 -0.00034378 0.0013809 -0.00035662 -0.011011 0.030664
-0.15348 0.16572 -0.0024152 0.026253
0.0030437 -0.0016393 0.0044343 -0.002844 0.00090499 -0.0012527 0.0034134 -0.0067668
-0.0019644 0.026147 -0.19719 0.20876
980000000 -0.056892 0.28461 0.016905 0.030107 -0.0093648 0.0041228 0.0017634 0.003376
0.0039114 -0.0017962 -0.0030084 -0.0022709
0.016896 0.030078 -0.21231 0.33823 0.033264 0.0053882 0.0019992 -0.00025355
0.0016081 -0.0061613 -0.00023688 -0.0021175
-0.0094409 0.0041079 0.033295 0.0053415 0.10766 0.30624 0.00072803 -0.0011961
0.00056781 -0.0020395 0.0016198 -0.00027365
0.001875 0.003329 0.0020883 -0.00012299 0.00071906 -0.0011926 -0.074745 0.27054
0.0070482 0.030287 -0.0088962 -0.0065422
0.0039894 -0.0018702 0.001723 -0.0063484 0.00057803 -0.0020118 0.0069334 0.030189
-0.12008 0.19671 0.0057737 0.019859
-0.0031189 -0.0023997 -0.00059254 -0.0022248 0.0015679 -0.00023247 -0.0088269 -0.0065917
0.0059561 0.019959 -0.15379 0.25238
1040000000 -0.015512 0.29371 0.032827 0.019104 -0.0016993 0.0071055 0.0026613 0.00090439
0.0003333 -0.0035068 -0.00029894 -0.0017293
0.032837 0.019146 -0.17734 0.35187 0.029915 -0.014414 0.0015134 -0.001646
-0.0019924 -0.0028598 -0.001021 -0.0030757
-0.0014606 0.0071217 0.029864 -0.014558 0.15343 0.29332 -0.00043183 -0.0016245
-0.0014598 -0.0010701 -0.00058377 -0.0011886
0.0024048 0.00093021 0.001611 -0.0016884 -0.00048666 -0.0016323 -0.04721 0.28055
0.01925 0.018875 -0.0026701 0.0011609
0.00048239 -0.0034807 -0.0019968 -0.0028714 -0.0014612 -0.0010791 0.019393 0.018872
-0.086327 0.20288 0.013739 0.017833
-1.6366e-05 -0.001429 -0.0010485 -0.003063 -0.00059077 -0.0011793 -0.0026754 0.0012205
0.013745 0.017873 -0.13139 0.27241
1100000000 0.029732 0.30305 0.03639 -0.0034083 0.0028489 0.0042432 0.0024132 -0.0010584
-0.0021923 -0.003055 -0.0039474 -2.9378e-05
0.036396 -0.0034054 -0.13429 0.36999 0.015949 -0.02778 4.4707e-05 -0.0018606
-0.0036723 -0.00087847 -0.0035073 -0.00049544
0.0028206 0.0041445 0.015875 -0.027867 0.19938 0.27407 -0.0019764 7.3385e-05
-0.001801 0.00045415 -0.0010783 -0.0004902
0.0025041 -0.001118 8.7156e-05 -0.0018389 -0.0019107 9.2402e-05 -0.0068775 0.28552
0.024993 0.0057688 -0.0023409 0.00019584
-0.0022588 -0.0030616 -0.0036337 -0.00096892 -0.001795 0.00050442 0.025012 0.005759
-0.065548 0.21656 0.019599 0.0083272
-0.0040913 -0.00017117 -0.0036659 -0.00052369 -0.001088 -0.00049641 -0.0023335 0.00015835
0.019453 0.0082133 -0.085436 0.30125
1160000000 0.080364 0.29895 0.024597 -0.020552 0.0028198 -0.00041757 -2.826e-05 -0.002409
-0.0040034 -0.00089008 -0.0011565 0.0041197
0.024503 -0.020478 -0.090967 0.37457 -0.003147 -0.029498 -0.001574 -0.0017443
-0.0028991 0.0024844 -0.0015671 0.0019283
0.0028483 -0.00044968 -0.0033142 -0.029497 0.24276 0.24422 -0.00088653 0.0017979
-0.0007077 0.0019351 -0.0008944 0.00021167
-0.00014164 -0.0023734 -0.0015691 -0.0017763 -0.00095251 0.0017737 0.032507 0.28281
0.021666 -0.010114 -0.0032339 0.0050301
-0.0039732 -0.000841 -0.0027528 0.0025564 -0.00068209 0.0018805 0.02161 -0.010187
-0.031106 0.22392 0.018191 -0.00063427
-0.00099425 0.004101 -0.0015147 0.0019985 -0.0009784 0.00017619 -0.0032012 0.0051101
0.018415 -0.0007991 -0.038563 0.30387
1220000000 0.12489 0.28916 0.011185 -0.030179 -0.0015835 -0.00099268 4.598e-05 -0.00092197
-0.0027694 0.0021844 0.0010476 0.0020769
0.011272 -0.030153 -0.046924 0.38769 -0.016792 -0.021924 -0.0026829 0.00046669
-0.00010725 0.0030985 -0.00082102 0.0019018
-0.0015336 -0.0009494 -0.01691 -0.021865 0.282 0.20584 0.00070891 0.001825
0.00058583 0.0013639 0.00032964 0.00056302
6.8827e-06 -0.00094567 -0.0027036 0.00044865 0.00073007 0.0018284 0.07255 0.27408
0.011239 -0.017186 0.0020371 0.0014946
-0.0027378 0.0022504 -4.8791e-05 0.0030927 0.00058319 0.0013372 0.011199 -0.017221
-0.0071501 0.23214 0.01362 -0.013207
0.0010039 0.002011 -0.00087282 0.0018822 0.00031435 0.00055145 0.0020426 0.00139
0.013716 -0.01307 -0.0066861 0.31909
1280000000 0.17497 0.2684 -0.0075966 -0.028977 -0.0020164 0.0024433 -0.00079564 -0.0020753
-0.0008229 0.0033121 0.0025299 0.0013395
-0.007535 -0.028938 -0.00089484 0.37948 -0.024025 -0.0090817 -0.0010331 0.0014861
0.0016889 0.0018061 0.00066148 0.0020677
-0.0019887 0.002477 -0.024102 -0.0089762 0.31302 0.16249 0.0016293 5.3708e-05
0.0012713 0.00032066 0.00038169 0.00024769
-0.00086941 -0.0020254 -0.00099273 0.0014349 0.0016278 5.6096e-05 0.10956 0.25813
0.0014079 -0.019572 -0.0001892 0.00023884
-0.00083239 0.0032877 0.0017433 0.0018301 0.0012326 0.00033148 0.0013534 -0.019637
0.029625 0.23481 0.0027978 -0.01547
0.0026464 0.0013602 0.00055191 0.0021159 0.00034553 0.00028249 -0.00018297 0.00035305
0.002871 -0.0155 0.039722 0.32036
1340000000 0.2125 0.23545 -0.017603 -0.019422 0.00070281 0.0047305 -0.0018001 -0.0008796
0.0014001 0.0026543 0.0018369 -0.0013967
-0.017531 -0.019467 0.038628 0.37202 -0.021987 0.0039641 -0.00011111 0.0021176
0.0019745 0.00084446 0.0012379 0.00077385
0.00074107 0.0047162 -0.021984 0.0040632 0.33541 0.11538 0.0011398 -0.00093884
0.00064315 -0.0005652 3.5329e-05 0.00019352
-0.0017193 -0.00086968 -0.00010322 0.0020585 0.001157 -0.00091085 0.14268 0.23714
-0.0082823 -0.017126 0.00079104 0.00056467
0.0014279 0.0026239 0.0020095 0.00079926 0.00068834 -0.00060987 -0.0082814 -0.017065
0.059441 0.22968 -0.0039212 -0.013812
0.0018017 -0.0014177 0.0012835 0.00079837 4.245e-05 0.00020177 0.00075401 0.00050975
-0.003878 -0.013808 0.078404 0.31525
1400000000 0.24625 0.19814 -0.023632 -0.0077878 0.0052594 0.0033979 -0.0022217 0.0005366
0.0024509 0.00094982 0.00032595 -0.0016468
-0.023663 -0.007766 0.076314 0.35967 -0.015446 0.012449 0.0014244 0.0013297
0.0013136 -0.00075818 0.0012193 0.00019231
0.0053036 0.0033904 -0.015383 0.012547 0.34899 0.062168 0.00014772 -0.0016343
0.00010028 -0.00039137 0.00037141 0.00026884
-0.0022132 0.00059725 0.0014183 0.0013731 0.00013438 -0.00166 0.17232 0.20816
-0.0145 -0.010279 -0.00084923 -0.00031553
0.0025295 0.0010014 0.0013585 -0.00076468 0.00011439 -0.000392 -0.014518 -0.010225
0.092483 0.22481 -0.010242 -0.00862
0.00029982 -0.0016539 0.0012531 0.00015414 0.00045505 0.00021503 -0.00079778 -0.00027345
-0.010271 -0.0087039 0.12225 0.304
1460000000 0.26976 0.15459 -0.020628 0.0046522 0.0059303 -0.0017574 -0.0016047 0.0017383
0.002166 -0.00053051 -0.00040956 -0.0010273
-0.020626 0.0046174 0.111 0.33814 -0.006396 0.015716 0.0017607 0.00017655
0.00092944 -0.0014023 0.0012023 -0.00059693
0.0059256 -0.0018116 -0.0063307 0.015761 0.35574 0.0082685 -0.0011835 -0.0013353
0.00022993 -0.00021624 0.00073557 -0.00023813
-0.0016061 0.0017736 0.0017601 0.00018965 -0.0012073 -0.0014267 0.19893 0.17866
-0.015988 -0.0036719 -0.00080318 0.002065
0.0021843 -0.00057168 0.00091038 -0.0013857 0.00026888 -0.00024408 -0.01602 -0.003656
0.12187 0.21029 -0.011936 -0.0028038
-0.00034948 -0.0010644 0.0012566 -0.00058066 0.00071883 -0.00029783 -0.00084549 0.0020951
-0.011954 -0.0028549 0.15563 0.28339
1520000000 0.28242 0.11301 -0.015004 0.010327 0.0034357 -0.0042978 0.00011427 0.0026089
0.0021043 -0.0019715 -0.0011551 -0.00014406
-0.014993 0.0103 0.14485 0.32381 0.0014889 0.013502 0.0016701 -0.00079902
4.1672e-05 -0.0011666 0.00034746 -0.0010342
0.003443 -0.0043555 0.0015497 0.013504 0.34927 -0.047875 -0.0011148 -0.00047305
0.00065638 -0.00092317 3.5811e-05 -0.00024293
9.9022e-05 0.0026131 0.001665 -0.00082308 -0.0011089 -0.00044832 0.22205 0.14011
-0.015537 0.0024337 0.0015206 0.0020462
0.00218 -0.0019353 4.2003e-05 -0.0011568 0.00066779 -0.00090927 -0.015523 0.0024223
0.14957 0.1968 -0.01181 0.0016778
-0.0011777 -0.00018434 0.00033343 -0.0010713 1.1601e-05 -0.00027662 0.0015412 0.0020221
-0.011767 0.001654 0.18837 0.26265
1580000000 0.29252 0.06685 -0.0081616 0.013575 -0.00090359 -0.0051113 0.0014841 0.0019135
-0.00012953 -0.0021905 -0.00026599 0.0003491
-0.0081859 0.013567 0.17254 0.29925 0.0053944 0.008531 0.00050429 -0.0016062
-0.00057854 -0.0010619 -0.00024538 -0.000911
-0.00094586 -0.0050772 0.0054066 0.008511 0.3298 -0.1054 -0.0017452 0.00064232
-0.00036381 -0.0012407 0.00023295 -0.0004646
0.0015142 0.0018712 0.00046655 -0.0016277 -0.0017506 0.00062233 0.23573 0.10058
-0.012158 0.0075238 0.002146 0.00072748
-0.00020221 -0.0022479 -0.00061374 -0.0010926 -0.00034369 -0.0011895 -0.012158 0.007557
0.17382 0.17891 -0.0093892 0.0072965
-0.00034498 0.00029372 -0.00021578 -0.00090389 0.00016046 -0.00053275 0.0021927 0.0007617
-0.0093319 0.0072148 0.22018 0.23588
1640000000 0.2948 0.025815 -0.0013946 0.012405 -0.0028431 -0.0027001 0.0026923 0.001067
-0.00080025 -0.0016353 -0.00034112 0.0005844
-0.0013993 0.012417 0.20241 0.27448 0.0061798 0.0035495 -0.00067028 -0.0018121
-0.0010816 -0.00042052 -0.00058816 -0.0006917
-0.0029174 -0.0026653 0.0061752 0.0035139 0.30173 -0.155 -0.00077781 0.0014972
-0.0010889 -0.00097441 -0.00015954 -0.00029775
0.0026941 0.0011246 -0.00066622 -0.0017951 -0.00076606 0.0015027 0.2481 0.051552
-0.0078459 0.0093435 0.0024818 -0.00078338
-0.00079877 -0.0016305 -0.0010894 -0.00044079 -0.0010597 -0.0010433 -0.0078349 0.009353
0.19691 0.15519 -0.0047173 0.0091043
-0.00036725 0.0006704 -0.00059754 -0.00069975 -0.00023628 -0.00029685 0.0024342 -0.00078957
-0.0046439 0.0091243 0.24538 0.20497
1700000000 0.28807 -0.01942 0.0021057 0.009559 -0.0036836 2.6105e-05 0.0031927 -0.0012682
-0.0020584 -0.00066101 0.00055357 0.00049423
0.0020921 0.0095405 0.22085 0.2431 0.004088 0.00049372 -0.0015 -0.00059862
-0.00089795 9.7865e-05 -0.00097628 -0.00043808
-0.003639 -1.6946e-05 0.0040723 0.00046757 0.2584 -0.19475 0.00049735 0.0016959
-0.0020174 -1.2177e-06 -0.00048367 -0.00096232
0.0031188 -0.0012837 -0.0015259 -0.00059197 0.00052324 0.0017236 0.24461 0.0015296
-0.0047467 0.01012 0.0016428 -0.0022338
-0.0020291 -0.00062136 -0.00088782 8.59e-05 -0.002028 -6.5548e-05 -0.0047353 0.010101
0.21425 0.13494 -4.7428e-05 0.0095585
0.00055185 0.00054264 -0.00098018 -0.00045899 -0.00048574 -0.00095278 0.0016131 -0.002198
-9.424e-05 0.0095685 0.26172 0.17048
1760000000 0.27638 -0.068089 0.004506 0.0062167 -0.0022777 0.00094641 0.0013046 -0.0033774
-0.0014401 0.00069763 0.00042369 -0.00045441
0.0044892 0.0062266 0.24719 0.20332 0.0018464 -0.0014285 -0.0011877 0.00019896
-0.0010376 0.00098147 -0.00061695 0.00041613
-0.0023304 0.00099784 0.0018036 -0.0014244 0.21048 -0.22793 0.0012209 0.0010123
-0.0013024 0.0015416 -0.0011914 -0.00054744
0.0012561 -0.0034467 -0.001178 0.00021324 0.0011647 0.0011041 0.23547 -0.049811
-0.0010606 0.0092922 -0.00015164 -0.0026295
-0.0014637 0.00066917 -0.0010527 0.00094541 -0.0012907 0.0015483 -0.001032 0.0092872
0.22951 0.10054 0.0036677 0.0070475
0.00041486 -0.00047973 -0.000607 0.00039728 -0.0012183 -0.00057071 -0.00015903 -0.0025801
0.0037936 0.0070167 0.27414 0.13307
1820000000 0.25215 -0.10538 0.0046043 0.0026077 -0.00035479 0.0025438 -0.0010114 -0.0030768
-0.0011684 0.0010588 3.8827e-05 -0.00018449
0.004557 0.0025937 0.25748 0.17316 -0.00062874 -0.00033191 -0.0013616 0.00094431
-5.3481e-05 0.0012917 -0.00048935 0.00053456
-0.00029215 0.002495 -0.00060659 -0.00037351 0.15961 -0.24407 0.0016015 0.0002797
-0.0002088 0.0023298 -0.0014126 0.00032335
-0.0010172 -0.003066 -0.0012945 0.0009493 0.0016736 0.00030625 0.20509 -0.096944
0.00069526 0.0078029 -0.0015589 -0.0016013
-0.0011679 0.0010907 -1.4555e-05 0.0013292 -0.00013994 0.0024387 0.00070429 0.0078049
0.24685 0.071728 0.0046966 0.0037153
-8.4111e-06 -0.00017743 -0.00056765 0.00055918 -0.0014231 0.0004639 -0.0016671 -0.0015752
0.0046386 0.0037079 0.27613 0.096884
1880000000 0.21726 -0.14605 0.002397 0.00016563 -0.00042426 0.0021506 -0.0029694 -0.0023065
-0.00018407 0.0018084 0.00014125 -0.00052744
0.0024185 0.00020017 0.26219 0.12652 -0.0024978 0.0016523 -0.00020122 0.0017302
0.00065542 0.0013588 0.00012736 0.00092628
-0.00044491 0.0021658 -0.002465 0.0016355 0.1076 -0.25304 0.0017608 -0.0008844
0.0017155 0.0020325 -0.00097318 0.0012416
-0.0028039 -0.0023021 -0.00021494 0.0017565 0.0017539 -0.00092727 0.16427 -0.13709
0.0017054 0.0055376 -0.0023939 0.00028814
-6.78e-05 0.0018688 0.0006572 0.001344 0.0016898 0.001994 0.0017422 0.0054775
0.25108 0.040266 0.0048989 0.0015529
4.6354e-05 -0.00057027 0.00012816 0.00090989 -0.00099615 0.0013044 -0.0023179 0.00025713
0.0049238 0.0016253 0.27636 0.063125
1940000000 0.17797 -0.1717 -8.7468e-05 -0.0015239 0.0014059 0.0020804 -0.0037602 0.00047339
0.0013913 0.0010268 -0.00046064 -0.00055859
-7.1286e-05 -0.0015365 0.26294 0.09459 -0.0013667 0.004082 0.0010863 0.0013039
0.0019773 0.0004294 0.001038 0.00039678
0.0014684 0.0020031 -0.0013107 0.0040887 0.062082 -0.24567 0.00045629 -0.0022605
0.0025076 0.00025812 0.00064646 0.0016515
-0.003803 0.00039328 0.0011009 0.0012872 0.00046222 -0.0021995 0.11211 -0.16735
0.00087134 0.0041217 -0.0015034 0.0016146
0.0014605 0.0010796 0.0019952 0.00043689 0.0025559 0.00033624 0.00099847 0.004134
0.25412 0.0018428 0.0037677 -0.0015945
-0.00046977 -0.00056557 0.0010886 0.0002861 0.00060152 0.0016466 -0.0015191 0.0016064
0.0036997 -0.0015552 0.26551 0.027021
2000000000 0.13212 -0.18664 -0.0038646 0.00058942 0.0026645 0.0015607 -0.002371 0.0037671
0.0013256 0.00037894 -0.00073232 0.00048008
-0.0038548 0.00056317 0.24884 0.058862 -0.00083071 0.005827 0.0015826 0.00050064
0.0013297 -0.001213 0.00050921 0.00012011
0.0026103 0.0014674 -0.00083291 0.0058054 0.019227 -0.23221 -0.0012487 -0.0014823
0.0021015 -0.0012974 0.0016354 0.0014903
-0.002321 0.0037687 0.0017267 0.00038972 -0.0012193 -0.0014865 0.058481 -0.17705
-0.00037466 0.003599 -0.00012923 0.0023142
0.0012501 0.00033764 0.0014334 -0.0011503 0.0021217 -0.0013206 -0.00042309 0.0036259
0.24954 -0.031578 0.00072527 -0.0026507
