!Keysight Technologies,M9804A,MY58100912,A.14.10.03
!Date: Thursday, April 27, 2023 10:28:33
!Correction: S11(C  6-Port  ) 
!S12(C  6-Port  ) 
!S13(C  6-Port  ) 
!S14(C  6-Port  ) 
!S15(C  6-Port  ) 
!S16(C  6-Port  ) 
!S21(C  6-Port  ) 
!S22(C  6-Port  ) 
!S23(C  6-Port  ) 
!S24(C  6-Port  ) 
!S25(C  6-Port  ) 
!S26(C  6-Port  ) 
!S31(C  6-Port  ) 
!S32(C  6-Port  ) 
!S33(C  6-Port  ) 
!S34(C  6-Port  ) 
!S35(C  6-Port  ) 
!S36(C  6-Port  ) 
!S41(C  6-Port  ) 
!S42(C  6-Port  ) 
!S43(C  6-Port  ) 
!S44(C  6-Port  ) 
!S45(C  6-Port  ) 
!S46(C  6-Port  ) 
!S51(C  6-Port  ) 
!S52(C  6-Port  ) 
!S53(C  6-Port  ) 
!S54(C  6-Port  ) 
!S55(C  6-Port  ) 
!S56(C  6-Port  ) 
!S61(C  6-Port  ) 
!S62(C  6-Port  ) 
!S63(C  6-Port  ) 
!S64(C  6-Port  ) 
!S65(C  6-Port  ) 
!S66(C  6-Port  ) 
!S6P File: Measurement: :
# Hz S  RI   R 50
500000000 -0.33676 -0.039666 -0.0098366 -0.0022515 -0.0080577 0.013021 -0.004495 0.011953
0.012895 0.0048499 -0.0047014 0.0088287
-0.0098336 -0.0022372 -0.41958 -0.052357 0.0075984 -0.010539 0.0014197 0.012225
0.0075614 0.0025293 0.0011972 0.013363
-0.0080117 0.013041 0.0075824 -0.010549 -0.26634 0.20934 0.0075825 0.0035894
-0.0020595 0.0081486 0.0015243 0.012077
-0.0044706 0.011974 0.0014396 0.012252 0.0075986 0.0035962 -0.33268 0.041966
-0.019456 -0.006804 0.015323 0.026774
0.012917 0.0048008 0.0075699 0.0025396 -0.0020459 0.008169 -0.019464 -0.0067922
-0.2215 -0.2026 -0.025618 0.0048258
-0.0047299 0.0088719 0.0012793 0.013318 0.0015527 0.012048 0.015377 0.026748
-0.025602 0.0047581 -0.26563 -0.13817
560000000 -0.31626 0.12235 -0.024323 -0.063708 0.00057124 0.012189 0.0050857 0.010916
0.010259 0.0056771 0.011312 0.0078985
-0.024268 -0.063595 -0.37872 0.10743 -0.041475 -0.037537 0.014103 0.0037367
-0.013027 -0.0050614 0.0034347 -0.00053909
0.00056969 0.012191 -0.041548 -0.037433 -0.1831 0.25816 -0.00054844 -0.0036093
0.019888 0.0055456 0.0065509 -0.0056978
0.0051029 0.010856 0.014127 0.00369 -0.00060896 -0.0035917 -0.30769 0.13166
0.0031762 -0.023552 0.0044957 -0.021803
0.010249 0.0057097 -0.013034 -0.0050439 0.01991 0.0055699 0.0031839 -0.02359
-0.29001 -0.026846 0.0084233 -0.04829
0.011399 0.0078711 0.0034578 -0.0005395 0.0065241 -0.0057454 0.0044811 -0.021737
0.0084717 -0.048347 -0.32985 0.011571
620000000 -0.27572 0.1069 -0.023261 0.0082067 0.0036245 0.0089763 0.0084184 -0.0050575
0.011376 7.628e-05 0.0024113 -0.0022329
-0.023255 0.008168 -0.40304 0.059558 -0.018562 0.00050662 -0.0012242 -0.0018971
0.011647 -0.0061666 0.0017787 -0.0028967
0.0036625 0.008883 -0.018588 0.00055516 -0.15379 0.26699 -0.0010358 -0.005136
-0.0030197 -0.0026753 0.0086049 -0.003098
0.0084331 -0.0050397 -0.0012274 -0.0019079 -0.0010147 -0.0051406 -0.26761 0.14359
-0.038272 -0.019586 0.012205 0.026818
0.011331 -1.062e-05 0.011637 -0.0062038 -0.0030028 -0.0026576 -0.038323 -0.019541
-0.20803 -0.063695 -0.041949 0.015306
0.002379 -0.002246 0.0017882 -0.0028714 0.0086341 -0.0031072 0.012281 0.026777
-0.042037 0.015382 -0.24941 -0.02576
680000000 -0.23515 0.19262 -0.027185 -0.013959 0.005017 0.0050379 0.0015269 -0.0072242
-0.0028208 -0.011271 0.0057483 -0.0070516
-0.02716 -0.01394 -0.38772 0.15798 -0.032402 -0.0012306 -0.0014301 -0.00060526
-0.0019198 -0.0091328 -0.0010487 -0.0017294
0.0050273 0.0050548 -0.032423 -0.0011474 -0.10182 0.28676 -0.00065057 -0.00028484
-0.0015166 0.00026126 -0.0027671 -0.0090929
0.0015031 -0.0072326 -0.0014302 -0.00060781 -0.00065574 -0.00029025 -0.22141 0.19492
-0.024146 -0.0070264 -0.010345 -0.011186
-0.0028581 -0.011292 -0.0019647 -0.009148 -0.0014984 0.00024068 -0.02417 -0.0070256
-0.26059 0.036463 -0.0055737 -0.0079548
0.0058596 -0.0070095 -0.0010642 -0.001777 -0.0028097 -0.0091353 -0.010328 -0.011185
-0.005533 -0.0079113 -0.26102 0.082494
740000000 -0.19037 0.1875 -0.038413 0.02707 0.012863 -0.0052926 -0.00014132 -0.0044442
-0.004016 -0.0030641 -0.0062321 0.0021222
-0.038413 0.027058 -0.33425 0.17654 -0.035285 0.035295 -0.00081641 -0.0063903
-0.012081 0.0077664 -0.002062 -0.006533
0.012851 -0.0053139 -0.035219 0.035427 -0.067899 0.28441 -0.0021901 0.0030442
-0.0022619 -0.0049116 -0.0015535 -5.5457e-05
-0.00013591 -0.0044653 -0.000824 -0.0064117 -0.0021931 0.0030451 -0.20474 0.20249
-0.043879 -0.006711 0.023478 0.015514
-0.0039873 -0.0030255 -0.012117 0.0078704 -0.0022795 -0.0048805 -0.043917 -0.0066744
-0.15847 0.06379 -0.043867 0.001187
-0.0061507 0.0022051 -0.00207 -0.0064699 -0.0015574 -8.0644e-05 0.023535 0.015505
-0.043966 0.001132 -0.2497 0.087536
800000000 -0.15707 0.22771 -0.022051 0.016781 0.0054914 -0.010676 -0.004606 -0.0022168
-0.004068 0.0019425 0.0046773 0.00038756
-0.022059 0.016775 -0.33771 0.24641 -0.0076719 0.03378 -0.0024268 0.0021561
-0.00076834 0.0028183 0.001001 0.0052346
0.0054487 -0.010697 -0.0075767 0.03384 -0.027481 0.30737 0.00092443 0.001548
0.00018207 0.0035547 -0.0015248 0.00081299
-0.0046128 -0.0022126 -0.0024156 0.0021724 0.00093104 0.0015501 -0.17553 0.23048
-0.028448 0.014561 0.014223 -0.01041
-0.0040632 0.0019763 -0.00075627 0.0028166 0.00018066 0.0035397 -0.028443 0.014623
-0.20666 0.087438 -0.017356 0.01962
0.0046925 0.00035009 0.0010335 0.0052363 -0.001549 0.00081564 0.014237 -0.010412
-0.017322 0.019568 -0.24567 0.13799
860000000 -0.12247 0.24744 -0.017122 0.030354 -0.0031985 -0.010062 -0.0022845 0.00074635
0.0038482 0.0047323 -0.0032944 -0.0029328
-0.01714 0.030317 -0.29025 0.28815 0.0078254 0.033995 -6.6226e-05 0.0018892
0.0040312 0.00017679 0.0033327 0.00074032
-0.0032165 -0.010066 0.0079564 0.034013 0.020157 0.31518 -0.00057603 -0.00021983
0.0027133 -0.0015511 0.0014884 0.0043419
-0.0022844 0.00076182 -5.7495e-05 0.0019036 -0.00057731 -0.00022272 -0.13881 0.24073
-0.017712 0.018768 -0.0060679 -0.0092448
0.0038688 0.0047404 0.0040406 0.00015521 0.0027307 -0.0015668 -0.017686 0.01881
-0.15438 0.13925 -0.026093 0.015647
-0.0033214 -0.0029471 0.0033482 0.00074262 0.0014796 0.0043422 -0.0060888 -0.0092539
-0.02613 0.015616 -0.1937 0.18459
920000000 -0.098122 0.27016 0.0052755 0.037504 -0.0094931 -0.0045666 -0.0018411 0.0017575
0.0010193 0.0019018 0.002821 -0.001548
0.0052507 0.037496 -0.26142 0.30942 0.027986 0.021784 0.0014266 0.0011528
0.0072067 -0.00040174 0.0040515 -0.0026457
-0.0095146 -0.0045271 0.028103 0.021723 0.066196 0.31592 0.0018974 -5.3184e-05
0.0011927 -0.00031597 0.0008546 -0.0011306
-0.0018393 0.0017637 0.0014383 0.0011537 0.0019046 -5.6416e-05 -0.11495 0.25789
-0.010706 0.031342 0.0042189 -0.0068691
0.0010272 0.0018927 0.0071973 -0.0004413 0.0012028 -0.00032807 -0.010651 0.031374
-0.14499 0.14537 -0.0027283 0.02755
0.0027873 -0.0016052 0.004084 -0.0026278 0.00086539 -0.0011147 0.0042069 -0.0068853
-0.0027664 0.027573 -0.20365 0.19855
980000000 -0.050805 0.28956 0.017447 0.029689 -0.0091126 0.0045187 0.0019948 0.0033976
0.0038986 -0.0012317 -0.0032866 -0.0021316
0.017419 0.029685 -0.20865 0.34302 0.032928 0.0047856 0.0021441 -4.2663e-05
0.0016503 -0.0057521 -0.00018481 -0.0024614
-0.009102 0.0045419 0.032985 0.0046931 0.11235 0.30946 0.00054446 -0.0011483
0.00025493 -0.002038 0.0013366 -0.00020278
0.0019967 0.0033929 0.0021489 -3.1345e-05 0.0005417 -0.0011615 -0.076468 0.26872
0.0083737 0.030505 -0.0090732 -0.0075076
0.0038991 -0.0012431 0.0016174 -0.0057867 0.00025248 -0.0020323 0.0084458 0.030507
-0.11336 0.17451 0.0049165 0.019687
-0.0032999 -0.0021329 -0.0001893 -0.0024389 0.0013558 -0.00021087 -0.0090839 -0.0074925
0.0049294 0.019683 -0.16158 0.24449
1040000000 -0.0089095 0.29792 0.033002 0.017963 -0.0013772 0.0068491 0.0023713 0.0007365
0.0001171 -0.0036555 -0.00033631 -0.0014769
0.032971 0.017957 -0.17323 0.35605 0.029284 -0.014894 0.001468 -0.0017366
-0.0023742 -0.0027359 -0.0012285 -0.0026372
-0.0013611 0.0068461 0.02929 -0.015007 0.15837 0.29586 -0.00051785 -0.001581
-0.0015879 -0.00089673 -0.00049509 -0.0010073
0.0023879 0.00071764 0.0014817 -0.0017264 -0.00053936 -0.0015853 -0.04949 0.27892
0.020015 0.018425 -0.0021655 0.0010318
0.00010424 -0.0036566 -0.0024253 -0.0027524 -0.001588 -0.00090281 0.02007 0.018401
-0.080846 0.18127 0.013561 0.018807
-0.00034305 -0.0014699 -0.0012594 -0.0026186 -0.00048728 -0.00099908 -0.0021601 0.0010586
0.013513 0.018778 -0.14092 0.2648
1100000000 0.036195 0.30566 0.035544 -0.0044215 0.0027077 0.0038798 0.0022725 -0.0011799
-0.0019299 -0.0031647 -0.0039699 7.1729e-05
0.035521 -0.0044077 -0.13003 0.37313 0.015084 -0.027865 -4.64e-05 -0.0018299
-0.0034424 -0.0009519 -0.0035434 -0.00047303
0.0027327 0.0038652 0.014997 -0.02796 0.20483 0.27548 -0.0019277 0.00021485
-0.0019009 0.00052205 -0.0011209 -0.00021794
0.0022678 -0.0011951 -4.7838e-05 -0.0018137 -0.0019276 0.00021302 -0.0092441 0.28382
0.025592 0.0050011 -0.0027665 -0.00030475
-0.0019428 -0.0031556 -0.0034553 -0.00093574 -0.0018858 0.00053163 0.025618 0.0049672
-0.062909 0.19479 0.019349 0.0087226
-0.00397 9.2334e-05 -0.0035725 -0.00046252 -0.0011206 -0.00021793 -0.0027434 -0.00028218
0.01934 0.0087125 -0.095262 0.29616
1160000000 0.087498 0.3007 0.023653 -0.020798 0.0024994 -0.00042924 -0.00023379 -0.0022045
-0.0040457 -0.00082931 -0.00099329 0.0041506
0.023659 -0.020777 -0.086657 0.37745 -0.0038346 -0.029148 -0.0017449 -0.0017344
-0.0028671 0.0024971 -0.0013802 0.0018473
0.0024991 -0.00044334 -0.0039611 -0.029149 0.24787 0.24461 -0.00073524 0.0017751
-0.00064627 0.0020239 -0.00078025 0.00031421
-0.00023559 -0.0022161 -0.001745 -0.0017175 -0.00073721 0.0017816 0.029825 0.28131
0.021883 -0.010934 -0.003227 0.0049427
-0.0040674 -0.00081564 -0.0028555 0.0025087 -0.00065682 0.0020355 0.021882 -0.010965
-0.029725 0.20347 0.018559 0.00067595
-0.00095464 0.0041502 -0.0013831 0.0018479 -0.00076591 0.00031726 -0.0032113 0.0049568
0.018573 0.00068775 -0.04829 0.2994
1220000000 0.13179 0.28971 0.010037 -0.02992 -0.0016541 -0.00065421 0.00013179 -0.00088784
-0.0026825 0.0023293 0.0013503 0.0020563
0.010034 -0.029887 -0.042367 0.38955 -0.016962 -0.021124 -0.0025497 0.00042034
-6.4102e-05 0.0031403 -0.00074076 0.0018973
-0.0016631 -0.00064864 -0.017072 -0.021062 0.28693 0.20543 0.00079349 0.0017316
0.00063866 0.0012379 0.00041421 0.00067037
0.00012997 -0.00089811 -0.0025488 0.00043467 0.00079273 0.0017341 0.069751 0.2731
0.010965 -0.017956 0.0017129 0.0014245
-0.0026736 0.0023278 -5.4433e-05 0.0031326 0.00062459 0.0012482 0.010937 -0.01798
-0.0081087 0.21236 0.014548 -0.012997
0.001357 0.0020417 -0.00074016 0.0018951 0.00043739 0.00065721 0.0017267 0.0014299
0.014551 -0.012994 -0.017723 0.31698
1280000000 0.18144 0.26774 -0.0081977 -0.028174 -0.0018131 0.0026567 -0.00083725 -0.0020688
-0.00090619 0.003039 0.0025141 0.001225
-0.0081941 -0.028166 0.00344 0.38077 -0.023869 -0.0084956 -0.0010068 0.0014829
0.0017127 0.0019351 0.0006752 0.0021147
-0.0017989 0.0026801 -0.023946 -0.0083867 0.31719 0.16153 0.0016833 4.4971e-05
0.0012348 0.00029817 0.0005211 0.00023293
-0.0008382 -0.0020631 -0.001008 0.0014843 0.001687 4.7245e-05 0.10674 0.25681
0.0011728 -0.020176 -0.00044508 0.0002179
-0.00088567 0.0030386 0.0017249 0.0019305 0.0012291 0.0002962 0.001135 -0.020183
0.027977 0.21604 0.0032989 -0.015369
0.0025121 0.001206 0.00070414 0.0021008 0.00052603 0.00023773 -0.00044042 0.00021217
0.0033042 -0.015352 0.030627 0.32009
1340000000 0.21855 0.23395 -0.017725 -0.018517 0.0010801 0.0046106 -0.0017499 -0.00090111
0.0014385 0.0027689 0.0018843 -0.0013489
-0.017713 -0.018514 0.042957 0.37266 -0.021694 0.0043471 -0.00013804 0.0020574
0.0020673 0.00084809 0.0013963 0.0008047
0.0010962 0.0046236 -0.021697 0.0044443 0.33903 0.1137 0.0012636 -0.00096349
0.0007875 -0.0004847 0.00020373 0.00029841
-0.0017583 -0.00089168 -0.00013026 0.0020676 0.0012671 -0.00097208 0.13929 0.23654
-0.0087837 -0.017389 0.00062822 0.00075413
0.0014625 0.0027658 0.0020656 0.00084238 0.00077906 -0.00048563 -0.0088327 -0.01738
0.056913 0.21184 -0.0035444 -0.013885
0.001875 -0.0013701 0.001396 0.00078716 0.00021715 0.00028807 0.0006282 0.00074697
-0.0035366 -0.013883 0.068945 0.31647
1400000000 0.25161 0.19575 -0.023235 -0.0070196 0.0053034 0.0030747 -0.0021378 0.00061637
0.0023516 0.0010033 0.00038613 -0.0014034
-0.023213 -0.0070365 0.08031 0.35971 -0.014894 0.012526 0.0013683 0.0013603
0.0012639 -0.00085385 0.0012679 0.00022878
0.0053137 0.003059 -0.01485 0.012619 0.35212 0.060426 0.00017347 -0.0017963
-5.8564e-05 -0.00044532 0.00039381 0.00017949
-0.0021443 0.00061651 0.0013774 0.0013515 0.00017401 -0.0017917 0.16889 0.20772
-0.01502 -0.010504 -0.00086383 -0.00010129
0.0023475 0.00099532 0.0012608 -0.00086039 -5.174e-05 -0.00044565 -0.01505 -0.010475
0.089301 0.20803 -0.010233 -0.009167
0.00037614 -0.0014141 0.0012689 0.00022381 0.00040023 0.00018467 -0.00086107 -0.00010031
-0.010231 -0.0091817 0.1144 0.30606
1460000000 0.2743 0.1515 -0.020026 0.0050202 0.005737 -0.0018918 -0.0016182 0.0017529
0.0021511 -0.00042974 -0.00032118 -0.0010594
-0.020008 0.0050025 0.11463 0.33791 -0.0060956 0.015502 0.0017789 0.00015302
0.00087773 -0.0013894 0.0011742 -0.0006104
0.0057309 -0.0019159 -0.0060292 0.015549 0.35821 0.0062209 -0.0013717 -0.0013461
0.00014569 -0.0003031 0.00056031 -0.00033693
-0.0016196 0.0017616 0.0017899 0.00014828 -0.0013751 -0.0013411 0.19498 0.17852
-0.016571 -0.0033266 -0.00081911 0.002316
0.0021514 -0.00043708 0.00087118 -0.0013973 0.00015324 -0.00028952 -0.016586 -0.0033035
0.1177 0.19397 -0.01222 -0.0028533
-0.00031394 -0.0010629 0.0011702 -0.00062532 0.00055051 -0.00034592 -0.00082045 0.002316
-0.012219 -0.0028669 0.14793 0.2858
1520000000 0.28634 0.10953 -0.014305 0.010316 0.003394 -0.0043341 0.00011216 0.00268
0.0022199 -0.0017147 -0.0011565 -0.0001634
-0.014306 0.010305 0.1483 0.3231 0.0016641 0.01322 0.0016747 -0.0008108
-4.1682e-05 -0.0010973 0.00038895 -0.0010196
0.0033817 -0.0043533 0.0017376 0.013215 0.35166 -0.049871 -0.0012843 -0.00032243
0.00061488 -0.00079075 6.913e-05 -0.00013985
0.00011965 0.0026824 0.0016744 -0.00081311 -0.0012878 -0.00032934 0.21801 0.14087
-0.015929 0.002825 0.0016648 0.0023343
0.0022104 -0.0017257 -5.9117e-05 -0.0010947 0.00062008 -0.00079566 -0.015933 0.0028662
0.14516 0.18068 -0.012098 0.0017142
-0.0011606 -0.00015597 0.00039026 -0.0010175 7.8536e-05 -0.00014879 0.0016622 0.002332
-0.012104 0.0017037 0.18177 0.26617
1580000000 0.29538 0.063203 -0.0077215 0.013207 -0.00092497 -0.0050609 0.0014803 0.001932
-0.00014915 -0.0021518 -0.00038606 0.00041943
-0.0077198 0.013199 0.17566 0.29819 0.0053272 0.0083089 0.00047206 -0.0016457
-0.00066479 -0.0010402 -0.00026239 -0.00082206
-0.00094225 -0.0050563 0.0053747 0.0082801 0.33142 -0.10742 -0.0016874 0.00077219
-0.00029932 -0.0011427 0.00011521 -0.00048613
0.0014937 0.0019337 0.0004669 -0.00164 -0.0016757 0.00077942 0.23176 0.10197
-0.012239 0.0081366 0.0026187 0.00095827
-0.00015911 -0.0021458 -0.00066869 -0.001035 -0.00030613 -0.0011427 -0.012227 0.0081702
0.1693 0.16349 -0.0094962 0.007759
-0.00038967 0.00042538 -0.00026703 -0.00082757 0.00010964 -0.00049116 0.0026212 0.00095764
-0.0095019 0.0077699 0.21483 0.23965
1640000000 0.29709 0.021933 -0.0011594 0.012025 -0.0028099 -0.0027195 0.00282 0.0009358
-0.00061314 -0.0016996 -0.00021282 0.0006218
-0.0011697 0.012032 0.20518 0.27305 0.0061162 0.0034716 -0.00069155 -0.0017643
-0.0010265 -0.00034732 -0.00044858 -0.00075243
-0.0028154 -0.0027076 0.0061432 0.0034338 0.30346 -0.1568 -0.00057511 0.0015994
-0.0011331 -0.0011063 -9.6973e-05 -0.0004773
0.0028267 0.00092403 -0.00070677 -0.0017632 -0.00056834 0.0015927 0.24404 0.053782
-0.0076492 0.0096672 0.0027867 -0.00083267
-0.00062182 -0.0016967 -0.0010303 -0.00033809 -0.0011402 -0.0011177 -0.0076318 0.0096973
0.19163 0.13987 -0.004668 0.0097917
-0.00020534 0.00061484 -0.00045416 -0.00075515 -0.0001219 -0.0004911 0.0027868 -0.00085558
-0.0046734 0.0097837 0.24066 0.20886
1700000000 0.28946 -0.023356 0.0020947 0.0091562 -0.0036008 2.1036e-05 0.0030749 -0.001337
-0.0021004 -0.00091427 0.00068365 0.00042143
0.002093 0.0091546 0.22329 0.24133 0.0040329 0.00053955 -0.0015237 -0.00056977
-0.00072922 8.3286e-05 -0.00092792 -0.00050423
-0.0035925 3.938e-05 0.0040488 0.00051445 0.2597 -0.19664 0.00057453 0.0016894
-0.0020329 -0.0001859 -0.00047605 -0.00087765
0.0030729 -0.0013413 -0.0015363 -0.00056135 0.0005823 0.0016901 0.24127 0.0048884
-0.0045225 0.010387 0.0017124 -0.0024688
-0.0021142 -0.00089559 -0.00072988 8.9529e-05 -0.0020293 -0.00018117 -0.0045064 0.010404
0.20877 0.12019 0.00021082 0.010014
0.0006877 0.00041754 -0.0009358 -0.00049789 -0.00048467 -0.0008874 0.0017177 -0.002468
0.00021652 0.010021 0.25761 0.1745
1760000000 0.27697 -0.07169 0.0042463 0.0059234 -0.002413 0.00098273 0.0012335 -0.0035414
-0.0014945 0.00068709 0.00035977 -0.00069588
0.0042416 0.005929 0.2491 0.20125 0.00171 -0.0013013 -0.0012142 0.00020919
-0.00095421 0.00088461 -0.00064321 0.00037315
-0.0024138 0.00097943 0.0017084 -0.0013116 0.21075 -0.22993 0.0012924 0.00095122
-0.0011942 0.0015558 -0.0013798 -0.00048036
0.0012091 -0.0035425 -0.0012158 0.00021647 0.0012869 0.00095863 0.23282 -0.045847
-0.00086062 0.0095898 -0.00011215 -0.0028031
-0.0014873 0.00069036 -0.00094562 0.00088287 -0.0011884 0.0015596 -0.00083532 0.0095935
0.22343 0.085866 0.0043623 0.0073584
0.00036394 -0.000702 -0.00063534 0.00038222 -0.0013935 -0.00047401 -0.00011953 -0.0028069
0.0043719 0.0073599 0.2706 0.13695
1820000000 0.25219 -0.10872 0.0043457 0.0024559 -0.00020802 0.0024889 -0.0011218 -0.0030385
-0.00125 0.0010732 -0.00011467 -9.2572e-05
0.0043536 0.0024505 0.25895 0.17105 -0.00032371 -0.00028641 -0.0012984 0.0010069
-2.5426e-05 0.0012421 -0.00060138 0.00054372
-0.00017413 0.0024703 -0.00031726 -0.00028608 0.16081 -0.24575 0.0013643 0.00036497
-0.00020057 0.0024119 -0.0013623 0.00038751
-0.0011381 -0.0030354 -0.0012973 0.0010104 0.0013567 0.00037058 0.20409 -0.092764
0.001025 0.0078257 -0.0016391 -0.001792
-0.0012565 0.0010867 -1.2778e-05 0.0012417 -0.00019414 0.0024049 0.0010378 0.0078263
0.24061 0.057491 0.0053606 0.0036721
-0.00011119 -9.9579e-05 -0.00059509 0.00055554 -0.0013678 0.00038741 -0.0016468 -0.0017906
0.0053537 0.0036639 0.27353 0.10103
1880000000 0.21699 -0.14879 0.0021258 0.00025903 -0.00044539 0.0022028 -0.0030588 -0.0020935
-0.00019834 0.0018138 0.00020699 -0.00044653
0.0021348 0.00026193 0.26309 0.12435 -0.0024858 0.0015249 -0.00015514 0.0016726
0.00051328 0.0011307 6.4455e-05 0.0009765
-0.00043887 0.0022072 -0.0024757 0.0015426 0.10818 -0.2554 0.0016702 -0.00093548
0.001556 0.0019423 -0.00095434 0.0013645
-0.0030723 -0.0020789 -0.00015093 0.0016767 0.0016686 -0.00094299 0.16455 -0.13329
0.0021042 0.0055415 -0.0026079 0.00021343
-0.00018912 0.0018172 0.00052612 0.0011246 0.0015654 0.0019411 0.0021173 0.0055285
0.24375 0.0256 0.0055399 0.0012637
0.0002154 -0.00045149 7.8212e-05 0.0009791 -0.00096296 0.0013661 -0.0026032 0.00022515
0.0055314 0.0012594 0.27345 0.066755
1940000000 0.17755 -0.17447 -9.9018e-05 -0.0013486 0.0013974 0.0020862 -0.003731 0.00063299
0.0013829 0.0010806 -0.00058887 -0.00043916
-8.6843e-05 -0.0013633 0.26329 0.092541 -0.0013309 0.0038453 0.0010543 0.0012986
0.0017344 0.0005041 0.00083051 0.00039637
0.0013957 0.0020876 -0.0013172 0.0038461 0.062033 -0.24864 0.00048803 -0.0020251
0.0024195 0.0004348 0.00030573 0.0015784
-0.0037237 0.00065286 0.0010705 0.0012964 0.00046944 -0.0020199 0.11296 -0.16463
0.0014786 0.0038368 -0.0015626 0.0014226
0.0014027 0.0010805 0.0017429 0.00048697 0.0024148 0.00043336 0.0014959 0.0038399
0.24613 -0.012885 0.0042658 -0.0023967
-0.00059084 -0.00042677 0.00083187 0.00039358 0.00030893 0.0015825 -0.00156 0.0014497
0.0042677 -0.0023884 0.26285 0.030973
2000000000 0.13121 -0.18881 -0.0039386 0.00079318 0.0025606 0.0017434 -0.0023168 0.00352
0.0011303 7.0966e-05 -0.0006548 0.00031162
-0.0039365 0.00076583 0.24886 0.057181 -0.0011094 0.0058661 0.001567 0.00036474
0.0013152 -0.0012707 0.00062076 0.0001972
0.0025856 0.0017384 -0.0010689 0.0058691 0.018483 -0.23375 -0.001233 -0.0012768
0.001966 -0.0011817 0.00168 0.0012829
-0.0022978 0.0035282 0.0015779 0.00034839 -0.001236 -0.0012742 0.059354 -0.17542
-0.00030663 0.0030687 -0.0002331 0.0022013
0.001153 5.5844e-05 0.0013025 -0.0012737 0.001976 -0.0011842 -0.00029413 0.0030858
0.24053 -0.046975 0.00075437 -0.0033279
