!Keysight Technologies,M9804A,MY58100912,A.14.10.03
!Date: Thursday, April 27, 2023 10:28:33
!Correction: S11(C  6-Port  ) 
!S12(C  6-Port  ) 
!S13(C  6-Port  ) 
!S14(C  6-Port  ) 
!S15(C  6-Port  ) 
!S16(C  6-Port  ) 
!S21(C  6-Port  ) 
!S22(C  6-Port  ) 
!S23(C  6-Port  ) 
!S24(C  6-Port  ) 
!S25(C  6-Port  ) 
!S26(C  6-Port  ) 
!S31(C  6-Port  ) 
!S32(C  6-Port  ) 
!S33(C  6-Port  ) 
!S34(C  6-Port  ) 
!S35(C  6-Port  ) 
!S36(C  6-Port  ) 
!S41(C  6-Port  ) 
!S42(C  6-Port  ) 
!S43(C  6-Port  ) 
!S44(C  6-Port  ) 
!S45(C  6-Port  ) 
!S46(C  6-Port  ) 
!S51(C  6-Port  ) 
!S52(C  6-Port  ) 
!S53(C  6-Port  ) 
!S54(C  6-Port  ) 
!S55(C  6-Port  ) 
!S56(C  6-Port  ) 
!S61(C  6-Port  ) 
!S62(C  6-Port  ) 
!S63(C  6-Port  ) 
!S64(C  6-Port  ) 
!S65(C  6-Port  ) 
!S66(C  6-Port  ) 
!S6P File: Measurement: :
# Hz S  RI   R 50
500000000 -0.33675 -0.039529 -0.0097851 -0.0022311 -0.0080491 0.013036 -0.0044582 0.011943
0.012921 0.004789 -0.0047984 0.0087958
-0.0097782 -0.0022273 -0.41972 -0.052123 0.0075665 -0.010402 0.0013584 0.012249
0.0076146 0.0026145 0.0011535 0.013313
-0.0080124 0.013058 0.0075527 -0.010418 -0.26638 0.20942 0.007585 0.0036518
-0.0019644 0.0082201 0.0015149 0.012095
-0.0044566 0.01196 0.0013832 0.012269 0.0075936 0.003658 -0.33262 0.041985
-0.019426 -0.0067479 0.015429 0.026678
0.012936 0.004763 0.0076251 0.0026092 -0.0019452 0.0082092 -0.019437 -0.0067457
-0.22147 -0.2024 -0.025636 0.0048719
-0.0047852 0.0088047 0.0011916 0.013321 0.0015349 0.012099 0.015455 0.02664
-0.025645 0.004862 -0.26554 -0.13798
560000000 -0.31629 0.12244 -0.024312 -0.063689 0.00047581 0.012186 0.0051938 0.010869
0.010318 0.005624 0.011304 0.0079137
-0.024273 -0.06365 -0.37895 0.1077 -0.041298 -0.037641 0.013825 0.0037987
-0.012857 -0.0051787 0.0034958 -0.00059157
0.00051621 0.012182 -0.041427 -0.037586 -0.18312 0.25826 -0.00049886 -0.0037345
0.019773 0.0056316 0.0064955 -0.0057182
0.0051939 0.010867 0.013847 0.0038102 -0.00049104 -0.0037358 -0.30765 0.13191
0.0033465 -0.023484 0.0043882 -0.021771
0.010347 0.0056126 -0.012896 -0.0051703 0.019768 0.0056268 0.0033387 -0.023471
-0.28985 -0.026626 0.0084063 -0.048254
0.011327 0.0078862 0.0034747 -0.00062275 0.0064925 -0.0057244 0.004373 -0.021759
0.0084114 -0.048255 -0.32993 0.011711
620000000 -0.27552 0.10662 -0.023292 0.0082636 0.003676 0.0089865 0.0083375 -0.005086
0.011449 -4.3407e-05 0.0023788 -0.0021845
-0.02328 0.008234 -0.40304 0.059669 -0.018566 0.00049603 -0.0012001 -0.001907
0.011628 -0.006203 0.0017948 -0.0029045
0.0037022 0.0089678 -0.018578 0.00054724 -0.15377 0.26707 -0.0010506 -0.005139
-0.0029486 -0.0026127 0.0086195 -0.0030292
0.0082979 -0.0051235 -0.0012093 -0.0018978 -0.0010581 -0.0051404 -0.26758 0.1436
-0.03824 -0.019507 0.012223 0.026807
0.01149 -8.8839e-05 0.011626 -0.0062574 -0.0029364 -0.0026112 -0.038216 -0.019457
-0.20797 -0.063677 -0.041877 0.015281
0.0024255 -0.0021332 0.0017892 -0.0029301 0.008641 -0.0030545 0.012261 0.026798
-0.041877 0.015298 -0.24943 -0.025647
680000000 -0.23515 0.19263 -0.027201 -0.013866 0.0050422 0.0050887 0.0014836 -0.0072237
-0.0028311 -0.011326 0.0057671 -0.0070432
-0.027185 -0.013876 -0.38761 0.15809 -0.032363 -0.0012291 -0.0014533 -0.00059132
-0.0019668 -0.0091205 -0.0010601 -0.0017076
0.0050486 0.005075 -0.032393 -0.0011603 -0.10178 0.28678 -0.00067063 -0.00027671
-0.0015353 0.00024428 -0.0027683 -0.0090762
0.0014712 -0.0072398 -0.0014537 -0.00058803 -0.00067726 -0.00027788 -0.22139 0.1949
-0.02408 -0.0071042 -0.01028 -0.011227
-0.0028734 -0.011309 -0.002001 -0.0091252 -0.0015452 0.00025242 -0.024101 -0.0070889
-0.26022 0.036648 -0.0055456 -0.0079248
0.0058015 -0.0070315 -0.0010632 -0.0016909 -0.0027744 -0.0090757 -0.010326 -0.011235
-0.0055156 -0.0079245 -0.26092 0.082768
740000000 -0.19039 0.18762 -0.038393 0.027111 0.012854 -0.0053183 -0.00015141 -0.0044057
-0.0040226 -0.0030278 -0.0062457 0.0021368
-0.038407 0.027086 -0.33414 0.17665 -0.035243 0.035299 -0.00084124 -0.0064118
-0.012066 0.0076396 -0.0020622 -0.006531
0.012842 -0.0053519 -0.035174 0.035432 -0.067863 0.28439 -0.0021807 0.0030619
-0.0022142 -0.0049095 -0.0015916 -9.3874e-05
-0.00016212 -0.0044072 -0.00084616 -0.0064082 -0.0021741 0.0030733 -0.20477 0.20247
-0.043867 -0.0066526 0.023444 0.015467
-0.0040294 -0.0030168 -0.012039 0.0076959 -0.0022292 -0.0048941 -0.043886 -0.0065859
-0.1585 0.063922 -0.04384 0.0010907
-0.006224 0.0021551 -0.0021092 -0.0065287 -0.0015846 -7.2541e-05 0.023469 0.015437
-0.043847 0.0010874 -0.24966 0.087777
800000000 -0.15708 0.22775 -0.022015 0.016794 0.0054916 -0.010694 -0.0046226 -0.0022413
-0.0040971 0.001934 0.0046491 0.0003609
-0.022011 0.016774 -0.33763 0.24643 -0.0076644 0.033769 -0.0024147 0.0021776
-0.00076642 0.0028034 0.00099705 0.0052265
0.005448 -0.010707 -0.0075647 0.03382 -0.027436 0.30737 0.00092288 0.0015481
0.0001985 0.0035686 -0.0015509 0.00078576
-0.0046235 -0.0022271 -0.0024112 0.0021908 0.00092391 0.0015515 -0.17552 0.23046
-0.028425 0.014562 0.014206 -0.010394
-0.0040886 0.0019531 -0.00077162 0.0028103 0.0002061 0.0035699 -0.028434 0.014618
-0.2064 0.087459 -0.017286 0.019585
0.0046637 0.000344 0.0010141 0.0052388 -0.0015399 0.00078862 0.014198 -0.010421
-0.017317 0.019564 -0.24556 0.13818
860000000 -0.12246 0.2475 -0.017089 0.030334 -0.0032036 -0.01008 -0.0023019 0.00077089
0.0038138 0.0047365 -0.0032486 -0.0029123
-0.017093 0.0303 -0.2902 0.28811 0.0078501 0.033963 -4.0562e-05 0.0018816
0.0040888 0.00013635 0.0033277 0.0007531
-0.0032374 -0.010064 0.0079726 0.033976 0.020192 0.31516 -0.00056947 -0.00022962
0.0027297 -0.0015585 0.0014589 0.0043503
-0.0023055 0.00077835 -3.9158e-05 0.0018788 -0.00057107 -0.00022604 -0.13881 0.24077
-0.017752 0.018798 -0.006092 -0.0092888
0.0038516 0.0047356 0.0040937 0.00012613 0.0027296 -0.0015578 -0.017724 0.018835
-0.15432 0.13911 -0.026067 0.015559
-0.0032815 -0.0029012 0.0033381 0.00074335 0.0014692 0.004343 -0.0061041 -0.0092826
-0.026057 0.015537 -0.19364 0.18483
920000000 -0.098123 0.27021 0.0052706 0.037502 -0.0095022 -0.0045553 -0.001859 0.0017644
0.0010048 0.0018937 0.0027972 -0.0015392
0.0052399 0.037454 -0.26134 0.30934 0.02801 0.021759 0.0014365 0.0011636
0.0072304 -0.00041798 0.0040264 -0.0026567
-0.0095134 -0.0045299 0.028119 0.021705 0.0662 0.31595 0.0018934 -6.8938e-05
0.0011925 -0.00031831 0.00084508 -0.0011397
-0.0018392 0.0017689 0.0014369 0.0011594 0.0018969 -6.5502e-05 -0.11495 0.25787
-0.010699 0.031327 0.0041799 -0.0068736
0.0010331 0.0018956 0.0072317 -0.00045031 0.0011927 -0.00031771 -0.010659 0.031364
-0.14486 0.1452 -0.0027714 0.027489
0.002775 -0.001558 0.0040354 -0.0026682 0.00085278 -0.0011351 0.004176 -0.0068603
-0.002786 0.027467 -0.20348 0.19878
980000000 -0.050771 0.28961 0.01744 0.029648 -0.009118 0.0045135 0.0019829 0.0034044
0.0038915 -0.0012445 -0.0032842 -0.0021267
0.017416 0.02961 -0.20866 0.34299 0.032925 0.0047625 0.0021283 -5.2736e-06
0.00162 -0.0057476 -0.00018984 -0.0024526
-0.0091045 0.0045433 0.032987 0.0046743 0.11235 0.30945 0.00051971 -0.0011441
0.00025378 -0.0020487 0.0013395 -0.00020124
0.0019979 0.0034064 0.0021386 -3.6108e-05 0.00052792 -0.0011465 -0.076503 0.26873
0.0083639 0.030485 -0.0091043 -0.0074788
0.0038984 -0.0012641 0.0015762 -0.0057816 0.00025593 -0.0020561 0.008425 0.030474
-0.11333 0.17438 0.004891 0.019587
-0.0032827 -0.0021173 -0.00020458 -0.0024347 0.0013401 -0.00019981 -0.0091114 -0.0074596
0.0048683 0.019576 -0.16135 0.24463
1040000000 -0.0088945 0.298 0.032946 0.017894 -0.0013979 0.0068464 0.002387 0.00071326
0.00010186 -0.0036517 -0.00035437 -0.0014609
0.032889 0.017879 -0.17328 0.35597 0.02926 -0.014913 0.0015057 -0.001694
-0.0024225 -0.002714 -0.0012525 -0.0026267
-0.0013733 0.0068508 0.029251 -0.015024 0.15833 0.29588 -0.00053179 -0.0015776
-0.0015917 -0.00089931 -0.00051545 -0.0010105
0.0023918 0.00071159 0.0014932 -0.0017098 -0.00052334 -0.0015837 -0.049533 0.27894
0.019985 0.018407 -0.0021879 0.0010259
8.9694e-05 -0.0036538 -0.0024544 -0.0027105 -0.0015793 -0.00089404 0.020025 0.018376
-0.08091 0.18117 0.013475 0.018733
-0.00035087 -0.0014797 -0.0012708 -0.0026032 -0.00051122 -0.0010191 -0.0021971 0.0010188
0.013459 0.018733 -0.14076 0.26488
1100000000 0.036272 0.30572 0.035504 -0.0044353 0.002691 0.0038516 0.0022693 -0.0011895
-0.0019242 -0.003162 -0.0039768 9.6689e-05
0.03548 -0.0044192 -0.13007 0.37315 0.015053 -0.02788 -2.1437e-05 -0.001806
-0.0034234 -0.0009162 -0.0035575 -0.00046332
0.0027097 0.0038435 0.014961 -0.027964 0.20485 0.27555 -0.0019223 0.00021319
-0.0019002 0.00051686 -0.001122 -0.00023336
0.0022724 -0.0011945 -3.6468e-05 -0.0018179 -0.0019165 0.00021101 -0.009246 0.28387
0.025541 0.0050261 -0.0027638 -0.00028222
-0.0019472 -0.0031582 -0.0034473 -0.00089675 -0.0019009 0.00052326 0.025565 0.0049916
-0.06313 0.19477 0.019254 0.0087144
-0.0039803 9.432e-05 -0.0035625 -0.00044224 -0.0011183 -0.00022512 -0.0027616 -0.00027619
0.019238 0.0087186 -0.095146 0.29623
1160000000 0.087542 0.30074 0.023628 -0.020818 0.0024707 -0.0004328 -0.00022764 -0.0022397
-0.0040458 -0.00082837 -0.00099653 0.0041395
0.023611 -0.020803 -0.086655 0.3775 -0.0038785 -0.029113 -0.0017171 -0.0017042
-0.0028426 0.0025083 -0.0013653 0.0018627
0.0024735 -0.00045093 -0.0039899 -0.029111 0.24786 0.24464 -0.00072911 0.0017791
-0.00064163 0.0020355 -0.00076972 0.00032791
-0.00023052 -0.002232 -0.0017399 -0.0016992 -0.00073837 0.0017703 0.029864 0.28137
0.021869 -0.010886 -0.0032032 0.0049612
-0.0040385 -0.00079783 -0.0028407 0.0025242 -0.00063462 0.0020477 0.021857 -0.010925
-0.029949 0.2035 0.018459 0.00071252
-0.00097571 0.0041422 -0.0013654 0.0018745 -0.00075937 0.0003287 -0.0031921 0.0049794
0.018467 0.00071203 -0.048146 0.29934
1220000000 0.13188 0.28971 0.0099919 -0.029912 -0.0016692 -0.00061942 0.000119 -0.00091356
-0.0026872 0.0023425 0.001362 0.0020525
0.010001 -0.029886 -0.042345 0.3896 -0.016993 -0.021082 -0.0025518 0.0004261
-4.7856e-05 0.00314 -0.00073433 0.0019054
-0.0016726 -0.0006199 -0.017102 -0.021025 0.28696 0.20548 0.00079974 0.0017219
0.00064283 0.0012374 0.00042247 0.00067314
0.0001184 -0.00091462 -0.0025565 0.00044001 0.00079777 0.0017186 0.06982 0.27316
0.010975 -0.0179 0.00173 0.0014535
-0.0026602 0.0023649 -3.1315e-05 0.0031364 0.00064344 0.0012392 0.010949 -0.017932
-0.0083024 0.21251 0.014476 -0.0129
0.0013812 0.0020496 -0.00073538 0.0019167 0.00042884 0.00067253 0.0017244 0.0014493
0.014466 -0.012894 -0.017544 0.31695
1280000000 0.18149 0.26769 -0.0082216 -0.028152 -0.0018159 0.0026778 -0.00085649 -0.002061
-0.00091029 0.0030272 0.0025177 0.0012114
-0.008202 -0.028136 0.0035074 0.38082 -0.023856 -0.008444 -0.0010141 0.0014795
0.0017164 0.0019106 0.00066689 0.0021146
-0.0018024 0.0026849 -0.023926 -0.0083388 0.31723 0.16151 0.0016714 4.9908e-05
0.0012151 0.00027827 0.00053806 0.00021477
-0.00086966 -0.0020529 -0.0010085 0.0014863 0.0016745 4.9774e-05 0.10681 0.25683
0.001195 -0.020134 -0.00040702 0.00021301
-0.00088911 0.0030386 0.0017263 0.0019079 0.0012192 0.0002711 0.0011534 -0.020146
0.027886 0.21636 0.0032933 -0.015202
0.0025151 0.0011907 0.0006887 0.0021088 0.00053992 0.00021502 -0.00040654 0.00021269
0.0033018 -0.0152 0.030725 0.32004
1340000000 0.21855 0.2339 -0.017727 -0.018483 0.0011092 0.0046238 -0.0017789 -0.00089139
0.0014211 0.0027458 0.0018776 -0.0013606
-0.017693 -0.018479 0.043055 0.37267 -0.021664 0.0043795 -0.00014361 0.0020649
0.0020309 0.00083075 0.0013759 0.00079581
0.0011193 0.0046201 -0.021662 0.0044749 0.33903 0.11371 0.001253 -0.00096686
0.00077467 -0.00049053 0.00020498 0.00029671
-0.001785 -0.00087426 -0.00013751 0.0020602 0.001263 -0.00096312 0.13938 0.23651
-0.008757 -0.017356 0.00065224 0.00073108
0.0014485 0.0027492 0.0020326 0.00081846 0.00077493 -0.00049168 -0.0087917 -0.017349
0.05694 0.21216 -0.0034712 -0.013781
0.0018748 -0.0013736 0.0013853 0.00077942 0.00020464 0.00029838 0.00065667 0.00072785
-0.0034674 -0.013778 0.069015 0.3164
1400000000 0.25157 0.19571 -0.023226 -0.0069932 0.0053107 0.0030612 -0.0021417 0.00062333
0.0023499 0.0010026 0.00037674 -0.0013993
-0.023198 -0.0070065 0.080382 0.35969 -0.014845 0.012536 0.0013676 0.0013595
0.0012495 -0.00083764 0.0012544 0.00022307
0.0053203 0.0030461 -0.014799 0.012623 0.35213 0.060422 0.00017836 -0.0017938
-5.8491e-05 -0.00042812 0.00039488 0.00018337
-0.0021357 0.00063593 0.0013752 0.0013409 0.00017602 -0.001789 0.16897 0.20766
-0.014977 -0.010497 -0.0008558 -0.00013438
0.0023549 0.00099677 0.0012427 -0.00085296 -5.5686e-05 -0.00043148 -0.01501 -0.010469
0.089465 0.20834 -0.010115 -0.0091073
0.0003693 -0.0014005 0.0012631 0.00021435 0.00039689 0.00017992 -0.0008514 -0.00013531
-0.010107 -0.0091248 0.11448 0.30601
1460000000 0.27422 0.15153 -0.019997 0.00504 0.0057545 -0.0019046 -0.0016088 0.0017578
0.0021413 -0.00044099 -0.0003304 -0.0010501
-0.01998 0.0050189 0.11473 0.33788 -0.006058 0.015472 0.0017859 0.00014915
0.0008747 -0.0013781 0.001166 -0.00061087
0.0057347 -0.0019351 -0.0059864 0.01552 0.3582 0.0061882 -0.0013696 -0.0013481
0.00014546 -0.00030525 0.00056402 -0.00034727
-0.001601 0.0017622 0.0017885 0.00014642 -0.001364 -0.0013492 0.19503 0.17846
-0.016548 -0.003341 -0.00083936 0.002285
0.0021406 -0.00043987 0.00086414 -0.0013829 0.00014373 -0.00030519 -0.016555 -0.003303
0.11802 0.1942 -0.012097 -0.0028597
-0.00032381 -0.0010579 0.0011709 -0.00060634 0.00056971 -0.00034675 -0.00082842 0.0022864
-0.012093 -0.0028737 0.14803 0.28579
1520000000 0.28629 0.10959 -0.014277 0.010326 0.0033955 -0.0043504 0.00012284 0.0026855
0.0022002 -0.0016922 -0.0011512 -0.00015371
-0.014278 0.010301 0.14833 0.32302 0.0016862 0.013174 0.0016724 -0.00080239
-4.4108e-05 -0.0010777 0.00039302 -0.0010185
0.0033718 -0.0043677 0.0017632 0.013175 0.35165 -0.049899 -0.001266 -0.0003446
0.00062586 -0.00078447 6.5177e-05 -0.00013651
0.0001324 0.0026793 0.0016755 -0.00081697 -0.0012619 -0.00034058 0.21804 0.1408
-0.015889 0.0027939 0.00163 0.0023024
0.0021889 -0.0017024 -4.6965e-05 -0.0010819 0.0006293 -0.0007894 -0.015904 0.0028327
0.14552 0.18076 -0.012008 0.0016531
-0.0011577 -0.00014159 0.00038378 -0.0010172 6.4316e-05 -0.00013681 0.001639 0.0023015
-0.012009 0.0016385 0.1819 0.26614
1580000000 0.29537 0.063331 -0.0076884 0.013207 -0.00094501 -0.0050692 0.0014838 0.0019199
-0.00014268 -0.0021418 -0.00037499 0.00042448
-0.0077002 0.013197 0.17567 0.29813 0.0053222 0.0082612 0.00047074 -0.0016445
-0.00063389 -0.0010495 -0.00025863 -0.00082384
-0.00096127 -0.005066 0.0053758 0.0082379 0.3314 -0.10742 -0.0016618 0.00076142
-0.00029269 -0.0011495 0.00011294 -0.00048699
0.0014859 0.0019247 0.00046205 -0.0016442 -0.0016672 0.00075485 0.23175 0.10189
-0.012233 0.0080892 0.0025927 0.00095329
-0.00016068 -0.0021305 -0.00064204 -0.0010359 -0.00029779 -0.0011514 -0.012217 0.008128
0.16967 0.16344 -0.0094451 0.0076855
-0.00037894 0.00043035 -0.00026605 -0.00082189 0.00011047 -0.0004889 0.0025956 0.00094462
-0.0094567 0.0076787 0.21494 0.23964
1640000000 0.29716 0.022028 -0.0011402 0.012014 -0.0028307 -0.0027019 0.0028055 0.00093058
-0.00059651 -0.0016819 -0.00021036 0.00060897
-0.0011498 0.012003 0.20518 0.273 0.00609 0.0034284 -0.00069204 -0.0017531
-0.0010206 -0.00036401 -0.00045053 -0.00075029
-0.0028425 -0.0026788 0.0061087 0.0033939 0.30345 -0.15676 -0.00059229 0.0015944
-0.0011424 -0.0011233 -0.00010145 -0.00046196
0.0028142 0.00091463 -0.00070078 -0.0017551 -0.00059688 0.0015924 0.244 0.053712
-0.0076526 0.009628 0.0027666 -0.00083291
-0.00060875 -0.0016866 -0.0010244 -0.00035053 -0.0011483 -0.0011187 -0.0076331 0.009658
0.19196 0.13968 -0.0046475 0.0096817
-0.00020355 0.00061548 -0.00044808 -0.00075037 -0.00010939 -0.0004663 0.0027606 -0.00085137
-0.0046522 0.0096877 0.24078 0.20882
1700000000 0.28957 -0.023322 0.0021089 0.0091259 -0.0036105 2.5949e-05 0.0030753 -0.0013337
-0.0020873 -0.0009184 0.00067152 0.00040998
0.0020888 0.0091192 0.22328 0.24129 0.0039894 0.00051267 -0.0015263 -0.00056035
-0.00074821 7.3236e-05 -0.00092959 -0.0005007
-0.0036206 5.0459e-05 0.0039998 0.00049436 0.2596 -0.19662 0.00057007 0.0016654
-0.002055 -0.00020101 -0.00046628 -0.00087239
0.0030649 -0.0013481 -0.0015383 -0.00055743 0.00057023 0.0016753 0.24121 0.0048332
-0.0045392 0.01036 0.0016905 -0.0024349
-0.0020988 -0.0009005 -0.00074216 8.0044e-05 -0.0020494 -0.00019345 -0.0045207 0.010379
0.20896 0.11996 0.00019117 0.0099225
0.00068134 0.00040654 -0.00093149 -0.00049329 -0.00046898 -0.00087503 0.0016802 -0.0024442
0.00019238 0.0099248 0.25779 0.17442
1760000000 0.27711 -0.071709 0.0042352 0.0058899 -0.0024183 0.00097777 0.0012267 -0.0035364
-0.0014904 0.00065884 0.00036526 -0.00070292
0.0042271 0.0058907 0.2491 0.20121 0.0016788 -0.0012916 -0.001211 0.00020673
-0.00097251 0.00088805 -0.00064221 0.00037521
-0.0023993 0.0009938 0.0016726 -0.0013084 0.21078 -0.22978 0.0013076 0.00096037
-0.0011788 0.0015661 -0.0013774 -0.00047948
0.0012137 -0.0035466 -0.001205 0.00021837 0.0013087 0.00096477 0.23275 -0.045833
-0.00088903 0.0095646 -0.00013257 -0.0027747
-0.0014796 0.00067681 -0.00096158 0.00089233 -0.0011726 0.0015569 -0.00086569 0.0095746
0.22355 0.085555 0.0043132 0.0072789
0.000361 -0.00070587 -0.00063966 0.00037986 -0.0013719 -0.00047428 -0.00014452 -0.002779
0.0043135 0.0072803 0.27077 0.13678
1820000000 0.25227 -0.10882 0.0043222 0.0024292 -0.00017014 0.002507 -0.0011158 -0.0030494
-0.0012711 0.0010465 -0.00010879 -9.2384e-05
0.0043159 0.0024388 0.25892 0.17102 -0.0003412 -0.00026116 -0.0012995 0.0010014
-3.2885e-05 0.0012535 -0.00059524 0.00054174
-0.0001656 0.0024935 -0.00034408 -0.00026107 0.16084 -0.24569 0.0013726 0.00036718
-0.00018242 0.0023934 -0.0013622 0.00037369
-0.0011284 -0.0030434 -0.0012907 0.00099976 0.0013824 0.00036521 0.20402 -0.092725
0.0009798 0.0078184 -0.0016505 -0.0017636
-0.001251 0.0010638 -2.4474e-05 0.0012576 -0.00017877 0.0023964 0.00099629 0.0078175
0.24056 0.057161 0.0052748 0.003603
-0.00011868 -9.0804e-05 -0.00059292 0.00054653 -0.0013684 0.00039131 -0.0016486 -0.0017605
0.0052779 0.0036047 0.27362 0.10089
1880000000 0.217 -0.14891 0.0020914 0.00024478 -0.00043577 0.0022234 -0.0030624 -0.0021034
-0.00022311 0.0018389 0.00022414 -0.00043838
0.0020893 0.0002563 0.26307 0.12432 -0.0024966 0.001544 -0.00015351 0.0016735
0.00052173 0.0011461 5.7296e-05 0.00098008
-0.0004168 0.0022282 -0.0024841 0.0015584 0.10826 -0.25535 0.0016846 -0.0009341
0.0015501 0.0019612 -0.00096844 0.001339
-0.0030696 -0.0020805 -0.00014472 0.0016731 0.0016768 -0.00093299 0.16452 -0.1332
0.0020585 0.0055534 -0.00258 0.00025609
-0.00020596 0.0018288 0.00053046 0.001145 0.0015617 0.0019547 0.0020815 0.0055429
0.24361 0.025305 0.0054452 0.0012444
0.00020145 -0.00044206 6.3894e-05 0.00097925 -0.0009612 0.0013553 -0.0025831 0.00025426
0.0054409 0.0012429 0.27352 0.06658
1940000000 0.17751 -0.17458 -0.00013442 -0.0013385 0.0013936 0.0020861 -0.0037279 0.00062777
0.0013902 0.0010966 -0.00057716 -0.0004446
-0.00012992 -0.001345 0.26327 0.092515 -0.0013678 0.0038621 0.001048 0.0013063
0.0017524 0.00050028 0.00082754 0.00039186
0.001415 0.0020779 -0.0013257 0.0038763 0.062088 -0.24868 0.00047208 -0.002032
0.0024241 0.00043428 0.00029071 0.0015932
-0.0037216 0.00064777 0.0010472 0.0013032 0.00047601 -0.0020367 0.11297 -0.16455
0.0014454 0.0038653 -0.0015359 0.0014451
0.0014024 0.001094 0.0017546 0.0004863 0.0024231 0.00042381 0.0014535 0.0038522
0.24593 -0.013093 0.0041881 -0.0023653
-0.000587 -0.00044025 0.00083217 0.00038565 0.00029627 0.0015773 -0.0015331 0.0014476
0.0041852 -0.002366 0.26287 0.030761
2000000000 0.13112 -0.18887 -0.0039543 0.00081599 0.0025794 0.0017532 -0.0023195 0.0035234
0.0011493 7.0441e-05 -0.00065188 0.00031474
-0.0039562 0.00081155 0.24882 0.057178 -0.0010822 0.0058864 0.0015686 0.00035949
0.0013152 -0.0012831 0.00061525 0.00020593
0.0025885 0.0017266 -0.0010401 0.0058997 0.018655 -0.23379 -0.001214 -0.0012731
0.0019712 -0.0011649 0.0016689 0.0012979
-0.0022887 0.0035253 0.0015685 0.00034981 -0.0012122 -0.0012752 0.059447 -0.17539
-0.00032248 0.0031092 -0.00019647 0.0022091
0.0011516 6.1512e-05 0.0013012 -0.0012924 0.00197 -0.0011767 -0.00029851 0.0031097
0.24026 -0.047032 0.00070238 -0.0032385
