!Keysight Technologies,M9804A,MY58100912,A.14.10.03
!Date: Thursday, April 27, 2023 10:28:33
!Correction: S11(C  6-Port  ) 
!S12(C  6-Port  ) 
!S13(C  6-Port  ) 
!S14(C  6-Port  ) 
!S15(C  6-Port  ) 
!S16(C  6-Port  ) 
!S21(C  6-Port  ) 
!S22(C  6-Port  ) 
!S23(C  6-Port  ) 
!S24(C  6-Port  ) 
!S25(C  6-Port  ) 
!S26(C  6-Port  ) 
!S31(C  6-Port  ) 
!S32(C  6-Port  ) 
!S33(C  6-Port  ) 
!S34(C  6-Port  ) 
!S35(C  6-Port  ) 
!S36(C  6-Port  ) 
!S41(C  6-Port  ) 
!S42(C  6-Port  ) 
!S43(C  6-Port  ) 
!S44(C  6-Port  ) 
!S45(C  6-Port  ) 
!S46(C  6-Port  ) 
!S51(C  6-Port  ) 
!S52(C  6-Port  ) 
!S53(C  6-Port  ) 
!S54(C  6-Port  ) 
!S55(C  6-Port  ) 
!S56(C  6-Port  ) 
!S61(C  6-Port  ) 
!S62(C  6-Port  ) 
!S63(C  6-Port  ) 
!S64(C  6-Port  ) 
!S65(C  6-Port  ) 
!S66(C  6-Port  ) 
!S6P File: Measurement: :
# Hz S  RI   R 50
500000000 -0.33714 -0.040019 -0.010077 -0.0022604 -0.0079063 0.012943 -0.0045381 0.011554
0.012813 0.0045038 -0.0047058 0.008857
-0.010245 -0.0026594 -0.4198 -0.052319 0.0074078 -0.010718 0.0016649 0.012065
0.0074729 0.0025066 0.0013512 0.013195
-0.0082342 0.013255 0.0074633 -0.01058 -0.26636 0.2095 0.0077179 0.0035837
-0.0022117 0.007954 0.0016272 0.011982
-0.0041737 0.011894 0.001302 0.011845 0.0071074 0.0035924 -0.33194 0.041653
-0.019429 -0.0067864 0.015538 0.026477
0.01186 0.0041546 0.0072243 0.002699 -0.0017846 0.0080924 -0.0201 -0.0064561
-0.22135 -0.20238 -0.025572 0.004818
-0.0060636 0.0085455 0.0012017 0.012896 0.0010978 0.011779 0.01654 0.02657
-0.025844 0.0049014 -0.26527 -0.1385
560000000 -0.31848 0.12324 -0.023729 -0.064289 0.00039178 0.012162 0.0050852 0.010808
0.010499 0.005588 0.011464 0.0080886
-0.024252 -0.062479 -0.37862 0.10799 -0.04153 -0.037596 0.013899 0.0044275
-0.012905 -0.005073 0.0033255 -0.00052464
7.2647e-05 0.012615 -0.041757 -0.037734 -0.18335 0.25808 -0.00057423 -0.0039915
0.019808 0.0056952 0.006498 -0.0057462
0.0050706 0.011672 0.014466 0.0033463 -0.000629 -0.0035976 -0.30782 0.13213
0.0036069 -0.023767 0.004458 -0.022074
0.010998 0.0054242 -0.013535 -0.0040429 0.019193 0.0061784 0.0035758 -0.023479
-0.28921 -0.027186 0.0083173 -0.048612
0.011529 0.0083436 0.0035853 -0.0010723 0.00702 -0.0058723 0.0041878 -0.021535
0.0083406 -0.048125 -0.32946 0.011414
620000000 -0.27529 0.10556 -0.023184 0.0082747 0.0036501 0.0087931 0.0084493 -0.0048398
0.01165 -7.8871e-05 0.0025588 -0.0022549
-0.023064 0.0081734 -0.40308 0.059468 -0.0186 0.00052238 -0.0010324 -0.0018
0.011664 -0.0060893 0.0016033 -0.0027594
0.0035806 0.0087567 -0.0185 0.0005397 -0.15381 0.26702 -0.0010653 -0.0051625
-0.0029443 -0.0026555 0.0085625 -0.0030247
0.0073401 -0.0054748 -0.0012823 -0.0019455 -0.00090694 -0.0049593 -0.2679 0.14388
-0.038474 -0.019822 0.012332 0.026816
0.012164 0.0012986 0.011529 -0.0060592 -0.0028945 -0.0028403 -0.038078 -0.019571
-0.20765 -0.063599 -0.04236 0.015371
0.0015198 -0.0024193 0.0015044 -0.0029681 0.008581 -0.0030032 0.012302 0.026671
-0.041983 0.014989 -0.24915 -0.026601
680000000 -0.23525 0.19345 -0.026999 -0.013973 0.0048935 0.0050608 0.0017253 -0.0073192
-0.0028466 -0.011362 0.0057331 -0.0068435
-0.027102 -0.013595 -0.38769 0.15815 -0.032384 -0.0011214 -0.001368 -0.00051799
-0.0019968 -0.0090947 -0.001066 -0.0017687
0.0052044 0.005481 -0.032416 -0.001056 -0.10178 0.28679 -0.00064389 -0.00028391
-0.0015977 0.00029594 -0.0027978 -0.0092017
0.0014223 -0.0068839 -0.0013888 -0.0004128 -0.00062361 -0.00022972 -0.22107 0.1949
-0.024176 -0.007 -0.010232 -0.011056
-0.0030521 -0.011043 -0.0020269 -0.0090527 -0.0015945 0.00011638 -0.02443 -0.0069438
-0.26039 0.036457 -0.0054379 -0.0078819
0.0060512 -0.0066419 -0.00087 -0.0016087 -0.0031414 -0.0087719 -0.0099098 -0.010758
-0.0054302 -0.0081265 -0.26066 0.082063
740000000 -0.19076 0.1877 -0.038537 0.026537 0.012839 -0.0052903 -0.00019752 -0.0043558
-0.0038906 -0.0032195 -0.0064854 0.0022988
-0.038547 0.026738 -0.33406 0.17699 -0.035318 0.035131 -0.0005863 -0.0064116
-0.012168 0.0078786 -0.0020282 -0.0067951
0.013027 -0.0051685 -0.035326 0.035389 -0.067901 0.28434 -0.0023039 0.0031276
-0.0022145 -0.0048992 -0.0014918 -9.5685e-05
-0.00063508 -0.004676 -0.0009552 -0.0061381 -0.0021765 0.002875 -0.20475 0.2026
-0.043848 -0.0067402 0.023391 0.015524
-0.0039936 -0.0032269 -0.011726 0.0072107 -0.0024566 -0.0049693 -0.043395 -0.0065054
-0.15859 0.063581 -0.044301 0.0013184
-0.0064609 0.0021539 -0.0023291 -0.006013 -0.0015523 -0.00025713 0.023524 0.015564
-0.043789 0.001226 -0.25014 0.087948
800000000 -0.15717 0.22747 -0.022125 0.016759 0.0055015 -0.010603 -0.0045147 -0.0022211
-0.004145 0.0021276 0.0045439 0.00035941
-0.022143 0.016658 -0.33778 0.24641 -0.0076652 0.033832 -0.0023775 0.0021264
-0.00085866 0.0028864 0.00096919 0.0052004
0.0054892 -0.010721 -0.0076081 0.033841 -0.027529 0.30739 0.00094432 0.0015751
0.00015845 0.0035867 -0.001582 0.00079472
-0.0047033 -0.0019454 -0.0024997 0.0021979 0.00088412 0.0015857 -0.17542 0.23047
-0.028512 0.014536 0.014293 -0.010414
-0.004066 0.0020475 -0.00057182 0.0027513 0.00016755 0.0035619 -0.028574 0.014455
-0.20679 0.087434 -0.017407 0.019563
0.0045781 0.0005333 0.0010196 0.0055593 -0.0014833 0.00079235 0.014378 -0.010288
-0.017371 0.019703 -0.24576 0.13782
860000000 -0.12251 0.24773 -0.017142 0.030348 -0.0031836 -0.010073 -0.0023338 0.00067617
0.0039624 0.0047595 -0.0033271 -0.0028959
-0.017178 0.030385 -0.2902 0.28814 0.007821 0.033967 -0.00012331 0.0018928
0.004022 0.00022939 0.0032412 0.00067026
-0.0032904 -0.0099501 0.0079901 0.034007 0.020164 0.31521 -0.00057647 -0.00021357
0.0026986 -0.0015645 0.0015408 0.0043046
-0.0023683 0.00053864 -5.1111e-05 0.0019212 -0.00059426 -0.00018565 -0.13871 0.24072
-0.017617 0.018705 -0.0061906 -0.0091734
0.0039603 0.0044692 0.0038956 2.5677e-05 0.0026197 -0.0015489 -0.017584 0.018841
-0.15416 0.13904 -0.026193 0.015593
-0.0038218 -0.0027544 0.0034667 0.00106 0.0015947 0.0044256 -0.0060979 -0.0089081
-0.026227 0.015851 -0.19334 0.18456
920000000 -0.098223 0.27004 0.0052013 0.037634 -0.0095143 -0.0045601 -0.0018673 0.0017414
0.00095868 0.0019555 0.0028349 -0.0015534
0.0052201 0.037538 -0.26132 0.30935 0.027965 0.021808 0.0014052 0.0011502
0.0072266 -0.00036916 0.0040231 -0.0025828
-0.0095509 -0.0045818 0.028119 0.021765 0.066165 0.31593 0.0018798 -9.1011e-05
0.0012282 -0.00030928 0.00081836 -0.0011207
-0.0016352 0.0019885 0.0014821 0.0011394 0.0018827 -1.8832e-05 -0.11496 0.25789
-0.010654 0.031299 0.0041849 -0.0068864
0.001051 0.0020975 0.0072311 -0.00018446 0.0011185 -0.00040714 -0.010704 0.031256
-0.14494 0.14523 -0.0027584 0.027639
0.0030387 -0.0016851 0.0041446 -0.0025561 0.00079521 -0.00097548 0.0041551 -0.0068063
-0.0027514 0.02761 -0.20358 0.1983
980000000 -0.05073 0.28968 0.01738 0.029621 -0.009137 0.0045112 0.0020621 0.0034176
0.0038911 -0.0012495 -0.0033698 -0.0020888
0.017391 0.029668 -0.20865 0.34297 0.03288 0.0047957 0.0021187 -1.0798e-05
0.0016767 -0.0057943 -0.00021323 -0.0024353
-0.0091347 0.0045554 0.032996 0.0046674 0.11232 0.30944 0.00055813 -0.0011687
0.0002651 -0.0020535 0.0013331 -0.00019762
0.0020002 0.003426 0.0021151 -5.3634e-05 0.00054742 -0.0011661 -0.076427 0.26874
0.0083886 0.030513 -0.0091235 -0.0075312
0.0037782 -0.0012116 0.0015694 -0.0058515 0.00025696 -0.0020717 0.0084059 0.030534
-0.11329 0.17444 0.0049031 0.019647
-0.0034399 -0.0020997 -0.00037853 -0.002435 0.0012978 -0.00011668 -0.0090942 -0.0074499
0.0048774 0.019365 -0.16162 0.24441
1040000000 -0.0092247 0.29797 0.032991 0.017958 -0.0013669 0.0068183 0.0024093 0.00069997
0.00011516 -0.0036139 -0.00033044 -0.0014066
0.032991 0.017899 -0.17333 0.35599 0.029278 -0.014909 0.0014653 -0.0016625
-0.0024067 -0.0028015 -0.0012508 -0.0026836
-0.0013025 0.006757 0.029264 -0.015015 0.15839 0.29584 -0.00051423 -0.0015758
-0.0015605 -0.00089418 -0.00049158 -0.00098856
0.0024252 0.00087912 0.0014838 -0.0017333 -0.00050576 -0.0015656 -0.049484 0.27892
0.020054 0.018427 -0.0021477 0.0010396
0.00021744 -0.003647 -0.0023284 -0.0028286 -0.0016408 -0.00092261 0.020056 0.018403
-0.080847 0.18144 0.01356 0.018782
-0.0002435 -0.0015116 -0.0012582 -0.0026876 -0.00054614 -0.00099761 -0.002079 0.0011084
0.013515 0.018895 -0.14094 0.26483
1100000000 0.036284 0.30568 0.03553 -0.0043224 0.0027533 0.0038868 0.0022767 -0.0011804
-0.0019857 -0.0031643 -0.0039528 7.0051e-05
0.035533 -0.0043985 -0.13009 0.37317 0.015103 -0.027877 -3.6729e-05 -0.0018173
-0.0034709 -0.0009308 -0.0035524 -0.00047969
0.0027017 0.0038692 0.014968 -0.027922 0.2048 0.27548 -0.0019303 0.00020637
-0.0018942 0.00049623 -0.0011056 -0.00019052
0.0024031 -0.0011801 -8.8589e-05 -0.0018266 -0.0019017 0.00020726 -0.0092833 0.28383
0.025573 0.0050058 -0.0027512 -0.00028118
-0.0019921 -0.0030941 -0.0034081 -0.00094913 -0.0019056 0.00046424 0.025559 0.0049777
-0.063017 0.1948 0.019395 0.0087389
-0.0039863 -3.4272e-07 -0.0036789 -0.00056985 -0.0010718 -0.00022581 -0.0027417 -0.00027881
0.019353 0.0087587 -0.095298 0.29608
1160000000 0.08726 0.30081 0.023697 -0.020808 0.0025195 -0.00043389 -0.00023102 -0.0022082
-0.0040506 -0.0008451 -0.0010305 0.0041229
0.023663 -0.020635 -0.086622 0.37745 -0.0038451 -0.029173 -0.0017379 -0.0016917
-0.0028685 0.0024777 -0.001407 0.0018346
0.0025352 -0.00046358 -0.0039704 -0.029184 0.24786 0.24461 -0.0007303 0.0017909
-0.0006565 0.0020262 -0.00074761 0.00031165
-0.00028885 -0.0022217 -0.0017255 -0.0017124 -0.00074626 0.0017703 0.02984 0.28127
0.02185 -0.010931 -0.0031521 0.0050148
-0.0040601 -0.00081715 -0.0027755 0.0024331 -0.00065578 0.0020093 0.021894 -0.011004
-0.029824 0.20348 0.01863 0.00071232
-0.00092025 0.0040925 -0.0014044 0.0018489 -0.00083572 0.00030335 -0.0032534 0.0050172
0.018651 0.00071348 -0.048482 0.29934
1220000000 0.1319 0.2897 0.010006 -0.02992 -0.001644 -0.00065962 0.00013766 -0.0009042
-0.0026993 0.0023494 0.0013393 0.0020577
0.010064 -0.029951 -0.042337 0.38954 -0.016965 -0.021135 -0.0025417 0.00042749
-3.2655e-05 0.003135 -0.00073561 0.001923
-0.0016815 -0.00064607 -0.017073 -0.021053 0.28691 0.20546 0.00080265 0.0017384
0.00064942 0.0012735 0.00040493 0.00067545
0.00017661 -0.00092421 -0.0025421 0.00043483 0.0007939 0.0017585 0.069765 0.27309
0.010983 -0.017949 0.0017065 0.0014285
-0.0027905 0.0023634 -5.7178e-05 0.0031559 0.00063797 0.0012973 0.010947 -0.018007
-0.00815 0.21233 0.014581 -0.012998
0.0012633 0.0020561 -0.0007232 0.0019354 0.00043034 0.00066525 0.0017594 0.0015116
0.014559 -0.013 -0.017763 0.31701
1280000000 0.18139 0.26783 -0.0081623 -0.028169 -0.0018025 0.0026662 -0.00084282 -0.0020892
-0.00090553 0.0030358 0.0025094 0.001208
-0.008177 -0.028132 0.0034664 0.38077 -0.023886 -0.0084997 -0.0010166 0.0014717
0.0016804 0.0019106 0.00070563 0.0021341
-0.0018473 0.002698 -0.023935 -0.0083927 0.3172 0.16152 0.0016768 4.9918e-05
0.0011731 0.00027788 0.00054479 0.00026945
-0.00090009 -0.0020408 -0.0010295 0.0014615 0.0016471 7.7549e-05 0.10676 0.2568
0.0012054 -0.020182 -0.00041797 0.00025241
-0.00087122 0.0030246 0.0017461 0.0019877 0.001249 0.00033085 0.0011648 -0.020217
0.027978 0.2161 0.0032798 -0.015274
0.0026293 0.0012693 0.00062612 0.002055 0.00053622 0.00016408 -0.00044334 0.00020888
0.0032362 -0.01528 0.030623 0.32005
1340000000 0.2186 0.2339 -0.017732 -0.018535 0.0010708 0.0046298 -0.0017494 -0.00089297
0.001432 0.0027855 0.0018813 -0.0013506
-0.017759 -0.018546 0.042989 0.37262 -0.02171 0.004316 -0.00011787 0.0020539
0.0020511 0.00086809 0.0014101 0.00079356
0.0010709 0.0046159 -0.021709 0.004444 0.33899 0.11372 0.0012576 -0.00095833
0.00075564 -0.00046927 0.00021805 0.00030984
-0.0016902 -0.00085897 -0.00014581 0.0020313 0.0012665 -0.00095788 0.13928 0.23653
-0.0088094 -0.017363 0.000608 0.00075997
0.0014645 0.0027083 0.0020965 0.00087946 0.00077476 -0.00048368 -0.0088398 -0.017366
0.056893 0.21184 -0.0035436 -0.013862
0.0018598 -0.0014307 0.0013949 0.00077808 0.00017379 0.00025013 0.00060442 0.00074325
-0.0035487 -0.013863 0.068914 0.31641
1400000000 0.25159 0.19576 -0.023242 -0.0070446 0.0052956 0.0030871 -0.0021256 0.00061134
0.002354 0.0010032 0.00037613 -0.0014092
-0.023244 -0.0070241 0.080247 0.35965 -0.01491 0.012537 0.001398 0.0013614
0.0012785 -0.00086612 0.0012629 0.00021665
0.0053157 0.0030318 -0.014912 0.012607 0.35214 0.060407 0.00017071 -0.0017971
-4.4289e-05 -0.00041816 0.00040808 0.00015624
-0.0021715 0.00061207 0.0014332 0.0013597 0.00018333 -0.001801 0.16889 0.20768
-0.015035 -0.010512 -0.00085907 -0.00011326
0.0023733 0.0010222 0.0013263 -0.0008673 -5.9798e-05 -0.00047332 -0.015096 -0.01048
0.089237 0.20808 -0.010223 -0.0091656
0.00033308 -0.0013747 0.0013363 0.00020385 0.00035218 0.00024628 -0.00085648 -8.14e-05
-0.010198 -0.0091408 0.11429 0.30608
1460000000 0.27429 0.15162 -0.020061 0.0050684 0.0057367 -0.0018792 -0.0016082 0.0017551
0.0021674 -0.00039622 -0.00033737 -0.0010494
-0.020003 0.0050181 0.11463 0.33794 -0.0061191 0.01551 0.0017872 0.00015278
0.00087978 -0.0014034 0.0011995 -0.00060304
0.0057035 -0.0019038 -0.0060232 0.015581 0.35822 0.0062151 -0.0013647 -0.0013557
0.00013142 -0.00032058 0.00057898 -0.00034047
-0.0015767 0.0018174 0.0017969 0.00013098 -0.0013709 -0.0013522 0.19498 0.17849
-0.016571 -0.0033388 -0.0008323 0.0023237
0.0021762 -0.00041512 0.00088202 -0.0013963 0.00015348 -0.00031204 -0.016569 -0.0033347
0.11766 0.194 -0.012202 -0.0028671
-0.00026444 -0.0011332 0.0011797 -0.00060971 0.00057509 -0.00039208 -0.00081742 0.0023377
-0.012204 -0.0028291 0.14784 0.28588
1520000000 0.28631 0.10954 -0.014323 0.010346 0.0034102 -0.0043035 0.00011204 0.0026656
0.0022292 -0.0016949 -0.0011724 -0.0001743
-0.014319 0.010344 0.14826 0.32308 0.0016496 0.013242 0.0016871 -0.00080573
-5.5121e-05 -0.0010992 0.0003893 -0.0010254
0.0033797 -0.0043572 0.0017125 0.013262 0.35163 -0.049867 -0.0012836 -0.00032341
0.00061289 -0.00081648 7.9357e-05 -0.00015127
0.00011215 0.0026401 0.0016749 -0.00081905 -0.0012906 -0.00031918 0.21803 0.14089
-0.015937 0.0028224 0.0016555 0.0022946
0.0022124 -0.0016894 -4.7427e-05 -0.0011025 0.00062703 -0.00082372 -0.01592 0.0028734
0.14512 0.18071 -0.01207 0.0016775
-0.0012633 -0.00015735 0.00037538 -0.00099312 2.5259e-05 -0.00018433 0.0016049 0.0023087
-0.012094 0.0016894 0.18174 0.2662
1580000000 0.29542 0.063204 -0.007726 0.01323 -0.0009239 -0.0050392 0.0014791 0.0019458
-0.00014808 -0.002149 -0.00037986 0.00040957
-0.0077279 0.013207 0.17558 0.29818 0.0053239 0.0083162 0.00046599 -0.0016503
-0.00066342 -0.0010252 -0.00026611 -0.00081663
-0.00093807 -0.0050399 0.0053813 0.0083353 0.33141 -0.10738 -0.001684 0.00074718
-0.00030794 -0.0011543 0.00012543 -0.00047433
0.0015085 0.0019371 0.00049822 -0.0016611 -0.0016613 0.00074705 0.23172 0.10199
-0.012253 0.0081248 0.0026008 0.00096159
-9.7716e-05 -0.0021643 -0.00068231 -0.0010551 -0.00029992 -0.001121 -0.012248 0.0081816
0.16925 0.16345 -0.0094917 0.0077499
-0.00045338 0.00038148 -0.00017701 -0.00081702 0.00018829 -0.00049821 0.0026164 0.00093677
-0.0095047 0.0077311 0.21477 0.23971
1640000000 0.29707 0.021943 -0.0011484 0.012082 -0.0027952 -0.0027229 0.0028302 0.00093387
-0.00060168 -0.0017063 -0.00021322 0.00063109
-0.0011627 0.012042 0.20517 0.27309 0.0061295 0.0034883 -0.00069432 -0.001774
-0.0010257 -0.00034629 -0.00044548 -0.00075008
-0.0028144 -0.0027489 0.0061699 0.0034606 0.30346 -0.15679 -0.0005745 0.0015866
-0.001136 -0.0011354 -8.5581e-05 -0.00045267
0.0027842 0.00092843 -0.00070896 -0.0017766 -0.00057131 0.0016313 0.24404 0.05382
-0.0076539 0.0096687 0.0027888 -0.00082237
-0.00066195 -0.0016351 -0.00101 -0.00031476 -0.0011429 -0.0011287 -0.007646 0.009714
0.19163 0.13984 -0.0046597 0.0097628
-0.00021172 0.00064876 -0.00050651 -0.00079213 -0.00015855 -0.00042711 0.0027763 -0.00085229
-0.0046571 0.0097504 0.24061 0.2089
1700000000 0.28946 -0.023356 0.0021131 0.0092011 -0.0035735 1.2353e-05 0.0030801 -0.001321
-0.0021223 -0.00091211 0.00068485 0.00042084
0.0020809 0.009191 0.22325 0.24135 0.0040472 0.00053384 -0.0015322 -0.00057196
-0.00075435 7.7523e-05 -0.00092612 -0.00049356
-0.0035972 0.00012023 0.0040139 0.0005391 0.25973 -0.19669 0.00058047 0.0016988
-0.0020618 -0.00019532 -0.000497 -0.0008788
0.0030751 -0.0013414 -0.0015206 -0.00057605 0.00063625 0.0017108 0.24126 0.0049082
-0.004551 0.010394 0.0017214 -0.002458
-0.0021693 -0.00087405 -0.0007158 7.5532e-05 -0.0020267 -0.00012924 -0.0045192 0.010411
0.20875 0.12022 0.00020627 0.010025
0.0006931 0.0004664 -0.00096884 -0.00047133 -0.00043546 -0.00086665 0.0016874 -0.002453
0.00020029 0.010008 0.25758 0.17454
1760000000 0.27701 -0.071726 0.0042766 0.0059427 -0.0024054 0.00094636 0.0012482 -0.0035556
-0.0014907 0.00066464 0.00039289 -0.00070959
0.0042681 0.0059306 0.24909 0.2013 0.0017364 -0.0012952 -0.0012163 0.0002224
-0.00095442 0.00088565 -0.00063568 0.00038353
-0.0024348 0.00097257 0.0017297 -0.0012982 0.21072 -0.22982 0.0012999 0.00096783
-0.0012053 0.0015589 -0.001417 -0.00048178
0.0011599 -0.0035088 -0.0012145 0.00021417 0.0012949 0.00098594 0.23284 -0.045811
-0.00086049 0.0095964 -0.00013071 -0.0028025
-0.001537 0.00069698 -0.00094735 0.00089494 -0.0011775 0.0015584 -0.00084306 0.0095724
0.22342 0.085919 0.0043406 0.0073505
0.00041144 -0.00070579 -0.00062099 0.00038986 -0.0014463 -0.00046992 -0.00013458 -0.0028068
0.0043418 0.007346 0.27055 0.13695
1820000000 0.2522 -0.10869 0.0043581 0.0024574 -0.00018464 0.002466 -0.001112 -0.0030449
-0.0012356 0.001075 -9.5409e-05 -9.2041e-05
0.004355 0.0024569 0.25892 0.17107 -0.00029342 -0.00029102 -0.0013044 0.0010076
-2.7549e-05 0.0012411 -0.00060584 0.00055373
-0.00020603 0.0025052 -0.00030543 -0.00024833 0.16081 -0.24577 0.0013549 0.00035156
-0.00016542 0.0024082 -0.0013626 0.00037832
-0.0011336 -0.0030811 -0.0012981 0.0010199 0.0013781 0.00042128 0.20413 -0.092773
0.0010113 0.0078268 -0.0016426 -0.0017978
-0.0012441 0.0010478 -1.9087e-05 0.0012484 -0.00021377 0.0024032 0.0010488 0.0078383
0.24059 0.057502 0.0053612 0.0036675
-0.00013485 -5.7316e-05 -0.0005466 0.00057452 -0.0013435 0.00041067 -0.0016548 -0.0017728
0.0053518 0.0036954 0.2735 0.1011
1880000000 0.21696 -0.1488 0.0021408 0.00023115 -0.00047655 0.0022152 -0.0030644 -0.002083
-0.00018664 0.0018303 0.00020542 -0.00046354
0.0021691 0.00024199 0.26307 0.12438 -0.0024548 0.0015121 -0.00015511 0.0016681
0.00050141 0.0011286 6.133e-05 0.00099153
-0.00043886 0.0021917 -0.002461 0.0015218 0.10824 -0.25531 0.0016921 -0.00096674
0.001573 0.0019338 -0.00096246 0.0013334
-0.0029741 -0.0020512 -0.00012888 0.0016388 0.0017137 -0.00088065 0.16457 -0.13329
0.0021161 0.0055612 -0.0026143 0.00023666
-0.00013657 0.0018503 0.00054948 0.0011526 0.0015957 0.0019884 0.0021282 0.0055266
0.24371 0.025685 0.005514 0.0012475
0.00020474 -0.00045823 5.929e-05 0.000956 -0.00091781 0.0014207 -0.0026007 0.00020461
0.0055141 0.0012378 0.27347 0.066801
1940000000 0.17757 -0.17434 -8.0615e-05 -0.0013602 0.0013961 0.0021126 -0.0037324 0.00064327
0.0013775 0.0010765 -0.0005771 -0.00045019
-9.0335e-05 -0.0013591 0.2633 0.09257 -0.0013438 0.0038015 0.0010573 0.0013006
0.0017194 0.00050923 0.00082763 0.00037995
0.0013829 0.0020824 -0.0013202 0.0038258 0.061987 -0.2487 0.00047293 -0.002048
0.00245 0.00044172 0.00027993 0.001572
-0.0037256 0.00070322 0.0010092 0.0013048 0.00047965 -0.0020574 0.11296 -0.16464
0.0014592 0.0038331 -0.0015754 0.0014436
0.0014778 0.0011772 0.0017015 0.00046355 0.0024185 0.00044665 0.0014894 0.0038011
0.24613 -0.012859 0.0042827 -0.0024031
-0.0006283 -0.0004649 0.00077498 0.00040014 0.00032124 0.0016034 -0.0015829 0.0014635
0.0042902 -0.0023756 0.26286 0.030996
2000000000 0.13128 -0.18883 -0.0039997 0.00075653 0.0026086 0.0018053 -0.0022958 0.0035042
0.0011584 5.7202e-05 -0.00065055 0.00030113
-0.0039167 0.0007585 0.24879 0.057185 -0.0011059 0.0058175 0.0015708 0.00037019
0.0012993 -0.0012507 0.00062665 0.00020376
0.0025881 0.0018066 -0.001104 0.0059024 0.018486 -0.2338 -0.0012246 -0.0012692
0.001939 -0.0011738 0.0016986 0.0012661
-0.0023449 0.0034892 0.0015432 0.00039796 -0.0012883 -0.0012331 0.059369 -0.17546
-0.00028309 0.0030694 -0.00025537 0.0021746
0.0010431 5.5445e-05 0.0012749 -0.0012548 0.0019318 -0.0012263 -0.00030421 0.0030725
0.2405 -0.046877 0.00073134 -0.0033738
