!Keysight Technologies,M9804A,MY58100912,A.14.10.03
!Date: Thursday, April 27, 2023 10:28:33
!Correction: S11(C  6-Port  ) 
!S12(C  6-Port  ) 
!S13(C  6-Port  ) 
!S14(C  6-Port  ) 
!S15(C  6-Port  ) 
!S16(C  6-Port  ) 
!S21(C  6-Port  ) 
!S22(C  6-Port  ) 
!S23(C  6-Port  ) 
!S24(C  6-Port  ) 
!S25(C  6-Port  ) 
!S26(C  6-Port  ) 
!S31(C  6-Port  ) 
!S32(C  6-Port  ) 
!S33(C  6-Port  ) 
!S34(C  6-Port  ) 
!S35(C  6-Port  ) 
!S36(C  6-Port  ) 
!S41(C  6-Port  ) 
!S42(C  6-Port  ) 
!S43(C  6-Port  ) 
!S44(C  6-Port  ) 
!S45(C  6-Port  ) 
!S46(C  6-Port  ) 
!S51(C  6-Port  ) 
!S52(C  6-Port  ) 
!S53(C  6-Port  ) 
!S54(C  6-Port  ) 
!S55(C  6-Port  ) 
!S56(C  6-Port  ) 
!S61(C  6-Port  ) 
!S62(C  6-Port  ) 
!S63(C  6-Port  ) 
!S64(C  6-Port  ) 
!S65(C  6-Port  ) 
!S66(C  6-Port  ) 
!S6P File: Measurement: :
# Hz S  RI   R 50
500000000 -0.33685 -0.039795 -0.0099225 -0.0021568 -0.0079494 0.012955 -0.0044793 0.011966
0.012903 0.0049005 -0.004864 0.0088446
-0.0098811 -0.00233 -0.41944 -0.052659 0.0076002 -0.010418 0.001419 0.012187
0.0077386 0.0026111 0.0012462 0.013381
-0.0079792 0.013147 0.007506 -0.010574 -0.26643 0.20949 0.0076324 0.0036376
-0.0019559 0.0081974 0.0014997 0.012032
-0.0044754 0.012005 0.0012764 0.012018 0.0074192 0.003691 -0.33261 0.042109
-0.019387 -0.0067397 0.015504 0.026655
0.013076 0.0047542 0.0078503 0.0029136 -0.0018187 0.0078973 -0.019537 -0.0067504
-0.2212 -0.20233 -0.025576 0.0051022
-0.0046981 0.0087326 0.00094731 0.013175 0.0014904 0.011971 0.015385 0.026753
-0.025538 0.0050507 -0.26554 -0.1378
560000000 -0.31623 0.123 -0.024669 -0.063835 0.00078429 0.012096 0.0051622 0.010966
0.01042 0.0056971 0.011184 0.0080243
-0.024643 -0.063482 -0.37817 0.10796 -0.041637 -0.037335 0.014243 0.0039001
-0.012879 -0.0050566 0.0036039 -0.00052722
0.0007096 0.012108 -0.041697 -0.037234 -0.183 0.25827 -0.00050746 -0.0037604
0.019856 0.0056182 0.00646 -0.005736
0.0054753 0.010464 0.014004 0.0041556 -0.0006212 -0.0040273 -0.30781 0.1317
0.0032815 -0.023597 0.0043877 -0.021734
0.010506 0.0051538 -0.012721 -0.004579 0.019787 0.0054755 0.0033735 -0.023559
-0.28988 -0.026374 0.0083111 -0.048263
0.011918 0.0084817 0.0034272 -0.00098263 0.0065469 -0.0058332 0.0044708 -0.021788
0.0083555 -0.048281 -0.32992 0.011651
620000000 -0.27547 0.10669 -0.023176 0.0082933 0.0035613 0.0089327 0.0082681 -0.0051117
0.011326 -4.2838e-05 0.0024306 -0.0022172
-0.023187 0.008278 -0.40308 0.059654 -0.018458 0.00046553 -0.0012113 -0.0019265
0.011604 -0.0062174 0.0017865 -0.0028946
0.0036246 0.0091106 -0.018421 0.0004677 -0.15359 0.26723 -0.00099408 -0.0051331
-0.0028714 -0.0026492 0.0085746 -0.0029233
0.0083676 -0.0053132 -0.0010667 -0.0018304 -0.0010454 -0.0050615 -0.26754 0.14391
-0.038368 -0.019337 0.012169 0.026771
0.011469 0.00012048 0.011375 -0.0063751 -0.0027958 -0.0026519 -0.038285 -0.019646
-0.20816 -0.063922 -0.041835 0.015123
0.0025934 -0.0023139 0.0015201 -0.0028441 0.0087057 -0.0028424 0.011948 0.026912
-0.04186 0.015088 -0.24908 -0.025715
680000000 -0.23497 0.19269 -0.027133 -0.01395 0.0051327 0.0050784 0.0015305 -0.0072715
-0.0029602 -0.011308 0.0058194 -0.0069564
-0.027107 -0.01392 -0.3876 0.15807 -0.032409 -0.0012258 -0.0014845 -0.00054234
-0.0019526 -0.0091181 -0.0009938 -0.0017587
0.0051693 0.0050568 -0.032333 -0.001112 -0.1018 0.28677 -0.000684 -0.00029207
-0.0015217 0.00023018 -0.0027786 -0.009124
0.001608 -0.007253 -0.0013608 -0.00055904 -0.00073515 -0.00027822 -0.22149 0.19484
-0.024027 -0.0071108 -0.010258 -0.01121
-0.0028396 -0.011226 -0.0020841 -0.0089962 -0.0014472 0.0002382 -0.024055 -0.0070013
-0.26027 0.036622 -0.0054895 -0.007963
0.0058157 -0.0069434 -0.00094728 -0.0016583 -0.0027782 -0.0091797 -0.010149 -0.011241
-0.0055133 -0.007959 -0.261 0.082753
740000000 -0.19052 0.18768 -0.038173 0.026935 0.012924 -0.0052099 -0.00015176 -0.0044128
-0.004013 -0.0030646 -0.0062612 0.0021934
-0.038168 0.026966 -0.33449 0.17679 -0.035207 0.035296 -0.00083495 -0.0064219
-0.011992 0.0076551 -0.0020902 -0.0065425
0.012919 -0.0051697 -0.035238 0.035295 -0.067917 0.28445 -0.0021953 0.0030735
-0.0022758 -0.0048688 -0.001557 -7.5491e-05
-0.00019871 -0.0043797 -0.00076911 -0.0062586 -0.0021891 0.0031396 -0.20471 0.20246
-0.043732 -0.0066418 0.023425 0.01544
-0.0039859 -0.002895 -0.011933 0.0079547 -0.0023386 -0.0048154 -0.043814 -0.0066575
-0.15872 0.063936 -0.043858 0.0012572
-0.0062943 0.0022477 -0.0021454 -0.0063667 -0.001631 -6.8797e-05 0.023432 0.015387
-0.043881 0.0012038 -0.24984 0.08798
800000000 -0.15722 0.22759 -0.021932 0.016683 0.0054485 -0.010737 -0.0046107 -0.0022237
-0.0041031 0.0018839 0.0046598 0.00038468
-0.021978 0.016682 -0.33758 0.24648 -0.0076503 0.033713 -0.0024244 0.0021674
-0.00077589 0.0028247 0.0010278 0.0052159
0.0054111 -0.010769 -0.0075024 0.03377 -0.027391 0.30734 0.00091776 0.0015329
0.00017925 0.0035345 -0.0015383 0.00081161
-0.0045917 -0.0022563 -0.0024188 0.0021525 0.00092946 0.0015243 -0.17548 0.23046
-0.028479 0.014477 0.014212 -0.010397
-0.0041982 0.0020442 -0.00062435 0.0029327 0.00020261 0.0035241 -0.028461 0.014578
-0.20641 0.08751 -0.017305 0.019591
0.0045448 0.00031099 0.0011462 0.0053349 -0.0015529 0.00079031 0.014181 -0.010389
-0.017321 0.019568 -0.2456 0.13809
860000000 -0.12233 0.24768 -0.017134 0.030328 -0.0032383 -0.010083 -0.0023416 0.00078049
0.003842 0.004752 -0.0033196 -0.0028897
-0.017097 0.030395 -0.29007 0.28815 0.0078373 0.033961 -6.368e-05 0.0018378
0.0040491 0.00021596 0.0033044 0.00073403
-0.0032454 -0.010005 0.0079483 0.033971 0.020174 0.31519 -0.00056125 -0.00021518
0.0027378 -0.0015588 0.0014561 0.0043267
-0.0021924 0.00088628 -7.3772e-05 0.0019378 -0.00060353 -0.00025326 -0.1388 0.24081
-0.0177 0.018775 -0.0061154 -0.0092739
0.0037604 0.004765 0.0040265 0.00022208 0.0026857 -0.0016111 -0.017774 0.01877
-0.15409 0.13911 -0.026144 0.015531
-0.0033093 -0.0028411 0.0032238 0.00062745 0.0015381 0.0043138 -0.0060743 -0.0093452
-0.026164 0.015492 -0.19361 0.18476
920000000 -0.097986 0.27025 0.0052766 0.037469 -0.0095162 -0.0045517 -0.0018602 0.0017502
0.001035 0.001907 0.0027847 -0.0015531
0.0052414 0.037479 -0.26126 0.30932 0.028062 0.021771 0.0014333 0.0011484
0.0072094 -0.00044762 0.0040562 -0.0026513
-0.0095093 -0.004539 0.028134 0.021704 0.066229 0.31599 0.00191 -4.8327e-05
0.0012296 -0.00035238 0.00083642 -0.0011361
-0.001856 0.0017246 0.001393 0.0011589 0.0018815 -8.1564e-05 -0.11491 0.25788
-0.010762 0.031248 0.0041433 -0.0069055
0.00095224 0.0019656 0.0072048 -0.00048247 0.0012665 -0.00032697 -0.010627 0.03129
-0.14488 0.14511 -0.0027794 0.027465
0.0027886 -0.0017071 0.0038843 -0.0027186 0.00082887 -0.0011506 0.0041214 -0.0068634
-0.0028031 0.027437 -0.20338 0.19881
980000000 -0.050791 0.28957 0.01743 0.029618 -0.0091203 0.0045177 0.0019725 0.0034389
0.0039347 -0.0012373 -0.003301 -0.0021685
0.017362 0.029584 -0.20866 0.34301 0.032936 0.0047522 0.0021279 -3.1343e-05
0.0016224 -0.0057717 -0.00017394 -0.0024692
-0.0090969 0.0045213 0.032976 0.0046446 0.11239 0.30946 0.00053224 -0.0011442
0.00024864 -0.0020451 0.0013325 -0.00017436
0.0019562 0.0034407 0.00219 2.452e-05 0.00054414 -0.0011306 -0.076475 0.26874
0.0083214 0.030424 -0.0091108 -0.0075094
0.0038616 -0.0012383 0.0016117 -0.0057628 0.00028148 -0.0020524 0.0083836 0.030458
-0.11332 0.17439 0.0048992 0.019526
-0.0033716 -0.0022167 -0.00033778 -0.0025143 0.0013373 -0.00019891 -0.009124 -0.0075113
0.0048889 0.019527 -0.16142 0.24459
1040000000 -0.0088254 0.29795 0.032941 0.017847 -0.0014061 0.0068471 0.0023809 0.00075069
0.00010794 -0.0036381 -0.00034682 -0.001504
0.032932 0.017895 -0.17327 0.35601 0.029253 -0.014938 0.0014864 -0.0017179
-0.0024796 -0.0027443 -0.0012638 -0.0026191
-0.0014013 0.0068429 0.029244 -0.015045 0.15835 0.29586 -0.00052191 -0.0015687
-0.0015822 -0.00090171 -0.00050722 -0.0010188
0.0024237 0.00076054 0.0015311 -0.001681 -0.00051436 -0.0015644 -0.049535 0.27897
0.01995 0.01836 -0.0021897 0.0010515
4.82e-05 -0.0036598 -0.0024527 -0.0026753 -0.0015664 -0.00089557 0.019992 0.018351
-0.080859 0.18122 0.01347 0.018731
-0.00031007 -0.0014286 -0.0013604 -0.0025719 -0.00050859 -0.00098963 -0.002186 0.0010671
0.013457 0.018727 -0.14078 0.26494
1100000000 0.036296 0.30577 0.035483 -0.0044475 0.0027111 0.0038582 0.0022715 -0.0011842
-0.0019413 -0.0031671 -0.003975 8.7124e-05
0.035457 -0.0043969 -0.13006 0.37314 0.015046 -0.027868 -4.8127e-05 -0.0018176
-0.0034829 -0.0009253 -0.0035754 -0.00045846
0.0027315 0.0038585 0.014968 -0.027962 0.20488 0.27553 -0.0019048 0.00021022
-0.0018811 0.00050867 -0.0011124 -0.00022294
0.0022585 -0.0011989 -6.1294e-05 -0.0018018 -0.0019082 0.00020097 -0.0091897 0.28388
0.025477 0.0050546 -0.0027253 -0.00025599
-0.0019654 -0.0031694 -0.0034836 -0.00092729 -0.001896 0.00052375 0.025503 0.0050027
-0.063074 0.19479 0.019264 0.0086972
-0.0039344 5.5104e-05 -0.0035406 -0.00041583 -0.0010959 -0.00019259 -0.0027474 -0.00024714
0.019256 0.0086992 -0.09498 0.29625
1160000000 0.08755 0.30074 0.023617 -0.020815 0.0024838 -0.00042 -0.00023437 -0.0022248
-0.004023 -0.00080269 -0.0010001 0.0041266
0.023606 -0.020777 -0.086615 0.37752 -0.0038896 -0.029143 -0.0017323 -0.0017205
-0.0028534 0.0024856 -0.0013964 0.0018652
0.0024856 -0.00044568 -0.0039893 -0.029136 0.24789 0.24461 -0.00074299 0.0017688
-0.00063579 0.0020342 -0.00074572 0.00032848
-0.00022578 -0.0022366 -0.0017241 -0.0017009 -0.00075847 0.0017682 0.029895 0.28139
0.021809 -0.010814 -0.0031854 0.0050104
-0.0040591 -0.00081576 -0.0028541 0.002483 -0.00064939 0.0020181 0.021805 -0.010847
-0.029926 0.20359 0.018445 0.0007034
-0.0009728 0.0041366 -0.0013923 0.001847 -0.00074292 0.00033329 -0.0031708 0.0049975
0.018456 0.00067694 -0.048051 0.29939
1220000000 0.13188 0.28969 0.0099626 -0.029917 -0.0016654 -0.00060166 0.00011439 -0.00090697
-0.0026736 0.002346 0.0013534 0.0020488
0.0099761 -0.029875 -0.04231 0.38959 -0.016995 -0.02108 -0.002537 0.00043006
-4.0796e-05 0.0031236 -0.0007504 0.0018957
-0.0016756 -0.00059498 -0.017078 -0.021039 0.287 0.20546 0.00079741 0.0017115
0.00065042 0.001227 0.00042915 0.00065836
0.00012238 -0.00088384 -0.0025455 0.00043774 0.00080486 0.0017168 0.069859 0.27318
0.010954 -0.017806 0.0017439 0.001454
-0.0026362 0.0023853 -7.9692e-06 0.0031221 0.00062929 0.0012453 0.01092 -0.017809
-0.0082329 0.21261 0.014479 -0.012854
0.0013984 0.0020892 -0.00070409 0.0019327 0.00042118 0.00067783 0.0017363 0.0014614
0.014482 -0.012861 -0.017405 0.31693
1280000000 0.18154 0.26769 -0.0082374 -0.028158 -0.0018198 0.0026966 -0.00086387 -0.0020617
-0.00091381 0.0030262 0.0025186 0.0012024
-0.0082328 -0.028129 0.0035188 0.38084 -0.023876 -0.0084193 -0.0010101 0.0014848
0.0017015 0.0019015 0.00065794 0.0021057
-0.0017882 0.0027009 -0.023944 -0.0083265 0.31725 0.16147 0.001669 4.0459e-05
0.0012363 0.00028539 0.0005599 0.00022076
-0.00084749 -0.0020369 -0.0010076 0.0014949 0.0016691 3.2405e-05 0.10684 0.25682
0.0012397 -0.020027 -0.00038516 0.00021018
-0.00089687 0.003037 0.0017221 0.0019053 0.0011866 0.00028252 0.0011989 -0.020039
0.027944 0.21641 0.0032745 -0.015165
0.0025011 0.001213 0.00065689 0.0021163 0.00055224 0.00026617 -0.00037992 0.00020284
0.0032779 -0.015158 0.030833 0.31999
1340000000 0.21861 0.23388 -0.01773 -0.01848 0.0011023 0.004647 -0.0017741 -0.00088179
0.0014341 0.0027512 0.0018702 -0.001363
-0.0177 -0.018481 0.043102 0.37264 -0.02167 0.0043858 -0.00014501 0.0020534
0.0020265 0.0008241 0.0013884 0.00079338
0.0011257 0.0046203 -0.02166 0.0044739 0.33903 0.11366 0.0012525 -0.00097594
0.00075322 -0.00047955 0.00020796 0.00029281
-0.0017922 -0.00088841 -0.00013164 0.0020377 0.0012498 -0.000952 0.13939 0.2365
-0.0086399 -0.017279 0.00066442 0.00072716
0.0013879 0.0027594 0.0020275 0.00083636 0.00077139 -0.00046465 -0.0086749 -0.017273
0.057028 0.21223 -0.003481 -0.013735
0.0018701 -0.001394 0.0014074 0.00079373 0.00020681 0.00031607 0.00064921 0.00072344
-0.0034788 -0.013748 0.069071 0.31635
1400000000 0.25158 0.19571 -0.023215 -0.0069514 0.0053392 0.0030776 -0.0021393 0.00063702
0.0023602 0.00098829 0.00037243 -0.0014026
-0.02319 -0.0069728 0.08041 0.35969 -0.014838 0.012553 0.0013645 0.0013563
0.0012474 -0.00084278 0.0012472 0.00022786
0.0053377 0.0030516 -0.014801 0.012639 0.35217 0.06038 0.00018429 -0.00179
-6.6693e-05 -0.00044241 0.00038383 0.00018866
-0.0021442 0.00065714 0.0013722 0.0013504 0.00018713 -0.001776 0.16895 0.20765
-0.014833 -0.010485 -0.0008359 -0.00014697
0.0023375 0.00095926 0.0012421 -0.00085485 -3.387e-05 -0.00042721 -0.014863 -0.010467
0.089612 0.2084 -0.010071 -0.0090871
0.00035781 -0.0014352 0.0012572 0.00022863 0.0004068 0.00015503 -0.00084614 -0.00014244
-0.010076 -0.0091034 0.11458 0.30601
1460000000 0.27429 0.1515 -0.020002 0.005045 0.0057406 -0.0019039 -0.0016059 0.0017654
0.0021458 -0.00042799 -0.00031205 -0.0010404
-0.01999 0.0050168 0.11476 0.33787 -0.0060425 0.015482 0.0017761 0.00015853
0.00087992 -0.0013697 0.0011818 -0.0006047
0.0057236 -0.0019494 -0.0059866 0.015515 0.35822 0.0061554 -0.0013772 -0.0013497
0.0001453 -0.00027961 0.00056503 -0.00035276
-0.0016199 0.0017747 0.0017894 0.00014077 -0.0013633 -0.0013198 0.19504 0.17847
-0.016408 -0.0034283 -0.00082913 0.0022766
0.0021725 -0.00041553 0.00086604 -0.0013632 0.00015011 -0.0002643 -0.016424 -0.0033796
0.11819 0.19421 -0.012057 -0.0028538
-0.00034657 -0.0010496 0.0011709 -0.00059276 0.00058269 -0.00035386 -0.00083739 0.0022702
-0.012064 -0.0028551 0.14799 0.28577
1520000000 0.28633 0.10956 -0.01427 0.010332 0.0033973 -0.0043524 0.00013383 0.0026755
0.0021758 -0.0017057 -0.0011356 -0.00013907
-0.014265 0.010311 0.14836 0.32299 0.0016897 0.013175 0.0016819 -0.00080715
-4.2031e-05 -0.0010689 0.00039396 -0.0010223
0.0033601 -0.0043626 0.0017648 0.013194 0.35166 -0.049908 -0.001262 -0.00033956
0.00062654 -0.00078611 7.62e-05 -0.00012356
0.00014815 0.0026682 0.0016575 -0.00081714 -0.0012749 -0.0003347 0.21805 0.14081
-0.015838 0.0026442 0.0016256 0.0022936
0.0021988 -0.0016926 -4.9265e-05 -0.001068 0.00064351 -0.00080242 -0.015832 0.00269
0.1457 0.18075 -0.011979 0.0016162
-0.0011615 -0.00013496 0.00039388 -0.0010243 9.1595e-05 -0.00015676 0.0016302 0.0022831
-0.011973 0.0016064 0.1819 0.26619
1580000000 0.29542 0.063273 -0.0076863 0.013206 -0.00093329 -0.0050496 0.0014794 0.0019142
-0.00015959 -0.0021221 -0.00038086 0.0004251
-0.0076821 0.013197 0.1757 0.29811 0.0053235 0.0082625 0.00047339 -0.0016403
-0.00062207 -0.0010398 -0.00025364 -0.00081966
-0.00095824 -0.0050776 0.0053874 0.0082414 0.33138 -0.10747 -0.0016673 0.00074227
-0.00029251 -0.0011353 9.9448e-05 -0.00047674
0.0015063 0.0019201 0.00046692 -0.0016558 -0.0016616 0.00075675 0.2318 0.10191
-0.012268 0.0079335 0.0025888 0.00095051
-0.00014209 -0.0021413 -0.00063351 -0.0010327 -0.00030039 -0.001143 -0.012253 0.007979
0.16983 0.16331 -0.0094361 0.0076545
-0.00036752 0.00042718 -0.00026269 -0.00082672 0.00011764 -0.00048347 0.0025779 0.00094279
-0.0094354 0.0076592 0.21499 0.23962
1640000000 0.2972 0.022011 -0.0011235 0.012005 -0.0027974 -0.0027165 0.0028023 0.00092375
-0.00058758 -0.0016826 -0.00022384 0.0006096
-0.0011337 0.012005 0.20521 0.27298 0.0061039 0.0034416 -0.00069733 -0.0017717
-0.0010131 -0.00036776 -0.00044875 -0.00074868
-0.0028164 -0.0027031 0.0061305 0.0034019 0.30338 -0.15676 -0.00057996 0.0015823
-0.0011517 -0.0011129 -0.00010524 -0.00045485
0.0028374 0.00091263 -0.00070714 -0.0017551 -0.00058275 0.0015837 0.24407 0.053688
-0.0077661 0.0095232 0.0027595 -0.00084229
-0.00060807 -0.0016635 -0.001027 -0.00036641 -0.0011501 -0.00114 -0.0077472 0.0095515
0.19199 0.13954 -0.0046539 0.0096556
-0.00022325 0.00061388 -0.000442 -0.00075149 -9.0177e-05 -0.00044834 0.0027605 -0.00084101
-0.004658 0.0096577 0.24084 0.20884
1700000000 0.2896 -0.023385 0.0021164 0.0091285 -0.0036318 3.6233e-05 0.0030688 -0.0013228
-0.0020738 -0.00091674 0.00065599 0.0004172
0.0021009 0.00912 0.22329 0.24126 0.0039692 0.00052405 -0.0015321 -0.00056505
-0.00075754 7.1205e-05 -0.00093414 -0.00050543
-0.003552 5.5069e-05 0.0039987 0.00050867 0.25958 -0.19667 0.00056256 0.0016749
-0.0020627 -0.00020345 -0.00047954 -0.00085989
0.0030545 -0.001331 -0.0015373 -0.00055493 0.00056138 0.0016752 0.24124 0.0047914
-0.0046897 0.010333 0.0016773 -0.0024407
-0.0020849 -0.00088163 -0.00076482 7.6774e-05 -0.0020715 -0.0002157 -0.0046592 0.010348
0.20895 0.11979 0.00017582 0.0099414
0.00068932 0.00039143 -0.00093325 -0.00050531 -0.00047953 -0.0008599 0.0016827 -0.0024372
0.00017006 0.0099389 0.25787 0.17442
1760000000 0.2771 -0.071796 0.0042587 0.0058767 -0.0023978 0.00099921 0.0012376 -0.0035295
-0.0014863 0.00065207 0.00036629 -0.0007083
0.004252 0.0058723 0.24912 0.2012 0.0016698 -0.0013006 -0.0012119 0.00020961
-0.00097669 0.00089047 -0.00063405 0.0003708
-0.0024103 0.0010079 0.0016774 -0.0013002 0.21073 -0.22983 0.0012931 0.00097146
-0.0011986 0.0015502 -0.0013778 -0.00046647
0.0012165 -0.0035491 -0.0012087 0.0002172 0.0013189 0.00097886 0.23278 -0.045932
-0.00099955 0.0096141 -0.00014079 -0.0027642
-0.0014642 0.00064022 -0.00095958 0.00090144 -0.0011797 0.0015661 -0.00097695 0.0096174
0.22344 0.085443 0.0042879 0.007291
0.00037748 -0.00070504 -0.00063938 0.00038712 -0.0014213 -0.00046554 -0.00014637 -0.0027713
0.0042846 0.0072812 0.2708 0.13678
1820000000 0.25227 -0.10889 0.0043114 0.0024239 -0.00015456 0.0024965 -0.0011035 -0.0030346
-0.0012694 0.0010232 -0.00011392 -8.5767e-05
0.0043121 0.0024264 0.25893 0.17097 -0.00035255 -0.00026783 -0.0012929 0.0010114
-3.4489e-05 0.0012666 -0.00060254 0.00055028
-0.00017557 0.0025374 -0.00035205 -0.00025515 0.16086 -0.24566 0.0013673 0.00035028
-0.00019233 0.0024053 -0.0013875 0.00039616
-0.0010981 -0.0030532 -0.0012861 0.0010068 0.0013664 0.00034624 0.20399 -0.092828
0.00090448 0.0079085 -0.0016509 -0.0017712
-0.0012416 0.0010431 -2.2832e-05 0.001261 -0.00018239 0.0023861 0.00093078 0.0079116
0.24045 0.057107 0.0052463 0.0036199
-0.00015534 -5.4317e-05 -0.00061255 0.00054238 -0.0013587 0.00040682 -0.001648 -0.0017479
0.0052487 0.0036114 0.27369 0.10082
1880000000 0.21697 -0.14894 0.0020796 0.00026926 -0.00044839 0.0022096 -0.0030506 -0.0020994
-0.00024058 0.0018296 0.00022285 -0.000424
0.0020917 0.00026677 0.26305 0.12431 -0.0024893 0.0015508 -0.00015911 0.0016721
0.00052563 0.0011528 5.7019e-05 0.0009757
-0.00043304 0.0022223 -0.0025152 0.0015645 0.10828 -0.2554 0.0016666 -0.00093538
0.0015665 0.001967 -0.00096847 0.0013432
-0.003042 -0.0020707 -0.00014946 0.001686 0.0017052 -0.00092965 0.16446 -0.13326
0.0020569 0.0056556 -0.0025789 0.00024928
-0.00021128 0.0018504 0.00053266 0.0011461 0.0015743 0.0019371 0.0020674 0.0056435
0.24353 0.025288 0.0054567 0.0012468
0.00023186 -0.00043685 9.9581e-05 0.00097493 -0.00093445 0.0013108 -0.0025807 0.0002577
0.0054476 0.001248 0.27357 0.066469
1940000000 0.17752 -0.17461 -0.00011691 -0.0013649 0.00142 0.0020887 -0.0037318 0.00061576
0.0013835 0.0011192 -0.00056209 -0.0004435
-0.00012867 -0.0013479 0.2633 0.092476 -0.0013499 0.0038752 0.0010488 0.0012934
0.0017503 0.00048964 0.00083095 0.00039016
0.0014066 0.00211 -0.0013312 0.0039028 0.062117 -0.24863 0.00046967 -0.002026
0.0024284 0.00044164 0.00030521 0.0015654
-0.0036471 0.00063912 0.0010698 0.0012959 0.00048331 -0.002026 0.1129 -0.16457
0.0014727 0.0039497 -0.0015419 0.0014569
0.0014099 0.0011243 0.0017562 0.00047396 0.0024392 0.00044186 0.0014832 0.00394
0.24587 -0.013064 0.0041813 -0.0023641
-0.00062377 -0.00047221 0.00084658 0.00037105 0.00027532 0.0015885 -0.0015177 0.0014546
0.0041789 -0.0023708 0.26286 0.030713
2000000000 0.1311 -0.18893 -0.0039771 0.00080067 0.0025611 0.001781 -0.0022966 0.0035297
0.0011514 8.9223e-05 -0.00065747 0.00030383
-0.0039568 0.00079321 0.24881 0.057134 -0.0011182 0.0058798 0.0015727 0.00037792
0.001305 -0.0013025 0.00061971 0.00019887
0.0025446 0.0017509 -0.001052 0.0059067 0.018568 -0.23382 -0.001214 -0.0012647
0.001979 -0.0011823 0.0016782 0.0012951
-0.0022372 0.0035543 0.0015777 0.00036117 -0.0012293 -0.0012598 0.059371 -0.17536
-0.00025045 0.003168 -0.000204 0.0022215
0.0011164 8.3263e-05 0.0013134 -0.0013205 0.0019844 -0.0011873 -0.00023631 0.0031758
0.24031 -0.04698 0.00068671 -0.0032334
