!Keysight Technologies,M9804A,MY58100912,A.14.10.03
!Date: Thursday, April 27, 2023 10:28:33
!Correction: S11(C  6-Port  ) 
!S12(C  6-Port  ) 
!S13(C  6-Port  ) 
!S14(C  6-Port  ) 
!S15(C  6-Port  ) 
!S16(C  6-Port  ) 
!S21(C  6-Port  ) 
!S22(C  6-Port  ) 
!S23(C  6-Port  ) 
!S24(C  6-Port  ) 
!S25(C  6-Port  ) 
!S26(C  6-Port  ) 
!S31(C  6-Port  ) 
!S32(C  6-Port  ) 
!S33(C  6-Port  ) 
!S34(C  6-Port  ) 
!S35(C  6-Port  ) 
!S36(C  6-Port  ) 
!S41(C  6-Port  ) 
!S42(C  6-Port  ) 
!S43(C  6-Port  ) 
!S44(C  6-Port  ) 
!S45(C  6-Port  ) 
!S46(C  6-Port  ) 
!S51(C  6-Port  ) 
!S52(C  6-Port  ) 
!S53(C  6-Port  ) 
!S54(C  6-Port  ) 
!S55(C  6-Port  ) 
!S56(C  6-Port  ) 
!S61(C  6-Port  ) 
!S62(C  6-Port  ) 
!S63(C  6-Port  ) 
!S64(C  6-Port  ) 
!S65(C  6-Port  ) 
!S66(C  6-Port  ) 
!S6P File: Measurement: :
# Hz S  RI   R 50
500000000 -0.33668 -0.039487 -0.009865 -0.0022492 -0.008068 0.01303 -0.0044774 0.01196
0.012914 0.0047968 -0.0047687 0.0088137
-0.009841 -0.0022447 -0.41965 -0.052165 0.0075762 -0.010385 0.0013872 0.012244
0.0076274 0.0025984 0.001145 0.013272
-0.0080699 0.013043 0.0075819 -0.010449 -0.26634 0.20944 0.0075748 0.0036453
-0.0019793 0.0082241 0.0015271 0.012126
-0.0045038 0.01196 0.0014264 0.012213 0.0075907 0.0036518 -0.3326 0.041997
-0.019379 -0.0066703 0.015427 0.026665
0.012942 0.0048427 0.0076413 0.0024994 -0.0019965 0.0081799 -0.019413 -0.006642
-0.22141 -0.20235 -0.025624 0.0048745
-0.0048349 0.0088124 0.0012613 0.013283 0.001522 0.012078 0.015464 0.026717
-0.025564 0.0050034 -0.26551 -0.13789
560000000 -0.31629 0.12244 -0.024401 -0.063697 0.00052362 0.012212 0.0051937 0.010784
0.010388 0.0056255 0.011297 0.0079335
-0.024333 -0.063618 -0.37866 0.10772 -0.041298 -0.037594 0.013857 0.0039026
-0.012881 -0.0050926 0.0034813 -0.00059087
0.00058395 0.012179 -0.041539 -0.037565 -0.18313 0.25822 -0.00056068 -0.0038294
0.01982 0.0055747 0.0065989 -0.0056895
0.0051831 0.010828 0.01398 0.0038569 -0.00055327 -0.0038239 -0.30763 0.13192
0.0033727 -0.023582 0.004378 -0.021741
0.010351 0.0056477 -0.013139 -0.0051775 0.019803 0.005579 0.0033282 -0.023626
-0.28984 -0.026683 0.0084092 -0.048198
0.011378 0.0078733 0.0034864 -0.0005335 0.0065481 -0.0057138 0.0043426 -0.021728
0.008458 -0.04822 -0.32992 0.011696
620000000 -0.27554 0.10666 -0.023306 0.0082761 0.0037027 0.0090883 0.0083255 -0.0050849
0.0114 -0.00013821 0.0023621 -0.0023155
-0.02327 0.0082672 -0.40302 0.059678 -0.01856 0.00047913 -0.0011844 -0.0019067
0.011587 -0.0062035 0.0017898 -0.0029161
0.003733 0.0090983 -0.018568 0.00053857 -0.15374 0.26706 -0.0010727 -0.0051269
-0.0029364 -0.0026426 0.0085145 -0.0030191
0.0083373 -0.0051275 -0.0011892 -0.0018871 -0.0010704 -0.0051201 -0.26752 0.14368
-0.038199 -0.019494 0.01219 0.02681
0.011503 6.5487e-06 0.011623 -0.006274 -0.0029112 -0.0026632 -0.038186 -0.019445
-0.2081 -0.063607 -0.041913 0.01534
0.002382 -0.0021952 0.0018017 -0.0029051 0.0085854 -0.0030217 0.012262 0.026801
-0.041874 0.015282 -0.24949 -0.02545
680000000 -0.2352 0.19278 -0.0272 -0.013916 0.0050632 0.0050778 0.0014692 -0.0072612
-0.0028846 -0.011356 0.0056981 -0.0070176
-0.027176 -0.013909 -0.38762 0.15812 -0.032359 -0.0012114 -0.0014347 -0.0005715
-0.0019156 -0.0090913 -0.0010722 -0.0016502
0.0050328 0.0050313 -0.032393 -0.0011477 -0.10177 0.28679 -0.00067645 -0.00027526
-0.0015102 0.00026769 -0.0027736 -0.0090251
0.0014629 -0.0072271 -0.0014504 -0.00056718 -0.0006745 -0.00027711 -0.2214 0.19488
-0.024034 -0.0070796 -0.010247 -0.011208
-0.0029305 -0.011231 -0.0019866 -0.0091609 -0.0015281 0.00026143 -0.024075 -0.0070591
-0.26021 0.036667 -0.0054464 -0.0080147
0.0058006 -0.0069392 -0.0010734 -0.0017573 -0.0027327 -0.009102 -0.010272 -0.011261
-0.0055951 -0.0079448 -0.261 0.082825
740000000 -0.19044 0.1877 -0.038363 0.027065 0.012867 -0.0053256 -0.00015339 -0.0044623
-0.0040523 -0.00293 -0.0062784 0.0020598
-0.038341 0.027017 -0.33411 0.17665 -0.035271 0.035298 -0.00084145 -0.0063857
-0.011983 0.0076621 -0.0020757 -0.0064634
0.01286 -0.0053428 -0.035189 0.035413 -0.067852 0.28441 -0.0022137 0.0030511
-0.0022176 -0.0048727 -0.0016675 -0.00011474
-0.00017124 -0.0044411 -0.00085909 -0.0064241 -0.0021941 0.0030712 -0.20471 0.20251
-0.043842 -0.0066807 0.023444 0.015451
-0.0041024 -0.0029906 -0.011975 0.0078254 -0.0021708 -0.0048865 -0.043888 -0.0066474
-0.15838 0.064023 -0.043777 0.00094529
-0.006161 0.002207 -0.002092 -0.0064919 -0.0015598 -9.6143e-05 0.023455 0.015455
-0.043843 0.0010554 -0.24952 0.087906
800000000 -0.15704 0.22779 -0.021993 0.016792 0.0054936 -0.010698 -0.0046078 -0.0022204
-0.0040772 0.0018927 0.0046798 0.00040587
-0.021995 0.016772 -0.33761 0.24643 -0.0076521 0.033786 -0.0024172 0.0021636
-0.00078928 0.0028043 0.0010104 0.0052405
0.0054542 -0.010707 -0.007549 0.033817 -0.027419 0.30739 0.00092997 0.0015392
0.00018763 0.0035635 -0.0015492 0.00078259
-0.00462 -0.0022132 -0.0024022 0.00217 0.00092229 0.0015535 -0.17552 0.23042
-0.02844 0.014524 0.014217 -0.010381
-0.0040556 0.0019463 -0.00077455 0.0028004 0.00024114 0.0035828 -0.028458 0.014581
-0.20636 0.087467 -0.017262 0.019567
0.0046496 0.00034765 0.0010097 0.0052126 -0.0015513 0.00079176 0.014196 -0.01043
-0.017344 0.019583 -0.24552 0.13821
860000000 -0.12243 0.24752 -0.017084 0.030335 -0.0032114 -0.010074 -0.0022888 0.00077865
0.0038069 0.0047539 -0.003222 -0.0029284
-0.017091 0.030306 -0.29017 0.28813 0.0078628 0.033975 -7.5405e-05 0.001895
0.0040822 0.00012161 0.0033933 0.00075297
-0.0032547 -0.010064 0.0079559 0.033987 0.020194 0.31517 -0.00056957 -0.00023539
0.0027556 -0.0015732 0.0014528 0.004343
-0.0022922 0.00074535 -4.498e-05 0.0019071 -0.00057518 -0.00023106 -0.1388 0.24078
-0.017718 0.018782 -0.0060641 -0.0093036
0.0038575 0.0047308 0.0040666 0.00014559 0.0027238 -0.001563 -0.017701 0.018751
-0.15414 0.1391 -0.026022 0.015489
-0.003262 -0.0029164 0.0033399 0.00075868 0.0014747 0.0043623 -0.0061366 -0.009349
-0.026092 0.015463 -0.19372 0.18495
920000000 -0.09809 0.27022 0.0052727 0.037418 -0.0095025 -0.0045552 -0.0018441 0.0017558
0.0010322 0.0018846 0.0027928 -0.0015077
0.0052554 0.037408 -0.26136 0.30936 0.028018 0.021749 0.001445 0.0011413
0.0072213 -0.00044386 0.0039721 -0.0026773
-0.0095217 -0.0045612 0.0281 0.021695 0.066207 0.31596 0.0019143 -6.9842e-05
0.0012017 -0.0003266 0.00080523 -0.0011277
-0.0018674 0.0017614 0.0014619 0.0011379 0.0019108 -6.707e-05 -0.11493 0.25786
-0.010697 0.031277 0.004115 -0.0069049
0.0010049 0.0018947 0.0072694 -0.00046026 0.0011695 -0.00032137 -0.010656 0.031316
-0.14482 0.14514 -0.0028118 0.027447
0.0027716 -0.0015605 0.0040309 -0.0026668 0.00080232 -0.0011204 0.0041308 -0.006876
-0.0027647 0.027445 -0.20341 0.19885
980000000 -0.050749 0.2896 0.017463 0.029633 -0.0091242 0.0045055 0.0019958 0.0034064
0.0039023 -0.0012486 -0.0032983 -0.0020711
0.017426 0.029631 -0.20868 0.34301 0.032951 0.0047668 0.0021365 -2.724e-05
0.0016089 -0.0057759 -0.00023724 -0.002474
-0.0091013 0.0045313 0.032966 0.0046671 0.11236 0.30945 0.00052513 -0.0011427
0.00025063 -0.0020582 0.0013529 -0.00020442
0.0020114 0.003402 0.0021408 -2.0378e-05 0.00052503 -0.0011437 -0.076507 0.26872
0.0083328 0.030426 -0.0091077 -0.0075133
0.0038578 -0.001249 0.0015755 -0.005793 0.00023548 -0.0020589 0.008393 0.030429
-0.11336 0.17433 0.0048582 0.019617
-0.00332 -0.0021168 -0.0002158 -0.0024491 0.0013274 -0.00021131 -0.0091344 -0.0074818
0.0048436 0.01956 -0.16135 0.24468
1040000000 -0.0088599 0.29797 0.032988 0.017873 -0.0014244 0.0068359 0.0023965 0.00074109
0.00011544 -0.0036512 -0.00032067 -0.0014677
0.03295 0.017903 -0.17327 0.35604 0.029289 -0.014938 0.0014724 -0.0017111
-0.0024585 -0.0027005 -0.0012697 -0.0025997
-0.0013726 0.0068295 0.029242 -0.01502 0.15835 0.29588 -0.00053297 -0.0015915
-0.0015917 -0.00089788 -0.00050317 -0.00099025
0.0023957 0.00072056 0.0014862 -0.0017182 -0.00052658 -0.0015808 -0.049532 0.27895
0.019928 0.018374 -0.0022077 0.0010843
7.442e-05 -0.0036524 -0.0024375 -0.0027246 -0.0015871 -0.00087421 0.019983 0.01836
-0.080913 0.18117 0.013483 0.018717
-0.00036217 -0.0014549 -0.001283 -0.0025935 -0.00049913 -0.00099694 -0.002206 0.0010566
0.01345 0.018722 -0.1407 0.26488
1100000000 0.036266 0.3057 0.035497 -0.0044355 0.0026886 0.0038597 0.0022719 -0.0011919
-0.0019245 -0.0031622 -0.0039792 0.00012971
0.035468 -0.0044077 -0.13006 0.37317 0.015046 -0.027868 -5.0307e-05 -0.0018224
-0.0034385 -0.00091876 -0.0035996 -0.00044881
0.0027055 0.0038561 0.014949 -0.027936 0.20487 0.27552 -0.0019149 0.0002063
-0.0018683 0.00051698 -0.0011118 -0.00023043
0.0022753 -0.0012091 -3.9684e-05 -0.0018269 -0.0019085 0.00021693 -0.0092244 0.28389
0.025468 0.0050554 -0.0027481 -0.00025589
-0.0019581 -0.0031548 -0.0034551 -0.00090464 -0.0018831 0.00052826 0.025486 0.0050165
-0.063146 0.19478 0.019226 0.0087277
-0.0039656 0.00010753 -0.003576 -0.0004482 -0.0011174 -0.00021522 -0.0027339 -0.00024078
0.019201 0.0086924 -0.095031 0.29628
1160000000 0.087565 0.3007 0.023619 -0.020818 0.0024565 -0.00042857 -0.00023071 -0.0022271
-0.0040313 -0.00079218 -0.00096993 0.0041685
0.023615 -0.020776 -0.086611 0.37754 -0.0038645 -0.029119 -0.0017464 -0.0017235
-0.0028485 0.0024778 -0.0014134 0.0018762
0.0024804 -0.00045035 -0.0039981 -0.029122 0.24789 0.24461 -0.00073349 0.0017697
-0.00064097 0.0020286 -0.00076188 0.00033119
-0.00023039 -0.0022281 -0.0017422 -0.0017166 -0.00073911 0.0017725 0.029869 0.28137
0.021802 -0.010808 -0.0031891 0.0049949
-0.004046 -0.00079866 -0.0028252 0.0025078 -0.00064591 0.0020377 0.021804 -0.010838
-0.029914 0.20361 0.018477 0.00067966
-0.00095882 0.0041585 -0.0013728 0.0018712 -0.00074463 0.0003253 -0.0031739 0.004991
0.018435 0.0006806 -0.048072 0.29935
1220000000 0.13187 0.28968 0.0099874 -0.02991 -0.0016723 -0.0006243 0.00011391 -0.00092265
-0.0026596 0.002345 0.0013692 0.0020904
0.0099971 -0.029874 -0.042341 0.3896 -0.016985 -0.021078 -0.0025497 0.00041124
-1.6432e-05 0.0031407 -0.00073214 0.0019101
-0.0016637 -0.00061139 -0.017094 -0.021019 0.28697 0.20546 0.00079587 0.0017113
0.00065246 0.0012568 0.00044511 0.00066082
0.00011498 -0.00089822 -0.0025546 0.00043086 0.00079781 0.0017231 0.069838 0.27316
0.010958 -0.017801 0.0017476 0.0014652
-0.0026596 0.0023322 1.3236e-06 0.0031263 0.000647 0.0012578 0.010921 -0.017792
-0.0083126 0.21254 0.014463 -0.012861
0.0013666 0.0020367 -0.00073549 0.0019015 0.00042372 0.00068755 0.0017417 0.0014606
0.014452 -0.012903 -0.017532 0.31697
1280000000 0.18149 0.26766 -0.0082374 -0.028154 -0.0018048 0.0026841 -0.00085322 -0.0020567
-0.00090453 0.003031 0.0025085 0.0012181
-0.0082103 -0.028128 0.0035189 0.38084 -0.02386 -0.0084432 -0.0010068 0.0014821
0.0017093 0.0019064 0.00070235 0.0021025
-0.0017924 0.0026733 -0.023933 -0.0083523 0.31724 0.16152 0.0016664 4.785e-05
0.0012186 0.0002842 0.00051159 0.00024657
-0.00085485 -0.0020542 -0.0010103 0.0014832 0.001676 5.096e-05 0.10682 0.25682
0.001243 -0.020028 -0.00038119 0.00020371
-0.00089156 0.0030289 0.0017237 0.0018971 0.0012278 0.00027174 0.0011988 -0.020029
0.027911 0.21643 0.0032966 -0.015182
0.0025192 0.0011853 0.00069225 0.0020955 0.00053488 0.00022199 -0.00038678 0.00021142
0.00331 -0.015169 0.030826 0.31998
1340000000 0.21857 0.23386 -0.017736 -0.018487 0.0011003 0.0046258 -0.0017699 -0.00087121
0.0014364 0.0027547 0.0018576 -0.0013607
-0.017707 -0.018482 0.043065 0.37266 -0.021663 0.0043677 -0.00014066 0.0020714
0.002026 0.00082576 0.0013962 0.0008027
0.0011205 0.0046245 -0.02167 0.0044891 0.33903 0.11369 0.001257 -0.00096948
0.00076391 -0.00047804 0.00020302 0.00029129
-0.0017656 -0.0008694 -0.00013164 0.0020601 0.0012592 -0.00095485 0.13938 0.23649
-0.0086389 -0.017288 0.00066681 0.000735
0.0014571 0.0027602 0.0020444 0.00081462 0.00076182 -0.00047999 -0.0086794 -0.017289
0.057005 0.21223 -0.0034574 -0.013736
0.0018617 -0.0013704 0.0013888 0.00078576 0.00021315 0.00030885 0.00067426 0.00070955
-0.0034625 -0.013748 0.069033 0.3164
1400000000 0.25159 0.1957 -0.023225 -0.006988 0.0053132 0.0030704 -0.0021379 0.0006184
0.0023539 0.000991 0.00037321 -0.0014043
-0.023185 -0.0069951 0.080404 0.3597 -0.014845 0.012535 0.0013652 0.0013545
0.0012305 -0.00084017 0.0012715 0.00023771
0.0053199 0.0030341 -0.014799 0.01263 0.35216 0.060388 0.00017746 -0.0017815
-5.2838e-05 -0.00043223 0.00040456 0.00018035
-0.0021279 0.00063759 0.0013686 0.0013526 0.00018388 -0.0017877 0.16896 0.20766
-0.014843 -0.010496 -0.00085592 -0.00014578
0.0023494 0.0009793 0.0012384 -0.00085306 -5.6124e-05 -0.00043439 -0.014858 -0.010459
0.089528 0.20839 -0.010088 -0.0091046
0.00035988 -0.0014015 0.001261 0.00021659 0.00039754 0.00018586 -0.00084856 -0.00014007
-0.010085 -0.0091265 0.1145 0.30598
1460000000 0.27422 0.1515 -0.019987 0.0050492 0.0057347 -0.0019098 -0.0016099 0.0017653
0.0021487 -0.00043916 -0.0003202 -0.0010508
-0.019967 0.0050213 0.11473 0.33788 -0.0060369 0.015488 0.0017816 0.0001556
0.00087353 -0.001373 0.0011818 -0.00061056
0.0057374 -0.0019368 -0.0059702 0.015521 0.35821 0.0061674 -0.0013663 -0.0013466
0.00014201 -0.00029872 0.00055834 -0.00034548
-0.0016048 0.001776 0.0017886 0.00014772 -0.0013672 -0.0013497 0.19502 0.17849
-0.016417 -0.0034231 -0.00083734 0.002278
0.0021349 -0.00043056 0.00086449 -0.0013715 0.00013249 -0.00030287 -0.01643 -0.0033861
0.11814 0.19422 -0.012074 -0.0028615
-0.00034269 -0.0010546 0.0011634 -0.0006189 0.00058176 -0.0003535 -0.00083906 0.0022744
-0.012065 -0.0028792 0.14801 0.28575
1520000000 0.28629 0.10959 -0.014273 0.010328 0.0033909 -0.0043638 0.00012727 0.0026821
0.0021965 -0.0016966 -0.0011497 -0.00015066
-0.014267 0.010311 0.14834 0.32302 0.0016939 0.013179 0.001671 -0.00081172
-3.4156e-05 -0.0010781 0.00039779 -0.00101
0.0033741 -0.0043764 0.0017641 0.013177 0.35164 -0.049866 -0.0012563 -0.00034248
0.0006304 -0.00078562 6.8037e-05 -0.00012038
0.00012825 0.0026806 0.0016744 -0.00082335 -0.0012601 -0.0003381 0.21805 0.14082
-0.015842 0.0026532 0.0016227 0.0022815
0.0021865 -0.0017051 -2.9485e-05 -0.001077 0.00063577 -0.00079786 -0.015848 0.0026845
0.14565 0.18075 -0.01197 0.00161
-0.0011652 -0.00015086 0.00039341 -0.0010197 7.137e-05 -0.00012752 0.001624 0.0022882
-0.011994 0.0016044 0.18191 0.26616
1580000000 0.29541 0.063284 -0.0076773 0.013202 -0.00094161 -0.0050695 0.0014883 0.0019245
-0.00015461 -0.0021297 -0.00036817 0.00043112
-0.0076822 0.013183 0.17569 0.29812 0.0053154 0.008262 0.00046587 -0.001647
-0.00062342 -0.0010498 -0.00025133 -0.00082745
-0.000966 -0.0050675 0.0053834 0.0082384 0.33137 -0.10746 -0.0016604 0.00075158
-0.00030453 -0.0011487 0.00011989 -0.00050068
0.0014981 0.0019264 0.00045664 -0.0016458 -0.0016642 0.00075374 0.23179 0.10192
-0.012276 0.0079394 0.0025763 0.00095319
-0.00016335 -0.0021393 -0.00064432 -0.0010461 -0.00031051 -0.0011412 -0.012269 0.0079853
0.16978 0.16335 -0.0094448 0.007663
-0.00038198 0.00042662 -0.00025986 -0.00083287 0.00010545 -0.00047637 0.0025781 0.00094988
-0.0094525 0.0076618 0.21493 0.23964
1640000000 0.29717 0.02201 -0.0011232 0.012003 -0.0028184 -0.0027049 0.0028098 0.00093006
-0.00059408 -0.001677 -0.00021463 0.00061156
-0.0011382 0.012001 0.20521 0.27299 0.00609 0.0034161 -0.00069422 -0.0017559
-0.0010168 -0.00035771 -0.00044378 -0.00074476
-0.0028275 -0.0027007 0.0061025 0.003406 0.30343 -0.15681 -0.00059134 0.0015873
-0.0011311 -0.0011176 -9.8289e-05 -0.0004401
0.0028227 0.00092351 -0.00070697 -0.001759 -0.00059123 0.0015923 0.24407 0.053723
-0.0077605 0.0095199 0.0027721 -0.00082895
-0.00060027 -0.001683 -0.0010209 -0.00035372 -0.0011327 -0.0011098 -0.0077452 0.0095501
0.19203 0.13955 -0.0046724 0.0096665
-0.00020218 0.00061292 -0.00045533 -0.00074334 -0.00010353 -0.00048502 0.0027624 -0.00084478
-0.0046812 0.0096703 0.24083 0.20883
1700000000 0.28957 -0.023345 0.0021049 0.009112 -0.0036136 3.6669e-05 0.0030685 -0.00133
-0.0020747 -0.00091668 0.00065917 0.00041407
0.0020936 0.0091205 0.22326 0.24125 0.0039867 0.0005156 -0.0015297 -0.00056764
-0.0007523 7.1073e-05 -0.00092172 -0.00050523
-0.0036187 3.7853e-05 0.0039999 0.00049732 0.2596 -0.19664 0.00056122 0.0016832
-0.0020303 -0.00021021 -0.00046425 -0.0008751
0.0030675 -0.0013601 -0.0015342 -0.00055184 0.00056145 0.0016686 0.24125 0.0047821
-0.004678 0.010339 0.0016764 -0.00244
-0.0020817 -0.00090995 -0.00075265 7.1844e-05 -0.002039 -0.0001944 -0.0046583 0.01036
0.20898 0.1198 0.00016344 0.0099256
0.00068065 0.00041078 -0.0009368 -0.0004859 -0.00047659 -0.00086396 0.0016702 -0.0024464
0.00015741 0.0099243 0.25784 0.1744
1760000000 0.27711 -0.071738 0.0042366 0.005888 -0.002422 0.00096746 0.0012294 -0.0035236
-0.0014763 0.0006435 0.0003731 -0.00071051
0.004226 0.0058801 0.2491 0.20121 0.0016711 -0.0013057 -0.0012121 0.0002086
-0.00096979 0.00088422 -0.00062873 0.00037445
-0.0024252 0.0010082 0.0016516 -0.0013083 0.21078 -0.22985 0.0013157 0.00097009
-0.0011927 0.0015565 -0.001377 -0.00048558
0.0012118 -0.0035366 -0.0012054 0.00021472 0.001322 0.00095765 0.23277 -0.04591
-0.00099333 0.0096241 -0.00013427 -0.0027704
-0.0014762 0.00067365 -0.0009704 0.00090788 -0.0011925 0.0015534 -0.00097907 0.0096319
0.22348 0.085423 0.0042819 0.0072768
0.00036183 -0.00069322 -0.0006375 0.00038461 -0.0013804 -0.00048108 -0.00013636 -0.0027683
0.0042994 0.0072848 0.27081 0.13676
1820000000 0.25226 -0.10886 0.0043215 0.002428 -0.00016703 0.0025103 -0.0011246 -0.0030367
-0.0012688 0.0010361 -0.00011769 -8.5281e-05
0.0043121 0.002436 0.25891 0.17096 -0.00034672 -0.00026077 -0.0013067 0.0009953
-2.9152e-05 0.0012642 -0.00059611 0.0005442
-0.00016667 0.002507 -0.00034301 -0.00027254 0.16082 -0.24569 0.0013668 0.00036771
-0.0001869 0.0024048 -0.0013551 0.00039091
-0.0011302 -0.0030383 -0.0012898 0.0010029 0.0013695 0.00035653 0.204 -0.092799
0.00091399 0.0079014 -0.0016577 -0.0017648
-0.00126 0.0010577 -1.129e-05 0.001266 -0.0001656 0.0024106 0.00093727 0.0079024
0.2405 0.057103 0.0052758 0.0036256
-0.00011255 -8.8269e-05 -0.00059599 0.00055437 -0.0013611 0.00038669 -0.0016549 -0.0017439
0.0052617 0.003636 0.27367 0.10084
1880000000 0.21696 -0.14895 0.0020812 0.0002467 -0.00042788 0.0022303 -0.0030489 -0.0021103
-0.00022649 0.0018264 0.00022227 -0.00042486
0.0020879 0.00025465 0.26302 0.12434 -0.0024987 0.0015393 -0.00015684 0.0016727
0.00052515 0.0011506 5.8822e-05 0.00097266
-0.00042697 0.0022231 -0.002504 0.0015646 0.10827 -0.25537 0.0016833 -0.00095471
0.0015694 0.0019623 -0.00096808 0.0013303
-0.0030642 -0.0020937 -0.00014346 0.0016706 0.0016822 -0.00094159 0.16446 -0.13326
0.0020492 0.0056582 -0.0025859 0.00024818
-0.0001964 0.0018393 0.00053596 0.0011466 0.0015577 0.0019604 0.0020715 0.0056586
0.24352 0.025313 0.005447 0.0012633
0.00021724 -0.00044258 7.2598e-05 0.00097829 -0.00095874 0.0013622 -0.0025751 0.0002583
0.0054481 0.0012645 0.27356 0.066499
1940000000 0.1775 -0.17457 -0.00013448 -0.001336 0.0014055 0.002082 -0.0037242 0.00064011
0.0013827 0.0011081 -0.00054192 -0.00044239
-0.00013042 -0.0013343 0.26329 0.092493 -0.0013416 0.0038678 0.0010497 0.0013002
0.0017562 0.00048772 0.00084403 0.00039131
0.0014198 0.0020611 -0.0013162 0.0038877 0.062075 -0.24866 0.00045622 -0.0020063
0.0024421 0.00042944 0.00026703 0.0016089
-0.0037278 0.00065211 0.0010523 0.0013036 0.00046319 -0.0020185 0.11291 -0.16455
0.0014696 0.0039453 -0.0015408 0.0014546
0.0013957 0.0010858 0.0017588 0.00047233 0.0024296 0.00041595 0.0014844 0.003938
0.24586 -0.013052 0.0042003 -0.0023747
-0.0005737 -0.00043105 0.00082983 0.0003847 0.00030043 0.0016015 -0.0015269 0.0014587
0.0041896 -0.0023551 0.26286 0.030694
2000000000 0.13106 -0.18889 -0.0039677 0.00082518 0.0025725 0.0017357 -0.0023249 0.0035161
0.0011592 7.5268e-05 -0.0006441 0.00029586
-0.0039607 0.00081348 0.24879 0.057165 -0.0011079 0.0058857 0.0015553 0.00035373
0.0013156 -0.0012975 0.00061586 0.00020938
0.0025872 0.001726 -0.0010589 0.0058937 0.018575 -0.2338 -0.0012197 -0.0012801
0.0019737 -0.0011948 0.001659 0.0012646
-0.0022892 0.0035325 0.0015572 0.00036244 -0.0012295 -0.0012706 0.059409 -0.17536
-0.00025848 0.0031744 -0.00019189 0.0022034
0.0011632 6.7168e-05 0.0012986 -0.0013059 0.0019701 -0.0011936 -0.00024955 0.0031803
0.24031 -0.046962 0.0006955 -0.0032426
