!Keysight Technologies,M9804A,MY58100912,A.14.10.03
!Date: Thursday, April 27, 2023 10:28:33
!Correction: S11(C  6-Port  ) 
!S12(C  6-Port  ) 
!S13(C  6-Port  ) 
!S14(C  6-Port  ) 
!S15(C  6-Port  ) 
!S16(C  6-Port  ) 
!S21(C  6-Port  ) 
!S22(C  6-Port  ) 
!S23(C  6-Port  ) 
!S24(C  6-Port  ) 
!S25(C  6-Port  ) 
!S26(C  6-Port  ) 
!S31(C  6-Port  ) 
!S32(C  6-Port  ) 
!S33(C  6-Port  ) 
!S34(C  6-Port  ) 
!S35(C  6-Port  ) 
!S36(C  6-Port  ) 
!S41(C  6-Port  ) 
!S42(C  6-Port  ) 
!S43(C  6-Port  ) 
!S44(C  6-Port  ) 
!S45(C  6-Port  ) 
!S46(C  6-Port  ) 
!S51(C  6-Port  ) 
!S52(C  6-Port  ) 
!S53(C  6-Port  ) 
!S54(C  6-Port  ) 
!S55(C  6-Port  ) 
!S56(C  6-Port  ) 
!S61(C  6-Port  ) 
!S62(C  6-Port  ) 
!S63(C  6-Port  ) 
!S64(C  6-Port  ) 
!S65(C  6-Port  ) 
!S66(C  6-Port  ) 
!S6P File: Measurement: :
# Hz S  RI   R 50
500000000 -0.3343 -0.053712 -0.0096696 -0.00043551 -0.0082621 0.013064 -0.0025407 0.011602
0.013065 0.0059053 -0.0028755 0.0079886
-0.0097336 -0.00037221 -0.41581 -0.06436 0.0081479 -0.010685 0.0016918 0.011366
0.008665 0.003263 0.0012947 0.013116
-0.0082105 0.013137 0.0081206 -0.010631 -0.26739 0.19846 0.0066713 0.0031514
-0.0011104 0.0082474 0.00062959 0.011745
-0.0030596 0.011735 0.0016774 0.011461 0.0066907 0.0030858 -0.33051 0.042049
-0.019123 -0.0037835 0.018062 0.026492
0.012796 0.0051723 0.0083065 0.0031448 -0.00099084 0.0084132 -0.019074 -0.0036207
-0.24613 -0.19945 -0.027196 0.0063092
-0.002564 0.0081088 0.0018486 0.013219 0.00049577 0.011469 0.018196 0.025126
-0.027878 0.0064369 -0.26888 -0.12297
560000000 -0.31911 0.11205 -0.023685 -0.06407 -2.0106e-05 0.012392 0.0053746 0.011262
0.010965 0.0037644 0.009963 0.0076315
-0.023607 -0.063787 -0.37539 0.097488 -0.041175 -0.038019 0.013245 0.0026238
-0.013505 -0.0039107 0.0046673 -0.00051986
8.2337e-05 0.012342 -0.041294 -0.037936 -0.18642 0.25096 -0.00037921 -0.0044899
0.01822 0.0054627 0.0076002 -0.0059116
0.0052953 0.011235 0.013477 0.0024324 -0.00034604 -0.0043916 -0.30634 0.13355
0.0058818 -0.024494 0.0062026 -0.021061
0.010872 0.0034849 -0.013957 -0.0041929 0.018734 0.0056816 0.0054093 -0.024125
-0.30922 -0.019759 0.0090308 -0.047915
0.010199 0.0079894 0.0042283 -0.00036363 0.0072258 -0.0062043 0.0066364 -0.020911
0.010872 -0.048285 -0.3335 0.02174
620000000 -0.27679 0.091916 -0.022657 0.0083519 0.0042565 0.0090011 0.0085273 -0.0040191
0.01243 -0.0015324 0.0009687 -0.0025171
-0.02269 0.0084752 -0.40313 0.047384 -0.018161 0.00043825 -0.0014926 -0.0019384
0.011973 -0.0060184 0.0012111 -0.0029482
0.0042665 0.0091082 -0.018175 0.00045205 -0.15568 0.25934 -0.0006153 -0.0050092
-0.0033868 -0.0031982 0.0088848 -0.0029437
0.0085349 -0.004325 -0.0014014 -0.0019237 -0.00073116 -0.0050135 -0.26547 0.14498
-0.037542 -0.019959 0.012688 0.027087
0.01225 -0.0013924 0.012065 -0.006383 -0.0032754 -0.0033272 -0.038168 -0.019604
-0.23231 -0.05149 -0.041592 0.012238
0.00076106 -0.0029087 0.0011032 -0.0028529 0.0088726 -0.0032923 0.013637 0.027271
-0.041032 0.012106 -0.25271 -0.010185
680000000 -0.23895 0.18257 -0.026048 -0.014738 0.0048853 0.0054857 0.0010509 -0.0076305
-0.0029245 -0.011504 0.0047721 -0.0059346
-0.025984 -0.014784 -0.39003 0.14873 -0.03225 -0.0020339 -0.0015191 -0.00037381
-0.0019307 -0.0096093 -0.000854 -0.0015089
0.0049758 0.0053919 -0.032207 -0.0019429 -0.1043 0.28031 -0.00084891 -0.00011284
-0.0017782 0.000188 -0.0026427 -0.008633
0.0010483 -0.0074302 -0.0014699 -0.00038171 -0.00079266 -6.7539e-05 -0.22017 0.19684
-0.022652 -0.0080942 -0.0097017 -0.011449
-0.0024242 -0.011726 -0.0018808 -0.0095077 -0.001905 0.00039552 -0.022903 -0.0078629
-0.2789 0.051396 -0.0068631 -0.0077872
0.0058104 -0.0063346 -0.00041503 -0.0014132 -0.0022946 -0.0084435 -0.0092986 -0.011636
-0.0066518 -0.0068776 -0.25974 0.09241
740000000 -0.19405 0.17583 -0.039508 0.027118 0.013357 -0.0049153 -0.00032177 -0.0043132
-0.0047229 -0.0024395 -0.0069179 0.0024823
-0.039581 0.026523 -0.33596 0.16725 -0.036791 0.034871 0.00017474 -0.0059912
-0.011928 0.0073771 -0.00061203 -0.0052683
0.013285 -0.004728 -0.036564 0.035045 -0.070706 0.27771 -0.0018267 0.0032915
-0.0030127 -0.0055037 -0.001649 0.0010044
-0.00058019 -0.004536 0.00020266 -0.0061055 -0.0018384 0.0033431 -0.20358 0.20357
-0.042659 -0.006823 0.022511 0.014659
-0.0043707 -0.0027022 -0.012392 0.0075063 -0.0029244 -0.005769 -0.0428 -0.0068154
-0.17792 0.077981 -0.044167 0.00095058
-0.0066991 0.0027 -0.00036715 -0.0061367 -0.0017013 0.0011889 0.022681 0.014862
-0.043394 0.0010386 -0.24708 0.097492
800000000 -0.1624 0.22001 -0.022667 0.016442 0.0058286 -0.010414 -0.0047499 -0.002044
-0.004166 0.0022259 0.0044764 0.00067055
-0.02261 0.016397 -0.3419 0.23854 -0.0085728 0.034064 -0.0022769 0.0021286
-0.0011322 0.0028912 0.0010342 0.0055372
0.0058685 -0.010332 -0.0085132 0.034151 -0.031571 0.30167 0.00092262 0.0016094
-0.00015543 0.0036203 -0.0016205 0.00086928
-0.0046844 -0.0020927 -0.0023175 0.0021561 0.00092442 0.0016033 -0.17445 0.23131
-0.028456 0.012846 0.01391 -0.010229
-0.004371 0.0022401 -0.0010903 0.0028796 -5.7577e-05 0.0036483 -0.028662 0.012831
-0.22278 0.10758 -0.017815 0.019628
0.0046109 0.00068914 0.0010335 0.0054146 -0.0014832 0.00078974 0.013742 -0.010025
-0.017353 0.019508 -0.24128 0.14824
860000000 -0.12821 0.24037 -0.018174 0.030568 -0.0030052 -0.010175 -0.0022852 0.00020724
0.0039876 0.0046926 -0.0038158 -0.0026793
-0.018179 0.030463 -0.29352 0.28102 0.0072426 0.034411 -0.00017109 0.0018989
0.0032587 -2.3164e-05 0.0030034 0.000849
-0.0030872 -0.010107 0.0073327 0.034388 0.016056 0.31012 -0.00087075 -0.00024666
0.0024765 -0.0016497 0.001196 0.0044954
-0.002161 0.00027396 -0.0002312 0.0018897 -0.00087112 -0.00028402 -0.13754 0.24195
-0.018601 0.017694 -0.0070426 -0.0087576
0.0037908 0.0047323 0.0032413 5.4948e-05 0.0024338 -0.0016429 -0.018599 0.017627
-0.16631 0.1576 -0.024611 0.016892
-0.0035435 -0.0025612 0.0034097 0.0010205 0.0012555 0.0045822 -0.0070856 -0.0087357
-0.02415 0.017293 -0.19218 0.19343
920000000 -0.10449 0.26316 0.0044947 0.038406 -0.0092999 -0.0049227 -0.0019615 0.001919
0.0013763 0.0020403 0.0031018 -0.0015126
0.004444 0.038324 -0.26622 0.30228 0.027919 0.022935 0.0014586 0.001311
0.0074904 -0.0003043 0.0042795 -0.0025858
-0.009314 -0.0048638 0.028064 0.022802 0.061257 0.31139 0.0019756 -1.7656e-05
0.001025 -8.7119e-05 0.00099501 -0.0012734
-0.0020155 0.001841 0.0014948 0.0012548 0.0019678 1.9459e-06 -0.11341 0.25874
-0.011068 0.030693 0.0036789 -0.0068332
0.0012938 0.002115 0.0075116 -0.00028 0.0010197 -5.5053e-05 -0.011265 0.030667
-0.15627 0.16492 -0.0020173 0.027305
0.0028963 -0.0014226 0.004217 -0.0026777 0.00098414 -0.0012391 0.0035649 -0.006875
-0.0016973 0.027564 -0.19744 0.20617
980000000 -0.057866 0.28446 0.016728 0.03042 -0.0092898 0.0042492 0.0018047 0.0037878
0.0040652 -0.0013896 -0.0028559 -0.0024092
0.016695 0.030354 -0.2131 0.33761 0.033226 0.005632 0.002171 5.8472e-05
0.0017356 -0.0057607 0.00013451 -0.0022555
-0.009315 0.0042899 0.033336 0.0055206 0.10702 0.3058 0.00071356 -0.0010731
0.00056728 -0.0019819 0.0016025 -0.00019951
0.0018214 0.0037126 0.0021906 4.8952e-05 0.000731 -0.0011065 -0.075207 0.2701
0.0072069 0.030425 -0.0090877 -0.0071346
0.0041006 -0.0014016 0.0016772 -0.0057068 0.00050958 -0.0019315 0.0072698 0.030389
-0.12245 0.19456 0.0058108 0.019361
-0.0028885 -0.0022676 1.3253e-07 -0.0022896 0.0015629 -9.2645e-05 -0.0090549 -0.0070924
0.0056868 0.019385 -0.15657 0.2509
1040000000 -0.016756 0.29349 0.032894 0.019365 -0.0014964 0.0070571 0.00283 0.00095046
0.00050892 -0.0034883 -0.00024754 -0.0015284
0.0328 0.019401 -0.17814 0.35101 0.030067 -0.014234 0.0017298 -0.0016536
-0.0021421 -0.0026617 -0.00084761 -0.0029316
-0.0015062 0.0070556 0.030055 -0.014371 0.15273 0.29293 -0.00045747 -0.0015809
-0.0016293 -0.00096197 -0.00050744 -0.0011382
0.0028225 0.00096356 0.0017383 -0.001632 -0.00046155 -0.0015934 -0.047526 0.27951
0.019076 0.019085 -0.0023004 0.0010618
0.00046348 -0.0035135 -0.0022271 -0.0026197 -0.0015925 -0.00096986 0.019126 0.019012
-0.089207 0.20185 0.013865 0.018359
-0.00016101 -0.0016127 -0.00086468 -0.0029073 -0.00048968 -0.0010876 -0.0021773 0.0011528
0.013586 0.018223 -0.13285 0.27078
1100000000 0.028178 0.30247 0.036323 -0.0032169 0.0028372 0.0041117 0.0023687 -0.0011469
-0.0022692 -0.0031162 -0.00407 -0.0001657
0.036243 -0.0032156 -0.13519 0.36926 0.016114 -0.027706 -2.3603e-05 -0.0018528
-0.0036164 -0.0010236 -0.0035711 -0.00063732
0.0028371 0.0041057 0.016023 -0.027844 0.19862 0.27383 -0.0018878 6.1249e-05
-0.0017697 0.00046375 -0.00099154 -0.00041115
0.0024208 -0.0011769 -9.8547e-06 -0.0018494 -0.0018878 6.574e-05 -0.0078149 0.28491
0.024866 0.0058365 -0.002411 -7.8341e-05
-0.0023659 -0.0030122 -0.0036948 -0.0010259 -0.0018008 0.00047631 0.024923 0.0057411
-0.068356 0.21446 0.019228 0.0085943
-0.0039622 -0.00015499 -0.0034834 -0.00056885 -0.001034 -0.0004828 -0.0023675 -7.0235e-05
0.01913 0.008421 -0.087569 0.29987
1160000000 0.079565 0.2989 0.024709 -0.020172 0.0028047 -0.00039112 -2.7384e-06 -0.0024388
-0.0040248 -0.00073469 -0.0012931 0.0041391
0.024685 -0.020216 -0.091923 0.37381 -0.0030033 -0.029477 -0.0016108 -0.0017414
-0.0029186 0.0025486 -0.0016926 0.0017243
0.0028007 -0.00041867 -0.0031501 -0.029495 0.24198 0.24415 -0.00090797 0.0017499
-0.00061455 0.0019223 -0.00096983 0.0003594
-1.2859e-05 -0.0023714 -0.0015982 -0.0017392 -0.00089318 0.0017374 0.031658 0.28245
0.0212 -0.0099381 -0.0032282 0.0052134
-0.0039449 -0.00073853 -0.0029065 0.0026219 -0.00058733 0.0019184 0.021171 -0.0099365
-0.033561 0.22229 0.018026 -0.00016825
-0.0011879 0.0040737 -0.0016185 0.0018758 -0.00093527 0.00036005 -0.0032105 0.0051789
0.0181 -0.00030873 -0.040479 0.30317
1220000000 0.12354 0.28897 0.011465 -0.029905 -0.0015545 -0.0010032 -2.4579e-05 -0.00088568
-0.0027814 0.0022501 0.0010122 0.0020886
0.011471 -0.029871 -0.048006 0.38719 -0.016682 -0.022046 -0.0026534 0.00047613
-2.3566e-05 0.0031563 -0.00089104 0.0019703
-0.0015406 -0.0010023 -0.0168 -0.022 0.28127 0.20597 0.00074199 0.0017329
0.00062683 0.0012908 0.000285 0.00061008
-7.0555e-05 -0.00088254 -0.0026529 0.00048921 0.0007207 0.0017485 0.071476 0.27409
0.011233 -0.016895 0.0020713 0.0015501
-0.0027606 0.0023042 -5.6203e-06 0.003151 0.00060935 0.0012568 0.011234 -0.016953
-0.0098222 0.23082 0.013829 -0.012925
0.0010037 0.0020454 -0.00091877 0.0019987 0.00026704 0.00063758 0.002142 0.0015
0.013835 -0.012805 -0.0092245 0.31832
1280000000 0.17393 0.26856 -0.0071825 -0.028849 -0.0019668 0.0024706 -0.00080881 -0.0020067
-0.00078154 0.0031146 0.0025555 0.0013358
-0.0071636 -0.028809 -0.0021006 0.37913 -0.024 -0.0092036 -0.00096838 0.0014216
0.0017094 0.0017611 0.00063422 0.0020439
-0.0019653 0.0024525 -0.024075 -0.0091096 0.31244 0.16287 0.0015237 5.5579e-05
0.0012624 0.000276 0.00042876 0.00020398
-0.00084321 -0.0020028 -0.00097578 0.0014237 0.0015316 5.9943e-05 0.10881 0.25828
0.0014787 -0.019358 -5.4209e-05 0.00022109
-0.00076501 0.0030929 0.0017258 0.0017729 0.0012438 0.00028986 0.0014528 -0.019353
0.026785 0.23419 0.0032308 -0.015186
0.002505 0.0013451 0.00058184 0.0020381 0.00044142 0.00026316 -6.5784e-05 0.00029544
0.0030703 -0.015159 0.038046 0.32002
1340000000 0.21132 0.23563 -0.017189 -0.019558 0.0006921 0.00467 -0.0018469 -0.00079929
0.0013452 0.0026598 0.0017525 -0.0012922
-0.017138 -0.019543 0.037456 0.37187 -0.022044 0.0037896 -0.00013765 0.0021021
0.0019783 0.00085649 0.0011641 0.00086328
0.00072739 0.0046906 -0.022048 0.0039004 0.33492 0.11567 0.0011225 -0.00082042
0.00054166 -0.00052272 -1.8168e-05 0.00030117
-0.0018238 -0.00078175 -0.00012665 0.0020953 0.0011276 -0.00082665 0.14212 0.2375
-0.007891 -0.016998 0.00076397 0.00049533
0.0014231 0.0026679 0.0019808 0.00083659 0.00053556 -0.00052595 -0.0079018 -0.017004
0.056832 0.22966 -0.0034933 -0.013808
0.0017812 -0.0012949 0.001185 0.00084282 -2.5281e-05 0.00033025 0.00085587 0.00049542
-0.0035221 -0.013907 0.075594 0.31502
1400000000 0.24515 0.1987 -0.023396 -0.0080974 0.0053165 0.0034543 -0.0022088 0.0005721
0.0024338 0.00089312 0.00047022 -0.0015508
-0.023379 -0.0081118 0.075107 0.35993 -0.015515 0.012375 0.0013236 0.0013192
0.0013294 -0.0007533 0.0011902 0.0001343
0.0053381 0.0034426 -0.015484 0.012488 0.34857 0.062507 0.00012161 -0.0016111
0.0001023 -0.0004026 0.00032998 0.00015975
-0.0021868 0.00060363 0.0013322 0.0013069 0.0001066 -0.0016123 0.1718 0.20878
-0.014284 -0.01024 -0.0008972 -0.00035157
0.0024866 0.00088877 0.0013439 -0.00077441 0.00011812 -0.00040814 -0.014324 -0.010215
0.089457 0.2252 -0.0098506 -0.0087681
0.00037892 -0.0015923 0.0011549 0.00013422 0.0002937 0.00014361 -0.00085615 -0.00031869
-0.0098206 -0.0088103 0.12003 0.30416
1460000000 0.2687 0.15523 -0.020632 0.0042362 0.005791 -0.0016909 -0.0016417 0.0017242
0.0020953 -0.00046417 -0.00031423 -0.00097265
-0.020616 0.0042188 0.10998 0.33854 -0.0065405 0.015707 0.0017368 0.00020851
0.00099071 -0.0013529 0.0012874 -0.00056635
0.0058439 -0.0017292 -0.0064727 0.0158 0.35556 0.0083927 -0.0011045 -0.001388
0.00019731 -0.00022802 0.00065016 -0.00024447
-0.0016358 0.0017584 0.001738 0.00019512 -0.0011016 -0.0013647 0.19862 0.17925
-0.0158 -0.0038029 -0.0009546 0.0020446
0.0020924 -0.00046283 0.00096548 -0.0013676 0.00017649 -0.00021248 -0.015804 -0.0037516
0.11935 0.21093 -0.011882 -0.003043
-0.00036525 -0.0010263 0.0012881 -0.00058418 0.00064332 -0.00024449 -0.00092376 0.0020314
-0.011901 -0.002969 0.1535 0.28398
1520000000 0.28158 0.11392 -0.015197 0.0099132 0.0035049 -0.0043091 0.00015624 0.0025536
0.0021305 -0.0018914 -0.0012511 -0.00019326
-0.015194 0.0098993 0.14402 0.3244 0.0014372 0.013552 0.0016672 -0.00079283
2.545e-05 -0.0011217 0.00033916 -0.0010733
0.0034949 -0.0043331 0.001509 0.013555 0.34892 -0.047692 -0.0011532 -0.00041133
0.00066271 -0.00087811 5.5085e-05 -0.0001508
0.00017222 0.0025688 0.0016679 -0.00079969 -0.0011397 -0.0004299 0.22202 0.14084
-0.01549 0.0022414 0.0014806 0.0020223
0.0021455 -0.0019038 2.1832e-05 -0.0011389 0.00066165 -0.00088084 -0.015466 0.0022784
0.14742 0.19783 -0.011717 0.0013213
-0.0012103 -0.00020624 0.00034723 -0.0010638 0.00010051 -0.00016838 0.0014443 0.0020299
-0.011725 0.0013455 0.18624 0.2636
1580000000 0.292 0.068109 -0.0085377 0.013395 -0.00092221 -0.0051239 0.0015183 0.0019997
-0.00013101 -0.0020368 -0.00029879 0.00032914
-0.0085356 0.013382 0.17195 0.29995 0.0054052 0.0085612 0.00053703 -0.0015922
-0.00056698 -0.0011094 -0.00013751 -0.00088094
-0.00096084 -0.0050869 0.0054435 0.0085404 0.32966 -0.1052 -0.0016866 0.00057623
-0.00028172 -0.0012232 0.00025837 -0.00059532
0.0014934 0.0019847 0.00052439 -0.0015925 -0.0016792 0.00058189 0.23591 0.10111
-0.012161 0.0073825 0.0021533 0.00095805
-0.00019845 -0.0020567 -0.0005853 -0.0011066 -0.00028904 -0.0011995 -0.012144 0.0074635
0.17183 0.18024 -0.0094217 0.0071455
-0.00031434 0.00033382 -0.00018362 -0.000899 0.000281 -0.00063751 0.0021871 0.00092943
-0.0094017 0.0071789 0.21827 0.23708
1640000000 0.29482 0.026764 -0.0017143 0.012468 -0.0028883 -0.0027324 0.0027814 0.0010705
-0.00068836 -0.0016304 -0.00050196 0.00070443
-0.0017202 0.012443 0.20208 0.27513 0.006194 0.0035878 -0.00062423 -0.0017509
-0.0010356 -0.00043259 -0.00054963 -0.00070779
-0.0028601 -0.0026881 0.0062096 0.0035629 0.30154 -0.15467 -0.00073252 0.0014626
-0.0010122 -0.00098652 -0.00012957 -0.00024201
0.0027986 0.0010627 -0.00064969 -0.0017477 -0.00076018 0.0014895 0.24842 0.052069
-0.0078881 0.0092099 0.0025622 -0.00081198
-0.00068711 -0.0016058 -0.0010638 -0.00043869 -0.0010753 -0.00095273 -0.0078808 0.0092505
0.19533 0.15636 -0.0047082 0.009175
-0.00051184 0.00071277 -0.0005847 -0.00070226 -0.00012481 -0.00020283 0.0025648 -0.00079409
-0.0046778 0.009211 0.24435 0.20613
1700000000 0.28825 -0.01871 0.0018093 0.0097905 -0.0036847 0.00011465 0.0031593 -0.0011798
-0.0019486 -0.00074004 0.00069028 0.00057417
0.0018249 0.009782 0.22057 0.24364 0.004044 0.0005273 -0.0014623 -0.00060155
-0.00085721 5.1189e-05 -0.0009289 -0.00045968
-0.0037481 9.6554e-05 0.0040685 0.00052369 0.25797 -0.19464 0.0003914 0.0016327
-0.0021181 -0.0002299 -0.00043569 -0.00083412
0.0031625 -0.0012079 -0.0014672 -0.00059821 0.00041719 0.0016434 0.24485 0.0018667
-0.0047721 0.0099761 0.001535 -0.0021175
-0.0019566 -0.00079888 -0.00086755 4.4465e-05 -0.0020896 -0.00014009 -0.0047597 0.0099997
0.213 0.13629 -0.00036218 0.0096398
0.00061387 0.00050509 -0.0009207 -0.00049289 -0.00042763 -0.00085013 0.0015725 -0.0021406
-0.00038272 0.0096778 0.26065 0.17192
1760000000 0.27681 -0.067622 0.0044217 0.0065169 -0.0022506 0.0010275 0.001379 -0.0034736
-0.0014091 0.00056182 0.00041465 -0.00053302
0.0044143 0.006526 0.24709 0.20379 0.0017909 -0.0013714 -0.0012172 0.00012388
-0.0010569 0.00093765 -0.00063192 0.00038542
-0.0022464 0.0010239 0.0017766 -0.0014118 0.21028 -0.22763 0.0011467 0.0011368
-0.0013335 0.0014256 -0.0012653 -0.0007328
0.0013685 -0.003463 -0.0012056 0.00013026 0.0011496 0.0011216 0.23588 -0.049622
-0.0011115 0.0091833 -6.8193e-05 -0.0026051
-0.0014038 0.00059723 -0.0010607 0.00096735 -0.0013193 0.0014257 -0.0011109 0.0091976
0.22846 0.10189 0.0037824 0.0070995
0.00040121 -0.00051251 -0.00064931 0.00037181 -0.0012253 -0.0006565 -6.54e-05 -0.0026091
0.003781 0.0070966 0.27345 0.13461
1820000000 0.25235 -0.10524 0.0046479 0.0028008 -0.00020932 0.0024758 -0.00091762 -0.0031477
-0.0012044 0.0010662 -3.4517e-05 -0.00011648
0.00464 0.0028071 0.2574 0.17346 -0.00054899 -0.0003109 -0.0013386 0.00091007
-3.3577e-05 0.0013109 -0.00058696 0.0005241
-0.00018473 0.0024643 -0.00054083 -0.00030832 0.15935 -0.24385 0.0016984 0.00040601
-0.00019207 0.0024625 -0.0014485 0.0004106
-0.00096592 -0.0031453 -0.0013394 0.0009236 0.0016808 0.00044345 0.20562 -0.096998
0.00080411 0.0078597 -0.0017407 -0.0015446
-0.0012009 0.0010473 -1.442e-05 0.0013187 -0.00019452 0.0024646 0.00079856 0.0078468
0.24611 0.073076 0.0045548 0.0037406
-1.8318e-05 -0.00018804 -0.0005636 0.00051979 -0.0015161 0.00035565 -0.0017876 -0.0015284
0.0046195 0.0037494 0.27569 0.09797
1880000000 0.21735 -0.14597 0.0025528 0.00032493 -0.00049104 0.002132 -0.0029571 -0.0023232
-0.00038041 0.0019151 4.0488e-05 -0.00057801
0.0025526 0.00031818 0.26201 0.12679 -0.0024885 0.0015773 -0.00026795 0.0017236
0.00063752 0.0013125 2.0705e-05 0.00097795
-0.00048331 0.0020904 -0.0024941 0.0015977 0.10737 -0.25285 0.0018279 -0.00093457
0.0015998 0.0021213 -0.0011315 0.0015099
-0.0029533 -0.0023033 -0.00026611 0.0017058 0.0018195 -0.00091686 0.16471 -0.13702
0.0018458 0.0055563 -0.0022872 0.00017505
-0.00036479 0.0019097 0.00059687 0.0012877 0.0016039 0.0020963 0.0018276 0.0055197
0.25026 0.041649 0.0049911 0.0013317
4.4624e-05 -0.00051672 5.7549e-05 0.0010005 -0.0011012 0.0015099 -0.0022743 0.00018726
0.0049505 0.0013305 0.27573 0.064251
1940000000 0.17804 -0.17185 0.00012015 -0.0013913 0.0013237 0.0020519 -0.0037894 0.00033629
0.0014137 0.0011486 -0.00062994 -0.0006581
0.00010854 -0.0014154 0.26276 0.094845 -0.0013494 0.0039855 0.0010999 0.0013376
0.0019331 0.00043467 0.0011251 0.00034555
0.0013606 0.0020236 -0.0013474 0.0040111 0.062041 -0.24561 0.00041669 -0.0022915
0.0025342 0.00026084 0.00066108 0.0016663
-0.0038005 0.00028751 0.0011284 0.0013381 0.00039741 -0.0023207 0.11221 -0.16745
0.00098889 0.0040045 -0.0013415 0.0015669
0.0015044 0.0011107 0.0019704 0.00044392 0.0024959 0.00030432 0.00099989 0.0040467
0.2537 0.0031799 0.0038945 -0.0017685
-0.00058216 -0.00056888 0.0010773 0.00037141 0.00067108 0.0016332 -0.0013935 0.0015154
0.0038615 -0.0018034 0.26534 0.02814
2000000000 0.13138 -0.18656 -0.0038423 0.00056525 0.0027286 0.0016029 -0.0023452 0.003824
0.0013562 0.00038387 -0.00057722 0.00053412
-0.0038334 0.00059179 0.24844 0.059171 -0.00093166 0.005921 0.0016242 0.00046358
0.0013572 -0.0011728 0.00044444 0.00012516
0.0026125 0.0015747 -0.00086944 0.0059265 0.01877 -0.2318 -0.0012626 -0.0014942
0.0021889 -0.0012174 0.0016623 0.00132
-0.0022711 0.0038517 0.0016121 0.0004535 -0.0012609 -0.0015114 0.05837 -0.1771
-0.00044105 0.0033911 -3.5115e-05 0.0022329
0.001314 0.00051694 0.0013522 -0.0011521 0.0022096 -0.0012581 -0.00046893 0.0034695
0.24892 -0.030279 0.00067146 -0.0026191
