!Keysight Technologies,M9804A,MY58100912,A.14.10.03
!Date: Thursday, April 27, 2023 10:28:33
!Correction: S11(C  6-Port  ) 
!S12(C  6-Port  ) 
!S13(C  6-Port  ) 
!S14(C  6-Port  ) 
!S15(C  6-Port  ) 
!S16(C  6-Port  ) 
!S21(C  6-Port  ) 
!S22(C  6-Port  ) 
!S23(C  6-Port  ) 
!S24(C  6-Port  ) 
!S25(C  6-Port  ) 
!S26(C  6-Port  ) 
!S31(C  6-Port  ) 
!S32(C  6-Port  ) 
!S33(C  6-Port  ) 
!S34(C  6-Port  ) 
!S35(C  6-Port  ) 
!S36(C  6-Port  ) 
!S41(C  6-Port  ) 
!S42(C  6-Port  ) 
!S43(C  6-Port  ) 
!S44(C  6-Port  ) 
!S45(C  6-Port  ) 
!S46(C  6-Port  ) 
!S51(C  6-Port  ) 
!S52(C  6-Port  ) 
!S53(C  6-Port  ) 
!S54(C  6-Port  ) 
!S55(C  6-Port  ) 
!S56(C  6-Port  ) 
!S61(C  6-Port  ) 
!S62(C  6-Port  ) 
!S63(C  6-Port  ) 
!S64(C  6-Port  ) 
!S65(C  6-Port  ) 
!S66(C  6-Port  ) 
!S6P File: Measurement: :
# Hz S  RI   R 50
500000000 -0.33456 -0.053733 -0.0096189 -0.0014222 -0.0082254 0.012907 -0.0033239 0.010911
0.013302 0.0059392 -0.0022786 0.0068312
-0.0097841 -0.0015996 -0.41535 -0.064561 0.008081 -0.010293 0.0012835 0.011396
0.0085797 0.0030895 0.0013547 0.013068
-0.008312 0.012874 0.0080739 -0.010492 -0.26712 0.19879 0.0065211 0.0032819
-0.0014262 0.0081063 0.00040505 0.011906
-0.0035747 0.01084 0.0013896 0.011307 0.0064758 0.0032649 -0.33068 0.04194
-0.018441 -0.0039413 0.01802 0.024544
0.012963 0.0055834 0.0083513 0.003085 -0.0013836 0.0080356 -0.018404 -0.0039174
-0.24607 -0.19868 -0.026859 0.0070313
-0.0032116 0.0065804 0.0013514 0.012843 0.0003957 0.011656 0.018091 0.024519
-0.026953 0.0070411 -0.26754 -0.12492
560000000 -0.31955 0.11162 -0.023297 -0.06436 0.00039552 0.013008 0.0054349 0.011225
0.010908 0.0039372 0.0095887 0.0078273
-0.023037 -0.064254 -0.3756 0.098578 -0.041415 -0.037801 0.012803 0.0030301
-0.013462 -0.0047462 0.0043795 -0.00059667
0.0003749 0.013018 -0.041788 -0.038301 -0.1861 0.2505 0.00019035 -0.0051532
0.019169 0.0061175 0.0069213 -0.0056355
0.0060368 0.011031 0.012965 0.0031772 6.4666e-05 -0.0052376 -0.30713 0.13413
0.0061622 -0.024634 0.0057967 -0.020966
0.011299 0.0036728 -0.013968 -0.0050065 0.01903 0.0055745 0.0060592 -0.024621
-0.31104 -0.018834 0.0096163 -0.049896
0.010127 0.0078331 0.0044093 -0.00071064 0.0072382 -0.0058994 0.0056447 -0.020936
0.0098278 -0.049868 -0.33181 0.022885
620000000 -0.27754 0.091959 -0.022781 0.0085164 0.0038934 0.0089102 0.0084735 -0.004198
0.012775 -0.001834 0.0013246 -0.0025479
-0.022721 0.0085449 -0.40328 0.047466 -0.018219 0.00044527 -0.0013234 -0.0019361
0.012047 -0.0064496 0.0011611 -0.002767
0.0039235 0.0089141 -0.018306 0.00052976 -0.15563 0.25917 -0.00056668 -0.0053055
-0.0035173 -0.0027789 0.0088926 -0.0027144
0.008571 -0.0042514 -0.0013363 -0.0019201 -0.00056704 -0.0052836 -0.2655 0.1448
-0.038673 -0.019476 0.012986 0.026589
0.012412 -0.0016709 0.011977 -0.0066323 -0.0033177 -0.0028015 -0.038651 -0.019545
-0.23083 -0.05059 -0.041738 0.012958
0.0010871 -0.0027648 0.0013342 -0.0026834 0.0094981 -0.0026017 0.013113 0.026564
-0.041631 0.012736 -0.25095 -0.0092461
680000000 -0.23917 0.18283 -0.026246 -0.014885 0.0051512 0.0052268 0.0011945 -0.0073374
-0.0023826 -0.0115 0.0054542 -0.0065367
-0.026208 -0.01492 -0.39026 0.14866 -0.032222 -0.0021553 -0.0012988 -0.00030887
-0.0019724 -0.0095112 -0.00081412 -0.0020276
0.0052002 0.0051567 -0.032271 -0.0020781 -0.10422 0.28027 -0.00090192 -0.00020136
-0.0018686 0.00028877 -0.0022127 -0.0087585
0.0012057 -0.0074309 -0.0013587 -0.00027128 -0.00090435 -0.00012711 -0.2208 0.19665
-0.023155 -0.0079806 -0.0086736 -0.010816
-0.0021984 -0.01158 -0.0019581 -0.00948 -0.0019033 0.0002555 -0.023078 -0.0079169
-0.27926 0.050371 -0.0068963 -0.0067647
0.0048471 -0.0065494 -0.00087931 -0.0020632 -0.0023777 -0.0089306 -0.0087477 -0.010835
-0.0068417 -0.0067859 -0.25998 0.092575
740000000 -0.19416 0.17558 -0.039437 0.026904 0.013419 -0.0045547 -0.00032376 -0.0042778
-0.0044526 -0.0025743 -0.0064771 0.0026863
-0.039402 0.026791 -0.33562 0.16775 -0.03694 0.034892 0.0004393 -0.0058282
-0.012856 0.0067553 -0.00069713 -0.0050888
0.013581 -0.0046515 -0.036928 0.035105 -0.07044 0.27796 -0.0019052 0.0034528
-0.0025846 -0.0058089 -0.0018976 0.0011678
-0.0006509 -0.0044704 0.00039647 -0.0057988 -0.001906 0.0034112 -0.2036 0.20382
-0.042255 -0.0076053 0.022502 0.015472
-0.0043987 -0.0020444 -0.012793 0.0069283 -0.0026997 -0.005759 -0.0423 -0.0076223
-0.1795 0.077366 -0.042482 0.00062342
-0.0066796 0.0026036 -0.00079053 -0.0053077 -0.0017384 0.0014662 0.022532 0.015508
-0.042539 0.00052107 -0.24836 0.098513
800000000 -0.16243 0.22002 -0.022882 0.016433 0.0057872 -0.010422 -0.0046464 -0.002092
-0.0042432 0.0019889 0.0040808 0.00042073
-0.022838 0.016378 -0.34198 0.23876 -0.0086393 0.034015 -0.0023481 0.0021972
-0.00096476 0.0028077 0.00088459 0.0052812
0.0057513 -0.010474 -0.0085664 0.034104 -0.031584 0.3017 0.00094892 0.001565
-0.00018955 0.0035313 -0.0018347 0.00059456
-0.0046688 -0.0020709 -0.0023045 0.0021308 0.00095408 0.0015173 -0.17438 0.23141
-0.028966 0.013064 0.013896 -0.010147
-0.0041807 0.0020241 -0.0009944 0.0029381 -0.00023077 0.0036078 -0.028958 0.013116
-0.22198 0.10738 -0.017765 0.019218
0.0041288 0.0003299 0.00082538 0.0052699 -0.0018782 0.00052264 0.013845 -0.010188
-0.017755 0.019189 -0.24177 0.14861
860000000 -0.12819 0.24045 -0.018158 0.030433 -0.0029748 -0.010152 -0.0024014 0.00031081
0.0039468 0.0045351 -0.0032692 -0.0026977
-0.018176 0.030488 -0.29337 0.28132 0.0072596 0.034318 -0.00030875 0.0020663
0.0032744 0.00039065 0.0035602 0.00061362
-0.0030473 -0.010091 0.0073566 0.034367 0.016186 0.31014 -0.00088237 -0.00015254
0.0023742 -0.0016939 0.0015283 0.0044694
-0.0025281 0.00026342 -0.00027529 0.0020469 -0.00093894 -0.00011597 -0.13792 0.2419
-0.018474 0.017519 -0.0068229 -0.0083377
0.0038047 0.0046228 0.0033144 0.00012044 0.0024162 -0.0016753 -0.01851 0.017669
-0.16689 0.1585 -0.024027 0.016497
-0.0034277 -0.00258 0.0035018 0.00061531 0.0015848 0.0044172 -0.0067031 -0.0083658
-0.024037 0.016435 -0.19074 0.19321
920000000 -0.10447 0.26343 0.0043601 0.038417 -0.0093585 -0.0048687 -0.0020923 0.0017814
0.001232 0.0019614 0.0028616 -0.0013682
0.0043453 0.038352 -0.26624 0.30248 0.027902 0.022893 0.001441 0.0012954
0.0074512 -0.00043687 0.0041332 -0.0026466
-0.0093694 -0.0048962 0.028028 0.022815 0.061322 0.31141 0.0019289 -8.4514e-07
0.0010989 -5.2654e-05 0.00095987 -0.0012634
-0.0020071 0.0018235 0.0014202 0.0013739 0.0019653 -2.0917e-05 -0.11348 0.25878
-0.011297 0.030914 0.0033263 -0.0068404
0.0013253 0.0020016 0.0075693 -0.00042943 0.0011003 -3.615e-05 -0.011255 0.030925
-0.15584 0.16474 -0.0014757 0.027472
0.0029347 -0.001457 0.0041715 -0.0025977 0.00093658 -0.0012441 0.0032664 -0.0068057
-0.0014566 0.027452 -0.19775 0.20655
980000000 -0.05776 0.28429 0.016777 0.030387 -0.0093377 0.0042216 0.0019247 0.0035712
0.0041703 -0.0014083 -0.0028211 -0.0024507
0.016794 0.030375 -0.21304 0.33773 0.033255 0.0056026 0.0022067 -0.00012772
0.001727 -0.0057572 -2.2408e-05 -0.0023635
-0.0093054 0.0042488 0.033289 0.0055 0.10703 0.30582 0.00075705 -0.0011622
0.00053501 -0.0018799 0.0015598 -0.00014641
0.0018277 0.0036963 0.0021718 -6.6188e-05 0.00073661 -0.0011058 -0.07508 0.27024
0.0069407 0.030259 -0.0091743 -0.006964
0.0042417 -0.0013718 0.0016796 -0.0057202 0.0006051 -0.0019131 0.0070048 0.030228
-0.12249 0.19494 0.0054932 0.019732
-0.0027793 -0.0024687 2.2697e-05 -0.0023138 0.001643 -0.00017294 -0.0091353 -0.0069737
0.0054767 0.019734 -0.15532 0.25112
1040000000 -0.016294 0.2934 0.032893 0.019297 -0.0014685 0.0070931 0.0026575 0.00093184
0.00029824 -0.0034565 -1.6486e-05 -0.0014925
0.032832 0.01934 -0.1781 0.35111 0.030054 -0.014264 0.0017684 -0.0017126
-0.002106 -0.00253 -0.00072202 -0.0029085
-0.0014909 0.0070487 0.030029 -0.014381 0.15281 0.29294 -0.00043392 -0.0015923
-0.0015866 -0.0008885 -0.00038381 -0.0010359
0.0026677 0.00080333 0.0017557 -0.0016932 -0.00041263 -0.0016194 -0.047739 0.27953
0.018915 0.018902 -0.0024138 0.0010618
0.00035882 -0.0036088 -0.0021434 -0.0025188 -0.0015501 -0.00086478 0.018927 0.018877
-0.08854 0.20161 0.013814 0.01818
-0.00014066 -0.0014967 -0.00079361 -0.0028731 -0.00041666 -0.001118 -0.0024281 0.001073
0.013804 0.018237 -0.13269 0.27119
1100000000 0.028287 0.30262 0.036255 -0.0031987 0.0027906 0.0041363 0.0024817 -0.001174
-0.0022406 -0.0030902 -0.0038823 -0.00019495
0.036219 -0.0031464 -0.13519 0.36928 0.016081 -0.0277 9.5733e-05 -0.001922
-0.0036326 -0.0010581 -0.0034207 -0.00065613
0.0027965 0.0041257 0.015991 -0.027808 0.19867 0.27384 -0.0019368 2.6547e-05
-0.0018044 0.00046782 -0.001093 -0.0004694
0.0025181 -0.0011572 7.8782e-05 -0.0018817 -0.0019358 5.2435e-05 -0.0076901 0.28499
0.024853 0.0056948 -0.0024348 8.9765e-07
-0.0021991 -0.0030501 -0.0036199 -0.0010127 -0.0017901 0.00045346 0.024876 0.0056518
-0.068055 0.21436 0.019294 0.0083321
-0.0037803 -0.00021803 -0.0034322 -0.0005775 -0.0010184 -0.00043311 -0.0024174 -1.0449e-05
0.019258 0.0083349 -0.087163 0.30026
1160000000 0.079693 0.29871 0.024655 -0.020301 0.0028112 -0.00040255 -0.00014017 -0.0023718
-0.0040151 -0.00071129 -0.001055 0.0042166
0.024663 -0.020251 -0.091815 0.37384 -0.0029719 -0.029493 -0.0015796 -0.0017382
-0.0027377 0.0025555 -0.0015513 0.0018639
0.0028565 -0.00041737 -0.0030838 -0.029506 0.24204 0.24414 -0.00086058 0.0017591
-0.00062698 0.0019478 -0.00095524 0.00037167
-0.00011422 -0.0024614 -0.0016159 -0.0017227 -0.00082838 0.0017484 0.031646 0.28237
0.021223 -0.0098727 -0.0033528 0.0049958
-0.0040644 -0.00073253 -0.0027767 0.002567 -0.00066223 0.001862 0.021187 -0.0098858
-0.033581 0.22236 0.018142 -0.00044437
-0.0011403 0.0042795 -0.0015952 0.0018832 -0.00087502 0.00029753 -0.0033783 0.0050109
0.018139 -0.00044179 -0.039998 0.30285
1220000000 0.12363 0.28898 0.011488 -0.029907 -0.0015585 -0.00095863 -3.2796e-05 -0.00090976
-0.0027596 0.0022922 0.00096638 0.0020257
0.011478 -0.029885 -0.047892 0.38719 -0.016669 -0.021988 -0.0026415 0.00043744
-5.0896e-06 0.0032074 -0.00089494 0.0020217
-0.0015444 -0.00093984 -0.016799 -0.021937 0.28134 0.20589 0.00072545 0.00171
0.00062403 0.0012682 0.00029048 0.00055358
-9.4948e-06 -0.00087214 -0.0026085 0.00045541 0.0007107 0.0017215 0.071532 0.27408
0.011124 -0.016889 0.0021723 0.0015824
-0.0027261 0.0022308 1.0555e-05 0.003166 0.00063864 0.0012566 0.01111 -0.016919
-0.0097708 0.23071 0.013877 -0.012799
0.00099537 0.0019606 -0.00091479 0.0019981 0.00026291 0.00057516 0.0021808 0.0015539
0.013873 -0.012808 -0.0086855 0.31838
1280000000 0.17387 0.2685 -0.0072642 -0.028797 -0.0019496 0.0024473 -0.00084863 -0.002024
-0.00078525 0.0031071 0.002542 0.001373
-0.0072279 -0.028739 -0.0019775 0.37924 -0.024014 -0.0091889 -0.0010144 0.0014483
0.0017337 0.0017294 0.0005373 0.002054
-0.0019604 0.0024674 -0.024085 -0.0090884 0.31244 0.16279 0.0015584 4.9516e-05
0.0012893 0.00023364 0.00033188 0.0002476
-0.00090596 -0.0020994 -0.0010632 0.001474 0.0015842 2.9088e-05 0.10878 0.25831
0.0014386 -0.019315 -3.6505e-05 0.00036565
-0.00076693 0.0030995 0.0017618 0.0017289 0.0013216 0.00025247 0.0014088 -0.019313
0.026822 0.23412 0.0030553 -0.015111
0.0025287 0.0013875 0.00062154 0.0020693 0.00037946 0.00021972 -5.1067e-05 0.00034889
0.0030562 -0.015115 0.037952 0.32017
1340000000 0.21139 0.23557 -0.0172 -0.019575 0.00069633 0.0047086 -0.0017596 -0.00080373
0.0013679 0.0027275 0.0017296 -0.0013237
-0.017164 -0.019576 0.037529 0.3719 -0.022027 0.0038291 -0.00012493 0.0020628
0.0019821 0.00083787 0.0012218 0.00082836
0.00072323 0.0047072 -0.022014 0.0039323 0.33497 0.11565 0.0011168 -0.0008447
0.00054662 -0.00046743 0.00010206 0.00032312
-0.001726 -0.00076235 -0.0001071 0.0020355 0.0010865 -0.00085884 0.14215 0.2376
-0.0078679 -0.016939 0.00076096 0.0004182
0.0014132 0.0026683 0.0019631 0.0008461 0.00054194 -0.0004315 -0.0079075 -0.016917
0.056977 0.22936 -0.0034518 -0.013987
0.0017302 -0.0013798 0.0012151 0.00080951 9.9385e-05 0.00033814 0.000773 0.00039919
-0.0034523 -0.014004 0.075859 0.31503
1400000000 0.24512 0.19871 -0.023407 -0.0080321 0.0053165 0.0033798 -0.0022109 0.00065381
0.0024724 0.00088243 0.00031127 -0.0015245
-0.023382 -0.0080358 0.075246 0.3599 -0.015547 0.012416 0.0013689 0.0013505
0.0013528 -0.00073634 0.0011638 0.00015479
0.0053241 0.0033655 -0.015492 0.012509 0.34867 0.062403 0.00014018 -0.0016065
0.00013575 -0.00039751 0.00027015 0.0002247
-0.0022668 0.00062102 0.0013547 0.0013714 0.00018225 -0.0016553 0.17187 0.20871
-0.01414 -0.010262 -0.00081169 -0.00032955
0.0024679 0.00090132 0.0013404 -0.00077236 0.00012188 -0.00041814 -0.014173 -0.010238
0.089806 0.22512 -0.010002 -0.0088312
0.00031583 -0.0015139 0.0011583 0.00014759 0.00025984 0.00020726 -0.00081988 -0.00032055
-0.0099894 -0.00882 0.12038 0.30437
1460000000 0.26882 0.1552 -0.020606 0.0042376 0.0058679 -0.0016694 -0.0015949 0.0016895
0.002052 -0.00042352 -0.000386 -0.0010044
-0.020593 0.0042255 0.11007 0.33853 -0.0065527 0.01571 0.0017366 0.00023821
0.00096291 -0.001337 0.0012732 -0.00054665
0.0058286 -0.0017222 -0.0064687 0.015777 0.35553 0.0083505 -0.0010943 -0.0013684
0.00016817 -0.00013783 0.00056111 -0.00024368
-0.0015347 0.0017466 0.001725 0.00019029 -0.0011322 -0.0013607 0.19879 0.17932
-0.015681 -0.0037795 -0.00091511 0.0020295
0.0020266 -0.00046224 0.00098878 -0.0013429 0.00020977 -0.00019561 -0.015689 -0.0037505
0.11948 0.21081 -0.01187 -0.0029982
-0.00038529 -0.0010853 0.001294 -0.00052845 0.00059382 -0.00020602 -0.00092513 0.0020273
-0.011859 -0.0030088 0.15374 0.28397
1520000000 0.28173 0.11397 -0.015156 0.009943 0.0034442 -0.0043203 7.3881e-05 0.0026004
0.0021149 -0.001898 -0.0011426 -0.00011964
-0.015152 0.0099197 0.14413 0.32437 0.0014404 0.013547 0.0016751 -0.00082893
4.9812e-05 -0.001176 0.00036314 -0.0010605
0.0034552 -0.0043369 0.0015181 0.013559 0.34901 -0.047777 -0.0010967 -0.00041275
0.00069085 -0.00086069 0.00015661 -0.00019104
4.5517e-05 0.0025547 0.0016828 -0.00080521 -0.001081 -0.00042005 0.22211 0.14077
-0.0154 0.0021172 0.0014066 0.0020463
0.0020901 -0.0019484 4.4905e-05 -0.0011496 0.0007046 -0.0008589 -0.015397 0.0021515
0.14755 0.19777 -0.011844 0.0013257
-0.001178 -0.0001244 0.00035705 -0.0010631 0.00013845 -0.0002013 0.0013939 0.0020364
-0.011845 0.0013338 0.18657 0.26345
1580000000 0.29221 0.068034 -0.0085402 0.013404 -0.00092316 -0.005129 0.0015106 0.0019197
-0.00011325 -0.0020753 -0.00037357 0.00033357
-0.0085357 0.013393 0.17201 0.29991 0.0054127 0.0085656 0.00050876 -0.001573
-0.00057622 -0.0011292 -0.00015433 -0.00087913
-0.0009732 -0.0051166 0.0054643 0.008553 0.32969 -0.10522 -0.0017474 0.00056345
-0.00041245 -0.0012419 0.00026411 -0.00058043
0.0015439 0.0019593 0.00048512 -0.0016048 -0.0017569 0.0005578 0.23607 0.10112
-0.012182 0.0073628 0.0021948 0.000919
-0.00014706 -0.0020591 -0.00058333 -0.0011031 -0.00039767 -0.0012548 -0.01217 0.0073927
0.17192 0.18014 -0.0093541 0.0071839
-0.00036821 0.00030966 -0.00017834 -0.00088278 0.00027839 -0.00057169 0.0022002 0.00091864
-0.0093557 0.0071839 0.21852 0.23703
1640000000 0.29498 0.026733 -0.0016799 0.012432 -0.0028064 -0.0026991 0.0027597 0.0011288
-0.00070251 -0.0016099 -0.00041081 0.00067186
-0.0016846 0.012421 0.20215 0.27507 0.0062144 0.00357 -0.00064901 -0.0017773
-0.0010689 -0.00044069 -0.00055823 -0.00069784
-0.0028271 -0.0026824 0.0062477 0.003551 0.30159 -0.15479 -0.00071292 0.0014226
-0.0010165 -0.00098345 -0.0001744 -0.00025994
0.0027214 0.0010818 -0.00063747 -0.0017677 -0.00068349 0.0014578 0.24852 0.051829
-0.0079151 0.0090742 0.0025447 -0.00075911
-0.00070524 -0.0015931 -0.0010786 -0.00044067 -0.0010301 -0.00098309 -0.0078903 0.0091055
0.19544 0.15631 -0.0048071 0.00924
-0.00045045 0.00072977 -0.00056719 -0.00069804 -0.00020755 -0.00028976 0.0025456 -0.00077697
-0.0048029 0.0092408 0.24446 0.20582
1700000000 0.28836 -0.018896 0.0018258 0.0097715 -0.00374 0.0001377 0.0031517 -0.0012513
-0.0019477 -0.00076359 0.00054766 0.00055115
0.0018079 0.0097675 0.22064 0.24357 0.0040463 0.00051202 -0.0014665 -0.0006004
-0.0008629 5.3236e-05 -0.00091303 -0.00047009
-0.0037369 0.00013599 0.00405 0.00048915 0.25777 -0.19466 0.00040378 0.0016327
-0.0020764 -0.00014402 -0.00035882 -0.00083177
0.0031899 -0.0012239 -0.0014772 -0.000619 0.00037829 0.0016264 0.24494 0.0017733
-0.0049579 0.0099494 0.0015522 -0.002189
-0.0019522 -0.0007748 -0.00086882 4.314e-05 -0.0020796 -0.00014153 -0.00494 0.0099679
0.21296 0.13619 -0.00017138 0.0096115
0.00056722 0.00052126 -0.00094428 -0.00045473 -0.00039715 -0.00083779 0.0015575 -0.0021974
-0.000153 0.0096087 0.26078 0.17155
1760000000 0.27678 -0.067843 0.0044167 0.0064993 -0.0023013 0.00097678 0.0013887 -0.0034148
-0.001465 0.00057928 0.00044933 -0.00061005
0.0044053 0.0064876 0.24714 0.20376 0.0017948 -0.0014076 -0.001225 0.00014467
-0.0011304 0.00095013 -0.00063109 0.00041383
-0.0022795 0.00097395 0.0017895 -0.0014126 0.21017 -0.22769 0.0011329 0.0011674
-0.0013993 0.0014633 -0.0011936 -0.00072113
0.0013006 -0.0034404 -0.0012046 0.00014695 0.001153 0.001174 0.23585 -0.049896
-0.001185 0.0092486 -8.2841e-05 -0.0024342
-0.0014577 0.00056021 -0.0011075 0.00094002 -0.0013852 0.0014657 -0.0011751 0.0092649
0.22849 0.10187 0.0036687 0.0072348
0.00043246 -0.00052913 -0.00064834 0.00041043 -0.0011724 -0.00077865 -8.6156e-05 -0.0024309
0.0036832 0.0072526 0.27363 0.13427
1820000000 0.25232 -0.10548 0.0045875 0.0027968 -0.00014254 0.0024248 -0.00096409 -0.0031813
-0.0012298 0.00099675 -3.4629e-05 -0.00012307
0.0046126 0.0028112 0.25744 0.17334 -0.00058999 -0.00028073 -0.0013364 0.00089494
6.4267e-06 0.0012864 -0.00062016 0.00055039
-0.00012498 0.002485 -0.0005888 -0.00026864 0.15911 -0.24378 0.0016973 0.00040599
-0.00017848 0.0024102 -0.0014208 0.00042633
-0.00093222 -0.0031769 -0.0013429 0.00093348 0.0016492 0.00038386 0.20546 -0.097078
0.00053314 0.0078845 -0.0016627 -0.0015496
-0.001217 0.00101 1.1923e-05 0.0013033 -0.00017592 0.0023976 0.00056093 0.00789
0.24603 0.07296 0.004762 0.0037163
-4.9863e-05 -0.00010452 -0.00061177 0.00054874 -0.0014094 0.0004711 -0.0016464 -0.0015508
0.0047679 0.0037048 0.27573 0.097828
1880000000 0.21722 -0.14619 0.0025041 0.00033933 -0.00046477 0.0021631 -0.0028851 -0.0022486
-0.00028246 0.001904 0.00010416 -0.00061021
0.0024866 0.00036086 0.26204 0.12676 -0.002548 0.0015732 -0.00026464 0.0018066
0.00062437 0.0013437 8.0639e-05 0.00095196
-0.000502 0.0021126 -0.0025365 0.0015943 0.10728 -0.25289 0.0017938 -0.00094743
0.0016046 0.0021146 -0.0011187 0.0014946
-0.002941 -0.0022578 -0.00026601 0.0017947 0.0018487 -0.00095867 0.1646 -0.13725
0.0017794 0.005481 -0.0023609 0.00023464
-0.00033378 0.0019124 0.0006176 0.0013244 0.0016109 0.0021161 0.0017893 0.0054729
0.25041 0.04151 0.0049345 0.0014165
4.5002e-05 -0.00058567 6.7188e-05 0.00093302 -0.001149 0.0014914 -0.0023851 0.00024387
0.0049553 0.0014381 0.276 0.063892
1940000000 0.17776 -0.172 0.00010758 -0.0014547 0.0013723 0.0020547 -0.0038751 0.00034102
0.0014173 0.0011562 -0.00054748 -0.00064148
8.5552e-05 -0.0014344 0.26284 0.094742 -0.0013069 0.0040443 0.0010988 0.0012487
0.0019763 0.00045938 0.0010713 0.00038576
0.0014236 0.0020326 -0.0012859 0.0040694 0.061838 -0.24555 0.00038172 -0.0023797
0.0024833 0.00029417 0.0006562 0.0016518
-0.0038711 0.00035008 0.0010846 0.0012737 0.00041057 -0.0023588 0.11196 -0.16754
0.00099994 0.0040599 -0.0012526 0.0014509
0.0013948 0.0011481 0.0019573 0.00047556 0.0024786 0.00028385 0.0010216 0.0040483
0.25377 0.0031717 0.003876 -0.0017786
-0.00065491 -0.00060318 0.0011101 0.0003467 0.00072283 0.0016324 -0.0012132 0.0014843
0.003866 -0.0017664 0.26525 0.028041
2000000000 0.13114 -0.18666 -0.0038585 0.0005808 0.0026811 0.0016674 -0.0022584 0.0038046
0.0013694 0.00042159 -0.00057167 0.00047105
-0.0038548 0.00061011 0.24846 0.059077 -0.00095332 0.0058714 0.0016044 0.00052515
0.0013335 -0.0011359 0.00051022 0.00015371
0.0026897 0.0016489 -0.00092627 0.0058815 0.018652 -0.23185 -0.0012646 -0.0014413
0.002263 -0.0012788 0.0016488 0.0012717
-0.0023034 0.0037818 0.0016138 0.00042436 -0.0013071 -0.0014592 0.058621 -0.17702
-0.00034028 0.0036055 -9.5651e-05 0.0020401
0.0013749 0.0003917 0.0013376 -0.0012099 0.0022195 -0.0012793 -0.00035394 0.0036195
0.24903 -0.030359 0.00069841 -0.0028073
