!Keysight Technologies,M9804A,MY58100912,A.14.10.03
!Date: Thursday, April 27, 2023 10:28:33
!Correction: S11(C  6-Port  ) 
!S12(C  6-Port  ) 
!S13(C  6-Port  ) 
!S14(C  6-Port  ) 
!S15(C  6-Port  ) 
!S16(C  6-Port  ) 
!S21(C  6-Port  ) 
!S22(C  6-Port  ) 
!S23(C  6-Port  ) 
!S24(C  6-Port  ) 
!S25(C  6-Port  ) 
!S26(C  6-Port  ) 
!S31(C  6-Port  ) 
!S32(C  6-Port  ) 
!S33(C  6-Port  ) 
!S34(C  6-Port  ) 
!S35(C  6-Port  ) 
!S36(C  6-Port  ) 
!S41(C  6-Port  ) 
!S42(C  6-Port  ) 
!S43(C  6-Port  ) 
!S44(C  6-Port  ) 
!S45(C  6-Port  ) 
!S46(C  6-Port  ) 
!S51(C  6-Port  ) 
!S52(C  6-Port  ) 
!S53(C  6-Port  ) 
!S54(C  6-Port  ) 
!S55(C  6-Port  ) 
!S56(C  6-Port  ) 
!S61(C  6-Port  ) 
!S62(C  6-Port  ) 
!S63(C  6-Port  ) 
!S64(C  6-Port  ) 
!S65(C  6-Port  ) 
!S66(C  6-Port  ) 
!S6P File: Measurement: :
# Hz S  RI   R 50
500000000 -0.3328 -0.053782 -0.0092727 -0.00079356 -0.0086098 0.013253 -0.0040024 0.011319
0.013298 0.0045316 -0.0042722 0.0069594
-0.0094222 -0.00059136 -0.41583 -0.064998 0.0080676 -0.010778 0.00087741 0.011819
0.0082241 0.0024693 0.00086852 0.013659
-0.0082429 0.013278 0.0081499 -0.010643 -0.2672 0.19859 0.0066918 0.0032882
-0.0015338 0.0083685 0.00077289 0.011784
-0.0037229 0.011416 0.00069374 0.011949 0.0068001 0.0033541 -0.33147 0.042818
-0.019316 -0.0043696 0.016553 0.025735
0.013434 0.0050988 0.0080717 0.0025069 -0.0017311 0.0085932 -0.01952 -0.0040967
-0.24541 -0.19984 -0.027711 0.0059579
-0.0038901 0.0069761 0.00018277 0.013545 0.00049324 0.012135 0.016523 0.025984
-0.027119 0.0056265 -0.27087 -0.12372
560000000 -0.31931 0.11273 -0.023792 -0.063982 0.00079837 0.012959 0.0050708 0.010944
0.011401 0.0042491 0.010026 0.0083714
-0.023431 -0.064507 -0.37442 0.098865 -0.042256 -0.038142 0.01329 0.0032443
-0.013345 -0.0040399 0.0036283 -0.00058326
0.00068388 0.012374 -0.04246 -0.037541 -0.18476 0.25064 -0.00031004 -0.0046937
0.018778 0.0046039 0.0071357 -0.0053533
0.0049256 0.010685 0.013495 0.0036205 -0.00049813 -0.0047449 -0.30665 0.13414
0.0064829 -0.023772 0.0049942 -0.02183
0.011413 0.0039181 -0.01338 -0.0042072 0.018872 0.0049331 0.0064996 -0.023902
-0.31039 -0.020487 0.0092328 -0.048543
0.010524 0.008659 0.0036284 -4.798e-05 0.0072261 -0.005579 0.0049128 -0.022171
0.0092834 -0.048755 -0.33288 0.021307
620000000 -0.27748 0.091023 -0.023143 0.0085558 0.0031478 0.0089509 0.0079684 -0.0044869
0.013179 -0.0013016 0.00011549 -0.0026957
-0.022922 0.0084164 -0.40323 0.047649 -0.018207 0.00076976 -0.0016205 -0.0016109
0.012296 -0.0067407 0.0015292 -0.0024933
0.0034825 0.0094058 -0.018204 0.0008787 -0.15565 0.25974 -0.001362 -0.0046941
-0.0025782 -0.0035311 0.0087019 -0.0020953
0.0079984 -0.0046925 -0.0015845 -0.0015904 -0.0011487 -0.0045826 -0.26601 0.14481
-0.037693 -0.018516 0.012527 0.027234
0.01269 -0.0009712 0.012232 -0.0067633 -0.0029171 -0.0034491 -0.037556 -0.018542
-0.23088 -0.052593 -0.03949 0.011898
3.5435e-05 -0.0027736 0.0014777 -0.0026632 0.0084949 -0.0024587 0.012429 0.027507
-0.039407 0.011622 -0.25237 -0.009918
680000000 -0.2391 0.18294 -0.026136 -0.015005 0.0050089 0.0053309 0.0016686 -0.0072128
-0.0027774 -0.011533 0.0052455 -0.0065984
-0.026087 -0.014971 -0.39011 0.1488 -0.032342 -0.0022576 -0.0013111 -0.00065591
-0.0020293 -0.009219 -0.0013551 -0.001948
0.0051142 0.005239 -0.032388 -0.0022114 -0.10431 0.28021 -0.00066887 -0.0004316
-0.0018179 0.00040548 -0.0026051 -0.0091898
0.0012082 -0.0076121 -0.0012977 -0.0005181 -0.00072776 -0.00044405 -0.221 0.19651
-0.023064 -0.007596 -0.0084753 -0.012811
-0.0025731 -0.011737 -0.0020308 -0.0093464 -0.0018301 0.00041475 -0.022865 -0.0076093
-0.27912 0.051256 -0.0068439 -0.0060278
0.0051168 -0.0065191 -0.0012833 -0.0019163 -0.0024002 -0.0093256 -0.0084198 -0.012847
-0.0068066 -0.0060512 -0.26009 0.092951
740000000 -0.19384 0.1758 -0.039464 0.027057 0.01329 -0.0045173 -0.00027952 -0.0039911
-0.0046774 -0.0025675 -0.0061834 0.0037046
-0.039631 0.026788 -0.3356 0.16706 -0.036452 0.034897 0.00014894 -0.0062258
-0.013056 0.0074154 -0.00013676 -0.0060161
0.013473 -0.0045985 -0.036477 0.035108 -0.070443 0.27819 -0.0017098 0.0034727
-0.0026252 -0.0060096 -0.0015534 0.0016807
-0.00042597 -0.0038251 0.00035939 -0.0061738 -0.0018147 0.0035638 -0.20367 0.20423
-0.042307 -0.0078965 0.02234 0.015806
-0.0046563 -0.0025161 -0.012774 0.0071615 -0.00265 -0.0057235 -0.042571 -0.007958
-0.17791 0.076582 -0.043854 -0.00042056
-0.0066941 0.0035385 -0.00031046 -0.005845 -0.0014472 0.0014928 0.022289 0.015781
-0.043056 1.0499e-05 -0.24821 0.09947
800000000 -0.16278 0.22013 -0.022641 0.016371 0.0056735 -0.010386 -0.0045008 -0.0022569
-0.0041267 0.0021314 0.004152 0.0006147
-0.02262 0.016325 -0.34167 0.23871 -0.0085801 0.034111 -0.0022827 0.002135
-0.00097194 0.0028145 0.00087133 0.0054421
0.0057087 -0.010422 -0.0084816 0.034141 -0.031622 0.30182 0.00088015 0.0014304
-2.4254e-05 0.0036267 -0.0021357 0.00087113
-0.0046378 -0.002307 -0.0022294 0.0021332 0.00086302 0.0014486 -0.17421 0.23141
-0.028669 0.013225 0.013783 -0.010516
-0.0042424 0.0021587 -0.00091178 0.002709 -3.8439e-05 0.0035358 -0.028746 0.013247
-0.22199 0.10732 -0.017738 0.01985
0.0040532 0.00041245 0.00088779 0.0052609 -0.0020518 0.00076473 0.013801 -0.010611
-0.017795 0.019951 -0.24188 0.1484
860000000 -0.12819 0.24049 -0.018107 0.03047 -0.0028153 -0.010161 -0.0022048 0.00048676
0.0037979 0.0047329 -0.0034284 -0.0028863
-0.018128 0.030347 -0.29335 0.28139 0.0072033 0.03445 0.00022841 0.0021091
0.0033726 0.00027613 0.0031529 0.00070082
-0.0028617 -0.010221 0.0073404 0.034363 0.016178 0.31016 -0.00078612 -9.7964e-05
0.0022293 -0.0016596 0.0014324 0.004291
-0.0021732 0.0004328 0.0001453 0.002112 -0.00078888 -6.3397e-05 -0.13779 0.24235
-0.01859 0.017517 -0.006403 -0.0080921
0.0038754 0.0048999 0.0033351 0.00030907 0.0022068 -0.0016028 -0.018532 0.017488
-0.16638 0.15765 -0.024597 0.017035
-0.0032958 -0.0027211 0.0035141 0.00036358 0.001592 0.0043869 -0.0064953 -0.0080771
-0.024593 0.017099 -0.19091 0.19251
920000000 -0.10451 0.26334 0.0042381 0.03824 -0.0093631 -0.0049033 -0.0021623 0.0017966
0.0011651 0.0020002 0.002919 -0.0013233
0.0042869 0.038219 -0.26608 0.30246 0.027881 0.022843 0.0014636 0.0012193
0.0074457 -0.00030802 0.0041168 -0.0027717
-0.0093727 -0.0048892 0.028004 0.022806 0.061338 0.31135 0.001928 0.00010164
0.0010432 -0.00017461 0.0010013 -0.0011939
-0.0021019 0.0017661 0.0014382 0.0012058 0.0019606 7.1322e-05 -0.11344 0.25876
-0.011258 0.030956 0.0033531 -0.0066748
0.0013244 0.0021052 0.0074946 -0.00019492 0.0010172 -0.00016845 -0.011223 0.030948
-0.15575 0.16528 -0.0014736 0.027371
0.0029622 -0.0014896 0.0041536 -0.002858 0.00084433 -0.0012124 0.0034213 -0.0068289
-0.0017019 0.027474 -0.19746 0.20692
980000000 -0.057779 0.28432 0.016794 0.030257 -0.0093459 0.0042303 0.0017696 0.0035497
0.004123 -0.0015172 -0.0029637 -0.0023053
0.016726 0.03029 -0.21297 0.33762 0.033282 0.0055765 0.0021287 -7.4324e-05
0.0018087 -0.0058375 -0.00017542 -0.0024561
-0.0093388 0.0042609 0.033314 0.005485 0.10709 0.30586 0.00070313 -0.0011793
0.00058131 -0.0019061 0.0014907 -0.00021364
0.0018736 0.0035962 0.0021661 -6.2562e-05 0.00070647 -0.0012188 -0.07499 0.27026
0.0070371 0.030332 -0.0089632 -0.0072142
0.004132 -0.0015517 0.0017423 -0.005845 0.00062069 -0.001881 0.0071211 0.030364
-0.12226 0.19469 0.0058585 0.019786
-0.0028846 -0.0024571 -0.00017 -0.0024488 0.0015261 -0.00027582 -0.0088906 -0.007237
0.0057034 0.019708 -0.15538 0.25065
1040000000 -0.016088 0.293 0.032904 0.019258 -0.0013914 0.007001 0.0027236 0.00086442
0.00046322 -0.0032933 -9.1447e-05 -0.001422
0.032822 0.019296 -0.17807 0.35125 0.030071 -0.014318 0.0017498 -0.0016604
-0.0020484 -0.0025262 -0.00070827 -0.0028109
-0.0014192 0.0069766 0.030059 -0.014423 0.15286 0.2929 -0.00040366 -0.0015927
-0.0015919 -0.000861 -0.00040908 -0.0010951
0.0028176 0.00086858 0.0017508 -0.0016664 -0.00040127 -0.0015879 -0.047718 0.27966
0.019077 0.019012 -0.002451 0.0013225
0.00053143 -0.0032936 -0.001993 -0.0025214 -0.001588 -0.00085154 0.019082 0.018958
-0.088786 0.20168 0.013674 0.0183
-4.3023e-05 -0.0013416 -0.00069869 -0.0028488 -0.00042675 -0.0011097 -0.0025143 0.0012695
0.013661 0.018297 -0.13262 0.2713
1100000000 0.028434 0.3027 0.036298 -0.0031754 0.002861 0.0041632 0.0024778 -0.0012385
-0.0022172 -0.0030929 -0.0039356 -0.00017921
0.036211 -0.0031672 -0.13515 0.36934 0.016089 -0.027708 7.6005e-05 -0.0019634
-0.0036427 -0.0010521 -0.0034873 -0.00068544
0.0028449 0.0041498 0.016017 -0.027769 0.1987 0.27383 -0.0019292 3.3379e-05
-0.001757 0.00041419 -0.0010824 -0.00046691
0.0024891 -0.0012615 7.2851e-05 -0.0019803 -0.0019196 4.0948e-05 -0.0076294 0.28497
0.024731 0.0057501 -0.0024335 1.708e-05
-0.0022459 -0.0031444 -0.0036642 -0.0010672 -0.0017504 0.00045551 0.024766 0.0057262
-0.067984 0.21438 0.0192 0.0083628
-0.0040824 -0.00022175 -0.0034777 -0.0006618 -0.0010498 -0.00045649 -0.0024074 -2.5211e-05
0.019174 0.0082566 -0.08717 0.29999
1160000000 0.07968 0.29866 0.024618 -0.020186 0.0028592 -0.00040616 -0.00015913 -0.0024201
-0.0039905 -0.00078718 -0.0010592 0.0041662
0.024595 -0.020163 -0.091749 0.37396 -0.0030303 -0.029534 -0.0016943 -0.0016429
-0.0028356 0.0026192 -0.0015608 0.0019314
0.0028323 -0.00045 -0.0031486 -0.029527 0.24208 0.24407 -0.00086991 0.0016932
-0.00058509 0.0019519 -0.00091994 0.00034091
-0.00018303 -0.0024503 -0.0017169 -0.00167 -0.00083012 0.0017387 0.031691 0.2824
0.021297 -0.0098782 -0.0033864 0.0052409
-0.00399 -0.00082253 -0.0027662 0.0026786 -0.00060118 0.0019855 0.021317 -0.0099154
-0.033342 0.2226 0.018063 -0.00054287
-0.00094955 0.0041593 -0.0014612 0.0019145 -0.00091973 0.00030714 -0.0033517 0.0052532
0.018002 -0.00055191 -0.04014 0.30321
1220000000 0.12379 0.28876 0.011456 -0.029986 -0.0014866 -0.0009616 2.6052e-05 -0.00093793
-0.0027226 0.0022401 0.0010689 0.002014
0.011453 -0.029949 -0.047938 0.3872 -0.016671 -0.022 -0.0026769 0.00042215
-1.1957e-05 0.0031551 -0.0008382 0.0019489
-0.0015204 -0.00097499 -0.016794 -0.021955 0.28132 0.20591 0.00073208 0.0017725
0.00054373 0.0012712 0.00029049 0.0005667
-3.6061e-05 -0.00090953 -0.0026847 0.00042191 0.00072742 0.0017509 0.071629 0.27412
0.011204 -0.016883 0.0021447 0.001454
-0.0027212 0.0022593 3.7537e-05 0.0031774 0.00057884 0.0012608 0.011142 -0.016891
-0.0096706 0.23085 0.013915 -0.012951
0.00099649 0.0020634 -0.00082083 0.0020176 0.00025345 0.0005981 0.0020845 0.0014258
0.013958 -0.012834 -0.0087377 0.31822
1280000000 0.17402 0.26861 -0.0072727 -0.028781 -0.0020041 0.0024419 -0.00091287 -0.0019967
-0.00083152 0.0030494 0.0025257 0.0013187
-0.0072252 -0.028727 -0.001871 0.37915 -0.024027 -0.0092066 -0.00097968 0.0014823
0.0016835 0.0017984 0.00056565 0.0020017
-0.001978 0.0024292 -0.024117 -0.0091077 0.31247 0.16281 0.0015532 6.005e-07
0.0013025 0.00019964 0.00032607 0.00023994
-0.00088065 -0.0019841 -0.00095569 0.0014922 0.0015824 3.1384e-05 0.10881 0.25825
0.0014939 -0.019248 7.8996e-06 0.00031324
-0.0007753 0.0030831 0.0017129 0.0017628 0.0013057 0.00024519 0.0014652 -0.019262
0.026894 0.23409 0.0030485 -0.015053
0.0026042 0.0013958 0.00060079 0.002002 0.0003505 0.00019828 1.7146e-05 0.00032256
0.0030364 -0.015085 0.038146 0.32004
1340000000 0.2114 0.23547 -0.017254 -0.019517 0.00077081 0.00468 -0.0017539 -0.00087821
0.0014046 0.002664 0.0017541 -0.0013205
-0.017221 -0.019498 0.037527 0.37193 -0.022034 0.0038307 -0.00015248 0.0020559
0.0020202 0.0008165 0.0011524 0.00085757
0.00078837 0.0046873 -0.022057 0.0039357 0.33494 0.11557 0.0010986 -0.00079654
0.00064899 -0.00045402 0.00013975 0.00025179
-0.0017863 -0.00084695 -0.00014822 0.0020463 0.001089 -0.00078752 0.14226 0.23763
-0.0079341 -0.016861 0.00078907 0.00040029
0.0014524 0.0026481 0.0019849 0.00081612 0.00059328 -0.00049054 -0.0079872 -0.01683
0.056886 0.22942 -0.0035376 -0.01398
0.001747 -0.0013812 0.0011863 0.00084467 0.00015112 0.0002838 0.00077092 0.00037377
-0.0035116 -0.01396 0.075907 0.31509
1400000000 0.24517 0.19869 -0.023403 -0.008031 0.0052903 0.003423 -0.0021847 0.0006083
0.0024518 0.00089639 0.00038551 -0.0015585
-0.023376 -0.0080447 0.075241 0.35991 -0.015491 0.012437 0.0013692 0.0013248
0.0013295 -0.00077623 0.0011956 0.00011608
0.0053215 0.003403 -0.015444 0.012515 0.34862 0.062419 0.00013367 -0.0016227
3.9273e-05 -0.000367 0.00025168 0.00013484
-0.0021963 0.0006395 0.0013848 0.0013086 0.00014701 -0.0016212 0.17184 0.20877
-0.014187 -0.010235 -0.00089144 -0.00029104
0.0024173 0.00092157 0.0013277 -0.00078382 0.00013129 -0.00041268 -0.014214 -0.01021
0.089936 0.22508 -0.0099802 -0.0086244
0.0004228 -0.0015302 0.0011941 0.00011472 0.00026309 0.00016544 -0.00089914 -0.00029371
-0.0099818 -0.0086341 0.12061 0.30418
1460000000 0.26872 0.15517 -0.02055 0.0042827 0.0058233 -0.0017468 -0.001606 0.0017363
0.0020485 -0.00046522 -0.00038182 -0.0010184
-0.02052 0.0042546 0.11009 0.33855 -0.0065618 0.01576 0.0017297 0.00021251
0.00096487 -0.0013337 0.0012831 -0.00056127
0.0058063 -0.001733 -0.0064952 0.015804 0.35558 0.0083662 -0.0011467 -0.0013317
0.00018215 -0.00025297 0.00059156 -0.000227
-0.0016086 0.0017227 0.0017293 0.00021397 -0.0011339 -0.0013449 0.19889 0.17931
-0.01569 -0.0038047 -0.00089433 0.0019653
0.0020679 -0.0004805 0.00093225 -0.0013205 0.00020792 -0.00021501 -0.015689 -0.003763
0.11953 0.21088 -0.011964 -0.00308
-0.0003917 -0.0010284 0.0012992 -0.00056315 0.0006578 -0.00028367 -0.00088183 0.0019833
-0.012008 -0.0030456 0.15397 0.28406
1520000000 0.2817 0.11384 -0.015181 0.0099881 0.003485 -0.0043478 9.6446e-05 0.002587
0.0020998 -0.0018874 -0.0011993 -0.00018212
-0.01517 0.0099623 0.14415 0.32436 0.0014654 0.01353 0.001659 -0.00081004
5.0769e-05 -0.0011624 0.00035116 -0.0010453
0.0034745 -0.0043255 0.0015339 0.01354 0.34904 -0.047807 -0.0011101 -0.00042036
0.00062745 -0.00085094 5.3245e-05 -0.00016301
0.00012138 0.0025704 0.0016601 -0.00083066 -0.0010912 -0.0004199 0.22211 0.14075
-0.01545 0.0021853 0.0014385 0.0021045
0.0020764 -0.0019101 4.0889e-05 -0.0011665 0.00064571 -0.00082407 -0.015448 0.0022065
0.14761 0.19766 -0.011728 0.0014907
-0.0011926 -0.00018755 0.00036583 -0.0010438 8.1646e-05 -0.00021877 0.0014135 0.0020801
-0.011729 0.001482 0.18654 0.26326
1580000000 0.29227 0.068041 -0.0085243 0.013399 -0.00090397 -0.0051417 0.0014963 0.0019944
-0.00011466 -0.0020862 -0.00028233 0.00033667
-0.0085121 0.013372 0.17206 0.29989 0.0054262 0.0085691 0.00051006 -0.0015851
-0.00058212 -0.0010809 -0.00016049 -0.00086144
-0.00092682 -0.0051533 0.0054758 0.0085437 0.32971 -0.1053 -0.0017145 0.00056461
-0.00039273 -0.0012118 0.00029439 -0.00058357
0.0014938 0.0019582 0.0005074 -0.0015967 -0.001735 0.00055857 0.23618 0.10111
-0.012087 0.0073364 0.0022181 0.00085326
-0.00012621 -0.0020653 -0.00059127 -0.0010812 -0.00041737 -0.001212 -0.01207 0.0073896
0.17198 0.18013 -0.0094225 0.0072159
-0.00033039 0.00035871 -0.00016898 -0.00085548 0.00029986 -0.00058101 0.0022442 0.00085299
-0.0093864 0.0071894 0.21868 0.23684
1640000000 0.29501 0.026617 -0.0017021 0.012422 -0.002894 -0.0027605 0.0027225 0.0011041
-0.00069173 -0.0016033 -0.00051855 0.00063116
-0.0016917 0.012419 0.20218 0.27502 0.0062025 0.0035573 -0.00062641 -0.0017537
-0.0010792 -0.0004341 -0.00052865 -0.00071104
-0.0029307 -0.0027865 0.0062003 0.0035075 0.30136 -0.1548 -0.00072453 0.001473
-0.0010751 -0.0010393 -0.00014247 -0.00030557
0.0027331 0.0010744 -0.00063032 -0.0017558 -0.00073977 0.0014746 0.24852 0.051816
-0.0079693 0.0090664 0.0025153 -0.00076059
-0.00070489 -0.001601 -0.0010941 -0.00043429 -0.0010464 -0.0010473 -0.0079604 0.0090949
0.19546 0.15619 -0.0047413 0.0092619
-0.00052899 0.0006596 -0.00051844 -0.0006925 -0.00014121 -0.00031289 0.002503 -0.00077228
-0.0047521 0.0092493 0.24456 0.2058
1700000000 0.28845 -0.018915 0.0018112 0.0097694 -0.0037154 0.00010363 0.00318 -0.0012224
-0.0019661 -0.00079981 0.00062236 0.00055129
0.0018098 0.0097793 0.22065 0.24354 0.0040619 0.00048639 -0.0014593 -0.00062078
-0.00086832 6.3897e-05 -0.0009888 -0.00046452
-0.0037398 0.00014561 0.004057 0.00047573 0.25793 -0.19476 0.00036566 0.0016128
-0.0020868 -0.00012748 -0.00037651 -0.00079825
0.0031767 -0.0012243 -0.0014555 -0.00060916 0.00040688 0.001633 0.24499 0.0016393
-0.0048422 0.009912 0.0015491 -0.0021398
-0.0019599 -0.00076109 -0.0008681 5.9907e-05 -0.0020851 -0.00011957 -0.0048279 0.0099368
0.21315 0.13617 -0.0002615 0.0096107
0.00063238 0.00059649 -0.00099581 -0.00046172 -0.00041831 -0.00079616 0.0015622 -0.0021501
-0.00026802 0.0096123 0.26087 0.17156
1760000000 0.27682 -0.067893 0.0044066 0.0064618 -0.0023097 0.0010142 0.0013907 -0.0034826
-0.0014319 0.00058863 0.0004572 -0.00049815
0.0043954 0.0064718 0.24719 0.20368 0.0017899 -0.0014415 -0.0011941 0.00013115
-0.0011214 0.0009569 -0.00064165 0.0003917
-0.0023104 0.0010142 0.0017697 -0.0014501 0.2101 -0.22773 0.0012243 0.0010914
-0.0013971 0.0014326 -0.001278 -0.00071014
0.0013842 -0.0034258 -0.0011936 0.00015724 0.0011576 0.0011473 0.23585 -0.049863
-0.0011959 0.009243 -0.00014041 -0.0025058
-0.0014065 0.00060129 -0.0011058 0.00095414 -0.0013815 0.0014415 -0.0011892 0.0092353
0.22851 0.10179 0.0038562 0.0070938
0.00043217 -0.0005628 -0.00059074 0.00038547 -0.0013212 -0.00073846 -0.00014135 -0.0025062
0.0038305 0.0070943 0.2737 0.1343
1820000000 0.25238 -0.10558 0.004627 0.0027962 -0.00016908 0.0025353 -0.00091993 -0.0031435
-0.001255 0.0010164 -8.7433e-06 -0.0001344
0.0046283 0.0028137 0.25745 0.17336 -0.00056294 -0.00027602 -0.0013241 0.00089978
5.4371e-06 0.0012905 -0.00059902 0.00058516
-0.00012098 0.0025017 -0.00055439 -0.00025512 0.15928 -0.24391 0.0016519 0.00045045
-0.0001704 0.0024402 -0.001493 0.00041238
-0.00095427 -0.0031279 -0.0013226 0.00089738 0.0016525 0.00037494 0.20548 -0.097081
0.00062552 0.0078712 -0.0016631 -0.0015355
-0.0012521 0.0010242 -1.2243e-06 0.0013038 -0.00023316 0.0024334 0.00068022 0.007898
0.24616 0.072871 0.0046673 0.0037042
-1.3188e-05 -0.00011867 -0.00064002 0.00061026 -0.0015006 0.00039804 -0.0016537 -0.0015136
0.0046307 0.0037216 0.27578 0.097512
1880000000 0.21721 -0.14627 0.0025062 0.0003135 -0.00047978 0.0020545 -0.0030028 -0.0023444
-0.00030359 0.0018583 9.8289e-05 -0.00055337
0.0025133 0.00031623 0.26209 0.12668 -0.0024415 0.001582 -0.00023528 0.0016979
0.0006323 0.0013246 4.4641e-05 0.0010184
-0.00043143 0.0020525 -0.0024075 0.0015652 0.10729 -0.25283 0.0017811 -0.00099579
0.0016001 0.0020725 -0.0011111 0.0015347
-0.0029393 -0.0023084 -0.00020284 0.0017526 0.0017598 -0.00091469 0.16459 -0.13717
0.0017488 0.0055548 -0.0024336 0.00015878
-0.00027029 0.0018524 0.00065541 0.0013305 0.0016028 0.0020487 0.0016947 0.0055746
0.2504 0.041451 0.0050399 0.0013619
9.4285e-05 -0.00058469 5.4697e-05 0.00097302 -0.0011233 0.0015605 -0.0024384 0.00014247
0.0050052 0.0013513 0.27598 0.064103
1940000000 0.17771 -0.17206 5.3512e-05 -0.0014526 0.001374 0.0020914 -0.0037674 0.00031736
0.0014872 0.0011017 -0.000701 -0.00052992
7.4802e-05 -0.0014877 0.26281 0.094683 -0.0013264 0.0040326 0.0010902 0.0012773
0.0019509 0.00043966 0.0010976 0.00038143
0.0013797 0.0020246 -0.0012903 0.0040364 0.061948 -0.24572 0.00042627 -0.0023585
0.0025161 0.00030773 0.00073401 0.0016456
-0.0037647 0.00040121 0.0011203 0.0012904 0.00041173 -0.0023703 0.11194 -0.16751
0.0009868 0.0040061 -0.0012678 0.001456
0.0014918 0.0011275 0.0019753 0.00043895 0.0025258 0.00033611 0.0010216 0.0040052
0.25384 0.0030096 0.003878 -0.001787
-0.00066128 -0.00054876 0.0010601 0.00042122 0.00071443 0.0016303 -0.001218 0.0014361
0.0039062 -0.0017812 0.26541 0.027856
2000000000 0.13113 -0.18658 -0.0038896 0.00060875 0.0026274 0.0015228 -0.0022846 0.0037542
0.0013621 0.00043587 -0.00065616 0.00044207
-0.0038645 0.00062566 0.24843 0.059013 -0.0009615 0.005915 0.0016429 0.00046498
0.0013542 -0.0011983 0.00046551 0.00013392
0.002684 0.0015957 -0.0009327 0.0059247 0.018663 -0.23186 -0.0012863 -0.0014391
0.0021098 -0.0012406 0.0016152 0.0014119
-0.0022896 0.0037363 0.0016577 0.00045042 -0.0012707 -0.0013695 0.058638 -0.17728
-0.00021248 0.003604 -0.00010706 0.0022046
0.0013639 0.00040435 0.0013553 -0.0011854 0.0021712 -0.0012359 -0.00020921 0.003598
0.249 -0.030352 0.00064146 -0.0027684
