!Keysight Technologies,M9804A,MY58100912,A.14.10.03
!Date: Thursday, April 27, 2023 10:28:33
!Correction: S11(C  6-Port  ) 
!S12(C  6-Port  ) 
!S13(C  6-Port  ) 
!S14(C  6-Port  ) 
!S15(C  6-Port  ) 
!S16(C  6-Port  ) 
!S21(C  6-Port  ) 
!S22(C  6-Port  ) 
!S23(C  6-Port  ) 
!S24(C  6-Port  ) 
!S25(C  6-Port  ) 
!S26(C  6-Port  ) 
!S31(C  6-Port  ) 
!S32(C  6-Port  ) 
!S33(C  6-Port  ) 
!S34(C  6-Port  ) 
!S35(C  6-Port  ) 
!S36(C  6-Port  ) 
!S41(C  6-Port  ) 
!S42(C  6-Port  ) 
!S43(C  6-Port  ) 
!S44(C  6-Port  ) 
!S45(C  6-Port  ) 
!S46(C  6-Port  ) 
!S51(C  6-Port  ) 
!S52(C  6-Port  ) 
!S53(C  6-Port  ) 
!S54(C  6-Port  ) 
!S55(C  6-Port  ) 
!S56(C  6-Port  ) 
!S61(C  6-Port  ) 
!S62(C  6-Port  ) 
!S63(C  6-Port  ) 
!S64(C  6-Port  ) 
!S65(C  6-Port  ) 
!S66(C  6-Port  ) 
!S6P File: Measurement: :
# Hz S  RI   R 50
500000000 -0.33431 -0.055423 -0.0098806 -0.00096083 -0.0082707 0.013294 -0.0029211 0.011536
0.012759 0.0051305 -0.0025831 0.008056
-0.0099073 -0.0017691 -0.41606 -0.065265 0.0079866 -0.010689 0.0016671 0.011444
0.0079714 0.0031074 0.002029 0.013228
-0.0085708 0.013036 0.0078365 -0.010745 -0.26736 0.19852 0.0067643 0.0033367
-0.0016002 0.0082524 0.00058223 0.011857
-0.0032147 0.012725 0.0018154 0.011043 0.0069801 0.0030133 -0.3311 0.041438
-0.01773 -0.0039068 0.017414 0.023683
0.012373 0.0057087 0.0086216 0.0037899 -0.0017099 0.0087414 -0.018077 -0.0035282
-0.24663 -0.19816 -0.026325 0.0079212
-0.0021777 0.010451 0.0023435 0.012265 0.00082272 0.011542 0.017608 0.024263
-0.026231 0.0076137 -0.26906 -0.1279
560000000 -0.31868 0.11294 -0.022982 -0.063777 0.00010414 0.012065 0.0053046 0.010985
0.011078 0.0031741 0.010312 0.0078469
-0.022123 -0.063991 -0.37568 0.097128 -0.040935 -0.037789 0.013355 0.0025208
-0.013618 -0.003797 0.0035752 -0.00070816
0.00021635 0.012987 -0.041363 -0.037148 -0.1861 0.25058 -0.00021195 -0.0043282
0.019117 0.0051178 0.0078656 -0.0060634
0.0062922 0.011109 0.012787 0.0023035 -0.00039614 -0.0041103 -0.30627 0.1336
0.0051132 -0.023241 0.0067497 -0.021061
0.011051 0.0033166 -0.014053 -0.0030877 0.019685 0.0048028 0.0052413 -0.023677
-0.31077 -0.018927 0.0088677 -0.049501
0.011031 0.0082435 0.0032451 -0.00085397 0.0071003 -0.0061289 0.0064595 -0.021025
0.0088691 -0.049608 -0.33128 0.023738
620000000 -0.27694 0.092283 -0.022505 0.008229 0.0040514 0.00909 0.0086329 -0.0041565
0.012234 -0.0012332 0.00080582 -0.0025989
-0.022693 0.0085864 -0.4032 0.047308 -0.018217 0.0004076 -0.0013376 -0.0018348
0.011931 -0.0062909 0.0010452 -0.0027978
0.0039905 0.0093292 -0.01817 0.00051151 -0.15555 0.25938 -0.00056579 -0.0049583
-0.0030882 -0.0034999 0.0092384 -0.0033148
0.0080118 -0.0045939 -0.0014632 -0.001846 -0.00042745 -0.0050775 -0.26516 0.14495
-0.039063 -0.019613 0.013782 0.027784
0.012606 -0.0016253 0.01175 -0.0066379 -0.003435 -0.0033912 -0.038904 -0.019485
-0.23164 -0.051495 -0.042341 0.011288
0.0014513 -0.0039682 0.00063655 -0.0028795 0.0090742 -0.0032984 0.013642 0.027701
-0.042484 0.011159 -0.2501 -0.0099851
680000000 -0.23946 0.1831 -0.026265 -0.014785 0.0049401 0.0054207 0.00093983 -0.0073714
-0.002567 -0.011785 0.0055908 -0.0064469
-0.026281 -0.014926 -0.39017 0.14857 -0.032375 -0.0020471 -0.0015595 -0.0002964
-0.0017168 -0.0094944 -0.00048777 -0.0016285
0.0051999 0.0055865 -0.032394 -0.0019883 -0.10447 0.28014 -0.00097968 0.00011837
-0.001772 0.00030266 -0.00212 -0.0084361
0.0021388 -0.0075105 -0.0016062 -0.00023373 -0.00085248 -0.00012293 -0.22011 0.19681
-0.022699 -0.0075705 -0.0092524 -0.011613
-0.0027232 -0.011812 -0.0019531 -0.0093192 -0.0019751 0.00023853 -0.023116 -0.007691
-0.27976 0.05064 -0.0063217 -0.0070043
0.0051727 -0.0068702 -0.00080229 -0.0017609 -0.0021589 -0.0086197 -0.0092207 -0.01155
-0.0063824 -0.0068906 -0.26038 0.09156
740000000 -0.1938 0.17662 -0.039875 0.026905 0.013294 -0.0048663 -0.00032827 -0.0043208
-0.0043926 -0.0032672 -0.0064622 0.0026424
-0.039902 0.026762 -0.33559 0.16743 -0.036975 0.035026 0.00033624 -0.0060936
-0.0125 0.0075685 -0.00070089 -0.0061396
0.013762 -0.0045602 -0.037027 0.035145 -0.070756 0.278 -0.0019097 0.0034366
-0.0026792 -0.0057205 -0.0015101 0.0011274
-0.00010097 -0.0037381 0.00053376 -0.0058311 -0.001873 0.0034296 -0.20361 0.20346
-0.042817 -0.0068009 0.022574 0.014779
-0.0047156 -0.0031771 -0.013221 0.0072723 -0.0026708 -0.0056237 -0.042883 -0.0066716
-0.17815 0.076862 -0.042993 0.0010479
-0.0061426 0.0036074 -6.5538e-05 -0.0054097 -0.0018513 0.0014852 0.02256 0.014905
-0.042934 0.0011227 -0.24844 0.097532
800000000 -0.16282 0.22017 -0.022709 0.016147 0.0057987 -0.010322 -0.0048242 -0.002064
-0.0043461 0.0022277 0.0043895 0.00068787
-0.022548 0.016268 -0.34188 0.23837 -0.0086186 0.03397 -0.002305 0.002148
-0.0010522 0.0028011 0.00085328 0.0052349
0.0056435 -0.01036 -0.0085153 0.034072 -0.031662 0.30159 0.00087302 0.0015512
-0.00021358 0.0037432 -0.0016181 0.00075866
-0.0044298 -0.0025328 -0.0023249 0.0020219 0.00098091 0.0015076 -0.17428 0.23139
-0.029027 0.012844 0.013717 -0.009781
-0.0041971 0.0021641 -0.00096304 0.0030886 -0.00015151 0.0036302 -0.029033 0.012812
-0.22212 0.10737 -0.017941 0.018635
0.0042727 0.00031959 0.00099129 0.0054192 -0.0015618 0.00065258 0.013727 -0.0098085
-0.017974 0.018713 -0.24179 0.14856
860000000 -0.12842 0.24041 -0.018162 0.030606 -0.0029733 -0.010212 -0.0021311 0.00028346
0.0037483 0.0047141 -0.0035496 -0.0027678
-0.018234 0.030643 -0.29339 0.28145 0.0072567 0.034341 -6.99e-05 0.0019901
0.0033612 0.00010754 0.0031289 0.00077993
-0.002979 -0.010184 0.0072389 0.034503 0.016067 0.31011 -0.00085374 -0.00018157
0.0024089 -0.0016307 0.0014402 0.0045919
-0.0022419 0.00056144 -0.00019849 0.0022204 -0.00081268 -0.00022541 -0.13749 0.24211
-0.018574 0.017529 -0.006841 -0.0088476
0.0037225 0.0046241 0.0032417 -0.00017669 0.0023487 -0.0015873 -0.018357 0.017617
-0.16656 0.15821 -0.024177 0.016658
-0.0030393 -0.0028521 0.0032717 0.001217 0.0014079 0.0046641 -0.007015 -0.0086855
-0.024087 0.016549 -0.19213 0.19386
920000000 -0.10469 0.26352 0.0045352 0.038329 -0.0092887 -0.0049297 -0.0019549 0.0018315
0.0011803 0.002182 0.0029142 -0.0012723
0.004356 0.038333 -0.2663 0.30197 0.027972 0.022864 0.0014889 0.0013646
0.0073672 -0.00024426 0.0040644 -0.0024552
-0.009368 -0.0049045 0.028038 0.022776 0.061238 0.31134 0.0019755 -5.4189e-05
0.0010089 -0.00010528 0.00088918 -0.0012889
-0.0021824 0.0016843 0.0015415 0.0013585 0.0019876 -2.0124e-06 -0.11345 0.2588
-0.011245 0.030623 0.0034472 -0.0067885
0.0010321 0.0022048 0.0078124 -0.0002093 0.001017 -4.058e-06 -0.011215 0.030704
-0.1566 0.16506 -0.0019315 0.027483
0.0028507 -0.0016476 0.0040229 -0.0027631 0.00096693 -0.0012319 0.0035397 -0.0069161
-0.001794 0.027412 -0.19817 0.20619
980000000 -0.057905 0.28403 0.016733 0.030317 -0.0093495 0.004313 0.0018547 0.0036848
0.0041457 -0.0013965 -0.0028498 -0.0023352
0.016639 0.030251 -0.21322 0.33759 0.033244 0.0056221 0.002105 2.5454e-05
0.0018579 -0.0057033 3.7663e-05 -0.0023093
-0.0092979 0.0042654 0.033318 0.0055187 0.10696 0.30583 0.00072038 -0.0011297
0.00060215 -0.0020136 0.0015943 -0.00014539
0.001918 0.003727 0.0022087 -6.5698e-05 0.00071057 -0.0011205 -0.075236 0.27004
0.0071913 0.03047 -0.0089784 -0.0071377
0.0041272 -0.0013223 0.0017588 -0.0056422 0.00062591 -0.0019849 0.0072023 0.030437
-0.12273 0.19474 0.0058378 0.019793
-0.0028205 -0.0021416 -2.6898e-06 -0.0022634 0.0015486 -0.00024928 -0.0089589 -0.006916
0.005852 0.019816 -0.1558 0.2505
1040000000 -0.01664 0.29341 0.032854 0.019315 -0.0015192 0.0070698 0.0027987 0.00090092
0.00059335 -0.0034989 -3.4998e-05 -0.0014843
0.032761 0.01927 -0.1783 0.3509 0.030071 -0.01428 0.0017477 -0.0016295
-0.0020462 -0.0025348 -0.00075435 -0.0029199
-0.0014774 0.0071185 0.030031 -0.01439 0.15271 0.29289 -0.00043381 -0.001593
-0.0014892 -0.00088932 -0.000462 -0.0011368
0.0027884 0.00084569 0.001723 -0.001705 -0.00043949 -0.0016037 -0.047593 0.27945
0.018999 0.019008 -0.002293 0.0011959
0.00036132 -0.0034703 -0.0022155 -0.0024018 -0.0014692 -0.00085882 0.019077 0.018892
-0.088711 0.20142 0.013484 0.018319
-0.0002616 -0.0013345 -0.00078751 -0.0028142 -0.00051613 -0.0011266 -0.0023457 0.0010898
0.013455 0.018315 -0.13345 0.27127
1100000000 0.028159 0.30237 0.036304 -0.0032121 0.0028177 0.0041446 0.0024389 -0.0011725
-0.0023178 -0.0030682 -0.0040306 -0.00020323
0.036275 -0.0032038 -0.13522 0.36917 0.016083 -0.027699 2.881e-05 -0.0018673
-0.0036681 -0.0010126 -0.0034992 -0.0006691
0.0028407 0.0041129 0.016045 -0.02783 0.19859 0.27385 -0.0019257 3.6741e-05
-0.0017933 0.00044461 -0.0010447 -0.00043994
0.0024097 -0.0011669 -1.5768e-05 -0.0018349 -0.0018844 5.875e-05 -0.0077777 0.28494
0.024921 0.0058191 -0.0023436 6.7261e-06
-0.0023077 -0.0030447 -0.0035678 -0.0010443 -0.0017995 0.00047509 0.024952 0.0057678
-0.068189 0.21427 0.019168 0.008412
-0.0039608 -0.00031165 -0.0035576 -0.00059189 -0.00097623 -0.00045453 -0.0024294 2.4492e-05
0.019163 0.0084216 -0.087575 0.30024
1160000000 0.079592 0.29883 0.024743 -0.020175 0.0028176 -0.00047685 -1.4277e-05 -0.002391
-0.0039123 -0.00075957 -0.0011955 0.0040236
0.024663 -0.02012 -0.09191 0.37385 -0.0029866 -0.029545 -0.0016016 -0.0016997
-0.0029367 0.0025115 -0.0016246 0.001832
0.0028648 -0.0004233 -0.0031527 -0.029494 0.24192 0.24415 -0.00089642 0.0017578
-0.00066735 0.001961 -0.00083491 0.00037319
-9.5119e-05 -0.002527 -0.0015564 -0.0017459 -0.00083913 0.0017459 0.031586 0.28244
0.021276 -0.0099416 -0.0032888 0.0050735
-0.0039597 -0.00091155 -0.0030066 0.0025133 -0.00062834 0.0020298 0.021276 -0.0099899
-0.033452 0.22235 0.018149 -0.00022399
-0.0010673 0.0041536 -0.0016901 0.0018202 -0.00085617 0.00032881 -0.003267 0.0049921
0.018203 -0.00029433 -0.040632 0.30285
1220000000 0.12334 0.28911 0.011513 -0.029951 -0.0015224 -0.0010025 -4.363e-05 -0.00091823
-0.0027838 0.0022871 0.00094771 0.0020562
0.011554 -0.029857 -0.04803 0.38717 -0.016653 -0.02205 -0.0026592 0.00045785
-6.4157e-05 0.0031811 -0.00089552 0.0020128
-0.0015344 -0.00094822 -0.016775 -0.02198 0.28128 0.20601 0.00070278 0.0017253
0.00058965 0.001278 0.00023699 0.00064014
3.8094e-05 -0.00082435 -0.0026215 0.00046406 0.00066255 0.0017095 0.071471 0.27404
0.01132 -0.016959 0.0021391 0.0013974
-0.0027068 0.0023015 3.0359e-05 0.0031955 0.00059758 0.0012103 0.011271 -0.016974
-0.0098573 0.23056 0.014021 -0.012862
0.0010241 0.0020595 -0.00087521 0.00198 0.0002338 0.00069973 0.0021511 0.0014941
0.014043 -0.012884 -0.0089082 0.31834
1280000000 0.17384 0.26849 -0.0071813 -0.028872 -0.0020027 0.0024465 -0.00083879 -0.0020217
-0.00079121 0.0030896 0.0025177 0.0013851
-0.0071784 -0.028884 -0.002152 0.37913 -0.024 -0.0091924 -0.00097418 0.0014005
0.0016618 0.0017699 0.00058824 0.0020736
-0.0019933 0.0024031 -0.024056 -0.0091011 0.31243 0.16291 0.0015602 2.6455e-05
0.0012955 0.00029115 0.00036025 0.00020888
-0.00088387 -0.0020143 -0.0010051 0.0013773 0.0015688 4.9149e-05 0.10879 0.25833
0.0014312 -0.019378 -1.3504e-05 0.00037213
-0.00073387 0.0031358 0.0017667 0.0017977 0.001227 0.00030556 0.0013997 -0.019427
0.026709 0.23387 0.0030962 -0.015063
0.0025093 0.0013424 0.00058753 0.0020834 0.00037582 0.00025153 -7.0869e-05 0.00035596
0.0031267 -0.015063 0.037905 0.3203
1340000000 0.21131 0.23577 -0.017245 -0.019535 0.00069326 0.0046624 -0.0017848 -0.00077088
0.0014051 0.0026653 0.0017591 -0.0012754
-0.017179 -0.019591 0.03738 0.37189 -0.022058 0.0037562 -0.00013153 0.0021061
0.002023 0.00084679 0.0012438 0.00087086
0.00066372 0.0046598 -0.02209 0.0038803 0.33495 0.11565 0.0011163 -0.00083641
0.00055688 -0.00053421 4.7673e-05 0.00026308
-0.0018465 -0.00077329 -0.00010762 0.0020789 0.0011488 -0.00073242 0.14201 0.23757
-0.0079303 -0.017031 0.00071771 0.00049424
0.0013453 0.002688 0.0020351 0.0008018 0.0005442 -0.00046798 -0.0079845 -0.017017
0.056733 0.22937 -0.0035783 -0.014135
0.001649 -0.0013375 0.0012075 0.00081147 -3.8378e-05 0.0002255 0.00073329 0.0004772
-0.0035765 -0.014062 0.075435 0.31511
1400000000 0.24512 0.19868 -0.02343 -0.0081129 0.0053039 0.0034628 -0.0022109 0.00057418
0.0025089 0.0008989 0.00044451 -0.0015247
-0.023429 -0.0081232 0.07503 0.35991 -0.015516 0.012398 0.0013422 0.0013199
0.0013877 -0.00077239 0.001159 0.00013592
0.0053333 0.0034433 -0.015492 0.012515 0.3485 0.062474 0.00011948 -0.00158
0.00012558 -0.00041221 0.00028515 0.00025079
-0.002193 0.00057887 0.001337 0.0013357 0.00011738 -0.0016083 0.17176 0.20874
-0.014339 -0.010221 -0.00088065 -0.00025401
0.0024192 0.00088953 0.0013312 -0.00076131 0.00015322 -0.00039025 -0.014321 -0.010214
0.089383 0.22505 -0.0098377 -0.0088556
0.00037694 -0.0015302 0.001225 0.00015966 0.00033022 0.00024273 -0.00090876 -0.00031818
-0.0098262 -0.0089094 0.11996 0.30427
1460000000 0.26859 0.15526 -0.020632 0.0042571 0.0058328 -0.0016748 -0.0016157 0.0017428
0.0020857 -0.00039896 -0.00042157 -0.001035
-0.02061 0.0042129 0.10993 0.33857 -0.0065385 0.015741 0.0017238 0.00022572
0.0009773 -0.0013592 0.0012939 -0.00055017
0.0057724 -0.0018439 -0.006449 0.015772 0.35555 0.0084096 -0.0011073 -0.0014174
0.00022667 -0.00020369 0.00066481 -0.00026099
-0.0015813 0.0017766 0.0017481 0.00019556 -0.0011413 -0.001419 0.19861 0.17927
-0.015796 -0.0037507 -0.00096139 0.0020427
0.0021388 -0.00045252 0.00097068 -0.0014014 0.00014579 -0.00016513 -0.015849 -0.0037097
0.11914 0.21089 -0.01201 -0.0031117
-0.00032192 -0.0010402 0.0012629 -0.00057603 0.00061187 -0.00019066 -0.00091643 0.0020678
-0.011992 -0.003042 0.15352 0.28409
1520000000 0.28171 0.11386 -0.015209 0.0099109 0.0034483 -0.0042976 0.00013156 0.0025736
0.0021612 -0.0018938 -0.001206 -0.00024017
-0.015168 0.0099134 0.14398 0.32442 0.0014043 0.01354 0.0016606 -0.00080874
3.9848e-05 -0.0011701 0.00035614 -0.0010621
0.0034692 -0.0042877 0.0014664 0.013563 0.34901 -0.047708 -0.0011529 -0.00038979
0.00064436 -0.00085393 0.00015563 -0.00018568
7.4594e-05 0.0025373 0.0016393 -0.00084452 -0.0011074 -0.00036417 0.22202 0.14086
-0.015464 0.0022876 0.0015283 0.0020749
0.0020559 -0.0018882 2.6419e-05 -0.0011887 0.00067529 -0.00084814 -0.015442 0.0022759
0.14722 0.19776 -0.011798 0.0013647
-0.0012113 -0.00019686 0.00035171 -0.0010491 0.00010304 -0.00020117 0.0014552 0.0020432
-0.011819 0.0013206 0.18618 0.26355
1580000000 0.29197 0.068145 -0.0085577 0.013405 -0.00090883 -0.0051286 0.0015091 0.0019586
-0.00018612 -0.0020691 -0.00034196 0.00032648
-0.0085448 0.01338 0.17191 0.29997 0.0053885 0.0085704 0.00053153 -0.0015968
-0.00056216 -0.001107 -0.00014953 -0.00086416
-0.00096451 -0.0051536 0.0054226 0.0085993 0.3296 -0.10524 -0.0016778 0.00059638
-0.00031511 -0.0011653 0.00033314 -0.00052153
0.0014964 0.0020023 0.00051513 -0.0015901 -0.0017202 0.00059163 0.23586 0.10116
-0.012177 0.0074542 0.0021986 0.00087665
-9.3524e-05 -0.002045 -0.00057688 -0.0011057 -0.000346 -0.0011727 -0.01216 0.007462
0.17162 0.18034 -0.00954 0.0071387
-0.00034172 0.00029781 -0.00019374 -0.00088376 0.00039898 -0.00058949 0.0021904 0.00093813
-0.0095288 0.0071533 0.21822 0.2373
1640000000 0.29473 0.02679 -0.001742 0.012458 -0.0028251 -0.0027561 0.002768 0.001093
-0.00068852 -0.0016163 -0.00048088 0.00071074
-0.0017424 0.012492 0.20203 0.27518 0.0062053 0.0035941 -0.00064947 -0.0017725
-0.0010733 -0.00043366 -0.00056337 -0.00067988
-0.0028611 -0.0027363 0.0062024 0.0035986 0.30147 -0.15468 -0.00070893 0.0014478
-0.0010232 -0.0010234 -0.00016995 -0.00020636
0.002822 0.0010903 -0.00062936 -0.0017305 -0.00073025 0.0014648 0.2484 0.052089
-0.0078793 0.0092612 0.002629 -0.0006735
-0.00073645 -0.0015767 -0.0011088 -0.00043504 -0.0010181 -0.00095681 -0.0078437 0.0092734
0.19519 0.15648 -0.0048263 0.0093158
-0.00063764 0.00076095 -0.00064278 -0.00070185 -0.00013524 -0.00022466 0.0026166 -0.00076639
-0.0048299 0.0092508 0.24406 0.206
1700000000 0.28827 -0.018659 0.0018323 0.0097751 -0.0037472 0.00010358 0.003158 -0.0012037
-0.0019467 -0.00081646 0.00059767 0.00054162
0.0018275 0.0097639 0.22058 0.24366 0.0040408 0.00053408 -0.0014561 -0.00060418
-0.00085465 4.8723e-05 -0.0009153 -0.00047436
-0.0036841 1.7142e-05 0.0040988 0.00046221 0.25789 -0.19472 0.00036768 0.0016457
-0.002112 -0.00015095 -0.00033163 -0.00084635
0.0031357 -0.0012379 -0.0014128 -0.00062002 0.00038286 0.0016709 0.24486 0.0018732
-0.0047711 0.0099685 0.0015857 -0.0022017
-0.0018818 -0.0007439 -0.00081732 8.9184e-05 -0.0020778 -0.00015526 -0.0047765 0.0099911
0.21293 0.13643 -0.00029097 0.0096661
0.00071825 0.00060382 -0.00092435 -0.00043546 -0.00035416 -0.00086871 0.0015832 -0.0021276
-0.00029059 0.0097055 0.26057 0.17185
1760000000 0.27668 -0.067613 0.004405 0.0065787 -0.0023107 0.0010354 0.0013834 -0.0034258
-0.0014258 0.00058307 0.0004263 -0.00054844
0.0044239 0.0065163 0.24705 0.20386 0.0018097 -0.0013793 -0.0012139 0.00011665
-0.0010432 0.00096703 -0.00062446 0.00036027
-0.0022865 0.00098111 0.00173 -0.0014227 0.21014 -0.22769 0.0011983 0.0010659
-0.0013081 0.0014626 -0.0011698 -0.00073581
0.0013196 -0.0033922 -0.0012646 0.00013364 0.0011895 0.0010673 0.23593 -0.049604
-0.0010785 0.0092415 -4.3041e-05 -0.0025607
-0.0015027 0.00058451 -0.0011058 0.00095107 -0.0013359 0.0013864 -0.0010187 0.0092359
0.22835 0.10208 0.0038413 0.0072822
0.00053332 -0.00049913 -0.00062146 0.00044792 -0.0012361 -0.00074968 -4.4123e-05 -0.0026083
0.0037861 0.0072348 0.27336 0.13457
1820000000 0.25252 -0.10519 0.0046883 0.0028246 -0.00013272 0.0024825 -0.00093678 -0.0031652
-0.0011833 0.001032 5.0591e-07 -0.00014997
0.0046361 0.0028706 0.2574 0.17347 -0.00050864 -0.00029314 -0.0013612 0.00094341
-1.6468e-05 0.0013176 -0.00053883 0.0005091
-0.00012767 0.0025509 -0.0005023 -0.00020627 0.15937 -0.24379 0.001692 0.00040857
-0.00020485 0.0024847 -0.0015173 0.00034728
-0.00094355 -0.0031242 -0.0013441 0.00093628 0.0016189 0.00040437 0.20564 -0.096979
0.00079364 0.00781 -0.0017206 -0.0015666
-0.0012065 0.0010026 -2.7596e-05 0.0012675 -0.00018734 0.0024487 0.00079188 0.0078319
0.24602 0.073203 0.0045634 0.0038134
1.7712e-05 -0.00030473 -0.0006035 0.00051449 -0.0014186 0.00037846 -0.0017248 -0.0015487
0.0045831 0.0038613 0.27556 0.097944
1880000000 0.21726 -0.14599 0.0025557 0.00030447 -0.00054531 0.002175 -0.0029599 -0.0022962
-0.00038885 0.0019351 5.7638e-05 -0.00051021
0.002508 0.00032092 0.26202 0.12683 -0.0025625 0.0015715 -0.00028775 0.0017285
0.00058721 0.0012754 2.827e-05 0.00099573
-0.00049997 0.0022017 -0.0024759 0.001631 0.10725 -0.25291 0.0017456 -0.00090095
0.0015962 0.0019816 -0.0010883 0.0015199
-0.0027936 -0.0023272 -0.00026316 0.0017798 0.0017548 -0.00080941 0.1648 -0.13706
0.001846 0.0055253 -0.0023546 0.00016769
-0.00030289 0.0019234 0.00058949 0.0013248 0.0015088 0.0020678 0.0018932 0.0054996
0.25026 0.041826 0.0051291 0.00145
-2.8081e-05 -0.00060818 7.4471e-05 0.00098064 -0.0011973 0.0014397 -0.0023363 0.00022457
0.0050737 0.0014284 0.27561 0.064394
1940000000 0.17771 -0.17174 5.7943e-05 -0.0014819 0.0013871 0.0019989 -0.0037768 0.00021612
0.0015353 0.0011284 -0.00061899 -0.00057522
5.9565e-05 -0.0014573 0.26277 0.09481 -0.001304 0.0039674 0.0011385 0.0013042
0.0019434 0.00049739 0.0010083 0.00040303
0.0013695 0.0021127 -0.0013954 0.0039452 0.061953 -0.24563 0.00050933 -0.002322
0.0025363 0.00037994 0.0006765 0.0016391
-0.0038255 0.00039326 0.0011012 0.001252 0.00046639 -0.002385 0.11215 -0.1676
0.0010974 0.0039643 -0.0013546 0.0016173
0.0013931 0.0011753 0.0019558 0.00044116 0.0025407 0.00037165 0.001108 0.0039489
0.25374 0.0034111 0.0039362 -0.0017232
-0.00074602 -0.00052654 0.0010671 0.00040851 0.00066484 0.0016771 -0.001311 0.0015378
0.003983 -0.0016957 0.26542 0.028184
2000000000 0.13142 -0.1865 -0.0037623 0.00061604 0.0025361 0.0015848 -0.0022984 0.0038374
0.0012612 0.00047162 -0.00052071 0.0005574
-0.003769 0.0006002 0.24842 0.059214 -0.00094407 0.0058726 0.0016321 0.00049895
0.0013523 -0.0011383 0.00047661 0.00021571
0.0026171 0.0015649 -0.00088717 0.0059347 0.018887 -0.23172 -0.001326 -0.0014056
0.0022063 -0.001236 0.0016867 0.0014619
-0.0023258 0.0036424 0.0016583 0.00040917 -0.0013009 -0.0014872 0.05852 -0.17715
-0.0003993 0.0034626 -6.0807e-05 0.0020152
0.0013191 0.00046667 0.0013784 -0.0011115 0.0022277 -0.0012865 -0.00043433 0.0034514
0.249 -0.030089 0.00083445 -0.0027374
