!Keysight Technologies,M9804A,MY58100912,A.14.10.03
!Date: Thursday, April 27, 2023 10:28:33
!Correction: S11(C  6-Port  ) 
!S12(C  6-Port  ) 
!S13(C  6-Port  ) 
!S14(C  6-Port  ) 
!S15(C  6-Port  ) 
!S16(C  6-Port  ) 
!S21(C  6-Port  ) 
!S22(C  6-Port  ) 
!S23(C  6-Port  ) 
!S24(C  6-Port  ) 
!S25(C  6-Port  ) 
!S26(C  6-Port  ) 
!S31(C  6-Port  ) 
!S32(C  6-Port  ) 
!S33(C  6-Port  ) 
!S34(C  6-Port  ) 
!S35(C  6-Port  ) 
!S36(C  6-Port  ) 
!S41(C  6-Port  ) 
!S42(C  6-Port  ) 
!S43(C  6-Port  ) 
!S44(C  6-Port  ) 
!S45(C  6-Port  ) 
!S46(C  6-Port  ) 
!S51(C  6-Port  ) 
!S52(C  6-Port  ) 
!S53(C  6-Port  ) 
!S54(C  6-Port  ) 
!S55(C  6-Port  ) 
!S56(C  6-Port  ) 
!S61(C  6-Port  ) 
!S62(C  6-Port  ) 
!S63(C  6-Port  ) 
!S64(C  6-Port  ) 
!S65(C  6-Port  ) 
!S66(C  6-Port  ) 
!S6P File: Measurement: :
# Hz S  RI   R 50
500000000 -0.33419 -0.053254 -0.0093148 -0.00055161 -0.0079366 0.012986 -0.0034401 0.011247
0.012581 0.0055031 -0.0028042 0.0080873
-0.0095039 -0.0014125 -0.41559 -0.064873 0.008036 -0.010534 0.0014611 0.011337
0.0077482 0.0031714 0.0014589 0.01298
-0.0081305 0.012776 0.0079883 -0.010472 -0.26711 0.19878 0.0065158 0.0032535
-0.0013278 0.0086246 0.00016098 0.012128
-0.0032664 0.011046 0.0017847 0.010896 0.0065846 0.0032602 -0.33147 0.04272
-0.018741 -0.0044372 0.016895 0.024567
0.012967 0.0057458 0.0077906 0.0038877 -0.0016772 0.0085093 -0.018356 -0.0046938
-0.24722 -0.19968 -0.026701 0.0057635
-0.0025688 0.0070862 0.0014655 0.012832 0.00022329 0.012185 0.016486 0.025343
-0.026495 0.0055208 -0.26979 -0.12589
560000000 -0.3197 0.11157 -0.023946 -0.064809 0.00031848 0.01295 0.0055519 0.01097
0.011322 0.0037682 0.0096346 0.0083742
-0.023815 -0.064488 -0.37504 0.099105 -0.041999 -0.03817 0.013244 0.0031399
-0.014106 -0.0040671 0.003122 -0.00024309
0.00034956 0.012815 -0.042117 -0.037995 -0.18565 0.25047 -0.00043955 -0.0048745
0.019565 0.0048386 0.0076174 -0.0061685
0.0056525 0.010966 0.013714 0.0031234 -6.729e-06 -0.0047106 -0.30716 0.13515
0.0055783 -0.023683 0.0055285 -0.021326
0.01084 0.0035291 -0.014505 -0.0046539 0.019377 0.004618 0.006067 -0.023245
-0.31069 -0.020006 0.009135 -0.048482
0.010236 0.0076731 0.0038885 -0.00055451 0.0071081 -0.005488 0.0051491 -0.021163
0.0091064 -0.049514 -0.33237 0.022739
620000000 -0.2773 0.091918 -0.022695 0.0085969 0.003657 0.0091654 0.0083652 -0.0044616
0.01308 -0.0017304 0.00095374 -0.0025311
-0.02261 0.0085432 -0.40327 0.047545 -0.018469 0.00051486 -0.0015697 -0.0019248
0.012123 -0.0066673 0.0012428 -0.0030728
0.0037273 0.0090742 -0.018435 0.00050637 -0.15579 0.25955 -0.00098404 -0.0048914
-0.0031611 -0.0033765 0.008472 -0.003045
0.0082803 -0.0043931 -0.0013826 -0.0018486 -0.00077799 -0.0051173 -0.26559 0.14478
-0.038874 -0.018812 0.011948 0.026378
0.012801 -0.0014289 0.012112 -0.0067348 -0.0037015 -0.0035106 -0.039279 -0.018848
-0.23052 -0.052409 -0.040226 0.012503
0.00067448 -0.0026022 0.0010636 -0.0027884 0.0086547 -0.0030808 0.013086 0.027068
-0.04165 0.012281 -0.25148 -0.012387
680000000 -0.23904 0.18324 -0.026133 -0.01477 0.0051121 0.0055095 0.0010925 -0.0074683
-0.0026691 -0.011706 0.0051563 -0.0062659
-0.026126 -0.014796 -0.39024 0.14883 -0.032376 -0.0020197 -0.0014077 -0.00022835
-0.0020882 -0.0094654 -0.00071926 -0.0015341
0.0051833 0.005402 -0.032359 -0.001952 -0.10437 0.28041 -0.0007763 -0.00010983
-0.0020895 0.00026129 -0.0022735 -0.0084482
0.0012054 -0.0074121 -0.0013055 -0.00014407 -0.00063933 -0.00012136 -0.22036 0.19701
-0.023163 -0.0075915 -0.0087294 -0.011358
-0.0026096 -0.011707 -0.0020201 -0.0093309 -0.0020176 0.00039897 -0.023265 -0.0074777
-0.27959 0.05013 -0.0070156 -0.0063852
0.0054059 -0.0060969 -0.00095856 -0.0021913 -0.0024643 -0.0090065 -0.0085807 -0.011151
-0.0071976 -0.0070119 -0.25987 0.09313
740000000 -0.19426 0.176 -0.039441 0.026859 0.013558 -0.0046202 -0.00041132 -0.0042113
-0.0043584 -0.0032168 -0.00706 0.0029454
-0.03942 0.02686 -0.33526 0.16771 -0.036931 0.035002 0.00046057 -0.0058265
-0.012995 0.0076316 -0.00057757 -0.0061529
0.013468 -0.0045409 -0.036775 0.035133 -0.070633 0.27792 -0.0020696 0.003617
-0.0025232 -0.0059291 -0.0017626 0.0012602
-0.00046357 -0.0041645 0.00039224 -0.0058428 -0.001886 0.0034452 -0.20399 0.20407
-0.042472 -0.0075289 0.02221 0.014956
-0.0045472 -0.002716 -0.01272 0.0068435 -0.0025437 -0.0058416 -0.042151 -0.0072481
-0.17916 0.076808 -0.042923 0.0011034
-0.0067278 0.0029372 -0.00032425 -0.0050275 -0.0017032 0.0013455 0.021987 0.015584
-0.042395 0.0003422 -0.24786 0.098882
800000000 -0.16256 0.22003 -0.022935 0.016467 0.0058161 -0.01043 -0.0045498 -0.0021135
-0.0041065 0.0019739 0.0044897 0.00085876
-0.022807 0.016268 -0.34191 0.23869 -0.0085938 0.034145 -0.0022234 0.0021328
-0.00088953 0.0028652 0.001099 0.0053629
0.0057335 -0.010472 -0.0086202 0.034192 -0.031509 0.30173 0.00095975 0.0015013
-0.00012227 0.0036235 -0.0017441 0.00075008
-0.004617 -0.0021082 -0.0023271 0.0021985 0.00093054 0.0015957 -0.17425 0.23137
-0.028764 0.013148 0.013817 -0.010145
-0.0043525 0.002078 -0.0010494 0.0027735 -7.3164e-05 0.0036958 -0.028858 0.013221
-0.22187 0.10699 -0.017706 0.019337
0.0043015 0.00046795 0.00070826 0.0052572 -0.0018858 0.00068771 0.014035 -0.010278
-0.017828 0.019458 -0.24134 0.14874
860000000 -0.12819 0.24034 -0.018088 0.030439 -0.0029117 -0.010207 -0.0023157 0.00015646
0.0039072 0.0044847 -0.0035004 -0.0025207
-0.018086 0.030375 -0.29353 0.28113 0.0072536 0.034245 -0.00012322 0.0020799
0.003276 0.00014123 0.0037639 0.00072289
-0.0030147 -0.010094 0.0073647 0.034281 0.016198 0.31012 -0.00085738 -0.00014145
0.0023787 -0.0015007 0.0016231 0.004477
-0.0023662 9.8761e-05 -4.0205e-05 0.0020028 -0.00076075 -0.00018566 -0.1378 0.24177
-0.018932 0.017716 -0.0066244 -0.0087342
0.0038068 0.0046077 0.0031551 0.00023582 0.0021884 -0.0016697 -0.0186 0.017735
-0.16716 0.15796 -0.023762 0.01717
-0.0033021 -0.0026515 0.0032597 0.00056444 0.0015153 0.0044126 -0.0067766 -0.0080658
-0.023967 0.016698 -0.19104 0.19395
920000000 -0.1047 0.26339 0.0043408 0.038304 -0.0093467 -0.0048672 -0.0020217 0.0017316
0.001116 0.001938 0.0030715 -0.0014287
0.0043314 0.038295 -0.26612 0.30252 0.027985 0.022868 0.0014009 0.0012873
0.0074478 -0.0004117 0.003996 -0.0025163
-0.0093843 -0.0048009 0.028069 0.022832 0.061337 0.31138 0.0019334 1.9073e-05
0.0010061 -9.8654e-05 0.00092008 -0.0013428
-0.0021016 0.0017667 0.0014289 0.0013211 0.0019969 -3.8564e-06 -0.11332 0.2588
-0.011249 0.030795 0.0034409 -0.0068664
0.0012657 0.0020438 0.0074462 -0.00042673 0.00099184 -2.9431e-05 -0.011234 0.030744
-0.15567 0.16491 -0.0018891 0.027555
0.002964 -0.0014129 0.0041152 -0.0025086 0.00086342 -0.0011164 0.003294 -0.0066717
-0.001529 0.027476 -0.19788 0.2066
980000000 -0.05759 0.28424 0.016747 0.030392 -0.0093435 0.0042417 0.0018989 0.0035933
0.0041889 -0.0013883 -0.0031755 -0.0022856
0.016808 0.030295 -0.21305 0.33769 0.033229 0.0056022 0.0022134 -0.00016139
0.0017871 -0.0057507 -6.1509e-05 -0.0024687
-0.0093581 0.0042528 0.033244 0.0054791 0.10706 0.30583 0.0007442 -0.0011513
0.0005364 -0.0019642 0.0016459 -0.00018067
0.0019251 0.0036241 0.0021463 -4.1419e-05 0.0006936 -0.0011354 -0.075083 0.27026
0.0071532 0.030265 -0.0090031 -0.0070126
0.0041706 -0.0014987 0.0017882 -0.0058964 0.00057231 -0.0018705 0.0070744 0.030216
-0.12232 0.19508 0.0059492 0.019624
-0.0028015 -0.0024431 -4.4967e-05 -0.002202 0.0016332 -0.00018285 -0.0092207 -0.0070759
0.0058529 0.019622 -0.15521 0.25111
1040000000 -0.016182 0.29347 0.032856 0.019265 -0.0015061 0.007042 0.0027223 0.00088453
0.00035065 -0.0036443 -0.00020192 -0.0014363
0.032859 0.019276 -0.17804 0.35105 0.030079 -0.014315 0.0017253 -0.0017363
-0.0020502 -0.002658 -0.00085272 -0.0028512
-0.001439 0.0070558 0.030063 -0.014416 0.15285 0.29286 -0.00043295 -0.0015973
-0.0015685 -0.00095399 -0.0004578 -0.0010739
0.002682 0.00089027 0.0017701 -0.0017453 -0.00042992 -0.0015853 -0.047625 0.27953
0.019038 0.018815 -0.0024429 0.001011
0.00039618 -0.0035283 -0.0020104 -0.0024668 -0.0016142 -0.0008969 0.019023 0.018967
-0.088687 0.20162 0.013712 0.0184
6.2857e-06 -0.0014851 -0.00077174 -0.0029209 -0.00047127 -0.0011026 -0.0023989 0.0011286
0.013747 0.018386 -0.13235 0.27147
1100000000 0.028314 0.30264 0.036229 -0.0031745 0.0028071 0.0041294 0.0024724 -0.0011782
-0.0022087 -0.0030243 -0.0039579 -0.0001183
0.036203 -0.0031677 -0.13522 0.36936 0.016096 -0.027751 4.9477e-05 -0.001929
-0.0035938 -0.0010277 -0.0034468 -0.00056751
0.0028215 0.0041371 0.016007 -0.027799 0.19866 0.27385 -0.001918 8.0639e-05
-0.0017477 0.00048886 -0.0010834 -0.00042973
0.0024756 -0.0012054 3.9956e-05 -0.0019476 -0.0018783 5.6143e-05 -0.0076617 0.28494
0.024859 0.0056956 -0.0023428 -7.215e-05
-0.0022195 -0.0031011 -0.0035906 -0.00097218 -0.0017613 0.0004543 0.024825 0.0056396
-0.068036 0.21432 0.019242 0.0083989
-0.0039015 -0.00022609 -0.0033505 -0.00064059 -0.0010437 -0.00039211 -0.0023712 1.4053e-05
0.019279 0.0083145 -0.087114 0.30025
1160000000 0.079759 0.29865 0.02467 -0.020302 0.0028176 -0.00042984 -0.00013441 -0.0024271
-0.0039796 -0.00085637 -0.0010861 0.0041618
0.02466 -0.020327 -0.091762 0.37384 -0.0029231 -0.0295 -0.0016486 -0.0018415
-0.0027901 0.0026035 -0.0016782 0.0018007
0.002855 -0.00042631 -0.0030901 -0.029487 0.24206 0.24411 -0.00085216 0.0017336
-0.00059076 0.0019613 -0.00090897 0.00039
-0.00012805 -0.0024192 -0.001664 -0.0017948 -0.0008757 0.0017498 0.031679 0.28244
0.021185 -0.0098693 -0.0032288 0.0051617
-0.0039906 -0.00071583 -0.00283 0.0025817 -0.00057648 0.0019174 0.021222 -0.0098838
-0.033492 0.2224 0.01804 -0.00044641
-0.0010435 0.004163 -0.0015486 0.0019418 -0.00084336 0.0003203 -0.0034097 0.0050972
0.018192 -0.00049862 -0.040416 0.30289
1220000000 0.12371 0.28901 0.01148 -0.029933 -0.001558 -0.00099073 -3.6408e-05 -0.000865
-0.0027648 0.0022554 0.00099092 0.0020716
0.011501 -0.029897 -0.047881 0.38713 -0.016659 -0.022025 -0.0025933 0.0004535
-4.568e-05 0.0032193 -0.00088956 0.0019558
-0.0015907 -0.00097907 -0.016789 -0.021969 0.28133 0.20596 0.00073717 0.0017144
0.00064879 0.0012732 0.00031847 0.00061537
7.413e-06 -0.00090031 -0.0026069 0.00046879 0.00074346 0.001709 0.071533 0.27411
0.011155 -0.016939 0.0020423 0.0015213
-0.0027821 0.0023207 -4.6803e-06 0.00322 0.00062731 0.0013036 0.01113 -0.016938
-0.0098889 0.23084 0.01378 -0.01275
0.00099786 0.0020776 -0.00086547 0.0021033 0.00032588 0.00060555 0.0021359 0.0015247
0.013921 -0.01279 -0.0090124 0.31838
1280000000 0.1739 0.26845 -0.0073006 -0.028757 -0.0019792 0.0024519 -0.00087902 -0.0020611
-0.00074014 0.0030469 0.0025896 0.001302
-0.0072677 -0.028693 -0.0019318 0.37926 -0.024011 -0.009185 -0.0010414 0.001466
0.0017518 0.0017888 0.0005542 0.0019802
-0.0019588 0.0024366 -0.024052 -0.0090983 0.31249 0.16276 0.0015233 6.6895e-05
0.001309 0.00021531 0.00037682 0.0002333
-0.00089928 -0.0020335 -0.0010549 0.0015127 0.0015823 6.658e-05 0.10886 0.25822
0.0015258 -0.019305 4.9014e-05 0.00032068
-0.00076138 0.0031406 0.0017371 0.0017773 0.0013088 0.00024172 0.0014632 -0.019323
0.026696 0.23405 0.0030704 -0.015081
0.0025481 0.0013201 0.00054646 0.0019641 0.00032625 0.00025079 -2.0774e-05 0.00032295
0.0030536 -0.015017 0.038214 0.31982
1340000000 0.21144 0.23554 -0.017208 -0.019553 0.00071179 0.004712 -0.0017354 -0.00084664
0.0014164 0.0027371 0.0018258 -0.0012959
-0.017196 -0.019584 0.037491 0.37193 -0.022007 0.003822 -0.00011401 0.0020235
0.0019532 0.00084196 0.0012081 0.00084898
0.00072742 0.0047128 -0.022029 0.003978 0.33497 0.11561 0.0011337 -0.0008475
0.00057966 -0.00050345 7.7667e-05 0.00030685
-0.0017447 -0.00082194 -0.00012769 0.0019808 0.0011046 -0.00082838 0.14214 0.23772
-0.0079157 -0.016926 0.00081316 0.00047619
0.001382 0.0026496 0.0020168 0.00081327 0.00056563 -0.00053214 -0.0079788 -0.016855
0.056935 0.2293 -0.0035488 -0.013958
0.0018036 -0.0013925 0.0012477 0.00083206 3.9044e-05 0.00023444 0.00082779 0.00042284
-0.0035459 -0.013958 0.075792 0.3152
1400000000 0.24515 0.19865 -0.023371 -0.0080445 0.0052753 0.0034053 -0.0022157 0.0006018
0.0024774 0.00085469 0.00035243 -0.0015648
-0.023334 -0.0080429 0.075245 0.35987 -0.015527 0.012394 0.0013529 0.0013639
0.001339 -0.00074258 0.0011194 0.00016112
0.0053319 0.0033364 -0.01549 0.012501 0.34867 0.062443 0.00018093 -0.0015868
0.00013691 -0.00041768 0.00021823 0.00019299
-0.0022396 0.00061073 0.0013778 0.0013567 0.00016523 -0.0015854 0.17187 0.20868
-0.014182 -0.01023 -0.00085601 -0.00030537
0.0024798 0.00090055 0.0013298 -0.00078327 9.4791e-05 -0.00040242 -0.014177 -0.010256
0.089693 0.22508 -0.0098237 -0.0088619
0.0003345 -0.0015719 0.0011702 0.00016491 0.00029043 0.00019673 -0.00082648 -0.00033463
-0.0099076 -0.0089045 0.1204 0.30416
1460000000 0.26881 0.15517 -0.020611 0.0042468 0.0058439 -0.0016708 -0.0015741 0.0017548
0.0020323 -0.00046033 -0.00036155 -0.0010524
-0.020582 0.0042212 0.1101 0.33857 -0.0065202 0.015744 0.0017317 0.0001579
0.00097256 -0.0013422 0.0012848 -0.00054373
0.0058772 -0.0017472 -0.0064673 0.015756 0.35556 0.0083318 -0.0011507 -0.0013868
0.00018704 -0.00018105 0.00062408 -0.00024579
-0.0015626 0.0017304 0.0017212 0.00016951 -0.0011479 -0.0013766 0.19878 0.17932
-0.015659 -0.0038046 -0.00087742 0.0019467
0.0020264 -0.00046177 0.00094643 -0.0013328 0.00018268 -0.00013791 -0.015677 -0.0037432
0.1195 0.2109 -0.011825 -0.0030207
-0.00040096 -0.0010058 0.0012644 -0.00060192 0.00058586 -0.00025213 -0.00090728 0.002007
-0.011885 -0.0029862 0.15372 0.28402
1520000000 0.28179 0.11395 -0.015173 0.0099348 0.0034955 -0.0043412 6.0674e-05 0.0025789
0.0020585 -0.0019191 -0.0012203 -0.00022119
-0.015158 0.0099249 0.14415 0.32437 0.001477 0.013544 0.0016686 -0.00082523
6.6223e-05 -0.0011555 0.00037034 -0.0010369
0.0034353 -0.004302 0.0015385 0.013549 0.34896 -0.047716 -0.0010878 -0.00041493
0.00064361 -0.00085533 9.3071e-05 -0.00011255
5.2581e-05 0.0025531 0.0016621 -0.00083743 -0.0011051 -0.00041553 0.22218 0.14075
-0.015396 0.0021484 0.0014512 0.0020761
0.0021037 -0.0019216 5.5568e-05 -0.0011726 0.00068526 -0.00089245 -0.015385 0.0021882
0.1475 0.19772 -0.01174 0.0013653
-0.0011389 -0.00014374 0.00038337 -0.0010651 9.2976e-05 -0.00020005 0.001407 0.0020445
-0.011832 0.0013234 0.18658 0.26351
1580000000 0.29216 0.068039 -0.0085331 0.013414 -0.00096014 -0.0051023 0.0015142 0.0019417
-0.00013054 -0.0020935 -0.00031156 0.00027387
-0.0085382 0.013403 0.17204 0.29991 0.0054044 0.008566 0.00051384 -0.0015854
-0.00059591 -0.001105 -0.00015658 -0.00086919
-0.0009496 -0.0051479 0.0054542 0.0085395 0.32971 -0.10537 -0.0017322 0.00052836
-0.00044379 -0.0012288 0.00026314 -0.00061764
0.0015197 0.0019305 0.00050624 -0.0015797 -0.0016921 0.00057097 0.23605 0.10108
-0.012128 0.0073439 0.0022073 0.0008622
-0.0001626 -0.0020632 -0.00060402 -0.0011073 -0.00039001 -0.0011404 -0.012155 0.0073962
0.17191 0.18013 -0.0093814 0.0072633
-0.00037908 0.00033097 -0.00018519 -0.00085345 0.00032371 -0.00061755 0.0021735 0.00090414
-0.0093765 0.0072107 0.21862 0.2369
1640000000 0.29503 0.02664 -0.001687 0.012418 -0.0028174 -0.0027507 0.0027584 0.0011196
-0.00069765 -0.0016461 -0.00047433 0.00066905
-0.0016906 0.012412 0.20217 0.27503 0.0062154 0.003602 -0.00063018 -0.0017555
-0.0010526 -0.00046118 -0.00054598 -0.00073164
-0.0028583 -0.0027221 0.006245 0.0035493 0.30143 -0.15474 -0.00068376 0.0015083
-0.0010626 -0.00099429 -0.00017603 -0.00030332
0.0027306 0.0010943 -0.00065313 -0.0017588 -0.00074749 0.0014054 0.24855 0.051857
-0.0079327 0.0090786 0.0025304 -0.000795
-0.00070669 -0.0016031 -0.0010661 -0.00044918 -0.0010132 -0.0010003 -0.0078962 0.0090975
0.19544 0.15631 -0.0047624 0.0092377
-0.00042057 0.00070388 -0.00057352 -0.00072399 -9.3959e-05 -0.00027042 0.0025342 -0.00078605
-0.0047971 0.0092469 0.24459 0.20594
1700000000 0.2884 -0.018905 0.001868 0.0097241 -0.0037352 7.2221e-05 0.0031567 -0.0012331
-0.0019237 -0.00077099 0.00053096 0.00053225
0.0018403 0.0097383 0.22064 0.24355 0.0040543 0.0005041 -0.0014845 -0.00059358
-0.0008804 6.4585e-05 -0.00092632 -0.00047939
-0.003744 0.0001608 0.0040709 0.00049705 0.25793 -0.1946 0.0003767 0.0016589
-0.0020671 -0.00011504 -0.00029601 -0.0008324
0.0031621 -0.0012643 -0.0014801 -0.00059446 0.00037824 0.0016981 0.24497 0.0017123
-0.0048836 0.0099154 0.0015288 -0.0021527
-0.0019728 -0.0007732 -0.00085754 7.108e-05 -0.0021713 -0.00014732 -0.0048889 0.0099692
0.21304 0.1362 -0.00023763 0.00964
0.00059807 0.00052568 -0.00091552 -0.00046317 -0.00038476 -0.00079376 0.0015601 -0.0021471
-0.00016329 0.0096561 0.26083 0.17159
1760000000 0.27688 -0.067928 0.004428 0.006515 -0.0022623 0.0010769 0.0014171 -0.0034345
-0.0014623 0.00057795 0.00049791 -0.00047676
0.0044009 0.0064909 0.24716 0.20374 0.0017242 -0.0014006 -0.001232 0.00014436
-0.0011286 0.00095254 -0.00068447 0.00043289
-0.0022583 0.00096146 0.0017513 -0.0014445 0.21009 -0.22798 0.0010918 0.0011454
-0.0014036 0.0014072 -0.0012281 -0.00077166
0.0013885 -0.0034265 -0.0012329 0.00015906 0.0011756 0.0011505 0.23586 -0.049864
-0.0011941 0.0092505 -0.00015948 -0.0024949
-0.0014405 0.00057316 -0.0011302 0.00095818 -0.0013398 0.0014732 -0.0011772 0.0092605
0.22845 0.10187 0.0037539 0.0070815
0.00043524 -0.00061527 -0.00063035 0.00042138 -0.0012177 -0.00065312 -6.4871e-05 -0.0024396
0.0037385 0.0071335 0.27371 0.13436
1820000000 0.25237 -0.10552 0.0046188 0.0028 -0.0001641 0.0024062 -0.00091771 -0.0031559
-0.0012274 0.0010101 -1.1232e-05 -9.6138e-05
0.0046414 0.0028314 0.25744 0.17334 -0.00054612 -0.00030139 -0.0013263 0.00092733
-2.4248e-05 0.0013215 -0.00064195 0.00054012
-0.00011637 0.0025166 -0.00059418 -0.00026083 0.15925 -0.24394 0.0016936 0.0003792
-0.00018563 0.0023826 -0.0016114 0.00036581
-0.00095285 -0.0031736 -0.0013242 0.00091134 0.0015813 0.00035488 0.20555 -0.097092
0.00061413 0.007874 -0.001745 -0.0015076
-0.0012087 0.0010116 3.8658e-05 0.001292 -0.0002299 0.0023609 0.00057286 0.0078978
0.24602 0.072967 0.0046098 0.0037457
-4.3596e-05 -0.00015095 -0.00059138 0.0006026 -0.0014273 0.00044965 -0.0017192 -0.0014855
0.0046595 0.0037427 0.27584 0.097569
1880000000 0.21719 -0.14627 0.0025244 0.00033803 -0.0004757 0.0022051 -0.0029417 -0.0022329
-0.00032185 0.001913 9.0049e-05 -0.00056263
0.0025369 0.00033956 0.26206 0.12673 -0.0024967 0.0015867 -0.00027681 0.0018031
0.00061875 0.0013205 3.1577e-05 0.0009908
-0.00048407 0.0020961 -0.0024576 0.0015656 0.10736 -0.25289 0.0018173 -0.00090528
0.0016504 0.0021156 -0.0010327 0.0014961
-0.00294 -0.0021923 -0.00027825 0.0018342 0.001954 -0.00096675 0.16456 -0.13716
0.0017924 0.0055505 -0.0022719 0.00012431
-0.00034085 0.0019408 0.00061028 0.0013531 0.0017027 0.002144 0.0017674 0.0055176
0.25041 0.041563 0.0049958 0.0013447
8.239e-05 -0.00064479 5.7182e-05 0.00094959 -0.0010867 0.0014831 -0.002302 0.00025316
0.0049339 0.0013969 0.27587 0.064187
1940000000 0.17782 -0.17204 0.00010978 -0.0014333 0.0013603 0.0020409 -0.0039171 0.00029912
0.001391 0.0010956 -0.00061555 -0.00067051
7.6796e-05 -0.0014156 0.26281 0.094749 -0.0013648 0.0040385 0.0010695 0.0012561
0.001949 0.00046162 0.0010741 0.00038839
0.0013139 0.0020828 -0.0013798 0.0040647 0.061798 -0.24579 0.00043081 -0.0023663
0.0024574 0.00036269 0.00051111 0.0016347
-0.0038943 0.00033294 0.0010789 0.0012254 0.0002888 -0.0023232 0.11198 -0.16755
0.0010425 0.004087 -0.0013571 0.0015227
0.0014072 0.0011444 0.0019858 0.00041396 0.0024615 0.00023945 0.0010131 0.0040421
0.25378 0.0031578 0.0038422 -0.001777
-0.0005658 -0.00064243 0.0010792 0.00036271 0.00070957 0.0016193 -0.001322 0.0014599
0.0038872 -0.0017818 0.26527 0.027929
2000000000 0.13109 -0.18665 -0.0038973 0.00056157 0.002616 0.0016208 -0.0022913 0.0037305
0.0013709 0.00039509 -0.00059483 0.00043597
-0.0038638 0.00054559 0.24853 0.059043 -0.00094882 0.0058304 0.0016667 0.00047337
0.0013696 -0.001185 0.00046543 0.00018193
0.0026021 0.001632 -0.00089147 0.0059031 0.018693 -0.23181 -0.0013226 -0.0013973
0.0021969 -0.0011921 0.0017018 0.0013474
-0.0022791 0.0037785 0.0016134 0.00048696 -0.0012906 -0.001362 0.058377 -0.17711
-0.00042958 0.0035998 4.8398e-05 0.0021702
0.0013639 0.00039453 0.0013478 -0.0011986 0.0021364 -0.0012035 -0.00031261 0.0036242
0.24893 -0.030304 0.00066679 -0.0027351
