!Keysight Technologies,M9804A,MY58100912,A.14.10.03
!Date: Thursday, April 27, 2023 10:28:33
!Correction: S11(C  6-Port  ) 
!S12(C  6-Port  ) 
!S13(C  6-Port  ) 
!S14(C  6-Port  ) 
!S15(C  6-Port  ) 
!S16(C  6-Port  ) 
!S21(C  6-Port  ) 
!S22(C  6-Port  ) 
!S23(C  6-Port  ) 
!S24(C  6-Port  ) 
!S25(C  6-Port  ) 
!S26(C  6-Port  ) 
!S31(C  6-Port  ) 
!S32(C  6-Port  ) 
!S33(C  6-Port  ) 
!S34(C  6-Port  ) 
!S35(C  6-Port  ) 
!S36(C  6-Port  ) 
!S41(C  6-Port  ) 
!S42(C  6-Port  ) 
!S43(C  6-Port  ) 
!S44(C  6-Port  ) 
!S45(C  6-Port  ) 
!S46(C  6-Port  ) 
!S51(C  6-Port  ) 
!S52(C  6-Port  ) 
!S53(C  6-Port  ) 
!S54(C  6-Port  ) 
!S55(C  6-Port  ) 
!S56(C  6-Port  ) 
!S61(C  6-Port  ) 
!S62(C  6-Port  ) 
!S63(C  6-Port  ) 
!S64(C  6-Port  ) 
!S65(C  6-Port  ) 
!S66(C  6-Port  ) 
!S6P File: Measurement: :
# Hz S  RI   R 50
500000000 -0.33413 -0.054317 -0.0099436 -0.0009081 -0.0080838 0.013028 -0.0035044 0.011384
0.012727 0.0067991 -0.0030467 0.0078104
-0.009587 -0.00096874 -0.41589 -0.064249 0.0079974 -0.010443 0.0015187 0.011048
0.0077248 0.0037871 0.0015377 0.012698
-0.0081553 0.012988 0.0080599 -0.010406 -0.26731 0.19863 0.0065994 0.0031997
-0.0014454 0.0084323 0.00044909 0.011776
-0.0031077 0.011481 0.0014122 0.011299 0.0066123 0.0032166 -0.33048 0.041979
-0.019191 -0.0040016 0.018548 0.024549
0.012799 0.0060385 0.0082342 0.0033568 -0.0013075 0.008403 -0.018747 -0.0037931
-0.24635 -0.19916 -0.027686 0.0070311
-0.0026919 0.0079419 0.0017465 0.012965 0.00048308 0.011773 0.018579 0.024744
-0.028302 0.0059417 -0.26708 -0.12588
560000000 -0.31897 0.11158 -0.023444 -0.063606 0.00010485 0.012479 0.005214 0.010896
0.010643 0.0034905 0.010279 0.0076877
-0.023436 -0.063365 -0.37555 0.098225 -0.041367 -0.038188 0.013074 0.0027253
-0.01431 -0.0044613 0.0033804 -0.00056706
-3.8934e-05 0.012437 -0.041434 -0.038015 -0.1862 0.25093 -0.00013128 -0.0049111
0.018918 0.0051757 0.0074173 -0.0062641
0.0050551 0.01098 0.012944 0.0025839 -0.00014521 -0.004906 -0.30655 0.13484
0.0061597 -0.024244 0.0054366 -0.020665
0.010529 0.0037449 -0.013419 -0.004715 0.018809 0.0057315 0.006211 -0.02441
-0.31159 -0.019854 0.010069 -0.049549
0.010209 0.0074286 0.003831 -0.0003833 0.0074839 -0.0060788 0.005302 -0.020624
0.0097773 -0.049332 -0.33192 0.022318
620000000 -0.27737 0.091953 -0.022668 0.0085188 0.0040325 0.0090358 0.0087019 -0.0041033
0.012572 -0.0014937 0.0010448 -0.0028355
-0.02265 0.0085749 -0.40315 0.047409 -0.018175 0.00051167 -0.0012534 -0.0019409
0.011894 -0.0067155 0.0013326 -0.0028588
0.0039586 0.0091163 -0.01817 0.00054713 -0.15562 0.25944 -0.00038154 -0.0050322
-0.0034713 -0.0034329 0.0091678 -0.0030242
0.0085612 -0.004174 -0.0013186 -0.0018931 -0.0004768 -0.0049651 -0.26555 0.14511
-0.038217 -0.018768 0.013279 0.02696
0.012798 -0.001768 0.012079 -0.006707 -0.0035596 -0.0033139 -0.038651 -0.019257
-0.23169 -0.052497 -0.041965 0.012529
0.001122 -0.0026615 0.0012441 -0.002926 0.0091331 -0.0029465 0.013043 0.027013
-0.042005 0.012579 -0.2506 -0.010605
680000000 -0.23913 0.1829 -0.02622 -0.014763 0.0049803 0.0053439 0.00091797 -0.0075704
-0.0026047 -0.011729 0.0055583 -0.0063201
-0.026214 -0.014828 -0.39026 0.14874 -0.032276 -0.001935 -0.0014801 -0.00015081
-0.0019407 -0.0094882 -0.00097598 -0.0015042
0.0051114 0.005333 -0.032308 -0.0018946 -0.10434 0.2804 -0.001021 -0.00015725
-0.0019615 0.00040281 -0.0025216 -0.0085115
0.0011307 -0.0073898 -0.0014338 -0.00018018 -0.0010061 -0.00021224 -0.22055 0.19662
-0.022963 -0.0076339 -0.0090828 -0.010912
-0.0024805 -0.011318 -0.0020118 -0.0095816 -0.002021 0.00044151 -0.023021 -0.007614
-0.27942 0.050303 -0.0073425 -0.006977
0.0053806 -0.0061688 -0.00095385 -0.0016002 -0.0025509 -0.008472 -0.0090517 -0.011184
-0.0075522 -0.006858 -0.26029 0.092577
740000000 -0.19385 0.17559 -0.039475 0.027127 0.013452 -0.0048542 -0.00016001 -0.0044935
-0.0049743 -0.0026471 -0.0065334 0.0023165
-0.03944 0.027164 -0.33578 0.16732 -0.037044 0.03489 0.0002084 -0.005901
-0.012681 0.0073671 -0.00066991 -0.0054549
0.013333 -0.0047787 -0.036882 0.035043 -0.070532 0.27769 -0.0019005 0.0033258
-0.0026885 -0.0056016 -0.0018374 0.0010735
-0.00013931 -0.0045499 0.00020524 -0.005805 -0.0019987 0.0033732 -0.20355 0.20385
-0.042917 -0.0074445 0.022636 0.015221
-0.00502 -0.0023079 -0.01258 0.0072047 -0.0027885 -0.005638 -0.042832 -0.0073524
-0.17811 0.077927 -0.042952 0.00055694
-0.006543 0.0027619 -0.00073839 -0.0055121 -0.0018001 0.0010789 0.022651 0.015365
-0.042938 0.00015451 -0.24817 0.098241
800000000 -0.16243 0.22015 -0.022845 0.016407 0.0058286 -0.010449 -0.0047949 -0.0019919
-0.0045144 0.0022049 0.0043046 0.00072841
-0.022747 0.016352 -0.34194 0.23847 -0.0086379 0.033968 -0.0023238 0.0022043
-0.0010672 0.0028037 0.00084751 0.0052608
0.0058518 -0.010395 -0.008518 0.034054 -0.031571 0.30165 0.00089285 0.0016149
-0.00019877 0.0035923 -0.0017514 0.0007137
-0.0046774 -0.0019657 -0.0022766 0.0021672 0.00090769 0.001595 -0.17445 0.23139
-0.028716 0.012867 0.013892 -0.010114
-0.0043294 0.0021719 -0.0011228 0.0029185 -0.00026112 0.0036489 -0.0287 0.012958
-0.2225 0.10732 -0.017995 0.0192
0.0045486 0.00058898 0.00084155 0.005399 -0.0017614 0.00073583 0.013934 -0.010175
-0.017788 0.019416 -0.24133 0.14804
860000000 -0.12814 0.2403 -0.018175 0.030555 -0.003043 -0.01014 -0.0024465 0.00011228
0.0037944 0.0045562 -0.0035723 -0.0027522
-0.018178 0.030512 -0.29348 0.28099 0.0071876 0.034365 -0.00029026 0.0019212
0.0034626 0.00021322 0.0033529 0.00081356
-0.0030525 -0.010168 0.0073711 0.034354 0.016078 0.31013 -0.00092231 -0.00026633
0.0024443 -0.0016889 0.001455 0.0045126
-0.0023895 0.0001266 -0.00013428 0.0018795 -0.00095631 -0.00022196 -0.1375 0.24179
-0.018693 0.017756 -0.0068995 -0.0089059
0.0038508 0.0045462 0.0031963 0.00018654 0.0024403 -0.0016281 -0.018522 0.017756
-0.16657 0.15791 -0.024069 0.017044
-0.0035293 -0.0024369 0.0033601 0.00090649 0.0013775 0.0044418 -0.0068349 -0.0090203
-0.024323 0.016941 -0.19138 0.19325
920000000 -0.10463 0.26353 0.0043636 0.038483 -0.0093486 -0.004861 -0.0019754 0.0019869
0.0011499 0.0020999 0.0030651 -0.0014223
0.0043663 0.03843 -0.26629 0.30243 0.027941 0.022894 0.001387 0.0012609
0.007537 -0.00021541 0.0041914 -0.0026174
-0.0093421 -0.0048262 0.028022 0.022841 0.061279 0.31138 0.0019973 -3.2668e-06
0.0010287 4.8404e-05 0.00099182 -0.0012283
-0.0019034 0.0019622 0.0014417 0.0012684 0.0020139 -1.0573e-05 -0.1134 0.25879
-0.011341 0.030688 0.0035617 -0.0068328
0.0013799 0.0020626 0.0075741 -0.00029967 0.0010389 -2.0355e-05 -0.011198 0.030649
-0.15626 0.16471 -0.0017601 0.027508
0.0029456 -0.0014205 0.0042351 -0.0026186 0.001006 -0.0012581 0.0036108 -0.0068029
-0.0018088 0.027361 -0.19785 0.20626
980000000 -0.057709 0.28448 0.016768 0.030461 -0.0093632 0.0042604 0.0017795 0.0036752
0.0041305 -0.001406 -0.0029145 -0.0024479
0.01672 0.030453 -0.21306 0.33777 0.033231 0.0056386 0.002183 5.6326e-06
0.0016546 -0.0057518 0.00014879 -0.0024384
-0.0093073 0.0043067 0.033292 0.0055092 0.10701 0.30582 0.00070323 -0.0011168
0.00054178 -0.0019688 0.0015852 -0.00012926
0.0018553 0.0036666 0.0021576 4.5311e-05 0.00070571 -0.0011099 -0.075284 0.27004
0.0072086 0.030234 -0.0091753 -0.0070527
0.0041529 -0.0014904 0.001758 -0.0057458 0.0005608 -0.0019338 0.0072315 0.030389
-0.12242 0.19464 0.0056239 0.019547
-0.0030217 -0.0023931 0.00010214 -0.0023743 0.0016123 -0.00014413 -0.0092392 -0.0070492
0.0055879 0.019488 -0.15589 0.25087
1040000000 -0.016551 0.29339 0.03286 0.019325 -0.0015079 0.0070371 0.0028102 0.00095957
0.00055905 -0.0036573 -3.6078e-05 -0.0016406
0.032814 0.019286 -0.17808 0.35113 0.030066 -0.014246 0.0017351 -0.0017267
-0.002049 -0.0026967 -0.00067668 -0.0028178
-0.0014698 0.0070885 0.030032 -0.014336 0.15274 0.29293 -0.00042499 -0.0016267
-0.0015199 -0.00093597 -0.00039036 -0.0010331
0.002805 0.00088045 0.0017345 -0.0016912 -0.00042364 -0.0016232 -0.047535 0.27964
0.018999 0.018948 -0.0022678 0.00098691
0.00054094 -0.0036508 -0.0021709 -0.0026203 -0.0015454 -0.00092121 0.019019 0.018834
-0.088853 0.20192 0.013932 0.018046
-3.3708e-05 -0.0014571 -0.00073665 -0.0027643 -0.00039248 -0.0010226 -0.0022585 0.0010288
0.013961 0.018131 -0.13276 0.27111
1100000000 0.028277 0.30261 0.036282 -0.0032136 0.0028108 0.0041118 0.0024297 -0.0011497
-0.002297 -0.0030559 -0.0039585 -8.3066e-05
0.036227 -0.0031918 -0.13521 0.36929 0.016082 -0.027724 8.6731e-06 -0.0018826
-0.0035854 -0.0010786 -0.0034324 -0.00054762
0.0028398 0.0041006 0.016006 -0.02781 0.19866 0.27389 -0.0018913 4.6082e-05
-0.001834 0.00049742 -0.001021 -0.00043519
0.0024317 -0.001132 3.7447e-05 -0.0018714 -0.0019046 2.4717e-05 -0.0078176 0.28492
0.024882 0.0056839 -0.0024754 -3.29e-05
-0.0023191 -0.0029952 -0.0036837 -0.0010189 -0.0017922 0.00046359 0.024849 0.0056814
-0.068244 0.2142 0.019308 0.0083774
-0.0040055 -3.1948e-05 -0.0034622 -0.00051797 -0.0010356 -0.00041989 -0.0024703 -3.0349e-05
0.01931 0.0083884 -0.087357 0.29998
1160000000 0.079646 0.29886 0.024707 -0.020197 0.0027849 -0.00043283 -3.8053e-06 -0.0023333
-0.0039799 -0.00070501 -0.0012716 0.0041187
0.024715 -0.020154 -0.091858 0.37378 -0.0029885 -0.029498 -0.0016414 -0.0017828
-0.0029199 0.0026328 -0.0016079 0.0018115
0.002814 -0.00043102 -0.0031312 -0.02949 0.24201 0.24409 -0.00090961 0.0017574
-0.00058982 0.0019146 -0.00087216 0.00038331
-6.0807e-05 -0.0024214 -0.0016193 -0.0017421 -0.00089049 0.0017781 0.031649 0.2825
0.021182 -0.0098404 -0.0032717 0.0050644
-0.0039634 -0.00077703 -0.002857 0.0026021 -0.00062229 0.0019241 0.021208 -0.0098721
-0.033416 0.22236 0.01805 -0.00027233
-0.0012301 0.004173 -0.001578 0.0018251 -0.0008793 0.00041601 -0.003289 0.0051436
0.018171 -0.00036465 -0.040329 0.30267
1220000000 0.12362 0.28898 0.01145 -0.029929 -0.0015584 -0.00096771 -2.6204e-05 -0.00091288
-0.0028043 0.0022981 0.0010043 0.0020696
0.01146 -0.029884 -0.047955 0.38723 -0.016684 -0.022041 -0.0026507 0.00046913
1.0906e-05 0.0031688 -0.00088055 0.0020014
-0.0015638 -0.00096753 -0.016811 -0.021976 0.28131 0.20595 0.00074281 0.0017196
0.00061116 0.0012323 0.00026754 0.00060318
-2.8878e-05 -0.00087942 -0.0026484 0.00048922 0.000735 0.001697 0.071453 0.2741
0.011192 -0.016885 0.002189 0.0015142
-0.0027729 0.0023385 2.5048e-05 0.0031834 0.00063827 0.00127 0.011167 -0.016875
-0.0099512 0.23077 0.013803 -0.012845
0.0010611 0.002093 -0.00089244 0.0020038 0.00027323 0.00060766 0.0021334 0.0014771
0.013767 -0.012975 -0.0090761 0.3183
1280000000 0.17391 0.26848 -0.0071916 -0.028845 -0.0019707 0.0024867 -0.0008448 -0.0020075
-0.00075828 0.0031014 0.0025674 0.0013796
-0.0071956 -0.028833 -0.00204 0.37916 -0.024003 -0.0091747 -0.00095758 0.0014167
0.0017436 0.0017393 0.00058478 0.0020836
-0.0019462 0.0024807 -0.024064 -0.0090769 0.31247 0.16283 0.0015277 1.7538e-05
0.0012926 0.00025137 0.00038895 0.00024374
-0.0008247 -0.002003 -0.00097461 0.0014145 0.0015497 4.6671e-05 0.10881 0.25829
0.0014941 -0.019331 -3.4462e-05 0.00033853
-0.00075638 0.0031015 0.0017281 0.0017576 0.0012945 0.00025646 0.0014569 -0.019336
0.026647 0.23392 0.00304 -0.01516
0.0026153 0.0013558 0.00058838 0.0020539 0.00038768 0.00025355 -3.0861e-05 0.0003252
0.0031283 -0.015144 0.03782 0.32008
1340000000 0.21135 0.23558 -0.01719 -0.019563 0.00070197 0.0046628 -0.001846 -0.00082661
0.0014088 0.0027145 0.0017365 -0.0013079
-0.017137 -0.019539 0.037476 0.37188 -0.022049 0.0038018 -0.00014991 0.002115
0.0019802 0.00084074 0.0011941 0.00084183
0.00070535 0.0046685 -0.022054 0.0039266 0.33492 0.11564 0.0011451 -0.00082744
0.00053101 -0.00046818 7.1342e-05 0.00032562
-0.0018399 -0.00078338 -0.00011356 0.0020951 0.0011341 -0.00082997 0.14212 0.23756
-0.0078504 -0.016953 0.0007634 0.00041002
0.001412 0.0027317 0.0019855 0.00081981 0.00054495 -0.00045574 -0.007854 -0.016968
0.056849 0.22948 -0.0035842 -0.014007
0.0018085 -0.0013048 0.0012129 0.00081462 5.8621e-05 0.00034414 0.00076157 0.00041708
-0.0035164 -0.013908 0.075599 0.31505
1400000000 0.24516 0.19865 -0.023399 -0.0080957 0.0053072 0.0034301 -0.0021713 0.00060399
0.0024458 0.00089596 0.00034238 -0.0016295
-0.023378 -0.0081034 0.075135 0.35992 -0.015511 0.0124 0.0013587 0.001323
0.0013319 -0.00076685 0.0011365 0.00016694
0.0053559 0.0033873 -0.015459 0.012498 0.34861 0.062462 0.00011511 -0.0015944
0.00012448 -0.00039072 0.00032844 0.00017139
-0.0021897 0.00059414 0.0013544 0.0013158 0.00011376 -0.0016103 0.1718 0.20876
-0.014213 -0.010247 -0.00082347 -0.00039352
0.0024811 0.00089014 0.001326 -0.00078214 0.00011263 -0.00040042 -0.014241 -0.010194
0.089508 0.2251 -0.0099005 -0.0088763
0.00036758 -0.0016307 0.001163 0.00016326 0.00033005 0.00016574 -0.00079632 -0.00038602
-0.0098679 -0.0088881 0.12014 0.30435
1460000000 0.26874 0.15521 -0.020617 0.0042622 0.0058062 -0.0016585 -0.001615 0.0017396
0.0020834 -0.00049609 -0.00030801 -0.0010144
-0.020592 0.0042289 0.11004 0.33853 -0.0065375 0.015714 0.0017606 0.00020972
0.00095752 -0.0013553 0.001293 -0.0005573
0.005828 -0.0016903 -0.0064698 0.015762 0.35555 0.0083268 -0.0011078 -0.0014083
0.00022512 -0.00014857 0.0005486 -0.00020778
-0.0016104 0.0017513 0.0017567 0.00020445 -0.0010979 -0.0013916 0.19869 0.17929
-0.015747 -0.0038523 -0.00089867 0.0020238
0.0020872 -0.00047075 0.00096302 -0.0013514 0.00021493 -0.00016389 -0.015753 -0.0037991
0.11931 0.21092 -0.011906 -0.002988
-0.00028161 -0.0010356 0.0012814 -0.00057267 0.00054096 -0.00021432 -0.00089714 0.0020432
-0.0119 -0.0029967 0.1535 0.28399
1520000000 0.28168 0.1139 -0.015186 0.0099297 0.0034803 -0.0043157 0.00016093 0.0025497
0.0021246 -0.0019227 -0.0012409 -0.00018142
-0.015177 0.0099084 0.14408 0.32439 0.0014353 0.013544 0.0016718 -0.00078413
2.8415e-05 -0.0011472 0.00036095 -0.0010421
0.003445 -0.0043499 0.0015255 0.013562 0.34893 -0.04773 -0.0011082 -0.0003715
0.00064104 -0.00083451 0.00012171 -0.00016583
0.00013734 0.0025203 0.0016688 -0.00079253 -0.0011169 -0.00038032 0.2221 0.1409
-0.01541 0.0021762 0.0014216 0.0019908
0.0021115 -0.0019575 3.5718e-05 -0.0011395 0.00066122 -0.00082051 -0.015423 0.0022202
0.14735 0.19786 -0.011759 0.0013063
-0.0012008 -0.00015793 0.00035899 -0.0010388 0.00010608 -0.00017848 0.0014356 0.0020175
-0.011773 0.0013328 0.18638 0.26353
1580000000 0.29205 0.068113 -0.0085449 0.013419 -0.00091229 -0.0051052 0.0014898 0.0019747
-0.00013445 -0.0020516 -0.00032905 0.00033952
-0.0085508 0.013387 0.17198 0.29992 0.0053797 0.0085638 0.0005179 -0.0015778
-0.00057066 -0.0011043 -0.00018372 -0.00090553
-0.0009466 -0.0051424 0.0054341 0.0085366 0.32967 -0.10517 -0.0016932 0.00051147
-0.00034778 -0.0012544 0.00023615 -0.00056712
0.0015325 0.0019661 0.00051363 -0.0015909 -0.0017413 0.00054769 0.23598 0.10116
-0.012212 0.007369 0.0021948 0.00094428
-0.00015162 -0.0020425 -0.00059266 -0.0011091 -0.00039616 -0.0012738 -0.012163 0.0074266
0.17183 0.1803 -0.0094382 0.0072225
-0.00036774 0.00030509 -0.00017744 -0.000907 0.00023192 -0.00058792 0.0022075 0.00090328
-0.0093805 0.0072258 0.21838 0.23707
1640000000 0.29487 0.026704 -0.0017034 0.012444 -0.0028043 -0.0026941 0.0027313 0.0010661
-0.00071788 -0.0016135 -0.00047627 0.00065351
-0.001732 0.012451 0.20212 0.27512 0.0062065 0.0036065 -0.00062084 -0.0017587
-0.0010567 -0.00044924 -0.00055635 -0.00071496
-0.0028707 -0.0027078 0.006227 0.0035831 0.30146 -0.15472 -0.00074437 0.0014938
-0.00099945 -0.0010021 -0.00016314 -0.00028616
0.0027201 0.0010519 -0.00063377 -0.0017653 -0.00073435 0.001466 0.24848 0.051942
-0.007959 0.0091315 0.0025442 -0.00076395
-0.00071129 -0.0016465 -0.001058 -0.00044689 -0.0010444 -0.0010072 -0.0079406 0.0091583
0.19535 0.15649 -0.0047611 0.0091856
-0.00045924 0.00065466 -0.00056609 -0.00070496 -0.00015021 -0.00026889 0.0025637 -0.00074717
-0.0047223 0.0091833 0.24432 0.20603
1700000000 0.28826 -0.01872 0.00181 0.0097697 -0.0037335 0.00010595 0.0031433 -0.0012067
-0.0019268 -0.0007778 0.00057743 0.00057689
0.0018091 0.0097745 0.2206 0.24361 0.0040383 0.00054792 -0.00143 -0.00060952
-0.0008501 6.9126e-05 -0.00092703 -0.00046971
-0.0037603 0.00012531 0.004034 0.00049468 0.25781 -0.19466 0.00042204 0.0016292
-0.0021085 -0.00011171 -0.00035008 -0.00082908
0.0031279 -0.001208 -0.0014436 -0.00060445 0.00040985 0.0016106 0.24496 0.0017513
-0.004855 0.0099312 0.001532 -0.002189
-0.0019591 -0.00077947 -0.00086223 5.4365e-05 -0.0020723 -0.00013931 -0.0048437 0.0099505
0.21304 0.13637 -0.00023311 0.009599
0.00060366 0.00054479 -0.00093184 -0.00045961 -0.00033376 -0.00083562 0.0015438 -0.0021973
-0.00031429 0.0096069 0.2608 0.17171
1760000000 0.27681 -0.067743 0.004431 0.0065186 -0.0022922 0.00099902 0.0014256 -0.003452
-0.0014492 0.00053663 0.00034664 -0.00053894
0.0044245 0.0065186 0.24712 0.20378 0.0017979 -0.0013823 -0.0012043 0.00014192
-0.0010973 0.00092578 -0.00066719 0.00039374
-0.0022721 0.00098762 0.0017865 -0.0013913 0.2102 -0.22765 0.0010919 0.0010848
-0.0013456 0.0013524 -0.0011698 -0.00067887
0.0013671 -0.0034721 -0.0012086 0.00012976 0.0011105 0.0011466 0.2359 -0.049722
-0.0011871 0.0092937 -3.8366e-05 -0.0025457
-0.001462 0.00056096 -0.0010937 0.00094029 -0.0013529 0.0013697 -0.0011669 0.0093082
0.2285 0.10198 0.0037381 0.0071182
0.00042906 -0.0005316 -0.00065682 0.00040767 -0.0012151 -0.00069297 -6.1386e-05 -0.0025747
0.0038027 0.0070478 0.27349 0.13456
1820000000 0.25234 -0.10534 0.0046375 0.0027946 -0.00015451 0.0024387 -0.00098787 -0.0031882
-0.001198 0.0010313 3.627e-05 -0.00014061
0.004618 0.0027796 0.25744 0.17341 -0.00055475 -0.00031131 -0.0013379 0.00091545
-1.0987e-05 0.0013211 -0.00059108 0.00053478
-0.00014856 0.0024937 -0.00054051 -0.00029991 0.15919 -0.2439 0.00167 0.00044984
-0.00017849 0.0023936 -0.001523 0.00040446
-0.00097128 -0.0031636 -0.0013338 0.00092771 0.0017175 0.00044086 0.20551 -0.097095
0.00067767 0.0078816 -0.0016834 -0.0015861
-0.0012263 0.00097916 8.6236e-06 0.0013149 -0.0001662 0.002456 0.00069571 0.0078624
0.24611 0.073021 0.004652 0.003736
-6.3107e-06 -0.00010642 -0.00058754 0.00053922 -0.0015246 0.00039551 -0.0017184 -0.0015473
0.0045732 0.0037517 0.27569 0.097852
1880000000 0.21724 -0.14607 0.0025366 0.0002976 -0.00045884 0.0021239 -0.0028758 -0.0022745
-0.00037512 0.0019048 7.2223e-05 -0.00060717
0.0025046 0.00030889 0.26203 0.12675 -0.0024751 0.0015672 -0.00026627 0.001757
0.00064631 0.0013033 5.072e-05 0.00094856
-0.00049552 0.0021372 -0.0024881 0.0015722 0.10736 -0.25287 0.0018662 -0.00093524
0.0016677 0.0021137 -0.001044 0.0014956
-0.0029445 -0.0022684 -0.00028932 0.0017557 0.0018239 -0.00093483 0.16467 -0.13707
0.0018261 0.0055327 -0.0023394 0.00020819
-0.00030868 0.0019221 0.00063528 0.0013021 0.0016326 0.0020842 0.0018301 0.0055564
0.25038 0.041582 0.0050266 0.0013393
7.851e-05 -0.00060311 7.7535e-05 0.00098178 -0.001046 0.0014418 -0.0023058 0.00013727
0.0050244 0.0013853 0.27596 0.06424
1940000000 0.17783 -0.17199 9.7814e-05 -0.0014378 0.0013658 0.0020736 -0.0038066 0.0002784
0.0013918 0.0011402 -0.00051768 -0.00056618
0.00010415 -0.0014335 0.2628 0.094791 -0.0013747 0.0040499 0.0010958 0.0013025
0.0019446 0.00043534 0.0010956 0.00037131
0.001375 0.0020302 -0.0013399 0.0040738 0.061805 -0.24562 0.00034985 -0.0023729
0.0025323 0.00023421 0.00062676 0.0016152
-0.0038582 0.00035037 0.0011124 0.001288 0.00039661 -0.002313 0.11207 -0.16756
0.0010195 0.0041555 -0.0013167 0.0014979
0.0014249 0.0011175 0.0019533 0.00045178 0.0024767 0.00028238 0.0010797 0.0040847
0.25366 0.003128 0.0038226 -0.0017444
-0.00051473 -0.00064735 0.0011049 0.00035705 0.00060619 0.0015778 -0.0013646 0.0015472
0.0038721 -0.0018321 0.26511 0.028035
2000000000 0.13131 -0.18658 -0.0038429 0.00052369 0.0026217 0.0015979 -0.0023449 0.0038795
0.0013304 0.00037777 -0.00053702 0.00038502
-0.0038609 0.0005294 0.24841 0.05909 -0.00095059 0.0058579 0.0016341 0.00042184
0.0013437 -0.0011459 0.0005147 0.00016904
0.0026522 0.0015489 -0.00092166 0.0058536 0.018658 -0.23183 -0.0012883 -0.0014275
0.0022146 -0.0012666 0.0017249 0.0013729
-0.0022789 0.0038425 0.0016168 0.00045516 -0.0012688 -0.001456 0.058571 -0.17707
-0.00037429 0.0034883 -3.3411e-05 0.0021769
0.0013181 0.0003993 0.0013481 -0.0011888 0.0022796 -0.0012504 -0.00035411 0.0035481
0.24887 -0.03025 0.00070565 -0.0027194
