!Keysight Technologies,M9804A,MY58100912,A.14.10.03
!Date: Thursday, April 27, 2023 10:28:33
!Correction: S11(C  6-Port  ) 
!S12(C  6-Port  ) 
!S13(C  6-Port  ) 
!S14(C  6-Port  ) 
!S15(C  6-Port  ) 
!S16(C  6-Port  ) 
!S21(C  6-Port  ) 
!S22(C  6-Port  ) 
!S23(C  6-Port  ) 
!S24(C  6-Port  ) 
!S25(C  6-Port  ) 
!S26(C  6-Port  ) 
!S31(C  6-Port  ) 
!S32(C  6-Port  ) 
!S33(C  6-Port  ) 
!S34(C  6-Port  ) 
!S35(C  6-Port  ) 
!S36(C  6-Port  ) 
!S41(C  6-Port  ) 
!S42(C  6-Port  ) 
!S43(C  6-Port  ) 
!S44(C  6-Port  ) 
!S45(C  6-Port  ) 
!S46(C  6-Port  ) 
!S51(C  6-Port  ) 
!S52(C  6-Port  ) 
!S53(C  6-Port  ) 
!S54(C  6-Port  ) 
!S55(C  6-Port  ) 
!S56(C  6-Port  ) 
!S61(C  6-Port  ) 
!S62(C  6-Port  ) 
!S63(C  6-Port  ) 
!S64(C  6-Port  ) 
!S65(C  6-Port  ) 
!S66(C  6-Port  ) 
!S6P File: Measurement: :
# Hz S  RI   R 50
500000000 -0.33442 -0.053848 -0.0098623 -0.00042643 -0.0082573 0.013123 -0.0031725 0.011798
0.01278 0.0050889 -0.0025515 0.0080816
-0.0098941 -0.00045506 -0.41603 -0.064714 0.0080569 -0.010517 0.0017062 0.011536
0.0080299 0.0030679 0.0017742 0.013319
-0.0082559 0.013113 0.0080345 -0.010539 -0.26737 0.19854 0.0067866 0.0033875
-0.0015509 0.0083196 0.00048696 0.011898
-0.0031426 0.011708 0.0017256 0.011588 0.0067773 0.0034001 -0.3314 0.041148
-0.017632 -0.0037242 0.017396 0.023588
0.012895 0.0050096 0.0081541 0.0030274 -0.0015256 0.0082787 -0.017648 -0.0037442
-0.2471 -0.19836 -0.026249 0.007629
-0.0026312 0.0079833 0.001802 0.013457 0.00051626 0.011916 0.01744 0.023538
-0.026263 0.0077105 -0.26888 -0.12798
560000000 -0.31899 0.112 -0.023516 -0.063946 9.59e-05 0.012262 0.0052448 0.011248
0.010778 0.0033649 0.010176 0.0079106
-0.023466 -0.063989 -0.37525 0.097088 -0.041642 -0.0376 0.013358 0.0023051
-0.013447 -0.0041712 0.00369 -0.00027476
0.00018292 0.012297 -0.04182 -0.037494 -0.18599 0.2501 -0.00036484 -0.0043101
0.019115 0.0054243 0.0076706 -0.0063546
0.0053403 0.011226 0.013418 0.0023382 -0.00034593 -0.0043339 -0.30591 0.13346
0.0051594 -0.023387 0.0070169 -0.020689
0.010995 0.0032985 -0.013445 -0.0039261 0.019069 0.0053245 0.0051054 -0.023348
-0.31129 -0.01925 0.0090008 -0.049776
0.010378 0.0078519 0.0037665 -0.00064319 0.0077877 -0.0062526 0.0069295 -0.020728
0.0090474 -0.049768 -0.33138 0.024306
620000000 -0.27685 0.091971 -0.022713 0.0085635 0.0042688 0.0091656 0.0085644 -0.004274
0.012214 -0.0013799 0.0010164 -0.0026526
-0.0227 0.0085199 -0.4031 0.047422 -0.018095 0.00045094 -0.0014119 -0.001906
0.011977 -0.0062862 0.001144 -0.0029212
0.0043045 0.0092008 -0.018089 0.00051494 -0.15557 0.25926 -0.0006681 -0.0048823
-0.0030514 -0.0034647 0.0090514 -0.0033525
0.0084753 -0.004144 -0.0014234 -0.0018824 -0.00065084 -0.0048996 -0.26525 0.14501
-0.038759 -0.019692 0.013706 0.027725
0.01225 -0.0015277 0.011968 -0.0063398 -0.0030428 -0.0034469 -0.038773 -0.019699
-0.2323 -0.051206 -0.042173 0.011765
0.00088503 -0.0026524 0.0010087 -0.0029459 0.0090645 -0.0033504 0.013674 0.027859
-0.042281 0.011565 -0.25079 -0.0096285
680000000 -0.23891 0.18269 -0.026056 -0.014802 0.0049526 0.0053783 0.0011095 -0.0074265
-0.0024384 -0.011644 0.0057399 -0.006234
-0.02602 -0.014796 -0.39002 0.14871 -0.032141 -0.0020523 -0.0016032 -0.00030532
-0.0017474 -0.0094225 -0.00041125 -0.0016207
0.0049929 0.0053343 -0.0322 -0.0019621 -0.10423 0.28022 -0.00096356 0.00018266
-0.0018427 0.00037098 -0.0021104 -0.0084547
0.0011067 -0.0075472 -0.0016106 -0.0003148 -0.00096213 0.00018777 -0.22029 0.1969
-0.022806 -0.0076492 -0.0092315 -0.011564
-0.0024152 -0.011723 -0.001731 -0.009427 -0.0018259 0.00036182 -0.02285 -0.007603
-0.27945 0.050247 -0.0062385 -0.0069249
0.0055986 -0.006365 -0.00041909 -0.0016252 -0.0020919 -0.0084841 -0.0091755 -0.011644
-0.0062255 -0.0069951 -0.25985 0.091438
740000000 -0.194 0.17573 -0.039658 0.026622 0.013292 -0.0047648 -0.00045704 -0.004517
-0.0044335 -0.0027911 -0.0066625 0.0026473
-0.039614 0.026613 -0.33569 0.16752 -0.036895 0.034808 0.00033321 -0.0061684
-0.012494 0.0073617 -0.00057041 -0.0061119
0.01332 -0.0048114 -0.036823 0.034961 -0.070488 0.27764 -0.0019441 0.0034018
-0.0026227 -0.0056711 -0.0015951 0.0010547
-0.00047542 -0.0044122 0.00034169 -0.0062149 -0.0019237 0.0033942 -0.20369 0.20335
-0.042835 -0.0066824 0.022502 0.014718
-0.0044093 -0.0028045 -0.012507 0.0074191 -0.0026349 -0.0056417 -0.042791 -0.0066459
-0.17777 0.076749 -0.042814 0.0013495
-0.0065897 0.0028468 -0.00053098 -0.0062107 -0.0015249 0.0011226 0.02253 0.014734
-0.042931 0.0013557 -0.24843 0.097284
800000000 -0.16243 0.22006 -0.022633 0.016403 0.0058798 -0.010316 -0.0047268 -0.0021124
-0.004336 0.0022278 0.0045553 0.00077765
-0.022626 0.016346 -0.34188 0.23851 -0.0086335 0.034096 -0.0023186 0.002148
-0.0010713 0.0028804 0.0010011 0.0053191
0.0058536 -0.010333 -0.0085517 0.034154 -0.031661 0.30169 0.00088808 0.0015594
-0.00020493 0.0037586 -0.0015482 0.0007506
-0.0047511 -0.0021037 -0.0023208 0.0021551 0.0008928 0.0015649 -0.17423 0.2314
-0.029112 0.012783 0.013834 -0.0097595
-0.0043994 0.0021997 -0.0010577 0.0028137 -0.00020754 0.0037425 -0.029106 0.012833
-0.22205 0.10753 -0.017821 0.018596
0.0045092 0.00077291 0.0009816 0.0052743 -0.0015691 0.00073506 0.01383 -0.0098062
-0.017853 0.018577 -0.24155 0.14871
860000000 -0.12828 0.24035 -0.018219 0.030469 -0.0030627 -0.010129 -0.0021142 0.00029098
0.0038212 0.0048201 -0.0035596 -0.0026814
-0.018174 0.030428 -0.29348 0.28104 0.0071568 0.034355 -0.0001494 0.0019328
0.0032681 0.00011803 0.0033678 0.0008488
-0.0030854 -0.010122 0.0072565 0.034368 0.015995 0.3101 -0.00087512 -0.00020473
0.0023559 -0.0016586 0.0014627 0.004624
-0.0021037 0.00028014 -0.00013073 0.0019509 -0.00087059 -0.00020367 -0.13747 0.2421
-0.018578 0.017471 -0.0070433 -0.0087496
0.0038259 0.0047514 0.0033547 7.7645e-06 0.0023832 -0.0016587 -0.018501 0.017532
-0.16665 0.15811 -0.023915 0.016467
-0.0035677 -0.0026882 0.0033092 0.00083464 0.0014808 0.0046196 -0.0069915 -0.0087677
-0.023898 0.01659 -0.19213 0.19416
920000000 -0.1044 0.26322 0.004449 0.038353 -0.0092826 -0.0049059 -0.0020147 0.0018275
0.0012167 0.0021289 0.002909 -0.0013941
0.0044303 0.03832 -0.2662 0.30225 0.027983 0.022941 0.0015175 0.0013361
0.0073754 -0.00031993 0.0040726 -0.0024363
-0.0092989 -0.0048991 0.028083 0.022877 0.06122 0.31138 0.0019741 -2.4122e-06
0.0010387 -6.7361e-05 0.00092054 -0.001276
-0.0019901 0.0018352 0.0015225 0.0013488 0.0019798 1.8338e-06 -0.11346 0.25885
-0.011273 0.030593 0.0033816 -0.0068022
0.0012192 0.0021782 0.0073761 -0.00035453 0.0010536 -8.4896e-05 -0.011235 0.030646
-0.15638 0.16496 -0.0018402 0.027357
0.0029353 -0.0014 0.0040892 -0.0024692 0.00088477 -0.0012966 0.0034004 -0.0068481
-0.0018864 0.027345 -0.19812 0.20599
980000000 -0.057975 0.28449 0.016699 0.030428 -0.0093334 0.0042411 0.0017988 0.0037091
0.0040818 -0.0014251 -0.002928 -0.0022934
0.01664 0.030427 -0.21317 0.33769 0.033274 0.0056365 0.0020837 3.8755e-05
0.0017926 -0.0057168 -9.6639e-05 -0.0023123
-0.0093237 0.0042977 0.033333 0.0055278 0.10699 0.30582 0.00070109 -0.001104
0.00055515 -0.0020128 0.0015328 -0.0001748
0.0018012 0.0037086 0.0020825 5.9821e-05 0.00069972 -0.0011144 -0.075209 0.27007
0.0071611 0.030509 -0.0089655 -0.0071503
0.0040967 -0.001414 0.0018101 -0.0057306 0.0005673 -0.0019945 0.0072207 0.030531
-0.12268 0.19471 0.0057848 0.019864
-0.002903 -0.0022717 -3.5317e-05 -0.002315 0.0015757 -0.00018308 -0.008954 -0.0070414
0.0057962 0.019862 -0.15557 0.25077
1040000000 -0.016846 0.29338 0.032816 0.019441 -0.0015469 0.0070342 0.0028064 0.00099838
0.00050295 -0.0035251 -0.00013282 -0.001569
0.03277 0.019457 -0.17825 0.35112 0.030056 -0.014208 0.0017305 -0.0016523
-0.0020373 -0.0025717 -0.00076072 -0.0029937
-0.001509 0.007041 0.030022 -0.014363 0.1527 0.29291 -0.00043805 -0.0016117
-0.001514 -0.00092817 -0.00047358 -0.0011457
0.0027955 0.00097659 0.0017423 -0.0016315 -0.00043529 -0.0016094 -0.04757 0.27956
0.019021 0.018991 -0.0023328 0.0011569
0.00043833 -0.003518 -0.0020666 -0.0025422 -0.001524 -0.00089702 0.019062 0.018947
-0.088776 0.20146 0.013453 0.018271
-0.00012027 -0.0015741 -0.00075989 -0.0029862 -0.0004725 -0.0011729 -0.002331 0.0011719
0.013457 0.018274 -0.13328 0.27134
1100000000 0.028204 0.30249 0.036288 -0.003212 0.0028213 0.0041064 0.002426 -0.0012002
-0.0023531 -0.0030596 -0.0040106 -0.00017585
0.036253 -0.0031854 -0.13529 0.36924 0.016117 -0.027705 1.8808e-05 -0.0019237
-0.003658 -0.0010054 -0.0034475 -0.00063903
0.0028455 0.004113 0.01602 -0.027816 0.19858 0.2739 -0.001935 3.3933e-05
-0.0017929 0.0004403 -0.0010419 -0.00045701
0.0024345 -0.0011911 1.009e-05 -0.0019307 -0.001934 4.1501e-05 -0.0077635 0.28491
0.024942 0.0057927 -0.002298 8.358e-06
-0.0023267 -0.0030583 -0.0036883 -0.00099551 -0.0017926 0.00045086 0.02494 0.0057577
-0.06822 0.21427 0.01916 0.0083987
-0.0039535 -0.0001855 -0.003489 -0.00065162 -0.0010373 -0.00042707 -0.00229 1.9558e-05
0.019188 0.0084361 -0.087605 0.30024
1160000000 0.079453 0.29888 0.024698 -0.02022 0.0027933 -0.0004209 -1.0501e-06 -0.0023395
-0.0039162 -0.0007444 -0.0012044 0.0040417
0.024696 -0.020173 -0.091861 0.37378 -0.0030498 -0.029468 -0.0015701 -0.0017258
-0.0029067 0.0025622 -0.0016484 0.0019363
0.0027842 -0.00042069 -0.0032051 -0.029505 0.24199 0.24417 -0.00090473 0.0017407
-0.00063739 0.0019793 -0.00085135 0.00039359
-6.395e-06 -0.0023549 -0.0015658 -0.0016766 -0.00090402 0.0017362 0.031615 0.28248
0.021275 -0.009938 -0.0032855 0.0050925
-0.0039746 -0.00076249 -0.0028698 0.0025257 -0.00065693 0.001962 0.0213 -0.0099645
-0.03356 0.2223 0.018243 -0.0002831
-0.001164 0.0040434 -0.0016326 0.0019017 -0.00083631 0.00038416 -0.003269 0.0050855
0.018263 -0.00025534 -0.040678 0.30274
1220000000 0.12353 0.28899 0.011474 -0.02994 -0.0015304 -0.0010233 -6.9551e-05 -0.00089175
-0.002814 0.0022879 0.00098912 0.0020675
0.011474 -0.029894 -0.048085 0.38718 -0.016639 -0.022044 -0.0026906 0.00046794
-4.1118e-05 0.0031668 -0.00094108 0.0020131
-0.0015225 -0.0010074 -0.016766 -0.022009 0.28125 0.20602 0.00072167 0.0017369
0.00057312 0.0012857 0.00025413 0.00066527
-6.7704e-05 -0.00090381 -0.0026908 0.00048709 0.00071636 0.0017461 0.071428 0.27397
0.011311 -0.016994 0.0021992 0.0014397
-0.0027769 0.002279 -2.7052e-05 0.0031556 0.00057958 0.0012753 0.011285 -0.017008
-0.0098937 0.23066 0.013932 -0.012806
0.0010021 0.0020393 -0.00094274 0.0020091 0.00025012 0.00065974 0.0021903 0.0014389
0.01397 -0.012834 -0.0089412 0.31817
1280000000 0.17388 0.2686 -0.0071972 -0.028829 -0.0019696 0.0024516 -0.00084059 -0.001993
-0.00077131 0.0030839 0.0025134 0.0013777
-0.0071701 -0.028809 -0.0021221 0.37914 -0.024008 -0.0091938 -0.00097477 0.0014308
0.0016778 0.001783 0.00058298 0.002006
-0.0019791 0.0024654 -0.024096 -0.0090958 0.31243 0.16287 0.0015452 9.6065e-06
0.0013033 0.00025221 0.00037743 0.00019604
-0.00085536 -0.0019927 -0.00097592 0.0014464 0.0015272 8.0107e-06 0.10883 0.25835
0.0014295 -0.019344 -5.3421e-05 0.00040449
-0.00078194 0.0030997 0.001692 0.0017566 0.0013083 0.0002724 0.0013915 -0.019365
0.026694 0.23396 0.0030595 -0.015043
0.0024971 0.0013754 0.00060869 0.0020391 0.00038817 0.00019798 -5.3821e-05 0.000384
0.0030887 -0.015077 0.037806 0.32019
1340000000 0.21129 0.23567 -0.017188 -0.019574 0.00071936 0.0046925 -0.001806 -0.00081489
0.0013911 0.0026843 0.0017693 -0.0012632
-0.017152 -0.019566 0.037417 0.37189 -0.022014 0.0037871 -0.00013359 0.0021036
0.0020193 0.000854 0.0012529 0.00084892
0.00074023 0.0046958 -0.022022 0.0039028 0.33499 0.11573 0.0011014 -0.00082631
0.0005595 -0.00054721 4.0929e-05 0.00026335
-0.0018027 -0.00080049 -0.00011669 0.0020874 0.001105 -0.00082785 0.14206 0.23755
-0.0079132 -0.01704 0.00077015 0.00048926
0.0014417 0.0026564 0.0020166 0.00083348 0.00056516 -0.00054301 -0.0079583 -0.017034
0.056777 0.22942 -0.0035966 -0.013953
0.001777 -0.001279 0.0012485 0.00084703 5.559e-05 0.00025246 0.00075821 0.00048642
-0.0035844 -0.014007 0.075471 0.315
1400000000 0.24513 0.19876 -0.023399 -0.0081029 0.0053209 0.0034711 -0.0021997 0.00061698
0.0024935 0.00091078 0.0004078 -0.001589
-0.023377 -0.0081056 0.075048 0.35992 -0.015548 0.012398 0.0013542 0.0013166
0.0013811 -0.00075565 0.0011621 0.00013508
0.0053436 0.0034535 -0.01551 0.012493 0.34854 0.062478 0.00011431 -0.001596
0.00012263 -0.00040074 0.0002923 0.00021476
-0.0021971 0.0006149 0.0013586 0.0013243 0.00010439 -0.0015934 0.17173 0.20876
-0.014338 -0.010229 -0.00086761 -0.00031663
0.0024901 0.00089703 0.0013956 -0.00077128 0.00012635 -0.00039805 -0.014369 -0.010204
0.089481 0.22509 -0.0098348 -0.0088294
0.0004018 -0.0015664 0.001157 0.00013368 0.00027616 0.00023386 -0.00087549 -0.00031842
-0.0098487 -0.0088428 0.11999 0.30434
1460000000 0.26869 0.15528 -0.02065 0.0042183 0.0058576 -0.0016961 -0.0016454 0.0017397
0.0020922 -0.00044883 -0.00038674 -0.0010049
-0.020633 0.0042057 0.10998 0.33859 -0.0065787 0.01572 0.0017423 0.00022288
0.00098596 -0.0013605 0.0012822 -0.00057793
0.0058347 -0.0017176 -0.0064981 0.015776 0.35539 0.0084369 -0.0011041 -0.0014406
0.00021711 -0.00022517 0.00064899 -0.00023183
-0.0016322 0.001763 0.0017322 0.000198 -0.0010874 -0.0014355 0.19867 0.17925
-0.015794 -0.0037478 -0.00089434 0.0020524
0.0020978 -0.00047839 0.00096332 -0.0013486 0.00022742 -0.00021041 -0.015824 -0.0037085
0.11917 0.21085 -0.011944 -0.0030236
-0.00037164 -0.0010387 0.0012784 -0.00056816 0.00064132 -0.00022416 -0.00090573 0.0020633
-0.011995 -0.003068 0.15342 0.28415
1520000000 0.28156 0.11399 -0.015204 0.0099158 0.0035173 -0.0043164 0.00016439 0.0025874
0.0021583 -0.0018882 -0.001204 -0.00021355
-0.015201 0.0098944 0.14399 0.32441 0.0014536 0.013551 0.0016713 -0.00081482
4.3385e-05 -0.0011704 0.00035242 -0.0010683
0.0035006 -0.0043342 0.0015336 0.013555 0.34895 -0.047629 -0.0011722 -0.00036742
0.0006594 -0.00088165 0.00014572 -0.00019176
0.00016738 0.0025842 0.0016634 -0.00081797 -0.0011704 -0.00037926 0.22198 0.14085
-0.015484 0.002259 0.0014977 0.0020448
0.0021625 -0.001908 2.5474e-05 -0.0011747 0.00066975 -0.0008878 -0.015489 0.0023023
0.14724 0.19774 -0.011769 0.001338
-0.0012047 -0.00022081 0.00035495 -0.0010626 0.00016034 -0.00019039 0.0015039 0.002056
-0.011801 0.0013301 0.1862 0.26363
1580000000 0.292 0.068097 -0.0085438 0.013415 -0.00094293 -0.0050577 0.001483 0.0019691
-0.00018386 -0.0020706 -0.00031929 0.0003353
-0.0085428 0.013405 0.17193 0.29996 0.0053668 0.0085709 0.00052402 -0.0016031
-0.00057404 -0.0011204 -0.00016397 -0.000883
-0.00097174 -0.0050555 0.0054207 0.0085496 0.32973 -0.10538 -0.0016418 0.00059318
-0.00033622 -0.001142 0.00032849 -0.0005118
0.0014897 0.001956 0.00052182 -0.0016091 -0.0016461 0.00059791 0.23591 0.10114
-0.012166 0.0074705 0.0021903 0.00091345
-0.00020018 -0.0020662 -0.00057931 -0.001112 -0.00032701 -0.0011429 -0.012151 0.0075118
0.17163 0.18034 -0.0094407 0.0071742
-0.00031103 0.00034552 -0.00017076 -0.00088605 0.00031245 -0.00051397 0.0021983 0.00093185
-0.009493 0.007171 0.21831 0.23725
1640000000 0.29482 0.026804 -0.0017181 0.012463 -0.0028385 -0.0026928 0.0027877 0.0010945
-0.00067749 -0.0016147 -0.00051042 0.00069829
-0.0017366 0.012464 0.20208 0.27513 0.0062094 0.003622 -0.00063775 -0.0017426
-0.0010706 -0.0004332 -0.00057115 -0.00070438
-0.0028644 -0.0026821 0.0062367 0.0035891 0.30148 -0.1546 -0.00074748 0.0014611
-0.0010201 -0.0010498 -0.00020875 -0.00022443
0.0028082 0.0010815 -0.00064231 -0.0017499 -0.00074164 0.0014604 0.24841 0.052062
-0.0078814 0.0092264 0.0025974 -0.00070001
-0.00069735 -0.0015986 -0.0010802 -0.00041444 -0.001016 -0.0010472 -0.0078601 0.0092639
0.1951 0.1565 -0.0047674 0.0092321
-0.00052237 0.00069228 -0.00057725 -0.00068805 -0.00019908 -0.00020803 0.0026074 -0.00070108
-0.0048085 0.0092834 0.24417 0.20603
1700000000 0.28827 -0.018672 0.0018245 0.0098066 -0.0037406 4.736e-05 0.003155 -0.001219
-0.0019499 -0.00081015 0.00060029 0.00053095
0.0018107 0.0097891 0.22052 0.24366 0.0040617 0.00053628 -0.0014408 -0.00059029
-0.0008582 4.8274e-05 -0.00090239 -0.00049017
-0.0037268 6.2317e-05 0.0040769 0.00050181 0.25804 -0.19455 0.00039382 0.0016695
-0.0021245 -0.00016236 -0.00037815 -0.00087733
0.0031259 -0.0012169 -0.0014572 -0.00059487 0.00041239 0.0016656 0.2449 0.0018553
-0.0047681 0.0099819 0.0015696 -0.0021748
-0.0019649 -0.00079999 -0.00085675 5.6136e-05 -0.0021178 -0.00015317 -0.004755 0.010005
0.2129 0.13647 -0.00024392 0.0096588
0.00061381 0.00054374 -0.00091726 -0.0004688 -0.00037928 -0.0008741 0.0015813 -0.0021812
-0.00027246 0.0096821 0.26065 0.17185
1760000000 0.27682 -0.067586 0.0044225 0.0065402 -0.0022656 0.0010169 0.0013878 -0.0034381
-0.0014206 0.00059747 0.00041237 -0.00051637
0.0044089 0.0065405 0.24711 0.20382 0.001811 -0.0013646 -0.0012014 0.00013127
-0.0010585 0.00097535 -0.00063983 0.00036413
-0.0022763 0.0010268 0.0018084 -0.0013835 0.21024 -0.22765 0.0011718 0.0011091
-0.0012999 0.0014206 -0.0011273 -0.00077497
0.0013905 -0.0034546 -0.001212 0.00014477 0.0011575 0.0011218 0.23588 -0.049627
-0.0010799 0.0092161 -6.1908e-05 -0.0025774
-0.0014171 0.00059449 -0.0010401 0.00099045 -0.0013186 0.0014429 -0.0010518 0.0092316
0.22834 0.1021 0.0037766 0.0071695
0.00040122 -0.0005497 -0.00063185 0.0003761 -0.001147 -0.000738 -5.648e-05 -0.0025638
0.0037751 0.0072253 0.2735 0.13464
1820000000 0.25238 -0.10519 0.0046503 0.0028238 -0.00016635 0.0024297 -0.00093444 -0.0031688
-0.0012069 0.0010414 -2.4299e-05 -0.00015014
0.0046411 0.002823 0.25738 0.17346 -0.00053145 -0.00030279 -0.0013725 0.00091899
-3.3989e-05 0.0013004 -0.0005619 0.00049618
-0.00015427 0.0024505 -0.00054746 -0.00030362 0.15934 -0.24379 0.0017044 0.00038795
-0.00022231 0.0025046 -0.0015548 0.00032809
-0.00095549 -0.0031688 -0.0013629 0.00092999 0.0017097 0.0003709 0.20566 -0.096982
0.0007746 0.0078036 -0.0017645 -0.0015896
-0.001179 0.0010474 -7.3505e-06 0.0013133 -0.00020566 0.0025066 0.00079731 0.0078281
0.24605 0.073218 0.0045735 0.003705
-1.3137e-05 -0.00014424 -0.00055765 0.00049926 -0.0015514 0.00033565 -0.0017733 -0.0015956
0.004607 0.0037387 0.27565 0.09794
1880000000 0.21734 -0.14595 0.0025517 0.00033426 -0.00051373 0.0021183 -0.0029542 -0.0022647
-0.00039357 0.0019123 5.2477e-05 -0.00053925
0.0025444 0.00032754 0.26197 0.12684 -0.0025024 0.0016258 -0.00029793 0.0017345
0.0006024 0.0012696 4.1342e-05 0.00101
-0.00050348 0.0021301 -0.0025009 0.0016313 0.10735 -0.25271 0.0017645 -0.00093879
0.0015929 0.0019693 -0.0010747 0.0015502
-0.0029511 -0.0022667 -0.00027937 0.0017346 0.0017513 -0.00093825 0.16478 -0.13705
0.0018513 0.0055003 -0.0023412 0.00017548
-0.00035631 0.0019037 0.00060361 0.0012721 0.0016103 0.001973 0.0018738 0.0054854
0.25033 0.041839 0.0050598 0.0013779
5.5253e-05 -0.00056581 5.4013e-05 0.0010097 -0.0010532 0.0015467 -0.0023381 0.0001852
0.0051087 0.0014198 0.27574 0.064266
1940000000 0.17808 -0.17175 0.00011065 -0.0013974 0.001352 0.002036 -0.003769 0.00021896
0.0015126 0.0011314 -0.00060819 -0.00056128
0.00010105 -0.0013913 0.26279 0.094833 -0.0013664 0.00398 0.0011423 0.0013158
0.0019392 0.00049643 0.0010504 0.00041746
0.0013437 0.0020348 -0.001341 0.0039889 0.061884 -0.24576 0.00056964 -0.0022799
0.0025484 0.00035892 0.00072214 0.0016191
-0.0037693 0.00025415 0.0011443 0.0013072 0.00056068 -0.0022752 0.11214 -0.16751
0.0010527 0.0039655 -0.0013174 0.0015523
0.0015103 0.0011409 0.0019357 0.00048258 0.0025488 0.00033848 0.0010671 0.0039763
0.25377 0.0033819 0.0039203 -0.0017262
-0.00064278 -0.0005294 0.0010354 0.00040406 0.00068171 0.0016335 -0.0013183 0.0015266
0.0039605 -0.0016958 0.26535 0.028201
2000000000 0.13144 -0.18656 -0.0038083 0.00057556 0.0026246 0.0015812 -0.0023174 0.0038254
0.0013063 0.00047429 -0.00055662 0.00053646
-0.00382 0.00057982 0.24841 0.05918 -0.00094279 0.0059035 0.0016136 0.00048949
0.0013555 -0.0011338 0.00047128 0.00020819
0.0026362 0.0015922 -0.00089531 0.0059261 0.018789 -0.23173 -0.0012779 -0.0014348
0.0021772 -0.0012168 0.0016929 0.0014212
-0.0023168 0.0038529 0.0016117 0.00049237 -0.0012726 -0.0014268 0.058572 -0.17718
-0.00036959 0.0034913 -3.675e-05 0.0021588
0.0012975 0.0004679 0.0013372 -0.0011427 0.0021889 -0.001208 -0.00035348 0.0034954
0.24898 -0.030123 0.00069094 -0.0027008
