!Keysight Technologies,M9804A,MY58100912,A.14.10.03
!Date: Thursday, April 27, 2023 10:28:33
!Correction: S11(C  6-Port  ) 
!S12(C  6-Port  ) 
!S13(C  6-Port  ) 
!S14(C  6-Port  ) 
!S15(C  6-Port  ) 
!S16(C  6-Port  ) 
!S21(C  6-Port  ) 
!S22(C  6-Port  ) 
!S23(C  6-Port  ) 
!S24(C  6-Port  ) 
!S25(C  6-Port  ) 
!S26(C  6-Port  ) 
!S31(C  6-Port  ) 
!S32(C  6-Port  ) 
!S33(C  6-Port  ) 
!S34(C  6-Port  ) 
!S35(C  6-Port  ) 
!S36(C  6-Port  ) 
!S41(C  6-Port  ) 
!S42(C  6-Port  ) 
!S43(C  6-Port  ) 
!S44(C  6-Port  ) 
!S45(C  6-Port  ) 
!S46(C  6-Port  ) 
!S51(C  6-Port  ) 
!S52(C  6-Port  ) 
!S53(C  6-Port  ) 
!S54(C  6-Port  ) 
!S55(C  6-Port  ) 
!S56(C  6-Port  ) 
!S61(C  6-Port  ) 
!S62(C  6-Port  ) 
!S63(C  6-Port  ) 
!S64(C  6-Port  ) 
!S65(C  6-Port  ) 
!S66(C  6-Port  ) 
!S6P File: Measurement: :
# Hz S  RI   R 50
500000000 -0.3343 -0.054362 -0.0096758 -0.0012463 -0.0081847 0.012836 -0.0033316 0.011164
0.013024 0.0054968 -0.0029235 0.0073722
-0.0095303 -0.0010933 -0.41622 -0.064722 0.0079942 -0.01058 0.0012072 0.011332
0.0082283 0.0032651 0.0015728 0.012862
-0.0082142 0.012783 0.007919 -0.010459 -0.26732 0.19873 0.0065034 0.0033086
-0.0012914 0.0082184 0.00046531 0.011831
-0.0032952 0.011056 0.001099 0.011207 0.0064327 0.00329 -0.33069 0.042165
-0.018914 -0.0037267 0.018361 0.024893
0.013361 0.0057643 0.0084443 0.0029043 -0.0014106 0.0082555 -0.019083 -0.0039277
-0.24576 -0.19906 -0.027865 0.0071549
-0.0029837 0.0071014 0.0012927 0.012754 0.00016529 0.011933 0.017887 0.025128
-0.027851 0.0071544 -0.26786 -0.12505
560000000 -0.31934 0.11178 -0.023441 -0.063943 0.0002057 0.012725 0.0055813 0.011309
0.010878 0.0036803 0.010347 0.007472
-0.023376 -0.063728 -0.37536 0.097804 -0.041248 -0.038023 0.012943 0.0026607
-0.012986 -0.0044601 0.0039306 -0.00061223
0.00018662 0.012709 -0.041176 -0.037558 -0.18604 0.25101 -0.00022213 -0.0050864
0.018366 0.0060784 0.0072945 -0.0061445
0.0054304 0.01123 0.012912 0.0024584 -0.0001366 -0.0050575 -0.30686 0.13387
0.006126 -0.024359 0.0056595 -0.020762
0.010618 0.0038707 -0.01271 -0.0041405 0.018492 0.0060862 0.0060622 -0.024408
-0.31133 -0.019195 0.0098358 -0.049744
0.010497 0.0073618 0.0038854 -0.00087892 0.007246 -0.0061305 0.0057368 -0.021194
0.0099266 -0.050062 -0.33102 0.022306
620000000 -0.27769 0.091443 -0.02273 0.0085711 0.0038175 0.0090782 0.0086967 -0.0045165
0.01271 -0.0010758 0.00093395 -0.0025273
-0.022874 0.0085657 -0.40323 0.047592 -0.018206 0.00065223 -0.0012778 -0.0018984
0.012145 -0.0062544 0.0013345 -0.0026574
0.0037581 0.0091636 -0.018287 0.00073479 -0.15575 0.25942 -0.00081004 -0.0050765
-0.0034365 -0.0031052 0.0091985 -0.0028284
0.0085866 -0.0045542 -0.0013872 -0.0018513 -0.00091436 -0.0049966 -0.26639 0.14485
-0.037913 -0.018983 0.01294 0.027302
0.012329 -0.0012585 0.012128 -0.0064941 -0.0033022 -0.0031509 -0.037577 -0.018805
-0.23153 -0.051131 -0.04168 0.011919
0.0013507 -0.0019582 0.0012333 -0.002576 0.0088357 -0.0028506 0.012459 0.02736
-0.041024 0.011824 -0.25133 -0.010058
680000000 -0.23895 0.18254 -0.026161 -0.014921 0.0051499 0.0053087 0.0012433 -0.0071699
-0.0025207 -0.011511 0.0054028 -0.0064211
-0.026135 -0.014852 -0.39019 0.1485 -0.032281 -0.0021341 -0.0014068 -0.00034329
-0.0019599 -0.0095217 -0.00093051 -0.0019995
0.0051207 0.0053812 -0.032333 -0.0021116 -0.10436 0.28025 -0.00079141 -0.00025912
-0.0019708 0.00031713 -0.0022954 -0.0088873
0.001221 -0.0071947 -0.0012877 -0.00027139 -0.00073379 -0.00020033 -0.22052 0.19664
-0.02328 -0.0078661 -0.0088447 -0.010939
-0.0025305 -0.011427 -0.0020329 -0.0095771 -0.0020432 0.00028854 -0.02333 -0.0078954
-0.27891 0.050304 -0.007165 -0.0068467
0.0054333 -0.0067086 -0.0010726 -0.0022732 -0.0025298 -0.0090451 -0.0090643 -0.011379
-0.007086 -0.0069322 -0.25981 0.092219
740000000 -0.19392 0.17566 -0.039391 0.027025 0.013503 -0.0046802 -0.00037558 -0.0043853
-0.0047164 -0.0022058 -0.0066385 0.0028776
-0.039342 0.026964 -0.3357 0.16736 -0.036814 0.035004 0.00020445 -0.0057359
-0.012896 0.0069633 -0.00046071 -0.00529
0.013432 -0.004775 -0.036831 0.035048 -0.070579 0.27769 -0.0019596 0.0035174
-0.0027428 -0.0060056 -0.0017975 0.001167
-0.00031404 -0.0043238 0.00031202 -0.0057692 -0.0020038 0.0035542 -0.20372 0.20396
-0.042257 -0.0077184 0.022306 0.015608
-0.0047068 -0.0023238 -0.012831 0.007012 -0.0027999 -0.0061173 -0.04235 -0.0076168
-0.17929 0.076933 -0.042713 0.00021416
-0.0067208 0.0028304 -0.00061322 -0.0053657 -0.0017276 0.0012739 0.022304 0.015649
-0.042547 -0.00017817 -0.24853 0.098682
800000000 -0.16281 0.21997 -0.022944 0.016397 0.0057278 -0.010449 -0.0045827 -0.002045
-0.0041098 0.0020016 0.004149 0.00030259
-0.02291 0.016499 -0.34199 0.23861 -0.0086813 0.034026 -0.0023258 0.0021483
-0.00098234 0.0028567 0.00077376 0.0052461
0.005676 -0.010477 -0.0085881 0.034057 -0.031649 0.30167 0.00089531 0.0015307
-0.00011028 0.0036702 -0.0019064 0.0005834
-0.0045965 -0.0021085 -0.0023313 0.0021823 0.00089654 0.0014915 -0.17421 0.23136
-0.029002 0.012916 0.014064 -0.010291
-0.0041045 0.0020565 -0.00097733 0.0027495 -0.00011664 0.0036957 -0.029025 0.012859
-0.22198 0.10755 -0.017862 0.019301
0.0042072 0.00033435 0.00078404 0.0052424 -0.0019169 0.00062582 0.014004 -0.010264
-0.017883 0.019326 -0.24215 0.14781
860000000 -0.12823 0.24027 -0.018125 0.030437 -0.0029507 -0.010131 -0.0024575 0.00024254
0.0038395 0.0046343 -0.003495 -0.0024206
-0.018197 0.030494 -0.29345 0.28108 0.0071955 0.034346 -0.0001251 0.0019745
0.0032393 0.00039684 0.0033004 0.00066872
-0.0030091 -0.010173 0.0073719 0.03436 0.016137 0.31011 -0.00082101 -0.00015874
0.0022647 -0.0017126 0.0015241 0.0044995
-0.0025455 0.00019248 -0.00010866 0.002018 -0.00079912 -0.0001637 -0.13776 0.24191
-0.018366 0.017456 -0.0070379 -0.0084321
0.0038823 0.0046361 0.0032348 0.00028653 0.0022803 -0.001663 -0.01836 0.017397
-0.16662 0.15796 -0.024358 0.016824
-0.0034697 -0.0025342 0.0034119 0.00057553 0.0015621 0.0044433 -0.0070346 -0.0083429
-0.024211 0.016865 -0.1908 0.1931
920000000 -0.10472 0.2635 0.0042646 0.0384 -0.0093836 -0.0048529 -0.0020009 0.0018881
0.001242 0.0021702 0.0029571 -0.0014526
0.0043 0.038372 -0.26626 0.30247 0.027946 0.022889 0.0013918 0.0013256
0.0075835 -0.00032501 0.0042562 -0.0026825
-0.0093975 -0.0048478 0.02804 0.022845 0.061301 0.31146 0.0019338 -3.1444e-05
0.0010802 6.0779e-06 0.00090853 -0.0012334
-0.0020153 0.0018218 0.0014406 0.0012802 0.0019393 -1.0292e-05 -0.1133 0.25868
-0.01135 0.030726 0.0034549 -0.0069411
0.0013412 0.0021378 0.007556 -0.00037345 0.0010897 -6.7803e-06 -0.011219 0.030707
-0.15596 0.16485 -0.0018209 0.027622
0.002982 -0.0014664 0.0042849 -0.0027368 0.00092571 -0.0011467 0.0033571 -0.0068895
-0.00148 0.027642 -0.19787 0.20622
980000000 -0.057748 0.28418 0.016781 0.030406 -0.0093253 0.0042705 0.0018182 0.0036348
0.0042439 -0.0014579 -0.002779 -0.0024966
0.016818 0.030365 -0.21305 0.33771 0.033248 0.0056356 0.0021875 -4.0703e-05
0.0017588 -0.0057934 6.121e-05 -0.0024493
-0.0092911 0.00426 0.03331 0.0055263 0.10706 0.30581 0.00073116 -0.0011113
0.00053308 -0.0019173 0.0016169 -0.00020298
0.0018352 0.0037042 0.0022186 -2.7624e-05 0.00075286 -0.0011289 -0.075254 0.27024
0.0070753 0.030243 -0.0090429 -0.0070198
0.0042291 -0.0015049 0.0017183 -0.0058445 0.00053857 -0.0019541 0.0070956 0.030279
-0.12255 0.19449 0.0055139 0.019525
-0.002909 -0.002524 9.852e-05 -0.0024429 0.0015128 -0.00019428 -0.0090632 -0.0070445
0.0055108 0.019717 -0.15595 0.25108
1040000000 -0.016244 0.29335 0.03289 0.019267 -0.0014611 0.0070783 0.0027471 0.00081887
0.00027784 -0.0035993 -7.3423e-05 -0.0015053
0.032897 0.01927 -0.17806 0.35117 0.030099 -0.01423 0.0017155 -0.0016756
-0.0020967 -0.0025971 -0.00070954 -0.0028391
-0.0014292 0.0070937 0.030053 -0.014353 0.15276 0.29292 -0.00040246 -0.0016
-0.0015645 -0.00095571 -0.00045468 -0.0010853
0.0027165 0.00081719 0.0017214 -0.001673 -0.0003884 -0.0015939 -0.047635 0.27949
0.01893 0.018832 -0.0022781 0.0010468
0.00030346 -0.0035856 -0.0021355 -0.0025693 -0.0015527 -0.00094552 0.019104 0.018827
-0.088633 0.20178 0.013829 0.018094
-8.2799e-05 -0.0015226 -0.00075123 -0.0027863 -0.00045111 -0.0010479 -0.0022851 0.001116
0.013967 0.018128 -0.13317 0.27097
1100000000 0.028222 0.30271 0.036268 -0.0031684 0.002799 0.0041624 0.0024857 -0.0010975
-0.0022587 -0.0030921 -0.00388 -0.00019765
0.036238 -0.0031503 -0.1352 0.36928 0.016094 -0.02769 7.843e-05 -0.0018878
-0.0036245 -0.0010401 -0.0034092 -0.00063081
0.0028148 0.0041441 0.016027 -0.027793 0.19869 0.27384 -0.0018876 6.534e-05
-0.0017695 0.00044442 -0.00099639 -0.00045485
0.0024986 -0.001123 6.924e-05 -0.0018935 -0.001894 6.4255e-05 -0.0077769 0.28501
0.02486 0.0057761 -0.0024769 -4.2795e-06
-0.0022298 -0.0030767 -0.0036707 -0.0010383 -0.0017753 0.0004652 0.024875 0.0057503
-0.067988 0.21447 0.01936 0.0084544
-0.0038982 -0.00013724 -0.0034452 -0.00057441 -0.00098101 -0.0004888 -0.0024964 -3.526e-05
0.019371 0.0084958 -0.087458 0.29992
1160000000 0.079655 0.29869 0.024625 -0.020286 0.0028425 -0.00040184 -8.1022e-05 -0.002488
-0.0040423 -0.00075506 -0.0012001 0.0042971
0.024627 -0.020234 -0.09185 0.37375 -0.0029458 -0.029499 -0.0016755 -0.0017291
-0.0027935 0.0026201 -0.0015763 0.0019623
0.0028508 -0.00041755 -0.003117 -0.02951 0.24199 0.2441 -0.00083819 0.001745
-0.00064032 0.0019466 -0.00093885 0.00029277
-0.00013213 -0.0024875 -0.0016601 -0.0017138 -0.00081903 0.0017503 0.031665 0.28234
0.02124 -0.0098936 -0.0033034 0.0050767
-0.0040392 -0.0007451 -0.0027855 0.0025904 -0.0006404 0.0019507 0.021265 -0.0099216
-0.033563 0.2223 0.018108 -0.00034894
-0.0011446 0.0043094 -0.0015543 0.0020476 -0.0009647 0.00034059 -0.0032392 0.0051942
0.018031 -0.00039154 -0.040351 0.30292
1220000000 0.12366 0.28899 0.011485 -0.02994 -0.0015495 -0.0009462 3.0773e-05 -0.00085904
-0.002725 0.0022754 0.0010111 0.0019821
0.01152 -0.029893 -0.047954 0.38713 -0.016674 -0.022022 -0.0026069 0.00043379
-1.6529e-05 0.0032008 -0.00095518 0.0020074
-0.001543 -0.00092876 -0.016791 -0.021978 0.28133 0.20594 0.00073675 0.00174
0.00062318 0.0012539 0.00032626 0.00059157
4.3011e-05 -0.00087375 -0.0026178 0.00042355 0.00071602 0.0017281 0.071599 0.2741
0.01112 -0.01685 0.0021715 0.0014959
-0.0027311 0.0022967 -6.1791e-06 0.0031996 0.00061318 0.0012438 0.011093 -0.016886
-0.0097605 0.2308 0.013895 -0.012813
0.0010392 0.0019747 -0.00093186 0.0020495 0.00030938 0.00056887 0.0021693 0.0014997
0.013873 -0.012849 -0.0090199 0.31825
1280000000 0.17379 0.26851 -0.0072593 -0.028742 -0.0019558 0.0024328 -0.00088247 -0.0020989
-0.00076837 0.0031102 0.0025503 0.0013982
-0.007222 -0.028738 -0.0019834 0.37922 -0.023971 -0.0091971 -0.0010759 0.0014688
0.0017413 0.0017132 0.000629 0.002021
-0.001952 0.002445 -0.024062 -0.0090793 0.31247 0.16277 0.0015448 3.5691e-05
0.0012821 0.00021927 0.0003228 0.00020613
-0.00091308 -0.0020857 -0.0010275 0.0015232 0.001541 6.0027e-05 0.10864 0.25827
0.0014599 -0.019364 -4.1965e-05 0.0004276
-0.00075472 0.0031044 0.0017395 0.0017114 0.0012644 0.00024337 0.0014511 -0.019374
0.02669 0.23413 0.003029 -0.01513
0.0025675 0.0013511 0.00061445 0.0020532 0.00032692 0.0002132 -1.2329e-05 0.00040019
0.0029987 -0.015111 0.037832 0.32
1340000000 0.21139 0.2356 -0.017185 -0.019576 0.00070678 0.0046842 -0.0017142 -0.00074654
0.001344 0.0026994 0.0017323 -0.0013569
-0.017154 -0.01959 0.037455 0.37186 -0.022029 0.0038227 -0.00010883 0.002017
0.0019774 0.00083709 0.001206 0.00087263
0.00071085 0.0046836 -0.022015 0.0039357 0.33489 0.11565 0.0010964 -0.000834
0.00055464 -0.00048795 7.4837e-05 0.00036141
-0.0017072 -0.00076324 -0.00012424 0.0020218 0.0010961 -0.00082756 0.14217 0.23765
-0.0078345 -0.016879 0.00079895 0.0003437
0.0013631 0.0027086 0.0019842 0.00083863 0.00055219 -0.00045622 -0.0078852 -0.016875
0.056926 0.22939 -0.0034149 -0.013976
0.0017009 -0.0013561 0.0011971 0.00086447 0.00010985 0.00034109 0.00079555 0.00036913
-0.003391 -0.014006 0.075578 0.31509
1400000000 0.24507 0.19869 -0.023422 -0.0080368 0.0053008 0.0033809 -0.0022919 0.00058299
0.002478 0.00091174 0.00030799 -0.0015696
-0.023408 -0.0080472 0.075194 0.35989 -0.015529 0.012406 0.0013665 0.0013858
0.0013266 -0.00076369 0.0011751 0.00013469
0.0053319 0.003354 -0.015505 0.012523 0.34867 0.062452 0.0001628 -0.0016369
9.604e-05 -0.00039988 0.00025174 0.00017225
-0.0022695 0.00061472 0.0014002 0.001363 0.00014564 -0.0016549 0.17181 0.20875
-0.014165 -0.01024 -0.00085481 -0.00028322
0.0024754 0.00086976 0.0013144 -0.00077896 0.00010953 -0.00040323 -0.014198 -0.010237
0.089782 0.22517 -0.010014 -0.0088813
0.00030123 -0.0015162 0.0011893 0.00012063 0.000264 0.00017282 -0.00089814 -0.00025957
-0.010074 -0.0088461 0.12024 0.30441
1460000000 0.26879 0.15522 -0.020656 0.0042168 0.005819 -0.001656 -0.001516 0.00174
0.0020578 -0.0004718 -0.00029569 -0.0011132
-0.020625 0.0041967 0.11007 0.33858 -0.0065688 0.015695 0.0016977 0.00019457
0.00096755 -0.0013441 0.001261 -0.00051908
0.0058169 -0.0017005 -0.0064894 0.015746 0.35553 0.0083033 -0.0011424 -0.0013592
0.00020675 -0.00017752 0.00062072 -0.00022688
-0.0015118 0.0017109 0.0016849 0.00021132 -0.0011343 -0.0013365 0.19881 0.17938
-0.015682 -0.0038086 -0.00089459 0.0019748
0.0020606 -0.00047323 0.00095234 -0.0013484 0.00019158 -0.00018031 -0.015714 -0.0037617
0.11943 0.21083 -0.01182 -0.0030355
-0.00035231 -0.0011177 0.0013215 -0.00050949 0.00059222 -0.00023027 -0.00094662 0.0019637
-0.011874 -0.0031229 0.15351 0.28402
1520000000 0.28171 0.114 -0.015177 0.0099353 0.0034397 -0.0043133 6.5513e-05 0.0025356
0.0020972 -0.0018811 -0.0011751 -0.00010681
-0.01517 0.009933 0.14407 0.32434 0.0014619 0.013545 0.0016849 -0.00079534
5.494e-05 -0.0011573 0.00038545 -0.0010414
0.0034315 -0.0043276 0.0015383 0.013553 0.34891 -0.047724 -0.0011169 -0.00041913
0.00067457 -0.00083747 9.9811e-05 -0.00017694
5.514e-05 0.0025695 0.0016896 -0.0008208 -0.0010835 -0.00041075 0.22207 0.14075
-0.01542 0.0021131 0.0013752 0.002062
0.0020797 -0.0019033 3.5643e-05 -0.0011574 0.00068421 -0.00084416 -0.015404 0.0021274
0.14752 0.19775 -0.01183 0.0013418
-0.0011655 -0.00011856 0.00036551 -0.0010309 0.00011741 -0.00016934 0.0014175 0.0020909
-0.011783 0.0013822 0.18636 0.26356
1580000000 0.29219 0.068089 -0.0085487 0.013434 -0.00094974 -0.005126 0.0015471 0.0019482
-0.00013796 -0.002087 -0.00037022 0.00029993
-0.0085429 0.013401 0.17201 0.29993 0.0053888 0.0085305 0.00049056 -0.0016165
-0.00057265 -0.0011282 -0.00016236 -0.00088164
-0.0009798 -0.0051184 0.0054575 0.0085289 0.32976 -0.10524 -0.0017439 0.00057627
-0.00039416 -0.0012107 0.00031599 -0.00058268
0.0015628 0.0019222 0.00047434 -0.0015859 -0.0017579 0.00056398 0.23606 0.10123
-0.012153 0.0073409 0.0022537 0.00089824
-0.00014895 -0.0020848 -0.00058078 -0.001127 -0.00041947 -0.0012565 -0.012134 0.0073873
0.17188 0.18025 -0.0093467 0.0071969
-0.00040628 0.00030658 -0.00015287 -0.0008901 0.00029574 -0.00055397 0.0022377 0.00085517
-0.0093543 0.0071412 0.21819 0.23712
1640000000 0.29502 0.026768 -0.0016829 0.012446 -0.0027993 -0.0027162 0.0026876 0.0010889
-0.00071417 -0.0015913 -0.00044098 0.00069787
-0.0016884 0.012422 0.20211 0.27507 0.0062109 0.0036214 -0.00061466 -0.0017612
-0.0010721 -0.00045274 -0.0005385 -0.00071031
-0.0028458 -0.0027153 0.0062394 0.0035642 0.30147 -0.15477 -0.00066123 0.0014452
-0.0010454 -0.000979 -0.00017859 -0.00026382
0.0027057 0.0011152 -0.00064082 -0.0017759 -0.00066427 0.0014413 0.24856 0.051854
-0.0079446 0.0090697 0.0024708 -0.00074601
-0.00073552 -0.0015938 -0.0010831 -0.00044056 -0.0010301 -0.00098991 -0.0079064 0.009124
0.19538 0.15632 -0.0048604 0.0092484
-0.00038094 0.00071029 -0.00055033 -0.00069568 -0.00019163 -0.00031431 0.002514 -0.00075616
-0.0048308 0.0092863 0.24447 0.20601
1700000000 0.28834 -0.018813 0.0018395 0.0097717 -0.0037841 0.00010333 0.0031769 -0.0011987
-0.0019435 -0.00077066 0.00058636 0.00051509
0.0018169 0.0097592 0.22057 0.24356 0.0040118 0.00048836 -0.0014815 -0.00061114
-0.00086086 5.2594e-05 -0.0009405 -0.00044764
-0.0037431 9.6505e-05 0.0040272 0.00049145 0.25782 -0.19475 0.00038805 0.0016477
-0.0021118 -0.00017144 -0.00038212 -0.0008282
0.0031791 -0.0012316 -0.0014733 -0.00059159 0.00039695 0.0016855 0.24494 0.0018026
-0.0049379 0.0099192 0.0016072 -0.0021952
-0.0019572 -0.00075008 -0.00086478 4.8829e-05 -0.0021181 -0.00015512 -0.0049347 0.0099531
0.21297 0.13627 -0.00016387 0.0096228
0.00056045 0.0005478 -0.00093573 -0.00047705 -0.00041016 -0.00081475 0.0015688 -0.0022077
-0.00018516 0.0096188 0.26075 0.17176
1760000000 0.27684 -0.067825 0.0044261 0.006491 -0.0022828 0.00094045 0.0013669 -0.0034437
-0.0014274 0.00058276 0.00039557 -0.00054284
0.0044249 0.0064864 0.24714 0.20378 0.0017983 -0.0013922 -0.0012129 0.00011947
-0.0011169 0.0009566 -0.00064326 0.00040143
-0.0023011 0.001006 0.0017888 -0.0013901 0.2101 -0.22769 0.0011964 0.0011861
-0.0013652 0.0014411 -0.0011822 -0.0007696
0.0013405 -0.0034395 -0.0012206 0.0001386 0.0011388 0.001163 0.23583 -0.049811
-0.001197 0.0092364 -0.00011241 -0.0024971
-0.0014345 0.00057425 -0.0011158 0.00095526 -0.001373 0.0014486 -0.0011678 0.0092253
0.22843 0.10186 0.0036874 0.0071894
0.0004181 -0.00056229 -0.00062054 0.00044212 -0.0012083 -0.0007629 -0.00012101 -0.0024712
0.0037483 0.0072374 0.2736 0.13438
1820000000 0.25232 -0.10543 0.0046192 0.0027964 -0.0001538 0.0024285 -0.00092805 -0.0031503
-0.0012604 0.00097323 -4.4017e-05 -0.00017324
0.0046177 0.0027768 0.25741 0.17338 -0.00057512 -0.00027695 -0.0013325 0.00089765
-1.2175e-05 0.0012886 -0.00059749 0.00054934
-0.00010753 0.0023927 -0.00055026 -0.00026403 0.15923 -0.24388 0.0016698 0.0003864
-0.00016553 0.0024325 -0.0014056 0.00044051
-0.00093881 -0.0031825 -0.0013336 0.00090239 0.001668 0.00042418 0.20552 -0.09716
0.00061486 0.0078943 -0.0016219 -0.0015805
-0.0012507 0.00097871 5.2956e-07 0.0012877 -0.00019144 0.0024348 0.0006412 0.0078906
0.24604 0.073035 0.004726 0.0036941
2.4433e-05 -0.00013049 -0.00059197 0.00057586 -0.0014577 0.00050216 -0.0017078 -0.001582
0.0047295 0.0036868 0.27569 0.097887
1880000000 0.21719 -0.14618 0.0025182 0.00034173 -0.00043169 0.0021602 -0.0029005 -0.0023062
-0.00028389 0.0019205 6.3385e-07 -0.00054279
0.002492 0.00034042 0.26204 0.12676 -0.0024929 0.0015675 -0.00025726 0.0017867
0.00061525 0.0013395 2.319e-05 0.00094724
-0.00043208 0.0021871 -0.0024581 0.0015953 0.10727 -0.25298 0.0018608 -0.0010356
0.0016061 0.0020976 -0.0011065 0.0015019
-0.0028925 -0.0022509 -0.00027209 0.0017806 0.0018713 -0.0010018 0.16456 -0.137
0.0017302 0.0055633 -0.0023841 0.00019739
-0.00026154 0.0019254 0.00063546 0.0013283 0.001612 0.0021063 0.0017064 0.0055779
0.25035 0.04157 0.0048888 0.0013795
2.9491e-05 -0.00055316 7.8098e-05 0.00095729 -0.0010983 0.0014661 -0.0022678 0.00018421
0.0049954 0.0014316 0.27583 0.064047
1940000000 0.17774 -0.17209 0.0001271 -0.0014422 0.0013842 0.0020714 -0.0038539 0.00036937
0.0014215 0.0011829 -0.00056135 -0.00066251
0.00014017 -0.0014588 0.26282 0.094781 -0.0013155 0.0040539 0.0010901 0.001329
0.0019632 0.0004923 0.0010743 0.00036019
0.0014035 0.0020634 -0.0013062 0.0040808 0.061808 -0.24558 0.00045418 -0.002336
0.0025353 0.00027872 0.00065937 0.0016297
-0.0038888 0.0003858 0.0011004 0.0013181 0.0003883 -0.0023561 0.11204 -0.16763
0.0010285 0.0040083 -0.0012714 0.001673
0.0014181 0.0011384 0.0019687 0.00047948 0.0025155 0.00020654 0.0010613 0.0040245
0.2537 0.0032432 0.0038949 -0.0017366
-0.00055313 -0.0006773 0.0010888 0.00036403 0.00069317 0.0016608 -0.0013182 0.0016803
0.0038132 -0.00173 0.26531 0.02814
2000000000 0.13114 -0.18654 -0.0038381 0.00057321 0.0026093 0.0017269 -0.0023866 0.0037992
0.001332 0.00038498 -0.00053772 0.00050873
-0.0038587 0.00057413 0.24845 0.059113 -0.00098074 0.0058755 0.0015828 0.00040405
0.0013586 -0.0012363 0.00053159 0.00018045
0.0025921 0.0016742 -0.0009206 0.0058881 0.018675 -0.23183 -0.0012536 -0.0014092
0.0022288 -0.0012088 0.0016417 0.0012959
-0.0023134 0.0038574 0.0015558 0.00041536 -0.0012611 -0.0013581 0.058503 -0.17679
-0.00043456 0.0036966 -4.624e-05 0.0019878
0.0013502 0.00037625 0.001356 -0.0012358 0.0022152 -0.0012165 -0.00041275 0.0036886
0.24898 -0.030269 0.00066553 -0.002768
