!Keysight Technologies,M9804A,MY58100912,A.14.10.03
!Date: Thursday, April 27, 2023 10:28:33
!Correction: S11(C  6-Port  ) 
!S12(C  6-Port  ) 
!S13(C  6-Port  ) 
!S14(C  6-Port  ) 
!S15(C  6-Port  ) 
!S16(C  6-Port  ) 
!S21(C  6-Port  ) 
!S22(C  6-Port  ) 
!S23(C  6-Port  ) 
!S24(C  6-Port  ) 
!S25(C  6-Port  ) 
!S26(C  6-Port  ) 
!S31(C  6-Port  ) 
!S32(C  6-Port  ) 
!S33(C  6-Port  ) 
!S34(C  6-Port  ) 
!S35(C  6-Port  ) 
!S36(C  6-Port  ) 
!S41(C  6-Port  ) 
!S42(C  6-Port  ) 
!S43(C  6-Port  ) 
!S44(C  6-Port  ) 
!S45(C  6-Port  ) 
!S46(C  6-Port  ) 
!S51(C  6-Port  ) 
!S52(C  6-Port  ) 
!S53(C  6-Port  ) 
!S54(C  6-Port  ) 
!S55(C  6-Port  ) 
!S56(C  6-Port  ) 
!S61(C  6-Port  ) 
!S62(C  6-Port  ) 
!S63(C  6-Port  ) 
!S64(C  6-Port  ) 
!S65(C  6-Port  ) 
!S66(C  6-Port  ) 
!S6P File: Measurement: :
# Hz S  RI   R 50
500000000 -0.33647 -0.033626 -0.0096098 -0.0037551 -0.0077669 0.011548 -0.0034551 0.011691
0.012228 0.0043457 -0.0039838 0.0082256
-0.0095794 -0.0037409 -0.41924 -0.048509 0.0075261 -0.011716 0.0016137 0.011655
0.0076621 0.0023409 0.0008822 0.013176
-0.0077109 0.011629 0.0075302 -0.011744 -0.26389 0.21141 0.0069014 0.0030095
0.00021011 0.0082525 0.00050037 0.011934
-0.0033899 0.011631 0.0016747 0.011687 0.0069212 0.002993 -0.32675 0.048681
-0.018945 -0.0045364 0.018088 0.026166
0.012473 0.004236 0.0077194 0.0023903 7.9334e-05 0.0082698 -0.018997 -0.0043987
-0.22753 -0.18164 -0.027701 0.0050733
-0.0038351 0.0083236 0.0009385 0.013199 0.00048576 0.01186 0.018075 0.026076
-0.027636 0.0049398 -0.26931 -0.13527
560000000 -0.31547 0.12541 -0.023577 -0.062915 0.00012691 0.011863 0.0061647 0.0096122
0.011014 0.0037088 0.00949 0.0074623
-0.023621 -0.063187 -0.37639 0.10905 -0.041714 -0.036757 0.013453 0.0038729
-0.0135 -0.004487 0.0045423 -0.0011119
0.00047483 0.011831 -0.041833 -0.036772 -0.18217 0.25864 -0.0007917 -0.0050586
0.019202 0.0036191 0.0071797 -0.0056908
0.0062332 0.0094994 0.013251 0.0038067 -0.00077906 -0.0050764 -0.3024 0.13611
0.0041092 -0.024567 0.0053165 -0.019811
0.010888 0.0039754 -0.013604 -0.0042293 0.019135 0.0036248 0.004042 -0.024828
-0.28357 -0.007991 0.0075145 -0.050744
0.0095746 0.0072751 0.0046477 -0.00107 0.0072483 -0.0057191 0.005171 -0.019854
0.0074865 -0.050736 -0.33373 0.014231
620000000 -0.27242 0.11031 -0.023011 0.0070213 0.0032449 0.0080363 0.0067551 -0.0058128
0.011115 -0.0005497 0.00033073 -0.002018
-0.022948 0.0069238 -0.40235 0.063375 -0.01912 -0.00047477 -0.0014889 -0.0020658
0.0098725 -0.0071936 0.00098277 -0.0025147
0.003208 0.0079851 -0.019122 -0.00049481 -0.15255 0.2676 -0.0017355 -0.0050071
-0.0042036 -0.0034772 0.0082789 -0.003382
0.0067315 -0.0059052 -0.0014481 -0.0020782 -0.0016954 -0.0049899 -0.26068 0.14648
-0.038166 -0.019046 0.014019 0.023986
0.01129 -0.00064207 0.010028 -0.0071452 -0.0040238 -0.0033607 -0.038335 -0.019031
-0.20493 -0.046471 -0.040341 0.015113
0.00045154 -0.0019815 0.0010358 -0.0025242 0.0082443 -0.0033231 0.01397 0.024029
-0.040312 0.015146 -0.24973 -0.025777
680000000 -0.23231 0.19364 -0.028009 -0.01399 0.0046501 0.0050818 0.0010542 -0.0075069
-0.0035333 -0.010832 0.004429 -0.0068274
-0.027879 -0.014002 -0.38699 0.15989 -0.032992 -0.0012195 -0.00166 -4.1855e-05
-0.002832 -0.00874 -0.0010955 -0.0019389
0.0047363 0.0049624 -0.033043 -0.0011349 -0.10214 0.28738 -0.00068827 0.00036182
-0.0023032 0.00087535 -0.0028733 -0.0095222
0.0010754 -0.007492 -0.0016247 -0.00011802 -0.00068312 0.00033652 -0.21829 0.19544
-0.023661 -0.0086353 -0.010493 -0.010752
-0.0033882 -0.010715 -0.0028937 -0.0087213 -0.0023363 0.00095227 -0.023657 -0.0086692
-0.25093 0.050184 -0.0051488 -0.0096887
0.0044366 -0.0067789 -0.001098 -0.0018789 -0.0028252 -0.0094932 -0.010513 -0.010693
-0.0050719 -0.0097502 -0.26273 0.082147
740000000 -0.18934 0.18862 -0.038626 0.026537 0.012343 -0.0052746 -0.00060842 -0.0037714
-0.0045638 -0.0026428 -0.0061007 0.003677
-0.038398 0.026313 -0.33495 0.17883 -0.034887 0.035124 -0.00086865 -0.0062017
-0.011129 0.0081282 -0.0031228 -0.0063046
0.012373 -0.0052325 -0.034858 0.03517 -0.068507 0.28667 -0.001297 0.0032487
-0.0025918 -0.0039122 -0.0010395 1.8106e-05
-0.00058548 -0.0038974 -0.00082276 -0.006229 -0.0012833 0.0032705 -0.20218 0.20332
-0.042445 -0.0077369 0.022009 0.012962
-0.0042834 -0.0026093 -0.011287 0.008333 -0.00265 -0.0039733 -0.04245 -0.0076257
-0.15617 0.073117 -0.042334 0.00059271
-0.0061255 0.003641 -0.003143 -0.0061805 -0.0010634 3.6442e-05 0.021971 0.012948
-0.042302 0.00061806 -0.25478 0.087167
800000000 -0.15728 0.22887 -0.02254 0.017197 0.0051601 -0.01042 -0.004872 -0.0020814
-0.0040362 0.0029091 0.0045965 0.00081778
-0.022581 0.01712 -0.33711 0.24912 -0.0077135 0.034104 -0.0020828 0.0021332
-0.00038235 0.003465 0.001224 0.005269
0.0050897 -0.010505 -0.0076247 0.034149 -0.027026 0.30977 0.0012127 0.0014289
0.00072639 0.00347 -0.0019117 0.00088393
-0.0049194 -0.0020616 -0.0020604 0.0021556 0.0012238 0.0014272 -0.17406 0.23086
-0.028646 0.012535 0.013241 -0.010069
-0.0040212 0.0028197 -0.00039242 0.0034852 0.0007127 0.0034627 -0.028657 0.012567
-0.19974 0.097511 -0.018035 0.017416
0.0045742 0.00080105 0.0012625 0.005264 -0.0018928 0.00087765 0.013242 -0.010087
-0.018102 0.017364 -0.24802 0.14221
860000000 -0.12239 0.25012 -0.01719 0.031153 -0.0034865 -0.009694 -0.0025843 0.0014469
0.0043389 0.0050214 -0.0031573 -0.0029389
-0.017211 0.031166 -0.2892 0.29113 0.0082547 0.034056 0.0002689 0.0020775
0.0045734 -2.0148e-05 0.0033504 0.00015808
-0.0035223 -0.0096423 0.0083665 0.034069 0.021627 0.31748 -0.00033708 -0.00034706
0.002811 -0.0015769 0.0014981 0.0045484
-0.002559 0.0014559 0.00029289 0.0020509 -0.00033079 -0.00034954 -0.1384 0.24315
-0.018291 0.018921 -0.0063194 -0.0094104
0.004412 0.0049988 0.0045237 -7.7042e-05 0.0028525 -0.0015968 -0.018185 0.019008
-0.15129 0.14621 -0.024901 0.015311
-0.0031617 -0.0029381 0.0033828 0.00020265 0.0014961 0.0045422 -0.0063261 -0.0093556
-0.02496 0.015266 -0.1971 0.18705
920000000 -0.09695 0.27341 0.0051867 0.037782 -0.0092887 -0.0040087 -0.001754 0.0024091
0.0013549 0.0014568 0.0024782 -0.0012824
0.0050798 0.037752 -0.26002 0.31196 0.027912 0.021565 0.0015385 0.0010889
0.0065589 -0.00063714 0.0037545 -0.002937
-0.0093296 -0.0040191 0.028024 0.021522 0.068108 0.31758 0.0016874 -7.2321e-05
0.0011997 -0.00045716 0.00080725 -0.00093456
-0.0017808 0.0023593 0.0015582 0.0010862 0.001696 -7.3264e-05 -0.11398 0.25939
-0.010597 0.030003 0.0027648 -0.0063557
0.0013402 0.0014613 0.006605 -0.00066979 0.0011774 -0.00043656 -0.010504 0.030005
-0.14102 0.15241 -0.0019956 0.027724
0.0025468 -0.0013306 0.0037485 -0.0029615 0.00079964 -0.00094244 0.0027516 -0.0063923
-0.0020024 0.027846 -0.20597 0.20062
980000000 -0.04904 0.29269 0.017928 0.029858 -0.0086043 0.0048315 0.0025303 0.0036925
0.0038892 -0.0017093 -0.0030578 -0.0019158
0.017892 0.029807 -0.20696 0.3454 0.032613 0.0045022 0.0019154 -8.024e-05
0.00092014 -0.0060083 -0.00056536 -0.0021463
-0.0085868 0.0048333 0.032673 0.0044077 0.11436 0.31043 0.00042291 -0.0011554
3.2596e-05 -0.002025 0.0016516 1.2934e-05
0.0025521 0.0036974 0.001926 -7.1091e-05 0.00042773 -0.0011565 -0.075371 0.27078
0.0073624 0.02871 -0.0093917 -0.0065583
0.0038758 -0.0017543 0.00091595 -0.0060662 3.6181e-05 -0.0020132 0.0074168 0.028722
-0.1091 0.18002 0.0048803 0.018819
-0.0030507 -0.0019818 -0.00058608 -0.0021237 0.0016448 2.3169e-05 -0.0094179 -0.0065723
0.0048253 0.018837 -0.16253 0.24751
1040000000 -0.0059321 0.30067 0.033218 0.017698 -0.00089254 0.006843 0.0029017 0.000626
-7.9365e-05 -0.0036328 -0.00051117 -0.0015045
0.033127 0.017627 -0.17118 0.35821 0.028796 -0.014794 0.0014801 -0.001703
-0.0026464 -0.0021133 -0.0014047 -0.002726
-0.00088422 0.0068458 0.028798 -0.014899 0.16031 0.2963 -0.00047652 -0.0013627
-0.0014835 -0.00077779 -0.0003232 -0.0012146
0.0028847 0.00063392 0.0015227 -0.0017037 -0.00048649 -0.0013558 -0.047741 0.28085
0.017942 0.017195 -0.0028545 0.0023614
-7.8564e-05 -0.0035861 -0.0026533 -0.0021377 -0.0014964 -0.00077931 0.017991 0.017186
-0.078362 0.189 0.013216 0.018179
-0.00050094 -0.0014602 -0.001401 -0.0026764 -0.00034047 -0.0012313 -0.0028697 0.0023436
0.013201 0.018155 -0.14273 0.26912
1100000000 0.039871 0.30763 0.035564 -0.0045057 0.0030337 0.0036588 0.0025457 -0.0015039
-0.0020566 -0.0028751 -0.0038506 8.8664e-05
0.03554 -0.0044806 -0.1274 0.37486 0.014681 -0.027309 -7.8474e-06 -0.0017786
-0.0029283 -0.00030738 -0.0033403 -0.00050504
0.0030686 0.0036552 0.014615 -0.027396 0.20626 0.27572 -0.0017088 0.0002005
-0.0015565 0.00061508 -0.00094945 -0.000505
0.0025375 -0.0015056 7.8496e-07 -0.0017824 -0.001723 0.00019641 -0.007059 0.28552
0.022425 0.0053452 -0.0021245 0.0010628
-0.0020876 -0.0028976 -0.0029185 -0.00030511 -0.0015579 0.00058882 0.022464 0.0053078
-0.059183 0.20219 0.018768 0.0087137
-0.0039125 0.00011703 -0.0033601 -0.00048386 -0.00095265 -0.00047204 -0.0021073 0.0010494
0.018739 0.0087639 -0.095383 0.29934
1160000000 0.091544 0.30188 0.023646 -0.020613 0.0027505 -0.00066355 -0.00021101 -0.0025836
-0.0039462 -0.00043429 -0.00099608 0.0039494
0.023642 -0.020579 -0.0836 0.37851 -0.0037127 -0.028515 -0.0017369 -0.0015892
-0.0022423 0.0024745 -0.0012825 0.0015359
0.0027705 -0.00066548 -0.0038154 -0.028513 0.24903 0.2449 -0.00058616 0.0016778
-0.00035629 0.0017373 -0.0010923 0.00014661
-0.00021723 -0.0026012 -0.0017509 -0.0015671 -0.00057894 0.0016696 0.03247 0.28234
0.019291 -0.0092615 -0.0026163 0.00553
-0.0039275 -0.00042225 -0.0021952 0.0024898 -0.00036688 0.0017556 0.019298 -0.0092501
-0.025264 0.21135 0.017335 0.0010087
-0.0010184 0.0039507 -0.0013247 0.0015459 -0.0010854 0.00012207 -0.0026299 0.0055342
0.017303 0.0010403 -0.048199 0.30194
1220000000 0.13585 0.28967 0.010192 -0.02966 -0.0015271 -0.00097135 -0.00020115 -0.0010793
-0.0024123 0.0025186 0.0012796 0.0017993
0.010186 -0.029614 -0.039578 0.3898 -0.016467 -0.020664 -0.0024362 0.00044873
0.00022536 0.0026804 -0.00071755 0.0017061
-0.0014742 -0.00096599 -0.016549 -0.02061 0.28818 0.20604 0.00082552 0.0014913
0.00049524 0.0010883 0.00022792 0.00077075
-0.00018935 -0.001099 -0.002439 0.00045387 0.00081896 0.0015004 0.071933 0.2736
0.0094557 -0.01484 0.0029549 0.0016104
-0.0024132 0.0025136 0.00026683 0.0026614 0.00050144 0.0010724 0.0094623 -0.014847
-0.0013569 0.22042 0.013577 -0.01196
0.0013274 0.0017764 -0.00071976 0.0017023 0.00026386 0.00076275 0.0029815 0.001597
0.013615 -0.011947 -0.017012 0.32063
1280000000 0.18512 0.26682 -0.0077397 -0.02799 -0.0018861 0.0023143 -0.0011112 -0.0019155
-0.00058294 0.0029495 0.0025024 0.00090535
-0.0077037 -0.027964 0.0058683 0.38041 -0.023006 -0.0083772 -0.00097022 0.0013986
0.001499 0.0014917 0.00047156 0.001962
-0.0018678 0.0023147 -0.02307 -0.0082862 0.31897 0.16225 0.0013266 -0.00015281
0.00094186 0.00012061 0.00036288 0.00042234
-0.0011234 -0.001896 -0.00096544 0.001388 0.0013178 -0.00015807 0.1083 0.25736
0.0011086 -0.016676 0.00060892 -4.9007e-05
-0.0005451 0.002965 0.0015127 0.0014549 0.00092651 0.00013698 0.0010525 -0.016676
0.035872 0.22359 0.0032283 -0.013827
0.0025632 0.00092387 0.00049236 0.0019594 0.00032689 0.00043578 0.00061375 -6.0992e-05
0.0032017 -0.013815 0.031077 0.32253
1340000000 0.22165 0.2324 -0.017296 -0.018822 0.00072169 0.0042456 -0.0018476 -0.0007179
0.0014217 0.0024633 0.0015676 -0.0014837
-0.017268 -0.018839 0.044975 0.37199 -0.021102 0.0038755 -7.9117e-05 0.0018843
0.0015939 0.00067515 0.0012938 0.00091927
0.00073983 0.004213 -0.021097 0.0039848 0.34137 0.11397 0.00088451 -0.00082425
0.00058952 -0.00035174 0.00020704 0.00026188
-0.0018608 -0.00072746 -6.6313e-05 0.001871 0.00087211 -0.00080922 0.14105 0.23729
-0.0068592 -0.014216 0.0013738 -0.00020112
0.001439 0.0024602 0.0015916 0.00065966 0.00059946 -0.00034187 -0.0068984 -0.014214
0.066355 0.21828 -0.0027542 -0.012672
0.0015394 -0.0014844 0.0013013 0.00092556 0.00020462 0.00024796 0.0013743 -0.00020236
-0.0027545 -0.012657 0.070204 0.319
1400000000 0.25387 0.19376 -0.022992 -0.0076364 0.0048039 0.0030218 -0.0019759 0.00068197
0.0023375 0.00064827 0.00019549 -0.0012452
-0.022977 -0.0076418 0.081769 0.35894 -0.014659 0.011832 0.0012658 0.0012613
0.00094233 -0.00069994 0.0011882 0.00033781
0.0048262 0.0029958 -0.014624 0.011935 0.35452 0.059823 0.00012997 -0.0013657
1.7433e-05 -0.00032864 0.00029662 0.00025505
-0.0019795 0.00070059 0.0012819 0.0012575 0.0001242 -0.0013678 0.17091 0.20899
-0.01176 -0.0086465 -0.0007113 -0.0010463
0.0023636 0.00062677 0.00093034 -0.00071357 1.3916e-05 -0.00032851 -0.011788 -0.0086266
0.099216 0.21298 -0.0088716 -0.008246
0.00018822 -0.0012386 0.0011978 0.00033284 0.00032238 0.00024451 -0.00069017 -0.001051
-0.0088512 -0.0082634 0.11588 0.30853
1460000000 0.2761 0.14959 -0.020262 0.0042425 0.0053077 -0.0015751 -0.001529 0.0016812
0.0018227 -0.00070387 -0.00025748 -0.00077113
-0.020245 0.0042446 0.11584 0.33725 -0.0063916 0.014717 0.0016583 0.00017003
0.00089328 -0.0010949 0.0011747 -0.00060247
0.0052762 -0.0015956 -0.0063224 0.014772 0.36031 0.0047295 -0.0010268 -0.0012056
0.00029058 -0.00010871 0.00068918 -0.00044461
-0.001531 0.0016892 0.0016687 0.00016033 -0.0010153 -0.0012158 0.19791 0.17996
-0.01277 -0.0035368 -0.0013198 0.001373
0.0018069 -0.00069088 0.0008881 -0.0010969 0.00027318 -0.00011352 -0.012783 -0.0035091
0.12887 0.19765 -0.010546 -0.0031831
-0.00026432 -0.00076758 0.0011716 -0.00059826 0.00069438 -0.00045098 -0.0013016 0.0013551
-0.010539 -0.0031854 0.14975 0.28769
1520000000 0.28779 0.10787 -0.014884 0.0099047 0.0030527 -0.0039155 0.00010898 0.0025559
0.0016838 -0.0015643 -0.0011058 -0.00020426
-0.014872 0.0098945 0.14939 0.32246 0.001046 0.012877 0.0015769 -0.00076181
0.00014759 -0.00092239 0.00031588 -0.0010315
0.0030228 -0.0039069 0.001117 0.012885 0.3529 -0.051944 -0.00090734 -0.00039071
0.00054184 -0.00073291 -3.0143e-05 -8.6392e-05
0.00013246 0.0025543 0.0015826 -0.00077531 -0.00091316 -0.00039347 0.22188 0.14173
-0.012778 0.0010316 0.0008175 0.0018058
0.0016729 -0.0015868 0.00014405 -0.00092889 0.0005419 -0.00071641 -0.012773 0.0010515
0.15661 0.18289 -0.010981 0.00072721
-0.0011033 -0.00019481 0.00030946 -0.0010348 -3.9524e-05 -8.6118e-05 0.00082995 0.001796
-0.010976 0.00072092 0.18384 0.26802
1580000000 0.29681 0.06152 -0.0084803 0.013151 -0.00088528 -0.004544 0.0013713 0.0018565
-0.00042538 -0.0019382 -0.00035547 0.00034143
-0.0084757 0.013137 0.17671 0.29765 0.0047148 0.0083627 0.00044569 -0.0015102
-0.00039254 -0.0010464 -0.00024692 -0.00085789
-0.00090335 -0.0045503 0.0047583 0.0083427 0.33201 -0.10946 -0.0014893 0.00041795
-0.00019969 -0.0010705 9.4903e-05 -0.00048199
0.0013817 0.0018371 0.00044819 -0.0015083 -0.0014912 0.00041806 0.23666 0.10164
-0.010544 0.0052799 0.0016531 0.00075058
-0.00042659 -0.0019245 -0.00041018 -0.0010544 -0.00020917 -0.0010699 -0.010542 0.0053105
0.18083 0.16452 -0.0090116 0.0059863
-0.0003559 0.0003674 -0.00025036 -0.00086376 9.2718e-05 -0.00049198 0.0016697 0.0007513
-0.0090225 0.0059834 0.2166 0.24106
1640000000 0.29839 0.019806 -0.0018668 0.012365 -0.0025698 -0.0023913 0.0025407 0.0010182
-0.00067736 -0.0011592 -0.00033582 0.00064593
-0.0018708 0.01235 0.20628 0.27228 0.0055571 0.003755 -0.00068171 -0.0016062
-0.0009904 -0.00048872 -0.00052027 -0.00063694
-0.0025412 -0.0023574 0.0055915 0.0037215 0.30321 -0.15859 -0.00089063 0.0012814
-0.00098915 -0.00087378 -0.00013382 -0.00030054
0.0025696 0.0010175 -0.00068652 -0.0016013 -0.00088998 0.001282 0.24931 0.051506
-0.0074103 0.0067203 0.002091 -0.00054982
-0.00070701 -0.0011312 -0.00099808 -0.00046872 -0.0010127 -0.00087676 -0.0073886 0.0067376
0.20371 0.13929 -0.0048113 0.0083263
-0.00034078 0.00065892 -0.00052526 -0.00063896 -0.00015423 -0.00029642 0.0021042 -0.00056456
-0.0048039 0.0083209 0.24291 0.20965
1700000000 0.29051 -0.025728 0.0017055 0.0098701 -0.0032563 0.00010712 0.0029151 -0.001075
-0.001773 -0.00047235 0.00059882 0.00047228
0.0016809 0.0098482 0.22431 0.24045 0.0037861 0.0009946 -0.0013275 -0.00057358
-0.00081676 2.9106e-05 -0.00093055 -0.00041889
-0.0032969 0.00010725 0.0038168 0.0009757 0.25901 -0.19798 0.00031688 0.0015633
-0.0016671 -0.00034289 -0.00054059 -0.00091773
0.002895 -0.0010812 -0.0013235 -0.00056595 0.00031054 0.0015796 0.2457 0.0003282
-0.0053465 0.0077158 0.0012914 -0.0018428
-0.0017786 -0.00045866 -0.00081475 3.6137e-05 -0.001656 -0.00035523 -0.0053331 0.0077364
0.22131 0.11777 -0.00057445 0.0089882
0.00061446 0.00045813 -0.00092958 -0.00041725 -0.00053778 -0.00093187 0.0012824 -0.0018389
-0.00058179 0.0089942 0.25973 0.17496
1760000000 0.27738 -0.074365 0.0042981 0.00674 -0.0021208 0.00077164 0.0013753 -0.0033066
-0.0010324 0.00057261 0.00039098 -0.00044512
0.0042886 0.0067325 0.25003 0.20012 0.0017944 -0.00077562 -0.001087 0.00012218
-0.0011102 0.0009007 -0.00059358 0.00053611
-0.0021143 0.00078927 0.0018055 -0.00078664 0.20996 -0.23048 0.0011181 0.0012521
-0.0012443 0.0012875 -0.0012778 -0.0003929
0.0013573 -0.0033059 -0.0010905 0.00014021 0.0011019 0.0012655 0.23519 -0.052034
-0.0024915 0.007666 -0.00039275 -0.0019721
-0.0010142 0.00057363 -0.0010961 0.00090567 -0.0012328 0.0012914 -0.0024667 0.0076725
0.23632 0.081203 0.0030464 0.0065751
0.00040562 -0.00046103 -0.00059659 0.00053699 -0.0012914 -0.00040691 -0.00038504 -0.0019773
0.0030422 0.0065633 0.27229 0.1372
1820000000 0.25186 -0.11149 0.0048422 0.0030807 -9.1665e-06 0.0023395 -0.00085372 -0.0030523
-0.00090516 0.00063425 8.3635e-05 -0.00015589
0.0048258 0.0030778 0.25949 0.16975 -8.4821e-05 0.00020441 -0.0013284 0.00079953
-4.386e-05 0.0013723 -0.00050665 0.00049697
-2.7675e-05 0.0023439 -9.1782e-05 0.00020865 0.15996 -0.2459 0.0015691 0.00046113
-0.00041199 0.0021368 -0.0013644 0.00038915
-0.00088628 -0.0030523 -0.0013345 0.00080552 0.0015689 0.00045474 0.20353 -0.099474
-0.00095838 0.006478 -0.0014685 -0.0012767
-0.00089537 0.000636 -2.606e-05 0.001381 -0.00041448 0.002141 -0.00094427 0.006485
0.25255 0.049899 0.0041804 0.0034638
8.0559e-05 -0.00014842 -0.00048419 0.00050685 -0.0013892 0.00039909 -0.0014682 -0.0012731
0.0041808 0.0034652 0.27486 0.10113
1880000000 0.21582 -0.151 0.0028104 0.00061574 -0.00032472 0.0020619 -0.0028188 -0.0022134
-0.00034266 0.0014531 0.00034098 -0.00058998
0.0027874 0.00062696 0.26342 0.12306 -0.0019567 0.0017254 -0.00025286 0.001674
0.00067948 0.001291 0.00020774 0.00099376
-0.00032754 0.0020823 -0.0019471 0.0017357 0.10825 -0.25503 0.0018662 -0.000938
0.0013752 0.0020858 -0.00087636 0.0014534
-0.0028295 -0.0022184 -0.00023908 0.0016727 0.0018746 -0.00093167 0.16157 -0.13866
-0.00029435 0.0051926 -0.0020987 0.00080251
-0.00033883 0.001466 0.00068589 0.0012855 0.0013557 0.0020889 -0.00027982 0.0051924
0.25392 0.01508 0.0039849 0.0017895
0.00031649 -0.00059922 0.00021818 0.00099379 -0.00089204 0.0014503 -0.0021087 0.0007991
0.0039682 0.00179 0.27501 0.067163
1940000000 0.17583 -0.17604 0.00053258 -0.0014304 0.0012766 0.0018445 -0.003754 0.00051219
0.0011695 0.0010901 -0.00068516 -0.00066725
0.00053111 -0.0014158 0.26334 0.091211 -0.00089766 0.0038013 0.00089677 0.0013812
0.0019773 0.00048452 0.00083889 0.00023473
0.0012878 0.0018207 -0.00086978 0.0038275 0.062263 -0.24877 0.00030018 -0.002289
0.0024416 0.00063504 0.000315 0.0016075
-0.0037652 0.00051691 0.00090665 0.0013766 0.00029667 -0.0023044 0.10821 -0.16742
-0.0011763 0.0044085 -0.0010349 0.0016413
0.0011737 0.0010554 0.0019809 0.00045355 0.0024644 0.00059165 -0.0011726 0.0044099
0.25319 -0.025696 0.0030651 -0.0012382
-0.0006985 -0.00066497 0.00084289 0.00024005 0.00027964 0.0016003 -0.001037 0.0016401
0.0030555 -0.001237 0.26413 0.031493
2000000000 0.12943 -0.18962 -0.0034406 0.00038868 0.0023366 0.0015592 -0.0022685 0.0035462
0.0010545 0.00033679 -0.00076098 0.00041357
-0.0034383 0.00037797 0.24858 0.05588 -0.00073779 0.0055356 0.0017029 0.00035256
0.0014211 -0.001467 0.00050767 0.00014446
0.0023398 0.0014996 -0.00070208 0.0055142 0.018938 -0.23402 -0.0014013 -0.0014505
0.0021519 -0.0011422 0.0016748 0.0012978
-0.0022856 0.0035673 0.0017104 0.00033125 -0.0013973 -0.0014396 0.054946 -0.17586
-0.0024218 0.0046855 0.00026913 0.0020966
0.0010448 0.00031802 0.0014071 -0.0014864 0.0021521 -0.00116 -0.0023969 0.0046755
