!Keysight Technologies,M9804A,MY58100912,A.14.10.03
!Date: Thursday, April 27, 2023 10:28:33
!Correction: S11(C  6-Port  ) 
!S12(C  6-Port  ) 
!S13(C  6-Port  ) 
!S14(C  6-Port  ) 
!S15(C  6-Port  ) 
!S16(C  6-Port  ) 
!S21(C  6-Port  ) 
!S22(C  6-Port  ) 
!S23(C  6-Port  ) 
!S24(C  6-Port  ) 
!S25(C  6-Port  ) 
!S26(C  6-Port  ) 
!S31(C  6-Port  ) 
!S32(C  6-Port  ) 
!S33(C  6-Port  ) 
!S34(C  6-Port  ) 
!S35(C  6-Port  ) 
!S36(C  6-Port  ) 
!S41(C  6-Port  ) 
!S42(C  6-Port  ) 
!S43(C  6-Port  ) 
!S44(C  6-Port  ) 
!S45(C  6-Port  ) 
!S46(C  6-Port  ) 
!S51(C  6-Port  ) 
!S52(C  6-Port  ) 
!S53(C  6-Port  ) 
!S54(C  6-Port  ) 
!S55(C  6-Port  ) 
!S56(C  6-Port  ) 
!S61(C  6-Port  ) 
!S62(C  6-Port  ) 
!S63(C  6-Port  ) 
!S64(C  6-Port  ) 
!S65(C  6-Port  ) 
!S66(C  6-Port  ) 
!S6P File: Measurement: :
# Hz S  RI   R 50
500000000 -0.33663 -0.033495 -0.0094574 -0.0036665 -0.0077047 0.0115 -0.0033478 0.011536
0.012471 0.0044532 -0.003759 0.008342
-0.0094446 -0.0036498 -0.4193 -0.048565 0.0074367 -0.011668 0.0016524 0.011625
0.0076198 0.0025205 0.0010068 0.01303
-0.0076711 0.011509 0.0074163 -0.011688 -0.26396 0.21152 0.0069881 0.0030625
2.8114e-05 0.0083373 0.0005889 0.011928
-0.0032946 0.01158 0.0016289 0.011596 0.0069646 0.0030606 -0.32676 0.048549
-0.019189 -0.0044165 0.018027 0.025982
0.012495 0.0044009 0.0076181 0.0025294 3.5605e-05 0.0083428 -0.019159 -0.0044231
-0.22667 -0.18154 -0.028012 0.0052006
-0.0037549 0.0083644 0.001028 0.013031 0.00057127 0.011931 0.018025 0.025952
-0.027998 0.0052008 -0.26952 -0.13561
560000000 -0.31562 0.12543 -0.023491 -0.062823 1.9177e-05 0.011835 0.0062016 0.0095119
0.010741 0.0036945 0.009676 0.0074634
-0.023472 -0.062744 -0.37623 0.10894 -0.04176 -0.036822 0.013339 0.0037603
-0.013656 -0.0042511 0.0045908 -0.0011964
7.0466e-05 0.011819 -0.041905 -0.036766 -0.18205 0.25859 -0.00083558 -0.0050403
0.019179 0.0035951 0.007105 -0.0058381
0.0062583 0.0095661 0.013313 0.0037442 -0.00079252 -0.0050505 -0.30216 0.1362
0.0040737 -0.024841 0.0052687 -0.019462
0.010737 0.0037158 -0.013673 -0.0042613 0.019177 0.0036166 0.0041531 -0.024868
-0.28387 -0.0080067 0.0074468 -0.050742
0.0097228 0.0074717 0.004573 -0.001222 0.0071086 -0.0058283 0.0052532 -0.019487
0.0074646 -0.050739 -0.33387 0.013924
620000000 -0.27261 0.11031 -0.023002 0.0068836 0.0033853 0.0079711 0.0065967 -0.0056287
0.01121 -0.00079708 8.9112e-05 -0.0017715
-0.022985 0.0068757 -0.40231 0.063381 -0.019032 -0.00034117 -0.0014654 -0.0020548
0.010094 -0.007347 0.0010217 -0.0026374
0.0034091 0.0079643 -0.019052 -0.0002903 -0.15248 0.26773 -0.0017583 -0.0051391
-0.0038992 -0.0034151 0.0082548 -0.0034809
0.0066698 -0.005639 -0.0014885 -0.0020395 -0.0018115 -0.0051293 -0.26074 0.14637
-0.038057 -0.018821 0.014332 0.024088
0.011198 -0.00082681 0.01009 -0.0073925 -0.0038905 -0.003417 -0.038114 -0.018821
-0.20504 -0.046907 -0.040612 0.015284
7.9874e-05 -0.0017953 0.0010155 -0.0026561 0.0082576 -0.003488 0.014318 0.024096
-0.04062 0.015281 -0.25022 -0.025787
680000000 -0.23231 0.19365 -0.027951 -0.014019 0.004717 0.0050585 0.0010369 -0.0074908
-0.0034873 -0.010791 0.0043922 -0.0068251
-0.027936 -0.014025 -0.38703 0.15986 -0.03303 -0.0012629 -0.0016452 -0.00013052
-0.0029334 -0.0086479 -0.0011056 -0.0019653
0.0047253 0.0050636 -0.033063 -0.0011785 -0.10212 0.28733 -0.00065356 0.0002976
-0.0023982 0.0010306 -0.0027949 -0.0095441
0.0010445 -0.0075004 -0.0016509 -0.00012586 -0.0006592 0.0002974 -0.21826 0.19544
-0.023641 -0.0086819 -0.010641 -0.010729
-0.0035149 -0.010788 -0.0029637 -0.0086483 -0.0023937 0.0010245 -0.023664 -0.0086664
-0.25094 0.049961 -0.0052057 -0.0098156
0.0043765 -0.0068429 -0.0011148 -0.0019624 -0.0027985 -0.0095464 -0.01063 -0.01071
-0.0051936 -0.0098156 -0.26284 0.08223
740000000 -0.18919 0.18848 -0.038557 0.026553 0.012362 -0.0052081 -0.00056414 -0.0039109
-0.0044068 -0.0026029 -0.006004 0.0036275
-0.038543 0.026494 -0.33497 0.17876 -0.034872 0.035033 -0.00084299 -0.0062282
-0.011172 0.0083018 -0.0031797 -0.0062623
0.012341 -0.005236 -0.034793 0.035177 -0.068491 0.28665 -0.0013533 0.0032711
-0.0026289 -0.0039582 -0.0011345 -0.00011424
-0.00055752 -0.0039306 -0.00090707 -0.006202 -0.0013593 0.0032568 -0.20209 0.20324
-0.042527 -0.0078571 0.021936 0.013152
-0.0044292 -0.0026076 -0.011151 0.008385 -0.002647 -0.0039575 -0.042548 -0.0078174
-0.15592 0.073 -0.042632 0.00039025
-0.0059711 0.0036302 -0.0032271 -0.0062353 -0.0011332 -0.00011838 0.021986 0.013155
-0.042605 0.00033782 -0.25517 0.087103
800000000 -0.15713 0.22878 -0.02257 0.017192 0.0051135 -0.010413 -0.0048141 -0.0020678
-0.0039584 0.0028205 0.0046092 0.00075687
-0.022565 0.017173 -0.33719 0.24909 -0.0077639 0.034077 -0.0020297 0.0021579
-0.00037373 0.003403 0.0012834 0.0052944
0.0050982 -0.010433 -0.0076655 0.034136 -0.027062 0.30976 0.0012463 0.001418
0.00064318 0.0034178 -0.0018978 0.00091318
-0.0048233 -0.0020613 -0.0020273 0.0021415 0.0012286 0.0014158 -0.17408 0.23081
-0.028702 0.012472 0.013237 -0.010071
-0.0039578 0.0028518 -0.00036909 0.0034202 0.00064759 0.0034145 -0.028689 0.012518
-0.19972 0.097229 -0.018089 0.017342
0.0046018 0.00073327 0.0012963 0.0052934 -0.0019013 0.00090688 0.013234 -0.010074
-0.018118 0.017314 -0.24818 0.14219
860000000 -0.1225 0.25 -0.017256 0.031146 -0.00347 -0.0096691 -0.002632 0.0014597
0.0042978 0.0051516 -0.0030965 -0.0030956
-0.017256 0.031114 -0.28919 0.29107 0.0082962 0.034067 0.0002532 0.0020649
0.0044606 -1.4653e-05 0.0034249 0.00017176
-0.0034911 -0.0096696 0.0084018 0.034081 0.021611 0.3175 -0.00032629 -0.0003146
0.0028342 -0.0016129 0.0014379 0.0045639
-0.0026328 0.0014503 0.0002485 0.0020619 -0.00032767 -0.00030868 -0.13852 0.24314
-0.018311 0.019015 -0.006295 -0.0095397
0.0043281 0.0051444 0.004456 -3.0568e-05 0.0028214 -0.0016217 -0.018286 0.019061
-0.1515 0.14628 -0.024992 0.015119
-0.0030975 -0.0030956 0.0034233 0.00014958 0.0014473 0.0045645 -0.0063195 -0.0095367
-0.025008 0.015088 -0.19701 0.18735
920000000 -0.096898 0.2733 0.0051336 0.037832 -0.0093289 -0.0039872 -0.001807 0.0023906
0.0013034 0.0014427 0.0024189 -0.0013656
0.0051206 0.037804 -0.26005 0.31201 0.027908 0.021612 0.0016073 0.0011383
0.0066085 -0.00067913 0.0037879 -0.002893
-0.00934 -0.0039677 0.028004 0.021558 0.068099 0.3176 0.0016931 -4.4108e-05
0.0012166 -0.00045972 0.00082676 -0.0009306
-0.0017918 0.0024017 0.0016008 0.0011172 0.0016903 -5.1794e-05 -0.11398 0.25935
-0.010577 0.029918 0.0026899 -0.0064011
0.0013169 0.0014374 0.0066046 -0.0007137 0.00121 -0.00045752 -0.010536 0.02995
-0.14096 0.1522 -0.0020559 0.027857
0.0024258 -0.0013721 0.0037605 -0.0029065 0.00081835 -0.00093782 0.0026811 -0.0064104
-0.0020699 0.02784 -0.20613 0.20046
980000000 -0.049155 0.29272 0.017872 0.029876 -0.0085853 0.0048038 0.0025131 0.0036782
0.0038701 -0.0017587 -0.0030736 -0.0019955
0.017846 0.029867 -0.20694 0.34546 0.032655 0.0045237 0.0019155 -4.2465e-05
0.00094319 -0.0059968 -0.0005493 -0.0021271
-0.0085676 0.0048284 0.032691 0.0044252 0.11436 0.31047 0.00043377 -0.0011497
2.5741e-05 -0.0020274 0.0016787 1.1392e-05
0.0025386 0.0036895 0.0019235 -5.9275e-05 0.0004366 -0.0011443 -0.075398 0.27079
0.007331 0.028739 -0.0094335 -0.0065802
0.0038692 -0.001764 0.00089487 -0.0060227 3.4396e-05 -0.0020182 0.0073837 0.028747
-0.10911 0.18004 0.0047685 0.018891
-0.0030768 -0.0019815 -0.00058104 -0.0021331 0.0016748 4.0936e-06 -0.0094418 -0.0065713
0.0047576 0.018892 -0.1627 0.24737
1040000000 -0.005919 0.30071 0.033227 0.017728 -0.00090379 0.0068614 0.0028728 0.00057689
-8.4346e-05 -0.0036251 -0.00055871 -0.0015194
0.033209 0.017744 -0.17114 0.35823 0.028831 -0.01479 0.0015413 -0.0016972
-0.0025541 -0.0021353 -0.0014156 -0.0027253
-0.00087209 0.0068502 0.028795 -0.014894 0.16035 0.29629 -0.00046807 -0.0013694
-0.0014891 -0.00077898 -0.00033988 -0.0012383
0.0028856 0.00059259 0.0015117 -0.0017246 -0.00046241 -0.0013749 -0.047743 0.28078
0.017926 0.017248 -0.0028862 0.0023855
-8.8173e-05 -0.0036216 -0.0025893 -0.0021267 -0.0014923 -0.00077187 0.017957 0.01722
-0.078393 0.18897 0.013175 0.01821
-0.00055345 -0.0015082 -0.0014601 -0.0027122 -0.00033763 -0.0012272 -0.0028976 0.0023856
0.013164 0.018203 -0.14291 0.26907
1100000000 0.039841 0.30761 0.035574 -0.0044732 0.0030459 0.0036535 0.0025477 -0.0015253
-0.0020757 -0.0029054 -0.0038655 8.6463e-05
0.035548 -0.0044482 -0.12739 0.3749 0.014708 -0.027302 1.5729e-05 -0.0017791
-0.0029138 -0.00033079 -0.0033445 -0.00054248
0.0030666 0.0036393 0.014619 -0.027382 0.20622 0.27573 -0.0017231 0.00024334
-0.0015277 0.00061377 -0.00093434 -0.00047377
0.0025405 -0.0015199 1.7422e-06 -0.0017873 -0.0017242 0.00023286 -0.0070618 0.28554
0.022447 0.0053609 -0.0020889 0.0010555
-0.0020842 -0.0028923 -0.0029289 -0.00031341 -0.0015309 0.00062625 0.022464 0.0053135
-0.059192 0.20211 0.018734 0.0087286
-0.0038642 0.0001105 -0.0033583 -0.00052703 -0.00092881 -0.00048134 -0.0020783 0.0010564
0.018717 0.0087336 -0.095611 0.29933
1160000000 0.091517 0.30189 0.023636 -0.0206 0.0027405 -0.00065689 -0.00021026 -0.002592
-0.0039674 -0.00045205 -0.00099603 0.0039581
0.023652 -0.020556 -0.083613 0.37851 -0.0036927 -0.028485 -0.0017439 -0.0015759
-0.0021991 0.0024993 -0.0013001 0.0015717
0.0027502 -0.0006701 -0.0038237 -0.02849 0.24906 0.24489 -0.00059009 0.0016529
-0.00036231 0.001709 -0.0010809 7.3917e-05
-0.00022709 -0.0025865 -0.0017613 -0.0015867 -0.00058526 0.001646 0.032466 0.28236
0.019302 -0.0092286 -0.0026263 0.005525
-0.0039774 -0.0004287 -0.0022059 0.0025113 -0.00036379 0.0017087 0.019296 -0.009269
-0.025366 0.21136 0.017281 0.00096885
-0.0009765 0.0039711 -0.001296 0.001572 -0.0010755 9.1128e-05 -0.0026131 0.0055259
0.017275 0.00098575 -0.048328 0.30186
1220000000 0.13583 0.28964 0.010207 -0.029683 -0.001494 -0.00099447 -0.00017307 -0.0011094
-0.0024354 0.0025349 0.0012768 0.001821
0.010218 -0.029644 -0.039563 0.38977 -0.016453 -0.020665 -0.0024331 0.00044769
0.00024694 0.0027003 -0.00073975 0.0017293
-0.0014874 -0.00098732 -0.016567 -0.020613 0.28816 0.20602 0.00079518 0.0015022
0.0004792 0.0010924 0.00022841 0.00075918
-0.00017341 -0.0010948 -0.0024329 0.00045137 0.00079004 0.001497 0.071945 0.27361
0.0095016 -0.014828 0.0029723 0.0015681
-0.002423 0.002552 0.00025425 0.0026989 0.00046909 0.0010882 0.0094814 -0.014846
-0.0014111 0.22042 0.013651 -0.011923
0.0012892 0.0018213 -0.00073787 0.0017309 0.00023269 0.00076035 0.0029782 0.0015779
0.013647 -0.011913 -0.016971 0.32064
1280000000 0.18508 0.26681 -0.0076961 -0.028011 -0.0018837 0.0023164 -0.0011344 -0.001919
-0.00055411 0.002946 0.002501 0.00092348
-0.0076696 -0.027981 0.0058686 0.38041 -0.023025 -0.0083733 -0.00099918 0.0014098
0.0015051 0.0015024 0.00049756 0.0019567
-0.0018793 0.0023271 -0.023086 -0.0082856 0.31894 0.1623 0.0013318 -0.00015953
0.00092179 0.00012149 0.00031045 0.00043863
-0.001133 -0.0019141 -0.00099434 0.001411 0.001327 -0.00015375 0.1083 0.25736
0.0011534 -0.016649 0.00059061 -5.2579e-05
-0.00053729 0.002964 0.001507 0.0014952 0.00092937 0.00011626 0.001117 -0.016651
0.035762 0.2236 0.0031758 -0.013836
0.0025037 0.00091477 0.00050479 0.0019589 0.00031189 0.00043913 0.00060006 -5.039e-05
0.0031874 -0.013831 0.03098 0.32244
1340000000 0.22163 0.23237 -0.017293 -0.018864 0.00070047 0.0042315 -0.0018701 -0.00074071
0.0014105 0.0024679 0.0015592 -0.0014764
-0.017263 -0.018856 0.044948 0.37201 -0.021087 0.0038593 -7.6094e-05 0.0018796
0.0015841 0.00067823 0.0012934 0.000921
0.00072109 0.0042269 -0.021088 0.0039671 0.34137 0.11397 0.00090855 -0.00080971
0.00059329 -0.00033005 0.00019301 0.00029159
-0.0018685 -0.00072468 -7.1841e-05 0.0018834 0.00091155 -0.00081555 0.14104 0.23732
-0.0068051 -0.014215 0.001356 -0.00022717
0.0014345 0.002475 0.0015815 0.00066916 0.00059013 -0.00033169 -0.0068322 -0.014212
0.066283 0.21829 -0.0027486 -0.012668
0.0015566 -0.0014795 0.0012998 0.00091349 0.00019502 0.00029349 0.0013521 -0.00022646
-0.002735 -0.012665 0.070158 0.31903
1400000000 0.2538 0.19373 -0.022995 -0.0076625 0.0048014 0.0030344 -0.0019816 0.00068021
0.0023203 0.00062691 0.00019938 -0.0012611
-0.022973 -0.0076759 0.081763 0.35897 -0.014652 0.011838 0.0012845 0.0012619
0.00093101 -0.0006858 0.0012071 0.00033217
0.0048118 0.0030133 -0.01462 0.011932 0.35451 0.059829 0.00011895 -0.0013679
2.533e-06 -0.00033582 0.00028569 0.00024625
-0.0019794 0.00068604 0.0012941 0.0012521 0.00012111 -0.0013672 0.17087 0.20902
-0.011731 -0.0086706 -0.00071556 -0.0010536
0.0023245 0.00061438 0.0009358 -0.00069656 -1.8495e-06 -0.0003385 -0.011755 -0.0086487
0.099211 0.21301 -0.008864 -0.0082822
0.00018905 -0.0012617 0.001206 0.00031701 0.00028602 0.00025037 -0.00072223 -0.0010581
-0.0088589 -0.0082784 0.11586 0.30861
1460000000 0.27607 0.14962 -0.020268 0.0042277 0.0052884 -0.0015733 -0.0015323 0.0016731
0.0018365 -0.00069127 -0.00025032 -0.00079005
-0.020254 0.0042089 0.11581 0.33728 -0.0063745 0.014715 0.0016574 0.00017054
0.00089376 -0.0010963 0.0011954 -0.00060387
0.0052815 -0.0015903 -0.0063092 0.014762 0.36032 0.0047586 -0.0010121 -0.0012214
0.00028422 -0.00011683 0.00068338 -0.00041977
-0.001527 0.0016904 0.0016694 0.00017245 -0.0010125 -0.0012216 0.19788 0.17998
-0.012757 -0.0035993 -0.0013219 0.0013902
0.0018318 -0.00069801 0.00088355 -0.0011036 0.00028332 -0.00011931 -0.012774 -0.0035723
0.1288 0.19762 -0.010555 -0.0032024
-0.00025279 -0.00079445 0.001197 -0.00062375 0.00068514 -0.00042596 -0.001329 0.001395
-0.010539 -0.0032063 0.1497 0.28774
1520000000 0.28776 0.1079 -0.014899 0.0099053 0.0030365 -0.003914 0.00010984 0.0025535
0.0016974 -0.001574 -0.0011006 -0.00019825
-0.014899 0.0098804 0.14938 0.32251 0.0010341 0.01288 0.0015647 -0.00076683
0.00015601 -0.00090716 0.00031795 -0.0010358
0.0030164 -0.0039249 0.0010999 0.012888 0.35298 -0.051977 -0.00090773 -0.00038502
0.00054231 -0.00071382 -3.6572e-05 -7.6194e-05
0.0001188 0.0025494 0.0015701 -0.0007794 -0.00090273 -0.00038836 0.22187 0.14175
-0.012798 0.00097301 0.00080839 0.0018124
0.0016847 -0.0015798 0.00015101 -0.00092084 0.00053903 -0.00072199 -0.0128 0.0010038
0.15661 0.18286 -0.010988 0.00069648
-0.001104 -0.00018859 0.00031226 -0.0010409 -3.9858e-05 -7.6314e-05 0.00081791 0.001808
-0.010985 0.00068279 0.1838 0.26806
1580000000 0.29676 0.061591 -0.0084986 0.013145 -0.00091259 -0.0045578 0.0013614 0.0018447
-0.00041232 -0.0019394 -0.000364 0.00034725
-0.0085073 0.013131 0.17671 0.29766 0.004709 0.0083514 0.00044639 -0.0015055
-0.00040822 -0.001056 -0.00025225 -0.00087042
-0.0009299 -0.0045447 0.004759 0.00834 0.33195 -0.10945 -0.0014798 0.00041088
-0.00022599 -0.0010628 0.00013263 -0.0005001
0.0013726 0.0018396 0.00044024 -0.0015147 -0.001478 0.00040732 0.23667 0.10167
-0.010597 0.0052559 0.001641 0.00074935
-0.00042601 -0.0019432 -0.00043208 -0.001049 -0.00022728 -0.0010668 -0.010593 0.0052806
0.18081 0.16454 -0.0090182 0.005967
-0.00035937 0.0003494 -0.0002631 -0.00087287 0.00013376 -0.0005031 0.0016392 0.00075146
-0.0090195 0.0059627 0.21653 0.24111
1640000000 0.29841 0.019849 -0.0018909 0.01237 -0.00256 -0.0023897 0.0025539 0.0010107
-0.00068215 -0.0011543 -0.00033843 0.00065396
-0.001905 0.012361 0.20625 0.27231 0.0055466 0.0037691 -0.00068304 -0.0015978
-0.00098252 -0.0004827 -0.00052474 -0.00063961
-0.0025738 -0.0023751 0.0055683 0.0037458 0.3032 -0.15866 -0.00087906 0.0012931
-0.00098307 -0.00087975 -0.00015068 -0.00027845
0.0025648 0.00099471 -0.0006979 -0.0016079 -0.00088881 0.0012876 0.24933 0.051543
-0.0074708 0.0067127 0.0020859 -0.00055453
-0.00068467 -0.0011536 -0.00099756 -0.00046685 -0.00099611 -0.00087265 -0.0074568 0.0067384
0.20364 0.13931 -0.0048206 0.0083169
-0.00033366 0.00065532 -0.00052793 -0.00062883 -0.00015201 -0.0002781 0.0020854 -0.00056698
-0.0048226 0.0083235 0.24289 0.20963
1700000000 0.29051 -0.025668 0.0016918 0.0098787 -0.0032736 0.00010813 0.0028915 -0.0010715
-0.0017562 -0.00049716 0.00061156 0.00045647
0.0016765 0.0098769 0.22431 0.24047 0.0038077 0.00099745 -0.0013215 -0.00057211
-0.00080425 3.0979e-05 -0.00091742 -0.00041529
-0.0032693 0.00012542 0.0038137 0.00097659 0.259 -0.19796 0.00032471 0.0015988
-0.001665 -0.00034298 -0.00053596 -0.00091203
0.0028923 -0.0010894 -0.0013188 -0.00056954 0.00032211 0.0015894 0.24572 0.00033631
-0.005398 0.0077595 0.0012979 -0.0018298
-0.0017611 -0.00047997 -0.00081382 3.6837e-05 -0.0016614 -0.00033564 -0.005381 0.0077751
0.22127 0.11777 -0.00060453 0.0090091
0.0006203 0.00045261 -0.00092391 -0.00040888 -0.00053943 -0.00091211 0.0012949 -0.0018403
-0.00059751 0.0090048 0.25967 0.17497
1760000000 0.27743 -0.074264 0.0042879 0.0067642 -0.0021089 0.00077568 0.001377 -0.003306
-0.0010152 0.00055526 0.00037787 -0.000448
0.004278 0.0067609 0.25002 0.20013 0.0018179 -0.00077842 -0.001074 0.00012423
-0.0010926 0.00090213 -0.00058832 0.00052564
-0.0021093 0.0007833 0.0018135 -0.00079286 0.20996 -0.23052 0.0010898 0.0012449
-0.0012227 0.0012678 -0.0012631 -0.00040063
0.0013611 -0.0033026 -0.0010852 0.00012746 0.0010954 0.0012508 0.23519 -0.052055
-0.0025046 0.0077121 -0.00038862 -0.0019714
-0.0010072 0.00056051 -0.0010855 0.00091015 -0.0012198 0.0012706 -0.0024897 0.0077296
0.23625 0.081238 0.0030519 0.0065953
0.00037195 -0.00045766 -0.00058594 0.00052855 -0.001271 -0.00039355 -0.0003888 -0.0019724
0.0030566 0.0065916 0.27221 0.13723
1820000000 0.25188 -0.11149 0.0048381 0.0031023 -2.6235e-05 0.0023352 -0.00083223 -0.0030642
-0.00088484 0.00063682 8.2121e-05 -0.00015723
0.0048307 0.0031022 0.25949 0.16975 -8.1286e-05 0.00017992 -0.0013445 0.0007928
-3.6182e-05 0.001382 -0.00049409 0.00049551
-1.3975e-05 0.0023265 -8.2046e-05 0.00018047 0.1599 -0.24584 0.0015746 0.00044238
-0.00041573 0.0021391 -0.0013793 0.00044497
-0.00085488 -0.0030647 -0.0013291 0.00080625 0.0015672 0.00044598 0.20355 -0.099486
-0.00094648 0.0065293 -0.0014505 -0.0012746
-0.00087598 0.00063491 -2.0392e-05 0.0013855 -0.00041396 0.0021395 -0.00093248 0.0065397
0.2525 0.049965 0.0041643 0.0035032
8.018e-05 -0.00016084 -0.00049163 0.00049902 -0.0013822 0.00044001 -0.0014423 -0.0012742
0.0041604 0.0034993 0.27477 0.10116
1880000000 0.21582 -0.15099 0.0028216 0.00063077 -0.00034373 0.0020415 -0.0028328 -0.0022103
-0.00035576 0.0014458 0.00035795 -0.00062582
0.0028147 0.00063004 0.26341 0.12307 -0.0019761 0.0017337 -0.00025827 0.0016762
0.00068319 0.0012842 0.00022881 0.00098488
-0.00033208 0.0020459 -0.0019711 0.0017524 0.10821 -0.25503 0.0018655 -0.00090921
0.0013667 0.002111 -0.0008864 0.0014126
-0.0028458 -0.002198 -0.0002409 0.0016807 0.0018614 -0.00091318 0.16152 -0.13868
-0.00027917 0.0052228 -0.0021064 0.00083683
-0.0003446 0.0014548 0.0006877 0.0012741 0.0013813 0.0021141 -0.00026101 0.0052325
0.25386 0.015135 0.0039493 0.0017994
0.00035133 -0.0006312 0.00023572 0.00098518 -0.00088635 0.0014264 -0.0020998 0.00083967
0.0039541 0.0018051 0.2749 0.067106
1940000000 0.17584 -0.17603 0.00055979 -0.0014194 0.0012686 0.0018515 -0.0037615 0.00049734
0.0011806 0.0010654 -0.00066352 -0.00072729
0.00055484 -0.0014169 0.26333 0.091238 -0.00086317 0.0038032 0.00090168 0.0013868
0.0019672 0.00047791 0.00085229 0.00024061
0.0012721 0.0018386 -0.00083507 0.0038105 0.062333 -0.24871 0.00031398 -0.0022934
0.0024494 0.00063319 0.0003046 0.001607
-0.0037648 0.00052106 0.00090778 0.0013764 0.00030439 -0.0022858 0.1082 -0.16747
-0.0011234 0.0044321 -0.0010425 0.0016548
0.0011854 0.0010537 0.0019714 0.00045351 0.0024458 0.00062289 -0.0011119 0.0044329
0.25314 -0.025593 0.0030646 -0.0012466
-0.0006717 -0.00072434 0.00085563 0.00022875 0.00031103 0.0016094 -0.0010407 0.0016498
0.0030603 -0.0012473 0.26417 0.031502
2000000000 0.1294 -0.18961 -0.0034393 0.00036816 0.0023309 0.0015661 -0.0022904 0.0035556
0.0010492 0.00035312 -0.00074755 0.00041542
-0.0034298 0.0003648 0.2486 0.055893 -0.00073762 0.0055211 0.0016963 0.00036235
0.001398 -0.0014561 0.00048706 0.0001422
0.0023391 0.0015492 -0.00070785 0.0055268 0.018922 -0.23409 -0.001419 -0.0014139
0.0021492 -0.001157 0.0016536 0.0012767
-0.002272 0.0035762 0.0017021 0.00034751 -0.0014155 -0.001402 0.054918 -0.1758
-0.0024018 0.004707 0.00026899 0.0020838
0.0010549 0.0003421 0.0013862 -0.0014722 0.0021547 -0.0011743 -0.0023852 0.004714
