!Keysight Technologies,M9804A,MY58100912,A.14.10.03
!Date: Thursday, April 27, 2023 10:28:33
!Correction: S11(C  6-Port  ) 
!S12(C  6-Port  ) 
!S13(C  6-Port  ) 
!S14(C  6-Port  ) 
!S15(C  6-Port  ) 
!S16(C  6-Port  ) 
!S21(C  6-Port  ) 
!S22(C  6-Port  ) 
!S23(C  6-Port  ) 
!S24(C  6-Port  ) 
!S25(C  6-Port  ) 
!S26(C  6-Port  ) 
!S31(C  6-Port  ) 
!S32(C  6-Port  ) 
!S33(C  6-Port  ) 
!S34(C  6-Port  ) 
!S35(C  6-Port  ) 
!S36(C  6-Port  ) 
!S41(C  6-Port  ) 
!S42(C  6-Port  ) 
!S43(C  6-Port  ) 
!S44(C  6-Port  ) 
!S45(C  6-Port  ) 
!S46(C  6-Port  ) 
!S51(C  6-Port  ) 
!S52(C  6-Port  ) 
!S53(C  6-Port  ) 
!S54(C  6-Port  ) 
!S55(C  6-Port  ) 
!S56(C  6-Port  ) 
!S61(C  6-Port  ) 
!S62(C  6-Port  ) 
!S63(C  6-Port  ) 
!S64(C  6-Port  ) 
!S65(C  6-Port  ) 
!S66(C  6-Port  ) 
!S6P File: Measurement: :
# Hz S  RI   R 50
500000000 -0.33679 -0.033792 -0.009354 -0.0035331 -0.0077536 0.011319 -0.0032283 0.011873
0.012317 0.0047464 -0.0038021 0.0087197
-0.0093324 -0.0035252 -0.4194 -0.048562 0.0076425 -0.011606 0.0014394 0.011503
0.0077997 0.0023268 0.00087733 0.012805
-0.0076598 0.011343 0.0075797 -0.011615 -0.26347 0.21146 0.0067797 0.0029745
2.9525e-05 0.0081167 0.00047959 0.011803
-0.0034258 0.011963 0.0014805 0.011525 0.0068911 0.0029442 -0.32674 0.04877
-0.019191 -0.0046376 0.018074 0.026162
0.012617 0.004743 0.0076423 0.0022468 -0.00012105 0.0082013 -0.01918 -0.004664
-0.22695 -0.18115 -0.027936 0.0046185
-0.0038843 0.0089074 0.00090733 0.012902 0.00051935 0.011846 0.018035 0.026277
-0.027924 0.0046181 -0.26935 -0.13504
560000000 -0.31506 0.12567 -0.023557 -0.063392 0.00048421 0.0119 0.0059715 0.0096527
0.010868 0.0038274 0.0096251 0.0072416
-0.023499 -0.063314 -0.37651 0.10916 -0.041458 -0.036612 0.013328 0.0034998
-0.013118 -0.0042612 0.0042461 -0.00080847
0.0004659 0.011897 -0.041632 -0.036384 -0.18244 0.25874 -0.00064174 -0.0050018
0.019002 0.0035934 0.0069161 -0.0062778
0.0059699 0.0095627 0.013462 0.0034214 -0.00072522 -0.005019 -0.30177 0.13661
0.0041092 -0.024613 0.0049674 -0.019416
0.010633 0.0034376 -0.013581 -0.0042315 0.019338 0.0036875 0.0040609 -0.024602
-0.28393 -0.0080968 0.0076014 -0.050777
0.0098092 0.0075183 0.0044603 -0.00063931 0.0069699 -0.0063397 0.0049765 -0.019363
0.0076562 -0.050776 -0.33402 0.014055
620000000 -0.27277 0.1107 -0.023239 0.0069547 0.0030803 0.007953 0.006916 -0.0054405
0.011233 -0.00091514 0.00020907 -0.002242
-0.023242 0.0069684 -0.40231 0.063427 -0.019004 -0.00036596 -0.0015003 -0.0020277
0.01015 -0.007247 0.0011033 -0.0029684
0.0031891 0.0080196 -0.018994 -0.00033588 -0.15228 0.26791 -0.0018181 -0.0051772
-0.0040159 -0.0034396 0.0086457 -0.0036962
0.0069397 -0.005681 -0.0015333 -0.0019816 -0.0019865 -0.0048038 -0.26036 0.14636
-0.038622 -0.018614 0.014118 0.02443
0.010916 -0.00074953 0.01003 -0.0073394 -0.0037846 -0.0036149 -0.038596 -0.018487
-0.20474 -0.047 -0.040846 0.014529
0.00039147 -0.0022071 0.0010508 -0.0028784 0.0081186 -0.0039442 0.014251 0.024401
-0.040847 0.014512 -0.25109 -0.025455
680000000 -0.23226 0.19367 -0.027983 -0.014092 0.0046198 0.0050657 0.0011012 -0.0076451
-0.0034446 -0.01099 0.0043763 -0.0065936
-0.027958 -0.014105 -0.38689 0.15985 -0.032986 -0.0013425 -0.0015995 -0.0001174
-0.0028239 -0.0086632 -0.0010575 -0.0019856
0.004633 0.0050437 -0.033009 -0.0012609 -0.10211 0.2873 -0.00065596 0.00027801
-0.0023235 0.00097348 -0.0027473 -0.009458
0.0010503 -0.0075788 -0.0015825 -0.00016795 -0.00065535 0.00025891 -0.21834 0.19534
-0.023587 -0.0084447 -0.010487 -0.010706
-0.0034554 -0.010928 -0.0028596 -0.0086966 -0.0023244 0.00091961 -0.02362 -0.0084786
-0.251 0.049955 -0.0052661 -0.0096188
0.004426 -0.0068154 -0.0011039 -0.0019577 -0.0027818 -0.0094616 -0.010393 -0.010701
-0.0052549 -0.0096214 -0.26285 0.082442
740000000 -0.18903 0.18891 -0.038708 0.026406 0.012315 -0.0052483 -0.00068579 -0.0039585
-0.0041509 -0.0021056 -0.0063234 0.0037884
-0.038713 0.026367 -0.33508 0.179 -0.0349 0.034943 -0.00066206 -0.0062838
-0.010909 0.0082624 -0.0030372 -0.0061004
0.012308 -0.0052768 -0.034839 0.035081 -0.068396 0.28674 -0.0011765 0.0032963
-0.002583 -0.0035657 -0.0010665 3.9242e-05
-0.0007666 -0.0039429 -0.00079939 -0.0062078 -0.0012866 0.0032917 -0.20208 0.20309
-0.042293 -0.0077472 0.022038 0.013093
-0.0043739 -0.0024374 -0.011025 0.0082018 -0.0026641 -0.0036656 -0.042299 -0.0076374
-0.15632 0.072386 -0.042677 0.00067857
-0.0061744 0.0036053 -0.0027117 -0.0062035 -0.0009436 0.00021042 0.022112 0.013101
-0.042741 0.00061631 -0.25482 0.086846
800000000 -0.15722 0.22881 -0.022573 0.017115 0.00519 -0.010463 -0.0048457 -0.0020454
-0.0038666 0.0026622 0.0047211 0.0006223
-0.022544 0.017098 -0.33716 0.24902 -0.0077023 0.034027 -0.0020499 0.0022104
-0.00020326 0.0034052 0.0013437 0.0054992
0.0051661 -0.01046 -0.0076255 0.034058 -0.026975 0.30973 0.0012282 0.0013785
0.00078083 0.003484 -0.0017881 0.0009283
-0.0048901 -0.0020527 -0.0020261 0.0021755 0.0012581 0.0013418 -0.17402 0.23096
-0.028605 0.012488 0.013171 -0.0099713
-0.0040282 0.0027422 -0.00029043 0.0033163 0.00067551 0.003434 -0.028586 0.012548
-0.19957 0.097469 -0.018118 0.017345
0.0045023 0.00076826 0.0012874 0.0054039 -0.0018409 0.00086924 0.013203 -0.010003
-0.018136 0.01734 -0.24846 0.14234
860000000 -0.12237 0.25013 -0.017145 0.031263 -0.0034719 -0.0096014 -0.0026067 0.001474
0.0043903 0.0049014 -0.0031633 -0.0028611
-0.017142 0.031221 -0.28929 0.29121 0.0082112 0.034001 0.00026964 0.0020873
0.0045471 1.1483e-05 0.0031796 0.00025833
-0.0034913 -0.0095915 0.0083282 0.034009 0.021648 0.31749 -0.00030909 -0.0003472
0.0027939 -0.0015909 0.0014771 0.0046163
-0.0026277 0.0014515 0.0003173 0.0020876 -0.00032139 -0.00031422 -0.13844 0.24317
-0.018192 0.018891 -0.0063543 -0.0094016
0.004296 0.0049341 0.004613 -6.5769e-05 0.0028257 -0.0015577 -0.018129 0.018973
-0.15132 0.1459 -0.024804 0.015592
-0.0030827 -0.0028164 0.0031626 0.00036771 0.0014292 0.0045329 -0.0062595 -0.0094235
-0.024772 0.015593 -0.19686 0.18721
920000000 -0.09682 0.27323 0.0051694 0.03785 -0.0093586 -0.0040512 -0.001714 0.0024151
0.0013287 0.0015984 0.0024663 -0.0013937
0.0051698 0.037804 -0.25997 0.31195 0.027928 0.021618 0.0015858 0.0011356
0.0066472 -0.00070341 0.0035087 -0.0030084
-0.0093724 -0.0040167 0.028016 0.021535 0.068112 0.31761 0.0017229 -4.0089e-05
0.0012268 -0.00044134 0.00058235 -0.0009869
-0.0017699 0.0024278 0.0015327 0.0011204 0.0016925 -6.3019e-05 -0.11391 0.2595
-0.010557 0.029959 0.0024377 -0.0063921
0.001323 0.0017054 0.0066565 -0.00068933 0.0012602 -0.00040499 -0.010449 0.029989
-0.14097 0.1524 -0.0020566 0.027881
0.0026022 -0.0014024 0.0036156 -0.0030974 0.0007189 -0.0010267 0.0025275 -0.0064421
-0.0021022 0.027876 -0.20568 0.20035
980000000 -0.048991 0.29276 0.017926 0.029862 -0.0085791 0.004753 0.0025216 0.0036909
0.0038743 -0.0017083 -0.0029322 -0.0019892
0.017911 0.029846 -0.20693 0.34546 0.032656 0.0045194 0.0019178 -7.7676e-05
0.00096789 -0.0060112 -0.00051591 -0.0021486
-0.0085797 0.0047774 0.0327 0.0043819 0.11436 0.31047 0.0004099 -0.0011594
-2.5053e-05 -0.0019953 0.0015681 -4.0743e-05
0.0025161 0.0036914 0.0019033 -4.3749e-05 0.0004215 -0.0011669 -0.075307 0.27084
0.0074537 0.028744 -0.0093019 -0.0066194
0.0038544 -0.0017136 0.00088358 -0.0059923 -1.744e-05 -0.0020535 0.007489 0.028718
-0.10906 0.17991 0.0048537 0.018808
-0.0029988 -0.0019859 -0.00050024 -0.002081 0.0016155 -1.2662e-05 -0.0093055 -0.0065824
0.0048349 0.018801 -0.16269 0.24737
1040000000 -0.0058554 0.30077 0.033183 0.017656 -0.00090565 0.0067843 0.0028797 0.00056202
1.4937e-07 -0.0035706 -0.00057463 -0.0013046
0.033168 0.017635 -0.17108 0.35825 0.028847 -0.014744 0.0014576 -0.0017357
-0.0026599 -0.0021141 -0.0014866 -0.0027512
-0.00087149 0.0067894 0.028808 -0.014894 0.16032 0.29632 -0.00049451 -0.0013902
-0.0014714 -0.00079463 -0.00036537 -0.0011714
0.0028754 0.00055286 0.0014949 -0.0017681 -0.00047789 -0.0013555 -0.04774 0.28079
0.017975 0.017163 -0.002826 0.0023771
-1.6462e-05 -0.0035602 -0.0026566 -0.0020907 -0.001517 -0.00079047 0.017985 0.017168
-0.078334 0.18911 0.013147 0.018207
-0.0005194 -0.001412 -0.0014471 -0.0027057 -0.0003311 -0.0012151 -0.0027998 0.0023944
0.013133 0.018164 -0.14254 0.26912
1100000000 0.039926 0.30766 0.035545 -0.0045157 0.0030542 0.0036352 0.0025523 -0.0015315
-0.002073 -0.0029422 -0.0039683 0.00017769
0.035524 -0.0045 -0.12736 0.37487 0.014686 -0.027316 5.1792e-05 -0.0018025
-0.0029407 -0.00032363 -0.0034454 -0.0005351
0.0030671 0.0036318 0.014598 -0.027387 0.20629 0.27574 -0.0017288 0.00026179
-0.0015721 0.0006339 -0.00094343 -0.0004992
0.0025671 -0.001532 4.0989e-05 -0.0017774 -0.0017198 0.00022991 -0.0069827 0.28552
0.022402 0.0053743 -0.0021189 0.0010005
-0.0020841 -0.0028761 -0.002888 -0.00031347 -0.0015282 0.00061097 0.022446 0.0053342
-0.059211 0.20223 0.018784 0.0086561
-0.0038806 0.00019548 -0.0033552 -0.00047807 -0.00096987 -0.00048639 -0.0020871 0.00097684
0.018762 0.008678 -0.095364 0.29943
1160000000 0.091628 0.30188 0.023587 -0.020654 0.0027646 -0.00070547 -0.00019402 -0.0026401
-0.0039092 -0.00042647 -0.00098701 0.0040292
0.023605 -0.020623 -0.083529 0.3785 -0.0036862 -0.028487 -0.001763 -0.0016035
-0.002208 0.0025064 -0.0013191 0.0015899
0.0027684 -0.00068875 -0.0038139 -0.028524 0.24909 0.24488 -0.00060008 0.0016554
-0.00037305 0.0017117 -0.0011262 0.00013405
-0.00019985 -0.0026319 -0.0017578 -0.0015935 -0.00058728 0.0016527 0.032508 0.28234
0.019306 -0.0092563 -0.0026098 0.0055253
-0.0039464 -0.0004147 -0.0022217 0.0025006 -0.00035262 0.0017211 0.019303 -0.0092694
-0.025275 0.21137 0.01737 0.0010603
-0.0009655 0.0040065 -0.001311 0.0015466 -0.0010803 0.00011599 -0.0025897 0.0055207
0.017386 0.0010591 -0.048105 0.30207
1220000000 0.13596 0.28961 0.010173 -0.029666 -0.0014623 -0.0009638 -0.0001763 -0.0011084
-0.0024413 0.0025398 0.0012993 0.0018246
0.010194 -0.029631 -0.039536 0.38981 -0.016447 -0.020632 -0.002421 0.00041429
0.00025375 0.0026535 -0.00066957 0.0016997
-0.0014751 -0.0009625 -0.016552 -0.020593 0.2882 0.20601 0.00082851 0.001485
0.00051066 0.0011165 0.00022747 0.00075184
-0.00018614 -0.0011102 -0.0024285 0.00043332 0.00082449 0.001481 0.071971 0.27359
0.0094901 -0.0149 0.0029445 0.0015964
-0.0024176 0.0025553 0.00029453 0.0027112 0.00050692 0.0010861 0.0094749 -0.014906
-0.0013078 0.22037 0.013597 -0.012013
0.0013334 0.0018172 -0.00069103 0.0017636 0.00023289 0.00071297 0.0029603 0.0016133
0.013591 -0.012003 -0.016872 0.3207
1280000000 0.18517 0.26674 -0.0077514 -0.02798 -0.0018722 0.0022845 -0.001099 -0.0019164
-0.00056931 0.0029955 0.0024907 0.00094154
-0.0077273 -0.02796 0.0059079 0.38038 -0.023026 -0.0083637 -0.00095055 0.0013987
0.0014307 0.0015025 0.00045842 0.0019646
-0.001868 0.0022714 -0.023079 -0.0082599 0.31898 0.16216 0.0013195 -0.00014677
0.00092608 7.884e-05 0.00026444 0.00039825
-0.0010957 -0.0019104 -0.00094204 0.0014129 0.0013354 -0.00014194 0.10826 0.2574
0.0011162 -0.016679 0.00061454 -5.7717e-05
-0.00054304 0.0030087 0.00148 0.0014953 0.00094098 0.00012107 0.001069 -0.01669
0.035834 0.22362 0.0032411 -0.013845
0.0024984 0.00093419 0.00048652 0.0019747 0.00029117 0.00044108 0.00060301 -6.3768e-05
0.0032431 -0.013828 0.031167 0.32253
1340000000 0.22168 0.23228 -0.017274 -0.018814 0.00072782 0.0041951 -0.0018341 -0.0007272
0.0014142 0.0024704 0.0015569 -0.0014634
-0.017245 -0.018799 0.045037 0.37201 -0.021069 0.003875 -8.6661e-05 0.0018817
0.0015853 0.0006673 0.0012974 0.00089038
0.00075078 0.0041858 -0.021071 0.0039753 0.3414 0.114 0.0009201 -0.00081809
0.00057294 -0.00036798 0.00018778 0.00025297
-0.0018466 -0.0007139 -8.6956e-05 0.001882 0.00092966 -0.00081801 0.14109 0.2373
-0.0068404 -0.014229 0.0013395 -0.00021874
0.0014221 0.0024549 0.0015873 0.00066464 0.00058072 -0.00036068 -0.0068773 -0.01423
0.066394 0.21829 -0.0028182 -0.01259
0.0015676 -0.0014945 0.0012985 0.00088054 0.00018647 0.00029744 0.0013266 -0.00022045
-0.0028283 -0.012589 0.070389 0.31905
1400000000 0.25384 0.19369 -0.022995 -0.0076251 0.0048216 0.0030146 -0.0019706 0.00067576
0.0023532 0.00060481 0.00021675 -0.0012706
-0.022958 -0.0076258 0.081774 0.35896 -0.014632 0.011831 0.0012578 0.0012591
0.00090226 -0.00068894 0.0011723 0.00031278
0.0048244 0.0030078 -0.014588 0.011911 0.35453 0.059872 0.00012963 -0.0013605
5.8564e-05 -0.00031571 0.00031424 0.00020837
-0.0019694 0.00069135 0.0012773 0.0012576 0.00011567 -0.0013512 0.17092 0.20898
-0.011773 -0.0086171 -0.00070924 -0.001041
0.00234 0.00061375 0.00091521 -0.00071382 5.6915e-05 -0.00031528 -0.011783 -0.0086024
0.099252 0.213 -0.0089036 -0.0082445
0.00021095 -0.001269 0.0011836 0.00031917 0.00029696 0.00020604 -0.00071234 -0.001047
-0.008885 -0.0082581 0.11607 0.30854
1460000000 0.2761 0.14954 -0.020282 0.0042537 0.005269 -0.0016057 -0.0015272 0.0016825
0.0017965 -0.0006715 -0.00030921 -0.00081594
-0.02026 0.0042417 0.11589 0.33723 -0.0063795 0.014715 0.0016604 0.00016275
0.00086064 -0.0010764 0.0011825 -0.00063483
0.0052535 -0.001601 -0.006309 0.014769 0.36028 0.0047844 -0.0010424 -0.0012269
0.00028234 -0.0001258 0.00068686 -0.00039476
-0.0015133 0.0016913 0.0016661 0.00016569 -0.0010257 -0.0012369 0.19795 0.17995
-0.012799 -0.0035468 -0.0013138 0.0014085
0.0018015 -0.00068769 0.00086151 -0.0010854 0.0002767 -0.00011258 -0.012802 -0.0035068
0.12892 0.19763 -0.010559 -0.0032054
-0.00028452 -0.00079913 0.0011714 -0.0006049 0.00064639 -0.00040352 -0.0012897 0.0014288
-0.010577 -0.0031641 0.14972 0.2877
1520000000 0.28778 0.10784 -0.014876 0.0099159 0.0030774 -0.0039104 0.00011006 0.0025462
0.0016821 -0.0015501 -0.0011065 -0.00019653
-0.014878 0.0098982 0.14942 0.32246 0.0010449 0.012899 0.001577 -0.00078079
0.00015022 -0.00091849 0.0003082 -0.0010441
0.0030451 -0.0039328 0.0011067 0.0129 0.35288 -0.051937 -0.00089014 -0.00037762
0.00058508 -0.00073192 1.9371e-07 -6.2318e-05
0.00010289 0.0025458 0.001571 -0.0007899 -0.00089704 -0.00036902 0.22191 0.1417
-0.0128 0.0010395 0.00081434 0.0018078
0.0016795 -0.001567 0.00014088 -0.00092183 0.00055837 -0.00074491 -0.012804 0.0010817
0.15671 0.18283 -0.010987 0.00071873
-0.0011197 -0.00019392 0.00030819 -0.0010491 -9.3261e-06 -7.7619e-05 0.00082687 0.0017951
-0.010991 0.00071945 0.18377 0.26807
1580000000 0.29679 0.061549 -0.0084785 0.013155 -0.00090401 -0.0046063 0.0013817 0.0018492
-0.00042109 -0.0019699 -0.00034968 0.00032151
-0.0084773 0.013138 0.17676 0.29762 0.0047258 0.0083492 0.00045848 -0.001517
-0.00038713 -0.001051 -0.00025635 -0.00086467
-0.00091909 -0.0045994 0.0047804 0.0083403 0.332 -0.10938 -0.0014939 0.00044073
-0.00021784 -0.0010712 0.00011319 -0.00050402
0.001389 0.0018263 0.00045182 -0.0015217 -0.0015063 0.0004324 0.23667 0.10162
-0.010566 0.00527 0.0016801 0.00073348
-0.00041401 -0.0019508 -0.00039952 -0.0010432 -0.00022975 -0.001099 -0.010564 0.0053146
0.18093 0.16447 -0.0090134 0.0059984
-0.00036925 0.00035132 -0.00025982 -0.00086493 0.00014872 -0.00054184 0.0016785 0.00074253
-0.0090154 0.0059899 0.21656 0.24113
1640000000 0.29842 0.01978 -0.0018745 0.012378 -0.0025258 -0.0024044 0.002541 0.0010027
-0.00068635 -0.0011391 -0.00034365 0.00063212
-0.0018755 0.012368 0.20629 0.27227 0.0055902 0.0037715 -0.00068797 -0.0016142
-0.00099341 -0.00048018 -0.00052804 -0.00064055
-0.0025499 -0.0023738 0.0056045 0.0037424 0.30319 -0.15856 -0.00090085 0.0012761
-0.00096148 -0.00084348 -6.5898e-05 -0.00029057
0.0025505 0.00099227 -0.00069615 -0.0016115 -0.00090888 0.00128 0.24932 0.051445
-0.0074116 0.006736 0.0020865 -0.00055075
-0.00070655 -0.001138 -0.0010076 -0.00047917 -0.0009528 -0.00084519 -0.0073938 0.0067524
0.20375 0.13922 -0.004815 0.0083251
-0.00032649 0.00063148 -0.00052006 -0.0006351 -0.00010452 -0.00027031 0.0020911 -0.00057462
-0.0048195 0.0083261 0.24297 0.20956
1700000000 0.29051 -0.025771 0.0016987 0.0098584 -0.0033044 7.2629e-05 0.0029167 -0.0010801
-0.0017723 -0.00045549 0.00061805 0.00043962
0.0016913 0.0098451 0.22435 0.24042 0.0038057 0.00097973 -0.0013284 -0.00055735
-0.00082933 3.0702e-05 -0.00091391 -0.00041872
-0.0033145 0.000111 0.0038207 0.00094816 0.25914 -0.19792 0.00036626 0.0015825
-0.0016828 -0.00034157 -0.00051153 -0.00096768
0.0029067 -0.0010845 -0.0013325 -0.00056242 0.00034879 0.0015992 0.2457 0.00031643
-0.0053252 0.0077499 0.0012802 -0.0018418
-0.0017721 -0.00046033 -0.00081611 4.2302e-05 -0.0016678 -0.00033141 -0.0053096 0.0077771
0.22134 0.11768 -0.00057828 0.0089837
0.00062426 0.00045215 -0.0009333 -0.00041054 -0.00052537 -0.00095555 0.0012802 -0.0018487
-0.00056701 0.0089771 0.25976 0.17492
1760000000 0.2774 -0.074383 0.0042978 0.0067338 -0.0021056 0.00077843 0.0013906 -0.0032791
-0.0010363 0.00057625 0.00037092 -0.00044616
0.0042877 0.0067362 0.25005 0.20009 0.0017794 -0.00076988 -0.0010838 0.000136
-0.0011027 0.00090976 -0.00060089 0.00052059
-0.0021039 0.00080739 0.0017859 -0.00077954 0.21 -0.23065 0.0010862 0.0013003
-0.0012036 0.0012985 -0.0013334 -0.00040357
0.0013595 -0.0032995 -0.0010901 0.00013484 0.0010695 0.0012947 0.23517 -0.052048
-0.0024577 0.0076897 -0.00039837 -0.0019848
-0.0010221 0.00058322 -0.0010928 0.00091545 -0.0012371 0.0013336 -0.0024441 0.0076992
0.23631 0.081115 0.0030478 0.0065841
0.00038126 -0.00043444 -0.00058968 0.00054243 -0.0013403 -0.00039432 -0.00040738 -0.0019807
0.0030486 0.006586 0.27227 0.1372
1820000000 0.25182 -0.1116 0.0048329 0.0030737 -2.4566e-05 0.0023976 -0.00085826 -0.0030399
-0.0008857 0.00062901 8.5093e-05 -0.00011762
0.0048301 0.0030725 0.25952 0.16972 -0.00010439 0.00017774 -0.0013438 0.00078523
-2.3642e-05 0.0013737 -0.00050361 0.00051629
-1.4082e-05 0.0023734 -0.00010133 0.00016214 0.15999 -0.24589 0.0015633 0.00044546
-0.00037889 0.0021196 -0.0013426 0.00045245
-0.00088185 -0.0030332 -0.0013407 0.00079043 0.001576 0.00043097 0.2035 -0.099498
-0.00092224 0.0064716 -0.0015064 -0.0012607
-0.00089623 0.00063986 -2.8059e-05 0.0013665 -0.00038967 0.0020987 -0.00089483 0.0064718
0.2525 0.049866 0.0041717 0.0034634
6.3596e-05 -0.00015477 -0.00048995 0.00050237 -0.0013532 0.0004567 -0.0014979 -0.001246
0.0041729 0.0034657 0.2749 0.10107
1880000000 0.21575 -0.15107 0.0027839 0.00062653 -0.00032824 0.0020318 -0.0028145 -0.0022398
-0.00034711 0.0014563 0.00036457 -0.00059411
0.0027822 0.00063059 0.26343 0.12304 -0.0019589 0.0017378 -0.00024066 0.0016694
0.0006697 0.0012771 0.00021255 0.00096995
-0.00034222 0.0020198 -0.0019648 0.0017518 0.10827 -0.25509 0.0018638 -0.00097775
0.0014141 0.0020767 -0.00080669 0.0013637
-0.0028359 -0.0022092 -0.00023069 0.0016812 0.0018731 -0.00095531 0.16154 -0.13863
-0.00028588 0.0051681 -0.0020957 0.00080483
-0.00032696 0.0014561 0.00068299 0.0012836 0.0014047 0.0020648 -0.00027665 0.0051676
0.2539 0.015055 0.0039521 0.0017985
0.00034451 -0.00060556 0.00022212 0.00099253 -0.00080449 0.0013663 -0.0020906 0.00082276
0.0039539 0.0017861 0.27505 0.066984
1940000000 0.17572 -0.17607 0.00050611 -0.0014334 0.0012686 0.0018486 -0.0037721 0.00048559
0.0011652 0.0010909 -0.00070554 -0.00065116
0.00050287 -0.0014277 0.26334 0.091175 -0.00085552 0.0038248 0.00088803 0.0013721
0.0019586 0.0004804 0.00082802 0.00024433
0.0012703 0.0018065 -0.00081691 0.0038181 0.062293 -0.24869 0.00026376 -0.0023118
0.0024145 0.0005605 0.00032326 0.0016312
-0.0037925 0.00050403 0.00090766 0.0013789 0.00029065 -0.0022776 0.10822 -0.16741
-0.0012107 0.0043845 -0.0010434 0.0016737
0.0011405 0.0010763 0.0019769 0.00046267 0.0024557 0.00058957 -0.0011893 0.0043913
0.25317 -0.025687 0.003035 -0.0012148
-0.00072554 -0.0006596 0.00082077 0.00021641 0.00032926 0.0016625 -0.001056 0.001688
0.0030303 -0.001221 0.26415 0.031441
2000000000 0.12929 -0.18963 -0.0034531 0.00036516 0.002282 0.0015727 -0.0023029 0.0035645
0.0010272 0.00036218 -0.00077778 0.00038005
-0.0034395 0.00035327 0.24862 0.05584 -0.00074473 0.0054981 0.0016908 0.00034227
0.0014472 -0.0014769 0.00047789 0.00012477
0.0023233 0.00157 -0.00072484 0.0055191 0.018896 -0.23411 -0.0014353 -0.0013674
0.002141 -0.0011753 0.0016364 0.001321
-0.0022709 0.0035838 0.0016915 0.00032641 -0.0014296 -0.0013935 0.05495 -0.17578
-0.0024764 0.004644 0.00022243 0.0020583
0.0010327 0.00035494 0.0014156 -0.0014915 0.0021171 -0.0011866 -0.0024652 0.0046452
