!Keysight Technologies,M9804A,MY58100912,A.14.10.03
!Date: Thursday, April 27, 2023 10:28:33
!Correction: S11(C  6-Port  ) 
!S12(C  6-Port  ) 
!S13(C  6-Port  ) 
!S14(C  6-Port  ) 
!S15(C  6-Port  ) 
!S16(C  6-Port  ) 
!S21(C  6-Port  ) 
!S22(C  6-Port  ) 
!S23(C  6-Port  ) 
!S24(C  6-Port  ) 
!S25(C  6-Port  ) 
!S26(C  6-Port  ) 
!S31(C  6-Port  ) 
!S32(C  6-Port  ) 
!S33(C  6-Port  ) 
!S34(C  6-Port  ) 
!S35(C  6-Port  ) 
!S36(C  6-Port  ) 
!S41(C  6-Port  ) 
!S42(C  6-Port  ) 
!S43(C  6-Port  ) 
!S44(C  6-Port  ) 
!S45(C  6-Port  ) 
!S46(C  6-Port  ) 
!S51(C  6-Port  ) 
!S52(C  6-Port  ) 
!S53(C  6-Port  ) 
!S54(C  6-Port  ) 
!S55(C  6-Port  ) 
!S56(C  6-Port  ) 
!S61(C  6-Port  ) 
!S62(C  6-Port  ) 
!S63(C  6-Port  ) 
!S64(C  6-Port  ) 
!S65(C  6-Port  ) 
!S66(C  6-Port  ) 
!S6P File: Measurement: :
# Hz S  RI   R 50
500000000 -0.33672 -0.033708 -0.0095839 -0.0035701 -0.007745 0.011626 -0.0034072 0.011831
0.012319 0.004575 -0.0036946 0.0078096
-0.0095807 -0.0036 -0.41923 -0.048659 0.0076293 -0.011808 0.0015698 0.011425
0.0075327 0.0025038 0.00079527 0.012692
-0.0077119 0.01144 0.0075551 -0.011853 -0.26402 0.21122 0.0068963 0.0028503
8.0424e-05 0.0084332 0.00057087 0.011774
-0.0034988 0.011829 0.0015831 0.011454 0.0069047 0.0028575 -0.32686 0.048609
-0.019209 -0.0044519 0.018442 0.026235
0.012646 0.0047532 0.0075717 0.0023455 0.00015296 0.0086056 -0.019305 -0.0044778
-0.22678 -0.18156 -0.027425 0.0043682
-0.0039811 0.0086352 0.0010307 0.012812 0.00067575 0.011707 0.017984 0.026141
-0.0281 0.0047484 -0.26836 -0.13471
560000000 -0.31507 0.12561 -0.023629 -0.063424 0.00037158 0.011918 0.0059709 0.0096716
0.010842 0.0037748 0.0098652 0.0076872
-0.023458 -0.063388 -0.37652 0.10946 -0.04125 -0.036783 0.013729 0.0035843
-0.013355 -0.0041507 0.0045942 -0.00098989
0.00039658 0.012019 -0.041544 -0.036599 -0.18244 0.25892 -0.00096896 -0.0049
0.019178 0.0034676 0.006721 -0.0061065
0.0060196 0.009537 0.013656 0.0037108 -0.00076765 -0.0048738 -0.30176 0.1362
0.0040544 -0.024696 0.004853 -0.019669
0.010852 0.0036748 -0.013656 -0.0044129 0.019009 0.0035301 0.0041484 -0.024362
-0.28395 -0.0083393 0.0068451 -0.050696
0.0097774 0.0073633 0.0042358 -0.00084442 0.0071241 -0.0062172 0.0049099 -0.019341
0.0076052 -0.0507 -0.33374 0.014067
620000000 -0.27275 0.11058 -0.023186 0.006852 0.0031081 0.0081753 0.0069335 -0.0057199
0.011122 -0.00052292 0.0010044 -0.0023561
-0.02313 0.006906 -0.40227 0.063443 -0.018989 -0.00049706 -0.0014517 -0.0019379
0.010098 -0.0069716 0.0012036 -0.0025477
0.0033613 0.0079595 -0.0189 -0.00035756 -0.15247 0.26753 -0.0016772 -0.0047713
-0.0036358 -0.0035945 0.0080698 -0.0034389
0.0069925 -0.0054698 -0.0015516 -0.0019201 -0.001599 -0.0050847 -0.2606 0.1463
-0.038355 -0.018774 0.013731 0.023571
0.011001 -0.00090134 0.0099972 -0.0074395 -0.003867 -0.0033404 -0.038314 -0.01855
-0.20527 -0.046756 -0.040063 0.015569
0.00021257 -0.002225 0.0010006 -0.0028345 0.0085266 -0.003193 0.013892 0.024243
-0.040211 0.014451 -0.24999 -0.024828
680000000 -0.23224 0.19372 -0.028045 -0.014111 0.0046902 0.0050113 0.0012248 -0.0075477
-0.0034097 -0.010853 0.0045649 -0.0066569
-0.028001 -0.014127 -0.38692 0.15991 -0.033015 -0.0012311 -0.0015671 -0.00014453
-0.002955 -0.0088305 -0.0010571 -0.0021067
0.0045945 0.0050597 -0.033031 -0.0012299 -0.10209 0.28737 -0.00065435 0.0003172
-0.00237 0.00085973 -0.0028331 -0.0095388
0.0010915 -0.0075319 -0.001572 -0.00013439 -0.00068426 0.00035312 -0.21844 0.19549
-0.023828 -0.0085873 -0.010411 -0.010793
-0.00346 -0.010826 -0.0029319 -0.0087468 -0.0024615 0.0009713 -0.023644 -0.0084631
-0.25073 0.050581 -0.0047845 -0.0098549
0.0044201 -0.0067229 -0.0010739 -0.0020005 -0.0028127 -0.0095255 -0.010493 -0.010718
-0.0047656 -0.0098472 -0.2626 0.082454
740000000 -0.18927 0.18884 -0.038569 0.026413 0.01236 -0.0052147 -0.00062994 -0.0039556
-0.0045683 -0.0027656 -0.0061282 0.0035813
-0.038565 0.026322 -0.33492 0.17902 -0.034826 0.034979 -0.00089126 -0.0061115
-0.010877 0.0081145 -0.0026969 -0.0063196
0.012394 -0.0053998 -0.034761 0.035136 -0.068233 0.28667 -0.0013865 0.0031518
-0.0025435 -0.0035943 -0.00092537 0.00019343
-0.00083229 -0.0039168 -0.0008975 -0.0061722 -0.0013384 0.0032372 -0.20208 0.20336
-0.042345 -0.0080058 0.022059 0.013136
-0.0043528 -0.002487 -0.010953 0.0083118 -0.0024615 -0.0036863 -0.042385 -0.0079338
-0.15591 0.072813 -0.042265 0.00050596
-0.006008 0.0034652 -0.0030291 -0.0062563 -0.0011101 -0.00013012 0.022074 0.013081
-0.042021 0.00078935 -0.25538 0.087522
800000000 -0.15727 0.22878 -0.022589 0.017201 0.0051879 -0.010466 -0.0048835 -0.0020537
-0.0038883 0.0028098 0.0044941 0.00068473
-0.022565 0.017121 -0.3372 0.2492 -0.007691 0.034053 -0.0020398 0.0021615
-0.00026983 0.0034192 0.0012384 0.0053488
0.0051357 -0.010522 -0.0076805 0.034167 -0.026964 0.30976 0.0012107 0.0013785
0.0007722 0.0035137 -0.0017967 0.0008405
-0.0048963 -0.0020838 -0.0020403 0.0021746 0.0012475 0.0014288 -0.174 0.23091
-0.028623 0.012491 0.013213 -0.0099568
-0.0039828 0.0028686 -0.00032127 0.003409 0.00070463 0.0035005 -0.028654 0.012555
-0.19959 0.097446 -0.01809 0.017435
0.004533 0.00070318 0.001348 0.0052659 -0.0019376 0.0009059 0.013284 -0.010044
-0.017946 0.017225 -0.24825 0.14271
860000000 -0.12233 0.25011 -0.017101 0.031297 -0.0034835 -0.0096384 -0.0026749 0.0014207
0.0042641 0.0049617 -0.0030728 -0.0030118
-0.017112 0.031317 -0.28915 0.29132 0.0082625 0.034054 0.0003463 0.0020336
0.0045914 -0.00013436 0.0031546 0.0004065
-0.0034941 -0.0095901 0.0083595 0.034021 0.021696 0.3175 -0.00034851 -0.0002788
0.0027839 -0.001697 0.0015132 0.0045821
-0.0026197 0.0014422 0.00038177 0.0020752 -0.00034035 -0.0002835 -0.13847 0.24305
-0.018167 0.018787 -0.0064183 -0.0093472
0.0043489 0.004875 0.0046231 -8.7307e-05 0.0028072 -0.001599 -0.018155 0.018798
-0.15109 0.14601 -0.024841 0.015534
-0.0031316 -0.0028894 0.0031355 0.00031709 0.0014438 0.0045399 -0.006235 -0.0092504
-0.024818 0.015215 -0.19669 0.18724
920000000 -0.096802 0.27333 0.0051332 0.037931 -0.0093263 -0.0039904 -0.0017523 0.0024068
0.0013197 0.0015848 0.0025406 -0.0015256
0.0050871 0.037826 -0.26006 0.31197 0.027904 0.021573 0.0015513 0.0011258
0.0067129 -0.00074661 0.0036166 -0.0030909
-0.0093842 -0.0040497 0.028025 0.02154 0.068138 0.3176 0.0017091 -5.5625e-05
0.0012893 -0.00044228 0.00071221 -0.00096862
-0.0017696 0.0024392 0.001575 0.0011335 0.0017246 -5.5326e-05 -0.11389 0.25943
-0.010545 0.029961 0.0025919 -0.0064406
0.0012943 0.0016263 0.0066956 -0.00078489 0.0011991 -0.00046808 -0.010501 0.03002
-0.14093 0.15241 -0.0021688 0.027932
0.0025664 -0.0013834 0.0036135 -0.0029493 0.0007997 -0.00089842 0.0026198 -0.0063302
-0.0021251 0.027792 -0.20587 0.20072
980000000 -0.048931 0.29281 0.017924 0.029883 -0.0086145 0.0047965 0.0025291 0.0037268
0.0038361 -0.0017064 -0.0029639 -0.0019498
0.017894 0.029892 -0.207 0.34555 0.03266 0.0044913 0.0019472 -6.4337e-05
0.00094347 -0.0061118 -0.00046381 -0.0020852
-0.0085687 0.0047788 0.032703 0.0043996 0.11442 0.31046 0.00043859 -0.0011485
1.7232e-05 -0.0020003 0.001668 -2.8467e-05
0.0025607 0.0037161 0.0019482 -4.034e-05 0.00043028 -0.0011485 -0.075322 0.27078
0.0074259 0.028675 -0.0093109 -0.006579
0.0038623 -0.0017162 0.00090556 -0.006035 7.737e-05 -0.0020147 0.007479 0.028686
-0.10912 0.18006 0.0047412 0.018814
-0.0030019 -0.0020324 -0.00054501 -0.0021167 0.0016058 -1.3566e-05 -0.0094002 -0.0065709
0.0048135 0.018898 -0.16257 0.24767
1040000000 -0.0058662 0.30076 0.033225 0.01762 -0.00091324 0.0068341 0.0029223 0.00063528
-1.1231e-05 -0.0036136 -0.00050443 -0.0014972
0.03317 0.017613 -0.17099 0.35829 0.028807 -0.014814 0.0014519 -0.0016777
-0.0025465 -0.0021073 -0.00132 -0.0026643
-0.00092609 0.0067895 0.028765 -0.014924 0.16033 0.29633 -0.00045869 -0.0013995
-0.0014845 -0.0007639 -0.00032804 -0.0012227
0.0029007 0.00063182 0.0014435 -0.0016788 -0.00050074 -0.0013779 -0.047653 0.28077
0.017937 0.017237 -0.0028264 0.0023592
-4.7377e-05 -0.0035357 -0.002655 -0.0020753 -0.0014495 -0.00080052 0.018022 0.017168
-0.078354 0.18911 0.013285 0.018004
-0.00049614 -0.0014022 -0.0014865 -0.0027169 -0.00031802 -0.00122 -0.0028457 0.0023136
0.013202 0.018143 -0.14246 0.26925
1100000000 0.039968 0.30769 0.035562 -0.0045255 0.0030535 0.0036608 0.0025621 -0.0015087
-0.0020757 -0.0029298 -0.0038698 0.00011933
0.035525 -0.0044932 -0.12736 0.3749 0.014708 -0.027313 -4.1105e-06 -0.0017849
-0.0029034 -0.0003353 -0.0033299 -0.00052777
0.0030673 0.0036606 0.014629 -0.027383 0.2063 0.27573 -0.001744 0.00022966
-0.0015436 0.00061946 -0.00087689 -0.00047027
0.0025497 -0.0015257 -6.4731e-06 -0.0017882 -0.0017533 0.00022317 -0.0070381 0.28552
0.022424 0.00535 -0.0020716 0.0010125
-0.0020679 -0.0029316 -0.0029248 -0.00035147 -0.0015691 0.00063317 0.02246 0.0053177
-0.05917 0.20219 0.018721 0.0087119
-0.0038861 0.00019222 -0.0033548 -0.0005079 -0.00094409 -0.0005267 -0.002102 0.0010578
0.018649 0.0087207 -0.095459 0.29934
1160000000 0.091646 0.30189 0.023585 -0.020648 0.0027758 -0.00069158 -0.00022767 -0.0026134
-0.0039881 -0.00046433 -0.0010378 0.0040155
0.023583 -0.020597 -0.083514 0.37856 -0.0037179 -0.028484 -0.0017489 -0.0016043
-0.00221 0.0025072 -0.0013385 0.0015769
0.0027535 -0.00071182 -0.0038138 -0.028489 0.24908 0.24489 -0.000574 0.0016524
-0.00039793 0.0017216 -0.0010606 0.00010687
-0.00023431 -0.0026191 -0.0017324 -0.0015766 -0.00057839 0.0016592 0.032503 0.28233
0.01926 -0.0092681 -0.002588 0.0055444
-0.0039292 -0.00043303 -0.0021679 0.0025447 -0.00038379 0.0017412 0.019285 -0.0092958
-0.025305 0.21134 0.017362 0.00098873
-0.00096716 0.0039893 -0.0013382 0.0016042 -0.0011112 0.00013035 -0.0025639 0.005512
0.017307 0.001025 -0.048146 0.30216
1220000000 0.13597 0.28957 0.010159 -0.029677 -0.0015034 -0.0009563 -0.00018973 -0.0010951
-0.0024566 0.0025225 0.0013178 0.0018778
0.010169 -0.029638 -0.039583 0.38984 -0.016465 -0.020641 -0.0024521 0.00042276
0.00025411 0.0026537 -0.00066856 0.0017687
-0.0014957 -0.00097176 -0.016575 -0.020579 0.28822 0.20606 0.00083903 0.001494
0.00050742 0.0010488 0.00023227 0.00077348
-0.0001931 -0.0011035 -0.0024616 0.00044799 0.00085849 0.0014865 0.071953 0.27358
0.0094869 -0.014912 0.0029977 0.0015615
-0.0024065 0.0025895 0.00027594 0.0026744 0.00051849 0.0010854 0.0094741 -0.014909
-0.001281 0.22044 0.013598 -0.011995
0.0013237 0.0018462 -0.00068132 0.0017698 0.00022161 0.00072245 0.0029849 0.0015929
0.013552 -0.012009 -0.016795 0.32058
1280000000 0.18519 0.26674 -0.0077441 -0.027963 -0.0018593 0.0023213 -0.0011202 -0.001909
-0.00053762 0.0029923 0.0025052 0.00092821
-0.0077285 -0.027967 0.0059297 0.38041 -0.023005 -0.0083702 -0.00097487 0.001395
0.0015239 0.0014932 0.00051093 0.0019701
-0.001854 0.002296 -0.023096 -0.0082533 0.31897 0.16218 0.0013325 -0.00013801
0.000923 0.00014946 0.00025696 0.00040302
-0.0011098 -0.001898 -0.00098036 0.0014031 0.0013099 -0.00014862 0.10829 0.25738
0.0011063 -0.016683 0.00065183 -5.155e-05
-0.00052526 0.0029943 0.0015335 0.0014833 0.00090922 0.00013466 0.0010615 -0.016683
0.035829 0.2236 0.0032131 -0.013839
0.0024946 0.00093843 0.00049048 0.0019509 0.00029092 0.00042485 0.00065654 -5.8205e-05
0.0032162 -0.013865 0.031167 0.32258
1340000000 0.22169 0.23231 -0.01729 -0.018795 0.00073282 0.0041976 -0.0018403 -0.00069395
0.001405 0.0024641 0.0015799 -0.0014781
-0.017248 -0.018804 0.045041 0.372 -0.021077 0.0038993 -9.0774e-05 0.0018814
0.001604 0.00068182 0.0013278 0.00087331
0.00073941 0.0041675 -0.02108 0.0039999 0.34139 0.11401 0.00090823 -0.00082004
0.00058529 -0.00037698 0.00021746 0.00026569
-0.001846 -0.00070254 -8.3076e-05 0.0018712 0.00089464 -0.00082355 0.14108 0.23727
-0.0068486 -0.014237 0.0013547 -0.00023874
0.0014328 0.0024352 0.0015959 0.00064123 0.00058281 -0.00036056 -0.0068846 -0.014235
0.066376 0.21832 -0.002776 -0.012666
0.0015529 -0.001502 0.0013195 0.0008952 0.0002127 0.0002427 0.0013538 -0.00021256
-0.0028111 -0.01264 0.070338 0.31896
1400000000 0.25384 0.19369 -0.023004 -0.0076057 0.0048095 0.0030231 -0.001978 0.00067954
0.0023399 0.00062212 0.00022111 -0.0012577
-0.022966 -0.0076275 0.081791 0.35895 -0.014647 0.011838 0.001269 0.0012617
0.00092287 -0.00069203 0.001181 0.0003529
0.0048377 0.0030329 -0.014614 0.011912 0.35453 0.059785 0.00012711 -0.0013823
5.7924e-05 -0.00032246 0.00030402 0.00023207
-0.0019851 0.00068225 0.0012763 0.0012454 0.00012464 -0.0013583 0.17092 0.20899
-0.011786 -0.0086274 -0.00072829 -0.0010585
0.0023289 0.00060114 0.00092667 -0.00070311 4.091e-05 -0.00033221 -0.011782 -0.0085953
0.099317 0.21299 -0.0089048 -0.0082829
0.00021408 -0.0012572 0.0011943 0.00032216 0.00033383 0.00020739 -0.00071375 -0.0010352
-0.0088953 -0.0082176 0.11609 0.30853
1460000000 0.27612 0.14953 -0.020271 0.0042702 0.0053118 -0.0015938 -0.0015326 0.00168
0.0018261 -0.00067952 -0.00029755 -0.00081145
-0.020247 0.0042461 0.1159 0.33726 -0.0063714 0.014715 0.0016767 0.00017786
0.00087987 -0.0010735 0.0011707 -0.00061501
0.0052697 -0.0016222 -0.0062995 0.014766 0.36028 0.0047253 -0.001013 -0.0012241
0.00030122 -8.3765e-05 0.00068552 -0.00037691
-0.0015255 0.0016758 0.0016752 0.00016747 -0.0010002 -0.0012342 0.19795 0.17994
-0.012788 -0.0035415 -0.0012862 0.0013816
0.0017958 -0.00068161 0.00086899 -0.0010834 0.00030343 -0.0001261 -0.012809 -0.0035018
0.12893 0.19764 -0.010565 -0.0031607
-0.00028632 -0.00078727 0.0011864 -0.0006128 0.00066641 -0.00043492 -0.0013081 0.001382
-0.010571 -0.0031707 0.14981 0.28771
1520000000 0.28777 0.10785 -0.01487 0.0099211 0.0030555 -0.0039224 0.00010395 0.0025504
0.0016941 -0.0015606 -0.0011081 -0.00020372
-0.014861 0.0099106 0.14943 0.32248 0.0010409 0.012886 0.0015793 -0.00078158
0.00014611 -0.00092742 0.00029528 -0.0010295
0.0030355 -0.0039355 0.0010985 0.012881 0.35294 -0.051945 -0.00091249 -0.00039946
0.00056156 -0.00074574 -1.3099e-05 -6.2752e-05
0.00010274 0.0025413 0.0015813 -0.00078139 -0.00091647 -0.00039131 0.22192 0.14169
-0.012821 0.0010536 0.00082253 0.0018255
0.0016628 -0.0015678 0.00014002 -0.00091123 0.00057016 -0.00074289 -0.012795 0.0010787
0.15678 0.18286 -0.010971 0.0007158
-0.0011121 -0.00018328 0.00029639 -0.0010343 -1.9825e-05 -8.2498e-05 0.00082718 0.0018073
-0.010969 0.00070277 0.18394 0.26788
1580000000 0.29682 0.061539 -0.0084593 0.013162 -0.00092341 -0.0045505 0.0013672 0.0018352
-0.00041367 -0.0019687 -0.00035287 0.00035005
-0.0084775 0.013144 0.17676 0.29763 0.0047257 0.0083403 0.00045716 -0.001505
-0.00037783 -0.0010535 -0.00024864 -0.00086596
-0.00095857 -0.0045975 0.0047593 0.0083183 0.332 -0.1095 -0.0014817 0.00044063
-0.00022915 -0.0010324 8.1735e-05 -0.00051508
0.0013915 0.001825 0.00044294 -0.0015149 -0.0015055 0.00043426 0.23668 0.10161
-0.010575 0.0053032 0.0016631 0.00074585
-0.00040563 -0.0019543 -0.00039635 -0.0010474 -0.0001973 -0.0010416 -0.010558 0.0053247
0.18094 0.16447 -0.0089944 0.0060155
-0.00036707 0.00036539 -0.00027798 -0.0008571 0.00013284 -0.00051618 0.0016718 0.00073601
-0.0089877 0.0060011 0.21663 0.241
1640000000 0.29846 0.019751 -0.0018637 0.012357 -0.0025385 -0.0023634 0.0025469 0.0010133
-0.00068324 -0.0011478 -0.00036116 0.00066617
-0.0018678 0.012363 0.20632 0.27227 0.0055542 0.0037713 -0.00068653 -0.001605
-0.00098705 -0.00048187 -0.00053377 -0.00064971
-0.0025283 -0.0023772 0.0056041 0.0037443 0.30314 -0.15871 -0.00089501 0.0012746
-0.00098341 -0.00082209 -8.9e-05 -0.00026504
0.002565 0.00099731 -0.00069778 -0.0015961 -0.00090169 0.0012704 0.24932 0.051452
-0.0074223 0.0067204 0.0020936 -0.00055752
-0.00068622 -0.0011424 -0.00098331 -0.00047856 -0.001003 -0.00083442 -0.0073953 0.0067477
0.20373 0.1392 -0.0048141 0.0083374
-0.00033766 0.00064254 -0.00052329 -0.00065369 -0.00013297 -0.00030601 0.0021101 -0.00057029
-0.0047821 0.0083462 0.243 0.20956
1700000000 0.29051 -0.025772 0.001691 0.0098571 -0.0033151 5.1541e-05 0.002912 -0.0010744
-0.0017762 -0.00044859 0.00062515 0.00046512
0.0016848 0.0098508 0.22434 0.24041 0.0038239 0.00097739 -0.0013366 -0.00056329
-0.00083489 2.7147e-05 -0.0009262 -0.00039616
-0.00334 0.00010233 0.0038227 0.00093887 0.25907 -0.19801 0.0003089 0.001567
-0.0016791 -0.00034784 -0.00053404 -0.0009541
0.0029066 -0.0010926 -0.0013382 -0.00056099 0.0003372 0.0015831 0.24567 0.00028772
-0.0053087 0.0077572 0.0012777 -0.0018264
-0.0017679 -0.00044682 -0.00082725 3.5421e-05 -0.0016954 -0.00036011 -0.0053073 0.007761
0.2214 0.11769 -0.00056348 0.0089805
0.00061189 0.00044595 -0.00092596 -0.00041489 -0.00048512 -0.00093199 0.0012924 -0.0018418
-0.00056183 0.0089729 0.25978 0.17482
1760000000 0.27745 -0.074409 0.0043047 0.0067445 -0.0021593 0.00079546 0.0013911 -0.0033018
-0.0010377 0.00058987 0.00040434 -0.0004655
0.0042945 0.0067357 0.25005 0.20009 0.0017865 -0.00081828 -0.0010761 0.00014388
-0.001107 0.00090225 -0.00058369 0.00053172
-0.0021106 0.00076251 0.0017942 -0.00081072 0.21012 -0.23065 0.0010798 0.0012701
-0.0012256 0.0013106 -0.0013186 -0.00044781
0.0013805 -0.0033167 -0.0010857 0.0001427 0.0011103 0.001263 0.23518 -0.052069
-0.0024361 0.0076798 -0.00042421 -0.0019886
-0.0010122 0.00059197 -0.0010948 0.00091445 -0.0012296 0.0013108 -0.0024458 0.0076846
0.23632 0.081126 0.0030545 0.0065427
0.00038534 -0.00043749 -0.00059576 0.00052258 -0.0012764 -0.00040013 -0.00042292 -0.0019927
0.0030728 0.0065599 0.2724 0.13711
1820000000 0.25184 -0.11162 0.0048285 0.0030694 -7.192e-05 0.0023658 -0.00086967 -0.0030572
-0.00088836 0.00064852 6.5048e-05 -0.00011623
0.0048152 0.0030763 0.25952 0.16971 -0.00010556 0.00020508 -0.0013261 0.00079364
-3.0697e-05 0.0013723 -0.00049145 0.00051081
-4.5597e-05 0.0024063 -8.7649e-05 0.00017964 0.15982 -0.24581 0.0015791 0.0004458
-0.00038416 0.0021244 -0.0013433 0.00040876
-0.00086776 -0.0030414 -0.0013353 0.000796 0.0015683 0.00047414 0.20349 -0.099487
-0.00092116 0.0064451 -0.0015143 -0.0012489
-0.00087492 0.00063783 -1.2705e-05 0.0013833 -0.00037583 0.0021437 -0.00091333 0.0064623
0.25254 0.049866 0.0041662 0.0034672
8.6958e-05 -0.0001264 -0.00049225 0.00050811 -0.001399 0.00044841 -0.0014841 -0.001283
0.0041735 0.0034605 0.27491 0.10101
1880000000 0.21571 -0.1511 0.0027675 0.00060813 -0.00028895 0.0020326 -0.0027926 -0.0022217
-0.00033241 0.0014535 0.00034135 -0.00059531
0.0027784 0.00061946 0.26342 0.12306 -0.0019607 0.0017627 -0.00024489 0.0016846
0.00067547 0.001306 0.00021111 0.00096494
-0.0002882 0.0020306 -0.0019841 0.0017924 0.10822 -0.25505 0.0018653 -0.00094932
0.0013718 0.0020935 -0.00084255 0.0014263
-0.0028268 -0.0022093 -0.00023826 0.0016797 0.0018649 -0.00097749 0.16153 -0.13866
-0.00029507 0.0051451 -0.0020959 0.00082824
-0.00033178 0.0014673 0.00068091 0.0012904 0.0013943 0.0020773 -0.00026578 0.005156
0.25394 0.014979 0.0039467 0.0017694
0.00033665 -0.00063295 0.00022943 0.0009657 -0.00087584 0.0014706 -0.0021132 0.00081784
0.0039703 0.0017684 0.27502 0.066944
1940000000 0.17572 -0.17609 0.00051475 -0.0014305 0.0012158 0.0018403 -0.0038088 0.00050063
0.0011711 0.0010922 -0.0006335 -0.00064885
0.0005215 -0.0014028 0.26337 0.091183 -0.00087345 0.0038374 0.00089222 0.0013611
0.0019683 0.00048369 0.00083324 0.0002295
0.0012639 0.0018501 -0.00082175 0.0038424 0.062227 -0.24866 0.00022588 -0.0023212
0.0024412 0.00053129 0.00031344 0.0015779
-0.0038036 0.000511 0.00089623 0.0013522 0.00028198 -0.0023102 0.10819 -0.16744
-0.00121 0.0043485 -0.0010712 0.0016372
0.0011678 0.0010791 0.0019684 0.00045981 0.0024458 0.00058197 -0.0011883 0.0043689
0.2532 -0.0257 0.003087 -0.0012267
-0.00069124 -0.0006741 0.00083631 0.00023647 0.00027647 0.0016231 -0.0010244 0.0016518
0.0030565 -0.0012472 0.2642 0.031304
2000000000 0.12924 -0.18957 -0.0034509 0.00038358 0.0023081 0.0014964 -0.0022991 0.0035458
0.0010431 0.00034614 -0.00077968 0.00037931
-0.0034577 0.00037028 0.24862 0.055819 -0.00070303 0.0054628 0.0016951 0.00034664
0.001439 -0.0014809 0.00049502 0.00011587
0.0022928 0.0015576 -0.0006851 0.0054913 0.018994 -0.23423 -0.0014014 -0.0014015
0.0022108 -0.0011197 0.0016693 0.0012578
-0.0022701 0.0035705 0.0016832 0.00033101 -0.0014088 -0.0014185 0.054954 -0.17578
-0.002473 0.0046515 0.00023941 0.0021318
0.0010254 0.00034263 0.0014128 -0.0015013 0.0021644 -0.0012061 -0.0024545 0.0047096
