!Keysight Technologies,M9804A,MY58100912,A.14.10.03
!Date: Thursday, April 27, 2023 10:28:33
!Correction: S11(C  6-Port  ) 
!S12(C  6-Port  ) 
!S13(C  6-Port  ) 
!S14(C  6-Port  ) 
!S15(C  6-Port  ) 
!S16(C  6-Port  ) 
!S21(C  6-Port  ) 
!S22(C  6-Port  ) 
!S23(C  6-Port  ) 
!S24(C  6-Port  ) 
!S25(C  6-Port  ) 
!S26(C  6-Port  ) 
!S31(C  6-Port  ) 
!S32(C  6-Port  ) 
!S33(C  6-Port  ) 
!S34(C  6-Port  ) 
!S35(C  6-Port  ) 
!S36(C  6-Port  ) 
!S41(C  6-Port  ) 
!S42(C  6-Port  ) 
!S43(C  6-Port  ) 
!S44(C  6-Port  ) 
!S45(C  6-Port  ) 
!S46(C  6-Port  ) 
!S51(C  6-Port  ) 
!S52(C  6-Port  ) 
!S53(C  6-Port  ) 
!S54(C  6-Port  ) 
!S55(C  6-Port  ) 
!S56(C  6-Port  ) 
!S61(C  6-Port  ) 
!S62(C  6-Port  ) 
!S63(C  6-Port  ) 
!S64(C  6-Port  ) 
!S65(C  6-Port  ) 
!S66(C  6-Port  ) 
!S6P File: Measurement: :
# Hz S  RI   R 50
500000000 -0.3368 -0.033763 -0.0096355 -0.0035764 -0.0076288 0.011539 -0.0032911 0.011565
0.012247 0.0043917 -0.0038599 0.0082483
-0.0094136 -0.0035526 -0.41905 -0.048584 0.0076043 -0.011767 0.0015401 0.011578
0.0079315 0.0022485 0.0004757 0.012955
-0.0075871 0.011383 0.0074024 -0.011839 -0.2639 0.21129 0.0069038 0.003053
0.00031723 0.0081821 0.00050987 0.012113
-0.0032143 0.011826 0.0015027 0.01138 0.0068946 0.0029071 -0.32686 0.048687
-0.018845 -0.0043692 0.017722 0.026028
0.012271 0.0045812 0.0079773 0.0025233 0.00025379 0.0083402 -0.019048 -0.004548
-0.2273 -0.18213 -0.027794 0.0050344
-0.0036098 0.0085311 0.00068106 0.012659 0.00060659 0.011826 0.017939 0.026175
-0.02728 0.0052463 -0.26975 -0.13572
560000000 -0.31543 0.1253 -0.023604 -0.062979 0.00039829 0.011779 0.0061999 0.0095543
0.011049 0.0038408 0.0095238 0.0073012
-0.023471 -0.062963 -0.37635 0.10935 -0.041629 -0.036635 0.013213 0.0035623
-0.013241 -0.0047038 0.0042928 -0.0010508
0.00032255 0.012012 -0.041839 -0.036905 -0.18222 0.2587 -0.00064098 -0.0048936
0.019134 0.0037531 0.0073339 -0.0060326
0.0061277 0.0097416 0.013197 0.0032503 -0.00081414 -0.0047499 -0.30225 0.13568
0.0039213 -0.024826 0.0052562 -0.019829
0.010612 0.0037732 -0.013502 -0.0043608 0.019128 0.0033251 0.0040114 -0.024671
-0.28376 -0.0074361 0.0076546 -0.050772
0.0097472 0.007464 0.0042953 -0.0014581 0.007182 -0.0060151 0.0052539 -0.01966
0.007555 -0.05104 -0.33386 0.014255
620000000 -0.27289 0.11048 -0.023082 0.0069759 0.0031188 0.0081165 0.0066309 -0.0056953
0.011202 -0.00063046 0.00051342 -0.0019595
-0.023195 0.0069505 -0.40223 0.063382 -0.018956 -0.00053754 -0.0013644 -0.0020469
0.0099727 -0.0072262 0.00090924 -0.0024976
0.0034016 0.0080471 -0.019105 -0.00043566 -0.15227 0.26736 -0.001555 -0.005015
-0.0038016 -0.003728 0.008108 -0.0031816
0.0068598 -0.0055175 -0.0014843 -0.0021632 -0.0016116 -0.0048976 -0.26064 0.14649
-0.038201 -0.01882 0.013822 0.024031
0.011247 -0.00084993 0.010065 -0.0070723 -0.0040846 -0.0035099 -0.038305 -0.018963
-0.20507 -0.04689 -0.040048 0.014987
6.4341e-05 -0.0018033 0.0010862 -0.0026442 0.0080727 -0.0032531 0.014052 0.023999
-0.040782 0.01512 -0.24992 -0.025751
680000000 -0.23216 0.1937 -0.027941 -0.013988 0.0047316 0.0050705 0.0010979 -0.0075113
-0.0033596 -0.010772 0.0045327 -0.0068224
-0.027921 -0.014034 -0.38698 0.15992 -0.033031 -0.0012757 -0.0016 -9.3524e-05
-0.0028851 -0.0087067 -0.0010504 -0.0018986
0.0047355 0.0050684 -0.033065 -0.0011806 -0.10216 0.28729 -0.00061826 0.0003521
-0.0023122 0.00096889 -0.0027828 -0.0095523
0.0010189 -0.0075356 -0.0016771 -9.7939e-05 -0.00068485 0.00035671 -0.21836 0.19544
-0.023642 -0.0087102 -0.010588 -0.010725
-0.0035459 -0.010639 -0.0029996 -0.0086943 -0.002432 0.00094925 -0.023673 -0.0085707
-0.25087 0.050093 -0.0050402 -0.0097733
0.0044566 -0.0066308 -0.0011059 -0.0020547 -0.0028519 -0.0094924 -0.010431 -0.010769
-0.0050397 -0.0097804 -0.26267 0.082346
740000000 -0.18909 0.18871 -0.038532 0.026558 0.01226 -0.0051359 -0.00066091 -0.0038014
-0.0044868 -0.0026932 -0.0062022 0.0036705
-0.038498 0.026355 -0.33521 0.1787 -0.034897 0.034939 -0.0008461 -0.006231
-0.01116 0.0082661 -0.0030985 -0.0062598
0.012383 -0.005197 -0.034743 0.035108 -0.068367 0.28672 -0.001316 0.0033084
-0.0025649 -0.0039168 -0.0011007 -1.0206e-06
-0.00062102 -0.0039531 -0.00083412 -0.0061625 -0.0013735 0.0032566 -0.20219 0.20323
-0.04242 -0.0078903 0.022174 0.012945
-0.0044622 -0.002681 -0.010952 0.0082493 -0.0024103 -0.0038355 -0.042533 -0.0077463
-0.15637 0.073147 -0.04251 0.00074502
-0.0059983 0.0037867 -0.002996 -0.0060514 -0.001178 -0.00014579 0.022079 0.013023
-0.042132 0.00072155 -0.25529 0.087164
800000000 -0.1571 0.22894 -0.022563 0.01718 0.0051624 -0.010414 -0.0048327 -0.0020678
-0.0040462 0.0028468 0.004575 0.00077332
-0.022637 0.017166 -0.33719 0.24911 -0.0077108 0.034115 -0.0020458 0.0021278
-0.00031666 0.003477 0.0012478 0.0053137
0.0051447 -0.01044 -0.0076363 0.034177 -0.027035 0.30976 0.0012312 0.0014041
0.00067642 0.0034951 -0.001915 0.00098027
-0.004875 -0.0020887 -0.0020111 0.0021739 0.0012287 0.0014 -0.17408 0.23081
-0.028637 0.012511 0.013205 -0.0099783
-0.0041464 0.0030261 -0.00029547 0.0034223 0.00073495 0.0035059 -0.028655 0.012584
-0.19971 0.09735 -0.018176 0.017329
0.0044569 0.000813 0.001275 0.0052252 -0.0018938 0.00089732 0.013277 -0.010085
-0.018087 0.017307 -0.24841 0.14218
860000000 -0.12239 0.25 -0.017147 0.031195 -0.0034338 -0.0096363 -0.0025861 0.0014291
0.0043681 0.0050576 -0.0032053 -0.0029825
-0.017241 0.031163 -0.28919 0.29114 0.0082416 0.034034 0.00032678 0.0020383
0.0046435 4.5356e-05 0.0033899 8.7617e-05
-0.0035374 -0.0096616 0.0083572 0.034073 0.021614 0.31748 -0.00033805 -0.00032506
0.0028522 -0.0015792 0.001598 0.0046364
-0.0025794 0.0014176 0.00031639 0.0020477 -0.00031853 -0.00030708 -0.13844 0.24309
-0.018235 0.018986 -0.0063491 -0.0092986
0.0042963 0.0049506 0.0046197 -0.00011104 0.0027909 -0.0015986 -0.018298 0.018951
-0.15134 0.14618 -0.025005 0.015353
-0.0030589 -0.0029528 0.0033384 0.00031782 0.0014155 0.0045541 -0.0062754 -0.0093741
-0.025081 0.015302 -0.197 0.18705
920000000 -0.096839 0.27333 0.0051465 0.037845 -0.0093119 -0.0039748 -0.0017682 0.002362
0.0012637 0.0014715 0.0025173 -0.0012378
0.0051735 0.037864 -0.26001 0.312 0.027922 0.021563 0.0015623 0.0011355
0.0066718 -0.00069747 0.0035849 -0.0029946
-0.0093485 -0.0039521 0.028052 0.021558 0.06811 0.3176 0.0017145 -5.605e-05
0.0012066 -0.00044862 0.00072046 -0.00099504
-0.0017914 0.0024262 0.0015883 0.0011404 0.0017254 -4.1959e-05 -0.11389 0.25937
-0.01062 0.029964 0.0025565 -0.0062822
0.0012908 0.0014843 0.006629 -0.00074681 0.0012215 -0.00043406 -0.010569 0.030047
-0.14087 0.15232 -0.0021517 0.027795
0.0025084 -0.0014366 0.0036231 -0.0030374 0.00078034 -0.00091594 0.0026928 -0.0062842
-0.0020522 0.027797 -0.2062 0.20056
980000000 -0.049016 0.29271 0.017896 0.029886 -0.0085866 0.004818 0.0025035 0.0036991
0.0038269 -0.001723 -0.0030667 -0.0019157
0.017889 0.029922 -0.20698 0.34543 0.032649 0.0045352 0.0019422 -6.2812e-05
0.00095005 -0.0060206 -0.00052256 -0.002098
-0.0086069 0.004796 0.032666 0.004441 0.11438 0.31047 0.00042521 -0.001139
2.824e-05 -0.0020598 0.0016388 1.6031e-05
0.002534 0.0036568 0.0019468 -3.4996e-05 0.00045539 -0.0011636 -0.075378 0.27077
0.0073251 0.02872 -0.0093631 -0.0065797
0.0038922 -0.0017542 0.00089397 -0.0060486 5.2787e-05 -0.002018 0.0074188 0.028734
-0.10902 0.17997 0.0048115 0.018729
-0.0029242 -0.001945 -0.00050187 -0.0020921 0.0016233 -8.4636e-06 -0.0094071 -0.0065316
0.0048575 0.018823 -0.1626 0.24749
1040000000 -0.0059365 0.30066 0.033226 0.017652 -0.00091869 0.0068309 0.0028666 0.00061698
-1.3873e-05 -0.0036091 -0.00048365 -0.0014629
0.033177 0.017711 -0.17117 0.35824 0.028824 -0.014825 0.0015155 -0.0017124
-0.0025921 -0.0021343 -0.0014627 -0.0026973
-0.00089683 0.006815 0.028789 -0.014918 0.16031 0.29631 -0.00047701 -0.001382
-0.0015044 -0.00080678 -0.00042167 -0.0012512
0.0028699 0.0005679 0.0015052 -0.0017346 -0.00049493 -0.0013776 -0.04773 0.28076
0.017953 0.01718 -0.0028757 0.0023154
-8.5359e-05 -0.0036477 -0.0026258 -0.0021174 -0.0014924 -0.00076886 0.01799 0.017182
-0.078312 0.189 0.013316 0.018071
-0.0005329 -0.0014673 -0.0014573 -0.0027133 -0.00033055 -0.0011995 -0.002857 0.0023889
0.013177 0.018154 -0.1426 0.26913
1100000000 0.039893 0.30763 0.03556 -0.0044549 0.00305 0.0036432 0.0025544 -0.0014983
-0.0020959 -0.0029228 -0.0038925 1.6268e-05
0.035542 -0.0044807 -0.12744 0.37487 0.014718 -0.027302 2.9466e-05 -0.0017904
-0.0029607 -0.00034322 -0.0033516 -0.00051286
0.003091 0.0036345 0.014614 -0.0274 0.20627 0.27572 -0.0017168 0.00023138
-0.0015356 0.00057868 -0.0009367 -0.00045007
0.00253 -0.0015111 1.017e-05 -0.001803 -0.0017294 0.00022336 -0.0070593 0.28551
0.022426 0.0053703 -0.0020546 0.0010559
-0.0021231 -0.0028845 -0.0029054 -0.00032909 -0.001542 0.00062355 0.022425 0.0053063
-0.059246 0.20213 0.018767 0.0087727
-0.0039111 0.00013051 -0.0033628 -0.0004846 -0.0009616 -0.00050517 -0.0021168 0.001038
0.018715 0.0087794 -0.095561 0.29939
1160000000 0.091541 0.30188 0.023622 -0.020601 0.0027702 -0.0006801 -0.00021129 -0.0025793
-0.003916 -0.00047777 -0.00099504 0.0039428
0.023637 -0.02059 -0.083615 0.37847 -0.0036771 -0.028477 -0.0017372 -0.0015834
-0.0021768 0.0024313 -0.0012873 0.0015093
0.0027907 -0.00069341 -0.0038267 -0.028467 0.24906 0.2449 -0.00060729 0.0016675
-0.00036607 0.00174 -0.0010745 9.8616e-05
-0.0002087 -0.0025919 -0.0017485 -0.0015772 -0.00059861 0.0016631 0.032453 0.28235
0.019319 -0.0092515 -0.0026059 0.005508
-0.0039854 -0.00040527 -0.0021701 0.0024954 -0.00038652 0.001717 0.019282 -0.009268
-0.025303 0.21133 0.017376 0.0010246
-0.0010442 0.0039876 -0.0013062 0.001567 -0.0010862 8.9527e-05 -0.0026081 0.0055383
0.017349 0.0010124 -0.048291 0.30198
1220000000 0.13587 0.28968 0.010201 -0.029656 -0.0014724 -0.00097156 -0.00017246 -0.0010846
-0.0024445 0.0025232 0.0012978 0.0018188
0.010189 -0.029628 -0.039586 0.38979 -0.016433 -0.020654 -0.0024294 0.00045077
0.00025515 0.00268 -0.00070383 0.0017106
-0.0014823 -0.00097609 -0.016554 -0.020603 0.28819 0.20602 0.00081552 0.0015046
0.00049134 0.0010785 0.00022178 0.00074428
-0.00016267 -0.0010989 -0.0024442 0.00044729 0.00082051 0.0014903 0.071935 0.27359
0.0094812 -0.014863 0.0029505 0.001561
-0.0024491 0.0025491 0.00028596 0.0026827 0.00051268 0.0010812 0.0094308 -0.014857
-0.0013582 0.22043 0.013541 -0.012
0.0013017 0.0018309 -0.00071536 0.0017184 0.00019046 0.00072179 0.002931 0.0015378
0.013625 -0.011952 -0.017004 0.32061
1280000000 0.18511 0.26681 -0.0077173 -0.028003 -0.0018748 0.0022983 -0.0011072 -0.0019014
-0.00057723 0.0029878 0.0025488 0.00097947
-0.0076926 -0.027972 0.0058626 0.38036 -0.023023 -0.0083794 -0.00098407 0.0013965
0.0014803 0.0015011 0.00047227 0.0019618
-0.0018663 0.0023051 -0.023087 -0.008268 0.31895 0.16225 0.001324 -0.00015226
0.00092316 0.00012446 0.00033595 0.00044729
-0.0011015 -0.0019158 -0.00096954 0.0013987 0.0013079 -0.00014364 0.10828 0.25736
0.0011103 -0.01668 0.00058432 -6.1368e-05
-0.00054038 0.0029634 0.0014853 0.0014847 0.00091488 0.00013941 0.0010935 -0.01668
0.035773 0.22354 0.0031839 -0.013882
0.0025231 0.000948 0.00046145 0.0019684 0.00029753 0.00043568 0.00059231 -5.8347e-05
0.0032027 -0.013833 0.031085 0.3225
1340000000 0.22165 0.23236 -0.017293 -0.01884 0.00070919 0.0042133 -0.0018619 -0.00073298
0.0014264 0.0024682 0.0015651 -0.0014691
-0.01727 -0.018833 0.044978 0.37199 -0.021088 0.0038677 -7.3451e-05 0.0018701
0.0015696 0.00066363 0.0012865 0.00092816
0.00074898 0.0042278 -0.021102 0.0039691 0.34138 0.11398 0.00089752 -0.00082144
0.00057688 -0.00035178 0.00020018 0.00023603
-0.001846 -0.00071758 -8.393e-05 0.0018794 0.00090623 -0.00081695 0.14103 0.23728
-0.0068453 -0.014213 0.0013897 -0.00023018
0.0014338 0.0024687 0.0015915 0.00067442 0.00060943 -0.0003475 -0.0068692 -0.014215
0.066313 0.21828 -0.0027342 -0.012663
0.0015622 -0.0014561 0.0013038 0.00090735 0.00021931 0.00025594 0.001361 -0.000209
-0.0027588 -0.012653 0.070231 0.319
1400000000 0.25386 0.19373 -0.022999 -0.0076418 0.0047916 0.0030169 -0.0019936 0.00067826
0.0023551 0.00063703 0.00018102 -0.0012691
-0.02298 -0.0076466 0.081743 0.35895 -0.014643 0.01183 0.0012794 0.0012578
0.00093989 -0.00069676 0.001185 0.0003346
0.0048077 0.0030261 -0.014616 0.011913 0.35454 0.059851 0.00013477 -0.0013606
2.5732e-05 -0.00035791 0.0003004 0.0001974
-0.0019924 0.0006986 0.0012881 0.0012527 0.00011139 -0.0013519 0.17088 0.20898
-0.011751 -0.0086505 -0.00070373 -0.0010397
0.0023301 0.00061128 0.00091738 -0.00069539 2.105e-06 -0.00032569 -0.011771 -0.0086378
0.099229 0.21303 -0.0088795 -0.008281
0.00019509 -0.001241 0.0012167 0.00033178 0.0003094 0.0002201 -0.00069804 -0.0010385
-0.0088947 -0.0082785 0.11594 0.30854
1460000000 0.27611 0.14961 -0.02028 0.0042502 0.005276 -0.0015735 -0.0015337 0.0016852
0.0018315 -0.00068404 -0.00026884 -0.00079582
-0.020253 0.0042272 0.11584 0.33723 -0.0063793 0.014716 0.0016759 0.00017012
0.00088772 -0.0010792 0.0011779 -0.00062031
0.0052621 -0.0016044 -0.0062992 0.014751 0.36031 0.0047944 -0.0010265 -0.0012078
0.00026217 -0.00013518 0.00069286 -0.00043915
-0.0015271 0.0016902 0.0016585 0.00016469 -0.0010065 -0.0012163 0.19788 0.17997
-0.012759 -0.0035892 -0.0013311 0.0014051
0.0018207 -0.00069877 0.00087107 -0.0010849 0.00030305 -0.00013974 -0.012785 -0.0035368
0.12881 0.19766 -0.010547 -0.003181
-0.00028766 -0.00080083 0.0011917 -0.0006078 0.00069985 -0.00041778 -0.0013386 0.0013891
-0.01054 -0.0031849 0.14975 0.2877
1520000000 0.28781 0.10789 -0.014889 0.0098994 0.0030489 -0.003921 0.00010683 0.0025682
0.0016885 -0.0015674 -0.0010921 -0.00020895
-0.014886 0.0098762 0.14938 0.32244 0.0010499 0.012878 0.0015786 -0.00077289
0.00014975 -0.00092511 0.00033243 -0.0010256
0.0030434 -0.0039276 0.0011158 0.012904 0.35295 -0.051938 -0.00089456 -0.00038628
0.00054231 -0.00073807 -2.1207e-05 -8.5863e-05
0.00012624 0.0025529 0.0015692 -0.00078336 -0.00090722 -0.00038396 0.22186 0.14176
-0.012798 0.0010008 0.00081 0.0018084
0.0016803 -0.0015678 0.00013588 -0.00092154 0.00056737 -0.00074737 -0.012794 0.0010209
0.15665 0.1829 -0.010987 0.00071183
-0.0011255 -0.00018817 0.00030279 -0.0010498 -3.3649e-05 -9.4662e-05 0.00081465 0.0017871
-0.01099 0.00071265 0.18384 0.26803
1580000000 0.29679 0.061569 -0.0084737 0.013151 -0.0009034 -0.0045594 0.0013708 0.0018508
-0.00042015 -0.0019458 -0.00034415 0.00036072
-0.0084889 0.013136 0.17669 0.29764 0.0047258 0.0083584 0.0004463 -0.001508
-0.00040471 -0.0010343 -0.00025484 -0.00085556
-0.00092387 -0.0045679 0.0047757 0.0083383 0.33194 -0.10944 -0.0014854 0.00041602
-0.00021142 -0.0010681 0.00010884 -0.00051868
0.0013734 0.0018383 0.00044144 -0.0015101 -0.0015019 0.00041216 0.23667 0.10168
-0.010565 0.0052532 0.0016514 0.00074126
-0.00041564 -0.001941 -0.00041512 -0.0010355 -0.00022037 -0.0010456 -0.01058 0.0052931
0.18083 0.16452 -0.0090167 0.0059886
-0.00038098 0.00032797 -0.00026072 -0.00086427 0.00013212 -0.00050714 0.0016634 0.00073602
-0.0089974 0.0059792 0.21659 0.24106
1640000000 0.29841 0.019859 -0.0018772 0.012372 -0.0025323 -0.0023688 0.002548 0.001009
-0.00068292 -0.0011282 -0.00033722 0.0006418
-0.0018949 0.01237 0.20624 0.27229 0.0055575 0.0037696 -0.0006801 -0.0016085
-0.00099158 -0.00047316 -0.00051837 -0.00064641
-0.0025713 -0.0024089 0.0055854 0.0037323 0.30327 -0.1587 -0.00088344 0.0012856
-0.0010103 -0.0008563 -0.00015606 -0.00028492
0.0025613 0.00099215 -0.00069592 -0.0016049 -0.00091158 0.0012778 0.24934 0.051537
-0.0074325 0.0067122 0.0020964 -0.00054696
-0.00070178 -0.0011364 -0.00099776 -0.00047367 -0.001001 -0.00085161 -0.0074112 0.0067459
0.20368 0.13931 -0.0048249 0.00834
-0.00034974 0.00064795 -0.00053658 -0.00063653 -0.00013721 -0.00029324 0.0020993 -0.00055913
-0.004828 0.008342 0.24289 0.20961
1700000000 0.29054 -0.025672 0.0016799 0.0098657 -0.0033245 0.00011664 0.0029008 -0.0010718
-0.0017579 -0.00048419 0.00060493 0.00046331
0.0016794 0.0098706 0.22429 0.24044 0.0038061 0.00098509 -0.0013148 -0.00057727
-0.00081435 2.9387e-05 -0.00093192 -0.00041878
-0.0032839 0.00013486 0.0038162 0.00098713 0.25895 -0.19796 0.00032361 0.0015692
-0.0016676 -0.00035575 -0.00051578 -0.00094487
0.0029129 -0.0010995 -0.0013167 -0.00056983 0.00032653 0.0015326 0.24572 0.00033941
-0.0053748 0.0077467 0.0012812 -0.0018275
-0.0017617 -0.00045453 -0.0008191 3.1395e-05 -0.0016872 -0.00034048 -0.0053506 0.0077671
0.22131 0.11776 -0.00059344 0.0089855
0.00062965 0.00047203 -0.00092432 -0.00040797 -0.00052554 -0.00093485 0.001298 -0.0018421
-0.00060072 0.0089839 0.25972 0.17492
1760000000 0.27742 -0.074316 0.0043044 0.0067436 -0.0021285 0.00079803 0.0013914 -0.0032888
-0.0010337 0.00056858 0.0003847 -0.0004542
0.0042869 0.0067456 0.25002 0.20013 0.0017904 -0.00077438 -0.0010839 0.00012947
-0.0011058 0.00089998 -0.00059729 0.00052039
-0.0021448 0.00080755 0.0017899 -0.00077806 0.20997 -0.23056 0.0010926 0.0012571
-0.001215 0.0012897 -0.0012976 -0.00042937
0.0013554 -0.0033086 -0.001088 0.0001319 0.0011013 0.0012384 0.23521 -0.052056
-0.0025015 0.0077117 -0.00040284 -0.0019867
-0.0010021 0.00058477 -0.0010873 0.00090665 -0.0012174 0.0012868 -0.0024723 0.0077165
0.23624 0.081259 0.0030509 0.0065763
0.00038734 -0.0004476 -0.00058925 0.000526 -0.0012831 -0.00042655 -0.00039404 -0.001974
0.0030508 0.0065853 0.27226 0.13718
1820000000 0.25185 -0.11152 0.0048378 0.0030955 -2.5791e-05 0.0023396 -0.0008676 -0.0030405
-0.00089811 0.00063099 9.4459e-05 -0.00015495
0.0048167 0.0030706 0.25948 0.16973 -9.6585e-05 0.00018177 -0.0013405 0.00078638
-3.169e-05 0.0013746 -0.00051181 0.00049535
3.4782e-06 0.0023391 -8.1467e-05 0.00017105 0.1598 -0.24573 0.0015778 0.00044963
-0.00042916 0.0021266 -0.0014344 0.00040903
-0.00084532 -0.0030407 -0.0013325 0.00079503 0.0015779 0.00045315 0.20354 -0.09952
-0.0009494 0.0065114 -0.0014897 -0.0012963
-0.00090059 0.00064726 -2.1387e-05 0.0013773 -0.00039371 0.0021214 -0.00092385 0.0065187
0.25249 0.049938 0.0041771 0.0034657
6.1096e-05 -0.00016746 -0.00049428 0.00049107 -0.0013763 0.00046211 -0.0014902 -0.0012737
0.0041547 0.0034631 0.27486 0.1011
1880000000 0.2158 -0.15105 0.0028037 0.0006169 -0.00036659 0.0020451 -0.0028258 -0.0022153
-0.00034551 0.0014422 0.00032054 -0.00060621
0.0027953 0.00062142 0.2634 0.12307 -0.0019687 0.0017205 -0.00024634 0.001677
0.00067206 0.001299 0.00021739 0.00099122
-0.00032413 0.0020384 -0.0019465 0.0017397 0.10824 -0.25499 0.0018637 -0.00090892
0.0013482 0.0020924 -0.00088953 0.001441
-0.0028143 -0.0021971 -0.00024266 0.0016757 0.0018505 -0.00094387 0.16153 -0.1387
-0.0002736 0.0052007 -0.0020999 0.00081403
-0.00033048 0.0014499 0.0006841 0.0012764 0.0013759 0.0020847 -0.00026956 0.0052167
0.25389 0.01512 0.0039692 0.001795
0.0003223 -0.00062803 0.00022864 0.00097097 -0.00088757 0.0013854 -0.0020895 0.00081895
0.0039731 0.0017997 0.27492 0.067096
1940000000 0.17579 -0.17602 0.00054109 -0.0014361 0.0012906 0.0018605 -0.0037547 0.00050989
0.0011792 0.0010779 -0.00067083 -0.000662
0.00051008 -0.0014228 0.26334 0.091214 -0.00087923 0.0038154 0.00090073 0.0013951
0.0019642 0.0004803 0.00083151 0.00023975
0.0013138 0.0018206 -0.00085829 0.0038401 0.06224 -0.24865 0.0003146 -0.0023008
0.0024702 0.00060852 0.00033629 0.0015882
-0.0037927 0.00050938 0.00090056 0.0013941 0.00027486 -0.0023048 0.1082 -0.16747
-0.0011399 0.0044137 -0.0010355 0.0016723
0.0011927 0.0010697 0.0019642 0.0004686 0.0024701 0.00058974 -0.0011207 0.0044294
0.2532 -0.025589 0.0030699 -0.001241
-0.00069689 -0.00068174 0.00081783 0.00023922 0.00030899 0.0016211 -0.0010151 0.0016632
0.0030914 -0.0012272 0.26413 0.031435
2000000000 0.12936 -0.18958 -0.0034371 0.00037891 0.0023421 0.0015524 -0.0022736 0.0035507
0.001032 0.0003244 -0.00076127 0.00041212
-0.0034492 0.00037044 0.24857 0.055891 -0.0007434 0.0055184 0.0016976 0.00036299
0.0014101 -0.0014652 0.00051947 0.00015032
0.0023141 0.0015743 -0.00071224 0.0055273 0.018964 -0.23409 -0.0013877 -0.0014227
0.0021537 -0.0012014 0.0016888 0.0013005
-0.0022771 0.0035813 0.0016951 0.00034311 -0.0014048 -0.0013879 0.054924 -0.17583
-0.0024305 0.0046817 0.0002482 0.0021035
0.0010407 0.00036068 0.001383 -0.0014757 0.0021786 -0.0011655 -0.0023886 0.0046943
0.24395 -0.060771 0.00013681 -0.0019992
