!Keysight Technologies,M9804A,MY58100912,A.14.10.03
!Date: Thursday, April 27, 2023 10:28:33
!Correction: S11(C  6-Port  ) 
!S12(C  6-Port  ) 
!S13(C  6-Port  ) 
!S14(C  6-Port  ) 
!S15(C  6-Port  ) 
!S16(C  6-Port  ) 
!S21(C  6-Port  ) 
!S22(C  6-Port  ) 
!S23(C  6-Port  ) 
!S24(C  6-Port  ) 
!S25(C  6-Port  ) 
!S26(C  6-Port  ) 
!S31(C  6-Port  ) 
!S32(C  6-Port  ) 
!S33(C  6-Port  ) 
!S34(C  6-Port  ) 
!S35(C  6-Port  ) 
!S36(C  6-Port  ) 
!S41(C  6-Port  ) 
!S42(C  6-Port  ) 
!S43(C  6-Port  ) 
!S44(C  6-Port  ) 
!S45(C  6-Port  ) 
!S46(C  6-Port  ) 
!S51(C  6-Port  ) 
!S52(C  6-Port  ) 
!S53(C  6-Port  ) 
!S54(C  6-Port  ) 
!S55(C  6-Port  ) 
!S56(C  6-Port  ) 
!S61(C  6-Port  ) 
!S62(C  6-Port  ) 
!S63(C  6-Port  ) 
!S64(C  6-Port  ) 
!S65(C  6-Port  ) 
!S66(C  6-Port  ) 
!S6P File: Measurement: :
# Hz S  RI   R 50
500000000 -0.33663 -0.03335 -0.0095406 -0.0038246 -0.0077061 0.011476 -0.0031505 0.011686
0.012605 0.004275 -0.0036538 0.0084733
-0.0095325 -0.0035306 -0.41913 -0.048627 0.0075706 -0.011629 0.0014892 0.011552
0.0075328 0.002311 0.00084674 0.012962
-0.0077723 0.011617 0.0075363 -0.011664 -0.26364 0.21152 0.006866 0.0029726
-0.00015325 0.0082467 0.00060111 0.011964
-0.00326 0.011884 0.0013451 0.011532 0.0067955 0.0030526 -0.327 0.04859
-0.019074 -0.0046853 0.017643 0.026139
0.012676 0.0043715 0.0076415 0.0022217 -6.5392e-05 0.0084354 -0.019014 -0.0044384
-0.22643 -0.18079 -0.027312 0.004896
-0.0036156 0.0085649 0.00063112 0.01276 0.0003263 0.011905 0.017916 0.025828
-0.027274 0.0052479 -0.26988 -0.13494
560000000 -0.31559 0.12619 -0.023342 -0.062681 -0.00012011 0.012132 0.0062638 0.0094998
0.010193 0.0039913 0.009934 0.0073999
-0.023253 -0.062601 -0.37636 0.10914 -0.041613 -0.036577 0.013153 0.0035745
-0.012902 -0.0041038 0.0041915 -0.00074143
2.7551e-05 0.011974 -0.041875 -0.03664 -0.18228 0.25847 -0.00068429 -0.0051737
0.018774 0.00345 0.0069448 -0.0062478
0.0063319 0.0095493 0.013299 0.0033687 -0.00084706 -0.0049857 -0.30228 0.13637
0.0037373 -0.024658 0.0053046 -0.019412
0.010714 0.0038659 -0.013244 -0.0041522 0.019076 0.0034843 0.0039063 -0.024474
-0.28468 -0.0086405 0.0076074 -0.050743
0.0096271 0.0076239 0.0043756 -0.0011235 0.0069704 -0.0058877 0.0054025 -0.019736
0.0075192 -0.050741 -0.33384 0.014453
620000000 -0.27245 0.11055 -0.022983 0.0069514 0.0035463 0.0079771 0.006569 -0.0056543
0.011335 -0.00096645 -0.00047582 -0.0020091
-0.023038 0.0069005 -0.40226 0.063476 -0.019036 -0.00028371 -0.0014153 -0.0020512
0.0098777 -0.0072897 0.0010194 -0.0026001
0.0036804 0.0080713 -0.019031 -0.00031978 -0.15256 0.26798 -0.0018205 -0.004967
-0.0039366 -0.0035689 0.0083394 -0.0033534
0.0068226 -0.0056195 -0.0014252 -0.0021044 -0.0018135 -0.0051002 -0.26107 0.14643
-0.038036 -0.018708 0.013726 0.023667
0.011087 -0.0011409 0.0099111 -0.0072371 -0.003912 -0.0034534 -0.037859 -0.018758
-0.20599 -0.046184 -0.040656 0.015417
-4.8931e-06 -0.0019933 0.0011136 -0.0027658 0.0081726 -0.0035506 0.013589 0.023527
-0.040686 0.015496 -0.24977 -0.025456
680000000 -0.23244 0.19363 -0.028002 -0.014143 0.0047727 0.0050747 0.001114 -0.0075644
-0.0034563 -0.010897 0.0043532 -0.0068049
-0.027847 -0.014128 -0.38696 0.16014 -0.033002 -0.0011358 -0.0016869 -0.00012483
-0.0028511 -0.0087824 -0.0011686 -0.0020803
0.0047087 0.0050416 -0.033051 -0.0011229 -0.10208 0.2875 -0.0006665 0.00030492
-0.0023614 0.00090086 -0.0029068 -0.0096162
0.0011023 -0.0075083 -0.0016759 -0.00026323 -0.00058727 0.00029904 -0.21836 0.19543
-0.023686 -0.0087003 -0.010602 -0.010842
-0.0035933 -0.010901 -0.0029464 -0.0086765 -0.0023747 0.00089329 -0.023813 -0.0086227
-0.25101 0.050248 -0.0053685 -0.0095879
0.0043718 -0.006848 -0.0011267 -0.0020691 -0.0029152 -0.0095417 -0.010717 -0.01081
-0.0054215 -0.0094617 -0.26259 0.082957
740000000 -0.18903 0.18848 -0.038613 0.02634 0.01237 -0.0052192 -0.00082531 -0.0039247
-0.004472 -0.0026609 -0.0060819 0.0034376
-0.038502 0.026313 -0.33507 0.179 -0.034717 0.034947 -0.00080899 -0.0061956
-0.011032 0.0086221 -0.0027992 -0.006136
0.012468 -0.0053192 -0.03473 0.035061 -0.068323 0.28679 -0.0014343 0.0032651
-0.002756 -0.0038743 -0.0010398 0.00014137
-0.00073025 -0.0040701 -0.00087498 -0.006242 -0.0013166 0.0032556 -0.20197 0.20326
-0.042367 -0.0078284 0.022155 0.01304
-0.004582 -0.0025076 -0.011035 0.0085044 -0.0027061 -0.0037762 -0.042313 -0.0078054
-0.1566 0.072615 -0.042099 0.00043151
-0.0059803 0.0033477 -0.0028115 -0.0063261 -0.00095917 0.00016536 0.022166 0.013083
-0.042238 0.00027931 -0.25571 0.087776
800000000 -0.15718 0.22876 -0.022543 0.017224 0.0052083 -0.010504 -0.0048707 -0.0021011
-0.0038261 0.0032639 0.0046239 0.00079346
-0.022535 0.017218 -0.3372 0.24915 -0.0077078 0.034035 -0.0020375 0.0021686
-0.00039276 0.0035881 0.0012407 0.0053827
0.0051365 -0.01052 -0.0076229 0.034073 -0.02704 0.30975 0.0012569 0.0013573
0.0007774 0.0034984 -0.0017958 0.00089561
-0.0048756 -0.0021173 -0.0020383 0.0021613 0.0012554 0.0013713 -0.17403 0.23097
-0.028566 0.012456 0.013251 -0.0099576
-0.003858 0.0031871 -0.00044524 0.0035421 0.00075989 0.0034477 -0.028494 0.012506
-0.19984 0.097854 -0.018037 0.017466
0.0044989 0.00079375 0.0011546 0.0052392 -0.0017839 0.00083897 0.013281 -0.010002
-0.018098 0.017478 -0.24835 0.14284
860000000 -0.12246 0.25012 -0.017103 0.031357 -0.0035023 -0.0096246 -0.0027147 0.001374
0.0042942 0.0049977 -0.0030206 -0.0030117
-0.017095 0.031263 -0.28908 0.29118 0.0082575 0.034034 0.00037096 0.0020249
0.004539 7.9417e-05 0.0031646 0.00031141
-0.0034985 -0.00962 0.0083877 0.034053 0.021653 0.31748 -0.00030408 -0.00026386
0.0027631 -0.0015923 0.0014839 0.0044797
-0.0026923 0.0013948 0.00032285 0.0020731 -0.00035295 -0.00032725 -0.1383 0.24322
-0.01819 0.018848 -0.0063424 -0.0092968
0.0043293 0.0050424 0.0045903 -2.0198e-05 0.002759 -0.0016452 -0.018197 0.018895
-0.15126 0.14601 -0.024669 0.015604
-0.0031805 -0.002939 0.0032182 6.7527e-05 0.0014183 0.0044724 -0.0063391 -0.0092944
-0.024657 0.015628 -0.19705 0.18706
920000000 -0.096856 0.2734 0.005193 0.037914 -0.0093011 -0.0039755 -0.0017325 0.0023926
0.0012763 0.0013806 0.002397 -0.0012494
0.0051693 0.037865 -0.25996 0.31213 0.027934 0.021665 0.0016057 0.0011083
0.0065487 -0.00083786 0.0036695 -0.0029292
-0.0092936 -0.0039474 0.028012 0.021598 0.068138 0.31762 0.0017264 -0.0001032
0.0011985 -0.00050625 0.00078742 -0.0009303
-0.0017163 0.0023928 0.0015964 0.0011149 0.0017159 -6.4041e-05 -0.11384 0.25945
-0.010625 0.030039 0.0026512 -0.006331
0.001412 0.0014319 0.0065342 -0.00087697 0.0012012 -0.00053028 -0.010596 0.030102
-0.14064 0.15244 -0.0020339 0.027605
0.0023614 -0.0014198 0.0036916 -0.0028973 0.00082742 -0.00094265 0.0025959 -0.0062803
-0.002064 0.027619 -0.20592 0.20065
980000000 -0.04905 0.29281 0.017906 0.029865 -0.008589 0.004788 0.0025114 0.0037162
0.0038346 -0.0017191 -0.0029711 -0.0019624
0.017867 0.029852 -0.20698 0.34546 0.032639 0.0045151 0.0019137 -7.8721e-05
0.00090478 -0.0060265 -0.00056846 -0.0021353
-0.008578 0.0048184 0.032681 0.0043958 0.11437 0.31046 0.00043225 -0.0011285
2.9018e-05 -0.0019984 0.0016638 8.6105e-06
0.0025065 0.0036962 0.0018926 -9.488e-05 0.000449 -0.0011338 -0.075251 0.27081
0.0073797 0.028692 -0.0093578 -0.0066146
0.0038617 -0.0017016 0.00088369 -0.0060718 8.0108e-05 -0.002023 0.0074503 0.028737
-0.1091 0.17989 0.0046362 0.018866
-0.0029996 -0.0019566 -0.00058398 -0.002083 0.0016744 1.1484e-06 -0.0094098 -0.0065757
0.0046919 0.01891 -0.16252 0.24773
1040000000 -0.0058221 0.30076 0.033234 0.017613 -0.00091057 0.0068411 0.0028731 0.00060032
-6.2668e-05 -0.0036405 -0.00045706 -0.0014393
0.0332 0.017657 -0.17105 0.35825 0.028765 -0.014775 0.0014333 -0.0016995
-0.0026257 -0.0021308 -0.0014338 -0.0026877
-0.00091471 0.0068373 0.028753 -0.014889 0.16034 0.29635 -0.00047484 -0.00137
-0.001487 -0.00078657 -0.00032429 -0.0012108
0.0028538 0.00061989 0.0014256 -0.001693 -0.00046535 -0.0013867 -0.047646 0.28083
0.017978 0.017212 -0.002828 0.0023675
-0.00014402 -0.0036604 -0.0026603 -0.002146 -0.0014691 -0.00078946 0.018043 0.017218
-0.078181 0.18918 0.013201 0.018182
-0.00048546 -0.0015021 -0.001373 -0.0027202 -0.00033341 -0.0012086 -0.0027761 0.0023807
0.013199 0.018207 -0.14247 0.26934
1100000000 0.039918 0.30768 0.035533 -0.0045231 0.0030618 0.0036305 0.0025489 -0.0015084
-0.0020436 -0.0029377 -0.0039135 0.00010297
0.035499 -0.0044905 -0.12736 0.37492 0.014713 -0.027339 2.3501e-06 -0.0017889
-0.0028818 -0.00031849 -0.0033806 -0.00051466
0.0030615 0.0036255 0.014642 -0.027401 0.2063 0.27576 -0.001719 0.00026663
-0.0015548 0.00067193 -0.00092562 -0.00046826
0.0025606 -0.0015341 -1.7892e-05 -0.0018082 -0.0017215 0.00024916 -0.0069673 0.2855
0.022484 0.0053308 -0.0021156 0.0010065
-0.0020877 -0.002914 -0.0028769 -0.00030556 -0.0015305 0.00065866 0.022523 0.0052731
-0.059143 0.20219 0.018653 0.0086429
-0.0038984 0.00010884 -0.0033826 -0.0005446 -0.00092091 -0.0004606 -0.002137 0.0010354
0.018683 0.008635 -0.095345 0.29933
1160000000 0.091642 0.30187 0.023606 -0.020654 0.0027802 -0.00067207 -0.00022583 -0.0026201
-0.0039577 -0.00042812 -0.0010298 0.0039519
0.023593 -0.020628 -0.083584 0.3785 -0.0037071 -0.028475 -0.0017364 -0.0015666
-0.0022388 0.0025244 -0.0013019 0.0016309
0.002766 -0.00068767 -0.0038083 -0.028473 0.24908 0.2449 -0.00055898 0.0016298
-0.00041181 0.0017188 -0.0011195 8.9534e-05
-0.00022407 -0.0025959 -0.0017561 -0.0015806 -0.0006064 0.0016204 0.032466 0.28235
0.019298 -0.0092453 -0.0025844 0.0054754
-0.0040083 -0.00043837 -0.0022346 0.0024924 -0.0003862 0.0017196 0.019274 -0.0092455
-0.025258 0.21138 0.017406 0.0010016
-0.00095407 0.0039683 -0.0012624 0.0016765 -0.0010751 8.8549e-05 -0.0025483 0.00544
0.017383 0.0010204 -0.048098 0.30214
1220000000 0.136 0.28959 0.010175 -0.029682 -0.0014964 -0.00097698 -0.00020853 -0.0011063
-0.002445 0.0025312 0.0012878 0.0018012
0.010202 -0.029643 -0.039561 0.38978 -0.016477 -0.020633 -0.0024469 0.00042821
0.0002495 0.0026933 -0.00069248 0.0017293
-0.001504 -0.00096135 -0.016562 -0.020574 0.28815 0.20604 0.00082549 0.0014841
0.0005078 0.0011012 0.00024793 0.0007632
-0.00020409 -0.0010932 -0.0024451 0.00045741 0.00081716 0.0014974 0.071957 0.27358
0.009456 -0.014904 0.0029449 0.0015962
-0.0024238 0.0025306 0.00025218 0.0027149 0.00048648 0.0011167 0.0094266 -0.01492
-0.0012689 0.22039 0.01361 -0.011979
0.0013114 0.001825 -0.00069933 0.0017568 0.00021628 0.00075087 0.0029528 0.0015771
0.013599 -0.01197 -0.016698 0.32064
1280000000 0.18524 0.26672 -0.0077331 -0.027991 -0.0018592 0.002284 -0.0011286 -0.0019083
-0.00053845 0.0029511 0.0025026 0.0009708
-0.0077086 -0.027966 0.0059186 0.38044 -0.023027 -0.0083549 -0.00097647 0.0014012
0.0014818 0.0014703 0.00050512 0.0019158
-0.0018436 0.0023183 -0.023092 -0.0082705 0.31899 0.16218 0.0012991 -0.00015462
0.00093304 0.00014583 0.00027598 0.00043296
-0.0011441 -0.001898 -0.00098631 0.0013965 0.0012973 -0.00015065 0.10826 0.25735
0.0011086 -0.016678 0.00062235 -7.2698e-05
-0.00055296 0.0029701 0.0015161 0.0014588 0.00092156 0.00016828 0.0010616 -0.016704
0.035884 0.22354 0.0032266 -0.013832
0.0025186 0.00095273 0.00052998 0.0019367 0.00031169 0.00042904 0.00060678 -6.0657e-05
0.0032426 -0.013831 0.031353 0.32257
1340000000 0.22165 0.23231 -0.01731 -0.018785 0.00072528 0.0042045 -0.0018481 -0.00069209
0.0014293 0.0024538 0.0015972 -0.0014793
-0.017283 -0.018798 0.045034 0.37202 -0.021078 0.003889 -7.7066e-05 0.0018974
0.0015894 0.00066223 0.0012869 0.00087535
0.00075233 0.0041902 -0.021088 0.0039784 0.34139 0.11399 0.00089981 -0.00079166
0.00060454 -0.00037336 0.00018649 0.00022893
-0.0018525 -0.00068751 -8.2673e-05 0.0019019 0.00090942 -0.00080724 0.14108 0.23729
-0.0068899 -0.014237 0.0013242 -0.00020271
0.0014438 0.0024659 0.0015867 0.00063756 0.00058414 -0.00037447 -0.0069199 -0.014202
0.066369 0.21832 -0.0028061 -0.012683
0.0015453 -0.0014816 0.0012719 0.00086541 0.00021885 0.00023294 0.0013677 -0.00021151
-0.0027742 -0.012669 0.070526 0.31893
1400000000 0.2539 0.19364 -0.022987 -0.0076163 0.0048363 0.0030319 -0.001995 0.0006923
0.0023066 0.00063654 0.00021922 -0.0012544
-0.022956 -0.0076334 0.081812 0.35898 -0.014656 0.011838 0.0012757 0.0012513
0.00093056 -0.00071471 0.001194 0.00033459
0.0048299 0.0030299 -0.014608 0.01193 0.35455 0.059762 0.00010873 -0.0013733
3.9048e-05 -0.00034576 0.00029082 0.00022841
-0.0019933 0.00069337 0.0012672 0.0012536 0.00012157 -0.0013725 0.17095 0.20899
-0.011761 -0.0086185 -0.00070059 -0.0010582
0.0023105 0.00061353 0.00091765 -0.0007209 4.5016e-05 -0.0003423 -0.011801 -0.0085952
0.099351 0.21301 -0.0089001 -0.0082677
0.00022961 -0.0012782 0.0011692 0.00029292 0.00028578 0.00024894 -0.0007268 -0.0010287
-0.0089 -0.0082927 0.11602 0.30847
1460000000 0.27613 0.14954 -0.020264 0.0042428 0.0053135 -0.0016121 -0.0015292 0.0016851
0.0018237 -0.00069635 -0.00027669 -0.00078254
-0.020248 0.0042272 0.1159 0.33725 -0.0063571 0.014725 0.0016504 0.0001788
0.00086133 -0.0010851 0.0012053 -0.0005994
0.0052903 -0.0016269 -0.0062732 0.014766 0.36024 0.0048168 -0.0010245 -0.0012146
0.00030274 -0.00011579 0.00066602 -0.00037827
-0.0015315 0.0016861 0.0016667 0.0001666 -0.0010156 -0.0012201 0.19795 0.17991
-0.012835 -0.003536 -0.0012876 0.0013671
0.0018119 -0.00068248 0.00086981 -0.0010968 0.00027793 -0.00011414 -0.012826 -0.0034976
0.12892 0.19764 -0.010577 -0.0031788
-0.00029958 -0.00079383 0.0011948 -0.00062708 0.00066905 -0.00039928 -0.0012951 0.0013913
-0.010557 -0.0031833 0.14988 0.28773
1520000000 0.28776 0.1079 -0.014865 0.009906 0.0030467 -0.0039141 0.00010286 0.0025631
0.0016918 -0.0015535 -0.0011245 -0.00018115
-0.014855 0.0098916 0.14942 0.32244 0.0010328 0.012886 0.0015885 -0.00077388
0.00014815 -0.00090916 0.00032358 -0.0010213
0.0030334 -0.0039348 0.0011034 0.012892 0.35291 -0.051917 -0.00090431 -0.00038579
0.00054361 -0.00074841 -5.1859e-06 -8.7883e-05
9.6724e-05 0.0025452 0.0015725 -0.00077678 -0.00090811 -0.0003835 0.22189 0.14169
-0.012783 0.0010344 0.00081985 0.0018104
0.0016777 -0.0015651 0.0001474 -0.00092128 0.00057943 -0.00072401 -0.012802 0.001067
0.15676 0.18286 -0.010964 0.00070755
-0.0011457 -0.00019588 0.00029468 -0.0010248 -1.4641e-05 -6.2942e-05 0.00083007 0.001805
-0.010963 0.00070479 0.18399 0.26793
1580000000 0.29684 0.061513 -0.0084656 0.013148 -0.00092548 -0.0045785 0.0013731 0.001846
-0.00041481 -0.0019404 -0.00036487 0.00034512
-0.0084648 0.013132 0.17677 0.29762 0.0047193 0.008319 0.00045543 -0.001504
-0.00039622 -0.0010577 -0.00025482 -0.00087192
-0.00095679 -0.0045856 0.0047712 0.0083054 0.33202 -0.10955 -0.0015069 0.0004447
-0.00022972 -0.0010576 0.00010769 -0.00050593
0.0013786 0.0018547 0.0004366 -0.0015168 -0.0015031 0.00044117 0.23671 0.10157
-0.010566 0.0053154 0.0016634 0.00073684
-0.00042053 -0.0019304 -0.00040923 -0.0010539 -0.00025349 -0.0010618 -0.010545 0.0053345
0.18095 0.16446 -0.0089942 0.0060307
-0.00035227 0.00032473 -0.0002468 -0.00086707 9.9083e-05 -0.00052935 0.0016645 0.00073738
-0.0090016 0.0060255 0.21666 0.24101
1640000000 0.29844 0.019798 -0.0018624 0.012362 -0.002525 -0.0023772 0.0025551 0.0010027
-0.00067658 -0.001162 -0.00035039 0.00065055
-0.0018839 0.012352 0.2063 0.27227 0.0055819 0.0037679 -0.00067903 -0.0015982
-0.0009851 -0.00048262 -0.00052574 -0.00064471
-0.0025426 -0.0023702 0.0055971 0.0037472 0.30306 -0.15862 -0.00087151 0.0012831
-0.0010093 -0.00084499 -0.00010448 -0.00029695
0.0025674 0.00098918 -0.00068412 -0.0015975 -0.00088449 0.0012697 0.24933 0.051438
-0.0073941 0.0067344 0.0021057 -0.00058148
-0.00067649 -0.0011467 -0.00099969 -0.00046671 -0.0009916 -0.00083998 -0.0073736 0.0067662
0.20375 0.13924 -0.0047965 0.0083211
-0.00033441 0.00063478 -0.00053274 -0.00065323 -0.00012713 -0.00029162 0.0021123 -0.00057308
-0.0047951 0.0083249 0.24302 0.20955
1700000000 0.29055 -0.025768 0.0016955 0.0098584 -0.0032765 5.614e-05 0.0029161 -0.0010677
-0.0017737 -0.00045183 0.00059536 0.00043378
0.0016858 0.0098533 0.22433 0.24043 0.0038172 0.00099227 -0.0013291 -0.00058165
-0.00082614 2.0444e-05 -0.00090119 -0.0004259
-0.0032568 0.00010936 0.0038241 0.00096401 0.25909 -0.19805 0.00033501 0.0016135
-0.0016781 -0.00034599 -0.00050655 -0.00091755
0.0029152 -0.0010747 -0.001347 -0.00056081 0.00033201 0.0015953 0.24569 0.00030572
-0.0053161 0.0077504 0.0012948 -0.0018528
-0.0017556 -0.00042551 -0.00081922 3.05e-05 -0.0016914 -0.00034662 -0.0052934 0.0077683
0.22141 0.11765 -0.00054913 0.009001
0.00062525 0.00044229 -0.00093073 -0.00042943 -0.00053795 -0.00093521 0.0013129 -0.0018446
-0.00054853 0.0090004 0.25986 0.17485
1760000000 0.27748 -0.074485 0.004296 0.006728 -0.0021566 0.00077654 0.0013776 -0.0032941
-0.0010128 0.00056862 0.00039659 -0.00045964
0.0042964 0.0067301 0.25004 0.20008 0.0018036 -0.00082678 -0.0010806 0.00012204
-0.0010897 0.00088738 -0.00057867 0.00052773
-0.0021279 0.00079197 0.0017974 -0.00083622 0.21007 -0.23059 0.0010853 0.0013082
-0.0012295 0.0013395 -0.0013094 -0.00039303
0.0013471 -0.0033173 -0.001086 0.00013924 0.0011014 0.0013142 0.23518 -0.052079
-0.0024344 0.0076838 -0.00043941 -0.0019784
-0.001017 0.00056964 -0.0010943 0.00091137 -0.0012319 0.0013516 -0.0024258 0.0076847
0.23633 0.081124 0.003071 0.0065568
0.00038941 -0.00046654 -0.00059658 0.00053838 -0.0012921 -0.00043604 -0.00043313 -0.0019768
0.0030775 0.0065593 0.27241 0.13706
1820000000 0.2518 -0.11164 0.0048263 0.0030646 -1.0584e-05 0.0023637 -0.00083079 -0.0030696
-0.00089243 0.000622 8.4415e-05 -0.00013621
0.0048135 0.0030494 0.25951 0.16971 -0.0001089 0.00017186 -0.0013265 0.00080439
-3.5392e-05 0.0013808 -0.00049384 0.00050377
-2.2371e-05 0.0023491 -0.00010855 0.00017765 0.15991 -0.24588 0.0015759 0.00051317
-0.00038383 0.002145 -0.0013294 0.00042732
-0.00085317 -0.0030541 -0.0013136 0.00080351 0.0015722 0.00049676 0.20353 -0.099489
-0.00091425 0.0064251 -0.0014808 -0.0012818
-0.00086994 0.00065112 -1.0925e-05 0.0013799 -0.0003933 0.0021127 -0.00090054 0.0064411
0.25256 0.049815 0.0041976 0.0034614
8.9654e-05 -0.00013928 -0.00048996 0.00050728 -0.0013436 0.00039003 -0.0014645 -0.0012806
0.004197 0.0034545 0.27495 0.10094
1880000000 0.21566 -0.15117 0.0027992 0.00059953 -0.0002553 0.0020411 -0.0028094 -0.0022136
-0.00033813 0.0014746 0.00031333 -0.00058511
0.0027782 0.000607 0.26344 0.12304 -0.0019617 0.0017551 -0.00024652 0.0016948
0.00066255 0.0013028 0.00020163 0.00097849
-0.00024531 0.0020382 -0.0019536 0.0017697 0.10824 -0.2551 0.0018534 -0.00097061
0.0013671 0.0021326 -0.00092379 0.0014036
-0.0028107 -0.0022016 -0.0002432 0.0016847 0.0018482 -0.00095479 0.16157 -0.13867
-0.00032758 0.0051557 -0.0021507 0.00080393
-0.00032713 0.0014916 0.00068068 0.0013001 0.0013805 0.0021174 -0.00028704 0.0051488
0.25392 0.014969 0.003944 0.0017349
0.00028959 -0.00060683 0.00020165 0.00099808 -0.00089801 0.0014367 -0.0021369 0.00081559
0.0039357 0.0017359 0.27506 0.066905
1940000000 0.17568 -0.17611 0.00052535 -0.0014253 0.0012794 0.0018338 -0.0037888 0.00047973
0.0012034 0.0010786 -0.00067996 -0.00067081
0.000514 -0.0014214 0.26336 0.09118 -0.00084687 0.0038685 0.00088858 0.0013655
0.0019634 0.00047089 0.00085185 0.000224
0.001259 0.0018228 -0.00083741 0.0038489 0.062258 -0.24859 0.00023418 -0.002299
0.0024201 0.00057845 0.00040078 0.0016058
-0.0037809 0.00051665 0.00087794 0.00136 0.00026838 -0.0022864 0.10819 -0.16742
-0.0012365 0.0043598 -0.0010551 0.001678
0.0012081 0.0010848 0.0019845 0.00045937 0.0024174 0.00057985 -0.0012193 0.0043541
0.25318 -0.025719 0.0030728 -0.0012599
-0.0006845 -0.00069002 0.00086689 0.00020959 0.00036892 0.0016133 -0.001065 0.0016726
0.0030513 -0.0012516 0.26424 0.031298
2000000000 0.12923 -0.18958 -0.0034682 0.00036639 0.0022493 0.001553 -0.0023371 0.0035518
0.0010022 0.00034089 -0.00077695 0.00040389
-0.0034685 0.00035701 0.24861 0.055822 -0.00074902 0.0054321 0.0017017 0.00033752
0.0014433 -0.0014876 0.00049681 0.00013452
0.0022792 0.0015351 -0.00069304 0.0054504 0.018909 -0.23421 -0.0014069 -0.0013975
0.0021409 -0.0011692 0.0015948 0.0012797
-0.0022984 0.0035871 0.0017196 0.00032905 -0.0014372 -0.0013619 0.054994 -0.17576
-0.0024987 0.0046885 0.0002482 0.0020989
