!Keysight Technologies,M9804A,MY58100912,A.14.10.03
!Date: Thursday, April 27, 2023 10:28:33
!Correction: S11(C  6-Port  ) 
!S12(C  6-Port  ) 
!S13(C  6-Port  ) 
!S14(C  6-Port  ) 
!S15(C  6-Port  ) 
!S16(C  6-Port  ) 
!S21(C  6-Port  ) 
!S22(C  6-Port  ) 
!S23(C  6-Port  ) 
!S24(C  6-Port  ) 
!S25(C  6-Port  ) 
!S26(C  6-Port  ) 
!S31(C  6-Port  ) 
!S32(C  6-Port  ) 
!S33(C  6-Port  ) 
!S34(C  6-Port  ) 
!S35(C  6-Port  ) 
!S36(C  6-Port  ) 
!S41(C  6-Port  ) 
!S42(C  6-Port  ) 
!S43(C  6-Port  ) 
!S44(C  6-Port  ) 
!S45(C  6-Port  ) 
!S46(C  6-Port  ) 
!S51(C  6-Port  ) 
!S52(C  6-Port  ) 
!S53(C  6-Port  ) 
!S54(C  6-Port  ) 
!S55(C  6-Port  ) 
!S56(C  6-Port  ) 
!S61(C  6-Port  ) 
!S62(C  6-Port  ) 
!S63(C  6-Port  ) 
!S64(C  6-Port  ) 
!S65(C  6-Port  ) 
!S66(C  6-Port  ) 
!S6P File: Measurement: :
# Hz S  RI   R 50
500000000 -0.33634 -0.033896 -0.0095681 -0.0036441 -0.0076871 0.011694 -0.0033757 0.011653
0.012439 0.0044191 -0.0038053 0.0081953
-0.0096036 -0.003605 -0.41933 -0.048564 0.0075047 -0.011751 0.0014229 0.011413
0.0077091 0.0024104 0.00070489 0.012797
-0.007658 0.011751 0.0075011 -0.011771 -0.26402 0.21135 0.0068146 0.0029302
0.00018774 0.0083892 0.00055855 0.011719
-0.0033699 0.011643 0.0013754 0.011461 0.0068141 0.0029969 -0.32707 0.048565
-0.019093 -0.0042791 0.017723 0.025948
0.012413 0.0042286 0.007762 0.0024352 0.00024056 0.0084411 -0.018972 -0.0042665
-0.22692 -0.18198 -0.02751 0.0053276
-0.0038491 0.0082405 0.00048156 0.012808 0.000451 0.011853 0.017735 0.02587
-0.027553 0.0053776 -0.26962 -0.13559
560000000 -0.31549 0.12559 -0.023425 -0.063162 0.00022786 0.011816 0.0061444 0.009662
0.011025 0.0037584 0.0095232 0.0074217
-0.023385 -0.063084 -0.37653 0.10901 -0.041636 -0.036702 0.013662 0.0037949
-0.01336 -0.004448 0.0043834 -0.0010931
0.00024198 0.011799 -0.041769 -0.036621 -0.18227 0.25869 -0.00098377 -0.0047792
0.019221 0.0036913 0.0070312 -0.0060886
0.0061456 0.0095431 0.013678 0.0035485 -0.00087978 -0.0047661 -0.30193 0.13624
0.0041144 -0.024798 0.0052443 -0.01951
0.010827 0.0038485 -0.01326 -0.0041456 0.019075 0.0036249 0.004016 -0.024667
-0.28414 -0.0076877 0.0077248 -0.050838
0.0096226 0.0073114 0.0041509 -0.0010701 0.0071397 -0.0061272 0.0052555 -0.019652
0.0077605 -0.050917 -0.33381 0.014049
620000000 -0.27234 0.11038 -0.022972 0.0070024 0.0032255 0.0082629 0.0066813 -0.0057893
0.011161 -0.00037445 0.00032959 -0.0021866
-0.023006 0.0069611 -0.40244 0.06343 -0.019041 -0.00048243 -0.0013754 -0.0021272
0.010012 -0.0071247 0.00097879 -0.0025291
0.0032023 0.0082331 -0.019083 -0.00045642 -0.15205 0.26738 -0.0015604 -0.0049748
-0.0040673 -0.0035279 0.0081613 -0.0030569
0.0066995 -0.0058651 -0.0014164 -0.0021182 -0.0015471 -0.0049638 -0.26062 0.1464
-0.038219 -0.018889 0.013996 0.024327
0.011398 -0.0004885 0.0099941 -0.0071963 -0.0041471 -0.0036061 -0.038342 -0.018842
-0.20479 -0.046576 -0.040622 0.014718
0.00024339 -0.001888 0.00094519 -0.0026423 0.0083562 -0.0031288 0.014133 0.024272
-0.040703 0.014772 -0.25061 -0.025892
680000000 -0.2322 0.19361 -0.027887 -0.013984 0.0047248 0.0050396 0.0011391 -0.0075072
-0.0034816 -0.010759 0.0044066 -0.0067931
-0.027864 -0.014003 -0.38705 0.15997 -0.033023 -0.0012531 -0.0016992 -0.00011549
-0.0029331 -0.0086908 -0.0010856 -0.0019339
0.0047435 0.0050063 -0.033057 -0.0011691 -0.10207 0.28731 -0.00072449 0.00040103
-0.0023849 0.00097304 -0.0028592 -0.0095758
0.0011347 -0.0074748 -0.0017104 -0.0001247 -0.00075436 0.0003986 -0.21829 0.1954
-0.023669 -0.0085845 -0.010461 -0.010738
-0.0035268 -0.010722 -0.0029521 -0.0087543 -0.0023407 0.00097849 -0.023672 -0.0085713
-0.25084 0.050122 -0.0050486 -0.0098927
0.0044276 -0.0067667 -0.0010355 -0.0018825 -0.0028425 -0.0095111 -0.010463 -0.010705
-0.0049784 -0.0098605 -0.26303 0.08258
740000000 -0.18948 0.18856 -0.038402 0.026553 0.012311 -0.0051731 -0.00063942 -0.0038281
-0.0046637 -0.0024731 -0.0059976 0.003533
-0.038327 0.026398 -0.33507 0.1787 -0.034805 0.035011 -0.00083064 -0.0063301
-0.011022 0.0082212 -0.0032383 -0.0062036
0.012312 -0.005162 -0.03473 0.035089 -0.068385 0.28673 -0.0012761 0.0032791
-0.0025156 -0.0037916 -0.0011636 -0.00016441
-0.0005866 -0.0037954 -0.00091942 -0.006408 -0.0012691 0.0031954 -0.20218 0.20325
-0.042235 -0.0078831 0.021978 0.013033
-0.0043836 -0.002526 -0.011108 0.0082158 -0.0024864 -0.0038478 -0.042253 -0.0078134
-0.15624 0.072768 -0.042095 0.00077817
-0.0060599 0.0036943 -0.0031503 -0.0060358 -0.0012021 -6.3531e-05 0.021969 0.013071
-0.042098 0.00071225 -0.25525 0.087058
800000000 -0.15724 0.22881 -0.022514 0.017129 0.0051428 -0.010494 -0.0048976 -0.0020425
-0.0039609 0.0028039 0.0044539 0.00077252
-0.022522 0.017125 -0.33707 0.24912 -0.0077254 0.03407 -0.0020344 0.0021373
-0.0002618 0.0034063 0.0013441 0.0052425
0.0051135 -0.010475 -0.0076198 0.03412 -0.027025 0.30975 0.0012287 0.0013965
0.00074318 0.0034697 -0.0018739 0.00086482
-0.0048728 -0.0020595 -0.0020405 0.0021676 0.0012287 0.0014268 -0.17408 0.2309
-0.028652 0.012494 0.0132 -0.009965
-0.0039671 0.0027657 -0.00021072 0.0034706 0.00075231 0.0035202 -0.028654 0.012532
-0.1996 0.097409 -0.018146 0.017184
0.0046284 0.0007707 0.0012881 0.005278 -0.0019279 0.00086973 0.013233 -0.010024
-0.01805 0.017199 -0.24828 0.14254
860000000 -0.12241 0.25009 -0.01717 0.03119 -0.0034901 -0.0096597 -0.0026146 0.0014724
0.0043552 0.0050685 -0.00315 -0.0029461
-0.017166 0.031152 -0.28922 0.29116 0.0082527 0.034057 0.00024769 0.0020906
0.0045135 3.0516e-05 0.0033478 0.00020159
-0.0035076 -0.0096514 0.0083742 0.034051 0.021677 0.31749 -0.00037654 -0.00030895
0.0028154 -0.0015795 0.0014566 0.004555
-0.0026029 0.0014965 0.00025334 0.0021071 -0.00034711 -0.00028907 -0.13848 0.24312
-0.018243 0.018916 -0.006314 -0.009447
0.0043689 0.0050016 0.0045146 3.4523e-05 0.0028216 -0.0015519 -0.018188 0.018969
-0.15131 0.14634 -0.024856 0.015267
-0.0031248 -0.0029051 0.0033677 0.00018131 0.0014752 0.0045201 -0.0062959 -0.0093868
-0.024842 0.015235 -0.1971 0.1871
920000000 -0.096968 0.27338 0.0051661 0.03784 -0.0092839 -0.0040334 -0.0017713 0.0023988
0.0012929 0.0014968 0.0024468 -0.0013218
0.0051264 0.037801 -0.26014 0.31188 0.027906 0.02158 0.001577 0.0011318
0.0066181 -0.00071184 0.0037202 -0.0029736
-0.0093064 -0.004007 0.028014 0.021504 0.068122 0.31757 0.0017283 -8.217e-05
0.0011931 -0.0004671 0.00078122 -0.00091157
-0.0017335 0.0023773 0.0015628 0.0011199 0.0017314 -7.9196e-05 -0.11386 0.25941
-0.01063 0.029979 0.0026181 -0.0063865
0.0013104 0.0015168 0.0065852 -0.00072587 0.0011732 -0.00044371 -0.010571 0.030018
-0.14088 0.15242 -0.0019751 0.027674
0.0025104 -0.0013091 0.0036745 -0.0029746 0.00080072 -0.00092076 0.0026713 -0.0063601
-0.0019339 0.027768 -0.20612 0.20056
980000000 -0.049062 0.29276 0.017928 0.029836 -0.0086104 0.0048002 0.0025209 0.0037016
0.0038513 -0.0017066 -0.0029955 -0.0020247
0.0179 0.029843 -0.20684 0.34543 0.032622 0.0045086 0.0019287 -2.2095e-05
0.00093893 -0.0060675 -0.00051955 -0.0021299
-0.0085858 0.0048222 0.032686 0.0044121 0.11439 0.31042 0.00041812 -0.0011497
4.41e-05 -0.001996 0.0016319 3.008e-05
0.0025327 0.0036884 0.0019395 -5.2494e-05 0.00042742 -0.0011514 -0.075385 0.27085
0.0073675 0.028691 -0.0094 -0.0065545
0.0038623 -0.0017424 0.00091185 -0.0060221 7.1655e-05 -0.0019905 0.0074239 0.028701
-0.10909 0.18007 0.0048386 0.018853
-0.0030338 -0.0019833 -0.00057639 -0.0021429 0.0016312 4.2738e-05 -0.0093865 -0.0065243
0.0048057 0.018835 -0.16252 0.24758
1040000000 -0.0059077 0.30076 0.033196 0.017611 -0.00090299 0.0068204 0.0028497 0.00063182
-7.3185e-05 -0.0036125 -0.00051552 -0.0013957
0.033172 0.017658 -0.17108 0.35827 0.028825 -0.014783 0.0014866 -0.0016959
-0.0025904 -0.0022107 -0.001491 -0.0027928
-0.00088991 0.0068346 0.028804 -0.014908 0.16034 0.2963 -0.00049165 -0.0013644
-0.0014898 -0.00079158 -0.00033641 -0.0012538
0.0028788 0.00066874 0.001473 -0.0016784 -0.00048731 -0.0013534 -0.047719 0.2808
0.017974 0.017179 -0.0029051 0.002319
-0.00014845 -0.0036 -0.0026897 -0.0021026 -0.0015391 -0.00079063 0.017982 0.017159
-0.078235 0.18901 0.013305 0.018173
-0.00048347 -0.0014326 -0.0015323 -0.0027154 -0.00034717 -0.0011996 -0.0028385 0.0023292
0.01323 0.018211 -0.14259 0.26928
1100000000 0.039932 0.30765 0.035543 -0.004454 0.0030489 0.0036643 0.0025443 -0.001501
-0.0020765 -0.0029173 -0.0038359 7.7625e-05
0.035519 -0.0044359 -0.12736 0.37488 0.014723 -0.027292 2.3533e-05 -0.0017596
-0.0029372 -0.00033298 -0.0033057 -0.00048922
0.0030574 0.0036459 0.014637 -0.02738 0.20621 0.27574 -0.0017465 0.00022619
-0.0015565 0.00061958 -0.00098228 -0.00050511
0.0025437 -0.0015038 8.1925e-06 -0.0017795 -0.0017374 0.00023802 -0.0070463 0.28552
0.022471 0.0053069 -0.0020878 0.0010338
-0.0020698 -0.0028991 -0.0029359 -0.0003157 -0.001585 0.00062319 0.022455 0.0052777
-0.059113 0.20219 0.018695 0.0087643
-0.0038429 0.00011637 -0.0033198 -0.00049418 -0.000962 -0.00046887 -0.0020718 0.0010409
0.018706 0.0087492 -0.095435 0.29936
1160000000 0.091599 0.30193 0.023616 -0.020614 0.0027468 -0.00070106 -0.00020033 -0.0026261
-0.0039437 -0.0004308 -0.0010049 0.0039333
0.023638 -0.020557 -0.083562 0.37852 -0.0036995 -0.02848 -0.0017101 -0.0015833
-0.0021644 0.0024919 -0.0012818 0.0015707
0.0027395 -0.00071036 -0.0037994 -0.028501 0.24912 0.24489 -0.00057941 0.0016717
-0.00036984 0.001727 -0.0011101 0.0001295
-0.00022879 -0.0025916 -0.0017434 -0.0015832 -0.00058523 0.001659 0.032508 0.28234
0.019281 -0.0093002 -0.0026286 0.0055039
-0.0039423 -0.00043979 -0.0022241 0.0024806 -0.00034779 0.0017162 0.019284 -0.0093453
-0.025341 0.21128 0.017326 0.0010295
-0.00097958 0.0039712 -0.0012754 0.0015922 -0.0011158 0.00015068 -0.0026212 0.0055094
0.017357 0.00097928 -0.048188 0.30203
1220000000 0.13592 0.28963 0.010186 -0.029662 -0.0014584 -0.00096366 -0.00017958 -0.0010973
-0.0024144 0.0025473 0.0013071 0.0018409
0.01019 -0.02964 -0.039568 0.38982 -0.016422 -0.020637 -0.0024351 0.00043529
0.00025549 0.0026688 -0.00071115 0.0017121
-0.0014728 -0.00097731 -0.016542 -0.020584 0.28813 0.20604 0.00083666 0.0014916
0.00048524 0.0010616 0.00020707 0.00071623
-0.00017847 -0.0011083 -0.0024346 0.00044631 0.00083614 0.0015202 0.071987 0.2736
0.0094794 -0.014895 0.002913 0.0016049
-0.0023692 0.0025365 0.0002574 0.0026834 0.00046977 0.0010914 0.0094874 -0.014914
-0.0013313 0.22043 0.013601 -0.011982
0.0013398 0.0018144 -0.00069961 0.0017091 0.00018039 0.00075384 0.0029335 0.0015954
0.013603 -0.01193 -0.016829 0.32063
1280000000 0.18515 0.26677 -0.0077465 -0.027974 -0.0018842 0.0022715 -0.0011187 -0.0018999
-0.00052986 0.0029598 0.0025252 0.0009429
-0.0077329 -0.027954 0.0059083 0.38038 -0.023035 -0.0083899 -0.00097659 0.0013986
0.0015432 0.0014936 0.00049252 0.0019758
-0.0018844 0.0022965 -0.023089 -0.008288 0.319 0.16223 0.0013306 -0.00013371
0.00093065 0.00012756 0.00027131 0.00049398
-0.0011102 -0.0018802 -0.00097573 0.0014167 0.0013292 -0.00013966 0.10828 0.25736
0.0010855 -0.016686 0.00064034 -5.9908e-05
-0.00053511 0.0029939 0.0015208 0.0014787 0.00091963 0.0001476 0.0010706 -0.016699
0.035767 0.22355 0.0031729 -0.013843
0.0025265 0.00093361 0.00047559 0.0019735 0.00031539 0.0004775 0.00063346 -6.7842e-05
0.0031864 -0.013883 0.031097 0.3225
1340000000 0.22169 0.23229 -0.017266 -0.018821 0.00073261 0.0042248 -0.00186 -0.00070615
0.0014086 0.0024884 0.0015314 -0.0014948
-0.017227 -0.018823 0.045006 0.37201 -0.021092 0.0038789 -9.945e-05 0.0018884
0.0015819 0.00064566 0.0012715 0.00089566
0.00075679 0.0042237 -0.02108 0.0039885 0.34132 0.11399 0.00087838 -0.00083842
0.00055604 -0.00037889 0.00018634 0.00027467
-0.0018659 -0.00070337 -8.0214e-05 0.0018884 0.00090031 -0.00082682 0.14109 0.23729
-0.0068816 -0.014238 0.0013719 -0.00022336
0.0014078 0.00245 0.0015709 0.00063383 0.00055809 -0.00036943 -0.0068993 -0.014218
0.066395 0.21834 -0.0027603 -0.012651
0.0015286 -0.0015018 0.0012842 0.00090617 0.00017896 0.00027952 0.0013671 -0.00021718
-0.0027997 -0.012635 0.070321 0.31907
1400000000 0.25384 0.19373 -0.022995 -0.0076441 0.00477 0.0030103 -0.0019665 0.00069919
0.0023473 0.0006383 0.00020874 -0.001226
-0.022968 -0.0076517 0.081793 0.35896 -0.014624 0.011817 0.0012894 0.0012596
0.0009291 -0.00069935 0.0011903 0.00032669
0.0047988 0.0029991 -0.014602 0.011924 0.35454 0.059779 0.00010756 -0.0013906
3.3344e-05 -0.00032742 0.0003142 0.00022777
-0.0019665 0.0007016 0.0012946 0.001246 0.00011696 -0.0013609 0.17092 0.20897
-0.011794 -0.0086221 -0.00070949 -0.0010445
0.0023784 0.00064903 0.00092803 -0.00069626 3.5429e-05 -0.0003357 -0.011817 -0.0086155
0.09927 0.21305 -0.0088798 -0.0082786
0.00017387 -0.001243 0.0011946 0.00030978 0.00028388 0.00024485 -0.00071289 -0.0010613
-0.008865 -0.0082732 0.11602 0.30849
1460000000 0.27608 0.14957 -0.020257 0.0042547 0.0052826 -0.001569 -0.0015289 0.0016848
0.0018267 -0.00068666 -0.0002733 -0.0007873
-0.020246 0.0042435 0.11583 0.33724 -0.0063642 0.014736 0.0016774 0.0001699
0.00089007 -0.0010933 0.0011931 -0.00061064
0.005272 -0.0015887 -0.0062852 0.014776 0.36024 0.0047207 -0.001026 -0.0011998
0.00024346 -0.00014703 0.00064409 -0.00040904
-0.0015328 0.0016798 0.0016871 0.00017449 -0.0010103 -0.0011933 0.19794 0.17995
-0.012804 -0.0035152 -0.0012949 0.0013961
0.0018196 -0.0006953 0.00088211 -0.0010916 0.00026755 -0.00010714 -0.012811 -0.0035004
0.12891 0.1977 -0.010541 -0.0031694
-0.000267 -0.00080565 0.0011648 -0.00062282 0.00066076 -0.00040364 -0.0013066 0.0014039
-0.010565 -0.0031973 0.1498 0.28765
1520000000 0.28776 0.10789 -0.014872 0.0099213 0.0030694 -0.0039227 0.00011336 0.0025525
0.0016866 -0.0015581 -0.001116 -0.00020292
-0.014882 0.0099058 0.14941 0.32249 0.0010493 0.0129 0.0015714 -0.00076465
0.00015004 -0.00091713 0.00031505 -0.0010328
0.0030496 -0.0039569 0.0011063 0.012901 0.35297 -0.0519 -0.00093227 -0.00038158
0.00054745 -0.00074808 -3.102e-05 -5.9403e-05
0.00012198 0.0025539 0.0015789 -0.00077538 -0.00091535 -0.00036882 0.22189 0.14173
-0.012792 0.0010618 0.00082324 0.0018048
0.0016952 -0.0015732 0.00015018 -0.00090937 0.00056526 -0.00074814 -0.012803 0.0010994
0.15677 0.18287 -0.010983 0.00073753
-0.0011116 -0.00018147 0.00030907 -0.0010254 7.1495e-06 -7.717e-05 0.00082479 0.0017906
-0.011002 0.00074394 0.18386 0.26802
1580000000 0.29681 0.061546 -0.0084628 0.013158 -0.00092308 -0.0045333 0.001365 0.0018448
-0.00041291 -0.0019642 -0.00034425 0.0003431
-0.0084661 0.013152 0.17676 0.29764 0.0047153 0.0083414 0.00045619 -0.0015153
-0.00040405 -0.0010512 -0.00024815 -0.00086856
-0.00092596 -0.0045323 0.0047714 0.0083388 0.33191 -0.10943 -0.0014993 0.00042745
-0.00019951 -0.0010868 0.000101 -0.00051608
0.0013694 0.0018362 0.00045444 -0.0015142 -0.0015016 0.00041235 0.23666 0.10165
-0.010548 0.0053194 0.0016689 0.00073049
-0.00044422 -0.0019695 -0.00039806 -0.0010456 -0.00019843 -0.0010753 -0.010546 0.0053501
0.18095 0.16444 -0.0090099 0.0059937
-0.00034773 0.00034762 -0.00025395 -0.00085362 0.00010754 -0.00049622 0.0016764 0.00072911
-0.009019 0.005964 0.21663 0.24104
1640000000 0.29841 0.019814 -0.0018753 0.012358 -0.0025367 -0.002392 0.0025507 0.0010258
-0.00068383 -0.001169 -0.00033471 0.00063789
-0.0018816 0.012349 0.20628 0.27228 0.0055644 0.003771 -0.00068912 -0.0015963
-0.00098087 -0.00048008 -0.0005138 -0.00063083
-0.0025438 -0.0023676 0.0055962 0.0037356 0.30322 -0.15857 -0.00089936 0.001278
-0.00098403 -0.00086516 -0.00015303 -0.00024043
0.002561 0.0010175 -0.00069362 -0.0015996 -0.00088405 0.0012855 0.24932 0.051489
-0.0073777 0.006751 0.0020871 -0.00057495
-0.00069496 -0.0011495 -0.00099262 -0.00047654 -0.00098721 -0.00087047 -0.0073712 0.0067693
0.20375 0.13919 -0.0047894 0.0083414
-0.00035116 0.00065051 -0.00053154 -0.00064195 -0.00014431 -0.00026225 0.0020935 -0.00057753
-0.0048257 0.0083349 0.24299 0.2096
1700000000 0.29053 -0.025723 0.001692 0.0098645 -0.0033028 0.00012272 0.0029152 -0.0010812
-0.0017714 -0.00048437 0.00059621 0.00047234
0.0016783 0.0098527 0.22431 0.24043 0.0037958 0.00099352 -0.0013269 -0.0005668
-0.0008177 2.8311e-05 -0.00092849 -0.00043441
-0.0032953 0.00013251 0.0037948 0.00097218 0.25905 -0.19803 0.00032973 0.0015639
-0.0017045 -0.00033155 -0.00054636 -0.0009309
0.0028984 -0.0010866 -0.001326 -0.00056964 0.00033592 0.0015636 0.24566 0.00035044
-0.0053045 0.0077515 0.0012952 -0.0018629
-0.0017672 -0.00047192 -0.00081208 3.2406e-05 -0.0016808 -0.00032287 -0.0052798 0.0077647
0.22134 0.11765 -0.00057428 0.0089837
0.00061138 0.00045655 -0.00093494 -0.0004101 -0.00056724 -0.00092968 0.0012859 -0.0018653
-0.00056632 0.0089864 0.25979 0.1749
1760000000 0.27742 -0.074385 0.0043058 0.0067372 -0.0021221 0.00079111 0.0013815 -0.0032838
-0.0010391 0.00056447 0.00038878 -0.00048256
0.0042869 0.0067284 0.25002 0.2001 0.0017824 -0.00077953 -0.0010757 0.00013132
-0.0011031 0.00089584 -0.00059509 0.00053214
-0.0021121 0.00083268 0.0017714 -0.00078508 0.21 -0.23057 0.0011004 0.0012729
-0.0012454 0.0012917 -0.0012743 -0.00036921
0.0013675 -0.0032936 -0.00109 0.00013455 0.0011199 0.001277 0.23517 -0.05201
-0.0024367 0.0076633 -0.00040228 -0.0019882
-0.0010287 0.00059532 -0.0011042 0.00091436 -0.0012402 0.0012973 -0.0024322 0.00768
0.23627 0.081156 0.003059 0.0065885
0.00037545 -0.00047481 -0.00058488 0.00053321 -0.0012751 -0.00037392 -0.00040204 -0.0019757
0.0030498 0.0065814 0.2723 0.13717
1820000000 0.25186 -0.11157 0.0048322 0.0030678 -3.4165e-05 0.0023364 -0.00085791 -0.0030567
-0.00089835 0.00064491 9.9311e-05 -0.00016948
0.0048243 0.0030767 0.25951 0.16975 -9.2831e-05 0.00018711 -0.0013341 0.00079176
-4.1534e-05 0.0013799 -0.00049655 0.00050274
-3.4656e-05 0.0023372 -8.8512e-05 0.00018784 0.15985 -0.24584 0.0015461 0.00047626
-0.00041518 0.0020875 -0.0013626 0.00042018
-0.00088333 -0.0030498 -0.0013254 0.00079746 0.0015617 0.00046375 0.20351 -0.099453
-0.00091584 0.0064492 -0.0014938 -0.0012765
-0.00089031 0.0006418 -2.6595e-05 0.0013846 -0.00041325 0.0021039 -0.00090435 0.0064549
0.25249 0.049879 0.0041736 0.0034598
0.00010387 -0.0001687 -0.00049863 0.00051861 -0.0014061 0.0003747 -0.0014884 -0.001279
0.0041712 0.0034757 0.2749 0.1011
1880000000 0.21576 -0.15109 0.002792 0.00061009 -0.00033791 0.0020879 -0.0028193 -0.0022131
-0.00034493 0.001467 0.00034166 -0.00059103
0.002786 0.00060948 0.26345 0.12304 -0.0019549 0.001739 -0.00023127 0.0016717
0.00065717 0.0013037 0.00019657 0.00097139
-0.00031243 0.0020785 -0.0019657 0.0017408 0.10833 -0.25504 0.0018725 -0.00095436
0.0013794 0.002095 -0.00087028 0.0014639
-0.0028394 -0.0022063 -0.00022966 0.0016677 0.0018794 -0.00092939 0.16157 -0.13865
-0.00027651 0.0051654 -0.0021221 0.00082155
-0.00034806 0.0014697 0.00067956 0.001302 0.0013764 0.0021155 -0.00025575 0.0051625
0.25387 0.015106 0.0039655 0.0017792
0.00032349 -0.0006005 0.00020671 0.00099012 -0.00088413 0.0014768 -0.002125 0.00082214
0.0039608 0.0017828 0.27503 0.067028
1940000000 0.17573 -0.17609 0.00054442 -0.0014259 0.0012366 0.0018868 -0.0038202 0.00051917
0.0011635 0.0010927 -0.00070197 -0.00069166
0.00053777 -0.0014269 0.26335 0.091219 -0.00091351 0.0038255 0.00088665 0.0013883
0.0019608 0.00048239 0.00082524 0.00024465
0.0012605 0.0019004 -0.00085945 0.0038224 0.062207 -0.24875 0.00027896 -0.0022874
0.0024428 0.00061528 0.00029999 0.0016582
-0.003787 0.00055134 0.00090922 0.0013804 0.0002956 -0.0022844 0.10829 -0.16744
-0.001191 0.0043776 -0.0010472 0.0016903
0.0011877 0.0010976 0.0019707 0.00047442 0.0024645 0.00059612 -0.0011733 0.0043762
0.25316 -0.025614 0.0030209 -0.0012378
-0.00069792 -0.00069943 0.0008464 0.00023348 0.00032453 0.0016205 -0.0010305 0.0016729
0.0030229 -0.0012396 0.26412 0.031383
2000000000 0.12933 -0.18959 -0.003449 0.00039704 0.0023079 0.0015766 -0.002308 0.003572
0.0010177 0.00033102 -0.00081098 0.00039601
-0.0034548 0.00037733 0.24861 0.055878 -0.00074128 0.0055056 0.0016728 0.00034931
0.0014113 -0.0014848 0.0004877 0.00014057
0.00233 0.0015513 -0.00073551 0.0055214 0.018808 -0.23407 -0.0014159 -0.0014278
0.0021318 -0.0011645 0.0016449 0.0013173
-0.0022773 0.0035848 0.0016711 0.00033961 -0.0014076 -0.0014425 0.054977 -0.17582
-0.0024922 0.0047008 0.00024091 0.0021036
0.0010207 0.00034207 0.001411 -0.0014894 0.0021501 -0.0011757 -0.0024584 0.0047008
