!Keysight Technologies,M9804A,MY58100912,A.14.10.03
!Date: Thursday, April 27, 2023 10:28:33
!Correction: S11(C  6-Port  ) 
!S12(C  6-Port  ) 
!S13(C  6-Port  ) 
!S14(C  6-Port  ) 
!S15(C  6-Port  ) 
!S16(C  6-Port  ) 
!S21(C  6-Port  ) 
!S22(C  6-Port  ) 
!S23(C  6-Port  ) 
!S24(C  6-Port  ) 
!S25(C  6-Port  ) 
!S26(C  6-Port  ) 
!S31(C  6-Port  ) 
!S32(C  6-Port  ) 
!S33(C  6-Port  ) 
!S34(C  6-Port  ) 
!S35(C  6-Port  ) 
!S36(C  6-Port  ) 
!S41(C  6-Port  ) 
!S42(C  6-Port  ) 
!S43(C  6-Port  ) 
!S44(C  6-Port  ) 
!S45(C  6-Port  ) 
!S46(C  6-Port  ) 
!S51(C  6-Port  ) 
!S52(C  6-Port  ) 
!S53(C  6-Port  ) 
!S54(C  6-Port  ) 
!S55(C  6-Port  ) 
!S56(C  6-Port  ) 
!S61(C  6-Port  ) 
!S62(C  6-Port  ) 
!S63(C  6-Port  ) 
!S64(C  6-Port  ) 
!S65(C  6-Port  ) 
!S66(C  6-Port  ) 
!S6P File: Measurement: :
# Hz S  RI   R 50
500000000 -0.33702 -0.033704 -0.0095125 -0.003463 -0.00788 0.011964 -0.00353 0.011622
0.012056 0.0046113 -0.0038939 0.0082908
-0.0095535 -0.003453 -0.41966 -0.048916 0.0071808 -0.0113 0.0012879 0.011744
0.0075461 0.0026246 0.00037827 0.012998
-0.0078306 0.011994 0.0072059 -0.011361 -0.26518 0.21191 0.0068289 0.0032409
4.531e-05 0.008478 0.00038701 0.012072
-0.0035213 0.011659 0.0013219 0.011737 0.0068371 0.003235 -0.32768 0.048623
-0.019556 -0.0046409 0.017374 0.025887
0.012122 0.0044916 0.0075006 0.0025903 5.5961e-05 0.0084536 -0.019578 -0.0046253
-0.22785 -0.18137 -0.02751 0.0049928
-0.0039854 0.0083552 0.00049062 0.013058 0.00046077 0.012023 0.017388 0.025827
-0.027522 0.0049719 -0.27119 -0.13301
560000000 -0.31568 0.12532 -0.023987 -0.063015 0.00037422 0.012083 0.0062291 0.0097915
0.011097 0.0042274 0.0096068 0.0075576
-0.024036 -0.062903 -0.37689 0.10881 -0.041777 -0.036365 0.013576 0.0038144
-0.013126 -0.0047332 0.0041508 -0.00082512
0.00042768 0.012116 -0.041812 -0.03615 -0.18259 0.25964 -0.00061919 -0.0047872
0.019268 0.0043495 0.0074277 -0.0061672
0.0062215 0.0097768 0.013553 0.0037624 -0.0005998 -0.0047971 -0.30272 0.13659
0.0036968 -0.024482 0.0048172 -0.019647
0.011109 0.0042359 -0.013312 -0.0045324 0.01928 0.0043427 0.0036703 -0.024467
-0.28631 -0.0063668 0.0075524 -0.050797
0.0096773 0.0076584 0.0044883 -0.00080687 0.0074574 -0.0061605 0.004809 -0.019663
0.007576 -0.0508 -0.33381 0.016501
620000000 -0.27314 0.1104 -0.023016 0.0072643 0.003719 0.0084167 0.0069318 -0.0054576
0.011252 -0.00069277 0.00041098 -0.0018187
-0.023001 0.0072675 -0.40269 0.063522 -0.018984 -9.8948e-05 -0.0014369 -0.0022253
0.010445 -0.0069766 0.0011285 -0.0025185
0.0037777 0.0083591 -0.019032 2.3496e-06 -0.15267 0.26848 -0.0015299 -0.0053487
-0.0035954 -0.003247 0.0083217 -0.0035007
0.0070271 -0.0054387 -0.0013963 -0.0022543 -0.0014812 -0.0053616 -0.26049 0.14679
-0.039263 -0.018246 0.014307 0.024066
0.011127 -0.00073139 0.010435 -0.0070002 -0.0036411 -0.0032321 -0.039282 -0.018216
-0.20531 -0.046217 -0.041154 0.01555
0.00044489 -0.0017599 0.0011129 -0.0025163 0.0083689 -0.0035478 0.014333 0.024086
-0.041148 0.015524 -0.25063 -0.02217
680000000 -0.23249 0.19375 -0.027996 -0.013843 0.0047983 0.0049519 0.0011388 -0.0074485
-0.0032559 -0.010813 0.0046984 -0.0071343
-0.027973 -0.013799 -0.38695 0.16006 -0.032686 -0.0011293 -0.001574 -0.00025192
-0.0029205 -0.0087835 -0.00098419 -0.0019832
0.004836 0.0049261 -0.032696 -0.0010546 -0.10158 0.28791 -0.0006182 0.00015579
-0.0023547 0.0007409 -0.0028904 -0.0095607
0.0011493 -0.0074359 -0.0015564 -0.00023358 -0.00061331 0.00015933 -0.2181 0.19604
-0.02362 -0.0080423 -0.010574 -0.01053
-0.0033182 -0.010842 -0.002932 -0.0088307 -0.0023617 0.00073896 -0.023653 -0.0080099
-0.25187 0.051828 -0.0050103 -0.0093863
0.0047162 -0.0071078 -0.0010079 -0.0020303 -0.0028829 -0.0095625 -0.010568 -0.010527
-0.0050058 -0.0094003 -0.26236 0.085094
740000000 -0.189 0.18888 -0.038117 0.026515 0.012678 -0.0053039 -0.00071921 -0.0039007
-0.0047381 -0.0026204 -0.0062001 0.003371
-0.038101 0.026499 -0.33489 0.17902 -0.034631 0.035038 -0.00098025 -0.0064065
-0.010987 0.0083516 -0.0031202 -0.0061968
0.0126 -0.0053215 -0.034579 0.035186 -0.067973 0.28651 -0.0014694 0.0032168
-0.0028636 -0.003838 -0.0010016 -3.6504e-05
-0.00072062 -0.0039201 -0.00098867 -0.0063761 -0.0014789 0.0032088 -0.20197 0.20378
-0.042133 -0.0073329 0.022329 0.013013
-0.004787 -0.0027129 -0.011022 0.008377 -0.0028181 -0.0038388 -0.042174 -0.0072647
-0.15715 0.074645 -0.041185 0.00098036
-0.0062463 0.0034446 -0.0030801 -0.0060622 -0.0010319 -5.7496e-06 0.022328 0.013008
-0.041168 0.00095904 -0.25505 0.090564
800000000 -0.15679 0.22899 -0.022226 0.017306 0.0052593 -0.010524 -0.0048408 -0.0019877
-0.0041497 0.0030003 0.0046112 0.00082098
-0.022214 0.017281 -0.33701 0.24901 -0.0076446 0.033964 -0.0021109 0.0022014
-0.00056807 0.0035222 0.0012615 0.0052797
0.0052192 -0.010553 -0.0075459 0.034005 -0.02675 0.30937 0.0011896 0.0015754
0.00063102 0.0035926 -0.0018392 0.00085336
-0.0048606 -0.0019957 -0.0021169 0.0022005 0.0011864 0.0015744 -0.17356 0.23116
-0.028277 0.012848 0.013436 -0.009986
-0.0040769 0.0030522 -0.0005488 0.00353 0.00063856 0.0035961 -0.028269 0.012917
-0.19911 0.099709 -0.017438 0.017725
0.0046286 0.00078637 0.0013183 0.0052659 -0.0018404 0.0008299 0.013439 -0.010009
-0.017448 0.017718 -0.24662 0.1451
860000000 -0.12199 0.24996 -0.016822 0.031107 -0.0033512 -0.0097691 -0.0025669 0.0013188
0.004176 0.0050965 -0.0029752 -0.0026753
-0.016837 0.031117 -0.28894 0.29061 0.0082793 0.033986 0.00023717 0.0021249
0.0044833 0.00044852 0.0034029 0.00035457
-0.0033826 -0.0097809 0.0084014 0.034002 0.021492 0.31706 -0.00030745 -0.00026658
0.0028208 -0.0015716 0.0014809 0.0044354
-0.0025503 0.0013651 0.00022182 0.0021263 -0.0003062 -0.00025222 -0.13795 0.24288
-0.017746 0.01857 -0.0062097 -0.0093245
0.0042074 0.0051016 0.004513 0.00039499 0.0028169 -0.0015744 -0.017727 0.018607
-0.15029 0.14717 -0.024275 0.015636
-0.0030173 -0.0027054 0.0033357 0.00034423 0.0014968 0.0044045 -0.0062171 -0.0093084
-0.024277 0.015611 -0.19599 0.18946
920000000 -0.09684 0.27291 0.0053847 0.037571 -0.009392 -0.0042523 -0.0017656 0.002219
0.0013427 0.001599 0.0025633 -0.0014349
0.0053785 0.037542 -0.26007 0.31129 0.027992 0.021454 0.0016172 0.0010108
0.006909 -0.00078408 0.0036536 -0.0029747
-0.0093984 -0.0042465 0.02809 0.0214 0.067767 0.31738 0.0017926 -0.00017655
0.0013584 -0.00046143 0.00071734 -0.0011431
-0.0017541 0.0022177 0.0016465 0.0010004 0.0017873 -0.00017882 -0.11364 0.25898
-0.010082 0.029847 0.00263 -0.0066868
0.0013638 0.0016009 0.0069278 -0.00081172 0.0013627 -0.00045684 -0.010037 0.029889
-0.13951 0.15332 -0.0016958 0.027501
0.0025519 -0.0014402 0.0036379 -0.0030077 0.00070328 -0.0011582 0.0026194 -0.0066951
-0.0017186 0.027503 -0.20388 0.20287
980000000 -0.049237 0.29226 0.017929 0.029626 -0.0087559 0.0046398 0.0024635 0.0036451
0.0039814 -0.0016233 -0.0029844 -0.0021029
0.017899 0.029599 -0.20722 0.34468 0.032761 0.0044423 0.001994 -6.5777e-05
0.0010385 -0.00615 -0.00052456 -0.0022249
-0.0087469 0.0046674 0.032796 0.0043352 0.11406 0.31043 0.00039009 -0.0012018
-2.0357e-05 -0.002114 0.0014841 -1.9485e-05
0.0024715 0.0036479 0.0019853 -8.4778e-05 0.00039362 -0.0012058 -0.075291 0.27042
0.0075483 0.02859 -0.0091984 -0.0065411
0.0039332 -0.0016628 0.00096665 -0.0061887 -2.4901e-05 -0.0021038 0.0075987 0.028597
-0.1077 0.18032 0.0051885 0.018886
-0.0029437 -0.0020444 -0.00056622 -0.0022086 0.0014789 -3.6378e-05 -0.0092016 -0.0065147
0.0051801 0.018872 -0.16048 0.24885
1040000000 -0.0064182 0.30027 0.033153 0.017409 -0.0011809 0.0067577 0.0028212 0.00073386
1.39e-05 -0.003574 -0.00059658 -0.0014073
0.033113 0.017428 -0.17164 0.35763 0.028848 -0.014998 0.0015175 -0.001658
-0.0025926 -0.0022709 -0.0015162 -0.0027156
-0.001149 0.0067663 0.028805 -0.015095 0.16007 0.29651 -0.00053965 -0.0013716
-0.0015694 -0.00077232 -0.0004248 -0.0011424
0.0028248 0.00073489 0.0015061 -0.0016874 -0.00054016 -0.0013814 -0.047909 0.28046
0.018352 0.016827 -0.0029796 0.0019447
-2.3613e-05 -0.0035877 -0.0026304 -0.0022774 -0.0015726 -0.00076974 0.01838 0.0168
-0.076836 0.18857 0.0135 0.017456
-0.00058717 -0.001424 -0.0015642 -0.0026977 -0.00042411 -0.0011437 -0.0029716 0.001945
0.013465 0.017446 -0.14041 0.27036
1100000000 0.03921 0.30747 0.035464 -0.0046562 0.0028238 0.003736 0.0025318 -0.0014713
-0.002117 -0.003105 -0.003961 4.7549e-05
0.035425 -0.0046212 -0.1281 0.37442 0.014636 -0.027534 4.2738e-06 -0.0018138
-0.0031249 -0.00044432 -0.003467 -0.00050333
0.0028358 0.003714 0.014534 -0.02761 0.20631 0.27585 -0.0017875 0.00026649
-0.0016467 0.00069739 -0.00093293 -0.000348
0.0025159 -0.0014827 -2.4853e-06 -0.0018194 -0.0017816 0.0002625 -0.0073536 0.28516
0.02267 0.0046873 -0.0024247 0.00087762
-0.0021244 -0.0030875 -0.0031278 -0.00043122 -0.0016537 0.00070648 0.022684 0.0046491
-0.058273 0.20136 0.018628 0.0082803
-0.0039475 0.00010215 -0.0034567 -0.00046975 -0.00094686 -0.00033925 -0.0024265 0.0008849
0.018621 0.008283 -0.093415 0.30012
1160000000 0.090778 0.30187 0.023439 -0.020834 0.0025935 -0.0004949 -0.00010442 -0.0025488
-0.0040202 -0.00048645 -0.0010176 0.0040249
0.02343 -0.020797 -0.084504 0.37834 -0.0039163 -0.028648 -0.0017735 -0.0016018
-0.0022997 0.0026465 -0.0013796 0.0015889
0.0025954 -0.00050731 -0.0040519 -0.028654 0.24909 0.24482 -0.00059255 0.0017317
-0.00035209 0.0018266 -0.0010479 0.00017576
-0.00011166 -0.0025395 -0.0017818 -0.0016096 -0.00059441 0.0017278 0.03185 0.28232
0.01909 -0.009844 -0.0027715 0.0055548
-0.0040249 -0.00047443 -0.0022803 0.0026382 -0.00035612 0.0018256 0.019081 -0.0098878
-0.025159 0.21041 0.017319 0.00063673
-0.0010078 0.0040183 -0.0013927 0.0016082 -0.0010451 0.0001809 -0.00276 0.0055527
0.017311 0.00063454 -0.046201 0.30296
1220000000 0.13517 0.28999 0.0098953 -0.029737 -0.0015752 -0.00071453 -0.00013312 -0.0011505
-0.0025072 0.0025477 0.0013432 0.0018927
0.0098942 -0.029679 -0.040424 0.38989 -0.016754 -0.020704 -0.0025019 0.00044393
0.00029347 0.0028315 -0.00063467 0.0018313
-0.0015765 -0.00070879 -0.016878 -0.020644 0.28805 0.20576 0.00090841 0.0015425
0.00061417 0.0011192 0.00026857 0.0007601
-0.00012563 -0.001148 -0.0025006 0.00044795 0.00090823 0.001539 0.071578 0.27381
0.0090283 -0.01548 0.0026646 0.0017897
-0.0024673 0.0025565 0.0003298 0.0028447 0.0006069 0.0011241 0.0090132 -0.015496
-0.0016467 0.21972 0.013265 -0.012328
0.0013443 0.0018904 -0.00064247 0.0018547 0.00025636 0.00076889 0.0026664 0.0017989
0.013272 -0.012331 -0.014819 0.32093
1280000000 0.18451 0.26729 -0.0081052 -0.027925 -0.0017598 0.0025591 -0.0011177 -0.0019779
-0.00058063 0.0030966 0.0025567 0.00096193
-0.0080708 -0.027904 0.0052295 0.38065 -0.023321 -0.0082542 -0.0009788 0.0014671
0.0016894 0.0015606 0.00053094 0.001921
-0.0017537 0.00256 -0.023381 -0.0081516 0.31848 0.16184 0.001413 -0.00017988
0.0009761 0.0001012 0.00034853 0.0004018
-0.0011255 -0.0019669 -0.000975 0.0014689 0.0014075 -0.00018066 0.10803 0.25765
0.00030112 -0.017004 0.00058248 0.00014491
-0.00054694 0.0031068 0.0017014 0.0015471 0.00097651 9.232e-05 0.00026436 -0.017004
0.035297 0.22324 0.0028725 -0.014169
0.0025624 0.00095808 0.00055164 0.0019108 0.00033749 0.00041506 0.00058048 0.00014546
0.0028714 -0.014167 0.032981 0.32247
1340000000 0.22123 0.23305 -0.017552 -0.01848 0.00094371 0.0043239 -0.001933 -0.00072913
0.0014848 0.002541 0.0016354 -0.0015392
-0.017537 -0.018474 0.044486 0.37227 -0.021227 0.0041938 -3.2399e-05 0.0019372
0.0017197 0.00057254 0.0012991 0.00089678
0.00096061 0.004317 -0.021218 0.0043088 0.34059 0.11395 0.00090419 -0.00089994
0.00059071 -0.00039997 0.00018814 0.00019725
-0.0019297 -0.00071115 -2.7248e-05 0.0019336 0.00090396 -0.00089471 0.14102 0.23762
-0.0077754 -0.01405 0.0013421 7.353e-05
0.0014992 0.0025262 0.0017114 0.00056759 0.00059019 -0.00039276 -0.0078088 -0.014041
0.065692 0.21858 -0.0034389 -0.012699
0.0016372 -0.0015418 0.0013165 0.00087749 0.00020067 0.00018759 0.0013358 8.394e-05
-0.0034413 -0.012702 0.072122 0.31868
1400000000 0.25372 0.1945 -0.023037 -0.0071901 0.0050618 0.0030367 -0.0020327 0.0007235
0.0024271 0.00063485 0.00021272 -0.0013126
-0.023003 -0.0071981 0.081464 0.35917 -0.014569 0.012169 0.0013407 0.0012315
0.0009331 -0.00085334 0.001185 0.00028292
0.0050683 0.0030059 -0.014532 0.01226 0.35363 0.06016 7.1818e-05 -0.001463
4.8391e-05 -0.00034075 0.00033471 0.00022702
-0.0020344 0.00073217 0.0013497 0.0012159 6.7157e-05 -0.0014651 0.17098 0.20914
-0.012581 -0.0079792 -0.00052167 -0.00085938
0.0024209 0.00061643 0.00092155 -0.00086385 4.3971e-05 -0.00034306 -0.012599 -0.0079583
0.098848 0.21362 -0.0094666 -0.0080427
0.0002085 -0.0013235 0.0012045 0.00026457 0.00033549 0.00022236 -0.00052298 -0.0008647
-0.0094719 -0.008054 0.11752 0.30792
1460000000 0.27609 0.1501 -0.020064 0.0046534 0.0054718 -0.0017547 -0.0014857 0.0017523
0.0019638 -0.00074597 -0.00032252 -0.00081681
-0.020043 0.0046573 0.11554 0.33735 -0.006099 0.014979 0.00167 0.00014368
0.00075694 -0.0011257 0.0011691 -0.00060558
0.0054655 -0.0017828 -0.0060267 0.015013 0.35951 0.005604 -0.0011207 -0.0011991
0.0002403 -9.348e-05 0.00064382 -0.00041125
-0.0014805 0.001766 0.0016765 0.00013354 -0.0011302 -0.0012065 0.19796 0.18001
-0.01313 -0.0024769 -0.0010688 0.0014731
0.0019587 -0.00075333 0.00075035 -0.0011221 0.00023968 -9.5501e-05 -0.013135 -0.0024498
0.1288 0.19856 -0.010927 -0.0026799
-0.00036174 -0.00084631 0.001173 -0.00062349 0.00064948 -0.00040972 -0.0010769 0.0014612
-0.010926 -0.0026806 0.15111 0.28711
1520000000 0.28783 0.10827 -0.014481 0.010132 0.0031166 -0.0040952 0.00015861 0.0025786
0.0017061 -0.0016798 -0.001168 -0.00017124
-0.014477 0.010125 0.14901 0.32255 0.0013519 0.012907 0.0015583 -0.00081623
7.8738e-05 -0.00087553 0.00031505 -0.0010461
0.0030981 -0.0041212 0.0014249 0.012916 0.35266 -0.050673 -0.00094617 -0.00033905
0.00059541 -0.00078658 -4.4803e-05 -0.00012229
0.00015838 0.0025809 0.0015594 -0.00082254 -0.00094678 -0.00033848 0.22188 0.14166
-0.012431 0.0021089 0.0010697 0.0017474
0.0016919 -0.001678 7.3391e-05 -0.00087322 0.0005956 -0.00079262 -0.012426 0.0021346
0.15717 0.18377 -0.011063 0.0013352
-0.001179 -0.00017024 0.00031397 -0.0010521 -3.8078e-05 -0.000128 0.0010718 0.0017487
-0.011059 0.001317 0.18496 0.26722
1580000000 0.2967 0.061753 -0.0080268 0.013131 -0.00095956 -0.004801 0.0014195 0.0018238
-0.0005008 -0.002033 -0.00036665 0.00036925
-0.0080261 0.013126 0.17629 0.29767 0.0049817 0.0082082 0.00042718 -0.0015257
-0.00038771 -0.00094806 -0.00027006 -0.00087014
-0.00098203 -0.0047959 0.0050281 0.0081932 0.33212 -0.10841 -0.0014839 0.00051158
-0.00027169 -0.0011192 0.0001092 -0.00052911
0.001427 0.0018204 0.00042304 -0.0015338 -0.0014952 0.000515 0.23652 0.10154
-0.0096633 0.0059691 0.0018454 0.00060666
-0.00050443 -0.0020282 -0.00039741 -0.00095675 -0.00027076 -0.0011217 -0.0096513 0.005995
0.18169 0.16509 -0.0087999 0.0065452
-0.00036333 0.0003854 -0.00027831 -0.00086841 0.00011795 -0.00053326 0.0018468 0.00060187
-0.0088005 0.00655 0.21743 0.24033
1640000000 0.29812 0.020075 -0.0015002 0.012118 -0.0026544 -0.0024896 0.0025981 0.00095702
-0.00077564 -0.0011316 -0.00032624 0.00069575
-0.0015018 0.012108 0.20562 0.27247 0.0056935 0.0035796 -0.00071337 -0.0015951
-0.00091017 -0.00045918 -0.00054212 -0.00065814
-0.0026776 -0.0024608 0.0057186 0.0035436 0.30358 -0.15748 -0.00083944 0.0013173
-0.0010325 -0.00083717 -0.00013895 -0.00032554
0.0026094 0.00095057 -0.00073351 -0.0015884 -0.0008405 0.0013081 0.24902 0.051633
-0.0063303 0.0068245 0.0021801 -0.00073958
-0.00078042 -0.0011333 -0.00091349 -0.00046085 -0.0010209 -0.00082637 -0.006322 0.0068458
0.20461 0.13947 -0.0043721 0.0086798
-0.00032708 0.00070657 -0.00055442 -0.00065989 -0.00014293 -0.00032906 0.0021772 -0.00075
-0.0043626 0.0086741 0.24372 0.209
1700000000 0.29019 -0.025255 0.001869 0.0094542 -0.0034664 4.6457e-05 0.0029204 -0.001126
-0.0017998 -0.00039226 0.00063791 0.00045185
0.0018695 0.0094461 0.22372 0.24071 0.003837 0.0007565 -0.0013596 -0.00054264
-0.00076931 -3.3108e-05 -0.00094086 -0.00043414
-0.0034591 6.2709e-05 0.0038493 0.00073017 0.26005 -0.1973 0.00029364 0.001527
-0.0017504 -0.00024368 -0.00055722 -0.00094228
0.0029202 -0.0011399 -0.0013631 -0.00053577 0.00030438 0.0015203 0.24544 0.00063381
-0.0044284 0.0072954 0.0012938 -0.0020205
-0.0017915 -0.00036974 -0.00078092 -2.571e-05 -0.0017461 -0.00024761 -0.0044168 0.0073111
0.22215 0.11762 -0.00010145 0.0091518
0.000639 0.00045021 -0.00094958 -0.00042399 -0.00055525 -0.00093457 0.0012911 -0.0020234
-8.187e-05 0.0091454 0.26055 0.17432
1760000000 0.27709 -0.073711 0.0042307 0.0062997 -0.0022463 0.00084797 0.0013478 -0.0033362
-0.0009842 0.00065016 0.00039621 -0.00053043
0.0042284 0.0062866 0.2494 0.20054 0.0017084 -0.00099571 -0.0010642 0.00017931
-0.00114 0.00082636 -0.00061574 0.0005205
-0.0022065 0.00086578 0.0016995 -0.001021 0.21094 -0.23031 0.0010761 0.0012489
-0.0011973 0.0012984 -0.0013461 -0.00041335
0.0013261 -0.0033398 -0.0010634 0.00017893 0.0010889 0.0012576 0.23506 -0.051655
-0.0019519 0.0068743 -0.00047127 -0.002174
-0.00099605 0.00066252 -0.001136 0.00083249 -0.0011904 0.0013118 -0.0019344 0.0068839
0.23694 0.080894 0.0036056 0.0064474
0.00038783 -0.0005449 -0.00060792 0.00052772 -0.0013434 -0.00042826 -0.00048255 -0.002169
0.0036079 0.0064272 0.27318 0.13646
1820000000 0.25169 -0.11074 0.0045631 0.0027644 -7.0633e-05 0.0023818 -0.00095145 -0.0030634
-0.00082236 0.00062613 -6.4232e-06 -0.00016674
0.0045618 0.0027542 0.25901 0.17033 -0.00020052 4.3194e-05 -0.0013069 0.0008025
-0.0001376 0.0013686 -0.00053913 0.00053321
-6.9873e-05 0.0023851 -0.00019324 4.3351e-05 0.16075 -0.24573 0.0015216 0.0004764
-0.00037914 0.0021531 -0.0013646 0.00051455
-0.00095799 -0.0030482 -0.0013058 0.00079298 0.0015146 0.0004604 0.20365 -0.099046
-0.000903 0.0056097 -0.001667 -0.0013715
-0.00082829 0.00063414 -0.0001327 0.0013706 -0.00036774 0.0021429 -0.00088767 0.0056085
0.25286 0.049581 0.0045082 0.0031624
6.4584e-06 -0.00019312 -0.00052912 0.00054243 -0.0013754 0.00051173 -0.0016741 -0.0013696
0.0044968 0.0031351 0.27571 0.10019
1880000000 0.21586 -0.15018 0.002419 0.00044622 -0.00034841 0.002051 -0.0028203 -0.0022065
-0.00030488 0.0014156 0.00025928 -0.00056856
0.0024204 0.00044228 0.26307 0.12363 -0.0020668 0.0016024 -0.00019981 0.0016645
0.00062127 0.0013876 0.00021342 0.00099637
-0.00033463 0.0020643 -0.002067 0.0016165 0.10915 -0.2554 0.0019601 -0.00095714
0.0014827 0.0021084 -0.00088141 0.0015076
-0.0028271 -0.002173 -0.00019667 0.0016621 0.001966 -0.00095703 0.16184 -0.13837
-0.00060879 0.0044254 -0.0023691 0.00079684
-0.00031157 0.0014298 0.00062761 0.0013796 0.0014823 0.0021154 -0.00060469 0.0044256
0.25424 0.01471 0.0041055 0.0013322
0.00023295 -0.00055607 0.00022178 0.00099318 -0.00085849 0.0015022 -0.002366 0.00080903
0.0040898 0.0013254 0.27569 0.066055
1940000000 0.17616 -0.17518 0.00020452 -0.0013786 0.0013201 0.0019821 -0.003775 0.00054858
0.0010819 0.0010451 -0.00066004 -0.00062553
0.00021281 -0.0013843 0.26308 0.091915 -0.0010472 0.0038288 0.00090729 0.0013409
0.0020162 0.0005906 0.00089099 0.00026957
0.0013279 0.0019772 -0.0010227 0.0038348 0.062755 -0.24899 0.00026833 -0.0023656
0.0024673 0.00059165 0.00042673 0.0016994
-0.0037596 0.0005719 0.00092688 0.0013464 0.00027842 -0.0023702 0.10854 -0.16737
-0.0018301 0.0038907 -0.0012501 0.0018507
0.0010976 0.0010345 0.0020161 0.00057884 0.002466 0.00058986 -0.0018092 0.0038936
0.25329 -0.025962 0.0029186 -0.0017055
-0.00067976 -0.00058699 0.00089281 0.00027284 0.00042327 0.0017033 -0.0012479 0.0018592
0.0029091 -0.0017122 0.26462 0.03015
2000000000 0.13001 -0.18879 -0.0037221 0.00056515 0.0023626 0.001649 -0.0022838 0.0036051
0.00096047 0.00036405 -0.00068025 0.00042461
-0.0037413 0.00055396 0.24847 0.05653 -0.00095462 0.0055242 0.0016496 0.00030693
0.0015586 -0.0014733 0.00049811 0.0001099
0.002361 0.0016547 -0.00091591 0.0055289 0.019115 -0.23462 -0.0014369 -0.0014539
0.0021639 -0.001247 0.0017006 0.0011717
-0.0022748 0.0036211 0.0016429 0.00030212 -0.0014238 -0.0014486 0.055241 -0.17585
-0.0031891 0.0045318 0.00022026 0.0022869
0.0009387 0.00033623 0.0015455 -0.0014947 0.0021487 -0.0012544 -0.003173 0.0045425
