!Keysight Technologies,M9804A,MY58100912,A.14.10.03
!Date: Thursday, April 27, 2023 10:28:33
!Correction: S11(C  6-Port  ) 
!S12(C  6-Port  ) 
!S13(C  6-Port  ) 
!S14(C  6-Port  ) 
!S15(C  6-Port  ) 
!S16(C  6-Port  ) 
!S21(C  6-Port  ) 
!S22(C  6-Port  ) 
!S23(C  6-Port  ) 
!S24(C  6-Port  ) 
!S25(C  6-Port  ) 
!S26(C  6-Port  ) 
!S31(C  6-Port  ) 
!S32(C  6-Port  ) 
!S33(C  6-Port  ) 
!S34(C  6-Port  ) 
!S35(C  6-Port  ) 
!S36(C  6-Port  ) 
!S41(C  6-Port  ) 
!S42(C  6-Port  ) 
!S43(C  6-Port  ) 
!S44(C  6-Port  ) 
!S45(C  6-Port  ) 
!S46(C  6-Port  ) 
!S51(C  6-Port  ) 
!S52(C  6-Port  ) 
!S53(C  6-Port  ) 
!S54(C  6-Port  ) 
!S55(C  6-Port  ) 
!S56(C  6-Port  ) 
!S61(C  6-Port  ) 
!S62(C  6-Port  ) 
!S63(C  6-Port  ) 
!S64(C  6-Port  ) 
!S65(C  6-Port  ) 
!S66(C  6-Port  ) 
!S6P File: Measurement: :
# Hz S  RI   R 50
500000000 -0.33706 -0.033719 -0.0095428 -0.0035126 -0.0078567 0.011975 -0.0034718 0.01161
0.012058 0.0046215 -0.0038962 0.0083111
-0.0095242 -0.0035212 -0.41969 -0.048876 0.0071543 -0.011286 0.0012954 0.011767
0.0075697 0.0026208 0.00037475 0.013009
-0.00784 0.011989 0.0071496 -0.011307 -0.26521 0.21189 0.0068339 0.0032718
4.8642e-05 0.0084842 0.00039096 0.012063
-0.0034929 0.011598 0.0013361 0.011788 0.006828 0.0032582 -0.32767 0.048638
-0.019537 -0.0046529 0.017376 0.02588
0.01209 0.0045674 0.0075689 0.0025776 4.1578e-05 0.0084717 -0.019569 -0.0046343
-0.22781 -0.18142 -0.027512 0.0049873
-0.0038698 0.0082961 0.00042452 0.01304 0.00039677 0.012049 0.017376 0.025907
-0.027509 0.0049933 -0.27116 -0.13316
560000000 -0.31567 0.12534 -0.024125 -0.063002 0.00044313 0.012107 0.0062559 0.0098097
0.011064 0.0042286 0.0096524 0.007546
-0.0241 -0.062959 -0.37706 0.10913 -0.041814 -0.036377 0.013564 0.0038147
-0.013124 -0.004749 0.0041269 -0.00079635
0.00046076 0.012082 -0.041919 -0.036323 -0.18263 0.25963 -0.00060249 -0.0048153
0.019272 0.0043754 0.0074441 -0.0061955
0.0062447 0.0097889 0.013577 0.0037818 -0.00061272 -0.0047993 -0.30273 0.13658
0.0036738 -0.024489 0.0048004 -0.019648
0.011119 0.0042055 -0.013232 -0.0046944 0.019299 0.0043614 0.0036755 -0.024503
-0.28637 -0.0063559 0.0075465 -0.050814
0.0096685 0.0075272 0.0041383 -0.00087942 0.0074233 -0.0061767 0.0048186 -0.019645
0.0075663 -0.050825 -0.33381 0.0164
620000000 -0.27317 0.11031 -0.023015 0.0072283 0.0037722 0.0084208 0.0069337 -0.0054651
0.011228 -0.00069545 0.00043009 -0.0018202
-0.023014 0.0072226 -0.40267 0.063474 -0.019007 -2.5511e-05 -0.0014457 -0.002223
0.010451 -0.0069862 0.0011102 -0.0025099
0.0037608 0.0084044 -0.019027 1.5602e-05 -0.1527 0.26858 -0.0015548 -0.0053341
-0.0035723 -0.0032574 0.0083146 -0.0035056
0.0069346 -0.0054702 -0.0014432 -0.0022122 -0.0015492 -0.0053501 -0.26054 0.14677
-0.039253 -0.018232 0.014332 0.024057
0.011226 -0.00072818 0.010431 -0.0070272 -0.0035814 -0.0032608 -0.039255 -0.018254
-0.20533 -0.046242 -0.041177 0.015554
0.00039066 -0.0018397 0.001104 -0.002528 0.0083174 -0.0035163 0.014331 0.024024
-0.041161 0.015535 -0.25057 -0.022342
680000000 -0.23254 0.19375 -0.027979 -0.013775 0.0047926 0.0049613 0.0011258 -0.0074271
-0.0032842 -0.010834 0.0046968 -0.007129
-0.027954 -0.013781 -0.387 0.16006 -0.032681 -0.0011349 -0.0016028 -0.00024851
-0.0029176 -0.0087763 -0.00097431 -0.0019698
0.0048101 0.0049448 -0.032709 -0.0010488 -0.10157 0.28789 -0.00062289 0.00016611
-0.0023562 0.00074138 -0.0029013 -0.009567
0.0011245 -0.0074398 -0.0015958 -0.0002525 -0.00062378 0.0001652 -0.21812 0.19605
-0.023635 -0.0080468 -0.010572 -0.010556
-0.0032833 -0.010825 -0.0029423 -0.0087874 -0.0023637 0.00074056 -0.023648 -0.0080248
-0.25188 0.051848 -0.0049857 -0.0093947
0.0047023 -0.0071285 -0.0009703 -0.00197 -0.0028961 -0.0095608 -0.010591 -0.010553
-0.0050094 -0.0093985 -0.26238 0.084857
740000000 -0.18899 0.1889 -0.038135 0.026492 0.012675 -0.0053024 -0.00072371 -0.0039194
-0.0047414 -0.0026296 -0.006191 0.0033719
-0.038129 0.026454 -0.33491 0.17888 -0.034637 0.035045 -0.00098094 -0.0063935
-0.011003 0.0083668 -0.0030965 -0.0061927
0.012634 -0.0053303 -0.034547 0.035175 -0.067988 0.2865 -0.0014716 0.0032135
-0.0028696 -0.0038527 -0.0010087 -4.855e-05
-0.00073887 -0.0039234 -0.0010084 -0.0063915 -0.0014679 0.0032218 -0.20197 0.20375
-0.042138 -0.0073177 0.02233 0.013012
-0.0048007 -0.002604 -0.010961 0.0084155 -0.0028658 -0.0038379 -0.042175 -0.0072814
-0.15723 0.07468 -0.041168 0.000945
-0.0062357 0.0033784 -0.0031468 -0.0062025 -0.0010056 -4.2414e-05 0.022356 0.013021
-0.041179 0.0009095 -0.25511 0.090285
800000000 -0.15678 0.22896 -0.022223 0.017306 0.005272 -0.010529 -0.0048352 -0.0019825
-0.0041158 0.0030061 0.004631 0.00081587
-0.022221 0.017263 -0.33702 0.24896 -0.0076377 0.033969 -0.0021158 0.0022018
-0.00055416 0.0035252 0.0012693 0.0052839
0.0052329 -0.010545 -0.0075468 0.034021 -0.026723 0.30937 0.0011951 0.0015668
0.00063854 0.0035898 -0.0018387 0.00085685
-0.0048377 -0.0019822 -0.0021092 0.0022067 0.0011855 0.0015725 -0.17355 0.23115
-0.02826 0.012832 0.013431 -0.0099988
-0.0041031 0.0029989 -0.00054245 0.0035411 0.00064909 0.0035942 -0.02826 0.012894
-0.19909 0.099686 -0.01743 0.017735
0.0046198 0.00079401 0.0012979 0.0052838 -0.0018414 0.00085291 0.013438 -0.0099878
-0.017434 0.017715 -0.24675 0.14482
860000000 -0.12199 0.24992 -0.016835 0.031111 -0.0033501 -0.0097823 -0.0025735 0.001306
0.0041761 0.0051112 -0.0029693 -0.0026801
-0.016828 0.031094 -0.28898 0.29056 0.0082871 0.033989 0.00023421 0.0021191
0.0044752 0.00043549 0.0033938 0.00035326
-0.0033777 -0.0097798 0.0083888 0.033994 0.021477 0.31704 -0.00031322 -0.00026606
0.0028259 -0.0015748 0.0014824 0.0044267
-0.002565 0.0013275 0.00023259 0.0021167 -0.00030644 -0.00027092 -0.13794 0.24288
-0.017738 0.018578 -0.0062347 -0.0093248
0.0041969 0.0050903 0.0044765 0.00043446 0.0028284 -0.0015809 -0.017727 0.018606
-0.15032 0.14718 -0.02429 0.01564
-0.0029881 -0.0026739 0.0034017 0.00033738 0.001483 0.0044286 -0.0062334 -0.0093074
-0.024283 0.015625 -0.1961 0.18922
920000000 -0.096863 0.27292 0.0053761 0.037581 -0.0093881 -0.0042627 -0.0017711 0.0022281
0.001347 0.0016138 0.0025646 -0.0014357
0.0053593 0.037555 -0.26008 0.31126 0.027994 0.021463 0.0016286 0.0010129
0.0069017 -0.00078697 0.0036365 -0.0029632
-0.0094064 -0.0042427 0.028077 0.021403 0.067764 0.31738 0.0017826 -0.00017351
0.0013539 -0.00045428 0.00071784 -0.0011426
-0.0017533 0.0022164 0.0016092 0.00099384 0.0017852 -0.00018298 -0.11364 0.25897
-0.01009 0.029854 0.0026162 -0.0066782
0.0013569 0.0015808 0.0069024 -0.00079674 0.0013544 -0.00045593 -0.010031 0.029885
-0.13951 0.15333 -0.0016942 0.027502
0.0025512 -0.0014438 0.0036363 -0.0029863 0.00071515 -0.0011472 0.0026211 -0.0066925
-0.0017131 0.027511 -0.20402 0.20267
980000000 -0.04925 0.29224 0.017914 0.029624 -0.0087582 0.004646 0.0024684 0.0036461
0.0039725 -0.0016157 -0.0029664 -0.0020998
0.017875 0.029612 -0.2072 0.34469 0.032761 0.0044456 0.0019944 -6.3469e-05
0.0010445 -0.0061753 -0.00054469 -0.0022317
-0.0087419 0.004672 0.03279 0.004341 0.11407 0.31043 0.00039072 -0.0012072
-1.2953e-05 -0.0021098 0.0014892 -2.4295e-05
0.0024823 0.0036557 0.0019937 -8.7933e-05 0.00038286 -0.0012036 -0.075282 0.27042
0.007554 0.028594 -0.0091923 -0.0065397
0.003975 -0.0016395 0.0009999 -0.0061819 -1.8232e-05 -0.0021096 0.0076083 0.028592
-0.10771 0.1803 0.0051796 0.018882
-0.0029812 -0.0020924 -0.0005512 -0.0022215 0.0014928 -3.2862e-05 -0.0092015 -0.0065268
0.0051812 0.018887 -0.1606 0.2488
1040000000 -0.0064572 0.30026 0.033123 0.017432 -0.0011845 0.0067606 0.002824 0.00072346
1.3672e-05 -0.0035512 -0.00057578 -0.0014061
0.033107 0.017441 -0.17163 0.35759 0.028849 -0.014993 0.0015188 -0.0016611
-0.002603 -0.0022997 -0.0015484 -0.0027044
-0.0011424 0.0067499 0.028806 -0.01509 0.16007 0.29652 -0.00053416 -0.0013748
-0.0015673 -0.00076691 -0.00042189 -0.0011466
0.0028342 0.00073241 0.0014958 -0.0016865 -0.00053331 -0.001376 -0.047906 0.28044
0.018347 0.016834 -0.0029788 0.0019446
-4.2611e-06 -0.0035536 -0.0026264 -0.0022554 -0.0015709 -0.00076943 0.018379 0.016804
-0.076832 0.18858 0.013485 0.017448
-0.00059969 -0.001405 -0.0015463 -0.0026888 -0.000424 -0.0011462 -0.0029651 0.0019416
0.01348 0.017466 -0.14058 0.27033
1100000000 0.03919 0.30746 0.035449 -0.0046546 0.0028231 0.0037417 0.0025333 -0.0014692
-0.0021273 -0.0030934 -0.003946 5.702e-05
0.03543 -0.004626 -0.1281 0.3744 0.014645 -0.027528 1.0759e-06 -0.001808
-0.0031247 -0.00045564 -0.0034708 -0.00050049
0.0028395 0.0037325 0.014545 -0.0276 0.20632 0.27586 -0.0017832 0.00027536
-0.0016499 0.00069262 -0.00093414 -0.00034494
0.0025248 -0.0014712 -6.5873e-06 -0.0018223 -0.0017857 0.0002635 -0.007378 0.28514
0.022675 0.0046919 -0.0024217 0.00087511
-0.0021297 -0.0030925 -0.0031342 -0.0004326 -0.0016473 0.00070634 0.022685 0.0046527
-0.058271 0.20136 0.018623 0.0082986
-0.0039521 7.5395e-05 -0.003468 -0.00047749 -0.00092886 -0.00035265 -0.0024194 0.00087693
0.018633 0.008302 -0.093558 0.30011
1160000000 0.090733 0.30185 0.023409 -0.020835 0.0025916 -0.00048826 -0.00010625 -0.0025402
-0.0040385 -0.0004781 -0.00099891 0.0040448
0.023425 -0.020795 -0.084512 0.37831 -0.0039277 -0.028657 -0.0017741 -0.0015972
-0.0023035 0.0026186 -0.0013988 0.0015935
0.0026019 -0.00050897 -0.0040581 -0.028655 0.24909 0.24481 -0.00057909 0.001731
-0.00035607 0.0018251 -0.0010458 0.0001772
-0.00011784 -0.0025303 -0.0017862 -0.0016141 -0.00059394 0.0017202 0.031849 0.28231
0.019097 -0.009848 -0.0027661 0.0055488
-0.004028 -0.00046786 -0.0022984 0.0026492 -0.00036105 0.0018303 0.019084 -0.0098798
-0.025161 0.21042 0.017323 0.00064455
-0.00099082 0.0040245 -0.0013807 0.0016117 -0.0010426 0.00018101 -0.002766 0.0055555
0.017336 0.00062761 -0.046317 0.30295
1220000000 0.13513 0.28997 0.0098753 -0.029712 -0.0015803 -0.00071454 -0.00013078 -0.0011492
-0.0025032 0.0025587 0.0013606 0.0018932
0.0098921 -0.029678 -0.040444 0.38987 -0.016756 -0.020693 -0.0025041 0.00044515
0.00030388 0.0028229 -0.00064416 0.0018186
-0.0015783 -0.00070537 -0.016867 -0.020645 0.28805 0.20577 0.00090614 0.001538
0.00060845 0.0011253 0.00026983 0.00076401
-0.00013635 -0.0011493 -0.0025065 0.0004517 0.00091299 0.0015369 0.071557 0.27379
0.0090341 -0.015483 0.002666 0.0017922
-0.0024912 0.002562 0.00031526 0.0028343 0.00059902 0.0011224 0.0090137 -0.015498
-0.0016472 0.21973 0.013267 -0.012315
0.0013631 0.0018825 -0.00062997 0.0018283 0.0002722 0.00076531 0.0026607 0.0017912
0.01327 -0.012337 -0.01493 0.32094
1280000000 0.18448 0.2673 -0.0080884 -0.027931 -0.0017537 0.0025548 -0.0011209 -0.0019789
-0.00058314 0.0031011 0.0025535 0.00096763
-0.0080703 -0.027904 0.0052006 0.38062 -0.023315 -0.0082397 -0.000972 0.0014659
0.0016911 0.0015664 0.00053329 0.0019132
-0.0017432 0.0025715 -0.023381 -0.0081523 0.3185 0.16184 0.0014136 -0.00018171
0.00097654 0.0001081 0.00034561 0.00039685
-0.0011313 -0.0019655 -0.00097278 0.0014691 0.0014164 -0.00017817 0.108 0.25765
0.00030109 -0.017012 0.00058284 0.00014022
-0.00056735 0.0031111 0.0016999 0.0015504 0.00098144 0.00010748 0.00028116 -0.017009
0.035298 0.22323 0.0028701 -0.014156
0.0025607 0.00094473 0.00053751 0.0019175 0.00035068 0.00039993 0.00057782 0.00014339
0.0028724 -0.014176 0.032834 0.32251
1340000000 0.22119 0.23308 -0.01755 -0.018487 0.00093588 0.0043277 -0.0019361 -0.00072719
0.0014906 0.002547 0.0016342 -0.0015456
-0.017518 -0.018478 0.044436 0.37226 -0.021226 0.0041955 -3.2878e-05 0.0019363
0.0017048 0.00057589 0.0013121 0.00089954
0.00096408 0.0043178 -0.02123 0.0043053 0.34059 0.11394 0.00090963 -0.00089196
0.00059214 -0.00039526 0.00018901 0.00019649
-0.0019413 -0.0007238 -2.3126e-05 0.0019385 0.00090719 -0.00089398 0.14101 0.2376
-0.0077854 -0.014057 0.0013477 8.2362e-05
0.0014974 0.0025467 0.0017205 0.00057054 0.00059336 -0.0003938 -0.0078079 -0.014053
0.065712 0.21861 -0.0034527 -0.012692
0.0016246 -0.001548 0.0013132 0.00088561 0.00018908 0.00019533 0.0013357 8.18e-05
-0.0034412 -0.012709 0.071985 0.31872
1400000000 0.2537 0.19454 -0.023022 -0.0071894 0.0050576 0.0030356 -0.0020294 0.00072528
0.0024345 0.00064067 0.00020749 -0.0013161
-0.022994 -0.0072036 0.081411 0.35916 -0.01458 0.012171 0.0013402 0.0012183
0.00092411 -0.0008622 0.0011872 0.00029138
0.0050716 0.0030108 -0.014533 0.012256 0.35365 0.060167 7.2378e-05 -0.0014629
4.8147e-05 -0.00034189 0.000334 0.00022852
-0.0020326 0.00072931 0.0013471 0.001214 7.4868e-05 -0.0014665 0.17094 0.20914
-0.012583 -0.007983 -0.00051601 -0.00086438
0.0024313 0.00062228 0.00093156 -0.0008682 4.5464e-05 -0.00034383 -0.012598 -0.0079623
0.098856 0.21362 -0.0094603 -0.0080346
0.0001979 -0.001309 0.0011922 0.00026979 0.00033419 0.00023172 -0.00053228 -0.00086129
-0.0094721 -0.0080599 0.11729 0.30803
1460000000 0.27606 0.15018 -0.02006 0.0046491 0.0054659 -0.0017532 -0.0014886 0.001754
0.0019517 -0.00074309 -0.00032619 -0.0008304
-0.02004 0.004629 0.11551 0.33734 -0.0060924 0.014979 0.0016819 0.00013639
0.00075334 -0.0011283 0.0011654 -0.00058888
0.0054649 -0.0017675 -0.006031 0.015023 0.35949 0.0055732 -0.0011281 -0.0012085
0.00023495 -9.6047e-05 0.00064165 -0.00041174
-0.0014844 0.0017499 0.0016711 0.00012804 -0.0011224 -0.0012028 0.19796 0.18001
-0.013136 -0.0024741 -0.0010626 0.0014701
0.0019556 -0.00075413 0.00073566 -0.0011314 0.00023423 -9.9988e-05 -0.013133 -0.0024487
0.12878 0.19856 -0.010911 -0.0026628
-0.0003323 -0.00082455 0.0011588 -0.00060343 0.00064067 -0.00040753 -0.0010645 0.001464
-0.010931 -0.0026801 0.15094 0.2872
1520000000 0.28784 0.10833 -0.014487 0.010134 0.0031224 -0.004108 0.00015481 0.0025825
0.0017073 -0.0016689 -0.0011671 -0.00017571
-0.014479 0.010116 0.14898 0.32255 0.0013485 0.012906 0.0015662 -0.00081449
7.9973e-05 -0.00087813 0.00031739 -0.0010415
0.0031103 -0.0041163 0.001432 0.012913 0.35267 -0.050688 -0.00094494 -0.00034021
0.00059501 -0.00078723 -4.2281e-05 -0.00011998
0.00016557 0.0025779 0.001558 -0.00082077 -0.00094023 -0.0003414 0.22186 0.14164
-0.012437 0.0021096 0.0010624 0.001744
0.0016988 -0.0016833 7.8411e-05 -0.0008801 0.00059476 -0.00079267 -0.012438 0.0021308
0.15714 0.18377 -0.011031 0.0013333
-0.001172 -0.0001661 0.00030659 -0.0010463 -4.3316e-05 -0.00012173 0.0010753 0.0017564
-0.011064 0.0013181 0.18493 0.2673
1580000000 0.2967 0.061785 -0.0080315 0.013126 -0.00095537 -0.0048047 0.0014232 0.0018242
-0.00050077 -0.0020404 -0.00036529 0.00037227
-0.0080359 0.013115 0.17623 0.29769 0.0049869 0.0082044 0.00043054 -0.0015248
-0.00038786 -0.00095318 -0.00026065 -0.00086976
-0.00097596 -0.0048001 0.0050343 0.0081902 0.33211 -0.10841 -0.0014849 0.0005154
-0.00027195 -0.0011146 0.00010566 -0.00052878
0.0014268 0.0018204 0.00042143 -0.0015271 -0.0014859 0.00050862 0.23651 0.10155
-0.0096621 0.0059813 0.0018407 0.0006037
-0.00050871 -0.0020348 -0.00039504 -0.00094998 -0.00027403 -0.0011147 -0.0096603 0.0059975
0.18166 0.1651 -0.0087757 0.0065436
-0.00036449 0.00037717 -0.00027532 -0.00086328 0.00010637 -0.00052917 0.0018449 0.00060173
-0.0087988 0.0065477 0.2174 0.24042
1640000000 0.29815 0.020091 -0.0015073 0.012112 -0.0026548 -0.002479 0.0026021 0.00096088
-0.0007722 -0.0011296 -0.00032558 0.0006955
-0.0015128 0.012107 0.2056 0.27246 0.005693 0.0035722 -0.00071978 -0.0015989
-0.00091364 -0.00046418 -0.00054099 -0.00065285
-0.0026667 -0.0024782 0.0057206 0.0035463 0.30361 -0.15751 -0.0008372 0.0013216
-0.0010269 -0.00083595 -0.0001402 -0.00032827
0.0026065 0.00094958 -0.00072996 -0.0015895 -0.0008415 0.0013232 0.24901 0.051621
-0.0063346 0.0068249 0.0021696 -0.00074251
-0.00078273 -0.0011223 -0.00090938 -0.00045353 -0.0010296 -0.00083266 -0.0063208 0.0068467
0.2046 0.13947 -0.0043422 0.0086584
-0.00032466 0.00070084 -0.00054333 -0.00065587 -0.00014242 -0.00032591 0.0021674 -0.0007488
-0.004364 0.0086691 0.24373 0.20907
1700000000 0.29017 -0.025254 0.0018746 0.0094471 -0.0034632 5.1802e-05 0.0029171 -0.0011258
-0.0018013 -0.00039097 0.00063545 0.00045163
0.0018632 0.0094479 0.22366 0.24073 0.0038351 0.00075184 -0.001354 -0.00053697
-0.00077974 -3.3553e-05 -0.00094692 -0.00042994
-0.0034716 6.8439e-05 0.0038439 0.00073217 0.26007 -0.19731 0.00029395 0.0015285
-0.001749 -0.0002554 -0.00056141 -0.00094616
0.0029122 -0.0011378 -0.0013638 -0.00053458 0.00029084 0.0015239 0.2454 0.00063781
-0.0044261 0.0073024 0.001287 -0.0020146
-0.0017968 -0.00037104 -0.00077951 -2.7202e-05 -0.0017503 -0.00025828 -0.0044112 0.0073133
0.22213 0.11764 -7.4963e-05 0.0091119
0.00063782 0.00044715 -0.00094575 -0.00042669 -0.00056216 -0.00094194 0.0012885 -0.0020265
-8.4365e-05 0.0091407 0.26056 0.17435
1760000000 0.27711 -0.073678 0.0042239 0.006297 -0.0022393 0.00083898 0.0013408 -0.0033387
-0.00098572 0.0006461 0.0003906 -0.00052829
0.0042135 0.0062954 0.24935 0.20056 0.0017197 -0.0010065 -0.0010646 0.00017824
-0.0011486 0.00081893 -0.00061937 0.00052157
-0.0022273 0.00085602 0.0017053 -0.0010144 0.21091 -0.23037 0.0010824 0.0012497
-0.0011852 0.0013088 -0.0013435 -0.00041758
0.0013334 -0.0033429 -0.0010651 0.00018767 0.0010772 0.0012537 0.23508 -0.051651
-0.0019524 0.0068698 -0.00048378 -0.0021598
-0.00098604 0.00066386 -0.0011387 0.00083399 -0.0011884 0.0013059 -0.0019366 0.0068828
0.23691 0.080912 0.0035996 0.0064012
0.00039471 -0.00053303 -0.00060971 0.00053421 -0.0013465 -0.00041594 -0.0004786 -0.0021672
0.003606 0.0064176 0.27319 0.13647
1820000000 0.2517 -0.1107 0.0045571 0.0027574 -7.7298e-05 0.0023858 -0.00095079 -0.0030588
-0.00081811 0.00063227 -8.3012e-06 -0.00016494
0.0045515 0.0027641 0.25898 0.17034 -0.00020718 4.068e-05 -0.0013048 0.00079821
-0.00014378 0.0013702 -0.00053786 0.00053597
-6.9102e-05 0.0023792 -0.0002057 4.1607e-05 0.16075 -0.2457 0.0015189 0.00046349
-0.00038088 0.0021406 -0.001369 0.00051861
-0.00096544 -0.0030572 -0.0013115 0.00081288 0.0015219 0.00047125 0.20363 -0.099067
-0.00089233 0.005603 -0.0016715 -0.00137
-0.00082252 0.00063615 -0.00012761 0.0013734 -0.00037798 0.0021468 -0.00088347 0.0056058
0.25286 0.049603 0.0044757 0.0031145
-4.9457e-06 -0.00016831 -0.00053572 0.00054069 -0.0013682 0.00052517 -0.0016768 -0.0013753
0.0044917 0.0031317 0.27571 0.10018
1880000000 0.21586 -0.15014 0.0024247 0.00044992 -0.00034553 0.0020517 -0.0028242 -0.0022133
-0.00030849 0.0014099 0.00025612 -0.00056713
0.0024196 0.00044993 0.26301 0.12368 -0.0020786 0.001611 -0.00020274 0.001664
0.00062102 0.0013872 0.00021765 0.00099557
-0.00033043 0.0020503 -0.0020683 0.0016209 0.10914 -0.25541 0.0019564 -0.00095781
0.0014838 0.0021124 -0.00087619 0.001504
-0.0028337 -0.0021993 -0.000198 0.0016566 0.001958 -0.00095199 0.16183 -0.13837
-0.00060369 0.0044161 -0.0023721 0.00080776
-0.00029933 0.001415 0.0006325 0.0013828 0.0014969 0.0021119 -0.00059066 0.0044231
0.25422 0.014735 0.004061 0.0013148
0.00025858 -0.00057514 0.00022511 0.0009966 -0.00087249 0.0015117 -0.0023752 0.00080713
0.0040865 0.0013348 0.27565 0.066107
1940000000 0.17614 -0.17513 0.00020555 -0.0013765 0.0013037 0.0019479 -0.0037716 0.00055712
0.0010879 0.0010321 -0.00066061 -0.00062838
0.00021019 -0.0013707 0.26306 0.091937 -0.0010373 0.0038138 0.00091641 0.0013363
0.0020125 0.00058589 0.00089545 0.0002692
0.0013097 0.0019484 -0.0010138 0.0038128 0.062785 -0.24897 0.00026225 -0.0023559
0.0024682 0.00059344 0.0004212 0.0016937
-0.0037671 0.00056446 0.00092327 0.0013366 0.00026826 -0.0023597 0.10853 -0.16738
-0.0018246 0.0038743 -0.0012405 0.0018529
0.0010933 0.0010353 0.0020174 0.00057085 0.0024682 0.00059624 -0.0018066 0.0038907
0.2533 -0.025949 0.0028869 -0.0017215
-0.00066719 -0.00062207 0.00089991 0.00026507 0.00042209 0.0016985 -0.0012517 0.0018561
0.0029081 -0.0017002 0.26463 0.030323
2000000000 0.12999 -0.18876 -0.0037288 0.0005665 0.0023763 0.0016446 -0.0022853 0.0036074
0.00095654 0.00035975 -0.00068012 0.00042603
-0.0037276 0.00055936 0.24842 0.056547 -0.00095696 0.0055269 0.0016567 0.00030423
0.0015583 -0.0014655 0.00049818 0.00010728
0.0023883 0.0016385 -0.00092766 0.0055487 0.019108 -0.23462 -0.0014279 -0.0014494
0.0021686 -0.0012504 0.0016989 0.0011732
-0.0022668 0.0036266 0.0016509 0.00029547 -0.0014344 -0.0014467 0.055228 -0.17583
-0.0031926 0.0045262 0.00022567 0.002282
