!Keysight Technologies,M9804A,MY58100912,A.14.10.03
!Date: Thursday, April 27, 2023 10:28:33
!Correction: S11(C  6-Port  ) 
!S12(C  6-Port  ) 
!S13(C  6-Port  ) 
!S14(C  6-Port  ) 
!S15(C  6-Port  ) 
!S16(C  6-Port  ) 
!S21(C  6-Port  ) 
!S22(C  6-Port  ) 
!S23(C  6-Port  ) 
!S24(C  6-Port  ) 
!S25(C  6-Port  ) 
!S26(C  6-Port  ) 
!S31(C  6-Port  ) 
!S32(C  6-Port  ) 
!S33(C  6-Port  ) 
!S34(C  6-Port  ) 
!S35(C  6-Port  ) 
!S36(C  6-Port  ) 
!S41(C  6-Port  ) 
!S42(C  6-Port  ) 
!S43(C  6-Port  ) 
!S44(C  6-Port  ) 
!S45(C  6-Port  ) 
!S46(C  6-Port  ) 
!S51(C  6-Port  ) 
!S52(C  6-Port  ) 
!S53(C  6-Port  ) 
!S54(C  6-Port  ) 
!S55(C  6-Port  ) 
!S56(C  6-Port  ) 
!S61(C  6-Port  ) 
!S62(C  6-Port  ) 
!S63(C  6-Port  ) 
!S64(C  6-Port  ) 
!S65(C  6-Port  ) 
!S66(C  6-Port  ) 
!S6P File: Measurement: :
# Hz S  RI   R 50
500000000 -0.33684 -0.033618 -0.0097488 -0.0037796 -0.0079365 0.012002 -0.0035977 0.011479
0.012257 0.0047244 -0.0040665 0.0083298
-0.0097509 -0.0037738 -0.41969 -0.048777 0.007223 -0.011333 0.001507 0.01183
0.007329 0.0023952 0.00031927 0.013014
-0.0079098 0.012016 0.0071945 -0.011348 -0.26514 0.212 0.0069768 0.0033019
-0.00010382 0.0084845 0.00045357 0.011994
-0.0035798 0.011483 0.0015204 0.011898 0.0069942 0.0033101 -0.32742 0.048768
-0.019872 -0.0048903 0.017382 0.025777
0.012281 0.0046038 0.0073629 0.0025134 -4.7977e-05 0.008519 -0.019896 -0.0048584
-0.22792 -0.18071 -0.027617 0.0049327
-0.0039581 0.0081443 0.00084734 0.013388 0.00072345 0.01227 0.017813 0.026139
-0.028025 0.0044001 -0.27125 -0.13353
560000000 -0.31582 0.12551 -0.023938 -0.062753 0.00027416 0.012025 0.0063374 0.009647
0.010771 0.0042655 0.0096398 0.0076731
-0.023908 -0.062688 -0.37701 0.10933 -0.041761 -0.036665 0.013416 0.0036511
-0.0132 -0.0046153 0.0039948 -0.0007576
0.00031893 0.012025 -0.041865 -0.036593 -0.18256 0.25986 -0.00058185 -0.0047152
0.019241 0.0043514 0.0074049 -0.0061519
0.0063984 0.0096533 0.013461 0.0036658 -0.00061785 -0.0047409 -0.30205 0.13686
0.0035671 -0.024397 0.0048674 -0.01966
0.010625 0.0043333 -0.0131 -0.0045692 0.019298 0.0044292 0.0037319 -0.024458
-0.28656 -0.0067933 0.007501 -0.05097
0.0097889 0.0076756 0.004517 -0.00073623 0.007175 -0.006051 0.0048868 -0.019245
0.0072563 -0.050636 -0.3341 0.016355
620000000 -0.27312 0.11043 -0.023161 0.0072905 0.003722 0.0084432 0.0069346 -0.0053717
0.011304 -0.0010243 0.00033642 -0.001707
-0.023157 0.0072862 -0.40259 0.063528 -0.018709 4.2069e-05 -0.0013411 -0.0019703
0.01023 -0.0069853 0.0011455 -0.0024906
0.0037381 0.0084457 -0.018728 0.00010724 -0.15214 0.2687 -0.0014751 -0.0051915
-0.0038368 -0.0032176 0.0084844 -0.0035883
0.006898 -0.0054228 -0.0013515 -0.0019507 -0.0015036 -0.005169 -0.26068 0.14661
-0.039103 -0.018161 0.014413 0.024239
0.011087 -0.0008874 0.010329 -0.0071027 -0.0036842 -0.0032602 -0.038909 -0.017913
-0.20541 -0.046248 -0.041539 0.015374
3.5954e-05 -0.0019884 0.00098654 -0.0023943 0.0085293 -0.0032864 0.014417 0.024361
-0.041027 0.015231 -0.25107 -0.022179
680000000 -0.23259 0.19382 -0.028051 -0.01382 0.004796 0.0050117 0.0011615 -0.0074521
-0.0032199 -0.010984 0.0047065 -0.0071384
-0.028006 -0.013825 -0.38697 0.16024 -0.03269 -0.0010979 -0.0015312 -0.00022028
-0.002737 -0.008832 -0.0010075 -0.0019961
0.0048024 0.0049984 -0.032718 -0.001025 -0.10162 0.28794 -0.00057991 0.00011682
-0.0023183 0.00066906 -0.0029218 -0.0095538
0.0011441 -0.007422 -0.0015454 -0.00022829 -0.00058026 0.00011776 -0.218 0.19608
-0.023657 -0.0079163 -0.010634 -0.010448
-0.0032594 -0.01097 -0.0027586 -0.0089034 -0.0023708 0.00063929 -0.023645 -0.0080764
-0.25171 0.051991 -0.0051547 -0.0093202
0.0045819 -0.0071112 -0.0010625 -0.0020877 -0.0029662 -0.0096029 -0.01079 -0.010548
-0.0051743 -0.0096028 -0.26246 0.085002
740000000 -0.18895 0.18883 -0.038255 0.026749 0.012617 -0.0053095 -0.00071649 -0.0039177
-0.0047775 -0.0025683 -0.0062653 0.0034937
-0.038214 0.026725 -0.33482 0.17898 -0.034578 0.034944 -0.0010004 -0.0063656
-0.011058 0.0080334 -0.003217 -0.0060503
0.012611 -0.0053331 -0.034493 0.035067 -0.067901 0.28651 -0.001561 0.0031839
-0.002785 -0.0038327 -0.0010985 -3.2739e-05
-0.0007246 -0.0039015 -0.0010089 -0.006397 -0.0015654 0.0031896 -0.20187 0.20376
-0.042204 -0.0074696 0.022359 0.013136
-0.0046859 -0.0026229 -0.011064 0.0081432 -0.0027526 -0.0039049 -0.042391 -0.0074912
-0.15666 0.075073 -0.041128 0.0010432
-0.0062259 0.0034552 -0.0031633 -0.0063596 -0.0010279 -4.6677e-05 0.022365 0.013247
-0.041559 0.0010225 -0.25549 0.09039
800000000 -0.15679 0.22899 -0.022184 0.017315 0.0052969 -0.010524 -0.0047936 -0.0020081
-0.0041135 0.0030207 0.0045852 0.00080491
-0.022184 0.017299 -0.33697 0.249 -0.0076667 0.033975 -0.0021014 0.0021479
-0.00065154 0.0035275 0.0012481 0.0052228
0.0052645 -0.010535 -0.0075699 0.034027 -0.0268 0.30941 0.0012256 0.0015511
0.0006272 0.0035439 -0.0018022 0.00079801
-0.0048155 -0.0019946 -0.0021018 0.0021614 0.0012218 0.0015615 -0.1735 0.23113
-0.028267 0.012837 0.013467 -0.0099985
-0.0041121 0.0030447 -0.00055559 0.0035365 0.00070708 0.0036009 -0.02829 0.01288
-0.19897 0.099716 -0.017473 0.017701
0.0046216 0.00076353 0.0012878 0.0052077 -0.0017411 0.00081361 0.013531 -0.010051
-0.017455 0.017743 -0.24666 0.14511
860000000 -0.12212 0.24995 -0.016833 0.031124 -0.0033383 -0.0098086 -0.0026328 0.0013315
0.0041925 0.0051901 -0.0029531 -0.0026789
-0.016845 0.031108 -0.28892 0.29067 0.0083177 0.033987 0.00019609 0.0021056
0.0044676 0.0005123 0.0032998 0.00037107
-0.003372 -0.0097979 0.0084325 0.033996 0.021481 0.31711 -0.0003091 -0.00026724
0.0028079 -0.0015922 0.0015147 0.0044052
-0.0026397 0.0013415 0.00019013 0.0021069 -0.00030918 -0.00026616 -0.13798 0.24288
-0.017786 0.018636 -0.0061799 -0.0093143
0.0041945 0.0050906 0.0045166 0.00040287 0.0027941 -0.0016079 -0.017696 0.018627
-0.15005 0.14725 -0.024328 0.015798
-0.0031047 -0.0027389 0.0033486 0.00025319 0.0015755 0.0044669 -0.0063025 -0.0093166
-0.024451 0.015712 -0.19599 0.18919
920000000 -0.096798 0.27294 0.0054573 0.037517 -0.0093454 -0.0042673 -0.001739 0.0022643
0.0013632 0.0015858 0.0026016 -0.001433
0.0054321 0.037494 -0.25992 0.31135 0.027977 0.021465 0.0015777 0.00096243
0.0069366 -0.00083008 0.0035882 -0.0029949
-0.0093642 -0.0042395 0.028083 0.021402 0.067778 0.31739 0.0017773 -0.00017531
0.0013583 -0.00045276 0.0006955 -0.0011696
-0.0017336 0.0022778 0.0015917 0.00097093 0.0017846 -0.0001721 -0.11368 0.25903
-0.010095 0.029807 0.0026179 -0.0067158
0.001441 0.0015533 0.0068813 -0.00081889 0.0013464 -0.00046093 -0.010065 0.029829
-0.13938 0.15318 -0.001594 0.027523
0.0024363 -0.0015061 0.0037164 -0.0030903 0.00074323 -0.001179 0.0025912 -0.0067179
-0.0016467 0.027497 -0.20395 0.20288
980000000 -0.049267 0.2922 0.017941 0.029636 -0.0087559 0.00466 0.0024445 0.0036632
0.003978 -0.0017063 -0.0029361 -0.0020464
0.01789 0.029629 -0.20722 0.3447 0.032725 0.0044052 0.0019559 -0.00010479
0.0010418 -0.0061485 -0.00050531 -0.002242
-0.0087491 0.0046763 0.032772 0.0043161 0.11405 0.31043 0.00037913 -0.0012078
-1.7426e-05 -0.0020775 0.0014847 -6.6806e-05
0.0024556 0.0036583 0.0019637 -8.9735e-05 0.00037187 -0.0012103 -0.075322 0.27043
0.0075236 0.028614 -0.0092019 -0.0065459
0.0039575 -0.0017448 0.0010069 -0.0061744 -1.6782e-05 -0.0020776 0.0075957 0.028577
-0.10764 0.18017 0.0052297 0.018958
-0.0030164 -0.0020918 -0.00052021 -0.0022107 0.0015309 -2.0741e-05 -0.0092339 -0.0065819
0.0051678 0.018925 -0.16049 0.24883
1040000000 -0.0063734 0.30035 0.033176 0.017402 -0.0011744 0.0067783 0.00282 0.00077488
6.326e-07 -0.0036314 -0.00057721 -0.0014171
0.033129 0.017429 -0.17165 0.35757 0.02879 -0.014975 0.0014544 -0.0016627
-0.0025521 -0.002282 -0.0015602 -0.0027381
-0.0011642 0.0067698 0.02878 -0.015084 0.16009 0.2965 -0.00051921 -0.0013848
-0.001576 -0.00075286 -0.0004348 -0.0011339
0.0028267 0.00075826 0.0014885 -0.0016588 -0.00051884 -0.0013918 -0.047904 0.2805
0.018299 0.016843 -0.0029964 0.001947
-2.6939e-05 -0.0035817 -0.0026589 -0.0022765 -0.0015427 -0.00076359 0.018331 0.016825
-0.076872 0.18844 0.013558 0.017446
-0.00056638 -0.0014738 -0.0015701 -0.0027335 -0.00044341 -0.0011566 -0.0029801 0.0019923
0.013498 0.017494 -0.14055 0.2703
1100000000 0.039254 0.30751 0.035456 -0.0047395 0.0028455 0.0037108 0.0025447 -0.0014762
-0.0021076 -0.0030787 -0.0039772 0.00010646
0.035421 -0.0047076 -0.12813 0.3744 0.014628 -0.027571 7.5748e-06 -0.0018371
-0.0031481 -0.00043838 -0.0034752 -0.00047586
0.0028647 0.0036972 0.014546 -0.027655 0.20631 0.27588 -0.0017612 0.00027138
-0.0016588 0.00070364 -0.00094997 -0.00034596
0.0025514 -0.0014962 1.2338e-05 -0.0018346 -0.0017648 0.0002757 -0.0073566 0.28524
0.022647 0.0047315 -0.0024612 0.00084412
-0.0021145 -0.0030416 -0.0031218 -0.00042826 -0.0016247 0.00070717 0.022636 0.0046958
-0.058364 0.20124 0.018695 0.0082585
-0.0040184 7.017e-05 -0.0035052 -0.00047635 -0.00096079 -0.00031975 -0.0024618 0.00085123
0.018713 0.0082477 -0.093561 0.30009
1160000000 0.090847 0.30194 0.023437 -0.020912 0.002593 -0.00046483 -0.00011562 -0.0025264
-0.0040089 -0.00049632 -0.0010564 0.004026
0.023432 -0.020865 -0.084566 0.37841 -0.0039285 -0.028604 -0.0017974 -0.0016431
-0.0023079 0.0026291 -0.0013929 0.0015854
0.0025986 -0.00048036 -0.004052 -0.028605 0.24907 0.24485 -0.00058222 0.0017072
-0.0003489 0.0018362 -0.0010366 0.00016089
-0.00011042 -0.0025445 -0.0017881 -0.0016386 -0.00058666 0.0017048 0.03188 0.28237
0.019084 -0.0098099 -0.0027846 0.0055065
-0.0040327 -0.00046683 -0.0023125 0.0026259 -0.00034283 0.0018289 0.019072 -0.0098104
-0.02532 0.21035 0.01739 0.00057203
-0.00102 0.0040576 -0.0013575 0.0016299 -0.0010218 0.00019572 -0.0027695 0.0055241
0.017394 0.00054053 -0.046423 0.30307
1220000000 0.13534 0.29 0.0098671 -0.029794 -0.0015826 -0.00071631 -0.00013089 -0.0011471
-0.0024892 0.0025758 0.0013351 0.0019038
0.0098699 -0.029759 -0.040383 0.38991 -0.016739 -0.020688 -0.0024856 0.0004438
0.00026977 0.0028647 -0.00065824 0.0018381
-0.0015792 -0.00071337 -0.016845 -0.020631 0.28803 0.20578 0.00089243 0.00154
0.00061444 0.001105 0.000246 0.00075616
-0.00013601 -0.0011411 -0.0024873 0.00046381 0.00088896 0.0015349 0.071627 0.2738
0.0090437 -0.015425 0.0026348 0.0017919
-0.0024566 0.0025635 0.00030415 0.0028849 0.00060431 0.0011248 0.0090218 -0.015429
-0.0017908 0.21977 0.013341 -0.012455
0.0013384 0.0019176 -0.0006856 0.0018176 0.00030586 0.0007713 0.002644 0.0017754
0.013358 -0.01247 -0.014868 0.32101
1280000000 0.18468 0.26724 -0.0081342 -0.027955 -0.0017716 0.0025691 -0.001122 -0.0019781
-0.00057065 0.0030883 0.0025661 0.00098563
-0.0081285 -0.027924 0.0052328 0.38071 -0.0233 -0.0082271 -0.00099844 0.0014633
0.0016996 0.0015546 0.00054185 0.0019302
-0.0017588 0.0025891 -0.023372 -0.0081397 0.31851 0.16188 0.0013815 -0.00017615
0.00096734 9.469e-05 0.00033939 0.00041311
-0.0011335 -0.0019762 -0.00099494 0.0014692 0.0013808 -0.00018326 0.10806 0.25764
0.00033646 -0.016953 0.0005479 0.00014973
-0.00055619 0.0030635 0.0017104 0.0015389 0.00097428 8.9279e-05 0.00031351 -0.016967
0.03515 0.22339 0.0028406 -0.014346
0.0025586 0.00095838 0.00058547 0.0019268 0.00034637 0.000391 0.00055017 0.00017798
0.0028519 -0.014321 0.032992 0.32258
1340000000 0.22138 0.23297 -0.017663 -0.018454 0.00095257 0.0043374 -0.0019397 -0.00074011
0.0014788 0.0025404 0.0016469 -0.0015438
-0.017636 -0.018456 0.044559 0.37231 -0.02121 0.0041848 -4.4128e-05 0.0019514
0.0017261 0.00057898 0.0012977 0.00088907
0.00096697 0.0043343 -0.021212 0.0042896 0.34059 0.11397 0.00091778 -0.00087394
0.00058881 -0.00041224 0.00019478 0.00019318
-0.0019495 -0.00072029 -3.2848e-05 0.0019462 0.00091625 -0.00087988 0.14104 0.2376
-0.0077103 -0.014049 0.0013357 0.00011281
0.0014852 0.0025149 0.0017343 0.00055697 0.00059066 -0.00040274 -0.0077393 -0.014041
0.065687 0.21879 -0.0035761 -0.012811
0.0016633 -0.0015571 0.0013427 0.00087542 0.00020368 0.00019717 0.0013266 0.00011632
-0.003585 -0.012824 0.072179 0.31873
1400000000 0.25386 0.19432 -0.023103 -0.0071427 0.005087 0.0030362 -0.0020338 0.00071622
0.0024279 0.0006395 0.00022622 -0.0013366
-0.023069 -0.0071453 0.081561 0.35916 -0.014588 0.012165 0.0013353 0.0012408
0.00093114 -0.00085685 0.0012026 0.00028283
0.0050942 0.0030134 -0.014541 0.012251 0.35366 0.060163 7.8634e-05 -0.0014659
3.3007e-05 -0.00033293 0.00035035 0.00021939
-0.0020349 0.00072223 0.0013499 0.001229 8.429e-05 -0.001463 0.17096 0.20912
-0.012542 -0.00803 -0.00050908 -0.00082495
0.002419 0.00061923 0.00093084 -0.00087606 5.0072e-05 -0.00034086 -0.012567 -0.0080032
0.098928 0.2137 -0.0096851 -0.0080793
0.00022253 -0.0013514 0.0011949 0.00029071 0.00033311 0.00022664 -0.00050721 -0.00080998
-0.0096546 -0.0080945 0.1176 0.30789
1460000000 0.27609 0.14994 -0.020079 0.0047398 0.0055039 -0.0017556 -0.0014983 0.0017577
0.0019453 -0.0007642 -0.00034952 -0.00084603
-0.020068 0.004715 0.11562 0.33731 -0.0061111 0.014966 0.0016696 0.00013634
0.0007616 -0.0011333 0.0011718 -0.00060757
0.0054832 -0.0017809 -0.0060493 0.015029 0.35952 0.0056024 -0.0011306 -0.0012115
0.00024572 -7.7708e-05 0.00067223 -0.00040232
-0.0014927 0.0017582 0.0016844 0.00012864 -0.001127 -0.0012098 0.19792 0.17999
-0.013103 -0.0025304 -0.0010295 0.0014822
0.0019488 -0.0007633 0.0007356 -0.0011518 0.00026223 -8.5089e-05 -0.013122 -0.0024962
0.12891 0.19864 -0.011098 -0.0026227
-0.00035009 -0.00084448 0.0011829 -0.00060759 0.00065038 -0.00044528 -0.0010377 0.0014561
-0.011108 -0.0026354 0.15113 0.287
1520000000 0.28781 0.10812 -0.014462 0.010238 0.0030986 -0.0041089 0.00015131 0.0025854
0.0017143 -0.0016798 -0.0011851 -0.00018173
-0.014457 0.010217 0.14908 0.32247 0.0013318 0.012907 0.0015667 -0.00082417
6.6041e-05 -0.00086939 0.00032787 -0.0010443
0.0030761 -0.0041227 0.0014075 0.012916 0.35264 -0.050687 -0.00094208 -0.00033893
0.00058562 -0.00075349 -3.5712e-05 -0.0001267
0.00015625 0.0025861 0.0015638 -0.000831 -0.00093588 -0.00034302 0.22184 0.14166
-0.012445 0.0020503 0.0011059 0.0017371
0.0016885 -0.0016923 6.5231e-05 -0.00087824 0.00058922 -0.00079308 -0.012446 0.0020832
0.15726 0.18375 -0.01117 0.0014889
-0.0011694 -0.00017838 0.00032398 -0.0010456 -2.1039e-05 -0.00012305 0.0011078 0.0017105
-0.011168 0.0014792 0.18485 0.26711
1580000000 0.29661 0.061626 -0.0079694 0.013199 -0.00096012 -0.0047973 0.0014346 0.0018242
-0.00050434 -0.0020224 -0.00036931 0.00038481
-0.0079781 0.013179 0.17629 0.29759 0.0049712 0.0082036 0.00041859 -0.001521
-0.00039617 -0.00094881 -0.00027579 -0.00087528
-0.00098254 -0.004798 0.005016 0.0081825 0.3321 -0.1084 -0.0014929 0.00050835
-0.00026386 -0.0011106 0.00011636 -0.00053719
0.0014403 0.0018167 0.0004128 -0.0015216 -0.0015067 0.00050477 0.23647 0.10156
-0.0097143 0.0059268 0.0018487 0.00057885
-0.00050634 -0.0020211 -0.00040178 -0.00094211 -0.00027296 -0.0011219 -0.0097098 0.0059603
0.18175 0.16502 -0.0088307 0.0066901
-0.00038519 0.00040463 -0.00027995 -0.00087531 0.00011093 -0.00052303 0.0018428 0.00056635
-0.0088363 0.0066873 0.21723 0.24026
1640000000 0.29803 0.020044 -0.001408 0.01214 -0.0026601 -0.0025008 0.002614 0.0009571
-0.00077699 -0.0011251 -0.00032467 0.00070394
-0.0014159 0.012127 0.20563 0.2724 0.0056979 0.0035831 -0.00072533 -0.0015873
-0.00090904 -0.00045882 -0.00055074 -0.0006724
-0.0026703 -0.0024707 0.0057178 0.0035479 0.30356 -0.15753 -0.00082903 0.0013057
-0.0010307 -0.00084893 -0.00013442 -0.00034309
0.0026135 0.00094656 -0.00073943 -0.0015922 -0.00081892 0.0013117 0.24902 0.051677
-0.0063959 0.0068223 0.0021634 -0.00077344
-0.00076832 -0.0011322 -0.00091959 -0.00044703 -0.0010367 -0.00084553 -0.0063844 0.0068444
0.20465 0.13937 -0.0043111 0.0088481
-0.00031132 0.00070003 -0.00055232 -0.00066091 -0.00012338 -0.00032444 0.0021491 -0.00078562
-0.0043077 0.008834 0.24346 0.20901
1700000000 0.29011 -0.025285 0.001961 0.0094352 -0.0034512 5.524e-05 0.0029201 -0.001148
-0.0018006 -0.00037774 0.00064223 0.00045291
0.0019596 0.0094267 0.2237 0.2407 0.0038318 0.00077666 -0.0013615 -0.00052555
-0.00077322 -3.0326e-05 -0.00095358 -0.00043895
-0.003456 7.7245e-05 0.0038361 0.0007535 0.26002 -0.19729 0.0003251 0.0015473
-0.0017428 -0.00025311 -0.00054529 -0.0009361
0.0029067 -0.0011529 -0.0013664 -0.00052907 0.00030603 0.0015478 0.24543 0.00066011
-0.0044704 0.0073204 0.0012882 -0.0020314
-0.0018046 -0.00037498 -0.00077859 -2.8362e-05 -0.0017576 -0.00025653 -0.0044518 0.0073288
0.22211 0.11753 2.2499e-05 0.0092439
0.00066265 0.00041105 -0.00094915 -0.00041567 -0.00057348 -0.00093312 0.0012797 -0.0020233
2.3352e-05 0.0092564 0.26035 0.17442
1760000000 0.27708 -0.073651 0.0042904 0.006251 -0.0022412 0.00083219 0.0013172 -0.0033386
-0.0010028 0.00063327 0.00038515 -0.00055076
0.0042789 0.0062462 0.24939 0.20057 0.0017122 -0.00098769 -0.0010694 0.00017793
-0.0011305 0.00081242 -0.00061876 0.00052747
-0.0022366 0.00084934 0.0017119 -0.00099778 0.21091 -0.23027 0.0011078 0.0012624
-0.0011931 0.001322 -0.0013683 -0.00042151
0.0012958 -0.0033501 -0.001062 0.00017586 0.0011091 0.0012608 0.23512 -0.051626
-0.0019547 0.0069207 -0.00047795 -0.0021637
-0.00099106 0.00066417 -0.0011313 0.00082862 -0.0011708 0.0013234 -0.0019426 0.0069405
0.23686 0.080828 0.003716 0.0065145
0.00037073 -0.0005491 -0.00061134 0.00053907 -0.0013623 -0.00037158 -0.00050829 -0.0021721
0.0037194 0.0064895 0.27293 0.13659
1820000000 0.25178 -0.11068 0.0045865 0.0026792 -7.1937e-05 0.0024155 -0.00094804 -0.0030726
-0.00084371 0.00060672 -8.0256e-06 -0.00018467
0.0045789 0.0026862 0.25907 0.17033 -0.00019841 6.1614e-05 -0.0012896 0.00079618
-0.00013986 0.0013536 -0.00053661 0.00053258
-6.9402e-05 0.0024123 -0.00019891 6.497e-05 0.16081 -0.24567 0.0015396 0.00046688
-0.00036467 0.0021286 -0.001375 0.00052625
-0.00096297 -0.003059 -0.0012937 0.0008058 0.0015151 0.00045974 0.20369 -0.099028
-0.00090309 0.0056443 -0.0016974 -0.0013671
-0.00084541 0.00062216 -0.00013214 0.0013499 -0.00037656 0.0021191 -0.00087669 0.0056506
0.25279 0.049548 0.0046334 0.0031492
-1.35e-05 -0.00015865 -0.00052757 0.00055281 -0.0013906 0.00052435 -0.0016939 -0.0013622
0.0046534 0.0031389 0.2756 0.1004
1880000000 0.21593 -0.15021 0.0024108 0.00038102 -0.00036598 0.0020834 -0.0028174 -0.0021869
-0.00032557 0.0014028 0.00022607 -0.00053355
0.0024008 0.0003725 0.26311 0.12364 -0.0020597 0.0016119 -0.00019329 0.0016548
0.0006269 0.0013771 0.00020888 0.0009945
-0.00035403 0.002076 -0.0020575 0.0016314 0.10914 -0.25533 0.0019249 -0.00090556
0.0014672 0.0020794 -0.00084668 0.0015262
-0.0028395 -0.002162 -0.00019244 0.0016641 0.0019159 -0.0009198 0.16187 -0.13838
-0.00058458 0.004431 -0.0023629 0.0007949
-0.00031092 0.0013914 0.0006191 0.0013734 0.0014807 0.0020686 -0.00058452 0.0044417
0.25417 0.014752 0.0042568 0.0012281
0.00022179 -0.00056328 0.0002195 0.0010043 -0.00086632 0.001552 -0.0023674 0.00082687
0.00425 0.0012481 0.27565 0.066233
1940000000 0.17625 -0.1752 0.00016306 -0.0014123 0.0012476 0.0019782 -0.003754 0.00055456
0.0011284 0.0010286 -0.00067456 -0.00060449
0.0001628 -0.0014144 0.26317 0.091839 -0.0010652 0.0037968 0.00090416 0.0013248
0.0020079 0.00060421 0.00089011 0.00026554
0.0012513 0.0019671 -0.0010406 0.0038021 0.062778 -0.24898 0.000247 -0.0023569
0.0024843 0.00054086 0.00047153 0.0016912
-0.0037488 0.00056773 0.00092896 0.0013215 0.00026601 -0.002335 0.10856 -0.16737
-0.0018085 0.0038826 -0.0012434 0.0018509
0.0011198 0.0010298 0.0020143 0.00059053 0.0024539 0.00055423 -0.0017958 0.0039013
0.25327 -0.025927 0.003006 -0.0018328
-0.00064891 -0.00059905 0.00089037 0.0002657 0.00043912 0.0016448 -0.0012554 0.0018378
0.0029969 -0.0018451 0.26467 0.030394
2000000000 0.13007 -0.18892 -0.0037602 0.0005307 0.0023678 0.0016132 -0.0022888 0.0035961
0.00095178 0.00035743 -0.00066077 0.00043833
-0.0037604 0.00052676 0.24854 0.056475 -0.00093531 0.0055187 0.0016422 0.00031747
0.001555 -0.0014811 0.00050976 0.00010825
0.0023912 0.0015958 -0.00089834 0.0055407 0.019172 -0.23463 -0.0014113 -0.0014097
0.0021376 -0.0012524 0.0017198 0.0011976
-0.0022688 0.0036019 0.0016438 0.0003147 -0.0014415 -0.0014203 0.055222 -0.17582
-0.0031556 0.0045272 0.00023806 0.0022885
0.00098319 0.00035659 0.0015487 -0.0014691 0.0021286 -0.0012597 -0.0031513 0.0045516
