!Keysight Technologies,M9804A,MY58100912,A.14.10.03
!Date: Thursday, April 27, 2023 10:28:33
!Correction: S11(C  6-Port  ) 
!S12(C  6-Port  ) 
!S13(C  6-Port  ) 
!S14(C  6-Port  ) 
!S15(C  6-Port  ) 
!S16(C  6-Port  ) 
!S21(C  6-Port  ) 
!S22(C  6-Port  ) 
!S23(C  6-Port  ) 
!S24(C  6-Port  ) 
!S25(C  6-Port  ) 
!S26(C  6-Port  ) 
!S31(C  6-Port  ) 
!S32(C  6-Port  ) 
!S33(C  6-Port  ) 
!S34(C  6-Port  ) 
!S35(C  6-Port  ) 
!S36(C  6-Port  ) 
!S41(C  6-Port  ) 
!S42(C  6-Port  ) 
!S43(C  6-Port  ) 
!S44(C  6-Port  ) 
!S45(C  6-Port  ) 
!S46(C  6-Port  ) 
!S51(C  6-Port  ) 
!S52(C  6-Port  ) 
!S53(C  6-Port  ) 
!S54(C  6-Port  ) 
!S55(C  6-Port  ) 
!S56(C  6-Port  ) 
!S61(C  6-Port  ) 
!S62(C  6-Port  ) 
!S63(C  6-Port  ) 
!S64(C  6-Port  ) 
!S65(C  6-Port  ) 
!S66(C  6-Port  ) 
!S6P File: Measurement: :
# Hz S  RI   R 50
500000000 -0.33935 -0.025571 -0.010034 -0.003133 -0.0078568 0.01256 -0.0039951 0.011942
0.011639 0.0040646 -0.0035081 0.0083083
-0.010973 -0.003573 -0.4193 -0.042084 0.0068203 -0.011857 0.0021756 0.012697
0.0073146 0.0017101 0.0019835 0.013751
-0.0083871 0.013246 0.0070744 -0.011304 -0.26439 0.2187 0.0070008 0.0038717
-0.0014245 0.0075097 0.0018092 0.012087
-0.0025649 0.010498 0.0013893 0.012126 0.0068111 0.0035018 -0.33289 0.055419
-0.019332 -0.006634 0.015125 0.024673
0.012092 0.0040405 0.0075031 0.0021559 -0.0015194 0.0079642 -0.020226 -0.0067844
-0.23159 -0.17629 -0.025585 0.0048436
-0.003029 0.0059342 0.0016565 0.012887 0.0015666 0.011339 0.014747 0.024522
-0.024523 0.0051141 -0.2793 -0.10071
560000000 -0.31603 0.13267 -0.026371 -0.060201 0.00048774 0.012297 0.0056558 0.010269
0.0095349 0.0045556 0.0098876 0.0069412
-0.025838 -0.061175 -0.37548 0.11466 -0.04087 -0.03443 0.01305 0.003524
-0.012744 -0.0032354 0.0026205 -0.00095926
-0.0001004 0.01141 -0.042279 -0.035074 -0.18237 0.26488 3.8845e-06 -0.0044133
0.018836 0.0042017 0.0066198 -0.0061415
0.0054996 0.010709 0.013515 0.0035109 -0.00012013 -0.0042932 -0.30781 0.14404
0.00064915 -0.023826 0.0040082 -0.01966
0.010083 0.0047599 -0.012779 -0.0025324 0.019186 0.0041648 0.0016115 -0.023222
-0.28755 -0.0029028 0.0053923 -0.047877
0.010274 0.0066496 0.0029764 -0.00014784 0.0063515 -0.0053886 0.0033286 -0.019815
0.0054514 -0.048071 -0.33044 0.04103
620000000 -0.27308 0.11709 -0.023274 0.007589 0.004205 0.0078681 0.0079007 -0.0049508
0.010611 -0.0012451 0.00097621 -0.0022846
-0.023212 0.0076316 -0.40182 0.067823 -0.018915 0.00060713 -0.0010685 -0.0018727
0.010925 -0.0067846 0.0012149 -0.0023562
0.0042147 0.0077452 -0.018794 0.0006575 -0.1507 0.27337 -0.0011461 -0.00484
-0.0032205 -0.002539 0.0083273 -0.0032399
0.0081564 -0.0057522 -0.0014968 -0.0019946 -0.00099701 -0.0052897 -0.26479 0.15515
-0.040954 -0.016918 0.012733 0.024812
0.0099571 -0.00098272 0.011018 -0.0065445 -0.003777 -0.0024087 -0.040163 -0.017741
-0.20782 -0.042771 -0.04143 0.015401
0.00080308 -0.0029226 0.0011823 -0.0030326 0.0091717 -0.0040755 0.012462 0.024696
-0.041403 0.015069 -0.25497 0.011226
680000000 -0.23016 0.20113 -0.027206 -0.012604 0.0052297 0.0045967 0.0013141 -0.0067618
-0.0027118 -0.010947 0.0043584 -0.0066112
-0.02766 -0.012607 -0.38574 0.16439 -0.032033 7.8058e-05 -0.0013512 -0.00058615
-0.0022507 -0.009087 -0.0018874 -0.0021256
0.0051667 0.0049659 -0.032008 0.00010146 -0.099273 0.29302 -0.000857 -0.00059328
-0.0018711 0.00021805 -0.0035721 -0.0087056
0.00087772 -0.0062708 -0.0015586 -0.00029282 -0.00073685 -0.00042841 -0.21843 0.20545
-0.025428 -0.0050087 -0.0091873 -0.009031
-0.0031629 -0.010943 -0.0021919 -0.0090918 -0.0019871 0.00035674 -0.02559 -0.005
-0.25416 0.057108 -0.0070564 -0.0070707
0.0042749 -0.0061414 -0.0015652 -0.0021111 -0.0036309 -0.0088602 -0.0089163 -0.0087296
-0.0070268 -0.0069902 -0.25594 0.1105
740000000 -0.18659 0.19555 -0.037352 0.026927 0.01226 -0.0055542 -0.00067678 -0.0042523
-0.0045738 -0.0036174 -0.0057758 0.0026181
-0.037436 0.02657 -0.33339 0.18318 -0.033586 0.035039 -0.0008206 -0.0060924
-0.011483 0.0077534 -0.0016424 -0.0058556
0.012438 -0.0054917 -0.033078 0.03507 -0.065517 0.29123 -0.0021088 0.0031106
-0.003156 -0.0045866 -0.0017158 0.00076489
-0.00027139 -0.0047591 -0.0008745 -0.0061423 -0.0017322 0.0030952 -0.20041 0.21311
-0.042789 -0.0042062 0.022799 0.013652
-0.0052045 -0.0030384 -0.012392 0.0075805 -0.0036755 -0.0050355 -0.042798 -0.003948
-0.15771 0.080807 -0.03993 0.0033243
-0.0056631 0.0021033 -0.0016316 -0.0053125 -0.0012061 0.00097314 0.022548 0.013934
-0.039701 0.0032735 -0.24623 0.11856
800000000 -0.15264 0.23386 -0.021579 0.017207 0.0047891 -0.010416 -0.0045796 -0.0016817
-0.0034724 0.0025776 0.0037034 0.00057537
-0.021749 0.016974 -0.33518 0.25249 -0.0070635 0.033514 -0.0026042 0.0022623
-0.00063625 0.0031896 0.00081316 0.0052272
0.0046777 -0.010351 -0.0068426 0.033698 -0.023805 0.31359 0.00074625 0.0017395
0.00033658 0.003691 -0.0018526 0.00087333
-0.005027 -0.0012128 -0.0026247 0.002528 0.00087247 0.0017455 -0.17097 0.23995
-0.027085 0.016393 0.013096 -0.010076
-0.0036174 0.002581 -0.00045006 0.0030849 8.9558e-05 0.0034741 -0.027002 0.016564
-0.19878 0.10672 -0.016339 0.018956
0.0032205 0.001293 0.00082773 0.0057418 -0.0018219 0.00081839 0.013141 -0.010033
-0.01626 0.018978 -0.2357 0.16619
860000000 -0.11764 0.25429 -0.015952 0.030624 -0.0036309 -0.0094821 -0.0022975 0.00098169
0.0043094 0.0045662 -0.0028924 -0.0027162
-0.016033 0.030642 -0.28688 0.29389 0.0088218 0.033198 7.6195e-05 0.0021031
0.004265 0.00012487 0.0031712 0.00061606
-0.0037476 -0.0094653 0.0089286 0.033224 0.025124 0.32081 -0.00042003 -5.6925e-05
0.0027189 -0.0011981 0.001564 0.0040368
-0.0018661 0.00075819 2.779e-06 0.0020896 -0.00035339 6.9155e-06 -0.13293 0.25029
-0.014937 0.020165 -0.0056819 -0.0088736
0.0044549 0.0046996 0.0038386 0.00047125 0.0025313 -0.0010508 -0.015167 0.019951
-0.14612 0.15439 -0.02247 0.016357
-0.0030457 -0.0029957 0.0031935 0.00032858 0.0014787 0.0041233 -0.0059151 -0.0091548
-0.022474 0.016192 -0.18563 0.20795
920000000 -0.09164 0.27515 0.0061421 0.036758 -0.0091859 -0.0039998 -0.0015306 0.0017111
0.0013613 0.0012941 0.0025852 -0.0018194
0.0061423 0.036603 -0.25751 0.31395 0.028103 0.020572 0.001759 0.0008066
0.007014 -0.00080293 0.003511 -0.0029345
-0.0091773 -0.0039918 0.028198 0.020485 0.07176 0.32027 0.002034 -0.00025306
0.0016191 -0.00060992 0.00075734 -0.0011275
-0.0015468 0.0019058 0.0016811 0.00093095 0.0020202 -0.0001233 -0.10812 0.26555
-0.0079344 0.030791 0.0026217 -0.0065349
0.0015349 0.0016353 0.0071698 -0.00091254 0.0013282 -0.0005194 -0.0078316 0.030712
-0.13386 0.15864 -0.00060156 0.026275
0.0026839 -0.0017699 0.0035769 -0.0029705 0.00066388 -0.0010851 0.0025233 -0.0064087
-0.00079271 0.026183 -0.18872 0.22236
980000000 -0.04434 0.29439 0.018103 0.028574 -0.0084979 0.0047023 0.0017645 0.0030948
0.0039578 -0.0015834 -0.0031641 -0.0019854
0.018257 0.028576 -0.20517 0.34723 0.032438 0.0036419 0.0020618 -0.00027665
0.0016213 -0.0061592 -0.00055997 -0.002325
-0.0084748 0.004709 0.032414 0.0035294 0.1183 0.31321 0.00052324 -0.0013057
0.00023504 -0.0022605 0.0013693 -0.00021284
0.0019582 0.0030237 0.0019891 -0.00041375 0.00055609 -0.0013631 -0.06922 0.27591
0.01021 0.028893 -0.0084597 -0.0062986
0.0038511 -0.0018294 0.0015835 -0.0060857 0.00023707 -0.0022326 0.010346 0.028863
-0.10217 0.18557 0.0062358 0.01877
-0.0030453 -0.0023789 -0.00059713 -0.0026406 0.0014036 -0.00015536 -0.008348 -0.0064869
0.0061633 0.018568 -0.14406 0.26353
1040000000 -0.0016215 0.30098 0.032785 0.016316 -0.0011454 0.0066204 0.0023993 0.00072371
0.00023562 -0.0032811 -0.00064985 -0.0013354
0.032792 0.01629 -0.16913 0.35977 0.028008 -0.015354 0.0015638 -0.0016897
-0.0021604 -0.0025638 -0.0013276 -0.002695
-0.0010844 0.0066389 0.027899 -0.015444 0.16503 0.29817 -0.00053523 -0.0014971
-0.001658 -0.00095658 -0.00043482 -0.0010915
0.0022656 0.00065983 0.0015624 -0.0016786 -0.00058414 -0.0015243 -0.040624 0.28445
0.020794 0.016141 -0.0024791 0.0010506
-1.8324e-06 -0.0031406 -0.0022971 -0.0024461 -0.0015959 -0.0008677 0.020859 0.016118
-0.069308 0.19118 0.013738 0.016468
-0.00065388 -0.0013243 -0.0015016 -0.0026712 -0.00042923 -0.0010199 -0.0024459 0.0010313
0.013734 0.016454 -0.12049 0.28357
1100000000 0.04365 0.30804 0.034554 -0.0054031 0.0026983 0.0036578 0.0021592 -0.0010191
-0.0018349 -0.0029185 -0.0037493 0.00018583
0.034585 -0.0053875 -0.12616 0.37645 0.013864 -0.027387 -4.8841e-05 -0.0018461
-0.0032769 -0.0008276 -0.0033776 -0.00042178
0.0027016 0.0035608 0.013759 -0.027481 0.21096 0.27663 -0.0018774 0.00019214
-0.0018657 0.00052605 -0.00097233 -0.00023443
0.0022827 -0.00096504 -0.0001101 -0.0018002 -0.0018612 0.00012623 -0.00019968 0.28785
0.024967 0.0029086 -0.0025965 -0.0002088
-0.0018449 -0.0031124 -0.003313 -0.00081636 -0.0019034 0.00056112 0.02496 0.0028928
-0.051533 0.20357 0.018656 0.0066785
-0.0037301 0.00021736 -0.0033129 -0.00044442 -0.00095087 -0.00022987 -0.0025812 -0.00010803
0.01858 0.0067113 -0.074615 0.30955
1160000000 0.094869 0.30194 0.022354 -0.021166 0.0023841 -0.00040916 -6.5514e-05 -0.0020269
-0.0038933 -0.00066524 -0.00091185 0.0038735
0.022274 -0.021113 -0.08162 0.38038 -0.0045007 -0.028159 -0.0016683 -0.0016266
-0.0026594 0.0025331 -0.0014561 0.0017357
0.0023043 -0.00042769 -0.0046902 -0.028108 0.25405 0.24476 -0.00082418 0.0017949
-0.00052411 0.0019394 -0.00089054 0.00014006
-3.3345e-08 -0.0020197 -0.0015902 -0.0015704 -0.00083533 0.001803 0.039612 0.28339
0.020394 -0.012367 -0.0032743 0.0044526
-0.0038561 -0.00054317 -0.0027096 0.0025179 -0.00057095 0.0018844 0.020403 -0.012441
-0.017834 0.21075 0.016973 -0.00083867
-0.00093513 0.0037034 -0.001305 0.0016213 -0.00091523 8.1988e-05 -0.0032669 0.0045405
0.016969 -0.00086652 -0.026829 0.31107
1220000000 0.13925 0.28936 0.0087553 -0.029425 -0.0015685 -0.00038002 0.00016748 -0.00089158
-0.0024273 0.0022589 0.0012557 0.001867
0.0088296 -0.029324 -0.03772 0.39116 -0.016911 -0.020024 -0.0024609 0.00040218
-2.1764e-05 0.0029528 -0.00065957 0.0019165
-0.0015664 -0.00043113 -0.016979 -0.019958 0.29236 0.20444 0.00082417 0.0018187
0.00063628 0.0012862 0.00035195 0.00062122
0.00011396 -0.00084163 -0.0025082 0.00044775 0.00082535 0.0018432 0.079184 0.27284
0.0095009 -0.018472 0.0014729 0.0013189
-0.002468 0.0023492 2.6203e-05 0.0029861 0.00068454 0.001301 0.0094406 -0.018533
0.0050094 0.21781 0.012321 -0.013236
0.0012249 0.0019369 -0.00066539 0.0019686 0.00032209 0.00057292 0.0014875 0.0013301
0.012338 -0.013192 0.005067 0.32453
1280000000 0.18829 0.2666 -0.0088269 -0.02711 -0.0015643 0.0028571 -0.00086905 -0.0020112
-0.0006812 0.0029184 0.0024137 0.0010106
-0.008785 -0.027116 0.0080132 0.3822 -0.023199 -0.0077507 -0.0010095 0.0014311
0.0016747 0.0018527 0.00067872 0.0018322
-0.0015366 0.0029022 -0.023278 -0.0076575 0.32214 0.16022 0.0016088 0.00010542
0.0011167 0.00026414 0.00029517 0.00018231
-0.00088893 -0.0019816 -0.0010002 0.0014293 0.0016008 0.00014086 0.11534 0.25518
-0.00029144 -0.019981 -0.00058318 0.00047889
-0.00066719 0.0028767 0.0016317 0.0018442 0.0011158 0.00022383 -0.00034756 -0.019979
0.041087 0.22057 0.001827 -0.014904
0.0024867 0.0010148 0.00066507 0.0017915 0.00026444 0.00012025 -0.00051477 0.00049155
0.0018186 -0.014903 0.051636 0.32444
1340000000 0.22505 0.23154 -0.017823 -0.017383 0.0012803 0.0043605 -0.0016576 -0.00098417
0.0014438 0.0025634 0.0015985 -0.0014385
-0.017765 -0.017422 0.047592 0.3731 -0.020821 0.0045782 -0.00014412 0.0020902
0.0020767 0.00078468 0.0013883 0.00071299
0.0013666 0.0043149 -0.020846 0.0047296 0.3439 0.11155 0.0013454 -0.00099189
0.00070909 -0.00053645 9.56e-05 0.00023223
-0.0016483 -0.0010141 -0.00011598 0.0020342 0.0013427 -0.0010203 0.14728 0.23306
-0.0096541 -0.016755 0.00055621 0.001143
0.0014734 0.0025715 0.002085 0.0007537 0.00075799 -0.00053453 -0.0096626 -0.016712
0.070571 0.21439 -0.0046888 -0.013032
0.0015459 -0.0014475 0.0013288 0.00074932 0.00021272 0.00019047 0.00057094 0.0011366
-0.0046548 -0.013065 0.090649 0.31722
1400000000 0.2568 0.1926 -0.022622 -0.0062232 0.0052606 0.0026949 -0.0021963 0.00049054
0.0022435 0.00079728 0.00023924 -0.0014067
-0.022608 -0.006203 0.084156 0.35982 -0.014103 0.012282 0.0013665 0.0013859
0.0012846 -0.00083265 0.0011816 0.00010422
0.0052772 0.0026415 -0.01404 0.012333 0.35595 0.057778 0.0001798 -0.0019386
7.819e-05 -0.00037477 0.00028183 0.00018168
-0.0021785 0.00057844 0.0013861 0.0014164 0.00013606 -0.0018985 0.17513 0.20315
-0.01546 -0.0098838 -0.00056562 0.00042342
0.0022367 0.00079304 0.0012833 -0.00086639 2.6266e-05 -0.0004163 -0.015483 -0.0098331
0.10213 0.2091 -0.010619 -0.0079307
0.00019664 -0.0013828 0.001239 0.00011571 0.00031979 0.0001655 -0.00056047 0.00039616
-0.010595 -0.0079432 0.13381 0.30453
1460000000 0.27928 0.14832 -0.019335 0.0053043 0.0054529 -0.0021385 -0.0016627 0.0017035
0.0019607 -0.00047256 -0.00032689 -0.0009257
-0.019315 0.0052796 0.11873 0.33793 -0.005772 0.014819 0.0018242 0.00019608
0.0008225 -0.0013349 0.0011218 -0.00055746
0.0054502 -0.0022091 -0.0057368 0.014882 0.36163 0.0032154 -0.0015047 -0.0014521
0.00015788 -0.00020551 0.00063423 -0.0003646
-0.0016716 0.001755 0.0017992 0.00017238 -0.001502 -0.001462 0.20017 0.17335
-0.016741 -0.0028747 -0.0003348 0.0023584
0.0019257 -0.00045891 0.00085132 -0.0013625 0.00016585 -0.00018264 -0.016736 -0.0028739
0.13087 0.19394 -0.011712 -0.0021326
-0.00020899 -0.00093137 0.0010516 -0.00053516 0.00065903 -0.00029947 -0.00032493 0.0023626
-0.011686 -0.0021426 0.16672 0.28257
1520000000 0.2904 0.10531 -0.013519 0.010279 0.0028972 -0.0042133 7.7962e-05 0.0026706
0.0020717 -0.0016203 -0.0011483 -0.00018662
-0.013513 0.010259 0.152 0.32229 0.0015439 0.012709 0.0017253 -0.00092865
-2.3642e-05 -0.0012101 0.00028558 -0.00096885
0.0029292 -0.0042074 0.0015913 0.01268 0.354 -0.053751 -0.001454 -0.00033331
0.00055039 -0.00089787 1.0215e-05 -7.1184e-05
0.00013312 0.0025959 0.0016952 -0.00090998 -0.0014774 -0.00034278 0.22116 0.13495
-0.015906 0.0031984 0.0019471 0.0020133
0.0020268 -0.0016778 -1.7104e-05 -0.0011546 0.00049765 -0.00081747 -0.015901 0.0032299
0.15784 0.17863 -0.011431 0.0022696
-0.0012385 -0.00022297 0.00026285 -0.00095127 -1.6307e-05 -0.00018042 0.0019401 0.0020218
-0.011423 0.0022831 0.19898 0.26018
1580000000 0.2987 0.059133 -0.007203 0.012813 -0.0011304 -0.0046537 0.0015594 0.0019943
-0.00011553 -0.002159 -0.00036596 0.00034588
-0.0072119 0.012777 0.17909 0.29752 0.0050106 0.0080352 0.00043689 -0.0017169
-0.00062586 -0.0010636 -0.00021999 -0.00084348
-0.0011498 -0.004631 0.0050448 0.0080562 0.33298 -0.11068 -0.0017341 0.0010485
-0.00031158 -0.0011339 0.00012091 -0.00055832
0.0015556 0.0019753 0.00047925 -0.00173 -0.0016843 0.0010362 0.23337 0.096528
-0.012389 0.0084715 0.0025241 0.00049167
-0.00010342 -0.0021526 -0.00060832 -0.0011 -0.00026976 -0.0011581 -0.012409 0.0085056
0.18122 0.16036 -0.0090965 0.0076102
-0.00043143 0.00039584 -0.00016564 -0.0008377 7.3552e-05 -0.00047349 0.0025079 0.00049004
-0.0090806 0.0075932 0.22966 0.23291
1640000000 0.29992 0.017043 -0.00098336 0.011521 -0.0027626 -0.0024214 0.0028388 0.00093814
-0.00068247 -0.0016037 -0.00031072 0.00064471
-0.00097404 0.011484 0.20879 0.27166 0.0056642 0.0035221 -0.00086895 -0.0017243
-0.0011188 -0.00031404 -0.00054276 -0.00061839
-0.0027723 -0.0024274 0.0056986 0.0035175 0.30409 -0.16005 -0.00053816 0.0016523
-0.0011811 -0.000957 -0.0002004 -0.00027337
0.0029345 0.00092405 -0.0009117 -0.0017419 -0.00047451 0.001653 0.24449 0.048439
-0.0078445 0.010179 0.002658 -0.0011179
-0.0006366 -0.0015739 -0.0011264 -0.00027564 -0.0011383 -0.00093385 -0.0078583 0.010228
0.20313 0.13497 -0.004319 0.0094484
-0.0003632 0.00064289 -0.00062465 -0.0006229 -0.00019284 -0.00019079 0.002668 -0.0011172
-0.0043145 0.009439 0.25472 0.2005
1700000000 0.29098 -0.028362 0.0020986 0.0087047 -0.0033094 0.00018784 0.0029678 -0.0014903
-0.001961 -0.00080837 0.00071265 0.0004306
0.0021099 0.0087005 0.22616 0.23976 0.0038769 0.0007233 -0.0015508 -0.00048674
-0.00074344 0.00023703 -0.00087151 -0.00041444
-0.0033083 0.00023456 0.0038592 0.00073883 0.25999 -0.19957 0.00077598 0.0015875
-0.001934 -8.1472e-05 -0.00052287 -0.00075159
0.002899 -0.001509 -0.0015575 -0.00047541 0.0007061 0.0016093 0.24024 0.00045729
-0.004329 0.010982 0.0015233 -0.002387
-0.0020343 -0.00076616 -0.00072326 0.00021099 -0.0019252 -6.842e-05 -0.0043176 0.01102
0.21884 0.11433 0.00024409 0.0097117
0.00071283 0.00050021 -0.00090899 -0.00035242 -0.00055335 -0.00074141 0.0015026 -0.0023621
0.00026639 0.0097136 0.26943 0.16538
1760000000 0.27808 -0.076604 0.00403 0.0055671 -0.0021854 0.00081911 0.00098466 -0.0035308
-0.0014856 0.00062717 0.00052765 -0.00047482
0.0040442 0.0055437 0.25209 0.19939 0.0018163 -0.0012308 -0.0011829 0.00030458
-0.00094704 0.0009425 -0.00062397 0.00048989
-0.0021844 0.00086768 0.0018541 -0.0012758 0.21162 -0.23245 0.0013832 0.00076253
-0.0011633 0.0015523 -0.0013383 -0.00028966
0.00097002 -0.0034714 -0.0011784 0.00031043 0.001291 0.00075162 0.23179 -0.049022
-0.00042224 0.010193 -0.00033011 -0.0026395
-0.0015071 0.00066298 -0.00095365 0.00096192 -0.0012446 0.0016094 -0.00041004 0.010201
0.23288 0.079225 0.0040883 0.0070888
0.00059977 -0.00043943 -0.00059764 0.00050694 -0.0013285 -0.00041052 -0.00033236 -0.0026552
0.004113 0.0070912 0.28148 0.12762
1820000000 0.25192 -0.11369 0.0040341 0.0022673 -0.00018207 0.00245 -0.0013221 -0.0028745
-0.0012201 0.0010717 2.2305e-05 -0.00014886
0.0039897 0.002249 0.26116 0.16856 -0.00020143 -0.00014716 -0.0011869 0.001008
0.00012835 0.0012242 -0.00047119 0.00057596
-9.2917e-05 0.0024496 -0.00023363 -0.00013661 0.16027 -0.24841 0.0013008 3.1179e-05
-2.5474e-05 0.0022822 -0.0013061 0.00052525
-0.0013008 -0.0029519 -0.0012165 0.0010671 0.0014005 8.7155e-05 0.20236 -0.09528
0.0016748 0.0082341 -0.0016313 -0.001651
-0.0011935 0.0010192 0.00010265 0.0012365 -1.9362e-05 0.0023267 0.0016996 0.0082464
0.24852 0.049521 0.0051254 0.0035978
-6.6974e-07 -0.00026679 -0.00048041 0.00059422 -0.001282 0.00066844 -0.0016586 -0.0016082
0.0051099 0.0036015 0.28287 0.090299
1880000000 0.21575 -0.15269 0.0017431 0.00023087 -0.00036201 0.0021498 -0.003002 -0.0018555
-0.00021751 0.0018635 0.00016896 -0.0005779
0.0017936 0.00023505 0.26486 0.12218 -0.0023711 0.0015141 -4.0312e-05 0.0016482
0.00060785 0.0010584 0.0001872 0.00094379
-0.00041619 0.0020629 -0.0023434 0.0015772 0.10752 -0.25756 0.0014115 -0.00093052
0.0016435 0.0018018 -0.00080996 0.0013439
-0.0030054 -0.0019437 -4.0705e-05 0.0016227 0.0013438 -0.00093809 0.16336 -0.13476
0.0028735 0.0056651 -0.002376 0.00020584
-0.00020034 0.0018708 0.00064636 0.0010679 0.0016452 0.0017731 0.0028978 0.0056352
0.25048 0.017355 0.0049794 0.001391
0.00019076 -0.00051717 0.00022258 0.00097715 -0.00078192 0.0013933 -0.0023251 0.00022773
0.0049768 0.0013926 0.28141 0.056717
1940000000 0.17633 -0.17822 -0.00045732 -0.001125 0.0014658 0.0019047 -0.0035865 0.00073808
0.0015414 0.001086 -0.00063223 -0.00063321
-0.00043847 -0.0011419 0.26474 0.090107 -0.0011726 0.0038541 0.00098075 0.0010934
0.0016869 0.00037064 0.00091488 0.00034058
0.001524 0.0019317 -0.0011438 0.0039267 0.061806 -0.25046 0.00013118 -0.0016364
0.0022385 0.0002607 0.0004444 0.0015778
-0.003418 0.00079115 0.0009584 0.0011289 0.00020025 -0.0015959 0.11226 -0.16606
0.0022552 0.003622 -0.0014065 0.001235
0.0016061 0.0012113 0.0016657 0.00035075 0.0021954 0.0003072 0.0022588 0.0036372
0.2518 -0.022143 0.0039537 -0.0018961
-0.00063671 -0.00076667 0.00089846 0.00037113 0.00032674 0.0014997 -0.0014232 0.0012307
0.0039325 -0.0018695 0.27016 0.019585
2000000000 0.12874 -0.19219 -0.0041355 0.00089269 0.0025141 0.001481 -0.0021355 0.0032894
0.0012878 0.00016901 -0.00065118 0.00046475
-0.0041527 0.00090837 0.24958 0.054662 -0.00091321 0.0057272 0.0014625 0.00028456
0.0010751 -0.001272 0.00048711 -4.8336e-05
0.0026006 0.0014528 -0.00084002 0.0057198 0.017463 -0.23517 -0.00099383 -0.0009929
0.0017416 -0.0011864 0.0015875 0.00097522
-0.0022539 0.0033644 0.001448 0.00033204 -0.0010398 -0.00089736 0.058615 -0.17684
0.00036214 0.0025622 -0.00030299 0.0020891
0.001139 0.0001382 0.0010661 -0.0013188 0.0016822 -0.0011811 0.00034871 0.0025525
0.24452 -0.056316 0.0006398 -0.0030475
