!Keysight Technologies,M9804A,MY58100912,A.14.10.03
!Date: Thursday, April 27, 2023 10:28:33
!Correction: S11(C  6-Port  ) 
!S12(C  6-Port  ) 
!S13(C  6-Port  ) 
!S14(C  6-Port  ) 
!S15(C  6-Port  ) 
!S16(C  6-Port  ) 
!S21(C  6-Port  ) 
!S22(C  6-Port  ) 
!S23(C  6-Port  ) 
!S24(C  6-Port  ) 
!S25(C  6-Port  ) 
!S26(C  6-Port  ) 
!S31(C  6-Port  ) 
!S32(C  6-Port  ) 
!S33(C  6-Port  ) 
!S34(C  6-Port  ) 
!S35(C  6-Port  ) 
!S36(C  6-Port  ) 
!S41(C  6-Port  ) 
!S42(C  6-Port  ) 
!S43(C  6-Port  ) 
!S44(C  6-Port  ) 
!S45(C  6-Port  ) 
!S46(C  6-Port  ) 
!S51(C  6-Port  ) 
!S52(C  6-Port  ) 
!S53(C  6-Port  ) 
!S54(C  6-Port  ) 
!S55(C  6-Port  ) 
!S56(C  6-Port  ) 
!S61(C  6-Port  ) 
!S62(C  6-Port  ) 
!S63(C  6-Port  ) 
!S64(C  6-Port  ) 
!S65(C  6-Port  ) 
!S66(C  6-Port  ) 
!S6P File: Measurement: :
# Hz S  RI   R 50
500000000 -0.33951 -0.02503 -0.010869 -0.0031935 -0.0081485 0.012816 -0.0037255 0.012095
0.011482 0.004376 -0.0037495 0.0083526
-0.01067 -0.0031095 -0.41985 -0.042148 0.0064993 -0.011405 0.001781 0.01268
0.0075532 0.00219 0.002008 0.013722
-0.0080776 0.012794 0.0064972 -0.011423 -0.26467 0.21899 0.0069737 0.0039664
-0.0011502 0.007523 0.00165 0.012205
-0.0037522 0.012052 0.0018736 0.012679 0.0069601 0.0038932 -0.3329 0.055284
-0.019626 -0.0065743 0.015303 0.024519
0.011534 0.0043641 0.0074646 0.0021675 -0.001144 0.0075941 -0.019688 -0.006559
-0.23179 -0.17625 -0.025134 0.0049021
-0.0037782 0.0082739 0.0020958 0.013783 0.0017475 0.012187 0.015307 0.02457
-0.025195 0.0048538 -0.27861 -0.10092
560000000 -0.31481 0.13255 -0.025528 -0.061312 0.00023267 0.011964 0.0053203 0.010326
0.0092856 0.0045746 0.0098074 0.0068933
-0.025651 -0.061403 -0.37469 0.1132 -0.041257 -0.034653 0.013404 0.0037733
-0.012479 -0.0033442 0.0029816 -0.00083253
0.00029174 0.012033 -0.041438 -0.034604 -0.18163 0.26517 -0.00032303 -0.0044048
0.018392 0.0039308 0.006286 -0.0062048
0.00541 0.010344 0.013294 0.0035532 -0.00013636 -0.0045701 -0.30663 0.14366
0.00048703 -0.023435 0.0040737 -0.019489
0.0092794 0.0044433 -0.012543 -0.0031978 0.018344 0.0039761 0.00047524 -0.023385
-0.28785 -0.0027841 0.005249 -0.048209
0.009794 0.0069752 0.0031451 -0.00090946 0.0063895 -0.0061719 0.0040659 -0.019507
0.0052958 -0.048159 -0.3311 0.041824
620000000 -0.2725 0.11762 -0.023471 0.0078073 0.0041327 0.0078416 0.0080518 -0.0050187
0.010299 -0.0010454 0.00065014 -0.0021915
-0.02346 0.0077593 -0.40206 0.068115 -0.019026 0.0006606 -0.0013194 -0.0016905
0.010682 -0.0067256 0.0013436 -0.0024613
0.0040775 0.0078859 -0.019066 0.00072989 -0.15067 0.27384 -0.0010159 -0.0048752
-0.0034676 -0.0027892 0.0084281 -0.0029709
0.0080053 -0.0050809 -0.0012619 -0.0017284 -0.0010479 -0.0049155 -0.2645 0.15483
-0.04051 -0.016962 0.012552 0.025085
0.010327 -0.0010476 0.010688 -0.0067055 -0.0033848 -0.0027919 -0.040505 -0.016972
-0.20816 -0.042751 -0.040934 0.015166
0.00068255 -0.002042 0.001333 -0.0024552 0.0083546 -0.0032802 0.012569 0.025074
-0.040984 0.015231 -0.25445 0.011251
680000000 -0.23005 0.20162 -0.027427 -0.01266 0.0053181 0.0045549 0.0011014 -0.0068335
-0.0028186 -0.010807 0.0042792 -0.0067445
-0.027427 -0.01268 -0.38586 0.16435 -0.031991 -8.8965e-05 -0.0015132 -0.00033621
-0.0022047 -0.0091033 -0.0018095 -0.002159
0.005338 0.0045463 -0.032026 -6.8464e-06 -0.099344 0.29304 -0.00097307 -0.00043265
-0.0017399 0.000273 -0.0035132 -0.0086764
0.0011232 -0.0068482 -0.001527 -0.00036594 -0.0010016 -0.0004716 -0.21819 0.20557
-0.025375 -0.0050956 -0.0090659 -0.0089972
-0.0028427 -0.01087 -0.0022901 -0.0091241 -0.0017966 0.0002646 -0.025429 -0.0050951
-0.25428 0.056925 -0.0072605 -0.0070514
0.0042295 -0.0066948 -0.0018727 -0.0021004 -0.0035653 -0.0086629 -0.0091034 -0.0090126
-0.0072571 -0.0070997 -0.25644 0.11078
740000000 -0.18581 0.19566 -0.037114 0.027007 0.012079 -0.005546 -0.00056736 -0.0043077
-0.0046463 -0.0030673 -0.0057972 0.0027993
-0.037074 0.026998 -0.33324 0.18342 -0.033295 0.034957 -0.00082408 -0.0063016
-0.011931 0.0076241 -0.0019335 -0.0057263
0.012088 -0.0055689 -0.033215 0.035063 -0.0653 0.29123 -0.0020224 0.0031238
-0.0030838 -0.0046858 -0.0019156 0.00074516
-0.00052138 -0.0042821 -0.00087147 -0.0062155 -0.0020241 0.0031055 -0.20036 0.2131
-0.042801 -0.0040856 0.02279 0.013687
-0.0046264 -0.0030872 -0.011835 0.0075841 -0.0030546 -0.0046915 -0.042743 -0.0040493
-0.1576 0.080731 -0.040306 0.0033014
-0.0058541 0.002631 -0.0019942 -0.0057018 -0.0020076 0.00065879 0.022833 0.01375
-0.040273 0.0031696 -0.24579 0.119
800000000 -0.15293 0.23443 -0.021492 0.017293 0.0046364 -0.010386 -0.0045051 -0.0016955
-0.0035599 0.0024406 0.0036322 0.00056235
-0.021506 0.017259 -0.33518 0.25249 -0.0069711 0.033547 -0.0025732 0.002352
-0.00061865 0.0031835 0.00075587 0.0052075
0.0046087 -0.010383 -0.0068754 0.033606 -0.023819 0.31361 0.00074088 0.0016965
0.00032847 0.0037142 -0.0018503 0.00082665
-0.0045159 -0.0016648 -0.0025854 0.0023749 0.00075391 0.0016774 -0.17105 0.24001
-0.027122 0.016444 0.013097 -0.010026
-0.0035286 0.0024068 -0.00062583 0.0031699 0.00033262 0.0037101 -0.02712 0.016499
-0.19857 0.10659 -0.016364 0.018979
0.0036376 0.00054576 0.00079745 0.0052324 -0.0018034 0.00084779 0.013082 -0.010005
-0.016352 0.018985 -0.23568 0.16647
860000000 -0.11727 0.25434 -0.016012 0.03065 -0.0036614 -0.0094713 -0.0021771 0.00090648
0.0042243 0.0045264 -0.0029722 -0.002766
-0.016043 0.030623 -0.28707 0.29395 0.0088069 0.033191 8.2593e-05 0.0021839
0.0040147 0.00012997 0.0030768 0.00039514
-0.0036565 -0.0094671 0.008935 0.03319 0.025171 0.32083 -0.00035681 -7.6312e-05
0.0027114 -0.0012173 0.0015366 0.0040887
-0.0021975 0.00094106 6.5727e-05 0.0022017 -0.00037816 -5.8432e-05 -0.13317 0.25025
-0.015123 0.020115 -0.0059083 -0.0092064
0.0042258 0.0045434 0.0040743 4.1603e-05 0.0027008 -0.0012233 -0.015042 0.020124
-0.14606 0.15443 -0.022659 0.01603
-0.0028809 -0.0027429 0.0030678 0.00047949 0.001557 0.0041129 -0.0059447 -0.0091534
-0.022599 0.015942 -0.18504 0.20866
920000000 -0.091527 0.2757 0.0061629 0.036762 -0.0092335 -0.0040027 -0.0015753 0.0016754
0.0013633 0.0013227 0.0025849 -0.001768
0.0060748 0.036695 -0.25736 0.31382 0.028046 0.020546 0.0017038 0.00083877
0.0069965 -0.00078706 0.0035879 -0.0029771
-0.0092418 -0.0039947 0.028194 0.020467 0.071755 0.32029 0.0020135 -0.00017538
0.0015386 -0.00060119 0.00072598 -0.001193
-0.0015835 0.0016796 0.00169 0.00078531 0.0019771 -0.00018514 -0.10821 0.26553
-0.0079355 0.030703 0.0026863 -0.006532
0.0013757 0.0012947 0.0069814 -0.00084141 0.0015349 -0.0006245 -0.0079085 0.030702
-0.13401 0.15851 -0.00057644 0.026196
0.0025554 -0.0017502 0.0035628 -0.0029632 0.00075304 -0.0011604 0.0026642 -0.0065329
-0.00062581 0.026198 -0.18841 0.22267
980000000 -0.044381 0.29419 0.018211 0.028583 -0.0084423 0.0046788 0.0018376 0.0030358
0.0039978 -0.0016291 -0.0031805 -0.002009
0.018158 0.028542 -0.2051 0.3472 0.032361 0.0036398 0.001964 -0.00028862
0.0016478 -0.0061042 -0.00052318 -0.0023481
-0.008437 0.004686 0.032433 0.0035135 0.11832 0.3132 0.00050916 -0.0013583
0.00024001 -0.0023151 0.0014154 -0.00026491
0.0018759 0.0030387 0.0019982 -0.00028533 0.00053585 -0.0013566 -0.069227 0.27587
0.010269 0.028922 -0.0084084 -0.0063348
0.0039885 -0.0016462 0.0016551 -0.0061275 0.00026224 -0.0023029 0.010335 0.028888
-0.10201 0.18551 0.0062878 0.018672
-0.0032374 -0.0019897 -0.00051058 -0.0024065 0.0014325 -0.0002653 -0.0084204 -0.0063401
0.0062621 0.018666 -0.14417 0.26357
1040000000 -0.0013736 0.30122 0.032843 0.016294 -0.001085 0.0066156 0.0023491 0.0007128
0.00019694 -0.0032508 -0.00062919 -0.0013568
0.032791 0.016299 -0.16906 0.3598 0.027956 -0.015315 0.0015549 -0.0017037
-0.002203 -0.0024938 -0.0013889 -0.0027026
-0.0010855 0.0066106 0.027952 -0.015449 0.16499 0.29817 -0.00057856 -0.0015045
-0.0016556 -0.00098751 -0.00044506 -0.00108
0.0023631 0.00068652 0.0015795 -0.0016885 -0.00057472 -0.0015041 -0.04066 0.28449
0.020804 0.016104 -0.0024744 0.0011012
0.00018156 -0.0032308 -0.0022107 -0.0025163 -0.0016328 -0.00094002 0.020816 0.016071
-0.069238 0.19116 0.013739 0.016485
-0.00064265 -0.0013185 -0.001435 -0.0027054 -0.0004597 -0.0010697 -0.0024666 0.0010992
0.013698 0.016483 -0.12037 0.28362
1100000000 0.043564 0.30799 0.034543 -0.0054052 0.0027064 0.0036322 0.0021603 -0.0010591
-0.0018473 -0.0029705 -0.0037654 0.00020363
0.034505 -0.0053766 -0.12615 0.37647 0.013843 -0.027406 -8.7247e-05 -0.0018213
-0.0032865 -0.00083217 -0.0033866 -0.00039377
0.0027019 0.003616 0.01376 -0.027492 0.21098 0.27666 -0.0018466 0.00017177
-0.001865 0.00053942 -0.0010006 -0.0002277
0.0021521 -0.001063 -8.9159e-05 -0.0018173 -0.0018377 0.00018015 -0.00019431 0.28787
0.025015 0.0028714 -0.0025793 -0.00023464
-0.0018654 -0.0029589 -0.0032833 -0.0007958 -0.0018758 0.00053644 0.025027 0.0028332
-0.051383 0.20359 0.018662 0.0067062
-0.0037779 0.00024528 -0.0033941 -0.00038329 -0.0010085 -0.0002402 -0.0025834 -0.00021205
0.018642 0.0067131 -0.074529 0.3096
1160000000 0.095086 0.30208 0.022337 -0.021176 0.0023638 -0.00044485 -4.6816e-05 -0.0020378
-0.0039045 -0.00064548 -0.00091651 0.0038993
0.022315 -0.021172 -0.081586 0.38035 -0.0045283 -0.028082 -0.001674 -0.001641
-0.0026705 0.0025329 -0.0013819 0.0017497
0.0023449 -0.00043958 -0.0046289 -0.028113 0.25409 0.24482 -0.00080619 0.0017715
-0.00047614 0.0019321 -0.00085205 0.00014202
-5.512e-05 -0.0020117 -0.001665 -0.0016292 -0.00079112 0.0017707 0.039627 0.28349
0.020366 -0.012337 -0.0032758 0.0044623
-0.0038975 -0.00062423 -0.0026597 0.0025757 -0.00045634 0.0019379 0.020368 -0.012362
-0.01789 0.21087 0.016954 -0.00089873
-0.00091599 0.0038917 -0.0013894 0.0017038 -0.00086669 0.0001196 -0.0032692 0.0044572
0.016947 -0.00089833 -0.026837 0.3112
1220000000 0.13931 0.28928 0.0087958 -0.029398 -0.0015653 -0.00040614 0.00016616 -0.00089077
-0.0024059 0.0022661 0.0012349 0.001887
0.0087832 -0.029363 -0.037732 0.3912 -0.016904 -0.020014 -0.0024658 0.00042022
-2.8114e-05 0.0029995 -0.00066189 0.001951
-0.0015806 -0.00040485 -0.016999 -0.019972 0.29242 0.20443 0.00082046 0.0018201
0.00067099 0.0013282 0.00034973 0.00065397
0.00016253 -0.00090621 -0.0024591 0.00045073 0.00081103 0.0018234 0.079206 0.27285
0.0094923 -0.01846 0.0014707 0.0013375
-0.0023927 0.0023005 -1.5289e-05 0.0029828 0.00066447 0.0013061 0.0094628 -0.018464
0.0050414 0.21782 0.012313 -0.013167
0.0012374 0.0018754 -0.00062699 0.0019377 0.00037172 0.00063756 0.0014715 0.0013485
0.012306 -0.013152 0.0053516 0.3247
1280000000 0.18825 0.26656 -0.0088292 -0.027113 -0.0015621 0.0028635 -0.0009012 -0.0020128
-0.0006993 0.0029217 0.0024029 0.0010089
-0.0087909 -0.027084 0.0080219 0.38222 -0.023189 -0.0077741 -0.0010098 0.0014323
0.0017169 0.0018089 0.00064441 0.0018295
-0.0015616 0.0028758 -0.023254 -0.0076914 0.32222 0.16021 0.0016216 9.5219e-05
0.0011257 0.00028952 0.00028108 0.0001548
-0.00092691 -0.0019967 -0.0010093 0.0014346 0.0016148 0.00010019 0.11539 0.25521
-0.00029317 -0.019959 -0.00055805 0.00048729
-0.00068011 0.0029247 0.0017116 0.0018164 0.0011406 0.00029346 -0.00032488 -0.019965
0.041062 0.2206 0.0018077 -0.014894
0.0024401 0.00098881 0.00067498 0.0018128 0.00029542 0.00018404 -0.00056753 0.00048737
0.0018286 -0.014891 0.05172 0.32446
1340000000 0.22507 0.23153 -0.01781 -0.017401 0.0013475 0.0043375 -0.001659 -0.00097402
0.0014247 0.0025511 0.0016077 -0.0014238
-0.017773 -0.0174 0.047612 0.37312 -0.020829 0.0046188 -0.00013214 0.002079
0.0020582 0.00076483 0.0013772 0.00070666
0.0013657 0.0043424 -0.020823 0.0047195 0.34389 0.11158 0.0013353 -0.00097621
0.0007035 -0.00053272 0.00010864 0.00022725
-0.0016615 -0.0009664 -0.00013278 0.0020802 0.0013399 -0.00099152 0.14734 0.23308
-0.0096304 -0.016734 0.00059229 0.00113
0.0014397 0.0025504 0.002061 0.00075207 0.00071586 -0.00054559 -0.0096689 -0.016733
0.070575 0.21443 -0.0046684 -0.013025
0.0015846 -0.001426 0.0013783 0.00069651 0.00012986 0.00023772 0.00059733 0.0011288
-0.0046532 -0.013033 0.090768 0.31721
1400000000 0.25689 0.19265 -0.022622 -0.0062067 0.0052937 0.0026759 -0.0021801 0.00051371
0.0022703 0.00079589 0.00023698 -0.0014098
-0.022599 -0.0062176 0.084238 0.35986 -0.014053 0.012272 0.0013579 0.0013964
0.0012788 -0.00083407 0.0011826 0.00010129
0.0053019 0.002661 -0.014027 0.012358 0.35591 0.057754 0.0001774 -0.0019354
6.8428e-05 -0.00041574 0.00028064 0.00016624
-0.0021928 0.00051095 0.0013657 0.0013865 0.00016758 -0.0019293 0.17519 0.20314
-0.015422 -0.0098892 -0.00057229 0.00041159
0.0022626 0.00079108 0.0012813 -0.00084897 6.027e-05 -0.00040316 -0.015451 -0.0098571
0.10222 0.2091 -0.010628 -0.0079378
0.00024159 -0.0014161 0.0011774 9.3955e-05 0.00029185 0.00017421 -0.00056971 0.00041825
-0.010616 -0.007947 0.13389 0.30446
1460000000 0.27924 0.14825 -0.019313 0.0052633 0.0054537 -0.0021602 -0.0016258 0.0016897
0.0019876 -0.00048486 -0.00034052 -0.00088507
-0.019301 0.0052439 0.11877 0.33788 -0.0057713 0.014816 0.0018184 0.00017873
0.00083014 -0.0013428 0.0011172 -0.00053567
0.0054611 -0.0022012 -0.0057077 0.014861 0.36159 0.0032541 -0.0015244 -0.001446
0.00015089 -0.00015799 0.00060834 -0.00035492
-0.0016342 0.001701 0.0018265 0.00017929 -0.0015019 -0.0014372 0.20021 0.17335
-0.016722 -0.0028841 -0.00035423 0.0023617
0.0019806 -0.00049341 0.00082949 -0.0013551 0.00016166 -0.00016152 -0.016724 -0.0028398
0.1309 0.19397 -0.01171 -0.0020894
-0.00033536 -0.00091403 0.001121 -0.00056315 0.00062182 -0.00032893 -0.00035408 0.0023739
-0.011706 -0.0020978 0.16675 0.2825
1520000000 0.29053 0.10536 -0.013522 0.010262 0.0029105 -0.0042052 9.0795e-05 0.0026673
0.0020558 -0.0016458 -0.0011358 -0.00017659
-0.013516 0.010263 0.15202 0.32226 0.0015399 0.012647 0.0017072 -0.00092363
-4.0389e-06 -0.0011939 0.00028728 -0.00096146
0.0029011 -0.0042075 0.0016144 0.012655 0.35407 -0.053843 -0.0014554 -0.00032679
0.00051865 -0.00089682 1.6812e-05 -9.0139e-05
9.1313e-05 0.0026673 0.0017122 -0.00093055 -0.0014491 -0.00033336 0.2212 0.13493
-0.015881 0.0031776 0.0019384 0.0020074
0.0020608 -0.0016556 -2.1286e-05 -0.0011987 0.00052951 -0.00089592 -0.01588 0.0032112
0.15793 0.17865 -0.011399 0.0022727
-0.0011359 -0.00016142 0.00027938 -0.00096983 1.1821e-05 -0.0001043 0.0019405 0.0020004
-0.011399 0.0022652 0.19904 0.26017
1580000000 0.29868 0.059126 -0.0072184 0.012789 -0.0010932 -0.0046427 0.0015623 0.0019896
-0.00013665 -0.0021687 -0.00034875 0.00032725
-0.0072114 0.012787 0.17912 0.29749 0.0050064 0.0080278 0.00044036 -0.0017075
-0.00061203 -0.0010748 -0.00022631 -0.00082215
-0.0011046 -0.0046357 0.0050634 0.0080136 0.33299 -0.1108 -0.0017128 0.0010206
-0.00028909 -0.0011479 0.0001238 -0.00054725
0.0015579 0.001979 0.00043158 -0.0017226 -0.0017269 0.0010242 0.23345 0.096518
-0.012401 0.0084525 0.0025324 0.00049643
-0.00014782 -0.0021751 -0.00063149 -0.0010713 -0.00029102 -0.0011438 -0.012382 0.0084865
0.18127 0.16037 -0.0090451 0.007602
-0.00035364 0.00034755 -0.00023426 -0.00082871 0.00012187 -0.00054453 0.0025349 0.00048747
-0.0090659 0.0076047 0.22974 0.23287
1640000000 0.29997 0.017086 -0.0009855 0.011478 -0.0027947 -0.0024401 0.0028335 0.00093945
-0.00066352 -0.0016129 -0.00032001 0.00064425
-0.00098776 0.011476 0.20878 0.2716 0.005645 0.0035184 -0.00087689 -0.0017133
-0.0010998 -0.00033297 -0.00054657 -0.00061057
-0.0028159 -0.002441 0.0056783 0.0034946 0.30401 -0.15999 -0.00054897 0.0016898
-0.0011989 -0.00095506 -0.00020578 -0.00023636
0.002843 0.00092439 -0.00088815 -0.0017124 -0.00054127 0.0016832 0.24453 0.048348
-0.0078667 0.010177 0.0026637 -0.0011155
-0.00067687 -0.0016104 -0.0011162 -0.00032423 -0.0011966 -0.00095832 -0.0078468 0.010207
0.20317 0.13498 -0.0042949 0.0094369
-0.00032072 0.00065056 -0.00054919 -0.00060873 -0.00020404 -0.00023668 0.0026563 -0.0011295
-0.004304 0.0094313 0.25479 0.20045
1700000000 0.29102 -0.028423 0.0021039 0.0086932 -0.0032976 0.00020277 0.002975 -0.0015131
-0.0019914 -0.00081222 0.00070675 0.00042601
0.0020881 0.0086851 0.22614 0.23973 0.0038476 0.00070583 -0.0015337 -0.00049313
-0.00074762 0.00024394 -0.00087118 -0.00042183
-0.003312 0.00019087 0.0038725 0.00068595 0.25996 -0.19944 0.00076695 0.0015624
-0.0019007 -6.2651e-05 -0.00053556 -0.0007402
0.0029672 -0.0015129 -0.0015477 -0.00049237 0.00075127 0.0015828 0.24018 0.00039049
-0.0043365 0.010987 0.0015157 -0.0024061
-0.0020081 -0.00080001 -0.00074826 0.00024321 -0.0019228 -4.7916e-05 -0.0043166 0.010997
0.2189 0.11435 0.00026295 0.0097149
0.00070703 0.00042063 -0.00086396 -0.0004098 -0.00054133 -0.00075202 0.0015115 -0.0024108
0.00025458 0.009714 0.26954 0.16532
1760000000 0.27805 -0.076542 0.0040062 0.0055541 -0.0021765 0.00084333 0.00099315 -0.0035331
-0.0015284 0.00063098 0.00049517 -0.00046901
0.0040066 0.0055494 0.25205 0.19935 0.001816 -0.0012801 -0.0011891 0.00030416
-0.00096109 0.00094591 -0.00063008 0.00048188
-0.0021457 0.00085154 0.0018138 -0.0012829 0.2118 -0.23245 0.0013685 0.0007367
-0.0011373 0.001555 -0.0013535 -0.00030258
0.00099074 -0.0035442 -0.0011843 0.00030443 0.0013421 0.00073479 0.23173 -0.049101
-0.0004184 0.010203 -0.00032276 -0.0026396
-0.0015206 0.00065224 -0.00095599 0.0009458 -0.0011274 0.001558 -0.00040447 0.010201
0.233 0.079185 0.0041234 0.0070744
0.0005018 -0.00047164 -0.00062144 0.00049548 -0.0013434 -0.00029534 -0.00032819 -0.0026292
0.0041241 0.0070759 0.28156 0.12752
1820000000 0.25193 -0.11377 0.004003 0.0022668 -0.00011347 0.0024425 -0.0013167 -0.0028926
-0.001233 0.0010754 2.8304e-05 -0.00016834
0.0039915 0.0022574 0.26113 0.16852 -0.00025699 -0.00015092 -0.0011848 0.0010111
0.00012419 0.0012459 -0.00046694 0.00057669
-9.0977e-05 0.002448 -0.00023387 -0.00014865 0.16042 -0.24834 0.001341 6.3454e-05
-4.5985e-05 0.0023201 -0.001336 0.00050961
-0.0013301 -0.0028819 -0.0011877 0.0010205 0.0013341 6.0682e-05 0.20227 -0.095308
0.0016792 0.0082304 -0.0016464 -0.0016528
-0.0012279 0.0010811 0.00014397 0.0012436 -2.8866e-05 0.0023148 0.0017015 0.0082415
0.24865 0.049451 0.0050997 0.0035384
2.975e-05 -0.00016483 -0.00046831 0.00058791 -0.0013303 0.0005346 -0.0016503 -0.0016432
0.0051017 0.0035409 0.28295 0.090203
1880000000 0.21576 -0.15277 0.0017255 0.000245 -0.00043498 0.0020692 -0.0030131 -0.001842
-0.00023718 0.0018517 0.00018618 -0.00059876
0.0017201 0.0002295 0.2648 0.12218 -0.0023683 0.0015664 -6.4679e-05 0.001622
0.00061396 0.0010679 0.00020006 0.00096574
-0.00043917 0.0020905 -0.002366 0.0015942 0.10744 -0.25738 0.0014184 -0.00093494
0.0016484 0.0017977 -0.00080233 0.0013538
-0.0030312 -0.0018225 -6.1873e-05 0.0016364 0.0014135 -0.00092522 0.16327 -0.13472
0.0028632 0.0056446 -0.0023604 0.00020772
-0.00021619 0.0018693 0.0006148 0.0010566 0.0016546 0.0018044 0.0028793 0.0056449
0.25053 0.017238 0.0050032 0.0013929
0.00018458 -0.00059157 0.00021325 0.00096364 -0.00078747 0.0013443 -0.0023624 0.00021244
0.0050017 0.0014 0.28148 0.05669
1940000000 0.17632 -0.17828 -0.00041278 -0.0011294 0.0015058 0.0019246 -0.0035547 0.0007009
0.0015498 0.0010964 -0.00061438 -0.00062798
-0.00041014 -0.0011342 0.26477 0.090092 -0.00113 0.0038747 0.0010115 0.0011148
0.0016961 0.00037478 0.0009036 0.00036051
0.0015012 0.001952 -0.0011169 0.0038906 0.061892 -0.25054 0.00011554 -0.0016257
0.0022438 0.00027346 0.00039424 0.0015642
-0.0035555 0.00071015 0.0010091 0.001108 8.4961e-05 -0.0016344 0.11216 -0.16594
0.0022355 0.0036311 -0.0014004 0.0012611
0.0015552 0.0010976 0.0016935 0.00034648 0.0022541 0.00027969 0.0022575 0.00363
0.2518 -0.022275 0.0039026 -0.0018889
-0.00062361 -0.00063139 0.00091667 0.00034439 0.00044332 0.0015489 -0.0013916 0.0012676
0.0038995 -0.0018882 0.27006 0.019518
2000000000 0.12879 -0.19216 -0.0041777 0.00092237 0.0025293 0.0014414 -0.0021145 0.00328
0.0012882 0.00014592 -0.00063162 0.00046571
-0.0041871 0.0008972 0.24957 0.054695 -0.00084701 0.0056905 0.0014893 0.00026092
0.0011024 -0.0012644 0.00047718 -3.1468e-05
0.0025289 0.0014583 -0.00080032 0.0057 0.017664 -0.23546 -0.00098643 -0.00094143
0.0017332 -0.001175 0.0015618 0.0010146
-0.0020976 0.003299 0.0014728 0.00025108 -0.00099193 -0.00096147 0.058577 -0.17674
0.00029697 0.0026123 -0.00031055 0.0020699
0.001295 0.00014064 0.0011097 -0.0012861 0.0017298 -0.0011795 0.00031977 0.0026114
