!Keysight Technologies,M9804A,MY58100912,A.14.10.03
!Date: Thursday, April 27, 2023 10:28:33
!Correction: S11(C  6-Port  ) 
!S12(C  6-Port  ) 
!S13(C  6-Port  ) 
!S14(C  6-Port  ) 
!S15(C  6-Port  ) 
!S16(C  6-Port  ) 
!S21(C  6-Port  ) 
!S22(C  6-Port  ) 
!S23(C  6-Port  ) 
!S24(C  6-Port  ) 
!S25(C  6-Port  ) 
!S26(C  6-Port  ) 
!S31(C  6-Port  ) 
!S32(C  6-Port  ) 
!S33(C  6-Port  ) 
!S34(C  6-Port  ) 
!S35(C  6-Port  ) 
!S36(C  6-Port  ) 
!S41(C  6-Port  ) 
!S42(C  6-Port  ) 
!S43(C  6-Port  ) 
!S44(C  6-Port  ) 
!S45(C  6-Port  ) 
!S46(C  6-Port  ) 
!S51(C  6-Port  ) 
!S52(C  6-Port  ) 
!S53(C  6-Port  ) 
!S54(C  6-Port  ) 
!S55(C  6-Port  ) 
!S56(C  6-Port  ) 
!S61(C  6-Port  ) 
!S62(C  6-Port  ) 
!S63(C  6-Port  ) 
!S64(C  6-Port  ) 
!S65(C  6-Port  ) 
!S66(C  6-Port  ) 
!S6P File: Measurement: :
# Hz S  RI   R 50
500000000 -0.33963 -0.024939 -0.010713 -0.0031223 -0.0081015 0.012759 -0.0036518 0.012064
0.011615 0.004274 -0.0037386 0.0083287
-0.010694 -0.0031348 -0.41985 -0.04198 0.006467 -0.01139 0.0017831 0.01265
0.0074828 0.0021913 0.0020603 0.01384
-0.0080711 0.012748 0.0064538 -0.01141 -0.26469 0.21912 0.0068819 0.0039277
-0.0012276 0.0076099 0.0016945 0.012282
-0.0036464 0.012066 0.0018032 0.012661 0.0069 0.0039315 -0.33293 0.055384
-0.019685 -0.0065595 0.015256 0.024679
0.011548 0.0042643 0.0075797 0.0021794 -0.0011607 0.0074918 -0.019586 -0.006498
-0.23171 -0.17588 -0.025208 0.0048825
-0.0036583 0.0083281 0.0020387 0.013703 0.0015947 0.012138 0.01523 0.024616
-0.025176 0.0048631 -0.27896 -0.10037
560000000 -0.31497 0.13263 -0.025537 -0.061288 0.00024953 0.011906 0.0052468 0.010384
0.009261 0.0044588 0.009786 0.0070282
-0.025498 -0.061254 -0.37465 0.11337 -0.041383 -0.034679 0.013365 0.0035917
-0.012596 -0.0032036 0.0031111 -0.0010129
0.00028687 0.011897 -0.041523 -0.034612 -0.18152 0.26503 -0.00028894 -0.0045369
0.01835 0.0038556 0.0064847 -0.0060777
0.0052707 0.010365 0.013376 0.0035702 -0.00028323 -0.004537 -0.30667 0.14387
0.00065802 -0.023191 0.0040907 -0.019693
0.0092714 0.0044567 -0.012551 -0.0031826 0.018345 0.0038536 0.00064365 -0.023325
-0.2876 -0.0025495 0.0052063 -0.04778
0.0098626 0.0069681 0.0031098 -0.00089342 0.0063376 -0.0061934 0.0040135 -0.019601
0.0051235 -0.047881 -0.3309 0.042254
620000000 -0.27253 0.11798 -0.023467 0.0076508 0.004135 0.0077385 0.0080765 -0.0049192
0.010296 -0.0010178 0.00057802 -0.0019062
-0.023448 0.0076433 -0.402 0.068178 -0.019029 0.00073564 -0.0013457 -0.0016722
0.010753 -0.006824 0.0013358 -0.0025607
0.0041647 0.007714 -0.019052 0.00076989 -0.15064 0.27391 -0.0010837 -0.0049342
-0.0034218 -0.0028435 0.0084357 -0.0032682
0.0080623 -0.0049398 -0.0013596 -0.0016717 -0.0010825 -0.0049401 -0.26434 0.155
-0.040643 -0.016897 0.012686 0.025234
0.010219 -0.0010683 0.010784 -0.0068274 -0.0033189 -0.0027737 -0.040696 -0.016921
-0.20823 -0.042634 -0.041225 0.015173
0.00044805 -0.0020704 0.0013228 -0.0025726 0.0083469 -0.0031549 0.01255 0.025176
-0.041164 0.015113 -0.2548 0.011413
680000000 -0.23003 0.20165 -0.027434 -0.012674 0.0053106 0.0045856 0.001114 -0.0068566
-0.0028655 -0.010883 0.0042761 -0.0066465
-0.027413 -0.012688 -0.38581 0.1644 -0.031969 -7.241e-05 -0.0015208 -0.00038185
-0.0022465 -0.0090534 -0.0018909 -0.0021604
0.0053173 0.0045829 -0.032 7.1264e-06 -0.099302 0.2931 -0.00099601 -0.00044517
-0.0017288 0.00027085 -0.0035598 -0.0086931
0.0010972 -0.0068588 -0.0015105 -0.00038654 -0.00099744 -0.00044976 -0.21818 0.20554
-0.025447 -0.0050778 -0.0091285 -0.0089118
-0.0028965 -0.010886 -0.0022489 -0.0091124 -0.0017444 0.00029045 -0.025445 -0.0050392
-0.25422 0.057165 -0.0071884 -0.0067738
0.0043019 -0.0067871 -0.0018909 -0.0021331 -0.003561 -0.0086715 -0.0089655 -0.0088526
-0.0071281 -0.0068243 -0.2562 0.11095
740000000 -0.18576 0.19554 -0.037036 0.026907 0.012078 -0.0055638 -0.00049477 -0.0042616
-0.0048048 -0.0030591 -0.0057215 0.002553
-0.037036 0.026887 -0.33327 0.18341 -0.033255 0.034874 -0.00082926 -0.0062274
-0.011993 0.0075741 -0.0019601 -0.0057173
0.012073 -0.0055748 -0.033189 0.034985 -0.065235 0.29126 -0.0019842 0.003113
-0.0032116 -0.004606 -0.0019815 0.00075984
-0.00050841 -0.0042635 -0.00084369 -0.0062491 -0.0019842 0.0031106 -0.20033 0.21307
-0.04271 -0.0040979 0.022797 0.013635
-0.0047444 -0.0030646 -0.012005 0.0076465 -0.0031495 -0.0047496 -0.042816 -0.0040016
-0.15747 0.080864 -0.039915 0.0035001
-0.0058101 0.0026461 -0.0019902 -0.0056805 -0.0020334 0.00070738 0.022807 0.01369
-0.039909 0.0035113 -0.24602 0.11909
800000000 -0.15287 0.23442 -0.021467 0.017311 0.0046274 -0.010353 -0.0044879 -0.0016861
-0.003579 0.0024957 0.0036807 0.00056126
-0.021472 0.01728 -0.33512 0.25253 -0.0069801 0.033532 -0.0026171 0.0023652
-0.00059992 0.0032609 0.00082822 0.0052135
0.0046066 -0.010373 -0.0068813 0.03359 -0.023808 0.31363 0.00074849 0.0016916
0.00035974 0.0037549 -0.0018114 0.00087629
-0.0045081 -0.0016752 -0.0026105 0.0023848 0.00074694 0.0016991 -0.171 0.23996
-0.027178 0.016406 0.01305 -0.010067
-0.0035695 0.0024542 -0.0005605 0.0032458 0.00032658 0.0037337 -0.027174 0.016448
-0.19835 0.10669 -0.01633 0.018931
0.0036606 0.00054057 0.00083972 0.0052333 -0.0018053 0.0008589 0.013048 -0.010067
-0.016288 0.018998 -0.2356 0.16662
860000000 -0.11729 0.25431 -0.01605 0.030672 -0.0036829 -0.0094616 -0.0022045 0.00090889
0.0041923 0.0045485 -0.0028748 -0.002715
-0.016062 0.030632 -0.28712 0.29398 0.0087949 0.033173 6.1782e-05 0.0022098
0.0040061 0.00019604 0.0031913 0.00047441
-0.0037147 -0.0094611 0.0089057 0.033175 0.025186 0.32083 -0.00039198 -8.0799e-05
0.0027114 -0.0012447 0.0015834 0.0040711
-0.0022096 0.00090641 6.4581e-05 0.002208 -0.00039461 -8.0743e-05 -0.13319 0.25027
-0.015095 0.02009 -0.005848 -0.0091722
0.00422 0.0044857 0.004019 6.4179e-05 0.0026827 -0.0012219 -0.01515 0.020077
-0.1461 0.15436 -0.022453 0.016071
-0.0029422 -0.0027018 0.0030739 0.00042862 0.001589 0.0040929 -0.0058821 -0.0091564
-0.02252 0.015981 -0.18491 0.20876
920000000 -0.091536 0.27572 0.0061274 0.036749 -0.0092166 -0.0039777 -0.0015816 0.0017071
0.001402 0.0013363 0.0026131 -0.0017159
0.0060854 0.036704 -0.25738 0.31385 0.028044 0.020522 0.0016783 0.00079284
0.0070331 -0.00078506 0.0036542 -0.0029966
-0.0092374 -0.0039648 0.028143 0.020471 0.071775 0.32034 0.0019852 -0.00018291
0.0015452 -0.0006477 0.00074532 -0.0011748
-0.0015877 0.0017024 0.0016944 0.00080143 0.0019725 -0.00017049 -0.10823 0.26559
-0.0079694 0.030664 0.002679 -0.0065182
0.0013729 0.0013102 0.0069904 -0.0008516 0.0015419 -0.00063705 -0.0079153 0.030703
-0.134 0.1587 -0.00058984 0.026071
0.0026194 -0.0017574 0.0036018 -0.0029694 0.00076309 -0.0011982 0.0027153 -0.0064773
-0.00063966 0.026082 -0.1883 0.22283
980000000 -0.044382 0.29423 0.018187 0.028555 -0.0084398 0.0046924 0.0018878 0.0030664
0.0039959 -0.0016384 -0.0032352 -0.0020314
0.018156 0.028525 -0.20503 0.34722 0.032365 0.0035985 0.001992 -0.00029539
0.0016483 -0.0060862 -0.00048511 -0.0023483
-0.0084297 0.0047034 0.032425 0.0035238 0.11834 0.31323 0.00052464 -0.0013606
0.00022484 -0.0023144 0.0014064 -0.00023191
0.0018919 0.003052 0.0019924 -0.00027929 0.0005197 -0.0013591 -0.069166 0.27588
0.010254 0.028905 -0.0084284 -0.006353
0.0040071 -0.0016277 0.0016323 -0.0061443 0.00026266 -0.0023043 0.010321 0.028923
-0.10203 0.18563 0.0062609 0.01858
-0.0031895 -0.0020291 -0.00053587 -0.0023806 0.0014043 -0.00024855 -0.0084516 -0.0063544
0.0062376 0.018579 -0.14409 0.26372
1040000000 -0.0013417 0.30129 0.032836 0.01627 -0.0010801 0.0066379 0.0023641 0.00070381
0.00013345 -0.0032843 -0.00062373 -0.0012993
0.032783 0.016259 -0.16904 0.35981 0.027957 -0.015345 0.0015462 -0.001698
-0.0022514 -0.0024526 -0.0013869 -0.0027288
-0.0010714 0.0066292 0.027947 -0.01544 0.16503 0.29821 -0.00057724 -0.0015107
-0.0016578 -0.00096289 -0.00049858 -0.0010665
0.0023586 0.0006869 0.0015563 -0.0016934 -0.0005816 -0.0014999 -0.040596 0.28454
0.020791 0.016129 -0.0025126 0.0011078
0.00014147 -0.0032617 -0.0022748 -0.0024873 -0.0016464 -0.00093975 0.020831 0.016127
-0.069224 0.19126 0.013707 0.016399
-0.00063338 -0.0013315 -0.0013988 -0.0026941 -0.00047826 -0.0010619 -0.002506 0.0010954
0.013702 0.016399 -0.12008 0.28371
1100000000 0.043589 0.30804 0.034497 -0.0054061 0.0027051 0.0036173 0.0021754 -0.0010701
-0.0018365 -0.0029777 -0.0037525 0.00019176
0.034468 -0.0053818 -0.1261 0.37651 0.013837 -0.027423 -8.9413e-05 -0.0018311
-0.0032916 -0.00082118 -0.0033748 -0.00039515
0.0027175 0.0036044 0.013754 -0.027502 0.211 0.27669 -0.0018415 0.00018445
-0.0018813 0.00055942 -0.00098346 -0.00024251
0.0021734 -0.0010829 -9.2089e-05 -0.0018272 -0.0018359 0.00019096 -0.00013798 0.28788
0.025017 0.0028797 -0.0026154 -0.00022797
-0.0018503 -0.0029769 -0.003294 -0.00080455 -0.001873 0.000562 0.025041 0.0028536
-0.051275 0.20376 0.018571 0.0066562
-0.0037581 0.00021699 -0.0033723 -0.00037879 -0.00099283 -0.00021702 -0.0025924 -0.000216
0.018596 0.0066442 -0.074333 0.30962
1160000000 0.095149 0.30215 0.022306 -0.021168 0.0023475 -0.00043872 -6.2441e-05 -0.0020452
-0.0038817 -0.00067458 -0.00092972 0.0038904
0.022301 -0.021147 -0.081604 0.38039 -0.004526 -0.028095 -0.0016705 -0.0016459
-0.0026909 0.002552 -0.001359 0.0017154
0.0023505 -0.0004515 -0.0046372 -0.028089 0.25411 0.24481 -0.00080033 0.00178
-0.00050289 0.0019457 -0.00085234 0.00012953
-6.5173e-05 -0.0020506 -0.0016724 -0.0016351 -0.00080518 0.0017716 0.039664 0.2835
0.020394 -0.012314 -0.0032591 0.0044534
-0.0038766 -0.0006164 -0.0026758 0.0025775 -0.00047726 0.0019479 0.020377 -0.012347
-0.017771 0.21097 0.016883 -0.00091118
-0.00090395 0.0039127 -0.0013752 0.0017384 -0.00084747 0.0001159 -0.0032474 0.0044561
0.016861 -0.0009178 -0.026637 0.31121
1220000000 0.13936 0.28928 0.0087862 -0.02933 -0.0015977 -0.00037983 0.00015413 -0.00088887
-0.0024214 0.002273 0.0012542 0.0018441
0.0088068 -0.029301 -0.037717 0.39127 -0.016918 -0.020022 -0.0024596 0.00042437
-3.7267e-05 0.0029568 -0.00061703 0.001929
-0.0015989 -0.00037792 -0.017019 -0.019968 0.29245 0.2044 0.00080328 0.0018128
0.00065601 0.0012929 0.00034139 0.00063943
0.00014248 -0.00089797 -0.0024696 0.00044157 0.00080216 0.0018171 0.079255 0.27285
0.0095102 -0.018452 0.00146 0.0013441
-0.0024119 0.002282 -2.1527e-05 0.0029619 0.00067343 0.0013074 0.009475 -0.01845
0.0051921 0.21788 0.012205 -0.013139
0.0012559 0.0018555 -0.00063968 0.0019188 0.00038017 0.00062301 0.0014684 0.0013511
0.01219 -0.013136 0.0054612 0.32459
1280000000 0.18835 0.26652 -0.0087743 -0.027051 -0.0015494 0.0028625 -0.00093454 -0.002024
-0.0006975 0.0029133 0.0023993 0.00099988
-0.0087425 -0.027027 0.0080178 0.38223 -0.023175 -0.0077565 -0.0010238 0.0014386
0.0016997 0.001806 0.00063127 0.001813
-0.001544 0.0028622 -0.023243 -0.0076702 0.32225 0.1602 0.0016156 0.00010692
0.0011328 0.00030013 0.00030773 0.00017659
-0.00093656 -0.0020084 -0.0010115 0.0014413 0.0016129 0.00010958 0.11543 0.25519
-0.00027158 -0.019963 -0.00055953 0.00049948
-0.000688 0.0029295 0.0017192 0.0018071 0.0011321 0.00029941 -0.00030527 -0.019974
0.041209 0.22063 0.0017193 -0.014837
0.002405 0.00097954 0.00066897 0.0018121 0.00030907 0.00015634 -0.0005517 0.0005062
0.0017228 -0.014828 0.051858 0.32437
1340000000 0.2251 0.23148 -0.017745 -0.017393 0.001369 0.0043303 -0.0016544 -0.00095297
0.0014257 0.0025662 0.0016006 -0.0014324
-0.017714 -0.017386 0.047591 0.37315 -0.020815 0.0046453 -0.00013267 0.0020676
0.002037 0.00078483 0.001373 0.00071942
0.0013878 0.0043273 -0.020822 0.004741 0.34389 0.11153 0.0013362 -0.00098615
0.0007001 -0.00055147 0.00011377 0.00023937
-0.0016581 -0.00094297 -0.0001204 0.0020746 0.0013382 -0.00097166 0.14738 0.23307
-0.00961 -0.016731 0.00060679 0.0011472
0.0014393 0.0025514 0.0020437 0.00076139 0.00070644 -0.00054808 -0.0096384 -0.016734
0.070679 0.21442 -0.0046872 -0.012923
0.0015682 -0.0014368 0.0013732 0.00070132 0.00011812 0.00023217 0.00061095 0.0011472
-0.004679 -0.012922 0.090937 0.31716
1400000000 0.25691 0.19261 -0.022561 -0.0062277 0.0053129 0.0026841 -0.0021779 0.00052052
0.0022858 0.00081118 0.00023474 -0.0013949
-0.022533 -0.0062407 0.084282 0.35987 -0.014047 0.012273 0.0013445 0.00139
0.0012676 -0.00081003 0.0011711 0.00011128
0.0053158 0.0026575 -0.014009 0.01235 0.3559 0.05774 0.00018346 -0.0019236
4.9873e-05 -0.00039152 0.00028189 0.00016719
-0.0021761 0.00053582 0.001364 0.0013828 0.00017602 -0.0019246 0.17522 0.20314
-0.015433 -0.0098906 -0.00055859 0.00040174
0.0022928 0.0007735 0.0012609 -0.0008363 5.9408e-05 -0.00038351 -0.01545 -0.0098593
0.10227 0.20911 -0.010576 -0.0078304
0.000216 -0.001391 0.0011647 0.00010503 0.00028075 0.0001709 -0.00055631 0.00039815
-0.01059 -0.0078497 0.13398 0.30437
1460000000 0.27927 0.14822 -0.019294 0.005195 0.0054734 -0.0021509 -0.0016137 0.0016885
0.0019777 -0.0004966 -0.00034055 -0.00089558
-0.019276 0.0051879 0.1188 0.33788 -0.0057603 0.014815 0.0018045 0.00018718
0.00081865 -0.0013335 0.0011105 -0.00055535
0.0054488 -0.002183 -0.0056884 0.014872 0.36159 0.003265 -0.001501 -0.001439
0.00015776 -0.0001571 0.00061123 -0.00033788
-0.0016062 0.0016926 0.0018098 0.00017254 -0.0014971 -0.0014415 0.20022 0.17333
-0.016709 -0.0028778 -0.00034587 0.002357
0.001974 -0.00051013 0.00082695 -0.0013381 0.00016226 -0.00016292 -0.016739 -0.0028361
0.13101 0.19402 -0.011608 -0.0020354
-0.00035081 -0.00089597 0.001105 -0.00055296 0.00058898 -0.00036467 -0.0003437 0.0023429
-0.011622 -0.0020475 0.16684 0.28247
1520000000 0.29053 0.10534 -0.013536 0.010186 0.0029167 -0.0042093 9.6591e-05 0.0026508
0.0020443 -0.0016496 -0.0011285 -0.00017032
-0.01353 0.010172 0.15208 0.32231 0.0015573 0.012636 0.0017092 -0.00091558
-1.4211e-05 -0.0011847 0.00028621 -0.00095504
0.0028915 -0.0042211 0.0016222 0.012645 0.35403 -0.053801 -0.0014647 -0.00032508
0.00051981 -0.00088385 1.0139e-05 -8.1439e-05
0.00010481 0.0026522 0.0017037 -0.00092931 -0.0014528 -0.00032854 0.22122 0.13492
-0.0159 0.0031654 0.0019491 0.0019967
0.0020401 -0.001655 -2.6195e-05 -0.0011901 0.00051609 -0.00089175 -0.015894 0.0032172
0.15801 0.17867 -0.011292 0.0022749
-0.0011183 -0.00017337 0.0002761 -0.00096369 1.8572e-05 -9.5732e-05 0.0019344 0.001986
-0.011305 0.0022678 0.19917 0.26011
1580000000 0.29868 0.059085 -0.0072753 0.012726 -0.0010993 -0.0046417 0.0015467 0.0019752
-0.00014895 -0.0021569 -0.00036545 0.00033387
-0.0072721 0.012714 0.17917 0.29746 0.0050241 0.0080285 0.00043955 -0.0017083
-0.0006114 -0.0010762 -0.00023521 -0.00082032
-0.0011245 -0.0046451 0.0050615 0.0080047 0.33305 -0.1108 -0.0017198 0.0010245
-0.00029572 -0.0011302 8.7597e-05 -0.00054648
0.00155 0.0019672 0.0004338 -0.0017149 -0.001731 0.0010302 0.23347 0.096494
-0.012392 0.0084463 0.0025253 0.00047927
-0.00016866 -0.0021704 -0.00061735 -0.0010789 -0.00030292 -0.0011412 -0.012389 0.0084917
0.1814 0.1604 -0.008972 0.0075426
-0.00034234 0.00034108 -0.00022334 -0.0008246 0.00011244 -0.00053647 0.0025229 0.00048224
-0.0089634 0.0075461 0.22985 0.23282
1640000000 0.29996 0.017036 -0.0010644 0.011459 -0.0028022 -0.0024272 0.002822 0.00093439
-0.00066839 -0.0015989 -0.00032427 0.00064041
-0.0010676 0.011451 0.20878 0.27158 0.0056411 0.0034931 -0.00087465 -0.0017181
-0.0011075 -0.00033571 -0.00054618 -0.00060701
-0.0028226 -0.0024123 0.0056641 0.0034671 0.30405 -0.15996 -0.00054622 0.0016813
-0.0012082 -0.00093226 -0.00020316 -0.00023358
0.0028281 0.00092626 -0.00088484 -0.0017156 -0.00054431 0.0016832 0.24457 0.048329
-0.0078582 0.01018 0.0026594 -0.0011102
-0.00067084 -0.0016246 -0.0011091 -0.00033184 -0.0012162 -0.00095031 -0.0078362 0.010206
0.20333 0.135 -0.0042429 0.0093675
-0.0003272 0.00063733 -0.00054408 -0.00061426 -0.0002033 -0.00023077 0.0026614 -0.0011243
-0.0042664 0.0093698 0.25493 0.2004
1700000000 0.29104 -0.028431 0.0020385 0.0087236 -0.0032841 0.0002037 0.0029598 -0.0015059
-0.0019912 -0.00082488 0.00070141 0.00043233
0.0020253 0.0087241 0.22616 0.23969 0.003843 0.00070052 -0.0015384 -0.00049942
-0.00075395 0.0002304 -0.0008705 -0.00042525
-0.0032825 0.00022115 0.0038547 0.00068082 0.26001 -0.19938 0.00074951 0.0015769
-0.0019216 -6.3245e-05 -0.00051505 -0.00074618
0.0029527 -0.0015281 -0.0015479 -0.00049442 0.00075077 0.0015775 0.24023 0.00035572
-0.0043317 0.010976 0.0015091 -0.0024084
-0.0019976 -0.0008131 -0.00075374 0.00023358 -0.0019157 -2.9933e-05 -0.0043171 0.010983
0.21909 0.11433 0.00028379 0.0096269
0.0007129 0.00041256 -0.00086692 -0.00041488 -0.00052734 -0.00075384 0.0015058 -0.0024097
0.00027787 0.0096262 0.26958 0.16525
1760000000 0.27807 -0.076577 0.0039703 0.0056245 -0.0021748 0.00083163 0.00098996 -0.0035329
-0.0015239 0.00062384 0.00049994 -0.00045749
0.0039678 0.0056337 0.25201 0.1993 0.001792 -0.0012842 -0.0011908 0.00030538
-0.00096737 0.00095405 -0.00062759 0.00049182
-0.0021681 0.00084665 0.0017912 -0.0013002 0.2118 -0.23251 0.0013663 0.00074951
-0.0011552 0.0015434 -0.0013251 -0.00030264
0.00097857 -0.0035427 -0.0011942 0.00031485 0.0013591 0.00074791 0.23172 -0.049153
-0.00043607 0.010185 -0.00032106 -0.0026152
-0.0015221 0.00064266 -0.0009642 0.00095238 -0.0011479 0.0015633 -0.00039975 0.010192
0.2332 0.079079 0.0040941 0.0069769
0.00048882 -0.00047544 -0.00062837 0.00048286 -0.0013432 -0.0003097 -0.00034048 -0.0026147
0.0041231 0.0069794 0.28165 0.12742
1820000000 0.25193 -0.1138 0.0039993 0.0023226 -0.00010808 0.0024379 -0.0013106 -0.0028933
-0.0012324 0.0010922 3.4004e-05 -0.00016895
0.0040004 0.0023264 0.26108 0.16851 -0.00026258 -0.00012372 -0.0011759 0.0010286
0.00012331 0.0012683 -0.00047446 0.00057382
-8.9451e-05 0.0024404 -0.00026256 -0.00012562 0.16046 -0.24827 0.0013398 7.0915e-05
-4.1611e-05 0.0023067 -0.0013149 0.00048561
-0.001328 -0.0028861 -0.0011713 0.001031 0.001343 6.7031e-05 0.20227 -0.095322
0.0016767 0.0082079 -0.0016495 -0.0016383
-0.0012316 0.0010714 0.00014335 0.0012604 -3.8507e-05 0.0023406 0.0016998 0.0082228
0.24882 0.049287 0.0050547 0.0034837
2.9748e-05 -0.00017432 -0.00046547 0.00057263 -0.0013274 0.00050563 -0.0016497 -0.0016255
0.0050517 0.0034654 0.28302 0.090015
1880000000 0.21579 -0.15278 0.0017709 0.00029743 -0.00042073 0.0020873 -0.0030003 -0.0018464
-0.00022899 0.0018712 0.00018496 -0.0005807
0.0017653 0.00030453 0.26477 0.12218 -0.0023779 0.0015866 -4.7106e-05 0.0016341
0.00062935 0.0010684 0.00019012 0.00097174
-0.00041047 0.0020795 -0.0023631 0.0016072 0.10745 -0.25742 0.0014285 -0.00094575
0.0016644 0.001779 -0.00077504 0.0013728
-0.003011 -0.0018349 -3.9812e-05 0.0016351 0.0014303 -0.00093993 0.16325 -0.13475
0.0028699 0.0056312 -0.0023646 0.00022631
-0.00022552 0.0018846 0.00063613 0.0010709 0.0016571 0.0017955 0.002854 0.0056418
0.25063 0.017006 0.0049087 0.0013592
0.00017935 -0.00059386 0.00020124 0.00097257 -0.00080725 0.0013523 -0.0023623 0.00022383
0.004897 0.0013508 0.28149 0.056545
1940000000 0.17629 -0.17835 -0.00036014 -0.0011096 0.0015078 0.0019084 -0.0035506 0.00068043
0.0015647 0.0011126 -0.00064576 -0.00064854
-0.00034444 -0.0011064 0.26473 0.090123 -0.0011135 0.0039044 0.0010176 0.0011243
0.0017133 0.00035389 0.00089656 0.00034854
0.0015074 0.0019043 -0.0010862 0.0039093 0.061943 -0.25055 0.00010938 -0.0016466
0.0022209 0.00028503 0.00042149 0.0015769
-0.0035561 0.00070449 0.0010263 0.0011139 0.00011293 -0.0016495 0.11216 -0.16592
0.0021985 0.0036402 -0.0013794 0.0012905
0.0015763 0.0010981 0.0017105 0.00035011 0.0022561 0.00027187 0.0022135 0.0036432
0.25178 -0.022552 0.0037928 -0.0018515
-0.00062173 -0.00063417 0.00091089 0.00034503 0.00040531 0.0015574 -0.0013899 0.0012657
0.0038111 -0.0018808 0.27007 0.019329
2000000000 0.12874 -0.19217 -0.0041168 0.00091383 0.0025501 0.0014572 -0.002119 0.0032784
0.0013019 0.00015124 -0.00063067 0.00044232
-0.004116 0.00091248 0.24959 0.054706 -0.00083393 0.0056955 0.0014774 0.000264
0.0011171 -0.001303 0.00049106 -5.3869e-05
0.0025608 0.001436 -0.0007991 0.0057042 0.017711 -0.23545 -0.001029 -0.00095852
0.00173 -0.001184 0.0015786 0.0010048
-0.002108 0.0032907 0.0014776 0.00025027 -0.0010305 -0.00096479 0.058571 -0.17671
0.00029882 0.0026316 -0.00028513 0.0020692
0.0013031 0.00013444 0.0010871 -0.0012992 0.0017272 -0.0011986 0.00028925 0.0026321
0.24438 -0.056576 0.00055258 -0.0029778
