!Keysight Technologies,M9804A,MY58100912,A.14.10.03
!Date: Thursday, April 27, 2023 10:28:33
!Correction: S11(C  6-Port  ) 
!S12(C  6-Port  ) 
!S13(C  6-Port  ) 
!S14(C  6-Port  ) 
!S15(C  6-Port  ) 
!S16(C  6-Port  ) 
!S21(C  6-Port  ) 
!S22(C  6-Port  ) 
!S23(C  6-Port  ) 
!S24(C  6-Port  ) 
!S25(C  6-Port  ) 
!S26(C  6-Port  ) 
!S31(C  6-Port  ) 
!S32(C  6-Port  ) 
!S33(C  6-Port  ) 
!S34(C  6-Port  ) 
!S35(C  6-Port  ) 
!S36(C  6-Port  ) 
!S41(C  6-Port  ) 
!S42(C  6-Port  ) 
!S43(C  6-Port  ) 
!S44(C  6-Port  ) 
!S45(C  6-Port  ) 
!S46(C  6-Port  ) 
!S51(C  6-Port  ) 
!S52(C  6-Port  ) 
!S53(C  6-Port  ) 
!S54(C  6-Port  ) 
!S55(C  6-Port  ) 
!S56(C  6-Port  ) 
!S61(C  6-Port  ) 
!S62(C  6-Port  ) 
!S63(C  6-Port  ) 
!S64(C  6-Port  ) 
!S65(C  6-Port  ) 
!S66(C  6-Port  ) 
!S6P File: Measurement: :
# Hz S  RI   R 50
500000000 -0.33963 -0.024995 -0.010717 -0.0031407 -0.0080929 0.012747 -0.0036568 0.012065
0.011517 0.0042673 -0.0036866 0.008324
-0.010703 -0.0031363 -0.41985 -0.042021 0.0064641 -0.011392 0.0017891 0.012658
0.0075716 0.0021903 0.002007 0.013698
-0.0080931 0.012771 0.0064447 -0.011405 -0.2647 0.21908 0.0068965 0.0039214
-0.0011653 0.0074798 0.0015823 0.012132
-0.0036546 0.012064 0.0018067 0.012677 0.0068904 0.0039211 -0.33296 0.05537
-0.019563 -0.0065124 0.015242 0.024628
0.011515 0.0042591 0.0075683 0.0021782 -0.001155 0.0074915 -0.019563 -0.0064992
-0.23181 -0.17573 -0.025105 0.0049871
-0.0036701 0.0083176 0.00203 0.013722 0.0015947 0.012128 0.015226 0.024643
-0.025102 0.0049889 -0.27875 -0.10055
560000000 -0.31493 0.13255 -0.025507 -0.061313 0.00027335 0.011897 0.0052487 0.010367
0.0092544 0.0044627 0.0098194 0.0069813
-0.025475 -0.061248 -0.37468 0.11326 -0.041414 -0.034679 0.013355 0.0036109
-0.012507 -0.0031964 0.0031304 -0.0008593
0.00029834 0.011912 -0.041519 -0.034591 -0.18149 0.26501 -0.00028767 -0.0045288
0.018353 0.003882 0.0063278 -0.006189
0.0052548 0.010383 0.013361 0.0035762 -0.00028005 -0.0045381 -0.30672 0.14387
0.0006655 -0.023319 0.0040383 -0.019596
0.0092604 0.0044624 -0.012544 -0.0031563 0.018353 0.0038661 0.00063415 -0.023321
-0.28774 -0.0025059 0.005123 -0.047997
0.0098633 0.0069745 0.0030925 -0.00087249 0.0063213 -0.0061982 0.0040278 -0.019613
0.005153 -0.048011 -0.33107 0.041901
620000000 -0.27256 0.11786 -0.023476 0.0076718 0.0041666 0.0077544 0.0080746 -0.0049172
0.010223 -0.0010563 0.00044741 -0.0020723
-0.023461 0.0076554 -0.40203 0.068183 -0.019049 0.00072522 -0.0013441 -0.0016762
0.010781 -0.0067876 0.001352 -0.0025654
0.0041751 0.007734 -0.019055 0.00077465 -0.15065 0.27389 -0.0010843 -0.004948
-0.0033136 -0.0027625 0.0083537 -0.003166
0.0080984 -0.0049144 -0.0013474 -0.0016713 -0.0010721 -0.004941 -0.26435 0.15497
-0.040669 -0.016949 0.012559 0.02517
0.010228 -0.0011024 0.01077 -0.0068337 -0.0033071 -0.0027737 -0.040661 -0.016937
-0.20808 -0.042745 -0.041058 0.015083
0.00044269 -0.0020267 0.0013437 -0.0025845 0.0083561 -0.0031752 0.012594 0.02515
-0.04107 0.015084 -0.25435 0.01116
680000000 -0.23003 0.20161 -0.02744 -0.012671 0.0053102 0.0045958 0.0011063 -0.0068346
-0.0028511 -0.010905 0.0043144 -0.0067762
-0.02742 -0.012692 -0.38584 0.16439 -0.031978 -7.9094e-05 -0.0015196 -0.00038254
-0.0022293 -0.0090867 -0.0018951 -0.0021416
0.0053271 0.0045918 -0.032003 5.685e-06 -0.0993 0.29309 -0.0010017 -0.00045049
-0.0017471 0.00029583 -0.0035547 -0.0086677
0.001097 -0.0068408 -0.0015109 -0.00038223 -0.0009953 -0.00044786 -0.21817 0.20551
-0.025428 -0.0050528 -0.0089931 -0.0088356
-0.0028894 -0.010906 -0.0022527 -0.0091046 -0.001753 0.00028559 -0.025434 -0.0050266
-0.2542 0.057105 -0.0070652 -0.00698
0.0043063 -0.0067852 -0.0018999 -0.0021301 -0.0035604 -0.0086748 -0.0090067 -0.0088249
-0.0070646 -0.0069915 -0.25638 0.11062
740000000 -0.18577 0.19549 -0.037036 0.026943 0.012088 -0.0055593 -0.00050531 -0.0042502
-0.0047293 -0.0030916 -0.0057911 0.0026028
-0.037055 0.026896 -0.3333 0.18343 -0.033265 0.03487 -0.0008249 -0.0062494
-0.012034 0.0075769 -0.0019839 -0.0056772
0.012075 -0.005593 -0.033187 0.034984 -0.065226 0.29125 -0.0019957 0.0031071
-0.0031304 -0.0047387 -0.0020279 0.00070243
-0.00050085 -0.004251 -0.00084849 -0.0062404 -0.0019884 0.0030975 -0.20034 0.2131
-0.0428 -0.0040609 0.022779 0.013689
-0.0047459 -0.0030813 -0.012008 0.007618 -0.0031486 -0.0047654 -0.042836 -0.0040334
-0.15756 0.080838 -0.040181 0.0033082
-0.0057915 0.0026222 -0.0020095 -0.0056873 -0.0020276 0.00068378 0.022792 0.01367
-0.040194 0.0032638 -0.24588 0.1192
800000000 -0.15293 0.23438 -0.021472 0.017314 0.0046286 -0.010352 -0.004487 -0.0016789
-0.0035643 0.0024248 0.0036731 0.00055492
-0.021463 0.017292 -0.33513 0.25255 -0.0069699 0.033542 -0.0026204 0.0023724
-0.00057929 0.003235 0.00080541 0.0052189
0.0046105 -0.01037 -0.0068808 0.033592 -0.02383 0.31361 0.00075543 0.0017004
0.00033071 0.0037326 -0.0018009 0.00085616
-0.0045076 -0.0016745 -0.0026108 0.002373 0.00075259 0.0016991 -0.17101 0.23993
-0.027192 0.016372 0.013067 -0.010044
-0.0035732 0.0024446 -0.00056192 0.0032331 0.00032423 0.00373 -0.027185 0.016423
-0.19845 0.10669 -0.016284 0.018914
0.0036744 0.00052815 0.0008317 0.005228 -0.0017971 0.00085425 0.013055 -0.010065
-0.016284 0.018894 -0.23563 0.16657
860000000 -0.11731 0.2543 -0.016056 0.030681 -0.0036878 -0.0094648 -0.0022091 0.00090012
0.0041999 0.0044953 -0.0029264 -0.0027052
-0.016049 0.030646 -0.28713 0.29397 0.0088101 0.033171 6.9035e-05 0.0022173
0.0040197 9.5529e-05 0.003071 0.0004332
-0.0037123 -0.0094614 0.0089193 0.03318 0.025188 0.32082 -0.00039547 -8.2677e-05
0.0026797 -0.0012241 0.0015844 0.0041016
-0.0022025 0.00090534 6.5618e-05 0.0022174 -0.00039494 -8.1179e-05 -0.1332 0.25025
-0.015176 0.020038 -0.0058828 -0.0091474
0.0042145 0.0044957 0.0040243 7.3447e-05 0.0026719 -0.0012288 -0.01517 0.020065
-0.14612 0.15427 -0.022466 0.01612
-0.0029446 -0.0026965 0.0030793 0.00043127 0.0015883 0.0040974 -0.005897 -0.0091448
-0.02248 0.016108 -0.18497 0.2087
920000000 -0.091592 0.27568 0.0061343 0.036762 -0.0092226 -0.0039868 -0.0015991 0.0016974
0.0013541 0.0013148 0.0026271 -0.0017384
0.0061216 0.036716 -0.25738 0.31387 0.028062 0.020528 0.0016971 0.00080513
0.0069793 -0.00083105 0.0036128 -0.002964
-0.0092353 -0.0039682 0.028149 0.020471 0.07176 0.32031 0.0019845 -0.000175
0.0015296 -0.00063605 0.00076462 -0.0011936
-0.001583 0.0017072 0.0016943 0.00079087 0.0019845 -0.00017905 -0.10822 0.2656
-0.007979 0.030674 0.002727 -0.0064733
0.0013648 0.0013113 0.006991 -0.00085052 0.0015295 -0.00063175 -0.0079339 0.030703
-0.13402 0.15851 -0.00061295 0.026169
0.0026207 -0.0017469 0.0036036 -0.0029759 0.00075982 -0.0011884 0.0027209 -0.0064695
-0.00063484 0.026158 -0.1884 0.22278
980000000 -0.044418 0.29423 0.018185 0.028558 -0.0084497 0.0046845 0.0018858 0.003049
0.0040028 -0.0016035 -0.0031859 -0.0020305
0.018189 0.028547 -0.20504 0.34721 0.03239 0.0036171 0.0019959 -0.00024477
0.0016795 -0.0061418 -0.00051168 -0.0023904
-0.0084264 0.0047084 0.03242 0.0035216 0.11832 0.31322 0.00051693 -0.0013546
0.00025672 -0.0023015 0.001401 -0.00024855
0.0018928 0.0030497 0.0019945 -0.00027543 0.00051724 -0.0013592 -0.069189 0.27587
0.010254 0.028932 -0.0084406 -0.0063775
0.0040115 -0.0016277 0.001636 -0.0061473 0.0002512 -0.0023007 0.01031 0.028933
-0.10208 0.18561 0.0062518 0.018612
-0.0031846 -0.0020238 -0.00053509 -0.0023899 0.0014044 -0.0002466 -0.008452 -0.0063578
0.0062227 0.018601 -0.14407 0.26364
1040000000 -0.0013658 0.30129 0.032841 0.016263 -0.0011079 0.00663 0.0023463 0.00068185
0.00015084 -0.0032526 -0.00064502 -0.0013266
0.032827 0.016249 -0.16904 0.35981 0.027989 -0.015347 0.0015856 -0.0016712
-0.002241 -0.002522 -0.0013824 -0.0027186
-0.0010788 0.0066301 0.027944 -0.015441 0.16502 0.29819 -0.00059045 -0.0015076
-0.001656 -0.00094036 -0.00048222 -0.0010688
0.0023609 0.00069027 0.0015604 -0.00169 -0.00058627 -0.0015053 -0.040589 0.28454
0.020783 0.016166 -0.002516 0.0010903
0.00013731 -0.0032545 -0.0022688 -0.0024929 -0.0016611 -0.00093856 0.020817 0.016136
-0.069262 0.19125 0.013695 0.016406
-0.000626 -0.001331 -0.0013961 -0.0026914 -0.00048115 -0.0010684 -0.0025077 0.0010984
0.013683 0.016395 -0.12017 0.28362
1100000000 0.043546 0.30803 0.03451 -0.0054137 0.0026951 0.0036149 0.002179 -0.0010719
-0.0018436 -0.0029858 -0.0037658 0.00019924
0.03449 -0.0053974 -0.12613 0.3765 0.013841 -0.027416 -7.3282e-05 -0.0018245
-0.0032802 -0.00082502 -0.0033682 -0.00039713
0.0027208 0.0036079 0.013749 -0.027499 0.21097 0.27667 -0.0018441 0.00018817
-0.0018736 0.00055827 -0.0010032 -0.00022055
0.0021731 -0.0010787 -8.7119e-05 -0.0018235 -0.0018418 0.00018281 -0.00015454 0.28789
0.02503 0.002905 -0.0025859 -0.00021827
-0.0018514 -0.0029814 -0.0032924 -0.00080423 -0.0018749 0.00056425 0.025033 0.0028613
-0.051352 0.20371 0.018605 0.0066484
-0.0037545 0.00020889 -0.003368 -0.00037986 -0.0010003 -0.00022853 -0.0025943 -0.00020491
0.018602 0.006657 -0.074398 0.30959
1160000000 0.095136 0.30217 0.022314 -0.021183 0.0023409 -0.00044633 -5.3817e-05 -0.0020494
-0.0038924 -0.0006355 -0.00094317 0.0039074
0.022324 -0.021164 -0.081619 0.38039 -0.0045012 -0.028089 -0.0016518 -0.0016297
-0.0026681 0.0025415 -0.0013716 0.0017123
0.0023451 -0.00045372 -0.0046429 -0.028078 0.25409 0.2448 -0.00080016 0.001777
-0.00048872 0.0019373 -0.00085505 0.00012356
-6.3098e-05 -0.002038 -0.0016706 -0.0016288 -0.00080588 0.0017809 0.039638 0.28349
0.020391 -0.012315 -0.0032642 0.0044474
-0.0038861 -0.00061167 -0.0026755 0.0025778 -0.00048888 0.0019467 0.020381 -0.01235
-0.01782 0.21096 0.016899 -0.00090349
-0.00090719 0.0039064 -0.0013716 0.0017397 -0.00083607 0.00012344 -0.0032487 0.0044681
0.016903 -0.00090939 -0.026666 0.31121
1220000000 0.13935 0.28924 0.008782 -0.029347 -0.0016042 -0.00038784 0.00015916 -0.00089964
-0.0024202 0.0022673 0.0012445 0.0018671
0.008809 -0.029319 -0.037729 0.39129 -0.016912 -0.020017 -0.0024642 0.00043559
-2.9503e-05 0.0029505 -0.00064028 0.0019091
-0.0016014 -0.00038295 -0.017016 -0.019964 0.29244 0.2044 0.00080643 0.0018093
0.00066816 0.0013174 0.00037644 0.00062232
0.00015623 -0.00089625 -0.0024683 0.00044197 0.00080638 0.0018105 0.07925 0.27286
0.0095096 -0.018444 0.001468 0.0013569
-0.0024133 0.0022866 -1.8766e-05 0.0029616 0.00066772 0.0013009 0.009488 -0.018459
0.0051035 0.21787 0.012233 -0.013099
0.0012483 0.0018605 -0.00063979 0.0019146 0.00038053 0.00062158 0.0014641 0.001353
0.012233 -0.013094 0.0054293 0.32461
1280000000 0.18834 0.26654 -0.0087914 -0.02706 -0.0015564 0.0028694 -0.00092657 -0.0020175
-0.00070601 0.0029131 0.0024091 0.00098939
-0.0087682 -0.027045 0.0080131 0.38223 -0.023187 -0.0077686 -0.0010136 0.001433
0.0017023 0.0018179 0.0006612 0.0018242
-0.0015468 0.0028668 -0.023247 -0.0076645 0.32223 0.16022 0.0016147 0.0001008
0.0011375 0.00029669 0.0003098 0.00015581
-0.00093207 -0.0020138 -0.0010078 0.0014333 0.0016207 0.00011118 0.11542 0.25519
-0.00026517 -0.019965 -0.00054209 0.00050512
-0.00068527 0.0029336 0.0017179 0.0018061 0.0011325 0.00029219 -0.00030326 -0.019971
0.041168 0.22061 0.0017389 -0.01483
0.0024085 0.00097969 0.00067648 0.0018221 0.0003097 0.00015723 -0.00054821 0.00050469
0.0017471 -0.014817 0.051824 0.32437
1340000000 0.22513 0.23145 -0.017752 -0.017394 0.0013539 0.0043375 -0.0016497 -0.00095853
0.0014281 0.0025653 0.001585 -0.0014414
-0.017729 -0.017402 0.047607 0.37314 -0.020817 0.004644 -0.00013053 0.0020721
0.0020406 0.00076611 0.0013672 0.00070838
0.0013698 0.0043346 -0.020821 0.0047435 0.3439 0.11153 0.0013377 -0.00098513
0.00070395 -0.00053999 0.00011865 0.00023614
-0.0016582 -0.00094614 -0.00011969 0.0020733 0.0013356 -0.00098365 0.14737 0.23307
-0.0096061 -0.016744 0.00060671 0.0011361
0.0014432 0.0025488 0.0020425 0.00076166 0.00070635 -0.00054147 -0.0096376 -0.016727
0.070657 0.21442 -0.0046565 -0.012918
0.0015806 -0.0014422 0.0013776 0.00069749 0.0001189 0.00023659 0.00061143 0.001143
-0.0046495 -0.012921 0.090881 0.31718
1400000000 0.25689 0.19258 -0.022575 -0.0062209 0.0053015 0.0026815 -0.0021803 0.00052009
0.0022762 0.00079187 0.00022446 -0.0013884
-0.022552 -0.0062456 0.084293 0.35989 -0.014043 0.012268 0.0013472 0.001395
0.0012676 -0.00082692 0.0011593 9.2799e-05
0.0053175 0.0026693 -0.014001 0.012356 0.35589 0.057743 0.00017363 -0.0019212
5.2766e-05 -0.00038166 0.00027772 0.00017471
-0.0021814 0.00052671 0.0013556 0.0013823 0.00017215 -0.0019265 0.17523 0.20315
-0.015421 -0.0098888 -0.00055869 0.00039494
0.0022892 0.00077298 0.0012642 -0.000829 4.9811e-05 -0.00038294 -0.015446 -0.0098535
0.10223 0.2091 -0.010574 -0.0078445
0.00022134 -0.0013848 0.0011652 0.00010569 0.00028051 0.00017601 -0.00055728 0.00039289
-0.01057 -0.0078476 0.13393 0.3044
1460000000 0.27926 0.1482 -0.019301 0.0052075 0.0054581 -0.002157 -0.0016279 0.0016924
0.001974 -0.00049553 -0.0003462 -0.00089287
-0.019286 0.0051879 0.1188 0.33788 -0.0057522 0.014819 0.0018108 0.00016965
0.00083301 -0.0013392 0.0011009 -0.00054867
0.0054562 -0.0021886 -0.0056864 0.014868 0.3616 0.0032649 -0.0015046 -0.0014448
0.00015566 -0.00016427 0.00058958 -0.00035178
-0.0016162 0.0016884 0.0018185 0.00017151 -0.0015065 -0.0014439 0.20021 0.17334
-0.01672 -0.0028832 -0.00036127 0.0023469
0.0019712 -0.00051449 0.00082114 -0.0013466 0.0001521 -0.00016449 -0.016742 -0.0028444
0.13099 0.19402 -0.011612 -0.0020516
-0.00035846 -0.00090274 0.0011084 -0.00054542 0.00059584 -0.00035032 -0.00035252 0.00235
-0.011605 -0.0020622 0.16679 0.28251
1520000000 0.29048 0.10528 -0.013532 0.010199 0.0029126 -0.0042201 8.6958e-05 0.0026544
0.0020525 -0.0016392 -0.0011211 -0.00018068
-0.013537 0.010181 0.15208 0.3223 0.0015622 0.012639 0.0017151 -0.00092191
-1.6258e-05 -0.0011919 0.00028089 -0.000955
0.0029016 -0.0042249 0.0016264 0.012645 0.35401 -0.053817 -0.0014608 -0.00033271
0.00051088 -0.00089196 1.8348e-05 -9.5679e-05
9.7419e-05 0.0026556 0.001711 -0.00092975 -0.001454 -0.00032595 0.22121 0.13493
-0.015893 0.0031709 0.0019314 0.0019982
0.0020363 -0.001651 -2.4858e-05 -0.0011921 0.00051361 -0.00089342 -0.015893 0.0032085
0.15796 0.17865 -0.011299 0.0022677
-0.0011238 -0.00017922 0.00027549 -0.00095898 2.0404e-05 -9.6565e-05 0.0019322 0.0019931
-0.011294 0.0022533 0.19908 0.26014
1580000000 0.29861 0.059085 -0.0072681 0.012739 -0.0011064 -0.0046497 0.0015453 0.001979
-0.00015263 -0.0021733 -0.0003457 0.00033704
-0.0072767 0.012736 0.17918 0.29746 0.0050191 0.0080213 0.00044181 -0.0017097
-0.00061283 -0.0010808 -0.00022061 -0.00082655
-0.0011252 -0.00465 0.0050652 0.0080062 0.33302 -0.1108 -0.0017224 0.0010218
-0.00029605 -0.0011335 0.00011646 -0.00053148
0.0015619 0.0019784 0.00043109 -0.0017179 -0.0017268 0.0010298 0.23347 0.096505
-0.012395 0.0084509 0.0025152 0.0004893
-0.00016615 -0.0021687 -0.00061158 -0.0010815 -0.00029433 -0.0011386 -0.012384 0.008483
0.18136 0.16042 -0.0089732 0.0075393
-0.00034539 0.00034282 -0.00022361 -0.00083461 0.00011304 -0.00053362 0.0025184 0.00048434
-0.0089754 0.0075325 0.22975 0.23287
1640000000 0.29991 0.017049 -0.0010492 0.011462 -0.0028087 -0.0024301 0.0028297 0.00094368
-0.00065323 -0.0016246 -0.00033258 0.00063331
-0.0010582 0.011469 0.20879 0.27156 0.0056299 0.0034882 -0.00087217 -0.0017213
-0.0011021 -0.00032923 -0.00054059 -0.00061586
-0.0028194 -0.0024125 0.005663 0.003467 0.30403 -0.15997 -0.00055202 0.0016793
-0.0012102 -0.0009449 -0.00020196 -0.0002331
0.0028306 0.00093166 -0.0008857 -0.0017115 -0.00054629 0.0016861 0.24457 0.048366
-0.0078635 0.010179 0.0026642 -0.0011052
-0.00066435 -0.0016234 -0.0011062 -0.00033252 -0.0012099 -0.00094147 -0.0078435 0.010202
0.20332 0.13498 -0.0042397 0.0093633
-0.00032613 0.00063634 -0.00054351 -0.00061439 -0.00020108 -0.00023405 0.0026673 -0.0011132
-0.0042472 0.0093554 0.25488 0.20042
1700000000 0.29096 -0.028383 0.0020429 0.0087252 -0.0032935 0.0001998 0.0029687 -0.0015112
-0.0019896 -0.00082519 0.00070925 0.00041634
0.0020353 0.0087249 0.22615 0.23968 0.0038456 0.00069643 -0.0015384 -0.00050052
-0.00076047 0.0002263 -0.00086463 -0.00042071
-0.0032935 0.00022244 0.0038533 0.00068075 0.25997 -0.19937 0.0007475 0.001584
-0.0019194 -3.4675e-05 -0.00052104 -0.00075405
0.0029563 -0.0015279 -0.0015455 -0.00049188 0.00074807 0.0015743 0.24021 0.00038139
-0.0043364 0.010973 0.0015179 -0.0023962
-0.0020014 -0.00081086 -0.00075363 0.00023279 -0.0019199 -2.6963e-05 -0.0043208 0.010981
0.219 0.11435 0.00027554 0.0096129
0.00071588 0.00041295 -0.00086694 -0.00041301 -0.00052322 -0.00075637 0.0015161 -0.0024063
0.00026734 0.0096151 0.26956 0.16528
1760000000 0.27805 -0.076493 0.0039776 0.005624 -0.0021759 0.00083676 0.00099331 -0.0035363
-0.001524 0.00062791 0.00049214 -0.00047189
0.0039747 0.0056205 0.25202 0.1993 0.0017956 -0.0012862 -0.0011914 0.00031196
-0.0009739 0.00094929 -0.00063323 0.00047885
-0.0021722 0.00084141 0.0017882 -0.0012974 0.21178 -0.23248 0.0013644 0.00074519
-0.0011546 0.0015647 -0.0013434 -0.00031049
0.00097622 -0.0035472 -0.0011911 0.00031363 0.0013555 0.00074654 0.23174 -0.049133
-0.0004282 0.010185 -0.00033643 -0.0026186
-0.0015274 0.00064163 -0.00096425 0.00095348 -0.0011477 0.0015595 -0.00041261 0.010193
0.23318 0.079107 0.0041051 0.0069575
0.00049062 -0.00048072 -0.00062664 0.00048354 -0.0013477 -0.00030789 -0.00033519 -0.0026198
0.004108 0.0069546 0.28167 0.12745
1820000000 0.25193 -0.11375 0.0040046 0.0023166 -0.00010919 0.0024222 -0.0013125 -0.0028865
-0.0012456 0.001066 2.7409e-05 -0.00017499
0.00401 0.0023099 0.2611 0.16853 -0.00026397 -0.00013276 -0.0011731 0.0010238
0.00012505 0.0012553 -0.00047274 0.0005687
-9.8606e-05 0.0024287 -0.000262 -0.0001326 0.16043 -0.24828 0.0013343 6.8594e-05
-5.2842e-05 0.0023333 -0.0013325 0.00050641
-0.0013242 -0.002883 -0.0011699 0.0010303 0.0013472 7.2433e-05 0.2023 -0.095327
0.0016717 0.0082221 -0.0016474 -0.0016329
-0.0012303 0.0010766 0.00013941 0.0012575 -4.581e-05 0.0023379 0.0016978 0.0082259
0.24877 0.04929 0.005053 0.0034719
2.7869e-05 -0.00017687 -0.0004656 0.0005716 -0.0013278 0.00051181 -0.0016515 -0.0016285
0.005043 0.0034653 0.28299 0.090072
1880000000 0.2158 -0.15272 0.0017755 0.00028995 -0.00041315 0.0020858 -0.0030079 -0.0018455
-0.00023587 0.0018809 0.00018545 -0.00059492
0.0017735 0.0002811 0.2648 0.12217 -0.0023739 0.0015894 -3.9293e-05 0.0016372
0.00062352 0.0010686 0.00019052 0.0009734
-0.00040687 0.0020804 -0.0023643 0.0016071 0.10744 -0.25741 0.0014251 -0.00093595
0.0016568 0.0018006 -0.00081076 0.0013592
-0.00301 -0.0018283 -3.4468e-05 0.0016321 0.0014254 -0.00093975 0.16325 -0.13475
0.0028422 0.0056449 -0.002367 0.00021732
-0.00021533 0.0018767 0.00063845 0.0010727 0.0016631 0.0018001 0.0028503 0.0056406
0.25058 0.017058 0.0049028 0.0013496
0.00017975 -0.00060074 0.00020261 0.00097053 -0.00079814 0.0013552 -0.0023669 0.00022736
0.0048954 0.0013462 0.28151 0.056587
1940000000 0.17634 -0.17832 -0.00035583 -0.0011227 0.0014987 0.0019018 -0.0035525 0.00068841
0.0015784 0.00111 -0.00061672 -0.00063751
-0.00036258 -0.0011218 0.26474 0.090135 -0.0011093 0.003905 0.0010203 0.0011202
0.0017074 0.00037114 0.0009074 0.000351
0.0015121 0.0019078 -0.0010884 0.0039159 0.061945 -0.25053 0.00011965 -0.001648
0.0022532 0.00028923 0.00040369 0.0015522
-0.0035487 0.00070834 0.0010205 0.0011164 0.00011497 -0.0016443 0.11215 -0.16593
0.0022043 0.003652 -0.0013963 0.0012748
0.0015841 0.0010936 0.0017076 0.00034322 0.0022567 0.00028254 0.0022202 0.0036472
0.25177 -0.022493 0.0038079 -0.0018789
-0.00062601 -0.00063042 0.00091319 0.00034424 0.00041272 0.0015541 -0.0013927 0.0012672
0.0038057 -0.0018729 0.27006 0.019361
2000000000 0.12877 -0.19216 -0.0041229 0.00090871 0.0025571 0.001462 -0.0021211 0.0032883
0.0012976 0.00015354 -0.00062949 0.00044942
-0.0041175 0.00089574 0.24962 0.054714 -0.0008411 0.0057034 0.0014726 0.00025865
0.0010933 -0.0012951 0.00047942 -3.7663e-05
0.0025748 0.0014418 -0.00079703 0.0057054 0.017676 -0.23544 -0.0010265 -0.00095747
0.0017197 -0.0011938 0.0015736 0.0010219
-0.0021053 0.0032987 0.0014742 0.00024715 -0.0010262 -0.00096809 0.058577 -0.17672
0.00027728 0.0026331 -0.00028533 0.0020638
0.0013003 0.00014016 0.0010883 -0.001311 0.0017238 -0.0012024 0.00029289 0.0026372
0.24436 -0.056553 0.00055937 -0.0030028
