!Keysight Technologies,M9804A,MY58100912,A.14.10.03
!Date: Thursday, April 27, 2023 10:28:33
!Correction: S11(C  6-Port  ) 
!S12(C  6-Port  ) 
!S13(C  6-Port  ) 
!S14(C  6-Port  ) 
!S15(C  6-Port  ) 
!S16(C  6-Port  ) 
!S21(C  6-Port  ) 
!S22(C  6-Port  ) 
!S23(C  6-Port  ) 
!S24(C  6-Port  ) 
!S25(C  6-Port  ) 
!S26(C  6-Port  ) 
!S31(C  6-Port  ) 
!S32(C  6-Port  ) 
!S33(C  6-Port  ) 
!S34(C  6-Port  ) 
!S35(C  6-Port  ) 
!S36(C  6-Port  ) 
!S41(C  6-Port  ) 
!S42(C  6-Port  ) 
!S43(C  6-Port  ) 
!S44(C  6-Port  ) 
!S45(C  6-Port  ) 
!S46(C  6-Port  ) 
!S51(C  6-Port  ) 
!S52(C  6-Port  ) 
!S53(C  6-Port  ) 
!S54(C  6-Port  ) 
!S55(C  6-Port  ) 
!S56(C  6-Port  ) 
!S61(C  6-Port  ) 
!S62(C  6-Port  ) 
!S63(C  6-Port  ) 
!S64(C  6-Port  ) 
!S65(C  6-Port  ) 
!S66(C  6-Port  ) 
!S6P File: Measurement: :
# Hz S  RI   R 50
500000000 -0.33913 -0.019163 -0.010813 -0.0032938 -0.0073835 0.012574 -0.0030141 0.011985
0.010886 0.0036352 -0.0025824 0.0084103
-0.010794 -0.0032858 -0.4188 -0.037872 0.0066604 -0.011653 0.0019471 0.012492
0.0070388 0.0020942 0.0025416 0.013819
-0.0073703 0.012569 0.0066453 -0.01166 -0.26272 0.22156 0.0072527 0.0036824
-0.00080232 0.0081594 0.0025779 0.01207
-0.0030068 0.011962 0.0019775 0.012499 0.0072558 0.003688 -0.33114 0.060166
-0.019464 -0.0062524 0.015944 0.023735
0.010893 0.0036089 0.0070458 0.0020746 -0.00079661 0.0081828 -0.01947 -0.0062454
-0.23543 -0.16822 -0.025362 0.0045027
-0.0025126 0.00842 0.0025498 0.01386 0.0025609 0.012097 0.015897 0.02375
-0.025352 0.0045082 -0.28254 -0.084862
560000000 -0.31318 0.1355 -0.02676 -0.060021 0.00048875 0.011023 0.0055571 0.0096958
0.0090287 0.0044133 0.010246 0.0066187
-0.026713 -0.059948 -0.37514 0.11791 -0.042617 -0.035353 0.013331 0.0037425
-0.012416 -0.0047571 0.0024344 -0.00041727
0.00051905 0.011022 -0.042683 -0.035338 -0.17992 0.26649 -0.00040274 -0.0044731
0.019872 0.0037681 0.0065971 -0.0068676
0.0055514 0.0096683 0.01337 0.0037527 -0.00041314 -0.0044774 -0.30582 0.14738
0.00040411 -0.023675 0.0029478 -0.018701
0.0090258 0.0044148 -0.012427 -0.0047698 0.019872 0.0037749 0.00038724 -0.023679
-0.28669 0.0060071 0.0038836 -0.04717
0.010263 0.0066149 0.00242 -0.00043032 0.0066033 -0.0068741 0.0029689 -0.018724
0.0038899 -0.047166 -0.32988 0.054117
620000000 -0.27066 0.12168 -0.023501 0.0073098 0.0035706 0.0082221 0.0074439 -0.005338
0.010888 -0.0013956 0.00062366 -0.0024715
-0.023492 0.0073012 -0.4015 0.072165 -0.019584 0.00029314 -0.00086263 -0.0023603
0.0097036 -0.0062938 0.0016263 -0.002601
0.0035886 0.0082143 -0.019604 0.00032407 -0.14946 0.27612 -0.0011589 -0.0045901
-0.003576 -0.0029995 0.0079646 -0.0033032
0.0074188 -0.0053515 -0.00086171 -0.0023508 -0.0011701 -0.0045839 -0.26329 0.15955
-0.039521 -0.017356 0.01204 0.023503
0.010887 -0.0014062 0.0096945 -0.006321 -0.0035732 -0.0029947 -0.039569 -0.017321
-0.21118 -0.032108 -0.039105 0.015224
0.00069144 -0.0024775 0.0016095 -0.0026215 0.0079081 -0.0033157 0.01206 0.023463
-0.039125 0.015232 -0.25563 0.026799
680000000 -0.22813 0.20364 -0.027777 -0.012176 0.0053505 0.0045766 0.00081784 -0.0071017
-0.0030892 -0.011107 0.0038369 -0.0064876
-0.027757 -0.012187 -0.38473 0.16656 -0.0323 0.00036676 -0.001573 -0.0004293
-0.0025881 -0.0089132 -0.0015504 -0.0021911
0.0053497 0.0045721 -0.032304 0.00041766 -0.098661 0.29391 -0.00089751 -0.00022752
-0.001608 4.6804e-05 -0.0036467 -0.0086529
0.00082305 -0.0071019 -0.0015684 -0.00041985 -0.00089413 -0.000228 -0.2173 0.20635
-0.025891 -0.0049313 -0.0093576 -0.0084224
-0.0030928 -0.011113 -0.0026066 -0.0089304 -0.001605 5.8854e-05 -0.025924 -0.0049189
-0.25134 0.065512 -0.0064036 -0.007061
0.003823 -0.0065127 -0.0015615 -0.0021762 -0.0036396 -0.0086552 -0.0093452 -0.0084125
-0.0063932 -0.007057 -0.2546 0.1213
740000000 -0.18441 0.19834 -0.036834 0.026154 0.011838 -0.0058848 -0.00048117 -0.0040897
-0.0047585 -0.0025371 -0.0056275 0.0029357
-0.036824 0.026094 -0.33308 0.18638 -0.032835 0.035007 -0.0010969 -0.0062979
-0.011218 0.0078842 -0.0021116 -0.0050727
0.011819 -0.0059081 -0.032778 0.035073 -0.064953 0.29358 -0.0016216 0.0029936
-0.0029462 -0.0042441 -0.0019307 0.001158
-0.00049131 -0.004102 -0.0011158 -0.0062739 -0.0016241 0.0029971 -0.19915 0.21555
-0.042317 -0.0031643 0.022064 0.012288
-0.0047806 -0.0025198 -0.011185 0.0079479 -0.0029637 -0.0042386 -0.042368 -0.00312
-0.15722 0.086104 -0.039609 0.0037655
-0.0055984 0.0029258 -0.0021203 -0.0051181 -0.0019409 0.0011506 0.022096 0.012267
-0.03957 0.0037183 -0.24244 0.13139
800000000 -0.15062 0.23583 -0.021434 0.017471 0.0045075 -0.010335 -0.0044293 -0.0016852
-0.0035912 0.0027994 0.0035733 0.00074882
-0.021429 0.017443 -0.33315 0.25478 -0.0065999 0.033539 -0.002258 0.0022515
-0.00057912 0.0033146 0.0012031 0.0052275
0.0044728 -0.010346 -0.0065455 0.033575 -0.022075 0.31518 0.00074864 0.0016371
0.00040342 0.0034916 -0.0019525 0.0012875
-0.0044305 -0.0016804 -0.0022574 0.0022659 0.00073653 0.0016345 -0.16892 0.24196
-0.026759 0.016193 0.012573 -0.010213
-0.0035821 0.0028101 -0.00055339 0.0033055 0.00041171 0.0034867 -0.026755 0.016253
-0.19563 0.1139 -0.015657 0.018599
0.0035693 0.00072741 0.0012374 0.0052244 -0.0019605 0.0012787 0.012571 -0.01024
-0.015679 0.018577 -0.23041 0.17723
860000000 -0.11587 0.25593 -0.01592 0.030988 -0.0038018 -0.009296 -0.0022009 0.001212
0.0043594 0.0046386 -0.0026811 -0.0024932
-0.015914 0.03095 -0.28585 0.29587 0.0090973 0.033011 0.00017201 0.0021063
0.0042503 -3.1634e-05 0.003172 0.00039671
-0.0038133 -0.0092881 0.0091736 0.033011 0.026142 0.32208 -0.00048697 1.6749e-05
0.0025934 -0.0012513 0.0017487 0.0039814
-0.0021887 0.001212 0.00017408 0.0021098 -0.00048748 1.6764e-05 -0.13215 0.25275
-0.015324 0.02057 -0.0058316 -0.0091689
0.0043612 0.0046401 0.0042771 -5.5473e-05 0.0025816 -0.0012497 -0.015318 0.020632
-0.1437 0.15931 -0.021493 0.016532
-0.0026859 -0.0024865 0.0031627 0.00038803 0.0017625 0.0039935 -0.0058412 -0.0091772
-0.021519 0.016534 -0.18093 0.21767
920000000 -0.089234 0.2775 0.0062298 0.036801 -0.0092007 -0.003711 -0.0014345 0.001798
0.0015513 0.0015447 0.0026779 -0.0017941
0.006214 0.036753 -0.25545 0.31631 0.028028 0.020187 0.001748 0.0010216
0.0068291 -0.0006171 0.0036503 -0.0029651
-0.0092005 -0.003697 0.028082 0.020154 0.073615 0.32203 0.0019692 -4.61e-05
0.0014857 -0.00046304 0.00084494 -0.0011029
-0.0014247 0.0017963 0.0017403 0.0010169 0.0019691 -5.243e-05 -0.10589 0.26822
-0.0074408 0.030832 0.002541 -0.0061975
0.001551 0.0015635 0.0068455 -0.00065765 0.0014931 -0.00047097 -0.0073983 0.030879
-0.13018 0.16564 -0.00043695 0.025583
0.002698 -0.0018017 0.0036536 -0.0029934 0.00083823 -0.0010982 0.002524 -0.006187
-0.00044442 0.025594 -0.18103 0.2326
980000000 -0.04226 0.29531 0.018483 0.028438 -0.0083463 0.0047538 0.0020135 0.0031214
0.0040328 -0.0018762 -0.0031754 -0.0021156
0.018473 0.028429 -0.20342 0.34853 0.032276 0.0031808 0.0020278 -0.0002687
0.0016975 -0.0060886 -0.00062684 -0.0024379
-0.0083389 0.0047584 0.032287 0.0031138 0.1202 0.31387 0.0005201 -0.0012869
0.00013118 -0.0022722 0.0013766 -0.0002692
0.0020227 0.003126 0.002021 -0.00028474 0.00052533 -0.0012905 -0.066794 0.27746
0.010871 0.028375 -0.0085204 -0.0062307
0.004031 -0.0018803 0.0016941 -0.0060873 0.00013483 -0.0022717 0.010941 0.028378
-0.0975 0.18952 0.0060556 0.018029
-0.00318 -0.0020905 -0.00062377 -0.0024397 0.0013836 -0.00027087 -0.0085248 -0.0062225
0.0060532 0.018028 -0.137 0.27095
1040000000 0.00091714 0.30261 0.032872 0.015899 -0.0010097 0.0066136 0.0023786 0.00048827
4.3278e-05 -0.0032884 -0.00068621 -0.0012515
0.032853 0.015887 -0.16743 0.36159 0.027597 -0.01556 0.0014316 -0.0017983
-0.0023532 -0.0024479 -0.0015255 -0.0026335
-0.00099665 0.0066068 0.027564 -0.015621 0.1667 0.29914 -0.00063052 -0.0015324
-0.0015958 -0.00095401 -0.0004036 -0.0010653
0.0023903 0.00048842 0.001411 -0.0018021 -0.00062079 -0.0015401 -0.038384 0.28635
0.020871 0.015583 -0.0025996 0.001267
2.4312e-05 -0.0032803 -0.0023477 -0.0024429 -0.0015938 -0.00095372 0.02092 0.015562
-0.065624 0.19617 0.013566 0.015923
-0.00069807 -0.0012274 -0.001557 -0.002659 -0.00040825 -0.0010638 -0.0026081 0.0012705
0.013559 0.01593 -0.11182 0.29084
1100000000 0.046535 0.3086 0.034391 -0.005651 0.0027593 0.0036265 0.0021379 -0.0010521
-0.0019875 -0.0026857 -0.0034638 0.00053689
0.034371 -0.0056313 -0.12374 0.37763 0.01342 -0.027335 -0.00012629 -0.0017295
-0.0032645 -0.00041304 -0.0032099 -0.00014781
0.0027757 0.0036121 0.013357 -0.027379 0.21331 0.2769 -0.001871 0.00017537
-0.0018068 0.00050597 -0.00093146 -0.00028189
0.0021382 -0.0010581 -0.00013875 -0.0017256 -0.0018776 0.00017298 0.0029816 0.28902
0.024474 0.0024684 -0.002498 0.00028695
-0.0020017 -0.00268 -0.0032619 -0.00039461 -0.0018029 0.0005145 0.02449 0.0024301
-0.046548 0.20781 0.018112 0.0064662
-0.0034722 0.00054518 -0.0032285 -0.00014495 -0.0009228 -0.00027657 -0.0024862 0.0002956
0.01811 0.006478 -0.064784 0.315
1160000000 0.097314 0.3023 0.022076 -0.021162 0.0023976 -0.00039677 -0.00012473 -0.0020996
-0.0038469 -0.00051943 -0.00068332 0.0037322
0.022085 -0.021143 -0.07955 0.38119 -0.0048425 -0.027787 -0.0016291 -0.0015136
-0.0025718 0.0024161 -0.0013546 0.0017613
0.0024007 -0.00040565 -0.0049294 -0.027772 0.25554 0.24457 -0.00079236 0.0018025
-0.00048706 0.0019516 -0.0008228 0.00018818
-0.00012341 -0.0021002 -0.0016494 -0.0015115 -0.00079622 0.0018046 0.042288 0.28399
0.020128 -0.012375 -0.0028407 0.0045082
-0.0038567 -0.00052298 -0.0025509 0.002424 -0.00049192 0.0019664 0.020126 -0.01242
-0.012861 0.21453 0.016818 -0.0016733
-0.00067532 0.0037344 -0.001346 0.0017616 -0.00081344 0.00019032 -0.002836 0.0045234
0.016814 -0.0016777 -0.01799 0.31535
1220000000 0.14204 0.28925 0.0084773 -0.029262 -0.0014915 -0.00042705 8.7427e-05 -0.00090929
-0.0023756 0.0022806 0.0012427 0.0018278
0.0084973 -0.02923 -0.035334 0.39188 -0.016919 -0.019578 -0.0023834 0.00045666
0.00011444 0.00285 -0.00052972 0.0018581
-0.0014895 -0.00042976 -0.016991 -0.019529 0.29422 0.20446 0.00080663 0.0018045
0.00060172 0.0012477 0.0003405 0.00049285
9.6975e-05 -0.0009088 -0.0023824 0.00045649 0.00080629 0.0018123 0.082468 0.27331
0.0092716 -0.018339 0.0016487 0.0013939
-0.0023769 0.0022892 0.00012436 0.0028548 0.00059993 0.0012521 0.0092606 -0.018359
0.011236 0.22127 0.011751 -0.013177
0.0012453 0.001827 -0.00051586 0.0018529 0.00035613 0.00049477 0.0016471 0.0013916
0.011746 -0.013173 0.015286 0.32713
1280000000 0.19067 0.26555 -0.0088077 -0.026853 -0.0014423 0.0026919 -0.0010322 -0.0019547
-0.00064932 0.0028603 0.0023229 0.00083626
-0.0087793 -0.02684 0.010183 0.38203 -0.022959 -0.0074417 -0.0010176 0.0013614
0.0015819 0.0016422 0.00070907 0.0017708
-0.0014346 0.0026927 -0.022992 -0.0073812 0.32376 0.15942 0.0016262 -8.9807e-06
0.0011062 0.00025237 0.00028216 0.00015866
-0.0010306 -0.0019564 -0.0010109 0.0013784 0.0016262 -3.4609e-06 0.11822 0.2542
-0.00052135 -0.019781 -0.00045376 0.00043103
-0.00064114 0.0028486 0.0015935 0.001634 0.0011104 0.00025197 -0.00055557 -0.019792
0.047377 0.22239 0.0013539 -0.014682
0.002326 0.0008353 0.00070266 0.0017683 0.00027557 0.00016582 -0.00044924 0.00043246
0.0013654 -0.014677 0.061077 0.32504
1340000000 0.22701 0.23072 -0.017697 -0.017223 0.0012811 0.0041701 -0.0016564 -0.00085623
0.0013985 0.0025465 0.0014787 -0.0014334
-0.017665 -0.017221 0.049422 0.37302 -0.020497 0.0047253 -0.00013632 0.0020129
0.0018519 0.00071549 0.0013051 0.00062008
0.0012842 0.004159 -0.020486 0.0047979 0.34489 0.11124 0.0012542 -0.00098345
0.00062021 -0.00048341 8.6778e-05 0.00023808
-0.0016573 -0.0008545 -0.00013111 0.0020215 0.0012564 -0.00098331 0.14951 0.23232
-0.0097308 -0.016444 0.00062356 0.0010156
0.0014087 0.0025414 0.0018664 0.00070685 0.0006194 -0.00049341 -0.0097718 -0.016444
0.077032 0.21578 -0.0048206 -0.012562
0.0014697 -0.0014256 0.0013096 0.00062069 8.2779e-05 0.00023613 0.0006256 0.0010199
-0.0048107 -0.012558 0.099892 0.31723
1400000000 0.25895 0.19132 -0.022422 -0.006114 0.0052036 0.0025951 -0.0021068 0.00058945
0.0022947 0.00077846 0.0001424 -0.0013773
-0.022391 -0.006125 0.086236 0.35935 -0.013752 0.012144 0.001328 0.0013343
0.0011832 -0.00078997 0.001068 0.00010467
0.0052116 0.0025768 -0.013716 0.012197 0.35756 0.057023 0.00012605 -0.0018859
7.3304e-05 -0.00041845 0.00027352 0.00019206
-0.0021073 0.00059718 0.001329 0.0013215 0.0001254 -0.0018834 0.17762 0.20171
-0.015419 -0.0095852 -0.00042967 0.00032141
0.0023099 0.00076761 0.0011805 -0.00080137 7.2506e-05 -0.00041138 -0.01545 -0.0095635
0.10902 0.20906 -0.010555 -0.0075656
0.00013412 -0.0013757 0.0010607 9.8746e-05 0.00027632 0.00018759 -0.00043197 0.00032149
-0.010551 -0.0075713 0.14291 0.30289
1460000000 0.28036 0.14677 -0.019184 0.0051521 0.0052382 -0.0021859 -0.0015571 0.0016929
0.0019109 -0.0005303 -0.00032232 -0.00086841
-0.019187 0.0051423 0.12006 0.33709 -0.0055977 0.014528 0.001762 0.00017728
0.00082593 -0.0012566 0.0010798 -0.00058045
0.0052324 -0.0022005 -0.0055426 0.014557 0.36211 0.0022389 -0.0014199 -0.001372
0.00012816 -0.00021063 0.00050254 -0.00027006
-0.0015512 0.0017006 0.0017613 0.00016902 -0.0014179 -0.0013779 0.20146 0.17154
-0.016494 -0.0027775 -0.00029096 0.0020484
0.0019166 -0.00053957 0.0008213 -0.0012588 0.00012084 -0.00021016 -0.016515 -0.0027425
0.13683 0.19285 -0.011399 -0.0019962
-0.00033027 -0.00086999 0.0010815 -0.00057644 0.00049694 -0.00027712 -0.00029804 0.0020534
-0.011401 -0.0020052 0.17473 0.28015
1520000000 0.29179 0.10432 -0.013487 0.010142 0.0027909 -0.0041462 0.00014685 0.0026167
0.0019439 -0.001549 -0.0010262 -0.00011337
-0.01349 0.010123 0.15343 0.32179 0.001502 0.012377 0.0017106 -0.00086855
2.6045e-05 -0.0011049 0.0002706 -0.00091806
0.0027723 -0.0041659 0.0015505 0.012384 0.35481 -0.054275 -0.0014091 -0.00031377
0.00055271 -0.00086225 -8.3901e-06 -0.00015932
0.00015804 0.0026183 0.001697 -0.00087135 -0.0014068 -0.00031601 0.22256 0.13347
-0.015635 0.0032026 0.0018301 0.0018321
0.001933 -0.0015717 2.7361e-05 -0.0011072 0.00054621 -0.00086572 -0.015642 0.0032366
0.16384 0.17718 -0.011117 0.002278
-0.0010324 -0.00010673 0.00026609 -0.00091988 9.328e-07 -0.00015129 0.001827 0.0018204
-0.011117 0.002269 0.20682 0.25698
1580000000 0.29966 0.057497 -0.0072744 0.012695 -0.0011925 -0.0045101 0.001507 0.0018978
-0.00011528 -0.0020375 -0.00024139 0.00034666
-0.0072806 0.012667 0.18033 0.29633 0.0048362 0.0078498 0.00044308 -0.0017013
-0.0005621 -0.0010239 -0.00018594 -0.0007784
-0.0012015 -0.0045022 0.0048668 0.0078366 0.33376 -0.11187 -0.0016545 0.00097987
-0.00034122 -0.0010346 0.000185 -0.000477
0.0015097 0.0018894 0.00044187 -0.0016941 -0.0016523 0.00098082 0.23419 0.094347
-0.012262 0.0082898 0.0023597 0.00031102
-0.00011995 -0.0020437 -0.00057634 -0.0010253 -0.00034212 -0.0010478 -0.012258 0.0083293
0.18654 0.15752 -0.0087687 0.0072807
-0.00024142 0.00035291 -0.00018771 -0.00077413 0.00018795 -0.00048522 0.0023699 0.00030469
-0.0087746 0.0072787 0.2366 0.22831
1640000000 0.3005 0.015875 -0.0011056 0.011464 -0.0026703 -0.0022486 0.0026791 0.00088151
-0.00066989 -0.0015819 -0.000217 0.00057885
-0.0011161 0.011445 0.20944 0.27078 0.005424 0.003448 -0.00085035 -0.001705
-0.0010587 -0.0003409 -0.00049558 -0.00057518
-0.0026743 -0.0022393 0.0054421 0.0034276 0.30411 -0.16058 -0.00055911 0.0016448
-0.0011127 -0.00078126 -0.0001646 -0.0002497
0.0026816 0.00087208 -0.00085904 -0.0017071 -0.00056164 0.0016535 0.24459 0.046974
-0.0079376 0.009982 0.0023365 -0.0011376
-0.000678 -0.0015851 -0.0010671 -0.00032699 -0.001107 -0.00078307 -0.0079136 0.010014
0.20737 0.13216 -0.0042471 0.009065
-0.00020751 0.00058102 -0.00050014 -0.00057194 -0.00016252 -0.0002545 0.0023356 -0.0011447
-0.0042533 0.009063 0.26062 0.19564
1700000000 0.29183 -0.029752 0.0019238 0.0087804 -0.0031982 0.00030208 0.0029371 -0.001425
-0.0019221 -0.00079195 0.00063479 0.00031671
0.0019217 0.0087781 0.22723 0.2388 0.0036908 0.00081904 -0.0014821 -0.0004919
-0.00074914 0.0002532 -0.00083723 -0.00042258
-0.0031975 0.00030647 0.0036907 0.00080118 0.26086 -0.20027 0.00075416 0.0014769
-0.0018976 -5.6459e-05 -0.00057126 -0.00080302
0.002932 -0.0014365 -0.0014909 -0.00048537 0.00075864 0.0014737 0.24068 -0.0012941
-0.0044378 0.010865 0.0012553 -0.0022254
-0.0019321 -0.00077965 -0.00074474 0.00026022 -0.0018963 -5.8724e-05 -0.0044271 0.010881
0.22324 0.11095 0.00015775 0.0093681
0.00063711 0.00031465 -0.00083882 -0.00041751 -0.00056999 -0.00080129 0.0012523 -0.0022353
0.00015626 0.0093655 0.27507 0.15994
1760000000 0.27818 -0.078103 0.0039467 0.0057261 -0.0020246 0.00080363 0.00099047 -0.0034981
-0.0015441 0.00058079 0.00042184 -0.00045102
0.0039381 0.005728 0.25236 0.1981 0.0017173 -0.0010159 -0.0011762 0.00027312
-0.00089529 0.00092421 -0.00059452 0.00044434
-0.0020213 0.00080687 0.001711 -0.0010222 0.21162 -0.23305 0.001399 0.00079776
-0.0010964 0.0016007 -0.0012967 -0.00029899
0.0009728 -0.0034993 -0.0011675 0.00028294 0.0014042 0.00080219 0.2312 -0.050732
-0.0006205 0.01027 -0.00050343 -0.0023246
-0.0015367 0.00059038 -0.00089798 0.00092603 -0.0011039 0.0016093 -0.00060011 0.010286
0.23594 0.075362 0.0037107 0.0067737
0.00042573 -0.00046314 -0.00058771 0.00044716 -0.001306 -0.00029351 -0.00050672 -0.0023281
0.0037135 0.0067676 0.28554 0.12134
1820000000 0.25228 -0.11474 0.0040018 0.0023955 1.2972e-05 0.0021749 -0.001258 -0.0028837
-0.0011913 0.0010848 -4.8892e-05 -3.742e-05
0.0039978 0.002399 0.26155 0.16785 -0.00011209 -7.6571e-05 -0.0011628 0.00099121
0.00012678 0.0012326 -0.00053269 0.00055027
1.4434e-05 0.0021661 -0.00011386 -7.928e-05 0.1611 -0.24861 0.0012759 3.3237e-05
-4.1557e-05 0.0022123 -0.001247 0.00049423
-0.0012706 -0.0028812 -0.0011694 0.000994 0.0012746 3.5156e-05 0.20218 -0.096154
0.0016268 0.0083327 -0.0014441 -0.001274
-0.0011944 0.001091 0.00012854 0.0012322 -4.1355e-05 0.0022072 0.0016506 0.0083313
0.2515 0.046113 0.0046441 0.0035608
-4.4839e-05 -3.5877e-05 -0.000527 0.0005554 -0.0012498 0.00050334 -0.0014542 -0.0012658
0.0046426 0.0035672 0.28598 0.084057
1880000000 0.21584 -0.15441 0.0018245 0.00038051 -0.00051949 0.0018811 -0.0029189 -0.0018227
-0.00022822 0.0018997 0.00018891 -0.0004547
0.0018222 0.00037643 0.26518 0.12085 -0.0021798 0.0015574 -7.224e-05 0.0016321
0.00063212 0.00098242 0.00016849 0.00088829
-0.00051631 0.0018907 -0.0021668 0.0015656 0.10841 -0.2584 0.0012509 -0.00097182
0.0016282 0.0015815 -0.00080471 0.0012093
-0.002916 -0.0018092 -6.5273e-05 0.0016258 0.0012533 -0.00097294 0.16284 -0.13631
0.0028346 0.0057277 -0.0020847 0.00038818
-0.00021929 0.0019035 0.00062876 0.00098197 0.001637 0.0015758 0.0028602 0.0057275
0.2529 0.0129 0.0044582 0.001509
0.00018228 -0.00046152 0.000175 0.00089227 -0.00081629 0.0012038 -0.0020715 0.00039248
0.0044599 0.0015146 0.28382 0.049578
1940000000 0.17564 -0.17927 -0.00024847 -0.0010132 0.0012591 0.0021167 -0.0034371 0.0008411
0.0015844 0.001258 -0.00055885 -0.00063237
-0.0002521 -0.0010204 0.26454 0.089408 -0.0011433 0.0038817 0.00094078 0.0011822
0.0016121 0.00031912 0.00085328 0.00033505
0.0012717 0.0021144 -0.0011213 0.0038909 0.061769 -0.25105 2.8043e-05 -0.0015573
0.002217 0.00029806 0.00038564 0.0014383
-0.0034411 0.00085284 0.00094494 0.001182 2.3817e-05 -0.0015602 0.11121 -0.16654
0.0022236 0.0037814 -0.0013555 0.0012999
0.0015935 0.001237 0.0016115 0.00030746 0.0022241 0.00030343 0.0022355 0.0037816
0.25321 -0.026095 0.0033784 -0.0013531
-0.0005556 -0.00062746 0.00085722 0.00032249 0.00040503 0.0014525 -0.0013469 0.0013088
0.0033793 -0.0013553 0.27093 0.013337
2000000000 0.1289 -0.19312 -0.0038457 0.00097589 0.0025151 0.0016 -0.0020677 0.0032973
0.0014779 4.5998e-05 -0.00053257 0.0003862
-0.0038513 0.00097006 0.24992 0.053951 -0.00097407 0.0056877 0.0014766 0.00033697
0.0010389 -0.0012485 0.00048859 2.6926e-05
0.002512 0.0015951 -0.0009482 0.0056938 0.018095 -0.23613 -0.00095118 -0.00090855
0.0017043 -0.0010916 0.0016566 0.0010688
-0.0020578 0.0033085 0.0014851 0.00032316 -0.00095013 -0.00091446 0.058315 -0.17744
0.00038142 0.002872 -8.6406e-05 0.0020748
0.0014891 4.6306e-05 0.0010379 -0.0012517 0.0017012 -0.001095 0.00038752 0.0028798
0.24598 -0.060438 0.00043885 -0.0023734
