!Keysight Technologies,M9804A,MY58100912,A.14.10.03
!Date: Thursday, April 27, 2023 10:28:33
!Correction: S11(C  6-Port  ) 
!S12(C  6-Port  ) 
!S13(C  6-Port  ) 
!S14(C  6-Port  ) 
!S15(C  6-Port  ) 
!S16(C  6-Port  ) 
!S21(C  6-Port  ) 
!S22(C  6-Port  ) 
!S23(C  6-Port  ) 
!S24(C  6-Port  ) 
!S25(C  6-Port  ) 
!S26(C  6-Port  ) 
!S31(C  6-Port  ) 
!S32(C  6-Port  ) 
!S33(C  6-Port  ) 
!S34(C  6-Port  ) 
!S35(C  6-Port  ) 
!S36(C  6-Port  ) 
!S41(C  6-Port  ) 
!S42(C  6-Port  ) 
!S43(C  6-Port  ) 
!S44(C  6-Port  ) 
!S45(C  6-Port  ) 
!S46(C  6-Port  ) 
!S51(C  6-Port  ) 
!S52(C  6-Port  ) 
!S53(C  6-Port  ) 
!S54(C  6-Port  ) 
!S55(C  6-Port  ) 
!S56(C  6-Port  ) 
!S61(C  6-Port  ) 
!S62(C  6-Port  ) 
!S63(C  6-Port  ) 
!S64(C  6-Port  ) 
!S65(C  6-Port  ) 
!S66(C  6-Port  ) 
!S6P File: Measurement: :
# Hz S  RI   R 50
500000000 -0.33902 -0.019073 -0.010848 -0.0032354 -0.0074086 0.012606 -0.0030427 0.011994
0.010873 0.0036205 -0.0026207 0.0084035
-0.010855 -0.0032382 -0.41887 -0.037907 0.0066411 -0.011658 0.0019853 0.012441
0.0069729 0.0020938 0.0025624 0.013775
-0.0074076 0.0126 0.0065934 -0.011671 -0.26273 0.2216 0.0072481 0.0036369
-0.00079521 0.0081875 0.0025857 0.012039
-0.0030534 0.012015 0.0019538 0.012436 0.0072565 0.003648 -0.3311 0.060234
-0.019467 -0.0062627 0.015948 0.023756
0.010922 0.0035918 0.0069932 0.0020686 -0.00078424 0.0081908 -0.019462 -0.0062336
-0.23555 -0.1681 -0.02538 0.0044716
-0.0026047 0.0084175 0.002538 0.013749 0.0025807 0.012029 0.015898 0.023754
-0.025365 0.0044791 -0.28261 -0.084625
560000000 -0.31314 0.13564 -0.026744 -0.059997 0.00050256 0.011092 0.0055696 0.0095954
0.0089686 0.0043871 0.010269 0.0066643
-0.026647 -0.059926 -0.37497 0.11788 -0.042645 -0.035311 0.013367 0.0037944
-0.012544 -0.0047041 0.0024474 -0.0003795
0.00052263 0.011016 -0.042772 -0.035298 -0.17996 0.2665 -0.0004262 -0.0044329
0.019957 0.0037278 0.0065619 -0.0068747
0.0055189 0.0096136 0.013392 0.0037479 -0.00044014 -0.0044199 -0.30571 0.14736
0.00031736 -0.02363 0.002989 -0.018715
0.0090209 0.0043571 -0.012471 -0.004731 0.019932 0.0037916 0.00031483 -0.023641
-0.2866 0.0061363 0.0038114 -0.047226
0.01025 0.0066412 0.0024845 -0.0004065 0.0065661 -0.0068557 0.0030006 -0.018737
0.0037786 -0.047226 -0.3298 0.054308
620000000 -0.27061 0.12169 -0.023522 0.007318 0.0035605 0.0082685 0.0074262 -0.0054147
0.011 -0.0013501 0.00068856 -0.0024495
-0.023489 0.0073246 -0.40148 0.072188 -0.019529 0.00027371 -0.00083594 -0.0023165
0.009645 -0.0063064 0.0015831 -0.002594
0.0036174 0.0082944 -0.019541 0.00030796 -0.14937 0.27613 -0.0011726 -0.0045396
-0.0036179 -0.0030605 0.0079186 -0.0032574
0.0074161 -0.0054087 -0.00084457 -0.0023207 -0.0011831 -0.0045475 -0.26329 0.15951
-0.039431 -0.017351 0.012071 0.023459
0.010952 -0.0013641 0.0096656 -0.0063412 -0.0035978 -0.0030627 -0.039506 -0.017323
-0.21134 -0.031958 -0.039104 0.0153
0.00064425 -0.0024214 0.0015851 -0.0026068 0.0078933 -0.0033033 0.012105 0.023438
-0.039122 0.015319 -0.25567 0.026907
680000000 -0.22806 0.20363 -0.027792 -0.012203 0.0053687 0.0045637 0.00081285 -0.0071272
-0.0031457 -0.011086 0.003839 -0.0064432
-0.027761 -0.012215 -0.3847 0.16662 -0.032283 0.0003698 -0.0015649 -0.00039892
-0.0025956 -0.0089074 -0.0015618 -0.0022074
0.0053544 0.0045679 -0.032302 0.00042573 -0.098629 0.29392 -0.00089946 -0.00021983
-0.0016126 6.8183e-05 -0.0036576 -0.0086528
0.00078219 -0.0071298 -0.0015595 -0.00040963 -0.00090534 -0.00022056 -0.21725 0.20631
-0.025923 -0.0049622 -0.0093984 -0.0083775
-0.0031643 -0.011069 -0.0026261 -0.0089276 -0.0016165 7.052e-05 -0.025957 -0.004942
-0.25139 0.065564 -0.0064292 -0.006998
0.0038511 -0.0064313 -0.0015678 -0.0021912 -0.0036469 -0.0086646 -0.0093861 -0.0083884
-0.0064383 -0.0069954 -0.25455 0.12142
740000000 -0.18434 0.19834 -0.036799 0.02617 0.011873 -0.005888 -0.0004926 -0.004074
-0.0047771 -0.0024438 -0.0056438 0.0028709
-0.036764 0.026129 -0.33303 0.18637 -0.032821 0.035015 -0.0010967 -0.0062811
-0.011211 0.0078962 -0.0021066 -0.0050614
0.011863 -0.0058555 -0.032749 0.035075 -0.064883 0.29361 -0.0016097 0.003002
-0.0029304 -0.0042364 -0.0019857 0.001128
-0.00049406 -0.0040615 -0.001088 -0.0062632 -0.0016327 0.0030013 -0.19914 0.21554
-0.042362 -0.0031421 0.022063 0.01226
-0.0047446 -0.0024405 -0.011212 0.0079098 -0.0029413 -0.0042063 -0.042426 -0.0031253
-0.1572 0.086205 -0.039521 0.0037374
-0.0056526 0.0028915 -0.0021201 -0.005062 -0.0019514 0.0011115 0.022105 0.012242
-0.039514 0.0037027 -0.24236 0.13158
800000000 -0.15069 0.23574 -0.021423 0.017483 0.004507 -0.010368 -0.0044068 -0.0016879
-0.0035916 0.0027944 0.0035845 0.00072054
-0.02143 0.017472 -0.33312 0.2548 -0.0065885 0.03353 -0.0022478 0.0022473
-0.00058242 0.0033037 0.0012066 0.0052067
0.0044931 -0.010356 -0.0065296 0.033557 -0.022032 0.31516 0.00074907 0.0016407
0.00041899 0.0034894 -0.0019499 0.0013014
-0.0044152 -0.0016843 -0.0022451 0.0022549 0.00075354 0.0016299 -0.16893 0.24189
-0.026814 0.016181 0.012536 -0.010212
-0.0035886 0.0028195 -0.00056544 0.0032958 0.00042469 0.0034837 -0.026816 0.016261
-0.19565 0.114 -0.015704 0.018598
0.0035708 0.00072851 0.0012362 0.0052224 -0.0019511 0.0013082 0.012527 -0.010247
-0.015711 0.018592 -0.23043 0.17727
860000000 -0.11594 0.25596 -0.015911 0.031026 -0.0038091 -0.0092945 -0.0022047 0.0012228
0.0043438 0.0046755 -0.0026776 -0.0025082
-0.015927 0.03098 -0.28584 0.29588 0.009095 0.033 0.0001872 0.0021003
0.0042698 -5.5279e-06 0.0031564 0.00036693
-0.0038366 -0.0092948 0.0091762 0.033004 0.026149 0.32207 -0.00047469 1.3276e-05
0.0026042 -0.0012251 0.0017613 0.0039864
-0.0021967 0.0012069 0.0001965 0.0021238 -0.00048183 1.0448e-05 -0.13221 0.25274
-0.015367 0.020616 -0.0058192 -0.0091795
0.004367 0.0046573 0.0042823 -2.7722e-05 0.0025869 -0.0012413 -0.015352 0.020672
-0.14379 0.15939 -0.021437 0.016557
-0.0026856 -0.002497 0.0031726 0.00036242 0.0017628 0.0039941 -0.0058209 -0.0091814
-0.021454 0.016533 -0.18092 0.21769
920000000 -0.089299 0.27757 0.006256 0.036773 -0.0091993 -0.0037189 -0.0014319 0.0018061
0.0015383 0.0015198 0.002678 -0.0017956
0.0062387 0.036757 -0.25545 0.31634 0.028004 0.020179 0.0017284 0.0010091
0.0068591 -0.00059111 0.0036949 -0.0029296
-0.0091966 -0.0037002 0.028072 0.020134 0.073635 0.32202 0.001966 -6.0932e-05
0.0014877 -0.00046378 0.00085335 -0.001088
-0.0014218 0.0017943 0.0017438 0.0010125 0.0019674 -5.8002e-05 -0.10592 0.26823
-0.0074257 0.030851 0.0025438 -0.0061719
0.0015334 0.0015231 0.006856 -0.00061741 0.001489 -0.00046809 -0.007372 0.030889
-0.13013 0.16566 -0.00038324 0.025591
0.0026651 -0.0017884 0.0036847 -0.002935 0.00083643 -0.0010801 0.0025229 -0.0061763
-0.00039006 0.025583 -0.18095 0.23261
980000000 -0.042274 0.29539 0.0185 0.028421 -0.0083412 0.0047516 0.0020218 0.0031504
0.0040385 -0.0018938 -0.0031632 -0.0021006
0.018475 0.028424 -0.20341 0.34855 0.032251 0.0031726 0.0020296 -0.00029358
0.0017046 -0.0060827 -0.00063324 -0.0024496
-0.0083275 0.0047635 0.032284 0.0031217 0.12021 0.31386 0.00051692 -0.001273
0.00012467 -0.002283 0.0013756 -0.0002859
0.0020323 0.0031393 0.0020181 -0.00029148 0.0005121 -0.0012871 -0.066843 0.27748
0.010917 0.028358 -0.0084839 -0.0062263
0.0040116 -0.0019109 0.0016756 -0.0060966 0.00012891 -0.0022843 0.01098 0.02836
-0.097433 0.18958 0.0060903 0.018052
-0.0031819 -0.0021003 -0.0006397 -0.0024415 0.0013711 -0.00028679 -0.0084932 -0.0062204
0.0060616 0.018052 -0.13688 0.27103
1040000000 0.00091399 0.30269 0.032862 0.01587 -0.0010016 0.0065963 0.0023972 0.0004967
3.1954e-05 -0.0032906 -0.00066761 -0.0012283
0.032849 0.015878 -0.16744 0.36159 0.027574 -0.015567 0.0014064 -0.0018243
-0.0023389 -0.0024297 -0.0015587 -0.0026319
-0.00099362 0.0065814 0.027557 -0.015621 0.16672 0.29914 -0.00062535 -0.0015384
-0.0015887 -0.00095792 -0.00040846 -0.001055
0.0023922 0.00048768 0.0014028 -0.0018021 -0.00062126 -0.0015398 -0.038393 0.28643
0.020894 0.015569 -0.0025984 0.0012759
1.2334e-05 -0.0032888 -0.002348 -0.0024407 -0.001584 -0.00095831 0.020938 0.015551
-0.065574 0.1962 0.013591 0.015903
-0.00068002 -0.001231 -0.0015523 -0.0026447 -0.00041446 -0.0010587 -0.002596 0.0012755
0.013564 0.015911 -0.11173 0.29092
1100000000 0.046611 0.30869 0.034358 -0.0056743 0.002758 0.0036195 0.0021369 -0.0010422
-0.0019953 -0.00268 -0.003453 0.00054338
0.03435 -0.0056542 -0.12374 0.37767 0.013406 -0.027336 -0.00012765 -0.0017311
-0.0032573 -0.00040635 -0.0032159 -0.00013678
0.0027597 0.0036113 0.01334 -0.027376 0.21334 0.27689 -0.0018677 0.00017355
-0.0018074 0.00050947 -0.0009312 -0.00028213
0.0021333 -0.0010413 -0.00013404 -0.0017207 -0.001873 0.0001759 0.0029936 0.28909
0.024479 0.0024365 -0.0024905 0.00028862
-0.0019978 -0.0026728 -0.0032531 -0.00039574 -0.0018012 0.00051725 0.024499 0.0024047
-0.046498 0.20784 0.018108 0.0064607
-0.0034556 0.00056177 -0.0032049 -0.00012901 -0.00092605 -0.00027497 -0.0024867 0.00029755
0.018084 0.0064679 -0.06472 0.31501
1160000000 0.09748 0.30235 0.022046 -0.021166 0.0023989 -0.00037612 -0.00012252 -0.0021014
-0.0038348 -0.00052039 -0.0006935 0.0037462
0.022064 -0.021138 -0.079554 0.38119 -0.004851 -0.027774 -0.0016455 -0.0015263
-0.0025584 0.0024272 -0.0013554 0.0017676
0.0023944 -0.00040188 -0.0049354 -0.027763 0.25557 0.24455 -0.00079922 0.0018077
-0.00048402 0.0019546 -0.00081326 0.00019318
-0.00011767 -0.0020997 -0.0016455 -0.0015121 -0.0008062 0.0018085 0.042321 0.28407
0.020114 -0.012411 -0.0028489 0.0044918
-0.0038571 -0.00052146 -0.0025424 0.0024308 -0.00048223 0.0019716 0.020105 -0.012429
-0.012839 0.21458 0.016819 -0.0016894
-0.00069609 0.0037403 -0.0013389 0.0017748 -0.00081128 0.00018688 -0.0028391 0.0044953
0.016798 -0.0016889 -0.017908 0.31536
1220000000 0.14217 0.28924 0.0084514 -0.029238 -0.0014821 -0.00041442 6.7723e-05 -0.000916
-0.0023581 0.0022733 0.0012349 0.0018219
0.008468 -0.029199 -0.035323 0.39188 -0.016931 -0.019563 -0.0023844 0.00043957
0.0001205 0.0028453 -0.00051969 0.0018371
-0.0014763 -0.00041536 -0.017006 -0.019514 0.29422 0.20445 0.00079574 0.0018088
0.00059402 0.0012499 0.00034414 0.00048725
8.0924e-05 -0.00092157 -0.002381 0.00045181 0.00080004 0.0018068 0.082552 0.27336
0.0092444 -0.018338 0.001635 0.001394
-0.0023509 0.0022838 0.00013349 0.0028492 0.00058787 0.001254 0.0092194 -0.018357
0.011289 0.22131 0.011739 -0.013173
0.0012348 0.0018091 -0.00051268 0.0018559 0.0003581 0.00049187 0.0016444 0.0013935
0.011727 -0.013175 0.015381 0.32714
1280000000 0.19079 0.26548 -0.0088091 -0.026818 -0.0014313 0.0027005 -0.0010361 -0.0019551
-0.00063861 0.0028545 0.0023205 0.00084328
-0.0087765 -0.026798 0.010194 0.38205 -0.022951 -0.0074378 -0.001021 0.0013775
0.0015874 0.0016476 0.00070274 0.0017569
-0.0014247 0.0026987 -0.022994 -0.0073621 0.32379 0.15937 0.0016323 -5.0162e-06
0.0011081 0.0002557 0.00027984 0.00015984
-0.0010398 -0.0019461 -0.0010176 0.0013781 0.0016243 -6.322e-06 0.11831 0.25422
-0.00055336 -0.019771 -0.00045882 0.00042712
-0.00062936 0.002861 0.0015928 0.0016322 0.0010981 0.00025476 -0.00058691 -0.019775
0.047438 0.22241 0.0013459 -0.014683
0.0023115 0.00081973 0.00071409 0.0017559 0.0002732 0.00016319 -0.00045509 0.00042977
0.0013562 -0.014675 0.061166 0.32506
1340000000 0.22704 0.23059 -0.017681 -0.017195 0.0012904 0.004166 -0.001667 -0.00085422
0.0014012 0.0025282 0.0014785 -0.0014307
-0.017655 -0.01719 0.04945 0.37302 -0.020494 0.0047294 -0.0001411 0.0020166
0.0018559 0.00070976 0.0013011 0.00061446
0.001303 0.0041625 -0.020478 0.0048038 0.34486 0.1112 0.0012541 -0.00097121
0.00060678 -0.00048327 7.8644e-05 0.00023626
-0.0016677 -0.00084412 -0.00013488 0.0020158 0.0012542 -0.00096512 0.14959 0.23229
-0.00974 -0.016425 0.00061756 0.0010213
0.0014058 0.0025213 0.0018614 0.00069687 0.00061044 -0.00050344 -0.0097865 -0.016427
0.077107 0.21577 -0.0048401 -0.012559
0.0014663 -0.0014408 0.0013065 0.00060872 7.2049e-05 0.00023315 0.00062043 0.0010199
-0.0048285 -0.01256 0.099955 0.31722
1400000000 0.2589 0.19119 -0.022395 -0.0061052 0.0052024 0.0025801 -0.0021067 0.00060156
0.0022886 0.00076692 0.00013322 -0.0013769
-0.022367 -0.0061245 0.086266 0.35934 -0.013746 0.012145 0.0013159 0.0013225
0.0011756 -0.00079351 0.0010688 9.8084e-05
0.0052071 0.0025718 -0.013703 0.012209 0.35756 0.056988 0.00012659 -0.0018805
7.5845e-05 -0.00041943 0.00027832 0.00018762
-0.0021107 0.00059976 0.0013307 0.0013246 0.00012726 -0.0018767 0.17767 0.20164
-0.01541 -0.0095596 -0.00042849 0.0003255
0.0022882 0.00075539 0.0011798 -0.00079629 7.7416e-05 -0.00041182 -0.015439 -0.0095321
0.10906 0.20904 -0.010582 -0.0075578
0.00013358 -0.0013756 0.0010625 9.8242e-05 0.0002795 0.00018713 -0.00042783 0.0003295
-0.010564 -0.0075674 0.14295 0.30287
1460000000 0.28026 0.14669 -0.019175 0.00514 0.0052482 -0.0021965 -0.0015562 0.0016802
0.0018939 -0.00053203 -0.00032411 -0.00086833
-0.019161 0.0051069 0.12007 0.33708 -0.0055891 0.014532 0.0017521 0.00017009
0.00082527 -0.0012683 0.0010789 -0.00056452
0.0052347 -0.0022105 -0.0055351 0.014553 0.36207 0.0022318 -0.001407 -0.0013835
0.00012885 -0.0002055 0.00050764 -0.00027167
-0.0015593 0.0016844 0.0017722 0.00016977 -0.0014157 -0.0013839 0.20149 0.17147
-0.016478 -0.0027648 -0.00027979 0.0020569
0.0018924 -0.00054181 0.00082482 -0.001263 0.0001358 -0.00020957 -0.016503 -0.0027274
0.13687 0.19284 -0.011421 -0.0019824
-0.0003236 -0.00086751 0.0010756 -0.0005725 0.000504 -0.00028615 -0.00029252 0.002064
-0.011417 -0.0019829 0.17475 0.28014
1520000000 0.29163 0.10433 -0.013481 0.010121 0.002778 -0.0041634 0.00015869 0.0026116
0.0019314 -0.0015362 -0.0010339 -0.00011473
-0.013484 0.010104 0.15344 0.32174 0.0015073 0.012366 0.0017065 -0.00087135
2.4928e-05 -0.0011043 0.00027757 -0.00090791
0.0027675 -0.0041611 0.0015535 0.012375 0.3548 -0.054262 -0.0014102 -0.00031307
0.00054395 -0.00086316 -4.3097e-06 -0.00016174
0.00015732 0.0026106 0.0016961 -0.00087272 -0.0014091 -0.00031108 0.22255 0.13338
-0.015628 0.003198 0.0018407 0.0018371
0.0019301 -0.0015403 1.9671e-05 -0.0011007 0.00054078 -0.00086299 -0.015628 0.0032307
0.16391 0.17717 -0.011128 0.0022971
-0.001021 -0.00010196 0.00027015 -0.00091822 -8.2166e-07 -0.00014954 0.0018368 0.0018312
-0.011128 0.0022931 0.20688 0.25695
1580000000 0.29957 0.057593 -0.0072799 0.012679 -0.0012016 -0.0045085 0.0015007 0.0018984
-0.00010817 -0.0020207 -0.00024388 0.00034999
-0.0072944 0.012671 0.18033 0.29633 0.0048467 0.0078307 0.00044566 -0.0016988
-0.00056236 -0.0010205 -0.00019538 -0.00078121
-0.0012056 -0.0045008 0.0048745 0.0078218 0.33376 -0.11187 -0.0016584 0.00097938
-0.00034688 -0.0010376 0.00018717 -0.0004676
0.001507 0.0018892 0.00043984 -0.001696 -0.0016535 0.00097587 0.23415 0.094308
-0.012246 0.0082761 0.0023674 0.00030675
-0.00012217 -0.0020209 -0.00056971 -0.0010165 -0.00034964 -0.0010487 -0.012244 0.0083066
0.18661 0.15749 -0.0087526 0.0073018
-0.00024337 0.00035088 -0.00019245 -0.0007716 0.00017999 -0.00047912 0.0023679 0.00030623
-0.0087567 0.0072932 0.23668 0.22826
1640000000 0.30051 0.015976 -0.0011081 0.01146 -0.0026898 -0.002241 0.0026813 0.00088322
-0.0006609 -0.0015722 -0.00021802 0.00057867
-0.0011314 0.01145 0.20945 0.27077 0.0054202 0.0034397 -0.00084859 -0.0017001
-0.0010657 -0.00032859 -0.00049533 -0.00057942
-0.0026835 -0.0022259 0.0054319 0.0034168 0.30411 -0.16054 -0.00055764 0.0016519
-0.0011144 -0.00078324 -0.00016742 -0.00024916
0.0026851 0.0008715 -0.00085532 -0.0016998 -0.00055355 0.0016362 0.24455 0.046953
-0.0079284 0.0099712 0.0023451 -0.0011489
-0.0006596 -0.0015685 -0.0010679 -0.00032747 -0.0011112 -0.000782 -0.0079249 0.0099904
0.20743 0.13213 -0.0042399 0.0090696
-0.00021828 0.00058329 -0.00049863 -0.00057398 -0.0001647 -0.00025082 0.0023379 -0.0011467
-0.0042425 0.0090685 0.26067 0.1956
1700000000 0.29192 -0.029665 0.0019296 0.0087709 -0.0032031 0.00031365 0.0029316 -0.0014261
-0.001915 -0.00080051 0.00064069 0.00032118
0.0019084 0.0087771 0.22721 0.23879 0.0036836 0.00081192 -0.0014853 -0.00048743
-0.00074787 0.00025237 -0.00083089 -0.00042278
-0.0031892 0.00032731 0.0036913 0.00079371 0.26089 -0.20025 0.00076297 0.0014741
-0.0019026 -5.8015e-05 -0.00056806 -0.00079938
0.0029215 -0.0014282 -0.0014826 -0.0004823 0.00076075 0.0014614 0.24063 -0.0012765
-0.0044483 0.010856 0.0012461 -0.002235
-0.0019276 -0.00078972 -0.00074735 0.00025821 -0.0018903 -5.7783e-05 -0.0044347 0.010871
0.2233 0.11093 0.00016174 0.009368
0.00064667 0.0003145 -0.00084158 -0.00042007 -0.0005691 -0.00079281 0.0012574 -0.0022404
0.00016128 0.0093687 0.27511 0.1599
1760000000 0.27831 -0.078131 0.0039467 0.0057206 -0.0020002 0.00082401 0.00098598 -0.0034955
-0.0015448 0.00058249 0.00042947 -0.00045586
0.0039493 0.0057303 0.25239 0.19811 0.0017036 -0.0010014 -0.0011743 0.00027031
-0.00090213 0.00091196 -0.0005938 0.00044011
-0.0020178 0.00085307 0.0016994 -0.0010094 0.21161 -0.23307 0.0013968 0.00078959
-0.0010945 0.0016031 -0.0013 -0.00029089
0.00097863 -0.0034895 -0.001175 0.00027697 0.0013957 0.00079806 0.23119 -0.050706
-0.00062939 0.010274 -0.00051024 -0.0023318
-0.0015398 0.00059327 -0.00089432 0.00092451 -0.0011037 0.0015995 -0.00060476 0.010282
0.23598 0.075318 0.0037215 0.0067777
0.00042731 -0.00045905 -0.00058899 0.00044682 -0.0013116 -0.0002818 -0.00051339 -0.0023333
0.0037183 0.0067741 0.28559 0.12126
1820000000 0.25233 -0.11487 0.0040139 0.0023884 2.6965e-05 0.0021801 -0.001252 -0.0028862
-0.0011938 0.0010841 -4.5763e-05 -3.25e-05
0.0039921 0.0023879 0.26155 0.16781 -0.000116 -6.886e-05 -0.0011588 0.00099271
0.00012418 0.001229 -0.00053607 0.00055764
1.2724e-05 0.0021773 -0.00011353 -6.4441e-05 0.16113 -0.24861 0.0012796 2.8605e-05
-3.4015e-05 0.0022043 -0.0012517 0.00051103
-0.0012613 -0.0028803 -0.001154 0.00098851 0.0012823 2.456e-05 0.20217 -0.096137
0.0016223 0.0083433 -0.0014502 -0.0012769
-0.0011881 0.0010892 0.00013672 0.0012316 -3.413e-05 0.0021913 0.0016467 0.008334
0.25156 0.046072 0.0046486 0.0035505
-4.7059e-05 -3.315e-05 -0.00053131 0.00055902 -0.0012561 0.00051848 -0.0014501 -0.0012685
0.0046574 0.0035435 0.28602 0.083995
1880000000 0.21585 -0.15453 0.0018172 0.00036856 -0.00050455 0.0018827 -0.002898 -0.0018298
-0.00022233 0.0019014 0.0001876 -0.00046089
0.0018202 0.00036869 0.26518 0.12084 -0.0021727 0.0015772 -7.4955e-05 0.0016284
0.00062192 0.00098287 0.00016971 0.00088886
-0.00049752 0.0018917 -0.0021679 0.0015836 0.10844 -0.25841 0.0012528 -0.00097017
0.0016295 0.0015876 -0.0008244 0.0012051
-0.002911 -0.001817 -6.9073e-05 0.0016347 0.0012474 -0.00095452 0.16285 -0.13629
0.0028383 0.005738 -0.002088 0.00038495
-0.00022837 0.0018989 0.00063001 0.00098873 0.0016323 0.0015852 0.0028577 0.0057306
0.25295 0.012847 0.0044472 0.0014997
0.00018696 -0.00046388 0.00017087 0.00089618 -0.00082142 0.001192 -0.0020883 0.00038595
0.0044543 0.0014992 0.28385 0.049515
1940000000 0.17555 -0.1794 -0.00026638 -0.0010145 0.0012704 0.002134 -0.0034419 0.00084281
0.0015808 0.0012596 -0.0005635 -0.0006234
-0.00027051 -0.0010082 0.26454 0.089398 -0.0011371 0.0038867 0.00093962 0.001184
0.0016195 0.00032183 0.00086085 0.00033706
0.001304 0.002098 -0.0011136 0.003892 0.061766 -0.25107 1.8418e-05 -0.001552
0.0022106 0.00030078 0.00039842 0.0014508
-0.0034307 0.0008449 0.00094107 0.0011816 2.0596e-05 -0.0015572 0.11121 -0.16655
0.0022291 0.0037874 -0.0013597 0.0013025
0.0016033 0.0012567 0.0016177 0.00030552 0.0022203 0.00031675 0.0022451 0.0037959
0.25323 -0.026164 0.0033736 -0.0013732
-0.00057581 -0.00061623 0.00086278 0.00032871 0.00041365 0.0014717 -0.0013505 0.0013077
0.00338 -0.0013684 0.27094 0.013289
2000000000 0.12872 -0.19316 -0.0038617 0.00098763 0.0025166 0.0016192 -0.0020711 0.0032995
0.0014869 5.8584e-05 -0.00053256 0.00039064
-0.0038545 0.00097905 0.2499 0.053946 -0.00096489 0.0057055 0.0014728 0.00032865
0.0010438 -0.0012491 0.00049507 2.9666e-05
0.0025247 0.0016077 -0.00094186 0.0057123 0.018082 -0.23613 -0.00094613 -0.00090194
0.0017008 -0.0010889 0.00165 0.0010634
-0.002065 0.0033074 0.0014847 0.00032771 -0.0009498 -0.00090577 0.058286 -0.17745
0.00038518 0.0028742 -9.6533e-05 0.0020851
0.0014762 4.6341e-05 0.0010383 -0.0012622 0.0017017 -0.0010817 0.00038273 0.0028794
0.24597 -0.06051 0.00042323 -0.00238
