!Keysight Technologies,M9804A,MY58100912,A.14.10.03
!Date: Thursday, April 27, 2023 10:28:33
!Correction: S11(C  6-Port  ) 
!S12(C  6-Port  ) 
!S13(C  6-Port  ) 
!S14(C  6-Port  ) 
!S15(C  6-Port  ) 
!S16(C  6-Port  ) 
!S21(C  6-Port  ) 
!S22(C  6-Port  ) 
!S23(C  6-Port  ) 
!S24(C  6-Port  ) 
!S25(C  6-Port  ) 
!S26(C  6-Port  ) 
!S31(C  6-Port  ) 
!S32(C  6-Port  ) 
!S33(C  6-Port  ) 
!S34(C  6-Port  ) 
!S35(C  6-Port  ) 
!S36(C  6-Port  ) 
!S41(C  6-Port  ) 
!S42(C  6-Port  ) 
!S43(C  6-Port  ) 
!S44(C  6-Port  ) 
!S45(C  6-Port  ) 
!S46(C  6-Port  ) 
!S51(C  6-Port  ) 
!S52(C  6-Port  ) 
!S53(C  6-Port  ) 
!S54(C  6-Port  ) 
!S55(C  6-Port  ) 
!S56(C  6-Port  ) 
!S61(C  6-Port  ) 
!S62(C  6-Port  ) 
!S63(C  6-Port  ) 
!S64(C  6-Port  ) 
!S65(C  6-Port  ) 
!S66(C  6-Port  ) 
!S6P File: Measurement: :
# Hz S  RI   R 50
500000000 -0.33838 -0.020113 -0.010712 -0.0031265 -0.0071702 0.012422 -0.0033216 0.012283
0.011217 0.0038527 -0.0027333 0.0087745
-0.010801 -0.0039344 -0.41908 -0.037936 0.0063927 -0.011741 0.0017269 0.012366
0.0072643 0.0020759 0.0019351 0.013562
-0.0074468 0.012626 0.006611 -0.01144 -0.26321 0.22167 0.0069995 0.0037454
-0.0010334 0.0079427 0.0024351 0.012
-0.0022269 0.01088 0.0016881 0.012726 0.0068835 0.0034555 -0.33098 0.060129
-0.0196 -0.0060101 0.015592 0.023496
0.011342 0.00264 0.0072374 0.001962 -0.00053841 0.0085296 -0.019738 -0.0060933
-0.23512 -0.16722 -0.025566 0.0053032
-0.0030932 0.0064213 0.0025797 0.014139 0.0021151 0.011452 0.01557 0.023862
-0.025878 0.0051997 -0.2836 -0.085438
560000000 -0.31391 0.13616 -0.026823 -0.059778 0.00027062 0.011308 0.0054317 0.009907
0.0089425 0.0041223 0.010501 0.0068243
-0.026422 -0.059193 -0.37567 0.11661 -0.042035 -0.035049 0.013021 0.0037159
-0.01243 -0.0042857 0.0024229 -3.1066e-05
-0.00022337 0.011284 -0.042154 -0.035141 -0.18093 0.26664 0.00021142 -0.0048742
0.019702 0.0042465 0.0063823 -0.0069018
0.0059636 0.010427 0.012735 0.0036841 0.00035266 -0.0050258 -0.30628 0.14706
0.0009863 -0.023985 0.0031133 -0.018865
0.0098616 0.0048084 -0.011838 -0.0040312 0.018635 0.0040356 0.0016515 -0.02426
-0.28683 0.0062334 0.0036613 -0.047035
0.010679 0.0070128 0.0025573 -0.00056831 0.0073408 -0.0064967 0.0029842 -0.019128
0.0038061 -0.047223 -0.32943 0.053665
620000000 -0.27029 0.12081 -0.023211 0.0074718 0.0038661 0.0081201 0.0074332 -0.0051996
0.010941 -0.001221 0.0010147 -0.0025525
-0.022843 0.0076536 -0.40143 0.07212 -0.019549 0.00042496 -0.00062055 -0.0022628
0.0097573 -0.0062946 0.0016795 -0.0025367
0.0038376 0.0079621 -0.019508 0.00057461 -0.1498 0.27612 -0.00090449 -0.0048159
-0.0035054 -0.0027187 0.0077885 -0.0034099
0.0072122 -0.0049207 -0.0011211 -0.0021372 -0.0011376 -0.0048116 -0.26359 0.15953
-0.039328 -0.017365 0.012072 0.023451
0.010987 -0.0019268 0.010202 -0.0064419 -0.0034519 -0.0028561 -0.039112 -0.017489
-0.21156 -0.031811 -0.039174 0.015913
-0.00023301 -0.002186 0.0012111 -0.0027325 0.0083179 -0.0034203 0.012047 0.023401
-0.039267 0.015817 -0.25585 0.025981
680000000 -0.22812 0.20387 -0.027634 -0.012201 0.0052362 0.0043166 0.00094457 -0.0072499
-0.0032435 -0.010911 0.0040011 -0.006405
-0.027469 -0.012208 -0.38459 0.16675 -0.032306 0.00048901 -0.0013519 -0.0006176
-0.00247 -0.008993 -0.0014403 -0.0021933
0.0055287 0.0046834 -0.032181 0.00058109 -0.098557 0.29398 -0.00085149 -0.00038522
-0.0016014 0.00017864 -0.0034545 -0.0086413
0.00057213 -0.0072297 -0.0012646 -0.00066027 -0.00091112 -0.00033607 -0.2169 0.20623
-0.025554 -0.0049326 -0.0094634 -0.0083731
-0.0037002 -0.010446 -0.0025479 -0.0091032 -0.0014245 0.00031427 -0.025885 -0.0049727
-0.25075 0.065574 -0.0065729 -0.0067319
0.0039834 -0.0064605 -0.0011766 -0.0022474 -0.0037749 -0.0086304 -0.0093671 -0.0083286
-0.00647 -0.0066739 -0.25429 0.12088
740000000 -0.18458 0.19873 -0.036923 0.026385 0.011952 -0.0061083 -0.00066205 -0.0039817
-0.0049122 -0.0027071 -0.0056195 0.0028032
-0.03689 0.026031 -0.33343 0.18684 -0.0332 0.035283 -0.00095711 -0.0062604
-0.011305 0.0078228 -0.0022525 -0.004975
0.012199 -0.00578 -0.032949 0.03485 -0.06502 0.29334 -0.0016628 0.003081
-0.0029801 -0.0045707 -0.0020468 0.0011535
-0.0001223 -0.0044037 -0.0016884 -0.0064121 -0.0016791 0.0030906 -0.19914 0.21569
-0.042069 -0.0031605 0.02203 0.012333
-0.0046179 -0.0030066 -0.01089 0.0078767 -0.00316 -0.0046565 -0.04229 -0.0030877
-0.15733 0.08576 -0.039444 0.0038459
-0.0055056 0.0025098 -0.0029514 -0.0051313 -0.0018772 0.0013004 0.021989 0.012334
-0.039285 0.0038011 -0.24244 0.13046
800000000 -0.15058 0.2351 -0.021276 0.017578 0.0045811 -0.010357 -0.0044626 -0.0016714
-0.0035605 0.0025813 0.0035776 0.00064325
-0.021703 0.017224 -0.33307 0.25488 -0.006547 0.033606 -0.0023652 0.0022271
-0.00052104 0.0033216 0.0011719 0.0053414
0.004469 -0.010438 -0.0064764 0.033618 -0.022091 0.3152 0.00070771 0.0016572
0.00048887 0.0034927 -0.0019115 0.0012277
-0.0048876 -0.0015801 -0.0022162 0.0024179 0.00073657 0.0016462 -0.1689 0.24185
-0.026938 0.016181 0.012448 -0.010099
-0.0041329 0.002845 -0.00044831 0.0031772 0.00034084 0.0035633 -0.026832 0.016344
-0.19554 0.11387 -0.015813 0.018446
0.00291 0.0010075 0.0012831 0.005716 -0.0019479 0.001127 0.012388 -0.010234
-0.015835 0.018431 -0.23073 0.17708
860000000 -0.11594 0.25598 -0.015875 0.030901 -0.0037296 -0.0093454 -0.0021712 0.0012754
0.0043696 0.0047115 -0.0025992 -0.0024564
-0.016011 0.030851 -0.28584 0.29599 0.0090785 0.033022 0.00018896 0.0021107
0.0043432 7.6615e-05 0.0032409 0.00037052
-0.0038473 -0.0092749 0.0091995 0.033026 0.026105 0.32206 -0.00052173 2.0804e-05
0.0025311 -0.0012961 0.0017773 0.0040648
-0.0017868 0.0012311 0.00014387 0.002188 -0.00047302 -1.6799e-05 -0.13211 0.25263
-0.015414 0.020581 -0.00573 -0.0090332
0.0046723 0.0048777 0.0040714 0.00025521 0.0024945 -0.0014182 -0.015338 0.02053
-0.14349 0.15968 -0.021567 0.016442
-0.0025616 -0.0028181 0.0030283 0.00027499 0.0015848 0.0040768 -0.005695 -0.009041
-0.021584 0.016443 -0.18109 0.21734
920000000 -0.089386 0.27745 0.0061446 0.036675 -0.0091541 -0.0037297 -0.0014297 0.0018249
0.0014481 0.0014997 0.0025887 -0.0017697
0.0060662 0.03659 -0.2554 0.31625 0.028085 0.020185 0.0017212 0.0010394
0.0070943 -0.000615 0.0036406 -0.0030225
-0.0091741 -0.0037454 0.028214 0.020117 0.073655 0.32202 0.0020171 -5.0376e-05
0.0015793 -0.00044891 0.00094546 -0.0011353
-0.0013915 0.0016792 0.0017278 0.0011693 0.0019846 -1.6358e-05 -0.1059 0.26824
-0.0074112 0.030805 0.0025277 -0.0061691
0.0013354 0.0015599 0.0071159 -0.00084049 0.0015051 -0.00038994 -0.0073753 0.030874
-0.13029 0.16562 -0.00045006 0.025641
0.002479 -0.0015408 0.0037171 -0.0025899 0.00092372 -0.001076 0.002507 -0.0062762
-0.00041498 0.025759 -0.18095 0.23267
980000000 -0.042145 0.2954 0.018549 0.028302 -0.0083611 0.0047501 0.0019831 0.0030282
0.0040076 -0.0019042 -0.0031559 -0.0021166
0.018489 0.028344 -0.20347 0.34834 0.032238 0.0032039 0.0020233 -0.00031009
0.0014905 -0.0060977 -0.00067762 -0.0023114
-0.0083192 0.0047503 0.032259 0.0030851 0.12016 0.31385 0.00052679 -0.0013439
0.0001177 -0.0022198 0.0013524 -0.00024941
0.0020911 0.0031587 0.0019949 -0.00030856 0.0005348 -0.0012762 -0.06678 0.27744
0.010819 0.028394 -0.0085378 -0.0062963
0.0038481 -0.0017598 0.001404 -0.0061896 0.00018602 -0.0022964 0.010864 0.028445
-0.097675 0.18948 0.0060957 0.018133
-0.0032724 -0.0021937 -0.00069967 -0.0026342 0.0013078 -0.00029725 -0.0085181 -0.006201
0.00606 0.018127 -0.13691 0.27103
1040000000 0.00069712 0.30256 0.032771 0.015926 -0.00099072 0.0066125 0.0023816 0.00053356
9.3484e-05 -0.0033396 -0.00068188 -0.0013265
0.03279 0.015882 -0.16756 0.36162 0.027563 -0.015541 0.0014085 -0.0017971
-0.0023162 -0.0024164 -0.001474 -0.0026428
-0.00096459 0.0066278 0.027567 -0.015597 0.1667 0.29919 -0.00058347 -0.0015277
-0.0015703 -0.00098325 -0.00034731 -0.0010357
0.0023912 0.00057779 0.0013856 -0.0018002 -0.00060338 -0.0015377 -0.038391 0.28636
0.020901 0.015581 -0.0025654 0.0012349
-3.8113e-06 -0.0033979 -0.0023774 -0.0025895 -0.0015609 -0.00096563 0.020913 0.015578
-0.065503 0.19614 0.013506 0.015892
-0.00075449 -0.001187 -0.0015901 -0.0027129 -0.00044572 -0.0010979 -0.0025439 0.0011416
0.013525 0.015939 -0.11193 0.29067
1100000000 0.04653 0.30878 0.034389 -0.0056198 0.0027576 0.0035867 0.0021578 -0.0010045
-0.0019496 -0.0027064 -0.0034119 0.0005509
0.034374 -0.0055896 -0.12386 0.37766 0.013429 -0.02738 -0.00012631 -0.0017409
-0.0032854 -0.00049402 -0.0032332 -0.00020701
0.0027531 0.0035692 0.013342 -0.027417 0.21334 0.27692 -0.0018972 0.0001832
-0.001819 0.00052021 -0.00095565 -0.00031037
0.0022179 -0.00090596 -0.00013405 -0.0017648 -0.0018624 0.00016903 0.0030262 0.289
0.024468 0.0024962 -0.0025304 0.00024263
-0.0018976 -0.0027735 -0.0032087 -0.00040804 -0.0018887 0.00052304 0.02453 0.0023994
-0.046576 0.20772 0.018133 0.0064587
-0.0033094 0.00056092 -0.0031162 -0.00026172 -0.0009437 -0.00030313 -0.0025292 0.00030799
0.018118 0.0065029 -0.064953 0.315
1160000000 0.09735 0.30237 0.022084 -0.021231 0.0023956 -0.00037656 -0.00012228 -0.0020446
-0.00385 -0.00052399 -0.00068752 0.0037715
0.022084 -0.021218 -0.079603 0.38127 -0.0048201 -0.027791 -0.0016612 -0.0014657
-0.0025255 0.0024538 -0.0013673 0.0017571
0.0023747 -0.0003981 -0.0048762 -0.027831 0.25556 0.24457 -0.00080833 0.0018189
-0.00049452 0.001932 -0.00079617 0.00018434
-0.0001023 -0.0021346 -0.0016388 -0.0014707 -0.00077881 0.001827 0.04229 0.28407
0.02016 -0.012404 -0.0028135 0.0045701
-0.003843 -0.0005021 -0.0025873 0.0024215 -0.0004885 0.0019155 0.020185 -0.01241
-0.012869 0.2145 0.016768 -0.0017336
-0.00072896 0.0037544 -0.0013538 0.0018648 -0.00084453 0.00015074 -0.0028212 0.0045188
0.016794 -0.0016768 -0.018175 0.31509
1220000000 0.1421 0.28933 0.0084805 -0.029299 -0.0015081 -0.00042781 7.2982e-05 -0.00091688
-0.00236 0.0022621 0.0012856 0.0017531
0.0085166 -0.029243 -0.035404 0.39191 -0.016965 -0.019616 -0.0024045 0.00046318
0.00010238 0.0028388 -0.00047261 0.0018757
-0.0015274 -0.00045544 -0.017044 -0.01957 0.29424 0.20446 0.00077938 0.0018076
0.00063023 0.0012422 0.00032987 0.00054044
4.8264e-05 -0.00086382 -0.0023792 0.0004594 0.00080705 0.0017953 0.082472 0.27335
0.0092159 -0.018318 0.0016222 0.0013686
-0.0023865 0.002245 9.7054e-05 0.0028045 0.00062008 0.0011944 0.0091819 -0.018381
0.011147 0.22119 0.011705 -0.013227
0.0013027 0.0018462 -0.00047487 0.0018947 0.00039005 0.00048082 0.0016293 0.001367
0.01166 -0.013214 0.015143 0.32709
1280000000 0.1908 0.26565 -0.0088159 -0.026873 -0.0014499 0.0027213 -0.0010277 -0.0019365
-0.00065489 0.0028466 0.0022941 0.00083508
-0.0087797 -0.026905 0.010196 0.38214 -0.022984 -0.0074545 -0.0010594 0.0013633
0.0016058 0.0016553 0.00076561 0.0017312
-0.0014877 0.0027305 -0.023073 -0.0073786 0.32376 0.15942 0.0015958 4.3836e-06
0.0011309 0.00021434 0.00027108 0.00018162
-0.00095978 -0.0018953 -0.0010788 0.0013836 0.0016223 -5.8065e-06 0.11825 0.25419
-0.00051801 -0.01979 -0.00045941 0.00047734
-0.00055684 0.0028578 0.001621 0.0016528 0.0010827 0.00030268 -0.00052055 -0.019797
0.04737 0.22244 0.0013862 -0.01465
0.0023264 0.00085471 0.00064982 0.0016995 0.00028382 0.00021645 -0.00044308 0.00043347
0.0014161 -0.014659 0.060906 0.32503
1340000000 0.22704 0.23066 -0.017741 -0.017183 0.0013231 0.0041921 -0.0016706 -0.00089779
0.0013918 0.0024878 0.0014673 -0.0014334
-0.017722 -0.01723 0.049425 0.37305 -0.020555 0.0047179 -0.00016617 0.0020183
0.0018775 0.0007326 0.0012922 0.00063912
0.0013247 0.004184 -0.020547 0.0048253 0.34481 0.11119 0.0012507 -0.00097412
0.0006394 -0.00044827 9.6358e-05 0.00026124
-0.0016445 -0.00086306 -0.00014196 0.0019701 0.0012563 -0.00091252 0.14952 0.23233
-0.0097371 -0.016458 0.00063796 0.00098427
0.001397 0.0025551 0.0018545 0.00072323 0.00061432 -0.00045449 -0.0097886 -0.016483
0.076944 0.21583 -0.0048181 -0.012583
0.0015176 -0.0014401 0.0012243 0.00055261 3.1817e-05 0.00024117 0.00061346 0.0010088
-0.0048233 -0.012584 0.099832 0.31724
1400000000 0.25894 0.19117 -0.022452 -0.0060988 0.0052151 0.0026458 -0.0021368 0.00057318
0.0022974 0.00079982 0.00013209 -0.0014287
-0.022428 -0.0061429 0.086249 0.35932 -0.013804 0.012202 0.0013189 0.0013338
0.0011904 -0.00077862 0.0010465 0.00011141
0.0052251 0.0025759 -0.013754 0.012236 0.3575 0.056992 0.00012486 -0.0019128
1.6076e-05 -0.0004347 0.00029643 0.0002044
-0.0021387 0.00069333 0.0013557 0.0013277 0.00010155 -0.0018968 0.1776 0.20172
-0.015443 -0.0095902 -0.00044187 0.0002944
0.0022508 0.00082202 0.001205 -0.0007877 4.8706e-05 -0.000435 -0.015462 -0.0095323
0.10895 0.20904 -0.010531 -0.0075671
0.00011572 -0.0013264 0.0011631 8.2182e-05 0.00027415 0.00011172 -0.00041854 0.00028606
-0.010509 -0.0075418 0.14282 0.30293
1460000000 0.28039 0.14674 -0.01921 0.0052494 0.0053043 -0.0021698 -0.0015678 0.0017041
0.00189 -0.00053705 -0.00037475 -0.00087828
-0.019185 0.0052199 0.12012 0.3371 -0.0056049 0.014604 0.001762 0.0001769
0.00081765 -0.0012697 0.0010891 -0.00058276
0.0052651 -0.0022248 -0.0055348 0.014643 0.36201 0.0022417 -0.0014125 -0.0013785
0.0001595 -0.00021005 0.00053469 -0.00026309
-0.0016053 0.0016547 0.0017339 0.00013832 -0.0014074 -0.0013696 0.20146 0.17156
-0.016507 -0.0027683 -0.00024799 0.0020225
0.0018395 -0.00051641 0.00082028 -0.0012303 0.00014327 -0.00016267 -0.016528 -0.0027598
0.13681 0.19284 -0.011412 -0.0019755
-0.00033421 -0.00083327 0.0010707 -0.00060019 0.00060101 -0.0003 -0.00025775 0.0020539
-0.011402 -0.0019812 0.17463 0.28024
1520000000 0.29159 0.10426 -0.013476 0.010186 0.0028463 -0.0041458 0.00016028 0.002613
0.001953 -0.0015489 -0.0010212 -0.00011703
-0.013478 0.010193 0.15343 0.32171 0.001535 0.012437 0.001707 -0.00086618
-3.1894e-06 -0.001113 0.0002832 -0.00091902
0.0028557 -0.004178 0.0015839 0.012437 0.3548 -0.05424 -0.0013928 -0.00027543
0.00053361 -0.00091019 -4.6878e-05 -0.00017474
0.00016913 0.0025701 0.0017035 -0.0008481 -0.0013944 -0.00028528 0.22251 0.13345
-0.015658 0.0031961 0.0018428 0.0018224
0.0019047 -0.0015536 -4.0969e-06 -0.0010869 0.00053801 -0.00089448 -0.015653 0.0032163
0.16383 0.17724 -0.011134 0.0022804
-0.0010658 -0.00013624 0.00022102 -0.0009433 -5.6188e-05 -9.0833e-05 0.0018506 0.0018291
-0.011128 0.002266 0.20682 0.25701
1580000000 0.29958 0.057493 -0.0072099 0.012726 -0.0011589 -0.0045375 0.0015176 0.0018819
-0.00013875 -0.002052 -0.00023485 0.00034948
-0.0072226 0.012716 0.18029 0.29633 0.0048937 0.0078763 0.0004368 -0.0017097
-0.00057443 -0.0010366 -0.00019981 -0.00077192
-0.0011712 -0.0044856 0.0048811 0.0078631 0.33375 -0.11184 -0.0016398 0.00098886
-0.00034465 -0.0010445 0.00014596 -0.00051741
0.0015155 0.0018258 0.00041313 -0.0017452 -0.0016894 0.0010107 0.23416 0.09439
-0.012266 0.008284 0.0023574 0.00029802
-7.5897e-05 -0.0020603 -0.0005743 -0.0010261 -0.00030193 -0.0010866 -0.012255 0.0083389
0.18652 0.15753 -0.0088012 0.0072724
-0.00031027 0.00031291 -0.00021727 -0.00074905 0.00016006 -0.00055386 0.0023583 0.00030515
-0.0088146 0.0072772 0.23656 0.22841
1640000000 0.30049 0.015898 -0.0010767 0.011475 -0.0026957 -0.0022955 0.0026691 0.0008924
-0.00066953 -0.0015738 -0.00023772 0.00061962
-0.0010759 0.011459 0.20939 0.27076 0.0054827 0.003465 -0.00086353 -0.0016939
-0.0010664 -0.00032238 -0.00051709 -0.00057807
-0.0027064 -0.0022558 0.0054604 0.0034465 0.30416 -0.16055 -0.00055502 0.0016419
-0.0011429 -0.00080154 -0.00013382 -0.00025587
0.0027105 0.00093901 -0.00086717 -0.0016917 -0.00054914 0.0016431 0.24462 0.046992
-0.0079216 0.0099862 0.0023442 -0.0011254
-0.00072136 -0.0015124 -0.001062 -0.00032107 -0.0011097 -0.00076371 -0.0079047 0.010036
0.20734 0.1322 -0.0042602 0.0090808
-0.00017719 0.00064086 -0.00053017 -0.00058248 -0.00012394 -0.00023067 0.0023356 -0.0011212
-0.0042708 0.0090847 0.26047 0.19572
1700000000 0.29185 -0.029668 0.0019634 0.0087513 -0.0031909 0.00027731 0.0029326 -0.0014378
-0.0019273 -0.00082763 0.00066136 0.00029279
0.001965 0.0087537 0.22713 0.23878 0.0037206 0.00081359 -0.001498 -0.00049092
-0.00074864 0.00024004 -0.0008525 -0.00040701
-0.0032503 0.0002892 0.0037704 0.00075317 0.26083 -0.20017 0.00078422 0.001498
-0.0018595 -0.00011488 -0.00063931 -0.00077018
0.0028617 -0.0014523 -0.0014982 -0.00048957 0.00070446 0.0015032 0.24067 -0.0012829
-0.0044571 0.010877 0.0012502 -0.0022182
-0.0019715 -0.00083585 -0.0007148 0.00021188 -0.0019404 -0.00014753 -0.0044701 0.01092
0.22315 0.11096 0.00012561 0.0093248
0.00064779 0.00035893 -0.00087293 -0.00042089 -0.0005563 -0.00070552 0.0012418 -0.0022269
0.00012476 0.0093341 0.27496 0.16
1760000000 0.27822 -0.078091 0.003994 0.0056664 -0.0020122 0.00079473 0.00096676 -0.0034979
-0.0015289 0.00060465 0.00042808 -0.00044238
0.0040109 0.0056517 0.25235 0.19819 0.0017249 -0.0010309 -0.0011821 0.00028475
-0.00090217 0.00092403 -0.00058979 0.00044066
-0.0020167 0.00080629 0.0017247 -0.0010329 0.21145 -0.23312 0.0013969 0.00076733
-0.0011145 0.0015785 -0.0013325 -0.00030878
0.00097695 -0.0034696 -0.0011657 0.00032869 0.0014128 0.00073273 0.23122 -0.050741
-0.00060096 0.010286 -0.00050031 -0.0023347
-0.0014734 0.0006309 -0.00090868 0.00099179 -0.0010623 0.0016084 -0.00060445 0.01027
0.23592 0.075415 0.0036587 0.0068077
0.00037674 -0.00044298 -0.00055352 0.00041305 -0.0013635 -0.00027108 -0.00050784 -0.0023423
0.0036709 0.0068134 0.2855 0.12139
1820000000 0.25225 -0.11474 0.0039848 0.0023378 -3.5782e-06 0.0022221 -0.0012522 -0.0028359
-0.0012092 0.0010474 -3.4087e-06 -7.9473e-05
0.0040122 0.0023639 0.26156 0.16791 -0.00011156 -0.0001025 -0.001161 0.00098958
0.00011704 0.001219 -0.0005098 0.00054585
3.2998e-05 0.0022844 -0.00013343 -7.4701e-05 0.16113 -0.24864 0.0012866 -1.0811e-05
-4.4319e-05 0.0022132 -0.0012613 0.00046201
-0.0012765 -0.0028403 -0.0011933 0.00096846 0.0012772 2.3837e-05 0.20217 -0.096126
0.0016367 0.0083293 -0.0014608 -0.00127
-0.0012041 0.0010378 0.00010959 0.0012223 7.7036e-06 0.0022296 0.0016638 0.0083579
0.25145 0.046137 0.0046393 0.0035455
-5.4758e-05 -5.3045e-05 -0.00050705 0.00054712 -0.0012337 0.00054563 -0.0014704 -0.0012513
0.0046425 0.0035517 0.286 0.084093
1880000000 0.21586 -0.15432 0.0018394 0.00029674 -0.00050442 0.0019288 -0.0029094 -0.0018156
-0.00026947 0.0018357 0.00024353 -0.0005059
0.0018333 0.00033936 0.2652 0.12094 -0.0021853 0.0015608 -9.6933e-05 0.0016446
0.00061012 0.00097875 0.00017802 0.00089746
-0.00046616 0.0018304 -0.0021872 0.0015627 0.10838 -0.25839 0.0012535 -0.00095924
0.0016049 0.0016113 -0.00082711 0.0012395
-0.0028426 -0.0018532 -0.00010175 0.001665 0.0012649 -0.00087324 0.16288 -0.13636
0.0028718 0.005759 -0.0021005 0.00037914
-0.00011171 0.0018889 0.00062368 0.00098689 0.0015639 0.0016423 0.0029008 0.0057285
0.25282 0.01293 0.004493 0.0015118
-9.774e-06 -0.0005488 0.00013181 0.00089162 -0.00080749 0.0012151 -0.0021027 0.00039866
0.0044497 0.0014902 0.28384 0.049687
1940000000 0.17574 -0.17931 -0.00025372 -0.00096195 0.0013022 0.002107 -0.0034703 0.00086579
0.0015678 0.0012218 -0.00056101 -0.0006107
-0.00031677 -0.0010372 0.26464 0.089411 -0.0011459 0.0038872 0.00090655 0.0011769
0.0016059 0.00030409 0.0008653 0.00031292
0.0013666 0.0020921 -0.0010611 0.0038988 0.06178 -0.25104 6.0135e-05 -0.0015675
0.0022078 0.00028058 0.00039407 0.0014553
-0.0035637 0.00099852 0.00089874 0.0011155 6.4582e-05 -0.0015946 0.11121 -0.16653
0.0021866 0.0037821 -0.0013514 0.0012933
0.0014925 0.001264 0.0016497 0.00023353 0.0021847 0.00028302 0.0021749 0.0037863
0.25318 -0.02611 0.0034659 -0.0013657
-0.00039109 -0.00063453 0.00083582 0.00025136 0.00038057 0.0014499 -0.0013867 0.0013007
0.0034448 -0.0013728 0.27098 0.013381
2000000000 0.12906 -0.19306 -0.0039447 0.00095718 0.0025974 0.0016396 -0.0020053 0.0033894
0.0014465 0.00011171 -0.00056788 0.00041997
-0.0038795 0.00097581 0.24991 0.053922 -0.00098003 0.0056752 0.0014475 0.00034194
0.0010611 -0.0012513 0.00051496 -5.9111e-06
0.0026283 0.0016626 -0.00094387 0.0056737 0.018191 -0.2362 -0.00089714 -0.00092575
0.0016915 -0.0010723 0.0017203 0.0011344
-0.0020748 0.0033706 0.0015062 0.00039094 -0.00086563 -0.00092068 0.058374 -0.17741
0.00036019 0.0029345 -0.00015909 0.0020677
0.001359 0.00017722 0.0010423 -0.0012311 0.001716 -0.0010851 0.00036733 0.0029362
0.2459 -0.060459 0.00048148 -0.0023469
