!Keysight Technologies,M9804A,MY58100912,A.14.10.03
!Date: Thursday, April 27, 2023 10:28:33
!Correction: S11(C  6-Port  ) 
!S12(C  6-Port  ) 
!S13(C  6-Port  ) 
!S14(C  6-Port  ) 
!S15(C  6-Port  ) 
!S16(C  6-Port  ) 
!S21(C  6-Port  ) 
!S22(C  6-Port  ) 
!S23(C  6-Port  ) 
!S24(C  6-Port  ) 
!S25(C  6-Port  ) 
!S26(C  6-Port  ) 
!S31(C  6-Port  ) 
!S32(C  6-Port  ) 
!S33(C  6-Port  ) 
!S34(C  6-Port  ) 
!S35(C  6-Port  ) 
!S36(C  6-Port  ) 
!S41(C  6-Port  ) 
!S42(C  6-Port  ) 
!S43(C  6-Port  ) 
!S44(C  6-Port  ) 
!S45(C  6-Port  ) 
!S46(C  6-Port  ) 
!S51(C  6-Port  ) 
!S52(C  6-Port  ) 
!S53(C  6-Port  ) 
!S54(C  6-Port  ) 
!S55(C  6-Port  ) 
!S56(C  6-Port  ) 
!S61(C  6-Port  ) 
!S62(C  6-Port  ) 
!S63(C  6-Port  ) 
!S64(C  6-Port  ) 
!S65(C  6-Port  ) 
!S66(C  6-Port  ) 
!S6P File: Measurement: :
# Hz S  RI   R 50
500000000 -0.3391 -0.019103 -0.010879 -0.0032558 -0.0074163 0.01261 -0.0030451 0.012029
0.010904 0.0036135 -0.002583 0.0084123
-0.01086 -0.0032427 -0.41884 -0.037903 0.0066437 -0.011678 0.001967 0.012429
0.0070141 0.0020905 0.0025464 0.013797
-0.0074027 0.012595 0.0066262 -0.011691 -0.26274 0.22158 0.007241 0.0036568
-0.00077665 0.0081739 0.0025789 0.012057
-0.0030351 0.012022 0.0019633 0.012478 0.0072415 0.0036737 -0.3311 0.060173
-0.01946 -0.0062891 0.015966 0.023732
0.010897 0.0036042 0.0070188 0.0020713 -0.00076379 0.0081938 -0.019473 -0.0062743
-0.23551 -0.16812 -0.025351 0.00447
-0.0025748 0.0084302 0.0025696 0.013831 0.0025892 0.012075 0.015951 0.023721
-0.025353 0.0044558 -0.28255 -0.08474
560000000 -0.31311 0.13558 -0.026748 -0.060034 0.0005199 0.011025 0.005517 0.009654
0.0090552 0.0043978 0.010262 0.0066579
-0.026718 -0.059957 -0.37509 0.11796 -0.042718 -0.0354 0.013413 0.0037654
-0.012478 -0.0047611 0.002426 -0.0004039
0.00053723 0.011004 -0.042811 -0.035359 -0.17985 0.26648 -0.0004104 -0.0044253
0.019888 0.0037385 0.0065775 -0.0068444
0.0055333 0.009645 0.013402 0.0037703 -0.00042912 -0.0044349 -0.30575 0.14736
0.00034284 -0.02364 0.0029884 -0.018742
0.0090431 0.0043786 -0.012463 -0.0047741 0.01992 0.0037715 0.00033204 -0.023627
-0.28669 0.0060569 0.0038385 -0.047211
0.010256 0.0066313 0.0024284 -0.00039609 0.0065937 -0.0068687 0.0029829 -0.018745
0.0038676 -0.047234 -0.3298 0.054196
620000000 -0.27061 0.12168 -0.023485 0.0072963 0.003567 0.0082715 0.0074232 -0.0053561
0.01096 -0.0014096 0.00068745 -0.002432
-0.023484 0.0072868 -0.40151 0.072194 -0.019572 0.00029156 -0.00083462 -0.0023536
0.0096803 -0.0062978 0.0016147 -0.0026006
0.0035824 0.008273 -0.019584 0.00031874 -0.14941 0.27612 -0.0011323 -0.0045368
-0.0036399 -0.0030166 0.0079174 -0.0032869
0.0074233 -0.0053712 -0.00084278 -0.0023584 -0.0011473 -0.0045508 -0.26335 0.15955
-0.039481 -0.017368 0.012058 0.023464
0.010918 -0.0014161 0.0096791 -0.006312 -0.0036092 -0.0030302 -0.039491 -0.017344
-0.21122 -0.031952 -0.039075 0.015303
0.0006767 -0.0024606 0.0016139 -0.0026067 0.0078875 -0.0032826 0.012042 0.023468
-0.039093 0.01527 -0.25563 0.026952
680000000 -0.22809 0.20365 -0.027781 -0.012198 0.0053522 0.0045753 0.00081581 -0.007138
-0.0031156 -0.011109 0.0038524 -0.0064424
-0.027743 -0.012195 -0.38469 0.16659 -0.032301 0.00037472 -0.0015437 -0.00040764
-0.0025859 -0.0089082 -0.0015455 -0.0021834
0.0053507 0.0045698 -0.032306 0.00042131 -0.098651 0.29394 -0.0009005 -0.00022089
-0.0016043 5.5455e-05 -0.00364 -0.0086555
0.00080189 -0.0071212 -0.0015484 -0.00041228 -0.00089914 -0.00021583 -0.21727 0.20637
-0.025923 -0.0049364 -0.0093709 -0.0084064
-0.003116 -0.011096 -0.0026213 -0.008917 -0.0016077 6.0253e-05 -0.025944 -0.0049063
-0.25135 0.065599 -0.0064103 -0.0070384
0.0038308 -0.0064657 -0.001569 -0.0021744 -0.0036494 -0.0086589 -0.0093857 -0.0084022
-0.0063964 -0.0070206 -0.25456 0.12138
740000000 -0.18437 0.19831 -0.036807 0.026174 0.011862 -0.0058861 -0.00047925 -0.0041024
-0.0047217 -0.0024784 -0.0056224 0.0029111
-0.036793 0.026125 -0.33307 0.18637 -0.032811 0.034991 -0.0010746 -0.0062503
-0.01118 0.007884 -0.0020961 -0.0050986
0.011841 -0.0058936 -0.032757 0.035047 -0.064922 0.29361 -0.0016131 0.003008
-0.002914 -0.0042418 -0.0019624 0.0011411
-0.00048566 -0.0040857 -0.0010997 -0.0062677 -0.0016095 0.0029936 -0.19916 0.21556
-0.042325 -0.003122 0.022065 0.012259
-0.0047396 -0.0024465 -0.011174 0.0078984 -0.0029321 -0.0042379 -0.042372 -0.0030701
-0.15721 0.086176 -0.039604 0.0037703
-0.0056176 0.0028789 -0.0021546 -0.005088 -0.0019639 0.0011419 0.022101 0.012257
-0.039589 0.0037271 -0.24236 0.13157
800000000 -0.15063 0.23578 -0.021432 0.017472 0.0045148 -0.010342 -0.0044167 -0.0016763
-0.003602 0.0027986 0.0035642 0.00073841
-0.021424 0.017462 -0.33313 0.25478 -0.0066012 0.033539 -0.0022625 0.002253
-0.00058503 0.0032994 0.0012095 0.0052127
0.0044899 -0.010352 -0.0065368 0.033564 -0.022045 0.31519 0.00074631 0.0016336
0.00040485 0.0034854 -0.001947 0.0013005
-0.0044198 -0.0016728 -0.0022538 0.0022729 0.0007397 0.0016309 -0.16891 0.24196
-0.026772 0.016199 0.012558 -0.010228
-0.0035795 0.0028214 -0.00054955 0.0033019 0.00041748 0.0034912 -0.026783 0.016276
-0.19561 0.11395 -0.015706 0.018607
0.0035794 0.00073163 0.0012202 0.0052253 -0.0019657 0.0012964 0.012554 -0.010246
-0.015715 0.018589 -0.23041 0.17732
860000000 -0.11591 0.25593 -0.015927 0.030992 -0.0038008 -0.0092996 -0.0021886 0.0012124
0.0043442 0.0046673 -0.0026751 -0.0025035
-0.015923 0.030978 -0.28585 0.29587 0.0091004 0.033017 0.000176 0.0021029
0.0042534 -2.3371e-05 0.0031786 0.00037755
-0.0038249 -0.0092977 0.0091778 0.033014 0.026141 0.32209 -0.00047451 2.0783e-05
0.0025949 -0.0012306 0.001754 0.0039848
-0.002183 0.0012157 0.00018067 0.0021143 -0.00047977 2.0011e-05 -0.13216 0.25279
-0.015323 0.020613 -0.0058243 -0.0092025
0.0043654 0.0046601 0.0042611 -3.4702e-05 0.0025887 -0.0012331 -0.015322 0.020662
-0.14373 0.15941 -0.021461 0.016528
-0.0026794 -0.0025021 0.0031734 0.00036137 0.0017578 0.0039812 -0.0058267 -0.0091965
-0.021471 0.016503 -0.18091 0.21776
920000000 -0.089276 0.27751 0.0062483 0.036786 -0.0091987 -0.0037112 -0.0014134 0.0017926
0.0015571 0.0015267 0.0026756 -0.0018072
0.0062271 0.036767 -0.25546 0.31638 0.028012 0.020199 0.0017299 0.0010314
0.0068518 -0.00059206 0.0036852 -0.0029624
-0.0092038 -0.0036933 0.028075 0.020163 0.073626 0.32205 0.0019699 -5.8323e-05
0.0014832 -0.00045503 0.00085388 -0.0010949
-0.0014185 0.0018023 0.0017437 0.0010279 0.0019712 -5.6313e-05 -0.10589 0.26827
-0.0074229 0.030832 0.0025397 -0.0061952
0.0015491 0.0015426 0.0068576 -0.00064205 0.001495 -0.00045511 -0.0073635 0.030877
-0.13013 0.16566 -0.0004068 0.025592
0.0026845 -0.001796 0.0036613 -0.0029817 0.00084883 -0.0011004 0.0025477 -0.0062015
-0.00041781 0.025578 -0.18095 0.23264
980000000 -0.042286 0.29536 0.018489 0.028432 -0.0083412 0.0047522 0.0020233 0.0031368
0.004033 -0.0018983 -0.0031712 -0.0021082
0.018464 0.028443 -0.20344 0.34856 0.032263 0.0031675 0.00201 -0.00028674
0.0016996 -0.0060941 -0.00062592 -0.002427
-0.0083351 0.0047612 0.03228 0.0031157 0.12021 0.31387 0.00052311 -0.0012915
0.00012908 -0.0022725 0.0013705 -0.00027565
0.0020318 0.0031291 0.0020192 -0.0002783 0.00051376 -0.0012923 -0.066797 0.27748
0.01089 0.028353 -0.0085016 -0.0062341
0.0040157 -0.0019085 0.0016891 -0.0061087 0.00013584 -0.0022706 0.010959 0.02836
-0.097471 0.18954 0.0060711 0.018036
-0.003179 -0.0020925 -0.00062797 -0.0024399 0.0013805 -0.00027502 -0.0085109 -0.0062259
0.0060608 0.018037 -0.13688 0.27101
1040000000 0.00089309 0.30265 0.032883 0.015857 -0.00099955 0.0066111 0.0023993 0.00048173
2.8829e-05 -0.0032871 -0.00067638 -0.0012409
0.032866 0.015892 -0.16744 0.36163 0.027571 -0.015562 0.0013839 -0.0017944
-0.0023529 -0.0024506 -0.0015367 -0.0026271
-0.00099358 0.0065939 0.027561 -0.015623 0.16671 0.29915 -0.00062316 -0.0015346
-0.0015874 -0.00095242 -0.00040574 -0.0010591
0.002391 0.00048352 0.0014016 -0.0018013 -0.00062402 -0.0015359 -0.038384 0.28641
0.020887 0.015573 -0.0025935 0.0012669
3.8268e-06 -0.0032903 -0.0023529 -0.0024545 -0.0015899 -0.00095263 0.020938 0.015541
-0.065579 0.19618 0.01358 0.015917
-0.00068265 -0.0012306 -0.0015602 -0.0026465 -0.00041116 -0.0010552 -0.0025876 0.0012678
0.013563 0.015922 -0.11175 0.29086
1100000000 0.046557 0.30865 0.034389 -0.0056751 0.0027618 0.003619 0.0021345 -0.0010412
-0.0019883 -0.002672 -0.0034521 0.0005468
0.034373 -0.0056402 -0.12373 0.37766 0.01341 -0.027336 -0.00013853 -0.0017243
-0.0032507 -0.00040279 -0.0032067 -0.0001401
0.0027649 0.0036116 0.013345 -0.027377 0.21335 0.27691 -0.0018762 0.00016149
-0.0018069 0.00050496 -0.0009245 -0.00028177
0.0021308 -0.0010517 -0.00014304 -0.0017222 -0.0018768 0.0001701 0.0030082 0.28904
0.024475 0.002451 -0.0025041 0.00028758
-0.0020017 -0.0026722 -0.003265 -0.00039235 -0.0017984 0.00050832 0.024502 0.0024164
-0.046511 0.20783 0.018101 0.0064571
-0.0034536 0.00055414 -0.0032181 -0.00013123 -0.00092873 -0.00028015 -0.0025014 0.000294
0.018099 0.0064662 -0.064732 0.31499
1160000000 0.097401 0.30235 0.02207 -0.021179 0.0023972 -0.00038891 -0.00012341 -0.0020888
-0.0038329 -0.00051543 -0.00069232 0.0037374
0.022076 -0.021131 -0.079564 0.38122 -0.004855 -0.027782 -0.0016608 -0.0015145
-0.0025544 0.0024171 -0.0013496 0.0017692
0.0023985 -0.00040049 -0.0049275 -0.027766 0.25556 0.24456 -0.00079694 0.0018063
-0.00048419 0.0019443 -0.00081331 0.00018862
-0.00012725 -0.0021011 -0.0016458 -0.0015098 -0.00079727 0.0017993 0.042315 0.28402
0.020126 -0.012386 -0.0028533 0.0044976
-0.003855 -0.00052359 -0.0025428 0.0024198 -0.00048558 0.0019597 0.020138 -0.012428
-0.012824 0.21457 0.016813 -0.0016886
-0.00068458 0.0037461 -0.0013486 0.001767 -0.00081184 0.00018949 -0.002851 0.0045132
0.016791 -0.0016863 -0.017926 0.31537
1220000000 0.14211 0.28926 0.0084537 -0.029247 -0.0014826 -0.00041932 9.1058e-05 -0.00090723
-0.0023636 0.002289 0.0012316 0.0018196
0.008472 -0.029207 -0.035336 0.39192 -0.016936 -0.019569 -0.0023869 0.00044565
0.000119 0.0028425 -0.00051954 0.0018556
-0.0014806 -0.00041762 -0.016999 -0.019524 0.29423 0.20447 0.00079351 0.0018093
0.00059344 0.0012512 0.00034205 0.00048487
8.987e-05 -0.00091287 -0.0023837 0.00045812 0.00079201 0.0018074 0.082512 0.27332
0.0092541 -0.018337 0.001636 0.0013989
-0.0023633 0.0022836 0.00013483 0.0028487 0.0005936 0.001254 0.0092462 -0.018356
0.011274 0.22128 0.011751 -0.013183
0.0012444 0.0018268 -0.00050807 0.0018587 0.00035558 0.00048718 0.0016395 0.0013937
0.011741 -0.013182 0.015364 0.32715
1280000000 0.19073 0.26553 -0.0088142 -0.026831 -0.0014434 0.0026994 -0.0010277 -0.0019503
-0.00063977 0.0028556 0.0023211 0.00083496
-0.0087862 -0.026814 0.010188 0.38203 -0.022957 -0.0074359 -0.0010202 0.0013641
0.0015766 0.0016406 0.00071643 0.0017607
-0.0014231 0.0026942 -0.022991 -0.0073657 0.32378 0.15939 0.0016337 -6.9092e-06
0.0011093 0.00025273 0.00027653 0.00015664
-0.0010284 -0.001951 -0.0010157 0.0013777 0.0016331 -1.7021e-06 0.11824 0.25419
-0.0005401 -0.019776 -0.00045826 0.00043279
-0.00063408 0.0028558 0.0015981 0.0016327 0.0011054 0.00025311 -0.00057274 -0.019791
0.047405 0.22239 0.0013443 -0.014679
0.0023194 0.00083003 0.00071374 0.0017557 0.00027616 0.00016415 -0.00045675 0.00043375
0.0013564 -0.014673 0.061175 0.32506
1340000000 0.22707 0.23065 -0.017682 -0.01719 0.0012877 0.0041686 -0.0016647 -0.00085788
0.0013995 0.0025357 0.0014749 -0.0014385
-0.017658 -0.017194 0.049433 0.37298 -0.020494 0.0047358 -0.00012886 0.0020173
0.0018646 0.00071191 0.0013027 0.00062323
0.0012936 0.0041621 -0.020488 0.0048015 0.34488 0.11122 0.0012562 -0.00097868
0.00060797 -0.00049099 8.6085e-05 0.00023377
-0.0016582 -0.00084404 -0.00013791 0.0020109 0.0012532 -0.00098102 0.14952 0.23231
-0.0097361 -0.016432 0.00063286 0.0010217
0.0014103 0.0025265 0.0018566 0.00070469 0.00061342 -0.00049225 -0.0097707 -0.016435
0.07708 0.21576 -0.004829 -0.01256
0.0014685 -0.0014305 0.001304 0.00060959 8.5341e-05 0.00023554 0.00062788 0.0010247
-0.0048194 -0.012554 0.099953 0.31724
1400000000 0.25894 0.19124 -0.022403 -0.0060943 0.0052039 0.0025825 -0.0021069 0.0005929
0.0022872 0.00076808 0.0001448 -0.001383
-0.022371 -0.0061115 0.086241 0.35933 -0.013745 0.012146 0.0013287 0.0013254
0.001185 -0.00079302 0.0010589 0.00010935
0.0051995 0.0025635 -0.013705 0.012203 0.35756 0.056998 0.0001298 -0.0018852
7.8135e-05 -0.00042418 0.00027596 0.00019301
-0.0021033 0.00059853 0.0013231 0.0013249 0.00012677 -0.001882 0.1776 0.20168
-0.015416 -0.0095807 -0.00042763 0.00032403
0.0022964 0.00076403 0.00117 -0.00080072 8.1064e-05 -0.00042074 -0.015446 -0.0095563
0.10904 0.20906 -0.010565 -0.0075576
0.00013449 -0.0013765 0.0010702 0.00010092 0.00027871 0.00018686 -0.00043139 0.00032262
-0.010564 -0.0075667 0.14299 0.30289
1460000000 0.28034 0.1467 -0.019173 0.0051416 0.0052438 -0.0021944 -0.0015593 0.0016893
0.0019064 -0.00053066 -0.00032356 -0.00087173
-0.019163 0.0051178 0.12007 0.33706 -0.0055896 0.014525 0.001755 0.00017971
0.00083206 -0.0012601 0.001075 -0.00056596
0.0052268 -0.0022176 -0.005546 0.014554 0.36207 0.0022285 -0.0014193 -0.0013812
0.00013307 -0.0002124 0.00050796 -0.00027063
-0.0015504 0.0016925 0.0017537 0.00017265 -0.0014217 -0.0013843 0.20145 0.17154
-0.016502 -0.002768 -0.00027848 0.0020557
0.0019082 -0.00053545 0.00082085 -0.0012603 0.00013007 -0.00021366 -0.016512 -0.0027352
0.13686 0.19285 -0.01141 -0.0019854
-0.00032632 -0.00086394 0.0010848 -0.00056887 0.00050272 -0.00026861 -0.00027885 0.0020636
-0.011408 -0.0019964 0.1748 0.28012
1520000000 0.29169 0.10424 -0.01348 0.010121 0.0027853 -0.0041514 0.00015666 0.0026165
0.0019342 -0.0015389 -0.0010231 -0.00010886
-0.013478 0.010101 0.15342 0.32173 0.0015037 0.012368 0.0017034 -0.0008636
2.2825e-05 -0.0011029 0.00027032 -0.00091196
0.0027733 -0.0041578 0.0015597 0.012367 0.35481 -0.054261 -0.0014121 -0.00030016
0.00054738 -0.0008629 -1.062e-05 -0.00016356
0.00015276 0.0026138 0.0017017 -0.00087275 -0.0014075 -0.00031508 0.22252 0.13345
-0.015642 0.003203 0.0018388 0.0018339
0.0019293 -0.0015505 1.8437e-05 -0.0011074 0.00054659 -0.0008656 -0.015645 0.0032406
0.16388 0.17717 -0.011118 0.0022917
-0.0010337 -0.00010914 0.00026186 -0.00091675 -3.6608e-07 -0.0001609 0.0018384 0.0018263
-0.011116 0.0022788 0.20689 0.25698
1580000000 0.29957 0.057531 -0.0072875 0.01268 -0.0012028 -0.0045082 0.0015053 0.001895
-0.0001093 -0.0020253 -0.00024465 0.00034934
-0.0072947 0.012668 0.18031 0.29632 0.0048422 0.0078418 0.0004463 -0.001697
-0.00056828 -0.0010276 -0.00018499 -0.00077627
-0.0012131 -0.0045083 0.0048753 0.0078265 0.33375 -0.11186 -0.0016475 0.00098471
-0.00034546 -0.0010285 0.00019174 -0.00047049
0.0015105 0.0018858 0.00044538 -0.0016915 -0.0016483 0.00097582 0.23417 0.094365
-0.012258 0.0082969 0.00237 0.00030392
-0.00012567 -0.0020327 -0.00057018 -0.0010286 -0.00035112 -0.0010384 -0.012247 0.0083261
0.18659 0.15751 -0.0087632 0.0072899
-0.00024113 0.00034976 -0.00018384 -0.00077236 0.00019097 -0.00047471 0.0023684 0.00030601
-0.0087652 0.0072821 0.23661 0.22829
1640000000 0.30046 0.015898 -0.0011216 0.011449 -0.0026766 -0.0022491 0.0026847 0.00088179
-0.00065971 -0.001579 -0.00022224 0.00058321
-0.0011283 0.011438 0.20943 0.27075 0.0054158 0.0034501 -0.00084749 -0.0017014
-0.0010571 -0.00033032 -0.00049558 -0.00057759
-0.0026834 -0.0022343 0.0054311 0.0034288 0.30413 -0.16056 -0.00056057 0.0016412
-0.0011176 -0.00078145 -0.00016686 -0.00024441
0.0026868 0.00087624 -0.00085852 -0.0017017 -0.00055874 0.0016376 0.24459 0.04701
-0.0079409 0.009989 0.0023422 -0.0011395
-0.00067212 -0.0015753 -0.001056 -0.0003274 -0.0011169 -0.00078173 -0.0079169 0.010017
0.20739 0.13215 -0.0042405 0.0090714
-0.000217 0.00058315 -0.00050061 -0.00057585 -0.00016668 -0.00024813 0.0023368 -0.0011489
-0.004243 0.0090647 0.26062 0.19564
1700000000 0.29181 -0.029707 0.0019191 0.0087822 -0.0032018 0.00031107 0.0029331 -0.0014283
-0.0019179 -0.00080101 0.00063775 0.00032124
0.0019054 0.0087781 0.2272 0.23879 0.003678 0.00082136 -0.0014785 -0.00048834
-0.00074998 0.00025025 -0.00083718 -0.00042255
-0.0031965 0.00031862 0.0036968 0.00080095 0.26089 -0.20024 0.00076055 0.0014702
-0.0018937 -6.1883e-05 -0.00057072 -0.00080157
0.002926 -0.0014281 -0.0014856 -0.00048499 0.0007647 0.0014765 0.24068 -0.0012573
-0.0044381 0.010866 0.0012512 -0.0022382
-0.0019218 -0.00078579 -0.000748 0.00025532 -0.0018987 -5.838e-05 -0.004425 0.010884
0.22326 0.11094 0.00016387 0.0093655
0.00064271 0.00031528 -0.00083968 -0.0004197 -0.00057189 -0.00079979 0.0012503 -0.0022328
0.000165 0.009365 0.27512 0.15992
1760000000 0.27821 -0.078056 0.00394 0.0057345 -0.0020269 0.00081703 0.0009803 -0.0034998
-0.0015387 0.00058185 0.00042989 -0.00045193
0.0039331 0.0057346 0.25237 0.19811 0.0017017 -0.0010035 -0.0011746 0.00027215
-0.00090107 0.00091967 -0.00059389 0.00044309
-0.0020174 0.00084589 0.0016976 -0.0010129 0.21165 -0.23309 0.0014032 0.00079679
-0.0010922 0.001602 -0.0012961 -0.00029632
0.00097099 -0.003505 -0.0011776 0.00027709 0.0014012 0.00079588 0.23123 -0.050701
-0.00060904 0.010274 -0.0005122 -0.0023262
-0.0015387 0.00059807 -0.0008903 0.00093277 -0.0010823 0.0016012 -0.0005829 0.010286
0.23599 0.075345 0.0037193 0.0067781
0.00042305 -0.00045619 -0.00059164 0.00044694 -0.0013029 -0.00028996 -0.00051135 -0.0023303
0.0037155 0.0067747 0.28556 0.12129
1820000000 0.2523 -0.11476 0.0040031 0.0023922 1.2452e-05 0.0021814 -0.0012578 -0.0028814
-0.0011992 0.001082 -4.4646e-05 -3.4993e-05
0.0039951 0.0024008 0.26155 0.16783 -0.0001163 -6.5864e-05 -0.0011609 0.00099057
0.00013387 0.0012308 -0.00053767 0.00055469
1.1104e-05 0.0021773 -0.00011811 -6.3572e-05 0.1611 -0.24859 0.0012672 1.8154e-05
-3.1465e-05 0.002215 -0.0012616 0.0005
-0.0012601 -0.0028731 -0.0011558 0.00099467 0.0012716 2.4468e-05 0.20219 -0.096157
0.0016432 0.0083249 -0.0014566 -0.00127
-0.0011815 0.001086 0.00012959 0.0012385 -3.9693e-05 0.0022094 0.0016584 0.0083372
0.25153 0.046071 0.0046585 0.0035463
-4.7264e-05 -3.2271e-05 -0.00053391 0.00055576 -0.0012648 0.00050503 -0.0014535 -0.0012655
0.004649 0.0035525 0.28601 0.084026
1880000000 0.21588 -0.15441 0.00183 0.00037038 -0.00049994 0.0018897 -0.0029048 -0.0018224
-0.00023369 0.0019021 0.00018993 -0.00046015
0.0018253 0.0003799 0.26517 0.12085 -0.0021704 0.0015709 -7.6728e-05 0.0016338
0.00062879 0.00098584 0.00016729 0.00088918
-0.00048893 0.0018869 -0.0021661 0.0015776 0.10843 -0.25842 0.0012554 -0.00096491
0.0016252 0.0015878 -0.00081581 0.0012053
-0.0029147 -0.0018135 -7.0925e-05 0.0016328 0.0012573 -0.00096916 0.16285 -0.13631
0.0028473 0.0057121 -0.0020913 0.00038994
-0.00022332 0.0018983 0.000638 0.0009812 0.0016203 0.0015893 0.0028608 0.0057198
0.25291 0.012872 0.0044599 0.0015056
0.00018728 -0.00046364 0.00017673 0.00088444 -0.00081809 0.0012026 -0.0020898 0.00039363
0.0044515 0.0015031 0.28386 0.049511
1940000000 0.17568 -0.17933 -0.00026522 -0.0010109 0.0012842 0.0021259 -0.0034388 0.00084227
0.0015865 0.0012553 -0.00056638 -0.00062579
-0.00025158 -0.0010098 0.26453 0.08939 -0.0011297 0.0038838 0.00094262 0.0011862
0.0016235 0.00031944 0.00085602 0.00033745
0.0012872 0.0021048 -0.0011113 0.0038927 0.061757 -0.25107 2.2365e-05 -0.0015611
0.0022216 0.00030851 0.00038776 0.0014401
-0.0034312 0.00084663 0.00094397 0.0011761 2.3335e-05 -0.0015592 0.11122 -0.16656
0.002225 0.0037662 -0.001354 0.0013034
0.0016015 0.0012461 0.0016284 0.00031664 0.0022189 0.00030635 0.0022345 0.0037667
0.25323 -0.026147 0.0033812 -0.0013602
-0.00056694 -0.00062035 0.00086062 0.00032733 0.00040308 0.0014375 -0.001354 0.0012978
0.0033766 -0.0013577 0.27093 0.013294
2000000000 0.12882 -0.19316 -0.0038581 0.00098216 0.002505 0.0016184 -0.0020744 0.0033093
0.001473 5.5445e-05 -0.00053814 0.00038579
-0.0038545 0.00098118 0.24988 0.053955 -0.00097598 0.005704 0.0014754 0.00032438
0.00104 -0.0012484 0.00049123 2.9426e-05
0.002528 0.0016164 -0.00094485 0.0057061 0.018082 -0.23611 -0.00094091 -0.00088779
0.0016891 -0.0010899 0.0016511 0.0010702
-0.0020491 0.0033113 0.0014792 0.00032184 -0.00093795 -0.000899 0.058293 -0.17747
0.00036578 0.0028684 -0.0001005 0.0020756
0.0014766 3.6839e-05 0.0010291 -0.0012637 0.0016985 -0.0010925 0.00038605 0.0028706
