!Keysight Technologies,M9804A,MY58100912,A.14.10.03
!Date: Thursday, April 27, 2023 10:28:33
!Correction: S11(C  6-Port  ) 
!S12(C  6-Port  ) 
!S13(C  6-Port  ) 
!S14(C  6-Port  ) 
!S15(C  6-Port  ) 
!S16(C  6-Port  ) 
!S21(C  6-Port  ) 
!S22(C  6-Port  ) 
!S23(C  6-Port  ) 
!S24(C  6-Port  ) 
!S25(C  6-Port  ) 
!S26(C  6-Port  ) 
!S31(C  6-Port  ) 
!S32(C  6-Port  ) 
!S33(C  6-Port  ) 
!S34(C  6-Port  ) 
!S35(C  6-Port  ) 
!S36(C  6-Port  ) 
!S41(C  6-Port  ) 
!S42(C  6-Port  ) 
!S43(C  6-Port  ) 
!S44(C  6-Port  ) 
!S45(C  6-Port  ) 
!S46(C  6-Port  ) 
!S51(C  6-Port  ) 
!S52(C  6-Port  ) 
!S53(C  6-Port  ) 
!S54(C  6-Port  ) 
!S55(C  6-Port  ) 
!S56(C  6-Port  ) 
!S61(C  6-Port  ) 
!S62(C  6-Port  ) 
!S63(C  6-Port  ) 
!S64(C  6-Port  ) 
!S65(C  6-Port  ) 
!S66(C  6-Port  ) 
!S6P File: Measurement: :
# Hz S  RI   R 50
500000000 -0.33914 -0.019063 -0.010808 -0.0032881 -0.0074217 0.012575 -0.0030468 0.01204
0.010926 0.0035567 -0.0025508 0.0084315
-0.010797 -0.0032773 -0.41886 -0.037866 0.0066585 -0.011655 0.0019754 0.012448
0.0070178 0.0021049 0.0025651 0.013824
-0.0074002 0.012579 0.0066404 -0.011654 -0.26266 0.22156 0.0072573 0.0036254
-0.00079841 0.0082015 0.0025653 0.012073
-0.0030253 0.012013 0.0019851 0.012463 0.0072585 0.0036384 -0.33108 0.060334
-0.01948 -0.0062599 0.015866 0.023778
0.01091 0.0035746 0.0069826 0.0020649 -0.00085252 0.00822 -0.019496 -0.0062355
-0.23557 -0.16789 -0.025331 0.0045124
-0.002531 0.0084666 0.002529 0.013813 0.0025596 0.012031 0.01585 0.023726
-0.025361 0.0045003 -0.28278 -0.084386
560000000 -0.31299 0.13552 -0.026736 -0.060104 0.00056396 0.011097 0.0055433 0.0097197
0.0090863 0.0043693 0.010316 0.006608
-0.026718 -0.060021 -0.37521 0.11793 -0.042592 -0.035346 0.013536 0.0036817
-0.012409 -0.0048228 0.0024147 -0.0004009
0.00057289 0.011056 -0.042642 -0.035266 -0.18004 0.2665 -0.00046426 -0.0044277
0.0199 0.0038219 0.006589 -0.0068931
0.0055914 0.0097081 0.013527 0.0036895 -0.00047264 -0.0044327 -0.30553 0.14749
0.0002945 -0.023679 0.0029481 -0.018653
0.0091009 0.0043392 -0.012368 -0.0047494 0.019838 0.0038184 0.00027276 -0.023636
-0.28669 0.0061313 0.0038569 -0.047203
0.01025 0.0066436 0.0024084 -0.0004167 0.0066346 -0.0068918 0.0029777 -0.01867
0.0038932 -0.047194 -0.32979 0.054395
620000000 -0.27056 0.12187 -0.023485 0.0073037 0.0035876 0.0081685 0.0074515 -0.0053696
0.01094 -0.0014557 0.00074501 -0.0025068
-0.023474 0.0072939 -0.40151 0.072228 -0.019589 0.00029313 -0.00084299 -0.0023662
0.0096848 -0.0063151 0.00159 -0.0026349
0.0036411 0.0081341 -0.019601 0.000313 -0.14943 0.27629 -0.0012467 -0.004586
-0.0035471 -0.0030542 0.0077859 -0.0033553
0.0074552 -0.0053892 -0.00083881 -0.0023632 -0.0012592 -0.0046009 -0.26322 0.15953
-0.039507 -0.017288 0.012064 0.023366
0.010841 -0.0014332 0.0096746 -0.0063163 -0.0034774 -0.0030463 -0.039502 -0.017207
-0.21124 -0.031881 -0.038986 0.015406
0.00076473 -0.0025164 0.0016198 -0.0026091 0.0078219 -0.0033975 0.012051 0.023388
-0.038995 0.015446 -0.2555 0.027293
680000000 -0.22808 0.20358 -0.027782 -0.012186 0.0053741 0.0045874 0.00083883 -0.0071029
-0.0030855 -0.011072 0.0038384 -0.0064824
-0.027745 -0.012193 -0.3847 0.16663 -0.032289 0.00038046 -0.0015667 -0.0003962
-0.0026064 -0.0089212 -0.0015578 -0.0021604
0.0053815 0.0045751 -0.032299 0.00043077 -0.098606 0.29394 -0.00091475 -0.00019215
-0.0016187 7.0377e-05 -0.0036382 -0.0086338
0.00082933 -0.0070975 -0.0015662 -0.00041006 -0.00091661 -0.00020523 -0.21721 0.20631
-0.02597 -0.004984 -0.0093689 -0.0083637
-0.0030831 -0.011054 -0.0026392 -0.0089017 -0.0016243 7.4165e-05 -0.026006 -0.0049617
-0.25134 0.065721 -0.006427 -0.0069831
0.003781 -0.0065077 -0.0015773 -0.0021809 -0.0036548 -0.0086635 -0.0093511 -0.0083659
-0.0064223 -0.0069884 -0.25446 0.1216
740000000 -0.18435 0.19831 -0.036853 0.026085 0.011844 -0.0059329 -0.00053097 -0.0040648
-0.0047829 -0.00255 -0.0055997 0.0028698
-0.036803 0.026041 -0.33302 0.1864 -0.032782 0.035013 -0.0010928 -0.0062308
-0.011116 0.0079575 -0.0021314 -0.0051166
0.011842 -0.0059428 -0.032756 0.035086 -0.064924 0.2936 -0.0016577 0.0030186
-0.0029185 -0.0041442 -0.001905 0.0010993
-0.00054797 -0.0040665 -0.0011103 -0.0062739 -0.0016535 0.0030114 -0.19906 0.21561
-0.042378 -0.0031908 0.022056 0.012209
-0.0047898 -0.0025648 -0.011126 0.0079577 -0.0029223 -0.0041779 -0.042418 -0.0030857
-0.15713 0.086384 -0.039464 0.0037279
-0.0055846 0.0028859 -0.0020959 -0.0050735 -0.0018788 0.0011433 0.022044 0.012193
-0.039417 0.0037388 -0.24242 0.13187
800000000 -0.1507 0.23578 -0.021442 0.017483 0.0044826 -0.010367 -0.0044389 -0.0016931
-0.0035773 0.0028195 0.0035905 0.0007624
-0.021437 0.017466 -0.33315 0.25483 -0.0066099 0.033539 -0.002285 0.002246
-0.00053472 0.0032747 0.0011951 0.0051971
0.0044709 -0.010372 -0.0065619 0.033549 -0.022018 0.31517 0.00074537 0.0016275
0.00043979 0.0034738 -0.0019536 0.0013165
-0.00444 -0.00168 -0.002277 0.0022573 0.00074253 0.0016149 -0.16892 0.24191
-0.026795 0.016277 0.012511 -0.010228
-0.0035732 0.002835 -0.00054015 0.0033105 0.00043034 0.0034937 -0.02681 0.016323
-0.19553 0.11409 -0.015728 0.018598
0.0036003 0.0007565 0.0012392 0.0052381 -0.0019421 0.0012979 0.012527 -0.010243
-0.01572 0.018581 -0.23036 0.17749
860000000 -0.11595 0.25598 -0.015905 0.030998 -0.0038043 -0.0092983 -0.0022155 0.0012192
0.0043347 0.0046941 -0.0026632 -0.0024954
-0.015907 0.030965 -0.28579 0.2959 0.009119 0.033022 0.00018521 0.0020942
0.0042707 -2.7937e-05 0.0031588 0.00039097
-0.0038275 -0.0092813 0.0091783 0.032998 0.026158 0.32208 -0.00047089 1.6669e-05
0.0025478 -0.0012496 0.0017823 0.0039935
-0.0022132 0.0012048 0.00019889 0.0021114 -0.00048088 1.7047e-05 -0.13221 0.25277
-0.015338 0.02062 -0.0058333 -0.0091432
0.0043479 0.0046778 0.0042413 -3.5971e-05 0.0025512 -0.0012357 -0.015349 0.020678
-0.14362 0.15939 -0.02147 0.016645
-0.0026772 -0.0024764 0.0031348 0.00037206 0.0017907 0.004003 -0.0058046 -0.0091699
-0.021514 0.016614 -0.18075 0.21784
920000000 -0.089253 0.27756 0.0062369 0.036781 -0.0092153 -0.0037164 -0.0014281 0.0018209
0.0015636 0.0015693 0.0027128 -0.0018055
0.0062188 0.036774 -0.25546 0.31629 0.028031 0.020187 0.0017044 0.00099379
0.0068372 -0.00062892 0.003675 -0.0028966
-0.0092206 -0.0037018 0.028084 0.020124 0.073661 0.32206 0.0019622 -4.9812e-05
0.0014953 -0.00046837 0.00080919 -0.0010714
-0.0014362 0.0018185 0.0017282 0.00099203 0.0019639 -4.7616e-05 -0.1059 0.2683
-0.0074117 0.030853 0.0025006 -0.0061558
0.0015235 0.0015583 0.0068169 -0.00069455 0.0014859 -0.00048019 -0.0073601 0.030871
-0.13007 0.16582 -0.00033205 0.025671
0.0027053 -0.0017909 0.0036282 -0.0029172 0.00079748 -0.0010904 0.0024978 -0.0061876
-0.00040744 0.025667 -0.18062 0.23275
980000000 -0.042245 0.29542 0.018516 0.028428 -0.0083387 0.004746 0.0020285 0.003136
0.0040313 -0.0018832 -0.0031795 -0.0020991
0.01848 0.02844 -0.20342 0.34859 0.032259 0.0032063 0.0020224 -0.00029616
0.0016925 -0.006086 -0.00061815 -0.0024615
-0.0083273 0.0047595 0.032292 0.0031309 0.12023 0.31385 0.00052709 -0.0012678
0.00014155 -0.0022731 0.0013616 -0.00028013
0.002031 0.0031183 0.0020254 -0.00028547 0.00051766 -0.0012703 -0.066836 0.27754
0.01092 0.028366 -0.0085152 -0.0062273
0.0040449 -0.0018773 0.0016743 -0.0061014 0.00013129 -0.0022694 0.010969 0.028337
-0.097358 0.18965 0.0060976 0.018031
-0.0031484 -0.0020906 -0.00065515 -0.0024617 0.0013739 -0.00029279 -0.0085414 -0.006236
0.0060682 0.018027 -0.13671 0.2712
1040000000 0.00098135 0.3027 0.032878 0.015842 -0.00099482 0.0065809 0.0023967 0.00049938
1.0519e-05 -0.0032984 -0.00068973 -0.0012189
0.032843 0.01588 -0.16745 0.36163 0.027591 -0.015524 0.0013886 -0.0018184
-0.0023231 -0.0024458 -0.0015316 -0.002663
-0.00099138 0.0065945 0.027556 -0.015613 0.16672 0.29913 -0.00062339 -0.001531
-0.0016022 -0.00095334 -0.00041295 -0.0010448
0.0024003 0.00048081 0.0014072 -0.0018084 -0.00062074 -0.0015306 -0.038369 0.28648
0.020908 0.015587 -0.0026162 0.0012694
1.0928e-05 -0.0032875 -0.0023519 -0.0024366 -0.001613 -0.00095918 0.020957 0.015549
-0.065505 0.19625 0.013602 0.015896
-0.00070028 -0.0012189 -0.0015553 -0.0026406 -0.00041761 -0.0010511 -0.0026171 0.0012727
0.013594 0.015885 -0.11153 0.291
1100000000 0.046612 0.30869 0.034347 -0.005699 0.0027615 0.0036046 0.0021472 -0.0010513
-0.0019932 -0.0026818 -0.0034716 0.00054306
0.034323 -0.0056598 -0.12372 0.37769 0.013408 -0.027318 -0.0001272 -0.0017337
-0.0032432 -0.00040084 -0.0032029 -0.00014773
0.0027702 0.0035988 0.013339 -0.027379 0.21337 0.27689 -0.0018733 0.00017824
-0.001798 0.00051717 -0.00092241 -0.00028424
0.0021518 -0.0010657 -0.00012697 -0.0017308 -0.0018656 0.00017191 0.0030503 0.28914
0.02448 0.0024306 -0.0024739 0.00029521
-0.0019983 -0.0026705 -0.0032539 -0.0003942 -0.0017998 0.0005109 0.024506 0.0023951
-0.046406 0.20784 0.018109 0.006437
-0.003475 0.00055427 -0.0032142 -0.00013764 -0.00091252 -0.00026839 -0.0024828 0.00029573
0.018112 0.0064443 -0.064559 0.31505
1160000000 0.097501 0.30236 0.022033 -0.021168 0.0023994 -0.0003874 -0.00013216 -0.0021064
-0.0038546 -0.0005171 -0.00070282 0.0037385
0.022043 -0.021121 -0.079558 0.38123 -0.0048463 -0.027754 -0.0016504 -0.0015229
-0.0025316 0.0024212 -0.0013336 0.0017638
0.0023931 -0.00038796 -0.0049306 -0.027764 0.25558 0.24453 -0.0007873 0.0017938
-0.00049319 0.0019524 -0.00081446 0.0001977
-0.00012258 -0.0021017 -0.0016404 -0.0015114 -0.00077997 0.0017905 0.042357 0.28408
0.02011 -0.012386 -0.0028503 0.0044889
-0.0038663 -0.00050248 -0.0025366 0.0024217 -0.00048832 0.0019468 0.020118 -0.012423
-0.012793 0.21459 0.016811 -0.0017032
-0.0006912 0.0037179 -0.0013399 0.0017581 -0.00082578 0.00019761 -0.0028326 0.0044997
0.016796 -0.0017087 -0.017743 0.31542
1220000000 0.1422 0.28922 0.0084349 -0.029233 -0.0014904 -0.00042317 7.0438e-05 -0.00090084
-0.0023765 0.0022738 0.0012258 0.0018292
0.0084549 -0.02919 -0.035329 0.39195 -0.016947 -0.019552 -0.0023818 0.00044766
0.00012213 0.0028332 -0.0005042 0.0018473
-0.001498 -0.00041578 -0.017001 -0.019514 0.29422 0.20442 0.0008089 0.0018091
0.0005845 0.0012375 0.00034259 0.00049404
8.0695e-05 -0.00091202 -0.0023702 0.00045531 0.00080545 0.0018151 0.082597 0.27337
0.0092374 -0.018342 0.0016436 0.0013791
-0.0023645 0.0022795 0.00012962 0.0028259 0.00058882 0.0012348 0.0092329 -0.018348
0.011383 0.22136 0.011705 -0.01317
0.0012376 0.0018123 -0.0005026 0.0018523 0.00035183 0.00049826 0.001653 0.0013816
0.011703 -0.013158 0.015585 0.32716
1280000000 0.19082 0.26547 -0.0088108 -0.026803 -0.0014347 0.0027098 -0.0010421 -0.0019533
-0.00063805 0.0028418 0.0023237 0.00084412
-0.0087932 -0.026788 0.010217 0.38205 -0.022961 -0.0074452 -0.0010131 0.0013719
0.0015962 0.0016305 0.00069072 0.0017529
-0.0014242 0.0027102 -0.022994 -0.007373 0.32379 0.15936 0.0016212 -1.0533e-05
0.0011022 0.00024385 0.00026167 0.00016874
-0.0010455 -0.0019489 -0.0010143 0.0013752 0.0016185 1.4709e-06 0.11836 0.25421
-0.00054228 -0.019768 -0.00045145 0.00042143
-0.0006184 0.00285 0.0016079 0.0016277 0.0010965 0.00023865 -0.00057706 -0.019779
0.047528 0.22243 0.0013399 -0.014687
0.0023212 0.00083771 0.00069717 0.0017477 0.00025659 0.00016681 -0.0004473 0.00042759
0.0013402 -0.014687 0.061356 0.32505
1340000000 0.2271 0.23054 -0.017679 -0.017176 0.0012916 0.0041776 -0.0016668 -0.00084055
0.0013929 0.0025172 0.0014785 -0.0014241
-0.017651 -0.017184 0.049418 0.37303 -0.020498 0.0047337 -0.00014128 0.002015
0.0018658 0.00070994 0.0013046 0.00061856
0.0012973 0.0041694 -0.020492 0.004808 0.34488 0.11119 0.0012473 -0.00097709
0.00061809 -0.0004959 8.9071e-05 0.00022038
-0.0016669 -0.00083503 -0.00014174 0.0020149 0.0012472 -0.00096575 0.14962 0.23229
-0.0097376 -0.016439 0.00062153 0.0010199
0.0014063 0.0025228 0.001864 0.00069309 0.00060792 -0.00050431 -0.0097774 -0.016432
0.077187 0.21587 -0.004852 -0.012562
0.0014735 -0.0014253 0.0013168 0.00062227 8.9824e-05 0.00022692 0.00062461 0.0010133
-0.0048462 -0.012556 0.10012 0.31721
1400000000 0.25892 0.19115 -0.022384 -0.0060929 0.0052038 0.0025736 -0.0020972 0.00060775
0.0022934 0.00076574 0.00013238 -0.001374
-0.022356 -0.0061072 0.086301 0.35936 -0.013746 0.012138 0.0013107 0.0013317
0.0011789 -0.00077847 0.0010583 9.4593e-05
0.0052114 0.0025587 -0.01371 0.012199 0.35756 0.057008 0.0001238 -0.0018794
6.8784e-05 -0.00041766 0.00027976 0.00019082
-0.0020928 0.00060921 0.0013151 0.0013215 0.00011566 -0.0018786 0.17772 0.20166
-0.01541 -0.0095805 -0.00043306 0.00031843
0.0022927 0.0007611 0.0011735 -0.00079321 6.6841e-05 -0.00040898 -0.015436 -0.0095506
0.1092 0.20906 -0.010573 -0.0075495
0.00013176 -0.0013802 0.0010571 0.00010143 0.00028501 0.00019753 -0.00043404 0.00031843
-0.010567 -0.0075556 0.14315 0.30283
1460000000 0.28026 0.14667 -0.019165 0.0051469 0.0052323 -0.0022046 -0.0015507 0.0016876
0.0018947 -0.00052462 -0.00031769 -0.00086672
-0.019148 0.0051222 0.12008 0.33708 -0.0055888 0.014537 0.0017485 0.00016792
0.00082307 -0.0012511 0.0010868 -0.00057573
0.0052347 -0.0022029 -0.0055373 0.014565 0.36206 0.0022027 -0.0014206 -0.001384
0.00012062 -0.00020804 0.00050536 -0.00027733
-0.0015393 0.0016864 0.0017519 0.00016285 -0.001409 -0.0013864 0.20152 0.17148
-0.016476 -0.0027644 -0.00029709 0.0020702
0.001896 -0.00053193 0.00081984 -0.0012519 0.00012251 -0.00020347 -0.0165 -0.0027296
0.13699 0.19283 -0.011436 -0.0019615
-0.00032582 -0.00085455 0.0010974 -0.00056276 0.0005101 -0.00028716 -0.00029152 0.0020639
-0.011428 -0.0019769 0.17495 0.28005
1520000000 0.29165 0.10429 -0.013482 0.010116 0.0027901 -0.0041632 0.00015283 0.0026053
0.0019344 -0.0015374 -0.001036 -0.00011074
-0.013479 0.010104 0.15347 0.32179 0.0015122 0.012372 0.0017048 -0.00086287
2.6175e-05 -0.0010996 0.00027548 -0.00092242
0.0027768 -0.0041743 0.0015697 0.012376 0.3548 -0.054261 -0.0014098 -0.00030952
0.00053226 -0.00085633 -1.0071e-05 -0.00015174
0.00015687 0.0026085 0.0016887 -0.00086371 -0.001398 -0.00031555 0.22259 0.1334
-0.015626 0.0031924 0.0018382 0.0018315
0.0019228 -0.0015512 2.6025e-05 -0.0010973 0.00053284 -0.00087162 -0.015637 0.0032247
0.16401 0.17715 -0.011124 0.0023115
-0.0010385 -0.00010744 0.00027589 -0.00091646 -8.7084e-06 -0.00014285 0.0018444 0.0018288
-0.011126 0.0023079 0.20708 0.25689
1580000000 0.2996 0.057572 -0.007281 0.01267 -0.0011987 -0.004516 0.0014936 0.0018856
-0.00010308 -0.0020322 -0.00024885 0.00035056
-0.007287 0.01267 0.18036 0.29631 0.0048387 0.0078353 0.00044439 -0.0016981
-0.00056024 -0.0010245 -0.00019013 -0.00076925
-0.0012158 -0.0045153 0.0048791 0.0078115 0.33376 -0.1119 -0.0016517 0.00098643
-0.00034833 -0.0010429 0.00018556 -0.00047676
0.0014925 0.0018866 0.00043162 -0.001699 -0.0016419 0.00098789 0.23423 0.094287
-0.012268 0.0082823 0.0023685 0.00031006
-0.00012399 -0.0020288 -0.0005701 -0.0010238 -0.00034301 -0.0010456 -0.012259 0.0083142
0.18669 0.15743 -0.0087599 0.0073062
-0.00024785 0.00035457 -0.00019506 -0.00077222 0.00017698 -0.00049717 0.0023768 0.00030012
-0.008767 0.0072961 0.2368 0.22817
1640000000 0.30051 0.015963 -0.0011087 0.011445 -0.0026804 -0.0022458 0.0026662 0.00089373
-0.00066222 -0.0015757 -0.00022029 0.00057771
-0.001125 0.011442 0.20946 0.2708 0.0054254 0.0034544 -0.0008473 -0.0017093
-0.0010546 -0.00034399 -0.0005012 -0.00057681
-0.0026849 -0.0022301 0.0054408 0.0034243 0.3041 -0.16056 -0.00055734 0.0016371
-0.0011021 -0.00078957 -0.00016262 -0.00023496
0.0026726 0.00087301 -0.00085318 -0.0017023 -0.00056494 0.0016327 0.24461 0.046917
-0.0079333 0.009973 0.002347 -0.0011321
-0.00066742 -0.0015697 -0.0010542 -0.0003299 -0.0011029 -0.00077609 -0.0079259 0.0099937
0.20749 0.13209 -0.0042222 0.009086
-0.00021204 0.00057791 -0.00049916 -0.00057494 -0.00016081 -0.00023727 0.002343 -0.0011422
-0.0042326 0.009086 0.26073 0.19553
1700000000 0.29194 -0.02972 0.0019288 0.008773 -0.003188 0.00030676 0.0029343 -0.0014158
-0.0019275 -0.00080389 0.00063225 0.00031956
0.0019109 0.0087628 0.22725 0.23878 0.0036869 0.0008124 -0.0014844 -0.00047513
-0.0007499 0.0002509 -0.00083929 -0.00042861
-0.0031889 0.00031848 0.0036873 0.00079181 0.26093 -0.20029 0.00076592 0.0014718
-0.0018936 -7.0341e-05 -0.00055832 -0.00079561
0.0029309 -0.0014188 -0.0014842 -0.00048529 0.00076692 0.0014662 0.2407 -0.001357
-0.0044505 0.010858 0.0012555 -0.0022402
-0.0019156 -0.00079115 -0.00075287 0.00025778 -0.0018919 -5.8136e-05 -0.0044398 0.010876
0.22339 0.11087 0.00018236 0.0093673
0.0006414 0.00031606 -0.00083721 -0.0004196 -0.00055636 -0.00078638 0.0012513 -0.002249
0.00017727 0.0093656 0.27522 0.15979
1760000000 0.27829 -0.078138 0.0039368 0.005714 -0.0019969 0.00080467 0.00099227 -0.0034837
-0.0015428 0.00057404 0.00043142 -0.00045398
0.003936 0.0057156 0.25239 0.19808 0.0017108 -0.00101 -0.001177 0.00026546
-0.00089936 0.00092244 -0.00058502 0.00043951
-0.0019907 0.00081962 0.0017155 -0.001014 0.21163 -0.23313 0.0014055 0.00080578
-0.0011025 0.0016004 -0.0013109 -0.00029841
0.00097904 -0.0034868 -0.0011745 0.00027987 0.0014006 0.00080089 0.23119 -0.050812
-0.00062736 0.010266 -0.00050169 -0.0023254
-0.0015324 0.00058393 -0.00089149 0.00093077 -0.0010969 0.0015959 -0.00061024 0.010275
0.23603 0.075252 0.0037281 0.0067913
0.00042879 -0.00046689 -0.00058774 0.00044334 -0.0013116 -0.00028353 -0.00051695 -0.002335
0.0037304 0.0067876 0.28565 0.12115
1820000000 0.25235 -0.1149 0.0040063 0.0023878 1.3421e-05 0.0021938 -0.0012493 -0.0028732
-0.0012008 0.0010706 -3.3839e-05 -3.7449e-05
0.0039997 0.0023843 0.26158 0.16784 -0.00012571 -6.5012e-05 -0.0011623 0.00099475
0.00012524 0.0012338 -0.00053804 0.00055753
2.1492e-05 0.0021852 -0.00011436 -7.1419e-05 0.1611 -0.2486 0.0012666 3.3214e-05
-4.0053e-05 0.0021905 -0.0012644 0.00051934
-0.0012651 -0.0028776 -0.0011595 0.0010007 0.0012636 3.3403e-05 0.20214 -0.096217
0.0016213 0.0083231 -0.0014428 -0.0012803
-0.0011979 0.0010786 0.0001271 0.001229 -4.7729e-05 0.0022024 0.0016397 0.0083333
0.25161 0.046029 0.0046564 0.0035439
-4.095e-05 -3.659e-05 -0.00053179 0.00055715 -0.0012521 0.00052842 -0.0014574 -0.0012741
0.0046592 0.0035343 0.28608 0.083861
1880000000 0.21583 -0.15457 0.0018049 0.00036618 -0.00050195 0.0018797 -0.0028935 -0.0018237
-0.00023709 0.0018982 0.00019363 -0.00045829
0.0018036 0.0003693 0.26519 0.12081 -0.0021761 0.0015626 -7.1646e-05 0.0016331
0.0006306 0.00098839 0.00015755 0.0009026
-0.00049189 0.0018829 -0.0021616 0.0015786 0.10846 -0.25843 0.0012663 -0.00096948
0.0016285 0.0015871 -0.00080834 0.0012069
-0.0029028 -0.0018057 -6.027e-05 0.0016351 0.0012626 -0.0009649 0.16277 -0.13637
0.0028511 0.0057463 -0.0020791 0.000384
-0.00022389 0.001901 0.00063653 0.00098383 0.001627 0.0015799 0.0028695 0.005737
0.25297 0.012764 0.0044612 0.0014919
0.00019325 -0.00046756 0.00016844 0.00090261 -0.00081911 0.0012111 -0.002089 0.00038771
0.0044547 0.0014849 0.28387 0.049382
1940000000 0.17555 -0.17944 -0.00026535 -0.00099978 0.001253 0.0021238 -0.0034406 0.00083341
0.0015989 0.0012609 -0.00054141 -0.00063602
-0.00026203 -0.0010111 0.26451 0.089403 -0.0011427 0.0038851 0.00093954 0.0011779
0.0016083 0.00031946 0.00085998 0.00032923
0.0012722 0.0021102 -0.0011167 0.0038876 0.061712 -0.25108 5.1909e-06 -0.001575
0.0022408 0.00031875 0.00040749 0.001443
-0.0034392 0.00084627 0.0009406 0.0011822 2.1535e-05 -0.0015699 0.11113 -0.16654
0.0022269 0.0038184 -0.0013723 0.001304
0.0016 0.0012578 0.0016178 0.0003043 0.002234 0.00031751 0.0022359 0.0038098
0.25324 -0.026205 0.003365 -0.0013822
-0.00054883 -0.0006219 0.00086306 0.00032344 0.00042083 0.0014592 -0.0013652 0.0013103
0.0033571 -0.0013741 0.27092 0.013135
2000000000 0.1287 -0.19319 -0.0038663 0.00098712 0.0025165 0.001622 -0.0020542 0.0033024
0.0014892 6.8005e-05 -0.00053454 0.00038915
-0.0038598 0.00098241 0.24994 0.053934 -0.0009477 0.005699 0.0014835 0.00033421
0.0010426 -0.0012428 0.00049626 2.9079e-05
0.002518 0.0016112 -0.00092641 0.0057115 0.018116 -0.23612 -0.00092848 -0.00088206
0.0016865 -0.0010748 0.0016711 0.001079
-0.0020383 0.0033102 0.0014902 0.00032915 -0.00092903 -0.00088748 0.058286 -0.17743
0.00039927 0.0028949 -0.00010018 0.0020861
0.001489 4.9334e-05 0.0010391 -0.001253 0.0016914 -0.0010839 0.00039858 0.0028949
0.24601 -0.060573 0.00042039 -0.0023889
