!Keysight Technologies,M9804A,MY58100912,A.14.10.03
!Date: Thursday, April 27, 2023 10:28:33
!Correction: S11(C  6-Port  ) 
!S12(C  6-Port  ) 
!S13(C  6-Port  ) 
!S14(C  6-Port  ) 
!S15(C  6-Port  ) 
!S16(C  6-Port  ) 
!S21(C  6-Port  ) 
!S22(C  6-Port  ) 
!S23(C  6-Port  ) 
!S24(C  6-Port  ) 
!S25(C  6-Port  ) 
!S26(C  6-Port  ) 
!S31(C  6-Port  ) 
!S32(C  6-Port  ) 
!S33(C  6-Port  ) 
!S34(C  6-Port  ) 
!S35(C  6-Port  ) 
!S36(C  6-Port  ) 
!S41(C  6-Port  ) 
!S42(C  6-Port  ) 
!S43(C  6-Port  ) 
!S44(C  6-Port  ) 
!S45(C  6-Port  ) 
!S46(C  6-Port  ) 
!S51(C  6-Port  ) 
!S52(C  6-Port  ) 
!S53(C  6-Port  ) 
!S54(C  6-Port  ) 
!S55(C  6-Port  ) 
!S56(C  6-Port  ) 
!S61(C  6-Port  ) 
!S62(C  6-Port  ) 
!S63(C  6-Port  ) 
!S64(C  6-Port  ) 
!S65(C  6-Port  ) 
!S66(C  6-Port  ) 
!S6P File: Measurement: :
# Hz S  RI   R 50
500000000 -0.33684 -0.039175 -0.009712 -0.0024379 -0.0076066 0.012398 -0.0042317 0.012183
0.012886 0.0042959 -0.0048341 0.0088143
-0.0097242 -0.0023591 -0.41928 -0.050951 0.0082795 -0.010529 0.0017099 0.011829
0.007738 0.0022083 0.0017316 0.01295
-0.0076203 0.012424 0.0082741 -0.01056 -0.26425 0.20909 0.0077475 0.0033919
-0.0017649 0.0076203 0.001495 0.01199
-0.0042333 0.012203 0.0017298 0.011842 0.0077602 0.0033935 -0.32991 0.043976
-0.017798 -0.0064766 0.016275 0.025739
0.012982 0.004322 0.007745 0.0021611 -0.0017594 0.0076305 -0.017792 -0.0064716
-0.22335 -0.1943 -0.024311 0.0051272
-0.0048049 0.0088223 0.0018487 0.013011 0.0015108 0.011977 0.016279 0.025809
-0.024288 0.005077 -0.26626 -0.13268
560000000 -0.3158 0.12366 -0.023831 -0.064087 0.00028628 0.011691 0.0053434 0.010608
0.010184 0.0040981 0.010857 0.0072454
-0.02385 -0.06404 -0.37882 0.10766 -0.04059 -0.038175 0.013178 0.0041291
-0.012135 -0.0051134 0.0027936 -0.00027044
0.00032914 0.011671 -0.040718 -0.038112 -0.18257 0.25723 -0.00080155 -0.0051304
0.019551 0.0047283 0.0072386 -0.0064087
0.005353 0.010549 0.013196 0.0040888 -0.00078462 -0.0051519 -0.30502 0.13268
0.0047445 -0.024203 0.004392 -0.021275
0.010214 0.0041375 -0.012095 -0.0051016 0.019561 0.0047603 0.0047456 -0.024211
-0.2881 -0.020251 0.0091659 -0.04872
0.01091 0.0072424 0.0027804 -0.00028289 0.0072226 -0.006425 0.0043507 -0.021265
0.0091966 -0.048691 -0.32875 0.016351
620000000 -0.27456 0.10663 -0.023122 0.0077901 0.0026689 0.0083361 0.0079994 -0.0053426
0.01103 -0.00011364 0.0018454 -0.0027299
-0.023115 0.0077809 -0.40245 0.059663 -0.018572 -5.4169e-05 -0.0014278 -0.0020393
0.011051 -0.0066729 0.0013708 -0.0033132
0.0026571 0.0083388 -0.0186 -4.4195e-06 -0.15343 0.26595 -0.0016299 -0.0051288
-0.0031736 -0.0027756 0.008222 -0.0035632
0.0079987 -0.0053485 -0.0014434 -0.0020409 -0.0016552 -0.0051143 -0.26511 0.14331
-0.037319 -0.018967 0.012108 0.025707
0.011071 -0.0001577 0.011075 -0.0067058 -0.0031276 -0.0027887 -0.037376 -0.018941
-0.2083 -0.058837 -0.041386 0.014087
0.0018024 -0.0027248 0.0013443 -0.0033337 0.0081609 -0.0035546 0.012063 0.025741
-0.041361 0.013987 -0.24979 -0.02127
680000000 -0.23456 0.19197 -0.027241 -0.014619 0.0050312 0.0051349 0.001222 -0.0069428
-0.003486 -0.011128 0.0043831 -0.0067744
-0.02721 -0.014622 -0.38764 0.15735 -0.032801 -0.0013762 -0.0016887 -0.00049767
-0.0023281 -0.0085309 -0.0015853 -0.0018383
0.0050382 0.0051058 -0.032832 -0.0012856 -0.10265 0.28609 -0.00072047 4.7752e-05
-0.0019877 0.00085147 -0.0030229 -0.0090871
0.0012013 -0.006968 -0.0016933 -0.00047763 -0.0007371 6.1725e-05 -0.22072 0.19365
-0.023433 -0.0082688 -0.0099974 -0.011384
-0.0034925 -0.01113 -0.0023704 -0.0085298 -0.0020118 0.00086508 -0.023453 -0.0082443
-0.2575 0.040101 -0.004938 -0.0086438
0.0044118 -0.0067832 -0.0015996 -0.0018346 -0.0029951 -0.0091002 -0.009965 -0.0114
-0.0049373 -0.0086339 -0.26125 0.086479
740000000 -0.19044 0.18663 -0.038828 0.026482 0.0126 -0.004923 -0.00025698 -0.0041506
-0.0043631 -0.002602 -0.0058687 0.002696
-0.038774 0.026448 -0.33518 0.17621 -0.035291 0.034894 -0.00064721 -0.0061822
-0.011271 0.0081507 -0.001892 -0.0062807
0.012563 -0.0049548 -0.035224 0.035051 -0.068682 0.28485 -0.0019625 0.0032675
-0.0020684 -0.0045739 -0.0016643 -4.0534e-05
-0.00028169 -0.0041608 -0.00068232 -0.0061742 -0.0019661 0.0032672 -0.20392 0.20152
-0.043206 -0.0072485 0.022511 0.014631
-0.0043937 -0.0025937 -0.01131 0.0082429 -0.0020693 -0.0046008 -0.043239 -0.0071787
-0.15966 0.065589 -0.043283 -0.00042474
-0.0058574 0.0027591 -0.0018649 -0.0063631 -0.0016382 1.3958e-05 0.022536 0.014623
-0.043315 -0.00041443 -0.24907 0.091573
800000000 -0.15762 0.2273 -0.022599 0.016806 0.0053477 -0.010498 -0.0048922 -0.0020441
-0.0039567 0.0024734 0.0047506 0.00047188
-0.022569 0.016805 -0.33818 0.24666 -0.0078401 0.033985 -0.0024046 0.0021704
-0.00029844 0.0031369 0.0010827 0.005132
0.0053135 -0.010512 -0.0077582 0.034037 -0.027929 0.308 0.001078 0.0013877
0.00041947 0.0033997 -0.0015994 0.0007841
-0.0049026 -0.0020395 -0.0023972 0.0021639 0.0010813 0.0013858 -0.17562 0.22932
-0.028757 0.013488 0.013313 -0.010044
-0.0039854 0.0025409 -0.00029067 0.0031065 0.00041507 0.0034008 -0.028758 0.01354
-0.20713 0.089035 -0.017864 0.018759
0.0047528 0.00050571 0.0011119 0.0051308 -0.001635 0.00079829 0.013305 -0.010045
-0.017894 0.01872 -0.24452 0.14132
860000000 -0.12314 0.24796 -0.017529 0.030715 -0.0033973 -0.0097687 -0.0025527 0.00097633
0.0039996 0.0048873 -0.0032633 -0.0028855
-0.017537 0.030712 -0.29044 0.2885 0.0078391 0.034087 -8.0353e-07 0.0019519
0.0042894 6.5433e-05 0.0032444 0.0007796
-0.0034292 -0.0097563 0.007955 0.034087 0.020129 0.31585 -0.00055204 -0.0003768
0.002811 -0.0015694 0.0012549 0.0043507
-0.0025558 0.00099021 3.3476e-05 0.0019691 -0.00054934 -0.00037481 -0.13926 0.24079
-0.018337 0.018403 -0.0060433 -0.0092575
0.0039905 0.0048587 0.0043284 -5.6534e-06 0.0028344 -0.0015835 -0.018317 0.01844
-0.15738 0.14024 -0.026335 0.015499
-0.0032679 -0.0028646 0.0032254 0.00081841 0.0012673 0.0043532 -0.0060405 -0.0092563
-0.026317 0.01548 -0.19281 0.18814
920000000 -0.098393 0.27099 0.0050595 0.037905 -0.0093783 -0.0042112 -0.0018396 0.0021276
0.0010175 0.0019243 0.0026436 -0.0016961
0.0050381 0.037901 -0.26142 0.30996 0.027963 0.021951 0.0013936 0.0011647
0.0068596 -0.00064444 0.0039554 -0.0027447
-0.0093917 -0.0041837 0.02805 0.021876 0.066473 0.31631 0.0017546 -6.3694e-05
0.001126 -0.00040406 0.00090853 -0.00092925
-0.0018384 0.0021177 0.0013936 0.0011651 0.0017545 -6.5827e-05 -0.11547 0.2578
-0.011076 0.030368 0.0034304 -0.0063782
0.0010107 0.0019236 0.0068836 -0.00067482 0.0011307 -0.00039823 -0.011036 0.030411
-0.14733 0.14742 -0.0032798 0.027618
0.002688 -0.0017146 0.0039535 -0.0027506 0.00090159 -0.00095631 0.0034507 -0.0063802
-0.0033139 0.027624 -0.20161 0.2016
980000000 -0.050857 0.2904 0.017512 0.030023 -0.0088298 0.0047373 0.0021723 0.0035916
0.0040466 -0.0013863 -0.0031771 -0.0022626
0.017493 0.030028 -0.20842 0.34393 0.032845 0.0048484 0.0020806 1.4676e-05
0.0013822 -0.005763 -0.00032963 -0.0024777
-0.0088239 0.0047798 0.032893 0.0047188 0.11271 0.30947 0.00050482 -0.0011195
0.0002949 -0.0020003 0.0015134 -0.00022623
0.0021811 0.0036023 0.002053 2.5621e-07 0.00050076 -0.0011174 -0.077027 0.26948
0.0076044 0.029906 -0.0090805 -0.0072281
0.0040487 -0.0013877 0.0013802 -0.0057508 0.00028464 -0.0019826 0.0076582 0.029909
-0.11675 0.17673 0.0045041 0.019516
-0.003096 -0.0023012 -0.00030333 -0.0024534 0.0015411 -0.00024006 -0.0090486 -0.0071959
0.0045025 0.019483 -0.15979 0.24737
1040000000 -0.0083689 0.29867 0.033064 0.018224 -0.0010684 0.0069103 0.0026793 0.00067383
0.00013243 -0.0037546 -0.00034577 -0.0012726
0.033037 0.018249 -0.17271 0.35665 0.029198 -0.01463 0.001509 -0.0016584
-0.0026233 -0.0022963 -0.0012992 -0.002573
-0.0010383 0.0069195 0.029155 -0.014775 0.15852 0.29565 -0.00046327 -0.0014277
-0.001601 -0.00081635 -0.00038331 -0.0011237
0.002694 0.00067846 0.001481 -0.0016649 -0.00046133 -0.0014256 -0.049495 0.27944
0.018818 0.018043 -0.0021847 0.0018002
9.1475e-05 -0.0037356 -0.0026505 -0.0023023 -0.0016291 -0.00080528 0.018859 0.018014
-0.08415 0.18551 0.012933 0.018556
-0.00033229 -0.0013023 -0.00132 -0.0025371 -0.00038593 -0.0011285 -0.002181 0.0018148
0.012936 0.018541 -0.13805 0.26742
1100000000 0.036976 0.30628 0.035687 -0.0040825 0.0030223 0.0038629 0.0023781 -0.0014132
-0.0020674 -0.0031422 -0.0038437 -2.0788e-05
0.035662 -0.0040592 -0.12935 0.37378 0.015074 -0.027412 1.7179e-05 -0.0018257
-0.0031384 -0.00068987 -0.0032922 -0.00054547
0.0030328 0.0038658 0.014975 -0.027499 0.20453 0.27546 -0.0018008 0.00022074
-0.0017066 0.00047833 -0.00092978 -0.00052033
0.0023801 -0.0014146 6.9186e-06 -0.0018263 -0.0018057 0.0002245 -0.0091384 0.28437
0.023945 0.0053237 -0.0023886 0.00025712
-0.0020769 -0.0031221 -0.0031455 -0.00067853 -0.0017042 0.00046995 0.023961 0.0052908
-0.06612 0.1997 0.018576 0.009048
-0.0038331 2.1416e-06 -0.0033052 -0.00051344 -0.00093065 -0.00048852 -0.0023975 0.00026207
0.018568 0.0090414 -0.092416 0.29764
1160000000 0.088448 0.30098 0.023901 -0.020517 0.0027719 -0.00063048 -0.00029164 -0.0024681
-0.004207 -0.00065641 -0.00094257 0.0041667
0.023904 -0.02047 -0.08565 0.37751 -0.0034852 -0.028739 -0.0016983 -0.0016461
-0.0026248 0.0024012 -0.001319 0.001879
0.0027673 -0.00064512 -0.0036187 -0.028774 0.24746 0.24482 -0.00062855 0.0016945
-0.00061109 0.001861 -0.00094023 0.00017083
-0.0002975 -0.0024628 -0.0017226 -0.0016421 -0.00063042 0.0016947 0.030256 0.28171
0.020628 -0.0096699 -0.002761 0.0053081
-0.0042246 -0.00065812 -0.0025965 0.0023971 -0.00062917 0.0018457 0.02061 -0.0097053
-0.031925 0.20944 0.017759 0.0011214
-0.00092744 0.0041506 -0.0013521 0.001846 -0.00092277 0.00016709 -0.0027491 0.0053091
0.01775 0.0011321 -0.045428 0.30062
1220000000 0.13269 0.28951 0.010517 -0.029744 -0.0015079 -0.00095965 -5.5617e-05 -0.00093615
-0.0026103 0.0024884 0.0013742 0.0019683
0.010521 -0.029707 -0.041634 0.38937 -0.016505 -0.020973 -0.0024545 0.00040676
3.048e-05 0.0028087 -0.00072476 0.0017752
-0.0015166 -0.00095164 -0.016618 -0.020924 0.28668 0.20627 0.00078492 0.0015112
0.00054161 0.0011069 0.00028001 0.00070286
-5.961e-05 -0.00093065 -0.0024624 0.00041211 0.00078238 0.0015139 0.069846 0.27322
0.010342 -0.016194 0.0025129 0.0014319
-0.0025996 0.0024964 6.5092e-05 0.0027973 0.00054832 0.0011007 0.010327 -0.016221
-0.0090775 0.21869 0.014326 -0.012021
0.0013814 0.0019664 -0.00070983 0.0017869 0.0002807 0.00070127 0.0025097 0.0014244
0.014325 -0.012026 -0.014465 0.31784
1280000000 0.18219 0.26726 -0.0075881 -0.028221 -0.0019015 0.0022663 -0.00092625 -0.0019432
-0.00072769 0.0030057 0.0024428 0.0010851
-0.0075787 -0.028201 0.0040452 0.38032 -0.023314 -0.0085853 -0.00096563 0.0013702
0.0015485 0.0016848 0.00057086 0.0020624
-0.0018865 0.002284 -0.02339 -0.0084828 0.3176 0.16252 0.0014628 -4.4687e-06
0.0010082 0.00030797 0.00043122 0.00030639
-0.0009322 -0.0019359 -0.00095479 0.0013872 0.0014563 -7.7234e-06 0.10667 0.25711
0.0014899 -0.018097 0.0002302 -6.8394e-05
-0.00071463 0.0030074 0.0015725 0.0016773 0.0010072 0.00030602 0.0014505 -0.018101
0.027673 0.22261 0.0035255 -0.01417
0.0024624 0.0010712 0.00059951 0.0020533 0.0004567 0.00031365 0.00022454 -6.1749e-05
0.0035307 -0.014149 0.033866 0.3204
1340000000 0.21897 0.23322 -0.017213 -0.019019 0.0007558 0.0043143 -0.0017076 -0.00076692
0.001477 0.0026487 0.0016586 -0.0013412
-0.017173 -0.019022 0.043194 0.37216 -0.021386 0.0038455 -0.00015116 0.0019534
0.0017616 0.00085213 0.0012288 0.00080714
0.00076758 0.004307 -0.021374 0.0039512 0.33998 0.1144 0.0010491 -0.00083206
0.00066571 -0.00038357 0.00019714 0.00031978
-0.0017077 -0.00075936 -0.0001473 0.0019474 0.0010499 -0.00082287 0.13918 0.23709
-0.0074896 -0.015715 0.0010519 0.00012337
0.0014786 0.0026376 0.0017682 0.00084261 0.0006624 -0.00039779 -0.0075268 -0.01571
0.057747 0.21809 -0.0027092 -0.012958
0.0016447 -0.001368 0.0012409 0.00079348 0.00019789 0.00032252 0.0010477 0.00012336
-0.0027093 -0.012963 0.071911 0.31642
1400000000 0.25156 0.19495 -0.023056 -0.0077645 0.0049249 0.0030687 -0.00203 0.0006045
0.0023214 0.00082121 0.00034106 -0.0013281
-0.023017 -0.0077777 0.080299 0.3593 -0.014868 0.011961 0.0012392 0.001341
0.0010943 -0.00069475 0.0012161 0.00026626
0.0049421 0.0030453 -0.014824 0.01205 0.35343 0.060495 0.00018314 -0.0014972
9.4416e-08 -0.00034844 0.00047406 0.00021968
-0.0020291 0.0006176 0.0012382 0.0013291 0.00018412 -0.0014894 0.16887 0.20868
-0.013056 -0.0096619 -0.0008085 -0.00083319
0.0023269 0.00081476 0.0010845 -0.00070074 1.8208e-06 -0.00034741 -0.013079 -0.0096398
0.090564 0.21396 -0.0089711 -0.008812
0.00033014 -0.0013247 0.0012253 0.00027742 0.00047977 0.00023048 -0.00081093 -0.00082731
-0.0089655 -0.0088256 0.11754 0.30572
1460000000 0.27392 0.15107 -0.020347 0.0042239 0.0053893 -0.0017008 -0.0016147 0.0016535
0.0020207 -0.00053377 -0.00032037 -0.00098834
-0.020322 0.0041988 0.11452 0.33771 -0.0064177 0.014951 0.0017051 0.00024426
0.0009377 -0.0011889 0.0011714 -0.00058035
0.005381 -0.0017354 -0.006355 0.014997 0.35937 0.0056417 -0.0011114 -0.0012314
0.00017905 -0.00025885 0.00053836 -0.00026707
-0.0016074 0.0016579 0.0017137 0.00023377 -0.0011176 -0.0012347 0.19556 0.17983
-0.014482 -0.0036206 -0.0011507 0.0017351
0.0020125 -0.00054445 0.00093116 -0.0011904 0.00017462 -0.00025631 -0.014496 -0.0035857
0.11969 0.19951 -0.010985 -0.0033286
-0.00032407 -0.0009617 0.0011621 -0.00058025 0.00054508 -0.00027511 -0.0011498 0.0017397
-0.010986 -0.0033423 0.15083 0.2853
1520000000 0.28581 0.10948 -0.014969 0.009885 0.003222 -0.003967 4.1733e-05 0.0026261
0.0019729 -0.0016352 -0.0010682 -0.00010231
-0.014957 0.009858 0.14821 0.32299 0.0011242 0.013029 0.001653 -0.00073768
8.886e-05 -0.0010357 0.00037958 -0.0010034
0.0031973 -0.0039816 0.0011956 0.013035 0.35229 -0.051015 -0.0010055 -0.00040504
0.0006552 -0.00078849 1.6088e-05 -0.00012823
4.5387e-05 0.0026187 0.0016477 -0.00074678 -0.00099874 -0.00040157 0.21931 0.14208
-0.014365 0.0016236 0.00108 0.0020041
0.0019685 -0.0016619 8.4082e-05 -0.0010381 0.00065894 -0.00079485 -0.014366 0.0016588
0.14728 0.18591 -0.011259 0.00077808
-0.0010666 -0.00010809 0.00037086 -0.0010163 1.1942e-05 -0.00012315 0.0010733 0.0019995
-0.011267 0.00076909 0.18465 0.26507
1580000000 0.29515 0.063671 -0.0085288 0.013185 -0.00088736 -0.0046976 0.0013737 0.0019197
-0.00025403 -0.0019934 -0.00039758 0.00040562
-0.00853 0.013179 0.17563 0.29828 0.0048365 0.0084239 0.00049625 -0.0015581
-0.00054707 -0.0010688 -0.00027285 -0.0007802
-0.00090275 -0.0047 0.0048884 0.0084069 0.33155 -0.10841 -0.0015985 0.00056601
-0.00031367 -0.001041 8.9147e-05 -0.00045502
0.0013811 0.0019158 0.00048793 -0.0015554 -0.0016026 0.00056228 0.23381 0.10273
-0.011554 0.0065193 0.0020532 0.0010339
-0.00027181 -0.0019846 -0.00055931 -0.0010597 -0.00032107 -0.0010477 -0.011554 0.0065532
0.17174 0.1685 -0.0092348 0.0065528
-0.00039629 0.00040364 -0.0002678 -0.00079025 9.9001e-05 -0.00044642 0.0020578 0.0010337
-0.0092454 0.0065594 0.21742 0.23817
1640000000 0.29732 0.022353 -0.0018213 0.012439 -0.0025358 -0.0024358 0.0027366 0.0010455
-0.00053309 -0.0014429 -0.00021757 0.00053749
-0.0018356 0.012432 0.20533 0.27307 0.0057537 0.0037395 -0.00061605 -0.0017172
-0.001021 -0.00042198 -0.00045556 -0.00070397
-0.0025602 -0.0024367 0.0057762 0.0037012 0.30292 -0.15783 -0.00068433 0.001397
-0.00095635 -0.0010362 -6.1328e-05 -0.00045756
0.0027342 0.0010303 -0.00062496 -0.001715 -0.00068257 0.0014 0.24663 0.053508
-0.0077188 0.0081442 0.0023573 -0.00059369
-0.00053636 -0.0014252 -0.0010249 -0.00040985 -0.00096132 -0.0010203 -0.0077034 0.0081673
0.19441 0.14463 -0.0050115 0.0085813
-0.00020295 0.00054738 -0.00045774 -0.00068972 -7.5756e-05 -0.00044096 0.0023545 -0.00060033
-0.0050211 0.0085718 0.24305 0.20697
1700000000 0.29001 -0.023149 0.0017556 0.0098121 -0.0032916 3.3076e-05 0.0030186 -0.0011655
-0.001902 -0.00071981 0.00066121 0.00045894
0.0017347 0.0098134 0.22345 0.24131 0.0038885 0.00094285 -0.0014498 -0.00059311
-0.00083098 9.1459e-05 -0.00089418 -0.00043276
-0.0032834 5.0844e-05 0.003898 0.00092051 0.25895 -0.19734 0.00035965 0.0016706
-0.0019045 -0.00031791 -0.00044166 -0.00079378
0.003016 -0.0011621 -0.0014572 -0.00058629 0.0003609 0.0016753 0.24367 0.0034167
-0.0051254 0.0092063 0.0014467 -0.0020557
-0.0019168 -0.00070293 -0.00082719 9.3246e-05 -0.0018981 -0.00031682 -0.0051052 0.0092267
0.21203 0.12495 -0.00049214 0.0091524
0.00066755 0.00042964 -0.00089576 -0.00043508 -0.00045799 -0.00079829 0.0014412 -0.0020519
-0.00047989 0.0091479 0.25942 0.17223
1760000000 0.27766 -0.07186 0.0043448 0.0066637 -0.0021598 0.00087016 0.0013415 -0.00337
-0.0012981 0.00059158 0.00045908 -0.0006402
0.0043287 0.0066621 0.24935 0.20116 0.0017829 -0.00087438 -0.0011755 0.00017381
-0.00096269 0.00095147 -0.00056127 0.0003939
-0.0021574 0.00086398 0.001784 -0.00088644 0.21 -0.23009 0.0011569 0.0011412
-0.0012154 0.0014388 -0.0012737 -0.00055314
0.0013314 -0.0033784 -0.0011742 0.00017859 0.0011622 0.0011406 0.23442 -0.04846
-0.0015837 0.0087804 -0.00020134 -0.0023497
-0.0012748 0.00060287 -0.00095378 0.00096298 -0.0012233 0.0014313 -0.0015673 0.0087741
0.22732 0.090093 0.0033375 0.0068655
0.00045649 -0.00062186 -0.00056589 0.00041287 -0.0012815 -0.0005381 -0.00020033 -0.0023546
0.0033449 0.0068776 0.27202 0.13457
1820000000 0.25269 -0.10926 0.004758 0.0029946 -3.2947e-05 0.0023308 -0.0009455 -0.0030529
-0.001139 0.00085135 -3.3783e-05 -0.00014307
0.004756 0.0029993 0.25906 0.17081 -6.5477e-05 8.2912e-05 -0.0013313 0.0009022
1.2193e-05 0.0013409 -0.00052624 0.00052409
-2.1858e-05 0.0023358 -7.0608e-05 8.3852e-05 0.15989 -0.24552 0.0014122 0.00042318
-0.0003907 0.0022627 -0.0013202 0.00025393
-0.00096431 -0.0030244 -0.0013323 0.00090798 0.0014209 0.00041988 0.2041 -0.095848
0.00016384 0.007216 -0.0014804 -0.0014071
-0.0011539 0.00086296 1.3986e-05 0.0013369 -0.00038965 0.0022593 0.00018583 0.0072147
0.24487 0.061164 0.0043006 0.0036902
-5.4121e-05 -0.0001613 -0.00052944 0.00052491 -0.001313 0.00025991 -0.0014813 -0.0014071
0.0042982 0.0036813 0.27438 0.098592
1880000000 0.2172 -0.1495 0.002717 0.00051956 -0.00041521 0.0019676 -0.002943 -0.0021462
-0.00031769 0.0016759 0.0002949 -0.00053596
0.0027046 0.00052872 0.26314 0.12418 -0.002088 0.0016462 -0.00022113 0.0016951
0.00064918 0.0011379 0.00010478 0.00090578
-0.00040098 0.0019651 -0.0020798 0.0016609 0.10785 -0.25495 0.0018181 -0.00098297
0.00153 0.0020498 -0.0010042 0.0012465
-0.0029524 -0.0021379 -0.00021838 0.001706 0.0018202 -0.0009664 0.16308 -0.13593
0.0010763 0.0052076 -0.0022645 0.00053017
-0.00028851 0.0016782 0.00065632 0.0011379 0.0015288 0.0020502 0.0010895 0.0052073
0.24807 0.028415 0.0045366 0.001667
0.00029015 -0.00053599 0.00011231 0.00089684 -0.0010118 0.0012527 -0.0022763 0.00054666
0.0045374 0.0016778 0.27387 0.06452
1940000000 0.1774 -0.17509 0.00046635 -0.0014255 0.0012779 0.0017894 -0.0037737 0.00052819
0.0012967 0.0010773 -0.0006425 -0.00050323
0.00047221 -0.0014161 0.26339 0.092278 -0.00089291 0.0037705 0.00099897 0.0013488
0.0018208 0.00037013 0.00082509 0.0002967
0.0012978 0.0017959 -0.00086337 0.0037859 0.061972 -0.24793 0.00041603 -0.0022262
0.0024268 0.00053 0.00020086 0.0016419
-0.0037943 0.00053866 0.0010056 0.001341 0.00042209 -0.0022225 0.11055 -0.16591
0.00025289 0.0039322 -0.0012918 0.001495
0.0013207 0.0010522 0.0018225 0.00035436 0.0024244 0.00052848 0.00026082 0.0039304
0.24997 -0.010717 0.0034959 -0.0015472
-0.00063594 -0.00048649 0.0008281 0.00028991 0.00021667 0.0016242 -0.0012939 0.0014715
0.0035196 -0.0015551 0.26301 0.028752
2000000000 0.13075 -0.18938 -0.0035254 0.00049997 0.0023138 0.0017026 -0.002303 0.0035191
0.0012225 0.0001729 -0.00068542 0.00035174
-0.0035259 0.00048696 0.24873 0.056835 -0.00089449 0.0055726 0.001637 0.0004157
0.0012297 -0.0014095 0.00051127 0.00012229
0.0023055 0.0016745 -0.00085644 0.005582 0.018679 -0.23317 -0.0012913 -0.0013142
0.0020331 -0.0011189 0.0015382 0.0012678
-0.0022914 0.0035261 0.0016546 0.00040397 -0.0012942 -0.0013089 0.057015 -0.17538
-0.0013355 0.0037052 4.0755e-05 0.0021321
0.001234 0.00018721 0.0012243 -0.0014259 0.0020354 -0.0011279 -0.0013229 0.0037111
0.2438 -0.044907 0.00044109 -0.002259
