!Keysight Technologies,M9804A,MY58100912,A.14.10.03
!Date: Thursday, April 27, 2023 10:28:33
!Correction: S11(C  6-Port  ) 
!S12(C  6-Port  ) 
!S13(C  6-Port  ) 
!S14(C  6-Port  ) 
!S15(C  6-Port  ) 
!S16(C  6-Port  ) 
!S21(C  6-Port  ) 
!S22(C  6-Port  ) 
!S23(C  6-Port  ) 
!S24(C  6-Port  ) 
!S25(C  6-Port  ) 
!S26(C  6-Port  ) 
!S31(C  6-Port  ) 
!S32(C  6-Port  ) 
!S33(C  6-Port  ) 
!S34(C  6-Port  ) 
!S35(C  6-Port  ) 
!S36(C  6-Port  ) 
!S41(C  6-Port  ) 
!S42(C  6-Port  ) 
!S43(C  6-Port  ) 
!S44(C  6-Port  ) 
!S45(C  6-Port  ) 
!S46(C  6-Port  ) 
!S51(C  6-Port  ) 
!S52(C  6-Port  ) 
!S53(C  6-Port  ) 
!S54(C  6-Port  ) 
!S55(C  6-Port  ) 
!S56(C  6-Port  ) 
!S61(C  6-Port  ) 
!S62(C  6-Port  ) 
!S63(C  6-Port  ) 
!S64(C  6-Port  ) 
!S65(C  6-Port  ) 
!S66(C  6-Port  ) 
!S6P File: Measurement: :
# Hz S  RI   R 50
500000000 -0.33674 -0.03888 -0.0095358 -0.0023356 -0.0075495 0.012462 -0.0042608 0.012381
0.012598 0.0043295 -0.0050884 0.0091657
-0.0096003 -0.0023534 -0.41919 -0.051142 0.0081974 -0.010671 0.0017535 0.011808
0.0076968 0.0025279 0.0017635 0.013152
-0.0076048 0.012444 0.0081312 -0.01067 -0.26432 0.20895 0.0078871 0.0032982
-0.0016947 0.0078809 0.0018554 0.011971
-0.0043179 0.012241 0.0018097 0.011812 0.0078986 0.0033038 -0.33005 0.044031
-0.017826 -0.0064032 0.015992 0.025865
0.012925 0.0042523 0.0077938 0.0024781 -0.0017479 0.0078953 -0.017846 -0.006374
-0.2238 -0.19485 -0.024432 0.0047724
-0.0049205 0.008936 0.0018419 0.013182 0.0018483 0.011991 0.015999 0.025853
-0.024407 0.0047601 -0.26675 -0.13237
560000000 -0.316 0.12376 -0.023759 -0.063966 0.00022128 0.011568 0.0056663 0.010695
0.010072 0.0037983 0.010809 0.0077215
-0.023605 -0.064063 -0.37862 0.10732 -0.040487 -0.037699 0.013307 0.0043674
-0.012794 -0.0044108 0.0026441 -0.00022305
0.00029027 0.01177 -0.040581 -0.037603 -0.18274 0.25696 -0.00094655 -0.004955
0.019434 0.0039947 0.0071243 -0.0063073
0.0056952 0.010606 0.013321 0.0043167 -0.00095489 -0.0049659 -0.30522 0.1322
0.0046592 -0.023938 0.0044651 -0.02171
0.010126 0.0040826 -0.012911 -0.0043074 0.019536 0.0040816 0.0045989 -0.023899
-0.28723 -0.020867 0.0097427 -0.049055
0.01076 0.0075357 0.0026988 -0.00019813 0.0070886 -0.0063506 0.0044601 -0.021761
0.0097442 -0.049042 -0.32875 0.016424
620000000 -0.27435 0.1068 -0.023175 0.0078017 0.0027385 0.0083465 0.007956 -0.0054501
0.011047 -0.00023717 0.0018668 -0.0027258
-0.023192 0.0077683 -0.40248 0.059756 -0.018548 -0.00014015 -0.0013966 -0.0021702
0.011095 -0.0064667 0.0015016 -0.0034025
0.0027808 0.0083773 -0.018561 -8.7817e-05 -0.15368 0.26586 -0.0015958 -0.005198
-0.0030987 -0.0027431 0.0083075 -0.0035746
0.0079588 -0.0053353 -0.0014027 -0.0021465 -0.0015925 -0.0052049 -0.26535 0.14344
-0.037151 -0.019209 0.012385 0.025729
0.011131 -0.00031808 0.011115 -0.0065218 -0.0030743 -0.0027424 -0.037188 -0.019201
-0.20793 -0.05848 -0.041268 0.014103
0.0019371 -0.002707 0.0015069 -0.0034075 0.0082751 -0.0035528 0.012414 0.025714
-0.041284 0.014043 -0.24953 -0.021057
680000000 -0.23448 0.19201 -0.027169 -0.01457 0.0050725 0.0051493 0.0012392 -0.0070055
-0.0035 -0.01104 0.0044213 -0.0067001
-0.027171 -0.014533 -0.38769 0.15742 -0.032896 -0.0013265 -0.0018082 -0.00039253
-0.0024015 -0.0085536 -0.0015419 -0.0018626
0.0050824 0.0051047 -0.03291 -0.0012379 -0.10262 0.28612 -0.00084362 8.603e-05
-0.0019598 0.00091678 -0.0030353 -0.0090813
0.0012114 -0.0069913 -0.0018107 -0.00039098 -0.00086483 6.1085e-05 -0.22052 0.19334
-0.023701 -0.0082168 -0.009749 -0.011478
-0.0034533 -0.011153 -0.0024328 -0.0085825 -0.0019631 0.00089772 -0.023675 -0.0081738
-0.25762 0.039449 -0.0052695 -0.0085088
0.0044168 -0.0068444 -0.0015834 -0.0018527 -0.0030427 -0.0090736 -0.0097413 -0.011473
-0.0052608 -0.0085209 -0.26053 0.086542
740000000 -0.19043 0.18666 -0.038821 0.026357 0.012775 -0.0050315 -0.00010251 -0.0040239
-0.0042419 -0.0025505 -0.0058159 0.0026988
-0.038768 0.026352 -0.33519 0.17656 -0.035537 0.034997 -0.00078381 -0.0062756
-0.011353 0.0081588 -0.001926 -0.0063238
0.012697 -0.0050214 -0.035467 0.03513 -0.06877 0.28458 -0.0019146 0.0031952
-0.0018572 -0.0045248 -0.0017231 -0.00015001
-0.00016041 -0.0040491 -0.00081719 -0.0062748 -0.0019252 0.0032021 -0.20379 0.20157
-0.043149 -0.0071602 0.022498 0.014832
-0.0043515 -0.0024976 -0.011353 0.0082585 -0.0019027 -0.0045137 -0.043165 -0.0071413
-0.16038 0.06566 -0.043063 -3.9407e-05
-0.0057964 0.0027015 -0.0019979 -0.0063572 -0.0017368 -0.00016363 0.022515 0.014795
-0.043015 -6.0324e-05 -0.24922 0.091644
800000000 -0.15762 0.22738 -0.022611 0.016773 0.0053564 -0.010521 -0.0047957 -0.0020097
-0.0039456 0.0023546 0.004698 0.00060505
-0.022638 0.016799 -0.33818 0.24672 -0.0078387 0.033956 -0.0023932 0.0022272
-0.00015443 0.0031212 0.0010606 0.0052516
0.0053245 -0.01051 -0.0077418 0.034002 -0.027874 0.30798 0.0010884 0.0014379
0.00044009 0.0034253 -0.0016331 0.00080254
-0.004853 -0.0019742 -0.0023861 0.0022316 0.0010768 0.0014372 -0.17571 0.22944
-0.028711 0.013409 0.013341 -0.0099375
-0.0040714 0.0024029 -0.00017845 0.0031355 0.00043895 0.003427 -0.028704 0.013443
-0.20716 0.089209 -0.017854 0.018737
0.0047049 0.00062665 0.0011155 0.0052474 -0.0016313 0.00079292 0.013336 -0.0099626
-0.017871 0.018716 -0.24451 0.14183
860000000 -0.1232 0.24799 -0.017479 0.030709 -0.0033695 -0.0097984 -0.0025772 0.00095197
0.0041518 0.0049062 -0.0032815 -0.0029427
-0.017477 0.030723 -0.29045 0.28864 0.0077882 0.034064 6.5871e-06 0.0020446
0.0043617 6.2631e-05 0.0030792 0.00076157
-0.0034182 -0.009764 0.0079324 0.034071 0.020164 0.31582 -0.00059214 -0.00039113
0.0027855 -0.0015377 0.0011845 0.0043341
-0.0025388 0.00096453 2.5932e-05 0.002073 -0.00058899 -0.00038445 -0.13936 0.2409
-0.018224 0.018491 -0.0061418 -0.0092964
0.0040099 0.0048968 0.0043585 0.00010173 0.002796 -0.001534 -0.018238 0.01852
-0.15759 0.14058 -0.025996 0.015126
-0.0032296 -0.0029473 0.0031214 0.00074763 0.0011902 0.0043593 -0.0061523 -0.0092931
-0.026024 0.015055 -0.19313 0.18813
920000000 -0.098398 0.27114 0.0050279 0.038032 -0.0093984 -0.0041954 -0.0018408 0.002137
0.00095106 0.0018036 0.0026118 -0.0016627
0.0049603 0.038019 -0.26144 0.31001 0.027946 0.021922 0.0014307 0.001233
0.0068267 -0.0006827 0.0038933 -0.002658
-0.0094135 -0.0041469 0.028053 0.021868 0.066445 0.3163 0.0017142 -6.0064e-05
0.0011656 -0.0003769 0.00093492 -0.00093468
-0.001833 0.0021702 0.0014424 0.0012184 0.0017128 -6.358e-05 -0.11543 0.25777
-0.011111 0.030371 0.0034169 -0.006333
0.00098758 0.0018453 0.0068775 -0.00072297 0.0011702 -0.00038256 -0.011077 0.0304
-0.14734 0.14754 -0.0030591 0.027515
0.002685 -0.0016511 0.0038811 -0.0026999 0.00094811 -0.00093587 0.0033979 -0.0063106
-0.0030899 0.02749 -0.20178 0.201
980000000 -0.050864 0.29042 0.017541 0.03006 -0.0088034 0.0047418 0.0022034 0.0035738
0.0039966 -0.0013041 -0.0032742 -0.0022602
0.017469 0.030068 -0.20842 0.34388 0.032823 0.0048165 0.002065 -1.3109e-05
0.001398 -0.0057133 -0.00042467 -0.0024462
-0.0088205 0.0047693 0.03287 0.0047176 0.1127 0.30947 0.00051414 -0.0011426
0.0002441 -0.0019768 0.0014696 -0.00018354
0.0021599 0.0035979 0.0020549 -4.8562e-05 0.00051489 -0.0011299 -0.076972 0.26945
0.0075384 0.029828 -0.0092063 -0.0072455
0.0040584 -0.0013611 0.0013491 -0.0057619 0.00025181 -0.0019969 0.007582 0.029832
-0.11664 0.17675 0.0046585 0.019554
-0.0032304 -0.0022858 -0.00042394 -0.0024324 0.0014782 -0.00018212 -0.0092401 -0.0072115
0.0046308 0.019559 -0.15943 0.24737
1040000000 -0.0084583 0.2987 0.03305 0.018191 -0.001068 0.0069666 0.0026841 0.00063741
0.00010083 -0.0037732 -0.00026397 -0.0012709
0.033043 0.018225 -0.17267 0.35666 0.029186 -0.014654 0.0014981 -0.0016474
-0.0025647 -0.0023206 -0.0013735 -0.0025613
-0.0010476 0.0069117 0.02917 -0.014761 0.15852 0.29571 -0.00043218 -0.0014404
-0.0016078 -0.00083869 -0.00034787 -0.0011294
0.0026756 0.00064122 0.0014793 -0.0016825 -0.00043561 -0.0014344 -0.049542 0.27944
0.018785 0.018009 -0.0021683 0.0017764
0.00012944 -0.0037605 -0.0026242 -0.0023286 -0.0016043 -0.00083935 0.018819 0.017995
-0.084158 0.18544 0.012936 0.01867
-0.00036206 -0.0013144 -0.001381 -0.0025661 -0.00034574 -0.0011178 -0.0021641 0.0017893
0.012931 0.018707 -0.1381 0.26731
1100000000 0.036999 0.30634 0.035683 -0.0040774 0.0030547 0.0038435 0.002374 -0.0014297
-0.0020621 -0.0031448 -0.003841 -3.8218e-05
0.035655 -0.0040479 -0.12935 0.37376 0.01508 -0.027444 3.4762e-06 -0.0018351
-0.0031615 -0.00070383 -0.003286 -0.00055845
0.0030572 0.0038217 0.014993 -0.027522 0.20459 0.27543 -0.0017796 0.00022777
-0.0016754 0.00052224 -0.00098186 -0.00054631
0.0023707 -0.0014317 -2.1858e-05 -0.001836 -0.0017947 0.00022908 -0.0091626 0.28441
0.023869 0.0053118 -0.0024369 0.00025277
-0.0021092 -0.0031529 -0.0031858 -0.00067934 -0.0016945 0.00052382 0.02389 0.0052889
-0.066222 0.19962 0.018589 0.0090356
-0.0038638 -1.1545e-05 -0.0032926 -0.00055473 -0.00098542 -0.00054031 -0.0024197 0.00027615
0.01858 0.0090625 -0.092439 0.2979
1160000000 0.088464 0.30098 0.02394 -0.020504 0.0027525 -0.00060202 -0.00027327 -0.0024646
-0.0041506 -0.00065982 -0.00090516 0.0040896
0.02393 -0.020452 -0.085671 0.37759 -0.0035067 -0.028778 -0.0017147 -0.0016368
-0.0026087 0.00241 -0.0012147 0.0018851
0.0027613 -0.0006465 -0.003629 -0.028768 0.24744 0.24488 -0.00064036 0.0016749
-0.00059783 0.0018095 -0.00093615 0.00016037
-0.00029388 -0.0024565 -0.0017219 -0.0016404 -0.00064996 0.0016757 0.030287 0.28169
0.020554 -0.0096864 -0.0028012 0.0053952
-0.0042238 -0.00063873 -0.0026173 0.0024205 -0.00060836 0.0018149 0.020562 -0.009728
-0.032046 0.20947 0.017798 0.0011489
-0.00092796 0.0041099 -0.0012224 0.0018725 -0.00093349 0.00015595 -0.0027802 0.0054063
0.017798 0.0011669 -0.045383 0.30045
1220000000 0.13276 0.28951 0.010524 -0.02975 -0.0015064 -0.00097608 -6.7152e-05 -0.00091483
-0.0025816 0.0024686 0.0013816 0.0019493
0.010517 -0.029718 -0.041627 0.38941 -0.016523 -0.020981 -0.0024688 0.00038964
7.1571e-05 0.0028209 -0.00070809 0.0017663
-0.0014964 -0.0009678 -0.016615 -0.020919 0.28671 0.20626 0.00078666 0.0015078
0.00055341 0.0011246 0.00025498 0.00069851
-8.4755e-05 -0.00090629 -0.0024683 0.00040304 0.00078252 0.0015082 0.069906 0.27324
0.010303 -0.016161 0.0024941 0.0014673
-0.0025961 0.0025075 9.5965e-05 0.0028123 0.00055547 0.0011305 0.010291 -0.016187
-0.0091859 0.21871 0.014324 -0.01201
0.0013839 0.001979 -0.00069224 0.001767 0.00025825 0.00069795 0.0024979 0.0014522
0.014322 -0.012011 -0.01444 0.31781
1280000000 0.18222 0.26725 -0.0075841 -0.028226 -0.0019038 0.0022691 -0.00092788 -0.0019468
-0.00071942 0.0029953 0.0024174 0.0010913
-0.0075727 -0.02821 0.0040143 0.38034 -0.023319 -0.0085869 -0.00094907 0.001384
0.0015766 0.0016755 0.00057741 0.0020814
-0.0018901 0.0022779 -0.023395 -0.0084874 0.31755 0.16248 0.0014734 -2.5101e-05
0.00098689 0.00032356 0.00046149 0.00031848
-0.00092111 -0.0019341 -0.00093671 0.0013892 0.0014763 -2.8479e-05 0.10667 0.25712
0.0014542 -0.01807 0.00020513 -6.917e-05
-0.00072612 0.0030082 0.0015805 0.0016781 0.00099997 0.00030826 0.0014287 -0.018087
0.027647 0.22259 0.003531 -0.01416
0.0024371 0.0010747 0.0005752 0.0020787 0.00045774 0.00032074 0.00021573 -7.7297e-05
0.0035537 -0.014176 0.033922 0.3203
1340000000 0.21898 0.23324 -0.017207 -0.019028 0.00074889 0.0042909 -0.0017236 -0.00077647
0.0014577 0.0026611 0.0017084 -0.0013409
-0.017182 -0.019036 0.04322 0.37219 -0.021354 0.0038531 -0.00015211 0.0019335
0.0017956 0.00084738 0.0012555 0.0008309
0.00076863 0.0042871 -0.021362 0.0039515 0.34003 0.11437 0.0010153 -0.00081716
0.00067054 -0.00041542 0.00018188 0.00031716
-0.0017197 -0.0007764 -0.00014136 0.0019442 0.0010278 -0.00081588 0.13919 0.23709
-0.007459 -0.01569 0.0010526 0.0001115
0.0014713 0.002645 0.0017895 0.00084408 0.00067263 -0.0004165 -0.0074941 -0.015691
0.057771 0.21806 -0.0027145 -0.012943
0.0016851 -0.0013377 0.0012635 0.00083469 0.00019108 0.00030217 0.0010555 9.421e-05
-0.0027158 -0.012965 0.072074 0.3164
1400000000 0.25157 0.19499 -0.02305 -0.007782 0.004905 0.0030678 -0.0020329 0.00058917
0.0023085 0.00084571 0.00033625 -0.0013158
-0.02302 -0.0077956 0.080319 0.35932 -0.01488 0.011965 0.0012293 0.0013234
0.00109 -0.00069923 0.0012289 0.00027696
0.0049161 0.0030363 -0.01484 0.012056 0.35343 0.060469 0.000177 -0.0014922
-5.0514e-05 -0.00033666 0.00048374 0.00023708
-0.0020019 0.00059963 0.0012461 0.0013203 0.00017922 -0.0014816 0.16889 0.2087
-0.013042 -0.0096465 -0.00080186 -0.00083584
0.0023206 0.00083509 0.0010851 -0.0007027 -3.7247e-05 -0.00036309 -0.013056 -0.0096276
0.090658 0.21401 -0.0089774 -0.0088262
0.00032689 -0.0013104 0.0012339 0.00027919 0.00048417 0.0002394 -0.0008102 -0.00085479
-0.008984 -0.008842 0.11755 0.30569
1460000000 0.27389 0.15104 -0.020331 0.0042018 0.0053962 -0.0017201 -0.001605 0.0016939
0.002011 -0.00053944 -0.00034245 -0.00099036
-0.02032 0.0041931 0.11453 0.33769 -0.0064666 0.014933 0.0017239 0.00023318
0.00093959 -0.0011637 0.0011542 -0.0005504
0.0053979 -0.0017255 -0.0063792 0.01499 0.35937 0.0056846 -0.0011468 -0.0012147
0.00017831 -0.0002719 0.00053669 -0.00026505
-0.0016094 0.0016784 0.0017301 0.00022181 -0.0011413 -0.0012273 0.19559 0.17984
-0.014433 -0.0036118 -0.0011469 0.0017314
0.0020254 -0.00054389 0.00094877 -0.0011766 0.00018181 -0.00027133 -0.01446 -0.0035901
0.11973 0.19956 -0.010948 -0.0033149
-0.00033855 -0.00099315 0.0011514 -0.00056949 0.00054584 -0.00027554 -0.0011605 0.0017186
-0.010954 -0.0033276 0.15085 0.28536
1520000000 0.28581 0.10951 -0.014976 0.0098709 0.003208 -0.0039757 5.7507e-05 0.0026257
0.0019962 -0.001636 -0.0010725 -0.00011294
-0.014968 0.0098605 0.14821 0.32298 0.00112 0.013021 0.0016409 -0.000729
8.3498e-05 -0.0010235 0.0003796 -0.00099731
0.0031827 -0.0040031 0.0012002 0.013037 0.35229 -0.051014 -0.0010076 -0.0004028
0.0006453 -0.0007682 5.282e-06 -9.1442e-05
5.3042e-05 0.0026073 0.0016448 -0.00074024 -0.0010069 -0.00039309 0.21933 0.14208
-0.014325 0.0015976 0.0010831 0.002014
0.0019868 -0.0016407 8.7575e-05 -0.0010264 0.00064698 -0.00077809 -0.014353 0.0016293
0.14736 0.18588 -0.01123 0.00077953
-0.0010855 -0.00011595 0.00037447 -0.0010076 1.2018e-05 -9.4426e-05 0.0010711 0.0020098
-0.011235 0.00076998 0.18467 0.26507
1580000000 0.29516 0.063631 -0.0085387 0.013177 -0.00086418 -0.0046853 0.001385 0.0019224
-0.00025754 -0.0019727 -0.00037547 0.00039892
-0.0085423 0.013171 0.17564 0.29826 0.0048209 0.0084282 0.00048339 -0.0015469
-0.00055059 -0.0010746 -0.00025939 -0.00079401
-0.00089592 -0.0046854 0.0048738 0.0084059 0.3315 -0.1085 -0.0016018 0.00054096
-0.0002917 -0.0010676 0.00011064 -0.00044901
0.0013794 0.001907 0.00048597 -0.0015561 -0.0016051 0.00052928 0.23384 0.1027
-0.01153 0.0064851 0.0020406 0.0010271
-0.00028938 -0.0019781 -0.00055818 -0.0010745 -0.00028352 -0.0010721 -0.011541 0.0065222
0.17183 0.16847 -0.0092695 0.0065665
-0.0003642 0.00041375 -0.00026988 -0.00079754 0.00010807 -0.00044359 0.0020339 0.0010315
-0.0092852 0.0065636 0.21744 0.23815
1640000000 0.29729 0.022359 -0.0018497 0.012436 -0.0025535 -0.0024327 0.0027428 0.0010267
-0.00053527 -0.0014415 -0.00018834 0.00054544
-0.0018619 0.01243 0.20532 0.27306 0.0057661 0.0037567 -0.00060114 -0.0017126
-0.0010199 -0.0004172 -0.0004549 -0.00068787
-0.00256 -0.0024388 0.0057861 0.0037326 0.30291 -0.1578 -0.00069076 0.0013897
-0.00095378 -0.0010461 -0.00010894 -0.00041083
0.0027438 0.0010204 -0.00061601 -0.0017118 -0.00069208 0.0013887 0.24663 0.053481
-0.0077209 0.0080887 0.0023866 -0.00061605
-0.00054625 -0.0014377 -0.0010386 -0.00041629 -0.00096422 -0.0010433 -0.0077239 0.0081231
0.19452 0.14453 -0.0049983 0.0085719
-0.00018822 0.00056439 -0.00045677 -0.00069318 -0.00012149 -0.00041288 0.0023718 -0.00061234
-0.0050221 0.0085851 0.24308 0.20703
1700000000 0.29002 -0.02314 0.0017377 0.0098381 -0.0032906 1.2719e-05 0.0030196 -0.0011887
-0.0018745 -0.00073663 0.00067388 0.00046
0.00173 0.0098298 0.22344 0.24132 0.0038923 0.00093656 -0.0014327 -0.00059233
-0.00081322 0.00010499 -0.00088888 -0.00044521
-0.003273 6.6069e-05 0.003897 0.0009209 0.25893 -0.19738 0.00038559 0.0016888
-0.0018775 -0.00027689 -0.0004118 -0.00081786
0.0030176 -0.0011827 -0.0014428 -0.00057871 0.00038779 0.0017091 0.24363 0.0033913
-0.0051656 0.0091662 0.0014676 -0.002067
-0.0018913 -0.00072476 -0.00082225 0.00010809 -0.0018935 -0.00027431 -0.0051498 0.009209
0.21204 0.12484 -0.00048856 0.0091547
0.00068494 0.00046558 -0.0008953 -0.00043187 -0.00041496 -0.00081684 0.0014647 -0.0020488
-0.00049622 0.0091692 0.25946 0.1723
1760000000 0.2777 -0.071841 0.0043412 0.0066903 -0.0021544 0.00085461 0.001332 -0.0033837
-0.0012889 0.00056443 0.00045544 -0.00062344
0.0043357 0.0066917 0.24934 0.20117 0.0017869 -0.00089225 -0.0011739 0.0001661
-0.00095435 0.00092853 -0.00056158 0.0003902
-0.0021387 0.00087088 0.0017944 -0.00088783 0.20998 -0.23005 0.0011692 0.0011309
-0.0012076 0.0013848 -0.0012564 -0.00057414
0.0013381 -0.0033866 -0.0011719 0.00018026 0.0011888 0.0011135 0.2344 -0.048481
-0.0016029 0.008769 -0.00014709 -0.0023525
-0.0012883 0.00060141 -0.00095953 0.00094429 -0.0012074 0.0014074 -0.00157 0.0087993
0.22732 0.090009 0.0033367 0.0068716
0.00046403 -0.00063263 -0.00055117 0.00039645 -0.0012636 -0.00057545 -0.00014097 -0.0023493
0.0033351 0.0068847 0.272 0.1345
1820000000 0.25273 -0.10925 0.0047678 0.0030199 -5.1449e-05 0.0023708 -0.00095643 -0.0030348
-0.0011568 0.00085403 -4.9822e-05 -0.00013305
0.0047726 0.0030105 0.25906 0.17084 -9.6052e-05 0.00010136 -0.0013463 0.00089926
1.4781e-05 0.0013184 -0.00054022 0.00052204
-3.6463e-06 0.0023804 -8.0488e-05 9.9937e-05 0.15984 -0.24551 0.0014238 0.00040874
-0.00035739 0.002257 -0.0013416 0.00025327
-0.00099196 -0.0030417 -0.0013298 0.00091811 0.0014487 0.00041709 0.20406 -0.095782
8.2185e-05 0.0072702 -0.0014836 -0.0013889
-0.0011583 0.00084752 3.1371e-05 0.0013377 -0.00035675 0.0022681 0.00012778 0.0072807
0.24474 0.061074 0.0043192 0.0036774
-6.8816e-05 -0.00016662 -0.00052373 0.00052605 -0.0013347 0.00024191 -0.0014544 -0.0013777
0.0043245 0.003695 0.27442 0.098582
1880000000 0.21726 -0.14949 0.0027314 0.00053726 -0.00046197 0.0019519 -0.0029663 -0.0021563
-0.0003309 0.0016799 0.00023943 -0.00050646
0.0027211 0.0005295 0.26318 0.12417 -0.002105 0.0016382 -0.00023647 0.0016841
0.00063249 0.0011139 0.00010795 0.0008905
-0.00043272 0.0019641 -0.0021177 0.001672 0.10775 -0.25497 0.0018147 -0.0010243
0.0014935 0.0020278 -0.00098373 0.0012006
-0.0029341 -0.0021453 -0.00020954 0.0016824 0.001833 -0.0010262 0.16306 -0.13595
0.0010882 0.0052476 -0.0022899 0.00056177
-0.00029742 0.0016958 0.0006587 0.0011212 0.0015172 0.0020202 0.0011162 0.0052422
0.24798 0.028446 0.0045067 0.001653
0.00022707 -0.00053953 0.00011787 0.00088916 -0.00097718 0.0012066 -0.0022683 0.00056094
0.0045137 0.0016547 0.27392 0.064387
1940000000 0.17737 -0.17512 0.00048784 -0.001413 0.0012636 0.0018267 -0.0037499 0.00051769
0.0012701 0.0010587 -0.00069711 -0.00052334
0.00048065 -0.0014194 0.2634 0.092277 -0.00090968 0.0037669 0.00099926 0.0013646
0.0018005 0.00038695 0.00080818 0.00030497
0.0012748 0.0017837 -0.00088716 0.003777 0.061995 -0.24801 0.00046055 -0.0022048
0.0024213 0.00055455 0.0002006 0.0016464
-0.0037556 0.00049856 0.0010233 0.0013525 0.00044068 -0.0021975 0.11062 -0.16586
0.0002592 0.0040016 -0.0013039 0.0014827
0.0013261 0.001036 0.0018225 0.00036626 0.0024114 0.00053025 0.00028644 0.0039946
0.24994 -0.010693 0.003586 -0.0015453
-0.00069525 -0.00052005 0.00080528 0.00029433 0.00019875 0.0016326 -0.0012764 0.0014869
0.003589 -0.0015483 0.26304 0.028715
2000000000 0.1308 -0.1894 -0.0034836 0.00046358 0.0023564 0.0017215 -0.0022754 0.0034952
0.0012101 0.00019558 -0.00063111 0.00034383
-0.0035047 0.00047809 0.24878 0.056832 -0.00087807 0.0055874 0.0016746 0.00044107
0.0012099 -0.0013736 0.00048176 0.00010465
0.0023573 0.0016883 -0.00084886 0.0056006 0.018728 -0.23317 -0.0012717 -0.0013262
0.0020486 -0.0011111 0.0015743 0.0012622
-0.0022697 0.0035519 0.0016814 0.00041514 -0.0012948 -0.0013329 0.057069 -0.17538
-0.00129 0.0036882 8.363e-05 0.0021097
0.0012039 0.00020325 0.0012166 -0.001405 0.0020388 -0.0011337 -0.0012919 0.0036828
0.24383 -0.044837 0.0004093 -0.0022511
