!Keysight Technologies,M9804A,MY58100912,A.14.10.03
!Date: Thursday, April 27, 2023 10:28:33
!Correction: S11(C  6-Port  ) 
!S12(C  6-Port  ) 
!S13(C  6-Port  ) 
!S14(C  6-Port  ) 
!S15(C  6-Port  ) 
!S16(C  6-Port  ) 
!S21(C  6-Port  ) 
!S22(C  6-Port  ) 
!S23(C  6-Port  ) 
!S24(C  6-Port  ) 
!S25(C  6-Port  ) 
!S26(C  6-Port  ) 
!S31(C  6-Port  ) 
!S32(C  6-Port  ) 
!S33(C  6-Port  ) 
!S34(C  6-Port  ) 
!S35(C  6-Port  ) 
!S36(C  6-Port  ) 
!S41(C  6-Port  ) 
!S42(C  6-Port  ) 
!S43(C  6-Port  ) 
!S44(C  6-Port  ) 
!S45(C  6-Port  ) 
!S46(C  6-Port  ) 
!S51(C  6-Port  ) 
!S52(C  6-Port  ) 
!S53(C  6-Port  ) 
!S54(C  6-Port  ) 
!S55(C  6-Port  ) 
!S56(C  6-Port  ) 
!S61(C  6-Port  ) 
!S62(C  6-Port  ) 
!S63(C  6-Port  ) 
!S64(C  6-Port  ) 
!S65(C  6-Port  ) 
!S66(C  6-Port  ) 
!S6P File: Measurement: :
# Hz S  RI   R 50
500000000 -0.3365 -0.038951 -0.0088553 -0.0021254 -0.0074864 0.012484 -0.004006 0.012396
0.012516 0.0054808 -0.0049899 0.0090806
-0.0092322 -0.0025745 -0.41975 -0.051688 0.0077625 -0.010945 0.0014955 0.011617
0.0080397 0.0019734 0.0023753 0.01304
-0.0075832 0.012172 0.0078349 -0.01086 -0.26444 0.20874 0.007913 0.0033797
-0.0017626 0.0069556 0.0021848 0.01191
-0.0040109 0.012058 0.0015204 0.011769 0.0079137 0.0033295 -0.33054 0.043787
-0.01798 -0.0064857 0.016497 0.026115
0.012491 0.0052207 0.0076432 0.0023094 -0.0019202 0.0070986 -0.01829 -0.0066511
-0.22514 -0.19393 -0.025348 0.0039642
-0.0045811 0.0092985 0.0019716 0.013254 0.0021729 0.011893 0.01565 0.02577
-0.025323 0.0040459 -0.26492 -0.13281
560000000 -0.31602 0.12326 -0.024405 -0.064096 0.00087617 0.011252 0.0059343 0.009544
0.010275 0.0038224 0.010506 0.0078996
-0.024223 -0.063685 -0.37696 0.10679 -0.041458 -0.037093 0.013871 0.0031653
-0.012741 -0.0047163 0.0034959 -0.0007357
0.00060633 0.011084 -0.04141 -0.037036 -0.18234 0.25656 -0.0003653 -0.0034631
0.018891 0.0047261 0.0067114 -0.0058421
0.0057157 0.010099 0.013666 0.0029544 -0.0001734 -0.0034174 -0.3053 0.13247
0.0053252 -0.022484 0.0040752 -0.021985
0.010199 0.0035559 -0.013083 -0.0045432 0.019283 0.0049385 0.0062297 -0.022341
-0.28964 -0.020179 0.0091208 -0.048442
0.010522 0.0076888 0.0031381 -0.00053506 0.0069828 -0.0062892 0.0037296 -0.022649
0.0095593 -0.04827 -0.3288 0.016018
620000000 -0.27477 0.10636 -0.02311 0.0076247 0.0027387 0.0082536 0.0080361 -0.0053319
0.011315 -0.0005054 0.0018 -0.0023871
-0.023204 0.007632 -0.40245 0.05968 -0.018863 -5.0679e-05 -0.0015202 -0.0021627
0.011568 -0.0066896 0.0016257 -0.0034778
0.00305 0.008309 -0.01877 3.3847e-05 -0.15342 0.26627 -0.0018681 -0.0050144
-0.0030362 -0.0030949 0.0074964 -0.0034669
0.007948 -0.0050334 -0.0016059 -0.0020785 -0.0017954 -0.0049812 -0.26495 0.14319
-0.038038 -0.019125 0.012257 0.025483
0.01109 -0.00084833 0.011504 -0.0064863 -0.0025399 -0.0028037 -0.037707 -0.01909
-0.20697 -0.058902 -0.041311 0.015017
0.0020102 -0.002734 0.0016886 -0.0031383 0.0079363 -0.0032538 0.012762 0.024667
-0.04129 0.014398 -0.24884 -0.022751
680000000 -0.23438 0.19194 -0.027247 -0.014494 0.004782 0.0052594 0.0011336 -0.0071961
-0.0031682 -0.01128 0.0044054 -0.0067915
-0.027164 -0.014588 -0.38774 0.15733 -0.032994 -0.0013482 -0.0016219 -0.00067341
-0.0022098 -0.0081578 -0.0014423 -0.002028
0.0049447 0.0051675 -0.032989 -0.0012455 -0.10292 0.28583 -0.00051196 -0.00017986
-0.0017004 0.0010723 -0.0027045 -0.0090714
0.0012651 -0.0073215 -0.001636 -0.00060835 -0.0005782 -0.00011109 -0.22077 0.19315
-0.023889 -0.0081928 -0.0097282 -0.011147
-0.003247 -0.011256 -0.0022925 -0.0084733 -0.0017075 0.00069587 -0.023969 -0.008629
-0.25826 0.039285 -0.0051529 -0.0086529
0.0042008 -0.0069013 -0.0014464 -0.001955 -0.0026725 -0.0090775 -0.0098122 -0.011279
-0.0050024 -0.0086805 -0.26222 0.085755
740000000 -0.19026 0.18697 -0.03846 0.026067 0.012787 -0.0049416 -0.00018907 -0.0041872
-0.0047646 -0.0027123 -0.0056321 0.0027161
-0.038489 0.026032 -0.33474 0.17661 -0.035512 0.035304 -0.00033843 -0.0061051
-0.011181 0.0079554 -0.0019424 -0.0057281
0.012703 -0.0049949 -0.035491 0.035419 -0.069023 0.28456 -0.001712 0.0035953
-0.0023502 -0.004488 -0.0019003 0.00032095
-0.0002271 -0.0042409 -0.00032437 -0.0061056 -0.0017264 0.0036403 -0.20384 0.20123
-0.04326 -0.0077835 0.022454 0.014916
-0.0046366 -0.0024291 -0.011017 0.0080344 -0.0022586 -0.0043387 -0.043192 -0.0075334
-0.1592 0.066129 -0.043037 -0.0011583
-0.0058535 0.0026699 -0.0025096 -0.0061831 -0.0015782 0.00011595 0.022009 0.014907
-0.043257 -0.00078294 -0.24953 0.091482
800000000 -0.15779 0.22745 -0.022686 0.016631 0.0054734 -0.010598 -0.0048388 -0.0020495
-0.0040991 0.0023134 0.0045944 0.00027023
-0.022726 0.016664 -0.33797 0.24653 -0.0077284 0.034034 -0.002374 0.0021409
-0.00017788 0.0031562 0.0011954 0.0049889
0.0053745 -0.010503 -0.0076334 0.034079 -0.027881 0.30791 0.0010861 0.0014339
0.00037796 0.0034104 -0.0017418 0.00078088
-0.0048517 -0.0020786 -0.0023387 0.0021198 0.0011002 0.0014305 -0.17566 0.22941
-0.028624 0.013465 0.013585 -0.010107
-0.004135 0.0024263 -0.00020921 0.0030272 0.00037685 0.003582 -0.028629 0.013477
-0.20719 0.088458 -0.017402 0.018465
0.0046528 0.00053762 0.0011939 0.0051724 -0.0017576 0.00090306 0.013395 -0.010086
-0.017353 0.018408 -0.2445 0.14105
860000000 -0.12323 0.24789 -0.017482 0.030831 -0.003453 -0.009701 -0.0026324 0.00098308
0.0040208 0.0049509 -0.0029958 -0.0029877
-0.017462 0.030732 -0.29054 0.28859 0.0077695 0.034092 3.259e-05 0.0019878
0.0042263 -0.00010064 0.0030034 0.00079089
-0.0034103 -0.009711 0.0079125 0.034146 0.020061 0.31589 -0.00066177 -0.00035601
0.0027961 -0.0016722 0.0013235 0.0044601
-0.0025247 0.0010898 0.0001009 0.0021344 -0.00064508 -0.00034651 -0.13958 0.24081
-0.018359 0.018162 -0.0060933 -0.0091434
0.0040036 0.0050432 0.0042568 4.6021e-05 0.0026659 -0.0017543 -0.018256 0.018349
-0.15666 0.14004 -0.026483 0.015096
-0.0031685 -0.0032515 0.0029146 0.00051023 0.0013295 0.0043736 -0.0058353 -0.009491
-0.026313 0.015679 -0.19262 0.1873
920000000 -0.098495 0.27097 0.0050536 0.037929 -0.0093481 -0.0043474 -0.001877 0.0021546
0.001082 0.0017059 0.0026511 -0.0014962
0.0051314 0.037895 -0.26131 0.30965 0.028092 0.022032 0.001431 0.0012607
0.0068059 -0.00058871 0.0037639 -0.0025496
-0.0093833 -0.0042727 0.028213 0.021944 0.066449 0.31629 0.0018334 -1.9555e-05
0.0010709 -0.00043745 0.0008841 -0.00098353
-0.0018122 0.0020774 0.0015001 0.0012282 0.0018235 -2.6851e-05 -0.11554 0.2579
-0.011118 0.030164 0.0033112 -0.0063793
0.0010651 0.0019467 0.0069475 -0.00057005 0.0011306 -0.00039372 -0.011088 0.030386
-0.14739 0.14692 -0.0031024 0.027408
0.0026915 -0.0015846 0.0037122 -0.0025705 0.00076511 -0.00099811 0.0035833 -0.0062358
-0.0033771 0.027556 -0.20171 0.20104
980000000 -0.050952 0.29024 0.017535 0.030126 -0.0088346 0.0046332 0.0022091 0.0035135
0.0040008 -0.0013593 -0.0031398 -0.0021353
0.017474 0.030062 -0.20859 0.34368 0.032936 0.0048012 0.0020976 -0.00011752
0.0012931 -0.0056439 -0.00030255 -0.0024591
-0.0088149 0.0047317 0.032972 0.0046781 0.11269 0.30959 0.00054028 -0.0011672
0.00030487 -0.001975 0.0015436 -0.00027678
0.0022532 0.0035147 0.0021021 -0.0001273 0.00054134 -0.0011808 -0.077111 0.26941
0.007479 0.029901 -0.0090125 -0.0071981
0.0039438 -0.0013078 0.0011752 -0.0057083 0.00026575 -0.0020008 0.0075973 0.029941
-0.11662 0.17644 0.0043124 0.019545
-0.0031289 -0.0021278 -0.00039154 -0.0022299 0.0014486 -0.00022289 -0.0091688 -0.0072385
0.0045901 0.019422 -0.15996 0.24729
1040000000 -0.0084869 0.29876 0.03307 0.018167 -0.0011195 0.006993 0.0026776 0.00071787
1.464e-06 -0.0037222 -0.0003306 -0.0012315
0.033038 0.018202 -0.17268 0.35667 0.029193 -0.014651 0.0014176 -0.0016076
-0.0025495 -0.002366 -0.0014163 -0.0025942
-0.0010259 0.0069385 0.029147 -0.014781 0.1585 0.29579 -0.00047352 -0.0014494
-0.0016481 -0.00084967 -0.00033267 -0.0011528
0.0026313 0.00074776 0.0014854 -0.0016376 -0.00047787 -0.0014501 -0.049564 0.27943
0.018935 0.017923 -0.0021959 0.0018935
-3.1486e-05 -0.0036611 -0.0025238 -0.002467 -0.0016116 -0.00086836 0.018845 0.017864
-0.083673 0.18483 0.013107 0.018897
-0.00032948 -0.0013968 -0.0014718 -0.0026423 -0.00025852 -0.0010638 -0.0020847 0.0017795
0.012944 0.018884 -0.13859 0.26712
1100000000 0.036904 0.3063 0.035735 -0.0041129 0.0030306 0.0037694 0.0024036 -0.00139
-0.0021001 -0.0031621 -0.00386 -0.00014754
0.035704 -0.0040324 -0.12934 0.37366 0.015013 -0.027495 -1.7464e-05 -0.0017834
-0.0031623 -0.0006249 -0.0033486 -0.00068319
0.0030213 0.0037536 0.01492 -0.027596 0.20462 0.27544 -0.0017644 0.0001892
-0.00172 0.00052278 -0.0010766 -0.00046481
0.0023751 -0.0014518 6.31e-06 -0.001793 -0.0017828 0.00019629 -0.0092721 0.28444
0.023895 0.0053607 -0.0023297 0.00017277
-0.0021913 -0.0030887 -0.0032013 -0.00060186 -0.0017091 0.00046229 0.023863 0.0053459
-0.066543 0.19931 0.018822 0.009176
-0.0039029 5.3301e-05 -0.0033286 -0.00054616 -0.00097787 -0.00049746 -0.002413 0.00012451
0.018811 0.0090979 -0.09262 0.29792
1160000000 0.08839 0.30101 0.023945 -0.020515 0.0027558 -0.00060499 -0.00027403 -0.0024598
-0.0041266 -0.0006077 -0.00099581 0.0040615
0.023984 -0.020538 -0.085732 0.37747 -0.0034902 -0.02878 -0.001668 -0.0016485
-0.0026613 0.0024628 -0.0012803 0.0018616
0.0027469 -0.00064841 -0.0036276 -0.028802 0.24745 0.2447 -0.00068098 0.0016098
-0.0005532 0.0019367 -0.00093635 0.00024453
-0.00025042 -0.0024399 -0.0016942 -0.0016802 -0.0006693 0.0016515 0.030212 0.28171
0.020528 -0.0096561 -0.0028205 0.0053384
-0.0042109 -0.00062672 -0.0026588 0.0024634 -0.00053617 0.0019032 0.02058 -0.0096584
-0.032468 0.20923 0.017978 0.00087584
-0.00093112 0.0042143 -0.0013552 0.0018401 -0.00093581 0.00018864 -0.0027853 0.0053201
0.018047 0.0011307 -0.045504 0.30027
1220000000 0.13267 0.28957 0.010515 -0.02983 -0.0014962 -0.00099922 -8.5205e-05 -0.000902
-0.0025999 0.0024818 0.0014125 0.0019925
0.01056 -0.029766 -0.041639 0.38931 -0.016473 -0.021008 -0.002499 0.00041519
8.4238e-06 0.0027801 -0.00074172 0.0017556
-0.0015486 -0.00094092 -0.016634 -0.020953 0.28655 0.20614 0.00079293 0.0015152
0.00049729 0.0011167 0.00037948 0.00069178
-0.00010262 -0.00094176 -0.002475 0.00042024 0.00080667 0.0015652 0.069801 0.27325
0.010389 -0.01614 0.0024336 0.0014345
-0.0025644 0.0025621 7.0576e-05 0.0028106 0.00053661 0.0011321 0.010345 -0.016125
-0.0094753 0.21864 0.014332 -0.012165
0.0014382 0.0019903 -0.00074002 0.0017539 0.00025916 0.00071383 0.00243 0.0014848
0.014408 -0.012122 -0.014757 0.31768
1280000000 0.1821 0.26724 -0.0075652 -0.028286 -0.0019125 0.0022364 -0.00094358 -0.001913
-0.00073338 0.0030232 0.002396 0.001083
-0.0075627 -0.028241 0.0039392 0.3803 -0.023295 -0.0086072 -0.00097662 0.0014023
0.0015674 0.0016787 0.00055965 0.0020414
-0.0019383 0.0022474 -0.023381 -0.0085163 0.31737 0.16253 0.0014769 5.5146e-05
0.00098678 0.00036477 0.00036001 0.00020889
-0.00094251 -0.0019645 -0.00097374 0.0014083 0.0014898 5.3605e-05 0.10663 0.25713
0.0015283 -0.018094 0.00013177 -8.9873e-05
-0.00070315 0.0030383 0.0015559 0.0016864 0.0010453 0.00036692 0.0015113 -0.018114
0.027214 0.22262 0.0035338 -0.014315
0.0024158 0.0011234 0.00053177 0.0020599 0.00037505 0.00030402 0.00024478 -9.4148e-05
0.0035066 -0.014266 0.033389 0.32016
1340000000 0.21893 0.23322 -0.017244 -0.019065 0.00079265 0.0043905 -0.0016734 -0.00080221
0.001416 0.0026604 0.001722 -0.0014125
-0.017208 -0.019072 0.043187 0.37219 -0.021429 0.0037914 -0.00018005 0.0019875
0.0017705 0.00083713 0.0012771 0.00078353
0.00080232 0.0043637 -0.021469 0.0039287 0.33989 0.11466 0.0010537 -0.00075391
0.00065487 -0.00036107 0.00018408 0.00020443
-0.0016774 -0.00076862 -0.00015596 0.0019861 0.0010449 -0.00080546 0.1391 0.23706
-0.0073463 -0.01572 0.0010627 0.0001973
0.001444 0.0026224 0.0017903 0.00081301 0.00076404 -0.00031203 -0.0074134 -0.015689
0.057488 0.21809 -0.0029133 -0.013016
0.0016402 -0.0013579 0.0012349 0.00075542 0.00021936 0.00029798 0.0010726 0.00021502
-0.0029059 -0.012995 0.071508 0.31619
1400000000 0.25154 0.19497 -0.023135 -0.0078097 0.00486 0.0029911 -0.0020022 0.00057055
0.0023674 0.00084532 0.00034382 -0.0012671
-0.023093 -0.0077956 0.080261 0.35932 -0.014908 0.011971 0.0012474 0.0013458
0.0011083 -0.00068731 0.0012196 0.00031293
0.0049226 0.0030429 -0.014868 0.012089 0.35338 0.060592 0.0002126 -0.0015139
4.5997e-05 -0.0003612 0.00038216 0.00022316
-0.0020157 0.00056106 0.0012592 0.0013247 0.00015354 -0.0014989 0.16881 0.2087
-0.013022 -0.009708 -0.00085862 -0.00079702
0.0023638 0.00079092 0.0011199 -0.00072188 1.0164e-05 -0.00041508 -0.013049 -0.0097005
0.090042 0.214 -0.0091693 -0.0089567
0.00032752 -0.0013162 0.001255 0.00029677 0.00036659 0.00025437 -0.0008581 -0.00084124
-0.0091394 -0.0089794 0.11704 0.30572
1460000000 0.27385 0.15108 -0.020419 0.0042275 0.0052627 -0.0016372 -0.0016359 0.0016894
0.0020504 -0.00049359 -0.00039954 -0.0010808
-0.020394 0.0042276 0.11447 0.33777 -0.0064825 0.014994 0.0016951 0.00023448
0.00091233 -0.0011966 0.0011872 -0.00063739
0.0054083 -0.0016848 -0.0063817 0.015044 0.35948 0.0058512 -0.0011198 -0.0011994
0.00018751 -0.00035089 0.0005069 -0.00028654
-0.0016039 0.0016961 0.0016842 0.00023392 -0.001106 -0.0011654 0.19551 0.17989
-0.014446 -0.003697 -0.0010502 0.0018151
0.0020268 -0.00057434 0.00089351 -0.0012222 0.00019998 -0.00030947 -0.014443 -0.0036581
0.11943 0.19959 -0.011226 -0.0032805
-0.00036298 -0.00097086 0.0011521 -0.00063793 0.00049886 -0.00035517 -0.0010834 0.0018232
-0.011232 -0.0033018 0.15028 0.28519
1520000000 0.28567 0.10958 -0.015034 0.0099493 0.0031957 -0.0038745 8.249e-05 0.0026021
0.0019749 -0.0016681 -0.0010923 -0.0001255
-0.015022 0.0099147 0.14814 0.32301 0.0011272 0.013073 0.0016498 -0.00072562
9.2996e-05 -0.0010389 0.00034184 -0.0010027
0.0030959 -0.0039657 0.0012345 0.013087 0.35228 -0.051163 -0.001064 -0.00036127
0.00062136 -0.00078434 -5.7496e-05 -8.5482e-05
8.2733e-05 0.0026132 0.001658 -0.00073626 -0.0010379 -0.00034526 0.21923 0.14208
-0.014394 0.0015215 0.0011194 0.001977
0.0019692 -0.0016117 6.2154e-05 -0.0010219 0.00056088 -0.00078099 -0.014386 0.0015688
0.14714 0.186 -0.011409 0.00089676
-0.0011179 -8.5578e-05 0.00034573 -0.00099374 -8.4402e-05 -0.00012826 0.0011309 0.0019953
-0.011398 0.0008959 0.18412 0.26522
1580000000 0.29507 0.063699 -0.008519 0.013258 -0.0008484 -0.004794 0.0013666 0.0019201
-0.0002346 -0.0019918 -0.00042911 0.00041433
-0.008547 0.013239 0.17561 0.29828 0.0048697 0.0084277 0.00052514 -0.0015678
-0.00055292 -0.0010388 -0.00027872 -0.00080507
-0.00091262 -0.004674 0.0048951 0.0084173 0.33155 -0.1085 -0.0016149 0.00056217
-0.00032578 -0.0011195 0.00010625 -0.00042511
0.0013699 0.0019009 0.00051124 -0.0015844 -0.0015838 0.00054609 0.23374 0.10282
-0.011628 0.00651 0.0020409 0.00098038
-0.00030018 -0.0020525 -0.00051808 -0.0010906 -0.00024038 -0.0010481 -0.011591 0.0065354
0.17145 0.16866 -0.0093214 0.0068073
-0.00042116 0.00040427 -0.00026736 -0.00078517 0.00010991 -0.00042678 0.0020581 0.00097728
-0.0093198 0.0067805 0.217 0.23838
1640000000 0.29722 0.022471 -0.0017796 0.012496 -0.0024744 -0.0024613 0.002683 0.0010228
-0.00061396 -0.0014905 -0.00019612 0.00054591
-0.0017848 0.012477 0.20528 0.27311 0.0058192 0.0038435 -0.000627 -0.0017305
-0.0010296 -0.00045562 -0.00044963 -0.00066185
-0.0025197 -0.0024849 0.0059139 0.0037387 0.30287 -0.15758 -0.00069371 0.0013879
-0.00090835 -0.0010631 -0.0001779 -0.00035099
0.0027312 0.0010168 -0.00064779 -0.0017182 -0.0007012 0.0013812 0.24657 0.053611
-0.0077879 0.0081172 0.002355 -0.00059913
-0.00056987 -0.0014079 -0.0010627 -0.00042028 -0.0009195 -0.0010436 -0.007776 0.0081357
0.19424 0.14467 -0.0050133 0.0088258
-0.00021929 0.00056518 -0.00046916 -0.00068814 -7.5112e-05 -0.00039692 0.0023677 -0.00063701
-0.0050105 0.0088221 0.24261 0.20729
1700000000 0.28997 -0.023017 0.0018 0.0098783 -0.0033106 4.9898e-05 0.003032 -0.0011366
-0.0019078 -0.00067957 0.00068761 0.00037834
0.0017896 0.0098596 0.22341 0.24139 0.0039446 0.00096 -0.0014695 -0.00058831
-0.00082108 9.3355e-05 -0.00085709 -0.0004117
-0.0033185 0.00012009 0.0039369 0.00090135 0.25887 -0.19719 0.000354 0.0016599
-0.0018972 -0.00031739 -0.00049497 -0.00065382
0.0029735 -0.0011859 -0.0014681 -0.00057919 0.0003429 0.0016297 0.24364 0.0035321
-0.0051234 0.009254 0.0014385 -0.00207
-0.0019179 -0.00076248 -0.00081772 0.00010682 -0.0018811 -0.00034797 -0.0051431 0.0092927
0.21177 0.12506 -0.00032746 0.0093033
0.00070995 0.00043798 -0.00088758 -0.00041522 -0.00047499 -0.00073264 0.0013759 -0.0020707
-0.00036347 0.0092868 0.25906 0.17276
1760000000 0.27768 -0.071709 0.0044086 0.0066782 -0.0022821 0.0007649 0.0013333 -0.0033633
-0.001262 0.0005887 0.00040659 -0.00068995
0.0043837 0.0066911 0.24931 0.20123 0.0018757 -0.0010623 -0.0011863 0.00013061
-0.00098112 0.00094579 -0.00050891 0.00034738
-0.0022056 0.00095347 0.0017543 -0.0010066 0.21022 -0.23032 0.0011539 0.0011091
-0.0012456 0.0013837 -0.0010232 -0.00048248
0.0013342 -0.0034058 -0.0011791 0.00015097 0.0011842 0.0011328 0.23446 -0.048365
-0.0015681 0.0088408 -0.00021529 -0.0023832
-0.0012814 0.00060065 -0.00095182 0.00096011 -0.0011731 0.0013754 -0.0015294 0.0088677
0.22717 0.090318 0.0035196 0.0069821
0.00049563 -0.00068882 -0.00054036 0.00041393 -0.0011817 -0.00057778 -0.00021274 -0.0023184
0.0034845 0.0069827 0.27182 0.13512
1820000000 0.25278 -0.10906 0.0048177 0.0029792 -0.00019545 0.0025 -0.00092863 -0.0030522
-0.001093 0.00089612 -0.00018396 -0.00014322
0.0047789 0.0030039 0.2591 0.17089 -0.00015884 3.7457e-05 -0.0013017 0.0009419
1.0089e-05 0.0013515 -0.00056895 0.00045769
-1.8797e-05 0.002278 -3.2022e-05 6.0006e-05 0.15992 -0.24544 0.0013949 0.00049641
-0.0004262 0.0023362 -0.0013196 0.00026643
-0.00091921 -0.003029 -0.0013083 0.0009208 0.0013227 0.00047902 0.20408 -0.09582
0.00017865 0.0072286 -0.0015524 -0.0013945
-0.0011385 0.00087713 4.7103e-05 0.0013334 -0.00041016 0.0022664 0.00018495 0.0072478
0.24466 0.061377 0.0044304 0.0036763
-5.8408e-05 -0.00010713 -0.00055505 0.00052878 -0.0013669 0.00036699 -0.0014904 -0.0013346
0.0044131 0.0037078 0.27411 0.099182
1880000000 0.21724 -0.14945 0.0027801 0.00049924 -0.00019969 0.0020357 -0.0029107 -0.0021918
-0.00026292 0.0016868 0.00024366 -0.00033412
0.0027656 0.00047017 0.2632 0.1242 -0.0021142 0.001667 -0.0001666 0.0016853
0.00067506 0.0011512 2.3481e-05 0.00091857
-0.00033956 0.001956 -0.0020871 0.0016318 0.10753 -0.25463 0.0019195 -0.00098815
0.0015208 0.0020846 -0.0010443 0.0012243
-0.0029485 -0.0021801 -0.00017814 0.0017003 0.0018177 -0.00097358 0.16309 -0.13581
0.0011285 0.0052333 -0.0022764 0.00053627
-0.00025295 0.0016792 0.00060087 0.0011493 0.0014376 0.0020356 0.0011346 0.0052478
0.24795 0.028786 0.0047337 0.0015966
0.0002148 -0.0005624 0.00014929 0.00083701 -0.0010102 0.0012275 -0.0022243 0.00049196
0.004728 0.0016794 0.27383 0.065194
1940000000 0.17751 -0.17499 0.0004656 -0.0014337 0.0013454 0.0017845 -0.0037672 0.00046642
0.0013354 0.0011059 -0.00050801 -0.00042942
0.00048452 -0.0014727 0.2634 0.092305 -0.00092466 0.003768 0.0010505 0.0013438
0.001831 0.00041417 0.00076067 0.00033384
0.0012064 0.0017436 -0.00095525 0.0037281 0.062106 -0.24806 0.00049779 -0.0021838
0.0024458 0.00052085 2.8381e-05 0.0016017
-0.0036896 0.00051858 0.0010236 0.0013591 0.00054659 -0.0021301 0.11066 -0.16594
0.000321 0.0038662 -0.0012894 0.0016254
0.0013932 0.0011164 0.0018333 0.00039975 0.0024173 0.00063467 0.00031943 0.003848
0.25005 -0.010469 0.0036207 -0.0016822
-0.00068414 -0.00036476 0.00082293 0.00030902 0.000196 0.0017864 -0.0012518 0.0014671
0.0036487 -0.0017102 0.26319 0.029293
2000000000 0.13082 -0.18934 -0.0035422 0.00042249 0.0023209 0.0016315 -0.0023082 0.0036042
0.0012273 0.00017858 -0.00063218 0.00023556
-0.0035129 0.00043812 0.24877 0.056877 -0.0008557 0.0055065 0.0015422 0.00039003
0.0012756 -0.0014137 0.00048813 0.00018718
0.0023764 0.0017259 -0.00085646 0.0055626 0.01853 -0.23333 -0.0014171 -0.0013585
0.0021121 -0.0010996 0.0015153 0.00133
-0.0023087 0.0035581 0.001622 0.00043912 -0.0013889 -0.0014291 0.057051 -0.17533
-0.0013523 0.0036402 4.5513e-05 0.0020485
0.0011977 0.00015863 0.0012027 -0.0014167 0.0021167 -0.0011933 -0.0013741 0.0036965
0.24381 -0.044708 0.0004731 -0.002557
