!Keysight Technologies,M9804A,MY58100912,A.14.10.03
!Date: Thursday, April 27, 2023 10:28:33
!Correction: S11(C  6-Port  ) 
!S12(C  6-Port  ) 
!S13(C  6-Port  ) 
!S14(C  6-Port  ) 
!S15(C  6-Port  ) 
!S16(C  6-Port  ) 
!S21(C  6-Port  ) 
!S22(C  6-Port  ) 
!S23(C  6-Port  ) 
!S24(C  6-Port  ) 
!S25(C  6-Port  ) 
!S26(C  6-Port  ) 
!S31(C  6-Port  ) 
!S32(C  6-Port  ) 
!S33(C  6-Port  ) 
!S34(C  6-Port  ) 
!S35(C  6-Port  ) 
!S36(C  6-Port  ) 
!S41(C  6-Port  ) 
!S42(C  6-Port  ) 
!S43(C  6-Port  ) 
!S44(C  6-Port  ) 
!S45(C  6-Port  ) 
!S46(C  6-Port  ) 
!S51(C  6-Port  ) 
!S52(C  6-Port  ) 
!S53(C  6-Port  ) 
!S54(C  6-Port  ) 
!S55(C  6-Port  ) 
!S56(C  6-Port  ) 
!S61(C  6-Port  ) 
!S62(C  6-Port  ) 
!S63(C  6-Port  ) 
!S64(C  6-Port  ) 
!S65(C  6-Port  ) 
!S66(C  6-Port  ) 
!S6P File: Measurement: :
# Hz S  RI   R 50
500000000 -0.33678 -0.039093 -0.0097745 -0.0028325 -0.0075956 0.012557 -0.0043373 0.012299
0.013138 0.0044152 -0.0049992 0.0090232
-0.0096815 -0.0028462 -0.41871 -0.051266 0.008272 -0.01059 0.0017239 0.011808
0.0075838 0.0021416 0.0018921 0.012957
-0.0076657 0.012135 0.0083469 -0.010711 -0.26437 0.20897 0.0077709 0.0033424
-0.0018828 0.0076846 0.0014972 0.01186
-0.003974 0.012024 0.0019232 0.011933 0.0077394 0.0033384 -0.3299 0.043901
-0.017911 -0.0065504 0.016228 0.025707
0.012597 0.0046272 0.0080809 0.0018324 -0.0019179 0.0076723 -0.017956 -0.0065037
-0.2233 -0.1941 -0.024606 0.0049581
-0.0044994 0.0087021 0.0020672 0.013387 0.0014707 0.011811 0.016277 0.025748
-0.024599 0.0049382 -0.26642 -0.13327
560000000 -0.31623 0.12323 -0.023641 -0.063904 0.00037238 0.011692 0.0052341 0.010541
0.010147 0.0041465 0.010904 0.0072504
-0.023609 -0.063832 -0.3787 0.10719 -0.040717 -0.038185 0.013269 0.0042354
-0.012178 -0.005211 0.0027888 -0.00028943
0.00053008 0.011872 -0.040348 -0.037925 -0.18271 0.25728 -0.00068579 -0.0051031
0.019624 0.004959 0.0072006 -0.0064353
0.0057258 0.010177 0.013173 0.0039734 -0.00065292 -0.0051386 -0.30502 0.13259
0.0050355 -0.024173 0.00417 -0.02128
0.010059 0.0039953 -0.012678 -0.004824 0.019591 0.0050454 0.0049697 -0.024256
-0.28816 -0.019985 0.0091283 -0.048624
0.010807 0.0073486 0.0031905 -0.00027678 0.0072266 -0.0064149 0.0042166 -0.021249
0.0091184 -0.048655 -0.32895 0.015943
620000000 -0.27418 0.10679 -0.022926 0.0077712 0.0026418 0.008413 0.0079474 -0.0053178
0.010912 -0.00013737 0.0017461 -0.0025558
-0.022894 0.0078121 -0.40237 0.059579 -0.018656 -0.00012226 -0.0013666 -0.0020294
0.011045 -0.0066332 0.001421 -0.0032695
0.0030066 0.0082696 -0.018847 -0.00011581 -0.15362 0.266 -0.0016282 -0.0051068
-0.0030853 -0.0027649 0.0082323 -0.0037558
0.0078372 -0.0054042 -0.001464 -0.0022281 -0.0017319 -0.0049787 -0.26521 0.14337
-0.037448 -0.019075 0.011995 0.025697
0.011479 -0.00020759 0.011198 -0.0064614 -0.0030793 -0.0028498 -0.037347 -0.01904
-0.20823 -0.058912 -0.041289 0.014047
0.0018291 -0.0022806 0.0013968 -0.003259 0.0081628 -0.0038636 0.012019 0.025693
-0.041309 0.014035 -0.24982 -0.021481
680000000 -0.23432 0.19178 -0.027187 -0.014656 0.0049894 0.0051571 0.0010512 -0.0069191
-0.0035172 -0.01111 0.004478 -0.0066515
-0.027151 -0.014673 -0.38757 0.15738 -0.032805 -0.001324 -0.001719 -0.00051
-0.0023039 -0.0085587 -0.0016278 -0.0018322
0.0050256 0.0051406 -0.032819 -0.0012418 -0.10266 0.28608 -0.00081949 2.0709e-05
-0.0020277 0.00076339 -0.0029815 -0.0090665
0.0011085 -0.0071576 -0.001726 -0.00040826 -0.00082688 2.7584e-05 -0.22075 0.19342
-0.023571 -0.0083298 -0.0098893 -0.011165
-0.0036784 -0.011174 -0.0022259 -0.0086467 -0.001991 0.00073169 -0.023581 -0.0083291
-0.25805 0.039984 -0.0047836 -0.0084374
0.0044004 -0.0064532 -0.0017718 -0.0018984 -0.0030399 -0.0091032 -0.0099233 -0.011176
-0.0048005 -0.0084315 -0.26139 0.08628
740000000 -0.19023 0.18669 -0.038759 0.026296 0.012676 -0.0050797 -0.00031265 -0.0042003
-0.0043207 -0.0025653 -0.0058336 0.0026828
-0.038747 0.026274 -0.3351 0.17629 -0.035446 0.035071 -0.0006227 -0.0062109
-0.011591 0.0081236 -0.0016013 -0.0062563
0.012658 -0.0050444 -0.035377 0.035075 -0.0689 0.2847 -0.0019609 0.0032774
-0.0020812 -0.004718 -0.001724 0.00014362
-0.00022495 -0.0043268 -0.00061775 -0.0063104 -0.0019597 0.0032646 -0.20408 0.20144
-0.043268 -0.0073451 0.022675 0.01467
-0.004123 -0.0022914 -0.011419 0.0082294 -0.0020419 -0.0047716 -0.04331 -0.0073063
-0.1592 0.0655 -0.043473 -0.00016415
-0.005898 0.0027577 -0.0019482 -0.0059013 -0.0017948 0.00014422 0.022642 0.014649
-0.043481 -0.00015385 -0.24968 0.091306
800000000 -0.15769 0.22721 -0.022524 0.016791 0.0053629 -0.010501 -0.0049037 -0.002036
-0.0039603 0.0024348 0.0047052 0.00050786
-0.022543 0.016798 -0.33814 0.24667 -0.0078696 0.033979 -0.0023929 0.0021526
-0.00031079 0.0030497 0.0010792 0.0051044
0.0053257 -0.010508 -0.0077202 0.034059 -0.027941 0.30796 0.0010964 0.0014026
0.00040599 0.0033623 -0.0016725 0.00078502
-0.0047872 -0.0019871 -0.0023564 0.0021618 0.0011077 0.001379 -0.17567 0.22931
-0.028731 0.01341 0.01335 -0.010099
-0.0038889 0.0023155 -0.00026705 0.0031099 0.00037248 0.0033807 -0.02873 0.013488
-0.20724 0.088863 -0.017912 0.018662
0.0048483 0.00061494 0.0012265 0.0052085 -0.0016774 0.00074726 0.013341 -0.010112
-0.017902 0.01867 -0.24456 0.14124
860000000 -0.12322 0.24768 -0.017435 0.03061 -0.0034033 -0.0097706 -0.0025099 0.0009722
0.0040747 0.0047324 -0.0033226 -0.0028452
-0.017425 0.03061 -0.29042 0.28862 0.0078075 0.034083 5.9615e-05 0.0020373
0.0044388 7.1377e-05 0.0031461 0.00076902
-0.0033362 -0.0097438 0.0079862 0.034201 0.02009 0.31578 -0.00057024 -0.00038005
0.0028496 -0.0015715 0.0012707 0.0043345
-0.0026583 0.00085058 -4.9911e-05 0.0018701 -0.00057289 -0.00035419 -0.13927 0.24079
-0.018233 0.018492 -0.0061256 -0.0093314
0.0041828 0.0047574 0.0042397 -1.3015e-05 0.0028403 -0.0015795 -0.01822 0.01852
-0.15719 0.14017 -0.026471 0.015362
-0.0030773 -0.0027346 0.0032396 0.0010198 0.0013063 0.004353 -0.0061395 -0.009299
-0.02646 0.01537 -0.19276 0.18812
920000000 -0.098471 0.27101 0.0050202 0.037956 -0.0094136 -0.0042319 -0.0018897 0.0021145
0.00091054 0.001957 0.0027181 -0.0016141
0.0049823 0.037939 -0.2615 0.30999 0.02801 0.02192 0.001386 0.0011284
0.0068733 -0.00056061 0.0040435 -0.0026841
-0.0093883 -0.0041847 0.028079 0.021878 0.066448 0.31633 0.0017439 -5.8446e-05
0.0011416 -0.00035736 0.00098066 -0.00098322
-0.001906 0.0021494 0.0014682 0.0010802 0.001728 -5.7439e-05 -0.1155 0.25781
-0.011088 0.030358 0.0034554 -0.0063369
0.0010247 0.0019495 0.0066013 -0.00068305 0.0011177 -0.00034844 -0.011017 0.030392
-0.14718 0.14717 -0.0033358 0.027463
0.0027968 -0.0015691 0.0038533 -0.0024869 0.00098042 -0.00098702 0.0034407 -0.0063581
-0.0033228 0.027447 -0.20191 0.20131
980000000 -0.050907 0.29035 0.017474 0.029999 -0.0088335 0.0047545 0.0021503 0.0036139
0.0040421 -0.0013708 -0.0030102 -0.0022803
0.017473 0.030009 -0.2085 0.3438 0.032835 0.0048089 0.0020328 1.0329e-05
0.0014667 -0.0056816 -0.00022344 -0.0024092
-0.0088484 0.0047041 0.0329 0.0047147 0.11267 0.30949 0.00049272 -0.0011185
0.00024741 -0.0019486 0.0015627 -0.00021274
0.0021765 0.0035952 0.0020323 -3.223e-05 0.00050311 -0.0011125 -0.077079 0.26944
0.0075058 0.029892 -0.0091005 -0.0071536
0.0040236 -0.0013726 0.0013536 -0.0056666 0.0002361 -0.0019389 0.0075788 0.02989
-0.11658 0.17666 0.0046389 0.019429
-0.0031135 -0.0021627 -0.00023874 -0.0023761 0.0015824 -0.0002055 -0.0090898 -0.0071517
0.004654 0.019417 -0.15978 0.24703
1040000000 -0.0084854 0.2987 0.033066 0.018237 -0.0010815 0.0069478 0.0026386 0.00066253
8.0137e-05 -0.0037525 -0.00024943 -0.0013085
0.033053 0.018245 -0.17274 0.35662 0.029195 -0.014649 0.0014902 -0.0016556
-0.0026386 -0.0023829 -0.0012895 -0.0025278
-0.00098421 0.0068967 0.029219 -0.014798 0.15844 0.29577 -0.0004937 -0.0014435
-0.0016321 -0.00087989 -0.00034228 -0.0011044
0.0027203 0.00066537 0.0015389 -0.001716 -0.00049479 -0.0014648 -0.04958 0.27946
0.01881 0.018032 -0.0022002 0.0018539
2.6429e-05 -0.0036756 -0.0025909 -0.0022965 -0.0016259 -0.00088298 0.018839 0.018001
-0.084157 0.18544 0.012905 0.018671
-0.00041293 -0.0013645 -0.0014545 -0.0026082 -0.00034231 -0.0011008 -0.0022038 0.0018508
0.012916 0.018642 -0.13827 0.26715
1100000000 0.036938 0.30626 0.035692 -0.0040548 0.0029963 0.003819 0.0023668 -0.0014085
-0.0020591 -0.0031222 -0.003833 2.7925e-05
0.035664 -0.0040416 -0.12932 0.37368 0.015052 -0.027472 1.4316e-05 -0.0018151
-0.0031396 -0.00067275 -0.0032902 -0.00049844
0.0030719 0.0038057 0.014982 -0.02756 0.20462 0.27548 -0.001783 0.00021647
-0.0016945 0.00045708 -0.0010194 -0.00046977
0.0024255 -0.0014138 -6.9842e-06 -0.0018589 -0.0017811 0.00022376 -0.0091347 0.28437
0.023956 0.0053522 -0.0024339 0.00021386
-0.0020912 -0.0031116 -0.0032501 -0.00063108 -0.0016874 0.00046571 0.023976 0.0053065
-0.066254 0.19967 0.018579 0.0090233
-0.0038671 -2.0472e-05 -0.0034081 -0.00047974 -0.0010384 -0.00047355 -0.0024398 0.00020696
0.018599 0.0089917 -0.092458 0.29765
1160000000 0.088387 0.30105 0.023912 -0.020463 0.0027517 -0.00063098 -0.00028856 -0.0024767
-0.0041571 -0.00069117 -0.00095175 0.0041421
0.023925 -0.020417 -0.085636 0.37749 -0.0035231 -0.028817 -0.0017061 -0.0016304
-0.002595 0.0023859 -0.0012908 0.0017481
0.0027462 -0.00062644 -0.0036377 -0.028861 0.24743 0.24488 -0.00063676 0.0017122
-0.00055962 0.0018233 -0.00089277 0.0002243
-0.00028904 -0.002469 -0.0016806 -0.0016533 -0.00066727 0.0016901 0.030191 0.28172
0.020631 -0.0096717 -0.002762 0.0053138
-0.0041754 -0.00065769 -0.0025588 0.0023755 -0.00054404 0.0018397 0.020629 -0.0097039
-0.0322 0.20953 0.017708 0.0010373
-0.00088092 0.004113 -0.0012778 0.00184 -0.00087945 0.00023754 -0.0027797 0.0053137
0.017724 0.00097285 -0.045746 0.30057
1220000000 0.13271 0.2895 0.010528 -0.029735 -0.0015069 -0.00096621 -7.2387e-05 -0.00093969
-0.0025866 0.0025061 0.0013594 0.0019597
0.010559 -0.029704 -0.041653 0.38938 -0.016522 -0.021041 -0.0024669 0.00041254
7.3722e-05 0.0028217 -0.00073607 0.0018108
-0.0015114 -0.00097452 -0.01664 -0.020995 0.2867 0.20627 0.00077136 0.0014939
0.00055844 0.0011358 0.00028863 0.00066247
-7.9526e-05 -0.0009584 -0.0024771 0.00038983 0.00077309 0.0015023 0.069805 0.27321
0.010336 -0.016182 0.0024972 0.0014264
-0.0026081 0.0025504 6.9026e-05 0.0028225 0.00055396 0.001148 0.010331 -0.016197
-0.0092066 0.21869 0.014396 -0.012092
0.0013486 0.0019965 -0.00073353 0.0018032 0.00029801 0.00067488 0.0024753 0.0014389
0.014387 -0.01214 -0.014631 0.31784
1280000000 0.18223 0.2673 -0.0075844 -0.028252 -0.0018973 0.0022772 -0.00093358 -0.0019503
-0.00073666 0.0030075 0.002475 0.0011028
-0.0075507 -0.028244 0.0040037 0.38029 -0.023328 -0.0085899 -0.00095475 0.0013671
0.0015433 0.0016913 0.00058929 0.0020799
-0.001868 0.0022849 -0.023429 -0.0085112 0.31754 0.16251 0.001465 -1.3048e-05
0.0010105 0.00032277 0.00048989 0.00030836
-0.00092537 -0.0019392 -0.00095879 0.0013917 0.0014703 -7.7723e-06 0.10663 0.25711
0.0015195 -0.018084 0.00020058 -7.6377e-05
-0.00070901 0.0030159 0.0015421 0.0016887 0.0010225 0.00031947 0.0014902 -0.018093
0.02768 0.22268 0.0035519 -0.014139
0.0024058 0.0010761 0.00060424 0.0020197 0.00052045 0.00033041 0.00019086 -6.3126e-05
0.0035098 -0.0142 0.033686 0.32038
1340000000 0.219 0.23323 -0.017196 -0.01906 0.0007638 0.004309 -0.0016893 -0.00076633
0.0014652 0.0026775 0.0016632 -0.0013541
-0.017173 -0.019062 0.043183 0.37219 -0.021422 0.0038576 -0.00015754 0.0019411
0.0017425 0.00085835 0.0012346 0.00080649
0.00077042 0.0043312 -0.021439 0.0039628 0.33995 0.11439 0.0010509 -0.00081523
0.00064765 -0.00039738 0.00020538 0.00031539
-0.0017011 -0.00077081 -0.00014166 0.0019381 0.0010377 -0.00081177 0.1391 0.23709
-0.0074489 -0.015743 0.0010481 0.00012284
0.0014744 0.0026268 0.001791 0.0008316 0.00065163 -0.00038581 -0.0074913 -0.01573
0.057687 0.21807 -0.0027154 -0.012984
0.0016772 -0.0013928 0.0012592 0.00081428 0.00022273 0.00031551 0.0010527 0.00013622
-0.0027861 -0.013006 0.071782 0.31641
1400000000 0.2515 0.19498 -0.023053 -0.0078193 0.0049453 0.003042 -0.0020219 0.00061397
0.0023088 0.00083395 0.00034339 -0.0013254
-0.023029 -0.0078301 0.080295 0.35932 -0.014904 0.011992 0.0012346 0.0013344
0.0010966 -0.00070689 0.001223 0.0002795
0.0049619 0.0030297 -0.014861 0.012054 0.35334 0.060536 0.00018175 -0.0014938
-5.5058e-06 -0.00036297 0.00046181 0.00021662
-0.0020284 0.0006122 0.0012352 0.0013318 0.00019136 -0.0014826 0.16883 0.20869
-0.013019 -0.0096913 -0.0008285 -0.0008279
0.0023264 0.0008426 0.0010855 -0.00070604 -4.8833e-06 -0.00037162 -0.013049 -0.0096762
0.090612 0.21394 -0.0090049 -0.0088278
0.00034668 -0.0013211 0.0012355 0.00024827 0.00047387 0.00023446 -0.00081434 -0.0008151
-0.0090685 -0.0088129 0.11742 0.30579
1460000000 0.2739 0.15099 -0.020362 0.0042047 0.0053923 -0.0017037 -0.0016125 0.0016595
0.0020224 -0.00051365 -0.00033787 -0.00097353
-0.02034 0.0041914 0.11452 0.33772 -0.0064428 0.015002 0.0017046 0.00023812
0.00093897 -0.0011877 0.0011589 -0.00059426
0.0053759 -0.0017131 -0.0063737 0.015056 0.3593 0.005756 -0.0011163 -0.0012221
0.00019122 -0.00027475 0.00053752 -0.00026577
-0.0016112 0.0016571 0.0017116 0.00025313 -0.001132 -0.0012205 0.1955 0.17985
-0.014502 -0.0036565 -0.0011566 0.0017144
0.0020061 -0.00052942 0.00093768 -0.0012186 0.00021076 -0.00029027 -0.014513 -0.0036049
0.11964 0.19943 -0.011008 -0.0033234
-0.0003442 -0.001001 0.0011343 -0.00060518 0.0005442 -0.00027919 -0.0011218 0.0017283
-0.011075 -0.0032754 0.15072 0.28532
1520000000 0.28579 0.10952 -0.014995 0.0098576 0.00323 -0.0039655 4.6241e-05 0.0026272
0.0019893 -0.0016472 -0.0010698 -0.00011843
-0.014983 0.0098598 0.14819 0.32303 0.0011407 0.013062 0.0016511 -0.00072802
9.0628e-05 -0.0010479 0.00038185 -0.0010112
0.003188 -0.0040356 0.0012187 0.013092 0.3523 -0.050868 -0.0010128 -0.00040494
0.00067657 -0.00080545 3.006e-06 -0.00011113
6.1406e-05 0.0025985 0.0016512 -0.00074681 -0.00099229 -0.00039354 0.21925 0.14212
-0.014394 0.0016268 0.0010683 0.0019948
0.0019326 -0.0016407 7.7446e-05 -0.0010402 0.00066444 -0.0007953 -0.014385 0.0016584
0.14719 0.18582 -0.011273 0.00077707
-0.0011024 -9.6346e-05 0.00038106 -0.001026 6.8557e-06 -0.00012468 0.0010848 0.001973
-0.011276 0.00085264 0.18452 0.2651
1580000000 0.29506 0.063682 -0.0085634 0.013217 -0.00087255 -0.0046944 0.0013817 0.0019321
-0.00026987 -0.0019742 -0.00041132 0.00040584
-0.0085778 0.013186 0.17562 0.29827 0.0048661 0.0084639 0.00050878 -0.001557
-0.00056483 -0.001065 -0.00026078 -0.00079132
-0.00086864 -0.0046869 0.0049116 0.0084245 0.33157 -0.10828 -0.0015782 0.0005554
-0.00030596 -0.0010573 9.0326e-05 -0.00045148
0.0014061 0.0019199 0.00049354 -0.0015698 -0.0015933 0.00056229 0.2338 0.10276
-0.01156 0.0065424 0.002052 0.0010402
-0.00028459 -0.0019712 -0.00055539 -0.0010668 -0.00030929 -0.0010626 -0.011561 0.0065708
0.1716 0.16844 -0.0092682 0.0065753
-0.00040819 0.00039129 -0.00025985 -0.00079861 7.9511e-05 -0.00045623 0.0020598 0.0010039
-0.0092496 0.0066408 0.21729 0.23819
1640000000 0.29727 0.022357 -0.0018294 0.012462 -0.0025215 -0.0024397 0.0027247 0.0010492
-0.00054101 -0.001423 -0.00020612 0.00053962
-0.0018359 0.012472 0.20528 0.27309 0.0058114 0.0037435 -0.00061134 -0.0017196
-0.0010402 -0.00040969 -0.00045347 -0.0006992
-0.0025604 -0.002412 0.0058448 0.0037181 0.30296 -0.15771 -0.00070438 0.0014095
-0.00094297 -0.0010413 -4.6828e-05 -0.0004195
0.0027256 0.0010286 -0.00062975 -0.0017112 -0.00069395 0.0014116 0.2466 0.05357
-0.0077129 0.0081675 0.0023504 -0.00057946
-0.00058578 -0.0014578 -0.001059 -0.00042097 -0.00095769 -0.0010295 -0.0076995 0.0081939
0.19423 0.14463 -0.0050381 0.0085914
-0.00018452 0.00055334 -0.00044226 -0.00067956 -7.344e-05 -0.00043142 0.0023371 -0.00060518
-0.0049848 0.0086241 0.24286 0.20707
1700000000 0.28998 -0.0231 0.0017435 0.0098591 -0.0032658 3.9558e-05 0.0030281 -0.001162
-0.0019229 -0.00071217 0.00067623 0.00044266
0.0017265 0.0098405 0.22343 0.24133 0.0039387 0.00092194 -0.0014478 -0.00058852
-0.00082724 9.5293e-05 -0.00090161 -0.00043823
-0.0033103 1.3495e-05 0.003956 0.00087688 0.25914 -0.19733 0.00037295 0.0016661
-0.0018682 -0.00029203 -0.00042936 -0.00081901
0.0030016 -0.0011657 -0.0014563 -0.00058304 0.00035227 0.0016619 0.24367 0.0034599
-0.0051128 0.0092342 0.0014328 -0.0020333
-0.001939 -0.00073379 -0.0008229 0.00011659 -0.0018839 -0.00029945 -0.0050856 0.0092398
0.21183 0.12499 -0.0005069 0.0091594
0.00067823 0.00042526 -0.00091898 -0.00042826 -0.00045266 -0.00083868 0.001421 -0.0020469
-0.00044688 0.0091608 0.25927 0.17237
1760000000 0.27766 -0.071758 0.0043561 0.0066799 -0.0021609 0.00082197 0.0013468 -0.0033734
-0.0012865 0.0005872 0.00045057 -0.00061839
0.0043423 0.0066911 0.24932 0.2012 0.0018277 -0.00091947 -0.0011716 0.00017707
-0.00096006 0.00094026 -0.0005765 0.00039687
-0.0020454 0.00087795 0.0017983 -0.00092372 0.21007 -0.23004 0.0011466 0.0011732
-0.0012509 0.0014499 -0.0012751 -0.0005114
0.0013548 -0.0033734 -0.0011774 0.00017397 0.0011518 0.0011295 0.23441 -0.048406
-0.0015639 0.0087787 -0.00017131 -0.0023515
-0.0012575 0.00065668 -0.00096122 0.00095224 -0.0012505 0.0014706 -0.0015533 0.0087853
0.22716 0.090235 0.003337 0.0069167
0.00044434 -0.00064134 -0.00055728 0.00039697 -0.0012938 -0.00051221 -0.00019781 -0.0023453
0.003406 0.006894 0.27186 0.13477
1820000000 0.25273 -0.10921 0.0047901 0.0030409 2.3685e-06 0.0023274 -0.00094487 -0.0030283
-0.0011412 0.00085787 -5.599e-05 -0.00013648
0.0047841 0.0030509 0.25905 0.17087 -5.0538e-05 2.3113e-05 -0.0013367 0.00090097
1.1405e-05 0.0013222 -0.00053024 0.00052195
-0.00010309 0.0023538 -7.542e-05 3.0991e-05 0.16009 -0.24561 0.0014446 0.0004119
-0.00039193 0.0022411 -0.0013043 0.00023347
-0.0009706 -0.0030443 -0.0013343 0.00090676 0.0014368 0.00041588 0.20411 -0.095792
0.00016719 0.0072271 -0.0014738 -0.0014113
-0.0011469 0.00087355 3.3073e-05 0.0013318 -0.00038883 0.002228 0.00019133 0.0072245
0.24477 0.061375 0.0043264 0.0037017
-7.0996e-05 -0.00013431 -0.00053577 0.00055211 -0.0012889 0.00030288 -0.0014751 -0.0013915
0.0043601 0.0036545 0.27433 0.09883
1880000000 0.21725 -0.14941 0.0027461 0.00052054 -0.00044233 0.0019417 -0.0029556 -0.0021554
-0.00029194 0.0016772 0.00028961 -0.00052719
0.0027436 0.00053424 0.26318 0.12419 -0.0020965 0.001602 -0.00022529 0.001683
0.00064338 0.0011315 0.00012768 0.00089662
-0.00038711 0.0019514 -0.002061 0.0016344 0.10783 -0.25507 0.0018185 -0.00097554
0.0015096 0.0020441 -0.00096157 0.0012408
-0.0029426 -0.0020971 -0.00019971 0.0017154 0.0018292 -0.00093424 0.16308 -0.13588
0.0010919 0.0052019 -0.0022824 0.00054304
-0.00029662 0.0017125 0.00061804 0.0011449 0.0015184 0.0020385 0.0010913 0.0052026
0.24809 0.028654 0.0045643 0.0017012
0.00021641 -0.0005125 0.00014419 0.00086989 -0.00097403 0.0012459 -0.0022779 0.00054444
0.0045782 0.0016514 0.2739 0.064707
1940000000 0.17746 -0.17502 0.00051042 -0.0014452 0.0012946 0.001805 -0.0037495 0.00053297
0.0012919 0.001078 -0.00064885 -0.00048608
0.00049589 -0.0014396 0.26342 0.092326 -0.00094517 0.0037692 0.00098971 0.0013495
0.0018194 0.00037443 0.00082211 0.00028984
0.0012204 0.0018281 -0.00090626 0.003752 0.061979 -0.24793 0.00042008 -0.0022327
0.0024247 0.00050313 0.00022507 0.0016275
-0.0037547 0.00051332 0.0010054 0.0013245 0.00042966 -0.0022158 0.11058 -0.16589
0.00025209 0.0039222 -0.0012964 0.0014594
0.0013374 0.0010814 0.0018325 0.00036347 0.0024404 0.00047332 0.00028731 0.0039223
0.25009 -0.010542 0.0035597 -0.0015337
-0.00069719 -0.00053848 0.00086308 0.00030849 0.00028767 0.0016306 -0.0012905 0.0014909
0.0035521 -0.0015875 0.26309 0.028931
2000000000 0.13076 -0.18937 -0.0035344 0.00044553 0.0023594 0.0016979 -0.0023078 0.0034846
0.0012149 0.00021061 -0.0006407 0.00032199
-0.003501 0.00043065 0.24879 0.056851 -0.00093343 0.0055787 0.0016498 0.00040969
0.0012352 -0.0014085 0.0005 0.00013386
0.0023651 0.0015964 -0.00088094 0.0055355 0.018595 -0.23318 -0.0012769 -0.0013432
0.0020524 -0.0011221 0.0015735 0.0012659
-0.0022987 0.0034892 0.0016592 0.00040664 -0.0012657 -0.0013287 0.057005 -0.17538
-0.0013502 0.0037085 2.0969e-05 0.0021182
0.0012022 0.00017069 0.0012529 -0.0013843 0.0020347 -0.0011169 -0.0013423 0.0037062
