!Keysight Technologies,M9804A,MY58100912,A.14.10.03
!Date: Thursday, April 27, 2023 10:28:33
!Correction: S11(C  6-Port  ) 
!S12(C  6-Port  ) 
!S13(C  6-Port  ) 
!S14(C  6-Port  ) 
!S15(C  6-Port  ) 
!S16(C  6-Port  ) 
!S21(C  6-Port  ) 
!S22(C  6-Port  ) 
!S23(C  6-Port  ) 
!S24(C  6-Port  ) 
!S25(C  6-Port  ) 
!S26(C  6-Port  ) 
!S31(C  6-Port  ) 
!S32(C  6-Port  ) 
!S33(C  6-Port  ) 
!S34(C  6-Port  ) 
!S35(C  6-Port  ) 
!S36(C  6-Port  ) 
!S41(C  6-Port  ) 
!S42(C  6-Port  ) 
!S43(C  6-Port  ) 
!S44(C  6-Port  ) 
!S45(C  6-Port  ) 
!S46(C  6-Port  ) 
!S51(C  6-Port  ) 
!S52(C  6-Port  ) 
!S53(C  6-Port  ) 
!S54(C  6-Port  ) 
!S55(C  6-Port  ) 
!S56(C  6-Port  ) 
!S61(C  6-Port  ) 
!S62(C  6-Port  ) 
!S63(C  6-Port  ) 
!S64(C  6-Port  ) 
!S65(C  6-Port  ) 
!S66(C  6-Port  ) 
!S6P File: Measurement: :
# Hz S  RI   R 50
500000000 -0.33664 -0.03928 -0.0096048 -0.0027445 -0.0077446 0.012346 -0.0041763 0.012165
0.013227 0.0046764 -0.0045223 0.0090163
-0.0094431 -0.0025922 -0.41903 -0.051246 0.0082598 -0.010554 0.0018139 0.011741
0.0076791 0.0021606 0.0021754 0.012962
-0.0077164 0.01225 0.0082376 -0.010547 -0.26434 0.20902 0.0076672 0.0032929
-0.0018883 0.0076369 0.0014347 0.011722
-0.0038697 0.012147 0.0018086 0.011891 0.0076822 0.0033483 -0.32998 0.043809
-0.017756 -0.0063824 0.016112 0.0256
0.013029 0.0047635 0.0078118 0.0020641 -0.001845 0.0075604 -0.017753 -0.0063672
-0.22354 -0.19406 -0.024564 0.0052277
-0.0042971 0.0089153 0.0021352 0.013292 0.0014851 0.011789 0.016155 0.025597
-0.024655 0.005148 -0.26635 -0.13357
560000000 -0.31577 0.12285 -0.023579 -0.063922 0.00021026 0.011887 0.0055358 0.010286
0.0099736 0.0042324 0.011042 0.0074903
-0.02379 -0.063544 -0.37903 0.10702 -0.040209 -0.03812 0.012893 0.0039375
-0.012145 -0.0045508 0.0029732 -0.00042784
2.2083e-05 0.01131 -0.040151 -0.037799 -0.18296 0.25735 -0.00038534 -0.0050993
0.019137 0.0049088 0.0072995 -0.0063717
0.0054254 0.010846 0.013034 0.0038496 -0.0004749 -0.0051434 -0.3054 0.13246
0.0054121 -0.023604 0.004102 -0.021649
0.010004 0.0038814 -0.012166 -0.004543 0.019155 0.0050162 0.0053605 -0.023648
-0.28882 -0.020195 0.0085707 -0.048733
0.01087 0.0073823 0.002767 -0.00038403 0.0072417 -0.0063516 0.0041056 -0.021521
0.0085014 -0.048724 -0.32888 0.015697
620000000 -0.27449 0.10693 -0.023117 0.007875 0.0028167 0.0082558 0.0081135 -0.0052902
0.010884 0.00010032 0.0019299 -0.0023152
-0.02324 0.0079488 -0.40239 0.059559 -0.01874 -0.00014277 -0.0014587 -0.0020851
0.011171 -0.0065391 0.0014161 -0.0033193
0.0029204 0.0085227 -0.018725 -0.00020452 -0.1537 0.26623 -0.0018642 -0.0051633
-0.003041 -0.0028015 0.0083223 -0.0039056
0.0079674 -0.0053964 -0.0014181 -0.0020861 -0.0018671 -0.0051138 -0.26522 0.14337
-0.037484 -0.019329 0.012326 0.02559
0.010439 -0.00016191 0.011183 -0.0065885 -0.0029021 -0.0027691 -0.037498 -0.019244
-0.20804 -0.058123 -0.041637 0.014223
0.0014477 -0.0024706 0.001282 -0.0033197 0.0082711 -0.0038422 0.012476 0.02572
-0.041824 0.014154 -0.24995 -0.020966
680000000 -0.2344 0.19159 -0.027145 -0.01466 0.0050338 0.0051332 0.0011667 -0.0069672
-0.0034511 -0.01115 0.0045504 -0.0066109
-0.027037 -0.01461 -0.38768 0.15732 -0.032827 -0.0013332 -0.001697 -0.00045324
-0.002301 -0.0087213 -0.0017756 -0.0019273
0.0051472 0.005198 -0.032857 -0.0012573 -0.10267 0.28607 -0.00085643 7.9078e-05
-0.00196 0.00076477 -0.0030809 -0.0092082
0.0013415 -0.0071193 -0.0017333 -0.00042445 -0.00085809 7.0847e-05 -0.22074 0.19323
-0.023707 -0.0081763 -0.0098122 -0.011286
-0.0034049 -0.011351 -0.0022398 -0.0086965 -0.0019721 0.00076888 -0.023728 -0.0081336
-0.25852 0.039682 -0.0049902 -0.0083579
0.0042732 -0.0066273 -0.0018096 -0.0019169 -0.0030219 -0.0091462 -0.0098591 -0.011264
-0.0050412 -0.0083261 -0.26157 0.085827
740000000 -0.19027 0.18661 -0.038686 0.026192 0.012674 -0.0051103 -0.00012967 -0.0042429
-0.0042798 -0.0024535 -0.0057961 0.0026695
-0.038626 0.026335 -0.33517 0.17634 -0.035401 0.035169 -0.00064371 -0.0062124
-0.011671 0.0080184 -0.001682 -0.0059658
0.012657 -0.0049198 -0.035401 0.035226 -0.069044 0.28473 -0.0020199 0.0031803
-0.0019521 -0.0045901 -0.0017276 -5.686e-05
-0.0001886 -0.0041141 -0.00067253 -0.006185 -0.0019981 0.0032057 -0.20401 0.20131
-0.043226 -0.0075032 0.022621 0.014813
-0.0044845 -0.0025424 -0.01162 0.008062 -0.0020351 -0.0046175 -0.04327 -0.0074693
-0.15908 0.066323 -0.04328 -0.00035073
-0.0056802 0.0028305 -0.0017199 -0.0059429 -0.0017269 4.6308e-05 0.022641 0.014849
-0.043355 -0.00040794 -0.24948 0.090605
800000000 -0.1576 0.22724 -0.022598 0.01663 0.0053435 -0.010554 -0.0048329 -0.0020778
-0.0040973 0.0023323 0.004674 0.00049668
-0.022582 0.016673 -0.33809 0.24662 -0.0078355 0.033963 -0.0023177 0.0021629
-0.00024159 0.0029966 0.0012084 0.0051252
0.0053638 -0.010509 -0.0077474 0.034033 -0.027958 0.30795 0.0011258 0.0014238
0.00042009 0.0033192 -0.0016282 0.00078055
-0.0049667 -0.001982 -0.0023707 0.002205 0.0011104 0.0014282 -0.17568 0.2294
-0.028724 0.013384 0.013373 -0.010046
-0.0040731 0.0026437 -0.00029298 0.0031081 0.000396 0.0033472 -0.028717 0.013424
-0.20698 0.088884 -0.017812 0.018637
0.0045657 0.00048229 0.0011768 0.0051821 -0.0016459 0.00078411 0.013346 -0.010067
-0.017844 0.01858 -0.24461 0.14126
860000000 -0.12333 0.24786 -0.017525 0.030698 -0.0033956 -0.009771 -0.0025507 0.00097964
0.0042297 0.0048404 -0.0032036 -0.0029818
-0.017613 0.030631 -0.29046 0.28866 0.0078047 0.034108 5.0731e-05 0.0021099
0.0043606 0.00029739 0.0031188 0.00084356
-0.0034239 -0.009815 0.0079394 0.034129 0.020114 0.3158 -0.00059782 -0.00035105
0.0028434 -0.001552 0.0013096 0.0043925
-0.0024755 0.00091138 8.524e-06 0.0020378 -0.00058725 -0.00032755 -0.1394 0.24085
-0.018293 0.018587 -0.006073 -0.0092537
0.004043 0.0049326 0.0042597 0.00022298 0.0028224 -0.0014966 -0.018265 0.018611
-0.1569 0.14031 -0.02656 0.015378
-0.0031511 -0.0027368 0.0030959 0.00088411 0.0013182 0.0043448 -0.0061251 -0.0093091
-0.026689 0.01529 -0.19297 0.18818
920000000 -0.098493 0.27109 0.005061 0.037997 -0.0093806 -0.0042381 -0.0018685 0.0021454
0.0010193 0.0019385 0.0026483 -0.001617
0.0050093 0.037958 -0.26142 0.30991 0.028005 0.021916 0.001422 0.0011052
0.0068041 -0.00055749 0.0040436 -0.002496
-0.0093935 -0.0041946 0.028091 0.021901 0.066437 0.3163 0.0017356 -5.1774e-05
0.0011545 -0.00032636 0.0010304 -0.00086458
-0.0018247 0.0021234 0.0014042 0.0011428 0.0017383 -6.9333e-05 -0.11545 0.25777
-0.011068 0.030269 0.0034849 -0.0061805
0.0010581 0.0019082 0.0067502 -0.00061708 0.0011566 -0.00035853 -0.011001 0.030312
-0.14715 0.14724 -0.0032152 0.027518
0.0026813 -0.0015421 0.003967 -0.0025675 0.0010246 -0.0009186 0.0034108 -0.0062592
-0.0032723 0.027512 -0.20186 0.20128
980000000 -0.05096 0.29027 0.017436 0.030017 -0.0088407 0.0047755 0.0021075 0.0035996
0.0040027 -0.0012804 -0.0030976 -0.0020946
0.017455 0.030013 -0.20851 0.34379 0.032835 0.0048203 0.002042 -4.2625e-05
0.001295 -0.0056669 -0.00032317 -0.0022561
-0.0087965 0.004716 0.032894 0.0047069 0.11266 0.30951 0.00048343 -0.0011136
0.0002203 -0.0019698 0.0014962 -0.00016699
0.0021391 0.0035821 0.0020409 -8.3861e-05 0.00049373 -0.0011088 -0.077095 0.26939
0.007488 0.029863 -0.0091369 -0.0070594
0.0039522 -0.0013024 0.0013221 -0.0057453 0.00018794 -0.0019729 0.0075432 0.029882
-0.11657 0.17678 0.0047366 0.019587
-0.0031911 -0.0022518 -0.00039637 -0.0023643 0.0014721 -0.00019187 -0.0091507 -0.0070591
0.0047281 0.019582 -0.15949 0.24697
1040000000 -0.0084542 0.2987 0.033049 0.018259 -0.0010915 0.0069595 0.002687 0.00067851
0.00011528 -0.0038061 -0.00034252 -0.0012595
0.032992 0.018268 -0.17277 0.35666 0.029189 -0.014633 0.0014947 -0.0016954
-0.0026198 -0.0024748 -0.0013123 -0.0024974
-0.0010494 0.0069136 0.029158 -0.014747 0.15844 0.29574 -0.00045153 -0.0014747
-0.0015549 -0.00090225 -0.00034106 -0.0010886
0.0026533 0.00068655 0.0014633 -0.0017165 -0.00047068 -0.001467 -0.049536 0.27946
0.018833 0.018091 -0.0021658 0.0017769
6.2501e-05 -0.0036574 -0.0026151 -0.002388 -0.0015888 -0.00088223 0.018884 0.018065
-0.084204 0.18535 0.012985 0.018594
-0.00034656 -0.0013948 -0.0013193 -0.0025435 -0.00033934 -0.0010852 -0.0021999 0.0017806
0.012974 0.018556 -0.13816 0.26725
1100000000 0.036939 0.30631 0.035713 -0.0040447 0.0030088 0.0038192 0.0024101 -0.0014216
-0.0020745 -0.0031161 -0.0038273 1.0948e-06
0.035675 -0.0040223 -0.12937 0.37373 0.015041 -0.027497 5.0273e-06 -0.001842
-0.0031697 -0.00066826 -0.0033214 -0.00049955
0.0030327 0.0038047 0.014993 -0.027579 0.20456 0.27547 -0.0017794 0.00021342
-0.0016775 0.00052285 -0.001009 -0.00047319
0.0024012 -0.0014155 5.9316e-06 -0.0018483 -0.0017816 0.00022193 -0.0092032 0.2844
0.02393 0.005323 -0.0024356 0.00020778
-0.0020583 -0.0031286 -0.0031475 -0.00063603 -0.0016743 0.00050122 0.023952 0.0052961
-0.066315 0.19946 0.018682 0.00897
-0.00385 -3.5262e-06 -0.0033306 -0.00048637 -0.00098082 -0.00047141 -0.0024214 0.00021355
0.01868 0.0089887 -0.092478 0.29766
1160000000 0.088357 0.30102 0.023948 -0.020486 0.0027523 -0.00063657 -0.00029524 -0.002458
-0.0041478 -0.00065939 -0.00091108 0.0040943
0.023959 -0.0205 -0.085752 0.37752 -0.003486 -0.028788 -0.0017016 -0.0016762
-0.0026116 0.0023824 -0.0012053 0.0018111
0.0027451 -0.00066222 -0.0036299 -0.028801 0.24744 0.24485 -0.0006621 0.0016564
-0.00056939 0.0018608 -0.00089247 0.00025693
-0.00027962 -0.0024511 -0.0017362 -0.0016524 -0.0006712 0.0016775 0.030193 0.28169
0.020595 -0.0096648 -0.0028231 0.0053012
-0.0042059 -0.00067517 -0.0026194 0.0024498 -0.00056297 0.0018542 0.020588 -0.0096936
-0.032323 0.20927 0.017913 0.00095601
-0.00091031 0.0041335 -0.0012493 0.0018601 -0.00089215 0.00025484 -0.0028137 0.0053069
0.017913 0.00097111 -0.045583 0.3005
1220000000 0.13268 0.28954 0.010545 -0.029738 -0.0015017 -0.00098203 -8.2268e-05 -0.00092591
-0.0025876 0.0024958 0.0013803 0.0019684
0.010575 -0.029698 -0.041679 0.38939 -0.016532 -0.021042 -0.002449 0.0003979
4.2097e-05 0.0028416 -0.00073908 0.001825
-0.00152 -0.00099834 -0.016636 -0.020968 0.28671 0.20628 0.00077309 0.0015294
0.00054459 0.0011537 0.00029087 0.00069005
-8.5246e-05 -0.00092551 -0.0024626 0.00040698 0.00077142 0.0015196 0.06984 0.27323
0.010345 -0.016132 0.0024606 0.0014057
-0.0025911 0.002479 5.4301e-05 0.00282 0.00055424 0.0011463 0.010323 -0.016159
-0.009437 0.21858 0.014428 -0.012158
0.0013565 0.0019926 -0.00071599 0.0017877 0.00026901 0.00067047 0.0024634 0.0014081
0.014399 -0.012142 -0.014613 0.31776
1280000000 0.18216 0.2673 -0.0075601 -0.028268 -0.0019045 0.0022883 -0.0009189 -0.0019428
-0.00072961 0.0029984 0.0024129 0.0011432
-0.0075319 -0.028259 0.0039771 0.38032 -0.023333 -0.0085825 -0.00098264 0.0013736
0.0015465 0.0016962 0.000577 0.0020769
-0.0018939 0.0022987 -0.023407 -0.0085159 0.31753 0.16249 0.0014799 6.8749e-06
0.0010282 0.0003446 0.00049124 0.00033896
-0.00092614 -0.0019163 -0.00093806 0.0013803 0.001477 2.1503e-06 0.1066 0.25709
0.0015086 -0.018043 0.00022279 -7.4329e-05
-0.00072955 0.0030033 0.0015538 0.0016599 0.0010147 0.00031866 0.0014805 -0.018054
0.027429 0.22262 0.0035266 -0.014357
0.0024072 0.0011039 0.00055891 0.0020858 0.00049503 0.00031355 0.00021039 -6.7974e-05
0.003556 -0.014365 0.033744 0.3203
1340000000 0.21897 0.23327 -0.017202 -0.019068 0.00077352 0.0043301 -0.0017145 -0.00077061
0.0014479 0.002634 0.0016974 -0.0013894
-0.017178 -0.01905 0.043185 0.37221 -0.021413 0.0038597 -0.00016078 0.0019411
0.0017544 0.0008368 0.0012527 0.00082894
0.00079988 0.0043343 -0.021404 0.0039625 0.33993 0.11442 0.0010414 -0.00082694
0.00066143 -0.00039715 0.00022034 0.00033692
-0.0017149 -0.00077066 -0.000149 0.0019496 0.0010307 -0.00082688 0.13909 0.23707
-0.0074182 -0.015697 0.001026 0.00016797
0.0015077 0.0025986 0.0017747 0.00082464 0.00067135 -0.00039688 -0.0074522 -0.015689
0.057519 0.2181 -0.0028271 -0.013176
0.0017207 -0.0013699 0.0012458 0.00081018 0.00021829 0.00033527 0.0010257 0.00016637
-0.0028116 -0.013167 0.07182 0.3162
1400000000 0.25153 0.19499 -0.023065 -0.007822 0.0049169 0.003048 -0.0020212 0.00061282
0.0023186 0.0008301 0.00032673 -0.0013243
-0.023037 -0.0078391 0.080282 0.35934 -0.014899 0.011977 0.0012287 0.0013301
0.0010976 -0.00069221 0.0012244 0.00029112
0.0049582 0.003041 -0.014857 0.012074 0.35332 0.060535 0.00016928 -0.0014801
-3.4207e-05 -0.00034835 0.0004176 0.00024549
-0.0020075 0.00061063 0.0012442 0.0013304 0.00017417 -0.0014698 0.16883 0.20868
-0.012997 -0.0096873 -0.00080922 -0.00081123
0.0023162 0.00082783 0.0010875 -0.0007092 -3.2297e-05 -0.00034716 -0.013028 -0.0096635
0.0905 0.2141 -0.0091423 -0.0088923
0.00033265 -0.0013391 0.0012344 0.00026272 0.00045084 0.00024949 -0.0008164 -0.00080126
-0.0091277 -0.0088974 0.11725 0.30561
1460000000 0.27389 0.1511 -0.020392 0.0042165 0.0053846 -0.0017032 -0.0015873 0.0016641
0.0020079 -0.00052622 -0.00033281 -0.0010163
-0.02038 0.0041708 0.11451 0.33774 -0.0064406 0.014966 0.0017076 0.00024888
0.00094319 -0.0012049 0.0011784 -0.00059679
0.0053475 -0.0016762 -0.0063837 0.015033 0.35924 0.0057772 -0.0011411 -0.0012279
0.00019241 -0.00026151 0.0005249 -0.00026171
-0.001594 0.0016709 0.0017248 0.00023858 -0.0011256 -0.0012175 0.19549 0.17986
-0.014436 -0.0037008 -0.0011016 0.0017424
0.0020264 -0.00056663 0.00093566 -0.0012022 0.00018843 -0.00027408 -0.014458 -0.0036652
0.11962 0.19955 -0.011197 -0.0033038
-0.00034517 -0.00099494 0.0011751 -0.0005902 0.00055509 -0.00027265 -0.0011199 0.0017472
-0.011197 -0.0033064 0.15056 0.28516
1520000000 0.28575 0.10957 -0.015005 0.0098803 0.0032324 -0.0039672 6.2526e-05 0.0026104
0.0019595 -0.0016355 -0.0010726 -9.7651e-05
-0.015001 0.0098703 0.14818 0.32303 0.0011467 0.01309 0.0016506 -0.00073611
9.2e-05 -0.0010511 0.00038623 -0.0010178
0.0032108 -0.0039876 0.0012274 0.013081 0.35223 -0.050866 -0.001006 -0.00040359
0.00065136 -0.00078329 6.2746e-07 -0.00011728
6.7923e-05 0.0026149 0.0016642 -0.00073809 -0.0010108 -0.00039847 0.21925 0.14213
-0.014406 0.0015737 0.0011234 0.002009
0.0019502 -0.001671 7.9658e-05 -0.0010494 0.00066936 -0.00078096 -0.014403 0.0016162
0.14727 0.18598 -0.01142 0.00092989
-0.0010997 -8.7029e-05 0.00037376 -0.0010127 2.7458e-06 -0.00010676 0.0011262 0.0020078
-0.01142 0.00090383 0.18432 0.26506
1580000000 0.29513 0.063729 -0.0085571 0.013214 -0.00088315 -0.0046771 0.0013931 0.0019192
-0.00027673 -0.0019848 -0.00040761 0.00040889
-0.0085709 0.013213 0.17561 0.29828 0.0048552 0.0084425 0.00050382 -0.0015548
-0.00054495 -0.001058 -0.00026593 -0.00079703
-0.00091045 -0.0047071 0.0049192 0.0084431 0.33162 -0.10838 -0.0015872 0.00056988
-0.00032344 -0.001059 2.9323e-05 -0.00045437
0.0013946 0.0019138 0.00048617 -0.0015613 -0.001606 0.00057101 0.23378 0.10278
-0.011599 0.0064938 0.0020788 0.00097845
-0.00027781 -0.0019953 -0.00056748 -0.0010754 -0.00034015 -0.0010634 -0.011589 0.0065265
0.17169 0.16854 -0.0093086 0.0067565
-0.00039496 0.00041558 -0.00026403 -0.0008014 4.5396e-05 -0.00046093 0.0020873 0.00098763
-0.0093143 0.0067654 0.2171 0.23825
1640000000 0.29728 0.022414 -0.0018475 0.012489 -0.0024929 -0.0024281 0.0027188 0.0010501
-0.00054959 -0.0014355 -0.00019177 0.00054821
-0.0018541 0.012477 0.20527 0.2731 0.0058403 0.0037533 -0.00063316 -0.0017288
-0.0010468 -0.00042066 -0.00044323 -0.00070597
-0.0025754 -0.0023783 0.0058487 0.0037033 0.303 -0.1577 -0.000712 0.0013965
-0.0009678 -0.0010846 -6.4713e-05 -0.00041737
0.0027041 0.0010247 -0.00062935 -0.0017256 -0.00072708 0.0013934 0.24661 0.053577
-0.0077386 0.0081629 0.0023634 -0.00062031
-0.00056683 -0.0014369 -0.0010433 -0.00040404 -0.00098722 -0.0010943 -0.0077225 0.0081799
0.19432 0.14469 -0.0050235 0.0088189
-0.00016833 0.00057671 -0.00046387 -0.00069197 -7.5297e-05 -0.00044848 0.0023642 -0.00062444
-0.0050222 0.0088122 0.24267 0.20723
1700000000 0.28998 -0.023058 0.0017548 0.0098411 -0.0033056 8.4386e-05 0.0030202 -0.0011661
-0.001896 -0.00073045 0.00065535 0.0004438
0.0017456 0.0098496 0.22343 0.24135 0.0039333 0.00092476 -0.0014449 -0.0005862
-0.00082215 9.615e-05 -0.00091323 -0.00044861
-0.0032794 0.0001401 0.0039356 0.00088418 0.25913 -0.19727 0.000354 0.001654
-0.0018702 -0.00033081 -0.00044419 -0.00083141
0.0030142 -0.0011614 -0.0014557 -0.00058494 0.0003756 0.0016694 0.24367 0.0034724
-0.0051411 0.0092487 0.0014465 -0.0020537
-0.0019129 -0.00074526 -0.00081092 0.00010396 -0.0018709 -0.00031327 -0.0051256 0.0092706
0.2119 0.12496 -0.0004257 0.0093198
0.00069842 0.00045686 -0.00088715 -0.00043442 -0.00042778 -0.00083336 0.0014287 -0.0020586
-0.00042267 0.0093163 0.25908 0.17253
1760000000 0.27769 -0.071777 0.0043686 0.006698 -0.0021574 0.00084656 0.0013544 -0.0033662
-0.0013011 0.00061064 0.00044975 -0.00064947
0.0043657 0.0067039 0.24931 0.2012 0.0018195 -0.00091682 -0.001164 0.00017285
-0.00096557 0.00093863 -0.00055599 0.00038524
-0.0021376 0.00085786 0.001846 -0.0008999 0.21005 -0.23001 0.0011847 0.0011398
-0.0012431 0.0014109 -0.0012976 -0.00055549
0.0013311 -0.0033801 -0.0011674 0.00017739 0.0011837 0.0011623 0.23441 -0.048388
-0.0015861 0.0087987 -0.00020204 -0.0023747
-0.001266 0.00062132 -0.00095691 0.0009697 -0.0012312 0.0014563 -0.0015665 0.0088078
0.22715 0.090181 0.003488 0.0069832
0.00041445 -0.00064525 -0.00056192 0.00039197 -0.0012793 -0.0005441 -0.00020246 -0.0023749
0.0034927 0.0069871 0.2718 0.13491
1820000000 0.25271 -0.10921 0.0048155 0.003029 3.3105e-05 0.0023104 -0.00093832 -0.0030274
-0.0011519 0.00085652 -6.8914e-05 -0.00013643
0.004804 0.0030139 0.25905 0.17091 -6.0417e-05 4.0251e-05 -0.0013248 0.00089375
2.113e-05 0.0013259 -0.00053249 0.00053901
-3.2838e-05 0.0023603 -7.8194e-05 2.0366e-05 0.16007 -0.24567 0.0014662 0.0003999
-0.00036231 0.0022703 -0.0013551 0.0003362
-0.00098705 -0.0030619 -0.0013028 0.00091386 0.0014458 0.00042335 0.20408 -0.095738
0.00015309 0.0072644 -0.0014952 -0.0014117
-0.001128 0.00083819 1.8108e-05 0.0013253 -0.00037889 0.0022681 0.00017313 0.0072673
0.24471 0.061278 0.004497 0.0037099
-9.5958e-05 -0.00016534 -0.00053096 0.00052711 -0.0013217 0.000325 -0.0014975 -0.0014071
0.0045002 0.0037073 0.27433 0.098984
1880000000 0.21724 -0.14937 0.0027372 0.00051837 -0.00042704 0.0019151 -0.002904 -0.002153
-0.00032833 0.0017053 0.0002333 -0.00050278
0.002746 0.00051126 0.26319 0.12419 -0.0021028 0.0016174 -0.00020984 0.0016977
0.0006235 0.0011223 0.00010546 0.00090283
-0.00037997 0.0019045 -0.0020722 0.0016319 0.10781 -0.25487 0.0018135 -0.0010027
0.0015151 0.0020283 -0.00097126 0.0012691
-0.0029297 -0.0021068 -0.00021016 0.0016852 0.0018256 -0.00099973 0.16314 -0.13589
0.0011168 0.0052435 -0.0022859 0.00056841
-0.00031434 0.0016913 0.00065212 0.0011407 0.0015306 0.0020114 0.0011317 0.0052529
0.24801 0.028611 0.0047101 0.0016452
0.00022391 -0.00053468 0.00011282 0.0008894 -0.00098534 0.0012858 -0.0022765 0.00056798
0.0047039 0.0016314 0.27395 0.06487
1940000000 0.17753 -0.175 0.00049083 -0.0014405 0.0012711 0.0018017 -0.0037978 0.00050748
0.0012923 0.0010625 -0.0006779 -0.00049901
0.0004942 -0.0014074 0.26341 0.092329 -0.00093024 0.0037596 0.00098819 0.0013121
0.0018308 0.00037826 0.00084764 0.00030551
0.0012175 0.0017811 -0.00090351 0.0037717 0.061978 -0.24791 0.00040442 -0.0022042
0.0024306 0.00051466 0.00028181 0.0016473
-0.0037267 0.00049282 0.0010106 0.001342 0.0004114 -0.0022345 0.11057 -0.1659
0.00026918 0.0039218 -0.0013248 0.001464
0.0013362 0.0010972 0.0018265 0.00036769 0.0024234 0.00051438 0.00028313 0.0039179
0.24997 -0.010548 0.0037124 -0.001714
-0.00069121 -0.0004858 0.00084844 0.00029365 0.000244 0.0016178 -0.0013152 0.0014873
0.003711 -0.0017117 0.26331 0.029026
2000000000 0.13076 -0.18931 -0.0035006 0.00042781 0.0023507 0.0017112 -0.0022617 0.0035157
0.001219 0.00022079 -0.00067044 0.00035073
-0.0035019 0.00040729 0.2488 0.05687 -0.00091754 0.0056074 0.0016643 0.00042563
0.001248 -0.0013881 0.00049348 0.00013934
0.0023315 0.0016867 -0.00093548 0.0055862 0.018586 -0.23314 -0.0013046 -0.0012891
0.0020229 -0.0011242 0.00159 0.0012247
-0.0023066 0.0035457 0.0016838 0.00038685 -0.0013393 -0.0012808 0.057046 -0.17535
-0.0013487 0.0036583 3.8534e-05 0.0021062
0.001171 0.0001688 0.0012649 -0.0013997 0.002029 -0.0011387 -0.0013368 0.0036678
0.24386 -0.044797 0.00048071 -0.0024568
