!Keysight Technologies,M9804A,MY58100912,A.14.10.03
!Date: Thursday, April 27, 2023 10:28:33
!Correction: S11(C  6-Port  ) 
!S12(C  6-Port  ) 
!S13(C  6-Port  ) 
!S14(C  6-Port  ) 
!S15(C  6-Port  ) 
!S16(C  6-Port  ) 
!S21(C  6-Port  ) 
!S22(C  6-Port  ) 
!S23(C  6-Port  ) 
!S24(C  6-Port  ) 
!S25(C  6-Port  ) 
!S26(C  6-Port  ) 
!S31(C  6-Port  ) 
!S32(C  6-Port  ) 
!S33(C  6-Port  ) 
!S34(C  6-Port  ) 
!S35(C  6-Port  ) 
!S36(C  6-Port  ) 
!S41(C  6-Port  ) 
!S42(C  6-Port  ) 
!S43(C  6-Port  ) 
!S44(C  6-Port  ) 
!S45(C  6-Port  ) 
!S46(C  6-Port  ) 
!S51(C  6-Port  ) 
!S52(C  6-Port  ) 
!S53(C  6-Port  ) 
!S54(C  6-Port  ) 
!S55(C  6-Port  ) 
!S56(C  6-Port  ) 
!S61(C  6-Port  ) 
!S62(C  6-Port  ) 
!S63(C  6-Port  ) 
!S64(C  6-Port  ) 
!S65(C  6-Port  ) 
!S66(C  6-Port  ) 
!S6P File: Measurement: :
# Hz S  RI   R 50
500000000 -0.33738 -0.038471 -0.0095268 -0.002716 -0.007569 0.012399 -0.0040913 0.011943
0.01257 0.005624 -0.0050069 0.0090383
-0.0096853 -0.0021716 -0.41854 -0.051964 0.0083721 -0.01039 0.0019348 0.011697
0.0077666 0.0019397 0.0020077 0.013525
-0.007671 0.01296 0.0083643 -0.011098 -0.26413 0.20888 0.0078366 0.0033817
-0.001915 0.0070792 0.0020446 0.011804
-0.0033527 0.011693 0.0019359 0.011609 0.0078118 0.0034449 -0.33013 0.044047
-0.017866 -0.006855 0.016302 0.026247
0.013009 0.0040051 0.0081975 0.0028399 -0.0019254 0.0075518 -0.017771 -0.0066054
-0.22478 -0.19389 -0.025403 0.0043804
-0.0046507 0.0074348 0.0018113 0.012976 0.0016573 0.011984 0.016481 0.026351
-0.025173 0.0039937 -0.26552 -0.13302
560000000 -0.31739 0.12262 -0.023066 -0.064291 -0.00012656 0.011175 0.0057208 0.010293
0.010241 0.0034245 0.010234 0.0079531
-0.024165 -0.063325 -0.37922 0.10747 -0.040185 -0.037734 0.013131 0.0040808
-0.012273 -0.004554 0.0032871 -0.0011546
7.4423e-05 0.011641 -0.040839 -0.037394 -0.18309 0.25732 -0.00024857 -0.0045422
0.018981 0.0048908 0.0073771 -0.0057362
0.0057071 0.010525 0.013946 0.0034465 -0.00069873 -0.0050586 -0.30525 0.13198
0.0059064 -0.022802 0.0044548 -0.022264
0.0094792 0.0043247 -0.013426 -0.003507 0.019303 0.0049211 0.0057369 -0.022804
-0.28928 -0.019701 0.009531 -0.048498
0.010374 0.0076364 0.0042904 -0.00053765 0.0071529 -0.0061566 0.004099 -0.022003
0.0095415 -0.048151 -0.32866 0.016048
620000000 -0.27416 0.10564 -0.022898 0.0076964 0.003025 0.0085334 0.008028 -0.0050788
0.011312 -0.00051302 0.0020558 -0.0026607
-0.022983 0.007704 -0.40231 0.059574 -0.018588 -0.00013538 -0.0016736 -0.0019139
0.011493 -0.0065862 0.0016854 -0.0032434
0.0028728 0.0082399 -0.018766 -9.1699e-05 -0.15358 0.26578 -0.0015633 -0.0045992
-0.0030384 -0.0030661 0.0078421 -0.0033786
0.0083589 -0.0054645 -0.0015969 -0.0021004 -0.0013285 -0.0051849 -0.26506 0.14333
-0.037483 -0.019327 0.012179 0.02554
0.011319 -6.0036e-05 0.011203 -0.006487 -0.0030823 -0.002744 -0.037686 -0.018795
-0.20808 -0.05859 -0.04088 0.014774
0.0010623 -0.002854 0.0012437 -0.0035245 0.0078234 -0.0032354 0.012035 0.025414
-0.04069 0.015188 -0.24921 -0.02295
680000000 -0.23392 0.19189 -0.027271 -0.014337 0.0050552 0.0051799 0.0012996 -0.0072909
-0.0032625 -0.011419 0.0043585 -0.0068353
-0.026932 -0.014494 -0.38802 0.15737 -0.032866 -0.0013084 -0.0015993 -0.0006502
-0.0021638 -0.0083027 -0.0015564 -0.0021426
0.0050736 0.0053573 -0.033065 -0.0012702 -0.1027 0.28601 -0.00061218 -0.00011033
-0.0017439 0.00099577 -0.0026707 -0.0093211
0.00081923 -0.0066057 -0.0015799 -0.00026396 -0.00079536 9.7225e-05 -0.22068 0.19309
-0.023998 -0.0082072 -0.0097008 -0.011102
-0.0035336 -0.01102 -0.0023691 -0.0088701 -0.0018248 0.00095921 -0.024064 -0.0081435
-0.25845 0.038934 -0.0052149 -0.0084421
0.0046032 -0.0064035 -0.0016584 -0.0018165 -0.0026464 -0.0094057 -0.0098608 -0.011182
-0.0052104 -0.0086394 -0.26216 0.085807
740000000 -0.19078 0.18632 -0.038933 0.026257 0.012923 -0.0050592 -0.00013527 -0.0041707
-0.0045027 -0.0027656 -0.0057066 0.0027039
-0.038901 0.026108 -0.33542 0.17678 -0.035568 0.03512 -0.00058966 -0.006248
-0.011182 0.0082039 -0.0018856 -0.0059881
0.01265 -0.0051512 -0.035336 0.035066 -0.06873 0.28461 -0.0018735 0.0031759
-0.0027434 -0.0044597 -0.0014784 0.00035359
-0.00023178 -0.0045452 -0.00089241 -0.0064417 -0.0019124 0.0034922 -0.20401 0.20137
-0.04304 -0.0075434 0.022443 0.014888
-0.0042798 -0.0020851 -0.011227 0.007577 -0.0022683 -0.0044163 -0.043029 -0.0075859
-0.15955 0.065876 -0.043003 -0.00095177
-0.0063283 0.0022361 -0.0020602 -0.0064507 -0.0017191 0.00049285 0.022526 0.014936
-0.042637 -0.0009171 -0.25006 0.090939
800000000 -0.1577 0.22721 -0.022747 0.01683 0.0053883 -0.010465 -0.004796 -0.0019599
-0.0042279 0.0024519 0.0045991 0.00045443
-0.022828 0.016823 -0.33831 0.24666 -0.0078691 0.034006 -0.002441 0.0022459
-0.00024495 0.002992 0.001066 0.005001
0.0053343 -0.010488 -0.0077831 0.034121 -0.027998 0.30796 0.0011307 0.001495
0.00034468 0.0033773 -0.0017152 0.00078781
-0.0050239 -0.0019617 -0.0022493 0.0024226 0.0011192 0.0013576 -0.17588 0.22939
-0.028568 0.0133 0.013482 -0.010233
-0.0042629 0.0022605 -0.00041165 0.0028412 0.00035151 0.0033983 -0.02858 0.013445
-0.20767 0.088528 -0.017571 0.018438
0.0043509 0.00098836 0.0010201 0.0055329 -0.0016928 0.00091529 0.013598 -0.010107
-0.017594 0.018444 -0.24442 0.14084
860000000 -0.12327 0.24771 -0.017505 0.030722 -0.0032794 -0.0097955 -0.002622 0.001094
0.0040376 0.0049327 -0.0030581 -0.0031258
-0.017582 0.030618 -0.2906 0.2886 0.0077711 0.034074 2.1488e-05 0.0019269
0.0042076 0.00040941 0.0031021 0.00077159
-0.0034574 -0.009716 0.0079087 0.034106 0.020132 0.31587 -0.00062823 -0.00034685
0.0026936 -0.0014873 0.0013355 0.0042667
-0.0026108 0.00088771 -0.0001068 0.0020661 -0.00065228 -0.00040532 -0.13943 0.24059
-0.018516 0.018408 -0.0059154 -0.0091087
0.004195 0.0050625 0.0043956 -0.00014393 0.0026576 -0.0016128 -0.018511 0.018422
-0.15727 0.13963 -0.026203 0.015445
-0.0036272 -0.0028154 0.0034388 0.00053947 0.0015582 0.0044618 -0.0060412 -0.0094242
-0.02615 0.014969 -0.19343 0.18703
920000000 -0.098484 0.27102 0.0049854 0.038109 -0.0093383 -0.0042049 -0.0018168 0.0020973
0.0010662 0.0018758 0.0026039 -0.0014492
0.0050097 0.038137 -0.26143 0.30989 0.028074 0.021955 0.0015779 0.001221
0.0067765 -0.00060323 0.0037106 -0.0023675
-0.009394 -0.0040812 0.028076 0.021937 0.06648 0.31629 0.0017991 -2.2524e-05
0.0010715 -0.00041291 0.00082855 -0.0009778
-0.0018351 0.002273 0.001357 0.0012895 0.001792 -3.457e-05 -0.11543 0.25781
-0.011171 0.030208 0.0032147 -0.0061182
0.0011527 0.002081 0.0067709 -0.00058193 0.0012293 -0.00038589 -0.011021 0.030273
-0.14709 0.14701 -0.0030669 0.027602
0.0026867 -0.0012238 0.0033707 -0.002591 0.0010084 -0.0010422 0.0033651 -0.0063013
-0.0030974 0.027521 -0.20145 0.20067
980000000 -0.050924 0.29037 0.017454 0.030093 -0.0087899 0.0047363 0.0021558 0.0035449
0.0039169 -0.0012899 -0.003163 -0.0022067
0.017483 0.029966 -0.20861 0.34394 0.032808 0.0048684 0.0020182 -8.9333e-05
0.0013206 -0.0057864 -0.00037904 -0.002564
-0.0088074 0.0046524 0.0328 0.0047322 0.11263 0.30947 0.00053425 -0.0011358
0.0002614 -0.0020369 0.0015349 -0.00030018
0.0022961 0.003635 0.002018 -7.7329e-05 0.00053232 -0.00116 -0.077175 0.26933
0.0075053 0.029936 -0.0089849 -0.0073175
0.0038936 -0.0014929 0.0015856 -0.0057465 0.00018609 -0.0020058 0.0075361 0.029882
-0.11678 0.17668 0.0043852 0.019543
-0.0031037 -0.0023003 -2.5499e-05 -0.0025254 0.00151 -0.00015157 -0.0091452 -0.0072114
0.0042739 0.019826 -0.15984 0.24727
1040000000 -0.0085467 0.29875 0.033124 0.018181 -0.001074 0.0069217 0.0026406 0.00071113
3.4391e-05 -0.0036827 -0.0002734 -0.0013841
0.033072 0.018197 -0.17286 0.35657 0.029201 -0.014658 0.001446 -0.0016402
-0.0026059 -0.0023929 -0.0012754 -0.0026241
-0.00097921 0.0069302 0.029196 -0.014792 0.15848 0.29565 -0.00047078 -0.0014598
-0.001661 -0.00074221 -0.00037405 -0.0011884
0.0025803 0.00065927 0.0014133 -0.001656 -0.00043864 -0.0014544 -0.049592 0.27946
0.01879 0.018028 -0.0020754 0.0017409
-1.9369e-05 -0.0036507 -0.0025597 -0.0022585 -0.0015566 -0.00074299 0.018821 0.018011
-0.084133 0.18466 0.013103 0.018818
-0.0004633 -0.00135 -0.0013168 -0.0027519 -0.00042829 -0.0011242 -0.002211 0.001831
0.013375 0.018832 -0.13911 0.26693
1100000000 0.036922 0.30632 0.035756 -0.0040686 0.0029991 0.0038029 0.0024375 -0.0014538
-0.0020721 -0.0031603 -0.0039326 3.1123e-05
0.03574 -0.0040528 -0.12942 0.3737 0.015102 -0.027477 -2.7969e-06 -0.0018269
-0.003219 -0.00068725 -0.0034314 -0.00064955
0.0030281 0.0037482 0.015006 -0.027558 0.20449 0.27542 -0.0017721 0.00016833
-0.0016644 0.00055705 -0.0010498 -0.0003911
0.002437 -0.0013806 2.028e-05 -0.0018762 -0.0018193 0.00019209 -0.0092215 0.28448
0.02396 0.0054012 -0.0024481 0.00014772
-0.0020143 -0.0032155 -0.0031734 -0.00066688 -0.0017145 0.00049581 0.023904 0.0053676
-0.06634 0.19936 0.018774 0.0090882
-0.0039868 -5.3393e-05 -0.0033833 -0.00055802 -0.0010118 -0.00040457 -0.0023409 0.00019217
0.018814 0.0091793 -0.092743 0.29792
1160000000 0.088378 0.30104 0.023967 -0.020542 0.0027243 -0.00062576 -0.00028295 -0.0024576
-0.004222 -0.00063955 -0.0010228 0.0041424
0.023966 -0.020516 -0.085762 0.37757 -0.0035203 -0.028807 -0.0017029 -0.0016533
-0.0025736 0.0024415 -0.0012899 0.0017672
0.0027651 -0.00066983 -0.0036512 -0.028816 0.24744 0.24488 -0.00071621 0.00164
-0.00055651 0.0018424 -0.0008381 0.00015129
-0.00024949 -0.0024719 -0.0016976 -0.0017239 -0.00065667 0.0016645 0.030224 0.28165
0.020586 -0.009697 -0.0027796 0.0053481
-0.004177 -0.00068319 -0.0025688 0.0023636 -0.0006032 0.0018509 0.020536 -0.0097701
-0.032528 0.20917 0.018048 0.00088027
-0.00077627 0.0041195 -0.0011995 0.0018942 -0.00085405 0.00013946 -0.0028336 0.005354
0.017869 0.00085942 -0.045615 0.30037
1220000000 0.13264 0.28953 0.01052 -0.029767 -0.0015132 -0.00098656 -4.7728e-05 -0.00095242
-0.0025761 0.0025301 0.0013681 0.0019639
0.010521 -0.029726 -0.041711 0.38935 -0.016495 -0.021024 -0.0024544 0.00041544
7.1758e-05 0.0028081 -0.00072453 0.0017865
-0.0015269 -0.00098825 -0.016633 -0.020981 0.2867 0.2062 0.00080111 0.0015536
0.00048643 0.0011414 0.00029994 0.00068982
-7.5762e-05 -0.00097268 -0.0024681 0.00038444 0.00082062 0.0015268 0.069778 0.27322
0.010281 -0.016153 0.0024763 0.0014646
-0.0025475 0.0025006 2.9247e-05 0.0027589 0.00051694 0.0011004 0.010301 -0.016197
-0.0094228 0.21847 0.014372 -0.01212
0.0013821 0.0019932 -0.00077817 0.0018409 0.00031857 0.00066381 0.0024463 0.001439
0.014327 -0.012091 -0.014915 0.31759
1280000000 0.18214 0.26732 -0.0075624 -0.028302 -0.0019081 0.0022541 -0.00093474 -0.0019319
-0.00071418 0.0030411 0.0023861 0.0010863
-0.0075641 -0.028288 0.003949 0.38036 -0.023327 -0.0086572 -0.00096037 0.0013861
0.0015648 0.0016932 0.0005399 0.0020684
-0.0019341 0.0022706 -0.023444 -0.0085273 0.31748 0.16245 0.0014245 3.1566e-05
0.0009916 0.00035405 0.00036818 0.00028014
-0.00097082 -0.0018736 -0.00098944 0.0013716 0.0014211 1.2305e-05 0.10661 0.25714
0.0015131 -0.018042 0.00017823 -6.9633e-05
-0.00066137 0.0030217 0.0015638 0.0016254 0.00099929 0.00034276 0.0015174 -0.018103
0.027256 0.22269 0.0035772 -0.014299
0.0025324 0.001054 0.00060003 0.0020297 0.00038202 0.00027798 0.00012094 -0.0001047
0.0035733 -0.014347 0.033305 0.32032
1340000000 0.21903 0.23324 -0.01725 -0.01908 0.00074822 0.0043981 -0.0016826 -0.0007664
0.0014509 0.0025936 0.0016897 -0.0013754
-0.01727 -0.019122 0.043172 0.3722 -0.021386 0.0038304 -0.00019906 0.0019381
0.0017833 0.00083106 0.001258 0.00075723
0.00077341 0.0043288 -0.021417 0.003958 0.33996 0.11437 0.0010787 -0.00080288
0.00065167 -0.00039567 0.00014377 0.00028894
-0.0016629 -0.00071943 -0.00018352 0.0019422 0.0010661 -0.00080551 0.13911 0.23708
-0.007363 -0.015692 0.001067 0.00014911
0.0015069 0.0027105 0.0018386 0.00083637 0.00064156 -0.00044704 -0.0074095 -0.015696
0.057434 0.21806 -0.0028431 -0.013018
0.001723 -0.0013748 0.0012007 0.00077941 0.00016877 0.00035687 0.0011016 0.00018237
-0.0028222 -0.012972 0.071319 0.31626
1400000000 0.25149 0.19495 -0.023121 -0.0078102 0.0049539 0.0030994 -0.0019946 0.00058015
0.0024098 0.00084472 0.00033502 -0.0012994
-0.023104 -0.0078063 0.080242 0.35929 -0.014918 0.011999 0.001247 0.0013259
0.0011028 -0.00069667 0.0012215 0.00029581
0.0049032 0.0030217 -0.014879 0.012081 0.35329 0.060448 0.00017963 -0.0014831
3.9219e-06 -0.00036231 0.00039739 0.00024537
-0.0020662 0.00062888 0.0012643 0.0013354 0.00016533 -0.0014833 0.16879 0.2087
-0.013001 -0.0097357 -0.00086039 -0.00077639
0.0024 0.00084652 0.0010563 -0.00078068 -6.204e-06 -0.00033246 -0.013003 -0.0096826
0.090237 0.21408 -0.0091669 -0.0089681
0.00029406 -0.0013142 0.001222 0.00031975 0.00044273 0.00024709 -0.00088041 -0.0007644
-0.0091393 -0.0090167 0.11702 0.30573
1460000000 0.27387 0.15113 -0.020425 0.0042737 0.0054015 -0.0016937 -0.0015828 0.0016938
0.00199 -0.00059343 -0.00041294 -0.0010388
-0.020383 0.0042802 0.11451 0.33777 -0.006443 0.014991 0.0017372 0.00024985
0.00088709 -0.0012192 0.0011805 -0.0006313
0.0053891 -0.0016959 -0.0063767 0.015051 0.35928 0.005717 -0.0011146 -0.001208
0.00016262 -0.00028397 0.00057696 -0.00032269
-0.0015974 0.0016688 0.0017023 0.00020448 -0.0011322 -0.0012365 0.19545 0.17988
-0.014417 -0.0037379 -0.0010474 0.0018069
0.0019864 -0.00052132 0.00097367 -0.0012411 0.00012971 -0.00027244 -0.014467 -0.0036998
0.11949 0.19962 -0.011204 -0.0032844
-0.000371 -0.00097758 0.0012055 -0.00063881 0.00053601 -0.00038548 -0.0010337 0.0017698
-0.011188 -0.0033205 0.15019 0.28526
1520000000 0.28575 0.10949 -0.014993 0.0099519 0.0031939 -0.0039555 5.894e-05 0.0025615
0.001986 -0.0016282 -0.0010936 -9.1446e-05
-0.014991 0.0099361 0.14816 0.32301 0.0011643 0.013079 0.0016709 -0.00074413
9.6003e-05 -0.0010262 0.00033119 -0.00099848
0.0032481 -0.0039745 0.0012255 0.013131 0.3521 -0.050972 -0.00098905 -0.00039969
0.0006422 -0.0007765 -5.5361e-05 -0.00014697
8.9834e-05 0.0025669 0.0016519 -0.00075719 -0.00098662 -0.00037666 0.2192 0.1421
-0.014435 0.0015241 0.001125 0.0019966
0.0019758 -0.0016124 5.2551e-05 -0.0010213 0.00065811 -0.00076691 -0.014419 0.0015631
0.14714 0.18597 -0.011396 0.00095796
-0.0011038 -0.00015785 0.00036873 -0.0010255 -0.00010322 -9.3275e-05 0.0011254 0.0020049
-0.011394 0.00092316 0.18406 0.2652
1580000000 0.29506 0.063698 -0.0085561 0.013245 -0.00080895 -0.0047106 0.0013573 0.0019537
-0.00029665 -0.0020147 -0.0004067 0.0004103
-0.0085066 0.013258 0.17555 0.2983 0.0049038 0.0084622 0.00049735 -0.001567
-0.00054701 -0.0010698 -0.0002742 -0.00078258
-0.00083515 -0.0046557 0.0049332 0.0084303 0.33154 -0.10823 -0.0015778 0.00052351
-0.00024669 -0.001103 0.00010746 -0.00044036
0.0013836 0.0019157 0.00052047 -0.0015619 -0.0015814 0.00052883 0.23373 0.10283
-0.011621 0.0065012 0.0020211 0.00098405
-0.00027379 -0.0019994 -0.00056972 -0.0010784 -0.00019026 -0.0011281 -0.011612 0.0065562
0.17152 0.16869 -0.0093152 0.0067447
-0.00035685 0.00042504 -0.00024501 -0.0007627 0.00011499 -0.00038579 0.0020369 0.00096891
-0.0093136 0.0066936 0.21697 0.23843
1640000000 0.29718 0.022442 -0.001822 0.012484 -0.0025405 -0.0024939 0.0026948 0.0010772
-0.0005479 -0.0014292 -0.00024023 0.00053796
-0.0017999 0.012483 0.20529 0.27309 0.0058372 0.0037239 -0.00065423 -0.0017001
-0.0010512 -0.00040695 -0.00043858 -0.00068507
-0.0025436 -0.0024799 0.0058471 0.0037279 0.30297 -0.15755 -0.00075326 0.0013998
-0.00094049 -0.0010465 -6.2685e-05 -0.00038902
0.0027578 0.0010358 -0.00063438 -0.0017144 -0.00070031 0.0013939 0.24661 0.053617
-0.0077949 0.0081706 0.0023564 -0.00059319
-0.00050671 -0.0014096 -0.0010172 -0.00040597 -0.00092374 -0.00098103 -0.0077768 0.0081729
0.19421 0.14475 -0.0050083 0.0088304
-0.00016926 0.00058552 -0.00051437 -0.00066217 -4.2759e-05 -0.00036736 0.0023637 -0.00062459
-0.0049805 0.0088009 0.24254 0.20734
1700000000 0.28992 -0.022982 0.0017811 0.0098449 -0.003293 7.0513e-05 0.0030717 -0.0012048
-0.0019218 -0.00069311 0.00068585 0.00043591
0.0018126 0.0098475 0.22338 0.24135 0.0039818 0.00092175 -0.0014405 -0.0005882
-0.00083144 8.4819e-05 -0.00086915 -0.00043663
-0.0033451 9.0923e-05 0.0039439 0.00088247 0.25925 -0.19725 0.00037983 0.0016366
-0.0018842 -0.0003175 -0.00048207 -0.00076973
0.0029952 -0.0011501 -0.0014643 -0.00058447 0.00041134 0.0016246 0.24365 0.0035019
-0.0051595 0.0092585 0.0014187 -0.0020375
-0.0019583 -0.00075961 -0.000807 0.00011072 -0.0019141 -0.0002848 -0.0051001 0.0092867
0.21179 0.12504 -0.00036598 0.0093098
0.00066624 0.00049446 -0.00085838 -0.00042736 -0.00046912 -0.00078872 0.0014011 -0.0020695
-0.00036136 0.0092619 0.25902 0.17278
1760000000 0.27767 -0.071667 0.0043885 0.0067141 -0.0021808 0.00087805 0.0013653 -0.0033808
-0.0012947 0.00057754 0.00044928 -0.00066112
0.0043676 0.0066617 0.2493 0.20125 0.0017944 -0.00096057 -0.0011869 0.00016606
-0.00095262 0.00096118 -0.00057156 0.00039782
-0.002163 0.00084301 0.0017575 -0.00094288 0.21022 -0.2302 0.001176 0.0010923
-0.0012201 0.0013819 -0.0012127 -0.00048742
0.0013196 -0.0033683 -0.001219 0.00012799 0.0011781 0.0010749 0.23444 -0.048383
-0.0015366 0.008851 -0.00022763 -0.00232
-0.0012728 0.00064085 -0.00096685 0.00093152 -0.001204 0.0013561 -0.0015022 0.0088677
0.22711 0.09035 0.0034956 0.0070194
0.00042234 -0.00066451 -0.00057412 0.00041433 -0.0012257 -0.00050913 -0.00023892 -0.0023349
0.0034767 0.0070016 0.27172 0.13514
1820000000 0.2527 -0.10917 0.0048148 0.0029743 -5.6541e-05 0.0022827 -0.00096941 -0.0030541
-0.001113 0.00083413 -8.0105e-05 -0.00012742
0.0048217 0.0029813 0.25908 0.17092 -8.6169e-05 -1.4446e-05 -0.001302 0.00087564
3.8605e-05 0.0013241 -0.0005678 0.00054133
-5.4966e-05 0.0023048 -8.7401e-05 -7.7993e-06 0.15997 -0.2458 0.0015506 0.00043525
-0.00043276 0.002237 -0.001323 0.00033089
-0.00096469 -0.0030102 -0.0013099 0.00092935 0.0013788 0.00041352 0.20409 -0.095823
0.00015042 0.007234 -0.0014786 -0.0013839
-0.001128 0.00084172 4.6009e-05 0.0013604 -0.00033625 0.002277 0.00018558 0.0072181
0.24471 0.061345 0.0044771 0.0037417
-6.7364e-05 -0.0001291 -0.00046393 0.00049453 -0.0013163 0.0002895 -0.001489 -0.0013326
0.0044597 0.0037402 0.27407 0.099327
1880000000 0.21717 -0.14944 0.0028121 0.00047339 -0.00034646 0.0019958 -0.0029083 -0.0021658
-0.00034052 0.0017228 0.00023932 -0.00049988
0.002756 0.0004814 0.26318 0.12428 -0.0021671 0.0016208 -0.00021087 0.0016867
0.00060599 0.0011514 0.00013759 0.00089898
-0.00038874 0.0020179 -0.0021175 0.0016746 0.10757 -0.25503 0.0018013 -0.0010484
0.0014096 0.0020818 -0.00096073 0.0012466
-0.0029705 -0.0021922 -0.00021921 0.001684 0.0017948 -0.0010679 0.16314 -0.13577
0.0011043 0.0052627 -0.0022871 0.00048078
-0.00021654 0.0016974 0.00065637 0.0011406 0.0013439 0.0019898 0.0011392 0.0052355
0.24795 0.02872 0.004734 0.0015985
0.00025157 -0.00052028 2.0579e-05 0.00092302 -0.001039 0.0012258 -0.002224 0.00047619
0.0047419 0.0016235 0.27398 0.065277
1940000000 0.17747 -0.17501 0.00044184 -0.0014431 0.0013454 0.0018747 -0.0036829 0.00051286
0.0013943 0.0010852 -0.0007011 -0.00041166
0.0004805 -0.0014606 0.26339 0.092297 -0.00097763 0.0038158 0.0010172 0.001371
0.0018508 0.00043146 0.00082517 0.00028561
0.0013613 0.0019329 -0.0009904 0.0037529 0.061854 -0.24798 0.0004137 -0.0022048
0.0024364 0.00060793 0.00023952 0.0016475
-0.0038091 0.00043858 0.00096894 0.0013753 0.00043473 -0.0021497 0.11063 -0.16596
0.000321 0.0038644 -0.0012923 0.0016039
0.0013327 0.0010361 0.0017854 0.00035667 0.0024409 0.00055075 0.00031663 0.0038895
0.25001 -0.010488 0.0036177 -0.001692
-0.00071567 -0.00050164 0.00066909 0.00026667 0.00013461 0.0016694 -0.0012702 0.0015006
0.0036676 -0.0016397 0.2632 0.029246
2000000000 0.13079 -0.18933 -0.0034679 0.00040726 0.0024552 0.001616 -0.0022772 0.0035198
0.001217 0.00020343 -0.00067385 0.000309
-0.0035063 0.00042469 0.24883 0.056906 -0.00083516 0.0055966 0.0016188 0.0004701
0.0012335 -0.0013695 0.00040904 9.2053e-05
0.0024054 0.0016367 -0.00086164 0.0056078 0.018648 -0.233 -0.0012706 -0.0012753
0.002066 -0.0010832 0.0015238 0.0013191
-0.0022937 0.0035763 0.0016619 0.00038132 -0.0013181 -0.0013937 0.05708 -0.17544
-0.0013259 0.0036748 7.3885e-05 0.0021332
0.0011809 0.00018185 0.0012491 -0.0013811 0.002025 -0.0010736 -0.0012951 0.0037097
0.24383 -0.044732 0.00039066 -0.0024788
