!Keysight Technologies,M9804A,MY58100912,A.14.10.03
!Date: Thursday, April 27, 2023 10:28:33
!Correction: S11(C  6-Port  ) 
!S12(C  6-Port  ) 
!S13(C  6-Port  ) 
!S14(C  6-Port  ) 
!S15(C  6-Port  ) 
!S16(C  6-Port  ) 
!S21(C  6-Port  ) 
!S22(C  6-Port  ) 
!S23(C  6-Port  ) 
!S24(C  6-Port  ) 
!S25(C  6-Port  ) 
!S26(C  6-Port  ) 
!S31(C  6-Port  ) 
!S32(C  6-Port  ) 
!S33(C  6-Port  ) 
!S34(C  6-Port  ) 
!S35(C  6-Port  ) 
!S36(C  6-Port  ) 
!S41(C  6-Port  ) 
!S42(C  6-Port  ) 
!S43(C  6-Port  ) 
!S44(C  6-Port  ) 
!S45(C  6-Port  ) 
!S46(C  6-Port  ) 
!S51(C  6-Port  ) 
!S52(C  6-Port  ) 
!S53(C  6-Port  ) 
!S54(C  6-Port  ) 
!S55(C  6-Port  ) 
!S56(C  6-Port  ) 
!S61(C  6-Port  ) 
!S62(C  6-Port  ) 
!S63(C  6-Port  ) 
!S64(C  6-Port  ) 
!S65(C  6-Port  ) 
!S66(C  6-Port  ) 
!S6P File: Measurement: :
# Hz S  RI   R 50
500000000 -0.33813 -0.045659 -0.010926 -0.0022007 -0.0088846 0.013403 -0.0051013 0.012746
0.012141 0.0045755 -0.0051851 0.0091539
-0.011123 -0.0022006 -0.41895 -0.056552 0.0074215 -0.010745 0.0017821 0.012965
0.0068625 0.0024847 0.0013621 0.014096
-0.0089618 0.013638 0.0073765 -0.010716 -0.26782 0.20684 0.0069023 0.0036777
-0.0028016 0.008194 0.0004254 0.01211
-0.005235 0.012674 0.0016868 0.012887 0.006793 0.0036776 -0.33415 0.034423
-0.022261 -0.0051002 0.017084 0.027085
0.011987 0.0047424 0.0069836 0.0024639 -0.0029396 0.0080851 -0.022326 -0.0051074
-0.21399 -0.21562 -0.02881 0.0059018
-0.0052575 0.0092393 0.0013531 0.014105 0.0004071 0.012024 0.017227 0.026993
-0.028799 0.0059849 -0.26083 -0.14091
560000000 -0.31878 0.11946 -0.02346 -0.063858 -0.00030207 0.012265 0.0054553 0.011578
0.010092 0.0047507 0.010421 0.008637
-0.023299 -0.063663 -0.37707 0.10426 -0.042005 -0.036831 0.013759 0.0040696
-0.01396 -0.0047515 0.0037969 0.00031439
-0.00034902 0.012328 -0.042145 -0.036811 -0.18485 0.25688 -0.00011146 -0.0042345
0.019996 0.0061087 0.0068678 -0.0062593
0.0054334 0.01163 0.013939 0.0041836 -0.00021437 -0.0042541 -0.31211 0.12897
0.0031541 -0.023484 0.0043521 -0.022085
0.010292 0.0047875 -0.01404 -0.004508 0.020049 0.0061222 0.0032009 -0.023538
-0.28816 -0.036836 0.0084908 -0.049618
0.010527 0.0085407 0.003593 2.7544e-05 0.0068596 -0.0061257 0.0042245 -0.022168
0.0085084 -0.049631 -0.32789 0.0098023
620000000 -0.27658 0.1026 -0.023272 0.008956 0.0035828 0.009283 0.0084071 -0.0047837
0.011237 0.00042839 0.0011856 -0.0023137
-0.023255 0.0088998 -0.40366 0.055777 -0.01831 0.00058808 -0.0011127 -0.0018975
0.011788 -0.005749 0.0012915 -0.0030703
0.0036589 0.0092478 -0.018341 0.00064285 -0.15474 0.26636 -0.00059625 -0.0054959
-0.0023313 -0.0025755 0.0088935 -0.0037877
0.0085221 -0.0045747 -0.0011042 -0.0018621 -0.00064593 -0.0053715 -0.2707 0.13967
-0.040171 -0.019365 0.012906 0.027386
0.011475 7.9208e-05 0.011877 -0.0058332 -0.0022138 -0.0026158 -0.040234 -0.019168
-0.2049 -0.076376 -0.04438 0.015402
0.0015371 -0.0021346 0.0012405 -0.0030291 0.00878 -0.003704 0.012975 0.027332
-0.044504 0.015465 -0.24792 -0.029113
680000000 -0.23768 0.18966 -0.026715 -0.013743 0.0051984 0.0051043 0.0022167 -0.0068193
-0.0028197 -0.011634 0.0051159 -0.0074495
-0.026652 -0.01369 -0.38925 0.15517 -0.032323 -0.0014169 -0.0012785 -0.00041957
-0.0015403 -0.0093872 -0.0011602 -0.0022313
0.0052835 0.005155 -0.032393 -0.0013185 -0.10259 0.28593 -0.00072302 -0.00085608
-0.0014221 0.00012245 -0.0028907 -0.0095725
0.0022293 -0.0068827 -0.0012453 -0.00041035 -0.00077035 -0.00088035 -0.224 0.19292
-0.024268 -0.0062806 -0.010305 -0.012194
-0.0027375 -0.01146 -0.001548 -0.0093711 -0.0014198 0.00025338 -0.02429 -0.0062387
-0.26433 0.025159 -0.0059795 -0.0061468
0.0051069 -0.007524 -0.0011391 -0.0022027 -0.0029165 -0.0095169 -0.010349 -0.012178
-0.0059357 -0.0062103 -0.26097 0.078044
740000000 -0.19318 0.18491 -0.039122 0.027458 0.013319 -0.0052629 5.2183e-06 -0.0046868
-0.0044072 -0.002292 -0.0061772 0.0025194
-0.039145 0.027379 -0.335 0.17378 -0.035205 0.035151 -0.00069242 -0.0064698
-0.011356 0.0070367 -0.0021443 -0.0069463
0.013388 -0.0052961 -0.035153 0.035286 -0.068899 0.28354 -0.0021514 0.0029417
-0.0024458 -0.0050225 -0.0014602 0.00029279
-3.4872e-05 -0.0047568 -0.00068343 -0.0065023 -0.0021293 0.002965 -0.20764 0.20115
-0.044374 -0.0062324 0.024469 0.01611
-0.0044542 -0.0023959 -0.011269 0.0072082 -0.0024583 -0.0049947 -0.044414 -0.0061866
-0.15932 0.053032 -0.044365 0.0012816
-0.0060769 0.0023933 -0.0022356 -0.007123 -0.001412 0.00028111 0.024582 0.016006
-0.044443 0.0011944 -0.25002 0.083056
800000000 -0.15911 0.22643 -0.021664 0.016922 0.0056195 -0.010465 -0.0044873 -0.0019671
-0.003921 0.0017572 0.004465 0.00060109
-0.021655 0.016888 -0.3392 0.24416 -0.0078528 0.033937 -0.0024615 0.0020865
-0.0010056 0.0026961 0.00091768 0.0051953
0.0055979 -0.010497 -0.0077598 0.033986 -0.028576 0.30636 0.00049967 0.0016841
-2.2249e-05 0.0034822 -0.0018013 0.00091771
-0.0045254 -0.0020088 -0.0024384 0.0021287 0.00049466 0.0016678 -0.1783 0.23034
-0.028348 0.014737 0.014461 -0.010545
-0.0039272 0.0018978 -0.0010269 0.0027659 -4.9224e-05 0.0034809 -0.028335 0.014806
-0.21013 0.07857 -0.016934 0.019575
0.0042259 0.00058985 0.00091104 0.0052505 -0.0018117 0.00090176 0.014321 -0.010599
-0.016968 0.01956 -0.24676 0.13391
860000000 -0.1248 0.24594 -0.017198 0.030416 -0.0030602 -0.010067 -0.0018107 0.00053809
0.0037112 0.0052383 -0.0036482 -0.0033088
-0.017189 0.03035 -0.29146 0.28568 0.0076991 0.034196 -0.00014727 0.0021022
0.0038498 0.00042512 0.0033609 0.00071914
-0.0031019 -0.010043 0.0078485 0.034242 0.018739 0.31423 -0.00070232 1.3778e-05
0.0028161 -0.0015252 0.0017558 0.0041722
-0.0018248 0.00055319 -0.00015291 0.002135 -0.00067435 3.1203e-05 -0.14042 0.24058
-0.017263 0.018538 -0.0059111 -0.0088862
0.0036317 0.0051502 0.0038397 0.0004225 0.0028521 -0.0014856 -0.017263 0.018577
-0.15734 0.13261 -0.026535 0.015735
-0.0036252 -0.0031702 0.0034028 0.00084206 0.0017578 0.0041945 -0.0058356 -0.0089089
-0.026573 0.015709 -0.19594 0.18093
920000000 -0.10035 0.26833 0.0052205 0.037535 -0.0093481 -0.0048861 -0.0018458 0.0013509
0.00082603 0.0019601 0.0027696 -0.0016158
0.0051839 0.037488 -0.26317 0.30713 0.028013 0.02211 0.0014226 0.0011356
0.0072275 0.00030591 0.0041147 -0.0027523
-0.0093468 -0.00484 0.028137 0.022035 0.064607 0.31535 0.0020199 0.00011229
0.001286 -0.00022513 0.00077443 -0.0012654
-0.0018245 0.0014306 0.001366 0.0011647 0.0020296 0.00012004 -0.11658 0.25763
-0.010833 0.031266 0.0044516 -0.0068877
0.0009163 0.0019647 0.0072586 0.00023769 0.0012886 -0.00019592 -0.010788 0.031314
-0.14916 0.13858 -0.0023059 0.027372
0.0027635 -0.0015984 0.0040467 -0.0027086 0.00080094 -0.0012583 0.0044706 -0.006901
-0.0023205 0.027353 -0.20634 0.1953
980000000 -0.053409 0.28777 0.017257 0.029756 -0.0093475 0.0042804 0.0018146 0.0032004
0.0038556 -0.0012185 -0.0029604 -0.0025482
0.017224 0.0297 -0.21084 0.34132 0.033132 0.0050332 0.0022005 4.9766e-05
0.0018877 -0.0057667 0.00010241 -0.0025625
-0.0093449 0.0043206 0.033199 0.0049067 0.11088 0.30906 0.00065595 -0.0012783
0.00048399 -0.0021577 0.0014143 -0.00026495
0.0017756 0.0032099 0.0021913 2.1851e-05 0.00065007 -0.0012867 -0.077745 0.26833
0.008717 0.031229 -0.0093941 -0.0078329
0.0038894 -0.0011993 0.0018805 -0.0057406 0.00048955 -0.002164 0.008776 0.031257
-0.11933 0.1678 0.0052068 0.019706
-0.0029999 -0.0024963 5.6639e-05 -0.0025841 0.0014063 -0.0002739 -0.0094183 -0.007753
0.0051593 0.019698 -0.16422 0.24088
1040000000 -0.01217 0.29651 0.032937 0.018102 -0.0015989 0.0068495 0.0022256 0.00073207
0.00012606 -0.0034975 -0.00028922 -0.0013786
0.032891 0.018091 -0.1757 0.35454 0.02957 -0.014765 0.0015864 -0.0017653
-0.0020828 -0.0029092 -0.0014242 -0.002786
-0.001577 0.0068679 0.029553 -0.014913 0.15688 0.29583 -0.00046509 -0.0017583
-0.0014997 -0.0010017 -0.00058974 -0.0010515
0.0022287 0.00072821 0.0015779 -0.0017812 -0.00047312 -0.0017587 -0.050811 0.27849
0.020551 0.018806 -0.0020383 0.0007206
7.3901e-05 -0.0035169 -0.0020858 -0.0028531 -0.0015178 -0.0010155 0.020586 0.018785
-0.087127 0.17565 0.013279 0.019208
-0.00026965 -0.0014823 -0.0013998 -0.0027533 -0.00059184 -0.001071 -0.0020471 0.00071122
0.01328 0.019205 -0.1438 0.2625
1100000000 0.032832 0.30476 0.035676 -0.0042057 0.0025922 0.0039746 0.0022004 -0.0010144
-0.0018394 -0.0031101 -0.004174 -0.00016892
0.035624 -0.0041838 -0.13242 0.37203 0.015303 -0.028067 4.7566e-05 -0.0018215
-0.0035338 -0.0011048 -0.0037486 -0.00062487
0.002608 0.0039583 0.015213 -0.028174 0.20356 0.27574 -0.0020614 6.9309e-05
-0.0019462 0.00032863 -0.0012306 -0.00024331
0.0021954 -0.0010037 2.9097e-05 -0.0018284 -0.002052 6.2931e-05 -0.010416 0.28356
0.026155 0.0052301 -0.002905 -0.00059472
-0.0018702 -0.0031498 -0.0035525 -0.0011012 -0.0019356 0.00032422 0.026187 0.0051931
-0.070896 0.18964 0.019547 0.0089251
-0.0041467 -0.00015999 -0.0037463 -0.00060132 -0.0012308 -0.00018963 -0.0029227 -0.00059001
0.019541 0.0089306 -0.098409 0.29497
1160000000 0.08383 0.30037 0.023724 -0.020934 0.0025024 -0.00035546 -0.00026265 -0.0020038
-0.0041598 -0.00083486 -0.0010346 0.0041957
0.023686 -0.020909 -0.089288 0.37664 -0.0037941 -0.029443 -0.0016292 -0.0017702
-0.0030977 0.0024621 -0.0015457 0.0019503
0.0024957 -0.00036558 -0.003932 -0.029483 0.24665 0.24489 -0.00091796 0.0018679
-0.00065838 0.0021398 -0.00094231 0.00023878
-0.00029229 -0.002001 -0.001628 -0.0017808 -0.000918 0.0018725 0.028838 0.28065
0.022704 -0.011535 -0.0038783 0.0049952
-0.0042108 -0.0008429 -0.0031019 0.0024676 -0.00065251 0.002126 0.022675 -0.011573
-0.037424 0.19925 0.018528 0.00082741
-0.00097496 0.0041431 -0.0015197 0.0019445 -0.00094974 0.0002182 -0.0038572 0.0049823
0.018527 0.00081796 -0.05143 0.29781
1220000000 0.12818 0.29011 0.010262 -0.030122 -0.0017041 -0.00061292 0.0002567 -0.00069072
-0.002703 0.002289 0.0012257 0.0021434
0.010272 -0.030094 -0.044733 0.38942 -0.017136 -0.021416 -0.0026244 0.00039691
-0.00015957 0.0032601 -0.00094195 0.0019607
-0.0017148 -0.00060787 -0.017254 -0.021364 0.28575 0.2058 0.00074641 0.0019735
0.00070236 0.0015143 0.00046902 0.00062982
0.00024654 -0.00068001 -0.0026218 0.00039718 0.00074129 0.0019647 0.068759 0.27242
0.011475 -0.018675 0.0013702 0.0013949
-0.002698 0.0023001 -0.00014243 0.0032685 0.00070821 0.0015059 0.011481 -0.0187
-0.01615 0.20964 0.014642 -0.012983
0.0012202 0.0021419 -0.0009364 0.0019499 0.00048367 0.00064035 0.0013725 0.0013954
0.014639 -0.012968 -0.021129 0.31619
1280000000 0.17813 0.26866 -0.0082144 -0.028441 -0.0018582 0.002777 -0.0007264 -0.0020991
-0.000926 0.0030902 0.002507 0.0013512
-0.0081882 -0.028396 0.0012596 0.38087 -0.024169 -0.008593 -0.0011042 0.0014527
0.0018599 0.0021377 0.00061183 0.0021923
-0.0018418 0.0027756 -0.024248 -0.0084731 0.31596 0.16198 0.0017784 0.00014743
0.0013284 0.00031743 0.00043604 0.00027541
-0.00072717 -0.002108 -0.0010956 0.0014421 0.0017728 0.00014354 0.10572 0.25553
0.001276 -0.021065 -0.00081716 0.00054288
-0.00091412 0.0031059 0.0018664 0.0021496 0.0013205 0.00033308 0.001249 -0.021088
0.019785 0.21459 0.0031233 -0.01537
0.0024992 0.0013552 0.000639 0.0022117 0.00041353 0.00027286 -0.00083406 0.00055021
0.0031096 -0.015348 0.027409 0.31945
1340000000 0.2153 0.23563 -0.017926 -0.018654 0.0010806 0.0047604 -0.0016435 -0.00099838
0.0014536 0.0027859 0.0019736 -0.0013749
-0.017898 -0.018639 0.040941 0.37303 -0.021941 0.0044112 -0.00024111 0.0021345
0.0022163 0.00086116 0.0013911 0.00085686
0.0010931 0.0047373 -0.021945 0.0045333 0.33781 0.11434 0.0014484 -0.0010095
0.00094504 -0.00065403 9.7573e-05 0.00027561
-0.0016301 -0.000999 -0.00022235 0.0021342 0.0014485 -0.0010106 0.13776 0.23501
-0.0092964 -0.018277 0.00060913 0.0011727
0.0014515 0.0027741 0.0022097 0.00084968 0.00093808 -0.00063322 -0.0093229 -0.018278
0.048551 0.21141 -0.0036052 -0.014085
0.001988 -0.0014109 0.0013849 0.00081372 8.9986e-05 0.00026258 0.00061581 0.0011525
-0.0035898 -0.014119 0.065536 0.31649
1400000000 0.24892 0.1979 -0.023466 -0.0069843 0.0054763 0.0032251 -0.0021946 0.00044592
0.0024042 0.0010679 0.00043791 -0.0015073
-0.023429 -0.0069941 0.07864 0.36006 -0.015049 0.012785 0.0014393 0.0014664
0.001336 -0.00090821 0.0013323 0.00018005
0.0055014 0.0031911 -0.014997 0.012883 0.35082 0.061271 0.00019727 -0.0019734
2.0125e-05 -0.00048496 0.00039865 0.00022111
-0.0021775 0.00044717 0.0014486 0.0014401 0.00020117 -0.0019739 0.16652 0.20601
-0.015896 -0.01111 -0.00090792 0.00019387
0.0024201 0.0010481 0.0013431 -0.00092736 2.4728e-05 -0.00048695 -0.01594 -0.011075
0.081241 0.2088 -0.010143 -0.0090409
0.00046251 -0.0015251 0.0013192 0.00016403 0.00039152 0.00022646 -0.00090451 0.00020868
-0.010143 -0.0090385 0.11096 0.30666
1460000000 0.27196 0.15388 -0.020192 0.0052422 0.0059128 -0.0019013 -0.0016829 0.0017975
0.0022484 -0.00034598 -0.00034748 -0.0011532
-0.020179 0.0052125 0.11286 0.33821 -0.0060352 0.015734 0.0018882 0.00024322
0.00089919 -0.0014621 0.0012366 -0.00068492
0.0059163 -0.0019231 -0.0059605 0.015779 0.35703 0.0074123 -0.0014331 -0.0015427
0.00010184 -0.00039586 0.0005539 -0.00030771
-0.0016726 0.0018089 0.0018977 0.00021926 -0.0014212 -0.0015494 0.19169 0.17704
-0.017672 -0.0036475 -0.00051247 0.0026929
0.0022349 -0.00034181 0.00090387 -0.0014637 0.00010047 -0.00038748 -0.017696 -0.0036185
0.10962 0.19583 -0.011906 -0.0027031
-0.00036446 -0.0011633 0.0012161 -0.00070478 0.00057023 -0.00035771 -0.00052536 0.002735
-0.011883 -0.0027113 0.14446 0.28627
1520000000 0.28459 0.11234 -0.014302 0.0106 0.0036148 -0.0043922 4.0302e-05 0.0027286
0.0023234 -0.0017295 -0.0011598 -0.00022728
-0.014294 0.010585 0.14656 0.32366 0.0018408 0.013364 0.0018503 -0.0008483
-5.6789e-05 -0.0011356 0.00036381 -0.0010124
0.0036039 -0.0044024 0.0019033 0.013369 0.35078 -0.048266 -0.0014268 -0.00039109
0.00066741 -0.0008306 0.00012745 -0.00017594
5.4966e-05 0.0027253 0.0018514 -0.00084592 -0.0014286 -0.00038244 0.21381 0.14025
-0.016904 0.0032419 0.0018905 0.0023485
0.0023117 -0.0017415 -5.9892e-05 -0.0011395 0.00067584 -0.00081548 -0.016905 0.0032876
0.13789 0.18351 -0.012009 0.0017533
-0.0011509 -0.00023557 0.00035888 -0.0010162 0.00012103 -0.00016804 0.001917 0.002332
-0.01202 0.0017339 0.17843 0.26765
1580000000 0.29406 0.065834 -0.0075058 0.013463 -0.00085232 -0.0052397 0.0015174 0.0020584
-2.8654e-05 -0.0022443 -0.00036544 0.00042704
-0.0075167 0.013438 0.17389 0.29871 0.0055374 0.0083582 0.0004858 -0.0017955
-0.00061094 -0.0010486 -0.00026744 -0.00084806
-0.00087798 -0.0052153 0.0056 0.0083361 0.33106 -0.10587 -0.0018415 0.00098014
-0.00033396 -0.0011718 0.00013872 -0.00052863
0.0015411 0.0020722 0.00049215 -0.0017972 -0.0018436 0.00098009 0.22695 0.10262
-0.01287 0.0089638 0.0028457 0.00080454
-3.574e-05 -0.0022674 -0.00062416 -0.0010457 -0.00033274 -0.0011771 -0.012858 0.0090051
0.16252 0.1672 -0.0092913 0.007768
-0.00036923 0.00044411 -0.00025523 -0.00082933 0.00012023 -0.0005322 0.0028635 0.00078058
-0.0092818 0.0077716 0.21191 0.24155
1640000000 0.29623 0.024724 -0.00084604 0.012075 -0.0028686 -0.0028479 0.0029022 0.0010491
-0.00055643 -0.0017491 -0.00031044 0.00059714
-0.00085991 0.012075 0.20326 0.27413 0.0062957 0.0033411 -0.000804 -0.0019166
-0.0010233 -0.00037984 -0.00047621 -0.00078802
-0.0028912 -0.002832 0.0063282 0.0033127 0.30354 -0.15517 -0.00053606 0.0017737
-0.0011489 -0.0011575 -7.5705e-05 -0.00050405
0.0029102 0.0010018 -0.00081672 -0.0019239 -0.00053844 0.0017777 0.23917 0.056195
-0.0078163 0.01055 0.0030094 -0.00099719
-0.00056637 -0.0017458 -0.0010421 -0.00037249 -0.001153 -0.0011638 -0.0077823 0.010553
0.18543 0.1442 -0.0044467 0.0097752
-0.00032924 0.00057379 -0.00047934 -0.00079403 -6.7482e-05 -0.00049465 0.002996 -0.0010103
-0.0044399 0.0097773 0.23783 0.21154
1700000000 0.2891 -0.020618 0.0023808 0.0090075 -0.003751 3.7321e-05 0.0031598 -0.0014639
-0.0021486 -0.00092536 0.00068801 0.00043833
0.0023708 0.0090025 0.22165 0.24258 0.0041192 0.00039692 -0.0016545 -0.00059611
-0.00076795 6.0388e-05 -0.00095749 -0.00050823
-0.0037455 5.4773e-05 0.0041226 0.0003676 0.2603 -0.19539 0.00081611 0.0016294
-0.0021222 -0.00027065 -0.00048117 -0.00088064
0.0031619 -0.0014709 -0.0016516 -0.00057651 0.00083526 0.0016381 0.23732 0.00888
-0.0042285 0.011316 0.0017779 -0.0025909
-0.0021673 -0.00091442 -0.00077363 7.4371e-05 -0.0021277 -0.00023032 -0.0042058 0.011336
0.20328 0.12527 0.00049728 0.010039
0.00070236 0.00047139 -0.00095979 -0.00048403 -0.00046106 -0.00088532 0.0017948 -0.0025944
0.00050921 0.010054 0.25557 0.17728
1760000000 0.27683 -0.06891 0.004358 0.005628 -0.0025459 0.0010572 0.0011851 -0.0036258
-0.001496 0.00065175 0.00040584 -0.00066816
0.0043452 0.005639 0.24747 0.20286 0.0016239 -0.0015175 -0.0013293 0.00028518
-0.00099586 0.00090321 -0.00065466 0.00038392
-0.0025428 0.0010785 0.001619 -0.0015332 0.21119 -0.22899 0.0013321 0.00083409
-0.0013223 0.0015051 -0.001419 -0.00056243
0.0011629 -0.0036664 -0.0013278 0.00030823 0.0013293 0.0008258 0.23054 -0.040437
-0.00016627 0.0101 -0.00013087 -0.0029674
-0.0014992 0.00066207 -0.00098743 0.00092232 -0.0013081 0.0014956 -0.00013455 0.010112
0.21842 0.091303 0.0046589 0.0072897
0.00041573 -0.00071763 -0.00064156 0.00038998 -0.0014388 -0.00056982 -0.00014951 -0.0029831
0.0046516 0.0072681 0.26903 0.14007
1820000000 0.2526 -0.10598 0.0042805 0.0021406 -0.00018742 0.0026027 -0.0012605 -0.0031237
-0.0013064 0.0010195 -1.7468e-05 -4.9247e-05
0.004265 0.0021397 0.25784 0.17298 -0.00056866 -0.00036114 -0.0012807 0.0011
-9.6539e-06 0.0012462 -0.00060159 0.00059922
-0.00017592 0.0025911 -0.00056788 -0.00037571 0.16109 -0.24499 0.0014245 0.00010483
-0.00016007 0.0024839 -0.0013938 0.00035367
-0.0012519 -0.0031373 -0.0012782 0.0011022 0.0014226 0.00010365 0.20393 -0.086925
0.0017669 0.0081284 -0.0018172 -0.001933
-0.0012785 0.0010492 1.7187e-05 0.0012293 -0.00014863 0.0024847 0.0017916 0.0081412
0.23638 0.063689 0.0055118 0.0033534
-1.7031e-06 -8.4824e-05 -0.00060733 0.00058552 -0.0013695 0.00032037 -0.0018253 -0.0019463
0.0054855 0.0033496 0.27252 0.10453
1880000000 0.21794 -0.1463 0.0018737 8.8831e-05 -0.00044905 0.0022774 -0.0030982 -0.0021611
-0.000192 0.0018626 0.00016634 -0.00054366
0.0018764 9.0827e-05 0.26226 0.12628 -0.0026553 0.001584 -4.2445e-05 0.0016478
0.00050529 0.001126 0.00010813 0.001022
-0.00043954 0.0022926 -0.0026536 0.0016161 0.10893 -0.25432 0.0014992 -0.00080899
0.0016469 0.0020513 -0.00099717 0.001471
-0.0031398 -0.0021304 -3.6294e-05 0.0016555 0.0014876 -0.00084205 0.16677 -0.12832
0.0028362 0.0055349 -0.0027407 0.00024834
-0.00019525 0.0018832 0.00049962 0.0011183 0.0016495 0.0020144 0.0028677 0.0055107
0.24004 0.032095 0.0056568 0.0011183
0.0001251 -0.00053673 8.9385e-05 0.0010176 -0.0010281 0.0014734 -0.0027003 0.00024728
0.0056754 0.0011274 0.27317 0.069746
1940000000 0.17891 -0.17212 -0.00040726 -0.0013194 0.0013183 0.0021959 -0.0036635 0.00077549
0.0014706 0.0011811 -0.00070392 -0.00048335
-0.00040597 -0.0013045 0.26289 0.094651 -0.0014013 0.0040153 0.0010334 0.0012242
0.0017255 0.00056201 0.00087986 0.00033601
0.0013515 0.0021795 -0.0013818 0.0040242 0.062901 -0.24763 0.00028712 -0.0018649
0.0024904 0.00042684 0.00055233 0.0016273
-0.0036309 0.00081344 0.0010543 0.0012419 0.00030603 -0.0018442 0.11628 -0.16144
0.0020837 0.0034619 -0.0018878 0.0016402
0.0014831 0.001168 0.0017451 0.00054143 0.0024929 0.00042232 0.0020972 0.003453
0.24355 -0.0056869 0.0041128 -0.0026067
-0.00071817 -0.00047989 0.00088446 0.0003258 0.00052148 0.0016486 -0.0019256 0.0016327
0.0041089 -0.0026224 0.26266 0.034153
2000000000 0.13292 -0.18727 -0.0041437 0.00086996 0.0026652 0.0017578 -0.0023156 0.0035254
0.0011949 0.00010987 -0.00062863 0.00052264
-0.0041286 0.00087441 0.24881 0.059145 -0.0011288 0.0058843 0.0014525 0.00038387
0.0012524 -0.0011992 0.00050759 0.00011741
0.0026766 0.0017461 -0.0010976 0.0059039 0.019836 -0.23345 -0.001133 -0.0013323
0.0020389 -0.0012747 0.0016999 0.0012619
-0.0022927 0.003514 0.0014721 0.00035335 -0.0011306 -0.0013489 0.063036 -0.17442
0.000243 0.0025246 -0.00016343 0.0023108
0.0012072 0.00011151 0.0012594 -0.0012147 0.0020827 -0.0012924 0.00025081 0.0024924
0.23911 -0.039368 0.00072246 -0.0034694
