!Keysight Technologies,M9804A,MY58100912,A.14.10.03
!Date: Thursday, April 27, 2023 10:28:33
!Correction: S11(C  6-Port  ) 
!S12(C  6-Port  ) 
!S13(C  6-Port  ) 
!S14(C  6-Port  ) 
!S15(C  6-Port  ) 
!S16(C  6-Port  ) 
!S21(C  6-Port  ) 
!S22(C  6-Port  ) 
!S23(C  6-Port  ) 
!S24(C  6-Port  ) 
!S25(C  6-Port  ) 
!S26(C  6-Port  ) 
!S31(C  6-Port  ) 
!S32(C  6-Port  ) 
!S33(C  6-Port  ) 
!S34(C  6-Port  ) 
!S35(C  6-Port  ) 
!S36(C  6-Port  ) 
!S41(C  6-Port  ) 
!S42(C  6-Port  ) 
!S43(C  6-Port  ) 
!S44(C  6-Port  ) 
!S45(C  6-Port  ) 
!S46(C  6-Port  ) 
!S51(C  6-Port  ) 
!S52(C  6-Port  ) 
!S53(C  6-Port  ) 
!S54(C  6-Port  ) 
!S55(C  6-Port  ) 
!S56(C  6-Port  ) 
!S61(C  6-Port  ) 
!S62(C  6-Port  ) 
!S63(C  6-Port  ) 
!S64(C  6-Port  ) 
!S65(C  6-Port  ) 
!S66(C  6-Port  ) 
!S6P File: Measurement: :
# Hz S  RI   R 50
500000000 -0.33729 -0.045071 -0.010654 -0.0019992 -0.0091154 0.013417 -0.0047528 0.012722
0.012025 0.0036992 -0.0052615 0.0092355
-0.010615 -0.0019914 -0.41846 -0.056464 0.007529 -0.010786 0.0022178 0.012755
0.0067662 0.0023215 0.0015448 0.014225
-0.0090616 0.01352 0.0075887 -0.01077 -0.26782 0.2071 0.0070843 0.0034246
-0.0032153 0.0082239 0.00053623 0.012166
-0.0045655 0.012699 0.0022944 0.012558 0.0069216 0.0033166 -0.33377 0.033611
-0.022142 -0.0049118 0.017268 0.026326
0.01211 0.0038918 0.0068141 0.002569 -0.0029704 0.008202 -0.022319 -0.0048607
-0.21325 -0.2168 -0.028843 0.0062751
-0.0046083 0.0089177 0.0020331 0.014019 0.00049133 0.011796 0.017793 0.02632
-0.028849 0.0059388 -0.26087 -0.14126
560000000 -0.31909 0.12042 -0.023639 -0.063187 8.442e-05 0.012061 0.0053447 0.011501
0.010262 0.0042459 0.010129 0.0093029
-0.023525 -0.063042 -0.37631 0.10403 -0.04233 -0.036969 0.014195 0.0041528
-0.013992 -0.0048635 0.0038871 -0.00033509
0.00040226 0.01211 -0.042629 -0.037014 -0.18468 0.25698 6.8373e-05 -0.0043506
0.02006 0.0065407 0.0071102 -0.0054972
0.005145 0.011955 0.014369 0.004535 -0.00012277 -0.0043849 -0.31226 0.12899
0.0033173 -0.023937 0.0046491 -0.022283
0.01048 0.0052502 -0.013688 -0.0056572 0.020076 0.0062353 0.0029637 -0.023775
-0.28828 -0.035587 0.0080959 -0.048645
0.010157 0.0092185 0.0043478 -0.00035655 0.0074303 -0.0057302 0.0046521 -0.022227
0.0083666 -0.048684 -0.32813 0.010061
620000000 -0.27696 0.10176 -0.023058 0.0089441 0.0038321 0.0088401 0.0082971 -0.0050369
0.011475 0.00031053 0.0013784 -0.0017485
-0.023047 0.0089493 -0.40365 0.055606 -0.018128 0.00062612 -0.0010974 -0.0019843
0.011732 -0.0058113 0.0014905 -0.0030983
0.0039854 0.0088407 -0.018216 0.00066014 -0.15461 0.26607 -0.00052291 -0.0054429
-0.0022245 -0.0022621 0.0089294 -0.0035606
0.0081123 -0.0052522 -0.0010364 -0.0018152 -0.00060855 -0.0055873 -0.27095 0.14025
-0.039638 -0.019413 0.012797 0.027807
0.011622 0.00014412 0.011708 -0.0059311 -0.0023685 -0.0023093 -0.039392 -0.019443
-0.20511 -0.076115 -0.043766 0.015368
0.00108 -0.0023313 0.0012339 -0.0029508 0.00911 -0.0038647 0.012744 0.028078
-0.044098 0.014973 -0.24839 -0.028566
680000000 -0.23758 0.18986 -0.026852 -0.013682 0.0052334 0.0051859 0.0022374 -0.0069049
-0.0023701 -0.011457 0.0052727 -0.0074052
-0.026807 -0.013687 -0.3893 0.15517 -0.032444 -0.001459 -0.0013315 -0.00048023
-0.0013998 -0.0094361 -0.0012702 -0.0020012
0.0051761 0.0052743 -0.032521 -0.0013625 -0.10261 0.28586 -0.00079869 -0.0008945
-0.0015105 0.00010314 -0.0031003 -0.0095059
0.0023754 -0.0068294 -0.0014465 -0.00042092 -0.00076429 -0.00088983 -0.22446 0.1931
-0.024455 -0.0059178 -0.0099723 -0.011971
-0.0021688 -0.011165 -0.0013725 -0.0092837 -0.0015324 0.00014555 -0.024383 -0.006064
-0.26433 0.025784 -0.0062574 -0.0059941
0.0058533 -0.0071692 -0.0011526 -0.002265 -0.0031662 -0.00947 -0.010032 -0.011791
-0.0063966 -0.0064364 -0.26095 0.078101
740000000 -0.19345 0.18483 -0.039043 0.027246 0.013377 -0.0051584 -0.00012056 -0.0045899
-0.0047367 -0.0026789 -0.0058985 0.0024122
-0.038992 0.027239 -0.33504 0.17359 -0.035236 0.035213 -0.00086295 -0.0063887
-0.011845 0.0071935 -0.0024063 -0.0067712
0.0134 -0.0052505 -0.035211 0.035342 -0.069067 0.28351 -0.0022476 0.0029758
-0.002357 -0.0050123 -0.0016588 0.00010823
-0.00024953 -0.0046811 -0.00091122 -0.0063629 -0.0023361 0.0029381 -0.20788 0.20133
-0.044716 -0.0059576 0.024236 0.016107
-0.0046479 -0.0022884 -0.01158 0.007007 -0.0022867 -0.0049198 -0.044649 -0.0061546
-0.15852 0.052537 -0.044755 0.0017553
-0.0059171 0.0024486 -0.0028017 -0.0066168 -0.0017016 -8.6213e-05 0.024401 0.01634
-0.04509 0.0017012 -0.25029 0.082633
800000000 -0.15935 0.22655 -0.021796 0.016814 0.00554 -0.010554 -0.004562 -0.0022785
-0.0042159 0.0019109 0.0037508 0.00057775
-0.021748 0.016834 -0.3392 0.24413 -0.0078126 0.033887 -0.0023863 0.0020182
-0.0011558 0.0025761 0.0008064 0.0050276
0.0055614 -0.010505 -0.0077418 0.033974 -0.028675 0.30627 0.00051316 0.0014896
-0.00020205 0.0035397 -0.0018471 0.00073723
-0.004521 -0.0020786 -0.0023919 0.0020692 0.00048123 0.0015268 -0.17824 0.22998
-0.028511 0.014905 0.014287 -0.010951
-0.0040264 0.0018203 -0.0010395 0.0025843 -0.00011179 0.0035419 -0.028445 0.014868
-0.21018 0.078722 -0.017301 0.019869
0.003976 0.00042359 0.00076634 0.0050224 -0.001797 0.00075193 0.014587 -0.011023
-0.017543 0.019867 -0.24704 0.13312
860000000 -0.1247 0.24603 -0.017158 0.030462 -0.0030657 -0.010019 -0.0018623 0.00061825
0.0037301 0.0051585 -0.0038125 -0.0031269
-0.017167 0.030385 -0.29139 0.28552 0.0076826 0.034174 -0.00011265 0.002201
0.0038473 0.00031018 0.0033875 0.00088049
-0.0031232 -0.010049 0.0078064 0.034178 0.018683 0.31426 -0.00069231 3.4013e-05
0.0028847 -0.0015185 0.0017204 0.0043319
-0.0019308 0.0004379 -0.00012984 0.0021809 -0.00073572 1.9393e-05 -0.14026 0.24061
-0.017405 0.018436 -0.0058877 -0.0087713
0.0037511 0.0051628 0.0039638 0.00022687 0.0028833 -0.001496 -0.017083 0.01874
-0.15745 0.13255 -0.026701 0.01599
-0.0036825 -0.002632 0.0033875 0.0011146 0.0017527 0.0043329 -0.0060721 -0.0088115
-0.026676 0.015739 -0.19595 0.18074
920000000 -0.10028 0.26833 0.0052356 0.037534 -0.0094107 -0.004864 -0.0017655 0.0013313
0.00097224 0.0020362 0.0027425 -0.001723
0.0051851 0.03749 -0.26323 0.3071 0.027998 0.022132 0.0013933 0.0011572
0.0072243 0.00034265 0.0041395 -0.002671
-0.0094065 -0.0048563 0.028131 0.022017 0.064508 0.31533 0.0020336 0.00010552
0.0013174 -0.0002294 0.00079859 -0.0012935
-0.001746 0.0013981 0.0014521 0.001148 0.0020512 0.00011106 -0.11621 0.25758
-0.010716 0.031365 0.0046062 -0.0067221
0.00094366 0.0020441 0.0072372 0.00040382 0.0012592 -0.00019601 -0.01064 0.031357
-0.14943 0.13813 -0.0020609 0.027663
0.0027136 -0.0016163 0.0041253 -0.0026133 0.00069725 -0.0013149 0.0048028 -0.0069221
-0.0021619 0.0276 -0.20613 0.19569
980000000 -0.053477 0.28781 0.017202 0.029793 -0.0093221 0.0042992 0.0018638 0.0032224
0.0039474 -0.0013122 -0.0029307 -0.0025452
0.017171 0.029748 -0.21082 0.34135 0.033125 0.0050122 0.0021401 2.8557e-05
0.0019317 -0.0056861 4.0628e-05 -0.0026065
-0.0093051 0.0043113 0.033199 0.0048978 0.11085 0.30911 0.00061646 -0.0012864
0.00051332 -0.0021961 0.0013692 -0.00020678
0.0018481 0.0032249 0.0022268 9.2861e-07 0.00065173 -0.0013072 -0.077504 0.26826
0.0085825 0.031252 -0.0093924 -0.0079921
0.0039169 -0.0010966 0.0019018 -0.0056926 0.00055538 -0.0021465 0.0087016 0.031323
-0.11951 0.16801 0.0052446 0.019894
-0.0027887 -0.002413 0.00012845 -0.0025298 0.0014326 -0.00016391 -0.0095729 -0.0078241
0.005259 0.019794 -0.16444 0.24113
1040000000 -0.012345 0.29663 0.033 0.018189 -0.001553 0.0069307 0.0022209 0.00089116
0.00016726 -0.0033844 6.1319e-06 -0.0015284
0.032957 0.018181 -0.17569 0.35446 0.029568 -0.014829 0.0015836 -0.0017933
-0.0021219 -0.002916 -0.0013738 -0.0028493
-0.0015835 0.0069075 0.029579 -0.014969 0.15687 0.29583 -0.00047395 -0.00178
-0.0015763 -0.0010328 -0.00061831 -0.0010573
0.0022637 0.00090422 0.0015514 -0.0017536 -0.00049447 -0.0017817 -0.050826 0.27847
0.02057 0.018806 -0.0021169 0.0006043
0.00015255 -0.0033751 -0.0020772 -0.0028938 -0.0016046 -0.0010292 0.02053 0.0188
-0.087387 0.17553 0.013246 0.019371
-0.00019689 -0.0013743 -0.0014236 -0.0029158 -0.0006679 -0.001032 -0.0020251 0.00070699
0.013231 0.019295 -0.14394 0.26246
1100000000 0.032804 0.30481 0.035668 -0.0041282 0.0025798 0.0039922 0.00224 -0.0010032
-0.0018896 -0.003145 -0.0041734 -0.0002015
0.035627 -0.0040923 -0.13248 0.37207 0.015313 -0.028051 7.7544e-05 -0.0018333
-0.0035531 -0.0011272 -0.0037769 -0.00065763
0.0025946 0.0039681 0.015212 -0.028152 0.20349 0.27576 -0.0020739 4.2858e-05
-0.0019865 0.00031368 -0.001223 -0.0001879
0.0022494 -0.0010204 8.6389e-05 -0.0018017 -0.0020755 7.7583e-05 -0.010429 0.28356
0.026182 0.005264 -0.0029143 -0.00065524
-0.0019279 -0.0031852 -0.0035992 -0.0011662 -0.0019855 0.00031908 0.026172 0.005207
-0.071012 0.18953 0.019637 0.0089972
-0.0041901 -0.00010833 -0.0037696 -0.00070683 -0.0011854 -0.00021029 -0.0029136 -0.00058012
0.019547 0.0090169 -0.098402 0.29477
1160000000 0.083724 0.30042 0.02369 -0.020897 0.0025307 -0.0003207 -0.00028567 -0.0019916
-0.0040584 -0.00094084 -0.00091447 0.0040745
0.023679 -0.020871 -0.08931 0.37667 -0.0037969 -0.029504 -0.0016267 -0.0017326
-0.0030971 0.0024729 -0.0015926 0.0018489
0.0025277 -0.0003317 -0.003923 -0.029517 0.24661 0.24496 -0.00094083 0.0018425
-0.00065422 0.0021529 -0.00091113 0.0002963
-0.00029246 -0.0019623 -0.0016575 -0.0016995 -0.00096154 0.0018421 0.028778 0.28062
0.022835 -0.011646 -0.0039501 0.0049933
-0.0041174 -0.00083618 -0.0030382 0.0024917 -0.00065337 0.0021639 0.022822 -0.011742
-0.037466 0.19903 0.018451 0.00083508
-0.0010562 0.0041542 -0.0015407 0.0018753 -0.000963 0.00025814 -0.0038174 0.0049653
0.018379 0.00085374 -0.051163 0.29786
1220000000 0.12815 0.29016 0.010313 -0.030164 -0.0017265 -0.00064293 0.00024138 -0.00068899
-0.0028404 0.0023077 0.0010945 0.0021966
0.010325 -0.030141 -0.044729 0.3894 -0.01714 -0.021426 -0.0026271 0.00042384
-0.00018474 0.0033152 -0.0009635 0.0019573
-0.0017194 -0.00064184 -0.01726 -0.021367 0.2857 0.20586 0.00070875 0.0019918
0.00070619 0.0015275 0.00052592 0.00064341
0.00023983 -0.00068162 -0.0026128 0.00040829 0.00071391 0.0019701 0.06872 0.27236
0.011532 -0.01875 0.0013552 0.0013351
-0.0028389 0.0022677 -0.00015854 0.0033294 0.00070504 0.0015427 0.011482 -0.018783
-0.016145 0.20938 0.014693 -0.012957
0.001134 0.002127 -0.00095929 0.0020413 0.00053913 0.00064514 0.0013564 0.0013138
0.014768 -0.012951 -0.021006 0.31631
1280000000 0.17812 0.26873 -0.0081825 -0.028427 -0.0018338 0.0027624 -0.00068696 -0.0020432
-0.00095389 0.0031002 0.0025855 0.0012777
-0.0081572 -0.028396 0.0012357 0.38088 -0.024138 -0.0085919 -0.0010612 0.0014177
0.0018294 0.0022273 0.00063744 0.0021375
-0.0018068 0.0027621 -0.024224 -0.0084721 0.31595 0.16209 0.001783 0.00014161
0.0013954 0.00032246 0.00042698 0.00028122
-0.00071945 -0.0020392 -0.0010354 0.001444 0.0017543 0.00014483 0.10569 0.25554
0.0012172 -0.021108 -0.0008716 0.00050249
-0.00092034 0.0031686 0.0018406 0.0022219 0.0014008 0.0003217 0.0011957 -0.021177
0.019738 0.21442 0.0033437 -0.015536
0.0026163 0.0013026 0.00076868 0.0021536 0.00041811 0.00016941 -0.00085689 0.00048401
0.0033796 -0.015437 0.027071 0.31968
1340000000 0.21533 0.23568 -0.017974 -0.01871 0.0010588 0.0048118 -0.0016796 -0.00099236
0.0013887 0.0027829 0.0020111 -0.0013408
-0.017935 -0.018689 0.040868 0.37305 -0.021925 0.0043939 -0.00021353 0.0021677
0.0022116 0.00084573 0.001392 0.0007723
0.0010437 0.0048133 -0.021924 0.0045201 0.33785 0.11442 0.0014436 -0.0010169
0.00093811 -0.00061129 6.025e-05 0.00025107
-0.0016547 -0.0010278 -0.00018497 0.0021832 0.0014382 -0.0010164 0.13768 0.23504
-0.0093311 -0.018346 0.00050974 0.0011668
0.0014041 0.0027821 0.0022469 0.00082883 0.0009509 -0.00063231 -0.0094183 -0.018337
0.048487 0.21113 -0.0035086 -0.014163
0.0019383 -0.0013327 0.0014053 0.00084809 4.1457e-05 0.00023623 0.00049706 0.0010368
-0.0034842 -0.014169 0.065389 0.31658
1400000000 0.24891 0.19795 -0.023453 -0.0070313 0.0054877 0.0032254 -0.0021738 0.00046798
0.0024323 0.0010488 0.00037447 -0.0015572
-0.023418 -0.0070397 0.078562 0.36002 -0.015026 0.012803 0.0014491 0.0014204
0.001342 -0.00091253 0.0013342 0.00018898
0.0055052 0.0031734 -0.015002 0.012897 0.35078 0.06137 0.00022822 -0.0019607
5.0303e-05 -0.00051768 0.00035792 0.00023469
-0.0022238 0.00047384 0.0014652 0.0014237 0.00021797 -0.0019655 0.16661 0.20598
-0.015999 -0.011168 -0.0009536 0.00022718
0.0024364 0.0010254 0.0013615 -0.00094729 6.9108e-05 -0.0005278 -0.016032 -0.011171
0.081074 0.20874 -0.010187 -0.0091669
0.00040202 -0.0015403 0.0013393 0.00016307 0.0003475 0.00021677 -0.00098621 0.0001708
-0.010184 -0.0091415 0.11106 0.30661
1460000000 0.27193 0.15388 -0.020241 0.0052428 0.0058959 -0.0019095 -0.001743 0.0017779
0.0022621 -0.00028619 -0.00028726 -0.0012109
-0.020232 0.0052281 0.1128 0.3382 -0.0060838 0.015707 0.0018984 0.00025027
0.00093874 -0.0014798 0.0012556 -0.00074444
0.0058876 -0.0019056 -0.0060092 0.015781 0.3571 0.0075376 -0.0014677 -0.001573
0.00012714 -0.00033661 0.00053238 -0.00036379
-0.0016916 0.0017559 0.0018855 0.0002559 -0.0014442 -0.0015815 0.19165 0.17708
-0.017713 -0.0035273 -0.00046989 0.0027076
0.0022764 -0.0002987 0.00093171 -0.0014713 0.00017622 -0.00033674 -0.017791 -0.0034584
0.10959 0.19559 -0.012023 -0.0027139
-0.00028288 -0.0011895 0.0012829 -0.00068925 0.00056969 -0.00035508 -0.0005015 0.0027245
-0.011999 -0.0027226 0.14426 0.28627
1520000000 0.2846 0.11234 -0.014343 0.010584 0.0035863 -0.0043997 6.9432e-05 0.0027595
0.0023424 -0.0017061 -0.0011707 -0.00022768
-0.014335 0.010565 0.14649 0.32371 0.0018294 0.013368 0.0018438 -0.00089104
-2.3828e-05 -0.0011468 0.000357 -0.00098431
0.0035508 -0.004402 0.0019224 0.0134 0.35079 -0.048219 -0.0014295 -0.00038066
0.00066887 -0.00086589 0.00014802 -0.00021427
7.1783e-05 0.0027621 0.0018421 -0.00090992 -0.0014485 -0.0003724 0.21391 0.14024
-0.017024 0.003296 0.0019133 0.002334
0.0023203 -0.0017183 -5.1038e-05 -0.001126 0.00066922 -0.00084837 -0.017039 0.0033593
0.13758 0.18344 -0.012123 0.001753
-0.0011872 -0.00026382 0.00034033 -0.001023 0.00014587 -0.00024881 0.0019347 0.0022697
-0.01216 0.0017379 0.17826 0.2676
1580000000 0.29404 0.06589 -0.0075291 0.013495 -0.00085379 -0.0052453 0.001532 0.0020977
-1.7342e-05 -0.0022503 -0.00039403 0.00045428
-0.0075421 0.013488 0.17382 0.29875 0.0055285 0.0083759 0.00049746 -0.0017954
-0.00063648 -0.0011031 -0.00022826 -0.00080976
-0.00089784 -0.0052367 0.0055825 0.0083435 0.33103 -0.10568 -0.0018473 0.0010028
-0.00037074 -0.0012148 0.00014738 -0.00052852
0.0015217 0.0020521 0.00047604 -0.0017978 -0.0018361 0.00099925 0.22685 0.1026
-0.012866 0.0091268 0.0028133 0.00077263
-3.266e-05 -0.002259 -0.0006145 -0.0011067 -0.00036018 -0.001227 -0.012867 0.009199
0.16211 0.16716 -0.009369 0.0077748
-0.00037248 0.00037421 -0.00021903 -0.000816 0.00012754 -0.00052949 0.002832 0.00076741
-0.0093238 0.0078205 0.21181 0.24151
1640000000 0.29622 0.024737 -0.00085443 0.012086 -0.0028704 -0.0028797 0.0029195 0.0010653
-0.0005619 -0.0017326 -0.00039769 0.00056938
-0.00086954 0.012094 0.20322 0.27419 0.0062873 0.0033621 -0.00079911 -0.0019173
-0.001061 -0.00039952 -0.00050528 -0.00078022
-0.0028754 -0.0028697 0.0063088 0.0033292 0.30357 -0.15503 -0.00052988 0.001768
-0.001166 -0.0012003 -9.9689e-05 -0.00045236
0.0029247 0.0010499 -0.00082278 -0.0019224 -0.00054103 0.0017852 0.23912 0.056253
-0.0077679 0.010673 0.0029806 -0.001018
-0.00056636 -0.0017566 -0.0010751 -0.00036295 -0.0011671 -0.0012156 -0.0077335 0.010711
0.1851 0.1443 -0.0044494 0.0099162
-0.00038447 0.00059706 -0.00051747 -0.00076997 -0.00014626 -0.00043353 0.0029648 -0.0010957
-0.0045052 0.009894 0.23769 0.21162
1700000000 0.28904 -0.020511 0.0023923 0.0090082 -0.0037332 -1.5545e-05 0.0031241 -0.0014921
-0.0021724 -0.0009368 0.00071336 0.00054444
0.002392 0.0090022 0.22161 0.24265 0.0041118 0.00039689 -0.0016198 -0.00059715
-0.00076373 7.0075e-05 -0.00097698 -0.00051293
-0.0037251 4.1367e-07 0.0041047 0.00036904 0.2603 -0.19534 0.0007944 0.0016613
-0.0021082 -0.00025608 -0.00047618 -0.00083284
0.0031073 -0.0015392 -0.0016301 -0.00057768 0.00078598 0.0016469 0.2372 0.0089541
-0.0040968 0.011346 0.0017533 -0.002513
-0.0021976 -0.00094809 -0.00075874 6.7664e-05 -0.002106 -0.0002591 -0.0040439 0.011396
0.20298 0.12536 0.00042899 0.010156
0.00073128 0.00050763 -0.00099096 -0.0004891 -0.00050355 -0.00084911 0.0017586 -0.0025051
0.0004432 0.010171 0.2556 0.17728
1760000000 0.27685 -0.068895 0.0043821 0.0056314 -0.0025977 0.0010322 0.0012091 -0.0036711
-0.0015196 0.00065625 0.00041099 -0.000699
0.0043571 0.0056335 0.24746 0.2029 0.0016238 -0.0015337 -0.0013527 0.00029384
-0.00098279 0.00089385 -0.00060667 0.00041851
-0.0026055 0.0010443 0.0015981 -0.0015469 0.21126 -0.22881 0.0013417 0.00081237
-0.0012908 0.0015364 -0.0014569 -0.00062073
0.0012201 -0.0036841 -0.0013453 0.0003074 0.0013284 0.00082752 0.23056 -0.04028
-9.5248e-05 0.01009 -0.0001795 -0.0029983
-0.0015109 0.00064748 -0.00098142 0.00092503 -0.0012965 0.0015643 -4.7872e-05 0.010108
0.21826 0.091532 0.0046815 0.0074104
0.00039407 -0.00067867 -0.00063291 0.00041873 -0.0014489 -0.00063711 -0.0001709 -0.002991
0.0046305 0.0074103 0.2689 0.14009
1820000000 0.2526 -0.10588 0.0042585 0.0021316 -0.00023203 0.0026324 -0.0012621 -0.0030743
-0.0012766 0.00099355 -4.4996e-06 -9.7789e-05
0.0042492 0.002135 0.25781 0.17301 -0.00054426 -0.00038256 -0.0012593 0.00113
-2.083e-05 0.0012145 -0.00060148 0.00057507
-0.0002006 0.0026148 -0.00055133 -0.00037803 0.16125 -0.24502 0.0014389 8.9546e-05
-0.00016692 0.002533 -0.0014148 0.0003354
-0.001262 -0.0030834 -0.001258 0.0011302 0.0014452 7.0868e-05 0.20398 -0.086792
0.0018884 0.0081477 -0.0017782 -0.0019917
-0.0013013 0.0010452 4.9093e-07 0.0012317 -0.00018864 0.0025306 0.0019246 0.0081208
0.2363 0.063915 0.0055748 0.0034548
-1.3623e-05 -7.2798e-05 -0.00057406 0.00053487 -0.0013987 0.00031077 -0.0018648 -0.0019178
0.0056003 0.0034153 0.27243 0.1045
1880000000 0.21792 -0.14619 0.0019102 0.00011536 -0.00043071 0.002269 -0.0030012 -0.0021066
-0.00013438 0.0019019 0.00014408 -0.00052689
0.0018912 0.00010038 0.26224 0.12633 -0.0026576 0.0016168 -5.3805e-05 0.0016903
0.00052871 0.0011259 0.00010234 0.0010021
-0.00041267 0.0022964 -0.002651 0.0016412 0.10902 -0.25412 0.0014938 -0.00083005
0.0016997 0.0020286 -0.00096475 0.0014989
-0.00302 -0.0020751 -7.9926e-05 0.0016856 0.0014869 -0.00079237 0.16696 -0.12824
0.0028673 0.0055399 -0.0027229 0.00031518
-0.00014485 0.0019565 0.00052389 0.0011112 0.0016901 0.0020128 0.00294 0.0054911
0.24003 0.03252 0.0057795 0.0011799
0.00017381 -0.00049327 0.00013363 0.0010217 -0.00097006 0.001491 -0.0027398 0.00025918
0.0057703 0.0012322 0.2732 0.069904
1940000000 0.17902 -0.17201 -0.0004106 -0.0013178 0.0013623 0.0021757 -0.0037466 0.00075578
0.0014442 0.0012446 -0.0007457 -0.0004886
-0.00041875 -0.0013054 0.26288 0.094715 -0.001396 0.0039779 0.0010183 0.0012482
0.001734 0.00058871 0.00083171 0.00033563
0.0013431 0.0021885 -0.0013723 0.0039913 0.063014 -0.24759 0.00028058 -0.0018358
0.0025282 0.00037242 0.00055571 0.0016564
-0.0037043 0.00074658 0.0010438 0.0012405 0.00028786 -0.0018635 0.11659 -0.16138
0.0022895 0.0033979 -0.0019392 0.0016973
0.0014428 0.0012501 0.0017352 0.00057295 0.0024972 0.00033219 0.0023002 0.0034012
0.24377 -0.0053506 0.0042839 -0.0025686
-0.00074029 -0.00046683 0.00085621 0.00031699 0.00058479 0.001647 -0.0019465 0.0017837
0.0042267 -0.0025798 0.26256 0.034335
2000000000 0.13297 -0.18726 -0.0041402 0.0008589 0.0027116 0.0017729 -0.0022753 0.00351
0.0011524 0.00014688 -0.00059847 0.00054443
-0.0041711 0.0008524 0.24884 0.059182 -0.0010688 0.0058464 0.0014405 0.00038125
0.0012491 -0.00122 0.00050711 9.446e-05
0.002614 0.0017604 -0.0010496 0.0058721 0.019944 -0.23349 -0.0011726 -0.0013491
0.0020004 -0.0012683 0.0016517 0.0012848
-0.0022647 0.003499 0.0014444 0.00034638 -0.0011606 -0.001324 0.06312 -0.17442
0.00018976 0.0024052 -0.00015228 0.0022756
0.0012011 0.0001089 0.0012683 -0.0012193 0.0020296 -0.0012972 0.00016875 0.002364
0.2393 -0.038982 0.00086501 -0.0035562
