!Keysight Technologies,M9804A,MY58100912,A.14.10.03
!Date: Thursday, April 27, 2023 10:28:33
!Correction: S11(C  6-Port  ) 
!S12(C  6-Port  ) 
!S13(C  6-Port  ) 
!S14(C  6-Port  ) 
!S15(C  6-Port  ) 
!S16(C  6-Port  ) 
!S21(C  6-Port  ) 
!S22(C  6-Port  ) 
!S23(C  6-Port  ) 
!S24(C  6-Port  ) 
!S25(C  6-Port  ) 
!S26(C  6-Port  ) 
!S31(C  6-Port  ) 
!S32(C  6-Port  ) 
!S33(C  6-Port  ) 
!S34(C  6-Port  ) 
!S35(C  6-Port  ) 
!S36(C  6-Port  ) 
!S41(C  6-Port  ) 
!S42(C  6-Port  ) 
!S43(C  6-Port  ) 
!S44(C  6-Port  ) 
!S45(C  6-Port  ) 
!S46(C  6-Port  ) 
!S51(C  6-Port  ) 
!S52(C  6-Port  ) 
!S53(C  6-Port  ) 
!S54(C  6-Port  ) 
!S55(C  6-Port  ) 
!S56(C  6-Port  ) 
!S61(C  6-Port  ) 
!S62(C  6-Port  ) 
!S63(C  6-Port  ) 
!S64(C  6-Port  ) 
!S65(C  6-Port  ) 
!S66(C  6-Port  ) 
!S6P File: Measurement: :
# Hz S  RI   R 50
500000000 -0.33724 -0.044004 -0.010441 -0.0024899 -0.0088397 0.013314 -0.005157 0.012099
0.012351 0.0037403 -0.0054323 0.007925
-0.010513 -0.0025385 -0.41903 -0.055513 0.0077806 -0.011098 0.0016853 0.012496
0.0064294 0.0021509 0.00088149 0.014404
-0.0089365 0.013306 0.0077581 -0.011105 -0.26645 0.20692 0.0069408 0.0038135
-0.0029065 0.0084479 0.000714 0.012833
-0.0050352 0.012015 0.0018002 0.012467 0.0069471 0.0038035 -0.33386 0.034879
-0.021445 -0.0056751 0.01797 0.027244
0.012701 0.0038382 0.0066891 0.0020495 -0.0027443 0.0083882 -0.021484 -0.0055727
-0.21461 -0.21507 -0.02858 0.0056568
-0.0049289 0.0075674 0.0016517 0.013652 0.00098065 0.01261 0.016971 0.026611
-0.028496 0.0053058 -0.26118 -0.13648
560000000 -0.31891 0.12111 -0.022891 -0.063903 -9.1991e-05 0.012719 0.0063233 0.011589
0.010574 0.0041264 0.010781 0.0088614
-0.022831 -0.063826 -0.37645 0.10397 -0.041898 -0.037506 0.014041 0.0030471
-0.014069 -0.0047635 0.0043999 0.00021591
-0.00010057 0.012692 -0.042087 -0.037435 -0.18381 0.25662 0.00018316 -0.0045921
0.019576 0.0057075 0.0068008 -0.0065929
0.0062856 0.011612 0.01398 0.0030155 0.0002223 -0.0045968 -0.31147 0.12902
0.0040461 -0.023519 0.0039596 -0.021633
0.010647 0.0043107 -0.013832 -0.0045557 0.019489 0.0054059 0.0037662 -0.023137
-0.28704 -0.035963 0.007504 -0.049159
0.010919 0.0078874 0.003349 -0.00082991 0.0067223 -0.0064203 0.0041784 -0.021731
0.0094769 -0.049497 -0.32589 0.013944
620000000 -0.27655 0.10296 -0.023053 0.0085725 0.0033692 0.0090301 0.007886 -0.0045778
0.010935 0.00035891 0.0010926 -0.002448
-0.023028 0.0085457 -0.40351 0.056895 -0.018608 0.0003491 -0.0011146 -0.0020298
0.011465 -0.0056533 0.00095634 -0.0031393
0.0033808 0.0090077 -0.018641 0.00037885 -0.15454 0.26586 -0.00054503 -0.0056686
-0.0030732 -0.0024022 0.0084251 -0.0037229
0.0079632 -0.0046697 -0.0010952 -0.0020479 -0.00052017 -0.0056511 -0.27021 0.13952
-0.040051 -0.019112 0.012788 0.027093
0.011366 0.00071952 0.0115 -0.0056481 -0.0030688 -0.0023814 -0.040456 -0.019206
-0.20442 -0.074874 -0.042913 0.015608
0.0014769 -0.0021293 0.00092527 -0.0032437 0.0086934 -0.0040416 0.012423 0.026151
-0.043464 0.015886 -0.24727 -0.025413
680000000 -0.23648 0.19135 -0.026986 -0.013878 0.0055185 0.0054218 0.0020103 -0.0072512
-0.002836 -0.011303 0.0062788 -0.0063196
-0.026959 -0.013862 -0.38893 0.15616 -0.032738 -0.0013975 -0.0014674 -0.00028554
-0.001938 -0.0088272 -0.001057 -0.0018778
0.005535 0.0054297 -0.032753 -0.0013045 -0.10266 0.28571 -0.00088633 -0.0008208
-0.001691 0.00060889 -0.002762 -0.0097854
0.0019629 -0.0071823 -0.0014792 -0.00025607 -0.00090643 -0.00085277 -0.22395 0.19335
-0.024489 -0.0059686 -0.0096562 -0.011716
-0.003144 -0.011235 -0.0019271 -0.0088331 -0.0016562 0.00069171 -0.024121 -0.0060961
-0.26253 0.026512 -0.00663 -0.0063401
0.0053692 -0.0065584 -0.00095467 -0.0017352 -0.0028621 -0.0093794 -0.0095631 -0.011897
-0.0057716 -0.0067764 -0.25961 0.079717
740000000 -0.1922 0.18577 -0.039297 0.027293 0.01335 -0.0047319 -0.00026645 -0.0046196
-0.0048628 -0.0021695 -0.0065225 0.0024786
-0.039257 0.02725 -0.33453 0.17482 -0.035663 0.035614 -0.00039904 -0.0060911
-0.012249 0.0068467 -0.0022338 -0.0065406
0.013417 -0.0046303 -0.035598 0.035728 -0.069063 0.28384 -0.002047 0.0030706
-0.0021662 -0.00518 -0.0019133 0.00047037
-0.00024536 -0.0046131 -0.0004074 -0.0060599 -0.0020386 0.0030714 -0.20768 0.20125
-0.044538 -0.0063369 0.023711 0.015988
-0.0050947 -0.0018654 -0.012218 0.0067108 -0.0023142 -0.0050799 -0.044786 -0.0061775
-0.15858 0.054062 -0.043808 0.0018394
-0.006142 0.002825 -0.0024384 -0.0064442 -0.0017881 3.9923e-05 0.024224 0.015804
-0.044176 0.0010833 -0.2503 0.085867
800000000 -0.1593 0.22667 -0.022075 0.016896 0.0054972 -0.010606 -0.0047527 -0.0019488
-0.0036084 0.0018178 0.0040189 0.00034417
-0.022104 0.016838 -0.33892 0.24528 -0.0078573 0.034113 -0.0024009 0.0021476
-0.00080979 0.0026972 0.00080698 0.0050579
0.0054809 -0.010596 -0.0077474 0.034174 -0.028625 0.30684 0.000493 0.0016093
9.9215e-05 0.003556 -0.0018504 0.00066836
-0.0047919 -0.0019034 -0.002426 0.0021846 0.00048241 0.0015996 -0.17837 0.23013
-0.028465 0.014921 0.014564 -0.010809
-0.003676 0.0016463 -0.00077982 0.0026548 7.8699e-05 0.0035754 -0.02848 0.015008
-0.21005 0.078577 -0.017733 0.019494
0.0039952 0.00035266 0.00078463 0.0052731 -0.0020312 0.0010125 0.013942 -0.01064
-0.017244 0.019807 -0.24543 0.1354
860000000 -0.12465 0.2466 -0.017396 0.030861 -0.0032509 -0.0099577 -0.0020797 0.00055451
0.0039083 0.0049498 -0.0038137 -0.0030538
-0.017426 0.030836 -0.29106 0.28707 0.0078313 0.034337 -6.0282e-05 0.0019688
0.0042097 4.6532e-05 0.003506 0.001119
-0.0033179 -0.009952 0.0079372 0.034347 0.019222 0.31493 -0.00063297 -0.00013581
0.0028593 -0.0016015 0.0015042 0.0044957
-0.0020277 0.00055357 -5.152e-05 0.0019695 -0.00063211 -0.00012082 -0.14031 0.24112
-0.017425 0.018635 -0.0066848 -0.0090999
0.0038169 0.0049596 0.0040554 1.6309e-05 0.0028595 -0.0015887 -0.017327 0.018561
-0.15762 0.13325 -0.025904 0.016262
-0.003889 -0.0034107 0.0032565 0.0007558 0.00159 0.0042434 -0.0060494 -0.0090441
-0.026783 0.015965 -0.19619 0.18327
920000000 -0.10003 0.26913 0.0051985 0.038035 -0.0094738 -0.0046483 -0.001644 0.0017094
0.0010695 0.0021387 0.0026957 -0.0016544
0.0051929 0.038044 -0.26258 0.30848 0.028109 0.022131 0.0013983 0.0011632
0.0071392 0.00022073 0.0039366 -0.0028117
-0.0095104 -0.0046235 0.028215 0.022075 0.065313 0.31579 0.0019839 4.97e-05
0.0011761 -0.00020763 0.00082676 -0.0012885
-0.001714 0.0017065 0.0014144 0.0011594 0.0019732 3.7237e-05 -0.11632 0.25815
-0.010546 0.031684 0.0044693 -0.0067054
0.0010063 0.0021128 0.0070773 0.00018721 0.0011435 -0.00020531 -0.010523 0.031731
-0.14889 0.13891 -0.0022498 0.027623
0.0026505 -0.0016577 0.0040454 -0.0029243 0.00078429 -0.0012838 0.00424 -0.0068667
-0.0022382 0.027715 -0.20416 0.197
980000000 -0.052513 0.28878 0.017392 0.0301 -0.0093135 0.0044636 0.0019185 0.0032835
0.0038355 -0.0014168 -0.0031075 -0.002379
0.017368 0.030086 -0.20989 0.34268 0.033264 0.0049283 0.0021138 5.1693e-05
0.0016863 -0.0057108 -0.0002511 -0.0026385
-0.0092874 0.0044577 0.033313 0.0048386 0.11169 0.30945 0.00061591 -0.0012422
0.00037667 -0.0021466 0.0012934 -0.00018282
0.0019555 0.0032881 0.0021107 6.4966e-05 0.00061095 -0.0012438 -0.077588 0.26923
0.0086578 0.031217 -0.0095005 -0.0081786
0.0038507 -0.0012797 0.0017345 -0.0056741 0.00042454 -0.0020923 0.0087844 0.031203
-0.11934 0.16876 0.0047182 0.019964
-0.0030738 -0.0024168 -0.00014173 -0.0026246 0.0014143 -0.00022394 -0.0092247 -0.0077446
0.0048594 0.019683 -0.16282 0.24326
1040000000 -0.011063 0.29755 0.033212 0.018112 -0.0013367 0.0069824 0.0023916 0.00080956
0.00041842 -0.0034179 -0.00018053 -0.0014911
0.03318 0.018102 -0.17448 0.3556 0.02961 -0.014896 0.0014697 -0.0018063
-0.0022054 -0.0027426 -0.0014496 -0.0027806
-0.0013304 0.0069856 0.029602 -0.015019 0.15788 0.29582 -0.00053864 -0.0017387
-0.0015613 -0.00087456 -0.00050317 -0.0010745
0.0023423 0.0007779 0.00149 -0.0018102 -0.00053309 -0.0017532 -0.050222 0.27903
0.02061 0.018986 -0.0021953 0.0011088
0.0003692 -0.0035186 -0.0021311 -0.0026861 -0.0015988 -0.00093657 0.0207 0.018806
-0.086575 0.17629 0.013168 0.019282
-0.00020835 -0.0011247 -0.001545 -0.0027343 -0.00056428 -0.0010583 -0.0022325 0.00087995
0.013128 0.019507 -0.14114 0.26448
1100000000 0.034317 0.30538 0.035918 -0.0042654 0.0027362 0.0040114 0.0022385 -0.0011973
-0.0020018 -0.0032378 -0.0040244 -0.00020238
0.035908 -0.004243 -0.13135 0.37306 0.015243 -0.028084 3.5943e-05 -0.0018792
-0.0034944 -0.0010261 -0.0036737 -0.00053653
0.0027498 0.003975 0.015154 -0.028171 0.2043 0.2756 -0.0019997 0.00017155
-0.0018911 0.00035019 -0.0011564 -0.00031796
0.0022721 -0.0011927 4.4908e-05 -0.0018719 -0.0020038 0.00017125 -0.0097561 0.2842
0.026356 0.0052511 -0.0027839 -0.00056972
-0.0020206 -0.0031086 -0.0035023 -0.00093999 -0.001826 0.00039728 0.026433 0.0052741
-0.070969 0.19063 0.019388 0.0090073
-0.003974 -0.0003027 -0.0036464 -0.00058087 -0.0011391 -0.0003187 -0.0029339 -0.00049852
0.019581 0.0090078 -0.096502 0.29581
1160000000 0.085644 0.30091 0.023902 -0.020969 0.0027264 -0.00049614 -0.00040208 -0.0021076
-0.0040665 -0.0008265 -0.00089399 0.0039078
0.023903 -0.020937 -0.087502 0.37765 -0.0038369 -0.029463 -0.001693 -0.0017272
-0.0028922 0.0024337 -0.0015039 0.001734
0.0027224 -0.00048773 -0.0039461 -0.029462 0.24754 0.24473 -0.00087844 0.001767
-0.00059348 0.0021147 -0.0010058 0.00030291
-0.00041622 -0.0021425 -0.0017002 -0.0017032 -0.00087839 0.001771 0.029982 0.28123
0.022835 -0.011827 -0.0038114 0.0050476
-0.0040378 -0.00089515 -0.0028679 0.002515 -0.00059119 0.0021228 0.022778 -0.011859
-0.036924 0.2004 0.018575 0.00075619
-0.0010449 0.0042163 -0.0015782 0.001931 -0.0010771 0.00023787 -0.0035038 0.0051576
0.018359 0.00092074 -0.048556 0.2992
1220000000 0.12998 0.28978 0.010339 -0.030371 -0.0016229 -0.00080655 0.00012645 -0.00063401
-0.002817 0.0022765 0.0009936 0.002124
0.010363 -0.030324 -0.043055 0.38993 -0.017145 -0.02138 -0.0025801 0.00039817
-0.00014492 0.0031468 -0.00093061 0.0019899
-0.0016408 -0.00081117 -0.017249 -0.021322 0.28661 0.20543 0.00074516 0.0018729
0.00068757 0.0014253 0.00046752 0.00061769
0.00011002 -0.00061349 -0.0025659 0.00041627 0.0007462 0.0018729 0.069912 0.27238
0.011412 -0.018761 0.0015069 0.0013466
-0.0028069 0.0023592 -0.00012276 0.0031975 0.00069079 0.0014373 0.011409 -0.018774
-0.015042 0.2107 0.014625 -0.012867
0.0011552 0.0020498 -0.00093374 0.0018874 0.00044825 0.00063202 0.0013985 0.0012727
0.014715 -0.012793 -0.018465 0.31676
1280000000 0.18009 0.26827 -0.0081977 -0.028631 -0.0019094 0.0025276 -0.00080244 -0.0019365
-0.00089379 0.0030504 0.0025659 0.0013668
-0.008176 -0.028623 0.003189 0.38125 -0.024048 -0.0085319 -0.001048 0.0014476
0.0017582 0.0020552 0.00071354 0.0020857
-0.0018856 0.0025457 -0.024115 -0.0084266 0.31686 0.16158 0.0017214 9.8778e-05
0.0012726 0.00033363 0.00034813 0.00030861
-0.00080893 -0.0019349 -0.0010525 0.0014519 0.0017224 0.00010032 0.10685 0.2554
0.0012381 -0.021131 -0.00070501 0.0004258
-0.00080794 0.0030411 0.0017796 0.0020529 0.0012462 0.00032312 0.0012499 -0.021133
0.021102 0.21595 0.0034001 -0.015428
0.0024765 0.0013256 0.00070223 0.0021398 0.00036494 0.00029521 -0.00077719 0.00051122
0.0032902 -0.015488 0.029558 0.3199
1340000000 0.21719 0.23438 -0.018053 -0.018914 0.00091464 0.004638 -0.0015473 -0.00094283
0.001492 0.0026412 0.0017948 -0.0013156
-0.018014 -0.018903 0.042943 0.37287 -0.02183 0.0044026 -0.0002119 0.0020531
0.0020626 0.00085732 0.0013674 0.00083287
0.0009387 0.0046376 -0.021829 0.0045269 0.3388 0.11349 0.0013623 -0.00097711
0.00089284 -0.00059684 0.00012458 0.00033527
-0.0015707 -0.00091758 -0.00019016 0.0020579 0.001357 -0.00097749 0.13878 0.23452
-0.0094635 -0.018287 0.00066771 0.0010192
0.0014838 0.0026704 0.0020817 0.00083235 0.0009322 -0.00059304 -0.009513 -0.018264
0.050417 0.21183 -0.003569 -0.013904
0.0019061 -0.001365 0.0013731 0.00078489 9.9543e-05 0.00035562 0.00071624 0.00096421
-0.0032974 -0.013801 0.068124 0.31628
1400000000 0.25027 0.19619 -0.023692 -0.0071395 0.0052966 0.0031459 -0.0021383 0.00044734
0.0023624 0.0010691 0.00037942 -0.0013724
-0.023672 -0.0071611 0.080277 0.35963 -0.015002 0.012652 0.0014076 0.0014269
0.0013238 -0.00083856 0.0012923 0.0001403
0.0053184 0.0031339 -0.014954 0.012737 0.35152 0.060264 0.00016852 -0.0019294
9.5258e-05 -0.00058306 0.00035605 0.00026702
-0.0021223 0.0004447 0.0014112 0.0014257 0.00016962 -0.0019377 0.16724 0.20526
-0.015933 -0.011206 -0.00091005 8.0372e-05
0.0024011 0.0010191 0.0012916 -0.00085474 0.00012654 -0.00060855 -0.016007 -0.01114
0.083388 0.20886 -0.010156 -0.0091077
0.00034105 -0.0014475 0.0012637 0.00015914 0.00039054 0.0002757 -0.00096149 0.00011861
-0.010217 -0.0091828 0.11351 0.30614
1460000000 0.27291 0.15219 -0.020495 0.0051297 0.0058288 -0.0017965 -0.0016924 0.0017386
0.0021585 -0.00041352 -0.00027927 -0.0011352
-0.02046 0.0051176 0.11453 0.33755 -0.0060658 0.015577 0.0018353 0.00028602
0.0009522 -0.00138 0.0011914 -0.00068117
0.0057975 -0.001827 -0.005981 0.015629 0.3576 0.006156 -0.0014105 -0.0015463
0.00010815 -0.00031214 0.00059833 -0.00038481
-0.0017146 0.0017467 0.001839 0.00027571 -0.0014145 -0.0015445 0.1922 0.17632
-0.017694 -0.0035222 -0.00055816 0.0025859
0.0021321 -0.00041665 0.0009414 -0.0014426 7.8077e-05 -0.00029107 -0.017673 -0.0035142
0.11223 0.1952 -0.011892 -0.0027376
-0.00022276 -0.0011355 0.0012246 -0.00069754 0.00058525 -0.00037709 -0.00055177 0.002609
-0.011945 -0.0026914 0.14682 0.28549
1520000000 0.28491 0.11045 -0.014595 0.010692 0.0034401 -0.0043009 -1.5276e-06 0.0027368
0.0022799 -0.0015747 -0.0011458 -0.00017583
-0.014603 0.010676 0.14785 0.32261 0.0017268 0.013274 0.0018873 -0.00085326
-1.0859e-05 -0.001148 0.00035254 -0.00096462
0.0034443 -0.0043294 0.0018036 0.013274 0.35104 -0.049882 -0.0013961 -0.00034621
0.00060292 -0.00085133 0.0001691 -0.0001907
3.4544e-05 0.0027204 0.0018862 -0.00085822 -0.0014014 -0.00036015 0.21406 0.1395
-0.016905 0.0032452 0.0017608 0.0021706
0.0022593 -0.0016418 -3.7938e-05 -0.0011134 0.00058835 -0.00085384 -0.016954 0.0033272
0.1397 0.18234 -0.011907 0.001582
-0.0011547 -0.00017857 0.00032875 -0.0010119 0.00015769 -0.00019458 0.001831 0.0021708
-0.011947 0.0014942 0.1804 0.26636
1580000000 0.29416 0.064451 -0.0077589 0.013697 -0.00096956 -0.0050035 0.0015168 0.0021085
-9.7638e-06 -0.0021909 -0.00034281 0.00038882
-0.0077467 0.013681 0.17486 0.29781 0.0053717 0.008354 0.00048226 -0.0017798
-0.00064217 -0.0011063 -0.00026567 -0.0007739
-0.00099659 -0.0050034 0.0054161 0.0083311 0.33093 -0.10725 -0.0017817 0.00092675
-0.00043171 -0.0010863 0.00016743 -0.00053707
0.0015168 0.0021106 0.00048039 -0.0017897 -0.001778 0.00092898 0.22689 0.10202
-0.012827 0.008997 0.0026371 0.0007354
-4.2784e-05 -0.0022306 -0.00061696 -0.0011137 -0.00041977 -0.0011043 -0.012842 0.0090396
0.16406 0.16563 -0.0093641 0.0077152
-0.00037929 0.00045541 -0.00026058 -0.0007737 0.00017592 -0.00055351 0.0026525 0.0007572
-0.0093628 0.0077264 0.21366 0.24006
1640000000 0.29633 0.02328 -0.00088315 0.012378 -0.0027826 -0.0026486 0.0028781 0.0010817
-0.00050169 -0.0017572 -0.00036762 0.00058651
-0.00088757 0.012381 0.20426 0.27298 0.0060785 0.0034951 -0.00075423 -0.0019141
-0.0010402 -0.00037449 -0.00047711 -0.00070877
-0.0027918 -0.0026362 0.0061064 0.0034657 0.30311 -0.15661 -0.00050702 0.001691
-0.0011032 -0.0011599 -2.3902e-05 -0.00036531
0.0028994 0.0010592 -0.00077138 -0.0019087 -0.00051095 0.0016856 0.23907 0.055713
-0.0077629 0.010565 0.0028543 -0.0010023
-0.00047765 -0.0017535 -0.0010603 -0.00034517 -0.0010936 -0.0011958 -0.0077313 0.010566
0.18642 0.14243 -0.0045449 0.0097188
-0.00031238 0.00057436 -0.00048672 -0.00076878 -8.3616e-05 -0.00039408 0.0028382 -0.00096879
-0.004552 0.0097335 0.23936 0.20963
1700000000 0.28895 -0.021792 0.0024669 0.0093056 -0.0035227 0.00011811 0.0031328 -0.00145
-0.0021336 -0.00089783 0.00067197 0.00050134
0.0024622 0.0092884 0.22216 0.24165 0.0040254 0.00062189 -0.0016445 -0.00062786
-0.00074376 0.00014279 -0.00096481 -0.00046019
-0.0035338 0.00013315 0.0040287 0.00059282 0.25928 -0.19633 0.00078561 0.0016959
-0.0020055 -0.00018376 -0.00044194 -0.00080117
0.0031064 -0.0014625 -0.0016374 -0.00061643 0.0007807 0.0016857 0.23705 0.0086703
-0.0043187 0.011288 0.0016377 -0.0023841
-0.0021463 -0.00089803 -0.00071234 0.00010767 -0.0019918 -0.0002424 -0.0043138 0.011314
0.20373 0.12343 0.00028359 0.010087
0.00064323 0.00053465 -0.00094898 -0.00041831 -0.00043179 -0.00084825 0.0016693 -0.0024429
0.00031994 0.010125 0.25691 0.17523
1760000000 0.27687 -0.070207 0.0045617 0.0058363 -0.0024135 0.0010178 0.0011482 -0.0036158
-0.001538 0.0006018 0.00043824 -0.00071231
0.004546 0.0058324 0.24817 0.20205 0.0017139 -0.0012577 -0.001295 0.00028331
-0.0009124 0.00091882 -0.00054722 0.00039202
-0.0023996 0.0010266 0.0017061 -0.0012634 0.21041 -0.22977 0.0013986 0.00085708
-0.0011832 0.0015501 -0.0013653 -0.00059518
0.0011548 -0.0036259 -0.0012984 0.00030119 0.0014004 0.00086018 0.23076 -0.04043
-0.00018703 0.010211 -0.00016454 -0.0028441
-0.0015324 0.00062944 -0.00092515 0.00091061 -0.0011611 0.0015123 -0.00015238 0.010176
0.2187 0.089817 0.0045162 0.0073464
0.00043191 -0.00061845 -0.0005736 0.00040682 -0.0013864 -0.00062404 -0.00025771 -0.0028494
0.004517 0.0073463 0.27002 0.13818
1820000000 0.25242 -0.10727 0.0044869 0.0022303 -0.00017949 0.0024972 -0.0012053 -0.0030668
-0.0012708 0.0010075 -3.454e-05 -9.0044e-05
0.004489 0.0022223 0.2583 0.17206 -0.00035615 -0.00020673 -0.0013063 0.0011274
3.3957e-05 0.0011806 -0.00055171 0.00052973
-0.00015422 0.0024835 -0.00035809 -0.00020934 0.16035 -0.2456 0.0013861 9.2718e-05
-0.00018348 0.0024008 -0.0013906 0.00034175
-0.0012328 -0.0030944 -0.0012999 0.0011367 0.0013968 8.864e-05 0.20413 -0.087122
0.0018115 0.0081463 -0.0018101 -0.001776
-0.0012676 0.00095824 4.943e-05 0.0011962 -0.0001692 0.0024205 0.0018278 0.0081477
0.23633 0.062159 0.0054874 0.0034828
-2.0101e-05 -0.00012936 -0.00053419 0.0005202 -0.0013539 0.00036239 -0.0017779 -0.0018027
0.0054938 0.0035088 0.27326 0.10228
1880000000 0.21746 -0.14767 0.0022195 5.4743e-05 -0.00039806 0.0020617 -0.0029355 -0.0022504
-0.00017326 0.0019198 0.00016599 -0.00065253
0.0022219 5.3075e-05 0.26283 0.12565 -0.0023402 0.0015687 -1.0491e-05 0.0016704
0.00051908 0.0010139 0.00010407 0.00089965
-0.0003613 0.0020824 -0.0023363 0.0015816 0.10818 -0.2549 0.0014279 -0.00073097
0.0015727 0.00203 -0.00098032 0.0013567
-0.002925 -0.0021863 2.0993e-06 0.0016757 0.0014273 -0.00073451 0.16698 -0.12846
0.0028928 0.0057124 -0.0026615 0.0001787
-0.00014537 0.0019354 0.00052481 0.0010266 0.0015958 0.0020128 0.0028909 0.0057214
0.24004 0.031181 0.0055238 0.0011334
9.1902e-05 -0.0005719 0.00010551 0.00092016 -0.0010421 0.0014162 -0.0026485 0.00017102
0.0055662 0.0010779 0.27354 0.067994
1940000000 0.17841 -0.17355 -0.00014712 -0.0014746 0.0012256 0.0021071 -0.0036282 0.00068662
0.0014897 0.0011946 -0.00065173 -0.00044259
-0.00015529 -0.0014718 0.26361 0.093744 -0.0012133 0.0037396 0.0010563 0.0012694
0.0016335 0.00049247 0.00076007 0.00028295
0.0012381 0.0020884 -0.0011891 0.0037451 0.06209 -0.24836 0.00033152 -0.0017265
0.0024933 0.00049455 0.00042392 0.0016971
-0.0036478 0.00070625 0.0010603 0.0012802 0.00034377 -0.0017231 0.11669 -0.16199
0.0023561 0.0033757 -0.0017568 0.0016509
0.0015413 0.0011477 0.0016549 0.00047841 0.0024404 0.00047931 0.0023299 0.0033403
0.2436 -0.0067707 0.004145 -0.0025973
-0.0006696 -0.00049054 0.0007866 0.00025158 0.00042535 0.0016695 -0.0017646 0.0016516
0.0041089 -0.0024276 0.26299 0.032104
2000000000 0.13192 -0.18843 -0.0039542 0.00063691 0.0025335 0.0017181 -0.0022918 0.0033867
0.0011754 8.7093e-05 -0.00067392 0.00036083
-0.0039412 0.0006458 0.24942 0.058114 -0.00108 0.005575 0.001486 0.00033887
0.0011758 -0.0011755 0.00046495 0.00014469
0.002574 0.001744 -0.0010466 0.0056048 0.018375 -0.2337 -0.0011267 -0.0012865
0.001965 -0.0012044 0.0017088 0.0014114
-0.0023232 0.0035017 0.0014905 0.00033924 -0.0011433 -0.0012996 0.063061 -0.17519
0.00020064 0.0024261 -6.4715e-05 0.0020787
0.0010832 7.9544e-05 0.0011469 -0.001196 0.0020072 -0.0012199 0.00032457 0.0023479
0.23883 -0.040399 0.00065476 -0.0034569
