!Keysight Technologies,M9804A,MY58100912,A.14.10.03
!Date: Thursday, April 27, 2023 10:28:33
!Correction: S11(C  6-Port  ) 
!S12(C  6-Port  ) 
!S13(C  6-Port  ) 
!S14(C  6-Port  ) 
!S15(C  6-Port  ) 
!S16(C  6-Port  ) 
!S21(C  6-Port  ) 
!S22(C  6-Port  ) 
!S23(C  6-Port  ) 
!S24(C  6-Port  ) 
!S25(C  6-Port  ) 
!S26(C  6-Port  ) 
!S31(C  6-Port  ) 
!S32(C  6-Port  ) 
!S33(C  6-Port  ) 
!S34(C  6-Port  ) 
!S35(C  6-Port  ) 
!S36(C  6-Port  ) 
!S41(C  6-Port  ) 
!S42(C  6-Port  ) 
!S43(C  6-Port  ) 
!S44(C  6-Port  ) 
!S45(C  6-Port  ) 
!S46(C  6-Port  ) 
!S51(C  6-Port  ) 
!S52(C  6-Port  ) 
!S53(C  6-Port  ) 
!S54(C  6-Port  ) 
!S55(C  6-Port  ) 
!S56(C  6-Port  ) 
!S61(C  6-Port  ) 
!S62(C  6-Port  ) 
!S63(C  6-Port  ) 
!S64(C  6-Port  ) 
!S65(C  6-Port  ) 
!S66(C  6-Port  ) 
!S6P File: Measurement: :
# Hz S  RI   R 50
500000000 -0.33738 -0.044003 -0.010755 -0.0023813 -0.009004 0.013077 -0.0048989 0.013075
0.012627 0.0039138 -0.004786 0.007528
-0.010785 -0.0023279 -0.41897 -0.055043 0.00787 -0.010999 0.0020729 0.013184
0.0067113 0.0021854 0.0010361 0.014075
-0.0089719 0.01314 0.0079107 -0.011039 -0.26637 0.20692 0.007304 0.00376
-0.0028769 0.008463 0.00060764 0.012728
-0.0048403 0.012901 0.0022342 0.013085 0.0072965 0.0037376 -0.33414 0.035019
-0.02149 -0.0055231 0.017709 0.025721
0.012306 0.0043178 0.0066201 0.0026674 -0.0027781 0.008541 -0.021072 -0.0050943
-0.21461 -0.2151 -0.027848 0.0054719
-0.0042989 0.008916 0.0024715 0.014474 0.0014179 0.012406 0.017257 0.026523
-0.028141 0.0053187 -0.26169 -0.13816
560000000 -0.31735 0.12186 -0.022392 -0.064053 0.00047918 0.012346 0.0062111 0.011137
0.011345 0.0047068 0.01067 0.0086679
-0.022397 -0.06407 -0.37606 0.10447 -0.042047 -0.037656 0.013818 0.0036536
-0.013687 -0.0048075 0.0042495 -0.00065663
0.0004299 0.012262 -0.042204 -0.037653 -0.18382 0.2565 -0.0003562 -0.00445
0.019497 0.0056477 0.006711 -0.0069417
0.0061913 0.011197 0.013828 0.0036925 -0.00035581 -0.0044803 -0.31186 0.12947
0.0032028 -0.02354 0.004499 -0.021605
0.010431 0.003871 -0.014361 -0.0049813 0.01932 0.0063889 0.0035572 -0.02341
-0.28718 -0.034388 0.009366 -0.04927
0.010494 0.0077889 0.0034641 -5.2544e-05 0.0067824 -0.0063384 0.0043661 -0.021948
0.0094897 -0.049461 -0.32541 0.013511
620000000 -0.27661 0.10375 -0.023059 0.0086682 0.003757 0.0092861 0.0088231 -0.004715
0.010408 0.00064708 0.0010783 -0.0027042
-0.023015 0.0086707 -0.40326 0.056951 -0.018317 0.00044376 -0.00077395 -0.0019396
0.011482 -0.0056985 0.0011352 -0.0032595
0.0038971 0.009282 -0.018374 0.00046264 -0.1542 0.26598 -0.00055487 -0.0054038
-0.0030364 -0.0022235 0.0088143 -0.0039185
0.0086718 -0.0046908 -0.00084772 -0.0018846 -0.00056299 -0.0052844 -0.27011 0.1402
-0.039972 -0.019 0.01264 0.026065
0.011099 0.00014807 0.011463 -0.0059608 -0.0030155 -0.0026315 -0.04 -0.01962
-0.2046 -0.075499 -0.043322 0.015911
0.0018113 -0.0023847 0.0013546 -0.0034265 0.0090085 -0.0039065 0.013244 0.026717
-0.04353 0.016136 -0.24822 -0.026069
680000000 -0.23667 0.1904 -0.027287 -0.014164 0.0051646 0.00525 0.0020103 -0.0072781
-0.0026855 -0.011269 0.0060872 -0.006981
-0.027276 -0.014145 -0.38926 0.156 -0.033056 -0.0014464 -0.0017059 -0.0005324
-0.002 -0.0089006 -0.0010264 -0.0016579
0.005235 0.0052277 -0.033069 -0.0013276 -0.10289 0.28575 -0.0010271 -0.0008124
-0.0017984 0.00046686 -0.0030388 -0.0094678
0.0022253 -0.0074265 -0.0016118 -0.0004972 -0.00094619 -0.00083206 -0.22436 0.19313
-0.024728 -0.0056437 -0.0096414 -0.011167
-0.0028834 -0.011152 -0.0017917 -0.0088524 -0.0016235 0.00065067 -0.024488 -0.0056465
-0.26241 0.026448 -0.0056126 -0.0066814
0.0047949 -0.0068653 -0.0015796 -0.0015475 -0.0031777 -0.0091764 -0.0099818 -0.01143
-0.005509 -0.0068755 -0.25937 0.079695
740000000 -0.19193 0.1856 -0.039261 0.027033 0.013412 -0.0048503 4.3992e-05 -0.004331
-0.005271 -0.0022276 -0.0061694 0.002525
-0.039254 0.026972 -0.33437 0.17466 -0.035522 0.035583 -0.00033708 -0.0062098
-0.012287 0.0071183 -0.0022368 -0.0066139
0.013333 -0.0049139 -0.035408 0.035759 -0.068985 0.28388 -0.0020683 0.0031957
-0.0020186 -0.0050479 -0.0015061 0.00013969
2.0812e-05 -0.004323 -0.00043058 -0.0062039 -0.0019594 0.0031827 -0.20724 0.20149
-0.044991 -0.0065178 0.024536 0.016
-0.0048377 -0.0020605 -0.012126 0.0074484 -0.0021904 -0.0048426 -0.045208 -0.006833
-0.15829 0.05473 -0.045053 0.0011961
-0.005839 0.0026592 -0.0021937 -0.0065788 -0.0016044 0.00023921 0.024604 0.015981
-0.04462 0.00091872 -0.24892 0.085806
800000000 -0.15908 0.22703 -0.021996 0.017141 0.0054593 -0.010403 -0.0049441 -0.0024279
-0.0037028 0.0019475 0.0040707 0.00072738
-0.021969 0.017129 -0.33896 0.24548 -0.0078809 0.034306 -0.0025397 0.0020041
-0.0008523 0.002678 0.00065024 0.0051662
0.0054882 -0.010433 -0.0077496 0.034323 -0.02864 0.30705 0.00040605 0.001456
1.9626e-06 0.0035625 -0.0021157 0.0011696
-0.0049934 -0.0024907 -0.0025413 0.0019834 0.00040379 0.0014658 -0.17832 0.23017
-0.028623 0.014978 0.014072 -0.010605
-0.004254 0.0019737 -0.00093998 0.0029136 3.3789e-05 0.0036285 -0.028531 0.015017
-0.2097 0.078863 -0.017389 0.019714
0.0034776 0.00036773 0.00054862 0.0052963 -0.0023407 0.0011464 0.013922 -0.010508
-0.017332 0.019752 -0.24595 0.13631
860000000 -0.12469 0.24647 -0.017445 0.03075 -0.0031374 -0.01011 -0.00183 0.0010187
0.0036866 0.005075 -0.0037672 -0.0035552
-0.017469 0.03071 -0.29115 0.28711 0.0078602 0.034288 6.1528e-06 0.0020532
0.0042166 2.0638e-05 0.0032022 0.00084525
-0.0032193 -0.010139 0.0079613 0.034308 0.019251 0.3149 -0.00062824 -7.7591e-05
0.0027981 -0.0016533 0.0016533 0.0042526
-0.0017968 0.00099139 -1.7684e-05 0.00203 -0.00059226 -9.0098e-05 -0.1401 0.2414
-0.017089 0.018724 -0.0060627 -0.0089871
0.0041457 0.0050676 0.0043406 0.00019998 0.0028626 -0.0015015 -0.017463 0.018764
-0.15779 0.13316 -0.026537 0.016198
-0.0032239 -0.0037277 0.00332 0.00070252 0.0016532 0.0041655 -0.0057895 -0.009177
-0.026488 0.015803 -0.19592 0.18235
920000000 -0.099697 0.26922 0.0052214 0.037924 -0.0094319 -0.0045979 -0.0018616 0.0016028
0.00091671 0.002007 0.0028471 -0.0014705
0.0051937 0.037869 -0.26264 0.30851 0.028121 0.022104 0.001447 0.0010807
0.0070767 0.00026936 0.0040696 -0.0029437
-0.0094184 -0.0046163 0.028202 0.022072 0.065341 0.31578 0.0019823 6.214e-05
0.0011537 -0.00025479 0.00079662 -0.0012255
-0.0018631 0.0016221 0.0014732 0.0010718 0.0019771 7.758e-05 -0.11654 0.25807
-0.010665 0.031697 0.0043249 -0.0068915
0.00077527 0.0019353 0.0070031 0.00024857 0.0011181 -0.00026768 -0.010474 0.031809
-0.14907 0.13905 -0.0024592 0.027591
0.0026177 -0.0014542 0.0040451 -0.002909 0.00077512 -0.0012731 0.0042517 -0.0068047
-0.0024378 0.027788 -0.20475 0.19706
980000000 -0.0527 0.28863 0.017519 0.029995 -0.009292 0.0044697 0.0020032 0.0032434
0.0039133 -0.0013345 -0.0029597 -0.002607
0.017469 0.029943 -0.20991 0.34264 0.033285 0.0049537 0.0021358 -9.7295e-05
0.0017473 -0.0056828 -0.00021001 -0.0025766
-0.0092812 0.0045078 0.033329 0.0048505 0.11171 0.30946 0.00065278 -0.0012977
0.00041767 -0.0021057 0.0013562 -0.00018395
0.0019956 0.0032324 0.0020969 -4.9303e-05 0.00064027 -0.0012983 -0.077353 0.26926
0.0086914 0.031356 -0.0093879 -0.0078383
0.0040369 -0.0013616 0.0018066 -0.0057842 0.00042369 -0.0020694 0.0086886 0.031252
-0.1192 0.16858 0.0048962 0.019955
-0.0030627 -0.0023655 -0.00028035 -0.0025182 0.0013397 -0.00025582 -0.0091476 -0.007843
0.0049347 0.019911 -0.16237 0.24308
1040000000 -0.010866 0.29731 0.033304 0.018158 -0.0013133 0.00702 0.002351 0.00079357
0.00043345 -0.0033641 -0.00025949 -0.001145
0.033244 0.018147 -0.17441 0.35566 0.029683 -0.014869 0.0014956 -0.0018378
-0.0020935 -0.0027516 -0.0015291 -0.0027461
-0.0013018 0.0069968 0.029661 -0.014993 0.15785 0.29583 -0.00050059 -0.001751
-0.0015251 -0.00093993 -0.0005683 -0.0010868
0.0024082 0.00077071 0.0014906 -0.0018125 -0.00049643 -0.0017553 -0.050316 0.27909
0.020649 0.018833 -0.0021669 0.00086151
2.8989e-05 -0.0036128 -0.0021434 -0.0027438 -0.0015631 -0.00093799 0.020723 0.018821
-0.086792 0.17615 0.013183 0.019525
1.0338e-05 -0.0011296 -0.0015715 -0.0026981 -0.0005492 -0.0010638 -0.0022773 0.000919
0.013123 0.019639 -0.14164 0.26393
1100000000 0.034237 0.30549 0.035885 -0.0042135 0.0027818 0.0039916 0.0022166 -0.001158
-0.0019958 -0.0031655 -0.0040238 -0.00035196
0.035852 -0.004192 -0.13128 0.37311 0.015275 -0.028091 -1.1267e-05 -0.0018157
-0.0034962 -0.00096289 -0.0036259 -0.00067502
0.0028321 0.0039727 0.015187 -0.028171 0.20435 0.2756 -0.0019973 0.00013004
-0.0019047 0.00041116 -0.0011552 -0.00030106
0.0021892 -0.0011582 -2.3234e-05 -0.0018452 -0.0019937 0.00012479 -0.0096466 0.28432
0.026269 0.0052142 -0.002851 -0.0004774
-0.0018474 -0.0031592 -0.0034305 -0.00096664 -0.0018581 0.00038037 0.026351 0.0052121
-0.070486 0.19084 0.019475 0.0090453
-0.0041082 -0.00012835 -0.0037346 -0.00054972 -0.0011669 -0.00031148 -0.0027843 -0.00046143
0.019512 0.0089549 -0.096263 0.29607
1160000000 0.085698 0.30077 0.023892 -0.020978 0.0027074 -0.00045986 -0.00046461 -0.002064
-0.0040509 -0.0008238 -0.001087 0.0041355
0.02387 -0.020951 -0.087492 0.37762 -0.0037728 -0.029459 -0.001715 -0.0016249
-0.0029015 0.0024569 -0.0014634 0.0018181
0.00271 -0.00046194 -0.0039038 -0.029453 0.24752 0.24467 -0.0008589 0.0017865
-0.00055301 0.0020946 -0.0010466 0.00022355
-0.00043851 -0.0020635 -0.0016779 -0.0016172 -0.00085309 0.0017897 0.030014 0.28116
0.022976 -0.011745 -0.0038515 0.0051418
-0.0041595 -0.00085187 -0.0028038 0.0025331 -0.00062241 0.0020494 0.022836 -0.011721
-0.036859 0.20048 0.018463 0.00060767
-0.00087905 0.0040479 -0.0014778 0.0018538 -0.0010617 0.00024097 -0.0037319 0.0049933
0.018436 0.00061243 -0.048811 0.29896
1220000000 0.13001 0.28995 0.010437 -0.030259 -0.0016365 -0.00081302 0.00013072 -0.00064089
-0.0027759 0.002334 0.0011075 0.0021092
0.010444 -0.030244 -0.042916 0.3899 -0.017136 -0.021405 -0.0025908 0.00037586
-0.0001456 0.00315 -0.00089586 0.0019124
-0.0016353 -0.00081173 -0.017244 -0.021364 0.2866 0.2054 0.00073532 0.0018573
0.0007207 0.0014332 0.0004339 0.00066322
0.00010597 -0.00067074 -0.0026076 0.00040159 0.00073522 0.0018503 0.069938 0.27242
0.011358 -0.018795 0.0015197 0.0012739
-0.0027139 0.0023203 -0.00012433 0.0031359 0.00069433 0.0014307 0.01143 -0.018799
-0.015038 0.21068 0.014721 -0.012776
0.0010409 0.0021179 -0.00095219 0.0019608 0.00045177 0.00065665 0.0014043 0.0013519
0.014735 -0.012695 -0.018337 0.31693
1280000000 0.18006 0.2683 -0.0081281 -0.028626 -0.0018888 0.0025361 -0.00077484 -0.0019483
-0.00089711 0.0030673 0.002509 0.0013141
-0.0081174 -0.028601 0.0031941 0.38114 -0.024064 -0.0085581 -0.0010461 0.0014724
0.0017776 0.002043 0.00062925 0.0021124
-0.0018893 0.0025421 -0.024117 -0.0084642 0.31681 0.16156 0.0017556 7.8754e-05
0.0013206 0.0003147 0.00035915 0.00028784
-0.00077723 -0.0019164 -0.0010189 0.0014683 0.0017442 0.00010253 0.10687 0.2554
0.0012111 -0.021113 -0.0007019 0.00041618
-0.00089899 0.0031099 0.0017808 0.00206 0.0012696 0.00033729 0.0012028 -0.021184
0.021268 0.21583 0.0032754 -0.015419
0.002583 0.0012819 0.00071819 0.0020823 0.00034075 0.00025815 -0.0006879 0.00044439
0.0033362 -0.015476 0.029674 0.32001
1340000000 0.21725 0.23442 -0.017885 -0.018924 0.0009143 0.0045982 -0.0015005 -0.00090555
0.0014743 0.0026661 0.0018889 -0.0012709
-0.017858 -0.018931 0.042956 0.3727 -0.021861 0.0043808 -0.00020742 0.0020417
0.0020955 0.00079047 0.0013692 0.00080709
0.00093466 0.0045924 -0.021861 0.0045009 0.33875 0.11347 0.0013837 -0.00095353
0.00088192 -0.00066195 9.2279e-05 0.00033337
-0.0015041 -0.00090277 -0.00020401 0.0020581 0.0013775 -0.00095878 0.13878 0.23444
-0.0094261 -0.018327 0.00065628 0.001124
0.0014141 0.0026897 0.002121 0.00088317 0.00091805 -0.00061147 -0.0094577 -0.018292
0.050542 0.21195 -0.003477 -0.01394
0.0018557 -0.0012895 0.00137 0.00080775 0.00011629 0.00032494 0.00061342 0.0010402
-0.0034275 -0.013869 0.068423 0.31642
1400000000 0.25037 0.19624 -0.023639 -0.0072299 0.0052845 0.0031679 -0.0021238 0.00041158
0.0023647 0.0010279 0.0004177 -0.0014468
-0.023604 -0.0072208 0.080242 0.35961 -0.014994 0.012661 0.0014014 0.001445
0.0013082 -0.0008306 0.0012708 0.00016473
0.0053063 0.003135 -0.014942 0.012764 0.3515 0.060248 0.00017562 -0.0019263
0.00010971 -0.00052209 0.00034743 0.00024659
-0.0021342 0.00043587 0.0014005 0.001432 0.00017242 -0.0019397 0.16724 0.20528
-0.015977 -0.011187 -0.00085899 1.1603e-06
0.002412 0.00097157 0.0012992 -0.00088371 4.1865e-05 -0.0005738 -0.016028 -0.011143
0.083401 0.20887 -0.010041 -0.0089838
0.00035644 -0.0014442 0.001318 0.00013177 0.00036808 0.00024355 -0.00090037 8.5002e-05
-0.010048 -0.0090492 0.11342 0.30599
1460000000 0.27307 0.15209 -0.020482 0.0050242 0.0057523 -0.0018264 -0.0016914 0.0017511
0.0021805 -0.00036021 -0.00032855 -0.0010952
-0.02047 0.0050155 0.11443 0.33746 -0.0060606 0.015597 0.0018354 0.00026213
0.00095428 -0.0014068 0.0012135 -0.00070918
0.0057572 -0.0018587 -0.0060065 0.01565 0.3576 0.0061779 -0.0014567 -0.0015228
8.5383e-05 -0.0003892 0.00062011 -0.0003626
-0.001716 0.0017599 0.0018547 0.00026753 -0.0014502 -0.001524 0.19223 0.1763
-0.017776 -0.0035002 -0.00053913 0.0026805
0.0021371 -0.000341 0.0010044 -0.0013951 0.00010121 -0.00035465 -0.01776 -0.0035254
0.1122 0.19519 -0.012001 -0.0027134
-0.00027789 -0.0011262 0.0012002 -0.00071145 0.00062285 -0.00029876 -0.00049466 0.0026107
-0.011986 -0.0026956 0.14701 0.2853
1520000000 0.28497 0.11042 -0.014636 0.010611 0.0034719 -0.0042516 1.6835e-05 0.0027059
0.0022706 -0.0016039 -0.0010935 -0.00021212
-0.01463 0.010598 0.14782 0.32266 0.0017171 0.013278 0.0018634 -0.00080785
-1.895e-05 -0.0011623 0.00034807 -0.00097839
0.0034723 -0.0042643 0.0018008 0.013278 0.35108 -0.049888 -0.0013874 -0.00035268
0.00064545 -0.0008189 0.00012765 -0.00019115
4.6396e-05 0.0027034 0.0018726 -0.00081508 -0.0013724 -0.00035661 0.21412 0.13945
-0.016868 0.0032432 0.0017932 0.002257
0.0023075 -0.0016844 -3.2594e-05 -0.0011391 0.00062269 -0.00082928 -0.016891 0.003337
0.13979 0.18235 -0.011914 0.0015577
-0.0011146 -0.00018203 0.00034586 -0.0010015 0.00013697 -0.00021389 0.00179 0.0021513
-0.011965 0.0015441 0.1805 0.2663
1580000000 0.29421 0.064301 -0.0078406 0.013633 -0.0010097 -0.0050162 0.0014792 0.0021545
-3.8289e-05 -0.0021745 -0.00038049 0.00042078
-0.0078404 0.013629 0.17483 0.29784 0.0053478 0.0083466 0.00050522 -0.0017924
-0.00061435 -0.0010997 -0.00026902 -0.00078042
-0.0010548 -0.0049927 0.005399 0.0083264 0.33085 -0.10718 -0.0017676 0.00092084
-0.00042352 -0.0011116 0.00010669 -0.00056282
0.0014731 0.0021598 0.00050499 -0.0017942 -0.0017663 0.00091726 0.22688 0.10205
-0.01286 0.0089782 0.0026819 0.00072614
-0.00012457 -0.0021784 -0.00058939 -0.0010541 -0.00037372 -0.0010925 -0.012803 0.0090216
0.1641 0.16567 -0.0094159 0.0076898
-0.00038438 0.00040396 -0.00029985 -0.00076835 0.00014784 -0.00052649 0.0027092 0.00074724
-0.009374 0.0077189 0.21375 0.24002
1640000000 0.29627 0.023185 -0.00098242 0.012393 -0.0027387 -0.002633 0.0028956 0.0010291
-0.00044248 -0.0017663 -0.00031262 0.0006199
-0.00098766 0.012381 0.20428 0.27303 0.0061151 0.0034901 -0.00076078 -0.0018945
-0.0010304 -0.00037383 -0.00045264 -0.00069881
-0.0027638 -0.0025944 0.0061415 0.0034549 0.30309 -0.15667 -0.00053895 0.0017255
-0.0011137 -0.0011475 -3.9436e-05 -0.00042714
0.0029078 0.0010238 -0.00077201 -0.0018984 -0.00054155 0.0016951 0.23908 0.055686
-0.0077679 0.010632 0.0028396 -0.00099425
-0.00045404 -0.0017813 -0.0010663 -0.00034115 -0.0011519 -0.0011281 -0.0077789 0.010599
0.18639 0.14246 -0.0045211 0.0097367
-0.00036544 0.00059446 -0.00046706 -0.00070995 -6.9986e-05 -0.00042089 0.0028284 -0.0010429
-0.0045227 0.0097437 0.23949 0.20961
1700000000 0.28887 -0.021882 0.0023904 0.009339 -0.0034997 0.00010357 0.0030992 -0.0014402
-0.0021541 -0.00090929 0.00068403 0.0005304
0.0023891 0.0093255 0.22222 0.24165 0.004059 0.00061724 -0.0016251 -0.00063156
-0.00074393 0.00012205 -0.00092059 -0.00044441
-0.0035175 0.00013537 0.0040606 0.00058892 0.25938 -0.19636 0.00076479 0.0016668
-0.0019821 -0.0002039 -0.00039874 -0.00087428
0.003095 -0.0014586 -0.0016179 -0.00063085 0.00076794 0.0016502 0.23704 0.00861
-0.0042474 0.01125 0.0016811 -0.0024175
-0.0021678 -0.00088378 -0.00071399 0.00014381 -0.0020007 -0.00021368 -0.0042346 0.01133
0.20384 0.12339 0.00030423 0.010086
0.00068555 0.0004901 -0.00096952 -0.00043911 -0.00041875 -0.00086713 0.0016496 -0.0024102
0.00032627 0.01013 0.25697 0.17524
1760000000 0.27676 -0.07021 0.0045337 0.0059126 -0.0023782 0.0010139 0.0011967 -0.0036149
-0.0014745 0.00059872 0.00041892 -0.00061943
0.0045323 0.0058977 0.24823 0.20206 0.0017237 -0.0012831 -0.0013275 0.00028061
-0.00089501 0.00094131 -0.00057725 0.00040185
-0.0023599 0.0010314 0.0017189 -0.0012868 0.2104 -0.22983 0.001342 0.00086829
-0.0011803 0.0014871 -0.0013836 -0.00059027
0.0011882 -0.0036226 -0.0013289 0.00028061 0.0013462 0.00087003 0.23063 -0.040484
-0.00025096 0.010206 -0.00014093 -0.0028351
-0.0014907 0.00061622 -0.000926 0.00091516 -0.0011616 0.0015408 -0.00022346 0.010157
0.21865 0.089801 0.004584 0.0073401
0.00042544 -0.00063236 -0.0005554 0.00039692 -0.0013373 -0.00064838 -0.0001588 -0.0028673
0.0045893 0.0073224 0.26996 0.13808
1820000000 0.25234 -0.10728 0.0044762 0.0023238 -0.00015368 0.0024866 -0.0011782 -0.0030236
-0.0013132 0.0010145 1.8717e-05 -0.0001217
0.0044878 0.0023125 0.25834 0.17201 -0.0003434 -0.00021078 -0.0012927 0.0011089
1.5258e-05 0.001185 -0.00050828 0.00052549
-0.00013569 0.0024966 -0.00034329 -0.00020419 0.16034 -0.24566 0.0013776 5.2423e-05
-0.00020254 0.0024237 -0.00134 0.00033478
-0.0011648 -0.0030425 -0.0012794 0.0011157 0.0013891 4.8192e-05 0.20415 -0.087129
0.0018568 0.0081452 -0.0017686 -0.001738
-0.0012748 0.0010275 7.5717e-05 0.0011973 -0.00018106 0.0023985 0.0018558 0.0081703
0.23638 0.062126 0.0054474 0.0035055
-2.0316e-05 -0.00014539 -0.00053023 0.00054197 -0.001374 0.00031913 -0.0017741 -0.001809
0.005454 0.0035069 0.27342 0.10215
1880000000 0.21737 -0.14753 0.0022277 0.00012971 -0.00038588 0.002115 -0.0029687 -0.0021243
-9.9943e-05 0.001946 0.00017926 -0.00059031
0.0022129 0.00012477 0.26285 0.12559 -0.0023388 0.0015572 -2.0503e-05 0.0016745
0.00053434 0.001033 8.5355e-05 0.00093755
-0.00035534 0.0021076 -0.0023352 0.0015718 0.10814 -0.25492 0.0014435 -0.00071714
0.0015494 0.0019811 -0.00099516 0.0013975
-0.0029511 -0.0021105 -6.5721e-06 0.0016768 0.0014501 -0.00074822 0.16703 -0.12856
0.0029419 0.0055598 -0.0026626 0.00025005
-9.1085e-05 0.0019837 0.00050456 0.0010356 0.001557 0.0019767 0.0029263 0.0056217
0.24005 0.030978 0.0055832 0.001179
7.6682e-05 -0.00052924 8.9737e-05 0.00091601 -0.00096605 0.0013816 -0.0026633 0.00024315
0.0055988 0.0011425 0.2735 0.067983
1940000000 0.17837 -0.17356 -9.49e-05 -0.0014305 0.0011889 0.0021048 -0.0036522 0.00065616
0.0014267 0.0011947 -0.00067356 -0.00048776
-0.00010232 -0.001438 0.26358 0.09371 -0.0011937 0.0037441 0.0010166 0.0012506
0.0016376 0.00048154 0.00082306 0.00031805
0.0012166 0.0021071 -0.0011808 0.0037641 0.062087 -0.24849 0.00029839 -0.0017758
0.0024599 0.00045354 0.0004347 0.0016373
-0.0036525 0.00067869 0.0010468 0.0012705 0.00034184 -0.0017906 0.11669 -0.16189
0.0023364 0.0034533 -0.0017958 0.0015932
0.0014685 0.0011833 0.0016476 0.00047187 0.0025179 0.0004551 0.0023372 0.0033866
0.24362 -0.0067159 0.0041317 -0.0025339
-0.00068105 -0.0005527 0.00080979 0.00028496 0.00044151 0.0016762 -0.0017921 0.0015759
0.0041238 -0.0024678 0.26293 0.032231
2000000000 0.13193 -0.18829 -0.0038989 0.00066277 0.0025545 0.0017673 -0.0023065 0.003422
0.0011589 -2.1163e-05 -0.00053613 0.00039592
-0.003904 0.00065694 0.24942 0.058089 -0.0010871 0.0056115 0.0015287 0.00036332
0.0011277 -0.0011663 0.00044661 0.00011149
0.0025759 0.0017659 -0.0010452 0.0056285 0.018375 -0.23368 -0.0011303 -0.0013694
0.0019596 -0.0012007 0.00173 0.0014125
-0.0022516 0.0034206 0.0015444 0.0003321 -0.0011797 -0.0013494 0.06317 -0.17521
0.00033221 0.0024417 -0.00018486 0.0021291
0.0011705 0.00011371 0.0011279 -0.0011951 0.0020067 -0.0012223 0.00038815 0.0024274
0.23886 -0.040542 0.00069609 -0.0034932
-0.00061278 0.00047987 0.0004385 0.00013855 0.0017573 0.0014131 -0.00012657 0.0021481
