!Keysight Technologies,M9804A,MY58100912,A.14.10.03
!Date: Thursday, April 27, 2023 10:28:33
!Correction: S11(C  6-Port  ) 
!S12(C  6-Port  ) 
!S13(C  6-Port  ) 
!S14(C  6-Port  ) 
!S15(C  6-Port  ) 
!S16(C  6-Port  ) 
!S21(C  6-Port  ) 
!S22(C  6-Port  ) 
!S23(C  6-Port  ) 
!S24(C  6-Port  ) 
!S25(C  6-Port  ) 
!S26(C  6-Port  ) 
!S31(C  6-Port  ) 
!S32(C  6-Port  ) 
!S33(C  6-Port  ) 
!S34(C  6-Port  ) 
!S35(C  6-Port  ) 
!S36(C  6-Port  ) 
!S41(C  6-Port  ) 
!S42(C  6-Port  ) 
!S43(C  6-Port  ) 
!S44(C  6-Port  ) 
!S45(C  6-Port  ) 
!S46(C  6-Port  ) 
!S51(C  6-Port  ) 
!S52(C  6-Port  ) 
!S53(C  6-Port  ) 
!S54(C  6-Port  ) 
!S55(C  6-Port  ) 
!S56(C  6-Port  ) 
!S61(C  6-Port  ) 
!S62(C  6-Port  ) 
!S63(C  6-Port  ) 
!S64(C  6-Port  ) 
!S65(C  6-Port  ) 
!S66(C  6-Port  ) 
!S6P File: Measurement: :
# Hz S  RI   R 50
500000000 -0.33711 -0.043154 -0.009778 -0.0022037 -0.0080053 0.012599 -0.0049139 0.011731
0.012634 0.0047315 -0.0046185 0.0088823
-0.0099308 -0.0027466 -0.419 -0.053929 0.0075595 -0.010726 0.0011143 0.012359
0.0075872 0.001666 0.001152 0.013306
-0.0079795 0.012637 0.0075917 -0.010646 -0.26606 0.20815 0.0073961 0.0040668
-0.0026768 0.0078225 0.00075687 0.012266
-0.0051734 0.011884 0.0011424 0.012366 0.0072783 0.0041006 -0.33457 0.037065
-0.020518 -0.0067621 0.016558 0.027836
0.013058 0.0043916 0.0075798 0.0019593 -0.0026704 0.0078206 -0.020525 -0.0066208
-0.21747 -0.20942 -0.027384 0.0058486
-0.0052577 0.0086382 0.0010556 0.013234 0.00071071 0.012279 0.016474 0.027535
-0.027331 0.0055629 -0.25579 -0.16226
560000000 -0.31681 0.11976 -0.024209 -0.063229 -0.00034252 0.012283 0.0056197 0.010644
0.0096544 0.0048163 0.011199 0.007813
-0.024153 -0.063092 -0.3776 0.10655 -0.040749 -0.037676 0.013775 0.004102
-0.012533 -0.004531 0.0024268 -4.0059e-05
-0.00042461 0.012044 -0.041213 -0.037342 -0.18415 0.25701 3.1974e-05 -0.0040872
0.019547 0.0057483 0.0068157 -0.0060593
0.0054374 0.010884 0.013885 0.0039411 6.5646e-05 -0.0042408 -0.31032 0.13039
0.0036308 -0.02353 0.0044234 -0.022138
0.010097 0.0048053 -0.012743 -0.0046896 0.018796 0.0057247 0.0039038 -0.023376
-0.28833 -0.032409 0.0098836 -0.049695
0.011769 0.0077122 0.0022801 -0.00011412 0.0074123 -0.006404 0.00476 -0.021726
0.009986 -0.050035 -0.33008 -0.0084285
620000000 -0.27637 0.10411 -0.023373 0.0080227 0.0033924 0.0081835 0.0083314 -0.004743
0.010863 -0.00020444 0.0013231 -0.0022776
-0.023419 0.008016 -0.40298 0.058101 -0.018373 8.7988e-05 -0.0010154 -0.0019892
0.011577 -0.0059629 0.0018887 -0.0029057
0.0033089 0.0081429 -0.018435 0.0001481 -0.1545 0.26595 -0.00080898 -0.0053182
-0.0025469 -0.0022069 0.0088089 -0.0032454
0.0082479 -0.0047883 -0.0010956 -0.002023 -0.00095938 -0.0053497 -0.26988 0.1417
-0.03922 -0.019594 0.013 0.028825
0.010609 -0.00022917 0.011687 -0.0059945 -0.00233 -0.00228 -0.039198 -0.019666
-0.20668 -0.070899 -0.044374 0.014687
0.00097174 -0.0027326 0.0016745 -0.0029295 0.0087563 -0.0034695 0.012079 0.028654
-0.044157 0.014947 -0.24558 -0.050006
680000000 -0.23605 0.19076 -0.027279 -0.014147 0.0048294 0.0050395 0.0020531 -0.0070771
-0.0029926 -0.011284 0.0060752 -0.0070643
-0.027207 -0.014232 -0.38828 0.15648 -0.032521 -0.0016507 -0.0014534 -0.00069198
-0.0018024 -0.0091819 -0.0010174 -0.0018438
0.0047867 0.0051259 -0.032555 -0.0015808 -0.1025 0.28586 -0.00067875 -0.00068523
-0.0015999 0.00024541 -0.0024792 -0.0095584
0.0020298 -0.0069499 -0.0014667 -0.00064859 -0.00071968 -0.00056344 -0.22378 0.19419
-0.024284 -0.0065814 -0.010095 -0.012761
-0.002838 -0.011289 -0.0017989 -0.0092599 -0.0014827 0.00022441 -0.024299 -0.0064893
-0.26124 0.030402 -0.005044 -0.0085758
0.0055971 -0.0071265 -0.0010215 -0.0019734 -0.0025174 -0.0095069 -0.010082 -0.012709
-0.0052203 -0.0085652 -0.26399 0.062661
740000000 -0.19219 0.18513 -0.038709 0.026701 0.012654 -0.0051988 -6.3561e-06 -0.0043283
-0.0038393 -0.0028648 -0.0062571 0.0024163
-0.038793 0.026684 -0.33533 0.17587 -0.035747 0.03491 -0.00075073 -0.0063445
-0.01112 0.0075066 -0.0023254 -0.006967
0.012592 -0.005294 -0.035699 0.035027 -0.068612 0.28405 -0.0023772 0.0028021
-0.0025789 -0.0048786 -0.001535 -9.1772e-05
-0.00015076 -0.0045628 -0.00088934 -0.0063692 -0.00237 0.0027884 -0.20688 0.2022
-0.044077 -0.0069903 0.024394 0.016445
-0.0039067 -0.0026948 -0.011478 0.0074001 -0.002557 -0.0048667 -0.044312 -0.0068106
-0.15886 0.058256 -0.045607 -0.0007246
-0.0063096 0.0021587 -0.0023177 -0.007239 -0.0014392 -0.00016238 0.024503 0.016232
-0.045866 -0.00082759 -0.25599 0.06645
800000000 -0.15868 0.2264 -0.022369 0.016684 0.0052894 -0.010616 -0.0044264 -0.0022152
-0.0039497 0.0021714 0.0050046 5.5298e-05
-0.022384 0.016703 -0.33861 0.24561 -0.0079457 0.033746 -0.0024323 0.0022828
-0.00064952 0.0027359 0.00095635 0.0053459
0.005305 -0.010602 -0.0078369 0.033816 -0.028161 0.30709 0.00084219 0.0016158
4.7377e-05 0.0035064 -0.0016289 0.00081295
-0.0044242 -0.0022063 -0.0023939 0.0022254 0.00081204 0.0016511 -0.17743 0.2308
-0.028684 0.014682 0.01505 -0.010684
-0.003844 0.002088 -0.00064219 0.002614 6.3937e-05 0.00343 -0.02862 0.014762
-0.20906 0.081951 -0.017826 0.019664
0.0049539 -6.6277e-05 0.0011715 0.0052513 -0.0016971 0.00074918 0.015107 -0.010933
-0.017793 0.01975 -0.2552 0.11999
860000000 -0.12393 0.24683 -0.017559 0.030611 -0.0032934 -0.0098314 -0.0020985 0.00077901
0.0040242 0.0047667 -0.0037296 -0.0032023
-0.017603 0.030647 -0.29087 0.28747 0.0077283 0.034029 -5.5177e-05 0.0020454
0.0038378 0.00020584 0.0029272 0.00051322
-0.003294 -0.0098011 0.0078201 0.034034 0.01986 0.31495 -0.00057204 6.4973e-05
0.0028038 -0.0013113 0.0011871 0.0042053
-0.0021733 0.0007453 -5.1521e-05 0.0020982 -0.0005939 6.3334e-05 -0.13999 0.24154
-0.017497 0.019047 -0.0066932 -0.0091578
0.0039448 0.0046809 0.0039285 0.00024288 0.0026992 -0.0013552 -0.017486 0.019019
-0.15701 0.13482 -0.028232 0.015019
-0.0038044 -0.0029667 0.0030102 0.00054352 0.0012412 0.0042054 -0.0065936 -0.008919
-0.028103 0.015105 -0.20265 0.16883
920000000 -0.099765 0.2697 0.0049538 0.037718 -0.0092603 -0.004434 -0.0019247 0.001725
0.00091471 0.0019581 0.0027401 -0.0014342
0.004943 0.037689 -0.26223 0.30869 0.0279 0.021849 0.0013388 0.0011689
0.0071958 -6.532e-05 0.0039923 -0.0027996
-0.0092721 -0.0044404 0.027996 0.021793 0.065887 0.31542 0.0019532 7.1212e-05
0.0011723 -0.00015158 0.00085404 -0.0011065
-0.0018345 0.0016771 0.0013885 0.0011897 0.0019688 9.8124e-05 -0.11575 0.25842
-0.010554 0.03141 0.004564 -0.0069708
0.00086789 0.0018652 0.0072703 -6.0634e-05 0.0011918 -0.00015061 -0.010529 0.031571
-0.14809 0.14043 -0.0024877 0.028137
0.0029244 -0.0013867 0.0040458 -0.0026885 0.00088067 -0.0010064 0.0045048 -0.0069788
-0.0026188 0.028137 -0.21743 0.18331
980000000 -0.052177 0.28925 0.017353 0.030061 -0.0089804 0.0045225 0.0018488 0.0034843
0.0040262 -0.0013511 -0.0034639 -0.0023235
0.017271 0.030054 -0.20928 0.34297 0.032812 0.005017 0.0020621 5.6285e-05
0.0018405 -0.0057424 -0.00021796 -0.0022838
-0.0089769 0.0045593 0.03286 0.0049111 0.11191 0.30902 0.00066639 -0.0011472
0.00041014 -0.0021462 0.0014475 -7.1633e-05
0.0019281 0.0034435 0.0020899 8.4459e-05 0.00065689 -0.001141 -0.076799 0.26914
0.0082754 0.030693 -0.0094062 -0.0079197
0.0040131 -0.0013244 0.0017783 -0.0057813 0.0004173 -0.0021272 0.0083179 0.030735
-0.11719 0.17073 0.0044108 0.020005
-0.0034272 -0.0023371 -0.00021366 -0.002395 0.0014189 -9.2415e-05 -0.0094716 -0.0079148
0.0044477 0.019909 -0.17479 0.23316
1040000000 -0.010235 0.29768 0.032962 0.018324 -0.0012669 0.0068729 0.0023882 0.00076363
0.00016304 -0.0037751 -0.00013149 -0.0015989
0.032964 0.018315 -0.17368 0.35582 0.029332 -0.014592 0.0015362 -0.0017163
-0.0022415 -0.0024487 -0.0011277 -0.0026665
-0.001233 0.0068594 0.029287 -0.014704 0.15772 0.29527 -0.00049132 -0.001682
-0.0015834 -0.00099871 -0.00055174 -0.0011443
0.0023374 0.00076016 0.0015361 -0.0016983 -0.00048356 -0.0016609 -0.049484 0.27907
0.020107 0.018531 -0.0019815 0.00096117
8.5153e-05 -0.0037604 -0.0023111 -0.0024827 -0.0015909 -0.00098146 0.020144 0.018449
-0.084589 0.17816 0.013309 0.019747
-0.00016235 -0.001573 -0.0011724 -0.0026237 -0.00053046 -0.0010954 -0.0019838 0.0010598
0.013338 0.019817 -0.15605 0.25517
1100000000 0.035079 0.30569 0.035586 -0.0040171 0.0027724 0.0038014 0.0021865 -0.0011542
-0.0020102 -0.0031963 -0.004022 -9.6322e-06
0.035553 -0.0039856 -0.13041 0.37293 0.015196 -0.027579 -3.3776e-05 -0.0018034
-0.0033015 -0.0010407 -0.0035704 -0.00060144
0.0027928 0.003797 0.015085 -0.027656 0.20374 0.27525 -0.0019542 7.3023e-05
-0.0018459 0.00035435 -0.0011071 -0.00036107
0.0022135 -0.0011714 -3.2285e-05 -0.0018112 -0.0019601 7.3172e-05 -0.0090758 0.28379
0.025742 0.0053111 -0.0027816 -0.00064393
-0.0020487 -0.0031925 -0.0033435 -0.0010159 -0.00185 0.00036308 0.025757 0.00525
-0.067377 0.19237 0.019503 0.0096213
-0.0040172 2.3132e-05 -0.0035295 -0.00063883 -0.0011888 -0.00033764 -0.0028013 -0.00058744
0.019509 0.0096097 -0.11055 0.28991
1160000000 0.08649 0.30066 0.023881 -0.020328 0.0026804 -0.0005276 -0.00035326 -0.0022271
-0.0041631 -0.00093292 -0.0010999 0.0041849
0.023892 -0.020309 -0.087031 0.37701 -0.0034414 -0.028968 -0.0016624 -0.0017558
-0.0029743 0.0022895 -0.0014726 0.0018748
0.0026733 -0.00053557 -0.0035703 -0.028971 0.24677 0.24477 -0.00086791 0.0018299
-0.000772 0.0020058 -0.00098609 0.00028908
-0.00035089 -0.0022396 -0.0016638 -0.0017455 -0.00088176 0.0018226 0.030183 0.28066
0.022404 -0.010804 -0.0036769 0.0051527
-0.0041925 -0.00087782 -0.0029908 0.0022881 -0.00075372 0.002041 0.022371 -0.010862
-0.033756 0.20174 0.018777 0.0016637
-0.001035 0.0041848 -0.0013677 0.0019187 -0.00098485 0.00028791 -0.0036888 0.0051213
0.018723 0.0017084 -0.063505 0.29374
1220000000 0.13076 0.28954 0.010563 -0.02968 -0.0016067 -0.00080247 0.00012586 -0.00073393
-0.0027258 0.0023564 0.0012579 0.0020623
0.010557 -0.029625 -0.042868 0.38916 -0.016641 -0.02118 -0.0025258 0.00031246
-0.00021145 0.0030675 -0.00089442 0.0019042
-0.0016217 -0.00078067 -0.016761 -0.021121 0.286 0.20612 0.00074916 0.0018449
0.00059109 0.001384 0.00041252 0.00068922
0.0001338 -0.00075889 -0.0025257 0.0003547 0.00075169 0.0018351 0.069903 0.27205
0.011496 -0.017906 0.0016909 0.0013256
-0.0027252 0.0023334 -0.00019911 0.0030474 0.00056807 0.0014205 0.011459 -0.017924
-0.012415 0.2109 0.015425 -0.012111
0.0012119 0.0020796 -0.00086101 0.0019435 0.00036122 0.00064522 0.0016867 0.0013124
0.015385 -0.012117 -0.033404 0.31495
1280000000 0.18032 0.26761 -0.0075479 -0.028251 -0.0018249 0.0024478 -0.00076147 -0.0019714
-0.00085008 0.0030455 0.002438 0.0013301
-0.0075233 -0.028223 0.0028097 0.38039 -0.023471 -0.0087002 -0.0011039 0.0014077
0.0015636 0.0020216 0.00056001 0.0022349
-0.0017977 0.0024632 -0.023538 -0.0086133 0.31688 0.16247 0.0017543 0.00019369
0.0012533 0.00040021 0.00044688 0.00035174
-0.00076299 -0.0019818 -0.0011296 0.0013925 0.0017517 0.00018096 0.10666 0.25524
0.0018417 -0.02044 -0.00067716 0.00027275
-0.00086824 0.0030512 0.001597 0.0020118 0.0012493 0.00040477 0.0018056 -0.020443
0.02385 0.21516 0.0039378 -0.01472
0.0024948 0.0013948 0.00057359 0.0022376 0.00046894 0.00032144 -0.00067907 0.00024296
0.0039178 -0.014755 0.016044 0.32023
1340000000 0.21723 0.234 -0.017197 -0.019018 0.00087655 0.004434 -0.0015348 -0.0009103
0.0014101 0.0027827 0.0018725 -0.0012986
-0.017159 -0.019 0.042211 0.37262 -0.021571 0.0039044 -0.00024799 0.0020561
0.0019678 0.001055 0.0014151 0.00083305
0.00090854 0.0044363 -0.021571 0.0040296 0.3392 0.11457 0.0014086 -0.00089753
0.00082806 -0.00052469 0.00024116 0.00033449
-0.0015459 -0.0008994 -0.00025018 0.0020448 0.001393 -0.00089424 0.13838 0.23465
-0.0083249 -0.018058 0.00070742 0.00072726
0.0014173 0.0027764 0.001968 0.0010368 0.00082494 -0.00051442 -0.0083646 -0.018006
0.052647 0.21114 -0.0024272 -0.01382
0.0019578 -0.0013479 0.001406 0.00079344 0.00027744 0.00029614 0.00074331 0.00080976
-0.0023843 -0.013843 0.05448 0.31867
1400000000 0.25008 0.19609 -0.023021 -0.0077205 0.0051292 0.0030791 -0.0020535 0.00043351
0.0023083 0.00090886 0.00051033 -0.0013236
-0.022992 -0.0077265 0.079573 0.35987 -0.014937 0.012122 0.001368 0.0015202
0.0013147 -0.00068718 0.0013667 0.00034264
0.0051564 0.0030561 -0.014891 0.012225 0.35261 0.060773 0.00031729 -0.0018303
3.7455e-05 -0.00048459 0.00042051 0.00024621
-0.0020593 0.00044059 0.0014025 0.0015052 0.00032155 -0.0018178 0.16717 0.20571
-0.014877 -0.011459 -0.0010723 -0.0002708
0.0023234 0.0009227 0.00132 -0.00072048 4.1022e-05 -0.00047908 -0.014903 -0.011377
0.084989 0.20806 -0.009076 -0.0095787
0.00050603 -0.0013618 0.0013634 0.00028373 0.00047105 0.00027873 -0.0010986 -0.00024447
-0.0091005 -0.0095804 0.10138 0.31016
1460000000 0.2729 0.15247 -0.020311 0.0043528 0.0055275 -0.0018203 -0.0016953 0.0016861
0.002141 -0.00038379 -0.00032422 -0.0010655
-0.020287 0.0043328 0.11398 0.33831 -0.0064275 0.015116 0.0018825 0.00024364
0.0010425 -0.0014498 0.0011995 -0.00067226
0.005529 -0.0018484 -0.0063666 0.015168 0.35867 0.0061901 -0.0013242 -0.0015182
0.00017087 -0.00034692 0.00058625 -0.00040465
-0.0017059 0.0016967 0.0018901 0.00022485 -0.0012905 -0.0015712 0.19236 0.17694
-0.017053 -0.0044764 -0.00091862 0.002482
0.0021471 -0.00039823 0.0010076 -0.0014555 0.00014306 -0.00034718 -0.017093 -0.0044235
0.11342 0.19422 -0.011412 -0.0035516
-0.00033974 -0.0010539 0.001224 -0.00067179 0.00061806 -0.00047059 -0.00093573 0.0024637
-0.011409 -0.0035472 0.13572 0.29072
1520000000 0.28526 0.11092 -0.014866 0.0098932 0.0032661 -0.0040953 -6.6635e-06 0.0026827
0.0022771 -0.0015983 -0.0011842 -0.00030545
-0.014851 0.0098854 0.14787 0.32362 0.001305 0.01311 0.0018199 -0.00084761
0.00010771 -0.0012676 0.00037464 -0.0010435
0.0032297 -0.0041104 0.0013743 0.01312 0.35174 -0.050275 -0.0013736 -0.00051092
0.00061784 -0.00091375 5.1145e-05 -0.00011785
5.3295e-06 0.0026725 0.0018294 -0.00084733 -0.0013713 -0.00048499 0.21469 0.14014
-0.017026 0.0020866 0.001585 0.0023815
0.0022532 -0.0015893 0.00010513 -0.001257 0.00061215 -0.00091975 -0.017034 0.0021349
0.14059 0.18148 -0.011971 0.00072908
-0.001179 -0.00027393 0.00038991 -0.0010225 4.872e-05 -8.398e-05 0.0016128 0.0023567
-0.011981 0.00075648 0.17131 0.27303
1580000000 0.2948 0.064772 -0.0083838 0.013163 -0.00092289 -0.0048449 0.0014212 0.0020888
-8.7927e-05 -0.002128 -0.00044692 0.00046599
-0.0083945 0.013146 0.17541 0.29879 0.0050042 0.0084425 0.00054165 -0.0017803
-0.00068374 -0.0012064 -0.00025419 -0.00081352
-0.00096029 -0.0048339 0.0050519 0.0084378 0.33131 -0.1079 -0.0018553 0.00084112
-0.0002967 -0.0011289 5.1944e-05 -0.00050756
0.0014266 0.0020806 0.00051345 -0.0017844 -0.0018667 0.00086739 0.228 0.10249
-0.013635 0.0080794 0.0026223 0.0010697
-9.9104e-05 -0.0021346 -0.00070472 -0.0011973 -0.00030673 -0.0011325 -0.013631 0.0081178
0.16502 0.16501 -0.0096457 0.006858
-0.00041545 0.00050641 -0.00024353 -0.00080626 7.2904e-05 -0.00050242 0.0025758 0.0010617
-0.0096648 0.0068624 0.2062 0.24682
1640000000 0.29721 0.023378 -0.0017197 0.012339 -0.0026593 -0.0025401 0.0028734 0.0011231
-0.00051212 -0.0016854 -0.00032532 0.00059774
-0.0017333 0.012342 0.20521 0.27363 0.0058973 0.003707 -0.00077204 -0.0018875
-0.0011894 -0.00039569 -0.00045713 -0.00078165
-0.0026824 -0.0025327 0.0059326 0.003677 0.30303 -0.15712 -0.00066157 0.0017284
-0.0010577 -0.0012271 -0.00015862 -0.00040273
0.0028856 0.001107 -0.00078649 -0.0018774 -0.00069465 0.0017389 0.24058 0.055636
-0.0089568 0.010442 0.0028288 -0.00083343
-0.00050804 -0.0016758 -0.0011984 -0.00038836 -0.0010637 -0.0012067 -0.0089379 0.010489
0.18729 0.14219 -0.0051359 0.0090836
-0.00030897 0.00059686 -0.00046194 -0.00079091 -0.00012157 -0.00040422 0.00285 -0.0008378
-0.0051012 0.0090882 0.2331 0.21659
1700000000 0.28988 -0.022278 0.0018007 0.009654 -0.0034283 8.8954e-05 0.0031827 -0.0013338
-0.0020967 -0.00095224 0.0006986 0.00050877
0.00178 0.0096578 0.22344 0.24174 0.0040072 0.00076676 -0.0016369 -0.00061911
-0.00088678 0.00017287 -0.00093917 -0.00049768
-0.0034274 0.00011805 0.0040215 0.00073932 0.25922 -0.19694 0.00072032 0.0017459
-0.002032 -0.00027071 -0.00042146 -0.00081765
0.0031682 -0.0013459 -0.00164 -0.0006049 0.0007178 0.0017467 0.23857 0.0078617
-0.0052765 0.011786 0.00179 -0.0023877
-0.0021088 -0.00094861 -0.00088438 0.00019487 -0.001995 -0.00025229 -0.0052615 0.011802
0.2049 0.12308 -0.00039628 0.0097559
0.00070471 0.00050212 -0.00097533 -0.00047843 -0.00050135 -0.00086955 0.0017784 -0.0023757
-0.00037654 0.0097319 0.25151 0.18233
1760000000 0.27758 -0.071128 0.0042678 0.0064698 -0.0022143 0.00096967 0.0012323 -0.0035503
-0.0015872 0.00058908 0.0005223 -0.00063454
0.0042533 0.0064734 0.24937 0.20156 0.001743 -0.0010397 -0.0012997 0.00029902
-0.00092816 0.0010667 -0.00060327 0.00042488
-0.0022023 0.00098918 0.0017573 -0.0010536 0.20982 -0.23003 0.0014626 0.00099274
-0.0012287 0.0015314 -0.0013088 -0.00056851
0.0012565 -0.0035377 -0.0012786 0.00031437 0.0014312 0.00097716 0.23162 -0.042004
-0.00063778 0.011112 -4.331e-05 -0.0027844
-0.0015906 0.00059882 -0.00091846 0.0010798 -0.0012381 0.0015648 -0.00061801 0.011121
0.22013 0.089521 0.0038341 0.0073334
0.00051019 -0.00063223 -0.00059372 0.00040882 -0.0013119 -0.00057579 -4.0911e-06 -0.0027655
0.0038339 0.0073513 0.26536 0.14503
1820000000 0.25275 -0.10844 0.0046108 0.0028523 -2.4315e-05 0.0024048 -0.0011305 -0.0031437
-0.0013191 0.00099702 3.1874e-05 -0.00013096
0.004609 0.0028677 0.25923 0.17112 -0.00011686 -8.2469e-05 -0.0012711 0.0010635
0.00017603 0.001347 -0.00061961 0.00059719
-2.3044e-05 0.0024186 -0.00011634 -8.8641e-05 0.16026 -0.24522 0.0015098 4.9617e-05
-0.00019823 0.0025436 -0.0014905 0.00037451
-0.0011653 -0.0031285 -0.0012572 0.001067 0.0015047 2.2376e-05 0.20435 -0.08898
0.0019494 0.0089744 -0.0016813 -0.0017998
-0.0013169 0.0010129 0.00019098 0.001349 -0.00018442 0.0025256 0.00196 0.0089786
0.23814 0.061586 0.0048143 0.0038019
-2.3533e-05 -9.9851e-05 -0.00062842 0.00058964 -0.0014872 0.00030816 -0.0017022 -0.0018241
0.0048228 0.0038057 0.26936 0.10974
1880000000 0.21727 -0.14877 0.0024732 0.000473 -0.00032099 0.0019731 -0.0030564 -0.0021904
-0.0002088 0.0019252 0.00019837 -0.00069447
0.0024662 0.00047109 0.26323 0.12436 -0.0022096 0.001618 -6.6708e-05 0.0016485
0.00068603 0.0010524 0.00013549 0.0009591
-0.00033342 0.0019737 -0.0022111 0.001654 0.1079 -0.2547 0.001525 -0.0010098
0.0016309 0.0019951 -0.0011112 0.0013992
-0.0030571 -0.002175 -5.5038e-05 0.0016543 0.001519 -0.0010381 0.16625 -0.13021
0.0033829 0.0061307 -0.002485 0.00028537
-0.00018138 0.0019022 0.00069382 0.0010612 0.0016364 0.0020049 0.0034312 0.0060992
0.24211 0.029948 0.0052604 0.0017254
0.0001769 -0.00074509 0.00015083 0.0009528 -0.0010942 0.0013777 -0.0024786 0.00022916
0.0052698 0.0017114 0.27028 0.075215
1940000000 0.17755 -0.17436 0.00020072 -0.0013541 0.0011155 0.0018931 -0.0036071 0.00060932
0.0015014 0.0011621 -0.00092511 -0.00056126
0.00021404 -0.0013504 0.26341 0.092465 -0.0010937 0.0037516 0.0010633 0.0012058
0.0017431 0.00029434 0.00082049 0.00023958
0.0011697 0.0018908 -0.0010603 0.0037767 0.062244 -0.24791 0.0002599 -0.0018299
0.0024929 0.00037152 0.00037957 0.0016552
-0.0036162 0.00065065 0.001082 0.0012151 0.00025138 -0.0018509 0.11536 -0.16284
0.0026877 0.0036153 -0.0015694 0.0014938
0.0015029 0.0011602 0.0017664 0.00029043 0.0025058 0.00036131 0.00271 0.0035914
0.24542 -0.0087134 0.0040821 -0.0019961
-0.0009352 -0.00054539 0.00080438 0.00024441 0.00035912 0.0016569 -0.0015918 0.0014983
0.0040516 -0.0019958 0.26052 0.04018
2000000000 0.13085 -0.18877 -0.0037254 0.00065886 0.0023853 0.0017564 -0.0023611 0.003319
0.0012125 5.9644e-05 -0.00071048 0.00039768
-0.0037305 0.00062615 0.24871 0.057007 -0.001 0.0056277 0.0014672 0.00036453
0.0010398 -0.0013766 0.00049521 7.9449e-05
