!Keysight Technologies,M9804A,MY58100912,A.14.10.03
!Date: Thursday, April 27, 2023 10:28:33
!Correction: S11(C  6-Port  ) 
!S12(C  6-Port  ) 
!S13(C  6-Port  ) 
!S14(C  6-Port  ) 
!S15(C  6-Port  ) 
!S16(C  6-Port  ) 
!S21(C  6-Port  ) 
!S22(C  6-Port  ) 
!S23(C  6-Port  ) 
!S24(C  6-Port  ) 
!S25(C  6-Port  ) 
!S26(C  6-Port  ) 
!S31(C  6-Port  ) 
!S32(C  6-Port  ) 
!S33(C  6-Port  ) 
!S34(C  6-Port  ) 
!S35(C  6-Port  ) 
!S36(C  6-Port  ) 
!S41(C  6-Port  ) 
!S42(C  6-Port  ) 
!S43(C  6-Port  ) 
!S44(C  6-Port  ) 
!S45(C  6-Port  ) 
!S46(C  6-Port  ) 
!S51(C  6-Port  ) 
!S52(C  6-Port  ) 
!S53(C  6-Port  ) 
!S54(C  6-Port  ) 
!S55(C  6-Port  ) 
!S56(C  6-Port  ) 
!S61(C  6-Port  ) 
!S62(C  6-Port  ) 
!S63(C  6-Port  ) 
!S64(C  6-Port  ) 
!S65(C  6-Port  ) 
!S66(C  6-Port  ) 
!S6P File: Measurement: :
# Hz S  RI   R 50
500000000 -0.33767 -0.045589 -0.010869 -0.0024209 -0.0089637 0.013576 -0.0050669 0.012651
0.012074 0.004601 -0.0046958 0.0088591
-0.010783 -0.0022552 -0.41888 -0.056702 0.0074732 -0.010704 0.0017493 0.012875
0.0067904 0.0023992 0.0014371 0.014408
-0.0088683 0.013565 0.007441 -0.010817 -0.26794 0.20673 0.0069301 0.0038782
-0.0029101 0.0082124 0.00041164 0.01236
-0.0051955 0.012912 0.0016424 0.012922 0.0068919 0.00392 -0.33417 0.033878
-0.021833 -0.0046725 0.017948 0.027037
0.012116 0.0044382 0.006909 0.0023595 -0.0026997 0.0083243 -0.021976 -0.0051949
-0.21393 -0.21607 -0.028806 0.0062118
-0.0052024 0.0092485 0.001224 0.013963 0.00035015 0.012352 0.017442 0.026384
-0.028416 0.0070873 -0.2603 -0.14079
560000000 -0.31875 0.1193 -0.023288 -0.063953 -0.00020586 0.012113 0.0052982 0.011569
0.010502 0.0049704 0.010346 0.0082763
-0.023144 -0.063709 -0.37711 0.10422 -0.042375 -0.037109 0.013811 0.0041422
-0.013972 -0.004697 0.0034144 0.00032637
-0.00036311 0.012387 -0.042334 -0.036847 -0.18469 0.25699 7.1982e-05 -0.0040395
0.020227 0.0063631 0.0068951 -0.0060944
0.0054871 0.011632 0.013853 0.0039146 -6.4421e-06 -0.003915 -0.31215 0.12861
0.0033382 -0.023412 0.0043387 -0.021796
0.010188 0.0045803 -0.013984 -0.0048901 0.020142 0.0059169 0.0032344 -0.023497
-0.28756 -0.037022 0.0084518 -0.050105
0.010544 0.0085547 0.0034607 0.00019143 0.0073504 -0.0059705 0.0041691 -0.022135
0.0092208 -0.049295 -0.3274 0.011178
620000000 -0.27693 0.10231 -0.023347 0.0089622 0.0037032 0.009059 0.0082078 -0.0046944
0.011556 -2.1513e-05 0.0011651 -0.0020498
-0.023348 0.0089348 -0.4037 0.055819 -0.018352 0.00059792 -0.0012078 -0.0018915
0.011855 -0.0055931 0.0012709 -0.0031739
0.0036758 0.0091139 -0.018311 0.0006823 -0.15465 0.2663 -0.00050292 -0.0053401
-0.0023613 -0.0026408 0.0086847 -0.003964
0.0083794 -0.0047997 -0.0011049 -0.0018607 -0.00050245 -0.0054285 -0.27074 0.1399
-0.039919 -0.019235 0.013174 0.026901
0.011288 0.00028851 0.011771 -0.0058816 -0.0023607 -0.002686 -0.040147 -0.019165
-0.2051 -0.076528 -0.044518 0.016648
0.0012459 -0.0021772 0.0012483 -0.0030444 0.0091186 -0.0037327 0.0129 0.027514
-0.044592 0.015867 -0.24711 -0.029194
680000000 -0.2375 0.18964 -0.026757 -0.01375 0.0052287 0.0050856 0.002289 -0.00714
-0.0028968 -0.011672 0.0054133 -0.0071709
-0.026699 -0.013764 -0.38921 0.15516 -0.032287 -0.0014654 -0.0012161 -0.00059417
-0.0015011 -0.0094219 -0.00082526 -0.0019257
0.0053101 0.0051064 -0.032393 -0.0013877 -0.10255 0.28592 -0.000687 -0.00083236
-0.0013039 0.00018376 -0.0028001 -0.0092713
0.0021422 -0.006944 -0.0012605 -0.00045921 -0.00073177 -0.00086342 -0.22382 0.1929
-0.024242 -0.0064114 -0.010436 -0.012175
-0.0028985 -0.01151 -0.0016108 -0.0093547 -0.001468 0.00016569 -0.024169 -0.0063586
-0.26448 0.025775 -0.0058681 -0.0061534
0.0050104 -0.0075001 -0.0012632 -0.002236 -0.0029448 -0.0096063 -0.0105 -0.01225
-0.0062631 -0.0064498 -0.26045 0.078587
740000000 -0.19324 0.1849 -0.039074 0.027491 0.013325 -0.0052426 2.4639e-05 -0.0047794
-0.0042391 -0.0021642 -0.0058957 0.0025164
-0.039136 0.027412 -0.3349 0.17397 -0.035276 0.035075 -0.00069033 -0.0064407
-0.01129 0.0068526 -0.0022812 -0.0065067
0.013314 -0.0052745 -0.035224 0.035334 -0.06882 0.28358 -0.0021465 0.0029539
-0.0024516 -0.0051082 -0.0017973 0.00028069
-4.2438e-05 -0.0047112 -0.00059344 -0.0064188 -0.0021632 0.0029687 -0.20756 0.20105
-0.044258 -0.0059175 0.024766 0.015883
-0.0044339 -0.0022645 -0.011224 0.0070708 -0.002513 -0.0050597 -0.044363 -0.0063045
-0.15926 0.052941 -0.044761 0.0011281
-0.0061798 0.0025634 -0.0021964 -0.0069286 -0.0014725 0.00028368 0.024477 0.016006
-0.044711 0.0014357 -0.2497 0.083585
800000000 -0.15905 0.22646 -0.021761 0.016875 0.0055977 -0.010556 -0.0044513 -0.0020125
-0.0038644 0.0018671 0.0045733 0.00071296
-0.021688 0.016921 -0.33924 0.24418 -0.0078671 0.033868 -0.0023945 0.0021122
-0.00093834 0.0027525 0.00087484 0.0052091
0.005615 -0.010468 -0.0077704 0.033992 -0.028573 0.30631 0.00053781 0.0016519
-7.5876e-06 0.0035186 -0.0017639 0.00081681
-0.0044156 -0.0019884 -0.00246 0.0021141 0.00054455 0.0016011 -0.17828 0.23028
-0.028182 0.014658 0.014589 -0.010339
-0.0038799 0.0017883 -0.00098066 0.002739 -6.4378e-05 0.0034302 -0.028272 0.014893
-0.21046 0.078788 -0.017149 0.019385
0.0044932 0.00066058 0.00093866 0.0051819 -0.0017316 0.00083505 0.014475 -0.010621
-0.016903 0.019603 -0.2468 0.13427
860000000 -0.12468 0.2459 -0.017206 0.030442 -0.0031003 -0.010047 -0.0017872 0.00061658
0.0037233 0.0051553 -0.0036091 -0.0028936
-0.017183 0.030358 -0.29142 0.28571 0.0077377 0.034206 -0.00016522 0.0021904
0.0038868 0.00042758 0.0031462 0.00097054
-0.0031189 -0.010037 0.0078452 0.034211 0.018759 0.31421 -0.00068716 3.7555e-05
0.0028723 -0.0015439 0.0016466 0.0042533
-0.0018371 0.00054932 -0.00014944 0.0021006 -0.00065759 -1.4101e-05 -0.14042 0.24071
-0.017203 0.018536 -0.0061508 -0.0089354
0.0037397 0.0052705 0.0038484 0.00045656 0.0028249 -0.0015092 -0.017128 0.018599
-0.15715 0.13262 -0.026785 0.016105
-0.0036292 -0.0032777 0.0033939 0.00072255 0.0018175 0.0041547 -0.0061422 -0.0087757
-0.026707 0.015815 -0.1962 0.18045
920000000 -0.10032 0.26831 0.0052018 0.037549 -0.0093577 -0.0048643 -0.0017913 0.0013942
0.0007862 0.0019492 0.0029259 -0.0014324
0.0052035 0.037498 -0.26324 0.30716 0.028018 0.022105 0.0014273 0.0011116
0.0073428 0.0002806 0.0041051 -0.002662
-0.0093865 -0.0048586 0.028134 0.02202 0.064634 0.31531 0.0020457 8.6945e-05
0.0012153 -0.00022752 0.00074319 -0.0012092
-0.0018613 0.0014168 0.0014566 0.0010609 0.0020276 0.00012914 -0.11648 0.25747
-0.010836 0.031326 0.0046844 -0.0068901
0.0008382 0.0019646 0.0071775 0.00022313 0.0012819 -0.0002273 -0.010755 0.031299
-0.14927 0.13836 -0.002051 0.027412
0.0027781 -0.0016705 0.0041944 -0.0028622 0.00076839 -0.0012125 0.004707 -0.0070844
-0.0024952 0.027229 -0.20576 0.1957
980000000 -0.053377 0.28779 0.017284 0.029739 -0.0093446 0.0042979 0.0018216 0.0032417
0.0038032 -0.0011311 -0.0030588 -0.0024075
0.017276 0.029697 -0.2108 0.34134 0.033134 0.005045 0.0021672 1.0136e-05
0.0019335 -0.0056927 -0.00011969 -0.0025435
-0.0093317 0.0043157 0.033192 0.0049019 0.11088 0.30904 0.0006512 -0.0012538
0.00053238 -0.0021168 0.001355 -0.000212
0.0018257 0.0032063 0.0022084 3.818e-05 0.00064112 -0.0012605 -0.077703 0.26829
0.0087421 0.031272 -0.009464 -0.0076104
0.0038635 -0.0012401 0.0018491 -0.0057115 0.00046107 -0.0021705 0.0088151 0.031197
-0.11933 0.16781 0.0050916 0.019803
-0.0030146 -0.0025117 9.0404e-05 -0.0025489 0.001377 -0.00026141 -0.0094314 -0.0077737
0.0051156 0.01971 -0.16475 0.24104
1040000000 -0.012203 0.29655 0.032941 0.018105 -0.0015996 0.0068544 0.0022429 0.00078904
0.00010763 -0.0034774 -0.00010848 -0.0014642
0.032899 0.018093 -0.17574 0.35456 0.029607 -0.014795 0.0015425 -0.0017628
-0.0021444 -0.0028263 -0.0013603 -0.0028225
-0.0015753 0.0068682 0.029556 -0.014924 0.1569 0.29581 -0.00049417 -0.0017441
-0.0015334 -0.0010233 -0.00061981 -0.001038
0.0022505 0.00073778 0.0015676 -0.00177 -0.0004751 -0.0017564 -0.050793 0.27849
0.020494 0.018829 -0.0020942 0.00079757
9.5618e-05 -0.0034995 -0.0020441 -0.0028368 -0.0014936 -0.00096333 0.020537 0.018813
-0.08725 0.17556 0.013262 0.019008
-0.000303 -0.0014204 -0.0014114 -0.0027408 -0.00059287 -0.0010618 -0.0020353 0.0007934
0.013086 0.019246 -0.14364 0.26266
1100000000 0.032877 0.30472 0.035656 -0.0042077 0.0025762 0.0039759 0.0021992 -0.00098547
-0.0018798 -0.0030885 -0.0042415 -8.4519e-05
0.035654 -0.0042113 -0.13241 0.37209 0.015288 -0.028076 6.3172e-05 -0.0018196
-0.0035284 -0.0010997 -0.0037305 -0.000643
0.0026068 0.0039692 0.01519 -0.028189 0.20354 0.27572 -0.0020479 8.0173e-05
-0.0019379 0.00035311 -0.0012249 -0.00022667
0.0021827 -0.0010069 1.6866e-06 -0.0018239 -0.0020439 5.4721e-05 -0.010433 0.28356
0.026197 0.0052216 -0.0029961 -0.00053899
-0.0018641 -0.0030954 -0.0035753 -0.001054 -0.0019481 0.00033654 0.026213 0.0051444
-0.070901 0.18966 0.019498 0.0088023
-0.0041736 -0.00017598 -0.0037462 -0.00064992 -0.0011995 -0.00023201 -0.0030101 -0.00060974
0.019589 0.0089437 -0.098477 0.29495
1160000000 0.083832 0.30035 0.023723 -0.020944 0.0024955 -0.00034327 -0.00025928 -0.0019934
-0.0042014 -0.0008736 -0.0010256 0.0041149
0.023715 -0.020927 -0.089277 0.37664 -0.0037582 -0.029455 -0.0016534 -0.0017795
-0.0030169 0.0024859 -0.0014659 0.001897
0.0024971 -0.0003491 -0.003915 -0.029475 0.24667 0.24486 -0.00092104 0.0018841
-0.00066686 0.0021168 -0.00099844 0.00026205
-0.00028825 -0.0020037 -0.0016512 -0.0017736 -0.00093562 0.0018578 0.028846 0.28064
0.022708 -0.011541 -0.0038588 0.0049283
-0.0041793 -0.00081287 -0.0030805 0.0025027 -0.00065268 0.0021111 0.022674 -0.011552
-0.037359 0.1993 0.018526 0.00088902
-0.0010084 0.0041909 -0.0015315 0.0019825 -0.00096881 0.0002512 -0.0038589 0.004995
0.018538 0.00086301 -0.051234 0.29769
1220000000 0.12819 0.29011 0.010248 -0.030126 -0.0017111 -0.00061618 0.00027115 -0.0006678
-0.0027418 0.0023117 0.0011718 0.0021443
0.010275 -0.030095 -0.044723 0.38946 -0.017138 -0.021428 -0.002623 0.00037919
-0.00015182 0.003287 -0.0009343 0.0019507
-0.0017189 -0.00061299 -0.017255 -0.021376 0.28574 0.20577 0.00074063 0.001962
0.00070344 0.0015165 0.00048707 0.00063889
0.00024812 -0.00068248 -0.0026225 0.00039929 0.00074303 0.0019677 0.068724 0.2724
0.011484 -0.018661 0.0014214 0.0013478
-0.0027082 0.0022946 -0.00013337 0.0032811 0.00069258 0.0015239 0.011441 -0.018663
-0.016138 0.2096 0.014549 -0.012977
0.0012461 0.002138 -0.00091905 0.0019496 0.00048459 0.00062987 0.0013943 0.0013495
0.014547 -0.012925 -0.020808 0.31616
1280000000 0.1781 0.26864 -0.0082123 -0.028416 -0.0018711 0.0027725 -0.00072258 -0.002085
-0.00093206 0.0031139 0.0026069 0.0014038
-0.0081743 -0.028399 0.0012944 0.38088 -0.024163 -0.0085969 -0.001111 0.0014502
0.0018665 0.0021844 0.00068716 0.0021875
-0.0018402 0.0027926 -0.024237 -0.0084949 0.31596 0.16194 0.0017968 0.00014374
0.0013487 0.00033132 0.00046484 0.0003159
-0.0007296 -0.0020961 -0.0011114 0.0014706 0.0017477 0.00014309 0.10569 0.25553
0.0012648 -0.021113 -0.00076823 0.00056025
-0.00092833 0.0030952 0.0018756 0.0021451 0.0013027 0.00031539 0.0012285 -0.021111
0.019887 0.21463 0.0031546 -0.015439
0.0025115 0.0013371 0.00063901 0.0022002 0.00042481 0.00025215 -0.00078959 0.00054628
0.0031015 -0.01539 0.027312 0.31949
1340000000 0.21534 0.2356 -0.017932 -0.018641 0.0010872 0.0047571 -0.0016453 -0.0010069
0.0014463 0.0027892 0.0019321 -0.0013302
-0.017895 -0.018644 0.040974 0.37305 -0.021932 0.0044103 -0.00024879 0.0021123
0.0022184 0.00083652 0.0013426 0.00078665
0.0011047 0.0047571 -0.021957 0.0045361 0.33781 0.1143 0.0014457 -0.0010118
0.00094786 -0.00066806 8.8492e-05 0.00020817
-0.0016456 -0.00099283 -0.00022074 0.0021245 0.0014557 -0.0010008 0.13775 0.23497
-0.0092895 -0.018298 0.00062562 0.0010613
0.0014713 0.002787 0.0022232 0.00083835 0.00096282 -0.00065242 -0.0093306 -0.018296
0.048594 0.21139 -0.0035675 -0.014209
0.0019784 -0.0013915 0.0013991 0.00083296 8.1246e-05 0.00030727 0.00060279 0.0011186
-0.0036302 -0.014199 0.065443 0.31633
1400000000 0.24895 0.1979 -0.023458 -0.0069844 0.0055074 0.0032109 -0.0022042 0.00045574
0.0024324 0.0010775 0.00041886 -0.0015058
-0.023424 -0.0069926 0.078674 0.36007 -0.015053 0.012803 0.0014301 0.0014409
0.0013463 -0.00089998 0.0013538 0.00011776
0.0055087 0.0031946 -0.01501 0.012906 0.3508 0.061236 0.00020216 -0.0019742
2.7616e-05 -0.00052505 0.00037649 0.00018719
-0.0021978 0.00045814 0.001454 0.0014402 0.00020759 -0.0019656 0.16654 0.20599
-0.015902 -0.011149 -0.0008403 0.00019969
0.0024193 0.001051 0.0013319 -0.00091321 4.0841e-05 -0.0005034 -0.015949 -0.011067
0.081175 0.20882 -0.010185 -0.0089788
0.00043775 -0.0015015 0.0013541 0.00014798 0.00036283 0.00020831 -0.0008579 0.00019399
-0.010114 -0.0089989 0.11123 0.30675
1460000000 0.27197 0.15387 -0.020185 0.0052461 0.0059256 -0.0018811 -0.0017022 0.0017699
0.0022349 -0.00032315 -0.00030488 -0.0011745
-0.020176 0.0052325 0.1129 0.3382 -0.0060414 0.015717 0.0018838 0.00023065
0.00091871 -0.0014634 0.0012327 -0.00066996
0.0059129 -0.0019083 -0.0059642 0.015765 0.35702 0.0073973 -0.0014277 -0.0015318
0.00013393 -0.0003572 0.00060253 -0.00038366
-0.0016842 0.0018057 0.0018923 0.00023088 -0.0014458 -0.0015349 0.19169 0.17703
-0.017676 -0.0036071 -0.00055718 0.0027693
0.0022352 -0.00034177 0.00091205 -0.0014661 0.00014683 -0.00037542 -0.017676 -0.0035514
0.10981 0.19578 -0.011962 -0.0026502
-0.00035114 -0.0011452 0.0011974 -0.00071387 0.00056919 -0.00032958 -0.00049296 0.0027276
-0.011972 -0.0026501 0.1446 0.28642
1520000000 0.2846 0.11235 -0.014286 0.010609 0.0036197 -0.0044029 3.5109e-05 0.0027199
0.0022901 -0.0016996 -0.0012207 -0.00018555
-0.014294 0.010586 0.14659 0.32367 0.0018377 0.013367 0.001853 -0.00085992
-3.6741e-05 -0.0011199 0.00034556 -0.0010461
0.0036009 -0.0044137 0.0019175 0.013374 0.35075 -0.048302 -0.0014229 -0.00038926
0.00068538 -0.00078646 9.5339e-05 -0.00020247
4.6068e-05 0.002723 0.0018312 -0.00085065 -0.0014156 -0.00038793 0.21383 0.14021
-0.016893 0.0032427 0.0019269 0.0023075
0.00231 -0.0017556 -5.7192e-05 -0.0011285 0.00068943 -0.00079484 -0.016887 0.0033069
0.13788 0.18345 -0.012055 0.001704
-0.0011528 -0.00023827 0.00033764 -0.0010088 9.4226e-05 -0.00019855 0.0019532 0.0023334
-0.01204 0.0017566 0.17846 0.26772
1580000000 0.29407 0.065852 -0.0075077 0.013455 -0.00086622 -0.0052266 0.0015168 0.0020573
-4.2656e-05 -0.002247 -0.00036879 0.00045084
-0.0075039 0.013435 0.17391 0.29871 0.0055426 0.0083661 0.00047964 -0.0018047
-0.00060438 -0.0010534 -0.00024862 -0.00084691
-0.000886 -0.0052397 0.0055859 0.0083403 0.331 -0.10588 -0.0018384 0.00095481
-0.00032247 -0.0011715 0.00015003 -0.00053232
0.0015346 0.0020634 0.00048456 -0.0017955 -0.0018354 0.00098355 0.22695 0.10261
-0.012858 0.0089618 0.0028121 0.00077761
-5.0775e-05 -0.0022505 -0.00061928 -0.0010383 -0.00033362 -0.0011734 -0.012829 0.0090258
0.16253 0.16725 -0.009276 0.0078389
-0.00037898 0.00042951 -0.0002701 -0.00083541 0.00011034 -0.00051773 0.002838 0.00080386
-0.0092561 0.0078039 0.21183 0.2416
1640000000 0.29622 0.02469 -0.00085066 0.012076 -0.0028505 -0.0028484 0.0028932 0.0010539
-0.00056394 -0.0017312 -0.00032911 0.00060168
-0.00084977 0.012049 0.20332 0.2741 0.0062964 0.0033306 -0.00080751 -0.0018997
-0.0010329 -0.00037013 -0.00048785 -0.00078282
-0.0028735 -0.0028328 0.0063314 0.0033082 0.30353 -0.15523 -0.00055764 0.0017737
-0.0011571 -0.0011851 -8.9281e-05 -0.00048728
0.0029045 0.0010257 -0.0008178 -0.0019187 -0.00055553 0.0017743 0.23917 0.056161
-0.007805 0.010536 0.0029824 -0.00099641
-0.0005626 -0.0017519 -0.0010457 -0.00036534 -0.0011697 -0.0011719 -0.0077733 0.010574
0.18542 0.14419 -0.0043517 0.0097841
-0.00030514 0.00060505 -0.00048038 -0.00079196 -8.6007e-05 -0.00046597 0.0030078 -0.0010565
-0.00444 0.0097797 0.23772 0.21148
1700000000 0.28911 -0.020616 0.0023805 0.0089905 -0.003751 2.6227e-05 0.0031564 -0.0014671
-0.0021644 -0.00093011 0.00074273 0.00044526
0.0023727 0.0089947 0.22167 0.24256 0.0041261 0.00038248 -0.00165 -0.00060403
-0.00075937 5.5758e-05 -0.00094776 -0.00048517
-0.0037509 4.735e-05 0.0041334 0.00035989 0.26029 -0.19544 0.00080791 0.0016276
-0.0021077 -0.00027736 -0.00044625 -0.00087156
0.00315 -0.0014844 -0.0016537 -0.00058465 0.00080467 0.0016358 0.23728 0.0088809
-0.0042368 0.011299 0.0017579 -0.0026052
-0.0021602 -0.00090948 -0.00077238 6.3399e-05 -0.0021379 -0.00026478 -0.0042216 0.011318
0.20326 0.12523 0.00050014 0.01007
0.0006878 0.00042691 -0.00094493 -0.00047348 -0.00047981 -0.00087204 0.0017705 -0.0026231
0.00050581 0.010066 0.25557 0.17723
1760000000 0.27685 -0.068938 0.0043574 0.0056292 -0.002561 0.0010521 0.001162 -0.003641
-0.0014999 0.0006328 0.00039502 -0.00065589
0.0043503 0.0056319 0.2475 0.20284 0.0016134 -0.0015232 -0.0013359 0.00028888
-0.00099121 0.00090955 -0.00066301 0.00037373
-0.0025654 0.0010621 0.0016188 -0.0015384 0.21117 -0.22894 0.0013118 0.00083839
-0.0012924 0.0015112 -0.0014265 -0.00058569
0.0011634 -0.0036394 -0.0013342 0.00029526 0.0013273 0.00083306 0.2305 -0.040492
-0.00016954 0.010092 -0.0001399 -0.0029402
-0.0015027 0.0006652 -0.00098954 0.0009082 -0.0013093 0.0015236 -0.00012589 0.010063
0.21849 0.091253 0.0046544 0.0072228
0.00039961 -0.00067683 -0.00065046 0.00038349 -0.0014187 -0.00057138 -0.00013435 -0.0029344
0.0045999 0.0072727 0.2691 0.13999
1820000000 0.25261 -0.106 0.0042691 0.0021408 -0.00017502 0.0025996 -0.0012566 -0.0031587
-0.0013059 0.0010165 2.743e-05 -4.0223e-05
0.0042599 0.0021366 0.25786 0.17296 -0.00055596 -0.00037236 -0.0012707 0.0011016
-1.232e-05 0.0012454 -0.00058245 0.00058363
-0.00016487 0.0026021 -0.00055976 -0.00037036 0.16107 -0.24505 0.001427 9.3879e-05
-0.00017788 0.0025065 -0.0013511 0.00033209
-0.0012583 -0.0031204 -0.0012761 0.0011103 0.0014427 8.3909e-05 0.20392 -0.086928
0.0017878 0.0081318 -0.0018753 -0.001937
-0.0012996 0.0010139 3.8423e-06 0.0012479 -0.00015118 0.0025178 0.0018016 0.0081216
0.23643 0.063656 0.0055188 0.003309
-1.9429e-05 -4.9265e-05 -0.00057919 0.00058913 -0.0013435 0.00034241 -0.0018185 -0.001927
0.0055124 0.00333 0.27245 0.1044
1880000000 0.21794 -0.14631 0.0018913 9.7448e-05 -0.00046245 0.0022858 -0.0030753 -0.0021557
-0.00019719 0.0018986 0.00016771 -0.00046966
0.0018667 9.0187e-05 0.26228 0.12624 -0.0026722 0.0016029 -4.6993e-05 0.0016353
0.00049798 0.0011385 7.4544e-05 0.0010505
-0.00045036 0.0022828 -0.0026464 0.0016151 0.10888 -0.25429 0.0014972 -0.0008363
0.001638 0.0020339 -0.00098436 0.0015134
-0.0031071 -0.0021451 -5.2159e-05 0.0016485 0.0014804 -0.00084195 0.16673 -0.12835
0.0028654 0.0055626 -0.0026848 0.00021422
-0.00017631 0.0018795 0.00051057 0.0011314 0.0016511 0.002048 0.0028867 0.00554
0.24008 0.032098 0.0056606 0.0010601
0.00017054 -0.00056173 0.00011422 0.0010209 -0.00098859 0.001463 -0.0026953 0.00022074
0.005674 0.0011523 0.27318 0.069663
1940000000 0.17887 -0.17214 -0.00041086 -0.0013236 0.001306 0.0021764 -0.0036289 0.00073255
0.0014871 0.0012169 -0.00062003 -0.0004488
-0.00041711 -0.0013257 0.2629 0.094633 -0.0014197 0.0039961 0.0010465 0.0012371
0.0017154 0.00056858 0.00092456 0.00036318
0.0013581 0.0021735 -0.0013662 0.0040119 0.062869 -0.24764 0.00029482 -0.0018367
0.0024674 0.00042043 0.00058156 0.0016349
-0.0036552 0.00079833 0.0010594 0.0012188 0.00031563 -0.00181 0.11625 -0.1614
0.0021146 0.0034519 -0.0019184 0.0015789
0.001481 0.0011698 0.0017346 0.00056573 0.0024664 0.00042846 0.0020826 0.0034567
0.24361 -0.0056845 0.0042236 -0.0026446
-0.00070659 -0.00048076 0.00089222 0.00032323 0.00055259 0.0016557 -0.0019374 0.0016208
0.0041802 -0.0026657 0.26281 0.034016
2000000000 0.1329 -0.1873 -0.0041673 0.00087881 0.0026755 0.0017819 -0.0022827 0.0035456
0.0011868 0.00012427 -0.00059999 0.0005942
-0.0041376 0.0008704 0.24883 0.059103 -0.0011324 0.0058971 0.0014904 0.00038583
0.0012803 -0.0012096 0.00048267 0.00013233
0.0026841 0.0017543 -0.0010824 0.0058923 0.019787 -0.23342 -0.0011426 -0.0013346
0.0020712 -0.0013101 0.0016441 0.0012767
-0.0022843 0.0035342 0.0014649 0.00038881 -0.0011526 -0.0013555 0.063104 -0.17444
0.0002758 0.0025465 -0.00010873 0.0022593
0.0012019 9.7576e-05 0.0012469 -0.0012366 0.0020424 -0.0012983 0.00025885 0.0025382
0.23915 -0.039343 0.00074981 -0.0034991
