!Keysight Technologies,M9804A,MY58100912,A.14.10.03
!Date: Thursday, April 27, 2023 10:28:33
!Correction: S11(C  6-Port  ) 
!S12(C  6-Port  ) 
!S13(C  6-Port  ) 
!S14(C  6-Port  ) 
!S15(C  6-Port  ) 
!S16(C  6-Port  ) 
!S21(C  6-Port  ) 
!S22(C  6-Port  ) 
!S23(C  6-Port  ) 
!S24(C  6-Port  ) 
!S25(C  6-Port  ) 
!S26(C  6-Port  ) 
!S31(C  6-Port  ) 
!S32(C  6-Port  ) 
!S33(C  6-Port  ) 
!S34(C  6-Port  ) 
!S35(C  6-Port  ) 
!S36(C  6-Port  ) 
!S41(C  6-Port  ) 
!S42(C  6-Port  ) 
!S43(C  6-Port  ) 
!S44(C  6-Port  ) 
!S45(C  6-Port  ) 
!S46(C  6-Port  ) 
!S51(C  6-Port  ) 
!S52(C  6-Port  ) 
!S53(C  6-Port  ) 
!S54(C  6-Port  ) 
!S55(C  6-Port  ) 
!S56(C  6-Port  ) 
!S61(C  6-Port  ) 
!S62(C  6-Port  ) 
!S63(C  6-Port  ) 
!S64(C  6-Port  ) 
!S65(C  6-Port  ) 
!S66(C  6-Port  ) 
!S6P File: Measurement: :
# Hz S  RI   R 50
500000000 -0.33822 -0.041573 -0.010378 -0.0022367 -0.0082491 0.012642 -0.0042209 0.012093
0.012366 0.0054217 -0.0052464 0.0084982
-0.010505 -0.0022014 -0.41898 -0.053919 0.0078471 -0.010719 0.0020737 0.011781
0.0074553 0.0021992 0.0019867 0.013169
-0.0083533 0.012747 0.0078361 -0.010678 -0.26605 0.20788 0.0077759 0.0033552
-0.0023719 0.0079266 0.0011144 0.01224
-0.0044566 0.012357 0.0018156 0.012407 0.0075923 0.0038564 -0.33437 0.036901
-0.020944 -0.0060465 0.017082 0.027662
0.012003 0.0055564 0.0077853 0.0023105 -0.0022776 0.007711 -0.020003 -0.0066009
-0.21903 -0.20899 -0.027139 0.0058225
-0.0046518 0.0093622 0.0022429 0.013687 0.0013239 0.012299 0.015902 0.026798
-0.027775 0.0063444 -0.25521 -0.16026
560000000 -0.31728 0.12015 -0.024332 -0.063338 -0.00038158 0.012161 0.0065387 0.010678
0.010395 0.0047745 0.011334 0.0078875
-0.024223 -0.063213 -0.3762 0.10538 -0.04143 -0.037385 0.014847 0.0039142
-0.013307 -0.0052377 0.0027646 -0.0013684
-0.00040564 0.012156 -0.041694 -0.037218 -0.18393 0.25604 -0.00043506 -0.0040574
0.01964 0.0057074 0.0071415 -0.0056104
0.0061305 0.010692 0.013998 0.003941 -0.00039829 -0.0042761 -0.30993 0.13008
0.0038184 -0.023918 0.0048583 -0.02233
0.010963 0.0035986 -0.013231 -0.004876 0.01916 0.0052443 0.0029892 -0.022843
-0.28861 -0.03152 0.0092914 -0.050126
0.010839 0.0070572 0.0018273 -0.00098559 0.0066677 -0.0055336 0.0053004 -0.022401
0.0095345 -0.05114 -0.32887 -0.0065933
620000000 -0.27609 0.10427 -0.023192 0.0081197 0.0036669 0.0088785 0.0087196 -0.0042397
0.011564 6.8406e-05 0.0014392 -0.0024991
-0.023162 0.0081652 -0.40274 0.057536 -0.018486 -0.00010112 -0.0010556 -0.002067
0.011551 -0.0062991 0.0016869 -0.0030853
0.0037746 0.0090044 -0.01844 -5.4811e-05 -0.15451 0.26545 -0.00070529 -0.0052588
-0.0027455 -0.0026937 0.0084253 -0.0031778
0.0086536 -0.0042897 -0.0010955 -0.0020671 -0.00094424 -0.0054207 -0.26909 0.14068
-0.039417 -0.019994 0.012061 0.028052
0.012044 0.00079233 0.01174 -0.0060717 -0.0031289 -0.0026548 -0.040449 -0.020477
-0.20727 -0.069019 -0.043989 0.015202
0.0025707 -0.0028408 0.0019007 -0.0032027 0.008345 -0.0036596 0.012799 0.027761
-0.043401 0.014083 -0.24846 -0.048429
680000000 -0.23575 0.19188 -0.027432 -0.014112 0.0050114 0.005064 0.0019551 -0.0077702
-0.0030612 -0.011924 0.0065072 -0.0067452
-0.027453 -0.014127 -0.38825 0.15582 -0.032885 -0.0017037 -0.0017774 -0.00055731
-0.0017399 -0.0093559 -0.00075468 -0.0018672
0.0051556 0.0051014 -0.032872 -0.0016312 -0.10296 0.28548 -0.00089845 -0.00041506
-0.0019013 0.00051338 -0.0028189 -0.009488
0.0019219 -0.0078422 -0.0017489 -0.00062064 -0.00091492 -0.00043619 -0.22355 0.19329
-0.023849 -0.0066036 -0.010076 -0.012143
-0.0036527 -0.011561 -0.0016893 -0.0091655 -0.0016783 0.00071021 -0.023911 -0.0063914
-0.26119 0.029899 -0.0051661 -0.0098918
0.0051486 -0.0067278 -0.00084421 -0.0019334 -0.0029582 -0.0096937 -0.010075 -0.012181
-0.0053174 -0.0094423 -0.26355 0.063743
740000000 -0.19136 0.18553 -0.038813 0.027071 0.012987 -0.0048655 0.00026217 -0.0042436
-0.0035973 -0.0026898 -0.0062808 0.0024005
-0.038806 0.027092 -0.33577 0.17436 -0.035695 0.035448 -0.00068933 -0.0060208
-0.011833 0.0077202 -0.0024595 -0.0070851
0.013053 -0.0049538 -0.035656 0.035619 -0.069482 0.28355 -0.0024148 0.0029698
-0.0020462 -0.0050772 -0.0013596 -0.00020879
0.00019413 -0.0041547 -0.00075686 -0.0062559 -0.0023688 0.0029765 -0.20746 0.20159
-0.044367 -0.0067692 0.024 0.016707
-0.0032411 -0.0028691 -0.011659 0.0080395 -0.0020772 -0.0049485 -0.045043 -0.0063313
-0.15909 0.059502 -0.044952 -0.0011007
-0.0059139 0.0025611 -0.0025208 -0.0070633 -0.0013769 -0.00018417 0.024122 0.016429
-0.045055 -0.0009931 -0.25567 0.068821
800000000 -0.15833 0.22609 -0.022354 0.0167 0.0053726 -0.010556 -0.0052853 -0.0022212
-0.0041056 0.0026539 0.0045297 0.00023188
-0.022454 0.016677 -0.33908 0.24505 -0.0082263 0.034292 -0.0026305 0.0021358
-0.0007657 0.0028737 0.001177 0.0055386
0.0053312 -0.010605 -0.0081571 0.034342 -0.029218 0.30724 0.00064602 0.0014544
0.000188 0.0035737 -0.0017614 0.00095173
-0.0050973 -0.0021513 -0.0026046 0.0021404 0.00070946 0.0014764 -0.1781 0.22975
-0.029195 0.014733 0.014698 -0.010613
-0.0043845 0.0021515 -0.00077665 0.0028729 7.4048e-05 0.0036244 -0.029214 0.014931
-0.20946 0.081775 -0.017279 0.020209
0.0038998 -0.00010142 0.00067036 0.0052049 -0.0021579 0.00090561 0.014643 -0.01127
-0.017971 0.020056 -0.25471 0.12199
860000000 -0.12434 0.24644 -0.017502 0.030599 -0.0032026 -0.010201 -0.0019548 0.0008549
0.0037105 0.0043959 -0.003726 -0.0029661
-0.017541 0.030589 -0.29155 0.28712 0.0078438 0.034571 1.5127e-05 0.0020286
0.0038734 0.00022185 0.0035876 0.00074057
-0.0032549 -0.010173 0.0079641 0.034578 0.018924 0.31546 -0.00071645 1.1576e-06
0.0026333 -0.0013416 0.0017376 0.0042088
-0.0021874 0.00082376 3.4818e-05 0.0019371 -0.00070991 2.9915e-06 -0.14096 0.24122
-0.018703 0.019434 -0.006493 -0.0094147
0.0038065 0.0043552 0.0038345 0.00016877 0.0026494 -0.0014189 -0.018506 0.019313
-0.15786 0.13455 -0.027072 0.015599
-0.0035807 -0.0031281 0.0029139 0.0003296 0.0015657 0.0041619 -0.0059646 -0.0094886
-0.027073 0.015726 -0.20159 0.17166
920000000 -0.099821 0.26956 0.0051021 0.038059 -0.0095685 -0.0046323 -0.0019172 0.0016556
0.0011925 0.0018877 0.0029303 -0.0015549
0.0051049 0.038057 -0.263 0.30844 0.028377 0.022142 0.0014287 0.0010877
0.0071904 -5.0733e-05 0.0043613 -0.0028725
-0.0096022 -0.0046087 0.028466 0.022076 0.065282 0.3164 0.0019119 4.4106e-05
0.0012765 -0.00013696 0.00095717 -0.0012332
-0.001746 0.0016691 0.0014799 0.0011143 0.0019076 5.3868e-06 -0.11678 0.25869
-0.010832 0.032012 0.0048243 -0.0071519
0.00098227 0.0017977 0.007117 -0.00029498 0.0012738 -0.0002827 -0.010619 0.03211
-0.14784 0.14075 -0.0028955 0.028145
0.0026059 -0.001725 0.004031 -0.0028519 0.00071978 -0.0011981 0.0045885 -0.0072038
-0.0026136 0.028451 -0.21588 0.18486
980000000 -0.05274 0.28912 0.017603 0.030394 -0.009246 0.0046326 0.0019259 0.0032484
0.0040164 -0.0014019 -0.0034132 -0.0026199
0.017561 0.030399 -0.21007 0.34278 0.033538 0.0050558 0.0020611 -0.00013982
0.0016919 -0.005878 -0.00038963 -0.0026209
-0.0092301 0.004668 0.033591 0.0049357 0.11165 0.31011 0.00062674 -0.0012321
0.00037384 -0.0022253 0.0014264 -0.00027098
0.0019048 0.0033285 0.002092 -0.00014887 0.00063978 -0.0012674 -0.077519 0.26966
0.008681 0.031615 -0.0094403 -0.0080951
0.0042405 -0.0015157 0.0016985 -0.0059314 0.00042071 -0.0022048 0.0086355 0.031648
-0.11731 0.17159 0.0045904 0.020208
-0.0031989 -0.0021098 -0.00028056 -0.0025209 0.0013231 -0.00023841 -0.0093618 -0.0083702
0.00466 0.020589 -0.17326 0.23424
1040000000 -0.010606 0.29758 0.033504 0.018354 -0.0013547 0.0071419 0.0022809 0.00072381
0.00015091 -0.0035189 -0.00016601 -0.0014513
0.033493 0.018391 -0.17465 0.35604 0.029865 -0.015137 0.0014599 -0.0017819
-0.0023817 -0.002676 -0.0013834 -0.0026831
-0.0013387 0.0071376 0.02981 -0.015257 0.15803 0.29652 -0.00054606 -0.0017257
-0.0016179 -0.00096623 -0.00054316 -0.0010923
0.0023974 0.00065578 0.0014536 -0.0018313 -0.00052202 -0.0016712 -0.050076 0.28005
0.021142 0.019075 -0.0020878 0.00096773
5.6564e-05 -0.0033931 -0.002495 -0.0026663 -0.0016184 -0.00096648 0.020985 0.018776
-0.085081 0.17848 0.013248 0.020107
1.9623e-05 -0.0013635 -0.0013973 -0.0025193 -0.0005514 -0.0010481 -0.0021532 0.00095989
0.0135 0.02011 -0.15442 0.25632
1100000000 0.034733 0.30587 0.036307 -0.0042285 0.0028514 0.0039726 0.0022328 -0.0011947
-0.001931 -0.003104 -0.0041456 6.0031e-05
0.036293 -0.0041935 -0.13127 0.3736 0.015252 -0.028411 -9.2319e-05 -0.0018135
-0.0034783 -0.0008614 -0.0037267 -0.00036848
0.0028834 0.0039714 0.015143 -0.028496 0.20479 0.27608 -0.0020707 0.00015605
-0.0018721 0.00046412 -0.0012472 -0.0003608
0.0022327 -0.0012244 -8.992e-05 -0.0017988 -0.0020773 0.00016157 -0.0090994 0.28509
0.02691 0.0050755 -0.0028852 -0.00045916
-0.0019445 -0.0031554 -0.0034723 -0.00087391 -0.0019299 0.00046074 0.026962 0.0051386
-0.068054 0.19261 0.019974 0.009582
-0.0039604 9.5098e-05 -0.0036873 -0.00039601 -0.0012207 -0.00035407 -0.0028686 -0.00044277
0.019745 0.0097732 -0.1096 0.29054
1160000000 0.08591 0.30094 0.024177 -0.021085 0.0028626 -0.00051307 -0.00056874 -0.0022163
-0.0041169 -0.00088052 -0.0010072 0.0041006
0.024188 -0.021068 -0.087523 0.37818 -0.003896 -0.029579 -0.0017304 -0.0016236
-0.0028784 0.0024199 -0.0013616 0.0019799
0.0028605 -0.00052727 -0.0040672 -0.029575 0.24807 0.24492 -0.00083497 0.001831
-0.00074698 0.0020982 -0.0010534 0.00028751
-0.00037277 -0.0022424 -0.0016256 -0.0017049 -0.00083577 0.001871 0.030832 0.2818
0.023166 -0.011891 -0.0035395 0.0051641
-0.0041702 -0.00082578 -0.0027455 0.0025543 -0.00065978 0.0021134 0.023087 -0.012009
-0.034638 0.20252 0.019511 0.0014749
-0.00088526 0.0039293 -0.0014947 0.0019429 -0.0010653 0.00027641 -0.0035322 0.0052369
0.019368 0.0013201 -0.0627 0.29525
1220000000 0.13044 0.29031 0.010475 -0.030505 -0.0015715 -0.00094291 9.7837e-05 -0.00066172
-0.002838 0.0023511 0.0013543 0.0021511
0.010498 -0.030469 -0.042603 0.39037 -0.017385 -0.021395 -0.0025654 0.00042516
-9.2521e-05 0.0032121 -0.00078011 0.0020165
-0.0015549 -0.00093705 -0.017504 -0.02134 0.2872 0.20542 0.00081703 0.0018292
0.00066027 0.001349 0.00035056 0.00066716
-1.5332e-05 -0.00065757 -0.0025564 0.00050543 0.00080265 0.0018003 0.071202 0.27276
0.011525 -0.019316 0.0017183 0.0013797
-0.00274 0.0023992 -4.9785e-05 0.0031586 0.00065749 0.0014131 0.011486 -0.019177
-0.01251 0.21227 0.015753 -0.012849
0.0012861 0.0022117 -0.00084867 0.0020821 0.00036855 0.00074933 0.0017046 0.0013849
0.015684 -0.012722 -0.031871 0.31584
1280000000 0.18047 0.26842 -0.0082546 -0.028886 -0.0019255 0.0024791 -0.00083317 -0.0019199
-0.00091699 0.0031302 0.00254 0.0012234
-0.0082321 -0.02885 0.0037421 0.38128 -0.024216 -0.0083907 -0.00098519 0.0015143
0.0017144 0.0019341 0.0007163 0.0022
-0.0019212 0.0024724 -0.024292 -0.0082915 0.31733 0.16115 0.0017751 9.3487e-05
0.0012041 0.00035609 0.00041241 0.00041831
-0.00074923 -0.0019089 -0.00099153 0.001443 0.0017752 0.0001161 0.10814 0.2551
0.0010779 -0.02163 -0.000625 0.00025734
-0.0010085 0.0031291 0.00168 0.0019462 0.0011904 0.00036449 0.00096057 -0.021708
0.024177 0.21696 0.0038636 -0.01573
0.0025316 0.0011483 0.00068736 0.0021959 0.00043626 0.00036878 -0.00072462 0.00023282
0.0040123 -0.015698 0.017746 0.32068
1340000000 0.21776 0.23441 -0.018184 -0.019056 0.00083713 0.0045118 -0.0014544 -0.0008956
0.0014212 0.0028331 0.0018641 -0.0014094
-0.018154 -0.019057 0.043478 0.37263 -0.021848 0.0045351 -0.00018687 0.0019941
0.0019765 0.00088908 0.0014632 0.00076593
0.00088625 0.0045391 -0.021829 0.004653 0.33864 0.1133 0.0013014 -0.00096362
0.00085268 -0.00056727 0.00025049 0.00039816
-0.0015051 -0.00086975 -0.00012338 0.0020153 0.0013155 -0.00097553 0.13965 0.23385
-0.0096495 -0.018579 0.00064632 0.00092438
0.0014755 0.002782 0.0019184 0.00085349 0.00082221 -0.00059562 -0.0096852 -0.018479
0.053715 0.2129 -0.0029476 -0.014457
0.0018979 -0.0014323 0.0014852 0.00071706 0.00026793 0.00035948 0.00058213 0.00085085
-0.0029782 -0.014478 0.056364 0.31882
1400000000 0.25073 0.19614 -0.023895 -0.0072256 0.0052511 0.0031897 -0.0021162 0.00048385
0.0024693 0.00099896 0.00039428 -0.001333
-0.023871 -0.0072162 0.080765 0.35899 -0.014878 0.012742 0.0013389 0.0014286
0.0012737 -0.00077816 0.0013542 0.00026381
0.0052341 0.0031648 -0.014834 0.012837 0.35141 0.060181 0.00022031 -0.0018625
7.3915e-05 -0.0004568 0.00049526 0.00027399
-0.0020769 0.00052094 0.001336 0.0013855 0.00019416 -0.0018006 0.16778 0.20438
-0.016287 -0.011031 -0.0011669 -7.0018e-05
0.0024954 0.00099883 0.0012534 -0.00080555 8.8398e-05 -0.00050952 -0.016362 -0.011018
0.086648 0.20913 -0.0099328 -0.0097775
0.00041424 -0.0013611 0.0013351 0.00025041 0.0005635 0.00030449 -0.0012081 -7.5568e-05
-0.0098652 -0.0098337 0.10348 0.30975
1460000000 0.27324 0.15183 -0.020631 0.005216 0.0057161 -0.0018569 -0.0016232 0.0017337
0.0022914 -0.00046557 -0.00029525 -0.00098007
-0.020614 0.0051993 0.11452 0.33673 -0.0058995 0.015557 0.0017781 0.00018559
0.00097952 -0.0014412 0.0011512 -0.00070144
0.0057361 -0.0019004 -0.0058417 0.015609 0.35737 0.0065283 -0.0014746 -0.0014911
0.00017353 -0.00034914 0.00070482 -0.00039732
-0.0017209 0.0016417 0.0018407 0.00018916 -0.0014788 -0.0015309 0.1923 0.17554
-0.017971 -0.0031699 -0.00079964 0.0026001
0.0022403 -0.0004878 0.00096756 -0.0014199 0.00014883 -0.00034854 -0.017986 -0.0030877
0.11547 0.19486 -0.012393 -0.0032448
-0.00033434 -0.00098504 0.0011379 -0.00077088 0.00065428 -0.00042887 -0.00075925 0.0025088
-0.012371 -0.0032968 0.13778 0.29004
1520000000 0.28505 0.11014 -0.014739 0.010806 0.0034022 -0.004273 -1.2057e-05 0.002631
0.0022422 -0.0017068 -0.0012065 -0.00018994
-0.014731 0.010781 0.14749 0.3219 0.0018437 0.013118 0.0018131 -0.00083446
-3.3793e-06 -0.001119 0.00035095 -0.0010383
0.0034072 -0.00427 0.0019231 0.013115 0.35072 -0.049328 -0.0013311 -0.00036802
0.00058336 -0.00087374 8.9793e-05 -0.00012504
6.502e-05 0.0026699 0.0018012 -0.00083972 -0.0013121 -0.00036928 0.21405 0.13877
-0.016996 0.0036581 0.0018301 0.002293
0.0022769 -0.0017538 -6.7919e-06 -0.0011408 0.00060832 -0.00090831 -0.016998 0.003669
0.14301 0.18134 -0.012572 0.0014165
-0.0011689 -0.00022096 0.00032816 -0.0010325 7.3098e-05 -0.00018779 0.0018112 0.0023171
-0.012564 0.0013775 0.17242 0.27209
1580000000 0.29391 0.064163 -0.0077168 0.013866 -0.00098649 -0.0050004 0.0014844 0.0020751
-0.00016953 -0.0021659 -0.00031198 0.00038845
-0.0077177 0.013855 0.17418 0.29722 0.0053314 0.0081643 0.00051472 -0.0017824
-0.00065788 -0.0010835 -0.00032179 -0.00077683
-0.00099517 -0.0050051 0.0053764 0.008147 0.33086 -0.10694 -0.0017433 0.00084819
-0.00036289 -0.0011194 5.9432e-05 -0.00052258
0.0014758 0.0021067 0.00053248 -0.0017886 -0.0017263 0.00088394 0.22654 0.10148
-0.012693 0.0093819 0.0026977 0.00093533
-0.00017998 -0.0021884 -0.00065404 -0.001095 -0.00037639 -0.0011752 -0.012724 0.0094499
0.16699 0.16405 -0.0098027 0.0076328
-0.00029238 0.00041709 -0.00031863 -0.00071822 7.9219e-05 -0.00049039 0.0026277 0.00096153
-0.0097536 0.0076708 0.20704 0.2462
1640000000 0.29569 0.023371 -0.00081424 0.012453 -0.0027283 -0.0026815 0.0028807 0.00099208
-0.00061966 -0.0016954 -0.00027262 0.00049312
-0.00083369 0.012439 0.20329 0.27264 0.0060017 0.0033984 -0.00072973 -0.0018712
-0.0010408 -0.00035489 -0.00048596 -0.00073256
-0.0027652 -0.0026795 0.0060264 0.0033451 0.30269 -0.15569 -0.00051569 0.0017048
-0.00098355 -0.0011374 -0.00016137 -0.00047679
0.002868 0.00098413 -0.00076481 -0.0018611 -0.0005182 0.0017145 0.23851 0.055526
-0.0075006 0.010747 0.0027641 -0.00093827
-0.00066776 -0.0016757 -0.0010686 -0.00034706 -0.00096598 -0.0010939 -0.0074152 0.01083
0.18878 0.14046 -0.0047844 0.0099305
-0.00026048 0.00048803 -0.0004568 -0.00071502 -0.0001229 -0.00043331 0.0028304 -0.0010308
-0.0048648 0.0099155 0.23363 0.21598
1700000000 0.28859 -0.021511 0.0025429 0.0093127 -0.0035823 0.00010992 0.0031329 -0.0013833
-0.0021532 -0.00080103 0.00065544 0.00046845
0.0025413 0.0093079 0.22113 0.24156 0.0039083 0.0004459 -0.0016526 -0.00059659
-0.0007762 0.00012257 -0.00092055 -0.00044665
-0.0035734 0.00010745 0.0039174 0.00041859 0.25985 -0.19572 0.00073191 0.0016173
-0.0019959 -0.00022978 -0.00034274 -0.00080395
0.0030916 -0.001386 -0.0016483 -0.00062308 0.00068231 0.0016306 0.23664 0.0087022
-0.003953 0.01123 0.0017687 -0.0024918
-0.0021946 -0.00080303 -0.00079907 9.3191e-05 -0.0020098 -0.00022373 -0.0039185 0.01123
0.20567 0.12096 0.00023456 0.010236
0.00062489 0.0004306 -0.00095442 -0.00042704 -0.00039907 -0.00075404 0.0016616 -0.0024302
0.00022133 0.010278 0.25215 0.18171
1760000000 0.27657 -0.069514 0.0045475 0.0058072 -0.0023574 0.00096622 0.0011861 -0.0035571
-0.0015203 0.00068209 0.00037303 -0.0005159
0.0045334 0.0058031 0.24705 0.20227 0.0016209 -0.0013856 -0.001296 0.00031047
-0.00090418 0.00091873 -0.00057324 0.00037973
-0.0023667 0.00097452 0.0016052 -0.0014053 0.21143 -0.22954 0.0013627 0.00086806
-0.0011399 0.0014685 -0.0014144 -0.00059064
0.0011865 -0.003575 -0.0012927 0.00034032 0.0013745 0.00086391 0.23009 -0.040099
-5.6675e-05 0.009978 -0.0001444 -0.0028882
-0.0015391 0.00067656 -0.00088521 0.00092115 -0.0011145 0.001519 -9.017e-05 0.010008
0.21988 0.087322 0.0044926 0.0074363
0.00037264 -0.00060289 -0.00052113 0.00038282 -0.0014036 -0.00061189 -7.0583e-05 -0.0028245
0.0045194 0.0074587 0.26601 0.14448
1820000000 0.25248 -0.10653 0.0045377 0.0022592 -0.00010309 0.0026006 -0.0012097 -0.0030773
-0.0012994 0.0010311 -2.2399e-05 -4.7186e-05
0.0045282 0.0022706 0.25733 0.17273 -0.00044822 -5.498e-05 -0.0012057 0.0011406
5.6908e-05 0.0012381 -0.00059121 0.00046567
-6.2698e-05 0.0025989 -0.00043978 -4.7272e-05 0.16102 -0.24501 0.0016124 0.00016221
-0.00018166 0.0025431 -0.0015603 0.00026473
-0.0012161 -0.0030143 -0.0012232 0.0011632 0.0014766 0.00022112 0.20431 -0.08651
0.0018956 0.0079197 -0.0017329 -0.0017395
-0.0012167 0.0010387 7.548e-05 0.0012369 -0.00024748 0.0025532 0.001935 0.0079376
0.23717 0.059824 0.0055438 0.0036912
-7.4412e-05 -0.0001013 -0.00057874 0.00049358 -0.0015483 0.00024676 -0.0017793 -0.0018913
0.0055407 0.003677 0.27026 0.10903
1880000000 0.21794 -0.14693 0.0021861 0.00012682 -0.00036203 0.0021532 -0.0030153 -0.0020907
-0.00014135 0.0018473 0.00025466 -0.00060233
0.0021851 0.00013265 0.26208 0.1265 -0.0024306 0.0016977 -2.4821e-05 0.0016734
0.00054454 0.0010396 0.00013288 0.00091617
-0.00036972 0.0021822 -0.0024306 0.0017143 0.10863 -0.25489 0.0014511 -0.00087001
0.0014634 0.0019736 -0.0010914 0.0014534
-0.0029138 -0.0020645 -1.0278e-05 0.0016882 0.0014611 -0.00093092 0.16745 -0.12799
0.0028705 0.0054341 -0.002471 0.00010111
-0.00015863 0.0018422 0.00053772 0.0010467 0.0015249 0.0020065 0.0028825 0.0054056
0.24046 0.028827 0.0057604 0.0011566
0.00029247 -0.00067909 0.0001049 0.00097929 -0.0010532 0.001526 -0.0025994 0.00030004
0.0057809 0.0011882 0.27113 0.074339
1940000000 0.17908 -0.17269 -0.00014335 -0.0013917 0.0013147 0.0018759 -0.0035779 0.00068464
0.0014681 0.0011189 -0.00063108 -0.00063062
-0.00013446 -0.0014097 0.26308 0.094826 -0.0012305 0.0039274 0.0010832 0.0012055
0.001661 0.00041526 0.00088719 0.00028004
0.0013712 0.0018663 -0.001188 0.0039357 0.062627 -0.24817 0.00038877 -0.0017801
0.0025232 0.00033529 0.00038992 0.0018767
-0.0036035 0.0007295 0.0011075 0.0012118 0.00032055 -0.0018328 0.11764 -0.16126
0.0021722 0.0035299 -0.0017509 0.0014826
0.0014799 0.0011322 0.0016692 0.00040255 0.0025272 0.00033942 0.0022309 0.0035488
0.24364 -0.0088172 0.0043152 -0.0027919
-0.00069228 -0.0006232 0.00084029 0.00023956 0.00036898 0.001872 -0.0015114 0.0015269
0.0043063 -0.0027922 0.26118 0.03891
2000000000 0.13282 -0.18825 -0.0037307 0.00067786 0.0025486 0.0016083 -0.0022087 0.0033461
0.0012203 8.071e-05 -0.00071562 0.00047472
-0.0037331 0.00068763 0.24941 0.059269 -0.00094102 0.0057558 0.0015573 0.00039219
0.0011387 -0.0011699 0.00044998 8.4105e-05
