!Keysight Technologies,M9804A,MY58100912,A.14.10.03
!Date: Thursday, April 27, 2023 10:28:33
!Correction: S11(C  6-Port  ) 
!S12(C  6-Port  ) 
!S13(C  6-Port  ) 
!S14(C  6-Port  ) 
!S15(C  6-Port  ) 
!S16(C  6-Port  ) 
!S21(C  6-Port  ) 
!S22(C  6-Port  ) 
!S23(C  6-Port  ) 
!S24(C  6-Port  ) 
!S25(C  6-Port  ) 
!S26(C  6-Port  ) 
!S31(C  6-Port  ) 
!S32(C  6-Port  ) 
!S33(C  6-Port  ) 
!S34(C  6-Port  ) 
!S35(C  6-Port  ) 
!S36(C  6-Port  ) 
!S41(C  6-Port  ) 
!S42(C  6-Port  ) 
!S43(C  6-Port  ) 
!S44(C  6-Port  ) 
!S45(C  6-Port  ) 
!S46(C  6-Port  ) 
!S51(C  6-Port  ) 
!S52(C  6-Port  ) 
!S53(C  6-Port  ) 
!S54(C  6-Port  ) 
!S55(C  6-Port  ) 
!S56(C  6-Port  ) 
!S61(C  6-Port  ) 
!S62(C  6-Port  ) 
!S63(C  6-Port  ) 
!S64(C  6-Port  ) 
!S65(C  6-Port  ) 
!S66(C  6-Port  ) 
!S6P File: Measurement: :
# Hz S  RI   R 50
500000000 -0.33789 -0.044747 -0.010744 -0.0020483 -0.0091848 0.013551 -0.0047758 0.012805
0.012255 0.0039154 -0.0045987 0.0090116
-0.010971 -0.0020819 -0.41874 -0.056616 0.0073937 -0.010791 0.0023241 0.012711
0.0068231 0.0024721 0.0019527 0.014017
-0.0090838 0.013729 0.0074595 -0.01088 -0.26804 0.20711 0.0070678 0.0031992
-0.0028961 0.0081529 0.00050156 0.011727
-0.0051902 0.012894 0.0020752 0.012875 0.0070828 0.0033158 -0.33363 0.033738
-0.022272 -0.0044458 0.017737 0.026304
0.012795 0.0041985 0.0069255 0.0023707 -0.002933 0.0080848 -0.022263 -0.0043967
-0.21309 -0.21735 -0.028973 0.0064995
-0.0047326 0.0086909 0.0019342 0.01412 0.00067057 0.011814 0.017765 0.026447
-0.029025 0.0063455 -0.26055 -0.14194
560000000 -0.31891 0.12025 -0.023559 -0.063097 0.0004663 0.012128 0.0051909 0.011894
0.010142 0.0054044 0.010024 0.009073
-0.023011 -0.063931 -0.37658 0.1044 -0.042364 -0.037187 0.014303 0.0044056
-0.013593 -0.0055324 0.0043822 -0.00031625
5.1956e-05 0.012513 -0.042564 -0.037335 -0.18462 0.25701 -0.00035938 -0.00419
0.019987 0.0067344 0.0073301 -0.0056127
0.0059509 0.011276 0.013803 0.0041737 -2.0265e-05 -0.0042708 -0.31169 0.12918
0.0035173 -0.024049 0.0045874 -0.021726
0.0099151 0.0042463 -0.014288 -0.0050636 0.020187 0.006319 0.0033831 -0.024011
-0.29037 -0.03606 0.0094446 -0.049494
0.010153 0.0087426 0.0034073 8.9976e-05 0.0075158 -0.0056708 0.00457 -0.021766
0.0091302 -0.049522 -0.32747 0.011096
620000000 -0.27695 0.10287 -0.023097 0.0090743 0.0039242 0.0089016 0.0081907 -0.005272
0.011546 0.00011331 0.0012321 -0.0024439
-0.023326 0.0090153 -0.40353 0.05566 -0.018147 0.0006387 -0.001064 -0.001789
0.011704 -0.0058548 0.0011935 -0.0029056
0.003948 0.0094412 -0.01812 0.00073862 -0.15449 0.26607 -0.00061768 -0.0055277
-0.0023715 -0.0023994 0.0090217 -0.0038191
0.009252 -0.0042774 -0.0011084 -0.0017971 -0.00058298 -0.0054727 -0.27128 0.13942
-0.039323 -0.01858 0.013212 0.026778
0.01128 -7.1439e-05 0.011779 -0.0056256 -0.0024924 -0.0025084 -0.039368 -0.01854
-0.20573 -0.077309 -0.044314 0.015933
0.0012538 -0.0021439 0.0013057 -0.0029562 0.0090395 -0.0038014 0.013106 0.027178
-0.04425 0.016028 -0.24727 -0.028669
680000000 -0.23698 0.19041 -0.026603 -0.013826 0.005236 0.005186 0.0021871 -0.006705
-0.0022014 -0.011029 0.0057726 -0.0070688
-0.0266 -0.01373 -0.38925 0.15523 -0.032538 -0.0014096 -0.0014686 -0.00045476
-0.0012992 -0.0092249 -0.0010361 -0.002277
0.0053533 0.0049893 -0.032511 -0.0013541 -0.10274 0.28598 -0.00070194 -0.00080993
-0.0014354 0.00014563 -0.0029259 -0.0094509
0.001307 -0.0071947 -0.0014962 -0.00074711 -0.0007618 -0.00082922 -0.22408 0.19302
-0.024336 -0.0058202 -0.010049 -0.011207
-0.0031059 -0.011071 -0.0015164 -0.0090773 -0.0013923 0.00013127 -0.024344 -0.0058537
-0.26427 0.025485 -0.0055416 -0.0059249
0.0051326 -0.0065065 -0.0013189 -0.002245 -0.0030908 -0.0093541 -0.010254 -0.011326
-0.0056421 -0.0059861 -0.26079 0.07767
740000000 -0.19275 0.18502 -0.039306 0.027367 0.013425 -0.0052652 -0.00021388 -0.0047222
-0.0047995 -0.0025216 -0.0060428 0.0024161
-0.03917 0.027019 -0.3349 0.17367 -0.035332 0.035264 -0.0008353 -0.0064126
-0.011642 0.0069982 -0.0025579 -0.0067073
0.013499 -0.0050719 -0.035251 0.035505 -0.069096 0.28334 -0.0022786 0.0029544
-0.0023394 -0.0050896 -0.0019015 9.0306e-06
0.00011985 -0.0044979 -0.00055026 -0.0065024 -0.0022526 0.0030116 -0.20819 0.20124
-0.044264 -0.005849 0.024056 0.015874
-0.0043035 -0.0024611 -0.012265 0.0068203 -0.0024239 -0.0050365 -0.044272 -0.005937
-0.15802 0.053246 -0.044949 0.0023074
-0.0060312 0.0026487 -0.0021543 -0.0068711 -0.0017551 1.3394e-05 0.024082 0.016075
-0.044838 0.0021406 -0.25083 0.081838
800000000 -0.15868 0.22618 -0.021842 0.016787 0.0056369 -0.010487 -0.004562 -0.0020541
-0.0040285 0.0018279 0.0041392 0.00025991
-0.021553 0.016705 -0.33926 0.24419 -0.0078135 0.033932 -0.0024691 0.0020998
-0.0010687 0.0025651 0.0007956 0.0050502
0.0055558 -0.010558 -0.0077835 0.034046 -0.028614 0.30634 0.00052177 0.0015676
-8.5098e-05 0.0035262 -0.0017372 0.00072257
-0.0050084 -0.0022286 -0.0025899 0.0020858 0.00053418 0.0015795 -0.17807 0.23001
-0.028569 0.014837 0.01479 -0.010634
-0.0041552 0.0019448 -0.00096329 0.0026551 -4.7158e-05 0.0035263 -0.028561 0.014924
-0.21041 0.078785 -0.017353 0.019523
0.0038237 0.00053123 0.00073701 0.0053142 -0.0017431 0.00081068 0.014782 -0.010634
-0.017467 0.019564 -0.24627 0.13378
860000000 -0.12486 0.24628 -0.017151 0.030451 -0.0031097 -0.010041 -0.0018341 0.00036988
0.00361 0.0052379 -0.0037503 -0.0026863
-0.017193 0.030402 -0.29128 0.2856 0.0076848 0.034157 -7.5306e-05 0.0020637
0.0038707 0.00026708 0.0033347 0.0010554
-0.0031191 -0.01013 0.0078609 0.034195 0.018693 0.31425 -0.00063013 8.6353e-06
0.0027811 -0.0015127 0.0016353 0.0043205
-0.001515 0.00077813 4.9385e-05 0.0021001 -0.00070838 -2.0597e-05 -0.14036 0.24064
-0.017346 0.018407 -0.0060835 -0.0089517
0.0038537 0.0049287 0.0040579 0.00025082 0.0028649 -0.0015916 -0.017406 0.018406
-0.15772 0.13246 -0.02634 0.01615
-0.0033987 -0.0038026 0.0033093 0.00089561 0.0016888 0.0043506 -0.0058615 -0.0088418
-0.02633 0.016195 -0.19649 0.18043
920000000 -0.10039 0.2682 0.0051726 0.037527 -0.0093688 -0.0049118 -0.0017688 0.0014999
0.00094938 0.0020632 0.002665 -0.0016347
0.0051487 0.037476 -0.26321 0.30707 0.027968 0.022066 0.0014314 0.0011815
0.0072027 0.00044458 0.0040031 -0.0025722
-0.0093735 -0.0048571 0.028127 0.022014 0.064568 0.3153 0.0020174 0.00014566
0.0012864 -0.00022058 0.00069689 -0.0013346
-0.0019143 0.0015163 0.0013868 0.0010912 0.0020404 0.00015803 -0.11648 0.25772
-0.010763 0.031559 0.0044315 -0.0068539
0.00092388 0.0021761 0.0072866 0.00033988 0.0012488 -0.00020807 -0.010653 0.031572
-0.14918 0.13831 -0.0025154 0.027677
0.002967 -0.001483 0.0041024 -0.0027284 0.00075296 -0.0013228 0.0043373 -0.0069049
-0.0024727 0.027682 -0.20608 0.19516
980000000 -0.053219 0.28801 0.017198 0.029809 -0.0093604 0.0043184 0.0018647 0.0031471
0.0039139 -0.0010768 -0.002752 -0.0023962
0.01728 0.029765 -0.21076 0.34139 0.033109 0.0050256 0.0022135 1.3126e-05
0.0019375 -0.0055959 0.00013391 -0.0025295
-0.0092778 0.0043661 0.033204 0.0049221 0.11087 0.3091 0.00065316 -0.0012969
0.00056433 -0.0021005 0.0013994 -0.00012743
0.0019524 0.0032132 0.0021668 -1.8102e-05 0.00063787 -0.0013049 -0.077528 0.26829
0.0084758 0.031357 -0.0095527 -0.0079193
0.0039247 -0.0013289 0.0018251 -0.0057217 0.00050493 -0.0021345 0.00865 0.031363
-0.11931 0.16831 0.0051803 0.01991
-0.0030458 -0.0024571 3.6319e-05 -0.0025284 0.0014384 -0.00012928 -0.0094624 -0.0078628
0.0051215 0.019964 -0.16469 0.2414
1040000000 -0.012243 0.29661 0.033027 0.018085 -0.0015822 0.0068972 0.0022173 0.00097713
0.00014594 -0.0034065 -0.00015225 -0.0014684
0.032908 0.018113 -0.17567 0.35446 0.029584 -0.014838 0.0015708 -0.0017523
-0.0020404 -0.0029101 -0.0013746 -0.0029486
-0.0015439 0.0068582 0.029576 -0.014976 0.15688 0.29583 -0.00048824 -0.0017679
-0.0016157 -0.0010679 -0.00064793 -0.0010426
0.0021196 0.00089579 0.0015836 -0.0017174 -0.00047787 -0.0017617 -0.050836 0.27851
0.02055 0.018856 -0.0021167 0.00069026
0.00030043 -0.0034812 -0.0021387 -0.0027656 -0.0016321 -0.0010476 0.020656 0.018809
-0.087161 0.17535 0.013143 0.019184
-0.00018172 -0.0013547 -0.0013054 -0.0029403 -0.00064773 -0.0010893 -0.0021888 0.0007366
0.013195 0.019205 -0.14401 0.26238
1100000000 0.032932 0.3047 0.035653 -0.0041205 0.0026028 0.0039965 0.002225 -0.0010562
-0.0018119 -0.0031651 -0.004203 -0.00014526
0.035623 -0.0041786 -0.13245 0.37207 0.01531 -0.028055 8.2482e-05 -0.0018213
-0.0035229 -0.0011642 -0.0037273 -0.00074264
0.0025778 0.0039583 0.015215 -0.028156 0.20351 0.27573 -0.0020539 7.0324e-05
-0.0019234 0.00029425 -0.0011612 -0.00024914
0.0022689 -0.0010024 0.00010234 -0.0018338 -0.0020557 8.407e-05 -0.010449 0.28355
0.026174 0.0052428 -0.002969 -0.0007165
-0.002018 -0.0030658 -0.0035965 -0.00098617 -0.0019489 0.00032382 0.026186 0.0052462
-0.070865 0.18944 0.019548 0.0090938
-0.0041064 -0.00030011 -0.0037813 -0.0006885 -0.0012002 -0.00018872 -0.0029395 -0.0005918
0.01952 0.0090482 -0.097989 0.29474
1160000000 0.08375 0.30039 0.023738 -0.020821 0.0025201 -0.00031528 -0.00032282 -0.0019493
-0.0041534 -0.00088192 -0.0011511 0.0041479
0.023795 -0.020843 -0.089287 0.37669 -0.0037899 -0.029497 -0.0015843 -0.0017346
-0.0030081 0.0024815 -0.0015898 0.0018221
0.0025227 -0.00034167 -0.0038913 -0.029503 0.24661 0.24498 -0.0009608 0.0018153
-0.00067295 0.0021746 -0.0010081 0.00025608
-0.00033991 -0.0019896 -0.0016292 -0.0017097 -0.0009595 0.0018339 0.028795 0.28065
0.02287 -0.011657 -0.003888 0.0049797
-0.0040017 -0.000804 -0.0030424 0.0025872 -0.00065955 0.002145 0.02286 -0.011687
-0.037252 0.19915 0.018449 0.00079806
-0.00099551 0.0041175 -0.0015627 0.0019098 -0.0010225 0.00026006 -0.0038505 0.0049438
0.018423 0.00073102 -0.051238 0.29764
1220000000 0.12809 0.2901 0.010326 -0.0301 -0.0017052 -0.00064554 0.00021675 -0.00072114
-0.002819 0.0022112 0.0011283 0.0021404
0.01031 -0.030088 -0.044699 0.38934 -0.017124 -0.021444 -0.0026424 0.00037719
-0.00020291 0.0033158 -0.00097426 0.0020194
-0.0017117 -0.00061388 -0.017259 -0.021394 0.28571 0.20584 0.00072396 0.0019644
0.00069273 0.0015078 0.0005024 0.00069185
0.00025241 -0.00072679 -0.0026465 0.00040036 0.00070979 0.0019653 0.068752 0.2724
0.011492 -0.018736 0.001396 0.001439
-0.002768 0.0023005 -0.00021615 0.0032892 0.0006989 0.0015094 0.01147 -0.018783
-0.016042 0.20943 0.014808 -0.013003
0.0010898 0.0022134 -0.00094756 0.0020406 0.00048249 0.00065971 0.0013903 0.0014729
0.014801 -0.013001 -0.021114 0.31637
1280000000 0.1782 0.26877 -0.0081588 -0.028451 -0.001854 0.0027593 -0.00069155 -0.0020238
-0.00095013 0.0031824 0.0026274 0.0013456
-0.0080951 -0.028449 0.0012295 0.38089 -0.024131 -0.0085765 -0.0010156 0.0014734
0.0018355 0.0022273 0.00072738 0.0021406
-0.0018235 0.0028002 -0.0242 -0.0084745 0.31597 0.16208 0.0017856 0.00014499
0.0013847 0.00036259 0.00044545 0.00021745
-0.00067535 -0.0020325 -0.0010494 0.0014855 0.0017652 0.00014904 0.10569 0.2556
0.001232 -0.021119 -0.00080892 0.00048643
-0.00092845 0.0031234 0.0018677 0.0022081 0.0013571 0.00028655 0.0011779 -0.021131
0.019816 0.21454 0.0032866 -0.01558
0.0025451 0.00132 0.00071698 0.0020832 0.00044906 0.00025216 -0.00079681 0.00049648
0.0033631 -0.01559 0.027053 0.31998
1340000000 0.21534 0.23561 -0.017942 -0.018728 0.0010333 0.0047565 -0.001646 -0.0010757
0.0013815 0.0027594 0.00193 -0.0013296
-0.017908 -0.018701 0.040891 0.37299 -0.021929 0.0043505 -0.00024155 0.0021961
0.0022386 0.00084886 0.0013778 0.00080439
0.0010607 0.0047527 -0.02196 0.0045132 0.33786 0.1144 0.0014606 -0.0010092
0.00090291 -0.00063791 8.0271e-05 0.00025827
-0.0016038 -0.00099372 -0.00023336 0.0021345 0.0014592 -0.0010245 0.13773 0.235
-0.0093829 -0.018363 0.00046276 0.0010952
0.0014188 0.0027627 0.0022051 0.00085689 0.00092491 -0.00062561 -0.0094323 -0.018364
0.048596 0.2111 -0.0035477 -0.014123
0.0019358 -0.0013822 0.0014064 0.00078442 8.4205e-05 0.00019078 0.00041437 0.0011464
-0.0035663 -0.014093 0.065306 0.31649
1400000000 0.24895 0.19791 -0.023498 -0.0070388 0.0054847 0.003243 -0.0022226 0.00049187
0.0024625 0.0010367 0.00039951 -0.0015348
-0.023446 -0.0070558 0.078612 0.36006 -0.015001 0.012794 0.0014632 0.0014418
0.0013611 -0.00093985 0.0013109 0.00014919
0.0055048 0.0032041 -0.014988 0.012876 0.35081 0.06133 0.00018817 -0.0019598
9.7431e-05 -0.00050871 0.00034765 0.00023625
-0.0022068 0.00049087 0.001471 0.0014617 0.00018885 -0.0019537 0.16661 0.20603
-0.015983 -0.011177 -0.0009392 0.00014698
0.0025078 0.001057 0.0013458 -0.00094146 6.1373e-05 -0.0004929 -0.016026 -0.011131
0.081101 0.20864 -0.010138 -0.0090935
0.00045666 -0.0014468 0.0013518 0.00013809 0.00034238 0.00023752 -0.00092511 0.00017132
-0.010107 -0.009135 0.11101 0.30649
1460000000 0.272 0.15395 -0.020262 0.005215 0.0058944 -0.0018882 -0.0016861 0.0017281
0.0022701 -0.00028541 -0.00026443 -0.0011338
-0.020218 0.0052002 0.11285 0.33824 -0.0060704 0.015718 0.0018764 0.00026511
0.00094546 -0.0014649 0.0013007 -0.00067845
0.0058864 -0.0019374 -0.0059888 0.015771 0.35713 0.0075198 -0.001426 -0.0015571
0.00015108 -0.00035123 0.00056726 -0.00031622
-0.0017479 0.0018163 0.0018809 0.00023757 -0.0014562 -0.0015805 0.19168 0.17703
-0.017828 -0.0035155 -0.00053683 0.0026944
0.0022133 -0.00027603 0.00094288 -0.0014232 0.00017517 -0.00035983 -0.017816 -0.0034713
0.10974 0.19555 -0.011986 -0.0026188
-0.00033804 -0.001146 0.0012831 -0.00070773 0.00057009 -0.000382 -0.00059139 0.0026915
-0.012005 -0.0026109 0.14432 0.28614
1520000000 0.28466 0.11235 -0.014335 0.010629 0.0035738 -0.0043898 4.0668e-05 0.0028032
0.0023545 -0.0017058 -0.0011826 -0.00026443
-0.014329 0.010581 0.14651 0.32368 0.0018377 0.01338 0.0018642 -0.00089559
-2.7052e-05 -0.0011415 0.00034429 -0.0010307
0.0035719 -0.0044053 0.0018955 0.013398 0.35078 -0.048251 -0.0014571 -0.00039528
0.00071295 -0.00084019 0.0002068 -0.00024345
6.456e-05 0.0027646 0.001873 -0.00088732 -0.0014444 -0.00036545 0.21384 0.14026
-0.016982 0.0033091 0.0019325 0.0022374
0.0023931 -0.0017519 -6.0282e-05 -0.0011499 0.00068691 -0.00082929 -0.017006 0.0033395
0.1376 0.1834 -0.012169 0.0016682
-0.0012114 -0.00024704 0.00035174 -0.0010641 0.00017462 -0.00024902 0.0019698 0.0022742
-0.012147 0.0016725 0.17836 0.2676
1580000000 0.2941 0.065847 -0.0075472 0.01352 -0.00090836 -0.0052432 0.0015138 0.002049
-2.9971e-05 -0.0022537 -0.00036512 0.00036859
-0.0075474 0.013502 0.17384 0.29879 0.0055314 0.0083513 0.00046746 -0.0017835
-0.00059402 -0.0010989 -0.00022447 -0.00080622
-0.00092404 -0.0051916 0.0055626 0.0083355 0.331 -0.10573 -0.0018583 0.0010126
-0.00035084 -0.0011649 0.00012694 -0.0005293
0.0015479 0.0020648 0.00045724 -0.0018298 -0.0018497 0.0010086 0.2269 0.10258
-0.012909 0.0091889 0.0028068 0.00082012
-7.7029e-05 -0.0022673 -0.00058481 -0.001074 -0.00035835 -0.0012072 -0.012882 0.0092225
0.16228 0.16721 -0.0093052 0.0078116
-0.00038877 0.00047646 -0.00025141 -0.00082259 0.0001214 -0.00052567 0.0027897 0.00078502
-0.0093253 0.0078226 0.21172 0.24167
1640000000 0.29628 0.024673 -0.00084653 0.01209 -0.0028691 -0.002876 0.0029051 0.0010867
-0.00056838 -0.0017804 -0.00040152 0.00058601
-0.00086436 0.012106 0.20328 0.27415 0.0062873 0.0033774 -0.00081264 -0.0019362
-0.0010758 -0.00038147 -0.00054907 -0.00078455
-0.0028708 -0.0028486 0.0063085 0.003336 0.30354 -0.15502 -0.00053314 0.0017855
-0.0011869 -0.0011872 -0.0001779 -0.00044926
0.0029231 0.0010627 -0.00080308 -0.0018973 -0.00052048 0.001772 0.23906 0.056224
-0.0077587 0.010645 0.0029357 -0.0010719
-0.00052901 -0.0017759 -0.0010656 -0.00035234 -0.0011732 -0.0011862 -0.0077566 0.01066
0.18506 0.14423 -0.0045015 0.009829
-0.00032674 0.0006238 -0.00050589 -0.0008248 -0.0001452 -0.00046394 0.0029717 -0.0010748
-0.0045279 0.0098133 0.23762 0.21153
1700000000 0.28907 -0.020601 0.0024258 0.0090112 -0.003723 -1.5357e-06 0.0031439 -0.0015461
-0.0021912 -0.00095321 0.00071163 0.00051861
0.0024015 0.008995 0.2216 0.24264 0.0041005 0.00042277 -0.0016401 -0.00058295
-0.00076805 6.7449e-05 -0.00099018 -0.00049996
-0.0037133 3.7029e-05 0.0041037 0.00037868 0.26028 -0.19536 0.00079295 0.0016571
-0.0021132 -0.00023377 -0.00047618 -0.00084758
0.0031602 -0.0015244 -0.001664 -0.00059147 0.00077232 0.0016587 0.2372 0.0089198
-0.0040998 0.011407 0.00172 -0.0024825
-0.0021654 -0.00094088 -0.00075194 6.4477e-05 -0.0021183 -0.00026734 -0.0040826 0.011414
0.20299 0.12531 0.00047727 0.010194
0.000654 0.00050393 -0.00096756 -0.00048441 -0.00051085 -0.00083871 0.0016893 -0.0025444
0.00050049 0.010198 0.2555 0.17736
1760000000 0.27687 -0.068976 0.0043795 0.0056032 -0.0025984 0.001041 0.0012368 -0.0036298
-0.0015293 0.00064299 0.00039189 -0.0006763
0.0043694 0.0056129 0.2475 0.20292 0.0016376 -0.0015238 -0.0013327 0.00027242
-0.00099559 0.00089288 -0.00062508 0.00041657
-0.0025604 0.001069 0.0016249 -0.0015113 0.21131 -0.22883 0.0013465 0.00082414
-0.0013032 0.0015213 -0.0014152 -0.00063043
0.0011969 -0.0036397 -0.0013464 0.00028722 0.0013412 0.00082735 0.23052 -0.040257
-3.5324e-05 0.01007 -0.00010387 -0.003026
-0.001501 0.00066525 -0.00098734 0.000925 -0.0012933 0.0015673 -2.339e-05 0.010071
0.21824 0.09156 0.0046133 0.0074114
0.00038852 -0.00067849 -0.00066885 0.00040363 -0.0013879 -0.00062718 -9.6587e-05 -0.0029722
0.00459 0.0073873 0.26884 0.14024
1820000000 0.25263 -0.10595 0.0042856 0.0021179 -0.00020687 0.0025766 -0.0012426 -0.0031181
-0.0013072 0.0010234 -6.8207e-06 -8.0672e-05
0.0042691 0.0021363 0.25784 0.17301 -0.00053127 -0.00039906 -0.00126 0.0011362
-1.6162e-05 0.0012162 -0.00057975 0.00053598
-0.0001536 0.0026274 -0.00052807 -0.00035391 0.16122 -0.24508 0.0015014 0.00010351
-0.00017823 0.0025726 -0.0013999 0.00034143
-0.0012504 -0.0030574 -0.0012483 0.0011347 0.0015073 8.247e-05 0.20411 -0.086831
0.0018752 0.0081563 -0.0018633 -0.0018939
-0.001297 0.0010449 1.5572e-05 0.0012035 -0.00014962 0.0025405 0.0018974 0.0081635
0.23634 0.063967 0.005571 0.0034477
-8.6592e-05 -9.4163e-05 -0.00054822 0.00055911 -0.0013879 0.00033264 -0.0019047 -0.0019132
0.0055835 0.0034357 0.27242 0.10451
1880000000 0.21791 -0.14636 0.0019095 8.1776e-05 -0.00043939 0.0022894 -0.0030466 -0.0020379
-0.0001917 0.0019775 0.00014633 -0.00048171
0.0018614 5.3745e-05 0.26228 0.12636 -0.002652 0.00161 -7.8245e-05 0.0016611
0.00049314 0.0011199 9.5777e-05 0.0010658
-0.00042334 0.0022902 -0.0026241 0.0016531 0.10898 -0.25409 0.0014877 -0.00078507
0.0016829 0.0019928 -0.00094405 0.0015797
-0.0030482 -0.0020703 -5.8546e-05 0.001692 0.0014653 -0.00077874 0.16694 -0.1282
0.002968 0.0055033 -0.0027056 0.00023357
-0.000146 0.0019228 0.00052077 0.001156 0.0016776 0.0019856 0.0029788 0.0054942
0.24001 0.032497 0.0057527 0.0012522
0.0001305 -0.00066342 9.342e-05 0.0010497 -0.00093855 0.0015401 -0.0026861 0.0002471
0.0057138 0.001237 0.27305 0.069957
1940000000 0.17893 -0.17211 -0.00038666 -0.0013256 0.0013665 0.0022202 -0.0036709 0.00071527
0.0014253 0.0012237 -0.00073122 -0.00048802
-0.00045066 -0.0013166 0.26297 0.094671 -0.0013818 0.0039821 0.0010607 0.0012527
0.0017149 0.00058067 0.00084518 0.00033361
0.0013479 0.0021769 -0.0013771 0.0039843 0.062961 -0.24765 0.00024369 -0.0018333
0.0025249 0.00037524 0.00063667 0.0016434
-0.0036872 0.00077204 0.0010214 0.0012248 0.00028967 -0.0018326 0.11657 -0.16146
0.0022347 0.003426 -0.002033 0.0017511
0.0014616 0.0011832 0.0017107 0.00055422 0.0025169 0.00034919 0.0022614 0.0033823
0.24374 -0.0052861 0.004239 -0.0026032
-0.00067105 -0.00048769 0.00091752 0.0002768 0.00061086 0.0016516 -0.002045 0.0017469
0.0042717 -0.0026129 0.26268 0.034236
2000000000 0.13296 -0.18729 -0.0041664 0.00089261 0.0026496 0.001819 -0.0023116 0.0035225
0.0011908 0.00014784 -0.00058418 0.00050823
-0.0041827 0.00084463 0.24882 0.059156 -0.0010767 0.0058598 0.0014372 0.00034354
0.0012611 -0.0012265 0.00046836 8.2537e-05
0.0026255 0.0017707 -0.0010673 0.0058799 0.019931 -0.23343 -0.0011719 -0.001325
0.0020198 -0.0013033 0.0016491 0.0011918
-0.0023095 0.0034913 0.0014641 0.00035046 -0.0011743 -0.0013188 0.063057 -0.17453
0.00030945 0.0023021 -2.4325e-05 0.0022686
0.0011657 0.00014669 0.0012338 -0.0012369 0.0020134 -0.0012629 0.00027272 0.0023137
0.23931 -0.039128 0.00092777 -0.0033776
