!Keysight Technologies,M9804A,MY58100912,A.14.10.03
!Date: Thursday, April 27, 2023 10:28:33
!Correction: S11(C  6-Port  ) 
!S12(C  6-Port  ) 
!S13(C  6-Port  ) 
!S14(C  6-Port  ) 
!S15(C  6-Port  ) 
!S16(C  6-Port  ) 
!S21(C  6-Port  ) 
!S22(C  6-Port  ) 
!S23(C  6-Port  ) 
!S24(C  6-Port  ) 
!S25(C  6-Port  ) 
!S26(C  6-Port  ) 
!S31(C  6-Port  ) 
!S32(C  6-Port  ) 
!S33(C  6-Port  ) 
!S34(C  6-Port  ) 
!S35(C  6-Port  ) 
!S36(C  6-Port  ) 
!S41(C  6-Port  ) 
!S42(C  6-Port  ) 
!S43(C  6-Port  ) 
!S44(C  6-Port  ) 
!S45(C  6-Port  ) 
!S46(C  6-Port  ) 
!S51(C  6-Port  ) 
!S52(C  6-Port  ) 
!S53(C  6-Port  ) 
!S54(C  6-Port  ) 
!S55(C  6-Port  ) 
!S56(C  6-Port  ) 
!S61(C  6-Port  ) 
!S62(C  6-Port  ) 
!S63(C  6-Port  ) 
!S64(C  6-Port  ) 
!S65(C  6-Port  ) 
!S66(C  6-Port  ) 
!S6P File: Measurement: :
# Hz S  RI   R 50
500000000 -0.33767 -0.043543 -0.0098014 -0.0024897 -0.0080213 0.013007 -0.0046993 0.012594
0.012463 0.0035708 -0.0061974 0.0091469
-0.0098674 -0.0027337 -0.41793 -0.055402 0.0082523 -0.01177 0.0023902 0.013128
0.0059712 0.0020329 0.0018444 0.014792
-0.0081297 0.0128 0.0082011 -0.011827 -0.26637 0.20676 0.0076553 0.0034871
-0.0026623 0.0087122 0.0011699 0.012126
-0.0046086 0.01253 0.0024651 0.013099 0.0076395 0.0034557 -0.33268 0.03652
-0.021982 -0.0053335 0.018597 0.028284
0.012169 0.0038322 0.0060097 0.0021764 -0.0025828 0.0087248 -0.021932 -0.0052314
-0.21604 -0.2121 -0.02998 0.006835
-0.0056326 0.0096227 0.0021145 0.014824 0.0012473 0.012077 0.018681 0.028182
-0.029952 0.0069273 -0.25172 -0.17071
560000000 -0.31814 0.12116 -0.023951 -0.063127 0.00053509 0.012701 0.0054714 0.011802
0.010963 0.0052255 0.012168 0.0081705
-0.023872 -0.062827 -0.37466 0.1057 -0.041622 -0.037097 0.014523 0.0032338
-0.013795 -0.0053598 0.0045684 -0.0010926
0.00055929 0.012593 -0.041796 -0.037028 -0.18384 0.25667 0.00011874 -0.0040288
0.01946 0.0052237 0.0063821 -0.0057161
0.0056641 0.01176 0.014449 0.0032164 0.00019667 -0.0040639 -0.30942 0.12895
0.0048858 -0.023748 0.0051844 -0.022455
0.010777 0.0048865 -0.013814 -0.0052338 0.019406 0.0051958 0.0048156 -0.023892
-0.28949 -0.036309 0.010133 -0.051067
0.012207 0.0077937 0.0044045 -0.0013699 0.0063881 -0.0056503 0.0052107 -0.022493
0.010063 -0.051243 -0.32906 -0.013336
620000000 -0.2768 0.10229 -0.023305 0.008202 0.0032271 0.0088714 0.0078786 -0.004863
0.011256 0.00084713 0.00091973 -0.0015392
-0.023255 0.0082055 -0.40299 0.057004 -0.018516 4.0193e-05 -0.0012707 -0.0019267
0.011256 -0.0057239 0.0011174 -0.0026194
0.0033307 0.0087903 -0.018537 9.76e-05 -0.15468 0.26545 -0.0010824 -0.0054151
-0.0030427 -0.002244 0.0087431 -0.0032104
0.0078417 -0.004803 -0.0013065 -0.00192 -0.0010425 -0.0054425 -0.27016 0.13964
-0.039596 -0.018252 0.012238 0.028671
0.011259 0.0009523 0.011291 -0.0057051 -0.0031124 -0.0022291 -0.039515 -0.018298
-0.20607 -0.07335 -0.045687 0.016404
0.0011857 -0.0014276 0.0011725 -0.0026661 0.0088163 -0.0031999 0.012297 0.028856
-0.045575 0.01649 -0.24626 -0.058813
680000000 -0.23666 0.19211 -0.027324 -0.013713 0.0053333 0.0056845 0.0022978 -0.0072428
-0.0033523 -0.011278 0.0069104 -0.0059959
-0.027241 -0.013737 -0.38874 0.15587 -0.032834 -0.0015126 -0.0012347 -0.00035697
-0.0016792 -0.0091395 -0.00075966 -0.0018082
0.0054432 0.0056563 -0.032859 -0.001448 -0.10271 0.28542 -0.00071352 -0.00048297
-0.0016406 0.00063805 -0.0023081 -0.0094986
0.0024948 -0.0073494 -0.0012261 -0.00039677 -0.0007393 -0.00049493 -0.22387 0.19266
-0.024332 -0.0066999 -0.010067 -0.012537
-0.0034568 -0.011278 -0.0016833 -0.0091281 -0.0016303 0.00060883 -0.024386 -0.0066987
-0.2618 0.028446 -0.0053171 -0.0074619
0.0069355 -0.0063538 -0.00081566 -0.0018195 -0.0023494 -0.0095484 -0.0099937 -0.012696
-0.0053116 -0.007445 -0.26501 0.054778
740000000 -0.19233 0.18559 -0.03966 0.026904 0.012963 -0.0047495 -0.00030693 -0.0048322
-0.0047452 -0.0021052 -0.0070134 0.0031816
-0.039626 0.026812 -0.33455 0.17424 -0.035773 0.035552 -0.000504 -0.0062992
-0.012566 0.0066355 -0.0020046 -0.0067605
0.012967 -0.004808 -0.035677 0.035689 -0.069478 0.28391 -0.0023573 0.0031892
-0.0020323 -0.0052374 -0.0016703 0.00028342
-0.00036527 -0.0046797 -0.00058366 -0.0063015 -0.0023509 0.0031358 -0.20724 0.20092
-0.044862 -0.0061884 0.025025 0.01674
-0.0049276 -0.0022418 -0.012576 0.0067787 -0.0020356 -0.0052768 -0.044851 -0.0061071
-0.1573 0.055043 -0.046874 0.00050651
-0.0070055 0.0033406 -0.0020035 -0.0067701 -0.001733 0.00035151 0.024951 0.016721
-0.046814 0.00055819 -0.25844 0.057997
800000000 -0.15914 0.22657 -0.022217 0.016976 0.0056721 -0.010616 -0.0047114 -0.0017891
-0.0040763 0.0025217 0.004135 2.2703e-05
-0.022199 0.01694 -0.33911 0.24506 -0.0078761 0.03425 -0.0023377 0.0021088
-0.00067739 0.0028961 0.00093367 0.0052471
0.0056065 -0.010659 -0.0077871 0.034309 -0.028771 0.30696 0.0009191 0.0015071
0.00013549 0.0035833 -0.0015705 0.00048792
-0.0047105 -0.0018816 -0.0023467 0.0021068 0.00092061 0.0015025 -0.17826 0.23033
-0.029063 0.014801 0.014922 -0.010894
-0.0039769 0.0024883 -0.00066157 0.0028993 0.00012843 0.0035704 -0.029049 0.01489
-0.20994 0.08082 -0.018203 0.020314
0.0039453 -0.00015517 0.0009498 0.0051819 -0.0016441 0.00037104 0.015004 -0.010994
-0.018222 0.020252 -0.25942 0.11312
860000000 -0.12452 0.24661 -0.017482 0.030796 -0.0031254 -0.0099303 -0.0021849 0.00072864
0.0041002 0.0046168 -0.0045559 -0.0031009
-0.017521 0.030745 -0.29101 0.28709 0.0081513 0.034554 0.00014311 0.002204
0.004505 0.00014627 0.0030134 0.00092052
-0.0031776 -0.009974 0.0082794 0.034563 0.019189 0.31536 -0.00071055 -0.00014299
0.0027881 -0.001566 0.0012764 0.0044505
-0.002169 0.00075408 0.00018573 0.0022018 -0.00071526 -0.00014781 -0.14062 0.24089
-0.017778 0.0192 -0.0067257 -0.0098535
0.003991 0.0044991 0.0045056 0.00012801 0.0027541 -0.0015676 -0.017855 0.019186
-0.15743 0.13311 -0.028032 0.016469
-0.0043538 -0.0029568 0.0030459 0.00088163 0.0013471 0.004506 -0.006803 -0.0097561
-0.028075 0.016433 -0.20748 0.1638
920000000 -0.099913 0.26913 0.0050324 0.038113 -0.0096649 -0.0047 -0.0016197 0.0016926
0.00083615 0.0020533 0.002728 -0.0018379
0.0050389 0.038094 -0.26323 0.30855 0.028219 0.022195 0.0014131 0.0011798
0.007012 0.00027864 0.0042406 -0.0030017
-0.0096963 -0.0046698 0.028328 0.022133 0.065196 0.31615 0.0019681 4.1023e-05
0.0011394 -0.00016809 0.00083205 -0.0014355
-0.0016635 0.0016722 0.0014508 0.0011781 0.0019737 4.6991e-05 -0.11646 0.25894
-0.010569 0.031813 0.004876 -0.0068471
0.00087779 0.0020607 0.0070368 0.0002544 0.0011579 -0.0001436 -0.0105 0.03185
-0.14798 0.14066 -0.002891 0.028477
0.0025755 -0.0018179 0.0042237 -0.0029861 0.00081217 -0.0014542 0.004924 -0.0069161
-0.0029625 0.028472 -0.22218 0.17851
980000000 -0.052485 0.28894 0.017494 0.030212 -0.0092434 0.0046229 0.0019951 0.0032012
0.0040335 -0.0014097 -0.0032486 -0.0021374
0.017449 0.030218 -0.21011 0.34288 0.033471 0.0049064 0.002134 -0.00019348
0.001581 -0.0059777 -6.435e-05 -0.0024335
-0.0092156 0.0046269 0.033527 0.0047943 0.11174 0.30985 0.000645 -0.0012568
0.00035314 -0.0022557 0.0014371 -0.00019907
0.0020119 0.0032298 0.0021255 -0.00018596 0.00063238 -0.0012677 -0.077366 0.26928
0.0088056 0.031482 -0.0099148 -0.0085046
0.0040017 -0.0014524 0.0015266 -0.0059379 0.0003424 -0.00227 0.0088609 0.031455
-0.1185 0.16982 0.0048101 0.020363
-0.0032442 -0.0020093 -8.1301e-05 -0.0024416 0.0014552 -0.00018926 -0.0099471 -0.0084305
0.0047889 0.020328 -0.18059 0.22926
1040000000 -0.010996 0.29749 0.033349 0.018214 -0.0013824 0.0070479 0.002471 0.00064069
0.0001832 -0.003573 -5.9466e-05 -0.0013786
0.033322 0.018243 -0.17459 0.35601 0.02972 -0.014999 0.0016026 -0.0018753
-0.0021977 -0.0027638 -0.0013382 -0.0028101
-0.0013664 0.0070465 0.029716 -0.015118 0.15795 0.29626 -0.00056262 -0.0017412
-0.0016907 -0.00093294 -0.00063311 -0.0012306
0.0024602 0.00060573 0.0015802 -0.0019166 -0.00056962 -0.0017506 -0.050155 0.2797
0.020799 0.018852 -0.0019393 0.00088794
0.00019858 -0.003573 -0.002331 -0.0027065 -0.0016922 -0.00092098 0.020856 0.018857
-0.086366 0.17767 0.013245 0.020982
-0.00016798 -0.0014321 -0.0013831 -0.0028395 -0.00064298 -0.0012308 -0.0019129 0.00084625
0.013286 0.021005 -0.16105 0.25218
1100000000 0.034448 0.3055 0.036157 -0.0042163 0.0028996 0.0039622 0.002183 -0.0012865
-0.0017873 -0.0031289 -0.004161 -0.00025259
0.036115 -0.0041869 -0.13131 0.37352 0.015225 -0.028243 -6.671e-05 -0.0018353
-0.00333 -0.00095465 -0.003722 -0.00063129
0.0029218 0.0039619 0.015125 -0.02834 0.20463 0.27591 -0.0020495 0.0002148
-0.0018307 0.00041932 -0.0012195 -0.00029613
0.0021639 -0.0012949 -5.7345e-05 -0.0018222 -0.0020432 0.00020813 -0.0091677 0.28468
0.026684 0.0052266 -0.0029341 -0.00065955
-0.0018173 -0.0031772 -0.0033519 -0.00095344 -0.0018302 0.00041188 0.026737 0.0051766
-0.069319 0.19154 0.020184 0.010149
-0.0041314 -0.0002359 -0.0036992 -0.00060971 -0.0012222 -0.00030241 -0.0029708 -0.00067698
0.020173 0.010132 -0.1168 0.28798
1160000000 0.085668 0.30116 0.024133 -0.020939 0.0028189 -0.00046684 -0.00040915 -0.0020717
-0.004138 -0.00090381 -0.00099552 0.0040027
0.024141 -0.020914 -0.087355 0.37798 -0.0039306 -0.029489 -0.0016538 -0.0016406
-0.0029632 0.0023963 -0.0016081 0.0017891
0.0027997 -0.00047966 -0.0040367 -0.029491 0.24794 0.2449 -0.00086228 0.0018357
-0.00067453 0.0020796 -0.0012515 0.00028425
-0.00039101 -0.0020814 -0.0016443 -0.0016381 -0.00084988 0.0018372 0.030498 0.28155
0.022976 -0.011975 -0.0039152 0.0054744
-0.0041658 -0.00081726 -0.0029717 0.0024586 -0.00066577 0.0021027 0.022967 -0.012019
-0.035882 0.20162 0.019235 0.0015665
-0.0010294 0.0040508 -0.0016454 0.0018232 -0.0012369 0.00030701 -0.00386 0.0054943
0.019261 0.0015613 -0.067964 0.29358
1220000000 0.1302 0.29009 0.010447 -0.030429 -0.0016347 -0.00091021 3.3795e-05 -0.00065812
-0.002804 0.0024326 0.0011584 0.0022445
0.010464 -0.030361 -0.042695 0.39022 -0.017267 -0.021324 -0.0026157 0.00042698
-6.3536e-05 0.0031298 -0.00095635 0.0020663
-0.0016219 -0.00089086 -0.017379 -0.021271 0.2869 0.20536 0.000825 0.0018727
0.0006914 0.0014514 0.00038049 0.00079044
-8.2522e-07 -0.0006459 -0.0026191 0.00044883 0.00082509 0.0018696 0.070653 0.27241
0.011479 -0.019141 0.001633 0.0013211
-0.0027828 0.0024122 -6.8741e-05 0.0031311 0.00068934 0.0014466 0.011455 -0.019146
-0.013817 0.21159 0.015713 -0.012903
0.0011813 0.0022508 -0.00092893 0.0020644 0.0003874 0.00077649 0.0016054 0.0013004
0.015684 -0.012909 -0.039328 0.31499
1280000000 0.18028 0.26851 -0.0080713 -0.028756 -0.0018366 0.0025082 -0.00081259 -0.001819
-0.00081562 0.003029 0.0026739 0.0013126
-0.0080554 -0.028755 0.0036039 0.38121 -0.024127 -0.0083754 -0.00093571 0.0014042
0.0017432 0.0020077 0.00071644 0.0021753
-0.0018359 0.0025123 -0.024202 -0.0082628 0.3171 0.16132 0.0017669 1.7871e-05
0.0012599 0.00030813 0.00044829 0.00039193
-0.00079513 -0.0018087 -0.00093934 0.001408 0.0017611 1.2907e-05 0.1075 0.25512
0.0010096 -0.021355 -0.00072808 0.00044962
-0.00080135 0.0030519 0.0017644 0.0019921 0.001237 0.00030119 0.0009858 -0.021371
0.022731 0.21628 0.0038407 -0.015631
0.0026708 0.0012763 0.00071882 0.0021797 0.00045327 0.00038852 -0.00070712 0.0004692
0.0038478 -0.015624 0.010931 0.32089
1340000000 0.2175 0.23444 -0.018007 -0.019002 0.00091345 0.00454 -0.0014404 -0.00093884
0.0015354 0.0028465 0.0019257 -0.0013892
-0.017969 -0.018997 0.043328 0.37264 -0.021814 0.0045167 -0.00023123 0.0020359
0.0020271 0.00088863 0.0013907 0.00084226
0.00093173 0.0045565 -0.021813 0.0046235 0.33876 0.11346 0.0013097 -0.0010455
0.00088843 -0.0005455 0.00026564 0.00045272
-0.0014652 -0.00093975 -0.00021628 0.0020477 0.0013148 -0.0010436 0.13923 0.23409
-0.0096649 -0.018429 0.00061505 0.00085998
0.0015598 0.002824 0.0020288 0.00086956 0.0008884 -0.00054066 -0.0097161 -0.018405
0.052239 0.21216 -0.0031053 -0.014339
0.0019443 -0.001373 0.0014338 0.00083997 0.00027897 0.00044361 0.00061156 0.00086148
-0.0031022 -0.014328 0.050192 0.31974
1400000000 0.25051 0.19632 -0.023715 -0.0072835 0.0052145 0.0030654 -0.0020696 0.00047087
0.0025081 0.00094636 0.0005142 -0.0014247
-0.023678 -0.0072888 0.080552 0.35918 -0.014839 0.012744 0.0014064 0.0013868
0.0012749 -0.00078054 0.0013628 0.00017807
0.0052144 0.003051 -0.014782 0.012841 0.35147 0.060069 0.00024192 -0.0018706
0.00013414 -0.00052505 0.00038707 0.00021403
-0.0020449 0.00049913 0.0014157 0.001362 0.00023122 -0.0018691 0.16745 0.20485
-0.016217 -0.011005 -0.0011556 -4.6761e-05
0.0024927 0.00093051 0.0012731 -0.00078075 0.00014207 -0.00052376 -0.016232 -0.010962
0.085057 0.20908 -0.00982 -0.0098327
0.00049884 -0.0014578 0.0013286 0.00016033 0.00037249 0.00021745 -0.0011525 -2.7826e-05
-0.0098057 -0.009838 0.097561 0.31156
1460000000 0.27321 0.1519 -0.020616 0.0051156 0.0056778 -0.0018707 -0.0015713 0.0016124
0.0021468 -0.00035533 -0.00030301 -0.0011504
-0.0206 0.0050946 0.11446 0.33693 -0.0059989 0.015456 0.0017651 0.00025581
0.00095259 -0.0014126 0.0012641 -0.00076951
0.0056517 -0.0019067 -0.0059254 0.015507 0.35752 0.00618 -0.001431 -0.0014863
0.00012714 -0.00037449 0.0007155 -0.00048683
-0.0015902 0.0015871 0.0017758 0.00026305 -0.0014405 -0.0014824 0.19225 0.176
-0.017885 -0.0033038 -0.00074584 0.0027004
0.0021497 -0.00037848 0.00092105 -0.0014367 0.00013197 -0.00037139 -0.017898 -0.0032641
0.11383 0.19484 -0.012148 -0.0031963
-0.00032896 -0.0011111 0.0012815 -0.00079149 0.0007152 -0.00050979 -0.0007587 0.002703
-0.012153 -0.0031991 0.13165 0.2921
1520000000 0.28505 0.11033 -0.014725 0.010665 0.0033481 -0.0041948 -3.6572e-05 0.0026629
0.0022372 -0.0017285 -0.0011564 -0.00018847
-0.014732 0.010653 0.14756 0.32216 0.0017795 0.013111 0.0018525 -0.00081271
1.2021e-06 -0.0011285 0.00033779 -0.0010652
0.0033311 -0.0041997 0.0018547 0.013117 0.35079 -0.049667 -0.0013742 -0.00033788
0.00059395 -0.00080226 0.00015651 -0.00028491
-6.0601e-07 0.0026893 0.0018419 -0.00083964 -0.0013602 -0.00034667 0.21409 0.13926
-0.016939 0.0035212 0.0018245 0.0023161
0.0022034 -0.0017176 -7.7519e-06 -0.0011158 0.0005929 -0.00080611 -0.016926 0.0035579
0.14137 0.18179 -0.012438 0.0012994
-0.0011258 -0.00024085 0.00030572 -0.0010569 0.0001351 -0.00028854 0.0018472 0.0023162
-0.012445 0.0012983 0.16747 0.2751
1580000000 0.29402 0.064075 -0.0078378 0.013731 -0.00099174 -0.0049055 0.0014994 0.0020404
-0.00013385 -0.0021936 -0.00041433 0.00040575
-0.0078486 0.013723 0.17439 0.29739 0.0053386 0.0082079 0.00051892 -0.0017937
-0.00058371 -0.0010982 -0.00033972 -0.00075913
-0.0010226 -0.0049033 0.0053904 0.0081984 0.33074 -0.10677 -0.0017518 0.00089563
-0.00041833 -0.0010987 7.7949e-05 -0.00060056
0.0014958 0.0020098 0.00050826 -0.0017927 -0.0017423 0.00088075 0.22691 0.10182
-0.012709 0.0091323 0.0027061 0.00089319
-0.00011885 -0.0022014 -0.00058907 -0.0011122 -0.00044455 -0.0011066 -0.01271 0.0091715
0.16558 0.16474 -0.0098391 0.0077478
-0.0004157 0.00048098 -0.00032422 -0.00077095 8.1813e-05 -0.00060775 0.0026978 0.00087079
-0.0098437 0.0077317 0.20284 0.24948
1640000000 0.29592 0.023273 -0.00098255 0.012409 -0.0027058 -0.0026167 0.0028504 0.0010724
-0.00055104 -0.0017 -0.00028967 0.00056719
-0.00099528 0.012396 0.20363 0.2728 0.0060358 0.003436 -0.00076153 -0.0018981
-0.0010728 -0.00035536 -0.00048815 -0.00076989
-0.0027327 -0.0025924 0.0060623 0.0033923 0.30301 -0.15606 -0.00050829 0.0017088
-0.0011134 -0.0011011 -0.00010614 -0.00043851
0.0028546 0.0010625 -0.00077871 -0.0019053 -0.00051251 0.0017059 0.2389 0.055638
-0.007609 0.010694 0.0028759 -0.0010095
-0.00057838 -0.0016825 -0.0010678 -0.00034388 -0.0010945 -0.0011094 -0.0075695 0.010714
0.18741 0.14136 -0.004571 0.010052
-0.00029037 0.0005123 -0.000505 -0.00075701 -0.00010632 -0.00044987 0.0028553 -0.00098931
-0.0045735 0.010043 0.22984 0.21984
1700000000 0.28863 -0.021561 0.0024215 0.0093605 -0.0035004 0.00010611 0.0031137 -0.0013571
-0.0021304 -0.00076937 0.00072625 0.00041967
0.0024064 0.0093532 0.22154 0.24162 0.0039118 0.00056577 -0.0016469 -0.00061616
-0.00075649 9.946e-05 -0.00094332 -0.00040622
-0.0034996 0.0001107 0.0039224 0.00053274 0.25966 -0.19596 0.00073656 0.0016941
-0.0020608 -0.0002237 -0.0004688 -0.00084197
0.0031159 -0.0013825 -0.0016495 -0.00059992 0.0007355 0.0016871 0.23703 0.0087121
-0.0040416 0.01113 0.0017208 -0.0023571
-0.0021077 -0.00079169 -0.00075973 0.00010851 -0.0020813 -0.00020561 -0.0040529 0.011138
0.20459 0.1222 0.00020714 0.010296
0.00068649 0.00046005 -0.00092265 -0.00039465 -0.0004781 -0.00084696 0.0017559 -0.002384
0.00022123 0.010287 0.24944 0.18558
1760000000 0.27664 -0.069783 0.0045049 0.0059619 -0.0023135 0.0011178 0.0012213 -0.0035444
-0.0014587 0.00064252 0.00043797 -0.00065696
0.0045065 0.0059534 0.24746 0.20225 0.0015418 -0.0012199 -0.0013016 0.00035395
-0.00088631 0.00094004 -0.0005302 0.00038725
-0.0023072 0.0011333 0.0015375 -0.0012338 0.21073 -0.22969 0.001391 0.00084151
-0.0011436 0.001501 -0.0013325 -0.00056258
0.0011784 -0.0035481 -0.0012916 0.00034627 0.0013773 0.00083718 0.23067 -0.040414
-0.00021699 0.0099811 -6.7648e-05 -0.002893
-0.001493 0.00066506 -0.00087771 0.00093417 -0.0011565 0.0015106 -0.00018826 0.0099991
0.21926 0.088642 0.0047742 0.0075188
0.00044389 -0.00068201 -0.00053084 0.00041145 -0.0013338 -0.00056185 -0.00011471 -0.0028846
0.0047745 0.0075138 0.26346 0.14894
1820000000 0.25245 -0.10681 0.0045392 0.0023531 -6.5492e-05 0.0025031 -0.0012205 -0.0030633
-0.0012602 0.0010701 -4.4241e-05 -0.00012628
0.0045365 0.0023677 0.25775 0.17246 -0.00036794 -8.5926e-05 -0.0012747 0.0011414
5.6103e-05 0.0012077 -0.00054078 0.00046302
-1.6896e-05 0.0025071 -0.00036369 -8.0068e-05 0.1608 -0.24507 0.0014691 0.00013646
-0.00010958 0.0024735 -0.0014137 0.00030599
-0.0012168 -0.0030724 -0.0012733 0.0011559 0.0014632 0.00014042 0.20434 -0.086862
0.0018508 0.0081157 -0.0018453 -0.0019425
-0.0012053 0.0010614 7.5021e-05 0.0012138 -0.00011168 0.0024794 0.0018641 0.0080844
0.23685 0.06118 0.0055095 0.0034281
-6.9686e-05 -0.0001289 -0.00055083 0.00046923 -0.0014326 0.0002897 -0.0018404 -0.001898
0.0055022 0.0034157 0.26888 0.11317
1880000000 0.21777 -0.147 0.0022758 0.00021326 -0.00029878 0.0020218 -0.0029625 -0.0022407
-0.00010317 0.001844 0.00021387 -0.00057555
0.0022687 0.00021725 0.2624 0.12615 -0.0023594 0.0016905 -3.9755e-05 0.001652
0.00053069 0.0010128 7.107e-05 0.00087843
-0.00030383 0.0020476 -0.0023544 0.0017082 0.10869 -0.25466 0.0014925 -0.0008425
0.0016301 0.0019284 -0.0010307 0.001452
-0.003019 -0.0021988 -3.5563e-05 0.0016484 0.0014862 -0.00085158 0.16741 -0.12849
0.0028661 0.0055432 -0.0026254 0.00030464
-0.00013578 0.0018787 0.00052107 0.001003 0.0015984 0.0018964 0.0028906 0.0055682
0.24021 0.029972 0.0058149 0.0010758
0.00021595 -0.00059763 9.5724e-05 0.00088952 -0.00098735 0.0014574 -0.0026211 0.00028163
0.0058146 0.0010814 0.27004 0.078323
1940000000 0.17893 -0.17307 -2.3761e-05 -0.0013169 0.0011806 0.0019032 -0.0035888 0.0006774
0.0014829 0.0011168 -0.00076709 -0.00048695
-7.5624e-06 -0.0013089 0.26327 0.094364 -0.0011668 0.0037074 0.0011085 0.0012223
0.0016988 0.00045545 0.00073036 0.00023695
0.0012496 0.0019149 -0.0011425 0.0037097 0.062571 -0.2486 0.00033358 -0.0018297
0.00241 0.0004294 0.00025738 0.0016771
-0.003589 0.00067487 0.0010986 0.0012027 0.00032269 -0.0018194 0.11703 -0.16201
0.0022493 0.0033541 -0.0016915 0.0015859
0.0014976 0.0010975 0.0017179 0.00042751 0.0024281 0.00040741 0.0022397 0.0033721
0.24377 -0.0078412 0.0042651 -0.0028164
-0.00076449 -0.00050315 0.00075607 0.00023434 0.00026648 0.0016975 -0.0017081 0.0015989
0.0042676 -0.0028152 0.26051 0.042879
2000000000 0.13253 -0.1883 -0.0037753 0.00069351 0.0024416 0.0018408 -0.0023182 0.0033543
0.001114 -4.6998e-06 -0.00076506 0.00055995
-0.0037777 0.00068184 0.24936 0.058714 -0.0010673 0.0055569 0.001503 0.00031367
0.0012127 -0.0012186 0.00039693 0.00019577
