!Keysight Technologies,M9804A,MY58100912,A.14.10.03
!Date: Thursday, April 27, 2023 10:28:33
!Correction: S11(C  6-Port  ) 
!S12(C  6-Port  ) 
!S13(C  6-Port  ) 
!S14(C  6-Port  ) 
!S15(C  6-Port  ) 
!S16(C  6-Port  ) 
!S21(C  6-Port  ) 
!S22(C  6-Port  ) 
!S23(C  6-Port  ) 
!S24(C  6-Port  ) 
!S25(C  6-Port  ) 
!S26(C  6-Port  ) 
!S31(C  6-Port  ) 
!S32(C  6-Port  ) 
!S33(C  6-Port  ) 
!S34(C  6-Port  ) 
!S35(C  6-Port  ) 
!S36(C  6-Port  ) 
!S41(C  6-Port  ) 
!S42(C  6-Port  ) 
!S43(C  6-Port  ) 
!S44(C  6-Port  ) 
!S45(C  6-Port  ) 
!S46(C  6-Port  ) 
!S51(C  6-Port  ) 
!S52(C  6-Port  ) 
!S53(C  6-Port  ) 
!S54(C  6-Port  ) 
!S55(C  6-Port  ) 
!S56(C  6-Port  ) 
!S61(C  6-Port  ) 
!S62(C  6-Port  ) 
!S63(C  6-Port  ) 
!S64(C  6-Port  ) 
!S65(C  6-Port  ) 
!S66(C  6-Port  ) 
!S6P File: Measurement: :
# Hz S  RI   R 50
500000000 -0.33771 -0.045235 -0.010658 -0.0013835 -0.0089576 0.013588 -0.0048808 0.014196
0.012907 0.0053991 -0.0032918 0.0093412
-0.010847 -0.0020485 -0.4186 -0.056287 0.0073978 -0.01081 0.0016325 0.01287
0.0070477 0.0024033 0.0012932 0.013973
-0.0090514 0.013777 0.0074204 -0.010827 -0.26793 0.2067 0.0070132 0.0038793
-0.0031888 0.0078426 0.00016576 0.01222
-0.0053294 0.012422 0.0017432 0.01281 0.0069874 0.0038902 -0.33442 0.034012
-0.021909 -0.0053346 0.017225 0.026246
0.011633 0.0043588 0.0072151 0.0025228 -0.0029823 0.0078199 -0.022108 -0.0052903
-0.21299 -0.21559 -0.02776 0.0061824
-0.0054106 0.0089085 0.0014477 0.013925 0.00029743 0.012158 0.017047 0.026183
-0.027699 0.0061615 -0.26056 -0.14197
560000000 -0.3198 0.12049 -0.024193 -0.064893 0.00082398 0.012525 0.0074125 0.01005
0.0086681 0.003277 0.0087283 0.0074394
-0.022906 -0.063718 -0.3772 0.10388 -0.042438 -0.037206 0.014006 0.0037194
-0.01482 -0.0052223 0.0027695 -0.00059304
1.9107e-05 0.012643 -0.04256 -0.037139 -0.18424 0.25702 -0.00017407 -0.0040456
0.019563 0.0061218 0.0079271 -0.0057836
0.0061047 0.011653 0.013933 0.0035729 -0.00018422 -0.0041823 -0.31349 0.12992
0.0038673 -0.02271 0.0049155 -0.021552
0.010606 0.0039122 -0.014783 -0.005155 0.019466 0.0059315 0.0037202 -0.022581
-0.28805 -0.038354 0.0075898 -0.049941
0.011035 0.0081411 0.0025444 -0.00089024 0.0075366 -0.0055636 0.0048886 -0.021289
0.0076138 -0.04997 -0.32827 0.010019
620000000 -0.2773 0.10217 -0.022972 0.0088485 0.0039335 0.0099955 0.0084874 -0.0030685
0.011903 -0.0004403 0.0023701 -0.0018935
-0.023083 0.0089817 -0.40349 0.055649 -0.018131 0.00088686 -0.0011474 -0.0013576
0.011887 -0.0059637 0.0013911 -0.0029939
0.0036926 0.0091357 -0.018057 0.00085281 -0.15475 0.26647 -0.0011536 -0.0051649
-0.0021897 -0.0026092 0.0088529 -0.0035515
0.0079334 -0.0048271 -0.00094763 -0.0013658 -0.0011914 -0.005219 -0.27229 0.1389
-0.039523 -0.017956 0.013138 0.027736
0.011361 0.0010229 0.011856 -0.0059299 -0.0022318 -0.0023961 -0.03982 -0.017643
-0.20451 -0.077227 -0.043666 0.015053
0.0014493 -0.0021689 0.0013954 -0.0029943 0.008515 -0.0034981 0.012615 0.027596
-0.04368 0.015159 -0.24757 -0.029
680000000 -0.23804 0.19045 -0.026975 -0.013988 0.0052418 0.0048485 0.0026099 -0.007001
-0.0030356 -0.011839 0.0048454 -0.0068857
-0.026879 -0.013686 -0.38948 0.15506 -0.032378 -0.0015176 -0.0011786 -0.00048212
-0.001594 -0.0094878 -0.0012231 -0.0021809
0.0054652 0.0053678 -0.032563 -0.0014047 -0.10246 0.28603 -0.00040641 -0.00076618
-0.0016032 0.00017622 -0.0025527 -0.0098586
0.0027976 -0.0069109 -0.0012906 -0.00060819 -0.00040247 -0.00076411 -0.22388 0.19365
-0.024335 -0.0067679 -0.0097206 -0.012367
-0.0029221 -0.011895 -0.0015624 -0.0095261 -0.0014869 0.00011957 -0.024053 -0.0066224
-0.26467 0.025589 -0.0071259 -0.0062888
0.0051957 -0.0075926 -0.0013861 -0.0023017 -0.0023699 -0.0096422 -0.0091796 -0.012119
-0.0071641 -0.0064466 -0.26101 0.078238
740000000 -0.19298 0.18531 -0.038959 0.027194 0.013084 -0.0049208 -0.00075416 -0.0047784
-0.0046897 -0.0014799 -0.0065202 0.0030434
-0.039063 0.027154 -0.33441 0.1739 -0.035489 0.035331 -0.00095929 -0.0063062
-0.011663 0.0068915 -0.0024313 -0.0067416
0.013258 -0.0049439 -0.035317 0.035469 -0.069165 0.28335 -0.002593 0.0028533
-0.0019601 -0.0049478 -0.0018456 0.00043555
-0.00044562 -0.0046521 -0.00097056 -0.0061683 -0.0025386 0.0027822 -0.20799 0.20092
-0.04438 -0.0054661 0.023933 0.016093
-0.0049149 -0.0017355 -0.0118 0.0071599 -0.0022766 -0.0049671 -0.044995 -0.0053568
-0.15787 0.052354 -0.044399 0.0019893
-0.0064092 0.0027098 -0.0023681 -0.0067659 -0.0020032 0.00014337 0.024113 0.015733
-0.044486 0.002058 -0.25064 0.083235
800000000 -0.15915 0.22691 -0.021605 0.016765 0.0056158 -0.01068 -0.00445 -0.0017402
-0.0038409 0.001575 0.0040189 -0.00016606
-0.021761 0.01692 -0.33924 0.2441 -0.0078426 0.033811 -0.0023309 0.0021747
-0.0010715 0.002424 0.0006495 0.0049176
0.0054911 -0.010531 -0.0078077 0.033874 -0.028554 0.30626 0.00061708 0.0017146
-0.00015171 0.003492 -0.0018055 0.00039303
-0.0046282 -0.0021317 -0.0023268 0.0020797 0.00057517 0.0017617 -0.17831 0.23052
-0.028335 0.01471 0.014831 -0.010921
-0.0040546 0.0015447 -0.0010109 0.0024702 1.5716e-06 0.0034747 -0.028083 0.014852
-0.21024 0.078478 -0.017432 0.019865
0.0039325 0.00020024 0.00074226 0.0049899 -0.0015435 0.00075593 0.014541 -0.010486
-0.017404 0.019783 -0.24664 0.13301
860000000 -0.12458 0.24601 -0.01716 0.030455 -0.0030972 -0.0099731 -0.0018852 0.00033522
0.0036171 0.0053031 -0.0038385 -0.0024412
-0.017229 0.030468 -0.29142 0.2857 0.0077332 0.034191 -0.00030123 0.0022071
0.0040883 0.00055982 0.0035112 0.00095013
-0.0031055 -0.0099169 0.0078664 0.034192 0.018725 0.3143 -0.00067592 -0.00015019
0.0029127 -0.0014237 0.0016412 0.0043032
-0.0020793 0.0004612 -0.00023815 0.0022874 -0.0006437 -0.00014301 -0.13991 0.24065
-0.017381 0.018561 -0.0062354 -0.0093713
0.0037683 0.0050874 0.0041219 0.00056305 0.0028866 -0.0014606 -0.017302 0.018454
-0.15739 0.1322 -0.026503 0.016325
-0.0038315 -0.0029623 0.0034331 0.0009049 0.0016153 0.004121 -0.0059514 -0.0096457
-0.026507 0.016316 -0.19619 0.18053
920000000 -0.10041 0.26869 0.0052115 0.037441 -0.0093503 -0.0049497 -0.0019757 0.0017462
0.001258 0.0017795 0.0029122 -0.0015078
0.0051445 0.037686 -0.26307 0.30718 0.028014 0.022093 0.0014909 0.00087866
0.0073272 0.00053674 0.0040515 -0.0027939
-0.0094283 -0.0047593 0.028127 0.022018 0.064615 0.31539 0.0020863 8.4275e-05
0.0012687 -0.00022393 0.00078741 -0.0014354
-0.0016115 0.0015328 0.0014589 0.00090766 0.0020674 7.2025e-05 -0.11668 0.2577
-0.010432 0.031616 0.0045621 -0.006815
0.0011097 0.0019524 0.0072879 0.00049084 0.0012759 -0.00019079 -0.01052 0.031819
-0.14894 0.138 -0.0021284 0.02751
0.0026996 -0.0017019 0.0040425 -0.0028582 0.00080255 -0.0013672 0.00446 -0.0068694
-0.0021059 0.027517 -0.206 0.19495
980000000 -0.053165 0.28765 0.017356 0.029794 -0.0094022 0.0043109 0.0020651 0.0031648
0.0039196 -0.001204 -0.0034653 -0.0026854
0.017143 0.029748 -0.21066 0.34152 0.033136 0.0050321 0.0021049 -0.00012235
0.0019958 -0.0056114 -9.6434e-05 -0.0025883
-0.0093482 0.0043493 0.033209 0.0048976 0.11094 0.30917 0.00060188 -0.001307
0.00042299 -0.0021076 0.0013539 -0.00021954
0.001677 0.0031014 0.0020824 -0.00011725 0.0006085 -0.0013023 -0.077403 0.26832
0.008705 0.030836 -0.0094725 -0.0078922
0.0039314 -0.0011783 0.0018916 -0.0055855 0.00041454 -0.0021495 0.0089223 0.030883
-0.11907 0.16828 0.0043618 0.019731
-0.003172 -0.002412 -0.00017683 -0.0025616 0.0013695 -0.00022965 -0.0093901 -0.0078868
0.0043254 0.019722 -0.16375 0.24128
1040000000 -0.012106 0.29687 0.033007 0.018147 -0.001519 0.0068329 0.0019358 0.00089445
0.00035833 -0.0033427 4.6188e-05 -0.0013369
0.032897 0.018132 -0.17555 0.35456 0.029649 -0.014775 0.0015004 -0.0017897
-0.0020722 -0.0028859 -0.0013775 -0.0028295
-0.0015632 0.0068791 0.029606 -0.014948 0.15701 0.29581 -0.00045706 -0.0017628
-0.0015513 -0.0010488 -0.00061899 -0.0010178
0.0024474 0.00099636 0.0014979 -0.0017856 -0.00045153 -0.0017537 -0.050858 0.27856
0.020484 0.018822 -0.0020976 0.00075974
0.00039781 -0.0034361 -0.0020625 -0.0028974 -0.001561 -0.001044 0.02051 0.018759
-0.08687 0.17579 0.013275 0.019497
-7.0782e-05 -0.0014739 -0.0013823 -0.0028832 -0.00062277 -0.00099361 -0.0021164 0.00084373
0.013288 0.019519 -0.14383 0.26282
1100000000 0.033042 0.30465 0.035776 -0.0042055 0.0025413 0.0039777 0.0023313 -0.00084414
-0.001937 -0.003013 -0.0040922 -0.00036732
0.035686 -0.004232 -0.13232 0.37204 0.015267 -0.02807 0.00010527 -0.0017156
-0.0036306 -0.0010968 -0.0037152 -0.00073574
0.0025942 0.0039416 0.01516 -0.028173 0.20356 0.27576 -0.0020511 0.00012133
-0.0020144 0.00035785 -0.001138 -0.0002272
0.002153 -0.0011138 0.00011773 -0.0017545 -0.0020637 0.000122 -0.010318 0.28361
0.026308 0.0053482 -0.0029272 -0.00073217
-0.0019008 -0.0029936 -0.00367 -0.0010755 -0.0020045 0.00037902 0.0263 0.0053019
-0.071029 0.18959 0.019531 0.009258
-0.0041889 -0.00018078 -0.0037379 -0.00072903 -0.0011633 -0.00022166 -0.002885 -0.00074616
0.019541 0.0092575 -0.098378 0.29469
1160000000 0.083919 0.30052 0.023664 -0.02085 0.0025016 -0.00033836 -0.00024919 -0.002115
-0.004091 -0.0008666 -0.0010389 0.004249
0.023775 -0.020866 -0.089158 0.37675 -0.00378 -0.029398 -0.0017218 -0.001828
-0.0030343 0.0024504 -0.0015518 0.0020385
0.0025265 -0.00035874 -0.0039081 -0.029416 0.24675 0.24496 -0.00096773 0.0019022
-0.00067704 0.0022198 -0.0009571 0.0001664
-0.00032945 -0.001843 -0.0017229 -0.0017778 -0.00098908 0.0019001 0.028889 0.28058
0.022895 -0.011763 -0.0038826 0.0050599
-0.0040246 -0.00086893 -0.0030471 0.0024669 -0.00069677 0.0022195 0.022935 -0.011752
-0.036748 0.19903 0.01842 0.00080101
-0.00089114 0.0040813 -0.0016211 0.0020108 -0.00089784 0.00023839 -0.0039688 0.0050243
0.018403 0.00082392 -0.050638 0.29787
1220000000 0.12827 0.29008 0.010291 -0.030123 -0.0016982 -0.00065644 0.00018479 -0.00066366
-0.0027726 0.0022767 0.0011553 0.0021625
0.010329 -0.030141 -0.044661 0.38936 -0.017138 -0.021433 -0.0025972 0.00041004
-0.00025769 0.0033086 -0.00099158 0.0019318
-0.0017203 -0.0006343 -0.017283 -0.021381 0.28577 0.20581 0.00074481 0.001969
0.0006845 0.0015044 0.00049301 0.00064532
0.0002329 -0.00076142 -0.0025819 0.00041015 0.00075569 0.0019723 0.068667 0.27241
0.011441 -0.01875 0.0012754 0.0012538
-0.0027784 0.0023356 -0.00023997 0.0032942 0.00068559 0.0014908 0.011379 -0.018847
-0.015919 0.20937 0.014898 -0.013112
0.0010396 0.0021881 -0.00094965 0.0019142 0.00049916 0.0006325 0.0012659 0.0013242
0.014911 -0.013091 -0.021182 0.31607
1280000000 0.17827 0.26875 -0.0082364 -0.028496 -0.0018359 0.0027363 -0.00067601 -0.0020368
-0.00089762 0.0029977 0.002495 0.0012993
-0.0081567 -0.028447 0.0013161 0.38093 -0.024111 -0.0085775 -0.0010857 0.0014697
0.0018666 0.0022545 0.0006714 0.0022556
-0.0018309 0.0027589 -0.02419 -0.0084751 0.31605 0.16203 0.0017466 0.00010204
0.0013624 0.00031842 0.00039423 0.00028022
-0.00077937 -0.0019914 -0.0011053 0.0014729 0.0017487 9.5751e-05 0.10578 0.25572
0.0013136 -0.021188 -0.00085497 0.0004326
-0.00090643 0.0030724 0.0018722 0.0022715 0.0013772 0.0003431 0.0012192 -0.021152
0.019605 0.2144 0.0032988 -0.015642
0.0026837 0.0013623 0.00068275 0.002204 0.0003731 0.00030204 -0.00078092 0.00041568
0.0033076 -0.015635 0.027028 0.31975
1340000000 0.21549 0.23563 -0.017957 -0.018682 0.0010246 0.0047293 -0.0015531 -0.0010451
0.0014153 0.0027871 0.0019799 -0.0013208
-0.017917 -0.01871 0.04104 0.37293 -0.021926 0.0043796 -0.00026746 0.0021384
0.0022211 0.00085664 0.0014737 0.00078308
0.0010593 0.0047507 -0.02194 0.0044982 0.33791 0.11436 0.001459 -0.00099119
0.00093411 -0.00059219 0.00012517 0.00024458
-0.0015729 -0.0010459 -0.00023256 0.0021492 0.0014521 -0.0010062 0.13786 0.23496
-0.0096196 -0.018446 0.00051282 0.0011716
0.0014398 0.0027648 0.0022443 0.00086143 0.00095683 -0.00057523 -0.0096168 -0.018487
0.048615 0.21085 -0.0036808 -0.013971
0.0019339 -0.0014309 0.0014941 0.00078635 0.00014715 0.00027426 0.00049456 0.0010998
-0.0036806 -0.013944 0.065562 0.31652
1400000000 0.24904 0.19779 -0.023556 -0.0070512 0.0054873 0.0032548 -0.0022755 0.00043223
0.0024353 0.0010695 0.00045572 -0.00148
-0.023523 -0.0070423 0.078647 0.36003 -0.015044 0.012756 0.0014568 0.0014913
0.0013609 -0.00089196 0.0012633 0.0002173
0.0055304 0.0031838 -0.015008 0.012856 0.35081 0.061272 0.00021579 -0.0020358
2.2049e-05 -0.0004854 0.00029967 0.00029128
-0.0022595 0.00044655 0.0014493 0.0014773 0.00023915 -0.0020217 0.16667 0.20607
-0.01611 -0.0112 -0.00085279 0.0001739
0.0024469 0.001067 0.0013692 -0.00093429 -6.9208e-06 -0.00048238 -0.016163 -0.011152
0.081215 0.20858 -0.010149 -0.0093301
0.00038927 -0.0014862 0.0012735 0.00020618 0.00032827 0.00023196 -0.00087996 0.00020138
-0.01011 -0.0093439 0.11086 0.30677
1460000000 0.27212 0.15383 -0.020235 0.0053204 0.0058748 -0.0019247 -0.0016951 0.0018593
0.0022346 -0.00029668 -0.00034271 -0.0011147
-0.020238 0.0052411 0.11291 0.33818 -0.0060844 0.015716 0.0018739 0.00022616
0.00093694 -0.0014811 0.0012643 -0.00072881
0.005891 -0.0019304 -0.0059933 0.01578 0.35715 0.0074143 -0.0014906 -0.0015517
0.0001143 -0.0003473 0.00063907 -0.00037757
-0.0017077 0.0018449 0.0019017 0.00022265 -0.0015062 -0.0015643 0.1918 0.17712
-0.017985 -0.0034886 -0.00054575 0.0026671
0.0022132 -0.00034873 0.00090798 -0.0014925 0.00016725 -0.00039307 -0.017957 -0.0034521
0.10962 0.19574 -0.01205 -0.0026734
-0.00024835 -0.0012409 0.0012148 -0.00074808 0.00062191 -0.00033263 -0.00053659 0.002653
-0.012052 -0.0026773 0.14444 0.28641
1520000000 0.28466 0.11213 -0.014415 0.010664 0.0035812 -0.0043967 8.7668e-05 0.0027163
0.0023485 -0.0017602 -0.0012226 -0.00025349
-0.014375 0.010661 0.1466 0.32364 0.0018268 0.013392 0.001861 -0.00088452
-6.86e-05 -0.0011686 0.00036046 -0.0010027
0.0035613 -0.0044159 0.0019056 0.013405 0.35083 -0.048355 -0.0014665 -0.00038498
0.0007012 -0.00087584 0.00019081 -0.00023827
5.1188e-05 0.0027543 0.0018442 -0.00091481 -0.0014572 -0.00038696 0.21399 0.14023
-0.017086 0.0035455 0.0018399 0.002249
0.002377 -0.0016729 -6.5174e-05 -0.0011722 0.0006827 -0.0008591 -0.017105 0.0035667
0.13765 0.18336 -0.012018 0.0017394
-0.0011979 -0.00021098 0.00034471 -0.00099912 0.00016227 -0.00022615 0.001897 0.0022013
-0.012018 0.0017338 0.17824 0.26774
1580000000 0.29416 0.06574 -0.007502 0.013568 -0.00086831 -0.0052241 0.0014849 0.0020686
-2.787e-06 -0.002231 -0.00044665 0.00039633
-0.0075249 0.013521 0.1739 0.29875 0.0055417 0.0083599 0.00050935 -0.0018264
-0.00061103 -0.0010427 -0.00025009 -0.00081443
-0.00094414 -0.0052227 0.0055801 0.0083463 0.33103 -0.10587 -0.0018355 0.0010162
-0.00036451 -0.0012165 9.4493e-05 -0.00059686
0.0015114 0.002121 0.00048748 -0.0018247 -0.0018329 0.0010179 0.22697 0.10249
-0.012821 0.0092292 0.002816 0.00081135
-1.3626e-05 -0.0023015 -0.00063168 -0.0010596 -0.00038356 -0.0012374 -0.012824 0.0093148
0.16219 0.16743 -0.0094017 0.0077519
-0.00039025 0.00045277 -0.00027834 -0.00085653 0.00010938 -0.00062045 0.0027479 0.00079808
-0.0093926 0.0077519 0.21186 0.24169
1640000000 0.2963 0.024495 -0.00083238 0.012106 -0.0028654 -0.0028176 0.0029395 0.0010937
-0.00053944 -0.0017801 -0.00035262 0.00066221
-0.00081667 0.012141 0.20335 0.27413 0.0062976 0.0033841 -0.00081251 -0.0019288
-0.0010275 -0.00034509 -0.00049789 -0.0008221
-0.002831 -0.0028246 0.0063302 0.0033283 0.30367 -0.15528 -0.00056389 0.0017525
-0.001177 -0.0011773 -7.7654e-05 -0.00047566
0.0029903 0.0010435 -0.00082345 -0.001931 -0.00055169 0.0017304 0.23913 0.056233
-0.0076815 0.010801 0.003028 -0.001048
-0.00056358 -0.0017724 -0.0010395 -0.00034183 -0.0011617 -0.0011912 -0.0076238 0.010778
0.18516 0.14442 -0.0044376 0.0099506
-0.00035552 0.00052858 -0.00047997 -0.00078624 -0.00010187 -0.00041621 0.0030507 -0.0010366
-0.0044363 0.0099554 0.23771 0.21137
1700000000 0.28901 -0.020708 0.0024544 0.0090206 -0.0036674 -5.5332e-06 0.0031826 -0.0015519
-0.0021752 -0.00094714 0.00069761 0.00048206
0.0024617 0.0090366 0.22167 0.2426 0.0041055 0.00039296 -0.0016363 -0.00057435
-0.00074451 5.1974e-05 -0.00097942 -0.00047127
-0.0037291 4.2594e-05 0.0041114 0.00038319 0.26015 -0.19547 0.00080026 0.0016632
-0.0021538 -0.00028846 -0.00048869 -0.00083543
0.0031007 -0.0015518 -0.0016405 -0.00056182 0.00078381 0.0016791 0.23722 0.0089507
-0.0039759 0.011427 0.0017698 -0.0026092
-0.0021897 -0.00092243 -0.00074464 9.0448e-05 -0.0021514 -0.00027019 -0.0040281 0.01144
0.20328 0.12546 0.00045801 0.010168
0.00070355 0.00051675 -0.0010015 -0.00048255 -0.00055515 -0.00083999 0.0018288 -0.0026516
0.00044848 0.010174 0.25558 0.17746
1760000000 0.27686 -0.069086 0.0044042 0.0055512 -0.0025826 0.0010153 0.0010986 -0.0036271
-0.0014764 0.00069033 0.00041293 -0.00067765
0.0044226 0.0056041 0.2476 0.20291 0.0016885 -0.0015211 -0.0013141 0.00024544
-0.0010025 0.00091737 -0.0006396 0.00037245
-0.0025723 0.0010533 0.0016796 -0.0015375 0.21131 -0.2289 0.0014315 0.00082374
-0.0012813 0.0015611 -0.0014949 -0.00057915
0.0011473 -0.0036015 -0.001322 0.00026677 0.0014078 0.00083454 0.23062 -0.040304
7.5374e-05 0.010022 -0.00012076 -0.0028714
-0.0015407 0.00069813 -0.0010062 0.00089189 -0.0012831 0.0015205 0.00010691 0.010065
0.21854 0.091572 0.0046252 0.007384
0.00045703 -0.00071322 -0.00063643 0.0003975 -0.0014645 -0.0005726 -0.00017062 -0.002851
0.0046352 0.0073751 0.26905 0.13993
1820000000 0.25253 -0.10608 0.0043035 0.0021104 -0.00017944 0.0026564 -0.0011795 -0.003072
-0.0012894 0.0010067 9.8529e-06 -0.00011029
0.0043085 0.0021003 0.25793 0.17292 -0.00053618 -0.00039804 -0.001288 0.0011187
-2.4458e-06 0.0012226 -0.00058203 0.00056183
-0.00015076 0.0026108 -0.00054872 -0.00039362 0.16108 -0.24514 0.0014346 7.2709e-05
-0.00016798 0.0024657 -0.0013648 0.00038236
-0.0013046 -0.0031194 -0.001292 0.001128 0.0014505 9.4716e-05 0.20404 -0.086812
0.0019183 0.0080483 -0.0019639 -0.0019928
-0.0012682 0.0010128 1.1599e-05 0.0012272 -0.00014177 0.002563 0.0019821 0.0080039
0.23652 0.063807 0.005516 0.0034467
-8.469e-06 -5.8441e-05 -0.00056629 0.00055995 -0.0014748 0.00036166 -0.0019472 -0.0020553
0.005496 0.0034248 0.27247 0.10458
1880000000 0.21784 -0.14641 0.0019017 1.6084e-05 -0.00046221 0.0022302 -0.003136 -0.0021623
-0.000184 0.0019812 0.0001265 -0.00059638
0.0018983 1.177e-05 0.26232 0.12626 -0.0026322 0.0015908 -5.1747e-05 0.0016766
0.00049877 0.00111 9.7583e-05 0.0010355
-0.0004552 0.0022718 -0.0026329 0.0015987 0.10898 -0.25426 0.0014936 -0.00071892
0.0016868 0.0020874 -0.00097112 0.0015296
-0.0030931 -0.0021005 -4.1587e-05 0.0016855 0.0014845 -0.00071771 0.16691 -0.12815
0.0029907 0.005454 -0.0026972 0.00030422
-0.00017175 0.0019304 0.0005167 0.0011291 0.0016704 0.0020901 0.0029662 0.0054913
0.24032 0.032246 0.0056841 0.0011876
0.00013542 -0.00059233 9.4595e-05 0.0009971 -0.00097152 0.0015032 -0.0027772 0.00026034
0.0057091 0.0012034 0.27308 0.069895
1940000000 0.17887 -0.17217 -0.00040527 -0.0013603 0.0013209 0.0021529 -0.0036524 0.00077492
0.0014765 0.0011168 -0.00068406 -0.00049396
-0.00041248 -0.0013668 0.26301 0.094527 -0.0013786 0.0039559 0.0010992 0.0012255
0.001709 0.00055538 0.00085301 0.00031476
0.0013384 0.0021547 -0.0013676 0.0039533 0.062917 -0.24772 0.00033237 -0.001915
0.00249 0.00033631 0.00053124 0.001606
-0.0036518 0.00078432 0.0011112 0.0011982 0.00035529 -0.0019047 0.11649 -0.16142
0.0022111 0.0032334 -0.0018848 0.0014493
0.0014734 0.0011602 0.001719 0.00050922 0.0024951 0.00031019 0.0022311 0.0032075
0.2437 -0.0056355 0.0041355 -0.0027043
-0.00075849 -0.00049028 0.00087834 0.00029817 0.00056055 0.0016472 -0.0017929 0.0015755
0.0041338 -0.0027239 0.26249 0.034269
2000000000 0.13295 -0.18735 -0.0041521 0.00087779 0.0026645 0.0017123 -0.002324 0.003421
0.0010519 9.9828e-05 -0.00067477 0.00043346
-0.004148 0.00086028 0.2488 0.059056 -0.0011229 0.0058371 0.001453 0.00036246
0.001218 -0.0011964 0.00048342 0.00012427
0.002665 0.0018072 -0.0010818 0.0058777 0.019765 -0.23348 -0.0010532 -0.0013471
0.0020392 -0.0013297 0.0016763 0.0013031
-0.0023775 0.0034409 0.0014457 0.00037754 -0.001091 -0.0013262 0.063168 -0.17464
0.00032145 0.0023927 -0.00019643 0.0022139
0.0011029 6.3285e-05 0.0012161 -0.0012153 0.0020566 -0.0013197 0.00031102 0.0023849
0.23942 -0.039217 0.00082643 -0.003438
