!Keysight Technologies,M9804A,MY58100912,A.14.10.03
!Date: Thursday, April 27, 2023 10:28:33
!Correction: S11(C  6-Port  ) 
!S12(C  6-Port  ) 
!S13(C  6-Port  ) 
!S14(C  6-Port  ) 
!S15(C  6-Port  ) 
!S16(C  6-Port  ) 
!S21(C  6-Port  ) 
!S22(C  6-Port  ) 
!S23(C  6-Port  ) 
!S24(C  6-Port  ) 
!S25(C  6-Port  ) 
!S26(C  6-Port  ) 
!S31(C  6-Port  ) 
!S32(C  6-Port  ) 
!S33(C  6-Port  ) 
!S34(C  6-Port  ) 
!S35(C  6-Port  ) 
!S36(C  6-Port  ) 
!S41(C  6-Port  ) 
!S42(C  6-Port  ) 
!S43(C  6-Port  ) 
!S44(C  6-Port  ) 
!S45(C  6-Port  ) 
!S46(C  6-Port  ) 
!S51(C  6-Port  ) 
!S52(C  6-Port  ) 
!S53(C  6-Port  ) 
!S54(C  6-Port  ) 
!S55(C  6-Port  ) 
!S56(C  6-Port  ) 
!S61(C  6-Port  ) 
!S62(C  6-Port  ) 
!S63(C  6-Port  ) 
!S64(C  6-Port  ) 
!S65(C  6-Port  ) 
!S66(C  6-Port  ) 
!S6P File: Measurement: :
# Hz S  RI   R 50
500000000 -0.3373 -0.043619 -0.010543 -0.0027964 -0.0084105 0.01302 -0.0050165 0.011793
0.01251 0.0046854 -0.0060069 0.0088738
-0.010455 -0.002681 -0.41857 -0.055315 0.007776 -0.011458 0.0020052 0.012411
0.0068099 0.0024445 0.0022357 0.014674
-0.0083506 0.013065 0.0078006 -0.011452 -0.26644 0.20698 0.0070903 0.0036937
-0.0024243 0.0084576 0.00069578 0.012544
-0.0050391 0.011877 0.0020152 0.01252 0.0070425 0.0037964 -0.33304 0.03599
-0.021339 -0.0057519 0.018131 0.027011
0.012539 0.0052026 0.0068101 0.0023562 -0.0024378 0.0084797 -0.021369 -0.005833
-0.21731 -0.21154 -0.02993 0.0052783
-0.0060215 0.008568 0.0018722 0.014827 0.00051037 0.012789 0.01809 0.027103
-0.029589 0.0053259 -0.25163 -0.1731
560000000 -0.31895 0.12101 -0.023295 -0.063588 0.00047389 0.012812 0.0066174 0.011433
0.011093 0.0041325 0.011579 0.0071099
-0.022998 -0.0635 -0.37601 0.10515 -0.041045 -0.037676 0.013913 0.0030508
-0.01381 -0.0047812 0.0038963 -0.001354
0.00026371 0.012686 -0.041103 -0.037449 -0.18437 0.25741 0.00051042 -0.0045792
0.019122 0.005609 0.0069528 -0.0068623
0.0066675 0.011169 0.013781 0.0027521 0.00049422 -0.0047645 -0.31035 0.12948
0.004513 -0.02348 0.0052827 -0.021666
0.011011 0.0040346 -0.013964 -0.0051081 0.019065 0.0056133 0.0045056 -0.023516
-0.28722 -0.035119 0.010759 -0.051701
0.011994 0.0075248 0.0040529 -0.0024367 0.0073737 -0.0067089 0.0055745 -0.022522
0.01033 -0.051075 -0.32863 -0.014112
620000000 -0.27659 0.10292 -0.023066 0.0086995 0.003165 0.0092703 0.0073151 -0.0042116
0.011395 -8.5979e-05 0.001468 -0.0013619
-0.022975 0.0087035 -0.403 0.057166 -0.018547 8.0926e-05 -0.0011996 -0.0019598
0.011486 -0.0054529 0.0012297 -0.0025581
0.003165 0.0092805 -0.018674 0.00011943 -0.15436 0.26591 -0.000911 -0.0055712
-0.0032951 -0.0017401 0.0090019 -0.0032613
0.0074029 -0.0040833 -0.0011616 -0.0019039 -0.00082163 -0.0057092 -0.26981 0.1403
-0.039872 -0.019554 0.013214 0.027586
0.011315 -0.00016652 0.01144 -0.0055759 -0.0034328 -0.0015871 -0.039841 -0.019603
-0.20515 -0.071735 -0.045496 0.017217
0.0014557 -0.0011199 0.0010821 -0.0025841 0.0090835 -0.0032993 0.013636 0.027573
-0.045633 0.01774 -0.24343 -0.057954
680000000 -0.23689 0.19177 -0.027345 -0.013888 0.0054678 0.0054294 0.0025617 -0.0076886
-0.0025304 -0.011742 0.0061192 -0.0076479
-0.027315 -0.013836 -0.38869 0.15595 -0.032824 -0.0014673 -0.0011681 -0.00039425
-0.0019248 -0.0093602 -0.00088769 -0.0019491
0.0054819 0.0054543 -0.032871 -0.0013948 -0.10269 0.28552 -0.00072579 -0.00059354
-0.0017114 0.00070475 -0.0028337 -0.0096189
0.002579 -0.0076821 -0.0012357 -0.0003062 -0.00068512 -0.00063145 -0.22403 0.19279
-0.024357 -0.0063853 -0.0095878 -0.012679
-0.0026711 -0.011653 -0.0019387 -0.0093576 -0.0017695 0.00072757 -0.024445 -0.0064078
-0.26196 0.028559 -0.0048088 -0.0080637
0.0057633 -0.0079836 -0.00097837 -0.0018629 -0.0027882 -0.0094377 -0.0097029 -0.012755
-0.0046364 -0.0081235 -0.26624 0.053668
740000000 -0.19225 0.18499 -0.03924 0.026187 0.012991 -0.0047844 -0.00067069 -0.0048926
-0.0052118 -0.0015385 -0.006206 0.0027256
-0.039306 0.026147 -0.33476 0.17486 -0.035941 0.035671 -0.00021546 -0.0062233
-0.012192 0.0070794 -0.0019652 -0.0064889
0.013021 -0.0047603 -0.035924 0.035772 -0.069481 0.28392 -0.0024101 0.0032116
-0.0026703 -0.005069 -0.0019862 0.00074346
-0.00066563 -0.0049447 -0.00025304 -0.0062675 -0.0024113 0.0032116 -0.20725 0.20077
-0.044983 -0.0060547 0.025076 0.016525
-0.0049001 -0.0016117 -0.012163 0.0072364 -0.0025844 -0.0052076 -0.045003 -0.0059674
-0.15839 0.055259 -0.045923 3.8834e-05
-0.0063241 0.0024999 -0.0021883 -0.0062704 -0.0019852 0.00062879 0.025117 0.016509
-0.045933 9.5319e-05 -0.25887 0.058459
800000000 -0.15904 0.22692 -0.022463 0.017085 0.0054696 -0.010534 -0.0047302 -0.001769
-0.0036819 0.0021162 0.0041557 -1.053e-05
-0.022398 0.017092 -0.33927 0.24528 -0.0080243 0.034326 -0.0025193 0.0021582
-0.00070967 0.0029829 0.0007061 0.0054161
0.0054912 -0.010518 -0.0079353 0.034417 -0.028837 0.307 0.00071416 0.0014554
0.00024708 0.0036342 -0.001866 0.00042214
-0.0047419 -0.0017995 -0.0025076 0.0021867 0.00074553 0.0014728 -0.17786 0.23028
-0.029052 0.014786 0.015159 -0.011082
-0.0037451 0.0022363 -0.00066971 0.0029545 0.00026924 0.0036739 -0.029038 0.014842
-0.20926 0.080719 -0.018281 0.020159
0.0042979 2.47e-06 0.00096463 0.0054156 -0.0015822 0.00052041 0.015373 -0.01106
-0.018486 0.020205 -0.25845 0.11289
860000000 -0.12439 0.24649 -0.017585 0.030855 -0.0032825 -0.010044 -0.0020903 0.00055959
0.003731 0.0048505 -0.004427 -0.0034489
-0.017616 0.030769 -0.29118 0.28706 0.0080952 0.034487 0.00011649 0.0020708
0.0043073 0.00021577 0.0031592 0.00083398
-0.0032427 -0.010035 0.0082087 0.034528 0.019225 0.31533 -0.00079494 -0.00010099
0.0028075 -0.0014421 0.0016088 0.0044056
-0.002162 0.00058852 8.7909e-05 0.0021344 -0.00081471 -0.00011626 -0.14053 0.24092
-0.018263 0.018804 -0.0069704 -0.0090474
0.0037462 0.0049414 0.0042377 0.0001925 0.0028301 -0.0013048 -0.018249 0.018849
-0.15731 0.13349 -0.028134 0.016806
-0.0043845 -0.0034612 0.0032483 0.00076733 0.001604 0.004447 -0.0071105 -0.0089864
-0.028046 0.016624 -0.20725 0.16394
920000000 -0.09974 0.26969 0.0051068 0.038101 -0.0095901 -0.0046445 -0.0015697 0.0018268
0.0012345 0.0017856 0.0024143 -0.0016099
0.0051416 0.038076 -0.26311 0.30847 0.028231 0.02204 0.0014179 0.0012677
0.0069572 -1.0909e-05 0.00406 -0.0030255
-0.0095896 -0.0046267 0.028327 0.021992 0.065339 0.31608 0.0019014 7.2081e-06
0.0011727 -0.00022394 0.00078368 -0.0013864
-0.0015005 0.0018899 0.0013983 0.0012056 0.0019223 3.6948e-06 -0.11673 0.25904
-0.010398 0.031919 0.0048913 -0.0069378
0.0013378 0.0017638 0.0070293 -8.695e-05 0.001248 -0.00018886 -0.010297 0.031964
-0.14804 0.14017 -0.0022727 0.028136
0.0023333 -0.0015751 0.0040078 -0.0030077 0.00076779 -0.0013962 0.0048495 -0.0069438
-0.0021777 0.028236 -0.22185 0.17852
980000000 -0.052204 0.28857 0.017464 0.030175 -0.0092821 0.0044934 0.0019449 0.0031435
0.0038342 -0.0014522 -0.0031606 -0.0023119
0.017454 0.030217 -0.21012 0.34285 0.033397 0.0048294 0.0020488 -5.6601e-05
0.0017146 -0.0057596 3.321e-05 -0.0025444
-0.0092637 0.004514 0.033419 0.0047365 0.11178 0.30981 0.00059866 -0.001309
0.00026907 -0.002134 0.0014496 -0.00032332
0.0018831 0.0031619 0.0020519 -6.0287e-05 0.00059096 -0.0012962 -0.077476 0.26941
0.0086664 0.031553 -0.0099505 -0.0083565
0.0036886 -0.0014197 0.0016511 -0.005853 0.00029954 -0.0021719 0.0087613 0.031546
-0.11862 0.17025 0.0042725 0.020686
-0.0032509 -0.0023373 -7.558e-06 -0.0025202 0.0014553 -0.00030755 -0.0098931 -0.0085233
0.0043265 0.02047 -0.17991 0.22985
1040000000 -0.010667 0.29763 0.033309 0.018195 -0.0013427 0.0071417 0.0024355 0.00067294
0.00026275 -0.0035522 -0.00025258 -0.0014621
0.033272 0.018218 -0.17457 0.35591 0.029746 -0.015026 0.0013898 -0.0018963
-0.0023874 -0.0026444 -0.0014168 -0.0027582
-0.0012901 0.0071158 0.029704 -0.015127 0.15805 0.29621 -0.00059164 -0.0017467
-0.0016135 -0.00099478 -0.00062668 -0.0010991
0.0024539 0.00064822 0.0013997 -0.0019283 -0.00056189 -0.0017507 -0.05006 0.27982
0.020957 0.019049 -0.0021712 0.00080456
0.00026886 -0.0035804 -0.0023763 -0.00257 -0.0016576 -0.00095579 0.020967 0.01902
-0.085882 0.17756 0.012794 0.020858
-0.00027394 -0.0013865 -0.001513 -0.0027288 -0.00074617 -0.0010456 -0.0021391 0.00082667
0.012865 0.020766 -0.16087 0.25231
1100000000 0.034395 0.30553 0.036028 -0.0041931 0.002861 0.0039548 0.002155 -0.0012568
-0.0020303 -0.0031013 -0.0040326 -0.00032927
0.03601 -0.0041775 -0.13126 0.37361 0.015194 -0.028216 -1.3232e-05 -0.0018731
-0.0034308 -0.00090209 -0.0036829 -0.00068659
0.002866 0.0039458 0.015097 -0.028305 0.20469 0.27591 -0.0020839 0.00012981
-0.0019135 0.00040781 -0.0011572 -0.00037198
0.0021381 -0.0012713 -1.2228e-05 -0.0018796 -0.0020717 0.00012406 -0.0090836 0.28498
0.026706 0.005166 -0.0030204 -0.00057618
-0.0020192 -0.0030624 -0.0034704 -0.00085092 -0.0018852 0.00040708 0.026744 0.0051496
-0.069653 0.19168 0.019868 0.0099413
-0.0041521 -0.00034392 -0.0037515 -0.00060229 -0.0011411 -0.00040836 -0.0030778 -0.00059506
0.019895 0.0098661 -0.11636 0.2885
1160000000 0.085857 0.30108 0.024117 -0.021048 0.0027972 -0.00043762 -0.00036785 -0.0021024
-0.0040229 -0.00077698 -0.0010801 0.0041977
0.024147 -0.021052 -0.087253 0.37791 -0.0039254 -0.02945 -0.0016733 -0.0017454
-0.0029378 0.0025343 -0.0016083 0.0019581
0.0028189 -0.00045054 -0.004072 -0.029451 0.24796 0.24481 -0.00085358 0.001834
-0.00063206 0.0020536 -0.0012071 0.00023064
-0.00042092 -0.002104 -0.0016575 -0.0017277 -0.00083047 0.0018372 0.030652 0.28158
0.022889 -0.011993 -0.0037667 0.0055494
-0.0040653 -0.00077647 -0.002911 0.0025454 -0.00063363 0.002081 0.022905 -0.012037
-0.035918 0.20171 0.019109 0.0017471
-0.00099547 0.0041438 -0.0015397 0.0019224 -0.0011817 0.00023266 -0.0038602 0.0054873
0.01915 0.0018413 -0.068015 0.29296
1220000000 0.13032 0.29012 0.010423 -0.03039 -0.0016335 -0.0008866 1.8829e-05 -0.00061233
-0.0028303 0.0024237 0.001126 0.0020537
0.010473 -0.03034 -0.042631 0.39025 -0.017274 -0.021317 -0.0025984 0.00046262
-4.3865e-05 0.0031484 -0.00087339 0.0019487
-0.0016118 -0.00088363 -0.017397 -0.021244 0.28695 0.2053 0.00081072 0.0018799
0.00065048 0.0014447 0.00043116 0.00080995
2.7931e-06 -0.0006146 -0.0025882 0.00047656 0.00080088 0.0018767 0.070749 0.27256
0.011456 -0.018988 0.0016522 0.0012305
-0.0028388 0.0024232 -4.2534e-05 0.0031654 0.00067547 0.0014589 0.01143 -0.01901
-0.013737 0.21176 0.015823 -0.012764
0.0012046 0.0020725 -0.0009474 0.0019859 0.00040422 0.00081216 0.0017072 0.0012219
0.015709 -0.01278 -0.038999 0.31506
1280000000 0.18036 0.26831 -0.0081523 -0.028797 -0.0018093 0.0025215 -0.00078578 -0.0018785
-0.00080284 0.0030946 0.0026479 0.0013208
-0.0081285 -0.028776 0.0037456 0.38116 -0.024109 -0.008357 -0.00098504 0.0013857
0.0016565 0.0019632 0.0007446 0.0022076
-0.0018217 0.0025004 -0.024192 -0.008255 0.31714 0.16124 0.0017237 6.8686e-05
0.0012221 0.00037371 0.00042516 0.00034217
-0.00080251 -0.0018542 -0.00096561 0.0013992 0.0017209 8.4234e-05 0.10764 0.25519
0.00093934 -0.021228 -0.00075937 0.00038389
-0.0007671 0.0031041 0.0017256 0.0019472 0.0012094 0.0003533 0.0008844 -0.021242
0.022877 0.21659 0.0036951 -0.015413
0.0027255 0.0013168 0.00076632 0.0021395 0.00040461 0.00029544 -0.00074705 0.00028904
0.0036506 -0.015429 0.011746 0.32087
1340000000 0.21761 0.23442 -0.018012 -0.018985 0.00089948 0.0045319 -0.0014145 -0.00091784
0.0014983 0.0028081 0.0018706 -0.0014409
-0.017998 -0.018971 0.043405 0.37259 -0.021802 0.0044881 -0.00018468 0.0020631
0.0020034 0.00090084 0.0014259 0.00080352
0.00092222 0.0045397 -0.021807 0.0046038 0.33884 0.11339 0.0013091 -0.0010126
0.00094031 -0.00055092 0.00028767 0.00040445
-0.0014184 -0.00091231 -0.0001765 0.0020419 0.0013095 -0.0010195 0.13934 0.23389
-0.0095911 -0.018376 0.00072094 0.00082293
0.0015069 0.0027733 0.0020195 0.00089085 0.00096437 -0.00055487 -0.0096418 -0.018354
0.052402 0.21216 -0.0028857 -0.014209
0.0018024 -0.0014175 0.0014835 0.00078509 0.00025283 0.0004052 0.00064556 0.00086681
-0.0028309 -0.014144 0.050396 0.3199
1400000000 0.25066 0.19618 -0.023707 -0.0072988 0.0052717 0.0030682 -0.002028 0.00040431
0.0023994 0.00095013 0.00044826 -0.0014217
-0.023686 -0.0073055 0.080654 0.35918 -0.014844 0.012718 0.001402 0.0013812
0.0013169 -0.00075268 0.0012703 0.00017834
0.0052759 0.0030312 -0.014802 0.012817 0.35152 0.060038 0.00023693 -0.0018848
0.00011122 -0.00053651 0.00042569 0.00027999
-0.0020411 0.00041813 0.0014059 0.0013777 0.00021776 -0.001875 0.16754 0.20473
-0.016101 -0.011025 -0.0011387 -9.0523e-05
0.002416 0.00093584 0.0012821 -0.00076733 0.00011555 -0.00057747 -0.016132 -0.010989
0.085291 0.20929 -0.009787 -0.0098648
0.00039043 -0.0014152 0.0013219 0.00020547 0.0004922 0.00025557 -0.0010909 -0.00010376
-0.0097488 -0.0098075 0.097777 0.31171
1460000000 0.27324 0.15193 -0.020555 0.0051527 0.0056759 -0.0018622 -0.0016323 0.0016626
0.0021565 -0.00040386 -0.00022074 -0.0011009
-0.020544 0.0051348 0.1145 0.33691 -0.0059621 0.015455 0.0017951 0.00026473
0.00093772 -0.0013759 0.0012654 -0.00077975
0.0056947 -0.0018995 -0.0058957 0.015512 0.35751 0.0060952 -0.0013997 -0.0015199
7.9419e-05 -0.00031214 0.00071699 -0.00059581
-0.0016335 0.0016769 0.0017961 0.00026282 -0.0014015 -0.0015368 0.19231 0.17579
-0.017866 -0.0033686 -0.00088416 0.0026999
0.0021586 -0.00040326 0.00094628 -0.0014034 0.00012551 -0.00029064 -0.017893 -0.0033436
0.11411 0.19497 -0.01184 -0.0032972
-0.0002507 -0.0011423 0.0012208 -0.0007608 0.00068689 -0.00051985 -0.00084744 0.0027301
-0.011878 -0.0032955 0.13227 0.2918
1520000000 0.28507 0.11014 -0.014701 0.010701 0.0033639 -0.0042005 9.1013e-06 0.0026647
0.0022586 -0.0017158 -0.0011004 -0.00022143
-0.014694 0.010676 0.14768 0.32217 0.0017548 0.013101 0.0018666 -0.00081735
5.1131e-05 -0.0011354 0.00036856 -0.0010406
0.003344 -0.0042061 0.0018396 0.013106 0.35088 -0.049743 -0.0013413 -0.00031889
0.00054901 -0.00083279 9.6345e-05 -0.00018336
1.0192e-05 0.0026642 0.00187 -0.00082328 -0.0013787 -0.00031318 0.21405 0.13914
-0.016883 0.0033718 0.0017817 0.0022721
0.0022395 -0.0017361 3.6661e-05 -0.0011133 0.00053579 -0.00081331 -0.016878 0.0034198
0.14164 0.18177 -0.012271 0.0011728
-0.0010945 -0.00023515 0.00034134 -0.0010647 7.4701e-05 -0.00026991 0.0017907 0.0022782
-0.01221 0.0011819 0.16783 0.27517
1580000000 0.29403 0.064069 -0.007817 0.013691 -0.00095783 -0.0049548 0.0014656 0.0020628
-7.2001e-05 -0.0021713 -0.00033116 0.00051695
-0.007821 0.013676 0.17451 0.29732 0.0053497 0.008203 0.00050815 -0.0018095
-0.00060361 -0.0011194 -0.00036978 -0.00078626
-0.00099482 -0.0049505 0.0053867 0.008179 0.33086 -0.10687 -0.0018145 0.00086829
-0.00044474 -0.0011234 4.1404e-05 -0.00062412
0.0014919 0.0020557 0.00048752 -0.0018174 -0.0018018 0.00085513 0.22683 0.10178
-0.012714 0.0090483 0.0026485 0.0009445
-9.2133e-05 -0.0021839 -0.00062454 -0.0011205 -0.00044233 -0.0011402 -0.012692 0.0090867
0.16599 0.16451 -0.0096968 0.0076748
-0.00033139 0.00049182 -0.0003854 -0.00081362 7.9675e-05 -0.00065837 0.0025989 0.00094558
-0.0097062 0.007699 0.20323 0.24947
1640000000 0.2959 0.023125 -0.00094017 0.012435 -0.0027134 -0.0025772 0.0028857 0.0010803
-0.00053231 -0.0016489 -0.00035559 0.00050749
-0.00094776 0.012403 0.20372 0.27277 0.0060288 0.0034164 -0.00078585 -0.0019089
-0.0010465 -0.00037792 -0.00049193 -0.00073256
-0.002743 -0.0025743 0.0060616 0.0033847 0.30298 -0.15618 -0.00053166 0.0016722
-0.0010302 -0.0011104 -0.00023904 -0.00036794
0.0028809 0.0010626 -0.00078986 -0.0018942 -0.00053968 0.001673 0.2389 0.055622
-0.0076264 0.010609 0.0028423 -0.00090403
-0.0005286 -0.0016853 -0.0010509 -0.00036665 -0.0010248 -0.0011376 -0.007611 0.010641
0.18769 0.14116 -0.0046562 0.0097961
-0.00036182 0.00048956 -0.00049916 -0.00074682 -0.00018815 -0.00035042 0.0028354 -0.00089891
-0.0046899 0.0098027 0.23039 0.21944
1700000000 0.28867 -0.021663 0.0024046 0.0093287 -0.0035218 7.0576e-05 0.0030569 -0.0014038
-0.00212 -0.00079982 0.00057596 0.00046301
0.0024055 0.0093253 0.22164 0.24155 0.003921 0.00057457 -0.0016332 -0.00060868
-0.00079582 0.00011113 -0.00093651 -0.00046278
-0.0035118 0.00010123 0.0039261 0.00054328 0.25963 -0.19602 0.00072893 0.0016197
-0.0019794 -0.00023035 -0.00047331 -0.00085176
0.0030635 -0.0014198 -0.0016385 -0.00060394 0.00071999 0.0016133 0.23702 0.0087584
-0.0041565 0.011167 0.0016538 -0.0025027
-0.0021234 -0.00078661 -0.00079188 0.00012353 -0.0020091 -0.00022181 -0.0041318 0.011189
0.20479 0.12201 0.00022887 0.010113
0.0006493 0.00047531 -0.00092057 -0.00043835 -0.00048635 -0.00085876 0.0016876 -0.0024907
0.00023147 0.010156 0.24965 0.18529
1760000000 0.27666 -0.069943 0.004518 0.0059393 -0.0023598 0.0011066 0.001227 -0.0035283
-0.0014707 0.00064811 0.00049561 -0.00073686
0.0044959 0.0059432 0.2475 0.20212 0.0014964 -0.0012435 -0.0012953 0.00030671
-0.00090681 0.00092547 -0.00050035 0.00041744
-0.0023518 0.0011582 0.0014836 -0.0012595 0.21049 -0.22988 0.0013949 0.00079575
-0.0010859 0.0015076 -0.0012558 -0.00060188
0.0011999 -0.0035452 -0.001295 0.00033796 0.0013961 0.00080015 0.23069 -0.040392
-0.00018534 0.010092 -0.000136 -0.002765
-0.0014516 0.00065314 -0.00090328 0.00093736 -0.0010835 0.0014855 -0.00015687 0.010101
0.21942 0.088313 0.0045133 0.0072548
0.00045281 -0.00077626 -0.00048309 0.00039956 -0.0012319 -0.0006185 -0.00017846 -0.0027938
0.0045662 0.0071875 0.26397 0.14833
1820000000 0.2524 -0.1069 0.0045261 0.0023388 -8.6744e-05 0.0025226 -0.0011924 -0.0031646
-0.0011899 0.00099841 -9.0055e-05 -3.605e-05
0.0045107 0.0023291 0.25781 0.17241 -0.00037532 -8.6522e-05 -0.0012066 0.0011269
0.0001003 0.001253 -0.00059819 0.00050237
-7.6906e-05 0.0025167 -0.00038163 -7.7753e-05 0.16082 -0.24536 0.0014385 0.00014713
-0.00015021 0.0024533 -0.0014147 0.00038657
-0.0012387 -0.0031377 -0.0012177 0.0011562 0.0014054 0.00016262 0.20434 -0.086925
0.0018537 0.0081335 -0.0017735 -0.0018863
-0.0011867 0.001027 9.579e-05 0.0012501 -0.00013559 0.0024344 0.0018649 0.0081216
0.23686 0.060784 0.0054079 0.0034968
-6.6449e-05 5.8534e-06 -0.00055995 0.00051022 -0.0014126 0.00028306 -0.0017589 -0.0017951
0.0054085 0.0035097 0.26875 0.11269
1880000000 0.21768 -0.1472 0.0022463 0.00018549 -0.00026933 0.0021099 -0.0030189 -0.0020714
-0.00017326 0.0018647 0.00019424 -0.00064774
0.0022568 0.00018424 0.26247 0.12605 -0.0023255 0.0016741 -6.5827e-05 0.0016848
0.00054744 0.0010302 9.2202e-05 0.00091886
-0.00027384 0.0020638 -0.0023125 0.0017045 0.10861 -0.25476 0.0014861 -0.00087352
0.0015931 0.0018907 -0.0010041 0.00138
-0.0030246 -0.0020789 -4.3617e-05 0.0016717 0.0015184 -0.00090417 0.1674 -0.12853
0.0028405 0.005626 -0.0027063 0.00030288
-9.2579e-05 0.0018511 0.00057383 0.001042 0.0016029 0.0019284 0.0028346 0.0056414
0.24024 0.029746 0.0056384 0.00092066
0.00026884 -0.00064281 0.00011508 0.00092353 -0.0010124 0.0014294 -0.0027031 0.0002421
0.0056225 0.00093458 0.27021 0.078052
1940000000 0.17881 -0.17311 -6.9987e-05 -0.0013593 0.001148 0.001893 -0.0035888 0.00061276
0.001453 0.0010962 -0.000818 -0.0005319
-7.8418e-05 -0.001354 0.26329 0.094278 -0.0011874 0.0037786 0.0010661 0.0012007
0.001657 0.00042762 0.00072836 0.00018604
0.0011705 0.0019304 -0.0011661 0.0037958 0.062509 -0.24849 0.0002515 -0.001798
0.0023445 0.00048883 0.00028684 0.0016186
-0.0036321 0.00065085 0.0010611 0.001219 0.00027441 -0.0018218 0.11708 -0.16191
0.0022679 0.0034374 -0.0015703 0.0016944
0.0014812 0.0010766 0.0016515 0.00039812 0.0023741 0.00050313 0.0022737 0.0034405
0.24358 -0.0081521 0.0041121 -0.002574
-0.00081071 -0.00057726 0.00075714 0.0001846 0.00025909 0.0017038 -0.0015876 0.001761
0.0040523 -0.0025895 0.26036 0.042364
2000000000 0.13253 -0.18837 -0.0037996 0.0007106 0.0023716 0.0018561 -0.0023347 0.0033526
0.0011213 -8.5802e-05 -0.00058727 0.00053994
-0.0037694 0.00070912 0.24941 0.058654 -0.0011063 0.0055516 0.0014529 0.00032729
0.0011821 -0.0013034 0.00043706 0.00025487
