!Keysight Technologies,M9804A,MY58100912,A.14.10.03
!Date: Thursday, April 27, 2023 10:28:33
!Correction: S11(C  6-Port  ) 
!S12(C  6-Port  ) 
!S13(C  6-Port  ) 
!S14(C  6-Port  ) 
!S15(C  6-Port  ) 
!S16(C  6-Port  ) 
!S21(C  6-Port  ) 
!S22(C  6-Port  ) 
!S23(C  6-Port  ) 
!S24(C  6-Port  ) 
!S25(C  6-Port  ) 
!S26(C  6-Port  ) 
!S31(C  6-Port  ) 
!S32(C  6-Port  ) 
!S33(C  6-Port  ) 
!S34(C  6-Port  ) 
!S35(C  6-Port  ) 
!S36(C  6-Port  ) 
!S41(C  6-Port  ) 
!S42(C  6-Port  ) 
!S43(C  6-Port  ) 
!S44(C  6-Port  ) 
!S45(C  6-Port  ) 
!S46(C  6-Port  ) 
!S51(C  6-Port  ) 
!S52(C  6-Port  ) 
!S53(C  6-Port  ) 
!S54(C  6-Port  ) 
!S55(C  6-Port  ) 
!S56(C  6-Port  ) 
!S61(C  6-Port  ) 
!S62(C  6-Port  ) 
!S63(C  6-Port  ) 
!S64(C  6-Port  ) 
!S65(C  6-Port  ) 
!S66(C  6-Port  ) 
!S6P File: Measurement: :
# Hz S  RI   R 50
500000000 -0.33755 -0.042403 -0.010074 -0.0026699 -0.0080661 0.012546 -0.0047573 0.011591
0.012346 0.0049301 -0.004367 0.0080504
-0.010074 -0.0025086 -0.41912 -0.054263 0.0079004 -0.010652 0.0014577 0.012508
0.0080304 0.0017991 0.0015257 0.013791
-0.0081053 0.012658 0.0077111 -0.010646 -0.26592 0.20819 0.0073875 0.0039648
-0.0021855 0.0074728 0.0013165 0.012346
-0.0049406 0.011997 0.0012786 0.012195 0.0074079 0.0040664 -0.33415 0.037738
-0.020363 -0.0065558 0.016561 0.028271
0.01278 0.0045894 0.0077949 0.0019332 -0.002645 0.0077109 -0.020454 -0.0067375
-0.21744 -0.20917 -0.027132 0.0054518
-0.0049778 0.008821 0.0014651 0.01338 0.0010553 0.012505 0.016495 0.028421
-0.027035 0.0055645 -0.25647 -0.16197
560000000 -0.31659 0.12007 -0.023968 -0.062757 -0.00041339 0.011988 0.005052 0.010736
0.010256 0.0049114 0.011184 0.0080048
-0.023987 -0.062527 -0.37811 0.10699 -0.040787 -0.037552 0.014001 0.0043973
-0.012268 -0.0046718 0.001957 -0.00047023
-0.00069574 0.011923 -0.041348 -0.038233 -0.18408 0.2571 -0.00039761 -0.0042057
0.019776 0.0059959 0.0072332 -0.0061321
0.0053062 0.011004 0.014246 0.0043647 -3.9682e-05 -0.0044063 -0.30947 0.12999
0.0038376 -0.022899 0.0048227 -0.021988
0.010007 0.0047252 -0.0126 -0.0044048 0.019214 0.0069893 0.0037324 -0.022906
-0.28776 -0.031333 0.010821 -0.050112
0.0119 0.0081586 0.0024798 -0.0003786 0.006923 -0.006468 0.0046844 -0.022336
0.010699 -0.049977 -0.32953 -0.0072294
620000000 -0.27622 0.10458 -0.023331 0.0082112 0.003266 0.0083303 0.0080554 -0.0051168
0.010805 0.00024981 0.0015158 -0.0027415
-0.023348 0.0081962 -0.40299 0.058141 -0.018352 9.5794e-05 -0.0010507 -0.0021049
0.011822 -0.0059818 0.0017185 -0.0033252
0.003225 0.0083096 -0.018416 0.00021997 -0.15431 0.26603 -0.0010673 -0.005247
-0.0024482 -0.0023998 0.0083078 -0.0037128
0.0080747 -0.0052004 -0.0012168 -0.001965 -0.00090445 -0.0051012 -0.2699 0.14142
-0.038843 -0.019152 0.012291 0.028798
0.010973 0.00063419 0.011608 -0.0059096 -0.0024484 -0.0026738 -0.038969 -0.019299
-0.20732 -0.070925 -0.043691 0.015381
0.00090145 -0.0026754 0.0016587 -0.0029595 0.0086512 -0.0031619 0.012664 0.028551
-0.043805 0.015215 -0.24739 -0.049122
680000000 -0.23552 0.19089 -0.027224 -0.014283 0.0047524 0.0051355 0.0019529 -0.0071803
-0.00284 -0.011116 0.0063082 -0.0070787
-0.027163 -0.014193 -0.38827 0.15644 -0.032488 -0.0016324 -0.0014724 -0.00065163
-0.001699 -0.0092389 -0.00080318 -0.0018682
0.0048011 0.005155 -0.032528 -0.0015179 -0.10245 0.28585 -0.00068158 -0.00056061
-0.0016655 0.00026944 -0.0027755 -0.0094115
0.0019784 -0.0067696 -0.0015087 -0.00050238 -0.00065825 -0.00059524 -0.22353 0.19429
-0.024144 -0.0065719 -0.010161 -0.01272
-0.0030032 -0.011072 -0.0017626 -0.0092245 -0.0015543 0.0002967 -0.024229 -0.0066425
-0.26102 0.030381 -0.0051249 -0.0088136
0.0059 -0.007359 -0.0012699 -0.0019145 -0.0025147 -0.0095516 -0.010246 -0.0129
-0.0052373 -0.0088438 -0.2633 0.061668
740000000 -0.19173 0.18507 -0.038893 0.026515 0.012505 -0.0049907 0.00015335 -0.0046064
-0.0035981 -0.0021345 -0.0063122 0.0021697
-0.038819 0.026538 -0.3353 0.17588 -0.035567 0.035061 -0.0010093 -0.0064666
-0.011337 0.0076979 -0.0021872 -0.0072626
0.012614 -0.0052263 -0.035531 0.035011 -0.068755 0.28412 -0.0023862 0.0028017
-0.002607 -0.005091 -0.0012842 -5.2138e-05
-0.00012645 -0.0044897 -0.00089225 -0.0064414 -0.0025308 0.0028291 -0.20689 0.20205
-0.044254 -0.0067255 0.024527 0.015865
-0.0032558 -0.0027289 -0.011322 0.0073437 -0.0027694 -0.0048765 -0.044265 -0.0066945
-0.15904 0.058796 -0.045898 -0.0011441
-0.0068162 0.0020861 -0.0022427 -0.0071056 -0.0015851 -0.00019952 0.024535 0.015827
-0.045916 -0.0012056 -0.25476 0.066862
800000000 -0.15893 0.22637 -0.022399 0.016642 0.005305 -0.010455 -0.0042488 -0.002142
-0.003552 0.0020925 0.0047281 0.00016417
-0.022444 0.016615 -0.33859 0.24564 -0.0079875 0.033853 -0.0023874 0.0023358
-0.00072236 0.0029046 0.001027 0.0053745
0.0052268 -0.010608 -0.0078418 0.033833 -0.028148 0.30718 0.00089235 0.0016886
2.5835e-05 0.0034637 -0.0017515 0.00086501
-0.0044187 -0.0022587 -0.0024001 0.0022369 0.0009072 0.001671 -0.17713 0.23084
-0.028494 0.014587 0.015353 -0.010619
-0.0038737 0.0021353 -0.00068865 0.0026941 0.00010317 0.0036333 -0.028387 0.014767
-0.20928 0.081795 -0.017678 0.019857
0.0048856 -0.00025821 0.0010023 0.0052472 -0.0016265 0.00081975 0.015525 -0.010757
-0.017623 0.019807 -0.25457 0.12024
860000000 -0.12384 0.24673 -0.017539 0.030546 -0.0032299 -0.0098061 -0.0021799 0.00075914
0.0040073 0.0046282 -0.0039082 -0.0031257
-0.017542 0.030502 -0.29092 0.28757 0.0076775 0.034087 -0.00015614 0.002256
0.0037607 0.00051041 0.0030647 0.00055341
-0.0032566 -0.0098251 0.0078259 0.03406 0.019855 0.31494 -0.0005576 8.0712e-05
0.002697 -0.0012454 0.0012814 0.0042583
-0.0021354 0.00083406 -0.00013904 0.0021438 -0.00060141 0.00011936 -0.13972 0.2418
-0.017702 0.019127 -0.0068828 -0.0088381
0.0040127 0.0045974 0.0038586 0.00028205 0.0028184 -0.0012163 -0.017614 0.019233
-0.15693 0.13497 -0.028052 0.01516
-0.0038354 -0.0033247 0.0030081 0.00044949 0.0012448 0.0041438 -0.0067242 -0.0089616
-0.027975 0.015257 -0.20242 0.16955
920000000 -0.099779 0.26968 0.0049352 0.037674 -0.0092795 -0.0044541 -0.0017754 0.0016309
0.00087124 0.0017995 0.002903 -0.0015366
0.0048936 0.037643 -0.26222 0.30874 0.027827 0.021906 0.0014061 0.0012041
0.0071747 -4.6871e-05 0.0040072 -0.002484
-0.009259 -0.0044453 0.027936 0.021826 0.065831 0.31548 0.0019721 9.3697e-05
0.0011179 -0.00021549 0.00082124 -0.00098616
-0.0017491 0.0016933 0.0013933 0.0011259 0.0019779 6.9663e-05 -0.11564 0.25836
-0.010795 0.031276 0.0047219 -0.0069437
0.00097504 0.0017721 0.0072204 -7.7042e-05 0.0011178 -0.00015122 -0.010825 0.031461
-0.14819 0.14065 -0.0027935 0.028265
0.0029526 -0.0015649 0.0040535 -0.0027047 0.000867 -0.0010557 0.0047735 -0.0070997
-0.0029596 0.028228 -0.2167 0.18365
980000000 -0.052137 0.2892 0.017334 0.030011 -0.0089467 0.0044948 0.0018957 0.0034522
0.0038797 -0.0013931 -0.0034895 -0.0023298
0.017311 0.029948 -0.20924 0.34288 0.032766 0.005044 0.0020245 4.5135e-05
0.0016585 -0.0058036 -0.00034583 -0.0024208
-0.0089513 0.0045391 0.03284 0.0049435 0.11191 0.309 0.00064079 -0.0011777
0.00040498 -0.0021844 0.0013583 -8.388e-05
0.0018996 0.0034566 0.0020242 3.052e-05 0.0006416 -0.0011753 -0.07669 0.26925
0.0082123 0.030627 -0.0095845 -0.0077873
0.0039444 -0.0012835 0.0016532 -0.0058487 0.00039592 -0.0021912 0.0082254 0.030724
-0.11743 0.17076 0.0047804 0.020202
-0.0034373 -0.0024301 -0.00040347 -0.0024603 0.0014268 -0.00011135 -0.0095981 -0.0078029
0.0046146 0.020161 -0.1751 0.23318
1040000000 -0.010255 0.29768 0.032973 0.018309 -0.0012407 0.0068317 0.0023346 0.00064134
0.00020787 -0.003772 -8.4409e-05 -0.0015392
0.032876 0.018314 -0.17371 0.35579 0.029279 -0.014534 0.0015361 -0.0016903
-0.0022292 -0.0026048 -0.0012111 -0.0027535
-0.0012416 0.0068578 0.029276 -0.014693 0.15771 0.2953 -0.00046557 -0.0016638
-0.0015344 -0.00097574 -0.00053199 -0.0011555
0.0023057 0.00074624 0.0014889 -0.0017009 -0.00048569 -0.0016511 -0.049524 0.27908
0.019995 0.018483 -0.0020526 0.0010558
0.00014388 -0.0037009 -0.0022652 -0.0024636 -0.0015596 -0.0010072 0.020015 0.018479
-0.084863 0.17855 0.013336 0.019603
-0.00017468 -0.0014978 -0.0012497 -0.00264 -0.00054504 -0.0011347 -0.0019541 0.001114
0.013257 0.019594 -0.156 0.25517
1100000000 0.035111 0.30566 0.035568 -0.0040087 0.0027732 0.0038162 0.0022418 -0.0011216
-0.0020127 -0.0031675 -0.0038875 5.8802e-05
0.035537 -0.004002 -0.13043 0.37294 0.01518 -0.027557 -4.4073e-05 -0.001782
-0.0033268 -0.0010756 -0.0036132 -0.00058035
0.0027765 0.0038327 0.015071 -0.027652 0.20372 0.27527 -0.0019637 0.00010323
-0.0018482 0.00033934 -0.0011642 -0.00029064
0.0022456 -0.0011278 -7.0559e-05 -0.0018095 -0.0019662 0.00010175 -0.0090903 0.28376
0.025629 0.0053076 -0.0028249 -0.00050727
-0.0020572 -0.0031484 -0.0033351 -0.00094661 -0.0018544 0.00037207 0.025657 0.0053251
-0.067642 0.19255 0.019527 0.0095121
-0.0039586 -4.308e-05 -0.0035026 -0.00071942 -0.0011956 -0.00033305 -0.0028079 -0.00053986
0.019522 0.0094878 -0.11028 0.28998
1160000000 0.086505 0.30067 0.023845 -0.020372 0.0026886 -0.00051086 -0.00032079 -0.0022683
-0.0041359 -0.00085661 -0.00094444 0.0041706
0.023833 -0.020327 -0.087071 0.37697 -0.0034424 -0.028946 -0.0016295 -0.001743
-0.0029737 0.0023313 -0.0014409 0.0019572
0.002689 -0.00050426 -0.0035648 -0.028953 0.24675 0.24478 -0.00086409 0.0018386
-0.00075257 0.0020045 -0.00092712 0.00027567
-0.00032498 -0.0022714 -0.0016297 -0.001763 -0.00085468 0.0018158 0.03018 0.28071
0.022308 -0.010774 -0.0035603 0.0051153
-0.004182 -0.000866 -0.0029607 0.002296 -0.00074204 0.001996 0.022315 -0.010819
-0.033894 0.20197 0.018755 0.0017134
-0.00096968 0.0042511 -0.0014123 0.0019473 -0.00092264 0.00026707 -0.00358 0.0051598
0.018754 0.0017247 -0.063156 0.29403
1220000000 0.13072 0.28963 0.010541 -0.029638 -0.0015876 -0.00080506 0.00011948 -0.00074696
-0.0027402 0.0023265 0.0012138 0.0020718
0.010537 -0.029606 -0.042903 0.38918 -0.016626 -0.021163 -0.0025349 0.00037699
-0.00022041 0.003053 -0.00085426 0.0019418
-0.0015973 -0.00079164 -0.016729 -0.021094 0.28598 0.20617 0.00074484 0.0018301
0.00055342 0.00139 0.0003859 0.00064868
0.00012074 -0.00075995 -0.0025278 0.00036452 0.0007416 0.0018186 0.069903 0.27209
0.011529 -0.017739 0.0017629 0.001257
-0.0026974 0.0023361 -0.00019561 0.0030456 0.00057392 0.0013813 0.011533 -0.017774
-0.01247 0.21125 0.015351 -0.012063
0.0012212 0.0021315 -0.00084511 0.0019472 0.00034478 0.00065029 0.0017619 0.0012898
0.015387 -0.012063 -0.032856 0.31465
1280000000 0.18035 0.26768 -0.007578 -0.028222 -0.0018269 0.0024333 -0.00074807 -0.0019947
-0.00086379 0.0030348 0.0024424 0.0013127
-0.007556 -0.028201 0.0027536 0.38042 -0.02346 -0.008712 -0.0011009 0.0013847
0.0015238 0.0019884 0.00062092 0.0022476
-0.0018206 0.0024559 -0.023529 -0.0086104 0.31689 0.16251 0.0017508 0.00018766
0.0012402 0.00041264 0.0004623 0.00028965
-0.00075604 -0.0020001 -0.0011292 0.0013887 0.0017513 0.00018727 0.10666 0.25524
0.0019145 -0.020282 -0.00054752 0.00025285
-0.00088074 0.0030484 0.0015592 0.0019884 0.001239 0.00042945 0.0018773 -0.020318
0.024046 0.21543 0.0039366 -0.014725
0.0024824 0.0014155 0.00053746 0.0022142 0.00048625 0.00031152 -0.0005475 0.00023034
0.0039639 -0.014713 0.016466 0.32023
1340000000 0.21722 0.23409 -0.017182 -0.018942 0.00088 0.0044682 -0.001599 -0.0009153
0.0014125 0.0027093 0.0018364 -0.0012642
-0.017153 -0.018959 0.042151 0.37264 -0.021566 0.0039295 -0.00027491 0.0020365
0.0019408 0.00099321 0.0013371 0.00081522
0.00088808 0.0044432 -0.021565 0.0040559 0.33921 0.11471 0.0013845 -0.00089427
0.00081095 -0.0005027 0.00026495 0.00030974
-0.0015754 -0.00090177 -0.00025683 0.002039 0.0013881 -0.00089208 0.13849 0.23469
-0.0082839 -0.017944 0.00081704 0.0007336
0.001417 0.0027379 0.0019326 0.0010053 0.00079592 -0.00051626 -0.0082874 -0.017924
0.052976 0.21133 -0.0024242 -0.013988
0.001864 -0.001374 0.0013885 0.00079472 0.00024494 0.00030593 0.00077067 0.0007239
-0.0024795 -0.013969 0.054514 0.31867
1400000000 0.25013 0.19618 -0.022995 -0.007667 0.005114 0.0030747 -0.0020671 0.00047502
0.0023193 0.00087993 0.00044861 -0.0013768
-0.022978 -0.0076798 0.079532 0.35988 -0.014935 0.01213 0.0013537 0.0015309
0.0012877 -0.00069365 0.0013238 0.00026809
0.0051307 0.003055 -0.014881 0.012209 0.35267 0.060834 0.00031557 -0.0018197
2.366e-05 -0.00044919 0.00039325 0.00022119
-0.0020197 0.00046044 0.0013675 0.0014937 0.00028712 -0.0018129 0.16727 0.20573
-0.01468 -0.01144 -0.001096 -0.00025848
0.002321 0.00089697 0.0012881 -0.00069897 3.0081e-05 -0.00047617 -0.014737 -0.011389
0.085243 0.20806 -0.0089681 -0.0095411
0.00052471 -0.0013474 0.0013373 0.00028371 0.00039344 0.00025387 -0.0010715 -0.00032719
-0.0089302 -0.0095584 0.10161 0.31
1460000000 0.273 0.15246 -0.020266 0.0043375 0.0055555 -0.0018289 -0.0016993 0.001662
0.0020805 -0.0003697 -0.00028092 -0.0010655
-0.020243 0.0043073 0.11396 0.33833 -0.0064074 0.015101 0.0018909 0.00024098
0.0010301 -0.0014334 0.001253 -0.00067351
0.0055314 -0.001851 -0.0063339 0.015153 0.35873 0.0062138 -0.0012754 -0.00154
0.00016371 -0.00034579 0.00058963 -0.00045591
-0.0017041 0.0016887 0.0018824 0.00021866 -0.0012985 -0.0015188 0.19249 0.17696
-0.016888 -0.004532 -0.00097309 0.0024497
0.0021129 -0.00039502 0.0010238 -0.0014317 0.00021414 -0.00035016 -0.016915 -0.0044759
0.11364 0.19435 -0.011257 -0.0035229
-0.00034367 -0.0010593 0.0012097 -0.00071006 0.00051895 -0.00045233 -0.00091909 0.0024866
-0.011269 -0.0035448 0.13608 0.29052
1520000000 0.28531 0.11092 -0.014831 0.0098801 0.0032689 -0.0041269 -1.8903e-05 0.002707
0.00223 -0.0015862 -0.0011421 -0.00028277
-0.014831 0.0098579 0.14783 0.32362 0.001288 0.013112 0.001836 -0.0008381
0.00010145 -0.0012363 0.00038822 -0.0010597
0.0032578 -0.0041475 0.0013615 0.013111 0.35184 -0.050174 -0.0013562 -0.00050415
0.0006054 -0.00089849 3.0566e-05 -0.00012756
-7.2321e-07 0.0027082 0.0018351 -0.00084459 -0.001373 -0.00050017 0.21473 0.14006
-0.016908 0.0019061 0.0015237 0.0023199
0.0022639 -0.0016134 9.7587e-05 -0.0012271 0.00060701 -0.0009039 -0.016906 0.0019613
0.1409 0.18148 -0.011852 0.00059738
-0.0011968 -0.00024555 0.00037304 -0.00099881 1.467e-06 -0.00013857 0.0015394 0.0023007
-0.011838 0.00060927 0.17142 0.27285
1580000000 0.29485 0.064725 -0.0083771 0.013117 -0.00096077 -0.0048283 0.0013977 0.0021006
-6.9527e-05 -0.0021099 -0.0004277 0.00048238
-0.0083666 0.013104 0.17539 0.2988 0.0049854 0.00843 0.00050625 -0.0017978
-0.00068125 -0.0012124 -0.00024397 -0.00081338
-0.00096988 -0.004819 0.0050248 0.0084272 0.33136 -0.10789 -0.0018219 0.00079759
-0.00029824 -0.0011285 8.38e-05 -0.0004737
0.0014035 0.0020897 0.00052394 -0.0017888 -0.0018415 0.00080248 0.22808 0.10241
-0.013565 0.0078784 0.0024869 0.0010922
-0.00010668 -0.0021137 -0.0006815 -0.0012123 -0.00032351 -0.001128 -0.01358 0.0079099
0.1652 0.16488 -0.0096445 0.0068784
-0.00041918 0.00048989 -0.00024363 -0.0007787 8.299e-05 -0.00053094 0.0024998 0.0010912
-0.0096546 0.0068595 0.2064 0.24661
1640000000 0.2972 0.023384 -0.0017245 0.012297 -0.0026783 -0.0025834 0.002888 0.0011307
-0.00050569 -0.0016442 -0.00029047 0.00066317
-0.0017308 0.012298 0.20517 0.27364 0.0058697 0.0036769 -0.00078316 -0.0018658
-0.0011894 -0.00042506 -0.00046426 -0.00074349
-0.0026917 -0.0025482 0.005901 0.0036573 0.30294 -0.15708 -0.00065193 0.0017312
-0.0010695 -0.0012265 -0.00011033 -0.00032576
0.0028847 0.0010803 -0.00078781 -0.0018658 -0.00066762 0.0017617 0.24049 0.055469
-0.0090259 0.010231 0.0027826 -0.00081924
-0.00048921 -0.0016334 -0.0011899 -0.00043467 -0.0010747 -0.0011718 -0.009005 0.010251
0.18747 0.14189 -0.0051874 0.0089714
-0.00028142 0.00057056 -0.00048418 -0.00075617 -5.753e-05 -0.00034984 0.0028041 -0.00086068
-0.0051846 0.0089928 0.23329 0.21654
1700000000 0.2899 -0.022284 0.0017899 0.0096347 -0.0034606 0.00012337 0.0031924 -0.0013261
-0.0020644 -0.00095881 0.00074771 0.00050091
0.0017727 0.0096189 0.22346 0.24175 0.0039939 0.00074827 -0.001629 -0.00060097
-0.00089797 0.00018125 -0.00093289 -0.000493
-0.0034511 0.00013104 0.0039982 0.00073852 0.2593 -0.19702 0.00076071 0.0017018
-0.0020272 -0.00024462 -0.00041429 -0.00081775
0.0031737 -0.0013267 -0.0016503 -0.00058775 0.00074791 0.0017204 0.23851 0.0077627
-0.0053979 0.011691 0.0017414 -0.002375
-0.0020969 -0.00094653 -0.00090805 0.00019343 -0.002035 -0.00025167 -0.0053774 0.011722
0.20507 0.12285 -0.00052961 0.0096471
0.00067123 0.00050841 -0.00094555 -0.0005007 -0.00044045 -0.00079765 0.0017268 -0.0023721
-0.00053265 0.009657 0.25174 0.18234
1760000000 0.27757 -0.071077 0.0042358 0.0064877 -0.0022429 0.0010003 0.0012844 -0.0035475
-0.0015788 0.00053471 0.00045887 -0.00064327
0.0042143 0.0064691 0.24931 0.20156 0.0017058 -0.0010407 -0.0012858 0.00029752
-0.00095934 0.0010843 -0.00060246 0.00038057
-0.0022302 0.0010003 0.0017083 -0.001029 0.20985 -0.22999 0.0014271 0.00098523
-0.0012228 0.0015473 -0.0012864 -0.00060997
0.0012435 -0.0035188 -0.0012668 0.00032455 0.0014312 0.0010158 0.23152 -0.042072
-0.00081784 0.011031 -0.00010067 -0.002678
-0.0016083 0.00056886 -0.0009612 0.0011064 -0.0012464 0.0015528 -0.00079385 0.011058
0.22018 0.089218 0.00372 0.0072643
0.00055007 -0.00060799 -0.00056744 0.00040471 -0.0012851 -0.00058672 -7.976e-05 -0.0027066
0.003708 0.007242 0.26541 0.14478
1820000000 0.25266 -0.10832 0.0045704 0.0028649 -5.4895e-05 0.0023905 -0.001125 -0.0031211
-0.0013675 0.00097069 1.6952e-05 -0.00013623
0.0045668 0.0028668 0.25919 0.17115 -0.00015056 -5.8584e-05 -0.0012281 0.0010759
0.00018043 0.0013714 -0.00059393 0.00057039
-3.9459e-05 0.0024277 -0.00014046 -4.9701e-05 0.16016 -0.24516 0.0015367 9.3653e-05
-0.00021426 0.0025208 -0.0013747 0.00027349
-0.0011446 -0.0031232 -0.0012619 0.0011076 0.0015176 7.7961e-05 0.20422 -0.088892
0.0017804 0.0090055 -0.0017363 -0.0017381
-0.0013564 0.00099285 0.0001572 0.0013714 -0.00023425 0.0025279 0.0018173 0.0090461
0.2381 0.0614 0.0047355 0.0038346
-5.3606e-05 -9.4796e-05 -0.00061743 0.00057743 -0.0013874 0.00031133 -0.0017473 -0.0016703
0.0047143 0.003824 0.26943 0.1095
1880000000 0.21724 -0.14876 0.0024587 0.00046 -0.00035961 0.0020125 -0.0030562 -0.0021876
-0.00023923 0.0019202 0.00017231 -0.00068698
0.0024505 0.00045252 0.26319 0.12434 -0.0022273 0.0016437 -5.9494e-05 0.0016485
0.00069913 0.0010403 0.00013395 0.0009318
-0.00032813 0.0019919 -0.0021947 0.0016488 0.10797 -0.25448 0.0015235 -0.0010552
0.0016769 0.0020504 -0.00098945 0.0014262
-0.003069 -0.0021842 -4.3934e-05 0.0016425 0.0015266 -0.0010301 0.16615 -0.13019
0.0033777 0.0062212 -0.0023911 0.00036767
-0.00025867 0.001906 0.00070925 0.0010523 0.0016462 0.0020494 0.0033716 0.0061756
0.24199 0.029881 0.0052053 0.0017656
0.00019632 -0.00074038 0.00014224 0.00094479 -0.0010378 0.001415 -0.0023899 0.00028196
0.0052216 0.0017726 0.27036 0.074916
1940000000 0.17755 -0.17433 0.00022703 -0.0013203 0.001225 0.0019881 -0.0036087 0.00062529
0.0014855 0.001161 -0.00079702 -0.00057153
0.00023279 -0.001325 0.26335 0.09252 -0.0010931 0.0038226 0.0010446 0.0012099
0.0017995 0.00026985 0.00086524 0.00027827
0.0012134 0.001955 -0.0010673 0.0038325 0.06224 -0.24792 0.00021235 -0.0018653
0.0025042 0.00035027 0.00033661 0.0017236
-0.0036126 0.00065252 0.0010538 0.0011988 0.00025632 -0.0018767 0.11542 -0.16274
0.0026007 0.0037716 -0.0016326 0.0014077
0.0014655 0.0011531 0.0017895 0.00023179 0.0025284 0.00035288 0.0026447 0.0037755
0.24522 -0.0087276 0.0040739 -0.0019984
-0.00089885 -0.00056789 0.00083244 0.00022724 0.00032655 0.0017255 -0.00158 0.0014663
0.0040673 -0.0019789 0.26081 0.039918
2000000000 0.13093 -0.18873 -0.003718 0.00063811 0.0023456 0.0018027 -0.0024706 0.0033024
0.001228 5.0043e-05 -0.00067604 0.00047611
-0.0036942 0.0006697 0.24871 0.057049 -0.0009542 0.0056204 0.0014666 0.00033219
0.0010676 -0.0013832 0.00048471 7.5031e-05
