!Keysight Technologies,M9804A,MY58100912,A.14.10.03
!Date: Thursday, April 27, 2023 10:28:33
!Correction: S11(C  6-Port  ) 
!S12(C  6-Port  ) 
!S13(C  6-Port  ) 
!S14(C  6-Port  ) 
!S15(C  6-Port  ) 
!S16(C  6-Port  ) 
!S21(C  6-Port  ) 
!S22(C  6-Port  ) 
!S23(C  6-Port  ) 
!S24(C  6-Port  ) 
!S25(C  6-Port  ) 
!S26(C  6-Port  ) 
!S31(C  6-Port  ) 
!S32(C  6-Port  ) 
!S33(C  6-Port  ) 
!S34(C  6-Port  ) 
!S35(C  6-Port  ) 
!S36(C  6-Port  ) 
!S41(C  6-Port  ) 
!S42(C  6-Port  ) 
!S43(C  6-Port  ) 
!S44(C  6-Port  ) 
!S45(C  6-Port  ) 
!S46(C  6-Port  ) 
!S51(C  6-Port  ) 
!S52(C  6-Port  ) 
!S53(C  6-Port  ) 
!S54(C  6-Port  ) 
!S55(C  6-Port  ) 
!S56(C  6-Port  ) 
!S61(C  6-Port  ) 
!S62(C  6-Port  ) 
!S63(C  6-Port  ) 
!S64(C  6-Port  ) 
!S65(C  6-Port  ) 
!S66(C  6-Port  ) 
!S6P File: Measurement: :
# Hz S  RI   R 50
500000000 -0.33752 -0.042584 -0.010036 -0.0028226 -0.0083981 0.012631 -0.0049277 0.012325
0.012459 0.0049072 -0.0051446 0.0086452
-0.0097893 -0.003 -0.41861 -0.055062 0.007757 -0.0103 0.0011259 0.01216
0.007545 0.0014875 0.0016775 0.01335
-0.0082005 0.012473 0.007776 -0.011015 -0.2659 0.20809 0.0072622 0.0039949
-0.002654 0.0074326 0.0011788 0.012383
-0.0052471 0.011597 0.0014539 0.012457 0.0072771 0.0039556 -0.33402 0.036908
-0.020123 -0.0065954 0.016207 0.026653
0.012112 0.0049629 0.0075305 0.0020024 -0.0026902 0.0075016 -0.020053 -0.00659
-0.21759 -0.2084 -0.02606 0.0059543
-0.0053554 0.0076685 0.0012487 0.013752 0.0011651 0.012364 0.016225 0.026703
-0.026165 0.0058369 -0.25787 -0.16145
560000000 -0.31717 0.11926 -0.024351 -0.063053 -0.00037106 0.011928 0.0055138 0.011132
0.010174 0.0048054 0.011957 0.0079954
-0.023559 -0.063114 -0.37561 0.10572 -0.040637 -0.037254 0.01398 0.0040476
-0.011782 -0.0040152 0.002399 0.00014302
-0.00053834 0.012392 -0.041486 -0.03705 -0.18436 0.25652 -2.0812e-06 -0.0039634
0.01927 0.0058923 0.0068132 -0.0058231
0.0053166 0.011369 0.014634 0.0041166 0.00012302 -0.0039999 -0.3099 0.12978
0.0044975 -0.022992 0.0045043 -0.02254
0.010287 0.0034878 -0.012966 -0.0046825 0.019303 0.0059334 0.0045392 -0.023056
-0.28986 -0.032501 0.0086651 -0.050753
0.012064 0.0082165 0.003201 -0.00010594 0.0068044 -0.0058604 0.0045296 -0.02254
0.0087028 -0.050739 -0.32892 -0.0061791
620000000 -0.27621 0.10463 -0.023723 0.0078581 0.0033909 0.0084741 0.0085413 -0.0047222
0.010911 0.00012164 0.0019313 -0.002492
-0.023478 0.0077746 -0.40285 0.057663 -0.018512 -0.00010646 -0.0012419 -0.0020507
0.011755 -0.0060861 0.0015823 -0.0032514
0.0037048 0.0087638 -0.018579 -2.442e-05 -0.15487 0.2655 -0.0011144 -0.0053673
-0.0026946 -0.0022649 0.008676 -0.0036017
0.0086554 -0.0042336 -0.0012932 -0.0019571 -0.0010805 -0.005364 -0.26918 0.14101
-0.040215 -0.019582 0.012638 0.028276
0.010231 -0.00090262 0.011711 -0.0062028 -0.0027379 -0.0022681 -0.040286 -0.01955
-0.2068 -0.069289 -0.043973 0.014247
0.0017777 -0.0017606 0.0016496 -0.0031436 0.0087889 -0.0035051 0.012633 0.02819
-0.043931 0.014071 -0.24713 -0.047308
680000000 -0.23639 0.19077 -0.027483 -0.01409 0.0048929 0.0052083 0.0020843 -0.0071677
-0.0028338 -0.011511 0.0057376 -0.0067751
-0.027331 -0.013963 -0.38831 0.15581 -0.032769 -0.001506 -0.0015187 -0.00041671
-0.0016917 -0.0089902 -0.0012106 -0.0017954
0.0047253 0.0054426 -0.032789 -0.0013935 -0.10289 0.28554 -0.00062537 -0.00050586
-0.0017874 0.0004049 -0.00303 -0.0094733
0.0017502 -0.0068122 -0.0014827 -0.00066205 -0.00060983 -0.00049992 -0.22372 0.19311
-0.024633 -0.0067038 -0.0099588 -0.01188
-0.0029846 -0.011328 -0.0016289 -0.0089007 -0.0017779 0.00041401 -0.024699 -0.006803
-0.2621 0.030461 -0.0057287 -0.0085808
0.0053496 -0.0071677 -0.0010097 -0.0020409 -0.0030373 -0.009481 -0.0099559 -0.011951
-0.0057248 -0.0085301 -0.26341 0.064757
740000000 -0.19169 0.18555 -0.038542 0.027295 0.012748 -0.005061 -7.7563e-05 -0.0045079
-0.003316 -0.0025795 -0.0064764 0.002341
-0.038526 0.026869 -0.33574 0.17485 -0.035737 0.035269 -0.0007142 -0.006196
-0.011845 0.0078403 -0.0018694 -0.0069123
0.012834 -0.0050955 -0.035583 0.035432 -0.069564 0.28351 -0.0023159 0.0028759
-0.0020394 -0.0051292 -0.0015611 -0.00011146
-0.00012371 -0.0045432 -0.00087535 -0.0061935 -0.0023375 0.0028835 -0.20712 0.20155
-0.044684 -0.006633 0.024289 0.016311
-0.0037173 -0.0029318 -0.011365 0.0082865 -0.0020466 -0.0051612 -0.044727 -0.0066091
-0.15816 0.059113 -0.045632 -0.00074539
-0.0060098 0.0024424 -0.0021542 -0.0068867 -0.0015682 -0.00021827 0.024342 0.016291
-0.045751 -0.00071138 -0.25532 0.069272
800000000 -0.15848 0.22618 -0.022257 0.016847 0.0055225 -0.010807 -0.0046733 -0.0021184
-0.0039541 0.0022387 0.0047752 -0.00055598
-0.022289 0.016904 -0.33894 0.2452 -0.0080052 0.034187 -0.0023346 0.0022257
-0.00075366 0.0028113 0.0012657 0.0052672
0.0054408 -0.010702 -0.0079552 0.034293 -0.028986 0.3071 0.00086909 0.001552
0.00033243 0.0034038 -0.0016987 0.0006292
-0.0043221 -0.0019062 -0.0023071 0.0022407 0.00086679 0.0015435 -0.17784 0.2303
-0.028971 0.014724 0.015296 -0.010812
-0.0041113 0.0018871 -0.00075765 0.0027842 0.00032933 0.0034211 -0.028964 0.014836
-0.20915 0.081691 -0.018165 0.019888
0.0053002 0.00046347 0.0011203 0.0054791 -0.0016601 0.00068081 0.015329 -0.010802
-0.018147 0.019782 -0.25332 0.12148
860000000 -0.1241 0.24645 -0.017551 0.030547 -0.0032868 -0.010199 -0.0020757 0.00072653
0.0040449 0.0045524 -0.0034396 -0.003365
-0.017473 0.030746 -0.2914 0.28709 0.0078358 0.034554 -4.9723e-05 0.0021533
0.0038178 0.00051478 0.0032542 0.00050791
-0.003253 -0.010158 0.0079692 0.034549 0.018904 0.31541 -0.00070656 -3.4001e-06
0.0025311 -0.0015071 0.0016982 0.0041059
-0.0019582 0.0010086 0.00011009 0.002219 -0.00071865 5.5928e-06 -0.14089 0.2413
-0.018308 0.019252 -0.0058795 -0.0092431
0.0041308 0.0046664 0.0041487 7.3699e-05 0.0025035 -0.0014978 -0.018271 0.019313
-0.15688 0.13439 -0.027433 0.015204
-0.0040845 -0.0032189 0.0029456 0.0005678 0.0017203 0.0040888 -0.0058575 -0.0092326
-0.027405 0.015178 -0.20105 0.17229
920000000 -0.10012 0.2696 0.0050229 0.037962 -0.0096075 -0.0047063 -0.0017539 0.0016349
0.00089185 0.0018773 0.0026744 -0.0016913
0.0049252 0.038044 -0.26307 0.30845 0.028336 0.022168 0.0013831 0.0011143
0.0071474 -0.0003475 0.0041284 -0.0027211
-0.0096179 -0.0046386 0.028477 0.022046 0.065298 0.31635 0.0019298 2.5357e-05
0.0011186 -0.00028592 0.00085349 -0.001055
-0.0017488 0.0017263 0.0014136 0.0011803 0.0019384 2.8432e-05 -0.11665 0.25868
-0.010682 0.032005 0.0044042 -0.0071254
0.00089735 0.0019602 0.0072128 -0.00028414 0.0011372 -0.00028587 -0.010625 0.032045
-0.14803 0.14095 -0.0026772 0.028583
0.003074 -0.0011736 0.0040883 -0.0025279 0.00082492 -0.0010667 0.004422 -0.0071139
-0.0026738 0.028569 -0.21533 0.18506
980000000 -0.052726 0.28906 0.017464 0.030235 -0.0092601 0.0045974 0.0018519 0.003328
0.0040363 -0.0013078 -0.0032929 -0.0022733
0.01744 0.030213 -0.21014 0.34255 0.033555 0.0049662 0.0020788 -6.7902e-05
0.0017344 -0.0059574 -0.00034561 -0.0025976
-0.0092728 0.0046042 0.033573 0.0048994 0.11172 0.30999 0.00064108 -0.0011447
0.00038709 -0.0022009 0.0013574 -0.00027006
0.0020538 0.0032121 0.0021991 -0.00013856 0.00064438 -0.0011457 -0.077468 0.26978
0.0088029 0.031578 -0.009161 -0.0081702
0.0040352 -0.001176 0.0016551 -0.0061431 0.00036756 -0.0022009 0.008838 0.031605
-0.11733 0.17113 0.0046894 0.020524
-0.0032003 -0.0022007 -0.00053168 -0.0025511 0.001386 -0.00029733 -0.0091498 -0.0081207
0.0046562 0.020533 -0.17324 0.23459
1040000000 -0.010707 0.29761 0.033446 0.018263 -0.0014249 0.0071032 0.0023951 0.0006093
0.00014241 -0.0035383 -0.00015611 -0.001353
0.033455 0.018349 -0.1746 0.35604 0.029794 -0.015103 0.0014673 -0.0017997
-0.0024574 -0.0026881 -0.0013868 -0.0027006
-0.0014413 0.0070907 0.029765 -0.015247 0.15803 0.29648 -0.00046432 -0.0016941
-0.0015844 -0.00095863 -0.00054514 -0.0010316
0.0023907 0.00066074 0.0015165 -0.0017455 -0.00046784 -0.0016924 -0.049919 0.28003
0.021103 0.0191 -0.0020662 0.00082836
7.1998e-05 -0.0033376 -0.0025311 -0.0026035 -0.0015914 -0.00095447 0.021154 0.01908
-0.085022 0.17877 0.013533 0.019875
1.0502e-06 -0.0014549 -0.0015265 -0.0027337 -0.00057796 -0.001057 -0.0020461 0.00080975
0.013527 0.019858 -0.15396 0.25698
1100000000 0.034666 0.30578 0.036207 -0.0042526 0.0028915 0.0040021 0.0021412 -0.0012196
-0.0019735 -0.0032033 -0.0039934 8.3937e-05
0.036156 -0.004232 -0.13129 0.37361 0.015281 -0.028401 -0.00011217 -0.001803
-0.0034714 -0.00087077 -0.0036417 -0.00042569
0.002871 0.0039693 0.015137 -0.028495 0.20478 0.27611 -0.002017 0.00015922
-0.001938 0.0004482 -0.0011539 -0.00049725
0.0021303 -0.0011659 -6.4267e-05 -0.0017968 -0.0020202 0.00015346 -0.0089833 0.28494
0.026901 0.005093 -0.0028107 -0.00052094
-0.0019575 -0.0031529 -0.0034516 -0.00085063 -0.0019262 0.0004509 0.026915 0.0050636
-0.06785 0.19305 0.019761 0.0097486
-0.0040627 9.6125e-05 -0.0035895 -0.00035709 -0.0011592 -0.00049598 -0.0028247 -0.00050122
0.019725 0.0097722 -0.1091 0.29091
1160000000 0.08591 0.30111 0.024131 -0.021118 0.0028489 -0.00046323 -0.00041899 -0.0022199
-0.0041998 -0.00085333 -0.00097905 0.0041763
0.024121 -0.021086 -0.087563 0.37815 -0.0039063 -0.0296 -0.0017248 -0.0017169
-0.0029487 0.0024612 -0.0014712 0.0019332
0.0028424 -0.00055582 -0.0040606 -0.02961 0.24814 0.24487 -0.00081035 0.0018647
-0.00074401 0.002107 -0.0011274 0.00038146
-0.00049424 -0.0022506 -0.0016729 -0.0017006 -0.00080155 0.0018687 0.030914 0.28186
0.023174 -0.011806 -0.0036231 0.0051337
-0.0041776 -0.00091316 -0.0029595 0.0025383 -0.00072906 0.0021078 0.023176 -0.011833
-0.034337 0.20272 0.019415 0.0013472
-0.00081489 0.0040223 -0.0014264 0.0021027 -0.001129 0.00036765 -0.0036096 0.0051242
0.019391 0.0013666 -0.061514 0.29541
1220000000 0.13039 0.29018 0.010405 -0.030517 -0.0015855 -0.00091081 6.1876e-05 -0.00068066
-0.0027885 0.0023573 0.0013362 0.0021188
0.010414 -0.030479 -0.042553 0.39045 -0.017372 -0.021402 -0.0025592 0.0004418
-8.0047e-05 0.0030732 -0.0008189 0.0020087
-0.0015941 -0.00093887 -0.017492 -0.021399 0.28716 0.20535 0.00082827 0.0018364
0.00061214 0.0013507 0.00035877 0.00072133
1.0579e-05 -0.00065925 -0.002589 0.00050988 0.00082704 0.0018307 0.071216 0.27273
0.011534 -0.019296 0.0017553 0.0013169
-0.0028759 0.0022693 -9.5141e-05 0.0030709 0.00061989 0.0013694 0.011499 -0.019304
-0.012533 0.21239 0.015605 -0.012903
0.0012826 0.0020752 -0.00085532 0.0019795 0.00035837 0.00072908 0.001762 0.001317
0.015579 -0.012886 -0.031205 0.3158
1280000000 0.18042 0.26829 -0.0082844 -0.02892 -0.0018999 0.0024382 -0.00075796 -0.0019002
-0.00091456 0.0031165 0.0024642 0.0012675
-0.008257 -0.028852 0.0038566 0.38128 -0.024239 -0.0083907 -0.00097646 0.0014571
0.0016877 0.0018691 0.00066475 0.0021785
-0.0018752 0.0024562 -0.02428 -0.0082895 0.31739 0.16107 0.0017827 0.00011544
0.0012109 0.0003322 0.00040051 0.00035791
-0.00070927 -0.0019155 -0.00099938 0.0015057 0.001769 0.00012385 0.10817 0.25507
0.001048 -0.021626 -0.00068684 0.00028407
-0.00090371 0.0031238 0.0017132 0.00184 0.0012053 0.00033616 0.0009905 -0.021634
0.024413 0.21711 0.0039614 -0.015659
0.0024462 0.0012037 0.00071161 0.0021563 0.00039234 0.0003348 -0.00068827 0.00028871
0.0039755 -0.015635 0.018256 0.32071
1340000000 0.21766 0.23458 -0.018132 -0.019013 0.00086933 0.0045309 -0.0015044 -0.0008963
0.0014106 0.0028083 0.0018447 -0.0013905
-0.018119 -0.018992 0.043507 0.37259 -0.021851 0.0045792 -0.00015207 0.0020408
0.0019377 0.00086292 0.0014262 0.00077626
0.00086672 0.0045525 -0.021871 0.0046525 0.33864 0.11319 0.0013262 -0.00097845
0.00082689 -0.00057628 0.00023338 0.00043336
-0.0015351 -0.00086918 -0.00012715 0.0020865 0.0013326 -0.00097487 0.13957 0.23381
-0.0097628 -0.018514 0.00055743 0.00092133
0.0013765 0.0027499 0.0019447 0.00085366 0.00083525 -0.00056298 -0.0098103 -0.018492
0.053866 0.21289 -0.0030976 -0.014455
0.0017397 -0.0013677 0.0014129 0.00077401 0.00024685 0.00041394 0.0005743 0.00092382
-0.0030824 -0.014461 0.056677 0.31862
1400000000 0.2507 0.19606 -0.023852 -0.0071848 0.0052456 0.0031622 -0.0020694 0.0004585
0.0024176 0.00096426 0.00040758 -0.0013554
-0.023825 -0.0071918 0.080862 0.359 -0.01481 0.012809 0.00135 0.0013951
0.0012227 -0.00080079 0.00132 0.00022168
0.0052405 0.0031865 -0.014766 0.012886 0.35145 0.060137 0.0002085 -0.0018929
4.2719e-05 -0.00048506 0.00054483 0.0002546
-0.0020385 0.00048811 0.001347 0.0013883 0.00020332 -0.0018881 0.16781 0.20442
-0.016391 -0.010961 -0.0010432 -0.00012403
0.0023981 0.00094828 0.0011882 -0.00082839 3.9407e-05 -0.00049748 -0.016417 -0.010934
0.086877 0.20916 -0.0099787 -0.0097222
0.00039729 -0.0013095 0.0013116 0.00023821 0.00055623 0.00026863 -0.0010343 -0.00011514
-0.0099598 -0.009743 0.10376 0.30967
1460000000 0.27318 0.15184 -0.02057 0.0052189 0.005756 -0.0018728 -0.0016363 0.0016633
0.0022764 -0.00049342 -0.00028983 -0.0010044
-0.020586 0.005239 0.11457 0.33671 -0.0059029 0.015582 0.0018256 0.00021479
0.00092996 -0.0014054 0.0011661 -0.00067479
0.0057315 -0.0018582 -0.0058343 0.015635 0.35736 0.006491 -0.0014915 -0.0014906
0.00013591 -0.00039584 0.00066233 -0.00039239
-0.0016201 0.0016369 0.0018317 0.000196 -0.0014856 -0.0014889 0.19235 0.17546
-0.018 -0.0031384 -0.00071658 0.0025952
0.0022335 -0.00051021 0.00091296 -0.0014049 0.00013694 -0.00037808 -0.018019 -0.0030951
0.11568 0.19472 -0.012279 -0.0031827
-0.00022707 -0.0009885 0.0011065 -0.00068022 0.00066035 -0.00039634 -0.00069836 0.0025921
-0.012278 -0.0031953 0.13802 0.2898
1520000000 0.28505 0.11012 -0.014702 0.01081 0.0033723 -0.0042017 4.3533e-05 0.0026747
0.0022631 -0.0017362 -0.0011137 -0.00018781
-0.014674 0.010787 0.14758 0.32191 0.0018298 0.013127 0.0018026 -0.00082311
-2.0586e-07 -0.0011246 0.00034033 -0.001044
0.0033414 -0.0042632 0.001907 0.013126 0.35066 -0.049388 -0.001312 -0.00037467
0.00060155 -0.00090968 6.452e-05 -0.00013485
1.6837e-05 0.0026553 0.0017918 -0.00083055 -0.0013115 -0.00037825 0.21404 0.13873
-0.017019 0.0037173 0.0018144 0.0023983
0.0022475 -0.0017546 -1.2634e-06 -0.0010932 0.00060624 -0.00091163 -0.017028 0.003772
0.14304 0.18128 -0.012496 0.0014368
-0.0011625 -0.00018884 0.00034553 -0.0010183 4.9319e-05 -0.00013462 0.001818 0.0023767
-0.012506 0.0014232 0.17286 0.27192
1580000000 0.29387 0.064149 -0.0077084 0.013815 -0.00097944 -0.0050176 0.0014326 0.0020506
-0.00017872 -0.0021857 -0.00031222 0.00043014
-0.007717 0.013818 0.17429 0.29716 0.0053628 0.0081615 0.00052724 -0.0017433
-0.00066287 -0.0010705 -0.00030697 -0.00075228
-0.0010238 -0.0050074 0.0054036 0.0081393 0.33078 -0.10693 -0.001759 0.00089471
-0.00031856 -0.0011379 9.3871e-05 -0.00056799
0.0014633 0.0020548 0.00049677 -0.00175 -0.0017671 0.00089677 0.22664 0.10142
-0.012619 0.009431 0.0027047 0.00096381
-0.00024538 -0.0021998 -0.00069328 -0.0010676 -0.00032594 -0.0011415 -0.012606 0.0094565
0.16715 0.16391 -0.009787 0.0077663
-0.000293 0.00045584 -0.00031764 -0.00075517 9.3546e-05 -0.00056096 0.0027066 0.00094977
-0.0097753 0.0077555 0.2074 0.24565
1640000000 0.29566 0.023398 -0.00082914 0.012429 -0.0027451 -0.0026474 0.0029212 0.0010331
-0.00064683 -0.0016544 -0.00021682 0.00047936
-0.00084344 0.0124 0.20334 0.27261 0.0060016 0.0033652 -0.00075394 -0.0018675
-0.0010494 -0.00033936 -0.00047439 -0.00070573
-0.0027881 -0.0026384 0.0060549 0.0033498 0.30267 -0.15586 -0.00055385 0.0016678
-0.0010022 -0.0010822 -0.00016066 -0.00045708
0.0029554 0.0010216 -0.00076864 -0.0018616 -0.00055813 0.0016735 0.23856 0.055386
-0.0074379 0.010813 0.0028516 -0.00098438
-0.00064144 -0.0015984 -0.0010641 -0.00032933 -0.0010098 -0.0010795 -0.0074191 0.010832
0.18887 0.14035 -0.0047005 0.0098745
-0.00029023 0.00061496 -0.00049372 -0.0006833 -0.00016283 -0.00045946 0.0028406 -0.00098708
-0.0047242 0.0098861 0.23395 0.21555
1700000000 0.28856 -0.021437 0.002544 0.0092607 -0.0035694 3.3973e-05 0.0031567 -0.0013668
-0.0021483 -0.00081787 0.00063047 0.00040868
0.0025234 0.0092527 0.22124 0.2415 0.0039554 0.00043621 -0.0016229 -0.00059148
-0.00074888 0.000119 -0.00090455 -0.00047421
-0.0036377 8.9261e-05 0.0039373 0.00043003 0.25986 -0.19582 0.0007539 0.0016447
-0.0019831 -0.00021907 -0.000396 -0.00081015
0.0031693 -0.0013855 -0.0016251 -0.00058329 0.00075942 0.0016323 0.23667 0.0087106
-0.0039125 0.01124 0.0017016 -0.0025003
-0.002176 -0.00079814 -0.00076382 0.00013796 -0.001982 -0.00022366 -0.0038965 0.011253
0.20578 0.12088 0.0002781 0.010135
0.00068792 0.00034829 -0.00092138 -0.00045688 -0.0003749 -0.00083037 0.0017103 -0.0024981
0.00028217 0.010124 0.25244 0.18145
1760000000 0.2766 -0.069471 0.0045321 0.0057881 -0.0023562 0.0009731 0.0011817 -0.003559
-0.0014946 0.00071407 0.00039346 -0.00059106
0.0045168 0.0057976 0.24707 0.20217 0.0015738 -0.0013598 -0.0013074 0.00031435
-0.00089627 0.0009302 -0.0005278 0.00037236
-0.0023472 0.00097784 0.0015356 -0.0014026 0.21133 -0.22953 0.0013431 0.00088675
-0.0011812 0.0014732 -0.0013681 -0.00061384
0.0011342 -0.003573 -0.0013204 0.00032408 0.0013432 0.00088754 0.2302 -0.040203
-1.2016e-05 0.0099291 -9.8504e-05 -0.0028323
-0.001544 0.00066241 -0.00090686 0.00093539 -0.0011858 0.0014687 7.8404e-07 0.0099311
0.22003 0.087139 0.004519 0.0074215
0.00037339 -0.00046107 -0.00052606 0.00036166 -0.0013736 -0.00059908 -9.6247e-05 -0.0028381
0.004529 0.0074247 0.26625 0.14401
1820000000 0.25251 -0.10653 0.0044932 0.0023045 -5.919e-05 0.0025543 -0.0011958 -0.0030815
-0.0012615 0.0010384 -7.7182e-05 -5.343e-05
0.0045074 0.0022795 0.25736 0.17266 -0.00045237 -6.4219e-05 -0.0011906 0.0011318
5.9198e-05 0.0012239 -0.00058893 0.00049721
-7.484e-05 0.0025361 -0.00043537 -5.4038e-05 0.16079 -0.24505 0.001487 0.00024344
-0.00024356 0.0024598 -0.0015286 0.0002163
-0.0011687 -0.0030594 -0.0011859 0.0011543 0.0014901 0.00023836 0.20412 -0.086573
0.0018442 0.0078549 -0.0016765 -0.0019274
-0.0012453 0.0011326 6.5947e-05 0.0012323 -0.00025599 0.0024587 0.001852 0.0078574
0.23723 0.059727 0.0055525 0.0036096
-8.2248e-05 -3.269e-05 -0.00060495 0.00050599 -0.0015168 0.00022318 -0.0016814 -0.0019035
0.0055404 0.003613 0.27017 0.10858
1880000000 0.21798 -0.14683 0.0021778 0.0001478 -0.00030032 0.0022219 -0.0030279 -0.0020172
-0.00019454 0.001838 0.0002513 -0.00061324
0.0021711 0.00015168 0.26216 0.12642 -0.0024545 0.0016928 -4.004e-05 0.0016474
0.00052552 0.0010484 9.5685e-05 0.00093534
-0.00035502 0.0022114 -0.0024613 0.0017011 0.10854 -0.25502 0.001561 -0.00097448
0.0015383 0.0019824 -0.0010875 0.0014656
-0.0030162 -0.0020505 -2.7372e-05 0.001668 0.0015574 -0.00099035 0.16735 -0.12794
0.0027962 0.0054092 -0.002653 0.00019925
-0.00015396 0.0018029 0.0005439 0.0010294 0.0015278 0.0019812 0.0028066 0.0054196
0.24053 0.02867 0.0056671 0.0011671
0.00020137 -0.00060712 0.00012655 0.00098859 -0.0010999 0.0014706 -0.0026389 0.00020993
0.0056642 0.0011584 0.27111 0.073836
1940000000 0.17906 -0.17272 -0.00011029 -0.0013662 0.0014287 0.0018386 -0.0035832 0.00071121
0.0014435 0.0011238 -0.0007851 -0.0006104
-0.00015213 -0.0013549 0.26307 0.09474 -0.0011792 0.0039471 0.0010684 0.0012019
0.0016702 0.00040897 0.00090476 0.00028792
0.001422 0.0017602 -0.0011461 0.0039625 0.06253 -0.24813 0.0003273 -0.0018459
0.0025165 0.00035156 0.00044103 0.0019092
-0.0035324 0.00070455 0.0010967 0.001213 0.00031938 -0.0018679 0.11751 -0.16158
0.0020799 0.003467 -0.0017099 0.0014608
0.0014644 0.0010893 0.0016659 0.00040106 0.0025075 0.00033904 0.0020857 0.0034631
0.24355 -0.0089766 0.0042378 -0.0027202
-0.00071837 -0.00054462 0.00086099 0.00023942 0.00042117 0.001888 -0.0017136 0.0014546
0.0042483 -0.0027235 0.26129 0.038616
2000000000 0.13284 -0.18821 -0.003737 0.00068984 0.0025131 0.0016793 -0.0022091 0.003316
0.0012294 3.0399e-05 -0.00073249 0.00043416
-0.0037818 0.00066721 0.24941 0.059133 -0.00098645 0.0057602 0.0014924 0.00038042
0.0011283 -0.0011863 0.00043885 4.9944e-05
