!Keysight Technologies,M9804A,MY58100912,A.14.10.03
!Date: Thursday, April 27, 2023 10:28:33
!Correction: S11(C  6-Port  ) 
!S12(C  6-Port  ) 
!S13(C  6-Port  ) 
!S14(C  6-Port  ) 
!S15(C  6-Port  ) 
!S16(C  6-Port  ) 
!S21(C  6-Port  ) 
!S22(C  6-Port  ) 
!S23(C  6-Port  ) 
!S24(C  6-Port  ) 
!S25(C  6-Port  ) 
!S26(C  6-Port  ) 
!S31(C  6-Port  ) 
!S32(C  6-Port  ) 
!S33(C  6-Port  ) 
!S34(C  6-Port  ) 
!S35(C  6-Port  ) 
!S36(C  6-Port  ) 
!S41(C  6-Port  ) 
!S42(C  6-Port  ) 
!S43(C  6-Port  ) 
!S44(C  6-Port  ) 
!S45(C  6-Port  ) 
!S46(C  6-Port  ) 
!S51(C  6-Port  ) 
!S52(C  6-Port  ) 
!S53(C  6-Port  ) 
!S54(C  6-Port  ) 
!S55(C  6-Port  ) 
!S56(C  6-Port  ) 
!S61(C  6-Port  ) 
!S62(C  6-Port  ) 
!S63(C  6-Port  ) 
!S64(C  6-Port  ) 
!S65(C  6-Port  ) 
!S66(C  6-Port  ) 
!S6P File: Measurement: :
# Hz S  RI   R 50
500000000 -0.33735 -0.043286 -0.0099584 -0.0021079 -0.0080066 0.013262 -0.0047736 0.012168
0.011794 0.0039451 -0.0062577 0.0087653
-0.0099271 -0.0022639 -0.41831 -0.055052 0.0079106 -0.011279 0.00158 0.012845
0.0064159 0.0016515 0.00092053 0.014467
-0.0077969 0.013085 0.0079602 -0.011606 -0.26634 0.20719 0.0071708 0.0037161
-0.0025637 0.0083014 0.0010021 0.012604
-0.0047092 0.012353 0.0019538 0.012973 0.0071346 0.0035825 -0.33241 0.036728
-0.021895 -0.0060029 0.018868 0.028301
0.012083 0.0042146 0.0063357 0.0021163 -0.0024082 0.0084297 -0.021662 -0.0058159
-0.21642 -0.21178 -0.029452 0.0056438
-0.0057688 0.0093473 0.0014098 0.014783 0.00069112 0.01237 0.018753 0.028625
-0.029269 0.0055086 -0.25182 -0.17111
560000000 -0.31878 0.12126 -0.023896 -0.062781 0.00039722 0.01296 0.005377 0.011967
0.011252 0.0044699 0.012153 0.0076736
-0.024007 -0.063179 -0.3753 0.10404 -0.041044 -0.036765 0.014491 0.0032483
-0.014288 -0.0048181 0.0043523 -0.0018672
0.00075383 0.013165 -0.0408 -0.036735 -0.18474 0.25642 0.00035149 -0.0043806
0.019322 0.0050779 0.0068279 -0.0055828
0.0059569 0.011454 0.014338 0.0030072 0.00038517 -0.0041223 -0.30964 0.12873
0.0045323 -0.023849 0.0053048 -0.022223
0.011485 0.0045002 -0.013868 -0.0044447 0.019463 0.0051714 0.0046428 -0.024271
-0.2884 -0.035315 0.0097379 -0.051025
0.01226 0.0078976 0.0036595 -0.0011509 0.00688 -0.0060102 0.0051287 -0.021873
0.009616 -0.050947 -0.32874 -0.015116
620000000 -0.27706 0.10226 -0.023115 0.0082351 0.00315 0.0090307 0.008073 -0.0049019
0.011378 0.00066056 0.0014174 -0.0015924
-0.023025 0.0081932 -0.40294 0.057241 -0.018706 -0.00011815 -0.00096162 -0.0022157
0.011333 -0.0053923 0.0014916 -0.0026201
0.0032346 0.0091755 -0.018644 3.2383e-05 -0.15486 0.26601 -0.00095586 -0.0057366
-0.0032895 -0.0020853 0.0082703 -0.0033927
0.0074768 -0.0046393 -0.0012514 -0.0022758 -0.00095175 -0.0056604 -0.26995 0.13993
-0.039151 -0.019359 0.012328 0.028689
0.011659 0.00045971 0.01156 -0.0053399 -0.0033739 -0.0020461 -0.039364 -0.019301
-0.20631 -0.071554 -0.044713 0.015817
0.0011353 -0.0011727 0.001642 -0.0026762 0.0086283 -0.0032716 0.012388 0.028167
-0.044559 0.016396 -0.24587 -0.058789
680000000 -0.23635 0.19175 -0.027346 -0.013781 0.0054986 0.0055944 0.002209 -0.0071582
-0.0030657 -0.011458 0.0067129 -0.0065878
-0.0272 -0.01366 -0.38876 0.15582 -0.032812 -0.001476 -0.0013339 -0.00024297
-0.0018321 -0.0092608 -0.00097684 -0.0018177
0.0054968 0.005665 -0.032827 -0.0015321 -0.10247 0.28551 -0.00074244 -0.0003877
-0.0018035 0.00051917 -0.002639 -0.0095817
0.0023193 -0.007376 -0.0013204 -0.00027006 -0.00068869 -0.00041862 -0.22448 0.19281
-0.024183 -0.0066755 -0.0099417 -0.012541
-0.0033262 -0.011425 -0.0018988 -0.0091877 -0.0017662 0.00064547 -0.024423 -0.0065989
-0.26123 0.028489 -0.0048856 -0.0075719
0.0066388 -0.0067694 -0.0011328 -0.0017841 -0.0026083 -0.0095731 -0.0101 -0.012759
-0.0047221 -0.0075925 -0.26389 0.054911
740000000 -0.19201 0.18564 -0.039631 0.026611 0.013196 -0.0046496 -0.00042607 -0.0048568
-0.0050454 -0.0018557 -0.0069246 0.0031899
-0.039458 0.026542 -0.33477 0.17454 -0.035887 0.035738 -0.00067088 -0.0063792
-0.012527 0.0068682 -0.0017437 -0.0067688
0.01318 -0.0047789 -0.035862 0.035789 -0.069637 0.28413 -0.0023303 0.0031496
-0.0022679 -0.0050408 -0.0018641 0.00035163
-0.00064693 -0.0046244 -0.00062406 -0.0063829 -0.0023588 0.0030501 -0.20717 0.20089
-0.045074 -0.0063728 0.024549 0.016373
-0.0050804 -0.002147 -0.012754 0.0071774 -0.0018092 -0.0053302 -0.045145 -0.0061062
-0.15808 0.054799 -0.046888 0.00039378
-0.0070368 0.0032667 -0.0018135 -0.0068353 -0.0018582 0.00041719 0.024914 0.016352
-0.046454 0.00066676 -0.2576 0.057495
800000000 -0.15918 0.22654 -0.022404 0.016974 0.0055219 -0.010604 -0.0046468 -0.0017156
-0.0041583 0.0023428 0.0042354 -0.00010795
-0.022321 0.016939 -0.33934 0.24497 -0.007904 0.034225 -0.0023915 0.0021379
-0.00071307 0.0027639 0.0010536 0.0053906
0.0054627 -0.010563 -0.0078803 0.034298 -0.028797 0.30696 0.00089903 0.0014772
-2.3991e-05 0.0035443 -0.0014975 0.00038608
-0.0046753 -0.0017939 -0.0023701 0.0021185 0.00092233 0.001536 -0.17811 0.23037
-0.028813 0.01476 0.01533 -0.010912
-0.00401 0.0024157 -0.00091333 0.0028594 0.00014323 0.0036167 -0.028915 0.014895
-0.20972 0.080453 -0.018131 0.020362
0.0042514 -0.00020621 0.0011322 0.0051915 -0.0015885 0.00045536 0.015223 -0.010764
-0.018056 0.020048 -0.2589 0.11315
860000000 -0.12443 0.2465 -0.017448 0.030692 -0.0031757 -0.0099911 -0.0021303 0.00061566
0.0039245 0.0042207 -0.0045135 -0.0031886
-0.01757 0.030709 -0.29118 0.28699 0.0080997 0.034517 0.00030953 0.002282
0.0047262 0.00016759 0.0032033 0.00091207
-0.003209 -0.0099403 0.0081769 0.034474 0.01919 0.31537 -0.00077531 -0.00010044
0.0027496 -0.0015758 0.0014237 0.0045472
-0.0023328 0.00067722 0.00027534 0.0021325 -0.00077662 -0.00012948 -0.14046 0.24093
-0.017976 0.019102 -0.0070471 -0.0095159
0.0039554 0.0043615 0.0045838 6.7345e-05 0.0027411 -0.0014687 -0.017941 0.019007
-0.15707 0.13272 -0.027867 0.016824
-0.004399 -0.0028935 0.0032574 0.00091547 0.0013451 0.0044408 -0.0069953 -0.0094944
-0.028083 0.016781 -0.2077 0.16334
920000000 -0.099959 0.26931 0.0050394 0.038082 -0.0096859 -0.0046732 -0.001723 0.0017075
0.00098431 0.002061 0.0026354 -0.0018327
0.0049109 0.038152 -0.26334 0.30849 0.028169 0.022107 0.0013223 0.0011152
0.0070814 2.9746e-05 0.0039727 -0.0031889
-0.0097462 -0.0046379 0.028262 0.021985 0.065229 0.31612 0.0019127 5.8727e-05
0.0012348 -0.00015571 0.00079017 -0.0015492
-0.0016071 0.0017124 0.0014697 0.0010889 0.0018754 1.1595e-05 -0.11684 0.25906
-0.010457 0.031867 0.0049554 -0.0068664
0.00098996 0.0020685 0.0070529 -3.0843e-05 0.0011977 -8.1688e-05 -0.010371 0.032057
-0.14783 0.14049 -0.0027861 0.028515
0.0027793 -0.0017466 0.0040225 -0.0031229 0.00080679 -0.0014694 0.004941 -0.0069745
-0.003018 0.028481 -0.22212 0.17827
980000000 -0.052445 0.28887 0.017447 0.03022 -0.0092675 0.0045997 0.0019139 0.0031962
0.0040316 -0.0015226 -0.0033001 -0.0021183
0.017403 0.030183 -0.21004 0.34292 0.033424 0.0048478 0.0020891 -0.00013026
0.0016542 -0.0058265 -0.00012532 -0.0025148
-0.0092293 0.0046273 0.033485 0.0047641 0.11177 0.30981 0.00063457 -0.0012508
0.00043257 -0.0021856 0.0014242 -0.00016957
0.0020448 0.0031038 0.0021614 -6.9832e-05 0.0006495 -0.0012975 -0.077352 0.26933
0.0087281 0.031476 -0.0099195 -0.0082547
0.004055 -0.0015115 0.0017309 -0.0058282 0.0004206 -0.0021597 0.0088211 0.031558
-0.11887 0.1698 0.004499 0.02042
-0.0032411 -0.002047 -8.1948e-05 -0.0025571 0.0014628 -0.00019994 -0.0097881 -0.0083733
0.0043652 0.020466 -0.18087 0.22971
1040000000 -0.010856 0.29754 0.03335 0.01823 -0.0013591 0.0071135 0.0024163 0.00065686
0.00022339 -0.0035158 -0.00015477 -0.0014748
0.033304 0.018164 -0.17455 0.35595 0.029678 -0.015033 0.0015502 -0.001946
-0.0023418 -0.0026336 -0.0013399 -0.0027544
-0.0013404 0.0071039 0.029644 -0.015084 0.15802 0.29621 -0.00053537 -0.0017317
-0.0016807 -0.0008668 -0.00066548 -0.001201
0.0024324 0.00063709 0.0014859 -0.0018955 -0.00054536 -0.0017319 -0.050208 0.27987
0.020776 0.019002 -0.0020961 0.00092292
0.00011908 -0.0035341 -0.0023384 -0.0026484 -0.0016522 -0.00093708 0.020766 0.018999
-0.086164 0.17785 0.013302 0.020925
-0.00019887 -0.0014446 -0.0014641 -0.0027017 -0.00068609 -0.0012212 -0.0021056 0.00096156
0.013243 0.020848 -0.16115 0.2518
1100000000 0.034535 0.30554 0.03607 -0.0042383 0.0029018 0.0039761 0.0021708 -0.0012586
-0.0019606 -0.003222 -0.0041307 -0.00024305
0.036063 -0.0041878 -0.13125 0.37354 0.015207 -0.02826 -7.7659e-05 -0.0018044
-0.0034062 -0.00096378 -0.0036761 -0.00057816
0.0028916 0.0039475 0.015105 -0.02834 0.20467 0.27593 -0.0020532 0.0002269
-0.001895 0.00037302 -0.0011018 -0.00025795
0.0021721 -0.0012851 -2.1545e-05 -0.0018006 -0.0020777 0.000185 -0.0091104 0.28478
0.026584 0.0051177 -0.0029764 -0.00066047
-0.0019266 -0.0032027 -0.0034448 -0.00094907 -0.0018826 0.00036589 0.026663 0.0050578
-0.06978 0.19141 0.02005 0.010171
-0.0041359 -0.00017435 -0.0036905 -0.00053054 -0.0011823 -0.00035681 -0.0029172 -0.0006082
0.019981 0.010104 -0.11664 0.28788
1160000000 0.085708 0.30116 0.02416 -0.021 0.0028093 -0.00047215 -0.00046671 -0.0020921
-0.0042066 -0.00082678 -0.0011403 0.0040078
0.024128 -0.020947 -0.087298 0.37792 -0.0039286 -0.029506 -0.0015994 -0.0016853
-0.0029035 0.0025031 -0.0017956 0.0018059
0.002788 -0.00048001 -0.0040457 -0.029556 0.24794 0.2448 -0.0008986 0.0018572
-0.00065456 0.0021157 -0.0012468 0.00028115
-0.00042316 -0.002107 -0.0016147 -0.0017548 -0.00085894 0.0018551 0.030506 0.28155
0.023025 -0.012011 -0.0037803 0.0054499
-0.0041368 -0.00078633 -0.0029311 0.0024376 -0.00066415 0.0021146 0.023002 -0.012056
-0.035682 0.20182 0.019092 0.0017089
-0.001014 0.0040698 -0.0016523 0.0019288 -0.001206 0.00019525 -0.0037767 0.0054218
0.019042 0.0016647 -0.06778 0.29361
1220000000 0.13031 0.29006 0.010475 -0.030438 -0.0016022 -0.00089743 1.1312e-05 -0.00064991
-0.0028301 0.0023517 0.0011878 0.0021636
0.010451 -0.030409 -0.042655 0.39023 -0.017252 -0.021297 -0.0026119 0.00044497
-8.8891e-05 0.0031464 -0.00092263 0.0020317
-0.0016213 -0.00088227 -0.017372 -0.021263 0.28692 0.20535 0.00078438 0.0018701
0.00068541 0.0014255 0.00045197 0.00075175
5.8654e-06 -0.00065878 -0.0026366 0.00046316 0.00080533 0.0018601 0.070721 0.27252
0.011425 -0.019126 0.0016586 0.0012882
-0.0027873 0.0023902 -5.8343e-05 0.003167 0.00069218 0.0014333 0.011353 -0.019089
-0.013604 0.21166 0.015778 -0.012805
0.0012049 0.0021813 -0.00099345 0.0020193 0.00040199 0.00077176 0.001662 0.0012952
0.015757 -0.012773 -0.039167 0.31509
1280000000 0.18039 0.26847 -0.008106 -0.028829 -0.0017993 0.0025182 -0.00081073 -0.0018612
-0.00079147 0.0030963 0.0026315 0.0012988
-0.0080553 -0.028752 0.0036706 0.38116 -0.024129 -0.0083777 -0.00095486 0.0013882
0.0017145 0.0019735 0.0006954 0.0021764
-0.0017988 0.0025217 -0.024192 -0.0082829 0.31717 0.16128 0.0017299 6.3864e-05
0.0012882 0.00036947 0.00043497 0.00035071
-0.00080657 -0.0018222 -0.0009198 0.0014167 0.001718 5.4065e-05 0.10766 0.25511
0.0009826 -0.021414 -0.00066064 0.00039597
-0.00079037 0.0030724 0.0017699 0.0019895 0.0012481 0.00034041 0.00097194 -0.021431
0.022842 0.21648 0.003801 -0.015428
0.0026679 0.0012523 0.00070113 0.0021582 0.00041124 0.00040069 -0.00066838 0.00038821
0.0038671 -0.015463 0.010994 0.32112
1340000000 0.21753 0.23438 -0.018024 -0.018952 0.00090053 0.0045212 -0.0014255 -0.00093468
0.0015201 0.0027969 0.0019083 -0.0014292
-0.017999 -0.018968 0.043351 0.37261 -0.021809 0.0044893 -0.00020833 0.0019928
0.0020402 0.00086997 0.0014265 0.00081307
0.00089173 0.0045104 -0.021818 0.004626 0.33884 0.11344 0.0013373 -0.0010518
0.00093943 -0.0005625 0.00031097 0.00038998
-0.0014581 -0.00092887 -0.000182 0.0020393 0.0013369 -0.0010394 0.1393 0.23403
-0.0097152 -0.018383 0.00060486 0.00080437
0.0015859 0.0027725 0.0020413 0.00086135 0.00092584 -0.00053787 -0.0097367 -0.018387
0.05234 0.21218 -0.0029079 -0.014208
0.001878 -0.0014306 0.0014445 0.00082132 0.00030231 0.00037212 0.00060277 0.00075467
-0.0029164 -0.014236 0.050352 0.31986
1400000000 0.25062 0.19627 -0.02373 -0.0072978 0.005228 0.0031141 -0.0020669 0.00045303
0.0024345 0.00095605 0.00047501 -0.0014147
-0.023687 -0.0073201 0.080633 0.35923 -0.014811 0.012749 0.001418 0.0013923
0.0012654 -0.00071981 0.0013196 0.00020072
0.0052369 0.0030441 -0.014772 0.01283 0.35148 0.06 0.00021189 -0.0018361
9.7345e-05 -0.00047218 0.00035292 0.000255
-0.0020474 0.00045736 0.0014175 0.0013572 0.00021471 -0.0018509 0.16754 0.20475
-0.016129 -0.010923 -0.0011095 -5.7986e-05
0.0024827 0.00095012 0.0012953 -0.00077327 0.00011424 -0.00048884 -0.016205 -0.010876
0.085191 0.20902 -0.0096454 -0.009769
0.00049229 -0.0014138 0.0013212 0.00013215 0.00038748 0.00026918 -0.0011468 -4.7677e-05
-0.0096316 -0.0098071 0.097759 0.31176
1460000000 0.27321 0.15179 -0.020564 0.0051352 0.0056613 -0.0019091 -0.0016207 0.0016476
0.0021646 -0.00035645 -0.00027744 -0.0011575
-0.020545 0.0051295 0.11446 0.33691 -0.0059382 0.015442 0.0017809 0.00025592
0.00093564 -0.0014059 0.0012846 -0.00076602
0.0056674 -0.0018941 -0.0058903 0.015489 0.35744 0.0060749 -0.0014771 -0.0015105
0.00016175 -0.00033064 0.00071608 -0.00049369
-0.001641 0.0016287 0.0017776 0.00026551 -0.001445 -0.0014927 0.19234 0.17588
-0.017843 -0.0033283 -0.0007858 0.0026747
0.002133 -0.00034976 0.00093759 -0.0013863 0.00011224 -0.00032146 -0.01788 -0.003279
0.11395 0.19491 -0.011916 -0.0031898
-0.00025637 -0.0011617 0.0012717 -0.00080608 0.00071313 -0.00049465 -0.00078328 0.0026891
-0.011931 -0.003188 0.13186 0.29225
1520000000 0.28512 0.11024 -0.014741 0.010673 0.0033945 -0.0041813 -4.5959e-05 0.0026865
0.0022066 -0.0017211 -0.0010955 -0.0002469
-0.014727 0.010658 0.14766 0.32217 0.0017865 0.013101 0.001865 -0.000819
1.9274e-05 -0.0011063 0.00032453 -0.0010447
0.0033619 -0.0042039 0.001871 0.013102 0.35083 -0.049754 -0.0013532 -0.00035091
0.00054707 -0.00088243 0.00013665 -0.00034066
7.5276e-06 0.0026858 0.0018283 -0.00084067 -0.0013523 -0.00037071 0.21407 0.13914
-0.016912 0.0035144 0.0017856 0.0023533
0.0021978 -0.0017127 2.9775e-05 -0.001122 0.00053823 -0.00085726 -0.016923 0.0035544
0.14153 0.18174 -0.012275 0.0011756
-0.0011239 -0.00024277 0.00036866 -0.0010476 0.00013243 -0.00029237 0.0017461 0.0023163
-0.012268 0.0011609 0.16769 0.27517
1580000000 0.29409 0.063983 -0.0077928 0.013715 -0.00097172 -0.0049016 0.0015118 0.0020401
-0.00012516 -0.0021682 -0.00044024 0.00047154
-0.0078213 0.013721 0.17448 0.29736 0.0052986 0.0081985 0.00050413 -0.0017964
-0.00058791 -0.0011568 -0.00032201 -0.00077823
-0.0010207 -0.0048918 0.0053767 0.0082051 0.33068 -0.10695 -0.0017803 0.00088694
-0.00044362 -0.0011488 9.1834e-05 -0.00061609
0.0014913 0.0020059 0.00050061 -0.0018182 -0.0017873 0.00090143 0.22683 0.10173
-0.012705 0.0090982 0.0026395 0.00090056
-0.00012437 -0.002223 -0.00061974 -0.0011703 -0.00044111 -0.0011177 -0.012723 0.0091392
0.16573 0.16465 -0.0098032 0.0076447
-0.00041411 0.000449 -0.00033556 -0.00080126 5.6785e-05 -0.00059319 0.002667 0.00091175
-0.0098169 0.0076721 0.2031 0.24943
1640000000 0.29596 0.023179 -0.00095512 0.012432 -0.0027165 -0.0026403 0.0028514 0.0010935
-0.00060013 -0.0017171 -0.00026012 0.00053841
-0.0009642 0.012402 0.20371 0.27278 0.0060631 0.0034138 -0.00076829 -0.0019073
-0.0010419 -0.00037293 -0.00049985 -0.00074616
-0.0027175 -0.0025955 0.0060654 0.0033697 0.30312 -0.15619 -0.00049382 0.0017151
-0.0010643 -0.0010788 -0.00015816 -0.00043955
0.002873 0.0010779 -0.00078458 -0.0019045 -0.00055845 0.0016806 0.23887 0.055615
-0.0075873 0.010627 0.0028256 -0.00092025
-0.00061698 -0.0017041 -0.0010559 -0.00033877 -0.0010994 -0.0011448 -0.0075769 0.01066
0.18754 0.14128 -0.0046045 0.0097827
-0.00028522 0.00051176 -0.00051281 -0.00072129 -0.00016616 -0.00044225 0.0028697 -0.00093916
-0.0046196 0.0097868 0.23028 0.21959
1700000000 0.28861 -0.021686 0.0024256 0.0093475 -0.0034778 0.00010323 0.0031465 -0.0013883
-0.0021155 -0.00076906 0.00070401 0.00042998
0.0024186 0.0093175 0.22162 0.24156 0.003913 0.00059057 -0.0016545 -0.00059052
-0.00076611 8.667e-05 -0.00090028 -0.00043361
-0.003514 7.4063e-05 0.0039428 0.0005664 0.25956 -0.19596 0.00076767 0.0017117
-0.0020718 -0.00025542 -0.00039316 -0.00087978
0.0031116 -0.0014043 -0.001656 -0.00056452 0.00074629 0.0016668 0.23703 0.0086926
-0.0040988 0.011072 0.0017249 -0.0023862
-0.0021212 -0.00074575 -0.00078993 0.00012109 -0.0020849 -0.00023458 -0.0040861 0.011084
0.20474 0.12206 0.00019117 0.0102
0.0006529 0.00041079 -0.00091339 -0.00045239 -0.00042895 -0.00082236 0.0016852 -0.0023712
0.00015768 0.010196 0.24972 0.18514
1760000000 0.27666 -0.069939 0.0045169 0.0059322 -0.0023657 0.0011176 0.0011836 -0.0035616
-0.0014755 0.00068434 0.00048258 -0.00069462
0.0045076 0.0059316 0.24753 0.20217 0.0015182 -0.0012686 -0.0012884 0.00032659
-0.00091474 0.00092887 -0.00054395 0.00041973
-0.0023342 0.0011189 0.0015445 -0.0012621 0.21071 -0.22983 0.0014313 0.00081607
-0.001097 0.0014915 -0.0013526 -0.00057185
0.0011781 -0.0035038 -0.0012999 0.00033318 0.0014145 0.00082181 0.23065 -0.040368
-0.00021658 0.010035 -9.1104e-05 -0.0028451
-0.0014758 0.00067719 -0.00090267 0.00096057 -0.0010999 0.0015634 -0.00021874 0.010038
0.21932 0.088526 0.0046348 0.0073271
0.00046126 -0.00069835 -0.00052103 0.000432 -0.0013998 -0.00054857 -0.00011113 -0.0028779
0.0046414 0.0073162 0.26376 0.14853
1820000000 0.25244 -0.10684 0.0045598 0.002307 -5.0922e-05 0.0025798 -0.0012139 -0.0030841
-0.0012432 0.0010267 -8.015e-05 -0.00015259
0.0045363 0.0023142 0.25781 0.17244 -0.00038582 -5.187e-05 -0.001286 0.0011637
6.5509e-05 0.0012132 -0.00048794 0.00047096
-5.2604e-07 0.0024459 -0.00037159 -2.5644e-05 0.16075 -0.24524 0.001502 0.00020903
-0.00012109 0.002482 -0.0014423 0.00024346
-0.0012293 -0.0030822 -0.0012597 0.0011928 0.0014865 0.00020963 0.20432 -0.086822
0.0018034 0.0080248 -0.0018333 -0.0019013
-0.0012216 0.0010429 0.00010164 0.0012061 -0.00015165 0.0025046 0.0018126 0.0080478
0.23694 0.060949 0.00529 0.0034766
-6.2932e-05 -0.00010564 -0.00051239 0.00046777 -0.0014698 0.00020974 -0.0017895 -0.0019377
0.0053168 0.0034618 0.26888 0.11276
1880000000 0.2177 -0.14712 0.0022556 0.00021082 -0.00035615 0.0019891 -0.0029645 -0.002168
-0.00015665 0.0018415 0.00029035 -0.00057434
0.0022466 0.00021813 0.26247 0.12607 -0.0023335 0.0016422 -4.0263e-05 0.0016226
0.00054216 0.0010657 7.2851e-05 0.00094689
-0.00021713 0.0020069 -0.0023247 0.0017099 0.10864 -0.25484 0.0015154 -0.0009018
0.0016068 0.0018554 -0.0010039 0.0014193
-0.003012 -0.0021668 -3.1077e-05 0.0016234 0.0014717 -0.00092076 0.16742 -0.1285
0.0027926 0.0056073 -0.0026885 0.00029178
-0.00010833 0.0018874 0.00057174 0.0010534 0.0015824 0.0019046 0.0028056 0.0055754
0.24019 0.029726 0.0056318 0.0010277
0.00025115 -0.0005926 0.00010917 0.00093029 -0.0009447 0.0014027 -0.0026295 0.00030757
0.0056527 0.0010802 0.27012 0.07809
1940000000 0.17883 -0.17312 -6.9483e-05 -0.0013836 0.0011702 0.0018772 -0.0035298 0.00069761
0.0015461 0.0011034 -0.00072524 -0.00056737
-3.7348e-05 -0.001342 0.26327 0.094324 -0.0011273 0.0037311 0.0010753 0.0012844
0.0017136 0.00042498 0.00078161 0.00018982
0.0012423 0.0019552 -0.0011028 0.0037305 0.062669 -0.24856 0.00028918 -0.0017619
0.002412 0.00042914 0.0002928 0.0016801
-0.0035469 0.00068876 0.0011088 0.0012481 0.00030112 -0.0017667 0.11709 -0.16197
0.0022395 0.003455 -0.0016193 0.0015568
0.0015221 0.0010346 0.0016997 0.00040237 0.0024112 0.00044557 0.0022431 0.0034769
0.24366 -0.0079986 0.0041615 -0.0026737
-0.00073477 -0.00059025 0.00078308 0.00018941 0.00028286 0.0016573 -0.001613 0.0016288
0.0041844 -0.002666 0.26051 0.042636
2000000000 0.13249 -0.18826 -0.0037436 0.00070941 0.0024275 0.0018103 -0.0022684 0.0034141
0.0010852 2.7871e-05 -0.00071719 0.00063061
-0.003778 0.00071973 0.24942 0.058673 -0.0010567 0.0055638 0.0014934 0.00031094
0.0011722 -0.0012319 0.0003549 0.00019893
