!Keysight Technologies,M9804A,MY58100912,A.14.10.03
!Date: Thursday, April 27, 2023 10:28:33
!Correction: S11(C  6-Port  ) 
!S12(C  6-Port  ) 
!S13(C  6-Port  ) 
!S14(C  6-Port  ) 
!S15(C  6-Port  ) 
!S16(C  6-Port  ) 
!S21(C  6-Port  ) 
!S22(C  6-Port  ) 
!S23(C  6-Port  ) 
!S24(C  6-Port  ) 
!S25(C  6-Port  ) 
!S26(C  6-Port  ) 
!S31(C  6-Port  ) 
!S32(C  6-Port  ) 
!S33(C  6-Port  ) 
!S34(C  6-Port  ) 
!S35(C  6-Port  ) 
!S36(C  6-Port  ) 
!S41(C  6-Port  ) 
!S42(C  6-Port  ) 
!S43(C  6-Port  ) 
!S44(C  6-Port  ) 
!S45(C  6-Port  ) 
!S46(C  6-Port  ) 
!S51(C  6-Port  ) 
!S52(C  6-Port  ) 
!S53(C  6-Port  ) 
!S54(C  6-Port  ) 
!S55(C  6-Port  ) 
!S56(C  6-Port  ) 
!S61(C  6-Port  ) 
!S62(C  6-Port  ) 
!S63(C  6-Port  ) 
!S64(C  6-Port  ) 
!S65(C  6-Port  ) 
!S66(C  6-Port  ) 
!S6P File: Measurement: :
# Hz S  RI   R 50
500000000 -0.3372 -0.044022 -0.010607 -0.0024698 -0.008581 0.013224 -0.0049554 0.012752
0.01274 0.004189 -0.0046854 0.0090953
-0.010279 -0.0020589 -0.41886 -0.055514 0.0078679 -0.011069 0.0016511 0.012507
0.0066361 0.0022759 0.0015818 0.013448
-0.0083621 0.013227 0.0078282 -0.01116 -0.26661 0.20706 0.0069929 0.0039247
-0.0027971 0.008253 0.00059139 0.012521
-0.0052398 0.012787 0.0018611 0.012546 0.0070397 0.0039214 -0.33413 0.034521
-0.021228 -0.0054041 0.017443 0.025773
0.012722 0.004183 0.0068905 0.0021029 -0.002772 0.0083961 -0.021201 -0.0053418
-0.21402 -0.21356 -0.027628 0.0060339
-0.0050279 0.0092561 0.0018457 0.013639 0.00062976 0.012548 0.017421 0.025725
-0.02753 0.0059161 -0.26126 -0.13759
560000000 -0.31741 0.12075 -0.023912 -0.063238 -0.00012268 0.012314 0.0056577 0.011492
0.010869 0.0047638 0.010488 0.0082889
-0.023448 -0.06391 -0.37669 0.10475 -0.042223 -0.03745 0.013946 0.0040077
-0.013661 -0.0049816 0.002929 9.2273e-05
-5.9278e-05 0.012285 -0.041824 -0.037455 -0.18404 0.25694 -0.00027127 -0.0045203
0.019374 0.0062037 0.0073058 -0.0064061
0.0054901 0.011025 0.013777 0.0032722 -0.00026736 -0.0045081 -0.31178 0.12926
0.003834 -0.023814 0.0041584 -0.022006
0.010122 0.0045266 -0.013953 -0.0049581 0.01949 0.006316 0.0038259 -0.023847
-0.28763 -0.035028 0.0086306 -0.049197
0.010642 0.0079765 0.0030969 0.00015461 0.0071974 -0.0063338 0.0041523 -0.021946
0.0087071 -0.049222 -0.32693 0.012857
620000000 -0.2761 0.10302 -0.023136 0.0084774 0.0034616 0.0089622 0.0081199 -0.0049002
0.011656 -0.00017836 0.0015001 -0.0021342
-0.023196 0.0084038 -0.40349 0.056855 -0.018611 0.0001606 -0.0010654 -0.0019226
0.011505 -0.0059769 0.0012195 -0.0030904
0.0034257 0.0088382 -0.018615 0.00032894 -0.15455 0.26594 -0.0007113 -0.0053749
-0.0028253 -0.0024192 0.008733 -0.0038823
0.0083138 -0.0051114 -0.0011793 -0.0018006 -0.0007962 -0.0054328 -0.27044 0.13986
-0.040311 -0.019118 0.012994 0.026172
0.011459 -1.9456e-05 0.011568 -0.0060023 -0.002782 -0.0024119 -0.040343 -0.019179
-0.2041 -0.074358 -0.044143 0.016348
0.0011622 -0.0029227 0.0010893 -0.0030702 0.0087476 -0.0038729 0.012887 0.026115
-0.044053 0.016363 -0.24812 -0.026586
680000000 -0.2364 0.19023 -0.027034 -0.014039 0.0052123 0.0051858 0.0019783 -0.007158
-0.0026076 -0.011155 0.0052477 -0.0074078
-0.027037 -0.014045 -0.38909 0.156 -0.032855 -0.0014007 -0.0013365 -0.00034765
-0.0019146 -0.0091947 -0.0011734 -0.0019348
0.0050984 0.0051703 -0.032944 -0.001391 -0.10273 0.28579 -0.00077143 -0.00058402
-0.0015444 0.00029588 -0.0029199 -0.0095395
0.0019049 -0.0069743 -0.0013132 -0.00037248 -0.00076481 -0.0006327 -0.22412 0.19294
-0.024398 -0.0061692 -0.010116 -0.011981
-0.0027995 -0.010964 -0.0018035 -0.0091908 -0.001465 0.00031357 -0.024456 -0.0061705
-0.26242 0.026447 -0.0057522 -0.0067999
0.0049305 -0.0073693 -0.0010959 -0.0020557 -0.0029338 -0.0095585 -0.010115 -0.01199
-0.0057678 -0.0068279 -0.25982 0.080902
740000000 -0.19269 0.1851 -0.039678 0.027417 0.013243 -0.005094 -9.267e-05 -0.0044818
-0.0043474 -0.0024814 -0.0060287 0.0028755
-0.039765 0.027184 -0.33508 0.17491 -0.035595 0.035442 -0.00038763 -0.0064256
-0.011573 0.0069719 -0.0019725 -0.0068442
0.013218 -0.0050768 -0.035404 0.035507 -0.069 0.28386 -0.0021167 0.003178
-0.0022885 -0.0048845 -0.0014083 0.00034749
-0.00027227 -0.0045458 -0.0003842 -0.0063734 -0.0021152 0.003217 -0.20701 0.20122
-0.04499 -0.0065014 0.02463 0.016147
-0.0044576 -0.0020273 -0.011584 0.0072416 -0.0023174 -0.0048613 -0.04506 -0.0063927
-0.15799 0.05404 -0.044794 0.00046707
-0.0063722 0.0024738 -0.001695 -0.0065986 -0.0014211 0.00039853 0.024646 0.016126
-0.044691 0.00049004 -0.24899 0.085846
800000000 -0.15944 0.2266 -0.022045 0.016827 0.0054311 -0.010608 -0.0047379 -0.0020804
-0.0041058 0.0021276 0.0041583 0.00030634
-0.022253 0.016856 -0.33901 0.24531 -0.0078549 0.034202 -0.0024136 0.0021668
-0.00078079 0.0027698 0.0008123 0.0052898
0.0053897 -0.010616 -0.0077626 0.034235 -0.028525 0.30694 0.00064468 0.001578
8.4727e-06 0.0034145 -0.0019137 0.00094283
-0.0046372 -0.0020183 -0.0024229 0.0022158 0.00064891 0.0015866 -0.17814 0.23042
-0.028685 0.014819 0.014467 -0.010486
-0.0040178 0.0021038 -0.00074374 0.002793 1.607e-05 0.0034116 -0.028686 0.014885
-0.20988 0.079336 -0.017549 0.019361
0.0042727 0.00038085 0.00083762 0.0052341 -0.0018959 0.00095323 0.014475 -0.010458
-0.017557 0.019397 -0.24529 0.13642
860000000 -0.12447 0.24675 -0.017466 0.030843 -0.0032055 -0.010005 -0.0019354 0.00068414
0.0036534 0.0051209 -0.0034635 -0.0032431
-0.017466 0.030768 -0.2912 0.2872 0.0078574 0.034343 -9.2234e-05 0.0020859
0.0041122 0.00012851 0.0034662 0.00092613
-0.0032406 -0.01002 0.0079534 0.034342 0.01924 0.31492 -0.00070541 -7.0671e-05
0.0027874 -0.0016209 0.001698 0.0043333
-0.0019804 0.00070728 -0.00016505 0.0020269 -0.00072304 -9.4764e-05 -0.14025 0.24093
-0.017344 0.018675 -0.0059168 -0.0088655
0.0036378 0.005237 0.0041717 0.0001761 0.0028161 -0.0015747 -0.017323 0.018745
-0.15748 0.13352 -0.026531 0.015691
-0.0033234 -0.0032652 0.0033706 0.00076411 0.0016998 0.0043291 -0.0059365 -0.0088597
-0.026524 0.01567 -0.19533 0.1833
920000000 -0.099854 0.26906 0.0051273 0.037888 -0.009453 -0.0046701 -0.0017612 0.0015588
0.00080505 0.0020221 0.0025132 -0.001568
0.0050954 0.037953 -0.26268 0.30853 0.028074 0.022138 0.0013602 0.0011119
0.0069792 8.4857e-05 0.0039735 -0.0028945
-0.0094767 -0.004653 0.028185 0.022071 0.06536 0.31577 0.0019738 8.3486e-05
0.0011884 -0.00024723 0.0007973 -0.0011705
-0.0017397 0.0015069 0.0014214 0.0010799 0.0019947 7.2044e-05 -0.1164 0.25814
-0.010786 0.0316 0.0042753 -0.0066156
0.00065206 0.0020467 0.0070586 0.00017113 0.0011665 -0.00021802 -0.010742 0.031642
-0.1489 0.13936 -0.0024032 0.027561
0.0026197 -0.0015388 0.003989 -0.0029447 0.00082491 -0.0011711 0.0042977 -0.0066263
-0.0024293 0.027566 -0.20454 0.19752
980000000 -0.052681 0.28891 0.017415 0.03011 -0.0093078 0.0044904 0.0019238 0.0032116
0.0038841 -0.0012068 -0.00312 -0.0024811
0.017335 0.030022 -0.20993 0.34269 0.033244 0.0049214 0.0021908 5.0473e-05
0.001762 -0.0058058 -8.7817e-05 -0.0025582
-0.0093035 0.0044969 0.033288 0.0048243 0.11173 0.30944 0.0006466 -0.0012668
0.00048859 -0.0020677 0.0014473 -0.00029041
0.0019577 0.0031829 0.0021799 1.4322e-05 0.00064237 -0.0012497 -0.07759 0.26923
0.0087287 0.031496 -0.0093718 -0.0077468
0.0039376 -0.0011669 0.0017424 -0.0057656 0.00048138 -0.0020806 0.0088328 0.031494
-0.119 0.16886 0.0051177 0.019829
-0.0031173 -0.0024966 -0.00011295 -0.0025365 0.0014667 -0.00029322 -0.0093759 -0.0077697
0.0050939 0.019838 -0.16237 0.24317
1040000000 -0.01081 0.29727 0.033177 0.018203 -0.0013896 0.0070329 0.0023581 0.00066539
9.2483e-05 -0.0034529 -0.00018932 -0.0013314
0.033116 0.018222 -0.17443 0.35572 0.029589 -0.014873 0.0015061 -0.00176
-0.002213 -0.0027075 -0.0014495 -0.0026537
-0.0013962 0.0070443 0.029589 -0.01498 0.15789 0.29582 -0.00047926 -0.0017136
-0.001528 -0.00093368 -0.00053308 -0.0011175
0.0023619 0.00062862 0.0015088 -0.0017958 -0.0004971 -0.0017008 -0.050225 0.27915
0.020637 0.018833 -0.0021238 0.00087211
-2.1788e-05 -0.0034567 -0.0021698 -0.0027634 -0.0015137 -0.00091351 0.020684 0.018805
-0.086918 0.17647 0.01334 0.019409
-0.00015561 -0.0013345 -0.0014421 -0.0026915 -0.00054856 -0.0011175 -0.0021215 0.00088473
0.013324 0.019416 -0.14133 0.26402
1100000000 0.034319 0.30552 0.035907 -0.004161 0.0028257 0.0040066 0.0021421 -0.0011872
-0.0018375 -0.003183 -0.0040577 -0.0001592
0.035849 -0.0041171 -0.1312 0.37318 0.015282 -0.028108 -6.651e-05 -0.0018274
-0.0033478 -0.00099687 -0.0036739 -0.00061674
0.0028197 0.003988 0.01518 -0.028178 0.20435 0.2756 -0.0019981 0.00012184
-0.0019275 0.00039413 -0.0011916 -0.00034622
0.0021498 -0.0011838 -7.1785e-05 -0.0018499 -0.0019992 0.000123 -0.0096131 0.28424
0.026287 0.0051604 -0.0028335 -0.00043874
-0.0018674 -0.0032107 -0.0033765 -0.00099326 -0.001915 0.0003831 0.026317 0.0051053
-0.070608 0.19062 0.019508 0.0089052
-0.0039822 -0.00011091 -0.0036315 -0.00062884 -0.0011829 -0.00032291 -0.0028217 -0.00043372
0.01949 0.0089091 -0.095814 0.29616
1160000000 0.085759 0.30075 0.023978 -0.020954 0.0027392 -0.00045462 -0.00042481 -0.0021166
-0.0042494 -0.00089667 -0.0010367 0.0040989
0.023969 -0.020926 -0.087358 0.37759 -0.0038067 -0.029457 -0.0016614 -0.0017344
-0.002949 0.0023633 -0.001492 0.0019249
0.0027254 -0.0005094 -0.0039265 -0.029449 0.24756 0.24465 -0.00085302 0.0018593
-0.00068357 0.0020605 -0.0010006 0.00019025
-0.00042131 -0.0021031 -0.0016428 -0.0017186 -0.00086693 0.0018701 0.030041 0.2811
0.022733 -0.011646 -0.0038097 0.0049934
-0.0042143 -0.00089678 -0.0029191 0.0023961 -0.00066798 0.0020668 0.022731 -0.011684
-0.036847 0.20049 0.018572 0.00081633
-0.00097638 0.0041253 -0.0014746 0.0018917 -0.00099792 0.00017536 -0.0038003 0.0050012
0.018573 0.00083678 -0.048827 0.29886
1220000000 0.13006 0.28981 0.010431 -0.030248 -0.0015695 -0.00081977 0.00013356 -0.00066675
-0.002691 0.0023543 0.0011747 0.0020608
0.010452 -0.030189 -0.042885 0.38989 -0.017123 -0.021399 -0.0026052 0.00041805
-0.00010644 0.003129 -0.00090976 0.0019003
-0.0015927 -0.00082149 -0.017217 -0.02135 0.28664 0.20542 0.00077093 0.001857
0.00068318 0.0014094 0.00041421 0.00060567
0.00012456 -0.00067786 -0.0025986 0.00043697 0.00077004 0.001852 0.069912 0.2724
0.011474 -0.018782 0.0014936 0.0012856
-0.0026849 0.0023568 -8.6057e-05 0.0031238 0.00067297 0.0014135 0.011462 -0.018814
-0.015218 0.21074 0.014605 -0.012922
0.0012491 0.0020389 -0.0008828 0.0019064 0.00044658 0.00060205 0.0014963 0.0012816
0.014603 -0.012927 -0.018406 0.3168
1280000000 0.18003 0.26832 -0.0080686 -0.028604 -0.0019049 0.0025459 -0.00078148 -0.0019606
-0.00092632 0.0030425 0.0024127 0.0013422
-0.0080644 -0.028569 0.0032041 0.38109 -0.024088 -0.0085421 -0.001021 0.0014261
0.001817 0.0019948 0.00063215 0.0021877
-0.0018806 0.0025293 -0.024173 -0.0084595 0.31689 0.16153 0.0017171 0.0001072
0.0012445 0.00034344 0.00041457 0.00031169
-0.00080195 -0.0019611 -0.0010365 0.0014508 0.0017046 0.00011117 0.10685 0.25531
0.0011798 -0.021146 -0.00071164 0.00046299
-0.00089382 0.0030283 0.0018239 0.0020032 0.0012606 0.00034127 0.0011488 -0.021152
0.021421 0.2158 0.0031149 -0.015368
0.0024364 0.0013117 0.00062708 0.0022188 0.00040495 0.0003067 -0.00071085 0.00047713
0.0031348 -0.015363 0.03001 0.31972
1340000000 0.21724 0.23441 -0.017867 -0.018917 0.00090359 0.0046064 -0.0015797 -0.00095295
0.0014505 0.0027418 0.0018581 -0.0013841
-0.017833 -0.018923 0.042978 0.37273 -0.021875 0.0044096 -0.00023863 0.0020325
0.0021146 0.00088408 0.0013388 0.00079871
0.00093353 0.0045929 -0.021871 0.004515 0.33882 0.11342 0.001399 -0.00098512
0.00090209 -0.00062076 7.9284e-05 0.00030531
-0.001571 -0.00091998 -0.00021882 0.0020373 0.0014015 -0.00098351 0.13873 0.23442
-0.0093696 -0.018341 0.00067181 0.0011152
0.0014821 0.0027012 0.0021269 0.00086397 0.00089907 -0.00062599 -0.0094165 -0.018334
0.050505 0.21202 -0.0035341 -0.013983
0.0019102 -0.001306 0.0013635 0.00080645 8.012e-05 0.00031492 0.00068826 0.0011135
-0.0035358 -0.013973 0.068263 0.31625
1400000000 0.25039 0.19633 -0.023555 -0.0072502 0.0052704 0.0031629 -0.0021157 0.00041064
0.0023727 0.0010233 0.00040193 -0.001473
-0.023514 -0.0072763 0.080245 0.35957 -0.014985 0.012688 0.0013953 0.0014123
0.0013134 -0.00085574 0.0013241 0.00013787
0.00527 0.0031503 -0.014939 0.012776 0.35158 0.060221 0.00017924 -0.0019128
7.8412e-05 -0.000545 0.00041488 0.00020632
-0.002097 0.00045235 0.0014001 0.0013813 0.0001758 -0.001907 0.1672 0.20531
-0.015993 -0.011079 -0.00086555 0.00013956
0.0023655 0.0010128 0.0013305 -0.00085497 7.8263e-05 -0.0005482 -0.016032 -0.01105
0.083446 0.2089 -0.010107 -0.0090775
0.00038783 -0.001414 0.0013408 0.00012873 0.00040877 0.00018072 -0.00086627 0.00013699
-0.010103 -0.0090983 0.11355 0.30618
1460000000 0.27311 0.15211 -0.020439 0.0049684 0.005767 -0.0018113 -0.0016863 0.0017308
0.002168 -0.00039179 -0.00035818 -0.0010991
-0.020437 0.0049397 0.11446 0.33746 -0.0060359 0.015603 0.0018376 0.00026657
0.0009571 -0.0014173 0.0012149 -0.00067991
0.0057726 -0.0018521 -0.0059537 0.01566 0.35758 0.0061087 -0.0014584 -0.0014838
0.00010558 -0.0003555 0.00060015 -0.00034775
-0.0017063 0.0017312 0.0018265 0.00025392 -0.0014712 -0.001489 0.19222 0.17626
-0.017686 -0.0035312 -0.00057797 0.0026359
0.0021583 -0.00039333 0.00096399 -0.0014098 0.00010344 -0.00035742 -0.017701 -0.0035024
0.11213 0.19522 -0.012004 -0.0026686
-0.00038237 -0.001117 0.001209 -0.00066465 0.00059077 -0.00034401 -0.00058159 0.0026336
-0.012007 -0.0026766 0.14716 0.2854
1520000000 0.2851 0.11041 -0.014658 0.010523 0.0034687 -0.004283 -1.1518e-05 0.0026636
0.0022784 -0.0016333 -0.0011381 -0.00019907
-0.014646 0.010523 0.14786 0.32268 0.0016946 0.013263 0.0018412 -0.00078243
5.1072e-07 -0.0011218 0.00031213 -0.0010083
0.0034313 -0.0042588 0.0017698 0.013267 0.3511 -0.049906 -0.0013722 -0.00034479
0.000599 -0.00080004 0.00011068 -0.00016389
2.0564e-05 0.0026792 0.0018288 -0.00079774 -0.0013767 -0.00036282 0.21407 0.13944
-0.016905 0.0032528 0.0019017 0.0022186
0.0022732 -0.0016741 -1.7149e-05 -0.0011328 0.00061777 -0.00079451 -0.01691 0.003296
0.13978 0.18238 -0.012007 0.0016339
-0.0011706 -0.00022815 0.00033227 -0.0010087 9.9698e-05 -0.00015536 0.0019142 0.0022054
-0.012008 0.0016268 0.18065 0.26617
1580000000 0.29434 0.064311 -0.0078782 0.013601 -0.00094025 -0.0050037 0.001454 0.0020783
-7.791e-05 -0.0022128 -0.00034027 0.00044631
-0.0078901 0.013603 0.17489 0.29787 0.0053499 0.008336 0.0005172 -0.00176
-0.00062737 -0.0010752 -0.00028586 -0.00077541
-0.00098544 -0.0049551 0.0053997 0.0083152 0.3309 -0.1073 -0.0017787 0.00091588
-0.00035629 -0.0010877 0.00014635 -0.00050786
0.0014882 0.0020877 0.00051512 -0.0017724 -0.0017674 0.00089893 0.22693 0.10203
-0.012794 0.0089738 0.002675 0.00076948
-4.4907e-05 -0.0022089 -0.00064471 -0.0010583 -0.00033911 -0.0010867 -0.012775 0.0090179
0.16421 0.1657 -0.0093377 0.0076721
-0.00034373 0.00043659 -0.00026377 -0.0007994 0.00014739 -0.00050932 0.0026837 0.00075592
-0.0093497 0.0076684 0.21375 0.23996
1640000000 0.29638 0.023116 -0.0010451 0.012381 -0.0027631 -0.0025467 0.0028668 0.0010551
-0.00050381 -0.0017698 -0.00031433 0.00058025
-0.0010532 0.012359 0.20437 0.27303 0.0060997 0.0034914 -0.00077398 -0.0019242
-0.001038 -0.00035489 -0.00046174 -0.00073098
-0.0027526 -0.0025413 0.0061195 0.0034587 0.3031 -0.15668 -0.00053494 0.0016799
-0.0010997 -0.00113 -6.5981e-05 -0.0004213
0.0028958 0.0010504 -0.00077412 -0.0019255 -0.00052899 0.0016856 0.23908 0.055655
-0.0078462 0.010558 0.0028774 -0.00096293
-0.00050164 -0.0017534 -0.0010329 -0.00034434 -0.0011139 -0.0011477 -0.0078166 0.010602
0.18651 0.14236 -0.004531 0.0097206
-0.0003153 0.0006086 -0.00046167 -0.00074646 -5.4236e-05 -0.00041571 0.0028654 -0.00098319
-0.0045271 0.0097435 0.23974 0.20964
1700000000 0.28897 -0.021973 0.0023365 0.0093571 -0.0034765 9.8264e-05 0.0031558 -0.0014421
-0.0021417 -0.00091682 0.00069073 0.0004813
0.0023104 0.00936 0.22229 0.24163 0.0040352 0.00060961 -0.001617 -0.00063719
-0.00073388 0.00012383 -0.00090853 -0.00045348
-0.0034808 0.0001062 0.0040408 0.00057803 0.25937 -0.19643 0.00077357 0.0016374
-0.0020249 -0.00023243 -0.00043661 -0.00087056
0.0031187 -0.0014174 -0.0016133 -0.000616 0.00078968 0.0016485 0.23715 0.0086245
-0.0042609 0.011305 0.0016821 -0.0024594
-0.0021746 -0.00091178 -0.00073211 0.00013537 -0.0020349 -0.00023968 -0.0042363 0.011333
0.20387 0.1234 0.00032766 0.010017
0.00067991 0.00050189 -0.00092432 -0.00043836 -0.00045369 -0.00086917 0.0016911 -0.0024676
0.00032858 0.01001 0.25705 0.17516
1760000000 0.27681 -0.070304 0.0044743 0.0059678 -0.0023694 0.00098118 0.0011872 -0.0036072
-0.0015246 0.00061157 0.000436 -0.0006233
0.0044664 0.0059786 0.24826 0.20198 0.0017151 -0.0012662 -0.0013139 0.00026585
-0.00089369 0.00090031 -0.00060487 0.0003897
-0.0023712 0.0010139 0.0016874 -0.0012603 0.21041 -0.22989 0.0013361 0.00084744
-0.0012301 0.0014796 -0.0013919 -0.00054953
0.0012169 -0.0036223 -0.0013165 0.00026897 0.0013312 0.00083995 0.23071 -0.040522
-0.00023266 0.010195 -7.925e-05 -0.0028279
-0.0015291 0.00060856 -0.00087435 0.0009302 -0.0012301 0.0014743 -0.00019582 0.010207
0.21868 0.089685 0.0045676 0.0073278
0.00044698 -0.00059075 -0.00059601 0.00037718 -0.0013744 -0.00057495 -0.00010138 -0.0028483
0.0045757 0.0073195 0.27013 0.13791
1820000000 0.25228 -0.10741 0.0044844 0.0023937 -0.00015423 0.0024775 -0.0011864 -0.0031014
-0.0013075 0.0010272 -4.9019e-05 -5.1142e-05
0.0044805 0.0024033 0.25835 0.17194 -0.00035466 -0.00019605 -0.0012966 0.0010999
7.7467e-05 0.0011929 -0.00055287 0.00053795
-8.305e-05 0.0024327 -0.00036154 -0.00019511 0.16036 -0.24567 0.0013569 0.00012827
-0.00015851 0.0023964 -0.0013541 0.0002911
-0.0011789 -0.0031337 -0.0013012 0.0010991 0.0013429 0.00012197 0.20407 -0.08716
0.0018233 0.0081923 -0.0017515 -0.0018199
-0.0012817 0.0010458 8.2155e-05 0.0011952 -0.00015694 0.0024 0.0018657 0.0081846
0.23644 0.062146 0.0054581 0.0034357
-5.6349e-05 -2.0761e-05 -0.00055212 0.00054685 -0.0013563 0.00031817 -0.0017177 -0.0018107
0.0054625 0.0034249 0.27323 0.10212
1880000000 0.21743 -0.14762 0.0022416 0.00021008 -0.00045027 0.0020793 -0.0030686 -0.0021524
-0.00015511 0.0019571 0.00014914 -0.00060359
0.0022571 0.00022275 0.26284 0.12552 -0.0023394 0.0015697 -7.2315e-05 0.0016388
0.00049207 0.0010167 7.9253e-05 0.00093434
-0.00037836 0.00207 -0.0023173 0.0015828 0.10815 -0.25491 0.0014395 -0.00078537
0.0015051 0.001974 -0.0010557 0.0013342
-0.0030301 -0.0021372 -6.6915e-05 0.0016507 0.0014517 -0.00080737 0.16705 -0.1286
0.00295 0.0055785 -0.0025773 0.00018696
-0.00012239 0.0019617 0.00051164 0.0010276 0.0015213 0.0019862 0.0029658 0.0055849
0.24008 0.030884 0.0055974 0.0011251
0.00020975 -0.00058186 7.7891e-05 0.00090889 -0.0010226 0.0013485 -0.0025872 0.00017521
0.0056054 0.0011323 0.27369 0.067767
1940000000 0.17822 -0.17365 -4.8761e-05 -0.0014274 0.0012622 0.0020966 -0.0036366 0.00068282
0.0015164 0.0011536 -0.00066712 -0.00050239
-5.323e-05 -0.0014246 0.26356 0.093631 -0.0011917 0.0037631 0.0010153 0.001261
0.001622 0.00049815 0.00081776 0.0003054
0.0012486 0.0021063 -0.0011628 0.0037737 0.062108 -0.24848 0.00032843 -0.0017244
0.0023874 0.00055739 0.00038177 0.0016991
-0.0036658 0.00071968 0.0010067 0.0012363 0.00031771 -0.0017444 0.11655 -0.16198
0.0021773 0.003393 -0.0018417 0.001528
0.0014898 0.0011654 0.0016168 0.00045863 0.0023914 0.0005343 0.0021711 0.0034026
0.24352 -0.0069531 0.0040713 -0.0025565
-0.00069676 -0.00049663 0.00081304 0.00028267 0.00039455 0.0016704 -0.0018478 0.001547
0.0040715 -0.0025565 0.26287 0.031978
2000000000 0.13175 -0.18832 -0.0038586 0.00066927 0.0025046 0.0017148 -0.0023208 0.0034604
0.0011461 1.7297e-05 -0.00058241 0.00045504
-0.003864 0.00063903 0.24935 0.058081 -0.0010829 0.0056139 0.0014832 0.0003845
0.0011367 -0.0011628 0.0004641 0.00018736
0.0025237 0.0017337 -0.0010426 0.0056458 0.018441 -0.2337 -0.0011481 -0.0013085
0.002033 -0.0012389 0.0017105 0.001435
-0.0023654 0.0034812 0.0015054 0.00039011 -0.0011482 -0.0013221 0.063148 -0.17501
0.00029413 0.0025173 -0.00016638 0.0022051
0.0011635 -3.7703e-05 0.0011303 -0.0011678 0.0020465 -0.0012327 0.00029995 0.0025309
0.23893 -0.040685 0.0006827 -0.0034777
