!Keysight Technologies,M9804A,MY58100912,A.14.10.03
!Date: Thursday, April 27, 2023 10:28:33
!Correction: S11(C  6-Port  ) 
!S12(C  6-Port  ) 
!S13(C  6-Port  ) 
!S14(C  6-Port  ) 
!S15(C  6-Port  ) 
!S16(C  6-Port  ) 
!S21(C  6-Port  ) 
!S22(C  6-Port  ) 
!S23(C  6-Port  ) 
!S24(C  6-Port  ) 
!S25(C  6-Port  ) 
!S26(C  6-Port  ) 
!S31(C  6-Port  ) 
!S32(C  6-Port  ) 
!S33(C  6-Port  ) 
!S34(C  6-Port  ) 
!S35(C  6-Port  ) 
!S36(C  6-Port  ) 
!S41(C  6-Port  ) 
!S42(C  6-Port  ) 
!S43(C  6-Port  ) 
!S44(C  6-Port  ) 
!S45(C  6-Port  ) 
!S46(C  6-Port  ) 
!S51(C  6-Port  ) 
!S52(C  6-Port  ) 
!S53(C  6-Port  ) 
!S54(C  6-Port  ) 
!S55(C  6-Port  ) 
!S56(C  6-Port  ) 
!S61(C  6-Port  ) 
!S62(C  6-Port  ) 
!S63(C  6-Port  ) 
!S64(C  6-Port  ) 
!S65(C  6-Port  ) 
!S66(C  6-Port  ) 
!S6P File: Measurement: :
# Hz S  RI   R 50
500000000 -0.33764 -0.042959 -0.010253 -0.0030345 -0.0083662 0.01251 -0.0050884 0.012192
0.012467 0.0047993 -0.0054348 0.0083727
-0.010177 -0.003057 -0.4189 -0.054583 0.0078532 -0.010898 0.0011983 0.012357
0.0073357 0.0020214 0.0011267 0.013155
-0.0083861 0.012444 0.00785 -0.010836 -0.26605 0.20774 0.0073149 0.0037751
-0.0024668 0.007808 0.00088402 0.012203
-0.0050351 0.01215 0.0011939 0.012361 0.0073137 0.0039098 -0.33389 0.037542
-0.020483 -0.0065051 0.016516 0.028003
0.012525 0.0048883 0.0073957 0.001795 -0.0025902 0.0077062 -0.020601 -0.0064531
-0.21824 -0.20856 -0.026769 0.0056245
-0.0054552 0.0085965 0.0010891 0.013275 0.00082105 0.012269 0.016508 0.028019
-0.026981 0.005615 -0.25669 -0.15939
560000000 -0.31736 0.11994 -0.024109 -0.063359 -0.00087326 0.012021 0.0054201 0.010947
0.010536 0.0053859 0.011332 0.0078839
-0.024108 -0.063023 -0.3769 0.10603 -0.041054 -0.037389 0.014063 0.0037892
-0.012673 -0.0047598 0.0027989 -0.00012343
-0.00090816 0.012084 -0.041317 -0.037409 -0.18404 0.25604 -0.00026929 -0.0037111
0.01944 0.0062136 0.0070621 -0.0058854
0.0052286 0.010783 0.014197 0.0041715 -0.00044907 -0.0039352 -0.30981 0.13006
0.0039717 -0.023776 0.0046701 -0.022289
0.010209 0.0056087 -0.012799 -0.0045413 0.019578 0.00605 0.0041567 -0.023613
-0.28911 -0.031191 0.0094197 -0.050761
0.011443 0.0079514 0.0025453 -0.0006712 0.0071642 -0.0057687 0.0049882 -0.022303
0.0096486 -0.050734 -0.32906 -0.0062879
620000000 -0.27645 0.10416 -0.023592 0.0079374 0.0033778 0.0087055 0.0083701 -0.0047377
0.010689 -0.00021751 0.0014358 -0.0025382
-0.023568 0.0078988 -0.40262 0.057483 -0.018424 8.1659e-05 -0.0013348 -0.0021174
0.011994 -0.0060714 0.0017978 -0.0033818
0.0034522 0.0085789 -0.018417 0.0001582 -0.15486 0.26557 -0.00095234 -0.0051804
-0.0027049 -0.002393 0.0086977 -0.0034016
0.0084722 -0.0047063 -0.0013757 -0.0021208 -0.001086 -0.0052657 -0.26965 0.14066
-0.039647 -0.019191 0.011966 0.028325
0.010692 -0.00011962 0.011834 -0.0061294 -0.0028282 -0.0022445 -0.039593 -0.019264
-0.20742 -0.069973 -0.043568 0.014537
0.0015018 -0.0026528 0.0017706 -0.0033039 0.0087638 -0.0034957 0.011638 0.028252
-0.043299 0.014322 -0.24799 -0.048461
680000000 -0.23608 0.19083 -0.027344 -0.01407 0.004996 0.0052803 0.001895 -0.0070912
-0.0027401 -0.011463 0.0058847 -0.0069856
-0.027286 -0.014078 -0.38817 0.15572 -0.032754 -0.0016085 -0.0015701 -0.00046848
-0.0016488 -0.0091703 -0.0010572 -0.0016626
0.0049805 0.0052933 -0.032771 -0.0015614 -0.10281 0.28554 -0.00072584 -0.00041991
-0.0016209 0.00040764 -0.0028632 -0.0095302
0.0019106 -0.0069932 -0.0016336 -0.00055039 -0.00074953 -0.00045417 -0.2231 0.19321
-0.024348 -0.0069143 -0.0098544 -0.011956
-0.0027932 -0.011502 -0.0016334 -0.0091568 -0.0016301 0.00044874 -0.024304 -0.0069478
-0.26117 0.030696 -0.0054327 -0.0090328
0.0058516 -0.0071639 -0.0010889 -0.0016682 -0.0029018 -0.0095874 -0.0099703 -0.012093
-0.0053148 -0.0090462 -0.26331 0.06496
740000000 -0.19175 0.1854 -0.038658 0.027305 0.012665 -0.0051797 -5.9665e-05 -0.0045255
-0.0035235 -0.0027846 -0.0063783 0.0023574
-0.038617 0.027242 -0.33612 0.17494 -0.035786 0.035079 -0.00127 -0.0061184
-0.011235 0.0082137 -0.0025198 -0.0071532
0.012587 -0.0051798 -0.035644 0.035196 -0.069461 0.28356 -0.0022589 0.0026155
-0.0023832 -0.0048069 -0.0014719 -0.00036964
-5.8278e-05 -0.0044332 -0.0011694 -0.0061286 -0.0022905 0.0026817 -0.20744 0.2017
-0.044261 -0.0064718 0.024059 0.016241
-0.0036395 -0.0028543 -0.011128 0.0083182 -0.0024311 -0.0047568 -0.04425 -0.0063951
-0.1589 0.059179 -0.045857 -0.00037874
-0.0065502 0.0024459 -0.0027381 -0.0071756 -0.0013859 -0.00026188 0.024163 0.016275
-0.045724 -0.00031028 -0.2549 0.068578
800000000 -0.15829 0.22607 -0.022187 0.016936 0.0056047 -0.010728 -0.0045398 -0.0020404
-0.003861 0.0021545 0.0049785 -0.00016043
-0.022168 0.016898 -0.33904 0.24526 -0.0080541 0.034306 -0.002318 0.0021538
-0.00081842 0.0029429 0.001254 0.0053079
0.0055916 -0.010743 -0.0079334 0.034369 -0.029047 0.30713 0.00089291 0.0014911
0.00024241 0.0034952 -0.001722 0.00080579
-0.0045857 -0.0020292 -0.0022964 0.002168 0.00087062 0.0015321 -0.17781 0.2303
-0.028938 0.014577 0.015433 -0.010567
-0.0038131 0.0021973 -0.00076527 0.0029141 0.00022631 0.0035157 -0.028977 0.014657
-0.20918 0.082131 -0.017994 0.019888
0.0049663 -0.00010707 0.0012881 0.005263 -0.0017142 0.00083767 0.015263 -0.010599
-0.017979 0.019849 -0.2535 0.12166
860000000 -0.1243 0.24632 -0.017601 0.030593 -0.0032043 -0.010161 -0.0018928 0.00083279
0.0038552 0.0045386 -0.0035669 -0.003186
-0.017558 0.030535 -0.29167 0.28699 0.0078285 0.034553 -0.00011846 0.0022948
0.0038171 0.0003266 0.0034643 0.00019006
-0.0032308 -0.010173 0.007968 0.034594 0.018859 0.31542 -0.00067932 7.4931e-06
0.0025646 -0.0014353 0.0017036 0.0040468
-0.0019137 0.00073535 -0.00014035 0.0021755 -0.00068792 6.6872e-05 -0.141 0.24146
-0.018259 0.019257 -0.0061709 -0.009459
0.0038663 0.0045886 0.0037964 0.00023842 0.0026085 -0.0014575 -0.018143 0.019346
-0.15693 0.13476 -0.027226 0.015031
-0.0035038 -0.0031393 0.0034227 0.00021157 0.0017558 0.0040257 -0.006274 -0.0095317
-0.027152 0.015 -0.20128 0.17106
920000000 -0.10004 0.2695 0.0049885 0.03805 -0.0095964 -0.0046921 -0.0017657 0.0017698
0.0011173 0.0018503 0.0027084 -0.0016827
0.0049661 0.038037 -0.26302 0.30846 0.028386 0.022152 0.0014012 0.001127
0.0072289 -0.00040608 0.0041301 -0.002644
-0.0096211 -0.0046315 0.028455 0.02211 0.065258 0.31634 0.0019151 5.924e-05
0.0011538 -0.00031798 0.00083919 -0.0011965
-0.0017808 0.0017362 0.0013937 0.0011383 0.001943 4.1735e-05 -0.11669 0.25879
-0.010831 0.031771 0.00478 -0.0072124
0.0011368 0.0019303 0.0072519 -0.00037511 0.0012107 -0.00031817 -0.010698 0.031831
-0.14817 0.14061 -0.0027167 0.028352
0.0027548 -0.001648 0.0041134 -0.0026415 0.00085812 -0.001207 0.0047704 -0.0072761
-0.0027734 0.028313 -0.21536 0.18546
980000000 -0.05264 0.28914 0.017529 0.030233 -0.0092469 0.0045726 0.0019383 0.0033794
0.0040998 -0.0014012 -0.0034143 -0.0024195
0.017473 0.030232 -0.21009 0.34257 0.033506 0.004985 0.0020841 -5.9217e-05
0.0017429 -0.0059325 -0.00032963 -0.0025662
-0.0092332 0.0046193 0.033559 0.0048988 0.11166 0.31003 0.00066291 -0.0011517
0.00040898 -0.0021663 0.0014395 -0.00022479
0.0018967 0.0033323 0.0021092 -0.00010134 0.00066806 -0.0011525 -0.07756 0.26971
0.0087683 0.031551 -0.0092703 -0.0080683
0.0040791 -0.0013898 0.0016575 -0.0059629 0.00038299 -0.0021655 0.0088869 0.031605
-0.11728 0.17128 0.0047533 0.020705
-0.0033319 -0.0023713 -0.0003526 -0.0025344 0.0014876 -0.00022415 -0.0092633 -0.0080492
0.0047603 0.020645 -0.17343 0.2344
1040000000 -0.010746 0.29764 0.033495 0.018405 -0.0013786 0.007097 0.0024307 0.00064139
0.00010266 -0.0034987 -0.00012253 -0.0014649
0.033467 0.018393 -0.17466 0.35599 0.029822 -0.015106 0.0014391 -0.0017774
-0.002541 -0.0025819 -0.0013028 -0.0026717
-0.0013723 0.0071064 0.0298 -0.015247 0.15801 0.29647 -0.00050419 -0.0016557
-0.0016527 -0.00096015 -0.00056447 -0.0010628
0.0024111 0.00060624 0.0014641 -0.0017728 -0.00051881 -0.0016922 -0.049976 0.28009
0.021051 0.019017 -0.0021228 0.00089443
8.566e-05 -0.003444 -0.0025637 -0.0025814 -0.0016291 -0.0009708 0.021103 0.018999
-0.084821 0.1788 0.013642 0.019946
-7.8805e-05 -0.0014563 -0.0013623 -0.00268 -0.00058568 -0.00104 -0.0021007 0.00087679
0.013601 0.019979 -0.1545 0.25689
1100000000 0.03467 0.30583 0.036226 -0.0042363 0.002875 0.0039918 0.0022091 -0.0011798
-0.002017 -0.0031803 -0.0039969 0.00010552
0.036213 -0.0042075 -0.13132 0.37363 0.015266 -0.02842 -0.00014995 -0.0017329
-0.0035056 -0.00084475 -0.0037158 -0.00051753
0.0028866 0.0039802 0.015161 -0.0285 0.20478 0.27612 -0.0020088 0.00017122
-0.0019407 0.00049726 -0.0011992 -0.00040218
0.0021822 -0.0012147 -0.00013957 -0.0017618 -0.0020186 0.00019082 -0.0090389 0.28496
0.026867 0.0050711 -0.00287 -0.00051207
-0.0020323 -0.0031779 -0.0034843 -0.00088528 -0.0019218 0.00047601 0.026889 0.0050064
-0.067816 0.19284 0.019745 0.00965
-0.0039818 0.00015382 -0.0037128 -0.00050118 -0.0012385 -0.00043065 -0.0028674 -0.00048942
0.019713 0.0096351 -0.10903 0.291
1160000000 0.085901 0.30105 0.024124 -0.021107 0.0028427 -0.00047043 -0.00044819 -0.0022068
-0.0041543 -0.00087238 -0.00086234 0.0041322
0.024136 -0.021078 -0.087618 0.37807 -0.003939 -0.02964 -0.001693 -0.0017215
-0.0028852 0.002488 -0.0013439 0.0020116
0.0028252 -0.00049718 -0.0040656 -0.029623 0.24806 0.2449 -0.00079441 0.0018888
-0.00069842 0.0020774 -0.0011455 0.0002601
-0.00041963 -0.0022451 -0.0017 -0.0016898 -0.00079366 0.0019073 0.03078 0.28178
0.023128 -0.011782 -0.0034663 0.0051604
-0.0041846 -0.00085096 -0.0028977 0.002498 -0.00066613 0.0020766 0.023135 -0.011862
-0.034329 0.20255 0.019337 0.0012978
-0.00082892 0.0041455 -0.0013121 0.0020438 -0.0011591 0.00027053 -0.0034686 0.0051265
0.019264 0.0013581 -0.061906 0.29563
1220000000 0.13036 0.29025 0.010426 -0.030506 -0.0015789 -0.00096068 2.2219e-05 -0.00068404
-0.0028235 0.0023387 0.0012954 0.0020925
0.01044 -0.030463 -0.042652 0.39041 -0.017344 -0.021438 -0.0025638 0.00047273
-9.1669e-05 0.003137 -0.00086715 0.0020088
-0.0015653 -0.0009461 -0.017474 -0.021363 0.2872 0.20537 0.00081231 0.0018143
0.00060523 0.0013524 0.00035996 0.00069057
2.349e-05 -0.00068241 -0.0025669 0.00049542 0.00081069 0.001814 0.071166 0.27277
0.011536 -0.019187 0.0018085 0.001308
-0.0027869 0.0023479 -6.9799e-05 0.0031307 0.00063082 0.0013513 0.011503 -0.019184
-0.012726 0.2125 0.015637 -0.012731
0.0013304 0.0020707 -0.00087295 0.0020173 0.00036497 0.00069888 0.001799 0.0013006
0.015648 -0.012748 -0.031372 0.31564
1280000000 0.18044 0.26837 -0.008273 -0.028917 -0.0019054 0.0024577 -0.0007617 -0.0019118
-0.00092998 0.0031301 0.0024727 0.0012946
-0.0082381 -0.028873 0.0037982 0.38128 -0.024201 -0.008391 -0.00099269 0.0014754
0.0016469 0.0019376 0.00070392 0.0021828
-0.001896 0.0024639 -0.02428 -0.0082838 0.31729 0.16113 0.0017943 0.00010856
0.0012077 0.00036671 0.00037035 0.00034294
-0.00077519 -0.0019066 -0.00099424 0.001474 0.0017809 0.00011625 0.10809 0.25508
0.0010191 -0.021628 -0.0006452 0.00022903
-0.0008996 0.0031387 0.0016841 0.0019055 0.0012169 0.00037465 0.00098364 -0.021634
0.024179 0.21691 0.0039172 -0.015683
0.0024889 0.0012684 0.00072317 0.0022183 0.00039322 0.00034719 -0.00065973 0.00023813
0.0039373 -0.015662 0.017986 0.32092
1340000000 0.21764 0.23455 -0.018147 -0.019019 0.00084484 0.0045447 -0.0015132 -0.00086097
0.0014045 0.0028387 0.0018211 -0.0012934
-0.018105 -0.019018 0.043442 0.37263 -0.021855 0.0045439 -0.00017068 0.0020223
0.0019422 0.00084928 0.0013725 0.00082221
0.00087691 0.0045304 -0.021855 0.0046743 0.33862 0.11328 0.0013304 -0.00098038
0.00083827 -0.00061223 0.00022909 0.00037509
-0.0015289 -0.00086062 -0.00016056 0.0020367 0.0013226 -0.00096626 0.13951 0.23381
-0.0097685 -0.01854 0.00057276 0.00087038
0.0014033 0.0028189 0.00196 0.00082306 0.00084648 -0.00060837 -0.0097888 -0.018553
0.053855 0.21284 -0.0031752 -0.014605
0.0018144 -0.0013047 0.0013708 0.00081309 0.0002167 0.00037864 0.00056944 0.00087256
-0.0031505 -0.014596 0.056496 0.31879
1400000000 0.25067 0.1961 -0.023863 -0.0072004 0.0051942 0.0031795 -0.0020651 0.00048253
0.0024247 0.00098008 0.00040023 -0.0013344
-0.023819 -0.0072227 0.080732 0.35901 -0.014831 0.0128 0.0013384 0.0013848
0.0012205 -0.00081584 0.0013133 0.00021693
0.0052238 0.0031573 -0.014784 0.012892 0.35145 0.060109 0.00020937 -0.0018746
3.6122e-05 -0.00049184 0.00051377 0.00027018
-0.0020659 0.00047965 0.0013438 0.0013717 0.00021371 -0.0018777 0.1678 0.20447
-0.016377 -0.011021 -0.0011172 -4.6163e-05
0.0024319 0.001002 0.001236 -0.00084151 1.0043e-05 -0.00048366 -0.016393 -0.010983
0.086715 0.20916 -0.010012 -0.0097796
0.00036205 -0.0013111 0.0013035 0.00020086 0.00047888 0.00027088 -0.0011378 -7.6601e-05
-0.010008 -0.0097621 0.1038 0.30972
1460000000 0.27322 0.15193 -0.020618 0.0052365 0.0057469 -0.0018817 -0.0016562 0.0016442
0.002285 -0.00048975 -0.00032114 -0.0010428
-0.020596 0.0052011 0.11451 0.33671 -0.005926 0.015574 0.0018086 0.00019789
0.0009316 -0.0014262 0.0011758 -0.00070286
0.0057435 -0.0018821 -0.0058537 0.015632 0.35734 0.0065165 -0.0014647 -0.0014921
0.00013066 -0.0004087 0.00064893 -0.00040479
-0.001649 0.0016378 0.0018101 0.00020096 -0.0014602 -0.0014681 0.19231 0.17552
-0.017968 -0.003163 -0.0007526 0.0026628
0.0022656 -0.00050717 0.00091264 -0.0014265 0.00014632 -0.00041145 -0.017974 -0.0031362
0.11551 0.19496 -0.012299 -0.0032617
-0.00030839 -0.0010399 0.0011642 -0.00070893 0.00064416 -0.00043034 -0.00075128 0.002633
-0.012345 -0.0032431 0.138 0.28994
1520000000 0.28498 0.11015 -0.014702 0.010792 0.0033837 -0.0042487 2.3436e-05 0.0026538
0.0022488 -0.0016732 -0.0011019 -0.00019667
-0.014701 0.010763 0.14749 0.3219 0.0018402 0.013111 0.0017844 -0.00080953
2.0657e-05 -0.0011212 0.00032162 -0.0010454
0.0033693 -0.0042501 0.00191 0.013108 0.35072 -0.049348 -0.0013513 -0.0003918
0.00056735 -0.00092457 4.7254e-05 -0.00014607
4.6329e-05 0.0026672 0.0017881 -0.00081925 -0.0013465 -0.00038339 0.21398 0.13876
-0.017019 0.0036933 0.0018319 0.0023946
0.0022428 -0.0017049 -2.5369e-06 -0.0011249 0.00058605 -0.00093122 -0.017013 0.0037317
0.14301 0.18131 -0.012548 0.0013975
-0.0011279 -0.00017321 0.00033364 -0.0010506 5.484e-05 -0.00015545 0.001852 0.0023947
-0.012539 0.0013992 0.17273 0.27188
1580000000 0.29388 0.064184 -0.0077082 0.013842 -0.00095834 -0.0050177 0.0014242 0.0020882
-0.00016689 -0.0021344 -0.00028381 0.00046951
-0.0077274 0.013826 0.1742 0.29721 0.005354 0.0081773 0.00052988 -0.0017365
-0.00066827 -0.0010615 -0.00029474 -0.00077503
-0.00099509 -0.0050118 0.0053892 0.0081448 0.33086 -0.10683 -0.0017314 0.00088092
-0.00036154 -0.0011719 8.0522e-05 -0.00049987
0.0014392 0.0020847 0.00052423 -0.0017471 -0.0017332 0.00087642 0.2266 0.10149
-0.012622 0.009344 0.0026326 0.00089139
-0.00020323 -0.0021263 -0.00067223 -0.0010566 -0.00033659 -0.0011769 -0.012611 0.0093914
0.1671 0.16402 -0.0098473 0.0077676
-0.00027443 0.00047829 -0.00028959 -0.00076664 9.8592e-05 -0.0005056 0.0026603 0.00086538
-0.0098428 0.0077406 0.2072 0.24565
1640000000 0.29568 0.023455 -0.00082425 0.012424 -0.0027647 -0.0026489 0.0028928 0.0010443
-0.00062963 -0.0016527 -0.00024224 0.00051646
-0.0008384 0.012415 0.20328 0.27265 0.0060222 0.003373 -0.00077759 -0.0018819
-0.0010568 -0.00034248 -0.00049184 -0.00070362
-0.0027511 -0.0026614 0.0060552 0.0033416 0.3028 -0.1556 -0.0005597 0.0017099
-0.00099781 -0.0010803 -0.0001736 -0.00046048
0.0028902 0.0010259 -0.00078167 -0.0018832 -0.00053872 0.0016801 0.23851 0.055471
-0.0074946 0.010779 0.0028203 -0.0010216
-0.00064017 -0.0016542 -0.0010621 -0.00033217 -0.001024 -0.0010431 -0.0074581 0.010803
0.18882 0.14047 -0.0047986 0.0099362
-0.00025095 0.00051222 -0.00050245 -0.00070616 -0.00018543 -0.00045627 0.0028118 -0.0010132
-0.0047886 0.0099071 0.23379 0.21553
1700000000 0.28864 -0.021393 0.0025314 0.0093035 -0.0035962 0.00010665 0.0031439 -0.0013794
-0.0021514 -0.0008202 0.00064098 0.00034362
0.0025238 0.009302 0.22116 0.24157 0.0039463 0.00046338 -0.0016291 -0.00059167
-0.00075304 0.00013241 -0.00089778 -0.00047949
-0.0035976 0.00014752 0.003942 0.00044336 0.25982 -0.19565 0.00070512 0.0016365
-0.0019919 -0.0001747 -0.00040948 -0.00080924
0.0031344 -0.0014123 -0.0016333 -0.00059408 0.00071594 0.0016448 0.23666 0.0087498
-0.003937 0.011235 0.0016841 -0.0024972
-0.0021637 -0.00079666 -0.00076226 0.00014165 -0.0020203 -0.00017388 -0.0039322 0.011239
0.20573 0.12099 0.00026181 0.010157
0.00064624 0.00034241 -0.00090171 -0.00046695 -0.00040166 -0.00085014 0.0017005 -0.0025107
0.00025283 0.010137 0.25217 0.18149
1760000000 0.27663 -0.069482 0.0045518 0.005782 -0.0023508 0.00094597 0.0011393 -0.0035828
-0.0015405 0.00066998 0.00034916 -0.00061691
0.0045431 0.0057935 0.24703 0.20225 0.0015668 -0.0013789 -0.0013125 0.00030133
-0.00091613 0.00092203 -0.00053871 0.00037077
-0.0023448 0.0009762 0.0015723 -0.0013771 0.21145 -0.22949 0.0013281 0.00088582
-0.0011395 0.0015164 -0.0014081 -0.00064056
0.0011195 -0.0035782 -0.0013158 0.00033271 0.0013343 0.00092149 0.23019 -0.040155
-3.0616e-05 0.0099331 -5.4706e-05 -0.0028625
-0.0015414 0.00067977 -0.00091598 0.00094002 -0.0011236 0.0015159 -2.3292e-05 0.009941
0.21998 0.087242 0.0045446 0.0074334
0.00034167 -0.00063252 -0.00054446 0.00037167 -0.0013948 -0.00060369 -8.0957e-05 -0.002849
0.0045264 0.0074277 0.26599 0.14421
1820000000 0.25249 -0.10641 0.0045226 0.0022762 6.796e-06 0.0025537 -0.0011788 -0.003065
-0.0012835 0.0010811 -8.8599e-05 -8.9815e-05
0.0045213 0.0022858 0.25733 0.17273 -0.00045203 -3.7636e-05 -0.0011954 0.0011252
5.5386e-05 0.0012344 -0.00056411 0.00048842
-2.6209e-05 0.0025234 -0.00044734 -6.4454e-05 0.16082 -0.24503 0.001517 0.0001799
-0.00019443 0.0024915 -0.0014842 0.00025516
-0.0012048 -0.0030912 -0.0011927 0.0011277 0.0015183 0.00017424 0.20417 -0.086497
0.0018484 0.0079041 -0.0017546 -0.0018903
-0.0012519 0.001062 7.755e-05 0.0012434 -0.00019661 0.0025022 0.0018743 0.0079212
0.23719 0.059785 0.0055131 0.0036681
-9.6477e-05 -7.2424e-05 -0.00056764 0.00049762 -0.0015496 0.00023179 -0.0017597 -0.001915
0.0055227 0.0036371 0.27004 0.10877
1880000000 0.21801 -0.1468 0.002182 0.00015581 -0.00040728 0.0022234 -0.0030088 -0.0020616
-0.00015469 0.0018442 0.00028017 -0.0005727
0.0021939 0.00016774 0.26212 0.12646 -0.0024704 0.0016885 -4.7866e-05 0.0016421
0.00053712 0.0010364 0.00011295 0.00094994
-0.00034715 0.0022232 -0.0024406 0.0017104 0.10862 -0.25488 0.0015301 -0.00098101
0.0015197 0.0019881 -0.0011154 0.0015227
-0.0030244 -0.002049 -3.0315e-05 0.0016376 0.0015299 -0.00096254 0.16743 -0.12789
0.0028149 0.0054291 -0.0026025 0.00022407
-0.00011624 0.0018638 0.00054592 0.001046 0.0015341 0.0019764 0.0028409 0.0054492
0.24052 0.028754 0.005698 0.0012547
0.00025531 -0.00057072 0.00012573 0.00095411 -0.0011099 0.0015924 -0.0025668 0.00024631
0.0057036 0.0012502 0.27118 0.07415
1940000000 0.17911 -0.17276 -8.9033e-05 -0.0013711 0.0014323 0.0018137 -0.0036318 0.00065897
0.0014137 0.0010697 -0.00071895 -0.00058658
-9.2928e-05 -0.0013738 0.26307 0.094832 -0.0011364 0.0039384 0.0010379 0.0012054
0.0016431 0.00040507 0.00086007 0.00027753
0.0014404 0.0018317 -0.0011309 0.0039762 0.062724 -0.24817 0.00031084 -0.0018238
0.0024742 0.00037054 0.00042714 0.0017761
-0.003637 0.00064891 0.0010569 0.0011867 0.00033756 -0.0018694 0.1176 -0.16147
0.0020973 0.0034777 -0.0017125 0.0014506
0.0014541 0.0010557 0.0016519 0.00040037 0.0024553 0.00037226 0.0021001 0.0034787
0.24353 -0.0089103 0.004344 -0.0027565
-0.00073124 -0.00058392 0.00085101 0.00028243 0.00042646 0.0017749 -0.0017144 0.0014728
0.0043392 -0.0027367 0.26139 0.038719
2000000000 0.13283 -0.18818 -0.0037922 0.00067643 0.0025116 0.0017054 -0.0022163 0.0032857
0.0012058 4.3992e-05 -0.00071991 0.00044312
-0.0037897 0.00067756 0.24941 0.059221 -0.00092021 0.0057673 0.0014686 0.00037216
0.0011387 -0.0011992 0.00050484 5.457e-05
