!Keysight Technologies,M9804A,MY58100912,A.14.10.03
!Date: Thursday, April 27, 2023 10:28:33
!Correction: S11(C  6-Port  ) 
!S12(C  6-Port  ) 
!S13(C  6-Port  ) 
!S14(C  6-Port  ) 
!S15(C  6-Port  ) 
!S16(C  6-Port  ) 
!S21(C  6-Port  ) 
!S22(C  6-Port  ) 
!S23(C  6-Port  ) 
!S24(C  6-Port  ) 
!S25(C  6-Port  ) 
!S26(C  6-Port  ) 
!S31(C  6-Port  ) 
!S32(C  6-Port  ) 
!S33(C  6-Port  ) 
!S34(C  6-Port  ) 
!S35(C  6-Port  ) 
!S36(C  6-Port  ) 
!S41(C  6-Port  ) 
!S42(C  6-Port  ) 
!S43(C  6-Port  ) 
!S44(C  6-Port  ) 
!S45(C  6-Port  ) 
!S46(C  6-Port  ) 
!S51(C  6-Port  ) 
!S52(C  6-Port  ) 
!S53(C  6-Port  ) 
!S54(C  6-Port  ) 
!S55(C  6-Port  ) 
!S56(C  6-Port  ) 
!S61(C  6-Port  ) 
!S62(C  6-Port  ) 
!S63(C  6-Port  ) 
!S64(C  6-Port  ) 
!S65(C  6-Port  ) 
!S66(C  6-Port  ) 
!S6P File: Measurement: :
# Hz S  RI   R 50
500000000 -0.33772 -0.044636 -0.010647 -0.0020204 -0.009024 0.013755 -0.0051421 0.012992
0.012924 0.0046726 -0.0047977 0.009279
-0.01016 -0.0016946 -0.41884 -0.05645 0.0074569 -0.010639 0.0016844 0.01331
0.0075321 0.0028111 0.0015304 0.014491
-0.0089017 0.013224 0.0073501 -0.010674 -0.26784 0.20661 0.0069817 0.0041141
-0.0026577 0.0082673 0.0009551 0.012504
-0.0037105 0.013566 0.001321 0.012776 0.0069676 0.0041702 -0.33437 0.033504
-0.022008 -0.0047383 0.017175 0.026094
0.01267 0.0049241 0.0067313 0.002547 -0.0026903 0.008463 -0.022425 -0.0046681
-0.21312 -0.21568 -0.028115 0.0063498
-0.0033101 0.0089915 0.00094444 0.014501 0.00094794 0.012812 0.017192 0.026205
-0.02805 0.0063353 -0.26017 -0.14208
560000000 -0.31936 0.11906 -0.02287 -0.063617 1.4946e-05 0.012713 0.0062009 0.011298
0.010006 0.0040296 0.009537 0.008657
-0.024501 -0.064065 -0.37668 0.10311 -0.042127 -0.037253 0.013941 0.0039446
-0.014036 -0.0049422 0.002664 -0.00047805
0.00052747 0.012328 -0.042276 -0.037209 -0.18453 0.25705 -0.00018382 -0.0044041
0.019233 0.0065488 0.006585 -0.0055299
0.005763 0.010171 0.013732 0.0036059 0.00019206 -0.0044157 -0.31216 0.12926
0.0034126 -0.023208 0.0047148 -0.022508
0.0087238 0.0038162 -0.013968 -0.0041754 0.019382 0.0058699 0.0032404 -0.023234
-0.28972 -0.038104 0.0074376 -0.050856
0.0088407 0.0083429 0.0034298 -0.0013384 0.006747 -0.0059864 0.005082 -0.022149
0.0073983 -0.050698 -0.32986 0.0093606
620000000 -0.27693 0.10136 -0.023096 0.0089049 0.0037855 0.0090824 0.0083285 -0.0038494
0.011228 -0.00021933 0.0017057 -0.0021184
-0.022946 0.0086774 -0.40368 0.05576 -0.018206 0.00072761 -0.00095507 -0.0015971
0.011929 -0.0059262 0.0012321 -0.0032039
0.0043676 0.0093436 -0.018302 0.00068577 -0.15467 0.26626 -0.00028138 -0.0053228
-0.0027679 -0.0025155 0.0090083 -0.0037207
0.0095664 -0.0038434 -0.0012122 -0.0020265 -0.00068337 -0.0055183 -0.27115 0.13907
-0.040444 -0.017668 0.012946 0.026713
0.01181 -0.00085328 0.011808 -0.0053366 -0.0021791 -0.002502 -0.04041 -0.018456
-0.20373 -0.07701 -0.044313 0.015849
0.0022339 -0.0021807 0.0012564 -0.0029928 0.0087892 -0.0035066 0.013335 0.027197
-0.044237 0.015841 -0.24719 -0.03046
680000000 -0.23761 0.19063 -0.026778 -0.013623 0.0055155 0.0052577 0.0027245 -0.007232
-0.0034479 -0.011382 0.0044234 -0.0066361
-0.026951 -0.013813 -0.38913 0.15532 -0.032321 -0.0015299 -0.0012145 -0.00053104
-0.0016582 -0.0092275 -0.0013747 -0.0022194
0.0051836 0.0050982 -0.032296 -0.0012809 -0.10258 0.28586 -0.00078769 -0.0010754
-0.0015385 0.00047679 -0.0027806 -0.0094036
0.0018251 -0.007424 -0.0011194 -0.00025849 -0.00074573 -0.0010254 -0.22403 0.19386
-0.023899 -0.0061959 -0.0094142 -0.01316
-0.0034082 -0.011758 -0.0015827 -0.0092994 -0.0016217 0.00027995 -0.024018 -0.0059405
-0.26414 0.025384 -0.007209 -0.0064666
0.0048789 -0.0068502 -0.00099699 -0.002331 -0.0029301 -0.0095984 -0.0092304 -0.012722
-0.0071505 -0.0062859 -0.26231 0.078947
740000000 -0.19361 0.18513 -0.039072 0.027247 0.013318 -0.0048514 -0.00029296 -0.0041512
-0.0044042 -0.0020543 -0.0061657 0.0025274
-0.039041 0.027103 -0.33412 0.17385 -0.035491 0.035362 -0.00054598 -0.0059643
-0.011655 0.0064749 -0.0022587 -0.0068764
0.013281 -0.0048992 -0.035545 0.035521 -0.068994 0.28344 -0.0022081 0.0033666
-0.0020387 -0.0054429 -0.0016069 0.00033536
-0.00046201 -0.0041064 -0.00054838 -0.0061374 -0.0024093 0.0032171 -0.20796 0.20142
-0.04479 -0.0059717 0.024594 0.016344
-0.0042531 -0.0020352 -0.011938 0.0069547 -0.002039 -0.0051693 -0.044704 -0.0061747
-0.1585 0.053753 -0.044658 0.00097691
-0.0063056 0.0030882 -0.0024545 -0.006784 -0.001656 0.00031013 0.02465 0.016528
-0.044743 0.00085048 -0.24986 0.083375
800000000 -0.15895 0.22675 -0.021873 0.016777 0.0054932 -0.01054 -0.0046305 -0.0023415
-0.0041399 0.0019432 0.0038143 0.00041338
-0.021738 0.016787 -0.3393 0.24418 -0.0079662 0.033862 -0.0025652 0.0018476
-0.0010772 0.0027341 0.00061878 0.0051637
0.0054381 -0.010616 -0.0078102 0.033933 -0.028741 0.30633 0.0003773 0.0014896
-3.8648e-05 0.003612 -0.0018498 0.00080879
-0.0044816 -0.0024486 -0.0024674 0.0019917 0.00045504 0.0015536 -0.17801 0.23012
-0.028428 0.014859 0.014507 -0.011088
-0.004115 0.0016902 -0.0011576 0.0025129 -0.00017574 0.0035666 -0.028386 0.015031
-0.21045 0.078465 -0.0175 0.020205
0.0035819 -0.00018539 0.00070317 0.0050423 -0.0020216 0.00066141 0.014333 -0.011166
-0.017424 0.020236 -0.24682 0.13352
860000000 -0.12432 0.24551 -0.017218 0.030493 -0.0030681 -0.0099787 -0.0020784 0.0010619
0.0040304 0.005194 -0.0031802 -0.0035922
-0.017134 0.030315 -0.2915 0.28573 0.0077276 0.034188 -0.00023095 0.0022312
0.0040654 0.0005626 0.0035264 0.00094837
-0.0029914 -0.010002 0.0078266 0.034241 0.018796 0.31435 -0.00069218 5.4009e-05
0.0029383 -0.0014636 0.0017318 0.0042765
-0.00227 0.00085701 -0.00016808 0.0021155 -0.00077768 -1.5091e-06 -0.14055 0.24063
-0.017211 0.018742 -0.0060067 -0.0090246
0.0039168 0.0055256 0.0039268 0.00038294 0.0028905 -0.0014349 -0.017206 0.018739
-0.15769 0.13289 -0.02635 0.016138
-0.0034088 -0.0024219 0.0033239 0.00086203 0.0017558 0.0043369 -0.0060341 -0.0087862
-0.026385 0.016157 -0.19624 0.18078
920000000 -0.10026 0.26876 0.0051445 0.037714 -0.0093616 -0.0048061 -0.0016924 0.001296
0.00082194 0.0021615 0.0028556 -0.0013846
0.005161 0.037491 -0.26311 0.30732 0.028063 0.022127 0.00148 0.0010537
0.0073371 0.0003015 0.0041548 -0.0025579
-0.0093644 -0.0047812 0.028156 0.022072 0.064619 0.31536 0.0020991 2.3291e-05
0.001252 -0.00014884 0.00075471 -0.0013014
-0.0015014 0.0015646 0.0014952 0.0011241 0.0021211 5.2972e-05 -0.11642 0.25774
-0.010527 0.031292 0.0045713 -0.0068257
0.0010486 0.0016084 0.0073525 0.00029045 0.0012518 -0.00015269 -0.01043 0.031505
-0.14946 0.13838 -0.0020336 0.027493
0.0028133 -0.0015843 0.0040966 -0.0027891 0.00077749 -0.0014214 0.0045297 -0.0069437
-0.0020245 0.027517 -0.20658 0.19536
980000000 -0.053149 0.28752 0.017171 0.029834 -0.0093567 0.0043298 0.0016358 0.0033291
0.0039756 -0.0014047 -0.0028822 -0.0024915
0.017256 0.029759 -0.21073 0.34158 0.033143 0.0050583 0.0021152 1.8055e-05
0.0019262 -0.0057606 -2.599e-05 -0.0025741
-0.0093903 0.0043473 0.033195 0.0049411 0.11089 0.30914 0.00058513 -0.0012736
0.00051035 -0.0021747 0.0013417 -0.00022276
0.0016289 0.0029166 0.00206 7.4175e-06 0.00061765 -0.0012868 -0.0775 0.26826
0.0086242 0.031228 -0.009535 -0.0078869
0.0040124 -0.0011548 0.0019925 -0.0056433 0.00051443 -0.0021046 0.0085844 0.031261
-0.11924 0.16792 0.0051114 0.020002
-0.0033859 -0.0023735 -2.751e-05 -0.0025504 0.0013478 -0.00021175 -0.0095377 -0.0079704
0.0050116 0.01997 -0.16435 0.24111
1040000000 -0.012105 0.29675 0.032947 0.018138 -0.0015906 0.0068713 0.0023221 0.00067188
0.00020043 -0.0034453 -0.00028623 -0.001415
0.032876 0.018131 -0.17564 0.3546 0.029621 -0.014781 0.0015139 -0.0017351
-0.0020816 -0.0028979 -0.0014372 -0.0028045
-0.001502 0.0068908 0.02958 -0.014951 0.15694 0.2958 -0.0004961 -0.0018189
-0.0015835 -0.00096024 -0.00066684 -0.00098491
0.002459 0.0011637 0.0014813 -0.0017614 -0.0005008 -0.0017466 -0.050766 0.27861
0.020597 0.018822 -0.0020773 0.00073529
0.0003691 -0.0035681 -0.0020747 -0.0027894 -0.0016069 -0.001008 0.020527 0.018863
-0.087076 0.17571 0.013235 0.019173
-2.0836e-05 -0.0016079 -0.001459 -0.0028482 -0.00059605 -0.0010314 -0.0020523 0.00073302
0.013171 0.01918 -0.14371 0.26281
1100000000 0.033023 0.30469 0.03572 -0.0042391 0.002596 0.0039797 0.0021517 -0.00098933
-0.0018987 -0.0032336 -0.0040088 -0.0002486
0.035701 -0.004175 -0.13233 0.37204 0.015298 -0.028072 6.8929e-05 -0.0018524
-0.0036141 -0.0011364 -0.0036457 -0.00065121
0.0025722 0.0039695 0.015198 -0.028185 0.20354 0.27574 -0.0020669 0.00011721
-0.0019613 0.00030788 -0.0010953 -0.00020804
0.0022586 -0.0011245 3.5314e-05 -0.0018831 -0.0020517 7.9933e-05 -0.010422 0.28358
0.026194 0.0053473 -0.0029298 -0.00062978
-0.0019305 -0.0029394 -0.0036089 -0.0010635 -0.0019417 0.00033754 0.026226 0.0051845
-0.070767 0.18964 0.019629 0.0092807
-0.0041462 -0.00029484 -0.0037529 -0.00059395 -0.0011535 -0.00020675 -0.0029294 -0.00063825
0.019632 0.0092355 -0.098441 0.29499
1160000000 0.083849 0.30044 0.023738 -0.020891 0.0024987 -0.00036953 -0.00019774 -0.0020234
-0.0040531 -0.00075544 -0.0011922 0.0041117
0.023709 -0.020861 -0.08918 0.37675 -0.0037838 -0.029435 -0.0016455 -0.0017173
-0.0029688 0.002498 -0.001591 0.0018934
0.0025762 -0.00036451 -0.0039338 -0.029475 0.2467 0.24495 -0.00091806 0.0018595
-0.00063341 0.0021892 -0.00092237 0.000289
-0.00044728 -0.0018943 -0.001657 -0.0016638 -0.00097121 0.0018555 0.028731 0.28063
0.022925 -0.011648 -0.0038022 0.0049405
-0.0040505 -0.00083921 -0.0030516 0.0025726 -0.00061777 0.0022243 0.02282 -0.011574
-0.037456 0.19907 0.018546 0.00077115
-0.00087042 0.0041719 -0.0016206 0.0018986 -0.00098828 0.00029479 -0.0038097 0.0050786
0.018535 0.00082888 -0.051412 0.29757
1220000000 0.12822 0.2901 0.010345 -0.030173 -0.0016915 -0.00064861 0.00018476 -0.00063091
-0.0027209 0.0022523 0.001137 0.0021889
0.010374 -0.030079 -0.044673 0.38936 -0.017138 -0.021449 -0.0026133 0.00037235
-0.00014567 0.0032603 -0.00094847 0.0020061
-0.001718 -0.00064589 -0.017256 -0.021394 0.28574 0.20582 0.00072497 0.0019479
0.00073084 0.0015475 0.00054074 0.00063264
0.00027883 -0.00071459 -0.0026177 0.00035459 0.00073404 0.0019433 0.068742 0.27239
0.011429 -0.018718 0.0012407 0.0013705
-0.0027839 0.0023065 -0.00016412 0.0032971 0.00069189 0.0015249 0.011442 -0.018802
-0.015786 0.20941 0.014833 -0.012971
0.0010951 0.0021327 -0.0010083 0.0019779 0.00049326 0.00066036 0.0012618 0.0013146
0.014834 -0.012992 -0.020977 0.31642
1280000000 0.17816 0.26874 -0.0081698 -0.028437 -0.0018729 0.0027432 -0.0006689 -0.0020502
-0.00098523 0.0031129 0.0025741 0.0013608
-0.008116 -0.028435 0.0013126 0.38086 -0.024148 -0.0085889 -0.0011065 0.0014664
0.0018582 0.0022422 0.00071108 0.0021464
-0.0018381 0.0027935 -0.024223 -0.0084998 0.31596 0.16205 0.001791 0.00014877
0.0013619 0.00033976 0.00038247 0.00025397
-0.00075416 -0.0021391 -0.0011042 0.0014957 0.0017921 0.00014124 0.10567 0.25565
0.001202 -0.021137 -0.0007291 0.00044402
-0.00087072 0.003124 0.0017988 0.0022208 0.0013306 0.00034389 0.001152 -0.021146
0.019727 0.21455 0.0032779 -0.015664
0.0024877 0.0014194 0.00079575 0.0021452 0.00040711 0.000221 -0.00079662 0.00053918
0.00326 -0.015625 0.027194 0.31959
1340000000 0.21529 0.23554 -0.017918 -0.018724 0.0010684 0.0047454 -0.0016471 -0.0010085
0.0014294 0.0027402 0.001957 -0.0013899
-0.017881 -0.018669 0.040966 0.37299 -0.02193 0.0043776 -0.00022867 0.0021351
0.0021855 0.00087195 0.0013881 0.00077049
0.0010672 0.0047184 -0.021935 0.0045127 0.33786 0.11439 0.0014506 -0.00098976
0.00092986 -0.00064943 0.00013493 0.00024581
-0.0016194 -0.00097513 -0.00023143 0.0021412 0.0014684 -0.0010104 0.13772 0.2351
-0.0094378 -0.018278 0.00045817 0.0010667
0.0014233 0.0026769 0.0022075 0.00087016 0.00095317 -0.00061746 -0.0094293 -0.018343
0.048555 0.21116 -0.0035837 -0.014057
0.001981 -0.00137 0.0014326 0.0008248 0.0001562 0.0002367 0.00060052 0.0010849
-0.0035444 -0.014055 0.065517 0.31644
1400000000 0.24902 0.19793 -0.023505 -0.0070191 0.0054446 0.003201 -0.0022399 0.00044738
0.0024079 0.001093 0.0004222 -0.0013985
-0.023455 -0.0070835 0.078608 0.36007 -0.015039 0.012772 0.0014199 0.0014697
0.0013655 -0.00089846 0.0013961 0.00016996
0.0054853 0.0032166 -0.015019 0.012882 0.35079 0.061299 0.00020276 -0.0019742
1.4182e-05 -0.00047359 0.00033135 0.00027158
-0.0021623 0.00046083 0.0014883 0.0014689 0.0001644 -0.0019638 0.16662 0.20599
-0.01597 -0.011194 -0.00082919 0.00022356
0.0023958 0.0010685 0.0013263 -0.00091798 1.3238e-05 -0.00053047 -0.016144 -0.011143
0.081212 0.20861 -0.010187 -0.0091156
0.00039304 -0.0015258 0.0013193 0.00015934 0.00035995 0.00025401 -0.00088839 0.0001732
-0.010216 -0.0091009 0.11099 0.30662
1460000000 0.27197 0.15388 -0.020268 0.0052111 0.005921 -0.0019061 -0.0017543 0.0018128
0.0022066 -0.00029781 -0.00035313 -0.0012009
-0.020238 0.0052345 0.11288 0.33827 -0.0060689 0.015737 0.0019176 0.00027234
0.00090987 -0.00143 0.0012618 -0.00071331
0.005892 -0.0019968 -0.0059941 0.015768 0.35713 0.0074808 -0.0014606 -0.0015734
0.0001838 -0.00037678 0.00056498 -0.00039428
-0.0017684 0.0018229 0.0018728 0.00025829 -0.0014342 -0.0015703 0.19168 0.17708
-0.017883 -0.003495 -0.00052387 0.0026906
0.0022872 -0.00041366 0.00094498 -0.0014814 0.00016433 -0.00035351 -0.017846 -0.0034959
0.10975 0.19558 -0.011965 -0.0026585
-0.00027154 -0.0011003 0.0012726 -0.00069133 0.00056034 -0.0003818 -0.00050138 0.0027816
-0.011941 -0.002654 0.1444 0.28633
1520000000 0.28466 0.11227 -0.014362 0.010639 0.0035741 -0.0043684 6.253e-05 0.0027714
0.0024028 -0.0016986 -0.001149 -0.00026654
-0.014361 0.01061 0.14655 0.32367 0.0018514 0.013363 0.0018498 -0.00087453
-3.9013e-05 -0.0011828 0.0003693 -0.001011
0.0035606 -0.0044077 0.001937 0.01339 0.3508 -0.048306 -0.0014758 -0.0003627
0.00066966 -0.00085015 0.0001652 -0.0002222
6.5326e-05 0.0027578 0.0018853 -0.00090197 -0.0014413 -0.00037263 0.21392 0.14025
-0.016971 0.0033724 0.0019026 0.0023305
0.0022952 -0.00171 -7.7683e-05 -0.0011156 0.00066247 -0.00083509 -0.017001 0.0034185
0.13772 0.18341 -0.012129 0.0016689
-0.0012249 -0.00025251 0.0003307 -0.0010375 0.0001379 -0.00026237 0.0018758 0.0023049
-0.012127 0.0016662 0.17836 0.26764
1580000000 0.29409 0.065772 -0.007556 0.013513 -0.00090859 -0.005209 0.0015231 0.0021101
-4.1721e-05 -0.0022964 -0.00039407 0.00039163
-0.0075418 0.0135 0.17388 0.29877 0.0055365 0.0083714 0.00049428 -0.0018077
-0.00061982 -0.001059 -0.00024369 -0.00083361
-0.00094873 -0.0052277 0.0055939 0.008354 0.33104 -0.10585 -0.0018421 0.00097118
-0.00035175 -0.0012192 6.9357e-05 -0.00059255
0.0015378 0.0021053 0.00046574 -0.0017854 -0.0018355 0.00098988 0.22692 0.10261
-0.01286 0.0090938 0.0027942 0.00071383
1.8689e-05 -0.0022252 -0.0006161 -0.0010537 -0.00034922 -0.0012025 -0.012855 0.0092456
0.16226 0.16723 -0.0093802 0.0078044
-0.00044023 0.00044536 -0.00026848 -0.00082817 8.8865e-05 -0.00057073 0.0028163 0.00071895
-0.0093599 0.0078087 0.2117 0.24165
1640000000 0.29636 0.024657 -0.00084686 0.012123 -0.002852 -0.0028351 0.0029446 0.0010373
-0.00055362 -0.0017444 -0.00035254 0.00052929
-0.00086345 0.012101 0.20332 0.27415 0.0063052 0.0033705 -0.00081205 -0.001888
-0.0010475 -0.0003977 -0.00049217 -0.00078899
-0.0028611 -0.0028315 0.0063241 0.0033398 0.30359 -0.15515 -0.00050719 0.0017682
-0.001179 -0.0011743 -0.00010075 -0.00047996
0.0028965 0.0010401 -0.00079892 -0.0019054 -0.00056931 0.001778 0.23921 0.056218
-0.007732 0.01073 0.0029483 -0.0010443
-0.00057055 -0.0018231 -0.0010566 -0.00036277 -0.0011888 -0.0012137 -0.0076941 0.010686
0.18512 0.14424 -0.0045046 0.0098609
-0.00029391 0.00059926 -0.000514 -0.00080603 -6.0203e-05 -0.00048341 0.0029805 -0.0010533
-0.004515 0.0098684 0.23772 0.2115
1700000000 0.28905 -0.020728 0.0024239 0.0090296 -0.0037224 3.9753e-05 0.0030913 -0.0015155
-0.0021742 -0.00094947 0.00068068 0.00047525
0.002417 0.0090279 0.22165 0.2426 0.004109 0.00041156 -0.0016136 -0.00061745
-0.00075637 6.7478e-05 -0.0009722 -0.00048516
-0.0037417 3.0458e-05 0.0041108 0.00038266 0.26022 -0.19534 0.00080432 0.001635
-0.0021088 -0.00026857 -0.00048646 -0.00087449
0.0031267 -0.0015485 -0.0016701 -0.00059182 0.0008126 0.0016452 0.23716 0.0089936
-0.0040729 0.011318 0.0017527 -0.0025806
-0.0021766 -0.00089994 -0.00073713 5.9453e-05 -0.0021002 -0.00029405 -0.0041129 0.01144
0.20308 0.12532 0.00039656 0.010218
0.00067186 0.00047725 -0.00098543 -0.00047112 -0.0005716 -0.00082732 0.0017723 -0.0026078
0.00040919 0.01021 0.25552 0.17731
1760000000 0.27688 -0.068974 0.0043986 0.0056114 -0.0025657 0.0010551 0.0012208 -0.003604
-0.0015446 0.00065873 0.00041387 -0.00066102
0.0043703 0.0055838 0.24754 0.20291 0.001658 -0.0014985 -0.0013462 0.00030143
-0.00096122 0.00088516 -0.00061917 0.00043143
-0.0025703 0.0010407 0.0016653 -0.0015125 0.21134 -0.22888 0.0013937 0.00086585
-0.001267 0.0015126 -0.0013951 -0.00057172
0.0012145 -0.0036676 -0.0013287 0.00028612 0.0013842 0.00081787 0.2307 -0.040383
-0.00010457 0.010105 -0.00011596 -0.0029415
-0.001466 0.0006166 -0.00098394 0.00094238 -0.0012885 0.0015272 1.4171e-05 0.010079
0.21824 0.091533 0.0046276 0.0074238
0.00040934 -0.00065633 -0.0006529 0.00043019 -0.0014038 -0.00059363 -0.00017744 -0.0029156
0.0046458 0.0074399 0.26894 0.14002
1820000000 0.25258 -0.1061 0.0042888 0.0021216 -0.00017039 0.0026046 -0.0013076 -0.0031066
-0.0012903 0.0010322 -1.4579e-05 -0.00014276
0.0043083 0.0021324 0.25787 0.17296 -0.00054371 -0.00035053 -0.0012616 0.0011439
-1.2964e-05 0.0012311 -0.0005936 0.00054307
-0.00015055 0.0025872 -0.00055084 -0.00034212 0.1612 -0.24504 0.00142 4.8946e-05
-0.00013838 0.0025516 -0.0014267 0.00032789
-0.0012919 -0.0030816 -0.0012867 0.0011402 0.0014494 8.6676e-05 0.204 -0.086913
0.0019656 0.0081473 -0.0018453 -0.0019572
-0.0013071 0.0011292 5.6045e-06 0.0012259 -0.00019882 0.0025595 0.0018384 0.0081317
0.23632 0.063816 0.0055654 0.0034639
-8.942e-05 -0.0001706 -0.00057763 0.00058043 -0.0014362 0.00031687 -0.0018696 -0.0019842
0.0055576 0.0034734 0.27248 0.10449
1880000000 0.21787 -0.14632 0.0019017 5.0558e-05 -0.00043791 0.0022432 -0.0030424 -0.0020599
-0.00017267 0.0018738 0.0001823 -0.00050438
0.0018807 3.1012e-05 0.2623 0.1263 -0.0026297 0.0015714 -9.0328e-05 0.0016998
0.00050677 0.0011127 9.4782e-05 0.0010296
-0.00044636 0.002254 -0.0026195 0.0015938 0.10898 -0.25424 0.0014977 -0.0006956
0.0016663 0.0020209 -0.00095482 0.001582
-0.0030795 -0.0020803 -3.2938e-05 0.0016901 0.001479 -0.00076591 0.16692 -0.12817
0.002839 0.0055214 -0.0027016 0.00027353
-0.00013953 0.0018823 0.00049801 0.0011231 0.0016865 0.0020153 0.0030186 0.0055353
0.24003 0.032495 0.0057965 0.0012066
0.00022528 -0.00054675 8.8109e-05 0.0010167 -0.00089623 0.0015066 -0.0027782 0.00029479
0.0057687 0.0012018 0.27312 0.069942
1940000000 0.17899 -0.17212 -0.0004064 -0.0013366 0.0013039 0.0021362 -0.0036983 0.00070439
0.0014807 0.0011936 -0.00067315 -0.00053982
-0.00039369 -0.0013344 0.26296 0.094618 -0.0014071 0.0039696 0.0010531 0.0012226
0.0017337 0.00056789 0.00090287 0.00030892
0.0013079 0.0021927 -0.0013825 0.0039787 0.062987 -0.24759 0.00030789 -0.0018874
0.002567 0.00037459 0.0006016 0.0016763
-0.0037456 0.00073038 0.00107 0.001234 0.00032961 -0.0018345 0.11664 -0.16155
0.0023833 0.0033939 -0.0019392 0.0016905
0.0014248 0.0011952 0.0017495 0.00053779 0.0025395 0.0003659 0.0022212 0.0033406
0.2438 -0.0053802 0.0042444 -0.0026195
-0.00072289 -0.00060536 0.00089256 0.00030209 0.00059367 0.0016231 -0.0019397 0.0015894
0.0042211 -0.0026299 0.26261 0.0342
2000000000 0.1328 -0.18727 -0.0041761 0.00084387 0.0026358 0.0018209 -0.0023486 0.0034787
0.0011164 7.4195e-05 -0.00066854 0.00053952
-0.0041568 0.00086072 0.24885 0.059108 -0.0011431 0.0058539 0.0014331 0.0003662
0.0012545 -0.0012227 0.0004218 9.1515e-05
0.0026436 0.0017104 -0.0010911 0.005862 0.019774 -0.23351 -0.0011613 -0.0013154
0.0020128 -0.001304 0.0017017 0.0013093
-0.0022868 0.0034176 0.0014783 0.00035517 -0.0010835 -0.0013617 0.062887 -0.17439
0.00017064 0.0023824 -0.00011138 0.0023232
0.0011863 5.5814e-05 0.0011855 -0.0012387 0.0020619 -0.0012517 0.00025462 0.0024627
0.23918 -0.039105 0.00083355 -0.0035076
