!Keysight Technologies,M9804A,MY58100912,A.14.10.03
!Date: Thursday, April 27, 2023 10:28:33
!Correction: S11(C  6-Port  ) 
!S12(C  6-Port  ) 
!S13(C  6-Port  ) 
!S14(C  6-Port  ) 
!S15(C  6-Port  ) 
!S16(C  6-Port  ) 
!S21(C  6-Port  ) 
!S22(C  6-Port  ) 
!S23(C  6-Port  ) 
!S24(C  6-Port  ) 
!S25(C  6-Port  ) 
!S26(C  6-Port  ) 
!S31(C  6-Port  ) 
!S32(C  6-Port  ) 
!S33(C  6-Port  ) 
!S34(C  6-Port  ) 
!S35(C  6-Port  ) 
!S36(C  6-Port  ) 
!S41(C  6-Port  ) 
!S42(C  6-Port  ) 
!S43(C  6-Port  ) 
!S44(C  6-Port  ) 
!S45(C  6-Port  ) 
!S46(C  6-Port  ) 
!S51(C  6-Port  ) 
!S52(C  6-Port  ) 
!S53(C  6-Port  ) 
!S54(C  6-Port  ) 
!S55(C  6-Port  ) 
!S56(C  6-Port  ) 
!S61(C  6-Port  ) 
!S62(C  6-Port  ) 
!S63(C  6-Port  ) 
!S64(C  6-Port  ) 
!S65(C  6-Port  ) 
!S66(C  6-Port  ) 
!S6P File: Measurement: :
# Hz S  RI   R 50
500000000 -0.33734 -0.043918 -0.010392 -0.002313 -0.0086706 0.01313 -0.0050905 0.012778
0.012742 0.0041849 -0.0049875 0.0088346
-0.010365 -0.002298 -0.4187 -0.054859 0.0080054 -0.0112 0.0016188 0.012764
0.0066918 0.0023935 0.0014566 0.013864
-0.0086413 0.013168 0.0079901 -0.011216 -0.26675 0.20707 0.0071003 0.0038878
-0.0027304 0.0082955 0.00077209 0.01249
-0.0050441 0.012787 0.0016232 0.012773 0.0070992 0.0038985 -0.33401 0.03508
-0.021273 -0.0053182 0.017179 0.026296
0.0128 0.0044304 0.0068101 0.0024799 -0.0025915 0.0083988 -0.021434 -0.005414
-0.21381 -0.21292 -0.027847 0.0062119
-0.0049699 0.0091225 0.001353 0.013957 0.00064395 0.01266 0.0172 0.026049
-0.027689 0.0062348 -0.26217 -0.13693
560000000 -0.31775 0.12033 -0.023826 -0.064184 9.1234e-05 0.0122 0.0053951 0.011186
0.010611 0.0048543 0.010282 0.007628
-0.023739 -0.064103 -0.37656 0.10599 -0.042013 -0.037893 0.013752 0.0036969
-0.013919 -0.0054067 0.0031713 4.2917e-05
0.00010173 0.012216 -0.042125 -0.037835 -0.18379 0.25722 -9.6213e-05 -0.0045159
0.019628 0.0061461 0.0073221 -0.0066402
0.0054119 0.011186 0.013743 0.003664 -0.0001144 -0.0045163 -0.31173 0.12934
0.0040408 -0.023754 0.0037833 -0.021881
0.010637 0.0048031 -0.013889 -0.005406 0.019596 0.0060901 0.0038601 -0.023504
-0.28744 -0.035063 0.0086575 -0.04912
0.010182 0.0077733 0.0032084 0.00019437 0.007354 -0.0067633 0.0041053 -0.021978
0.008505 -0.048995 -0.32693 0.012488
620000000 -0.27655 0.10266 -0.0232 0.0082892 0.0034803 0.0087734 0.0082902 -0.0048541
0.011142 -2.1405e-05 0.00079642 -0.002228
-0.023174 0.0083022 -0.40338 0.056944 -0.018577 0.0002205 -0.0013656 -0.0019126
0.011715 -0.005628 0.0009043 -0.0033822
0.0035285 0.0087579 -0.018598 0.00026399 -0.15455 0.2661 -0.0008772 -0.005421
-0.0027356 -0.0023972 0.0087314 -0.0039508
0.0083145 -0.004847 -0.001372 -0.0019243 -0.00086331 -0.005428 -0.27041 0.14002
-0.040359 -0.018926 0.012564 0.026273
0.0112 -4.8828e-05 0.011733 -0.005795 -0.0026925 -0.0024248 -0.040252 -0.018626
-0.20336 -0.074167 -0.043993 0.016039
0.00071765 -0.0021994 0.00098389 -0.0032863 0.0087754 -0.0040041 0.012579 0.026329
-0.044001 0.01597 -0.24777 -0.025977
680000000 -0.23648 0.19042 -0.027084 -0.014017 0.005129 0.0051563 0.0017295 -0.0068695
-0.002578 -0.011174 0.0054041 -0.0075001
-0.027044 -0.014013 -0.38886 0.15612 -0.03282 -0.0015295 -0.0014943 -0.00056018
-0.0018374 -0.0092101 -0.0010634 -0.0019529
0.0051335 0.0051556 -0.032854 -0.0014518 -0.10266 0.28579 -0.00076586 -0.00055647
-0.0015572 0.0002624 -0.0028831 -0.0094605
0.0017317 -0.0068788 -0.0015021 -0.00056519 -0.00076554 -0.00056131 -0.22411 0.19288
-0.024468 -0.0062776 -0.010261 -0.012065
-0.0026667 -0.01114 -0.0018211 -0.0091688 -0.0016411 0.00032821 -0.024489 -0.0062955
-0.26245 0.02638 -0.005765 -0.0068089
0.0051627 -0.0076257 -0.0010611 -0.0019132 -0.0029581 -0.0093484 -0.010178 -0.01189
-0.0057954 -0.0068071 -0.26051 0.080373
740000000 -0.19268 0.18541 -0.039702 0.027334 0.013174 -0.0051579 -6.6182e-05 -0.0044555
-0.0042994 -0.0023066 -0.0060617 0.0026575
-0.039709 0.027306 -0.33478 0.17481 -0.035549 0.035513 -0.0003726 -0.0063162
-0.011775 0.0066787 -0.0019966 -0.0063691
0.013154 -0.0051857 -0.035471 0.035632 -0.068916 0.28383 -0.0022043 0.0032314
-0.0022245 -0.0049848 -0.0016422 0.0003689
-0.0001074 -0.0044756 -0.00036236 -0.0063167 -0.0022268 0.0032248 -0.20693 0.20128
-0.044757 -0.0065146 0.024439 0.016028
-0.0043039 -0.0022302 -0.011757 0.0068013 -0.0021756 -0.0049382 -0.044973 -0.0063864
-0.15911 0.054007 -0.044066 0.0006425
-0.0062039 0.0026702 -0.0019667 -0.0063725 -0.0016818 0.00035321 0.024511 0.015879
-0.044096 0.00054166 -0.24931 0.086317
800000000 -0.15915 0.2268 -0.022179 0.016976 0.0054492 -0.010551 -0.0046473 -0.0019968
-0.0038175 0.0021833 0.0041926 0.00051647
-0.022176 0.016944 -0.33909 0.24534 -0.0078705 0.034166 -0.0024442 0.0021394
-0.00076228 0.0028721 0.00078263 0.005255
0.00544 -0.010578 -0.0077841 0.034225 -0.02845 0.30701 0.00068259 0.0016147
7.0153e-05 0.0034493 -0.0018408 0.00099276
-0.0046432 -0.0019856 -0.0024435 0.0021523 0.00067951 0.0016064 -0.1781 0.23045
-0.028767 0.014663 0.014291 -0.01041
-0.0038244 0.0021596 -0.00070409 0.0028855 2.5797e-05 0.0034643 -0.02875 0.014762
-0.21 0.079568 -0.017435 0.018971
0.0042065 0.00050771 0.00081765 0.0052527 -0.0018573 0.001001 0.014379 -0.010429
-0.01739 0.018963 -0.24537 0.13652
860000000 -0.12441 0.24682 -0.017498 0.030778 -0.0032287 -0.010026 -0.0019364 0.00067295
0.0038331 0.0052763 -0.0035202 -0.0033146
-0.017494 0.030724 -0.29107 0.28713 0.0078684 0.034287 -0.00010889 0.0020149
0.0040745 0.00013274 0.0034041 0.00083476
-0.0032543 -0.010022 0.0079797 0.034291 0.019312 0.31492 -0.00064007 -7.6782e-05
0.0027971 -0.0016362 0.0016316 0.0043252
-0.001936 0.00068973 -9.6959e-05 0.0020302 -0.00064348 -7.823e-05 -0.14014 0.24117
-0.017477 0.018667 -0.0060168 -0.0088583
0.0037895 0.005256 0.0039553 9.6681e-05 0.0027729 -0.0016557 -0.017511 0.018684
-0.15777 0.13346 -0.026725 0.015555
-0.0036257 -0.0032768 0.00341 0.00074202 0.0016277 0.0042947 -0.0060319 -0.0089214
-0.026717 0.01545 -0.19525 0.18271
920000000 -0.099769 0.26908 0.0051349 0.037896 -0.0094795 -0.0046448 -0.0017195 0.0015742
0.00069618 0.0019451 0.002538 -0.001571
0.0051073 0.037861 -0.26279 0.30858 0.028054 0.022092 0.0014573 0.0011247
0.0068732 0.00013588 0.0041015 -0.0028054
-0.0094945 -0.0046281 0.028141 0.022037 0.065396 0.3158 0.0019488 9.113e-05
0.0011757 -0.00028582 0.0008133 -0.0011511
-0.0017201 0.0015713 0.0014623 0.0011246 0.0019569 9.5538e-05 -0.11632 0.25814
-0.010916 0.031559 0.004278 -0.0067354
0.00072905 0.0019797 0.0069282 9.5191e-05 0.0011665 -0.00027905 -0.010906 0.031587
-0.14892 0.13927 -0.0026438 0.027483
0.0025441 -0.0015939 0.0041038 -0.002815 0.00079312 -0.0011614 0.0042636 -0.0066944
-0.0026045 0.027488 -0.2044 0.19745
980000000 -0.052503 0.2889 0.017443 0.030057 -0.0092891 0.0044964 0.0019387 0.0032537
0.0038608 -0.0012422 -0.0030814 -0.0024581
0.017402 0.030026 -0.20999 0.34283 0.033233 0.0049447 0.0021955 5.5325e-05
0.0017112 -0.0057385 -7.812e-05 -0.0025015
-0.0092566 0.0045205 0.033262 0.0048418 0.1118 0.30946 0.00063097 -0.0012438
0.00041899 -0.0021068 0.0014407 -0.00027515
0.0019649 0.0032368 0.002185 4.6889e-05 0.0006347 -0.0012449 -0.077477 0.26931
0.0087011 0.031439 -0.0093537 -0.0077411
0.0038849 -0.0012488 0.001695 -0.0057744 0.00042852 -0.0020958 0.0087992 0.031411
-0.11922 0.16877 0.005054 0.019833
-0.0030908 -0.0025104 -1.5859e-05 -0.0025121 0.0014405 -0.00030717 -0.0093632 -0.0077462
0.0050256 0.019881 -0.162 0.24293
1040000000 -0.010702 0.29722 0.033155 0.01816 -0.001414 0.0070137 0.0023568 0.00066801
4.5604e-05 -0.0035153 -0.00020712 -0.0011749
0.0331 0.018155 -0.17444 0.35577 0.029588 -0.014877 0.0015522 -0.0018011
-0.0021493 -0.0026574 -0.0014185 -0.002684
-0.0013831 0.0070117 0.02954 -0.014973 0.15792 0.29586 -0.00050973 -0.0016865
-0.0015111 -0.00089424 -0.00053284 -0.0010676
0.0023676 0.00065307 0.0015362 -0.0017876 -0.00050125 -0.0016883 -0.050111 0.27923
0.020635 0.01883 -0.0021343 0.00091652
5.0603e-05 -0.0035148 -0.0021956 -0.0026928 -0.0015097 -0.00089985 0.02068 0.018773
-0.086835 0.17635 0.01341 0.019484
-0.00017152 -0.0011971 -0.0014152 -0.0026402 -0.0005402 -0.0010614 -0.0021291 0.00097616
0.013357 0.019467 -0.14107 0.26397
1100000000 0.034436 0.30549 0.035883 -0.0041538 0.0028034 0.0039935 0.0021474 -0.0011577
-0.0018765 -0.0032005 -0.0040388 -0.00010358
0.035849 -0.0041294 -0.13121 0.37326 0.015251 -0.028085 -4.5907e-05 -0.0018317
-0.0033663 -0.0010247 -0.003598 -0.0006074
0.0028172 0.0039823 0.015155 -0.028164 0.20444 0.27562 -0.0019914 0.00012066
-0.0018756 0.00039167 -0.001174 -0.00036513
0.0021415 -0.0011619 -4.9115e-05 -0.0018331 -0.0019926 0.000122 -0.009538 0.28433
0.026264 0.0051512 -0.0028064 -0.0003086
-0.0018885 -0.0031954 -0.0033868 -0.0010123 -0.0018847 0.00039042 0.026299 0.0051482
-0.070368 0.19086 0.019402 0.0089683
-0.0040475 -8.4888e-05 -0.0036197 -0.00056681 -0.0011741 -0.00034143 -0.0028144 -0.00030599
0.019399 0.0089599 -0.09602 0.29633
1160000000 0.085864 0.30076 0.023964 -0.02093 0.0027337 -0.00046301 -0.00044448 -0.0021459
-0.0042304 -0.00090533 -0.0010595 0.0041345
0.023941 -0.020904 -0.087275 0.37772 -0.0038112 -0.029381 -0.0016497 -0.001725
-0.0029003 0.0023813 -0.0014336 0.0018832
0.0027403 -0.00047206 -0.0039337 -0.029379 0.24763 0.24466 -0.00083617 0.001848
-0.00065433 0.0020145 -0.0010259 0.00017869
-0.00043497 -0.002133 -0.0016791 -0.0017103 -0.00084318 0.0018487 0.030156 0.28115
0.022709 -0.011462 -0.0037835 0.0050665
-0.0042451 -0.00086555 -0.0029404 0.0023647 -0.00067818 0.0020391 0.022674 -0.011509
-0.036655 0.2007 0.018434 0.00084694
-0.0010146 0.0040895 -0.0013791 0.0018866 -0.0010217 0.00017244 -0.003769 0.0051169
0.018441 0.00084825 -0.048392 0.29875
1220000000 0.13013 0.28975 0.010429 -0.030203 -0.0015519 -0.0007978 0.00012016 -0.00068197
-0.0026976 0.0023066 0.0011441 0.0020401
0.010436 -0.030173 -0.042851 0.38996 -0.017107 -0.021327 -0.0026019 0.00042799
-0.00010016 0.0030992 -0.00090401 0.0018905
-0.0015407 -0.00079515 -0.017221 -0.021277 0.2867 0.20544 0.00077198 0.0018409
0.00068541 0.0013809 0.0004064 0.00060488
0.00012783 -0.00067952 -0.0026026 0.00043341 0.00077291 0.001835 0.070025 0.27234
0.011447 -0.018677 0.0015226 0.0013047
-0.0026931 0.0023336 -8.0808e-05 0.0031168 0.00066619 0.0014016 0.011424 -0.018692
-0.015032 0.2108 0.014448 -0.012801
0.0011737 0.0020507 -0.00092746 0.0019002 0.000397 0.0006022 0.0015496 0.0013283
0.014474 -0.012822 -0.018262 0.31679
1280000000 0.18012 0.26827 -0.0080448 -0.028555 -0.0018579 0.0025295 -0.0007751 -0.0019463
-0.000887 0.00308 0.0023961 0.0013414
-0.0080286 -0.02853 0.0033039 0.38117 -0.024046 -0.0084911 -0.0010634 0.0014128
0.0017863 0.0019858 0.00061859 0.0021677
-0.0018483 0.0025388 -0.024108 -0.0083848 0.31698 0.16151 0.0016897 0.00010385
0.0012485 0.00035288 0.00039727 0.00028539
-0.00078765 -0.0019483 -0.0010452 0.0014206 0.001683 9.5289e-05 0.10692 0.25527
0.001275 -0.02107 -0.00061733 0.00046781
-0.00087362 0.0030592 0.0018139 0.0020095 0.0012639 0.00034957 0.0012407 -0.021068
0.021593 0.21579 0.0031127 -0.015144
0.0024454 0.0013384 0.00063208 0.0021697 0.0003991 0.00029877 -0.00062374 0.0004543
0.0031628 -0.015139 0.030219 0.31968
1340000000 0.21732 0.23437 -0.017807 -0.018901 0.00092309 0.0045632 -0.001564 -0.00091759
0.001455 0.0027371 0.0018876 -0.0013465
-0.017778 -0.01891 0.043032 0.37277 -0.021815 0.0044371 -0.00022467 0.002023
0.0020892 0.00088479 0.0013636 0.00083109
0.00094144 0.0045547 -0.021819 0.0045488 0.33888 0.11343 0.0013761 -0.00096683
0.00095163 -0.00063462 8.2607e-05 0.00032915
-0.0015653 -0.00091248 -0.00022073 0.0020335 0.0013761 -0.00097175 0.13875 0.23434
-0.0092359 -0.01827 0.00073348 0.0010068
0.0014698 0.0027249 0.0020969 0.0008681 0.00094829 -0.00064388 -0.0092573 -0.018239
0.050604 0.21196 -0.0034156 -0.0138
0.001875 -0.0013562 0.0013755 0.0008073 8.5053e-05 0.00032918 0.00072942 0.0010187
-0.003394 -0.013808 0.06847 0.31631
1400000000 0.25037 0.19632 -0.023512 -0.007282 0.0052686 0.0031066 -0.002093 0.00043486
0.0024018 0.0010054 0.00039991 -0.0014232
-0.023493 -0.0072942 0.080386 0.3596 -0.014892 0.012676 0.0013786 0.0013921
0.0013019 -0.00084074 0.0012977 0.00017656
0.0052825 0.0030898 -0.014842 0.012764 0.35166 0.060169 0.00015715 -0.0019062
9.9842e-05 -0.00053989 0.00036201 0.00021622
-0.0020829 0.00044169 0.0013894 0.0013929 0.00016261 -0.0018944 0.16722 0.2053
-0.015797 -0.011087 -0.00085626 4.0198e-05
0.0023852 0.0010051 0.0012927 -0.00085288 8.3678e-05 -0.00056527 -0.015843 -0.011052
0.083629 0.209 -0.0098705 -0.0089979
0.00038052 -0.0014205 0.0012757 0.00018346 0.00036328 0.0002146 -0.00085995 4.0676e-05
-0.0098625 -0.0090076 0.11354 0.30604
1460000000 0.27314 0.15213 -0.020443 0.0049324 0.0057284 -0.0018512 -0.0016839 0.0017312
0.0021499 -0.00037741 -0.00034955 -0.0010769
-0.020422 0.0049158 0.11456 0.33744 -0.0059903 0.015537 0.0018116 0.00028741
0.00096456 -0.0013736 0.0012003 -0.00066752
0.0057294 -0.0018726 -0.0059266 0.015578 0.35762 0.0060119 -0.0014486 -0.0014903
5.6911e-05 -0.00032935 0.00059243 -0.00031778
-0.0016744 0.0017223 0.0018065 0.00027768 -0.0014499 -0.0014847 0.19226 0.1763
-0.017518 -0.0036985 -0.00060894 0.0025662
0.0021484 -0.00038787 0.00095612 -0.001383 6.8576e-05 -0.00032437 -0.017529 -0.0036573
0.11228 0.19531 -0.011674 -0.0027465
-0.00034609 -0.0010706 0.0011977 -0.00066589 0.00056654 -0.00032517 -0.00060514 0.002559
-0.011686 -0.0027539 0.14718 0.2855
1520000000 0.28512 0.11038 -0.014656 0.010496 0.0034324 -0.004265 -8.1583e-06 0.0026735
0.0022676 -0.0016489 -0.0011616 -0.00021245
-0.014651 0.010478 0.14795 0.32266 0.001727 0.013191 0.0018305 -0.00078716
1.0297e-05 -0.0011207 0.00032967 -0.00098986
0.0034085 -0.0042834 0.0018025 0.013193 0.35113 -0.049938 -0.0013525 -0.00036157
0.00062036 -0.00075756 0.00014561 -0.00014243
5.7417e-06 0.0026753 0.0018272 -0.00080334 -0.0013488 -0.00035979 0.21414 0.13951
-0.016827 0.0030693 0.001831 0.0021925
0.0022505 -0.0016479 4.091e-06 -0.001126 0.00062951 -0.00076413 -0.016829 0.0031152
0.14005 0.18237 -0.011844 0.0014473
-0.001156 -0.00019074 0.00031187 -0.00099859 0.00012779 -0.00016051 0.0018379 0.0021747
-0.011861 0.001442 0.18088 0.26638
1580000000 0.2944 0.064288 -0.0079096 0.013575 -0.00099145 -0.0049836 0.0014796 0.0020693
-7.7941e-05 -0.0022082 -0.00032214 0.00042711
-0.0079171 0.013569 0.17496 0.29779 0.0053083 0.0082522 0.0005366 -0.0017594
-0.00060653 -0.0010772 -0.00026682 -0.00078269
-0.0010179 -0.0049835 0.0053556 0.0082326 0.33087 -0.10739 -0.0017606 0.00091417
-0.00032359 -0.0010777 0.00015665 -0.00051031
0.0014879 0.0020673 0.00052373 -0.0017681 -0.0017645 0.00090858 0.2271 0.10206
-0.012838 0.0087429 0.0025905 0.00078431
-9.318e-05 -0.0022049 -0.00060915 -0.0010673 -0.00034663 -0.0010851 -0.012837 0.0087836
0.16448 0.16555 -0.0092889 0.0075275
-0.00030675 0.00042278 -0.00026389 -0.00078726 0.00014719 -0.00052069 0.0025755 0.00077057
-0.0093142 0.0075178 0.21394 0.24002
1640000000 0.29645 0.023062 -0.0010723 0.012346 -0.0027552 -0.0025442 0.0028761 0.0010476
-0.00048334 -0.0017091 -0.00029276 0.00057136
-0.0010883 0.012346 0.20441 0.27294 0.0060455 0.0034474 -0.00076237 -0.0019208
-0.0010225 -0.00036144 -0.00046058 -0.00073588
-0.0027693 -0.0025297 0.0060687 0.0034183 0.30306 -0.1567 -0.00050233 0.0016542
-0.0010845 -0.0011646 -3.5171e-05 -0.00042829
0.0028818 0.0010386 -0.0007738 -0.0019169 -0.00051079 0.0016609 0.23925 0.055582
-0.0080036 0.010412 0.0028257 -0.0009326
-0.00049791 -0.0017345 -0.0010428 -0.00036319 -0.0011126 -0.0011765 -0.0079833 0.010454
0.18676 0.14225 -0.0045733 0.0095313
-0.00027371 0.00057936 -0.00045382 -0.00073598 -2.0403e-05 -0.00041411 0.0028167 -0.0009673
-0.004578 0.0095207 0.23995 0.20967
1700000000 0.28902 -0.022051 0.0022952 0.0093757 -0.0034902 0.00014704 0.003142 -0.001419
-0.0021268 -0.00091366 0.00066429 0.00047098
0.0022882 0.0093587 0.2223 0.24156 0.0039671 0.00061148 -0.0016209 -0.00061647
-0.00073351 0.00011259 -0.00093117 -0.00043469
-0.003489 0.00015857 0.0039617 0.00059245 0.2593 -0.19643 0.00076088 0.0016596
-0.0019799 -0.00024622 -0.00044247 -0.00085218
0.0031348 -0.0014359 -0.0016228 -0.00061421 0.00075813 0.0016597 0.2373 0.0084509
-0.0044728 0.01127 0.0016617 -0.0024627
-0.0021252 -0.00089227 -0.00074896 0.00011851 -0.0019955 -0.00024387 -0.0044562 0.011279
0.2041 0.12317 0.00020964 0.0098324
0.00065814 0.00044718 -0.00093292 -0.00044099 -0.00042504 -0.00087075 0.0016612 -0.002463
0.00020482 0.0098306 0.25726 0.17507
1760000000 0.27686 -0.070379 0.0044386 0.0059839 -0.0023372 0.001011 0.0012048 -0.0035716
-0.0015022 0.00062978 0.00043534 -0.00062024
0.0044266 0.0059827 0.24825 0.20191 0.0016364 -0.0012408 -0.001317 0.00026413
-0.00092282 0.00094377 -0.00059345 0.00038722
-0.0023366 0.0010178 0.0016328 -0.0012536 0.21034 -0.22991 0.0013284 0.00084039
-0.0012184 0.0014459 -0.0013655 -0.0005676
0.0011757 -0.0035783 -0.0013172 0.00027044 0.0013279 0.0008471 0.23075 -0.04082
-0.00037784 0.010221 -0.00012886 -0.0028856
-0.0014848 0.00063359 -0.00091091 0.00094676 -0.0012186 0.0014523 -0.00033743 0.010235
0.21884 0.089429 0.0044674 0.0071589
0.00043808 -0.00062561 -0.00058768 0.00038887 -0.001364 -0.0005554 -0.00013381 -0.0028737
0.0044748 0.0071772 0.27035 0.13772
1820000000 0.25229 -0.10749 0.0044756 0.0024198 -9.4576e-05 0.0024753 -0.0011897 -0.0031174
-0.0013192 0.0010135 -5.07e-05 -2.819e-05
0.0044625 0.0024189 0.25831 0.17189 -0.00040333 -0.00015307 -0.0013078 0.001093
5.5193e-05 0.0012173 -0.00054494 0.00053324
-7.8957e-05 0.002475 -0.00040297 -0.00015059 0.16027 -0.24565 0.0013786 0.00010849
-0.0001854 0.0024371 -0.001349 0.00036518
-0.0012101 -0.0031075 -0.0012997 0.0011058 0.0013878 0.00011874 0.20403 -0.08746
0.0017207 0.008276 -0.0017261 -0.0018098
-0.0013025 0.0010208 7.0618e-05 0.0012252 -0.00017964 0.0024476 0.0017561 0.0082807
0.2365 0.061821 0.0052642 0.0033775
-4.5493e-05 -3.7451e-05 -0.00055022 0.00053924 -0.001344 0.00035171 -0.0017523 -0.0017959
0.005272 0.0033815 0.27337 0.10177
1880000000 0.21743 -0.14773 0.0022591 0.00022875 -0.00039118 0.0020612 -0.0030497 -0.0021456
-0.00018659 0.0019535 0.0001892 -0.00058069
0.0022585 0.00023811 0.2628 0.12551 -0.0023739 0.0016489 -5.5943e-05 0.0016597
0.00051871 0.0010382 0.00012373 0.00092961
-0.00037886 0.0020594 -0.0023623 0.0016648 0.10816 -0.25492 0.001493 -0.0007983
0.0014902 0.0020487 -0.0010082 0.0013593
-0.0030567 -0.002125 -4.0436e-05 0.0016607 0.001497 -0.00080209 0.16687 -0.12881
0.0029435 0.0057008 -0.0025806 0.00022966
-0.00017044 0.0019662 0.0005364 0.0010563 0.0015298 0.002035 0.0029576 0.0057103
0.24001 0.030619 0.0054185 0.0012014
0.00018605 -0.00057376 0.00012907 0.00093332 -0.0010184 0.0013579 -0.0025863 0.00022346
0.0054164 0.0012084 0.27378 0.06747
1940000000 0.17828 -0.17374 -2.6363e-05 -0.0013766 0.0012913 0.0020761 -0.0036514 0.00068491
0.0014911 0.0011718 -0.00070025 -0.00050733
-2.6193e-05 -0.0013828 0.26353 0.093685 -0.001164 0.0038256 0.0010209 0.0012472
0.001639 0.00045944 0.00081089 0.00029975
0.0012987 0.0020626 -0.0011401 0.0038368 0.062101 -0.24848 0.00031613 -0.0018134
0.0024302 0.0005198 0.00038387 0.0016371
-0.0036562 0.00070472 0.0010226 0.0012328 0.00029361 -0.001825 0.11634 -0.16198
0.002209 0.0035385 -0.0017927 0.0015277
0.0014964 0.0011646 0.0016493 0.00042849 0.0024147 0.00050374 0.0022209 0.0035524
0.24338 -0.0071242 0.0039042 -0.0024267
-0.00071834 -0.00049395 0.00081788 0.00028697 0.00037491 0.0016395 -0.0017681 0.0015339
0.0039299 -0.0024249 0.2629 0.031843
2000000000 0.13184 -0.1884 -0.0038142 0.00069022 0.0025239 0.0017325 -0.0023443 0.0034503
0.0011935 5.1911e-05 -0.00054336 0.00042184
-0.003814 0.00070033 0.24937 0.058125 -0.0010412 0.0056414 0.001514 0.00038406
0.0011462 -0.0011681 0.0004815 0.00017889
0.002539 0.0017171 -0.0010022 0.0056517 0.018483 -0.23375 -0.0011246 -0.0013037
0.0020481 -0.001234 0.0016847 0.0014901
-0.0023253 0.0034638 0.0015164 0.00036426 -0.0011206 -0.0012983 0.06301 -0.17501
0.00042354 0.0025781 -8.264e-05 0.0021465
0.0011923 4.3472e-05 0.0011355 -0.0011866 0.0020399 -0.0012422 0.00043341 0.0025715
0.23881 -0.040757 0.00069314 -0.0032999
