!Keysight Technologies,M9804A,MY58100912,A.14.10.03
!Date: Thursday, April 27, 2023 10:28:33
!Correction: S11(C  6-Port  ) 
!S12(C  6-Port  ) 
!S13(C  6-Port  ) 
!S14(C  6-Port  ) 
!S15(C  6-Port  ) 
!S16(C  6-Port  ) 
!S21(C  6-Port  ) 
!S22(C  6-Port  ) 
!S23(C  6-Port  ) 
!S24(C  6-Port  ) 
!S25(C  6-Port  ) 
!S26(C  6-Port  ) 
!S31(C  6-Port  ) 
!S32(C  6-Port  ) 
!S33(C  6-Port  ) 
!S34(C  6-Port  ) 
!S35(C  6-Port  ) 
!S36(C  6-Port  ) 
!S41(C  6-Port  ) 
!S42(C  6-Port  ) 
!S43(C  6-Port  ) 
!S44(C  6-Port  ) 
!S45(C  6-Port  ) 
!S46(C  6-Port  ) 
!S51(C  6-Port  ) 
!S52(C  6-Port  ) 
!S53(C  6-Port  ) 
!S54(C  6-Port  ) 
!S55(C  6-Port  ) 
!S56(C  6-Port  ) 
!S61(C  6-Port  ) 
!S62(C  6-Port  ) 
!S63(C  6-Port  ) 
!S64(C  6-Port  ) 
!S65(C  6-Port  ) 
!S66(C  6-Port  ) 
!S6P File: Measurement: :
# Hz S  RI   R 50
500000000 -0.33742 -0.045333 -0.010348 -0.0024528 -0.0087241 0.013609 -0.0053384 0.012682
0.012395 0.0045228 -0.0050702 0.0089299
-0.010773 -0.0021963 -0.41895 -0.056722 0.0074527 -0.010654 0.0015218 0.012842
0.0069927 0.0026285 0.0011966 0.013995
-0.0088838 0.013355 0.0075931 -0.010726 -0.26785 0.20682 0.0069113 0.0041601
-0.0027637 0.0083498 0.00034024 0.012714
-0.0049815 0.012939 0.0012924 0.012727 0.0068169 0.0040823 -0.33458 0.033787
-0.021643 -0.0052532 0.017099 0.02632
0.012133 0.004247 0.0070252 0.0022682 -0.0027581 0.0083721 -0.021662 -0.005197
-0.21399 -0.21539 -0.027887 0.0062588
-0.0055088 0.0092043 0.0008878 0.013803 0.00015357 0.012656 0.017163 0.026249
-0.027894 0.0062365 -0.26054 -0.14104
560000000 -0.31881 0.11994 -0.023518 -0.064103 0.00011104 0.012314 0.0055369 0.011431
0.010507 0.0049556 0.010514 0.0084809
-0.0235 -0.063837 -0.37754 0.10389 -0.042048 -0.036931 0.013714 0.0038813
-0.013752 -0.0045915 0.0029517 4.8365e-05
-0.00033584 0.012138 -0.042177 -0.036907 -0.18501 0.25725 2.8851e-05 -0.0043322
0.019627 0.0063986 0.0070534 -0.0062282
0.0057137 0.011796 0.013884 0.0038814 0.00021231 -0.0042129 -0.31222 0.12912
0.0033994 -0.023528 0.0042279 -0.022077
0.0107 0.0038939 -0.014147 -0.0047834 0.019585 0.0064208 0.0034106 -0.02358
-0.28794 -0.035931 0.0080913 -0.049585
0.010462 0.0094723 0.0033642 6.3999e-05 0.0072096 -0.0065113 0.0042265 -0.022114
0.0080636 -0.049532 -0.32779 0.010083
620000000 -0.27696 0.10235 -0.02343 0.0090351 0.0037006 0.0089505 0.0084646 -0.0045999
0.011438 -0.00011247 0.0010709 -0.0019429
-0.023398 0.008683 -0.40369 0.055758 -0.018322 0.00058913 -0.0012428 -0.0018311
0.011887 -0.0057867 0.0012397 -0.0030409
0.0037308 0.0089896 -0.018346 0.00072555 -0.15469 0.26619 -0.00065451 -0.0053766
-0.0022163 -0.002661 0.0089505 -0.0036492
0.0088165 -0.0044313 -0.0014299 -0.0017142 -0.00054395 -0.0055079 -0.27095 0.13963
-0.040095 -0.018767 0.012773 0.026999
0.010841 0.00034521 0.011984 -0.0056226 -0.0024686 -0.0025209 -0.040019 -0.018777
-0.20482 -0.076868 -0.04465 0.016254
0.0019927 -0.0019203 0.00085808 -0.0030846 0.0089943 -0.0039001 0.012732 0.027094
-0.044643 0.016207 -0.24849 -0.029447
680000000 -0.23727 0.18973 -0.026856 -0.013673 0.0052851 0.0050297 0.0021679 -0.0067858
-0.0026305 -0.011424 0.0050115 -0.0074881
-0.02658 -0.013696 -0.38928 0.15517 -0.032322 -0.0014808 -0.0012743 -0.00040388
-0.0015553 -0.009392 -0.0011344 -0.0021421
0.0053024 0.0051363 -0.032374 -0.0013746 -0.10254 0.28592 -0.00069315 -0.00082674
-0.0014275 8.903e-05 -0.0028243 -0.0095333
0.0020192 -0.0068468 -0.001293 -0.00056414 -0.00068739 -0.00084478 -0.22418 0.19265
-0.024315 -0.0061755 -0.01045 -0.012196
-0.0026769 -0.011327 -0.0016169 -0.0093015 -0.0014847 0.00021724 -0.02432 -0.0061414
-0.26424 0.025461 -0.0059651 -0.0060473
0.0054072 -0.0076929 -0.0012838 -0.0022125 -0.0029485 -0.009621 -0.01044 -0.012241
-0.0059706 -0.0060575 -0.2613 0.079081
740000000 -0.19308 0.18499 -0.039177 0.027381 0.013365 -0.0053536 1.5567e-05 -0.0045109
-0.0043045 -0.0024232 -0.006251 0.0029134
-0.039103 0.02738 -0.33492 0.17397 -0.03525 0.035174 -0.0005956 -0.0063915
-0.011318 0.0067705 -0.00208 -0.0068894
0.013414 -0.0051769 -0.03517 0.035332 -0.068879 0.28344 -0.0021874 0.0029991
-0.0024633 -0.0050234 -0.0014348 0.00043606
-0.00029249 -0.0044363 -0.00062852 -0.0066164 -0.0022472 0.0029804 -0.20744 0.20112
-0.044375 -0.0062868 0.024657 0.016269
-0.0040471 -0.0020238 -0.011351 0.0065551 -0.0023244 -0.0050712 -0.044413 -0.0062551
-0.15927 0.053354 -0.044287 0.00082104
-0.0065823 0.0025182 -0.0021542 -0.0068218 -0.001654 0.00026757 0.024705 0.016244
-0.044273 0.00080864 -0.25005 0.08384
800000000 -0.1592 0.22626 -0.021631 0.016844 0.0055009 -0.010512 -0.0044835 -0.0020371
-0.0040394 0.0018685 0.0043433 0.00054067
-0.021694 0.016715 -0.33918 0.24418 -0.0079144 0.033943 -0.0024788 0.0021065
-0.00097225 0.0027569 0.00081279 0.0052134
0.0055746 -0.010552 -0.0077254 0.034006 -0.028532 0.30634 0.00051343 0.001633
-6.4064e-05 0.0034996 -0.0017893 0.0009059
-0.0044023 -0.0021737 -0.0023948 0.0021129 0.00053415 0.0016841 -0.17818 0.2303
-0.028406 0.014772 0.014611 -0.010519
-0.0037057 0.001825 -0.00099124 0.0026896 -6.3222e-05 0.0034921 -0.028421 0.01483
-0.20985 0.078831 -0.017138 0.01962
0.0046087 0.00050412 0.0011071 0.0052916 -0.0018007 0.0010724 0.014591 -0.010564
-0.017178 0.019594 -0.24644 0.1343
860000000 -0.12471 0.24588 -0.01723 0.030488 -0.0030855 -0.010075 -0.0018038 0.00061101
0.0036802 0.0053652 -0.0035398 -0.0032176
-0.017144 0.030515 -0.29131 0.28573 0.0077135 0.034201 -0.0002126 0.0021422
0.0038886 0.00050123 0.0033199 0.00081308
-0.0030945 -0.010041 0.0078788 0.034197 0.018766 0.31422 -0.00066525 1.5776e-05
0.0028258 -0.0015396 0.0018096 0.0042008
-0.0018236 0.00060009 -0.00010337 0.0022647 -0.00067197 5.1182e-05 -0.14045 0.24056
-0.017235 0.018522 -0.0059125 -0.0087994
0.0036557 0.0052489 0.0039407 0.00049145 0.0028046 -0.0015524 -0.017244 0.018577
-0.15744 0.13277 -0.026355 0.015803
-0.0036136 -0.0030423 0.003501 0.00083361 0.0017734 0.0042236 -0.0058988 -0.0087978
-0.026393 0.015802 -0.19627 0.18105
920000000 -0.10039 0.26834 0.0052194 0.037534 -0.0093414 -0.0048445 -0.0018631 0.0014607
0.0008801 0.0019723 0.0027752 -0.0015286
0.005205 0.037507 -0.26329 0.30708 0.028037 0.02211 0.0014144 0.0010913
0.0072501 0.00026589 0.0042039 -0.0028048
-0.0093497 -0.0048373 0.02813 0.022026 0.064645 0.3153 0.0020542 8.733e-05
0.0012734 -0.00021804 0.00086151 -0.0012385
-0.0017415 0.0013783 0.0014126 0.0011274 0.0020495 0.00013275 -0.11658 0.25763
-0.010752 0.031379 0.0043843 -0.0067109
0.00093372 0.0019299 0.0072956 0.00021185 0.001291 -0.0002498 -0.010711 0.031417
-0.14893 0.13855 -0.0022265 0.027389
0.0030007 -0.0016208 0.0040788 -0.0027247 0.00078563 -0.001201 0.0043825 -0.0067165
-0.0022168 0.027349 -0.20641 0.19587
980000000 -0.053336 0.28781 0.017305 0.029803 -0.0093198 0.0042974 0.0017966 0.0032141
0.0038184 -0.0011881 -0.0031283 -0.0025203
0.01725 0.029775 -0.21078 0.34141 0.033119 0.0050189 0.0022015 3.4605e-06
0.0018623 -0.0056926 8.6942e-05 -0.0025613
-0.0093265 0.0043523 0.033183 0.0049468 0.11091 0.30904 0.00065558 -0.0012819
0.00049586 -0.002143 0.0013772 -0.00027114
0.0018386 0.0032565 0.0021983 1.922e-05 0.00066939 -0.0012761 -0.077733 0.2683
0.0086632 0.031204 -0.0094713 -0.0078647
0.0037434 -0.0012368 0.0018568 -0.005807 0.00051239 -0.0021861 0.0087394 0.031199
-0.11921 0.16796 0.0050553 0.0197
-0.0030127 -0.002335 -9.7185e-05 -0.0024609 0.0014163 -0.00024931 -0.0095216 -0.0078331
0.0050694 0.019659 -0.1642 0.241
1040000000 -0.012223 0.29658 0.03299 0.018178 -0.0015852 0.0068589 0.0022604 0.00077671
6.256e-05 -0.0034488 -0.00031572 -0.001313
0.032941 0.018133 -0.17572 0.35465 0.029562 -0.014765 0.0015675 -0.0017891
-0.0020916 -0.0028781 -0.0014005 -0.00282
-0.0015752 0.0068504 0.029561 -0.014892 0.15689 0.29581 -0.00047582 -0.0017484
-0.0015047 -0.0010104 -0.00063892 -0.0010303
0.0022274 0.00075474 0.0015717 -0.0017372 -0.00046927 -0.0017558 -0.050819 0.27845
0.020469 0.018789 -0.0020341 0.00067367
0.00018324 -0.0034888 -0.0021516 -0.0027425 -0.0014803 -0.00099156 0.020538 0.018759
-0.087172 0.1756 0.01332 0.01929
-0.00038866 -0.0013641 -0.0013541 -0.0026914 -0.00059066 -0.0010425 -0.0020076 0.00068306
0.013266 0.019274 -0.14346 0.2623
1100000000 0.032929 0.30471 0.035659 -0.0042146 0.0025999 0.0039836 0.0021981 -0.0010173
-0.0018604 -0.0031069 -0.0041244 -0.00018141
0.035663 -0.0041672 -0.13243 0.37209 0.015303 -0.028085 2.4522e-05 -0.0018174
-0.0035314 -0.001078 -0.003695 -0.00064363
0.0026047 0.0039899 0.015201 -0.028177 0.20359 0.27571 -0.0020563 6.7213e-05
-0.0019466 0.00034436 -0.001213 -0.00020849
0.002211 -0.0010302 1.1656e-06 -0.0018238 -0.0020455 7.2982e-05 -0.010399 0.28358
0.026203 0.0052277 -0.0029319 -0.00053051
-0.0018256 -0.003096 -0.0035334 -0.0010404 -0.001934 0.0003259 0.026219 0.0052013
-0.070848 0.18964 0.019575 0.0089093
-0.0041147 -5.9854e-05 -0.0037306 -0.00063258 -0.0012395 -0.00023783 -0.002921 -0.00053401
0.019564 0.0089277 -0.098413 0.29497
1160000000 0.083824 0.30031 0.023744 -0.020935 0.0025047 -0.00035312 -0.00029557 -0.0019902
-0.0041923 -0.00089423 -0.0010611 0.0041916
0.023732 -0.02089 -0.0893 0.37666 -0.0038066 -0.029443 -0.001652 -0.0017789
-0.003073 0.0024749 -0.0015173 0.0019046
0.0024897 -0.00037297 -0.0039349 -0.029495 0.24666 0.24485 -0.00092884 0.0018726
-0.0006814 0.0021258 -0.00098014 0.00023527
-0.00028015 -0.001998 -0.0016415 -0.0017673 -0.00090692 0.0018792 0.02884 0.28067
0.022671 -0.011497 -0.0038848 0.0049685
-0.0042499 -0.00074887 -0.0031093 0.0024791 -0.00067421 0.0021172 0.022659 -0.011527
-0.037451 0.19918 0.018504 0.00092401
-0.00081261 0.0041237 -0.0014649 0.0019181 -0.00098909 0.00026981 -0.0038869 0.0049684
0.018512 0.0009243 -0.051358 0.29773
1220000000 0.12818 0.29012 0.010245 -0.030139 -0.0016958 -0.00063202 0.00024097 -0.00069664
-0.0027018 0.0022575 0.0012243 0.0021126
0.01023 -0.03011 -0.044718 0.38941 -0.017141 -0.021431 -0.0026195 0.0003882
-0.0001405 0.0032585 -0.00091898 0.0019391
-0.0017263 -0.0006488 -0.017269 -0.021375 0.28577 0.20576 0.00074932 0.0019482
0.0006975 0.0015004 0.00049228 0.00059601
0.00024252 -0.00066029 -0.002612 0.00041106 0.000746 0.0019675 0.068714 0.2724
0.01143 -0.018669 0.001349 0.0013404
-0.002736 0.0023054 -0.00014968 0.0032976 0.00069686 0.0014929 0.011405 -0.018686
-0.016094 0.20956 0.014543 -0.012964
0.0012314 0.0021756 -0.00087378 0.0019405 0.00048219 0.0006293 0.0013608 0.0013283
0.01455 -0.012955 -0.020836 0.3162
1280000000 0.17815 0.26865 -0.0082178 -0.028411 -0.0018636 0.0027993 -0.00075193 -0.0020834
-0.00094262 0.0030876 0.0024907 0.0013952
-0.0082074 -0.028404 0.0012828 0.38089 -0.024166 -0.0085824 -0.0011227 0.001451
0.0018693 0.0021445 0.00062132 0.0022412
-0.00184 0.0027823 -0.024215 -0.0084791 0.31598 0.1619 0.0017556 0.00015026
0.0013264 0.00034279 0.00044714 0.00031258
-0.00073285 -0.0021112 -0.0011473 0.0014242 0.0017502 0.00013877 0.10568 0.2555
0.0012773 -0.021074 -0.00083404 0.00051751
-0.0009311 0.0031214 0.0018811 0.0021693 0.0013249 0.000326 0.0012335 -0.02108
0.01994 0.21459 0.0030588 -0.015362
0.0024566 0.0013104 0.00064039 0.0021544 0.00042202 0.00028461 -0.00082796 0.00051809
0.0030838 -0.015371 0.027557 0.31935
1340000000 0.21536 0.23559 -0.01792 -0.018636 0.0010721 0.0047579 -0.0016481 -0.0010122
0.0014268 0.0027974 0.0019946 -0.0013986
-0.017898 -0.018618 0.040984 0.37299 -0.021953 0.0044088 -0.00024632 0.0021171
0.0022222 0.00083917 0.00137 0.00083892
0.0010915 0.0047493 -0.021963 0.0045276 0.3378 0.11428 0.0014529 -0.0010131
0.00094603 -0.00066477 7.2499e-05 0.0002464
-0.0016452 -0.00096755 -0.00022823 0.0021018 0.0014458 -0.001013 0.13778 0.23498
-0.0092554 -0.018265 0.00059606 0.0011616
0.0014394 0.0028409 0.0022147 0.00082061 0.00094021 -0.00066065 -0.009308 -0.018259
0.048523 0.21145 -0.0035891 -0.014061
0.0020385 -0.0013533 0.0014046 0.00079247 9.9865e-05 0.00029271 0.00062111 0.0011458
-0.0035676 -0.014056 0.065667 0.31644
1400000000 0.24895 0.19788 -0.023466 -0.0069714 0.0055166 0.0032249 -0.0021995 0.00044572
0.0024115 0.0010738 0.00043076 -0.001532
-0.023419 -0.0069888 0.078668 0.36005 -0.01503 0.012799 0.0014482 0.0014401
0.0013505 -0.00090305 0.0013424 0.00016669
0.0055104 0.0031997 -0.01499 0.012903 0.35079 0.061223 0.0002002 -0.0019778
3.1604e-05 -0.00049239 0.00037743 0.00022668
-0.0022042 0.00046353 0.0014602 0.0014471 0.00019825 -0.0019818 0.16655 0.20599
-0.0159 -0.011092 -0.00087718 0.00022562
0.0024708 0.0010431 0.0013615 -0.00087328 3.8627e-05 -0.00048341 -0.015942 -0.011064
0.081367 0.20884 -0.01016 -0.0090694
0.00041821 -0.0015806 0.0013835 0.00015099 0.00039398 0.00022904 -0.00088396 0.00021707
-0.010165 -0.0090798 0.11112 0.3067
1460000000 0.272 0.15388 -0.020188 0.0052636 0.0059297 -0.0018908 -0.0016965 0.0018075
0.0022581 -0.00033688 -0.00038424 -0.0011447
-0.020159 0.0052537 0.11291 0.33819 -0.0060419 0.01573 0.0018877 0.0002504
0.00091298 -0.0014573 0.0012169 -0.00066045
0.0059553 -0.0019256 -0.0059479 0.015777 0.357 0.0073688 -0.0014525 -0.0015211
0.00012305 -0.00037529 0.00053081 -0.00034102
-0.0016707 0.0018263 0.0018882 0.00021894 -0.0014341 -0.001522 0.19171 0.177
-0.017691 -0.0036038 -0.00051568 0.0026967
0.0022548 -0.00033357 0.00091727 -0.0014781 9.9141e-05 -0.00039204 -0.017717 -0.0035593
0.10978 0.19577 -0.011981 -0.0026048
-0.00046601 -0.0011624 0.001196 -0.00066816 0.00056552 -0.00035253 -0.00049967 0.0027004
-0.011995 -0.0026168 0.14468 0.28625
1520000000 0.28465 0.11231 -0.014285 0.010609 0.0036176 -0.0043931 2.9591e-05 0.0027425
0.0023216 -0.0017448 -0.0011872 -0.00021646
-0.014278 0.010582 0.14661 0.32365 0.001837 0.013358 0.0018475 -0.000831
-4.7527e-05 -0.0011282 0.00033917 -0.0010012
0.0035832 -0.0044114 0.0019158 0.013376 0.35076 -0.048303 -0.0014312 -0.0003754
0.00067592 -0.00080694 0.00012548 -0.00018089
2.9661e-05 0.002725 0.0018112 -0.0008568 -0.0014261 -0.00038222 0.21386 0.1402
-0.016902 0.0032426 0.0019307 0.0023371
0.0023297 -0.001748 -7.0208e-05 -0.0011591 0.00068957 -0.00080991 -0.016907 0.0032787
0.13793 0.18351 -0.012025 0.0017356
-0.0012298 -0.00025269 0.00031058 -0.00099389 0.00011352 -0.00016562 0.001941 0.002322
-0.012025 0.0017207 0.17862 0.26756
1580000000 0.29411 0.065858 -0.0074944 0.013464 -0.00086154 -0.0052242 0.001536 0.002058
-3.315e-05 -0.0022588 -0.00034902 0.00046202
-0.0074952 0.013465 0.17392 0.29871 0.0055401 0.008352 0.00050174 -0.0017937
-0.00060934 -0.0010509 -0.00024296 -0.00082572
-0.00092635 -0.005225 0.0055981 0.008344 0.33102 -0.10591 -0.0018108 0.00097177
-0.00032796 -0.0011692 0.0001576 -0.00051028
0.0015309 0.0020477 0.00047873 -0.0018021 -0.0018266 0.00098451 0.22693 0.10259
-0.012844 0.0089646 0.0028002 0.00078369
-6.9987e-05 -0.0022833 -0.0006245 -0.0010452 -0.00033509 -0.0011565 -0.012829 0.009012
0.16264 0.16715 -0.0092754 0.0077538
-0.00038447 0.00048366 -0.00025945 -0.00086785 0.00012678 -0.00051815 0.0028067 0.00077431
-0.0092783 0.0077481 0.21187 0.24145
1640000000 0.29624 0.024688 -0.00084361 0.012068 -0.0028431 -0.0028548 0.0029112 0.0010354
-0.00055413 -0.0017398 -0.00031194 0.00060775
-0.00084846 0.012081 0.20332 0.2741 0.006308 0.0033314 -0.00079468 -0.001918
-0.0010197 -0.00038763 -0.00046446 -0.00079772
-0.0028734 -0.0028295 0.0063258 0.0033095 0.30351 -0.15522 -0.00053495 0.0017606
-0.0011551 -0.0011837 -2.7325e-05 -0.00050506
0.0029457 0.0010165 -0.00081484 -0.0019099 -0.00055025 0.001769 0.23916 0.056134
-0.0078196 0.010539 0.0030023 -0.0010034
-0.00060629 -0.0016772 -0.0010308 -0.0003546 -0.0011638 -0.0011609 -0.0078026 0.010572
0.1854 0.14415 -0.0044083 0.0098058
-0.00022967 0.00060152 -0.00047131 -0.00080668 -6.862e-05 -0.00048791 0.0029908 -0.0010089
-0.0044299 0.0098101 0.23796 0.21143
1700000000 0.28909 -0.02061 0.002371 0.0090044 -0.0037237 1.2748e-05 0.0031653 -0.0014615
-0.0021609 -0.00092206 0.00067576 0.00044178
0.0023681 0.0089915 0.22168 0.24257 0.0041164 0.00040159 -0.0016502 -0.00060391
-0.00075471 6.3642e-05 -0.00096875 -0.00049447
-0.0037342 6.4555e-05 0.0041402 0.00037011 0.2602 -0.19541 0.0008089 0.0016244
-0.002118 -0.00026208 -0.00051141 -0.00088311
0.003164 -0.0014373 -0.0016644 -0.00057529 0.00079749 0.0016314 0.23734 0.0088433
-0.004229 0.0113 0.0017749 -0.0025975
-0.0021819 -0.00090283 -0.00076868 7.0532e-05 -0.0021283 -0.00026421 -0.004198 0.011316
0.20339 0.12521 0.00049903 0.010037
0.00072929 0.00048112 -0.00096878 -0.00050307 -0.00047153 -0.00088487 0.0017817 -0.0025888
0.00048036 0.010044 0.25565 0.17713
1760000000 0.27685 -0.068984 0.0043424 0.0056064 -0.0025847 0.0010356 0.0011751 -0.0036323
-0.0014953 0.00065262 0.00041719 -0.00065524
0.0043376 0.0056204 0.24751 0.20283 0.001622 -0.0015191 -0.0013224 0.00029858
-0.00099355 0.00091123 -0.00064697 0.00039653
-0.0026217 0.0010735 0.0016113 -0.0015178 0.21114 -0.22894 0.0013359 0.00083448
-0.0013247 0.0015127 -0.0014344 -0.00056094
0.0011407 -0.003617 -0.0013444 0.00032141 0.0013265 0.00083683 0.23055 -0.040511
-0.00014397 0.010105 -0.00013395 -0.0029761
-0.0015372 0.00069034 -0.001016 0.00092017 -0.0012886 0.0015248 -0.00011703 0.010101
0.21847 0.091272 0.0047024 0.0072689
0.00045855 -0.00062194 -0.00063893 0.00041244 -0.0014605 -0.00056727 -0.00015163 -0.0029657
0.0046928 0.007262 0.26917 0.13977
1820000000 0.2526 -0.10601 0.0042875 0.0021365 -0.00019537 0.0026196 -0.0012474 -0.0031248
-0.0013309 0.0010049 -3.5649e-05 -2.7698e-05
0.0042722 0.0021488 0.25786 0.17294 -0.00056785 -0.00036882 -0.0012867 0.0011065
-1.3676e-05 0.0012413 -0.00060871 0.00058979
-0.00016625 0.0026213 -0.00055956 -0.00033647 0.16106 -0.24505 0.0014173 0.00012743
-0.00013388 0.0025156 -0.0013616 0.00033614
-0.0012477 -0.0031153 -0.0012787 0.0011019 0.0014215 0.00011443 0.2039 -0.086984
0.0017673 0.0081201 -0.0018229 -0.0019206
-0.0013136 0.0010376 1.1399e-05 0.0012378 -0.00013362 0.0025113 0.0017896 0.0081211
0.23642 0.063611 0.0055138 0.0033601
-5.1722e-05 -5.9633e-05 -0.00058499 0.00059932 -0.0013572 0.00032686 -0.0018323 -0.0019162
0.005506 0.0033537 0.27251 0.10433
1880000000 0.21789 -0.14629 0.0018998 6.2824e-05 -0.00044527 0.0022756 -0.0030948 -0.0021553
-0.00016812 0.0018975 0.00016634 -0.00056662
0.0018642 8.8171e-05 0.26231 0.12624 -0.0026528 0.0015978 -4.7298e-05 0.00164
0.00050535 0.0011476 0.00010053 0.0010215
-0.00045566 0.0023095 -0.0026244 0.0016214 0.10886 -0.25428 0.0014822 -0.00084289
0.0016591 0.0020413 -0.0010091 0.0014648
-0.0031142 -0.0021438 -5.1092e-05 0.001619 0.0015113 -0.00084083 0.16671 -0.12838
0.0028672 0.0055322 -0.0027224 0.00025573
-0.00018135 0.00187 0.00052318 0.0011702 0.0016542 0.0020511 0.0028748 0.0055203
0.24012 0.031994 0.0056731 0.0011484
7.3745e-05 -0.00053617 0.00010135 0.00099155 -0.0010136 0.0014777 -0.0027193 0.00023844
0.0056739 0.0011356 0.27321 0.069622
1940000000 0.17882 -0.17215 -0.00042957 -0.0013543 0.0013417 0.0021749 -0.0036677 0.0007574
0.0014875 0.0011981 -0.00068601 -0.00050264
-0.00043013 -0.0013201 0.26291 0.094593 -0.0013985 0.0039913 0.0010226 0.0012287
0.0017475 0.00055205 0.00088387 0.00032326
0.0013486 0.0021978 -0.001356 0.0040247 0.062839 -0.24762 0.00026129 -0.0018504
0.0024755 0.00041023 0.00052204 0.0016489
-0.0036724 0.00075509 0.0010507 0.0012821 0.00026713 -0.0018415 0.11624 -0.16139
0.002055 0.0034545 -0.0019101 0.0016452
0.0015137 0.0011826 0.0017262 0.00056263 0.0024905 0.00041662 0.0020615 0.00345
0.24355 -0.0057592 0.0040945 -0.002685
-0.0007023 -0.00051513 0.00087176 0.00033239 0.00051515 0.001658 -0.001905 0.0016487
0.0040911 -0.0026829 0.2626 0.034017
2000000000 0.13283 -0.18733 -0.0042108 0.00088893 0.0026606 0.0017612 -0.002284 0.0035324
0.0011858 0.00010758 -0.00059547 0.00051598
-0.004238 0.00085492 0.24878 0.059108 -0.0011433 0.0058812 0.0014885 0.00038908
0.0012681 -0.0012093 0.0005129 0.00013505
0.0026229 0.0017753 -0.0011086 0.0059099 0.019752 -0.23344 -0.0011336 -0.0013261
0.0020599 -0.0012735 0.0016981 0.0012621
-0.0023125 0.0035948 0.0014646 0.0004416 -0.0011588 -0.0012897 0.063095 -0.17442
0.00024657 0.0025387 -0.00013479 0.0023315
0.0011065 9.0656e-05 0.0012103 -0.0011947 0.0020302 -0.0012917 0.00024343 0.002544
0.23917 -0.039475 0.00068499 -0.0034651
