!Keysight Technologies,M9804A,MY58100912,A.14.10.03
!Date: Thursday, April 27, 2023 10:28:33
!Correction: S11(C  6-Port  ) 
!S12(C  6-Port  ) 
!S13(C  6-Port  ) 
!S14(C  6-Port  ) 
!S15(C  6-Port  ) 
!S16(C  6-Port  ) 
!S21(C  6-Port  ) 
!S22(C  6-Port  ) 
!S23(C  6-Port  ) 
!S24(C  6-Port  ) 
!S25(C  6-Port  ) 
!S26(C  6-Port  ) 
!S31(C  6-Port  ) 
!S32(C  6-Port  ) 
!S33(C  6-Port  ) 
!S34(C  6-Port  ) 
!S35(C  6-Port  ) 
!S36(C  6-Port  ) 
!S41(C  6-Port  ) 
!S42(C  6-Port  ) 
!S43(C  6-Port  ) 
!S44(C  6-Port  ) 
!S45(C  6-Port  ) 
!S46(C  6-Port  ) 
!S51(C  6-Port  ) 
!S52(C  6-Port  ) 
!S53(C  6-Port  ) 
!S54(C  6-Port  ) 
!S55(C  6-Port  ) 
!S56(C  6-Port  ) 
!S61(C  6-Port  ) 
!S62(C  6-Port  ) 
!S63(C  6-Port  ) 
!S64(C  6-Port  ) 
!S65(C  6-Port  ) 
!S66(C  6-Port  ) 
!S6P File: Measurement: :
# Hz S  RI   R 50
500000000 -0.3379 -0.042288 -0.010158 -0.0021834 -0.0080725 0.012581 -0.0050141 0.011877
0.01305 0.0049428 -0.0044368 0.0080802
-0.0099723 -0.0029116 -0.41885 -0.053982 0.0075891 -0.01061 0.0012153 0.012431
0.0072538 0.0019589 0.00091938 0.012578
-0.0084941 0.0127 0.0077289 -0.010723 -0.26594 0.20824 0.0073218 0.0040535
-0.0019447 0.0081511 0.0003975 0.012079
-0.003792 0.011367 0.0021177 0.01227 0.0074054 0.0038155 -0.33411 0.037329
-0.020762 -0.006191 0.016391 0.026855
0.012073 0.0049182 0.0072707 0.0024161 -0.0027306 0.0080764 -0.020654 -0.0061951
-0.21741 -0.20973 -0.027282 0.0071403
-0.0041172 0.0082835 0.002426 0.013473 0.00077826 0.012219 0.016882 0.028563
-0.028001 0.0058611 -0.25547 -0.16457
560000000 -0.31704 0.12018 -0.023464 -0.063203 -7.821e-05 0.012834 0.0048752 0.010997
0.0094819 0.0043574 0.011634 0.0079527
-0.023453 -0.063064 -0.37665 0.10544 -0.041137 -0.038005 0.014004 0.0039713
-0.013375 -0.0048362 0.0028318 -0.00092597
-0.00027061 0.012404 -0.041088 -0.037764 -0.18347 0.25689 0.00015942 -0.0042554
0.020276 0.0056625 0.0071108 -0.0063632
0.0051211 0.010593 0.014245 0.0045237 0.00010751 -0.0041896 -0.31059 0.13027
0.0032942 -0.022722 0.0045351 -0.022653
0.0098113 0.0048658 -0.012069 -0.0054222 0.01933 0.0055378 0.0038615 -0.022772
-0.28582 -0.034465 0.0085076 -0.049713
0.01216 0.0078171 0.0027965 -0.00051443 0.0065788 -0.0058568 0.0041871 -0.02237
0.008982 -0.049559 -0.32892 -0.0090192
620000000 -0.27648 0.10428 -0.023152 0.0080931 0.0035642 0.0083456 0.0082864 -0.0045428
0.010239 -0.00064365 0.00062056 -0.003013
-0.02306 0.0081495 -0.40273 0.058132 -0.018352 -9.368e-05 -0.00083765 -0.001977
0.011241 -0.0057306 0.0017929 -0.0029506
0.0035385 0.0084582 -0.018174 0.00029943 -0.15442 0.266 -0.0008303 -0.0051824
-0.00278 -0.0024134 0.0087042 -0.0035562
0.008961 -0.0042088 -0.00086891 -0.0019291 -0.00082466 -0.0053426 -0.26969 0.14121
-0.039617 -0.018782 0.012506 0.028166
0.01048 -0.00078585 0.011789 -0.0058378 -0.002916 -0.0025544 -0.039845 -0.019606
-0.20592 -0.072338 -0.044327 0.014763
0.0021166 -0.0021161 0.0020415 -0.0030146 0.0085585 -0.0032485 0.012256 0.028004
-0.044401 0.016346 -0.24554 -0.050841
680000000 -0.23596 0.19128 -0.027227 -0.014383 0.00468 0.0050306 0.0018292 -0.0068692
-0.002885 -0.011301 0.0063587 -0.0074399
-0.02742 -0.014283 -0.38848 0.15632 -0.032641 -0.0016453 -0.0014384 -0.00043652
-0.0017035 -0.0091477 -0.00090066 -0.0021506
0.0047984 0.0053526 -0.032694 -0.0017012 -0.10263 0.28577 -0.00078257 -0.00060972
-0.0014686 0.00019315 -0.0026105 -0.0092373
0.0017789 -0.006987 -0.0014447 -0.00078281 -0.0007954 -0.00056372 -0.22452 0.19389
-0.024359 -0.0067415 -0.010154 -0.012499
-0.0032448 -0.011179 -0.0017732 -0.0095631 -0.0015048 0.00025677 -0.024283 -0.0062881
-0.26186 0.03019 -0.004796 -0.0088457
0.0053101 -0.0065735 -0.0015111 -0.0023228 -0.0027111 -0.0095415 -0.01025 -0.012383
-0.0043101 -0.0090417 -0.2647 0.061645
740000000 -0.19159 0.18568 -0.038891 0.026734 0.012761 -0.0051495 -0.00017395 -0.0043895
-0.0037267 -0.0023538 -0.0062824 0.0025094
-0.038674 0.026955 -0.33505 0.17545 -0.03567 0.035122 -0.00062269 -0.0063612
-0.010804 0.0074277 -0.0023097 -0.007504
0.012709 -0.004737 -0.03556 0.035192 -0.068694 0.28397 -0.0024248 0.0029977
-0.0028221 -0.0046211 -0.0014994 -0.00033215
0.00011173 -0.0041437 -0.00045629 -0.0061873 -0.002546 0.0030297 -0.20711 0.20202
-0.044626 -0.0068248 0.024423 0.015989
-0.004415 -0.0033452 -0.012159 0.0069464 -0.0022943 -0.0049483 -0.044038 -0.0065949
-0.15845 0.06008 -0.046351 -0.00089421
-0.0061015 0.002999 -0.0019451 -0.0070656 -0.0016286 -0.00012897 0.023844 0.015977
-0.046394 -0.00059986 -0.25479 0.06581
800000000 -0.15899 0.2266 -0.022443 0.016579 0.0051475 -0.010422 -0.0046884 -0.0020378
-0.0038313 0.0018848 0.0051654 0.0001684
-0.022704 0.016715 -0.33874 0.24556 -0.0081155 0.033779 -0.0024454 0.0023343
-0.00072424 0.0024771 0.0011746 0.005503
0.0049945 -0.010375 -0.0080241 0.033808 -0.028348 0.30714 0.0008683 0.0015997
6.722e-05 0.0033616 -0.0015311 0.0008268
-0.0048226 -0.0024187 -0.0025293 0.0021384 0.00064322 0.0015233 -0.17764 0.23083
-0.028706 0.014124 0.015477 -0.010539
-0.0039692 0.0023494 -0.00073308 0.0027277 0.00017284 0.0036305 -0.02868 0.015154
-0.20951 0.081905 -0.017633 0.019887
0.0036723 -9.8837e-06 0.00070873 0.0053315 -0.0020523 0.0007117 0.014921 -0.010623
-0.017924 0.018815 -0.25491 0.12079
860000000 -0.12382 0.24678 -0.017543 0.030539 -0.003199 -0.0098513 -0.0020706 0.00087215
0.004113 0.0051165 -0.0037756 -0.0028541
-0.017651 0.030534 -0.2909 0.28748 0.0077482 0.034032 4.8286e-05 0.0021343
0.0039801 0.00027002 0.0030514 0.00075777
-0.003275 -0.0098207 0.0078696 0.03397 0.019949 0.31498 -0.00049985 9.8089e-05
0.0028704 -0.0011509 0.001336 0.0041103
-0.0022779 0.0008071 0.00018833 0.0021858 -0.00064395 0.00010394 -0.13984 0.24162
-0.017178 0.019275 -0.0065709 -0.0092346
0.0042443 0.0040614 0.0037566 0.00030844 0.0029852 -0.001215 -0.017588 0.019033
-0.15668 0.13537 -0.0281 0.014908
-0.0036938 -0.0031807 0.0029519 0.00030963 0.0012626 0.004261 -0.0066833 -0.0089656
-0.027656 0.014918 -0.20244 0.16945
920000000 -0.099851 0.26945 0.0049207 0.037728 -0.0092521 -0.0043955 -0.0017899 0.0017313
0.00078062 0.0022594 0.002832 -0.0012771
0.0048144 0.037849 -0.26223 0.30868 0.027864 0.021871 0.0013509 0.0011522
0.007242 -4.888e-05 0.0038456 -0.0024344
-0.0093839 -0.0044299 0.027999 0.02182 0.065841 0.31548 0.0019982 5.9175e-05
0.0012625 -1.9509e-05 0.00093945 -0.0010369
-0.0019101 0.001798 0.001429 0.0011883 0.0019249 8.8199e-05 -0.11566 0.25836
-0.010415 0.031677 0.0046875 -0.0068096
0.00085147 0.0019251 0.0070465 0.00022628 0.0012328 -6.7696e-05 -0.010661 0.031394
-0.14762 0.14033 -0.0028021 0.028185
0.0028732 -0.0015863 0.0041726 -0.0027376 0.00071685 -0.0011433 0.0047087 -0.0070392
-0.0023267 0.028626 -0.21705 0.18352
980000000 -0.051887 0.28915 0.017321 0.030079 -0.0089606 0.0044922 0.001996 0.0033184
0.0036866 -0.0014292 -0.0034902 -0.0022225
0.01737 0.03003 -0.20925 0.34294 0.032797 0.0050095 0.0021603 -5.6867e-05
0.0016667 -0.0059616 -0.00041837 -0.0022816
-0.0089278 0.0046068 0.032843 0.004931 0.11187 0.309 0.00070365 -0.0011772
0.00042933 -0.0022253 0.0013852 -8.284e-05
0.0018885 0.0033489 0.002113 -2.8457e-05 0.00064261 -0.0011868 -0.076688 0.26905
0.008096 0.03061 -0.0094825 -0.007921
0.0042247 -0.0015566 0.001758 -0.0058343 0.00042748 -0.0021442 0.0085351 0.030771
-0.11727 0.17056 0.0042519 0.019945
-0.0033772 -0.002159 -0.00032462 -0.0024528 0.00136 -0.00013291 -0.0091705 -0.0080534
0.0044685 0.019764 -0.17501 0.23332
1040000000 -0.010481 0.29757 0.033101 0.018345 -0.0012001 0.0068579 0.0023141 0.00072813
6.6467e-05 -0.0038159 -0.00026332 -0.0016888
0.033006 0.018279 -0.17359 0.35584 0.029327 -0.014535 0.0015382 -0.0017758
-0.0021635 -0.002689 -0.0010108 -0.0027219
-0.0011797 0.0068524 0.029363 -0.014716 0.15773 0.29531 -0.00049948 -0.0016752
-0.0015442 -0.00098443 -0.00056829 -0.0011443
0.0022945 0.00077607 0.0015838 -0.0016839 -0.00052035 -0.0016615 -0.049388 0.27904
0.020022 0.018466 -0.0019637 0.00094533
1.1862e-05 -0.0036311 -0.0021239 -0.0025972 -0.0015689 -0.0009493 0.020063 0.018329
-0.084607 0.17806 0.013141 0.019539
-5.814e-05 -0.0016132 -0.0011452 -0.0025747 -0.00059716 -0.0010835 -0.0018382 0.0008871
0.01299 0.020002 -0.15616 0.25532
1100000000 0.03521 0.30574 0.035661 -0.0040193 0.002797 0.0038209 0.0022288 -0.0011491
-0.0019087 -0.0032021 -0.0039675 -1.338e-05
0.035615 -0.0039419 -0.1304 0.37289 0.015185 -0.027559 -1.4199e-05 -0.0017824
-0.0032499 -0.0010697 -0.0035671 -0.00056891
0.0028367 0.0037662 0.015078 -0.027636 0.20372 0.27525 -0.0019606 9.203e-05
-0.0018278 0.00034891 -0.0011454 -0.00029371
0.0023297 -0.0011852 2.2297e-05 -0.0018179 -0.0019668 9.1345e-05 -0.0091359 0.28378
0.025777 0.0053234 -0.0027601 -0.00066724
-0.0020627 -0.0032066 -0.0032647 -0.00099399 -0.0018201 0.0003929 0.025789 0.0052835
-0.067208 0.19201 0.019571 0.0096567
-0.0039344 -6.6984e-05 -0.0036673 -0.00060265 -0.0011091 -0.0002649 -0.002887 -0.00061938
0.019444 0.00956 -0.11039 0.28944
1160000000 0.086243 0.30052 0.023904 -0.020345 0.002705 -0.00055873 -0.00030997 -0.0021854
-0.0042577 -0.00092875 -0.0010083 0.0041176
0.023832 -0.020276 -0.087021 0.37698 -0.0034666 -0.028954 -0.0015598 -0.0017478
-0.0031036 0.0023118 -0.0015386 0.0019368
0.0026473 -0.00056312 -0.0035827 -0.02898 0.24677 0.24482 -0.00086778 0.0018029
-0.0007916 0.0019711 -0.0010263 0.00027768
-0.00032711 -0.0021577 -0.0016522 -0.0016775 -0.00092305 0.0017932 0.030148 0.28072
0.022396 -0.010817 -0.0036477 0.005202
-0.0041893 -0.00090241 -0.003025 0.0023962 -0.00077473 0.0021015 0.022499 -0.010849
-0.034012 0.20169 0.018504 0.0018101
-0.00094385 0.004038 -0.0014508 0.0018222 -0.00095402 0.00032247 -0.0036569 0.0051688
0.018965 0.0013733 -0.063067 0.2941
1220000000 0.13073 0.28961 0.010612 -0.029697 -0.0016153 -0.00077765 0.00012667 -0.00073222
-0.0026691 0.0023687 0.0011503 0.002032
0.01058 -0.029699 -0.042911 0.38918 -0.016648 -0.021158 -0.0025535 0.00036207
-0.00015784 0.0030395 -0.00091642 0.0019651
-0.0016081 -0.00080188 -0.016771 -0.021111 0.28603 0.20606 0.00072548 0.001848
0.00059283 0.0014105 0.00035818 0.0006506
7.905e-05 -0.0007904 -0.0025357 0.00034841 0.00073723 0.0018485 0.069868 0.27201
0.011415 -0.017912 0.001724 0.001277
-0.002811 0.0023958 -0.00019715 0.0030575 0.0006234 0.0013809 0.011409 -0.017951
-0.012387 0.21081 0.015366 -0.01211
0.0011338 0.0021517 -0.00096266 0.0019734 0.00038039 0.00064932 0.0017686 0.0012295
0.015316 -0.012034 -0.033356 0.31511
1280000000 0.18037 0.26773 -0.0075983 -0.028282 -0.0018224 0.0024294 -0.00074 -0.0019871
-0.00085489 0.0030196 0.0024378 0.0013591
-0.0074851 -0.028237 0.0027537 0.38037 -0.023464 -0.0087264 -0.0011181 0.0013933
0.0015237 0.002034 0.00067062 0.0022513
-0.0018362 0.0024514 -0.023535 -0.0086213 0.31685 0.16248 0.0017346 0.00016569
0.0012376 0.00038585 0.00036945 0.00037524
-0.00080073 -0.0019317 -0.0010998 0.0013798 0.0017506 0.00015599 0.10666 0.25521
0.0018684 -0.020555 -0.00061352 0.0002346
-0.00076324 0.0030071 0.0015811 0.0019782 0.0012424 0.00033099 0.001795 -0.020437
0.024013 0.21515 0.0039545 -0.014744
0.0025704 0.0013952 0.00063671 0.0021604 0.00049648 0.00040378 -0.00068003 0.00033029
0.0038174 -0.015078 0.015891 0.32011
1340000000 0.21723 0.23406 -0.017223 -0.019046 0.00088867 0.0044184 -0.0015766 -0.00089642
0.0013778 0.0027861 0.0018077 -0.0012736
-0.017244 -0.019012 0.042193 0.37262 -0.021557 0.0039136 -0.000293 0.0020321
0.0019589 0.0010249 0.0012963 0.00080945
0.00091014 0.0044694 -0.021557 0.0040184 0.33922 0.11459 0.0013845 -0.00092519
0.0008167 -0.00049172 0.00017958 0.00025902
-0.001532 -0.00092292 -0.00024862 0.0020559 0.0013716 -0.00092533 0.1384 0.2347
-0.0082612 -0.017981 0.00075941 0.00063291
0.0014077 0.0028256 0.0019531 0.0010131 0.00081921 -0.00047556 -0.008364 -0.018105
0.052597 0.21111 -0.0023845 -0.014062
0.0019384 -0.0013866 0.0013791 0.00084324 0.00020344 0.00038379 0.00067674 0.0008343
-0.0023196 -0.013785 0.05419 0.31828
1400000000 0.25011 0.19613 -0.023063 -0.0077 0.0051242 0.0030373 -0.0020927 0.000425
0.0023574 0.00089309 0.00054032 -0.0013307
-0.023027 -0.0077275 0.079553 0.35986 -0.014949 0.012115 0.0013957 0.0015011
0.0013664 -0.00068819 0.0013358 0.00023684
0.0051523 0.0030543 -0.014894 0.012221 0.35254 0.060789 0.00032739 -0.0018467
0.00010021 -0.00046805 0.00045303 0.00025699
-0.0020587 0.00046426 0.0013824 0.0015 0.0003165 -0.0017919 0.16715 0.20578
-0.014953 -0.011344 -0.0010606 -0.0002549
0.0023432 0.00092263 0.0013182 -0.00066359 9.9568e-05 -0.00052468 -0.014921 -0.011373
0.084955 0.20782 -0.0091303 -0.0094256
0.00047764 -0.0013841 0.0013606 0.00023396 0.00040858 0.00025665 -0.0011053 -0.00018211
-0.0093561 -0.0094002 0.10152 0.31008
1460000000 0.27292 0.15242 -0.020308 0.0043496 0.0055275 -0.0018148 -0.0016681 0.0016473
0.0020549 -0.00037991 -0.00030187 -0.001062
-0.020331 0.0043458 0.11401 0.33831 -0.0064302 0.015109 0.0018944 0.00021236
0.0010152 -0.0014286 0.0012309 -0.00066193
0.0055291 -0.0018467 -0.0063703 0.015143 0.3587 0.0062272 -0.0012867 -0.0015762
0.00013589 -0.00037224 0.00057493 -0.00043387
-0.0016941 0.0016873 0.0018544 0.00025697 -0.001293 -0.0015478 0.19236 0.17699
-0.017004 -0.004533 -0.00088266 0.0024376
0.0021156 -0.00037672 0.001083 -0.0014633 0.00018056 -0.00032925 -0.017107 -0.0044588
0.11333 0.19411 -0.011349 -0.0034426
-0.00025313 -0.001054 0.0012726 -0.00063533 0.00059554 -0.00043144 -0.00094958 0.0025916
-0.011444 -0.0035491 0.13604 0.29066
1520000000 0.28529 0.11089 -0.014871 0.0099338 0.0032778 -0.0040892 -1.3415e-05 0.0026577
0.0023286 -0.0016279 -0.0011414 -0.00027527
-0.014866 0.0099067 0.14782 0.32356 0.0013076 0.013111 0.0018427 -0.00086625
0.00014011 -0.0012667 0.00042742 -0.0010374
0.0032209 -0.0041277 0.0013895 0.013122 0.35172 -0.050257 -0.001366 -0.00051895
0.00066816 -0.00090984 5.5873e-05 -0.0001242
-1.7481e-05 0.0027257 0.0018175 -0.00089649 -0.0013803 -0.00047243 0.21468 0.14013
-0.017003 0.0021473 0.001628 0.0023803
0.0022757 -0.0016151 7.912e-05 -0.0012637 0.00062693 -0.00092622 -0.016954 0.002152
0.14055 0.18167 -0.012007 0.00076195
-0.0012041 -0.00027999 0.00035822 -0.0010505 8.6252e-05 -0.00010314 0.0015125 0.0023579
-0.011925 0.00077886 0.17129 0.27297
1580000000 0.29481 0.064639 -0.0083499 0.013174 -0.00090038 -0.004775 0.0013865 0.0020622
-8.4072e-05 -0.0022136 -0.00043617 0.00051091
-0.0083652 0.013177 0.1754 0.29876 0.0050025 0.0084421 0.00052537 -0.0017957
-0.0006998 -0.0012003 -0.00024469 -0.00079789
-0.00098075 -0.0048212 0.0050572 0.0084305 0.33132 -0.10792 -0.0018355 0.00083678
-0.00035529 -0.001137 5.299e-05 -0.00047744
0.0014798 0.0021179 0.00051631 -0.0018111 -0.0018518 0.00084083 0.2281 0.10257
-0.01364 0.0080988 0.0025594 0.0010251
-7.3812e-05 -0.0021081 -0.00069148 -0.0012007 -0.00030406 -0.0011345 -0.013603 0.0081867
0.16469 0.16519 -0.0096006 0.0069336
-0.00049295 0.00046709 -0.0002677 -0.00083763 3.0794e-05 -0.00055564 0.0026189 0.0011169
-0.0095205 0.0069882 0.2061 0.24674
1640000000 0.29713 0.02339 -0.0016973 0.012352 -0.0026652 -0.0025528 0.002881 0.0011407
-0.00050609 -0.0016327 -0.00037775 0.00059834
-0.0017244 0.012333 0.20517 0.27361 0.0059084 0.0037127 -0.00077789 -0.0018548
-0.0011751 -0.00040305 -0.00049657 -0.00079199
-0.0026682 -0.0025728 0.005923 0.0036889 0.30305 -0.15718 -0.00065148 0.0017373
-0.001089 -0.0012396 -0.00017282 -0.00047158
0.0028685 0.0011196 -0.00078688 -0.0018425 -0.00068686 0.001705 0.24053 0.055582
-0.0089924 0.010436 0.0027988 -0.0008259
-0.00048503 -0.0016729 -0.0011911 -0.00041216 -0.0010554 -0.0012258 -0.0089528 0.010441
0.18733 0.14219 -0.0051089 0.009059
-0.00031486 0.00061562 -0.00049638 -0.00080617 -0.00016485 -0.00036489 0.0028768 -0.00084953
-0.0051314 0.009143 0.23297 0.21658
1700000000 0.28983 -0.022278 0.0018031 0.0096574 -0.0034434 9.0695e-05 0.0031848 -0.0012853
-0.0020325 -0.00092838 0.00076959 0.000568
0.0018182 0.0096695 0.22342 0.24176 0.0040049 0.00076643 -0.0016269 -0.00062429
-0.00083677 0.00020915 -0.00092856 -0.00046914
-0.0034044 9.4628e-05 0.0040182 0.00074174 0.2592 -0.19691 0.00073298 0.0017192
-0.0019574 -0.00021284 -0.00037133 -0.00083272
0.0031861 -0.0013984 -0.0016269 -0.0006218 0.00071873 0.0017328 0.23854 0.0078682
-0.0052095 0.011769 0.0017735 -0.0024611
-0.00212 -0.0009401 -0.00087793 0.00016295 -0.0020502 -0.00028571 -0.0052533 0.011768
0.20493 0.12325 -0.0003969 0.009676
0.00067998 0.00050772 -0.00098774 -0.00045934 -0.00043333 -0.00081353 0.0018384 -0.0023099
-0.00038938 0.0097122 0.25147 0.18237
1760000000 0.27752 -0.071067 0.0042804 0.0064719 -0.0022388 0.00097963 0.0011923 -0.0035399
-0.0015972 0.00060957 0.00044219 -0.00063586
0.0042866 0.0064478 0.24934 0.20158 0.0017482 -0.0010487 -0.0013298 0.00029774
-0.00096975 0.0010764 -0.00060893 0.00037442
-0.0021655 0.0010141 0.0017452 -0.0010636 0.2099 -0.22995 0.0014464 0.0010226
-0.0012647 0.0015471 -0.0013109 -0.00064475
0.0012059 -0.0035523 -0.0012833 0.00032455 0.0014709 0.00096719 0.23165 -0.041892
-0.00069702 0.011073 -4.2584e-05 -0.0027027
-0.0015888 0.00058911 -0.00091607 0.0010553 -0.0011685 0.0015763 -0.0006071 0.011117
0.22016 0.089561 0.00384 0.0072935
0.00054262 -0.00065087 -0.00060441 0.00044192 -0.0013643 -0.00057773 -4.881e-05 -0.0027863
0.0038564 0.0072679 0.26523 0.14516
1820000000 0.25276 -0.10838 0.004634 0.0028295 -3.9002e-05 0.0024369 -0.0011165 -0.0031609
-0.0013619 0.0010079 2.1212e-05 -0.0001366
0.0046127 0.0028302 0.25922 0.17114 -0.00014768 -7.8993e-05 -0.001233 0.0010122
0.00016244 0.0013614 -0.00062176 0.00056804
-4.5683e-05 0.0024714 -0.00012753 -9.1797e-05 0.16025 -0.24516 0.001524 -3.1816e-05
-0.0002337 0.0025142 -0.0014298 0.00033571
-0.0011432 -0.0030862 -0.0012717 0.0010688 0.0015178 2.4094e-05 0.20426 -0.089068
0.0019669 0.008917 -0.0017498 -0.001766
-0.0012904 0.0010039 0.00017635 0.001324 -0.00019718 0.0025835 0.0019708 0.0089446
0.23826 0.061566 0.0048002 0.0037959
1.327e-06 -0.00017455 -0.00060586 0.00057755 -0.0014787 0.00037354 -0.0017408 -0.0018986
0.0047556 0.0037358 0.26924 0.10979
1880000000 0.21735 -0.14879 0.0024925 0.0004466 -0.00035519 0.002002 -0.0029558 -0.0021613
-0.00020013 0.0018612 0.0001985 -0.00068591
0.0025264 0.00041667 0.26323 0.12438 -0.002227 0.0016436 -3.9749e-05 0.0016818
0.00070593 0.0010096 0.00011719 0.00095568
-0.00026932 0.0019598 -0.0021974 0.0016393 0.10793 -0.2546 0.0014522 -0.00095112
0.0016543 0.0019622 -0.00099111 0.0014349
-0.0030092 -0.002227 -6.8281e-05 0.0016934 0.0015322 -0.0009418 0.16627 -0.13023
0.003398 0.0060876 -0.0024208 0.00032724
-0.00024311 0.0019356 0.00067448 0.0010658 0.0016145 0.0020264 0.0034669 0.006079
0.24218 0.029945 0.005226 0.0017222
0.00025433 -0.00067358 0.00017341 0.0010031 -0.0010489 0.0013156 -0.0025444 0.00042721
0.0052508 0.0016862 0.27025 0.075346
1940000000 0.17774 -0.17433 0.00023935 -0.0013433 0.0011909 0.0018916 -0.0035815 0.00061709
0.0014807 0.0011692 -0.00083481 -0.0006149
0.00020463 -0.001348 0.26341 0.092477 -0.001122 0.0037658 0.0010906 0.0012605
0.0017294 0.00033927 0.00087759 0.00022377
0.0011729 0.0019132 -0.0011026 0.0037982 0.062192 -0.24787 0.00018341 -0.0018105
0.0024393 0.00044683 0.00037154 0.0017036
-0.0035856 0.00066146 0.00108 0.0012411 0.00016178 -0.0017747 0.11555 -0.16285
0.0026534 0.0035968 -0.00169 0.0014933
0.001479 0.0011527 0.0017697 0.00033615 0.0024816 0.00039159 0.0027242 0.0036315
0.24537 -0.0087543 0.0040084 -0.0020734
-0.0010242 -0.00057397 0.00080523 0.00025495 0.00043915 0.0016861 -0.0014176 0.001383
0.0041313 -0.0020044 0.26056 0.040222
2000000000 0.13103 -0.18875 -0.0037305 0.00064312 0.0023734 0.0018436 -0.0023676 0.0033023
0.0012941 0.00010374 -0.00066721 0.00034746
-0.003704 0.00063079 0.24875 0.057019 -0.0010023 0.0056611 0.0014962 0.00032692
0.0011214 -0.0013971 0.00051079 3.3319e-05
