!Keysight Technologies,M9804A,MY58100912,A.14.10.03
!Date: Thursday, April 27, 2023 10:28:33
!Correction: S11(C  6-Port  ) 
!S12(C  6-Port  ) 
!S13(C  6-Port  ) 
!S14(C  6-Port  ) 
!S15(C  6-Port  ) 
!S16(C  6-Port  ) 
!S21(C  6-Port  ) 
!S22(C  6-Port  ) 
!S23(C  6-Port  ) 
!S24(C  6-Port  ) 
!S25(C  6-Port  ) 
!S26(C  6-Port  ) 
!S31(C  6-Port  ) 
!S32(C  6-Port  ) 
!S33(C  6-Port  ) 
!S34(C  6-Port  ) 
!S35(C  6-Port  ) 
!S36(C  6-Port  ) 
!S41(C  6-Port  ) 
!S42(C  6-Port  ) 
!S43(C  6-Port  ) 
!S44(C  6-Port  ) 
!S45(C  6-Port  ) 
!S46(C  6-Port  ) 
!S51(C  6-Port  ) 
!S52(C  6-Port  ) 
!S53(C  6-Port  ) 
!S54(C  6-Port  ) 
!S55(C  6-Port  ) 
!S56(C  6-Port  ) 
!S61(C  6-Port  ) 
!S62(C  6-Port  ) 
!S63(C  6-Port  ) 
!S64(C  6-Port  ) 
!S65(C  6-Port  ) 
!S66(C  6-Port  ) 
!S6P File: Measurement: :
# Hz S  RI   R 50
500000000 -0.33777 -0.04571 -0.010777 -0.0023788 -0.0087353 0.013415 -0.0052006 0.012863
0.012125 0.0043241 -0.0057915 0.0084326
-0.01082 -0.0024635 -0.41897 -0.056852 0.0075919 -0.010722 0.0015051 0.012822
0.0069588 0.0026241 0.00045564 0.013758
-0.0087139 0.013467 0.0074558 -0.01084 -0.26779 0.20664 0.007003 0.0039567
-0.0026843 0.0080295 -6.185e-05 0.012266
-0.0052639 0.012831 0.0015105 0.01281 0.0069241 0.0040413 -0.33473 0.034098
-0.021738 -0.004684 0.016111 0.027306
0.012378 0.0044195 0.0069962 0.002595 -0.0027763 0.0083725 -0.021852 -0.0050772
-0.21453 -0.21569 -0.027832 0.0059609
-0.0050036 0.0090088 0.0011843 0.013967 0.00038119 0.012507 0.01684 0.026543
-0.028665 0.0064433 -0.262 -0.14036
560000000 -0.319 0.11966 -0.023906 -0.06384 -0.00020297 0.012379 0.0056003 0.011448
0.010697 0.0047706 0.010316 0.0092362
-0.023827 -0.063673 -0.37731 0.10447 -0.042078 -0.036937 0.014028 0.0041168
-0.014102 -0.0048112 0.0033689 -0.00020304
-0.00026145 0.01249 -0.042457 -0.037016 -0.18495 0.2568 4.295e-05 -0.0040705
0.01988 0.005903 0.0068372 -0.005614
0.0055773 0.011503 0.013778 0.0038818 0.00029787 -0.0040983 -0.31218 0.129
0.0034884 -0.023277 0.0042842 -0.022497
0.010493 0.00497 -0.014234 -0.0046018 0.019628 0.0059308 0.00351 -0.023334
-0.28833 -0.036898 0.0087809 -0.048446
0.01057 0.0083458 0.003043 -5.3276e-05 0.0073157 -0.0064306 0.004215 -0.021947
0.0088221 -0.05006 -0.32826 0.0094814
620000000 -0.27703 0.10204 -0.023304 0.0089266 0.0037882 0.0090504 0.0081099 -0.0044617
0.011482 0.00074124 0.0012311 -0.0030369
-0.023316 0.0088931 -0.40377 0.05585 -0.0183 0.00062971 -0.0011655 -0.0017947
0.011925 -0.0056143 0.0012047 -0.0030289
0.0038166 0.0091365 -0.018283 0.00074523 -0.15457 0.26632 -0.00066903 -0.0054535
-0.002411 -0.0022692 0.0092662 -0.0038351
0.0084892 -0.0046378 -0.0012298 -0.0018102 -0.00055779 -0.0054336 -0.27055 0.13938
-0.040434 -0.018826 0.013259 0.02707
0.011426 -0.00020938 0.011868 -0.0058064 -0.002314 -0.0026665 -0.040561 -0.01899
-0.20472 -0.077021 -0.044281 0.016256
0.0011767 -0.001941 0.001159 -0.0029401 0.0090084 -0.0037428 0.013314 0.026688
-0.044624 0.016348 -0.24729 -0.02898
680000000 -0.23768 0.18973 -0.026773 -0.013697 0.0053215 0.0051269 0.0021182 -0.0069399
-0.0025916 -0.011342 0.0046997 -0.0074008
-0.026701 -0.013733 -0.38924 0.1552 -0.032319 -0.0014728 -0.0012858 -0.00050836
-0.0014521 -0.0093626 -0.0012048 -0.0021038
0.0053119 0.0050951 -0.03237 -0.0013893 -0.10249 0.28588 -0.00073176 -0.00078456
-0.0013391 0.00011116 -0.0028966 -0.0096189
0.0020797 -0.0067802 -0.0013074 -0.00045616 -0.00073125 -0.00076976 -0.22406 0.19295
-0.024331 -0.0061812 -0.010205 -0.012455
-0.0026915 -0.011405 -0.0015967 -0.009405 -0.0014045 0.00013095 -0.024276 -0.0060221
-0.26423 0.025667 -0.0062246 -0.0066591
0.0049544 -0.0076032 -0.0011355 -0.0021811 -0.0029759 -0.0095247 -0.010466 -0.012371
-0.0057041 -0.0066084 -0.26101 0.078777
740000000 -0.19343 0.18499 -0.039204 0.027587 0.013346 -0.0053159 -0.00010189 -0.0046856
-0.0040192 -0.0022646 -0.0065489 0.0022782
-0.039231 0.027501 -0.33485 0.17406 -0.035196 0.035134 -0.00058624 -0.0063382
-0.011271 0.0065273 -0.0022988 -0.0065004
0.013263 -0.0053092 -0.035261 0.035297 -0.068839 0.28353 -0.0022627 0.002949
-0.0022505 -0.0049534 -0.0016486 0.00016216
1.9094e-05 -0.0044889 -0.00056652 -0.0063123 -0.0021979 0.002935 -0.20762 0.20115
-0.044414 -0.0065422 0.024349 0.016253
-0.0043743 -0.0024008 -0.011458 0.0067351 -0.0023208 -0.0050721 -0.044395 -0.0062956
-0.15953 0.053809 -0.04392 0.00087547
-0.0062854 0.0028912 -0.0020798 -0.00684 -0.0015163 0.00022377 0.024461 0.016083
-0.044163 0.00036217 -0.25032 0.083726
800000000 -0.15917 0.22639 -0.021795 0.016876 0.0055115 -0.010628 -0.0045352 -0.0020005
-0.0040963 0.0018564 0.0046827 0.00037764
-0.021736 0.016835 -0.33917 0.24423 -0.0078824 0.033829 -0.0024824 0.0021001
-0.0010868 0.0026216 0.00095489 0.005149
0.0055185 -0.010548 -0.0077907 0.03398 -0.028515 0.3063 0.00050888 0.0016197
-1.6476e-05 0.0034736 -0.001739 0.00093926
-0.0044803 -0.0019757 -0.0024972 0.002151 0.00050202 0.0016026 -0.17823 0.23032
-0.028376 0.014694 0.014577 -0.010477
-0.0039805 0.001891 -0.00094935 0.0027617 -9.5337e-05 0.0033707 -0.028418 0.014789
-0.21027 0.078763 -0.016302 0.019527
0.0043367 0.00057816 0.00082165 0.005221 -0.0017347 0.00084778 0.01451 -0.010603
-0.01698 0.01947 -0.24674 0.13433
860000000 -0.12473 0.24597 -0.017218 0.030439 -0.0031195 -0.010043 -0.0018193 0.00069413
0.0035765 0.0053752 -0.0036305 -0.003324
-0.017221 0.030478 -0.29141 0.28578 0.0077041 0.03423 -0.00014089 0.0021683
0.0037822 0.00059747 0.003515 0.00075467
-0.0031196 -0.010011 0.0078606 0.034201 0.018779 0.31421 -0.00069281 5.9039e-05
0.0028342 -0.0014183 0.0016711 0.0040963
-0.0018145 0.00058301 -0.00016185 0.0021249 -0.00070307 7.0191e-06 -0.14039 0.24064
-0.017302 0.018774 -0.0060789 -0.0091693
0.0036775 0.0053488 0.0038025 0.00045951 0.0027595 -0.0015208 -0.01725 0.018559
-0.1573 0.13303 -0.026838 0.015618
-0.0034977 -0.0031685 0.003415 0.00076604 0.0017458 0.0041908 -0.0059196 -0.0087144
-0.026652 0.015662 -0.19554 0.18036
920000000 -0.1003 0.26831 0.0052053 0.037553 -0.0093705 -0.0048338 -0.0017709 0.0014759
0.00075646 0.0018775 0.0029669 -0.001629
0.0051871 0.037461 -0.26319 0.30716 0.02803 0.022106 0.0014873 0.0010893
0.0072646 0.00023348 0.0040207 -0.0028229
-0.0093621 -0.0048477 0.028129 0.022046 0.064674 0.31533 0.0020487 0.00012872
0.001304 -0.00024006 0.00079185 -0.0013589
-0.0018307 0.0014553 0.0014282 0.0011112 0.0020426 9.1292e-05 -0.11654 0.25768
-0.010786 0.031336 0.0042365 -0.0068416
0.00088743 0.0019599 0.0072938 0.00018998 0.0012474 -0.00022364 -0.010759 0.031462
-0.14916 0.13852 -0.0021754 0.02736
0.0027889 -0.0015714 0.0041288 -0.0027566 0.0008438 -0.0012725 0.0044693 -0.0066825
-0.0022527 0.027489 -0.20651 0.19498
980000000 -0.053267 0.28784 0.017307 0.029748 -0.0093494 0.0042981 0.0017924 0.0032057
0.0037911 -0.0012422 -0.0032033 -0.0023866
0.017255 0.029713 -0.21072 0.34139 0.033136 0.005031 0.0022198 1.244e-05
0.0018802 -0.0057975 -0.00013382 -0.0025687
-0.00933 0.0043339 0.033203 0.0048958 0.11094 0.30903 0.00065803 -0.00126
0.00046581 -0.0021479 0.0013311 -0.00020339
0.0018075 0.0031859 0.0022292 2.8433e-05 0.00064745 -0.0012924 -0.077675 0.26831
0.0087285 0.031271 -0.0094896 -0.0078091
0.0038243 -0.0011893 0.0018542 -0.0057304 0.00048566 -0.0021465 0.0087572 0.031215
-0.11909 0.16772 0.0051396 0.01966
-0.0031133 -0.0025318 6.0947e-05 -0.0024903 0.0013686 -0.00029587 -0.0093464 -0.0078678
0.0051425 0.019736 -0.16426 0.24108
1040000000 -0.012137 0.29648 0.032967 0.018123 -0.0016007 0.0068492 0.0021994 0.00080658
1.5343e-05 -0.0033976 -0.0003122 -0.0013931
0.032926 0.018083 -0.17571 0.35458 0.029606 -0.014793 0.0015652 -0.0017812
-0.0021115 -0.0027282 -0.0013481 -0.0027141
-0.0015624 0.0068805 0.029548 -0.01492 0.15692 0.29581 -0.0004621 -0.001746
-0.0015052 -0.00094499 -0.00061855 -0.0010215
0.0022708 0.00075457 0.0015531 -0.0017534 -0.00046297 -0.0017686 -0.050725 0.27846
0.020604 0.018799 -0.0019322 0.00078097
0.00012849 -0.0034908 -0.0021189 -0.002802 -0.0015157 -0.00099492 0.020557 0.018802
-0.08692 0.17561 0.013219 0.01958
-0.00027265 -0.0012997 -0.0014527 -0.0027953 -0.00059217 -0.0010607 -0.0019975 0.00075526
0.013288 0.019474 -0.14331 0.2626
1100000000 0.032955 0.3047 0.035665 -0.0042208 0.0025678 0.003979 0.0021953 -0.0010072
-0.0018403 -0.0031157 -0.0041816 -5.1331e-05
0.035625 -0.0042125 -0.13237 0.37207 0.015283 -0.02809 4.6614e-06 -0.0018258
-0.0035572 -0.0010399 -0.0036789 -0.00065465
0.0025891 0.0039623 0.015196 -0.028196 0.2036 0.27568 -0.0020392 5.9426e-05
-0.0019579 0.00032644 -0.0011941 -0.0001954
0.0021981 -0.0010192 1.8965e-05 -0.0017942 -0.0020531 4.5129e-05 -0.010391 0.28354
0.026189 0.0051884 -0.0027655 -0.00058565
-0.0018627 -0.003095 -0.0035709 -0.0010316 -0.0019604 0.00032709 0.026155 0.00516
-0.070804 0.18981 0.019461 0.0090343
-0.004111 -0.00015486 -0.0037088 -0.00061459 -0.0012006 -0.00020223 -0.0029253 -0.00055033
0.019521 0.0088177 -0.097967 0.29495
1160000000 0.083864 0.30034 0.023712 -0.020919 0.0024932 -0.00035323 -0.00030249 -0.0020383
-0.0041458 -0.00079115 -0.00086619 0.0042137
0.023697 -0.020912 -0.089224 0.37671 -0.0037861 -0.029429 -0.0016564 -0.0018027
-0.0030786 0.0025276 -0.0014537 0.0019557
0.0024943 -0.00034553 -0.0039321 -0.029463 0.24671 0.24484 -0.00092304 0.0018643
-0.00065446 0.002164 -0.00096917 0.00020871
-0.000306 -0.0020026 -0.00165 -0.0017688 -0.0009178 0.0018752 0.028885 0.28063
0.022674 -0.011532 -0.0038212 0.0049101
-0.0041981 -0.00086175 -0.0030563 0.0024952 -0.00065948 0.0021065 0.022651 -0.011534
-0.037347 0.19924 0.018506 0.00072304
-0.0010323 0.0041853 -0.001501 0.001947 -0.00096334 0.00023278 -0.0038363 0.0048924
0.01846 0.00084074 -0.051052 0.2975
1220000000 0.12824 0.29005 0.010225 -0.030131 -0.0017005 -0.00063032 0.00024538 -0.00069059
-0.0027032 0.0022869 0.0011697 0.0021972
0.010234 -0.030105 -0.044646 0.38946 -0.017135 -0.021434 -0.0026036 0.000393
-0.00014177 0.0032856 -0.00090758 0.001953
-0.0017096 -0.00061966 -0.017262 -0.021376 0.28579 0.20573 0.00074462 0.0019641
0.0006807 0.0015168 0.0004638 0.00060848
0.00024761 -0.00070338 -0.0026219 0.00038618 0.00074088 0.0019652 0.068791 0.27238
0.01147 -0.018679 0.0013798 0.0012821
-0.0026933 0.0022789 -0.00012123 0.0032453 0.00068591 0.0015182 0.01144 -0.018733
-0.015941 0.20964 0.014636 -0.012988
0.0012438 0.0021293 -0.00089356 0.0019295 0.00050125 0.00059631 0.001337 0.0013741
0.014578 -0.013055 -0.02092 0.31603
1280000000 0.1781 0.26863 -0.0082329 -0.028418 -0.0018766 0.0027859 -0.00072735 -0.0020939
-0.00093055 0.0030865 0.0024666 0.0013932
-0.0082108 -0.02839 0.0013531 0.3809 -0.024166 -0.0085882 -0.0011328 0.0014357
0.0018962 0.002148 0.00061297 0.0022089
-0.0018582 0.0028058 -0.024258 -0.008479 0.31601 0.16186 0.0017717 0.00013259
0.0013484 0.00031124 0.00040787 0.0002817
-0.00075518 -0.0020805 -0.0011278 0.0014498 0.0017653 0.00014113 0.10573 0.25553
0.0012281 -0.021128 -0.00080393 0.0005061
-0.00092623 0.003114 0.0018861 0.0021532 0.0013113 0.00032348 0.0012036 -0.021116
0.020038 0.21454 0.0031923 -0.015496
0.0024924 0.0013698 0.00062339 0.0022392 0.00044645 0.00029142 -0.00082231 0.00050036
0.003083 -0.015394 0.027554 0.31952
1340000000 0.21534 0.23558 -0.017933 -0.018642 0.0010788 0.0047666 -0.0016345 -0.0010077
0.0014322 0.0027954 0.0020162 -0.0013686
-0.017911 -0.01863 0.041071 0.37303 -0.021951 0.0044246 -0.0002404 0.0021138
0.0022174 0.00083257 0.0013678 0.00082228
0.001088 0.0047531 -0.021949 0.004537 0.33784 0.11423 0.001446 -0.0010154
0.00093489 -0.00066518 8.0317e-05 0.00022852
-0.0016561 -0.00099736 -0.00022224 0.002121 0.0014527 -0.0010113 0.13776 0.23498
-0.0093062 -0.018254 0.00062398 0.0010593
0.0014476 0.0027762 0.0022092 0.00083459 0.00095559 -0.00067095 -0.0093179 -0.018252
0.04857 0.21139 -0.0036369 -0.014143
0.0019846 -0.0013901 0.0013915 0.00083851 0.00010611 0.00027983 0.00062181 0.001102
-0.0036477 -0.014068 0.065607 0.31631
1400000000 0.24897 0.1979 -0.023469 -0.0069606 0.0054973 0.0032118 -0.002218 0.00045632
0.0024482 0.001055 0.00044029 -0.0015286
-0.023431 -0.0069716 0.078739 0.36006 -0.015053 0.012801 0.0014563 0.0014503
0.0013478 -0.00087622 0.0013685 0.0001646
0.0055127 0.0031844 -0.014998 0.012896 0.35081 0.06118 0.00019401 -0.0019766
4.2164e-05 -0.00048705 0.00040596 0.00021685
-0.0022023 0.00045049 0.0014607 0.0014234 0.00020967 -0.0019604 0.16659 0.206
-0.015942 -0.011115 -0.00095058 0.00024846
0.0024099 0.0010612 0.0013399 -0.00091826 5.3906e-05 -0.00051193 -0.015934 -0.011063
0.081459 0.20883 -0.010094 -0.0090478
0.00041607 -0.0015277 0.0013409 0.00014548 0.00039287 0.00023536 -0.000878 0.00024816
-0.010236 -0.0090723 0.11107 0.30657
1460000000 0.272 0.15386 -0.020186 0.0052605 0.0059339 -0.0018855 -0.0016997 0.0017974
0.0022658 -0.00034784 -0.0004322 -0.0012105
-0.020159 0.0052415 0.11298 0.33816 -0.0060179 0.015736 0.0018841 0.00023829
0.00091554 -0.0014837 0.0011774 -0.00072195
0.0059385 -0.0019262 -0.0059431 0.015787 0.357 0.0073034 -0.0014221 -0.0015466
0.00010295 -0.00033685 0.00054864 -0.00038541
-0.0016895 0.0018102 0.0018944 0.00023607 -0.0014342 -0.0015394 0.19175 0.17696
-0.01768 -0.0036183 -0.00050937 0.0027612
0.0022732 -0.00034397 0.00089834 -0.0014753 9.743e-05 -0.00037218 -0.01771 -0.0035796
0.1098 0.19569 -0.011898 -0.0025931
-0.00039351 -0.0011347 0.0012328 -0.00066215 0.00056979 -0.00035369 -0.00050706 0.0027292
-0.011915 -0.002634 0.14475 0.28629
1520000000 0.28467 0.11232 -0.014276 0.010632 0.0036045 -0.0043986 4.22e-05 0.0027224
0.0023459 -0.0017215 -0.001154 -0.00026122
-0.014275 0.010606 0.14667 0.32363 0.0018375 0.01337 0.0018483 -0.00084055
-4.7209e-05 -0.0011437 0.00037363 -0.0010251
0.0035891 -0.00442 0.0019184 0.01338 0.35075 -0.048346 -0.0014134 -0.000372
0.00069025 -0.00081276 8.9513e-05 -0.00018889
3.8999e-05 0.0027486 0.0018307 -0.0008526 -0.0014063 -0.00036983 0.21391 0.14016
-0.016905 0.0032565 0.0019216 0.0023305
0.0023037 -0.0017475 -6.1017e-05 -0.0011192 0.00065902 -0.0008147 -0.016903 0.0033101
0.1379 0.18339 -0.012125 0.0017098
-0.0011868 -0.00021128 0.00034698 -0.0010157 0.00015154 -0.0001561 0.0019683 0.0023113
-0.012081 0.0017584 0.17861 0.2676
1580000000 0.29415 0.065815 -0.00749 0.013465 -0.00086909 -0.0052267 0.0015429 0.0020761
-5.8528e-05 -0.0022391 -0.00038708 0.00055067
-0.0074957 0.013453 0.174 0.29866 0.0055496 0.0083534 0.00050601 -0.0017776
-0.00061369 -0.0010349 -0.00024882 -0.00079824
-0.00089537 -0.0052339 0.0055934 0.0083344 0.33101 -0.10597 -0.0018167 0.00098978
-0.00032019 -0.0011656 0.00011774 -0.00055251
0.0015523 0.0020635 0.00048975 -0.0017947 -0.0018148 0.00096003 0.22695 0.10253
-0.012829 0.0090064 0.0028684 0.00071482
-5.3296e-05 -0.0022515 -0.00063977 -0.0010432 -0.00035164 -0.0011635 -0.01281 0.0090223
0.16259 0.16716 -0.0093301 0.0076962
-0.0003423 0.00047022 -0.00025017 -0.00081833 0.00016625 -0.0005214 0.0028187 0.00072711
-0.0093001 0.0078223 0.21209 0.24138
1640000000 0.2963 0.024594 -0.00082731 0.01206 -0.0028578 -0.0028532 0.0028893 0.0010451
-0.00057187 -0.0017575 -0.00026877 0.00056717
-0.00084188 0.012052 0.20337 0.27404 0.0063066 0.0033413 -0.00081245 -0.0019157
-0.0010302 -0.00037737 -0.00050046 -0.00078636
-0.0028787 -0.002834 0.0063288 0.0032958 0.30346 -0.15525 -0.00054331 0.0017742
-0.0011671 -0.0011845 -9.2779e-05 -0.00050294
0.002913 0.0010236 -0.00081992 -0.0019236 -0.00054705 0.0017709 0.23919 0.056117
-0.0077588 0.010538 0.0029926 -0.00099062
-0.00057282 -0.0017575 -0.0010374 -0.00036651 -0.0011609 -0.0011938 -0.0077543 0.010594
0.18544 0.14414 -0.0042874 0.0098207
-0.00030842 0.00060688 -0.00046958 -0.00079169 -5.9693e-05 -0.00049472 0.0030044 -0.00097861
-0.0043608 0.0097549 0.23781 0.21146
1700000000 0.2892 -0.020734 0.0023982 0.0089754 -0.0037448 5.3291e-06 0.0031554 -0.0014642
-0.002184 -0.00092642 0.00068324 0.00042767
0.0023824 0.0089696 0.22175 0.24252 0.004126 0.00039482 -0.0016581 -0.00058986
-0.00077288 6.1803e-05 -0.00096275 -0.00049866
-0.0037309 3.2497e-05 0.0041267 0.00036462 0.26021 -0.19546 0.00080506 0.0016343
-0.0021368 -0.00023301 -0.00044116 -0.00095216
0.0031553 -0.0014844 -0.0016483 -0.0005895 0.00081105 0.0016446 0.23732 0.0087903
-0.004246 0.011299 0.0018337 -0.0025348
-0.002153 -0.00090692 -0.0007603 6.8955e-05 -0.0021322 -0.00026288 -0.0042145 0.011327
0.2034 0.12515 0.00044479 0.010105
0.00067066 0.0004279 -0.0009689 -0.00048558 -0.00047109 -0.00083746 0.0018235 -0.0026006
0.00049878 0.010052 0.25585 0.1772
1760000000 0.27686 -0.069117 0.0043436 0.0056157 -0.0025696 0.0010523 0.0011913 -0.0036527
-0.001497 0.00066232 0.00044818 -0.0006426
0.0043357 0.0056149 0.24755 0.20275 0.0016243 -0.0015123 -0.0013036 0.00029708
-0.001002 0.00091539 -0.00060281 0.00041767
-0.0025582 0.001072 0.001618 -0.0015486 0.21112 -0.22903 0.0013367 0.00079448
-0.0012966 0.0015335 -0.0014072 -0.00055611
0.0011486 -0.0036205 -0.0013302 0.0003127 0.0013278 0.00080913 0.23056 -0.040548
-0.00015648 0.010063 -0.00018726 -0.0028998
-0.0015049 0.00064707 -0.00099125 0.00090988 -0.0012984 0.0015141 -0.00013317 0.010085
0.21852 0.09112 0.0045952 0.0072897
0.0003984 -0.00064094 -0.00065251 0.0004037 -0.0014332 -0.0006053 -0.00016621 -0.003011
0.0046401 0.0073131 0.2692 0.13987
1820000000 0.25255 -0.10616 0.0042583 0.0021386 -0.00018648 0.0026102 -0.0012424 -0.0031281
-0.0013148 0.00099743 -9.7781e-05 -2.7633e-05
0.0042566 0.0021276 0.2579 0.17287 -0.00056963 -0.00036897 -0.0012857 0.0010908
-1.2229e-05 0.0012344 -0.00060207 0.00059833
-0.00017111 0.0026094 -0.00056634 -0.00036846 0.16102 -0.24509 0.0013868 9.1008e-05
-0.00013806 0.0024791 -0.0013224 0.00031206
-0.0012773 -0.0030929 -0.0012868 0.0011032 0.0014241 0.00010223 0.20393 -0.087029
0.0017996 0.0081284 -0.0018801 -0.001929
-0.0013232 0.0010369 1.8334e-06 0.0012464 -0.00013428 0.0025186 0.0018356 0.0081263
0.23646 0.063542 0.005465 0.0033145
-3.176e-05 -6.9524e-06 -0.00060922 0.0005985 -0.0013944 0.0003353 -0.0018268 -0.0019831
0.0055285 0.0033451 0.27242 0.10452
1880000000 0.21787 -0.14644 0.0018686 8.8655e-05 -0.00045036 0.0022711 -0.0031015 -0.0021325
-0.00017285 0.001892 0.00013155 -0.00053873
0.0018672 0.00010253 0.26233 0.12616 -0.0026571 0.0015907 -6.0283e-05 0.0016459
0.00048721 0.0011505 8.476e-05 0.00101
-0.00044872 0.0022767 -0.0026518 0.0016104 0.10882 -0.25433 0.001493 -0.00084476
0.0016424 0.0021015 -0.00094538 0.001439
-0.0031059 -0.0021408 -3.6592e-05 0.0016549 0.0015016 -0.00082879 0.16675 -0.12841
0.0028006 0.0055161 -0.0027646 0.00016346
-0.00016873 0.0018991 0.00050999 0.0011442 0.0016656 0.0020359 0.0028854 0.0055762
0.24012 0.031893 0.0056669 0.0010432
0.00017041 -0.00056795 0.00012415 0.0010338 -0.00099854 0.0014831 -0.002695 0.00020188
0.0056109 0.0010736 0.27315 0.06956
1940000000 0.17878 -0.17226 -0.00041711 -0.0013201 0.0013334 0.0021667 -0.0036951 0.0007804
0.0014499 0.0011675 -0.00073499 -0.00052828
-0.00040537 -0.0013228 0.26293 0.094537 -0.0013803 0.004007 0.0010191 0.0012409
0.0017021 0.00056556 0.00086073 0.00030152
0.0013443 0.0021592 -0.0013683 0.0039984 0.0628 -0.24764 0.00031114 -0.0018385
0.0024817 0.00049057 0.00049034 0.0016765
-0.0036577 0.00080111 0.0010355 0.0012319 0.00029655 -0.0018403 0.11627 -0.16145
0.0021324 0.0035181 -0.0019109 0.0016173
0.0014961 0.001177 0.0017405 0.00053518 0.0024625 0.00043594 0.0021046 0.0034856
0.24349 -0.0057932 0.0041222 -0.0026772
-0.00068904 -0.00048191 0.00089063 0.00033067 0.00050648 0.0016366 -0.0018577 0.0016412
0.004171 -0.0026097 0.26266 0.034014
2000000000 0.13278 -0.18728 -0.0041775 0.00091581 0.00264 0.0017796 -0.002314 0.0035121
0.0011743 0.00010031 -0.00057766 0.00043561
-0.0041592 0.00090788 0.24884 0.05902 -0.001134 0.0058857 0.0014516 0.00034677
0.0012379 -0.0012271 0.00049675 5.2984e-05
0.0026569 0.0017552 -0.0011056 0.0059066 0.019733 -0.23347 -0.0011931 -0.0013404
0.0020352 -0.0012905 0.0016908 0.0013043
-0.0022676 0.0035407 0.001473 0.000382 -0.001147 -0.0012968 0.063023 -0.17448
0.00023479 0.0024803 -0.00019235 0.0023143
0.0011917 8.5277e-05 0.0012465 -0.0012399 0.0020523 -0.001277 0.00024382 0.0024634
0.23916 -0.039583 0.00067813 -0.0035375
