!Keysight Technologies,M9804A,MY58100912,A.14.10.03
!Date: Thursday, April 27, 2023 10:28:33
!Correction: S11(C  6-Port  ) 
!S12(C  6-Port  ) 
!S13(C  6-Port  ) 
!S14(C  6-Port  ) 
!S15(C  6-Port  ) 
!S16(C  6-Port  ) 
!S21(C  6-Port  ) 
!S22(C  6-Port  ) 
!S23(C  6-Port  ) 
!S24(C  6-Port  ) 
!S25(C  6-Port  ) 
!S26(C  6-Port  ) 
!S31(C  6-Port  ) 
!S32(C  6-Port  ) 
!S33(C  6-Port  ) 
!S34(C  6-Port  ) 
!S35(C  6-Port  ) 
!S36(C  6-Port  ) 
!S41(C  6-Port  ) 
!S42(C  6-Port  ) 
!S43(C  6-Port  ) 
!S44(C  6-Port  ) 
!S45(C  6-Port  ) 
!S46(C  6-Port  ) 
!S51(C  6-Port  ) 
!S52(C  6-Port  ) 
!S53(C  6-Port  ) 
!S54(C  6-Port  ) 
!S55(C  6-Port  ) 
!S56(C  6-Port  ) 
!S61(C  6-Port  ) 
!S62(C  6-Port  ) 
!S63(C  6-Port  ) 
!S64(C  6-Port  ) 
!S65(C  6-Port  ) 
!S66(C  6-Port  ) 
!S6P File: Measurement: :
# Hz S  RI   R 50
500000000 -0.33708 -0.043341 -0.010146 -0.0025322 -0.0083916 0.013006 -0.0045133 0.011834
0.012713 0.0035031 -0.0062244 0.0083801
-0.010087 -0.002538 -0.41799 -0.05576 0.0080977 -0.011747 0.0021412 0.012568
0.0062301 0.001737 0.0020324 0.014267
-0.0081236 0.012974 0.0081539 -0.011815 -0.26618 0.20699 0.0074187 0.0033554
-0.0027935 0.0084695 0.001112 0.01221
-0.0049722 0.012136 0.0022309 0.012698 0.0074159 0.0033402 -0.33271 0.037286
-0.021902 -0.0058215 0.019165 0.028814
0.012227 0.0036547 0.0060815 0.0019469 -0.0027014 0.0084743 -0.021916 -0.0058013
-0.21548 -0.21293 -0.029522 0.0058211
-0.0065312 0.0082057 0.0015142 0.014507 0.0010187 0.012246 0.018493 0.02919
-0.029471 0.0056631 -0.25061 -0.17029
560000000 -0.3186 0.12065 -0.024648 -0.063246 0.00055393 0.013045 0.0056026 0.011827
0.011355 0.0056282 0.011781 0.0085382
-0.024506 -0.062928 -0.37411 0.10748 -0.042552 -0.037775 0.014031 0.0033938
-0.013905 -0.005175 0.0044717 -0.0016476
0.00063365 0.01309 -0.042569 -0.037764 -0.18332 0.25716 0.00011694 -0.0043938
0.01928 0.0053928 0.0064685 -0.0056078
0.0058592 0.011442 0.014257 0.0032864 -1.1811e-05 -0.0043014 -0.31028 0.12993
0.0045989 -0.023525 0.0049812 -0.022487
0.011498 0.0050826 -0.014193 -0.0052776 0.019442 0.0053578 0.0045857 -0.023606
-0.28948 -0.037118 0.010359 -0.051255
0.012364 0.0085007 0.0046784 -0.0011546 0.0064177 -0.0059102 0.0045445 -0.023236
0.0097222 -0.051103 -0.3297 -0.013322
620000000 -0.27682 0.10173 -0.023009 0.007599 0.0030718 0.0081906 0.0083706 -0.0051384
0.011078 6.9209e-05 0.00172 -0.002203
-0.023 0.0076049 -0.40312 0.056796 -0.018686 0.00017632 -0.0013701 -0.0022619
0.011519 -0.0055495 0.0013805 -0.0028169
0.003084 0.0085457 -0.018734 0.00027182 -0.15434 0.26574 -0.0012985 -0.0054267
-0.0028444 -0.0021945 0.0084829 -0.0033866
0.0079585 -0.0049281 -0.001392 -0.0022318 -0.0012793 -0.0054143 -0.26996 0.13948
-0.040021 -0.019194 0.011851 0.028291
0.010798 0.00043146 0.01159 -0.0055353 -0.0028082 -0.0022454 -0.040101 -0.019087
-0.20461 -0.071108 -0.044614 0.016833
0.0011287 -0.0024386 0.0012199 -0.0027647 0.0085312 -0.0037537 0.011959 0.027876
-0.044766 0.016653 -0.2448 -0.058193
680000000 -0.23684 0.19179 -0.027396 -0.013774 0.005183 0.0058128 0.001685 -0.0069976
-0.0029659 -0.011188 0.0069747 -0.0060519
-0.027367 -0.013792 -0.38876 0.1559 -0.032759 -0.0013756 -0.0013806 -5.4548e-05
-0.0015614 -0.0091553 -0.00070172 -0.0017333
0.0053081 0.0057935 -0.032787 -0.0013274 -0.1026 0.28562 -0.00077223 -0.0002998
-0.0015777 0.00062469 -0.0023399 -0.0095289
0.002109 -0.0069598 -0.0012648 -0.00014709 -0.00074892 -0.00032059 -0.22404 0.19287
-0.024476 -0.0063078 -0.0098504 -0.012677
-0.0030595 -0.011359 -0.0016515 -0.0091482 -0.0015861 0.00059991 -0.024431 -0.0063004
-0.26223 0.029011 -0.0049467 -0.007722
0.0069469 -0.0059809 -0.00070878 -0.0017205 -0.0021595 -0.0094022 -0.0099792 -0.012647
-0.0050847 -0.0076612 -0.26485 0.054398
740000000 -0.19254 0.18536 -0.039375 0.026883 0.012786 -0.0047606 -6.3086e-05 -0.0051554
-0.0050284 -0.0020008 -0.0072768 0.0029832
-0.039371 0.026863 -0.33469 0.17434 -0.035657 0.035452 -0.00051284 -0.0061037
-0.012657 0.0066261 -0.0019922 -0.0067296
0.012763 -0.0048251 -0.035523 0.03568 -0.069526 0.28395 -0.0023005 0.0030999
-0.0022992 -0.005175 -0.0017586 0.00021314
-0.00030943 -0.0049598 -0.0006222 -0.0061559 -0.0023266 0.0031039 -0.20718 0.20121
-0.04513 -0.0060395 0.025058 0.016558
-0.0049057 -0.0022606 -0.012667 0.0067229 -0.0023194 -0.0052046 -0.045097 -0.0060106
-0.15697 0.055546 -0.04674 -9.6268e-05
-0.0074318 0.0027774 -0.0020357 -0.0066143 -0.0015531 4.5634e-05 0.025172 0.016727
-0.046898 -1.3556e-05 -0.25837 0.058871
800000000 -0.15913 0.22658 -0.022414 0.017201 0.0057084 -0.010506 -0.0051444 -0.0015067
-0.0041383 0.0027181 0.0042975 0.00015561
-0.022347 0.017148 -0.33939 0.24513 -0.0079215 0.034367 -0.0024306 0.0022407
-0.00090676 0.0028203 0.00088899 0.0052477
0.0056986 -0.010558 -0.0078246 0.034413 -0.028747 0.30712 0.00068894 0.0017161
0.0001805 0.0035828 -0.0015797 0.00062236
-0.0048739 -0.0014807 -0.0023686 0.0022174 0.00074957 0.0016946 -0.17849 0.23008
-0.028932 0.014906 0.014948 -0.010722
-0.0040449 0.00262 -0.00086347 0.0028418 0.00019196 0.0035872 -0.028959 0.014964
-0.21017 0.080439 -0.018043 0.020219
0.0043231 0.00044493 0.00079037 0.005312 -0.001555 0.0009072 0.014478 -0.010748
-0.018056 0.020071 -0.25947 0.11279
860000000 -0.12476 0.2466 -0.017508 0.030648 -0.0031786 -0.0099256 -0.0017932 0.00042667
0.0039442 0.0046057 -0.0044495 -0.0032421
-0.017556 0.030616 -0.29096 0.28675 0.0081212 0.034605 0.00027145 0.0019594
0.0043223 0.00016343 0.0031255 0.0013286
-0.0032049 -0.0099123 0.0082759 0.034585 0.01909 0.31535 -0.00056884 -0.00019045
0.0027395 -0.001531 0.0014102 0.0045678
-0.0020477 0.00041821 0.00028337 0.0020257 -0.00060083 -0.00019163 -0.14027 0.24112
-0.017664 0.018956 -0.0066349 -0.0097324
0.0039655 0.0047203 0.0042253 0.0001799 0.0027452 -0.0015401 -0.017624 0.019059
-0.15739 0.133 -0.027919 0.01712
-0.0043675 -0.0032245 0.0030903 0.0012777 0.0013052 0.0043097 -0.0062678 -0.0097841
-0.027927 0.016694 -0.20783 0.16334
920000000 -0.10008 0.26898 0.005048 0.038106 -0.0096266 -0.0047381 -0.0017967 0.0019986
0.00083547 0.0021045 0.0028656 -0.0018356
0.0050134 0.038072 -0.26333 0.30854 0.02816 0.022133 0.0014695 0.00099005
0.0070532 0.00019076 0.0042209 -0.0031208
-0.0096848 -0.004702 0.028277 0.022093 0.06518 0.31607 0.0020367 8.6731e-05
0.0011264 -0.0002577 0.00071309 -0.0013911
-0.0017634 0.0019046 0.0014572 0.0009941 0.0020282 5.9237e-05 -0.11659 0.25868
-0.010481 0.032011 0.0048075 -0.0068667
0.0010212 0.0021655 0.0070666 0.00022213 0.0010931 -0.00025889 -0.010401 0.03197
-0.1487 0.14075 -0.0029735 0.028625
0.0030506 -0.001884 0.0041595 -0.0032012 0.00080544 -0.0012623 0.0044775 -0.0069735
-0.0028218 0.02837 -0.22202 0.17835
980000000 -0.052566 0.28908 0.017542 0.030273 -0.0093316 0.004628 0.0020142 0.0032168
0.0040888 -0.0013155 -0.0031286 -0.0022095
0.017486 0.030301 -0.21011 0.3429 0.03348 0.0049558 0.0021683 -8.5241e-05
0.0016988 -0.0058535 -9.5909e-05 -0.0025012
-0.0093124 0.0046659 0.033539 0.00482 0.11169 0.30991 0.0005648 -0.0012299
0.00044952 -0.0022037 0.0014112 -0.0002522
0.0019974 0.0031602 0.0021798 -8.8137e-05 0.0005765 -0.0012223 -0.077245 0.26952
0.0088673 0.031527 -0.0098227 -0.0086376
0.0040089 -0.0014536 0.0016202 -0.0059436 0.00042067 -0.0022541 0.0089181 0.03153
-0.11876 0.16975 0.0044218 0.020542
-0.003242 -0.0022585 -0.00014039 -0.0025374 0.0013466 -0.00026192 -0.0094759 -0.0085081
0.0045694 0.020547 -0.18109 0.2297
1040000000 -0.011209 0.2973 0.033354 0.018166 -0.0013164 0.0069626 0.0023422 0.00064804
0.00018794 -0.0037796 -0.00013827 -0.0013471
0.033321 0.018166 -0.17463 0.35596 0.02973 -0.01499 0.001534 -0.0018096
-0.0021237 -0.0028288 -0.0014602 -0.0027895
-0.0013422 0.0069733 0.029691 -0.015139 0.15793 0.2962 -0.00046653 -0.001768
-0.0016966 -0.00090022 -0.00073454 -0.0012043
0.0023252 0.00067846 0.0015425 -0.0018405 -0.0004804 -0.0017662 -0.050152 0.2795
0.020748 0.018834 -0.0020445 0.00085816
0.00017837 -0.0036506 -0.0022687 -0.0028271 -0.0016813 -0.00090247 0.020821 0.018757
-0.086809 0.17766 0.013346 0.020866
2.8474e-05 -0.0012329 -0.0014583 -0.0027456 -0.0007049 -0.0011743 -0.0022536 0.00079445
0.01339 0.020805 -0.16094 0.25224
1100000000 0.034567 0.30571 0.036202 -0.0042084 0.0028786 0.0039917 0.0023085 -0.0012053
-0.0017433 -0.0031296 -0.00416 -0.00022369
0.036194 -0.0041932 -0.13136 0.37342 0.015213 -0.028198 -3.2072e-06 -0.0018549
-0.0033287 -0.00094785 -0.0036682 -0.00063166
0.0029033 0.0039761 0.015123 -0.028308 0.2046 0.27597 -0.0020514 0.00020426
-0.001801 0.00045652 -0.0011112 -0.0003334
0.0022975 -0.0013063 -2.603e-05 -0.0018498 -0.0020509 0.00021619 -0.0092115 0.28481
0.026618 0.0052288 -0.0029126 -0.00066198
-0.0018131 -0.0031329 -0.0033677 -0.00092761 -0.0018079 0.00044327 0.026616 0.0052115
-0.069226 0.19138 0.020179 0.010092
-0.0042045 -0.00020338 -0.0037503 -0.00053564 -0.0011398 -0.00034193 -0.0028366 -0.00057592
0.019893 0.010211 -0.1172 0.28757
1160000000 0.085484 0.30093 0.024074 -0.020906 0.0027843 -0.0005005 -0.00054718 -0.0021721
-0.0040524 -0.00087958 -0.0010675 0.0039967
0.024102 -0.020883 -0.087414 0.37811 -0.0038845 -0.029503 -0.0017742 -0.0016197
-0.002862 0.0023833 -0.0016712 0.0017248
0.0028047 -0.00052928 -0.0040489 -0.029526 0.24789 0.24486 -0.0007977 0.0018559
-0.00065177 0.0020529 -0.0012537 0.0002758
-0.00053957 -0.0020882 -0.0017171 -0.0015869 -0.00080747 0.0018377 0.030482 0.28141
0.023127 -0.011978 -0.0039575 0.005499
-0.0041369 -0.00083059 -0.0028974 0.0024169 -0.00065976 0.0020629 0.023117 -0.012008
-0.035634 0.20145 0.019229 0.0017102
-0.00087501 0.0041265 -0.0015675 0.0017593 -0.0012412 0.00022242 -0.0039237 0.0053389
0.019249 0.0014695 -0.06814 0.29341
1220000000 0.1303 0.29009 0.010519 -0.030437 -0.0015938 -0.00093887 9.207e-05 -0.00055481
-0.0028907 0.0024619 0.0011489 0.0023016
0.010535 -0.030406 -0.042768 0.39019 -0.017278 -0.021313 -0.0025203 0.00039701
-0.00013106 0.003182 -0.0010084 0.0020508
-0.0016013 -0.00090159 -0.017401 -0.021257 0.28688 0.20541 0.00076704 0.0018325
0.00071412 0.0014505 0.00045665 0.00080927
8.6431e-05 -0.00061892 -0.0025659 0.00040801 0.00075814 0.0018537 0.0706 0.27244
0.011454 -0.019089 0.0016568 0.001304
-0.002845 0.0024866 -7.5001e-05 0.003182 0.00068569 0.0014466 0.011442 -0.019119
-0.013851 0.21152 0.015789 -0.012954
0.0011644 0.0022235 -0.0010166 0.002075 0.00039859 0.00088446 0.0015355 0.0013738
0.015809 -0.012975 -0.039362 0.31494
1280000000 0.18016 0.26845 -0.0081738 -0.02876 -0.0018258 0.0025474 -0.00078018 -0.001956
-0.00073125 0.0030429 0.0026381 0.0013492
-0.0081307 -0.028727 0.003643 0.38126 -0.024126 -0.0084013 -0.0010099 0.0014692
0.0017587 0.0020235 0.00072212 0.0021643
-0.0018038 0.0025551 -0.024206 -0.0083051 0.3171 0.16134 0.0017304 5.975e-05
0.001236 0.00032442 0.00042585 0.00035331
-0.0008176 -0.0018592 -0.00097124 0.0014668 0.0017404 5.7804e-05 0.10768 0.25511
0.00098487 -0.021361 -0.0006872 0.00040771
-0.00074013 0.0030238 0.0017686 0.0020239 0.0012568 0.00032667 0.00092245 -0.021374
0.022451 0.21621 0.0038518 -0.015698
0.0026538 0.0013353 0.00081032 0.0021942 0.0004379 0.00034602 -0.0006597 0.00032431
0.0039023 -0.015548 0.010739 0.32097
1340000000 0.21751 0.23447 -0.018 -0.01908 0.0008788 0.0044884 -0.0014335 -0.00086104
0.0014949 0.0028462 0.0019397 -0.0013841
-0.017972 -0.019069 0.043265 0.37262 -0.021827 0.0045043 -0.00016542 0.0020222
0.0020059 0.00090373 0.0014265 0.00079156
0.00088723 0.0045273 -0.021831 0.0046079 0.33874 0.11346 0.0013796 -0.00099197
0.00094218 -0.00053108 0.00025749 0.00040962
-0.0013796 -0.00085731 -0.0001804 0.0020038 0.001372 -0.00099906 0.13907 0.23413
-0.0096497 -0.018423 0.0006161 0.00090484
0.0015254 0.0028336 0.0020206 0.00086616 0.00094518 -0.00054935 -0.0096822 -0.018398
0.052221 0.21223 -0.0030803 -0.014446
0.0019338 -0.0014245 0.0014234 0.00076083 0.00024075 0.00033781 0.00067153 0.00096527
-0.0032496 -0.014471 0.049904 0.3198
1400000000 0.25044 0.19628 -0.023732 -0.0072695 0.0052257 0.0030931 -0.0020544 0.00039675
0.0024585 0.00092551 0.00052958 -0.0014096
-0.0237 -0.0072839 0.08055 0.3592 -0.014822 0.012706 0.0013398 0.0014081
0.0012958 -0.00080381 0.0013238 0.0001866
0.0052367 0.0030447 -0.014778 0.012811 0.35151 0.060073 0.00014202 -0.0018556
0.00011877 -0.0005172 0.00036809 0.00022207
-0.0020763 0.00040773 0.0013699 0.0014193 0.00015304 -0.0018402 0.16758 0.2049
-0.016204 -0.010989 -0.0011073 -5.9709e-05
0.0024866 0.00093213 0.0012892 -0.00080859 0.00013724 -0.00050564 -0.016229 -0.010974
0.085048 0.20913 -0.0098577 -0.0099319
0.00042815 -0.0013681 0.001381 0.00020004 0.0004085 0.00023498 -0.0011413 -0.00012973
-0.0098277 -0.0097329 0.097397 0.31165
1460000000 0.27321 0.15208 -0.02056 0.0050648 0.0056134 -0.0019173 -0.0017365 0.0017035
0.0021307 -0.00038654 -0.00026235 -0.0011911
-0.020584 0.0050553 0.11442 0.33696 -0.0059554 0.015485 0.0018063 0.00020772
0.00086725 -0.001381 0.0012624 -0.00076042
0.005605 -0.0019368 -0.005867 0.015524 0.35753 0.0062012 -0.0014204 -0.0015336
0.00013691 -0.00032684 0.00072817 -0.00049989
-0.0016549 0.001725 0.0017866 0.00021139 -0.0014229 -0.0015356 0.19228 0.176
-0.017748 -0.003367 -0.00074246 0.0026494
0.0020824 -0.00041433 0.00089795 -0.0013691 0.00016125 -0.00034809 -0.017791 -0.0032936
0.1138 0.19496 -0.012161 -0.0031742
-0.00028032 -0.0011604 0.0012394 -0.00080305 0.00065338 -0.00047326 -0.00071165 0.0026715
-0.012179 -0.0034002 0.13156 0.2921
1520000000 0.28492 0.11031 -0.01474 0.010691 0.0033561 -0.0042073 5.5373e-05 0.0026109
0.0022776 -0.0016733 -0.0011266 -0.00019157
-0.014737 0.010658 0.14753 0.32216 0.0017389 0.013102 0.001833 -0.00081196
2.5487e-05 -0.0011612 0.00033669 -0.0010855
0.0033341 -0.0042397 0.0018239 0.013114 0.35083 -0.049595 -0.0013627 -0.00038094
0.00058487 -0.00089104 0.00013288 -0.0002707
3.3449e-05 0.002589 0.0018527 -0.00082407 -0.0013516 -0.00037366 0.21405 0.13924
-0.016958 0.003478 0.0017739 0.002377
0.0022565 -0.0017223 1.5971e-06 -0.0011547 0.00058467 -0.00087429 -0.016927 0.0035314
0.14131 0.18185 -0.012477 0.0012963
-0.0012506 -0.00014157 0.00035164 -0.0010538 0.00016041 -0.00024537 0.0018225 0.00227
-0.012415 0.0013735 0.1674 0.27519
1580000000 0.29407 0.064182 -0.0078655 0.013719 -0.00097105 -0.0049041 0.0014477 0.0021082
-0.00015934 -0.0022644 -0.00041565 0.00038273
-0.0078789 0.013714 0.1744 0.29745 0.0053252 0.0082233 0.00053443 -0.0018118
-0.00061816 -0.0010996 -0.00033948 -0.0007457
-0.0010202 -0.0049026 0.0053771 0.0082074 0.33073 -0.10679 -0.0017915 0.0009387
-0.00042922 -0.0010827 8.3102e-05 -0.00054845
0.0015068 0.0020687 0.00050795 -0.0018278 -0.001778 0.00092574 0.22687 0.1019
-0.012669 0.0091666 0.0026944 0.00089607
-0.00017942 -0.0022282 -0.00063287 -0.0010948 -0.00041852 -0.0010769 -0.012652 0.0091766
0.16563 0.16481 -0.009941 0.0077834
-0.00035587 0.0003823 -0.00037106 -0.00075673 9.1436e-06 -0.00057095 0.0026126 0.00096443
-0.0098597 0.0076633 0.20273 0.24948
1640000000 0.29586 0.023367 -0.00096208 0.012392 -0.002656 -0.0026228 0.0028912 0.0010519
-0.00056588 -0.0016507 -0.00029464 0.00056032
-0.00098195 0.012383 0.20361 0.27283 0.0060078 0.0034281 -0.00081273 -0.0018781
-0.0010875 -0.00037589 -0.00048465 -0.0007852
-0.0026733 -0.0026088 0.0060381 0.0034075 0.30301 -0.15602 -0.00055598 0.0016905
-0.0011084 -0.001205 -0.00014372 -0.00041428
0.0028781 0.0010547 -0.00080635 -0.0018625 -0.00056448 0.0016956 0.23892 0.055608
-0.0076979 0.010494 0.0028183 -0.00097463
-0.00055234 -0.0016455 -0.0010942 -0.00036631 -0.0011293 -0.0011903 -0.0076812 0.010531
0.18745 0.14138 -0.0045993 0.010002
-0.00034521 0.00056305 -0.00047978 -0.00078898 -0.00014915 -0.00048 0.002919 -0.0010024
-0.0047754 0.010161 0.22971 0.21991
1700000000 0.28867 -0.021561 0.0024068 0.0093681 -0.0034913 0.00011011 0.0030324 -0.0013636
-0.0021686 -0.00083344 0.00073301 0.00042195
0.0024091 0.0093659 0.2215 0.24165 0.0038896 0.00055347 -0.001632 -0.00058616
-0.00074551 0.00013093 -0.00092937 -0.00039666
-0.0034765 0.00012145 0.0039035 0.00053958 0.25959 -0.19594 0.00071755 0.0016817
-0.0020508 -0.00025072 -0.00045206 -0.00089345
0.0030562 -0.001375 -0.0016296 -0.00060191 0.00073625 0.0017104 0.23703 0.0088031
-0.0040918 0.011208 0.0017031 -0.0023503
-0.0021631 -0.00079487 -0.00074579 0.00011935 -0.0020561 -0.00023839 -0.0040555 0.011239
0.20451 0.12221 0.00026001 0.010341
0.00075528 0.0004103 -0.00098706 -0.00042107 -0.00051406 -0.00087588 0.0016106 -0.0024614
0.0003689 0.010173 0.24926 0.18561
1760000000 0.27664 -0.069722 0.0045137 0.0059387 -0.0023655 0.0011039 0.0012163 -0.0035056
-0.0014236 0.00068551 0.00046046 -0.00067598
0.0044974 0.0059511 0.24747 0.20229 0.0015675 -0.0012677 -0.0013498 0.00032942
-0.0009337 0.00095914 -0.00053341 0.00037562
-0.0023447 0.0011593 0.0015524 -0.0012766 0.21081 -0.2296 0.0014138 0.00090884
-0.0011621 0.0015488 -0.0013391 -0.00060522
0.0012197 -0.0035059 -0.0013472 0.00036784 0.0014276 0.00089511 0.23072 -0.040282
-0.00014893 0.009979 -0.00011368 -0.0028773
-0.0014285 0.00069593 -0.00091476 0.00099376 -0.0011334 0.0015558 -0.00014579 0.0099891
0.2193 0.088599 0.004775 0.0074688
0.00044829 -0.0006964 -0.00048662 0.00036512 -0.0013473 -0.00068532 6.4766e-06 -0.0027793
0.0046869 0.0076152 0.26354 0.14903
1820000000 0.25249 -0.1067 0.0045365 0.0023905 -2.2247e-05 0.0024904 -0.0012178 -0.0031439
-0.0012418 0.0010278 -6.9728e-05 -0.00011047
0.0045295 0.0023933 0.25773 0.1725 -0.0003473 -6.7864e-05 -0.0012803 0.001131
6.8746e-05 0.0012238 -0.00052301 0.00046983
-5.8712e-05 0.0024704 -0.00034393 -5.7833e-05 0.16093 -0.24513 0.0013796 4.8399e-05
-0.00016929 0.0024618 -0.0013991 0.00028006
-0.0013017 -0.0030978 -0.0012693 0.0011508 0.0013595 8.4452e-05 0.20442 -0.086823
0.001682 0.0081086 -0.0018474 -0.0019239
-0.0012603 0.0010391 7.2394e-05 0.0011989 -0.00018829 0.0024576 0.0017162 0.0081224
0.23672 0.061079 0.0055559 0.0035216
-1.1017e-05 -5.4456e-05 -0.00053371 0.00048765 -0.0013552 0.00036902 -0.0017942 -0.0020522
0.0056883 0.0034658 0.26874 0.11329
1880000000 0.21777 -0.14702 0.0022899 0.00021047 -0.00024753 0.0020871 -0.0029677 -0.0019828
-0.00010135 0.0019519 0.0002301 -0.00060654
0.0022795 0.0002217 0.26242 0.12618 -0.0023044 0.0016646 -1.4513e-05 0.0016836
0.00053123 0.0010241 7.3347e-05 0.00091426
-0.00024927 0.0020396 -0.0023156 0.0016817 0.10884 -0.25474 0.0015979 -0.00085279
0.0015761 0.0019632 -0.0010057 0.0014805
-0.002866 -0.0020871 -2.3882e-06 0.0016518 0.0015947 -0.00086358 0.16747 -0.12857
0.0029905 0.0055097 -0.0026438 0.00027353
-7.1147e-05 0.0018798 0.00055112 0.0010239 0.0016386 0.0019281 0.0029977 0.0055179
0.24035 0.02986 0.0058558 0.00097839
0.00017105 -0.00065903 9.2669e-05 0.00091148 -0.0010332 0.0013877 -0.0027083 0.00034028
0.0057614 0.0010593 0.27008 0.078548
1940000000 0.17894 -0.17308 -2.4792e-05 -0.0013392 0.0011407 0.0018538 -0.0036331 0.00063098
0.0014656 0.0010876 -0.00076023 -0.0004861
-2.1816e-05 -0.001334 0.26328 0.094359 -0.0011324 0.0036999 0.00097316 0.0012339
0.0016492 0.00048247 0.00075702 0.00024978
0.0011857 0.0019023 -0.0011317 0.0037021 0.062688 -0.24853 0.00024602 -0.0017556
0.002382 0.00046343 0.00022604 0.0016445
-0.003693 0.00072924 0.001011 0.0012677 0.00027016 -0.001768 0.11709 -0.16194
0.0022663 0.0034671 -0.001703 0.001621
0.0014683 0.0011081 0.0016777 0.00046649 0.0023753 0.00043469 0.0022849 0.0034313
0.24362 -0.0077674 0.0043308 -0.0027777
-0.00077523 -0.00048539 0.00071917 0.00019521 0.00025157 0.0016964 -0.0016624 0.0015062
0.0043122 -0.0027777 0.26045 0.043038
2000000000 0.13258 -0.1883 -0.0037542 0.00064648 0.0024986 0.0018179 -0.0023311 0.0033541
0.0010496 2.1448e-05 -0.00074266 0.00050848
-0.0037592 0.00065525 0.24938 0.058755 -0.0010454 0.0055143 0.0015724 0.0002508
0.0011754 -0.0012626 0.00040607 0.00017647
