!Keysight Technologies,M9804A,MY58100912,A.14.10.03
!Date: Thursday, April 27, 2023 10:28:33
!Correction: S11(C  6-Port  ) 
!S12(C  6-Port  ) 
!S13(C  6-Port  ) 
!S14(C  6-Port  ) 
!S15(C  6-Port  ) 
!S16(C  6-Port  ) 
!S21(C  6-Port  ) 
!S22(C  6-Port  ) 
!S23(C  6-Port  ) 
!S24(C  6-Port  ) 
!S25(C  6-Port  ) 
!S26(C  6-Port  ) 
!S31(C  6-Port  ) 
!S32(C  6-Port  ) 
!S33(C  6-Port  ) 
!S34(C  6-Port  ) 
!S35(C  6-Port  ) 
!S36(C  6-Port  ) 
!S41(C  6-Port  ) 
!S42(C  6-Port  ) 
!S43(C  6-Port  ) 
!S44(C  6-Port  ) 
!S45(C  6-Port  ) 
!S46(C  6-Port  ) 
!S51(C  6-Port  ) 
!S52(C  6-Port  ) 
!S53(C  6-Port  ) 
!S54(C  6-Port  ) 
!S55(C  6-Port  ) 
!S56(C  6-Port  ) 
!S61(C  6-Port  ) 
!S62(C  6-Port  ) 
!S63(C  6-Port  ) 
!S64(C  6-Port  ) 
!S65(C  6-Port  ) 
!S66(C  6-Port  ) 
!S6P File: Measurement: :
# Hz S  RI   R 50
500000000 -0.33788 -0.042332 -0.0098399 -0.0024257 -0.0081122 0.012263 -0.0043665 0.01168
0.012101 0.0049683 -0.0046621 0.0087908
-0.0096938 -0.0024433 -0.41881 -0.053925 0.0080471 -0.010468 0.0016742 0.012465
0.0078762 0.0020803 0.0011148 0.013367
-0.0080472 0.01249 0.0077648 -0.010462 -0.26574 0.20833 0.0076801 0.0041917
-0.0021673 0.0077898 0.0007008 0.012513
-0.0046051 0.011515 0.0015358 0.012454 0.007571 0.0040584 -0.33416 0.037141
-0.020239 -0.0065664 0.015916 0.027318
0.012719 0.0047353 0.0079304 0.0017917 -0.0023459 0.0076793 -0.020756 -0.0067129
-0.21778 -0.20915 -0.026252 0.0052108
-0.004378 0.008158 0.0015213 0.013597 0.0012114 0.012506 0.016632 0.02726
-0.026246 0.0053073 -0.25645 -0.16334
560000000 -0.31721 0.11999 -0.023492 -0.063221 -0.00068024 0.011805 0.0053323 0.011234
0.0098196 0.0060522 0.011163 0.0078754
-0.023295 -0.062727 -0.37776 0.10609 -0.040859 -0.037777 0.013849 0.0036882
-0.012658 -0.0053914 0.0029335 -0.0010852
-0.00051673 0.011761 -0.040942 -0.037802 -0.18335 0.2568 -0.00034207 -0.0044511
0.01977 0.0065249 0.0071951 -0.0058441
0.0054154 0.011192 0.0138 0.0037048 -0.00032524 -0.0044195 -0.30969 0.13042
0.0036843 -0.02317 0.0045077 -0.022414
0.010139 0.0038487 -0.012563 -0.0051201 0.01964 0.0063652 0.0045761 -0.024076
-0.28873 -0.031306 0.0090405 -0.049812
0.011456 0.0086983 0.0025208 -0.00097314 0.0072098 -0.0058791 0.0047608 -0.021771
0.0090494 -0.049821 -0.32976 -0.008573
620000000 -0.276 0.10456 -0.023412 0.0078346 0.003376 0.0084044 0.0087402 -0.0045858
0.011168 -0.00033232 0.0011685 -0.0020334
-0.023321 0.0080117 -0.40284 0.058137 -0.018359 2.4285e-05 -0.0010787 -0.0019384
0.011717 -0.0061743 0.0016751 -0.0034308
0.0033071 0.0083472 -0.018398 0.00014507 -0.15438 0.26614 -0.0012013 -0.005246
-0.0020075 -0.0025246 0.0081866 -0.003745
0.0082743 -0.0045715 -0.0010684 -0.0019967 -0.0012097 -0.0052208 -0.2709 0.13987
-0.039068 -0.01758 0.012359 0.02696
0.010864 0.00012772 0.011461 -0.0060837 -0.0021395 -0.0027011 -0.038472 -0.017605
-0.20703 -0.072612 -0.043859 0.015904
0.0013586 -0.0023224 0.0018349 -0.0034394 0.0081797 -0.0037304 0.011902 0.027025
-0.044143 0.015968 -0.24701 -0.050827
680000000 -0.23585 0.19075 -0.027071 -0.014174 0.004556 0.005339 0.0025526 -0.0073039
-0.0029204 -0.01122 0.0062662 -0.0073144
-0.02728 -0.01419 -0.38825 0.15649 -0.032532 -0.0014794 -0.0012197 -0.00047851
-0.0017443 -0.0093117 -0.0011139 -0.0019965
0.004603 0.0052458 -0.032554 -0.0014621 -0.1025 0.28581 -0.00058415 -0.00050131
-0.0016928 0.00034775 -0.002879 -0.0093101
0.0021439 -0.0070242 -0.0014028 -0.00065085 -0.00056724 -0.00063051 -0.22335 0.1938
-0.024226 -0.0068185 -0.010003 -0.012191
-0.0029108 -0.011381 -0.0018415 -0.0091988 -0.0016938 0.00032978 -0.024149 -0.0064722
-0.26096 0.029948 -0.0051633 -0.0093479
0.0060208 -0.0070153 -0.00088713 -0.0019008 -0.002807 -0.0092652 -0.0096631 -0.012993
-0.0052725 -0.0092656 -0.26454 0.062682
740000000 -0.19142 0.18494 -0.038566 0.026628 0.012678 -0.0051231 -0.00011958 -0.0043429
-0.0028246 -0.002495 -0.0065448 0.0024419
-0.038785 0.026569 -0.33535 0.17614 -0.03538 0.034945 -0.00085993 -0.0061719
-0.011232 0.0076476 -0.0028593 -0.0070724
0.012544 -0.0051843 -0.035606 0.035116 -0.068656 0.28416 -0.002527 0.0027834
-0.0025747 -0.0045932 -0.001487 -0.00050634
5.3832e-05 -0.004226 -0.00093887 -0.0063246 -0.0023756 0.002686 -0.20704 0.20246
-0.044037 -0.0067784 0.023992 0.016063
-0.003341 -0.002875 -0.011235 0.0077412 -0.0027136 -0.0047664 -0.044475 -0.0068747
-0.15942 0.058884 -0.045797 -0.00044196
-0.0065354 0.0026531 -0.0022645 -0.0072616 -0.0011488 -0.00019676 0.024469 0.016327
-0.045643 -0.00058158 -0.25513 0.066176
800000000 -0.15874 0.22642 -0.022393 0.016611 0.005239 -0.01053 -0.0043806 -0.002121
-0.0035196 0.0019809 0.0049313 -0.00020772
-0.022356 0.016675 -0.33855 0.24557 -0.0079373 0.033819 -0.0022948 0.0023806
-0.00068281 0.0027672 0.0012539 0.0052899
0.0053046 -0.010566 -0.0078461 0.033812 -0.028123 0.30713 0.00090323 0.0016572
0.00011409 0.0035637 -0.001546 0.00060701
-0.0044163 -0.0020788 -0.0023095 0.0023353 0.00089686 0.0016438 -0.17724 0.23095
-0.028489 0.014537 0.015369 -0.010762
-0.0035198 0.0020858 -0.00074723 0.0027797 0.00011506 0.0035806 -0.028412 0.014509
-0.20891 0.081595 -0.017885 0.019452
0.0048431 0.00019273 0.0011496 0.0054055 -0.0015905 0.00072315 0.015345 -0.010653
-0.017832 0.019463 -0.25413 0.12059
860000000 -0.12377 0.24672 -0.017548 0.030592 -0.003237 -0.0097671 -0.0021582 0.00076714
0.003989 0.0047637 -0.0037492 -0.0030806
-0.017535 0.030523 -0.29099 0.28751 0.0076713 0.034072 3.5095e-05 0.0021548
0.0038925 0.00037021 0.0033013 0.00082999
-0.0032204 -0.0098245 0.0077604 0.034054 0.019844 0.31497 -0.00058794 6.6974e-05
0.0027783 -0.0011061 0.0013297 0.0041071
-0.0022576 0.00088335 -6.8241e-05 0.0021398 -0.00056335 7.2195e-05 -0.13983 0.24156
-0.017723 0.019066 -0.0066321 -0.0091682
0.0041187 0.0044839 0.0038573 0.00046048 0.0029055 -0.0010801 -0.017587 0.019168
-0.15667 0.13513 -0.027504 0.014777
-0.004027 -0.003008 0.0031599 0.00052298 0.001242 0.0041074 -0.0066236 -0.0087571
-0.027613 0.01481 -0.20249 0.1702
920000000 -0.099753 0.2698 0.0049285 0.03768 -0.0092721 -0.004431 -0.0017279 0.0015886
0.00084969 0.0018575 0.002971 -0.0014312
0.0048767 0.037664 -0.26224 0.30871 0.027829 0.021875 0.001377 0.001082
0.0072368 -0.00011097 0.0040777 -0.002445
-0.0092853 -0.0044285 0.02792 0.021821 0.065857 0.3155 0.0019759 3.9946e-05
0.0012057 -0.00019854 0.0008728 -0.0010285
-0.0018054 0.0017434 0.0013843 0.0011535 0.0019544 4.569e-05 -0.11559 0.25839
-0.010765 0.031278 0.0047242 -0.0068954
0.00092344 0.0017712 0.0072089 -9.3749e-05 0.001228 -0.00020137 -0.010689 0.031384
-0.14802 0.14067 -0.0026779 0.028237
0.0027825 -0.0014105 0.0040451 -0.0024454 0.00079802 -0.00102 0.0048495 -0.0069038
-0.0027117 0.028193 -0.21687 0.18387
980000000 -0.052169 0.28933 0.017296 0.029905 -0.0089668 0.0045056 0.0018815 0.0034496
0.0038609 -0.0012015 -0.0033381 -0.0024116
0.017261 0.029942 -0.20932 0.34285 0.03274 0.0050219 0.0020097 -2.0492e-05
0.0016308 -0.0058201 -0.00030592 -0.0024193
-0.008975 0.0045311 0.03283 0.0049286 0.1119 0.30901 0.00064378 -0.0011793
0.0004171 -0.0021247 0.0014565 -0.00017144
0.0019142 0.0034853 0.0019805 4.7714e-05 0.00063497 -0.0011938 -0.076628 0.2692
0.0082309 0.030727 -0.0093898 -0.007769
0.0038749 -0.0012278 0.001553 -0.0058333 0.00038564 -0.0021352 0.0081528 0.030612
-0.11707 0.17074 0.0043824 0.019816
-0.0034602 -0.0023408 -0.00031197 -0.0024036 0.0014612 -0.00018754 -0.0095649 -0.0075853
0.0044277 0.019914 -0.1749 0.23344
1040000000 -0.010275 0.29771 0.032997 0.018271 -0.0012609 0.0068239 0.0023638 0.00067857
0.00016029 -0.0036559 -8.9422e-05 -0.0014928
0.032968 0.018269 -0.17371 0.35578 0.029286 -0.014601 0.0014672 -0.0017232
-0.0023333 -0.0026654 -0.001252 -0.0027336
-0.0012297 0.0068504 0.029275 -0.014715 0.15768 0.29531 -0.00046739 -0.0016925
-0.0016166 -0.001024 -0.00045974 -0.0010768
0.0023816 0.00066486 0.0014529 -0.0017156 -0.00047377 -0.001696 -0.049502 0.27912
0.019871 0.018572 -0.0018155 0.00096884
1.3532e-05 -0.0037059 -0.0023396 -0.0025554 -0.001595 -0.00098985 0.019962 0.018469
-0.084596 0.17838 0.013051 0.019307
5.9796e-05 -0.0014733 -0.0012085 -0.0027353 -0.00046345 -0.0010763 -0.0019125 0.0010539
0.012981 0.019296 -0.15541 0.25571
1100000000 0.035128 0.30568 0.035554 -0.0040462 0.0027808 0.0038642 0.0022347 -0.0010623
-0.0020019 -0.0031752 -0.0039763 3.34e-05
0.035559 -0.0039866 -0.1304 0.37292 0.015195 -0.027556 -8.6062e-05 -0.0017281
-0.0032691 -0.0010126 -0.0036604 -0.00056271
0.0028074 0.0038249 0.015116 -0.02764 0.20374 0.27527 -0.0019908 8.6266e-05
-0.0018547 0.00035613 -0.0012109 -0.00033854
0.0022134 -0.0010854 -0.00010366 -0.0017929 -0.0019871 9.4446e-05 -0.0091148 0.28379
0.025576 0.005355 -0.0028469 -0.00057115
-0.0020239 -0.0031187 -0.0032758 -0.0010403 -0.0018498 0.00034892 0.025646 0.005335
-0.0675 0.1926 0.019446 0.0094902
-0.0039783 5.9891e-05 -0.0036232 -0.00057141 -0.0011996 -0.00038004 -0.0029778 -0.00055212
0.019429 0.0094329 -0.11025 0.28985
1160000000 0.086469 0.30072 0.02386 -0.020418 0.002647 -0.00050828 -0.00035685 -0.0022
-0.0041275 -0.00086404 -0.00085495 0.0040356
0.023819 -0.020357 -0.087084 0.37695 -0.0034272 -0.028986 -0.0016654 -0.0017549
-0.0030075 0.0022838 -0.0015077 0.0019101
0.0026676 -0.00051532 -0.003536 -0.028977 0.24674 0.24478 -0.00086293 0.0017921
-0.00078341 0.0020085 -0.00092747 0.00031401
-0.00035536 -0.0022512 -0.0016441 -0.0017397 -0.00085501 0.0017923 0.030159 0.28069
0.022291 -0.010765 -0.0035141 0.0051605
-0.0042118 -0.00081877 -0.0030168 0.0023076 -0.00076292 0.0020278 0.022304 -0.010832
-0.033992 0.20184 0.018633 0.0019783
-0.00080264 0.0042276 -0.0014495 0.0019226 -0.00088928 0.0003089 -0.0035424 0.0051363
0.018683 0.0019876 -0.062463 0.29412
1220000000 0.13073 0.28962 0.010539 -0.029663 -0.0015945 -0.00082401 0.00010121 -0.00071563
-0.0027205 0.0023206 0.0012204 0.0021506
0.01053 -0.029632 -0.042944 0.38919 -0.016622 -0.021149 -0.0025457 0.00035949
-0.00019804 0.0030338 -0.00090515 0.0020092
-0.0016112 -0.00079438 -0.016733 -0.021089 0.28598 0.20621 0.00071482 0.0018328
0.00057734 0.0013842 0.00030653 0.00068709
8.7786e-05 -0.00070279 -0.0025186 0.00034869 0.00072164 0.0018425 0.069896 0.27214
0.011508 -0.017802 0.0017606 0.0013352
-0.0027581 0.002339 -0.00020465 0.0030343 0.00054498 0.0014053 0.011494 -0.017781
-0.012406 0.21116 0.015294 -0.012002
0.0012273 0.0021318 -0.00083053 0.0019935 0.0003283 0.00065632 0.001788 0.0012919
0.015265 -0.011996 -0.032812 0.31488
1280000000 0.18031 0.26764 -0.0075808 -0.028203 -0.0018173 0.0023922 -0.00078181 -0.0020323
-0.00088691 0.0030442 0.0025266 0.0012928
-0.0075543 -0.028202 0.0027112 0.38037 -0.023466 -0.0087179 -0.0011213 0.0014014
0.0015019 0.0019658 0.0006185 0.0022386
-0.0018257 0.0024227 -0.023536 -0.0086112 0.3169 0.16251 0.0017334 0.00021343
0.0012573 0.00041737 0.00048347 0.00025416
-0.00076741 -0.0019967 -0.0011162 0.0014033 0.0017429 0.00020446 0.10671 0.2552
0.0018543 -0.020314 -0.00051574 0.00029479
-0.00084288 0.003052 0.0015207 0.0019774 0.0012622 0.0004279 0.0017824 -0.02032
0.02397 0.2155 0.0040388 -0.0147
0.0024822 0.0013638 0.00066286 0.0022661 0.00052772 0.00028393 -0.0004614 0.00031234
0.0040348 -0.014701 0.016533 0.32032
1340000000 0.2172 0.23409 -0.017189 -0.018948 0.00087017 0.0044619 -0.0015908 -0.00092191
0.0013646 0.0027571 0.0018372 -0.0012692
-0.01715 -0.01894 0.042107 0.37262 -0.021556 0.0039366 -0.00025277 0.0020584
0.0019145 0.0010156 0.0013007 0.00086232
0.00090632 0.00445 -0.021569 0.004043 0.33917 0.11474 0.0013726 -0.00085146
0.00084753 -0.00051211 0.00025697 0.00028661
-0.0015931 -0.00091414 -0.00024535 0.0020475 0.0013703 -0.0008646 0.13847 0.23466
-0.0082429 -0.01802 0.00073047 0.00075891
0.0013625 0.0027211 0.0019505 0.0010075 0.00083283 -0.00051839 -0.0082471 -0.018024
0.052831 0.21135 -0.0023094 -0.013944
0.0018082 -0.0013263 0.0013386 0.00084803 0.00021084 0.00026962 0.00072109 0.000745
-0.0023092 -0.013971 0.054634 0.31839
1400000000 0.25009 0.19617 -0.022989 -0.0076842 0.0051333 0.0030458 -0.0020484 0.00042623
0.0023529 0.00095031 0.00052387 -0.0013699
-0.022955 -0.0076892 0.079481 0.3599 -0.014927 0.012142 0.0013761 0.0015165
0.0013173 -0.00067322 0.0013462 0.00028698
0.0051395 0.0030383 -0.014881 0.012228 0.3527 0.060907 0.0003101 -0.0018562
3.0551e-05 -0.00047757 0.00042837 0.00020574
-0.0020394 0.00046029 0.0013812 0.0015054 0.0003137 -0.0018601 0.16719 0.20579
-0.014695 -0.011398 -0.0011029 -0.00033227
0.0023078 0.00086009 0.0012985 -0.00067537 3.4206e-05 -0.00047724 -0.014728 -0.011387
0.085222 0.20819 -0.0089175 -0.0094573
0.00049801 -0.0013098 0.001387 0.00028092 0.00046486 0.00021448 -0.0011157 -0.0002838
-0.0089158 -0.0094658 0.10191 0.30988
1460000000 0.27295 0.15253 -0.020258 0.0043349 0.0055313 -0.0018611 -0.0016953 0.0016554
0.0021035 -0.00040173 -0.00032053 -0.0010797
-0.020237 0.0043346 0.11391 0.33832 -0.0064186 0.015112 0.0018847 0.00024212
0.0010433 -0.0014375 0.0012152 -0.00071272
0.005567 -0.0018679 -0.0063402 0.015167 0.35873 0.0062977 -0.0012699 -0.0015332
0.00018525 -0.00033119 0.00061051 -0.00043667
-0.0016921 0.0016737 0.001898 0.0002317 -0.001276 -0.0015255 0.19247 0.17693
-0.016829 -0.004537 -0.00090341 0.0023331
0.0020933 -0.00042341 0.001027 -0.0014468 0.00017016 -0.00032912 -0.016858 -0.0044944
0.1137 0.19437 -0.011196 -0.0035195
-0.00031575 -0.0010267 0.0012502 -0.00069096 0.00063857 -0.00037003 -0.00088504 0.0023832
-0.011202 -0.0035531 0.13646 0.29064
1520000000 0.28532 0.11092 -0.014839 0.0098601 0.0032603 -0.0041222 8.8406e-06 0.002661
0.0022779 -0.0015687 -0.0011496 -0.00020354
-0.014819 0.0098631 0.14776 0.32364 0.0012805 0.013105 0.0018329 -0.0008494
0.00010417 -0.0012036 0.00039681 -0.0010273
0.0032623 -0.0041252 0.0013691 0.013112 0.35182 -0.050118 -0.0013498 -0.00047181
0.00061975 -0.00083743 1.2833e-05 -0.00012332
3.73e-07 0.0026981 0.0018395 -0.00087193 -0.0013332 -0.00047901 0.21474 0.14012
-0.016884 0.0019711 0.001567 0.0023412
0.0022255 -0.0016028 8.7078e-05 -0.0012183 0.00063258 -0.00083033 -0.016886 0.0020361
0.14102 0.18158 -0.011909 0.00059252
-0.0011764 -0.00020856 0.00040424 -0.001034 4.3052e-05 -0.00013043 0.0015935 0.0023045
-0.011903 0.00058961 0.17154 0.27293
1580000000 0.29484 0.064734 -0.0083464 0.013117 -0.00095336 -0.00484 0.0014174 0.002104
-7.2322e-05 -0.0020817 -0.00043124 0.00044296
-0.008353 0.013103 0.17535 0.29882 0.004986 0.0084456 0.00050024 -0.0017885
-0.00069211 -0.0012012 -0.00025126 -0.00080148
-0.00097946 -0.0048341 0.0050383 0.0084345 0.33134 -0.10785 -0.0018551 0.00079715
-0.00031432 -0.0011283 6.9389e-05 -0.00048638
0.0014275 0.0020889 0.00048845 -0.0018017 -0.0018446 0.00079488 0.22808 0.10243
-0.013578 0.0078803 0.0024798 0.0010479
-9.6113e-05 -0.0020949 -0.00069726 -0.001208 -0.00033353 -0.001133 -0.013583 0.0079193
0.16527 0.16489 -0.0095886 0.0067776
-0.00040959 0.00046521 -0.00025435 -0.00079923 5.7308e-05 -0.0005051 0.0024878 0.0010386
-0.0096267 0.0067757 0.20635 0.24657
1640000000 0.29718 0.023375 -0.0017331 0.012287 -0.0026683 -0.0025757 0.0028937 0.0010994
-0.00050321 -0.0016443 -0.0002946 0.00063162
-0.0017375 0.012273 0.20511 0.27367 0.0058717 0.003676 -0.0007732 -0.0018753
-0.0011744 -0.0004269 -0.00046624 -0.00075602
-0.0026984 -0.002581 0.0058973 0.0036438 0.30292 -0.15707 -0.00068496 0.0017502
-0.0010644 -0.0011854 -6.535e-05 -0.00038483
0.0028723 0.0011296 -0.00079261 -0.001861 -0.00068315 0.0017506 0.2405 0.055551
-0.0090175 0.010239 0.0027361 -0.00083148
-0.00050045 -0.0016168 -0.001177 -0.0004145 -0.0010547 -0.0012235 -0.0089839 0.010258
0.18751 0.14198 -0.0051252 0.008968
-0.00037433 0.00062377 -0.00048884 -0.00075434 -7.6871e-05 -0.00037994 0.0027281 -0.00088567
-0.0051417 0.0089567 0.23327 0.21636
1700000000 0.28988 -0.022302 0.0017819 0.0096241 -0.0034272 7.8382e-05 0.0032171 -0.001318
-0.0020692 -0.00095868 0.00075289 0.00051975
0.0017666 0.009621 0.22338 0.24178 0.0039686 0.00074182 -0.0016431 -0.00062247
-0.00089045 0.00017088 -0.00094238 -0.00050312
-0.0034695 9.399e-05 0.0039897 0.00073431 0.25932 -0.19701 0.00076908 0.0017187
-0.0020174 -0.00023841 -0.00045341 -0.00076314
0.0032002 -0.0013435 -0.001638 -0.00059319 0.00075805 0.0017233 0.2385 0.007747
-0.0053914 0.011664 0.0017479 -0.0023862
-0.0020586 -0.00093402 -0.00090302 0.00019524 -0.0020136 -0.00024814 -0.0053645 0.011688
0.20513 0.12287 -0.00048982 0.0096791
0.00076297 0.0004912 -0.00093701 -0.00048685 -0.00043556 -0.00072838 0.001731 -0.0023862
-0.00048161 0.0096695 0.25167 0.18234
1760000000 0.27759 -0.071038 0.004218 0.00647 -0.0022611 0.00098887 0.0012604 -0.0035502
-0.0016114 0.00054806 0.00047218 -0.00059782
0.0042199 0.0064716 0.24927 0.20158 0.0017285 -0.001034 -0.0012854 0.00030602
-0.00097527 0.0010757 -0.00060504 0.00039054
-0.0022269 0.0010181 0.0017173 -0.001053 0.20992 -0.2299 0.001397 0.00097512
-0.0012324 0.0015411 -0.0012977 -0.00063516
0.0012234 -0.0035304 -0.0012967 0.00029379 0.0013904 0.0009759 0.23148 -0.042092
-0.0008 0.011039 -0.00012173 -0.0027282
-0.0016081 0.00055199 -0.00095925 0.0010889 -0.0012559 0.0015558 -0.00075726 0.011031
0.2202 0.08922 0.0037199 0.0072005
0.0004619 -0.00061862 -0.00058364 0.00037612 -0.0013467 -0.00060382 -8.5624e-05 -0.00277
0.0037008 0.0072223 0.26545 0.14469
1820000000 0.25272 -0.10838 0.0045582 0.0028456 -0.00012404 0.0024007 -0.0010817 -0.0031681
-0.0013691 0.0010045 4.603e-05 -0.00013698
0.0045731 0.0028576 0.25914 0.17118 -0.00017632 -4.7867e-05 -0.0012342 0.0010733
0.00015117 0.0013554 -0.00058129 0.00053769
-4.6182e-05 0.0024357 -0.00016478 -3.6313e-05 0.16013 -0.24515 0.00153 6.3418e-05
-0.00018986 0.0025282 -0.0013472 0.00031716
-0.001144 -0.0031231 -0.0012205 0.0010836 0.00152 6.7983e-05 0.20418 -0.088942
0.0018119 0.0090217 -0.001652 -0.0017792
-0.0013537 0.00098476 0.00018341 0.0013725 -0.00020424 0.0025331 0.0018434 0.0090119
0.23805 0.061408 0.0047858 0.00387
9.261e-06 -0.00010732 -0.00058063 0.00057315 -0.0013859 0.00029872 -0.0016955 -0.0017693
0.0047813 0.0038792 0.2695 0.10944
1880000000 0.21727 -0.14875 0.0024714 0.00043354 -0.00036092 0.0020255 -0.0030222 -0.0022092
-0.00027789 0.0019338 0.00025443 -0.00065912
0.0024659 0.00045592 0.26313 0.1244 -0.0022256 0.0016491 -2.3454e-05 0.0016585
0.00070689 0.0010697 0.00015892 0.00099822
-0.00033741 0.0020088 -0.0022169 0.001656 0.10794 -0.2545 0.001558 -0.00097711
0.0016607 0.0021341 -0.00095688 0.0014289
-0.0030809 -0.0021983 -3.0275e-05 0.0016444 0.0015516 -0.00097293 0.1663 -0.1302
0.0033839 0.006196 -0.0023958 0.00027723
-0.00022833 0.0019261 0.00071539 0.0010731 0.0016404 0.0021066 0.0033866 0.0062061
0.24203 0.029848 0.0051593 0.0017363
0.00017797 -0.00071655 0.00014537 0.00097969 -0.00098359 0.0014257 -0.0023672 0.00032943
0.0051847 0.0017274 0.2704 0.074831
1940000000 0.17753 -0.17427 0.00022532 -0.0013154 0.0012221 0.0019937 -0.0035821 0.00059011
0.001453 0.0012058 -0.00089418 -0.00054377
0.00020509 -0.0012935 0.2633 0.092563 -0.0011108 0.0037967 0.0010485 0.0012006
0.0017845 0.00027044 0.00085919 0.00025747
0.001193 0.0019436 -0.0010721 0.0037876 0.062262 -0.24792 0.00023085 -0.0019253
0.0025407 0.00037093 0.00035887 0.0016745
-0.0035713 0.00063743 0.0010866 0.001195 0.00024586 -0.0019275 0.11533 -0.16267
0.0026972 0.0037559 -0.0015378 0.0014184
0.0014817 0.0011885 0.0017742 0.00024893 0.0025439 0.00036823 0.0026625 0.0037076
0.24529 -0.0086571 0.0040887 -0.0019275
-0.00087011 -0.00056644 0.00083827 0.00028984 0.00034429 0.0017558 -0.0015648 0.0014059
0.0040904 -0.0019209 0.26085 0.040008
2000000000 0.13088 -0.18865 -0.0036884 0.00070004 0.0024438 0.0017455 -0.0023937 0.0033492
0.0012511 6.1682e-05 -0.00071939 0.00045583
-0.0036952 0.00067434 0.24867 0.057126 -0.00091689 0.0055625 0.0014766 0.00035311
0.0010872 -0.0013943 0.00047159 0.00011332
