!Keysight Technologies,M9804A,MY58100912,A.14.10.03
!Date: Thursday, April 27, 2023 10:28:33
!Correction: S11(C  6-Port  ) 
!S12(C  6-Port  ) 
!S13(C  6-Port  ) 
!S14(C  6-Port  ) 
!S15(C  6-Port  ) 
!S16(C  6-Port  ) 
!S21(C  6-Port  ) 
!S22(C  6-Port  ) 
!S23(C  6-Port  ) 
!S24(C  6-Port  ) 
!S25(C  6-Port  ) 
!S26(C  6-Port  ) 
!S31(C  6-Port  ) 
!S32(C  6-Port  ) 
!S33(C  6-Port  ) 
!S34(C  6-Port  ) 
!S35(C  6-Port  ) 
!S36(C  6-Port  ) 
!S41(C  6-Port  ) 
!S42(C  6-Port  ) 
!S43(C  6-Port  ) 
!S44(C  6-Port  ) 
!S45(C  6-Port  ) 
!S46(C  6-Port  ) 
!S51(C  6-Port  ) 
!S52(C  6-Port  ) 
!S53(C  6-Port  ) 
!S54(C  6-Port  ) 
!S55(C  6-Port  ) 
!S56(C  6-Port  ) 
!S61(C  6-Port  ) 
!S62(C  6-Port  ) 
!S63(C  6-Port  ) 
!S64(C  6-Port  ) 
!S65(C  6-Port  ) 
!S66(C  6-Port  ) 
!S6P File: Measurement: :
# Hz S  RI   R 50
500000000 -0.33785 -0.044092 -0.010592 -0.0025903 -0.008604 0.013032 -0.0049998 0.012436
0.012708 0.0044116 -0.0047413 0.0087301
-0.010423 -0.002586 -0.41876 -0.055341 0.0079692 -0.01122 0.0017283 0.012735
0.0067881 0.0023221 0.0014011 0.013764
-0.0086139 0.013034 0.0079319 -0.011175 -0.26653 0.20705 0.007138 0.0040003
-0.0027347 0.008185 0.00075413 0.012552
-0.0049506 0.012729 0.0016378 0.012619 0.0070662 0.0039837 -0.33427 0.034811
-0.021189 -0.0054636 0.017142 0.026063
0.012681 0.0042779 0.0067192 0.0021656 -0.0027539 0.008101 -0.021133 -0.0054211
-0.2141 -0.2132 -0.027462 0.0061233
-0.0046585 0.0090005 0.001634 0.013601 0.00069883 0.012481 0.017206 0.025997
-0.027443 0.0061141 -0.26174 -0.13714
560000000 -0.31748 0.12071 -0.023856 -0.063417 -0.00018196 0.012094 0.0055312 0.011377
0.010495 0.0046298 0.01042 0.0079353
-0.023533 -0.063597 -0.37644 0.10507 -0.042124 -0.037397 0.013691 0.0038243
-0.013477 -0.0051077 0.003028 0.00046398
-9.8121e-05 0.012286 -0.041894 -0.037203 -0.18416 0.25697 -0.00024976 -0.0045536
0.019306 0.0062616 0.007423 -0.006638
0.0056399 0.011482 0.014021 0.003941 -0.00027553 -0.0045314 -0.31176 0.1292
0.0036467 -0.023565 0.0039799 -0.021992
0.010833 0.0047998 -0.013462 -0.0051221 0.019349 0.0062917 0.0036187 -0.023559
-0.28768 -0.034592 0.0085693 -0.049581
0.010606 0.0081506 0.0028091 0.00052932 0.0073066 -0.0067124 0.0040947 -0.021926
0.0086667 -0.049597 -0.32674 0.01285
620000000 -0.27659 0.10285 -0.023044 0.0084077 0.0034263 0.0090239 0.0080727 -0.0048871
0.011723 -0.00031554 0.0011158 -0.0025287
-0.022991 0.0084008 -0.40343 0.056888 -0.018603 0.0002102 -0.0011572 -0.0018761
0.011553 -0.0057795 0.0012591 -0.003064
0.0034415 0.0089865 -0.018674 0.00028634 -0.15468 0.26596 -0.00071338 -0.0054203
-0.0028032 -0.0023533 0.008858 -0.0038178
0.0081025 -0.0049668 -0.0010864 -0.0019017 -0.00071261 -0.005505 -0.27022 0.13988
-0.040181 -0.0191 0.012997 0.026319
0.011675 -0.00012068 0.011516 -0.0058659 -0.0027561 -0.0024131 -0.040311 -0.019124
-0.20402 -0.074691 -0.04397 0.016045
0.0015236 -0.0022955 0.0010731 -0.0029456 0.008797 -0.0038738 0.013024 0.02635
-0.043868 0.016094 -0.24723 -0.025821
680000000 -0.23679 0.1902 -0.026967 -0.014064 0.0052044 0.0051157 0.0020735 -0.0070018
-0.002707 -0.011068 0.0052276 -0.0072835
-0.027004 -0.013997 -0.389 0.15608 -0.032781 -0.0014433 -0.0013615 -0.00046294
-0.0018675 -0.0090973 -0.0010768 -0.0019031
0.0052724 0.0051959 -0.032808 -0.0013593 -0.1026 0.28578 -0.00074371 -0.00063438
-0.0014804 0.00033791 -0.0029022 -0.0095017
0.0019137 -0.0071564 -0.0013209 -0.0003951 -0.0007099 -0.00060816 -0.22406 0.19296
-0.02458 -0.0062649 -0.010096 -0.011968
-0.0026746 -0.011061 -0.0019543 -0.0090304 -0.0015704 0.00040289 -0.024495 -0.0061518
-0.26256 0.026382 -0.0058836 -0.0069058
0.0052429 -0.0073919 -0.0011834 -0.0019781 -0.0029036 -0.0095743 -0.010065 -0.011977
-0.0057838 -0.0068733 -0.26005 0.080927
740000000 -0.19289 0.18527 -0.039462 0.027254 0.013308 -0.0051509 -6.9128e-05 -0.0046645
-0.0042619 -0.0024185 -0.0060137 0.0027713
-0.039516 0.027287 -0.33496 0.17512 -0.035491 0.035455 -0.00044167 -0.0063411
-0.011656 0.0069549 -0.0019916 -0.0066968
0.013255 -0.0051482 -0.035473 0.035513 -0.068973 0.28396 -0.0021177 0.0031975
-0.0023448 -0.0048205 -0.001487 0.00034006
-8.8685e-05 -0.0044612 -0.00042426 -0.0063968 -0.0021296 0.0031652 -0.20697 0.20116
-0.044969 -0.0064846 0.02453 0.016073
-0.0042504 -0.0025299 -0.011712 0.0070034 -0.0023092 -0.0047802 -0.045005 -0.0063271
-0.15826 0.053952 -0.044621 0.00024628
-0.005984 0.002941 -0.0019831 -0.0068352 -0.0014542 0.00040087 0.024627 0.016124
-0.044598 0.00023076 -0.24919 0.086153
800000000 -0.15957 0.22655 -0.022228 0.01686 0.0054311 -0.0106 -0.0046807 -0.0020565
-0.0041179 0.0022618 0.0041826 0.00029798
-0.022188 0.016794 -0.33911 0.24535 -0.0078759 0.034187 -0.0024446 0.0021246
-0.00084 0.002765 0.00088057 0.0051304
0.0054027 -0.010592 -0.0077763 0.034243 -0.028525 0.30695 0.00061857 0.0015817
3.2832e-05 0.0034184 -0.0018663 0.00095776
-0.0047271 -0.0020473 -0.0023997 0.0021787 0.0006201 0.0015811 -0.1781 0.23048
-0.028756 0.014809 0.014497 -0.010495
-0.0041215 0.0021507 -0.0007415 0.002758 3.5618e-05 0.0034316 -0.028747 0.014827
-0.20996 0.079351 -0.017597 0.019278
0.004164 0.00023081 0.00092818 0.0052502 -0.0019235 0.00097726 0.014502 -0.010496
-0.017626 0.01924 -0.24523 0.13641
860000000 -0.12444 0.24675 -0.017433 0.030802 -0.0031864 -0.010003 -0.0019389 0.00065925
0.0036958 0.0051217 -0.0034847 -0.0032036
-0.017439 0.030821 -0.29117 0.28719 0.0079016 0.034333 -0.00019033 0.0019868
0.00417 0.00011087 0.0034052 0.00086917
-0.0032449 -0.0099924 0.0079632 0.034309 0.019299 0.31493 -0.00072529 -0.00012107
0.0027704 -0.0016503 0.0016886 0.0042797
-0.0019077 0.00071531 -0.0001365 0.002014 -0.00069618 -0.00012812 -0.14026 0.24091
-0.017273 0.01864 -0.0059824 -0.0088334
0.0036957 0.0050691 0.004211 0.00018928 0.0027716 -0.0016673 -0.017252 0.018698
-0.15729 0.13358 -0.026481 0.015847
-0.0034964 -0.0032164 0.0033151 0.00086987 0.0016609 0.004292 -0.006 -0.008865
-0.026521 0.015819 -0.19532 0.18294
920000000 -0.099806 0.26903 0.0051438 0.037909 -0.0094517 -0.0047053 -0.0017774 0.0015956
0.00080584 0.0019828 0.0025334 -0.001579
0.0051261 0.037876 -0.2627 0.30854 0.028115 0.022136 0.0013997 0.0011033
0.007055 9.2774e-05 0.004001 -0.0028987
-0.0094763 -0.0046558 0.028207 0.022064 0.065388 0.31582 0.0019809 7.9762e-05
0.0012301 -0.00027024 0.0008408 -0.0011738
-0.0017601 0.0015834 0.0014115 0.0011142 0.0019701 8.2265e-05 -0.11639 0.25816
-0.01075 0.031543 0.0042837 -0.0066492
0.00079996 0.0020634 0.006978 0.00010804 0.0011871 -0.00026496 -0.010719 0.031609
-0.14898 0.13927 -0.00238 0.02746
0.0025126 -0.00157 0.003961 -0.0028157 0.00081042 -0.0011598 0.0043012 -0.0066438
-0.0023992 0.027451 -0.20457 0.19752
980000000 -0.05254 0.28898 0.017448 0.030069 -0.0092861 0.0044814 0.0019014 0.0032086
0.0038084 -0.0011936 -0.003197 -0.0024195
0.017401 0.030026 -0.20996 0.34279 0.033241 0.0049383 0.0021685 7.107e-06
0.0016774 -0.0057719 -5.9438e-05 -0.0025385
-0.0092782 0.0045017 0.033289 0.0048251 0.11176 0.30945 0.00064009 -0.0012572
0.0004251 -0.0021258 0.0014454 -0.00026735
0.0019258 0.0031968 0.0021884 3.2662e-06 0.00066318 -0.0012474 -0.07747 0.26919
0.0087377 0.03138 -0.0093796 -0.0077993
0.0038683 -0.0012255 0.0017286 -0.0057732 0.00041462 -0.002114 0.0088293 0.031406
-0.11911 0.16879 0.0050746 0.019882
-0.0031639 -0.0024696 -7.0219e-05 -0.0024528 0.0014141 -0.00025095 -0.0093816 -0.0077614
0.0050647 0.019912 -0.1623 0.24316
1040000000 -0.010779 0.29716 0.033187 0.018146 -0.0013974 0.0069832 0.0023707 0.00069586
6.6785e-05 -0.0034247 -0.00020381 -0.0012515
0.033142 0.018168 -0.17448 0.35575 0.029612 -0.014847 0.0015288 -0.0017939
-0.0021933 -0.0027517 -0.0014362 -0.002696
-0.0013603 0.007019 0.029561 -0.014994 0.15791 0.29584 -0.00048623 -0.0016958
-0.0015191 -0.00091347 -0.00052463 -0.0010742
0.0023347 0.00064893 0.001506 -0.0017868 -0.000489 -0.0016978 -0.050181 0.27916
0.020661 0.018788 -0.0021227 0.00087781
5.5986e-05 -0.0034606 -0.0021877 -0.0027009 -0.0015185 -0.00091198 0.020709 0.018791
-0.086872 0.17641 0.013351 0.01943
-0.00021884 -0.0013161 -0.0014116 -0.0027048 -0.00055541 -0.0010998 -0.0021216 0.00089795
0.013323 0.019421 -0.14126 0.26398
1100000000 0.034341 0.30547 0.035895 -0.0041817 0.002836 0.0040015 0.002155 -0.0011628
-0.0018352 -0.0032003 -0.0040443 -0.00016255
0.035857 -0.0041544 -0.13118 0.37322 0.015281 -0.028101 -5.9655e-05 -0.0018217
-0.003357 -0.001002 -0.0036482 -0.00062485
0.0028482 0.003986 0.015181 -0.028177 0.2044 0.27559 -0.0019962 0.00012526
-0.0018971 0.00039356 -0.0011863 -0.00035172
0.0021268 -0.0011863 -6.4019e-05 -0.0018359 -0.0019817 0.00012448 -0.0096223 0.28426
0.026307 0.0051094 -0.0027948 -0.00046666
-0.0018464 -0.0031908 -0.0033252 -0.00097984 -0.0018904 0.00041135 0.026328 0.0050858
-0.070546 0.19067 0.019548 0.0088642
-0.0040611 -0.00014703 -0.0036568 -0.00063105 -0.0012011 -0.00033901 -0.0027809 -0.00044213
0.019549 0.0088379 -0.09585 0.29617
1160000000 0.085738 0.30077 0.023957 -0.02097 0.0027439 -0.00049571 -0.00043646 -0.0020907
-0.0042424 -0.00090149 -0.0010128 0.0040969
0.023934 -0.020946 -0.087381 0.37761 -0.0037958 -0.029399 -0.001677 -0.0017333
-0.002927 0.0023491 -0.0014685 0.0018873
0.0027413 -0.00048005 -0.0039428 -0.029436 0.24759 0.24462 -0.00085056 0.0018663
-0.00068652 0.0020492 -0.0010354 0.00016022
-0.00044459 -0.0021186 -0.0016492 -0.0017255 -0.00087855 0.0018593 0.030056 0.28114
0.022738 -0.011596 -0.0037929 0.0050054
-0.0042543 -0.00087954 -0.002906 0.0023726 -0.00068191 0.0020531 0.022747 -0.011645
-0.0368 0.20047 0.018578 0.00082432
-0.0010289 0.004086 -0.0014499 0.0019213 -0.001006 0.00017392 -0.0037701 0.00501
0.018564 0.00079855 -0.048737 0.2988
1220000000 0.13009 0.28979 0.010425 -0.030232 -0.0015787 -0.00082045 0.00012508 -0.00065905
-0.002695 0.0023439 0.0011809 0.0020645
0.010432 -0.030213 -0.042867 0.38988 -0.017138 -0.021381 -0.0026018 0.00042509
-0.00010787 0.0031012 -0.00090338 0.0019141
-0.0015951 -0.00082715 -0.017241 -0.021349 0.28665 0.20541 0.00075038 0.0018442
0.00066523 0.0014048 0.00039292 0.00062259
0.00012778 -0.00067481 -0.002597 0.00044311 0.00076503 0.0018619 0.069952 0.27242
0.011471 -0.018771 0.0014592 0.0012856
-0.0026647 0.0023494 -6.8952e-05 0.0031233 0.00070418 0.0014095 0.011445 -0.018813
-0.015154 0.21084 0.014606 -0.012902
0.0011959 0.0020449 -0.00088218 0.0019352 0.000403 0.00062163 0.0014536 0.0012751
0.014604 -0.012892 -0.018317 0.31686
1280000000 0.18005 0.26828 -0.0080808 -0.028581 -0.0018987 0.00254 -0.00078156 -0.0019647
-0.00093118 0.0030516 0.0024288 0.0013316
-0.0080605 -0.028547 0.0032277 0.38106 -0.024099 -0.0085394 -0.0010132 0.0014265
0.0018098 0.0020106 0.00062921 0.0022038
-0.0018823 0.0025443 -0.024164 -0.0084391 0.3169 0.16148 0.0017019 9.682e-05
0.0012508 0.00035583 0.00039241 0.00029745
-0.00078152 -0.0019667 -0.0010191 0.0014288 0.0017183 0.00010649 0.10691 0.25535
0.0012217 -0.021176 -0.00073125 0.00046648
-0.00090189 0.0030466 0.001828 0.001992 0.0012606 0.00035241 0.0011675 -0.021163
0.021477 0.21581 0.0031417 -0.015393
0.0024261 0.0013362 0.00064194 0.0021809 0.00042288 0.00031062 -0.00073453 0.0004809
0.0031447 -0.015381 0.0301 0.31968
1340000000 0.21728 0.23441 -0.017858 -0.018912 0.00090048 0.0046047 -0.0015704 -0.00094822
0.0014668 0.0027354 0.0018645 -0.0013676
-0.01783 -0.018906 0.04298 0.37274 -0.021871 0.0044166 -0.0002216 0.002042
0.0021207 0.00088565 0.0013288 0.00081739
0.00092596 0.004609 -0.021875 0.0045226 0.33882 0.11343 0.0014109 -0.00097486
0.00093239 -0.00061557 8.5505e-05 0.00030529
-0.0015894 -0.00095184 -0.00024026 0.0020387 0.0014024 -0.00096188 0.13876 0.23439
-0.0093632 -0.01836 0.00067153 0.0010862
0.001465 0.0027422 0.0021133 0.00086845 0.00090862 -0.00059524 -0.0094133 -0.018341
0.050515 0.212 -0.0035017 -0.014017
0.0018345 -0.0013846 0.0013454 0.00080488 0.00011423 0.00030255 0.00066529 0.0010829
-0.0035001 -0.014011 0.06835 0.31626
1400000000 0.25039 0.19629 -0.023546 -0.0072469 0.0052743 0.0031775 -0.0020982 0.00039734
0.0023697 0.0010449 0.00037831 -0.0014592
-0.023524 -0.0072719 0.080271 0.35957 -0.01499 0.012695 0.0013922 0.0013974
0.0013197 -0.00084628 0.0013071 0.00015421
0.0052933 0.0031506 -0.014939 0.012768 0.35158 0.060225 0.00017843 -0.0019077
6.5704e-05 -0.00054926 0.00042028 0.00021734
-0.0021067 0.00042401 0.0013958 0.001399 0.00016754 -0.0019138 0.16721 0.20531
-0.015991 -0.011075 -0.0008678 0.00012896
0.0023843 0.0010009 0.0013151 -0.00085254 7.4769e-05 -0.00056023 -0.016022 -0.011039
0.083508 0.20891 -0.010117 -0.0091212
0.0003838 -0.0014721 0.0013197 0.00012997 0.00042897 0.00021588 -0.00086207 0.000132
-0.01012 -0.0091208 0.11359 0.30614
1460000000 0.27312 0.15212 -0.020454 0.0049921 0.0057836 -0.0018253 -0.0016981 0.0017327
0.0021571 -0.00038378 -0.00034502 -0.0010915
-0.020443 0.0049736 0.11448 0.33749 -0.0060455 0.015595 0.0018325 0.00026654
0.00096598 -0.0014212 0.0011971 -0.00067867
0.0057494 -0.0018463 -0.0059774 0.015653 0.35761 0.0060859 -0.0014461 -0.0014682
0.00010559 -0.00035324 0.00057217 -0.0003538
-0.0016867 0.0017288 0.0018363 0.00025728 -0.0014475 -0.0014862 0.19226 0.17623
-0.0177 -0.0035506 -0.00055899 0.0026409
0.0021675 -0.00037587 0.00095266 -0.0014412 0.00012538 -0.00035896 -0.017712 -0.0035139
0.11212 0.19525 -0.011999 -0.0026605
-0.00035487 -0.0010782 0.0012133 -0.00069371 0.00060089 -0.00035316 -0.00055047 0.0026477
-0.011986 -0.0026691 0.14722 0.28545
1520000000 0.28512 0.11039 -0.014648 0.010533 0.003457 -0.0042649 -5.9269e-06 0.00267
0.0022951 -0.0016554 -0.0011317 -0.00020562
-0.014648 0.010512 0.14789 0.32268 0.0017038 0.01325 0.0018289 -0.00078855
-1.2019e-07 -0.0011261 0.00030563 -0.0010153
0.0034311 -0.0042905 0.0017752 0.013268 0.35114 -0.049901 -0.0013712 -0.00036406
0.00060665 -0.00078922 8.9068e-05 -0.00017046
8.7149e-06 0.0026667 0.0018276 -0.00079288 -0.0013692 -0.00035817 0.21407 0.13943
-0.01692 0.0032861 0.0019076 0.0022228
0.0022696 -0.0016493 -6.8826e-06 -0.0011299 0.0006048 -0.00078689 -0.016916 0.0033298
0.13981 0.18235 -0.012001 0.0016363
-0.0011407 -0.0001931 0.00030947 -0.0010044 9.9572e-05 -0.00017099 0.0019135 0.0022111
-0.011992 0.0016145 0.18069 0.26616
1580000000 0.29433 0.064282 -0.0078804 0.013607 -0.00093851 -0.0050031 0.0014556 0.002084
-7.261e-05 -0.0022071 -0.00033754 0.00042042
-0.0078756 0.013588 0.17493 0.29784 0.0053417 0.008331 0.00053069 -0.0017646
-0.00063517 -0.0010785 -0.00028333 -0.00078968
-0.00096755 -0.0049827 0.0053898 0.0083144 0.33086 -0.10734 -0.0017666 0.00092121
-0.0003477 -0.0010645 0.00017238 -0.00049848
0.0014665 0.0020702 0.00051366 -0.0017726 -0.0017662 0.00091776 0.22697 0.10201
-0.012773 0.0089727 0.0026505 0.00077217
-8.168e-05 -0.0022193 -0.00064533 -0.0010645 -0.00033848 -0.0010608 -0.012758 0.0090052
0.16424 0.16568 -0.0093505 0.0076749
-0.00033075 0.0004451 -0.00028904 -0.00078993 0.0001517 -0.00050822 0.0026554 0.00076153
-0.0093525 0.0076669 0.21377 0.23991
1640000000 0.2964 0.023062 -0.001047 0.012371 -0.00275 -0.0025836 0.0028918 0.0010594
-0.00050346 -0.0017442 -0.00032297 0.00058237
-0.0010482 0.012368 0.20438 0.273 0.0060983 0.0034928 -0.0007569 -0.0019192
-0.0010446 -0.00035004 -0.00045564 -0.0007352
-0.0027762 -0.0025277 0.0061223 0.0034513 0.30307 -0.1567 -0.00053812 0.0016993
-0.0011105 -0.0011744 -5.4826e-05 -0.00044587
0.0028846 0.0010377 -0.00077629 -0.0019227 -0.00052485 0.0016755 0.23908 0.055623
-0.0078295 0.010557 0.002862 -0.0009544
-0.00051505 -0.0017741 -0.0010525 -0.00035121 -0.0011081 -0.0011619 -0.0077971 0.010582
0.18655 0.14237 -0.0045524 0.0097549
-0.00030998 0.00060224 -0.00046648 -0.00073481 -4.6159e-05 -0.00044654 0.0028753 -0.00095388
-0.0045465 0.0097416 0.2397 0.20965
1700000000 0.28897 -0.022016 0.002332 0.0093549 -0.0034794 8.9182e-05 0.0031698 -0.00143
-0.002161 -0.00091441 0.00068663 0.00048795
0.0023228 0.0093529 0.22232 0.24161 0.0040133 0.00061855 -0.0016124 -0.00062482
-0.00073029 0.00013032 -0.00091212 -0.00045982
-0.0034623 0.00012834 0.0040297 0.00058893 0.25935 -0.19642 0.00076869 0.0016411
-0.0020138 -0.00024152 -0.00040332 -0.00088828
0.0031502 -0.0014581 -0.0016224 -0.00062478 0.00077019 0.0016428 0.23716 0.0085794
-0.0042394 0.011295 0.0016923 -0.0024513
-0.0021422 -0.00089457 -0.00073623 0.000125 -0.0020283 -0.00023677 -0.0042086 0.011305
0.20395 0.12335 0.00032871 0.010041
0.00070823 0.00048528 -0.00091468 -0.00044278 -0.00040333 -0.00086358 0.0016845 -0.0024694
0.00034836 0.010034 0.25704 0.17514
1760000000 0.27684 -0.070328 0.0044759 0.0059709 -0.0023851 0.00099723 0.0011673 -0.0036036
-0.0015122 0.00061978 0.00042243 -0.00062933
0.0044681 0.005959 0.2483 0.20196 0.0016919 -0.0012731 -0.0013189 0.00026988
-0.00089421 0.00090813 -0.00060125 0.00037931
-0.0023702 0.0010156 0.0016826 -0.0012651 0.21037 -0.22991 0.0013596 0.00083933
-0.0012293 0.0014585 -0.0013441 -0.00056954
0.0011604 -0.0036159 -0.0013242 0.00027842 0.0013611 0.00085083 0.23071 -0.040556
-0.00023374 0.010185 -9.3733e-05 -0.0028342
-0.0015204 0.00062451 -0.00088637 0.00092407 -0.0012475 0.0014743 -0.00020988 0.010182
0.21871 0.08968 0.004584 0.0073325
0.00041047 -0.00062685 -0.00059189 0.00039059 -0.0013677 -0.00055875 -0.0001032 -0.0028177
0.0045829 0.007322 0.27014 0.13795
1820000000 0.25225 -0.10742 0.0044771 0.0023955 -0.0001334 0.0024481 -0.001209 -0.003099
-0.0013128 0.0010201 -4.1032e-05 -5.8253e-05
0.0044753 0.0023977 0.25837 0.17194 -0.00036857 -0.00020984 -0.0013095 0.0011034
6.4821e-05 0.0011822 -0.00053633 0.00052668
-0.00011449 0.0024548 -0.00036465 -0.00018939 0.16031 -0.24569 0.0013347 8.9632e-05
-0.0001599 0.0023916 -0.0013415 0.00025041
-0.0012169 -0.003085 -0.0013037 0.001108 0.0013362 0.00010098 0.20407 -0.087143
0.001826 0.0081931 -0.0017104 -0.0018097
-0.0013031 0.0010282 7.8182e-05 0.001186 -0.00013752 0.002381 0.0018479 0.0082041
0.23648 0.062093 0.0054761 0.0034348
-4.9274e-05 -6.6356e-05 -0.00053841 0.00054673 -0.0013506 0.00028538 -0.001739 -0.0018149
0.0054706 0.0034296 0.27323 0.1021
1880000000 0.21739 -0.14765 0.0022447 0.0002049 -0.00040414 0.002081 -0.0030775 -0.0021645
-0.00015901 0.0019491 0.00013843 -0.00058076
0.0022445 0.0001989 0.26286 0.12549 -0.002355 0.0015736 -5.4906e-05 0.0016451
0.00049847 0.0010246 6.0344e-05 0.00092244
-0.00039505 0.0020968 -0.0023361 0.00158 0.10814 -0.25498 0.0014474 -0.00078745
0.0015113 0.0019612 -0.0010733 0.001333
-0.0030844 -0.0021349 -5.4017e-05 0.0016563 0.0014694 -0.00078239 0.16705 -0.12862
0.0029653 0.0055671 -0.0026057 0.0001902
-0.00014489 0.001951 0.00049499 0.0010162 0.0015161 0.0019712 0.002966 0.0055704
0.24011 0.030842 0.0055931 0.0011478
0.00011974 -0.00061231 7.1619e-05 0.0009302 -0.0010872 0.0013234 -0.0026054 0.0001959
0.0055621 0.001147 0.27368 0.067726
1940000000 0.17822 -0.17365 -3.9481e-05 -0.0014046 0.0012891 0.0020987 -0.0036502 0.00069233
0.0015134 0.0011586 -0.00068341 -0.00049292
-3.9202e-05 -0.0014083 0.26357 0.093631 -0.0011766 0.0037768 0.0010138 0.001266
0.0016133 0.00049311 0.00080984 0.00030935
0.001268 0.0020942 -0.0011541 0.0037822 0.06207 -0.24842 0.00029596 -0.0017056
0.0023857 0.00054606 0.00036542 0.0016977
-0.0036286 0.00073266 0.0010164 0.0012553 0.0002929 -0.0017096 0.11658 -0.162
0.0021749 0.0034245 -0.0018066 0.0015353
0.0015109 0.0011667 0.0016238 0.0004767 0.0023819 0.00053508 0.0021725 0.0034273
0.24348 -0.0069575 0.0040889 -0.0025291
-0.00069398 -0.00049661 0.00082096 0.00030172 0.00035426 0.0017178 -0.0018211 0.0015473
0.0040868 -0.0025381 0.26286 0.031987
2000000000 0.13181 -0.18834 -0.00386 0.00064686 0.0025073 0.0017152 -0.0023322 0.0034841
0.0011839 3.9359e-05 -0.00059202 0.00044584
-0.0038649 0.0006599 0.24937 0.058038 -0.0010757 0.0056185 0.0014833 0.00041256
0.0011314 -0.0011495 0.00045465 0.0001881
0.0025083 0.0017303 -0.001048 0.0056254 0.018516 -0.23378 -0.0011333 -0.0013035
0.0020625 -0.0012261 0.0016857 0.0014078
-0.0022952 0.0034683 0.001491 0.00036819 -0.001121 -0.001306 0.063157 -0.17501
0.00032324 0.002499 -0.00012582 0.0021735
0.0011683 4.1555e-06 0.0011294 -0.0011764 0.0020421 -0.0012122 0.00034691 0.0025132
0.23897 -0.04073 0.00068713 -0.0034814
