!Keysight Technologies,M9804A,MY58100912,A.14.10.03
!Date: Thursday, April 27, 2023 10:28:33
!Correction: S11(C  6-Port  ) 
!S12(C  6-Port  ) 
!S13(C  6-Port  ) 
!S14(C  6-Port  ) 
!S15(C  6-Port  ) 
!S16(C  6-Port  ) 
!S21(C  6-Port  ) 
!S22(C  6-Port  ) 
!S23(C  6-Port  ) 
!S24(C  6-Port  ) 
!S25(C  6-Port  ) 
!S26(C  6-Port  ) 
!S31(C  6-Port  ) 
!S32(C  6-Port  ) 
!S33(C  6-Port  ) 
!S34(C  6-Port  ) 
!S35(C  6-Port  ) 
!S36(C  6-Port  ) 
!S41(C  6-Port  ) 
!S42(C  6-Port  ) 
!S43(C  6-Port  ) 
!S44(C  6-Port  ) 
!S45(C  6-Port  ) 
!S46(C  6-Port  ) 
!S51(C  6-Port  ) 
!S52(C  6-Port  ) 
!S53(C  6-Port  ) 
!S54(C  6-Port  ) 
!S55(C  6-Port  ) 
!S56(C  6-Port  ) 
!S61(C  6-Port  ) 
!S62(C  6-Port  ) 
!S63(C  6-Port  ) 
!S64(C  6-Port  ) 
!S65(C  6-Port  ) 
!S66(C  6-Port  ) 
!S6P File: Measurement: :
# Hz S  RI   R 50
500000000 -0.33786 -0.042281 -0.010294 -0.0027328 -0.0080643 0.012642 -0.0049246 0.011824
0.012639 0.0046641 -0.0048162 0.0078414
-0.0096255 -0.0024011 -0.41904 -0.054073 0.0077705 -0.010724 0.0013443 0.01257
0.0076954 0.0016071 0.0015336 0.013286
-0.0078975 0.012696 0.0075806 -0.010844 -0.26606 0.20821 0.0074044 0.0040968
-0.0026894 0.0078885 0.00066928 0.01204
-0.004738 0.012042 0.0013249 0.012656 0.0074929 0.0041479 -0.33413 0.037524
-0.02033 -0.006403 0.017097 0.027468
0.012477 0.0047311 0.0076774 0.0015611 -0.0026373 0.007801 -0.020326 -0.0065313
-0.21682 -0.20964 -0.026872 0.0062534
-0.0044724 0.0092418 0.0010801 0.013749 0.00094328 0.012703 0.01673 0.028465
-0.026737 0.0060047 -0.25556 -0.1627
560000000 -0.31677 0.11971 -0.023595 -0.063363 -0.00056031 0.012329 0.0053541 0.010982
0.010414 0.0044459 0.011314 0.0080581
-0.023841 -0.063229 -0.37774 0.10657 -0.0409 -0.037835 0.013589 0.0036066
-0.012627 -0.0050452 0.0023744 -0.0002917
-0.00015526 0.012209 -0.041131 -0.037859 -0.18419 0.25698 0.00021198 -0.0038807
0.019883 0.0058249 0.0072566 -0.005869
0.0052788 0.010643 0.013976 0.0039467 -3.524e-05 -0.0039024 -0.31048 0.13006
0.0039424 -0.022963 0.0041786 -0.021909
0.0099932 0.0051651 -0.012442 -0.0043446 0.019278 0.0061513 0.0043294 -0.023196
-0.28725 -0.033007 0.010821 -0.050027
0.011456 0.0079993 0.0023301 -0.00042516 0.0069618 -0.0062993 0.0049768 -0.022146
0.010667 -0.050031 -0.32966 -0.0078445
620000000 -0.27617 0.10396 -0.023249 0.008165 0.003403 0.0083487 0.0082633 -0.0045217
0.010852 6.6425e-05 0.0018516 -0.0021639
-0.023184 0.0081721 -0.40298 0.058087 -0.018428 5.5157e-06 -0.0010405 -0.0018694
0.011763 -0.0059427 0.0017999 -0.003285
0.003491 0.0084675 -0.018491 8.2104e-05 -0.15422 0.26587 -0.00082995 -0.0051333
-0.0021312 -0.0027239 0.0088066 -0.0035527
0.008154 -0.0048443 -0.0011143 -0.0018945 -0.00093457 -0.0051051 -0.26989 0.14094
-0.039341 -0.019351 0.013052 0.028378
0.011431 -0.00049094 0.01186 -0.006255 -0.0022528 -0.0026285 -0.03892 -0.019496
-0.20763 -0.070723 -0.043817 0.014878
0.0018495 -0.0023479 0.001804 -0.0029191 0.008554 -0.0030373 0.012639 0.028356
-0.043663 0.014823 -0.24582 -0.050701
680000000 -0.23573 0.19072 -0.027215 -0.014375 0.0049065 0.0050675 0.0020264 -0.0073199
-0.002862 -0.011333 0.0061039 -0.0074979
-0.027128 -0.014399 -0.38845 0.15644 -0.032464 -0.0015827 -0.0013191 -0.00051858
-0.0017992 -0.0091347 -0.00078897 -0.0019532
0.004899 0.0051019 -0.032563 -0.0015891 -0.10243 0.28589 -0.00066273 -0.00048996
-0.0015601 0.00020794 -0.0026097 -0.0093757
0.0018994 -0.0071721 -0.0014024 -0.00055685 -0.00058137 -0.00055466 -0.22391 0.19411
-0.024239 -0.0064853 -0.010194 -0.012605
-0.0029786 -0.011109 -0.0017083 -0.0091287 -0.0014885 0.00033367 -0.02443 -0.0066158
-0.26116 0.029822 -0.0050913 -0.0083648
0.0059105 -0.0071833 -0.0011062 -0.0019891 -0.0025565 -0.0097051 -0.010323 -0.01267
-0.0051747 -0.0085874 -0.26464 0.062082
740000000 -0.19182 0.18535 -0.038604 0.027007 0.012629 -0.0052189 8.0378e-05 -0.004298
-0.0034562 -0.0024152 -0.0065042 0.002511
-0.038677 0.026922 -0.33551 0.17564 -0.035522 0.03486 -0.0009491 -0.0063187
-0.011367 0.0075313 -0.0020628 -0.0072147
0.012636 -0.0052207 -0.03556 0.034916 -0.068664 0.28412 -0.0022973 0.0026979
-0.002549 -0.0049037 -0.0014619 -0.00015838
0.00013353 -0.0042787 -0.0010138 -0.0061615 -0.0022222 0.0027538 -0.20693 0.20238
-0.044224 -0.0071383 0.024346 0.016318
-0.0038112 -0.0028593 -0.011053 0.0075841 -0.0024025 -0.0048388 -0.044238 -0.0068964
-0.15995 0.058718 -0.045906 -0.0010509
-0.0064145 0.002614 -0.0026647 -0.0071723 -0.0014714 -0.00015979 0.024345 0.016201
-0.045723 -0.0011296 -0.25628 0.066431
800000000 -0.1588 0.22627 -0.022415 0.016698 0.0053201 -0.010532 -0.0044479 -0.0022818
-0.0036154 0.0021881 0.0048766 7.688e-06
-0.022402 0.016666 -0.3386 0.2457 -0.0079703 0.033823 -0.0023671 0.0022094
-0.00063286 0.0027578 0.0011098 0.0054028
0.0052724 -0.010607 -0.0078466 0.033894 -0.028109 0.30712 0.00081682 0.0016009
9.6001e-05 0.0035039 -0.0016127 0.00087248
-0.0044319 -0.0022738 -0.0023937 0.0022581 0.00080235 0.0016548 -0.17753 0.23073
-0.028589 0.014684 0.015221 -0.010789
-0.004067 0.0022641 -0.00068536 0.0027063 5.8295e-05 0.0035192 -0.028681 0.014755
-0.20902 0.081868 -0.017482 0.019653
0.0050305 3.2715e-08 0.0011046 0.0054183 -0.0016717 0.00079622 0.015055 -0.01111
-0.017549 0.019728 -0.25496 0.11953
860000000 -0.1238 0.24673 -0.017432 0.030682 -0.0031656 -0.0098712 -0.0020712 0.00077306
0.0040696 0.0046484 -0.0040138 -0.0032168
-0.01752 0.030614 -0.29097 0.28755 0.0077153 0.034075 -4.8681e-05 0.002177
0.0039043 0.0002906 0.0029277 0.00031075
-0.0032066 -0.0098466 0.0078566 0.034044 0.019872 0.31494 -0.00052385 4.9273e-06
0.0028085 -0.0012801 0.0012229 0.0041719
-0.0020692 0.00076247 -1.4856e-05 0.0020886 -0.00050835 2.9363e-06 -0.13967 0.24169
-0.017396 0.019159 -0.0070485 -0.0090042
0.0038599 0.0047099 0.0038104 0.00022292 0.0028078 -0.0013321 -0.017421 0.019137
-0.1567 0.13476 -0.028134 0.015554
-0.0037383 -0.0032328 0.0029395 0.0003987 0.0012365 0.004171 -0.0067856 -0.008985
-0.028274 0.015517 -0.2027 0.16828
920000000 -0.099706 0.26975 0.0049992 0.037767 -0.0093357 -0.0044212 -0.0018524 0.0016964
0.00097821 0.0019837 0.0029567 -0.0015752
0.004956 0.037753 -0.2621 0.30872 0.02786 0.0219 0.0013689 0.0012125
0.007183 -9.5968e-05 0.0039666 -0.0028493
-0.0093044 -0.0044359 0.028014 0.021821 0.065887 0.3155 0.001929 0.00012624
0.0011669 -0.0001153 0.00078145 -0.0011831
-0.0018696 0.0017306 0.0013425 0.0011581 0.0019344 9.2261e-05 -0.1157 0.25836
-0.010614 0.031349 0.0047534 -0.0072811
0.0008529 0.0018571 0.0071734 -0.00015859 0.0011829 -0.00016928 -0.010493 0.031489
-0.14804 0.14045 -0.0026318 0.028334
0.0028134 -0.0013641 0.0039442 -0.0027928 0.00084736 -0.0011734 0.0045684 -0.007092
-0.0024463 0.02813 -0.21644 0.18311
980000000 -0.052186 0.28927 0.017281 0.029986 -0.0089719 0.0045572 0.0018914 0.0034839
0.0039261 -0.0013286 -0.0033723 -0.0022684
0.017228 0.029909 -0.20929 0.3429 0.032804 0.0050143 0.0020334 6.401e-05
0.0017535 -0.0058121 -0.00017185 -0.0024036
-0.0089739 0.00455 0.032878 0.0049064 0.11193 0.30903 0.00063885 -0.0011522
0.00042882 -0.0021501 0.0014722 -0.00012336
0.0019005 0.0034275 0.0020625 0.0001074 0.00062574 -0.0011396 -0.07671 0.26916
0.0082562 0.030663 -0.0093525 -0.0078828
0.0039322 -0.0013463 0.0017801 -0.0057054 0.00039428 -0.0021678 0.00831 0.030715
-0.11722 0.17069 0.0045046 0.020015
-0.0035099 -0.0022746 -0.00026923 -0.0024043 0.0013876 -6.5963e-05 -0.0093153 -0.0078318
0.0045653 0.019958 -0.17492 0.23341
1040000000 -0.010169 0.29769 0.032989 0.018313 -0.0012467 0.0068435 0.0024035 0.00070805
7.0075e-05 -0.0036445 -0.00015479 -0.001511
0.032908 0.018311 -0.17368 0.35579 0.029298 -0.014618 0.0015131 -0.001691
-0.0023437 -0.0024817 -0.0011896 -0.0027255
-0.0012295 0.0068741 0.029281 -0.014693 0.15775 0.29531 -0.00047176 -0.0016759
-0.0015792 -0.00094376 -0.0005623 -0.0011187
0.0023994 0.00074 0.001532 -0.0016509 -0.00045906 -0.0016895 -0.049419 0.27907
0.020037 0.018588 -0.001999 0.0010702
0.00015108 -0.003689 -0.0023019 -0.0024883 -0.0015473 -0.00094571 0.020156 0.018481
-0.084747 0.17852 0.013133 0.019738
-0.00015322 -0.0015625 -0.0011781 -0.0026794 -0.00054441 -0.0011776 -0.0018981 0.0010756
0.013042 0.019784 -0.15604 0.25499
1100000000 0.035098 0.30557 0.035593 -0.0040585 0.002793 0.0038124 0.0021968 -0.0011356
-0.0020152 -0.0031888 -0.0039993 6.4544e-05
0.035565 -0.0040077 -0.13037 0.3729 0.015187 -0.027577 -6.3669e-05 -0.0017821
-0.0033704 -0.0010416 -0.0035891 -0.0006177
0.0028032 0.003801 0.015086 -0.027677 0.20375 0.27525 -0.001957 8.07e-05
-0.0018282 0.00034285 -0.0010942 -0.0003835
0.0022127 -0.0011392 -3.6498e-05 -0.0017782 -0.0019682 8.5671e-05 -0.0090285 0.28377
0.025719 0.0052921 -0.0028748 -0.0006557
-0.0019944 -0.0031839 -0.003341 -0.0010452 -0.0018546 0.00039997 0.025745 0.0052789
-0.067486 0.19231 0.019374 0.0094874
-0.0040026 -9.2773e-05 -0.0035676 -0.0005673 -0.0011072 -0.00032501 -0.0027334 -0.00060794
0.019464 0.0095424 -0.11044 0.28985
1160000000 0.086533 0.30063 0.023878 -0.02035 0.0026931 -0.00049495 -0.00036846 -0.0022472
-0.0041063 -0.00088568 -0.0010244 0.0041835
0.02387 -0.020336 -0.087041 0.37696 -0.0034454 -0.028962 -0.00162 -0.001751
-0.002988 0.0023333 -0.0013805 0.0018958
0.0027006 -0.00051899 -0.0035774 -0.028967 0.2468 0.24474 -0.00084858 0.0017982
-0.00074637 0.0019941 -0.00096335 0.00022152
-0.00038838 -0.0022589 -0.001641 -0.0017496 -0.00087018 0.0018359 0.030153 0.28068
0.02241 -0.01084 -0.003663 0.0050807
-0.0041759 -0.00090618 -0.0029359 0.0023423 -0.00077722 0.0020559 0.022355 -0.010909
-0.033806 0.20176 0.018754 0.0016378
-0.0010945 0.0042339 -0.0015703 0.0019095 -0.00095661 0.00028857 -0.0036415 0.0050661
0.018811 0.0016429 -0.063188 0.29385
1220000000 0.13076 0.28954 0.010558 -0.029663 -0.0016248 -0.00079691 0.00012524 -0.00076141
-0.002746 0.0023921 0.0012655 0.0020684
0.010578 -0.029608 -0.042869 0.38919 -0.016609 -0.021178 -0.0025319 0.00034003
-0.00021193 0.0030814 -0.00084028 0.0019022
-0.0015755 -0.00075488 -0.016746 -0.021087 0.28605 0.2061 0.00073501 0.0018207
0.00054778 0.0014387 0.00038531 0.00066643
0.00011747 -0.00076102 -0.0025565 0.0003302 0.00070975 0.0018142 0.069932 0.27201
0.011555 -0.017858 0.0017415 0.0012789
-0.0027057 0.0023501 -0.00017458 0.0030325 0.00056015 0.0014045 0.01146 -0.017933
-0.012494 0.21094 0.015312 -0.012057
0.0013134 0.0020437 -0.00085772 0.0019255 0.00041852 0.00065673 0.0017054 0.0012552
0.015397 -0.012063 -0.033324 0.31477
1280000000 0.18032 0.26761 -0.0075409 -0.028236 -0.0018167 0.0024752 -0.00076495 -0.0020134
-0.00085483 0.0030636 0.0024649 0.0013421
-0.007517 -0.028231 0.0028284 0.38039 -0.023485 -0.0086968 -0.0011084 0.0013988
0.0015489 0.002041 0.00058249 0.0022648
-0.001806 0.0024836 -0.023569 -0.008583 0.31692 0.16244 0.0017617 0.00018431
0.0012461 0.00039511 0.0005113 0.00026622
-0.00075951 -0.0020031 -0.001119 0.0014173 0.0017576 0.00019218 0.10666 0.25522
0.0018914 -0.020409 -0.00061184 0.00026317
-0.00082191 0.0030153 0.0015608 0.0020045 0.0012131 0.00043361 0.0018273 -0.020444
0.023796 0.21533 0.0039286 -0.014787
0.0024659 0.0012989 0.0005734 0.0022397 0.00047459 0.00033804 -0.00067872 0.00022746
0.0039491 -0.01481 0.016097 0.32037
1340000000 0.21719 0.23403 -0.017201 -0.019001 0.00091423 0.0044618 -0.0015571 -0.00090955
0.001418 0.0027643 0.0018654 -0.0012731
-0.017165 -0.018968 0.042215 0.3726 -0.021574 0.0039485 -0.00026419 0.002066
0.0019386 0.0010533 0.0013671 0.00081578
0.00091736 0.0044451 -0.021561 0.0040417 0.3392 0.11462 0.0013919 -0.00087049
0.00080586 -0.00048968 0.00026537 0.00027857
-0.0015603 -0.00089573 -0.00024878 0.0020701 0.0013881 -0.00088635 0.13838 0.23463
-0.0082828 -0.018025 0.00066329 0.00069803
0.0014749 0.0027627 0.0019559 0.0010528 0.00080398 -0.00052397 -0.0082969 -0.018051
0.052635 0.21126 -0.0024435 -0.013949
0.0018684 -0.0013791 0.001415 0.00082625 0.0002777 0.00030728 0.00066294 0.00073617
-0.0024248 -0.013865 0.054485 0.31868
1400000000 0.25004 0.19613 -0.023022 -0.0077164 0.0051278 0.0030381 -0.0020304 0.00044624
0.0023206 0.00096529 0.00047172 -0.0013805
-0.022976 -0.0077223 0.079553 0.35986 -0.014965 0.012146 0.0013831 0.0015153
0.0013194 -0.00067992 0.0013548 0.00029409
0.0051507 0.00302 -0.014904 0.012233 0.35267 0.060761 0.00033698 -0.0018256
4.8094e-05 -0.00044744 0.000389 0.00024053
-0.0020407 0.00045469 0.0013829 0.0015165 0.00030124 -0.0018193 0.16711 0.20568
-0.01485 -0.011439 -0.0010704 -0.0003125
0.002365 0.00093779 0.001308 -0.00069926 9.7723e-06 -0.00047873 -0.014878 -0.01142
0.084988 0.20812 -0.0090502 -0.0094877
0.00048417 -0.0013435 0.0013861 0.0003317 0.00040627 0.00021106 -0.0010988 -0.0002782
-0.009075 -0.0095607 0.10173 0.31007
1460000000 0.27291 0.15249 -0.020291 0.0043066 0.0055575 -0.0018495 -0.0016976 0.0016539
0.0021505 -0.00039457 -0.00025591 -0.0010705
-0.020289 0.0043087 0.11398 0.33831 -0.0064315 0.015115 0.0018899 0.00023415
0.001078 -0.0014419 0.0012292 -0.00068318
0.005545 -0.001852 -0.0063416 0.015183 0.3587 0.0061969 -0.0012999 -0.0015591
0.00017998 -0.00035479 0.00060596 -0.00038595
-0.0016901 0.0016721 0.0018879 0.00022035 -0.0013318 -0.0015476 0.19231 0.17693
-0.017026 -0.0044821 -0.00093115 0.0025323
0.0021588 -0.00043229 0.0010608 -0.0014677 0.00016176 -0.00031841 -0.017084 -0.0044626
0.11351 0.19435 -0.011346 -0.0035087
-0.0002967 -0.0010791 0.0012037 -0.00070919 0.00057325 -0.00037444 -0.00092623 0.0024936
-0.011384 -0.0035256 0.13582 0.29065
1520000000 0.28527 0.11088 -0.014875 0.0098802 0.0032643 -0.0041256 2.6239e-06 0.002677
0.0022645 -0.0015983 -0.0011656 -0.00030153
-0.014869 0.0098659 0.14784 0.32359 0.0013187 0.013117 0.0018194 -0.00086509
9.1019e-05 -0.0012536 0.00040699 -0.001036
0.0032354 -0.0041106 0.0013862 0.013134 0.35182 -0.050226 -0.0013804 -0.0005041
0.00060122 -0.00090096 6.9162e-05 -0.00014026
-7.4543e-06 0.0026754 0.001822 -0.00087497 -0.0013665 -0.00050961 0.21467 0.14018
-0.017015 0.002054 0.0016067 0.0023544
0.0022586 -0.0016284 8.9753e-05 -0.0012772 0.00058398 -0.00092106 -0.017035 0.0020985
0.14075 0.18158 -0.011907 0.00066185
-0.0011866 -0.00029064 0.00037432 -0.0010384 6.9724e-05 -0.00011929 0.0015811 0.0023622
-0.011906 0.00066947 0.17138 0.27296
1580000000 0.29486 0.064756 -0.0083884 0.013155 -0.00092526 -0.0048583 0.0013892 0.0021034
-7.0968e-05 -0.0021019 -0.00042607 0.00046478
-0.0084111 0.013137 0.1754 0.2988 0.0049974 0.0084546 0.00052507 -0.0017744
-0.00067678 -0.0011955 -0.00023874 -0.00083105
-0.00091696 -0.0048171 0.0050603 0.0084382 0.33129 -0.10788 -0.0018862 0.0008384
-0.00027299 -0.0011465 7.7651e-05 -0.00046493
0.0014052 0.0021053 0.00051312 -0.0017866 -0.0018608 0.00082538 0.22801 0.10251
-0.013654 0.0080405 0.0026254 0.0011238
-0.00010736 -0.0021309 -0.00068924 -0.0011967 -0.00032467 -0.0011679 -0.013647 0.0081053
0.16508 0.1651 -0.0096887 0.0069053
-0.0004232 0.0004709 -0.00026132 -0.00080261 4.3244e-05 -0.00043797 0.0025984 0.0010558
-0.0096626 0.0068589 0.20633 0.24683
1640000000 0.29726 0.023308 -0.0017365 0.012331 -0.0026813 -0.0025415 0.0028701 0.0011355
-0.00050416 -0.0016661 -0.00035495 0.0006107
-0.0017379 0.012317 0.20522 0.27362 0.0058944 0.0036938 -0.00077439 -0.001871
-0.001184 -0.0003983 -0.00048358 -0.00078197
-0.0026858 -0.002533 0.0059226 0.0036751 0.30307 -0.15706 -0.00065363 0.0017732
-0.00102 -0.0011815 -0.00015449 -0.00031378
0.0028803 0.0011142 -0.00078262 -0.0018662 -0.00063186 0.0017522 0.24056 0.055627
-0.0090108 0.010442 0.0028485 -0.00084728
-0.00053841 -0.0016944 -0.0011907 -0.0003951 -0.0010393 -0.0011465 -0.0089661 0.010483
0.18742 0.14211 -0.0050806 0.0090417
-0.00033282 0.00060562 -0.00047891 -0.0007775 -0.00017182 -0.00037124 0.0028504 -0.00086957
-0.005111 0.0090158 0.23322 0.21649
1700000000 0.28989 -0.022321 0.0017843 0.0096496 -0.0034715 8.5183e-05 0.0031743 -0.001311
-0.0020879 -0.00098021 0.00072815 0.00046606
0.0017677 0.0096558 0.22347 0.24173 0.0040135 0.00076114 -0.0016181 -0.00060953
-0.00086783 0.00018647 -0.00094495 -0.00049658
-0.0034275 9.038e-05 0.0039992 0.00074806 0.25923 -0.19695 0.00073982 0.0017173
-0.0020023 -0.00025677 -0.00040962 -0.00087547
0.0031493 -0.0013505 -0.0016417 -0.00058826 0.00074957 0.0017357 0.23855 0.0078128
-0.0052977 0.011808 0.001765 -0.0023817
-0.0021065 -0.00094771 -0.00089525 0.00018753 -0.0020502 -0.00023889 -0.0052812 0.011831
0.20503 0.12302 -0.00040738 0.0097265
0.00072577 0.00051279 -0.00094985 -0.0004961 -0.00045436 -0.00080506 0.0017927 -0.0023855
-0.00042119 0.0097042 0.2516 0.18225
1760000000 0.2776 -0.07112 0.0042608 0.0064995 -0.0022432 0.00097066 0.0012635 -0.0035318
-0.0015525 0.0005916 0.00056618 -0.00063112
0.0042643 0.0065012 0.24938 0.20153 0.0017376 -0.0010397 -0.0012873 0.00030392
-0.0009397 0.0010662 -0.00059108 0.00042307
-0.0022251 0.0010036 0.0017467 -0.0010775 0.20995 -0.2299 0.0014751 0.00095217
-0.0012298 0.0015389 -0.0013136 -0.00059484
0.0012639 -0.0035524 -0.0012693 0.00028282 0.0014542 0.0010057 0.2316 -0.042081
-0.00065694 0.011076 -1.9525e-06 -0.0027457
-0.0015589 0.00059642 -0.00091901 0.0010765 -0.0012271 0.0015325 -0.00060881 0.011078
0.22018 0.089352 0.0037811 0.0073301
0.00053011 -0.00062749 -0.00060536 0.00041507 -0.0012991 -0.00055349 -2.2672e-05 -0.0027806
0.0038336 0.007317 0.26545 0.14494
1820000000 0.25271 -0.10846 0.0046104 0.0028676 1.2619e-05 0.0023731 -0.0011414 -0.0031504
-0.0013406 0.0010079 -2.4829e-05 -0.00019921
0.0046069 0.0028601 0.25923 0.17109 -0.00013619 -7.9042e-05 -0.0012712 0.001072
0.00016826 0.0013544 -0.00060112 0.00056722
-6.0936e-05 0.002416 -0.00014252 -9.9743e-05 0.16014 -0.24524 0.0014954 4.3075e-05
-0.00022757 0.0025013 -0.0014463 0.0003191
-0.0011721 -0.0031336 -0.0012558 0.0010798 0.0014752 4.7249e-05 0.20428 -0.089009
0.0019528 0.0089847 -0.0016706 -0.0017536
-0.0013265 0.00097933 0.00018068 0.0013479 -0.00020938 0.0025169 0.001992 0.0089623
0.23819 0.061479 0.0047469 0.0037998
1.8378e-05 -0.00012924 -0.0006063 0.00057632 -0.0014888 0.00034518 -0.0017024 -0.0017752
0.004778 0.0038256 0.26924 0.1097
1880000000 0.21727 -0.14876 0.0025064 0.00047632 -0.0003165 0.00202 -0.0030393 -0.0021919
-0.00017343 0.0019222 0.00014392 -0.00069293
0.0025019 0.00049064 0.26321 0.12435 -0.0022044 0.0016134 -5.7631e-05 0.0016612
0.00068644 0.0010636 0.00014595 0.00095842
-0.00029856 0.0020005 -0.002196 0.001634 0.10802 -0.25465 0.001547 -0.0010018
0.0016669 0.0020711 -0.0010356 0.0014234
-0.0030498 -0.0021704 -3.3188e-05 0.0016737 0.0015007 -0.0010219 0.16626 -0.13015
0.0034076 0.0061676 -0.0024344 0.00027431
-0.00018739 0.0019313 0.00069158 0.0010582 0.0016447 0.0020374 0.00341 0.006132
0.24205 0.029924 0.0051929 0.0017819
0.00019512 -0.00066271 0.00016134 0.0009609 -0.0010711 0.0014369 -0.0024585 0.00034168
0.0051865 0.0017768 0.27035 0.075181
1940000000 0.17749 -0.17436 0.00024131 -0.0013291 0.0011641 0.0019126 -0.0035973 0.00063219
0.001504 0.0012157 -0.00089445 -0.00052254
0.00021275 -0.0013405 0.26337 0.092465 -0.0010972 0.0037337 0.0010869 0.0012108
0.0017638 0.00030087 0.00083356 0.00026773
0.0011591 0.0018693 -0.0010483 0.003785 0.062187 -0.24806 0.00027167 -0.0018547
0.0025214 0.00037469 0.00035326 0.0016198
-0.0036188 0.00064538 0.0010848 0.0012119 0.00027091 -0.0018539 0.11544 -0.16282
0.002686 0.0036407 -0.0016209 0.001385
0.0015096 0.0011554 0.0017606 0.00029334 0.002514 0.00036006 0.0026939 0.0036419
0.24534 -0.0087392 0.0040758 -0.0020345
-0.0009375 -0.0005675 0.00081512 0.00024459 0.00029433 0.0016128 -0.0015818 0.0014026
0.0040591 -0.0020274 0.26069 0.040142
2000000000 0.13086 -0.18875 -0.0036665 0.00067472 0.0023901 0.0018632 -0.0023924 0.0033206
0.0012344 5.0864e-05 -0.00073725 0.00047461
-0.0036806 0.00066047 0.24872 0.05703 -0.00097521 0.0056291 0.0014871 0.00034091
0.0010736 -0.0013667 0.00046002 8.4582e-05
