!Keysight Technologies,M9804A,MY58100912,A.14.10.03
!Date: Thursday, April 27, 2023 10:28:33
!Correction: S11(C  6-Port  ) 
!S12(C  6-Port  ) 
!S13(C  6-Port  ) 
!S14(C  6-Port  ) 
!S15(C  6-Port  ) 
!S16(C  6-Port  ) 
!S21(C  6-Port  ) 
!S22(C  6-Port  ) 
!S23(C  6-Port  ) 
!S24(C  6-Port  ) 
!S25(C  6-Port  ) 
!S26(C  6-Port  ) 
!S31(C  6-Port  ) 
!S32(C  6-Port  ) 
!S33(C  6-Port  ) 
!S34(C  6-Port  ) 
!S35(C  6-Port  ) 
!S36(C  6-Port  ) 
!S41(C  6-Port  ) 
!S42(C  6-Port  ) 
!S43(C  6-Port  ) 
!S44(C  6-Port  ) 
!S45(C  6-Port  ) 
!S46(C  6-Port  ) 
!S51(C  6-Port  ) 
!S52(C  6-Port  ) 
!S53(C  6-Port  ) 
!S54(C  6-Port  ) 
!S55(C  6-Port  ) 
!S56(C  6-Port  ) 
!S61(C  6-Port  ) 
!S62(C  6-Port  ) 
!S63(C  6-Port  ) 
!S64(C  6-Port  ) 
!S65(C  6-Port  ) 
!S66(C  6-Port  ) 
!S6P File: Measurement: :
# Hz S  RI   R 50
500000000 -0.33798 -0.044799 -0.010524 -0.0023557 -0.0085502 0.013008 -0.0044095 0.012641
0.012226 0.0045054 -0.0042545 0.0091928
-0.010537 -0.0023262 -0.41897 -0.055544 0.0076341 -0.010767 0.0017019 0.012923
0.0072912 0.0020321 0.0014633 0.014484
-0.0086328 0.013057 0.0076082 -0.010722 -0.26732 0.20725 0.0067125 0.0040571
-0.0026841 0.0082875 0.00014992 0.012335
-0.0045925 0.012714 0.0016043 0.012934 0.0065819 0.0040685 -0.3349 0.034671
-0.02153 -0.0053591 0.017372 0.026865
0.012296 0.0045414 0.0073208 0.0021794 -0.002595 0.008153 -0.021371 -0.0054466
-0.21366 -0.21511 -0.028351 0.0059889
-0.0042932 0.0089606 0.0014437 0.014333 -0.00011488 0.012672 0.016996 0.027065
-0.028297 0.0058816 -0.25948 -0.14252
560000000 -0.318 0.1202 -0.023474 -0.063545 -2.8073e-05 0.012284 0.0053721 0.011446
0.01081 0.0049625 0.0094434 0.0084534
-0.023328 -0.063519 -0.3765 0.10429 -0.041903 -0.036628 0.014008 0.0041388
-0.013504 -0.0052358 0.0031352 0.00014389
-0.0002707 0.012072 -0.042314 -0.036508 -0.18449 0.2569 -9.3154e-05 -0.0039535
0.019918 0.0054799 0.0072491 -0.0057024
0.0054748 0.011406 0.013728 0.0041256 -1.6392e-05 -0.0041536 -0.31169 0.12921
0.0035085 -0.023248 0.0041234 -0.022628
0.010815 0.0048462 -0.013267 -0.0048476 0.019328 0.0056544 0.0038927 -0.023207
-0.28742 -0.036758 0.00956 -0.049194
0.010057 0.0082818 0.0030603 -5.1797e-05 0.0074274 -0.0059377 0.0041564 -0.022293
0.0097314 -0.049042 -0.3285 0.0079723
620000000 -0.27666 0.10216 -0.022995 0.0085301 0.0035395 0.0090078 0.0082994 -0.0047402
0.011725 -0.00033574 0.0011541 -0.0019061
-0.022976 0.0085123 -0.40359 0.056432 -0.018333 0.00032396 -0.0014467 -0.0015761
0.011953 -0.0061743 0.001146 -0.0028804
0.0035851 0.0089999 -0.018331 0.00035733 -0.15419 0.26622 -0.00044851 -0.0054918
-0.0028186 -0.0027016 0.0090334 -0.0033692
0.0083809 -0.0046386 -0.0014063 -0.0016508 -0.00052525 -0.0053555 -0.27076 0.14018
-0.039717 -0.019491 0.012663 0.027281
0.011408 -0.00049101 0.011763 -0.006196 -0.0027194 -0.0029101 -0.039637 -0.019506
-0.20371 -0.075222 -0.044411 0.014547
0.0011544 -0.0019522 0.0011898 -0.0029736 0.009096 -0.003283 0.01272 0.027723
-0.044041 0.014368 -0.2478 -0.030951
680000000 -0.23701 0.19026 -0.026762 -0.014016 0.0051909 0.0051586 0.0020321 -0.0071284
-0.0025536 -0.011443 0.0045837 -0.0076981
-0.026709 -0.014039 -0.38906 0.15589 -0.032368 -0.001522 -0.0011946 -0.00066007
-0.0017089 -0.009391 -0.0012859 -0.0021283
0.005164 0.0050992 -0.032417 -0.0014359 -0.10232 0.28609 -0.00069658 -0.00097044
-0.0015924 0.00038943 -0.002824 -0.0095
0.0018625 -0.007132 -0.0011313 -0.00069502 -0.00069127 -0.00097448 -0.22403 0.19321
-0.024477 -0.006253 -0.0099582 -0.012378
-0.0024059 -0.011283 -0.0017855 -0.0093108 -0.0015914 0.00031945 -0.024355 -0.006235
-0.26301 0.024792 -0.0059395 -0.0064543
0.004515 -0.0075029 -0.0011419 -0.0022174 -0.00271 -0.0096042 -0.0098158 -0.012334
-0.0058487 -0.0066184 -0.26204 0.076016
740000000 -0.19305 0.18476 -0.039519 0.027155 0.012881 -0.005251 -0.00027772 -0.0042059
-0.0040016 -0.0026949 -0.0067569 0.0031258
-0.039528 0.027141 -0.33464 0.17464 -0.035453 0.034796 -0.000257 -0.0062422
-0.011681 0.0067141 -0.0017622 -0.0063947
0.012839 -0.0052892 -0.035365 0.034928 -0.068398 0.28401 -0.0020708 0.0033513
-0.0024874 -0.0052957 -0.0013511 0.00071472
-0.00032771 -0.0042069 -0.00032353 -0.0062568 -0.002137 0.0033614 -0.20736 0.20134
-0.044253 -0.007323 0.024165 0.016178
-0.0039511 -0.0028021 -0.011642 0.0066127 -0.0026187 -0.0053858 -0.044343 -0.0074243
-0.15827 0.053836 -0.044513 -0.0011772
-0.0068721 0.0032969 -0.0017973 -0.0064603 -0.0013099 0.00086157 0.024361 0.016488
-0.044692 -0.0010562 -0.25055 0.081671
800000000 -0.15933 0.2265 -0.022163 0.016742 0.0053515 -0.010413 -0.0045277 -0.0021509
-0.0040245 0.0021489 0.0045632 0.00025684
-0.022135 0.016749 -0.3391 0.24493 -0.0079102 0.033768 -0.0024813 0.0020418
-0.0010565 0.0028194 0.00087162 0.0049162
0.0053386 -0.010436 -0.0078197 0.033815 -0.02808 0.30667 0.00048254 0.0016394
-0.00012043 0.0035971 -0.0018978 0.00064483
-0.0044952 -0.0021541 -0.0025063 0.0020946 0.00048047 0.0016468 -0.17814 0.23041
-0.028237 0.014417 0.014339 -0.0108
-0.0040417 0.002087 -0.0010709 0.0027741 -0.00015354 0.0036123 -0.028202 0.014424
-0.21009 0.078675 -0.016901 0.019269
0.0045601 0.00041332 0.00069887 0.005033 -0.0019292 0.00073906 0.014286 -0.010893
-0.017025 0.019266 -0.24744 0.13179
860000000 -0.12442 0.24655 -0.017394 0.030664 -0.0031218 -0.0097909 -0.0019744 0.00061737
0.0037868 0.0052999 -0.0037084 -0.003309
-0.017406 0.030645 -0.29071 0.28671 0.0077254 0.033933 -5.198e-05 0.002166
0.0035737 0.00040734 0.0034155 0.00086639
-0.0031451 -0.0097963 0.0078519 0.03392 0.019723 0.31432 -0.00063314 6.0617e-05
0.0027324 -0.0013857 0.0016492 0.0044078
-0.0019617 0.0005967 -2.8031e-05 0.00216 -0.00063883 3.2157e-05 -0.1401 0.24071
-0.016881 0.018497 -0.0063256 -0.0089885
0.0037908 0.0053903 0.0035373 0.00040684 0.002706 -0.0014356 -0.016815 0.018448
-0.15802 0.13366 -0.026723 0.01521
-0.0035553 -0.003237 0.0035884 0.00086316 0.0016708 0.0043705 -0.0063022 -0.0088499
-0.026832 0.015143 -0.19651 0.18008
920000000 -0.10002 0.26862 0.0049555 0.037701 -0.009208 -0.004639 -0.0018153 0.0014817
0.00098505 0.0020796 0.0028145 -0.0015791
0.0049304 0.037669 -0.263 0.30793 0.02768 0.022053 0.0014879 0.00118
0.0070648 0.00025176 0.0043119 -0.0026819
-0.0092122 -0.0046113 0.027801 0.021991 0.065425 0.31506 0.0021049 5.5371e-05
0.0012152 -0.00016667 0.00084022 -0.0010812
-0.0018084 0.0014192 0.0014982 0.0011521 0.002104 6.1489e-05 -0.1163 0.25749
-0.010982 0.031273 0.0045543 -0.0067397
0.00094003 0.0019804 0.0070303 0.00030201 0.001229 -0.00014094 -0.01101 0.031333
-0.14994 0.13767 -0.002258 0.027799
0.0028739 -0.0016202 0.0043115 -0.0027651 0.00086343 -0.0011116 0.0044836 -0.0067246
-0.0022653 0.027772 -0.20759 0.19387
980000000 -0.052976 0.28856 0.017136 0.029868 -0.0091164 0.004362 0.0017771 0.0033662
0.0039809 -0.0013619 -0.0030348 -0.0026174
0.017113 0.02987 -0.21 0.34209 0.032703 0.0050239 0.0021444 4.648e-05
0.0017813 -0.0058226 2.4137e-05 -0.0026497
-0.0091239 0.0043669 0.032766 0.0049233 0.11143 0.30868 0.00070479 -0.0012613
0.00050763 -0.0021431 0.0014866 -0.00020208
0.0018042 0.003308 0.0021493 2.5793e-05 0.00070148 -0.0012765 -0.077505 0.2686
0.0081837 0.030989 -0.0092142 -0.0074503
0.0039609 -0.001327 0.0017282 -0.0058058 0.0005223 -0.0021367 0.0082895 0.031056
-0.11963 0.16856 0.0049533 0.019781
-0.0031338 -0.0025811 3.7584e-05 -0.0025679 0.0014882 -0.00017155 -0.0092875 -0.0073423
0.0049464 0.019781 -0.16515 0.24049
1040000000 -0.011382 0.29684 0.032789 0.018248 -0.0014173 0.0068199 0.0023998 0.00080153
0.00037317 -0.0032958 3.7952e-07 -0.0013195
0.032731 0.018245 -0.17457 0.35506 0.029268 -0.014488 0.0016052 -0.0017666
-0.0019877 -0.0026404 -0.0010567 -0.0028411
-0.0013852 0.0068392 0.02927 -0.0146 0.15732 0.29509 -0.00047584 -0.0016938
-0.0015392 -0.0010981 -0.00046562 -0.0010052
0.002392 0.00080075 0.0016272 -0.001752 -0.00047542 -0.0017116 -0.050382 0.27832
0.020066 0.019028 -0.0021035 0.00062668
0.00038289 -0.0032511 -0.0020078 -0.0026338 -0.0015127 -0.0011009 0.020081 0.018964
-0.087676 0.17519 0.012813 0.019628
8.9808e-05 -0.0013223 -0.0010146 -0.0028168 -0.00047145 -0.0010328 -0.0020436 0.00072201
0.012826 0.019595 -0.14516 0.26197
1100000000 0.03377 0.30515 0.035561 -0.0039513 0.0026704 0.0039582 0.0022539 -0.0011229
-0.0018484 -0.003177 -0.0040684 -0.00026039
0.035547 -0.003927 -0.13139 0.37236 0.015238 -0.027519 4.9645e-05 -0.0018549
-0.0034429 -0.001152 -0.003655 -0.00066012
0.0026871 0.0039473 0.015161 -0.027611 0.20328 0.27517 -0.0019951 -8.1483e-06
-0.0018737 0.00026146 -0.0011014 -0.00034495
0.002235 -0.0011128 6.0193e-05 -0.0018622 -0.0020046 4.4699e-06 -0.010137 0.28349
0.025653 0.005681 -0.0026647 -0.00060143
-0.0018675 -0.0031674 -0.0034474 -0.0011251 -0.0018751 0.00024602 0.025658 0.0056628
-0.070926 0.18993 0.01936 0.0093194
-0.0040765 -0.00028631 -0.0036024 -0.00071255 -0.001067 -0.00035863 -0.002633 -0.0005489
0.019373 0.0092775 -0.099394 0.29425
1160000000 0.085106 0.30046 0.023792 -0.020442 0.0026445 -0.00037032 -0.00029006 -0.0020996
-0.0041001 -0.00092151 -0.0010633 0.0039744
0.023787 -0.020406 -0.088012 0.37671 -0.00342 -0.029059 -0.0016591 -0.0018298
-0.0029764 0.0022383 -0.0015139 0.0017966
0.0026407 -0.00038244 -0.0035433 -0.029066 0.24646 0.24477 -0.00097805 0.0018506
-0.00078425 0.0020857 -0.0009515 0.00022088
-0.00027791 -0.0021053 -0.001642 -0.0018222 -0.00097155 0.0018645 0.029119 0.28051
0.022467 -0.010804 -0.0038623 0.0050755
-0.0041377 -0.00086756 -0.0029709 0.0022769 -0.0007816 0.0020796 0.022403 -0.010841
-0.036941 0.19945 0.018132 0.001313
-0.0010638 0.0039616 -0.0015055 0.0017886 -0.0010184 0.00027193 -0.0038083 0.005025
0.018101 0.0013389 -0.052238 0.29729
1220000000 0.12947 0.28969 0.010635 -0.029737 -0.0015578 -0.00071971 0.00012353 -0.00074715
-0.0027424 0.0022476 0.0010217 0.0020769
0.010649 -0.029698 -0.043828 0.38912 -0.016631 -0.021288 -0.0026742 0.00036842
-0.00028339 0.0031212 -0.0010075 0.0019159
-0.0015747 -0.00072205 -0.016748 -0.021234 0.28562 0.20606 0.00064415 0.0019589
0.00060119 0.0014321 0.0003486 0.00055721
0.00015681 -0.00074818 -0.0026628 0.00038197 0.00064453 0.001959 0.068892 0.27214
0.011762 -0.017805 0.0016223 0.001205
-0.0027172 0.0022454 -0.00025402 0.0030958 0.0005899 0.0014244 0.011698 -0.017817
-0.015652 0.20957 0.014648 -0.01258
0.0010353 0.0021277 -0.00098518 0.0019281 0.00037028 0.00054266 0.0016226 0.0012419
0.014674 -0.012543 -0.022233 0.31591
1280000000 0.17917 0.26819 -0.0076145 -0.028317 -0.0018299 0.0025206 -0.0007659 -0.002086
-0.0009281 0.0030849 0.0025334 0.0014284
-0.0075962 -0.028282 0.0018477 0.38072 -0.023619 -0.0087694 -0.0011729 0.0013722
0.0017288 0.0021383 0.00060899 0.0022344
-0.0018301 0.0025228 -0.023692 -0.0086671 0.31636 0.16249 0.0017023 0.00015239
0.0013414 0.00041874 0.00042666 0.00027617
-0.00077937 -0.0020819 -0.0011719 0.0013777 0.0016954 0.00014711 0.10565 0.25566
0.0019162 -0.020444 -0.0007181 0.00056634
-0.00089369 0.0030656 0.0017599 0.0021014 0.001353 0.00043256 0.0018745 -0.020446
0.020239 0.21462 0.0033941 -0.014849
0.002496 0.0014288 0.00058418 0.0022581 0.00042827 0.00022684 -0.00072167 0.00052812
0.0033708 -0.014797 0.02606 0.31973
1340000000 0.21634 0.2348 -0.017318 -0.018952 0.00095949 0.0045963 -0.0016589 -0.0009321
0.0013666 0.002731 0.0018612 -0.0012849
-0.017292 -0.018961 0.041557 0.37302 -0.021682 0.0039663 -0.00028816 0.0021201
0.0021049 0.00098186 0.001328 0.0008201
0.00097377 0.0045814 -0.021695 0.0040761 0.33886 0.11455 0.001458 -0.00092767
0.00088008 -0.00055046 4.3001e-05 0.0003055
-0.001654 -0.00093205 -0.0002689 0.0021168 0.0014585 -0.00093556 0.13783 0.23499
-0.0082451 -0.018188 0.00067149 0.00080887
0.0013561 0.0027558 0.0021305 0.00096563 0.00090105 -0.000548 -0.0082945 -0.018213
0.048897 0.21102 -0.0029587 -0.013832
0.0018769 -0.0013098 0.0013153 0.00082527 6.7299e-05 0.00030391 0.00068744 0.00085602
-0.0029124 -0.013788 0.064538 0.31655
1400000000 0.24951 0.19708 -0.023176 -0.0075848 0.0052339 0.0030849 -0.002176 0.00041763
0.0024198 0.0010177 0.00050441 -0.0015324
-0.023147 -0.0075975 0.078981 0.36035 -0.015051 0.012308 0.0013987 0.0014808
0.0014546 -0.00076158 0.0013538 0.00015874
0.0052459 0.0030593 -0.01501 0.012401 0.35202 0.060866 0.00025067 -0.0019065
8.6279e-05 -0.00046033 0.00034482 0.00016872
-0.0021713 0.00041412 0.0014191 0.0014582 0.00025054 -0.0018905 0.16657 0.20623
-0.015 -0.011538 -0.00090484 -1.1207e-06
0.0024187 0.0010144 0.001447 -0.00078019 8.8108e-05 -0.00044812 -0.015049 -0.011518
0.081443 0.20847 -0.0094526 -0.0090611
0.00047221 -0.0015391 0.0013364 0.00015853 0.00036731 0.00018442 -0.00088999 1.2204e-05
-0.0094321 -0.0090571 0.11005 0.30732
1460000000 0.2727 0.15314 -0.020273 0.0045315 0.0056611 -0.0018402 -0.0017255 0.0017844
0.002104 -0.00022912 -0.00027633 -0.0011337
-0.020254 0.0045188 0.11369 0.33874 -0.0063521 0.015364 0.0018934 0.00028166
0.0010367 -0.0014103 0.0012818 -0.00071706
0.0056726 -0.0018728 -0.0062773 0.015406 0.35822 0.0063835 -0.0013234 -0.0015319
0.00015936 -0.00031583 0.00061487 -0.00031181
-0.001722 0.0017785 0.0019013 0.00026608 -0.0013553 -0.0015415 0.19197 0.17732
-0.017091 -0.0046335 -0.00068723 0.0025398
0.0021132 -0.00022275 0.0010332 -0.0014197 0.00017808 -0.00028132 -0.017157 -0.0046183
0.1101 0.19521 -0.011328 -0.0030851
-0.0002727 -0.0011491 0.0012736 -0.00069179 0.00056991 -0.0003685 -0.00071563 0.0025006
-0.011336 -0.0030973 0.14388 0.28708
1520000000 0.28508 0.1115 -0.014786 0.010114 0.0033844 -0.0042151 -4.2119e-05 0.0026245
0.0023402 -0.0017327 -0.0012138 -0.00035284
-0.014785 0.010084 0.1476 0.324 0.0013982 0.013255 0.0018236 -0.00083965
4.0602e-05 -0.0012567 0.00035651 -0.0010614
0.0033662 -0.0042375 0.0014649 0.013277 0.35147 -0.049986 -0.0014152 -0.00045905
0.00068803 -0.00083503 9.8867e-05 -0.00017396
-3.9922e-05 0.002629 0.0018299 -0.00084433 -0.0014246 -0.00044519 0.2143 0.14053
-0.017033 0.0021507 0.0017814 0.0023469
0.0023189 -0.0017634 1.8785e-05 -0.001248 0.00069756 -0.00082981 -0.017061 0.0022043
0.13785 0.18301 -0.011689 0.00111
-0.0012259 -0.0003305 0.00034455 -0.0010725 0.00010668 -0.00020121 0.0017959 0.0023321
-0.011674 0.0011079 0.17815 0.26843
1580000000 0.29475 0.065064 -0.0081691 0.013279 -0.00089674 -0.0049534 0.0014902 0.0020838
9.3496e-05 -0.002127 -0.00034311 0.00043716
-0.0081703 0.013263 0.17519 0.29916 0.0051688 0.0084813 0.00053512 -0.0018036
-0.00060695 -0.0011556 -0.00024619 -0.00085718
-0.00091481 -0.0049624 0.0052214 0.0084561 0.33112 -0.10744 -0.0018497 0.0008697
-0.00028062 -0.0012047 0.00017274 -0.00054736
0.0015106 0.0020805 0.00052518 -0.0018086 -0.0018492 0.00086483 0.22755 0.10284
-0.013703 0.0080886 0.0025725 0.00084479
6.4392e-05 -0.0021182 -0.00063273 -0.0011452 -0.00029355 -0.0012146 -0.013701 0.0081309
0.16238 0.16676 -0.009455 0.0070361
-0.00029093 0.00044933 -0.00021705 -0.00086704 0.00018491 -0.00053037 0.0025318 0.00084924
-0.0094589 0.0070522 0.2115 0.24225
1640000000 0.29702 0.023652 -0.0014929 0.0123 -0.0027703 -0.0025599 0.0028416 0.0011158
-0.00048178 -0.0017584 -0.00039263 0.00071167
-0.0015011 0.012295 0.20509 0.27399 0.006016 0.0036382 -0.00076414 -0.0019083
-0.0011509 -0.00042017 -0.00052798 -0.00073223
-0.0027858 -0.0025444 0.0060405 0.0036121 0.30309 -0.15691 -0.00062434 0.0017687
-0.0011304 -0.001226 -0.00017128 -0.00034715
0.0028716 0.0010906 -0.00078743 -0.0019045 -0.00063828 0.00175 0.24023 0.055938
-0.008885 0.010374 0.0028953 -0.00088907
-0.00051741 -0.001781 -0.0011438 -0.00041184 -0.0011353 -0.0012163 -0.0088777 0.010404
0.18523 0.14399 -0.0046987 0.009291
-0.00038878 0.00072704 -0.00053147 -0.00074855 -0.00016963 -0.00037229 0.0029153 -0.00091321
-0.00472 0.0092867 0.23796 0.2118
1700000000 0.28954 -0.02192 0.0019524 0.0094688 -0.0035395 9.9984e-06 0.0032123 -0.0013569
-0.0020555 -0.00097493 0.0007209 0.00044992
0.0019426 0.0094577 0.22334 0.24209 0.0040869 0.00073148 -0.001615 -0.00061139
-0.00085984 0.00015134 -0.00096394 -0.00050329
-0.0035418 5.9283e-05 0.0040871 0.00070445 0.25923 -0.19673 0.00080589 0.001723
-0.0020986 -0.00033574 -0.00042505 -0.00088882
0.0032173 -0.0013868 -0.0016145 -0.00059793 0.000792 0.0017019 0.23816 0.0081503
-0.0052088 0.011767 0.001733 -0.002438
-0.0020575 -0.00096292 -0.00085134 0.00015532 -0.0021198 -0.00034767 -0.0051771 0.011786
0.20296 0.12521 -0.00012638 0.0097554
0.00074058 0.00042856 -0.00096924 -0.00049369 -0.00045926 -0.00084868 0.001744 -0.0024464
-0.00012045 0.0097812 0.25548 0.17755
1760000000 0.2773 -0.070511 0.0043469 0.0062452 -0.0022822 0.00099733 0.0012492 -0.003578
-0.0015964 0.00059144 0.00043555 -0.00059886
0.0043398 0.0062488 0.24932 0.20194 0.0017946 -0.0011611 -0.0013217 0.00026214
-0.001046 0.0010524 -0.00063656 0.00046648
-0.0022602 0.0009913 0.0017839 -0.001184 0.21031 -0.22967 0.0014118 0.00088204
-0.0013725 0.0015403 -0.0013371 -0.00051672
0.001219 -0.0035989 -0.0013247 0.00027446 0.0014294 0.00089566 0.23127 -0.041553
-0.00054796 0.010936 -0.00012389 -0.0028407
-0.0015751 0.0006057 -0.0010265 0.0010688 -0.0013977 0.0015436 -0.0005501 0.010933
0.21839 0.091479 0.0040939 0.0072833
0.00042781 -0.00064008 -0.00064817 0.00047482 -0.0013193 -0.00053026 -0.00010915 -0.0028081
0.0040958 0.007273 0.26892 0.1404
1820000000 0.25242 -0.10779 0.0044485 0.0026071 -0.0002337 0.0024869 -0.0011504 -0.0031869
-0.0013294 0.00091757 2.4957e-05 -9.8348e-05
0.0044402 0.0026118 0.25914 0.17142 -0.00041385 -0.00017039 -0.0013065 0.0010471
0.00015639 0.0012847 -0.00059487 0.000596
-0.00021389 0.0024864 -0.00041685 -0.00016403 0.15985 -0.24565 0.0014858 2.6567e-05
-0.00017844 0.0024704 -0.0014254 0.00038229
-0.0012062 -0.0031616 -0.0012979 0.0010569 0.0014808 3.5452e-05 0.20396 -0.088394
0.0019123 0.0089469 -0.0017235 -0.0017737
-0.0013203 0.00094302 0.00018286 0.0012835 -0.00013257 0.0024705 0.001918 0.0089343
0.23656 0.063923 0.0050034 0.0036438
-9.1493e-06 -9.0005e-05 -0.00059433 0.00060553 -0.0014009 0.00038589 -0.0017278 -0.0017202
0.0049954 0.0036296 0.27212 0.10467
1880000000 0.21727 -0.14799 0.0023242 0.00029127 -0.00035903 0.001982 -0.0030692 -0.002217
-0.00024094 0.0019879 6.5233e-05 -0.00064762
0.0023134 0.00029784 0.26327 0.12468 -0.0022944 0.0016272 -9.4722e-05 0.0016491
0.00064221 0.0011146 6.9878e-05 0.00093884
-0.00036632 0.0020034 -0.0022817 0.0016563 0.10786 -0.25452 0.0014547 -0.00090401
0.001641 0.0021021 -0.0011358 0.0013254
-0.0030961 -0.0022016 -8.1375e-05 0.0016351 0.0014743 -0.00088613 0.16613 -0.12953
0.0033233 0.0060554 -0.0024732 0.00031368
-0.00022539 0.0020084 0.00064926 0.0011017 0.0016514 0.0021023 0.0033002 0.0060508
0.24039 0.032382 0.0053982 0.0015625
3.4784e-05 -0.00064185 7.4597e-05 0.00093936 -0.0011146 0.0013044 -0.0024494 0.00036296
0.0053879 0.0015905 0.27306 0.070378
1940000000 0.17783 -0.17361 -6.5239e-05 -0.0013008 0.0011196 0.0021478 -0.0036734 0.00063029
0.0015755 0.0012027 -0.00062826 -0.00052978
-6.1529e-05 -0.0012913 0.26352 0.09276 -0.0011798 0.003817 0.0010787 0.0011968
0.0018339 0.00038384 0.00097728 0.00032487
0.001155 0.0021512 -0.0011539 0.0038275 0.061896 -0.24786 0.00030718 -0.0019446
0.0025662 0.00032748 0.00070008 0.0015472
-0.0036775 0.00066813 0.0010589 0.0012001 0.00029979 -0.0019205 0.11525 -0.16239
0.0025776 0.0035697 -0.0017 0.0016184
0.0015934 0.0011727 0.0018268 0.00037199 0.0025648 0.00037044 0.0025787 0.0035802
0.2443 -0.0057936 0.0040835 -0.0020509
-0.00065298 -0.00053444 0.00098634 0.00028765 0.00067352 0.001552 -0.0016961 0.0016203
0.0040628 -0.0020857 0.2625 0.034774
2000000000 0.1314 -0.18846 -0.0037937 0.00065407 0.0025216 0.001581 -0.0023699 0.003577
0.0012795 0.00022806 -0.00073482 0.00078462
-0.0037875 0.00064205 0.24888 0.05732 -0.00094395 0.0056007 0.0014657 0.00047124
0.0011343 -0.0012909 0.00037435 0.00020141
