!Keysight Technologies,M9804A,MY58100912,A.14.10.03
!Date: Thursday, April 27, 2023 10:28:33
!Correction: S11(C  6-Port  ) 
!S12(C  6-Port  ) 
!S13(C  6-Port  ) 
!S14(C  6-Port  ) 
!S15(C  6-Port  ) 
!S16(C  6-Port  ) 
!S21(C  6-Port  ) 
!S22(C  6-Port  ) 
!S23(C  6-Port  ) 
!S24(C  6-Port  ) 
!S25(C  6-Port  ) 
!S26(C  6-Port  ) 
!S31(C  6-Port  ) 
!S32(C  6-Port  ) 
!S33(C  6-Port  ) 
!S34(C  6-Port  ) 
!S35(C  6-Port  ) 
!S36(C  6-Port  ) 
!S41(C  6-Port  ) 
!S42(C  6-Port  ) 
!S43(C  6-Port  ) 
!S44(C  6-Port  ) 
!S45(C  6-Port  ) 
!S46(C  6-Port  ) 
!S51(C  6-Port  ) 
!S52(C  6-Port  ) 
!S53(C  6-Port  ) 
!S54(C  6-Port  ) 
!S55(C  6-Port  ) 
!S56(C  6-Port  ) 
!S61(C  6-Port  ) 
!S62(C  6-Port  ) 
!S63(C  6-Port  ) 
!S64(C  6-Port  ) 
!S65(C  6-Port  ) 
!S66(C  6-Port  ) 
!S6P File: Measurement: :
# Hz S  RI   R 50
500000000 -0.33788 -0.044585 -0.010452 -0.002287 -0.0085253 0.012931 -0.0044308 0.012701
0.012053 0.0047345 -0.0040634 0.0094791
-0.010535 -0.0020722 -0.41877 -0.055521 0.0078146 -0.010386 0.0017362 0.012787
0.0074759 0.0020777 0.0015628 0.014667
-0.0085612 0.013323 0.0077336 -0.010692 -0.26691 0.20748 0.0064547 0.0037748
-0.0026775 0.0081371 -6.7379e-05 0.012355
-0.0045467 0.012925 0.0018247 0.012936 0.0065415 0.0038813 -0.33452 0.034597
-0.021424 -0.0052134 0.017307 0.027218
0.011888 0.0046124 0.007231 0.002186 -0.0026752 0.0081134 -0.021275 -0.0051282
-0.21315 -0.21602 -0.028207 0.0059731
-0.0044574 0.0094551 0.0017397 0.014492 -8.2782e-05 0.012366 0.017323 0.026971
-0.027886 0.0056142 -0.25958 -0.14244
560000000 -0.31829 0.12002 -0.023662 -0.063642 0.0003662 0.01173 0.0050452 0.011874
0.010839 0.0049934 0.0098055 0.0088636
-0.023632 -0.063808 -0.37653 0.10491 -0.041968 -0.036395 0.014042 0.0040339
-0.013142 -0.0053996 0.0030907 -9.609e-05
0.00043812 0.011884 -0.042426 -0.036636 -0.18463 0.25651 -0.00010243 -0.0035405
0.019955 0.0054509 0.0071284 -0.0056686
0.0044473 0.01157 0.014157 0.004159 -0.00015672 -0.0040544 -0.31189 0.12842
0.0036165 -0.023298 0.0042354 -0.022694
0.010652 0.0047668 -0.013914 -0.0055609 0.020386 0.0054931 0.0034418 -0.02264
-0.28715 -0.036765 0.010151 -0.049904
0.010147 0.0086229 0.0035308 -0.0002395 0.0068635 -0.0054948 0.0043628 -0.022479
0.0096364 -0.049011 -0.32838 0.008681
620000000 -0.27662 0.10248 -0.02303 0.0084897 0.0037692 0.0086924 0.008215 -0.0047245
0.011559 -0.00039917 0.0010399 -0.0020929
-0.02309 0.0083427 -0.40371 0.056426 -0.018495 0.00018862 -0.001393 -0.0018398
0.012095 -0.0061302 0.0010541 -0.0028761
0.0031289 0.0089098 -0.018443 0.00029494 -0.15479 0.26636 -0.00059403 -0.0056423
-0.0030126 -0.0029579 0.0088713 -0.0034309
0.0084049 -0.0045543 -0.0013425 -0.001737 -0.00065854 -0.0059793 -0.27072 0.13984
-0.040298 -0.019532 0.01271 0.027711
0.011813 -0.00051494 0.011676 -0.0059602 -0.0030015 -0.0023221 -0.039987 -0.019461
-0.20293 -0.074708 -0.044181 0.014362
0.0012991 -0.0021909 0.00091312 -0.0027741 0.0091153 -0.0032526 0.012915 0.026928
-0.044332 0.01434 -0.24845 -0.030585
680000000 -0.2367 0.19023 -0.026813 -0.013979 0.0051796 0.0051642 0.0022966 -0.0073052
-0.0023284 -0.011549 0.0046287 -0.0074839
-0.026802 -0.014038 -0.38915 0.15577 -0.032365 -0.001567 -0.0010668 -0.00051877
-0.0017611 -0.0094834 -0.0014309 -0.0021072
0.0050963 0.0051993 -0.03245 -0.0015435 -0.1023 0.28609 -0.00077096 -0.00085002
-0.0017528 0.00022923 -0.0027924 -0.0093272
0.002079 -0.0071729 -0.0012331 -0.00077063 -0.00078897 -0.00098726 -0.22421 0.19304
-0.024381 -0.0062192 -0.0094647 -0.012028
-0.002433 -0.011306 -0.0017351 -0.0094291 -0.0016348 0.00029447 -0.02409 -0.0063952
-0.26303 0.02427 -0.005794 -0.0065255
0.0047249 -0.0074247 -0.0011184 -0.0021861 -0.0025686 -0.0094488 -0.010304 -0.012611
-0.0053064 -0.0065755 -0.26235 0.076236
740000000 -0.19284 0.1848 -0.039399 0.027079 0.013054 -0.0051932 -0.00033785 -0.0043318
-0.0039776 -0.0027848 -0.0069364 0.0031522
-0.039474 0.027064 -0.33459 0.17453 -0.035409 0.034778 -0.00039607 -0.0061766
-0.01143 0.0065403 -0.0016303 -0.0061886
0.012778 -0.005418 -0.035293 0.034985 -0.068506 0.28397 -0.0023245 0.0033049
-0.0025834 -0.0052386 -0.001707 0.00078534
-0.00035226 -0.0042307 -0.00039554 -0.0063928 -0.0022263 0.0032314 -0.20774 0.20141
-0.044026 -0.0074525 0.024065 0.016113
-0.004076 -0.0030315 -0.011604 0.0068613 -0.0024953 -0.0056582 -0.044154 -0.0072952
-0.15891 0.05449 -0.044636 -0.00048774
-0.006613 0.0034528 -0.0017403 -0.0064543 -0.0015363 0.00083042 0.024073 0.016315
-0.043726 -0.0011155 -0.25077 0.081498
800000000 -0.15937 0.22652 -0.022067 0.016631 0.0054156 -0.010424 -0.0045522 -0.0021815
-0.0039248 0.0020936 0.0046414 0.00024131
-0.022166 0.016616 -0.33898 0.24496 -0.0078651 0.033661 -0.0025417 0.0020463
-0.0011009 0.0028332 0.00093616 0.0048788
0.0053446 -0.01044 -0.0078143 0.033784 -0.028016 0.30658 0.00049719 0.001607
-7.2142e-05 0.0036377 -0.0018009 0.00069249
-0.0045177 -0.0022136 -0.0024867 0.0020461 0.00054485 0.0016615 -0.17803 0.23044
-0.028219 0.014342 0.014247 -0.010631
-0.004142 0.0020781 -0.00099609 0.0027471 -1.447e-05 0.0035224 -0.028266 0.014497
-0.21018 0.078419 -0.016772 0.019074
0.0045007 0.00026927 0.00085719 0.0050054 -0.0019799 0.00069147 0.014324 -0.010691
-0.017 0.019612 -0.2478 0.13187
860000000 -0.12429 0.24643 -0.0173 0.0306 -0.0031292 -0.0097843 -0.0021023 0.000651
0.0038672 0.0052758 -0.0037073 -0.0031414
-0.017301 0.030588 -0.29065 0.28661 0.0077054 0.033856 -2.6569e-05 0.002117
0.0036525 0.00056141 0.0033707 0.00086101
-0.0030937 -0.0097582 0.0078716 0.033891 0.019721 0.31432 -0.00064959 4.5545e-05
0.0027433 -0.0013932 0.0015807 0.0043928
-0.0020146 0.00050283 -2.8189e-05 0.0020953 -0.00063517 2.9156e-05 -0.14001 0.24078
-0.016905 0.018443 -0.0065454 -0.0089344
0.0039056 0.0051678 0.0038644 0.00034137 0.0027963 -0.001414 -0.016919 0.01843
-0.15794 0.13361 -0.026877 0.015265
-0.0037146 -0.0032366 0.003354 0.00092003 0.0015394 0.0043183 -0.0064308 -0.0088957
-0.026706 0.015077 -0.19677 0.1799
920000000 -0.09995 0.26852 0.0049176 0.037692 -0.0092366 -0.0046408 -0.0018119 0.001478
0.00097294 0.0020582 0.0027927 -0.001539
0.0048197 0.037737 -0.26301 0.30797 0.027674 0.022114 0.0014568 0.0011255
0.0071183 0.00036777 0.004149 -0.0025403
-0.0092988 -0.004635 0.027798 0.022028 0.065404 0.3151 0.0021185 4.2168e-05
0.0012936 -0.00015897 0.00077869 -0.0010563
-0.0018924 0.0014972 0.0014847 0.0011743 0.0020492 4.6031e-05 -0.11638 0.25748
-0.011015 0.031229 0.0044213 -0.0066679
0.00090775 0.0021938 0.0071356 0.00036803 0.0012669 -0.00012883 -0.011038 0.031463
-0.14968 0.13753 -0.0023425 0.027915
0.0030228 -0.0015812 0.0043039 -0.0027107 0.00092341 -0.0011739 0.0045706 -0.0067799
-0.0020023 0.027774 -0.20788 0.19389
980000000 -0.052958 0.28837 0.017162 0.029816 -0.0090959 0.00435 0.0018065 0.0032815
0.0039059 -0.0012759 -0.0030945 -0.0025936
0.01708 0.029771 -0.21001 0.34212 0.03275 0.004985 0.0021846 2.1583e-05
0.0017707 -0.0058148 -1.229e-05 -0.0026215
-0.0091161 0.0043144 0.032767 0.0049337 0.11148 0.30866 0.00072361 -0.0013051
0.00051261 -0.0020905 0.0014785 -0.00019148
0.0018061 0.0032629 0.0021491 1.6915e-05 0.00072053 -0.0012835 -0.077483 0.26866
0.0081636 0.030829 -0.0092256 -0.0073998
0.003895 -0.0012831 0.0017556 -0.0058515 0.00055201 -0.0021316 0.0082819 0.031065
-0.11958 0.16831 0.0050346 0.019719
-0.0030487 -0.0024791 -3.513e-05 -0.0026045 0.0014475 -0.00015606 -0.0092107 -0.0074686
0.0050188 0.019616 -0.16527 0.24052
1040000000 -0.011446 0.29678 0.032735 0.018191 -0.0014439 0.0068452 0.0023738 0.0007802
0.00032403 -0.0032477 3.3378e-05 -0.001342
0.032631 0.018206 -0.17462 0.35507 0.029265 -0.0145 0.001582 -0.0017208
-0.0020544 -0.0027377 -0.0011469 -0.0028137
-0.0014295 0.0067897 0.029246 -0.014644 0.15731 0.2951 -0.00046614 -0.0017302
-0.0015642 -0.0011271 -0.00050202 -0.00099862
0.0024072 0.00078884 0.0015953 -0.0017776 -0.00048449 -0.0017115 -0.050451 0.27834
0.020068 0.019076 -0.002055 0.00066426
0.00040984 -0.0032242 -0.0019982 -0.0026886 -0.0015847 -0.0011471 0.020057 0.019019
-0.087688 0.1751 0.0129 0.019575
-3.7834e-05 -0.0013037 -0.0010959 -0.0028053 -0.00048176 -0.0010161 -0.002028 0.00060521
0.012938 0.019582 -0.14525 0.2619
1100000000 0.033718 0.30508 0.035634 -0.0039881 0.0027055 0.0039709 0.0022117 -0.0011203
-0.0018926 -0.0031969 -0.0040745 -0.00022803
0.035579 -0.0039397 -0.1314 0.37236 0.015263 -0.027534 4.7034e-05 -0.0018515
-0.0035111 -0.0012002 -0.0036835 -0.00069632
0.0027032 0.0039408 0.015172 -0.027587 0.20326 0.27518 -0.002014 3.7965e-05
-0.0018919 0.0002878 -0.0010872 -0.00037292
0.0022406 -0.0011017 9.5091e-05 -0.0018098 -0.0020077 4.9898e-05 -0.010168 0.28353
0.025702 0.0057628 -0.0027084 -0.00060341
-0.0018263 -0.003174 -0.0034692 -0.0011365 -0.0018958 0.00032158 0.025665 0.005683
-0.070948 0.18994 0.019389 0.009252
-0.004026 -0.00023161 -0.0036158 -0.00066402 -0.001156 -0.00032335 -0.0027212 -0.00052626
0.019327 0.0093154 -0.09942 0.2941
1160000000 0.085049 0.30046 0.02382 -0.020464 0.0026318 -0.00034109 -0.00025258 -0.0020876
-0.0040785 -0.00085641 -0.0010945 0.0040367
0.023791 -0.020447 -0.088075 0.37676 -0.0033751 -0.029063 -0.0016247 -0.0018054
-0.0029715 0.0022134 -0.0014992 0.0018068
0.0026076 -0.00037538 -0.00354 -0.029059 0.24643 0.24471 -0.00096494 0.0018477
-0.00078085 0.0020918 -0.00097733 0.00024007
-0.00027755 -0.0020915 -0.0016187 -0.0018218 -0.00097384 0.001837 0.02916 0.28054
0.022469 -0.010756 -0.0038963 0.0051296
-0.0040819 -0.00087236 -0.0029741 0.0022889 -0.00076074 0.0021339 0.022487 -0.010833
-0.037075 0.19944 0.018219 0.0013036
-0.0010496 0.0040491 -0.0015731 0.0018264 -0.0008924 0.00023833 -0.0038479 0.0051399
0.018029 0.0013158 -0.052301 0.29703
1220000000 0.12944 0.28978 0.010622 -0.029765 -0.0015526 -0.00068283 0.00016181 -0.00070694
-0.0026882 0.0022715 0.001056 0.0021006
0.010597 -0.029747 -0.043882 0.38921 -0.016614 -0.021262 -0.002685 0.00037852
-0.00027368 0.0030993 -0.0010315 0.0019113
-0.0015569 -0.00070552 -0.01673 -0.021213 0.28559 0.20606 0.00064581 0.0019906
0.00059795 0.0014319 0.00035996 0.00054673
0.00016914 -0.00074814 -0.0026829 0.00037426 0.000632 0.0019697 0.068879 0.27216
0.011771 -0.01777 0.0016345 0.0013431
-0.0026315 0.0022891 -0.00024772 0.0030954 0.00056113 0.0014297 0.011786 -0.0178
-0.015746 0.20972 0.014694 -0.012534
0.0010558 0.0021363 -0.00098915 0.0019853 0.00030486 0.0005933 0.0015776 0.0012712
0.014593 -0.012537 -0.022638 0.31589
1280000000 0.17917 0.26823 -0.0076756 -0.028358 -0.0018356 0.0025011 -0.00074099 -0.0020998
-0.00092275 0.0030562 0.0025082 0.0013878
-0.0076504 -0.028354 0.0018429 0.38076 -0.023651 -0.0087976 -0.001175 0.0013702
0.0017462 0.0021185 0.00063685 0.0022284
-0.0018146 0.0025036 -0.023677 -0.0086648 0.31642 0.1625 0.0017169 0.0001728
0.0013706 0.00038456 0.00042186 0.00028325
-0.00074822 -0.0020916 -0.0011514 0.0013898 0.001736 0.00015908 0.10566 0.25563
0.0019351 -0.020447 -0.00066575 0.00060702
-0.00090152 0.0030901 0.0017803 0.002131 0.0013472 0.00037024 0.0019098 -0.020493
0.020189 0.21471 0.0033576 -0.014839
0.0025197 0.001421 0.00061752 0.002242 0.0004308 0.00023094 -0.00072003 0.00064839
0.0033304 -0.014869 0.025901 0.31987
1340000000 0.21638 0.23489 -0.017378 -0.018971 0.00095415 0.0045917 -0.0016632 -0.00096575
0.0013483 0.0027449 0.0018587 -0.001276
-0.017351 -0.018943 0.041608 0.37304 -0.021687 0.0039356 -0.00026087 0.0021371
0.0020931 0.00098747 0.0013404 0.00085078
0.0010082 0.0045953 -0.021709 0.0040635 0.33884 0.11448 0.0014757 -0.00092993
0.00090269 -0.0004986 2.4665e-05 0.00030832
-0.0016489 -0.00095113 -0.00027828 0.0021287 0.0014306 -0.00093189 0.13779 0.23496
-0.0082363 -0.018234 0.00069828 0.0008153
0.0013738 0.0027268 0.0021076 0.0009727 0.0008821 -0.00050317 -0.0082857 -0.018242
0.048927 0.2111 -0.003037 -0.01376
0.0018733 -0.0013154 0.0013479 0.0008687 8.1825e-05 0.00029376 0.00069882 0.00080431
-0.0030373 -0.013828 0.064468 0.31665
1400000000 0.24955 0.19707 -0.023262 -0.0075609 0.0052488 0.0030627 -0.0021847 0.00043422
0.0024086 0.0010329 0.00051951 -0.0015536
-0.023234 -0.0075516 0.079002 0.36036 -0.015044 0.01228 0.0014089 0.0014767
0.0014369 -0.00075149 0.0013301 0.00016514
0.0052643 0.0030617 -0.014984 0.012366 0.35204 0.060887 0.00025937 -0.0019082
7.8697e-05 -0.0004646 0.00033532 0.00020769
-0.0022016 0.00044636 0.0014117 0.0014769 0.00026509 -0.0019092 0.16652 0.20619
-0.015045 -0.011574 -0.00089945 -5.7345e-05
0.0024382 0.00099811 0.0014619 -0.00076356 7.0258e-05 -0.00046332 -0.015047 -0.011555
0.081502 0.20853 -0.009348 -0.0090285
0.00051995 -0.0015261 0.0013419 0.00015543 0.00031725 0.00022332 -0.00089027 -1.9772e-05
-0.0095423 -0.0090753 0.10999 0.30711
1460000000 0.27276 0.1531 -0.020294 0.0046051 0.005682 -0.0018479 -0.001729 0.0017887
0.0021371 -0.00020436 -0.00028709 -0.001184
-0.020292 0.0045849 0.1137 0.33873 -0.0063608 0.015325 0.0019127 0.00026008
0.0010463 -0.0014163 0.001268 -0.00072347
0.0056517 -0.0018791 -0.0062745 0.015365 0.35819 0.0063594 -0.0013494 -0.0015798
0.00015854 -0.00031184 0.00062081 -0.0003338
-0.0017468 0.0017834 0.0019178 0.00025876 -0.0013043 -0.001563 0.19196 0.17728
-0.017138 -0.004658 -0.00069886 0.0024649
0.0021081 -0.00021294 0.0010384 -0.0014362 0.00016363 -0.00028163 -0.017178 -0.004638
0.11012 0.19518 -0.011376 -0.0030607
-0.00034423 -0.0011462 0.00126 -0.00071678 0.00058409 -0.00031737 -0.00068015 0.0025199
-0.011439 -0.0030449 0.14381 0.2871
1520000000 0.28512 0.11142 -0.01477 0.010199 0.0033588 -0.0042302 -3.6008e-05 0.0026281
0.0023189 -0.0017517 -0.001201 -0.00030774
-0.014763 0.010178 0.14755 0.32396 0.0013774 0.013258 0.0018438 -0.00086588
1.5899e-05 -0.0012682 0.00039368 -0.001073
0.0033415 -0.0042335 0.0014446 0.013267 0.35141 -0.050055 -0.0014138 -0.00045009
0.00068252 -0.00084796 0.0001105 -0.0001838
-3.1654e-05 0.0026367 0.0018456 -0.00087004 -0.0014105 -0.0004717 0.21424 0.14057
-0.01708 0.0021469 0.0017979 0.002302
0.002323 -0.0017586 1.5576e-05 -0.0012592 0.00070255 -0.00085552 -0.017094 0.0022174
0.13786 0.18292 -0.011663 0.0010926
-0.0012196 -0.0003394 0.00037475 -0.0010585 0.00011649 -0.00018316 0.0017859 0.0023221
-0.011665 0.0011654 0.17807 0.26855
1580000000 0.29473 0.064995 -0.0081101 0.013336 -0.00089752 -0.0049761 0.001489 0.0021097
8.9154e-05 -0.0021273 -0.00033741 0.00046358
-0.0081193 0.013331 0.17515 0.29916 0.0051563 0.0084796 0.00049584 -0.0018028
-0.00061067 -0.001154 -0.00023687 -0.00085768
-0.00094925 -0.0049581 0.0052142 0.0084738 0.33113 -0.10743 -0.001892 0.00086366
-0.00028506 -0.0012196 0.00018906 -0.00049354
0.001494 0.0020818 0.00049371 -0.001805 -0.0018718 0.00085337 0.22755 0.10289
-0.013738 0.0081022 0.0025629 0.00085891
7.8699e-05 -0.0021834 -0.00062055 -0.0011269 -0.0002924 -0.0011626 -0.013735 0.0081646
0.16231 0.16674 -0.009479 0.0070353
-0.0003324 0.00046572 -0.00026987 -0.00087393 0.0002225 -0.00055074 0.0025828 0.00082129
-0.0094262 0.0071002 0.2114 0.24234
1640000000 0.29696 0.023611 -0.0013971 0.012319 -0.0027512 -0.0025407 0.0028692 0.0010947
-0.00048172 -0.0017756 -0.00039473 0.00071739
-0.0014034 0.012311 0.20503 0.27401 0.0060022 0.0036528 -0.0007916 -0.0019055
-0.0011393 -0.00041969 -0.00052506 -0.00074857
-0.0027905 -0.0025297 0.0060226 0.0036384 0.3031 -0.15693 -0.00061108 0.0017737
-0.0011151 -0.0012168 -0.00014959 -0.00035833
0.0028745 0.0010824 -0.00080374 -0.0019009 -0.00063116 0.0017588 0.24021 0.056011
-0.0088967 0.010399 0.0028438 -0.00089605
-0.0005383 -0.0017715 -0.0011835 -0.0004057 -0.0011011 -0.001233 -0.0088604 0.010446
0.18512 0.14396 -0.0047185 0.0092498
-0.00037252 0.00072628 -0.00052208 -0.00073674 -0.00016428 -0.00030662 0.0028632 -0.00091894
-0.0046861 0.0093222 0.23782 0.2119
1700000000 0.28935 -0.021949 0.0020208 0.0094274 -0.0035422 -1.1442e-05 0.0032215 -0.0013573
-0.0020672 -0.00095436 0.0007517 0.00045162
0.0020194 0.0094252 0.22332 0.24215 0.0040871 0.00074359 -0.0016175 -0.0005981
-0.00086113 0.00015414 -0.00096336 -0.00049631
-0.0035261 3.9138e-05 0.0041199 0.00071971 0.25914 -0.19675 0.00083859 0.0017031
-0.002083 -0.00035747 -0.00043863 -0.00088815
0.0032212 -0.0013815 -0.0016323 -0.00059862 0.00081074 0.0017157 0.23819 0.0081991
-0.0051769 0.01178 0.0017272 -0.0024204
-0.0020908 -0.00094977 -0.00086635 0.00016779 -0.0021066 -0.00035219 -0.0051435 0.01183
0.20284 0.12527 -0.00012375 0.0097641
0.00076942 0.00042486 -0.00095815 -0.00050599 -0.0004596 -0.00090809 0.0017056 -0.0024307
-7.8722e-05 0.009775 0.25529 0.17776
1760000000 0.27717 -0.070445 0.0043927 0.0061677 -0.0022629 0.0010334 0.0012359 -0.003599
-0.0015842 0.00057478 0.00043072 -0.00064445
0.0044053 0.006173 0.24933 0.20201 0.0018 -0.00115 -0.0013182 0.00027557
-0.0010289 0.0010492 -0.00065325 0.0004704
-0.0022536 0.0010168 0.0017982 -0.0011429 0.21036 -0.22956 0.0013843 0.00087253
-0.0013829 0.0015599 -0.0013523 -0.00052266
0.001199 -0.0035988 -0.0013193 0.00027227 0.0014166 0.00094071 0.23133 -0.041528
-0.00054537 0.010956 -0.0001122 -0.0028067
-0.0016224 0.00063565 -0.0010262 0.0010503 -0.00138 0.0016185 -0.00049951 0.010964
0.21829 0.091552 0.0040698 0.0073197
0.00041601 -0.00061245 -0.00062684 0.000483 -0.0013449 -0.00048542 -0.00015772 -0.0028123
0.0040946 0.0073107 0.26889 0.14063
1820000000 0.25239 -0.10764 0.0044428 0.0025561 -0.0002643 0.0024793 -0.0011636 -0.0032101
-0.001321 0.0009453 -2.1435e-05 -8.1428e-05
0.0044315 0.0025555 0.25917 0.17147 -0.00036322 -0.0001661 -0.0012731 0.0010504
0.00016816 0.0013026 -0.00060776 0.00060245
-0.00019585 0.0024679 -0.00038128 -0.00017559 0.16 -0.24561 0.0014871 3.0498e-05
-0.00017304 0.0025085 -0.0014146 0.00038759
-0.0011837 -0.0031812 -0.0012936 0.0010526 0.0014937 3.4718e-05 0.204 -0.088422
0.001918 0.0089709 -0.0016953 -0.0017709
-0.0013505 0.00095616 0.00017867 0.0012664 -0.00020428 0.0024568 0.0019648 0.0089549
0.23653 0.064009 0.0050026 0.0036695
-1.694e-05 -0.00011148 -0.00059914 0.00060188 -0.0014067 0.00039307 -0.0017063 -0.0017342
0.0050475 0.0036351 0.27213 0.10489
1880000000 0.21723 -0.1478 0.0022908 0.00024225 -0.00030919 0.001973 -0.0030119 -0.0022044
-0.00022349 0.0019934 2.6134e-05 -0.00060215
0.0022772 0.00023906 0.26332 0.12469 -0.0022815 0.0016037 -8.7796e-05 0.0016618
0.00062838 0.001107 5.9912e-05 0.00092941
-0.00031405 0.0019792 -0.0022983 0.0016149 0.10778 -0.25459 0.0014287 -0.00088684
0.0016391 0.0020841 -0.0011146 0.0013422
-0.003069 -0.00218 -9.8471e-05 0.0016558 0.0014373 -0.00089209 0.16622 -0.1296
0.0033507 0.0060444 -0.0024249 0.00033115
-0.00023265 0.0019938 0.0006128 0.0010776 0.0016229 0.0020509 0.0034032 0.0060704
0.24045 0.032519 0.0054372 0.0016111
5.0796e-05 -0.00063425 9.0843e-05 0.00091595 -0.0010249 0.0013383 -0.0024306 0.00031844
0.005473 0.00156 0.27306 0.070495
1940000000 0.17796 -0.17343 -0.00010162 -0.0013199 0.0011508 0.0021274 -0.0036184 0.00064484
0.0015368 0.0011868 -0.00063233 -0.00049398
-0.00012216 -0.0013452 0.26356 0.092758 -0.0011728 0.0038039 0.0010806 0.0012109
0.001809 0.00036655 0.00096721 0.0003216
0.0011751 0.0021624 -0.0011697 0.0038352 0.062 -0.24791 0.00026816 -0.0019283
0.0025744 0.00030482 0.00068902 0.0015125
-0.0036547 0.00069646 0.0010809 0.001212 0.00027847 -0.0019899 0.11532 -0.16253
0.0025883 0.0035668 -0.0016898 0.0015659
0.0015539 0.0011483 0.0018157 0.00035277 0.002606 0.00031347 0.0026049 0.003576
0.24437 -0.0057187 0.0041477 -0.0020953
-0.00065098 -0.00049889 0.00097884 0.00031188 0.00064055 0.0015207 -0.0017656 0.0015872
0.0041113 -0.0021465 0.26262 0.034901
2000000000 0.1315 -0.1884 -0.0038676 0.00064857 0.0024884 0.0015797 -0.0023617 0.0035093
0.0012695 0.00020812 -0.00066768 0.00079757
-0.0038561 0.0006685 0.24885 0.057279 -0.001003 0.005593 0.0014495 0.00042779
0.0011349 -0.001273 0.00039063 0.00019911
0.0025171 0.0016092 -0.00095084 0.0056075 0.01872 -0.23351 -0.0012302 -0.0012733
