!Keysight Technologies,M9804A,MY58100912,A.14.10.03
!Date: Thursday, April 27, 2023 10:28:33
!Correction: S11(C  6-Port  ) 
!S12(C  6-Port  ) 
!S13(C  6-Port  ) 
!S14(C  6-Port  ) 
!S15(C  6-Port  ) 
!S16(C  6-Port  ) 
!S21(C  6-Port  ) 
!S22(C  6-Port  ) 
!S23(C  6-Port  ) 
!S24(C  6-Port  ) 
!S25(C  6-Port  ) 
!S26(C  6-Port  ) 
!S31(C  6-Port  ) 
!S32(C  6-Port  ) 
!S33(C  6-Port  ) 
!S34(C  6-Port  ) 
!S35(C  6-Port  ) 
!S36(C  6-Port  ) 
!S41(C  6-Port  ) 
!S42(C  6-Port  ) 
!S43(C  6-Port  ) 
!S44(C  6-Port  ) 
!S45(C  6-Port  ) 
!S46(C  6-Port  ) 
!S51(C  6-Port  ) 
!S52(C  6-Port  ) 
!S53(C  6-Port  ) 
!S54(C  6-Port  ) 
!S55(C  6-Port  ) 
!S56(C  6-Port  ) 
!S61(C  6-Port  ) 
!S62(C  6-Port  ) 
!S63(C  6-Port  ) 
!S64(C  6-Port  ) 
!S65(C  6-Port  ) 
!S66(C  6-Port  ) 
!S6P File: Measurement: :
# Hz S  RI   R 50
500000000 -0.33727 -0.044197 -0.010381 -0.0020368 -0.0086917 0.013269 -0.0044253 0.012779
0.012222 0.0047178 -0.004196 0.0092034
-0.010368 -0.0020217 -0.41888 -0.055413 0.0075681 -0.010642 0.0017698 0.012932
0.0073109 0.0021989 0.0015302 0.0145
-0.0086902 0.013281 0.0075458 -0.010658 -0.26722 0.20737 0.0065946 0.0038548
-0.0026612 0.0082544 5.4759e-05 0.012442
-0.0044165 0.012786 0.0017935 0.012936 0.0066004 0.0038506 -0.33455 0.034711
-0.021472 -0.0052492 0.017266 0.02702
0.01224 0.0046976 0.0073186 0.0021907 -0.0026573 0.0082564 -0.021474 -0.0052334
-0.21353 -0.21496 -0.028152 0.0060195
-0.0041837 0.0092136 0.0015556 0.014504 6.9488e-05 0.012446 0.017266 0.027003
-0.028146 0.0059983 -0.25969 -0.14203
560000000 -0.31798 0.12009 -0.023528 -0.063848 7.4514e-05 0.011968 0.0051102 0.011414
0.010751 0.0047442 0.0097947 0.0084759
-0.023482 -0.063755 -0.3767 0.10466 -0.042249 -0.036717 0.013819 0.0042904
-0.013328 -0.0055384 0.0031351 -2.2361e-05
8.174e-05 0.011968 -0.042355 -0.036657 -0.18418 0.2566 -0.00024298 -0.004027
0.020031 0.0054142 0.0071366 -0.0056159
0.0051381 0.01142 0.013832 0.0042476 -0.00022795 -0.0040301 -0.31173 0.12898
0.0034104 -0.023142 0.0041387 -0.022665
0.010779 0.0047203 -0.013361 -0.0055158 0.020041 0.0054181 0.0033922 -0.023149
-0.288 -0.03635 0.0096356 -0.049324
0.0098192 0.0084867 0.0031257 -2.6513e-05 0.0071314 -0.0056122 0.0041184 -0.022678
0.0096767 -0.049334 -0.3284 0.008553
620000000 -0.27649 0.10213 -0.023046 0.0085012 0.0035073 0.0089768 0.0083548 -0.0047282
0.011527 -0.00045817 0.0012205 -0.0019728
-0.02303 0.0084979 -0.40356 0.056443 -0.018366 0.00029957 -0.0014116 -0.0016421
0.01184 -0.0061134 0.0011059 -0.0028827
0.0035222 0.0089618 -0.018385 0.00034012 -0.1541 0.26622 -0.00056998 -0.0054495
-0.0028947 -0.0028062 0.0090086 -0.0034291
0.0083585 -0.0047386 -0.0014189 -0.0016517 -0.00057248 -0.0054504 -0.27077 0.14015
-0.039812 -0.019431 0.012737 0.027308
0.011534 -0.00048269 0.011844 -0.0061594 -0.0028966 -0.0028143 -0.039841 -0.019412
-0.20371 -0.074981 -0.044275 0.014533
0.0012315 -0.001954 0.0011056 -0.0028902 0.0090172 -0.0034392 0.012753 0.027304
-0.044283 0.01453 -0.24767 -0.030545
680000000 -0.23673 0.19023 -0.026783 -0.014033 0.0051233 0.0051465 0.0019553 -0.0070839
-0.0025 -0.011383 0.0047136 -0.0075718
-0.026758 -0.014044 -0.38908 0.15591 -0.032402 -0.0015229 -0.0011345 -0.00064026
-0.0017465 -0.009347 -0.0012805 -0.0021009
0.0051327 0.0051372 -0.032441 -0.0014356 -0.10228 0.28611 -0.00068294 -0.00098456
-0.0016564 0.00032066 -0.0027734 -0.0094592
0.0019484 -0.0070942 -0.0011443 -0.00063138 -0.00068147 -0.00098144 -0.22391 0.19319
-0.024306 -0.006348 -0.0098006 -0.01237
-0.0025312 -0.011387 -0.0017805 -0.0093647 -0.0016518 0.00031791 -0.024322 -0.006338
-0.26284 0.024641 -0.0056797 -0.0065065
0.0047066 -0.0075883 -0.0012785 -0.0021009 -0.0027807 -0.0094664 -0.0097832 -0.012384
-0.0056827 -0.0065023 -0.26146 0.07622
740000000 -0.19277 0.18468 -0.039516 0.027209 0.01286 -0.0052137 -0.00029342 -0.0042032
-0.0038796 -0.0027168 -0.0067331 0.003257
-0.039512 0.027155 -0.33458 0.17466 -0.035414 0.034799 -0.00039867 -0.0062137
-0.011675 0.0066327 -0.0017574 -0.0063815
0.012858 -0.0052576 -0.03536 0.034944 -0.068383 0.28412 -0.0021689 0.0033306
-0.0024786 -0.0052522 -0.0014181 0.00075374
-0.00031733 -0.0042196 -0.00040926 -0.0062076 -0.0021708 0.0033304 -0.20759 0.20138
-0.044137 -0.0072534 0.024037 0.016255
-0.0039072 -0.0027034 -0.011673 0.0066991 -0.0024996 -0.0052713 -0.044163 -0.0071972
-0.15852 0.053999 -0.044451 -0.0010891
-0.0067382 0.0032727 -0.0017905 -0.0063829 -0.0014135 0.00075472 0.024062 0.016244
-0.044441 -0.0011224 -0.25066 0.081795
800000000 -0.15922 0.2265 -0.022077 0.016728 0.0053934 -0.010405 -0.0044912 -0.0021665
-0.0039916 0.0020007 0.0044843 0.00029735
-0.022068 0.016702 -0.33898 0.24498 -0.0078579 0.033754 -0.0024851 0.002045
-0.00099408 0.0027551 0.00081476 0.0049403
0.0053707 -0.010419 -0.0077751 0.033807 -0.027995 0.30667 0.0004988 0.0016308
-8.3078e-05 0.0035834 -0.0019012 0.00068421
-0.0044993 -0.0021618 -0.0024829 0.002051 0.00050042 0.0016263 -0.17812 0.23049
-0.028147 0.01439 0.014239 -0.010766
-0.0039768 0.0020161 -0.00098244 0.002754 -7.8456e-05 0.0035802 -0.028141 0.014449
-0.21001 0.078625 -0.016914 0.019236
0.0044992 0.00027867 0.0008321 0.0049445 -0.0018983 0.00068862 0.014229 -0.010794
-0.016929 0.019226 -0.24752 0.13204
860000000 -0.12442 0.24653 -0.017432 0.030608 -0.0031363 -0.0097871 -0.0020151 0.00058806
0.0037881 0.0052905 -0.0037106 -0.0032849
-0.017432 0.03057 -0.29074 0.28673 0.0077161 0.033929 -2.9381e-05 0.0021175
0.0036779 0.00049051 0.0034515 0.00090408
-0.0031541 -0.0097787 0.0078236 0.033932 0.01973 0.3143 -0.00064095 4.4693e-05
0.0027579 -0.0013876 0.0016428 0.0043711
-0.0020037 0.00058854 -2.1257e-05 0.0021197 -0.0006414 4.4476e-05 -0.14002 0.24076
-0.016802 0.018478 -0.0063524 -0.0089489
0.0038165 0.0052755 0.003683 0.00047003 0.0027593 -0.0013969 -0.016787 0.018511
-0.15796 0.13372 -0.026713 0.015103
-0.0037112 -0.0032731 0.0034467 0.00088665 0.0016395 0.0043656 -0.0063611 -0.008954
-0.02672 0.015078 -0.19636 0.18041
920000000 -0.099968 0.26871 0.0049719 0.037722 -0.0091878 -0.0046037 -0.0018422 0.0014336
0.00094314 0.0020045 0.0028061 -0.0016214
0.004963 0.037676 -0.26294 0.30795 0.027707 0.022057 0.0014955 0.0011869
0.0070759 0.00030076 0.0042806 -0.0026863
-0.0091974 -0.0045694 0.027785 0.021986 0.065475 0.31508 0.0020875 6.5421e-05
0.0012133 -0.0001626 0.00082815 -0.0011104
-0.0018314 0.0014383 0.0014855 0.0011807 0.0020824 6.8286e-05 -0.11627 0.25748
-0.010981 0.031271 0.0045306 -0.0067739
0.00095448 0.0020024 0.0070779 0.00026507 0.0012083 -0.00016628 -0.010934 0.031312
-0.1498 0.13774 -0.0023497 0.027734
0.0028101 -0.0016255 0.0042676 -0.0027136 0.00082743 -0.0011106 0.0045292 -0.0067888
-0.0023617 0.027734 -0.20738 0.19397
980000000 -0.052942 0.28862 0.017144 0.029827 -0.009126 0.004341 0.0018248 0.0032805
0.0039391 -0.0013284 -0.0030281 -0.0026066
0.017139 0.029801 -0.20994 0.34217 0.032704 0.0050474 0.0021511 2.538e-05
0.0017715 -0.0057827 7.2516e-06 -0.0026137
-0.0091117 0.0043742 0.032754 0.0049263 0.11148 0.30866 0.00069488 -0.0012801
0.00050219 -0.0021198 0.0014798 -0.00018657
0.0018342 0.0032886 0.0021545 9.6048e-09 0.00070199 -0.0012819 -0.077402 0.26855
0.008229 0.030923 -0.009186 -0.0074022
0.0039451 -0.001331 0.0017371 -0.0058125 0.00049091 -0.0021197 0.0082861 0.030929
-0.11963 0.16849 0.00498 0.019728
-0.0030372 -0.0025807 -1.5305e-05 -0.0026249 0.0014784 -0.0001907 -0.0091968 -0.0073814
0.0049712 0.019725 -0.1649 0.24065
1040000000 -0.011317 0.2969 0.032702 0.01821 -0.0014315 0.0067977 0.0023987 0.00077525
0.00039711 -0.0032646 3.3475e-06 -0.0013139
0.032684 0.018187 -0.17454 0.35503 0.029296 -0.014487 0.0016214 -0.0017487
-0.0019917 -0.0026338 -0.0010511 -0.0028008
-0.0014051 0.006816 0.029257 -0.014621 0.15734 0.29511 -0.00047843 -0.0017013
-0.0015439 -0.0010898 -0.00048068 -0.00098841
0.0024056 0.00078104 0.0016047 -0.00177 -0.00047892 -0.0017006 -0.050341 0.27831
0.020028 0.018988 -0.0021055 0.00064575
0.00039022 -0.0032588 -0.0020281 -0.0026328 -0.0015526 -0.0010915 0.020059 0.018964
-0.087715 0.17513 0.012805 0.019552
5.6197e-07 -0.0013077 -0.0010852 -0.0028103 -0.00047325 -0.00098991 -0.0021015 0.00064808
0.012794 0.019553 -0.14479 0.26205
1100000000 0.033873 0.30519 0.035554 -0.0039635 0.0026745 0.0039351 0.0022487 -0.0011156
-0.0018613 -0.0031693 -0.0040447 -0.00027857
0.035533 -0.0039518 -0.13129 0.37239 0.01527 -0.027511 7.3818e-05 -0.0018115
-0.0034509 -0.0011125 -0.0036424 -0.00065605
0.0026893 0.0039315 0.015171 -0.027601 0.20337 0.27517 -0.002 3.1846e-05
-0.001862 0.00028226 -0.0011106 -0.00036298
0.0022443 -0.0011098 6.5356e-05 -0.0018146 -0.0019938 2.3264e-05 -0.010138 0.28347
0.025606 0.0056623 -0.0026466 -0.00060025
-0.0018711 -0.0031489 -0.0034746 -0.0010986 -0.0018674 0.00028492 0.025625 0.0056319
-0.070837 0.18998 0.019277 0.0092627
-0.0040512 -0.0002555 -0.0036515 -0.00063813 -0.0011119 -0.00035907 -0.0026474 -0.00059141
0.019271 0.0092691 -0.099059 0.29433
1160000000 0.085268 0.30045 0.023732 -0.020446 0.0026286 -0.00038597 -0.0002562 -0.0021245
-0.004085 -0.00086139 -0.0010658 0.0039799
0.023748 -0.020428 -0.087969 0.37668 -0.003417 -0.029047 -0.0016277 -0.0018149
-0.0029398 0.0022479 -0.0015192 0.0018236
0.0026233 -0.00039724 -0.003554 -0.029068 0.2465 0.24471 -0.00094871 0.0018514
-0.00077661 0.0020972 -0.00095343 0.00024506
-0.00026436 -0.0021134 -0.0016408 -0.0018219 -0.00095474 0.0018484 0.029168 0.28052
0.02241 -0.010819 -0.0038598 0.0050853
-0.0040976 -0.00082462 -0.0029492 0.0022641 -0.00077474 0.0020928 0.022397 -0.01086
-0.03696 0.19945 0.018045 0.0013317
-0.0010499 0.0039987 -0.0015165 0.0018362 -0.00095869 0.00025713 -0.0038513 0.0051015
0.018042 0.0013409 -0.052039 0.29725
1220000000 0.12958 0.28964 0.010598 -0.029701 -0.0015734 -0.0007135 0.0001327 -0.0007489
-0.0027264 0.002249 0.0010265 0.0020863
0.010613 -0.029677 -0.043834 0.38916 -0.01663 -0.021273 -0.0026543 0.00037612
-0.00027 0.0031041 -0.00099995 0.0019145
-0.0015798 -0.00070263 -0.016748 -0.021229 0.28569 0.20603 0.00063691 0.001963
0.00059675 0.0014254 0.00035826 0.00055408
0.00013475 -0.0007466 -0.0026655 0.00038629 0.00064337 0.0019563 0.068913 0.27215
0.011691 -0.017762 0.0015981 0.0012263
-0.0027223 0.0022679 -0.0002573 0.0031067 0.00059207 0.0014257 0.01167 -0.017784
-0.015605 0.20963 0.014571 -0.012512
0.0010309 0.0020911 -0.00099158 0.0019202 0.00035873 0.00055523 0.0015955 0.0012308
0.014569 -0.012506 -0.022012 0.31585
1280000000 0.17927 0.26804 -0.0076159 -0.02826 -0.0018254 0.0025209 -0.00077379 -0.0020801
-0.00090019 0.0030635 0.0025196 0.0014117
-0.0075792 -0.028238 0.0019059 0.38071 -0.023623 -0.008763 -0.0011524 0.0013726
0.0017355 0.0021197 0.00059954 0.0022121
-0.0018115 0.0025317 -0.023704 -0.008664 0.31639 0.16241 0.001714 0.00015047
0.0013329 0.00039163 0.00042183 0.00028016
-0.00077461 -0.0020843 -0.0011492 0.0013777 0.0017175 0.00015709 0.1057 0.2557
0.0018739 -0.020383 -0.00070441 0.00059253
-0.00088741 0.0030686 0.0017582 0.0021158 0.0013332 0.00039501 0.0018293 -0.020398
0.020326 0.21461 0.0033275 -0.014732
0.0025312 0.0013955 0.00061792 0.0022188 0.00042511 0.0002802 -0.0007116 0.00059522
0.0033401 -0.014729 0.026219 0.31959
1340000000 0.21635 0.23466 -0.017281 -0.018919 0.00098444 0.004594 -0.00166 -0.00092296
0.0013785 0.002731 0.0018613 -0.0012758
-0.017252 -0.018906 0.041543 0.37302 -0.021685 0.0039811 -0.00027143 0.0021126
0.0021032 0.00097457 0.0013311 0.00083695
0.0010024 0.0045935 -0.021691 0.0040906 0.33888 0.11447 0.0014385 -0.00092845
0.00087976 -0.00053831 4.6812e-05 0.00029962
-0.0016586 -0.00091376 -0.000267 0.0021126 0.0014405 -0.00092826 0.13791 0.23499
-0.0082656 -0.018132 0.00069351 0.00081923
0.0014051 0.0027216 0.0021071 0.00095695 0.00088004 -0.00054868 -0.0083064 -0.018126
0.048917 0.21099 -0.0029376 -0.013722
0.0018536 -0.0012951 0.0013361 0.00082844 4.8282e-05 0.00030123 0.0006946 0.00081684
-0.0029281 -0.013726 0.064666 0.31655
1400000000 0.24947 0.19695 -0.023116 -0.0075809 0.0052424 0.0030777 -0.0021582 0.00042945
0.0024043 0.00099494 0.00049365 -0.0015212
-0.02309 -0.0075853 0.079025 0.36038 -0.015034 0.012312 0.0014036 0.0014605
0.0014281 -0.00077218 0.0013324 0.00016741
0.0052573 0.0030654 -0.014989 0.012404 0.35207 0.060801 0.00024845 -0.0018941
8.2569e-05 -0.00046105 0.00034052 0.00017964
-0.0021582 0.00044043 0.0014145 0.001455 0.00024868 -0.0018901 0.16663 0.2062
-0.014969 -0.011491 -0.00088668 -3.2484e-05
0.0024162 0.00098431 0.0014237 -0.00078884 8.2517e-05 -0.00046226 -0.014989 -0.011454
0.08151 0.2085 -0.0093809 -0.0089946
0.00048424 -0.0015283 0.0013379 0.00015603 0.00034336 0.0001767 -0.00088563 -4.1862e-05
-0.0093735 -0.0090071 0.11015 0.3072
1460000000 0.27263 0.15308 -0.02023 0.0044958 0.0056557 -0.0018384 -0.0017025 0.0017667
0.0020956 -0.00022205 -0.00028279 -0.0011184
-0.020217 0.0044868 0.11371 0.33874 -0.0063287 0.015366 0.0018852 0.00026929
0.0010233 -0.0013946 0.001259 -0.0007032
0.0056517 -0.0018663 -0.0062641 0.015417 0.35817 0.0062679 -0.0013288 -0.0015477
0.00016454 -0.000292 0.00058278 -0.00032422
-0.0016965 0.0017874 0.0018828 0.00026659 -0.0013242 -0.001543 0.19209 0.17725
-0.017033 -0.0045968 -0.00067371 0.0024921
0.0020996 -0.00023592 0.0010182 -0.0014064 0.00016326 -0.00029301 -0.017052 -0.0045642
0.11009 0.19524 -0.011235 -0.0030608
-0.00029144 -0.001127 0.0012583 -0.00071892 0.00057981 -0.00032938 -0.00067233 0.0025058
-0.011224 -0.0030639 0.14394 0.28698
1520000000 0.28501 0.1115 -0.014773 0.010061 0.0033732 -0.0042212 -3.7177e-05 0.002618
0.0023067 -0.0017405 -0.0011942 -0.00034631
-0.014766 0.010042 0.14763 0.32404 0.0014146 0.013256 0.0018299 -0.00084375
3.8879e-05 -0.0012392 0.00036787 -0.0010603
0.0033477 -0.0042425 0.0014822 0.013262 0.35147 -0.050052 -0.0014046 -0.00046374
0.00069019 -0.00083094 0.00011424 -0.00017826
-2.126e-05 0.0026212 0.0018322 -0.00085103 -0.0013966 -0.00046408 0.21436 0.14046
-0.01694 0.002164 0.0017776 0.0023442
0.0022983 -0.0017541 2.9277e-05 -0.001229 0.0006908 -0.00083548 -0.016944 0.0022052
0.1379 0.18311 -0.011576 0.0010898
-0.0011911 -0.00033065 0.00036312 -0.0010641 0.00011659 -0.00018067 0.0017907 0.0023349
-0.011575 0.0010659 0.17825 0.26842
1580000000 0.29474 0.065113 -0.0081954 0.013227 -0.00089339 -0.0049539 0.0014717 0.002087
8.5825e-05 -0.002102 -0.00034539 0.00043512
-0.0081908 0.013212 0.17525 0.29911 0.0051813 0.008467 0.00051786 -0.0017926
-0.00059746 -0.0011436 -0.00025039 -0.00086227
-0.00092047 -0.0049566 0.0052337 0.0084441 0.33112 -0.10748 -0.0018554 0.00086797
-0.00027452 -0.0011886 0.00016911 -0.00053466
0.0014796 0.0020794 0.0005008 -0.0018019 -0.0018569 0.00086458 0.22766 0.10274
-0.013636 0.0080452 0.0025577 0.00083927
6.1855e-05 -0.0021105 -0.00060597 -0.0011447 -0.00028179 -0.0011937 -0.013625 0.0080819
0.1625 0.16681 -0.0093948 0.0069626
-0.00034166 0.0004391 -0.00025695 -0.00085701 0.00016721 -0.00053538 0.0025642 0.00083883
-0.0093858 0.0069705 0.21167 0.24219
1640000000 0.29707 0.023699 -0.0015386 0.012284 -0.0027706 -0.0025745 0.002842 0.0011066
-0.00048149 -0.0017417 -0.00040332 0.00069843
-0.0015427 0.012266 0.20511 0.27396 0.0060043 0.003623 -0.00077388 -0.0019069
-0.0011379 -0.00043313 -0.00051792 -0.00073484
-0.0027871 -0.0025575 0.006032 0.0035861 0.30305 -0.15698 -0.00063619 0.001766
-0.0011239 -0.0012276 -0.00015839 -0.00034753
0.0028492 0.0010963 -0.00078826 -0.0019066 -0.00062911 0.0017684 0.24022 0.055815
-0.0088588 0.010274 0.0028856 -0.00089497
-0.00049915 -0.0017502 -0.0011464 -0.00041589 -0.0011257 -0.0012185 -0.008837 0.010302
0.18534 0.14401 -0.004671 0.0091816
-0.00039795 0.00070408 -0.00052504 -0.00072899 -0.00016151 -0.00034602 0.002886 -0.0009095
-0.0046769 0.0091773 0.23813 0.21172
1700000000 0.28962 -0.021908 0.0019081 0.0094912 -0.0035559 2.8219e-05 0.0032088 -0.0013482
-0.0020495 -0.00097563 0.00073417 0.00044475
0.0019014 0.0094843 0.22338 0.24205 0.0040879 0.00071006 -0.0016177 -0.00060171
-0.00086611 0.00013899 -0.00095056 -0.00051197
-0.0035553 4.6871e-05 0.0040965 0.0006832 0.25922 -0.19676 0.00079832 0.0016999
-0.002099 -0.00036254 -0.0004306 -0.00089774
0.0031995 -0.0013668 -0.0016196 -0.000604 0.00080588 0.0017035 0.23811 0.0080265
-0.0052132 0.011673 0.001728 -0.002434
-0.0020587 -0.00095664 -0.0008671 0.00014899 -0.0020979 -0.00035507 -0.0051839 0.011698
0.20313 0.12523 -0.00013585 0.0096734
0.00074177 0.00043834 -0.00095902 -0.00050793 -0.00043848 -0.00089765 0.0017122 -0.0024405
-0.00013735 0.0096775 0.25565 0.17746
1760000000 0.27742 -0.070569 0.0043285 0.0062774 -0.0022793 0.00099671 0.001244 -0.0035782
-0.0015795 0.00057784 0.00043091 -0.00060397
0.0043242 0.0062716 0.24932 0.20188 0.0017841 -0.0011589 -0.001329 0.00027113
-0.0010497 0.0010475 -0.00064594 0.00046007
-0.002271 0.0010023 0.0017726 -0.0011804 0.21023 -0.22973 0.0014114 0.00088532
-0.0013986 0.0015228 -0.0013328 -0.00052417
0.0012223 -0.0035847 -0.0013256 0.00027424 0.0014127 0.00088847 0.23122 -0.041651
-0.00061109 0.010851 -0.00013509 -0.0028145
-0.0015816 0.00058703 -0.0010517 0.0010594 -0.0013947 0.001521 -0.0005876 0.01086
0.2186 0.091358 0.0040345 0.0072063
0.00042698 -0.00061007 -0.0006422 0.0004674 -0.0013325 -0.0005174 -0.00013899 -0.0028197
0.0040366 0.0072047 0.26907 0.14026
1820000000 0.2525 -0.10793 0.0044577 0.0026466 -0.00021783 0.0024971 -0.0011593 -0.0031893
-0.0013444 0.00091083 7.0419e-06 -9.1301e-05
0.0044445 0.0026465 0.2591 0.17139 -0.00042337 -0.00016076 -0.0013054 0.0010408
0.00015572 0.0012963 -0.00060278 0.0006067
-0.00020461 0.0024832 -0.00042244 -0.00015989 0.15983 -0.24565 0.0014962 1.1189e-05
-0.00016847 0.002474 -0.0014407 0.00038804
-0.0011785 -0.0031805 -0.0013 0.001055 0.0014955 1.6053e-05 0.20386 -0.088444
0.0018249 0.0089245 -0.0017172 -0.0017479
-0.0013424 0.00091641 0.00016045 0.0012974 -0.00017614 0.0024781 0.0018539 0.0089254
0.23677 0.063753 0.0048991 0.0036243
5.3984e-06 -9.0979e-05 -0.00059825 0.00061324 -0.0014337 0.00039855 -0.0017234 -0.0017411
0.0049031 0.0036165 0.27228 0.10447
1880000000 0.21725 -0.14814 0.0023208 0.00032175 -0.00036335 0.0019962 -0.0030624 -0.0022187
-0.00026332 0.0019838 6.7959e-05 -0.00062117
0.0023237 0.00031834 0.26323 0.12464 -0.0023056 0.0016405 -8.1557e-05 0.0016506
0.00063161 0.0011089 7.6811e-05 0.00095567
-0.00035183 0.0019984 -0.0023018 0.0016544 0.10782 -0.25457 0.001469 -0.00087783
0.0016185 0.0021141 -0.0011183 0.0013236
-0.0030745 -0.0022088 -6.9623e-05 0.0016467 0.0014703 -0.00087328 0.16605 -0.12955
0.0032279 0.0060768 -0.0024418 0.00032881
-0.00025435 0.0019897 0.00064146 0.0011082 0.0016347 0.0021101 0.003252 0.0060779
0.24055 0.032128 0.0053136 0.0015641
6.4027e-05 -0.0006231 8.4088e-05 0.00095618 -0.0011162 0.0013262 -0.0024503 0.00034143
0.0053052 0.00157 0.27317 0.070099
1940000000 0.17774 -0.17377 -4.02e-05 -0.0012898 0.0011428 0.002151 -0.0036657 0.00065756
0.0015535 0.001205 -0.00062912 -0.00053634
-4.1472e-05 -0.0012825 0.2635 0.092779 -0.0011659 0.0038318 0.0010754 0.0012043
0.0018409 0.00038041 0.00098982 0.00032121
0.0011531 0.0021441 -0.0011399 0.0038482 0.06185 -0.24787 0.00027777 -0.0019535
0.0025823 0.00034379 0.00070244 0.0015289
-0.0036617 0.00066777 0.0010904 0.0011991 0.00027882 -0.0019546 0.11517 -0.16235
0.0025261 0.0036358 -0.0017019 0.0016169
0.0015635 0.0011864 0.0018379 0.00035502 0.0025808 0.00033303 0.0025381 0.0036307
0.24431 -0.0061045 0.003991 -0.0020364
-0.00063705 -0.00053067 0.00099216 0.00031066 0.00070852 0.0015318 -0.0016925 0.0016289
0.0039838 -0.0020211 0.26252 0.034535
2000000000 0.13121 -0.18857 -0.0037746 0.00063911 0.0025053 0.0015788 -0.0023973 0.0035346
0.0012933 0.00024998 -0.00068976 0.0007652
-0.003773 0.00063347 0.24888 0.057343 -0.00095044 0.0056089 0.0014729 0.00042609
0.0011524 -0.0012779 0.00040026 0.00019135
