!Keysight Technologies,M9804A,MY58100912,A.14.10.03
!Date: Thursday, April 27, 2023 10:28:33
!Correction: S11(C  6-Port  ) 
!S12(C  6-Port  ) 
!S13(C  6-Port  ) 
!S14(C  6-Port  ) 
!S15(C  6-Port  ) 
!S16(C  6-Port  ) 
!S21(C  6-Port  ) 
!S22(C  6-Port  ) 
!S23(C  6-Port  ) 
!S24(C  6-Port  ) 
!S25(C  6-Port  ) 
!S26(C  6-Port  ) 
!S31(C  6-Port  ) 
!S32(C  6-Port  ) 
!S33(C  6-Port  ) 
!S34(C  6-Port  ) 
!S35(C  6-Port  ) 
!S36(C  6-Port  ) 
!S41(C  6-Port  ) 
!S42(C  6-Port  ) 
!S43(C  6-Port  ) 
!S44(C  6-Port  ) 
!S45(C  6-Port  ) 
!S46(C  6-Port  ) 
!S51(C  6-Port  ) 
!S52(C  6-Port  ) 
!S53(C  6-Port  ) 
!S54(C  6-Port  ) 
!S55(C  6-Port  ) 
!S56(C  6-Port  ) 
!S61(C  6-Port  ) 
!S62(C  6-Port  ) 
!S63(C  6-Port  ) 
!S64(C  6-Port  ) 
!S65(C  6-Port  ) 
!S66(C  6-Port  ) 
!S6P File: Measurement: :
# Hz S  RI   R 50
500000000 -0.33728 -0.044158 -0.010389 -0.002015 -0.0087173 0.013236 -0.0044367 0.01277
0.012222 0.0047387 -0.0042024 0.0091915
-0.010349 -0.0019986 -0.41888 -0.055418 0.0075549 -0.010646 0.0017555 0.012928
0.0073141 0.0022164 0.001533 0.014491
-0.0086842 0.013269 0.0075432 -0.010647 -0.26726 0.20736 0.0065988 0.0038457
-0.0026545 0.008253 6.7813e-05 0.012447
-0.0044221 0.012771 0.001797 0.012954 0.0065916 0.0038605 -0.33456 0.034693
-0.021474 -0.0052328 0.017268 0.027011
0.012244 0.0046806 0.0073117 0.0021695 -0.0026577 0.008247 -0.021489 -0.0052226
-0.21349 -0.21501 -0.028138 0.0060278
-0.0041671 0.0091647 0.0015644 0.014517 5.2986e-05 0.012441 0.017266 0.027035
-0.028141 0.006022 -0.25974 -0.14206
560000000 -0.31798 0.12008 -0.023495 -0.063873 3.1066e-05 0.011963 0.0051301 0.011457
0.01075 0.0047512 0.0098186 0.0085226
-0.023449 -0.063815 -0.37676 0.10467 -0.04221 -0.036733 0.013806 0.0042719
-0.013316 -0.0055311 0.0031311 -4.4491e-05
5.6081e-05 0.011971 -0.042358 -0.036658 -0.18415 0.2566 -0.00023677 -0.0040249
0.020029 0.0054154 0.0071474 -0.0056156
0.0051465 0.011403 0.013829 0.0042478 -0.00021188 -0.0040353 -0.31175 0.12895
0.0034179 -0.023141 0.0041228 -0.022673
0.010788 0.004789 -0.013344 -0.0054905 0.020028 0.0053762 0.0033926 -0.023139
-0.28803 -0.03633 0.0096597 -0.04934
0.0098114 0.0085379 0.0031155 -8.1599e-05 0.0071485 -0.0055956 0.0041178 -0.02269
0.0096857 -0.049343 -0.32843 0.0084996
620000000 -0.27652 0.10207 -0.023059 0.0084952 0.0034771 0.0089808 0.0083593 -0.0047052
0.011543 -0.00048757 0.0012135 -0.0019542
-0.023046 0.0084872 -0.40356 0.056425 -0.018368 0.00029457 -0.0014147 -0.0016521
0.011847 -0.0061037 0.001126 -0.0028814
0.0034978 0.0089511 -0.018388 0.00034429 -0.15414 0.2662 -0.00057674 -0.0054471
-0.0029031 -0.0028028 0.0090199 -0.0034365
0.0083665 -0.0047109 -0.0014099 -0.0016422 -0.00057358 -0.0054405 -0.27079 0.14013
-0.039791 -0.019418 0.012745 0.027309
0.011536 -0.00050706 0.011826 -0.0061653 -0.0028683 -0.0028149 -0.039831 -0.019406
-0.20369 -0.075114 -0.044304 0.01453
0.0012024 -0.0019221 0.0011133 -0.0028866 0.0090108 -0.0034083 0.012745 0.027293
-0.044286 0.014509 -0.24766 -0.030608
680000000 -0.23676 0.1902 -0.026784 -0.014044 0.0051192 0.0051542 0.0019569 -0.0070868
-0.0025015 -0.011397 0.0047328 -0.0075793
-0.026757 -0.014048 -0.38907 0.15589 -0.032409 -0.0015153 -0.0011417 -0.00063573
-0.0017394 -0.009337 -0.0012744 -0.0021026
0.0051298 0.0051518 -0.032433 -0.0014338 -0.10231 0.28613 -0.00068694 -0.00097956
-0.0016391 0.00033168 -0.002773 -0.0094581
0.0019403 -0.0070856 -0.0011515 -0.00064695 -0.00069221 -0.00097999 -0.22389 0.19313
-0.024303 -0.006354 -0.0098035 -0.012372
-0.0025312 -0.01138 -0.0017733 -0.0093432 -0.0016572 0.00033277 -0.024331 -0.0063433
-0.26285 0.024622 -0.0056759 -0.0065102
0.0046953 -0.0076148 -0.0012818 -0.0021179 -0.0027592 -0.0094608 -0.0098154 -0.012346
-0.0056667 -0.0065067 -0.26148 0.076165
740000000 -0.1928 0.18471 -0.039545 0.027193 0.012876 -0.0052396 -0.00030698 -0.0042129
-0.003897 -0.0026972 -0.006744 0.0032571
-0.039515 0.027163 -0.33462 0.17465 -0.035449 0.034813 -0.00038642 -0.0062252
-0.011654 0.0066303 -0.0017806 -0.0063697
0.012866 -0.005248 -0.035375 0.034942 -0.068388 0.2841 -0.0021622 0.00333
-0.0024866 -0.0052727 -0.0014223 0.00075242
-0.00030661 -0.0042281 -0.00039661 -0.006202 -0.0021698 0.0033447 -0.20761 0.20136
-0.04414 -0.0072534 0.024045 0.01626
-0.0038988 -0.0027235 -0.01169 0.0067181 -0.0024811 -0.0052805 -0.044175 -0.0071847
-0.15854 0.053948 -0.044454 -0.0010887
-0.006741 0.0032492 -0.0017766 -0.0063829 -0.0014106 0.00074142 0.024074 0.01623
-0.044464 -0.0011466 -0.25071 0.081714
800000000 -0.15921 0.22649 -0.022091 0.016728 0.0053962 -0.010394 -0.0044953 -0.0021702
-0.0039744 0.0019961 0.0044923 0.00030621
-0.02208 0.016707 -0.33899 0.24498 -0.0078757 0.033754 -0.0024782 0.0020532
-0.00098769 0.0027537 0.00081113 0.0049438
0.0053759 -0.010422 -0.0077781 0.033818 -0.028029 0.30666 0.00050052 0.0016347
-7.6817e-05 0.0035841 -0.0019077 0.00069197
-0.0045098 -0.0021603 -0.0024803 0.0020635 0.00048996 0.0016342 -0.17814 0.23047
-0.028146 0.014387 0.014234 -0.010758
-0.0039622 0.002011 -0.00098334 0.0027585 -8.0354e-05 0.003585 -0.028133 0.014437
-0.21001 0.078543 -0.016918 0.019248
0.0044943 0.00029366 0.00083279 0.0049608 -0.0019123 0.00069292 0.014227 -0.010791
-0.016931 0.019242 -0.24759 0.13193
860000000 -0.12446 0.24651 -0.017439 0.030607 -0.0031252 -0.0097896 -0.0020177 0.0005895
0.0037882 0.0052856 -0.0037005 -0.0032891
-0.017433 0.03058 -0.29077 0.28674 0.0077067 0.033915 -2.113e-05 0.0021216
0.003679 0.00048637 0.0034469 0.00089189
-0.0031518 -0.0097784 0.0078201 0.033932 0.01973 0.31431 -0.0006397 4.5448e-05
0.0027662 -0.0013958 0.0016412 0.0043642
-0.0020156 0.00059379 -2.3146e-05 0.002109 -0.00064115 4.3206e-05 -0.14004 0.24074
-0.016809 0.018464 -0.0063588 -0.0089475
0.0038145 0.0052824 0.0036809 0.00047617 0.0027647 -0.00139 -0.016791 0.018512
-0.15795 0.13375 -0.026723 0.015113
-0.0037098 -0.0032741 0.0034447 0.00088681 0.0016501 0.0043654 -0.006351 -0.00895
-0.026719 0.015078 -0.19646 0.18023
920000000 -0.10001 0.26869 0.0049662 0.037724 -0.0091761 -0.0045882 -0.0018428 0.0014357
0.00093802 0.0020156 0.0028115 -0.0016035
0.0049543 0.037703 -0.26295 0.30796 0.027686 0.022048 0.0014944 0.0011898
0.0070832 0.00030547 0.0042699 -0.0027039
-0.009196 -0.0045735 0.027795 0.021992 0.065462 0.31508 0.0020914 6.4442e-05
0.0012168 -0.00016354 0.00083099 -0.0011128
-0.0018291 0.0014498 0.001487 0.0011806 0.0020922 6.93e-05 -0.11629 0.25749
-0.011002 0.031265 0.0045281 -0.0067766
0.00097174 0.002002 0.0070802 0.00027486 0.0012292 -0.00016959 -0.010927 0.031315
-0.1498 0.1377 -0.0023524 0.027747
0.002806 -0.0016164 0.0042693 -0.0027094 0.00082957 -0.0011038 0.0045296 -0.0067762
-0.0023738 0.027737 -0.20751 0.19385
980000000 -0.052972 0.28861 0.017138 0.029833 -0.0091201 0.00435 0.00182 0.0032893
0.0039419 -0.0013258 -0.0030304 -0.0025938
0.017113 0.029831 -0.20995 0.34216 0.032695 0.0050129 0.0021556 2.5054e-05
0.0017788 -0.005783 9.8821e-06 -0.0026376
-0.0091189 0.0043713 0.032753 0.0049334 0.11147 0.30866 0.00070458 -0.0012824
0.00049895 -0.0021197 0.0014797 -0.00018266
0.0018409 0.0032932 0.0021529 9.6773e-07 0.00069783 -0.0012894 -0.077425 0.26854
0.0082212 0.030931 -0.009195 -0.0074043
0.0039515 -0.0013484 0.0017479 -0.0058198 0.0005023 -0.0021259 0.0082758 0.030925
-0.11965 0.1685 0.0049883 0.019742
-0.003032 -0.0025867 -1.2823e-05 -0.0026282 0.0014818 -0.00019474 -0.0092033 -0.0073771
0.0049637 0.01973 -0.16495 0.24063
1040000000 -0.011354 0.29689 0.032706 0.018218 -0.0014146 0.0068208 0.0023967 0.00077649
0.00040285 -0.0032746 7.4598e-08 -0.0012964
0.032687 0.018232 -0.17454 0.35504 0.029264 -0.014511 0.0016257 -0.0017448
-0.0019989 -0.0026382 -0.0010696 -0.0028359
-0.0014072 0.006817 0.029267 -0.014614 0.15734 0.29511 -0.00047987 -0.0017096
-0.0015493 -0.001091 -0.00047595 -0.00099428
0.0024078 0.0007825 0.0016045 -0.0017688 -0.00047751 -0.0017102 -0.050388 0.27833
0.020019 0.018996 -0.002105 0.0006395
0.00038684 -0.0032719 -0.0020275 -0.0026277 -0.0015437 -0.0010907 0.020057 0.018971
-0.087697 0.17515 0.012807 0.019578
7.5589e-06 -0.0013074 -0.0010898 -0.0028108 -0.0004763 -0.00099817 -0.002102 0.00065197
0.012797 0.019567 -0.14485 0.26206
1100000000 0.033858 0.30521 0.035564 -0.0039568 0.0026878 0.003946 0.0022495 -0.0011096
-0.001861 -0.0031691 -0.004055 -0.00026985
0.035541 -0.0039286 -0.1313 0.3724 0.015257 -0.027515 7.8886e-05 -0.0018104
-0.0034513 -0.0011154 -0.0036415 -0.00066765
0.0026895 0.0039347 0.015175 -0.027596 0.20334 0.27518 -0.0020041 2.6883e-05
-0.0018701 0.00028073 -0.0011038 -0.00036041
0.00225 -0.0011108 6.5237e-05 -0.0018165 -0.0019997 3.0701e-05 -0.010151 0.28347
0.025602 0.0056788 -0.0026494 -0.00059727
-0.0018742 -0.003165 -0.003472 -0.0010996 -0.0018639 0.00028189 0.025628 0.0056379
-0.070896 0.18996 0.019281 0.0092737
-0.0040483 -0.00025258 -0.0036509 -0.00064242 -0.0011092 -0.00035984 -0.002643 -0.00059015
0.019266 0.0092728 -0.099152 0.29431
1160000000 0.085251 0.30046 0.023748 -0.02044 0.0026228 -0.00037037 -0.00026033 -0.0021238
-0.0040872 -0.00086318 -0.0010846 0.0039949
0.023763 -0.020407 -0.087975 0.37669 -0.0034311 -0.029066 -0.001619 -0.0018113
-0.0029417 0.0022541 -0.0015221 0.0018045
0.0026248 -0.00039344 -0.0035535 -0.029067 0.24648 0.24473 -0.00095412 0.0018461
-0.00077018 0.0020936 -0.00095297 0.0002424
-0.00025843 -0.0021155 -0.0016402 -0.001826 -0.00095626 0.0018512 0.029135 0.28053
0.022411 -0.010814 -0.0038523 0.0050931
-0.004103 -0.00083452 -0.0029532 0.0022656 -0.00076562 0.0021048 0.022405 -0.010856
-0.03694 0.19948 0.018053 0.0013534
-0.0010503 0.004003 -0.0015211 0.0018242 -0.00094995 0.00024508 -0.0038494 0.0051076
0.018051 0.0013476 -0.052112 0.29724
1220000000 0.12955 0.28967 0.010613 -0.029706 -0.0015711 -0.00071183 0.00013619 -0.0007469
-0.0027297 0.0022488 0.0010178 0.0020988
0.010624 -0.029664 -0.043834 0.38917 -0.016636 -0.021284 -0.002662 0.0003828
-0.00026967 0.0030994 -0.0010021 0.001903
-0.0015725 -0.00071023 -0.01675 -0.021237 0.28565 0.20604 0.00064134 0.0019648
0.00058612 0.001425 0.00035647 0.00055337
0.00013538 -0.00074638 -0.0026607 0.00038601 0.00063728 0.0019614 0.068893 0.27217
0.0117 -0.017756 0.0016028 0.0012314
-0.0027223 0.0022554 -0.00025289 0.0031042 0.00059243 0.0014284 0.011677 -0.017788
-0.015628 0.20961 0.014576 -0.012507
0.0010388 0.0020944 -0.00099437 0.0019154 0.00036251 0.0005557 0.0016029 0.0012309
0.014571 -0.0125 -0.022058 0.3159
1280000000 0.17929 0.26807 -0.0076018 -0.028268 -0.0018379 0.0025177 -0.00077893 -0.0020863
-0.00090696 0.0030643 0.0025274 0.0014149
-0.0075808 -0.028247 0.0018946 0.38072 -0.023627 -0.0087671 -0.0011539 0.001379
0.0017435 0.0021189 0.00059076 0.0022218
-0.0018171 0.0025261 -0.023701 -0.0086635 0.31637 0.16243 0.0017143 0.00015474
0.0013293 0.0004001 0.00042214 0.00028105
-0.00078123 -0.0020823 -0.0011447 0.0013785 0.0017174 0.00015259 0.10567 0.25571
0.0018765 -0.020386 -0.00070378 0.00059201
-0.00089029 0.0030621 0.0017562 0.002118 0.001335 0.00039467 0.0018367 -0.0204
0.020279 0.21462 0.0033458 -0.014735
0.0025274 0.0013911 0.00060926 0.0022234 0.00042375 0.00028318 -0.00070644 0.0005956
0.0033457 -0.014732 0.026174 0.31962
1340000000 0.21633 0.2347 -0.017283 -0.018933 0.000978 0.0045895 -0.001652 -0.00093102
0.001384 0.0027287 0.0018582 -0.0012842
-0.017248 -0.018929 0.041549 0.37304 -0.02169 0.0039796 -0.00027202 0.0021181
0.0020964 0.00097489 0.0013308 0.00083944
0.00099923 0.0045899 -0.021687 0.0040868 0.33887 0.11449 0.0014376 -0.00092215
0.0008796 -0.00054183 4.7705e-05 0.00030051
-0.0016611 -0.00091153 -0.00026108 0.002114 0.0014337 -0.00092917 0.13787 0.23501
-0.0082672 -0.018146 0.00069134 0.00081761
0.0014086 0.0027361 0.0021037 0.00096341 0.00087849 -0.00054323 -0.0083047 -0.018134
0.04894 0.21099 -0.0029198 -0.013724
0.0018589 -0.0012924 0.0013388 0.00082609 4.7234e-05 0.00029988 0.00069599 0.00081278
-0.0029145 -0.013722 0.064541 0.31657
1400000000 0.24948 0.19702 -0.023129 -0.0075923 0.0052366 0.0030816 -0.0021614 0.00043476
0.0024098 0.00099704 0.00049284 -0.0015157
-0.023096 -0.0076014 0.079022 0.36038 -0.015043 0.012312 0.0014054 0.0014616
0.0014287 -0.00077539 0.0013344 0.00016884
0.0052533 0.0030542 -0.014997 0.012399 0.35205 0.06082 0.00025905 -0.0018951
8.2418e-05 -0.00046148 0.0003405 0.00018102
-0.002157 0.00044293 0.0014174 0.0014567 0.00025433 -0.0018975 0.16663 0.20622
-0.014962 -0.011491 -0.00088341 -3.8909e-05
0.0024198 0.00098544 0.0014237 -0.00079151 8.3327e-05 -0.00046357 -0.01499 -0.011466
0.081454 0.20849 -0.0093733 -0.009001
0.00047805 -0.0015177 0.0013425 0.00016417 0.00034349 0.00018001 -0.00088727 -4.0137e-05
-0.0093694 -0.0090135 0.11001 0.30725
1460000000 0.27262 0.15309 -0.020241 0.004495 0.0056584 -0.0018348 -0.0016985 0.0017713
0.0021072 -0.0002231 -0.00028789 -0.0011221
-0.020219 0.004489 0.11369 0.33875 -0.0063376 0.015365 0.0018907 0.00027103
0.0010241 -0.0013953 0.0012616 -0.00070782
0.0056502 -0.001853 -0.00627 0.015409 0.35819 0.0063044 -0.0013266 -0.0015408
0.0001705 -0.00029394 0.00058328 -0.00032013
-0.0016988 0.0017745 0.0018989 0.00026375 -0.0013192 -0.0015502 0.19205 0.17727
-0.017029 -0.0046067 -0.00067894 0.0024937
0.0021051 -0.00023378 0.0010206 -0.001403 0.00016653 -0.00029721 -0.017053 -0.0045735
0.11008 0.19524 -0.011236 -0.0030625
-0.00030055 -0.0011177 0.0012579 -0.00072138 0.00057762 -0.00033325 -0.00067235 0.0024969
-0.011227 -0.0030761 0.14388 0.28702
1520000000 0.28501 0.11157 -0.014784 0.010064 0.0033679 -0.0042191 -2.3723e-05 0.0026189
0.0023036 -0.0017422 -0.0011821 -0.00033074
-0.014786 0.010043 0.14763 0.32403 0.0014063 0.013266 0.0018349 -0.00083747
3.6764e-05 -0.0012368 0.00036205 -0.0010629
0.0033531 -0.0042348 0.0014802 0.013269 0.35148 -0.050033 -0.0014066 -0.00045506
0.00069244 -0.00083671 0.00011572 -0.00018033
-1.8242e-05 0.0026178 0.0018261 -0.00084747 -0.0014059 -0.00046127 0.21437 0.14051
-0.01695 0.0021611 0.0017791 0.0023472
0.0022959 -0.0017616 2.6726e-05 -0.0012402 0.00068956 -0.00083663 -0.016953 0.0022065
0.13791 0.18307 -0.01158 0.0010727
-0.0011959 -0.00033315 0.00035876 -0.0010597 0.00011676 -0.00018242 0.0017836 0.002345
-0.011575 0.0010723 0.17824 0.26846
1580000000 0.29475 0.065118 -0.0082013 0.013234 -0.00089473 -0.004954 0.0014763 0.0020952
7.9346e-05 -0.0021028 -0.00034402 0.00043444
-0.0081982 0.013215 0.17524 0.29912 0.0051754 0.0084777 0.00051824 -0.001792
-0.00059615 -0.0011457 -0.00025353 -0.00085852
-0.00092156 -0.0049514 0.0052274 0.0084569 0.3311 -0.10745 -0.0018529 0.0008708
-0.00027665 -0.0011891 0.00017053 -0.00053352
0.0014819 0.0020849 0.00050391 -0.0017954 -0.0018596 0.0008725 0.22765 0.10275
-0.01364 0.0080398 0.0025578 0.00084539
6.4677e-05 -0.0021146 -0.00060514 -0.0011419 -0.00027588 -0.0011887 -0.013629 0.0080844
0.16245 0.16682 -0.0094 0.0069573
-0.00034149 0.00043739 -0.00025231 -0.00086123 0.00016788 -0.00053491 0.0025582 0.00083816
-0.009399 0.0069593 0.21164 0.24221
1640000000 0.29706 0.023723 -0.0015354 0.012294 -0.0027796 -0.0025769 0.0028442 0.0011085
-0.0004827 -0.0017498 -0.00040205 0.00069539
-0.001557 0.012278 0.2051 0.27396 0.0060095 0.0036235 -0.00077593 -0.0019022
-0.0011366 -0.00043138 -0.00052309 -0.00073172
-0.002789 -0.0025591 0.0060303 0.0035889 0.30308 -0.15696 -0.00064081 0.0017715
-0.0011272 -0.0012219 -0.00015787 -0.00034684
0.0028499 0.0010967 -0.00078627 -0.0019012 -0.00064161 0.0017651 0.2402 0.055856
-0.008867 0.010282 0.0028849 -0.00089539
-0.00048794 -0.0017521 -0.0011458 -0.00041908 -0.0011306 -0.0012226 -0.008836 0.010307
0.18533 0.144 -0.0046813 0.00918
-0.00040028 0.00070607 -0.00052791 -0.00072641 -0.00016153 -0.00034718 0.0028855 -0.00091121
-0.0046849 0.0091819 0.23807 0.21178
1700000000 0.28966 -0.021876 0.0019055 0.0094901 -0.0035531 2.784e-05 0.0032078 -0.0013499
-0.0020442 -0.00097232 0.00073655 0.00044413
0.0019018 0.0094872 0.22336 0.24205 0.0040894 0.00071837 -0.0016146 -0.00060821
-0.00086529 0.00014356 -0.00095645 -0.00051877
-0.0035485 4.8205e-05 0.0040982 0.00068584 0.25922 -0.19675 0.00080724 0.0017047
-0.0020927 -0.00036036 -0.00043122 -0.00089757
0.0032018 -0.0013626 -0.0016213 -0.00061334 0.00080912 0.0017043 0.23811 0.008052
-0.0052083 0.011686 0.001726 -0.0024349
-0.0020533 -0.00096072 -0.00086768 0.00014741 -0.0021007 -0.00035628 -0.0051905 0.011699
0.20309 0.12525 -0.00013313 0.0096765
0.00073934 0.00043606 -0.00096311 -0.00051062 -0.00043675 -0.00089619 0.0017192 -0.0024452
-0.00013024 0.0096765 0.25562 0.17751
1760000000 0.27741 -0.070582 0.0043276 0.0062798 -0.0022725 0.00098934 0.0012471 -0.0035755
-0.0015816 0.00057497 0.00043113 -0.00060602
0.0043184 0.0062789 0.24931 0.2019 0.0017844 -0.0011578 -0.0013255 0.00026646
-0.001053 0.0010433 -0.00064835 0.00046107
-0.0022679 0.0010055 0.0017757 -0.0011774 0.21026 -0.22971 0.0014132 0.00088563
-0.0014003 0.0015245 -0.0013397 -0.000516
0.0012278 -0.0035819 -0.0013192 0.00027225 0.0014114 0.00088863 0.23121 -0.041623
-0.00061217 0.010864 -0.00012912 -0.0028176
-0.0015754 0.00058847 -0.0010477 0.001057 -0.0013985 0.0015194 -0.00058808 0.010873
0.21856 0.091396 0.0040339 0.0072131
0.00042757 -0.00061201 -0.00064207 0.00046907 -0.0013356 -0.00051958 -0.00012925 -0.002816
0.0040323 0.0072134 0.26906 0.1403
1820000000 0.25252 -0.1079 0.0044515 0.0026472 -0.00021509 0.0024911 -0.0011592 -0.0031877
-0.0013479 0.00091222 7.9345e-06 -9.329e-05
0.0044484 0.0026536 0.25911 0.1714 -0.00041997 -0.00016226 -0.001298 0.0010464
0.00015104 0.0012963 -0.00060186 0.00060717
-0.00020121 0.0024991 -0.00042341 -0.00016052 0.15984 -0.24565 0.0014981 2.154e-05
-0.00018734 0.0024703 -0.0014311 0.00039041
-0.0011742 -0.0031803 -0.0012943 0.0010512 0.0014946 2.6949e-05 0.20388 -0.088406
0.0018321 0.0089315 -0.0017126 -0.0017461
-0.0013405 0.00092434 0.00016225 0.0013047 -0.00017008 0.0024723 0.001866 0.0089223
0.23677 0.063778 0.0048965 0.0036257
7.0805e-06 -9.4561e-05 -0.00059751 0.00061401 -0.001438 0.00039913 -0.001719 -0.0017408
0.0048974 0.003618 0.27227 0.10454
1880000000 0.21727 -0.14816 0.0023305 0.00032427 -0.00036638 0.0019942 -0.0030584 -0.00222
-0.00026905 0.0019817 7.1469e-05 -0.00062333
0.0023277 0.00032905 0.26326 0.12466 -0.0023053 0.0016333 -8.195e-05 0.0016487
0.00063654 0.0011105 7.3451e-05 0.00095294
-0.00035224 0.0019968 -0.0022962 0.0016599 0.10783 -0.25455 0.0014758 -0.00087499
0.0016171 0.0021098 -0.0011163 0.0013289
-0.0030758 -0.0022069 -8.1641e-05 0.0016478 0.0014716 -0.00087762 0.16607 -0.12953
0.0032403 0.0060848 -0.0024436 0.00033241
-0.00024691 0.0019888 0.00062948 0.001106 0.0016233 0.0021057 0.0032589 0.0060656
0.24048 0.032207 0.0053193 0.0015768
6.2761e-05 -0.00062669 8.5432e-05 0.00095507 -0.001115 0.0013317 -0.0024437 0.00033912
0.0053089 0.0015746 0.27314 0.070202
1940000000 0.17772 -0.17373 -3.287e-05 -0.0012928 0.001144 0.0021559 -0.003664 0.00065033
0.0015586 0.0011973 -0.00062931 -0.00053814
-3.217e-05 -0.0012803 0.26349 0.092789 -0.001167 0.0038321 0.0010781 0.0012083
0.0018366 0.00037626 0.00098903 0.00031647
0.0011645 0.0021502 -0.0011393 0.003845 0.061874 -0.24786 0.00028908 -0.0019545
0.0025858 0.00033081 0.00070131 0.0015289
-0.0036588 0.00066539 0.0010931 0.0011942 0.00028122 -0.0019507 0.11519 -0.16232
0.0025213 0.003642 -0.0016996 0.0016206
0.0015655 0.0011857 0.0018404 0.00035436 0.002595 0.00034154 0.0025359 0.0036253
0.24431 -0.006061 0.0039928 -0.0020186
-0.00064177 -0.00053406 0.00099206 0.00030736 0.00070457 0.001527 -0.0016981 0.0016198
0.003994 -0.0020219 0.26251 0.034656
2000000000 0.13125 -0.18857 -0.003776 0.00064427 0.0025075 0.00158 -0.0023874 0.0035377
0.0012988 0.00024564 -0.00068751 0.00076505
-0.0037641 0.00063668 0.24887 0.057338 -0.0009561 0.0056078 0.0014697 0.0004235
0.00115 -0.0012864 0.00039939 0.00019473
