!Keysight Technologies,M9804A,MY58100912,A.14.10.03
!Date: Thursday, April 27, 2023 10:28:33
!Correction: S11(C  6-Port  ) 
!S12(C  6-Port  ) 
!S13(C  6-Port  ) 
!S14(C  6-Port  ) 
!S15(C  6-Port  ) 
!S16(C  6-Port  ) 
!S21(C  6-Port  ) 
!S22(C  6-Port  ) 
!S23(C  6-Port  ) 
!S24(C  6-Port  ) 
!S25(C  6-Port  ) 
!S26(C  6-Port  ) 
!S31(C  6-Port  ) 
!S32(C  6-Port  ) 
!S33(C  6-Port  ) 
!S34(C  6-Port  ) 
!S35(C  6-Port  ) 
!S36(C  6-Port  ) 
!S41(C  6-Port  ) 
!S42(C  6-Port  ) 
!S43(C  6-Port  ) 
!S44(C  6-Port  ) 
!S45(C  6-Port  ) 
!S46(C  6-Port  ) 
!S51(C  6-Port  ) 
!S52(C  6-Port  ) 
!S53(C  6-Port  ) 
!S54(C  6-Port  ) 
!S55(C  6-Port  ) 
!S56(C  6-Port  ) 
!S61(C  6-Port  ) 
!S62(C  6-Port  ) 
!S63(C  6-Port  ) 
!S64(C  6-Port  ) 
!S65(C  6-Port  ) 
!S66(C  6-Port  ) 
!S6P File: Measurement: :
# Hz S  RI   R 50
500000000 -0.33725 -0.044209 -0.010367 -0.0020277 -0.0087062 0.013269 -0.0044326 0.012785
0.012228 0.0047192 -0.0042002 0.0092035
-0.010354 -0.0020374 -0.41888 -0.055443 0.0075531 -0.010639 0.0017617 0.01292
0.0073242 0.0021999 0.0015062 0.014498
-0.0086844 0.013275 0.0075719 -0.01066 -0.26727 0.20735 0.006601 0.0038517
-0.0026591 0.0082495 6.2178e-05 0.012451
-0.0043987 0.012801 0.0017909 0.012942 0.0065995 0.0038482 -0.33455 0.034677
-0.021512 -0.0052335 0.017285 0.027029
0.01222 0.004668 0.0073202 0.0021828 -0.0026532 0.0082447 -0.021512 -0.0052185
-0.21347 -0.21504 -0.028163 0.0060285
-0.0041441 0.0092374 0.0015617 0.014505 5.9193e-05 0.012431 0.017268 0.027011
-0.02815 0.0060143 -0.25967 -0.14208
560000000 -0.31805 0.12005 -0.023477 -0.063865 5.0368e-05 0.011976 0.0051205 0.011434
0.010761 0.0047829 0.0097906 0.0085517
-0.023485 -0.063801 -0.37674 0.10459 -0.04222 -0.036743 0.013814 0.0042683
-0.01332 -0.0055151 0.0031138 -4.4926e-05
7.9036e-05 0.011972 -0.042333 -0.036663 -0.18416 0.25658 -0.00021629 -0.0040209
0.020021 0.005407 0.0071488 -0.0056112
0.0051352 0.011421 0.013836 0.0042518 -0.00022264 -0.0040348 -0.31176 0.12893
0.0034326 -0.023164 0.0041094 -0.02269
0.010746 0.0047669 -0.013386 -0.0055094 0.020008 0.0054157 0.0033976 -0.023156
-0.28799 -0.03634 0.0096675 -0.049328
0.009816 0.0085103 0.0031442 -5.2062e-05 0.0071563 -0.0056036 0.0041133 -0.02267
0.0096674 -0.04934 -0.32847 0.0084615
620000000 -0.27642 0.10207 -0.023047 0.0085035 0.0034757 0.0089773 0.0083404 -0.0046744
0.011542 -0.00046181 0.0011855 -0.0018871
-0.023047 0.0084785 -0.40358 0.05643 -0.018361 0.0002938 -0.0013962 -0.0016557
0.011833 -0.0061118 0.0011181 -0.0028804
0.0035161 0.0089481 -0.018391 0.00033732 -0.15414 0.26619 -0.00056762 -0.005443
-0.0028873 -0.0028001 0.0090144 -0.003404
0.0083371 -0.0046778 -0.0014065 -0.0016501 -0.00057029 -0.0054455 -0.27079 0.14016
-0.039788 -0.019447 0.012734 0.027322
0.011546 -0.00047424 0.011821 -0.0061539 -0.0028839 -0.0028056 -0.039815 -0.019415
-0.20374 -0.075168 -0.044277 0.01451
0.0011696 -0.0019131 0.0011204 -0.0028933 0.0090102 -0.0034138 0.012738 0.027329
-0.044284 0.014492 -0.24768 -0.030627
680000000 -0.23676 0.19015 -0.026793 -0.014056 0.0051179 0.0051436 0.001959 -0.0071029
-0.0024879 -0.011377 0.0047146 -0.0076055
-0.026757 -0.014057 -0.38907 0.15587 -0.032407 -0.0015168 -0.0011505 -0.00064306
-0.0017449 -0.0093515 -0.0012635 -0.0021044
0.0051268 0.0051415 -0.032444 -0.0014374 -0.10231 0.28612 -0.00069358 -0.00099963
-0.001648 0.00032367 -0.0027671 -0.0094696
0.0019385 -0.0071179 -0.0011496 -0.00063915 -0.00069406 -0.00099563 -0.22389 0.19311
-0.024318 -0.0063342 -0.0098223 -0.012362
-0.0025322 -0.011371 -0.0017688 -0.0093531 -0.0016503 0.00033302 -0.02434 -0.0063239
-0.26289 0.024598 -0.0057142 -0.0065243
0.0046926 -0.0076212 -0.0012727 -0.0021036 -0.0027649 -0.009473 -0.0098211 -0.012357
-0.0057106 -0.0065214 -0.26146 0.076122
740000000 -0.19283 0.1847 -0.039547 0.027182 0.012867 -0.0052373 -0.0002985 -0.0042368
-0.0039125 -0.0027401 -0.0067512 0.0032377
-0.039526 0.02714 -0.33461 0.17466 -0.035433 0.034812 -0.00040184 -0.0061923
-0.01168 0.0066393 -0.0017465 -0.0063916
0.012852 -0.0052435 -0.035369 0.034942 -0.068384 0.28408 -0.0021612 0.0033277
-0.0024923 -0.005275 -0.0014182 0.00074333
-0.00029377 -0.0042187 -0.00039454 -0.0062113 -0.0021755 0.0033342 -0.20761 0.20134
-0.044149 -0.0072855 0.024034 0.016262
-0.0039027 -0.0027166 -0.011657 0.0067113 -0.0025087 -0.005284 -0.044181 -0.0072288
-0.1586 0.053993 -0.04448 -0.0011287
-0.0067483 0.0032809 -0.001787 -0.0063897 -0.0014089 0.00075038 0.024071 0.016247
-0.044478 -0.0011502 -0.25069 0.081728
800000000 -0.15922 0.22649 -0.022088 0.016723 0.0054032 -0.010406 -0.0044943 -0.002183
-0.0039965 0.0019964 0.0044852 0.00030604
-0.022087 0.016702 -0.33899 0.24497 -0.0078808 0.033747 -0.0024855 0.0020475
-0.00099534 0.0027568 0.00080433 0.0049567
0.0053561 -0.010416 -0.0077752 0.033809 -0.028044 0.30665 0.00049672 0.0016265
-8.4471e-05 0.0035877 -0.0019117 0.00068725
-0.0045065 -0.0021658 -0.0024866 0.0020584 0.00049857 0.0016355 -0.17815 0.23047
-0.028159 0.01439 0.014228 -0.010773
-0.0039864 0.0020211 -0.00097391 0.0027654 -8.1907e-05 0.0035856 -0.028149 0.014457
-0.21004 0.078589 -0.016917 0.019252
0.0044946 0.00028593 0.00083373 0.0049612 -0.0019102 0.00070223 0.014224 -0.010792
-0.01693 0.019243 -0.24755 0.13195
860000000 -0.12448 0.24651 -0.017437 0.030602 -0.0031273 -0.0097868 -0.0020111 0.00058561
0.0037853 0.0052907 -0.0037076 -0.0032881
-0.017441 0.030572 -0.2908 0.28673 0.0077026 0.033923 -4.103e-05 0.0020961
0.0036802 0.00049171 0.0034378 0.00091967
-0.0031599 -0.0097768 0.0078237 0.033931 0.019731 0.3143 -0.0006417 4.3353e-05
0.0027616 -0.0013925 0.0016401 0.0043669
-0.0020119 0.00060094 -2.1434e-05 0.0021132 -0.00064071 4.7165e-05 -0.14006 0.24072
-0.016825 0.01848 -0.0063549 -0.0089508
0.0038042 0.0052792 0.0036746 0.0004776 0.0027554 -0.0013897 -0.016814 0.018517
-0.158 0.13377 -0.026728 0.015105
-0.0037283 -0.0032809 0.0034417 0.00089483 0.0016434 0.0043736 -0.0063648 -0.008945
-0.026724 0.01509 -0.19639 0.18037
920000000 -0.10003 0.26871 0.0049761 0.037716 -0.0091796 -0.0045996 -0.0018318 0.001438
0.0009484 0.0020103 0.0028071 -0.0016179
0.0049471 0.037702 -0.26298 0.30798 0.027682 0.022044 0.0014721 0.0011724
0.007076 0.00030727 0.0042631 -0.0026823
-0.0092025 -0.0045746 0.027795 0.021989 0.065443 0.31505 0.0020834 6.4685e-05
0.001217 -0.00015923 0.00083247 -0.0011078
-0.0018354 0.0014438 0.0014821 0.0011838 0.002088 6.4361e-05 -0.11629 0.25749
-0.01099 0.031282 0.0045264 -0.0067734
0.00095827 0.0020066 0.0070814 0.00027214 0.0012214 -0.00016586 -0.010934 0.031316
-0.14983 0.13775 -0.0023552 0.027741
0.0028045 -0.0016262 0.0042733 -0.0027154 0.00082622 -0.0011067 0.0045258 -0.0067796
-0.0023701 0.027732 -0.20743 0.19393
980000000 -0.052991 0.2886 0.017152 0.029841 -0.0091218 0.0043537 0.0018245 0.0033096
0.0039521 -0.001316 -0.0030099 -0.0026024
0.017113 0.029834 -0.21 0.34217 0.032698 0.005017 0.0021449 -9.4505e-06
0.0017856 -0.0057763 -2.3818e-05 -0.0026095
-0.0091195 0.0043732 0.032761 0.0049245 0.11145 0.30867 0.00070557 -0.0012907
0.00050658 -0.0021204 0.0014793 -0.00019042
0.0018301 0.0032913 0.0021496 1.5171e-06 0.00069625 -0.0012828 -0.077434 0.26854
0.0082222 0.030941 -0.0091908 -0.0074076
0.003954 -0.0013362 0.0017501 -0.0058199 0.0005017 -0.002127 0.0082851 0.030945
-0.11966 0.16851 0.0049747 0.019737
-0.0030262 -0.0025822 -2.1383e-05 -0.0026254 0.0014828 -0.00019625 -0.0091967 -0.0073909
0.0049603 0.01974 -0.16494 0.24063
1040000000 -0.011365 0.29689 0.032729 0.018218 -0.0014191 0.006827 0.0024156 0.00080128
0.00039934 -0.0032639 1.9418e-05 -0.0013143
0.032685 0.018242 -0.17458 0.35508 0.029268 -0.014502 0.0015943 -0.0017783
-0.0019869 -0.0026329 -0.0010784 -0.0027981
-0.0014022 0.0068174 0.029256 -0.014622 0.15732 0.2951 -0.00047838 -0.0017127
-0.0015499 -0.0010951 -0.00047136 -0.0010019
0.0023982 0.00078685 0.0016009 -0.0017634 -0.00047432 -0.0017053 -0.050397 0.27833
0.020035 0.019008 -0.0021072 0.00064705
0.00038669 -0.0032677 -0.002027 -0.0026431 -0.0015332 -0.0010875 0.020084 0.018985
-0.087697 0.17517 0.012802 0.019567
3.0461e-06 -0.0013061 -0.0010886 -0.0028144 -0.00048532 -0.00099563 -0.0021032 0.00065319
0.012798 0.019579 -0.14486 0.26199
1100000000 0.033822 0.3052 0.035574 -0.0039617 0.0026762 0.0039415 0.0022508 -0.0011005
-0.0018627 -0.0031806 -0.0040453 -0.00027965
0.035548 -0.003931 -0.13131 0.37241 0.015262 -0.027517 6.5466e-05 -0.0018206
-0.0034525 -0.0011253 -0.0036502 -0.000656
0.0026936 0.00393 0.015183 -0.027603 0.20332 0.27518 -0.0019962 3.9778e-05
-0.0018718 0.00028407 -0.0011074 -0.0003572
0.0022487 -0.0011091 6.0401e-05 -0.0018186 -0.0019993 3.4007e-05 -0.010151 0.28348
0.02562 0.0056801 -0.0026525 -0.00059709
-0.0018739 -0.0031585 -0.0034679 -0.0011101 -0.0018664 0.00028422 0.025642 0.0056418
-0.070893 0.18996 0.019288 0.0092814
-0.0040487 -0.00025088 -0.0036556 -0.00064674 -0.0011171 -0.00035709 -0.0026556 -0.00059142
0.019275 0.0092883 -0.099137 0.29431
1160000000 0.085216 0.30046 0.023766 -0.020443 0.0026252 -0.00037005 -0.00025461 -0.0021094
-0.0040939 -0.00085749 -0.0010674 0.0039966
0.023762 -0.020399 -0.08799 0.37671 -0.003429 -0.029066 -0.0016378 -0.0018359
-0.0029475 0.002251 -0.0015405 0.0018338
0.0026248 -0.0003947 -0.0035508 -0.029066 0.24646 0.24475 -0.00096072 0.0018447
-0.00077672 0.0021032 -0.00096173 0.00024911
-0.00026427 -0.0021205 -0.0016421 -0.0018234 -0.0009532 0.0018492 0.029146 0.28053
0.022425 -0.010812 -0.0038552 0.0050876
-0.0040974 -0.00084266 -0.0029452 0.0022525 -0.00077247 0.0021037 0.022429 -0.010845
-0.036966 0.19946 0.018066 0.0013429
-0.0010518 0.0040078 -0.0015266 0.00183 -0.00096094 0.00023986 -0.0038392 0.0050972
0.018053 0.0013513 -0.052104 0.29724
1220000000 0.12954 0.28966 0.010623 -0.029711 -0.0015689 -0.00070837 0.00013622 -0.00074263
-0.0027264 0.0022448 0.0010304 0.0021022
0.010624 -0.029673 -0.04384 0.38918 -0.016633 -0.021283 -0.0026574 0.00037744
-0.0002777 0.0031046 -0.0010086 0.0019132
-0.00157 -0.0007133 -0.016747 -0.021234 0.28564 0.20604 0.00063807 0.0019654
0.00059009 0.0014257 0.00035582 0.00055627
0.00013789 -0.00074255 -0.0026562 0.00038679 0.00064022 0.0019633 0.068891 0.27217
0.011706 -0.017761 0.0015987 0.0012359
-0.0027177 0.0022619 -0.00025481 0.0030992 0.00058623 0.0014312 0.011687 -0.017781
-0.01561 0.20961 0.014593 -0.012508
0.0010298 0.0020977 -0.00099263 0.0019171 0.00036036 0.00055458 0.0016105 0.00123
0.014587 -0.012503 -0.022076 0.31587
1280000000 0.17925 0.26809 -0.0076027 -0.028273 -0.0018327 0.002518 -0.00077425 -0.0020859
-0.00090627 0.0030642 0.0025267 0.0014085
-0.0075791 -0.028255 0.0018912 0.38072 -0.023626 -0.008769 -0.0011511 0.0013735
0.0017437 0.0021231 0.00060403 0.0022247
-0.001826 0.0025212 -0.023705 -0.0086686 0.31637 0.16245 0.0017151 0.00014943
0.00133 0.00039771 0.00042305 0.00028035
-0.00077977 -0.0020808 -0.0011523 0.0013819 0.0017154 0.00015348 0.10568 0.2557
0.0018834 -0.0204 -0.00070761 0.00058431
-0.00088518 0.0030622 0.0017585 0.0021227 0.0013397 0.00039592 0.001842 -0.020414
0.020299 0.2146 0.0033503 -0.014745
0.0025388 0.0013966 0.00061073 0.002222 0.00042464 0.00028003 -0.00070735 0.00058987
0.0033548 -0.01474 0.026129 0.3196
1340000000 0.21633 0.2347 -0.01729 -0.018943 0.00097866 0.0045902 -0.001655 -0.0009265
0.0013841 0.0027371 0.0018672 -0.0012764
-0.017251 -0.018936 0.041531 0.37303 -0.021691 0.0039696 -0.00027316 0.0021103
0.0020998 0.00097607 0.0013318 0.00083724
0.00099756 0.0045869 -0.02169 0.0040836 0.33887 0.1145 0.0014389 -0.00092481
0.00087913 -0.00054733 4.5752e-05 0.00030099
-0.0016647 -0.00091666 -0.00026449 0.0021123 0.0014452 -0.00092712 0.13787 0.235
-0.0082592 -0.018158 0.00069008 0.00081492
0.0013963 0.002729 0.0021114 0.00096695 0.00088007 -0.00054362 -0.008301 -0.018151
0.048937 0.21097 -0.0029231 -0.013737
0.0018598 -0.0012965 0.0013422 0.00081851 4.8217e-05 0.00030172 0.0006876 0.00081926
-0.0029107 -0.013733 0.064597 0.31655
1400000000 0.24946 0.19701 -0.023136 -0.0075942 0.0052334 0.0030807 -0.0021554 0.00043405
0.0024054 0.0010045 0.00049307 -0.0015161
-0.023108 -0.0076007 0.079014 0.36038 -0.015041 0.012308 0.001401 0.0014647
0.0014354 -0.00077327 0.0013399 0.00017429
0.0052501 0.0030593 -0.014997 0.012402 0.35203 0.060834 0.00025577 -0.0018894
8.2644e-05 -0.00046079 0.0003424 0.00017968
-0.0021604 0.00043523 0.0014178 0.0014582 0.00025797 -0.0018982 0.16662 0.20623
-0.014963 -0.011509 -0.0008967 -3.8904e-05
0.0024111 0.0009827 0.0014233 -0.00078881 8.5089e-05 -0.00046284 -0.015006 -0.011478
0.081487 0.20846 -0.0093889 -0.0090061
0.00048492 -0.00152 0.0013426 0.00015998 0.00034581 0.0001789 -0.0008918 -4.007e-05
-0.0093773 -0.009019 0.11009 0.30722
1460000000 0.27262 0.15311 -0.020251 0.0045079 0.0056469 -0.0018311 -0.001705 0.0017698
0.0021082 -0.00022291 -0.00029839 -0.0011244
-0.020229 0.004485 0.11368 0.33874 -0.0063386 0.015361 0.0018929 0.00027437
0.00103 -0.0014049 0.0012617 -0.00070661
0.0056426 -0.0018614 -0.0062721 0.015412 0.35817 0.0063295 -0.0013281 -0.0015582
0.00016555 -0.00029307 0.00057977 -0.00032159
-0.0016896 0.0017775 0.0018956 0.00026052 -0.001311 -0.0015576 0.19205 0.17725
-0.017044 -0.004618 -0.00068481 0.0024968
0.0020952 -0.00022726 0.0010296 -0.0014084 0.00016843 -0.0002947 -0.017073 -0.0045797
0.11005 0.1952 -0.011243 -0.0030709
-0.00030652 -0.0011288 0.0012561 -0.00071698 0.00057633 -0.00032376 -0.00070598 0.0024998
-0.011237 -0.0030833 0.14393 0.28702
1520000000 0.28501 0.11154 -0.014794 0.010068 0.0033753 -0.0042228 -3.0979e-05 0.0026192
0.0023069 -0.001738 -0.0011947 -0.00034306
-0.014784 0.010053 0.1476 0.32403 0.0014024 0.013263 0.0018352 -0.00083828
3.6071e-05 -0.0012359 0.00036748 -0.0010632
0.0033541 -0.0042402 0.0014726 0.013271 0.35146 -0.050017 -0.0014045 -0.00046531
0.00069105 -0.00083314 0.00011761 -0.00018132
-2.457e-05 0.0026221 0.0018324 -0.00085151 -0.0014036 -0.00046371 0.21434 0.14049
-0.016967 0.0021638 0.0017767 0.0023465
0.0022975 -0.0017561 3.2738e-05 -0.001244 0.00069127 -0.00083795 -0.016973 0.0022031
0.13789 0.18305 -0.011597 0.0010719
-0.0011996 -0.00033561 0.00035836 -0.0010639 0.0001174 -0.00018133 0.0017845 0.0023455
-0.011595 0.0010673 0.1782 0.26842
1580000000 0.29473 0.065142 -0.008198 0.013244 -0.00089272 -0.0049558 0.0014749 0.0020882
9.0202e-05 -0.0021122 -0.00034439 0.00043294
-0.0082018 0.013221 0.17523 0.29914 0.0051819 0.0084706 0.00051942 -0.0017973
-0.0005909 -0.001154 -0.00024647 -0.00086053
-0.00090449 -0.0049528 0.00523 0.0084487 0.3311 -0.10744 -0.0018634 0.00087021
-0.00027537 -0.0011944 0.00016891 -0.00053301
0.0014874 0.0020918 0.00049864 -0.0018026 -0.0018558 0.00086745 0.22764 0.10276
-0.013657 0.0080492 0.0025515 0.00084345
7.5658e-05 -0.0021147 -0.00060448 -0.0011468 -0.00028011 -0.001192 -0.013643 0.0080971
0.16241 0.1668 -0.0094082 0.0069598
-0.00034477 0.00043971 -0.00025918 -0.00085848 0.00016544 -0.0005366 0.0025575 0.00083772
-0.0094072 0.0069614 0.21162 0.24222
1640000000 0.29707 0.023735 -0.0015362 0.012287 -0.0027774 -0.0025715 0.0028446 0.0011068
-0.00047737 -0.0017514 -0.00040385 0.00069977
-0.0015442 0.012278 0.20508 0.27398 0.0060065 0.0036209 -0.00077426 -0.0019017
-0.0011403 -0.00042588 -0.00052028 -0.00072291
-0.0027813 -0.0025618 0.0060292 0.0035925 0.30308 -0.15694 -0.00063206 0.0017653
-0.0011255 -0.0012184 -0.00015915 -0.00034845
0.002855 0.0010938 -0.00079186 -0.0018998 -0.00063312 0.0017675 0.2402 0.055856
-0.008882 0.010294 0.0028877 -0.00089517
-0.00048577 -0.001756 -0.0011539 -0.00041442 -0.0011316 -0.0012214 -0.0088537 0.010324
0.18524 0.14402 -0.0046926 0.0091861
-0.00040029 0.00070442 -0.00052728 -0.00072802 -0.00016249 -0.00034912 0.0028824 -0.00090498
-0.0046949 0.009183 0.2381 0.21178
1700000000 0.28962 -0.021888 0.0019206 0.0094964 -0.0035491 2.9699e-05 0.0032023 -0.0013484
-0.0020438 -0.00097199 0.00073626 0.000445
0.0019072 0.0094861 0.22338 0.24206 0.0040881 0.00072298 -0.0016143 -0.00060859
-0.00086335 0.00014444 -0.00095454 -0.00051351
-0.003551 4.977e-05 0.0040979 0.00069341 0.25923 -0.19673 0.00080947 0.0017023
-0.0020983 -0.00035219 -0.00043279 -0.00089609
0.0031981 -0.001363 -0.0016215 -0.00060388 0.00080376 0.0017 0.23813 0.0080607
-0.0052095 0.011704 0.0017236 -0.0024324
-0.0020579 -0.00096065 -0.0008728 0.00014938 -0.0021012 -0.00035131 -0.0051831 0.011722
0.20306 0.12526 -0.00014136 0.0096893
0.00074202 0.00043821 -0.00095883 -0.00050559 -0.00043953 -0.00089818 0.0017169 -0.0024436
-0.00013795 0.0096878 0.25562 0.17753
1760000000 0.27741 -0.07054 0.004335 0.006287 -0.002276 0.00099528 0.0012452 -0.0035764
-0.0015902 0.00057433 0.00043345 -0.00060661
0.0043206 0.0062763 0.2493 0.20191 0.0017809 -0.0011588 -0.0013236 0.00026727
-0.0010514 0.0010422 -0.00064883 0.0004688
-0.00227 0.0010027 0.0017744 -0.0011824 0.21027 -0.22969 0.0014194 0.00088544
-0.0014026 0.0015208 -0.0013344 -0.00052561
0.0012329 -0.0035802 -0.0013224 0.00027434 0.0014071 0.00088998 0.23121 -0.041619
-0.0006081 0.010883 -0.00012878 -0.0028147
-0.0015925 0.00059198 -0.0010444 0.0010571 -0.0013954 0.0015296 -0.00058285 0.010886
0.21848 0.091432 0.0040309 0.0072267
0.0004292 -0.00061071 -0.00064047 0.00046874 -0.0013414 -0.00051593 -0.00013347 -0.0028204
0.0040304 0.0072377 0.26901 0.14036
1820000000 0.25251 -0.10789 0.0044564 0.0026433 -0.00021639 0.0024882 -0.0011665 -0.0031872
-0.0013456 0.00092225 8.7014e-06 -9.3962e-05
0.004445 0.0026473 0.25911 0.17141 -0.00042416 -0.00016226 -0.0013058 0.0010417
0.00015232 0.001298 -0.00059132 0.00060274
-0.0001906 0.0024885 -0.00042352 -0.00016119 0.15985 -0.24563 0.0014924 1.7624e-05
-0.00017705 0.0024745 -0.0014395 0.00039798
-0.0011808 -0.0031791 -0.0013007 0.0010537 0.0014969 1.4728e-05 0.20388 -0.088412
0.0018428 0.0089337 -0.0017075 -0.0017465
-0.0013414 0.00092918 0.00017242 0.0012962 -0.00017246 0.0024731 0.0018745 0.0089409
0.23672 0.063845 0.0049043 0.0036356
1.0635e-05 -9.3203e-05 -0.0005946 0.00061303 -0.0014376 0.00039512 -0.0017128 -0.0017456
0.0049147 0.0036299 0.27225 0.10458
1880000000 0.21727 -0.14814 0.0023284 0.00031865 -0.00036109 0.0019967 -0.0030607 -0.0022186
-0.00026118 0.0019868 7.129e-05 -0.00062449
0.0023225 0.00032091 0.26323 0.12467 -0.0023015 0.0016442 -8.3833e-05 0.0016483
0.0006328 0.0011007 7.7721e-05 0.00095258
-0.00034865 0.0020025 -0.002295 0.0016505 0.10784 -0.25453 0.0014729 -0.00088308
0.0016252 0.0021079 -0.0011124 0.0013294
-0.0030662 -0.0022046 -7.9154e-05 0.0016425 0.0014695 -0.00087725 0.16609 -0.12952
0.0032517 0.0060852 -0.0024489 0.00032467
-0.000242 0.0019871 0.0006404 0.0011014 0.0016311 0.0021069 0.0032709 0.0060784
0.24049 0.032239 0.0053239 0.0015928
6.2438e-05 -0.00062991 8.4958e-05 0.00095339 -0.0011161 0.0013312 -0.0024406 0.00033175
0.0053217 0.0015821 0.27315 0.07017
1940000000 0.17774 -0.17372 -4.2208e-05 -0.001286 0.001142 0.0021552 -0.0036627 0.00065023
0.0015553 0.0012007 -0.00063301 -0.00053903
-4.0589e-05 -0.0012859 0.26351 0.092788 -0.0011664 0.0038294 0.0010807 0.001207
0.0018344 0.00037538 0.00098752 0.00031179
0.0011524 0.0021505 -0.0011422 0.0038474 0.061893 -0.24787 0.00028401 -0.0019519
0.0025836 0.00034326 0.00069929 0.0015272
-0.0036642 0.00066567 0.0010856 0.0012018 0.00028103 -0.0019525 0.11517 -0.16233
0.0025464 0.0036334 -0.0017074 0.001611
0.0015712 0.0011832 0.0018362 0.00035046 0.0025885 0.00033055 0.0025543 0.0036233
0.2443 -0.0059796 0.0040013 -0.0020216
-0.00064129 -0.00053475 0.00099135 0.00030773 0.00070447 0.0015297 -0.0016991 0.0016177
0.0039943 -0.0020166 0.26251 0.034609
2000000000 0.13127 -0.18856 -0.0037698 0.00064129 0.002508 0.0015745 -0.0023939 0.0035343
0.0012909 0.00024391 -0.00068915 0.00076617
-0.0037681 0.00064139 0.24886 0.057346 -0.00095669 0.0056078 0.0014658 0.00041289
0.0011426 -0.0012832 0.00039856 0.00019449
