!Keysight Technologies,M9804A,MY58100912,A.14.10.03
!Date: Thursday, April 27, 2023 10:28:33
!Correction: S11(C  6-Port  ) 
!S12(C  6-Port  ) 
!S13(C  6-Port  ) 
!S14(C  6-Port  ) 
!S15(C  6-Port  ) 
!S16(C  6-Port  ) 
!S21(C  6-Port  ) 
!S22(C  6-Port  ) 
!S23(C  6-Port  ) 
!S24(C  6-Port  ) 
!S25(C  6-Port  ) 
!S26(C  6-Port  ) 
!S31(C  6-Port  ) 
!S32(C  6-Port  ) 
!S33(C  6-Port  ) 
!S34(C  6-Port  ) 
!S35(C  6-Port  ) 
!S36(C  6-Port  ) 
!S41(C  6-Port  ) 
!S42(C  6-Port  ) 
!S43(C  6-Port  ) 
!S44(C  6-Port  ) 
!S45(C  6-Port  ) 
!S46(C  6-Port  ) 
!S51(C  6-Port  ) 
!S52(C  6-Port  ) 
!S53(C  6-Port  ) 
!S54(C  6-Port  ) 
!S55(C  6-Port  ) 
!S56(C  6-Port  ) 
!S61(C  6-Port  ) 
!S62(C  6-Port  ) 
!S63(C  6-Port  ) 
!S64(C  6-Port  ) 
!S65(C  6-Port  ) 
!S66(C  6-Port  ) 
!S6P File: Measurement: :
# Hz S  RI   R 50
500000000 -0.33718 -0.044274 -0.010443 -0.0020738 -0.0086889 0.01332 -0.004346 0.012765
0.012228 0.0047842 -0.0041893 0.0092112
-0.010312 -0.0020612 -0.41891 -0.055465 0.0076003 -0.010605 0.0017682 0.012908
0.0073449 0.0022223 0.00148 0.014526
-0.008608 0.013273 0.0075449 -0.010646 -0.26721 0.20734 0.0066174 0.0038583
-0.0026145 0.0082589 3.7236e-05 0.012451
-0.0043922 0.012672 0.0018033 0.012939 0.0065951 0.0038671 -0.33452 0.034598
-0.021506 -0.00521 0.017264 0.027049
0.012236 0.0046025 0.007304 0.002223 -0.0026095 0.0081972 -0.021533 -0.005244
-0.2134 -0.21519 -0.028154 0.0060248
-0.0039801 0.0091529 0.0016067 0.014551 0.00010276 0.012436 0.017411 0.026957
-0.028158 0.0060187 -0.25961 -0.14227
560000000 -0.31798 0.12048 -0.023435 -0.0639 -0.00010117 0.0121 0.0051776 0.011513
0.010827 0.0048112 0.0098488 0.0086533
-0.023226 -0.063714 -0.37682 0.10471 -0.042088 -0.036694 0.013773 0.0042254
-0.013287 -0.0054897 0.0031989 -3.14e-05
9.0271e-07 0.012101 -0.04226 -0.03668 -0.18423 0.25663 -0.00016568 -0.0040277
0.020045 0.0053868 0.0071613 -0.005551
0.0052624 0.011467 0.013878 0.0042603 -0.00016266 -0.0040217 -0.31184 0.12888
0.0034342 -0.023085 0.0040912 -0.022703
0.010798 0.0048029 -0.01335 -0.0054088 0.02005 0.0054427 0.0034114 -0.023114
-0.28795 -0.036486 0.0097497 -0.049385
0.0099883 0.0085962 0.003239 -2.5568e-05 0.0071802 -0.0055561 0.0040509 -0.022684
0.009763 -0.049322 -0.32842 0.0082655
620000000 -0.27643 0.10192 -0.023039 0.0084698 0.0035307 0.0089231 0.0084043 -0.0046735
0.011486 -0.0005187 0.0011179 -0.0018406
-0.023021 0.0084583 -0.40358 0.056384 -0.018367 0.0002852 -0.001414 -0.0016595
0.011823 -0.0061024 0.0011237 -0.0028587
0.0035735 0.0089552 -0.018375 0.00033589 -0.15417 0.26616 -0.00053033 -0.0054416
-0.0029154 -0.0028461 0.0090384 -0.0033816
0.0084627 -0.0046765 -0.0014143 -0.0016133 -0.00057997 -0.0054218 -0.27077 0.14014
-0.039907 -0.019521 0.012803 0.027322
0.0115 -0.00061521 0.011811 -0.0061472 -0.0029318 -0.0028014 -0.03988 -0.01939
-0.2036 -0.075116 -0.044377 0.014458
0.0011293 -0.0019023 0.0010755 -0.0028276 0.0089178 -0.0033877 0.012705 0.027291
-0.044359 0.014454 -0.24763 -0.030676
680000000 -0.23685 0.19016 -0.026745 -0.014069 0.0051001 0.0051178 0.001951 -0.0072196
-0.0025585 -0.011317 0.0045964 -0.0076117
-0.026729 -0.014081 -0.38908 0.15584 -0.032414 -0.0015284 -0.0011296 -0.00067301
-0.0017773 -0.0093282 -0.0012926 -0.0021162
0.0051078 0.0051101 -0.032447 -0.0014392 -0.10231 0.28609 -0.00066425 -0.0010101
-0.0016533 0.00031745 -0.0027874 -0.009505
0.0019375 -0.0071767 -0.0011528 -0.00066202 -0.00070019 -0.00098791 -0.22387 0.19311
-0.024386 -0.0063661 -0.009846 -0.012476
-0.0024279 -0.01131 -0.0017589 -0.0093258 -0.0016196 0.00033212 -0.024423 -0.0063249
-0.26294 0.024489 -0.0057936 -0.006453
0.004688 -0.0075598 -0.0012727 -0.0020863 -0.0028328 -0.0094356 -0.0098852 -0.012523
-0.0057932 -0.0064708 -0.26172 0.076043
740000000 -0.19283 0.1847 -0.039541 0.027191 0.012906 -0.005279 -0.00027463 -0.0042184
-0.0039115 -0.0027597 -0.0067184 0.003231
-0.039539 0.027153 -0.33465 0.17458 -0.035484 0.034839 -0.00036275 -0.006201
-0.011703 0.0066162 -0.0017991 -0.0064249
0.012878 -0.0052612 -0.035388 0.034969 -0.068392 0.28406 -0.002159 0.0033445
-0.0024866 -0.0052943 -0.0014052 0.00072157
-0.00031383 -0.0042491 -0.00039258 -0.0062122 -0.0021896 0.0033609 -0.20762 0.20137
-0.044201 -0.0073087 0.02403 0.01626
-0.003852 -0.0026963 -0.011651 0.0067631 -0.0024658 -0.0052664 -0.044249 -0.0072371
-0.15856 0.053946 -0.044499 -0.0011544
-0.0067754 0.0032724 -0.0018453 -0.0064549 -0.0014429 0.00075652 0.024049 0.016321
-0.0445 -0.0011891 -0.25079 0.081486
800000000 -0.15917 0.22638 -0.02208 0.016674 0.0053949 -0.010408 -0.0044842 -0.0021763
-0.0040112 0.0020255 0.0045039 0.00032711
-0.022057 0.016658 -0.33897 0.24493 -0.0078655 0.033752 -0.0024769 0.0020626
-0.0010122 0.0027387 0.00084874 0.004931
0.0053829 -0.010429 -0.0077632 0.033799 -0.028053 0.30664 0.00049316 0.0016309
-8.0128e-05 0.0035898 -0.0019029 0.00069409
-0.0044788 -0.0021766 -0.0024507 0.0020649 0.00048385 0.0016388 -0.17816 0.23045
-0.028151 0.014415 0.014187 -0.01075
-0.003999 0.0019692 -0.00099738 0.0027283 -6.3538e-05 0.0035813 -0.028146 0.014444
-0.21012 0.078575 -0.016911 0.019299
0.0045156 0.00035253 0.0008927 0.0049567 -0.0019157 0.00069565 0.01425 -0.010767
-0.016929 0.019271 -0.24775 0.1317
860000000 -0.1245 0.24651 -0.017485 0.030589 -0.0031452 -0.0097727 -0.0020163 0.00056444
0.0037713 0.0053083 -0.0036717 -0.0032726
-0.017465 0.030568 -0.29081 0.2867 0.0076846 0.033913 -4.6096e-05 0.0020933
0.003663 0.0004949 0.0034508 0.00087173
-0.0031666 -0.0097797 0.007806 0.033932 0.019691 0.31431 -0.00064365 4.4328e-05
0.0027508 -0.0013847 0.0016423 0.0043668
-0.0020179 0.00060128 -4.9433e-05 0.0021169 -0.00066043 5.0996e-05 -0.14008 0.24075
-0.016805 0.018498 -0.0063418 -0.0089162
0.003782 0.0053521 0.0036361 0.00048615 0.0027113 -0.0013831 -0.016831 0.018518
-0.15808 0.13383 -0.026735 0.015081
-0.0037631 -0.0032713 0.0034365 0.00088872 0.0016376 0.0043893 -0.0063396 -0.0089732
-0.026723 0.015047 -0.19648 0.18016
920000000 -0.099995 0.26865 0.0049621 0.037723 -0.0091679 -0.0045932 -0.0018309 0.001447
0.00095007 0.0020365 0.0028066 -0.0016151
0.0049288 0.037689 -0.26296 0.30794 0.027691 0.022047 0.0014632 0.001192
0.0070869 0.00032364 0.0042603 -0.0027
-0.0091935 -0.0045775 0.027794 0.021979 0.065448 0.31507 0.0020928 7.0504e-05
0.0012128 -0.00016123 0.00083087 -0.0011129
-0.0018254 0.0014514 0.0014943 0.0011871 0.0020963 7.1331e-05 -0.11632 0.2575
-0.011003 0.031285 0.0045663 -0.0067874
0.00093532 0.0020378 0.0070798 0.00029777 0.0012229 -0.00016939 -0.010926 0.031358
-0.14988 0.13779 -0.0023835 0.027766
0.00282 -0.0016467 0.0042743 -0.0027134 0.00084618 -0.0011118 0.0045282 -0.0067969
-0.0024075 0.027737 -0.20778 0.19353
980000000 -0.052995 0.28856 0.017125 0.029876 -0.0091344 0.0043447 0.0018302 0.0032985
0.0039503 -0.001345 -0.0030315 -0.0025894
0.017094 0.029855 -0.21001 0.34215 0.032718 0.0050267 0.0021351 -6.3998e-06
0.0017955 -0.0057855 1.4428e-05 -0.0026145
-0.0091114 0.0043752 0.032761 0.0049327 0.11144 0.30867 0.00069124 -0.0012877
0.0005086 -0.0021177 0.0014898 -0.00019436
0.0018261 0.0033034 0.0021395 1.0827e-05 0.00068934 -0.0012804 -0.077433 0.26853
0.0082121 0.030968 -0.0091961 -0.0073998
0.0039294 -0.0013509 0.0017631 -0.0058155 0.00051499 -0.0021364 0.0082756 0.030975
-0.11969 0.16853 0.0049805 0.019757
-0.0030069 -0.0025433 -3.4363e-05 -0.002594 0.0014871 -0.00018527 -0.009248 -0.0074074
0.0049659 0.019741 -0.16532 0.24034
1040000000 -0.011374 0.29687 0.032726 0.018249 -0.0014262 0.0068278 0.0024123 0.00080019
0.00040942 -0.0032641 -1.1033e-05 -0.0013107
0.032696 0.018256 -0.17458 0.35506 0.029277 -0.014512 0.0015957 -0.0017734
-0.0019836 -0.0026376 -0.0010669 -0.0028548
-0.0014053 0.0068189 0.02927 -0.014613 0.15731 0.2951 -0.00047882 -0.0017163
-0.0015421 -0.0011014 -0.00047729 -0.00099022
0.0024016 0.00077283 0.0016025 -0.0017713 -0.00047172 -0.0017102 -0.050377 0.27834
0.020043 0.019038 -0.0021039 0.00063068
0.00037046 -0.0032684 -0.002024 -0.0026408 -0.0015371 -0.0011055 0.020096 0.019
-0.087695 0.1752 0.012817 0.019615
-5.1036e-06 -0.0013466 -0.0010784 -0.0028319 -0.00046183 -0.00098986 -0.0021069 0.00063006
0.012793 0.019609 -0.1452 0.26183
1100000000 0.033794 0.30518 0.035591 -0.0039537 0.0026772 0.0039509 0.0022475 -0.0010987
-0.0018737 -0.0031739 -0.0040523 -0.00026931
0.035559 -0.0039285 -0.13134 0.37239 0.015266 -0.02751 7.6187e-05 -0.0018258
-0.0034556 -0.0011381 -0.0036432 -0.00066647
0.0026981 0.0039355 0.015175 -0.027599 0.2033 0.27519 -0.0019958 2.9454e-05
-0.001862 0.00027421 -0.0011227 -0.00036245
0.002237 -0.0011105 6.3423e-05 -0.0018261 -0.0019988 3.4364e-05 -0.010139 0.28348
0.025649 0.0056987 -0.0026508 -0.000604
-0.0018885 -0.003167 -0.003466 -0.001122 -0.0018746 0.00027754 0.025668 0.0056572
-0.070855 0.18996 0.019309 0.009314
-0.0040742 -0.00026538 -0.0036654 -0.00064422 -0.0011259 -0.00036456 -0.0026392 -0.00058831
0.019308 0.0092996 -0.099414 0.29418
1160000000 0.085163 0.30046 0.023776 -0.020452 0.0026148 -0.00037388 -0.00026249 -0.0020953
-0.0040875 -0.00086274 -0.0010785 0.0039887
0.023776 -0.020424 -0.08801 0.37668 -0.0034248 -0.029068 -0.0016406 -0.0018293
-0.002957 0.0022466 -0.0015229 0.0017938
0.0026229 -0.00039753 -0.0035464 -0.029071 0.24645 0.24476 -0.0009681 0.0018628
-0.00078727 0.0021034 -0.00095838 0.00024727
-0.00026448 -0.0021255 -0.0016424 -0.0018171 -0.00096235 0.0018508 0.02914 0.28052
0.022474 -0.010827 -0.0038573 0.0050735
-0.0041083 -0.00084638 -0.0029403 0.0022776 -0.00077801 0.0021107 0.022475 -0.010843
-0.036931 0.19946 0.018067 0.0013462
-0.0010739 0.0039967 -0.001518 0.0018378 -0.00093789 0.00024235 -0.0038445 0.0051157
0.018068 0.0013339 -0.052305 0.2972
1220000000 0.1295 0.28969 0.010624 -0.029723 -0.0015765 -0.00071987 0.00013673 -0.00073355
-0.0027295 0.0022379 0.0010117 0.0021076
0.010628 -0.029696 -0.043845 0.38915 -0.016623 -0.02129 -0.0026589 0.00036083
-0.00028292 0.0030952 -0.0010033 0.0019154
-0.0015742 -0.00072572 -0.01674 -0.021231 0.28562 0.20606 0.00064173 0.001959
0.00058636 0.001428 0.0003613 0.00055601
0.0001469 -0.00072983 -0.002659 0.0003857 0.00064389 0.0019624 0.068868 0.27215
0.011743 -0.017795 0.0016009 0.0012257
-0.002702 0.0022477 -0.00026699 0.0031145 0.00058343 0.0014412 0.011721 -0.017816
-0.015568 0.20958 0.014632 -0.012524
0.0010277 0.0021002 -0.0010011 0.0019251 0.00036078 0.00055151 0.0016022 0.0012359
0.014613 -0.012506 -0.022259 0.31587
1280000000 0.17922 0.26813 -0.0076016 -0.028299 -0.001841 0.0025041 -0.00076698 -0.0020857
-0.00090926 0.0030654 0.0025321 0.0014218
-0.0075856 -0.028274 0.0018707 0.38073 -0.023632 -0.0087737 -0.0011565 0.0013736
0.001747 0.0021363 0.0005987 0.002236
-0.0018351 0.0025152 -0.023697 -0.008671 0.31635 0.16248 0.0017202 0.00016011
0.0013423 0.00039999 0.00041653 0.00028424
-0.00077175 -0.0020842 -0.0011539 0.0013877 0.0017161 0.00016032 0.10566 0.25568
0.0018923 -0.020453 -0.00070365 0.00059009
-0.00088209 0.003068 0.0017697 0.0021267 0.0013396 0.0003941 0.0018504 -0.020461
0.020285 0.21453 0.0033576 -0.014766
0.0025324 0.0013989 0.00061342 0.0022344 0.00042282 0.00027608 -0.00072232 0.00058381
0.0033607 -0.014761 0.026004 0.31965
1340000000 0.21636 0.23474 -0.017302 -0.018957 0.00097632 0.0045952 -0.0016414 -0.00093199
0.0013768 0.0027339 0.001859 -0.0012796
-0.017269 -0.01895 0.041544 0.37299 -0.021693 0.003966 -0.00027139 0.0021216
0.0021015 0.0009847 0.0013361 0.00084013
0.00098872 0.0045867 -0.021699 0.004083 0.33888 0.11453 0.0014416 -0.0009319
0.00088282 -0.00054672 4.3709e-05 0.00030312
-0.0016505 -0.00092395 -0.00027013 0.0021192 0.0014378 -0.000929 0.13784 0.235
-0.0082687 -0.018216 0.00069014 0.00081965
0.0013867 0.0027289 0.0020978 0.00097695 0.00087013 -0.00054452 -0.0083113 -0.018198
0.048925 0.21089 -0.0029168 -0.013762
0.0018492 -0.0012779 0.0013427 0.00082869 4.5468e-05 0.00030127 0.00068808 0.00082756
-0.0029169 -0.013768 0.064442 0.3166
1400000000 0.24948 0.19704 -0.023155 -0.0075884 0.0052378 0.0030795 -0.002163 0.0004167
0.0024082 0.0010052 0.00049482 -0.0015217
-0.023125 -0.0076004 0.078985 0.36036 -0.015044 0.012304 0.001403 0.0014644
0.0014324 -0.00077259 0.0013362 0.00017098
0.0052503 0.0030627 -0.015002 0.012398 0.35203 0.060863 0.00025993 -0.0018905
8.3122e-05 -0.00046162 0.00034332 0.00018323
-0.0021554 0.00042612 0.0014113 0.0014532 0.00026172 -0.0018999 0.16657 0.20622
-0.015001 -0.011537 -0.00089981 -3.9993e-05
0.0024043 0.0009953 0.0014262 -0.0007932 8.384e-05 -0.00046237 -0.015044 -0.01149
0.081432 0.20838 -0.0093964 -0.0090493
0.00048554 -0.0015309 0.0013417 0.00016513 0.00035016 0.00017767 -0.00091487 -3.977e-05
-0.0093824 -0.0090568 0.10991 0.3073
1460000000 0.27268 0.15312 -0.020262 0.004516 0.0056533 -0.0018316 -0.0017045 0.0017686
0.0020978 -0.00021548 -0.00028505 -0.001113
-0.020244 0.0045021 0.11367 0.33875 -0.0063385 0.015354 0.0018885 0.00026987
0.0010253 -0.0014014 0.0012708 -0.00070631
0.005655 -0.0018646 -0.0062668 0.015411 0.35817 0.0063448 -0.0013215 -0.001533
0.00016326 -0.00029743 0.00059054 -0.0003256
-0.0017018 0.0017799 0.001882 0.00026845 -0.0013312 -0.0015415 0.19202 0.17729
-0.017101 -0.0046301 -0.00069074 0.0024997
0.0020974 -0.00022585 0.0010228 -0.0014149 0.00016165 -0.00029132 -0.017129 -0.0046032
0.10994 0.19514 -0.011261 -0.0030759
-0.00029385 -0.0011258 0.0012882 -0.00072129 0.00059153 -0.00032612 -0.00068623 0.0025079
-0.011256 -0.00307 0.14369 0.28714
1520000000 0.28507 0.11151 -0.014787 0.010086 0.0033703 -0.0042132 -3.483e-05 0.002621
0.0023183 -0.0017442 -0.0012012 -0.00034145
-0.014789 0.010065 0.14759 0.32402 0.0014005 0.013266 0.0018377 -0.00083256
3.959e-05 -0.001236 0.00036932 -0.0010658
0.0033464 -0.0042301 0.0014694 0.013266 0.35147 -0.049999 -0.0014164 -0.00046716
0.00068888 -0.0008286 0.00011979 -0.00017818
-2.5367e-05 0.0026287 0.0018345 -0.00084764 -0.0014136 -0.0004537 0.21431 0.14053
-0.017019 0.0021852 0.0017811 0.0023615
0.0023058 -0.0017679 1.8409e-05 -0.001248 0.00069121 -0.00082867 -0.017028 0.002226
0.13778 0.18303 -0.011618 0.0010854
-0.0011993 -0.00032518 0.00035031 -0.0010718 0.00010947 -0.00017735 0.0017707 0.0023566
-0.011609 0.0010769 0.17798 0.26861
1580000000 0.29473 0.065083 -0.0081847 0.013249 -0.00089417 -0.0049466 0.0014718 0.0020959
8.7441e-05 -0.0021288 -0.00034031 0.00043324
-0.0081877 0.013245 0.17522 0.29917 0.0051718 0.0084764 0.00052127 -0.0017956
-0.0006033 -0.0011556 -0.00025346 -0.00085819
-0.00092111 -0.0049481 0.0052292 0.0084582 0.33112 -0.10744 -0.0018669 0.00087134
-0.00027651 -0.0012002 0.00016949 -0.0005328
0.0014849 0.0020934 0.00050921 -0.0018063 -0.0018555 0.00087068 0.22763 0.10282
-0.01369 0.0080887 0.0025619 0.00086083
7.4064e-05 -0.002124 -0.0006133 -0.0011497 -0.00027454 -0.0011838 -0.013666 0.008142
0.16226 0.16683 -0.0094294 0.0069735
-0.00034672 0.00044191 -0.00025885 -0.0008692 0.00016205 -0.00053301 0.0025737 0.00085082
-0.009416 0.0069771 0.21146 0.2424
1640000000 0.29701 0.023692 -0.0015207 0.012295 -0.0027747 -0.0025744 0.002839 0.0011111
-0.00047973 -0.0017633 -0.0004097 0.00069897
-0.0015284 0.012289 0.2051 0.274 0.0060006 0.0036332 -0.00077294 -0.0019026
-0.0011463 -0.00042331 -0.00052434 -0.00072882
-0.002789 -0.0025711 0.0060334 0.0035973 0.30307 -0.15693 -0.00063378 0.0017744
-0.0011242 -0.001216 -0.00016121 -0.00035085
0.0028517 0.0010907 -0.00078549 -0.0019019 -0.00063848 0.0017683 0.24021 0.0559
-0.0088864 0.010344 0.0028991 -0.00088806
-0.00049752 -0.0017672 -0.0011489 -0.00041503 -0.0011379 -0.0012174 -0.0088611 0.010379
0.18516 0.14408 -0.0046921 0.0092076
-0.00039026 0.00070081 -0.00052818 -0.00073635 -0.00016816 -0.00034107 0.0029069 -0.00090243
-0.0046876 0.009209 0.23798 0.21189
1700000000 0.28955 -0.021899 0.0019318 0.0094929 -0.0035488 3.6167e-05 0.0032061 -0.0013569
-0.0020631 -0.00097934 0.00073737 0.00044406
0.0019178 0.0094822 0.22336 0.24207 0.0040826 0.0007233 -0.0016142 -0.00060435
-0.00085909 0.00014975 -0.00095055 -0.00051427
-0.0035542 6.7402e-05 0.0041026 0.00070255 0.2592 -0.19671 0.00080442 0.001695
-0.0021025 -0.00035041 -0.00042436 -0.00089984
0.0032016 -0.0013669 -0.0016265 -0.0005948 0.00080435 0.0016969 0.23816 0.0080984
-0.0051967 0.01176 0.0017328 -0.0024395
-0.0020807 -0.00097065 -0.00086076 0.00015438 -0.0021001 -0.00034985 -0.0051643 0.011772
0.20298 0.12535 -0.0001408 0.0097032
0.00074656 0.0004467 -0.00095166 -0.00050179 -0.00044514 -0.00090442 0.0017349 -0.0024584
-0.00013648 0.0097089 0.25552 0.17759
1760000000 0.27732 -0.070513 0.0043341 0.0062621 -0.002283 0.00098358 0.0012481 -0.0035805
-0.0015946 0.00058743 0.00043421 -0.00061031
0.0043209 0.006258 0.24934 0.20193 0.0017792 -0.0011569 -0.0013291 0.00026907
-0.0010478 0.0010486 -0.00064304 0.00046046
-0.0022687 0.00099551 0.0017818 -0.0011764 0.21028 -0.22965 0.0013986 0.00088218
-0.0014029 0.0015219 -0.00134 -0.00051575
0.0012387 -0.0035828 -0.0013284 0.00027512 0.0014125 0.00088474 0.23124 -0.04159
-0.00056643 0.010913 -0.0001184 -0.0028292
-0.0015976 0.00059997 -0.001042 0.0010623 -0.0014044 0.0015292 -0.0005372 0.010913
0.21847 0.091536 0.0040382 0.0072353
0.00043465 -0.00062215 -0.00063317 0.00046843 -0.0013477 -0.00050754 -0.00012396 -0.0028205
0.0040405 0.0072405 0.26898 0.14041
1820000000 0.25245 -0.10784 0.0044527 0.0026302 -0.00021728 0.0024754 -0.0011637 -0.0031822
-0.0013426 0.00091512 1.0417e-05 -9.8021e-05
0.004444 0.0026342 0.25915 0.17141 -0.0004218 -0.00016644 -0.0013152 0.0010359
0.0001542 0.0012846 -0.000602 0.00060817
-0.00020588 0.0024748 -0.00042267 -0.00016477 0.15988 -0.24564 0.0014962 1.5715e-06
-0.00017414 0.0024818 -0.0014451 0.00039939
-0.0011885 -0.0031766 -0.0013047 0.001052 0.0015001 5.2382e-06 0.2039 -0.088389
0.0019053 0.0089508 -0.0017031 -0.001753
-0.0013448 0.00093245 0.00016818 0.0012771 -0.00017307 0.0024649 0.0019202 0.0089575
0.23674 0.063931 0.0049193 0.0036433
2.141e-05 -0.00010556 -0.00059666 0.00060948 -0.0014264 0.0003822 -0.0017226 -0.0017577
0.004922 0.0036371 0.27222 0.10466
1880000000 0.21726 -0.14801 0.0023181 0.00031471 -0.00035818 0.00199 -0.0030649 -0.0022276
-0.00025129 0.0019896 7.2884e-05 -0.00063196
0.0023154 0.00031589 0.26326 0.12466 -0.0023043 0.0016316 -9.0937e-05 0.0016502
0.00062482 0.0011004 7.2908e-05 0.00094934
-0.0003471 0.0019861 -0.0022928 0.0016506 0.10783 -0.25452 0.0014667 -0.00087858
0.0016188 0.0021129 -0.0011196 0.0013233
-0.00307 -0.0022068 -7.3197e-05 0.0016519 0.0014656 -0.00088728 0.16613 -0.12952
0.0033087 0.0060693 -0.0024439 0.00032515
-0.00022846 0.0019946 0.00063421 0.0010984 0.0016341 0.0021016 0.0033396 0.0060585
0.24053 0.032331 0.005339 0.0015812
6.4238e-05 -0.00064162 7.7134e-05 0.00093961 -0.0011168 0.0013195 -0.0024615 0.00035096
0.0053417 0.0015843 0.27311 0.070307
1940000000 0.17779 -0.17363 -5.8716e-05 -0.0012844 0.0011268 0.0021506 -0.0036629 0.00064886
0.001558 0.0011989 -0.00064286 -0.00054409
-5.5636e-05 -0.0012895 0.26351 0.092779 -0.0011706 0.0038356 0.001082 0.0012129
0.0018275 0.00037619 0.00098278 0.00031301
0.0011429 0.0021485 -0.0011337 0.0038473 0.061918 -0.24784 0.00029929 -0.0019546
0.0025792 0.0003406 0.00070547 0.0015361
-0.0036536 0.00067617 0.0010804 0.0012065 0.00028777 -0.0019546 0.11523 -0.16237
0.0025758 0.0035844 -0.001719 0.0016041
0.0015814 0.001184 0.0018314 0.00035301 0.0025899 0.0003385 0.0025959 0.003594
0.24437 -0.0059277 0.0040235 -0.0020195
-0.00064773 -0.00053511 0.00099296 0.00031075 0.00072155 0.0015361 -0.001691 0.001612
0.0040087 -0.0020209 0.26251 0.034763
2000000000 0.13132 -0.18848 -0.0037862 0.00064926 0.0025077 0.0015791 -0.0023864 0.0035329
0.0012954 0.00023438 -0.00068946 0.00077016
-0.003777 0.000646 0.24886 0.057329 -0.00095702 0.0056046 0.0014669 0.00041739
0.0011432 -0.0012769 0.00040229 0.00019479
0.0025169 0.0015631 -0.0009198 0.0056192 0.018828 -0.23345 -0.0011866 -0.0012116
