!Keysight Technologies,M9804A,MY58100912,A.14.10.03
!Date: Thursday, April 27, 2023 10:28:33
!Correction: S11(C  6-Port  ) 
!S12(C  6-Port  ) 
!S13(C  6-Port  ) 
!S14(C  6-Port  ) 
!S15(C  6-Port  ) 
!S16(C  6-Port  ) 
!S21(C  6-Port  ) 
!S22(C  6-Port  ) 
!S23(C  6-Port  ) 
!S24(C  6-Port  ) 
!S25(C  6-Port  ) 
!S26(C  6-Port  ) 
!S31(C  6-Port  ) 
!S32(C  6-Port  ) 
!S33(C  6-Port  ) 
!S34(C  6-Port  ) 
!S35(C  6-Port  ) 
!S36(C  6-Port  ) 
!S41(C  6-Port  ) 
!S42(C  6-Port  ) 
!S43(C  6-Port  ) 
!S44(C  6-Port  ) 
!S45(C  6-Port  ) 
!S46(C  6-Port  ) 
!S51(C  6-Port  ) 
!S52(C  6-Port  ) 
!S53(C  6-Port  ) 
!S54(C  6-Port  ) 
!S55(C  6-Port  ) 
!S56(C  6-Port  ) 
!S61(C  6-Port  ) 
!S62(C  6-Port  ) 
!S63(C  6-Port  ) 
!S64(C  6-Port  ) 
!S65(C  6-Port  ) 
!S66(C  6-Port  ) 
!S6P File: Measurement: :
# Hz S  RI   R 50
500000000 -0.33973 -0.025126 -0.010795 -0.0033528 -0.0082668 0.012565 -0.0034646 0.011842
0.011156 0.0040292 -0.0039974 0.0080546
-0.010762 -0.0033489 -0.42025 -0.04173 0.0063837 -0.011636 0.0022596 0.012649
0.0069668 0.0020874 0.0022831 0.014157
-0.0082679 0.012552 0.0063715 -0.011644 -0.26476 0.21955 0.0069898 0.003592
-0.0018081 0.0080306 0.0016859 0.012234
-0.0034913 0.011816 0.0022534 0.012679 0.0069846 0.0036036 -0.33255 0.055566
-0.019513 -0.0066975 0.016058 0.024891
0.011212 0.0039863 0.0069777 0.0020661 -0.0018092 0.0080216 -0.019518 -0.0066808
-0.23326 -0.17833 -0.026334 0.0042614
-0.0040415 0.0079795 0.0022712 0.014168 0.0016826 0.01223 0.016065 0.024882
-0.026339 0.0042586 -0.2779 -0.10194
560000000 -0.31496 0.13523 -0.024703 -0.061374 0.00048491 0.012294 0.0064756 0.010243
0.010159 0.0038795 0.010612 0.0068441
-0.024581 -0.061282 -0.37605 0.11382 -0.041434 -0.034854 0.013533 0.0036551
-0.012147 -0.0031996 0.0031145 -0.00188
0.00049877 0.012274 -0.041578 -0.034791 -0.18173 0.26538 -0.00022739 -0.0043285
0.018412 0.0040034 0.0059471 -0.0062256
0.0065001 0.01024 0.013532 0.0036268 -0.00021651 -0.0043156 -0.30698 0.14453
0.00042459 -0.023316 0.0039472 -0.019375
0.010152 0.0039072 -0.012176 -0.0032092 0.018425 0.0040134 0.00038249 -0.023334
-0.28946 -0.0036875 0.006996 -0.047845
0.01066 0.0068548 0.0031931 -0.0018886 0.0059565 -0.0062142 0.0039605 -0.019382
0.0070114 -0.04788 -0.3303 0.039335
620000000 -0.27367 0.11833 -0.02302 0.0078262 0.0040827 0.0084351 0.0072319 -0.0043848
0.010876 -0.00058429 0.00074645 -0.0021947
-0.023006 0.0078038 -0.40208 0.069001 -0.018637 0.0005929 -0.0014601 -0.0018646
0.010731 -0.0067341 0.0011597 -0.0028407
0.0040911 0.0084052 -0.01867 0.00064177 -0.15048 0.27419 -0.00088493 -0.004916
-0.0035642 -0.0030086 0.0087764 -0.003431
0.0072068 -0.0043665 -0.0014861 -0.0018536 -0.00088779 -0.0049169 -0.26403 0.15457
-0.040405 -0.017167 0.012282 0.024967
0.010838 -0.00061421 0.010744 -0.0067687 -0.0035527 -0.0029947 -0.040431 -0.017168
-0.21077 -0.043059 -0.040335 0.015035
0.00071889 -0.0021711 0.0011701 -0.0028411 0.0087899 -0.0034371 0.01231 0.024966
-0.040346 0.015022 -0.25618 0.0088663
680000000 -0.22974 0.20174 -0.027432 -0.012877 0.0052032 0.0042146 0.0014677 -0.0069444
-0.0028261 -0.011131 0.0039965 -0.0073004
-0.027405 -0.012887 -0.38571 0.16496 -0.032018 -0.00015925 -0.0014959 -0.0007535
-0.0022062 -0.0090444 -0.0017457 -0.0021823
0.0052342 0.004204 -0.032058 -7.3173e-05 -0.0991 0.29335 -0.0012316 -0.00077294
-0.0018423 0.00021151 -0.0037218 -0.0086218
0.0014564 -0.0069825 -0.0014855 -0.00076097 -0.0012291 -0.00078142 -0.21848 0.20562
-0.025461 -0.0048322 -0.0093233 -0.0093976
-0.0028528 -0.011117 -0.0022381 -0.0090576 -0.0018283 0.00021529 -0.025491 -0.0047916
-0.25463 0.057401 -0.0065326 -0.0068856
0.0040125 -0.0073082 -0.0017398 -0.0021935 -0.0037299 -0.0086379 -0.0093412 -0.0093642
-0.0065378 -0.0068964 -0.25638 0.10876
740000000 -0.18538 0.1954 -0.036964 0.026949 0.012417 -0.0054995 -0.00070038 -0.004179
-0.005117 -0.0030743 -0.0052824 0.0028159
-0.036952 0.026938 -0.33307 0.18363 -0.032993 0.035028 -0.00072657 -0.005934
-0.012142 0.0075981 -0.0016342 -0.0058733
0.012431 -0.0055215 -0.032958 0.035166 -0.065237 0.29174 -0.0019302 0.0032956
-0.0031353 -0.0049466 -0.0019202 0.00061035
-0.00070993 -0.0041447 -0.0007262 -0.0059397 -0.0019363 0.003312 -0.20096 0.21354
-0.042374 -0.0033038 0.022848 0.013609
-0.0050885 -0.0030765 -0.012167 0.007668 -0.0031327 -0.0049531 -0.04241 -0.003244
-0.15888 0.079286 -0.040324 0.0037756
-0.0053002 0.0028498 -0.0016763 -0.0058937 -0.0019217 0.00058889 0.022872 0.013601
-0.040314 0.0037641 -0.24666 0.11698
800000000 -0.15261 0.23423 -0.021597 0.017079 0.0044144 -0.010539 -0.0044439 -0.0016981
-0.003503 0.0024528 0.0034169 0.00045349
-0.02158 0.017062 -0.33498 0.25301 -0.0070828 0.033454 -0.0026009 0.0022002
-0.00069308 0.0031747 0.00065632 0.0052458
0.0043951 -0.01055 -0.0069866 0.033498 -0.023776 0.31382 0.00055603 0.0015276
0.00039298 0.0038626 -0.0021831 0.00072471
-0.0044501 -0.0016922 -0.0026031 0.0022138 0.00055271 0.0015248 -0.17066 0.23982
-0.026995 0.016599 0.012722 -0.010812
-0.0035089 0.0024837 -0.00068434 0.0031693 0.00040033 0.0038705 -0.026984 0.016658
-0.19886 0.10669 -0.015849 0.019807
0.0034396 0.00044384 0.00068329 0.005245 -0.0021807 0.00073254 0.012737 -0.010826
-0.015864 0.019776 -0.23746 0.1652
860000000 -0.11751 0.25429 -0.01606 0.030785 -0.0036015 -0.0094812 -0.0023157 0.00094149
0.0040235 0.0047402 -0.0028056 -0.0025321
-0.016074 0.030757 -0.28674 0.29424 0.0088613 0.033086 0.00019264 0.0022114
0.0037595 0.00064451 0.0032287 0.00022588
-0.0036144 -0.0094529 0.008973 0.033093 0.025457 0.32096 -0.00042267 4.2564e-05
0.0024688 -0.0012465 0.0017593 0.0041421
-0.0023125 0.00094532 0.00018277 0.002223 -0.00042451 4.525e-05 -0.13336 0.25055
-0.01529 0.020051 -0.0059584 -0.0086513
0.0040521 0.0047314 0.0037764 0.00063918 0.0024569 -0.0012544 -0.015257 0.020072
-0.14635 0.15426 -0.022874 0.01629
-0.0028196 -0.002518 0.0032358 0.00022959 0.0017687 0.0041493 -0.0059818 -0.0086489
-0.022873 0.016272 -0.18556 0.2073
920000000 -0.091351 0.27637 0.0061726 0.036688 -0.0091422 -0.003831 -0.0015781 0.0018132
0.0017603 0.0015001 0.0025244 -0.0018151
0.0061372 0.036649 -0.25718 0.3142 0.028093 0.020428 0.001747 0.00090496
0.0071443 -0.00036541 0.0036832 -0.0029113
-0.0091544 -0.0038093 0.028191 0.020357 0.072005 0.32043 0.0019716 -0.00025214
0.0016479 -0.00038449 0.00071849 -0.0012314
-0.0015884 0.0018069 0.0017402 0.00091192 0.0019731 -0.00025327 -0.10744 0.26551
-0.007703 0.030822 0.0029837 -0.0066727
0.0017933 0.0015386 0.0071596 -0.00040869 0.0016533 -0.00037939 -0.0076581 0.030877
-0.13348 0.15874 -0.00035074 0.026141
0.0025205 -0.0018249 0.0036657 -0.0029317 0.00072076 -0.0012287 0.0029778 -0.0066811
-0.0003661 0.026134 -0.1891 0.2217
980000000 -0.044241 0.29401 0.018137 0.028593 -0.0084734 0.0046588 0.0019674 0.0031756
0.0038337 -0.0015974 -0.0031192 -0.0022723
0.018085 0.028553 -0.20473 0.34745 0.032345 0.0036192 0.0020567 -0.00013465
0.0015377 -0.0060843 -0.00052191 -0.0023161
-0.0084713 0.0046889 0.03241 0.0035189 0.11849 0.31335 0.00045405 -0.0013428
9.5886e-05 -0.002265 0.0013624 -0.00011216
0.0019926 0.0031764 0.0020354 -0.00014563 0.00045427 -0.0013469 -0.068964 0.27555
0.010231 0.028585 -0.0090824 -0.0065851
0.0038205 -0.0016294 0.001515 -0.0061145 8.2591e-05 -0.0022717 0.010295 0.028578
-0.10191 0.18566 0.0056844 0.018028
-0.0031226 -0.0022572 -0.00054204 -0.0023289 0.0013635 -0.00011458 -0.0090956 -0.0065863
0.0056736 0.018026 -0.14513 0.26408
1040000000 -0.00093979 0.30143 0.032789 0.01622 -0.00097576 0.006579 0.0024697 0.00065631
0.0002972 -0.0030634 -0.00088054 -0.0012951
0.032713 0.016217 -0.16889 0.36001 0.027937 -0.015287 0.0015032 -0.0017279
-0.0021917 -0.0022798 -0.0014369 -0.0026483
-0.00096071 0.006596 0.027922 -0.015416 0.16524 0.29835 -0.00057445 -0.0015494
-0.0016103 -0.00097148 -0.00059516 -0.0010112
0.002475 0.0006418 0.001483 -0.0017145 -0.0005786 -0.0015571 -0.040381 0.2845
0.020788 0.016056 -0.0023609 0.00090242
0.00027749 -0.0030376 -0.0022035 -0.0022955 -0.0016012 -0.00096897 0.020817 0.016044
-0.06958 0.19132 0.013616 0.016547
-0.0008724 -0.0012881 -0.0014787 -0.0026578 -0.00059614 -0.0010176 -0.0023638 0.00091358
0.013617 0.016547 -0.12136 0.28287
1100000000 0.043516 0.30794 0.034412 -0.0054631 0.0026165 0.0035917 0.0022781 -0.0009983
-0.0019349 -0.0029008 -0.0036257 -2.9661e-05
0.034372 -0.0054439 -0.12596 0.37659 0.013753 -0.02741 -1.8115e-05 -0.0018413
-0.0034079 -0.00091075 -0.0034034 -0.00052121
0.0026289 0.0035882 0.013678 -0.0275 0.21122 0.27678 -0.0019132 0.00019818
-0.0019391 0.00052208 -0.00095583 -0.00012009
0.0022813 -0.00099448 -2.5261e-05 -0.0018402 -0.0019122 0.00019385 4.808e-05 0.28781
0.024991 0.0029113 -0.0027886 -0.00030034
-0.0019661 -0.0028846 -0.0034095 -0.00090084 -0.0019417 0.00052171 0.024997 0.0028721
-0.051816 0.20382 0.018573 0.0067408
-0.0036198 -1.2969e-05 -0.0034075 -0.00050717 -0.00095799 -0.00011729 -0.0027803 -0.00029995
0.018571 0.0067413 -0.075696 0.30947
1160000000 0.095272 0.30213 0.02227 -0.021073 0.0022672 -0.00048554 -1.275e-06 -0.0019731
-0.0038133 -0.00058437 -0.00086051 0.003962
0.022242 -0.021049 -0.081408 0.38067 -0.0046048 -0.028047 -0.0016174 -0.0016202
-0.0027087 0.0026305 -0.0013853 0.0018303
0.0022563 -0.0004867 -0.0047069 -0.028064 0.25438 0.24491 -0.00086759 0.0017252
-0.00044144 0.0019409 -0.0007615 9.7908e-05
2.8241e-06 -0.0019761 -0.0016495 -0.0016046 -0.00086198 0.0017295 0.039791 0.28348
0.020319 -0.012417 -0.0032464 0.0045407
-0.0038342 -0.00055566 -0.0026916 0.0026257 -0.00043627 0.0019436 0.020298 -0.012447
-0.01812 0.21144 0.016931 -0.0010172
-0.00085388 0.0039707 -0.0013969 0.0018287 -0.00077041 9.9079e-05 -0.0032414 0.004562
0.016922 -0.0010172 -0.027669 0.31071
1220000000 0.13939 0.28923 0.0087289 -0.029309 -0.0016058 -0.00034828 0.00011193 -0.00095734
-0.0025203 0.0023276 0.0012544 0.0019024
0.0087383 -0.02928 -0.037567 0.39137 -0.016953 -0.019992 -0.0024956 0.00044165
-3.3002e-05 0.0029809 -0.00062457 0.0019594
-0.001617 -0.00035085 -0.017048 -0.019944 0.29267 0.20441 0.00077343 0.0018076
0.00069604 0.0013518 0.0003512 0.00060264
0.00012169 -0.00095624 -0.0025049 0.00045703 0.00077363 0.0018081 0.079392 0.27298
0.009538 -0.018447 0.0013446 0.0013077
-0.0025077 0.0023398 -1.4067e-05 0.0029769 0.00070197 0.001352 0.0095145 -0.018457
0.0049423 0.2182 0.012395 -0.013139
0.0012566 0.0018949 -0.00061428 0.0019465 0.00035426 0.00060184 0.0013481 0.0013057
0.012379 -0.013135 0.0042392 0.32454
1280000000 0.18842 0.26648 -0.0087545 -0.027015 -0.0015451 0.0029412 -0.00087329 -0.001952
-0.00064849 0.0028683 0.0024542 0.00097293
-0.0087296 -0.026989 0.0082857 0.38235 -0.023157 -0.0076496 -0.00098029 0.0014267
0.0016689 0.0018052 0.00067852 0.0018181
-0.0015426 0.0029472 -0.023219 -0.007551 0.3224 0.16017 0.0015786 9.4803e-05
0.0010976 0.00017033 0.00030181 0.00021155
-0.00088542 -0.0019532 -0.00097241 0.0014246 0.0015863 8.8783e-05 0.11569 0.25534
-0.00030392 -0.019957 -0.0005486 0.00053249
-0.000639 0.0028738 0.0016859 0.0017923 0.0011006 0.00017301 -0.00034084 -0.019962
0.040915 0.22088 0.0017169 -0.014648
0.0024708 0.00095812 0.00069293 0.0018141 0.00030279 0.00021373 -0.00054456 0.0005325
0.001718 -0.014654 0.050945 0.32433
1340000000 0.22511 0.23144 -0.017775 -0.017311 0.001375 0.0043696 -0.0016956 -0.00097506
0.0013483 0.0025725 0.0015877 -0.0014778
-0.017748 -0.017304 0.047845 0.37325 -0.020828 0.0046736 -0.00016166 0.0021223
0.0020853 0.00075812 0.0013924 0.00068624
0.0014049 0.0043652 -0.020826 0.0047716 0.34402 0.1115 0.0013307 -0.00098453
0.00067121 -0.00059947 7.7456e-05 0.00022903
-0.0017026 -0.00097002 -0.00015295 0.0021306 0.0013295 -0.00098124 0.14756 0.2331
-0.0097576 -0.016726 0.00055952 0.0011704
0.001354 0.0025545 0.0021013 0.00075168 0.00067133 -0.00060758 -0.0097858 -0.016714
0.070541 0.21494 -0.0046927 -0.012836
0.0015719 -0.001487 0.0013884 0.00068255 7.8154e-05 0.00022894 0.00055745 0.0011683
-0.0046897 -0.012832 0.089657 0.31741
1400000000 0.25686 0.19265 -0.022537 -0.0061714 0.0053251 0.002644 -0.0022392 0.00061045
0.0023122 0.00086813 0.00024038 -0.0013705
-0.022514 -0.0061873 0.084525 0.35998 -0.014014 0.012292 0.0014256 0.0013685
0.0012688 -0.00085259 0.0011245 6.5739e-05
0.0053401 0.0026239 -0.013973 0.012371 0.35606 0.05768 0.00015794 -0.0019943
7.8864e-05 -0.00038108 0.00029391 0.00021986
-0.0022324 0.00062049 0.0014301 0.0013584 0.00015655 -0.0019998 0.1755 0.20313
-0.015533 -0.0098874 -0.00056103 0.00041239
0.0023165 0.0008547 0.0012612 -0.00086032 7.3246e-05 -0.00038408 -0.015572 -0.0098538
0.10227 0.20969 -0.010563 -0.0077789
0.00022896 -0.0013648 0.0011253 5.208e-05 0.000292 0.00022128 -0.00056906 0.00041559
-0.010561 -0.0077853 0.13296 0.30475
1460000000 0.2794 0.14824 -0.019285 0.0052442 0.0054835 -0.0021896 -0.0015785 0.0017249
0.0019104 -0.00044556 -0.00030525 -0.00095253
-0.019275 0.0052167 0.11912 0.33796 -0.0057067 0.014813 0.0018123 0.00017854
0.00084475 -0.0013561 0.0011289 -0.00056403
0.0054799 -0.0022049 -0.0056514 0.014843 0.3617 0.003186 -0.0015352 -0.0014257
0.00010709 -0.00018821 0.00063661 -0.00038718
-0.0015716 0.0017275 0.0018053 0.00017457 -0.001532 -0.00143 0.20045 0.17327
-0.016768 -0.0027649 -0.00036823 0.0023794
0.0018981 -0.00045879 0.00083329 -0.0013529 0.00010615 -0.00019896 -0.016766 -0.002728
0.13112 0.19449 -0.011728 -0.0019623
-0.00029882 -0.00094905 0.0011236 -0.00056751 0.00063897 -0.00039074 -0.00035401 0.0023847
-0.01173 -0.001972 0.16584 0.28277
1520000000 0.29066 0.10544 -0.013476 0.010219 0.0029664 -0.0042469 8.0085e-05 0.0026314
0.0020634 -0.001606 -0.001144 -0.00017375
-0.013467 0.010198 0.15234 0.32224 0.0016098 0.012623 0.0017485 -0.00094981
-3.5412e-05 -0.0011789 0.00027677 -0.00098193
0.0029498 -0.0042631 0.0016749 0.012623 0.35411 -0.05378 -0.0014512 -0.00034469
0.00052055 -0.00090004 9.851e-06 -0.00010499
9.294e-05 0.0026346 0.0017402 -0.00096046 -0.0014422 -0.00035018 0.22145 0.1347
-0.01593 0.0033169 0.001927 0.0020005
0.0020633 -0.001622 -5.0499e-05 -0.0011834 0.00051454 -0.00090378 -0.015934 0.0033496
0.15829 0.17914 -0.011315 0.0024651
-0.0011383 -0.00016494 0.00027001 -0.00098077 8.1558e-06 -0.00010982 0.001927 0.0019986
-0.011308 0.0024634 0.19819 0.26068
1580000000 0.29902 0.059073 -0.0072134 0.012721 -0.0011253 -0.0046618 0.0015985 0.0020314
-9.1483e-05 -0.0021613 -0.00033049 0.00035601
-0.0072205 0.012706 0.17945 0.2974 0.005044 0.0079879 0.0003951 -0.0017601
-0.00055463 -0.0010783 -0.00020211 -0.00080491
-0.0011431 -0.0046501 0.0050942 0.0079738 0.33318 -0.11069 -0.0017152 0.0010501
-0.00033894 -0.00123 0.0001294 -0.00059534
0.0016089 0.002027 0.00039197 -0.0017609 -0.0017204 0.0010512 0.23364 0.096309
-0.012318 0.0086003 0.0025945 0.00043148
-9.4632e-05 -0.0021595 -0.00056195 -0.0010719 -0.00033494 -0.0012385 -0.012304 0.0086466
0.18175 0.16079 -0.0089644 0.0075651
-0.00033124 0.00036121 -0.00020704 -0.00080181 0.00012857 -0.00059732 0.0026006 0.00042619
-0.0089637 0.0075599 0.22917 0.23361
1640000000 0.30021 0.016876 -0.0010058 0.011422 -0.0027899 -0.0024975 0.0027835 0.00089111
-0.00063874 -0.0015418 -0.00033819 0.00068553
-0.0010183 0.011425 0.20902 0.27142 0.005642 0.0034865 -0.00088818 -0.0016942
-0.0011199 -0.00030596 -0.00051256 -0.00064636
-0.0028081 -0.0024822 0.0056751 0.0034564 0.30426 -0.15994 -0.000532 0.001689
-0.0012396 -0.00092741 -0.0001595 -0.0002889
0.0027817 0.00087177 -0.00090211 -0.0016916 -0.00054102 0.0016819 0.24471 0.048175
-0.0076576 0.010237 0.0026896 -0.0012212
-0.00065984 -0.0015402 -0.0011169 -0.0002997 -0.0012466 -0.00092491 -0.0076377 0.010265
0.20395 0.13528 -0.0041746 0.0094575
-0.00033186 0.00069032 -0.00052059 -0.00064163 -0.00016191 -0.00028753 0.0027029 -0.0012267
-0.0041673 0.009455 0.25444 0.20107
1700000000 0.29127 -0.02869 0.0020491 0.0087015 -0.0033958 0.00030609 0.0029168 -0.0014363
-0.0019767 -0.00084413 0.000744 0.00042435
0.0020361 0.0086951 0.22636 0.23948 0.0038422 0.00072887 -0.0015161 -0.00051797
-0.00075869 0.00023135 -0.00091428 -0.00040174
-0.0033999 0.00032277 0.0038526 0.00071559 0.26023 -0.19925 0.0008084 0.0015529
-0.0019839 -5.4179e-05 -0.00059132 -0.00080179
0.0028998 -0.0014447 -0.0015163 -0.00051218 0.00081293 0.0015455 0.24015 1.9158e-05
-0.0042618 0.010903 0.0014168 -0.0023078
-0.001976 -0.00082866 -0.00075688 0.00023204 -0.0019838 -4.575e-05 -0.0042375 0.010915
0.21966 0.11444 0.00041749 0.0096392
0.00074891 0.00042109 -0.00092465 -0.00039762 -0.00059981 -0.00080398 0.0014136 -0.0023208
0.00041975 0.009638 0.26932 0.16604
1760000000 0.27813 -0.077045 0.0039739 0.0055283 -0.0021985 0.00084713 0.0010792 -0.0035426
-0.0014897 0.0006794 0.00041886 -0.00049359
0.0039784 0.0055251 0.25221 0.199 0.0018135 -0.0012636 -0.001205 0.00031212
-0.00095742 0.00092755 -0.00058476 0.00052302
-0.0022033 0.00086428 0.0018018 -0.0012756 0.21207 -0.23259 0.0013627 0.00083937
-0.0011222 0.0016199 -0.0012844 -0.00034512
0.0010671 -0.0035484 -0.0011993 0.00032414 0.0013706 0.00083786 0.23164 -0.049327
-0.00033582 0.01012 -0.000328 -0.00259
-0.0014914 0.00068971 -0.00094809 0.00093768 -0.0011291 0.0016245 -0.00031141 0.010137
0.23374 0.078987 0.0040981 0.0069249
0.00040971 -0.00050393 -0.00058815 0.00052929 -0.0012775 -0.00033779 -0.00033366 -0.0025858
0.0041033 0.0069305 0.28159 0.1281
1820000000 0.25198 -0.11421 0.0039696 0.0022379 -2.9999e-05 0.0024838 -0.0013099 -0.0029086
-0.0012058 0.0010281 -5.817e-06 -0.00017421
0.0039665 0.0022395 0.26118 0.16813 -0.00026783 -0.00014686 -0.001177 0.0010441
0.00012086 0.0012419 -0.000503 0.00058917
-2.3722e-05 0.0024845 -0.00026612 -0.00014417 0.16081 -0.2486 0.0014442 -7.1144e-05
8.5047e-05 0.0022697 -0.0014256 0.00068849
-0.0013261 -0.0028933 -0.0011737 0.0010415 0.0014396 -6.3078e-05 0.20239 -0.095384
0.0017475 0.0081984 -0.0017921 -0.0015992
-0.0011952 0.0010401 0.00012621 0.001244 8.7976e-05 0.0022797 0.001779 0.008206
0.2493 0.04915 0.0050754 0.0033973
-6.6793e-06 -0.00017064 -0.00049956 0.00059163 -0.0014154 0.00069289 -0.0017911 -0.0015918
0.0050678 0.0033995 0.28271 0.090659
1880000000 0.21544 -0.15334 0.0016546 0.00021351 -0.00048381 0.0020513 -0.0030293 -0.0019164
-0.00022949 0.0018752 0.00020211 -0.00059881
0.0016544 0.00022274 0.26471 0.12173 -0.0024411 0.0015353 -5.8356e-05 0.0017017
0.00062223 0.0010186 0.00025564 0.00094726
-0.00048111 0.0020507 -0.0024312 0.0015503 0.1075 -0.25769 0.0013774 -0.00096183
0.0016888 0.0016806 -0.00071982 0.0013362
-0.0030391 -0.0019146 -4.4715e-05 0.001704 0.0013821 -0.00096178 0.16311 -0.13491
0.0028524 0.0055262 -0.0022832 0.00041795
-0.0002204 0.0018806 0.00063177 0.0010147 0.0016941 0.0016701 0.0028648 0.0055308
0.25095 0.016768 0.0049628 0.0013079
0.0002002 -0.00059697 0.00026294 0.0009467 -0.00071361 0.001342 -0.0022801 0.00042553
0.0049723 0.0013132 0.28145 0.056961
1940000000 0.17584 -0.17852 -0.00047211 -0.0010219 0.001428 0.0020163 -0.0036491 0.00069881
0.0014782 0.0011206 -0.0005402 -0.00067383
-0.00047084 -0.0010155 0.26452 0.089749 -0.0011908 0.0039482 0.0010191 0.0011267
0.0016846 0.00037135 0.00096471 0.0003341
0.0014351 0.0020008 -0.001161 0.0039648 0.061983 -0.25058 5.4672e-05 -0.0015377
0.0022673 0.00022736 0.00055142 0.0014434
-0.0036492 0.0007201 0.001026 0.0011262 5.2597e-05 -0.0015403 0.11208 -0.16592
0.0022846 0.0036832 -0.0012823 0.0013571
0.0014915 0.0011165 0.001692 0.00034846 0.0022729 0.00022987 0.0022987 0.0036782
0.25218 -0.022749 0.0037845 -0.0019907
-0.00054746 -0.00066671 0.00096626 0.00032595 0.00055889 0.0014413 -0.0012808 0.0013635
0.0037877 -0.0019978 0.26998 0.019888
2000000000 0.12813 -0.19211 -0.0041325 0.0010269 0.0026305 0.001558 -0.0021133 0.0033643
0.0012626 0.00015681 -0.00061794 0.00039722
-0.0041249 0.0010281 0.24924 0.054451 -0.00084628 0.0057418 0.0015818 0.00029632
0.0011029 -0.0013128 0.00046439 -6.7814e-05
