!Keysight Technologies,M9804A,MY58100912,A.14.10.03
!Date: Thursday, April 27, 2023 10:28:33
!Correction: S11(C  6-Port  ) 
!S12(C  6-Port  ) 
!S13(C  6-Port  ) 
!S14(C  6-Port  ) 
!S15(C  6-Port  ) 
!S16(C  6-Port  ) 
!S21(C  6-Port  ) 
!S22(C  6-Port  ) 
!S23(C  6-Port  ) 
!S24(C  6-Port  ) 
!S25(C  6-Port  ) 
!S26(C  6-Port  ) 
!S31(C  6-Port  ) 
!S32(C  6-Port  ) 
!S33(C  6-Port  ) 
!S34(C  6-Port  ) 
!S35(C  6-Port  ) 
!S36(C  6-Port  ) 
!S41(C  6-Port  ) 
!S42(C  6-Port  ) 
!S43(C  6-Port  ) 
!S44(C  6-Port  ) 
!S45(C  6-Port  ) 
!S46(C  6-Port  ) 
!S51(C  6-Port  ) 
!S52(C  6-Port  ) 
!S53(C  6-Port  ) 
!S54(C  6-Port  ) 
!S55(C  6-Port  ) 
!S56(C  6-Port  ) 
!S61(C  6-Port  ) 
!S62(C  6-Port  ) 
!S63(C  6-Port  ) 
!S64(C  6-Port  ) 
!S65(C  6-Port  ) 
!S66(C  6-Port  ) 
!S6P File: Measurement: :
# Hz S  RI   R 50
500000000 -0.33988 -0.025125 -0.010839 -0.003245 -0.008293 0.012523 -0.0034724 0.011852
0.011071 0.0040148 -0.0040222 0.0080772
-0.010844 -0.0033072 -0.42029 -0.041819 0.0063765 -0.011601 0.0022496 0.012621
0.0069498 0.0020789 0.0022615 0.014144
-0.0082438 0.012554 0.0063553 -0.011632 -0.26475 0.21946 0.0069485 0.0036145
-0.001827 0.0080095 0.0016485 0.012227
-0.0034441 0.011819 0.0023551 0.012625 0.0069567 0.0035919 -0.33263 0.055412
-0.019545 -0.0067239 0.016059 0.02491
0.011046 0.0040073 0.0069862 0.0021339 -0.0018241 0.0079934 -0.019525 -0.0067206
-0.23328 -0.17856 -0.026367 0.0042229
-0.003988 0.0080436 0.0024294 0.014073 0.0016696 0.012214 0.016065 0.024896
-0.026363 0.0041994 -0.27782 -0.10226
560000000 -0.31478 0.13492 -0.02463 -0.061399 0.00046039 0.012267 0.0064821 0.010278
0.010171 0.0038775 0.010633 0.0067435
-0.024677 -0.061363 -0.37603 0.11378 -0.041473 -0.03487 0.013519 0.0036629
-0.012163 -0.0032492 0.0030897 -0.0018604
0.00045287 0.012276 -0.041576 -0.034791 -0.18172 0.26528 -0.00021125 -0.0043311
0.018417 0.0040305 0.0059331 -0.0061889
0.0064974 0.010265 0.013525 0.0036043 -0.00022108 -0.0043157 -0.30702 0.14447
0.0003708 -0.023343 0.0038934 -0.01941
0.010206 0.0038767 -0.012293 -0.0032155 0.018419 0.0040234 0.00038192 -0.02331
-0.2897 -0.0039308 0.0069931 -0.048025
0.010679 0.0067678 0.0030382 -0.0019188 0.0059367 -0.0061994 0.003886 -0.019418
0.0069774 -0.047946 -0.33033 0.039154
620000000 -0.2735 0.11813 -0.022947 0.0077319 0.0041522 0.0084329 0.0072101 -0.0042661
0.010838 -0.00055078 0.00072847 -0.0021632
-0.022942 0.0077803 -0.40204 0.068871 -0.01864 0.00054251 -0.0015054 -0.0018331
0.010761 -0.0067068 0.0011655 -0.0028242
0.0041257 0.0083795 -0.01867 0.00059163 -0.15049 0.27409 -0.00090737 -0.0049297
-0.003539 -0.0029877 0.0087724 -0.0034153
0.0072292 -0.0043109 -0.0015284 -0.0017913 -0.00085344 -0.004879 -0.2642 0.15443
-0.040426 -0.017212 0.012154 0.02501
0.010847 -0.00054096 0.010827 -0.0067537 -0.0035641 -0.003 -0.040476 -0.01707
-0.2109 -0.043212 -0.040356 0.015033
0.00070943 -0.0021799 0.0011467 -0.0028391 0.0088278 -0.0034146 0.012162 0.025007
-0.040409 0.014978 -0.25629 0.0086971
680000000 -0.22977 0.20163 -0.027444 -0.012874 0.0051232 0.0041975 0.0014374 -0.0070526
-0.0027748 -0.011094 0.0039047 -0.0072494
-0.027417 -0.012913 -0.38574 0.16487 -0.032063 -0.00018653 -0.0014745 -0.00079835
-0.0021826 -0.0090575 -0.0017393 -0.0021859
0.0051594 0.0042115 -0.032076 -0.0001028 -0.099187 0.2933 -0.00124 -0.00076366
-0.0018239 0.00022159 -0.0036783 -0.0086188
0.0014192 -0.007017 -0.0014974 -0.00085216 -0.0012468 -0.00078755 -0.21849 0.20559
-0.025532 -0.0048156 -0.0093392 -0.0093731
-0.0027837 -0.01112 -0.0022729 -0.0090591 -0.0018418 0.00023412 -0.025525 -0.0048023
-0.255 0.05737 -0.0066421 -0.0069547
0.0039562 -0.0072649 -0.0017929 -0.0021186 -0.0037362 -0.0086134 -0.0093406 -0.0093796
-0.0066347 -0.0069109 -0.25638 0.10856
740000000 -0.18534 0.19514 -0.036992 0.026883 0.012442 -0.005507 -0.00070501 -0.0042282
-0.0051051 -0.0030892 -0.0052968 0.0027764
-0.036931 0.026853 -0.33316 0.18356 -0.033035 0.035 -0.00072631 -0.0059829
-0.012189 0.0075802 -0.0016176 -0.0059184
0.012407 -0.0055402 -0.032972 0.035159 -0.065274 0.2917 -0.001962 0.0032875
-0.0031137 -0.0049768 -0.0019611 0.00062443
-0.00070891 -0.0042434 -0.00082173 -0.005992 -0.001936 0.0033115 -0.20089 0.21342
-0.042431 -0.0032828 0.022833 0.013636
-0.0051635 -0.0030332 -0.012085 0.0077164 -0.0031385 -0.00499 -0.042518 -0.0032236
-0.15906 0.079458 -0.040461 0.0038561
-0.0053002 0.0027661 -0.0016714 -0.005913 -0.0019275 0.00063164 0.022849 0.013615
-0.04041 0.0037806 -0.24683 0.11692
800000000 -0.15271 0.23416 -0.021598 0.017118 0.0043746 -0.010462 -0.0044271 -0.0016986
-0.0034974 0.0024605 0.0034316 0.00045615
-0.021621 0.017093 -0.33502 0.25296 -0.0070973 0.033488 -0.002598 0.0022218
-0.00069926 0.0031476 0.00066695 0.0052572
0.0043773 -0.010494 -0.0069972 0.033516 -0.023869 0.31384 0.00055225 0.0015588
0.00038355 0.003855 -0.0021773 0.00073919
-0.0044552 -0.0016824 -0.0026034 0.0022038 0.00050044 0.0015291 -0.17076 0.2398
-0.026997 0.016657 0.012725 -0.010713
-0.0034723 0.0024828 -0.00068616 0.0031851 0.00038853 0.003877 -0.026963 0.016723
-0.1991 0.10689 -0.015871 0.019864
0.0034656 0.00047617 0.00065864 0.0051771 -0.002245 0.00075382 0.012752 -0.010716
-0.015913 0.01988 -0.23748 0.16514
860000000 -0.11758 0.2542 -0.01614 0.030785 -0.0036001 -0.0095073 -0.002346 0.00093472
0.0039982 0.0047457 -0.002828 -0.002523
-0.016124 0.030749 -0.2868 0.29424 0.0088325 0.033097 0.00014685 0.0021992
0.0037462 0.00067048 0.0031915 0.00026654
-0.0036182 -0.0094742 0.0089465 0.033104 0.025398 0.32093 -0.00043657 4.0396e-05
0.0024527 -0.001248 0.0017384 0.0041606
-0.0023189 0.00092911 0.0001556 0.0022426 -0.00040266 5.9027e-05 -0.13339 0.25046
-0.015268 0.020081 -0.0059209 -0.0087116
0.0040297 0.0047191 0.0037797 0.00062493 0.0024678 -0.0012545 -0.015276 0.020116
-0.1463 0.15455 -0.022909 0.016444
-0.0028675 -0.0025254 0.0032768 0.00026259 0.0017646 0.0041248 -0.0059593 -0.0086853
-0.022918 0.016388 -0.18575 0.2072
920000000 -0.091392 0.27631 0.0061132 0.036726 -0.0091157 -0.0038469 -0.0015524 0.0018172
0.0017563 0.0015708 0.0025445 -0.0018146
0.0061164 0.036674 -0.2572 0.31418 0.028099 0.020443 0.001743 0.00089745
0.0071611 -0.00033661 0.003685 -0.0029004
-0.0091325 -0.0038224 0.028172 0.020378 0.071952 0.32039 0.001983 -0.00025205
0.001637 -0.00036091 0.0007454 -0.0012304
-0.0015677 0.0018384 0.0017342 0.00088562 0.0019773 -0.00024655 -0.10752 0.26546
-0.0076893 0.030887 0.0030231 -0.0066453
0.0017803 0.0015193 0.0071704 -0.00037736 0.0016401 -0.00038341 -0.0076145 0.030901
-0.13339 0.15901 -0.00029426 0.026202
0.0025617 -0.0018064 0.0036423 -0.002932 0.00075001 -0.0012126 0.0030286 -0.006666
-0.00033215 0.026245 -0.18919 0.22155
980000000 -0.044361 0.29401 0.01813 0.028626 -0.008498 0.0046677 0.0019566 0.003168
0.0038507 -0.0015932 -0.0031234 -0.0022374
0.018077 0.028628 -0.20475 0.34743 0.032365 0.0036638 0.0020284 -0.00015503
0.0015922 -0.0060771 -0.00053765 -0.0023078
-0.008484 0.0046906 0.03241 0.003535 0.11844 0.31334 0.00046402 -0.0013497
0.00010053 -0.0022623 0.0013658 -0.00011527
0.0019705 0.0031436 0.0020182 -0.00015112 0.00045981 -0.0013479 -0.069046 0.27558
0.010288 0.028635 -0.0090212 -0.0066271
0.0038223 -0.0015875 0.0015864 -0.0061025 0.00010373 -0.0022506 0.010338 0.028623
-0.1017 0.18587 0.0057274 0.018142
-0.00315 -0.0022381 -0.00053143 -0.0022956 0.001371 -0.00011104 -0.0090366 -0.0065906
0.0057456 0.018123 -0.14538 0.26388
1040000000 -0.0010181 0.30134 0.032758 0.016285 -0.00097661 0.0065662 0.0024828 0.00065869
0.00029372 -0.0030636 -0.00083244 -0.0012956
0.032752 0.016304 -0.16885 0.35997 0.027996 -0.015274 0.0014765 -0.0017236
-0.0021529 -0.0023096 -0.0014495 -0.0026477
-0.00095737 0.0065741 0.027945 -0.015403 0.1652 0.29832 -0.00056994 -0.001563
-0.0016004 -0.00097789 -0.00058204 -0.0010372
0.0024799 0.00065592 0.0015036 -0.0017246 -0.00057066 -0.0015673 -0.040431 0.28446
0.020876 0.016106 -0.0023749 0.00089595
0.0002876 -0.003064 -0.0021698 -0.0023127 -0.0016229 -0.00098546 0.020916 0.016067
-0.069305 0.19142 0.01374 0.016609
-0.000845 -0.0012834 -0.0014675 -0.0026806 -0.00058393 -0.0010309 -0.0023713 0.00089501
0.013722 0.016606 -0.12154 0.2828
1100000000 0.043439 0.30794 0.034444 -0.0054457 0.0026349 0.0035975 0.0022822 -0.00098892
-0.0019352 -0.0029182 -0.003643 -2.9024e-05
0.034409 -0.0053927 -0.12598 0.37654 0.013781 -0.027403 -3.5773e-05 -0.0018438
-0.003402 -0.00094092 -0.0034189 -0.00051872
0.0026382 0.0036038 0.013691 -0.027483 0.21112 0.27677 -0.0019139 0.00019524
-0.0019506 0.00051356 -0.00095967 -0.00014116
0.0022877 -0.0010036 -5.7873e-05 -0.0018353 -0.0019138 0.00019407 1.2923e-05 0.28782
0.025093 0.0028994 -0.0027672 -0.00031117
-0.0019401 -0.0029035 -0.0034183 -0.00091157 -0.0019446 0.00051552 0.025112 0.0028509
-0.051571 0.20376 0.018718 0.0067487
-0.003643 -2.0356e-05 -0.0034124 -0.00049308 -0.0009509 -0.00013151 -0.0027765 -0.00030397
0.018703 0.0067646 -0.075918 0.30941
1160000000 0.095209 0.3021 0.02226 -0.02106 0.0022793 -0.00049223 1.5327e-06 -0.0019477
-0.0038371 -0.0006024 -0.00085079 0.0039452
0.022311 -0.021018 -0.081413 0.38066 -0.0045571 -0.028045 -0.0016504 -0.0016151
-0.0027108 0.0026236 -0.0014123 0.001823
0.0022788 -0.00050174 -0.0046943 -0.028069 0.2543 0.24492 -0.00086918 0.0017341
-0.00045654 0.0019355 -0.00077567 0.00010145
1.7478e-07 -0.0019562 -0.0016523 -0.0015733 -0.00087027 0.0017483 0.039774 0.28347
0.020388 -0.012504 -0.0032788 0.0044823
-0.0038443 -0.00059275 -0.0027312 0.0026235 -0.00045353 0.0019314 0.02038 -0.012525
-0.01794 0.21125 0.017123 -0.0010671
-0.00084072 0.0039585 -0.0013859 0.0017843 -0.00076893 0.00010138 -0.0032678 0.0044944
0.017089 -0.0010848 -0.027857 0.31076
1220000000 0.13936 0.28922 0.008803 -0.029339 -0.0016006 -0.00037902 0.00012649 -0.00093319
-0.0025333 0.0023146 0.0012401 0.0019193
0.008798 -0.029287 -0.037553 0.39133 -0.016944 -0.02 -0.0025003 0.00043771
-5.416e-05 0.0030021 -0.00063701 0.0019488
-0.0016033 -0.00036188 -0.017037 -0.019944 0.29256 0.20443 0.00076547 0.0018059
0.0006952 0.0013567 0.00034624 0.00060474
0.00012187 -0.00094365 -0.0024963 0.00042699 0.00077372 0.0018086 0.079349 0.27293
0.0095603 -0.01854 0.0013187 0.0012827
-0.0025195 0.0023304 -4.7533e-05 0.0030155 0.00069537 0.0013563 0.0095341 -0.018555
0.0050168 0.21795 0.012512 -0.013266
0.0012384 0.0019171 -0.00063623 0.001976 0.00034564 0.00060617 0.0013255 0.0012768
0.012492 -0.013251 0.0041553 0.32456
1280000000 0.18831 0.26648 -0.0087278 -0.027034 -0.0015593 0.0029195 -0.00086408 -0.0019679
-0.0006606 0.0028853 0.002442 0.00098262
-0.0086941 -0.027029 0.0082736 0.38236 -0.023131 -0.0076591 -0.00098172 0.0014189
0.0016731 0.0018146 0.00066579 0.0018441
-0.0015391 0.0029266 -0.023196 -0.0075652 0.32234 0.16025 0.0015872 9.1649e-05
0.0010975 0.00017576 0.00030273 0.00020636
-0.00086647 -0.0019624 -0.00098142 0.0014551 0.0015827 9.3806e-05 0.11567 0.25532
-0.00032499 -0.020066 -0.00060071 0.00051144
-0.00065766 0.0028755 0.0016864 0.0018107 0.0011002 0.00017273 -0.00035842 -0.020068
0.040869 0.22062 0.0017793 -0.014833
0.0024571 0.0009668 0.00069774 0.0018152 0.00030913 0.00021145 -0.00059999 0.00051897
0.0017812 -0.014814 0.05092 0.3244
1340000000 0.22507 0.23144 -0.017746 -0.017379 0.0013645 0.0043524 -0.0016966 -0.00098436
0.0013469 0.002567 0.0015935 -0.0014628
-0.017721 -0.017363 0.047839 0.37322 -0.020829 0.0046559 -0.00014863 0.0021253
0.0021065 0.00078021 0.0013796 0.00068885
0.0013828 0.0043504 -0.020827 0.0047617 0.34402 0.11157 0.0013372 -0.0009906
0.00067358 -0.00060616 8.1207e-05 0.00023433
-0.0017007 -0.0009762 -0.00014853 0.0020909 0.0013526 -0.00097384 0.14749 0.23306
-0.0098239 -0.016798 0.0005146 0.0011809
0.0013702 0.0025691 0.0021084 0.00076989 0.00067758 -0.00060508 -0.0098551 -0.016792
0.070445 0.21471 -0.0047469 -0.013026
0.0015916 -0.0014696 0.0013796 0.00069381 8.4623e-05 0.00023083 0.00051777 0.0011808
-0.0047344 -0.013029 0.089704 0.31738
1400000000 0.25676 0.19264 -0.022563 -0.006211 0.0052968 0.0026422 -0.0022322 0.00060783
0.0023055 0.00087524 0.00025809 -0.0013765
-0.022533 -0.0062321 0.084493 0.35997 -0.014028 0.012278 0.001409 0.0013663
0.0012953 -0.0008483 0.0011233 6.9216e-05
0.0053158 0.0026205 -0.013981 0.012361 0.35601 0.05772 0.00016567 -0.0019822
8.2445e-05 -0.00038832 0.00030711 0.00022205
-0.0022347 0.00061428 0.0014129 0.0013811 0.00014437 -0.0019918 0.17541 0.20309
-0.015638 -0.0099184 -0.00060998 0.00045303
0.0023253 0.0008566 0.0012946 -0.00087654 8.4972e-05 -0.00037757 -0.015664 -0.0098898
0.10202 0.20948 -0.01069 -0.0079195
0.00024955 -0.0013809 0.0011416 7.3646e-05 0.00029752 0.00022585 -0.00060914 0.00044611
-0.010684 -0.0079315 0.13298 0.3047
1460000000 0.27931 0.14828 -0.01933 0.0052134 0.005491 -0.0021834 -0.0015889 0.001715
0.0019277 -0.00044988 -0.00029369 -0.0009396
-0.019323 0.0051959 0.11909 0.33797 -0.0057308 0.014796 0.0018101 0.0001829
0.00085842 -0.0013668 0.001138 -0.00058454
0.0054715 -0.0021984 -0.0056661 0.014845 0.36172 0.0032417 -0.0015187 -0.0014477
0.00010874 -0.00019624 0.00064468 -0.00038778
-0.001581 0.0017203 0.001819 0.00015844 -0.0015207 -0.0014399 0.20036 0.17327
-0.016873 -0.0027473 -0.00036941 0.002419
0.0019274 -0.00045612 0.00085546 -0.0013782 0.00010933 -0.00019119 -0.016877 -0.002718
0.13087 0.1944 -0.011937 -0.0020171
-0.00030071 -0.00095086 0.0011162 -0.00057761 0.00064604 -0.00040074 -0.00036437 0.0024332
-0.011924 -0.0020361 0.16581 0.28272
1520000000 0.29056 0.10544 -0.013531 0.010222 0.0029506 -0.0042275 0.0001037 0.0026495
0.002065 -0.0016119 -0.0011681 -0.0002002
-0.013528 0.010192 0.15232 0.32225 0.0015847 0.01262 0.0017401 -0.00096181
-3.9088e-05 -0.0011916 0.00028016 -0.00097595
0.0029403 -0.0042427 0.001654 0.012624 0.35409 -0.053802 -0.0014637 -0.00035046
0.00051592 -0.00091694 2.2216e-05 -0.00010637
0.00010613 0.0026385 0.0017346 -0.00095496 -0.0014606 -0.00035162 0.22132 0.13475
-0.016033 0.0033827 0.0019452 0.0020499
0.0020675 -0.0016251 -6.2311e-05 -0.0012054 0.00052218 -0.00090568 -0.016033 0.003426
0.15802 0.17915 -0.011504 0.0025011
-0.0011547 -0.00018445 0.00028043 -0.00097229 1.3449e-05 -0.00010907 0.001951 0.0020448
-0.011506 0.0024979 0.19804 0.26059
1580000000 0.29891 0.059188 -0.0072562 0.012746 -0.001127 -0.004648 0.0016062 0.0020208
-6.9527e-05 -0.0021663 -0.00033667 0.00034488
-0.0072637 0.012736 0.17942 0.29743 0.0050263 0.0080044 0.00040006 -0.0017501
-0.00057656 -0.001071 -0.00020314 -0.00081244
-0.0011441 -0.004645 0.0050566 0.0079729 0.33313 -0.11064 -0.001715 0.0010602
-0.00034066 -0.0012355 0.00012117 -0.00060757
0.0016066 0.0020182 0.00039581 -0.0017558 -0.0017205 0.0010612 0.23355 0.096384
-0.012372 0.0087042 0.0026387 0.00046961
-8.8429e-05 -0.0021639 -0.00058852 -0.001064 -0.00035648 -0.0012478 -0.01236 0.0087324
0.18147 0.16091 -0.0091179 0.0076831
-0.00034833 0.00036051 -0.00022476 -0.00082018 0.00012477 -0.00060719 0.0026188 0.00046233
-0.0091086 0.0076736 0.22897 0.2336
1640000000 0.3002 0.016985 -0.0010312 0.011476 -0.0027803 -0.0024816 0.0027783 0.00090804
-0.00064832 -0.0015613 -0.00033734 0.00069038
-0.001037 0.011459 0.20904 0.27147 0.0056333 0.0035187 -0.00087944 -0.0016974
-0.0011279 -0.0002925 -0.00051912 -0.00063594
-0.0027905 -0.0024724 0.0056622 0.0034788 0.30427 -0.1599 -0.00053217 0.0016799
-0.0012544 -0.0009331 -0.00016773 -0.00029078
0.0027866 0.00089924 -0.0008967 -0.0016881 -0.00052925 0.0016954 0.24469 0.048264
-0.0076588 0.010347 0.0027262 -0.0012135
-0.00066062 -0.0015565 -0.0011359 -0.00028616 -0.0012542 -0.00093347 -0.0076362 0.010364
0.20381 0.13545 -0.0042552 0.0096253
-0.00033573 0.00068987 -0.0005133 -0.00063179 -0.00016532 -0.00029867 0.0027319 -0.0012163
-0.0042574 0.0096086 0.25424 0.2011
1700000000 0.29124 -0.028608 0.0020542 0.0087314 -0.0033764 0.00030583 0.002918 -0.0014342
-0.0019898 -0.00083875 0.00074621 0.00042517
0.0020526 0.0087359 0.22637 0.23951 0.0038555 0.00075015 -0.0015068 -0.00051803
-0.00074558 0.00025248 -0.00091464 -0.00041613
-0.0033688 0.00031407 0.003854 0.00072572 0.2602 -0.19922 0.00083027 0.0015429
-0.0019907 -4.2127e-05 -0.00059935 -0.00079076
0.0029022 -0.0014499 -0.0015202 -0.00050669 0.00081688 0.0015336 0.24011 0.00016243
-0.0042144 0.011011 0.0014769 -0.0023267
-0.0020113 -0.00082334 -0.00074646 0.00026088 -0.0019946 -3.6058e-05 -0.0042008 0.011028
0.21953 0.11461 0.00041593 0.0098161
0.00074666 0.00043699 -0.0009463 -0.00042915 -0.00061241 -0.00079256 0.0014697 -0.0023432
0.00041015 0.0098382 0.26911 0.16609
1760000000 0.27818 -0.07693 0.0040008 0.005555 -0.0021902 0.00084561 0.0010558 -0.0035463
-0.001503 0.00068487 0.00044004 -0.00047729
0.0039924 0.005559 0.25225 0.19903 0.0018182 -0.0012553 -0.0012 0.00030487
-0.00092905 0.00092757 -0.00059365 0.00051984
-0.002181 0.00085539 0.0018275 -0.0012696 0.2121 -0.23252 0.0013769 0.00084449
-0.0011176 0.0016158 -0.0012826 -0.00036226
0.0010504 -0.0035547 -0.0012093 0.00031954 0.0013877 0.00084252 0.2317 -0.049214
-0.00024017 0.010204 -0.00029657 -0.0026385
-0.0014933 0.00070404 -0.00092238 0.00092824 -0.0011008 0.0016341 -0.00021192 0.010205
0.23371 0.079223 0.0041656 0.0071169
0.00044227 -0.00049756 -0.00057964 0.0005249 -0.0012961 -0.00035767 -0.00030101 -0.002621
0.0041657 0.0070992 0.28144 0.12823
1820000000 0.25196 -0.11418 0.003983 0.0022535 -1.2739e-05 0.0024643 -0.0013083 -0.002907
-0.001203 0.0010448 -7.2463e-06 -0.00019741
0.0039822 0.0022543 0.26122 0.16812 -0.00024627 -0.00014564 -0.0011864 0.0010358
0.00013497 0.0012163 -0.00050166 0.0005842
-1.7302e-05 0.0024667 -0.00025245 -0.00014427 0.16081 -0.24861 0.0014267 -8.2013e-05
8.9594e-05 0.0022699 -0.0014291 0.00071737
-0.0013148 -0.0029189 -0.0011793 0.0010437 0.0014093 -9.0078e-05 0.20246 -0.095389
0.0018838 0.0082343 -0.001772 -0.0016256
-0.0011923 0.0010594 0.0001422 0.0012101 7.9055e-05 0.0022461 0.001901 0.0082234
0.24936 0.049357 0.0052068 0.0035205
-2.5807e-06 -0.0001825 -0.00050632 0.00058674 -0.001421 0.00072546 -0.0017801 -0.0016336
0.0051936 0.0035272 0.28259 0.090813
1880000000 0.21545 -0.15327 0.0016837 0.00022458 -0.00049455 0.0020285 -0.0030418 -0.0019234
-0.00022551 0.0018719 0.00020642 -0.00062282
0.0016891 0.00021942 0.26473 0.12174 -0.0024282 0.0015239 -5.5436e-05 0.001715
0.00060577 0.000998 0.00023177 0.00094272
-0.00049209 0.0020376 -0.0024203 0.0015436 0.10747 -0.25762 0.001366 -0.00096287
0.0016961 0.0016651 -0.00073195 0.0013368
-0.0030589 -0.0019017 -4.8264e-05 0.001717 0.0013619 -0.0009519 0.16316 -0.13489
0.0029916 0.0054966 -0.0022791 0.00034256
-0.00020347 0.0018698 0.00062732 0.0010023 0.0016867 0.0016709 0.0029895 0.0054993
0.25105 0.016932 0.0051521 0.0013467
0.00020063 -0.00062086 0.00026138 0.00095432 -0.00073074 0.0013382 -0.0022893 0.00035314
0.0051509 0.0013611 0.28132 0.057061
1940000000 0.17589 -0.17848 -0.00044601 -0.0010361 0.0014195 0.0020224 -0.0036472 0.00071304
0.0014874 0.0011149 -0.00057883 -0.00069315
-0.00043899 -0.0010274 0.26456 0.089722 -0.0011912 0.0039454 0.0010164 0.0011396
0.0016523 0.0003635 0.00096671 0.0003184
0.0014369 0.0020033 -0.0011715 0.0039663 0.061987 -0.25058 7.4395e-05 -0.0015467
0.0022506 0.00021826 0.00055897 0.0014333
-0.0036233 0.00073856 0.0010291 0.0011436 9.3937e-05 -0.0015521 0.11216 -0.16594
0.0023805 0.0035721 -0.0013147 0.0013306
0.0014955 0.0010975 0.00165 0.00035345 0.0022527 0.00021338 0.00242 0.0035779
0.25235 -0.022647 0.0039875 -0.0020273
-0.00058848 -0.00067951 0.00094418 0.00032041 0.00056282 0.001436 -0.001306 0.0013277
0.0039851 -0.0020345 0.26995 0.019988
2000000000 0.1281 -0.19204 -0.0041151 0.0010251 0.0026325 0.001576 -0.0020962 0.0033672
0.0012606 0.00016751 -0.00063689 0.00039673
-0.0041193 0.0010181 0.24921 0.054443 -0.00085948 0.0057314 0.0015949 0.00028299
0.0010929 -0.0012718 0.00046301 -7.0664e-05
