!Keysight Technologies,M9804A,MY58100912,A.14.10.03
!Date: Thursday, April 27, 2023 10:28:33
!Correction: S11(C  6-Port  ) 
!S12(C  6-Port  ) 
!S13(C  6-Port  ) 
!S14(C  6-Port  ) 
!S15(C  6-Port  ) 
!S16(C  6-Port  ) 
!S21(C  6-Port  ) 
!S22(C  6-Port  ) 
!S23(C  6-Port  ) 
!S24(C  6-Port  ) 
!S25(C  6-Port  ) 
!S26(C  6-Port  ) 
!S31(C  6-Port  ) 
!S32(C  6-Port  ) 
!S33(C  6-Port  ) 
!S34(C  6-Port  ) 
!S35(C  6-Port  ) 
!S36(C  6-Port  ) 
!S41(C  6-Port  ) 
!S42(C  6-Port  ) 
!S43(C  6-Port  ) 
!S44(C  6-Port  ) 
!S45(C  6-Port  ) 
!S46(C  6-Port  ) 
!S51(C  6-Port  ) 
!S52(C  6-Port  ) 
!S53(C  6-Port  ) 
!S54(C  6-Port  ) 
!S55(C  6-Port  ) 
!S56(C  6-Port  ) 
!S61(C  6-Port  ) 
!S62(C  6-Port  ) 
!S63(C  6-Port  ) 
!S64(C  6-Port  ) 
!S65(C  6-Port  ) 
!S66(C  6-Port  ) 
!S6P File: Measurement: :
# Hz S  RI   R 50
500000000 -0.33992 -0.025023 -0.01078 -0.0032894 -0.0082328 0.012538 -0.0035063 0.011849
0.011158 0.0040691 -0.004076 0.0079924
-0.010806 -0.0032547 -0.42019 -0.041735 0.0064344 -0.011617 0.0022303 0.012647
0.0069892 0.0020951 0.0022247 0.014143
-0.0082219 0.012551 0.0064201 -0.011656 -0.26474 0.21949 0.0069785 0.0036077
-0.0017854 0.0080497 0.0016551 0.012257
-0.0034639 0.011864 0.0022541 0.012659 0.006959 0.0036229 -0.33258 0.055467
-0.019554 -0.0066787 0.016072 0.024908
0.011111 0.0040664 0.0069853 0.0020705 -0.001798 0.0080421 -0.019579 -0.006682
-0.23325 -0.17844 -0.026436 0.004277
-0.0039827 0.0080763 0.0022622 0.014155 0.00167 0.012253 0.016064 0.024903
-0.026407 0.0042786 -0.27787 -0.10202
560000000 -0.31489 0.13499 -0.024693 -0.061337 0.0004546 0.0123 0.0065023 0.010259
0.010099 0.0038694 0.010602 0.0069031
-0.024655 -0.06134 -0.376 0.11385 -0.041442 -0.03485 0.01348 0.0036718
-0.012158 -0.0032007 0.0032265 -0.001886
0.00049623 0.012318 -0.041557 -0.03481 -0.18173 0.26535 -0.00022909 -0.0043249
0.018427 0.004034 0.0059384 -0.0062159
0.0064786 0.010258 0.013532 0.0036943 -0.00021709 -0.0043229 -0.30704 0.14452
0.00041707 -0.023332 0.0039753 -0.019348
0.010148 0.0038996 -0.012145 -0.0031895 0.018442 0.0040403 0.00041343 -0.023328
-0.28956 -0.0038153 0.0069944 -0.04784
0.010605 0.0068332 0.0032471 -0.0018909 0.0059365 -0.0062026 0.0039509 -0.019345
0.0070145 -0.047857 -0.33023 0.039278
620000000 -0.27358 0.11819 -0.023017 0.0078139 0.0040631 0.0083602 0.0072193 -0.004335
0.010807 -0.00059736 0.00069275 -0.002218
-0.02299 0.0078016 -0.40207 0.068942 -0.018654 0.00058797 -0.0014783 -0.0018706
0.010725 -0.0067266 0.0011922 -0.0028445
0.0041214 0.0083776 -0.018674 0.00063853 -0.15054 0.27413 -0.00088825 -0.0049408
-0.0035632 -0.0029934 0.0087623 -0.0034439
0.0072291 -0.0043601 -0.0014967 -0.0018564 -0.00093557 -0.0049534 -0.26408 0.15448
-0.040415 -0.017219 0.012292 0.024942
0.010806 -0.00056977 0.010732 -0.006746 -0.0035454 -0.0029188 -0.040529 -0.017154
-0.2108 -0.043144 -0.04038 0.015023
0.00072574 -0.0022189 0.0011685 -0.0028377 0.0087134 -0.003425 0.012255 0.024966
-0.040364 0.014992 -0.25622 0.0088044
680000000 -0.22973 0.20179 -0.02743 -0.012846 0.0052253 0.0042422 0.0014523 -0.0070215
-0.0028212 -0.011098 0.0040858 -0.0072634
-0.027405 -0.012853 -0.38569 0.16492 -0.032004 -0.00016565 -0.001477 -0.00079052
-0.0022167 -0.0090489 -0.0017102 -0.0021925
0.0052106 0.0042114 -0.032037 -8.592e-05 -0.099119 0.29333 -0.0012471 -0.00075786
-0.0018162 0.00021167 -0.0037095 -0.0086362
0.0014169 -0.0070183 -0.0014613 -0.00074042 -0.0012274 -0.00074102 -0.21853 0.20568
-0.025485 -0.0048192 -0.0092688 -0.0093435
-0.0028444 -0.011093 -0.0022058 -0.0090515 -0.0018009 0.0002052 -0.025497 -0.0047888
-0.25476 0.057419 -0.0065047 -0.0068702
0.0039645 -0.0072478 -0.0017089 -0.0022006 -0.0036783 -0.0086497 -0.0092967 -0.0093397
-0.0065059 -0.0068613 -0.25629 0.1086
740000000 -0.18537 0.19533 -0.03698 0.026936 0.012432 -0.0054813 -0.00069639 -0.0041807
-0.0051071 -0.0031233 -0.0053296 0.0028087
-0.036969 0.026877 -0.33308 0.18357 -0.033034 0.035031 -0.00071769 -0.0059472
-0.012145 0.0075898 -0.0016956 -0.0058617
0.012427 -0.005519 -0.032973 0.035147 -0.065253 0.29173 -0.0019434 0.0032915
-0.0031319 -0.0049418 -0.0019301 0.00057805
-0.00070348 -0.0042082 -0.00076019 -0.005964 -0.0019549 0.0032911 -0.20091 0.21347
-0.042401 -0.0032975 0.022869 0.013616
-0.0051475 -0.0030649 -0.012186 0.0076686 -0.0031385 -0.0049154 -0.042481 -0.003233
-0.15889 0.079281 -0.040325 0.0038265
-0.005318 0.0028121 -0.0016967 -0.0059047 -0.0019509 0.00061197 0.02289 0.013593
-0.040311 0.0037831 -0.24667 0.11694
800000000 -0.15262 0.23421 -0.021603 0.01707 0.0044177 -0.010514 -0.0044401 -0.0016954
-0.0034964 0.0024704 0.0034566 0.00046491
-0.021591 0.017056 -0.33501 0.25299 -0.0070713 0.033451 -0.002597 0.0022186
-0.00069116 0.0031474 0.00066589 0.0052401
0.004393 -0.010517 -0.0069904 0.033511 -0.023788 0.31381 0.00056292 0.0015461
0.00038465 0.0038559 -0.0021459 0.00072236
-0.0044528 -0.0016823 -0.0025933 0.0022234 0.00056537 0.001558 -0.17071 0.23982
-0.02702 0.016615 0.012755 -0.010769
-0.0034778 0.0024615 -0.00068252 0.0031545 0.00040121 0.0038403 -0.026993 0.016699
-0.19895 0.10672 -0.015868 0.019792
0.0034513 0.00045828 0.0006954 0.0052367 -0.0021252 0.00071906 0.012729 -0.010754
-0.015882 0.019777 -0.23743 0.16513
860000000 -0.11756 0.25427 -0.016088 0.030788 -0.003596 -0.0094448 -0.0023511 0.00092676
0.0040225 0.0047458 -0.002828 -0.0024903
-0.016079 0.030746 -0.28676 0.29423 0.0088591 0.033096 0.00018066 0.0022283
0.0037569 0.00063675 0.0032436 0.00024137
-0.0036155 -0.0094561 0.0089597 0.033105 0.025434 0.32097 -0.00042723 3.8399e-05
0.0024605 -0.0012407 0.0017489 0.0041592
-0.0023333 0.00092308 0.00017334 0.0022098 -0.00043859 2.3202e-05 -0.13335 0.25053
-0.015296 0.020059 -0.0059666 -0.0086873
0.0040275 0.0047278 0.0037517 0.00064059 0.0024452 -0.0012435 -0.015276 0.020107
-0.14638 0.15432 -0.022892 0.016267
-0.0028545 -0.0024971 0.0032216 0.00025402 0.0017362 0.0041802 -0.0059524 -0.0086852
-0.022862 0.01626 -0.18573 0.20722
920000000 -0.0914 0.27631 0.0061559 0.036701 -0.0091459 -0.0038302 -0.0015816 0.0017825
0.0017772 0.0015487 0.0025399 -0.0018289
0.0061354 0.036654 -0.25718 0.31419 0.028112 0.020423 0.0017518 0.00091932
0.0071578 -0.00039886 0.0036782 -0.0029094
-0.0091552 -0.0038167 0.028205 0.020374 0.071988 0.32044 0.0019747 -0.00025501
0.0016542 -0.00037822 0.00073585 -0.0012385
-0.001566 0.0018016 0.0017596 0.00090798 0.0019784 -0.00024536 -0.10748 0.2655
-0.0077085 0.03089 0.0029941 -0.0066428
0.0017684 0.0015241 0.0071517 -0.00041944 0.0016519 -0.00037231 -0.0076443 0.030935
-0.13346 0.15879 -0.00035041 0.026156
0.0025342 -0.0018381 0.0036666 -0.0029343 0.00072716 -0.0012367 0.0029882 -0.0066553
-0.000361 0.026146 -0.18916 0.22164
980000000 -0.044283 0.29403 0.018124 0.02859 -0.0084818 0.0046725 0.0019606 0.0031787
0.0038211 -0.0016001 -0.0031071 -0.0022584
0.018095 0.028576 -0.20473 0.34747 0.032384 0.0036215 0.0020349 -0.00010674
0.0015658 -0.0061046 -0.00050035 -0.0023427
-0.008467 0.0046896 0.032412 0.0035178 0.11848 0.31335 0.00045386 -0.0013513
0.00010209 -0.0022637 0.0013704 -0.00011089
0.0019757 0.0031655 0.0020335 -0.00013199 0.00045445 -0.0013565 -0.068993 0.27557
0.01026 0.028628 -0.0090953 -0.006625
0.0038196 -0.0016033 0.0015219 -0.0061065 9.3651e-05 -0.0022523 0.010323 0.028634
-0.10187 0.18573 0.0057233 0.018031
-0.0031315 -0.0022381 -0.00053035 -0.00232 0.0013636 -0.00011028 -0.0090792 -0.0065863
0.0057055 0.018022 -0.14527 0.26403
1040000000 -0.00098991 0.30136 0.032774 0.016224 -0.00099853 0.0065869 0.0024682 0.00063829
0.00026802 -0.0030385 -0.00086733 -0.0013041
0.032729 0.01623 -0.16887 0.36 0.027967 -0.015317 0.0015017 -0.0016992
-0.0021932 -0.002334 -0.00146 -0.0026814
-0.00096807 0.0065822 0.027923 -0.015413 0.16522 0.29835 -0.00057875 -0.0015585
-0.0015936 -0.00096936 -0.00059028 -0.0010195
0.0024835 0.00064849 0.0014831 -0.0017293 -0.00057295 -0.0015515 -0.040377 0.28451
0.020834 0.016105 -0.0023593 0.00089481
0.00027339 -0.0030505 -0.0022135 -0.0023167 -0.001594 -0.00096078 0.020899 0.016083
-0.069435 0.19137 0.01362 0.016556
-0.00085608 -0.0012927 -0.0014916 -0.0026569 -0.00058763 -0.0010139 -0.0023623 0.00089199
0.013613 0.016551 -0.12145 0.28282
1100000000 0.043503 0.30796 0.034431 -0.0054565 0.0026215 0.0036011 0.0022817 -0.00099608
-0.0019524 -0.0028932 -0.0036145 -4.6524e-06
0.034402 -0.0054285 -0.12597 0.37657 0.013766 -0.02742 -1.4512e-05 -0.0018343
-0.0033954 -0.00092964 -0.0033959 -0.00053436
0.0026341 0.0035953 0.013681 -0.027492 0.21119 0.27677 -0.0019165 0.00019401
-0.0019415 0.0005128 -0.00095321 -0.00012687
0.0022788 -0.0010078 -2.6317e-05 -0.0018468 -0.0019132 0.00019181 7.1675e-05 0.2878
0.02505 0.0029205 -0.0027719 -0.00031605
-0.0019445 -0.0028856 -0.0034134 -0.00091885 -0.0019452 0.00052376 0.025095 0.0028678
-0.051777 0.20377 0.018594 0.0067442
-0.0036318 -5.3807e-06 -0.0034094 -0.0005108 -0.00095265 -0.00012503 -0.0027792 -0.00029968
0.018591 0.0067418 -0.075762 0.30943
1160000000 0.095222 0.30212 0.022267 -0.021072 0.0022617 -0.00048609 8.8015e-06 -0.0019734
-0.0038348 -0.00058157 -0.00089099 0.0039674
0.02226 -0.021035 -0.081392 0.38066 -0.0045707 -0.028069 -0.0016313 -0.0015924
-0.0027004 0.0026154 -0.0013863 0.0018125
0.0022562 -0.0004888 -0.0047069 -0.028068 0.25435 0.24491 -0.00087389 0.0017274
-0.00044672 0.0019531 -0.00076791 0.00010217
4.3602e-06 -0.0019671 -0.0016427 -0.0016043 -0.00087049 0.0017295 0.039791 0.28345
0.020377 -0.01246 -0.0032388 0.0045449
-0.0038311 -0.00056733 -0.0027104 0.0026289 -0.00045373 0.0019425 0.020393 -0.012517
-0.018054 0.21137 0.01691 -0.0010237
-0.00084315 0.0039735 -0.001395 0.0018343 -0.00077193 0.00010039 -0.0032453 0.0045342
0.016923 -0.0010292 -0.027676 0.31067
1220000000 0.13936 0.28926 0.0087479 -0.029319 -0.0016114 -0.00035873 0.0001313 -0.0009544
-0.0025238 0.0023197 0.0012464 0.0019077
0.0087615 -0.029283 -0.037562 0.39135 -0.016932 -0.019997 -0.0025032 0.00045255
-3.5639e-05 0.0029767 -0.00062256 0.0019396
-0.0016093 -0.00034968 -0.017038 -0.019946 0.29265 0.20442 0.00076678 0.0018069
0.00069208 0.0013574 0.00034827 0.00060102
0.00012073 -0.00094591 -0.0025061 0.00045192 0.00077033 0.0018098 0.079392 0.27295
0.0095911 -0.018504 0.0013449 0.001299
-0.0025116 0.0023267 -2.8673e-05 0.0029786 0.00069493 0.0013635 0.0095768 -0.018555
0.0049614 0.2181 0.012375 -0.01314
0.0012553 0.0019073 -0.0006183 0.0019495 0.00035051 0.00060707 0.0013385 0.0012865
0.012382 -0.013147 0.0041886 0.32453
1280000000 0.18838 0.26648 -0.0087602 -0.027027 -0.0015484 0.0029279 -0.00088476 -0.0019603
-0.0006542 0.0028663 0.0024601 0.00096755
-0.0087282 -0.027006 0.0082622 0.38235 -0.023147 -0.0076605 -0.0009864 0.0014244
0.0016707 0.0018034 0.00068608 0.001825
-0.0015337 0.002934 -0.023209 -0.0075632 0.32238 0.16019 0.0015917 8.1903e-05
0.0010953 0.00016919 0.00029548 0.00021392
-0.00087996 -0.0019572 -0.00097621 0.0014355 0.0015937 9.0162e-05 0.11567 0.25529
-0.0002959 -0.020047 -0.0005511 0.00052478
-0.00065172 0.0028628 0.0016873 0.0018064 0.0011003 0.00017415 -0.00033977 -0.020088
0.040883 0.22076 0.0017173 -0.014641
0.002459 0.00096928 0.00070674 0.0018235 0.00029594 0.00021127 -0.00056483 0.00053237
0.0017094 -0.014645 0.050883 0.32436
1340000000 0.22509 0.23147 -0.017762 -0.017343 0.0013762 0.0043705 -0.0017003 -0.00097841
0.001339 0.0025655 0.0015899 -0.0014719
-0.017739 -0.017335 0.047842 0.37324 -0.020825 0.0046603 -0.00016178 0.0021209
0.0020856 0.00077004 0.0013856 0.00068582
0.0013942 0.004358 -0.020825 0.0047676 0.34402 0.11153 0.001328 -0.00098377
0.00067516 -0.00059912 7.5826e-05 0.00023142
-0.0016977 -0.00096518 -0.00015057 0.0021175 0.0013336 -0.00099764 0.14749 0.23308
-0.0097907 -0.016802 0.00054856 0.0011668
0.0013532 0.002562 0.0020915 0.00076265 0.00067107 -0.00059826 -0.0098423 -0.016817
0.070482 0.21483 -0.0046983 -0.012819
0.0015708 -0.0014906 0.0013916 0.00068175 7.7523e-05 0.00023409 0.00054399 0.001166
-0.0047024 -0.012831 0.089582 0.31742
1400000000 0.25684 0.19266 -0.022543 -0.0061901 0.0053136 0.0026456 -0.0022326 0.00060563
0.0023114 0.00087664 0.00024412 -0.0013747
-0.022516 -0.0061971 0.084509 0.35999 -0.014019 0.012287 0.0014179 0.0013716
0.0012781 -0.0008612 0.0011202 5.6093e-05
0.0053318 0.0026294 -0.013984 0.012369 0.35605 0.057685 0.00016383 -0.0019918
7.7457e-05 -0.00039072 0.00029357 0.00022193
-0.0022304 0.00061942 0.0014253 0.0013737 0.0001699 -0.0019871 0.17545 0.20312
-0.015605 -0.0099357 -0.00057921 0.0004137
0.002315 0.00086681 0.0012858 -0.00087102 7.102e-05 -0.00039575 -0.015666 -0.009918
0.10208 0.20962 -0.010569 -0.0077732
0.00023419 -0.0013697 0.001124 5.5359e-05 0.00030348 0.00022081 -0.00058903 0.00041532
-0.01057 -0.0077803 0.13293 0.30477
1460000000 0.27938 0.14826 -0.019299 0.005228 0.0054797 -0.0021839 -0.0015821 0.0017259
0.0019095 -0.00044336 -0.00029795 -0.0009477
-0.019283 0.005212 0.11909 0.33797 -0.0057208 0.014807 0.0018059 0.00017438
0.00084601 -0.0013558 0.0011304 -0.00057118
0.0054735 -0.0022062 -0.0056575 0.014849 0.3617 0.00321 -0.0015331 -0.0014391
0.00010907 -0.00019372 0.00063601 -0.00038647
-0.0015769 0.001733 0.0018162 0.00016734 -0.0015237 -0.0014409 0.20039 0.1733
-0.016862 -0.0027726 -0.00037359 0.0023879
0.0019139 -0.00045002 0.00083912 -0.0013516 0.00010793 -0.00018825 -0.016913 -0.0027239
0.13093 0.19453 -0.011726 -0.0019408
-0.00031212 -0.00092896 0.0011211 -0.00058329 0.00064157 -0.00038903 -0.00036799 0.0023952
-0.011736 -0.0019395 0.16578 0.28279
1520000000 0.29063 0.10544 -0.013496 0.010211 0.0029526 -0.0042416 9.8846e-05 0.0026318
0.0020678 -0.0016048 -0.0011472 -0.0001733
-0.013498 0.010189 0.15232 0.32223 0.0016002 0.012623 0.0017326 -0.00095481
-4.1039e-05 -0.0011842 0.00028319 -0.00098034
0.0029459 -0.0042624 0.0016687 0.012631 0.35409 -0.053801 -0.0014625 -0.00034075
0.00051534 -0.00090426 1.1812e-05 -0.00010828
0.00010651 0.0026304 0.0017359 -0.00095972 -0.001455 -0.00034588 0.2214 0.13476
-0.016017 0.0033595 0.0019192 0.0020012
0.0020728 -0.001617 -4.6569e-05 -0.0011856 0.00051063 -0.00091533 -0.016045 0.0034228
0.15812 0.17924 -0.011307 0.0024595
-0.001153 -0.00017365 0.00027528 -0.00097109 1.7234e-05 -0.00010471 0.0019392 0.0020092
-0.011308 0.002465 0.19811 0.26077
1580000000 0.29897 0.059098 -0.0072222 0.012727 -0.0011143 -0.0046592 0.0016 0.0020257
-7.8629e-05 -0.0021601 -0.00033837 0.00036101
-0.0072307 0.012713 0.17942 0.29741 0.0050359 0.0079932 0.00039934 -0.0017569
-0.00056117 -0.0010732 -0.00020716 -0.00080091
-0.0011421 -0.0046553 0.0050806 0.0079792 0.33314 -0.11068 -0.0017212 0.0010468
-0.00033828 -0.0012348 0.00012693 -0.00059427
0.0016034 0.0020153 0.00038948 -0.0017634 -0.001726 0.0010512 0.23363 0.096351
-0.012371 0.0086864 0.0026057 0.00043625
-8.3885e-05 -0.0021557 -0.00058374 -0.0010763 -0.00033903 -0.0012347 -0.012365 0.0087429
0.1816 0.16097 -0.0089371 0.0075634
-0.00032847 0.00035741 -0.00021197 -0.00080267 0.00012005 -0.00060437 0.0026142 0.00044606
-0.0089444 0.007576 0.22912 0.23365
1640000000 0.3002 0.016902 -0.0010183 0.011444 -0.0027941 -0.002499 0.0027795 0.00089303
-0.00065036 -0.0015624 -0.00034271 0.00068541
-0.0010227 0.011433 0.20902 0.27142 0.0056478 0.0034928 -0.00088583 -0.0016986
-0.0011241 -0.00030206 -0.00051463 -0.00063801
-0.0028019 -0.0024861 0.0056726 0.0034628 0.30428 -0.15994 -0.0005394 0.0016824
-0.0012391 -0.00092682 -0.00016287 -0.00028593
0.002778 0.000873 -0.00089753 -0.0016908 -0.00054806 0.0016754 0.24473 0.048227
-0.007669 0.010323 0.0027052 -0.001207
-0.00066411 -0.0015631 -0.0011336 -0.00029323 -0.0012427 -0.00092833 -0.007653 0.010371
0.20395 0.13546 -0.004148 0.0094501
-0.00034153 0.00069044 -0.00051638 -0.00064084 -0.00017267 -0.00028499 0.0027137 -0.0012135
-0.0041451 0.0094537 0.25438 0.20111
1700000000 0.29124 -0.028661 0.0020415 0.0087086 -0.003391 0.00030765 0.0029125 -0.0014355
-0.0019772 -0.00084468 0.00074457 0.00042605
0.0020395 0.0087139 0.22636 0.23949 0.0038451 0.00073472 -0.0015065 -0.0005176
-0.00075539 0.00023314 -0.0009265 -0.00040186
-0.0033949 0.00032841 0.0038526 0.00071883 0.26021 -0.19926 0.0008213 0.0015462
-0.0019822 -4.0986e-05 -0.00059283 -0.00080136
0.0029042 -0.0014427 -0.0015027 -0.00051381 0.00080843 0.0015548 0.24018 8.1311e-05
-0.0042065 0.010994 0.0014188 -0.0023135
-0.0019878 -0.00082847 -0.00076006 0.00024613 -0.0019847 -5.2867e-05 -0.0041928 0.011034
0.21971 0.1146 0.00041198 0.0096357
0.00074974 0.00042027 -0.00092374 -0.00039803 -0.00058898 -0.000795 0.0014415 -0.0023232
0.00042853 0.0096388 0.26932 0.16608
1760000000 0.27813 -0.076986 0.003979 0.0055408 -0.0021929 0.0008435 0.0010725 -0.0035467
-0.0015005 0.0006749 0.00041807 -0.00050774
0.003975 0.0055427 0.25222 0.19903 0.0018163 -0.0012581 -0.0012016 0.00031191
-0.00094624 0.00092759 -0.00058931 0.00053004
-0.0021923 0.00085125 0.0018127 -0.0012713 0.21209 -0.23255 0.0013815 0.00084745
-0.001123 0.0016126 -0.0012751 -0.00034015
0.0010586 -0.0035593 -0.0012036 0.00031322 0.0013759 0.00085183 0.23168 -0.049303
-0.00025982 0.010168 -0.00033893 -0.0025978
-0.0015022 0.00068069 -0.00093738 0.00093741 -0.0011189 0.0016216 -0.00022924 0.010199
0.23387 0.0791 0.0040918 0.0069052
0.00041763 -0.00049802 -0.00058212 0.00053366 -0.0012861 -0.00035035 -0.00031152 -0.0026019
0.0041026 0.0069042 0.28154 0.12812
1820000000 0.25195 -0.11417 0.0039788 0.0022437 -2.975e-05 0.0024918 -0.0013099 -0.0029159
-0.0011954 0.0010372 -5.7403e-06 -0.00016953
0.0039723 0.0022477 0.26117 0.16812 -0.00026576 -0.000145 -0.0011769 0.0010325
0.00011745 0.0012405 -0.00050186 0.00058359
-1.8397e-05 0.0024911 -0.00026634 -0.00014253 0.16081 -0.24862 0.0014293 -7.7782e-05
8.8304e-05 0.0022801 -0.0014238 0.00067636
-0.001321 -0.0028934 -0.001177 0.0010388 0.001426 -7.6757e-05 0.20241 -0.095419
0.0018459 0.008209 -0.0018088 -0.0015899
-0.001197 0.0010596 0.00013691 0.001223 9.2011e-05 0.002268 0.0018748 0.008241
0.2495 0.049119 0.0050461 0.0034088
-5.7628e-06 -0.00017447 -0.0004936 0.00058994 -0.0014184 0.00070406 -0.0018066 -0.0015979
0.0050565 0.0034007 0.28272 0.090726
1880000000 0.21546 -0.1533 0.0016617 0.00021987 -0.00048921 0.0020434 -0.0030308 -0.0019227
-0.0002246 0.0018726 0.00020918 -0.0005964
0.0016631 0.00022339 0.2647 0.12175 -0.0024341 0.0015298 -5.9184e-05 0.0017071
0.0006221 0.0010065 0.00025775 0.00095002
-0.00047938 0.0020547 -0.0024344 0.0015525 0.10748 -0.25766 0.0013782 -0.00095213
0.0016892 0.0016754 -0.00071373 0.0013482
-0.0030428 -0.0019099 -5.298e-05 0.0017196 0.0013805 -0.0009463 0.16314 -0.13488
0.0029216 0.0055046 -0.0022801 0.00039166
-0.00020512 0.0018645 0.00063305 0.0010016 0.0016868 0.001674 0.0029977 0.0055016
0.25103 0.016679 0.0049594 0.0013121
0.00020127 -0.00060486 0.00026039 0.0009435 -0.00072075 0.0013277 -0.0022679 0.00038098
0.004959 0.0013045 0.28143 0.057008
1940000000 0.17586 -0.17848 -0.00047049 -0.0010155 0.0014321 0.0020069 -0.003656 0.00070394
0.0014794 0.0011233 -0.00053753 -0.00066341
-0.00046604 -0.0010125 0.26452 0.089758 -0.0011918 0.003947 0.001008 0.0011373
0.0016758 0.0003572 0.00096946 0.00033317
0.0014413 0.0020079 -0.0011696 0.0039638 0.061973 -0.25057 5.0104e-05 -0.0015462
0.0022696 0.00022615 0.00055083 0.0014429
-0.0036585 0.00073415 0.0010076 0.0011251 4.7406e-05 -0.0015366 0.11216 -0.16598
0.0023521 0.0036268 -0.0013211 0.0013706
0.0014891 0.0011172 0.0016741 0.00033903 0.0022575 0.00022359 0.0024132 0.0036003
0.25221 -0.022836 0.0037619 -0.001967
-0.00055391 -0.00065975 0.00097925 0.00032292 0.00055557 0.0014417 -0.0013179 0.0013634
0.0037778 -0.0019513 0.26996 0.019901
2000000000 0.12815 -0.19208 -0.0041191 0.0010262 0.002618 0.001562 -0.0021183 0.0033502
0.0012451 0.00016296 -0.00060705 0.00040179
-0.0041274 0.0010273 0.2492 0.054458 -0.00084496 0.0057404 0.0015918 0.00029306
0.0011026 -0.0013039 0.00046416 -7.0329e-05
