!Keysight Technologies,M9804A,MY58100912,A.14.10.03
!Date: Thursday, April 27, 2023 10:28:33
!Correction: S11(C  6-Port  ) 
!S12(C  6-Port  ) 
!S13(C  6-Port  ) 
!S14(C  6-Port  ) 
!S15(C  6-Port  ) 
!S16(C  6-Port  ) 
!S21(C  6-Port  ) 
!S22(C  6-Port  ) 
!S23(C  6-Port  ) 
!S24(C  6-Port  ) 
!S25(C  6-Port  ) 
!S26(C  6-Port  ) 
!S31(C  6-Port  ) 
!S32(C  6-Port  ) 
!S33(C  6-Port  ) 
!S34(C  6-Port  ) 
!S35(C  6-Port  ) 
!S36(C  6-Port  ) 
!S41(C  6-Port  ) 
!S42(C  6-Port  ) 
!S43(C  6-Port  ) 
!S44(C  6-Port  ) 
!S45(C  6-Port  ) 
!S46(C  6-Port  ) 
!S51(C  6-Port  ) 
!S52(C  6-Port  ) 
!S53(C  6-Port  ) 
!S54(C  6-Port  ) 
!S55(C  6-Port  ) 
!S56(C  6-Port  ) 
!S61(C  6-Port  ) 
!S62(C  6-Port  ) 
!S63(C  6-Port  ) 
!S64(C  6-Port  ) 
!S65(C  6-Port  ) 
!S66(C  6-Port  ) 
!S6P File: Measurement: :
# Hz S  RI   R 50
500000000 -0.33985 -0.025085 -0.010845 -0.0032763 -0.0082702 0.012531 -0.0035061 0.011837
0.011128 0.0040361 -0.0040373 0.0080592
-0.010811 -0.0032939 -0.42027 -0.041793 0.006394 -0.011604 0.0022257 0.012636
0.00696 0.0020772 0.0022565 0.01413
-0.0082662 0.012515 0.0063674 -0.011626 -0.26476 0.21948 0.0069442 0.0036212
-0.0018014 0.0080128 0.0016576 0.012223
-0.0034217 0.011917 0.0022849 0.012645 0.0069554 0.0036162 -0.33261 0.055446
-0.019615 -0.0066979 0.016035 0.024895
0.011071 0.0040439 0.0069756 0.0020748 -0.0018055 0.0080038 -0.019591 -0.0066981
-0.23323 -0.1786 -0.026422 0.0042575
-0.0039262 0.0081595 0.0023299 0.014151 0.0016658 0.012228 0.01605 0.024906
-0.026427 0.0042407 -0.27791 -0.10209
560000000 -0.31473 0.13501 -0.024717 -0.061464 0.00045334 0.0123 0.00647 0.010286
0.01018 0.0039806 0.010606 0.0067933
-0.024668 -0.061421 -0.37612 0.11383 -0.041438 -0.034841 0.013516 0.0036908
-0.012119 -0.0032463 0.0031315 -0.0018529
0.00049483 0.012267 -0.041571 -0.034794 -0.18172 0.26531 -0.00021595 -0.0043238
0.018432 0.004058 0.0059228 -0.0061821
0.0065159 0.010173 0.013505 0.0036395 -0.0002284 -0.0043252 -0.30702 0.1445
0.00040622 -0.023354 0.003907 -0.01938
0.010189 0.0038059 -0.012155 -0.003276 0.018418 0.0040375 0.00039124 -0.023314
-0.28973 -0.0040697 0.0069922 -0.04801
0.010572 0.0067138 0.00305 -0.0018758 0.0059367 -0.0061658 0.0039038 -0.019383
0.0069803 -0.047998 -0.33032 0.039225
620000000 -0.27349 0.11821 -0.022965 0.0077808 0.0041212 0.0084128 0.0072141 -0.0043215
0.010756 -0.0004815 0.00070944 -0.0021968
-0.022946 0.007764 -0.40205 0.06892 -0.018637 0.00055308 -0.001488 -0.0018514
0.010753 -0.0067126 0.0011828 -0.0028367
0.0041644 0.0084125 -0.018661 0.00060916 -0.15051 0.2741 -0.00091303 -0.0049389
-0.0035323 -0.0029253 0.0087528 -0.0034294
0.0072635 -0.0041872 -0.0015136 -0.0018348 -0.00087841 -0.0049148 -0.26418 0.1544
-0.040448 -0.017128 0.012194 0.024999
0.011001 -0.00055071 0.010791 -0.0067283 -0.0035551 -0.0029742 -0.040508 -0.017108
-0.21085 -0.043307 -0.040395 0.015032
0.00076957 -0.0021437 0.0011549 -0.0028343 0.0087927 -0.0034243 0.012185 0.024985
-0.040358 0.015049 -0.25626 0.0085941
680000000 -0.2297 0.20171 -0.027455 -0.012892 0.005169 0.004201 0.0014577 -0.0070341
-0.002759 -0.011094 0.0039581 -0.0072381
-0.027429 -0.012918 -0.38574 0.16488 -0.03205 -0.0001811 -0.0014708 -0.00078629
-0.0021733 -0.0090612 -0.001737 -0.0021868
0.005157 0.0041718 -0.032078 -0.00010345 -0.099164 0.29331 -0.001248 -0.0007559
-0.0017981 0.00020802 -0.0036686 -0.0086127
0.0013846 -0.0071541 -0.0015056 -0.00081623 -0.0012527 -0.00076597 -0.21851 0.20568
-0.02549 -0.0048039 -0.0093116 -0.0093402
-0.0028807 -0.011136 -0.0022266 -0.0090586 -0.0018204 0.00023227 -0.025517 -0.0047894
-0.25502 0.057331 -0.0066 -0.0069241
0.0038074 -0.0072634 -0.0017915 -0.0021684 -0.0036931 -0.0086287 -0.0093012 -0.0093438
-0.0066099 -0.0069279 -0.25635 0.10853
740000000 -0.18533 0.19509 -0.036973 0.026902 0.012449 -0.0054989 -0.00069269 -0.004215
-0.0050982 -0.0030461 -0.0052975 0.0027768
-0.036955 0.026867 -0.33311 0.18354 -0.033046 0.035022 -0.00072835 -0.0059659
-0.012179 0.007594 -0.0016452 -0.0059137
0.012439 -0.0055507 -0.032974 0.03514 -0.065263 0.29172 -0.0019647 0.0032931
-0.0031014 -0.0049527 -0.0019396 0.00060597
-0.00065135 -0.0041638 -0.00071765 -0.0059797 -0.0019458 0.0033181 -0.20092 0.21343
-0.042482 -0.0032475 0.022873 0.013635
-0.0050925 -0.0030522 -0.01215 0.0076583 -0.0031359 -0.0049762 -0.042513 -0.0032081
-0.15903 0.079465 -0.040456 0.003816
-0.0052335 0.0027932 -0.0016404 -0.0059226 -0.0019514 0.00064247 0.022873 0.013613
-0.040416 0.00382 -0.24676 0.11684
800000000 -0.15268 0.23417 -0.021626 0.017094 0.0043952 -0.010476 -0.0044443 -0.0016803
-0.0034926 0.002435 0.0034365 0.00047885
-0.021623 0.017091 -0.33504 0.25297 -0.0070931 0.033466 -0.0026078 0.00222
-0.00070372 0.0031432 0.00067111 0.0052564
0.0043688 -0.010487 -0.0070066 0.033531 -0.023836 0.31382 0.00055497 0.0015574
0.00037781 0.0038379 -0.0021625 0.00073885
-0.0044728 -0.0017541 -0.0026182 0.0022173 0.00052524 0.0015446 -0.17077 0.2398
-0.026973 0.016655 0.012715 -0.010694
-0.0035346 0.0024696 -0.0006923 0.0031703 0.00038353 0.003849 -0.026964 0.016731
-0.19913 0.10688 -0.01586 0.019852
0.0033721 0.00043543 0.00067023 0.0052555 -0.0022209 0.00073411 0.012756 -0.010709
-0.015907 0.019822 -0.23747 0.16514
860000000 -0.11761 0.25424 -0.016104 0.03077 -0.0035949 -0.0094833 -0.0023358 0.00093986
0.0039773 0.0047278 -0.0028359 -0.0025113
-0.016115 0.030725 -0.28681 0.29424 0.0088446 0.033099 0.00017068 0.0022087
0.0037476 0.00067289 0.0031999 0.0002386
-0.0036215 -0.0094879 0.0089431 0.033101 0.025415 0.32096 -0.00043202 3.164e-05
0.0024414 -0.0012423 0.0017281 0.0041619
-0.0023194 0.00097903 0.00016753 0.0022002 -0.0004203 5.2527e-05 -0.13332 0.25049
-0.015265 0.020035 -0.005921 -0.0087291
0.0040638 0.0047724 0.0037581 0.00063038 0.0024626 -0.0012553 -0.01526 0.020107
-0.14638 0.15451 -0.022939 0.016407
-0.0027908 -0.0025555 0.0031953 0.00023009 0.001771 0.0041518 -0.005958 -0.0087177
-0.022949 0.016384 -0.18577 0.20716
920000000 -0.091277 0.27629 0.0061355 0.036677 -0.0091267 -0.0038444 -0.0015792 0.0018249
0.0017665 0.0015726 0.0025474 -0.0017789
0.006104 0.036638 -0.2572 0.3142 0.028105 0.020429 0.0017566 0.00090979
0.007155 -0.00034734 0.0036902 -0.002923
-0.009122 -0.0038304 0.02819 0.020367 0.071965 0.32042 0.0019834 -0.00024959
0.0016421 -0.0003705 0.00074505 -0.0012189
-0.0015905 0.0018125 0.0017629 0.00090542 0.0019758 -0.00025568 -0.10753 0.26545
-0.0076668 0.030917 0.0030055 -0.0066403
0.0017474 0.0014782 0.0071553 -0.00038207 0.001642 -0.00038367 -0.0076126 0.030924
-0.13337 0.15901 -0.00029126 0.026226
0.0025247 -0.0017954 0.0036828 -0.0029311 0.00074131 -0.0012303 0.0030243 -0.0066532
-0.00033676 0.026233 -0.1892 0.22158
980000000 -0.044422 0.29406 0.018124 0.02863 -0.0084971 0.0046802 0.0019581 0.0031565
0.0038413 -0.0016007 -0.003145 -0.0022507
0.018093 0.028609 -0.20476 0.34745 0.032386 0.0036327 0.0020583 -0.000134
0.0015881 -0.0060737 -0.00050737 -0.0023287
-0.0084857 0.0047045 0.032417 0.0035287 0.11845 0.31335 0.00046033 -0.0013469
0.00010376 -0.0022673 0.0013698 -0.00011334
0.0019473 0.0031703 0.0020401 -0.00015124 0.00046833 -0.0013491 -0.069004 0.27556
0.010291 0.028613 -0.0090241 -0.0066115
0.0038499 -0.0015742 0.0015636 -0.0061136 0.00010779 -0.0022415 0.010342 0.028617
-0.10173 0.18588 0.0057253 0.018112
-0.0031148 -0.0022228 -0.00054028 -0.0023268 0.0013645 -0.00011272 -0.009035 -0.0066222
0.0057211 0.018103 -0.1453 0.26393
1040000000 -0.00097391 0.30129 0.032783 0.01628 -0.00099869 0.0065769 0.0024735 0.00067338
0.0002746 -0.003066 -0.0008548 -0.0012788
0.032728 0.016277 -0.16888 0.36003 0.027988 -0.015313 0.0015023 -0.0017313
-0.0021557 -0.0023203 -0.0014429 -0.0026892
-0.00096461 0.0065775 0.027945 -0.015413 0.1652 0.29832 -0.0005757 -0.0015524
-0.0015896 -0.00097188 -0.000589 -0.0010194
0.0024726 0.00061786 0.0015055 -0.001704 -0.00056774 -0.0015629 -0.040403 0.28448
0.02087 0.016106 -0.0023744 0.00087229
0.00027537 -0.0030921 -0.0021625 -0.0023089 -0.0016224 -0.00097727 0.020903 0.016073
-0.069281 0.19146 0.013707 0.016611
-0.00085632 -0.0012609 -0.0014565 -0.0026692 -0.00058421 -0.0010248 -0.0023681 0.0008885
0.013698 0.01661 -0.12147 0.28285
1100000000 0.043473 0.30798 0.034438 -0.0054308 0.0026227 0.0036106 0.0022681 -0.0010017
-0.0019421 -0.0029198 -0.0036493 -1.8998e-05
0.034403 -0.0053962 -0.12598 0.37657 0.013782 -0.027418 -2.3232e-05 -0.0018485
-0.0033981 -0.00094428 -0.0034057 -0.00053772
0.0026409 0.0035933 0.013683 -0.027491 0.21115 0.27677 -0.0019134 0.00019941
-0.0019482 0.0005151 -0.00095281 -0.00014217
0.0022737 -0.00099277 -3.4409e-05 -0.0018409 -0.001913 0.0001948 -1.3376e-06 0.28781
0.025096 0.0028916 -0.0027774 -0.00030471
-0.0019114 -0.0029023 -0.003427 -0.00092221 -0.0019391 0.00052443 0.025118 0.0028518
-0.051557 0.20378 0.018693 0.0067447
-0.0036435 -1.2078e-05 -0.0034177 -0.00051001 -0.0009604 -0.00013309 -0.0027713 -0.00030489
0.018682 0.0067549 -0.075852 0.30943
1160000000 0.095246 0.30211 0.022294 -0.021065 0.0022601 -0.00049258 -6.6009e-06 -0.0019538
-0.0038418 -0.0005983 -0.00086535 0.0039573
0.022283 -0.021032 -0.081391 0.38066 -0.0045589 -0.028067 -0.001629 -0.0016159
-0.0027152 0.002627 -0.0013955 0.0018041
0.0022694 -0.00049339 -0.004693 -0.028066 0.25431 0.24491 -0.00086857 0.0017304
-0.00045098 0.0019359 -0.00077411 9.74e-05
7.8099e-06 -0.0019701 -0.0016516 -0.0016006 -0.0008667 0.0017385 0.03977 0.28347
0.020387 -0.012511 -0.0032682 0.0044842
-0.0038193 -0.00059281 -0.0027236 0.0026251 -0.00045779 0.0019424 0.020365 -0.012527
-0.017912 0.21127 0.017072 -0.0010344
-0.00083497 0.0039407 -0.0013971 0.0018268 -0.00076595 0.00010147 -0.0032587 0.0044975
0.017065 -0.001051 -0.027823 0.31075
1220000000 0.13936 0.28922 0.0087734 -0.029317 -0.001602 -0.00036381 0.00012994 -0.00094301
-0.0025276 0.0023014 0.0012278 0.0019095
0.0087842 -0.029284 -0.037566 0.39134 -0.016933 -0.019996 -0.0025016 0.00043906
-5.9209e-05 0.0029904 -0.0006251 0.0019492
-0.0016035 -0.00036224 -0.017046 -0.019947 0.29261 0.20444 0.00077353 0.0018022
0.00069228 0.0013648 0.00034785 0.0006034
0.00011346 -0.00093093 -0.0024976 0.00046082 0.0007752 0.0018014 0.079367 0.27296
0.0095567 -0.018547 0.0013257 0.0012808
-0.0025139 0.0023497 -3.7071e-05 0.0029875 0.00069284 0.0013609 0.0095319 -0.018564
0.0050893 0.21797 0.012482 -0.013234
0.0012422 0.0019107 -0.00062214 0.0019535 0.00034619 0.00060618 0.0013174 0.0012856
0.012474 -0.013225 0.004141 0.32454
1280000000 0.18833 0.26648 -0.0087372 -0.02705 -0.00155 0.0029264 -0.00086408 -0.0019544
-0.00066636 0.002884 0.0024604 0.00097909
-0.008702 -0.027025 0.008265 0.38234 -0.023141 -0.0076622 -0.0009878 0.0014205
0.0016757 0.0018168 0.00067556 0.0018297
-0.0015386 0.0029329 -0.023199 -0.0075626 0.32236 0.16023 0.0015882 8.9683e-05
0.0010889 0.00017647 0.00030028 0.00021075
-0.00086279 -0.0019595 -0.000982 0.0014179 0.0015867 9.1998e-05 0.11565 0.25532
-0.00033822 -0.020083 -0.00058293 0.00051273
-0.00065495 0.0028675 0.0016736 0.0018244 0.0010971 0.00016619 -0.00036429 -0.020073
0.040936 0.22059 0.0017802 -0.014784
0.0024563 0.00096376 0.00068079 0.0018381 0.000304 0.00020744 -0.00058911 0.00052243
0.0017812 -0.014779 0.050882 0.32438
1340000000 0.22509 0.23142 -0.017761 -0.017362 0.0013673 0.0043622 -0.001702 -0.0009798
0.0013444 0.0025728 0.0015967 -0.0014666
-0.017736 -0.017352 0.047824 0.37323 -0.020825 0.0046575 -0.00016037 0.0021162
0.0020971 0.00078046 0.0013786 0.00068911
0.0013973 0.0043529 -0.020827 0.0047656 0.34403 0.11155 0.0013382 -0.0009912
0.00067993 -0.00059534 7.8167e-05 0.00023366
-0.0017143 -0.00097745 -0.00013238 0.0021198 0.0013448 -0.0009888 0.14751 0.23307
-0.0098417 -0.016811 0.00052286 0.0011775
0.0013675 0.002576 0.0021151 0.00074746 0.00068104 -0.00060514 -0.0098726 -0.016788
0.070434 0.21466 -0.0047284 -0.012985
0.0015828 -0.0014672 0.0013929 0.00067633 8.6516e-05 0.00023307 0.00051967 0.0011833
-0.0047191 -0.012981 0.089639 0.31739
1400000000 0.25678 0.19265 -0.022562 -0.0062191 0.0053037 0.0026473 -0.0022433 0.00061024
0.002309 0.00087796 0.00024554 -0.0013722
-0.022527 -0.0062198 0.084517 0.35999 -0.01402 0.012281 0.0014159 0.0013633
0.0012877 -0.00085602 0.0011294 6.1802e-05
0.0053101 0.002626 -0.01398 0.012363 0.35606 0.057698 0.00016365 -0.0019875
7.7603e-05 -0.00039558 0.00029803 0.00022286
-0.0022275 0.00063312 0.0014227 0.0013528 0.00015447 -0.0019955 0.17542 0.2031
-0.015658 -0.0099091 -0.00060033 0.00043905
0.0023294 0.00084375 0.0012879 -0.00086502 7.1429e-05 -0.00038371 -0.01568 -0.0098883
0.10202 0.20945 -0.010655 -0.0079
0.00024589 -0.0013844 0.0011305 6.4958e-05 0.00029899 0.00022511 -0.00060666 0.00044815
-0.010647 -0.0079237 0.1329 0.30471
1460000000 0.27932 0.14826 -0.019324 0.0052183 0.005487 -0.002184 -0.0015817 0.0017189
0.0019238 -0.00045881 -0.00029498 -0.00094232
-0.019315 0.0052136 0.11909 0.33797 -0.0057318 0.014802 0.0018145 0.00018055
0.00084081 -0.0013651 0.001137 -0.00057789
0.0054889 -0.0022075 -0.005663 0.014854 0.36171 0.0032313 -0.0015297 -0.0014405
0.00011229 -0.0001908 0.00064451 -0.00038676
-0.0015858 0.0017078 0.0018088 0.00017475 -0.0015291 -0.001441 0.20037 0.17329
-0.016888 -0.0027255 -0.00037689 0.0024135
0.0019307 -0.00044834 0.00084391 -0.0013874 0.0001055 -0.000194 -0.016892 -0.002697
0.1308 0.19437 -0.011878 -0.0020196
-0.00031504 -0.00093814 0.0011444 -0.00057883 0.00064916 -0.00038608 -0.00037095 0.0024282
-0.011871 -0.0020299 0.16579 0.28272
1520000000 0.29056 0.10542 -0.01352 0.010209 0.0029648 -0.0042274 9.3091e-05 0.0026394
0.0020661 -0.0016136 -0.0011537 -0.00019
-0.013527 0.010188 0.15233 0.32226 0.0015964 0.012623 0.0017411 -0.00095494
-4.5696e-05 -0.0011978 0.00027762 -0.00097136
0.002937 -0.0042452 0.0016555 0.012626 0.35409 -0.053803 -0.001466 -0.00034554
0.00051414 -0.00091156 1.8668e-05 -0.00011019
0.00011372 0.0026493 0.0017339 -0.00096934 -0.001465 -0.0003521 0.22136 0.13472
-0.016031 0.0034054 0.0019414 0.0020425
0.0020737 -0.0016245 -5.293e-05 -0.0011981 0.00051007 -0.00089718 -0.016035 0.0034354
0.15796 0.17919 -0.011472 0.0024788
-0.0011597 -0.00018319 0.00027057 -0.00097732 1.7883e-05 -0.00010772 0.0019459 0.0020394
-0.011471 0.0024561 0.19809 0.26062
1580000000 0.29892 0.059151 -0.0072536 0.012748 -0.0011237 -0.0046485 0.0016106 0.002025
-6.5292e-05 -0.0021674 -0.00034278 0.00035102
-0.0072526 0.012736 0.17943 0.29742 0.0050244 0.0079924 0.00039787 -0.001753
-0.00056575 -0.0010752 -0.00020649 -0.00080316
-0.0011431 -0.0046461 0.0050681 0.0079721 0.33314 -0.11066 -0.0017211 0.0010582
-0.00033536 -0.0012393 0.00012835 -0.00060517
0.0016229 0.0020186 0.00038793 -0.0017398 -0.0017215 0.0010554 0.23356 0.096381
-0.012358 0.0087228 0.0026234 0.00047135
-9.2532e-05 -0.002167 -0.00059146 -0.0010712 -0.00034644 -0.0012334 -0.012347 0.0087577
0.18146 0.16094 -0.0090876 0.0076357
-0.00032901 0.00033821 -0.00020716 -0.00081217 0.00012134 -0.00060556 0.0026258 0.00046125
-0.009086 0.0076344 0.22903 0.2336
1640000000 0.3002 0.016982 -0.0010272 0.011453 -0.00278 -0.0024818 0.0027808 0.00089608
-0.00065618 -0.0015642 -0.0003415 0.00068807
-0.0010344 0.011454 0.20903 0.27144 0.0056326 0.003502 -0.0008832 -0.001698
-0.0011266 -0.00029422 -0.00051569 -0.00063729
-0.0027925 -0.0024743 0.0056579 0.0034731 0.30426 -0.15991 -0.0005407 0.0016774
-0.0012489 -0.00093238 -0.00016619 -0.00029144
0.0027767 0.00089874 -0.00089266 -0.0016908 -0.00053609 0.001692 0.2447 0.048271
-0.0076358 0.010352 0.0027339 -0.0012041
-0.00064757 -0.0015604 -0.0011326 -0.00028428 -0.0012579 -0.00093049 -0.007617 0.01038
0.20378 0.13552 -0.0042566 0.0095778
-0.00033444 0.00070099 -0.0005209 -0.00063511 -0.00016585 -0.00029587 0.0027354 -0.0012179
-0.0042602 0.0095747 0.25429 0.20108
1700000000 0.29122 -0.028646 0.0020556 0.0087252 -0.0033719 0.00030429 0.0029123 -0.0014366
-0.0019887 -0.00084097 0.00074398 0.00043052
0.0020522 0.0087178 0.22636 0.23951 0.0038462 0.00075132 -0.0015079 -0.00052982
-0.00075122 0.00024777 -0.00092236 -0.00041166
-0.0033777 0.00032129 0.0038582 0.00072924 0.2602 -0.19924 0.0008165 0.0015495
-0.0019909 -4.3506e-05 -0.00060146 -0.00079566
0.0029147 -0.0014388 -0.0015216 -0.00051498 0.00082016 0.0015377 0.24015 0.00010578
-0.0042049 0.011007 0.0014724 -0.0023233
-0.002002 -0.00081955 -0.00074331 0.00025391 -0.0019949 -3.1497e-05 -0.0041801 0.011033
0.21957 0.11468 0.00038399 0.009792
0.00075388 0.00041279 -0.00091849 -0.00040656 -0.00061217 -0.00078397 0.0014713 -0.0023321
0.00038976 0.0097905 0.26915 0.16608
1760000000 0.27817 -0.076926 0.0039939 0.005547 -0.002199 0.00084476 0.0010699 -0.0035427
-0.0015132 0.00068024 0.00043109 -0.00048926
0.0039868 0.0055549 0.25224 0.19903 0.0018284 -0.0012565 -0.0012085 0.0003019
-0.00092688 0.00092416 -0.00058927 0.00052384
-0.002196 0.00085603 0.0018151 -0.0012721 0.21208 -0.23254 0.0013702 0.00084025
-0.001122 0.0016237 -0.00128 -0.00035291
0.0010419 -0.003569 -0.0011947 0.00031862 0.0013789 0.00084955 0.2317 -0.049231
-0.00023196 0.010185 -0.00028951 -0.0026272
-0.0014909 0.00068616 -0.00092526 0.00093629 -0.0011157 0.0016367 -0.00020989 0.010209
0.23378 0.079256 0.0041277 0.0070833
0.00043157 -0.00046675 -0.0005885 0.00052207 -0.0012933 -0.00036449 -0.00030685 -0.0026307
0.0041189 0.0070744 0.28146 0.12818
1820000000 0.25195 -0.1142 0.0039842 0.0022521 -2.3341e-05 0.0024664 -0.001298 -0.0029024
-0.0011952 0.0010471 3.6658e-06 -0.00018796
0.0039791 0.0022575 0.26121 0.16813 -0.0002531 -0.0001453 -0.0011856 0.0010358
0.0001334 0.0012205 -0.00050417 0.00058296
-1.9507e-06 0.002472 -0.00025356 -0.00014349 0.16082 -0.24862 0.0014328 -8.271e-05
8.7717e-05 0.0022646 -0.0014309 0.00071015
-0.0013113 -0.0028955 -0.0011812 0.0010426 0.0014193 -9.5884e-05 0.20246 -0.09541
0.0018843 0.0082152 -0.0017808 -0.0016307
-0.001211 0.0010637 0.00014043 0.0012119 8.6034e-05 0.0022589 0.0019153 0.0082171
0.24945 0.049337 0.0051644 0.0035248
-6.562e-06 -0.00020155 -0.00049786 0.00059213 -0.0014332 0.00072422 -0.0017938 -0.0016231
0.0051548 0.0035289 0.28261 0.090795
1880000000 0.21542 -0.15327 0.001661 0.0002193 -0.00049295 0.0020389 -0.0030398 -0.0019237
-0.00022214 0.0018634 0.00021602 -0.00060921
0.0016612 0.00022024 0.26472 0.12172 -0.002432 0.0015218 -6.3142e-05 0.0017075
0.00060824 0.0010014 0.00024796 0.00094483
-0.00048824 0.0020405 -0.0024298 0.0015424 0.10748 -0.25765 0.0013759 -0.00095399
0.0016902 0.0016709 -0.00071803 0.0013431
-0.0030263 -0.0019152 -3.0378e-05 0.0017065 0.0013706 -0.00096391 0.16313 -0.1349
0.0029762 0.0054838 -0.0022799 0.00035204
-0.00020699 0.0018655 0.00061731 0.00099863 0.0016977 0.0016809 0.0029863 0.0054819
0.2511 0.0169 0.0051168 0.0013751
0.00018792 -0.00062576 0.00023753 0.00094104 -0.00073473 0.0013376 -0.0022891 0.0003418
0.0051118 0.0013624 0.28136 0.057101
1940000000 0.17588 -0.17849 -0.000461 -0.0010349 0.0014243 0.0020127 -0.0036387 0.00070647
0.0014812 0.0011158 -0.00056185 -0.00067941
-0.00044986 -0.0010288 0.26456 0.089734 -0.0011841 0.0039386 0.001019 0.0011354
0.0016491 0.00035844 0.00096389 0.00032728
0.0014449 0.0020121 -0.0011668 0.0039558 0.061989 -0.25058 5.9235e-05 -0.0015379
0.0022481 0.00021738 0.00055569 0.0014429
-0.0036426 0.00075374 0.0010352 0.0011425 7.0773e-05 -0.0015388 0.11217 -0.16598
0.0024028 0.0035643 -0.0013333 0.0013257
0.0014798 0.0011091 0.001651 0.00035271 0.0022483 0.00020854 0.0024207 0.0035749
0.25242 -0.022719 0.0039495 -0.0019933
-0.0005842 -0.00068768 0.00096703 0.00031446 0.00055085 0.0014312 -0.0013347 0.0013529
0.0039387 -0.0019865 0.26996 0.02005
2000000000 0.12812 -0.19205 -0.0041248 0.0010287 0.0026346 0.0015824 -0.0021107 0.0033485
0.0012467 0.00016767 -0.0006237 0.00040205
-0.004116 0.0010307 0.24923 0.054449 -0.00085749 0.0057275 0.0015946 0.00028599
0.0010901 -0.0012713 0.00047028 -6.5596e-05
