!Keysight Technologies,M9804A,MY58100912,A.14.10.03
!Date: Thursday, April 27, 2023 10:28:33
!Correction: S11(C  6-Port  ) 
!S12(C  6-Port  ) 
!S13(C  6-Port  ) 
!S14(C  6-Port  ) 
!S15(C  6-Port  ) 
!S16(C  6-Port  ) 
!S21(C  6-Port  ) 
!S22(C  6-Port  ) 
!S23(C  6-Port  ) 
!S24(C  6-Port  ) 
!S25(C  6-Port  ) 
!S26(C  6-Port  ) 
!S31(C  6-Port  ) 
!S32(C  6-Port  ) 
!S33(C  6-Port  ) 
!S34(C  6-Port  ) 
!S35(C  6-Port  ) 
!S36(C  6-Port  ) 
!S41(C  6-Port  ) 
!S42(C  6-Port  ) 
!S43(C  6-Port  ) 
!S44(C  6-Port  ) 
!S45(C  6-Port  ) 
!S46(C  6-Port  ) 
!S51(C  6-Port  ) 
!S52(C  6-Port  ) 
!S53(C  6-Port  ) 
!S54(C  6-Port  ) 
!S55(C  6-Port  ) 
!S56(C  6-Port  ) 
!S61(C  6-Port  ) 
!S62(C  6-Port  ) 
!S63(C  6-Port  ) 
!S64(C  6-Port  ) 
!S65(C  6-Port  ) 
!S66(C  6-Port  ) 
!S6P File: Measurement: :
# Hz S  RI   R 50
500000000 -0.33541 -0.05267 -0.010512 -0.001118 -0.0085425 0.013504 -0.0043392 0.011792
0.013233 0.0054145 -0.0043823 0.008285
-0.010659 -0.0010657 -0.41632 -0.062813 0.007822 -0.010345 0.0014402 0.011818
0.0079495 0.0030601 0.0017318 0.012871
-0.0086435 0.013789 0.0078788 -0.010182 -0.26792 0.19996 0.0063375 0.003137
-0.0016461 0.0088509 -0.00018472 0.011493
-0.0042697 0.011183 0.0011871 0.011332 0.0061583 0.0034433 -0.33115 0.044493
-0.019069 -0.0049126 0.017251 0.027057
0.013156 0.0064549 0.0082626 0.0027135 -0.0018633 0.0085719 -0.020002 -0.0052009
-0.2497 -0.19408 -0.02782 0.0044968
-0.0039685 0.0072818 0.0017515 0.013114 -0.00010989 0.011928 0.017904 0.027092
-0.027239 0.004981 -0.27252 -0.11708
560000000 -0.32015 0.11297 -0.024969 -0.063435 -0.00068277 0.013616 0.0049079 0.010853
0.01066 0.0048812 0.011166 0.0093567
-0.024901 -0.063596 -0.37519 0.099747 -0.042281 -0.037943 0.014033 0.0044498
-0.011909 -0.0039111 0.0036813 0.00014508
-0.00086627 0.013422 -0.042397 -0.037835 -0.18614 0.25183 -0.00029391 -0.0045983
0.018494 0.0061472 0.0078003 -0.0062515
0.0056167 0.011047 0.014197 0.0045945 -0.00064151 -0.0048008 -0.30745 0.13622
0.0048067 -0.023957 0.0046426 -0.021381
0.010999 0.0053047 -0.01274 -0.0037995 0.018119 0.0058517 0.0051584 -0.024224
-0.31359 -0.013993 0.0083639 -0.049335
0.010817 0.0097411 0.0032846 -0.00020246 0.0082752 -0.0062685 0.0041907 -0.021656
0.0081836 -0.049684 -0.33066 0.028927
620000000 -0.27792 0.093475 -0.023691 0.0088631 0.0041545 0.010065 0.0083826 -0.0045347
0.012179 -0.00056793 0.00070061 -0.0022815
-0.023568 0.0088312 -0.40424 0.049704 -0.018572 0.00098779 -0.0010625 -0.0017843
0.01212 -0.0060711 0.0014659 -0.0028168
0.0042218 0.0098097 -0.018681 0.001089 -0.15579 0.26136 -0.00039791 -0.005155
-0.0037865 -0.0019619 0.009554 -0.0028359
0.008591 -0.0041685 -0.0010498 -0.0016644 -0.00028668 -0.0053334 -0.26707 0.14766
-0.038796 -0.019772 0.012064 0.028228
0.012301 -0.0011219 0.011697 -0.006236 -0.0033727 -0.0025241 -0.037617 -0.020838
-0.23025 -0.045051 -0.039938 0.012411
0.00052869 -0.0021468 0.0012998 -0.002615 0.0097039 -0.0028521 0.011449 0.027882
-0.040137 0.012411 -0.25437 -0.0036417
680000000 -0.23922 0.18597 -0.026559 -0.013346 0.0054912 0.0055424 0.0019495 -0.0078234
-0.001619 -0.01128 0.006522 -0.0084756
-0.026615 -0.013352 -0.39 0.15129 -0.032314 -0.001696 -0.0013261 -0.00081521
-0.0013008 -0.0095897 -0.00077494 -0.0023798
0.0053573 0.0056714 -0.032288 -0.0015718 -0.10308 0.28168 -0.00088446 -0.00071297
-0.0013901 0.00038195 -0.0025084 -0.0095957
0.001692 -0.0074967 -0.0012617 -0.00049794 -0.0010166 -0.00092435 -0.22053 0.19722
-0.024401 -0.0078237 -0.0088512 -0.011013
-0.0017687 -0.012158 -0.0012162 -0.0098755 -0.001105 0.00043553 -0.023682 -0.0072838
-0.27959 0.056806 -0.0083185 -0.0070074
0.0059158 -0.0070379 -0.0010879 -0.0021077 -0.0032305 -0.0094429 -0.0087013 -0.011383
-0.0086931 -0.0072069 -0.26026 0.097954
740000000 -0.19324 0.17868 -0.038998 0.027524 0.014219 -0.0047226 -0.00018421 -0.0040825
-0.0056774 -0.0036071 -0.0063075 0.0037927
-0.039062 0.027515 -0.33478 0.16955 -0.036523 0.035533 2.0975e-05 -0.0056538
-0.012989 0.0071964 -0.00099248 -0.0063064
0.014096 -0.0046269 -0.036594 0.035827 -0.069496 0.27823 -0.002362 0.0034931
-0.0034022 -0.0061211 -0.0013151 0.0016242
-0.00077209 -0.0046395 -0.00037729 -0.0054606 -0.0022225 0.0032738 -0.20331 0.20527
-0.043247 -0.0073435 0.023364 0.015691
-0.0048712 -0.0036566 -0.012693 0.0061423 -0.0026869 -0.0061219 -0.043546 -0.0076767
-0.18025 0.083019 -0.042718 0.003045
-0.0067875 0.0029519 -0.0020731 -0.0055171 -0.0013808 0.0012415 0.023157 0.016117
-0.042726 0.002319 -0.24741 0.10438
800000000 -0.16087 0.22136 -0.021703 0.016187 0.0059002 -0.010827 -0.0045825 -0.0019837
-0.0048385 0.0020475 0.0036415 -0.00012409
-0.021718 0.01617 -0.3402 0.23972 -0.0084103 0.034233 -0.0025332 0.001683
-0.0015533 0.0025809 0.00047582 0.004631
0.0059929 -0.010935 -0.0082952 0.034235 -0.031125 0.30199 0.00056549 0.0014564
-0.00031254 0.0037148 -0.0018171 0.00097134
-0.0042839 -0.0019788 -0.0024067 0.0017687 0.00060137 0.0014585 -0.17407 0.23279
-0.028904 0.01372 0.014162 -0.010266
-0.0048846 0.0022012 -0.0016717 0.0026973 -0.00026408 0.0037466 -0.028904 0.013419
-0.22017 0.11235 -0.017532 0.020108
0.004131 5.0101e-05 0.0010505 0.0049532 -0.0019924 0.0010139 0.013927 -0.010349
-0.017786 0.020262 -0.24012 0.1537
860000000 -0.12608 0.24147 -0.017268 0.030327 -0.002616 -0.010759 -0.0017913 0.00052769
0.0036 0.0056456 -0.0039603 -0.0025376
-0.017241 0.03028 -0.29231 0.2822 0.0077705 0.0348 0.00036764 0.0022712
0.0034378 0.0017739 0.002546 0.0011719
-0.0026755 -0.010672 0.0079321 0.034819 0.016211 0.31066 -0.00057075 0.00011649
0.0019679 -0.0011305 0.0015061 0.0043521
-0.0018363 0.00060383 0.00041942 0.0022645 -0.00061087 0.00012046 -0.13747 0.24294
-0.018024 0.018804 -0.0057708 -0.0087249
0.0038878 0.0053507 0.0033468 0.0017051 0.0021517 -0.0011392 -0.01788 0.0188
-0.16418 0.16362 -0.024432 0.018139
-0.0039362 -0.002615 0.0030662 0.0012651 0.001612 0.0042847 -0.0057258 -0.0086982
-0.024386 0.018249 -0.18899 0.19759
920000000 -0.10254 0.26426 0.0048256 0.037969 -0.0094517 -0.0055138 -0.0018967 0.0017206
0.0018737 0.0022972 0.0027358 -0.0015569
0.0048711 0.03795 -0.26546 0.30338 0.028541 0.022711 0.0013911 0.0015572
0.0085968 -0.00021407 0.0042772 -0.0027758
-0.0095477 -0.0054535 0.028651 0.022646 0.061442 0.31229 0.0019892 9.6631e-05
0.0015299 -0.00015 0.00098628 -0.0015753
-0.0018133 0.0016192 0.0015558 0.0016011 0.0020634 9.175e-05 -0.11311 0.25998
-0.010286 0.031374 0.003678 -0.0069804
0.0019757 0.0024314 0.0084027 -0.0001621 0.0014688 -0.00016569 -0.010132 0.031473
-0.15091 0.16828 -0.00061853 0.026333
0.0029937 -0.001424 0.004503 -0.0026426 0.0010823 -0.0015444 0.0036725 -0.0069175
-0.00064967 0.026136 -0.19569 0.21095
980000000 -0.056042 0.28413 0.017171 0.029922 -0.0099158 0.0039704 0.0017643 0.0031389
0.0041455 -0.0020189 -0.0029013 -0.0022918
0.017174 0.02986 -0.21255 0.3379 0.034006 0.0052164 0.0021831 -0.00029501
0.0019425 -0.0063319 -4.1465e-05 -0.0024885
-0.0098681 0.0039584 0.034016 0.0050903 0.10745 0.30711 0.00081624 -0.0011608
0.00050322 -0.0020898 0.0014013 -0.00019939
0.0019138 0.0034231 0.0022273 -0.0002388 0.00080866 -0.0011553 -0.074241 0.27033
0.0079459 0.03026 -0.0092531 -0.0072139
0.0040964 -0.0018744 0.0018208 -0.006352 0.0005244 -0.0020321 0.0080261 0.03024
-0.11863 0.19827 0.0064675 0.019745
-0.0029247 -0.00214 -0.00019222 -0.0025767 0.0014272 -0.00018136 -0.0089004 -0.0071768
0.0063917 0.019981 -0.15293 0.25445
1040000000 -0.015204 0.29313 0.033013 0.018574 -0.0020194 0.0071258 0.0025096 0.00069659
0.00046445 -0.0036719 -0.00014622 -0.0018181
0.03302 0.018548 -0.17814 0.3516 0.030472 -0.015162 0.0016992 -0.0017675
-0.002127 -0.0030094 -0.0011368 -0.003002
-0.0019885 0.0071582 0.03042 -0.015262 0.15383 0.29442 -0.00049446 -0.0017589
-0.0016339 -0.0011181 -0.00073482 -0.001024
0.0024479 0.00077571 0.0016956 -0.0018618 -0.00046878 -0.0017758 -0.047168 0.28043
0.020406 0.018779 -0.0027089 0.00062575
0.00047057 -0.0034129 -0.002245 -0.0030775 -0.0017294 -0.0010471 0.020528 0.018523
-0.084812 0.20419 0.014665 0.017751
-0.0001316 -0.001773 -0.0011376 -0.003076 -0.00061862 -0.0010914 -0.002899 0.00068806
0.014892 0.017592 -0.12888 0.27391
1100000000 0.029181 0.30223 0.036734 -0.003898 0.0026158 0.0043485 0.0023354 -0.00092238
-0.0022449 -0.0030208 -0.0040956 -0.00012243
0.036681 -0.0038955 -0.13503 0.37024 0.01593 -0.028863 8.4622e-05 -0.0018157
-0.0041557 -0.00091536 -0.0037616 -0.00026811
0.0026089 0.0043089 0.015827 -0.028953 0.2007 0.2749 -0.0020661 0.00012998
-0.0019492 0.0005796 -0.0011411 -0.00032602
0.0023265 -0.00090295 2.6356e-05 -0.0018443 -0.0020606 0.00012131 -0.0069485 0.2855
0.026233 0.0047985 -0.0026947 -0.00011921
-0.0022634 -0.0029157 -0.0042111 -0.00091297 -0.0019693 0.00057055 0.02634 0.0047388
-0.06453 0.21636 0.020011 0.0080794
-0.0040881 -8.6226e-05 -0.003721 -0.00041168 -0.001131 -0.00035859 -0.0027192 1.6416e-05
0.02001 0.0081702 -0.083678 0.30243
1160000000 0.079979 0.29836 0.024471 -0.021392 0.0026822 -0.00033989 -0.00016551 -0.0021448
-0.0040455 -0.00088202 -0.0011393 0.0041836
0.024504 -0.021389 -0.091677 0.37562 -0.0038791 -0.030432 -0.0016812 -0.0017841
-0.0029408 0.0027063 -0.0016366 0.0019698
0.0026748 -0.0003361 -0.0040565 -0.03042 0.24453 0.24419 -0.00093158 0.0018946
-0.00062411 0.002122 -0.001013 0.00046416
-0.00014611 -0.0022729 -0.0016684 -0.0018178 -0.0009123 0.0018739 0.032549 0.28302
0.022245 -0.01176 -0.0034492 0.0051271
-0.0040144 -0.000769 -0.0028861 0.0028057 -0.00071368 0.0021784 0.022174 -0.011543
-0.029998 0.22354 0.019158 -0.0013751
-0.00098025 0.0042178 -0.0016319 0.002007 -0.00094 0.00046612 -0.0033405 0.0048664
0.019029 -0.0015282 -0.036451 0.3052
1220000000 0.12403 0.28911 0.010571 -0.031045 -0.0018182 -0.00078615 0.00027895 -0.00089552
-0.002854 0.0022135 0.0011331 0.0020883
0.010604 -0.030967 -0.046908 0.38896 -0.017911 -0.022253 -0.0027782 0.00052845
3.7459e-05 0.0034496 -0.00082014 0.0020818
-0.0018282 -0.00079607 -0.018042 -0.022191 0.2836 0.2046 0.00082621 0.001977
0.00081318 0.0013827 0.00029554 0.00055281
0.00020313 -0.00077337 -0.0027943 0.00054588 0.00082453 0.0019948 0.072856 0.27439
0.01088 -0.01898 0.0016521 0.0015868
-0.0028856 0.0022088 2.5724e-05 0.0034733 0.00080915 0.0013422 0.010811 -0.019033
-0.0067306 0.23172 0.014178 -0.014403
0.00099974 0.0021156 -0.00086377 0.0021353 0.0003545 0.00057348 0.001739 0.0017128
0.014183 -0.014458 -0.004238 0.3197
1280000000 0.17446 0.26873 -0.0087302 -0.029343 -0.0020869 0.0028989 -0.00069997 -0.0021395
-0.00083373 0.003336 0.002597 0.0013142
-0.0087417 -0.029327 5.2088e-06 0.38092 -0.025283 -0.0086882 -0.00099084 0.0015796
0.0020118 0.0019295 0.00077042 0.0019988
-0.0020288 0.0029386 -0.025333 -0.0085973 0.31361 0.16054 0.0017697 -1.7454e-05
0.0014156 0.00025284 0.00029807 0.00025063
-0.000749 -0.002202 -0.0010302 0.0016264 0.0018085 -4.6318e-05 0.11003 0.25808
8.5026e-05 -0.021235 -0.00039582 0.00046103
-0.00080298 0.0033355 0.0020209 0.0019406 0.0014016 0.00028723 2.3414e-05 -0.021269
0.029814 0.23466 0.0027049 -0.016621
0.0026489 0.0013248 0.00076076 0.0021224 0.00035291 0.00024657 -0.000374 0.00050791
0.0026166 -0.016669 0.042674 0.32104
1340000000 0.21227 0.2361 -0.018916 -0.018871 0.00093816 0.0051874 -0.001848 -0.0010162
0.0014959 0.0027912 0.001886 -0.0013781
-0.018847 -0.018907 0.040292 0.37257 -0.022655 0.0049521 6.1488e-06 0.0021403
0.002236 0.00062635 0.0013414 0.00076374
0.00091534 0.0051911 -0.022631 0.0050782 0.33475 0.11331 0.0012408 -0.0011148
0.00070438 -0.00072907 4.1651e-06 0.00020911
-0.0017773 -0.0010362 1.8317e-05 0.0021006 0.0012315 -0.0010888 0.14309 0.23676
-0.010416 -0.017679 0.00037233 0.00085243
0.0015059 0.0028708 0.0022793 0.00060893 0.00069583 -0.00073155 -0.010472 -0.017729
0.059752 0.22986 -0.0052012 -0.015091
0.0020277 -0.0015863 0.0013628 0.00071017 2.514e-05 0.00013393 0.00045464 0.00086891
-0.0051615 -0.015087 0.080682 0.3152
1400000000 0.24633 0.19865 -0.024468 -0.0066202 0.005759 0.0037297 -0.0023761 0.00059571
0.002658 0.0010783 0.00029722 -0.0017142
-0.024421 -0.0065801 0.078035 0.35938 -0.015387 0.013595 0.001493 0.001253
0.0012977 -0.0010659 0.0012387 1.0816e-07
0.0058204 0.0036815 -0.015344 0.013709 0.34728 0.061062 8.5893e-06 -0.0019067
3.5324e-05 -0.00042488 0.00040461 0.00025078
-0.0024214 0.00064363 0.0015136 0.0012836 3.0027e-05 -0.0019217 0.17262 0.20758
-0.016876 -0.0096494 -0.00074432 0.00033632
0.0025923 0.0011215 0.0013277 -0.0010297 1.3587e-05 -0.0003869 -0.016878 -0.0096296
0.092949 0.22529 -0.011887 -0.0091102
0.00029365 -0.0016829 0.0012117 -2.1136e-06 0.00041023 0.00030552 -0.00082949 0.00039499
-0.011851 -0.0091294 0.1246 0.30329
1460000000 0.27008 0.15472 -0.020631 0.0061603 0.006406 -0.0018414 -0.0016839 0.0018514
0.0024526 -0.00051604 -0.00049617 -0.0010917
-0.02068 0.0061006 0.11241 0.33686 -0.0056753 0.016633 0.0017399 4.0826e-05
0.00072722 -0.0015268 0.0011904 -0.00065864
0.0064001 -0.0018565 -0.0056199 0.016675 0.35382 0.0082155 -0.0014743 -0.0013671
8.4814e-05 -0.00016953 0.0007765 -0.0002098
-0.0016118 0.0018836 0.0017067 1.8335e-05 -0.001458 -0.0013454 0.199 0.17784
-0.017659 -0.0017053 -0.00058834 0.0024324
0.0024278 -0.00050132 0.00075372 -0.0015471 7.6975e-05 -0.00021053 -0.017739 -0.0016968
0.12223 0.21091 -0.013598 -0.0024919
-0.00041484 -0.0010595 0.0011402 -0.00064681 0.00084969 -0.00022755 -0.00053429 0.0023813
-0.013589 -0.0025994 0.15748 0.28236
1520000000 0.28288 0.11294 -0.014226 0.011534 0.0039396 -0.0046689 0.00019898 0.0027152
0.0022509 -0.0021784 -0.001224 -0.00011264
-0.014204 0.0115 0.14548 0.32207 0.0024821 0.013787 0.0016231 -0.00089211
-0.0001504 -0.0010678 0.00031359 -0.0010617
0.0038852 -0.0047061 0.0025831 0.013784 0.34778 -0.046807 -0.0011836 -0.00023073
0.00065875 -0.0010174 9.8826e-05 -0.00023699
0.00017441 0.0027358 0.0016302 -0.00088575 -0.0012435 -0.00022142 0.22171 0.13932
-0.015817 0.0051104 0.0020014 0.0022123
0.0022651 -0.0021795 -0.00015567 -0.0010691 0.00065771 -0.0010123 -0.015781 0.0051347
0.1506 0.19725 -0.012919 0.0028911
-0.0012619 -2.8494e-05 0.0002788 -0.0010888 2.1123e-05 -0.00019292 0.0020202 0.0022718
-0.012923 0.0029572 0.18965 0.26141
1580000000 0.29263 0.066452 -0.0068349 0.014226 -0.00084527 -0.0056198 0.0016225 0.0019533
-0.00032768 -0.0024189 -0.00019764 0.0003909
-0.0068266 0.014245 0.17224 0.29737 0.006232 0.008204 0.00044338 -0.0016178
-0.00064032 -0.00090455 -0.00025588 -0.00087369
-0.00090865 -0.0056231 0.0062683 0.0081884 0.32919 -0.10397 -0.0016387 0.00078785
-0.00044137 -0.0012963 0.00034053 -0.00060565
0.001682 0.0019009 0.00039593 -0.0016451 -0.0015719 0.00075387 0.23482 0.099927
-0.010877 0.0099446 0.0026429 0.00053893
-0.0003521 -0.002405 -0.00064962 -0.00088217 -0.00034737 -0.0012532 -0.010824 0.0099395
0.17508 0.17922 -0.0097195 0.0087853
-0.00019216 0.00045032 -0.00023876 -0.0008457 0.00033032 -0.00064751 0.0025973 0.00061134
-0.009747 0.0087657 0.22105 0.23472
1640000000 0.29461 0.02522 8.0313e-05 0.012203 -0.003133 -0.0030889 0.0028266 0.0009333
-0.0010298 -0.0017868 -0.00028331 0.00061868
6.0252e-05 0.012184 0.20133 0.27292 0.0065996 0.0029835 -0.00074402 -0.001722
-0.00093191 -0.00028611 -0.0005933 -0.00068275
-0.0031793 -0.0030792 0.0066205 0.0029435 0.30158 -0.15331 -0.00053139 0.0015748
-0.0012136 -0.00096974 -0.00020343 -0.00040817
0.0028303 0.00091831 -0.00071676 -0.0017363 -0.000568 0.001547 0.24672 0.051459
-0.005529 0.010381 0.0028171 -0.0010237
-0.00099742 -0.0017423 -0.000896 -0.0002578 -0.001188 -0.00095732 -0.0055211 0.010413
0.1985 0.15482 -0.0042393 0.010778
-0.00033205 0.00060318 -0.0006343 -0.00068444 -0.00026396 -0.00033196 0.0028065 -0.0010756
-0.0042617 0.010701 0.24604 0.2037
1700000000 0.2873 -0.019701 0.0031488 0.0086208 -0.0040405 -0.00016598 0.0031122 -0.0013549
-0.0022445 -0.00054486 0.00052275 0.00037479
0.0031483 0.0086125 0.21911 0.24221 0.0042542 -0.00019094 -0.0014931 -0.00054201
-0.00067002 -1.192e-05 -0.00099473 -0.00043799
-0.0040473 -0.00016062 0.0042527 -0.00020329 0.25928 -0.19363 0.00060428 0.0014974
-0.0020925 2.8837e-05 -0.00057568 -0.00093035
0.0031302 -0.0013685 -0.0015213 -0.00053096 0.00061931 0.0015533 0.24323 0.0021997
-0.0023519 0.0096616 0.0017076 -0.0025125
-0.0022382 -0.00054546 -0.00068191 -1.1632e-05 -0.0020517 0.00011723 -0.0022351 0.0096669
0.21575 0.13406 0.000797 0.01073
0.00058333 0.00037332 -0.00090199 -0.00041015 -0.00053491 -0.00096785 0.0016741 -0.0024966
0.00071424 0.010717 0.26221 0.16997
1760000000 0.27577 -0.067901 0.0048475 0.0049099 -0.0027621 0.0010097 0.0011863 -0.0035027
-0.0014558 0.0009309 0.00022796 -0.00054366
0.0048138 0.0049198 0.24528 0.20338 0.0015311 -0.0020786 -0.001187 0.00023296
-0.0010166 0.00076676 -0.00060331 0.00041731
-0.0027311 0.0010332 0.0015214 -0.0020863 0.21145 -0.22764 0.0011737 0.00090591
-0.0011489 0.0015814 -0.0013999 -0.00061394
0.0011722 -0.0034905 -0.0012268 0.0002265 0.0011697 0.00089261 0.23453 -0.048316
0.00054225 0.0077959 -0.00025813 -0.0027939
-0.0014571 0.00095883 -0.0010349 0.00077154 -0.0011899 0.0015903 0.00048836 0.0077716
0.23074 0.099312 0.005014 0.007544
0.00025052 -0.00059024 -0.00064245 0.0004449 -0.001429 -0.00061602 -0.00013934 -0.0028716
0.005044 0.0075958 0.2751 0.13227
1820000000 0.25157 -0.1049 0.0042062 0.0014379 -0.00044001 0.0027965 -0.0011529 -0.0031702
-0.00094863 0.0011975 -9.0965e-05 2.7204e-05
0.0042199 0.001428 0.25587 0.17403 -0.00096761 -0.00059556 -0.0012642 0.00093973
-0.00017888 0.0011559 -0.00058438 0.00057118
-0.00043954 0.0028406 -0.00097896 -0.00060309 0.16042 -0.24358 0.001481 0.00035717
-4.6776e-05 0.0024755 -0.0015276 0.00046886
-0.0011347 -0.0031612 -0.0012424 0.00096064 0.0014459 0.00041277 0.20516 -0.095321
0.0012916 0.0060023 -0.0018547 -0.0019256
-0.00094425 0.0012266 -0.00019525 0.0011675 -8.1076e-05 0.0024844 0.0013179 0.0059614
0.24757 0.070252 0.0059825 0.0036408
-0.00016024 3.0921e-05 -0.00059548 0.00055081 -0.001571 0.00044907 -0.0018713 -0.0018693
0.0060481 0.0036552 0.27706 0.095837
1880000000 0.21705 -0.14526 0.0015513 -0.00050577 -0.00058305 0.0024794 -0.0029194 -0.0021145
2.084e-05 0.0018069 3.7904e-05 -0.00050017
0.0015646 -0.00051603 0.26117 0.12806 -0.0029705 0.0014573 -0.0002081 0.0017017
0.00041518 0.0013439 0.0001099 0.00094461
-0.00063939 0.002503 -0.0029834 0.0014859 0.10859 -0.25352 0.0016649 -0.00085841
0.0017339 0.0018852 -0.0008967 0.0015882
-0.0029887 -0.0020473 -0.00023594 0.0017406 0.001731 -0.00078933 0.16531 -0.13553
0.0013363 0.0039302 -0.0026122 8.5873e-05
-9.0217e-07 0.0018054 0.00041146 0.0013301 0.0017473 0.0019212 0.0013211 0.0039342
0.2511 0.038577 0.0059659 0.00082356
8.3122e-05 -0.00061903 9.6388e-05 0.00088276 -0.0009547 0.0015099 -0.0025388 1.7125e-05
0.0059184 0.00072881 0.27728 0.061959
1940000000 0.17849 -0.17078 -0.0010167 -0.0015175 0.0012776 0.002351 -0.0036701 0.00053941
0.0015205 0.00097603 -0.00049626 -0.00043627
-0.0010337 -0.0015011 0.26274 0.096236 -0.0017805 0.0040927 0.0011213 0.0013935
0.0018725 0.0007382 0.00099195 0.0004101
0.0013109 0.0023353 -0.0017461 0.0040981 0.063026 -0.24675 0.0006242 -0.0020066
0.0024554 0.00025158 0.00074481 0.0016878
-0.0036711 0.00050215 0.0011716 0.0013258 0.00058177 -0.0020602 0.11379 -0.16647
0.00012428 0.0032065 -0.0017815 0.0015486
0.0015272 0.00095071 0.0018119 0.00074024 0.0024534 0.00021937 0.00012706 0.0032312
0.25372 0.00041312 0.0045273 -0.0027927
-0.00042741 -0.00045287 0.001016 0.00034125 0.00072579 0.0016824 -0.0019621 0.0018074
0.0044057 -0.0026833 0.26638 0.025263
2000000000 0.13302 -0.18617 -0.0044913 0.00092259 0.0027663 0.0017355 -0.0022143 0.003714
0.0011688 0.00016978 -0.00041715 0.00042601
-0.0044817 0.00092476 0.2494 0.060508 -0.0012185 0.0059428 0.0016529 0.00033378
0.0015449 -0.00093414 0.0004169 0.00011403
0.0028421 0.0017404 -0.001147 0.0059349 0.019268 -0.23355 -0.0011248 -0.0014488
0.0020022 -0.0012603 0.0015686 0.0013585
-0.00222 0.003795 0.0016916 0.00036528 -0.0010298 -0.0013946 0.06018 -0.17722
-0.0012368 0.003411 -0.00047131 0.0026757
0.0011841 0.00019412 0.0015652 -0.00088323 0.0021299 -0.0011651 -0.0013909 0.0033637
0.24837 -0.032399 0.00070633 -0.0038134
