!Keysight Technologies,M9804A,MY58100912,A.14.10.03
!Date: Thursday, April 27, 2023 10:28:33
!Correction: S11(C  6-Port  ) 
!S12(C  6-Port  ) 
!S13(C  6-Port  ) 
!S14(C  6-Port  ) 
!S15(C  6-Port  ) 
!S16(C  6-Port  ) 
!S21(C  6-Port  ) 
!S22(C  6-Port  ) 
!S23(C  6-Port  ) 
!S24(C  6-Port  ) 
!S25(C  6-Port  ) 
!S26(C  6-Port  ) 
!S31(C  6-Port  ) 
!S32(C  6-Port  ) 
!S33(C  6-Port  ) 
!S34(C  6-Port  ) 
!S35(C  6-Port  ) 
!S36(C  6-Port  ) 
!S41(C  6-Port  ) 
!S42(C  6-Port  ) 
!S43(C  6-Port  ) 
!S44(C  6-Port  ) 
!S45(C  6-Port  ) 
!S46(C  6-Port  ) 
!S51(C  6-Port  ) 
!S52(C  6-Port  ) 
!S53(C  6-Port  ) 
!S54(C  6-Port  ) 
!S55(C  6-Port  ) 
!S56(C  6-Port  ) 
!S61(C  6-Port  ) 
!S62(C  6-Port  ) 
!S63(C  6-Port  ) 
!S64(C  6-Port  ) 
!S65(C  6-Port  ) 
!S66(C  6-Port  ) 
!S6P File: Measurement: :
# Hz S  RI   R 50
500000000 -0.33555 -0.053062 -0.010671 -0.0014363 -0.0085723 0.013594 -0.0047327 0.012015
0.01286 0.0048415 -0.0048504 0.0078872
-0.010662 -0.0014042 -0.41688 -0.063354 0.0078333 -0.010706 0.001547 0.011529
0.0076503 0.003505 0.0014689 0.012968
-0.0085323 0.013528 0.0079007 -0.010737 -0.26717 0.1994 0.0065446 0.0038501
-0.0016567 0.0089591 -0.00034599 0.012352
-0.0045208 0.012144 0.0015676 0.011657 0.0064176 0.0038979 -0.33176 0.043581
-0.019136 -0.0050298 0.018156 0.025397
0.01281 0.0053169 0.007403 0.0036677 -0.0021228 0.0089961 -0.018579 -0.0051019
-0.24697 -0.19496 -0.026222 0.0037209
-0.0042215 0.0081032 0.0015598 0.013069 -0.00039986 0.012246 0.017382 0.025419
-0.026153 0.0035557 -0.26972 -0.11846
560000000 -0.31854 0.1128 -0.023215 -0.064821 0.00037289 0.012408 0.004969 0.010968
0.010363 0.0044146 0.010477 0.0087479
-0.023033 -0.064782 -0.37711 0.099455 -0.041341 -0.038236 0.013051 0.0032791
-0.013169 -0.004328 0.0040272 6.0309e-05
0.00048875 0.012725 -0.041257 -0.038134 -0.18525 0.25099 0.00057564 -0.0052787
0.019165 0.0042385 0.0086038 -0.0052444
0.0046666 0.011125 0.013147 0.0033156 0.0004434 -0.0052638 -0.30584 0.13522
0.0057531 -0.02474 0.0051003 -0.020371
0.0094685 0.0047044 -0.01331 -0.0038852 0.018072 0.0042082 0.0052056 -0.025503
-0.30732 -0.01495 0.007917 -0.047672
0.010267 0.0082148 0.0031629 -0.00050953 0.0090114 -0.0062594 0.0055377 -0.020081
0.007839 -0.047358 -0.3315 0.027678
620000000 -0.27746 0.094735 -0.0229 0.0089106 0.00402 0.0091903 0.0081051 -0.0049323
0.0128 -0.0016337 0.0006396 -0.0027374
-0.022865 0.008952 -0.4035 0.049591 -0.018403 0.00095871 -0.0013615 -0.0021483
0.012137 -0.0059807 0.0009999 -0.0033488
0.0041042 0.009357 -0.018416 0.00096802 -0.15538 0.26062 -0.00024659 -0.0050403
-0.00359 -0.002651 0.0098172 -0.0020487
0.0085035 -0.0047156 -0.0014432 -0.002203 -0.00022831 -0.0050196 -0.26622 0.1462
-0.039012 -0.019799 0.013043 0.027576
0.012174 -0.0016046 0.012561 -0.0059188 -0.0037359 -0.0024718 -0.039195 -0.019943
-0.22848 -0.047661 -0.041434 0.011145
0.0020054 -0.0023137 0.00058275 -0.0036312 0.01001 -0.0024828 0.01339 0.027508
-0.041523 0.011124 -0.25142 -0.0028547
680000000 -0.2391 0.18527 -0.026426 -0.014147 0.0052891 0.0053075 0.0017911 -0.007296
-0.0018836 -0.011771 0.0052204 -0.0076002
-0.026397 -0.014228 -0.38969 0.15031 -0.032305 -0.0019997 -0.0016944 -0.00058791
-0.0015118 -0.0093704 -0.001002 -0.0024104
0.0052073 0.0051287 -0.032296 -0.0019698 -0.1037 0.28095 -0.00073669 -0.00043044
-0.0016792 0.00042015 -0.0030144 -0.0095973
0.0015538 -0.0071947 -0.0016758 -0.00060209 -0.00068599 -0.00042872 -0.21998 0.1981
-0.024101 -0.008024 -0.0090605 -0.011068
-0.0018731 -0.011413 -0.0012707 -0.0093714 -0.0015124 0.00029549 -0.023974 -0.007806
-0.27877 0.055542 -0.0084516 -0.007628
0.005349 -0.0068248 -0.0010496 -0.0023069 -0.0033819 -0.0093251 -0.0093186 -0.010852
-0.0082653 -0.0075148 -0.25906 0.097517
740000000 -0.19328 0.17776 -0.039815 0.026688 0.013651 -0.0050049 -0.0006584 -0.0039237
-0.0042741 -0.0034594 -0.0067593 0.0030208
-0.039868 0.026635 -0.33473 0.16922 -0.036656 0.034657 -0.00067477 -0.0057013
-0.01143 0.0072135 -0.0016578 -0.0051495
0.013661 -0.0050529 -0.036558 0.034817 -0.069839 0.2784 -0.0019184 0.0030773
-0.0029715 -0.0058122 -0.0016042 0.001188
-0.00070613 -0.0039694 -0.00065163 -0.0057605 -0.0018567 0.0031999 -0.20437 0.20466
-0.042417 -0.0073391 0.022278 0.015228
-0.0047077 -0.0033022 -0.011663 0.0072397 -0.0032162 -0.0062046 -0.042455 -0.007025
-0.18099 0.08414 -0.040621 0.00012449
-0.006952 0.0030313 -0.0017538 -0.0048344 -0.0016257 0.0011185 0.02219 0.014878
-0.040456 0.00037252 -0.24771 0.10433
800000000 -0.1616 0.22098 -0.022582 0.016414 0.0057558 -0.010523 -0.0043772 -0.0021172
-0.0046438 0.0027183 0.0045572 0.00019859
-0.022602 0.016343 -0.34138 0.23972 -0.0085464 0.034173 -0.002308 0.0022739
-0.0017687 0.0028338 0.0010976 0.0054663
0.0058316 -0.010553 -0.0084703 0.034244 -0.031106 0.3024 0.00096843 0.0015808
5.6594e-05 0.0038423 -0.0016571 0.00092035
-0.0043978 -0.0022576 -0.0022935 0.0022494 0.00091588 0.0015867 -0.17394 0.23233
-0.028384 0.013604 0.013734 -0.010088
-0.0047861 0.0029604 -0.0018989 0.0029627 0.00013383 0.0038032 -0.028416 0.013529
-0.22174 0.11249 -0.016901 0.020071
0.0048361 -3.5307e-05 0.0011006 0.0056187 -0.0015667 0.00092362 0.013807 -0.010045
-0.016858 0.020218 -0.24029 0.15198
860000000 -0.12694 0.24138 -0.017638 0.030454 -0.0028166 -0.010282 -0.0016584 0.00073981
0.0042738 0.0054171 -0.0034966 -0.0030679
-0.017682 0.030508 -0.29255 0.28225 0.0075386 0.034379 0.00037052 0.0019821
0.0037409 0.00080258 0.0036948 0.00046253
-0.0028862 -0.010236 0.0076326 0.034461 0.016493 0.3107 -0.00061544 -0.00011531
0.0022981 -0.0012595 0.0019075 0.0041474
-0.0016041 0.00074728 0.00034954 0.0020614 -0.00058474 -9.5465e-05 -0.13729 0.24306
-0.018131 0.018 -0.0058495 -0.0090289
0.0045294 0.0055253 0.0038292 0.00075272 0.0023511 -0.0012957 -0.017878 0.018146
-0.16315 0.16262 -0.024712 0.016936
-0.0035898 -0.0030381 0.0035854 0.00035682 0.0017227 0.0040333 -0.0058694 -0.0092964
-0.024836 0.016834 -0.1873 0.19618
920000000 -0.10301 0.26445 0.0047933 0.038254 -0.0092087 -0.0049945 -0.0019188 0.0016809
0.0017825 0.0014631 0.0027807 -0.001497
0.0047702 0.038208 -0.26545 0.30355 0.028166 0.022798 0.001461 0.001298
0.0079032 -0.0004857 0.0040905 -0.0028979
-0.0092297 -0.0049863 0.028253 0.022693 0.061835 0.31205 0.0020169 -1.4206e-05
0.0013425 -0.00037606 0.00093465 -0.0013411
-0.0018225 0.0016162 0.0015936 0.001256 0.0020255 3.2696e-06 -0.11294 0.2598
-0.011589 0.030151 0.0036128 -0.0065649
0.0017769 0.0017611 0.0078403 -0.00045584 0.0012808 -0.00025452 -0.011604 0.03012
-0.15121 0.16764 -0.0025306 0.025848
0.0028397 -0.0017239 0.0039806 -0.002964 0.00092913 -0.0014287 0.0034981 -0.0064782
-0.002455 0.025672 -0.19546 0.211
980000000 -0.056894 0.28443 0.016963 0.030077 -0.0094605 0.00414 0.0016361 0.0034881
0.0040918 -0.001891 -0.0031 -0.0023191
0.01698 0.030094 -0.21225 0.33847 0.03343 0.0053884 0.0019092 -0.000193
0.0019667 -0.0061795 -4.4161e-05 -0.0022645
-0.0094276 0.004186 0.033486 0.005274 0.10776 0.30653 0.0007198 -0.0011643
0.00059172 -0.0020146 0.0014708 -0.00012829
0.0016542 0.003438 0.0019507 -0.00011453 0.00077152 -0.0011272 -0.074929 0.27063
0.0077588 0.030369 -0.0089304 -0.0067729
0.0040599 -0.0018693 0.0019094 -0.0062386 0.00056911 -0.0019709 0.0075987 0.030215
-0.11925 0.19821 0.0069392 0.019732
-0.0029845 -0.0023463 -9.7619e-05 -0.0023491 0.0015198 -5.7104e-05 -0.0091245 -0.0067389
0.0069797 0.019602 -0.15228 0.25338
1040000000 -0.015466 0.29349 0.032847 0.019051 -0.001735 0.0070255 0.0026214 0.00080686
0.00036561 -0.0035948 -0.00019022 -0.001839
0.032832 0.019044 -0.17743 0.35188 0.030065 -0.014649 0.0016923 -0.0016838
-0.0020177 -0.0027017 -0.0010894 -0.0028061
-0.0016587 0.0070056 0.030048 -0.014788 0.15373 0.29348 -0.00044798 -0.0017082
-0.0015566 -0.00099478 -0.0006119 -0.0011832
0.0026517 0.00080158 0.0016839 -0.0017004 -0.00046226 -0.0016892 -0.047135 0.28049
0.019589 0.018596 -0.0025989 0.0011219
0.00050294 -0.0034691 -0.0019927 -0.0027445 -0.0016379 -0.00099133 0.019734 0.018587
-0.08554 0.20329 0.013807 0.017416
-8.5135e-05 -0.0018651 -0.0011388 -0.0028779 -0.00060754 -0.0011896 -0.002648 0.0010755
0.01389 0.017435 -0.1297 0.27442
1100000000 0.029351 0.30263 0.036502 -0.0035097 0.0027637 0.0041947 0.0024248 -0.0011129
-0.0021152 -0.0029774 -0.0039885 -9.6119e-05
0.036425 -0.0034844 -0.13431 0.37015 0.015912 -0.028015 3.0677e-05 -0.001872
-0.0036929 -0.00087809 -0.0036486 -0.00053557
0.0027882 0.0041827 0.015808 -0.028116 0.19986 0.27415 -0.0019942 7.4616e-05
-0.0018181 0.00048659 -0.0011456 -0.00051737
0.002443 -0.0011683 2.5486e-05 -0.0019154 -0.0019855 5.0879e-05 -0.0069745 0.28544
0.025307 0.0055027 -0.0023874 0.0001207
-0.0020511 -0.003059 -0.0036401 -0.0009697 -0.0018343 0.00049309 0.025382 0.0054868
-0.064962 0.21626 0.019639 0.0083854
-0.0039892 -6.4547e-05 -0.0036428 -0.00055016 -0.0011319 -0.00049963 -0.002356 8.0542e-05
0.019561 0.0083512 -0.083954 0.30207
1160000000 0.080445 0.29885 0.024522 -0.020667 0.002779 -0.00042948 6.1468e-06 -0.0023808
-0.0039848 -0.00080806 -0.00099662 0.0041022
0.024464 -0.020666 -0.09098 0.37476 -0.0033485 -0.029659 -0.0016197 -0.0016896
-0.0029205 0.0026186 -0.0014221 0.0019117
0.0027459 -0.00040956 -0.0035144 -0.029682 0.24332 0.24401 -0.00081854 0.0017846
-0.00071865 0.0020864 -0.00083468 0.00018198
-2.3875e-05 -0.0023632 -0.0015969 -0.0016608 -0.00084952 0.0017702 0.032608 0.28278
0.021707 -0.010756 -0.0034052 0.0052218
-0.0040726 -0.00082126 -0.0028703 0.0026991 -0.00070735 0.002036 0.021704 -0.010774
-0.030536 0.22374 0.018059 -0.00090952
-0.00092427 0.0040527 -0.0015118 0.0019644 -0.00083189 0.00022606 -0.0033565 0.0051586
0.018046 -0.00089497 -0.036593 0.30536
1220000000 0.12442 0.28894 0.011 -0.030315 -0.0015951 -0.00087973 9.5245e-05 -0.00093151
-0.0027092 0.002104 0.001067 0.0019508
0.011007 -0.030286 -0.046743 0.38773 -0.017047 -0.021973 -0.0026829 0.000467
-7.6883e-05 0.0031695 -0.0008462 0.001979
-0.0016047 -0.00086088 -0.017175 -0.021923 0.28238 0.20544 0.00069214 0.0018031
0.00066679 0.0012486 0.00029114 0.00052781
5.4311e-05 -0.00093726 -0.0026698 0.00045913 0.00069733 0.0018275 0.072643 0.27423
0.0109 -0.017689 0.0020513 0.0013943
-0.0026129 0.0021476 -6.9051e-05 0.003172 0.00061686 0.001272 0.010814 -0.017697
-0.0069785 0.23187 0.013379 -0.013602
0.0011026 0.0019118 -0.00083242 0.0019563 0.00023744 0.00051807 0.0021077 0.0013572
0.013386 -0.013618 -0.0049347 0.31943
1280000000 0.17476 0.26858 -0.0078663 -0.028942 -0.0020176 0.0025156 -0.00083671 -0.0020679
-0.00080664 0.003213 0.0026447 0.0012252
-0.0078346 -0.028922 -0.0006344 0.37962 -0.024334 -0.0089713 -0.0010479 0.0015066
0.0017443 0.0017866 0.00062596 0.0020242
-0.0020047 0.0025181 -0.024414 -0.0088861 0.31313 0.16205 0.0016421 3.4095e-05
0.0012619 0.00026303 0.00027588 0.00023205
-0.00084096 -0.0020677 -0.0010197 0.0015436 0.0016331 2.61e-05 0.10956 0.25807
0.00087865 -0.019995 -0.00041406 0.00040547
-0.00077386 0.0032458 0.0017675 0.0018445 0.0012285 0.00031194 0.00082642 -0.020057
0.029692 0.23489 0.0028837 -0.0158
0.0026156 0.0011935 0.00061716 0.0020449 0.0003064 0.00024872 -0.00037457 0.00037404
0.0028849 -0.015759 0.041322 0.32073
1340000000 0.21248 0.23549 -0.017743 -0.019242 0.00076755 0.0048002 -0.0018248 -0.0008322
0.0013497 0.0026535 0.0018408 -0.0013279
-0.017702 -0.019211 0.038964 0.37188 -0.022147 0.0042173 -7.8847e-05 0.0020931
0.0021109 0.00082913 0.0011916 0.00075326
0.00082609 0.0048101 -0.022178 0.0043523 0.33542 0.11479 0.0011369 -0.00096949
0.00076625 -0.00066476 0.00010179 0.00023137
-0.0018273 -0.00081672 -5.3999e-05 0.0020633 0.0011279 -0.00097752 0.14293 0.23696
-0.0088569 -0.01722 0.00067301 0.00049857
0.0013962 0.0026699 0.002099 0.00081941 0.0007234 -0.0006644 -0.00885 -0.017195
0.059707 0.22971 -0.0040883 -0.014153
0.0018036 -0.001321 0.0011968 0.00079538 0.00015602 0.00017015 0.00064285 0.00049639
-0.0041499 -0.014084 0.079835 0.31454
1400000000 0.24628 0.19822 -0.023658 -0.0075421 0.0053825 0.0034234 -0.0022349 0.00061865
0.0024951 0.00093023 0.00024005 -0.00161
-0.023623 -0.0075497 0.07649 0.35945 -0.015363 0.012709 0.0014341 0.0013298
0.0012849 -0.00087317 0.0012284 0.00011665
0.0054037 0.0034457 -0.015325 0.012815 0.34851 0.061865 5.0872e-05 -0.0016479
0.0001085 -0.00040096 0.00039066 0.00014632
-0.0022539 0.00059715 0.0014153 0.0013274 6.1799e-05 -0.0016143 0.17233 0.20796
-0.01511 -0.009966 -0.00073003 -0.00020241
0.0024893 0.00098661 0.0012754 -0.00087222 5.0327e-05 -0.0003993 -0.015138 -0.0099279
0.092772 0.22479 -0.010723 -0.0086858
0.00030017 -0.0016601 0.0012403 4.3369e-05 0.00033687 0.00019947 -0.00074876 -0.0001718
-0.010709 -0.0086628 0.12392 0.30369
1460000000 0.26986 0.15452 -0.020522 0.0048565 0.0059745 -0.0017022 -0.0015752 0.0018007
0.0022873 -0.00048548 -0.00042375 -0.0010448
-0.020526 0.004842 0.11116 0.33787 -0.0062877 0.015978 0.0017123 0.00017878
0.00087659 -0.0014302 0.0012001 -0.00059467
0.0059799 -0.0017517 -0.0062105 0.016013 0.35523 0.0081613 -0.0012523 -0.0014202
0.00014581 -0.00022441 0.00067461 -0.00022711
-0.0015343 0.0017965 0.0017283 0.00015811 -0.0012633 -0.001413 0.19907 0.17849
-0.016476 -0.0030179 -0.00071515 0.0022226
0.0022185 -0.00053742 0.00086821 -0.0014049 0.00012755 -0.00027719 -0.01643 -0.0030371
0.12197 0.21038 -0.012594 -0.0026683
-0.00041833 -0.0010491 0.0012088 -0.00060503 0.00070535 -0.00023625 -0.00077185 0.0023236
-0.012598 -0.0026973 0.15708 0.28274
1520000000 0.28241 0.1129 -0.014791 0.01042 0.0036508 -0.0044109 0.00011119 0.0026211
0.0020983 -0.0020293 -0.0012195 -0.0001094
-0.014775 0.010396 0.14485 0.32352 0.0017718 0.013629 0.0016663 -0.00080285
2.5432e-05 -0.001128 0.00029573 -0.0010825
0.0036258 -0.0044167 0.0018524 0.013638 0.34895 -0.047671 -0.0010582 -0.00042103
0.00070232 -0.0008411 0.0001031 -0.00030829
0.00014516 0.0025973 0.001652 -0.00082113 -0.0010756 -0.00039699 0.22194 0.13989
-0.015438 0.0031605 0.0015133 0.0021172
0.0021233 -0.0020454 2.1358e-05 -0.0011273 0.00070246 -0.00082982 -0.015419 0.0031908
0.15015 0.19702 -0.012074 0.0019648
-0.0012295 -0.00018529 0.00030872 -0.001097 0.00013308 -0.00029947 0.0016073 0.0021067
-0.012062 0.0019937 0.18933 0.26193
1580000000 0.2925 0.066977 -0.007972 0.013582 -0.00095458 -0.0052021 0.0015141 0.0019503
-0.00015856 -0.0022336 -0.00021536 0.00039146
-0.0079608 0.013573 0.17237 0.29906 0.0056566 0.0084287 0.00051378 -0.0015972
-0.0006151 -0.0010261 -0.00021945 -0.00084625
-0.00098281 -0.0052211 0.005718 0.0084212 0.32978 -0.10509 -0.00169 0.00055139
-0.00035799 -0.0012766 0.00019208 -0.00053045
0.0014934 0.0019247 0.00050224 -0.0016079 -0.0016345 0.00055661 0.23558 0.10039
-0.011755 0.0081514 0.0022695 0.00075606
-0.00016348 -0.0022279 -0.00061024 -0.0010062 -0.00032629 -0.0013038 -0.011751 0.0081845
0.17417 0.17905 -0.0093558 0.0076493
-0.00016501 0.00042462 -0.00022507 -0.00085619 0.00018545 -0.00050456 0.0022312 0.00074425
-0.0093408 0.0076467 0.22095 0.23507
1640000000 0.29499 0.02579 -0.0011834 0.012314 -0.0030707 -0.002786 0.0027288 0.001105
-0.00091364 -0.0015504 -0.00035822 0.00064541
-0.0011957 0.012318 0.20228 0.2743 0.0063456 0.0033922 -0.00066747 -0.0018242
-0.0010539 -0.00038694 -0.00059304 -0.00067039
-0.0030712 -0.0027539 0.006368 0.0033714 0.30187 -0.15456 -0.00066291 0.0014257
-0.0010365 -0.00099475 -0.00016907 -0.00036583
0.0027364 0.0011219 -0.00065635 -0.0018102 -0.00068017 0.0014456 0.2478 0.051618
-0.0071257 0.0096032 0.0025669 -0.00076673
-0.00094372 -0.0015816 -0.0010253 -0.00037151 -0.0010734 -0.00092791 -0.0071494 0.0095833
0.19763 0.15515 -0.0044712 0.0097376
-0.00039402 0.00066146 -0.00058581 -0.0006635 -0.00016565 -0.00034395 0.0026073 -0.00074017
-0.0044572 0.0097776 0.24638 0.20403
1700000000 0.28812 -0.019483 0.0022165 0.0093705 -0.003758 -4.5876e-05 0.003199 -0.0012306
-0.0020616 -0.00059595 0.00047798 0.00040143
0.0022157 0.009364 0.22054 0.24301 0.0041132 0.00031331 -0.0015357 -0.0005919
-0.00079553 1.676e-05 -0.00099722 -0.00042673
-0.0037568 -8.9803e-06 0.0041337 0.00028466 0.25846 -0.19474 0.00047565 0.0016531
-0.0019386 -4.5391e-05 -0.00051795 -0.00080203
0.00315 -0.0012701 -0.00156 -0.00061009 0.00044046 0.0016811 0.24423 0.0017795
-0.004122 0.0098282 0.0016673 -0.0022319
-0.0021 -0.00060217 -0.0008009 3.9802e-05 -0.0019748 -2.3274e-05 -0.0041033 0.0098601
0.2151 0.13463 9.677e-05 0.0099644
0.00047446 0.00043806 -0.00096011 -0.0004472 -0.00055495 -0.00077084 0.0016558 -0.0022658
0.00010633 0.0099271 0.26251 0.16989
1760000000 0.27648 -0.068185 0.0044473 0.0060114 -0.0024664 0.00106 0.0012861 -0.0034477
-0.0014222 0.00076402 0.00026694 -0.00039681
0.0044363 0.006012 0.247 0.20339 0.0017212 -0.001652 -0.0012827 0.0002044
-0.001097 0.00089514 -0.00064132 0.00037344
-0.0024421 0.0010569 0.0016958 -0.0016651 0.21084 -0.22825 0.0010648 0.00098602
-0.0012752 0.001455 -0.0011644 -0.00066658
0.0012843 -0.0034624 -0.0012613 0.00019198 0.0010757 0.0010554 0.23542 -0.049432
-0.00070091 0.0089096 -0.00011644 -0.0027408
-0.0014151 0.00079496 -0.0010612 0.00088554 -0.0012781 0.0014579 -0.0007247 0.0089175
0.23026 0.10006 0.0041274 0.0071435
0.00035895 -0.00046298 -0.00064835 0.00036075 -0.0012907 -0.00070307 -0.00013725 -0.0026342
0.0041262 0.0071654 0.27493 0.13206
1820000000 0.25212 -0.10574 0.0044854 0.0024307 -0.00032464 0.0025248 -0.001009 -0.0031744
-0.0010641 0.0010188 9.2169e-05 5.2498e-05
0.0044948 0.002441 0.25734 0.17322 -0.00084525 -0.00038236 -0.0012791 0.00097546
-6.5619e-05 0.0013195 -0.00058075 0.00060243
-0.00026577 0.0025387 -0.00083828 -0.00039691 0.15914 -0.24422 0.0017336 0.00053036
-0.00014679 0.0024225 -0.001382 0.00040465
-0.00099876 -0.0031411 -0.0012648 0.00098281 0.0016646 0.00046784 0.20523 -0.096655
0.00069361 0.0073588 -0.0017087 -0.0015562
-0.0010741 0.0010366 -6.1527e-05 0.0013118 -0.00014091 0.00241 0.0007018 0.0073598
0.24738 0.071002 0.0049956 0.003674
4.0007e-05 0.00011054 -0.00056757 0.00057019 -0.0013689 0.00030054 -0.0017133 -0.0016536
0.0050139 0.0036307 0.27691 0.095434
1880000000 0.21705 -0.14614 0.0022176 9.8146e-05 -0.00060005 0.0022832 -0.002927 -0.0022162
-0.00022244 0.0017547 6.6264e-06 -0.00063034
0.0022118 0.00010027 0.26212 0.12676 -0.0027239 0.0016185 -0.00017338 0.0017359
0.00053599 0.0013674 5.6808e-05 0.00099933
-0.00054314 0.0022658 -0.002702 0.0016138 0.10749 -0.2533 0.0017773 -0.00093791
0.0014769 0.001981 -0.0011437 0.0012814
-0.0029939 -0.0022128 -0.00017963 0.0017702 0.0018296 -0.00099623 0.16469 -0.13679
0.001575 0.0052501 -0.0023692 0.00019092
-0.00020895 0.0017197 0.00056593 0.0013553 0.0015056 0.0019848 0.0016069 0.0051417
0.25132 0.039547 0.0053157 0.001304
2.8559e-05 -0.00064156 2.113e-05 0.00096765 -0.0012367 0.0013274 -0.0025252 0.00025249
0.0053201 0.0013507 0.27673 0.061551
1940000000 0.17807 -0.17172 -0.00032448 -0.0013636 0.0013119 0.0021809 -0.003729 0.0005233
0.0013639 0.0010812 -0.00048347 -0.00071615
-0.00030882 -0.0013611 0.26291 0.094698 -0.0014833 0.0041256 0.0011116 0.0013231
0.0019125 0.00053914 0.0010677 0.00037883
0.001361 0.0021602 -0.0014445 0.0041636 0.062433 -0.24598 0.00042107 -0.0023144
0.002433 0.00021824 0.00042085 0.0016481
-0.0037132 0.00049046 0.0010777 0.0013036 0.00036349 -0.0022802 0.11269 -0.16724
0.00085439 0.0039406 -0.0017677 0.0015712
0.0013849 0.0010882 0.0019037 0.00049863 0.0023164 0.00023436 0.00091312 0.0040267
0.25437 0.0011108 0.0037941 -0.0020786
-0.00048981 -0.00068359 0.00112 0.00042364 0.00043294 0.0016215 -0.0016832 0.0014262
0.0037645 -0.0020681 0.26603 0.025907
2000000000 0.132 -0.1867 -0.0039933 0.00082747 0.0028556 0.0015538 -0.0023197 0.0038912
0.0012044 0.00046876 -0.00082746 0.00057967
-0.0039744 0.00084418 0.24875 0.059072 -0.00090441 0.00599 0.001599 0.00045256
0.0014586 -0.0011491 0.00054275 0.0001729
0.0028518 0.0016319 -0.00091561 0.0060067 0.019027 -0.2324 -0.001114 -0.0014435
0.0021592 -0.0011272 0.001666 0.0017182
-0.0021983 0.0038754 0.001615 0.00043961 -0.001111 -0.0013778 0.059058 -0.17705
-0.00050519 0.0036992 6.6957e-05 0.0024676
0.0011581 0.0004766 0.0014251 -0.0011538 0.0021213 -0.0011796 -0.0005156 0.0036857
0.24925 -0.032157 0.00079694 -0.002932
