!Keysight Technologies,M9804A,MY58100912,A.14.10.03
!Date: Thursday, April 27, 2023 10:28:33
!Correction: S11(C  6-Port  ) 
!S12(C  6-Port  ) 
!S13(C  6-Port  ) 
!S14(C  6-Port  ) 
!S15(C  6-Port  ) 
!S16(C  6-Port  ) 
!S21(C  6-Port  ) 
!S22(C  6-Port  ) 
!S23(C  6-Port  ) 
!S24(C  6-Port  ) 
!S25(C  6-Port  ) 
!S26(C  6-Port  ) 
!S31(C  6-Port  ) 
!S32(C  6-Port  ) 
!S33(C  6-Port  ) 
!S34(C  6-Port  ) 
!S35(C  6-Port  ) 
!S36(C  6-Port  ) 
!S41(C  6-Port  ) 
!S42(C  6-Port  ) 
!S43(C  6-Port  ) 
!S44(C  6-Port  ) 
!S45(C  6-Port  ) 
!S46(C  6-Port  ) 
!S51(C  6-Port  ) 
!S52(C  6-Port  ) 
!S53(C  6-Port  ) 
!S54(C  6-Port  ) 
!S55(C  6-Port  ) 
!S56(C  6-Port  ) 
!S61(C  6-Port  ) 
!S62(C  6-Port  ) 
!S63(C  6-Port  ) 
!S64(C  6-Port  ) 
!S65(C  6-Port  ) 
!S66(C  6-Port  ) 
!S6P File: Measurement: :
# Hz S  RI   R 50
500000000 -0.33553 -0.052694 -0.011214 -0.001148 -0.0087614 0.013791 -0.0037702 0.011742
0.012875 0.0059159 -0.0040864 0.0083047
-0.011023 -0.00078357 -0.41707 -0.062861 0.0080848 -0.0097695 0.0017306 0.011715
0.0075582 0.0028079 0.0016871 0.013058
-0.0088868 0.014071 0.0076199 -0.010101 -0.26784 0.19983 0.0064937 0.0031206
-0.0024341 0.008841 2.9265e-05 0.011738
-0.0041323 0.011582 0.0018079 0.011875 0.006689 0.0031348 -0.33219 0.044362
-0.019257 -0.0053621 0.016797 0.026088
0.01308 0.0061065 0.0076006 0.0024349 -0.0028979 0.0092012 -0.019054 -0.0061193
-0.2494 -0.19339 -0.027873 0.0042551
-0.0035194 0.0083423 0.0018055 0.013262 0.00049734 0.01163 0.016527 0.027161
-0.027945 0.0045177 -0.2724 -0.11898
560000000 -0.32033 0.1126 -0.024275 -0.065 -0.0008368 0.012946 0.004528 0.011034
0.009395 0.0050937 0.010753 0.0097766
-0.024374 -0.064188 -0.37539 0.099511 -0.041315 -0.038052 0.01351 0.0048076
-0.012782 -0.0022013 0.002632 -0.001814
-0.00077395 0.013348 -0.042633 -0.037707 -0.18703 0.25198 9.1368e-05 -0.0049269
0.017856 0.0053872 0.0082043 -0.0062187
0.0056673 0.011554 0.014015 0.0040869 0.00010068 -0.0045855 -0.30775 0.13679
0.0061167 -0.024146 0.0046131 -0.0208
0.010413 0.0050225 -0.013307 -0.0031577 0.017451 0.0053523 0.0058655 -0.024276
-0.31135 -0.016728 0.010093 -0.048133
0.010222 0.0095034 0.0036144 -0.0012365 0.0079706 -0.0062596 0.0046963 -0.020907
0.0097197 -0.048302 -0.33284 0.028406
620000000 -0.27833 0.09407 -0.023381 0.0088223 0.0042263 0.00991 0.0093045 -0.0043209
0.01271 -0.00089698 0.00157 -0.0025889
-0.023508 0.0088554 -0.40398 0.049473 -0.018639 0.00075086 -0.00087953 -0.0021303
0.011745 -0.0059211 0.001025 -0.002975
0.0039859 0.0098255 -0.018678 0.00095631 -0.15587 0.26111 0.00018674 -0.0054003
-0.0035645 -0.0023268 0.0096034 -0.0026692
0.0090225 -0.0044315 -0.0012187 -0.0020286 0.00029756 -0.005477 -0.26705 0.14668
-0.038711 -0.019948 0.013172 0.027127
0.01208 -0.00071987 0.012059 -0.0058079 -0.0037509 -0.0022546 -0.038447 -0.020645
-0.23229 -0.043692 -0.042426 0.014435
0.0011966 -0.0023895 0.0013839 -0.0027365 0.010284 -0.0024758 0.011958 0.026749
-0.042117 0.014453 -0.25223 -0.00030701
680000000 -0.23923 0.18523 -0.026898 -0.0136 0.0052753 0.0058877 0.0014565 -0.0073753
-0.0014673 -0.011929 0.005469 -0.006386
-0.026611 -0.013391 -0.39 0.15081 -0.032454 -0.0014112 -0.0014119 -0.00046525
-0.0012127 -0.0098283 -0.0010367 -0.0018464
0.0054373 0.0057696 -0.032571 -0.0013602 -0.10325 0.28193 -0.00084523 -0.00044322
-0.0016482 0.00029823 -0.0028851 -0.0087254
0.0018793 -0.0078059 -0.0020476 -0.00052223 -0.000908 -0.00051187 -0.22054 0.19788
-0.023954 -0.0074328 -0.0094535 -0.0099662
-0.0022251 -0.011793 -0.0012429 -0.0099326 -0.0018106 -2.9975e-05 -0.024003 -0.0074295
-0.2795 0.055507 -0.008643 -0.008886
0.0064215 -0.0066044 -0.00082944 -0.0022341 -0.0030042 -0.008691 -0.0090718 -0.0097759
-0.008472 -0.0083902 -0.26052 0.097619
740000000 -0.19339 0.17842 -0.039594 0.027866 0.014013 -0.0048147 -0.00032494 -0.0049219
-0.0053242 -0.0032571 -0.0059728 0.0021613
-0.039156 0.027528 -0.33468 0.16906 -0.036862 0.035729 1.0605e-05 -0.0058279
-0.013007 0.0066524 -0.00189 -0.0063052
0.013844 -0.0045373 -0.037023 0.035412 -0.069874 0.27805 -0.002192 0.0031739
-0.0029956 -0.0063513 -0.0018679 0.0011515
-0.00038875 -0.0044999 3.798e-05 -0.0057856 -0.0021286 0.0032408 -0.20341 0.20445
-0.043301 -0.0064802 0.023398 0.015248
-0.0052014 -0.0036732 -0.01252 0.0063671 -0.0030439 -0.0062059 -0.043088 -0.0069589
-0.17905 0.08396 -0.04234 0.0024757
-0.0064892 0.0028181 -0.0015462 -0.0057992 -0.0018974 0.0010992 0.023258 0.015236
-0.042105 0.0029704 -0.24748 0.10284
800000000 -0.16114 0.22114 -0.021792 0.016074 0.0060975 -0.010854 -0.0044338 -0.0017751
-0.0051032 0.0018416 0.0040934 0.00064898
-0.021923 0.016006 -0.34033 0.23935 -0.0083193 0.034101 -0.0024174 0.0019579
-0.0014745 0.0024198 0.00069077 0.0052847
0.0059915 -0.010877 -0.008042 0.034232 -0.031087 0.30187 0.00082295 0.0015925
-0.00022715 0.0034832 -0.0016247 0.00088253
-0.004447 -0.0018543 -0.0026108 0.0020628 0.00076748 0.0016858 -0.17407 0.23242
-0.029072 0.013998 0.014363 -0.0099378
-0.0050529 0.0019097 -0.0015943 0.0027472 -8.2071e-05 0.0035677 -0.02888 0.013969
-0.22118 0.11227 -0.017884 0.020339
0.0038117 -6.323e-05 0.00073982 0.0051494 -0.0017206 0.00093884 0.014561 -0.010381
-0.018244 0.020421 -0.23999 0.15368
860000000 -0.12634 0.24136 -0.01728 0.030467 -0.0027421 -0.010585 -0.0017419 0.00067614
0.0036234 0.004932 -0.0040454 -0.0021557
-0.017574 0.030271 -0.29274 0.28209 0.0077765 0.034981 0.00015794 0.0024564
0.0032997 0.0014794 0.0026079 0.0011378
-0.0027395 -0.010683 0.0078067 0.034911 0.015953 0.31068 -0.00077251 0.0001817
0.002029 -0.0011438 0.0014709 0.0043175
-0.0019034 0.00064857 6.0886e-05 0.0021426 -0.0008199 4.6013e-05 -0.13705 0.24279
-0.018111 0.018448 -0.0058472 -0.0087705
0.0037679 0.0050155 0.0034726 0.0013718 0.0020166 -0.0011349 -0.018077 0.018811
-0.16345 0.16433 -0.023849 0.01801
-0.0034548 -0.0021496 0.0025693 0.0014748 0.0014249 0.0045387 -0.0059867 -0.0085591
-0.023762 0.018055 -0.19058 0.1982
920000000 -0.10307 0.26405 0.0050098 0.038013 -0.0095001 -0.0054763 -0.0018277 0.0017152
0.0018741 0.0026727 0.0030875 -0.0016971
0.0048623 0.037907 -0.26556 0.3034 0.028597 0.022817 0.0014076 0.0013945
0.0085256 3.5746e-05 0.0044785 -0.0028667
-0.0095618 -0.0054372 0.028593 0.022746 0.061351 0.31229 0.0021098 5.5969e-05
0.0015161 -2.3508e-05 0.001144 -0.0016629
-0.0018965 0.0017386 0.0015616 0.0013526 0.0020836 0.00014691 -0.11316 0.26009
-0.010176 0.031488 0.0038734 -0.0072068
0.0018378 0.0025888 0.0084809 0.00027798 0.0014443 -9.0807e-05 -0.010233 0.031492
-0.15059 0.16868 -0.00094928 0.026064
0.0030259 -0.0016292 0.0043357 -0.0026808 0.0010919 -0.0016474 0.0037818 -0.0071856
-0.00069401 0.026106 -0.1952 0.21036
980000000 -0.056106 0.28401 0.017194 0.030028 -0.0098592 0.0039238 0.0017736 0.0033885
0.0041764 -0.0018707 -0.0029865 -0.0021548
0.017274 0.029879 -0.21274 0.33774 0.034011 0.0052056 0.0021777 -0.00010527
0.0017839 -0.0065554 -4.777e-05 -0.0025165
-0.0098187 0.0040163 0.03408 0.0050648 0.10731 0.30709 0.00078327 -0.0011732
0.00048395 -0.0021521 0.0014257 -0.0002181
0.0017754 0.0034322 0.0021685 -0.00014087 0.00081861 -0.0012068 -0.074485 0.27032
0.0080866 0.03063 -0.0090464 -0.0068781
0.0039929 -0.0021405 0.0017003 -0.0063246 0.00049538 -0.0021077 0.0082068 0.030544
-0.11915 0.19811 0.0064065 0.019749
-0.0031433 -0.0021763 0.00021034 -0.0022628 0.0014071 -0.00019982 -0.0088095 -0.0069282
0.0062988 0.019763 -0.15226 0.25431
1040000000 -0.015539 0.29329 0.0331 0.018765 -0.0020528 0.0071551 0.0025377 0.00079511
0.00046593 -0.0035619 -0.00015056 -0.0019136
0.033026 0.018763 -0.17823 0.35153 0.03046 -0.015132 0.0016436 -0.0018758
-0.002001 -0.0031163 -0.0011967 -0.0032836
-0.0020087 0.0071924 0.030496 -0.015295 0.1537 0.29445 -0.00049952 -0.001724
-0.0016144 -0.0012273 -0.0006581 -0.0011349
0.0025357 0.00078901 0.0017564 -0.0017353 -0.00052573 -0.0017205 -0.047131 0.28026
0.020664 0.018784 -0.0028233 0.00055201
0.00055117 -0.0036258 -0.0020204 -0.003281 -0.0016605 -0.0011888 0.020633 0.018891
-0.084426 0.20448 0.014704 0.017581
-0.00012134 -0.00198 -0.0013767 -0.0032863 -0.00065433 -0.0011245 -0.0028571 0.0005603
0.014692 0.017466 -0.12909 0.27434
1100000000 0.028892 0.30214 0.03664 -0.0038589 0.0026492 0.0043326 0.0023058 -0.00088225
-0.0022217 -0.00293 -0.0040772 7.5466e-05
0.036671 -0.0038326 -0.13531 0.37016 0.015984 -0.028847 0.00011582 -0.0017862
-0.0040833 -0.00098987 -0.0037228 -0.00036159
0.0026577 0.0043284 0.015915 -0.028895 0.20056 0.27494 -0.002118 0.00011621
-0.0019602 0.00051979 -0.0012054 -0.00024845
0.0023282 -0.00093464 1.113e-05 -0.0019151 -0.002108 0.00012505 -0.0069321 0.28562
0.026289 0.0049233 -0.002798 -9.4772e-05
-0.0021777 -0.0028091 -0.0041229 -0.00094722 -0.0019845 0.00051218 0.026308 0.0048881
-0.065028 0.21606 0.019964 0.0080219
-0.0040382 -3.5272e-05 -0.0034805 -0.0002894 -0.001173 -0.00028363 -0.0028408 7.3429e-07
0.019952 0.0080295 -0.083833 0.30201
1160000000 0.079911 0.29858 0.024666 -0.021241 0.0026898 -0.00032307 3.6398e-05 -0.0022083
-0.0039634 -0.00079138 -0.0012342 0.0040382
0.024661 -0.021377 -0.091735 0.37559 -0.0039004 -0.03039 -0.001716 -0.0017632
-0.0030441 0.0027501 -0.0016534 0.0019884
0.0026482 -0.00030852 -0.0040087 -0.030441 0.24444 0.24428 -0.00096335 0.001897
-0.00068808 0.0021886 -0.00093005 0.00051866
5.1362e-06 -0.0022024 -0.0016866 -0.0016674 -0.00094472 0.0018781 0.032604 0.28303
0.022391 -0.011614 -0.0035086 0.0048112
-0.0040425 -0.00088974 -0.0029728 0.0027948 -0.00067561 0.002181 0.022365 -0.011664
-0.030096 0.22349 0.019378 -0.0014345
-0.0013195 0.0041077 -0.0016754 0.0017752 -0.0010199 0.00047217 -0.0033954 0.0049916
0.019321 -0.0012813 -0.036552 0.30507
1220000000 0.12388 0.28932 0.010656 -0.030946 -0.0017167 -0.00081475 0.00016296 -0.0008358
-0.0029143 0.00214 0.0010851 0.0021864
0.010687 -0.030913 -0.047015 0.38894 -0.017859 -0.022268 -0.0027283 0.0005186
2.3073e-05 0.0034531 -0.00090836 0.0020566
-0.0017423 -0.00080497 -0.018007 -0.02222 0.28352 0.20465 0.00083494 0.0019452
0.00083389 0.0013928 0.00036478 0.00063477
0.00015996 -0.00079935 -0.0027388 0.0005477 0.00081401 0.0019674 0.072823 0.27425
0.011057 -0.019261 0.0017151 0.0017401
-0.0028843 0.0022472 9.9612e-06 0.0034537 0.000828 0.0013814 0.011018 -0.019215
-0.0068805 0.23136 0.013912 -0.014379
0.0010487 0.0022182 -0.00091291 0.0020719 0.00036068 0.00067498 0.0016753 0.001743
0.013893 -0.014388 -0.0046095 0.31971
1280000000 0.17448 0.26883 -0.008647 -0.029499 -0.00213 0.0028796 -0.00065428 -0.0021757
-0.00078014 0.0032899 0.0027329 0.0013489
-0.0086867 -0.029447 -0.00021766 0.38078 -0.025261 -0.0087137 -0.0010155 0.0015379
0.0020269 0.0019131 0.0008364 0.0021215
-0.0020487 0.0028486 -0.02531 -0.0086255 0.31351 0.1607 0.0018247 -7.7533e-05
0.0014253 0.00027537 0.00027012 0.00026723
-0.00067412 -0.0021375 -0.00094941 0.0014965 0.0019025 -7.1187e-05 0.11 0.25794
5.227e-05 -0.021354 -0.00045847 0.00039244
-0.0007548 0.0032877 0.0020312 0.0019767 0.0014468 0.00028803 4.8182e-05 -0.021341
0.029596 0.23441 0.0026766 -0.016523
0.0027052 0.0012474 0.00087993 0.0021514 0.00027436 0.00033008 -0.00036497 0.00038566
0.002637 -0.016478 0.042575 0.32131
1340000000 0.21225 0.23619 -0.018789 -0.019021 0.00090354 0.0050819 -0.0018373 -0.0010073
0.0014221 0.002815 0.0018938 -0.0014671
-0.018737 -0.019046 0.040125 0.37242 -0.022672 0.0049296 4.1138e-05 0.0020862
0.002216 0.00063143 0.0013458 0.00072572
0.00091771 0.0051193 -0.022671 0.0050057 0.33468 0.11352 0.001222 -0.0011161
0.00062217 -0.00071665 -4.9459e-05 0.00024164
-0.0018953 -0.00096941 1.1201e-05 0.0021465 0.0012411 -0.0011216 0.14302 0.23673
-0.010449 -0.017885 0.00055093 0.00092736
0.0014356 0.0027965 0.002239 0.00062502 0.00066318 -0.00074434 -0.010487 -0.017884
0.059494 0.2298 -0.0052216 -0.015139
0.0019067 -0.0014591 0.0012993 0.00076178 1.9093e-05 0.00019235 0.00043061 0.00093158
-0.0052126 -0.015154 0.080555 0.31515
1400000000 0.24635 0.19863 -0.024555 -0.0067358 0.0057405 0.003673 -0.0023628 0.00060874
0.002605 0.0011003 0.00023244 -0.0017778
-0.024475 -0.0067636 0.077832 0.35934 -0.015432 0.013532 0.0014887 0.0012742
0.001345 -0.0010422 0.0011718 1.3784e-05
0.0057642 0.0036384 -0.015384 0.013638 0.34722 0.061033 3.1461e-05 -0.0019006
6.4155e-05 -0.00043136 0.00033811 0.00030152
-0.002391 0.00062535 0.0014799 0.0012466 -1.8828e-05 -0.0018874 0.17253 0.2076
-0.017033 -0.0098018 -0.00088085 0.00031092
0.0025962 0.0010883 0.0012746 -0.0010204 4.3495e-05 -0.00041064 -0.017074 -0.0097419
0.092535 0.22521 -0.011669 -0.0092747
0.0002755 -0.00181 0.0012274 3.1682e-05 0.00035558 0.00036435 -0.00070845 0.00035405
-0.011631 -0.0092077 0.12422 0.30346
1460000000 0.26998 0.15487 -0.020709 0.0060481 0.0063413 -0.0018077 -0.0016433 0.00194
0.0024342 -0.00048642 -0.00040865 -0.0010224
-0.02072 0.0060496 0.11211 0.33687 -0.0057209 0.016687 0.0017431 -3.1036e-05
0.00075455 -0.0015487 0.0011226 -0.00066201
0.0063492 -0.0018308 -0.005693 0.016709 0.3539 0.0084056 -0.0014558 -0.0013838
0.00011253 -0.0002031 0.00083091 -0.00026368
-0.0016705 0.0019364 0.0017768 3.9359e-05 -0.0014184 -0.0013902 0.19874 0.17793
-0.017877 -0.001742 -0.00060429 0.0025025
0.0024184 -0.00050903 0.00071142 -0.0015243 9.4043e-05 -0.00020668 -0.017912 -0.0017098
0.12186 0.21106 -0.01363 -0.0025383
-0.00047565 -0.0010313 0.0011308 -0.00073059 0.00080337 -0.00020598 -0.0006508 0.0024077
-0.013625 -0.0025575 0.15728 0.2825
1520000000 0.28269 0.11292 -0.014324 0.011511 0.0039115 -0.0046479 0.00020889 0.0027215
0.0022612 -0.0021239 -0.0013151 -0.00012786
-0.014326 0.011491 0.14523 0.32213 0.0024388 0.013796 0.001614 -0.00083352
-0.0001463 -0.0010684 0.00031252 -0.0010463
0.0038416 -0.004718 0.0025124 0.013783 0.34776 -0.046739 -0.0012543 -0.00020188
0.00063121 -0.00099165 7.9257e-05 -0.00018655
0.00019035 0.0026888 0.0016056 -0.00084501 -0.0012361 -0.0002633 0.2216 0.13951
-0.016003 0.0052687 0.002079 0.0022503
0.0022724 -0.0021772 -0.00012978 -0.0010357 0.00068024 -0.00098195 -0.015958 0.0052783
0.15011 0.19756 -0.012969 0.0029607
-0.0013419 -7.7303e-05 0.00027276 -0.0011007 7.4835e-05 -0.00020626 0.0020404 0.0022345
-0.012961 0.0029379 0.18952 0.26134
1580000000 0.29249 0.066497 -0.0069433 0.014296 -0.00093166 -0.0055738 0.0017184 0.0019272
-0.00029471 -0.0024163 -0.00011747 0.00041923
-0.006968 0.014269 0.17204 0.2975 0.0062088 0.008272 0.00041367 -0.0016638
-0.00063167 -0.00089086 -0.00026178 -0.00088099
-0.00093658 -0.0055371 0.0062742 0.0082803 0.32914 -0.1039 -0.0016118 0.00081757
-0.00042133 -0.0012218 0.00034681 -0.00070109
0.0016712 0.0019074 0.00043821 -0.0016736 -0.0016097 0.00084779 0.23484 0.10008
-0.010905 0.010136 0.0026479 0.00054603
-0.00027703 -0.002505 -0.00063795 -0.00093222 -0.00046418 -0.0012729 -0.010857 0.010174
0.17485 0.17959 -0.0096183 0.00881
-0.00014106 0.00036842 -0.00024292 -0.00088014 0.00034267 -0.00065602 0.0025786 0.0005727
-0.0096727 0.0088445 0.22115 0.23496
1640000000 0.29431 0.025369 -4.4255e-05 0.012269 -0.003103 -0.0030687 0.0027405 0.00092845
-0.0010355 -0.001791 -0.00042112 0.00061814
-1.7474e-05 0.012267 0.20108 0.27311 0.0066307 0.0030452 -0.00070683 -0.001713
-0.00089631 -0.00025957 -0.00061658 -0.00070967
-0.003109 -0.0030285 0.0066104 0.002988 0.30177 -0.15323 -0.00050283 0.0015342
-0.0011607 -0.00098723 -0.00025417 -0.00042033
0.0027734 0.00087911 -0.0007571 -0.0017282 -0.00049424 0.001516 0.24674 0.051634
-0.0055487 0.010544 0.0027006 -0.001013
-0.0010241 -0.0017518 -0.00091871 -0.00024524 -0.0011694 -0.00098808 -0.0055088 0.010576
0.19835 0.1551 -0.0042577 0.010716
-0.00030576 0.00064537 -0.00055523 -0.00065502 -0.00023351 -0.00046746 0.0027973 -0.00099163
-0.0042765 0.010709 0.24591 0.20372
1700000000 0.28713 -0.019476 0.0031517 0.0087263 -0.0039921 -0.00016005 0.0031724 -0.0013553
-0.002225 -0.00050157 0.00065429 0.00035316
0.0031329 0.0087405 0.21897 0.2424 0.0042517 -0.00015088 -0.0015283 -0.00056208
-0.00067097 1.3196e-05 -0.000931 -0.00034626
-0.0039545 -0.00012622 0.0042782 -0.00011829 0.25935 -0.19359 0.00057213 0.0015747
-0.0021649 7.6116e-05 -0.0005207 -0.00088016
0.0031644 -0.001349 -0.0014911 -0.00056402 0.00055978 0.0014888 0.24322 0.0024323
-0.0022402 0.0098591 0.0016611 -0.0024496
-0.0022472 -0.00052767 -0.0006486 2.8333e-05 -0.0020961 1.4221e-05 -0.0021897 0.0098342
0.21575 0.13438 0.00068965 0.01065
0.00049486 0.00033524 -0.001001 -0.00044473 -0.00055768 -0.00086936 0.0016714 -0.00254
0.00066168 0.010714 0.26191 0.17012
1760000000 0.27555 -0.067535 0.0048354 0.0049815 -0.0026709 0.00099044 0.0010919 -0.0035151
-0.0015168 0.00094119 0.00028756 -0.00061544
0.0048377 0.005026 0.24521 0.20355 0.0016027 -0.0020007 -0.0012061 0.000219
-0.0010086 0.00077702 -0.00062523 0.00035919
-0.002743 0.0010555 0.001614 -0.0019956 0.21143 -0.22741 0.0011583 0.00087728
-0.0011335 0.0016245 -0.0013631 -0.00060344
0.0011203 -0.0035128 -0.0011972 0.000256 0.001145 0.00094965 0.23462 -0.0484
0.00065028 0.0077283 -0.00013075 -0.0029029
-0.001448 0.00099458 -0.0010252 0.00080793 -0.0011539 0.0016477 0.00065176 0.0077755
0.23088 0.099443 0.0050371 0.0075468
0.00026581 -0.00055987 -0.00059146 0.0004483 -0.0013048 -0.00067135 -0.00026288 -0.0028528
0.0050166 0.0075323 0.27482 0.13237
1820000000 0.2516 -0.10446 0.0042532 0.0015318 -0.0004271 0.0028177 -0.001152 -0.0030946
-0.0010107 0.0012393 -0.00018417 6.3658e-05
0.0042437 0.0015035 0.25582 0.17423 -0.00094961 -0.00059996 -0.0012858 0.00094975
-0.00018376 0.0011005 -0.00059639 0.00057093
-0.00039199 0.0027173 -0.00082175 -0.0006402 0.16053 -0.24364 0.001473 0.00041188
-5.3184e-05 0.0024809 -0.0014662 0.00054525
-0.0011972 -0.0030983 -0.0012359 0.00097258 0.0015217 0.00037358 0.20518 -0.095203
0.0013567 0.0060189 -0.0019469 -0.0019069
-0.00095152 0.0012238 -0.0001575 0.0011074 -6.4237e-05 0.002487 0.0014031 0.0059862
0.24765 0.070252 0.0059788 0.0035399
-8.7101e-05 7.8389e-05 -0.00063391 0.00059418 -0.0015027 0.00057877 -0.0018343 -0.0018885
0.006002 0.003519 0.2773 0.096
1880000000 0.21717 -0.14485 0.0016747 -0.00044911 -0.00066432 0.0023771 -0.0029088 -0.0020699
6.13e-05 0.001846 0.00020469 -0.00051343
0.0016304 -0.00042037 0.26116 0.12821 -0.0029266 0.0014275 -0.00019775 0.0017356
0.0003874 0.0013408 8.3843e-05 0.00092855
-0.00064093 0.0024379 -0.0030004 0.0014547 0.10871 -0.2535 0.0016995 -0.00079302
0.0016815 0.0019101 -0.001048 0.0014445
-0.0029506 -0.0021206 -0.00020549 0.0017456 0.0017335 -0.00075731 0.16549 -0.13552
0.0014857 0.0038818 -0.0026018 3.9298e-05
4.7213e-05 0.0018298 0.00039595 0.0013057 0.0016848 0.0019249 0.0014495 0.0038908
0.25109 0.038595 0.0060256 0.00080285
3.2731e-05 -0.00058038 0.00014747 0.00085784 -0.00098182 0.0015459 -0.0027386 5.5131e-06
0.005896 0.00083001 0.27717 0.061971
1940000000 0.17859 -0.17037 -0.00097456 -0.0015555 0.0012333 0.0022974 -0.0035614 0.00041018
0.0015065 0.00094237 -0.00062857 -0.00054231
-0.00098401 -0.0015249 0.26269 0.096399 -0.0018247 0.0040765 0.0011117 0.0012915
0.0018068 0.00066762 0.0010196 0.00040379
0.0012699 0.0022652 -0.0018318 0.0040358 0.062932 -0.2467 0.00068131 -0.0021918
0.002534 0.000239 0.00083503 0.0017454
-0.0034802 0.00055422 0.0011339 0.001336 0.00053765 -0.0021488 0.11361 -0.16648
0.00017238 0.0030965 -0.0018309 0.001629
0.0015034 0.0010191 0.0018009 0.00070212 0.0024977 0.00023423 0.00016891 0.0031315
0.25371 0.00034892 0.0043199 -0.0026663
-0.00060514 -0.00034841 0.001056 0.00041034 0.00093665 0.0015731 -0.0017657 0.0016226
0.0043892 -0.0027203 0.26635 0.025365
2000000000 0.13315 -0.18588 -0.0044416 0.00096763 0.0028349 0.0018937 -0.002234 0.0037762
0.0011717 0.00023977 -0.00061272 0.00080484
-0.0044909 0.00091863 0.24934 0.060643 -0.0012093 0.0059271 0.0017118 0.00044438
0.0015259 -0.00086117 0.00039755 3.8905e-05
0.0027351 0.0017392 -0.0011911 0.0059438 0.019393 -0.23339 -0.0011803 -0.0015162
0.0020925 -0.0013034 0.0015674 0.0011722
-0.0022779 0.0036901 0.0016806 0.00041484 -0.0010757 -0.0014776 0.060675 -0.17729
-0.0012144 0.0031479 -0.00032728 0.0023065
0.0012548 0.00017182 0.0015365 -0.00085366 0.0021267 -0.0012461 -0.0010685 0.0031558
0.24826 -0.032577 0.0010161 -0.0039218
