!Keysight Technologies,M9804A,MY58100912,A.14.10.03
!Date: Thursday, April 27, 2023 10:28:33
!Correction: S11(C  6-Port  ) 
!S12(C  6-Port  ) 
!S13(C  6-Port  ) 
!S14(C  6-Port  ) 
!S15(C  6-Port  ) 
!S16(C  6-Port  ) 
!S21(C  6-Port  ) 
!S22(C  6-Port  ) 
!S23(C  6-Port  ) 
!S24(C  6-Port  ) 
!S25(C  6-Port  ) 
!S26(C  6-Port  ) 
!S31(C  6-Port  ) 
!S32(C  6-Port  ) 
!S33(C  6-Port  ) 
!S34(C  6-Port  ) 
!S35(C  6-Port  ) 
!S36(C  6-Port  ) 
!S41(C  6-Port  ) 
!S42(C  6-Port  ) 
!S43(C  6-Port  ) 
!S44(C  6-Port  ) 
!S45(C  6-Port  ) 
!S46(C  6-Port  ) 
!S51(C  6-Port  ) 
!S52(C  6-Port  ) 
!S53(C  6-Port  ) 
!S54(C  6-Port  ) 
!S55(C  6-Port  ) 
!S56(C  6-Port  ) 
!S61(C  6-Port  ) 
!S62(C  6-Port  ) 
!S63(C  6-Port  ) 
!S64(C  6-Port  ) 
!S65(C  6-Port  ) 
!S66(C  6-Port  ) 
!S6P File: Measurement: :
# Hz S  RI   R 50
500000000 -0.33425 -0.053303 -0.009882 -0.0015752 -0.0082656 0.013096 -0.0048048 0.011766
0.013203 0.0052913 -0.0053466 0.0078046
-0.0094526 -0.0015373 -0.41652 -0.062958 0.0081934 -0.010267 0.0016135 0.011937
0.007899 0.0028032 0.0016601 0.013354
-0.0079637 0.01291 0.0080906 -0.010353 -0.26733 0.19976 0.0065156 0.003779
-0.0013235 0.0083234 0.00012559 0.012267
-0.0043966 0.011658 0.0015757 0.012039 0.0065284 0.003684 -0.33143 0.043605
-0.019307 -0.0049397 0.017521 0.025808
0.012899 0.0058756 0.0078267 0.0030586 -0.0013174 0.0084447 -0.019372 -0.004907
-0.24844 -0.19265 -0.027039 0.0034697
-0.0046781 0.0075707 0.0017375 0.013341 0.00018027 0.012106 0.01743 0.025757
-0.027129 0.0035519 -0.27094 -0.11809
560000000 -0.31817 0.11314 -0.022758 -0.064086 -0.00047308 0.013095 0.0053007 0.010808
0.010059 0.0037359 0.011225 0.0093306
-0.022818 -0.064287 -0.37624 0.099813 -0.04214 -0.038277 0.013752 0.0043814
-0.012296 -0.0033115 0.0038855 -0.0007098
-0.00029492 0.013304 -0.042101 -0.038608 -0.18485 0.25117 -0.00062179 -0.0047612
0.018963 0.005937 0.0078339 -0.0051812
0.0055979 0.01061 0.01354 0.0046033 -0.00073204 -0.0047105 -0.30644 0.13539
0.0049773 -0.024438 0.0051186 -0.021002
0.0099234 0.0037926 -0.0123 -0.0032906 0.018898 0.0057312 0.0050423 -0.024507
-0.30996 -0.013613 0.0075184 -0.04698
0.011484 0.0090283 0.0037996 -0.00068278 0.0079771 -0.0052296 0.0051126 -0.020827
0.0077778 -0.046607 -0.33123 0.02678
620000000 -0.27797 0.09324 -0.023067 0.0088791 0.0037643 0.0094932 0.0084219 -0.004714
0.011973 -0.00070701 0.00076739 -0.0027528
-0.023098 0.0087956 -0.40373 0.049405 -0.0185 0.00097515 -0.0014195 -0.0018828
0.012239 -0.0059961 0.0010496 -0.0032562
0.0037248 0.0093367 -0.018524 0.00098597 -0.1557 0.26084 -0.00055157 -0.0051049
-0.0033459 -0.0029895 0.0090822 -0.0027757
0.0084564 -0.0050757 -0.0016445 -0.0019434 -0.00044682 -0.0051561 -0.26591 0.14557
-0.038503 -0.019621 0.013473 0.02721
0.011717 -2.49e-05 0.012337 -0.0058798 -0.0034369 -0.002936 -0.0383 -0.019433
-0.23083 -0.045548 -0.041093 0.011919
0.00085912 -0.0032723 0.00085257 -0.0035054 0.0092132 -0.0029189 0.013212 0.026434
-0.041033 0.012637 -0.25021 -0.0031933
680000000 -0.23901 0.18424 -0.026344 -0.014155 0.0051249 0.0053501 0.001823 -0.0074855
-0.001828 -0.011782 0.005861 -0.0073914
-0.026207 -0.014178 -0.38976 0.15048 -0.032073 -0.0018397 -0.0012898 -0.00053561
-0.0014157 -0.0094278 -0.0011087 -0.0018737
0.0050646 0.0053494 -0.032097 -0.0017504 -0.10347 0.28112 -0.00066811 -0.00049508
-0.0015195 0.00010947 -0.0028059 -0.0090623
0.0018815 -0.0076799 -0.0013421 -0.00064191 -0.00067404 -0.00043727 -0.22021 0.19808
-0.023461 -0.0087426 -0.009097 -0.010879
-0.0017882 -0.011757 -0.0014051 -0.0093855 -0.0015644 0.00014881 -0.023522 -0.0085886
-0.27922 0.056011 -0.0077923 -0.0078801
0.0057665 -0.0076922 -0.0011034 -0.0019787 -0.0028843 -0.0090522 -0.0088944 -0.010658
-0.0078945 -0.0080055 -0.2602 0.098446
740000000 -0.19301 0.17759 -0.039745 0.027089 0.013707 -0.0049129 -0.00030874 -0.0044453
-0.0045826 -0.0031681 -0.0065151 0.003157
-0.039558 0.026972 -0.33518 0.16915 -0.036844 0.034745 -0.0002994 -0.0060849
-0.012864 0.0072161 -0.0013476 -0.0060076
0.013637 -0.0048396 -0.036777 0.034917 -0.069232 0.27827 -0.0022364 0.0031832
-0.0029032 -0.0057209 -0.0014832 0.0012899
-0.00023581 -0.0044155 -0.00039329 -0.0061666 -0.0022299 0.0032089 -0.203 0.20456
-0.043076 -0.0075796 0.023376 0.015263
-0.0046536 -0.0030845 -0.012729 0.0072391 -0.0028969 -0.0056906 -0.043049 -0.0075145
-0.18066 0.082988 -0.041746 0.00072173
-0.0063879 0.0030778 -0.0014826 -0.006107 -0.0015278 0.001271 0.023369 0.015247
-0.041572 0.00069331 -0.24755 0.10479
800000000 -0.16199 0.221 -0.0224 0.016069 0.0056391 -0.010462 -0.0044001 -0.0020333
-0.0049059 0.0022747 0.0041554 0.00030413
-0.022442 0.016033 -0.34102 0.23927 -0.008605 0.033875 -0.0025102 0.0020144
-0.001652 0.0027728 0.0008023 0.0050947
0.0056419 -0.01049 -0.0084909 0.033974 -0.031043 0.30209 0.00082978 0.0016364
-0.00019064 0.0035327 -0.0017159 0.00096144
-0.0044283 -0.00199 -0.0025477 0.0021039 0.00082739 0.0016497 -0.17388 0.2328
-0.028706 0.0128 0.013679 -0.010021
-0.0049416 0.0022965 -0.0016238 0.0027493 -0.00021099 0.0035337 -0.028686 0.012831
-0.22025 0.11224 -0.017213 0.019098
0.0042661 0.00040862 0.00079703 0.0052791 -0.0016961 0.00097254 0.013618 -0.010004
-0.017093 0.019145 -0.23944 0.15236
860000000 -0.12708 0.24094 -0.017522 0.030247 -0.0027493 -0.010343 -0.0016443 0.00052034
0.0041096 0.0054292 -0.0033055 -0.0029378
-0.017549 0.030269 -0.29233 0.28169 0.0075159 0.0343 0.000366 0.0018248
0.0041352 0.0010617 0.0035576 0.00017368
-0.0027651 -0.010347 0.0076251 0.034332 0.01651 0.31034 -0.0004871 -2.9012e-05
0.0023571 -0.001276 0.0016739 0.0042427
-0.0014886 0.00056284 0.00034188 0.0018228 -0.00048881 -2.5548e-05 -0.13676 0.24287
-0.017536 0.017755 -0.0057711 -0.0088993
0.0040274 0.0052528 0.0040459 0.0011237 0.0023667 -0.0012659 -0.017501 0.017801
-0.16345 0.16323 -0.023475 0.016517
-0.0032557 -0.0027593 0.0034447 0.00021275 0.0016654 0.0042313 -0.0056341 -0.0088547
-0.023563 0.016574 -0.18974 0.19583
920000000 -0.10365 0.26422 0.0046222 0.038061 -0.0091703 -0.0050704 -0.0017961 0.0016709
0.0016923 0.0018656 0.0031724 -0.0014551
0.0045155 0.038011 -0.26559 0.30321 0.028097 0.022711 0.0015485 0.0012809
0.0081057 -0.00024802 0.0042667 -0.0026755
-0.0091833 -0.0050654 0.028192 0.022671 0.061671 0.31177 0.0020365 0.0001067
0.0013184 -0.00045727 0.0009041 -0.0011606
-0.0018195 0.0016955 0.0014771 0.0013258 0.0020283 0.0001039 -0.11282 0.2594
-0.010427 0.030302 0.0030985 -0.0068587
0.0017487 0.0017872 0.0081806 -0.00025428 0.0013543 -0.00044511 -0.010395 0.030357
-0.15291 0.16718 -0.0016015 0.026518
0.0031803 -0.001468 0.0042649 -0.0027154 0.00087034 -0.0011902 0.0030741 -0.0067709
-0.0016019 0.026533 -0.19589 0.2101
980000000 -0.057057 0.28424 0.016925 0.029938 -0.0095163 0.0040788 0.0018407 0.0034215
0.0037621 -0.0018879 -0.0030637 -0.0021714
0.016864 0.029841 -0.21235 0.33776 0.03331 0.0053945 0.0021437 -0.00010151
0.0018167 -0.0061403 -6.5658e-05 -0.0024919
-0.0095028 0.0041024 0.033351 0.0052985 0.1074 0.30622 0.00067923 -0.0011496
0.00057533 -0.0019752 0.0014822 -0.00014004
0.0018602 0.0034865 0.002111 -9.7111e-05 0.0006587 -0.0011502 -0.074723 0.27015
0.0069909 0.029879 -0.0088398 -0.006651
0.0038328 -0.0019065 0.0017753 -0.0061557 0.00056984 -0.0019579 0.0070239 0.02988
-0.1188 0.19715 0.0061784 0.019169
-0.0030306 -0.0022177 -6.9833e-05 -0.0024658 0.0014827 -0.0001822 -0.0088086 -0.0066875
0.0061852 0.019212 -0.15246 0.25323
1040000000 -0.015848 0.29335 0.032749 0.018971 -0.001813 0.0069468 0.0026759 0.00092134
0.00013109 -0.0037232 -0.00030194 -0.0016732
0.032685 0.018949 -0.17773 0.35126 0.030029 -0.014532 0.0016033 -0.001682
-0.0021639 -0.0029898 -0.00099803 -0.0029128
-0.0017688 0.00696 0.029993 -0.014629 0.15327 0.29338 -0.00042505 -0.0016443
-0.0015877 -0.0010238 -0.00059678 -0.0011192
0.0026812 0.00094932 0.0015727 -0.0016211 -0.00043448 -0.0016544 -0.047281 0.28013
0.019213 0.018749 -0.002697 0.0011387
0.00011297 -0.0037588 -0.0021624 -0.0029639 -0.0015973 -0.0010376 0.019281 0.018731
-0.085493 0.20369 0.01398 0.017621
-0.00029653 -0.0015988 -0.0011094 -0.0028883 -0.00058803 -0.0011253 -0.0027025 0.001187
0.013898 0.017667 -0.12964 0.27396
1100000000 0.028944 0.30256 0.036289 -0.0035058 0.0026508 0.004235 0.0025352 -0.0010075
-0.0021518 -0.0029196 -0.0039634 -9.6628e-06
0.036257 -0.0034788 -0.13474 0.36938 0.015975 -0.027894 0.00016129 -0.0018382
-0.003672 -0.00088014 -0.0035429 -0.00058558
0.0026841 0.0042453 0.015882 -0.027986 0.19934 0.27417 -0.0019485 6.1781e-05
-0.0018409 0.00047842 -0.0011784 -0.00043003
0.0025488 -0.00097845 0.0001062 -0.0018153 -0.0019796 6.6156e-05 -0.0072441 0.28521
0.02486 0.0055066 -0.0026483 0.00023724
-0.0021449 -0.0029337 -0.0036482 -0.00085884 -0.0018651 0.00049067 0.024874 0.0054658
-0.065204 0.21644 0.019543 0.0081511
-0.0039407 1.9079e-05 -0.00357 -0.00058766 -0.0011715 -0.00043313 -0.0025899 0.00018777
0.019578 0.0081302 -0.084066 0.30191
1160000000 0.07975 0.29866 0.024477 -0.020594 0.002655 -0.00038134 -7.7143e-05 -0.0023315
-0.0039937 -0.00081158 -0.0010548 0.004165
0.02445 -0.020584 -0.091493 0.37424 -0.0032428 -0.029672 -0.0016185 -0.0018059
-0.0028179 0.0025694 -0.0016199 0.0020673
0.0026739 -0.00039372 -0.0033887 -0.02969 0.24273 0.24423 -0.00090738 0.0018147
-0.00072016 0.0020408 -0.0008263 0.00026483
-6.2671e-05 -0.0023663 -0.0016029 -0.0017825 -0.0008854 0.001812 0.031967 0.28262
0.021513 -0.010238 -0.0031983 0.0049902
-0.0040053 -0.00082528 -0.0028131 0.002597 -0.00070618 0.0020629 0.021482 -0.010248
-0.03062 0.22373 0.018266 -0.00098961
-0.00091522 0.004216 -0.0016019 0.0021304 -0.00082268 0.0002818 -0.003219 0.0048976
0.01823 -0.0010267 -0.037026 0.30467
1220000000 0.12373 0.28906 0.011014 -0.030154 -0.001598 -0.00081801 6.6555e-05 -0.00097041
-0.0027068 0.0021841 0.0011116 0.0020104
0.011007 -0.030109 -0.047643 0.38743 -0.016926 -0.022037 -0.00272 0.00047903
-7.5082e-05 0.0031849 -0.000879 0.0019004
-0.0015999 -0.00079968 -0.017052 -0.021985 0.28194 0.20582 0.00072192 0.0018753
0.00063613 0.0012769 0.00029435 0.00055543
8.1281e-05 -0.00097955 -0.0027237 0.00047752 0.00072247 0.0018496 0.072078 0.27408
0.011003 -0.017276 0.0019204 0.0015731
-0.0026616 0.002221 -5.314e-05 0.0031949 0.00064357 0.0012703 0.010979 -0.017307
-0.0073098 0.23185 0.013563 -0.013183
0.0010962 0.0020098 -0.0008408 0.0018615 0.00029751 0.00055285 0.0019319 0.0015972
0.013567 -0.013189 -0.0049861 0.31912
1280000000 0.17408 0.26864 -0.0077564 -0.028819 -0.0020069 0.0026242 -0.00081007 -0.0021549
-0.00070422 0.0032424 0.0024932 0.0014135
-0.0077282 -0.028782 -0.0016623 0.37949 -0.024325 -0.0090891 -0.0010828 0.0015275
0.001774 0.00184 0.00052683 0.0020521
-0.0019861 0.0026176 -0.024393 -0.00898 0.31288 0.16242 0.001642 5.5279e-05
0.0012601 0.00034071 0.00036527 0.00024883
-0.00078464 -0.0021318 -0.0010338 0.0015361 0.0016405 6.0147e-05 0.10902 0.25815
0.0011468 -0.019598 -1.4631e-05 0.00025093
-0.00073425 0.003209 0.0017822 0.0018598 0.0012483 0.00034979 0.0011181 -0.019624
0.02948 0.23477 0.0026452 -0.015362
0.0025406 0.0013836 0.00056563 0.002047 0.00037113 0.000249 6.4358e-06 0.00025207
0.0026593 -0.01532 0.041955 0.32052
1340000000 0.21162 0.23604 -0.017636 -0.019163 0.00083045 0.0048515 -0.001857 -0.00086553
0.0013832 0.0026114 0.0019109 -0.001451
-0.017595 -0.019143 0.038003 0.37206 -0.022166 0.0041264 -9.6973e-05 0.0021043
0.0020914 0.00077815 0.0012884 0.00073866
0.00085476 0.0048657 -0.022199 0.004225 0.33514 0.11527 0.0011702 -0.00092047
0.00060622 -0.00061695 2.8702e-05 0.0001867
-0.0019034 -0.00086578 -9.0758e-05 0.0021113 0.0011793 -0.0009401 0.14243 0.23738
-0.0084797 -0.016992 0.00080779 0.00064139
0.001388 0.0025875 0.0020864 0.00074086 0.00059851 -0.00062639 -0.0085087 -0.016973
0.059429 0.22959 -0.0043163 -0.013953
0.0018606 -0.0014439 0.0012921 0.00074258 3.2849e-05 0.00021661 0.00078771 0.00061076
-0.0043275 -0.013955 0.07979 0.31511
1400000000 0.24559 0.19895 -0.023566 -0.0075486 0.0054389 0.0035099 -0.0022645 0.0005856
0.0024882 0.0010523 0.00036969 -0.0016629
-0.023515 -0.0075432 0.075753 0.35988 -0.015449 0.012699 0.0014341 0.0013192
0.0013131 -0.00086112 0.0011646 0.00015554
0.0054555 0.0034952 -0.015389 0.012795 0.34846 0.062479 0.00013978 -0.0017309
8.9085e-05 -0.00045925 0.00030244 0.00022884
-0.0022637 0.00059495 0.001443 0.0013228 0.0001279 -0.0017148 0.17215 0.20845
-0.014764 -0.010141 -0.00070702 -0.00012361
0.0024851 0.0010197 0.0012951 -0.0008547 8.2775e-05 -0.00045028 -0.014792 -0.010105
0.092343 0.22525 -0.010347 -0.0087614
0.00036273 -0.0016565 0.0012068 0.00012081 0.00029279 0.00019525 -0.00067398 -9.8893e-05
-0.010345 -0.0087679 0.12354 0.30358
1460000000 0.26922 0.15533 -0.02043 0.0047893 0.0060124 -0.0017222 -0.0015921 0.0018022
0.0022164 -0.00045129 -0.00035318 -0.001032
-0.020417 0.0047691 0.11051 0.33837 -0.0063262 0.01596 0.0017721 0.00013429
0.0008815 -0.001408 0.0011853 -0.00059897
0.0060224 -0.0017569 -0.0062619 0.016015 0.35532 0.0086249 -0.0012538 -0.0013737
0.0001058 -0.00021853 0.00071812 -0.00025467
-0.0015848 0.0018217 0.0017705 0.00013013 -0.0012533 -0.0013925 0.19894 0.17897
-0.016077 -0.0034041 -0.00078778 0.0020913
0.0022249 -0.0004573 0.00086007 -0.0014219 0.00010008 -0.00022154 -0.016099 -0.003369
0.12177 0.21078 -0.012211 -0.0027837
-0.00035596 -0.0010353 0.001209 -0.00057491 0.00074196 -0.00024914 -0.00080341 0.002043
-0.012214 -0.0027788 0.15674 0.28299
1520000000 0.28219 0.11392 -0.014683 0.010285 0.00365 -0.0044711 0.00010117 0.0025881
0.0021144 -0.0020166 -0.0012748 -0.00015847
-0.014685 0.010263 0.14445 0.32407 0.0017034 0.013654 0.0016446 -0.00081243
1.3973e-05 -0.0011672 0.00029553 -0.0010738
0.0036224 -0.0045119 0.001785 0.013667 0.34898 -0.047247 -0.0011804 -0.00033478
0.00064582 -0.00086775 1.9411e-05 -0.00021356
0.00012402 0.0026105 0.0016262 -0.00082334 -0.0011771 -0.00032838 0.22207 0.14034
-0.015396 0.0027534 0.0016108 0.0020594
0.0021254 -0.0020002 2.5145e-05 -0.0011538 0.00063644 -0.00087184 -0.015407 0.0028045
0.14977 0.1973 -0.011989 0.0019833
-0.0012687 -0.00017311 0.00026241 -0.0011174 1.2006e-05 -0.00021768 0.0016054 0.0020734
-0.011986 0.0019748 0.18935 0.26201
1580000000 0.29234 0.067807 -0.0079819 0.013437 -0.00088991 -0.0052765 0.0015162 0.0019421
-0.00015675 -0.0022261 -0.00025343 0.00046222
-0.0079982 0.013419 0.17215 0.29949 0.00564 0.0085299 0.00048477 -0.0015982
-0.00059473 -0.0010403 -0.00018785 -0.00088313
-0.00092208 -0.0052873 0.0056921 0.0085025 0.32994 -0.10458 -0.0016781 0.00062117
-0.0002687 -0.0012019 0.00019689 -0.00054566
0.0015572 0.0019342 0.00047026 -0.0016282 -0.0016653 0.0005953 0.23582 0.10069
-0.011928 0.0077159 0.0022548 0.0007849
-0.00017957 -0.0022261 -0.00061095 -0.0010193 -0.00025706 -0.0012022 -0.011915 0.007741
0.17424 0.17942 -0.0093319 0.0074707
-0.00023688 0.00045637 -0.00015115 -0.00089109 0.00018089 -0.00057011 0.0022411 0.0007814
-0.0093511 0.0074747 0.22105 0.23533
1640000000 0.29503 0.026561 -0.0012828 0.012234 -0.0030255 -0.0029015 0.0027308 0.0010843
-0.00085944 -0.0015702 -0.00034752 0.0005963
-0.0012766 0.012227 0.20199 0.27475 0.0063247 0.0034052 -0.00067059 -0.0017734
-0.0010403 -0.00039308 -0.00058395 -0.00074716
-0.0030284 -0.0028628 0.0063519 0.0033809 0.30207 -0.15434 -0.0006713 0.0014904
-0.0011089 -0.00098052 -0.00017049 -0.00037315
0.0027447 0.0010797 -0.0006762 -0.0017714 -0.00068846 0.0014933 0.24803 0.051684
-0.0075462 0.0093117 0.0024573 -0.00081503
-0.00083268 -0.0015782 -0.0010475 -0.00038137 -0.0011429 -0.00097372 -0.0075323 0.0093495
0.19759 0.15537 -0.0045996 0.0093631
-0.00036385 0.00061488 -0.00058309 -0.00071793 -0.00015703 -0.00036888 0.0024794 -0.00084107
-0.0046066 0.0093639 0.2463 0.20416
1700000000 0.28836 -0.018768 0.0021266 0.0093594 -0.0038579 -6.344e-05 0.0032154 -0.0012732
-0.0020212 -0.00059368 0.00058866 0.00042468
0.0021187 0.0093631 0.22044 0.24337 0.004165 0.00030205 -0.0014949 -0.00057759
-0.00086148 3.9551e-05 -0.00093536 -0.00044653
-0.0038671 -6.5965e-05 0.0041799 0.00027517 0.2588 -0.19444 0.00048186 0.0016947
-0.0019964 -0.00010951 -0.00050927 -0.00086039
0.0032345 -0.0012762 -0.0015012 -0.00055824 0.00047679 0.0017115 0.24458 0.0017179
-0.0044424 0.009931 0.0016723 -0.0022656
-0.0019996 -0.00056699 -0.00085416 6.5029e-05 -0.0020025 -0.00010541 -0.0044358 0.0099329
0.21494 0.13508 3.1139e-05 0.0097539
0.0006317 0.0004338 -0.00091917 -0.00045262 -0.00051672 -0.00086743 0.0016406 -0.0022632
4.6678e-05 0.0097619 0.26246 0.16984
1760000000 0.27676 -0.067613 0.0044495 0.006007 -0.002388 0.001015 0.0013006 -0.0034308
-0.0014975 0.00074439 0.00035038 -0.00050153
0.0044195 0.0060105 0.24679 0.20365 0.001815 -0.0016145 -0.0012289 0.00016525
-0.0011036 0.00091679 -0.00070734 0.00038117
-0.0023946 0.0010565 0.0018055 -0.0016224 0.21092 -0.22764 0.0011728 0.00094546
-0.001219 0.001511 -0.0013211 -0.00069042
0.0012838 -0.003459 -0.0012384 0.00020544 0.0011756 0.00094028 0.23539 -0.049693
-0.00095294 0.0090364 -0.00021955 -0.0025914
-0.0014937 0.00076746 -0.0011346 0.00093048 -0.0012166 0.0015102 -0.00089134 0.0090714
0.23027 0.10038 0.003876 0.0071519
0.00034385 -0.0004933 -0.00069172 0.00042416 -0.0013129 -0.00070498 -0.00016855 -0.0026277
0.0038476 0.0071583 0.2749 0.13223
1820000000 0.25241 -0.10518 0.0044394 0.0024389 -0.00037003 0.002547 -0.0009951 -0.0031524
-0.0010468 0.0010722 -5.8658e-05 -7.9359e-05
0.0044221 0.0024555 0.25711 0.17349 -0.00073692 -0.00048732 -0.0013502 0.00097674
-0.00010648 0.0013295 -0.00053937 0.00061295
-0.00037341 0.0025646 -0.00073343 -0.00046746 0.16002 -0.24387 0.0015723 0.00045067
-0.00019793 0.0024657 -0.0013513 0.0003999
-0.00098503 -0.0031423 -0.001344 0.00097969 0.0015831 0.00043414 0.20515 -0.096914
0.00070619 0.0074947 -0.0017463 -0.0016328
-0.0010185 0.0010735 -8.3954e-05 0.0012996 -0.00018344 0.0024476 0.00068697 0.0074967
0.24748 0.071358 0.0048957 0.0036131
-2.3434e-05 -0.00012329 -0.00055808 0.00057669 -0.0013583 0.00036534 -0.001769 -0.0015922
0.0049052 0.0036047 0.27687 0.095735
1880000000 0.21736 -0.14588 0.002212 6.8443e-05 -0.00061073 0.002214 -0.002929 -0.0022763
-0.00018052 0.0017823 0.00010864 -0.00048558
0.002205 6.8104e-05 0.26184 0.12693 -0.0027108 0.0015359 -0.0002351 0.0017282
0.00058566 0.0013752 -4.1517e-06 0.00099401
-0.00059183 0.0022185 -0.0027115 0.0015553 0.10788 -0.25303 0.0017127 -0.00091306
0.0015463 0.0020239 -0.0011868 0.0012894
-0.002941 -0.0022514 -0.00019199 0.0017657 0.0017385 -0.00088661 0.16453 -0.13674
0.0016676 0.0053725 -0.0024248 0.0002739
-0.00014691 0.0018056 0.00060197 0.0014008 0.0015592 0.002051 0.0016962 0.005378
0.25149 0.039918 0.0050238 0.0013664
0.00012346 -0.00050817 3.8961e-05 0.00098013 -0.0011903 0.0012816 -0.0024259 0.00027565
0.0050168 0.0013632 0.27654 0.061881
1940000000 0.17806 -0.17137 -0.00033034 -0.001484 0.0013312 0.002283 -0.0037757 0.00047028
0.0013981 0.0010821 -0.00041332 -0.00066548
-0.0003367 -0.0014797 0.26258 0.094985 -0.0016063 0.0041337 0.0010815 0.0012916
0.0019746 0.0005713 0.001019 0.0005031
0.0013122 0.0022616 -0.0015778 0.0041326 0.062388 -0.24589 0.00060214 -0.0022841
0.0025225 0.00035168 0.00055981 0.0017463
-0.0037778 0.00048666 0.0010832 0.0013153 0.00060104 -0.002248 0.11219 -0.16716
0.00096308 0.003997 -0.0015155 0.0016042
0.0014637 0.0010603 0.0019856 0.00054294 0.0025069 0.00037699 0.00091546 0.0040319
0.25454 0.0014035 0.00376 -0.0018021
-0.0004196 -0.00065021 0.0010362 0.00050822 0.00061538 0.0017668 -0.0014629 0.0016293
0.0037673 -0.0017965 0.2656 0.026017
2000000000 0.13223 -0.1862 -0.0041139 0.00075936 0.0026092 0.0017037 -0.0023095 0.0038339
0.0011885 0.00033714 -0.00071097 0.0004821
-0.0041223 0.00074724 0.24845 0.059359 -0.0010977 0.0059838 0.0015732 0.00044918
0.0014425 -0.0012174 0.00053759 0.0001414
0.0026254 0.00171 -0.0010537 0.0059811 0.019323 -0.23234 -0.0011893 -0.0013974
0.0020462 -0.0012083 0.0015462 0.0015401
-0.0023152 0.0038649 0.0015818 0.00043478 -0.0011896 -0.0013743 0.058727 -0.17698
-0.00049371 0.0036637 -1.5239e-05 0.0023785
0.0011749 0.00033086 0.001484 -0.0012632 0.0020192 -0.0012392 -0.00048109 0.0036395
0.24951 -0.031971 0.00082938 -0.0027821
