!Keysight Technologies,M9804A,MY58100912,A.14.10.03
!Date: Thursday, April 27, 2023 10:28:33
!Correction: S11(C  6-Port  ) 
!S12(C  6-Port  ) 
!S13(C  6-Port  ) 
!S14(C  6-Port  ) 
!S15(C  6-Port  ) 
!S16(C  6-Port  ) 
!S21(C  6-Port  ) 
!S22(C  6-Port  ) 
!S23(C  6-Port  ) 
!S24(C  6-Port  ) 
!S25(C  6-Port  ) 
!S26(C  6-Port  ) 
!S31(C  6-Port  ) 
!S32(C  6-Port  ) 
!S33(C  6-Port  ) 
!S34(C  6-Port  ) 
!S35(C  6-Port  ) 
!S36(C  6-Port  ) 
!S41(C  6-Port  ) 
!S42(C  6-Port  ) 
!S43(C  6-Port  ) 
!S44(C  6-Port  ) 
!S45(C  6-Port  ) 
!S46(C  6-Port  ) 
!S51(C  6-Port  ) 
!S52(C  6-Port  ) 
!S53(C  6-Port  ) 
!S54(C  6-Port  ) 
!S55(C  6-Port  ) 
!S56(C  6-Port  ) 
!S61(C  6-Port  ) 
!S62(C  6-Port  ) 
!S63(C  6-Port  ) 
!S64(C  6-Port  ) 
!S65(C  6-Port  ) 
!S66(C  6-Port  ) 
!S6P File: Measurement: :
# Hz S  RI   R 50
500000000 -0.33402 -0.053934 -0.01072 -0.00163 -0.0087182 0.012918 -0.003744 0.012487
0.011509 0.005143 -0.0040082 0.0082714
-0.010675 -0.0019056 -0.41605 -0.063735 0.0081431 -0.010515 0.0014056 0.012528
0.0080432 0.0022603 0.00083287 0.014213
-0.0086719 0.013156 0.0082441 -0.010537 -0.26691 0.19907 0.0069711 0.003434
-0.0015145 0.0085275 0.001011 0.012138
-0.0041528 0.012563 0.0013356 0.012538 0.0069254 0.003465 -0.33282 0.043023
-0.017906 -0.0043481 0.015318 0.024727
0.012521 0.0050049 0.0081748 0.0024081 -0.00153 0.0084983 -0.017906 -0.0043363
-0.2492 -0.19666 -0.025906 0.0057896
-0.0039725 0.0089203 0.001009 0.014061 0.00098193 0.012177 0.015362 0.024754
-0.025864 0.0058044 -0.27336 -0.12321
560000000 -0.3188 0.1134 -0.022471 -0.065261 0.0002046 0.013234 0.0059441 0.010566
0.011141 0.0044342 0.010492 0.008016
-0.022527 -0.064851 -0.37521 0.097928 -0.041642 -0.036998 0.013126 0.0027721
-0.013585 -0.0027169 0.0034874 -0.0025594
-7.1592e-05 0.013409 -0.041944 -0.037119 -0.18639 0.24994 -0.00030462 -0.0042887
0.018889 0.0038987 0.0082475 -0.0047973
0.0059886 0.010612 0.013591 0.002127 -0.00025395 -0.0043282 -0.30694 0.13414
0.0045716 -0.022734 0.0056906 -0.022151
0.011214 0.0048407 -0.013984 -0.0030003 0.018899 0.0038428 0.0044939 -0.022725
-0.3099 -0.018288 0.0072657 -0.047992
0.011355 0.0073001 0.0039378 -0.003104 0.0082454 -0.0048528 0.0057742 -0.022106
0.0072357 -0.047933 -0.33145 0.024397
620000000 -0.27745 0.09283 -0.023091 0.0088925 0.0039329 0.009356 0.0081883 -0.0041497
0.012355 -0.0012306 0.00052929 -0.0024514
-0.023095 0.0086862 -0.40324 0.048742 -0.018348 0.00039392 -0.0019875 -0.0018798
0.012714 -0.0060462 0.0005436 -0.0032193
0.0038833 0.0096315 -0.018374 0.00049142 -0.15556 0.25959 -0.001174 -0.0053988
-0.0028096 -0.0029544 0.0084663 -0.0031748
0.007536 -0.0044838 -0.0020352 -0.0020878 -0.0010914 -0.0053494 -0.26587 0.1447
-0.039856 -0.018091 0.013739 0.027224
0.0132 -0.00087332 0.012742 -0.0059453 -0.0028267 -0.0030859 -0.039896 -0.018087
-0.22973 -0.051845 -0.043743 0.012839
-0.00038124 -0.0022314 0.0007244 -0.0034535 0.0085355 -0.0032191 0.01381 0.027241
-0.043698 0.012816 -0.25005 -0.0048156
680000000 -0.23859 0.18423 -0.026077 -0.014517 0.0054187 0.0049981 0.00086621 -0.0078335
-0.0025367 -0.011343 0.005256 -0.0066301
-0.026209 -0.014637 -0.38986 0.14962 -0.032484 -0.0021564 -0.0018394 -0.00059313
-0.0017977 -0.00931 -0.00074929 -0.0017394
0.0054456 0.0050632 -0.032431 -0.0021023 -0.10428 0.28031 -0.00078801 -0.00032205
-0.0018608 0.00043817 -0.002271 -0.0091963
0.0018354 -0.0081747 -0.0016024 -0.00078214 -0.00091024 -0.00041468 -0.22053 0.19715
-0.023538 -0.0078057 -0.0086973 -0.011349
-0.0030832 -0.011931 -0.00183 -0.0092718 -0.0018686 0.00053847 -0.023565 -0.0078171
-0.27908 0.053179 -0.0076976 -0.008731
0.0054558 -0.0071109 -0.0007356 -0.0019144 -0.0024232 -0.0091011 -0.0087273 -0.01135
-0.00775 -0.0086996 -0.25928 0.09365
740000000 -0.19382 0.17709 -0.039845 0.026376 0.013565 -0.0045763 -4.0535e-05 -0.0039607
-0.005017 -0.0029278 -0.0064322 0.0040923
-0.03957 0.026337 -0.33583 0.16832 -0.037344 0.034749 -1.7721e-05 -0.0060787
-0.01239 0.0076568 -0.0014409 -0.0063074
0.013367 -0.0046121 -0.037284 0.034834 -0.070653 0.27799 -0.0020176 0.0034712
-0.0030838 -0.0056611 -0.0015011 0.0014443
-0.00025738 -0.0037825 5.5908e-05 -0.0059532 -0.0019551 0.0035044 -0.20379 0.20456
-0.043545 -0.0069456 0.022543 0.015446
-0.0051399 -0.0027542 -0.012275 0.0076713 -0.0031328 -0.0057073 -0.04353 -0.0068631
-0.17799 0.079237 -0.042526 0.00063998
-0.0062789 0.0040709 -0.0016009 -0.0059278 -0.0014214 0.0014114 0.022531 0.015424
-0.042487 0.00060632 -0.24834 0.10172
800000000 -0.16217 0.22068 -0.022733 0.016203 0.0055646 -0.010465 -0.0047896 -0.0020107
-0.0046404 0.0024118 0.0037961 0.00039353
-0.02271 0.016112 -0.34162 0.23895 -0.0088237 0.034258 -0.0024054 0.0022127
-0.0013815 0.0030441 0.00065799 0.0054065
0.0055497 -0.010485 -0.0087138 0.034291 -0.03173 0.30214 0.00076212 0.001509
-7.1227e-05 0.0036631 -0.0020541 0.0010264
-0.0044419 -0.0021797 -0.0023318 0.0022 0.00072137 0.001449 -0.17458 0.23166
-0.028677 0.013227 0.013591 -0.010344
-0.0048938 0.0026186 -0.0013067 0.0030356 -7.4292e-05 0.0036809 -0.028682 0.013284
-0.22166 0.10924 -0.017486 0.019694
0.0043036 0.00010368 0.00057201 0.0051715 -0.002114 0.00097176 0.013568 -0.010333
-0.017489 0.019687 -0.24094 0.15006
860000000 -0.12802 0.24092 -0.018029 0.030512 -0.0028795 -0.010277 -0.0020557 0.00048138
0.0040294 0.0050638 -0.0034474 -0.002782
-0.018164 0.030628 -0.2933 0.28188 0.0073741 0.034585 2.0432e-05 0.0019716
0.0034542 0.00083767 0.003038 0.00060944
-0.002984 -0.010235 0.007585 0.034632 0.015971 0.3107 -0.00081986 -0.00021837
0.0022712 -0.001456 0.0014853 0.004326
-0.0021561 0.00039397 5.8563e-05 0.0020693 -0.00078459 -0.00020643 -0.13762 0.24268
-0.01874 0.018095 -0.0057845 -0.0091059
0.0038439 0.0052369 0.0033498 0.00084511 0.0022662 -0.001437 -0.018714 0.018099
-0.16649 0.15966 -0.024388 0.01712
-0.0038391 -0.0029162 0.0032105 0.00039557 0.0015222 0.0042943 -0.0058342 -0.0091365
-0.024374 0.017093 -0.19136 0.19442
920000000 -0.104 0.26411 0.0044361 0.038474 -0.0092209 -0.0050498 -0.0018979 0.0017651
0.0011766 0.0019939 0.0029347 -0.0014145
0.0045117 0.038306 -0.2661 0.30333 0.028119 0.022917 0.0015032 0.0012414
0.0074614 -0.0002125 0.0041256 -0.0029816
-0.0093149 -0.005062 0.028249 0.022883 0.061383 0.31214 0.0019933 4.1398e-05
0.00098999 -0.00018239 0.0010719 -0.0013912
-0.0016811 0.0017471 0.0014526 0.0012927 0.0019923 4.2866e-05 -0.11349 0.25949
-0.011187 0.031017 0.0032366 -0.0065865
0.0013993 0.0018503 0.0075245 -0.00027751 0.0010076 -0.00018672 -0.011125 0.031069
-0.15488 0.1667 -0.0016901 0.026553
0.0027309 -0.0016356 0.004101 -0.0030236 0.0010463 -0.0014031 0.0032503 -0.0065455
-0.0017197 0.026531 -0.19754 0.20921
980000000 -0.057322 0.28435 0.017021 0.030335 -0.0094958 0.0042235 0.0018472 0.0035397
0.0042655 -0.0016207 -0.0025898 -0.0022966
0.016939 0.030341 -0.21286 0.33823 0.0336 0.0055027 0.0021002 -0.00013212
0.0019197 -0.005957 -3.1155e-05 -0.0023979
-0.0095179 0.0042372 0.033673 0.0053759 0.10739 0.30666 0.00077314 -0.0011848
0.00066478 -0.0019793 0.0015324 -0.00019388
0.0017581 0.0035318 0.0020915 -5.6252e-05 0.00076806 -0.0011795 -0.074933 0.27106
0.0075246 0.030386 -0.008898 -0.0074332
0.0043338 -0.0015352 0.0019007 -0.0059917 0.00066765 -0.0019624 0.0075921 0.030381
-0.12092 0.19671 0.0064974 0.019879
-0.0027167 -0.0022916 -7.8645e-05 -0.0023294 0.001548 -0.00018014 -0.0089027 -0.0074626
0.006495 0.019829 -0.15409 0.25209
1040000000 -0.015995 0.2936 0.033097 0.019255 -0.0015844 0.0071073 0.0026672 0.00074296
0.00044935 -0.0033516 0.00011905 -0.0016825
0.033007 0.019252 -0.17785 0.35193 0.030265 -0.014652 0.0017257 -0.0017565
-0.0020405 -0.0026236 -0.00088052 -0.0028254
-0.0015356 0.007129 0.030285 -0.014775 0.15343 0.29368 -0.00045982 -0.0017541
-0.001567 -0.00094157 -0.00041164 -0.0011808
0.0028903 0.00072598 0.0017494 -0.001756 -0.00045035 -0.0017503 -0.047431 0.28044
0.019865 0.019096 -0.0026944 0.0010692
0.00057172 -0.0034856 -0.0020278 -0.002586 -0.0015696 -0.00095429 0.019909 0.01906
-0.08754 0.20286 0.014188 0.018241
0.00014931 -0.0016357 -0.00097332 -0.0028366 -0.00041855 -0.0012061 -0.0026955 0.0011056
0.014168 0.018216 -0.13117 0.27354
1100000000 0.028902 0.3028 0.036717 -0.0034933 0.0028191 0.0042831 0.0025197 -0.001215
-0.0020803 -0.0032732 -0.0040774 -0.00025854
0.036602 -0.0034158 -0.13464 0.36998 0.016014 -0.028142 6.9814e-05 -0.0019696
-0.003701 -0.0011281 -0.0037065 -0.00057108
0.0028456 0.004262 0.015915 -0.028232 0.19965 0.27429 -0.0020261 6.1658e-05
-0.0017919 0.00040113 -0.0011077 -0.00054897
0.0024241 -0.0012791 2.7816e-05 -0.0020043 -0.0020271 6.2674e-05 -0.00697 0.28566
0.025506 0.0055552 -0.0022152 0.00014917
-0.0021134 -0.0031236 -0.0037314 -0.001101 -0.0017971 0.00043081 0.025524 0.0055131
-0.066846 0.21547 0.019385 0.0084732
-0.0041373 -0.00028357 -0.0037513 -0.00057265 -0.0011143 -0.00054053 -0.0021912 0.00012702
0.019389 0.0085028 -0.085557 0.3016
1160000000 0.080057 0.29897 0.024775 -0.020635 0.0028902 -0.0004497 -0.0001508 -0.0024175
-0.0040166 -0.00083581 -0.0010239 0.003942
0.02473 -0.020617 -0.09115 0.37495 -0.0033523 -0.029879 -0.0016959 -0.0016369
-0.0027283 0.0025778 -0.0015175 0.0019423
0.0029041 -0.00046941 -0.0034861 -0.029927 0.24314 0.24422 -0.00085919 0.0018044
-0.00062131 0.0019798 -0.0010676 0.00029194
-0.00020606 -0.0024099 -0.0017058 -0.0016988 -0.00085919 0.0018088 0.032639 0.28289
0.021983 -0.010775 -0.0033823 0.0051083
-0.0040321 -0.0009813 -0.0028127 0.0026153 -0.00060306 0.001982 0.021985 -0.010821
-0.032486 0.22327 0.018546 -0.00085809
-0.00086439 0.0039584 -0.0016637 0.0019851 -0.001062 0.00029932 -0.0034012 0.0051365
0.01851 -0.00087668 -0.038811 0.30466
1220000000 0.12418 0.28928 0.011244 -0.030464 -0.0014852 -0.00097188 1.7578e-05 -0.00082595
-0.0027184 0.0021765 0.0010217 0.0021858
0.011285 -0.030402 -0.046961 0.38801 -0.017165 -0.02209 -0.0026641 0.00051727
-3.7765e-05 0.0032075 -0.000896 0.0020323
-0.0014903 -0.00094807 -0.017271 -0.02206 0.28236 0.20554 0.00074788 0.0018096
0.00060856 0.0012686 0.00032011 0.00058782
-2.5736e-05 -0.00085834 -0.0027105 0.00051916 0.00073988 0.0018077 0.072739 0.27426
0.011206 -0.017845 0.0020582 0.0014436
-0.0027201 0.0022974 8.878e-06 0.0032189 0.00061347 0.0012926 0.011189 -0.017864
-0.0082314 0.23174 0.013907 -0.013381
0.00098867 0.0021277 -0.00086326 0.0020661 0.00033093 0.00059694 0.0020644 0.0014235
0.013922 -0.013378 -0.0066088 0.31925
1280000000 0.17474 0.26867 -0.0076634 -0.029184 -0.0020088 0.0024387 -0.00085508 -0.001978
-0.00084147 0.0032445 0.0026061 0.0012977
-0.0076943 -0.029146 -0.00066597 0.37969 -0.02446 -0.0089747 -0.00099798 0.001566
0.0018261 0.0017803 0.00067319 0.0020341
-0.0020075 0.0024498 -0.024545 -0.0088848 0.31307 0.16212 0.0016606 -6.1032e-05
0.0012522 0.00031487 0.00029314 0.00023139
-0.00089839 -0.0019514 -0.00097519 0.0016069 0.0016585 -7.5702e-05 0.10983 0.25791
0.00099781 -0.020115 -0.00017679 0.00028695
-0.00079018 0.0031689 0.0018148 0.0018182 0.0012556 0.00032138 0.00095878 -0.020134
0.028094 0.23501 0.0030481 -0.015889
0.0027072 0.0012749 0.00063957 0.0020217 0.00028262 0.00022233 -0.0001681 0.00029896
0.0030381 -0.015908 0.040172 0.3209
1340000000 0.21229 0.23561 -0.017788 -0.01954 0.00072545 0.004739 -0.0017349 -0.00088526
0.0014387 0.0026754 0.0018404 -0.0013285
-0.01776 -0.019569 0.039013 0.37194 -0.022205 0.0042227 -4.5806e-05 0.0020418
0.0019866 0.00082143 0.0012823 0.00077292
0.0007146 0.0046991 -0.022214 0.0043464 0.33521 0.11484 0.001114 -0.00092777
0.00079717 -0.00062441 5.4646e-05 0.00028102
-0.0017206 -0.00088374 -6.3713e-05 0.002052 0.0011425 -0.00090802 0.14288 0.23682
-0.0090096 -0.01732 0.00076362 0.00061098
0.0015267 0.0028044 0.0020064 0.00077383 0.00078666 -0.0006325 -0.0090519 -0.0173
0.058464 0.2301 -0.004264 -0.014237
0.0017776 -0.0013232 0.0012967 0.00078025 6.1317e-05 0.00027927 0.00076117 0.00059658
-0.0042484 -0.014208 0.078457 0.31543
1400000000 0.24603 0.19824 -0.02389 -0.007757 0.0053528 0.0034881 -0.0021785 0.00061647
0.0025073 0.00098207 0.00030082 -0.0016099
-0.02389 -0.0077672 0.076644 0.35935 -0.01538 0.01276 0.0014144 0.0013189
0.0013339 -0.00078688 0.0012331 0.00011559
0.0053829 0.00345 -0.015343 0.012861 0.34829 0.061926 5.5172e-05 -0.0016314
0.00016264 -0.0005392 0.00034065 0.00019308
-0.0022247 0.00061197 0.0014357 0.0013105 3.0279e-05 -0.0016388 0.17233 0.20773
-0.015255 -0.010082 -0.00086549 -0.00022672
0.0025344 0.0009241 0.0013146 -0.00075496 0.00018198 -0.00054511 -0.015274 -0.010047
0.091594 0.22539 -0.010529 -0.0088832
0.000352 -0.0016092 0.0012354 0.00010813 0.00032817 0.00020179 -0.00086697 -0.00021198
-0.010542 -0.0089092 0.12268 0.304
1460000000 0.26941 0.15453 -0.02084 0.0047811 0.0059099 -0.0017392 -0.0016468 0.0018005
0.0022237 -0.0005076 -0.00041258 -0.00097718
-0.020819 0.0047612 0.11109 0.33757 -0.0061791 0.015928 0.0017125 0.00012945
0.00093846 -0.0013914 0.0012743 -0.00065499
0.0058964 -0.0017677 -0.0061007 0.016002 0.35502 0.0081444 -0.0012447 -0.0013725
0.00011232 -0.00024774 0.00073163 -0.00018209
-0.0015808 0.0017557 0.0017136 0.00013662 -0.0012264 -0.0013617 0.1987 0.17823
-0.016594 -0.0030132 -0.0007494 0.002051
0.002217 -0.00054288 0.00092337 -0.0014238 0.00011386 -0.00025506 -0.016603 -0.00297
0.12123 0.21088 -0.012446 -0.0027359
-0.00046774 -0.0010564 0.0012918 -0.00065779 0.00073811 -0.00019162 -0.0007639 0.0020429
-0.012452 -0.0027364 0.15606 0.28316
1520000000 0.28195 0.11307 -0.015058 0.010503 0.0035704 -0.0043296 8.514e-05 0.0026316
0.0021155 -0.0019397 -0.0012363 -0.00011569
-0.015057 0.010488 0.14457 0.32319 0.0017758 0.013528 0.0016496 -0.00079539
5.5029e-05 -0.0011379 0.00031499 -0.0010107
0.0035438 -0.0043968 0.0018607 0.013526 0.34866 -0.047608 -0.0010705 -0.00038541
0.00067182 -0.00088451 6.2863e-05 -0.00024422
0.00010632 0.0025924 0.0016376 -0.00083341 -0.0010858 -0.00038429 0.2216 0.13986
-0.015619 0.003267 0.0015509 0.0021095
0.0020945 -0.0019689 1.6792e-05 -0.0011378 0.00066683 -0.0008786 -0.015617 0.0033078
0.14925 0.19731 -0.012148 0.0019715
-0.0012587 -9.9676e-05 0.00027436 -0.00099439 5.5469e-05 -0.00022901 0.0015626 0.00211
-0.012144 0.0019527 0.18847 0.26265
1580000000 0.29214 0.067192 -0.0081171 0.013847 -0.00094646 -0.0051966 0.0015157 0.0019559
-0.00024758 -0.0022235 -0.00035069 0.00047887
-0.0081056 0.013841 0.17197 0.29871 0.005604 0.0084018 0.00052144 -0.0016208
-0.00059266 -0.0010869 -0.00019348 -0.00082443
-0.00097453 -0.0051602 0.0056614 0.0083735 0.32943 -0.10482 -0.0017303 0.0005848
-0.00042638 -0.0012979 0.0002591 -0.00063117
0.0015098 0.0019729 0.00049751 -0.0016245 -0.0017292 0.0005825 0.23503 0.10051
-0.01174 0.008279 0.0021692 0.00065593
-0.00024385 -0.0022086 -0.00059392 -0.0010953 -0.000425 -0.0013085 -0.011728 0.0083094
0.17368 0.17923 -0.0095887 0.0076247
-0.00023643 0.00040669 -0.00019983 -0.00082202 0.0002573 -0.00062413 0.0021487 0.00065129
-0.0095919 0.007638 0.22003 0.23565
1640000000 0.29457 0.026146 -0.0011781 0.012552 -0.0030251 -0.0027006 0.0027641 0.0010317
-0.00081222 -0.0015875 -0.00032948 0.00059966
-0.0011594 0.012534 0.20164 0.2742 0.0062453 0.0033917 -0.00065666 -0.0018195
-0.0010504 -0.0003992 -0.00055681 -0.00065365
-0.0030463 -0.0027344 0.0062698 0.0033709 0.30163 -0.15414 -0.00069912 0.0014054
-0.0010823 -0.00096852 -0.00019847 -0.00031813
0.0027873 0.001029 -0.00065509 -0.0018331 -0.00070998 0.001391 0.24735 0.051856
-0.007119 0.0095989 0.0024622 -0.00084829
-0.00083762 -0.0016201 -0.001061 -0.0003802 -0.0010918 -0.00096993 -0.0071031 0.0096297
0.19665 0.15511 -0.0045801 0.0097833
-0.00034129 0.00069424 -0.00057432 -0.00063141 -0.0002032 -0.0003197 0.0024786 -0.0008463
-0.0045892 0.0097698 0.24549 0.20472
1700000000 0.28791 -0.01905 0.0023477 0.0095667 -0.0037221 0.00014646 0.0031873 -0.0012216
-0.0020475 -0.00058866 0.00050556 0.00051608
0.0023248 0.0095443 0.2199 0.24309 0.0040084 0.00034045 -0.0014987 -0.00056195
-0.00084718 4.9491e-05 -0.00096332 -0.00043173
-0.0037456 0.0001301 0.0040089 0.00031133 0.25853 -0.19449 0.00039622 0.0016776
-0.0020302 -6.1882e-05 -0.00041572 -0.00082879
0.0031089 -0.0012377 -0.0015131 -0.00056025 0.00040222 0.0016633 0.24396 0.0023494
-0.0040328 0.0098959 0.0015621 -0.0022216
-0.0020672 -0.00062445 -0.00082941 3.13e-05 -0.0020302 -5.6811e-05 -0.0040102 0.0099134
0.21399 0.13495 9.1683e-05 0.0098862
0.00051985 0.00044063 -0.00097171 -0.00039073 -0.0004375 -0.00080765 0.0015649 -0.0022586
9.4266e-05 0.0098898 0.26156 0.17042
1760000000 0.27622 -0.067747 0.0045851 0.0060199 -0.002294 0.0010023 0.001264 -0.00347
-0.001409 0.00067823 0.00040209 -0.00059349
0.0045708 0.0060262 0.24632 0.20366 0.0017 -0.0015225 -0.0012785 0.00018521
-0.0010531 0.00086928 -0.00057774 0.00038352
-0.0022568 0.00098787 0.0016921 -0.0015329 0.21074 -0.22769 0.0010605 0.0010638
-0.0012024 0.0014478 -0.001166 -0.0006904
0.0013543 -0.0034877 -0.0012614 0.00020487 0.0010833 0.0010575 0.23529 -0.048732
-0.00066589 0.0087946 -0.00027124 -0.0026007
-0.0013675 0.00070882 -0.0010422 0.00091556 -0.0011977 0.0014363 -0.00063528 0.0087999
0.22903 0.10038 0.0042245 0.0072416
0.00038309 -0.0005925 -0.0005775 0.00036167 -0.0011624 -0.00066586 -0.00026343 -0.0025751
0.0042219 0.0072261 0.27455 0.13299
1820000000 0.25207 -0.10504 0.0045843 0.0024128 -0.00011725 0.0024777 -0.00096149 -0.0031681
-0.0010983 0.0010739 -0.00010434 -8.7276e-05
0.0045492 0.0023945 0.25682 0.17379 -0.00068717 -0.00021303 -0.001287 0.0010133
-7.5481e-05 0.0012953 -0.00059369 0.00054543
-0.00015726 0.0025119 -0.00068907 -0.00022338 0.15952 -0.24385 0.001601 0.00050724
-0.00021784 0.0024172 -0.0015463 0.00041848
-0.0010395 -0.0030943 -0.0013162 0.0010121 0.001607 0.00051525 0.20566 -0.096026
0.00077256 0.0072717 -0.0018397 -0.0014337
-0.0011414 0.0010967 -5.1479e-05 0.001284 -0.00021632 0.0024226 0.00078197 0.0072764
0.24604 0.071573 0.0049648 0.0036637
-1.9311e-05 -9.9707e-05 -0.0005522 0.00055117 -0.0015602 0.00041434 -0.0018209 -0.0014602
0.0049874 0.003674 0.2767 0.096573
1880000000 0.2174 -0.14564 0.0022648 0.00012945 -0.0005796 0.0021777 -0.0028412 -0.002189
-0.00028815 0.0018334 6.5557e-05 -0.00060883
0.002292 0.00012161 0.26174 0.12736 -0.0025224 0.0016109 -0.00020683 0.0017759
0.00059273 0.0013328 7.2352e-05 0.00096755
-0.00052064 0.0021384 -0.0025206 0.0016283 0.1079 -0.25302 0.0018037 -0.00087599
0.001537 0.0019495 -0.001221 0.0013446
-0.0028423 -0.0021565 -0.00015115 0.0017912 0.0018172 -0.00086668 0.16524 -0.1361
0.0015054 0.0053197 -0.0024841 0.00024101
-0.0002033 0.0017787 0.00062208 0.0013401 0.0015596 0.0019802 0.001526 0.0053155
0.25011 0.040578 0.0052578 0.0010689
5.2254e-07 -0.00056653 8.0251e-05 0.00092766 -0.0012414 0.0013677 -0.0025393 0.0002752
0.0052313 0.0010739 0.27628 0.062523
1940000000 0.17821 -0.17136 -0.00020748 -0.0014791 0.0012201 0.0021298 -0.0037284 0.00046661
0.0013486 0.0011781 -0.00069525 -0.00046915
-0.00020866 -0.0014541 0.26281 0.095413 -0.0013643 0.0039909 0.0011432 0.0012245
0.001941 0.00050047 0.0010423 0.00036873
0.0012209 0.0021553 -0.0013503 0.0039911 0.062638 -0.24614 0.00047293 -0.0024349
0.0025407 0.00040522 0.00054665 0.0017833
-0.003665 0.00050822 0.0011194 0.0012312 0.00043723 -0.0024412 0.11353 -0.16727
0.0010101 0.0038051 -0.001236 0.0017355
0.0013121 0.0011951 0.0019351 0.00046176 0.0025303 0.000372 0.0010102 0.0038053
0.25337 0.002411 0.0039238 -0.001917
-0.00064125 -0.00065053 0.0010641 0.00039923 0.00055743 0.0017783 -0.0011864 0.0016876
0.0039397 -0.0019076 0.26554 0.026428
2000000000 0.13232 -0.18667 -0.00394 0.00067438 0.0026295 0.001613 -0.0023411 0.0036957
0.0013059 0.0003705 -0.00055421 0.00057151
-0.0038885 0.00071962 0.24889 0.059796 -0.00098271 0.0058981 0.0016053 0.00039917
0.0014205 -0.001159 0.00049784 0.00010109
0.002629 0.001584 -0.00093653 0.0059358 0.018839 -0.23242 -0.0013199 -0.0015852
0.0020998 -0.0012562 0.0018734 0.0014825
-0.0022898 0.0037252 0.0016961 0.00039748 -0.0012783 -0.0015997 0.059587 -0.17743
-0.00058176 0.0036639 -7.8315e-05 0.0023318
0.0013231 0.00037213 0.0014346 -0.0011187 0.0021067 -0.001274 -0.00054948 0.0036849
0.24849 -0.030668 0.00085355 -0.0029989
