!Keysight Technologies,M9804A,MY58100912,A.14.10.03
!Date: Thursday, April 27, 2023 10:28:33
!Correction: S11(C  6-Port  ) 
!S12(C  6-Port  ) 
!S13(C  6-Port  ) 
!S14(C  6-Port  ) 
!S15(C  6-Port  ) 
!S16(C  6-Port  ) 
!S21(C  6-Port  ) 
!S22(C  6-Port  ) 
!S23(C  6-Port  ) 
!S24(C  6-Port  ) 
!S25(C  6-Port  ) 
!S26(C  6-Port  ) 
!S31(C  6-Port  ) 
!S32(C  6-Port  ) 
!S33(C  6-Port  ) 
!S34(C  6-Port  ) 
!S35(C  6-Port  ) 
!S36(C  6-Port  ) 
!S41(C  6-Port  ) 
!S42(C  6-Port  ) 
!S43(C  6-Port  ) 
!S44(C  6-Port  ) 
!S45(C  6-Port  ) 
!S46(C  6-Port  ) 
!S51(C  6-Port  ) 
!S52(C  6-Port  ) 
!S53(C  6-Port  ) 
!S54(C  6-Port  ) 
!S55(C  6-Port  ) 
!S56(C  6-Port  ) 
!S61(C  6-Port  ) 
!S62(C  6-Port  ) 
!S63(C  6-Port  ) 
!S64(C  6-Port  ) 
!S65(C  6-Port  ) 
!S66(C  6-Port  ) 
!S6P File: Measurement: :
# Hz S  RI   R 50
500000000 -0.33521 -0.053033 -0.010462 -0.0011615 -0.0088278 0.013219 -0.0040143 0.011795
0.012432 0.0056973 -0.0045816 0.0072407
-0.010227 -0.001489 -0.41617 -0.063215 0.0079945 -0.010645 0.0011563 0.011978
0.0078116 0.0037814 0.0010226 0.014274
-0.0086375 0.013217 0.0080007 -0.010704 -0.26689 0.19951 0.0070104 0.0040974
-0.0020086 0.0084285 0.00038066 0.012362
-0.0038593 0.012217 0.0012593 0.01161 0.006902 0.003982 -0.33171 0.043892
-0.019558 -0.0047453 0.017906 0.025205
0.013287 0.005441 0.0080751 0.0032796 -0.002272 0.0081438 -0.018603 -0.0049705
-0.24673 -0.19322 -0.026972 0.0052673
-0.0035441 0.0088237 0.0015466 0.013391 0.00046103 0.012799 0.016344 0.025604
-0.027875 0.0048796 -0.27145 -0.12006
560000000 -0.3186 0.11335 -0.023234 -0.064912 0.00028805 0.013097 0.0051478 0.0099343
0.010867 0.004891 0.011033 0.0078182
-0.022897 -0.064602 -0.37602 0.099379 -0.041719 -0.037834 0.013703 0.0033292
-0.013432 -0.0037356 0.0039278 -0.0009269
8.661e-05 0.013001 -0.041892 -0.037828 -0.1855 0.25097 -0.00012609 -0.0047164
0.018801 0.0050519 0.0085312 -0.0058209
0.0050622 0.01061 0.013384 0.0033215 -9.1642e-05 -0.0049556 -0.30709 0.1352
0.0037857 -0.023558 0.0055016 -0.021767
0.011474 0.0045733 -0.013343 -0.0034733 0.017444 0.0055015 0.0052849 -0.024035
-0.30801 -0.012958 0.0069767 -0.047851
0.010235 0.0080732 0.0035348 -0.0013628 0.0091367 -0.0064614 0.0050518 -0.022168
0.006173 -0.049284 -0.33006 0.025968
620000000 -0.27739 0.094432 -0.02313 0.008782 0.0042895 0.0095259 0.0077665 -0.0044471
0.012344 -0.0010821 0.00071763 -0.0018986
-0.023093 0.0086274 -0.40374 0.04956 -0.018402 0.00078502 -0.0012382 -0.0021191
0.012391 -0.0058679 0.0011792 -0.0029563
0.0041266 0.0096644 -0.018478 0.00089135 -0.15512 0.26067 -0.00082912 -0.0046751
-0.0034642 -0.0022935 0.0093873 -0.0019357
0.0078748 -0.0047765 -0.0010273 -0.0019762 -0.0006633 -0.0048889 -0.26579 0.14628
-0.039631 -0.020147 0.013809 0.027133
0.012575 -0.0012466 0.011556 -0.0061098 -0.0026646 -0.0026961 -0.038898 -0.019838
-0.2283 -0.047747 -0.041182 0.012699
7.4137e-06 -0.0024123 0.0014815 -0.0027374 0.0095513 -0.0028989 0.012526 0.026628
-0.041809 0.012121 -0.25082 -0.0036945
680000000 -0.23791 0.18435 -0.026188 -0.014189 0.0052686 0.0052447 0.0014577 -0.0083163
-0.0022289 -0.011495 0.0055174 -0.0078681
-0.026081 -0.014089 -0.38998 0.15036 -0.032295 -0.0019158 -0.0013983 -0.00078117
-0.0016046 -0.0096157 -0.00082714 -0.0018246
0.0051844 0.005302 -0.032207 -0.00192 -0.1037 0.28093 -0.00087168 -0.00053917
-0.0017085 0.00027597 -0.0034027 -0.0093141
0.0013869 -0.0076588 -0.0010625 -0.00060028 -0.00078066 -0.00063249 -0.22013 0.19669
-0.024069 -0.0077873 -0.009505 -0.011932
-0.0019882 -0.012258 -0.0016798 -0.0094307 -0.0015149 0.00054266 -0.023653 -0.0078257
-0.27916 0.05586 -0.0073742 -0.0079033
0.0059759 -0.0075384 -0.0013467 -0.0014446 -0.0032741 -0.009002 -0.0081769 -0.011926
-0.0085694 -0.0074861 -0.25843 0.095608
740000000 -0.19306 0.17763 -0.03914 0.026549 0.01351 -0.0046056 -0.00019146 -0.0040625
-0.0043419 -0.0032242 -0.0062013 0.0032847
-0.039129 0.026722 -0.33554 0.16878 -0.036586 0.034723 -0.00014623 -0.0055592
-0.012718 0.0069336 -0.0014109 -0.0056658
0.013405 -0.0045851 -0.036459 0.034904 -0.069737 0.27831 -0.0021046 0.0032491
-0.0029675 -0.0060384 -0.0010704 0.0017874
-0.0003789 -0.0041863 -0.00015831 -0.0055146 -0.0020149 0.0030803 -0.2038 0.20528
-0.042149 -0.0077513 0.023044 0.014931
-0.0049201 -0.0034502 -0.012637 0.0067918 -0.0029585 -0.0059508 -0.042165 -0.0081246
-0.18125 0.08325 -0.041558 0.0022991
-0.0063106 0.0028493 -0.0017117 -0.0048832 -0.0012273 0.0012941 0.022233 0.015811
-0.041256 0.00075074 -0.24564 0.10316
800000000 -0.16156 0.22107 -0.022635 0.016247 0.0056445 -0.010463 -0.0044091 -0.0018418
-0.0047176 0.0026898 0.0043015 0.00054332
-0.022549 0.016179 -0.34132 0.2396 -0.0086205 0.034189 -0.0025169 0.0021882
-0.0016333 0.0029087 0.0010443 0.0053386
0.0056481 -0.010472 -0.0084861 0.034251 -0.031236 0.3023 0.00086794 0.0016165
-3.3335e-05 0.0037764 -0.0014665 0.00096365
-0.0042548 -0.0020072 -0.0024467 0.0020771 0.00086194 0.0015715 -0.1741 0.23263
-0.028637 0.013699 0.013788 -0.0096955
-0.0047216 0.0023623 -0.0016094 0.0030037 2.8311e-05 0.0037253 -0.028704 0.013159
-0.2215 0.11244 -0.017611 0.019119
0.0045704 0.00048943 0.0012153 0.0053753 -0.0015561 0.00094157 0.013614 -0.0097784
-0.017317 0.020039 -0.24 0.15363
860000000 -0.12704 0.2412 -0.017756 0.030523 -0.0028277 -0.010303 -0.0017989 0.00067181
0.0044057 0.0052077 -0.0035586 -0.0027116
-0.017771 0.030397 -0.29272 0.28233 0.0075337 0.034418 0.00022851 0.0019485
0.0037064 0.00093757 0.0036528 0.00073624
-0.0029181 -0.010278 0.0075931 0.0345 0.016455 0.31074 -0.0006389 -4.2316e-05
0.0022831 -0.0012248 0.0017461 0.00421
-0.0017086 0.00050995 0.00034394 0.0018128 -0.00056214 -0.00012379 -0.13759 0.24308
-0.018084 0.018177 -0.006003 -0.0091443
0.0041345 0.0054288 0.0037082 0.0008198 0.0025036 -0.001425 -0.017668 0.01801
-0.16322 0.16178 -0.024112 0.017363
-0.0035011 -0.0031697 0.0036377 0.0006091 0.0017039 0.0040312 -0.005857 -0.0091341
-0.024758 0.017283 -0.18784 0.19585
920000000 -0.10321 0.26433 0.0047592 0.038438 -0.0092637 -0.0050224 -0.0018262 0.0016017
0.0017388 0.0017644 0.0029335 -0.0016632
0.0046038 0.038255 -0.26552 0.30359 0.028117 0.022806 0.0014483 0.0011782
0.0077033 -0.00027242 0.0041504 -0.0031219
-0.0092442 -0.0050682 0.02826 0.022716 0.061817 0.31209 0.0019821 -3.8448e-05
0.0012071 -0.00032168 0.001007 -0.0014089
-0.0018693 0.0015479 0.001625 0.001339 0.0019956 3.4588e-05 -0.1132 0.25933
-0.011109 0.030378 0.0032846 -0.0069438
0.0014561 0.0019053 0.0077754 -0.00051843 0.0012963 -0.00022203 -0.011004 0.03041
-0.15342 0.16842 -0.0016922 0.026166
0.0028242 -0.0016779 0.0042089 -0.0029164 0.00085382 -0.0014105 0.0034489 -0.0068773
-0.0020206 0.026384 -0.19625 0.20989
980000000 -0.05689 0.28443 0.01699 0.030073 -0.0094626 0.0041214 0.0018054 0.0034593
0.0039536 -0.0018648 -0.0027118 -0.0021558
0.017031 0.030131 -0.21237 0.33848 0.033412 0.0054138 0.0020509 -0.00020899
0.0016953 -0.0062009 0.00015457 -0.0024008
-0.009442 0.004215 0.033506 0.0053363 0.10772 0.30651 0.00077108 -0.001181
0.00055684 -0.0020202 0.0016221 -0.00016977
0.0018544 0.0034848 0.0020211 -0.00017242 0.0007606 -0.0012247 -0.074694 0.27077
0.0078072 0.030214 -0.0088382 -0.0066667
0.0039698 -0.0019146 0.0018081 -0.0062942 0.00053808 -0.0019858 0.0075914 0.030242
-0.11953 0.19818 0.0064069 0.01998
-0.0030553 -0.0022206 -0.00026428 -0.0022839 0.001542 -0.00022404 -0.0088287 -0.0067359
0.007143 0.019683 -0.15219 0.25367
1040000000 -0.015528 0.29344 0.032922 0.019034 -0.0016703 0.0070213 0.002678 0.00075876
0.00045068 -0.0034568 -0.00022584 -0.0018279
0.032901 0.019013 -0.17752 0.35202 0.030128 -0.014598 0.0016767 -0.0017927
-0.0021836 -0.0026511 -0.0008372 -0.0030038
-0.0016414 0.0070272 0.03005 -0.014725 0.1537 0.29349 -0.00045579 -0.0017136
-0.0015346 -0.00099725 -0.00060514 -0.001114
0.0026801 0.00080515 0.0017277 -0.0018014 -0.00042453 -0.0016881 -0.047061 0.28037
0.019553 0.018999 -0.0026324 0.0009395
0.0004569 -0.0035169 -0.0021188 -0.0026443 -0.0015551 -0.00097335 0.019812 0.01887
-0.086429 0.20332 0.013737 0.017709
-0.00018406 -0.0017536 -0.0010222 -0.0029253 -0.00055016 -0.0011427 -0.002598 0.0010432
0.013734 0.018363 -0.12954 0.27369
1100000000 0.029304 0.3027 0.036528 -0.0035432 0.0027929 0.0041508 0.0024196 -0.0010664
-0.0021096 -0.0033009 -0.0039919 -4.5587e-05
0.036495 -0.0035448 -0.13425 0.37005 0.015936 -0.028065 7.621e-05 -0.0018286
-0.0036401 -0.001203 -0.0036393 -0.00046698
0.0027852 0.0041518 0.015851 -0.028152 0.19989 0.27417 -0.0019788 5.1316e-05
-0.0018166 0.0004501 -0.001045 -0.00042666
0.0023928 -0.0010625 9.6342e-05 -0.0018787 -0.0019563 5.8886e-05 -0.0070448 0.28539
0.025452 0.0054435 -0.002384 -5.6354e-05
-0.0021295 -0.0031213 -0.0037883 -0.0010368 -0.0018468 0.00046134 0.025508 0.0054238
-0.065049 0.21606 0.019529 0.0081724
-0.0040674 -3.8188e-05 -0.0036455 -0.00051501 -0.0010819 -0.00046013 -0.0023621 -3.641e-06
0.019507 0.0081234 -0.084032 0.30232
1160000000 0.080285 0.2989 0.024529 -0.020794 0.0027906 -0.00042883 -8.8164e-05 -0.0024403
-0.0039227 -0.00083343 -0.0011445 0.0041603
0.024526 -0.020768 -0.090802 0.3747 -0.0033266 -0.029734 -0.0017313 -0.0017679
-0.0028468 0.0026756 -0.0015194 0.0019092
0.0027675 -0.00039598 -0.0034972 -0.029742 0.24329 0.244 -0.00093875 0.0018233
-0.00063804 0.0020091 -0.00087198 0.00026525
-0.00011733 -0.0024104 -0.0016821 -0.0017824 -0.00086579 0.0018167 0.032703 0.28281
0.021632 -0.010726 -0.003195 0.0051061
-0.0039759 -0.00080463 -0.0028693 0.0026515 -0.00066124 0.0020412 0.021611 -0.010676
-0.030747 0.22388 0.018389 -0.00087755
-0.00095539 0.0040958 -0.0014127 0.0019462 -0.00088165 0.00028108 -0.0032631 0.0052107
0.018438 -0.0010402 -0.036827 0.30533
1220000000 0.12445 0.28897 0.011037 -0.030374 -0.001599 -0.00087353 0.00011197 -0.00093152
-0.0026425 0.002123 0.0010894 0.002044
0.011047 -0.030316 -0.046746 0.38778 -0.017041 -0.021997 -0.0026408 0.00046141
-3.7461e-05 0.0031666 -0.00084404 0.0019079
-0.001594 -0.00085038 -0.017146 -0.021969 0.28234 0.20551 0.00076623 0.001806
0.00060897 0.0012813 0.00031161 0.0006012
6.5815e-05 -0.00089333 -0.0026928 0.00050694 0.00075583 0.0017862 0.072517 0.27416
0.010968 -0.017654 0.0019387 0.0013964
-0.0026475 0.0022293 1.024e-06 0.0032082 0.00061718 0.0012843 0.010953 -0.017813
-0.0068739 0.23192 0.013759 -0.013548
0.0011084 0.0020177 -0.0008406 0.0020188 0.00031055 0.000527 0.0020172 0.0013855
0.013845 -0.013518 -0.0052136 0.31927
1280000000 0.17489 0.26865 -0.0078035 -0.028972 -0.0019762 0.0024913 -0.00081659 -0.0020806
-0.00073404 0.0032271 0.0024924 0.0012626
-0.0077916 -0.028964 -0.00065697 0.37965 -0.024308 -0.0089964 -0.0010356 0.0015597
0.0017752 0.0017667 0.00059714 0.0020562
-0.0019853 0.0025062 -0.024374 -0.0088967 0.31313 0.16203 0.0015726 5.9948e-05
0.0012732 0.00029643 0.00035879 0.00028497
-0.00087524 -0.0020921 -0.001047 0.0015263 0.001577 7.4246e-05 0.10969 0.25803
0.00081253 -0.019975 -0.00021742 0.0002548
-0.00070088 0.0032617 0.0017494 0.0018207 0.0012462 0.00030511 0.00089595 -0.019957
0.029583 0.23481 0.0027192 -0.015648
0.0024458 0.001315 0.00055394 0.0021008 0.00033088 0.00028127 -0.00023902 0.00036075
0.002757 -0.015586 0.041793 0.32081
1340000000 0.21245 0.23553 -0.017825 -0.019276 0.00078781 0.0048105 -0.001786 -0.00085679
0.0013856 0.0026709 0.0018455 -0.0013276
-0.017785 -0.019267 0.038953 0.37188 -0.0222 0.0041779 -0.00012635 0.0020938
0.0021185 0.0008554 0.0012586 0.00076109
0.00082169 0.0048218 -0.022209 0.0043129 0.33532 0.11483 0.0011542 -0.00090025
0.00065314 -0.00067324 6.2238e-05 0.00019764
-0.001778 -0.00087387 -9.6464e-05 0.002113 0.0011366 -0.00094987 0.14292 0.23695
-0.008878 -0.017215 0.00060519 0.00065602
0.0014547 0.0026385 0.0020827 0.00078959 0.00065801 -0.00069353 -0.0088932 -0.017209
0.059743 0.22976 -0.0042875 -0.014282
0.0018102 -0.001399 0.0012117 0.00079925 1.5519e-05 0.00021228 0.00077272 0.00064415
-0.0042446 -0.014407 0.07963 0.31516
1400000000 0.24631 0.19825 -0.023771 -0.007542 0.0053445 0.0034849 -0.0022521 0.00059022
0.002457 0.00092971 0.00030456 -0.0015813
-0.023728 -0.0075445 0.076464 0.35944 -0.015401 0.012745 0.0014121 0.0012971
0.0013735 -0.00081575 0.0012504 6.0035e-05
0.005379 0.0034649 -0.01538 0.012831 0.34859 0.061981 8.2654e-05 -0.0017119
0.00014565 -0.00041209 0.00039674 7.3699e-05
-0.0022622 0.00064839 0.0014335 0.0013154 0.00012602 -0.0017178 0.17233 0.20802
-0.015071 -0.0099722 -0.00080765 -0.00011222
0.0024799 0.00097655 0.0013762 -0.00084769 0.00010213 -0.00040871 -0.015093 -0.0099386
0.092662 0.22491 -0.010785 -0.008776
0.00024654 -0.0015842 0.0012289 2.4318e-05 0.00039238 0.00012904 -0.00084935 -8.1213e-05
-0.010741 -0.0087548 0.12393 0.30371
1460000000 0.26975 0.15447 -0.020609 0.0048727 0.0059585 -0.0017257 -0.0015858 0.0017454
0.0022224 -0.00051512 -0.00041487 -0.00098289
-0.020604 0.004891 0.11111 0.33786 -0.0063375 0.015948 0.0017373 0.00012039
0.00091292 -0.0013843 0.0012712 -0.000663
0.0059432 -0.0017513 -0.0062532 0.015986 0.35527 0.0080652 -0.0012056 -0.0013529
9.5409e-05 -0.00025005 0.00068009 -0.0002583
-0.0015466 0.001769 0.0016991 0.00014973 -0.0012241 -0.0013708 0.19893 0.17845
-0.016362 -0.0030392 -0.0008445 0.002199
0.0022487 -0.00053711 0.00088298 -0.0014064 0.00013032 -0.0002492 -0.01637 -0.0030129
0.1219 0.21049 -0.012522 -0.0026458
-0.00039991 -0.0010241 0.001268 -0.00064167 0.00064917 -0.00020059 -0.00088247 0.0021767
-0.012513 -0.0026615 0.15695 0.28296
1520000000 0.28237 0.11285 -0.014835 0.010484 0.0036478 -0.0044077 0.00014723 0.0026092
0.0020993 -0.0019907 -0.0011772 -0.00020065
-0.014831 0.010453 0.1448 0.32351 0.0017526 0.013637 0.0016446 -0.00079435
-1.5277e-05 -0.0011478 0.00032848 -0.001071
0.0036172 -0.0044527 0.0018456 0.013642 0.34892 -0.047608 -0.0010909 -0.00036188
0.00067211 -0.00086494 0.00011617 -0.00022702
0.00015076 0.0025974 0.0016638 -0.00084593 -0.0011028 -0.00038418 0.22191 0.13986
-0.015461 0.0031585 0.0016533 0.0021291
0.0021475 -0.0020104 1.7735e-05 -0.001127 0.00067434 -0.00087589 -0.015466 0.0031496
0.15005 0.19703 -0.012105 0.0019929
-0.0012182 -0.00019509 0.00028942 -0.0011223 3.2062e-05 -0.00029622 0.0016835 0.0021109
-0.012173 0.0020328 0.18947 0.26184
1580000000 0.2924 0.066946 -0.0079847 0.013649 -0.00096719 -0.0052805 0.0014753 0.0019457
-0.00025905 -0.0022382 -0.00017648 0.00039585
-0.0079661 0.01364 0.17232 0.29905 0.0056582 0.0084648 0.0005133 -0.0016283
-0.00061666 -0.0010841 -0.00022199 -0.00082149
-0.00096558 -0.0052346 0.0056921 0.0084739 0.32974 -0.10495 -0.0016629 0.0005352
-0.00032157 -0.0012649 0.00020423 -0.00052983
0.0015241 0.0019431 0.00053358 -0.0016191 -0.0016738 0.00057313 0.23552 0.10048
-0.011739 0.0081417 0.002222 0.00067033
-0.00023641 -0.0021614 -0.00060879 -0.0010418 -0.00033296 -0.0011908 -0.011741 0.0081981
0.17422 0.17908 -0.0093761 0.0077793
-0.00020923 0.00036605 -0.00022937 -0.00082695 0.00018736 -0.0005405 0.0022287 0.00071044
-0.0093611 0.007659 0.2207 0.23502
1640000000 0.29488 0.025801 -0.0011681 0.012343 -0.0030847 -0.0028315 0.0027306 0.0010932
-0.00081512 -0.0016321 -0.00032083 0.00058053
-0.001156 0.012332 0.20221 0.27431 0.0063426 0.0033975 -0.00063638 -0.0018326
-0.0010124 -0.00041953 -0.00061229 -0.0007157
-0.0030999 -0.0028104 0.0063605 0.0033582 0.30178 -0.15458 -0.00068655 0.0014425
-0.0010352 -0.00094752 -0.00026609 -0.0003809
0.0027354 0.0011008 -0.00066063 -0.0018193 -0.00069235 0.0014259 0.24767 0.051588
-0.0072684 0.0094975 0.0026042 -0.00075
-0.00089171 -0.001611 -0.0010401 -0.00038004 -0.001079 -0.00096259 -0.0072563 0.0095127
0.19761 0.15503 -0.0046909 0.0097851
-0.00032498 0.00060971 -0.00057739 -0.00067574 -0.00023348 -0.00029485 0.0026157 -0.00077985
-0.0046255 0.0098307 0.24656 0.20409
1700000000 0.28804 -0.019442 0.0022615 0.009389 -0.003791 -2.14e-05 0.0032328 -0.0012691
-0.0020346 -0.00057446 0.00059742 0.00044437
0.002264 0.0093825 0.22049 0.24307 0.0041158 0.00028681 -0.0015543 -0.00057041
-0.00081647 9.2327e-05 -0.00089997 -0.00042902
-0.0037443 8.1838e-06 0.004115 0.00028882 0.25863 -0.19483 0.00040876 0.0016701
-0.0020376 -2.1339e-05 -0.00038486 -0.00086556
0.003199 -0.001291 -0.0015484 -0.00056672 0.0004464 0.0016742 0.24421 0.0019452
-0.0041418 0.0099764 0.001665 -0.0023563
-0.0020631 -0.00059024 -0.00081222 8.1785e-05 -0.0019888 -4.7444e-05 -0.0041381 0.0099591
0.21491 0.13475 0.00019427 0.009963
0.00054401 0.00046246 -0.00091178 -0.00046517 -0.00042519 -0.00090797 0.0017624 -0.0023331
0.00016353 0.0099866 0.26211 0.16981
1760000000 0.27635 -0.068085 0.0044899 0.0059791 -0.0023359 0.0010268 0.0012741 -0.0035015
-0.001402 0.00076109 0.00028137 -0.00037556
0.0044548 0.005973 0.247 0.20346 0.0017365 -0.0016019 -0.0012448 0.00019396
-0.0010579 0.00091244 -0.00064556 0.00037565
-0.0023841 0.0010462 0.0017238 -0.0016163 0.21072 -0.22819 0.0011183 0.0010392
-0.0012497 0.0014659 -0.0012721 -0.00067586
0.0013207 -0.0035273 -0.0012454 0.00019232 0.0011457 0.0010303 0.23538 -0.049411
-0.00075691 0.0088918 -0.00012877 -0.0026776
-0.0013831 0.00076622 -0.0010587 0.00090064 -0.0012799 0.001482 -0.00070231 0.0088574
0.2302 0.099965 0.0041095 0.0072958
0.00039383 -0.00037641 -0.00070253 0.00042709 -0.0012534 -0.00061197 -0.00025413 -0.0027596
0.0041374 0.0072535 0.27486 0.13223
1820000000 0.25216 -0.10563 0.0045036 0.0024211 -0.00032946 0.0026065 -0.00094851 -0.0031666
-0.0010423 0.0010931 -8.269e-06 -5.2428e-05
0.0044883 0.0023943 0.25735 0.17332 -0.00083604 -0.00038724 -0.0012635 0.00098444
-7.2193e-05 0.0013113 -0.00057267 0.0005035
-0.00031986 0.0026047 -0.00082371 -0.00037452 0.15946 -0.24425 0.0016651 0.00042716
-0.00015967 0.0024129 -0.0014291 0.00032012
-0.00099038 -0.0031241 -0.0012825 0.00096555 0.0016974 0.00038369 0.20523 -0.096603
0.00078641 0.0074216 -0.0016803 -0.0017333
-0.0010314 0.0010812 -5.6235e-05 0.0012671 -7.2528e-05 0.0023646 0.00076104 0.0074438
0.24728 0.071123 0.0050878 0.0036705
-2.9761e-05 -5.9481e-05 -0.00052159 0.00047599 -0.0013645 0.00035443 -0.0015576 -0.0016639
0.0050144 0.0037392 0.27687 0.095583
1880000000 0.21714 -0.1459 0.0022516 0.00011128 -0.00057443 0.0022452 -0.0028826 -0.0021679
-0.00015773 0.0017998 0.00010103 -0.00069399
0.0022009 0.00011693 0.26216 0.12681 -0.0027133 0.0016043 -0.00014751 0.001829
0.00060709 0.0013817 9.5572e-05 0.00096225
-0.00055581 0.0022856 -0.0027204 0.0016458 0.10754 -0.25326 0.0017456 -0.00086597
0.0016128 0.001933 -0.0010437 0.0013773
-0.0029917 -0.0021738 -0.00014893 0.0018169 0.0017308 -0.0008729 0.16485 -0.13661
0.0015441 0.005211 -0.0024275 0.00025182
-0.00016632 0.0017642 0.00058628 0.0013833 0.0015574 0.0019731 0.0015805 0.005201
0.25116 0.03954 0.0052717 0.0013143
0.00019486 -0.00058951 7.9308e-05 0.00096421 -0.001018 0.001243 -0.0025197 0.00023749
0.0052503 0.001328 0.27681 0.061972
1940000000 0.17808 -0.17163 -0.00031697 -0.001411 0.0013427 0.0021159 -0.0037537 0.00043394
0.001457 0.0011317 -0.00052292 -0.00068693
-0.00032263 -0.0014632 0.26299 0.094718 -0.0014563 0.0041341 0.001097 0.001246
0.0019543 0.00060314 0.0010421 0.00043788
0.0013196 0.0021488 -0.00142 0.0041357 0.062413 -0.246 0.00051182 -0.0023564
0.0024676 0.00041826 0.00060217 0.0017424
-0.0037864 0.00047426 0.0011045 0.0012626 0.0004762 -0.0023469 0.11262 -0.16746
0.001021 0.0039093 -0.0016211 0.0016573
0.0013769 0.0010933 0.0019645 0.00056194 0.0024588 0.00039611 0.0010175 0.0038542
0.25437 0.0012913 0.0040203 -0.0018494
-0.00065092 -0.00061504 0.0010442 0.00039949 0.00048789 0.0017983 -0.0015278 0.0016712
0.0040549 -0.00186 0.26595 0.025485
2000000000 0.13223 -0.18668 -0.0040252 0.00080863 0.0026969 0.0016874 -0.0022711 0.0038051
0.001221 0.0004854 -0.00075454 0.00060674
-0.0039522 0.00084974 0.24878 0.059033 -0.00098061 0.0059504 0.0016166 0.00035944
0.0014649 -0.0011266 0.00057494 0.0001344
0.002732 0.0016707 -0.00094687 0.0059505 0.019172 -0.23243 -0.0012755 -0.0014476
0.002062 -0.0011723 0.0017248 0.0016232
-0.0021984 0.0038559 0.001629 0.00034593 -0.001229 -0.0014616 0.059029 -0.17725
-0.00037221 0.0037082 -0.00023139 0.0024351
0.0012335 0.00044711 0.0014658 -0.0011419 0.0021645 -0.0012358 -0.00037935 0.0035468
0.2493 -0.031935 0.00071264 -0.0028887
