!Keysight Technologies,M9804A,MY58100912,A.14.10.03
!Date: Thursday, April 27, 2023 10:28:33
!Correction: S11(C  6-Port  ) 
!S12(C  6-Port  ) 
!S13(C  6-Port  ) 
!S14(C  6-Port  ) 
!S15(C  6-Port  ) 
!S16(C  6-Port  ) 
!S21(C  6-Port  ) 
!S22(C  6-Port  ) 
!S23(C  6-Port  ) 
!S24(C  6-Port  ) 
!S25(C  6-Port  ) 
!S26(C  6-Port  ) 
!S31(C  6-Port  ) 
!S32(C  6-Port  ) 
!S33(C  6-Port  ) 
!S34(C  6-Port  ) 
!S35(C  6-Port  ) 
!S36(C  6-Port  ) 
!S41(C  6-Port  ) 
!S42(C  6-Port  ) 
!S43(C  6-Port  ) 
!S44(C  6-Port  ) 
!S45(C  6-Port  ) 
!S46(C  6-Port  ) 
!S51(C  6-Port  ) 
!S52(C  6-Port  ) 
!S53(C  6-Port  ) 
!S54(C  6-Port  ) 
!S55(C  6-Port  ) 
!S56(C  6-Port  ) 
!S61(C  6-Port  ) 
!S62(C  6-Port  ) 
!S63(C  6-Port  ) 
!S64(C  6-Port  ) 
!S65(C  6-Port  ) 
!S66(C  6-Port  ) 
!S6P File: Measurement: :
# Hz S  RI   R 50
500000000 -0.33414 -0.054343 -0.010253 -0.0015344 -0.0083717 0.012814 -0.0044071 0.012475
0.012315 0.0048814 -0.0031594 0.0077913
-0.010324 -0.0017855 -0.41643 -0.064156 0.0083668 -0.010814 0.00088802 0.011902
0.0077932 0.0026255 0.00043342 0.013124
-0.0086695 0.012855 0.0083167 -0.010787 -0.26688 0.19864 0.0064581 0.0037242
-0.0012346 0.0082389 -0.00031448 0.012381
-0.0034852 0.011949 0.00098378 0.012015 0.0065199 0.0037908 -0.33193 0.043438
-0.01829 -0.0047678 0.016545 0.026514
0.012454 0.0053879 0.0078668 0.0028064 -0.0011629 0.0083235 -0.018338 -0.0049465
-0.2471 -0.19575 -0.026774 0.0043099
-0.0028066 0.0080092 0.00057928 0.013292 -0.00010697 0.012302 0.016048 0.025315
-0.025785 0.0046806 -0.27304 -0.12012
560000000 -0.31919 0.11176 -0.023493 -0.064772 0.00030445 0.012246 0.0047277 0.011351
0.011107 0.00448 0.0093396 0.0079085
-0.023623 -0.064579 -0.3755 0.098507 -0.041559 -0.036912 0.013696 0.0028114
-0.012875 -0.0039851 0.0037014 -0.001319
-0.00022245 0.012099 -0.041869 -0.036863 -0.18606 0.25022 -0.00062181 -0.0045724
0.018934 0.0047899 0.0077192 -0.0052742
0.004641 0.011161 0.013649 0.0029501 -0.00048577 -0.0044637 -0.30664 0.13473
0.0047666 -0.023586 0.0046225 -0.021828
0.01117 0.0047616 -0.012769 -0.0041752 0.01869 0.0047774 0.0047092 -0.023759
-0.30913 -0.01561 0.009495 -0.047596
0.0092244 0.0081844 0.0036053 -0.0012935 0.0075847 -0.0053402 0.0053821 -0.021875
0.0082948 -0.047908 -0.33343 0.024958
620000000 -0.27799 0.092571 -0.022943 0.0083301 0.0035705 0.0092403 0.007919 -0.0052916
0.011897 -0.00064591 0.00025054 -0.0028792
-0.023078 0.008416 -0.40321 0.04836 -0.01842 0.00055846 -0.0015093 -0.0022124
0.012129 -0.0064522 0.0012818 -0.0032589
0.0035099 0.0092659 -0.018426 0.00062561 -0.15559 0.25982 -0.0007815 -0.0050697
-0.0035592 -0.003023 0.0092822 -0.002428
0.0082393 -0.0048343 -0.0015166 -0.0020319 -0.00081444 -0.0051153 -0.26529 0.14563
-0.038525 -0.019524 0.012921 0.026054
0.011416 -0.0011019 0.012245 -0.0065457 -0.003565 -0.0028667 -0.038692 -0.019603
-0.23014 -0.049126 -0.040467 0.012025
0.00016402 -0.0027261 0.0009842 -0.0030819 0.00944 -0.0027612 0.013205 0.026871
-0.041018 0.011979 -0.25158 -0.0070107
680000000 -0.23934 0.18301 -0.026481 -0.014537 0.0052437 0.0054849 0.0016009 -0.0080096
-0.0024703 -0.012137 0.005907 -0.007437
-0.026459 -0.014539 -0.38995 0.14928 -0.032573 -0.001929 -0.001475 -0.00055585
-0.0021349 -0.009453 -0.0010737 -0.0017305
0.00534 0.005274 -0.032594 -0.001904 -0.10432 0.2803 -0.00052375 -0.00022757
-0.0018259 0.00026311 -0.0030426 -0.0093633
0.0015901 -0.0078565 -0.001435 -0.00057636 -0.00051235 -0.00026685 -0.21994 0.19691
-0.02393 -0.00753 -0.0091794 -0.011936
-0.0024707 -0.011706 -0.0022523 -0.0094948 -0.0018946 0.0002712 -0.024022 -0.0073621
-0.27874 0.054244 -0.0073801 -0.0065391
0.0056351 -0.0077356 -0.0013172 -0.0016104 -0.002911 -0.0088655 -0.0091773 -0.011773
-0.0080345 -0.0070669 -0.25851 0.094485
740000000 -0.19344 0.17692 -0.039745 0.026768 0.013499 -0.0051698 -0.00032306 -0.0034717
-0.0036807 -0.0040173 -0.0068762 0.0035993
-0.039684 0.026622 -0.33638 0.16806 -0.036877 0.03507 -0.00026654 -0.0061103
-0.012212 0.0074839 -0.0010559 -0.0057075
0.013554 -0.0052053 -0.036867 0.03521 -0.070776 0.27756 -0.0018272 0.0034871
-0.002742 -0.0059485 -0.0013373 0.0016373
-0.00021116 -0.0035405 -0.00023449 -0.0060441 -0.001813 0.0034393 -0.20379 0.20429
-0.04346 -0.0078289 0.023218 0.015078
-0.0038551 -0.0037001 -0.012037 0.0076512 -0.0029608 -0.0058201 -0.043545 -0.0076944
-0.17869 0.080997 -0.043858 0.00059273
-0.0066782 0.0036138 -0.0012098 -0.0057905 -0.0013124 0.0016803 0.022747 0.015103
-0.043289 -0.00063838 -0.24713 0.1018
800000000 -0.16202 0.22071 -0.022503 0.016658 0.0059955 -0.010606 -0.0044126 -0.0019057
-0.0043203 0.0022559 0.0043374 0.00011755
-0.022534 0.016553 -0.34182 0.23883 -0.0085193 0.034397 -0.0021714 0.0021865
-0.00099686 0.0031131 0.0011482 0.0050487
0.0059276 -0.010658 -0.0084436 0.034439 -0.031875 0.30207 0.00095953 0.0014432
5.6699e-05 0.0034057 -0.0018098 0.00092487
-0.0045292 -0.0019032 -0.0022606 0.0022592 0.00098883 0.0014475 -0.17459 0.23155
-0.029006 0.01323 0.014058 -0.0098047
-0.0042095 0.0023646 -0.0010324 0.0030125 0.00011883 0.0035085 -0.028931 0.013272
-0.22051 0.10983 -0.017699 0.01859
0.0044204 0.00016037 0.0011035 0.0052119 -0.0017901 0.00087461 0.01409 -0.0099741
-0.017672 0.018761 -0.24097 0.15067
860000000 -0.12803 0.24069 -0.018035 0.030585 -0.0029159 -0.010575 -0.001948 0.00056903
0.0043063 0.0052396 -0.0034376 -0.0027977
-0.018023 0.030538 -0.29363 0.2819 0.0075344 0.034842 5.7186e-05 0.0020536
0.0037315 0.00095518 0.0036088 0.00035676
-0.0029399 -0.01054 0.0076516 0.034852 0.015692 0.31082 -0.00071954 -0.00014434
0.0022727 -0.0013884 0.0017951 0.0043303
-0.0019631 0.00064879 0.00011382 0.0020272 -0.00072495 -0.00011492 -0.13822 0.2428
-0.018833 0.018312 -0.0061222 -0.0088771
0.0040766 0.0050823 0.0036925 0.00072536 0.002322 -0.0014351 -0.018833 0.018387
-0.16576 0.16016 -0.023797 0.016507
-0.0034183 -0.0028945 0.0034015 0.00022119 0.0016951 0.004181 -0.006157 -0.0090803
-0.024366 0.01685 -0.19015 0.19488
920000000 -0.10429 0.26381 0.0045669 0.038424 -0.0093936 -0.0050978 -0.0018083 0.0018461
0.0011723 0.0018846 0.0027477 -0.0013519
0.0046124 0.038467 -0.26639 0.30308 0.02828 0.023011 0.0014797 0.0012478
0.0074535 -0.00037303 0.0039811 -0.0027361
-0.009396 -0.0050832 0.028424 0.022956 0.06124 0.31237 0.0019514 0.00010786
0.00095458 -0.00028376 0.0010359 -0.0012173
-0.0019002 0.0017837 0.0014066 0.0012954 0.001906 0.00013178 -0.11372 0.25952
-0.011572 0.031089 0.0035117 -0.0067043
0.0014371 0.001864 0.0076208 -0.0005368 0.0010499 -0.00025865 -0.011587 0.031132
-0.15442 0.16739 -0.0018578 0.026558
0.002767 -0.001506 0.0039589 -0.0027473 0.0010155 -0.0012246 0.0034755 -0.0064506
-0.0016982 0.026654 -0.19703 0.20976
980000000 -0.05785 0.28435 0.017035 0.030348 -0.0096071 0.0042408 0.0018975 0.0036293
0.0041208 -0.0018312 -0.0028453 -0.0023997
0.016969 0.030377 -0.21331 0.33801 0.033734 0.0055216 0.0021055 -9.1364e-05
0.0017171 -0.006125 -7.8115e-05 -0.0024865
-0.0095882 0.0042716 0.033812 0.0054144 0.10733 0.30688 0.00075796 -0.0011225
0.00055307 -0.001964 0.0016424 -0.00021875
0.0019198 0.0035652 0.0021572 -0.00014807 0.00073879 -0.0011482 -0.075476 0.27119
0.0075142 0.030758 -0.0090181 -0.007145
0.0040095 -0.0017678 0.0017386 -0.0061414 0.00052174 -0.0019741 0.007548 0.030746
-0.12061 0.19637 0.00602 0.019901
-0.0028898 -0.0023621 -8.6449e-05 -0.002511 0.0016671 -0.0002204 -0.0091166 -0.0071468
0.0061 0.020026 -0.1541 0.2525
1040000000 -0.016354 0.29364 0.033239 0.019358 -0.0015997 0.007211 0.0027774 0.00066959
0.00032391 -0.0034948 -5.9447e-05 -0.0015495
0.033187 0.019295 -0.17839 0.35192 0.030416 -0.014736 0.0016305 -0.0017305
-0.0023081 -0.0026501 -0.00082294 -0.0027449
-0.0016143 0.0072056 0.030398 -0.014858 0.15355 0.29396 -0.00041707 -0.0016744
-0.001636 -0.00095724 -0.00039022 -0.0011753
0.0027951 0.00074374 0.0016338 -0.0016804 -0.00042994 -0.0016716 -0.047636 0.28081
0.019909 0.019321 -0.0025711 0.0011825
0.00026155 -0.0035103 -0.0023109 -0.0025872 -0.0016114 -0.00095047 0.020029 0.019253
-0.087409 0.20303 0.013688 0.01831
-0.0001473 -0.0015175 -0.00098686 -0.0028367 -0.00039014 -0.0011246 -0.0025236 0.0012116
0.013691 0.018413 -0.13096 0.27319
1100000000 0.02868 0.30271 0.036831 -0.0035487 0.0028973 0.0043563 0.0023937 -0.001259
-0.0022193 -0.0031836 -0.0040751 -0.00016892
0.036817 -0.0035499 -0.13518 0.37012 0.016106 -0.028362 5.8244e-05 -0.0019204
-0.0036726 -0.00092303 -0.0036421 -0.00055709
0.0028705 0.0043376 0.016022 -0.028451 0.19988 0.27453 -0.0019752 0.00014238
-0.0018058 0.00044398 -0.0011028 -0.00062118
0.0024063 -0.0012035 6.2933e-05 -0.0019187 -0.0019643 0.00015722 -0.0070253 0.28599
0.025799 0.0055028 -0.0022839 0.00013968
-0.0022141 -0.0032116 -0.0037107 -0.0010066 -0.0018198 0.00045951 0.025839 0.0054874
-0.066987 0.21594 0.019597 0.0084206
-0.0040832 -0.00012901 -0.0036346 -0.00055235 -0.0011333 -0.00057467 -0.0022489 7.6115e-05
0.019618 0.0084442 -0.08539 0.30201
1160000000 0.079767 0.29901 0.024912 -0.020875 0.0029475 -0.00039409 -0.00010918 -0.002536
-0.0039281 -0.00079637 -0.0011423 0.0042101
0.024925 -0.020828 -0.091469 0.37508 -0.0034484 -0.030073 -0.0016828 -0.0017171
-0.0028067 0.0027139 -0.001563 0.0018532
0.0029754 -0.00044237 -0.003573 -0.030086 0.24345 0.24425 -0.00080782 0.0018484
-0.00056557 0.0020431 -0.0010783 0.00035367
-0.00022587 -0.0024716 -0.0016626 -0.0017308 -0.00080259 0.0018649 0.032709 0.28333
0.021898 -0.010874 -0.0031551 0.0052348
-0.0039444 -0.00079352 -0.0028261 0.0027446 -0.00053514 0.0020419 0.02192 -0.010896
-0.032396 0.22371 0.018488 -0.0006593
-0.00101 0.00418 -0.0014902 0.0018675 -0.001086 0.00028969 -0.0031332 0.0053017
0.018511 -0.00059669 -0.03888 0.30506
1220000000 0.12386 0.28934 0.011263 -0.030658 -0.0014899 -0.0010315 -3.3032e-05 -0.00086986
-0.002663 0.0021776 0.0010574 0.0020092
0.011251 -0.030623 -0.047114 0.38822 -0.017276 -0.022172 -0.0027018 0.00053715
5.9241e-05 0.0031604 -0.00081909 0.0019973
-0.0014937 -0.0010453 -0.017397 -0.022114 0.28261 0.20533 0.00080002 0.0018018
0.00059429 0.0012917 0.00030628 0.00061106
-4.5734e-05 -0.00088869 -0.0027139 0.00054709 0.00078729 0.0018221 0.073049 0.27445
0.011206 -0.018027 0.0021219 0.0014
-0.0026851 0.0021899 8.162e-05 0.0031924 0.00059797 0.0013094 0.011203 -0.018055
-0.008253 0.23269 0.013889 -0.013556
0.0010715 0.0019998 -0.00081085 0.001935 0.00028094 0.00065052 0.0021094 0.001385
0.013924 -0.013487 -0.0066565 0.31944
1280000000 0.17442 0.26892 -0.0078905 -0.029356 -0.0020943 0.0024217 -0.00079025 -0.0019894
-0.0007929 0.0032347 0.0024472 0.0011755
-0.0078446 -0.029335 -0.00061657 0.37994 -0.024653 -0.0089754 -0.00096234 0.0015074
0.001759 0.0017428 0.00063183 0.002015
-0.0020673 0.002426 -0.024738 -0.0088587 0.31312 0.16175 0.0017042 -3.6349e-05
0.0012634 0.0002669 0.00036109 0.00030431
-0.00084794 -0.0020256 -0.00096691 0.0015271 0.0017211 -6.3237e-05 0.11009 0.25789
0.00079411 -0.020385 -6.473e-05 0.0003416
-0.00079181 0.0032405 0.0017875 0.0017091 0.0012777 0.00024715 0.00077687 -0.020363
0.028818 0.23571 0.0027271 -0.015713
0.0025028 0.0011951 0.00068856 0.0020453 0.00030143 0.00034921 -6.8433e-05 0.00029386
0.0028247 -0.01585 0.040283 0.3211
1340000000 0.21202 0.23592 -0.017975 -0.019529 0.00069916 0.0047407 -0.0017641 -0.00085015
0.001416 0.0026935 0.0018936 -0.0013931
-0.017951 -0.019489 0.039084 0.37189 -0.022297 0.0043444 -6.2437e-05 0.0020471
0.0019808 0.00070964 0.0012748 0.00075145
0.00071277 0.0047288 -0.022308 0.0044545 0.33495 0.11445 0.0010629 -0.00095163
0.0006907 -0.00067013 0.00016671 0.00036672
-0.001743 -0.00083846 -6.773e-05 0.0020557 0.0010429 -0.00096396 0.1431 0.2366
-0.0091804 -0.017379 0.00071433 0.00059812
0.0014096 0.0027552 0.002013 0.00073474 0.00069664 -0.00069036 -0.0092166 -0.017364
0.059396 0.2307 -0.0043284 -0.014188
0.0018881 -0.0013464 0.0012706 0.00077438 7.5211e-05 0.00033273 0.00077907 0.00051167
-0.0042497 -0.014263 0.078807 0.31558
1400000000 0.24595 0.19851 -0.024061 -0.0075863 0.0053172 0.0035167 -0.0022167 0.00060356
0.0024776 0.00093398 0.00026258 -0.001536
-0.024008 -0.0075886 0.076594 0.35914 -0.015439 0.012947 0.0013864 0.0012494
0.0012593 -0.00082017 0.0011851 0.00010451
0.0053495 0.0034996 -0.015384 0.013048 0.34803 0.061685 3.346e-05 -0.0016465
0.00013477 -0.00042621 0.00038533 0.00015487
-0.002221 0.00064378 0.0013924 0.0012515 4.2372e-05 -0.0016417 0.17233 0.20746
-0.015438 -0.009956 -0.00083327 -0.00026206
0.0024732 0.00091982 0.0012242 -0.00085493 0.00014286 -0.00047244 -0.015475 -0.0099164
0.092612 0.2257 -0.010621 -0.0087915
0.00023857 -0.0015101 0.00118 0.00010774 0.00034842 0.00017901 -0.00086002 -0.00015592
-0.010529 -0.0088635 0.12298 0.30409
1460000000 0.26919 0.15463 -0.02081 0.0050482 0.005993 -0.001696 -0.0015718 0.0017537
0.0022063 -0.00053392 -0.00039379 -0.00095957
-0.020796 0.0050235 0.11093 0.33723 -0.006167 0.016113 0.0016474 0.00010686
0.00082649 -0.0013286 0.0012829 -0.0006628
0.005988 -0.0017236 -0.0060639 0.016168 0.35468 0.0083166 -0.0012504 -0.0013003
0.00015173 -0.00024714 0.00070966 -0.00027836
-0.0015737 0.0017729 0.0016307 8.5906e-05 -0.0012669 -0.0013093 0.19864 0.17789
-0.016598 -0.0027753 -0.00087385 0.0021106
0.0022305 -0.00053087 0.00084768 -0.0013498 0.00012622 -0.00021375 -0.016624 -0.0027307
0.12215 0.21087 -0.012432 -0.0026426
-0.00037887 -0.00094295 0.0012732 -0.00068609 0.00075465 -0.0003065 -0.00078737 0.0020605
-0.012404 -0.0025903 0.15613 0.28328
1520000000 0.28165 0.11329 -0.014991 0.010728 0.0035986 -0.0043349 0.00013815 0.0025921
0.0021187 -0.0019706 -0.0012212 -0.00016188
-0.015001 0.010689 0.14426 0.32291 0.0018444 0.013626 0.0016504 -0.00074773
-8.221e-07 -0.0010749 0.00028042 -0.001057
0.0035861 -0.0043977 0.0019325 0.013632 0.34839 -0.047233 -0.0010351 -0.0003142
0.0006143 -0.00086154 8.95e-05 -0.00025101
0.00015843 0.0025832 0.0016423 -0.00077376 -0.0010118 -0.00032888 0.22124 0.13952
-0.015455 0.0034259 0.0015517 0.002059
0.0021204 -0.0020014 -1.2129e-05 -0.0010796 0.00061607 -0.00084598 -0.015454 0.0034658
0.15044 0.19703 -0.012046 0.0020338
-0.0011847 -0.00014775 0.00030452 -0.0010471 7.9582e-05 -0.00023626 0.0015523 0.0020974
-0.012138 0.0019821 0.18877 0.26248
1580000000 0.29164 0.067442 -0.0079038 0.013934 -0.00088659 -0.0052057 0.0015536 0.001943
-0.00026137 -0.0021666 -0.00023035 0.00039794
-0.0079156 0.013904 0.1715 0.2985 0.0056966 0.0084211 0.00054171 -0.0015318
-0.00055473 -0.00098919 -0.00024359 -0.00082758
-0.0008829 -0.005248 0.0057489 0.0083847 0.32944 -0.10461 -0.0016799 0.00060679
-0.00037295 -0.0012138 0.00020892 -0.00055018
0.0015474 0.0019603 0.00053649 -0.0015401 -0.0016772 0.00059625 0.23468 0.10021
-0.011432 0.0083698 0.0022894 0.00073355
-0.00029305 -0.0021927 -0.00057361 -0.0010047 -0.00037574 -0.0012528 -0.011428 0.0083866
0.1744 0.17887 -0.0094987 0.007601
-0.00018884 0.00040542 -0.00025417 -0.00081548 0.00021699 -0.00056109 0.002309 0.00072541
-0.0094397 0.0076778 0.22013 0.23605
1640000000 0.29411 0.026591 -0.00096766 0.012516 -0.0029361 -0.0027486 0.0027517 0.001004
-0.00082354 -0.0016196 -0.00028828 0.00057756
-0.00099853 0.012501 0.20103 0.27406 0.0063196 0.0033251 -0.00062156 -0.001801
-0.00097271 -0.0003548 -0.00052423 -0.00062628
-0.0029699 -0.0027727 0.0063464 0.0032789 0.30147 -0.15408 -0.00063501 0.0014137
-0.00097452 -0.00086449 -0.0002418 -0.00037128
0.002725 0.0009905 -0.00061771 -0.0017887 -0.00058858 0.0014217 0.24681 0.051802
-0.0068436 0.0094517 0.0025247 -0.00080985
-0.00083105 -0.001609 -0.00097798 -0.00036488 -0.00097712 -0.00093019 -0.0068082 0.0094752
0.19748 0.15449 -0.0044814 0.0097203
-0.00030368 0.00057061 -0.00053445 -0.00060919 -0.00024395 -0.00034265 0.0025066 -0.0008307
-0.0045427 0.0096941 0.24589 0.20478
1700000000 0.28757 -0.018399 0.0024521 0.0094185 -0.003779 -2.3301e-05 0.0031864 -0.0012516
-0.0020111 -0.00061127 0.00054231 0.00037467
0.0024502 0.0093873 0.21918 0.24319 0.0041208 0.0002588 -0.0014872 -0.00059904
-0.00078478 2.3169e-05 -0.00086524 -0.00043606
-0.0037664 -3.111e-05 0.0041314 0.00023913 0.25874 -0.19404 0.00045231 0.0015459
-0.0019235 -0.00012802 -0.00033313 -0.00087344
0.0032003 -0.0012624 -0.0014969 -0.00059551 0.00044026 0.0015575 0.24331 0.0025608
-0.0039546 0.0096615 0.0015452 -0.0022524
-0.0019859 -0.00061303 -0.00075084 3.3329e-05 -0.0019507 -6.1699e-05 -0.003936 0.0096892
0.21428 0.13411 0.00015659 0.0098213
0.00054178 0.00037816 -0.00090599 -0.00045847 -0.00033313 -0.00093389 0.0015503 -0.002223
0.00020969 0.0098354 0.26195 0.17069
1760000000 0.27621 -0.066839 0.0046559 0.0059182 -0.002441 0.001023 0.0012573 -0.0034567
-0.0014306 0.00066946 0.00034641 -0.00052067
0.0046519 0.0059328 0.24564 0.20399 0.0016364 -0.0016267 -0.0012597 0.00015518
-0.0010531 0.00081114 -0.0005662 0.0003577
-0.0023957 0.0010232 0.0016004 -0.0016369 0.21079 -0.22771 0.0010277 0.00113
-0.0013181 0.001457 -0.0011504 -0.00076874
0.001239 -0.003476 -0.001255 0.00017902 0.00098648 0.0011089 0.23485 -0.048314
-0.00073518 0.008532 -0.00021556 -0.0025952
-0.001445 0.0006817 -0.0010446 0.00082938 -0.0013478 0.0013725 -0.00072337 0.008536
0.22904 0.099622 0.0042399 0.0070867
0.00030271 -0.00051094 -0.00057342 0.00037164 -0.0012197 -0.00070122 -0.00023113 -0.0025941
0.0041579 0.0070958 0.27471 0.13281
1820000000 0.25232 -0.10424 0.0045421 0.0023183 -0.00022947 0.0025559 -0.00098369 -0.0031027
-0.0011129 0.0010284 -8.6967e-05 -6.1565e-05
0.0045345 0.0023128 0.25621 0.17432 -0.00076368 -0.00029801 -0.0013316 0.00095132
-0.00010078 0.0011952 -0.00062241 0.00054317
-0.00017328 0.0025816 -0.00073957 -0.00030301 0.15973 -0.24384 0.0016276 0.00045472
-0.0002419 0.002341 -0.0015725 0.00031533
-0.0010178 -0.0030998 -0.0013407 0.00095744 0.0016357 0.00047082 0.2054 -0.095339
0.00051521 0.0071371 -0.0016866 -0.0015123
-0.0011446 0.0010119 -0.00010838 0.001195 -0.00024331 0.0023571 0.0005364 0.0071629
0.24588 0.071005 0.0050151 0.0034947
-0.00015168 -9.3475e-05 -0.00063951 0.00054631 -0.0016062 0.00027906 -0.0017055 -0.0014911
0.0050311 0.0035335 0.27684 0.096437
1880000000 0.21782 -0.14487 0.0022348 5.4976e-05 -0.00055582 0.0021651 -0.0028851 -0.0021964
-0.0002016 0.0018545 7.9486e-05 -0.00046416
0.0022395 2.4346e-05 0.26138 0.12809 -0.0025751 0.0016215 -0.00022733 0.0017229
0.00049573 0.0013277 3.9076e-05 0.00098598
-0.00055156 0.0021618 -0.0025719 0.0016368 0.10811 -0.25314 0.0018313 -0.00093789
0.0015235 0.0020568 -0.0012259 0.0014784
-0.0029569 -0.0021807 -0.00022715 0.0017057 0.0018525 -0.00089707 0.16533 -0.13549
0.0013401 0.0052133 -0.00243 0.00030448
-0.00020712 0.0018114 0.0005277 0.001314 0.0015481 0.0020454 0.0013169 0.0052238
0.24979 0.040085 0.0052325 0.0011748
0.00013453 -0.00049594 4.2711e-06 0.00097266 -0.0012232 0.001399 -0.0023106 0.00021277
0.0052188 0.0011529 0.27682 0.062282
1940000000 0.17881 -0.17086 -0.00021856 -0.0014755 0.0013711 0.0020913 -0.0036827 0.00047293
0.0014297 0.0011436 -0.00056456 -0.0005694
-0.00020799 -0.0014706 0.26271 0.096259 -0.0013907 0.0040683 0.0010565 0.0013666
0.0018609 0.00056221 0.0010546 0.00038411
0.0013741 0.0021017 -0.0013737 0.0040854 0.062616 -0.24619 0.00039127 -0.002233
0.0024378 0.00040011 0.00059051 0.0018881
-0.0036611 0.00049737 0.0010978 0.0013752 0.00041598 -0.0022372 0.11353 -0.16677
0.00061769 0.0041179 -0.00148 0.0016262
0.0014239 0.001128 0.0018871 0.00056996 0.0024328 0.00041934 0.00063254 0.0040848
0.25284 0.0022165 0.0037809 -0.0020687
-0.00062426 -0.00051391 0.0010376 0.00040135 0.00058643 0.0018542 -0.0014538 0.0016458
0.0037539 -0.0020273 0.26569 0.026265
2000000000 0.13289 -0.18627 -0.0039578 0.00068818 0.0026295 0.0015808 -0.0022411 0.0037748
0.0013561 0.00038098 -0.00046518 0.00056528
-0.0039459 0.00068015 0.24907 0.060482 -0.00096454 0.0058377 0.001652 0.00053619
0.0013997 -0.00099615 0.00052197 0.00016732
0.0026097 0.0015537 -0.00095821 0.0058495 0.018944 -0.23255 -0.0012165 -0.0014085
0.0022059 -0.00119 0.001696 0.0015323
-0.0022393 0.0037539 0.0016435 0.00054245 -0.0012422 -0.0014486 0.060263 -0.17735
-0.00055078 0.0037845 8.5613e-05 0.002324
0.001398 0.00042974 0.0013776 -0.0010171 0.0021662 -0.0011972 -0.00049774 0.0038189
