!Keysight Technologies,M9804A,MY58100912,A.14.10.03
!Date: Thursday, April 27, 2023 10:28:33
!Correction: S11(C  6-Port  ) 
!S12(C  6-Port  ) 
!S13(C  6-Port  ) 
!S14(C  6-Port  ) 
!S15(C  6-Port  ) 
!S16(C  6-Port  ) 
!S21(C  6-Port  ) 
!S22(C  6-Port  ) 
!S23(C  6-Port  ) 
!S24(C  6-Port  ) 
!S25(C  6-Port  ) 
!S26(C  6-Port  ) 
!S31(C  6-Port  ) 
!S32(C  6-Port  ) 
!S33(C  6-Port  ) 
!S34(C  6-Port  ) 
!S35(C  6-Port  ) 
!S36(C  6-Port  ) 
!S41(C  6-Port  ) 
!S42(C  6-Port  ) 
!S43(C  6-Port  ) 
!S44(C  6-Port  ) 
!S45(C  6-Port  ) 
!S46(C  6-Port  ) 
!S51(C  6-Port  ) 
!S52(C  6-Port  ) 
!S53(C  6-Port  ) 
!S54(C  6-Port  ) 
!S55(C  6-Port  ) 
!S56(C  6-Port  ) 
!S61(C  6-Port  ) 
!S62(C  6-Port  ) 
!S63(C  6-Port  ) 
!S64(C  6-Port  ) 
!S65(C  6-Port  ) 
!S66(C  6-Port  ) 
!S6P File: Measurement: :
# Hz S  RI   R 50
500000000 -0.33645 -0.052672 -0.010629 -0.0016897 -0.0084458 0.013184 -0.0041111 0.012588
0.012183 0.005444 -0.0046399 0.0091799
-0.010907 -0.0017289 -0.41655 -0.063285 0.0079392 -0.010719 0.001372 0.011324
0.0078534 0.0039098 0.0014867 0.01302
-0.0085519 0.013269 0.0078933 -0.010742 -0.26706 0.19958 0.0064934 0.0037791
-0.0015808 0.0084151 3.361e-05 0.012432
-0.003971 0.012466 0.001421 0.011373 0.0064845 0.0038042 -0.33161 0.042863
-0.018898 -0.0046796 0.01739 0.02471
0.011956 0.0051103 0.0079988 0.0038899 -0.0015368 0.0084147 -0.018867 -0.0046785
-0.24808 -0.19305 -0.027222 0.0047286
-0.0042551 0.0088729 0.0016094 0.013063 5.2432e-06 0.012456 0.017357 0.024562
-0.027378 0.0047131 -0.27179 -0.11989
560000000 -0.31893 0.11335 -0.022789 -0.065187 0.00053167 0.012885 0.0050865 0.010407
0.011279 0.0050046 0.010369 0.0070843
-0.022757 -0.065223 -0.37623 0.099093 -0.041308 -0.03785 0.013303 0.0029681
-0.012957 -0.0040819 0.004795 -0.0011849
0.00064099 0.012869 -0.041451 -0.037687 -0.18553 0.25101 0.00020697 -0.0047087
0.018496 0.0052607 0.008172 -0.0056755
0.0054241 0.010723 0.013104 0.0029338 0.00020126 -0.0047646 -0.30702 0.13493
0.0044461 -0.023737 0.0050688 -0.021386
0.011471 0.00522 -0.013246 -0.0040003 0.018589 0.0052031 0.0044991 -0.023757
-0.30935 -0.014137 0.0065218 -0.048408
0.0099155 0.007326 0.0045547 -0.001225 0.0080669 -0.005856 0.0050152 -0.021437
0.0070094 -0.048501 -0.32952 0.025753
620000000 -0.27778 0.094067 -0.02321 0.0085045 0.0039675 0.0092748 0.0079465 -0.0043265
0.012309 -0.0014121 6.666e-05 -0.0021501
-0.023172 0.008488 -0.40366 0.049609 -0.018428 0.00087249 -0.0011399 -0.0021366
0.012035 -0.0059804 0.0012209 -0.0027953
0.0039863 0.0092418 -0.018478 0.00095133 -0.15538 0.26067 -0.00056777 -0.0049102
-0.0032379 -0.0025763 0.0094387 -0.0023626
0.0081509 -0.0043961 -0.0012004 -0.0021639 -0.00055518 -0.0048499 -0.2654 0.14635
-0.039412 -0.019681 0.013957 0.027068
0.01242 -0.0014261 0.012068 -0.006006 -0.0032132 -0.0026008 -0.039362 -0.019666
-0.22841 -0.048027 -0.041898 0.0127
0.0003911 -0.0022329 0.0012053 -0.0028862 0.0093976 -0.0024834 0.013583 0.026937
-0.041644 0.012941 -0.24965 -0.0040424
680000000 -0.23884 0.18459 -0.026406 -0.014214 0.0053207 0.0053984 0.0011516 -0.0083122
-0.002049 -0.011533 0.0052925 -0.0074922
-0.026308 -0.01413 -0.3899 0.15043 -0.032351 -0.0018404 -0.0014235 -0.00080505
-0.0016944 -0.0093733 -0.0012415 -0.0017669
0.0054309 0.0054028 -0.032364 -0.0017814 -0.10381 0.28104 -0.00086986 -0.00082209
-0.0016292 0.00054463 -0.0032859 -0.0091882
0.0013881 -0.0080517 -0.0014947 -0.00067568 -0.0008524 -0.00080999 -0.22089 0.19711
-0.024046 -0.0078565 -0.009567 -0.011344
-0.0020258 -0.011419 -0.0017061 -0.0094292 -0.001649 0.00053826 -0.024049 -0.0078506
-0.27925 0.055994 -0.0087071 -0.0075411
0.0055232 -0.0070972 -0.0012088 -0.0017489 -0.0032931 -0.0092535 -0.0093276 -0.011384
-0.0088035 -0.0074115 -0.25883 0.097934
740000000 -0.19265 0.178 -0.039409 0.026633 0.013491 -0.0047028 -0.00022667 -0.0040842
-0.0046093 -0.0033744 -0.0065699 0.0025226
-0.039535 0.026626 -0.33476 0.16857 -0.036724 0.034932 -0.00029099 -0.0059357
-0.012206 0.0070956 -0.0015378 -0.0050939
0.013707 -0.0048305 -0.036698 0.03515 -0.069673 0.27837 -0.0019118 0.0031239
-0.0029218 -0.005788 -0.0013513 0.0013616
-0.00031382 -0.0040359 -0.00028863 -0.0059514 -0.0019078 0.0031513 -0.20404 0.20497
-0.04205 -0.0075985 0.02212 0.015134
-0.0046862 -0.0033907 -0.012165 0.0071082 -0.0029184 -0.0057714 -0.04214 -0.0075186
-0.18125 0.083901 -0.040678 0.0006128
-0.0066882 0.0028935 -0.0015586 -0.0050704 -0.0012839 0.0012656 0.022109 0.015179
-0.040583 0.00059257 -0.24801 0.10389
800000000 -0.16152 0.22183 -0.022626 0.0164 0.0056533 -0.010428 -0.0044574 -0.0017802
-0.0047753 0.0027954 0.0044264 0.00073931
-0.022599 0.016338 -0.34125 0.23953 -0.0086745 0.03418 -0.0023824 0.0022585
-0.0015797 0.0030265 0.00086762 0.0054598
0.0056685 -0.010397 -0.0085762 0.034288 -0.031172 0.30231 0.00093292 0.0015864
-1.4504e-05 0.0038826 -0.0014336 0.0010045
-0.004497 -0.0017737 -0.0023503 0.0022836 0.0009277 0.0016008 -0.17413 0.23251
-0.028555 0.013512 0.013619 -0.0099421
-0.0047584 0.0029912 -0.0015617 0.0030049 -2.9507e-05 0.003892 -0.028559 0.013524
-0.22111 0.11288 -0.017323 0.020105
0.0045359 0.00059051 0.00089926 0.0054966 -0.0014379 0.0010429 0.013621 -0.0099545
-0.017242 0.019971 -0.24 0.1529
860000000 -0.12705 0.24114 -0.017951 0.030517 -0.0028796 -0.010295 -0.0019193 0.00069203
0.0044484 0.0050294 -0.0037706 -0.002545
-0.01792 0.030382 -0.29292 0.28242 0.0074006 0.034462 0.00023615 0.002004
0.0037134 0.0009233 0.0034536 0.00057229
-0.0029055 -0.010297 0.007484 0.034463 0.016369 0.31072 -0.00063237 -8.5751e-05
0.0023977 -0.0013546 0.0017534 0.0040825
-0.0019634 0.00059701 0.00024134 0.0019524 -0.00064196 -9.6366e-05 -0.13749 0.24293
-0.017776 0.017878 -0.0058764 -0.0091232
0.0043435 0.0048487 0.0038014 0.00084221 0.0024296 -0.0013088 -0.017765 0.017944
-0.16305 0.16167 -0.024718 0.017403
-0.0036797 -0.0025968 0.003462 0.00051682 0.0018146 0.0040789 -0.0058975 -0.0090472
-0.024703 0.01751 -0.18798 0.19568
920000000 -0.10313 0.26444 0.0047816 0.038492 -0.0092249 -0.0050115 -0.001833 0.0016898
0.0018374 0.0017175 0.0027038 -0.0015236
0.0047322 0.038527 -0.26551 0.30356 0.028121 0.022772 0.0015971 0.0013432
0.0078074 -0.00044566 0.0041996 -0.0027289
-0.0092478 -0.0049178 0.028243 0.022742 0.061831 0.3121 0.0019716 1.631e-05
0.0012885 -0.00021285 0.00090884 -0.0013356
-0.0019001 0.0017112 0.0016242 0.0013544 0.0019763 -8.6396e-06 -0.11307 0.25953
-0.011256 0.030543 0.0032777 -0.0066477
0.0018043 0.0016288 0.0078278 -0.00049319 0.0012621 -0.00023157 -0.01122 0.030569
-0.15236 0.16784 -0.0021639 0.02655
0.002754 -0.001608 0.0042454 -0.0027171 0.00090197 -0.0013486 0.0033538 -0.0066848
-0.0021784 0.026507 -0.19594 0.21075
980000000 -0.056994 0.2845 0.016959 0.030053 -0.0094117 0.0041612 0.0016611 0.0034365
0.0041033 -0.0018731 -0.00296 -0.0022254
0.01695 0.030007 -0.21236 0.33842 0.033451 0.0053567 0.0019791 -0.00016135
0.0018116 -0.0061249 -0.00012194 -0.0025661
-0.0094187 0.0041874 0.033507 0.0052626 0.10779 0.30654 0.00079742 -0.0012392
0.00056452 -0.001995 0.0016283 -0.00031387
0.0017028 0.0034161 0.0019654 -0.00015398 0.0007972 -0.0012356 -0.074952 0.27073
0.0075865 0.030279 -0.0087499 -0.0068931
0.0040744 -0.0018389 0.0017409 -0.006149 0.00057879 -0.0020082 0.0076566 0.030282
-0.11928 0.19838 0.0067094 0.01951
-0.0029477 -0.0023077 -0.00017513 -0.0025826 0.001657 -0.00025992 -0.0088613 -0.0068286
0.0066371 0.019427 -0.15237 0.25269
1040000000 -0.015528 0.29356 0.032937 0.01899 -0.0016459 0.0070408 0.0025755 0.00073513
0.00036602 -0.0036321 -0.00031044 -0.0017556
0.032934 0.018945 -0.17746 0.35192 0.030071 -0.014583 0.0017077 -0.0018138
-0.0020132 -0.0026773 -0.001056 -0.0029072
-0.0016194 0.0070514 0.030083 -0.014713 0.15369 0.29356 -0.00043501 -0.0017129
-0.0015408 -0.0010411 -0.00056029 -0.0011701
0.0025739 0.00076386 0.0016813 -0.0017975 -0.00043181 -0.0017169 -0.047157 0.28046
0.019629 0.018759 -0.002644 0.001097
0.00039242 -0.0035348 -0.0020143 -0.0026426 -0.0015334 -0.0010331 0.01966 0.018731
-0.085548 0.20334 0.013762 0.017866
-0.00022661 -0.0017088 -0.0010152 -0.002882 -0.00057827 -0.0011784 -0.0026314 0.0012092
0.01379 0.017866 -0.12962 0.27433
1100000000 0.029372 0.30258 0.036513 -0.0036126 0.0027839 0.0041686 0.0024492 -0.001114
-0.0021833 -0.0032746 -0.0040372 -0.0001531
0.036487 -0.0036159 -0.13439 0.37007 0.015934 -0.028049 0.00013295 -0.0019015
-0.0036471 -0.001106 -0.0036853 -0.00050827
0.0027936 0.004176 0.015851 -0.028151 0.19985 0.27417 -0.0019442 7.5404e-05
-0.0018095 0.00048249 -0.0010974 -0.0004333
0.0024757 -0.0011259 0.00010399 -0.0019034 -0.0019453 7.5088e-05 -0.0070142 0.28541
0.025453 0.0054109 -0.0023141 1.286e-05
-0.0021666 -0.0032195 -0.0036661 -0.0010857 -0.0018127 0.00047535 0.025474 0.0053863
-0.064909 0.21632 0.019678 0.0080235
-0.0040582 -0.00013697 -0.0037154 -0.00051747 -0.0010787 -0.00042518 -0.0023434 8.6071e-06
0.019631 0.0080642 -0.084146 0.3022
1160000000 0.080311 0.2989 0.024535 -0.020727 0.0027641 -0.00040586 -0.00015169 -0.0024228
-0.0038834 -0.00092432 -0.001047 0.0041233
0.024496 -0.020741 -0.090853 0.37478 -0.0033696 -0.029706 -0.0016232 -0.0017843
-0.0028908 0.0026362 -0.0014374 0.0020347
0.0027661 -0.00042116 -0.0034963 -0.029725 0.24332 0.24402 -0.00088564 0.0018027
-0.00063028 0.0019908 -0.00091519 0.00025787
-0.0001475 -0.0023998 -0.0016457 -0.0018081 -0.00087934 0.001806 0.032588 0.28273
0.021709 -0.010654 -0.0032801 0.0051247
-0.0039056 -0.00087863 -0.0028656 0.0026498 -0.00061668 0.0020052 0.021682 -0.010668
-0.030769 0.22371 0.018275 -0.00074915
-0.0010861 0.0040843 -0.0013762 0.0020563 -0.00094111 0.00024274 -0.0032832 0.0052414
0.01825 -0.00079332 -0.036987 0.3056
1220000000 0.12453 0.28895 0.011026 -0.030334 -0.0015946 -0.00085294 4.7686e-05 -0.000948
-0.0026403 0.0021094 0.0010939 0.001959
0.011048 -0.030329 -0.046757 0.38776 -0.017039 -0.021973 -0.0027103 0.0004399
-5.7583e-05 0.0031808 -0.00092274 0.0018886
-0.0015902 -0.00087984 -0.017143 -0.021927 0.28235 0.20543 0.00072224 0.0018177
0.00060238 0.001297 0.0002925 0.00057749
8.0315e-05 -0.00091692 -0.0027125 0.00046133 0.00072056 0.0018167 0.072635 0.27418
0.01092 -0.017696 0.0021892 0.001473
-0.0026299 0.0021625 -2.8101e-05 0.0032056 0.00060319 0.0012976 0.010898 -0.017705
-0.0069524 0.23171 0.013702 -0.013564
0.0011013 0.0019031 -0.00091675 0.001898 0.00031079 0.00056267 0.0021731 0.0014741
0.013701 -0.013631 -0.0049098 0.31943
1280000000 0.17492 0.26866 -0.0078533 -0.028982 -0.0020202 0.0025167 -0.00082366 -0.0020615
-0.00070561 0.0032364 0.0025276 0.0013462
-0.0078208 -0.028975 -0.00065236 0.37964 -0.024307 -0.0089961 -0.0010246 0.00154
0.0017868 0.0018028 0.00054726 0.0020159
-0.0020151 0.0025101 -0.024395 -0.0088837 0.31314 0.1621 0.0016079 6.2028e-05
0.0012554 0.00026768 0.00033903 0.0002796
-0.00084537 -0.0020766 -0.0010043 0.0015309 0.0016187 6.6063e-05 0.10963 0.25809
0.00080016 -0.019914 -0.000296 0.00043875
-0.00071486 0.0032438 0.0017926 0.0017963 0.0012562 0.00026165 0.0007667 -0.019905
0.029764 0.23475 0.0028144 -0.015596
0.0025591 0.0013048 0.00056154 0.0020036 0.00034791 0.00026179 -0.00031513 0.00041858
0.0028193 -0.015588 0.041464 0.32079
1340000000 0.21246 0.23548 -0.017796 -0.019268 0.00082195 0.0047764 -0.001772 -0.00083715
0.0013946 0.002675 0.0017412 -0.0013136
-0.017748 -0.019249 0.038996 0.37184 -0.022149 0.0041757 -0.00011736 0.0021127
0.0020931 0.00080399 0.001262 0.00077184
0.00084241 0.004767 -0.022163 0.0042831 0.33544 0.11483 0.0011503 -0.00093809
0.00072342 -0.00068782 6.5133e-05 0.00014682
-0.001798 -0.0008369 -9.5658e-05 0.0021093 0.0011506 -0.00094864 0.14288 0.23702
-0.0088999 -0.017251 0.00064246 0.00062009
0.0014057 0.0026876 0.0021195 0.00079571 0.00071006 -0.00068349 -0.0089243 -0.01724
0.059711 0.22968 -0.0042791 -0.014361
0.0017806 -0.0013109 0.0012835 0.00079583 6.8596e-05 0.00016596 0.00068992 0.00059592
-0.0042763 -0.014294 0.079767 0.31492
1400000000 0.24632 0.19819 -0.023765 -0.0074951 0.0053593 0.0034991 -0.0022564 0.00060844
0.0024833 0.00094323 0.00033094 -0.00157
-0.023751 -0.0075146 0.076483 0.35947 -0.015412 0.012737 0.0013921 0.0013048
0.0013574 -0.00083509 0.0012488 6.2857e-05
0.0053716 0.0034741 -0.015361 0.012828 0.34852 0.061921 8.7145e-05 -0.0017137
9.6851e-05 -0.00043868 0.00041823 0.0001183
-0.0022677 0.00062648 0.001396 0.0012935 8.642e-05 -0.0017072 0.17234 0.20803
-0.015097 -0.0099368 -0.00085362 -5.7288e-05
0.0024586 0.00092386 0.0013515 -0.00084603 0.00010089 -0.00044248 -0.015121 -0.0099029
0.092677 0.22492 -0.010726 -0.0088047
0.00031409 -0.0015785 0.001218 6.3138e-05 0.00042828 0.00011672 -0.00087275 -4.2285e-05
-0.010743 -0.0088406 0.12368 0.30367
1460000000 0.26985 0.15447 -0.02057 0.0048898 0.0060236 -0.0017301 -0.0015793 0.0017965
0.0022139 -0.000494 -0.00041777 -0.00098759
-0.020567 0.0048893 0.11116 0.33787 -0.0063075 0.015983 0.0017305 0.00013141
0.00091198 -0.0013739 0.0012759 -0.0006696
0.0059992 -0.0017172 -0.00623 0.016022 0.35532 0.0081357 -0.0012313 -0.001366
0.00013801 -0.00020741 0.0006976 -0.00030309
-0.0015656 0.0018039 0.0017246 0.00011146 -0.0012226 -0.0013685 0.19902 0.17848
-0.016392 -0.0030446 -0.00083273 0.0021814
0.0022159 -0.00052382 0.00090116 -0.0013905 0.00014266 -0.0001946 -0.016402 -0.003015
0.12192 0.21056 -0.012566 -0.0027138
-0.00038848 -0.00095464 0.0012463 -0.00066371 0.00070649 -0.00027153 -0.00083873 0.002189
-0.012592 -0.0026909 0.15709 0.28281
1520000000 0.28242 0.11283 -0.014817 0.010475 0.0036522 -0.0043793 0.00013988 0.0025749
0.0021145 -0.0019535 -0.0012279 -0.00021592
-0.014801 0.01046 0.14482 0.32349 0.0017695 0.013631 0.0016787 -0.00079738
2.3545e-06 -0.0011174 0.00028786 -0.0010657
0.0036329 -0.0044099 0.0018308 0.013653 0.34888 -0.047581 -0.0011082 -0.00036357
0.00064331 -0.00082771 8.9335e-05 -0.00028108
0.0001419 0.002571 0.0016834 -0.00081178 -0.0011171 -0.00037431 0.22198 0.13993
-0.015439 0.00317 0.0016598 0.0021523
0.0021322 -0.0019988 -2.3922e-06 -0.0011291 0.00064136 -0.00084726 -0.015446 0.0031938
0.15002 0.19703 -0.012099 0.002105
-0.0012662 -0.0002124 0.00027521 -0.0010876 0.0001106 -0.00031606 0.0016512 0.0021268
-0.012068 0.0020876 0.1894 0.26176
1580000000 0.29238 0.066943 -0.0079711 0.01363 -0.0009796 -0.0052457 0.0014642 0.0019662
-0.00021481 -0.0021943 -0.00018297 0.0003462
-0.0079813 0.013637 0.17234 0.29905 0.0056399 0.0084606 0.00051458 -0.0016406
-0.00059542 -0.0010818 -0.00021691 -0.000867
-0.0010106 -0.0052373 0.0056779 0.0084296 0.32973 -0.10512 -0.0017179 0.00057862
-0.00039388 -0.0012978 0.00016829 -0.00051692
0.0014787 0.0019531 0.0005099 -0.0016437 -0.0017196 0.00057608 0.2356 0.10046
-0.011751 0.0081509 0.0022938 0.0007462
-0.0002509 -0.0021946 -0.00060392 -0.0010806 -0.00039884 -0.0012894 -0.011733 0.0081766
0.17433 0.179 -0.009507 0.007685
-0.00020421 0.00035979 -0.00021446 -0.00085206 0.00016636 -0.0004786 0.0023119 0.00072583
-0.0095241 0.0077009 0.22098 0.23502
1640000000 0.29488 0.025773 -0.0011459 0.012354 -0.003052 -0.0028045 0.0027475 0.0010912
-0.00082561 -0.0016439 -0.00030987 0.00059825
-0.0011632 0.012325 0.20225 0.27432 0.00637 0.003408 -0.0006394 -0.0018173
-0.0010035 -0.00040249 -0.00058994 -0.0006904
-0.0030902 -0.0027682 0.0063947 0.003383 0.30182 -0.15451 -0.00064128 0.0013989
-0.0010562 -0.00096793 -0.00024168 -0.00034839
0.0027403 0.0010775 -0.00065957 -0.0018235 -0.00063146 0.0014044 0.24776 0.051606
-0.0071974 0.0095426 0.0026407 -0.00073432
-0.00086177 -0.0016611 -0.0010214 -0.00039364 -0.0010546 -0.00097114 -0.0071943 0.0095778
0.19766 0.15516 -0.0045114 0.0098339
-0.00033622 0.00061379 -0.00061433 -0.00067466 -0.00022285 -0.00035241 0.0026314 -0.00076818
-0.0044842 0.009808 0.24638 0.20403
1700000000 0.28801 -0.019464 0.0022429 0.0093891 -0.0037865 -7.4331e-05 0.003219 -0.0012148
-0.002072 -0.00058299 0.00047403 0.00042803
0.0022315 0.0093805 0.22054 0.24307 0.0041169 0.00031627 -0.0015493 -0.00057192
-0.00081233 4.5006e-05 -0.00096193 -0.00046486
-0.0037685 -5.7074e-05 0.0041222 0.00025871 0.25856 -0.19465 0.00043004 0.0016508
-0.0019606 -0.00010707 -0.00047895 -0.00082719
0.0031817 -0.0012348 -0.0015587 -0.00056443 0.00041516 0.0016495 0.24415 0.00186
-0.0042261 0.0098685 0.0016104 -0.0022602
-0.0020905 -0.00059244 -0.00081504 5.7072e-05 -0.0019817 -8.5768e-05 -0.0042012 0.0098898
0.21489 0.13467 5.3229e-05 0.0099948
0.00051287 0.00042602 -0.00098656 -0.000415 -0.00055523 -0.00082292 0.0016267 -0.0022326
7.3343e-05 0.010046 0.26244 0.16999
1760000000 0.27636 -0.068122 0.0044915 0.0059665 -0.0024008 0.0010399 0.0012958 -0.003472
-0.0014184 0.00074722 0.00037915 -0.00036023
0.0044835 0.0059609 0.24703 0.20343 0.0017048 -0.0016082 -0.0012256 0.00021359
-0.0010643 0.0009066 -0.00063667 0.00037945
-0.0024143 0.0010777 0.0017046 -0.0016237 0.21069 -0.22813 0.0011048 0.0010756
-0.0012552 0.0014813 -0.0012719 -0.00069867
0.0012774 -0.0034509 -0.00122 0.00021464 0.0011133 0.0010675 0.23537 -0.049454
-0.00070438 0.0088942 -0.00011246 -0.0027294
-0.00141 0.00077455 -0.0010614 0.00091311 -0.0012472 0.00147 -0.00070361 0.0089043
0.23026 0.10003 0.0042179 0.0073425
0.00036542 -0.00039858 -0.00064915 0.00037328 -0.0013233 -0.00068853 -0.00014794 -0.0027496
0.0042222 0.0073124 0.27488 0.1321
1820000000 0.2521 -0.1057 0.004492 0.0023899 -0.00034953 0.0025609 -0.00097394 -0.0031544
-0.0010541 0.0010782 3.7284e-05 -3.5421e-05
0.0044946 0.0023681 0.25737 0.1733 -0.00081229 -0.00039644 -0.0012781 0.00097028
-6.8483e-05 0.0012741 -0.00059925 0.00054071
-0.00031185 0.0025946 -0.00082223 -0.00040288 0.15952 -0.24426 0.0016415 0.00037512
-0.0001304 0.0022968 -0.0013673 0.00035625
-0.0010122 -0.0031348 -0.0012763 0.00099116 0.0016591 0.00038886 0.2053 -0.096599
0.00074936 0.0073286 -0.0017415 -0.0017043
-0.0010513 0.0010885 -7.2978e-05 0.0012741 -8.6661e-05 0.0023337 0.00079308 0.0073268
0.24736 0.070993 0.0050097 0.0036715
4.02e-05 -2.2214e-05 -0.00059201 0.00056932 -0.0013746 0.00035384 -0.0017634 -0.0016867
0.0049848 0.0037088 0.27682 0.095845
1880000000 0.21717 -0.14592 0.0021982 9.4013e-05 -0.00052208 0.002224 -0.0029366 -0.0021315
-0.00019091 0.0017982 1.4965e-05 -0.00061904
0.0021894 0.00012308 0.26217 0.12674 -0.0026641 0.0016198 -0.00018376 0.0017694
0.00056836 0.0013727 7.2753e-05 0.00093896
-0.00051265 0.002211 -0.0026797 0.0016189 0.10759 -0.25321 0.0017745 -0.0010137
0.0015492 0.0019595 -0.0010858 0.0012425
-0.0029573 -0.0021142 -0.00018488 0.0017699 0.0017968 -0.0010238 0.1648 -0.13669
0.0016721 0.0053058 -0.0023525 0.00020171
-0.00018031 0.0018105 0.00057971 0.0013712 0.0015583 0.0019572 0.0016803 0.0053253
0.25124 0.039642 0.00542 0.0013809
8.0881e-05 -0.0006797 7.3246e-05 0.00092843 -0.0010831 0.0012618 -0.0023538 0.0001665
0.0054702 0.0013268 0.27681 0.061713
1940000000 0.17813 -0.17167 -0.00028463 -0.0014445 0.0013717 0.0021417 -0.0037703 0.00049803
0.0014296 0.0011266 -0.0004711 -0.00062259
-0.00026142 -0.0014323 0.263 0.094707 -0.0014517 0.0041817 0.001125 0.0012703
0.0019626 0.00057687 0.0010524 0.00048151
0.0013962 0.0020728 -0.0014246 0.0041849 0.06234 -0.2461 0.00049412 -0.0022984
0.002438 0.00030432 0.00057748 0.0018199
-0.0037631 0.00051872 0.0011455 0.0012574 0.00049976 -0.0022861 0.11248 -0.16725
0.00087547 0.003963 -0.0015295 0.0017278
0.0014347 0.0011222 0.0019766 0.00054882 0.0024406 0.00030824 0.00088613 0.0039739
0.25435 0.0011713 0.0039043 -0.0018923
-0.00051877 -0.00056131 0.0010543 0.00047543 0.00056472 0.0018605 -0.0014996 0.0017359
0.0038799 -0.0018545 0.26579 0.025732
2000000000 0.13214 -0.18661 -0.0039925 0.00081639 0.0026883 0.0016273 -0.0022715 0.003887
0.0012457 0.00041863 -0.00081885 0.00065206
-0.0040005 0.00083399 0.24881 0.059054 -0.00091937 0.0059482 0.0016164 0.00041991
0.0014701 -0.0011196 0.00055308 0.00013284
0.0026966 0.0016263 -0.00087537 0.0059433 0.019313 -0.23245 -0.0012108 -0.0014408
0.0021624 -0.0012257 0.0015386 0.0014971
-0.0022865 0.0039023 0.0016368 0.00040361 -0.0011708 -0.001448 0.059332 -0.17709
-0.00037501 0.0037745 5.3869e-05 0.0024404
0.0012569 0.00037761 0.0014681 -0.0011391 0.0021392 -0.0012063 -0.00039726 0.0037779
0.24926 -0.031932 0.0009367 -0.0028618
