!Keysight Technologies,M9804A,MY58100912,A.14.10.03
!Date: Thursday, April 27, 2023 10:28:33
!Correction: S11(C  6-Port  ) 
!S12(C  6-Port  ) 
!S13(C  6-Port  ) 
!S14(C  6-Port  ) 
!S15(C  6-Port  ) 
!S16(C  6-Port  ) 
!S21(C  6-Port  ) 
!S22(C  6-Port  ) 
!S23(C  6-Port  ) 
!S24(C  6-Port  ) 
!S25(C  6-Port  ) 
!S26(C  6-Port  ) 
!S31(C  6-Port  ) 
!S32(C  6-Port  ) 
!S33(C  6-Port  ) 
!S34(C  6-Port  ) 
!S35(C  6-Port  ) 
!S36(C  6-Port  ) 
!S41(C  6-Port  ) 
!S42(C  6-Port  ) 
!S43(C  6-Port  ) 
!S44(C  6-Port  ) 
!S45(C  6-Port  ) 
!S46(C  6-Port  ) 
!S51(C  6-Port  ) 
!S52(C  6-Port  ) 
!S53(C  6-Port  ) 
!S54(C  6-Port  ) 
!S55(C  6-Port  ) 
!S56(C  6-Port  ) 
!S61(C  6-Port  ) 
!S62(C  6-Port  ) 
!S63(C  6-Port  ) 
!S64(C  6-Port  ) 
!S65(C  6-Port  ) 
!S66(C  6-Port  ) 
!S6P File: Measurement: :
# Hz S  RI   R 50
500000000 -0.33395 -0.053681 -0.0099352 -0.0016909 -0.0082568 0.013107 -0.0050342 0.011424
0.013172 0.0056869 -0.0050815 0.0072965
-0.0099104 -0.001718 -0.41674 -0.06312 0.008086 -0.010107 0.0014956 0.011672
0.0078076 0.0028836 0.0017613 0.01316
-0.0082554 0.013146 0.0081055 -0.010129 -0.26711 0.19969 0.0065368 0.0036481
-0.0015204 0.0086331 0.00012739 0.01222
-0.0049456 0.011432 0.0015275 0.011739 0.0065365 0.0036716 -0.33212 0.044113
-0.018895 -0.0051885 0.016616 0.026045
0.013265 0.0056081 0.0077685 0.0028568 -0.0015271 0.008734 -0.018922 -0.00527
-0.24852 -0.19291 -0.026256 0.0034957
-0.0048324 0.0073301 0.0017795 0.013162 7.1496e-05 0.012264 0.016609 0.026018
-0.02634 0.003597 -0.27216 -0.11835
560000000 -0.31823 0.11351 -0.023092 -0.064615 4.7883e-05 0.012912 0.0049973 0.010531
0.010166 0.0046813 0.011166 0.0090761
-0.023104 -0.06455 -0.37622 0.09902 -0.04129 -0.037983 0.012993 0.0040216
-0.012285 -0.0030244 0.0030569 -0.00045711
0.0001512 0.012853 -0.041459 -0.037915 -0.18582 0.25154 7.2173e-05 -0.0051623
0.01825 0.0055236 0.0082563 -0.0059643
0.0050008 0.010625 0.013059 0.0041092 5.265e-05 -0.0051369 -0.30693 0.1361
0.0055461 -0.024355 0.004718 -0.020593
0.01042 0.0046885 -0.012291 -0.0029428 0.018547 0.005346 0.0054621 -0.02423
-0.30928 -0.016454 0.0080322 -0.045626
0.011039 0.0091325 0.0030212 -0.00049751 0.0082905 -0.0057953 0.0046801 -0.0207
0.0082079 -0.04552 -0.33149 0.026659
620000000 -0.27789 0.093787 -0.023095 0.0088824 0.0038209 0.0095403 0.008813 -0.0047253
0.011432 -0.00092387 0.0015418 -0.0024565
-0.023083 0.0088538 -0.40372 0.049455 -0.018499 0.0010014 -0.0013012 -0.0019124
0.01204 -0.005957 0.0014744 -0.0033358
0.0038517 0.00953 -0.018497 0.0010644 -0.15557 0.2609 -0.00035609 -0.0049296
-0.0032207 -0.003054 0.0093244 -0.0029389
0.0088049 -0.0047495 -0.0013189 -0.0019097 -0.00029375 -0.0048989 -0.266 0.14565
-0.037824 -0.019188 0.012707 0.026655
0.011499 -0.0009051 0.01209 -0.0059877 -0.0033101 -0.0031604 -0.038054 -0.019265
-0.23136 -0.046821 -0.040188 0.013421
0.0015154 -0.0023587 0.0013962 -0.0033699 0.0092956 -0.002784 0.012783 0.026673
-0.040063 0.013781 -0.25188 -0.0046537
680000000 -0.23867 0.18407 -0.026226 -0.014174 0.0052809 0.0053314 0.0018515 -0.0074564
-0.0015453 -0.012152 0.0057351 -0.0071723
-0.026189 -0.014137 -0.38975 0.15052 -0.032028 -0.0018137 -0.0011862 -0.00054715
-0.001323 -0.0094615 -0.0011314 -0.0017754
0.0053074 0.0053461 -0.03209 -0.0017075 -0.10345 0.28113 -0.00069628 -0.00043173
-0.0015901 0.00013228 -0.0028637 -0.0090565
0.0018271 -0.007538 -0.0011969 -0.00055232 -0.00075516 -0.00043653 -0.22037 0.19858
-0.023331 -0.0086338 -0.0086269 -0.01082
-0.0015389 -0.012196 -0.0013131 -0.009412 -0.0015596 0.00014547 -0.023306 -0.0087081
-0.27935 0.055831 -0.0081043 -0.0082343
0.0057397 -0.0072441 -0.0011032 -0.0017717 -0.0028355 -0.0090993 -0.0086764 -0.010898
-0.0081612 -0.0082382 -0.25972 0.098858
740000000 -0.19305 0.17739 -0.039871 0.02699 0.013748 -0.0049255 -0.0002425 -0.0045123
-0.004438 -0.0033326 -0.0065239 0.0031398
-0.039813 0.026929 -0.33491 0.16921 -0.036821 0.03469 -0.00022412 -0.0061536
-0.01254 0.0071555 -0.0015162 -0.0063138
0.013755 -0.0049248 -0.036734 0.034879 -0.06923 0.27828 -0.0021807 0.0032559
-0.003032 -0.0055974 -0.0013462 0.001339
-0.0002435 -0.0045302 -0.00025539 -0.0061621 -0.0021717 0.0032736 -0.20308 0.20453
-0.042724 -0.0078321 0.023441 0.015066
-0.0044367 -0.0033002 -0.012552 0.0072303 -0.0030057 -0.0056592 -0.042703 -0.007827
-0.18153 0.083408 -0.041797 0.0001886
-0.0064824 0.0031587 -0.0015424 -0.0062911 -0.0012875 0.0014307 0.023431 0.015095
-0.041668 0.00010249 -0.24673 0.10469
800000000 -0.1617 0.22096 -0.022341 0.01611 0.0056486 -0.010492 -0.004423 -0.0019816
-0.0047341 0.0022351 0.0043405 0.00023297
-0.022314 0.016085 -0.34098 0.23923 -0.0085751 0.033901 -0.0025061 0.0020878
-0.001744 0.0026531 0.0010017 0.005081
0.0056349 -0.010508 -0.0084684 0.033988 -0.031005 0.30208 0.00087117 0.001604
-0.00020705 0.0035998 -0.0015285 0.00092462
-0.0044152 -0.0020137 -0.0025206 0.0020952 0.00086749 0.0015968 -0.17394 0.23275
-0.028606 0.012774 0.01373 -0.009875
-0.0047606 0.0022549 -0.0017473 0.0026891 -0.0001982 0.0036007 -0.028643 0.012844
-0.22034 0.11236 -0.017086 0.019007
0.004413 0.00022131 0.0010057 0.0050826 -0.0015654 0.00092341 0.013745 -0.0099421
-0.01702 0.018971 -0.23954 0.15253
860000000 -0.12706 0.24094 -0.017539 0.03021 -0.0027722 -0.010388 -0.0016917 0.00058143
0.0041128 0.0055745 -0.0034237 -0.0032898
-0.017539 0.030213 -0.29232 0.28179 0.0075421 0.034265 0.00031809 0.0018511
0.0042574 0.0011845 0.0032957 0.00019172
-0.0027935 -0.01038 0.0076481 0.034298 0.016543 0.3103 -0.00049989 -4.5257e-05
0.0023557 -0.0012141 0.0015771 0.0041448
-0.0016792 0.00060385 0.00033869 0.00186 -0.00047785 -5.5687e-05 -0.13698 0.24302
-0.017652 0.017941 -0.0056137 -0.0089046
0.0041695 0.0055475 0.0042315 0.0011355 0.0023313 -0.0012827 -0.017664 0.017953
-0.16314 0.16342 -0.023932 0.016694
-0.0033999 -0.0032365 0.0033187 0.00014879 0.0016351 0.0041828 -0.0056878 -0.0089004
-0.023875 0.016705 -0.19003 0.19591
920000000 -0.10353 0.26422 0.0047416 0.038066 -0.0091632 -0.0051281 -0.001786 0.0016624
0.0017706 0.0017135 0.003152 -0.0017221
0.0047098 0.03803 -0.26556 0.30311 0.028102 0.022707 0.0015273 0.001205
0.0081241 -0.00030226 0.0042614 -0.0029373
-0.0091845 -0.0051181 0.028203 0.022645 0.06168 0.31172 0.0020339 8.7871e-05
0.0013121 -0.00047167 0.00093415 -0.0012158
-0.0017852 0.001657 0.0015077 0.0012132 0.0020274 0.00010492 -0.11269 0.25939
-0.010583 0.030194 0.0032692 -0.006757
0.0018256 0.0017074 0.0081667 -0.00032373 0.0013234 -0.0004482 -0.01054 0.030268
-0.15251 0.16698 -0.0019181 0.026524
0.0031827 -0.0016932 0.0042524 -0.0029389 0.00091648 -0.0011929 0.0032573 -0.0067841
-0.0018947 0.026517 -0.19569 0.21009
980000000 -0.057078 0.28413 0.016915 0.0299 -0.0094888 0.0040806 0.0018171 0.003389
0.0037883 -0.0020202 -0.0030139 -0.0022617
0.016881 0.029876 -0.21245 0.33777 0.033303 0.0054294 0.0021146 -0.00013355
0.0019771 -0.0062588 -0.00022234 -0.0024615
-0.0094928 0.0041085 0.03335 0.0053013 0.10741 0.30625 0.00070366 -0.0011605
0.00062172 -0.0020345 0.0014578 -0.00013327
0.0018155 0.0033595 0.0021019 -0.0001333 0.00070877 -0.0011787 -0.074733 0.27024
0.0069439 0.029735 -0.0087778 -0.0064606
0.0037998 -0.0020219 0.0019267 -0.0062952 0.0006136 -0.0020382 0.0070305 0.029752
-0.11846 0.19753 0.0062509 0.018641
-0.0030183 -0.0022238 -0.00025173 -0.0024502 0.0014643 -0.00012673 -0.0087789 -0.006488
0.0062524 0.018623 -0.15289 0.2535
1040000000 -0.015874 0.29341 0.032762 0.018995 -0.0017763 0.0069744 0.0026407 0.00097594
0.00018314 -0.0037841 -0.00026672 -0.00158
0.032717 0.018977 -0.17775 0.35132 0.030012 -0.014492 0.0015939 -0.0016619
-0.002094 -0.0029321 -0.0010344 -0.0029614
-0.0017382 0.0069892 0.029981 -0.01462 0.15327 0.29338 -0.00041847 -0.0016162
-0.0015945 -0.0010116 -0.00056769 -0.0011162
0.002665 0.00095143 0.0015671 -0.0016538 -0.00041557 -0.001634 -0.047218 0.28014
0.019451 0.018781 -0.0027308 0.0011901
0.00017721 -0.0037501 -0.0021602 -0.0029041 -0.0016076 -0.0010148 0.01949 0.01878
-0.085663 0.20442 0.014376 0.017602
-0.00026898 -0.0015335 -0.0010254 -0.0029799 -0.00056052 -0.0010845 -0.0027538 0.0011844
0.014338 0.017654 -0.1297 0.27347
1100000000 0.028934 0.30258 0.036276 -0.0034616 0.0026402 0.0042761 0.0025074 -0.00098395
-0.0022021 -0.0029441 -0.0039737 1.1699e-05
0.036225 -0.0034407 -0.13479 0.36949 0.01596 -0.027852 0.0001376 -0.001818
-0.0036663 -0.00087748 -0.0036104 -0.00051776
0.0026566 0.0042656 0.01587 -0.027949 0.19935 0.2742 -0.0019818 6.8296e-05
-0.0018405 0.00043531 -0.0012073 -0.00042641
0.0025129 -0.00099401 0.0001383 -0.0018095 -0.0019853 5.8261e-05 -0.0072416 0.2852
0.02482 0.0055677 -0.0024893 0.00021417
-0.0022136 -0.0029335 -0.003664 -0.00086523 -0.0018365 0.0004434 0.02485 0.0055202
-0.065395 0.21664 0.019599 0.0082775
-0.0039757 3.7732e-05 -0.0036103 -0.00051508 -0.0011829 -0.000437 -0.0024711 0.00021042
0.019565 0.008299 -0.083718 0.30198
1160000000 0.079818 0.29874 0.02444 -0.02059 0.0026302 -0.0003433 -4.0891e-05 -0.002339
-0.0040059 -0.00080584 -0.0010861 0.0042175
0.024437 -0.020573 -0.091472 0.37429 -0.0032508 -0.029713 -0.0016214 -0.0018086
-0.0028972 0.0025097 -0.0015595 0.0020585
0.0026469 -0.00035214 -0.0033904 -0.029714 0.24275 0.24421 -0.00091352 0.001818
-0.00073835 0.0020569 -0.00077366 0.00026077
-3.4006e-05 -0.00233 -0.0016408 -0.0017954 -0.00091096 0.0018267 0.032026 0.2826
0.021485 -0.010144 -0.0032417 0.0048942
-0.004028 -0.00076983 -0.0028855 0.0025407 -0.00072784 0.0020452 0.021456 -0.010178
-0.030823 0.22359 0.018424 -0.00084893
-0.0010445 0.0041978 -0.0015435 0.0020527 -0.00076777 0.00026294 -0.0032071 0.0049026
0.018407 -0.00084708 -0.037183 0.30439
1220000000 0.12376 0.28902 0.010998 -0.030164 -0.0016077 -0.00080196 7.3225e-05 -0.00097977
-0.0027298 0.0022114 0.0011549 0.0019951
0.011003 -0.030117 -0.047618 0.38748 -0.016929 -0.022038 -0.0026934 0.00046063
-7.2042e-05 0.0032132 -0.00089698 0.0019297
-0.0016092 -0.00080965 -0.017052 -0.02199 0.28195 0.2058 0.00068687 0.0018682
0.00063322 0.0012764 0.00029153 0.00057656
8.3522e-05 -0.00098266 -0.0026988 0.00047259 0.00069854 0.0018721 0.07214 0.27413
0.010932 -0.017299 0.0020449 0.0016171
-0.0027329 0.0022333 -5.4449e-05 0.0032161 0.00062392 0.0012889 0.01091 -0.017305
-0.0073535 0.23186 0.013495 -0.013128
0.0011592 0.0019948 -0.00088872 0.0019364 0.00029696 0.00058791 0.0020499 0.0016059
0.013512 -0.013127 -0.0047805 0.31921
1280000000 0.17414 0.26864 -0.0077459 -0.028827 -0.0020119 0.0026099 -0.00076535 -0.0021334
-0.00076804 0.0032538 0.002599 0.0014312
-0.0077149 -0.028797 -0.0016255 0.37953 -0.024317 -0.0091047 -0.0010584 0.0015508
0.0017688 0.0018317 0.00051705 0.0020748
-0.0020011 0.0026235 -0.024391 -0.0090074 0.31289 0.16241 0.0016367 3.8034e-05
0.0012668 0.0003307 0.0003876 0.00028268
-0.00079094 -0.0021245 -0.0010539 0.0015596 0.0016233 3.4248e-05 0.10906 0.25819
0.0011643 -0.019643 -0.00010755 0.00025384
-0.00074747 0.0032751 0.0017893 0.0018397 0.0012789 0.00035491 0.0011351 -0.019661
0.029436 0.23481 0.0028646 -0.015436
0.0025973 0.0014522 0.00053694 0.0020662 0.00037904 0.00026823 -9.8492e-05 0.00026828
0.0028531 -0.015435 0.041728 0.32057
1340000000 0.21168 0.23598 -0.01762 -0.01916 0.00082054 0.0048534 -0.0018693 -0.00085525
0.0013974 0.0026301 0.0018717 -0.0013763
-0.017587 -0.019144 0.038043 0.37207 -0.022204 0.0041231 -0.00010746 0.0021159
0.0021099 0.00079713 0.0012624 0.00075723
0.00083617 0.0048517 -0.022206 0.0042461 0.33513 0.11526 0.0011777 -0.00091908
0.00059555 -0.00068113 1.7169e-05 0.00024643
-0.0018747 -0.00085588 -0.00010315 0.0021291 0.0011871 -0.00091321 0.14245 0.23738
-0.0084736 -0.017027 0.00077853 0.00061515
0.0014233 0.0026219 0.0021108 0.00077823 0.00060419 -0.00066566 -0.0085124 -0.016991
0.059473 0.22974 -0.0041914 -0.013922
0.0018573 -0.0013985 0.0012739 0.00074589 1.8436e-05 0.00023279 0.00079077 0.00062172
-0.0041807 -0.013919 0.079863 0.31489
1400000000 0.2456 0.19888 -0.023568 -0.00756 0.005443 0.0034914 -0.0022479 0.00059638
0.002485 0.00099873 0.00034436 -0.0016738
-0.023531 -0.0075514 0.075765 0.35988 -0.015438 0.012676 0.0014417 0.0013327
0.0013256 -0.00089158 0.0011828 0.00012339
0.0054541 0.0034659 -0.015399 0.012767 0.3485 0.062456 0.00012245 -0.0017098
0.00012611 -0.00045399 0.00032279 0.00016629
-0.0022453 0.00060561 0.0014359 0.0013254 0.00011159 -0.0017106 0.17209 0.20848
-0.014718 -0.010127 -0.00067838 -0.0001108
0.0025021 0.00098497 0.0013171 -0.00089696 0.00012162 -0.00045274 -0.014741 -0.010086
0.092359 0.22521 -0.010302 -0.0087017
0.0003495 -0.0016796 0.001195 0.00011899 0.00032908 0.00016013 -0.00069773 -9.6846e-05
-0.010288 -0.0087141 0.12359 0.30369
1460000000 0.26927 0.15526 -0.020431 0.0048083 0.0060539 -0.0017397 -0.0015751 0.0017918
0.0022181 -0.00041753 -0.00034406 -0.0010149
-0.020418 0.0047883 0.11058 0.33836 -0.0063235 0.015962 0.0017685 0.00015694
0.00089858 -0.0014138 0.0011943 -0.00062761
0.0060388 -0.0017797 -0.0062419 0.016008 0.35535 0.0085598 -0.0012551 -0.0013336
0.0001495 -0.00024915 0.00071672 -0.0002401
-0.0015599 0.0018172 0.0017834 0.00015237 -0.0012634 -0.0013347 0.19894 0.17893
-0.016094 -0.0033604 -0.0007429 0.0020297
0.0022231 -0.0004342 0.00087273 -0.0014347 0.00012167 -0.00024064 -0.016118 -0.003338
0.12178 0.2107 -0.012262 -0.0026706
-0.0003499 -0.0010348 0.0012047 -0.00063275 0.0007151 -0.00024282 -0.00071175 0.0020285
-0.012278 -0.0026844 0.15685 0.28285
1520000000 0.28219 0.11385 -0.014712 0.010297 0.0036229 -0.0044485 0.00014019 0.0025795
0.0020768 -0.0019792 -0.0012051 -0.00015315
-0.014708 0.010281 0.14447 0.32407 0.0017022 0.013654 0.0016504 -0.00082185
-2.454e-06 -0.0011383 0.00029952 -0.0010762
0.0036057 -0.0044705 0.0017708 0.013663 0.34899 -0.047263 -0.0011756 -0.00034639
0.00062784 -0.00085952 6.3716e-06 -0.00020594
0.0001464 0.0025706 0.0016525 -0.00083555 -0.0011704 -0.00036149 0.22209 0.14031
-0.015394 0.00268 0.0015707 0.0021162
0.0020753 -0.0020004 -8.2671e-06 -0.0011394 0.00063853 -0.00086231 -0.015383 0.002714
0.14991 0.19729 -0.011986 0.001874
-0.0012214 -0.00013233 0.00029484 -0.0010797 8.7529e-09 -0.00020327 0.0015799 0.0021052
-0.011969 0.0018752 0.18943 0.26208
1580000000 0.29237 0.067789 -0.0079975 0.013441 -0.00090457 -0.0052613 0.0015605 0.0019432
-0.00020025 -0.0021929 -0.00015932 0.00046084
-0.0080047 0.013425 0.17217 0.2995 0.0056418 0.0085284 0.0004994 -0.001611
-0.00058248 -0.0010449 -0.00015644 -0.00089206
-0.00093291 -0.0052679 0.0056958 0.0084956 0.3299 -0.10463 -0.0016649 0.00062573
-0.00030049 -0.0012191 0.00023948 -0.00051779
0.0015646 0.0019272 0.00048646 -0.0016249 -0.0016654 0.0006217 0.23582 0.10065
-0.011898 0.0077157 0.0022307 0.00067528
-0.00021786 -0.0021818 -0.00059676 -0.0010286 -0.0003144 -0.0012112 -0.011883 0.0077509
0.17426 0.17952 -0.009226 0.0075132
-0.0001441 0.00045294 -0.00016913 -0.0008999 0.00024211 -0.00053603 0.0022461 0.00066537
-0.0092235 0.007529 0.22103 0.23511
1640000000 0.29504 0.02648 -0.0012709 0.01224 -0.0029882 -0.0028939 0.002746 0.0010796
-0.00080448 -0.0015722 -0.00034152 0.00064099
-0.0012697 0.012228 0.20205 0.27472 0.0063456 0.0034194 -0.00066477 -0.0017802
-0.001037 -0.0003972 -0.0006138 -0.00072357
-0.0030024 -0.002881 0.006372 0.0033862 0.30206 -0.15434 -0.00068808 0.0015133
-0.0011428 -0.00098472 -0.00020468 -0.00035233
0.0027508 0.0010744 -0.00066575 -0.0017782 -0.00069315 0.0015135 0.24803 0.051628
-0.0075638 0.0093279 0.0024893 -0.00079281
-0.00083975 -0.0015872 -0.0010394 -0.00038425 -0.0011316 -0.0009861 -0.0075482 0.0093491
0.19753 0.15535 -0.004601 0.0094317
-0.0003359 0.00066737 -0.00061192 -0.00072023 -0.00021842 -0.00033277 0.0024828 -0.00077734
-0.0046143 0.0094212 0.24649 0.20414
1700000000 0.28837 -0.018815 0.0021368 0.0093767 -0.0038685 -7.9938e-05 0.0032235 -0.0012552
-0.0020165 -0.00057649 0.00063954 0.00044441
0.0021281 0.009368 0.22048 0.24336 0.0041587 0.00033474 -0.0014802 -0.00057865
-0.00083928 5.8709e-05 -0.00091324 -0.00045395
-0.0038648 -6.8193e-05 0.0041772 0.00029984 0.25871 -0.19442 0.0005364 0.0016932
-0.0019912 -5.4952e-05 -0.000406 -0.00088275
0.0032039 -0.0012803 -0.0014917 -0.00056547 0.00054018 0.0016985 0.24461 0.0016533
-0.0044372 0.0099445 0.0016149 -0.0022903
-0.0020158 -0.00057166 -0.00085475 6.9736e-05 -0.0019954 -5.7044e-05 -0.00441 0.0099525
0.21495 0.13505 3.997e-06 0.0097526
0.00062577 0.00043911 -0.0009225 -0.00044118 -0.00040912 -0.00087174 0.0016197 -0.002317
2.3557e-05 0.0097589 0.2624 0.16984
1760000000 0.27675 -0.067674 0.0044443 0.0060134 -0.002401 0.001021 0.0013114 -0.003459
-0.0014925 0.0007419 0.00032826 -0.00046961
0.0044374 0.0060139 0.24683 0.20362 0.0018277 -0.0016186 -0.0012545 0.00018961
-0.0011187 0.00091326 -0.00068059 0.00041663
-0.0023899 0.0010243 0.0018182 -0.0016281 0.21096 -0.22766 0.0011378 0.00095937
-0.0012192 0.0014959 -0.0012906 -0.0006853
0.001294 -0.0034602 -0.0012553 0.00019385 0.0011388 0.00095154 0.23539 -0.049644
-0.00097724 0.0090671 -7.8462e-05 -0.0025663
-0.0014948 0.00074872 -0.0011241 0.00093348 -0.0012227 0.0015043 -0.00096361 0.009078
0.2302 0.1004 0.0039308 0.0072692
0.00032638 -0.00044856 -0.00067015 0.00042559 -0.0012957 -0.00069335 -8.9356e-05 -0.0025511
0.0039335 0.007274 0.27508 0.13225
1820000000 0.25236 -0.1052 0.0044436 0.0024421 -0.00041689 0.0024975 -0.00094136 -0.0031905
-0.0010291 0.0010293 -2.8618e-05 -0.00010332
0.0044322 0.0024362 0.25717 0.17347 -0.00072408 -0.00049146 -0.001328 0.00094934
-8.4865e-05 0.0013139 -0.00053569 0.00057636
-0.00038982 0.0025146 -0.00073418 -0.00048259 0.16011 -0.24389 0.0016101 0.00044706
-0.00018814 0.0024365 -0.0013498 0.00039763
-0.0009888 -0.0031757 -0.0013221 0.00096305 0.0016071 0.00045466 0.20511 -0.096966
0.00069052 0.0075036 -0.0017725 -0.0015919
-0.0010358 0.0010378 -8.6292e-05 0.0013163 -0.00018479 0.0024544 0.00072034 0.0074987
0.24749 0.07132 0.004819 0.0036005
-3.5946e-05 -7.3855e-05 -0.00053566 0.00058536 -0.0013854 0.0004096 -0.0017995 -0.0015918
0.0048291 0.0035983 0.27691 0.095881
1880000000 0.21732 -0.1459 0.0022235 7.6701e-05 -0.00056475 0.0021962 -0.0029142 -0.0022095
-0.00015932 0.0017897 0.00013748 -0.00047114
0.0022123 7.1876e-05 0.2619 0.12692 -0.0026978 0.0015648 -0.00021913 0.0017313
0.00061549 0.0013894 5.5296e-05 0.00097627
-0.00057475 0.0022084 -0.0026965 0.0015804 0.10782 -0.253 0.0017355 -0.00091554
0.0015719 0.0020386 -0.0010662 0.0012561
-0.0029256 -0.0021989 -0.00019521 0.0017373 0.0017326 -0.00090462 0.16458 -0.1368
0.0016898 0.0053873 -0.0024348 0.00028148
-0.00013815 0.0018023 0.00062755 0.0013821 0.0015919 0.002034 0.0017042 0.0053906
0.2514 0.03989 0.0049623 0.0013647
0.00012773 -0.00048596 6.5721e-05 0.00097383 -0.0010174 0.0012584 -0.0024129 0.00030106
0.0049614 0.0013622 0.27651 0.061868
1940000000 0.17802 -0.17138 -0.00034957 -0.0014658 0.0013527 0.0022573 -0.0037531 0.00049493
0.0014476 0.0011102 -0.0003947 -0.0006352
-0.00033266 -0.0014571 0.2626 0.094953 -0.0015888 0.0041043 0.0010981 0.001291
0.001986 0.0005766 0.0010887 0.00051272
0.0013864 0.0022639 -0.00158 0.0041164 0.062326 -0.24596 0.00053346 -0.0023093
0.0024966 0.00036548 0.00062518 0.0018344
-0.0037435 0.00052641 0.0011125 0.0012888 0.00055197 -0.0022974 0.11214 -0.16718
0.00093773 0.0039997 -0.0014166 0.0015839
0.0014623 0.0011023 0.0019876 0.00055266 0.0024806 0.00036613 0.00095259 0.0039869
0.25458 0.0013696 0.003737 -0.0017631
-0.00039888 -0.00063336 0.0010998 0.00051284 0.00057849 0.0018295 -0.0014174 0.0015872
0.0037294 -0.0017617 0.26574 0.026023
2000000000 0.13233 -0.18623 -0.0040995 0.00076477 0.0026242 0.0017463 -0.0023906 0.0038246
0.0011518 0.00033168 -0.00062757 0.00049576
-0.0041084 0.0007677 0.24847 0.059366 -0.0010556 0.0059781 0.001576 0.00046448
0.0014547 -0.001189 0.00056862 0.0001253
0.0026482 0.001725 -0.0010208 0.005991 0.019331 -0.23234 -0.001195 -0.0014044
0.0020861 -0.0012686 0.0014935 0.0015295
-0.002343 0.0038562 0.0015715 0.00045608 -0.0012202 -0.0014115 0.058725 -0.17705
-0.00043384 0.0036466 -0.000138 0.0022976
0.0011661 0.00035277 0.0014548 -0.0012122 0.002066 -0.0012328 -0.00041913 0.0036476
0.24956 -0.031887 0.00089734 -0.0029039
