!Keysight Technologies,M9804A,MY58100912,A.14.10.03
!Date: Thursday, April 27, 2023 10:28:33
!Correction: S11(C  6-Port  ) 
!S12(C  6-Port  ) 
!S13(C  6-Port  ) 
!S14(C  6-Port  ) 
!S15(C  6-Port  ) 
!S16(C  6-Port  ) 
!S21(C  6-Port  ) 
!S22(C  6-Port  ) 
!S23(C  6-Port  ) 
!S24(C  6-Port  ) 
!S25(C  6-Port  ) 
!S26(C  6-Port  ) 
!S31(C  6-Port  ) 
!S32(C  6-Port  ) 
!S33(C  6-Port  ) 
!S34(C  6-Port  ) 
!S35(C  6-Port  ) 
!S36(C  6-Port  ) 
!S41(C  6-Port  ) 
!S42(C  6-Port  ) 
!S43(C  6-Port  ) 
!S44(C  6-Port  ) 
!S45(C  6-Port  ) 
!S46(C  6-Port  ) 
!S51(C  6-Port  ) 
!S52(C  6-Port  ) 
!S53(C  6-Port  ) 
!S54(C  6-Port  ) 
!S55(C  6-Port  ) 
!S56(C  6-Port  ) 
!S61(C  6-Port  ) 
!S62(C  6-Port  ) 
!S63(C  6-Port  ) 
!S64(C  6-Port  ) 
!S65(C  6-Port  ) 
!S66(C  6-Port  ) 
!S6P File: Measurement: :
# Hz S  RI   R 50
500000000 -0.33484 -0.053459 -0.011011 -0.001177 -0.0090688 0.01388 -0.0041854 0.011667
0.013525 0.0060946 -0.0041351 0.0083684
-0.011033 -0.001369 -0.41701 -0.062657 0.0078462 -0.010184 0.0012397 0.01133
0.0084444 0.0027479 0.0022607 0.013047
-0.0089606 0.013749 0.007655 -0.0098412 -0.26771 0.19995 0.0063739 0.0031697
-0.0018042 0.0088017 0.00010601 0.012019
-0.0050975 0.01204 0.0016098 0.011435 0.006241 0.0034541 -0.33219 0.044258
-0.020028 -0.0065612 0.016501 0.026552
0.013201 0.0057563 0.0076894 0.0023748 -0.0019919 0.0085358 -0.019803 -0.0060011
-0.24943 -0.19287 -0.027699 0.0025254
-0.005871 0.0081187 0.0024751 0.012985 0.00040515 0.012197 0.016312 0.026491
-0.027963 0.0029529 -0.27275 -0.11901
560000000 -0.31969 0.1126 -0.024453 -0.063962 -0.00042084 0.013458 0.0045779 0.011524
0.010878 0.0052242 0.010489 0.0092242
-0.024319 -0.06408 -0.37655 0.09943 -0.042 -0.037991 0.014071 0.0036518
-0.012129 -0.0039771 0.0029946 -0.0003605
-0.00046999 0.013499 -0.04178 -0.038005 -0.18646 0.25227 -0.00019552 -0.0045919
0.018058 0.0062324 0.0083037 -0.0068152
0.0052638 0.011458 0.013608 0.0040633 -0.000472 -0.0049326 -0.30796 0.13661
0.005695 -0.024037 0.0044354 -0.021202
0.009956 0.005138 -0.013445 -0.0026122 0.018452 0.005737 0.0052849 -0.023539
-0.31212 -0.017553 0.010699 -0.046964
0.010384 0.0091811 0.002864 -0.0019839 0.0076896 -0.0061252 0.0041204 -0.021428
0.011248 -0.048225 -0.33299 0.027369
620000000 -0.27853 0.093865 -0.023468 0.0089523 0.0041641 0.0097852 0.0085707 -0.00416
0.012415 -0.00080303 0.00047193 -0.0022571
-0.02347 0.008982 -0.40399 0.049591 -0.018656 0.0010628 -0.0012144 -0.0021102
0.011668 -0.0057435 0.0012131 -0.0025735
0.0043232 0.0097916 -0.018739 0.0010138 -0.15572 0.26131 -0.00036175 -0.0053461
-0.0032041 -0.0022259 0.0098374 -0.0033218
0.0085731 -0.0044627 -0.0012598 -0.0018704 -9.4803e-05 -0.0055395 -0.2668 0.14709
-0.038206 -0.019456 0.011636 0.025816
0.01281 -0.00049368 0.01207 -0.0060098 -0.0036407 -0.0024103 -0.039067 -0.020421
-0.23301 -0.044663 -0.039789 0.015666
0.001063 -0.0022298 0.0011384 -0.0031882 0.0097913 -0.003173 0.010965 0.027476
-0.038141 0.015214 -0.2522 -0.0061
680000000 -0.23991 0.18553 -0.026844 -0.013515 0.0053778 0.005804 0.0010113 -0.0077019
-0.0019846 -0.01202 0.0055923 -0.006993
-0.026681 -0.013682 -0.39008 0.15079 -0.03233 -0.0015855 -0.0011977 -0.00083927
-0.0013257 -0.009842 -0.0012851 -0.0019212
0.0053745 0.0055507 -0.03242 -0.0015084 -0.1031 0.28176 -0.00092608 -0.00073164
-0.0011881 0.00039547 -0.0028345 -0.0091818
0.0014557 -0.0071661 -0.0017334 -0.00056124 -0.00071819 -0.00067502 -0.22031 0.19788
-0.024 -0.0073022 -0.0076202 -0.0097975
-0.0021703 -0.011708 -0.0011779 -0.009543 -0.001348 0.00032691 -0.023744 -0.0074405
-0.27954 0.056508 -0.0094795 -0.0090146
0.0055847 -0.0061648 -0.00077047 -0.0022759 -0.0027739 -0.0091166 -0.0083439 -0.011078
-0.0097181 -0.0083615 -0.26125 0.098395
740000000 -0.19336 0.17833 -0.039264 0.027547 0.014072 -0.0045166 -0.00066306 -0.0045256
-0.0051683 -0.0042809 -0.0067174 0.0029701
-0.039075 0.02777 -0.33497 0.16898 -0.03658 0.035371 -5.65e-05 -0.0057915
-0.012593 0.0064944 -0.0021498 -0.0061603
0.014015 -0.0045653 -0.036607 0.035664 -0.069609 0.27844 -0.0023369 0.0032263
-0.0027685 -0.0062454 -0.0015101 0.00114
-0.00036631 -0.0046134 -0.00011386 -0.0057876 -0.0023298 0.0032437 -0.20343 0.20525
-0.042487 -0.007841 0.022135 0.015421
-0.0057282 -0.0032455 -0.013195 0.0065955 -0.0029749 -0.0063769 -0.04343 -0.0079404
-0.18147 0.085849 -0.039921 0.0018466
-0.0060288 0.0027257 -0.0012161 -0.0063486 -0.0017475 0.0010337 0.023193 0.015962
-0.040027 0.0014004 -0.24971 0.10296
800000000 -0.16108 0.22105 -0.021935 0.016125 0.0060573 -0.010809 -0.0044565 -0.0019988
-0.0049988 0.0019951 0.0042547 0.00040961
-0.021842 0.01601 -0.34013 0.23955 -0.0083633 0.034128 -0.0025886 0.001929
-0.0017238 0.00282 0.0012265 0.0051914
0.0060627 -0.010868 -0.0081351 0.03416 -0.031124 0.30182 0.00080207 0.0015118
-0.00026656 0.0036461 -0.0016306 0.00089732
-0.0045654 -0.0018689 -0.0025565 0.0020895 0.00086966 0.0015478 -0.17393 0.23247
-0.028738 0.0133 0.014347 -0.010208
-0.0049445 0.0021706 -0.0011432 0.0026675 -0.00040396 0.0035597 -0.028946 0.01369
-0.2217 0.1137 -0.017377 0.020632
0.0042017 -0.00019389 0.00061758 0.0048863 -0.0017022 0.00090063 0.014237 -0.010242
-0.016935 0.02019 -0.23877 0.15257
860000000 -0.12631 0.24164 -0.017387 0.030409 -0.0026923 -0.010581 -0.0017098 0.00065027
0.0040657 0.0053118 -0.0041226 -0.002629
-0.017396 0.030428 -0.29236 0.28209 0.0077876 0.034912 0.00021087 0.0022589
0.0034373 0.0017075 0.0026488 0.0012776
-0.0026746 -0.010527 0.0079564 0.034985 0.016072 0.31068 -0.00061297 0.00024444
0.0021758 -0.0011512 0.0016038 0.0042487
-0.0016896 0.00086864 6.9875e-05 0.0022544 -0.00073033 0.00022124 -0.13737 0.24309
-0.017584 0.018954 -0.0057282 -0.0085124
0.0039924 0.0048627 0.003256 0.0018248 0.0021824 -0.001061 -0.017792 0.018759
-0.16411 0.16412 -0.024051 0.017832
-0.0044884 -0.0020142 0.0030384 0.0010463 0.0015262 0.0042533 -0.0058842 -0.008743
-0.024024 0.018151 -0.19116 0.19819
920000000 -0.10295 0.26411 0.0049197 0.038078 -0.0096037 -0.005494 -0.0019232 0.0015442
0.001843 0.0026164 0.003043 -0.0013969
0.0048466 0.037868 -0.26548 0.30341 0.028535 0.022789 0.0013428 0.0014913
0.0082652 -2.6461e-06 0.0044265 -0.0026833
-0.0095503 -0.0054716 0.028717 0.022753 0.061307 0.31234 0.0019872 5.6598e-05
0.0014859 -0.00014602 0.00104 -0.0015953
-0.0019438 0.0016099 0.0016035 0.0014985 0.0020394 6.8078e-05 -0.11307 0.25992
-0.010479 0.031331 0.0037964 -0.0068438
0.0019842 0.0023636 0.0082512 0.00022149 0.0014296 -0.00012712 -0.010388 0.031454
-0.15061 0.16863 -0.00067946 0.025707
0.0030144 -0.0018031 0.0047327 -0.0027858 0.0010859 -0.0015427 0.0038958 -0.0071967
-0.00078258 0.025959 -0.19558 0.21049
980000000 -0.056196 0.28392 0.017156 0.029904 -0.0098572 0.003916 0.0018144 0.0033406
0.0040421 -0.0019557 -0.0029546 -0.0021473
0.017104 0.029901 -0.21266 0.33779 0.034036 0.0051969 0.0021857 -0.00019177
0.0019174 -0.0063709 -1.4159e-05 -0.0024464
-0.0098336 0.0039917 0.03408 0.0051039 0.10737 0.3071 0.00082944 -0.0012137
0.00051774 -0.0020758 0.0014305 -0.00017033
0.0018193 0.0032772 0.0021503 -0.00037641 0.00085476 -0.0012108 -0.074424 0.27051
0.0080984 0.030417 -0.0089709 -0.0071299
0.0040246 -0.0018681 0.0017642 -0.0064643 0.00045798 -0.0020925 0.0081844 0.03052
-0.1192 0.19898 0.0066439 0.020007
-0.0026769 -0.0020273 1.9139e-05 -0.0025744 0.0014945 -0.00020638 -0.0090712 -0.0069274
0.0067871 0.019614 -0.15201 0.2539
1040000000 -0.015329 0.29329 0.033195 0.018727 -0.0020231 0.0071855 0.0024914 0.00071055
0.00043625 -0.0036273 -0.00026255 -0.0017245
0.03307 0.018731 -0.1782 0.35158 0.030476 -0.01515 0.001672 -0.0019333
-0.0021969 -0.0031127 -0.0012734 -0.0032118
-0.0019822 0.0072153 0.030466 -0.015278 0.15372 0.29444 -0.000488 -0.0017418
-0.0016853 -0.0011796 -0.00067393 -0.001063
0.002478 0.00082549 0.0017145 -0.0017992 -0.00053027 -0.0017401 -0.047103 0.28025
0.02058 0.018926 -0.0028124 0.00071118
0.00034955 -0.0037566 -0.0021661 -0.0033159 -0.0015989 -0.0011615 0.020593 0.018842
-0.08541 0.20388 0.014103 0.017629
-0.0003711 -0.0018864 -0.0014247 -0.0031103 -0.00067482 -0.0011556 -0.0027129 0.00058992
0.01455 0.017913 -0.12928 0.27437
1100000000 0.029035 0.30227 0.036728 -0.0038166 0.002639 0.0043409 0.00239 -0.00089217
-0.0022343 -0.0028972 -0.0040724 -3.2573e-05
0.036661 -0.003821 -0.13518 0.37015 0.015981 -0.02886 0.00012993 -0.0018238
-0.0041729 -0.00089996 -0.0036893 -0.00045223
0.0026607 0.0043446 0.01586 -0.02891 0.20059 0.27492 -0.002121 0.00012239
-0.0019755 0.00054674 -0.0011195 -0.00029547
0.0022876 -0.00091567 3.2782e-05 -0.0018555 -0.0020735 0.00016378 -0.0067938 0.2856
0.026333 0.0049671 -0.0026977 -1.3944e-05
-0.0023167 -0.0029002 -0.0040962 -0.0010028 -0.0019929 0.00054752 0.026392 0.004797
-0.064786 0.21625 0.020008 0.0079244
-0.0040516 -2.7828e-05 -0.0036424 -0.0004474 -0.0011578 -0.00025427 -0.0027191 -5.1218e-05
0.019887 0.0081359 -0.083779 0.30221
1160000000 0.079973 0.29869 0.024628 -0.021407 0.002694 -0.00033697 -1.9609e-05 -0.0022608
-0.0039793 -0.00086284 -0.0011112 0.0041263
0.024567 -0.02125 -0.091712 0.37553 -0.0038564 -0.030415 -0.0017156 -0.0017287
-0.0029151 0.0027086 -0.0016866 0.0020432
0.0026694 -0.00032984 -0.0039943 -0.030428 0.24446 0.24425 -0.00095923 0.001901
-0.0006715 0.0021716 -0.00092994 0.00052789
-7.0605e-05 -0.0022639 -0.0016963 -0.00181 -0.00095214 0.0018963 0.032596 0.28289
0.02241 -0.011667 -0.003323 0.004798
-0.0040183 -0.00093339 -0.0029248 0.0027719 -0.00068446 0.0022077 0.022467 -0.011721
-0.02996 0.22329 0.019249 -0.0013045
-0.0012896 0.0044333 -0.0016697 0.001983 -0.00089613 0.00048738 -0.0033818 0.0049625
0.019113 -0.0014596 -0.036293 0.30582
1220000000 0.12396 0.28927 0.010691 -0.030976 -0.0017825 -0.00080009 0.0002308 -0.0008147
-0.0028847 0.0021987 0.0010816 0.002156
0.010733 -0.030922 -0.046964 0.38889 -0.017884 -0.022261 -0.0027452 0.00054785
-2.2156e-05 0.0034792 -0.00094854 0.0020676
-0.0018039 -0.0008105 -0.018028 -0.022199 0.28355 0.20465 0.00080773 0.0019372
0.00078748 0.0013805 0.00031199 0.0005378
0.00023883 -0.00080496 -0.0027345 0.0005596 0.0007706 0.0019767 0.072835 0.27431
0.011035 -0.019195 0.001715 0.0017314
-0.0028357 0.0023349 2.7011e-05 0.0034641 0.00075757 0.0013775 0.010985 -0.019207
-0.0069096 0.23148 0.013941 -0.014131
0.0013137 0.002173 -0.00089874 0.0020899 0.00032635 0.00059029 0.0017306 0.0016175
0.014108 -0.014113 -0.004481 0.31985
1280000000 0.17445 0.2688 -0.0087161 -0.029425 -0.0020441 0.0028753 -0.00067517 -0.0021979
-0.00081509 0.0033086 0.0026451 0.001274
-0.0086943 -0.029435 -0.00017081 0.38083 -0.025236 -0.0087581 -0.0010622 0.0015556
0.0020356 0.0019311 0.00073651 0.0021346
-0.0020576 0.002843 -0.025317 -0.0086135 0.31354 0.16059 0.0017629 -2.3691e-05
0.0014063 0.00031299 0.00033805 0.0002894
-0.00074397 -0.0021887 -0.0010465 0.0015457 0.0018369 -2.0165e-05 0.11008 0.25791
0.00011346 -0.021381 -0.0003198 0.00044764
-0.00083075 0.0032873 0.0020589 0.0018907 0.0014238 0.00026606 6.4338e-05 -0.021401
0.029642 0.23447 0.002669 -0.016649
0.0027351 0.0012558 0.00087273 0.0021049 0.00032678 0.0002949 -0.00036359 0.00045719
0.0026472 -0.016577 0.042326 0.32106
1340000000 0.21217 0.23624 -0.018834 -0.019044 0.00087089 0.0051685 -0.0018145 -0.001014
0.0014558 0.0028454 0.0020099 -0.0014981
-0.018833 -0.019028 0.040116 0.37245 -0.022655 0.0049434 3.9603e-05 0.0020579
0.0022799 0.00062285 0.0013679 0.0006883
0.00087202 0.0051009 -0.022666 0.0050784 0.33473 0.11348 0.0012182 -0.0011513
0.00070092 -0.00073526 2.5253e-05 0.00015189
-0.0017373 -0.0010155 6.5557e-05 0.00206 0.0011776 -0.0011557 0.14299 0.23675
-0.01051 -0.017964 0.00038383 0.00099667
0.0014769 0.0028304 0.0022586 0.00060333 0.00071355 -0.0007342 -0.010543 -0.017898
0.059537 0.22957 -0.0051737 -0.014966
0.0018459 -0.0014175 0.0013788 0.00078493 -3.1855e-05 0.00022055 0.00050697 0.00095301
-0.0052448 -0.015055 0.080469 0.3151
1400000000 0.24645 0.19863 -0.02451 -0.0066766 0.0057659 0.0036343 -0.0024074 0.00059047
0.0025811 0.0011319 0.0002505 -0.0016708
-0.024436 -0.006675 0.077887 0.35934 -0.015441 0.013525 0.0014775 0.0012606
0.0013385 -0.0010138 0.0012351 9.8064e-05
0.0057719 0.0036809 -0.015451 0.013657 0.34716 0.061066 -2.7408e-05 -0.0019119
5.0467e-06 -0.00039527 0.00037585 0.00034091
-0.0024129 0.00058701 0.0015088 0.0013207 5.0697e-06 -0.0018927 0.17244 0.2076
-0.017038 -0.0097462 -0.00080373 0.00037901
0.0026384 0.0010695 0.0013376 -0.0010516 5.7474e-05 -0.00046557 -0.017067 -0.0097281
0.092612 0.22517 -0.011677 -0.0092778
0.00027526 -0.0016587 0.0011765 3.8526e-05 0.00036864 0.00035483 -0.00089025 0.00031022
-0.011684 -0.0092718 0.12418 0.30344
1460000000 0.27007 0.15477 -0.020711 0.0060407 0.0063802 -0.0018534 -0.0016473 0.0019223
0.0024602 -0.00047657 -0.00040473 -0.0011195
-0.020696 0.0059937 0.11217 0.33688 -0.0056977 0.016634 0.0017177 5.5642e-06
0.00076565 -0.0015304 0.0011808 -0.00064501
0.0062663 -0.0018634 -0.005615 0.016702 0.35384 0.008284 -0.0014739 -0.0013767
8.3667e-05 -0.00018703 0.00081192 -0.0002585
-0.0016364 0.0019254 0.0016994 -1.0288e-05 -0.0014761 -0.0013845 0.19881 0.17792
-0.017846 -0.001741 -0.00064807 0.0025057
0.0024264 -0.00051141 0.00071907 -0.0015335 7.9268e-05 -0.00020633 -0.017882 -0.0017123
0.12191 0.21108 -0.013561 -0.0025314
-0.00036205 -0.0011891 0.0011328 -0.00060556 0.00074769 -0.00027425 -0.00059911 0.0024808
-0.013568 -0.0025191 0.15721 0.2824
1520000000 0.28278 0.11285 -0.014289 0.011506 0.0038982 -0.0046435 0.00020301 0.00275
0.0022992 -0.0021258 -0.0012487 -5.2294e-05
-0.014275 0.01146 0.14527 0.32211 0.0024632 0.01381 0.0016475 -0.0008804
-0.00013735 -0.001091 0.00028736 -0.0010996
0.0038982 -0.0046367 0.0025268 0.013799 0.3478 -0.046775 -0.0012607 -0.00025279
0.00066817 -0.0010065 3.7801e-05 -0.00026083
0.00017429 0.0027572 0.0016248 -0.00091119 -0.00124 -0.00026241 0.22157 0.13945
-0.015984 0.0051984 0.0020179 0.0022174
0.0022461 -0.0021325 -0.0001305 -0.0010929 0.00068165 -0.0010277 -0.015967 0.00525
0.15027 0.19746 -0.012927 0.0029123
-0.0013045 -6.0891e-05 0.00029859 -0.0010945 7.9095e-05 -0.00025837 0.0019881 0.0021953
-0.012994 0.0029068 0.18953 0.26132
1580000000 0.29246 0.066418 -0.0069381 0.014285 -0.0009055 -0.0055918 0.0016715 0.0019274
-0.00026358 -0.0024109 -0.00017244 0.00041945
-0.0069535 0.014252 0.17209 0.29744 0.0062241 0.0082564 0.00038567 -0.0016319
-0.00066464 -0.00087067 -0.00023944 -0.00085069
-0.00083401 -0.0055219 0.0062778 0.0082292 0.32914 -0.10384 -0.0015862 0.00078812
-0.00038839 -0.0012496 0.00030684 -0.00064826
0.0016956 0.0019052 0.0003783 -0.0016352 -0.0015904 0.00083795 0.23479 0.10007
-0.010894 0.010139 0.0026332 0.00055836
-0.00026871 -0.0024588 -0.00066684 -0.00088694 -0.00047492 -0.0012345 -0.010928 0.010161
0.17486 0.17953 -0.0096794 0.0088594
-0.00019564 0.00043056 -0.0002709 -0.00086329 0.00022934 -0.00065531 0.0026135 0.00052756
-0.009629 0.0088389 0.22112 0.23484
1640000000 0.29435 0.025327 1.4738e-06 0.012257 -0.0031557 -0.0031034 0.0027738 0.00093972
-0.0010243 -0.0017736 -0.00035367 0.00061799
-2.1819e-05 0.012222 0.20112 0.27308 0.0066627 0.0030185 -0.00070271 -0.0017056
-0.00089784 -0.00026267 -0.00060657 -0.00069588
-0.0031065 -0.0031228 0.00667 0.0030095 0.30179 -0.1533 -0.00056816 0.0015367
-0.0011871 -0.00097214 -0.00023929 -0.00036656
0.002871 0.00092416 -0.00070253 -0.0017168 -0.00059299 0.0014793 0.24675 0.051616
-0.0055103 0.010556 0.0027858 -0.00096592
-0.0010235 -0.0016797 -0.00090081 -0.00023268 -0.0011749 -0.0009507 -0.0055186 0.010634
0.19837 0.15517 -0.0042361 0.010784
-0.00034644 0.00059103 -0.00061649 -0.0006614 -0.00016883 -0.00038272 0.0028473 -0.001
-0.0041961 0.010798 0.2459 0.20392
1700000000 0.28723 -0.019526 0.0031579 0.0087017 -0.0039781 -0.00017282 0.0031597 -0.00141
-0.0022393 -0.00055176 0.000584 0.00035381
0.0031379 0.0087065 0.219 0.24236 0.0042549 -0.00013957 -0.0015248 -0.00054749
-0.00067355 2.4137e-05 -0.00089857 -0.00038414
-0.0039953 -0.00017882 0.0042595 -0.00015786 0.25922 -0.19354 0.00058933 0.001559
-0.0021159 0.00011104 -0.00043374 -0.00086587
0.003128 -0.0014358 -0.0015306 -0.00054383 0.00058754 0.0016151 0.24329 0.0023292
-0.0021171 0.0097716 0.0017101 -0.0025783
-0.0022526 -0.00053765 -0.00064885 -9.9528e-06 -0.0021194 7.6963e-05 -0.0021277 0.009763
0.21586 0.1344 0.00082145 0.010684
0.00050662 0.00045916 -0.00087297 -0.00040774 -0.00049499 -0.00089347 0.0016192 -0.002485
0.00077183 0.010657 0.26229 0.17007
1760000000 0.27553 -0.067576 0.0048169 0.0050058 -0.0026941 0.0010334 0.0011608 -0.0034615
-0.0014943 0.00094287 0.00031659 -0.00053289
0.0047881 0.0049902 0.24516 0.2035 0.0015871 -0.0020397 -0.0011948 0.00021341
-0.00097967 0.00075653 -0.00067199 0.00041185
-0.0026668 0.00095576 0.00157 -0.0020453 0.21142 -0.22748 0.0011174 0.00094361
-0.001199 0.0015688 -0.0014496 -0.00058584
0.001105 -0.0035218 -0.0011945 0.00021649 0.0011209 0.00091043 0.23454 -0.048377
0.00065745 0.0077926 -0.00023576 -0.0028312
-0.0014558 0.00094536 -0.00099808 0.00077545 -0.0011759 0.0016372 0.00060914 0.0077696
0.23087 0.099476 0.0049587 0.0075461
0.00031592 -0.00056878 -0.00067691 0.00039818 -0.0014483 -0.00059368 -0.00029307 -0.0028381
0.0050619 0.0076045 0.275 0.13251
1820000000 0.25153 -0.10458 0.0042835 0.0015056 -0.0004318 0.0027619 -0.0011708 -0.0031661
-0.00097688 0.0012448 -0.00013343 3.6867e-06
0.0042162 0.0015041 0.25581 0.17419 -0.00093697 -0.00062951 -0.0012811 0.00097164
-0.0001944 0.0011138 -0.00054901 0.00057241
-0.00043126 0.0028312 -0.00097998 -0.00059055 0.16071 -0.24351 0.0015508 0.00038114
-1.4299e-05 0.0024724 -0.00158 0.00044159
-0.0012122 -0.0030288 -0.0012729 0.00096893 0.0015713 0.00033338 0.20531 -0.095177
0.0014529 0.0059899 -0.0018706 -0.0019642
-0.0010407 0.0012123 -0.00016493 0.0011127 3.0747e-05 0.002537 0.0014893 0.0060365
0.24775 0.070203 0.005971 0.0035102
-3.9972e-05 -5.4618e-05 -0.00055933 0.00059468 -0.0015154 0.00035543 -0.0018547 -0.001891
0.0059432 0.003521 0.27711 0.095767
1880000000 0.21724 -0.1449 0.0015859 -0.00043456 -0.00059118 0.0024779 -0.00288 -0.0020768
7.2229e-05 0.001832 4.5579e-05 -0.0005998
0.0016154 -0.00040109 0.26115 0.12818 -0.0029883 0.0014347 -0.00018965 0.0017073
0.00040132 0.0012985 7.767e-05 0.00087602
-0.00069274 0.0024342 -0.0029876 0.0014298 0.1085 -0.25362 0.0016964 -0.00077552
0.0016628 0.0018905 -0.00080382 0.0015016
-0.0029588 -0.0020407 -0.00020894 0.0017252 0.0015437 -0.00072664 0.16538 -0.13563
0.0014236 0.003848 -0.0026429 2.8266e-05
2.8973e-05 0.0017561 0.0004146 0.0013332 0.0015434 0.0019373 0.0014991 0.0038369
0.25116 0.038485 0.0060497 0.00085216
0.00010057 -0.00063751 0.00014365 0.00085446 -0.00094129 0.0014434 -0.0026511 4.6148e-05
0.0059835 0.00071554 0.27753 0.062097
1940000000 0.17853 -0.17044 -0.00094013 -0.0015077 0.0013484 0.0023312 -0.0036467 0.00044164
0.0014982 0.00094128 -0.00044782 -0.00036255
-0.00095882 -0.0015765 0.2627 0.096427 -0.0017888 0.0040725 0.0011116 0.00129
0.0017607 0.00071995 0.0010421 0.00039464
0.0013589 0.0024608 -0.0017728 0.0041204 0.062865 -0.24662 0.00073455 -0.0020592
0.0025421 0.00028356 0.00075241 0.0015173
-0.0035769 0.00056041 0.0011033 0.0013189 0.00074607 -0.002238 0.11381 -0.16636
0.00029487 0.0031385 -0.0019278 0.001583
0.0014063 0.0010429 0.0017278 0.00069068 0.0025582 0.00024874 0.00023388 0.0031421
0.25369 0.00031041 0.0042646 -0.0027686
-0.00051043 -0.00046865 0.00097546 0.00040414 0.00073608 0.0015505 -0.0019875 0.0016519
0.0043592 -0.0026942 0.26625 0.025355
2000000000 0.13323 -0.18596 -0.0043916 0.00086529 0.0027623 0.0017703 -0.0021885 0.0037661
0.0011959 0.00021911 -0.00057458 0.00036952
-0.0045507 0.00095726 0.24945 0.060649 -0.0012391 0.005916 0.0017713 0.00036607
0.0015473 -0.0008721 0.00051773 0.00012473
0.0027383 0.0017491 -0.0011438 0.0059555 0.019346 -0.23328 -0.0010778 -0.0014188
0.0020198 -0.0011884 0.0017264 0.0015146
-0.0021364 0.0037844 0.0017657 0.0003978 -0.0012409 -0.0015364 0.060519 -0.17753
-0.0012898 0.0030334 -0.00050333 0.002528
0.0012199 0.00020823 0.0016101 -0.00087246 0.002123 -0.001277 -0.0011182 0.0031477
0.24829 -0.032589 0.00076095 -0.0037794
