!Keysight Technologies,M9804A,MY58100912,A.14.10.03
!Date: Thursday, April 27, 2023 10:28:33
!Correction: S11(C  6-Port  ) 
!S12(C  6-Port  ) 
!S13(C  6-Port  ) 
!S14(C  6-Port  ) 
!S15(C  6-Port  ) 
!S16(C  6-Port  ) 
!S21(C  6-Port  ) 
!S22(C  6-Port  ) 
!S23(C  6-Port  ) 
!S24(C  6-Port  ) 
!S25(C  6-Port  ) 
!S26(C  6-Port  ) 
!S31(C  6-Port  ) 
!S32(C  6-Port  ) 
!S33(C  6-Port  ) 
!S34(C  6-Port  ) 
!S35(C  6-Port  ) 
!S36(C  6-Port  ) 
!S41(C  6-Port  ) 
!S42(C  6-Port  ) 
!S43(C  6-Port  ) 
!S44(C  6-Port  ) 
!S45(C  6-Port  ) 
!S46(C  6-Port  ) 
!S51(C  6-Port  ) 
!S52(C  6-Port  ) 
!S53(C  6-Port  ) 
!S54(C  6-Port  ) 
!S55(C  6-Port  ) 
!S56(C  6-Port  ) 
!S61(C  6-Port  ) 
!S62(C  6-Port  ) 
!S63(C  6-Port  ) 
!S64(C  6-Port  ) 
!S65(C  6-Port  ) 
!S66(C  6-Port  ) 
!S6P File: Measurement: :
# Hz S  RI   R 50
500000000 -0.33441 -0.054342 -0.010294 -0.0014992 -0.0086402 0.013062 -0.0039461 0.011906
0.012609 0.0055557 -0.0033572 0.0073699
-0.01017 -0.0017573 -0.41663 -0.064152 0.007976 -0.010753 0.00095092 0.011662
0.0083242 0.0026188 0.0011934 0.01343
-0.0084405 0.012942 0.0081671 -0.010583 -0.26701 0.19888 0.0066574 0.0036956
-0.0012708 0.0080177 0.00062908 0.012498
-0.0041111 0.012113 0.00096574 0.01224 0.0066603 0.0037736 -0.33143 0.043117
-0.018349 -0.0042936 0.016919 0.025949
0.01248 0.0052577 0.007996 0.0023982 -0.0011099 0.0082996 -0.018828 -0.0041983
-0.24745 -0.19621 -0.026965 0.0045189
-0.0039737 0.0079319 0.00093106 0.013753 -3.1532e-05 0.012527 0.016791 0.025575
-0.026285 0.0049258 -0.27225 -0.12052
560000000 -0.31855 0.11175 -0.0236 -0.064103 -0.000372 0.01236 0.0050123 0.010602
0.01161 0.0054744 0.0098984 0.0084545
-0.023261 -0.064699 -0.37557 0.098834 -0.041178 -0.037124 0.013436 0.0033323
-0.012846 -0.0039372 0.0041504 -0.0012566
8.8797e-05 0.012316 -0.042031 -0.037102 -0.18611 0.25011 -0.00032407 -0.0043397
0.018624 0.0051662 0.0074814 -0.0045343
0.0050679 0.010811 0.013328 0.0029005 -0.00029321 -0.0042945 -0.30647 0.13509
0.0052707 -0.023752 0.0055333 -0.021801
0.011008 0.0049265 -0.011691 -0.0035958 0.018687 0.0050791 0.0054986 -0.024147
-0.30975 -0.014009 0.0086501 -0.047692
0.010308 0.008031 0.0030076 -0.00032976 0.0078088 -0.0053406 0.0049137 -0.021554
0.0083228 -0.047487 -0.33325 0.026209
620000000 -0.27784 0.093241 -0.02309 0.0085464 0.0037442 0.0092064 0.0084718 -0.0044817
0.011612 -0.0013606 0.00066975 -0.0027243
-0.023125 0.0085357 -0.4033 0.048469 -0.018461 0.00077951 -0.0013324 -0.0019277
0.012395 -0.0065866 0.0012698 -0.0033847
0.003558 0.0092114 -0.018468 0.00071255 -0.15556 0.25998 -0.0011909 -0.0049342
-0.0030115 -0.0027387 0.0093623 -0.0029384
0.0079948 -0.0045521 -0.0015882 -0.0019839 -0.0013229 -0.0047967 -0.26611 0.14537
-0.037599 -0.019447 0.012555 0.026941
0.011938 -0.0014399 0.012209 -0.006587 -0.0027444 -0.0031675 -0.037963 -0.019509
-0.23192 -0.048839 -0.039301 0.011447
-0.00010178 -0.0026662 0.00098472 -0.0031657 0.008724 -0.0031932 0.012224 0.027096
-0.038622 0.012775 -0.25162 -0.0064326
680000000 -0.23915 0.18344 -0.026518 -0.014626 0.0052565 0.005349 0.0013309 -0.0079052
-0.0018747 -0.011867 0.0056049 -0.0071133
-0.026317 -0.014429 -0.39003 0.14936 -0.032612 -0.0020338 -0.0015868 -0.00057128
-0.0018407 -0.0094162 -0.0011685 -0.001749
0.0052713 0.0053332 -0.032614 -0.0018777 -0.10426 0.28033 -0.00058345 -0.00041165
-0.001716 0.00034147 -0.0028782 -0.0092261
0.0013724 -0.0077252 -0.0016132 -0.00065797 -0.0005436 -0.00031564 -0.22051 0.19666
-0.023659 -0.0079671 -0.0090671 -0.011552
-0.0020986 -0.011194 -0.0019724 -0.0092913 -0.0019285 0.00042516 -0.023505 -0.0079025
-0.27905 0.054851 -0.0067936 -0.0071163
0.0055573 -0.0072652 -0.0013656 -0.0017739 -0.0030404 -0.0091525 -0.0092015 -0.011544
-0.0071481 -0.0067068 -0.25811 0.095538
740000000 -0.19356 0.17714 -0.039937 0.026457 0.013732 -0.0050347 -0.00034027 -0.0042604
-0.0050557 -0.0028624 -0.0057833 0.0026234
-0.039819 0.026366 -0.33607 0.16812 -0.037153 0.035046 -0.00036566 -0.0060081
-0.011612 0.0075625 -0.0012122 -0.0058213
0.013637 -0.0050382 -0.037091 0.035096 -0.070581 0.27779 -0.0017472 0.0032068
-0.0028113 -0.0053885 -0.0012824 0.0015445
-0.00034918 -0.003865 -0.00044467 -0.0061974 -0.0016756 0.0033369 -0.20397 0.20365
-0.043001 -0.0075031 0.022779 0.014687
-0.0048359 -0.0030412 -0.011761 0.0073147 -0.0027929 -0.0053437 -0.043056 -0.0072265
-0.18011 0.079319 -0.041561 0.00087023
-0.0062156 0.0030667 -0.001494 -0.0055664 -0.0011389 0.0015271 0.02278 0.014782
-0.04174 0.00066008 -0.24785 0.10176
800000000 -0.16199 0.22053 -0.022414 0.016593 0.0058938 -0.01062 -0.0043845 -0.002003
-0.0047357 0.0024368 0.0048278 6.9802e-05
-0.022588 0.0166 -0.3417 0.23904 -0.0085666 0.034497 -0.0021908 0.0021814
-0.0011674 0.0031337 0.0014243 0.0051321
0.0059314 -0.01069 -0.0084324 0.034447 -0.031799 0.30213 0.0010139 0.0013531
-4.5746e-05 0.0033991 -0.0016642 0.00075602
-0.0042869 -0.002131 -0.0021091 0.0021459 0.0010198 0.0013881 -0.1746 0.23151
-0.029174 0.013345 0.014212 -0.010183
-0.0045575 0.0024464 -0.0010264 0.0032098 -4.699e-06 0.0035758 -0.028989 0.0135
-0.22099 0.10944 -0.017364 0.018887
0.0048198 -4.4748e-06 0.0013552 0.0053325 -0.0016568 0.00079359 0.014165 -0.010115
-0.017829 0.018911 -0.24012 0.15009
860000000 -0.12787 0.24066 -0.018173 0.030461 -0.0029424 -0.010493 -0.0018586 0.00061404
0.0040521 0.0051123 -0.0035595 -0.0029613
-0.018222 0.03044 -0.29374 0.28187 0.0074831 0.034743 0.00012978 0.0019667
0.0035272 0.00064697 0.0034063 0.00027515
-0.0029294 -0.010565 0.0075972 0.034816 0.015684 0.31082 -0.00073781 -0.00014262
0.0021476 -0.0015554 0.0018634 0.0044007
-0.0019089 0.00061987 0.00012339 0.0017936 -0.00087998 -0.00010992 -0.13811 0.24263
-0.01864 0.01798 -0.0064191 -0.0090457
0.0039748 0.0049051 0.0035519 0.00077247 0.0021723 -0.0015403 -0.018776 0.017956
-0.16675 0.16049 -0.024069 0.016914
-0.0034346 -0.0031476 0.0034711 0.00036422 0.0017688 0.0042607 -0.0061347 -0.00896
-0.023648 0.016895 -0.19009 0.19429
920000000 -0.10431 0.26412 0.0045843 0.038501 -0.009396 -0.0051228 -0.0019346 0.0018481
0.0014285 0.002138 0.0027478 -0.0016515
0.0045151 0.038505 -0.26643 0.30301 0.028295 0.022964 0.0014791 0.0013609
0.0076609 -0.00067856 0.004084 -0.002808
-0.0093845 -0.0050727 0.028443 0.02293 0.06129 0.31234 0.0019273 0.00013775
0.0010473 -0.00030552 0.00092088 -0.0012246
-0.0018459 0.0018271 0.0016572 0.0012836 0.0019647 0.00011313 -0.11394 0.25953
-0.011277 0.03126 0.0034842 -0.0068258
0.0013629 0.0019759 0.007501 -0.00052493 0.0011279 -0.00029114 -0.011184 0.031297
-0.15483 0.16722 -0.0014674 0.026868
0.0028511 -0.0015083 0.0042672 -0.0026634 0.00093892 -0.0011975 0.0033554 -0.006751
-0.001648 0.02701 -0.19677 0.20986
980000000 -0.057758 0.28461 0.017004 0.030473 -0.0096082 0.004243 0.0017937 0.0036563
0.0040717 -0.0017933 -0.0029279 -0.0024226
0.017015 0.030385 -0.21328 0.33817 0.033762 0.0055177 0.0021179 -5.5109e-05
0.0018362 -0.0060062 -0.00010432 -0.0025063
-0.0096015 0.0042749 0.033809 0.0054087 0.10735 0.30689 0.0007444 -0.0010812
0.00053221 -0.0019958 0.0016684 -0.00024248
0.0019308 0.0036409 0.0021004 -2.73e-05 0.00073078 -0.0011145 -0.075431 0.27116
0.0075627 0.030828 -0.0089369 -0.0070415
0.0041652 -0.0016946 0.0019091 -0.0061027 0.00056971 -0.0019789 0.0075798 0.03077
-0.12049 0.19677 0.0062924 0.019663
-0.0027974 -0.0024647 -0.00018506 -0.0025779 0.0015808 -0.00021292 -0.0089128 -0.0070342
0.006381 0.019915 -0.15441 0.25197
1040000000 -0.016248 0.29381 0.033205 0.019248 -0.0016615 0.0071531 0.0028102 0.0007269
0.00044825 -0.0034049 -9.4901e-06 -0.0016311
0.033159 0.019261 -0.17832 0.3518 0.030448 -0.014807 0.0017149 -0.0016958
-0.0020734 -0.0026205 -0.00091169 -0.0028691
-0.0016008 0.0071834 0.030432 -0.014907 0.15354 0.29393 -0.00042035 -0.0016733
-0.0015207 -0.00096289 -0.00037921 -0.0011088
0.0027872 0.00072411 0.0016746 -0.0017318 -0.00038988 -0.0016791 -0.047561 0.28082
0.020189 0.019224 -0.0024579 0.0010735
0.00037624 -0.0035314 -0.0022137 -0.0026136 -0.0015935 -0.00092995 0.020169 0.019268
-0.087192 0.20296 0.014044 0.01817
-0.00021007 -0.0016829 -0.0010409 -0.0028204 -0.00043108 -0.0011117 -0.0025329 0.0011951
0.014053 0.018311 -0.13087 0.27357
1100000000 0.028612 0.30278 0.036776 -0.0035337 0.0028158 0.004337 0.0023873 -0.001199
-0.0022227 -0.0032527 -0.0039521 -9.636e-05
0.036714 -0.0035618 -0.13519 0.37014 0.016076 -0.028364 6.0361e-05 -0.0019284
-0.003712 -0.00090604 -0.003554 -0.00053167
0.0028276 0.0043237 0.015992 -0.028427 0.19993 0.27456 -0.0019634 0.00010285
-0.001818 0.00043079 -0.0011012 -0.00057174
0.0023927 -0.0011883 -7.8325e-06 -0.0019387 -0.0019669 9.527e-05 -0.0071857 0.2861
0.025721 0.0054385 -0.0023799 0.00013423
-0.0021998 -0.0031906 -0.0036753 -0.00091975 -0.0017919 0.00045039 0.025767 0.0054444
-0.066736 0.21577 0.019409 0.0083295
-0.0041036 -0.00014177 -0.0035618 -0.00059824 -0.001082 -0.00055192 -0.0023803 9.3884e-05
0.019437 0.0083714 -0.085283 0.30205
1160000000 0.079753 0.29905 0.024856 -0.02085 0.0029292 -0.00043923 -0.00021492 -0.002482
-0.0039261 -0.00088068 -0.0010973 0.0040731
0.024792 -0.020841 -0.091485 0.37514 -0.0034214 -0.030046 -0.0017196 -0.0017538
-0.0027897 0.0026696 -0.0015762 0.0019237
0.0029224 -0.00039794 -0.0035848 -0.030032 0.24352 0.24422 -0.00079009 0.0018473
-0.00061703 0.0020251 -0.0010886 0.00026749
-0.00020585 -0.0024121 -0.0017046 -0.0017324 -0.00077419 0.0018602 0.03267 0.28333
0.021943 -0.010889 -0.0031651 0.0052502
-0.0039685 -0.00085191 -0.0028193 0.0026845 -0.00062815 0.0020785 0.021945 -0.010838
-0.032231 0.22396 0.018536 -0.00085571
-0.0011339 0.0042193 -0.0015001 0.0019473 -0.0010183 0.00026095 -0.0031375 0.00518
0.01849 -0.00096125 -0.038774 0.30487
1220000000 0.12399 0.28938 0.011258 -0.030659 -0.0015104 -0.0010328 -3.3476e-05 -0.00087796
-0.0026331 0.0021827 0.0011716 0.0020233
0.011224 -0.030595 -0.047081 0.38823 -0.017278 -0.022169 -0.0026912 0.00051767
7.9374e-05 0.0031672 -0.00076513 0.0019772
-0.0015163 -0.0010188 -0.017428 -0.022131 0.28262 0.2053 0.00080387 0.0018047
0.00053491 0.0012509 0.00021866 0.00058509
-2.7948e-05 -0.00087133 -0.0026901 0.00052881 0.00080305 0.0018231 0.07307 0.27443
0.011156 -0.018038 0.0020992 0.001438
-0.0026749 0.0022012 6.6148e-05 0.0031499 0.00056423 0.0012402 0.011178 -0.01804
-0.0083208 0.23258 0.013838 -0.013498
0.0011274 0.0019726 -0.00073779 0.0019426 0.00021607 0.00061465 0.0020841 0.0013849
0.013771 -0.013434 -0.006546 0.31945
1280000000 0.17447 0.26892 -0.0078756 -0.029321 -0.0020627 0.0024418 -0.00088489 -0.0020157
-0.00078964 0.0032006 0.0025187 0.0011529
-0.0078666 -0.029313 -0.00059809 0.37992 -0.02466 -0.0089224 -0.00099338 0.0014996
0.0018343 0.0016726 0.00064993 0.0020465
-0.0020682 0.0024419 -0.02474 -0.0088468 0.31321 0.16174 0.0016214 -7.5392e-05
0.0012615 0.00032128 0.00033595 0.00031884
-0.00086879 -0.0020012 -0.00096545 0.0015413 0.0016451 -8.2609e-05 0.11012 0.2579
0.00078767 -0.020297 -5.7454e-05 0.00033293
-0.00074875 0.0032268 0.0018226 0.0016972 0.0013074 0.00030315 0.00075883 -0.020343
0.028829 0.23566 0.0027659 -0.015725
0.0024861 0.0012086 0.00063469 0.0020549 0.00034395 0.00023664 -8.8837e-05 0.0003166
0.0026881 -0.015676 0.040515 0.32114
1340000000 0.21207 0.23591 -0.017979 -0.019497 0.00070836 0.0047778 -0.0017616 -0.00085113
0.00141 0.0026729 0.0017864 -0.0013944
-0.017972 -0.019494 0.039119 0.37187 -0.022292 0.0043519 -5.2905e-05 0.0020635
0.0019855 0.00077264 0.0012586 0.00074622
0.00072647 0.004761 -0.02231 0.004478 0.33498 0.11445 0.0010743 -0.00092926
0.00069583 -0.00061458 4.9018e-05 0.00026217
-0.0017573 -0.00082874 -3.6787e-05 0.0020325 0.0010496 -0.00093584 0.14309 0.23659
-0.0091335 -0.017304 0.00081564 0.00046859
0.0014903 0.0026948 0.0020319 0.00071064 0.00063332 -0.00063466 -0.0091845 -0.017335
0.059309 0.23061 -0.0041952 -0.01434
0.0017963 -0.0014325 0.0012434 0.0007529 7.4044e-05 0.00025936 0.00078115 0.00043058
-0.0041859 -0.014272 0.078688 0.31559
1400000000 0.24599 0.19848 -0.024054 -0.0075703 0.005343 0.0035317 -0.0022266 0.0006539
0.002553 0.001009 0.00022205 -0.0016439
-0.024014 -0.0075821 0.076658 0.35912 -0.015405 0.012923 0.0014077 0.0012675
0.001247 -0.00083617 0.0011601 4.4208e-05
0.0053482 0.0034927 -0.015394 0.013029 0.34797 0.061668 3.0038e-05 -0.0016393
0.00014405 -0.00044332 0.000372 0.0002003
-0.0021987 0.00062922 0.0014189 0.0012557 5.436e-05 -0.0016365 0.17236 0.20743
-0.015477 -0.0099264 -0.00073338 -0.00019237
0.0025505 0.000977 0.001268 -0.00085028 0.00016065 -0.0004581 -0.015467 -0.0098685
0.09263 0.22572 -0.01059 -0.0087203
0.00021698 -0.0015654 0.0011745 7.5711e-05 0.00041701 0.0001731 -0.00079827 -0.00016751
-0.010649 -0.0087324 0.12308 0.30401
1460000000 0.26926 0.15459 -0.020819 0.0050257 0.0059829 -0.0016563 -0.0016 0.0017691
0.0022181 -0.00053225 -0.00034018 -0.0009347
-0.020814 0.0050044 0.11097 0.33721 -0.0061883 0.016089 0.0016416 0.00011094
0.00084625 -0.0013542 0.0012711 -0.00066178
0.0059828 -0.0016967 -0.0060756 0.016145 0.35462 0.0082252 -0.0012813 -0.0012817
0.00011716 -0.00025227 0.00072341 -0.0001989
-0.0015839 0.0018161 0.0016536 0.00010826 -0.0012946 -0.0012783 0.19867 0.17787
-0.016541 -0.0028352 -0.0008498 0.0020449
0.0021982 -0.00052607 0.00087385 -0.0013567 0.0001087 -0.00022773 -0.01657 -0.0027847
0.12225 0.21087 -0.012442 -0.0027109
-0.00040772 -0.00092093 0.0012647 -0.00065677 0.00072619 -0.00017983 -0.00082528 0.0020862
-0.012549 -0.0026898 0.15618 0.28327
1520000000 0.28177 0.11324 -0.014984 0.01072 0.0036242 -0.0043713 0.00015024 0.0025986
0.0021255 -0.0020163 -0.0011905 -0.00014552
-0.014963 0.010709 0.14433 0.32287 0.0018637 0.013575 0.0016336 -0.00076364
-8.6242e-06 -0.0010851 0.00029533 -0.0011024
0.0036013 -0.0043777 0.0019434 0.013603 0.34847 -0.047321 -0.0010619 -0.00033732
0.00060646 -0.00088536 8.0379e-05 -0.00026805
0.00013312 0.0026072 0.0016354 -0.00075492 -0.0010779 -0.00030611 0.22132 0.13946
-0.015481 0.0034903 0.0015747 0.002109
0.0020989 -0.0020586 -3.866e-06 -0.0010837 0.00062693 -0.0008733 -0.015484 0.0034693
0.15035 0.19702 -0.012061 0.0020097
-0.0011941 -0.00013357 0.00031508 -0.0010717 6.4826e-05 -0.00022516 0.0015655 0.0020978
-0.012092 0.0020257 0.1888 0.26245
1580000000 0.29168 0.067391 -0.0079108 0.013949 -0.00089963 -0.0052434 0.0015451 0.0019311
-0.00021024 -0.0021829 -0.0001615 0.00038693
-0.0079101 0.013938 0.17152 0.29849 0.0056889 0.0084128 0.00054891 -0.001535
-0.00056862 -0.00098413 -0.00019633 -0.00082362
-0.00091085 -0.0052578 0.0057649 0.0084011 0.32938 -0.10462 -0.0016692 0.0006469
-0.00033925 -0.0012368 0.00024506 -0.00056185
0.0015544 0.0019268 0.00055352 -0.0015437 -0.001683 0.00060635 0.23465 0.10027
-0.011417 0.0083403 0.0021767 0.0007275
-0.00024634 -0.0021678 -0.00056423 -0.00099463 -0.00037645 -0.0012543 -0.011376 0.0083608
0.17454 0.17873 -0.0094354 0.0077985
-0.00015061 0.00037294 -0.00022466 -0.00083044 0.0002178 -0.00060587 0.0021756 0.00068125
-0.0094832 0.0077342 0.22009 0.23568
1640000000 0.29409 0.026549 -0.00096912 0.012513 -0.0029463 -0.0028053 0.0027295 0.0010185
-0.00077443 -0.0015929 -0.00036427 0.00054211
-0.00097271 0.012509 0.20108 0.27403 0.0063245 0.0033093 -0.00059617 -0.0018101
-0.00093986 -0.00038191 -0.00055696 -0.00064549
-0.0029773 -0.0027795 0.0063348 0.0032864 0.30141 -0.15405 -0.00063263 0.0013901
-0.00094808 -0.00084651 -0.00019172 -0.00036907
0.0027648 0.00098458 -0.00062325 -0.0018209 -0.00058011 0.0013842 0.24679 0.05176
-0.0068887 0.0094235 0.0024507 -0.00079642
-0.000794 -0.0016088 -0.0009445 -0.00039188 -0.00091336 -0.00087987 -0.0068758 0.0094455
0.19739 0.15444 -0.004492 0.0097005
-0.0002807 0.00056618 -0.00054402 -0.00063352 -0.00019439 -0.00036011 0.0024828 -0.00080501
-0.0044744 0.0097353 0.24594 0.20468
1700000000 0.28759 -0.018427 0.0024357 0.0094146 -0.0037853 -6.8975e-05 0.0031504 -0.0012614
-0.0019747 -0.00066339 0.0005775 0.00040545
0.0024296 0.0094005 0.21919 0.24313 0.0041062 0.00022447 -0.0014915 -0.00058594
-0.00076936 3.5869e-05 -0.00088845 -0.00044111
-0.0037836 -3.2592e-05 0.0041196 0.00020395 0.25879 -0.19417 0.00035724 0.0015497
-0.001962 -0.00011611 -0.00041475 -0.00090067
0.0031338 -0.001278 -0.0015032 -0.0005799 0.00036234 0.0015426 0.24334 0.0024742
-0.0039588 0.0096759 0.0015155 -0.0022697
-0.0020026 -0.00066698 -0.00076722 4.2959e-05 -0.0019584 -0.00014617 -0.0038786 0.0096298
0.2143 0.13409 0.0002501 0.0098275
0.00054994 0.0003681 -0.0009112 -0.00043325 -0.00043819 -0.00087368 0.0015114 -0.0022853
0.00020201 0.0098205 0.26201 0.17042
1760000000 0.2762 -0.06688 0.0046286 0.0059222 -0.0024425 0.001006 0.0012401 -0.0034527
-0.0014153 0.0006656 0.00033594 -0.00055514
0.0046355 0.0059221 0.24564 0.20396 0.0016224 -0.0015956 -0.0012229 0.00017016
-0.0010365 0.00085271 -0.00059537 0.00034978
-0.0024086 0.0010477 0.0016074 -0.0016165 0.21074 -0.22771 0.0010308 0.0011
-0.0012487 0.001412 -0.0012651 -0.00065335
0.001205 -0.0034868 -0.0012335 0.00016158 0.0010735 0.001117 0.23483 -0.048327
-0.00076908 0.0084802 -0.00018586 -0.0025897
-0.0014325 0.00063308 -0.001045 0.00083083 -0.0012862 0.0013733 -0.00078393 0.008539
0.22913 0.099566 0.0042157 0.0070877
0.00029544 -0.00052686 -0.00058185 0.00037003 -0.001298 -0.00069304 -0.0001749 -0.0026188
0.0042167 0.007097 0.27469 0.13295
1820000000 0.25225 -0.10432 0.0045424 0.0022912 -0.0001386 0.002519 -0.0010066 -0.0030779
-0.0011477 0.0010465 -6.0394e-05 -6.0026e-05
0.0045328 0.0023132 0.25626 0.17429 -0.00075195 -0.00028683 -0.0013036 0.00092175
-9.7429e-05 0.0012138 -0.0006481 0.00053379
-0.00015608 0.0025513 -0.00075882 -0.00027594 0.15977 -0.24395 0.0016352 0.0004583
-0.00020216 0.0023372 -0.0016715 0.00026032
-0.00098164 -0.0030833 -0.001283 0.00096648 0.0016086 0.00047061 0.20526 -0.095389
0.00046851 0.007108 -0.0017963 -0.001533
-0.0011049 0.0010436 -6.6519e-05 0.0012144 -0.00017695 0.0023846 0.00045148 0.0071524
0.24588 0.070938 0.0049839 0.0034756
-0.00012211 -4.2121e-05 -0.00063377 0.00053313 -0.0015766 0.00029306 -0.0017617 -0.001463
0.0049724 0.003483 0.27674 0.096234
1880000000 0.21778 -0.14488 0.0022255 4.9022e-05 -0.00058492 0.0021909 -0.0029991 -0.0021567
-0.00020771 0.0018516 6.2094e-05 -0.00041752
0.0022199 5.8722e-05 0.26138 0.12806 -0.0025973 0.001595 -0.00023443 0.001718
0.00051911 0.0013112 -2.2916e-05 0.00097431
-0.00054658 0.0021983 -0.002569 0.0016069 0.10807 -0.25312 0.0018115 -0.00087532
0.0014642 0.0020135 -0.0012955 0.0013856
-0.0029762 -0.0020606 -0.00021089 0.0017448 0.0018008 -0.00088811 0.16539 -0.1356
0.001206 0.0052609 -0.0023717 0.00025225
-0.00025592 0.0018752 0.00051174 0.0013107 0.001511 0.0020176 0.001229 0.0052616
0.24972 0.040029 0.0051777 0.0011505
3.8395e-05 -0.00049358 4.512e-05 0.00093995 -0.0012904 0.0014623 -0.0023852 0.00033645
0.0051525 0.0011067 0.27669 0.062228
1940000000 0.17886 -0.17092 -0.00021595 -0.0014891 0.0013969 0.0021012 -0.003671 0.00044622
0.0014143 0.0011472 -0.00057324 -0.00054888
-0.00019128 -0.0014403 0.26272 0.096202 -0.0013715 0.0040467 0.0010263 0.0013456
0.0018407 0.00055822 0.0010678 0.00039127
0.0013732 0.002127 -0.0013677 0.0040693 0.062608 -0.2462 0.00043721 -0.0023235
0.0024247 0.00037918 0.00061242 0.0018382
-0.0036777 0.00045342 0.0010429 0.0013158 0.00051636 -0.0023183 0.11365 -0.16661
0.00070984 0.0041058 -0.00145 0.0016038
0.0014362 0.0011376 0.0018903 0.00054136 0.0025058 0.00032519 0.00066767 0.0041444
0.25295 0.0022405 0.003824 -0.0020772
-0.00054006 -0.00053085 0.0010605 0.00040037 0.00059885 0.0018715 -0.0014254 0.0016941
0.0037643 -0.0020603 0.26577 0.02609
2000000000 0.13279 -0.18628 -0.003969 0.000679 0.0026256 0.001497 -0.0022175 0.0037744
0.0012987 0.00042287 -0.00046945 0.00052317
-0.003945 0.00072342 0.24913 0.060402 -0.00099034 0.0058495 0.0016377 0.00056071
0.0013352 -0.0010356 0.00052789 0.00016015
0.0026482 0.0015247 -0.0009627 0.005843 0.018869 -0.23255 -0.0012293 -0.0013806
0.0022283 -0.001192 0.0017174 0.001509
-0.0022129 0.0038039 0.0016371 0.0005495 -0.0012422 -0.0013884 0.060255 -0.17713
-0.00045069 0.0039073 2.0795e-06 0.002298
0.0013465 0.00037876 0.001355 -0.0010228 0.0021327 -0.0011887 -0.00055499 0.0038818
