!Keysight Technologies,M9804A,MY58100912,A.14.10.03
!Date: Thursday, April 27, 2023 10:28:33
!Correction: S11(C  6-Port  ) 
!S12(C  6-Port  ) 
!S13(C  6-Port  ) 
!S14(C  6-Port  ) 
!S15(C  6-Port  ) 
!S16(C  6-Port  ) 
!S21(C  6-Port  ) 
!S22(C  6-Port  ) 
!S23(C  6-Port  ) 
!S24(C  6-Port  ) 
!S25(C  6-Port  ) 
!S26(C  6-Port  ) 
!S31(C  6-Port  ) 
!S32(C  6-Port  ) 
!S33(C  6-Port  ) 
!S34(C  6-Port  ) 
!S35(C  6-Port  ) 
!S36(C  6-Port  ) 
!S41(C  6-Port  ) 
!S42(C  6-Port  ) 
!S43(C  6-Port  ) 
!S44(C  6-Port  ) 
!S45(C  6-Port  ) 
!S46(C  6-Port  ) 
!S51(C  6-Port  ) 
!S52(C  6-Port  ) 
!S53(C  6-Port  ) 
!S54(C  6-Port  ) 
!S55(C  6-Port  ) 
!S56(C  6-Port  ) 
!S61(C  6-Port  ) 
!S62(C  6-Port  ) 
!S63(C  6-Port  ) 
!S64(C  6-Port  ) 
!S65(C  6-Port  ) 
!S66(C  6-Port  ) 
!S6P File: Measurement: :
# Hz S  RI   R 50
500000000 -0.33424 -0.054847 -0.010225 -0.0018715 -0.0085608 0.012777 -0.0038681 0.012257
0.012291 0.0050801 -0.003839 0.008164
-0.01023 -0.0019081 -0.41635 -0.063917 0.0081766 -0.01052 0.0012333 0.012009
0.007889 0.0026852 0.0011873 0.013854
-0.0085459 0.012787 0.0082375 -0.010535 -0.26681 0.1988 0.0066698 0.0038829
-0.0014531 0.0082489 -9.1229e-06 0.012769
-0.0040049 0.012352 0.0011087 0.011904 0.0065367 0.003911 -0.33185 0.043385
-0.01865 -0.0048045 0.01639 0.025628
0.012473 0.0051335 0.0077562 0.0029267 -0.0013941 0.0082377 -0.018667 -0.0047686
-0.24749 -0.19495 -0.026566 0.0041556
-0.0036636 0.0082094 0.0012527 0.013289 -0.0001499 0.012601 0.016157 0.026042
-0.026454 0.0041639 -0.27202 -0.12175
560000000 -0.31898 0.11136 -0.023787 -0.064606 0.00011411 0.012152 0.0047332 0.010947
0.011455 0.0054535 0.0093997 0.0080684
-0.02377 -0.064478 -0.3755 0.098665 -0.041896 -0.037822 0.013823 0.0033427
-0.012853 -0.0031297 0.0029543 -0.0011967
6.8131e-05 0.012111 -0.04217 -0.037847 -0.18513 0.25032 -0.00046888 -0.0043096
0.017775 0.0050623 0.0081366 -0.0054806
0.0048606 0.011023 0.013946 0.0032765 -0.00066457 -0.0044401 -0.30697 0.13454
0.0052885 -0.024477 0.0055001 -0.021853
0.010882 0.0048973 -0.012426 -0.0038131 0.018304 0.0058013 0.0042377 -0.024135
-0.31114 -0.016126 0.0095866 -0.047197
0.0093066 0.0078526 0.0036067 -0.00079168 0.0077098 -0.0057621 0.0053425 -0.022317
0.0091845 -0.047325 -0.33307 0.0246
620000000 -0.27771 0.092607 -0.023146 0.0084252 0.0034526 0.0093458 0.0081862 -0.0048464
0.011675 -0.00069704 -0.00023939 -0.0035347
-0.023126 0.0084154 -0.40328 0.048216 -0.018386 0.00056432 -0.0016493 -0.0020743
0.012256 -0.0061419 0.0010638 -0.0030618
0.0034663 0.0093015 -0.018399 0.00061187 -0.15555 0.25961 -0.0011605 -0.0052056
-0.0031365 -0.0026343 0.0093905 -0.0033197
0.00817 -0.0049303 -0.0016847 -0.0020719 -0.001121 -0.0052654 -0.26539 0.14503
-0.039036 -0.019578 0.012576 0.026202
0.011701 -0.00075456 0.012434 -0.0064179 -0.0030716 -0.0027098 -0.039309 -0.019228
-0.23027 -0.048667 -0.039817 0.01288
-0.00010046 -0.002914 0.00096608 -0.0032384 0.009111 -0.0032839 0.013015 0.026461
-0.040477 0.012523 -0.25137 -0.0073664
680000000 -0.23918 0.1828 -0.026384 -0.014488 0.0052623 0.0053544 0.0014324 -0.0077516
-0.0024001 -0.011958 0.0060158 -0.0069322
-0.026331 -0.014461 -0.38996 0.14927 -0.032634 -0.001986 -0.0014587 -0.00064121
-0.002136 -0.0092573 -0.00093592 -0.0016176
0.0052879 0.0053303 -0.03269 -0.0018906 -0.1045 0.28038 -0.00070661 -0.00038239
-0.00175 0.00037705 -0.0028333 -0.0095545
0.0013548 -0.0078402 -0.0014442 -0.00059594 -0.00078668 -0.00044821 -0.22026 0.19729
-0.023696 -0.0079366 -0.0088108 -0.01193
-0.0024692 -0.011778 -0.0021696 -0.0094512 -0.0018173 0.00029494 -0.023866 -0.0079428
-0.27897 0.054595 -0.0070842 -0.0071645
0.0054793 -0.0075365 -0.0011201 -0.001826 -0.0029647 -0.0095816 -0.0091327 -0.011946
-0.0070383 -0.0075384 -0.25769 0.095373
740000000 -0.19349 0.17683 -0.039575 0.026528 0.013628 -0.0050791 -0.00039434 -0.0035637
-0.0037212 -0.0038512 -0.0069512 0.0036165
-0.039601 0.026511 -0.3363 0.1684 -0.037026 0.034769 -0.00020219 -0.0059344
-0.012414 0.0076811 -0.001067 -0.0054723
0.013598 -0.0050243 -0.037008 0.034892 -0.070579 0.2777 -0.0019357 0.0034054
-0.0026153 -0.0056441 -0.0014012 0.0012354
-0.00031161 -0.0034735 -0.00010206 -0.0059413 -0.0019947 0.0034028 -0.20389 0.20466
-0.043234 -0.0076419 0.022635 0.015446
-0.0041786 -0.0037247 -0.012222 0.0077284 -0.0028197 -0.0057325 -0.043319 -0.0077891
-0.17888 0.082097 -0.043387 -8.0438e-05
-0.0068001 0.0037724 -0.0011499 -0.0055983 -0.0014919 0.0013394 0.022477 0.015539
-0.042931 8.557e-05 -0.24806 0.10251
800000000 -0.16186 0.22052 -0.022558 0.016756 0.006033 -0.010643 -0.0045468 -0.0021163
-0.0041357 0.0023244 0.0046244 0.0001277
-0.022538 0.016757 -0.34188 0.23879 -0.0085566 0.034376 -0.0021787 0.0022305
-0.0010514 0.0030769 0.0012343 0.005167
0.0060069 -0.010645 -0.0084701 0.034437 -0.031907 0.30208 0.00092411 0.0013901
8.9459e-05 0.0033565 -0.0017907 0.00097284
-0.0045608 -0.0020448 -0.0022328 0.0022237 0.00091677 0.0014192 -0.17462 0.23184
-0.029139 0.013374 0.01419 -0.010107
-0.0041145 0.0024528 -0.0011853 0.0030985 4.2587e-05 0.0034049 -0.028898 0.013432
-0.22015 0.10978 -0.017707 0.01878
0.0042985 -0.00010542 0.0012808 0.0051852 -0.0018311 0.00090777 0.01415 -0.010153
-0.017877 0.018535 -0.2407 0.15019
860000000 -0.12803 0.24057 -0.01808 0.030701 -0.0029024 -0.01053 -0.0018316 0.00053749
0.0040562 0.0050605 -0.0033209 -0.0028139
-0.01803 0.030618 -0.29357 0.28168 0.0075506 0.034764 0.00014764 0.0021639
0.0036731 0.00060754 0.0036103 0.00049557
-0.0029333 -0.010513 0.007681 0.034781 0.015655 0.31079 -0.00077392 -0.00019856
0.0023123 -0.0015622 0.0018414 0.0042672
-0.0018784 0.00060089 0.00026244 0.0022168 -0.00078771 -0.00010845 -0.138 0.24266
-0.018598 0.018102 -0.005782 -0.0087858
0.0041254 0.0049133 0.0035584 0.00056237 0.0022477 -0.0016424 -0.018721 0.018092
-0.16571 0.16006 -0.023683 0.016753
-0.0032898 -0.0027185 0.0034834 0.00074902 0.0017493 0.0043438 -0.0058756 -0.0087481
-0.023836 0.016622 -0.1902 0.19508
920000000 -0.10435 0.26391 0.0045824 0.038522 -0.0093414 -0.0051059 -0.0019157 0.0018914
0.0013227 0.0017692 0.0027071 -0.0014478
0.0045789 0.038493 -0.26642 0.30302 0.028357 0.023033 0.0015384 0.0012532
0.0075052 -0.00057302 0.0040459 -0.0027533
-0.0093555 -0.0050878 0.028443 0.022955 0.061222 0.31231 0.0019317 0.00011329
0.00099087 -0.00033528 0.0010688 -0.0012243
-0.0019042 0.0018419 0.0014357 0.0012571 0.0019171 0.00010277 -0.11364 0.25964
-0.011315 0.031087 0.0033623 -0.0065422
0.0014772 0.0017733 0.0077235 -0.00052767 0.0010288 -0.00034967 -0.011317 0.031073
-0.1547 0.16681 -0.0015228 0.026653
0.0027063 -0.0014799 0.0040389 -0.0027831 0.0010393 -0.0012424 0.0033263 -0.0064766
-0.001574 0.026683 -0.19749 0.20955
980000000 -0.057874 0.28449 0.017014 0.030408 -0.0096087 0.0042701 0.001889 0.0035956
0.0040629 -0.0017742 -0.0030101 -0.0024444
0.016966 0.030411 -0.21333 0.33805 0.033729 0.0055211 0.0021219 -8.563e-05
0.0018061 -0.0060484 -9.0761e-05 -0.002466
-0.0095979 0.0042946 0.03382 0.0054104 0.10729 0.30687 0.00078375 -0.0011103
0.00057737 -0.0019156 0.0016314 -0.00017641
0.0019116 0.0035716 0.0020959 -0.00013318 0.00079827 -0.0011101 -0.075371 0.27099
0.0075563 0.030752 -0.0089462 -0.0073062
0.0040024 -0.0018718 0.0017599 -0.0060724 0.0005923 -0.0019709 0.0075916 0.030789
-0.12068 0.19627 0.0062367 0.019986
-0.0028667 -0.0023112 -9.3335e-05 -0.0024397 0.0016165 -0.00015748 -0.0090285 -0.0073306
0.0061456 0.020052 -0.1539 0.25235
1040000000 -0.016359 0.29368 0.03324 0.01932 -0.0016225 0.0071982 0.0027983 0.00072571
0.00032145 -0.0035199 -0.00011505 -0.0016848
0.033218 0.019329 -0.17836 0.3518 0.030413 -0.01469 0.0017348 -0.0017205
-0.0020583 -0.0026458 -0.00094388 -0.0027598
-0.0016201 0.0072094 0.030402 -0.014844 0.15349 0.29394 -0.00043973 -0.0016743
-0.0015495 -0.00097764 -0.0004442 -0.0011877
0.0028243 0.00070626 0.0017209 -0.0017423 -0.00044913 -0.0016677 -0.047456 0.28068
0.020005 0.019296 -0.0024898 0.0011049
0.00027763 -0.0034896 -0.0022752 -0.0025603 -0.0015865 -0.00094085 0.020031 0.019263
-0.087668 0.20299 0.013701 0.018596
-0.0001029 -0.0016093 -0.00085336 -0.0027294 -0.00045277 -0.0011671 -0.0025408 0.0011427
0.013733 0.018673 -0.13054 0.27324
1100000000 0.028566 0.30273 0.036834 -0.0035392 0.0028559 0.0043282 0.0024163 -0.0012395
-0.0021921 -0.0031238 -0.0040231 -0.00017563
0.036793 -0.0035126 -0.13526 0.37011 0.01605 -0.028345 8.6654e-05 -0.0019308
-0.0036893 -0.00092813 -0.0036814 -0.00059563
0.0028692 0.0043281 0.015969 -0.028447 0.1998 0.27458 -0.0019726 0.00010513
-0.0017725 0.00042689 -0.0011895 -0.00062652
0.0024402 -0.0012165 0.00012081 -0.0019573 -0.0019511 7.9512e-05 -0.0070113 0.28583
0.025702 0.0054137 -0.0022983 0.0001795
-0.0022281 -0.0031454 -0.003681 -0.00093602 -0.0017507 0.0004274 0.025708 0.0054072
-0.067069 0.21584 0.019493 0.008354
-0.0040082 -0.00010066 -0.0036101 -0.00054081 -0.0011461 -0.00062389 -0.0022624 0.00015551
0.019489 0.0084349 -0.085339 0.30187
1160000000 0.079707 0.29903 0.024869 -0.020878 0.0029611 -0.00040824 -0.00014608 -0.0024684
-0.0039481 -0.00083463 -0.0010091 0.0041421
0.024883 -0.020827 -0.091508 0.375 -0.0034194 -0.030052 -0.0016795 -0.0017288
-0.002818 0.0026891 -0.0014979 0.0018196
0.0029329 -0.00042873 -0.0035573 -0.030104 0.24341 0.24425 -0.00078356 0.0018438
-0.00057427 0.0020192 -0.001019 0.00028444
-0.00019235 -0.0024466 -0.0016935 -0.0016983 -0.00076307 0.0018522 0.032652 0.28312
0.022001 -0.010945 -0.0033011 0.005253
-0.00397 -0.00086102 -0.0028126 0.0027255 -0.00054913 0.0020218 0.021954 -0.010933
-0.03244 0.22384 0.01841 -0.00066162
-0.00099081 0.0042632 -0.0014615 0.0018119 -0.0010275 0.00024469 -0.0032332 0.0053248
0.018528 -0.00065488 -0.038658 0.30492
1220000000 0.12385 0.28937 0.011269 -0.030623 -0.0014819 -0.0010426 -2.3581e-05 -0.00089422
-0.002686 0.0021849 0.0011275 0.0020161
0.011285 -0.030588 -0.047192 0.38824 -0.01729 -0.022148 -0.0027095 0.00054016
5.0128e-05 0.003206 -0.00077407 0.0020343
-0.0014965 -0.0010404 -0.017406 -0.022106 0.28253 0.20538 0.00079336 0.001807
0.00061998 0.0012493 0.0002671 0.00063516
-7.5843e-05 -0.00086616 -0.0027185 0.00055058 0.00079926 0.0018323 0.072987 0.27428
0.011134 -0.018086 0.0021127 0.001367
-0.0027065 0.0021654 5.5961e-05 0.0031851 0.00061943 0.0012358 0.011092 -0.018073
-0.0082943 0.23271 0.013875 -0.013605
0.0010878 0.0019843 -0.00077999 0.0020047 0.00029359 0.0006013 0.0020879 0.0014183
0.013878 -0.013503 -0.0066532 0.31952
1280000000 0.17436 0.26892 -0.0078438 -0.029363 -0.0020828 0.0024155 -0.00083664 -0.0020282
-0.00078574 0.0032128 0.0024903 0.0012502
-0.0078256 -0.029346 -0.00071037 0.37991 -0.024634 -0.0089625 -0.00097492 0.0015286
0.0017809 0.0016705 0.00063684 0.0020952
-0.0020779 0.0024184 -0.02472 -0.008866 0.31313 0.16181 0.001731 -8.0711e-05
0.0012686 0.00027412 0.00033139 0.00034915
-0.00087191 -0.0020459 -0.00099432 0.0015427 0.0016767 -6.9634e-05 0.10999 0.25783
0.00073152 -0.020397 -0.00011369 0.00029539
-0.00077199 0.0032358 0.0017969 0.0017116 0.0012616 0.00026604 0.00069159 -0.020411
0.028818 0.2357 0.0028034 -0.015769
0.0024829 0.0011796 0.0006658 0.0020225 0.00037375 0.00031191 -0.00014646 0.00031996
0.0028478 -0.015692 0.040245 0.32101
1340000000 0.21195 0.23596 -0.017961 -0.01952 0.00069957 0.0047531 -0.0017582 -0.00086349
0.0014221 0.0027156 0.0017997 -0.0013854
-0.017932 -0.019503 0.038968 0.37189 -0.022294 0.0043452 -8.6775e-05 0.0020443
0.0019794 0.00072288 0.0012749 0.00073658
0.00072827 0.004753 -0.022301 0.0044615 0.33487 0.11452 0.0010778 -0.0009314
0.00069631 -0.00069878 8.0876e-05 0.00036737
-0.0017706 -0.00086513 -7.8108e-05 0.0020468 0.0010927 -0.00094648 0.143 0.23661
-0.0091933 -0.017347 0.00078611 0.00061864
0.0014352 0.002711 0.0019875 0.00071184 0.00070816 -0.00065981 -0.0092451 -0.017398
0.059442 0.23052 -0.0043932 -0.014172
0.0017921 -0.0014139 0.0012888 0.00070263 0.00010598 0.00033281 0.00078164 0.00061895
-0.004379 -0.01415 0.078828 0.31563
1400000000 0.24591 0.19858 -0.024028 -0.0076182 0.0053503 0.0035389 -0.0022421 0.00060598
0.0024801 0.00094632 0.00023876 -0.0015495
-0.023991 -0.0076286 0.07652 0.35914 -0.015421 0.012917 0.0013874 0.001224
0.0012101 -0.00082652 0.0011985 9.8044e-05
0.0053659 0.0035129 -0.015381 0.013018 0.34802 0.061795 -5.1844e-07 -0.0016423
0.00013672 -0.00043179 0.00032607 0.00017055
-0.0022006 0.00061396 0.0014111 0.0012323 1.7401e-05 -0.0016334 0.17219 0.20749
-0.015582 -0.0098506 -0.00078947 -0.00018249
0.0024863 0.00094358 0.0012082 -0.00084021 0.00013543 -0.00043587 -0.015609 -0.0098315
0.092747 0.22564 -0.010657 -0.0089178
0.00025768 -0.0015134 0.0012182 0.00010093 0.00034663 0.00017193 -0.00076808 -0.00022941
-0.01064 -0.0088722 0.12288 0.3041
1460000000 0.26912 0.15467 -0.020838 0.0050251 0.005971 -0.0016539 -0.0015642 0.0017797
0.0022125 -0.00054557 -0.00038538 -0.00092341
-0.020831 0.0050082 0.11085 0.33722 -0.0061671 0.01606 0.0016546 0.00010488
0.00084568 -0.0013445 0.0012408 -0.00066436
0.005965 -0.0016874 -0.0061016 0.016114 0.35458 0.0083226 -0.0012734 -0.0012547
0.0001176 -0.00019537 0.00075143 -0.00030816
-0.0015698 0.0017866 0.0016577 0.00010564 -0.0012676 -0.0012877 0.19853 0.17797
-0.016711 -0.0027181 -0.00080788 0.0021238
0.002199 -0.0005593 0.0008656 -0.0013531 0.00012774 -0.00020247 -0.016712 -0.0026862
0.12217 0.21089 -0.01237 -0.0026888
-0.00044432 -0.00091084 0.0012645 -0.00065873 0.00071613 -0.00032639 -0.0007875 0.0021139
-0.012384 -0.0027006 0.15608 0.28327
1520000000 0.28162 0.11334 -0.015012 0.010709 0.0035998 -0.0043753 0.00015114 0.002608
0.0021303 -0.0019996 -0.0011909 -0.00017366
-0.015023 0.010683 0.14418 0.32295 0.001844 0.013599 0.0016522 -0.00075997
-1.1409e-05 -0.0010763 0.00030631 -0.0010668
0.0035819 -0.0044108 0.0019244 0.013617 0.34843 -0.04718 -0.0010538 -0.00031584
0.00059176 -0.00084037 0.0001427 -0.00021958
0.00016202 0.0026003 0.0016451 -0.00077587 -0.0010525 -0.00032088 0.2212 0.13956
-0.015448 0.0036187 0.0015583 0.002057
0.0021311 -0.001981 -9.1005e-08 -0.0010779 0.00063332 -0.00082287 -0.015447 0.0036456
0.15036 0.19701 -0.012048 0.002049
-0.0011949 -0.00017029 0.00029187 -0.0010631 0.00017154 -0.00026479 0.0015672 0.0020609
-0.012036 0.0020393 0.18868 0.26247
1580000000 0.29159 0.067506 -0.0079427 0.013945 -0.00083687 -0.005233 0.0015333 0.0019665
-0.00025441 -0.0022184 -0.00020742 0.00041347
-0.007936 0.01393 0.17142 0.29854 0.0056921 0.0084279 0.0005358 -0.0015372
-0.00057004 -0.00098817 -0.00021935 -0.00083114
-0.00086488 -0.005228 0.0057269 0.0084066 0.32942 -0.10449 -0.0016522 0.00061825
-0.00036829 -0.0012126 0.00022955 -0.00056542
0.0015454 0.0019505 0.00053619 -0.0015411 -0.0016286 0.00059752 0.2346 0.1003
-0.011345 0.0085064 0.002271 0.00068542
-0.00028231 -0.002218 -0.00059744 -0.00096307 -0.00037626 -0.0012592 -0.011339 0.0085489
0.17448 0.17875 -0.0094964 0.007659
-0.0002107 0.00041021 -0.00025102 -0.00081634 0.00019718 -0.00055622 0.0022993 0.00066072
-0.0094782 0.0076813 0.22011 0.23599
1640000000 0.29408 0.026704 -0.00098517 0.012512 -0.0029299 -0.0027609 0.002743 0.00099385
-0.0007906 -0.0015903 -0.00028719 0.00059473
-0.00099766 0.0125 0.20093 0.27412 0.0062813 0.0033263 -0.00060644 -0.0018103
-0.00094937 -0.00036084 -0.00053323 -0.00061356
-0.0029528 -0.0027641 0.0063441 0.0032854 0.30147 -0.15406 -0.00055596 0.0013845
-0.00094252 -0.00088031 -0.00019863 -0.00036098
0.002762 0.00097506 -0.00061571 -0.0018012 -0.00060094 0.0014168 0.24674 0.051856
-0.0067151 0.0095525 0.0025349 -0.00083349
-0.00078503 -0.0015812 -0.00095377 -0.00036222 -0.00092888 -0.00089234 -0.0066922 0.009552
0.1973 0.1545 -0.0044874 0.009706
-0.00026115 0.00057596 -0.00054043 -0.00061314 -0.00020951 -0.00039686 0.0025567 -0.00083822
-0.0045244 0.009716 0.2458 0.2048
1700000000 0.28758 -0.018237 0.0024427 0.0094306 -0.0037564 -3.7637e-05 0.00319 -0.0012603
-0.0019914 -0.00062646 0.00053591 0.00040644
0.0024262 0.0094241 0.21915 0.24324 0.00412 0.00030244 -0.0014617 -0.00057138
-0.00074455 3.2338e-05 -0.00090114 -0.0004213
-0.0037566 -2.7871e-05 0.0041316 0.00028437 0.25876 -0.19387 0.00044305 0.0015691
-0.0018982 -5.5339e-05 -0.00042427 -0.00087716
0.0031808 -0.0012919 -0.0014907 -0.00058596 0.00044853 0.0015333 0.24332 0.0026834
-0.0037544 0.009594 0.0015293 -0.0022466
-0.0020029 -0.00064066 -0.00076004 3.6522e-05 -0.0018795 -6.2331e-05 -0.0037466 0.0096403
0.21433 0.13406 0.00017023 0.0098194
0.00052459 0.00040708 -0.00089359 -0.00042707 -0.00037261 -0.00089863 0.0015156 -0.0022413
0.00013277 0.0098365 0.26189 0.17061
1760000000 0.2762 -0.066742 0.004641 0.0059565 -0.0023919 0.0010083 0.0012393 -0.0034686
-0.0014442 0.00069158 0.00031661 -0.00048628
0.0046323 0.005956 0.24555 0.20407 0.0016144 -0.0016204 -0.0012486 0.00014868
-0.0010364 0.00082083 -0.00057869 0.0003662
-0.0023785 0.0010391 0.0016025 -0.0016264 0.2108 -0.22755 0.0010542 0.0010904
-0.0012777 0.001389 -0.0011782 -0.00074655
0.0012393 -0.0034578 -0.0012621 0.00017783 0.0010297 0.0010947 0.23489 -0.048216
-0.00061905 0.0083983 -0.00022896 -0.0026051
-0.0014306 0.00070848 -0.0010457 0.0008283 -0.0012925 0.0013968 -0.00062394 0.0084008
0.22901 0.099627 0.0041895 0.0070961
0.00034854 -0.00049325 -0.00057818 0.00036645 -0.0012158 -0.0007499 -0.00021352 -0.0025979
0.0042032 0.0070953 0.2746 0.13306
1820000000 0.25227 -0.10413 0.0045492 0.0023039 -0.00020938 0.0025876 -0.00099196 -0.0030942
-0.0011494 0.0010051 -0.00014018 -7.2052e-05
0.0045455 0.0023183 0.25616 0.17443 -0.0007711 -0.00030003 -0.001335 0.00095859
-0.00011117 0.0011979 -0.00063051 0.00051779
-0.00015921 0.002596 -0.00077431 -0.00028743 0.15972 -0.24389 0.0016236 0.00049216
-0.00025593 0.0024008 -0.0015762 0.0003105
-0.0010306 -0.0031012 -0.0013336 0.00096898 0.0015569 0.00051775 0.20549 -0.09531
0.00057513 0.006992 -0.0017321 -0.0015063
-0.0011454 0.0010083 -0.0001022 0.0011888 -0.00025393 0.0023747 0.0005768 0.00702
0.24582 0.071116 0.0049842 0.0035397
-0.00010467 -6.5591e-05 -0.00063099 0.00053344 -0.0015823 0.00026645 -0.0017484 -0.0015092
0.0049668 0.0035598 0.27679 0.09652
1880000000 0.21783 -0.14476 0.0022247 3.9376e-05 -0.00054565 0.0021382 -0.0029362 -0.002197
-0.00019053 0.0017974 6.6471e-05 -0.00045005
0.0022255 5.1585e-05 0.26135 0.12815 -0.0025749 0.0015878 -0.00023716 0.0016908
0.0005002 0.0013072 2.2204e-05 0.0010048
-0.00054562 0.0021473 -0.0025695 0.0015895 0.10815 -0.25318 0.0018359 -0.00085527
0.0014984 0.0020471 -0.0012722 0.0014118
-0.0029462 -0.0021654 -0.00023806 0.0017198 0.0017915 -0.00087592 0.1655 -0.13551
0.0012239 0.0050755 -0.0023789 0.00034229
-0.00020391 0.0018143 0.00050664 0.0013013 0.0015578 0.0020511 0.0012192 0.0050944
0.24971 0.0401 0.0051749 0.0012137
7.0969e-05 -0.00046274 3.6169e-05 0.0009932 -0.0011459 0.0014177 -0.0023754 0.00035005
0.0051767 0.0011998 0.27674 0.062337
1940000000 0.17886 -0.17079 -0.0001947 -0.0014837 0.0014049 0.0020869 -0.0037101 0.00051511
0.0014274 0.0011409 -0.00046697 -0.00053385
-0.00020113 -0.0014786 0.26267 0.096338 -0.0013431 0.0040477 0.0010642 0.0013754
0.0018723 0.0005937 0.0010583 0.00043763
0.0014445 0.0021135 -0.0013237 0.0040561 0.062717 -0.24616 0.00044208 -0.0022228
0.0024398 0.00042846 0.00055785 0.0019229
-0.0037055 0.00054101 0.001086 0.0013505 0.0004106 -0.0022509 0.11376 -0.16677
0.00061066 0.0040595 -0.0014957 0.0017241
0.0014044 0.0011424 0.0018722 0.00056122 0.0024664 0.00041772 0.00061559 0.0040548
0.25291 0.0023697 0.003737 -0.0020534
-0.00052539 -0.00055319 0.0010641 0.00039745 0.00050697 0.0019878 -0.0014722 0.0017248
0.0037449 -0.0020506 0.26569 0.026233
2000000000 0.13303 -0.18619 -0.0039123 0.00071243 0.0026501 0.0015087 -0.0022504 0.0037655
0.0013297 0.00038295 -0.00059286 0.00056207
-0.0039103 0.00071128 0.2491 0.060566 -0.00096972 0.0058253 0.0016859 0.00056202
0.0013996 -0.00098324 0.00052574 9.9102e-05
0.0026483 0.001491 -0.00093628 0.0058383 0.018882 -0.23254 -0.0012563 -0.0014012
0.0021819 -0.0011475 0.0016882 0.0015069
-0.0022981 0.003842 0.0016454 0.00055356 -0.0012546 -0.001401 0.060347 -0.17736
-0.00063656 0.0037999 -4.3356e-05 0.0022651
0.0012879 0.00037208 0.0013902 -0.0010143 0.0021557 -0.0011571 -0.00058098 0.0038414
