!Keysight Technologies,M9804A,MY58100912,A.14.10.03
!Date: Thursday, April 27, 2023 10:28:33
!Correction: S11(C  6-Port  ) 
!S12(C  6-Port  ) 
!S13(C  6-Port  ) 
!S14(C  6-Port  ) 
!S15(C  6-Port  ) 
!S16(C  6-Port  ) 
!S21(C  6-Port  ) 
!S22(C  6-Port  ) 
!S23(C  6-Port  ) 
!S24(C  6-Port  ) 
!S25(C  6-Port  ) 
!S26(C  6-Port  ) 
!S31(C  6-Port  ) 
!S32(C  6-Port  ) 
!S33(C  6-Port  ) 
!S34(C  6-Port  ) 
!S35(C  6-Port  ) 
!S36(C  6-Port  ) 
!S41(C  6-Port  ) 
!S42(C  6-Port  ) 
!S43(C  6-Port  ) 
!S44(C  6-Port  ) 
!S45(C  6-Port  ) 
!S46(C  6-Port  ) 
!S51(C  6-Port  ) 
!S52(C  6-Port  ) 
!S53(C  6-Port  ) 
!S54(C  6-Port  ) 
!S55(C  6-Port  ) 
!S56(C  6-Port  ) 
!S61(C  6-Port  ) 
!S62(C  6-Port  ) 
!S63(C  6-Port  ) 
!S64(C  6-Port  ) 
!S65(C  6-Port  ) 
!S66(C  6-Port  ) 
!S6P File: Measurement: :
# Hz S  RI   R 50
500000000 -0.33381 -0.052212 -0.010206 -0.0014683 -0.0086788 0.01308 -0.0047267 0.011369
0.012769 0.0054014 -0.0062445 0.0068908
-0.010167 -0.0014473 -0.41572 -0.063121 0.0079402 -0.010377 0.001775 0.011361
0.0083683 0.0029914 0.0017997 0.013631
-0.0086712 0.013093 0.0079305 -0.010421 -0.26713 0.20014 0.0063717 0.0037789
-0.0017602 0.0082906 2.7452e-06 0.012938
-0.0045544 0.01139 0.0017802 0.01138 0.0063613 0.0038105 -0.33216 0.043038
-0.017851 -0.0053373 0.017226 0.025064
0.01277 0.0052501 0.0083941 0.0029464 -0.001672 0.0083275 -0.017996 -0.0052879
-0.24907 -0.19309 -0.024747 0.0044192
-0.0058723 0.0067667 0.0019567 0.013552 -6.5779e-05 0.012873 0.017267 0.025139
-0.024601 0.0043429 -0.2702 -0.11789
560000000 -0.31963 0.11302 -0.02328 -0.063974 -5.1135e-05 0.013096 0.0048781 0.01148
0.010144 0.0043849 0.011227 0.0086087
-0.023222 -0.063876 -0.37515 0.09845 -0.041636 -0.037893 0.013075 0.0041789
-0.012688 -0.0047229 0.0048157 -0.0011673
-4.2065e-05 0.013064 -0.041744 -0.037842 -0.18547 0.2517 -0.00011702 -0.0055912
0.019157 0.0052106 0.007599 -0.0047866
0.0048674 0.011501 0.013054 0.0041105 -7.0721e-05 -0.0055887 -0.30558 0.13573
0.005277 -0.023914 0.0051538 -0.021287
0.010096 0.0043786 -0.012756 -0.0047763 0.019136 0.0051899 0.0053769 -0.024125
-0.30886 -0.010668 0.0040141 -0.04866
0.011255 0.0086699 0.0047761 -0.0013066 0.0076726 -0.0047419 0.0052245 -0.021315
0.0039005 -0.048372 -0.32876 0.026011
620000000 -0.27746 0.094606 -0.022692 0.0089056 0.0038912 0.0097117 0.0074911 -0.0044642
0.013401 -0.00063505 0.00057079 -0.0029409
-0.02268 0.0089115 -0.40346 0.049419 -0.018611 0.0010127 -0.001683 -0.0017984
0.012557 -0.0060586 0.00099107 -0.0032243
0.00391 0.0096722 -0.018624 0.0010575 -0.1556 0.26115 -0.00046462 -0.0047016
-0.0034444 -0.0027555 0.009494 -0.0020641
0.0074209 -0.0045128 -0.001721 -0.0018149 -0.00048323 -0.0046975 -0.26557 0.14711
-0.039268 -0.020591 0.012807 0.028571
0.013465 -0.00057552 0.01258 -0.0061053 -0.0034892 -0.0028356 -0.039169 -0.02052
-0.22782 -0.044754 -0.039817 0.0095765
0.00061985 -0.0028906 0.0010303 -0.0032605 0.0094544 -0.0021155 0.012851 0.02872
-0.039812 0.0096228 -0.25174 -0.0027069
680000000 -0.23943 0.18489 -0.026291 -0.014537 0.0051562 0.004948 0.002059 -0.0068634
-0.0019849 -0.011429 0.005596 -0.0076836
-0.026261 -0.014519 -0.3898 0.15023 -0.032259 -0.0021812 -0.0017742 -0.0012063
-0.0012613 -0.0089587 -0.00055721 -0.0026479
0.0051582 0.004956 -0.032303 -0.0021022 -0.1036 0.28099 -0.00084014 -0.00055718
-0.0015532 0.00038784 -0.0029079 -0.0094008
0.0020479 -0.0068856 -0.0017469 -0.001141 -0.00082298 -0.00057447 -0.22004 0.19846
-0.023551 -0.0082393 -0.0098543 -0.011489
-0.0021455 -0.011496 -0.0013636 -0.0089933 -0.0015803 0.00037898 -0.023559 -0.0081379
-0.27819 0.056157 -0.0077749 -0.0069445
0.0057358 -0.0076729 -0.00058425 -0.002644 -0.0028983 -0.009422 -0.0099334 -0.011422
-0.00786 -0.0068451 -0.2586 0.09751
740000000 -0.19276 0.17785 -0.03922 0.026873 0.014007 -0.0046325 -0.00029212 -0.0040346
-0.0042607 -0.0036266 -0.0063457 0.0033823
-0.03919 0.026851 -0.33547 0.1692 -0.036592 0.034415 -0.00054938 -0.0058126
-0.012092 0.0073142 -0.0017201 -0.0056009
0.013975 -0.0046344 -0.036526 0.034568 -0.069076 0.27862 -0.0020415 0.0033267
-0.0030583 -0.0060072 -0.0016704 0.0014274
-0.0003936 -0.0040618 -0.00059046 -0.0058182 -0.0020524 0.003338 -0.20397 0.20484
-0.041355 -0.0069308 0.022656 0.015195
-0.004401 -0.003584 -0.012264 0.0073826 -0.0031455 -0.006161 -0.041664 -0.0069947
-0.18282 0.08277 -0.041443 0.0011874
-0.0064056 0.0033617 -0.0017568 -0.0055502 -0.0017129 0.0015148 0.02268 0.015166
-0.041231 0.0012917 -0.24747 0.10519
800000000 -0.16177 0.22119 -0.022555 0.016011 0.0055487 -0.010371 -0.0044202 -0.0023808
-0.0044985 0.0023857 0.0040168 0.00015317
-0.022528 0.016005 -0.341 0.23928 -0.008681 0.033947 -0.0025751 0.0020536
-0.0015908 0.0028033 0.00048686 0.0048452
0.0055438 -0.010419 -0.0085916 0.034012 -0.031167 0.30222 0.00074797 0.0014373
-0.00014527 0.0036388 -0.0021739 0.00087062
-0.0043771 -0.0023175 -0.0025659 0.0021191 0.00075625 0.0014571 -0.17358 0.23218
-0.028697 0.013357 0.014029 -0.010334
-0.0044824 0.0023542 -0.0015379 0.0027836 -0.00011381 0.0036012 -0.028695 0.013311
-0.22009 0.11236 -0.017357 0.019259
0.0041138 5.7285e-05 0.00050857 0.0047902 -0.002185 0.00082788 0.014067 -0.010343
-0.01734 0.019281 -0.24011 0.15241
860000000 -0.12736 0.24145 -0.017756 0.030269 -0.0028628 -0.010261 -0.0019477 0.00089093
0.0039062 0.0058793 -0.0031638 -0.0025879
-0.017715 0.030219 -0.2924 0.28192 0.0074184 0.03433 0.00028992 0.0019491
0.0037453 0.0012869 0.0041539 0.00017812
-0.0028822 -0.010261 0.0075133 0.034343 0.016522 0.31039 -0.00050275 -3.561e-05
0.0022468 -0.0010489 0.0018325 0.004241
-0.0020108 0.00085817 0.00026871 0.00191 -0.00051101 -5.4094e-05 -0.13692 0.24351
-0.017504 0.017475 -0.006061 -0.0084663
0.0038929 0.0059073 0.0037569 0.0012872 0.0022199 -0.001038 -0.017533 0.017544
-0.16348 0.16329 -0.023893 0.017355
-0.0031447 -0.0024121 0.0041825 0.00018469 0.0018544 0.0042974 -0.0061016 -0.008472
-0.023827 0.017261 -0.18683 0.19624
920000000 -0.10332 0.26411 0.0045553 0.038053 -0.0092016 -0.0050553 -0.0021134 0.0015819
0.0017784 0.0016829 0.0027168 -0.0016032
0.004527 0.037975 -0.26563 0.30332 0.028033 0.022661 0.0014715 0.0013743
0.0077187 -0.00016525 0.0039538 -0.0026296
-0.009226 -0.0050312 0.028138 0.022609 0.06167 0.31177 0.0019987 9.3495e-05
0.0011656 -0.00032223 0.00072544 -0.0013196
-0.0021262 0.0015614 0.0015085 0.0013992 0.0019989 0.00011034 -0.11311 0.25915
-0.010587 0.030363 0.0033421 -0.0068086
0.0017722 0.001796 0.0077706 -0.00014792 0.0011617 -0.00034442 -0.010482 0.030504
-0.15335 0.16685 -0.0021867 0.026446
0.0026956 -0.0016586 0.0039483 -0.0026577 0.00070914 -0.0013273 0.0033624 -0.0068785
-0.002197 0.026369 -0.19581 0.2112
980000000 -0.057003 0.28409 0.016782 0.029872 -0.0095311 0.0040903 0.0018775 0.0034211
0.0040737 -0.0015623 -0.0027714 -0.0025393
0.016761 0.029836 -0.21239 0.33793 0.033291 0.0054476 0.0020439 -0.00029592
0.0018981 -0.0059548 2.7193e-05 -0.0025909
-0.0095171 0.0041163 0.033338 0.0053465 0.10744 0.3063 0.00070786 -0.0012989
0.00059979 -0.0019294 0.0015178 -0.00016046
0.001894 0.0033949 0.002069 -0.00028911 0.00070619 -0.0013003 -0.07438 0.27047
0.0070792 0.030116 -0.0091672 -0.0067813
0.0040528 -0.0016129 0.0018828 -0.0059899 0.00063426 -0.0019361 0.007119 0.030095
-0.11902 0.1977 0.0062694 0.01944
-0.002767 -0.002562 -1.2688e-07 -0.0026308 0.0015081 -0.00018237 -0.0092102 -0.0067065
0.0061732 0.01944 -0.15274 0.25354
1040000000 -0.015716 0.29302 0.032759 0.01895 -0.0017122 0.00694 0.0024543 0.0010629
0.00033243 -0.0037291 0.00010219 -0.001471
0.032713 0.018924 -0.17761 0.3515 0.03002 -0.014508 0.0015518 -0.0017393
-0.0019908 -0.0029534 -0.00097158 -0.0028257
-0.001682 0.0069439 0.029991 -0.014619 0.15328 0.29338 -0.00050125 -0.0015911
-0.0016367 -0.00094623 -0.00060267 -0.0010261
0.0024322 0.0010301 0.0015458 -0.0017271 -0.00050452 -0.0015915 -0.047366 0.28
0.019283 0.018775 -0.0027647 0.0011542
0.00027323 -0.0036699 -0.0020506 -0.0028905 -0.0016546 -0.0008915 0.019389 0.018824
-0.085786 0.20394 0.014237 0.017725
3.8081e-05 -0.0013829 -0.00095709 -0.0028337 -0.0005888 -0.0010126 -0.0027239 0.0010986
0.014277 0.017701 -0.13006 0.27393
1100000000 0.029068 0.30256 0.03628 -0.003451 0.0027194 0.0041706 0.0024775 -0.0011241
-0.0021319 -0.0029744 -0.0040352 -0.00017109
0.03625 -0.0034397 -0.13463 0.36946 0.016014 -0.027888 0.00013014 -0.0018535
-0.0038039 -0.0010424 -0.0036567 -0.00040461
0.0027365 0.0041694 0.015926 -0.027979 0.19939 0.27418 -0.0019604 -8.0437e-06
-0.0018332 0.00038308 -0.00105 -0.00041233
0.0025079 -0.0011139 0.00014525 -0.0018473 -0.0019643 -1.5779e-05 -0.0072813 0.28525
0.025028 0.0056726 -0.0024764 1.1641e-05
-0.0021888 -0.0029971 -0.0038432 -0.0010141 -0.0018411 0.00038502 0.025036 0.0056006
-0.065262 0.21629 0.01956 0.0080384
-0.0040879 -0.00020762 -0.0036811 -0.0003973 -0.0010498 -0.00043154 -0.0024851 1.9196e-05
0.019507 0.0081233 -0.084061 0.30208
1160000000 0.079846 0.29874 0.02439 -0.020525 0.0027086 -0.00037083 -0.0001892 -0.0021572
-0.0039947 -0.00080141 -0.0010994 0.0039812
0.024381 -0.020498 -0.091311 0.37426 -0.0032333 -0.02969 -0.0017019 -0.001673
-0.0027234 0.0025858 -0.0015204 0.0018223
0.0027182 -0.00037116 -0.0033805 -0.029697 0.24282 0.24419 -0.00095015 0.0017717
-0.0006638 0.0019609 -0.00086836 0.00042018
-0.00020723 -0.0021828 -0.0016957 -0.0016583 -0.00096037 0.0017574 0.0321 0.28256
0.021432 -0.01042 -0.003331 0.0049914
-0.0039793 -0.00079366 -0.0027236 0.0025831 -0.00068255 0.0019622 0.021437 -0.010449
-0.03048 0.22399 0.018558 -0.00097518
-0.0010766 0.0040439 -0.0014724 0.0018233 -0.00086395 0.00042824 -0.0033279 0.0049938
0.01857 -0.0009628 -0.036382 0.30449
1220000000 0.12384 0.2889 0.010976 -0.030182 -0.0016295 -0.00081491 9.8428e-05 -0.00092058
-0.0027942 0.0022043 0.0010188 0.0021068
0.010989 -0.030171 -0.047524 0.38743 -0.016945 -0.022001 -0.0027063 0.00047768
-5.167e-05 0.0033104 -0.00085404 0.0020732
-0.0016256 -0.00081564 -0.017063 -0.021958 0.28196 0.20579 0.00076328 0.0018602
0.00068133 0.0013087 0.00027789 0.00058265
0.00011257 -0.00092914 -0.0027049 0.00048263 0.00076576 0.0018608 0.072097 0.27404
0.010955 -0.017482 0.0018703 0.0014652
-0.002772 0.0021929 -1.711e-05 0.0032966 0.00067196 0.0013067 0.010975 -0.017494
-0.0067877 0.2315 0.013827 -0.013243
0.0010191 0.0020832 -0.0008535 0.0020645 0.00031339 0.00057232 0.0018839 0.0014771
0.013755 -0.01323 -0.0049427 0.31914
1280000000 0.17418 0.26874 -0.0076559 -0.028859 -0.0019672 0.0025852 -0.00084221 -0.0020258
-0.00077276 0.0031524 0.0026723 0.0013509
-0.0076281 -0.02881 -0.0015258 0.37939 -0.024326 -0.0090942 -0.00094219 0.0015602
0.0017966 0.0018585 0.00057174 0.0020934
-0.0019471 0.0025973 -0.0244 -0.0089824 0.31292 0.16247 0.0016123 2.7919e-05
0.0012812 0.0002721 0.00019723 0.00027378
-0.00085939 -0.0020273 -0.0009389 0.0015711 0.001607 3.0066e-05 0.10932 0.25822
0.001038 -0.019707 -4.6968e-05 0.00038018
-0.00075046 0.0031465 0.0018132 0.0018591 0.001298 0.00025094 0.0010029 -0.019678
0.029668 0.23457 0.0027828 -0.015536
0.0026735 0.001369 0.00057687 0.0020908 0.0002006 0.00027462 -6.6251e-05 0.00039104
0.0028294 -0.015533 0.04187 0.32096
1340000000 0.21168 0.23587 -0.017656 -0.019182 0.00082699 0.0048623 -0.0018576 -0.00092358
0.0013949 0.002653 0.0016951 -0.001397
-0.017629 -0.019185 0.038109 0.37205 -0.022207 0.0040999 -0.00011549 0.002184
0.0021385 0.00077666 0.0012059 0.00075265
0.00084625 0.0048567 -0.022216 0.0042208 0.33518 0.1153 0.0011917 -0.00092082
0.00068661 -0.0006563 -8.8971e-05 0.000162
-0.0018341 -0.0009504 -0.00011541 0.0021856 0.0012017 -0.00090939 0.14256 0.23728
-0.0086816 -0.017075 0.0007918 0.00055539
0.0014132 0.0026758 0.0021299 0.00076202 0.00069863 -0.0006737 -0.0087471 -0.017044
0.059521 0.2297 -0.0038277 -0.014172
0.0016857 -0.0014368 0.0012219 0.00074295 -0.00010353 0.00017986 0.00080807 0.00055666
-0.0039323 -0.01414 0.079685 0.31478
1400000000 0.24575 0.19886 -0.023609 -0.0075782 0.0054307 0.0034768 -0.0022571 0.00056142
0.0024828 0.0010151 0.00038155 -0.001632
-0.023575 -0.007582 0.075812 0.35981 -0.015479 0.012655 0.0014142 0.0013028
0.0013295 -0.00083328 0.0011988 0.000155
0.0054417 0.0034365 -0.015433 0.012752 0.34853 0.062402 9.3572e-05 -0.0016967
4.5951e-05 -0.00044465 0.00033309 0.00028397
-0.0022772 0.00060502 0.0014307 0.0012941 7.8453e-05 -0.0017066 0.17235 0.20846
-0.014835 -0.010127 -0.00068979 -0.00011141
0.0024971 0.00099269 0.0013329 -0.00085098 4.0476e-05 -0.00044634 -0.014871 -0.010128
0.092266 0.22483 -0.010638 -0.0086158
0.00038979 -0.0015837 0.0011856 0.00013643 0.00035741 0.00027218 -0.00069999 -0.00010596
-0.010581 -0.0086769 0.12375 0.30361
1460000000 0.26944 0.15525 -0.020454 0.0048079 0.0060305 -0.0017316 -0.001679 0.0017686
0.0022073 -0.00048691 -0.00043832 -0.001057
-0.020443 0.0047906 0.11064 0.33837 -0.0064432 0.015981 0.0017932 0.00014716
0.00089931 -0.0013712 0.0012204 -0.00062725
0.0060257 -0.0017608 -0.0063658 0.016024 0.35535 0.0086064 -0.0011795 -0.0014018
0.000128 -0.00016719 0.00061298 -0.00023236
-0.0016762 0.001758 0.0017826 0.0001522 -0.0011838 -0.0013845 0.19912 0.17875
-0.016133 -0.0032147 -0.00074659 0.0020988
0.0021737 -0.00049301 0.00090629 -0.0013778 0.00014506 -0.00014991 -0.01615 -0.0031855
0.12188 0.2104 -0.012401 -0.0027453
-0.00049461 -0.0010522 0.0012341 -0.00064548 0.00059927 -0.00022504 -0.0007518 0.0020871
-0.012451 -0.0027538 0.15666 0.2831
1520000000 0.28236 0.11369 -0.014742 0.010344 0.0036248 -0.0044057 0.00015289 0.0026224
0.0021583 -0.0019276 -0.0012864 -0.00012589
-0.01474 0.010326 0.14453 0.32403 0.0017037 0.01365 0.0016371 -0.00084033
3.5215e-06 -0.0011919 0.00034585 -0.0010913
0.0036026 -0.0044276 0.0017848 0.013661 0.34909 -0.047363 -0.0011607 -0.00040221
0.00065617 -0.00086829 6.6674e-05 -0.00030141
0.00016221 0.0026415 0.0016298 -0.00084677 -0.0011645 -0.00040521 0.22212 0.14017
-0.015395 0.0028626 0.0016806 0.002046
0.0021676 -0.0019583 -1.1988e-05 -0.0011759 0.00065974 -0.00086677 -0.0154 0.0028907
0.14983 0.19727 -0.011941 0.001951
-0.0012526 -0.00014595 0.00032797 -0.0010914 7.0845e-05 -0.00030287 0.001693 0.0020526
-0.011988 0.0018934 0.18923 0.26213
1580000000 0.29252 0.06758 -0.0080017 0.013495 -0.00091693 -0.0052806 0.0014977 0.0020117
-0.00013147 -0.0022069 -0.00022325 0.00043089
-0.0079902 0.01348 0.17223 0.29947 0.0056344 0.0085614 0.00050593 -0.0015959
-0.00059421 -0.0010828 -0.00023114 -0.00089707
-0.00095247 -0.005278 0.0056869 0.0085374 0.32988 -0.1046 -0.0016867 0.00068929
-0.0003272 -0.0012281 0.000211 -0.00060066
0.0015139 0.0020048 0.0004989 -0.0015946 -0.0016926 0.00068634 0.23586 0.10062
-0.01187 0.0079632 0.0021435 0.0006891
-0.00018162 -0.0021959 -0.00059454 -0.0010734 -0.00031729 -0.0012172 -0.011854 0.0079654
0.17399 0.17935 -0.0093424 0.0075145
-0.00022746 0.00048809 -0.00020937 -0.00092162 0.00020943 -0.0006135 0.0021346 0.00066921
-0.0093366 0.0075287 0.22096 0.23527
1640000000 0.29502 0.026222 -0.0012219 0.01223 -0.0030104 -0.0029082 0.0027868 0.0010561
-0.00082682 -0.0016538 -0.0004795 0.00069617
-0.0012355 0.012232 0.20217 0.27468 0.0063562 0.0034773 -0.00068605 -0.0017706
-0.0010791 -0.00041998 -0.00055016 -0.00072302
-0.003039 -0.0028969 0.0063899 0.0034344 0.30197 -0.15424 -0.00066033 0.0014543
-0.0011274 -0.00097821 -0.00024221 -0.00025259
0.0027953 0.0010548 -0.00070173 -0.0017672 -0.00065885 0.0014696 0.24803 0.051545
-0.0074237 0.0094638 0.0026441 -0.00080586
-0.00084274 -0.0016813 -0.0010919 -0.00038049 -0.001123 -0.00094345 -0.0073638 0.0095284
0.19739 0.15537 -0.0045674 0.0095437
-0.00047905 0.00066769 -0.00056274 -0.00070461 -0.00024091 -0.00025205 0.002684 -0.00083593
-0.0045734 0.009558 0.24605 0.20433
1700000000 0.28834 -0.019022 0.0021548 0.009417 -0.0039177 -0.00011587 0.0031451 -0.001251
-0.0020732 -0.00066569 0.00063175 0.00036801
0.0021417 0.0094027 0.22049 0.2433 0.0041973 0.00036406 -0.0015004 -0.00059027
-0.00079682 4.2654e-05 -0.00094764 -0.00044222
-0.0039233 -8.5719e-05 0.0041885 0.0003389 0.25889 -0.19446 0.00044552 0.0016187
-0.0020134 -0.00016024 -0.00036497 -0.00078882
0.0031376 -0.0012736 -0.0015031 -0.00056691 0.0004575 0.0016156 0.24447 0.0017004
-0.004278 0.0099011 0.0016333 -0.0022486
-0.0020889 -0.00062301 -0.00081766 4.3148e-05 -0.0020215 -0.00016849 -0.004291 0.0098423
0.21487 0.13506 3.8229e-05 0.0098174
0.00064053 0.00038208 -0.00098389 -0.00044495 -0.00038914 -0.00077947 0.0015875 -0.0022603
1.5008e-05 0.0097754 0.2623 0.16966
1760000000 0.27664 -0.067777 0.0044662 0.0060041 -0.0024704 0.0010676 0.0013257 -0.0035493
-0.0014864 0.00073106 0.00027454 -0.00041963
0.0044539 0.0060086 0.2469 0.2036 0.001783 -0.0015587 -0.0012322 0.00019531
-0.0011372 0.00092545 -0.00074406 0.00042664
-0.0024783 0.0010854 0.0017835 -0.0015675 0.21086 -0.22765 0.0011222 0.0010779
-0.0012725 0.0015837 -0.0013046 -0.00066436
0.0013038 -0.003567 -0.0012321 0.00019188 0.0011092 0.0010783 0.23535 -0.049625
-0.00083878 0.0088721 -0.0002394 -0.0025667
-0.0014797 0.00071383 -0.0011048 0.00093515 -0.0012853 0.0015395 -0.00083665 0.0089319
0.23021 0.10035 0.0038508 0.0071992
0.00025195 -0.00042697 -0.00072429 0.00042529 -0.0013255 -0.00069058 -0.00022801 -0.0025616
0.0038321 0.0072967 0.27519 0.13242
1820000000 0.25226 -0.10536 0.0044746 0.0023838 -0.00035141 0.0025048 -0.00095329 -0.0031573
-0.0010928 0.001088 -2.585e-05 -2.018e-05
0.0044734 0.0023864 0.25724 0.17338 -0.00065238 -0.00051844 -0.0013098 0.00091366
-7.7168e-05 0.0012729 -0.00058669 0.00054366
-0.00034042 0.0025153 -0.0006494 -0.00051171 0.15989 -0.24403 0.0016016 0.00027764
-0.00018016 0.0023958 -0.00143 0.00038983
-0.00098009 -0.003157 -0.0012974 0.00091785 0.001588 0.00029636 0.20535 -0.096967
0.00094277 0.0075163 -0.0016553 -0.0015917
-0.0010247 0.0011446 -5.2197e-05 0.0012786 -0.00017599 0.0023769 0.00087677 0.007452
0.24751 0.071469 0.0047938 0.0037664
6.0396e-06 -4.9887e-05 -0.0005738 0.00054872 -0.0014453 0.00039381 -0.0016691 -0.0015401
0.0048051 0.0036741 0.27679 0.095813
1880000000 0.2173 -0.14583 0.0022303 6.016e-05 -0.00060959 0.0021542 -0.0028966 -0.0022173
-0.00016331 0.0017987 7.5938e-05 -0.00064404
0.0022224 5.2597e-05 0.26191 0.12687 -0.0026726 0.0014913 -0.00023401 0.0017801
0.00060591 0.001385 4.2017e-05 0.00093334
-0.00059114 0.002169 -0.0026936 0.0015157 0.10793 -0.25319 0.0016004 -0.00091563
0.0016125 0.0018794 -0.00096963 0.0013389
-0.0028889 -0.0022043 -0.00023768 0.0017932 0.001628 -0.00092278 0.16466 -0.13672
0.0016276 0.0053717 -0.0024519 0.0003749
-0.00018879 0.0017906 0.00059754 0.0013672 0.001588 0.0019059 0.0017429 0.0053492
0.25151 0.039833 0.0050312 0.0013775
2.8525e-05 -0.00062776 3.8172e-05 0.00093869 -0.00092266 0.0014025 -0.002495 0.00032076
0.0050862 0.0013826 0.27677 0.061915
1940000000 0.17793 -0.17146 -0.0004011 -0.0015204 0.0013639 0.0022334 -0.0036895 0.00034541
0.0014326 0.0010219 -0.00055956 -0.0005386
-0.00038511 -0.0015195 0.26269 0.094885 -0.0016301 0.0040934 0.0012134 0.0011943
0.0019725 0.00052734 0.00097021 0.0004813
0.0013941 0.0022389 -0.0015734 0.0041118 0.062117 -0.24601 0.00060766 -0.002299
0.0024711 0.00031895 0.00048049 0.0017471
-0.0037078 0.00039403 0.0012285 0.0011683 0.0005755 -0.0023168 0.11224 -0.16734
0.0010117 0.0038439 -0.0013355 0.0015006
0.0014522 0.0010371 0.001972 0.00052037 0.0024686 0.00031201 0.0009732 0.0038171
0.25475 0.00133 0.0038784 -0.0016852
-0.00051945 -0.00054563 0.00098656 0.00048971 0.00047431 0.0017465 -0.00131 0.0015462
0.0038414 -0.0017013 0.26571 0.02613
2000000000 0.13222 -0.18635 -0.0041609 0.00075936 0.0027161 0.0018093 -0.0023337 0.0038461
0.0012804 0.000377 -0.00048344 0.00031436
-0.0041645 0.00075507 0.2485 0.059235 -0.0010766 0.0059651 0.0016476 0.00038086
0.0015821 -0.0011421 0.00063379 0.00013439
0.0027115 0.0017721 -0.0010394 0.0059895 0.019235 -0.23233 -0.0012041 -0.0014939
0.002214 -0.0011796 0.0016822 0.0014637
-0.0022884 0.0038865 0.0016716 0.0003794 -0.0012153 -0.001491 0.058836 -0.17712
-0.00037529 0.0036264 -5.295e-05 0.0021801
0.0012727 0.00038483 0.0015842 -0.0011631 0.0021517 -0.0011678 -0.00035047 0.0036688
0.24964 -0.031928 0.00094466 -0.0028998
