!Keysight Technologies,M9804A,MY58100912,A.14.10.03
!Date: Thursday, April 27, 2023 10:28:33
!Correction: S11(C  6-Port  ) 
!S12(C  6-Port  ) 
!S13(C  6-Port  ) 
!S14(C  6-Port  ) 
!S15(C  6-Port  ) 
!S16(C  6-Port  ) 
!S21(C  6-Port  ) 
!S22(C  6-Port  ) 
!S23(C  6-Port  ) 
!S24(C  6-Port  ) 
!S25(C  6-Port  ) 
!S26(C  6-Port  ) 
!S31(C  6-Port  ) 
!S32(C  6-Port  ) 
!S33(C  6-Port  ) 
!S34(C  6-Port  ) 
!S35(C  6-Port  ) 
!S36(C  6-Port  ) 
!S41(C  6-Port  ) 
!S42(C  6-Port  ) 
!S43(C  6-Port  ) 
!S44(C  6-Port  ) 
!S45(C  6-Port  ) 
!S46(C  6-Port  ) 
!S51(C  6-Port  ) 
!S52(C  6-Port  ) 
!S53(C  6-Port  ) 
!S54(C  6-Port  ) 
!S55(C  6-Port  ) 
!S56(C  6-Port  ) 
!S61(C  6-Port  ) 
!S62(C  6-Port  ) 
!S63(C  6-Port  ) 
!S64(C  6-Port  ) 
!S65(C  6-Port  ) 
!S66(C  6-Port  ) 
!S6P File: Measurement: :
# Hz S  RI   R 50
500000000 -0.33548 -0.053835 -0.010541 -0.0017825 -0.0082384 0.013538 -0.0044487 0.01259
0.011994 0.0057277 -0.0045115 0.0090615
-0.010622 -0.0020611 -0.41623 -0.063188 0.0083076 -0.010455 0.00069502 0.012001
0.0081358 0.0033099 0.00039595 0.013479
-0.0084592 0.013109 0.00816 -0.010541 -0.26678 0.19912 0.0065422 0.0038417
-0.0013139 0.0083857 8.8787e-05 0.012497
-0.0044426 0.012875 0.00084231 0.012187 0.006539 0.0038222 -0.33284 0.043154
-0.017778 -0.005459 0.014989 0.024067
0.012354 0.0047172 0.0080622 0.0030286 -0.0012715 0.0083656 -0.01781 -0.0053899
-0.24837 -0.19448 -0.025221 0.0043315
-0.0047662 0.0090783 0.00041589 0.013526 1.3062e-05 0.012451 0.014845 0.024146
-0.025131 0.0042305 -0.2736 -0.12438
560000000 -0.31907 0.11262 -0.022967 -0.065051 9.4132e-05 0.012963 0.0051468 0.011051
0.010754 0.0047536 0.010182 0.0078325
-0.022967 -0.064405 -0.37613 0.099219 -0.042268 -0.037378 0.013769 0.0032824
-0.013094 -0.0043927 0.003854 -0.001127
-0.00012056 0.01268 -0.042266 -0.037255 -0.18593 0.2498 -0.0004383 -0.00473
0.018653 0.004563 0.0079644 -0.0056394
0.0051465 0.010958 0.013778 0.0030415 -0.00041645 -0.0047032 -0.30691 0.13441
0.0050789 -0.022708 0.0056921 -0.021723
0.010301 0.0044089 -0.01319 -0.0043665 0.018769 0.0046659 0.0049648 -0.022912
-0.30974 -0.018283 0.0076826 -0.046485
0.0098845 0.0080033 0.0039329 -0.0013029 0.0079493 -0.005539 0.0057307 -0.021733
0.0075505 -0.046307 -0.33102 0.025384
620000000 -0.27777 0.093247 -0.023191 0.0087105 0.003826 0.0090782 0.0080505 -0.0047682
0.012148 -0.00081334 -1.6293e-05 -0.0024587
-0.023112 0.0084974 -0.40333 0.048845 -0.018375 0.00056453 -0.0015731 -0.001837
0.012472 -0.006822 0.00096892 -0.0029364
0.0037266 0.0092128 -0.018446 0.00067285 -0.15547 0.26011 -0.00037123 -0.0049932
-0.0034858 -0.0032771 0.0094763 -0.0028212
0.0080439 -0.0047677 -0.0016097 -0.0018343 -0.00036581 -0.0050573 -0.26506 0.14528
-0.039449 -0.018845 0.014455 0.026208
0.012061 -0.0005394 0.012585 -0.006843 -0.0034964 -0.0032953 -0.039493 -0.018766
-0.23087 -0.050604 -0.042507 0.013658
-0.00029389 -0.0024058 0.00094831 -0.00297 0.0094616 -0.0028907 0.014296 0.02614
-0.042589 0.01371 -0.24861 -0.0077801
680000000 -0.23915 0.18357 -0.026212 -0.014504 0.0053357 0.0051148 0.0012709 -0.0074003
-0.0024406 -0.012132 0.0057233 -0.0070645
-0.02624 -0.014598 -0.38977 0.14988 -0.032403 -0.0019973 -0.0013199 -0.00049972
-0.0019883 -0.0096188 -0.0007647 -0.0018352
0.0051999 0.0050122 -0.032517 -0.001916 -0.10397 0.28051 -0.00072206 -9.3082e-05
-0.0019256 9.7153e-05 -0.0028304 -0.0088994
0.0016182 -0.0075927 -0.0013372 -0.00055699 -0.00068614 -8.5156e-05 -0.22077 0.1968
-0.023427 -0.0072331 -0.0092125 -0.011563
-0.0026852 -0.011781 -0.0020235 -0.0095085 -0.0019223 7.672e-05 -0.023351 -0.0072667
-0.27963 0.05322 -0.0078828 -0.0076783
0.0058263 -0.0076895 -0.00080318 -0.0020592 -0.0027652 -0.0089311 -0.0092021 -0.011562
-0.0078397 -0.0078138 -0.25988 0.095812
740000000 -0.19323 0.17709 -0.039861 0.026739 0.013559 -0.0049779 -0.00044944 -0.0037075
-0.0040552 -0.0038827 -0.0069031 0.003701
-0.039909 0.026696 -0.33586 0.16873 -0.037096 0.034699 -0.00022345 -0.0057136
-0.012519 0.0074036 -0.0010378 -0.0061249
0.013587 -0.0049395 -0.037056 0.034809 -0.070215 0.27792 -0.0021133 0.0034037
-0.0029269 -0.0059346 -0.0015815 0.0014469
-0.00037395 -0.0039989 -0.00016195 -0.0058178 -0.0021828 0.003443 -0.20353 0.20453
-0.043222 -0.007786 0.022707 0.015535
-0.0043083 -0.0034015 -0.012522 0.007546 -0.0029766 -0.0060165 -0.043266 -0.00766
-0.18078 0.079951 -0.042982 0.0010875
-0.0069017 0.0036508 -0.00096002 -0.0061895 -0.0016785 0.001525 0.022704 0.015459
-0.042957 0.0011592 -0.24734 0.10258
800000000 -0.16184 0.22082 -0.022468 0.016581 0.0058972 -0.010655 -0.0042051 -0.0018948
-0.0043015 0.0027669 0.0046982 0.00036237
-0.022457 0.016453 -0.34144 0.2394 -0.0085415 0.034168 -0.0021447 0.0023277
-0.0011028 0.0031741 0.0012529 0.0054384
0.0057337 -0.010588 -0.0084879 0.03431 -0.031489 0.30197 0.0010891 0.001492
-1.7962e-05 0.0036137 -0.001444 0.00090322
-0.0042382 -0.0020278 -0.0021454 0.0023037 0.0010874 0.0014841 -0.1743 0.2318
-0.028922 0.013595 0.014286 -0.0099731
-0.0046401 0.0021605 -0.0011488 0.0032094 4.4738e-06 0.0035697 -0.028931 0.013609
-0.22092 0.10942 -0.017642 0.019578
0.0046062 0.00013994 0.001196 0.0053647 -0.0015055 0.00090282 0.014261 -0.010028
-0.01767 0.019601 -0.23972 0.15119
860000000 -0.12736 0.24071 -0.018014 0.030474 -0.0028703 -0.010455 -0.0016772 0.00046216
0.0038751 0.0047937 -0.0033378 -0.0028285
-0.018015 0.030364 -0.29306 0.28216 0.0074541 0.034561 0.00010303 0.002016
0.0037578 0.00062236 0.0032451 0.00032891
-0.0029562 -0.010477 0.0075956 0.034572 0.016049 0.31066 -0.00074051 -0.00020033
0.0023488 -0.0014776 0.0017234 0.0041221
-0.0015881 0.00045457 0.00011138 0.0019772 -0.00075485 -0.00018006 -0.13779 0.24255
-0.018909 0.018096 -0.0060164 -0.0087083
0.0037499 0.0047669 0.0038001 0.00061836 0.0023401 -0.001446 -0.018898 0.018163
-0.16585 0.15984 -0.024632 0.016924
-0.0032409 -0.0029702 0.0032045 0.00024659 0.0017313 0.0040782 -0.0059327 -0.0087844
-0.024598 0.016858 -0.19026 0.19494
920000000 -0.10381 0.26421 0.004524 0.038383 -0.0092011 -0.0050641 -0.0018051 0.0018284
0.0012997 0.002018 0.0028156 -0.0013379
0.0044932 0.038277 -0.26606 0.30335 0.02818 0.022946 0.0015008 0.0012859
0.0074608 -0.00030624 0.0041995 -0.0028895
-0.0092625 -0.0051097 0.028289 0.022893 0.061517 0.31218 0.0019638 5.403e-05
0.001049 -0.00010028 0.0011668 -0.0013686
-0.0018369 0.0017254 0.0014375 0.0013064 0.0019749 5.0626e-05 -0.1135 0.2596
-0.011338 0.03084 0.0033726 -0.0064974
0.0012873 0.0020244 0.0074458 -0.00043894 0.0010366 -0.00010355 -0.011283 0.030841
-0.15406 0.16733 -0.0018237 0.02634
0.0029327 -0.0015397 0.0040932 -0.0028056 0.001181 -0.0013841 0.0033677 -0.0064214
-0.0018065 0.026322 -0.19677 0.20961
980000000 -0.057336 0.28453 0.016923 0.030266 -0.0095494 0.0041906 0.0017627 0.0036389
0.0041733 -0.0017958 -0.0028221 -0.0024014
0.017055 0.030252 -0.21292 0.33823 0.033579 0.0054503 0.0019731 -7.3354e-05
0.0018534 -0.0061428 -0.00020621 -0.002304
-0.0094536 0.0042514 0.033601 0.0053587 0.10748 0.30663 0.00074446 -0.0011571
0.00064057 -0.001944 0.0016151 -0.00021141
0.0017999 0.0036688 0.0019765 -0.00010657 0.00075012 -0.0011551 -0.075246 0.27096
0.0075337 0.030582 -0.0090112 -0.0071294
0.0043263 -0.001812 0.0017748 -0.0061663 0.00064456 -0.0019466 0.0075823 0.03059
-0.12092 0.19623 0.0064085 0.019913
-0.0029449 -0.0024733 -0.00017331 -0.0022658 0.0016351 -0.00020227 -0.0090341 -0.00709
0.0063862 0.019911 -0.15363 0.25233
1040000000 -0.015893 0.29367 0.033114 0.019187 -0.001637 0.0071002 0.0027038 0.00066366
0.00047639 -0.0035129 -0.0002058 -0.0017902
0.032963 0.019164 -0.17776 0.35196 0.030251 -0.014617 0.0017452 -0.0017697
-0.0020847 -0.0027034 -0.0009167 -0.0028945
-0.001621 0.0071227 0.030237 -0.014742 0.15352 0.29365 -0.0004089 -0.0017675
-0.0015991 -0.0010317 -0.00046894 -0.0013254
0.0027494 0.00070898 0.001745 -0.0017797 -0.00041714 -0.0017695 -0.047412 0.28057
0.019763 0.019229 -0.0023404 0.001111
0.00039645 -0.0035122 -0.0021133 -0.0026811 -0.0016213 -0.00099597 0.019847 0.019167
-0.087244 0.20275 0.013936 0.01836
-0.00017716 -0.0017451 -0.00093965 -0.002825 -0.00047387 -0.0013143 -0.0024137 0.0011086
0.013958 0.018373 -0.13046 0.27312
1100000000 0.028976 0.30281 0.036572 -0.0034763 0.0028077 0.0043033 0.0024183 -0.001156
-0.0021379 -0.0032829 -0.0040967 -0.00019297
0.036515 -0.0034866 -0.13465 0.37017 0.016023 -0.028156 -6.3216e-06 -0.0019178
-0.0036873 -0.0011698 -0.0036358 -0.0005949
0.0028138 0.0043268 0.015927 -0.02824 0.19977 0.27431 -0.0020033 7.3728e-05
-0.0018246 0.00041534 -0.0011075 -0.00050368
0.0024082 -0.001179 -2.6074e-05 -0.0019156 -0.0019947 7.1661e-05 -0.0070161 0.28578
0.025515 0.0055021 -0.0023409 6.1549e-05
-0.0020706 -0.0032712 -0.0036557 -0.001154 -0.0018158 0.00040952 0.025541 0.0054673
-0.06651 0.21556 0.019578 0.0081725
-0.0040492 -0.0001587 -0.0036383 -0.00060259 -0.0011035 -0.00050277 -0.0023492 5.1632e-05
0.019566 0.0082158 -0.085318 0.3018
1160000000 0.080145 0.29893 0.024694 -0.020689 0.0028772 -0.00042022 -0.00014508 -0.0024753
-0.0039854 -0.00089767 -0.0010545 0.0042218
0.024669 -0.020664 -0.091105 0.37499 -0.0033244 -0.029867 -0.001715 -0.0017726
-0.0028027 0.0026297 -0.0014428 0.0019238
0.0028824 -0.00039905 -0.0034681 -0.029888 0.24318 0.24417 -0.00079564 0.0018687
-0.00066815 0.0020179 -0.00098414 0.00027567
-0.00016879 -0.00248 -0.0016924 -0.0017819 -0.00079401 0.0018576 0.032597 0.28312
0.021987 -0.010801 -0.0033048 0.0052268
-0.0039849 -0.00084114 -0.0027322 0.0026654 -0.00066103 0.0020366 0.021977 -0.010845
-0.032306 0.22348 0.018794 -0.00081164
-0.00095866 0.0041845 -0.0014545 0.0019707 -0.0010066 0.00028226 -0.0033019 0.0052014
0.018779 -0.00081613 -0.038067 0.30471
1220000000 0.12433 0.28908 0.011175 -0.030391 -0.0015097 -0.00093767 -2.3861e-05 -0.00089709
-0.002742 0.002193 0.0011195 0.0021316
0.011188 -0.030371 -0.046889 0.38806 -0.017131 -0.022059 -0.0027317 0.00049134
-2.5992e-05 0.0031627 -0.00082515 0.0020161
-0.0015039 -0.00093936 -0.01725 -0.021998 0.28249 0.20551 0.00073753 0.0018229
0.00058534 0.001259 0.00026609 0.00069761
-2.3373e-05 -0.00091144 -0.0027334 0.00050043 0.00073934 0.0018216 0.072877 0.27437
0.011152 -0.01781 0.0019799 0.0013028
-0.0027304 0.0022453 -2.0035e-05 0.0032229 0.00057658 0.0012634 0.011142 -0.017793
-0.0083771 0.23197 0.013865 -0.01349
0.001137 0.002119 -0.00079597 0.0019629 0.00029212 0.00069827 0.001973 0.0013281
0.013861 -0.01351 -0.0063938 0.31912
1280000000 0.17482 0.26862 -0.0077323 -0.02911 -0.0020279 0.0024978 -0.00082973 -0.0020238
-0.00075014 0.0032312 0.0025479 0.0012559
-0.0077212 -0.029123 -0.00050804 0.37978 -0.024453 -0.0089354 -0.001009 0.0015529
0.0017586 0.0017887 0.00058057 0.0020667
-0.0020166 0.0024817 -0.024525 -0.0088679 0.31323 0.16198 0.0016672 -1.1917e-05
0.001299 0.00028268 0.00034812 0.00022628
-0.00085585 -0.0020199 -0.00098146 0.0015791 0.0016632 -4.6059e-06 0.10997 0.25799
0.00093054 -0.020174 -9.0032e-05 0.00039827
-0.0007455 0.0033066 0.0017877 0.0017751 0.001294 0.00027345 0.00089345 -0.020173
0.028331 0.23512 0.0028248 -0.015719
0.002576 0.0012185 0.00062336 0.0021052 0.00035319 0.00025481 -9.4643e-05 0.00035059
0.0028376 -0.015706 0.040777 0.32102
1340000000 0.21223 0.23555 -0.017764 -0.019466 0.00070697 0.004753 -0.0016962 -0.00080922
0.0014949 0.0026822 0.001852 -0.0013
-0.017735 -0.019461 0.039149 0.3719 -0.022189 0.0042385 -6.1425e-05 0.0020532
0.0020405 0.00084157 0.0013162 0.00084235
0.00075096 0.0047666 -0.022192 0.0043589 0.33512 0.11477 0.0011758 -0.00092015
0.00075676 -0.00063579 0.0001093 0.00035474
-0.001735 -0.00084638 -5.8632e-05 0.0020595 0.00119 -0.00092245 0.14304 0.23687
-0.0089862 -0.017349 0.00059816 0.00047369
0.0014579 0.0026981 0.002029 0.000835 0.00074996 -0.00063762 -0.0090298 -0.017341
0.058699 0.23012 -0.0042072 -0.014297
0.0018832 -0.0013271 0.0013252 0.00082216 0.00011057 0.00032697 0.00062491 0.00051929
-0.0042069 -0.014292 0.078788 0.31533
1400000000 0.24618 0.19824 -0.023843 -0.0077011 0.0053686 0.0034541 -0.0022217 0.00062918
0.0024563 0.00098513 0.0002753 -0.0016258
-0.023799 -0.0077002 0.076742 0.35933 -0.015372 0.012781 0.0014195 0.0013078
0.001304 -0.00076689 0.0012367 0.00013154
0.0053859 0.003424 -0.015329 0.012879 0.34836 0.061775 6.2484e-05 -0.0016481
0.00016178 -0.00045796 0.00040347 0.00017099
-0.0022271 0.00064131 0.0014353 0.0013077 7.4261e-05 -0.0016576 0.1724 0.20773
-0.015244 -0.010059 -0.00079846 -0.00013094
0.0024926 0.00093461 0.0013101 -0.00077396 0.00016608 -0.00046415 -0.015252 -0.010032
0.09191 0.2253 -0.010717 -0.0087525
0.00023085 -0.0016069 0.001228 0.00013202 0.00038959 0.00018837 -0.00081981 -0.00016011
-0.01068 -0.0087575 0.12322 0.30392
1460000000 0.26949 0.15445 -0.020742 0.0048235 0.0059428 -0.0016782 -0.0015488 0.0017557
0.0022461 -0.00047302 -0.00032811 -0.0010677
-0.020732 0.0047874 0.11122 0.33753 -0.0061832 0.015959 0.0016938 0.00012823
0.00089279 -0.0013945 0.0012093 -0.00068454
0.0059356 -0.001696 -0.0061055 0.016014 0.35492 0.0080102 -0.0011873 -0.0012973
0.00010633 -0.00019579 0.00075348 -0.00023658
-0.0015588 0.0017527 0.0016986 0.00011248 -0.0012049 -0.0013012 0.19886 0.17814
-0.016483 -0.0031041 -0.00084254 0.0021364
0.0022107 -0.00050818 0.00089047 -0.0014215 0.00010273 -0.00020574 -0.016501 -0.0030519
0.12133 0.21078 -0.01241 -0.0027727
-0.00036114 -0.0010477 0.0012177 -0.00069254 0.00074538 -0.00023499 -0.00080011 0.0021168
-0.012423 -0.0027874 0.15631 0.28318
1520000000 0.28205 0.11302 -0.015016 0.010522 0.0035631 -0.0043508 7.5814e-05 0.0025882
0.0020706 -0.0019685 -0.0012008 -0.00015276
-0.015012 0.01047 0.14471 0.32318 0.0017781 0.013529 0.0016279 -0.00079509
1.8507e-05 -0.0011541 0.00029306 -0.0010784
0.0035377 -0.0043789 0.0018537 0.01354 0.34868 -0.047647 -0.001049 -0.00040449
0.00065754 -0.0009499 6.1222e-05 -0.00024132
0.0001059 0.0025957 0.0016333 -0.00080077 -0.0010506 -0.00039962 0.22165 0.13971
-0.015583 0.0032307 0.0016098 0.0021427
0.002073 -0.0019888 -7.0515e-06 -0.0011501 0.00066111 -0.00093566 -0.01559 0.0032371
0.14957 0.19724 -0.012071 0.0020723
-0.0011733 -0.00016297 0.00030024 -0.0010932 8.9645e-05 -0.00023869 0.0016146 0.0021352
-0.012063 0.0020589 0.18896 0.26218
1580000000 0.29215 0.067129 -0.0080628 0.013784 -0.00089232 -0.0051972 0.0014971 0.0019417
-0.0002974 -0.0022548 -0.00029178 0.00045689
-0.0080658 0.013759 0.17208 0.29869 0.0055874 0.0083925 0.00053432 -0.0015894
-0.00061096 -0.0010525 -0.00023355 -0.00082077
-0.00092743 -0.005194 0.0056352 0.0083619 0.32945 -0.10502 -0.001751 0.00057693
-0.00033588 -0.0013239 0.00019086 -0.00059346
0.001504 0.0019515 0.00051332 -0.0015978 -0.0017439 0.00058714 0.23514 0.10034
-0.011683 0.008267 0.0022827 0.00068297
-0.00030598 -0.0022383 -0.00061225 -0.0010568 -0.00034709 -0.0013221 -0.01168 0.0083007
0.17389 0.17915 -0.0094881 0.007709
-0.00025847 0.00047512 -0.00024487 -0.00083163 0.00019267 -0.00055824 0.0022857 0.00068599
-0.0095077 0.0077146 0.22025 0.23554
1640000000 0.29473 0.026074 -0.0011812 0.012517 -0.0030473 -0.0027161 0.002712 0.0010629
-0.00080577 -0.0016244 -0.00027664 0.00059036
-0.00116 0.012519 0.20176 0.27411 0.0062332 0.003354 -0.00064907 -0.0018028
-0.0010144 -0.00041824 -0.00057151 -0.00066634
-0.0030268 -0.0026918 0.0062776 0.0033163 0.30155 -0.15435 -0.00071616 0.0014479
-0.0010789 -0.00094922 -0.00021784 -0.00031768
0.0027421 0.0010476 -0.00065634 -0.0017999 -0.00071515 0.0014575 0.24727 0.05173
-0.0072096 0.0095626 0.0025289 -0.0007533
-0.00082876 -0.0016043 -0.0010291 -0.00041659 -0.0010618 -0.00095655 -0.0071457 0.009573
0.19692 0.15499 -0.0046122 0.0097793
-0.00026326 0.00058581 -0.00056702 -0.00067066 -0.0002393 -0.00032805 0.0025064 -0.00078287
-0.0046009 0.0097654 0.24602 0.20457
1700000000 0.288 -0.019145 0.0023264 0.0094922 -0.00375 3.4626e-05 0.0031785 -0.001229
-0.0020365 -0.00061414 0.00056411 0.00046065
0.0023156 0.009485 0.22002 0.24302 0.0040345 0.00031499 -0.0015194 -0.00055572
-0.00082225 6.8197e-05 -0.000904 -0.00042426
-0.0037819 5.6906e-05 0.0040377 0.00029922 0.2585 -0.19448 0.00040036 0.0016445
-0.0020098 -1.3717e-05 -0.00035697 -0.00083102
0.0031856 -0.0012283 -0.0015304 -0.00054407 0.00038919 0.0016356 0.24387 0.0022904
-0.0041101 0.009892 0.0015966 -0.0023191
-0.0020097 -0.00058521 -0.00082494 5.8343e-05 -0.0020192 -3.5953e-06 -0.0041048 0.0099508
0.21421 0.13471 0.00018556 0.0098797
0.00055452 0.00041477 -0.00093615 -0.00041836 -0.00040181 -0.00082639 0.0016211 -0.0022878
0.00016857 0.0099017 0.26192 0.17027
1760000000 0.27637 -0.067806 0.0045747 0.0060443 -0.002258 0.0010057 0.0012313 -0.0034838
-0.0014164 0.0006879 0.00026856 -0.0005118
0.004584 0.0060434 0.24643 0.20359 0.0016346 -0.001521 -0.0012636 0.00018693
-0.0010924 0.00090213 -0.00063315 0.00037062
-0.0022858 0.0010241 0.0016308 -0.0015277 0.21042 -0.228 0.001082 0.0011185
-0.0013599 0.0014913 -0.0011955 -0.00064557
0.0012724 -0.0034211 -0.0012682 0.00020469 0.001073 0.0011273 0.23521 -0.048836
-0.00062272 0.0088633 -0.00014271 -0.0026433
-0.0014095 0.00076328 -0.0010809 0.00090314 -0.0013563 0.0014905 -0.00060789 0.0088279
0.22916 0.10026 0.0043007 0.0072277
0.00036841 -0.00053284 -0.00062913 0.00037561 -0.0011736 -0.00063556 -0.00015589 -0.0026719
0.0043043 0.0072136 0.27457 0.13268
1820000000 0.25212 -0.10515 0.0045481 0.0023974 -0.00013317 0.0024519 -0.00097871 -0.0031229
-0.0011437 0.0010178 -0.00012763 -0.00015701
0.0045546 0.0024172 0.2569 0.17366 -0.00071384 -0.00026212 -0.0012799 0.00096586
-5.4615e-05 0.0012852 -0.00058383 0.0005128
-0.00013076 0.0024659 -0.00068268 -0.00024847 0.15942 -0.24386 0.001584 0.00042215
-0.00018545 0.0023587 -0.0015343 0.00029193
-0.0010002 -0.0030779 -0.0012552 0.00098939 0.0015722 0.00043909 0.2054 -0.096028
0.00071907 0.0073468 -0.0017307 -0.0016745
-0.0011259 0.0010548 -4.2124e-05 0.0012838 -0.00020552 0.002376 0.00073152 0.0073409
0.24623 0.071487 0.0050271 0.0035637
-0.00012843 -8.4304e-05 -0.00060876 0.00051276 -0.0015673 0.00031758 -0.0017451 -0.0016057
0.0050112 0.0035773 0.27656 0.096204
1880000000 0.21731 -0.14575 0.002236 0.00010291 -0.00060075 0.0021371 -0.0029696 -0.0021386
-0.00025907 0.0018233 -3.7147e-05 -0.00060192
0.0022107 0.00013024 0.26179 0.1272 -0.0024977 0.0015879 -0.00014694 0.0017563
0.00060133 0.0013633 0.0001155 0.00098678
-0.00055264 0.002157 -0.0024826 0.001608 0.10789 -0.25307 0.0018833 -0.00093815
0.0015666 0.0020123 -0.001093 0.0014395
-0.003031 -0.0021692 -0.00017229 0.0017788 0.0018662 -0.00092522 0.16523 -0.13623
0.0015416 0.0053088 -0.0023474 0.00026462
-0.00027543 0.0017922 0.00060607 0.00135 0.0015768 0.0019879 0.0016336 0.00528
0.25013 0.040408 0.0053625 0.0012569
-8.485e-05 -0.00056379 0.00011705 0.00097856 -0.0010961 0.0014056 -0.002361 0.00021952
0.0053952 0.0012166 0.27669 0.062201
1940000000 0.17812 -0.17172 -0.00017373 -0.0014723 0.0012759 0.0021849 -0.003703 0.00044427
0.0013812 0.0011628 -0.00059744 -0.00053952
-0.0001827 -0.0014634 0.26281 0.095289 -0.0014147 0.0040084 0.0011059 0.0012925
0.0019597 0.00053327 0.0010468 0.00040939
0.0012832 0.0021924 -0.0014 0.0040485 0.062432 -0.24626 0.00047785 -0.0021973
0.0025199 0.00041573 0.00054402 0.0017982
-0.003709 0.0004699 0.0011033 0.0012832 0.00048565 -0.0022186 0.11325 -0.16706
0.00083198 0.0038607 -0.0015132 0.0016408
0.0013512 0.0011176 0.0019516 0.00052701 0.0025003 0.00039401 0.00085803 0.0039348
0.25337 0.0021288 0.0038037 -0.0019826
-0.00056809 -0.00041952 0.0010334 0.00042668 0.00049358 0.0018142 -0.0014969 0.0016853
0.0038039 -0.0019326 0.26549 0.026296
2000000000 0.13202 -0.18678 -0.0039395 0.00067184 0.0026193 0.0015783 -0.002339 0.003658
0.0013709 0.00035653 -0.00051729 0.0006614
-0.0039553 0.00069636 0.24882 0.059604 -0.0010179 0.0058458 0.0016294 0.00044824
0.0014359 -0.0011244 0.00055198 8.5468e-05
0.0026156 0.0016303 -0.00096213 0.0058747 0.018936 -0.23251 -0.0012201 -0.0014951
0.0022054 -0.0011863 0.0017652 0.0014638
-0.0023215 0.0037774 0.0016367 0.00040472 -0.0012221 -0.0014765 0.059975 -0.17747
-0.00022494 0.0036616 0.00011378 0.0023399
0.0013051 0.00037819 0.0014487 -0.0011465 0.0021848 -0.0012472 -0.0002572 0.0035853
0.24877 -0.030789 0.00086859 -0.0028643
