!Keysight Technologies,M9804A,MY58100912,A.14.10.03
!Date: Thursday, April 27, 2023 10:28:33
!Correction: S11(C  6-Port  ) 
!S12(C  6-Port  ) 
!S13(C  6-Port  ) 
!S14(C  6-Port  ) 
!S15(C  6-Port  ) 
!S16(C  6-Port  ) 
!S21(C  6-Port  ) 
!S22(C  6-Port  ) 
!S23(C  6-Port  ) 
!S24(C  6-Port  ) 
!S25(C  6-Port  ) 
!S26(C  6-Port  ) 
!S31(C  6-Port  ) 
!S32(C  6-Port  ) 
!S33(C  6-Port  ) 
!S34(C  6-Port  ) 
!S35(C  6-Port  ) 
!S36(C  6-Port  ) 
!S41(C  6-Port  ) 
!S42(C  6-Port  ) 
!S43(C  6-Port  ) 
!S44(C  6-Port  ) 
!S45(C  6-Port  ) 
!S46(C  6-Port  ) 
!S51(C  6-Port  ) 
!S52(C  6-Port  ) 
!S53(C  6-Port  ) 
!S54(C  6-Port  ) 
!S55(C  6-Port  ) 
!S56(C  6-Port  ) 
!S61(C  6-Port  ) 
!S62(C  6-Port  ) 
!S63(C  6-Port  ) 
!S64(C  6-Port  ) 
!S65(C  6-Port  ) 
!S66(C  6-Port  ) 
!S6P File: Measurement: :
# Hz S  RI   R 50
500000000 -0.3354 -0.052695 -0.010686 -0.0011591 -0.0088585 0.013654 -0.0041652 0.011631
0.013089 0.006517 -0.0038088 0.0080696
-0.010717 -0.0011699 -0.41653 -0.062767 0.0078401 -0.010061 0.0015709 0.011525
0.0079858 0.0026872 0.0021519 0.013515
-0.008885 0.013632 0.0078423 -0.010102 -0.26797 0.20006 0.0065148 0.0032024
-0.002144 0.0090889 0.00035537 0.011822
-0.0042573 0.011644 0.0014984 0.011582 0.0065126 0.0032278 -0.33194 0.044842
-0.019921 -0.0066541 0.016251 0.027034
0.01306 0.0065775 0.0080318 0.0027694 -0.0021338 0.0091073 -0.019891 -0.00667
-0.24976 -0.19288 -0.027721 0.0026771
-0.0038354 0.0082784 0.002191 0.013714 0.00041162 0.011864 0.016336 0.026972
-0.027715 0.0026818 -0.27444 -0.11835
560000000 -0.31977 0.11296 -0.024903 -0.06372 -0.00099777 0.013252 0.0053927 0.01112
0.011224 0.0050561 0.010693 0.0098706
-0.024882 -0.063742 -0.37522 0.09969 -0.042262 -0.037996 0.014044 0.0042981
-0.012727 -0.0032392 0.0023798 -0.00068264
-0.00095962 0.013208 -0.042478 -0.037944 -0.18637 0.25189 -0.00035953 -0.0047163
0.017775 0.0055849 0.0081619 -0.0066963
0.0055128 0.010962 0.014088 0.0042631 -0.00035786 -0.0047214 -0.30795 0.1362
0.0057649 -0.02387 0.0042533 -0.021164
0.011159 0.0049881 -0.012718 -0.0032312 0.017784 0.0055683 0.0057865 -0.023805
-0.31159 -0.01779 0.011142 -0.048217
0.010624 0.0097894 0.0024092 -0.00059839 0.0081972 -0.0066715 0.0042042 -0.021127
0.011006 -0.048177 -0.3327 0.028453
620000000 -0.27837 0.093622 -0.023646 0.0089021 0.0043043 0.0097808 0.008911 -0.00406
0.011967 -0.00097451 0.0013149 -0.0020942
-0.023604 0.0088815 -0.40422 0.049692 -0.018641 0.00095551 -0.0010795 -0.0018752
0.011616 -0.0058525 0.0012374 -0.0025246
0.0043883 0.0097668 -0.018664 0.0010081 -0.15571 0.26119 -0.00013094 -0.0055301
-0.0034888 -0.0022609 0.0096269 -0.0030295
0.0088023 -0.0040043 -0.001101 -0.0018659 -0.00013241 -0.0055589 -0.26694 0.14641
-0.038597 -0.019462 0.011333 0.026126
0.011969 -0.0011354 0.01162 -0.0059202 -0.003516 -0.0022415 -0.038683 -0.019433
-0.23273 -0.044331 -0.039009 0.015383
0.0013292 -0.0021301 0.00122 -0.0025431 0.0097307 -0.0030005 0.011528 0.026097
-0.039171 0.015235 -0.25328 -0.005628
680000000 -0.23933 0.18549 -0.026647 -0.013246 0.0052883 0.0058237 0.0013193 -0.0078709
-0.0017524 -0.011778 0.0056328 -0.0071918
-0.02665 -0.013245 -0.39012 0.15143 -0.032359 -0.0014244 -0.0014114 -0.00064676
-0.0014717 -0.0097833 -0.00097373 -0.001933
0.0052671 0.0058286 -0.032401 -0.0013456 -0.10298 0.28185 -0.00092103 -0.0008264
-0.001458 0.0003505 -0.0027374 -0.0090203
0.0013793 -0.0079409 -0.0013991 -0.00063228 -0.00089992 -0.00084529 -0.21978 0.19725
-0.023852 -0.0072895 -0.00785 -0.010341
-0.0017749 -0.01186 -0.0014579 -0.0098251 -0.001453 0.00034511 -0.023864 -0.0072708
-0.27924 0.055928 -0.009648 -0.0083313
0.0055637 -0.0071306 -0.0010135 -0.0019136 -0.002794 -0.0089846 -0.0080601 -0.010314
-0.0095488 -0.0083009 -0.26129 0.098981
740000000 -0.19326 0.17844 -0.038985 0.027629 0.013831 -0.0044673 -0.00036671 -0.0044881
-0.0053543 -0.0039487 -0.0064974 0.0030921
-0.039005 0.027608 -0.33476 0.16963 -0.036766 0.035838 -0.00024848 -0.0055468
-0.012835 0.0062568 -0.0020075 -0.0054437
0.013816 -0.0045102 -0.036682 0.035975 -0.069761 0.27823 -0.002454 0.0033088
-0.0027833 -0.0066095 -0.001904 0.0013992
-0.00036331 -0.0044452 -0.00025526 -0.0055924 -0.0024577 0.0033244 -0.20347 0.20533
-0.043173 -0.0076941 0.022651 0.016011
-0.0052771 -0.0039127 -0.012873 0.0063524 -0.002826 -0.0065978 -0.043222 -0.0076369
-0.17984 0.084996 -0.041316 0.0017993
-0.0065887 0.0032223 -0.002006 -0.0056359 -0.0019115 0.0014111 0.022731 0.016003
-0.041458 0.0017694 -0.24945 0.10439
800000000 -0.16115 0.22127 -0.021784 0.016153 0.0060189 -0.010931 -0.0045128 -0.0019079
-0.0047902 0.0020699 0.0040164 -5.5535e-05
-0.021811 0.016113 -0.34023 0.23968 -0.0083171 0.034177 -0.0023878 0.0017787
-0.001622 0.0027859 0.0011646 0.0047751
0.0059822 -0.010914 -0.0082203 0.034246 -0.031004 0.30183 0.00077552 0.0015416
-0.00030734 0.0036878 -0.0016752 0.00072765
-0.0045122 -0.0018403 -0.0023804 0.0017873 0.00078821 0.0015321 -0.17428 0.23267
-0.028585 0.013098 0.013926 -0.010367
-0.0047664 0.0020604 -0.0016339 0.0028091 -0.00031455 0.0036831 -0.028571 0.013193
-0.22099 0.11386 -0.016856 0.019779
0.0040297 0.00020794 0.001234 0.0049344 -0.0016484 0.00077419 0.013858 -0.010323
-0.016924 0.019768 -0.23939 0.1523
860000000 -0.12618 0.24138 -0.017255 0.03037 -0.0026559 -0.010633 -0.0018354 0.00054473
0.0039652 0.0052583 -0.0041169 -0.0026343
-0.017241 0.030352 -0.29232 0.28225 0.0077976 0.034916 0.00019247 0.0022863
0.003491 0.0016404 0.0029785 0.0013029
-0.0027109 -0.010627 0.0079175 0.03492 0.01613 0.31072 -0.00076193 0.0001644
0.0023203 -0.0011726 0.0015811 0.0043485
-0.0018698 0.00056595 0.00023697 0.0022969 -0.00077455 0.00016515 -0.13748 0.24266
-0.017493 0.018948 -0.0057199 -0.0088157
0.0039947 0.0052656 0.0035064 0.0016213 0.0023194 -0.001155 -0.017498 0.018999
-0.16433 0.1638 -0.02393 0.018447
-0.0042155 -0.0026482 0.0028845 0.001265 0.0015529 0.0043175 -0.0057277 -0.0088993
-0.023946 0.01839 -0.18967 0.19854
920000000 -0.10268 0.26415 0.0048972 0.038034 -0.0095927 -0.0055348 -0.0017914 0.0016298
0.0018049 0.002643 0.0030761 -0.0014727
0.0048872 0.03801 -0.2656 0.30331 0.028488 0.022693 0.0013853 0.0013669
0.0083743 9.3926e-05 0.004535 -0.0026393
-0.0096139 -0.0055291 0.028606 0.022634 0.061401 0.31229 0.0020328 -1.2466e-05
0.0014669 -8.9531e-05 0.0010617 -0.0016348
-0.0017614 0.0016546 0.0014115 0.0013786 0.0020224 -1.4915e-05 -0.11285 0.2598
-0.010571 0.031556 0.0040397 -0.0069597
0.0017841 0.0025886 0.0083765 7.5633e-05 0.001477 -9.006e-05 -0.010515 0.031581
-0.15088 0.16844 -0.00082808 0.026212
0.0030696 -0.0014713 0.0045634 -0.0026194 0.0010677 -0.0016206 0.004068 -0.0069719
-0.00082904 0.026237 -0.19544 0.21064
980000000 -0.056009 0.28403 0.017182 0.029875 -0.0098776 0.0038925 0.0018818 0.0033193
0.004112 -0.0018206 -0.0029536 -0.0022046
0.017161 0.029878 -0.21258 0.33781 0.033987 0.0051703 0.0022032 -0.00019031
0.001907 -0.0063175 -2.0658e-05 -0.002555
-0.0098679 0.0039247 0.034049 0.0050728 0.10743 0.30707 0.00080055 -0.001164
0.00050645 -0.0021046 0.0014217 -0.00016795
0.0019205 0.0032998 0.0022214 -0.00017484 0.00080345 -0.0011626 -0.074456 0.27046
0.0079823 0.030269 -0.0092665 -0.0068406
0.0041038 -0.0018191 0.0018647 -0.0063078 0.00049641 -0.0021001 0.0080541 0.030265
-0.11898 0.19864 0.0065963 0.019471
-0.0029934 -0.0021977 -5.2191e-05 -0.0025285 0.0014253 -0.00018607 -0.0092591 -0.0068247
0.0065783 0.0194 -0.15251 0.25469
1040000000 -0.015304 0.29327 0.03308 0.018626 -0.00201 0.0071417 0.002578 0.00079531
0.00056014 -0.0035517 -0.00017126 -0.0018318
0.033068 0.01862 -0.17815 0.35151 0.030442 -0.01516 0.0016903 -0.0019008
-0.00216 -0.0030702 -0.0010518 -0.003224
-0.002022 0.0071355 0.030434 -0.015284 0.1538 0.29444 -0.00050596 -0.0017514
-0.0017232 -0.0011387 -0.00061958 -0.0010699
0.0025728 0.0007968 0.0016959 -0.0018926 -0.0005206 -0.0017411 -0.047073 0.28035
0.02054 0.018873 -0.0027541 0.00060983
0.00049303 -0.0035858 -0.0021651 -0.0030615 -0.0017035 -0.0011401 0.020586 0.01885
-0.085433 0.20437 0.014639 0.017611
-0.00024306 -0.0018295 -0.0011101 -0.0032078 -0.00064146 -0.0010542 -0.0027411 0.00061791
0.014596 0.017643 -0.12903 0.27394
1100000000 0.029035 0.30213 0.036692 -0.0039226 0.0026024 0.0043085 0.0022573 -0.00088425
-0.0022315 -0.0028968 -0.0040933 -2.2113e-05
0.03666 -0.0038993 -0.13507 0.37024 0.015924 -0.028887 2.0147e-05 -0.0017634
-0.004203 -0.00089645 -0.0036762 -0.00032163
0.0026142 0.0043058 0.015831 -0.028977 0.20073 0.27492 -0.0021011 0.0001158
-0.0019864 0.00051559 -0.0011781 -0.0002882
0.0022725 -0.00089664 7.8136e-06 -0.0017492 -0.002102 0.00011496 -0.0068597 0.28546
0.026358 0.0049925 -0.0026365 -3.7246e-05
-0.0022267 -0.0028937 -0.0042016 -0.00086698 -0.0019748 0.00052147 0.026372 0.0049583
-0.065005 0.21637 0.020144 0.0083672
-0.0040785 5.8425e-06 -0.0036753 -0.00030045 -0.0011823 -0.00030102 -0.0026374 -4.2762e-05
0.020143 0.0083478 -0.083676 0.30237
1160000000 0.080016 0.29852 0.024516 -0.021402 0.0026403 -0.00029924 -4.6118e-05 -0.0022126
-0.0040339 -0.00084578 -0.0011041 0.0041471
0.024529 -0.021374 -0.091713 0.37564 -0.0039097 -0.03039 -0.0017093 -0.0018775
-0.0029419 0.0027325 -0.0015922 0.0020284
0.0026369 -0.000327 -0.0040306 -0.030397 0.24456 0.24422 -0.000962 0.0018762
-0.00064787 0.0021847 -0.0009309 0.00050343
-7.699e-05 -0.0022209 -0.0017079 -0.0018853 -0.00095868 0.0018804 0.032481 0.28315
0.02218 -0.011637 -0.0034057 0.0049505
-0.0040384 -0.00082875 -0.002942 0.002768 -0.00064204 0.0022016 0.022183 -0.011666
-0.030052 0.2234 0.01897 -0.0014249
-0.0010635 0.004141 -0.0016242 0.0020584 -0.0009288 0.00049687 -0.0034191 0.0049787
0.018966 -0.0014269 -0.036575 0.30588
1220000000 0.12396 0.28913 0.010561 -0.030961 -0.0018259 -0.00077021 0.00019767 -0.00074673
-0.0029456 0.0022533 0.00099627 0.0022118
0.010583 -0.030918 -0.046909 0.38898 -0.017931 -0.02225 -0.0027652 0.00056879
-1.3769e-05 0.0034799 -0.00088719 0.0021335
-0.0018232 -0.0007754 -0.018051 -0.022192 0.28359 0.2046 0.0008302 0.0019911
0.00082167 0.0013587 0.0003705 0.00055616
0.00019738 -0.00074292 -0.002771 0.00058946 0.00082723 0.0019906 0.072764 0.27432
0.010959 -0.019118 0.0016335 0.0016542
-0.0029382 0.002256 -1.5374e-05 0.0034742 0.00082356 0.0013643 0.010935 -0.019141
-0.0067237 0.23183 0.014069 -0.014279
0.0010033 0.0021752 -0.00087697 0.0021108 0.00036648 0.00055495 0.0016572 0.0016537
0.014096 -0.014263 -0.0042434 0.31981
1280000000 0.17455 0.26877 -0.0087474 -0.029439 -0.0020417 0.002912 -0.00069113 -0.002166
-0.00083826 0.0032916 0.0026458 0.0013046
-0.0087293 -0.029407 -0.00013549 0.38088 -0.025243 -0.0086726 -0.0010517 0.001563
0.0020126 0.0019255 0.00074688 0.0021293
-0.0020445 0.0029268 -0.025324 -0.0085679 0.31364 0.16055 0.0017726 -4.6698e-05
0.0013728 0.00030253 0.00031159 0.00024841
-0.00070197 -0.0021691 -0.0010491 0.0015774 0.0017761 -4.7254e-05 0.11011 0.25802
0.00016699 -0.021174 -0.00027333 0.00043952
-0.00082556 0.0033035 0.0020351 0.0019236 0.0013746 0.0002944 0.00012396 -0.021175
0.0298 0.23475 0.0026969 -0.016614
0.0026403 0.0012644 0.00075883 0.0021402 0.00031573 0.00025824 -0.00030334 0.00043098
0.0027093 -0.016592 0.042516 0.32107
1340000000 0.21222 0.23613 -0.018856 -0.018917 0.00088444 0.0051825 -0.0018659 -0.0009876
0.0014758 0.0028481 0.0019315 -0.0015368
-0.018824 -0.018917 0.040224 0.37251 -0.022663 0.0049737 2.1548e-05 0.0021121
0.0022242 0.00061253 0.0013603 0.00075865
0.00090141 0.0051957 -0.02268 0.0050835 0.33479 0.1133 0.0012038 -0.0010976
0.00068357 -0.00076107 -3.8636e-05 0.00020557
-0.0018643 -0.00098358 3.1635e-05 0.0020989 0.0011907 -0.0011092 0.14315 0.23678
-0.010419 -0.017789 0.00044589 0.00094524
0.0014873 0.0028456 0.002224 0.00060425 0.00068406 -0.00075332 -0.010453 -0.017768
0.059806 0.22995 -0.0052512 -0.014957
0.001939 -0.0015394 0.0013615 0.00075248 -3.3998e-05 0.0002075 0.00044431 0.00098255
-0.0052467 -0.014974 0.080801 0.31518
1400000000 0.24635 0.19857 -0.024503 -0.0066078 0.0058088 0.0037039 -0.0023701 0.00059371
0.0025983 0.0011133 0.00029726 -0.0017036
-0.024467 -0.0066246 0.078049 0.35938 -0.015409 0.013558 0.0014644 0.0012755
0.0013146 -0.0010087 0.001224 4.7562e-05
0.0058294 0.0036786 -0.015365 0.013663 0.34725 0.061051 -1.9034e-05 -0.0019239
5.4158e-05 -0.0004183 0.00038411 0.00028406
-0.0023735 0.00059994 0.001475 0.0012678 -1.0913e-05 -0.0019159 0.17262 0.20765
-0.016887 -0.0096815 -0.00083776 0.00037219
0.0026122 0.0011028 0.001299 -0.001024 5.6542e-05 -0.00042043 -0.01691 -0.0096535
0.09295 0.22528 -0.011722 -0.0092615
0.00027987 -0.0017159 0.0012131 3.3598e-05 0.0003895 0.00029036 -0.00082312 0.00035606
-0.011687 -0.0092749 0.12438 0.30335
1460000000 0.27001 0.15472 -0.020662 0.0060965 0.0064175 -0.0018473 -0.0016376 0.0019338
0.0024449 -0.00054717 -0.00044202 -0.0011196
-0.020654 0.0060816 0.11238 0.33691 -0.0056596 0.016647 0.0017355 8.6814e-06
0.00074444 -0.0015295 0.0011219 -0.00064099
0.006403 -0.0018598 -0.0055823 0.0167 0.35385 0.0082266 -0.0014594 -0.0013437
2.0612e-05 -0.00019666 0.00081889 -0.00021439
-0.0016393 0.001952 0.0017305 -9.5512e-06 -0.001458 -0.0013557 0.19898 0.17787
-0.01765 -0.0017389 -0.0005858 0.0024139
0.0024298 -0.00053935 0.00074156 -0.0015412 9.5957e-06 -0.00019232 -0.017657 -0.0016996
0.12226 0.21099 -0.013649 -0.0025139
-0.00041658 -0.0010829 0.0011177 -0.00065548 0.00081888 -0.00020716 -0.00061901 0.0024202
-0.01364 -0.0025186 0.15737 0.28243
1520000000 0.28278 0.11284 -0.014227 0.011527 0.0039289 -0.0046835 0.00016757 0.0027061
0.0022567 -0.0021455 -0.0012787 -8.5712e-05
-0.014223 0.011509 0.14544 0.32208 0.0024845 0.013809 0.0016494 -0.00086442
-0.00012419 -0.0010739 0.00029576 -0.0010884
0.0038987 -0.0047058 0.0025608 0.013805 0.34778 -0.04676 -0.0012243 -0.0002484
0.00068274 -0.0010226 7.5682e-05 -0.00023328
0.00017286 0.0027126 0.0016444 -0.00087526 -0.0012277 -0.00024108 0.22172 0.13931
-0.015818 0.0050807 0.002004 0.0022727
0.0022414 -0.0021769 -0.00012801 -0.0010733 0.00069186 -0.0010166 -0.015813 0.0051093
0.15054 0.19723 -0.012988 0.0029351
-0.001299 -8.3269e-05 0.00029117 -0.0010815 6.8386e-05 -0.00022375 0.0020383 0.0022734
-0.012987 0.0029278 0.18953 0.26128
1580000000 0.29264 0.066457 -0.0068558 0.014263 -0.00088224 -0.0056284 0.0016705 0.0019395
-0.0002873 -0.0023995 -0.00020082 0.00040153
-0.006864 0.01424 0.17225 0.29742 0.0062421 0.0082405 0.00038854 -0.0016589
-0.00063661 -0.00088903 -0.00025076 -0.00085098
-0.00091648 -0.0056259 0.0062877 0.0082212 0.32917 -0.10401 -0.0015974 0.00079772
-0.0004163 -0.0012551 0.00039334 -0.00064835
0.0016871 0.0019303 0.00038282 -0.001665 -0.001594 0.00079359 0.23482 0.099976
-0.010829 0.0099333 0.0026079 0.00054421
-0.00030376 -0.0024069 -0.00064828 -0.00089005 -0.0004163 -0.0012536 -0.010819 0.009973
0.17509 0.17916 -0.0097374 0.0087386
-0.00020116 0.00040728 -0.0002637 -0.00084424 0.00037819 -0.00065912 0.0025919 0.00051767
-0.009738 0.008734 0.22103 0.23468
1640000000 0.29447 0.025281 6.2329e-05 0.012215 -0.0031615 -0.0030706 0.0027795 0.00091038
-0.0010299 -0.001751 -0.00032222 0.00063614
4.5675e-05 0.012209 0.20127 0.27294 0.006612 0.0030037 -0.0007072 -0.001711
-0.00090277 -0.00025065 -0.00061033 -0.00068394
-0.0031694 -0.0030483 0.0066427 0.0029612 0.30165 -0.15328 -0.00051067 0.001538
-0.0011771 -0.00093868 -0.00021806 -0.00035726
0.0027926 0.00091109 -0.00071586 -0.0017104 -0.00051994 0.0015445 0.24676 0.051375
-0.005536 0.010335 0.0027909 -0.0010145
-0.0010388 -0.0017542 -0.00090001 -0.00024613 -0.0011812 -0.00092973 -0.005515 0.01034
0.19839 0.15478 -0.0042271 0.010818
-0.00030689 0.00063119 -0.00061165 -0.00068821 -0.0002174 -0.00035897 0.0027872 -0.00099833
-0.0042351 0.010825 0.24603 0.20378
1700000000 0.28722 -0.019681 0.003171 0.0086498 -0.004035 -0.00013678 0.0031895 -0.0013533
-0.0022007 -0.00055774 0.0005622 0.0003494
0.0031637 0.0086423 0.21908 0.24225 0.0042458 -0.00015088 -0.001532 -0.0005397
-0.00067839 -1.095e-05 -0.0009121 -0.00038376
-0.0040509 -0.00012234 0.0042483 -0.00018299 0.25928 -0.19356 0.0005596 0.0015596
-0.0020937 0.00010557 -0.00046417 -0.00081948
0.0031881 -0.0013612 -0.0015345 -0.00053472 0.00056813 0.0015623 0.24315 0.0023161
-0.0022772 0.0096826 0.0017239 -0.0025031
-0.0022067 -0.00054997 -0.00067656 -9.2703e-06 -0.0020993 0.0001039 -0.0022672 0.0096949
0.21574 0.13415 0.00072429 0.010709
0.00056902 0.00033569 -0.00089946 -0.00037899 -0.00046028 -0.00083477 0.0017344 -0.0025194
0.00072507 0.010691 0.26219 0.16997
1760000000 0.27567 -0.067801 0.0048371 0.0049418 -0.002729 0.0010051 0.0011358 -0.0035106
-0.001515 0.00093538 0.00033269 -0.00057777
0.0048221 0.0049371 0.24523 0.20343 0.0015508 -0.0020725 -0.0011856 0.00023923
-0.0010212 0.00078882 -0.00065712 0.00040107
-0.002704 0.001016 0.0015411 -0.0020791 0.21147 -0.22761 0.0011672 0.00089453
-0.0012012 0.0016042 -0.0014439 -0.00062122
0.0011177 -0.0035146 -0.0011852 0.00024108 0.0011635 0.0008956 0.23458 -0.048402
0.00044592 0.0076947 -0.00027708 -0.0028329
-0.0014971 0.00094179 -0.0010215 0.0007888 -0.0011912 0.0016066 0.00046921 0.0076914
0.2306 0.099267 0.0049673 0.0075973
0.00032893 -0.00060647 -0.00066093 0.00040446 -0.0014606 -0.00060458 -0.0003237 -0.0028267
0.0049871 0.0075871 0.27495 0.13233
1820000000 0.25156 -0.10482 0.0042405 0.0014215 -0.00047556 0.0028129 -0.0011332 -0.0031297
-0.00095623 0.0012389 -0.00013798 -1.0464e-05
0.004236 0.0014295 0.25587 0.17408 -0.00095948 -0.00063664 -0.0012576 0.00097017
-0.00021393 0.0011581 -0.00057899 0.00058302
-0.00043837 0.0028115 -0.00097321 -0.00063466 0.16059 -0.24365 0.0015282 0.00038578
-3.3747e-05 0.0025143 -0.0016147 0.00042122
-0.0011555 -0.0031123 -0.0012537 0.00096902 0.0015219 0.00038917 0.20514 -0.095144
0.0012896 0.006098 -0.001687 -0.0018841
-0.00095456 0.0012366 -0.00019156 0.0011638 -2.839e-05 0.0025241 0.001303 0.0061097
0.24745 0.070267 0.0059433 0.0036937
-0.00013259 3.1393e-05 -0.00058455 0.00059312 -0.0016063 0.00041458 -0.0017051 -0.0018689
0.0059144 0.0036864 0.27713 0.095866
1880000000 0.21701 -0.14512 0.0015523 -0.0005059 -0.00061506 0.0024482 -0.0029479 -0.0020814
-9.8852e-06 0.001834 7.7494e-05 -0.0005666
0.0015447 -0.00051373 0.26119 0.12808 -0.0029366 0.0014564 -0.00019409 0.0017114
0.00040893 0.0013207 6.147e-05 0.00088633
-0.000622 0.0024346 -0.0029329 0.0014676 0.10875 -0.25358 0.0016981 -0.00083863
0.0017659 0.001842 -0.0008988 0.0014817
-0.0029405 -0.0020709 -0.0001853 0.0017076 0.0017111 -0.00083744 0.16534 -0.13544
0.0013863 0.003898 -0.0027393 -2.011e-05
9.9843e-06 0.0018316 0.00043525 0.0013194 0.0017689 0.0018408 0.0013912 0.0039065
0.2511 0.038608 0.0060378 0.00076741
5.186e-05 -0.0005763 7.124e-05 0.00087744 -0.00089066 0.0014993 -0.0027197 -5.2214e-05
0.0060547 0.00078031 0.27728 0.061868
1940000000 0.17844 -0.17064 -0.0010248 -0.0015286 0.0012775 0.0022764 -0.0036265 0.00044658
0.0014993 0.00090904 -0.00054013 -0.00047074
-0.0010327 -0.0015267 0.26273 0.096336 -0.0017865 0.0040947 0.0011364 0.0012749
0.0018201 0.00070343 0.0010504 0.00040264
0.0013279 0.0022499 -0.0017625 0.0041038 0.062922 -0.24671 0.00058847 -0.0020428
0.0024661 0.00026951 0.00079047 0.001671
-0.0036309 0.00047924 0.0011461 0.0012778 0.00058758 -0.0020337 0.1137 -0.16645
5.9106e-05 0.0032908 -0.0019393 0.0016087
0.0015093 0.00089818 0.0018165 0.00068571 0.0024604 0.00027878 6.4135e-05 0.003278
0.25359 0.00041609 0.0043344 -0.0028033
-0.00052839 -0.00047519 0.0010653 0.00037485 0.00078309 0.0016404 -0.0019486 0.0016266
0.0043033 -0.0028051 0.2663 0.025088
2000000000 0.13294 -0.18614 -0.0045059 0.00093133 0.0028329 0.0017835 -0.0021673 0.0037463
0.0012188 0.00022369 -0.00046481 0.00055359
-0.0044979 0.00091391 0.24939 0.060526 -0.0011896 0.0059096 0.0017189 0.00036167
0.0015695 -0.00086559 0.00045425 0.00014025
0.0028225 0.0017749 -0.0011578 0.0059333 0.019318 -0.23351 -0.0011454 -0.0013629
0.0020484 -0.0011759 0.001666 0.0014425
-0.0021227 0.0037715 0.0017251 0.00036352 -0.0011516 -0.0013672 0.060544 -0.17749
-0.0010754 0.0032536 -0.00031811 0.0024044
0.0012335 0.000215 0.0015627 -0.00087574 0.0020407 -0.0011917 -0.0010542 0.0032719
0.24837 -0.032372 0.00080477 -0.0037735
