!Keysight Technologies,M9804A,MY58100912,A.14.10.03
!Date: Thursday, April 27, 2023 10:28:33
!Correction: S11(C  6-Port  ) 
!S12(C  6-Port  ) 
!S13(C  6-Port  ) 
!S14(C  6-Port  ) 
!S15(C  6-Port  ) 
!S16(C  6-Port  ) 
!S21(C  6-Port  ) 
!S22(C  6-Port  ) 
!S23(C  6-Port  ) 
!S24(C  6-Port  ) 
!S25(C  6-Port  ) 
!S26(C  6-Port  ) 
!S31(C  6-Port  ) 
!S32(C  6-Port  ) 
!S33(C  6-Port  ) 
!S34(C  6-Port  ) 
!S35(C  6-Port  ) 
!S36(C  6-Port  ) 
!S41(C  6-Port  ) 
!S42(C  6-Port  ) 
!S43(C  6-Port  ) 
!S44(C  6-Port  ) 
!S45(C  6-Port  ) 
!S46(C  6-Port  ) 
!S51(C  6-Port  ) 
!S52(C  6-Port  ) 
!S53(C  6-Port  ) 
!S54(C  6-Port  ) 
!S55(C  6-Port  ) 
!S56(C  6-Port  ) 
!S61(C  6-Port  ) 
!S62(C  6-Port  ) 
!S63(C  6-Port  ) 
!S64(C  6-Port  ) 
!S65(C  6-Port  ) 
!S66(C  6-Port  ) 
!S6P File: Measurement: :
# Hz S  RI   R 50
500000000 -0.33483 -0.052871 -0.01024 -0.0013238 -0.0085108 0.013165 -0.0036208 0.012333
0.012608 0.004884 -0.0028632 0.007936
-0.010227 -0.0012378 -0.41594 -0.063725 0.0077979 -0.010441 0.0013861 0.011976
0.0083713 0.0024451 0.0011715 0.012667
-0.008292 0.013356 0.0078816 -0.010526 -0.26698 0.19935 0.0067724 0.0034333
-0.001297 0.0082266 0.00052091 0.012173
-0.0032841 0.01248 0.001693 0.011422 0.006517 0.0032043 -0.33269 0.04315
-0.017193 -0.0058937 0.016167 0.024964
0.012539 0.0056562 0.0089677 0.0032629 -0.0010576 0.0083723 -0.017207 -0.0056446
-0.2494 -0.19469 -0.026661 0.0041545
-0.0031462 0.0081566 0.0018616 0.012794 0.0002452 0.012024 0.015246 0.024291
-0.024752 0.0038152 -0.27299 -0.12285
560000000 -0.31807 0.11218 -0.023327 -0.065003 -1.0652e-05 0.01265 0.0051869 0.010887
0.010614 0.0043109 0.01033 0.0079165
-0.023028 -0.064888 -0.37484 0.098107 -0.041931 -0.037342 0.014372 0.0035831
-0.012175 -0.0039369 0.0048278 -0.00067221
2.8132e-05 0.013183 -0.042222 -0.037215 -0.18594 0.25044 -0.00025578 -0.0045131
0.018547 0.0044902 0.0074347 -0.0053894
0.0054162 0.010481 0.014442 0.0031792 -0.00032356 -0.0044476 -0.30625 0.13493
0.0050833 -0.022642 0.0056235 -0.021755
0.010103 0.0040075 -0.012999 -0.003032 0.018445 0.0044299 0.0051642 -0.022819
-0.31135 -0.018344 0.0078501 -0.047205
0.010214 0.0078605 0.0045064 -0.00050719 0.007798 -0.005162 0.0054392 -0.021646
0.0081259 -0.04718 -0.33226 0.025979
620000000 -0.277 0.09309 -0.022925 0.0085235 0.0042329 0.009173 0.0081184 -0.004496
0.011933 -6.5719e-05 -5.21e-05 -0.0015397
-0.022908 0.0086113 -0.40315 0.048695 -0.018422 0.00049916 -0.0017806 -0.0019338
0.012812 -0.0063586 0.00092621 -0.0030208
0.004162 0.0090488 -0.018469 0.00047998 -0.15555 0.25976 -0.00091037 -0.0053534
-0.0033423 -0.0026087 0.008659 -0.0030796
0.0087514 -0.0042528 -0.001728 -0.0017529 -0.00088683 -0.0054876 -0.26626 0.14581
-0.038453 -0.018749 0.012962 0.02646
0.011828 -0.0012332 0.012252 -0.0065612 -0.0033523 -0.0025668 -0.0384 -0.019012
-0.23104 -0.050214 -0.040202 0.014053
0.00042872 -0.0026222 0.00087613 -0.0030808 0.0086602 -0.0032521 0.012116 0.026703
-0.04039 0.013581 -0.24978 -0.0076657
680000000 -0.23908 0.18376 -0.026205 -0.014552 0.005167 0.0049777 0.0011426 -0.0074479
-0.0026284 -0.011863 0.0052477 -0.007143
-0.02631 -0.014742 -0.38992 0.1498 -0.032512 -0.0020668 -0.0015191 -0.00067856
-0.0018959 -0.0095787 -0.00096066 -0.0020318
0.0051522 0.0050408 -0.032456 -0.0019353 -0.10408 0.28051 -0.00072437 -0.00013409
-0.0018892 0.00016178 -0.0024984 -0.0094711
0.00083381 -0.0077303 -0.0014537 -0.00043377 -0.00071942 -0.00023172 -0.22067 0.19743
-0.023691 -0.0078499 -0.0085511 -0.01201
-0.0027313 -0.01165 -0.001856 -0.0094407 -0.0016712 0.00039817 -0.023803 -0.0079313
-0.27901 0.053482 -0.0078755 -0.0069056
0.0052621 -0.0063949 -0.00083051 -0.0017478 -0.0023935 -0.0091692 -0.0083965 -0.011702
-0.0082409 -0.007823 -0.25834 0.095219
740000000 -0.19353 0.17719 -0.039745 0.026776 0.013615 -0.0048863 -0.00048699 -0.0039426
-0.0040791 -0.0034293 -0.0062218 0.0037836
-0.039871 0.02641 -0.3357 0.16852 -0.037147 0.034894 -4.7127e-05 -0.0059904
-0.012587 0.0070465 -0.0019279 -0.0062032
0.013611 -0.0049026 -0.037087 0.035191 -0.070456 0.27777 -0.0021593 0.0036552
-0.002318 -0.0058157 -0.0018349 0.0012059
-0.00046023 -0.0042215 -0.00020835 -0.0060132 -0.0022339 0.0033291 -0.20393 0.20419
-0.042821 -0.0071554 0.022225 0.015514
-0.0043934 -0.0029658 -0.011964 0.0071611 -0.0025993 -0.0054989 -0.042995 -0.0067293
-0.17974 0.079379 -0.042593 0.00099751
-0.0068091 0.0033437 -0.0022122 -0.0061783 -0.0017167 0.0010593 0.02237 0.015073
-0.042871 0.001144 -0.24901 0.10181
800000000 -0.16195 0.22098 -0.022904 0.016556 0.0057181 -0.010469 -0.0045084 -0.0020726
-0.004466 0.0025859 0.0043409 -9.0399e-05
-0.022736 0.016529 -0.3417 0.23934 -0.0086181 0.034282 -0.0022819 0.0022655
-0.0012246 0.0030663 0.0010223 0.0049982
0.0057828 -0.010358 -0.0086085 0.034398 -0.031569 0.30212 0.00092871 0.001337
-3.8516e-05 0.0037373 -0.0020002 0.00067264
-0.0047173 -0.0017311 -0.0024194 0.0024499 0.00090517 0.00152 -0.17426 0.23171
-0.028805 0.013773 0.013892 -0.010442
-0.0044861 0.0027196 -0.0011522 0.0030825 0.00012521 0.0037231 -0.029037 0.013646
-0.22135 0.10909 -0.017562 0.019522
0.0044862 0.00081888 0.00096081 0.0053901 -0.0018294 0.0010556 0.01404 -0.010378
-0.017791 0.020113 -0.24108 0.14993
860000000 -0.12752 0.24079 -0.018089 0.030541 -0.00298 -0.010326 -0.0020484 0.00050464
0.0039323 0.0050163 -0.0035624 -0.0022895
-0.018092 0.030396 -0.2931 0.28218 0.0075231 0.034702 9.3202e-06 0.0021768
0.0038522 0.00071682 0.0033161 0.00082304
-0.0029987 -0.010263 0.007641 0.03469 0.016021 0.3107 -0.00080249 -0.00014909
0.002351 -0.0014353 0.0017584 0.0044937
-0.0019123 0.00027697 -9.3371e-05 0.0021349 -0.00075803 -0.00013959 -0.13786 0.24236
-0.018825 0.018228 -0.0063038 -0.0087829
0.0040259 0.0049601 0.0034333 0.00057828 0.0023158 -0.0014627 -0.018783 0.018091
-0.16585 0.1597 -0.024223 0.017519
-0.0038581 -0.0026612 0.0031112 0.0010757 0.0016361 0.0043801 -0.0063943 -0.0087323
-0.024663 0.017328 -0.19028 0.19532
920000000 -0.10374 0.26418 0.0045302 0.038461 -0.0093362 -0.005163 -0.001876 0.0017199
0.0012846 0.0019783 0.0026324 -0.001506
0.0044773 0.038384 -0.26607 0.30336 0.028162 0.022894 0.0014533 0.0013274
0.0076866 -0.00015539 0.0040882 -0.0028031
-0.0092958 -0.0051299 0.028254 0.022878 0.061466 0.31209 0.0019517 -2.8695e-06
0.00095011 -7.0833e-05 0.001066 -0.0014164
-0.0017169 0.0018918 0.0014293 0.0012902 0.0019838 7.1593e-05 -0.1134 0.25975
-0.01139 0.030842 0.0032695 -0.0066975
0.0012852 0.001961 0.0075248 -0.00022382 0.0008959 -0.00012171 -0.011215 0.030817
-0.15433 0.16711 -0.0017448 0.026791
0.0028675 -0.0015595 0.004055 -0.0028531 0.0011623 -0.001384 0.0032998 -0.0065049
-0.0017733 0.0265 -0.19668 0.20963
980000000 -0.05741 0.28458 0.016973 0.030309 -0.0095216 0.0042044 0.0017131 0.0036164
0.0043501 -0.0017156 -0.0027752 -0.0025561
0.016934 0.030355 -0.21283 0.33839 0.033564 0.0054252 0.0021106 -0.00011177
0.0018959 -0.0059205 -0.00015587 -0.0026985
-0.0094957 0.0042493 0.033639 0.005362 0.10745 0.30664 0.00075949 -0.0011554
0.00068108 -0.0019327 0.0015958 -0.00026327
0.0016359 0.0035663 0.0020522 -5.7386e-05 0.00070515 -0.0012113 -0.075158 0.27084
0.0074373 0.030577 -0.0093148 -0.0072924
0.0042571 -0.0016574 0.0018182 -0.0060888 0.00064722 -0.0019859 0.0074214 0.03063
-0.12077 0.19645 0.0065483 0.01988
-0.0027794 -0.0024276 -0.00011736 -0.0026039 0.0015635 -0.00020633 -0.0091236 -0.0072313
0.0063726 0.01978 -0.15399 0.25287
1040000000 -0.015952 0.29379 0.033172 0.019199 -0.0016058 0.0070842 0.0027224 0.00069323
0.00042039 -0.0034597 -0.00014739 -0.0015624
0.03311 0.019188 -0.17777 0.3519 0.030327 -0.014707 0.0018529 -0.001795
-0.002161 -0.0025539 -0.00095791 -0.0029049
-0.0015469 0.0070738 0.030291 -0.01478 0.15355 0.29368 -0.00047596 -0.0017024
-0.0016116 -0.00095637 -0.00042037 -0.0011636
0.0028344 0.00070483 0.0017996 -0.0017255 -0.00049284 -0.0017088 -0.047378 0.28058
0.019688 0.019182 -0.0024395 0.0011378
0.00048857 -0.0035712 -0.0021528 -0.0025759 -0.0015935 -0.00092546 0.019696 0.019135
-0.087552 0.20296 0.013909 0.018412
-9.2514e-06 -0.0018337 -0.0008631 -0.0027992 -0.00044474 -0.0011524 -0.0024442 0.0012106
0.013997 0.018222 -0.13081 0.2732
1100000000 0.029045 0.30282 0.036565 -0.0035383 0.0027753 0.0041975 0.0025034 -0.0011536
-0.0021429 -0.0032416 -0.0039512 -0.00033044
0.036531 -0.0035075 -0.1347 0.37001 0.016 -0.028156 6.7822e-05 -0.0019696
-0.0036829 -0.0010991 -0.0036069 -0.00058722
0.0027988 0.0042211 0.015898 -0.028243 0.19971 0.27431 -0.0020288 6.1535e-05
-0.0018053 0.00036561 -0.0010609 -0.00048776
0.0024169 -0.0012219 1.6329e-05 -0.0019124 -0.0020035 3.952e-05 -0.0069719 0.28587
0.025537 0.0055043 -0.0023476 0.00013838
-0.0021471 -0.0031813 -0.0036833 -0.0010798 -0.0017738 0.00039953 0.025588 0.0054425
-0.066577 0.21566 0.019675 0.0083985
-0.0040375 -0.00014549 -0.0035897 -0.00043685 -0.0010754 -0.00045324 -0.0023753 9.2383e-05
0.019693 0.0084004 -0.085113 0.30196
1160000000 0.080056 0.29903 0.024779 -0.020649 0.0028454 -0.0004077 -0.00020739 -0.0024324
-0.0039156 -0.00077704 -0.0010975 0.0041031
0.02473 -0.020587 -0.090956 0.375 -0.0033694 -0.029885 -0.0016531 -0.0017241
-0.0027679 0.0026652 -0.0015327 0.0018435
0.0028988 -0.00042607 -0.003527 -0.029894 0.24319 0.2442 -0.00082279 0.0018221
-0.00059745 0.0020311 -0.0010916 0.0003435
-7.7996e-05 -0.0024241 -0.0017077 -0.0017484 -0.00087725 0.0018346 0.032576 0.28307
0.021927 -0.010851 -0.0032403 0.0051665
-0.0039558 -0.00076038 -0.002799 0.0025475 -0.00060156 0.0020438 0.021928 -0.010789
-0.032436 0.22329 0.018465 -0.00077679
-0.001026 0.0039733 -0.001594 0.0019348 -0.0010987 0.00035002 -0.0032514 0.0051021
0.018474 -0.00068526 -0.038243 0.30474
1220000000 0.12424 0.28909 0.0112 -0.03036 -0.0015017 -0.00096566 -6.1312e-05 -0.00085674
-0.0028057 0.0022273 0.0010065 0.0020596
0.011185 -0.030371 -0.046847 0.38806 -0.01716 -0.022064 -0.0027134 0.00051291
-5.0724e-05 0.0032281 -0.00087855 0.0020337
-0.0014853 -0.00093742 -0.017303 -0.022034 0.28241 0.20555 0.00077104 0.0017893
0.0006205 0.001305 0.00033922 0.0006269
-9.7769e-05 -0.00090556 -0.0026966 0.00053637 0.0008076 0.0017941 0.072868 0.27435
0.011181 -0.017772 0.00199 0.0014192
-0.0027113 0.0021661 -6.1844e-05 0.0031628 0.00057558 0.0013259 0.011137 -0.017796
-0.0083392 0.23168 0.013841 -0.013452
0.00111 0.0021134 -0.00085776 0.0019851 0.00029424 0.00062678 0.0020661 0.0014443
0.013868 -0.01353 -0.006125 0.31953
1280000000 0.17487 0.26868 -0.0076712 -0.029139 -0.0020502 0.002501 -0.00090026 -0.0019759
-0.00075957 0.0032262 0.0026304 0.0012806
-0.0076564 -0.029121 -0.00056439 0.37973 -0.02449 -0.0089474 -0.00097392 0.0015087
0.0017992 0.0017985 0.00058415 0.0019852
-0.0020478 0.0024883 -0.024562 -0.0088439 0.3132 0.16202 0.0016068 -4.8443e-05
0.0012415 0.00030655 0.00034367 0.00024384
-0.00083215 -0.0019756 -0.0010142 0.0014798 0.0016392 -6.9231e-05 0.11003 0.25807
0.00093633 -0.020147 -0.00013239 0.0003472
-0.00072769 0.0032657 0.001857 0.001745 0.0012436 0.00029588 0.00089681 -0.020147
0.028502 0.23504 0.0028385 -0.015893
0.0026102 0.00126 0.00055948 0.0020205 0.00036314 0.00020139 -0.00014044 0.00039579
0.00285 -0.015884 0.040579 0.32093
1340000000 0.21211 0.23554 -0.017708 -0.019435 0.00074032 0.0047357 -0.0017269 -0.00088421
0.0014549 0.002665 0.0018509 -0.001325
-0.017694 -0.019429 0.039126 0.37188 -0.022165 0.0042334 -5.0261e-05 0.0020405
0.0020367 0.00086167 0.001296 0.00078264
0.00078732 0.0047274 -0.02218 0.004341 0.33521 0.11475 0.0011187 -0.00092171
0.00073957 -0.00064033 4.3676e-05 0.00027554
-0.0017428 -0.00086407 -1.2864e-05 0.0020824 0.0011363 -0.00088198 0.14301 0.23682
-0.0089286 -0.017324 0.00066471 0.00059401
0.0014256 0.0026556 0.0020087 0.00084305 0.00069262 -0.00065558 -0.0089627 -0.017341
0.058568 0.23015 -0.0042538 -0.014298
0.0018653 -0.0013668 0.0012889 0.0007194 6.9177e-05 0.00025442 0.00065859 0.00052178
-0.0041764 -0.014345 0.078743 0.31564
1400000000 0.24613 0.19817 -0.023877 -0.0077006 0.0053729 0.0034948 -0.0022198 0.00063205
0.0024777 0.00096094 0.00029454 -0.0016048
-0.023843 -0.0077204 0.07674 0.35931 -0.015324 0.012773 0.0013966 0.0012667
0.0012685 -0.00078077 0.0011887 9.6948e-05
0.0054192 0.0034365 -0.015284 0.012852 0.34833 0.061813 -7.0907e-06 -0.0016467
0.00015544 -0.00045177 0.00033882 0.00018573
-0.0021963 0.00064427 0.0013894 0.0012722 8.0964e-06 -0.0016344 0.17247 0.20773
-0.01517 -0.010061 -0.00082054 -0.00020325
0.0025137 0.00091572 0.0013017 -0.00081856 0.00019621 -0.00047757 -0.015177 -0.00999
0.091848 0.22538 -0.010602 -0.0089111
0.00024694 -0.0015978 0.0012143 0.00011263 0.00033432 0.00024228 -0.00077855 -0.00022213
-0.010618 -0.0088368 0.12313 0.30383
1460000000 0.26935 0.15452 -0.020711 0.0048051 0.005887 -0.0017507 -0.0015844 0.0017571
0.0021867 -0.00049748 -0.00036514 -0.0010596
-0.02068 0.0048059 0.11114 0.33749 -0.0061643 0.01598 0.0017224 0.00016032
0.00093538 -0.0013855 0.0012459 -0.00064244
0.0059498 -0.0017648 -0.00612 0.01601 0.35496 0.0080511 -0.0012189 -0.001316
0.00011573 -0.00021081 0.0007118 -0.00012117
-0.0015856 0.0017429 0.0017043 0.0001229 -0.001208 -0.0013503 0.19891 0.17809
-0.016489 -0.0030553 -0.00076538 0.0020466
0.0022109 -0.00047642 0.00090817 -0.0014083 0.00013827 -0.00014392 -0.016511 -0.0030337
0.12131 0.21083 -0.012532 -0.0027005
-0.0003948 -0.001016 0.0012368 -0.00061132 0.00073286 -0.00021951 -0.00075006 0.0020957
-0.012445 -0.0027012 0.15623 0.28309
1520000000 0.28207 0.11301 -0.01503 0.010544 0.0035433 -0.004348 8.9646e-05 0.0025862
0.0021387 -0.0019717 -0.0012302 -0.00017608
-0.015037 0.010496 0.14467 0.32319 0.0017716 0.013524 0.001654 -0.00080613
2.1701e-05 -0.0011538 0.0002934 -0.0010735
0.0035619 -0.0043647 0.0018498 0.013521 0.34874 -0.047678 -0.0010898 -0.00041232
0.00067958 -0.00091521 5.9078e-05 -0.00023843
0.00015538 0.0025892 0.001647 -0.00082447 -0.0010829 -0.00037559 0.22162 0.13972
-0.015633 0.0032285 0.0016076 0.0021208
0.0021309 -0.0019701 2.5886e-05 -0.0011467 0.00061851 -0.00091919 -0.015632 0.0032562
0.14945 0.19731 -0.012129 0.0019552
-0.0012572 -0.00015892 0.00032026 -0.0010345 5.8813e-05 -0.00021984 0.0015497 0.0021409
-0.012083 0.0020113 0.18869 0.26236
1580000000 0.29214 0.067141 -0.0080919 0.013762 -0.00093703 -0.0052451 0.0015066 0.001972
-0.00027632 -0.0022266 -0.00024424 0.00042257
-0.0080842 0.013753 0.17206 0.29871 0.0056204 0.0084351 0.00052035 -0.0015929
-0.00061971 -0.001073 -0.00021897 -0.00087307
-0.00096179 -0.0051976 0.0056812 0.0084158 0.32945 -0.1048 -0.0017181 0.00057271
-0.00041293 -0.0013198 0.00021838 -0.00067506
0.0015092 0.0019318 0.00048206 -0.0016186 -0.0017083 0.0005358 0.23519 0.10039
-0.011728 0.0082523 0.0021784 0.00069914
-0.00027732 -0.0022449 -0.00066183 -0.0010521 -0.00039249 -0.0013495 -0.011697 0.0082763
0.17387 0.17912 -0.0095153 0.0077808
-0.00029385 0.00046947 -0.00023167 -0.00086615 0.00027302 -0.00066904 0.0022209 0.00061895
-0.0095495 0.0078254 0.22028 0.23548
1640000000 0.29467 0.026059 -0.0011319 0.012501 -0.0030002 -0.0027129 0.0027101 0.0010285
-0.0007944 -0.0016406 -0.00034244 0.00061816
-0.0011501 0.012507 0.20173 0.27415 0.006232 0.003365 -0.00068483 -0.0017966
-0.001023 -0.00040004 -0.00057765 -0.00065833
-0.0030299 -0.0026883 0.0062939 0.0033303 0.30155 -0.1543 -0.00072211 0.0014312
-0.0010581 -0.00093494 -0.00025849 -0.00033537
0.0027441 0.0010419 -0.00066242 -0.0017906 -0.00063107 0.001439 0.24725 0.051732
-0.0071822 0.0095694 0.002552 -0.00078781
-0.00080969 -0.0016117 -0.001037 -0.00038918 -0.0010465 -0.00093451 -0.007181 0.0096099
0.19683 0.15502 -0.0045758 0.0098108
-0.00036313 0.00058624 -0.00054317 -0.00065726 -0.00025849 -0.0002861 0.0025046 -0.00080263
-0.0046116 0.0097645 0.24575 0.20453
1700000000 0.28792 -0.01911 0.0022804 0.0095164 -0.0038032 4.4067e-05 0.0031314 -0.0012364
-0.0020283 -0.00066637 0.00054753 0.00043989
0.0022789 0.0094962 0.22 0.24303 0.0040243 0.00031488 -0.0014981 -0.00060032
-0.00081079 3.5236e-05 -0.00095336 -0.00043122
-0.0037757 7.1081e-05 0.0039956 0.00028062 0.25856 -0.19447 0.00042212 0.0015877
-0.0019995 -3.3754e-05 -0.00038928 -0.00076737
0.0031089 -0.0012612 -0.0014998 -0.00055913 0.00042567 0.001656 0.24389 0.0022791
-0.0040446 0.0099241 0.0015377 -0.002338
-0.0020423 -0.00063412 -0.00081036 3.4148e-05 -0.0019827 -2.9009e-05 -0.004031 0.0099186
0.21417 0.13482 0.00021176 0.0099514
0.00057167 0.00051014 -0.001013 -0.00042519 -0.00041455 -0.00084217 0.0015568 -0.0023132
0.00022122 0.0099878 0.26193 0.17029
1760000000 0.27631 -0.067835 0.0045801 0.0060314 -0.0022572 0.0010015 0.0012609 -0.0034721
-0.0014123 0.00068183 0.00040348 -0.00056733
0.0045756 0.0060158 0.24639 0.20362 0.0016547 -0.0014866 -0.0012576 0.00021708
-0.0010703 0.00089845 -0.00061581 0.00038718
-0.0022742 0.001035 0.0016391 -0.0015039 0.21044 -0.22782 0.0010806 0.0011469
-0.0013411 0.0014582 -0.0011138 -0.00065486
0.0012749 -0.0034394 -0.001277 0.00022128 0.0010877 0.0011511 0.2352 -0.0489
-0.0006926 0.0088253 -0.00015204 -0.0025316
-0.0013694 0.00072457 -0.0011021 0.00092566 -0.0013212 0.0014981 -0.00068059 0.008812
0.22905 0.10034 0.0042356 0.00728
0.00036198 -0.00060697 -0.00059757 0.00037004 -0.001147 -0.00061482 -0.0001651 -0.0025808
0.0042607 0.0072579 0.27465 0.1327
1820000000 0.25209 -0.10517 0.0045568 0.0024221 -0.00018079 0.0024397 -0.00097071 -0.0031226
-0.0011295 0.0010281 -2.3305e-05 -0.00016347
0.0045564 0.0024269 0.25689 0.17368 -0.00069603 -0.00025146 -0.0012885 0.00097673
-8.3199e-05 0.0012725 -0.00060326 0.00054697
-0.00011179 0.0024402 -0.0007022 -0.00020889 0.15956 -0.2439 0.0016679 0.00039066
-0.00019804 0.0024036 -0.0015486 0.00036406
-0.0010309 -0.0031187 -0.0013021 0.00097691 0.001594 0.0004381 0.2055 -0.095963
0.00078105 0.0073607 -0.0018179 -0.001513
-0.0011293 0.0010327 -5.2032e-05 0.0012641 -0.00015567 0.0024283 0.00083085 0.0074366
0.24623 0.071481 0.0050155 0.0036151
-0.00011243 -0.00012819 -0.00062997 0.00055938 -0.0015267 0.00039222 -0.0018529 -0.001508
0.0050006 0.0035921 0.27675 0.096289
1880000000 0.2174 -0.14574 0.0022452 0.0001406 -0.00065385 0.0021537 -0.0029192 -0.0021953
-0.00029745 0.001827 1.2141e-05 -0.00058278
0.0022633 0.00013974 0.26178 0.12727 -0.0025002 0.0015848 -0.00016537 0.0017751
0.00059502 0.0013387 6.1516e-05 0.00099863
-0.0005476 0.0021377 -0.0025009 0.0016343 0.10798 -0.25309 0.0018829 -0.00098419
0.0015615 0.0019282 -0.0011635 0.0013745
-0.0029318 -0.0021428 -0.00017718 0.0018054 0.0017867 -0.00088523 0.16516 -0.13632
0.0015355 0.0052207 -0.0023709 0.00025723
-0.00028597 0.0018307 0.00058681 0.001345 0.0015392 0.0018894 0.0015404 0.0051764
0.25017 0.040408 0.0053576 0.001123
-1.0723e-05 -0.00059111 7.7726e-05 0.00093882 -0.001115 0.0013201 -0.0023723 0.00025876
0.0053709 0.0011277 0.27648 0.062216
1940000000 0.17821 -0.17164 -0.00019107 -0.0014501 0.0013059 0.0020885 -0.0035716 0.00037967
0.0013852 0.0010948 -0.00069289 -0.0004881
-0.00019126 -0.0014577 0.26278 0.095353 -0.0014045 0.0040225 0.0011372 0.0012843
0.0019607 0.00051442 0.0010109 0.00040215
0.0012316 0.0021545 -0.0014107 0.0040297 0.06232 -0.24615 0.0003999 -0.0021413
0.0025063 0.00041713 0.0005567 0.001899
-0.0036293 0.00039331 0.0011259 0.0012486 0.0004529 -0.0022512 0.11321 -0.16716
0.00095231 0.0039624 -0.0012339 0.0016866
0.0014044 0.0010725 0.0019773 0.00047916 0.0025171 0.00042567 0.0010046 0.0039813
0.2535 0.0023207 0.0039844 -0.0019875
-0.00073009 -0.00051027 0.0010294 0.00039793 0.00059731 0.0019061 -0.0014409 0.0018162
0.0039398 -0.0019764 0.26559 0.026184
2000000000 0.1321 -0.18671 -0.0039393 0.00074771 0.0026383 0.0015868 -0.0023141 0.0037061
0.001284 0.0004319 -0.00060601 0.00059034
-0.0039342 0.00072346 0.24888 0.059663 -0.0010335 0.0058689 0.001636 0.00040581
0.0014109 -0.0011319 0.00045333 0.00010015
0.0026943 0.0016384 -0.00097466 0.0059332 0.018863 -0.2324 -0.0011761 -0.0015536
0.0021891 -0.0012246 0.0017297 0.0015172
-0.0023651 0.0037142 0.0016033 0.00050112 -0.001195 -0.0014158 0.059984 -0.17744
-0.00038613 0.0035966 6.66e-06 0.0023251
0.0013179 0.00041685 0.0013304 -0.0011204 0.0022261 -0.00121 -0.0002939 0.0036216
0.24869 -0.03074 0.00082553 -0.0030132
