!Keysight Technologies,M9804A,MY58100912,A.14.10.03
!Date: Thursday, April 27, 2023 10:28:33
!Correction: S11(C  6-Port  ) 
!S12(C  6-Port  ) 
!S13(C  6-Port  ) 
!S14(C  6-Port  ) 
!S15(C  6-Port  ) 
!S16(C  6-Port  ) 
!S21(C  6-Port  ) 
!S22(C  6-Port  ) 
!S23(C  6-Port  ) 
!S24(C  6-Port  ) 
!S25(C  6-Port  ) 
!S26(C  6-Port  ) 
!S31(C  6-Port  ) 
!S32(C  6-Port  ) 
!S33(C  6-Port  ) 
!S34(C  6-Port  ) 
!S35(C  6-Port  ) 
!S36(C  6-Port  ) 
!S41(C  6-Port  ) 
!S42(C  6-Port  ) 
!S43(C  6-Port  ) 
!S44(C  6-Port  ) 
!S45(C  6-Port  ) 
!S46(C  6-Port  ) 
!S51(C  6-Port  ) 
!S52(C  6-Port  ) 
!S53(C  6-Port  ) 
!S54(C  6-Port  ) 
!S55(C  6-Port  ) 
!S56(C  6-Port  ) 
!S61(C  6-Port  ) 
!S62(C  6-Port  ) 
!S63(C  6-Port  ) 
!S64(C  6-Port  ) 
!S65(C  6-Port  ) 
!S66(C  6-Port  ) 
!S6P File: Measurement: :
# Hz S  RI   R 50
500000000 -0.33375 -0.052347 -0.0096048 -0.0012526 -0.0086767 0.012869 -0.0032257 0.012199
0.013288 0.004941 -0.0032026 0.0080884
-0.0095821 -0.0014396 -0.41585 -0.063325 0.0077752 -0.010572 0.0014516 0.01174
0.0081169 0.0025059 0.0014384 0.013545
-0.008656 0.012938 0.0077719 -0.010698 -0.26699 0.19989 0.007012 0.0036138
-0.0020835 0.0082127 0.0006823 0.012612
-0.003003 0.012529 0.0018001 0.011561 0.0069696 0.0035938 -0.33216 0.043605
-0.018847 -0.0049899 0.015739 0.025504
0.012936 0.0053494 0.0083033 0.003398 -0.0018512 0.0082205 -0.018704 -0.0050112
-0.24848 -0.19308 -0.026514 0.0046095
-0.0028201 0.0088922 0.002323 0.013373 0.00061042 0.012446 0.015806 0.025352
-0.02652 0.0046172 -0.27431 -0.12027
560000000 -0.31934 0.11327 -0.023207 -0.06467 -0.00013545 0.013037 0.0052391 0.010456
0.011545 0.0043731 0.010237 0.0086799
-0.023155 -0.064446 -0.37565 0.098953 -0.041755 -0.037903 0.013211 0.0036597
-0.012959 -0.0037469 0.003728 -0.00085612
0.0002084 0.012921 -0.041894 -0.03747 -0.18531 0.25133 -0.00014461 -0.0050384
0.017448 0.0057315 0.0082963 -0.0059357
0.0054204 0.010725 0.013054 0.0035643 -0.00023447 -0.0050416 -0.30685 0.13572
0.0066184 -0.023925 0.0050904 -0.022175
0.011515 0.005028 -0.013886 -0.0034371 0.017494 0.0057642 0.0064551 -0.024108
-0.31256 -0.017611 0.01005 -0.046612
0.0098663 0.0084789 0.0036777 -0.0011597 0.0084749 -0.0059918 0.0049634 -0.022185
0.010061 -0.046605 -0.33158 0.025939
620000000 -0.27658 0.094053 -0.022845 0.0085761 0.0042967 0.0093822 0.0077877 -0.0045723
0.012808 -0.0016253 6.7417e-05 -0.0024232
-0.02281 0.0084872 -0.40361 0.049559 -0.018437 0.00086814 -0.0012433 -0.001815
0.012257 -0.0059281 0.0010274 -0.0024825
0.004152 0.009416 -0.018447 0.001018 -0.15543 0.26053 -0.0010249 -0.0050938
-0.0024541 -0.0025159 0.0086797 -0.0027536
0.0080149 -0.0048175 -0.001145 -0.0018977 -0.00097836 -0.0051092 -0.26637 0.14663
-0.037694 -0.019903 0.012018 0.026733
0.012997 -0.0017104 0.012051 -0.006201 -0.0025459 -0.0025331 -0.037838 -0.02015
-0.23156 -0.046729 -0.038398 0.013236
0.00011781 -0.0027428 0.0012501 -0.0028281 0.0089786 -0.0030413 0.012451 0.026379
-0.038406 0.013238 -0.24967 -0.0060226
680000000 -0.23875 0.18462 -0.026557 -0.014282 0.005113 0.00524 0.0012342 -0.0078283
-0.0018394 -0.011681 0.0055519 -0.0068931
-0.026535 -0.014265 -0.39023 0.15019 -0.032399 -0.0019881 -0.0013808 -0.00088142
-0.0016219 -0.0093572 -0.0015512 -0.0016147
0.005316 0.0051786 -0.032396 -0.0019405 -0.10372 0.28093 -0.00071897 -0.00041528
-0.0014699 0.00040278 -0.0029952 -0.0089706
0.001431 -0.0075279 -0.0013443 -0.00049682 -0.00072078 -0.00038626 -0.22043 0.19635
-0.02383 -0.007313 -0.0083088 -0.011739
-0.0016444 -0.011363 -0.001532 -0.0093858 -0.0013862 0.00037674 -0.023835 -0.0072638
-0.27922 0.055203 -0.0089751 -0.0066859
0.0051344 -0.0068301 -0.0017973 -0.0017381 -0.0030008 -0.0088886 -0.0084571 -0.011546
-0.0089768 -0.0067027 -0.26025 0.099682
740000000 -0.1931 0.1778 -0.039209 0.026492 0.013561 -0.004597 -0.00055525 -0.0043313
-0.0049963 -0.0034689 -0.0058696 0.0028255
-0.039195 0.026391 -0.33592 0.16876 -0.036809 0.03488 -0.00025561 -0.0056774
-0.012739 0.0068967 -0.0019276 -0.0046668
0.013639 -0.0045778 -0.036698 0.03495 -0.069987 0.27828 -0.0021644 0.003249
-0.0025039 -0.0062127 -0.0018037 0.0013538
-0.00041271 -0.0044313 -0.0004557 -0.0058681 -0.00214 0.003193 -0.2043 0.20504
-0.04231 -0.0079739 0.021862 0.015567
-0.0053366 -0.0032942 -0.012543 0.0071925 -0.0025374 -0.0060234 -0.042287 -0.0079255
-0.18056 0.083944 -0.040253 -5.6069e-05
-0.005735 0.002938 -0.002268 -0.0055047 -0.0017806 0.001168 0.021927 0.015462
-0.040292 -6.3508e-05 -0.25018 0.1038
800000000 -0.16152 0.22128 -0.022636 0.016203 0.005655 -0.010519 -0.00455 -0.0019189
-0.0045974 0.0025877 0.0040582 0.0003152
-0.022605 0.016248 -0.34124 0.23947 -0.0086708 0.034116 -0.0024413 0.0020551
-0.0015192 0.0030246 0.00092367 0.0048532
0.005723 -0.010443 -0.008598 0.034185 -0.031317 0.30233 0.00084612 0.001559
-0.00012024 0.0038238 -0.0019697 0.00078936
-0.0044727 -0.0018178 -0.0023991 0.0020188 0.00086195 0.0015777 -0.17401 0.23258
-0.028508 0.01317 0.013764 -0.010042
-0.0048592 0.0024307 -0.0015972 0.0028457 -0.00010629 0.0038187 -0.028479 0.013286
-0.22139 0.11287 -0.017124 0.019933
0.0046561 0.00089643 0.0012246 0.0051356 -0.0017525 0.00089033 0.01374 -0.0099268
-0.017172 0.01987 -0.2398 0.1516
860000000 -0.12692 0.24107 -0.017794 0.030442 -0.0028039 -0.010173 -0.0020764 0.00048275
0.0040761 0.0053144 -0.0035445 -0.0024528
-0.017774 0.030445 -0.29269 0.2822 0.0075499 0.034488 8.3438e-05 0.0021055
0.0038478 0.00060697 0.003754 0.00076699
-0.0028125 -0.010156 0.0076764 0.034486 0.016498 0.3108 -0.0007396 -7.1234e-05
0.0025503 -0.0014121 0.0017477 0.0043081
-0.0020408 0.0004662 0.00016953 0.0021739 -0.00074115 -7.4575e-05 -0.13752 0.24286
-0.017688 0.017873 -0.0063168 -0.0088974
0.0041013 0.0051686 0.0039153 0.00065666 0.0025662 -0.0013774 -0.017686 0.017976
-0.16394 0.16231 -0.024412 0.017317
-0.0038244 -0.0023613 0.0034814 0.0012656 0.0016529 0.0043278 -0.0063224 -0.0090617
-0.024411 0.017287 -0.18849 0.1977
920000000 -0.10323 0.26434 0.0046036 0.038273 -0.0093803 -0.0050138 -0.0019126 0.0015811
0.0016186 0.0018831 0.0024791 -0.001588
0.004642 0.038243 -0.26558 0.30349 0.028115 0.02272 0.0014327 0.0013071
0.0078404 -0.00015732 0.0041756 -0.0025928
-0.0093897 -0.0049913 0.028242 0.022659 0.061776 0.31208 0.0019549 -4.0345e-06
0.0012976 -0.00027346 0.00080576 -0.0013521
-0.0018279 0.0017152 0.001432 0.0014282 0.0019696 1.4039e-05 -0.11299 0.2596
-0.010987 0.030544 0.0034926 -0.0067634
0.0018464 0.0018537 0.0078282 -0.00046649 0.0012513 -0.00028844 -0.010876 0.030525
-0.1531 0.16723 -0.0019477 0.026656
0.0026664 -0.0015776 0.0040691 -0.0026805 0.00086017 -0.0013603 0.0035014 -0.0066728
-0.0019629 0.026671 -0.19602 0.21072
980000000 -0.056925 0.28457 0.017079 0.030203 -0.0094705 0.0041852 0.0017679 0.0034704
0.0040154 -0.0018661 -0.0028539 -0.0022684
0.017047 0.030249 -0.21229 0.33857 0.033432 0.005461 0.0019922 -0.0001685
0.0018599 -0.0060372 -0.00026318 -0.0024084
-0.0094567 0.0042447 0.033501 0.0053317 0.10773 0.30656 0.00070079 -0.0011785
0.00057727 -0.0019304 0.0015181 -9.0791e-05
0.001612 0.0034785 0.0020514 -7.8609e-05 0.00069722 -0.0011869 -0.074782 0.27068
0.0073713 0.030273 -0.0091266 -0.0067638
0.00399 -0.0019135 0.0018286 -0.0061087 0.00054759 -0.001943 0.0073972 0.030292
-0.11917 0.19836 0.006735 0.019525
-0.0028178 -0.002302 -0.00014357 -0.0024148 0.0015106 -6.8662e-05 -0.0091744 -0.0067861
0.0067158 0.019521 -0.15307 0.25348
1040000000 -0.015481 0.29364 0.032942 0.019016 -0.0015756 0.0069989 0.0025877 0.00076138
0.00047896 -0.003635 -0.00025661 -0.0015605
0.032931 0.019038 -0.17755 0.35192 0.030105 -0.014621 0.0016644 -0.0017941
-0.0022109 -0.002639 -0.0010628 -0.0029248
-0.0015473 0.0070394 0.030069 -0.014759 0.15375 0.29348 -0.0004395 -0.0016691
-0.0015727 -0.00099844 -0.00051003 -0.0011037
0.0026513 0.00069223 0.0017074 -0.0017718 -0.00044466 -0.0016606 -0.047087 0.28037
0.01949 0.018851 -0.0025619 0.0010471
0.00035945 -0.0035274 -0.0021799 -0.0026495 -0.0015288 -0.0010042 0.019565 0.018789
-0.08628 0.20362 0.01404 0.018268
-0.00010116 -0.0015322 -0.0011073 -0.0029832 -0.00051328 -0.0011088 -0.0025365 0.0010235
0.014042 0.018265 -0.1296 0.27399
1100000000 0.029244 0.30271 0.036542 -0.0035576 0.0027406 0.0041229 0.0024667 -0.0010948
-0.0021232 -0.0030627 -0.0039714 -0.00026517
0.036516 -0.0035329 -0.13427 0.37003 0.015884 -0.028052 0.00014269 -0.0018772
-0.0037055 -0.00098464 -0.0035988 -0.00053433
0.0027717 0.004145 0.015835 -0.02815 0.19986 0.27412 -0.0019814 7.1311e-05
-0.0018325 0.00047513 -0.0010427 -0.00041419
0.0024567 -0.0011352 0.00012713 -0.0018802 -0.0019878 6.8232e-05 -0.0069659 0.28545
0.025408 0.0055709 -0.0024417 0.00012922
-0.0021842 -0.0030755 -0.0038054 -0.0010082 -0.0018315 0.00048613 0.025437 0.0055144
-0.064936 0.21615 0.01967 0.0081811
-0.0040064 -0.00019249 -0.0036384 -0.00048797 -0.0010489 -0.00042195 -0.0024259 0.00014897
0.019686 0.0081856 -0.084131 0.30232
1160000000 0.080291 0.29883 0.024568 -0.02079 0.0027908 -0.00040147 -0.00014193 -0.0023587
-0.0039045 -0.00086853 -0.0009947 0.0040435
0.024593 -0.020788 -0.09078 0.37473 -0.0033638 -0.02969 -0.0017091 -0.0017617
-0.0027952 0.0026087 -0.0015183 0.0019037
0.0027929 -0.00044851 -0.003487 -0.02972 0.24325 0.24402 -0.00087523 0.0018129
-0.00063462 0.0019557 -0.00085142 0.00026774
-0.000104 -0.0023672 -0.0017183 -0.0017325 -0.00088671 0.0018126 0.0326 0.2827
0.021639 -0.010792 -0.0034524 0.0051379
-0.0039641 -0.00089752 -0.0028615 0.0026184 -0.00062699 0.0019684 0.021645 -0.010805
-0.03051 0.22359 0.01827 -0.00096425
-0.0011551 0.0040849 -0.0015752 0.0019696 -0.00081648 0.0003009 -0.0034271 0.0051365
0.018245 -0.00094746 -0.036994 0.30523
1220000000 0.12449 0.28911 0.011098 -0.030371 -0.0015392 -0.00090885 0.00010632 -0.000879
-0.0027461 0.0022592 0.00097968 0.0020145
0.011098 -0.030329 -0.046758 0.38784 -0.017068 -0.022021 -0.0026334 0.0004705
-5.7e-05 0.0032677 -0.00087822 0.0020188
-0.0015586 -0.000948 -0.017167 -0.021981 0.28233 0.20548 0.00075751 0.0017828
0.00069164 0.0012781 0.00032252 0.00054846
4.023e-05 -0.00086522 -0.0026429 0.00050319 0.00076822 0.0017879 0.072486 0.27404
0.011002 -0.017759 0.0019158 0.001442
-0.0027317 0.0023134 6.1612e-06 0.003278 0.0006859 0.0012942 0.010976 -0.017779
-0.0069416 0.23168 0.013872 -0.013493
0.0010299 0.0019145 -0.00091498 0.0019873 0.00031032 0.00054282 0.0018942 0.0014522
0.013858 -0.013489 -0.004907 0.31928
1280000000 0.17493 0.26864 -0.0078192 -0.02899 -0.0019763 0.0025177 -0.00084437 -0.002048
-0.00078206 0.0031752 0.0025963 0.001373
-0.0077993 -0.028962 -0.00069091 0.37965 -0.024287 -0.0089918 -0.00101 0.0015385
0.001781 0.0017774 0.00054324 0.0020609
-0.0019699 0.002546 -0.02436 -0.0088781 0.31307 0.16207 0.0015832 5.0497e-05
0.001293 0.00028691 0.0002441 0.00013113
-0.00080105 -0.002072 -0.0010114 0.0014952 0.0015768 4.9502e-05 0.10975 0.25796
0.00094492 -0.019884 -8.9389e-05 0.00041133
-0.00071035 0.0031783 0.0017845 0.0018272 0.0012879 0.00027395 0.00089684 -0.019894
0.029805 0.23474 0.0029086 -0.015616
0.002603 0.0012812 0.00067186 0.002054 0.00025793 0.00013887 -6.8424e-05 0.00039232
0.0029176 -0.015622 0.041818 0.32074
1340000000 0.2125 0.23553 -0.017829 -0.019277 0.0008339 0.0048194 -0.0017839 -0.00090916
0.0014814 0.0026741 0.0017626 -0.0013995
-0.017821 -0.01927 0.038956 0.37189 -0.022185 0.0041744 -0.00010711 0.0020737
0.0020976 0.00081071 0.0012244 0.00081602
0.00080997 0.0048096 -0.022202 0.0042835 0.33535 0.11482 0.0011372 -0.00089689
0.00066861 -0.00066687 3.4165e-05 0.00024161
-0.0018024 -0.00082614 -6.5362e-05 0.0020915 0.0011437 -0.00090516 0.14287 0.23702
-0.0089046 -0.017203 0.00066617 0.00072854
0.0014571 0.0027181 0.0020797 0.00084233 0.00065155 -0.00064998 -0.0089485 -0.017198
0.059643 0.22955 -0.0043185 -0.014251
0.0017918 -0.0013383 0.0011786 0.00076052 2.9045e-05 0.00024001 0.00068484 0.0007393
-0.004308 -0.01424 0.079714 0.31507
1400000000 0.24625 0.1983 -0.023769 -0.0075561 0.0053703 0.0034912 -0.0022644 0.00061394
0.0024819 0.001004 0.00031341 -0.0016041
-0.023744 -0.0075618 0.076536 0.35943 -0.015417 0.012683 0.0014046 0.0013264
0.0013204 -0.00084269 0.0011963 7.0744e-05
0.0054215 0.0034545 -0.015373 0.01278 0.34854 0.061891 0.00010283 -0.0016799
0.00013925 -0.00037351 0.00040639 0.00014152
-0.0022466 0.00059477 0.0014061 0.0012969 9.3619e-05 -0.0016694 0.17236 0.20792
-0.015054 -0.010037 -0.00081777 -0.0001996
0.0025024 0.00092986 0.0012987 -0.00088405 0.00011847 -0.00037516 -0.015085 -0.0099818
0.092631 0.22493 -0.010668 -0.0087881
0.00027379 -0.0016206 0.0012533 7.1593e-05 0.0004238 0.00013825 -0.00084241 -0.00018954
-0.010667 -0.0087938 0.12386 0.30354
1460000000 0.26974 0.15447 -0.020633 0.0049005 0.0059293 -0.0017232 -0.0015903 0.0017512
0.0021899 -0.00051448 -0.00044475 -0.00099891
-0.020601 0.0048775 0.11116 0.33782 -0.0063469 0.015948 0.0017346 0.00016921
0.00091478 -0.0013985 0.0012811 -0.00058113
0.0059111 -0.0017267 -0.0062591 0.015981 0.35531 0.0080681 -0.0012317 -0.0013868
9.5594e-05 -0.00023049 0.00065869 -0.00014133
-0.0015954 0.0017807 0.0017113 0.00016091 -0.0012291 -0.0013925 0.19892 0.17838
-0.016377 -0.003086 -0.00071252 0.0020903
0.002229 -0.00048084 0.00091057 -0.0013937 0.00012295 -0.00023664 -0.016395 -0.0030599
0.12204 0.21052 -0.01259 -0.0027135
-0.00042322 -0.0010148 0.0012799 -0.00062826 0.00063453 -0.00013681 -0.00071829 0.0020849
-0.012584 -0.0027301 0.15701 0.28282
1520000000 0.28239 0.11289 -0.014839 0.010472 0.0036103 -0.0044165 0.00016065 0.0026043
0.0021736 -0.0020071 -0.0012232 -0.00018971
-0.014842 0.010463 0.14479 0.32348 0.0017712 0.013645 0.0016826 -0.00084838
1.3535e-05 -0.0011432 0.00028168 -0.0010709
0.0036078 -0.0044237 0.0018532 0.013625 0.34892 -0.047624 -0.0011055 -0.00034059
0.00061788 -0.00087092 5.1405e-05 -0.00025016
0.00018828 0.0025837 0.0017024 -0.00087823 -0.0011228 -0.00034109 0.22187 0.13998
-0.015547 0.0031113 0.0015422 0.0021114
0.0021446 -0.0020397 9.016e-06 -0.0011643 0.00062062 -0.00088959 -0.015565 0.0031398
0.15004 0.197 -0.012172 0.001952
-0.0012496 -9.6184e-05 0.00030744 -0.0010458 4.0454e-05 -0.00024491 0.0015277 0.0021118
-0.01218 0.0019428 0.18915 0.26205
1580000000 0.29239 0.066939 -0.0079566 0.013687 -0.00092949 -0.0052475 0.0015308 0.0019258
-0.0001671 -0.0021774 -0.0002447 0.00038823
-0.0079471 0.013657 0.17231 0.299 0.0056462 0.0084612 0.00052685 -0.0016196
-0.00058875 -0.0010748 -0.00021032 -0.00087126
-0.00095274 -0.0052577 0.0057055 0.0084559 0.32976 -0.10496 -0.0016614 0.00054514
-0.00036764 -0.0012545 0.00023504 -0.00058341
0.0015273 0.0019147 0.00052504 -0.0016288 -0.0016416 0.00054062 0.23543 0.10047
-0.011822 0.0081498 0.0022259 0.0007514
-0.00017508 -0.002172 -0.00059995 -0.0010693 -0.000368 -0.0012452 -0.011791 0.0081729
0.17422 0.17908 -0.0093803 0.0077501
-0.00021869 0.00037061 -0.00022701 -0.00084588 0.00023209 -0.00060244 0.0022365 0.00074203
-0.009364 0.0077498 0.22092 0.23514
1640000000 0.29489 0.025822 -0.0011412 0.012335 -0.0031096 -0.0028475 0.0027374 0.0011035
-0.00087114 -0.0016597 -0.00039184 0.00064246
-0.0011337 0.012345 0.20222 0.27431 0.0063055 0.0034201 -0.0006589 -0.0017787
-0.0010591 -0.00038709 -0.00057065 -0.00066154
-0.0031199 -0.0027632 0.0063635 0.0033946 0.30174 -0.1545 -0.00063751 0.001432
-0.0011236 -0.00095769 -0.00013932 -0.00027718
0.0027809 0.0010724 -0.00067113 -0.0018166 -0.00068375 0.0014509 0.24775 0.051623
-0.0072421 0.0095572 0.0026708 -0.000831
-0.00086744 -0.0016754 -0.0010448 -0.0003764 -0.0011452 -0.00093264 -0.0072164 0.0096105
0.19752 0.155 -0.0045472 0.0098094
-0.00036601 0.00064855 -0.00059067 -0.0006554 -0.00016216 -0.00028318 0.0026643 -0.00083988
-0.0045614 0.0098193 0.24637 0.20408
1700000000 0.28802 -0.019431 0.0022656 0.0093603 -0.0037773 3.207e-06 0.0031643 -0.0012938
-0.0020561 -0.00065637 0.00054251 0.00048075
0.0022498 0.0093521 0.2205 0.24306 0.0040849 0.00032583 -0.0015206 -0.00056304
-0.00079653 5.208e-05 -0.00095616 -0.00048229
-0.0038533 -3.7897e-05 0.0041078 0.0002962 0.25847 -0.19473 0.00048344 0.001673
-0.0019606 -4.009e-05 -0.00045262 -0.00081404
0.0031259 -0.0012926 -0.0015264 -0.00056344 0.00046002 0.0016565 0.24429 0.0018539
-0.0041066 0.0098569 0.0016089 -0.0022566
-0.0020588 -0.00060547 -0.00080686 7.6948e-05 -0.0019634 -4.204e-05 -0.0040708 0.0098715
0.21494 0.13468 0.00014874 0.010053
0.0005804 0.00049791 -0.00091624 -0.00044269 -0.0004438 -0.00081749 0.0016185 -0.0022605
0.00016243 0.010046 0.2622 0.16992
1760000000 0.2764 -0.068104 0.004519 0.0059546 -0.0023793 0.0010285 0.0013351 -0.0035306
-0.0014154 0.00074619 0.00031938 -0.00042705
0.0045099 0.0059649 0.24699 0.20345 0.0017268 -0.0016223 -0.0012496 0.00016689
-0.0010758 0.0008873 -0.00062993 0.00045118
-0.0023521 0.0011143 0.0017247 -0.001623 0.21075 -0.22822 0.0011402 0.0010561
-0.0012215 0.001493 -0.0011721 -0.00069356
0.0013193 -0.0035574 -0.0012583 0.00018101 0.0011224 0.0010373 0.23539 -0.049319
-0.00071446 0.0088675 -6.6309e-05 -0.0026721
-0.0014047 0.00073893 -0.0010635 0.00088871 -0.001206 0.0014893 -0.00071302 0.0088799
0.23019 0.10003 0.0041316 0.0073089
0.00027285 -0.00044643 -0.00068282 0.00044573 -0.001216 -0.0006604 -0.00011003 -0.0026987
0.0041299 0.007332 0.27508 0.13243
1820000000 0.25209 -0.10553 0.0044955 0.0023985 -0.00026243 0.0026125 -0.00093448 -0.003195
-0.00099382 0.0010758 -7.027e-06 -6.7142e-05
0.0044682 0.0023813 0.25736 0.17331 -0.00081231 -0.00041111 -0.0012836 0.0010037
-6.7656e-05 0.0012701 -0.00060827 0.00051449
-0.00027681 0.0025361 -0.00080692 -0.00040414 0.15933 -0.24425 0.0016339 0.00035708
-0.00020566 0.0023611 -0.0014855 0.00037045
-0.0010086 -0.0031469 -0.0012744 0.00099978 0.0016629 0.00040074 0.20537 -0.096627
0.00069744 0.0074221 -0.0019004 -0.0015839
-0.0010631 0.0010882 -7.0245e-05 0.0012646 -0.00018657 0.0023824 0.00073287 0.0074305
0.24718 0.071056 0.0050035 0.0037188
4.682e-05 -6.3843e-05 -0.00052996 0.00054639 -0.0014939 0.00035041 -0.0018742 -0.0015374
0.00501 0.0037239 0.27682 0.095831
1880000000 0.21712 -0.14596 0.0022199 0.00010784 -0.00054607 0.0022565 -0.0029504 -0.002125
-0.00021798 0.0018251 0.00013811 -0.00069019
0.0022143 9.6736e-05 0.26213 0.12681 -0.0026744 0.0015886 -0.00017404 0.0018032
0.00055722 0.001358 4.7303e-05 0.00099284
-0.00050626 0.0022527 -0.002715 0.0016293 0.1075 -0.25327 0.001757 -0.00092249
0.001509 0.0019219 -0.001041 0.0013057
-0.0029374 -0.0021974 -0.0001682 0.0018136 0.0017469 -0.00094436 0.16469 -0.13669
0.0016331 0.0052723 -0.002348 0.00026467
-0.00019067 0.001777 0.00057013 0.0013402 0.001519 0.001903 0.0016387 0.0052688
0.25129 0.039652 0.0053024 0.0012493
0.00010549 -0.00065916 7.3976e-05 0.00096618 -0.0010415 0.0013052 -0.0023504 0.00023926
0.005286 0.0012613 0.27657 0.061961
1940000000 0.1782 -0.17147 -0.00032395 -0.0014087 0.0013057 0.0021461 -0.0038239 0.00041369
0.0013585 0.0010378 -0.00059907 -0.00071662
-0.00033157 -0.0013969 0.26303 0.094746 -0.0014884 0.0041295 0.0011357 0.001273
0.0019961 0.00054293 0.0010506 0.00040287
0.0012898 0.0021561 -0.0014223 0.0041563 0.062252 -0.24596 0.00046831 -0.0024321
0.0024661 0.00028224 0.00052353 0.0017524
-0.0037445 0.00032483 0.0011679 0.001217 0.00049039 -0.0024444 0.11263 -0.16736
0.00098008 0.0039219 -0.0014204 0.001603
0.0014148 0.00099929 0.0019649 0.00050351 0.0024775 0.00027976 0.00099199 0.0039321
0.25449 0.0012862 0.0041548 -0.0019178
-0.00056486 -0.00064947 0.0010467 0.00039223 0.0005658 0.0017345 -0.0014726 0.0015992
0.0041638 -0.0019475 0.26602 0.025673
2000000000 0.13204 -0.1868 -0.0040567 0.00078189 0.0027203 0.0017092 -0.0021992 0.0038492
0.0012284 0.00045126 -0.0007735 0.00056953
-0.0040326 0.00078374 0.24881 0.059028 -0.00099444 0.0059754 0.0016764 0.00041186
0.0014704 -0.0011374 0.00050524 0.00011904
0.0026811 0.0016401 -0.00089655 0.0059941 0.019146 -0.23242 -0.0011875 -0.0013569
0.0021402 -0.00112 0.0016942 0.001585
-0.002177 0.0038933 0.0016765 0.00039735 -0.0012059 -0.001396 0.058771 -0.17731
-0.00046574 0.003616 -0.00022311 0.0023704
0.0012146 0.00040586 0.001477 -0.0011432 0.0021274 -0.0011667 -0.0004493 0.0035987
0.24943 -0.032075 0.00085379 -0.003101
