!Keysight Technologies,M9804A,MY58100912,A.14.10.03
!Date: Thursday, April 27, 2023 10:28:33
!Correction: S11(C  6-Port  ) 
!S12(C  6-Port  ) 
!S13(C  6-Port  ) 
!S14(C  6-Port  ) 
!S15(C  6-Port  ) 
!S16(C  6-Port  ) 
!S21(C  6-Port  ) 
!S22(C  6-Port  ) 
!S23(C  6-Port  ) 
!S24(C  6-Port  ) 
!S25(C  6-Port  ) 
!S26(C  6-Port  ) 
!S31(C  6-Port  ) 
!S32(C  6-Port  ) 
!S33(C  6-Port  ) 
!S34(C  6-Port  ) 
!S35(C  6-Port  ) 
!S36(C  6-Port  ) 
!S41(C  6-Port  ) 
!S42(C  6-Port  ) 
!S43(C  6-Port  ) 
!S44(C  6-Port  ) 
!S45(C  6-Port  ) 
!S46(C  6-Port  ) 
!S51(C  6-Port  ) 
!S52(C  6-Port  ) 
!S53(C  6-Port  ) 
!S54(C  6-Port  ) 
!S55(C  6-Port  ) 
!S56(C  6-Port  ) 
!S61(C  6-Port  ) 
!S62(C  6-Port  ) 
!S63(C  6-Port  ) 
!S64(C  6-Port  ) 
!S65(C  6-Port  ) 
!S66(C  6-Port  ) 
!S6P File: Measurement: :
# Hz S  RI   R 50
500000000 -0.33447 -0.05405 -0.010038 -0.001749 -0.0084131 0.013121 -0.0043067 0.011891
0.012662 0.0057363 -0.0032038 0.0080466
-0.010007 -0.0017329 -0.41677 -0.06398 0.0080046 -0.010629 0.001293 0.011859
0.0085424 0.002448 0.0011613 0.013459
-0.0084031 0.013095 0.0080571 -0.010649 -0.26708 0.19895 0.0068473 0.003718
-0.0011069 0.0081072 0.00063333 0.012237
-0.0035647 0.011783 0.0013971 0.011952 0.0068224 0.0037441 -0.3314 0.043033
-0.018614 -0.0045088 0.01613 0.024829
0.012614 0.0055624 0.0084168 0.0032467 -0.0013487 0.0081754 -0.018449 -0.0050369
-0.2474 -0.1956 -0.025975 0.0056442
-0.0029731 0.0081461 0.001418 0.013593 0.00014844 0.012498 0.01697 0.025384
-0.026602 0.0055773 -0.27175 -0.1221
560000000 -0.31917 0.11268 -0.02322 -0.064964 0.00041666 0.012821 0.0045832 0.010667
0.011416 0.0043044 0.010681 0.0088057
-0.023169 -0.064697 -0.37602 0.098951 -0.042147 -0.037606 0.01345 0.003601
-0.013214 -0.004012 0.0049604 -0.00069153
1.0113e-06 0.012612 -0.041656 -0.037788 -0.18535 0.25003 -0.00050003 -0.0046276
0.019232 0.0051985 0.0075184 -0.0049023
0.0048526 0.010449 0.012954 0.0036176 -0.00037341 -0.0045979 -0.30621 0.13511
0.0057167 -0.023424 0.0049245 -0.021513
0.010969 0.0054993 -0.013663 -0.0040373 0.019175 0.0050676 0.0054744 -0.023995
-0.30928 -0.016134 0.007899 -0.046847
0.010384 0.008835 0.0029917 -0.0016223 0.0079117 -0.0050184 0.0043845 -0.021343
0.007952 -0.046673 -0.33214 0.026539
620000000 -0.27757 0.093321 -0.023076 0.0084366 0.0036213 0.0093609 0.0083234 -0.0045997
0.011396 -0.0018889 0.00060715 -0.002813
-0.023071 0.0083391 -0.40331 0.048517 -0.018515 0.00061224 -0.0014257 -0.0020703
0.012543 -0.0064905 0.0009973 -0.0028485
0.0036714 0.0092184 -0.01852 0.00074109 -0.15586 0.25997 -0.0011963 -0.0048027
-0.0028312 -0.0033916 0.0082467 -0.0025613
0.0086308 -0.0045185 -0.0016941 -0.0019214 -0.0013524 -0.0047647 -0.2654 0.14562
-0.039391 -0.019562 0.012082 0.027071
0.011682 -0.0018448 0.01232 -0.0066223 -0.002449 -0.0031665 -0.038659 -0.019802
-0.23038 -0.049386 -0.038968 0.012457
0.00035673 -0.0029521 0.0011448 -0.0032413 0.0086454 -0.0028819 0.013068 0.027277
-0.039701 0.012188 -0.25289 -0.0084228
680000000 -0.23938 0.18333 -0.026296 -0.014616 0.00539 0.0054771 0.0018731 -0.0077524
-0.0018692 -0.011909 0.0050815 -0.0070876
-0.026287 -0.014654 -0.38993 0.14943 -0.032619 -0.0020123 -0.0016271 -0.00051006
-0.0017419 -0.0095049 -0.0012305 -0.0021887
0.0053714 0.0052509 -0.032557 -0.001966 -0.10429 0.28032 -0.00056547 -0.00025995
-0.0017812 0.00040317 -0.0029582 -0.0093938
0.0015395 -0.0078765 -0.0015858 -0.00071457 -0.00063186 -0.00023679 -0.22057 0.19626
-0.023496 -0.0073619 -0.0091096 -0.011254
-0.0021851 -0.01177 -0.001685 -0.0095692 -0.0018068 0.00035847 -0.02322 -0.0076491
-0.27875 0.054268 -0.0074302 -0.0072135
0.005126 -0.0068474 -0.001482 -0.0019518 -0.0029161 -0.0094711 -0.0092228 -0.011706
-0.0074534 -0.0067807 -0.26041 0.096961
740000000 -0.19347 0.17697 -0.039616 0.026732 0.013784 -0.0047702 -0.00014186 -0.0043436
-0.004744 -0.0028774 -0.0061822 0.0032816
-0.039574 0.02665 -0.33614 0.16828 -0.037036 0.034804 -0.00036846 -0.0059098
-0.010859 0.0074731 -0.0012114 -0.0059593
0.013936 -0.0050647 -0.037016 0.034905 -0.070594 0.27772 -0.0017933 0.0033651
-0.0029436 -0.0052535 -0.0017232 0.0019411
-0.00041549 -0.0042861 -0.00023172 -0.005934 -0.0018773 0.0034581 -0.20382 0.20404
-0.042465 -0.0073177 0.022639 0.015386
-0.004941 -0.0031289 -0.011139 0.0076493 -0.0027788 -0.0056158 -0.043002 -0.0072994
-0.18022 0.078637 -0.0427 0.00039922
-0.0058736 0.0032046 -0.0013319 -0.0059224 -0.0016708 0.0013454 0.022336 0.014954
-0.042521 0.00045903 -0.24848 0.10307
800000000 -0.16197 0.22061 -0.022525 0.016687 0.0059291 -0.010721 -0.0042819 -0.0020909
-0.0044094 0.0025425 0.0046361 2.4211e-05
-0.022461 0.016667 -0.34173 0.23905 -0.0085531 0.034377 -0.0020412 0.0021972
-0.0010902 0.0030388 0.0012304 0.0051316
0.0058797 -0.010726 -0.008417 0.034402 -0.031811 0.30212 0.00097549 0.001421
-5.5507e-05 0.0035798 -0.0016686 0.00086109
-0.0044336 -0.0020375 -0.0021453 0.002204 0.00094504 0.0014023 -0.17458 0.23164
-0.028828 0.013016 0.014252 -0.0099867
-0.004372 0.0024005 -0.0012091 0.0030626 6.5347e-05 0.0035531 -0.028985 0.013287
-0.22128 0.1097 -0.018006 0.019044
0.0046511 -3.1232e-05 0.0013145 0.0051805 -0.001724 0.00081335 0.014066 -0.010014
-0.017823 0.018784 -0.24002 0.15076
860000000 -0.12771 0.24056 -0.017932 0.03053 -0.0030035 -0.010526 -0.0019261 0.00057008
0.0040147 0.0048538 -0.0033387 -0.003015
-0.017972 0.030517 -0.29366 0.28183 0.0074832 0.0348 0.00014533 0.002
0.0035515 0.0005857 0.0033627 0.00046293
-0.0029129 -0.010503 0.0075968 0.034819 0.01573 0.31084 -0.00070962 -0.00014662
0.0021889 -0.0015475 0.0019014 0.0043617
-0.0019156 0.00059719 0.00013615 0.0020331 -0.0008121 -0.00021432 -0.13807 0.24275
-0.018661 0.018161 -0.0062513 -0.0089708
0.0038898 0.0048157 0.0036258 0.00056818 0.0021469 -0.0015325 -0.018627 0.018296
-0.166 0.16024 -0.024626 0.017017
-0.0036512 -0.0029765 0.003217 0.00063389 0.001814 0.0042673 -0.0059938 -0.0093461
-0.024566 0.017182 -0.18958 0.19519
920000000 -0.10447 0.2641 0.0045449 0.038636 -0.0094909 -0.0050295 -0.0019176 0.0018658
0.0012774 0.0020741 0.0027988 -0.0015818
0.0045517 0.03855 -0.26629 0.3031 0.028386 0.023031 0.0016301 0.0012458
0.0074444 -0.00059482 0.0040879 -0.0025591
-0.0094424 -0.005034 0.028479 0.022979 0.06129 0.31241 0.0019794 0.00011957
0.0010993 -0.00028313 0.00096593 -0.0012765
-0.0019114 0.0018126 0.0014762 0.0013177 0.0019172 7.6834e-05 -0.11379 0.25963
-0.011304 0.031067 0.0033333 -0.0066899
0.0014342 0.0020895 0.0075583 -0.00065579 0.0010241 -0.00033513 -0.0112 0.031174
-0.15469 0.16736 -0.0018798 0.02677
0.0028207 -0.0014815 0.0041234 -0.0026023 0.00098401 -0.0012112 0.0034031 -0.0066161
-0.0015892 0.026515 -0.19698 0.20953
980000000 -0.057744 0.2846 0.01686 0.030429 -0.0095803 0.0042508 0.0018788 0.0037178
0.0040336 -0.0016472 -0.0028892 -0.0024045
0.016897 0.030467 -0.2133 0.33822 0.033777 0.0055068 0.0021588 -5.7938e-05
0.0018 -0.0058945 -0.00011693 -0.0024498
-0.0095991 0.0043079 0.033798 0.0054287 0.1074 0.30688 0.00075411 -0.0010903
0.00054952 -0.001935 0.0015197 -0.00019706
0.0018683 0.0036006 0.0021204 -3.9642e-05 0.00079268 -0.0010935 -0.075441 0.27121
0.007434 0.030806 -0.0090016 -0.0069281
0.004052 -0.001649 0.0017173 -0.0060417 0.0006143 -0.001954 0.0075349 0.030858
-0.12029 0.1967 0.0062867 0.01958
-0.0028911 -0.0023928 -0.00014412 -0.0025145 0.0016347 -0.0002011 -0.0088651 -0.0069924
0.0062754 0.01967 -0.15405 0.25221
1040000000 -0.016132 0.29367 0.033233 0.019328 -0.0016191 0.0071943 0.002794 0.00068894
0.00034514 -0.0035724 -0.00019598 -0.0016456
0.033206 0.019304 -0.17825 0.35198 0.030447 -0.01471 0.0016588 -0.0017348
-0.002187 -0.0027892 -0.00090707 -0.002819
-0.0015955 0.00719 0.03041 -0.014873 0.15357 0.29394 -0.00041915 -0.0016777
-0.0016274 -0.00098292 -0.00032873 -0.0010659
0.0028141 0.00067308 0.001704 -0.0017256 -0.00040705 -0.0016875 -0.047651 0.28083
0.020138 0.019251 -0.0025574 0.0010907
0.0003517 -0.0035522 -0.0021717 -0.002655 -0.0015917 -0.00089509 0.020218 0.019193
-0.087555 0.20324 0.013939 0.018067
-6.9858e-05 -0.0016308 -0.00090042 -0.0027967 -0.00038545 -0.0011161 -0.0025141 0.0011178
0.013883 0.018465 -0.13105 0.27347
1100000000 0.028701 0.30283 0.03676 -0.0035294 0.0028689 0.0043159 0.0023791 -0.0012008
-0.0022531 -0.003248 -0.0039984 -6.0999e-05
0.036708 -0.0035134 -0.135 0.37014 0.016122 -0.028337 2.2918e-05 -0.0019125
-0.0037668 -0.0010055 -0.0035978 -0.00051361
0.0028696 0.0043284 0.016019 -0.028454 0.19994 0.27454 -0.0019798 0.00014741
-0.0017858 0.00042335 -0.0010765 -0.00055269
0.0023975 -0.0012265 4.5964e-05 -0.0018766 -0.001987 0.00014124 -0.007113 0.28603
0.025832 0.0055027 -0.0022089 0.00010902
-0.0021993 -0.0032111 -0.0036862 -0.00096473 -0.0018215 0.00042668 0.02587 0.0054587
-0.06665 0.21598 0.019618 0.0082912
-0.0040416 -0.00014758 -0.0036068 -0.00050388 -0.0011167 -0.00060177 -0.002313 8.2191e-05
0.019622 0.0083689 -0.085279 0.30212
1160000000 0.079774 0.29905 0.024896 -0.020871 0.0029567 -0.00041729 -0.00019024 -0.0024089
-0.003867 -0.00084523 -0.0011387 0.0041039
0.024837 -0.020852 -0.091361 0.37512 -0.003414 -0.030037 -0.0018002 -0.001712
-0.0027787 0.0026437 -0.001472 0.0018798
0.0029427 -0.00042641 -0.0035342 -0.0301 0.24355 0.24416 -0.00080548 0.001875
-0.00063685 0.0020203 -0.00097175 0.00024365
-0.00019954 -0.0024415 -0.0016992 -0.0017151 -0.00078298 0.001851 0.032706 0.2833
0.022057 -0.010787 -0.0032085 0.0052664
-0.0039023 -0.00083748 -0.0027613 0.0026968 -0.00059862 0.0020567 0.022001 -0.010888
-0.032245 0.22398 0.018493 -0.00074067
-0.001138 0.0041082 -0.0015562 0.0019369 -0.00099148 0.00027846 -0.0032318 0.005235
0.01841 -0.00081101 -0.038407 0.30462
1220000000 0.12397 0.2893 0.011226 -0.030617 -0.0015076 -0.0010342 -4.413e-05 -0.00083912
-0.0026788 0.0021878 0.0011287 0.0019697
0.011217 -0.030598 -0.046996 0.3883 -0.017289 -0.022167 -0.0027015 0.0004947
6.1745e-05 0.0031671 -0.00077132 0.0019896
-0.0015066 -0.00103 -0.017415 -0.022117 0.28266 0.20531 0.00080094 0.001806
0.00059509 0.0012856 0.00030147 0.00056327
-4.3067e-05 -0.00086866 -0.0027137 0.00050965 0.00082815 0.0018085 0.073064 0.27443
0.01118 -0.018032 0.0020667 0.0014533
-0.0026597 0.0021967 7.8858e-05 0.0031534 0.00054632 0.001237 0.011181 -0.018011
-0.0081924 0.23262 0.013887 -0.013563
0.0010769 0.0019829 -0.00077356 0.0019632 0.0002189 0.0006228 0.0021865 0.0013915
0.013831 -0.013547 -0.0064755 0.31936
1280000000 0.17454 0.26885 -0.0078862 -0.029326 -0.0020717 0.0024458 -0.00087833 -0.0019742
-0.00080861 0.0032642 0.0025088 0.0012296
-0.0078353 -0.029284 -0.00054732 0.37998 -0.024647 -0.0089207 -0.0009495 0.0015017
0.0018064 0.0016839 0.00067531 0.0020376
-0.0020573 0.0024359 -0.024693 -0.0088048 0.31324 0.16173 0.0016627 -8.4854e-05
0.0012558 0.00027841 0.00033036 0.00027496
-0.00087045 -0.0019932 -0.00093696 0.0015296 0.0016193 -9.3969e-05 0.11015 0.25789
0.00080499 -0.020327 -8.5993e-05 0.00028079
-0.00076138 0.0032058 0.0018309 0.0016992 0.0012834 0.00028121 0.00075713 -0.020297
0.028856 0.23576 0.00282 -0.015675
0.0024942 0.0012352 0.00063977 0.0019898 0.00034372 0.00026941 -5.0225e-05 0.00025957
0.0028846 -0.015701 0.040729 0.32124
1340000000 0.21209 0.23582 -0.017988 -0.019485 0.00072041 0.0047822 -0.0017463 -0.00083747
0.0014974 0.0026734 0.0017013 -0.0014238
-0.017945 -0.019469 0.039154 0.37188 -0.022309 0.0043783 -1.6335e-05 0.0020597
0.001999 0.00076068 0.0012455 0.00077022
0.00072481 0.0048044 -0.022305 0.0044724 0.335 0.11443 0.0010497 -0.00089171
0.00068703 -0.00060549 7.9038e-06 0.00029444
-0.0017613 -0.00088146 -6.4957e-05 0.0020562 0.0010658 -0.00090506 0.14311 0.23656
-0.0091345 -0.017295 0.00075329 0.00054467
0.0014783 0.0026808 0.0020171 0.00072533 0.00071669 -0.00063629 -0.0091677 -0.01733
0.059351 0.23069 -0.0041751 -0.014314
0.0018456 -0.0014143 0.0012482 0.00078484 5.3203e-05 0.00027815 0.00075409 0.00045711
-0.0042453 -0.014305 0.078682 0.31538
1400000000 0.24598 0.19843 -0.024051 -0.0075823 0.0053436 0.0034847 -0.0022025 0.00062265
0.0025696 0.00094092 0.00023075 -0.0016
-0.024018 -0.0075789 0.076719 0.35913 -0.015432 0.012954 0.001403 0.0012719
0.0012738 -0.00085357 0.0011925 8.8973e-05
0.0053675 0.0035163 -0.015367 0.013049 0.348 0.061668 3.0904e-05 -0.0016114
0.00012799 -0.00036656 0.0003968 0.00024331
-0.0022425 0.00066072 0.0013945 0.001267 2.8511e-05 -0.0016342 0.17238 0.20739
-0.015476 -0.0099538 -0.00079595 -0.00023563
0.0025114 0.00097943 0.0012524 -0.00083865 0.00013401 -0.00038973 -0.015497 -0.009894
0.092575 0.22567 -0.010605 -0.0087107
0.00022548 -0.0016034 0.0011804 6.6606e-05 0.00036888 0.00019144 -0.00078855 -0.0002031
-0.010641 -0.008697 0.1231 0.30405
1460000000 0.26927 0.15458 -0.020815 0.005022 0.0059669 -0.0016633 -0.0015762 0.0017606
0.0022046 -0.00056126 -0.0004121 -0.00099663
-0.020808 0.0050141 0.11101 0.33722 -0.0061556 0.016051 0.0016429 0.00013172
0.00084722 -0.0013291 0.0012305 -0.00062755
0.0060313 -0.0017006 -0.006075 0.01613 0.35462 0.0082319 -0.00128 -0.001265
0.00010539 -0.00026842 0.00070898 -0.00015131
-0.0015483 0.0017832 0.0016576 0.00010428 -0.0012556 -0.0013293 0.19871 0.17784
-0.016554 -0.0027804 -0.00083176 0.0020713
0.0021614 -0.00052869 0.000829 -0.0013683 8.6671e-05 -0.00025518 -0.016565 -0.0027815
0.12228 0.21083 -0.012416 -0.002652
-0.00040971 -0.00097045 0.0012435 -0.00062799 0.00071307 -0.00013485 -0.00087615 0.0021343
-0.012512 -0.0026582 0.1562 0.28328
1520000000 0.28179 0.11313 -0.014972 0.010718 0.0035996 -0.00436 0.00015779 0.0025833
0.0021038 -0.0020134 -0.0011172 -0.00013503
-0.014945 0.010695 0.14436 0.32285 0.0018518 0.013594 0.0016162 -0.00076303
2.6627e-05 -0.0010683 0.00029763 -0.0010979
0.0036101 -0.0043529 0.0019475 0.013596 0.34845 -0.047339 -0.0010719 -0.00032733
0.00064589 -0.00088928 0.00012932 -0.00022989
0.00013297 0.0025973 0.0016371 -0.00075983 -0.001056 -0.00032813 0.22133 0.13945
-0.015493 0.0034553 0.0015592 0.0021127
0.0021072 -0.0020421 1.1616e-05 -0.0010977 0.00062318 -0.00086724 -0.015464 0.0034778
0.15038 0.197 -0.012093 0.0020348
-0.0011403 -0.00017336 0.00028271 -0.0010739 8.748e-05 -0.00027109 0.0015432 0.0021144
-0.01208 0.002033 0.18876 0.2625
1580000000 0.29169 0.067384 -0.0079096 0.013932 -0.00087208 -0.0052116 0.0015346 0.0019236
-0.0001994 -0.0021587 -0.00021065 0.00038658
-0.0079338 0.013942 0.1716 0.29848 0.005698 0.0083893 0.00055351 -0.0015262
-0.00055401 -0.00096005 -0.00025496 -0.0008251
-0.00093587 -0.0052226 0.0057951 0.0084114 0.32939 -0.10466 -0.0016691 0.00064312
-0.00040099 -0.0011851 0.00014464 -0.00053079
0.0015582 0.0019122 0.00053584 -0.0015394 -0.0016499 0.00061016 0.23468 0.10018
-0.011408 0.0083105 0.0022285 0.00064373
-0.00021693 -0.0021779 -0.00057241 -0.0009734 -0.00038051 -0.0012206 -0.011404 0.0083406
0.17451 0.1787 -0.0094885 0.0077516
-0.00019316 0.00039941 -0.00020566 -0.00078985 0.00020716 -0.00054326 0.0022444 0.0007133
-0.009421 0.0077681 0.22025 0.23576
1640000000 0.29414 0.026521 -0.00095287 0.012491 -0.0029321 -0.0028011 0.00277 0.0010204
-0.0008212 -0.0016017 -0.00027405 0.00054838
-0.00097432 0.012494 0.20111 0.274 0.0063291 0.0033079 -0.00060665 -0.0018184
-0.00097389 -0.00037784 -0.00054337 -0.0006315
-0.0030262 -0.0027845 0.0063639 0.0032281 0.30149 -0.15407 -0.00063362 0.0014195
-0.0010303 -0.00092353 -0.00018323 -0.00037101
0.0027589 0.0010124 -0.00062152 -0.0018098 -0.00063177 0.001442 0.24678 0.0517
-0.0068399 0.0094588 0.0024792 -0.00080215
-0.00078604 -0.0016012 -0.00095274 -0.00037102 -0.00094085 -0.00091845 -0.0068228 0.0094602
0.19743 0.15446 -0.004448 0.0097259
-0.000281 0.00055309 -0.00054996 -0.00062852 -0.00020122 -0.00040405 0.0024977 -0.00083718
-0.0044636 0.0097517 0.24597 0.20475
1700000000 0.28757 -0.018499 0.0024472 0.0094091 -0.0037606 -3.9687e-05 0.0031589 -0.0012656
-0.0019905 -0.0006732 0.00058023 0.00038821
0.0024514 0.0094012 0.21928 0.24311 0.0040886 0.00029543 -0.0014837 -0.00059914
-0.00076306 3.266e-05 -0.00087619 -0.00041635
-0.0037689 -7.6267e-05 0.004097 0.0002345 0.25866 -0.19411 0.0004227 0.0015197
-0.0019894 -0.00010615 -0.0004161 -0.00084883
0.0031459 -0.0012622 -0.0014929 -0.00059232 0.00041049 0.0014916 0.24332 0.0024608
-0.0038878 0.0096027 0.0015079 -0.0023047
-0.0020256 -0.00064618 -0.00076279 4.3164e-05 -0.0019006 -0.00014765 -0.0038934 0.0096246
0.21441 0.13406 0.00028723 0.0097263
0.0005313 0.00036169 -0.00087646 -0.00042606 -0.00043078 -0.00083607 0.0015285 -0.0023447
0.00028078 0.009763 0.26188 0.17043
1760000000 0.27626 -0.066906 0.0046229 0.0059287 -0.0024408 0.0010675 0.0012455 -0.0034908
-0.0013924 0.00067876 0.00027665 -0.00050566
0.0046223 0.0059281 0.24569 0.20391 0.0016575 -0.0016054 -0.0012295 0.00016458
-0.0010451 0.00082488 -0.00064624 0.00035838
-0.0024532 0.0010395 0.0016362 -0.0016123 0.21078 -0.22765 0.0010551 0.0011601
-0.0013075 0.0013715 -0.0013457 -0.00073659
0.0012176 -0.0034923 -0.00125 0.00016987 0.0010154 0.0010674 0.2348 -0.048372
-0.00078756 0.0085232 -0.00025502 -0.002559
-0.0013922 0.00070222 -0.0010477 0.00083092 -0.0013437 0.001382 -0.00072983 0.0085038
0.22912 0.099569 0.004226 0.0071034
0.00028646 -0.00054635 -0.00058236 0.00036221 -0.0011691 -0.00068092 -0.00019831 -0.0025608
0.004183 0.0070764 0.27482 0.13287
1820000000 0.25229 -0.10433 0.0045404 0.0023092 -0.00017593 0.0024776 -0.00094943 -0.0030723
-0.0011141 0.0010023 -0.00011298 -5.0429e-05
0.0045256 0.0023169 0.25625 0.17426 -0.00073197 -0.0002833 -0.0013097 0.00096389
-5.9181e-05 0.001197 -0.00061038 0.00051824
-0.00020937 0.0025701 -0.00077104 -0.00026732 0.15985 -0.24379 0.0015016 0.00049047
-0.00019183 0.002314 -0.0014647 0.00038431
-0.0010561 -0.0030805 -0.001302 0.00093522 0.0015787 0.00050692 0.20533 -0.095398
0.00048806 0.0071445 -0.0018123 -0.0015181
-0.0011249 0.0010033 -5.5017e-05 0.0012069 -0.0002089 0.002359 0.00053452 0.0071727
0.24598 0.070979 0.0050213 0.0034669
-2.3324e-05 -6.5582e-05 -0.00063411 0.00054239 -0.0016077 0.00032739 -0.001783 -0.0014861
0.0050072 0.0034908 0.27679 0.096229
1880000000 0.21773 -0.14495 0.0022027 5.9089e-05 -0.00054708 0.0020881 -0.0029806 -0.0021168
-0.00030478 0.0018427 -2.9804e-06 -0.00048983
0.0022314 7.1107e-05 0.2614 0.128 -0.0026142 0.0015981 -0.00025073 0.001743
0.00051343 0.001317 -6.9861e-06 0.0009237
-0.00054399 0.0021194 -0.0026092 0.0015711 0.10797 -0.25327 0.001772 -0.00089629
0.0015094 0.0020269 -0.0012387 0.0014317
-0.0029263 -0.0021148 -0.00024733 0.0017484 0.0018058 -0.00091993 0.1654 -0.13554
0.0012235 0.0052844 -0.0024734 0.00034898
-0.00023611 0.0018927 0.00051138 0.0012957 0.0014947 0.0019592 0.0012574 0.0052571
0.24971 0.040041 0.0051833 0.0011982
5.1637e-05 -0.00041853 2.8432e-05 0.000929 -0.0012124 0.0014608 -0.0024403 0.00033246
0.0051356 0.0011643 0.27656 0.062268
1940000000 0.17873 -0.17093 -0.00021668 -0.0014709 0.0013213 0.0021265 -0.0036445 0.00050946
0.0014379 0.0011461 -0.00055262 -0.00055409
-0.00022164 -0.0014777 0.26271 0.096135 -0.0014183 0.0040701 0.0010226 0.001321
0.0018589 0.0005714 0.0010462 0.00040373
0.0013946 0.0021256 -0.0013507 0.0040864 0.062444 -0.24616 0.00048744 -0.0023529
0.0024472 0.00035982 0.00064089 0.0018343
-0.0036316 0.00052523 0.0010193 0.0013133 0.00055515 -0.0023255 0.11358 -0.16663
0.00071393 0.0040901 -0.0014818 0.0016232
0.0013865 0.0011565 0.0018623 0.00049785 0.0024673 0.00039576 0.00071593 0.0041087
0.25294 0.0021992 0.0038146 -0.0019875
-0.00057371 -0.00051272 0.0010961 0.00034427 0.00061368 0.0018033 -0.0014429 0.0016395
0.0038052 -0.0020182 0.26579 0.026202
2000000000 0.13274 -0.18632 -0.0039361 0.00068177 0.002613 0.0015034 -0.0022363 0.0037849
0.0013405 0.00038988 -0.00058873 0.00043353
-0.0039635 0.00067739 0.24913 0.060368 -0.001001 0.0058038 0.0016571 0.00055005
0.0014282 -0.0010428 0.00052637 8.7324e-05
0.0026966 0.0015272 -0.00095553 0.0058302 0.019103 -0.23261 -0.0011765 -0.0013084
0.0022492 -0.0011981 0.0018061 0.0014541
-0.0021505 0.0038032 0.0016341 0.00049415 -0.0011808 -0.0013426 0.060244 -0.17721
-0.00051851 0.0038467 4.2248e-05 0.0023274
0.0013147 0.00043861 0.0014257 -0.0010432 0.0021599 -0.0010875 -0.0004879 0.0038871
0.2482 -0.030627 0.00061074 -0.0028889
