!Keysight Technologies,M9804A,MY58100912,A.14.10.03
!Date: Thursday, April 27, 2023 10:28:33
!Correction: S11(C  6-Port  ) 
!S12(C  6-Port  ) 
!S13(C  6-Port  ) 
!S14(C  6-Port  ) 
!S15(C  6-Port  ) 
!S16(C  6-Port  ) 
!S21(C  6-Port  ) 
!S22(C  6-Port  ) 
!S23(C  6-Port  ) 
!S24(C  6-Port  ) 
!S25(C  6-Port  ) 
!S26(C  6-Port  ) 
!S31(C  6-Port  ) 
!S32(C  6-Port  ) 
!S33(C  6-Port  ) 
!S34(C  6-Port  ) 
!S35(C  6-Port  ) 
!S36(C  6-Port  ) 
!S41(C  6-Port  ) 
!S42(C  6-Port  ) 
!S43(C  6-Port  ) 
!S44(C  6-Port  ) 
!S45(C  6-Port  ) 
!S46(C  6-Port  ) 
!S51(C  6-Port  ) 
!S52(C  6-Port  ) 
!S53(C  6-Port  ) 
!S54(C  6-Port  ) 
!S55(C  6-Port  ) 
!S56(C  6-Port  ) 
!S61(C  6-Port  ) 
!S62(C  6-Port  ) 
!S63(C  6-Port  ) 
!S64(C  6-Port  ) 
!S65(C  6-Port  ) 
!S66(C  6-Port  ) 
!S6P File: Measurement: :
# Hz S  RI   R 50
500000000 -0.33302 -0.053777 -0.010192 -0.0013805 -0.0081709 0.013469 -0.004377 0.012466
0.013119 0.005311 -0.0039713 0.008991
-0.010164 -0.0015769 -0.41609 -0.063359 0.0084024 -0.010332 0.00085167 0.01202
0.0084573 0.002385 0.00084876 0.013356
-0.0083498 0.013395 0.0084668 -0.010087 -0.26667 0.19925 0.0066807 0.0034003
-0.0011214 0.0085821 0.00036383 0.012247
-0.0039223 0.012158 0.00059595 0.0124 0.0064851 0.0033386 -0.33292 0.043134
-0.017959 -0.0051186 0.01529 0.024658
0.012666 0.0045254 0.0084819 0.0018745 -0.00094661 0.0083156 -0.018084 -0.0051814
-0.24852 -0.19549 -0.025701 0.0044684
-0.0036675 0.0084512 0.00019422 0.013974 -5.2947e-05 0.012001 0.015469 0.024378
-0.025825 0.0046358 -0.27264 -0.12348
560000000 -0.3199 0.11404 -0.022935 -0.064825 -0.0004602 0.013214 0.0053582 0.011267
0.010637 0.0058331 0.010516 0.008037
-0.022613 -0.064648 -0.37462 0.099168 -0.041833 -0.036858 0.013938 0.0031993
-0.012359 -0.0038605 0.0049511 -0.0001915
-0.0002218 0.013517 -0.041852 -0.037089 -0.18578 0.24963 -0.00058547 -0.0046229
0.01889 0.0057305 0.0073796 -0.0054728
0.0053841 0.01103 0.013496 0.0029968 -0.0005075 -0.0044849 -0.30664 0.13437
0.0059332 -0.023764 0.0057922 -0.021993
0.012057 0.0056106 -0.012748 -0.0036686 0.019456 0.004396 0.0053596 -0.023502
-0.31121 -0.018696 0.0076586 -0.047787
0.01082 0.0092856 0.0044428 -0.00095227 0.0075108 -0.0050781 0.005731 -0.022189
0.008656 -0.047545 -0.33109 0.02539
620000000 -0.27798 0.09386 -0.02315 0.0087205 0.0039382 0.0095783 0.0075518 -0.0046958
0.010905 -0.0014164 -0.00042222 -0.0013624
-0.023172 0.0087499 -0.40325 0.048736 -0.018297 0.00062809 -0.0016373 -0.0017554
0.012517 -0.0065259 0.00094337 -0.0028526
0.0036917 0.0097372 -0.018375 0.00063305 -0.1557 0.26007 -0.00091802 -0.0050544
-0.0035814 -0.0033563 0.0090478 -0.0028677
0.0075914 -0.0042717 -0.0017439 -0.0016007 -0.0009361 -0.0048994 -0.26578 0.14564
-0.039106 -0.019154 0.013785 0.026725
0.012015 -0.0017633 0.012598 -0.0066309 -0.0030775 -0.0032372 -0.038458 -0.018633
-0.23055 -0.050042 -0.041519 0.013516
-0.00023927 -0.0014973 0.0011389 -0.0029155 0.0086386 -0.0028384 0.013131 0.026609
-0.040929 0.013286 -0.24913 -0.007764
680000000 -0.23893 0.18316 -0.025968 -0.014538 0.005586 0.0049839 0.0022676 -0.0074037
-0.0023012 -0.012373 0.0060476 -0.0078723
-0.025949 -0.014621 -0.38981 0.1497 -0.032519 -0.0021309 -0.0013622 -0.00056239
-0.0017735 -0.0096477 -0.00086945 -0.0021014
0.0055366 0.0049586 -0.032504 -0.0020679 -0.10409 0.28041 -0.00059909 -0.00032119
-0.0018059 0.00020109 -0.0026694 -0.0092859
0.0019517 -0.0075746 -0.001537 -0.00060941 -0.00069497 -0.00035443 -0.22071 0.19721
-0.023559 -0.0076387 -0.0091206 -0.011444
-0.0026121 -0.012115 -0.0017982 -0.0095618 -0.0020835 0.00034967 -0.023578 -0.0077179
-0.27909 0.053506 -0.0076899 -0.0077324
0.0061051 -0.0080135 -0.000483 -0.0022182 -0.0026247 -0.0094282 -0.0088268 -0.011597
-0.0076501 -0.0083837 -0.25922 0.095459
740000000 -0.19309 0.17682 -0.03949 0.026302 0.01366 -0.0051483 -0.00059241 -0.0037838
-0.0046061 -0.0025701 -0.0064432 0.0039428
-0.03956 0.026368 -0.33498 0.16818 -0.036996 0.03472 -0.00012914 -0.0056722
-0.012839 0.0067925 -0.0011826 -0.0060499
0.01355 -0.0049981 -0.037021 0.035035 -0.070315 0.27808 -0.0023049 0.003638
-0.0023674 -0.0058377 -0.0017769 0.0017016
1.2137e-05 -0.0037417 6.8053e-05 -0.0060331 -0.002267 0.0035487 -0.2041 0.20417
-0.043109 -0.0071195 0.022295 0.01523
-0.0052023 -0.0033932 -0.012509 0.0072796 -0.0027563 -0.0059808 -0.043222 -0.0073536
-0.17901 0.080016 -0.042309 0.0018281
-0.006064 0.0038309 -0.0013003 -0.00598 -0.0017909 0.0018692 0.022008 0.01543
-0.042428 8.7449e-05 -0.24825 0.10155
800000000 -0.16237 0.22072 -0.022708 0.016522 0.0056776 -0.010456 -0.0044405 -0.0022695
-0.0043439 0.0029668 0.0041482 0.00045957
-0.022738 0.016457 -0.34162 0.23918 -0.0086649 0.03431 -0.002229 0.0021496
-0.0011746 0.0033554 0.0010968 0.005318
0.0055292 -0.010525 -0.0086648 0.034347 -0.03168 0.30221 0.00087119 0.0012974
0.00011194 0.0037796 -0.0018644 0.0009762
-0.0047783 -0.0021593 -0.0023817 0.0021034 0.00079605 0.0014723 -0.17418 0.23135
-0.029275 0.013699 0.013993 -0.010524
-0.0043359 0.0026688 -0.0012932 0.0031737 -3.2182e-05 0.0036248 -0.029079 0.013718
-0.22108 0.10932 -0.01789 0.0196
0.0035455 0.000303 0.000696 0.0052431 -0.0020405 0.00098472 0.014348 -0.0108
-0.018157 0.019703 -0.2405 0.14996
860000000 -0.12781 0.24079 -0.018208 0.030428 -0.0029173 -0.010372 -0.0017445 0.00054964
0.0039721 0.0051857 -0.0034056 -0.0026433
-0.018156 0.030372 -0.29338 0.28197 0.0074227 0.034549 0.00019617 0.0020659
0.0037511 0.00088363 0.003297 0.00055933
-0.0028823 -0.010372 0.0074472 0.034527 0.016021 0.31056 -0.00074004 -6.1097e-05
0.0023015 -0.0013558 0.0018027 0.004244
-0.001848 0.00042899 0.00017418 0.0020495 -0.00072353 -0.0001132 -0.13814 0.24232
-0.018917 0.018217 -0.0060891 -0.0085992
0.0040255 0.0052396 0.0034132 0.0007624 0.0023893 -0.0013967 -0.019147 0.018365
-0.16565 0.16026 -0.024154 0.017136
-0.0034914 -0.0029237 0.0032127 0.00040974 0.0018158 0.0042396 -0.0061779 -0.0084188
-0.024199 0.016991 -0.19016 0.19552
920000000 -0.10363 0.26425 0.0046405 0.038551 -0.0091842 -0.0050432 -0.0018566 0.0018553
0.0012143 0.0020273 0.0028604 -0.0014119
0.0045899 0.03855 -0.26599 0.3034 0.028217 0.022936 0.001535 0.0011663
0.00738 -2.8151e-05 0.0040997 -0.0029535
-0.0091693 -0.005038 0.028309 0.022849 0.061447 0.31215 0.0019798 5.6455e-05
0.00095949 -0.00010275 0.0010482 -0.0014219
-0.0018163 0.0019535 0.0015765 0.001263 0.001956 3.8269e-05 -0.11339 0.2596
-0.011383 0.030833 0.003501 -0.0065573
0.0014761 0.0020669 0.0074898 3.4158e-05 0.0010565 -0.00015519 -0.011308 0.030841
-0.15466 0.16766 -0.0017622 0.026227
0.0029663 -0.0013845 0.0041948 -0.0028911 0.0011251 -0.0014211 0.0035254 -0.0064918
-0.0016827 0.026529 -0.19674 0.20945
980000000 -0.057288 0.28468 0.017064 0.030423 -0.0094976 0.0041794 0.0016886 0.0036964
0.0042955 -0.0015516 -0.0026141 -0.002445
0.017046 0.030419 -0.21283 0.33837 0.033634 0.0054822 0.0019787 -4.3557e-05
0.001938 -0.0060631 -6.1656e-05 -0.002378
-0.0094804 0.0042154 0.033658 0.0053943 0.10744 0.30664 0.00078605 -0.0011481
0.00064146 -0.0019592 0.0016553 -0.00023115
0.0017838 0.003692 0.0020127 -9.0883e-05 0.00077489 -0.001167 -0.075302 0.27101
0.0074519 0.03059 -0.0090068 -0.0070009
0.0042205 -0.0016361 0.0018902 -0.0059575 0.00073496 -0.0020157 0.0075717 0.030598
-0.12092 0.19639 0.0064515 0.019406
-0.0026511 -0.0023376 -0.00015816 -0.0022247 0.001634 -0.00018349 -0.0089539 -0.0070682
0.0062674 0.019452 -0.15387 0.25221
1040000000 -0.016134 0.29353 0.033096 0.019233 -0.0015821 0.0070651 0.0027962 0.0006617
0.00034865 -0.0034408 -0.00014177 -0.0015758
0.033099 0.019234 -0.17785 0.35191 0.030321 -0.014648 0.0016951 -0.0017897
-0.0020947 -0.0027023 -0.00098294 -0.0027563
-0.0015413 0.0070599 0.030273 -0.014765 0.15345 0.29367 -0.00040475 -0.0017207
-0.00158 -0.0010196 -0.00044864 -0.0012055
0.0027029 0.00071503 0.0017362 -0.0017845 -0.00041317 -0.0017635 -0.047355 0.28059
0.019701 0.019253 -0.0025242 0.0012249
0.00029495 -0.0035862 -0.0020434 -0.0026712 -0.0016467 -0.00098037 0.019908 0.019155
-0.087798 0.20279 0.013949 0.018367
-1.1747e-07 -0.0015616 -0.0010168 -0.0028116 -0.00043768 -0.0012449 -0.0023333 0.0012384
0.013842 0.018447 -0.13089 0.27342
1100000000 0.029082 0.3028 0.036629 -0.0035135 0.0028018 0.0042684 0.0023875 -0.0011694
-0.0021592 -0.003209 -0.0040754 -0.00016394
0.036607 -0.0034909 -0.13472 0.37005 0.016012 -0.028139 -1.757e-05 -0.0019402
-0.003698 -0.0011398 -0.0036867 -0.00054127
0.0028142 0.0042846 0.015937 -0.028248 0.1997 0.27434 -0.0020349 5.2975e-05
-0.0018034 0.00041667 -0.0010917 -0.00048654
0.0024312 -0.0011713 -2.6473e-05 -0.0019415 -0.0019891 6.152e-05 -0.0070157 0.2858
0.025581 0.0054784 -0.0022385 6.9093e-05
-0.0020803 -0.0031634 -0.003724 -0.0010303 -0.0018073 0.00040842 0.025547 0.0054647
-0.066853 0.21537 0.019637 0.0082153
-0.0040287 -5.1558e-05 -0.0037073 -0.0005091 -0.0010409 -0.00051085 -0.0022456 9.2489e-05
0.019564 0.00825 -0.085071 0.30176
1160000000 0.080012 0.29904 0.024752 -0.02068 0.0028652 -0.00044625 -9.7867e-05 -0.0024136
-0.0039622 -0.0008073 -0.0011261 0.0041652
0.024726 -0.020681 -0.091157 0.37496 -0.0033557 -0.029923 -0.0017026 -0.0017804
-0.0028986 0.0025493 -0.0015621 0.0019236
0.0029062 -0.00045564 -0.0034885 -0.029919 0.24315 0.24421 -0.0008006 0.0018357
-0.00071949 0.0020028 -0.0010842 0.00032727
-0.00017119 -0.0024059 -0.0016638 -0.0017454 -0.00080436 0.0018168 0.032605 0.28312
0.021935 -0.010689 -0.0032807 0.0050951
-0.0039774 -0.00082327 -0.0028628 0.0025241 -0.00066765 0.0019945 0.021902 -0.010798
-0.032626 0.22335 0.018678 -0.00074416
-0.0011903 0.0041744 -0.0016289 0.0019043 -0.0010836 0.00036846 -0.0033331 0.0051411
0.018725 -0.00073147 -0.038412 0.30468
1220000000 0.12425 0.28916 0.011189 -0.030404 -0.0014996 -0.00095982 -2.833e-05 -0.00086545
-0.0027713 0.0022562 0.0011115 0.0020989
0.011208 -0.030343 -0.046894 0.38807 -0.017153 -0.022074 -0.0027264 0.00050429
-5.7739e-05 0.0032098 -0.00082918 0.0019647
-0.0015143 -0.00097021 -0.017246 -0.022008 0.28239 0.2056 0.00079767 0.0017649
0.00062621 0.0012886 0.00026725 0.00060863
7.9803e-06 -0.00087107 -0.00275 0.00047283 0.00077095 0.0017836 0.072789 0.27445
0.011162 -0.017846 0.0021349 0.0014329
-0.0027081 0.0023076 -2.6681e-05 0.0032268 0.0006294 0.0012544 0.011132 -0.017869
-0.0085084 0.23185 0.013769 -0.013534
0.0010865 0.0021474 -0.00086836 0.0020322 0.00027782 0.00060888 0.0020672 0.0013637
0.013743 -0.013456 -0.0062798 0.31936
1280000000 0.1748 0.26866 -0.0077056 -0.029172 -0.0020604 0.0024944 -0.00081685 -0.0019619
-0.00083263 0.0031955 0.0025807 0.0012677
-0.0076887 -0.029163 -0.00060923 0.37972 -0.024456 -0.0089317 -0.00096039 0.0015253
0.0018067 0.001735 0.00063827 0.0020376
-0.0020504 0.0024677 -0.024562 -0.0088154 0.31314 0.16202 0.0016524 -2.9423e-05
0.0012898 0.00026753 0.00035283 0.00022686
-0.00086361 -0.0019418 -0.00094554 0.0015372 0.0016358 -2.9165e-05 0.10998 0.25796
0.00097861 -0.020182 -0.00015817 0.00033207
-0.00083392 0.0031616 0.0017837 0.001728 0.0012833 0.00031055 0.00094339 -0.020201
0.028437 0.23511 0.0027369 -0.015924
0.0026363 0.0013093 0.00066766 0.0020847 0.0003747 0.00025297 -0.0001452 0.00032538
0.0028113 -0.015902 0.040451 0.32089
1340000000 0.21221 0.23555 -0.017746 -0.019477 0.00071667 0.004744 -0.0017389 -0.00083932
0.0014766 0.0027307 0.0018066 -0.0013021
-0.017734 -0.019476 0.039103 0.37193 -0.022189 0.0042799 -5.0856e-05 0.0020509
0.0020873 0.00082937 0.0013306 0.00081981
0.00075068 0.0047766 -0.022187 0.0043615 0.33512 0.1148 0.0011739 -0.0009331
0.00082409 -0.00058241 4.4608e-05 0.00031062
-0.0017543 -0.00084576 -6.2041e-05 0.0020905 0.0011643 -0.00093775 0.14299 0.23695
-0.0089779 -0.017361 0.00069542 0.0004939
0.0015069 0.0027214 0.0021015 0.00082456 0.00074591 -0.00060022 -0.0090039 -0.01733
0.058425 0.23022 -0.0041284 -0.014358
0.0017911 -0.0013113 0.0013272 0.00083233 7.5522e-05 0.00034969 0.00070064 0.0004828
-0.0041247 -0.014323 0.078577 0.31542
1400000000 0.24613 0.19823 -0.023838 -0.0077176 0.0053855 0.0034421 -0.0022022 0.00064224
0.0024834 0.00098624 0.00029229 -0.0015294
-0.023794 -0.0077297 0.076665 0.35935 -0.015345 0.012766 0.001377 0.0013003
0.0013226 -0.00076225 0.0012195 8.2505e-05
0.0053829 0.0034551 -0.015294 0.01289 0.34832 0.061864 2.4199e-05 -0.0016221
0.00010898 -0.0004697 0.00039808 0.00017113
-0.0021706 0.00062846 0.0014021 0.0012713 3.2409e-05 -0.0016231 0.1724 0.20774
-0.015177 -0.010098 -0.00082387 -0.00023235
0.0024859 0.00094516 0.0013196 -0.00079405 0.00011722 -0.00048553 -0.015215 -0.010084
0.091757 0.22544 -0.010622 -0.0088647
0.00032848 -0.0015155 0.0012003 0.00010803 0.0003812 0.00017637 -0.00084606 -0.0002319
-0.010609 -0.0088863 0.12314 0.30412
1460000000 0.26943 0.15451 -0.020762 0.004762 0.0059025 -0.0017215 -0.0015473 0.001796
0.0022206 -0.00047106 -0.00030343 -0.0010398
-0.020773 0.0047598 0.1111 0.33754 -0.0061912 0.015972 0.0017022 0.00013951
0.00092204 -0.0013826 0.0012611 -0.00060811
0.0058953 -0.0017677 -0.0061373 0.016033 0.35491 0.0080468 -0.0011599 -0.0013176
0.0001029 -0.0002274 0.00070458 -0.00022078
-0.0015728 0.0018026 0.0017494 0.00012299 -0.0011919 -0.0013189 0.19888 0.17802
-0.016483 -0.0031101 -0.00088335 0.0020687
0.0021792 -0.00050717 0.00091237 -0.0013979 0.00011659 -0.00020527 -0.016494 -0.0030849
0.12132 0.21089 -0.012506 -0.0027487
-0.00035118 -0.00099941 0.001261 -0.00064149 0.00074009 -0.0002644 -0.00082379 0.0020267
-0.012495 -0.0026741 0.15614 0.28321
1520000000 0.28202 0.11305 -0.015018 0.010513 0.0035764 -0.0043955 8.2726e-05 0.0025808
0.0020933 -0.0019746 -0.0011942 -0.00020173
-0.015014 0.010488 0.14463 0.32316 0.0017869 0.013513 0.0016598 -0.00079562
3.0884e-05 -0.0011459 0.000328 -0.0010604
0.0035654 -0.0043766 0.0018522 0.013535 0.34873 -0.047586 -0.0010891 -0.00036943
0.00070451 -0.00091987 0.00012497 -0.00024336
9.1641e-05 0.0026015 0.0016569 -0.00080855 -0.0011109 -0.00040747 0.22162 0.13978
-0.01563 0.0032194 0.0015293 0.0020936
0.0020853 -0.0019644 -1.5488e-05 -0.001136 0.00068247 -0.0009212 -0.01562 0.0032481
0.14948 0.19723 -0.012146 0.0019473
-0.0012711 -0.00017227 0.00028076 -0.0010382 8.4104e-05 -0.00021774 0.0015579 0.0021074
-0.012169 0.0019352 0.18867 0.26235
1580000000 0.29212 0.067143 -0.0081027 0.013797 -0.00085861 -0.0052524 0.0014914 0.0019156
-0.00028097 -0.0022301 -0.00024677 0.00048395
-0.0080974 0.013783 0.17199 0.2987 0.005591 0.0083854 0.00053474 -0.0015813
-0.00062589 -0.0010428 -0.00022151 -0.00086252
-0.00094811 -0.0052054 0.0056636 0.0083641 0.32938 -0.1049 -0.0016822 0.00059169
-0.00035332 -0.0012789 0.00022012 -0.00059299
0.0015243 0.0019073 0.00052045 -0.0015972 -0.0017109 0.00055187 0.23509 0.10039
-0.011741 0.0082454 0.0022516 0.00074083
-0.00028857 -0.0022724 -0.00064084 -0.0010499 -0.00036729 -0.0012982 -0.011705 0.0082836
0.17383 0.17914 -0.0095229 0.0077251
-0.00027157 0.00046978 -0.00019862 -0.00085713 0.00024931 -0.00059624 0.0022139 0.0007071
-0.0095503 0.0077024 0.22028 0.23562
1640000000 0.2946 0.02617 -0.0011577 0.012509 -0.0030472 -0.0027067 0.0027338 0.0010627
-0.00080941 -0.0016139 -0.00036849 0.00065204
-0.0011743 0.012508 0.20169 0.27414 0.0062425 0.0033619 -0.00064826 -0.0018184
-0.0010287 -0.00040597 -0.00059276 -0.00062219
-0.0030578 -0.0027088 0.006259 0.0033073 0.30154 -0.15424 -0.00072715 0.0014494
-0.0011213 -0.00090777 -0.00020816 -0.00027285
0.0027231 0.0010518 -0.0006778 -0.0018225 -0.00069013 0.0014916 0.24724 0.051861
-0.0071988 0.0095687 0.0025242 -0.00080881
-0.00079878 -0.0016136 -0.0010214 -0.00039332 -0.0010707 -0.00092502 -0.0071982 0.0095859
0.19684 0.15508 -0.0046411 0.0097557
-0.00033596 0.00062319 -0.00057818 -0.00064329 -0.00024378 -0.00028905 0.0025815 -0.00080247
-0.0046558 0.0097503 0.24574 0.20471
1700000000 0.28798 -0.01913 0.0023252 0.0094755 -0.0037981 2.4574e-05 0.0031435 -0.0012303
-0.0020366 -0.00062337 0.00057247 0.0004716
0.0023175 0.0094944 0.21999 0.24305 0.0040432 0.00030517 -0.0015038 -0.00054278
-0.00081513 5.7432e-05 -0.00096701 -0.000471
-0.0037933 0.00010028 0.0040357 0.00032238 0.25858 -0.19438 0.00044661 0.0016937
-0.0019737 -1.8616e-05 -0.00041908 -0.00083417
0.0031631 -0.001248 -0.0015076 -0.00056868 0.00038116 0.001685 0.24395 0.0022532
-0.0040898 0.0099158 0.0015378 -0.0022967
-0.002037 -0.00061296 -0.00081793 7.0864e-05 -0.0020479 -3.9406e-05 -0.0040471 0.0099352
0.21411 0.13478 0.00020869 0.0099601
0.00049253 0.00052348 -0.00096412 -0.0004018 -0.00032496 -0.00080827 0.0015086 -0.0023193
0.00022414 0.0099403 0.26176 0.17032
1760000000 0.27637 -0.067791 0.0045821 0.0060419 -0.0022898 0.0010652 0.0013145 -0.0034255
-0.0014035 0.0006834 0.00032181 -0.00047318
0.0045813 0.0060544 0.24634 0.20364 0.0016586 -0.0014882 -0.0012676 0.00020666
-0.0010918 0.00088631 -0.00062322 0.00038124
-0.0022857 0.001027 0.0016552 -0.0015277 0.21047 -0.22791 0.0011217 0.0011401
-0.0013551 0.0014979 -0.0011797 -0.00069266
0.0012294 -0.0034511 -0.0012725 0.00020484 0.0010993 0.0011403 0.23514 -0.048734
-0.00069299 0.0088289 -8.534e-05 -0.0026329
-0.0014396 0.00066189 -0.0010835 0.0008819 -0.001333 0.0014676 -0.00068786 0.008829
0.22902 0.10037 0.0042766 0.007255
0.0003834 -0.0005852 -0.00063264 0.00039748 -0.0012117 -0.0006921 -8.4645e-05 -0.0025497
0.0043029 0.0072917 0.27455 0.13288
1820000000 0.25215 -0.10517 0.0045592 0.0024027 -0.00014922 0.0024135 -0.0010534 -0.0031372
-0.0011634 0.0010339 -0.00010251 -6.0895e-05
0.0045591 0.0024117 0.25687 0.17375 -0.00069644 -0.00022096 -0.0012762 0.00097064
-5.6439e-05 0.0012733 -0.00064745 0.00053402
-0.00012343 0.0024563 -0.00069383 -0.00021036 0.15956 -0.24376 0.0016146 0.00037143
-0.00013711 0.0023711 -0.0015496 0.0003498
-0.0010379 -0.0031569 -0.0012619 0.00097548 0.0015862 0.00046313 0.20557 -0.096009
0.00078071 0.0073073 -0.0018411 -0.0014983
-0.0011397 0.0010463 -3.2758e-05 0.0012843 -0.00013792 0.0024143 0.00079074 0.0073412
0.24623 0.071507 0.0049541 0.0035789
-6.6662e-05 -5.5863e-05 -0.00062358 0.00050637 -0.0014947 0.00037015 -0.0018252 -0.001569
0.004943 0.003618 0.27679 0.09656
1880000000 0.21739 -0.14575 0.0023164 0.00011024 -0.00070652 0.0021249 -0.00285 -0.0021583
-0.00020629 0.0018597 -6.5651e-05 -0.0005582
0.0022571 0.00010569 0.26177 0.12728 -0.0025277 0.0015832 -0.00015369 0.0017651
0.00060444 0.0013456 9.6427e-05 0.0009778
-0.00062979 0.0021445 -0.0025343 0.0015955 0.10806 -0.25299 0.0018039 -0.00086049
0.0014827 0.0020326 -0.0011014 0.0013447
-0.0029411 -0.0021846 -0.00016209 0.001763 0.0017888 -0.00091298 0.16509 -0.13616
0.0015428 0.0052398 -0.0024108 0.0001948
-0.00021429 0.0018491 0.00061397 0.0013438 0.0015532 0.0019713 0.0015469 0.0051819
0.25013 0.040395 0.005352 0.0011522
-4.1709e-05 -0.00055957 9.9885e-05 0.00099914 -0.0011398 0.0013713 -0.0023638 0.00030185
0.0053352 0.0011347 0.27652 0.062414
1940000000 0.17808 -0.1716 -0.00020902 -0.0014536 0.0013343 0.0021444 -0.0037056 0.00056475
0.0013194 0.0011715 -0.00060456 -0.00055806
-0.00022022 -0.0015047 0.26278 0.095344 -0.0013898 0.0040528 0.0011209 0.0013027
0.0019148 0.0005022 0.001066 0.00045701
0.0012767 0.0020921 -0.0013532 0.004018 0.06238 -0.24616 0.00049025 -0.0022361
0.002536 0.00036855 0.00048205 0.0019282
-0.0036778 0.00051062 0.0011174 0.0012914 0.00053965 -0.0022195 0.11334 -0.1671
0.00096495 0.0038877 -0.0015964 0.0015855
0.0013464 0.0011751 0.0019166 0.00048873 0.002475 0.0004357 0.0010102 0.0039613
0.25353 0.0022886 0.0037904 -0.0019989
-0.00062619 -0.00050873 0.00099814 0.00034021 0.0004886 0.0020361 -0.0014039 0.0015354
0.0038327 -0.0020629 0.26559 0.026359
2000000000 0.13219 -0.18666 -0.0039826 0.00069682 0.0026261 0.0015714 -0.0023174 0.0036076
0.0013217 0.00028691 -0.00058125 0.00070402
-0.0039514 0.00072517 0.24884 0.059661 -0.001018 0.0058635 0.0016841 0.0004311
0.0014537 -0.0011262 0.00049695 6.4481e-05
0.0025812 0.0015984 -0.00098477 0.0059309 0.018999 -0.23243 -0.0011451 -0.0013808
0.0022464 -0.0012306 0.0017544 0.0013592
-0.00232 0.00369 0.0016456 0.00037889 -0.0011511 -0.0015131 0.059698 -0.17735
-0.00051056 0.0037101 0.00022258 0.0022474
0.0012906 0.00028707 0.0014608 -0.0011937 0.0022976 -0.0012371 -0.00053142 0.0036455
0.24851 -0.030683 0.00091046 -0.0029451
