!Keysight Technologies,M9804A,MY58100912,A.14.10.03
!Date: Thursday, April 27, 2023 10:28:33
!Correction: S11(C  6-Port  ) 
!S12(C  6-Port  ) 
!S13(C  6-Port  ) 
!S14(C  6-Port  ) 
!S15(C  6-Port  ) 
!S16(C  6-Port  ) 
!S21(C  6-Port  ) 
!S22(C  6-Port  ) 
!S23(C  6-Port  ) 
!S24(C  6-Port  ) 
!S25(C  6-Port  ) 
!S26(C  6-Port  ) 
!S31(C  6-Port  ) 
!S32(C  6-Port  ) 
!S33(C  6-Port  ) 
!S34(C  6-Port  ) 
!S35(C  6-Port  ) 
!S36(C  6-Port  ) 
!S41(C  6-Port  ) 
!S42(C  6-Port  ) 
!S43(C  6-Port  ) 
!S44(C  6-Port  ) 
!S45(C  6-Port  ) 
!S46(C  6-Port  ) 
!S51(C  6-Port  ) 
!S52(C  6-Port  ) 
!S53(C  6-Port  ) 
!S54(C  6-Port  ) 
!S55(C  6-Port  ) 
!S56(C  6-Port  ) 
!S61(C  6-Port  ) 
!S62(C  6-Port  ) 
!S63(C  6-Port  ) 
!S64(C  6-Port  ) 
!S65(C  6-Port  ) 
!S66(C  6-Port  ) 
!S6P File: Measurement: :
# Hz S  RI   R 50
500000000 -0.33486 -0.052773 -0.010033 -0.0015473 -0.0087767 0.013386 -0.0039596 0.01209
0.013198 0.0055775 -0.0036642 0.0085815
-0.010041 -0.0015655 -0.41673 -0.063284 0.0076726 -0.010799 0.0015895 0.01164
0.0077321 0.0037107 0.001423 0.013432
-0.0087727 0.013375 0.0076259 -0.010817 -0.26744 0.1997 0.0069938 0.0039994
-0.0018459 0.0082664 0.00046917 0.012711
-0.0039947 0.012004 0.0016128 0.011635 0.0069746 0.0039749 -0.33188 0.043986
-0.018684 -0.0049987 0.016673 0.025954
0.013234 0.0053866 0.0078438 0.0036585 -0.0019083 0.0081893 -0.018635 -0.0051126
-0.24857 -0.19277 -0.027149 0.0045002
-0.0034573 0.0084322 0.0014667 0.013427 0.00043941 0.012681 0.016614 0.025857
-0.02703 0.0042802 -0.27279 -0.11861
560000000 -0.31933 0.11356 -0.023521 -0.064504 0.00013999 0.012663 0.0051468 0.010699
0.010872 0.0048583 0.010066 0.0080359
-0.023553 -0.064351 -0.37639 0.099688 -0.041869 -0.037796 0.01365 0.0041465
-0.012782 -0.0043584 0.0031875 0.00065087
0.0002068 0.01272 -0.042001 -0.037727 -0.18561 0.25081 -0.00017682 -0.004851
0.018942 0.0056121 0.0075756 -0.0064063
0.00517 0.010659 0.013657 0.0041484 -0.00012616 -0.0047928 -0.30701 0.13505
0.0043615 -0.024249 0.0057072 -0.021416
0.01113 0.0052147 -0.012675 -0.00414 0.018775 0.0056784 0.0045621 -0.024466
-0.30753 -0.013083 0.0082654 -0.048215
0.0097273 0.0083798 0.0028964 0.00052371 0.0077944 -0.006439 0.0057444 -0.021225
0.0081527 -0.048037 -0.33092 0.026388
620000000 -0.27809 0.094824 -0.022888 0.0088718 0.0037621 0.0092322 0.0078113 -0.0050238
0.012754 -0.001144 -7.3457e-05 -0.0034218
-0.022831 0.0088608 -0.40366 0.049784 -0.018442 0.00091372 -0.0011084 -0.0020892
0.012054 -0.0061591 0.0012316 -0.0031409
0.003795 0.0092762 -0.018472 0.00097382 -0.1554 0.2605 -0.00040016 -0.0053862
-0.0034648 -0.0025082 0.0095198 -0.0028177
0.0077907 -0.0050446 -0.0011259 -0.0020794 -0.00041084 -0.0053684 -0.26628 0.1454
-0.039037 -0.019451 0.013196 0.02593
0.012609 -0.0012484 0.011985 -0.0061428 -0.0034789 -0.0025146 -0.038948 -0.01939
-0.22877 -0.046926 -0.041028 0.013356
-6.141e-05 -0.0036312 0.0011426 -0.0031539 0.0096104 -0.002864 0.013163 0.025463
-0.041522 0.013411 -0.25084 -0.0050478
680000000 -0.23814 0.18476 -0.026245 -0.014244 0.0053217 0.0050271 0.0014998 -0.0073719
-0.0022493 -0.012526 0.0063658 -0.0070631
-0.026238 -0.014216 -0.38971 0.15048 -0.032151 -0.0019523 -0.0014019 -0.00052834
-0.0015762 -0.0096843 -0.0011408 -0.0017005
0.0053483 0.0050077 -0.03219 -0.0018977 -0.10347 0.28098 -0.00076697 -0.00048443
-0.0014434 0.00034498 -0.0031262 -0.0094072
0.0014938 -0.0073372 -0.0014022 -0.00053644 -0.00072395 -0.00047488 -0.22041 0.19716
-0.023984 -0.0074752 -0.0086999 -0.01139
-0.0022866 -0.012542 -0.0016087 -0.0097315 -0.0014781 0.00034177 -0.02393 -0.0074166
-0.27848 0.055948 -0.0087204 -0.0074766
0.0065921 -0.0070093 -0.001215 -0.0018025 -0.0031246 -0.0093499 -0.0086538 -0.01099
-0.0086571 -0.0076979 -0.2587 0.09884
740000000 -0.19294 0.1776 -0.039469 0.026718 0.01365 -0.0049254 -0.00059795 -0.0039799
-0.0041118 -0.0035435 -0.0064557 0.0031991
-0.039421 0.026648 -0.33517 0.16859 -0.036461 0.034588 -0.00053297 -0.0060041
-0.012354 0.0070805 -0.0015716 -0.0054587
0.013624 -0.0049261 -0.036378 0.034704 -0.069663 0.27853 -0.0017784 0.0031387
-0.0028555 -0.0060455 -0.0013249 0.001136
-0.00059922 -0.0039589 -0.00052818 -0.0059885 -0.0017817 0.0031553 -0.20384 0.2046
-0.043241 -0.0076719 0.023219 0.015195
-0.004274 -0.0037106 -0.012252 0.0072077 -0.0028701 -0.0060266 -0.043331 -0.0075625
-0.17884 0.084124 -0.042662 -0.00056108
-0.0062975 0.0034185 -0.0016113 -0.0055854 -0.0012163 0.0013687 0.023103 0.015105
-0.04252 -0.00041763 -0.24628 0.1046
800000000 -0.16152 0.22109 -0.022564 0.016305 0.0057187 -0.010488 -0.0041902 -0.0016871
-0.0045074 0.0024257 0.0042386 0.00086139
-0.022547 0.016271 -0.34116 0.23969 -0.0086266 0.034156 -0.0024559 0.0022405
-0.0015148 0.0031607 0.00068662 0.0051993
0.0057117 -0.010515 -0.0085244 0.03421 -0.031132 0.30243 0.00091139 0.0016316
6.7486e-06 0.0037529 -0.001735 0.00096687
-0.0042081 -0.0016912 -0.0024668 0.0022563 0.00090168 0.0016456 -0.1738 0.23252
-0.028591 0.013348 0.014021 -0.0096172
-0.0045494 0.0023596 -0.0015287 0.0031339 -3.75e-05 0.003748 -0.028578 0.013345
-0.22101 0.1125 -0.016992 0.01918
0.0042513 0.00088853 0.00079162 0.0052869 -0.0017677 0.00095364 0.014037 -0.0096821
-0.017026 0.019215 -0.2402 0.15387
860000000 -0.12705 0.24151 -0.017703 0.030358 -0.0029596 -0.01034 -0.0018146 0.00053243
0.0038148 0.005147 -0.0034375 -0.0029382
-0.017699 0.030346 -0.29234 0.28227 0.0074999 0.034399 0.00031142 0.0018218
0.0036138 0.00087725 0.0034705 0.00036066
-0.0029829 -0.010302 0.0076178 0.034409 0.016488 0.31072 -0.00065099 -0.00014572
0.0023354 -0.0013968 0.0016754 0.0042784
-0.0017535 0.00052984 0.00030236 0.0018473 -0.00065471 -0.00014733 -0.13729 0.2428
-0.018345 0.017859 -0.0063027 -0.009221
0.003842 0.0052056 0.0036678 0.00092212 0.0023426 -0.0013913 -0.01835 0.017984
-0.16321 0.16262 -0.024232 0.016364
-0.0034927 -0.003067 0.0035253 0.00035767 0.0016744 0.0042699 -0.0062513 -0.0090234
-0.024231 0.016282 -0.18925 0.19618
920000000 -0.10309 0.26461 0.0048075 0.038273 -0.0091728 -0.0050038 -0.0017939 0.0018066
0.0016645 0.0016204 0.002855 -0.0015247
0.0047718 0.038239 -0.2656 0.30348 0.02819 0.02271 0.0016201 0.0012922
0.0076677 -0.00046259 0.0042649 -0.002858
-0.0091797 -0.0049929 0.02827 0.022641 0.06191 0.31207 0.0020504 5.4073e-05
0.0011597 -0.00048214 0.0010085 -0.0013643
-0.0017883 0.0018137 0.0016084 0.0012859 0.0020571 5.8483e-05 -0.11298 0.25962
-0.01126 0.030251 0.0033565 -0.0066716
0.0016678 0.0016538 0.0076645 -0.00048445 0.0011499 -0.00050326 -0.011179 0.030283
-0.1527 0.16751 -0.0017346 0.026166
0.0028718 -0.0014963 0.0041746 -0.0029412 0.0010384 -0.0014036 0.0033027 -0.0066987
-0.0017397 0.026136 -0.19548 0.21066
980000000 -0.056919 0.28449 0.01696 0.030099 -0.0094193 0.0041746 0.0017415 0.0033092
0.0039147 -0.0018265 -0.0029994 -0.0023943
0.016959 0.030087 -0.21231 0.33845 0.033453 0.0054061 0.002007 -0.00015823
0.0018335 -0.0062197 -0.00022263 -0.0023362
-0.0094073 0.0042166 0.033509 0.0052912 0.10785 0.30656 0.00074953 -0.0011765
0.00061262 -0.0020117 0.0015201 -0.00010624
0.001755 0.0033226 0.0020034 -0.00016241 0.00075088 -0.0011788 -0.074894 0.27063
0.0075403 0.030337 -0.0087386 -0.0070588
0.0039521 -0.0018361 0.0018446 -0.006263 0.00063579 -0.0020301 0.0076038 0.030361
-0.1196 0.1977 0.0066267 0.019794
-0.002985 -0.0023001 -0.00017502 -0.0022645 0.0015302 -9.0651e-05 -0.0087766 -0.0070909
0.0066494 0.019808 -0.15215 0.25324
1040000000 -0.015357 0.2935 0.032886 0.019023 -0.0016743 0.0070119 0.0027108 0.00084005
0.0003875 -0.0035034 -4.5562e-05 -0.0015837
0.032867 0.018992 -0.17739 0.35195 0.03005 -0.014605 0.0017302 -0.0016882
-0.0020163 -0.0027328 -0.0010612 -0.002893
-0.0016513 0.0070154 0.030013 -0.014739 0.15375 0.29353 -0.00044508 -0.0016888
-0.0015766 -0.0009259 -0.00057006 -0.0011674
0.0027042 0.00083821 0.0017026 -0.0017023 -0.00044646 -0.0016834 -0.047135 0.28051
0.019513 0.018766 -0.0026117 0.0012134
0.00035007 -0.003475 -0.0020703 -0.0027214 -0.0015948 -0.00092377 0.019533 0.018737
-0.086015 0.20301 0.013514 0.017747
-0.00019669 -0.0016558 -0.0010326 -0.0028804 -0.00057315 -0.0011402 -0.0026502 0.0011259
0.013497 0.017669 -0.12964 0.27412
1100000000 0.029363 0.30273 0.036398 -0.0035911 0.0027628 0.0041756 0.0024329 -0.0011381
-0.0020745 -0.0030197 -0.0040331 -0.00021125
0.036381 -0.0035718 -0.13435 0.37004 0.015902 -0.028025 8.3874e-05 -0.0018618
-0.0036497 -0.00098228 -0.0037222 -0.00067317
0.0027945 0.0041773 0.015808 -0.02812 0.19993 0.27418 -0.0019513 0.00012247
-0.0018015 0.00046464 -0.0011557 -0.00048369
0.0024269 -0.0011294 6.5865e-05 -0.0018701 -0.0019521 0.00011574 -0.0069099 0.28551
0.025221 0.0055813 -0.002271 8.553e-05
-0.0020828 -0.0030425 -0.0036562 -0.00098881 -0.0018019 0.00048932 0.025255 0.005517
-0.065214 0.21637 0.019561 0.0081266
-0.004024 -0.00017575 -0.0036987 -0.00067454 -0.001152 -0.00048442 -0.0022824 0.00015977
0.019547 0.0081086 -0.0838 0.302
1160000000 0.080487 0.29882 0.024484 -0.020747 0.0027789 -0.00038596 -8.2574e-05 -0.0023946
-0.003945 -0.00081823 -0.0010496 0.0041612
0.02449 -0.020738 -0.090772 0.37477 -0.0033828 -0.029683 -0.0016582 -0.0018595
-0.0028551 0.0026724 -0.0014713 0.0018948
0.0027696 -0.00038596 -0.0035122 -0.029715 0.24336 0.24398 -0.00085052 0.0018313
-0.00067325 0.0020383 -0.00089742 0.00017736
-9.8185e-05 -0.0023736 -0.0016876 -0.0018464 -0.00085495 0.0018374 0.032564 0.28285
0.021616 -0.010594 -0.0033012 0.0052215
-0.0039602 -0.00079743 -0.0028309 0.0027108 -0.00065775 0.0020442 0.021599 -0.010643
-0.031 0.22403 0.018198 -0.00074573
-0.0010112 0.0041561 -0.0013955 0.0020205 -0.00084422 0.00017583 -0.0033062 0.0050805
0.018277 -0.00075828 -0.03652 0.30499
1220000000 0.12457 0.28885 0.011001 -0.030312 -0.0015999 -0.0008571 4.8664e-06 -0.0009124
-0.0026573 0.0021168 0.0010213 0.001978
0.011029 -0.030283 -0.046778 0.38774 -0.017087 -0.021978 -0.0026897 0.00049344
1.6807e-06 0.0031594 -0.00084677 0.001961
-0.0016037 -0.00084992 -0.017195 -0.021933 0.28237 0.2054 0.00076542 0.0018259
0.00060724 0.0012895 0.00034011 0.00062662
1.8416e-05 -0.00091068 -0.0026792 0.00049457 0.00076143 0.0018162 0.07261 0.27412
0.010966 -0.017467 0.0020966 0.0013428
-0.0026596 0.0021473 -1.8804e-05 0.0031795 0.00061276 0.0012838 0.010946 -0.017486
-0.007188 0.23228 0.013635 -0.01325
0.0010563 0.0020161 -0.00083184 0.0019455 0.00036012 0.00062998 0.0020736 0.0014107
0.013639 -0.013214 -0.004598 0.319
1280000000 0.17499 0.26853 -0.0078499 -0.028895 -0.0020041 0.0025161 -0.00089398 -0.0020824
-0.00075392 0.0032174 0.0025769 0.0012429
-0.0078237 -0.028862 -0.00064713 0.37965 -0.024322 -0.0089965 -0.0010694 0.0015198
0.0017095 0.0017986 0.0005917 0.0020118
-0.0019994 0.0025413 -0.024393 -0.0089031 0.31317 0.16203 0.0015486 6.7135e-05
0.0012437 0.00028958 0.00028092 0.00028029
-0.00087998 -0.0020872 -0.0010672 0.0015283 0.0015603 5.6738e-05 0.10968 0.25812
0.00096153 -0.019839 -0.00014106 0.00047128
-0.00073788 0.0032257 0.0017306 0.0017844 0.0012453 0.00028547 0.00090571 -0.019859
0.029698 0.23508 0.0026439 -0.015395
0.0026007 0.0012346 0.00059688 0.0020289 0.00028013 0.00033783 -0.00011611 0.00046504
0.0026503 -0.015397 0.041879 0.32088
1340000000 0.21246 0.23545 -0.017773 -0.019209 0.00079472 0.0048011 -0.0018154 -0.00082966
0.0014319 0.0026234 0.0017619 -0.001372
-0.017733 -0.019211 0.038934 0.37183 -0.022174 0.0042219 -0.00010528 0.0021235
0.0020343 0.00079423 0.0012565 0.00078751
0.0008145 0.0048054 -0.022192 0.0043291 0.33542 0.11472 0.0011566 -0.00093825
0.00070795 -0.00076601 6.0527e-05 0.00020325
-0.0018221 -0.00082012 -9.3737e-05 0.0021263 0.0011564 -0.00094281 0.14289 0.237
-0.0087242 -0.017066 0.00070165 0.00055633
0.0014081 0.002627 0.0020512 0.00077367 0.0007053 -0.00077995 -0.0087617 -0.017084
0.060014 0.23009 -0.0042322 -0.014079
0.0017432 -0.0014248 0.0012802 0.00075715 5.1992e-05 0.00016168 0.00067316 0.00055827
-0.004217 -0.014122 0.079748 0.31489
1400000000 0.24626 0.19814 -0.023679 -0.0074804 0.0053671 0.0035075 -0.0022515 0.00059085
0.0025115 0.00094323 0.00026485 -0.0015698
-0.023655 -0.0074988 0.07646 0.35949 -0.015376 0.012759 0.00144 0.0013144
0.0013066 -0.00082875 0.0012672 0.0001216
0.0053777 0.0034789 -0.015332 0.012849 0.34851 0.061877 0.0001242 -0.0016704
9.9621e-05 -0.00039669 0.00041602 0.00017421
-0.0022505 0.00061413 0.0014429 0.0013044 0.000133 -0.0016596 0.17241 0.20803
-0.014903 -0.0099748 -0.00069549 -0.00022174
0.002507 0.0009148 0.001301 -0.00084601 0.0001041 -0.00038877 -0.014932 -0.0099345
0.092967 0.22519 -0.010516 -0.0086346
0.00024674 -0.0015478 0.0012488 0.00012824 0.00042196 0.00018568 -0.00071059 -0.00027279
-0.010479 -0.0086063 0.12391 0.3035
1460000000 0.26975 0.15444 -0.020503 0.0048913 0.0059955 -0.0017292 -0.0015727 0.00181
0.0022155 -0.0005103 -0.00045563 -0.0010143
-0.020515 0.0048703 0.11115 0.33789 -0.0062634 0.015973 0.0017238 0.00014191
0.00090181 -0.0013562 0.0012645 -0.00065178
0.0060068 -0.0017416 -0.0061927 0.016027 0.3552 0.0081478 -0.0012343 -0.0014005
5.9599e-05 -0.00024494 0.00069068 -0.0002516
-0.0015603 0.0018319 0.0017382 0.00012422 -0.0012521 -0.0013995 0.19906 0.17846
-0.016192 -0.0031647 -0.00085056 0.0021203
0.0022109 -0.00054969 0.00089144 -0.001373 4.3658e-05 -0.00025177 -0.016195 -0.0031362
0.1224 0.21062 -0.012293 -0.0025656
-0.00044955 -0.0010527 0.001266 -0.00067445 0.0007298 -0.0003295 -0.00084804 0.0021373
-0.012318 -0.0025622 0.15707 0.28286
1520000000 0.28238 0.11293 -0.014775 0.010408 0.003679 -0.0044367 0.00013296 0.002554
0.0020988 -0.0019954 -0.0011696 -0.00025314
-0.014765 0.010395 0.14485 0.32356 0.0017896 0.013618 0.0016746 -0.00080548
4.383e-05 -0.001121 0.00031376 -0.0010897
0.003667 -0.0044606 0.0018634 0.013624 0.3489 -0.047663 -0.0010472 -0.0003798
0.00072807 -0.00083592 7.5287e-05 -0.00025989
0.00013833 0.0025533 0.001676 -0.00081071 -0.0010287 -0.000376 0.22202 0.13992
-0.015355 0.0029991 0.0015803 0.0021063
0.0020891 -0.0020137 4.8819e-05 -0.0011169 0.0007332 -0.00084237 -0.015354 0.0030297
0.1506 0.19685 -0.011942 0.0018992
-0.001196 -0.00022021 0.00029678 -0.0011087 0.00010881 -0.00028986 0.0015498 0.0020734
-0.01195 0.0018956 0.18959 0.26196
1580000000 0.29249 0.067031 -0.0079547 0.013571 -0.00094275 -0.0052897 0.0014868 0.0019218
-0.00018322 -0.0022078 -0.00018124 0.00038333
-0.0079623 0.013556 0.1724 0.29907 0.0056293 0.0084295 0.00051469 -0.0016035
-0.00058123 -0.0010447 -0.00021576 -0.00085903
-0.00096683 -0.0052898 0.005682 0.0084081 0.32969 -0.10515 -0.0017013 0.00055597
-0.00037026 -0.0012259 0.00021463 -0.00060382
0.0015118 0.0019161 0.00050164 -0.0016092 -0.0017198 0.00056034 0.23563 0.10037
-0.011733 0.0079279 0.0021288 0.00069685
-0.00019995 -0.0021888 -0.00057891 -0.0010326 -0.0003776 -0.0012218 -0.011731 0.0079732
0.17469 0.1788 -0.0093202 0.0074887
-0.0001611 0.00035692 -0.00021076 -0.00086136 0.0002006 -0.00058474 0.0021529 0.00074698
-0.0093126 0.007501 0.22102 0.23509
1640000000 0.29507 0.025849 -0.0011877 0.012301 -0.0030984 -0.0027986 0.0027115 0.0010945
-0.00081165 -0.0015316 -0.00031739 0.00059418
-0.001194 0.012292 0.20228 0.27431 0.0063071 0.0033631 -0.00066653 -0.0018013
-0.0010175 -0.00038654 -0.00058035 -0.00070503
-0.0031145 -0.0027962 0.0063335 0.0033258 0.30181 -0.15462 -0.0006688 0.001468
-0.0010256 -0.00095712 -0.00016598 -0.00038113
0.0027217 0.0010903 -0.00067928 -0.0017948 -0.00065964 0.0014691 0.24788 0.051545
-0.007294 0.0094059 0.0026053 -0.00067782
-0.00081737 -0.0015461 -0.0010269 -0.00038446 -0.0010322 -0.00094606 -0.0072616 0.0094165
0.19796 0.15474 -0.0044542 0.0095485
-0.00029879 0.00061058 -0.00057739 -0.00069634 -0.00015053 -0.00042371 0.0025891 -0.00070821
-0.0044564 0.0095318 0.24664 0.204
1700000000 0.28821 -0.019504 0.0022228 0.0093581 -0.00379 -1.7692e-05 0.0031654 -0.0011907
-0.0020409 -0.00053509 0.00049399 0.00045532
0.0022165 0.009348 0.2206 0.24306 0.004114 0.00030768 -0.001552 -0.0005725
-0.00083199 1.9672e-05 -0.00092673 -0.00045562
-0.0037837 1.5708e-05 0.004131 0.0002894 0.25859 -0.19472 0.00049046 0.0016733
-0.001921 -3.4978e-05 -0.00037789 -0.00081859
0.0031622 -0.0012193 -0.0015498 -0.00057698 0.00049913 0.0016708 0.24423 0.0017841
-0.0043457 0.0097777 0.0015855 -0.0022331
-0.0020581 -0.00051401 -0.00083074 1.7415e-05 -0.0019357 -4.8346e-05 -0.0043412 0.0098082
0.21506 0.13417 1.6158e-05 0.009751
0.00053067 0.0004718 -0.00096244 -0.00043156 -0.00039492 -0.00075332 0.0016032 -0.0021793
2.3276e-05 0.0097405 0.26246 0.1698
1760000000 0.27659 -0.068227 0.0044503 0.0059674 -0.0024111 0.0010837 0.0013019 -0.0035079
-0.0014296 0.00073727 0.00028744 -0.000379
0.0044431 0.005973 0.24701 0.20337 0.0016984 -0.0016455 -0.0012591 0.00023746
-0.0011301 0.00091631 -0.00065572 0.00040844
-0.0024151 0.0010892 0.0016851 -0.0016604 0.21074 -0.22824 0.0011272 0.001051
-0.0013089 0.0014951 -0.0012784 -0.00063983
0.0012839 -0.0035058 -0.0012554 0.00023997 0.0011241 0.0010497 0.23531 -0.049531
-0.00086617 0.0088134 -0.00020699 -0.0026207
-0.0014007 0.00072948 -0.0011033 0.00092965 -0.0012775 0.0014769 -0.00085061 0.0088246
0.23019 0.099716 0.0040397 0.0070455
0.000267 -0.00037878 -0.00065249 0.00038873 -0.0013096 -0.00066728 -0.00021223 -0.0026329
0.004055 0.0070415 0.27525 0.13193
1820000000 0.25224 -0.10585 0.0045141 0.0024152 -0.00027298 0.0025314 -0.00096428 -0.003169
-0.0010547 0.00099429 9.602e-05 -3.149e-06
0.0044893 0.002418 0.25734 0.17326 -0.00082442 -0.00036482 -0.0012951 0.00095926
-7.7739e-05 0.0013341 -0.00058012 0.00059089
-0.00025734 0.0025331 -0.00083658 -0.0003598 0.15928 -0.24421 0.0016885 0.0004517
-0.00013702 0.0023956 -0.0013512 0.00035876
-0.0010017 -0.0031768 -0.0012962 0.0009713 0.0016738 0.00044181 0.20525 -0.096762
0.00064201 0.0074305 -0.0016706 -0.0016252
-0.0010323 0.00098469 -6.6311e-05 0.0013202 -0.000152 0.0023776 0.00063934 0.0074097
0.24714 0.070746 0.0048868 0.003634
3.838e-05 -2.9823e-05 -0.00057588 0.00059244 -0.0013177 0.00037486 -0.0016753 -0.0016165
0.0048832 0.0036425 0.27712 0.095524
1880000000 0.21708 -0.14629 0.0021881 0.00011695 -0.00051614 0.0022798 -0.0029235 -0.0021622
-0.00019406 0.0017591 9.6515e-05 -0.00049567
0.0021914 0.00012922 0.26211 0.12673 -0.0027193 0.0016291 -0.0001565 0.0017597
0.00058193 0.0013953 0.00010384 0.0010113
-0.00050229 0.0023027 -0.0027284 0.001645 0.10732 -0.25326 0.0017779 -0.0010349
0.0015612 0.0019445 -0.0011118 0.0013785
-0.0029099 -0.0021492 -0.00014863 0.0017482 0.0017866 -0.0010493 0.16474 -0.13673
0.0015415 0.0053547 -0.0022558 0.00012567
-0.00016606 0.0018031 0.00059673 0.0014062 0.0015537 0.0019583 0.0015862 0.0053246
0.25103 0.039528 0.0051919 0.0013228
0.00017326 -0.00053449 0.00010414 0.0009934 -0.0011125 0.0013644 -0.0022663 0.00011297
0.005186 0.001282 0.27703 0.061573
1940000000 0.17799 -0.17191 -0.00030921 -0.0013823 0.0013194 0.0022065 -0.0037663 0.00039008
0.0013962 0.0011309 -0.0004767 -0.00072913
-0.00030511 -0.0013845 0.26288 0.094773 -0.0014518 0.0041909 0.0010957 0.0012717
0.0019849 0.00057715 0.0010378 0.00045206
0.0013306 0.0021917 -0.0014363 0.004202 0.062463 -0.24597 0.00050751 -0.0022311
0.0024163 0.00033792 0.00039704 0.001767
-0.0037796 0.00042305 0.0010847 0.0012759 0.0004889 -0.0022049 0.1125 -0.16723
0.00081385 0.0041519 -0.0016556 0.0017719
0.0014052 0.0010896 0.0019976 0.00054714 0.0024343 0.00033722 0.00079731 0.0042053
0.25401 0.0011776 0.0035649 -0.001827
-0.00051893 -0.00074341 0.0010619 0.00047219 0.00041455 0.0017933 -0.001587 0.0018037
0.0035719 -0.0017866 0.26591 0.025511
2000000000 0.1318 -0.18686 -0.004006 0.00080562 0.0028185 0.0015366 -0.0022824 0.0039475
0.0012473 0.00041323 -0.00075116 0.00057465
-0.0039925 0.00080388 0.24876 0.059075 -0.00091203 0.006025 0.0015969 0.00042337
0.0014802 -0.0011875 0.00058102 0.00013674
0.0027935 0.0015144 -0.00087837 0.0060317 0.019046 -0.23244 -0.001164 -0.0014192
0.0022153 -0.001165 0.0016962 0.0016339
-0.0022443 0.00393 0.0015956 0.00039903 -0.001159 -0.0014272 0.058987 -0.17715
-0.0005191 0.0037483 5.1103e-05 0.002265
0.0012616 0.00043726 0.0014706 -0.0012184 0.002192 -0.0011655 -0.00049698 0.0037366
0.24915 -0.032078 0.00078745 -0.0028696
