!Keysight Technologies,M9804A,MY58100912,A.14.10.03
!Date: Thursday, April 27, 2023 10:28:33
!Correction: S11(C  6-Port  ) 
!S12(C  6-Port  ) 
!S13(C  6-Port  ) 
!S14(C  6-Port  ) 
!S15(C  6-Port  ) 
!S16(C  6-Port  ) 
!S21(C  6-Port  ) 
!S22(C  6-Port  ) 
!S23(C  6-Port  ) 
!S24(C  6-Port  ) 
!S25(C  6-Port  ) 
!S26(C  6-Port  ) 
!S31(C  6-Port  ) 
!S32(C  6-Port  ) 
!S33(C  6-Port  ) 
!S34(C  6-Port  ) 
!S35(C  6-Port  ) 
!S36(C  6-Port  ) 
!S41(C  6-Port  ) 
!S42(C  6-Port  ) 
!S43(C  6-Port  ) 
!S44(C  6-Port  ) 
!S45(C  6-Port  ) 
!S46(C  6-Port  ) 
!S51(C  6-Port  ) 
!S52(C  6-Port  ) 
!S53(C  6-Port  ) 
!S54(C  6-Port  ) 
!S55(C  6-Port  ) 
!S56(C  6-Port  ) 
!S61(C  6-Port  ) 
!S62(C  6-Port  ) 
!S63(C  6-Port  ) 
!S64(C  6-Port  ) 
!S65(C  6-Port  ) 
!S66(C  6-Port  ) 
!S6P File: Measurement: :
# Hz S  RI   R 50
500000000 -0.33449 -0.053737 -0.009776 -0.0015703 -0.0082255 0.013013 -0.0050901 0.011661
0.0129 0.0056571 -0.0053321 0.0078531
-0.0098895 -0.0017173 -0.41646 -0.062722 0.0082158 -0.010241 0.0015254 0.011879
0.0075486 0.002736 0.001866 0.013369
-0.0081891 0.013034 0.0082973 -0.01023 -0.26745 0.19976 0.0064503 0.0036966
-0.0014761 0.0087687 0.00014989 0.01205
-0.0049709 0.011674 0.0016957 0.011935 0.0064692 0.003715 -0.33187 0.043768
-0.019163 -0.0048092 0.016857 0.025862
0.012819 0.0053463 0.0076524 0.002917 -0.0012775 0.0086749 -0.018861 -0.0050008
-0.24862 -0.19351 -0.026149 0.0030642
-0.0053292 0.0072049 0.0018692 0.013257 0.00018798 0.012182 0.017043 0.025965
-0.026472 0.0035682 -0.2718 -0.11866
560000000 -0.31811 0.11321 -0.023028 -0.064606 -0.0003855 0.012852 0.0054082 0.011079
0.010177 0.0041312 0.010645 0.0083833
-0.023124 -0.064478 -0.37629 0.099233 -0.042154 -0.038409 0.013401 0.0043123
-0.012655 -0.0036849 0.003865 -0.0010262
-0.00032862 0.012908 -0.04226 -0.038334 -0.1848 0.25106 -0.00058925 -0.0047338
0.019343 0.0052482 0.008267 -0.0049659
0.0053193 0.010746 0.013574 0.004319 -0.00059652 -0.0047303 -0.3062 0.13516
0.0051695 -0.024106 0.0044474 -0.020635
0.010213 0.0037613 -0.012572 -0.0039605 0.019349 0.0053145 0.0052263 -0.024163
-0.30963 -0.013235 0.0072943 -0.046508
0.010901 0.0090596 0.0037247 -0.00080704 0.008017 -0.0051077 0.0051909 -0.020766
0.0075566 -0.04672 -0.33203 0.026181
620000000 -0.27746 0.093288 -0.022956 0.008596 0.0036937 0.0093593 0.0082656 -0.00464
0.012083 -0.00022577 0.00095606 -0.0031495
-0.022994 0.0088066 -0.40369 0.049207 -0.01844 0.00092968 -0.0018748 -0.0019098
0.012422 -0.0060581 0.00099602 -0.0033373
0.0036935 0.0094325 -0.018465 0.0009843 -0.15566 0.26082 -0.00051695 -0.0053194
-0.0034653 -0.0028879 0.0090512 -0.0028538
0.0083572 -0.0050779 -0.0018036 -0.001762 -0.00053652 -0.0053206 -0.26509 0.14537
-0.039175 -0.019513 0.013239 0.026295
0.011895 -9.5566e-05 0.012696 -0.0062589 -0.0034401 -0.0028193 -0.039942 -0.019844
-0.23019 -0.045946 -0.040875 0.012213
0.00095623 -0.0033276 0.00068734 -0.0034422 0.009137 -0.0030445 0.013495 0.026916
-0.040866 0.012074 -0.25068 -0.0048407
680000000 -0.23906 0.1842 -0.026158 -0.014164 0.0051111 0.0053192 0.0017682 -0.0073179
-0.0015665 -0.011505 0.005322 -0.0079691
-0.026213 -0.014141 -0.38968 0.15041 -0.032063 -0.0019066 -0.0015742 -0.00064936
-0.0013298 -0.0092688 -0.00093098 -0.0025191
0.005146 0.0052976 -0.032088 -0.0017971 -0.10348 0.28106 -0.0008154 -0.00034849
-0.0016286 0.00010343 -0.0028764 -0.00936
0.0018494 -0.0074901 -0.00165 -0.00067383 -0.0007928 -0.00034886 -0.22023 0.19859
-0.023486 -0.0087845 -0.009474 -0.010405
-0.0018136 -0.011776 -0.0013064 -0.0092033 -0.0015923 0.00018749 -0.023515 -0.0089535
-0.27877 0.056206 -0.0077244 -0.0082712
0.0055541 -0.0075837 -0.00082263 -0.0025414 -0.0028374 -0.0092762 -0.0092484 -0.010597
-0.0073946 -0.0083808 -0.26077 0.097746
740000000 -0.19328 0.1775 -0.039576 0.027137 0.013608 -0.0048012 -0.00014828 -0.0043286
-0.0052915 -0.0032389 -0.0061515 0.0031963
-0.039534 0.026946 -0.3354 0.16912 -0.036697 0.034651 -0.00033856 -0.0061687
-0.012316 0.0076452 -0.0014817 -0.0064967
0.01366 -0.0048766 -0.036598 0.034729 -0.069274 0.27828 -0.0021872 0.0032986
-0.0031469 -0.005654 -0.0012629 0.0012561
-0.0001851 -0.0044481 -0.00045474 -0.0062329 -0.0022095 0.0033271 -0.20265 0.20443
-0.043221 -0.0074241 0.023742 0.015047
-0.0051649 -0.0030619 -0.012403 0.0076751 -0.0033012 -0.0057133 -0.043267 -0.0071963
-0.18076 0.084406 -0.041177 0.0011155
-0.0060476 0.0031035 -0.0013444 -0.0066657 -0.001285 0.0013932 0.023904 0.014982
-0.041721 0.001603 -0.2466 0.10407
800000000 -0.16205 0.22079 -0.022577 0.016055 0.0056064 -0.010569 -0.0045715 -0.002095
-0.0049991 0.0020973 0.0042874 6.4851e-05
-0.022499 0.016092 -0.34113 0.23916 -0.0086589 0.033804 -0.002523 0.0021304
-0.0016672 0.002672 0.00066347 0.0051178
0.0056132 -0.010493 -0.0085422 0.033918 -0.03108 0.302 0.00087845 0.0016128
-0.00021647 0.00352 -0.001535 0.00095895
-0.0043778 -0.0020323 -0.0025178 0.002127 0.00087195 0.0015953 -0.17394 0.23273
-0.02868 0.012718 0.013793 -0.0099577
-0.0049703 0.0022194 -0.0016222 0.0027069 -0.00021159 0.0035001 -0.028673 0.012737
-0.22043 0.11205 -0.017079 0.018984
0.0043217 0.00043706 0.00061841 0.0053982 -0.0016871 0.0010285 0.013776 -0.0098132
-0.017253 0.018889 -0.23949 0.15264
860000000 -0.12697 0.24091 -0.017479 0.03035 -0.002681 -0.010329 -0.0013786 0.0007439
0.0041457 0.0052419 -0.0034619 -0.0027022
-0.017537 0.030199 -0.29236 0.28178 0.0075668 0.034355 0.00038877 0.0019135
0.0041114 0.00096916 0.003306 0.00046734
-0.0027234 -0.010359 0.0076708 0.034376 0.016522 0.31035 -0.00049606 -2.9818e-05
0.0024822 -0.0011917 0.0016786 0.004343
-0.0014034 0.00066263 0.00038909 0.0019498 -0.0004901 -1.8744e-05 -0.13661 0.24318
-0.017447 0.017942 -0.0057615 -0.0088404
0.0040741 0.0051824 0.004158 0.0010031 0.0024947 -0.001222 -0.017393 0.017991
-0.16351 0.16296 -0.023523 0.017249
-0.0035888 -0.0026493 0.0030852 0.00026345 0.0017091 0.0043222 -0.0060408 -0.0088186
-0.023456 0.016997 -0.18954 0.19566
920000000 -0.10369 0.26419 0.004695 0.038004 -0.0091664 -0.0050938 -0.0017635 0.001744
0.0015922 0.002067 0.0031594 -0.0015306
0.004619 0.038023 -0.26565 0.30323 0.028016 0.022751 0.0014313 0.0013236
0.0081619 -9.4505e-05 0.0040653 -0.0029195
-0.0091905 -0.0050522 0.028133 0.02268 0.061611 0.31172 0.002011 5.2167e-05
0.0012213 -0.00035648 0.00094655 -0.0013204
-0.0017956 0.0017342 0.0014224 0.0012824 0.0020049 4.8387e-05 -0.11308 0.25912
-0.01056 0.030297 0.0033229 -0.0069409
0.001725 0.0019398 0.0082903 -0.0001806 0.0012433 -0.00035461 -0.010502 0.030263
-0.1534 0.16732 -0.0012625 0.026214
0.003088 -0.0014333 0.0041007 -0.0028712 0.0009667 -0.0012494 0.0032847 -0.0070295
-0.0014613 0.026399 -0.19558 0.21029
980000000 -0.057154 0.28417 0.016922 0.029886 -0.0094935 0.0040465 0.0017659 0.0035346
0.0038868 -0.0017801 -0.002898 -0.0023542
0.016872 0.029885 -0.21245 0.33774 0.033261 0.0054423 0.0020572 -0.0001724
0.0017098 -0.0061462 4.5042e-05 -0.0024802
-0.0095081 0.0040886 0.033332 0.0053267 0.10737 0.30621 0.00065387 -0.001188
0.00056562 -0.0020182 0.001506 -0.0001373
0.0018583 0.0035114 0.0020939 -0.00011776 0.00066359 -0.0011831 -0.074569 0.27038
0.0072047 0.029848 -0.008966 -0.0066465
0.0038549 -0.0018673 0.0016474 -0.0061429 0.0005626 -0.0020171 0.0073058 0.029883
-0.11929 0.19705 0.0061226 0.018969
-0.0030423 -0.0023218 -5.1739e-05 -0.0024565 0.0014639 -0.00019086 -0.008933 -0.0067248
0.0058659 0.01922 -0.15239 0.25369
1040000000 -0.016 0.2933 0.032749 0.018956 -0.0017489 0.0069329 0.002654 0.00092163
9.3158e-05 -0.0037111 -0.00012006 -0.0014763
0.032688 0.018955 -0.17776 0.35128 0.029997 -0.014474 0.0016319 -0.0017036
-0.0020705 -0.003047 -0.0010695 -0.0029169
-0.0017703 0.0069344 0.029995 -0.014622 0.15322 0.29338 -0.000422 -0.0016448
-0.0016143 -0.0010832 -0.00065442 -0.0010459
0.0026604 0.0009742 0.0016134 -0.0016807 -0.00042495 -0.0016329 -0.047344 0.28013
0.019171 0.018715 -0.0026783 0.0011627
5.7525e-05 -0.0038076 -0.002074 -0.003041 -0.0016051 -0.0010939 0.019146 0.018687
-0.085117 0.20393 0.014123 0.017457
-0.00036472 -0.0016443 -0.0011293 -0.002972 -0.00066326 -0.0010654 -0.0026755 0.0012004
0.01418 0.017296 -0.13009 0.27391
1100000000 0.028834 0.30248 0.036329 -0.0034741 0.0026598 0.0042287 0.0024782 -0.00097895
-0.002096 -0.0028744 -0.0039341 4.8593e-06
0.036296 -0.0034857 -0.1348 0.36944 0.015948 -0.027871 0.00013844 -0.0018392
-0.0036537 -0.00089396 -0.0035878 -0.00058577
0.0026664 0.0042279 0.01587 -0.027975 0.19934 0.27419 -0.0019666 3.4475e-05
-0.0018451 0.00051079 -0.0011598 -0.00040556
0.0025097 -0.00096701 0.00012772 -0.0018458 -0.0019683 4.1546e-05 -0.0073061 0.28519
0.024894 0.005566 -0.0025188 8.3203e-05
-0.0021237 -0.0028638 -0.0036594 -0.00084418 -0.0018497 0.00047927 0.024903 0.0055008
-0.065278 0.21661 0.019601 0.0080704
-0.0039052 1.5557e-05 -0.0035771 -0.00051891 -0.001168 -0.00045476 -0.0025658 9.5855e-05
0.019614 0.0082591 -0.083641 0.30215
1160000000 0.079684 0.29866 0.02448 -0.020551 0.0026961 -0.0003591 1.7893e-05 -0.0023758
-0.0039041 -0.00081066 -0.0010169 0.0041194
0.024487 -0.020522 -0.091624 0.37422 -0.0032775 -0.029669 -0.0016623 -0.0017477
-0.0028099 0.0025369 -0.0015227 0.0020232
0.0026793 -0.00038629 -0.0034031 -0.029699 0.24271 0.24423 -0.00085661 0.0018384
-0.00069766 0.002042 -0.00084752 0.00024947
1.1344e-05 -0.0024057 -0.0016409 -0.0017159 -0.0008543 0.0018337 0.032039 0.2826
0.021518 -0.010288 -0.0033455 0.0050081
-0.0039089 -0.00078096 -0.0028043 0.0025851 -0.00069073 0.0020361 0.0215 -0.010306
-0.030683 0.22366 0.018268 -0.0008531
-0.00091058 0.0041865 -0.001752 0.0020452 -0.00091895 0.00027464 -0.0033168 0.0051627
0.018224 -0.00084087 -0.036967 0.30427
1220000000 0.12365 0.28907 0.010987 -0.030136 -0.0016038 -0.00080045 0.00011807 -0.00097415
-0.0026791 0.0022187 0.0011326 0.0020014
0.010987 -0.030093 -0.047699 0.38742 -0.016938 -0.022018 -0.0027101 0.00042732
-2.2803e-05 0.0031661 -0.00090626 0.001948
-0.0016207 -0.00079066 -0.017051 -0.021981 0.28189 0.20582 0.00075546 0.0018477
0.0006722 0.0012711 0.00029286 0.00058576
0.00010461 -0.00097179 -0.0027423 0.00042564 0.00074589 0.001835 0.072061 0.27408
0.010941 -0.017279 0.0020686 0.0014995
-0.0026844 0.0021776 -2.2884e-05 0.0031821 0.0006592 0.0012704 0.010957 -0.017309
-0.0073577 0.23175 0.013616 -0.013174
0.0010746 0.0019823 -0.00083765 0.0018822 0.00031413 0.00056909 0.0020276 0.0014498
0.013567 -0.013213 -0.0048442 0.31914
1280000000 0.17405 0.26866 -0.0077687 -0.028814 -0.002025 0.0026399 -0.00076756 -0.0021105
-0.00072663 0.0032041 0.002554 0.001452
-0.0077246 -0.028782 -0.0017472 0.37949 -0.024335 -0.0090883 -0.0010889 0.0015537
0.0017684 0.0018594 0.00059363 0.002081
-0.001999 0.0026489 -0.024415 -0.0089827 0.31289 0.1624 0.0016607 1.6178e-05
0.0012444 0.00032697 0.00036984 0.00024663
-0.00076076 -0.0021214 -0.0010562 0.001555 0.0016567 1.4057e-05 0.10899 0.25814
0.0011365 -0.019628 -9.8986e-05 0.00022791
-0.00073175 0.0032453 0.0017708 0.0018694 0.0012328 0.00033168 0.0010905 -0.019637
0.029531 0.23469 0.0027515 -0.015423
0.0025367 0.0014056 0.00058214 0.0020379 0.0003629 0.00024243 -9.3071e-05 0.00021655
0.0027253 -0.015455 0.042136 0.32063
1340000000 0.21154 0.23609 -0.017599 -0.019168 0.00083967 0.0048301 -0.0018759 -0.00088631
0.0014194 0.0026073 0.0018002 -0.0014197
-0.01757 -0.019149 0.037958 0.37206 -0.022207 0.0041294 -7.0583e-05 0.0021232
0.0021148 0.00075991 0.0012565 0.00066506
0.00083533 0.0048284 -0.022211 0.0042405 0.3351 0.11528 0.0012059 -0.00091986
0.00059713 -0.0006465 -4.9464e-05 0.00015799
-0.0019119 -0.00087408 -5.4232e-05 0.002119 0.001207 -0.00092352 0.14239 0.2374
-0.0084596 -0.017002 0.00075852 0.00057962
0.0014386 0.0026037 0.0021237 0.00073689 0.00060239 -0.00066336 -0.0084917 -0.01699
0.059468 0.22979 -0.0043035 -0.014001
0.001911 -0.0014459 0.0012431 0.00073618 -5.3856e-05 0.00025989 0.00079082 0.00067156
-0.0042035 -0.013986 0.079816 0.315
1400000000 0.24549 0.19897 -0.023552 -0.0075495 0.0054124 0.0035054 -0.0023036 0.00062409
0.0025002 0.0010359 0.00038816 -0.0016403
-0.0235 -0.0075493 0.075664 0.35986 -0.01547 0.012695 0.0013979 0.0013167
0.0013257 -0.00085076 0.001225 0.00010488
0.0054646 0.0034762 -0.015424 0.012804 0.3484 0.062477 8.8068e-05 -0.0017221
9.325e-05 -0.0004484 0.00033728 0.00018607
-0.0022552 0.00059738 0.0014112 0.0013337 9.028e-05 -0.0017195 0.1721 0.20846
-0.014718 -0.010181 -0.00068051 -0.00014813
0.0025147 0.0010219 0.0013092 -0.00089324 9.3664e-05 -0.00042979 -0.014748 -0.010161
0.092255 0.22513 -0.010418 -0.0087437
0.00033487 -0.0016514 0.0011885 6.7184e-05 0.00033391 0.00015003 -0.00070106 -0.00018668
-0.010362 -0.0086282 0.12349 0.30374
1460000000 0.26914 0.15539 -0.020422 0.004779 0.0060611 -0.0017741 -0.0015506 0.0018194
0.002213 -0.00043514 -0.00034468 -0.0010209
-0.020414 0.0047565 0.11045 0.33839 -0.0063289 0.015981 0.0017685 0.00014169
0.00087127 -0.0013941 0.0011997 -0.00064571
0.0060313 -0.0017736 -0.006273 0.016022 0.3553 0.0086506 -0.0012263 -0.0013614
0.00011978 -0.00022056 0.00071456 -0.0002716
-0.0015662 0.0018095 0.0017659 0.00012435 -0.0012298 -0.0013635 0.19892 0.179
-0.016065 -0.0034167 -0.00081465 0.0021051
0.0022065 -0.00045657 0.00088337 -0.001405 0.00010032 -0.00021587 -0.016077 -0.0033804
0.12182 0.21078 -0.012265 -0.0027441
-0.00030491 -0.00099297 0.0011913 -0.00064782 0.00067947 -0.00023048 -0.0008152 0.0020564
-0.012311 -0.0027998 0.15669 0.28292
1520000000 0.28213 0.11399 -0.014703 0.010278 0.0036444 -0.0044772 0.00010868 0.0026184
0.0021172 -0.0020042 -0.0012474 -0.00013622
-0.014705 0.010247 0.14435 0.32406 0.0017119 0.013654 0.0016324 -0.00082853
7.4799e-06 -0.0011602 0.00028043 -0.0010855
0.003611 -0.0044886 0.0017681 0.01365 0.349 -0.047211 -0.0011965 -0.00036511
0.00063787 -0.00089921 -2.6027e-06 -0.00017079
0.00011254 0.0026259 0.0016107 -0.0008358 -0.0011924 -0.00036373 0.22203 0.14031
-0.015427 0.0027455 0.0016333 0.0020793
0.0021093 -0.0019996 -1.9219e-05 -0.0011558 0.0006201 -0.00089998 -0.015434 0.0027626
0.14973 0.19733 -0.011986 0.0019713
-0.0012754 -0.00014765 0.00027797 -0.0010564 -1.1156e-06 -0.0001586 0.0016294 0.0021336
-0.011942 0.0019886 0.18942 0.26204
1580000000 0.29232 0.067919 -0.0079994 0.013416 -0.00092525 -0.0052949 0.001499 0.0019447
-0.00017456 -0.0022168 -0.00022345 0.00042269
-0.0079973 0.013409 0.1721 0.29953 0.0056424 0.0085382 0.00047376 -0.0016133
-0.00059196 -0.0010332 -0.00016436 -0.00088991
-0.00095493 -0.0052903 0.005698 0.0085151 0.32983 -0.10454 -0.0016974 0.00067827
-0.00030809 -0.0011424 0.00019912 -0.00052855
0.0015315 0.0019239 0.00048335 -0.001605 -0.0016993 0.000675 0.2358 0.10077
-0.011936 0.0076902 0.0021998 0.00074415
-0.00018023 -0.0022142 -0.00059401 -0.0010249 -0.00029316 -0.0011581 -0.011915 0.0077365
0.1742 0.17939 -0.0093782 0.0074396
-0.00020803 0.00037741 -0.00018405 -0.00090925 0.00017709 -0.00058636 0.0022157 0.00075321
-0.0094048 0.0074987 0.22109 0.23526
1640000000 0.29495 0.026642 -0.0012872 0.012223 -0.0030319 -0.0028886 0.0027226 0.0010967
-0.00083582 -0.001568 -0.0003421 0.00059347
-0.0012895 0.012214 0.20195 0.27478 0.0063386 0.0034246 -0.00067042 -0.0017971
-0.001031 -0.00040673 -0.00060943 -0.00071647
-0.0030511 -0.0028772 0.0063671 0.0033831 0.30205 -0.15424 -0.00063003 0.0014772
-0.0011148 -0.00098585 -0.00023138 -0.00031917
0.0027456 0.0010862 -0.00067369 -0.0017887 -0.00063167 0.0014822 0.24801 0.051658
-0.0075336 0.009302 0.0025744 -0.00081423
-0.00083598 -0.0015783 -0.0010406 -0.00039495 -0.0011339 -0.00098394 -0.0075047 0.0093382
0.19754 0.15542 -0.004484 0.0093935
-0.00029722 0.00061026 -0.00060536 -0.00070783 -0.00022733 -0.00032668 0.0025449 -0.00087457
-0.004527 0.0093853 0.24618 0.20413
1700000000 0.28842 -0.018625 0.0021311 0.0093852 -0.0039103 -4.9507e-05 0.0032267 -0.00128
-0.002006 -0.00059408 0.00054672 0.00039692
0.0021224 0.0093722 0.22036 0.24342 0.0041623 0.00030016 -0.0014958 -0.00058102
-0.00083407 5.5028e-05 -0.00092007 -0.00047096
-0.0039045 -3.4667e-05 0.0041701 0.00028374 0.25883 -0.19439 0.00045917 0.0016494
-0.0019498 -0.00011253 -0.0004886 -0.00092052
0.0032128 -0.0012685 -0.001497 -0.0005632 0.00044827 0.0016373 0.24456 0.0017376
-0.0044485 0.0099057 0.0016752 -0.0022733
-0.0020149 -0.00059253 -0.00084734 6.7276e-05 -0.0019513 -9.4889e-05 -0.0044352 0.0099287
0.21498 0.13509 7.1504e-05 0.0097001
0.00059881 0.00038333 -0.00091712 -0.00046337 -0.00043101 -0.00090339 0.0016503 -0.0022672
7.9192e-05 0.0097125 0.26241 0.16984
1760000000 0.27677 -0.067494 0.0044175 0.0060128 -0.002395 0.0010404 0.0013512 -0.0034276
-0.0014934 0.00076848 0.00034419 -0.00048905
0.0044072 0.0060102 0.24674 0.20368 0.0018112 -0.0016023 -0.0011998 0.00020418
-0.0011158 0.00093415 -0.00070722 0.00036603
-0.0023887 0.0010454 0.0017914 -0.0016206 0.21086 -0.22761 0.0011532 0.00096069
-0.0012301 0.0015007 -0.0013089 -0.00072003
0.0013292 -0.0034421 -0.0012226 0.00021395 0.0011433 0.00097228 0.23538 -0.049654
-0.00092707 0.0090908 -0.00025309 -0.0026427
-0.0014765 0.00078086 -0.001116 0.00095125 -0.0012369 0.0014989 -0.00094086 0.0090884
0.23021 0.10057 0.0039317 0.0071548
0.00034377 -0.00045882 -0.00068965 0.0003582 -0.0012766 -0.00073038 -0.00015484 -0.0026146
0.0039277 0.0072109 0.27499 0.13222
1820000000 0.2524 -0.10504 0.004417 0.002435 -0.00040745 0.0025297 -0.0009799 -0.003132
-0.00104 0.0010765 -1.1852e-05 -5.1731e-05
0.0044147 0.0024357 0.25708 0.17354 -0.00073685 -0.00047398 -0.0013472 0.00097045
-0.00010264 0.0013189 -0.00053831 0.00059201
-0.00039998 0.0025371 -0.00072262 -0.00047314 0.16011 -0.24383 0.0016471 0.0004129
-0.00015136 0.0024514 -0.0013551 0.00038595
-0.0010328 -0.0031043 -0.0013322 0.00095878 0.0016427 0.0004222 0.20517 -0.096874
0.00066754 0.0074968 -0.0016948 -0.0015775
-0.0010466 0.0010708 -8.4991e-05 0.0013251 -0.00012142 0.0024582 0.00070892 0.007494
0.24741 0.071321 0.004883 0.0037167
2.8282e-06 -8.9473e-05 -0.00053908 0.00062309 -0.0013714 0.00046152 -0.0017187 -0.0015842
0.0048518 0.0036834 0.27686 0.095877
1880000000 0.21743 -0.14577 0.0022252 5.311e-05 -0.0005721 0.0021984 -0.0029419 -0.0022701
-0.00018459 0.0017695 5.7835e-05 -0.00049951
0.0022253 6.0134e-05 0.26181 0.127 -0.002712 0.0015591 -0.00023407 0.0017572
0.00058782 0.0013575 -7.3939e-06 0.00092654
-0.00057434 0.0021979 -0.0026982 0.0015681 0.10787 -0.25308 0.0017409 -0.0008648
0.0015703 0.0019976 -0.0011278 0.0012357
-0.0029865 -0.0022568 -0.00023514 0.0017643 0.0017469 -0.00087924 0.16453 -0.13667
0.0016841 0.005383 -0.0025369 0.00028524
-0.0001727 0.0017728 0.00059968 0.0013781 0.0016007 0.0020031 0.0016811 0.0053803
0.25152 0.039955 0.0049922 0.0012492
8.1633e-05 -0.00052484 9.6124e-06 0.00090399 -0.0010673 0.001233 -0.002496 0.00024931
0.0050577 0.0012842 0.27637 0.061932
1940000000 0.17806 -0.17125 -0.00033319 -0.0014739 0.0013365 0.0022691 -0.0037317 0.00046172
0.0014331 0.0011197 -0.00044173 -0.00059783
-0.00034349 -0.0014661 0.26258 0.095038 -0.0015811 0.0041385 0.001152 0.0013116
0.0019733 0.00061167 0.0010527 0.00051251
0.0013517 0.0022519 -0.0015732 0.0041584 0.062344 -0.24588 0.00064309 -0.002231
0.0024817 0.00035241 0.00061907 0.0017978
-0.0037215 0.00048565 0.0011575 0.0013122 0.00062846 -0.0022377 0.11215 -0.16709
0.00083834 0.0040644 -0.001436 0.0017448
0.0014618 0.0011195 0.0019835 0.0005876 0.0024721 0.00034748 0.00082848 0.0040835
0.25438 0.0013688 0.0036802 -0.0016575
-0.00041309 -0.00054955 0.0010514 0.00051133 0.00056258 0.0018055 -0.0014333 0.0017218
0.0036753 -0.0017049 0.26579 0.026006
2000000000 0.13229 -0.18612 -0.0041532 0.00076108 0.0026605 0.0017091 -0.0023028 0.0038363
0.0012201 0.00033561 -0.00073138 0.0004706
-0.004151 0.00075724 0.2484 0.059433 -0.0010703 0.0060068 0.0016027 0.00046808
0.0014584 -0.0011978 0.00054936 0.00012218
0.0026571 0.0016773 -0.0010337 0.0059978 0.019318 -0.23232 -0.001187 -0.001405
0.002121 -0.0012056 0.0016305 0.0014826
-0.0023297 0.0038292 0.0015854 0.00044169 -0.0011874 -0.0014217 0.058771 -0.1771
-0.00038819 0.0035892 -0.00012554 0.0021872
0.0012216 0.00031936 0.0014369 -0.0012327 0.0021257 -0.0011942 -0.00039475 0.003579
0.24964 -0.031892 0.00080776 -0.0028588
