!Keysight Technologies,M9804A,MY58100912,A.14.10.03
!Date: Thursday, April 27, 2023 10:28:33
!Correction: S11(C  6-Port  ) 
!S12(C  6-Port  ) 
!S13(C  6-Port  ) 
!S14(C  6-Port  ) 
!S15(C  6-Port  ) 
!S16(C  6-Port  ) 
!S21(C  6-Port  ) 
!S22(C  6-Port  ) 
!S23(C  6-Port  ) 
!S24(C  6-Port  ) 
!S25(C  6-Port  ) 
!S26(C  6-Port  ) 
!S31(C  6-Port  ) 
!S32(C  6-Port  ) 
!S33(C  6-Port  ) 
!S34(C  6-Port  ) 
!S35(C  6-Port  ) 
!S36(C  6-Port  ) 
!S41(C  6-Port  ) 
!S42(C  6-Port  ) 
!S43(C  6-Port  ) 
!S44(C  6-Port  ) 
!S45(C  6-Port  ) 
!S46(C  6-Port  ) 
!S51(C  6-Port  ) 
!S52(C  6-Port  ) 
!S53(C  6-Port  ) 
!S54(C  6-Port  ) 
!S55(C  6-Port  ) 
!S56(C  6-Port  ) 
!S61(C  6-Port  ) 
!S62(C  6-Port  ) 
!S63(C  6-Port  ) 
!S64(C  6-Port  ) 
!S65(C  6-Port  ) 
!S66(C  6-Port  ) 
!S6P File: Measurement: :
# Hz S  RI   R 50
500000000 -0.33487 -0.052637 -0.010413 -0.0012356 -0.0087145 0.013561 -0.0040658 0.012587
0.012319 0.0055467 -0.0046769 0.0087711
-0.010505 -0.0013185 -0.41621 -0.063468 0.0080299 -0.01046 0.0005908 0.011838
0.0079513 0.0027317 0.00049687 0.013867
-0.0086608 0.013609 0.0080818 -0.010471 -0.26674 0.19931 0.0064538 0.0038941
-0.0015056 0.0080741 0.00015366 0.012566
-0.0041472 0.011896 0.00083158 0.012005 0.0066966 0.0037075 -0.3324 0.042895
-0.018221 -0.0043507 0.016157 0.023758
0.012205 0.0060141 0.008341 0.0032818 -0.0011356 0.0082542 -0.018121 -0.0049237
-0.24786 -0.19522 -0.026065 0.0054342
-0.0037523 0.0082427 0.00082133 0.013557 0.00058078 0.012355 0.015496 0.023919
-0.026361 0.0057213 -0.27163 -0.12378
560000000 -0.31889 0.11279 -0.02319 -0.064884 6.2024e-05 0.012437 0.0053448 0.010876
0.011015 0.004713 0.0099832 0.0081933
-0.023209 -0.064836 -0.37528 0.098819 -0.042016 -0.037336 0.013558 0.0034962
-0.0122 -0.0041761 0.0035429 -0.001049
1.7896e-05 0.012385 -0.042294 -0.037225 -0.18559 0.25032 -0.0001786 -0.004704
0.018669 0.0052433 0.0078475 -0.0056293
0.0051905 0.010823 0.01404 0.0030978 -0.00039433 -0.0046434 -0.30728 0.1344
0.0051856 -0.023362 0.0054899 -0.021346
0.011885 0.0050689 -0.013242 -0.0036016 0.018624 0.0048432 0.0049261 -0.022364
-0.31046 -0.017125 0.0077279 -0.046624
0.0097684 0.0076776 0.0039729 -0.0010551 0.0072628 -0.0057786 0.0055756 -0.022105
0.0078302 -0.046907 -0.33198 0.025597
620000000 -0.27819 0.09307 -0.02312 0.0086211 0.0037084 0.0090531 0.0078644 -0.0044788
0.01186 -0.00062334 0.00011433 -0.0030654
-0.023141 0.0086213 -0.4033 0.048858 -0.018298 0.00055376 -0.0015477 -0.0018128
0.012592 -0.006555 0.0011217 -0.0031081
0.0037172 0.0090588 -0.018313 0.00057165 -0.15554 0.26013 -0.00051446 -0.0049222
-0.003394 -0.0033054 0.0091902 -0.0028328
0.008366 -0.0045355 -0.001608 -0.001585 -0.00062001 -0.00499 -0.26485 0.1447
-0.039198 -0.019001 0.01352 0.026606
0.01207 -0.0016151 0.012263 -0.0068638 -0.0029772 -0.0031668 -0.039304 -0.017949
-0.23 -0.050125 -0.041812 0.012761
0.00014745 -0.0023889 0.0011895 -0.0028069 0.0091438 -0.002809 0.015038 0.025829
-0.041217 0.012534 -0.25113 -0.0059869
680000000 -0.23912 0.1838 -0.026031 -0.014398 0.0054415 0.0051729 0.00088226 -0.0076158
-0.0022862 -0.012342 0.0056304 -0.0063934
-0.02603 -0.014334 -0.38972 0.15005 -0.032406 -0.001872 -0.0013988 -0.00061824
-0.0018116 -0.009613 -0.00084929 -0.0017454
0.0054504 0.0051622 -0.03243 -0.0017965 -0.10404 0.28063 -0.00067438 -0.00020756
-0.0018819 0.00015229 -0.0027999 -0.008877
0.00081008 -0.0073543 -0.0013348 -0.00057112 -0.00078708 -0.00031846 -0.22048 0.19687
-0.023607 -0.0072837 -0.0089868 -0.011277
-0.001965 -0.011978 -0.0019357 -0.0094708 -0.0018253 0.00038438 -0.023752 -0.0072938
-0.27918 0.053264 -0.0080484 -0.0080183
0.0053069 -0.0071406 -0.00087687 -0.0019298 -0.0026835 -0.0091543 -0.0092055 -0.011234
-0.0079441 -0.0076762 -0.25841 0.096114
740000000 -0.19284 0.17726 -0.039522 0.026819 0.013636 -0.0048417 -0.00033324 -0.0037701
-0.0037604 -0.0037553 -0.0070613 0.0033072
-0.039512 0.026734 -0.33574 0.16868 -0.036988 0.034823 -2.751e-05 -0.005665
-0.012411 0.007193 -0.0010356 -0.0055527
0.01363 -0.0048274 -0.036839 0.034854 -0.070299 0.27794 -0.0021452 0.0031991
-0.0029219 -0.0059326 -0.0017087 0.0013387
-0.00010159 -0.0038865 -0.00022392 -0.005968 -0.0022809 0.0033935 -0.20353 0.20459
-0.043292 -0.0080348 0.022582 0.015493
-0.0044303 -0.0037525 -0.011973 0.007861 -0.0031362 -0.0058285 -0.043007 -0.0077968
-0.17923 0.080669 -0.043017 -0.00023319
-0.0064425 0.0035731 -0.0015305 -0.0063114 -0.0015986 0.0013403 0.022541 0.015514
-0.042932 0.00016323 -0.2485 0.10313
800000000 -0.16164 0.22106 -0.022639 0.016525 0.0057143 -0.010654 -0.0042319 -0.0018008
-0.0042807 0.0024837 0.0044391 0.00059671
-0.022667 0.01649 -0.34157 0.23935 -0.0086135 0.034163 -0.0022281 0.0024559
-0.00098477 0.0030488 0.00085919 0.0055406
0.005702 -0.010641 -0.0085441 0.034239 -0.031528 0.30197 0.0010512 0.0015382
1.645e-05 0.0035475 -0.001616 0.00084386
-0.0043355 -0.0019023 -0.0023007 0.0023216 0.00098211 0.0014146 -0.17445 0.23197
-0.028971 0.013422 0.014353 -0.0096765
-0.004429 0.0027748 -0.0010532 0.0031454 6.0952e-05 0.003554 -0.028917 0.013563
-0.22088 0.10976 -0.017777 0.019425
0.0045168 0.00037728 0.0010827 0.0052326 -0.0015302 0.00077008 0.014065 -0.0099652
-0.01763 0.019509 -0.23947 0.15175
860000000 -0.12762 0.24072 -0.018219 0.030558 -0.0029191 -0.010435 -0.0017928 0.00047175
0.0040172 0.0047269 -0.0033077 -0.0030086
-0.01821 0.030519 -0.29306 0.28216 0.0075222 0.034593 4.1117e-05 0.0019397
0.0039141 0.00077221 0.003156 0.00010109
-0.0029536 -0.010449 0.007637 0.034606 0.016072 0.31069 -0.00078028 -0.00022331
0.002481 -0.00148 0.0017277 0.0040862
-0.0019694 0.00054508 -9.9815e-06 0.0020953 -0.00080955 -0.00016541 -0.1376 0.24232
-0.018965 0.017977 -0.0062892 -0.008819
0.003896 0.0046297 0.0034382 0.00057279 0.0023176 -0.0016006 -0.018968 0.018196
-0.1657 0.15987 -0.024466 0.01697
-0.003358 -0.0028891 0.0033226 0.00050348 0.0017056 0.0042989 -0.0060213 -0.0089372
-0.024627 0.016992 -0.18999 0.19457
920000000 -0.10392 0.26412 0.0045505 0.038496 -0.0092412 -0.0050181 -0.0018476 0.0018363
0.0013863 0.0020131 0.0029234 -0.0013663
0.0045138 0.038431 -0.26601 0.30353 0.028168 0.022946 0.0015186 0.0013002
0.0074609 -0.0001251 0.0042415 -0.0029643
-0.0092712 -0.0049896 0.02826 0.022883 0.061557 0.31217 0.0019728 8.9109e-05
0.0009686 -8.1333e-05 0.0011898 -0.0013223
-0.0018437 0.0017263 0.0016105 0.0012715 0.0019979 8.9724e-05 -0.11341 0.25969
-0.01145 0.030811 0.003406 -0.0065184
0.0013282 0.0020038 0.0073758 -0.00045421 0.0010562 -0.00011736 -0.011454 0.030986
-0.15429 0.16747 -0.0017894 0.026564
0.0029641 -0.0014155 0.0041643 -0.0028628 0.0012041 -0.001358 0.0034233 -0.0064674
-0.0017334 0.026442 -0.19668 0.20942
980000000 -0.05745 0.28445 0.01692 0.030216 -0.0095753 0.0041568 0.0017708 0.0035827
0.0042294 -0.0017362 -0.0030455 -0.0024262
0.0169 0.030181 -0.21292 0.33838 0.033538 0.0054539 0.0019487 -0.00016095
0.001916 -0.0060575 -0.00039267 -0.0023238
-0.0095449 0.0041953 0.033593 0.0053648 0.10753 0.30663 0.00072332 -0.0012064
0.00061803 -0.00197 0.0015099 -0.00023602
0.0018032 0.00355 0.0019575 -0.00010832 0.00069239 -0.0011866 -0.07511 0.27095
0.0074827 0.030637 -0.0089605 -0.0072038
0.0042996 -0.0018412 0.0018917 -0.0061783 0.00061433 -0.0020285 0.0074798 0.030575
-0.12109 0.19618 0.0062258 0.020172
-0.00306 -0.002417 -0.00041795 -0.0023263 0.0014604 -0.00026949 -0.0090167 -0.0071223
0.0063556 0.020092 -0.15337 0.25234
1040000000 -0.01569 0.29355 0.033151 0.019151 -0.0016003 0.0070887 0.0027385 0.00070828
0.0004297 -0.003501 -6.5911e-05 -0.0017987
0.033104 0.019156 -0.17774 0.35202 0.030242 -0.014638 0.0017841 -0.0017927
-0.0020615 -0.0026315 -0.00083082 -0.00285
-0.0015784 0.0070901 0.030214 -0.01475 0.15355 0.29365 -0.00037012 -0.001762
-0.0016162 -0.0010309 -0.00046984 -0.0013032
0.0027734 0.00065221 0.0017696 -0.0018517 -0.00037153 -0.0017866 -0.047416 0.2806
0.019756 0.019228 -0.0023148 0.0011232
0.00041883 -0.0034911 -0.0021258 -0.0027319 -0.00161 -0.0010011 0.019731 0.019073
-0.087397 0.20302 0.01397 0.018252
-8.3253e-05 -0.0017776 -0.00097786 -0.0028599 -0.00045276 -0.0013091 -0.0023918 0.0010458
0.013882 0.018336 -0.13054 0.2733
1100000000 0.029079 0.30279 0.036592 -0.0035178 0.002787 0.0043035 0.0024409 -0.001191
-0.0021729 -0.0032905 -0.0041313 -0.00015615
0.036546 -0.0034997 -0.13462 0.37015 0.016011 -0.028147 1.8766e-05 -0.0019542
-0.0037034 -0.0011403 -0.0036967 -0.00054139
0.0028145 0.0042989 0.015921 -0.028225 0.19981 0.27433 -0.0020036 6.2069e-05
-0.0017944 0.00039437 -0.0011008 -0.00053123
0.0024188 -0.0011633 5.6037e-06 -0.0018983 -0.0020088 4.0616e-05 -0.0069795 0.28584
0.025423 0.0055074 -0.0022797 0.00013662
-0.0022128 -0.0032718 -0.0036534 -0.0011144 -0.0017825 0.00043833 0.025428 0.0054802
-0.066596 0.21576 0.019612 0.0082987
-0.0040958 -0.00012119 -0.0037023 -0.00048759 -0.0011266 -0.00050022 -0.002305 8.8663e-05
0.019515 0.0082658 -0.085042 0.30184
1160000000 0.080253 0.29892 0.02472 -0.020724 0.0028622 -0.00042671 -0.00017122 -0.002456
-0.0040632 -0.00088736 -0.0010872 0.0042207
0.024668 -0.020705 -0.091042 0.37503 -0.0033561 -0.029871 -0.0016607 -0.0017907
-0.0028545 0.0025808 -0.0015013 0.0019719
0.0028689 -0.00042268 -0.0034909 -0.029886 0.24323 0.24416 -0.00076941 0.0018561
-0.00068806 0.0019908 -0.00094634 0.00030609
-0.00018734 -0.0024521 -0.001686 -0.0017891 -0.00080086 0.0018204 0.032534 0.28311
0.021962 -0.010737 -0.0032542 0.0053139
-0.0039856 -0.00084231 -0.0028386 0.002584 -0.00071744 0.0020067 0.021858 -0.010764
-0.032441 0.2236 0.0187 -0.00077636
-0.0010171 0.0041295 -0.0014912 0.0019534 -0.00096864 0.00026077 -0.0032248 0.0052259
0.018768 -0.00075965 -0.038181 0.30488
1220000000 0.12439 0.28908 0.01118 -0.030382 -0.0015268 -0.00094247 -8.0058e-05 -0.00089642
-0.002698 0.0021993 0.0011158 0.0021623
0.011179 -0.030351 -0.046836 0.38808 -0.017139 -0.022069 -0.0027555 0.00048196
-1.3664e-06 0.0031675 -0.00081843 0.0020515
-0.0015209 -0.00094176 -0.017271 -0.02202 0.28251 0.2055 0.00076176 0.0018126
0.00059549 0.0012827 0.00027417 0.00066022
-4.6641e-05 -0.00087096 -0.0027337 0.00055045 0.00076644 0.0018262 0.072944 0.27435
0.011146 -0.017709 0.001971 0.0012563
-0.0026848 0.00222 -3.619e-06 0.0031669 0.00062094 0.0012702 0.011076 -0.017729
-0.0083397 0.23209 0.013974 -0.0135
0.0010814 0.002128 -0.00084659 0.0020664 0.00032911 0.00066861 0.0020342 0.001322
0.013926 -0.013477 -0.0061677 0.319
1280000000 0.17487 0.26859 -0.0077254 -0.029104 -0.0020144 0.0024892 -0.0008161 -0.0020074
-0.00079927 0.0032453 0.0025547 0.0012843
-0.0077057 -0.029074 -0.00045943 0.37977 -0.024451 -0.0089418 -0.0010014 0.0015359
0.0017365 0.0017661 0.00054103 0.0021072
-0.002003 0.0024693 -0.024525 -0.0088458 0.31326 0.16196 0.0016568 -4.3557e-05
0.0012512 0.00030209 0.0003191 0.00021182
-0.00087075 -0.0019965 -0.0010129 0.0015663 0.0016451 -3.3927e-05 0.11 0.25811
0.00097014 -0.020046 -2.2033e-05 0.00038965
-0.00077061 0.0032069 0.0017405 0.0017403 0.001259 0.00031574 0.0009188 -0.020043
0.028499 0.23522 0.0028896 -0.015775
0.0025259 0.0012217 0.00055109 0.0020548 0.00032147 0.00028025 -0.00012095 0.00043639
0.0029207 -0.015804 0.040902 0.32104
1340000000 0.21226 0.23553 -0.017775 -0.019444 0.00073331 0.0047359 -0.0017236 -0.00081362
0.001516 0.0026815 0.0018723 -0.0012847
-0.017756 -0.019434 0.039164 0.37193 -0.022159 0.0042301 -3.6186e-05 0.0020563
0.0020417 0.00084674 0.0012897 0.00082174
0.00076015 0.0047387 -0.022176 0.0043447 0.33518 0.11466 0.0011608 -0.00088677
0.00073551 -0.00064887 0.00012129 0.00035615
-0.0017181 -0.00083938 -6.4974e-05 0.002076 0.0011398 -0.00086509 0.14309 0.23686
-0.0089282 -0.017251 0.00066829 0.00047428
0.0014959 0.002691 0.0020431 0.0008035 0.00068833 -0.00063926 -0.008943 -0.017274
0.058829 0.23029 -0.0041951 -0.014265
0.001874 -0.0012959 0.0013365 0.00077201 0.00010338 0.00033796 0.00068665 0.00039119
-0.0041736 -0.014292 0.078919 0.31534
1400000000 0.24617 0.19821 -0.02383 -0.0076627 0.0053673 0.0034432 -0.0022424 0.00060334
0.0024815 0.0009829 0.00023358 -0.0016501
-0.023802 -0.0076847 0.076797 0.35935 -0.015353 0.012803 0.0013946 0.0013073
0.0013291 -0.00075981 0.001212 0.000132
0.0053694 0.0034394 -0.015322 0.012897 0.34843 0.061806 8.8285e-05 -0.0016245
0.00015869 -0.00042787 0.00040809 0.00015475
-0.0021938 0.00063384 0.001412 0.0013146 9.6518e-05 -0.0016192 0.17244 0.20775
-0.015153 -0.010049 -0.00081322 -0.00017269
0.0025067 0.00096397 0.0013178 -0.00078902 0.00018557 -0.00044553 -0.015203 -0.010014
0.092138 0.2253 -0.01067 -0.0089016
0.0002757 -0.0015999 0.0012406 0.00011035 0.00037934 0.00013883 -0.00081116 -0.00012862
-0.01071 -0.008869 0.12331 0.30382
1460000000 0.26951 0.15441 -0.020722 0.0048198 0.0059281 -0.0016942 -0.0015638 0.0017624
0.0022203 -0.00045511 -0.0003169 -0.0010489
-0.020698 0.0048159 0.11123 0.33749 -0.0061532 0.015971 0.0016989 0.00010554
0.00090693 -0.0013354 0.0012427 -0.0006479
0.0059484 -0.0017119 -0.0060798 0.016006 0.35493 0.0079149 -0.001201 -0.0013098
0.00011664 -0.00018809 0.00079863 -0.00022995
-0.0015632 0.0017612 0.0016784 0.00011305 -0.001203 -0.0013249 0.19894 0.17812
-0.016376 -0.003153 -0.00082013 0.0021087
0.0022433 -0.0005194 0.0008965 -0.0014042 0.00013708 -0.00021645 -0.016402 -0.0030753
0.1216 0.21083 -0.012431 -0.0027762
-0.00030766 -0.001082 0.0012322 -0.00069248 0.0007616 -0.0001984 -0.0008203 0.002105
-0.012416 -0.0027712 0.15637 0.28313
1520000000 0.28209 0.11303 -0.014997 0.010555 0.0035502 -0.0043348 5.8826e-05 0.0025828
0.002047 -0.0019797 -0.0011778 -0.00018313
-0.015001 0.010532 0.14473 0.32318 0.0017821 0.013527 0.0016389 -0.00081493
2.0648e-05 -0.0011316 0.00030098 -0.0010728
0.0034992 -0.0043615 0.0018548 0.013529 0.34873 -0.047688 -0.0010692 -0.00042145
0.00068495 -0.00095278 4.0233e-05 -0.00017879
8.2866e-05 0.0025896 0.001649 -0.00082275 -0.0010602 -0.00042445 0.22172 0.13967
-0.015499 0.0031544 0.0015982 0.0021122
0.0020593 -0.0019644 2.558e-05 -0.0011335 0.00067255 -0.00093034 -0.015513 0.0031846
0.14972 0.19707 -0.012159 0.0020031
-0.0011914 -0.00014089 0.00027229 -0.0010798 2.9344e-05 -0.00026242 0.0015756 0.0021243
-0.01216 0.0020433 0.18905 0.26219
1580000000 0.29215 0.067134 -0.0080532 0.01375 -0.00091213 -0.005219 0.0014768 0.0019437
-0.00026986 -0.0022166 -0.00029243 0.00048888
-0.0080528 0.013732 0.17209 0.29866 0.0055777 0.0084004 0.00052915 -0.0015925
-0.00057615 -0.0010589 -0.00023406 -0.00084264
-0.00092438 -0.005209 0.005643 0.0083855 0.32933 -0.10494 -0.0017242 0.00054929
-0.00031342 -0.0012738 0.00023337 -0.00061262
0.0014798 0.0019453 0.00049961 -0.0015895 -0.0017318 0.00052585 0.23525 0.10025
-0.011683 0.0081654 0.0021777 0.00065994
-0.00029917 -0.0022087 -0.00061115 -0.0010479 -0.00034994 -0.0013193 -0.011672 0.0082266
0.17399 0.17885 -0.0095933 0.0076973
-0.0002786 0.00045875 -0.0002391 -0.00085527 0.00020858 -0.00066035 0.0022532 0.0006256
-0.0095817 0.0077092 0.22028 0.23554
1640000000 0.2947 0.026075 -0.0011745 0.012494 -0.0030037 -0.0027387 0.0027074 0.0010572
-0.00082446 -0.001584 -0.00028842 0.00058948
-0.001186 0.012489 0.20178 0.2741 0.0062438 0.0033597 -0.00065034 -0.001811
-0.0010357 -0.00043687 -0.00056152 -0.00065797
-0.0030135 -0.0027004 0.0062754 0.0033217 0.30163 -0.15444 -0.00074863 0.0014326
-0.0010699 -0.00096179 -0.00017089 -0.00029088
0.0027284 0.0010377 -0.00064787 -0.0018133 -0.00072974 0.0014731 0.24724 0.051634
-0.0072647 0.0094174 0.0025964 -0.00077175
-0.0008502 -0.0015746 -0.0010562 -0.00040671 -0.0010967 -0.00098565 -0.0072396 0.009436
0.1969 0.15479 -0.0046529 0.0097972
-0.00027124 0.00065437 -0.0005771 -0.00063058 -0.00025425 -0.00029044 0.0024991 -0.00074166
-0.0046555 0.0097707 0.2461 0.20455
1700000000 0.28798 -0.019191 0.0023108 0.0094655 -0.0037679 4.8473e-05 0.0031725 -0.0012326
-0.002023 -0.00064249 0.0005956 0.00047518
0.0023022 0.0094687 0.22005 0.243 0.004048 0.00033212 -0.0015229 -0.00053028
-0.00082927 6.5502e-05 -0.0009011 -0.00042687
-0.0037813 8.463e-05 0.0040542 0.00029254 0.25857 -0.19448 0.00041381 0.001675
-0.0020085 -2.0553e-05 -0.0003798 -0.0008625
0.0031646 -0.0012347 -0.0015439 -0.00054273 0.0004329 0.0016319 0.24392 0.0021706
-0.004156 0.0098789 0.0015176 -0.0022975
-0.0020781 -0.00065265 -0.00084922 4.7764e-05 -0.0019959 1.3832e-05 -0.0041338 0.0099025
0.21409 0.13459 0.00013688 0.0098997
0.00054184 0.00045253 -0.00093404 -0.00042995 -0.00033065 -0.00087041 0.0015903 -0.0023126
0.00014844 0.0099413 0.26194 0.17028
1760000000 0.27635 -0.067808 0.004576 0.0060379 -0.0022733 0.0010555 0.0012759 -0.0034618
-0.001397 0.00066498 0.00026574 -0.00050235
0.0045676 0.0060352 0.24644 0.20358 0.0016456 -0.0015027 -0.0012438 0.00020059
-0.0010971 0.00088347 -0.00065241 0.0003744
-0.0022449 0.001045 0.001635 -0.0015193 0.21041 -0.22798 0.0011352 0.0011208
-0.0013324 0.0014361 -0.0011714 -0.00068961
0.0012361 -0.0035048 -0.001264 0.00020467 0.0010881 0.0010663 0.23505 -0.048879
-0.00082095 0.0088406 -0.00013928 -0.0025996
-0.001358 0.000697 -0.0010996 0.00091085 -0.0013311 0.0014598 -0.00077362 0.008812
0.22894 0.10018 0.0042278 0.0072571
0.00031671 -0.00054176 -0.00064277 0.00037551 -0.0011437 -0.00069408 -0.00022613 -0.0026368
0.0042702 0.0072368 0.27455 0.13248
1820000000 0.25207 -0.10523 0.0045201 0.002399 -0.00015444 0.0024692 -0.0009902 -0.0030958
-0.0011416 0.001076 -6.1719e-05 -0.00016256
0.0045119 0.0023993 0.25691 0.17362 -0.00070883 -0.00023461 -0.0012515 0.00098813
-8.8838e-05 0.0012921 -0.00059628 0.0004856
-0.00011664 0.002467 -0.00071119 -0.00024207 0.15939 -0.24398 0.001611 0.00042163
-0.00015517 0.0023743 -0.0015472 0.00027475
-0.001013 -0.0030786 -0.001278 0.00096423 0.0016462 0.00044356 0.20543 -0.095985
0.00067699 0.0074223 -0.0017917 -0.001621
-0.0011339 0.0010454 -4.7938e-05 0.0012739 -0.00016114 0.0024309 0.00068872 0.0074545
0.24601 0.071556 0.0050515 0.0036208
-2.0057e-05 -0.00013196 -0.0005722 0.00052533 -0.0015586 0.00033405 -0.0016728 -0.0016524
0.0050486 0.0036332 0.27684 0.096161
1880000000 0.21738 -0.14579 0.0022416 0.00011958 -0.00059781 0.0021345 -0.0029085 -0.002162
-0.00022098 0.0018472 -5.9258e-05 -0.00054773
0.0022418 0.00012394 0.26184 0.12718 -0.0024898 0.001559 -0.00017041 0.0017688
0.00060183 0.0013609 0.0001107 0.00099881
-0.00058985 0.0021333 -0.002509 0.0015863 0.10796 -0.2532 0.0017704 -0.00091242
0.0015112 0.002016 -0.0011154 0.0014332
-0.0029125 -0.0021792 -0.00013883 0.0017857 0.0018034 -0.00088197 0.16501 -0.13617
0.0014052 0.0053185 -0.0022044 0.00023525
-0.00019174 0.0018831 0.00059141 0.0013613 0.0015381 0.0019336 0.001432 0.005319
0.24997 0.040399 0.0053867 0.0012629
-6.4018e-05 -0.00057048 0.00010631 0.00095844 -0.0010804 0.001317 -0.0023365 0.00038158
0.0053539 0.0012825 0.27661 0.061927
1940000000 0.17809 -0.1717 -0.00018273 -0.0014848 0.0013068 0.0021387 -0.0036927 0.00050066
0.0013531 0.0012097 -0.00060805 -0.00058028
-0.00019756 -0.0014899 0.26283 0.095266 -0.0013543 0.0040074 0.0011009 0.0013105
0.001937 0.00053144 0.0010102 0.00040009
0.0013108 0.0021991 -0.0013409 0.0040111 0.06243 -0.24612 0.00049038 -0.0021858
0.0024931 0.00038005 0.0005493 0.0018395
-0.0037204 0.00050327 0.0010824 0.0012583 0.00049235 -0.0022411 0.11332 -0.16705
0.00093657 0.0039372 -0.0015707 0.0016375
0.0013445 0.0011666 0.001964 0.00051014 0.0025162 0.00045747 0.00095641 0.0039809
0.25344 0.0023288 0.0038414 -0.0020309
-0.00056527 -0.00048386 0.0010466 0.00042534 0.00056232 0.0019072 -0.0014654 0.0015389
0.003816 -0.0020567 0.26561 0.026221
2000000000 0.13211 -0.18672 -0.0039802 0.0007464 0.0026274 0.0015413 -0.002386 0.0036105
0.0013979 0.00035258 -0.00054878 0.00057957
-0.0039656 0.00073539 0.24886 0.059587 -0.00097023 0.0058935 0.0015918 0.00040704
0.0014004 -0.0011338 0.00052291 0.00011973
0.0026358 0.0015538 -0.00094188 0.005885 0.019009 -0.23245 -0.001241 -0.0014712
0.0021479 -0.001236 0.0017308 0.0014905
-0.0023459 0.0036442 0.001583 0.00045781 -0.0012065 -0.0014091 0.059784 -0.17721
-0.00031332 0.0037579 6.8722e-05 0.0023872
0.0012839 0.00033346 0.0013598 -0.0011636 0.0021376 -0.0011475 -0.00030614 0.0037119
0.24878 -0.030665 0.00084062 -0.0029426
