!Keysight Technologies,M9804A,MY58100912,A.14.10.03
!Date: Thursday, April 27, 2023 10:28:33
!Correction: S11(C  6-Port  ) 
!S12(C  6-Port  ) 
!S13(C  6-Port  ) 
!S14(C  6-Port  ) 
!S15(C  6-Port  ) 
!S16(C  6-Port  ) 
!S21(C  6-Port  ) 
!S22(C  6-Port  ) 
!S23(C  6-Port  ) 
!S24(C  6-Port  ) 
!S25(C  6-Port  ) 
!S26(C  6-Port  ) 
!S31(C  6-Port  ) 
!S32(C  6-Port  ) 
!S33(C  6-Port  ) 
!S34(C  6-Port  ) 
!S35(C  6-Port  ) 
!S36(C  6-Port  ) 
!S41(C  6-Port  ) 
!S42(C  6-Port  ) 
!S43(C  6-Port  ) 
!S44(C  6-Port  ) 
!S45(C  6-Port  ) 
!S46(C  6-Port  ) 
!S51(C  6-Port  ) 
!S52(C  6-Port  ) 
!S53(C  6-Port  ) 
!S54(C  6-Port  ) 
!S55(C  6-Port  ) 
!S56(C  6-Port  ) 
!S61(C  6-Port  ) 
!S62(C  6-Port  ) 
!S63(C  6-Port  ) 
!S64(C  6-Port  ) 
!S65(C  6-Port  ) 
!S66(C  6-Port  ) 
!S6P File: Measurement: :
# Hz S  RI   R 50
500000000 -0.33418 -0.052789 -0.010296 -0.0012062 -0.0085049 0.013117 -0.004831 0.011549
0.012503 0.0051751 -0.0063539 0.0071599
-0.01061 -0.0012822 -0.41572 -0.062999 0.0080395 -0.010394 0.0018014 0.011557
0.0083904 0.0030358 0.0019819 0.013804
-0.0083328 0.012909 0.007875 -0.010534 -0.26703 0.20005 0.0064458 0.0038559
-0.0016062 0.0083174 6.5868e-05 0.012867
-0.0043772 0.012546 0.0022364 0.011215 0.0064808 0.0038835 -0.33227 0.042974
-0.017992 -0.0050389 0.017283 0.024995
0.011448 0.005881 0.0084908 0.0032589 -0.0015636 0.0083664 -0.017939 -0.0050467
-0.24901 -0.19358 -0.024692 0.0045211
-0.0054062 0.0087795 0.0025159 0.013225 0.00014365 0.012903 0.017114 0.024828
-0.024679 0.0047246 -0.27011 -0.11816
560000000 -0.31865 0.11371 -0.023754 -0.064093 0.00027481 0.013111 0.0049867 0.0115
0.010162 0.0041902 0.011269 0.0085088
-0.022944 -0.06471 -0.37548 0.098899 -0.041629 -0.037917 0.013004 0.0041867
-0.012888 -0.0046905 0.0046914 -0.0012433
0.00039083 0.013103 -0.041908 -0.037864 -0.18536 0.25158 -0.00014126 -0.005629
0.019054 0.0051894 0.0076803 -0.0047166
0.0058833 0.011141 0.013054 0.0040629 -0.00014461 -0.0056036 -0.30575 0.13561
0.0053323 -0.024215 0.0050195 -0.021208
0.0099892 0.0033382 -0.012918 -0.0042317 0.019046 0.0052897 0.005319 -0.024202
-0.3094 -0.010837 0.0040639 -0.048647
0.010882 0.0079263 0.0044997 -0.00078422 0.0077478 -0.0047053 0.0049449 -0.021086
0.0041794 -0.048712 -0.32892 0.025859
620000000 -0.27724 0.095659 -0.022504 0.0089011 0.0040041 0.0097913 0.0075377 -0.004104
0.013454 -0.0009105 0.00087043 -0.0028067
-0.022474 0.0089735 -0.40344 0.049321 -0.01852 0.0010208 -0.0016446 -0.0017607
0.012536 -0.0061899 0.0010578 -0.0032444
0.0041114 0.0097138 -0.018678 0.00089334 -0.15544 0.26114 -0.00036004 -0.0046859
-0.0035662 -0.0028711 0.0096331 -0.0021399
0.0073709 -0.0041536 -0.0017638 -0.0019758 -0.00029756 -0.0046491 -0.26534 0.14683
-0.039557 -0.02025 0.013225 0.028445
0.01333 0.00042131 0.012602 -0.0061244 -0.0035228 -0.0029326 -0.039516 -0.020155
-0.22795 -0.045276 -0.04039 0.0097122
0.0012477 -0.0033115 0.00063022 -0.0034243 0.0096737 -0.0021714 0.013324 0.028279
-0.040486 0.0098254 -0.25129 -0.0029918
680000000 -0.23883 0.18609 -0.026468 -0.014431 0.0050698 0.0047818 0.0020549 -0.0071616
-0.0021628 -0.011306 0.0054617 -0.007656
-0.02631 -0.014307 -0.3898 0.15036 -0.032356 -0.0021491 -0.0018578 -0.0012005
-0.0012941 -0.008953 -0.00065195 -0.0025163
0.0052549 0.0048414 -0.032265 -0.0019475 -0.10371 0.28103 -0.0008799 -0.00056638
-0.0016059 0.00042683 -0.002938 -0.0093323
0.0020488 -0.0080324 -0.0017799 -0.00081223 -0.00095456 -0.00056571 -0.21986 0.19841
-0.023394 -0.0081565 -0.0099906 -0.011534
-0.0025074 -0.011529 -0.0012198 -0.008963 -0.001589 0.00045095 -0.023416 -0.0081472
-0.27842 0.05593 -0.0077046 -0.0070415
0.0047546 -0.0070898 -0.00037219 -0.0023715 -0.002932 -0.0093673 -0.010082 -0.011523
-0.0076606 -0.0070124 -0.25874 0.09741
740000000 -0.19295 0.17739 -0.039357 0.026945 0.013971 -0.0047725 -0.0002034 -0.0041688
-0.004477 -0.0033946 -0.0061965 0.0032363
-0.039344 0.026941 -0.33546 0.1693 -0.036588 0.034368 -0.00056143 -0.0059119
-0.012199 0.0075162 -0.0016541 -0.0057306
0.013748 -0.0046409 -0.036727 0.034704 -0.069064 0.27863 -0.0020587 0.0032428
-0.0031727 -0.0060093 -0.0016056 0.0013688
-0.00012813 -0.0039392 -0.00067283 -0.0059287 -0.0019833 0.0032842 -0.20381 0.20492
-0.042161 -0.0069856 0.022872 0.015207
-0.0042898 -0.0030852 -0.011954 0.007362 -0.003229 -0.0060218 -0.042209 -0.0069445
-0.18225 0.082672 -0.041755 0.0014748
-0.0063105 0.0036802 -0.001863 -0.0056935 -0.0016167 0.0013961 0.022988 0.015297
-0.041985 0.001413 -0.24707 0.10515
800000000 -0.16189 0.22127 -0.022806 0.016085 0.0055086 -0.010334 -0.0046146 -0.0023448
-0.0045898 0.0023202 0.0037982 0.00020592
-0.022616 0.01573 -0.3411 0.23937 -0.0087074 0.033936 -0.0026442 0.0021078
-0.0015771 0.0027896 0.00038217 0.0048698
0.0053494 -0.010411 -0.0085923 0.034035 -0.031099 0.30229 0.00067158 0.0015084
-0.00013899 0.0036253 -0.0021999 0.00094888
-0.0048368 -0.0024635 -0.0025842 0.0022691 0.00065603 0.0015425 -0.17366 0.23207
-0.028692 0.013256 0.013925 -0.010305
-0.0047236 0.0025731 -0.0015212 0.0027815 -0.00014448 0.0036285 -0.028656 0.013321
-0.22002 0.11227 -0.017499 0.019228
0.0033331 -0.00012479 0.00046775 0.0049495 -0.0021785 0.0010294 0.013895 -0.010412
-0.017444 0.019218 -0.24032 0.15251
860000000 -0.12722 0.24147 -0.017735 0.030314 -0.0028958 -0.010277 -0.0018308 0.00078417
0.0039367 0.0059602 -0.0031667 -0.0027035
-0.017724 0.030206 -0.29236 0.28195 0.0073777 0.034348 0.00027442 0.0018149
0.0037952 0.0012887 0.004142 0.00015673
-0.0028644 -0.010327 0.0075841 0.034391 0.016467 0.31038 -0.00047219 -0.00016421
0.0022592 -0.0010344 0.0018448 0.0042176
-0.0017917 0.00078825 0.00013594 0.0020061 -0.00050071 -0.0002009 -0.1367 0.24345
-0.017583 0.017444 -0.0059404 -0.0086525
0.0041463 0.0057304 0.0038211 0.0011066 0.0022649 -0.0010644 -0.017522 0.017499
-0.16357 0.16328 -0.023707 0.017577
-0.0031389 -0.0024854 0.0042776 0.00041467 0.0018048 0.0042106 -0.0059622 -0.0086622
-0.023702 0.017485 -0.18669 0.19572
920000000 -0.10314 0.26415 0.0045977 0.038043 -0.0092131 -0.0050815 -0.0021207 0.0017217
0.0018025 0.0018336 0.0027277 -0.0015667
0.0045178 0.038013 -0.26563 0.30329 0.028011 0.022659 0.0014589 0.0014277
0.0078017 -9.3213e-05 0.0038702 -0.0026326
-0.0092291 -0.0050218 0.028124 0.022589 0.061672 0.31177 0.0019984 0.00014402
0.0011706 -0.00038382 0.00073533 -0.001303
-0.0020985 0.0015773 0.0015241 0.0014482 0.0020163 0.00012334 -0.11316 0.25929
-0.01054 0.030561 0.0033014 -0.0067979
0.001739 0.0016955 0.0078096 -0.00011412 0.0011972 -0.00037262 -0.010515 0.030634
-0.15334 0.16676 -0.0021467 0.026493
0.0025534 -0.001504 0.003979 -0.0026125 0.00073808 -0.0013067 0.0033422 -0.0067879
-0.0022019 0.026546 -0.1958 0.2112
980000000 -0.057096 0.28399 0.016687 0.02985 -0.0094831 0.0041249 0.0018326 0.0033638
0.0040563 -0.0015914 -0.0028365 -0.0025123
0.016773 0.029847 -0.21234 0.33796 0.033301 0.005444 0.0020181 -0.00027763
0.001922 -0.0059211 3.6581e-05 -0.0025456
-0.0094935 0.004102 0.033331 0.0053136 0.10748 0.3063 0.00069653 -0.0012961
0.00064069 -0.0019448 0.001504 -0.00017418
0.0018321 0.0035011 0.0020206 -0.00023901 0.00069342 -0.0012962 -0.074357 0.27042
0.0071043 0.03009 -0.0091591 -0.006794
0.0040923 -0.0015374 0.0018837 -0.0060053 0.00064568 -0.0019674 0.00721 0.030062
-0.11916 0.1975 0.0062667 0.019551
-0.0027725 -0.0022349 4.0546e-05 -0.0026799 0.0014949 -0.00016342 -0.0091731 -0.0068313
0.0062642 0.019594 -0.15274 0.25361
1040000000 -0.015576 0.29314 0.032809 0.01902 -0.0016993 0.0069962 0.0025142 0.0010854
0.00034548 -0.00365 0.00016676 -0.0015432
0.032743 0.019106 -0.17762 0.35147 0.029998 -0.014472 0.0015251 -0.0017275
-0.0020193 -0.002928 -0.00091835 -0.0028224
-0.0016228 0.0070217 0.030053 -0.014578 0.15331 0.2934 -0.00051549 -0.0015843
-0.0016378 -0.00090741 -0.00059973 -0.0010273
0.002492 0.00091306 0.0015742 -0.0017291 -0.00051345 -0.0015683 -0.047442 0.28008
0.019324 0.018847 -0.0027604 0.0011417
0.00035954 -0.0037428 -0.0019284 -0.0028054 -0.0016133 -0.00090093 0.019358 0.018792
-0.085566 0.2039 0.014521 0.017653
-1.9124e-05 -0.001695 -0.0010167 -0.0029481 -0.00060824 -0.0010166 -0.0027824 0.0011886
0.014399 0.017617 -0.13003 0.27386
1100000000 0.028966 0.30266 0.036274 -0.0033626 0.002734 0.0041849 0.0024365 -0.0010895
-0.0022048 -0.0030222 -0.0041012 -0.00011578
0.036249 -0.0033295 -0.13461 0.36951 0.015998 -0.027884 0.00012178 -0.0018505
-0.0038362 -0.001071 -0.0036605 -0.00038962
0.0027452 0.0041854 0.015892 -0.027984 0.19942 0.27419 -0.0019635 -1.523e-05
-0.0018637 0.00041241 -0.0010376 -0.00042609
0.0024843 -0.0010115 0.0001748 -0.001819 -0.0019676 -1.7711e-05 -0.0072731 0.28529
0.025015 0.0056337 -0.0024854 -2.9649e-05
-0.0021129 -0.0029685 -0.0038268 -0.0010085 -0.0018669 0.00041892 0.025045 0.0055853
-0.065505 0.21601 0.019591 0.0081295
-0.004046 -0.00013533 -0.0035794 -0.00045259 -0.0010238 -0.00041703 -0.0024785 -2.682e-05
0.019595 0.0081503 -0.084074 0.30219
1160000000 0.079964 0.29859 0.02442 -0.020547 0.002727 -0.00034623 -0.00013373 -0.0021543
-0.0039498 -0.00080695 -0.0011176 0.0039784
0.024383 -0.020505 -0.091278 0.37421 -0.0032375 -0.029692 -0.00169 -0.0016961
-0.0027537 0.0025458 -0.0015196 0.0018508
0.0027571 -0.00038737 -0.0033806 -0.029698 0.24283 0.24419 -0.00096677 0.0017726
-0.00067219 0.0019459 -0.00083315 0.00044271
-0.00017523 -0.0022948 -0.0017732 -0.0016844 -0.00096866 0.0017922 0.032092 0.28259
0.021427 -0.010463 -0.003329 0.0049951
-0.0040174 -0.00078323 -0.0027575 0.0026478 -0.00067486 0.0019572 0.021411 -0.010509
-0.030579 0.22377 0.018651 -0.0010552
-0.0011206 0.0042052 -0.0015408 0.0019617 -0.00083354 0.0004145 -0.0033403 0.004997
0.018641 -0.0010606 -0.036396 0.3044
1220000000 0.12395 0.28912 0.01106 -0.03019 -0.0015844 -0.00080527 7.0054e-05 -0.00088258
-0.0027719 0.0021438 0.0010163 0.0020917
0.011085 -0.030138 -0.047479 0.38742 -0.016956 -0.022008 -0.002683 0.00048839
-4.0417e-05 0.0032757 -0.0008569 0.0020543
-0.0015662 -0.00081835 -0.017074 -0.021954 0.28199 0.20581 0.00076854 0.0018426
0.00065987 0.001306 0.00029967 0.0005735
0.00014164 -0.00080193 -0.0026354 0.00042236 0.00076498 0.0018391 0.072104 0.27405
0.01098 -0.017436 0.0018438 0.0014152
-0.002694 0.0021929 -7.4005e-05 0.0033183 0.00068848 0.0013208 0.010931 -0.017468
-0.0070366 0.23153 0.013888 -0.013363
0.0009982 0.001995 -0.00093247 0.0020932 0.00028903 0.00058435 0.0018657 0.0014072
0.013887 -0.013344 -0.004946 0.31925
1280000000 0.17415 0.26863 -0.0077288 -0.028809 -0.0019953 0.0025863 -0.00077195 -0.0020773
-0.00074754 0.0031477 0.0026923 0.0013908
-0.0077342 -0.028821 -0.0014343 0.37945 -0.024286 -0.0090793 -0.00096518 0.0014997
0.0018174 0.0018639 0.00058071 0.002109
-0.0019822 0.0025963 -0.024377 -0.0090239 0.31297 0.16245 0.0015943 3.9753e-05
0.0012945 0.00023239 0.00023404 0.00025216
-0.00080742 -0.0021577 -0.0010523 0.0016449 0.0016058 5.0679e-05 0.1094 0.25822
0.0010942 -0.019599 -5.9178e-05 0.00038077
-0.00075945 0.00316 0.0018197 0.0018423 0.0012878 0.00022919 0.0010273 -0.019599
0.029383 0.23452 0.0027331 -0.01568
0.0026215 0.0013362 0.0006341 0.002158 0.00026592 0.00024966 -9.2127e-05 0.00039159
0.0027488 -0.015673 0.041901 0.32092
1340000000 0.21189 0.23581 -0.017679 -0.019246 0.00081438 0.0048285 -0.0018599 -0.00090668
0.0014219 0.0026922 0.0017157 -0.0014009
-0.017605 -0.019259 0.038109 0.37209 -0.022213 0.004118 -8.6878e-05 0.0021688
0.0021323 0.0007939 0.0012154 0.00072708
0.00084106 0.0048148 -0.022195 0.0042339 0.33521 0.11531 0.001184 -0.00093645
0.00068959 -0.00067113 -9.3716e-05 0.00019714
-0.0017781 -0.00079771 -9.3029e-05 0.0020765 0.0011823 -0.00094047 0.14257 0.23729
-0.0086735 -0.017002 0.00076224 0.00062149
0.0015154 0.0026307 0.0021721 0.00078231 0.00069706 -0.00067774 -0.0087291 -0.016973
0.059231 0.22985 -0.0039092 -0.014371
0.0017964 -0.0013847 0.0011665 0.00076566 -9.693e-05 0.00021269 0.00076585 0.00062155
-0.0038811 -0.014379 0.079828 0.31479
1400000000 0.24577 0.19888 -0.023623 -0.0075819 0.0054378 0.0034611 -0.0022989 0.00055113
0.0024667 0.00099895 0.00037792 -0.0016325
-0.023576 -0.0075376 0.075854 0.3598 -0.015471 0.012625 0.0014007 0.001324
0.0013463 -0.00085264 0.0012126 0.00015384
0.0054672 0.0034503 -0.015472 0.012722 0.34857 0.062389 9.8208e-05 -0.0016899
3.0532e-05 -0.00042024 0.00034391 0.00025634
-0.0023442 0.00053941 0.0014357 0.001348 9.2995e-05 -0.0016948 0.1724 0.20842
-0.014822 -0.01014 -0.00069402 -0.00012372
0.0024669 0.00099693 0.0013341 -0.000854 3.5205e-05 -0.00042962 -0.014858 -0.01009
0.092241 0.22496 -0.010774 -0.0086735
0.00028892 -0.0015956 0.0012562 0.00012583 0.00034371 0.00024331 -0.00068507 -0.0001186
-0.010751 -0.0086591 0.12383 0.30354
1460000000 0.26954 0.15526 -0.020518 0.004827 0.0060204 -0.0017417 -0.0016758 0.0017911
0.0021758 -0.00046392 -0.00042786 -0.001055
-0.020489 0.0047752 0.11066 0.33833 -0.0064354 0.01597 0.0017784 0.00012888
0.00092888 -0.0013854 0.0012095 -0.00061061
0.0060179 -0.0017673 -0.0063625 0.016003 0.35537 0.0085696 -0.0011932 -0.0014186
0.00016675 -0.00017627 0.00060166 -0.00022084
-0.0016528 0.001817 0.0017246 0.00015443 -0.0012024 -0.0014284 0.19908 0.17873
-0.016117 -0.0032404 -0.0007228 0.0021364
0.0022292 -0.00047514 0.00090609 -0.0014008 0.00017642 -0.00017055 -0.016126 -0.0031816
0.12176 0.21059 -0.012616 -0.0027714
-0.00040438 -0.0011224 0.0012788 -0.00060292 0.0006185 -0.00021346 -0.00073068 0.0021435
-0.012601 -0.0027668 0.15674 0.28302
1520000000 0.28241 0.11367 -0.014765 0.010355 0.0036282 -0.0043881 0.00014174 0.0026236
0.002185 -0.001948 -0.0012959 -0.0001332
-0.014754 0.010315 0.14458 0.32405 0.0016955 0.013653 0.0016551 -0.00082807
-5.5587e-06 -0.0011664 0.00033101 -0.0010824
0.003626 -0.0044117 0.0017814 0.013673 0.34907 -0.047371 -0.0011778 -0.0003841
0.00063958 -0.00084873 8.2922e-05 -0.00029112
0.00017265 0.002619 0.0016544 -0.00085639 -0.001165 -0.00039398 0.22214 0.14017
-0.015409 0.0028186 0.0017171 0.0020418
0.0021585 -0.0019453 -5.5728e-06 -0.001187 0.00065448 -0.00085614 -0.015392 0.0028885
0.14982 0.1973 -0.012069 0.0020425
-0.0012899 -0.00012287 0.00031758 -0.0010853 7.9388e-05 -0.00027986 0.0017333 0.0020537
-0.012057 0.0020269 0.18917 0.26202
1580000000 0.29257 0.067479 -0.0079905 0.013505 -0.0009153 -0.0052633 0.0015605 0.0020252
-0.00016243 -0.0021932 -0.00023444 0.00044316
-0.0079821 0.013489 0.17227 0.29946 0.0056337 0.0085611 0.00050126 -0.0016008
-0.00058772 -0.0010922 -0.00021681 -0.00089925
-0.00092595 -0.0052945 0.0056772 0.0085364 0.3299 -0.10463 -0.0017125 0.00065745
-0.00032825 -0.0012337 0.00023202 -0.00059241
0.0015406 0.0020078 0.00045419 -0.0016005 -0.0017288 0.0006562 0.23582 0.10058
-0.011878 0.0078764 0.0021993 0.00069265
-0.00021194 -0.0022066 -0.0006298 -0.0010668 -0.00034959 -0.0012398 -0.011841 0.007922
0.17409 0.17937 -0.0094491 0.0077127
-0.0002351 0.00040761 -0.00017897 -0.00088043 0.00022561 -0.00059675 0.0022182 0.00068021
-0.0094246 0.007703 0.22095 0.23516
1640000000 0.29508 0.026162 -0.0012233 0.012258 -0.0030085 -0.002902 0.0027594 0.0010607
-0.00086239 -0.0016983 -0.00044231 0.00069331
-0.0012463 0.012249 0.20218 0.27468 0.006358 0.0034774 -0.0006745 -0.0017719
-0.0010682 -0.00037928 -0.00056187 -0.00072823
-0.0030045 -0.002861 0.0063835 0.0034482 0.30195 -0.15427 -0.00066899 0.0014618
-0.0011009 -0.0009635 -0.00024861 -0.00024194
0.0027846 0.0010394 -0.00070708 -0.0018019 -0.00064612 0.0014648 0.24804 0.051558
-0.0074012 0.0094359 0.0026396 -0.00083898
-0.00088624 -0.0016749 -0.0010845 -0.0004152 -0.0011011 -0.00097041 -0.0073731 0.0094542
0.19746 0.1554 -0.0045677 0.0096848
-0.00041761 0.00063159 -0.00057235 -0.00067663 -0.00023749 -0.00022646 0.0026317 -0.00084778
-0.0045672 0.009666 0.24606 0.20429
1700000000 0.28826 -0.019072 0.0021535 0.009409 -0.0038999 -9.9806e-05 0.0031684 -0.0012736
-0.0020877 -0.00061193 0.00060594 0.0004186
0.0021663 0.0094181 0.22055 0.24327 0.0042056 0.00035119 -0.0014938 -0.00057054
-0.00081091 2.5692e-05 -0.00096645 -0.00046326
-0.0038556 -7.3869e-05 0.0041905 0.0003161 0.25887 -0.19453 0.0004354 0.0016447
-0.0020555 -0.00015886 -0.00040347 -0.00081342
0.0031032 -0.0012977 -0.0014971 -0.00056721 0.00043165 0.001644 0.24442 0.0017143
-0.0043924 0.0098522 0.0016101 -0.0023027
-0.002097 -0.00063013 -0.00079338 5.8711e-05 -0.0020394 -0.00011809 -0.0043575 0.0098446
0.21486 0.13508 9.8842e-05 0.009959
0.00061594 0.00041439 -0.0009851 -0.00047897 -0.00040659 -0.00081001 0.0016057 -0.0023183
9.1817e-05 0.0099433 0.26212 0.16963
1760000000 0.27662 -0.067836 0.0044924 0.0060181 -0.0024397 0.0010653 0.0013002 -0.0035692
-0.001517 0.00068635 0.00031162 -0.00042712
0.0044635 0.0060358 0.24695 0.2036 0.0018056 -0.0015461 -0.0012271 0.0001817
-0.0010999 0.00090981 -0.0007335 0.00044952
-0.0024409 0.0010962 0.0017924 -0.0015786 0.21085 -0.2277 0.0011134 0.0010767
-0.0012986 0.0015453 -0.001305 -0.00071054
0.0012895 -0.0035333 -0.0012606 0.00021262 0.0010887 0.001078 0.2354 -0.049649
-0.00083691 0.0089261 -0.00024913 -0.002592
-0.0015241 0.00072752 -0.0011262 0.00093049 -0.0012999 0.0015267 -0.00081994 0.0089112
0.23021 0.10037 0.0039676 0.0073175
0.0003619 -0.0004722 -0.0006821 0.00041795 -0.0013001 -0.00072255 -0.00023478 -0.0025919
0.0039587 0.0073164 0.27519 0.13244
1820000000 0.25224 -0.10537 0.0045064 0.0024057 -0.00033623 0.0024782 -0.00093238 -0.0032212
-0.00098944 0.0011041 -1.5956e-05 1.2874e-05
0.0044964 0.0023924 0.25729 0.17337 -0.00064705 -0.00051555 -0.0012973 0.00091752
-4.676e-05 0.0012657 -0.00060426 0.00054183
-0.00035508 0.0024922 -0.00064856 -0.00050083 0.15989 -0.24398 0.0015766 0.00026996
-0.00016856 0.0023454 -0.0014475 0.00040119
-0.0010273 -0.0032119 -0.0013159 0.00092567 0.0015654 0.00029475 0.20535 -0.096906
0.00077295 0.0075006 -0.0016433 -0.0015801
-0.0010466 0.0011186 -5.6388e-05 0.0012646 -0.00018382 0.0023625 0.0007988 0.0074768
0.24741 0.071485 0.0050091 0.0038361
-6.7261e-06 8.7513e-06 -0.00055113 0.0005842 -0.0014381 0.00041581 -0.0016532 -0.0016005
0.0050262 0.0038068 0.27677 0.095903
1880000000 0.21727 -0.14591 0.0022167 6.6493e-05 -0.0006822 0.002184 -0.0029024 -0.0021822
-0.00019557 0.0018311 2.9373e-05 -0.00066428
0.0022334 4.9733e-05 0.26195 0.12687 -0.0026953 0.0014981 -0.00024221 0.0018018
0.00057834 0.0013762 4.9431e-05 0.00091335
-0.00064511 0.0022129 -0.0026598 0.0015383 0.10792 -0.25313 0.0016172 -0.00083382
0.0015562 0.0019455 -0.00095751 0.0012853
-0.0029345 -0.0022071 -0.00021204 0.0017949 0.001652 -0.00082436 0.16464 -0.13678
0.0017104 0.0053187 -0.0024848 0.00035483
-0.00019812 0.0017344 0.0005897 0.0013798 0.0015808 0.0019437 0.0017099 0.0053199
0.25157 0.039861 0.0051661 0.001312
8.59e-05 -0.00060403 -1.2739e-05 0.00090961 -0.00094448 0.001236 -0.0025095 0.00035174
0.0051379 0.001325 0.27679 0.06189
1940000000 0.17802 -0.17141 -0.00038622 -0.0015416 0.0013426 0.002267 -0.0037335 0.00028765
0.0014759 0.00099215 -0.00046483 -0.00047577
-0.00037331 -0.001536 0.26271 0.094837 -0.001621 0.0040856 0.0011728 0.0011767
0.0019603 0.00052404 0.00098375 0.00048946
0.0013811 0.0022751 -0.0015859 0.0041134 0.062102 -0.24603 0.00060521 -0.00233
0.0024669 0.00031294 0.00044806 0.0017252
-0.0036938 0.00038685 0.0012493 0.0012006 0.00061287 -0.0023288 0.11224 -0.16749
0.00096957 0.0038664 -0.0013863 0.0015887
0.0014908 0.001027 0.0019604 0.00052569 0.0024958 0.00031236 0.00096382 0.0038416
0.25462 0.0014631 0.0040128 -0.0017769
-0.00056015 -0.00057198 0.00097752 0.00045651 0.00047311 0.0017563 -0.0014006 0.0016113
0.0039832 -0.0017553 0.2656 0.026225
2000000000 0.13225 -0.18642 -0.0041234 0.00074836 0.0027704 0.0017946 -0.0022067 0.0039467
0.0012404 0.00043401 -0.00060117 0.00025649
-0.0041346 0.00075254 0.24854 0.059207 -0.0010678 0.0059181 0.0016584 0.00038398
0.0015824 -0.0011663 0.00064844 9.6353e-05
0.0027652 0.0017913 -0.0010498 0.0059861 0.019159 -0.23235 -0.0012448 -0.0014223
0.002174 -0.0011286 0.0016804 0.0014206
-0.0022791 0.0037766 0.0016561 0.00037694 -0.0012472 -0.0013727 0.058775 -0.1771
-0.00037759 0.0035882 7.7731e-06 0.0022166
0.0012383 0.00038834 0.0015828 -0.0011442 0.0021451 -0.0011395 -0.00037302 0.0036008
0.24971 -0.031927 0.0010283 -0.0029229
