!Keysight Technologies,M9804A,MY58100912,A.14.10.03
!Date: Thursday, April 27, 2023 10:28:33
!Correction: S11(C  6-Port  ) 
!S12(C  6-Port  ) 
!S13(C  6-Port  ) 
!S14(C  6-Port  ) 
!S15(C  6-Port  ) 
!S16(C  6-Port  ) 
!S21(C  6-Port  ) 
!S22(C  6-Port  ) 
!S23(C  6-Port  ) 
!S24(C  6-Port  ) 
!S25(C  6-Port  ) 
!S26(C  6-Port  ) 
!S31(C  6-Port  ) 
!S32(C  6-Port  ) 
!S33(C  6-Port  ) 
!S34(C  6-Port  ) 
!S35(C  6-Port  ) 
!S36(C  6-Port  ) 
!S41(C  6-Port  ) 
!S42(C  6-Port  ) 
!S43(C  6-Port  ) 
!S44(C  6-Port  ) 
!S45(C  6-Port  ) 
!S46(C  6-Port  ) 
!S51(C  6-Port  ) 
!S52(C  6-Port  ) 
!S53(C  6-Port  ) 
!S54(C  6-Port  ) 
!S55(C  6-Port  ) 
!S56(C  6-Port  ) 
!S61(C  6-Port  ) 
!S62(C  6-Port  ) 
!S63(C  6-Port  ) 
!S64(C  6-Port  ) 
!S65(C  6-Port  ) 
!S66(C  6-Port  ) 
!S6P File: Measurement: :
# Hz S  RI   R 50
500000000 -0.32792 -0.065364 -0.0096778 -0.0021865 -0.0085208 0.012053 -0.0040206 0.011642
0.013685 0.0061539 -0.0049524 0.0085461
-0.0096126 -0.0019307 -0.40922 -0.074217 0.0093942 -0.010717 0.00069976 0.011466
0.0096404 0.0024043 0.00061628 0.013202
-0.0084087 0.012066 0.0094153 -0.010725 -0.25601 0.18847 0.0070159 0.0027654
-0.0020482 0.0076713 0.00141 0.011947
-0.0041366 0.011569 0.00070136 0.011459 0.0070105 0.0027493 -0.32708 0.038917
-0.019792 -0.0047766 0.015249 0.025041
0.013807 0.0063576 0.0096759 0.0024634 -0.0020402 0.0076614 -0.019805 -0.0048003
-0.21964 -0.23101 -0.027873 0.0047344
-0.0049097 0.0085343 0.00063234 0.013168 0.001422 0.011944 0.015222 0.024971
-0.027861 0.004738 -0.26258 -0.14749
560000000 -0.31622 0.10449 -0.020801 -0.067391 -0.00051551 0.012882 0.0055429 0.009834
0.0095384 0.0044407 0.011974 0.0098045
-0.020646 -0.067375 -0.37137 0.088457 -0.040256 -0.039013 0.013389 0.0026372
-0.013306 -0.0048943 0.0041271 -0.0018333
-0.00043896 0.01294 -0.040367 -0.038993 -0.18327 0.23855 0.00022231 -0.0055395
0.018085 0.0056701 0.0080633 -0.0056778
0.0058076 0.0097113 0.013356 0.0025931 0.00024971 -0.0055666 -0.30388 0.12966
0.0086676 -0.022526 0.0061806 -0.021858
0.0095183 0.0041447 -0.013303 -0.0048225 0.018108 0.0056646 0.008749 -0.022479
-0.29908 -0.049224 0.011466 -0.050826
0.012047 0.0098691 0.0040281 -0.0017864 0.0080553 -0.0056559 0.0061481 -0.02184
0.01147 -0.050841 -0.32909 0.0045655
620000000 -0.27654 0.080371 -0.023322 0.0087305 0.002876 0.0087245 0.0084965 -0.00495
0.011053 -0.00030316 0.00052762 -0.0019263
-0.023359 0.0086757 -0.39939 0.035056 -0.019226 -0.00071694 -0.0020529 -0.0022546
0.012394 -0.0051614 0.00039928 -0.0033412
0.0028072 0.0086861 -0.01927 -0.00067319 -0.15644 0.24848 -0.0014805 -0.0055978
-0.004111 -0.002151 0.0087479 -0.0028265
0.0083831 -0.0048413 -0.0020631 -0.0022794 -0.0014739 -0.0056056 -0.2617 0.13915
-0.039259 -0.019974 0.012191 0.028094
0.011269 -0.00072732 0.012365 -0.005214 -0.0041389 -0.0021412 -0.039249 -0.019999
-0.21658 -0.086892 -0.041938 0.012195
0.00047153 -0.0019551 0.00037151 -0.0033972 0.0087254 -0.0027961 0.012277 0.028014
-0.041954 0.012155 -0.24242 -0.03182
680000000 -0.24187 0.17253 -0.026087 -0.016059 0.0047708 0.0055122 0.0015551 -0.0073182
-0.001459 -0.011648 0.0057622 -0.0066592
-0.026021 -0.016067 -0.39062 0.13639 -0.033082 -0.0025093 -0.0016681 -0.0002485
-0.0015555 -0.009137 -0.00097675 -0.0020604
0.0047403 0.0054638 -0.033136 -0.0024122 -0.10934 0.27181 -0.00081584 0.00054015
-0.0016758 0.0010541 -0.0026233 -0.0094516
0.0015662 -0.0073934 -0.0016617 -0.00022456 -0.00082884 0.00052306 -0.21984 0.19149
-0.022816 -0.0077997 -0.0091047 -0.011954
-0.001477 -0.011568 -0.00159 -0.0091075 -0.0016772 0.0010527 -0.022871 -0.0078194
-0.28109 0.014424 -0.0048747 -0.0081739
0.0057011 -0.0068754 -0.00093156 -0.0020195 -0.0026074 -0.009438 -0.009123 -0.011957
-0.0048563 -0.0081889 -0.2615 0.0728
740000000 -0.19622 0.16609 -0.041391 0.026035 0.013328 -0.0036664 -8.8096e-05 -0.004092
-0.0041816 -0.0017379 -0.0064744 0.0034622
-0.041356 0.026025 -0.33761 0.15642 -0.03778 0.03412 0.00012494 -0.0059402
-0.012049 0.0073997 -0.0012749 -0.0053538
0.013312 -0.0037144 -0.03774 0.034278 -0.076088 0.27302 -0.0016519 0.0033237
-0.00092427 -0.0053167 -0.0021798 0.00079234
-7.6441e-05 -0.0041587 0.00012684 -0.0059428 -0.0016513 0.0033154 -0.20377 0.19898
-0.042547 -0.0098279 0.02236 0.016519
-0.0042366 -0.0018147 -0.012046 0.0074291 -0.00093952 -0.0053312 -0.042568 -0.0098172
-0.18016 0.049539 -0.043339 -0.0028723
-0.0064418 0.0034574 -0.0012301 -0.0053765 -0.0021862 0.00078657 0.022377 0.016525
-0.043356 -0.0029436 -0.25373 0.078426
800000000 -0.16673 0.21248 -0.023262 0.015815 0.005459 -0.010215 -0.0045123 -0.0025354
-0.004255 0.0015732 0.0042655 0.00058789
-0.023242 0.015784 -0.34571 0.22801 -0.0093435 0.034433 -0.0022498 0.0019061
-7.222e-05 0.0023145 0.00051884 0.005268
0.0054616 -0.010222 -0.009238 0.034497 -0.037419 0.2992 0.0011579 0.00091815
-9.1318e-05 0.0032191 -0.0017071 0.00070969
-0.0045417 -0.0024324 -0.0022417 0.0019283 0.0011516 0.00091523 -0.17485 0.22653
-0.02936 0.012623 0.014545 -0.010918
-0.0041746 0.0016329 -5.8342e-05 0.002322 -9.1515e-05 0.0032118 -0.029347 0.012656
-0.23246 0.072225 -0.019078 0.02077
0.0042784 0.00066188 0.00057776 0.0052662 -0.0016922 0.00071308 0.014563 -0.010922
-0.019098 0.020722 -0.2479 0.12889
860000000 -0.13366 0.23392 -0.019114 0.030618 -0.0032035 -0.0098195 -0.0020809 0.00087689
0.0042463 0.0056283 -0.0033876 -0.0033165
-0.019133 0.030617 -0.29922 0.27296 0.0069161 0.034723 0.00040077 0.0021278
0.0038662 0.000308 0.0034376 -0.00022058
-0.0032743 -0.009801 0.0070341 0.034761 0.010946 0.30954 -0.00055894 -0.00039543
0.0026139 -0.0016866 0.0016076 0.0042616
-0.0021104 0.00085008 0.00039864 0.0021297 -0.00055654 -0.0004064 -0.13925 0.23901
-0.019286 0.017354 -0.0065406 -0.0089575
0.0041975 0.005592 0.0038878 0.00029998 0.0025911 -0.0016892 -0.019257 0.017392
-0.17876 0.13323 -0.026695 0.015654
-0.0034779 -0.0033253 0.003475 -0.0002385 0.0016102 0.0042619 -0.0065885 -0.0089738
-0.026701 0.015623 -0.19821 0.17769
920000000 -0.11069 0.25831 0.0036722 0.039747 -0.0091987 -0.0043205 -0.0020561 0.0019324
0.00023052 0.0016494 0.0029357 -0.0012652
0.0036643 0.039711 -0.27208 0.29545 0.027742 0.023484 0.0014264 0.0010211
0.0071146 -0.00034837 0.003701 -0.0029119
-0.0092078 -0.0042935 0.027856 0.023427 0.057621 0.31172 0.0017059 6.1063e-06
0.00062741 -0.00026166 0.0010301 -0.0012304
-0.0020614 0.0018853 0.001414 0.001031 0.0017081 -3.2169e-06 -0.11497 0.25637
-0.012916 0.030348 0.0039657 -0.0063644
0.00025422 0.0016499 0.0071254 -0.0003742 0.00062095 -0.00025737 -0.012866 0.030394
-0.17021 0.13763 -0.0042425 0.028591
0.0029408 -0.0013034 0.0037057 -0.0029258 0.00103 -0.0012222 0.0039848 -0.0063902
-0.0042499 0.028581 -0.20805 0.19076
980000000 -0.06428 0.28032 0.01617 0.031232 -0.0091921 0.0048161 0.0019541 0.0037738
0.0038864 -0.001397 -0.0034347 -0.0028695
0.016125 0.031183 -0.21984 0.33255 0.033056 0.0058171 0.0018982 -0.00030951
0.001541 -0.0058192 -0.00063879 -0.0026646
-0.0091758 0.0048381 0.033106 0.0057103 0.10402 0.30613 0.00052823 -0.0010704
0.00026557 -0.0015793 0.001487 -0.00034045
0.0020027 0.0037593 0.0018737 -0.00032416 0.00052852 -0.0010691 -0.07678 0.26794
0.006468 0.030247 -0.0096543 -0.0076559
0.0038778 -0.0014054 0.0015079 -0.0058483 0.00025816 -0.0015871 0.0065207 0.030245
-0.14015 0.17393 0.0046684 0.020967
-0.003422 -0.0029112 -0.00065999 -0.0026706 0.0014975 -0.00035949 -0.0096774 -0.0076325
0.0046766 0.020959 -0.16656 0.23951
1040000000 -0.023191 0.29032 0.033145 0.02053 -0.00096632 0.0075053 0.0025582 0.00070409
0.00043069 -0.0034498 -0.00023869 -0.0012868
0.033037 0.020522 -0.18481 0.34705 0.029984 -0.013848 0.001431 -0.0017102
-0.0024661 -0.0024557 -0.00093122 -0.0026972
-0.0009378 0.0075094 0.029949 -0.01397 0.15005 0.29383 -0.00044278 -0.0013718
-0.0013974 -0.0009288 -0.0004434 -0.0011527
0.0026057 0.00068487 0.0014239 -0.0017062 -0.00044488 -0.0013747 -0.049455 0.27821
0.018064 0.019658 -0.0019334 0.0016618
0.00043888 -0.0034571 -0.0024761 -0.002451 -0.0014074 -0.00091154 0.01812 0.019642
-0.10851 0.18302 0.012907 0.020106
-0.00022027 -0.0012687 -0.00095254 -0.0027013 -0.00044546 -0.0011604 -0.0019271 0.0016808
0.012875 0.020098 -0.14601 0.26019
1100000000 0.021958 0.30055 0.037044 -0.0022382 0.0037035 0.0040923 0.0024367 -0.0011696
-0.0021731 -0.0029706 -0.0040234 -0.00022961
0.037002 -0.0022104 -0.14093 0.36682 0.01593 -0.027234 -9.5897e-05 -0.001826
-0.003118 -0.00081639 -0.0035987 -0.00062776
0.0037268 0.0040743 0.015835 -0.027328 0.19649 0.27495 -0.0017499 0.0002873
-0.0015641 0.00054946 -0.0010847 -0.00060637
0.0024471 -0.0011536 -9.6248e-05 -0.001819 -0.0017457 0.00028727 -0.0089963 0.28336
0.024202 0.0068793 -0.002397 8.0606e-05
-0.0022042 -0.0029637 -0.0031359 -0.00080021 -0.0015585 0.00054535 0.024225 0.0068469
-0.089466 0.19959 0.019366 0.010547
-0.0039812 -0.00019512 -0.0035865 -0.00062011 -0.0010894 -0.00059074 -0.002387 8.2293e-05
0.019365 0.010554 -0.1012 0.29255
1160000000 0.073066 0.29733 0.025669 -0.019536 0.0036298 -0.00086055 -0.00022931 -0.0025911
-0.0040749 -0.00099836 -0.0011323 0.0043021
0.025655 -0.019519 -0.097317 0.37156 -0.0028382 -0.028657 -0.0015798 -0.0015164
-0.00252 0.0023614 -0.0016796 0.0018343
0.0036238 -0.00086377 -0.0029686 -0.028685 0.23989 0.24552 -0.00063176 0.0016342
-0.00053461 0.0016441 -0.0011021 0.00017053
-0.00021686 -0.0026066 -0.0016026 -0.0014935 -0.00063434 0.0016328 0.03015 0.28059
0.02169 -0.0089266 -0.0032873 0.0052235
-0.0039945 -0.00097918 -0.0025351 0.0023809 -0.00053142 0.0016496 0.021679 -0.0089531
-0.053945 0.21078 0.019362 0.0018259
-0.0011413 0.0043171 -0.0016875 0.0018499 -0.0010927 0.0001755 -0.0032961 0.0052287
0.019367 0.0018293 -0.054107 0.29609
1220000000 0.11695 0.28887 0.012878 -0.029772 -0.0010417 -0.001765 -0.00014549 -0.00099331
-0.0026337 0.0023064 0.0010978 0.0018794
0.01289 -0.029714 -0.05327 0.38619 -0.016075 -0.021267 -0.0024582 0.00046612
2.1608e-06 0.0028749 -0.00079077 0.001796
-0.0010285 -0.0017511 -0.016197 -0.021231 0.27999 0.20819 0.00086661 0.0013498
0.00053074 0.0010486 0.00013064 0.00060144
-0.00014797 -0.00099931 -0.0024646 0.00047897 0.00086682 0.0013486 0.069675 0.27281
0.01135 -0.015793 0.002569 0.0015374
-0.0026367 0.0023586 7.3787e-06 0.0028801 0.00052582 0.0010545 0.011339 -0.015807
-0.031232 0.22182 0.015137 -0.011766
0.001121 0.0018328 -0.00079282 0.0017891 0.00013453 0.0006038 0.002568 0.0015362
0.015129 -0.011762 -0.023787 0.31507
1280000000 0.16738 0.26891 -0.0059948 -0.029367 -0.0020878 0.001327 -0.00097686 -0.001896
-0.0009347 0.0032428 0.0024783 0.0012842
-0.0060004 -0.029357 -0.0068159 0.37815 -0.023214 -0.008592 -0.00078082 0.001307
0.001465 0.0017098 0.00057216 0.0020772
-0.0020845 0.0013407 -0.023287 -0.0084943 0.31211 0.16491 0.001252 -0.00012803
0.00098874 0.00042639 0.00026697 0.00044316
-0.00098883 -0.0019157 -0.00077669 0.0013152 0.0012453 -0.00012895 0.10627 0.25688
0.002565 -0.018495 2.0808e-05 -4.0043e-05
-0.00089647 0.0032135 0.0014812 0.0017083 0.00099183 0.00042567 0.002542 -0.018506
0.0060967 0.22695 0.0043219 -0.014771
0.002457 0.0012913 0.00059696 0.002081 0.00026241 0.00044143 1.2871e-05 -3.7086e-05
0.0043354 -0.014763 0.024495 0.31836
1340000000 0.2046 0.23747 -0.016162 -0.020721 3.8421e-05 0.003949 -0.001709 -0.00070868
0.0015033 0.0027113 0.001716 -0.0013213
-0.01613 -0.020733 0.031972 0.37168 -0.020804 0.0038457 -0.0002523 0.0018915
0.0016634 0.00096827 0.0011673 0.00083158
5.3278e-05 0.0039452 -0.020817 0.0039456 0.33562 0.11746 0.00074915 -0.00080301
0.00052842 -0.00038737 7.7085e-05 0.00018781
-0.0017166 -0.00069185 -0.00023661 0.0018986 0.00074285 -0.00081284 0.1392 0.23756
-0.0068863 -0.016425 0.0012147 0.000121
0.001526 0.0027072 0.001668 0.00096944 0.00053493 -0.00039568 -0.0069196 -0.016428
0.035186 0.2246 -0.002066 -0.013759
0.0016935 -0.0013204 0.0011668 0.00082051 7.8208e-05 0.00019007 0.0012085 0.0001194
-0.0020634 -0.01375 0.061874 0.31544
1400000000 0.23924 0.20131 -0.023168 -0.0095539 0.0043302 0.0031894 -0.0020949 0.00058088
0.0025094 0.00084683 0.00031971 -0.0012242
-0.02314 -0.009557 0.07066 0.36004 -0.014399 0.011827 0.0011539 0.001358
0.00118 -0.00049409 0.0011436 0.00025189
0.0043582 0.0031836 -0.014369 0.011924 0.35012 0.063007 -1.0043e-06 -0.0011757
0.00014651 -9.2847e-05 0.0004452 0.00020713
-0.0020754 0.00058784 0.0011659 0.0013548 2.3494e-07 -0.0011697 0.16936 0.20947
-0.01298 -0.010345 -0.00098759 -0.00071641
0.0025148 0.00081226 0.0011735 -0.00050435 0.00014325 -9.274e-05 -0.013006 -0.010323
0.068666 0.22276 -0.0086798 -0.00943
0.00032687 -0.0012323 0.0011554 0.00024096 0.00044869 0.00020667 -0.00099683 -0.00072498
-0.0086632 -0.0094296 0.10769 0.30643
1460000000 0.26301 0.15862 -0.021039 0.002966 0.0049429 -0.0013636 -0.0015572 0.0015895
0.0020743 -0.00037101 -0.00019219 -0.00089211
-0.021028 0.002944 0.1052 0.33885 -0.0057105 0.014575 0.001569 0.00035465
0.0011593 -0.0011021 0.0012327 -0.00058327
0.0049242 -0.0013983 -0.0056502 0.014622 0.35651 0.0075837 -0.00091295 -0.0010763
0.00030263 -0.00016127 0.00053054 -0.00022638
-0.0015595 0.0016092 0.0015778 0.00035109 -0.00090497 -0.0010739 0.19639 0.18083
-0.0145 -0.0045337 -0.0012214 0.0017249
0.0020843 -0.00038159 0.0011408 -0.0011191 0.00029975 -0.00017038 -0.014523 -0.0045042
0.097505 0.21013 -0.010938 -0.0037151
-0.00020042 -0.00085502 0.0012404 -0.0005944 0.00052215 -0.00022842 -0.0012389 0.0017293
-0.010942 -0.0037184 0.1412 0.28664
1520000000 0.27695 0.11849 -0.016185 0.0090549 0.0030398 -0.0035953 7.8957e-05 0.0025969
0.0022961 -0.001726 -0.0010267 -0.00021123
-0.016182 0.0090444 0.13975 0.32585 0.0015946 0.01225 0.0017113 -0.00059461
0.0002791 -0.0010554 0.00039676 -0.00096855
0.0030256 -0.0036134 0.0016626 0.012254 0.34907 -0.049204 -0.00069539 -0.00040177
0.00073558 -0.00088012 0.00011945 -0.00010647
8.7037e-05 0.002583 0.0017009 -0.00060584 -0.00069516 -0.00040383 0.22078 0.1432
-0.014842 0.00091211 0.0010544 0.0020213
0.0022914 -0.0017303 0.00027257 -0.0010613 0.00073739 -0.0008875 -0.01484 0.00094233
0.12584 0.19983 -0.011474 0.00031223
-0.0010399 -0.00019136 0.00038616 -0.00098098 0.00011476 -0.0001071 0.0010632 0.002016
-0.011478 0.00029941 0.17547 0.26838
1580000000 0.28813 0.072999 -0.0098332 0.013204 -0.0010275 -0.0044087 0.001379 0.0018932
-0.00020004 -0.0021283 -0.00027923 0.0002468
-0.0098308 0.013189 0.16809 0.30115 0.004958 0.0072986 0.00064464 -0.0014922
-0.00045942 -0.001256 -0.00022883 -0.00070958
-0.0010476 -0.0043913 0.0050064 0.0072695 0.32846 -0.10729 -0.0015079 0.00013125
-0.00033248 -0.0012931 0.00018129 -0.00045415
0.0013762 0.0018931 0.00064061 -0.0014985 -0.0015167 0.00013136 0.23577 0.1036
-0.01229 0.0063091 0.0018879 0.0010366
-0.00020607 -0.0021353 -0.00046531 -0.0012528 -0.00033224 -0.0013009 -0.012283 0.0063293
0.15061 0.18448 -0.0095077 0.0065526
-0.00027334 0.00025796 -0.00022926 -0.00070565 0.00017926 -0.00045933 0.001886 0.0010294
-0.0095061 0.0065455 0.2092 0.24264
1640000000 0.29191 0.03222 -0.0028236 0.012777 -0.0026284 -0.002074 0.002706 0.0011337
-0.00055532 -0.0016819 -0.00038109 0.00043215
-0.0028338 0.012776 0.19804 0.27732 0.0052712 0.0025931 -0.00040228 -0.0018641
-0.0010279 -0.00060345 -0.00049545 -0.00064763
-0.0026484 -0.0020483 0.0052946 0.0025635 0.2987 -0.1559 -0.00082782 0.001198
-0.0010231 -0.0011315 -0.0001218 -0.00028538
0.0027081 0.0011424 -0.00040715 -0.0018541 -0.00082537 0.0011948 0.2491 0.054548
-0.0085519 0.0081897 0.0024373 -0.00049263
-0.00056794 -0.0016843 -0.0010347 -0.0005996 -0.0010297 -0.0011398 -0.0085374 0.0082197
0.17402 0.16419 -0.0050924 0.0086716
-0.00038986 0.00042757 -0.00049727 -0.00064723 -0.00012062 -0.00028934 0.0024404 -0.00050352
-0.0050964 0.0086697 0.23501 0.21256
1700000000 0.28704 -0.012997 0.0011138 0.010473 -0.0030352 0.00040061 0.0032008 -0.0011527
-0.0020651 -0.00072608 0.00049002 0.00049887
0.0011065 0.010469 0.21752 0.24587 0.0028155 3.7966e-05 -0.0013814 -0.00078869
-0.00092649 -8.601e-05 -0.00082816 -0.00046336
-0.0030325 0.00042254 0.0028143 2.3314e-05 0.25504 -0.19454 8.0919e-05 0.0016848
-0.0020148 -0.00031124 -0.00039079 -0.00081924
0.0031707 -0.0011773 -0.0013929 -0.00077675 8.1065e-05 0.0016741 0.24661 0.0036882
-0.0057964 0.00951 0.0017621 -0.0018215
-0.0020697 -0.00071029 -0.00092226 -7.7474e-05 -0.0020106 -0.00030724 -0.005773 0.0095312
0.19385 0.1469 -0.00050972 0.0093729
0.00048099 0.0005299 -0.00083328 -0.00045129 -0.00039945 -0.00082461 0.0017625 -0.0018269
-0.00049921 0.0093757 0.25311 0.17894
1760000000 0.27611 -0.062289 0.0040832 0.0074831 -0.0018943 0.0010751 0.0014727 -0.0034894
-0.0012362 0.00046296 0.00033853 -0.00043353
0.0040768 0.0074785 0.24367 0.20622 0.00033628 -0.0013512 -0.0012417 -2.4575e-05
-0.0011493 0.00099844 -0.00047706 0.00032274
-0.0018723 0.0010963 0.0003155 -0.0013561 0.20604 -0.22645 0.0011417 0.0014558
-0.0012411 0.0014076 -0.0011685 -0.00077293
0.0015115 -0.0034739 -0.001244 -1.7769e-05 0.0011455 0.0014599 0.23764 -0.048967
-0.001839 0.0093554 -7.5211e-05 -0.0022186
-0.0012208 0.0004897 -0.0011438 0.001015 -0.0012408 0.0014068 -0.0018213 0.0093634
0.21065 0.11498 0.0032615 0.007187
0.00030887 -0.00049921 -0.00047902 0.00032148 -0.0011676 -0.00077407 -6.742e-05 -0.0022222
0.0032635 0.0071854 0.26628 0.14165
1820000000 0.25318 -0.10038 0.0048797 0.0036699 0.00019737 0.0021298 -0.00083236 -0.0031021
-0.0012152 0.00085301 -1.8714e-06 -0.00015496
0.0048773 0.0036752 0.25482 0.17675 -0.0016842 0.00026178 -0.0015419 0.00093539
1.98e-05 0.0013341 -0.00065171 0.00035656
0.00022324 0.0021222 -0.001675 0.00027632 0.1565 -0.24087 0.0017093 0.00064311
-0.00035264 0.0023176 -0.0016438 1.5366e-05
-0.0008908 -0.0031022 -0.0015416 0.00095117 0.0017133 0.00064878 0.20755 -0.096812
0.00018984 0.0080071 -0.0014918 -0.0016054
-0.00123 0.00086171 2.9787e-05 0.0013348 -0.00034405 0.0023245 0.00020957 0.0079981
0.23112 0.088621 0.0044471 0.0038924
1.4363e-05 -0.00012423 -0.00064089 0.00037302 -0.0016256 2.0871e-05 -0.0014948 -0.0016218
0.0044419 0.0038854 0.27015 0.10717
1880000000 0.21847 -0.14195 0.0029604 0.0011105 -0.00028886 0.0020597 -0.0029219 -0.0025215
-0.0003414 0.0016573 0.00040014 -0.00065873
0.0029421 0.0011154 0.25938 0.12999 -0.0035415 0.0028947 -0.00035492 0.0018272
0.00065481 0.0013161 0.00010231 0.00097622
-0.00027946 0.0020611 -0.0035286 0.0029287 0.10521 -0.24884 0.00214 -0.0011315
0.0015143 0.0020819 -0.00093349 0.001373
-0.002886 -0.0024698 -0.00034271 0.001827 0.0021445 -0.0011274 0.1664 -0.1372
0.0015431 0.0059802 -0.0021019 0.00026125
-0.00029423 0.0016748 0.00067417 0.001311 0.0015175 0.0020824 0.001558 0.0059911
0.2379 0.058359 0.0050642 0.0019644
0.0003719 -0.00068708 0.00010567 0.00096838 -0.00093257 0.0013851 -0.0020806 0.00026909
0.0050677 0.0019759 0.27163 0.072965
1940000000 0.17917 -0.168 0.0008792 -0.0010549 0.0016899 0.0016444 -0.0039285 0.00029609
0.001157 0.0010156 -0.00064108 -0.00078345
0.00089416 -0.0010655 0.26071 0.098983 -0.0016249 0.0056052 0.0011051 0.0014903
0.0020467 0.00031148 0.0009187 0.00025744
0.0016998 0.0016192 -0.0015933 0.00563 0.061151 -0.24056 0.00056282 -0.0024555
0.0023719 0.00043032 0.0001596 0.0016096
-0.0039738 0.00032892 0.0011071 0.0014925 0.0005552 -0.0024555 0.1134 -0.16804
0.0010509 0.003897 -0.0013856 0.0012884
0.0011431 0.0010084 0.0020479 0.00029978 0.0023668 0.00042733 0.0010549 0.0038985
0.24392 0.021467 0.0040864 -0.0018901
-0.00061843 -0.00077412 0.00093717 0.00024986 0.00016004 0.0016148 -0.0013968 0.0012857
0.004088 -0.0018875 0.26159 0.037301
2000000000 0.13368 -0.18317 -0.0029505 0.00065345 0.0027611 0.0011553 -0.0025843 0.0036605
0.0009395 0.00042517 -0.0009151 0.00045462
-0.0029501 0.00065253 0.24763 0.063652 -0.00025869 0.0075668 0.0017115 0.00033376
0.0011145 -0.0014929 0.00044617 0.00013401
0.0027889 0.001121 -0.00021032 0.0075785 0.020645 -0.22678 -0.0016241 -0.0014593
0.0019865 -0.0010391 0.0015166 0.0015226
-0.0025175 0.0036787 0.0017258 0.00031356 -0.0016133 -0.0014538 0.059608 -0.17732
-0.00075996 0.0034502 4.4628e-05 0.0018501
0.00093701 0.00040741 0.0011086 -0.0015123 0.0019784 -0.0010439 -0.00074954 0.0034561
0.24222 -0.01197 0.00090539 -0.0027732
