!Keysight Technologies,M9804A,MY58100912,A.14.10.03
!Date: Thursday, April 27, 2023 10:28:33
!Correction: S11(C  6-Port  ) 
!S12(C  6-Port  ) 
!S13(C  6-Port  ) 
!S14(C  6-Port  ) 
!S15(C  6-Port  ) 
!S16(C  6-Port  ) 
!S21(C  6-Port  ) 
!S22(C  6-Port  ) 
!S23(C  6-Port  ) 
!S24(C  6-Port  ) 
!S25(C  6-Port  ) 
!S26(C  6-Port  ) 
!S31(C  6-Port  ) 
!S32(C  6-Port  ) 
!S33(C  6-Port  ) 
!S34(C  6-Port  ) 
!S35(C  6-Port  ) 
!S36(C  6-Port  ) 
!S41(C  6-Port  ) 
!S42(C  6-Port  ) 
!S43(C  6-Port  ) 
!S44(C  6-Port  ) 
!S45(C  6-Port  ) 
!S46(C  6-Port  ) 
!S51(C  6-Port  ) 
!S52(C  6-Port  ) 
!S53(C  6-Port  ) 
!S54(C  6-Port  ) 
!S55(C  6-Port  ) 
!S56(C  6-Port  ) 
!S61(C  6-Port  ) 
!S62(C  6-Port  ) 
!S63(C  6-Port  ) 
!S64(C  6-Port  ) 
!S65(C  6-Port  ) 
!S66(C  6-Port  ) 
!S6P File: Measurement: :
# Hz S  RI   R 50
500000000 -0.32726 -0.064927 -0.0093547 -0.0024293 -0.008592 0.011583 -0.0049952 0.012221
0.013327 0.0066269 -0.0058911 0.0086363
-0.0093182 -0.0024945 -0.409 -0.074451 0.0090009 -0.011002 0.001117 0.011542
0.0089154 0.0025535 0.0011595 0.013812
-0.008528 0.011309 0.0090458 -0.010805 -0.25614 0.18889 0.0071788 0.0028778
-0.002085 0.0073931 0.0017023 0.012146
-0.0044492 0.01207 0.0011128 0.011906 0.0071377 0.0028958 -0.32609 0.038929
-0.019797 -0.0050693 0.016713 0.025261
0.013391 0.0058912 0.0094765 0.0022216 -0.0021419 0.0074841 -0.019786 -0.0050443
-0.2208 -0.23142 -0.028761 0.0043359
-0.0053806 0.0091246 0.0012343 0.013751 0.0014416 0.012019 0.016719 0.025239
-0.028374 0.0040593 -0.26074 -0.14735
560000000 -0.31629 0.10461 -0.020832 -0.067423 0.00046631 0.012507 0.0055517 0.010106
0.010809 0.0040448 0.011993 0.010203
-0.02068 -0.067292 -0.37148 0.088651 -0.039884 -0.039368 0.013162 0.0037584
-0.013277 -0.0051517 0.0038319 -0.0013697
-0.00027208 0.012481 -0.039933 -0.039144 -0.18316 0.23946 -0.00042852 -0.0054395
0.017364 0.0067424 0.008383 -0.0054747
0.0053037 0.010862 0.012533 0.0030037 -0.00038644 -0.0054498 -0.3041 0.13038
0.0087404 -0.022497 0.0047737 -0.021447
0.0098191 0.0040208 -0.013858 -0.0045667 0.017133 0.0067513 0.0086835 -0.022561
-0.3001 -0.049771 0.011746 -0.050818
0.011671 0.010236 0.0033263 -0.0013591 0.0085522 -0.006163 0.0049322 -0.022047
0.011774 -0.05125 -0.32933 0.0038432
620000000 -0.27618 0.080586 -0.023189 0.0087203 0.0029223 0.0086133 0.0083013 -0.0043696
0.012399 -0.0013727 0.0010422 -0.00203
-0.023153 0.008718 -0.39928 0.035209 -0.019251 -0.00048993 -0.0019948 -0.0021042
0.01259 -0.0050956 0.00075815 -0.0036469
0.0030257 0.0089019 -0.019144 -0.00053231 -0.15627 0.24885 -0.0016146 -0.0056255
-0.0038177 -0.0018292 0.0082288 -0.0029113
0.0083973 -0.0045226 -0.0018663 -0.0019925 -0.0017286 -0.00559 -0.26254 0.13934
-0.038392 -0.019802 0.011521 0.027885
0.012254 -0.00061319 0.012416 -0.0052472 -0.0037344 -0.0020661 -0.038384 -0.0198
-0.21637 -0.087184 -0.041171 0.012326
0.00061541 -0.0019094 0.00068223 -0.0035276 0.0089841 -0.002956 0.011767 0.028396
-0.041522 0.012352 -0.24398 -0.032911
680000000 -0.24185 0.17252 -0.026086 -0.016137 0.0045763 0.0054692 0.0014891 -0.0073762
-0.0019844 -0.011696 0.0054629 -0.0066523
-0.026027 -0.016117 -0.39053 0.13643 -0.033009 -0.002546 -0.0018324 -0.00026906
-0.0016185 -0.0092699 -0.00089165 -0.0021012
0.004729 0.0054981 -0.033062 -0.0023807 -0.1093 0.27177 -0.00083992 0.00024504
-0.0017371 0.00094604 -0.0027435 -0.009444
0.0016836 -0.0075 -0.0016964 -0.00018867 -0.00081078 0.00029641 -0.22 0.19156
-0.023201 -0.008226 -0.0088905 -0.012171
-0.0018834 -0.011655 -0.0014876 -0.0093099 -0.0018022 0.0010152 -0.023189 -0.0082372
-0.28056 0.015079 -0.0049948 -0.0082014
0.0055115 -0.0066325 -0.0010472 -0.0021759 -0.0029017 -0.0094649 -0.0088816 -0.012167
-0.0049069 -0.008098 -0.26202 0.072555
740000000 -0.19573 0.16644 -0.041456 0.026276 0.013463 -0.0035878 7.5859e-05 -0.0039294
-0.0038157 -0.0023466 -0.0063924 0.0030931
-0.041436 0.026218 -0.33729 0.15646 -0.037666 0.034244 0.00036079 -0.0058026
-0.012161 0.0074984 -0.0011585 -0.0055791
0.013367 -0.0037969 -0.037688 0.034468 -0.07618 0.27284 -0.001583 0.003492
-0.0011532 -0.0055669 -0.002058 0.00092204
0.00015008 -0.0039955 0.00044763 -0.0057985 -0.0015172 0.0034358 -0.20347 0.19937
-0.042507 -0.010147 0.022436 0.016653
-0.003879 -0.002479 -0.012058 0.0073619 -0.00098182 -0.005488 -0.042557 -0.010099
-0.18067 0.049373 -0.044065 -0.0025805
-0.0062746 0.0030635 -0.0013678 -0.0053473 -0.0022905 0.00068418 0.022102 0.016444
-0.043576 -0.002942 -0.25356 0.077361
800000000 -0.16707 0.21221 -0.023428 0.015734 0.0054199 -0.010117 -0.0045242 -0.0026348
-0.0042741 0.0017523 0.0044916 0.0005406
-0.023449 0.015718 -0.34576 0.228 -0.0093293 0.034602 -0.0021886 0.0020143
-7.3893e-05 0.0024238 0.0008335 0.0055232
0.0053896 -0.01016 -0.0092691 0.034581 -0.037411 0.29938 0.00095949 0.00099693
0.00019069 0.0033659 -0.0020492 0.00082043
-0.0045792 -0.0026811 -0.0021352 0.0020447 0.0009186 0.0010084 -0.17493 0.22663
-0.029304 0.012693 0.014151 -0.010818
-0.0045409 0.0018631 -6.3421e-05 0.002229 0.0002085 0.0033283 -0.029323 0.012732
-0.23263 0.071913 -0.01891 0.021179
0.0041266 0.00077717 0.00071108 0.005366 -0.0019212 0.00079935 0.014138 -0.010773
-0.019036 0.020829 -0.24901 0.12852
860000000 -0.1336 0.23396 -0.019151 0.030437 -0.003197 -0.0098902 -0.0022467 0.00075668
0.0040066 0.0054612 -0.0035263 -0.0034124
-0.01913 0.03034 -0.29892 0.27286 0.0069258 0.034638 0.00029593 0.0020928
0.0039571 -0.00015425 0.0036295 -7.4169e-05
-0.0032651 -0.0099238 0.0070667 0.034648 0.010935 0.30961 -0.00057942 -0.00050642
0.0026446 -0.0019551 0.0015696 0.0042246
-0.0021783 0.00075984 0.00014352 0.0022238 -0.00058041 -0.00048041 -0.13891 0.23912
-0.019041 0.017286 -0.0061623 -0.0092543
0.0041152 0.0054117 0.0040447 0.00020302 0.0025535 -0.0019783 -0.01901 0.017349
-0.17815 0.13276 -0.026637 0.016235
-0.0035009 -0.0034441 0.0035803 -0.00022601 0.0016593 0.0043455 -0.0061946 -0.0093827
-0.02683 0.016136 -0.19878 0.177
920000000 -0.11049 0.25814 0.0037097 0.03978 -0.0092204 -0.004239 -0.0020007 0.0020605
0.00028589 0.0016412 0.003172 -0.0011182
0.0036567 0.039702 -0.27208 0.2954 0.027819 0.023462 0.0014225 0.001175
0.0072338 1.6037e-05 0.0039613 -0.002832
-0.0092101 -0.004276 0.027923 0.023391 0.057719 0.31173 0.0016853 2.7746e-05
0.00077106 -0.00026579 0.00095449 -0.0011521
-0.0020023 0.0020688 0.0013918 0.0011279 0.0017122 1.6091e-05 -0.11514 0.25639
-0.01261 0.030616 0.0036893 -0.0063963
0.00026289 0.0016652 0.0070954 -2.8359e-05 0.00077176 -0.00031438 -0.012585 0.030664
-0.17042 0.13744 -0.0033231 0.029002
0.003182 -0.0011201 0.0039452 -0.0028444 0.0008872 -0.001334 0.0040167 -0.0063862
-0.0034948 0.028804 -0.20772 0.19127
980000000 -0.064155 0.28026 0.016221 0.031303 -0.0092191 0.0048025 0.002002 0.0036253
0.0039942 -0.0011771 -0.0035942 -0.0029085
0.016209 0.031275 -0.21968 0.33257 0.033043 0.0058546 0.0018777 -0.00030965
0.0014822 -0.0059796 -0.0006983 -0.0025386
-0.0092046 0.0048629 0.033112 0.0057254 0.1041 0.30619 0.00050332 -0.0010941
0.00031602 -0.0015899 0.0015428 -0.00033481
0.0020609 0.0036758 0.0019202 -0.00030657 0.00048839 -0.0011192 -0.076524 0.2679
0.0063044 0.030213 -0.0096261 -0.0079237
0.0039889 -0.0013991 0.0016211 -0.005998 0.00034816 -0.0015592 0.0063749 0.030219
-0.14015 0.17359 0.0042117 0.020826
-0.0038002 -0.0028457 -0.00081874 -0.0026201 0.0015219 -0.0002316 -0.0098006 -0.0079231
0.0045643 0.021118 -0.16712 0.23923
1040000000 -0.023491 0.29016 0.03308 0.020562 -0.00090628 0.0075408 0.0025754 0.00077342
0.00023629 -0.0035701 0.00014755 -0.0013415
0.033029 0.020591 -0.18477 0.34712 0.02997 -0.01385 0.0014337 -0.0016705
-0.002483 -0.0023486 -0.0010774 -0.0025927
-0.00090038 0.007537 0.029923 -0.014006 0.15014 0.29386 -0.00047506 -0.0014013
-0.0013778 -0.0009453 -0.00039504 -0.0011767
0.0026639 0.00082569 0.0014181 -0.0016712 -0.00049207 -0.001377 -0.049438 0.27816
0.018113 0.019685 -0.0020635 0.0017241
0.00037477 -0.0034778 -0.0024945 -0.002276 -0.0014521 -0.0010063 0.018153 0.01966
-0.10831 0.18276 0.01305 0.020694
-8.2346e-05 -0.0013057 -0.0010452 -0.0026885 -0.00035943 -0.0011102 -0.0020683 0.0017156
0.01294 0.02038 -0.14615 0.25987
1100000000 0.022069 0.3005 0.037088 -0.0022891 0.0037434 0.0040844 0.0024518 -0.0012041
-0.0021287 -0.003012 -0.0041199 -6.6236e-05
0.037034 -0.0022602 -0.14092 0.36684 0.01591 -0.027222 -0.00010594 -0.0017948
-0.0031525 -0.00083124 -0.0036282 -0.00053794
0.0037621 0.0040882 0.015805 -0.027329 0.19665 0.27494 -0.0017447 0.00030392
-0.0015902 0.00054351 -0.0010905 -0.00064378
0.0024216 -0.0012032 -0.00012491 -0.0017805 -0.0017031 0.00029193 -0.0090101 0.28333
0.024217 0.0067691 -0.0024031 3.4632e-05
-0.0021179 -0.0030536 -0.0031545 -0.00079996 -0.0015752 0.00060047 0.024242 0.0067437
-0.089468 0.19943 0.019643 0.010401
-0.0040943 -0.00015481 -0.0036006 -0.00048039 -0.0010638 -0.00070271 -0.0024351 0.00014495
0.019522 0.010365 -0.10152 0.29282
1160000000 0.07301 0.2974 0.025738 -0.019614 0.0036116 -0.00088968 -0.00019399 -0.0025791
-0.0042371 -0.00087406 -0.001114 0.0042084
0.025719 -0.019569 -0.097304 0.37148 -0.0028576 -0.028634 -0.0015042 -0.0014788
-0.0025904 0.0024648 -0.0017048 0.0018737
0.0036144 -0.00088256 -0.0029918 -0.028685 0.24 0.24545 -0.00060096 0.0015668
-0.00051787 0.0017086 -0.0011109 0.00020232
-0.0002075 -0.0025243 -0.0015264 -0.001481 -0.00060323 0.0015683 0.030229 0.28059
0.021797 -0.0089487 -0.0035146 0.0052973
-0.0042949 -0.00087221 -0.0025967 0.0024602 -0.00045559 0.0017914 0.021773 -0.0090027
-0.053958 0.21047 0.019245 0.0013322
-0.0010733 0.0042613 -0.0017119 0.0018059 -0.0011444 0.00021179 -0.0034625 0.0053008
0.019122 0.0013702 -0.053867 0.29635
1220000000 0.1168 0.28879 0.012828 -0.029828 -0.0011113 -0.0017805 -0.00013621 -0.00097351
-0.0026393 0.0023208 0.0011205 0.0019412
0.012848 -0.029798 -0.053165 0.3862 -0.016124 -0.021292 -0.0024769 0.00047908
3.4258e-05 0.0028583 -0.00089893 0.0018154
-0.0010786 -0.0017871 -0.016228 -0.021241 0.28005 0.20813 0.00083122 0.0013868
0.00052785 0.0010723 0.00017068 0.00061179
-0.00015049 -0.00099013 -0.0024759 0.00046904 0.0008394 0.0014005 0.069717 0.27276
0.011269 -0.015848 0.0025347 0.0015899
-0.0026524 0.0022996 4.3819e-05 0.0028443 0.00049209 0.001038 0.011254 -0.015865
-0.031528 0.22142 0.015167 -0.011886
0.0011064 0.0018938 -0.00081769 0.0017946 0.00012534 0.00063892 0.0025392 0.0015867
0.015292 -0.011898 -0.023776 0.31489
1280000000 0.16748 0.26909 -0.0059884 -0.029386 -0.0020686 0.0013197 -0.00097361 -0.0019222
-0.00089322 0.0032931 0.0023964 0.0012679
-0.0059579 -0.029388 -0.0067723 0.3781 -0.02323 -0.0085954 -0.00077361 0.0013416
0.0015185 0.0016859 0.00056415 0.0021372
-0.002073 0.0013417 -0.023325 -0.0084619 0.31221 0.16495 0.0012425 -0.00010585
0.0010586 0.00036317 0.00019032 0.00043009
-0.00099441 -0.0018827 -0.00078015 0.0013471 0.0012584 -7.1885e-05 0.1063 0.25682
0.0025156 -0.018507 4.0962e-06 -7.2082e-05
-0.00086196 0.0032455 0.0015445 0.0017044 0.0010574 0.00034027 0.002484 -0.018538
0.005838 0.22704 0.0044699 -0.014926
0.00242 0.0012178 0.00063233 0.0021069 0.00034166 0.00040722 -2.8079e-05 -7.8788e-05
0.0044164 -0.015019 0.024298 0.31822
1340000000 0.20463 0.2376 -0.016218 -0.020659 3.7065e-05 0.0039374 -0.0017103 -0.00075986
0.0014641 0.0026577 0.0016995 -0.0013666
-0.016181 -0.020652 0.032079 0.37166 -0.020828 0.0038436 -0.00023606 0.0019067
0.0017043 0.00093951 0.0011297 0.00081146
4.0501e-05 0.0039567 -0.020846 0.0039225 0.33569 0.11738 0.00076528 -0.00082003
0.00057159 -0.0004631 0.00010106 0.00026805
-0.0017172 -0.00073826 -0.00023346 0.0018914 0.00073807 -0.0008269 0.1392 0.23755
-0.0068743 -0.016413 0.0011778 0.00014286
0.0014973 0.0026938 0.0017092 0.00095236 0.00058923 -0.00040237 -0.0068906 -0.016404
0.03497 0.22455 -0.0022398 -0.013786
0.0016467 -0.0013382 0.0011747 0.00081175 8.6318e-05 0.00021342 0.0012167 0.00013329
-0.0022587 -0.013861 0.062166 0.31527
1400000000 0.23946 0.20127 -0.023274 -0.009532 0.0043303 0.0032082 -0.0021081 0.00058471
0.0025742 0.00086999 0.00034529 -0.0012476
-0.023247 -0.0095497 0.070728 0.36003 -0.014411 0.011851 0.0011593 0.0013546
0.0011571 -0.00053231 0.0011332 0.0002497
0.0043772 0.0032041 -0.014379 0.011933 0.35022 0.062937 5.0326e-06 -0.0011721
0.00011328 -9.8399e-05 0.00037606 0.00023957
-0.0020852 0.00061058 0.0011683 0.0013637 5.8913e-06 -0.0011544 0.1694 0.20939
-0.012952 -0.010349 -0.00097982 -0.00070579
0.0025604 0.00085144 0.0011811 -0.00053059 0.00012111 -9.1774e-05 -0.012983 -0.010329
0.068473 0.22273 -0.0088133 -0.0094744
0.00035062 -0.0012608 0.0011351 0.00022656 0.00036182 0.00022528 -0.00096238 -0.0006814
-0.0088364 -0.0094581 0.10763 0.30636
1460000000 0.26325 0.15856 -0.021058 0.0030299 0.0049249 -0.0013799 -0.0015711 0.0016213
0.0020378 -0.00035898 -0.00019172 -0.001027
-0.021046 0.0030117 0.10518 0.33882 -0.0057388 0.014585 0.0015941 0.00033176
0.0011703 -0.0011724 0.0012759 -0.0005032
0.0049207 -0.0014276 -0.0056888 0.014643 0.35652 0.0075227 -0.00091879 -0.001031
0.00028099 -0.00024604 0.00059082 -0.00024915
-0.0015771 0.0016198 0.0016045 0.00033824 -0.00090486 -0.0010327 0.19642 0.18087
-0.01444 -0.0045009 -0.0011588 0.0017137
0.0020541 -0.00040094 0.0011528 -0.0011797 0.00027963 -0.00021486 -0.01445 -0.0044488
0.097689 0.21037 -0.011263 -0.0036086
-0.00021321 -0.00094074 0.0012154 -0.00054159 0.00059184 -0.00018794 -0.0011514 0.0016831
-0.011236 -0.003693 0.14128 0.28639
1520000000 0.27707 0.11833 -0.01616 0.0091283 0.0030881 -0.003562 5.646e-05 0.0025908
0.0023134 -0.001708 -0.001046 -0.00020922
-0.016143 0.0091182 0.13976 0.32579 0.0016135 0.01229 0.0016964 -0.00059253
0.00028043 -0.0010583 0.00037466 -0.00099384
0.0030646 -0.0035754 0.0016803 0.01228 0.34909 -0.049338 -0.00071533 -0.00041056
0.00073792 -0.00081557 0.00011125 -0.00010256
7.27e-05 0.0026092 0.0016922 -0.00060301 -0.0007033 -0.00041843 0.22078 0.14312
-0.014858 0.00095152 0.0011136 0.0019905
0.0022764 -0.0017443 0.0002787 -0.0010552 0.00071247 -0.00084134 -0.014855 0.00098725
0.12566 0.19986 -0.011597 0.0005312
-0.0010593 -0.00019689 0.00037114 -0.0010038 0.00013073 -0.00010731 0.0011045 0.0020387
-0.011552 0.00049664 0.17538 0.26849
1580000000 0.28819 0.072734 -0.0097965 0.013216 -0.0010146 -0.0043408 0.0013903 0.0018539
-0.00018815 -0.0021711 -0.00035423 0.00031991
-0.0097799 0.013197 0.1681 0.30116 0.0049657 0.007317 0.00064822 -0.0014859
-0.0004481 -0.001261 -0.00022827 -0.00070697
-0.0010301 -0.0043338 0.005026 0.0072913 0.32851 -0.10739 -0.0015014 0.00016299
-0.00037845 -0.0013652 0.00032927 -0.00049222
0.0014091 0.0018566 0.00063991 -0.0014868 -0.0014928 0.00017885 0.23588 0.1036
-0.012168 0.0063076 0.0018675 0.00094164
-0.00017612 -0.0022245 -0.00045761 -0.0012376 -0.00037579 -0.0013096 -0.012179 0.0063194
0.15074 0.1847 -0.0096681 0.006639
-0.00033163 0.00032257 -0.00020519 -0.00071317 0.00029066 -0.00054883 0.001853 0.00095181
-0.0097221 0.0066914 0.20893 0.24243
1640000000 0.29178 0.0321 -0.0027665 0.012781 -0.0026148 -0.0021034 0.0027182 0.0011998
-0.00054253 -0.0017318 -0.00036234 0.0004197
-0.0027775 0.012765 0.19806 0.27732 0.0053149 0.0026157 -0.00044138 -0.0018378
-0.0010242 -0.00058069 -0.00045252 -0.0006371
-0.0025922 -0.0020909 0.0053243 0.0025822 0.29862 -0.15596 -0.00083698 0.0011911
-0.00099539 -0.0010864 -8.2386e-05 -0.00027988
0.0027242 0.0011644 -0.00044614 -0.0018475 -0.00081794 0.0012038 0.24906 0.054429
-0.008513 0.0080766 0.0024403 -0.00041352
-0.00056736 -0.0017258 -0.0010278 -0.00058649 -0.0010327 -0.0010868 -0.0085135 0.0081009
0.17393 0.16403 -0.0050701 0.0088916
-0.00039915 0.00047623 -0.00045508 -0.00063248 -0.00010446 -0.00031273 0.0024441 -0.00041665
-0.0050318 0.0088941 0.23495 0.2126
1700000000 0.28684 -0.013122 0.0011393 0.010509 -0.0029751 0.0003565 0.0031863 -0.0011682
-0.0020645 -0.00069258 0.00052851 0.00047947
0.0011407 0.01048 0.21755 0.24589 0.0028529 3.7787e-05 -0.001405 -0.00077277
-0.00090448 -6.4386e-05 -0.00079834 -0.00042585
-0.0030088 0.00037509 0.0028418 3.5e-05 0.25495 -0.19456 7.3025e-05 0.0017446
-0.0020044 -0.0002574 -0.00040264 -0.00082183
0.0031888 -0.0011785 -0.001415 -0.00076221 6.5743e-05 0.0017603 0.24671 0.003707
-0.0057565 0.0095169 0.0017124 -0.0018759
-0.0020731 -0.00066902 -0.00090133 -6.2107e-05 -0.0020211 -0.00025662 -0.00572 0.0095221
0.19377 0.14684 -0.00050929 0.009588
0.00049647 0.0005275 -0.0008187 -0.00042314 -0.00036223 -0.00080271 0.0016951 -0.0018956
-0.00050695 0.0095695 0.25297 0.17916
1760000000 0.27599 -0.062258 0.0041164 0.0074544 -0.0019364 0.0010558 0.0014386 -0.0034404
-0.001214 0.00049895 0.00037715 -0.00050986
0.0041086 0.0074486 0.24375 0.20627 0.00036398 -0.0013994 -0.0012536 6.7363e-06
-0.0011138 0.0010325 -0.00046906 0.0003213
-0.0019617 0.0010666 0.00035998 -0.0014012 0.2061 -0.22636 0.0011045 0.0014129
-0.0012464 0.0014014 -0.0011175 -0.00060307
0.0014091 -0.003434 -0.001257 3.4085e-07 0.0011482 0.0014255 0.23765 -0.049045
-0.0017973 0.0093002 -9.0671e-05 -0.0022794
-0.0012143 0.00050756 -0.0011359 0.0010448 -0.001263 0.0013784 -0.0017965 0.0093079
0.21052 0.11487 0.0034168 0.0071403
0.0003583 -0.00048839 -0.00047615 0.00031141 -0.0011773 -0.00066144 -7.5575e-05 -0.0022299
0.0034333 0.0071577 0.26622 0.1418
1820000000 0.25299 -0.10022 0.0049297 0.0036556 0.00024899 0.0022057 -0.00085391 -0.0030641
-0.0012508 0.00088584 -4.5822e-05 -0.00018124
0.0048933 0.0036401 0.2549 0.17677 -0.0016956 0.00022501 -0.0015437 0.0009403
3.3204e-05 0.0012639 -0.00066664 0.00039368
0.00022645 0.0021886 -0.0016963 0.00022405 0.15648 -0.24082 0.0016536 0.00068832
-0.00039227 0.0023498 -0.0015693 0.00018948
-0.00086067 -0.0030627 -0.001545 0.00094813 0.0016453 0.00068572 0.20767 -0.096701
0.00020998 0.008026 -0.0014777 -0.0015788
-0.0012568 0.00086215 3.2829e-05 0.0012705 -0.00040175 0.002283 0.00021585 0.0080256
0.23094 0.088659 0.0046907 0.0039376
-2.6617e-05 -0.00018295 -0.00067276 0.000402 -0.0016042 0.00014892 -0.0014702 -0.0016053
0.0046689 0.0039568 0.26995 0.1072
1880000000 0.21847 -0.1417 0.0029971 0.0010677 -0.00028054 0.0020626 -0.0029125 -0.0024477
-0.00030723 0.0017631 0.00037993 -0.00056996
0.0030034 0.001084 0.25954 0.13002 -0.0035298 0.0028356 -0.00035495 0.0018393
0.00063264 0.0013425 6.5182e-05 0.00098871
-0.0002758 0.0020584 -0.003512 0.0028811 0.10506 -0.24891 0.0021457 -0.0011942
0.001576 0.002017 -0.0010546 0.0013873
-0.0029425 -0.0024104 -0.00033777 0.0018518 0.0021277 -0.0011907 0.1664 -0.13738
0.0016001 0.0058975 -0.0020315 0.00021912
-0.00031122 0.0017328 0.00066402 0.0013048 0.0015684 0.0020406 0.0016078 0.0059382
0.23772 0.058383 0.0053601 0.0018519
0.00041229 -0.00067621 0.00011526 0.00098624 -0.001032 0.0013767 -0.002044 0.00024735
0.0053841 0.0018512 0.2715 0.072961
1940000000 0.17928 -0.16791 0.00088399 -0.001101 0.0016731 0.0016648 -0.0039951 0.00015954
0.0011129 0.00099609 -0.00067339 -0.00072662
0.00087888 -0.0011094 0.26084 0.098921 -0.0016218 0.0056034 0.0010848 0.0014303
0.002015 0.0003095 0.00089105 0.00026355
0.0016565 0.0016555 -0.0016051 0.0056064 0.061059 -0.24046 0.00052109 -0.0025039
0.002383 0.00042042 8.8042e-05 0.0015287
-0.0039733 0.00019872 0.001091 0.0014311 0.00053949 -0.0024859 0.11303 -0.16788
0.00093309 0.0040069 -0.0013091 0.0013245
0.0011653 0.00097158 0.0020192 0.00029341 0.0023789 0.00038462 0.00093858 0.0039599
0.24385 0.021647 0.0043116 -0.0018657
-0.0007188 -0.00068201 0.00086908 0.00023395 0.00010671 0.0014968 -0.0013225 0.0013359
0.0042586 -0.001868 0.26169 0.03754
2000000000 0.13379 -0.1832 -0.00292 0.00058206 0.0028138 0.0012383 -0.0025066 0.0038114
0.00093213 0.00049526 -0.00085246 0.00041091
-0.0029326 0.00058845 0.24769 0.06354 -0.0003383 0.0075686 0.0017139 0.0003627
0.0011572 -0.0013808 0.00043409 0.000193
0.0027677 0.0011682 -0.00026813 0.0075981 0.020727 -0.22669 -0.0016074 -0.0014555
0.0020485 -0.0010096 0.0015063 0.0015562
-0.0025275 0.0038132 0.0017381 0.00034179 -0.0015864 -0.001456 0.059718 -0.1778
-0.00064441 0.0032589 -7.2019e-05 0.0018752
0.00093895 0.00045124 0.0011437 -0.0014078 0.001985 -0.001013 -0.00062482 0.0032766
0.24224 -0.011953 0.00095606 -0.0031169
