!Keysight Technologies,M9804A,MY58100912,A.14.10.03
!Date: Thursday, April 27, 2023 10:28:33
!Correction: S11(C  6-Port  ) 
!S12(C  6-Port  ) 
!S13(C  6-Port  ) 
!S14(C  6-Port  ) 
!S15(C  6-Port  ) 
!S16(C  6-Port  ) 
!S21(C  6-Port  ) 
!S22(C  6-Port  ) 
!S23(C  6-Port  ) 
!S24(C  6-Port  ) 
!S25(C  6-Port  ) 
!S26(C  6-Port  ) 
!S31(C  6-Port  ) 
!S32(C  6-Port  ) 
!S33(C  6-Port  ) 
!S34(C  6-Port  ) 
!S35(C  6-Port  ) 
!S36(C  6-Port  ) 
!S41(C  6-Port  ) 
!S42(C  6-Port  ) 
!S43(C  6-Port  ) 
!S44(C  6-Port  ) 
!S45(C  6-Port  ) 
!S46(C  6-Port  ) 
!S51(C  6-Port  ) 
!S52(C  6-Port  ) 
!S53(C  6-Port  ) 
!S54(C  6-Port  ) 
!S55(C  6-Port  ) 
!S56(C  6-Port  ) 
!S61(C  6-Port  ) 
!S62(C  6-Port  ) 
!S63(C  6-Port  ) 
!S64(C  6-Port  ) 
!S65(C  6-Port  ) 
!S66(C  6-Port  ) 
!S6P File: Measurement: :
# Hz S  RI   R 50
500000000 -0.33666 -0.040683 -0.0095011 -0.0020799 -0.0079225 0.012571 -0.004091 0.012765
0.013049 0.0045064 -0.004314 0.0095108
-0.009506 -0.0020926 -0.41929 -0.05219 0.0081712 -0.010526 0.0016054 0.012266
0.0076341 0.0021523 0.0016687 0.013605
-0.0079005 0.012565 0.0081431 -0.010557 -0.26438 0.20847 0.0078242 0.0034172
-0.0019501 0.0077324 0.0015337 0.012208
-0.0040536 0.012768 0.0016261 0.012285 0.0078296 0.0034346 -0.33146 0.040551
-0.019469 -0.0062417 0.015997 0.025646
0.013008 0.0043988 0.0076437 0.0021455 -0.0019103 0.0077113 -0.019467 -0.0062279
-0.21985 -0.20438 -0.026336 0.005294
-0.0042471 0.009451 0.0016605 0.013615 0.0015764 0.012237 0.015943 0.025614
-0.02631 0.0053374 -0.26387 -0.14377
560000000 -0.3156 0.12184 -0.023659 -0.063549 -0.00033071 0.012006 0.0054783 0.010564
0.010025 0.0047521 0.011412 0.007862
-0.023642 -0.063522 -0.37712 0.10659 -0.040751 -0.037666 0.013857 0.003556
-0.012503 -0.0049664 0.0032128 0.00025051
-0.00025964 0.012021 -0.040914 -0.037593 -0.18302 0.25661 -0.00048219 -0.0041467
0.019822 0.0051658 0.0062088 -0.0056351
0.0054962 0.01057 0.013903 0.0034977 -0.00047284 -0.0041486 -0.30698 0.13034
0.0039886 -0.024088 0.0047109 -0.021948
0.010091 0.0047662 -0.012606 -0.0049633 0.019881 0.0051587 0.0039697 -0.024083
-0.2869 -0.029512 0.0086799 -0.049367
0.011351 0.0078768 0.0032491 0.00021823 0.0061739 -0.0055777 0.0047631 -0.021848
0.0087027 -0.049338 -0.32923 0.0084103
620000000 -0.27565 0.10531 -0.0231 0.0076643 0.0029771 0.0084379 0.0081707 -0.0052054
0.011532 5.6322e-05 0.0024959 -0.0024748
-0.023096 0.0076523 -0.40247 0.058568 -0.018596 -0.00013768 -0.0012897 -0.0019442
0.011026 -0.0061799 0.0015897 -0.0027542
0.0029946 0.0084232 -0.018619 -9.3682e-05 -0.15393 0.26542 -0.001331 -0.0049872
-0.0032559 -0.0023551 0.0086083 -0.0029281
0.0081562 -0.005228 -0.0012824 -0.0019765 -0.0013134 -0.0049797 -0.26779 0.14277
-0.037826 -0.020484 0.011739 0.026046
0.011537 -8.5148e-05 0.011017 -0.0061809 -0.0032399 -0.0023473 -0.037889 -0.02044
-0.20624 -0.06493 -0.041627 0.015483
0.0024837 -0.0024777 0.0015933 -0.0027361 0.0086501 -0.0028743 0.011859 0.026037
-0.041678 0.015689 -0.24697 -0.02973
680000000 -0.23535 0.19097 -0.027264 -0.014707 0.0047662 0.0051861 0.00162 -0.0074533
-0.0031255 -0.011246 0.0050609 -0.0066508
-0.027235 -0.014703 -0.38792 0.15663 -0.03286 -0.0015013 -0.0016118 -0.00038365
-0.0020662 -0.0088462 -0.00093312 -0.0017708
0.0047811 0.0051683 -0.032902 -0.0014083 -0.10301 0.2855 -0.00066712 6.1457e-06
-0.0017767 0.00071302 -0.0028555 -0.0090926
0.0016118 -0.0074607 -0.0016239 -0.00038038 -0.00066733 2.4096e-07 -0.22214 0.19366
-0.024024 -0.0077305 -0.010317 -0.011459
-0.003156 -0.01126 -0.0020837 -0.0088317 -0.0017696 0.00072282 -0.024036 -0.007706
-0.25989 0.033156 -0.0053463 -0.0084437
0.0050668 -0.0066209 -0.00091341 -0.0017852 -0.002835 -0.0091163 -0.010303 -0.011493
-0.0053676 -0.0084497 -0.26159 0.078592
740000000 -0.19103 0.18588 -0.039082 0.02648 0.01251 -0.0049673 -0.00023615 -0.0044905
-0.00384 -0.0026014 -0.0060352 0.0023256
-0.039053 0.026461 -0.33499 0.17555 -0.035716 0.035075 -0.00089205 -0.0063636
-0.01213 0.0077729 -0.0019029 -0.0062385
0.012494 -0.0050167 -0.035638 0.03521 -0.069285 0.28411 -0.0020527 0.0032365
-0.0018508 -0.0052085 -0.0018953 0.0001304
-0.00023211 -0.0044993 -0.00091715 -0.0063664 -0.002055 0.0032336 -0.2052 0.20123
-0.044195 -0.00703 0.023342 0.015381
-0.0039053 -0.0025658 -0.012132 0.007814 -0.0018753 -0.0052182 -0.044258 -0.006974
-0.15871 0.061096 -0.044875 0.00025915
-0.0060519 0.0022437 -0.0019979 -0.0061329 -0.0020023 0.00013668 0.023428 0.015387
-0.044991 0.00024465 -0.25071 0.083653
800000000 -0.15863 0.22643 -0.022722 0.016559 0.0051757 -0.010547 -0.0048191 -0.0022683
-0.0039283 0.0021331 0.0048906 3.5818e-05
-0.022735 0.016537 -0.33867 0.24593 -0.0080343 0.033921 -0.0023054 0.002154
-0.00059546 0.0030018 0.0011259 0.0052393
0.005144 -0.010572 -0.0079456 0.033983 -0.028423 0.30761 0.00095616 0.0014159
0.00030299 0.0034956 -0.0017324 0.00071714
-0.0048236 -0.0022497 -0.0023033 0.002157 0.00094918 0.0014186 -0.17656 0.2295
-0.028956 0.01409 0.014134 -0.010501
-0.0039407 0.0021171 -0.00058505 0.0030202 0.00030255 0.0034844 -0.02895 0.014159
-0.20814 0.084476 -0.017917 0.019074
0.0048915 7.5915e-05 0.0011397 0.0052537 -0.001742 0.00074793 0.014138 -0.010518
-0.017952 0.01909 -0.24716 0.13362
860000000 -0.12416 0.24709 -0.017854 0.030606 -0.0033798 -0.009725 -0.002388 0.00089718
0.0039216 0.0046595 -0.0032613 -0.0031412
-0.017871 0.030577 -0.29137 0.28801 0.007585 0.034132 -3.8805e-05 0.0019207
0.0041042 5.8079e-05 0.0034094 0.00072598
-0.0034056 -0.0097289 0.0077063 0.034138 0.019828 0.31552 -0.00059619 -0.00026174
0.0026586 -0.0014503 0.001488 0.0043337
-0.002402 0.00092371 -4.172e-05 0.001931 -0.00059761 -0.00026484 -0.13975 0.24067
-0.01843 0.018956 -0.00629 -0.009234
0.0039294 0.0046676 0.0041001 5.0506e-05 0.002668 -0.0014679 -0.018398 0.019022
-0.15655 0.13727 -0.026601 0.015089
-0.0032385 -0.0031118 0.0033733 0.00067819 0.0014671 0.004379 -0.0063171 -0.00921
-0.026657 0.015106 -0.19519 0.18205
920000000 -0.099287 0.27049 0.0048731 0.038189 -0.0093593 -0.0040891 -0.0018069 0.0019747
0.0008444 0.0017688 0.0026008 -0.0015432
0.0048284 0.038155 -0.262 0.30977 0.027928 0.022184 0.0014558 0.0011765
0.0069407 -0.00037948 0.0039791 -0.0026418
-0.0093586 -0.0040657 0.02803 0.022116 0.066135 0.31607 0.0018479 4.0628e-06
0.001092 -0.00025444 0.00097574 -0.0009591
-0.0018088 0.0019795 0.0014641 0.0011664 0.0018524 3.5186e-06 -0.11589 0.25798
-0.011072 0.031144 0.0039858 -0.0065258
0.00085144 0.0017707 0.0069576 -0.00040642 0.0010984 -0.00025143 -0.011017 0.031183
-0.14643 0.14383 -0.0029672 0.027681
0.0026696 -0.0015968 0.0039605 -0.0026237 0.00094211 -0.00094773 0.0039559 -0.0064889
-0.0029707 0.027696 -0.20617 0.19547
980000000 -0.051785 0.28998 0.017365 0.030264 -0.0088314 0.0047547 0.0021605 0.003491
0.0039584 -0.0011515 -0.0032824 -0.0019893
0.017302 0.030236 -0.20916 0.3436 0.032818 0.0050318 0.0020527 -3.365e-05
0.0016601 -0.0056451 -0.00033764 -0.0022926
-0.0088026 0.0047837 0.032854 0.0049312 0.11225 0.30919 0.00059158 -0.0011427
0.00043339 -0.0019476 0.0015183 -0.00019497
0.0021545 0.0034978 0.0020651 -3.6944e-05 0.0005807 -0.0011436 -0.077075 0.26915
0.0078491 0.03074 -0.0092575 -0.0074304
0.0040028 -0.0011951 0.0016341 -0.0056916 0.00043331 -0.0019511 0.0079218 0.030755
-0.11571 0.17324 0.0044772 0.019982
-0.0032723 -0.0019986 -0.00033938 -0.002339 0.0015042 -0.00022049 -0.0092419 -0.0073873
0.0045002 0.019941 -0.1638 0.24227
1040000000 -0.0093887 0.29851 0.033094 0.018523 -0.0010341 0.0069368 0.0025845 0.00059574
4.3901e-05 -0.0037217 -0.00016737 -0.0014022
0.033024 0.018543 -0.17333 0.35647 0.029305 -0.014536 0.0014548 -0.0016997
-0.0023291 -0.0025524 -0.0012278 -0.0024921
-0.0010005 0.0069319 0.029272 -0.014641 0.15792 0.29543 -0.00047203 -0.0015366
-0.0015331 -0.00087607 -0.00039997 -0.0011285
0.0025838 0.00059307 0.0014603 -0.001721 -0.00046185 -0.0015382 -0.049732 0.27925
0.019616 0.0187 -0.001991 0.001456
4.758e-05 -0.0037311 -0.0023547 -0.002566 -0.0015436 -0.00087494 0.019672 0.018655
-0.082955 0.18129 0.013251 0.019437
-0.00017629 -0.0014263 -0.0012542 -0.0025194 -0.00038321 -0.001124 -0.0019733 0.0014762
0.013227 0.019428 -0.14383 0.26304
1100000000 0.035988 0.30607 0.035778 -0.0039223 0.0030266 0.003732 0.0022964 -0.0013869
-0.0020122 -0.0030792 -0.0038759 -2.3267e-05
0.035739 -0.0038839 -0.12979 0.37343 0.015224 -0.027439 -2.4876e-05 -0.0017788
-0.0031896 -0.00084705 -0.0034304 -0.0004865
0.0030413 0.0037244 0.01512 -0.027513 0.20396 0.27533 -0.0018466 0.00017795
-0.0017397 0.00042424 -0.0010391 -0.00048019
0.0022983 -0.0014019 -3.1208e-05 -0.0017938 -0.001851 0.00017602 -0.0091808 0.28412
0.025088 0.005603 -0.0024327 -9.2856e-05
-0.0020231 -0.0030934 -0.0032045 -0.00084981 -0.0017495 0.00043451 0.025118 0.005562
-0.064908 0.19506 0.019055 0.0093797
-0.0038632 -2.5087e-05 -0.0034321 -0.00046828 -0.0010695 -0.00048474 -0.0024371 -7.1971e-05
0.019077 0.009372 -0.097993 0.29492
1160000000 0.08735 0.30086 0.024104 -0.020349 0.00278 -0.00066364 -0.00033877 -0.0023901
-0.0040353 -0.00079135 -0.00094306 0.0040579
0.024081 -0.020303 -0.0862 0.37725 -0.0032772 -0.02883 -0.0017109 -0.0016307
-0.0027461 0.0022901 -0.001339 0.0017953
0.0027924 -0.00067163 -0.0034161 -0.028834 0.24681 0.24498 -0.00070424 0.0016786
-0.00070325 0.0018305 -0.0010038 0.00020268
-0.00035964 -0.002389 -0.0016974 -0.0016366 -0.00071413 0.0016767 0.030061 0.28116
0.021847 -0.010156 -0.002947 0.0051722
-0.004046 -0.00075775 -0.0027426 0.0022926 -0.00071906 0.001824 0.021853 -0.010213
-0.030881 0.20415 0.018422 0.0013857
-0.00093253 0.0040477 -0.0013644 0.0017278 -0.00097993 0.00019339 -0.0029289 0.0051665
0.01841 0.00143 -0.050776 0.29829
1220000000 0.13162 0.28957 0.010747 -0.029714 -0.0015269 -0.0010415 -3.7418e-05 -0.0008211
-0.0025985 0.0023804 0.0013472 0.001924
0.010754 -0.029683 -0.042173 0.3891 -0.016372 -0.02109 -0.0024824 0.00041796
-9.3869e-05 0.0029027 -0.00076038 0.0018453
-0.0015247 -0.0010382 -0.016484 -0.021038 0.28617 0.20647 0.00071173 0.0016194
0.00052383 0.001231 0.00037288 0.00069051
-4.1937e-05 -0.00081341 -0.0024797 0.00043339 0.00070649 0.0016228 0.069708 0.27273
0.011275 -0.017008 0.002167 0.0013141
-0.002594 0.0024125 -6.0407e-05 0.0029014 0.00052534 0.0012163 0.011269 -0.017043
-0.008748 0.2128 0.014786 -0.01211
0.0013216 0.0019422 -0.00074924 0.0018268 0.00035654 0.0006952 0.0021942 0.0013113
0.014765 -0.012112 -0.020495 0.31656
1280000000 0.18108 0.26743 -0.0073739 -0.028358 -0.0019437 0.0022183 -0.00086174 -0.0019173
-0.00085943 0.0029717 0.0023734 0.0011874
-0.0073434 -0.028335 0.0033447 0.38011 -0.023248 -0.0087697 -0.00099938 0.0013869
0.0014803 0.0017988 0.0005486 0.0021337
-0.0019467 0.002223 -0.023321 -0.0086665 0.31722 0.16282 0.0015506 8.4828e-05
0.0011306 0.00040038 0.0005299 0.00038446
-0.00086532 -0.0019124 -0.00099365 0.0013889 0.0015433 8.6687e-05 0.10644 0.25631
0.0020665 -0.019414 -0.00016468 -6.1211e-05
-0.00084161 0.0029829 0.0014929 0.0018013 0.0011253 0.00038246 0.0020247 -0.019436
0.027714 0.21627 0.0038466 -0.014505
0.0023922 0.0011746 0.00057402 0.0021178 0.00052202 0.00036006 -0.00017192 -5.8293e-05
0.0038446 -0.014498 0.02811 0.31994
1340000000 0.21786 0.23375 -0.01706 -0.019207 0.00070531 0.0043313 -0.0015603 -0.0008133
0.0013962 0.0026996 0.0017694 -0.001291
-0.017028 -0.019198 0.04248 0.37219 -0.021423 0.0036772 -0.00019696 0.0019518
0.0018224 0.0010024 0.0013543 0.0008145
0.00072416 0.0043262 -0.021428 0.0037895 0.33974 0.11471 0.0011526 -0.00081615
0.00078496 -0.00036559 0.00023369 0.00034093
-0.0015662 -0.00080572 -0.00018982 0.0019607 0.0011536 -0.00081734 0.1386 0.23621
-0.0075319 -0.0172 0.00078392 0.00031041
0.0014197 0.0026811 0.00184 0.00098666 0.00078613 -0.00037109 -0.0075859 -0.017185
0.056553 0.21144 -0.0024202 -0.013355
0.0017789 -0.0012978 0.0013724 0.00080138 0.00023774 0.00035424 0.00077587 0.00031186
-0.0024012 -0.013363 0.066218 0.31683
1400000000 0.25062 0.19569 -0.023041 -0.0080322 0.0048169 0.0031034 -0.0019951 0.00048713
0.0022769 0.0008924 0.00036703 -0.0013315
-0.023013 -0.0080266 0.079613 0.35941 -0.01498 0.011833 0.001267 0.0013921
0.0012322 -0.00061259 0.0012818 0.00028984
0.0048393 0.0030878 -0.014933 0.011927 0.3533 0.060718 0.00025936 -0.0015716
-7.3869e-05 -0.00039422 0.00041573 0.00018085
-0.0019902 0.00049005 0.0012707 0.0013894 0.00026275 -0.0015795 0.168 0.20772
-0.013743 -0.011028 -0.001052 -0.00065337
0.0022933 0.00087309 0.0012403 -0.00061582 -7.5512e-05 -0.00038125 -0.013782 -0.010988
0.088764 0.20755 -0.0090334 -0.0093085
0.00036528 -0.0013135 0.0012937 0.00027096 0.00041374 0.00017377 -0.0010517 -0.00064586
-0.0090327 -0.0093003 0.11199 0.3068
1460000000 0.27322 0.15194 -0.020412 0.0040238 0.0053808 -0.001632 -0.0016342 0.0016311
0.0020393 -0.00040067 -0.00026575 -0.0010081
-0.020399 0.0040003 0.11387 0.33798 -0.0066012 0.014899 0.0017746 0.00024465
0.0010688 -0.001267 0.0011937 -0.00063027
0.0053717 -0.0016531 -0.0065323 0.014958 0.35928 0.0058657 -0.0012002 -0.001351
0.00014517 -0.00032206 0.00057795 -0.00033689
-0.0016333 0.0016383 0.0017752 0.00024509 -0.0011986 -0.0013472 0.19415 0.17888
-0.015744 -0.0046497 -0.001175 0.0020819
0.0020363 -0.00041334 0.0010607 -0.0012781 0.0001564 -0.00032412 -0.01577 -0.0046193
0.11683 0.19323 -0.011303 -0.0036035
-0.00026828 -0.0010177 0.0011895 -0.00065187 0.0005783 -0.00035982 -0.0011693 0.0020762
-0.011282 -0.0036052 0.14592 0.28678
1520000000 0.2854 0.11053 -0.015145 0.0097208 0.003225 -0.0039401 8.6758e-06 0.0025938
0.0021438 -0.0015732 -0.0011056 -0.0001797
-0.015145 0.0097044 0.14766 0.3234 0.0010337 0.013103 0.0017331 -0.00074925
0.00012725 -0.0011754 0.00036687 -0.001007
0.0032002 -0.0039506 0.0011058 0.013109 0.35208 -0.05079 -0.0011226 -0.00044543
0.00058514 -0.0007814 4.7304e-05 -0.00011107
2.3197e-05 0.0025907 0.0017268 -0.00075877 -0.0011232 -0.00044964 0.21746 0.14161
-0.015993 0.001266 0.0012608 0.0022442
0.0021244 -0.0015989 0.0001133 -0.0011839 0.00058282 -0.00079116 -0.016003 0.0012958
0.14363 0.18014 -0.011667 0.00057039
-0.0011221 -0.00018771 0.00037483 -0.001018 5.0888e-05 -0.0001148 0.0012516 0.0022377
-0.011673 0.00056158 0.18014 0.26743
1580000000 0.29493 0.064511 -0.0087509 0.013145 -0.00084551 -0.0046884 0.0013413 0.0019588
-0.00010259 -0.0020194 -0.00042801 0.00040282
-0.0087562 0.013125 0.17521 0.29868 0.0047643 0.0085096 0.00054071 -0.0016413
-0.00063035 -0.0012007 -0.00028427 -0.00077789
-0.00087545 -0.0046813 0.0048171 0.0084933 0.33125 -0.10835 -0.0016903 0.00060886
-0.00020371 -0.0010981 8.103e-05 -0.00044716
0.0013374 0.0019559 0.00053325 -0.0016389 -0.0016922 0.0006086 0.23166 0.10286
-0.013207 0.0068883 0.0022461 0.0011748
-0.00012863 -0.0020241 -0.00064214 -0.0012005 -0.00021124 -0.0010998 -0.013194 0.0069298
0.16752 0.16328 -0.0096679 0.006647
-0.00042976 0.00040042 -0.00029143 -0.000784 0.00010258 -0.00044523 0.0022426 0.0011835
-0.0096773 0.0066374 0.21356 0.24087
1640000000 0.29727 0.023258 -0.0020315 0.012522 -0.0025408 -0.0024831 0.002762 0.0010807
-0.00047216 -0.0016135 -0.00028444 0.00064708
-0.0020352 0.012507 0.20502 0.27357 0.0058049 0.0038728 -0.00065226 -0.0017959
-0.0011691 -0.00043519 -0.00045315 -0.00070689
-0.0025427 -0.002473 0.0058386 0.0038493 0.30277 -0.15747 -0.00068935 0.0015297
-0.0010037 -0.0010884 -0.00011136 -0.00040736
0.0027716 0.0010624 -0.00065145 -0.0017945 -0.00068954 0.001513 0.24439 0.054464
-0.0090802 0.0091743 0.0026278 -0.00057235
-0.0004902 -0.0016312 -0.0011669 -0.00042199 -0.0010071 -0.0010788 -0.0090601 0.0092079
0.18959 0.14024 -0.0053182 0.008885
-0.00027034 0.00066218 -0.0004667 -0.00069689 -0.00012008 -0.00037411 0.0026252 -0.00059555
-0.0053266 0.0088693 0.23941 0.20992
1700000000 0.29011 -0.022418 0.0016005 0.0099577 -0.0033029 5.1323e-05 0.003079 -0.0011295
-0.0020271 -0.00090049 0.00065847 0.00047186
0.0015965 0.0099517 0.22333 0.24171 0.0039694 0.00099325 -0.0015256 -0.0006213
-0.00088886 0.00017659 -0.00088168 -0.00047692
-0.0033046 7.2591e-05 0.0039754 0.00096985 0.25882 -0.19705 0.00047133 0.0017388
-0.00198 -0.00030288 -0.00039751 -0.00078822
0.0030794 -0.0011392 -0.0015271 -0.0006124 0.00047193 0.001733 0.24183 0.0051865
-0.0059259 0.010766 0.0016421 -0.0021919
-0.0020318 -0.00089107 -0.00089605 0.00017184 -0.0019849 -0.00030338 -0.0059066 0.010787
0.207 0.12119 -0.0006902 0.0095242
0.00068255 0.00047194 -0.00088419 -0.00047352 -0.00040704 -0.00076904 0.0016335 -0.0021885
-0.00068951 0.0095247 0.25656 0.17554
1760000000 0.27774 -0.071281 0.004257 0.0068391 -0.0021702 0.00083328 0.0013268 -0.0034372
-0.0014577 0.00054251 0.00053116 -0.0006089
0.0042492 0.0068319 0.24919 0.20147 0.0018611 -0.00092037 -0.0012439 0.00018677
-0.00092931 0.0010447 -0.00055831 0.00041246
-0.0021689 0.00085282 0.0018575 -0.00093287 0.20985 -0.22975 0.0013361 0.0010716
-0.001237 0.0014849 -0.0012666 -0.00061062
0.0013163 -0.0034376 -0.0012454 0.00019837 0.0013367 0.0010691 0.23333 -0.045924
-0.0017075 0.010547 -8.6571e-05 -0.0024998
-0.001471 0.00055838 -0.0009202 0.0010518 -0.0012371 0.0015082 -0.001684 0.010562
0.22197 0.08725 0.0033417 0.0072981
0.00052917 -0.00059991 -0.00055919 0.00042584 -0.0012849 -0.0005836 -8.4903e-05 -0.0025153
0.0033421 0.0072909 0.26951 0.13793
1820000000 0.25282 -0.10872 0.0047746 0.0031549 -7.1441e-05 0.0022865 -0.00091913 -0.003098
-0.0012889 0.00095647 5.0915e-06 -0.00012831
0.0047616 0.0031541 0.25898 0.17112 -6.4306e-05 -3.1964e-05 -0.0013071 0.0010223
0.0001252 0.0013409 -0.00055459 0.00052609
-7.2317e-05 0.002285 -6.2342e-05 -3.5072e-05 0.15991 -0.2452 0.0015554 0.00033731
-0.00024483 0.0023671 -0.0013366 0.00029893
-0.00093236 -0.0031009 -0.0012994 0.0010249 0.0015491 0.00032454 0.20422 -0.093045
0.00077272 0.0089278 -0.0014747 -0.0015645
-0.0012922 0.000982 0.00013749 0.0013414 -0.00023541 0.0023708 0.00078825 0.0089351
0.23962 0.059145 0.0045001 0.004093
1.1642e-05 -0.00012152 -0.0005478 0.00054041 -0.0013589 0.00031306 -0.0014704 -0.0015723
0.0044998 0.0041019 0.27232 0.10243
1880000000 0.21734 -0.14905 0.0027882 0.00063837 -0.00042327 0.0020185 -0.0029475 -0.0022267
-0.00027223 0.0018478 0.00023329 -0.00054655
0.0027977 0.0006337 0.26304 0.12436 -0.0021735 0.0016281 -0.00015467 0.0017338
0.00068748 0.0010638 9.9679e-05 0.00093751
-0.00039952 0.0020147 -0.0021613 0.0016526 0.10753 -0.25463 0.0016019 -0.00099995
0.0015577 0.0019859 -0.0010048 0.0012855
-0.0029628 -0.0022231 -0.0001456 0.0017446 0.0016111 -0.00099513 0.16441 -0.13358
0.0023922 0.0065377 -0.0022839 0.00037011
-0.00026249 0.0018509 0.00068098 0.0010548 0.0015586 0.0019916 0.0024208 0.0065427
0.24326 0.027334 0.0049917 0.0020242
0.0002275 -0.00054726 9.5022e-05 0.00094849 -0.0010103 0.0013108 -0.0022637 0.00038375
0.0050026 0.00204 0.27248 0.068234
1940000000 0.17759 -0.17453 0.00059021 -0.0012974 0.0012123 0.0019635 -0.0037155 0.00045471
0.0014365 0.0011168 -0.00079983 -0.00057946
0.00059711 -0.0013001 0.26318 0.092561 -0.0010409 0.0038243 0.001096 0.0013175
0.0017704 0.00030114 0.0007774 0.00026525
0.0012262 0.0019619 -0.0010232 0.0038391 0.061849 -0.24751 0.00028987 -0.0021249
0.0023997 0.00042698 0.00017919 0.0015947
-0.0037161 0.0004799 0.0011047 0.0013146 0.00029026 -0.0021269 0.11263 -0.16475
0.0020333 0.0044707 -0.0013074 0.0013087
0.0014505 0.0011011 0.0017694 0.00029292 0.0023963 0.00042075 0.002058 0.0044706
0.24604 -0.011354 0.0041993 -0.0015021
-0.00081096 -0.00054784 0.00077248 0.00026637 0.00019403 0.0015841 -0.0012975 0.0013167
0.0041979 -0.0014836 0.26202 0.032571
2000000000 0.13105 -0.18896 -0.0032851 0.00050313 0.0024464 0.0016351 -0.0024299 0.0034006
0.0012422 4.6093e-05 -0.00073913 0.00035404
-0.0032862 0.00049888 0.24865 0.057253 -0.000852 0.0057013 0.0016434 0.00031039
0.00118 -0.0014125 0.00051768 0.00014158
0.0024589 0.0016196 -0.0008115 0.0057049 0.018878 -0.23277 -0.0012477 -0.0012265
0.0019305 -0.001169 0.0015631 0.0012929
-0.0024257 0.0034234 0.0016417 0.00029677 -0.0012409 -0.001234 0.058947 -0.17529
0.0004891 0.00332 -4.1765e-05 0.0019995
0.0012514 3.9092e-05 0.0011681 -0.0014267 0.001927 -0.001186 0.0005107 0.0033243
0.24075 -0.045649 0.0010548 -0.0025157
