!Keysight Technologies,M9804A,MY58100912,A.14.10.03
!Date: Thursday, April 27, 2023 10:28:33
!Correction: S11(C  6-Port  ) 
!S12(C  6-Port  ) 
!S13(C  6-Port  ) 
!S14(C  6-Port  ) 
!S15(C  6-Port  ) 
!S16(C  6-Port  ) 
!S21(C  6-Port  ) 
!S22(C  6-Port  ) 
!S23(C  6-Port  ) 
!S24(C  6-Port  ) 
!S25(C  6-Port  ) 
!S26(C  6-Port  ) 
!S31(C  6-Port  ) 
!S32(C  6-Port  ) 
!S33(C  6-Port  ) 
!S34(C  6-Port  ) 
!S35(C  6-Port  ) 
!S36(C  6-Port  ) 
!S41(C  6-Port  ) 
!S42(C  6-Port  ) 
!S43(C  6-Port  ) 
!S44(C  6-Port  ) 
!S45(C  6-Port  ) 
!S46(C  6-Port  ) 
!S51(C  6-Port  ) 
!S52(C  6-Port  ) 
!S53(C  6-Port  ) 
!S54(C  6-Port  ) 
!S55(C  6-Port  ) 
!S56(C  6-Port  ) 
!S61(C  6-Port  ) 
!S62(C  6-Port  ) 
!S63(C  6-Port  ) 
!S64(C  6-Port  ) 
!S65(C  6-Port  ) 
!S66(C  6-Port  ) 
!S6P File: Measurement: :
# Hz S  RI   R 50
500000000 -0.33673 -0.040827 -0.0095093 -0.0023018 -0.0080235 0.012414 -0.0041176 0.012548
0.013123 0.004733 -0.0042042 0.0091682
-0.0095704 -0.0024479 -0.41873 -0.052272 0.0083286 -0.010571 0.0017281 0.012364
0.0075742 0.0021142 0.0016298 0.013666
-0.0080476 0.012441 0.0083408 -0.010691 -0.26427 0.20846 0.0078951 0.0034176
-0.0020839 0.0077102 0.0016276 0.012311
-0.0041578 0.01254 0.0018483 0.012264 0.0078172 0.0034407 -0.33142 0.04064
-0.019517 -0.0064164 0.015972 0.025877
0.013442 0.0044577 0.0077146 0.0023441 -0.0020355 0.0077786 -0.019489 -0.0062028
-0.2197 -0.20428 -0.026344 0.0050359
-0.0043611 0.0090471 0.0019354 0.013863 0.0016232 0.012333 0.015997 0.025856
-0.026317 0.0051295 -0.26381 -0.14341
560000000 -0.31553 0.12152 -0.024097 -0.063503 1.4075e-05 0.011808 0.0054767 0.010611
0.010038 0.0046978 0.011141 0.008078
-0.023858 -0.063686 -0.37686 0.10699 -0.04071 -0.037791 0.013851 0.0036765
-0.012564 -0.0051474 0.0033904 0.00032404
9.1497e-05 0.011822 -0.041032 -0.037842 -0.18287 0.2567 -0.00048277 -0.0042724
0.019914 0.0051506 0.0061443 -0.0056636
0.0055747 0.010537 0.013612 0.0036534 -0.00045221 -0.0043231 -0.30713 0.13028
0.0039255 -0.024167 0.0044746 -0.021893
0.010223 0.0045934 -0.012672 -0.0047278 0.019812 0.0052537 0.0038731 -0.024118
-0.28667 -0.029547 0.0085825 -0.049373
0.0115 0.0082409 0.00337 -0.0001786 0.0064117 -0.0056036 0.0045053 -0.022015
0.0085102 -0.049405 -0.32935 0.0080608
620000000 -0.27544 0.10502 -0.023194 0.0076512 0.0028151 0.0084193 0.0082173 -0.0050546
0.011395 -0.00019241 0.0024095 -0.0023426
-0.023162 0.0076218 -0.40246 0.058498 -0.018567 -3.1959e-05 -0.0013443 -0.0020022
0.01112 -0.0060741 0.0015824 -0.0026708
0.0028163 0.0084516 -0.01857 -6.7675e-05 -0.15379 0.26565 -0.0012706 -0.0050374
-0.0031446 -0.0022573 0.0086742 -0.0029298
0.008342 -0.0051032 -0.001442 -0.0019601 -0.0013805 -0.0050147 -0.26771 0.14282
-0.037905 -0.020194 0.011943 0.026048
0.011422 -0.00029963 0.011081 -0.0061995 -0.0031738 -0.0022911 -0.037951 -0.02051
-0.20628 -0.065185 -0.041924 0.015642
0.0023749 -0.0025556 0.0014386 -0.0027175 0.0085188 -0.0029269 0.011749 0.025941
-0.041875 0.01576 -0.24694 -0.02976
680000000 -0.23553 0.19099 -0.027149 -0.014686 0.0047624 0.0051351 0.0016635 -0.0074314
-0.0032573 -0.011217 0.0050882 -0.0065558
-0.027176 -0.014693 -0.38789 0.15649 -0.032881 -0.0014853 -0.0016192 -0.00040766
-0.0019489 -0.0088349 -0.00087889 -0.0018988
0.0048231 0.0050687 -0.032896 -0.0014298 -0.10306 0.28552 -0.00069874 -2.079e-05
-0.0017027 0.0007102 -0.0028025 -0.0091911
0.0016416 -0.0072918 -0.0015677 -0.00038913 -0.00067205 3.0703e-05 -0.22219 0.19365
-0.023954 -0.0076557 -0.010273 -0.011452
-0.0032416 -0.011303 -0.0020362 -0.0088594 -0.0016706 0.00071882 -0.024002 -0.0075828
-0.26007 0.03338 -0.0054747 -0.0082174
0.0050892 -0.0065568 -0.0010009 -0.0018057 -0.0028245 -0.0092627 -0.01027 -0.01148
-0.005375 -0.0082351 -0.26176 0.078523
740000000 -0.19108 0.18555 -0.038987 0.026412 0.012503 -0.0049794 -0.00023465 -0.004478
-0.0038798 -0.0026064 -0.0060647 0.0023631
-0.039124 0.026339 -0.33517 0.17549 -0.035684 0.035058 -0.00085301 -0.0064051
-0.012096 0.0077458 -0.0020211 -0.0061181
0.012636 -0.0050643 -0.035577 0.035177 -0.069416 0.28412 -0.0020932 0.0031478
-0.0017868 -0.0051989 -0.0018941 4.4568e-05
-0.00033208 -0.0044197 -0.00080206 -0.0064039 -0.0021248 0.0031645 -0.20518 0.20123
-0.044245 -0.0071266 0.023278 0.015449
-0.0037479 -0.0025903 -0.011986 0.0079565 -0.0018205 -0.0051902 -0.044291 -0.0070243
-0.15875 0.061364 -0.045052 0.00019377
-0.0063063 0.0023794 -0.0020066 -0.00638 -0.0018219 -8.842e-05 0.023238 0.015512
-0.044903 0.00014987 -0.2506 0.083147
800000000 -0.15858 0.22642 -0.022792 0.016507 0.0051706 -0.010528 -0.0048476 -0.0022605
-0.0040107 0.0021012 0.0048239 8.4375e-05
-0.022751 0.016476 -0.33875 0.24586 -0.0080759 0.033939 -0.0022575 0.0021569
-0.00053289 0.0029924 0.00111 0.0052256
0.0051687 -0.010549 -0.0079779 0.034005 -0.028447 0.30761 0.00097624 0.0014548
0.0002887 0.0034322 -0.0017401 0.00073971
-0.0048608 -0.0022245 -0.0023003 0.0021524 0.00094733 0.0014483 -0.17658 0.22949
-0.02898 0.01406 0.014153 -0.010431
-0.0040366 0.0022047 -0.00054131 0.0029419 0.00032381 0.0034227 -0.028922 0.014179
-0.20813 0.084636 -0.017975 0.019164
0.0048068 3.6465e-05 0.0011736 0.005292 -0.0017264 0.00075716 0.014193 -0.010434
-0.017975 0.019163 -0.24733 0.13362
860000000 -0.12414 0.2471 -0.017902 0.030618 -0.003402 -0.0097873 -0.0024092 0.00087473
0.0038569 0.0046533 -0.0032974 -0.0031672
-0.01793 0.030551 -0.29138 0.28797 0.0075949 0.034089 -0.0001245 0.0018793
0.0041632 -3.0046e-05 0.003362 0.000743
-0.0034415 -0.0097824 0.0077002 0.034112 0.019775 0.31553 -0.00060159 -0.00028458
0.0027594 -0.001479 0.0014512 0.0043265
-0.0023409 0.00089215 -0.00018505 0.0019789 -0.00062152 -0.00031835 -0.13983 0.24068
-0.01826 0.01897 -0.0062237 -0.0090934
0.0040023 0.0046025 0.0042535 5.6762e-05 0.0027178 -0.0015147 -0.018266 0.019021
-0.15644 0.13743 -0.026573 0.015179
-0.0033793 -0.0031756 0.0033255 0.00058779 0.0015082 0.0043354 -0.0062255 -0.0092067
-0.026533 0.015032 -0.19531 0.18165
920000000 -0.099321 0.27051 0.004944 0.038165 -0.0093282 -0.0041133 -0.0018347 0.0019403
0.00083618 0.0018102 0.0027113 -0.0015826
0.0049387 0.038133 -0.262 0.30971 0.027962 0.022155 0.0014656 0.0011912
0.0069982 -0.00023203 0.0040404 -0.0026328
-0.0093208 -0.0040853 0.028042 0.0221 0.066135 0.31607 0.0018356 -8.4326e-07
0.0011358 -0.00019808 0.00095633 -0.00094579
-0.0017718 0.0019839 0.0014388 0.0011529 0.0018094 -2.0561e-05 -0.11591 0.25795
-0.011014 0.031162 0.0040181 -0.006536
0.00072093 0.0017321 0.0069607 -0.00027331 0.0011193 -0.00020426 -0.010977 0.03116
-0.14621 0.14387 -0.0030681 0.027666
0.0025084 -0.0016977 0.0038664 -0.0025899 0.00089728 -0.00097803 0.0040103 -0.0065493
-0.003017 0.027566 -0.20639 0.19555
980000000 -0.051828 0.28994 0.017315 0.030265 -0.0088407 0.0047926 0.002114 0.0035097
0.003966 -0.001172 -0.0033018 -0.0020254
0.017302 0.030273 -0.20918 0.34351 0.032823 0.0050776 0.0020349 -2.0081e-06
0.0016399 -0.0056448 -0.00035816 -0.0023636
-0.0088227 0.0048167 0.032859 0.0049549 0.11225 0.30921 0.00056417 -0.0011286
0.00045063 -0.0019537 0.0015181 -0.00021053
0.0021323 0.0035616 0.002064 1.8064e-05 0.00058342 -0.0011343 -0.077119 0.26918
0.0079019 0.030771 -0.0091209 -0.0073886
0.0039704 -0.0012414 0.0016243 -0.0056531 0.00042688 -0.0019422 0.0079389 0.030785
-0.11563 0.17318 0.0045542 0.020004
-0.003311 -0.0020221 -0.00039048 -0.0023478 0.001528 -0.00020157 -0.0091179 -0.0073258
0.0045486 0.01997 -0.16401 0.2422
1040000000 -0.0094478 0.2984 0.03308 0.018491 -0.0010382 0.0069372 0.0025925 0.00057533
9.2559e-05 -0.0036801 -0.00018663 -0.0013833
0.033064 0.018502 -0.17333 0.35638 0.029311 -0.014511 0.0014727 -0.0016828
-0.0023591 -0.0025141 -0.0012409 -0.0025112
-0.00098808 0.0069118 0.029295 -0.01465 0.15791 0.29545 -0.00044334 -0.0015633
-0.0015387 -0.00088141 -0.00042389 -0.0011026
0.0026194 0.00059393 0.0014604 -0.0016885 -0.00045197 -0.001547 -0.049732 0.27926
0.019636 0.018644 -0.0020111 0.0014581
4.4745e-05 -0.003678 -0.0024177 -0.0024804 -0.0015207 -0.00088139 0.019694 0.01864
-0.082811 0.18109 0.013319 0.01947
-0.00012978 -0.00136 -0.0012842 -0.0024981 -0.00036455 -0.0011561 -0.0019925 0.0014753
0.013329 0.019423 -0.1439 0.2631
1100000000 0.035888 0.30602 0.035788 -0.0039039 0.0030458 0.0037707 0.0023065 -0.00141
-0.0020014 -0.0030987 -0.0038657 -3.196e-05
0.035752 -0.0038747 -0.12981 0.37345 0.015231 -0.027392 -2.1045e-05 -0.0018034
-0.0031797 -0.00086693 -0.0034081 -0.00053835
0.003067 0.0037714 0.015123 -0.0275 0.20393 0.27535 -0.0018525 0.00017213
-0.0017669 0.00043641 -0.0010497 -0.00047249
0.0023055 -0.0013977 -3.2175e-05 -0.0018059 -0.0018501 0.00015932 -0.0091518 0.28415
0.025111 0.0056121 -0.0024303 -4.9257e-05
-0.0020255 -0.0031093 -0.0031884 -0.00083044 -0.0017688 0.00042109 0.025105 0.0055768
-0.064897 0.19491 0.019148 0.0093849
-0.0038273 -2.1661e-05 -0.0034251 -0.00053379 -0.0010285 -0.00052279 -0.002436 -1.671e-05
0.019156 0.0093865 -0.098166 0.29489
1160000000 0.087254 0.30086 0.024075 -0.020343 0.0027907 -0.00066208 -0.00036791 -0.002412
-0.0041006 -0.00073807 -0.00092393 0.0040922
0.02408 -0.020294 -0.086278 0.3772 -0.0032956 -0.028865 -0.0016978 -0.0016382
-0.0027371 0.0022582 -0.001382 0.001738
0.0028041 -0.0006984 -0.0034358 -0.028871 0.24678 0.24495 -0.00072187 0.0016742
-0.00070574 0.0018402 -0.0010081 0.00021656
-0.00038092 -0.0023901 -0.0017204 -0.0016648 -0.00072756 0.0016793 0.03008 0.28117
0.02186 -0.01016 -0.0029235 0.0051464
-0.004124 -0.0007223 -0.0027718 0.002262 -0.00074954 0.0018701 0.021824 -0.010189
-0.030945 0.20396 0.018481 0.0013628
-0.00090007 0.0041215 -0.0013684 0.0017958 -0.0010341 0.00024164 -0.0029547 0.0051382
0.018439 0.0013801 -0.050871 0.29821
1220000000 0.13154 0.2896 0.010772 -0.029716 -0.0015124 -0.0010385 -4.5711e-05 -0.00082695
-0.0025997 0.0023852 0.0012897 0.0019641
0.01078 -0.029671 -0.042223 0.38914 -0.016354 -0.021111 -0.0024882 0.00041154
-7.6502e-05 0.0029169 -0.00077406 0.0018306
-0.0015188 -0.0010402 -0.016479 -0.021054 0.28614 0.20651 0.0007236 0.0016175
0.00053212 0.0012298 0.00035374 0.00071043
-4.7078e-05 -0.00080266 -0.0024927 0.00040376 0.00074098 0.0016184 0.069685 0.27272
0.011273 -0.016975 0.0021862 0.0013013
-0.0025869 0.0024016 -7.4794e-05 0.0028927 0.00051488 0.0012615 0.011242 -0.016993
-0.0088745 0.21267 0.014863 -0.012232
0.001309 0.0019472 -0.00076664 0.0017999 0.00038209 0.00072387 0.0021818 0.0012886
0.014859 -0.012211 -0.020583 0.3166
1280000000 0.181 0.26755 -0.0073535 -0.028369 -0.0019661 0.0022127 -0.00088422 -0.0019194
-0.00086044 0.0029674 0.0023748 0.0011998
-0.007336 -0.028357 0.0032747 0.38006 -0.023264 -0.0087633 -0.0009936 0.0013937
0.0014844 0.0018158 0.00054193 0.0021376
-0.0019615 0.0022178 -0.023343 -0.0086559 0.31723 0.16283 0.001558 9.2798e-05
0.0011135 0.0004117 0.00050685 0.00033065
-0.00086877 -0.0018944 -0.0010082 0.0013927 0.0015462 9.474e-05 0.10644 0.2563
0.002067 -0.019394 -0.00020254 -4.5424e-05
-0.00081777 0.0029743 0.0014991 0.0018285 0.001133 0.0004137 0.0020313 -0.01939
0.027532 0.21621 0.0038724 -0.014602
0.0023513 0.0011905 0.0005757 0.0021233 0.00053166 0.00039263 -0.00021877 -4.1877e-05
0.003868 -0.014577 0.028031 0.31991
1340000000 0.21787 0.23386 -0.017057 -0.019212 0.00071012 0.0043331 -0.0015474 -0.00082355
0.0014053 0.0027039 0.0017784 -0.0012983
-0.017019 -0.019224 0.042381 0.3722 -0.021428 0.0037009 -0.00018964 0.0019651
0.0018136 0.0010136 0.0013489 0.00082233
0.00073834 0.0043234 -0.021434 0.0038248 0.33973 0.11473 0.0011447 -0.00082886
0.00080008 -0.00036622 0.00025754 0.0003505
-0.0015609 -0.00081118 -0.00016483 0.001955 0.0011494 -0.00082419 0.13856 0.23623
-0.0075201 -0.017168 0.00072689 0.00033119
0.001426 0.0027035 0.0018332 0.0009919 0.00076902 -0.00038758 -0.0075483 -0.017169
0.056418 0.21147 -0.0024324 -0.013485
0.0017481 -0.001274 0.0013744 0.00081284 0.00022311 0.000329 0.00072031 0.0003422
-0.0024381 -0.013506 0.06613 0.31678
1400000000 0.25067 0.19583 -0.023048 -0.0080255 0.0048097 0.0031083 -0.0020009 0.0004852
0.0023255 0.00090233 0.00037814 -0.0012991
-0.023013 -0.0080348 0.079561 0.35943 -0.014978 0.011844 0.0012655 0.0013937
0.0012437 -0.00061001 0.0012897 0.00029093
0.0048363 0.0030879 -0.014948 0.011934 0.35334 0.060736 0.00026335 -0.0015627
-7.9483e-05 -0.0003719 0.00042057 0.00017835
-0.0019994 0.00049327 0.0012633 0.0013945 0.00025704 -0.0015567 0.16797 0.20772
-0.013736 -0.011024 -0.0010667 -0.00062999
0.0023078 0.00089254 0.0012562 -0.00062173 -6.1234e-05 -0.000379 -0.01375 -0.010994
0.088648 0.20757 -0.0090956 -0.009358
0.000394 -0.001297 0.0012929 0.00028391 0.00043724 0.00018019 -0.001046 -0.00060931
-0.0090844 -0.0093694 0.11186 0.30677
1460000000 0.2733 0.152 -0.020416 0.0040171 0.0053629 -0.0016504 -0.0016352 0.0016232
0.002036 -0.00042711 -0.00026075 -0.0010297
-0.020403 0.0040083 0.1138 0.33798 -0.0066048 0.014909 0.0017674 0.00026462
0.0010649 -0.0012663 0.0012046 -0.00064251
0.0053472 -0.0016698 -0.0065344 0.014974 0.35925 0.0058433 -0.0011994 -0.0013488
0.0001718 -0.00030276 0.00056467 -0.00037602
-0.0016415 0.0016368 0.0017738 0.00024889 -0.0011892 -0.0013443 0.19418 0.17889
-0.015742 -0.0046645 -0.0011529 0.0021037
0.0020413 -0.00042285 0.0010755 -0.0012854 0.00013431 -0.00030688 -0.015752 -0.0046659
0.11675 0.19335 -0.011405 -0.0036285
-0.00026922 -0.0010099 0.0011937 -0.00065211 0.00057124 -0.00039307 -0.0011685 0.0020928
-0.011405 -0.0036377 0.14581 0.28676
1520000000 0.28544 0.11048 -0.015161 0.0097276 0.0032358 -0.0039418 2.1481e-05 0.0025921
0.0021541 -0.0015966 -0.0010951 -0.0001953
-0.015159 0.009702 0.14759 0.32345 0.0010362 0.013108 0.0017279 -0.00074719
0.00012703 -0.0011707 0.00038876 -0.0010026
0.0031896 -0.0039517 0.001098 0.013103 0.35219 -0.050802 -0.0011197 -0.00045
0.00059398 -0.00078019 5.6322e-05 -0.00012645
3.224e-05 0.0025716 0.0017389 -0.00075809 -0.0011058 -0.00043832 0.21742 0.14162
-0.015979 0.0012246 0.0012678 0.0022601
0.002151 -0.0015976 0.00011619 -0.0011644 0.00059933 -0.0007744 -0.015999 0.0012497
0.14363 0.1803 -0.011769 0.00058742
-0.0010978 -0.00018019 0.00038128 -0.0010126 5.89e-05 -0.00010656 0.0012796 0.0022499
-0.011771 0.00058168 0.18008 0.2674
1580000000 0.29493 0.064486 -0.0087582 0.013128 -0.00085267 -0.0047061 0.0013359 0.0019589
-9.97e-05 -0.0020301 -0.00043052 0.0003971
-0.0087608 0.013125 0.17515 0.29872 0.0047507 0.0085154 0.00053942 -0.0016366
-0.00064351 -0.0011912 -0.00028727 -0.00077011
-0.00088265 -0.0047033 0.0047957 0.0085044 0.33136 -0.10839 -0.0017118 0.00060959
-0.00023958 -0.0010803 0.00010275 -0.00045602
0.0013581 0.0019689 0.00052945 -0.0016419 -0.0017172 0.00061546 0.23163 0.10289
-0.0132 0.0068802 0.0022605 0.0011832
-0.00010846 -0.0020213 -0.00064521 -0.0011966 -0.00026689 -0.001095 -0.013216 0.0069138
0.16755 0.16343 -0.0097374 0.0067069
-0.00042231 0.00041398 -0.00028703 -0.0007773 0.00011082 -0.00045461 0.0022718 0.0011674
-0.0097486 0.0066967 0.21348 0.24084
1640000000 0.29718 0.023173 -0.0020296 0.012503 -0.0025364 -0.0024728 0.0027605 0.0010822
-0.0004846 -0.0016276 -0.00029261 0.00065039
-0.0020402 0.012491 0.20496 0.27363 0.005808 0.0038829 -0.00064795 -0.0017995
-0.0011649 -0.00043235 -0.00044945 -0.00069376
-0.0025354 -0.002475 0.0058586 0.0038535 0.30284 -0.15742 -0.00071871 0.0014946
-0.00099095 -0.0010977 -7.5514e-05 -0.00038915
0.0027649 0.0010772 -0.00066409 -0.0017969 -0.00072207 0.0014988 0.24439 0.054475
-0.0091056 0.0091713 0.0026525 -0.00058725
-0.00049456 -0.0016316 -0.001174 -0.00043118 -0.00096921 -0.0011217 -0.009092 0.0092049
0.18968 0.14032 -0.0053317 0.0089788
-0.00029868 0.00064309 -0.00045716 -0.00070033 -7.3766e-05 -0.00035186 0.0026482 -0.00060275
-0.0053293 0.00898 0.23926 0.20996
1700000000 0.29002 -0.022405 0.0016014 0.0099756 -0.0032863 5.4425e-05 0.0030836 -0.0011338
-0.002018 -0.00089538 0.00067703 0.00047623
0.0015926 0.009963 0.22327 0.24177 0.0039468 0.00099902 -0.0015267 -0.00061599
-0.00088661 0.00017449 -0.00087817 -0.00047649
-0.0032464 7.7141e-05 0.0039691 0.00099016 0.25876 -0.19706 0.00048146 0.0017307
-0.0019775 -0.00029943 -0.0004056 -0.00074855
0.003106 -0.0011565 -0.0015272 -0.00061868 0.00047865 0.0017257 0.24181 0.0051978
-0.0059501 0.010774 0.0016396 -0.0021876
-0.0020047 -0.00086834 -0.00089127 0.00019223 -0.0019975 -0.00030383 -0.0059329 0.010794
0.20708 0.12122 -0.00066639 0.0096414
0.0006988 0.00047563 -0.00088353 -0.00046327 -0.00040295 -0.00075506 0.0016226 -0.0022159
-0.00067428 0.0096269 0.2565 0.17559
1760000000 0.27767 -0.071148 0.0042585 0.0068531 -0.0021745 0.00088387 0.0013326 -0.0034306
-0.0014779 0.00055278 0.00053973 -0.00059947
0.0042526 0.0068483 0.24915 0.20153 0.0018472 -0.0009308 -0.0012419 0.0001842
-0.00094225 0.0010337 -0.00056038 0.00042556
-0.0021522 0.00089945 0.0018399 -0.00092972 0.20984 -0.22982 0.0013301 0.0010578
-0.0012597 0.0015018 -0.001267 -0.00057646
0.0013212 -0.0034395 -0.0012381 0.00019534 0.0013264 0.0010742 0.23336 -0.045907
-0.0017195 0.010559 -8.2489e-05 -0.0025335
-0.0014515 0.00055779 -0.00091951 0.001054 -0.0012667 0.0015152 -0.0016768 0.010573
0.22201 0.087218 0.0033682 0.0073823
0.00051784 -0.0006239 -0.00055242 0.00044052 -0.0012811 -0.0005438 -9.3599e-05 -0.0025349
0.0033638 0.0073795 0.26944 0.13799
1820000000 0.25278 -0.1086 0.0047759 0.0031567 -3.5872e-05 0.0023262 -0.00093793 -0.0030931
-0.001294 0.00094194 3.2543e-05 -0.00012689
0.0047681 0.0031672 0.25896 0.17119 -8.8005e-05 -2.8242e-05 -0.0013235 0.0010171
0.00013461 0.0013399 -0.00054237 0.00055013
-2.9307e-05 0.0023547 -8.5775e-05 -2.1531e-05 0.15991 -0.24537 0.0015196 0.00030878
-0.00025531 0.0023885 -0.0013312 0.00027982
-0.00095983 -0.0030691 -0.0013193 0.0010288 0.0015232 0.00029769 0.20424 -0.093015
0.0007722 0.0089374 -0.0014829 -0.0015802
-0.0012705 0.00096273 0.00014668 0.0013444 -0.00025908 0.002362 0.00078663 0.0089246
0.23968 0.059106 0.0046029 0.0041359
2.7956e-05 -0.00013189 -0.00054712 0.0005549 -0.0013224 0.00024707 -0.0014689 -0.0016027
0.0046007 0.0041318 0.27233 0.10258
1880000000 0.21739 -0.14888 0.0027858 0.00064349 -0.00042396 0.0019942 -0.0029772 -0.0022225
-0.00026814 0.0018501 0.00025322 -0.00053238
0.0027926 0.0006487 0.26301 0.12441 -0.0021668 0.0016026 -0.00015816 0.0017269
0.00068331 0.0010531 9.7483e-05 0.00093341
-0.00040312 0.0020131 -0.0021423 0.0016048 0.10756 -0.25468 0.0016386 -0.0010007
0.0015247 0.0019878 -0.0009971 0.0012865
-0.0029793 -0.0021852 -0.00014429 0.0017319 0.0016506 -0.0010152 0.16444 -0.13357
0.0024101 0.006558 -0.0022873 0.00036822
-0.00023053 0.0018607 0.00070652 0.0010727 0.0015188 0.0019811 0.0024226 0.0065333
0.24326 0.027283 0.0050992 0.002048
0.00023792 -0.00053435 0.00013233 0.00094091 -0.00099159 0.0012956 -0.0022577 0.00035678
0.0050939 0.0020504 0.27247 0.068334
1940000000 0.17769 -0.17444 0.00059599 -0.0013128 0.0012355 0.0019718 -0.0037245 0.00045827
0.00143 0.0010972 -0.00079956 -0.00056233
0.0005991 -0.0013078 0.26316 0.092606 -0.0010393 0.0038352 0.0010965 0.0013209
0.0017667 0.0003013 0.00077821 0.00025542
0.0012427 0.0019869 -0.0010078 0.0038326 0.061833 -0.24754 0.00030206 -0.0020997
0.0023452 0.0004404 0.00016207 0.001599
-0.0037126 0.00047792 0.0011074 0.0013164 0.00033372 -0.0021011 0.11264 -0.16476
0.0020254 0.0044822 -0.0013146 0.001357
0.0014822 0.0010982 0.0017647 0.00030954 0.0023477 0.00043123 0.0020536 0.0044573
0.246 -0.011422 0.0042578 -0.001536
-0.00078324 -0.00054607 0.00076236 0.00028236 0.00017799 0.0016198 -0.001289 0.0013437
0.0042525 -0.0015252 0.26195 0.032814
2000000000 0.13114 -0.18896 -0.0032966 0.0004996 0.0024059 0.0016686 -0.0024217 0.0033981
0.0012615 3.6314e-05 -0.00071188 0.00034839
-0.0032932 0.0004899 0.24863 0.057298 -0.00087567 0.005684 0.0016346 0.00031326
0.001169 -0.0014048 0.00050665 0.00014057
0.0024315 0.0016522 -0.00083218 0.0057081 0.018956 -0.23271 -0.0012787 -0.0012223
0.0019435 -0.0011752 0.001575 0.0012854
-0.0024089 0.0034257 0.0016265 0.00031166 -0.0012665 -0.0011744 0.058964 -0.17535
0.00050402 0.0033094 -4.0275e-05 0.0019787
0.0012386 -3.5862e-06 0.0011535 -0.0014141 0.0019244 -0.0011607 0.00052209 0.0033303
0.24072 -0.045672 0.0011353 -0.0025979
