!Keysight Technologies,M9804A,MY58100912,A.14.10.03
!Date: Thursday, April 27, 2023 10:28:33
!Correction: S11(C  6-Port  ) 
!S12(C  6-Port  ) 
!S13(C  6-Port  ) 
!S14(C  6-Port  ) 
!S15(C  6-Port  ) 
!S16(C  6-Port  ) 
!S21(C  6-Port  ) 
!S22(C  6-Port  ) 
!S23(C  6-Port  ) 
!S24(C  6-Port  ) 
!S25(C  6-Port  ) 
!S26(C  6-Port  ) 
!S31(C  6-Port  ) 
!S32(C  6-Port  ) 
!S33(C  6-Port  ) 
!S34(C  6-Port  ) 
!S35(C  6-Port  ) 
!S36(C  6-Port  ) 
!S41(C  6-Port  ) 
!S42(C  6-Port  ) 
!S43(C  6-Port  ) 
!S44(C  6-Port  ) 
!S45(C  6-Port  ) 
!S46(C  6-Port  ) 
!S51(C  6-Port  ) 
!S52(C  6-Port  ) 
!S53(C  6-Port  ) 
!S54(C  6-Port  ) 
!S55(C  6-Port  ) 
!S56(C  6-Port  ) 
!S61(C  6-Port  ) 
!S62(C  6-Port  ) 
!S63(C  6-Port  ) 
!S64(C  6-Port  ) 
!S65(C  6-Port  ) 
!S66(C  6-Port  ) 
!S6P File: Measurement: :
# Hz S  RI   R 50
500000000 -0.33714 -0.03918 -0.0097443 -0.0029559 -0.0082197 0.013286 -0.0041048 0.011692
0.01393 0.0032987 -0.0039169 0.0078677
-0.0096585 -0.0029954 -0.41825 -0.051685 0.0075485 -0.010754 0.0013909 0.011924
0.0079536 0.0023292 0.0019443 0.012895
-0.00811 0.013375 0.0075627 -0.010821 -0.26648 0.21032 0.0073443 0.0034714
-0.0011955 0.0085012 0.0015087 0.012129
-0.0042021 0.011639 0.0014798 0.011862 0.0073349 0.0034733 -0.33059 0.04432
-0.019354 -0.0058778 0.016006 0.025507
0.013909 0.0030857 0.0078307 0.0024037 -0.0011547 0.0085123 -0.019446 -0.0058699
-0.22627 -0.19236 -0.026618 0.0047184
-0.0046644 0.0083034 0.001915 0.013175 0.0014463 0.012192 0.016351 0.025423
-0.026376 0.0049739 -0.26835 -0.1266
560000000 -0.3184 0.12569 -0.024053 -0.062457 -0.00060763 0.012704 0.0057004 0.011128
0.010377 0.0061005 0.0098292 0.0077805
-0.02375 -0.062488 -0.37614 0.10756 -0.041305 -0.036564 0.013715 0.0037442
-0.013467 -0.0044895 0.0041199 0.00097231
-0.00043249 0.013068 -0.041408 -0.036295 -0.18369 0.25847 -0.00014586 -0.0043871
0.019605 0.0056602 0.0061011 -0.0063076
0.0060808 0.010919 0.013841 0.0035628 -0.00016367 -0.0043816 -0.30587 0.13414
0.0045371 -0.024382 0.0051028 -0.021184
0.010372 0.0059099 -0.013554 -0.0044816 0.019659 0.0056833 0.0045641 -0.024449
-0.29116 -0.017761 0.0083324 -0.049646
0.010407 0.0078684 0.0039888 0.001119 0.0060936 -0.0063204 0.0050504 -0.021206
0.008381 -0.049476 -0.32974 0.021193
620000000 -0.27562 0.10794 -0.023198 0.0082693 0.0034714 0.0085177 0.008017 -0.0050429
0.011367 -0.00095601 0.00049198 -0.002653
-0.02324 0.0083351 -0.40275 0.060419 -0.018521 0.00044179 -0.0016992 -0.0019838
0.011777 -0.0068655 0.0014161 -0.0029502
0.0034481 0.0087904 -0.018568 0.00043189 -0.15349 0.26742 -0.001 -0.0052355
-0.003294 -0.0034299 0.0090952 -0.003118
0.0079542 -0.005071 -0.001734 -0.0020001 -0.0010071 -0.0052213 -0.26492 0.14379
-0.037717 -0.018795 0.011763 0.024945
0.011201 -0.00087838 0.011729 -0.0069015 -0.0032588 -0.0033687 -0.037773 -0.018679
-0.20854 -0.054867 -0.040603 0.014331
0.00067001 -0.002778 0.001549 -0.0030011 0.0091667 -0.0031887 0.011918 0.025117
-0.040603 0.013996 -0.25258 -0.015596
680000000 -0.23391 0.19374 -0.026897 -0.013901 0.0054799 0.004928 0.0016475 -0.0063709
-0.0026703 -0.011624 0.0052751 -0.006195
-0.026845 -0.01391 -0.38747 0.15811 -0.032295 -0.0012782 -0.0015964 -7.4644e-05
-0.001985 -0.0092155 -0.0013367 -0.0022318
0.0055116 0.0047552 -0.032356 -0.001222 -0.10159 0.28681 -0.00087023 -8.4318e-05
-0.0018569 0.00025178 -0.0027668 -0.0093019
0.001721 -0.0065167 -0.0016088 -6.4748e-05 -0.00087367 -9.4284e-05 -0.22119 0.19491
-0.023298 -0.006874 -0.0089579 -0.0098293
-0.0027265 -0.011792 -0.0019793 -0.0092728 -0.0018435 0.00027623 -0.023369 -0.0068745
-0.25908 0.04312 -0.0050529 -0.0085697
0.005432 -0.006644 -0.0012631 -0.0021808 -0.00287 -0.0093049 -0.0092272 -0.0098382
-0.0050991 -0.0085595 -0.2582 0.091939
740000000 -0.18968 0.18786 -0.038045 0.026823 0.012794 -0.0052728 -0.00053819 -0.004015
-0.0042767 -0.0025016 -0.006494 0.0025302
-0.03794 0.026806 -0.33482 0.17736 -0.035155 0.034692 -0.0005256 -0.0063978
-0.011462 0.0075227 -0.0018209 -0.0062966
0.012875 -0.005278 -0.035018 0.034861 -0.068034 0.28486 -0.0019252 0.0034057
-0.0027517 -0.0047075 -0.001619 0.00091127
-0.00051189 -0.0039308 -0.00053067 -0.0063917 -0.0019142 0.003395 -0.2031 0.20244
-0.043188 -0.0065342 0.023087 0.014499
-0.004482 -0.0025504 -0.011392 0.0075648 -0.0027978 -0.0047168 -0.043229 -0.0064971
-0.16059 0.069199 -0.043172 0.00095455
-0.0062191 0.0025341 -0.0017462 -0.0062293 -0.0016623 0.000969 0.023234 0.014381
-0.043115 0.00092245 -0.24803 0.097337
800000000 -0.15695 0.22868 -0.02222 0.016796 0.0052363 -0.01056 -0.0047216 -0.0017632
-0.0038743 0.0031508 0.0042066 0.00072039
-0.02232 0.016737 -0.3377 0.24675 -0.007823 0.033835 -0.0024778 0.0022656
-0.00096826 0.003512 0.00093747 0.0053788
0.0050845 -0.010547 -0.0077155 0.033902 -0.027469 0.30782 0.0010512 0.0015776
0.00056406 0.003788 -0.0018067 0.00058862
-0.0048583 -0.0019358 -0.0025355 0.0023115 0.0010546 0.0015851 -0.17474 0.23014
-0.028187 0.014267 0.013506 -0.010164
-0.0041085 0.0030467 -0.00094572 0.0035998 0.00056635 0.0037772 -0.028203 0.014304
-0.20511 0.094385 -0.017132 0.019238
0.0037624 0.00093398 0.00082575 0.0055708 -0.0018672 0.00083082 0.013371 -0.010067
-0.016975 0.019484 -0.24201 0.147
860000000 -0.12253 0.24812 -0.017187 0.030675 -0.0032912 -0.0098914 -0.002752 0.00087279
0.0040004 0.0049647 -0.0037149 -0.0024977
-0.017363 0.030638 -0.29022 0.28858 0.0078911 0.033958 0.00011457 0.0019854
0.0044117 6.3068e-05 0.0032198 0.00084545
-0.0034211 -0.0099353 0.0080042 0.033975 0.02041 0.31556 -0.00053767 -0.00021943
0.0028793 -0.0014644 0.001506 0.0042949
-0.0026176 0.00082865 6.4521e-05 0.0019733 -0.00054486 -0.00020764 -0.13883 0.24037
-0.018053 0.018143 -0.0059109 -0.0090158
0.0039491 0.0049699 0.0043868 3.733e-05 0.0028624 -0.0014691 -0.018061 0.018201
-0.15504 0.14379 -0.025081 0.015615
-0.0037463 -0.0028314 0.0032165 0.00080321 0.0014208 0.0042505 -0.0059006 -0.0091375
-0.025251 0.015518 -0.19021 0.19093
920000000 -0.097201 0.27086 0.0052901 0.037684 -0.0093352 -0.0044674 -0.0018094 0.0019731
0.0011534 0.0018859 0.0026901 -0.0015812
0.0052364 0.037691 -0.2612 0.3095 0.028045 0.021798 0.0014191 0.0011034
0.0073519 -0.00014095 0.0039023 -0.0029224
-0.009372 -0.0044978 0.028146 0.02173 0.066459 0.31634 0.0019137 -0.00011199
0.0011137 -0.00029038 0.0007722 -0.0012434
-0.0017339 0.0020855 0.0014366 0.0010677 0.0019127 -0.00011116 -0.11471 0.25794
-0.010302 0.030096 0.0033984 -0.0066828
0.0010767 0.001845 0.0073561 -0.00015062 0.001117 -0.00028039 -0.01023 0.030129
-0.14357 0.14926 -0.0025826 0.027072
0.0029594 -0.0016801 0.0039693 -0.0029929 0.00079123 -0.0012554 0.0033998 -0.0066781
-0.0026301 0.027038 -0.19832 0.2056
980000000 -0.050575 0.28976 0.017461 0.029631 -0.009045 0.0044904 0.0019136 0.0034529
0.0038923 -0.0015833 -0.0032585 -0.0023151
0.017406 0.029578 -0.20851 0.3431 0.032952 0.0046668 0.0019101 -0.00015618
0.0014093 -0.0063016 -0.00046104 -0.0023158
-0.0090194 0.0045531 0.032978 0.0045663 0.11272 0.30961 0.00045523 -0.0012469
0.00022182 -0.0022531 0.0013757 -0.00017597
0.0018482 0.0034517 0.0019365 -0.00016474 0.00046634 -0.0012628 -0.076623 0.26878
0.0079271 0.029728 -0.008929 -0.0073525
0.0038713 -0.0016355 0.0014148 -0.0063431 0.00022641 -0.0022575 0.0080018 0.029753
-0.11385 0.17897 0.00511 0.01941
-0.0033101 -0.0021076 -0.00052781 -0.002337 0.0013446 -0.00021635 -0.0089279 -0.0072906
0.0051612 0.019266 -0.15547 0.24919
1040000000 -0.0084205 0.29813 0.03316 0.017708 -0.0013533 0.0067953 0.0025552 0.00076012
-7.4369e-05 -0.0034515 -0.00036463 -0.001349
0.033127 0.017662 -0.17304 0.35625 0.029243 -0.014896 0.0015305 -0.0017435
-0.0025615 -0.0024723 -0.0013855 -0.0027816
-0.0013203 0.0067862 0.029198 -0.015008 0.15878 0.29606 -0.00050106 -0.0014673
-0.0016209 -0.00084118 -0.0006417 -0.0011096
0.0025544 0.00077295 0.0015256 -0.0017558 -0.00049898 -0.0014786 -0.049259 0.27918
0.019077 0.017643 -0.0024213 0.0014431
-9.2006e-05 -0.0034617 -0.0025166 -0.0024727 -0.0016176 -0.00080924 0.019148 0.017625
-0.081679 0.18584 0.013074 0.018406
-0.00033296 -0.0014655 -0.0014479 -0.0027116 -0.00060462 -0.0011122 -0.0023897 0.0015594
0.013176 0.018357 -0.13416 0.27079
1100000000 0.036812 0.30584 0.035569 -0.0046088 0.0027887 0.0038165 0.0024131 -0.0012144
-0.0020449 -0.003075 -0.0040588 0.0002548
0.035485 -0.0045865 -0.12984 0.37335 0.01503 -0.027878 -3.9353e-06 -0.0018596
-0.0034675 -0.0006886 -0.003674 -0.00033929
0.0028076 0.0038202 0.01492 -0.027959 0.20523 0.27557 -0.0018857 0.00022091
-0.0017542 0.00060543 -0.0010457 -0.00021234
0.0023657 -0.0011996 -8.0479e-06 -0.0018501 -0.0018805 0.00022355 -0.0090124 0.28422
0.024189 0.0048262 -0.0025463 0.00021592
-0.0020845 -0.0030491 -0.0034672 -0.00067755 -0.0017635 0.0005994 0.024215 0.0047932
-0.063655 0.19971 0.019107 0.008718
-0.0040274 0.00040034 -0.0036475 -0.00028602 -0.0010902 -0.00020645 -0.0024857 0.00022036
0.019086 0.0086822 -0.088194 0.29959
1160000000 0.088032 0.30078 0.023506 -0.020896 0.0024951 -0.00043738 -0.00011716 -0.002366
-0.0041686 -0.00062014 -0.00092371 0.0041683
0.023504 -0.020908 -0.086436 0.37774 -0.0039336 -0.029042 -0.0017491 -0.0017481
-0.0026602 0.0025834 -0.0013403 0.0018532
0.0025034 -0.00044757 -0.0040591 -0.029025 0.24814 0.24468 -0.00071338 0.0017555
-0.00042037 0.0020001 -0.00085743 0.00027323
-0.00014157 -0.0024067 -0.0017729 -0.0017164 -0.00072154 0.0017656 0.030037 0.28165
0.020427 -0.010443 -0.0028853 0.0051919
-0.0041469 -0.00065195 -0.0026713 0.0026024 -0.00043087 0.0020083 0.020446 -0.010476
-0.030184 0.20887 0.017758 0.00052914
-0.00097307 0.0040957 -0.0013878 0.0018635 -0.00081245 0.00026879 -0.0029141 0.0052104
0.017861 0.00058672 -0.041633 0.30229
1220000000 0.13246 0.28977 0.009886 -0.029992 -0.0016634 -0.00067597 1.0685e-06 -0.00091019
-0.0026329 0.0024545 0.0013048 0.0020552
0.0099242 -0.029958 -0.04204 0.38973 -0.016994 -0.021051 -0.0025433 0.00048015
0.00012756 0.0030357 -0.000772 0.0018568
-0.0016594 -0.00068611 -0.017103 -0.021 0.28725 0.20542 0.00083423 0.0016502
0.00070418 0.0011953 0.00029271 0.00064745
2.1081e-05 -0.00087858 -0.0025388 0.00050435 0.00082718 0.001647 0.069923 0.27343
0.0099998 -0.016856 0.0021496 0.001599
-0.0026528 0.0024571 0.00016052 0.0030482 0.00071057 0.0011991 0.0099914 -0.016868
-0.0072116 0.21823 0.013823 -0.012824
0.0013863 0.0020865 -0.00074225 0.0018503 0.00031135 0.00066429 0.0022133 0.0015808
0.0138 -0.012859 -0.0095734 0.31909
1280000000 0.18201 0.26758 -0.0083823 -0.028206 -0.0018035 0.0027294 -0.0009826 -0.0020787
-0.00070328 0.0030294 0.002589 0.0011173
-0.0083787 -0.02817 0.0039288 0.38081 -0.02384 -0.0084189 -0.0010423 0.0014639
0.0017931 0.0017807 0.00059131 0.0019882
-0.001802 0.0027548 -0.023904 -0.008314 0.31752 0.1613 0.0015255 -9.3682e-05
0.0011668 0.00012879 0.00037313 0.0002789
-0.00098226 -0.0021005 -0.0010505 0.0014616 0.0015223 -8.8292e-05 0.1069 0.25737
0.00068034 -0.018611 6.1177e-05 0.0002236
-0.00068036 0.003016 0.0018238 0.0017978 0.0011803 0.00012747 0.00062488 -0.018646
0.029099 0.22248 0.0028 -0.014789
0.0025443 0.0011119 0.00062682 0.0019861 0.00037695 0.00024716 -1.2754e-05 0.00023989
0.0027652 -0.014828 0.037719 0.32103
1340000000 0.2191 0.23366 -0.017863 -0.018335 0.00098738 0.0045587 -0.0018048 -0.00085867
0.0015788 0.0025629 0.0016281 -0.0013562
-0.017854 -0.018359 0.043323 0.37265 -0.021615 0.0043988 -8.3428e-05 0.001997
0.0019499 0.00071001 0.0013762 0.00082772
0.0010055 0.0045448 -0.021623 0.0045198 0.33918 0.11363 0.0011634 -0.00098536
0.00069636 -0.00035068 0.00025549 0.00028508
-0.0017675 -0.00083982 -6.3838e-05 0.0019984 0.0011671 -0.0009805 0.13981 0.23738
-0.0084686 -0.015726 0.001002 0.00053746
0.0015784 0.0025867 0.0019556 0.0007046 0.00070259 -0.00034797 -0.0084894 -0.015735
0.059085 0.21824 -0.0035656 -0.013279
0.0016029 -0.0014201 0.0013796 0.00083151 0.00023398 0.00024265 0.0010361 0.00052473
-0.0035911 -0.013257 0.075939 0.31596
1400000000 0.25207 0.19536 -0.023247 -0.0068812 0.0053685 0.0031217 -0.0021641 0.00072681
0.0024535 0.00089905 0.00022199 -0.0014285
-0.023215 -0.0069022 0.080692 0.35949 -0.014805 0.012485 0.0013449 0.0013037
0.001192 -0.00089819 0.0012097 0.00019603
0.0053812 0.0030839 -0.014755 0.01257 0.35229 0.06039 4.098e-05 -0.0016634
4.227e-05 -0.00038817 0.00040394 0.00024894
-0.0021978 0.00072934 0.0013464 0.0013052 3.9278e-05 -0.0016764 0.16954 0.20854
-0.014172 -0.0092362 -0.00066078 -0.0003502
0.0024642 0.00085732 0.0011864 -0.00090406 3.2332e-05 -0.00039162 -0.014225 -0.00921
0.092238 0.21429 -0.01014 -0.0086138
0.00018378 -0.0014062 0.0012368 0.00019967 0.00041141 0.00021609 -0.00067291 -0.00035034
-0.010115 -0.0086399 0.12079 0.30498
1460000000 0.27449 0.15113 -0.02003 0.0051485 0.0056883 -0.0019317 -0.0015295 0.0018164
0.0021241 -0.0005786 -0.00039414 -0.00098237
-0.020017 0.0051242 0.11483 0.33764 -0.0061424 0.015423 0.001741 0.00015464
0.00077782 -0.0012883 0.0011226 -0.00055321
0.0056657 -0.0019421 -0.0060652 0.015472 0.35818 0.0062526 -0.0012283 -0.001189
0.00025621 -0.00018148 0.00055823 -0.00037011
-0.0015159 0.0018196 0.0017512 0.00013285 -0.0012295 -0.001185 0.1962 0.17939
-0.015039 -0.0026422 -0.0009001 0.0018591
0.002108 -0.00056138 0.00078386 -0.0012827 0.00024253 -0.00018211 -0.015066 -0.0026099
0.12187 0.20017 -0.011738 -0.0027152
-0.00041144 -0.00097793 0.0011102 -0.00053791 0.0005871 -0.00035221 -0.00090169 0.0019157
-0.011686 -0.0027068 0.15399 0.28403
1520000000 0.28648 0.10923 -0.014184 0.010449 0.0032846 -0.0043357 0.0001504 0.0026148
0.0020017 -0.0017094 -0.0011514 -6.5792e-05
-0.014181 0.010438 0.14843 0.32288 0.0016109 0.013169 0.0016298 -0.00081628
-4.8049e-05 -0.00098753 0.00034366 -0.0010006
0.0032848 -0.0043456 0.0016895 0.013163 0.35152 -0.049907 -0.0011454 -0.00036271
0.00067131 -0.00088923 3.778e-05 -9.4568e-05
0.00016503 0.002624 0.0016262 -0.00082977 -0.0011644 -0.00036429 0.21966 0.14143
-0.01425 0.0028357 0.0013814 0.0019914
0.0019948 -0.0017769 -5.693e-05 -0.00099661 0.00066544 -0.00090439 -0.014261 0.0028846
0.15003 0.18634 -0.011563 0.00169
-0.0011271 -6.7549e-05 0.00033512 -0.0010315 3.2914e-05 -6.7126e-05 0.0013969 0.0019973
-0.011587 0.0017023 0.18724 0.26364
1580000000 0.29538 0.062854 -0.0075721 0.013234 -0.00083317 -0.0049085 0.0015022 0.0018442
-0.00033214 -0.0021145 -0.00036183 0.00036956
-0.0075722 0.013221 0.17572 0.29793 0.0053109 0.0083382 0.00043013 -0.0015978
-0.00048174 -0.0010006 -0.00022122 -0.00093377
-0.00084893 -0.0049029 0.0053579 0.0083119 0.33151 -0.1075 -0.0014971 0.00066233
-0.00021981 -0.0011426 0.00019695 -0.00056853
0.0015497 0.0018681 0.00042553 -0.0016008 -0.0015037 0.00065949 0.23396 0.10185
-0.010703 0.0075862 0.0022709 0.00065607
-0.00030686 -0.0020977 -0.00048426 -0.0009961 -0.00021361 -0.0011435 -0.010703 0.0076301
0.1747 0.16827 -0.0089545 0.0073511
-0.00033925 0.00039125 -0.00023389 -0.00092647 0.00021967 -0.00055091 0.0022496 0.00061932
-0.0089824 0.0073152 0.21942 0.23647
1640000000 0.29696 0.021658 -0.001064 0.01195 -0.0028657 -0.0027176 0.002712 0.00096064
-0.00080186 -0.0014741 -0.00024295 0.00057673
-0.0010688 0.011948 0.2051 0.27288 0.006008 0.00351 -0.00069154 -0.0017311
-0.00095111 -0.00040547 -0.00051592 -0.00073255
-0.0028759 -0.0027087 0.0060322 0.0034811 0.3032 -0.15646 -0.00068961 0.001428
-0.0011949 -0.00088133 -0.00024721 -0.00031761
0.0026972 0.0009119 -0.00071241 -0.0017277 -0.00069606 0.0014296 0.24612 0.052835
-0.0065419 0.0084092 0.0023979 -0.00072795
-0.00080311 -0.0014772 -0.00094306 -0.00039293 -0.0012059 -0.00086755 -0.0065197 0.0084537
0.19775 0.14352 -0.0044776 0.0092274
-0.00029034 0.00056529 -0.00053637 -0.00072169 -0.00023928 -0.00035565 0.0024398 -0.00074017
-0.0045028 0.0092154 0.24493 0.20552
1700000000 0.28959 -0.023617 0.0021872 0.0090797 -0.0035896 3.3471e-05 0.0029398 -0.0013421
-0.00193 -0.00066931 0.00062658 0.00038849
0.0021756 0.009066 0.22325 0.24117 0.0040247 0.00043858 -0.0014913 -0.00060961
-0.00072676 -4.0893e-05 -0.0010185 -0.00048762
-0.0036122 4.5541e-05 0.0040351 0.00041069 0.26017 -0.19646 0.00040297 0.0015061
-0.0019352 -0.00022032 -0.00044776 -0.00087156
0.0029388 -0.0013421 -0.0014946 -0.00060049 0.00040044 0.0015034 0.24308 0.003064
-0.0039982 0.0088238 0.0016347 -0.0022605
-0.0019314 -0.00064751 -0.00072103 -3.3455e-05 -0.0019253 -0.00020956 -0.0039588 0.0088411
0.21525 0.12302 0.0001797 0.0095232
0.00062459 0.00039683 -0.0010111 -0.00048016 -0.00045667 -0.0009122 0.0016039 -0.0022962
0.00018782 0.0095395 0.26141 0.17072
1760000000 0.27699 -0.071925 0.0042426 0.0057925 -0.0023937 0.00088797 0.0011575 -0.0034227
-0.001391 0.00066704 0.00045968 -0.00051565
0.0042403 0.0057901 0.249 0.20112 0.0017176 -0.0014271 -0.0011957 0.00017968
-0.0011004 0.00078911 -0.00058872 0.00045111
-0.0023971 0.00092027 0.0017167 -0.0014392 0.21161 -0.23039 0.0012335 0.0010106
-0.0010643 0.0015185 -0.0012354 -0.00044853
0.0011457 -0.0034366 -0.0012093 0.00019515 0.0012357 0.0010092 0.23365 -0.048587
-0.00091303 0.00789 -0.00045279 -0.0025637
-0.0013771 0.00067596 -0.0010845 0.00079724 -0.0010733 0.001509 -0.00088781 0.0079
0.22996 0.087452 0.0041668 0.0068396
0.00041265 -0.00051854 -0.00060953 0.00045957 -0.0012666 -0.00043364 -0.00043114 -0.0025353
0.0041522 0.0067755 0.2737 0.13297
1820000000 0.25218 -0.10884 0.0042732 0.0023745 -0.00025633 0.0025903 -0.0011116 -0.0030257
-0.001069 0.00084626 -9.447e-05 -0.00022196
0.0042786 0.0023877 0.25882 0.17101 -0.00044975 -0.00018456 -0.0013609 0.00089793
-0.00013677 0.001272 -0.00058865 0.00059739
-0.00022245 0.0025841 -0.00043294 -0.00017603 0.16058 -0.24547 0.0013943 0.00039968
-0.00029491 0.0022243 -0.0013947 0.00049953
-0.0011126 -0.0030198 -0.0013467 0.00091365 0.0013836 0.00041946 0.20364 -0.095435
0.00014805 0.0062573 -0.001677 -0.0014532
-0.0010738 0.00086843 -0.00010527 0.0012634 -0.0002897 0.0022207 0.000172 0.0062625
0.24658 0.057914 0.0049393 0.0033108
-9.5431e-05 -0.00016895 -0.00058145 0.00062304 -0.0014281 0.0004576 -0.0017104 -0.0015055
0.0049424 0.0033256 0.27626 0.096626
1880000000 0.21697 -0.14908 0.0020916 0.00017476 -0.00036691 0.002295 -0.0029651 -0.0020679
-0.00021194 0.0016249 0.00022936 -0.00046284
0.0020762 0.00019078 0.26303 0.12428 -0.0024957 0.0015693 -0.00012689 0.0017019
0.00056936 0.001307 0.00016147 0.00096498
-0.0003796 0.0022971 -0.0024913 0.0015944 0.10814 -0.25534 0.0018406 -0.00092611
0.0014309 0.0019885 -0.00093718 0.0013147
-0.0029356 -0.0020681 -0.00011783 0.0017173 0.001839 -0.0009423 0.16309 -0.13558
0.00080367 0.0044671 -0.0024312 0.00028553
-0.00016188 0.0016438 0.00058881 0.0013093 0.0014307 0.0019701 0.00082372 0.0044802
0.249 0.024952 0.0049734 0.0012251
0.0002132 -0.00051683 0.00016647 0.0009532 -0.0010041 0.0013018 -0.0025082 0.00027034
0.0049159 0.0011585 0.27533 0.062491
1940000000 0.1775 -0.17443 -0.00014221 -0.0013121 0.0015404 0.0021221 -0.0037842 0.00057064
0.001276 0.0010181 -0.00064945 -0.00051554
-0.0001482 -0.0013003 0.26319 0.092616 -0.0013157 0.0039714 0.00095056 0.0012604
0.001896 0.00049188 0.00088648 0.00036216
0.0015442 0.0020755 -0.001265 0.003967 0.062633 -0.24856 0.00035131 -0.0021663
0.0024258 0.00037389 0.00046689 0.0016997
-0.0037842 0.00060394 0.00096306 0.0012487 0.00035765 -0.0021371 0.11058 -0.1653
-0.00047595 0.0035223 -0.0014498 0.0017738
0.0012994 0.0010369 0.0019096 0.00048508 0.0024406 0.00038621 -0.00045322 0.0035201
0.25016 -0.014028 0.0034998 -0.002264
-0.00067488 -0.00049067 0.00092188 0.00034235 0.00043767 0.0016458 -0.0014025 0.0016851
0.0035903 -0.0022079 0.2644 0.026508
2000000000 0.13126 -0.189 -0.003948 0.00083544 0.0026079 0.001568 -0.0023178 0.0035816
0.0010579 0.00022918 -0.00048139 0.0006195
-0.0039336 0.0008294 0.24887 0.057237 -0.00094496 0.0059609 0.0016633 0.00034829
0.0014234 -0.0013219 0.00046191 0.00010843
0.0026385 0.0015179 -0.00090213 0.0059555 0.018757 -0.23391 -0.0013054 -0.0015092
0.002108 -0.0012442 0.0015132 0.0011295
-0.0022555 0.0035541 0.0016633 0.00031746 -0.0013442 -0.0015307 0.057855 -0.17508
-0.0017022 0.0038897 -7.7125e-05 0.0022544
0.0011051 0.00021993 0.0013975 -0.0013421 0.0020787 -0.0012778 -0.0017118 0.0039078
0.24369 -0.047464 0.0003411 -0.0029994
