!Keysight Technologies,M9804A,MY58100912,A.14.10.03
!Date: Thursday, April 27, 2023 10:28:33
!Correction: S11(C  6-Port  ) 
!S12(C  6-Port  ) 
!S13(C  6-Port  ) 
!S14(C  6-Port  ) 
!S15(C  6-Port  ) 
!S16(C  6-Port  ) 
!S21(C  6-Port  ) 
!S22(C  6-Port  ) 
!S23(C  6-Port  ) 
!S24(C  6-Port  ) 
!S25(C  6-Port  ) 
!S26(C  6-Port  ) 
!S31(C  6-Port  ) 
!S32(C  6-Port  ) 
!S33(C  6-Port  ) 
!S34(C  6-Port  ) 
!S35(C  6-Port  ) 
!S36(C  6-Port  ) 
!S41(C  6-Port  ) 
!S42(C  6-Port  ) 
!S43(C  6-Port  ) 
!S44(C  6-Port  ) 
!S45(C  6-Port  ) 
!S46(C  6-Port  ) 
!S51(C  6-Port  ) 
!S52(C  6-Port  ) 
!S53(C  6-Port  ) 
!S54(C  6-Port  ) 
!S55(C  6-Port  ) 
!S56(C  6-Port  ) 
!S61(C  6-Port  ) 
!S62(C  6-Port  ) 
!S63(C  6-Port  ) 
!S64(C  6-Port  ) 
!S65(C  6-Port  ) 
!S66(C  6-Port  ) 
!S6P File: Measurement: :
# Hz S  RI   R 50
500000000 -0.3369 -0.03899 -0.0095372 -0.0028677 -0.0082053 0.013354 -0.0037191 0.011585
0.013929 0.003675 -0.0040824 0.008244
-0.0095181 -0.0028821 -0.41817 -0.051582 0.0076024 -0.010701 0.0015714 0.01177
0.0079815 0.0024018 0.0019195 0.013071
-0.0082104 0.013369 0.0076194 -0.010704 -0.2664 0.21017 0.0075063 0.0034924
-0.0011934 0.0086637 0.0016162 0.01217
-0.0041679 0.01164 0.0014337 0.011928 0.0073425 0.0034143 -0.33097 0.044144
-0.019608 -0.0061679 0.015961 0.02544
0.01414 0.0032385 0.0079257 0.0023711 -0.0012612 0.008564 -0.019622 -0.0062161
-0.22619 -0.19278 -0.026785 0.0047387
-0.0044263 0.0082545 0.0018534 0.013294 0.0013959 0.012191 0.015901 0.025392
-0.026716 0.0047623 -0.26836 -0.12721
560000000 -0.31842 0.12519 -0.023985 -0.062619 -0.00053841 0.012942 0.0055343 0.01071
0.009945 0.0061859 0.0099805 0.0079589
-0.024022 -0.062455 -0.37626 0.10753 -0.04122 -0.036395 0.013859 0.0036374
-0.013737 -0.0045999 0.0042791 0.00097071
-0.00049063 0.012824 -0.041414 -0.036344 -0.1837 0.25834 -0.00035739 -0.0042316
0.019537 0.0058008 0.0061561 -0.0060401
0.0059619 0.011001 0.013863 0.003509 -7.2551e-05 -0.0043442 -0.30591 0.13447
0.004708 -0.024166 0.0053672 -0.021201
0.010338 0.0059519 -0.013633 -0.0044998 0.019558 0.0055365 0.0047741 -0.024157
-0.29086 -0.018223 0.0082933 -0.049934
0.010059 0.0077844 0.0040197 0.0010807 0.0062189 -0.0062742 0.0053516 -0.021252
0.0081987 -0.04993 -0.32935 0.021177
620000000 -0.2757 0.10772 -0.023271 0.0083675 0.0033767 0.008732 0.008151 -0.0047588
0.011125 -0.0012476 0.00057271 -0.0021388
-0.023268 0.0083757 -0.4028 0.060403 -0.018577 0.00042995 -0.0016711 -0.0019441
0.011647 -0.0067384 0.0014889 -0.0029283
0.0034061 0.0086874 -0.018638 0.00051255 -0.1536 0.26746 -0.00086544 -0.0052183
-0.0036497 -0.0033796 0.0091542 -0.0030776
0.0081091 -0.0050961 -0.0017046 -0.0019915 -0.00099147 -0.0051919 -0.26472 0.14365
-0.038248 -0.018831 0.01188 0.025067
0.011334 -0.00081327 0.011789 -0.0068224 -0.0032716 -0.0034652 -0.038274 -0.018749
-0.20811 -0.054793 -0.040918 0.014076
0.00079993 -0.0027269 0.0017166 -0.0028953 0.0092627 -0.0030928 0.012021 0.024986
-0.040956 0.014063 -0.25269 -0.015559
680000000 -0.23399 0.19367 -0.026876 -0.013909 0.0055287 0.0048153 0.0014278 -0.006376
-0.0027016 -0.011526 0.0051886 -0.0065123
-0.026834 -0.013913 -0.38748 0.15803 -0.03233 -0.0013456 -0.0016183 -5.1347e-05
-0.0019294 -0.0092012 -0.0014078 -0.0022641
0.0055672 0.0048353 -0.032348 -0.0012612 -0.10176 0.28669 -0.00086919 -3.5121e-05
-0.0018415 0.00022742 -0.0029248 -0.0093167
0.0017157 -0.0065004 -0.0015816 -0.00010391 -0.00089708 -0.00016499 -0.22113 0.19498
-0.023255 -0.0067299 -0.009113 -0.0098734
-0.0026631 -0.011639 -0.0019105 -0.0092065 -0.0018105 0.00025914 -0.023267 -0.0067281
-0.25945 0.043043 -0.0052064 -0.0086612
0.0053692 -0.0064564 -0.0012879 -0.0022761 -0.0029513 -0.0094417 -0.0092015 -0.0098649
-0.005172 -0.0085788 -0.25845 0.091741
740000000 -0.18968 0.18787 -0.038072 0.026868 0.012884 -0.0052135 -0.00051869 -0.0040996
-0.004148 -0.0026605 -0.0063735 0.0022992
-0.037991 0.026833 -0.33453 0.17724 -0.035102 0.034902 -0.00060391 -0.0064174
-0.011397 0.0074895 -0.0018579 -0.0062656
0.012865 -0.0052377 -0.035015 0.035063 -0.068146 0.28488 -0.001933 0.0033496
-0.0027198 -0.0046666 -0.0017256 0.00092221
-0.00048508 -0.0039525 -0.00047269 -0.0062409 -0.0019997 0.0034305 -0.20323 0.20235
-0.043471 -0.0064339 0.023137 0.014465
-0.0043844 -0.002655 -0.011396 0.0073523 -0.0027657 -0.0046792 -0.043506 -0.0063733
-0.16082 0.069836 -0.043095 0.0011065
-0.0062071 0.0026102 -0.0018769 -0.0059745 -0.0016782 0.0010175 0.023181 0.014414
-0.043129 0.0010816 -0.24818 0.096948
800000000 -0.15699 0.22861 -0.022303 0.01672 0.0051204 -0.01055 -0.004889 -0.0016886
-0.0041537 0.0030951 0.0041424 0.001068
-0.022304 0.016686 -0.33774 0.2466 -0.0078924 0.033869 -0.0025008 0.002412
-0.00087455 0.0035589 0.0010137 0.0056121
0.0050907 -0.010602 -0.0077885 0.033897 -0.027596 0.3078 0.0010446 0.0016497
0.00055658 0.0037625 -0.0017198 0.00078049
-0.0048421 -0.0019186 -0.0025565 0.0022556 0.00097488 0.001489 -0.17483 0.23023
-0.028129 0.014234 0.013458 -0.0099486
-0.0041344 0.0030211 -0.0010581 0.0035472 0.00047729 0.0038001 -0.028149 0.014317
-0.20548 0.09451 -0.016887 0.019506
0.003766 0.00087081 0.00067883 0.0055157 -0.0019504 0.00071486 0.013339 -0.0099196
-0.016944 0.019554 -0.24173 0.14723
860000000 -0.12254 0.24795 -0.017368 0.030637 -0.0033349 -0.0099528 -0.0026309 0.00068698
0.0040687 0.0048032 -0.0038747 -0.0025782
-0.017361 0.030615 -0.29042 0.2886 0.0078227 0.033972 3.3691e-05 0.0019747
0.0043321 0.00023545 0.0032535 0.0008586
-0.0033658 -0.0099431 0.0079481 0.033963 0.020396 0.31556 -0.00057258 -0.00020946
0.0028927 -0.0014452 0.0014582 0.0043776
-0.002637 0.00084998 0.00013503 0.0019068 -0.00055949 -0.00018035 -0.13874 0.24034
-0.01793 0.018154 -0.0060998 -0.0091702
0.0039093 0.0048975 0.0043136 0.0001066 0.0028747 -0.0014706 -0.017956 0.018168
-0.15482 0.14403 -0.025286 0.015729
-0.0036125 -0.0027929 0.0031565 0.00061258 0.0014846 0.0042929 -0.0060308 -0.0092262
-0.025237 0.015667 -0.1906 0.19105
920000000 -0.097286 0.27083 0.0052318 0.037705 -0.0093048 -0.0045153 -0.0017417 0.0020587
0.0012776 0.0020573 0.0027905 -0.0015104
0.005217 0.03768 -0.2612 0.30952 0.02802 0.021825 0.0013621 0.0010702
0.0072872 -1.0917e-05 0.0039109 -0.0029217
-0.0093242 -0.004502 0.028124 0.02176 0.066446 0.31629 0.0018903 -9.6798e-05
0.0011344 -0.00022809 0.00082302 -0.0012169
-0.0018071 0.0021162 0.0015158 0.0010282 0.0018885 -5.5403e-05 -0.11475 0.2581
-0.010187 0.030304 0.00342 -0.0065977
0.0010951 0.001899 0.0072605 -2.8116e-05 0.0011451 -0.00032008 -0.010102 0.030366
-0.14328 0.14987 -0.0025109 0.027398
0.002969 -0.0015585 0.004015 -0.0030558 0.00084828 -0.0012051 0.0033737 -0.0065327
-0.0025404 0.027418 -0.19851 0.20562
980000000 -0.050664 0.2897 0.017466 0.029579 -0.0090362 0.0045196 0.0019256 0.0033795
0.0038431 -0.0016167 -0.0033002 -0.0023503
0.017439 0.029583 -0.20861 0.34304 0.032944 0.0046884 0.0018957 -0.00019665
0.0014839 -0.0062653 -0.00049542 -0.0023459
-0.0090252 0.0045317 0.033011 0.0045885 0.1127 0.30958 0.00047021 -0.0012805
0.00024695 -0.0022464 0.0013697 -0.00022231
0.0018673 0.0033798 0.0018992 -0.00015046 0.00046158 -0.0012715 -0.076499 0.26872
0.0080565 0.029673 -0.0088228 -0.0073283
0.0039158 -0.0016009 0.0014959 -0.0063818 0.00025154 -0.0022534 0.0081081 0.029668
-0.11361 0.17904 0.0052407 0.019384
-0.00343 -0.0021736 -0.00049267 -0.0022498 0.0013495 -0.00020434 -0.0088019 -0.0073437
0.005229 0.019313 -0.15553 0.2489
1040000000 -0.0085402 0.29816 0.033196 0.017687 -0.001334 0.0067839 0.0026495 0.00084744
6.5e-06 -0.0035176 -0.00029833 -0.0013952
0.03318 0.017698 -0.17297 0.35625 0.029222 -0.014898 0.0015187 -0.0017637
-0.0024679 -0.0025606 -0.0014173 -0.0027741
-0.001322 0.006787 0.029217 -0.014992 0.15874 0.29602 -0.00053393 -0.0014683
-0.0016004 -0.00084644 -0.00061194 -0.0011134
0.0025595 0.00078944 0.0015202 -0.0017227 -0.00052226 -0.0015026 -0.049192 0.27909
0.019226 0.017636 -0.0023961 0.0014541
-0.00010185 -0.003479 -0.0024732 -0.0024843 -0.0015945 -0.00085874 0.019284 0.017615
-0.080982 0.18567 0.013457 0.018359
-0.00028348 -0.0014513 -0.0014231 -0.0026494 -0.0006371 -0.0011494 -0.0023758 0.001479
0.013448 0.018373 -0.13414 0.27077
1100000000 0.036827 0.30585 0.035569 -0.004633 0.002791 0.0038417 0.0023575 -0.001253
-0.0020934 -0.0030569 -0.0040911 0.00027206
0.03555 -0.0046036 -0.12988 0.37331 0.015046 -0.027866 -3.2294e-05 -0.0018703
-0.0035096 -0.00076774 -0.0036612 -0.00034891
0.0028103 0.0038163 0.014957 -0.027947 0.20515 0.27556 -0.0018977 0.00024058
-0.0017831 0.00059104 -0.0011233 -0.00020238
0.0023447 -0.0012458 -4.2369e-05 -0.0018554 -0.0019006 0.00024263 -0.0090122 0.28406
0.024248 0.0047209 -0.002554 7.3048e-05
-0.0020726 -0.0031179 -0.0035061 -0.00073809 -0.0017758 0.00062671 0.024266 0.0046677
-0.063448 0.19948 0.01918 0.0086539
-0.0041334 0.0003859 -0.0036854 -0.00026802 -0.0010895 -0.00019702 -0.0025397 8.775e-05
0.019172 0.0086206 -0.088302 0.29941
1160000000 0.088002 0.30088 0.023558 -0.020985 0.0025211 -0.00044147 -7.2687e-05 -0.002318
-0.0041535 -0.00064753 -0.00095702 0.0041405
0.023569 -0.020942 -0.08646 0.37767 -0.0039097 -0.029033 -0.0017548 -0.0017371
-0.0026716 0.0025923 -0.0013808 0.0018758
0.0025072 -0.00046683 -0.0040365 -0.029028 0.24806 0.2447 -0.00074116 0.0017932
-0.00043094 0.0020065 -0.0008376 0.00028635
-9.5311e-05 -0.0023654 -0.0017811 -0.0017747 -0.00073717 0.0017501 0.02996 0.28151
0.020401 -0.01058 -0.0030522 0.0051595
-0.0041589 -0.00060994 -0.0026876 0.0025663 -0.00044201 0.0020019 0.020393 -0.010601
-0.029985 0.20851 0.018064 0.0003677
-0.00097366 0.0040313 -0.0014671 0.0019179 -0.0008918 0.00028815 -0.0030395 0.0051308
0.018041 0.00034823 -0.041628 0.30231
1220000000 0.13241 0.28985 0.0099216 -0.030027 -0.0016336 -0.0006932 2.3129e-05 -0.00092509
-0.0026734 0.0024476 0.0013267 0.0020776
0.0099392 -0.029984 -0.042031 0.38967 -0.016974 -0.02109 -0.0025433 0.00048258
0.00011366 0.0030865 -0.00073602 0.0018317
-0.001624 -0.00069121 -0.017089 -0.021048 0.28716 0.20547 0.00081851 0.0016592
0.00070515 0.0012329 0.00028815 0.00067577
-3.1194e-05 -0.00089073 -0.0025403 0.00052356 0.00084109 0.0016536 0.069863 0.27335
0.0099171 -0.016986 0.0021502 0.001534
-0.0026579 0.0024629 0.00012968 0.0030984 0.00070112 0.0012335 0.0098895 -0.017014
-0.0072723 0.21771 0.013801 -0.013094
0.0013436 0.0021277 -0.00074941 0.0018798 0.00028195 0.00065033 0.0021479 0.001548
0.013822 -0.013089 -0.0096868 0.31899
1280000000 0.18209 0.26761 -0.0083887 -0.028258 -0.0018424 0.0027325 -0.00091954 -0.0020875
-0.00069159 0.0030598 0.0025606 0.0011206
-0.0083685 -0.028254 0.0038862 0.38077 -0.023803 -0.0084599 -0.0010595 0.0014469
0.0018236 0.0018132 0.00064883 0.0020318
-0.0018262 0.002746 -0.023878 -0.0083549 0.31751 0.16133 0.0015479 -8.5848e-05
0.0011745 0.00014237 0.00037199 0.00023354
-0.00094544 -0.0020912 -0.0010363 0.0014468 0.0015186 -8.8715e-05 0.10677 0.25731
0.00059252 -0.018694 -8.9547e-05 0.00026154
-0.00065714 0.0030545 0.0018128 0.0018043 0.0011624 0.00013235 0.0005483 -0.018713
0.028851 0.22206 0.0028036 -0.015086
0.0025075 0.0011055 0.0006229 0.0020164 0.00037832 0.00026294 -7.2376e-05 0.00024812
0.0027948 -0.015091 0.037644 0.32107
1340000000 0.2192 0.2337 -0.017909 -0.018429 0.00097643 0.0045236 -0.0018186 -0.00085945
0.0015925 0.0025696 0.0016652 -0.0013487
-0.017875 -0.018427 0.043286 0.37259 -0.021654 0.0043873 -7.2421e-05 0.0019931
0.0019688 0.00072201 0.0013583 0.00084119
0.00099919 0.0045088 -0.021668 0.0044894 0.33916 0.11369 0.0011554 -0.00097576
0.00070048 -0.00037116 0.00021142 0.0002662
-0.0017818 -0.00081968 -3.5013e-05 0.0019969 0.0011479 -0.00098327 0.13961 0.23745
-0.0085548 -0.015787 0.0010138 0.00060192
0.0016024 0.0025949 0.0019872 0.00071505 0.00070928 -0.00035968 -0.0085908 -0.015774
0.058719 0.21784 -0.0037484 -0.013545
0.0016404 -0.0014065 0.0013723 0.00082779 0.00020834 0.00027208 0.00099744 0.00059058
-0.0037376 -0.013528 0.075941 0.31592
1400000000 0.25213 0.19529 -0.023313 -0.0068935 0.0053487 0.0031161 -0.0021535 0.00073072
0.0024889 0.00089257 0.0002246 -0.0014315
-0.023281 -0.0069131 0.080603 0.35943 -0.014862 0.012451 0.0013347 0.0013048
0.0012419 -0.00091939 0.0012715 0.00018997
0.005371 0.0031035 -0.014817 0.012541 0.35232 0.060429 -1.4194e-05 -0.00166
7.7267e-05 -0.0004098 0.00046683 0.0002628
-0.0021859 0.00070457 0.0013182 0.0013203 -1.6189e-06 -0.0016504 0.16944 0.20863
-0.014311 -0.0092289 -0.00073323 -0.00028667
0.0024612 0.00085325 0.0012287 -0.00092978 8.065e-05 -0.00039907 -0.014335 -0.0092164
0.091746 0.21417 -0.010423 -0.0087522
0.00021201 -0.0014305 0.0012549 0.00021068 0.00043989 0.00028363 -0.00069209 -0.00027502
-0.010427 -0.0087814 0.12069 0.30491
1460000000 0.27448 0.15104 -0.020096 0.0051579 0.0056651 -0.0019401 -0.0015629 0.0018152
0.0021168 -0.00055162 -0.00041268 -0.00099501
-0.020085 0.0051385 0.11476 0.33761 -0.0061903 0.015432 0.0017504 0.00015276
0.00080542 -0.0013111 0.0011357 -0.00053244
0.0056578 -0.0019674 -0.0061068 0.015476 0.35821 0.0063002 -0.0012337 -0.0011833
0.00027124 -0.0001824 0.000539 -0.00037896
-0.0015321 0.0018499 0.0017396 0.00012628 -0.0012481 -0.0011931 0.19612 0.17952
-0.015183 -0.0025769 -0.00092935 0.0019907
0.0021118 -0.0005786 0.00079489 -0.0013161 0.00025166 -0.00018149 -0.0152 -0.0025232
0.12139 0.2002 -0.011974 -0.0026697
-0.00039813 -0.0010038 0.0010796 -0.00055531 0.00058344 -0.00039353 -0.00088635 0.0019772
-0.011972 -0.0026512 0.15389 0.284
1520000000 0.28639 0.10918 -0.014222 0.010501 0.0032943 -0.0043168 0.00015556 0.0026271
0.0020114 -0.0017586 -0.0011527 -0.00010687
-0.014227 0.010477 0.1483 0.32283 0.0015863 0.013196 0.0016221 -0.0008189
-5.8495e-05 -0.0010028 0.00032636 -0.0010304
0.0032759 -0.004334 0.0016704 0.013208 0.35152 -0.049846 -0.0011746 -0.00034273
0.00066866 -0.00088835 2.9695e-05 -7.02e-05
0.00016391 0.0026156 0.0016337 -0.00082731 -0.0011586 -0.00034687 0.21963 0.14165
-0.014284 0.003012 0.0015097 0.0020584
0.0020223 -0.001772 -7.5191e-05 -0.001018 0.00064901 -0.00089792 -0.014281 0.0030501
0.14959 0.1865 -0.011805 0.0018301
-0.0011645 -6.2624e-05 0.00033572 -0.0010308 2.6538e-05 -8.1879e-05 0.0014941 0.0020752
-0.011798 0.0018006 0.1871 0.26352
1580000000 0.29527 0.062836 -0.0075541 0.013301 -0.00082283 -0.0048982 0.0015393 0.0018865
-0.00030243 -0.0021149 -0.00034245 0.00036976
-0.0075714 0.0133 0.17561 0.29797 0.0053154 0.0083707 0.00044299 -0.0016126
-0.00050787 -0.0009935 -0.0002483 -0.00090541
-0.00083673 -0.0048811 0.0053626 0.0083527 0.33153 -0.1075 -0.0014934 0.00065794
-0.00024863 -0.0011469 0.00018281 -0.00055431
0.0015571 0.001877 0.00042014 -0.0016137 -0.0015098 0.00066843 0.23398 0.102
-0.010714 0.0077323 0.0023155 0.00065543
-0.00032912 -0.0021077 -0.00052344 -0.00098385 -0.00024616 -0.0011402 -0.010706 0.007757
0.17434 0.16856 -0.0090869 0.0075807
-0.00036495 0.00037409 -0.0002418 -0.00091718 0.00020581 -0.00055674 0.0023378 0.00063309
-0.0090893 0.0075997 0.21927 0.23654
1640000000 0.29682 0.021693 -0.0010268 0.011994 -0.0028494 -0.0026986 0.0027002 0.00095171
-0.00080758 -0.0014962 -0.00030603 0.00056718
-0.0010295 0.011994 0.20501 0.27292 0.0060387 0.0035558 -0.00070207 -0.0017214
-0.00093929 -0.00036979 -0.00053375 -0.0007105
-0.0028671 -0.0026944 0.0060607 0.0035188 0.30326 -0.1564 -0.0006861 0.0014289
-0.00123 -0.00087815 -0.00023983 -0.00032879
0.0027058 0.00092019 -0.00070132 -0.0017435 -0.00070467 0.0014386 0.24619 0.052939
-0.0064423 0.0085453 0.0025707 -0.00074009
-0.00081631 -0.0015077 -0.00093988 -0.00037034 -0.0012171 -0.00087147 -0.0064033 0.0085703
0.1976 0.14398 -0.0045248 0.0094788
-0.00027206 0.00059616 -0.0005396 -0.00071455 -0.00025659 -0.00032227 0.0025204 -0.00075849
-0.0045128 0.0094515 0.24474 0.20545
1700000000 0.2895 -0.023507 0.0022293 0.0090925 -0.0035971 2.2961e-05 0.0029563 -0.0013402
-0.0019406 -0.00064443 0.00063182 0.00043735
0.0022289 0.0090932 0.22317 0.24125 0.0040722 0.00043585 -0.0014974 -0.00060593
-0.00069722 -1.9375e-05 -0.00099594 -0.00049855
-0.0035933 4.3125e-05 0.0040793 0.00041033 0.26028 -0.19648 0.00040187 0.0015022
-0.0019196 -0.00020317 -0.00044805 -0.00094017
0.0029642 -0.0013417 -0.0015032 -0.00061309 0.00040857 0.0015097 0.24319 0.0030955
-0.0038685 0.0088736 0.0015425 -0.0024542
-0.0019517 -0.00063847 -0.00069672 -2.2023e-05 -0.0019066 -0.00020564 -0.0038517 0.0088799
0.2152 0.12344 0.0003284 0.0097481
0.00062577 0.0003884 -0.00099951 -0.00048478 -0.00045554 -0.00093927 0.001621 -0.0024381
0.00032581 0.0097547 0.26112 0.171
1760000000 0.27695 -0.0718 0.0042992 0.0057749 -0.0023909 0.00088954 0.0011246 -0.0033964
-0.0013938 0.00068077 0.00045992 -0.00053126
0.0042949 0.0057849 0.24897 0.20123 0.0017451 -0.0014423 -0.0012108 0.00018491
-0.001054 0.00076919 -0.00061114 0.00046158
-0.0023838 0.00089786 0.0017446 -0.0014616 0.21166 -0.23038 0.0011879 0.0009661
-0.0010633 0.0015035 -0.0012488 -0.00041224
0.0011423 -0.0034412 -0.001214 0.0001844 0.0012166 0.001015 0.2337 -0.048638
-0.00080522 0.0078587 -0.00032532 -0.0025379
-0.0013829 0.00068722 -0.0010564 0.00077857 -0.0010556 0.0015323 -0.00078712 0.0078754
0.23 0.087895 0.0043184 0.0069479
0.00043538 -0.0005222 -0.00059525 0.00046767 -0.0012629 -0.00046746 -0.00041887 -0.0025389
0.0043512 0.0069519 0.27366 0.13297
1820000000 0.2522 -0.1087 0.0043173 0.0023562 -0.00024127 0.0025523 -0.001069 -0.0030133
-0.0010399 0.00088409 -0.00011051 -0.00020062
0.004312 0.0023557 0.25881 0.1711 -0.00041266 -0.00020677 -0.0013297 0.00093569
-0.00010641 0.0012376 -0.00054104 0.00059428
-0.00022822 0.0025582 -0.00039871 -0.00018475 0.16059 -0.24553 0.0013813 0.0004922
-0.0002645 0.0022101 -0.0013873 0.00044353
-0.0010936 -0.0030061 -0.0013133 0.00092868 0.0013888 0.00046388 0.20374 -0.095431
0.00028293 0.0061458 -0.0017599 -0.001667
-0.0010516 0.00087682 -8.6657e-05 0.0012499 -0.00026082 0.0022334 0.00031266 0.0061384
0.24675 0.058179 0.0051961 0.0033932
-7.9866e-05 -0.00020659 -0.00059505 0.00060959 -0.0014215 0.00049656 -0.001731 -0.0016205
0.005164 0.003378 0.27602 0.09686
1880000000 0.21701 -0.14896 0.0021001 0.00013647 -0.0003974 0.002286 -0.0029962 -0.0020819
-0.0001923 0.0016381 0.00023931 -0.00056844
0.0020999 0.00013171 0.26306 0.12435 -0.0024984 0.0015529 -0.0001217 0.0016973
0.00053932 0.0013052 0.0001248 0.00094859
-0.00040968 0.0022954 -0.0024894 0.0015663 0.10808 -0.25542 0.0018588 -0.000903
0.0014349 0.0019658 -0.00094147 0.0013735
-0.0029861 -0.002065 -9.4574e-05 0.0017119 0.0018418 -0.00092304 0.16319 -0.13548
0.00093108 0.0044171 -0.0025742 0.00035618
-0.00015155 0.0016249 0.00055839 0.0013007 0.0014095 0.0019585 0.00095147 0.0044437
0.24927 0.025202 0.0051177 0.0011515
0.00019162 -0.00052904 0.00017905 0.00095175 -0.000939 0.0013259 -0.0025037 0.00028471
0.0051731 0.0011765 0.27548 0.062614
1940000000 0.17759 -0.1743 -0.00014783 -0.0013488 0.0014982 0.0020829 -0.0038014 0.00056569
0.0012734 0.0010128 -0.00063275 -0.00041981
-0.00015094 -0.0013588 0.26322 0.092618 -0.0012959 0.0039411 0.00098235 0.0012438
0.001865 0.00053538 0.00091745 0.00036801
0.0015131 0.0020673 -0.0012812 0.0039393 0.062577 -0.24855 0.00040688 -0.0021357
0.0024832 0.00040906 0.00043473 0.0016212
-0.0037935 0.00060191 0.0010066 0.0012667 0.00042263 -0.0021112 0.11043 -0.16534
-0.00047409 0.0033622 -0.0014842 0.0015895
0.0012882 0.0010037 0.0019045 0.00051692 0.0024877 0.00040647 -0.00045193 0.0033537
0.25047 -0.014006 0.0037437 -0.0023421
-0.00070403 -0.00053288 0.0008997 0.000327 0.00045736 0.0016318 -0.0015084 0.0016938
0.0036911 -0.002359 0.26415 0.026606
2000000000 0.13134 -0.18897 -0.0039809 0.0007969 0.0026288 0.0015471 -0.0023438 0.0035817
0.0010921 0.00023914 -0.00051697 0.00052083
-0.0039801 0.00076669 0.24886 0.057221 -0.00096531 0.0059337 0.0016845 0.00031331
0.0014461 -0.0012878 0.0004235 9.5204e-05
0.002644 0.001546 -0.00092039 0.0059612 0.018641 -0.23387 -0.0013547 -0.0014884
0.0020693 -0.0012081 0.0015914 0.0012335
-0.0022665 0.0035814 0.0016566 0.0003164 -0.0013361 -0.0014584 0.057793 -0.17522
-0.0018367 0.0037416 -0.00027806 0.0024123
0.0011198 0.00022532 0.0014125 -0.0012887 0.0020894 -0.0011488 -0.0018261 0.0037805
