!Keysight Technologies,M9804A,MY58100912,A.14.10.03
!Date: Thursday, April 27, 2023 10:28:33
!Correction: S11(C  6-Port  ) 
!S12(C  6-Port  ) 
!S13(C  6-Port  ) 
!S14(C  6-Port  ) 
!S15(C  6-Port  ) 
!S16(C  6-Port  ) 
!S21(C  6-Port  ) 
!S22(C  6-Port  ) 
!S23(C  6-Port  ) 
!S24(C  6-Port  ) 
!S25(C  6-Port  ) 
!S26(C  6-Port  ) 
!S31(C  6-Port  ) 
!S32(C  6-Port  ) 
!S33(C  6-Port  ) 
!S34(C  6-Port  ) 
!S35(C  6-Port  ) 
!S36(C  6-Port  ) 
!S41(C  6-Port  ) 
!S42(C  6-Port  ) 
!S43(C  6-Port  ) 
!S44(C  6-Port  ) 
!S45(C  6-Port  ) 
!S46(C  6-Port  ) 
!S51(C  6-Port  ) 
!S52(C  6-Port  ) 
!S53(C  6-Port  ) 
!S54(C  6-Port  ) 
!S55(C  6-Port  ) 
!S56(C  6-Port  ) 
!S61(C  6-Port  ) 
!S62(C  6-Port  ) 
!S63(C  6-Port  ) 
!S64(C  6-Port  ) 
!S65(C  6-Port  ) 
!S66(C  6-Port  ) 
!S6P File: Measurement: :
# Hz S  RI   R 50
500000000 -0.33776 -0.039294 -0.0099296 -0.0029069 -0.0083078 0.013093 -0.0037699 0.011683
0.013761 0.0037032 -0.0040544 0.0084049
-0.0098603 -0.0028941 -0.41826 -0.051591 0.0075095 -0.010725 0.0015711 0.011776
0.0079601 0.002396 0.0019845 0.013066
-0.0083001 0.013082 0.0074933 -0.010739 -0.26648 0.21014 0.0074963 0.0034965
-0.0012083 0.0087015 0.0016341 0.01219
-0.0037951 0.011705 0.0015669 0.011765 0.0074748 0.0034838 -0.33095 0.044082
-0.019592 -0.0062014 0.015964 0.025313
0.013809 0.0036558 0.0079717 0.00238 -0.0011972 0.0086835 -0.019566 -0.0062112
-0.22622 -0.19282 -0.02676 0.0047096
-0.0040499 0.0084399 0.0019807 0.013039 0.0016337 0.012161 0.015929 0.025268
-0.026771 0.0046765 -0.2683 -0.12734
560000000 -0.31776 0.1255 -0.023842 -0.062822 -0.00026501 0.012728 0.0056461 0.010582
0.0098969 0.0059478 0.0099298 0.0080882
-0.023887 -0.062692 -0.37622 0.10716 -0.04115 -0.036393 0.013813 0.0036488
-0.013814 -0.0046321 0.0043811 0.00095116
-0.00020178 0.012659 -0.041293 -0.036331 -0.18382 0.2583 -0.00039721 -0.0042919
0.019543 0.0058046 0.0061978 -0.0060382
0.005638 0.010627 0.013828 0.0036259 -0.00036598 -0.0042727 -0.30599 0.13449
0.0047473 -0.024159 0.0052553 -0.021158
0.0099602 0.0059549 -0.013811 -0.0046056 0.019595 0.0058042 0.0047372 -0.024112
-0.29085 -0.018209 0.0082459 -0.049951
0.0099588 0.0080557 0.0043586 0.00086213 0.0061943 -0.0060111 0.005301 -0.021096
0.0082648 -0.049943 -0.32927 0.021355
620000000 -0.27554 0.10839 -0.023204 0.0081964 0.0035039 0.008971 0.0079689 -0.0046369
0.011361 -0.0013588 0.00058532 -0.0020797
-0.023204 0.0082647 -0.40278 0.060306 -0.018565 0.00035967 -0.0016752 -0.0019669
0.011638 -0.0067035 0.0015141 -0.0029046
0.0035455 0.0089248 -0.018581 0.00039963 -0.15347 0.26749 -0.00088401 -0.0051501
-0.0036965 -0.0034056 0.0091839 -0.0029606
0.0079728 -0.0046446 -0.0017057 -0.001958 -0.0009191 -0.005156 -0.26476 0.14371
-0.038262 -0.018813 0.011872 0.025138
0.011413 -0.0013238 0.011645 -0.0067258 -0.0036337 -0.0033647 -0.038272 -0.01883
-0.20798 -0.054765 -0.040878 0.013968
0.00070658 -0.00216 0.0014734 -0.0029288 0.0091408 -0.0029558 0.011918 0.025134
-0.040904 0.013984 -0.25261 -0.015588
680000000 -0.23408 0.19293 -0.027057 -0.014008 0.0051755 0.0049236 0.0014463 -0.0063766
-0.0027038 -0.011589 0.005139 -0.0066305
-0.02702 -0.014015 -0.38752 0.15804 -0.032415 -0.0012783 -0.0016179 -6.2866e-05
-0.0019389 -0.009229 -0.0014379 -0.002295
0.0052146 0.0048908 -0.032447 -0.001185 -0.10178 0.28689 -0.00085986 -4.4502e-05
-0.0018392 0.00018999 -0.0029829 -0.0093561
0.001486 -0.0064195 -0.001605 -6.0444e-05 -0.00084373 -4.6398e-05 -0.22111 0.195
-0.023209 -0.0067267 -0.0091256 -0.0098225
-0.0027294 -0.011542 -0.0019698 -0.0092308 -0.0018525 0.00019378 -0.023248 -0.0066846
-0.25936 0.0431 -0.0051313 -0.0085968
0.0051269 -0.0066699 -0.0014533 -0.0022896 -0.002963 -0.0093688 -0.0091592 -0.0098213
-0.0051253 -0.0086156 -0.25851 0.091684
740000000 -0.18983 0.18749 -0.038081 0.026564 0.012865 -0.0053919 -0.00047761 -0.003929
-0.0040643 -0.0026465 -0.0063325 0.002261
-0.038149 0.026569 -0.33484 0.17727 -0.035132 0.034658 -0.00059201 -0.0063912
-0.011393 0.0075356 -0.001903 -0.0061961
0.012849 -0.0054175 -0.035071 0.034805 -0.068117 0.28485 -0.0019015 0.0033933
-0.0026621 -0.0046889 -0.0016878 0.00089367
-0.00046456 -0.0040191 -0.00059688 -0.0064007 -0.0019281 0.0033945 -0.20316 0.2023
-0.043532 -0.0063967 0.023155 0.014435
-0.0041647 -0.0026712 -0.011427 0.0075883 -0.0026594 -0.0047049 -0.04358 -0.0063556
-0.16079 0.069863 -0.043151 0.0011225
-0.0063153 0.0022577 -0.0019009 -0.0062332 -0.0016806 0.00090191 0.023211 0.014433
-0.043139 0.0010839 -0.2481 0.097071
800000000 -0.15705 0.22876 -0.022132 0.016861 0.0053383 -0.010514 -0.0049291 -0.0016973
-0.0041342 0.0030749 0.0040194 0.0011754
-0.022154 0.016855 -0.33767 0.24667 -0.0077341 0.033811 -0.0025104 0.0024502
-0.00088647 0.003583 0.00093606 0.0056859
0.0053017 -0.01049 -0.0076479 0.033872 -0.02744 0.30778 0.0010131 0.0016502
0.00053916 0.0037518 -0.0016967 0.00083353
-0.0049231 -0.0016844 -0.0024813 0.0024419 0.0010187 0.0016335 -0.17478 0.23027
-0.028088 0.014237 0.013388 -0.0098666
-0.0041764 0.003089 -0.00084856 0.003564 0.0005476 0.0037271 -0.028097 0.014318
-0.20544 0.094405 -0.016873 0.019562
0.0039903 0.0011737 0.0010061 0.0056574 -0.0017352 0.00079913 0.013362 -0.0098899
-0.01686 0.019535 -0.24183 0.14757
860000000 -0.12236 0.24806 -0.017242 0.030704 -0.0033528 -0.009857 -0.0026322 0.00073859
0.0040903 0.0048821 -0.003842 -0.0026469
-0.017257 0.030676 -0.29029 0.28854 0.0078807 0.033995 2.519e-05 0.0019989
0.0043123 0.00024553 0.003231 0.00084361
-0.0033906 -0.0098687 0.0079947 0.033998 0.020408 0.3156 -0.00055598 -0.00019754
0.0029102 -0.0014298 0.0014296 0.0043721
-0.0025923 0.00074368 2.7562e-05 0.0020039 -0.000562 -0.00018782 -0.13876 0.24036
-0.017939 0.018224 -0.0060196 -0.0092427
0.0041167 0.0047866 0.0043055 0.00022728 0.0029036 -0.001426 -0.017905 0.01826
-0.15476 0.14415 -0.025252 0.015715
-0.0038626 -0.002671 0.0032298 0.00084764 0.0014364 0.0043903 -0.0060126 -0.0092416
-0.025272 0.015696 -0.19066 0.19101
920000000 -0.09727 0.27091 0.0052756 0.037719 -0.0093333 -0.0044349 -0.0018233 0.0020391
0.0011911 0.0020684 0.0028044 -0.001503
0.0052528 0.03769 -0.26118 0.30947 0.028053 0.021802 0.0013807 0.001079
0.0073023 -5.8877e-05 0.0039057 -0.0029317
-0.0093457 -0.0044388 0.028141 0.021742 0.066452 0.31632 0.0018829 -0.00010258
0.0011169 -0.00025235 0.00082365 -0.0012269
-0.0017691 0.0020519 0.0013775 0.0010825 0.0018846 -0.00010052 -0.1147 0.25808
-0.010215 0.030262 0.0034117 -0.0065859
0.0012613 0.0020422 0.0073362 -7.4051e-05 0.0011307 -0.00024308 -0.010185 0.030305
-0.14345 0.14991 -0.0025804 0.02741
0.0028392 -0.0015388 0.0038919 -0.0029233 0.00082336 -0.0012282 0.0033937 -0.0065889
-0.0025934 0.02738 -0.19851 0.20575
980000000 -0.050623 0.28977 0.017472 0.029585 -0.0090591 0.0044974 0.0019492 0.0033806
0.0038269 -0.0016323 -0.0032772 -0.0023703
0.017456 0.02957 -0.20861 0.34309 0.032936 0.0047042 0.001916 -0.00017293
0.0014695 -0.0062553 -0.00051273 -0.0023322
-0.0090405 0.0045196 0.032961 0.0045931 0.1127 0.30959 0.00046681 -0.0012608
0.00023717 -0.0022505 0.0013696 -0.0002107
0.0019604 0.0033732 0.0019162 -0.00018507 0.00046063 -0.0012648 -0.076487 0.26871
0.0080704 0.029684 -0.0088343 -0.0073451
0.0038253 -0.0016392 0.0014108 -0.0062801 0.00023222 -0.0022411 0.0081441 0.029687
-0.11359 0.17898 0.0053018 0.019335
-0.0033076 -0.0023746 -0.00053405 -0.0023263 0.0013708 -0.00021679 -0.0088465 -0.007327
0.0052998 0.019319 -0.15543 0.24886
1040000000 -0.0085216 0.29834 0.033196 0.017727 -0.0013675 0.0067626 0.0025893 0.00084664
-1.1165e-05 -0.0035187 -0.00032108 -0.0013951
0.033171 0.017731 -0.17302 0.35624 0.029244 -0.014911 0.0015659 -0.0017417
-0.0024696 -0.0025889 -0.0014198 -0.0027756
-0.0013199 0.0067651 0.029194 -0.015015 0.15875 0.29603 -0.00054725 -0.0014801
-0.0016043 -0.00084232 -0.00063121 -0.0011132
0.0026128 0.00084033 0.001562 -0.0017735 -0.00054377 -0.0014714 -0.049179 0.27907
0.019219 0.017651 -0.0023938 0.0014651
-7.1413e-06 -0.0035144 -0.0025166 -0.0025824 -0.0016028 -0.00084829 0.019242 0.017621
-0.080939 0.18575 0.01346 0.018382
-0.00027364 -0.0014159 -0.0014275 -0.0027575 -0.00062013 -0.0011066 -0.0023891 0.0014678
0.01344 0.018376 -0.13409 0.27081
1100000000 0.03683 0.30589 0.03555 -0.0046368 0.0027984 0.0038482 0.0023949 -0.0012553
-0.002095 -0.0030606 -0.0041137 0.00024664
0.035526 -0.0046215 -0.12988 0.37334 0.015052 -0.027859 -1.0889e-05 -0.0018696
-0.0034825 -0.00077268 -0.0036616 -0.00037311
0.0028191 0.0038338 0.014954 -0.027943 0.20518 0.27557 -0.001889 0.00025152
-0.001775 0.00059457 -0.0011138 -0.00018693
0.0023703 -0.0012629 -3.0592e-05 -0.0018676 -0.0018926 0.00024423 -0.0089647 0.28404
0.024247 0.0047275 -0.0025306 7.3422e-05
-0.0021155 -0.0030448 -0.0035129 -0.0007602 -0.0017842 0.00060588 0.024274 0.0046793
-0.0635 0.19946 0.019154 0.0085812
-0.0041194 0.00027244 -0.0036655 -0.00033559 -0.0011125 -0.00018999 -0.0025247 7.8401e-05
0.019135 0.0085937 -0.088278 0.29938
1160000000 0.088025 0.30092 0.023583 -0.020978 0.0025131 -0.00044705 -0.00010834 -0.002347
-0.0041641 -0.00065945 -0.00093602 0.0041347
0.0236 -0.020937 -0.086387 0.37772 -0.0038895 -0.029052 -0.0017341 -0.0016965
-0.0026711 0.0025924 -0.0013732 0.001864
0.0025135 -0.00046785 -0.0040296 -0.029056 0.24806 0.24465 -0.00074174 0.0017854
-0.00043925 0.0019972 -0.00083224 0.00028957
-9.7675e-05 -0.002322 -0.0017663 -0.001704 -0.00072956 0.0017933 0.029959 0.28148
0.020412 -0.010581 -0.0030364 0.0051674
-0.0041782 -0.00061072 -0.0026878 0.0025948 -0.00043816 0.002015 0.020388 -0.010633
-0.030007 0.20855 0.018058 0.00036079
-0.00089054 0.0041444 -0.001382 0.0018974 -0.00081624 0.00028687 -0.0030282 0.0051665
0.018054 0.00037034 -0.041635 0.30229
1220000000 0.13241 0.28982 0.0098799 -0.030032 -0.0016788 -0.0006707 2.9521e-05 -0.00093375
-0.002659 0.0024345 0.0013406 0.0020642
0.0098904 -0.02999 -0.042017 0.3897 -0.016978 -0.021077 -0.0025396 0.00048523
0.00011963 0.0030883 -0.00073807 0.0018339
-0.0016688 -0.00065314 -0.017095 -0.02102 0.28719 0.20547 0.00082438 0.0016604
0.0007028 0.0012323 0.00027801 0.00064916
2.1074e-05 -0.00093144 -0.0025392 0.00048345 0.00081943 0.0016651 0.069876 0.27334
0.0099233 -0.016993 0.0021641 0.0015549
-0.0026699 0.0024485 0.00013675 0.0030816 0.00069808 0.0012318 0.0099048 -0.017026
-0.0073353 0.21779 0.013769 -0.013078
0.0013266 0.0020579 -0.00073184 0.0018352 0.0002892 0.00066142 0.0021562 0.0015533
0.013759 -0.013075 -0.0096711 0.31903
1280000000 0.1821 0.26765 -0.0083891 -0.028244 -0.0018372 0.0027194 -0.00094402 -0.0020947
-0.00069164 0.0030559 0.0025679 0.0011219
-0.0083623 -0.028226 0.0039135 0.38081 -0.023836 -0.0084543 -0.0010507 0.0014564
0.0018291 0.0017992 0.00063703 0.0020476
-0.0018347 0.0027248 -0.023903 -0.0083513 0.31751 0.16135 0.0015452 -7.6927e-05
0.0011776 0.00013664 0.00038338 0.00024978
-0.00093914 -0.0020791 -0.0010542 0.0014697 0.0015503 -8.3988e-05 0.10677 0.25727
0.00058873 -0.018679 -7.6224e-05 0.00023735
-0.00067267 0.0030514 0.0018521 0.0017971 0.0011809 0.00013303 0.00054293 -0.018686
0.028881 0.22209 0.0027739 -0.015079
0.0025886 0.0011095 0.00066321 0.0020366 0.00038202 0.00023607 -7.8092e-05 0.00023358
0.002779 -0.015076 0.037604 0.32109
1340000000 0.21911 0.2337 -0.017891 -0.018379 0.00099085 0.0045644 -0.0018041 -0.0008621
0.0015867 0.0025765 0.0016541 -0.0013593
-0.017861 -0.018369 0.043311 0.37259 -0.021631 0.0043719 -7.8917e-05 0.0019966
0.0019772 0.00072047 0.0013733 0.00083973
0.0010255 0.0045499 -0.021635 0.0044841 0.33916 0.11366 0.0011465 -0.00097418
0.00071103 -0.00035007 0.0002159 0.00027105
-0.0018223 -0.00085101 -8.403e-05 0.0019931 0.0011369 -0.00098026 0.13962 0.23742
-0.0085326 -0.015817 0.0010327 0.000603
0.0016086 0.00256 0.0019871 0.00071609 0.00071238 -0.00035151 -0.00859 -0.015793
0.05877 0.21789 -0.0037551 -0.013511
0.0016431 -0.0013551 0.0013743 0.00083881 0.00021144 0.00027089 0.0010263 0.00060084
-0.0037562 -0.013512 0.076017 0.3159
1400000000 0.25216 0.19528 -0.023302 -0.0068926 0.0053502 0.0031178 -0.0021728 0.00071964
0.0024836 0.00089409 0.00021547 -0.0014416
-0.023285 -0.0069079 0.080621 0.35943 -0.014838 0.012455 0.0013399 0.0013071
0.0012356 -0.00092665 0.0012434 0.00019538
0.005346 0.0030883 -0.014801 0.012551 0.3523 0.060417 1.6345e-05 -0.001645
7.4051e-05 -0.00040331 0.0004425 0.00026153
-0.0021683 0.00074246 0.0013689 0.0012957 2.8773e-05 -0.0016428 0.16942 0.20858
-0.014324 -0.0092369 -0.00071552 -0.00029221
0.0025013 0.00087908 0.0012206 -0.00094051 6.3383e-05 -0.00040449 -0.014364 -0.0091973
0.091789 0.21416 -0.010415 -0.0087472
0.00022698 -0.0014287 0.0012629 0.00018684 0.0004582 0.00025893 -0.000723 -0.00028674
-0.010404 -0.0087573 0.12074 0.30493
1460000000 0.27445 0.15105 -0.020082 0.0051608 0.0056751 -0.0019331 -0.0015586 0.0018067
0.0021033 -0.00055143 -0.00040526 -0.0010026
-0.020059 0.0051521 0.11477 0.33764 -0.0061923 0.015441 0.0017386 0.00015347
0.00080765 -0.0013169 0.0011218 -0.0005392
0.0056758 -0.0019505 -0.0061244 0.015491 0.35819 0.006303 -0.0012428 -0.0012077
0.00027887 -0.00018654 0.0005411 -0.00038049
-0.0015475 0.0018176 0.0017402 0.00016048 -0.0012372 -0.0012058 0.1961 0.17955
-0.015169 -0.0025734 -0.00090243 0.0019891
0.002111 -0.00057638 0.00080167 -0.0013273 0.00028047 -0.00018044 -0.015179 -0.0025357
0.12141 0.20019 -0.011976 -0.0026395
-0.00041524 -0.0010106 0.0011288 -0.00053866 0.00054254 -0.00037612 -0.00089131 0.0019983
-0.011976 -0.0026452 0.15395 0.28399
1520000000 0.28642 0.10918 -0.014218 0.010504 0.0032915 -0.0042996 0.00017499 0.002614
0.0020048 -0.0017672 -0.0011536 -0.00010606
-0.014215 0.010491 0.14835 0.32285 0.0015878 0.013191 0.0016196 -0.00082253
-5.6308e-05 -0.00099908 0.00033367 -0.0010263
0.0032699 -0.0043139 0.0016631 0.013185 0.35152 -0.04984 -0.0011493 -0.00033753
0.00067153 -0.00088596 3.0156e-05 -7.4448e-05
0.00017331 0.002609 0.0016183 -0.00083782 -0.0011521 -0.00033759 0.21964 0.14159
-0.014312 0.0030182 0.0014765 0.0020552
0.0019992 -0.0017756 -7.3035e-05 -0.0010043 0.00066449 -0.00089652 -0.014297 0.0030646
0.14967 0.18651 -0.011771 0.0018256
-0.0011732 -7.531e-05 0.00032766 -0.0010206 3.1653e-05 -7.2739e-05 0.0014791 0.002057
-0.011775 0.0018208 0.18714 0.2635
1580000000 0.29529 0.062857 -0.0075618 0.013287 -0.00081609 -0.0048899 0.0015176 0.0019095
-0.00029475 -0.0021116 -0.00033019 0.00037113
-0.0075679 0.013265 0.17563 0.29796 0.0053147 0.0083698 0.00044451 -0.0016049
-0.00050891 -0.001004 -0.00024186 -0.00091559
-0.0008453 -0.0048881 0.0053607 0.008344 0.33157 -0.1075 -0.001495 0.00066177
-0.00023832 -0.0011453 0.00019602 -0.00055694
0.0015434 0.0018927 0.0004363 -0.0016062 -0.0014846 0.00066213 0.23394 0.10201
-0.010719 0.0077451 0.0023162 0.00065691
-0.00031287 -0.0021281 -0.00051958 -0.00099182 -0.00023975 -0.0011446 -0.010696 0.007772
0.17437 0.16854 -0.0090725 0.0075958
-0.000343 0.00035912 -0.00025756 -0.00091448 0.00018998 -0.00056027 0.0023273 0.00064988
-0.0090812 0.0075936 0.21926 0.2365
1640000000 0.29683 0.021739 -0.0010167 0.011996 -0.0028497 -0.0027138 0.0027136 0.00093744
-0.00080046 -0.0014972 -0.00028929 0.00056958
-0.001031 0.011988 0.20504 0.27293 0.0060314 0.003532 -0.00070674 -0.0017216
-0.00092797 -0.00037996 -0.00051922 -0.00070956
-0.0028821 -0.0027116 0.0060592 0.0034994 0.30325 -0.15642 -0.00069535 0.0014351
-0.0012207 -0.0008992 -0.0002359 -0.0003222
0.0027059 0.00093186 -0.00072146 -0.001718 -0.00070702 0.0014381 0.24622 0.05294
-0.0064469 0.0085487 0.0025458 -0.00076189
-0.0008233 -0.0014822 -0.00093233 -0.00036983 -0.0012267 -0.0008841 -0.0064029 0.0085726
0.19761 0.14392 -0.0044842 0.0094595
-0.00028284 0.00060278 -0.00053494 -0.00070738 -0.00023777 -0.00032259 0.002541 -0.00077306
-0.0044982 0.0094539 0.24477 0.20545
1700000000 0.28952 -0.023519 0.0022275 0.0090857 -0.0036234 5.969e-05 0.0029486 -0.0013026
-0.0019442 -0.00064137 0.00062994 0.00041201
0.0022188 0.009086 0.2232 0.24126 0.0040635 0.00045257 -0.0014938 -0.00060598
-0.000701 -2.0128e-05 -0.00098481 -0.00049629
-0.0036165 7.8945e-05 0.0040649 0.0004368 0.26021 -0.19653 0.00041618 0.0014651
-0.0019317 -0.00020351 -0.00044038 -0.00090734
0.0029575 -0.0013291 -0.0014996 -0.00060113 0.00041434 0.0014708 0.24318 0.0030605
-0.003869 0.0088934 0.0015942 -0.0024399
-0.0019535 -0.00063645 -0.00070142 -1.6314e-05 -0.0019399 -0.00018743 -0.0038557 0.0088887
0.21525 0.12338 0.00035984 0.0097455
0.00063022 0.00039489 -0.00099323 -0.00049222 -0.00045226 -0.00092316 0.0015958 -0.0024429
0.00035037 0.0097429 0.2611 0.17096
1760000000 0.27692 -0.0718 0.0042803 0.0057787 -0.002382 0.00087913 0.0011568 -0.0034424
-0.0013964 0.00067426 0.0004509 -0.00052665
0.0042838 0.0057757 0.24898 0.20122 0.0017473 -0.0014367 -0.0011851 0.00019472
-0.0010518 0.00077546 -0.00060307 0.00045152
-0.0023768 0.00090268 0.0017364 -0.0014382 0.21163 -0.23044 0.0012199 0.00099164
-0.0010348 0.0014978 -0.001219 -0.00042932
0.0011131 -0.0034404 -0.0012 0.00018963 0.0012028 0.00098609 0.23374 -0.048583
-0.00078045 0.0078592 -0.00036846 -0.0025205
-0.0013841 0.00070056 -0.0010543 0.00078294 -0.0010445 0.0015089 -0.00076074 0.0078654
0.22995 0.087846 0.0043482 0.0069242
0.00045249 -0.00050977 -0.00060572 0.00046458 -0.00123 -0.00042237 -0.00036836 -0.0025404
0.0043458 0.0069215 0.27369 0.13301
1820000000 0.2522 -0.10872 0.004307 0.0023411 -0.00025201 0.0025711 -0.0010868 -0.0029879
-0.0010469 0.00088063 -9.9414e-05 -0.00020307
0.0043009 0.0023396 0.25884 0.17108 -0.00042053 -0.0001855 -0.0013389 0.00093973
-0.00011383 0.0012336 -0.00055165 0.0005961
-0.00023107 0.0025788 -0.00041768 -0.00018244 0.16059 -0.2455 0.0013562 0.00046763
-0.00027223 0.002216 -0.0013814 0.00044839
-0.0010931 -0.0029924 -0.0013337 0.00096692 0.0013738 0.00048337 0.20372 -0.095474
0.00027471 0.0061645 -0.0017322 -0.0016333
-0.0010499 0.000888 -0.00010513 0.001237 -0.00027136 0.0022194 0.00030004 0.0061457
0.24676 0.058143 0.0051691 0.0033633
-9.8597e-05 -0.00021475 -0.00053423 0.00058898 -0.0013712 0.00043371 -0.0017435 -0.0016308
0.0051749 0.0033683 0.276 0.096814
1880000000 0.21701 -0.14894 0.0021025 0.0001751 -0.00038614 0.0022941 -0.00294 -0.0020813
-0.00018206 0.0016539 0.0002231 -0.00052498
0.0020999 0.00017053 0.26308 0.12436 -0.0025039 0.0015461 -0.00010295 0.0016806
0.00055005 0.0013015 0.00011558 0.00095494
-0.00038711 0.0023138 -0.0024993 0.0015672 0.1081 -0.25537 0.0018145 -0.00089056
0.0014218 0.0019519 -0.00094002 0.0013804
-0.0029648 -0.0020797 -0.00010232 0.0016745 0.0018152 -0.00088027 0.1631 -0.13552
0.0009345 0.0044124 -0.0025622 0.00031913
-0.00017803 0.00165 0.0005468 0.0012984 0.0014208 0.001956 0.00093849 0.0044397
0.24925 0.025141 0.0051385 0.0011235
0.00020902 -0.00051119 0.00011839 0.00095341 -0.00093633 0.0013895 -0.0025548 0.00031102
0.0051165 0.0011307 0.27545 0.062603
1940000000 0.17759 -0.17431 -0.00013769 -0.0013369 0.0015093 0.0020968 -0.0038449 0.00058831
0.001281 0.0010372 -0.00064201 -0.00042591
-0.00014337 -0.0013382 0.26325 0.092615 -0.0013114 0.0039587 0.00097165 0.0012699
0.0018725 0.00053534 0.00089963 0.00037316
0.0015174 0.0020906 -0.0012809 0.0039702 0.062553 -0.24854 0.00041752 -0.0021674
0.0024831 0.00040409 0.00041506 0.0016322
-0.0038014 0.00061735 0.00098412 0.0012805 0.00042441 -0.0021524 0.1105 -0.16533
-0.00047706 0.0033526 -0.0014766 0.0016402
0.0012882 0.0010038 0.0018664 0.00051882 0.0024784 0.00041708 -0.00047817 0.0033535
0.25043 -0.013985 0.0037014 -0.0023654
-0.00065455 -0.00046587 0.00090854 0.00035548 0.00042953 0.0016316 -0.0014872 0.001656
0.0037025 -0.0023499 0.2642 0.026509
2000000000 0.13136 -0.18894 -0.0039747 0.00078649 0.0026164 0.0015292 -0.0023082 0.0035496
0.0010897 0.00021616 -0.00048378 0.00053919
-0.0039707 0.00078454 0.24888 0.057218 -0.00096661 0.0059537 0.0016777 0.00030079
0.001454 -0.0012922 0.00044648 9.0915e-05
0.0026002 0.001519 -0.00092253 0.005965 0.018674 -0.23388 -0.0013851 -0.0014656
0.0020848 -0.0012206 0.0015748 0.0011922
-0.0023119 0.0035518 0.0016717 0.00028914 -0.0014078 -0.0014494 0.057683 -0.17528
-0.0018012 0.0037426 -0.00023865 0.0023607
0.0011051 0.00020662 0.0014254 -0.0013048 0.0020667 -0.0012412 -0.0018131 0.0037676
