!Keysight Technologies,M9804A,MY58100912,A.14.10.03
!Date: Thursday, April 27, 2023 10:28:33
!Correction: S11(C  6-Port  ) 
!S12(C  6-Port  ) 
!S13(C  6-Port  ) 
!S14(C  6-Port  ) 
!S15(C  6-Port  ) 
!S16(C  6-Port  ) 
!S21(C  6-Port  ) 
!S22(C  6-Port  ) 
!S23(C  6-Port  ) 
!S24(C  6-Port  ) 
!S25(C  6-Port  ) 
!S26(C  6-Port  ) 
!S31(C  6-Port  ) 
!S32(C  6-Port  ) 
!S33(C  6-Port  ) 
!S34(C  6-Port  ) 
!S35(C  6-Port  ) 
!S36(C  6-Port  ) 
!S41(C  6-Port  ) 
!S42(C  6-Port  ) 
!S43(C  6-Port  ) 
!S44(C  6-Port  ) 
!S45(C  6-Port  ) 
!S46(C  6-Port  ) 
!S51(C  6-Port  ) 
!S52(C  6-Port  ) 
!S53(C  6-Port  ) 
!S54(C  6-Port  ) 
!S55(C  6-Port  ) 
!S56(C  6-Port  ) 
!S61(C  6-Port  ) 
!S62(C  6-Port  ) 
!S63(C  6-Port  ) 
!S64(C  6-Port  ) 
!S65(C  6-Port  ) 
!S66(C  6-Port  ) 
!S6P File: Measurement: :
# Hz S  RI   R 50
500000000 -0.32663 -0.063476 -0.009811 -0.00086573 -0.0079976 0.011935 -0.0044977 0.011684
0.013291 0.0066456 -0.0064374 0.0094685
-0.0095419 -0.0011562 -0.40797 -0.074446 0.0084276 -0.011262 0.0010144 0.011444
0.0091615 0.002594 0.0012743 0.014407
-0.008161 0.011839 0.0084901 -0.011319 -0.25608 0.19043 0.0071356 0.0029284
-0.0023694 0.0072694 0.0021809 0.012901
-0.0038319 0.011893 0.0014161 0.011761 0.0063926 0.002625 -0.32552 0.041344
-0.02041 -0.0053098 0.016328 0.025881
0.013209 0.0060897 0.008702 0.0029495 -0.0020956 0.0081706 -0.020501 -0.0053102
-0.21661 -0.23663 -0.030647 0.003243
-0.0047715 0.0085823 0.0014357 0.013449 0.00086516 0.011411 0.016983 0.026109
-0.029474 0.0034899 -0.25944 -0.14777
560000000 -0.31574 0.10452 -0.021401 -0.067535 -0.00025841 0.012786 0.0064476 0.01044
0.011567 0.0047841 0.011771 0.009692
-0.022009 -0.067331 -0.37067 0.090443 -0.039837 -0.038923 0.013929 0.0030792
-0.014462 -0.0045383 0.0029994 -0.0021583
0.00023559 0.013224 -0.041052 -0.039748 -0.18278 0.24098 -9.4224e-05 -0.0045441
0.017899 0.0062413 0.0079439 -0.0056637
0.0054676 0.010778 0.01376 0.003813 -0.00024965 -0.0054538 -0.30372 0.13232
0.0087367 -0.022128 0.0044438 -0.022425
0.011927 0.0055151 -0.01275 -0.0047895 0.017401 0.00513 0.0086193 -0.021653
-0.30082 -0.055289 0.01094 -0.050082
0.010738 0.010152 0.0034006 -0.00068292 0.0088278 -0.0058149 0.0046788 -0.022556
0.011633 -0.049535 -0.33022 0.0026102
620000000 -0.27483 0.081451 -0.02339 0.0088759 0.0031445 0.0090621 0.0083641 -0.0046808
0.011897 -0.00070815 0.0016119 -0.0013175
-0.02349 0.0089323 -0.3992 0.035827 -0.019334 -6.2374e-05 -0.0020764 -0.0021288
0.012408 -0.0051105 0.00070423 -0.0034486
0.0035974 0.0089539 -0.019243 -3.5803e-05 -0.15512 0.24965 -0.0015187 -0.005218
-0.0038625 -0.0025997 0.0082371 -0.0028202
0.0086317 -0.0046484 -0.0016808 -0.0022533 -0.00088681 -0.0051115 -0.26204 0.13902
-0.038639 -0.019829 0.012749 0.026574
0.010988 -0.00086929 0.011725 -0.0048962 -0.0040853 -0.002742 -0.038369 -0.018854
-0.21551 -0.092984 -0.044397 0.015998
0.00073968 -0.001686 0.00062432 -0.0031616 0.008724 -0.0030337 0.01295 0.026479
-0.042588 0.015969 -0.24285 -0.033085
680000000 -0.24119 0.17366 -0.026291 -0.015065 0.004666 0.0056587 0.0014902 -0.0072396
-0.0013571 -0.011615 0.0048646 -0.0070577
-0.026451 -0.015019 -0.39009 0.13718 -0.032752 -0.0020316 -0.0014945 -0.00038757
-0.001497 -0.0088791 -0.00065821 -0.0015045
0.0043646 0.0055397 -0.032664 -0.0020467 -0.10804 0.27277 -0.00043532 -6.819e-05
-0.0016946 0.0013161 -0.002862 -0.0087315
0.0014855 -0.0069158 -0.0015258 -9.2139e-05 -0.00077555 -0.0001546 -0.21903 0.19274
-0.023459 -0.008065 -0.0082422 -0.011517
-0.0017511 -0.012132 -0.0015255 -0.0096671 -0.0015016 0.0010774 -0.023306 -0.0083383
-0.28298 0.0082226 -0.0055075 -0.0081687
0.0057302 -0.0067665 -0.00083459 -0.0017419 -0.0025343 -0.009079 -0.0081981 -0.011809
-0.0058255 -0.0081465 -0.26047 0.072193
740000000 -0.19532 0.16697 -0.04088 0.026264 0.013276 -0.0036523 6.3944e-05 -0.0039761
-0.0036249 -0.0019427 -0.0067992 0.0033661
-0.040894 0.026319 -0.33699 0.15759 -0.037365 0.034355 0.00027985 -0.0054684
-0.012533 0.0069812 -0.0010221 -0.0056333
0.013363 -0.0036927 -0.037427 0.034474 -0.075136 0.27344 -0.0017898 0.0034493
-0.0013836 -0.0060332 -0.0021285 0.0013522
4.9026e-05 -0.0038401 0.0002358 -0.005477 -0.0020294 0.0031938 -0.20231 0.20015
-0.0422 -0.01014 0.022225 0.016971
-0.0035913 -0.0023127 -0.013684 0.0072346 -0.00075238 -0.0058661 -0.04185 -0.0098924
-0.17854 0.044872 -0.044645 -0.0015569
-0.0064724 0.0035409 -0.0012274 -0.0050034 -0.0023402 0.00078499 0.021711 0.017025
-0.044365 -0.0015731 -0.25129 0.076878
800000000 -0.16654 0.21275 -0.022648 0.015898 0.0056545 -0.010311 -0.0044457 -0.0025236
-0.0041805 0.0016983 0.0043382 -3.8787e-05
-0.022934 0.015883 -0.34511 0.22836 -0.0089005 0.034478 -0.0023027 0.0020222
8.547e-05 0.0024017 0.00092989 0.0053005
0.0054381 -0.010295 -0.0088402 0.03456 -0.03636 0.29985 0.0010629 0.0011349
0.0001909 0.0032518 -0.0015652 0.00072243
-0.0045609 -0.0025807 -0.0022588 0.001829 0.001055 0.0010742 -0.17398 0.22736
-0.028923 0.012804 0.014917 -0.010022
-0.004514 0.0016477 -0.00050513 0.0022684 2.6909e-05 0.0033805 -0.029041 0.012914
-0.23444 0.066877 -0.018638 0.020577
0.0041083 -0.00046381 0.001209 0.0049481 -0.0016891 0.00037967 0.014944 -0.010468
-0.019208 0.020715 -0.24812 0.12833
860000000 -0.1329 0.23432 -0.018508 0.030639 -0.003169 -0.0099445 -0.0020856 0.00074423
0.0037702 0.0055894 -0.003829 -0.003345
-0.018554 0.030539 -0.29824 0.273 0.0074111 0.034513 0.00041732 0.0021765
0.0035396 4.4988e-05 0.0036368 0.00052307
-0.0032415 -0.0099913 0.0076328 0.034501 0.012055 0.31014 -0.00045746 -0.00039087
0.0022218 -0.0019262 0.0014477 0.0041011
-0.0023346 0.00073565 0.0004049 0.0022032 -0.0004798 -0.0002989 -0.13788 0.23973
-0.019146 0.017414 -0.0064605 -0.010137
0.0040395 0.0050197 0.0039529 0.00028641 0.0024459 -0.0019714 -0.018999 0.01753
-0.17934 0.12814 -0.026619 0.016495
-0.0033886 -0.0031562 0.0036796 0.00036308 0.0014839 0.0040883 -0.0067732 -0.0092761
-0.026045 0.016275 -0.1994 0.17673
920000000 -0.1094 0.25811 0.0042037 0.039643 -0.0094236 -0.0043789 -0.0021363 0.0017644
0.00037635 0.0016636 0.0031469 -0.0016541
0.0043258 0.039661 -0.27159 0.29529 0.027949 0.023083 0.0012339 0.0011785
0.0071941 -0.00024902 0.0035544 -0.0031878
-0.0093413 -0.0043633 0.028087 0.023037 0.058506 0.31224 0.0016875 -4.3542e-05
0.00042742 -0.00043054 0.00077899 -0.0014415
-0.0019932 0.0016467 0.001245 0.00096566 0.0016371 -0.00015417 -0.11409 0.25693
-0.012533 0.030777 0.0039496 -0.0067214
0.00014739 0.0016337 0.0070732 -1.9074e-06 0.00062612 -0.00031435 -0.01254 0.030917
-0.17222 0.13259 -0.0033831 0.028544
0.0025699 -0.0013992 0.0037972 -0.0031896 0.0009821 -0.0015048 0.0042731 -0.0069829
-0.0039566 0.029017 -0.2086 0.19124
980000000 -0.063727 0.28028 0.016499 0.030922 -0.0092282 0.0047036 0.0018866 0.0036201
0.0039753 -0.00098247 -0.0037065 -0.0026865
0.016406 0.030913 -0.21957 0.33257 0.033089 0.0053338 0.0019742 -0.00040587
0.0014843 -0.0058956 -0.00053323 -0.002253
-0.0092509 0.0047115 0.0332 0.0052429 0.1051 0.30701 0.00050195 -0.0011729
0.00033664 -0.0016165 0.0013523 -0.00031228
0.0018608 0.0036608 0.0020103 -0.00029139 0.00050604 -0.0011041 -0.075609 0.26844
0.0065196 0.030641 -0.0094409 -0.0078088
0.0038201 -0.0014229 0.0016287 -0.0059699 0.00025806 -0.0017443 0.0065942 0.030585
-0.14264 0.16986 0.0042444 0.020898
-0.0033345 -0.0027598 -0.0003221 -0.0028214 0.0014678 -0.00030946 -0.0099716 -0.0077375
0.0047807 0.020638 -0.16733 0.23784
1040000000 -0.022587 0.28977 0.033116 0.020055 -0.0010017 0.0075864 0.0022447 0.00059972
0.00029206 -0.0033092 0.00054719 -0.001208
0.033132 0.020075 -0.18474 0.34696 0.029693 -0.014306 0.0014009 -0.0017828
-0.0024825 -0.0023511 -0.0012839 -0.0027507
-0.00096615 0.0076223 0.029656 -0.014406 0.15166 0.29432 -0.00054378 -0.0013697
-0.0015878 -0.0010565 -0.00042653 -0.0010217
0.0025325 0.00049977 0.0014666 -0.0017219 -0.00052894 -0.0013361 -0.04834 0.27844
0.018669 0.019578 -0.0022347 0.0013788
0.00043645 -0.003542 -0.0025896 -0.0022777 -0.001511 -0.0010745 0.018741 0.019643
-0.1104 0.17882 0.013553 0.020594
-0.0004876 -0.0012549 -0.0014459 -0.0027425 -0.00052603 -0.0010243 -0.0020534 0.0012831
0.013063 0.020614 -0.14667 0.25912
1100000000 0.022232 0.30048 0.036958 -0.002623 0.0035429 0.0041245 0.0024776 -0.0010051
-0.0023685 -0.0031294 -0.0043404 -8.7333e-05
0.036926 -0.0026157 -0.14105 0.3672 0.015393 -0.027533 -0.00010503 -0.0017552
-0.0033752 -0.0007659 -0.0036598 -0.00064111
0.0035773 0.0041361 0.015314 -0.027617 0.1982 0.27501 -0.0017654 0.00031477
-0.0016374 0.00068573 -0.0010729 -0.00060368
0.0025053 -0.0010243 -8.7876e-05 -0.0018266 -0.0016797 0.00030053 -0.0079757 0.2838
0.024678 0.0066101 -0.0024698 0.0001649
-0.0023135 -0.0030812 -0.0033655 -0.00096633 -0.0017113 0.00076769 0.024734 0.0065441
-0.09306 0.19569 0.0194 0.010146
-0.0039974 -0.00026717 -0.003705 -0.00075513 -0.0010829 -0.00062587 -0.0024092 4.9483e-05
0.019649 0.01028 -0.10183 0.29236
1160000000 0.073462 0.2975 0.025252 -0.019968 0.0035604 -0.00078859 -0.00019448 -0.002588
-0.0039513 -0.00089329 -0.00097462 0.0044336
0.025262 -0.019922 -0.097071 0.37225 -0.0033946 -0.028576 -0.0015756 -0.0015399
-0.0025516 0.0025156 -0.0015443 0.0020783
0.0035605 -0.00075511 -0.0035149 -0.02862 0.24176 0.24511 -0.00062943 0.0016918
-0.00046875 0.0018504 -0.0011777 0.00033664
-0.00026273 -0.0025839 -0.0015741 -0.0015264 -0.00064194 0.0016594 0.031623 0.28101
0.022031 -0.0096042 -0.0034975 0.0051039
-0.0041042 -0.0010416 -0.0026503 0.002334 -0.00045748 0.0017547 0.021993 -0.0096495
-0.057545 0.20757 0.019822 0.001571
-0.0011966 0.0044028 -0.0014316 0.0022483 -0.0011328 0.0003388 -0.0036232 0.0051807
0.019673 0.0016301 -0.054447 0.29574
1220000000 0.1173 0.28877 0.012296 -0.030098 -0.0011035 -0.0016153 8.4333e-06 -0.00093635
-0.0029514 0.0023756 0.0011136 0.0018493
0.012247 -0.030035 -0.052747 0.38671 -0.016631 -0.02105 -0.0024751 0.00053277
-1.4237e-05 0.0030091 -0.00086818 0.0018686
-0.0011292 -0.0016119 -0.016747 -0.020987 0.28139 0.20695 0.00090694 0.0014256
0.00064043 0.0011391 0.00019733 0.00070463
4.7194e-05 -0.0009266 -0.0024236 0.00058991 0.0008663 0.0014271 0.071149 0.27273
0.011381 -0.016553 0.0020461 0.0016781
-0.0028385 0.002259 5.2014e-05 0.0030001 0.00054795 0.001138 0.011415 -0.016537
-0.03585 0.21939 0.015137 -0.012629
0.0012165 0.0018363 -0.00078432 0.0017625 0.0002143 0.00061804 0.0022235 0.0016923
0.015259 -0.012442 -0.023943 0.31507
1280000000 0.16821 0.26933 -0.0067274 -0.029318 -0.001946 0.00165 -0.00099121 -0.0019798
-0.00089122 0.0032597 0.002475 0.001337
-0.0066266 -0.029322 -0.0059461 0.37874 -0.023583 -0.0080934 -0.00081484 0.0014003
0.0015878 0.0017218 0.00075469 0.0020888
-0.0019318 0.0016495 -0.023649 -0.008006 0.31304 0.16375 0.0014053 -0.00013679
0.00099937 0.00037995 0.00023455 0.0002976
-0.0010287 -0.0020089 -0.00083753 0.0014418 0.0013706 -0.00017618 0.1078 0.25665
0.0020767 -0.019278 -0.00013189 3.2042e-05
-0.00087731 0.003336 0.0016012 0.0017516 0.0010172 0.00026398 0.0019807 -0.019328
0.0016485 0.22567 0.0042008 -0.015068
0.0026234 0.0014564 0.00070947 0.0020346 0.00027929 0.00047043 -8.1593e-06 5.2325e-05
0.0039892 -0.015277 0.023951 0.31795
1340000000 0.20576 0.23727 -0.016755 -0.020152 0.00022074 0.0040795 -0.0017345 -0.00073941
0.0013658 0.0029214 0.0015581 -0.0015298
-0.016719 -0.020117 0.033273 0.37171 -0.020802 0.0044291 -0.0001742 0.0018786
0.0017507 0.00088027 0.0011355 0.00072864
0.00022113 0.0040815 -0.020813 0.0045342 0.33594 0.11606 0.00078177 -0.00090042
0.0005295 -0.00061102 -2.9671e-05 0.00027
-0.0018003 -0.00074465 -0.00020615 0.0018792 0.0007748 -0.00084154 0.1407 0.23684
-0.0076844 -0.01665 0.0011795 0.00044683
0.0015396 0.0028803 0.0017977 0.00090311 0.00048745 -0.00059655 -0.0076328 -0.016675
0.030774 0.22365 -0.0027318 -0.013868
0.0016459 -0.0015391 0.0011121 0.00073073 0.0001096 0.00024398 0.0011666 0.00041695
-0.0025414 -0.013899 0.062009 0.31532
1400000000 0.24039 0.20073 -0.023471 -0.0088745 0.0045852 0.0030576 -0.0021586 0.0007425
0.002688 0.00095919 0.0003304 -0.0012829
-0.023454 -0.0089058 0.071659 0.35988 -0.014071 0.012239 0.001214 0.0013314
0.0010902 -0.00060139 0.0011508 0.00027193
0.0046428 0.0030524 -0.014028 0.012349 0.34993 0.062153 -8.7462e-06 -0.0013015
9.2283e-05 -0.0001072 0.0005142 0.00035126
-0.002168 0.00074232 0.0012127 0.0013727 -5.222e-05 -0.0013163 0.17045 0.20845
-0.013872 -0.010154 -0.00095131 -0.00055098
0.0026534 0.0009336 0.0011231 -0.00057674 0.00014072 -0.00020182 -0.013974 -0.010141
0.064476 0.22259 -0.0092551 -0.009244
0.00039758 -0.0012351 0.0011258 0.00017168 0.00052026 0.00025341 -0.00091423 -0.00052521
-0.0094365 -0.00939 0.10723 0.30629
1460000000 0.26428 0.15779 -0.020898 0.0037856 0.0050519 -0.0016207 -0.0015742 0.0017284
0.0019967 -0.00038763 -0.00020172 -0.00089034
-0.020865 0.0037528 0.10627 0.33846 -0.0052635 0.014784 0.0015838 0.00032289
0.0011096 -0.0012149 0.0012123 -0.00057063
0.0050717 -0.0016649 -0.0051797 0.014855 0.3565 0.0072076 -0.0010996 -0.0010038
0.00031455 -0.00024454 0.00071795 -0.00020391
-0.0015294 0.0016662 0.0015951 0.00031529 -0.0010553 -0.0010895 0.19732 0.17972
-0.015027 -0.0038181 -0.00099476 0.001982
0.0021186 -0.00034405 0.0011209 -0.0012162 0.00022057 -0.00021483 -0.015023 -0.0037355
0.093996 0.21072 -0.01162 -0.0034596
-0.00020514 -0.00087415 0.0013135 -0.00054781 0.00058131 -9.9297e-05 -0.00097992 0.001914
-0.011496 -0.0033587 0.14113 0.2864
1520000000 0.27772 0.11708 -0.015632 0.0095961 0.0030716 -0.0038453 0.0001397 0.0026563
0.002305 -0.0018596 -0.0010494 -0.00011498
-0.015643 0.0096031 0.14041 0.32505 0.0020713 0.012071 0.0017009 -0.00065809
0.00020535 -0.0010498 0.00033277 -0.00090386
0.0030252 -0.003857 0.0021481 0.012067 0.34921 -0.049613 -0.00068948 -0.00039462
0.00070263 -0.00097124 0.00015408 -0.00011513
0.00014421 0.0026361 0.0016801 -0.00066698 -0.00072081 -0.00037679 0.22123 0.14186
-0.014979 0.0018991 0.0013503 0.0020093
0.0022843 -0.0019144 0.00017887 -0.0010118 0.00075349 -0.00099472 -0.014996 0.0019088
0.12225 0.20044 -0.011607 0.0011231
-0.0010204 -0.00012211 0.00032305 -0.00096234 0.00013103 -0.000111 0.0013774 0.0020016
-0.011672 0.0011145 0.1749 0.26809
1580000000 0.28845 0.071568 -0.0090463 0.013411 -0.0011294 -0.0044511 0.0015334 0.0018116
-9.1426e-05 -0.0023253 -0.00025641 0.00031453
-0.0090515 0.013394 0.16843 0.30062 0.0052344 0.0069872 0.00061965 -0.0015066
-0.0004179 -0.00118 -0.00019915 -0.00074124
-0.0011883 -0.0044429 0.005285 0.0069881 0.32857 -0.1074 -0.0015536 0.00022376
-0.00049082 -0.0012748 0.00031658 -0.00054543
0.0014985 0.001869 0.00058166 -0.0015059 -0.0015324 0.00024096 0.23572 0.10257
-0.011766 0.0070002 0.0019406 0.00081041
-0.00014342 -0.002294 -0.00048461 -0.0012074 -0.00043535 -0.0012741 -0.011747 0.0070411
0.14759 0.18549 -0.0094155 0.0071082
-0.0002925 0.00034072 -0.0001513 -0.00073245 0.00035341 -0.00061793 0.002005 0.00083338
-0.0093642 0.0072358 0.20853 0.24302
1640000000 0.29169 0.030825 -0.0021292 0.012533 -0.0027726 -0.0021088 0.0026971 0.0010409
-0.00066895 -0.0017644 -0.00037086 0.00028626
-0.0021234 0.012517 0.19838 0.27672 0.0053294 0.0023237 -0.00046998 -0.0018856
-0.00092812 -0.00060169 -0.0003959 -0.00067472
-0.0027464 -0.0021079 0.0053061 0.0023179 0.29909 -0.15598 -0.00073664 0.0012038
-0.00094268 -0.0011336 -0.00010748 -0.00033471
0.0027949 0.0010547 -0.00045201 -0.001866 -0.00065617 0.001148 0.24893 0.053612
-0.0077801 0.0084243 0.0023918 -0.00056284
-0.00057543 -0.0017349 -0.00097162 -0.00054735 -0.0010511 -0.0011755 -0.0077696 0.0084173
0.17129 0.16497 -0.0047246 0.0093042
-0.0003734 0.00039291 -0.00043959 -0.00065778 -0.00013977 -0.00034808 0.0024552 -0.00061288
-0.0046683 0.0092897 0.23466 0.21274
1700000000 0.28611 -0.013906 0.001563 0.010018 -0.0032477 0.00037278 0.0031072 -0.0012736
-0.0022101 -0.00072081 0.00053114 0.00051344
0.0015372 0.010005 0.2174 0.24559 0.0027258 -0.00030326 -0.0014199 -0.00076164
-0.00086763 -0.00010248 -0.00082031 -0.00050965
-0.0032278 0.0004647 0.0027144 -0.00032775 0.25539 -0.19492 0.0001648 0.0016303
-0.0021078 -0.00018011 -0.00038346 -0.00086174
0.0031279 -0.0012982 -0.0014311 -0.00075202 5.3761e-05 0.0016763 0.24614 0.0032243
-0.0049784 0.0094643 0.0017413 -0.0019586
-0.0021329 -0.0007245 -0.00086096 -0.0001112 -0.0020601 -0.00016269 -0.0050106 0.0094405
0.19083 0.14797 0.00019869 0.0095368
0.00050121 0.00046089 -0.00079745 -0.00046036 -0.00036753 -0.00086195 0.0016222 -0.0020144
0.00010654 0.0095287 0.25282 0.17942
1760000000 0.2755 -0.062565 0.0041838 0.0068231 -0.0019297 0.0012283 0.0013799 -0.0034494
-0.001233 0.00059861 0.00021865 -0.00060648
0.0041856 0.0068224 0.24389 0.20625 0.00015946 -0.0016281 -0.0012573 2.4713e-05
-0.0011261 0.00097835 -0.00046669 0.00030696
-0.0019707 0.0011996 0.000129 -0.001663 0.20701 -0.22721 0.0010157 0.0014862
-0.0011645 0.0013926 -0.0011597 -0.00067095
0.0013705 -0.0034864 -0.0012236 3.8529e-05 0.0010487 0.0013637 0.23763 -0.048763
-0.0014879 0.0088664 -8.9059e-05 -0.0023152
-0.001274 0.00055891 -0.0011158 0.00094471 -0.0010984 0.001361 -0.0014494 0.0089296
0.20767 0.11637 0.003788 0.0071767
0.00030911 -0.00052469 -0.00050973 0.00036314 -0.001276 -0.0005596 -4.8128e-05 -0.0023557
0.0039797 0.0071394 0.26631 0.14212
1820000000 0.25252 -0.10033 0.0046235 0.003158 0.00032783 0.0023736 -0.00089353 -0.0031493
-0.0012357 0.00079614 -4.7855e-05 -8.9467e-05
0.0046389 0.0031546 0.25507 0.17675 -0.0019207 0.00024521 -0.0014446 0.00091879
1.1216e-05 0.001248 -0.00070398 0.00037877
0.00029688 0.0023609 -0.0018956 0.00030462 0.1568 -0.24166 0.0018429 0.00069231
-0.00024411 0.0024722 -0.0018253 0.00022226
-0.00093593 -0.0030913 -0.0014776 0.00096239 0.0019318 0.00070596 0.20767 -0.096697
0.00035468 0.007651 -0.0015403 -0.0016728
-0.0012178 0.00090397 4.5959e-06 0.0012606 -0.00019637 0.0024099 0.00027356 0.0075676
0.22813 0.090118 0.0052356 0.0035706
-3.3174e-05 -8.0306e-05 -0.00065613 0.00043998 -0.0017294 1.3308e-05 -0.0015647 -0.0016445
0.0050684 0.0034871 0.27025 0.10718
1880000000 0.21839 -0.14153 0.0025425 0.00079517 -0.00022427 0.0021481 -0.0028878 -0.0022992
-0.00028919 0.001662 0.00030995 -0.00072584
0.0025548 0.00077782 0.25981 0.13024 -0.0037457 0.0028455 -0.00034206 0.0017955
0.0006054 0.0013111 0.00017067 0.00096658
-0.00025848 0.00212 -0.0037479 0.0028349 0.105 -0.24948 0.0020057 -0.0012609
0.0016228 0.00187 -0.00098209 0.0015553
-0.0028316 -0.002313 -0.00029806 0.0018134 0.0019924 -0.001334 0.16707 -0.13717
0.001395 0.0055266 -0.0022539 0.0001635
-0.00022451 0.0016855 0.00062112 0.0013031 0.0016309 0.0019023 0.0014497 0.0056243
0.23478 0.060766 0.0055122 0.0013506
0.0002776 -0.00056637 0.00012292 0.0010224 -0.00081369 0.0015122 -0.0022871 7.3827e-05
0.0056237 0.0014255 0.27184 0.073393
1940000000 0.17977 -0.16785 0.00039311 -0.0010632 0.0016165 0.0016887 -0.0039574 0.00026671
0.0010427 0.00088972 -0.00076275 -0.00072454
0.00039342 -0.0010348 0.2615 0.098969 -0.001769 0.0056797 0.0010386 0.0014312
0.0019768 0.00029748 0.00097356 0.00020785
0.0016208 0.0016178 -0.0017028 0.0057005 0.061544 -0.24119 0.00047622 -0.0023819
0.0023113 0.00033881 0.00036959 0.0016225
-0.0038327 0.00025425 0.0010645 0.0014378 0.00055859 -0.0023029 0.11438 -0.1681
0.0010264 0.0039685 -0.0013647 0.0013075
0.0012211 0.00085274 0.001978 0.00035707 0.0023344 0.0003772 0.0010327 0.0039161
0.24165 0.024352 0.0042932 -0.0025124
-0.00072078 -0.00081619 0.00094006 0.00013953 0.00022764 0.001679 -0.0013318 0.0012704
0.0043205 -0.0026233 0.26205 0.037334
2000000000 0.13403 -0.18343 -0.0031732 0.00088838 0.0028447 0.00135 -0.0023101 0.0035916
0.00096946 0.00043853 -0.00083544 0.0004424
-0.0031592 0.00087303 0.24826 0.063599 -0.00047133 0.0076069 0.0017383 0.00044519
0.0010834 -0.0012631 0.00026821 3.5686e-05
0.0028822 0.0013378 -0.00039566 0.0076855 0.020439 -0.22782 -0.0015726 -0.0014571
0.0019652 -0.0011213 0.0014537 0.0014504
-0.0025382 0.0037596 0.0017527 0.00038234 -0.0015137 -0.001461 0.060331 -0.17853
-0.00076292 0.0032384 -0.00019458 0.0022108
0.00079516 0.0005952 0.0010837 -0.0012803 0.0019622 -0.0010203 -0.00084464 0.0032567
0.24 -0.0085316 0.00068651 -0.0034237
