!Keysight Technologies,M9804A,MY58100912,A.14.10.03
!Date: Thursday, April 27, 2023 10:28:33
!Correction: S11(C  6-Port  ) 
!S12(C  6-Port  ) 
!S13(C  6-Port  ) 
!S14(C  6-Port  ) 
!S15(C  6-Port  ) 
!S16(C  6-Port  ) 
!S21(C  6-Port  ) 
!S22(C  6-Port  ) 
!S23(C  6-Port  ) 
!S24(C  6-Port  ) 
!S25(C  6-Port  ) 
!S26(C  6-Port  ) 
!S31(C  6-Port  ) 
!S32(C  6-Port  ) 
!S33(C  6-Port  ) 
!S34(C  6-Port  ) 
!S35(C  6-Port  ) 
!S36(C  6-Port  ) 
!S41(C  6-Port  ) 
!S42(C  6-Port  ) 
!S43(C  6-Port  ) 
!S44(C  6-Port  ) 
!S45(C  6-Port  ) 
!S46(C  6-Port  ) 
!S51(C  6-Port  ) 
!S52(C  6-Port  ) 
!S53(C  6-Port  ) 
!S54(C  6-Port  ) 
!S55(C  6-Port  ) 
!S56(C  6-Port  ) 
!S61(C  6-Port  ) 
!S62(C  6-Port  ) 
!S63(C  6-Port  ) 
!S64(C  6-Port  ) 
!S65(C  6-Port  ) 
!S66(C  6-Port  ) 
!S6P File: Measurement: :
# Hz S  RI   R 50
500000000 -0.32736 -0.063624 -0.010059 -0.00092686 -0.0082095 0.011869 -0.0038174 0.01191
0.013465 0.0060181 -0.0044941 0.0087906
-0.010043 -0.0008719 -0.40802 -0.074956 0.0084962 -0.011326 0.0007512 0.011507
0.0094012 0.0030396 0.00074557 0.013231
-0.0081807 0.0119 0.0085122 -0.011376 -0.25626 0.19024 0.0064169 0.0031348
-0.0013277 0.0079546 0.00056916 0.012206
-0.0037075 0.012025 0.00077414 0.011618 0.0064209 0.0031153 -0.32594 0.041836
-0.019366 -0.0053515 0.01627 0.027251
0.013386 0.0060661 0.009435 0.0030478 -0.0013482 0.0079918 -0.019376 -0.0053479
-0.21724 -0.23813 -0.027804 0.0033452
-0.0042851 0.0088929 0.00091743 0.013184 0.00064724 0.012109 0.016356 0.027065
-0.027858 0.0033873 -0.26008 -0.14609
560000000 -0.31515 0.10293 -0.021881 -0.067479 0.00020016 0.013286 0.0055748 0.010588
0.01174 0.0058715 0.011204 0.0097232
-0.021825 -0.067395 -0.36958 0.089312 -0.041455 -0.039327 0.013946 0.0033542
-0.01374 -0.0047889 0.00413 -0.0018615
0.0002066 0.013231 -0.041636 -0.039241 -0.18188 0.24011 -0.00045693 -0.0050192
0.018314 0.0058469 0.0080516 -0.0056378
0.0056658 0.010593 0.014064 0.0032609 -0.00044384 -0.0050078 -0.30323 0.13102
0.0066176 -0.022956 0.0056492 -0.021184
0.011457 0.0058681 -0.014135 -0.0049337 0.018344 0.0058404 0.0065828 -0.022872
-0.30072 -0.058095 0.01274 -0.049592
0.011122 0.0099086 0.0042984 -0.002002 0.0080105 -0.0055543 0.0059197 -0.021236
0.013121 -0.049648 -0.32996 0.0063476
620000000 -0.27448 0.081863 -0.023455 0.0088431 0.0033605 0.0089132 0.0080801 -0.0048926
0.011812 3.0802e-06 -0.00012781 -0.0023494
-0.023414 0.0088472 -0.3992 0.035546 -0.01916 -0.00016956 -0.0018032 -0.0020164
0.01189 -0.0051107 0.00062814 -0.0027647
0.0034351 0.0089188 -0.019153 -0.00013546 -0.15522 0.24932 -0.0013714 -0.0051164
-0.0038761 -0.0027395 0.0081189 -0.0033684
0.0081476 -0.0048119 -0.0018127 -0.0019847 -0.0013891 -0.0051253 -0.26184 0.14056
-0.038842 -0.020963 0.01134 0.027713
0.011769 -0.00035197 0.011879 -0.005284 -0.0038286 -0.0027186 -0.038882 -0.020911
-0.21555 -0.092737 -0.043008 0.012114
-1.8808e-05 -0.0025676 0.00042363 -0.0028909 0.0080972 -0.0034479 0.011262 0.027628
-0.043093 0.01235 -0.24679 -0.033084
680000000 -0.24103 0.17334 -0.026266 -0.015066 0.0044694 0.005674 0.0013611 -0.0070807
-0.001548 -0.011891 0.0059354 -0.0069661
-0.026247 -0.015056 -0.39033 0.13696 -0.032731 -0.0021748 -0.001743 -0.00020214
-0.0013491 -0.0092002 -0.00073815 -0.00164
0.0044293 0.0056762 -0.032807 -0.0020695 -0.10801 0.27268 -0.00086452 0.00032012
-0.001223 0.0013162 -0.0029428 -0.0088492
0.0012425 -0.0071135 -0.0017379 -0.00021728 -0.00087068 0.00031396 -0.21983 0.19201
-0.022849 -0.0076118 -0.0090094 -0.011538
-0.0016035 -0.011851 -0.0014175 -0.0092642 -0.0012499 0.0013478 -0.022912 -0.0075625
-0.28289 0.0099784 -0.0060618 -0.0070743
0.0060706 -0.0070944 -0.00067115 -0.001595 -0.0028838 -0.008815 -0.0091139 -0.01146
-0.0058977 -0.0070016 -0.26171 0.073206
740000000 -0.19524 0.16699 -0.041053 0.026445 0.013421 -0.0037647 -8.3776e-05 -0.0038195
-0.0033068 -0.0023016 -0.0068983 0.0035066
-0.041003 0.026404 -0.33737 0.15769 -0.037562 0.034236 5.5122e-05 -0.0060193
-0.014084 0.0078888 -0.0015104 -0.0055033
0.013411 -0.0037979 -0.037505 0.034413 -0.075403 0.27356 -0.0017497 0.0034746
-0.0011145 -0.005649 -0.0020235 0.00090462
-9.752e-05 -0.0039624 9.8584e-05 -0.0060528 -0.0017517 0.0035066 -0.2025 0.19948
-0.043119 -0.0091774 0.022534 0.016286
-0.0032886 -0.0021258 -0.014163 0.0078264 -0.0011445 -0.0056742 -0.04317 -0.0090576
-0.17885 0.044427 -0.045233 -0.0006795
-0.0069124 0.0034055 -0.0015246 -0.0055015 -0.0020687 0.00091444 0.022525 0.016156
-0.04564 -0.0004379 -0.25194 0.075938
800000000 -0.16643 0.21283 -0.022736 0.016095 0.0056432 -0.010279 -0.0043134 -0.0026707
-0.0044103 0.001688 0.0046755 -0.00025971
-0.02273 0.016085 -0.34512 0.22827 -0.0089553 0.034489 -0.0021235 0.0020431
-0.00044232 0.0020645 0.00086159 0.0050273
0.0056609 -0.01027 -0.0088398 0.034594 -0.036454 0.29974 0.0012731 0.0011343
1.5729e-06 0.003216 -0.0015953 0.0006097
-0.0042646 -0.00259 -0.0021371 0.0020737 0.0012833 0.0011408 -0.17384 0.22738
-0.029188 0.012814 0.015684 -0.010461
-0.0043906 0.0015727 -0.00040123 0.0020175 1.582e-06 0.003197 -0.029219 0.01286
-0.2341 0.067473 -0.019337 0.020531
0.0048458 -0.00013121 0.00094745 0.0050875 -0.0015117 0.00062018 0.015822 -0.010381
-0.019372 0.020403 -0.24695 0.12924
860000000 -0.13292 0.23406 -0.018409 0.030606 -0.003248 -0.0099661 -0.0021092 0.00065821
0.0042293 0.0050926 -0.003525 -0.0029745
-0.018395 0.030594 -0.29823 0.27285 0.0074811 0.034526 9.4088e-05 0.0020998
0.0042532 0.00031183 0.0037847 0.00033891
-0.0032878 -0.0099554 0.0075987 0.034583 0.011901 0.31006 -0.00056132 -0.00039007
0.0024125 -0.0018044 0.0016374 0.0041769
-0.00211 0.00055971 0.00013408 0.0020706 -0.00056207 -0.0004026 -0.13758 0.23987
-0.018926 0.017696 -0.0070029 -0.0096941
0.0043412 0.0050052 0.0043435 0.00024494 0.0024226 -0.0018239 -0.018855 0.017739
-0.17868 0.12905 -0.026998 0.015924
-0.0035946 -0.0027379 0.0038199 0.00072486 0.0016284 0.0042727 -0.007031 -0.0097872
-0.027005 0.015936 -0.19826 0.17729
920000000 -0.10958 0.25817 0.0042292 0.039607 -0.0093511 -0.0044134 -0.0019397 0.0016069
0.0001884 0.001443 0.0026997 -0.0012598
0.0041839 0.039585 -0.27191 0.29531 0.028005 0.023093 0.0012091 0.0010116
0.0068973 6.5874e-05 0.0036626 -0.0027703
-0.0093681 -0.0044094 0.028117 0.023043 0.058369 0.31212 0.0016733 -6.1339e-05
0.00050528 -0.00045675 0.00089525 -0.001361
-0.0018801 0.0016096 0.0011956 0.00098709 0.0016768 -6.9935e-05 -0.11416 0.25679
-0.013034 0.030524 0.0043605 -0.0065971
0.00020517 0.0013626 0.0069415 -5.5606e-05 0.00049922 -0.00045832 -0.012987 0.030552
-0.17165 0.13392 -0.0042304 0.028838
0.002609 -0.0013185 0.0034676 -0.0028737 0.00090225 -0.0013591 0.0043883 -0.0065659
-0.0043485 0.028911 -0.20816 0.19036
980000000 -0.06377 0.28024 0.016419 0.030859 -0.0092498 0.0047137 0.0019571 0.0037386
0.0038318 -0.0012614 -0.0033851 -0.0025167
0.01637 0.030839 -0.21973 0.33248 0.033194 0.0053597 0.0018223 -0.00028761
0.0016944 -0.0058863 -0.00049873 -0.0028553
-0.0092259 0.0047482 0.033244 0.0052474 0.10492 0.30692 0.00046459 -0.0011156
0.00027267 -0.0017566 0.0014593 -0.00033443
0.0019114 0.0037473 0.0018178 -0.00031063 0.00046692 -0.0011142 -0.075652 0.26832
0.006726 0.030621 -0.0098403 -0.0077564
0.0038317 -0.0013095 0.0016709 -0.0059254 0.00027545 -0.0017657 0.0067897 0.03065
-0.14236 0.17082 0.0049615 0.020852
-0.0033475 -0.0025141 -0.0003878 -0.0029699 0.0014345 -0.00027225 -0.0098878 -0.0079297
0.0049483 0.020669 -0.16768 0.23836
1040000000 -0.022696 0.29008 0.033159 0.020034 -0.0010457 0.0076016 0.0025242 0.00054472
0.00052565 -0.0031685 -0.00043861 -0.0013386
0.033106 0.020014 -0.18483 0.34687 0.029714 -0.014307 0.001411 -0.0017494
-0.0025357 -0.002252 -0.001251 -0.0029746
-0.0010151 0.0075802 0.029701 -0.014414 0.15143 0.2943 -0.00053296 -0.0013628
-0.0015177 -0.00093144 -0.00061395 -0.0011137
0.0026006 0.00051019 0.0014089 -0.001737 -0.00051872 -0.0013568 -0.04841 0.27846
0.018491 0.019541 -0.002148 0.0015007
0.00047316 -0.0031711 -0.0025207 -0.0022458 -0.0015383 -0.0009305 0.018516 0.019535
-0.11026 0.17932 0.01325 0.020078
-0.00047491 -0.0015176 -0.0012743 -0.0029829 -0.00062548 -0.0011166 -0.0021037 0.0015252
0.013165 0.020109 -0.14579 0.25989
1100000000 0.022113 0.30047 0.036878 -0.002696 0.0035575 0.0041172 0.0024809 -0.00096362
-0.0023517 -0.0031589 -0.0041014 -0.0001562
0.036829 -0.0026737 -0.14117 0.36716 0.015455 -0.027568 -7.1528e-05 -0.0017737
-0.0033709 -0.00090257 -0.0036908 -0.00070003
0.0035871 0.0040989 0.01537 -0.027673 0.19802 0.275 -0.0017014 0.00032808
-0.0016351 0.00065956 -0.0010847 -0.00060372
0.0024641 -0.00095797 -0.0001126 -0.0017591 -0.0016986 0.0003282 -0.0079614 0.28368
0.024603 0.0068959 -0.0025669 5.505e-05
-0.0023615 -0.0031633 -0.0033793 -0.00087498 -0.0016359 0.00067847 0.024639 0.0068551
-0.093092 0.19591 0.01998 0.010412
-0.0040274 -4.9814e-05 -0.0036413 -0.00065693 -0.0011041 -0.00059521 -0.0025454 4.2893e-05
0.020053 0.010463 -0.10147 0.29232
1160000000 0.073615 0.29755 0.025232 -0.019999 0.0035484 -0.00073846 -0.00028581 -0.0026449
-0.0041548 -0.0010799 -0.0012226 0.0041733
0.025216 -0.019975 -0.097194 0.37212 -0.0033896 -0.02866 -0.0015547 -0.00156
-0.0026416 0.0024123 -0.0014647 0.0019216
0.0035505 -0.00074646 -0.0035248 -0.02868 0.24151 0.24508 -0.0006147 0.0016984
-0.00046644 0.0018522 -0.0010831 0.00012441
-0.00022288 -0.0026427 -0.0015545 -0.001556 -0.00061646 0.0016993 0.031377 0.28087
0.022058 -0.0097881 -0.003581 0.0053854
-0.0041448 -0.0010468 -0.0026182 0.0024502 -0.00048802 0.0018565 0.022041 -0.0097988
-0.056822 0.20744 0.018712 0.0010784
-0.001218 0.0041973 -0.0014464 0.0020453 -0.0010248 0.00014876 -0.0035378 0.0054394
0.018682 0.0010999 -0.053879 0.2968
1220000000 0.11735 0.28879 0.012255 -0.030034 -0.0011238 -0.0016168 6.2459e-05 -0.00093654
-0.0028555 0.0023164 0.0011807 0.0018866
0.012264 -0.02999 -0.052883 0.38666 -0.016631 -0.021053 -0.0023737 0.00054606
-1.8204e-05 0.0029995 -0.000786 0.0018411
-0.0011372 -0.0016166 -0.016751 -0.021012 0.28121 0.20703 0.00089655 0.0014601
0.00054835 0.0011398 0.00021993 0.00060635
2.8545e-05 -0.00089124 -0.0023944 0.00058467 0.00089424 0.0014547 0.071085 0.27275
0.011397 -0.016465 0.0021653 0.0015673
-0.0028576 0.0023168 -1.4967e-06 0.0030097 0.00054209 0.0011372 0.011392 -0.016462
-0.035432 0.21957 0.015389 -0.012298
0.00124 0.0018873 -0.00077473 0.0018188 0.00022921 0.00059266 0.0021896 0.0015702
0.015425 -0.012285 -0.024374 0.31463
1280000000 0.1682 0.2692 -0.0066556 -0.029351 -0.0019571 0.0016875 -0.0010326 -0.0020158
-0.00091017 0.0032633 0.0025457 0.0013005
-0.0066496 -0.029329 -0.0060475 0.37866 -0.023562 -0.0081376 -0.00085131 0.0014028
0.0015151 0.001721 0.00078932 0.0021715
-0.0019524 0.0017001 -0.023641 -0.0080306 0.31289 0.16377 0.001391 -0.00014893
0.0010064 0.00031443 0.00030186 0.00040396
-0.0010279 -0.0020365 -0.00084015 0.0013752 0.001393 -0.00014202 0.10763 0.25662
0.0019653 -0.019204 -3.865e-05 1.2111e-06
-0.0008871 0.0032582 0.0015423 0.0017243 0.0010069 0.00031382 0.001931 -0.0192
0.0017085 0.22585 0.0040617 -0.01534
0.0025318 0.0013199 0.00079573 0.0022204 0.0003213 0.00042429 -9.2629e-05 -3.1848e-05
0.0040115 -0.015293 0.024001 0.31838
1340000000 0.20573 0.23719 -0.016715 -0.02012 0.00021909 0.004091 -0.0017486 -0.00076111
0.0015702 0.0028724 0.0016683 -0.0014249
-0.016686 -0.020132 0.033043 0.37179 -0.020807 0.0044203 -0.00019298 0.0018433
0.0018352 0.00090368 0.0011823 0.00079253
0.00024012 0.004086 -0.020833 0.0045269 0.33583 0.11628 0.00073151 -0.00088266
0.00059298 -0.00058361 4.1531e-05 0.00029052
-0.0017544 -0.00071769 -0.00016682 0.0018622 0.00073724 -0.00088372 0.14054 0.2369
-0.0076782 -0.016597 0.0011369 0.0003719
0.0016042 0.0028759 0.0018467 0.00088945 0.00058593 -0.00059848 -0.0077051 -0.016595
0.030897 0.22355 -0.0026568 -0.01403
0.001602 -0.0014846 0.0011279 0.00075231 8.1207e-06 0.00028202 0.0011903 0.00042487
-0.0026342 -0.014053 0.062051 0.31511
1400000000 0.24024 0.20065 -0.023462 -0.0088759 0.0046107 0.0030886 -0.0021355 0.00075051
0.002568 0.00095676 0.00033578 -0.0012002
-0.023419 -0.0088686 0.071562 0.35992 -0.014095 0.012279 0.0011895 0.0013606
0.0011411 -0.00055732 0.0011658 0.00024259
0.004628 0.0030759 -0.014047 0.01237 0.34986 0.062309 -1.7266e-05 -0.001315
0.00015182 -0.00019719 0.00036448 0.00028657
-0.0021173 0.00075877 0.0011932 0.0013426 -1.3314e-05 -0.0013077 0.17037 0.20841
-0.013867 -0.010255 -0.00090611 -0.00036581
0.0025581 0.00093678 0.0011213 -0.00055568 0.00015089 -0.00019759 -0.013892 -0.010224
0.064801 0.22283 -0.0094435 -0.0093908
0.00033209 -0.001211 0.0011626 0.00021528 0.00038746 0.00026606 -0.00090775 -0.00037901
-0.0094871 -0.0094318 0.10739 0.3063
1460000000 0.26411 0.15779 -0.02085 0.00373 0.0050488 -0.001637 -0.001521 0.0016826
0.002036 -0.00036628 -0.00021394 -0.00087471
-0.02084 0.0037035 0.10616 0.3385 -0.0052489 0.014793 0.0015876 0.00031934
0.0011931 -0.0011908 0.0012576 -0.0005197
0.0050517 -0.0016512 -0.0051787 0.014854 0.35641 0.0073017 -0.0010215 -0.0010669
0.00034644 -8.7553e-05 0.00066328 -0.00028576
-0.0015462 0.0017025 0.0016027 0.00029866 -0.0010165 -0.0010668 0.19724 0.17993
-0.015072 -0.0038051 -0.0009877 0.0018412
0.0020539 -0.0003838 0.0011875 -0.0011866 0.00034074 -9.3839e-05 -0.015076 -0.0037703
0.094117 0.21074 -0.011471 -0.0033331
-0.0002347 -0.00086285 0.001262 -0.00053866 0.00066593 -0.00028056 -0.00098874 0.001868
-0.011389 -0.0033869 0.14101 0.28618
1520000000 0.27747 0.11723 -0.015659 0.0095942 0.0030433 -0.0038459 8.6236e-05 0.0026158
0.0023118 -0.0018239 -0.0010263 -0.00020146
-0.015646 0.0095738 0.14031 0.32517 0.0020739 0.012095 0.0016819 -0.00066863
0.00020015 -0.00099636 0.00036071 -0.00099409
0.0030106 -0.0038626 0.0021478 0.012098 0.3491 -0.049492 -0.00069473 -0.0003867
0.00071051 -0.00092471 0.00013873 -0.00014249
0.00010427 0.0026135 0.001685 -0.00067323 -0.00068756 -0.00038816 0.22104 0.14193
-0.015008 0.0017496 0.0012973 0.0020391
0.0022968 -0.0018102 0.00017667 -0.0010022 0.00070128 -0.00093003 -0.015021 0.0017863
0.12241 0.20053 -0.011616 0.0010547
-0.0010377 -0.00013886 0.00034238 -0.00098036 0.00011708 -0.00014988 0.0012735 0.0020059
-0.011626 0.0011107 0.1747 0.26804
1580000000 0.28836 0.071825 -0.0090543 0.013367 -0.0011253 -0.0044456 0.0014802 0.0018737
-0.00016126 -0.0022196 -0.00017906 0.00036072
-0.0090631 0.013366 0.16836 0.30068 0.0052417 0.0069942 0.00059702 -0.001535
-0.00042269 -0.0012023 -0.00018478 -0.00078047
-0.0011433 -0.0044412 0.0052975 0.0069845 0.32855 -0.10725 -0.0015041 0.00016448
-0.00039463 -0.0013461 0.00030226 -0.00056979
0.0014917 0.0018507 0.00059785 -0.0015588 -0.0015017 0.00016387 0.23572 0.10269
-0.011721 0.0069593 0.0019965 0.00085926
-0.00017872 -0.0022338 -0.00043113 -0.0011993 -0.00039932 -0.0013515 -0.011713 0.0069957
0.1477 0.18553 -0.0093202 0.0072788
-0.00019121 0.00040097 -0.0001969 -0.00078681 0.00033322 -0.00053911 0.0020479 0.00090955
-0.0093499 0.0072735 0.20832 0.24269
1640000000 0.2916 0.031067 -0.0021409 0.012529 -0.0027475 -0.0021361 0.0028107 0.001075
-0.00054102 -0.0017393 -0.00038202 0.00046309
-0.0021493 0.012518 0.1983 0.27681 0.0053013 0.0023195 -0.00044077 -0.0018354
-0.00094202 -0.0005925 -0.00043231 -0.0006641
-0.002768 -0.0021207 0.0053285 0.0023054 0.29902 -0.15587 -0.00067679 0.0011958
-0.00098345 -0.0011103 -9.6474e-05 -0.00038588
0.0028229 0.0010812 -0.00044687 -0.0018208 -0.00068213 0.0011942 0.24887 0.053744
-0.0078479 0.0084207 0.0024856 -0.00056662
-0.00053559 -0.0017204 -0.00095608 -0.00057777 -0.00097221 -0.00113 -0.0078268 0.0084369
0.17139 0.16496 -0.0047734 0.0093302
-0.00042073 0.00047577 -0.00043486 -0.00066006 -0.00012916 -0.00039371 0.0024705 -0.00060509
-0.0047039 0.0092875 0.23467 0.21269
1700000000 0.28627 -0.013655 0.0015258 0.010002 -0.0032486 0.00045198 0.0031338 -0.0012527
-0.0021202 -0.0007236 0.00045241 0.00047294
0.0015179 0.0099907 0.21732 0.24563 0.0027407 -0.00031049 -0.0014394 -0.00073871
-0.00086651 -0.00010966 -0.00080157 -0.00045001
-0.0032464 0.00045205 0.0027342 -0.00032005 0.25565 -0.19483 5.6909e-05 0.0016607
-0.0021729 -0.00015102 -0.00032184 -0.00082852
0.0031119 -0.0012928 -0.0014416 -0.00072854 5.5421e-05 0.0016675 0.24612 0.0034687
-0.0051307 0.0093914 0.0017378 -0.0020237
-0.002118 -0.00071618 -0.00087969 -0.00011056 -0.0021768 -0.00012424 -0.0051117 0.0094013
0.19104 0.14789 0.00025693 0.0095559
0.0005072 0.00045917 -0.0008262 -0.00046761 -0.00032956 -0.00082783 0.0017759 -0.0019906
0.00020564 0.0095663 0.25258 0.17938
1760000000 0.27565 -0.062569 0.0041894 0.0068515 -0.0019656 0.0012128 0.0013344 -0.003509
-0.0013348 0.00046519 0.00021715 -0.00054423
0.0041752 0.0068558 0.24382 0.20627 0.00014749 -0.0016503 -0.0012801 -2.89e-06
-0.0011541 0.00092008 -0.00050907 0.00034538
-0.0019638 0.0012305 0.0001324 -0.001648 0.20687 -0.22725 0.00109 0.0013826
-0.0011571 0.0014274 -0.0012228 -0.00062767
0.0013325 -0.003516 -0.0012679 -5.2209e-06 0.0010845 0.0013774 0.23759 -0.048726
-0.0014842 0.0089247 -0.00016915 -0.0023536
-0.0013175 0.00046826 -0.0011469 0.00092939 -0.0011384 0.0014273 -0.0014697 0.008926
0.20784 0.11624 0.0039112 0.0071456
0.00025737 -0.00056451 -0.00048403 0.0003347 -0.0012513 -0.00063998 -0.00022871 -0.0024159
0.0039766 0.0071299 0.26646 0.14195
1820000000 0.25265 -0.1004 0.0046847 0.0031549 0.00038414 0.0022971 -0.00088718 -0.0031131
-0.0011772 0.00088272 1.9385e-05 -9.9936e-05
0.0046658 0.0031525 0.25503 0.17683 -0.0018844 0.00026591 -0.0014956 0.00093876
-1.015e-05 0.0012565 -0.00066471 0.00039214
0.00040588 0.0022904 -0.0018777 0.00028922 0.15676 -0.24143 0.0018719 0.00061254
-0.00021354 0.0024088 -0.0016974 0.0002717
-0.00092707 -0.0030873 -0.0015031 0.0009334 0.0018646 0.00060481 0.20789 -0.096649
0.0003526 0.0076488 -0.001475 -0.0017445
-0.0011632 0.00089842 8.6261e-06 0.0012498 -0.00020358 0.0024157 0.00034546 0.0076481
0.22811 0.089986 0.005212 0.0034912
-1.7815e-06 -9.7607e-05 -0.00065905 0.00037918 -0.0017082 0.00023169 -0.0014206 -0.0016999
0.0051811 0.0034877 0.27027 0.10729
1880000000 0.21835 -0.14161 0.0025468 0.00079281 -0.0002328 0.0021353 -0.0027882 -0.002388
-0.00020959 0.0016979 0.00023885 -0.00063185
0.0025423 0.00079237 0.25979 0.13026 -0.0037261 0.0028329 -0.00030658 0.0018393
0.00060757 0.0013256 8.8867e-05 0.00097034
-0.00021322 0.0021582 -0.003689 0.0028707 0.1052 -0.24963 0.0020752 -0.0011788
0.0016066 0.0019162 -0.00092251 0.0015028
-0.0027983 -0.0023586 -0.00029231 0.0018592 0.0020791 -0.0011806 0.16701 -0.13705
0.0014751 0.0056641 -0.0021924 0.00019645
-0.00019372 0.0017191 0.00061507 0.0013341 0.0016309 0.0019269 0.0015055 0.0056679
0.23509 0.060677 0.0054137 0.0014592
0.00025151 -0.00062144 0.00012549 0.00093465 -0.00091526 0.0015062 -0.002273 0.00017853
0.0054211 0.0014318 0.27174 0.073165
1940000000 0.17957 -0.16794 0.00036605 -0.001044 0.0016013 0.0016433 -0.0038722 0.00032952
0.0011577 0.00093986 -0.00064951 -0.000655
0.00037267 -0.0010409 0.26141 0.099019 -0.0017244 0.0056649 0.0010629 0.0014409
0.0019843 0.00037214 0.00096503 0.00028445
0.0016086 0.0016488 -0.0016833 0.0056875 0.061686 -0.24129 0.00041524 -0.0024656
0.0022317 0.00032442 0.00027168 0.0015834
-0.0039051 0.00035101 0.0010762 0.0014265 0.00041602 -0.0024658 0.11433 -0.1682
0.0010823 0.003843 -0.0014295 0.0013259
0.0011645 0.00088014 0.0019934 0.00033301 0.0022289 0.00032904 0.0010679 0.0038538
0.24178 0.024261 0.0043525 -0.0024857
-0.00070059 -0.00066062 0.00092332 0.00028628 0.00026621 0.0016133 -0.0013452 0.0013212
0.0043879 -0.0024484 0.26225 0.037564
2000000000 0.1338 -0.18331 -0.0032375 0.00092632 0.0029006 0.0013184 -0.002546 0.0036789
0.00076712 0.00051 -0.00084972 0.0005885
-0.0032235 0.00092508 0.2482 0.063618 -0.00052616 0.007659 0.001633 0.00039176
0.0010591 -0.001309 0.00034962 0.00012385
0.0028919 0.0012868 -0.00045397 0.0076679 0.020235 -0.22753 -0.0015254 -0.0015181
0.0019675 -0.0010029 0.001403 0.0014523
-0.002522 0.0036631 0.0016633 0.00039343 -0.0015158 -0.001516 0.06044 -0.17847
-0.00082173 0.0033385 -0.00013057 0.0020813
0.00076776 0.00053565 0.0010187 -0.0012929 0.0019528 -0.0010034 -0.00080306 0.0033032
