!Keysight Technologies,M9804A,MY58100912,A.14.10.03
!Date: Thursday, April 27, 2023 10:28:33
!Correction: S11(C  6-Port  ) 
!S12(C  6-Port  ) 
!S13(C  6-Port  ) 
!S14(C  6-Port  ) 
!S15(C  6-Port  ) 
!S16(C  6-Port  ) 
!S21(C  6-Port  ) 
!S22(C  6-Port  ) 
!S23(C  6-Port  ) 
!S24(C  6-Port  ) 
!S25(C  6-Port  ) 
!S26(C  6-Port  ) 
!S31(C  6-Port  ) 
!S32(C  6-Port  ) 
!S33(C  6-Port  ) 
!S34(C  6-Port  ) 
!S35(C  6-Port  ) 
!S36(C  6-Port  ) 
!S41(C  6-Port  ) 
!S42(C  6-Port  ) 
!S43(C  6-Port  ) 
!S44(C  6-Port  ) 
!S45(C  6-Port  ) 
!S46(C  6-Port  ) 
!S51(C  6-Port  ) 
!S52(C  6-Port  ) 
!S53(C  6-Port  ) 
!S54(C  6-Port  ) 
!S55(C  6-Port  ) 
!S56(C  6-Port  ) 
!S61(C  6-Port  ) 
!S62(C  6-Port  ) 
!S63(C  6-Port  ) 
!S64(C  6-Port  ) 
!S65(C  6-Port  ) 
!S66(C  6-Port  ) 
!S6P File: Measurement: :
# Hz S  RI   R 50
500000000 -0.32733 -0.06354 -0.0098388 -0.0011482 -0.0082131 0.01187 -0.0038523 0.011816
0.013389 0.006137 -0.0044012 0.0086211
-0.010117 -0.0013188 -0.40824 -0.074898 0.0084542 -0.011326 0.000678 0.011433
0.0093097 0.0031874 0.00093052 0.01318
-0.0082794 0.01175 0.0083176 -0.011135 -0.25623 0.19034 0.0063443 0.0031231
-0.001453 0.0080067 0.00060672 0.012151
-0.0038481 0.011234 0.00077817 0.011162 0.0063328 0.0031992 -0.32587 0.041836
-0.019367 -0.005282 0.01638 0.027099
0.013039 0.0062513 0.00927 0.0031339 -0.00133 0.0079329 -0.019331 -0.0052918
-0.21713 -0.23793 -0.02792 0.0035845
-0.0042431 0.0076087 0.00075604 0.012891 0.00053539 0.012208 0.016265 0.026999
-0.027832 0.0036252 -0.25996 -0.14604
560000000 -0.31597 0.10378 -0.021699 -0.067622 0.00023252 0.013263 0.0057436 0.010713
0.011741 0.0055832 0.011177 0.0099583
-0.021118 -0.06734 -0.36954 0.08933 -0.041516 -0.039243 0.014089 0.0033572
-0.013709 -0.0052496 0.0042155 -0.0014952
0.00013027 0.01361 -0.041657 -0.039293 -0.18177 0.24007 -0.0004819 -0.0050324
0.018094 0.006275 0.0080172 -0.0058325
0.0059815 0.010883 0.013972 0.0034557 -0.0004873 -0.0050353 -0.30313 0.13108
0.0067751 -0.023092 0.0058273 -0.020611
0.01235 0.0047675 -0.013416 -0.0053203 0.018148 0.0061838 0.0065631 -0.023097
-0.2998 -0.05858 0.012889 -0.050361
0.011395 0.010576 0.0043601 -0.0015133 0.0079206 -0.0057938 0.0061671 -0.020994
0.012995 -0.049702 -0.32952 0.0072081
620000000 -0.27546 0.08078 -0.023459 0.0090093 0.0032792 0.0089279 0.007854 -0.0047606
0.01184 -0.00012331 0.00027662 -0.0027
-0.023437 0.008829 -0.39917 0.035819 -0.019152 -0.00015704 -0.0018417 -0.0019676
0.011821 -0.0052321 0.00055282 -0.0029415
0.0031569 0.0090435 -0.019213 -3.302e-05 -0.15519 0.24936 -0.0015146 -0.0052158
-0.0038016 -0.0025623 0.0081591 -0.0035792
0.0079087 -0.0047187 -0.001874 -0.0019939 -0.0014964 -0.0050943 -0.26186 0.14047
-0.038924 -0.020678 0.011184 0.02765
0.012204 -0.00043826 0.012005 -0.0052251 -0.0037512 -0.0027659 -0.038872 -0.020704
-0.21519 -0.093007 -0.043387 0.011953
-0.00054998 -0.0024574 0.00064877 -0.0029154 0.0079468 -0.0034455 0.011226 0.02771
-0.043138 0.012572 -0.24766 -0.033154
680000000 -0.241 0.17355 -0.026228 -0.014944 0.0045907 0.005671 0.0015089 -0.0071954
-0.0015753 -0.012154 0.0062593 -0.0069118
-0.026146 -0.015009 -0.39027 0.13698 -0.032714 -0.0021923 -0.0016689 -0.00024154
-0.0013257 -0.0092803 -0.0006402 -0.0016949
0.0046042 0.005592 -0.032755 -0.0021149 -0.10799 0.2727 -0.00085847 0.00028991
-0.0012054 0.0013713 -0.0028554 -0.008859
0.0013179 -0.0072028 -0.0017685 -0.0002672 -0.00087501 0.00028284 -0.2198 0.19195
-0.022997 -0.0075706 -0.0092594 -0.011294
-0.0018909 -0.012031 -0.001349 -0.0092986 -0.0011765 0.0012942 -0.02296 -0.007597
-0.2831 0.0099213 -0.0056615 -0.0072519
0.0059168 -0.0069284 -0.00082749 -0.0016868 -0.0029326 -0.0088441 -0.0091722 -0.011684
-0.005918 -0.007511 -0.26119 0.072721
740000000 -0.19552 0.16728 -0.040921 0.02646 0.013461 -0.003679 3.6354e-06 -0.003764
-0.0032361 -0.0023415 -0.007012 0.0035151
-0.04101 0.026221 -0.33715 0.15772 -0.037577 0.034293 9.6194e-05 -0.0059209
-0.01383 0.0077705 -0.0016337 -0.0056226
0.013513 -0.0035107 -0.03749 0.03453 -0.075355 0.27356 -0.00183 0.0035414
-0.0012469 -0.0056227 -0.0019843 0.00080217
3.5111e-05 -0.003866 0.00010675 -0.0057902 -0.0018002 0.0034793 -0.20232 0.19962
-0.043306 -0.0091486 0.022451 0.016054
-0.0033452 -0.0027992 -0.013491 0.0075124 -0.0012106 -0.0055939 -0.043222 -0.009118
-0.17927 0.044269 -0.045731 -0.00051988
-0.0068765 0.0036239 -0.0015436 -0.0055551 -0.0020756 0.00079009 0.022619 0.016161
-0.045856 -0.00063296 -0.25158 0.075745
800000000 -0.16647 0.21283 -0.022812 0.016063 0.0056276 -0.010278 -0.004261 -0.0027265
-0.0044285 0.0017763 0.0045795 -0.00013381
-0.022559 0.015972 -0.34516 0.22824 -0.0089653 0.034487 -0.0021182 0.0020277
-0.00040128 0.0021285 0.00081727 0.0051073
0.0056343 -0.010251 -0.00889 0.034541 -0.036452 0.2998 0.001273 0.0011326
-1.4662e-05 0.0032239 -0.0016063 0.00061974
-0.0045758 -0.0026344 -0.0022099 0.0020491 0.0012577 0.0011352 -0.17383 0.22746
-0.029187 0.012742 0.0157 -0.010228
-0.0038153 0.0020684 -0.00036774 0.0022925 2.4192e-05 0.0032192 -0.029199 0.012822
-0.23405 0.067478 -0.01927 0.020658
0.0041109 -0.00035295 0.00080632 0.0052035 -0.0016185 0.00064592 0.015655 -0.010224
-0.019151 0.020394 -0.24703 0.12925
860000000 -0.13313 0.2346 -0.018497 0.030609 -0.0032246 -0.0099803 -0.0020439 0.00067582
0.0043685 0.0050335 -0.0037009 -0.0030069
-0.018529 0.0308 -0.29811 0.27288 0.0075051 0.034505 0.00018154 0.0021302
0.0042537 0.0002541 0.00371 0.00037276
-0.0032534 -0.0098973 0.0076201 0.034536 0.011979 0.3101 -0.00054151 -0.00040679
0.0024026 -0.0018513 0.0016365 0.0042506
-0.002362 0.00093543 0.00020738 0.0021832 -0.00055999 -0.00040686 -0.13756 0.23995
-0.018871 0.017667 -0.0068549 -0.0098457
0.0041027 0.0051555 0.0041254 0.00040324 0.002412 -0.0018049 -0.018865 0.017697
-0.1787 0.12912 -0.027392 0.015874
-0.0040666 -0.0032257 0.0038077 0.00018952 0.0016681 0.0042724 -0.0069141 -0.0098214
-0.027199 0.015996 -0.19771 0.17747
920000000 -0.10983 0.25826 0.0042029 0.039633 -0.0093454 -0.0043851 -0.002003 0.0015841
0.00029307 0.0013677 0.0026083 -0.0012419
0.004101 0.039641 -0.27178 0.29531 0.028003 0.023084 0.0012023 0.000997
0.0069615 -0.00011617 0.0035285 -0.0027872
-0.0094533 -0.004304 0.028091 0.023021 0.058421 0.31212 0.0016502 -5.2924e-05
0.00051598 -0.00043961 0.00088131 -0.0013379
-0.0019805 0.001674 0.0012254 0.0010791 0.0016596 -5.669e-05 -0.11414 0.25672
-0.012994 0.030522 0.0043724 -0.0064887
0.00032205 0.0014884 0.0069747 -0.00018557 0.0005073 -0.00045647 -0.012965 0.030555
-0.17187 0.13347 -0.0043139 0.028638
0.0027538 -0.0013058 0.0036001 -0.0028016 0.00084779 -0.0013557 0.0043816 -0.0067
-0.0041272 0.028593 -0.20841 0.19009
980000000 -0.063836 0.28017 0.016336 0.030845 -0.0092622 0.0047138 0.0019575 0.0037624
0.0037602 -0.001254 -0.0032384 -0.0025434
0.016304 0.03073 -0.21964 0.33251 0.033183 0.0053437 0.0018336 -0.00028178
0.0016258 -0.0059406 -0.00032308 -0.0029914
-0.0092224 0.0047336 0.033223 0.0052425 0.10496 0.30695 0.00046211 -0.001125
0.00027488 -0.0017343 0.0014398 -0.00029127
0.0019346 0.0035987 0.0018368 -0.00027659 0.00045957 -0.0011189 -0.075642 0.26838
0.0067196 0.030666 -0.0098173 -0.007971
0.0037741 -0.0013073 0.0015433 -0.0059438 0.00029026 -0.0017415 0.0068179 0.030635
-0.14249 0.17072 0.00512 0.020762
-0.0032557 -0.0026096 -0.00041206 -0.0029298 0.0014095 -0.00030104 -0.0098227 -0.0079183
0.0050807 0.020658 -0.16792 0.23881
1040000000 -0.022431 0.28991 0.03304 0.020043 -0.0010122 0.0075965 0.0024579 0.00048614
0.00058433 -0.0031549 -0.00055201 -0.0014569
0.033093 0.019898 -0.18472 0.34687 0.029712 -0.014306 0.0014422 -0.0017206
-0.0024971 -0.0022678 -0.0012435 -0.0030336
-0.00094523 0.0075212 0.029697 -0.014423 0.1515 0.2943 -0.00051943 -0.0013677
-0.0015296 -0.00091825 -0.00062576 -0.0011283
0.0024482 0.00049374 0.0013573 -0.0017744 -0.00051526 -0.0013746 -0.04836 0.27843
0.018465 0.019495 -0.0022164 0.0014559
0.00041882 -0.0032468 -0.0025134 -0.0022665 -0.001514 -0.00090123 0.018503 0.019488
-0.11035 0.17923 0.013309 0.020209
-0.00018325 -0.0015469 -0.0013615 -0.0029141 -0.00061102 -0.0011286 -0.0021293 0.0014944
0.01331 0.02013 -0.14586 0.25964
1100000000 0.022202 0.30075 0.036848 -0.0026509 0.0035561 0.0041455 0.0025521 -0.00098864
-0.0024215 -0.003145 -0.004 -0.00018081
0.036869 -0.0026402 -0.14113 0.36718 0.015446 -0.027558 -6.1452e-05 -0.0017589
-0.0033921 -0.00089264 -0.0036472 -0.00066981
0.0035493 0.0041628 0.015343 -0.027635 0.19807 0.27502 -0.0016806 0.00032884
-0.001675 0.0007006 -0.0010878 -0.00060039
0.0025172 -0.00094097 -6.3564e-05 -0.0017802 -0.0016915 0.00033167 -0.0079249 0.28367
0.024682 0.0069128 -0.0024915 6.9883e-05
-0.0024738 -0.0031975 -0.0034136 -0.00086587 -0.0016608 0.00067734 0.024682 0.0068663
-0.093105 0.19596 0.020029 0.010677
-0.0040174 8.4319e-05 -0.0037072 -0.00064687 -0.0011099 -0.00061289 -0.0025641 0.00011369
0.019837 0.010575 -0.10174 0.29247
1160000000 0.073684 0.29749 0.025215 -0.019963 0.0035554 -0.00075609 -0.00031096 -0.0026556
-0.004147 -0.0011443 -0.001235 0.0042484
0.025227 -0.019934 -0.097069 0.37211 -0.0034027 -0.028659 -0.0015535 -0.0015439
-0.002521 0.0023405 -0.0014967 0.0020563
0.0035617 -0.00076672 -0.0035451 -0.028668 0.24159 0.24508 -0.00060658 0.0016863
-0.00045055 0.0018134 -0.0010382 0.00020074
-0.00027654 -0.0026656 -0.0015794 -0.0015701 -0.00060986 0.0016939 0.031416 0.28086
0.022001 -0.0097951 -0.0035642 0.0054066
-0.0040099 -0.0010781 -0.0024989 0.0023519 -0.00045215 0.0018332 0.021991 -0.0098355
-0.056883 0.20738 0.018801 0.001043
-0.0011355 0.0042472 -0.0016826 0.0019973 -0.0010455 0.00018885 -0.0035242 0.0053971
0.018864 0.0011158 -0.053865 0.29632
1220000000 0.11753 0.2888 0.012265 -0.030086 -0.0011297 -0.0016129 9.6418e-05 -0.00094383
-0.002839 0.0023473 0.0012245 0.0018516
0.01232 -0.030082 -0.052793 0.38662 -0.016622 -0.021052 -0.0024023 0.00053741
-8.4397e-07 0.0030182 -0.00080061 0.0018139
-0.0011218 -0.001625 -0.016749 -0.021006 0.28125 0.20699 0.00088468 0.0014542
0.00054285 0.0011281 0.00020182 0.00058695
1.3338e-05 -0.00095366 -0.0024152 0.00053912 0.00089619 0.0014584 0.071082 0.27273
0.011398 -0.016473 0.0021828 0.0016097
-0.0028279 0.002267 2.9491e-05 0.0029806 0.00053965 0.001131 0.0114 -0.01649
-0.035447 0.21945 0.015479 -0.012223
0.0011882 0.0018917 -0.00075192 0.0018271 0.00020535 0.00057115 0.0021773 0.001619
0.015421 -0.012234 -0.024578 0.31484
1280000000 0.16805 0.2693 -0.0066824 -0.029306 -0.0019443 0.0016703 -0.0010704 -0.0019896
-0.000899 0.0032406 0.0025776 0.0012971
-0.006741 -0.029224 -0.0059522 0.37869 -0.023563 -0.0081342 -0.00083302 0.001414
0.0015443 0.0017455 0.00076924 0.0021911
-0.0019874 0.0016759 -0.023641 -0.0080278 0.31293 0.16377 0.0013975 -0.00014916
0.00103 0.0002984 0.00031807 0.00039299
-0.0010145 -0.0019864 -0.00082221 0.0014318 0.0013921 -0.00013327 0.10765 0.25665
0.0019484 -0.019226 -0.00010114 2.0598e-06
-0.00096175 0.003204 0.0015788 0.0017561 0.0010166 0.00029728 0.0019151 -0.019233
0.0016453 0.22585 0.003985 -0.01535
0.0025116 0.0013097 0.00072445 0.0020973 0.00028744 0.0004331 -6.4161e-05 1.2973e-05
0.0040372 -0.015271 0.024122 0.3183
1340000000 0.20575 0.23718 -0.01676 -0.020128 0.00024352 0.0041182 -0.0017735 -0.00079406
0.001628 0.0028467 0.0015835 -0.0015199
-0.016712 -0.020133 0.033181 0.37173 -0.020804 0.0044096 -0.00020815 0.0018625
0.0018131 0.00089239 0.0011167 0.00079166
0.00024597 0.0041103 -0.020824 0.0045224 0.33586 0.11622 0.00073703 -0.00088019
0.0005632 -0.00061126 3.1066e-05 0.00030803
-0.001784 -0.00075595 -0.00019706 0.0018794 0.0007412 -0.00088016 0.14058 0.23685
-0.0076974 -0.016606 0.0011898 0.00042796
0.0015587 0.0027834 0.0018325 0.00088994 0.00058513 -0.00058676 -0.0077257 -0.016603
0.030789 0.22361 -0.002668 -0.014081
0.0015555 -0.0014486 0.0011556 0.00078428 4.5245e-05 0.00028888 0.0012141 0.0004321
-0.002685 -0.013989 0.062056 0.31524
1400000000 0.24027 0.20063 -0.023434 -0.0088815 0.0045885 0.0030852 -0.0021379 0.00078646
0.0025795 0.00095373 0.00032161 -0.0011762
-0.023386 -0.008884 0.071579 0.35986 -0.014074 0.01229 0.0011902 0.0013442
0.0011211 -0.00054571 0.0011595 0.00021876
0.0046512 0.0030585 -0.01403 0.012371 0.34988 0.062256 -2.7984e-05 -0.0013161
0.00016311 -0.00018553 0.00037722 0.00026935
-0.0021289 0.00081336 0.0012018 0.0013456 -2.472e-05 -0.0013126 0.17037 0.20842
-0.013892 -0.010273 -0.00089039 -0.00038307
0.0026096 0.00096403 0.0011183 -0.00054295 0.00016518 -0.0002005 -0.013923 -0.010239
0.064701 0.22278 -0.0094941 -0.0094445
0.00032008 -0.0012734 0.001144 0.00020124 0.00037005 0.00029598 -0.00089283 -0.00033991
-0.0094911 -0.0093952 0.10753 0.30636
1460000000 0.26413 0.15779 -0.020853 0.0037622 0.0050527 -0.0016256 -0.0015204 0.0016695
0.0020932 -0.00034432 -0.000221 -0.00089789
-0.020817 0.0037376 0.10623 0.33845 -0.0052481 0.014791 0.0015967 0.00033059
0.0011647 -0.0011922 0.0012938 -0.00052983
0.0050787 -0.0016415 -0.0051891 0.014837 0.35646 0.0072792 -0.001014 -0.0010731
0.0003366 -0.00012116 0.00067558 -0.00030232
-0.0015315 0.0017013 0.0016057 0.00032375 -0.0010132 -0.0010666 0.1973 0.17991
-0.015061 -0.0038091 -0.00098862 0.0018613
0.0021078 -0.00035509 0.0011592 -0.0012245 0.00035036 -0.00010512 -0.015077 -0.0037958
0.094115 0.21079 -0.011474 -0.0033105
-0.00023242 -0.0010071 0.0012653 -0.00054985 0.0006944 -0.00030515 -0.0010071 0.0018417
-0.011577 -0.0033544 0.14099 0.28646
1520000000 0.27751 0.11717 -0.01564 0.0095923 0.0030381 -0.0038357 0.00010419 0.0026223
0.0022536 -0.001818 -0.00098484 -0.0001613
-0.015637 0.0095521 0.14036 0.32508 0.002071 0.012092 0.001666 -0.00066309
0.00018432 -0.00099741 0.00034792 -0.00096949
0.0030312 -0.0039207 0.0021431 0.012085 0.3491 -0.04955 -0.00070506 -0.00037207
0.00071603 -0.00096184 7.7469e-05 -0.00014974
9.8822e-05 0.0026128 0.0016644 -0.00066769 -0.0006997 -0.0003839 0.22107 0.14193
-0.015032 0.0017553 0.0012861 0.0019914
0.0022963 -0.0018707 0.00018544 -0.0009925 0.00070167 -0.00096401 -0.015029 0.0017927
0.12234 0.20039 -0.011658 0.0011402
-0.00098964 -0.00011459 0.00034799 -0.00098544 7.4818e-05 -0.0001761 0.0013014 0.0019884
-0.011591 0.0010833 0.17469 0.268
1580000000 0.28836 0.071769 -0.0090607 0.01337 -0.0011092 -0.0044661 0.001497 0.001868
-0.00013683 -0.0022438 -0.00020168 0.0003775
-0.0090606 0.013388 0.1684 0.30066 0.0052314 0.0069906 0.00061454 -0.0015269
-0.00044434 -0.0011965 -0.00013075 -0.00079246
-0.0011859 -0.0044305 0.0052741 0.0069884 0.3285 -0.10724 -0.0015032 0.00017982
-0.00042647 -0.0013456 0.0003493 -0.00056368
0.0015039 0.0018795 0.00060762 -0.0015374 -0.001492 0.00018985 0.23572 0.1027
-0.01174 0.0069606 0.0019742 0.00095837
-0.00014355 -0.0021802 -0.00046447 -0.0011928 -0.00040489 -0.001347 -0.011743 0.0069923
0.14769 0.18555 -0.0094031 0.0072967
-0.0002668 0.00038384 -0.00014809 -0.00077155 0.00036034 -0.00056228 0.0019921 0.00097138
-0.0093801 0.0073353 0.20832 0.24274
1640000000 0.29164 0.03111 -0.0021455 0.012526 -0.0027434 -0.0021087 0.0027829 0.0010909
-0.00055402 -0.0017083 -0.00043036 0.00047824
-0.0021526 0.012516 0.19834 0.27673 0.0052987 0.0023206 -0.00044534 -0.0018304
-0.00096709 -0.0005813 -0.00043097 -0.00064485
-0.0027551 -0.0021412 0.0053164 0.0023046 0.29905 -0.15591 -0.00070609 0.0012149
-0.0010119 -0.0011219 -0.00011338 -0.00038188
0.0027519 0.0010709 -0.00046048 -0.0018487 -0.00070469 0.0012003 0.2489 0.0537
-0.0078262 0.0083944 0.0024735 -0.0006144
-0.00058293 -0.0016801 -0.00096594 -0.00058192 -0.00099634 -0.0011299 -0.0078214 0.0084182
0.17138 0.16486 -0.0046728 0.0093093
-0.00046378 0.00045111 -0.00041457 -0.00064602 -0.00012183 -0.00040502 0.0024638 -0.00059077
-0.004685 0.0092962 0.23458 0.21268
1700000000 0.28628 -0.013729 0.0015161 0.010009 -0.003252 0.00043276 0.0031352 -0.0012565
-0.0021017 -0.00072084 0.00047271 0.00043783
0.0015287 0.0099984 0.21736 0.24559 0.0027334 -0.0003086 -0.0014426 -0.00074548
-0.00089633 -0.00011717 -0.00079638 -0.00047003
-0.0032581 0.00042045 0.0027181 -0.00032068 0.25561 -0.19487 4.6196e-05 0.0016455
-0.0022018 -0.0001534 -0.00030649 -0.00083938
0.0031378 -0.0012715 -0.0014387 -0.00075442 6.5988e-05 0.0016659 0.24615 0.003499
-0.005155 0.0094231 0.0017845 -0.0019456
-0.0020963 -0.0006699 -0.00088871 -0.00010591 -0.0021869 -0.00011806 -0.0051304 0.0094591
0.19094 0.14799 0.00024281 0.0095832
0.0005266 0.00048188 -0.00082269 -0.00046532 -0.0003116 -0.0008489 0.0017581 -0.0019837
0.00021962 0.0095632 0.25263 0.1793
1760000000 0.27566 -0.06259 0.0041908 0.0068441 -0.0019621 0.0012068 0.0013367 -0.0035163
-0.0013217 0.00047863 0.00027502 -0.00056092
0.0041822 0.0068318 0.24389 0.20626 0.00013795 -0.0016406 -0.001258 1.7302e-05
-0.0011524 0.00092432 -0.00047917 0.00033767
-0.0019701 0.0012037 0.00013368 -0.0016523 0.20687 -0.22724 0.0011027 0.0014038
-0.0011301 0.0014375 -0.0012473 -0.00064897
0.0013162 -0.0034732 -0.0012807 2.0765e-05 0.0011121 0.0013962 0.23762 -0.048802
-0.0014792 0.008896 -0.00017507 -0.0024269
-0.0013355 0.00052776 -0.001162 0.00094525 -0.0011013 0.0014476 -0.0014684 0.008911
0.20776 0.11622 0.004019 0.0071398
0.00026796 -0.00054216 -0.00046707 0.00030284 -0.0012361 -0.00066008 -0.00017769 -0.0023897
0.0040173 0.0071244 0.26647 0.14213
1820000000 0.25265 -0.1004 0.004697 0.0031649 0.0003999 0.0022819 -0.00088257 -0.0031522
-0.0011334 0.00087014 2.081e-05 -0.00013005
0.0046457 0.0031538 0.25503 0.17678 -0.0018807 0.00028982 -0.0014808 0.00090669
-2.8208e-06 0.0012584 -0.00063213 0.00038036
0.00036846 0.0023144 -0.0019095 0.00031013 0.15674 -0.24148 0.0018445 0.00057214
-0.00019972 0.0023868 -0.001667 0.00021134
-0.00092756 -0.0031386 -0.0014786 0.00091684 0.0018406 0.0005947 0.20785 -0.096631
0.00030678 0.0076495 -0.001464 -0.0016842
-0.0012129 0.00088607 -5.8679e-06 0.0012541 -0.0002195 0.0023913 0.00032355 0.00766
0.22803 0.090004 0.0052093 0.0034611
1.9088e-05 -0.00013321 -0.00062878 0.00042143 -0.0016815 0.00021586 -0.0014861 -0.0016995
0.005203 0.0034472 0.27018 0.10717
1880000000 0.21838 -0.14164 0.0025529 0.00077719 -0.00019667 0.0021275 -0.0027932 -0.0023033
-0.00020312 0.0017254 0.00025932 -0.00060621
0.0025272 0.00077456 0.25982 0.13023 -0.0037073 0.0028191 -0.0003234 0.0018569
0.00060191 0.001327 0.00011246 0.00093231
-0.00030646 0.0021223 -0.0037189 0.0028822 0.10517 -0.24963 0.0020307 -0.0012353
0.0015865 0.0019246 -0.00094934 0.00149
-0.002867 -0.0023235 -0.00031939 0.0018474 0.0020584 -0.0011916 0.16705 -0.13715
0.0015426 0.0056234 -0.0022326 0.00014517
-0.00015358 0.0016698 0.00060096 0.0013128 0.0016295 0.0019518 0.0015638 0.0056004
0.23514 0.060708 0.0054562 0.0014696
0.00021829 -0.00071154 7.7319e-05 0.00093189 -0.00093001 0.0014886 -0.0022345 0.00014619
0.005447 0.0014549 0.27176 0.073333
1940000000 0.17962 -0.168 0.00036845 -0.0010402 0.0016125 0.001671 -0.003893 0.00032763
0.0011515 0.0008948 -0.00064765 -0.00063618
0.00035529 -0.0010642 0.26143 0.098966 -0.001729 0.0056488 0.0010369 0.001413
0.0019837 0.00035951 0.00092331 0.00026958
0.001571 0.0016483 -0.0016884 0.0056659 0.061695 -0.24131 0.00043502 -0.0024753
0.0022465 0.00030678 0.00027211 0.0016082
-0.0038936 0.00022176 0.0011039 0.0014101 0.00044679 -0.0024727 0.11423 -0.16823
0.00097149 0.0037888 -0.0013812 0.0013671
0.0011669 0.00082531 0.0020095 0.00036298 0.0022343 0.0003231 0.0009707 0.0037989
0.24162 0.024238 0.0044082 -0.0025278
-0.00065483 -0.00075764 0.00092185 0.00028582 0.00028941 0.001579 -0.0013137 0.0013822
0.0044216 -0.0025309 0.26215 0.037482
2000000000 0.13376 -0.18337 -0.0032077 0.00086188 0.0028873 0.0013204 -0.0026216 0.0037237
0.00076889 0.00056583 -0.00089254 0.00060753
-0.0032101 0.00085604 0.2482 0.063583 -0.00050421 0.0076648 0.0016593 0.0004357
0.0010184 -0.0013022 0.00038314 0.00013464
0.0028156 0.0012915 -0.00043343 0.0076616 0.020277 -0.22753 -0.0015053 -0.0014396
0.0019559 -0.00097413 0.001456 0.0014814
-0.0024848 0.0036717 0.0016444 0.00043294 -0.0014815 -0.0014695 0.060501 -0.17845
-0.00072767 0.0033726 -0.00015454 0.002076
0.00089616 0.00059351 0.0010401 -0.0013007 0.0019563 -0.0010023 -0.00068375 0.0033777
0.24023 -0.0086774 0.00053387 -0.0035046
