!Keysight Technologies,M9804A,MY58100912,A.14.10.03
!Date: Thursday, April 27, 2023 10:28:33
!Correction: S11(C  6-Port  ) 
!S12(C  6-Port  ) 
!S13(C  6-Port  ) 
!S14(C  6-Port  ) 
!S15(C  6-Port  ) 
!S16(C  6-Port  ) 
!S21(C  6-Port  ) 
!S22(C  6-Port  ) 
!S23(C  6-Port  ) 
!S24(C  6-Port  ) 
!S25(C  6-Port  ) 
!S26(C  6-Port  ) 
!S31(C  6-Port  ) 
!S32(C  6-Port  ) 
!S33(C  6-Port  ) 
!S34(C  6-Port  ) 
!S35(C  6-Port  ) 
!S36(C  6-Port  ) 
!S41(C  6-Port  ) 
!S42(C  6-Port  ) 
!S43(C  6-Port  ) 
!S44(C  6-Port  ) 
!S45(C  6-Port  ) 
!S46(C  6-Port  ) 
!S51(C  6-Port  ) 
!S52(C  6-Port  ) 
!S53(C  6-Port  ) 
!S54(C  6-Port  ) 
!S55(C  6-Port  ) 
!S56(C  6-Port  ) 
!S61(C  6-Port  ) 
!S62(C  6-Port  ) 
!S63(C  6-Port  ) 
!S64(C  6-Port  ) 
!S65(C  6-Port  ) 
!S66(C  6-Port  ) 
!S6P File: Measurement: :
# Hz S  RI   R 50
500000000 -0.32629 -0.061712 -0.01037 -0.0020487 -0.008517 0.012136 -0.0038073 0.012212
0.013736 0.0064027 -0.0044296 0.0085127
-0.010183 -0.0020444 -0.4085 -0.072282 0.0080775 -0.011143 0.0010602 0.011742
0.0094342 0.0039524 0.0009531 0.013762
-0.0085181 0.012051 0.0079579 -0.01125 -0.25397 0.19363 0.0072638 0.0027323
-0.0015535 0.0078713 0.0015578 0.010886
-0.0039196 0.012196 0.00087539 0.011824 0.0072188 0.0027666 -0.3269 0.044589
-0.020334 -0.0049053 0.015914 0.028136
0.013781 0.0060449 0.0094594 0.0040632 -0.0014762 0.0078137 -0.020478 -0.004833
-0.20602 -0.25543 -0.029869 0.0053533
-0.004538 0.0087071 0.00085581 0.013958 0.0014965 0.010903 0.015542 0.028353
-0.030051 0.0051544 -0.25345 -0.14619
560000000 -0.3133 0.10671 -0.021779 -0.06685 -0.00027919 0.013728 0.0060961 0.010875
0.0097303 0.0055535 0.011411 0.0088282
-0.021598 -0.0667 -0.36762 0.090854 -0.041171 -0.038678 0.013151 0.003124
-0.013851 -0.0056178 0.0041262 -0.00086636
-0.0001709 0.013611 -0.041235 -0.038736 -0.1793 0.24152 -0.00064855 -0.005011
0.0175 0.0057807 0.0075333 -0.0059167
0.00569 0.011222 0.013273 0.0030926 -0.00067755 -0.0048937 -0.30255 0.13311
0.0071081 -0.022747 0.0052449 -0.021887
0.010267 0.0056806 -0.013774 -0.0060069 0.017575 0.006115 0.0069627 -0.022955
-0.29667 -0.072039 0.010546 -0.050968
0.01138 0.0094235 0.0042141 -0.0007701 0.0071552 -0.0057719 0.0051984 -0.021755
0.011038 -0.050436 -0.32607 -0.00010687
620000000 -0.27357 0.082039 -0.023942 0.0089348 0.0028385 0.0087817 0.007975 -0.0042057
0.012136 -4.8983e-05 -0.0004076 -0.0018485
-0.02385 0.0088855 -0.39853 0.035967 -0.019674 0.00024103 -0.0017757 -0.002087
0.012426 -0.0055542 0.00020771 -0.0031387
0.0029191 0.0088114 -0.019669 0.00026181 -0.1532 0.25063 -0.0017264 -0.005138
-0.0040259 -0.0025384 0.0079289 -0.0029229
0.0077449 -0.0044952 -0.001875 -0.0020335 -0.001602 -0.0051903 -0.26132 0.14188
-0.039628 -0.020701 0.012184 0.027778
0.012206 0.00016828 0.012351 -0.0055725 -0.0041321 -0.0025283 -0.039777 -0.020592
-0.20909 -0.11036 -0.046155 0.013617
-0.00054801 -0.0020464 0.00049967 -0.0033458 0.0080714 -0.0029263 0.012012 0.028066
-0.04602 0.013313 -0.24183 -0.037959
680000000 -0.23972 0.17467 -0.026396 -0.015024 0.0047155 0.0052086 0.0016271 -0.00755
-0.0017334 -0.011791 0.0059134 -0.0072138
-0.026433 -0.014992 -0.38933 0.13817 -0.032836 -0.0015661 -0.0019246 -0.00032208
-0.001445 -0.0096885 -0.0010466 -0.0017635
0.0047287 0.0053206 -0.032937 -0.0014785 -0.1067 0.27452 -0.00077239 0.00034718
-0.0015643 0.00080749 -0.0029813 -0.0090399
0.0015884 -0.0074939 -0.0018348 -0.00029145 -0.00073866 0.00035572 -0.21823 0.1953
-0.023176 -0.0081315 -0.0085496 -0.011194
-0.0019635 -0.011605 -0.0015099 -0.0097015 -0.0015662 0.00082657 -0.023248 -0.0081542
-0.28542 -0.0072218 -0.0054473 -0.0080595
0.005834 -0.0071754 -0.0011171 -0.0017696 -0.0029798 -0.0091829 -0.0085497 -0.011397
-0.0054918 -0.008065 -0.25959 0.068587
740000000 -0.19362 0.16814 -0.040677 0.026545 0.013265 -0.0037112 0.00029188 -0.0039481
-0.0042989 -0.0023309 -0.0063999 0.0027447
-0.040645 0.026552 -0.33575 0.15784 -0.036772 0.034375 4.3528e-05 -0.0057713
-0.012976 0.0070028 -0.001057 -0.0055883
0.013238 -0.0037829 -0.036644 0.034465 -0.073374 0.27516 -0.0019019 0.0033383
-0.0011696 -0.0055892 -0.0018743 0.00069808
0.00012333 -0.0038978 -3.823e-06 -0.0057517 -0.0019172 0.0032783 -0.20103 0.20072
-0.042782 -0.0095869 0.02224 0.016488
-0.0043382 -0.0025665 -0.013018 0.0068143 -0.0012256 -0.0057264 -0.042763 -0.0095202
-0.18102 0.02951 -0.044573 -0.00088749
-0.0064965 0.0027291 -0.0011673 -0.005516 -0.001972 0.00072693 0.022142 0.01639
-0.044445 -0.0011903 -0.25173 0.072097
800000000 -0.1667 0.21417 -0.023057 0.016578 0.0053451 -0.010172 -0.0044929 -0.0024278
-0.0042867 0.0017383 0.0043725 0.00037704
-0.02306 0.016526 -0.345 0.22953 -0.0085805 0.034722 -0.0021231 0.002146
-2.8342e-05 0.0021508 0.0008718 0.005429
0.0053445 -0.010165 -0.0084962 0.034814 -0.035115 0.30171 0.0011034 0.0011139
1.9944e-05 0.0029703 -0.0015849 0.00069256
-0.0045049 -0.0024192 -0.0021536 0.0021739 0.0010809 0.0011552 -0.17367 0.22916
-0.029712 0.013305 0.014744 -0.010115
-0.0043093 0.0015757 -4.611e-05 0.0021554 0.00010988 0.0030012 -0.029691 0.01328
-0.2401 0.053008 -0.019222 0.021275
0.0043663 0.00040538 0.00089209 0.0054521 -0.0016402 0.00066479 0.014664 -0.010175
-0.019192 0.021167 -0.25025 0.12513
860000000 -0.13092 0.23547 -0.01838 0.03088 -0.0033819 -0.0098854 -0.0020796 0.00075672
0.0040408 0.0050204 -0.0038684 -0.0031233
-0.018381 0.030836 -0.29687 0.27491 0.0078786 0.034487 0.00015495 0.0022972
0.0037719 0.00016063 0.0036449 7.43e-06
-0.0034078 -0.0098652 0.0079882 0.034456 0.014649 0.31206 -0.00056069 -0.0004254
0.0025064 -0.0017547 0.0017587 0.0043286
-0.0020832 0.00074166 0.00011937 0.002335 -0.00056543 -0.0004277 -0.13661 0.24102
-0.019189 0.017901 -0.0063916 -0.0099712
0.003895 0.0050714 0.0038009 0.00017964 0.0025409 -0.001713 -0.019118 0.017885
-0.18534 0.11878 -0.027606 0.01579
-0.0037905 -0.0031972 0.0035153 -0.00021699 0.0017662 0.0042013 -0.0063285 -0.009988
-0.027619 0.015806 -0.19989 0.17479
920000000 -0.10823 0.25903 0.0046074 0.039793 -0.0093206 -0.0041338 -0.0016708 0.0018658
-9.0508e-06 0.0017829 0.0029049 -0.001531
0.0045621 0.039795 -0.27064 0.29619 0.028308 0.022722 0.0014239 0.0011057
0.0071653 0.00021586 0.0038324 -0.0030194
-0.0093447 -0.0041035 0.028406 0.022638 0.061207 0.31338 0.0016817 -3.3947e-05
0.00042051 -0.00030492 0.00091945 -0.0013428
-0.0016406 0.0019425 0.001402 0.0010656 0.0016779 -3.3156e-05 -0.11316 0.25788
-0.013173 0.031665 0.0042575 -0.0062443
5.8359e-05 0.0018057 0.0072146 7.2189e-05 0.00043062 -0.00035499 -0.013073 0.031723
-0.18048 0.12267 -0.0038549 0.029782
0.0030134 -0.0014032 0.0038761 -0.0030814 0.00096522 -0.0013566 0.0041615 -0.0062264
-0.0037026 0.029745 -0.21086 0.18715
980000000 -0.061521 0.2815 0.017181 0.030643 -0.0091289 0.004903 0.0020851 0.0035627
0.0039031 -0.0014551 -0.0036323 -0.0027442
0.017129 0.030634 -0.21845 0.33476 0.033316 0.0048951 0.0019799 -0.00017619
0.0018735 -0.0061389 -0.0006112 -0.0027109
-0.0091178 0.004922 0.033386 0.0047795 0.10813 0.30871 0.00044016 -0.0010586
0.00028099 -0.0016758 0.0015896 -0.00035202
0.0021024 0.0035497 0.0019773 -0.00020847 0.00041153 -0.001061 -0.074188 0.27064
0.0070871 0.031803 -0.0095449 -0.008151
0.0039216 -0.0015093 0.0019006 -0.0062102 0.00033636 -0.0016724 0.0070967 0.031824
-0.1517 0.16246 0.0049787 0.021453
-0.0036454 -0.0027261 -0.00061698 -0.0027601 0.0015894 -0.00037756 -0.0095237 -0.008157
0.0048211 0.021561 -0.1696 0.23775
1040000000 -0.019613 0.29036 0.033631 0.019719 -0.0007615 0.0075848 0.0025879 0.00055712
0.00028763 -0.0032524 -0.00010527 -0.0015116
0.033582 0.019739 -0.18252 0.34831 0.029594 -0.014837 0.0014338 -0.001756
-0.0023965 -0.0022313 -0.001237 -0.0028853
-0.00071997 0.0076056 0.029604 -0.014958 0.15562 0.29461 -0.00056006 -0.0013671
-0.0014159 -0.00089682 -0.00061034 -0.001185
0.0025938 0.00051049 0.0014373 -0.0017629 -0.00055366 -0.0013589 -0.045834 0.27968
0.019554 0.020624 -0.0021797 0.001396
0.00039389 -0.0032777 -0.0024469 -0.0021822 -0.0014507 -0.00088769 0.019595 0.020555
-0.11778 0.1717 0.013364 0.021368
-9.8231e-05 -0.0014199 -0.0011733 -0.0029315 -0.00061762 -0.0012042 -0.0021674 0.0013608
0.013244 0.02134 -0.14801 0.25774
1100000000 0.024532 0.30089 0.037077 -0.0032542 0.0037238 0.0040604 0.0023163 -0.0011441
-0.0023849 -0.0031489 -0.0041863 0.0001047
0.037054 -0.0032596 -0.13987 0.36901 0.014994 -0.027917 -0.00023825 -0.0018323
-0.0033494 -0.00091767 -0.0037645 -0.00050621
0.0037212 0.0040592 0.014918 -0.027997 0.20163 0.27506 -0.0017771 0.00037631
-0.0016805 0.00055676 -0.0011032 -0.00060291
0.0023231 -0.0011342 -0.00023705 -0.0018439 -0.0017707 0.00037825 -0.0057055 0.28522
0.026129 0.0071384 -0.0024947 -5.9782e-05
-0.0023958 -0.003138 -0.0033615 -0.00091855 -0.0016479 0.00054918 0.026144 0.0071069
-0.10197 0.19064 0.020368 0.010774
-0.0042157 4.037e-05 -0.003786 -0.0004665 -0.0011105 -0.00057216 -0.002483 -9.5614e-05
0.020424 0.010742 -0.10419 0.29181
1160000000 0.076986 0.29778 0.025247 -0.020528 0.0035194 -0.00078576 -0.00015788 -0.0024505
-0.00414 -0.00081817 -0.0012013 0.0042994
0.025232 -0.020493 -0.093693 0.37427 -0.0041663 -0.028688 -0.0016075 -0.0013933
-0.0026234 0.0026203 -0.0016646 0.0019685
0.0035243 -0.00079508 -0.0042624 -0.028683 0.24631 0.2443 -0.00057712 0.0016026
-0.00042206 0.0017171 -0.0010547 0.0003051
-0.00021066 -0.0024553 -0.0016166 -0.0013863 -0.00056788 0.0016015 0.035228 0.28197
0.023379 -0.010091 -0.0035711 0.0052372
-0.0041553 -0.00082412 -0.0026017 0.0026062 -0.00041758 0.0017239 0.023386 -0.010169
-0.065405 0.20378 0.019783 0.0013999
-0.0010899 0.0042987 -0.0016491 0.0019465 -0.001105 0.00028162 -0.0035657 0.0052453
0.019745 0.0014829 -0.055049 0.29555
1220000000 0.12047 0.28748 0.011942 -0.030476 -0.0010954 -0.0016667 -0.00011569 -0.00099279
-0.0027495 0.0022737 0.0011839 0.0019201
0.011971 -0.030463 -0.049961 0.38782 -0.017095 -0.020699 -0.0024952 0.00059845
-5.1132e-05 0.0029892 -0.00080644 0.0019167
-0.0011095 -0.0016765 -0.017176 -0.020648 0.28519 0.20453 0.00091554 0.0014105
0.00052296 0.0011507 9.0175e-05 0.00061926
-0.0001133 -0.001011 -0.0024956 0.00060918 0.00091634 0.0014187 0.074319 0.27221
0.01222 -0.017586 0.0022793 0.0014659
-0.0027832 0.0022842 -3.1391e-05 0.0030071 0.00053194 0.0011522 0.012233 -0.017593
-0.044348 0.21586 0.015596 -0.012522
0.0012289 0.0019529 -0.00081115 0.0019789 9.2292e-05 0.00059098 0.0022645 0.0014719
0.015627 -0.01252 -0.026306 0.31422
1280000000 0.17129 0.26875 -0.0071982 -0.029511 -0.0018945 0.0014997 -0.00096928 -0.0019492
-0.0010401 0.0034365 0.0025623 0.0013214
-0.0071996 -0.029469 -0.0024216 0.38025 -0.023836 -0.007569 -0.00071367 0.0014423
0.0016199 0.0017806 0.00061336 0.0020264
-0.001874 0.0015262 -0.023878 -0.0074697 0.31605 0.16139 0.001335 -0.00020164
0.0010276 0.00048481 0.00020124 0.00043558
-0.00096529 -0.0019726 -0.00070039 0.0014491 0.0013349 -0.0001972 0.11111 0.25627
0.0021692 -0.0205 -0.00010109 0.00012809
-0.00099717 0.0034146 0.0016719 0.0017445 0.0010523 0.00047647 0.0021344 -0.020516
-0.0066318 0.22416 0.0040266 -0.015372
0.0025763 0.0012767 0.00066019 0.002029 0.00022165 0.00045271 -0.00012318 0.00012001
0.004045 -0.015416 0.022821 0.31882
1340000000 0.20924 0.23489 -0.017153 -0.02006 0.00027898 0.0040142 -0.0017628 -0.00063171
0.0015793 0.0029424 0.0018389 -0.0014936
-0.017117 -0.020074 0.037629 0.37178 -0.020555 0.0049851 -0.00019974 0.0019413
0.001745 0.0010348 0.0012288 0.0008109
0.00027301 0.0040069 -0.02055 0.0050901 0.3388 0.11238 0.00072859 -0.00086323
0.00069481 -0.00048064 0.0001406 0.00040598
-0.0017599 -0.00058541 -0.00019288 0.0019247 0.00073621 -0.00087551 0.14382 0.23467
-0.0080587 -0.018022 0.00098102 0.00043219
0.001586 0.0029295 0.0017528 0.0010029 0.00070001 -0.00045695 -0.0081031 -0.018023
0.023255 0.22183 -0.0026037 -0.014376
0.0017719 -0.0014949 0.0012743 0.00078917 0.00010573 0.00037844 0.00097908 0.00041446
-0.002621 -0.014356 0.061389 0.31561
1400000000 0.24284 0.19822 -0.023818 -0.0086599 0.0045829 0.0029886 -0.0020454 0.00073448
0.002626 0.0009072 0.00038766 -0.0013334
-0.023764 -0.0086735 0.074965 0.35959 -0.013618 0.012593 0.0012995 0.0012675
0.0011826 -0.00057858 0.0011315 0.00023119
0.0046064 0.0029574 -0.013584 0.012668 0.3514 0.058474 -2.4815e-05 -0.0012576
0.00023399 -0.00015366 0.00046449 0.00021343
-0.0020363 0.00074944 0.0013232 0.0012741 -2.0324e-05 -0.0012415 0.17212 0.20617
-0.014915 -0.010976 -0.00098041 -0.00031148
0.0026328 0.00088908 0.0011799 -0.00058359 0.000235 -0.00015624 -0.014931 -0.010916
0.056151 0.22198 -0.0094442 -0.0094576
0.00031992 -0.0013208 0.0010807 0.0002247 0.00047644 0.00023737 -0.0010318 -0.00033392
-0.0094535 -0.0094124 0.10637 0.30687
1460000000 0.26717 0.15502 -0.021049 0.0041957 0.0049218 -0.0016732 -0.0015027 0.0016362
0.0021348 -0.0003479 -0.00021515 -0.00085835
-0.021028 0.0041781 0.11021 0.33768 -0.0047156 0.014713 0.0015891 0.00024871
0.0012202 -0.0012619 0.0012526 -0.00059516
0.0049108 -0.0017029 -0.0046427 0.014744 0.35789 0.0035261 -0.0010619 -0.0010649
0.00031579 -0.00029254 0.00077858 -0.00026105
-0.0015186 0.0016516 0.0015795 0.00024273 -0.0010673 -0.0010677 0.19909 0.17769
-0.016268 -0.0039451 -0.001145 0.0020282
0.002128 -0.00039114 0.0012249 -0.0012621 0.00031831 -0.00028275 -0.016297 -0.0039186
0.086675 0.21078 -0.011787 -0.0032042
-0.00019132 -0.00089213 0.0012912 -0.00059323 0.00076485 -0.00028132 -0.00111 0.0020658
-0.011826 -0.0032139 0.14108 0.28705
1520000000 0.27933 0.11302 -0.015651 0.0099896 0.0029706 -0.0037815 0.000154 0.0025678
0.0025002 -0.0019216 -0.001067 -9.1933e-05
-0.015641 0.0099671 0.14359 0.3231 0.0024161 0.011809 0.0016717 -0.00064891
0.00023729 -0.0010481 0.00031572 -0.0010116
0.0029534 -0.0037892 0.0024826 0.011807 0.34975 -0.054512 -0.0007317 -0.00032703
0.00066267 -0.0010299 0.00012823 -0.00017188
0.00014822 0.0025593 0.0016635 -0.00065275 -0.00073222 -0.00033028 0.22186 0.1392
-0.016057 0.0022259 0.0013635 0.0021666
0.002479 -0.0019398 0.00023145 -0.0010583 0.00064923 -0.0010537 -0.016052 0.0022502
0.11432 0.20048 -0.011925 0.0012607
-0.0010455 -9.0126e-05 0.00031903 -0.0010033 0.00015398 -0.00016251 0.0013812 0.0021445
-0.01192 0.0012784 0.17461 0.26809
1580000000 0.28952 0.068476 -0.0088721 0.013787 -0.0012048 -0.0042965 0.0015025 0.0018398
-0.00018462 -0.0022532 -0.00021396 0.00026249
-0.0088891 0.013788 0.1709 0.2994 0.0052528 0.0066341 0.00062402 -0.0015387
-0.00043291 -0.0012553 -0.0002517 -0.00067361
-0.0012467 -0.0043021 0.0052761 0.0066028 0.32799 -0.1107 -0.0014185 0.00025136
-0.00045455 -0.0013348 0.00032624 -0.00048731
0.0014992 0.0018439 0.00060304 -0.0015384 -0.0014257 0.00022518 0.23595 0.10097
-0.01221 0.0077522 0.002279 0.00089982
-0.00021319 -0.0022668 -0.00045256 -0.0012612 -0.00048244 -0.0013634 -0.012191 0.0077646
0.14014 0.18702 -0.0093259 0.0075388
-0.00023371 0.00027539 -0.000225 -0.00067226 0.00033048 -0.00050855 0.0022763 0.0008988
-0.0093132 0.00749 0.20833 0.24375
1640000000 0.29285 0.027015 -0.0017817 0.012742 -0.0027358 -0.0019479 0.0027238 0.00099678
-0.00050583 -0.00184 -0.00032065 0.00044092
-0.0017917 0.012727 0.20149 0.27441 0.005139 0.0020239 -0.00054104 -0.0018579
-0.0010348 -0.00057059 -0.00043923 -0.00063853
-0.0027325 -0.0019154 0.0051558 0.002003 0.29855 -0.16026 -0.00081869 0.0012409
-0.0012228 -0.0011489 -0.00014743 -0.00041321
0.0027455 0.00096733 -0.00055121 -0.0018399 -0.00081264 0.0012357 0.24905 0.051498
-0.0079701 0.0089883 0.0025207 -0.0006915
-0.00051832 -0.0018272 -0.0010375 -0.00056628 -0.0012179 -0.0011501 -0.0079452 0.0090296
0.16403 0.16662 -0.0043014 0.0097429
-0.00031089 0.000453 -0.00045455 -0.00063357 -0.00012936 -0.00038229 0.0025561 -0.00067622
-0.0043081 0.009733 0.23537 0.21264
1700000000 0.28555 -0.017428 0.0018983 0.0099436 -0.0030612 0.00053653 0.0030292 -0.0012259
-0.0022804 -0.00071954 0.00047212 0.00040298
0.0018948 0.0099323 0.2189 0.24373 0.0025533 -0.00031643 -0.0014929 -0.00067183
-0.00094752 -0.00013353 -0.00080255 -0.0003461
-0.0030631 0.00055586 0.0025476 -0.00033218 0.25343 -0.1979 7.7337e-05 0.0017488
-0.0022072 -0.00020147 -0.00042181 -0.00082162
0.0030328 -0.0012269 -0.0014974 -0.00067103 5.8251e-05 0.0017334 0.24542 0.0020137
-0.0051096 0.010122 0.0017468 -0.0020476
-0.0022959 -0.0006963 -0.0009475 -0.00011354 -0.0021976 -0.0002153 -0.0050848 0.010131
0.18289 0.15088 0.00059833 0.0096346
0.00044444 0.00040896 -0.00083205 -0.00033501 -0.0004434 -0.00081325 0.0017621 -0.0021234
0.00063376 0.0096549 0.25276 0.17945
1760000000 0.2757 -0.065692 0.0044388 0.0066186 -0.0018887 0.0011186 0.0012359 -0.0033732
-0.001317 0.00059084 0.00025324 -0.00054
0.0044304 0.0066144 0.24642 0.20476 -2.4847e-05 -0.001559 -0.0013075 0.00011038
-0.0011725 0.001076 -0.00041683 0.00035055
-0.0018882 0.00115 -5.1979e-05 -0.0015499 0.2054 -0.22959 0.0011971 0.0014831
-0.0011186 0.001561 -0.0012532 -0.00068333
0.0012136 -0.0033803 -0.0013056 0.00012812 0.0012045 0.0014743 0.23801 -0.049289
-0.0013218 0.0094409 1.4035e-05 -0.0024627
-0.0013053 0.00058104 -0.0011523 0.001099 -0.0010972 0.0015671 -0.0012875 0.0094717
0.20075 0.12065 0.0046062 0.0071199
0.00026442 -0.00055108 -0.00041973 0.0003514 -0.0012692 -0.00069351 -7.9668e-05 -0.002397
0.0045845 0.007104 0.26703 0.14263
1820000000 0.25159 -0.10391 0.0047358 0.0029377 0.00042169 0.0022077 -0.00086541 -0.0030875
-0.0012407 0.00091561 -8.5963e-05 -5.5635e-05
0.0047239 0.0029492 0.25657 0.1745 -0.0019952 0.00029735 -0.0013698 0.0010125
0.00010544 0.0012583 -0.00059109 0.00040763
0.00042201 0.0022256 -0.0019946 0.00030592 0.15489 -0.24439 0.0018208 0.00051634
-0.00012079 0.0023964 -0.0017462 0.00018905
-0.00087972 -0.0030737 -0.0013666 0.0010217 0.0018055 0.00050506 0.20772 -0.097597
0.00054894 0.0082292 -0.0015464 -0.0017428
-0.0012738 0.00093967 0.00011825 0.0012539 -0.00011058 0.0023544 0.0005815 0.0082338
0.2214 0.094806 0.0055117 0.0030684
-5.9304e-05 -8.2794e-05 -0.0006104 0.0003794 -0.0017438 0.00017284 -0.0015395 -0.0016946
0.0055115 0.0030969 0.27068 0.10677
1880000000 0.21679 -0.14372 0.0025033 0.00067311 -0.00020599 0.0020292 -0.0028866 -0.0023536
-0.00018799 0.001781 0.00039663 -0.00068152
0.0024883 0.00068581 0.26152 0.12921 -0.0037076 0.0029366 -0.00025566 0.0017941
0.00067119 0.0012636 0.00020909 0.00091088
-0.0001921 0.0020486 -0.0037042 0.0029632 0.10327 -0.25138 0.0020749 -0.0012941
0.0018144 0.0019942 -0.00088321 0.0014449
-0.0028783 -0.0023414 -0.00024344 0.0018097 0.0020689 -0.001307 0.16737 -0.13744
0.0019514 0.0060294 -0.0022987 0.00016078
-0.00015036 0.0018168 0.00067683 0.0012672 0.0018291 0.0020041 0.0019714 0.0060224
0.22911 0.06782 0.0058476 0.0010967
0.00039533 -0.0006412 0.00025482 0.00091004 -0.00085649 0.0013738 -0.0023576 0.00010788
0.0058541 0.0011064 0.27203 0.073679
1940000000 0.17852 -0.17071 0.00038547 -0.0010349 0.0017843 0.0018072 -0.0037715 0.0003766
0.0012041 0.00087162 -0.0007979 -0.00074431
0.00037955 -0.0010284 0.26393 0.097144 -0.001758 0.00584 0.0011188 0.0014034
0.0019506 0.00024958 0.00087986 0.00017054
0.001776 0.0017773 -0.0017197 0.0058451 0.059454 -0.24366 0.00046162 -0.0024779
0.002291 0.00012482 0.00036082 0.0016507
-0.0038043 0.00041775 0.0011213 0.0014097 0.00048862 -0.0024874 0.11529 -0.16986
0.0016019 0.0042224 -0.0014536 0.0013285
0.0012156 0.00087687 0.0019506 0.00024336 0.0022906 0.00012219 0.0016368 0.0042301
0.23777 0.031566 0.0043162 -0.0032189
-0.00074889 -0.00077358 0.0008448 0.00017103 0.00036689 0.0017377 -0.0014394 0.0013909
0.004297 -0.0032152 0.26335 0.037049
2000000000 0.13157 -0.18556 -0.0031612 0.00076227 0.0028878 0.0011061 -0.0024945 0.0036204
0.00098864 0.00040949 -0.0007882 0.0005814
-0.003145 0.00075916 0.25002 0.061694 -0.00030605 0.0077867 0.0016609 0.00024363
0.0010152 -0.0012905 0.00029769 3.1559e-05
0.0028949 0.0010899 -0.00025541 0.0078101 0.017624 -0.22878 -0.001735 -0.0013937
0.0018702 -0.0010207 0.0015853 0.0013595
-0.0024458 0.0036267 0.0016512 0.00023938 -0.0017588 -0.0013812 0.060181 -0.17977
0.0001914 0.0033666 -0.00016377 0.0021356
0.0009863 0.00039293 0.0010125 -0.0013245 0.0018349 -0.0010049 0.00021105 0.0033592
0.23708 -0.00034532 0.0005361 -0.0039608
