!Keysight Technologies,M9804A,MY58100912,A.14.10.03
!Date: Thursday, April 27, 2023 10:28:33
!Correction: S11(C  6-Port  ) 
!S12(C  6-Port  ) 
!S13(C  6-Port  ) 
!S14(C  6-Port  ) 
!S15(C  6-Port  ) 
!S16(C  6-Port  ) 
!S21(C  6-Port  ) 
!S22(C  6-Port  ) 
!S23(C  6-Port  ) 
!S24(C  6-Port  ) 
!S25(C  6-Port  ) 
!S26(C  6-Port  ) 
!S31(C  6-Port  ) 
!S32(C  6-Port  ) 
!S33(C  6-Port  ) 
!S34(C  6-Port  ) 
!S35(C  6-Port  ) 
!S36(C  6-Port  ) 
!S41(C  6-Port  ) 
!S42(C  6-Port  ) 
!S43(C  6-Port  ) 
!S44(C  6-Port  ) 
!S45(C  6-Port  ) 
!S46(C  6-Port  ) 
!S51(C  6-Port  ) 
!S52(C  6-Port  ) 
!S53(C  6-Port  ) 
!S54(C  6-Port  ) 
!S55(C  6-Port  ) 
!S56(C  6-Port  ) 
!S61(C  6-Port  ) 
!S62(C  6-Port  ) 
!S63(C  6-Port  ) 
!S64(C  6-Port  ) 
!S65(C  6-Port  ) 
!S66(C  6-Port  ) 
!S6P File: Measurement: :
# Hz S  RI   R 50
500000000 -0.32678 -0.061156 -0.01102 -0.0016655 -0.0085965 0.011693 -0.0037346 0.012246
0.01313 0.0056635 -0.0044793 0.0095539
-0.010568 -0.0016751 -0.40844 -0.071258 0.0079301 -0.010935 0.0013266 0.011809
0.0087572 0.0032743 0.0014443 0.013545
-0.0086671 0.012033 0.0080976 -0.011023 -0.25446 0.19417 0.0068366 0.0033386
-0.0023146 0.0080741 0.0014121 0.012086
-0.0032191 0.012254 0.0012594 0.011791 0.0068633 0.0033151 -0.32659 0.043827
-0.019666 -0.0046713 0.01568 0.02603
0.013133 0.005499 0.0086392 0.0030835 -0.0023504 0.0077403 -0.019686 -0.0047871
-0.20974 -0.24665 -0.028635 0.0044258
-0.00372 0.0085571 0.0012937 0.013885 0.0014566 0.012399 0.015091 0.026093
-0.028441 0.0042478 -0.25894 -0.14613
560000000 -0.31264 0.10681 -0.022067 -0.066148 0.00075089 0.012861 0.0049994 0.011167
0.01143 0.0056434 0.010579 0.010162
-0.022581 -0.066322 -0.36829 0.092484 -0.041561 -0.038434 0.013689 0.0035159
-0.014341 -0.0065314 0.0043674 0.00024262
0.0010381 0.012914 -0.041939 -0.038655 -0.17892 0.2431 -0.00043228 -0.0050418
0.01813 0.0071659 0.0076001 -0.0060713
0.0052873 0.01175 0.013616 0.0032499 -8.279e-05 -0.0051021 -0.30215 0.13387
0.0079693 -0.022025 0.0051686 -0.020958
0.011729 0.0058932 -0.014489 -0.006146 0.018036 0.0072316 0.0076748 -0.022066
-0.29798 -0.063257 0.010311 -0.050395
0.010862 0.010354 0.0043863 0.00023822 0.0076368 -0.0062127 0.0051436 -0.020978
0.01049 -0.050646 -0.32803 0.004471
620000000 -0.27424 0.082686 -0.023406 0.0087543 0.0035818 0.0085873 0.0090045 -0.0049294
0.011283 -8.042e-05 0.00058223 -0.0021348
-0.023532 0.0087803 -0.3985 0.037363 -0.01939 0.00051225 -0.0018109 -0.0023338
0.012448 -0.0049621 0.00055747 -0.0033733
0.0036789 0.0085574 -0.019358 0.00050912 -0.15344 0.25179 -0.0015805 -0.0053227
-0.0038314 -0.0020071 0.0086076 -0.0033617
0.0085841 -0.0051175 -0.0017572 -0.002424 -0.0016106 -0.0055563 -0.26115 0.14236
-0.039102 -0.019788 0.012857 0.027967
0.011838 -3.1713e-05 0.012445 -0.0049613 -0.0040557 -0.0019635 -0.039435 -0.020028
-0.21259 -0.10279 -0.045775 0.012607
0.00025889 -0.0024918 0.00037754 -0.003351 0.0084481 -0.0032601 0.012424 0.027587
-0.04548 0.012731 -0.2418 -0.034846
680000000 -0.2396 0.17557 -0.026358 -0.014605 0.0047961 0.0052349 0.0014135 -0.0071733
-0.0016596 -0.011554 0.006242 -0.0069323
-0.026196 -0.014538 -0.38906 0.13954 -0.032408 -0.0014453 -0.0015403 -0.00063777
-0.0014323 -0.0093876 -0.0008996 -0.001459
0.0048593 0.0053222 -0.032436 -0.0013952 -0.10611 0.27507 -0.0005638 4.262e-05
-0.0013717 0.0007733 -0.002798 -0.0089526
0.0014023 -0.007157 -0.0016158 -0.00071106 -0.0005797 6.1704e-05 -0.2177 0.19531
-0.02329 -0.0075565 -0.0089969 -0.010898
-0.0011571 -0.011817 -0.0014661 -0.0093955 -0.0013179 0.00078916 -0.023431 -0.0073774
-0.2834 0.00086602 -0.0055413 -0.0070943
0.0061038 -0.0073581 -0.00086207 -0.0016007 -0.00271 -0.0089863 -0.0085257 -0.010732
-0.0057899 -0.0071049 -0.25888 0.072217
740000000 -0.19288 0.16911 -0.041079 0.026966 0.013168 -0.0037394 -0.00038991 -0.0039045
-0.0037107 -0.0015022 -0.0071297 0.0028552
-0.040895 0.026789 -0.33505 0.15902 -0.036429 0.034767 0.00011792 -0.0057876
-0.012713 0.0069077 -0.00092406 -0.0057593
0.013225 -0.0037105 -0.036401 0.034912 -0.07268 0.27551 -0.0018344 0.0034698
-0.00064679 -0.0052297 -0.0019267 0.0011435
-0.0005605 -0.0038875 0.00021907 -0.0057912 -0.0018655 0.0034855 -0.2012 0.20138
-0.042569 -0.008936 0.022405 0.016811
-0.0040268 -0.0014026 -0.012743 0.0070682 -0.00054258 -0.0052764 -0.042733 -0.0088612
-0.17748 0.037093 -0.044999 -0.0013213
-0.0071104 0.0032576 -0.00094628 -0.0052754 -0.0022664 0.001114 0.022222 0.016831
-0.044744 -0.00099467 -0.25148 0.075883
800000000 -0.16565 0.21417 -0.022573 0.016002 0.0053368 -0.010257 -0.0043961 -0.0026431
-0.0046978 0.0014542 0.0047426 0.00060133
-0.022638 0.01613 -0.34377 0.22988 -0.0084055 0.034398 -0.0021705 0.0020336
-0.00011194 0.0022101 0.00068022 0.0055054
0.005287 -0.01039 -0.008313 0.03445 -0.034602 0.30146 0.0011844 0.001142
-0.00024396 0.003149 -0.0014541 0.00057903
-0.0043826 -0.0025997 -0.0022498 0.0021437 0.0011597 0.0011801 -0.1727 0.2294
-0.029274 0.012701 0.015028 -0.01033
-0.0048482 0.001697 -5.6255e-05 0.0021164 -0.00012112 0.0031406 -0.029231 0.012835
-0.23691 0.060691 -0.018689 0.020973
0.004282 0.00024873 0.00068806 0.0054803 -0.0015661 0.00046602 0.015179 -0.010536
-0.018783 0.021108 -0.24833 0.12753
860000000 -0.13023 0.23592 -0.018042 0.030782 -0.0033059 -0.0099504 -0.002224 0.00068728
0.0042422 0.0047483 -0.0039398 -0.0030523
-0.018185 0.030672 -0.29621 0.27504 0.0079493 0.03426 4.5932e-05 0.0022378
0.0042127 0.00013051 0.00371 0.00014694
-0.0033618 -0.010045 0.0080707 0.034238 0.01474 0.31168 -0.00057149 -0.00043187
0.0024919 -0.0017824 0.0016771 0.0041179
-0.0020077 0.00072762 0.00013926 0.0021414 -0.00054172 -0.00038452 -0.13589 0.2405
-0.019007 0.017512 -0.0064105 -0.0095556
0.0044273 0.0050878 0.0042826 0.00012928 0.0024918 -0.0018405 -0.018806 0.017543
-0.18173 0.12388 -0.026662 0.016648
-0.0035114 -0.0030507 0.0039677 -3.693e-05 0.0017706 0.0042856 -0.0065321 -0.0095827
-0.026347 0.01655 -0.19869 0.17733
920000000 -0.1077 0.25892 0.0046658 0.039483 -0.0093067 -0.0043342 -0.0018823 0.0016633
6.7355e-05 0.0016901 0.0031234 -0.0015975
0.0046377 0.039468 -0.26985 0.29653 0.028196 0.022617 0.0014294 0.0011511
0.0071429 0.00018028 0.0040055 -0.0029218
-0.0093877 -0.0043155 0.028307 0.022527 0.060966 0.31312 0.0016404 -0.00014067
0.00066809 -0.00021727 0.00087865 -0.0015825
-0.0018811 0.0016856 0.0013793 0.0010879 0.0016789 -0.00021079 -0.11228 0.25798
-0.012499 0.030997 0.0043574 -0.0067785
0.00018115 0.0017456 0.0071043 0.00010766 0.00063447 -0.00018679 -0.012443 0.031024
-0.17561 0.12808 -0.0033212 0.029286
0.0028472 -0.0013766 0.0041261 -0.0028115 0.00077386 -0.0014328 0.0043967 -0.006789
-0.0032789 0.029416 -0.20895 0.18893
980000000 -0.061247 0.28171 0.017102 0.030646 -0.0091811 0.0047404 0.0019807 0.0036412
0.0037345 -0.0017124 -0.0035554 -0.002496
0.017108 0.030637 -0.21794 0.3345 0.03321 0.0047637 0.001974 -0.00017475
0.0018066 -0.0061555 -0.00059128 -0.0027564
-0.0091626 0.0047551 0.033265 0.0046655 0.10788 0.30849 0.00040799 -0.0011625
0.00023871 -0.0017266 0.001488 -0.00035156
0.0020482 0.0037049 0.0020071 -0.00018786 0.00039243 -0.0011663 -0.073874 0.27003
0.0069508 0.030987 -0.0096929 -0.0077464
0.0037143 -0.0016592 0.001889 -0.0062585 0.00021749 -0.0017355 0.0069371 0.030975
-0.14666 0.16612 0.0047619 0.021481
-0.0033686 -0.0027583 -0.00060994 -0.0027942 0.0014828 -0.0003822 -0.0097435 -0.0077903
0.0048974 0.021383 -0.16721 0.23939
1040000000 -0.01978 0.2903 0.033431 0.019527 -0.00093909 0.0075406 0.0023849 0.00053726
0.00040325 -0.0033517 -0.0002757 -0.0014685
0.033378 0.01954 -0.18228 0.34821 0.029433 -0.01478 0.0014337 -0.0018878
-0.002558 -0.0022267 -0.0011554 -0.0029289
-0.0009028 0.0076105 0.029439 -0.01488 0.15511 0.29453 -0.00061889 -0.001362
-0.0015625 -0.00093851 -0.0006203 -0.0010441
0.0023392 0.00054801 0.001373 -0.0018826 -0.0006022 -0.001392 -0.04602 0.27926
0.019105 0.019659 -0.0022624 0.0010649
0.00033865 -0.0033441 -0.0026052 -0.0023732 -0.0015318 -0.00090463 0.019061 0.019684
-0.11331 0.17512 0.013308 0.020335
-8.5252e-05 -0.0012779 -0.0012368 -0.0029331 -0.00065432 -0.0010675 -0.0022639 0.0010999
0.013182 0.020449 -0.14562 0.25929
1100000000 0.024488 0.30106 0.036787 -0.0032874 0.0035139 0.0040554 0.0024426 -0.00094023
-0.0024403 -0.0029888 -0.0041219 -4.1617e-05
0.036759 -0.0032224 -0.13976 0.36858 0.014906 -0.027824 -0.0001499 -0.0017701
-0.0034329 -0.0008971 -0.0037507 -0.00055449
0.0035229 0.0040034 0.014824 -0.027892 0.20125 0.27503 -0.001788 0.00029823
-0.0016549 0.00066135 -0.0011082 -0.00064189
0.0025143 -0.00094606 -0.00015791 -0.0017939 -0.0017927 0.00032229 -0.0060236 0.28475
0.025371 0.0067541 -0.0026378 2.4052e-05
-0.0024495 -0.0031332 -0.0034747 -0.00089021 -0.0016232 0.00069874 0.025359 0.0067174
-0.09767 0.19322 0.020158 0.010621
-0.0041673 -0.00028668 -0.0037857 -0.00063022 -0.0011196 -0.00056569 -0.0025629 -6.682e-06
0.020176 0.010492 -0.10171 0.29259
1160000000 0.076791 0.29776 0.025036 -0.020415 0.0033936 -0.00068149 -0.00012331 -0.0024323
-0.0040814 -0.00097249 -0.0012763 0.0044746
0.025087 -0.020519 -0.09393 0.37386 -0.0041379 -0.028658 -0.0016349 -0.0014118
-0.0026956 0.0025623 -0.0016381 0.0020462
0.003397 -0.00070019 -0.0042825 -0.028657 0.24579 0.24436 -0.00054318 0.0017151
-0.00035113 0.0018002 -0.00097409 0.00039039
-0.00021052 -0.0024124 -0.0016613 -0.0013817 -0.00051235 0.0017063 0.034554 0.28169
0.022686 -0.0099914 -0.0037125 0.0049173
-0.0041013 -0.00092923 -0.0027121 0.0025277 -0.00039128 0.0018144 0.022651 -0.010002
-0.060666 0.20524 0.019939 0.0010507
-0.001201 0.0044259 -0.0015744 0.0020089 -0.00092714 0.00024391 -0.0037152 0.0050542
0.01994 0.0010693 -0.053435 0.29674
1220000000 0.12016 0.28779 0.011694 -0.030315 -0.0011537 -0.0014017 6.5362e-05 -0.0011169
-0.0027163 0.0023047 0.0011531 0.0019867
0.011734 -0.030278 -0.050179 0.38763 -0.017045 -0.020648 -0.0024661 0.00053584
4.8031e-05 0.0030735 -0.00078894 0.0018507
-0.001176 -0.0014162 -0.017174 -0.020608 0.28468 0.20484 0.00087535 0.0014471
0.00053053 0.0010664 0.00018092 0.00060515
8.414e-05 -0.0010471 -0.0024384 0.00052422 0.00086726 0.0014721 0.073838 0.27255
0.011642 -0.017163 0.0020897 0.0016668
-0.0027512 0.002448 9.4401e-05 0.003096 0.00054152 0.0011057 0.011613 -0.017297
-0.039993 0.21713 0.015486 -0.012665
0.0011087 0.0020142 -0.0007831 0.0018726 0.00018607 0.00069016 0.002078 0.0016443
0.015445 -0.012699 -0.023689 0.31436
1280000000 0.17097 0.26903 -0.0073691 -0.029312 -0.0017728 0.0016852 -0.00096983 -0.0019394
-0.0011446 0.003292 0.0025578 0.0013711
-0.0073675 -0.029258 -0.0028882 0.3801 -0.023817 -0.0075535 -0.00072143 0.0014136
0.0016909 0.0018229 0.00068888 0.0020633
-0.0017784 0.0016704 -0.023887 -0.0074492 0.31553 0.16172 0.0014017 -0.00018148
0.0010716 0.00040987 0.00027753 0.00040832
-0.0010294 -0.0019521 -0.00075472 0.0014379 0.0014058 -0.00017424 0.11064 0.2566
0.0017985 -0.019969 -0.00021342 1.1043e-05
-0.0010976 0.003296 0.0017146 0.0018121 0.001094 0.00039417 0.0017469 -0.019917
-0.0023181 0.22491 0.0039029 -0.015771
0.0026564 0.0013877 0.00071101 0.0019895 0.00019445 0.00036288 -0.0002447 8.4774e-05
0.0039825 -0.015666 0.024892 0.31907
1340000000 0.209 0.23543 -0.01727 -0.019805 0.00043653 0.0041668 -0.001853 -0.0007938
0.0017119 0.0028927 0.0017613 -0.0015205
-0.01722 -0.019824 0.037157 0.37198 -0.02057 0.0050203 -0.00017976 0.0019371
0.0018486 0.0007865 0.001216 0.00084796
0.00042697 0.0041428 -0.020593 0.0051575 0.33824 0.11292 0.00083655 -0.00095429
0.0006683 -0.00052025 0.00014361 0.00030377
-0.0018567 -0.00075914 -0.00014151 0.0019203 0.00082554 -0.00095551 0.14365 0.23557
-0.0081907 -0.017277 0.00095246 0.00062752
0.0016743 0.0029353 0.0018696 0.00077812 0.00065436 -0.00047382 -0.0082499 -0.017312
0.027237 0.22259 -0.0030488 -0.014489
0.0016296 -0.0014014 0.0012928 0.00083614 0.00011714 0.00032271 0.00097271 0.00056431
-0.0030263 -0.014515 0.063345 0.31506
1400000000 0.24269 0.19888 -0.023742 -0.0083099 0.0047119 0.0029577 -0.0021207 0.00086802
0.0026177 0.0010378 0.00042402 -0.0013878
-0.0237 -0.0083172 0.074636 0.35986 -0.01368 0.012626 0.0012897 0.0012522
0.001211 -0.00060379 0.0011532 0.00013839
0.0047654 0.0029627 -0.013646 0.012709 0.35113 0.059299 -8.455e-05 -0.0013063
0.00011766 -0.000151 0.00043243 0.0002821
-0.0021242 0.00085785 0.0012783 0.0012614 -8.9772e-05 -0.001319 0.17236 0.20695
-0.014743 -0.010347 -0.0008613 -0.00031702
0.0025867 0.0009932 0.0012122 -0.00063325 0.00017973 -0.00017916 -0.014751 -0.010301
0.060503 0.22198 -0.0097738 -0.009308
0.00043946 -0.0013858 0.0011241 0.00015576 0.00042926 0.00023798 -0.00090116 -0.00026005
-0.0097415 -0.0092569 0.10784 0.30621
1460000000 0.26711 0.15545 -0.020907 0.0043848 0.0050827 -0.001664 -0.0014896 0.0016685
0.0022663 -0.00045521 -0.00024586 -0.00082346
-0.020866 0.0043788 0.11002 0.338 -0.0046978 0.014869 0.0015818 0.00026273
0.0011194 -0.0013258 0.001237 -0.00056679
0.0050832 -0.0017323 -0.004611 0.014914 0.35776 0.0045198 -0.0011153 -0.0010814
0.00028184 -0.00028846 0.00068412 -0.00037124
-0.0014803 0.0016843 0.0015836 0.00023041 -0.0011003 -0.0010821 0.19965 0.17827
-0.015723 -0.0033996 -0.00093366 0.0020645
0.0022765 -0.00044384 0.0010741 -0.0013389 0.00027008 -0.00025674 -0.015764 -0.0033554
0.091014 0.21072 -0.012146 -0.0031006
-0.00029187 -0.00078667 0.0012467 -0.00058554 0.00071276 -0.00037958 -0.00089388 0.0020419
-0.012089 -0.0031155 0.14282 0.28621
1520000000 0.27958 0.11362 -0.015321 0.010069 0.0030374 -0.0038869 0.0001848 0.0026705
0.0023933 -0.0018774 -0.0010609 -0.0001859
-0.015307 0.010064 0.1435 0.32352 0.0024769 0.01191 0.0016669 -0.00068384
0.00022325 -0.0010414 0.00035117 -0.001002
0.0030053 -0.0039096 0.0025778 0.011916 0.34969 -0.05335 -0.0007595 -0.00034128
0.00070057 -0.0010242 0.00012228 -0.00011155
0.00016582 0.0026587 0.0016729 -0.00069205 -0.00075976 -0.00032548 0.22259 0.13947
-0.015373 0.0024871 0.0015249 0.0020032
0.0023607 -0.0019422 0.0002226 -0.0010582 0.00070137 -0.0010335 -0.015373 0.0025125
0.11868 0.20026 -0.011993 0.0014726
-0.0010036 -0.00016819 0.00035569 -0.00098061 0.00012032 -0.00017479 0.001454 0.0020101
-0.012108 0.001447 0.17575 0.26718
1580000000 0.28963 0.068867 -0.0086451 0.01368 -0.0012779 -0.0045291 0.0015517 0.0017656
-0.00017784 -0.0024272 -0.00014389 0.00039473
-0.0086412 0.013671 0.17097 0.29962 0.0054123 0.0066533 0.00058431 -0.0015178
-0.00042429 -0.0011938 -0.00020875 -0.0006137
-0.0013014 -0.0045203 0.0054159 0.0066278 0.3284 -0.10971 -0.0014409 0.00031517
-0.00042649 -0.0014225 0.00024815 -0.00053455
0.001563 0.0017462 0.00056863 -0.001538 -0.0014415 0.00031328 0.23656 0.1009
-0.011709 0.0078446 0.0021419 0.00067414
-0.00021072 -0.0023804 -0.00043287 -0.0011797 -0.00040776 -0.0013287 -0.011698 0.007895
0.14411 0.18619 -0.0093712 0.0078109
-0.00019493 0.00043818 -0.00021373 -0.00063133 0.00023178 -0.00051083 0.0022254 0.00064732
-0.009238 0.0077465 0.20953 0.24249
1640000000 0.29291 0.027369 -0.001586 0.012549 -0.0026981 -0.0019778 0.0027405 0.0010304
-0.00058179 -0.0018691 -0.00030647 0.00041098
-0.0015971 0.012544 0.20147 0.27469 0.005329 0.0020929 -0.0004799 -0.0018338
-0.00097239 -0.00056031 -0.00047257 -0.00069839
-0.0026977 -0.0019896 0.0053313 0.0020274 0.29902 -0.1593 -0.00067001 0.0012911
-0.0012097 -0.00095253 -0.00012127 -0.00041684
0.0027693 0.0010449 -0.00049202 -0.0018297 -0.00068209 0.0012741 0.24975 0.051169
-0.0073191 0.0087597 0.0025008 -0.00066988
-0.0006274 -0.0018357 -0.00097047 -0.00053911 -0.0011859 -0.00098534 -0.0073081 0.0087964
0.16848 0.16497 -0.0043609 0.0098991
-0.00033148 0.00036331 -0.00046525 -0.00067977 -0.000119 -0.00035456 0.0024398 -0.00067211
-0.0044349 0.0099312 0.23599 0.21173
1700000000 0.28571 -0.017015 0.0020031 0.009699 -0.0031954 0.00038915 0.0031062 -0.0013418
-0.002284 -0.00065291 0.00051842 0.00038729
0.0020086 0.009682 0.21913 0.24384 0.002684 -0.0004308 -0.0014263 -0.000711
-0.00083145 -0.00013351 -0.00076598 -0.00044358
-0.0031622 0.00032137 0.0027006 -0.00046408 0.25443 -0.19691 0.00016289 0.0016685
-0.0021514 -0.00021415 -0.0003274 -0.00092319
0.0030913 -0.001379 -0.0014365 -0.00070532 0.00018721 0.0016639 0.24585 0.0013982
-0.0045908 0.0096385 0.0016995 -0.0021524
-0.0022383 -0.00063026 -0.0008281 -0.00011924 -0.0021139 -0.0001771 -0.0045787 0.0096658
0.18702 0.14873 0.00062899 0.0099439
0.00050598 0.00041429 -0.000821 -0.00045762 -0.00035367 -0.00095881 0.0017651 -0.0021624
0.0007134 0.0099171 0.25327 0.17847
1760000000 0.27564 -0.065203 0.004325 0.006407 -0.0020773 0.0012203 0.0012184 -0.0034248
-0.0012986 0.00062561 0.00018437 -0.0005261
0.0043358 0.0063839 0.24643 0.2047 6.4282e-05 -0.0017942 -0.0012738 2.0874e-05
-0.0011629 0.00097187 -0.00052916 0.00032618
-0.0020629 0.0012324 6.5999e-05 -0.0017886 0.20645 -0.229 0.0011367 0.0013914
-0.0010715 0.0016157 -0.0012891 -0.00061744
0.0012148 -0.0033958 -0.0012926 2.9976e-05 0.0011283 0.0013925 0.23813 -0.050117
-0.00097401 0.0087471 -8.3396e-05 -0.0024165
-0.0013456 0.0006512 -0.0011673 0.00097581 -0.0010627 0.0015742 -0.00094626 0.0087176
0.20455 0.11759 0.0046513 0.0071829
0.00014357 -0.00059346 -0.00045755 0.00029006 -0.0012976 -0.00069095 -0.00013811 -0.0023534
0.0045465 0.0072828 0.26758 0.14163
1820000000 0.25184 -0.10328 0.0045665 0.0028273 0.00028177 0.0024125 -0.00084848 -0.0030674
-0.0011562 0.00095461 -2.6506e-05 -0.00011535
0.0045522 0.0028688 0.25658 0.17452 -0.0021865 0.00012729 -0.0014533 0.00097126
-4.0121e-05 0.0011944 -0.00061717 0.00039008
0.00022291 0.0024298 -0.002189 0.00015013 0.1557 -0.24431 0.0017706 0.00046744
-0.00021021 0.0022107 -0.0017897 0.00016389
-0.00085549 -0.003086 -0.0014295 0.0009834 0.0017801 0.00051924 0.20727 -0.098139
0.00052218 0.0075407 -0.0015772 -0.0018288
-0.0010877 0.00095609 -3.2047e-05 0.0011963 -0.00016583 0.0022515 0.00051059 0.0075568
0.22442 0.091373 0.0056563 0.0032759
-5.8126e-05 -2.43e-05 -0.00066031 0.00042969 -0.0016765 0.00028321 -0.0015146 -0.001867
0.0057169 0.0032483 0.27104 0.10587
1880000000 0.21705 -0.14333 0.0023323 0.00055688 -5.7956e-05 0.0022043 -0.0029461 -0.0023023
-0.00014905 0.0017066 0.0004587 -0.00053445
0.0023099 0.0005698 0.26138 0.12896 -0.0039132 0.0029253 -0.00029052 0.0018466
0.00053261 0.0013583 9.9128e-05 0.00096674
-3.0222e-05 0.0021807 -0.0039382 0.0029297 0.10383 -0.25129 0.0019859 -0.001158
0.0016863 0.0019788 -0.0010508 0.0015469
-0.0029295 -0.0022378 -0.00030293 0.001879 0.0020288 -0.0012027 0.16673 -0.13782
0.0016079 0.0053788 -0.0024091 0.00029159
-0.00011829 0.0017577 0.00056033 0.001362 0.0017309 0.001928 0.0016344 0.0053544
0.23152 0.063724 0.0059844 0.0010834
0.00045803 -0.00054537 0.00011901 0.0009202 -0.0010852 0.0015962 -0.0024941 0.00034109
0.0058754 0.001201 0.27229 0.072848
1940000000 0.1789 -0.17039 0.00021257 -0.0011689 0.0019409 0.0018918 -0.0038946 0.00025855
0.0011394 0.00075568 -0.00057808 -0.00071829
0.00025748 -0.0011474 0.26364 0.096996 -0.0018746 0.0058913 0.0011501 0.0014451
0.0020079 0.00040974 0.00086286 0.00031172
0.001897 0.0018757 -0.0018535 0.005885 0.060249 -0.24339 0.00060998 -0.0023885
0.00231 0.0002913 0.00024187 0.0018803
-0.0039499 0.00027734 0.0011546 0.0014558 0.00058031 -0.0023715 0.1143 -0.16976
0.00087615 0.003754 -0.0015125 0.0014341
0.0010995 0.00078004 0.0020104 0.00039049 0.0023053 0.00030976 0.00089312 0.0037568
0.23916 0.027511 0.0043879 -0.0029781
-0.00061763 -0.0007184 0.00081905 0.00030835 0.00032113 0.0018622 -0.0014249 0.0014623
0.0044285 -0.0030137 0.26329 0.036299
2000000000 0.13229 -0.18511 -0.0034207 0.00086612 0.0029299 0.0011454 -0.0024612 0.0036399
0.00085228 0.00041819 -0.00091481 0.00041384
-0.0034553 0.00089559 0.24966 0.061647 -0.00040204 0.0078348 0.001672 0.00028589
0.0011179 -0.0013005 0.00041216 8.4599e-05
0.0029409 0.0011718 -0.00033382 0.0078896 0.018314 -0.22879 -0.0015943 -0.0015176
0.0020537 -0.00098228 0.0017635 0.0014544
-0.002381 0.0037597 0.0016825 0.00025462 -0.001562 -0.0014855 0.059802 -0.17911
-0.00062607 0.0033456 -0.00016898 0.002264
0.0008347 0.00041861 0.0011247 -0.0013272 0.0019641 -0.0010131 -0.00058336 0.0033436
0.23787 -0.0045646 0.00072642 -0.0038321
