!Keysight Technologies,M9804A,MY58100912,A.14.10.03
!Date: Thursday, April 27, 2023 10:28:33
!Correction: S11(C  6-Port  ) 
!S12(C  6-Port  ) 
!S13(C  6-Port  ) 
!S14(C  6-Port  ) 
!S15(C  6-Port  ) 
!S16(C  6-Port  ) 
!S21(C  6-Port  ) 
!S22(C  6-Port  ) 
!S23(C  6-Port  ) 
!S24(C  6-Port  ) 
!S25(C  6-Port  ) 
!S26(C  6-Port  ) 
!S31(C  6-Port  ) 
!S32(C  6-Port  ) 
!S33(C  6-Port  ) 
!S34(C  6-Port  ) 
!S35(C  6-Port  ) 
!S36(C  6-Port  ) 
!S41(C  6-Port  ) 
!S42(C  6-Port  ) 
!S43(C  6-Port  ) 
!S44(C  6-Port  ) 
!S45(C  6-Port  ) 
!S46(C  6-Port  ) 
!S51(C  6-Port  ) 
!S52(C  6-Port  ) 
!S53(C  6-Port  ) 
!S54(C  6-Port  ) 
!S55(C  6-Port  ) 
!S56(C  6-Port  ) 
!S61(C  6-Port  ) 
!S62(C  6-Port  ) 
!S63(C  6-Port  ) 
!S64(C  6-Port  ) 
!S65(C  6-Port  ) 
!S66(C  6-Port  ) 
!S6P File: Measurement: :
# Hz S  RI   R 50
500000000 -0.32681 -0.06185 -0.010489 -0.0018507 -0.0086713 0.012201 -0.0038762 0.012204
0.013817 0.0061492 -0.0040581 0.0089016
-0.010517 -0.0019407 -0.40846 -0.072198 0.0080947 -0.01123 0.00087502 0.011914
0.0094625 0.0039418 0.0013534 0.013875
-0.0085973 0.012169 0.0080555 -0.01113 -0.25394 0.19367 0.0072162 0.0028261
-0.0015897 0.0079559 0.001636 0.010967
-0.0036111 0.012398 0.0010997 0.011929 0.0074188 0.0026946 -0.3269 0.044448
-0.020321 -0.0048425 0.015813 0.028226
0.013096 0.006186 0.0090248 0.0039057 -0.0017607 0.0079792 -0.020347 -0.0048817
-0.20561 -0.2553 -0.030109 0.0056537
-0.0038913 0.0088281 0.0013993 0.013943 0.0018375 0.01084 0.015749 0.028201
-0.029937 0.0055334 -0.25398 -0.14614
560000000 -0.31297 0.10553 -0.022057 -0.066551 0.00023216 0.013393 0.0061838 0.011522
0.010136 0.0054656 0.011456 0.0086511
-0.02189 -0.066366 -0.36742 0.090708 -0.041268 -0.038647 0.012858 0.0028641
-0.013855 -0.0054832 0.0040683 -0.00085922
0.00025325 0.013473 -0.041661 -0.038965 -0.17927 0.24143 -0.00071941 -0.0051783
0.01738 0.0057376 0.0077804 -0.0057507
0.0058395 0.011581 0.013355 0.0026543 -0.00060944 -0.005005 -0.30278 0.133
0.0072162 -0.022812 0.0048205 -0.02139
0.010182 0.0053164 -0.014126 -0.0057278 0.017226 0.0060999 0.0070774 -0.0229
-0.29681 -0.072266 0.011189 -0.050518
0.01151 0.008538 0.0041217 -0.00086932 0.0075507 -0.005835 0.0050741 -0.021468
0.010904 -0.050697 -0.32652 -0.00052463
620000000 -0.27373 0.081638 -0.023899 0.0089226 0.0028834 0.0089245 0.0079449 -0.0044029
0.012306 -0.00015085 -9.0686e-05 -0.0020894
-0.02387 0.0089407 -0.39841 0.035871 -0.019587 0.00013799 -0.001934 -0.0018901
0.012448 -0.0056156 0.00036877 -0.0031178
0.0029155 0.0088288 -0.019618 0.00032595 -0.15314 0.25075 -0.0016447 -0.0049798
-0.0041804 -0.0025318 0.0081244 -0.0027586
0.0081605 -0.0043258 -0.0020718 -0.001868 -0.0017455 -0.0050182 -0.26148 0.14151
-0.039603 -0.020572 0.012208 0.027946
0.012031 -0.00046797 0.012584 -0.0056269 -0.0040988 -0.0025723 -0.039721 -0.020464
-0.209 -0.11076 -0.045879 0.013543
-4.3764e-05 -0.0022117 0.00054319 -0.0032464 0.0079871 -0.00274 0.012267 0.027614
-0.046156 0.013726 -0.24155 -0.038096
680000000 -0.23978 0.17449 -0.026452 -0.015121 0.0047431 0.0052361 0.0015337 -0.0076048
-0.001835 -0.011839 0.005737 -0.0073325
-0.026385 -0.015141 -0.38943 0.1381 -0.032861 -0.0016139 -0.0018234 -0.00037889
-0.0014734 -0.0097979 -0.00099122 -0.0017662
0.0047415 0.0051426 -0.032896 -0.0015723 -0.1068 0.27442 -0.00074685 0.00030766
-0.00153 0.00086202 -0.0029548 -0.0091768
0.001578 -0.0075761 -0.001834 -0.00037543 -0.00080862 0.00027486 -0.21813 0.19513
-0.02331 -0.008121 -0.0085949 -0.011452
-0.0020012 -0.011608 -0.0013845 -0.0096105 -0.0013815 0.00085284 -0.02333 -0.0080724
-0.28572 -0.0076716 -0.0054529 -0.0081515
0.0056136 -0.007095 -0.00094087 -0.0018617 -0.0029313 -0.0092688 -0.008416 -0.011195
-0.0055834 -0.0082298 -0.25941 0.068149
740000000 -0.19327 0.16798 -0.040691 0.026845 0.013087 -0.0035646 0.00019542 -0.0038658
-0.0042108 -0.0023465 -0.0065667 0.0026276
-0.040625 0.026754 -0.33571 0.15753 -0.036671 0.034335 -2.4203e-05 -0.0057335
-0.012865 0.0069465 -0.00079038 -0.0055401
0.013173 -0.0036434 -0.036623 0.034467 -0.073319 0.2752 -0.0019723 0.0032403
-0.0013832 -0.0055192 -0.0018277 0.00083877
0.00031071 -0.00396 3.7777e-05 -0.0057506 -0.0019025 0.003271 -0.20102 0.20078
-0.042678 -0.0095354 0.022144 0.016464
-0.0041666 -0.0024208 -0.012968 0.0070194 -0.0011191 -0.0057134 -0.042697 -0.0096213
-0.18152 0.02922 -0.044393 -0.0011495
-0.0063369 0.0030461 -0.0010063 -0.0058651 -0.0018787 0.00092601 0.022175 0.016524
-0.044449 -0.0010945 -0.25218 0.072178
800000000 -0.16659 0.21418 -0.023046 0.016546 0.0053756 -0.010141 -0.0044172 -0.0024758
-0.0043464 0.0016772 0.0041901 0.00038849
-0.023068 0.016554 -0.34498 0.22946 -0.0085755 0.034774 -0.002038 0.0021972
-2.8785e-05 0.0022535 0.00081495 0.0054429
0.0053197 -0.010168 -0.0085123 0.034829 -0.035178 0.30175 0.0011386 0.0011551
5.9944e-06 0.0029472 -0.0016476 0.00057218
-0.0044893 -0.0025254 -0.0020873 0.002147 0.0010996 0.0011799 -0.17363 0.22915
-0.029808 0.013213 0.014691 -0.010116
-0.0044197 0.001896 -2.0408e-05 0.002322 7.1623e-05 0.0030371 -0.029791 0.013283
-0.24038 0.052924 -0.019214 0.020933
0.0044208 0.00022406 0.00095529 0.0054569 -0.0017953 0.00064986 0.014833 -0.010091
-0.019217 0.020819 -0.25033 0.12463
860000000 -0.13106 0.23553 -0.018495 0.030818 -0.003376 -0.0099392 -0.0020532 0.00073936
0.0039387 0.0050787 -0.00384 -0.0030774
-0.018475 0.030781 -0.29698 0.27471 0.0077648 0.034457 8.5494e-05 0.0022537
0.0036637 0.00028434 0.0035718 -0.00010911
-0.0033883 -0.0098768 0.0079924 0.03443 0.014601 0.31202 -0.00059082 -0.00044362
0.0024367 -0.0017382 0.0017933 0.0043524
-0.0020683 0.00082127 2.5446e-05 0.0021302 -0.00059564 -0.00051542 -0.13647 0.24107
-0.019288 0.017849 -0.0064431 -0.010063
0.0038114 0.0049659 0.0041677 0.00023367 0.0025179 -0.0016715 -0.019335 0.018044
-0.18554 0.11857 -0.027639 0.015834
-0.0038072 -0.0031435 0.0035352 -6.3536e-05 0.0017426 0.0043225 -0.006491 -0.010196
-0.027627 0.015905 -0.19954 0.17504
920000000 -0.1082 0.25896 0.0045796 0.039765 -0.0093884 -0.0041121 -0.0016917 0.001851
2.8658e-05 0.0017033 0.0029682 -0.0015607
0.0045326 0.039739 -0.27063 0.29616 0.028337 0.022723 0.0014009 0.0010463
0.0071637 0.00017153 0.0038459 -0.0029334
-0.0093977 -0.0041204 0.028462 0.022685 0.061167 0.31332 0.00166 -2.4297e-05
0.00045178 -0.00036009 0.00092428 -0.0012716
-0.0016697 0.0018767 0.0014294 0.0010819 0.0016485 -4.0869e-05 -0.11317 0.25791
-0.01314 0.031666 0.0042387 -0.0062073
-3.787e-05 0.0018311 0.0071849 7.5262e-05 0.00045786 -0.00033772 -0.013072 0.031652
-0.18062 0.12241 -0.0037809 0.029669
0.0030011 -0.0015037 0.0039671 -0.0030267 0.0008936 -0.0013262 0.0043129 -0.0062807
-0.0038396 0.029696 -0.21089 0.18702
980000000 -0.061593 0.28144 0.017172 0.030643 -0.0091008 0.0049077 0.0020246 0.0035656
0.0039643 -0.0015473 -0.0035923 -0.00262
0.017084 0.030637 -0.21845 0.33476 0.033319 0.0048765 0.0020094 -0.00015446
0.0019151 -0.0061573 -0.00056825 -0.0027233
-0.0091088 0.0049378 0.033432 0.0047832 0.10813 0.30871 0.00042015 -0.0010729
0.00033028 -0.0017075 0.0015999 -0.00035994
0.0020333 0.0035696 0.0019738 -0.00019141 0.0004211 -0.0010831 -0.074202 0.2706
0.0070019 0.031853 -0.0094189 -0.0081267
0.0038792 -0.0014884 0.001894 -0.0061344 0.00032295 -0.0016641 0.0071086 0.031787
-0.15178 0.16238 0.0048396 0.021453
-0.0037194 -0.0026297 -0.00049548 -0.002659 0.0016518 -0.00038604 -0.0095205 -0.0081863
0.004784 0.021386 -0.16955 0.23756
1040000000 -0.019621 0.29029 0.033627 0.019775 -0.00075532 0.0075975 0.0025568 0.00052833
0.00037866 -0.0032009 -0.0001686 -0.0015938
0.033587 0.019775 -0.18255 0.3483 0.029578 -0.014812 0.0014739 -0.0017787
-0.0024226 -0.0021917 -0.0011087 -0.0029677
-0.00073242 0.0076098 0.02959 -0.014931 0.1556 0.2946 -0.00057847 -0.0013564
-0.0014143 -0.0008972 -0.00055195 -0.0011857
0.0025605 0.00051269 0.0014644 -0.0017812 -0.00058481 -0.0013663 -0.045857 0.27966
0.019539 0.020645 -0.0021852 0.0013128
0.00031616 -0.0032363 -0.0023661 -0.0022684 -0.0014189 -0.000948 0.019566 0.020618
-0.11782 0.17145 0.013313 0.0214
-0.00016086 -0.0015639 -0.00111 -0.0028774 -0.00058215 -0.00116 -0.0021821 0.001362
0.013317 0.021385 -0.14806 0.2576
1100000000 0.024409 0.30081 0.037064 -0.0032571 0.0037335 0.0040826 0.0023066 -0.0010521
-0.0023649 -0.0031196 -0.0041484 0.00013044
0.037051 -0.0032262 -0.13992 0.36901 0.015004 -0.027918 -0.00021362 -0.0018019
-0.0033417 -0.0009065 -0.0037308 -0.00049221
0.0037419 0.0040768 0.014915 -0.02801 0.20157 0.27505 -0.0017824 0.00036054
-0.0016938 0.00052375 -0.0011339 -0.00061331
0.002305 -0.0010678 -0.00022272 -0.0017986 -0.0017927 0.0003633 -0.0057231 0.28526
0.026211 0.0071704 -0.002479 -6.28e-05
-0.002386 -0.0031262 -0.0033738 -0.00090556 -0.0017436 0.00051301 0.026213 0.007143
-0.10206 0.19052 0.020441 0.010692
-0.004197 0.00013838 -0.0037561 -0.00047499 -0.0011132 -0.00062369 -0.0024799 -6.0824e-05
0.020419 0.01066 -0.10441 0.29174
1160000000 0.077018 0.29783 0.025279 -0.020506 0.0035402 -0.00077646 -0.0001554 -0.0024643
-0.0041041 -0.00081449 -0.0012654 0.0043422
0.025272 -0.020455 -0.093769 0.37429 -0.0041726 -0.028686 -0.0015778 -0.0014149
-0.0025859 0.002594 -0.0017129 0.0020002
0.0035273 -0.00079968 -0.0042787 -0.028691 0.24632 0.24431 -0.00059552 0.0016194
-0.00042415 0.0017153 -0.0010856 0.00034932
-0.00015141 -0.002432 -0.0016109 -0.0014174 -0.00061716 0.0016216 0.035253 0.28198
0.02341 -0.010073 -0.003561 0.0052014
-0.0041106 -0.00076305 -0.0026044 0.0025793 -0.00042662 0.0017558 0.023436 -0.010134
-0.065483 0.20374 0.019791 0.001479
-0.0012044 0.0042682 -0.0016236 0.0020058 -0.0010882 0.0003329 -0.0035511 0.0052075
0.019796 0.0014774 -0.055134 0.29551
1220000000 0.12037 0.28741 0.011962 -0.030483 -0.0010875 -0.0016511 -0.00015204 -0.00098227
-0.0028124 0.0023048 0.0011983 0.0019695
0.011973 -0.030446 -0.050017 0.38779 -0.017065 -0.020681 -0.0025085 0.00063673
-8.8223e-05 0.0029944 -0.00081897 0.0019643
-0.0011043 -0.00165 -0.017173 -0.020654 0.28513 0.20455 0.00092814 0.0014305
0.00053214 0.0011408 7.1133e-05 0.00058992
-0.00015317 -0.00099271 -0.0025181 0.00062189 0.00092894 0.0014347 0.074268 0.27218
0.012288 -0.017592 0.0022634 0.0014874
-0.0027931 0.0022897 -4.6349e-05 0.0030157 0.00053429 0.0011426 0.012266 -0.017609
-0.044643 0.2158 0.015602 -0.012502
0.0012061 0.0019698 -0.00079756 0.0019683 7.0665e-05 0.00061952 0.0022588 0.0015193
0.015637 -0.012526 -0.026385 0.31434
1280000000 0.17128 0.26881 -0.0071816 -0.029534 -0.0018984 0.0014981 -0.00095227 -0.0019724
-0.0010257 0.0034323 0.0025214 0.0013116
-0.0071546 -0.0295 -0.0024559 0.38022 -0.023825 -0.0075562 -0.00072364 0.0014213
0.0016597 0.0017631 0.00058052 0.0020322
-0.0019108 0.0015256 -0.023884 -0.0074534 0.31604 0.16138 0.0013419 -0.00021905
0.0010451 0.00049463 0.00023945 0.00044859
-0.00094875 -0.001957 -0.00069618 0.0014451 0.0013386 -0.00018215 0.11116 0.25627
0.0022088 -0.02056 -0.00013724 0.00010912
-0.00099968 0.003443 0.0016969 0.0017437 0.0010165 0.00047381 0.0021673 -0.020542
-0.0067687 0.22403 0.0040388 -0.015355
0.0025111 0.0012796 0.00060366 0.0019704 0.00026365 0.00045423 -0.00013899 9.802e-05
0.0040582 -0.015372 0.022676 0.3189
1340000000 0.20923 0.23488 -0.017159 -0.020058 0.00028168 0.0039862 -0.0017651 -0.00060634
0.0015963 0.0028967 0.0018277 -0.0014616
-0.017125 -0.020061 0.037587 0.37176 -0.020553 0.0049957 -0.00018321 0.0019469
0.0017683 0.0010082 0.001277 0.00079994
0.00028724 0.0040027 -0.020557 0.0050878 0.33885 0.11233 0.00074155 -0.00085328
0.00073052 -0.00048851 9.7179e-05 0.00039652
-0.0017598 -0.00063128 -0.0001464 0.0019344 0.00072521 -0.00087154 0.1438 0.23461
-0.0080629 -0.018113 0.00095863 0.00045775
0.001605 0.0028888 0.0018127 0.0010146 0.00069889 -0.00048198 -0.0080636 -0.018052
0.023044 0.22168 -0.0025781 -0.014365
0.0018387 -0.0015008 0.0012997 0.00084272 0.00011775 0.00039164 0.00095692 0.00045042
-0.0025842 -0.014392 0.061261 0.31551
1400000000 0.24275 0.19823 -0.023834 -0.0086578 0.004594 0.0029876 -0.0020447 0.00074644
0.0026298 0.00091147 0.00035207 -0.0013171
-0.023784 -0.0086627 0.0749 0.35959 -0.013623 0.01259 0.0013148 0.001277
0.0012029 -0.00056901 0.0011063 0.00021232
0.0045805 0.0029624 -0.013583 0.012668 0.35137 0.058494 -1.0996e-05 -0.0012633
0.00021777 -0.00016927 0.00049655 0.00023764
-0.0020365 0.00075525 0.0013258 0.0012662 -1.525e-05 -0.0012458 0.1721 0.20615
-0.014948 -0.011004 -0.00099096 -0.00033871
0.0026479 0.00088083 0.0012005 -0.00058155 0.00022864 -0.00017427 -0.014995 -0.010994
0.055931 0.222 -0.0094814 -0.0093836
0.00034211 -0.0012974 0.0011248 0.00023004 0.00051757 0.00023793 -0.00099142 -0.00031668
-0.0094718 -0.0094013 0.10632 0.30689
1460000000 0.26719 0.155 -0.021044 0.0041887 0.0049036 -0.0016809 -0.0015112 0.0016286
0.0021303 -0.00035963 -0.00020053 -0.00085488
-0.021041 0.0041679 0.11018 0.33768 -0.0046997 0.014718 0.0015699 0.00025318
0.0012307 -0.0012508 0.0012936 -0.0006065
0.0049099 -0.0017086 -0.0046417 0.014727 0.3579 0.0035211 -0.0010673 -0.0010532
0.0003524 -0.0002558 0.00077278 -0.00030177
-0.0015089 0.001637 0.0015795 0.0002479 -0.001069 -0.0010451 0.19907 0.17764
-0.016316 -0.003982 -0.0011218 0.0020849
0.0021582 -0.00038906 0.001218 -0.0012676 0.00034432 -0.00029167 -0.016323 -0.0039581
0.086505 0.21088 -0.011866 -0.0032288
-0.0002 -0.00084655 0.0013046 -0.00063556 0.00073359 -0.00030106 -0.0011229 0.0021086
-0.01182 -0.0032309 0.14118 0.28709
1520000000 0.27936 0.11306 -0.015638 0.0099927 0.0029544 -0.0037715 0.00015851 0.0025803
0.0025118 -0.0019136 -0.0010624 -0.00013497
-0.015637 0.0099754 0.14356 0.32311 0.0024227 0.011803 0.0016628 -0.00066496
0.00023232 -0.0010631 0.00030166 -0.0010294
0.0029282 -0.0037649 0.0024974 0.011808 0.34973 -0.054551 -0.00074746 -0.0003336
0.00066416 -0.0010311 0.0001336 -0.000145
0.00017226 0.0025796 0.0016595 -0.00068063 -0.0007276 -0.00033526 0.22175 0.13919
-0.016093 0.0022417 0.0014003 0.002173
0.0025027 -0.0019435 0.00023937 -0.00106 0.00067074 -0.00099938 -0.016103 0.0022777
0.11411 0.20053 -0.011947 0.0012635
-0.0010648 -0.00011488 0.00029329 -0.001009 0.00013581 -0.00015826 0.0013899 0.0021401
-0.011939 0.0012606 0.1745 0.26815
1580000000 0.28948 0.068509 -0.0088854 0.013799 -0.0012146 -0.004303 0.0014933 0.0018401
-0.00017389 -0.002261 -0.00021526 0.00032977
-0.0088877 0.013778 0.17086 0.29942 0.0052375 0.0066263 0.00060266 -0.0015477
-0.00043758 -0.0012734 -0.00023694 -0.00065365
-0.0012448 -0.0043056 0.0052985 0.006611 0.32793 -0.11075 -0.0014283 0.00023451
-0.00047202 -0.0013467 0.00032486 -0.00047571
0.0015064 0.0018513 0.0006134 -0.0015555 -0.0014225 0.00024391 0.23589 0.10098
-0.012292 0.0077756 0.002289 0.00090178
-0.00019527 -0.0022703 -0.0004521 -0.0012564 -0.00047437 -0.0013375 -0.012264 0.0078087
0.13992 0.1871 -0.0093048 0.0075076
-0.00021728 0.000329 -0.00024178 -0.00066068 0.00033771 -0.00051886 0.0022939 0.00088973
-0.0093031 0.0075162 0.20819 0.2438
1640000000 0.29282 0.027053 -0.0017913 0.012749 -0.0027384 -0.0019405 0.0027285 0.00098192
-0.00051853 -0.0018197 -0.0003199 0.00042349
-0.0017874 0.012731 0.20147 0.27443 0.0051554 0.0020175 -0.00053538 -0.0018533
-0.0010555 -0.00057768 -0.0004665 -0.00062293
-0.002723 -0.0019243 0.005182 0.0019967 0.29851 -0.16027 -0.0008175 0.0012413
-0.00121 -0.0011367 -0.00014789 -0.00033823
0.0027327 0.00097008 -0.0005588 -0.0018533 -0.00082062 0.0012463 0.24901 0.051533
-0.0080149 0.0090396 0.0025647 -0.00066981
-0.00056312 -0.0018387 -0.0010751 -0.00056699 -0.0011964 -0.0011313 -0.0079936 0.0090591
0.16388 0.16673 -0.0042875 0.0097162
-0.00030861 0.00041136 -0.00044915 -0.00063895 -9.9114e-05 -0.00039016 0.0025481 -0.00069516
-0.004306 0.0097061 0.23534 0.21272
1700000000 0.28559 -0.017379 0.0019074 0.0099538 -0.003049 0.00050647 0.0030452 -0.0012437
-0.0022708 -0.00073018 0.00041768 0.00041803
0.0019009 0.009951 0.21888 0.24373 0.0025505 -0.00029786 -0.0014793 -0.00067691
-0.00093987 -0.00010913 -0.00080495 -0.00034846
-0.0030455 0.00053941 0.0025645 -0.00034587 0.25346 -0.1978 9.3135e-05 0.0017446
-0.002208 -0.00019952 -0.00038546 -0.00086475
0.0030431 -0.0012548 -0.0014837 -0.00066665 8.079e-05 0.0017247 0.24539 0.0020705
-0.0051279 0.010163 0.0017377 -0.0021263
-0.0022874 -0.00068337 -0.00094265 -9.9448e-05 -0.0022087 -0.00020842 -0.0051138 0.010173
0.18265 0.15096 0.00063479 0.0096499
0.00044427 0.00043119 -0.00081195 -0.00032095 -0.00038889 -0.00081445 0.0017428 -0.0021353
0.00064901 0.0096592 0.25269 0.17947
1760000000 0.27567 -0.065636 0.0044333 0.0066229 -0.0018728 0.0011501 0.0012369 -0.0033663
-0.0012915 0.00058558 0.00027096 -0.00054406
0.0044236 0.0066161 0.24642 0.20481 -2.0147e-05 -0.0015434 -0.0012948 0.00010401
-0.0011583 0.0010983 -0.00042466 0.00037146
-0.0018609 0.0011157 -2.5983e-05 -0.0015589 0.20543 -0.22955 0.0012017 0.0014847
-0.0011271 0.0015735 -0.001283 -0.0006532
0.0012259 -0.0033623 -0.0012899 0.0001212 0.0011925 0.0014939 0.23795 -0.049215
-0.0013348 0.0095133 -5.3054e-05 -0.0023797
-0.0012917 0.00059777 -0.0011418 0.0011079 -0.0011112 0.0015841 -0.0013174 0.0095253
0.20064 0.12082 0.0045552 0.0070638
0.0002531 -0.00056806 -0.00038441 0.00038113 -0.0012619 -0.00063859 -7.6597e-05 -0.0024009
0.0045446 0.007059 0.26708 0.14274
1820000000 0.25156 -0.10392 0.0047527 0.0029309 0.00039389 0.0021847 -0.0008537 -0.0030814
-0.0012671 0.00094113 -0.00010523 -5.5999e-05
0.0047301 0.0029335 0.25659 0.17452 -0.0020099 0.00027406 -0.0013697 0.001018
0.00011798 0.0012632 -0.00061529 0.00038829
0.00044615 0.0021572 -0.0019922 0.0002963 0.15492 -0.24439 0.0018499 0.00051096
-7.9748e-05 0.0023716 -0.0017681 0.00011874
-0.00088059 -0.0030928 -0.0013515 0.0010215 0.0018565 0.00051831 0.20774 -0.097488
0.00056447 0.0082462 -0.001522 -0.0017399
-0.0012302 0.00093873 0.00013663 0.0012687 -9.7273e-05 0.0024054 0.00056824 0.0082557
0.22123 0.094921 0.0055169 0.0031581
-9.0714e-05 -7.3793e-05 -0.0006084 0.00041607 -0.0018258 0.00016919 -0.0014915 -0.0017281
0.0055398 0.0031711 0.27064 0.10675
1880000000 0.21683 -0.14368 0.0025097 0.00067708 -0.00018482 0.0020211 -0.0028916 -0.0023524
-0.00017716 0.001777 0.00046611 -0.00066853
0.0025098 0.00067557 0.26151 0.12924 -0.0037049 0.0029566 -0.00026618 0.0017734
0.00066411 0.001251 0.00024729 0.00090026
-0.00017197 0.0020336 -0.0036937 0.0029724 0.10318 -0.25135 0.0020608 -0.0013377
0.0018189 0.0019596 -0.00089642 0.0014159
-0.0029032 -0.0023511 -0.00025055 0.0017719 0.0020765 -0.0013344 0.16746 -0.13743
0.0020092 0.0060692 -0.0024073 0.00013795
-0.00016929 0.0017738 0.00067673 0.0012545 0.0018026 0.0019137 0.0020201 0.006068
0.22901 0.068055 0.0058565 0.0010542
0.00045084 -0.00067406 0.00024865 0.00090919 -0.00086221 0.0014374 -0.0023698 0.00011788
0.0058438 0.0010383 0.272 0.073843
1940000000 0.17851 -0.17066 0.00038171 -0.0010474 0.0017559 0.0018071 -0.0037628 0.00033689
0.0011851 0.00087491 -0.00080064 -0.0007888
0.00038606 -0.0010328 0.26394 0.097163 -0.0017698 0.0058281 0.0011162 0.0014055
0.0019369 0.00023737 0.00085919 0.00015586
0.0017538 0.001796 -0.0017262 0.0058673 0.059448 -0.24357 0.00048778 -0.002459
0.0022886 0.00015871 0.00039914 0.0016513
-0.0037536 0.00035303 0.0011465 0.0014181 0.00044727 -0.0024422 0.1153 -0.16988
0.001637 0.0042039 -0.0013996 0.0013912
0.0012316 0.00084981 0.0019373 0.00023129 0.0022888 0.00013084 0.0016588 0.0042206
0.23766 0.03173 0.0042945 -0.003209
-0.00077205 -0.00077918 0.00085643 0.00016964 0.00035659 0.0016564 -0.0013827 0.0013946
0.0043018 -0.0032095 0.2632 0.036957
2000000000 0.13161 -0.18552 -0.0031466 0.00074723 0.002896 0.0010693 -0.0024943 0.0036222
0.00096402 0.00039283 -0.00085884 0.00052025
-0.0031459 0.00074709 0.25004 0.061719 -0.00029621 0.007824 0.0016327 0.00024007
0.0010092 -0.0013023 0.00030291 3.4216e-05
0.0028901 0.0011004 -0.00025062 0.0078221 0.017593 -0.22876 -0.001729 -0.0014388
0.0018764 -0.0010352 0.0016382 0.0013472
-0.0024595 0.003641 0.0016303 0.00025219 -0.0017298 -0.001419 0.06034 -0.17977
0.00027326 0.0033918 -0.00013999 0.0020835
0.00097887 0.00037068 0.00099205 -0.0013043 0.0018183 -0.0010139 0.00025985 0.0033748
0.23705 -0.00011646 0.00054984 -0.0040217
