!Keysight Technologies,M9804A,MY58100912,A.14.10.03
!Date: Thursday, April 27, 2023 10:28:33
!Correction: S11(C  6-Port  ) 
!S12(C  6-Port  ) 
!S13(C  6-Port  ) 
!S14(C  6-Port  ) 
!S15(C  6-Port  ) 
!S16(C  6-Port  ) 
!S21(C  6-Port  ) 
!S22(C  6-Port  ) 
!S23(C  6-Port  ) 
!S24(C  6-Port  ) 
!S25(C  6-Port  ) 
!S26(C  6-Port  ) 
!S31(C  6-Port  ) 
!S32(C  6-Port  ) 
!S33(C  6-Port  ) 
!S34(C  6-Port  ) 
!S35(C  6-Port  ) 
!S36(C  6-Port  ) 
!S41(C  6-Port  ) 
!S42(C  6-Port  ) 
!S43(C  6-Port  ) 
!S44(C  6-Port  ) 
!S45(C  6-Port  ) 
!S46(C  6-Port  ) 
!S51(C  6-Port  ) 
!S52(C  6-Port  ) 
!S53(C  6-Port  ) 
!S54(C  6-Port  ) 
!S55(C  6-Port  ) 
!S56(C  6-Port  ) 
!S61(C  6-Port  ) 
!S62(C  6-Port  ) 
!S63(C  6-Port  ) 
!S64(C  6-Port  ) 
!S65(C  6-Port  ) 
!S66(C  6-Port  ) 
!S6P File: Measurement: :
# Hz S  RI   R 50
500000000 -0.32688 -0.063372 -0.01138 -0.0016891 -0.0091777 0.012044 -0.0037264 0.013713
0.014041 0.0073973 -0.0030161 0.010575
-0.011504 -0.0015624 -0.40839 -0.072465 0.0079406 -0.011183 0.0012025 0.012347
0.0096129 0.0034252 0.00187 0.013971
-0.0091538 0.012107 0.0078587 -0.011103 -0.25387 0.1937 0.0075251 0.0029525
-0.0017683 0.0073755 0.0017768 0.010753
-0.0041321 0.013662 0.0012197 0.012222 0.0075581 0.0028981 -0.32813 0.042586
-0.019508 -0.0052655 0.014354 0.02606
0.013471 0.0074716 0.0096659 0.0033557 -0.0018951 0.0074004 -0.019719 -0.0052087
-0.20661 -0.25767 -0.028915 0.0049006
-0.0034528 0.010661 0.0020682 0.014064 0.0019135 0.010811 0.01441 0.026225
-0.02894 0.0050262 -0.25609 -0.14973
560000000 -0.31475 0.10735 -0.019685 -0.066452 9.8042e-05 0.012919 0.007259 0.010253
0.0092126 0.0033399 0.010849 0.0076298
-0.019657 -0.066217 -0.36775 0.088254 -0.04078 -0.038781 0.014103 0.0025807
-0.014994 -0.0061333 0.0038085 -0.0021419
0.00014029 0.013055 -0.04095 -0.038909 -0.17948 0.24154 -0.0010963 -0.0044203
0.017975 0.0065339 0.007618 -0.0062166
0.0078583 0.010701 0.014551 0.0022013 -0.0010328 -0.0044313 -0.30308 0.13409
0.0073693 -0.02218 0.0060761 -0.020738
0.0096082 0.0028112 -0.015101 -0.0062112 0.017849 0.0064214 0.0075092 -0.022311
-0.29644 -0.072285 0.013011 -0.051832
0.011243 0.0071018 0.0038625 -0.0020913 0.0077716 -0.0062849 0.0060492 -0.020855
0.01296 -0.052037 -0.32614 -0.0008817
620000000 -0.2753 0.08236 -0.023381 0.0091263 0.0031342 0.0093893 0.0075593 -0.0029243
0.012631 -0.0012704 -9.7296e-05 -0.0014857
-0.023466 0.0090714 -0.39827 0.03556 -0.019383 0.00026454 -0.0016478 -0.0017308
0.012537 -0.0053644 0.00082767 -0.0034468
0.0030031 0.0092396 -0.019466 0.00036908 -0.153 0.25063 -0.0013762 -0.0051174
-0.0045844 -0.0024342 0.0091735 -0.0032045
0.0072179 -0.0031995 -0.0017852 -0.0017684 -0.0015113 -0.0049964 -0.26143 0.142
-0.040901 -0.021098 0.012816 0.028628
0.012704 -0.001174 0.012634 -0.0053875 -0.0044275 -0.0023152 -0.040853 -0.020988
-0.20881 -0.11249 -0.047428 0.012867
0.00014152 -0.00095689 0.0009194 -0.0034062 0.0089746 -0.00286 0.012616 0.028566
-0.047489 0.012962 -0.24096 -0.038664
680000000 -0.23964 0.17462 -0.026197 -0.015317 0.005155 0.0050548 0.0025611 -0.0078357
-0.001868 -0.011547 0.0052462 -0.0080501
-0.026064 -0.015321 -0.38939 0.13783 -0.032848 -0.0016097 -0.0017113 -0.00057353
-0.0010916 -0.0093028 -0.00075731 -0.0019338
0.0052675 0.0051614 -0.032915 -0.0015701 -0.10672 0.27436 -0.00063927 5.0985e-05
-0.0012816 0.00099835 -0.0029115 -0.0093905
0.0026569 -0.0070542 -0.0015681 -0.00046435 -0.00056098 9.2165e-05 -0.21797 0.19545
-0.023651 -0.007364 -0.0083139 -0.012029
-0.0018177 -0.011528 -0.0011828 -0.0092985 -0.001257 0.00094131 -0.023557 -0.0075083
-0.28591 -0.0086052 -0.0047568 -0.0071879
0.0056629 -0.0080978 -0.00085513 -0.0018862 -0.0028526 -0.0094223 -0.0083606 -0.012215
-0.0047835 -0.0072733 -0.26078 0.067062
740000000 -0.19478 0.16853 -0.041215 0.027061 0.012928 -0.0034633 -0.00048216 -0.003648
-0.00338 -0.0027229 -0.0072061 0.0035426
-0.041101 0.026985 -0.33551 0.15626 -0.03685 0.034734 6.6022e-06 -0.0059982
-0.014666 0.0068813 -0.00066341 -0.0057
0.012877 -0.0034986 -0.036789 0.034911 -0.073664 0.27514 -0.0018774 0.0033348
-0.0008103 -0.0059377 -0.0020144 0.00126
-0.00050228 -0.0037724 3.4396e-05 -0.0060103 -0.001858 0.0033226 -0.20114 0.20088
-0.04353 -0.011242 0.022433 0.017352
-0.003274 -0.0025592 -0.014435 0.0070303 -0.00090155 -0.0059205 -0.043616 -0.011121
-0.18217 0.030601 -0.045135 -0.0022962
-0.0073236 0.0035312 -0.00073809 -0.0057122 -0.0019993 0.0011614 0.022392 0.017176
-0.04519 -0.0022934 -0.25264 0.072354
800000000 -0.1662 0.21326 -0.023149 0.016409 0.0054585 -0.010209 -0.0044563 -0.0025845
-0.0045345 0.0017584 0.00393 -0.00027813
-0.023104 0.016449 -0.34517 0.2292 -0.0085974 0.034724 -0.0020013 0.0021848
-0.00020335 0.0022143 0.00080147 0.0052406
0.0054963 -0.010198 -0.0084939 0.034797 -0.035058 0.30157 0.0012013 0.0012236
-0.00014517 0.0031665 -0.0014631 0.00058767
-0.0045048 -0.0025967 -0.0020017 0.0022078 0.0011881 0.0012545 -0.17354 0.22921
-0.029896 0.01292 0.015103 -0.010197
-0.0045638 0.0017683 -0.00010811 0.002177 -6.9698e-05 0.0031184 -0.029841 0.013024
-0.24055 0.052426 -0.01989 0.021343
0.0041464 -0.00025545 0.00096835 0.0052315 -0.0014198 0.00051033 0.015171 -0.010119
-0.019942 0.021332 -0.24975 0.12404
860000000 -0.13098 0.2355 -0.01861 0.030898 -0.0035189 -0.0098136 -0.0020551 0.00046225
0.0043201 0.0049624 -0.0043293 -0.0033584
-0.01864 0.030901 -0.29711 0.27456 0.0078452 0.034552 0.00021684 0.002378
0.0039517 -7.5836e-06 0.0037938 -0.00027239
-0.0035483 -0.0097798 0.0079534 0.034507 0.014455 0.31197 -0.00048024 -0.00057239
0.0027162 -0.0016552 0.001423 0.0039721
-0.002004 0.00057528 0.00015511 0.0024443 -0.00047149 -0.00052618 -0.13599 0.24127
-0.019382 0.017946 -0.0059215 -0.01017
0.0042717 0.0049235 0.0040899 -3.1763e-05 0.0027214 -0.0016205 -0.019522 0.017935
-0.18596 0.11892 -0.027217 0.015382
-0.0044171 -0.003591 0.0037739 -0.00014009 0.0013331 0.0040391 -0.0058617 -0.010296
-0.027262 0.015358 -0.19965 0.17405
920000000 -0.10802 0.25824 0.0044293 0.039873 -0.009355 -0.0043092 -0.0019155 0.0020138
-0.00033654 0.001478 0.0031615 -0.0014934
0.0043293 0.039873 -0.27054 0.29601 0.028391 0.022872 0.0014552 0.00090229
0.0073009 -2.9653e-05 0.0039196 -0.0030552
-0.0093732 -0.0042744 0.028502 0.022811 0.061098 0.31327 0.0016897 4.1463e-06
0.00043956 -0.00020898 0.0010021 -0.0013051
-0.0018885 0.00181 0.0014267 0.00091962 0.0016784 -3.6187e-05 -0.1136 0.258
-0.013095 0.031992 0.0041036 -0.0063361
-0.00033253 0.0015079 0.007282 -8.7525e-06 0.00049952 -0.00017556 -0.012948 0.032168
-0.17998 0.12193 -0.0035168 0.029896
0.0031807 -0.0014168 0.0040267 -0.0030309 0.0009965 -0.0013729 0.0040009 -0.0063312
-0.0035664 0.029934 -0.21124 0.1864
980000000 -0.061894 0.28164 0.017298 0.030768 -0.0091449 0.0048997 0.002231 0.003509
0.004021 -0.0012499 -0.0035363 -0.0028166
0.017236 0.030767 -0.21856 0.33464 0.033376 0.0048938 0.001834 -0.00032522
0.0016361 -0.0059517 -0.00067578 -0.0026115
-0.0091125 0.0049037 0.03342 0.004812 0.10804 0.30871 0.00040917 -0.001128
0.00030746 -0.001661 0.0014707 -0.00035223
0.0022345 0.0036209 0.0019586 -0.00043644 0.00042436 -0.0011155 -0.074025 0.27082
0.0070491 0.031766 -0.0092732 -0.0083264
0.0041119 -0.0011872 0.0016071 -0.0059899 0.00031673 -0.0016968 0.0071168 0.031707
-0.15138 0.16218 0.0047103 0.02169
-0.0034731 -0.0029162 -0.00068497 -0.0026181 0.0015209 -0.00037068 -0.0092346 -0.008315
0.0047002 0.021663 -0.17015 0.23671
1040000000 -0.019519 0.28967 0.033553 0.019767 -0.00072461 0.0075925 0.0023202 0.00069845
0.00017333 -0.0033588 -3.8142e-05 -0.0012297
0.033511 0.019809 -0.18258 0.34825 0.029652 -0.014815 0.0015672 -0.0018705
-0.0022909 -0.0023137 -0.001034 -0.0029778
-0.00069159 0.0075982 0.029642 -0.014925 0.15553 0.29455 -0.00054181 -0.0014382
-0.0015022 -0.00099528 -0.00059505 -0.0011932
0.0023407 0.00053944 0.0015517 -0.001773 -0.00053573 -0.0014333 -0.045856 0.27966
0.01981 0.020738 -0.0021393 0.0011851
4.8528e-05 -0.0033978 -0.0022623 -0.0023138 -0.0015271 -0.00097574 0.019836 0.020807
-0.11885 0.17084 0.013841 0.021699
-9.9612e-05 -0.0012303 -0.0010784 -0.0029326 -0.00056876 -0.0011995 -0.0021344 0.0011011
0.013841 0.021663 -0.14871 0.25772
1100000000 0.024248 0.301 0.037149 -0.0031414 0.0037036 0.0040312 0.0025376 -0.001039
-0.0023891 -0.0030033 -0.0041307 -0.00023006
0.037107 -0.0030992 -0.14001 0.36894 0.015006 -0.027934 -0.00018892 -0.0018176
-0.0035021 -0.00081895 -0.0037265 -0.00071598
0.0036987 0.0040137 0.014932 -0.028001 0.20148 0.27503 -0.0017858 0.00034268
-0.0017835 0.00069557 -0.0011818 -0.00062785
0.0024979 -0.001028 -0.00019767 -0.0018652 -0.001795 0.00032927 -0.0057336 0.2852
0.026224 0.0070278 -0.0024018 -0.00023657
-0.0023386 -0.0030392 -0.0035024 -0.00081082 -0.0018006 0.00071794 0.026283 0.0069759
-0.10228 0.18986 0.020209 0.010726
-0.0040273 -0.00014992 -0.0037324 -0.00067546 -0.001203 -0.00061548 -0.0024152 -0.00026577
0.020184 0.010747 -0.10412 0.29125
1160000000 0.076911 0.29765 0.025283 -0.020496 0.0035059 -0.00081107 -0.00016738 -0.0025892
-0.0041128 -0.00093156 -0.0011399 0.004439
0.025308 -0.020457 -0.093894 0.37428 -0.0041063 -0.028724 -0.0017509 -0.0014236
-0.002731 0.0024424 -0.0014396 0.0021709
0.0034983 -0.00085792 -0.00423 -0.028723 0.24625 0.24427 -0.00053691 0.0016877
-0.00044851 0.0018273 -0.0010302 0.00027111
-0.00017861 -0.0025498 -0.0017178 -0.0014586 -0.0005384 0.0017177 0.035317 0.2818
0.02349 -0.010263 -0.0038522 0.005108
-0.004095 -0.00096218 -0.0026851 0.0024663 -0.00046757 0.0018292 0.02353 -0.010271
-0.066065 0.20278 0.019845 0.0017
-0.0011829 0.00435 -0.0014765 0.0021678 -0.00097875 0.00025532 -0.0038396 0.0051101
0.019872 0.0016767 -0.055587 0.2954
1220000000 0.11995 0.28743 0.011907 -0.030414 -0.0010818 -0.0016411 -0.00016065 -0.00081895
-0.0028163 0.0021922 0.0012894 0.0019974
0.0119 -0.030432 -0.05011 0.38778 -0.017058 -0.020742 -0.0024803 0.00072493
-0.00017359 0.0030431 -0.0008017 0.0020019
-0.0011092 -0.0016511 -0.01718 -0.020707 0.28509 0.20452 0.00093716 0.0013676
0.00047696 0.0011804 3.7189e-05 0.00063005
-0.00018768 -0.00088149 -0.0024831 0.00069099 0.00094016 0.0013841 0.074331 0.27222
0.012395 -0.017759 0.0020106 0.001419
-0.0027555 0.0022125 -0.00021131 0.0030517 0.00045803 0.0011877 0.012361 -0.017781
-0.045399 0.21505 0.015823 -0.012639
0.0012921 0.0020478 -0.00080169 0.0020018 5.7528e-05 0.00064101 0.0020199 0.0013988
0.015781 -0.012646 -0.026451 0.31444
1280000000 0.17122 0.26883 -0.0071262 -0.029571 -0.0019012 0.0014767 -0.00093465 -0.0019875
-0.00082515 0.0033704 0.0023593 0.001341
-0.0070995 -0.029524 -0.0026348 0.38019 -0.023813 -0.0075624 -0.000672 0.0014582
0.0017089 0.0017532 0.00055716 0.0020536
-0.0018776 0.0015005 -0.023901 -0.007454 0.316 0.16151 0.0013695 -0.00021422
0.0010619 0.0003895 0.00027857 0.00040113
-0.000972 -0.0019821 -0.00071913 0.001474 0.0013554 -0.00016164 0.11125 0.25626
0.0022253 -0.020899 -0.00049015 1.0168e-05
-0.00086249 0.0033832 0.001745 0.0017889 0.0010289 0.00037562 0.0021943 -0.020907
-0.0079518 0.22405 0.0038123 -0.015753
0.0024567 0.0013287 0.00061887 0.0020929 0.00031245 0.00040716 -0.00045582 -7.3836e-06
0.003838 -0.015728 0.022286 0.3195
1340000000 0.20917 0.2349 -0.017171 -0.020094 0.00024886 0.0039912 -0.0017597 -0.00072104
0.0013652 0.0029748 0.0018737 -0.0013718
-0.017138 -0.020107 0.037422 0.37178 -0.020559 0.004958 -0.00015707 0.0019808
0.0017013 0.0010127 0.0013504 0.0007272
0.00028141 0.0039901 -0.020557 0.0050631 0.33881 0.11238 0.00080363 -0.00080034
0.00074683 -0.00043975 0.0002312 0.00035887
-0.0017432 -0.00068846 -0.00011394 0.001943 0.0007798 -0.00081437 0.14373 0.2343
-0.0082603 -0.018301 0.00083607 0.00055608
0.001407 0.0029545 0.0017577 0.0009931 0.00074035 -0.00044746 -0.0082716 -0.018296
0.0219 0.22186 -0.0026435 -0.014417
0.0018546 -0.0013608 0.0013811 0.00071156 0.00022175 0.00039835 0.00082969 0.00055787
-0.0026375 -0.014427 0.061061 0.31536
1400000000 0.24273 0.19828 -0.023843 -0.008732 0.0045813 0.0029869 -0.0020866 0.00072399
0.0027007 0.00098689 0.0001692 -0.0014427
-0.023814 -0.0087238 0.074759 0.35961 -0.013644 0.012541 0.0013344 0.0012921
0.0012735 -0.00046478 0.0010611 0.00025108
0.0045871 0.0029719 -0.013607 0.012633 0.35133 0.058499 -3.0017e-05 -0.0013476
0.00031623 -0.00017661 0.00038665 0.00022461
-0.0020719 0.000715 0.0013328 0.0012779 -1.5323e-05 -0.0013619 0.17199 0.20606
-0.015314 -0.011268 -0.0010099 -0.00020046
0.0026991 0.00093229 0.0012563 -0.00046436 0.00032763 -0.00018485 -0.015374 -0.011263
0.055484 0.22193 -0.010012 -0.0096744
0.00018019 -0.0014188 0.0010962 0.00025007 0.00042424 0.00024404 -0.00099414 -0.00018531
-0.01004 -0.0096616 0.10647 0.30716
1460000000 0.26722 0.15503 -0.021135 0.0041886 0.0049311 -0.0016321 -0.0014332 0.0016553
0.0023 -0.0003775 -0.00013803 -0.00092278
-0.021113 0.0041627 0.11008 0.33775 -0.0047384 0.014742 0.0015754 0.00023414
0.0011474 -0.0014068 0.001233 -0.00065896
0.004913 -0.0016654 -0.0046599 0.014768 0.35787 0.0035618 -0.001067 -0.0011051
0.00028333 -0.00029219 0.00081388 -0.00041361
-0.001449 0.0016802 0.0015925 0.00024748 -0.0010523 -0.0011011 0.19877 0.17749
-0.016647 -0.0038213 -0.0011194 0.0021553
0.0022097 -0.00039901 0.0011632 -0.0014455 0.00028454 -0.00032653 -0.016691 -0.003811
0.086074 0.21092 -0.012118 -0.0032428
-0.00015494 -0.00096178 0.0012405 -0.00067355 0.00078667 -0.00044599 -0.0010663 0.0021552
-0.012124 -0.0032633 0.14092 0.28709
1520000000 0.27923 0.113 -0.015687 0.0099772 0.0029847 -0.0037777 0.00012407 0.0025854
0.0025485 -0.0018566 -0.0010491 -0.00019933
-0.015666 0.0099527 0.14342 0.32312 0.0024062 0.011807 0.0016897 -0.00064314
0.00022578 -0.0010461 0.00030864 -0.0010002
0.0029557 -0.0037937 0.0024877 0.011815 0.34974 -0.054569 -0.00077209 -0.00031662
0.00062123 -0.0010816 0.0001856 -0.00010035
0.00014567 0.0025574 0.0016747 -0.00065171 -0.00077105 -0.00029628 0.22148 0.13918
-0.01642 0.0023884 0.0014794 0.0021859
0.0025772 -0.0019041 0.00020588 -0.0010514 0.00061617 -0.001068 -0.01643 0.0024542
0.11358 0.20084 -0.012043 0.0013572
-0.0010923 -0.00021431 0.00029102 -0.0009847 0.00016934 -0.00014091 0.0014226 0.0021707
-0.012021 0.0013559 0.17419 0.26816
1580000000 0.28945 0.068473 -0.0089305 0.013809 -0.00124 -0.0043168 0.0015075 0.0018975
-9.603e-05 -0.002289 -0.00030636 0.00030192
-0.0089295 0.013776 0.17077 0.29949 0.0052503 0.0066923 0.000609 -0.0015803
-0.00038945 -0.0012909 -0.00023212 -0.00064081
-0.0012747 -0.0043144 0.005285 0.0066575 0.32784 -0.11066 -0.0014164 0.00019401
-0.00046137 -0.0014274 0.0002282 -0.00055976
0.0015171 0.0019134 0.0005585 -0.0016092 -0.0014296 0.00021982 0.23556 0.10098
-0.01245 0.008106 0.0022948 0.00091471
-0.00011136 -0.0022975 -0.0004049 -0.0012689 -0.00047372 -0.0014585 -0.012387 0.0081314
0.13942 0.18715 -0.0092716 0.0078138
-0.00031379 0.00029539 -0.00022676 -0.00063096 0.00022892 -0.00056377 0.0023332 0.00097422
-0.0092671 0.0077865 0.20779 0.24384
1640000000 0.2926 0.02706 -0.0017871 0.012797 -0.0026742 -0.0019296 0.0027071 0.0010336
-0.00056575 -0.001891 -0.00033219 0.00052119
-0.0018179 0.012785 0.20136 0.27451 0.0051702 0.0020592 -0.00053787 -0.0018671
-0.0010513 -0.0005822 -0.00045106 -0.00063117
-0.0026608 -0.0019061 0.0051913 0.0020326 0.29859 -0.16026 -0.00083972 0.0012051
-0.0012055 -0.0011027 -0.00019341 -0.0003981
0.0026807 0.00099593 -0.00053476 -0.0018546 -0.00084429 0.0011931 0.24853 0.051827
-0.0080201 0.0094729 0.0026767 -0.0006412
-0.00058746 -0.0018606 -0.0010702 -0.00059729 -0.0012092 -0.0011213 -0.0080514 0.0094301
0.1633 0.16691 -0.0042847 0.0099633
-0.00032517 0.00051703 -0.00047343 -0.00064121 -0.00021058 -0.00036399 0.0027077 -0.00065672
-0.0043025 0.0099734 0.23501 0.21291
1700000000 0.28537 -0.017258 0.0019228 0.0099925 -0.0030853 0.00054256 0.0030694 -0.0012794
-0.0023148 -0.0007256 0.0005076 0.0004779
0.001894 0.0099616 0.21879 0.24386 0.0025535 -0.00028084 -0.001478 -0.0006721
-0.00091227 -6.635e-05 -0.00082213 -0.00035233
-0.0030904 0.00057239 0.0025454 -0.00031389 0.25332 -0.1978 3.9761e-05 0.0017288
-0.0023322 -0.00010266 -0.00030711 -0.00085788
0.0030148 -0.0012257 -0.0014832 -0.00068003 5.9964e-05 0.0017276 0.24517 0.0024609
-0.0049327 0.010261 0.0017726 -0.002058
-0.0023191 -0.00074248 -0.00091997 -5.6335e-05 -0.0023311 -8.6167e-05 -0.0049195 0.010308
0.18232 0.1511 0.00068421 0.009749
0.00055882 0.00051786 -0.00080654 -0.0003409 -0.00031368 -0.00079553 0.0017261 -0.002151
0.00068038 0.0097413 0.25226 0.17977
1760000000 0.27553 -0.065503 0.0044362 0.0066145 -0.0018854 0.001142 0.00127 -0.003383
-0.0013724 0.00054761 0.00025949 -0.00053609
0.0044133 0.0066157 0.24637 0.2049 -6.881e-07 -0.0015506 -0.0012897 7.6298e-05
-0.0011512 0.0011099 -0.00038904 0.00037041
-0.0018768 0.0011457 -2.7375e-05 -0.0015441 0.20534 -0.22946 0.0012665 0.0014494
-0.001024 0.0016276 -0.0012764 -0.00063211
0.0013135 -0.0034119 -0.0012985 0.00010625 0.0012311 0.0014588 0.23812 -0.048674
-0.0011367 0.0096337 -3.4955e-05 -0.002611
-0.0013184 0.00055626 -0.0011377 0.0011184 -0.0010313 0.0016255 -0.0010666 0.0096956
0.20013 0.12127 0.0047703 0.0071367
0.00026222 -0.00053808 -0.00037577 0.00036437 -0.0012744 -0.00066871 -8.6858e-05 -0.0025125
0.0047811 0.0071427 0.26659 0.14316
1820000000 0.25142 -0.10361 0.0047649 0.0029428 0.00035656 0.0021968 -0.0009113 -0.0030363
-0.0012482 0.001039 -0.00012384 -0.00016964
0.0047477 0.0029648 0.25655 0.17459 -0.0020421 0.00031968 -0.0014116 0.0010502
0.00014408 0.0012663 -0.00061538 0.00041465
0.00038851 0.0022089 -0.0020589 0.00035108 0.15482 -0.24417 0.0018517 0.0005391
-0.00012486 0.0023181 -0.0017752 0.00029655
-0.00092618 -0.0029852 -0.0014106 0.0010702 0.0018641 0.00050758 0.20773 -0.097204
0.00073295 0.0083639 -0.0017032 -0.0017206
-0.0012585 0.00108 0.00012589 0.0012749 -0.00013374 0.0023323 0.0007453 0.0082757
0.22069 0.095413 0.0058341 0.0031488
-8.9146e-05 -0.00020812 -0.00060282 0.00039522 -0.0017994 0.00029436 -0.0016407 -0.0017327
0.0058204 0.0031274 0.27052 0.10696
1880000000 0.21683 -0.14342 0.0025094 0.00066504 -0.00024557 0.0020838 -0.0029392 -0.0024103
-0.00016725 0.0018616 0.00046339 -0.0007419
0.0025201 0.00068513 0.26146 0.12932 -0.0037487 0.0029441 -0.00022921 0.0017466
0.0006569 0.0012569 0.00017694 0.00081107
-0.00024139 0.002066 -0.0037548 0.0029839 0.10315 -0.25132 0.0020082 -0.0013097
0.0018838 0.0020009 -0.001048 0.0014877
-0.0029383 -0.0024387 -0.0002314 0.0017319 0.0019442 -0.0013059 0.1676 -0.13707
0.0022979 0.0059752 -0.0021961 0.00015546
-0.00013112 0.0018226 0.0006587 0.0012434 0.001841 0.0019642 0.0022934 0.005985
0.22878 0.068625 0.0058799 0.0010375
0.00042085 -0.00071016 0.00017722 0.00080747 -0.0010185 0.001464 -0.0022339 6.3025e-05
0.005893 0.0010497 0.27155 0.074268
1940000000 0.1787 -0.17052 0.00040036 -0.0010364 0.0017769 0.0017145 -0.0038146 0.00017043
0.0011814 0.00084699 -0.00078318 -0.00066489
0.00041513 -0.001039 0.26388 0.097262 -0.0017683 0.0057898 0.0010417 0.0012241
0.0018264 0.00024069 0.00081392 0.00011277
0.0017505 0.0016992 -0.0017397 0.0058183 0.05955 -0.24357 0.00030858 -0.0025269
0.0021585 7.5853e-05 0.00027067 0.0015931
-0.0037837 0.00025275 0.0010684 0.0012445 0.00035327 -0.0025595 0.11604 -0.16944
0.0020122 0.0040312 -0.0016141 0.0014433
0.0011441 0.00083199 0.0018387 0.00020444 0.0021234 1.6988e-05 0.0020243 0.0041444
0.23761 0.032351 0.0045273 -0.0031231
-0.00078045 -0.00064686 0.00081374 0.00011103 0.00028289 0.0015658 -0.0016677 0.0014591
0.0045401 -0.0031134 0.26317 0.037513
2000000000 0.13181 -0.18544 -0.0030998 0.00076412 0.002881 0.0010791 -0.0025593 0.0036504
0.00095332 0.00038699 -0.00079923 0.00061325
-0.0030935 0.00072949 0.25005 0.061775 -0.000239 0.007786 0.0016566 0.00035252
0.0010812 -0.0012688 0.00034518 7.1517e-05
0.0028802 0.0010585 -0.0001984 0.0078139 0.017656 -0.2287 -0.0017312 -0.001567
0.0018979 -0.0011238 0.0016192 0.0015092
-0.0024677 0.0035854 0.0016807 0.00026156 -0.0017556 -0.001547 0.060902 -0.18012
0.00048819 0.0032502 -3.326e-05 0.0022017
0.0010022 0.00036409 0.0010601 -0.0012653 0.0019071 -0.001069 0.00052259 0.0031683
0.2371 0.00050206 0.00071184 -0.0040721
