!Keysight Technologies,M9804A,MY58100912,A.14.10.03
!Date: Thursday, April 27, 2023 10:28:33
!Correction: S11(C  6-Port  ) 
!S12(C  6-Port  ) 
!S13(C  6-Port  ) 
!S14(C  6-Port  ) 
!S15(C  6-Port  ) 
!S16(C  6-Port  ) 
!S21(C  6-Port  ) 
!S22(C  6-Port  ) 
!S23(C  6-Port  ) 
!S24(C  6-Port  ) 
!S25(C  6-Port  ) 
!S26(C  6-Port  ) 
!S31(C  6-Port  ) 
!S32(C  6-Port  ) 
!S33(C  6-Port  ) 
!S34(C  6-Port  ) 
!S35(C  6-Port  ) 
!S36(C  6-Port  ) 
!S41(C  6-Port  ) 
!S42(C  6-Port  ) 
!S43(C  6-Port  ) 
!S44(C  6-Port  ) 
!S45(C  6-Port  ) 
!S46(C  6-Port  ) 
!S51(C  6-Port  ) 
!S52(C  6-Port  ) 
!S53(C  6-Port  ) 
!S54(C  6-Port  ) 
!S55(C  6-Port  ) 
!S56(C  6-Port  ) 
!S61(C  6-Port  ) 
!S62(C  6-Port  ) 
!S63(C  6-Port  ) 
!S64(C  6-Port  ) 
!S65(C  6-Port  ) 
!S66(C  6-Port  ) 
!S6P File: Measurement: :
# Hz S  RI   R 50
500000000 -0.32786 -0.062965 -0.011013 -0.0015152 -0.008616 0.011926 -0.0045015 0.011323
0.012162 0.006032 -0.0056074 0.0083449
-0.011006 -0.0015285 -0.40808 -0.073924 0.0085806 -0.010902 0.00099481 0.011447
0.0083414 0.003127 0.00056322 0.013273
-0.0086494 0.011898 0.0085799 -0.010972 -0.2554 0.1915 0.0066157 0.0033037
-0.0022053 0.008014 0.0009156 0.01218
-0.0048156 0.011305 0.0010986 0.011377 0.0066191 0.0033427 -0.32529 0.042002
-0.01992 -0.0053478 0.016748 0.026313
0.012221 0.0063123 0.0083449 0.0030922 -0.0021686 0.0079735 -0.019862 -0.0053031
-0.21357 -0.24011 -0.028691 0.003377
-0.0059523 0.0083408 0.00064686 0.013312 0.00085074 0.012227 0.016679 0.02632
-0.028733 0.0035879 -0.25925 -0.14624
560000000 -0.3155 0.10456 -0.021752 -0.067629 -0.00037345 0.013185 0.0057704 0.011268
0.01129 0.0050152 0.010806 0.0088001
-0.021727 -0.067416 -0.37062 0.090136 -0.040784 -0.039292 0.012913 0.0027229
-0.014207 -0.005064 0.0040891 -0.0014804
-0.00036873 0.013145 -0.041099 -0.039206 -0.18162 0.24143 3.3303e-05 -0.005151
0.018153 0.0060214 0.0078293 -0.0060358
0.0061718 0.010963 0.012717 0.0027743 0.0001663 -0.0052028 -0.30318 0.13099
0.0066592 -0.021913 0.0062034 -0.021409
0.010864 0.0047917 -0.01417 -0.0052598 0.018232 0.0062011 0.0064104 -0.021917
-0.29879 -0.055418 0.011238 -0.050216
0.010813 0.0087802 0.0040921 -0.0014135 0.0078731 -0.0061106 0.0062328 -0.021179
0.011532 -0.050231 -0.32836 0.0043383
620000000 -0.27493 0.08176 -0.023397 0.0091692 0.0036234 0.0089522 0.0088385 -0.0046839
0.011397 0.0002568 0.0016998 -0.0010485
-0.023404 0.009165 -0.39896 0.035943 -0.01929 -0.0001123 -0.0015821 -0.0023884
0.012185 -0.005363 0.00067186 -0.0035153
0.0036452 0.008927 -0.019308 -3.1689e-05 -0.15461 0.24983 -0.00099206 -0.0051906
-0.0044506 -0.0025841 0.0086671 -0.0032708
0.0087142 -0.0045069 -0.0015929 -0.0023931 -0.0010021 -0.0051841 -0.26109 0.14181
-0.039241 -0.021244 0.012659 0.029147
0.011635 0.00017196 0.012184 -0.0053295 -0.0044141 -0.0025511 -0.039313 -0.021034
-0.2166 -0.093737 -0.04557 0.011571
0.0015179 -0.0010559 0.00061864 -0.003686 0.0085622 -0.0034442 0.012495 0.02941
-0.045475 0.011542 -0.24655 -0.031691
680000000 -0.24065 0.17454 -0.026327 -0.015285 0.0046963 0.0052447 0.0013893 -0.0074731
-0.0019083 -0.011865 0.0047933 -0.0064129
-0.026303 -0.015276 -0.38993 0.13769 -0.032548 -0.0019207 -0.0015166 -0.00027595
-0.0013885 -0.0095031 -0.00078537 -0.0020829
0.0047001 0.0052431 -0.032623 -0.0018147 -0.10755 0.27342 -0.00075645 0.00011001
-0.0015465 0.00083369 -0.0032438 -0.009341
0.0014283 -0.0074313 -0.001587 -0.00025123 -0.00077988 8.3153e-05 -0.21842 0.19362
-0.02257 -0.0075664 -0.0084115 -0.012053
-0.0019836 -0.011836 -0.0014917 -0.0094888 -0.0015069 0.00080861 -0.022505 -0.0074929
-0.28189 0.0069825 -0.0051273 -0.0076762
0.004937 -0.0064038 -0.00091053 -0.0020077 -0.0031677 -0.0094189 -0.0082426 -0.012107
-0.005215 -0.0076142 -0.25995 0.071614
740000000 -0.19515 0.16725 -0.041389 0.026353 0.01333 -0.0036088 3.5235e-05 -0.0043939
-0.0041038 -0.0021809 -0.0068053 0.0032259
-0.04135 0.026312 -0.33603 0.15713 -0.036905 0.034181 0.0002521 -0.0054242
-0.011989 0.0069771 -0.00060962 -0.005345
0.013375 -0.0036409 -0.036922 0.034382 -0.074197 0.27397 -0.0019116 0.0030435
-0.0010975 -0.0050469 -0.0019144 0.00065508
-0.00011504 -0.0044314 0.00023795 -0.0054455 -0.001976 0.0030183 -0.20192 0.20015
-0.042884 -0.0094471 0.022341 0.016835
-0.0039521 -0.0022631 -0.012272 0.0071364 -0.0010674 -0.0049983 -0.042875 -0.0094046
-0.17826 0.043712 -0.044977 -0.0021627
-0.0069711 0.0031326 -0.00059368 -0.0053082 -0.0018016 0.00067548 0.022111 0.016767
-0.04498 -0.0018166 -0.25022 0.077898
800000000 -0.16613 0.21317 -0.0226 0.015947 0.0054732 -0.010241 -0.0045437 -0.0025674
-0.0039959 0.0017237 0.0042883 0.00044023
-0.022617 0.015923 -0.34454 0.22848 -0.0087986 0.034196 -0.0023241 0.0019521
-0.00024834 0.002373 0.00044261 0.0055285
0.0054788 -0.0103 -0.0086849 0.034299 -0.035728 0.30011 0.0011325 0.0011566
-3.6418e-05 0.0032419 -0.0016452 0.00082654
-0.004587 -0.0025815 -0.0023376 0.0019974 0.0011362 0.0011282 -0.17323 0.22791
-0.029332 0.012799 0.015192 -0.010306
-0.0040085 0.0017639 -0.00015768 0.0024386 -5.174e-05 0.0032359 -0.029293 0.012847
-0.23433 0.066207 -0.019504 0.020527
0.004333 0.00037054 0.00048865 0.005488 -0.0016019 0.00081511 0.015159 -0.010411
-0.019709 0.020642 -0.24831 0.12806
860000000 -0.13227 0.23456 -0.018633 0.03071 -0.0033309 -0.0098638 -0.0020997 0.00056103
0.0041673 0.0053064 -0.0033566 -0.0032604
-0.018653 0.030672 -0.29772 0.27299 0.0074353 0.034167 0.00028664 0.0021976
0.0041024 9.5722e-05 0.0034222 0.00017088
-0.0033468 -0.0098736 0.0075403 0.0342 0.01276 0.31021 -0.00059613 -0.00045937
0.0026105 -0.001864 0.0015281 0.0042124
-0.0020989 0.00060173 0.00031954 0.0021209 -0.00052139 -0.00044931 -0.13704 0.23972
-0.018679 0.017078 -0.0070137 -0.0095729
0.0041734 0.0053789 0.0040505 0.00012404 0.0025725 -0.0018442 -0.018665 0.017025
-0.17954 0.1273 -0.026024 0.016449
-0.0034056 -0.0031786 0.0033665 0.00018023 0.0015182 0.0041875 -0.0070799 -0.0095202
-0.026053 0.016415 -0.19917 0.17707
920000000 -0.10932 0.25826 0.0042588 0.039538 -0.0092795 -0.0042684 -0.0020318 0.001691
0.00031844 0.0016115 0.0028331 -0.0014594
0.0042539 0.039461 -0.27144 0.29534 0.027713 0.022947 0.0012381 0.0010039
0.0070128 0.00030609 0.0036588 -0.0028236
-0.0093134 -0.004249 0.027825 0.022889 0.058991 0.31213 0.001709 -0.00010231
0.00050302 -0.00025693 0.00076617 -0.0013001
-0.0020332 0.00172 0.0012605 0.001081 0.0017028 -0.00010234 -0.11342 0.25697
-0.012761 0.030497 0.0043011 -0.0066518
0.00034914 0.0015785 0.0069979 0.00023769 0.00048625 -0.00025763 -0.012668 0.030531
-0.17315 0.13185 -0.0038861 0.028942
0.0028241 -0.0014908 0.0036642 -0.0028513 0.00078213 -0.0013065 0.0042688 -0.0066578
-0.0038853 0.028937 -0.20822 0.18983
980000000 -0.063046 0.28073 0.01652 0.030791 -0.0091053 0.0047443 0.0019646 0.0037635
0.0038011 -0.0013225 -0.0033919 -0.0029091
0.016459 0.030741 -0.21934 0.33266 0.032919 0.0053016 0.0019532 -0.00019614
0.0014735 -0.0059014 -0.00040626 -0.002643
-0.0090766 0.0047766 0.03297 0.0051847 0.10553 0.30701 0.0004476 -0.0011803
0.00030937 -0.0017001 0.0013897 -0.00024395
0.0018931 0.0038056 0.0019079 -0.00016776 0.00043465 -0.001182 -0.075039 0.26841
0.00645 0.03042 -0.009875 -0.0079858
0.0038305 -0.0014248 0.0015153 -0.0059289 0.00031619 -0.001692 0.0064302 0.03043
-0.14362 0.16893 0.0048422 0.02076
-0.003354 -0.0028633 -0.00037737 -0.0026665 0.0014102 -0.00021537 -0.0099928 -0.0079729
0.0049068 0.020756 -0.1669 0.23924
1040000000 -0.021977 0.29011 0.033092 0.020003 -0.00099649 0.0074923 0.0024167 0.00061957
0.00047213 -0.0034861 -0.00011631 -0.0012807
0.033026 0.020016 -0.18415 0.34695 0.029496 -0.014153 0.0014026 -0.0017547
-0.0023821 -0.0022684 -0.001159 -0.0028249
-0.00095641 0.0075088 0.029476 -0.014263 0.15211 0.29411 -0.00054719 -0.0013363
-0.001508 -0.00095224 -0.00059318 -0.0010823
0.0024446 0.00057832 0.0013839 -0.0017636 -0.00053952 -0.0013524 -0.047882 0.27837
0.018291 0.019678 -0.001937 0.0014786
0.00047738 -0.003419 -0.0024027 -0.0022427 -0.0015183 -0.00093748 0.018333 0.019614
-0.11067 0.17796 0.013002 0.020629
-0.00012268 -0.0013037 -0.0011958 -0.0028046 -0.00058674 -0.0010641 -0.0019628 0.0014759
0.012968 0.020618 -0.14594 0.25932
1100000000 0.022773 0.3004 0.036715 -0.0027944 0.0035536 0.0039909 0.0024966 -0.00093786
-0.0023882 -0.0030778 -0.004031 -0.00023154
0.03666 -0.0027702 -0.14084 0.36694 0.015421 -0.027298 -6.4926e-05 -0.0017728
-0.0035196 -0.00090989 -0.0035925 -0.00070356
0.0035855 0.0039819 0.015321 -0.0274 0.19837 0.27491 -0.0017013 0.00033481
-0.001604 0.0007657 -0.0010667 -0.00046095
0.002483 -0.00095724 -4.2403e-05 -0.0017856 -0.001703 0.00032215 -0.0077029 0.28355
0.024407 0.006896 -0.0026224 -0.0001232
-0.002363 -0.0030972 -0.0034549 -0.00086712 -0.0015997 0.00075498 0.024478 0.0068285
-0.09402 0.19503 0.019907 0.010468
-0.004069 -0.00013213 -0.0035931 -0.00065613 -0.0010522 -0.00049542 -0.0026172 -0.00012651
0.019934 0.010467 -0.10174 0.29208
1160000000 0.074205 0.29748 0.025166 -0.019923 0.0033705 -0.00065747 -7.4155e-05 -0.0025524
-0.0040061 -0.00093266 -0.0012727 0.0042971
0.025158 -0.019886 -0.096486 0.37209 -0.0033913 -0.028471 -0.0016699 -0.0014785
-0.0025328 0.0024761 -0.001519 0.0021683
0.0033726 -0.00067093 -0.003552 -0.028496 0.24219 0.24509 -0.00058846 0.0016496
-0.00039501 0.0017292 -0.00096589 0.00021488
-5.528e-05 -0.0025791 -0.0016635 -0.0014536 -0.00057764 0.0016381 0.031662 0.28075
0.021943 -0.0094857 -0.0035511 0.0053064
-0.0040035 -0.00087866 -0.0025421 0.0024608 -0.00040148 0.0017696 0.021958 -0.0094961
-0.057655 0.2065 0.019202 0.0013667
-0.0012622 0.0042538 -0.0014807 0.0021658 -0.00091256 0.00024848 -0.0035724 0.0053151
0.019229 0.0014051 -0.053656 0.29528
1220000000 0.11786 0.28845 0.012217 -0.029929 -0.001184 -0.0015181 1.9364e-05 -0.0010319
-0.0028312 0.0024077 0.0011964 0.0019702
0.012224 -0.029888 -0.0527 0.38644 -0.016434 -0.020939 -0.002436 0.00050754
-5.9111e-05 0.0030178 -0.00081381 0.0017804
-0.0011957 -0.0015211 -0.016567 -0.020892 0.28169 0.20689 0.0008671 0.00144
0.00047713 0.0011459 0.00017753 0.00054922
2.6503e-05 -0.0010168 -0.0024231 0.0005338 0.00087904 0.0014508 0.071166 0.2726
0.011462 -0.016169 0.0022108 0.0015212
-0.0028065 0.0024124 -1.8847e-05 0.0030331 0.00049504 0.0011467 0.011431 -0.016198
-0.036238 0.21853 0.015496 -0.012168
0.0012138 0.0019728 -0.00082253 0.0017852 0.00017764 0.00056101 0.0022292 0.0015615
0.015408 -0.012148 -0.02424 0.31446
1280000000 0.16842 0.26898 -0.0066007 -0.029132 -0.0018779 0.0016163 -0.000952 -0.002003
-0.0010645 0.0032991 0.0024926 0.0012949
-0.0065726 -0.029113 -0.0060943 0.37876 -0.023408 -0.0081753 -0.00081006 0.0014111
0.0016171 0.0017991 0.00061665 0.0020304
-0.0018687 0.0016203 -0.023467 -0.0080644 0.3134 0.16379 0.0013578 -0.00014896
0.0010415 0.0003858 0.00023371 0.00035025
-0.00097948 -0.002016 -0.00079329 0.0014171 0.0013458 -0.00015797 0.10784 0.25678
0.0021846 -0.018974 -0.00027214 8.2613e-05
-0.0010432 0.0033176 0.0016134 0.0017693 0.0010543 0.00036946 0.002134 -0.018984
0.00057389 0.22506 0.0042166 -0.01542
0.0024652 0.0012834 0.00062693 0.0020321 0.00025145 0.00036506 -0.00028764 0.00010987
0.0042451 -0.015393 0.024051 0.31837
1340000000 0.20605 0.23698 -0.01658 -0.020041 0.00026407 0.0041011 -0.0018222 -0.0007549
0.0015646 0.0027913 0.0017035 -0.0013685
-0.016537 -0.020045 0.033213 0.3718 -0.020674 0.0042906 -0.00015134 0.0019217
0.0017853 0.00090035 0.0011891 0.00085667
0.00027727 0.0041106 -0.020706 0.0044096 0.33647 0.11607 0.00077828 -0.00081294
0.00051207 -0.00045413 6.7585e-05 0.00023007
-0.0018252 -0.00071896 -0.00015435 0.0019248 0.00077411 -0.00080859 0.14089 0.23706
-0.0074304 -0.01665 0.0010774 0.00042338
0.001613 0.0028017 0.0017892 0.00089129 0.00051605 -0.00043891 -0.0074426 -0.01664
0.029662 0.22273 -0.0025265 -0.013914
0.0016946 -0.0014005 0.0011926 0.00084724 7.2435e-05 0.0002193 0.0010918 0.0004124
-0.002525 -0.013872 0.061928 0.31477
1400000000 0.24049 0.20071 -0.023279 -0.0089127 0.0046316 0.0030676 -0.0021119 0.00079366
0.0025454 0.00098755 0.00033876 -0.0012944
-0.023244 -0.0089126 0.071547 0.36024 -0.014111 0.012137 0.0012403 0.0013696
0.0011257 -0.00057683 0.001121 0.00023773
0.0046767 0.0030533 -0.014076 0.012234 0.35038 0.06201 1.2126e-06 -0.0013659
0.00028227 -0.0001576 0.00039649 0.00022941
-0.0021038 0.00077601 0.0012386 0.0013601 -5.7721e-09 -0.0013677 0.17065 0.20866
-0.01358 -0.01036 -0.0010495 -0.00043515
0.00253 0.00097817 0.0011318 -0.00056911 0.00027089 -0.00016795 -0.013624 -0.010329
0.062878 0.22219 -0.0092221 -0.0093863
0.0003617 -0.0012824 0.0011307 0.00022538 0.00040857 0.00024302 -0.0010397 -0.00044103
-0.009253 -0.0094199 0.10706 0.30637
1460000000 0.26466 0.1578 -0.020681 0.0036404 0.0050568 -0.001562 -0.0014952 0.0017146
0.0021601 -0.00039977 -0.0002347 -0.00081332
-0.020655 0.0036252 0.10648 0.33899 -0.0053429 0.014759 0.0015868 0.00028583
0.0010802 -0.0012265 0.0012543 -0.00057691
0.0050491 -0.0015741 -0.0052677 0.014825 0.35719 0.0068624 -0.0010414 -0.0011145
0.00027061 -0.00024422 0.00066315 -0.00031444
-0.0014777 0.0017213 0.0015847 0.00027813 -0.0010182 -0.00111 0.19788 0.18
-0.014887 -0.0040651 -0.0010214 0.0018887
0.0021689 -0.00042808 0.0010783 -0.0012329 0.00026299 -0.00023218 -0.014897 -0.0040348
0.092734 0.21077 -0.011678 -0.0032352
-0.00026436 -0.00082263 0.0012412 -0.00057607 0.00065816 -0.00031634 -0.0010147 0.0018888
-0.011664 -0.0032253 0.14082 0.28618
1520000000 0.27807 0.11687 -0.015576 0.0093855 0.0030402 -0.0037675 9.0733e-05 0.0026203
0.0022864 -0.0018021 -0.0010149 -0.00024847
-0.015566 0.0093579 0.14079 0.32545 0.0020236 0.012104 0.0016765 -0.00064122
0.00021137 -0.0010306 0.00038367 -0.00095434
0.0030373 -0.0037734 0.0020983 0.012105 0.34954 -0.050294 -0.00079529 -0.00040216
0.00067824 -0.0010296 0.00014516 -3.4135e-05
0.0001044 0.0026117 0.0016712 -0.0006505 -0.00078555 -0.00040378 0.22174 0.14191
-0.015134 0.0015586 0.001359 0.0020906
0.0022733 -0.0018253 0.00019422 -0.0010335 0.00067013 -0.0010427 -0.015131 0.0015965
0.12047 0.20069 -0.011512 0.00095368
-0.0010355 -0.00025817 0.00040068 -0.0009628 0.00014322 -3.8309e-05 0.0013667 0.002079
-0.011515 0.00096687 0.17478 0.26814
1580000000 0.28881 0.071592 -0.0091566 0.013158 -0.0011313 -0.0044948 0.0014762 0.0019079
-0.0001701 -0.0023091 -0.00023674 0.00042403
-0.0091577 0.013151 0.16903 0.30105 0.0051963 0.0070298 0.00062006 -0.0014882
-0.00042416 -0.0012066 -0.00018579 -0.00069218
-0.0011469 -0.0044737 0.0052614 0.0070198 0.32875 -0.10791 -0.001463 0.00026213
-0.00038613 -0.001364 0.00029552 -0.00050156
0.0015057 0.0019035 0.00061409 -0.0014876 -0.0014692 0.00025683 0.23645 0.10251
-0.01203 0.0068766 0.0021345 0.00081261
-0.00015104 -0.0023028 -0.00043036 -0.0012002 -0.00037889 -0.0013452 -0.012019 0.0069166
0.14643 0.18633 -0.0095627 0.0071729
-0.00024203 0.00042892 -0.00019717 -0.00070686 0.00028895 -0.00050548 0.0021458 0.00080974
-0.0095804 0.0071597 0.20839 0.24269
1640000000 0.2922 0.030492 -0.0023142 0.012457 -0.0027137 -0.0020726 0.0027498 0.0010641
-0.00055994 -0.001731 -0.00037247 0.00041348
-0.0023328 0.012451 0.19922 0.27678 0.0053407 0.0023508 -0.0004427 -0.0018586
-0.00096137 -0.00057764 -0.00039912 -0.00068934
-0.0027251 -0.0020661 0.0053627 0.0023131 0.29933 -0.15684 -0.00079448 0.0011766
-0.0010621 -0.0011008 -9.5681e-05 -0.00035425
0.0027337 0.0010363 -0.00044263 -0.0018584 -0.00080947 0.0011579 0.24965 0.053028
-0.0080363 0.0083789 0.002488 -0.0005786
-0.00054706 -0.0017338 -0.00095404 -0.00057871 -0.0010705 -0.0010869 -0.0080118 0.0083944
0.17022 0.16581 -0.0045526 0.0091528
-0.00038187 0.00044397 -0.00041107 -0.00068688 -8.7957e-05 -0.00037697 0.0024864 -0.00058791
-0.0045715 0.0091751 0.23458 0.21285
1700000000 0.28647 -0.014463 0.001367 0.0099871 -0.0032157 0.00043932 0.0031086 -0.0012224
-0.0021317 -0.00078542 0.000521 0.00041219
0.0013602 0.009972 0.21813 0.24543 0.0027543 -0.00028499 -0.0014358 -0.00076533
-0.00088469 -0.00012284 -0.00079888 -0.00044957
-0.0032073 0.00047768 0.0027593 -0.00029057 0.25511 -0.19549 0.00013608 0.0016675
-0.0021419 -0.00026428 -0.0003422 -0.00071561
0.0031022 -0.0012136 -0.0014493 -0.00077492 0.00013063 0.0016413 0.24656 0.0026899
-0.0053271 0.0096214 0.0017909 -0.0020598
-0.0021702 -0.00075878 -0.0008752 -0.00012913 -0.0021145 -0.0002812 -0.0053039 0.0096417
0.19005 0.14904 3.6829e-05 0.0095824
0.00054813 0.00040734 -0.00079947 -0.00042984 -0.00034474 -0.00070482 0.0017973 -0.0020528
3.8252e-05 0.0095453 0.25272 0.17928
1760000000 0.27587 -0.063284 0.0040626 0.0069218 -0.0019243 0.0012396 0.0013769 -0.0035014
-0.0012511 0.00048072 0.00020832 -0.00049495
0.0040466 0.006928 0.24476 0.20588 0.00019268 -0.0016222 -0.0012678 1.4222e-05
-0.0011915 0.00097645 -0.00054696 0.00024614
-0.0019039 0.0012311 0.00019045 -0.001625 0.20648 -0.22738 0.0010512 0.0015328
-0.0011494 0.0014895 -0.0012103 -0.00074167
0.0013727 -0.003502 -0.0012632 2.0554e-05 0.0010668 0.0015402 0.23782 -0.049526
-0.0015496 0.0091693 -0.00018871 -0.0024156
-0.0012522 0.00050837 -0.0011779 0.00098356 -0.0011553 0.0014988 -0.0015393 0.0091844
0.20719 0.11743 0.003959 0.0071543
0.00019819 -0.00049645 -0.00054615 0.00025741 -0.0012 -0.00070239 -0.00019697 -0.0024229
0.003981 0.0071487 0.26626 0.14234
1820000000 0.25255 -0.10133 0.0046021 0.0032994 0.00025096 0.002279 -0.00090057 -0.0030811
-0.0012383 0.0009061 -1.8239e-05 -0.0001049
0.0045948 0.0032889 0.25553 0.17601 -0.0019032 5.8819e-05 -0.0015007 0.00096115
-7.0976e-05 0.0012869 -0.00072763 0.00042764
0.00024859 0.0023016 -0.0019291 7.6838e-05 0.15678 -0.24202 0.0017034 0.00059443
-0.00030751 0.0024539 -0.001798 0.00027814
-0.00094178 -0.0030822 -0.0014768 0.00095725 0.0016913 0.00060032 0.20767 -0.097376
0.00044304 0.0078745 -0.0014929 -0.0016842
-0.0012111 0.00088506 -3.8505e-05 0.0013064 -0.00030429 0.0024291 0.0004724 0.0078648
0.2278 0.09104 0.0049587 0.0034837
-2.1e-05 -9.0874e-05 -0.00072765 0.00044179 -0.0017988 0.00026483 -0.0015173 -0.0016597
0.0049095 0.0034555 0.27017 0.10719
1880000000 0.21795 -0.14224 0.0025595 0.00086114 -0.00025138 0.0022259 -0.0028486 -0.0024045
-0.00025356 0.0016202 0.00033549 -0.00053358
0.0025584 0.00086078 0.26008 0.12964 -0.0038811 0.0028494 -0.00031212 0.0018122
0.0005857 0.0013348 0.00013103 0.0010224
-0.00027 0.0022424 -0.0038728 0.00289 0.10498 -0.24975 0.002055 -0.0012119
0.0017292 0.002001 -0.00099194 0.0014939
-0.0028805 -0.0023717 -0.0003235 0.0018144 0.002076 -0.0012305 0.1665 -0.13762
0.0016627 0.0056791 -0.0022945 0.00015376
-0.00029303 0.0016235 0.00060874 0.0013261 0.0017449 0.0020295 0.0016707 0.0056937
0.23483 0.061727 0.0054973 0.0015814
0.00035127 -0.00057496 0.0001393 0.0010346 -0.00098258 0.0015869 -0.0022894 0.0001666
0.0054649 0.001585 0.27163 0.073615
1940000000 0.17928 -0.16856 0.00049261 -0.00098654 0.0017249 0.0018561 -0.0040054 0.00026757
0.0010022 0.00096268 -0.00072701 -0.00079428
0.00050137 -0.00098354 0.26162 0.098372 -0.001972 0.0057613 0.0010657 0.0014207
0.0020397 0.00031909 0.0009375 0.00025294
0.0017823 0.001828 -0.001933 0.0057935 0.061049 -0.2416 0.00048801 -0.0024732
0.0022985 0.0002372 0.00024181 0.0016184
-0.0039873 0.00023749 0.0010936 0.0014288 0.00047699 -0.0025019 0.11406 -0.16859
0.0012327 0.0038193 -0.0013696 0.0013547
0.001064 0.00098229 0.0020378 0.00031755 0.0022912 0.00022395 0.001242 0.0038184
0.24178 0.025068 0.0043572 -0.002494
-0.00074943 -0.00078389 0.00093943 0.00022745 0.000207 0.0015854 -0.0013698 0.0013228
0.0043953 -0.0024997 0.26231 0.037538
2000000000 0.1333 -0.18363 -0.0032218 0.00083126 0.0029023 0.0011326 -0.0025121 0.0036259
0.00083255 0.0004811 -0.001011 0.00054042
-0.0032008 0.00082769 0.24813 0.063026 -0.00036128 0.0078174 0.0016626 0.00033559
0.0010794 -0.0013387 0.0004716 8.7955e-05
0.0029015 0.0011021 -0.00029901 0.0078314 0.020028 -0.22749 -0.0015281 -0.0016771
0.0020015 -0.0011036 0.0016743 0.00146
-0.0025423 0.0036192 0.0016737 0.00030331 -0.0015138 -0.0016503 0.059711 -0.17816
-0.00076025 0.0033024 -0.00018534 0.0019922
0.00085902 0.00041122 0.0010906 -0.0013374 0.0020071 -0.0011102 -0.00075331 0.0033144
0.24013 -0.0080617 0.0008731 -0.0033634
