!Keysight Technologies,M9804A,MY58100912,A.14.10.03
!Date: Thursday, April 27, 2023 10:28:33
!Correction: S11(C  6-Port  ) 
!S12(C  6-Port  ) 
!S13(C  6-Port  ) 
!S14(C  6-Port  ) 
!S15(C  6-Port  ) 
!S16(C  6-Port  ) 
!S21(C  6-Port  ) 
!S22(C  6-Port  ) 
!S23(C  6-Port  ) 
!S24(C  6-Port  ) 
!S25(C  6-Port  ) 
!S26(C  6-Port  ) 
!S31(C  6-Port  ) 
!S32(C  6-Port  ) 
!S33(C  6-Port  ) 
!S34(C  6-Port  ) 
!S35(C  6-Port  ) 
!S36(C  6-Port  ) 
!S41(C  6-Port  ) 
!S42(C  6-Port  ) 
!S43(C  6-Port  ) 
!S44(C  6-Port  ) 
!S45(C  6-Port  ) 
!S46(C  6-Port  ) 
!S51(C  6-Port  ) 
!S52(C  6-Port  ) 
!S53(C  6-Port  ) 
!S54(C  6-Port  ) 
!S55(C  6-Port  ) 
!S56(C  6-Port  ) 
!S61(C  6-Port  ) 
!S62(C  6-Port  ) 
!S63(C  6-Port  ) 
!S64(C  6-Port  ) 
!S65(C  6-Port  ) 
!S66(C  6-Port  ) 
!S6P File: Measurement: :
# Hz S  RI   R 50
500000000 -0.3271 -0.062432 -0.011305 -0.0013851 -0.0093782 0.011846 -0.0031606 0.014327
0.013315 0.0068355 -0.0035255 0.0074434
-0.01126 -0.0013599 -0.40843 -0.072355 0.0077638 -0.011102 0.0014861 0.012702
0.0085645 0.0034303 0.00092939 0.013417
-0.009343 0.01196 0.0078029 -0.011167 -0.25387 0.19378 0.0076296 0.0030224
-0.0021256 0.0080886 0.0017476 0.011151
-0.003143 0.013507 0.0014901 0.012483 0.0074852 0.0029601 -0.32829 0.043644
-0.020054 -0.0052254 0.016416 0.028064
0.014208 0.0067973 0.0094333 0.0034521 -0.0018437 0.0077144 -0.019202 -0.0052609
-0.20653 -0.25687 -0.030148 0.0039352
-0.0021002 0.0097345 0.0021564 0.01449 0.00206 0.011188 0.014567 0.02709
-0.029725 0.0049311 -0.2531 -0.14702
560000000 -0.314 0.10512 -0.021029 -0.06714 0.00021331 0.012356 0.0067688 0.0093718
0.0097323 0.003773 0.011036 0.0096743
-0.021066 -0.066383 -0.3691 0.089618 -0.041088 -0.039189 0.013553 0.0023486
-0.016113 -0.0065553 0.0046383 -0.00050003
-1.8756e-05 0.012243 -0.041102 -0.039105 -0.17919 0.24156 -0.00051235 -0.004291
0.018236 0.0064706 0.007846 -0.0069141
0.0068124 0.010243 0.013812 0.0024746 -0.00059996 -0.0044663 -0.3024 0.1339
0.0077671 -0.023876 0.0043758 -0.021751
0.0098111 0.0040944 -0.015458 -0.0059855 0.017671 0.006028 0.0074999 -0.023791
-0.29847 -0.070736 0.01166 -0.049925
0.010436 0.0074597 0.0027244 -0.0021525 0.0081975 -0.0070008 0.0063056 -0.021252
0.011954 -0.053497 -0.32755 0.0016142
620000000 -0.27444 0.082973 -0.02336 0.0090435 0.0037907 0.0093842 0.0082287 -0.0025666
0.012882 -0.0010345 -8.2995e-05 -0.0032537
-0.023277 0.0091149 -0.3982 0.035786 -0.019363 0.00024318 -0.0016976 -0.0020804
0.012715 -0.0053665 0.00042773 -0.0033988
0.0037299 0.0092691 -0.019421 0.00030629 -0.15282 0.25092 -0.0015681 -0.004595
-0.0040673 -0.0022232 0.008375 -0.0029718
0.0082597 -0.0030094 -0.001791 -0.0020315 -0.0015488 -0.0046232 -0.26177 0.14264
-0.039934 -0.019484 0.012027 0.027901
0.012256 -0.0016992 0.012571 -0.0049803 -0.0042001 -0.0024621 -0.039493 -0.020733
-0.20831 -0.11402 -0.045264 0.01301
0.0008555 -0.001949 0.00080004 -0.0036228 0.0090457 -0.0029851 0.012443 0.029144
-0.04548 0.013501 -0.24169 -0.038411
680000000 -0.23909 0.17379 -0.026265 -0.015376 0.0046464 0.0052152 0.0022953 -0.0080879
-0.0014101 -0.011373 0.0060477 -0.0055911
-0.026333 -0.015425 -0.38955 0.13798 -0.033022 -0.0015864 -0.0019148 -0.00072212
-0.0013219 -0.009487 -0.00062901 -0.0012415
0.004666 0.0050812 -0.033005 -0.0015448 -0.10686 0.27442 -0.00055845 -0.00015222
-0.0013639 0.0011458 -0.0023103 -0.0091583
0.0018821 -0.0079534 -0.0017842 -0.00063175 -0.00048945 -0.00015572 -0.21726 0.19489
-0.023649 -0.0081174 -0.0090737 -0.010884
-0.0017853 -0.011321 -0.001141 -0.0095617 -0.0014372 0.00074382 -0.023483 -0.0081306
-0.28636 -0.0078478 -0.0056031 -0.0066698
0.0047546 -0.0070576 -0.00082799 -0.0017917 -0.0029772 -0.0094944 -0.0086907 -0.012525
-0.0052354 -0.0069753 -0.26004 0.069143
740000000 -0.194 0.16879 -0.041036 0.026894 0.013133 -0.0035369 -0.00023355 -0.0033592
-0.0037769 -0.0021035 -0.0067578 0.0032533
-0.041025 0.026852 -0.3355 0.15673 -0.03674 0.034488 -2.1392e-05 -0.0059214
-0.014089 0.0073409 -0.001148 -0.0061473
0.013094 -0.003617 -0.036755 0.034683 -0.073428 0.27545 -0.00197 0.0034698
-0.0010562 -0.0062373 -0.0018469 0.0011414
0.00018506 -0.0034568 -8.1602e-05 -0.0059803 -0.0018969 0.0035779 -0.20157 0.20057
-0.04324 -0.010598 0.022358 0.016784
-0.0038259 -0.0034458 -0.014315 0.0066496 -0.00045629 -0.0059559 -0.043358 -0.010265
-0.18029 0.029652 -0.044776 -0.0013746
-0.006835 0.0035057 -0.00076929 -0.0056431 -0.0022586 0.0015845 0.021963 0.016728
-0.04484 -0.0024109 -0.25281 0.071866
800000000 -0.16637 0.21348 -0.022934 0.016463 0.0053096 -0.01017 -0.0041969 -0.0026732
-0.0042358 0.0013513 0.0043921 0.00022305
-0.022943 0.016463 -0.34508 0.22922 -0.008597 0.034694 -0.0019095 0.0020528
-0.00021523 0.0020179 0.001096 0.0054293
0.0052909 -0.010218 -0.0084768 0.034745 -0.035166 0.30151 0.0013174 0.0010051
3.0254e-06 0.0030807 -0.0015053 0.00091962
-0.0046589 -0.0029557 -0.0019514 0.0021579 0.0012232 0.00099182 -0.17336 0.22933
-0.029526 0.013065 0.014992 -0.010148
-0.0044539 0.0020323 -8.5351e-05 0.0020747 -0.00014642 0.0032212 -0.029939 0.013019
-0.24084 0.051965 -0.019739 0.021657
0.0036259 -9.835e-05 0.00098448 0.0051892 -0.0014302 0.00027194 0.01531 -0.010076
-0.019542 0.021493 -0.24915 0.12445
860000000 -0.13105 0.23531 -0.018398 0.030869 -0.0033858 -0.0097981 -0.0024647 0.0006125
0.0040073 0.0050287 -0.0035193 -0.0035855
-0.018401 0.030802 -0.29686 0.27471 0.0079498 0.034544 0.0003848 0.0025373
0.0037206 -9.8481e-05 0.0032373 -0.0002888
-0.0034209 -0.0098284 0.0080385 0.03458 0.01454 0.31203 -0.00057981 -0.00046692
0.0026088 -0.0015205 0.0012729 0.0039844
-0.0023208 0.00086602 0.00031536 0.0024963 -0.0005771 -0.00046827 -0.13626 0.24084
-0.019772 0.017724 -0.0058179 -0.010264
0.0042153 0.0044156 0.0040216 -0.00018127 0.0026823 -0.0018175 -0.019259 0.017923
-0.1862 0.11852 -0.027774 0.015614
-0.0037172 -0.0028448 0.0039177 -0.00025504 0.0014441 0.0042071 -0.0065014 -0.0099451
-0.027934 0.015408 -0.20038 0.17385
920000000 -0.10815 0.2585 0.0045391 0.03993 -0.009457 -0.004204 -0.001672 0.0019973
2.0718e-05 0.0017396 0.0030944 -0.0013889
0.0045447 0.039855 -0.27056 0.29615 0.028392 0.022869 0.0013124 0.00077944
0.0071935 -5.5551e-05 0.0040131 -0.0028918
-0.0094386 -0.0042112 0.028462 0.022802 0.061099 0.31331 0.0017388 -6.7667e-05
0.00054883 -0.00030264 0.00093295 -0.0012943
-0.0014901 0.0017817 0.0013094 0.00086117 0.0016811 -0.00010781 -0.11328 0.25831
-0.013156 0.031891 0.0041147 -0.0065383
-0.00010136 0.0014613 0.0071016 4.53e-05 0.00051375 -0.00010429 -0.012978 0.031939
-0.1808 0.12116 -0.0035113 0.029711
0.0030432 -0.0015621 0.0037157 -0.0030408 0.00088542 -0.0014378 0.0044652 -0.006191
-0.0037731 0.030073 -0.21154 0.18593
980000000 -0.061554 0.28168 0.01732 0.030762 -0.009093 0.0049297 0.0021132 0.0034928
0.0040266 -0.0011879 -0.0032471 -0.00271
0.01731 0.030746 -0.21852 0.33463 0.033426 0.00488 0.0019264 -0.00011921
0.001721 -0.0061373 -0.0003426 -0.0026683
-0.0091088 0.0049502 0.033471 0.0047947 0.1081 0.30873 0.00036066 -0.0011201
0.00029741 -0.0016979 0.0015775 -0.00032212
0.0018497 0.0034765 0.0019207 -0.00026794 0.00040056 -0.0010553 -0.073772 0.27055
0.0071645 0.031872 -0.0092372 -0.0083247
0.0041506 -0.0012792 0.0016562 -0.005951 0.00033591 -0.0017752 0.0072917 0.032017
-0.15185 0.16261 0.0048572 0.021387
-0.0037117 -0.0025837 -0.0004724 -0.0024302 0.0015411 -0.00024866 -0.009576 -0.0087861
0.0050063 0.021271 -0.17044 0.23654
1040000000 -0.020145 0.28989 0.03351 0.019835 -0.00081641 0.0075635 0.0025231 0.00077826
0.00019817 -0.0033131 -0.00011409 -0.0015485
0.03346 0.019892 -0.18254 0.34824 0.029657 -0.014787 0.0015369 -0.0019303
-0.0022312 -0.0021797 -0.0010766 -0.0030155
-0.00077108 0.0075706 0.029625 -0.014917 0.15555 0.29457 -0.00053846 -0.0014316
-0.0015365 -0.00099021 -0.00057706 -0.0011558
0.0026785 0.00071898 0.0015775 -0.0018426 -0.00052532 -0.0014895 -0.045938 0.27965
0.019523 0.020608 -0.0022658 0.0013531
0.00010732 -0.0033503 -0.002417 -0.002298 -0.0015436 -0.00093661 0.0196 0.02057
-0.11847 0.17101 0.013541 0.021508
7.6106e-05 -0.0015753 -0.0011669 -0.0030673 -0.00062983 -0.0012449 -0.0021445 0.0013726
0.013425 0.021799 -0.14899 0.25795
1100000000 0.024583 0.30094 0.037221 -0.0031772 0.0037082 0.0040617 0.0024752 -0.0011104
-0.002491 -0.003002 -0.0040735 1.4077e-06
0.037208 -0.0032086 -0.13995 0.36897 0.015021 -0.027918 -0.00017192 -0.0018108
-0.0034782 -0.00086261 -0.0037582 -0.00052583
0.0037154 0.0040581 0.014919 -0.027993 0.20155 0.27503 -0.0017507 0.00033247
-0.0017387 0.00068272 -0.0010534 -0.00056279
0.0023594 -0.0011911 -0.00021752 -0.0018567 -0.0018134 0.00035214 -0.0057323 0.28527
0.026034 0.0071507 -0.0024006 -0.0001625
-0.0022966 -0.0029817 -0.0033396 -0.00074624 -0.0017395 0.0007123 0.026134 0.0071282
-0.10235 0.19025 0.020119 0.011243
-0.0044768 4.5614e-05 -0.0038663 -0.00061422 -0.0011775 -0.00055574 -0.0022625 -0.00021957
0.020043 0.011134 -0.10459 0.29115
1160000000 0.076707 0.29756 0.025154 -0.02051 0.0035253 -0.00082055 -0.00019924 -0.0025931
-0.0041885 -0.00092469 -0.00086029 0.0043366
0.025135 -0.020437 -0.093823 0.37426 -0.004092 -0.028722 -0.0016845 -0.0013809
-0.0026675 0.0026038 -0.0014873 0.0020755
0.0035355 -0.00083202 -0.0042441 -0.028718 0.24631 0.24423 -0.00054321 0.0015896
-0.0004259 0.001836 -0.0011216 0.00028007
-0.00032683 -0.002503 -0.0017394 -0.0014102 -0.00049807 0.0016668 0.035271 0.28189
0.023539 -0.010199 -0.0036503 0.0050877
-0.0042301 -0.0009076 -0.0026969 0.0025456 -0.00042937 0.0017979 0.023562 -0.010199
-0.065977 0.20291 0.019583 0.0015661
-0.00087834 0.0043515 -0.001428 0.0020663 -0.0010034 0.00030172 -0.0036617 0.0051534
0.019503 0.0018141 -0.055733 0.29539
1220000000 0.12021 0.28773 0.012066 -0.030349 -0.0011094 -0.0016661 6.7794e-06 -0.00086627
-0.0028198 0.0023952 0.0011332 0.0019759
0.0121 -0.030347 -0.050013 0.38777 -0.017101 -0.020732 -0.0024196 0.00061965
-6.843e-05 0.0030295 -0.00087362 0.0019703
-0.0011072 -0.00168 -0.017209 -0.020683 0.28514 0.20454 0.00087153 0.001405
0.00046306 0.0011284 0.00012885 0.00064939
3.8703e-06 -0.00084266 -0.0024251 0.00065906 0.00088877 0.0013894 0.074377 0.27234
0.012306 -0.017631 0.0019666 0.0015185
-0.0028666 0.0022848 -0.00012191 0.0030355 0.00043593 0.0011276 0.01223 -0.017617
-0.045008 0.21517 0.015896 -0.01249
0.0011818 0.0019209 -0.00084825 0.0019275 7.8022e-05 0.00071786 0.0021139 0.0014716
0.01583 -0.012391 -0.026388 0.31419
1280000000 0.17112 0.26859 -0.0072703 -0.029519 -0.0018826 0.0015758 -0.00097949 -0.0020714
-0.00085514 0.0032323 0.002554 0.001384
-0.0072653 -0.029502 -0.0025584 0.38024 -0.023822 -0.0075625 -0.00081255 0.001395
0.0015796 0.0017731 0.00070767 0.0020279
-0.0018769 0.0015861 -0.023873 -0.0074371 0.31603 0.16142 0.0014032 -0.00022058
0.001091 0.00042831 0.00014997 0.0003676
-0.0010114 -0.0021544 -0.00081855 0.0014013 0.0013274 -0.00020438 0.11119 0.25613
0.0022958 -0.020728 -0.00029247 4.3277e-05
-0.00077515 0.003348 0.0016675 0.0017212 0.0011078 0.00044635 0.0023545 -0.020701
-0.0075998 0.22386 0.0041365 -0.015552
0.0024218 0.001407 0.00057644 0.0021574 0.00015744 0.00040296 -0.00055775 3.1154e-05
0.0040732 -0.015699 0.022214 0.31938
1340000000 0.20904 0.23502 -0.017068 -0.020062 0.00021283 0.00398 -0.0017903 -0.00065848
0.0015102 0.0029663 0.0017563 -0.0014902
-0.017005 -0.020049 0.037526 0.37176 -0.020576 0.0049493 -5.6608e-05 0.0019477
0.0017563 0.0010047 0.001253 0.00083882
0.00022788 0.003946 -0.020568 0.0050556 0.33881 0.11236 0.00078081 -0.00084636
0.00066782 -0.00043094 0.00019237 0.00048916
-0.001765 -0.00062425 -8.7614e-05 0.0019498 0.00082151 -0.00080802 0.14375 0.23452
-0.008166 -0.018126 0.00088285 0.00055078
0.0014873 0.0030458 0.0017096 0.0010145 0.00069115 -0.00045716 -0.0082157 -0.018179
0.022195 0.22182 -0.0025177 -0.01457
0.0017778 -0.0014604 0.0012776 0.00067643 0.00024001 0.00038394 0.001026 0.00046254
-0.0024348 -0.014416 0.06141 0.31561
1400000000 0.24273 0.19824 -0.023858 -0.0086879 0.0045822 0.0029873 -0.0020491 0.00073877
0.0026542 0.00097633 0.00034103 -0.0012747
-0.023853 -0.0087149 0.07483 0.35964 -0.013621 0.012541 0.0013073 0.0012277
0.0012136 -0.00052484 0.001258 0.00020033
0.0045689 0.0029912 -0.013583 0.01263 0.35143 0.058525 -4.7934e-05 -0.0012969
0.00033099 -0.00021526 0.00049176 0.00017534
-0.0020069 0.00070051 0.0013024 0.001256 -2.4459e-05 -0.0013342 0.17216 0.20608
-0.015063 -0.011133 -0.0010223 -0.00037615
0.0026583 0.00090627 0.001301 -0.00053883 0.00025878 -0.00017736 -0.015301 -0.011111
0.055757 0.22198 -0.0097209 -0.0095625
0.0002539 -0.0013438 0.0011087 0.000235 0.00046351 0.00019619 -0.00099629 -0.00035187
-0.0099334 -0.0097169 0.1061 0.30696
1460000000 0.26696 0.15497 -0.021111 0.0042274 0.0049756 -0.0016746 -0.0015423 0.0015418
0.0022176 -0.00036942 -0.00020414 -0.00088386
-0.02107 0.004232 0.11009 0.33774 -0.0047779 0.014735 0.0016008 0.00030939
0.0011541 -0.0013383 0.0012061 -0.00060163
0.0049711 -0.0016659 -0.0046983 0.014762 0.35789 0.0035151 -0.0010575 -0.0010778
0.00031096 -0.00028082 0.00078359 -0.00034368
-0.0015434 0.0015755 0.0016279 0.00027291 -0.0010744 -0.0010939 0.19894 0.17746
-0.016447 -0.0039347 -0.0010948 0.0022197
0.0023048 -0.00042139 0.0011377 -0.0013571 0.00033008 -0.00026822 -0.016313 -0.0038088
0.086356 0.21048 -0.012111 -0.0034947
-0.00018905 -0.00087381 0.0012111 -0.00068052 0.00075186 -0.00037808 -0.0012172 0.0021792
-0.012049 -0.0033144 0.14105 0.28727
1520000000 0.27934 0.11312 -0.015678 0.0099869 0.0029469 -0.0037859 0.00017464 0.0026629
0.0025935 -0.0018113 -0.0010633 -0.00020655
-0.015701 0.009939 0.14352 0.32311 0.0024156 0.011819 0.0017049 -0.00063568
0.00026342 -0.0010638 0.00032721 -0.00097312
0.0029346 -0.003819 0.0024787 0.011805 0.3498 -0.054516 -0.0007164 -0.00032565
0.00061026 -0.0010865 0.00017711 -0.00011882
0.00018726 0.0026143 0.0016631 -0.00066353 -0.00074739 -0.00028294 0.22156 0.13916
-0.01624 0.0022975 0.0013663 0.0020959
0.0025164 -0.0018405 0.00026779 -0.0010327 0.00058659 -0.0010736 -0.016248 0.0022231
0.11358 0.20084 -0.011831 0.0010898
-0.0010378 -0.00026933 0.00032261 -0.00096852 0.00023945 -0.00014025 0.0014243 0.0021533
-0.011968 0.0010793 0.17372 0.26842
1580000000 0.28943 0.068582 -0.0089 0.013825 -0.0012262 -0.0043283 0.0015117 0.0018402
-0.00014061 -0.0023382 -0.00020281 0.00038305
-0.0089048 0.013822 0.1708 0.29944 0.0052313 0.0066518 0.00060482 -0.0015755
-0.00048182 -0.0013024 -0.00027403 -0.00068924
-0.0012511 -0.0042873 0.0052964 0.0066283 0.3279 -0.11074 -0.0014168 0.00021905
-0.00048383 -0.0014056 0.00023221 -0.00058431
0.001514 0.0018533 0.00060937 -0.0015701 -0.0013759 0.00017815 0.23566 0.10102
-0.012325 0.0078843 0.002274 0.00096187
-0.0001419 -0.0023515 -0.00045814 -0.0012842 -0.00044898 -0.0013628 -0.01249 0.0079572
0.13962 0.18714 -0.009502 0.0077173
-0.00028011 0.00035624 -0.00022188 -0.00067264 0.00017266 -0.00060679 0.0022649 0.00088923
-0.0094968 0.0076392 0.20794 0.24394
1640000000 0.29275 0.027137 -0.0017852 0.012773 -0.0027135 -0.0019466 0.0027213 0.00099179
-0.00057061 -0.001855 -0.00038964 0.00042122
-0.0018089 0.012755 0.20143 0.27443 0.0051836 0.0020478 -0.00056343 -0.0019098
-0.0010632 -0.00055618 -0.00046124 -0.00062175
-0.0027251 -0.0019518 0.005187 0.0020165 0.29858 -0.16026 -0.00085109 0.0012089
-0.0011755 -0.0010878 -0.00012675 -0.00039115
0.0027086 0.00098746 -0.00053652 -0.0018742 -0.00084489 0.0012183 0.24877 0.051664
-0.0081499 0.00923 0.0027159 -0.0006331
-0.00052039 -0.0018457 -0.0010448 -0.00058031 -0.0011985 -0.0011637 -0.0080795 0.0093109
0.16337 0.16676 -0.0044158 0.0099906
-0.00038196 0.00047756 -0.00045091 -0.00059762 -0.00021602 -0.00041925 0.0026685 -0.00054081
-0.0043934 0.010011 0.23502 0.21304
1700000000 0.28554 -0.017287 0.0019487 0.010003 -0.0030573 0.00054134 0.0030352 -0.0012277
-0.002266 -0.00072522 0.00047616 0.00041301
0.0019439 0.0099934 0.21882 0.24381 0.0025695 -0.00033392 -0.0014843 -0.00064462
-0.00089295 -9.6301e-05 -0.00084328 -0.00044019
-0.0030536 0.00053993 0.0025713 -0.00032413 0.25342 -0.19794 8.1177e-05 0.0017386
-0.0022676 -0.00012114 -0.00039959 -0.00088206
0.0030441 -0.0012211 -0.0015085 -0.00067734 9.7073e-05 0.0017525 0.24515 0.0021986
-0.0051271 0.010194 0.0016076 -0.0020105
-0.0022692 -0.00075668 -0.00090981 -9.0692e-05 -0.0022968 -8.4101e-05 -0.0050466 0.010153
0.18241 0.15108 0.00041555 0.0096983
0.00049205 0.00049612 -0.00080792 -0.00038434 -0.00030855 -0.00095804 0.0016903 -0.0020664
0.00046331 0.0098083 0.25254 0.1798
1760000000 0.27566 -0.065593 0.0044203 0.0066221 -0.0018656 0.0010797 0.0012417 -0.0033498
-0.0012657 0.00061541 0.00024408 -0.00061473
0.0044044 0.0066002 0.24641 0.20484 -7.8495e-06 -0.0015263 -0.0012754 7.5079e-05
-0.0010983 0.0011042 -0.00038961 0.00036319
-0.0018554 0.0010942 -3.2115e-05 -0.00153 0.20543 -0.22954 0.0012241 0.0014498
-0.0010895 0.001612 -0.0012521 -0.00066181
0.0012486 -0.0033596 -0.0012809 0.00010314 0.0012404 0.0014108 0.23799 -0.048687
-0.001336 0.0096713 6.2797e-06 -0.0024874
-0.0013599 0.0006158 -0.0011129 0.0011167 -0.0010767 0.0015636 -0.0013177 0.0097366
0.20026 0.12126 0.0046544 0.0072374
0.00035524 -0.00057197 -0.00035961 0.00040604 -0.0012496 -0.0005845 -6.31e-05 -0.0025606
0.0046797 0.0071466 0.2667 0.14294
1820000000 0.2516 -0.10379 0.0047919 0.0029378 0.00039296 0.0022181 -0.00087314 -0.0030243
-0.0013358 0.00099224 -0.00010535 -0.00013237
0.0047843 0.0029549 0.25656 0.17453 -0.0019667 0.00029429 -0.0013804 0.0010102
8.8065e-05 0.0012421 -0.00062288 0.00035965
0.00039824 0.0021762 -0.0019869 0.00032798 0.15486 -0.24432 0.0018354 0.0005548
-0.00013119 0.0024272 -0.0018364 0.00021238
-0.0009527 -0.003049 -0.0013724 0.0010003 0.0017728 0.00055734 0.20799 -0.097242
0.00075061 0.0084538 -0.0016926 -0.0017066
-0.0012658 0.00096952 0.00013708 0.0012172 -0.00017044 0.0023827 0.00077065 0.0083564
0.22087 0.095379 0.0055888 0.0032623
-9.8511e-05 -0.00010355 -0.00060427 0.00043255 -0.0018219 0.00027081 -0.0016096 -0.0016053
0.0056372 0.0032436 0.27052 0.10693
1880000000 0.21677 -0.14367 0.0024974 0.00065679 -0.00020268 0.0020628 -0.0029689 -0.0024328
-0.00013733 0.0018129 0.00037465 -0.0007114
0.0025175 0.0006618 0.26145 0.12927 -0.0037448 0.002994 -0.00026887 0.0017573
0.00067511 0.0012559 0.00011436 0.00087299
-0.0001584 0.0021199 -0.0037424 0.0030294 0.10321 -0.25131 0.0019547 -0.0012624
0.0017672 0.0019411 -0.00097142 0.0015011
-0.0028595 -0.0023719 -0.00020397 0.0018278 0.002049 -0.0012792 0.16747 -0.13727
0.0022373 0.0059533 -0.0022599 0.00018103
-0.00019528 0.0018337 0.00063765 0.0012359 0.0018278 0.0018469 0.00216 0.0060916
0.22879 0.068431 0.0060213 0.0011386
0.0003763 -0.00075916 0.00011914 0.00081145 -0.00092133 0.0015162 -0.0022376 0.00021088
0.006003 0.0011071 0.27149 0.07418
1940000000 0.17852 -0.17062 0.00043858 -0.0010437 0.0017217 0.0017131 -0.0038717 0.00033513
0.0011896 0.00085932 -0.00078957 -0.00065075
0.00042681 -0.0010583 0.26391 0.097189 -0.0017883 0.0057887 0.00098786 0.0013679
0.0018891 0.00023139 0.00080516 0.00015342
0.0017568 0.0016702 -0.0017437 0.0057937 0.059363 -0.24358 0.0003256 -0.0024254
0.0021439 5.8506e-05 0.00017536 0.001618
-0.0038762 0.00028154 0.00097755 0.001299 0.00033671 -0.0024648 0.11596 -0.1698
0.0019319 0.0041499 -0.0015807 0.0013353
0.0012118 0.00094754 0.0018513 0.000267 0.0022117 0.00014316 0.0020661 0.0041787
0.23772 0.032275 0.0044839 -0.0031261
-0.0007732 -0.00065334 0.00080082 0.00018039 0.00020235 0.00159 -0.0014571 0.0012517
0.0045886 -0.0031332 0.26333 0.037283
2000000000 0.13163 -0.18547 -0.0031462 0.00077658 0.0028768 0.0011195 -0.0025478 0.0035298
0.0009153 0.000264 -0.00082992 0.00060936
-0.0031277 0.00079847 0.24999 0.061749 -0.00023937 0.0078198 0.0017204 0.00019658
0.0010033 -0.001282 0.00029054 0.00010853
0.0028933 0.0010749 -0.00020495 0.0078449 0.017618 -0.22876 -0.0016412 -0.0015306
0.0018732 -0.001052 0.0015422 0.0015173
-0.0026485 0.0035722 0.0016625 0.00030296 -0.001776 -0.0015268 0.06085 -0.17986
0.00039647 0.0032964 -9.5257e-05 0.0021782
0.0009349 0.00028785 0.0010193 -0.0013486 0.0017931 -0.0010889 0.00053806 0.0033156
0.23706 0.00029097 0.00074183 -0.0039153
