!Keysight Technologies,M9804A,MY58100912,A.14.10.03
!Date: Thursday, April 27, 2023 10:28:33
!Correction: S11(C  6-Port  ) 
!S12(C  6-Port  ) 
!S13(C  6-Port  ) 
!S14(C  6-Port  ) 
!S15(C  6-Port  ) 
!S16(C  6-Port  ) 
!S21(C  6-Port  ) 
!S22(C  6-Port  ) 
!S23(C  6-Port  ) 
!S24(C  6-Port  ) 
!S25(C  6-Port  ) 
!S26(C  6-Port  ) 
!S31(C  6-Port  ) 
!S32(C  6-Port  ) 
!S33(C  6-Port  ) 
!S34(C  6-Port  ) 
!S35(C  6-Port  ) 
!S36(C  6-Port  ) 
!S41(C  6-Port  ) 
!S42(C  6-Port  ) 
!S43(C  6-Port  ) 
!S44(C  6-Port  ) 
!S45(C  6-Port  ) 
!S46(C  6-Port  ) 
!S51(C  6-Port  ) 
!S52(C  6-Port  ) 
!S53(C  6-Port  ) 
!S54(C  6-Port  ) 
!S55(C  6-Port  ) 
!S56(C  6-Port  ) 
!S61(C  6-Port  ) 
!S62(C  6-Port  ) 
!S63(C  6-Port  ) 
!S64(C  6-Port  ) 
!S65(C  6-Port  ) 
!S66(C  6-Port  ) 
!S6P File: Measurement: :
# Hz S  RI   R 50
500000000 -0.3261 -0.06189 -0.010631 -0.001662 -0.008906 0.012266 -0.0034227 0.012222
0.013292 0.0063589 -0.004251 0.0090792
-0.010659 -0.0016389 -0.40863 -0.072491 0.008025 -0.010943 0.0010408 0.012025
0.0094882 0.0033725 0.0014606 0.013759
-0.0088303 0.012284 0.0079984 -0.010971 -0.25381 0.19364 0.0075039 0.0027538
-0.0018773 0.0076127 0.0018933 0.010929
-0.0033247 0.012275 0.0011252 0.012063 0.0075572 0.0027957 -0.32687 0.044442
-0.020241 -0.0050978 0.015967 0.028546
0.013608 0.0065887 0.009574 0.003292 -0.0020647 0.0077103 -0.020073 -0.0049551
-0.20533 -0.25674 -0.030859 0.0050505
-0.004124 0.0088796 0.0014559 0.013925 0.0022688 0.011203 0.016127 0.028302
-0.02992 0.0044746 -0.25399 -0.14641
560000000 -0.31402 0.10461 -0.021545 -0.066344 -0.00047944 0.013296 0.0060832 0.011213
0.01089 0.005275 0.011244 0.0090208
-0.021431 -0.066338 -0.36794 0.090682 -0.041221 -0.038889 0.012919 0.0033145
-0.013814 -0.0057867 0.0044314 -0.0013823
-0.0004093 0.013353 -0.041374 -0.038825 -0.17927 0.24132 -0.00053414 -0.0053718
0.017629 0.0063321 0.007823 -0.0061219
0.0060025 0.011375 0.012965 0.0033416 -0.00045099 -0.0053447 -0.3033 0.13363
0.0077353 -0.023226 0.0048937 -0.021758
0.010852 0.0052142 -0.013585 -0.0056664 0.017373 0.0065248 0.0077342 -0.023085
-0.29913 -0.071427 0.01186 -0.051693
0.011771 0.0085935 0.0042371 -0.00041569 0.0071679 -0.0065961 0.004536 -0.021258
0.012892 -0.052016 -0.32639 0.0005179
620000000 -0.27381 0.08152 -0.023958 0.0090355 0.0029481 0.0084396 0.0079007 -0.0043634
0.011632 -4.3133e-05 -0.00033657 -0.0023557
-0.023906 0.0090391 -0.39862 0.035952 -0.019711 0.00021855 -0.001717 -0.0020218
0.012555 -0.0052441 0.00054969 -0.0031548
0.002983 0.008523 -0.019731 0.00026039 -0.15342 0.25064 -0.0015749 -0.0048744
-0.0040874 -0.0026623 0.0082426 -0.0027491
0.0078479 -0.0045954 -0.0017605 -0.0020444 -0.0015327 -0.0049871 -0.26131 0.14225
-0.040058 -0.021236 0.012195 0.028741
0.011863 0.00027704 0.012383 -0.0053613 -0.0040782 -0.0024952 -0.039749 -0.021106
-0.20818 -0.11083 -0.045842 0.012915
-0.00070914 -0.0025835 0.00075305 -0.003199 0.0082608 -0.0028556 0.012442 0.028514
-0.046056 0.012775 -0.24131 -0.037296
680000000 -0.23988 0.17431 -0.026376 -0.014927 0.0048478 0.0054183 0.0017982 -0.0074952
-0.001793 -0.011967 0.0051646 -0.0075943
-0.026356 -0.01495 -0.38922 0.13812 -0.032845 -0.0015198 -0.0019603 -0.00039488
-0.0014576 -0.0097778 -0.00108 -0.001839
0.0048335 0.0053759 -0.032879 -0.0014468 -0.10675 0.27452 -0.00083323 0.0001538
-0.0014881 0.00080442 -0.0030391 -0.0093275
0.001813 -0.007487 -0.0019866 -0.00036264 -0.00089081 0.00020525 -0.21783 0.19513
-0.023711 -0.008188 -0.0088615 -0.011827
-0.0020368 -0.011608 -0.0014404 -0.0096291 -0.0014965 0.00095588 -0.023864 -0.00827
-0.28585 -0.0078619 -0.005169 -0.0079217
0.0056389 -0.0071847 -0.00095786 -0.0014938 -0.002979 -0.0088999 -0.0085115 -0.011443
-0.0055437 -0.0081948 -0.25996 0.068761
740000000 -0.19339 0.16775 -0.040754 0.026931 0.013195 -0.0036844 0.00019032 -0.0039582
-0.0037595 -0.0022573 -0.0062773 0.0025951
-0.040689 0.026899 -0.33579 0.15732 -0.03688 0.034378 5.2998e-05 -0.0059346
-0.013743 0.0070581 -0.0009013 -0.0057802
0.013189 -0.0037066 -0.036833 0.034507 -0.073327 0.27514 -0.0017316 0.0032417
-0.0011427 -0.0058175 -0.0019264 0.0010626
0.00021627 -0.0039893 -1.6413e-05 -0.0059496 -0.0016762 0.0032078 -0.201 0.2007
-0.043341 -0.0097774 0.02239 0.016326
-0.0040292 -0.0026421 -0.013464 0.0071823 -0.0013086 -0.0059771 -0.04346 -0.0098465
-0.18097 0.029232 -0.044671 -0.00088105
-0.006645 0.0028106 -0.0008769 -0.0056983 -0.0016397 0.00098497 0.022496 0.016802
-0.044643 -0.0015722 -0.25222 0.071893
800000000 -0.1666 0.21372 -0.023161 0.016473 0.0054183 -0.010181 -0.0043131 -0.0026021
-0.0044191 0.0016722 0.0044795 0.00035016
-0.02316 0.01646 -0.34502 0.22934 -0.0086013 0.034733 -0.0021262 0.0020707
-0.00018467 0.0023035 0.00099541 0.005671
0.0053521 -0.010186 -0.0085104 0.034786 -0.035146 0.30162 0.0010732 0.0011077
-8.3918e-06 0.0030001 -0.0017002 0.00068296
-0.0043355 -0.0025066 -0.0021312 0.002091 0.0010769 0.001163 -0.17372 0.22912
-0.029863 0.013129 0.014779 -0.010227
-0.0044753 0.001842 -0.00013224 0.002359 3.3987e-05 0.0031284 -0.029805 0.013153
-0.24051 0.052927 -0.019116 0.021071
0.004813 0.00035732 0.00090034 0.0055119 -0.0016071 0.00066226 0.014678 -0.010374
-0.019348 0.02086 -0.25027 0.1245
860000000 -0.13091 0.23539 -0.018465 0.030789 -0.0034397 -0.0098629 -0.0020509 0.00078763
0.0040141 0.0049071 -0.0036669 -0.0032756
-0.018471 0.030759 -0.29694 0.27469 0.0078829 0.03448 0.00022818 0.0023022
0.0037104 -2.656e-05 0.0034799 3.3163e-05
-0.0034554 -0.009868 0.0080014 0.034498 0.014603 0.31202 -0.00055614 -0.0004144
0.0024203 -0.0016169 0.0017657 0.0042567
-0.0020256 0.00075523 0.00020145 0.0022191 -0.00053684 -0.0004379 -0.13652 0.2411
-0.019392 0.018064 -0.0063161 -0.0098863
0.0039655 0.0049652 0.0036168 9.5317e-05 0.002396 -0.0016472 -0.019298 0.017987
-0.18586 0.11876 -0.027364 0.015919
-0.0040909 -0.0034174 0.0035752 -0.00012149 0.0018007 0.0042091 -0.0063322 -0.009838
-0.02775 0.015627 -0.20006 0.17505
920000000 -0.10846 0.25901 0.0045231 0.039857 -0.0093332 -0.0041358 -0.0016554 0.0018293
-2.1706e-05 0.0017786 0.0028065 -0.0015078
0.004489 0.03982 -0.27058 0.29616 0.028409 0.022799 0.001415 0.0010554
0.0073952 0.00021171 0.0040342 -0.0028902
-0.0093515 -0.0041128 0.028505 0.022744 0.061142 0.31333 0.0016773 -3.3687e-05
0.00050082 -0.00032994 0.0010334 -0.0012807
-0.0016675 0.001831 0.0014313 0.0010083 0.0016759 -3.5872e-05 -0.11319 0.25778
-0.012972 0.031705 0.0041564 -0.0063234
-1.3772e-05 0.0018533 0.0071921 3.1189e-05 0.00047571 -0.00037628 -0.013031 0.031845
-0.18074 0.12189 -0.0036849 0.029513
0.0030311 -0.0015555 0.0039726 -0.0030653 0.0009696 -0.0013391 0.0041392 -0.0064892
-0.0035508 0.029299 -0.21111 0.18692
980000000 -0.06158 0.28147 0.017299 0.030719 -0.0091026 0.0049081 0.0020388 0.0035796
0.0040015 -0.0016275 -0.0035394 -0.0025982
0.01724 0.03069 -0.21849 0.33476 0.033384 0.0049357 0.002042 -0.00017736
0.0018903 -0.0061579 -0.0005308 -0.0027176
-0.0090745 0.0049277 0.033432 0.004842 0.10808 0.30874 0.0004364 -0.0010646
0.00037299 -0.001733 0.0016713 -0.0003535
0.002106 0.0036165 0.00205 -0.00017815 0.00042359 -0.0010553 -0.074199 0.27057
0.0072622 0.032004 -0.0096228 -0.0081246
0.0039342 -0.0015494 0.0018896 -0.0060862 0.00040614 -0.0017045 0.0073069 0.031928
-0.15208 0.16239 0.0048221 0.021382
-0.0035616 -0.0027515 -0.00036124 -0.0026144 0.0016113 -0.00033078 -0.009564 -0.0081274
0.0047223 0.021249 -0.16975 0.23728
1040000000 -0.019791 0.2902 0.033602 0.019793 -0.00076688 0.0076116 0.0026142 0.00055089
0.00038139 -0.0032506 -8.7996e-05 -0.0016234
0.033534 0.019826 -0.18256 0.34825 0.029601 -0.014851 0.0014817 -0.0017496
-0.0024071 -0.0021604 -0.0011789 -0.0029139
-0.00075542 0.0076011 0.0296 -0.014958 0.15555 0.29461 -0.00057169 -0.0013878
-0.0014582 -0.00094081 -0.00058606 -0.0012113
0.0025339 0.000606 0.001505 -0.001771 -0.00058108 -0.0014187 -0.045822 0.27963
0.019588 0.020807 -0.0021967 0.001383
0.00026189 -0.0032234 -0.0025167 -0.0021489 -0.0015143 -0.00092402 0.019606 0.020854
-0.11844 0.171 0.013442 0.021306
-6.5641e-05 -0.0014853 -0.0011825 -0.0028726 -0.00059266 -0.001214 -0.0020457 0.0012804
0.013697 0.021496 -0.1486 0.25751
1100000000 0.02439 0.30079 0.037121 -0.0032855 0.0037186 0.0040694 0.0023338 -0.0011111
-0.0024225 -0.003029 -0.0041724 8.4007e-05
0.037071 -0.0032524 -0.13993 0.36893 0.015028 -0.027931 -0.00024485 -0.0018047
-0.0033907 -0.00088221 -0.003818 -0.00049166
0.0037325 0.0040535 0.014949 -0.02801 0.20156 0.27506 -0.0017818 0.00037332
-0.0017385 0.00056006 -0.0011232 -0.00064217
0.0023691 -0.0011167 -0.00021806 -0.0018107 -0.0017844 0.00037529 -0.0057281 0.28519
0.026056 0.0071457 -0.0025132 -9.1271e-05
-0.0023803 -0.0030354 -0.0033925 -0.00087209 -0.0017261 0.00057308 0.026176 0.0071493
-0.1021 0.1901 0.020198 0.010799
-0.0041794 0.00010895 -0.0037758 -0.00048816 -0.0011155 -0.0005613 -0.0023778 -0.00012965
0.020287 0.010951 -0.10489 0.29147
1160000000 0.076831 0.29781 0.025242 -0.02054 0.0035201 -0.00081764 -0.00014797 -0.0024394
-0.0040805 -0.00091272 -0.0013095 0.0043145
0.025248 -0.020487 -0.093767 0.37423 -0.0041474 -0.028713 -0.0016138 -0.0014215
-0.0025956 0.0026492 -0.0017786 0.0019951
0.0035187 -0.00084458 -0.004266 -0.028719 0.24627 0.24426 -0.00056671 0.0015982
-0.00046895 0.0017359 -0.0011479 0.00041147
-0.00020242 -0.002423 -0.0016316 -0.0013853 -0.00053179 0.00161 0.035216 0.28195
0.023427 -0.010194 -0.0035962 0.0051612
-0.004161 -0.00078655 -0.0025759 0.002694 -0.00048516 0.0017577 0.02341 -0.010219
-0.065766 0.2033 0.019949 0.0015298
-0.0010879 0.0042286 -0.0015179 0.0019407 -0.0011055 0.00037235 -0.003635 0.0052197
0.019756 0.0018088 -0.055578 0.29543
1220000000 0.12035 0.28742 0.011993 -0.030542 -0.0010913 -0.0016698 -0.00013313 -0.00099126
-0.0027268 0.002255 0.001267 0.0019718
0.011988 -0.030494 -0.050043 0.38772 -0.017086 -0.020735 -0.0025252 0.0005989
-3.7875e-05 0.002962 -0.00080006 0.0019335
-0.0010924 -0.0016669 -0.017194 -0.020685 0.28512 0.20457 0.00091788 0.0014293
0.00047523 0.0011239 7.7724e-05 0.00059083
-8.6394e-05 -0.00098548 -0.0024824 0.00059988 0.00090544 0.0014233 0.074336 0.27224
0.012291 -0.017712 0.0023602 0.0014975
-0.0027562 0.0022571 -3.2548e-05 0.0029733 0.00046322 0.0011267 0.012247 -0.017703
-0.044773 0.21529 0.01565 -0.012421
0.0012316 0.0019171 -0.00084542 0.0019809 7.5114e-05 0.00061901 0.0022845 0.0015183
0.015417 -0.012365 -0.026634 0.3142
1280000000 0.17116 0.26882 -0.0071872 -0.029499 -0.0018923 0.0015124 -0.00097975 -0.0019529
-0.00095633 0.0033089 0.0025594 0.0013488
-0.0071515 -0.029471 -0.0024959 0.38024 -0.023788 -0.0075728 -0.00072453 0.0014443
0.0016592 0.0017279 0.00057189 0.0020287
-0.0018867 0.0015234 -0.023859 -0.0074731 0.31603 0.16143 0.0013558 -0.00017965
0.0010831 0.00046312 0.00019999 0.00047706
-0.00098704 -0.0019696 -0.00076515 0.0014634 0.0013663 -0.00017795 0.11115 0.25621
0.0022504 -0.020821 -0.00022561 0.00017406
-0.00097442 0.0033571 0.0016996 0.0017672 0.0010574 0.00046635 0.0022363 -0.020725
-0.0072181 0.22381 0.0039964 -0.015441
0.0025241 0.0012791 0.0006568 0.0020677 0.00020961 0.00042625 -0.00025118 0.00016512
0.0039812 -0.015479 0.022418 0.3189
1340000000 0.20914 0.23492 -0.017143 -0.020106 0.00025936 0.0040012 -0.0017591 -0.00064115
0.0016123 0.0029969 0.0017673 -0.0014818
-0.017113 -0.020097 0.037557 0.37182 -0.020594 0.0049793 -0.00018158 0.001929
0.0017612 0.00099823 0.001264 0.0008112
0.00027485 0.0040045 -0.02059 0.0050906 0.33882 0.11237 0.00076665 -0.0008168
0.00071474 -0.00049394 0.00013522 0.00040105
-0.0017623 -0.00060781 -0.00016559 0.0018932 0.0007729 -0.00082697 0.1438 0.23453
-0.0081133 -0.018152 0.00091451 0.00038517
0.0015941 0.0029418 0.001719 0.0010115 0.00068649 -0.0005252 -0.0081337 -0.018151
0.022732 0.22173 -0.00258 -0.014317
0.0018443 -0.0014942 0.0012667 0.00078076 0.00011534 0.00043718 0.00095504 0.00046316
-0.0025554 -0.014298 0.061028 0.31547
1400000000 0.24272 0.19827 -0.02381 -0.0086782 0.0045798 0.0029753 -0.0020504 0.00071606
0.0026107 0.00099472 0.00036609 -0.001315
-0.023779 -0.0086839 0.074881 0.35958 -0.013632 0.012566 0.0013089 0.0012655
0.0011916 -0.0005107 0.0011016 0.00022669
0.0045948 0.0029545 -0.013596 0.012648 0.35138 0.058494 -1.5445e-05 -0.0012865
0.00026225 -0.00015375 0.00052902 0.00016001
-0.00204 0.00071682 0.0013083 0.0012893 -3.3458e-05 -0.0012829 0.17203 0.20601
-0.015095 -0.011089 -0.0010397 -0.00027313
0.0027125 0.00091236 0.0012155 -0.00055182 0.00027494 -0.00019431 -0.015068 -0.011037
0.055819 0.22191 -0.0094216 -0.0095086
0.00031685 -0.0013362 0.0011501 0.00022486 0.00049715 0.00024024 -0.0010782 -0.00027269
-0.0095588 -0.0094519 0.10604 0.30694
1460000000 0.26711 0.15509 -0.021069 0.0041784 0.0049251 -0.0016541 -0.0015051 0.0016663
0.002227 -0.0003087 -0.00019116 -0.00080802
-0.021056 0.0041561 0.11017 0.33773 -0.0047236 0.014735 0.0015846 0.00023122
0.0012315 -0.0013122 0.001304 -0.00065291
0.004919 -0.0016802 -0.0046501 0.014767 0.35786 0.00353 -0.001057 -0.001058
0.0002936 -0.00024734 0.00072407 -0.0003101
-0.0015244 0.0016863 0.001595 0.00020023 -0.0010579 -0.0010532 0.19898 0.17754
-0.01644 -0.0039748 -0.0010449 0.0021788
0.0022128 -0.00036907 0.0012022 -0.0013193 0.00034223 -0.00026429 -0.016468 -0.0039584
0.086392 0.21067 -0.011812 -0.0031735
-0.00016877 -0.00088892 0.0012172 -0.00061444 0.0007189 -0.00031869 -0.0010754 0.0021912
-0.01188 -0.003302 0.14101 0.28699
1520000000 0.27923 0.11312 -0.015649 0.01001 0.0029699 -0.0037789 0.00016149 0.0025777
0.0025058 -0.0018569 -0.0010732 -0.00013022
-0.015648 0.0099802 0.14353 0.3231 0.0024363 0.01182 0.0016588 -0.00065207
0.00023402 -0.0010715 0.00030525 -0.00097967
0.0029512 -0.0037945 0.0024936 0.011823 0.34981 -0.054485 -0.00072699 -0.00031954
0.00062212 -0.001103 0.00012871 -0.00014893
0.00015891 0.0025877 0.0016621 -0.0006571 -0.00074785 -0.00031238 0.22164 0.13908
-0.016194 0.0022887 0.0013712 0.0021452
0.002525 -0.001874 0.00021394 -0.0010768 0.00062163 -0.0010789 -0.016152 0.0022885
0.11374 0.2005 -0.011933 0.001179
-0.0010147 -0.0001345 0.00034256 -0.0010125 0.00015816 -7.8021e-05 0.0013693 0.0021526
-0.011925 0.001141 0.17435 0.2682
1580000000 0.28941 0.068557 -0.0089106 0.013813 -0.0012529 -0.0042636 0.0015035 0.0018659
-0.00014367 -0.002354 -0.00019545 0.00032262
-0.0089076 0.013802 0.17083 0.29947 0.0052418 0.0066676 0.00063018 -0.0015536
-0.00046321 -0.0012796 -0.00022531 -0.00067712
-0.0012684 -0.0042628 0.0052793 0.0066458 0.32793 -0.11071 -0.0014331 0.0002444
-0.00041311 -0.0013668 0.00024963 -0.00047453
0.0015127 0.001859 0.00061077 -0.0015603 -0.0014485 0.00024223 0.23566 0.10097
-0.01234 0.007932 0.0023317 0.00092505
-0.00018824 -0.0023161 -0.00047275 -0.0012893 -0.00045291 -0.001369 -0.012296 0.0079189
0.13969 0.18691 -0.0093687 0.0075528
-0.00023563 0.00030585 -0.00024866 -0.00066244 0.00027522 -0.00054192 0.0023678 0.00095108
-0.0093629 0.0075296 0.20801 0.24395
1640000000 0.29276 0.02706 -0.0017916 0.012755 -0.0026986 -0.0019618 0.0027571 0.00097271
-0.00048413 -0.0018294 -0.00035012 0.00046495
-0.0018077 0.012728 0.20148 0.27444 0.0051981 0.0020239 -0.00055229 -0.001861
-0.0010415 -0.00057095 -0.00045257 -0.00061913
-0.0027118 -0.0019465 0.0052173 0.0019861 0.29862 -0.1603 -0.00085119 0.0012227
-0.0011625 -0.0011382 -0.00011628 -0.00041608
0.0027407 0.0009763 -0.00056244 -0.0018568 -0.00084093 0.0012091 0.24881 0.051683
-0.0080528 0.0091803 0.0026236 -0.00074082
-0.00053367 -0.0018533 -0.0010623 -0.00057458 -0.0011972 -0.0011215 -0.0080651 0.0092217
0.16347 0.16675 -0.004406 0.0096907
-0.00031371 0.00044087 -0.00044049 -0.00063537 -0.00014193 -0.00041421 0.0026662 -0.00071025
-0.0043719 0.0097484 0.23521 0.21289
1700000000 0.28553 -0.017377 0.0019137 0.0099624 -0.0030407 0.00054662 0.0030188 -0.0012443
-0.0023205 -0.00071022 0.00045829 0.00049356
0.0018985 0.0099559 0.21887 0.24378 0.0025419 -0.00030414 -0.0014897 -0.00069263
-0.00093942 -6.7133e-05 -0.00081488 -0.00034603
-0.0030357 0.00056813 0.0025482 -0.00031419 0.25343 -0.19787 0.00011538 0.0016819
-0.0022444 -0.0001495 -0.00042902 -0.00086106
0.0030208 -0.0012418 -0.0014878 -0.00067005 0.00010809 0.00167 0.24521 0.0022115
-0.0050467 0.010222 0.0017321 -0.0020692
-0.0022749 -0.00070413 -0.0009131 -5.9852e-05 -0.0022471 -0.00014978 -0.0051025 0.010204
0.18246 0.15116 0.0006061 0.0096843
0.00042782 0.00037083 -0.00083072 -0.00036042 -0.00040708 -0.00079579 0.0017102 -0.0021018
0.00058832 0.0096252 0.25255 0.17969
1760000000 0.27565 -0.06559 0.0044384 0.0066211 -0.0019119 0.0011279 0.0012192 -0.0033722
-0.0012811 0.00059225 0.00028785 -0.00056986
0.0044259 0.0066149 0.24643 0.20481 -2.5857e-05 -0.0015323 -0.0012896 0.00010501
-0.0011321 0.0010981 -0.00043786 0.00036014
-0.0019032 0.0011363 -4.3112e-05 -0.0015365 0.20538 -0.22955 0.0012331 0.0014726
-0.0011979 0.0016016 -0.0012848 -0.00064197
0.0011826 -0.0034092 -0.0012804 0.00010569 0.0012419 0.0014763 0.2379 -0.048884
-0.0012954 0.0095503 2.0213e-05 -0.0024318
-0.001322 0.00057055 -0.0011293 0.001102 -0.0011245 0.0016656 -0.0013017 0.0095719
0.2002 0.12119 0.004556 0.0072124
0.00023087 -0.00049027 -0.00043748 0.00035409 -0.0012864 -0.00070534 -4.0057e-05 -0.0024424
0.0046244 0.0071298 0.26696 0.14283
1820000000 0.25158 -0.10384 0.004737 0.0029377 0.00043201 0.0021912 -0.00085396 -0.0031274
-0.0012861 0.0009123 -0.00010298 -9.8252e-05
0.0047295 0.0029349 0.25658 0.17447 -0.0020097 0.00028814 -0.0013574 0.00099755
0.00013238 0.0012328 -0.00060792 0.0004027
0.00042679 0.0021749 -0.0020158 0.00031181 0.15485 -0.24429 0.0018262 0.00056857
-0.00011045 0.0023938 -0.0018339 0.00013201
-0.00085384 -0.0030798 -0.0013699 0.001003 0.0018132 0.00049524 0.20776 -0.097257
0.00066104 0.0083437 -0.0015979 -0.0017814
-0.0012534 0.00095403 0.0001538 0.001239 -9.4269e-05 0.0023775 0.00065163 0.0083021
0.22094 0.095333 0.0055321 0.0031957
-0.00011953 -8.3401e-05 -0.00063559 0.000426 -0.0018357 0.00029112 -0.0015699 -0.0017875
0.0056163 0.0032444 0.27062 0.10692
1880000000 0.21677 -0.14361 0.0024915 0.0006712 -0.00020534 0.0020947 -0.0028988 -0.0023593
-9.8004e-05 0.0018179 0.0004274 -0.00072299
0.0024968 0.00068034 0.2615 0.12924 -0.0037089 0.0029596 -0.00023951 0.0017918
0.00069416 0.0012746 0.00021525 0.00086151
-0.00017275 0.0020923 -0.0036937 0.0029812 0.1032 -0.25135 0.0020912 -0.0013204
0.001831 0.0019961 -0.00093753 0.0013733
-0.0029042 -0.0023671 -0.00019803 0.0017327 0.0020457 -0.0013446 0.16767 -0.13743
0.0022152 0.0061356 -0.0023575 0.0001527
-0.00010773 0.0017973 0.0006889 0.0012269 0.0018104 0.001927 0.0022353 0.0060108
0.22893 0.068539 0.0058496 0.0011026
0.00039646 -0.00072494 0.00018258 0.00087193 -0.00091175 0.0014739 -0.0023493 0.00015503
0.0058154 0.0011302 0.27193 0.073946
1940000000 0.17853 -0.1707 0.00040393 -0.0010327 0.0017505 0.0017578 -0.0037429 0.00032627
0.0011875 0.00094034 -0.00076199 -0.00075812
0.00040366 -0.0010355 0.26392 0.097133 -0.001761 0.0058148 0.0010746 0.0013881
0.0018655 0.00025678 0.00086696 0.00016954
0.0017767 0.0017568 -0.0017296 0.0058355 0.059538 -0.24358 0.00040873 -0.0024215
0.0022445 0.00015593 0.00035565 0.0016721
-0.0038067 0.00037041 0.0010677 0.0014022 0.00045992 -0.0024199 0.11565 -0.16987
0.0017921 0.0042274 -0.0015192 0.0014172
0.0012095 0.00089828 0.001905 0.00022649 0.0022247 0.00015032 0.00185 0.0042681
0.2377 0.032207 0.0043713 -0.0031779
-0.00073149 -0.0007179 0.00083219 0.00015694 0.00025078 0.0016359 -0.0014148 0.0014681
0.0042833 -0.003128 0.26313 0.037219
2000000000 0.13169 -0.18547 -0.003163 0.000747 0.0028613 0.0010775 -0.0025269 0.003674
0.00092468 0.00037155 -0.00079716 0.00060785
-0.0031451 0.00075005 0.25005 0.06171 -0.00028989 0.0077884 0.0016209 0.00032302
0.00099518 -0.0013018 0.00033519 5.0158e-05
0.0028744 0.0010618 -0.00023659 0.007804 0.017666 -0.22868 -0.0017511 -0.0015063
0.0018704 -0.00099342 0.0016097 0.0014019
-0.0024567 0.0036619 0.0016784 0.00028548 -0.0018044 -0.0015655 0.060611 -0.1798
0.00036216 0.0032228 -0.00019809 0.0020843
0.00094818 0.00037836 0.00099688 -0.0013115 0.0018765 -0.0010567 0.000412 0.0033453
0.23719 0.00012359 0.00059103 -0.0039933
