!Keysight Technologies,M9804A,MY58100912,A.14.10.03
!Date: Thursday, April 27, 2023 10:28:33
!Correction: S11(C  6-Port  ) 
!S12(C  6-Port  ) 
!S13(C  6-Port  ) 
!S14(C  6-Port  ) 
!S15(C  6-Port  ) 
!S16(C  6-Port  ) 
!S21(C  6-Port  ) 
!S22(C  6-Port  ) 
!S23(C  6-Port  ) 
!S24(C  6-Port  ) 
!S25(C  6-Port  ) 
!S26(C  6-Port  ) 
!S31(C  6-Port  ) 
!S32(C  6-Port  ) 
!S33(C  6-Port  ) 
!S34(C  6-Port  ) 
!S35(C  6-Port  ) 
!S36(C  6-Port  ) 
!S41(C  6-Port  ) 
!S42(C  6-Port  ) 
!S43(C  6-Port  ) 
!S44(C  6-Port  ) 
!S45(C  6-Port  ) 
!S46(C  6-Port  ) 
!S51(C  6-Port  ) 
!S52(C  6-Port  ) 
!S53(C  6-Port  ) 
!S54(C  6-Port  ) 
!S55(C  6-Port  ) 
!S56(C  6-Port  ) 
!S61(C  6-Port  ) 
!S62(C  6-Port  ) 
!S63(C  6-Port  ) 
!S64(C  6-Port  ) 
!S65(C  6-Port  ) 
!S66(C  6-Port  ) 
!S6P File: Measurement: :
# Hz S  RI   R 50
500000000 -0.32552 -0.062012 -0.0096375 -0.0015912 -0.0081365 0.011667 -0.0040705 0.012049
0.013328 0.0059453 -0.0049311 0.0083018
-0.0095632 -0.0012437 -0.40787 -0.073689 0.0084622 -0.011575 0.00094889 0.011732
0.0088929 0.0034415 0.00015554 0.013805
-0.0083593 0.011819 0.0082323 -0.0116 -0.25447 0.19138 0.0067698 0.0031547
-0.0017774 0.0083802 0.00080848 0.012615
-0.0046914 0.01123 0.0010848 0.011732 0.0066351 0.0026336 -0.32429 0.042254
-0.02018 -0.0053732 0.017244 0.026641
0.014093 0.0062645 0.0088528 0.003606 -0.0022533 0.0085759 -0.019962 -0.0053604
-0.21184 -0.2414 -0.028818 0.0041432
-0.0050466 0.0075432 0.00037508 0.013602 0.00082439 0.011791 0.017128 0.02667
-0.028945 0.0041385 -0.25927 -0.14422
560000000 -0.31418 0.10535 -0.020995 -0.067952 0.00033035 0.013732 0.0062046 0.011007
0.011073 0.0051035 0.010559 0.0093424
-0.021358 -0.066375 -0.37051 0.09079 -0.0411 -0.039702 0.013746 0.003553
-0.012302 -0.0070124 0.0051721 -0.00067457
-1.2884e-05 0.01301 -0.041073 -0.03982 -0.18019 0.24053 -0.00066692 -0.0054324
0.018156 0.0065053 0.0076877 -0.0058329
0.0057943 0.01032 0.013131 0.0037886 -0.00029272 -0.0051834 -0.30226 0.13218
0.0068553 -0.022805 0.0060674 -0.020934
0.01205 0.0040172 -0.012111 -0.0064405 0.018264 0.0062701 0.0069571 -0.022649
-0.3004 -0.058121 0.012507 -0.052999
0.011774 0.0093455 0.0043909 -0.00067565 0.0075299 -0.0058399 0.0061703 -0.020955
0.012701 -0.053066 -0.32717 0.0057969
620000000 -0.27391 0.082243 -0.023304 0.0085388 0.0027968 0.0091167 0.008331 -0.0045
0.012462 -0.0012146 0.00059939 -0.0015085
-0.023323 0.0086132 -0.39845 0.035967 -0.019735 1.3256e-05 -0.0015886 -0.0019448
0.012288 -0.0053888 0.00069046 -0.0028956
0.0029474 0.0090974 -0.019686 0.00011057 -0.1546 0.24986 -0.0015381 -0.0056123
-0.0036826 -0.0022667 0.008438 -0.0032038
0.008236 -0.0045151 -0.0018836 -0.0019407 -0.0015221 -0.0053119 -0.2615 0.14104
-0.038465 -0.021192 0.011411 0.028532
0.011322 -0.00060481 0.01256 -0.0055501 -0.0041956 -0.0024803 -0.0393 -0.021052
-0.21336 -0.097126 -0.043142 0.0118
0.0010177 -0.0012192 0.00067517 -0.0030219 0.0085191 -0.0032008 0.011935 0.028597
-0.042723 0.011539 -0.24429 -0.032478
680000000 -0.23944 0.17408 -0.026518 -0.015337 0.0046256 0.0054873 0.0013317 -0.0071213
-0.0015971 -0.011667 0.0062887 -0.0063585
-0.026482 -0.015273 -0.38943 0.13708 -0.032974 -0.0020169 -0.0019549 -0.00017546
-0.0016634 -0.0096011 -0.00071797 -0.0020603
0.0045613 0.0055679 -0.033073 -0.0019255 -0.10789 0.273 -0.00090691 0.00034018
-0.0016137 0.00090586 -0.0030542 -0.0093121
0.00098738 -0.0071537 -0.001874 -0.00024096 -0.00078493 0.00016007 -0.21794 0.19286
-0.023223 -0.0083616 -0.0094098 -0.012002
-0.0018478 -0.01223 -0.0017156 -0.0095736 -0.0015692 0.00073463 -0.023455 -0.0084001
-0.28144 0.0051292 -0.005106 -0.0070909
0.0053465 -0.0065885 -0.0012157 -0.0020403 -0.0030739 -0.0091563 -0.0094212 -0.011747
-0.0050951 -0.0070295 -0.26011 0.07115
740000000 -0.19445 0.16731 -0.041604 0.026127 0.013443 -0.0034585 -0.00017502 -0.0037709
-0.0035808 -0.0019207 -0.0071495 0.0035223
-0.04126 0.026296 -0.33622 0.15722 -0.037459 0.034618 0.00026766 -0.005506
-0.013572 0.0055801 -0.0010468 -0.0046873
0.013281 -0.0037349 -0.037331 0.034618 -0.075155 0.2745 -0.001932 0.0032031
-0.00066034 -0.0052087 -0.0024071 0.00087159
6.0994e-05 -0.0038241 0.00019582 -0.0056953 -0.0019362 0.0033938 -0.2019 0.20039
-0.043295 -0.010005 0.022785 0.016274
-0.0045196 -0.002353 -0.013673 0.0062043 -0.00088977 -0.0051283 -0.043629 -0.0099153
-0.17929 0.040836 -0.045166 -0.00088799
-0.0060667 0.0035828 -0.0013074 -0.0047868 -0.002424 0.00070383 0.022868 0.016067
-0.045026 -0.00097283 -0.24987 0.074725
800000000 -0.16642 0.21318 -0.023043 0.01596 0.0053744 -0.010225 -0.0045802 -0.0022751
-0.0036342 0.0016134 0.0039966 0.0004473
-0.023097 0.016007 -0.34512 0.22827 -0.0090283 0.034766 -0.0020087 0.0022788
2.4619e-05 0.0023244 0.00076636 0.0056803
0.0054573 -0.01018 -0.0088201 0.034824 -0.036542 0.30083 0.0012177 0.0010447
0.00012106 0.0032712 -0.0018489 0.00068021
-0.004588 -0.0025316 -0.0022237 0.00227 0.0011032 0.0010571 -0.17404 0.22793
-0.029651 0.01308 0.015106 -0.010064
-0.0037711 0.0018702 0.00035974 0.0024538 0.00028772 0.0034082 -0.029551 0.013151
-0.2356 0.063111 -0.019053 0.020867
0.0043668 0.00022681 0.00088584 0.0053047 -0.0019938 0.00042994 0.01498 -0.010017
-0.019175 0.020831 -0.24795 0.12807
860000000 -0.13249 0.23465 -0.01849 0.030813 -0.0031559 -0.010051 -0.00187 0.00084259
0.0042024 0.0049522 -0.0037086 -0.0029606
-0.018636 0.030647 -0.29799 0.27349 0.0077656 0.034712 0.00034429 0.0021127
0.0039906 0.0002371 0.0037127 -2.4868e-05
-0.0032075 -0.010178 0.007895 0.034766 0.012641 0.31132 -0.00046727 -0.00042238
0.0025999 -0.0018236 0.0017074 0.004367
-0.001825 0.00056643 0.00039498 0.0020571 -0.000439 -0.00045476 -0.13777 0.24025
-0.018869 0.01781 -0.0070505 -0.0092587
0.0044323 0.0051553 0.0041584 0.00028075 0.0025202 -0.0017893 -0.018821 0.017917
-0.18032 0.12575 -0.027698 0.01654
-0.00356 -0.003108 0.0039783 1.7631e-05 0.0019447 0.0044975 -0.0069035 -0.0095704
-0.027611 0.016305 -0.19879 0.17573
920000000 -0.1094 0.25873 0.0042941 0.039851 -0.0092689 -0.0042166 -0.0018202 0.0018819
0.00044633 0.0010804 0.0030291 -0.00088179
0.004304 0.039774 -0.27173 0.29568 0.028301 0.023142 0.0015767 0.0011128
0.0069337 4.1908e-05 0.0043627 -0.0028594
-0.0092571 -0.0041662 0.028393 0.023123 0.059287 0.31324 0.0016185 -4.7223e-05
0.00065763 -0.00038772 0.0010053 -0.001385
-0.0019605 0.0018224 0.0014392 0.0010917 0.0016257 -5.1456e-05 -0.11402 0.25731
-0.012867 0.03138 0.0040965 -0.0066325
0.00054603 0.0015787 0.0070461 7.5743e-05 0.00067145 -0.00039722 -0.012802 0.031381
-0.175 0.13116 -0.0034304 0.029236
0.0029977 -0.0011333 0.004095 -0.002723 0.00099405 -0.0012847 0.0041901 -0.0066629
-0.0033512 0.029293 -0.20878 0.18916
980000000 -0.063073 0.28131 0.016836 0.031136 -0.0093498 0.0047862 0.0020965 0.0036028
0.0040273 -0.0014882 -0.0036748 -0.0029181
0.016828 0.031185 -0.2196 0.33354 0.033497 0.0051824 0.0019527 -0.00035197
0.0018675 -0.0059753 -0.00056715 -0.0027289
-0.0093074 0.0048636 0.033532 0.0050692 0.10618 0.30824 0.00044487 -0.0011652
0.00020575 -0.0017507 0.0015396 -0.00034972
0.0020409 0.0036512 0.0018909 -0.00043987 0.00044167 -0.0011968 -0.075611 0.26959
0.0069706 0.031146 -0.009568 -0.0079402
0.0037567 -0.0014958 0.0017715 -0.0061726 0.00018375 -0.0017417 0.006846 0.031185
-0.14604 0.16801 0.0049088 0.021098
-0.0037672 -0.002839 -0.00064326 -0.0029887 0.001578 -0.00039437 -0.009712 -0.0079656
0.0048454 0.021154 -0.16778 0.23832
1040000000 -0.021653 0.29015 0.033585 0.02004 -0.00086567 0.0076644 0.0025817 0.0006918
0.00024939 -0.0034379 1.6893e-05 -0.0011093
0.03351 0.020101 -0.18422 0.34775 0.029933 -0.014602 0.0012641 -0.0017301
-0.0024131 -0.0022417 -0.0013987 -0.0029268
-0.00087003 0.0077115 0.029886 -0.014741 0.15321 0.29502 -0.00057843 -0.0013822
-0.0015658 -0.0010221 -0.00061678 -0.0012209
0.0025069 0.00061735 0.0012762 -0.0017777 -0.00061139 -0.0013794 -0.047459 0.27943
0.019153 0.020346 -0.0022309 0.0014815
0.00045271 -0.0037126 -0.0023938 -0.0023016 -0.0015515 -0.0010199 0.019187 0.02015
-0.11299 0.17693 0.013094 0.020671
0.00010662 -0.0015237 -0.0012709 -0.0027598 -0.00060063 -0.0012242 -0.0021957 0.0014757
0.013076 0.020625 -0.14686 0.25922
1100000000 0.023227 0.30095 0.037272 -0.0028768 0.0037479 0.0040986 0.0023112 -0.0011615
-0.0023322 -0.003175 -0.0045474 -1.1331e-05
0.037304 -0.0028814 -0.14094 0.36823 0.015418 -0.02797 -0.00025134 -0.0018125
-0.0033961 -0.00087076 -0.0038695 -0.00063848
0.0037874 0.004144 0.015338 -0.028041 0.19979 0.2756 -0.0017488 0.00037858
-0.0016665 0.00071342 -0.0011824 -0.00068132
0.0022925 -0.0012008 -0.00020149 -0.0018153 -0.0017561 0.00033584 -0.0069832 0.28493
0.025434 0.0067357 -0.0025904 0.00018783
-0.0023328 -0.0032712 -0.0034575 -0.00082466 -0.0017266 0.00071096 0.025451 0.0066582
-0.095982 0.19499 0.02005 0.010377
-0.0041917 -0.00017447 -0.0037547 -0.00050799 -0.0011359 -0.00067124 -0.0025862 0.00021643
0.019978 0.010339 -0.10215 0.29216
1160000000 0.074731 0.29803 0.025509 -0.020235 0.0036682 -0.00086923 -0.00031617 -0.0023645
-0.0042806 -0.00083337 -0.0011814 0.0039566
0.025466 -0.0203 -0.095813 0.37339 -0.0038315 -0.028881 -0.0015792 -0.0014888
-0.0026437 0.0024463 -0.0014571 0.0017799
0.0036301 -0.00086478 -0.003983 -0.028873 0.24396 0.24504 -0.00059921 0.0016615
-0.00043719 0.0017486 -0.0011738 0.00014575
-0.00025303 -0.0024293 -0.0015936 -0.0014702 -0.00056449 0.0016194 0.033362 0.28193
0.022642 -0.010058 -0.0035752 0.0051502
-0.004214 -0.00083938 -0.0025982 0.0024707 -0.00041923 0.0017378 0.022674 -0.010127
-0.059893 0.20726 0.019592 0.0012806
-0.0012733 0.0043021 -0.0015104 0.0019796 -0.0011732 0.00020673 -0.0035387 0.0051304
0.019723 0.0012215 -0.053695 0.2965
1220000000 0.11853 0.28861 0.012204 -0.030536 -0.0010925 -0.0017179 -0.00015667 -0.00095992
-0.0028237 0.0023111 0.0012179 0.0019759
0.012231 -0.030519 -0.051571 0.38756 -0.017005 -0.020986 -0.0024437 0.00061067
5.808e-05 0.0029202 -0.00081922 0.0019756
-0.0010801 -0.001719 -0.017132 -0.020954 0.28307 0.20612 0.00092919 0.0014477
0.00048945 0.0011188 0.00010385 0.00059845
-0.00013485 -0.00095265 -0.0024589 0.00057878 0.00092228 0.0014469 0.072942 0.27288
0.011695 -0.01751 0.0024279 0.0016215
-0.0027123 0.002369 6.5772e-05 0.0029532 0.00048578 0.001104 0.01164 -0.017496
-0.038039 0.21963 0.015708 -0.012559
0.0012991 0.0018996 -0.00075068 0.0019539 9.7743e-05 0.0005535 0.0024183 0.0016317
0.015695 -0.012512 -0.024909 0.31492
1280000000 0.16947 0.26944 -0.007003 -0.02967 -0.0019903 0.0014748 -0.00096662 -0.0018746
-0.00099905 0.0034644 0.0026556 0.0011152
-0.0069684 -0.029671 -0.0042605 0.37955 -0.023846 -0.0078296 -0.00063608 0.0014165
0.0015793 0.0017389 0.00072469 0.0019825
-0.0019615 0.0014914 -0.023918 -0.0077281 0.31425 0.16278 0.0014021 -0.0001652
0.0011027 0.00032326 0.00011464 0.00056178
-0.0010247 -0.0018201 -0.00061214 0.001461 0.0014219 -0.00016093 0.10972 0.25638
0.0016995 -0.019972 -5.5935e-05 -0.00013421
-0.0010335 0.0034493 0.001622 0.0017744 0.0011133 0.00034848 0.001671 -0.019945
-0.00061453 0.2265 0.0044745 -0.015623
0.0024809 0.0011558 0.00064967 0.0020934 9.7412e-05 0.00050065 -1.7542e-05 -0.00012811
0.0045283 -0.015588 0.023772 0.31902
1340000000 0.20728 0.23667 -0.017134 -0.020286 0.00016733 0.0040885 -0.0017321 -0.00061179
0.0015749 0.0028166 0.0017123 -0.0013821
-0.017099 -0.020264 0.03522 0.3717 -0.020778 0.0047736 -0.00012196 0.0018743
0.0017188 0.00084269 0.0012225 0.00078171
0.00018477 0.0040984 -0.020793 0.0049164 0.33702 0.1147 0.00072807 -0.00093326
0.00061247 -0.00052204 0.00020694 0.00028674
-0.0017321 -0.00066527 -0.00013483 0.0018317 0.00072117 -0.00093431 0.14233 0.23568
-0.0083773 -0.017188 0.0010446 0.00037249
0.0015661 0.0028585 0.0017576 0.00084544 0.00065877 -0.00048973 -0.0084417 -0.017227
0.029517 0.22401 -0.0026608 -0.014197
0.0017294 -0.0015769 0.0012008 0.0007363 0.00022615 0.00023354 0.0010006 0.00039702
-0.0027013 -0.014186 0.062105 0.31539
1400000000 0.24145 0.19979 -0.023908 -0.0088567 0.0045748 0.0030631 -0.0020273 0.00074567
0.0026261 0.00095662 0.00034744 -0.0013025
-0.023868 -0.0088694 0.073246 0.35933 -0.013865 0.012562 0.0011944 0.0012731
0.0011318 -0.00060153 0.0011612 0.00018563
0.0045736 0.0030236 -0.013875 0.012648 0.35041 0.060857 -7.9068e-05 -0.001313
0.00014603 -0.00023352 0.00044008 0.00023709
-0.0020082 0.00071988 0.0012061 0.0012798 -3.4726e-05 -0.0013038 0.17126 0.20702
-0.014822 -0.010327 -0.00094408 -0.0004773
0.0026649 0.00087607 0.0011584 -0.00058348 0.00012574 -0.00021939 -0.014843 -0.010224
0.063075 0.22312 -0.0094325 -0.0094437
0.00027414 -0.0012748 0.0011571 0.00018348 0.00042909 0.00030484 -0.00093491 -0.000505
-0.0094199 -0.0094761 0.10766 0.30683
1460000000 0.26528 0.1566 -0.021173 0.0040183 0.0049181 -0.0015925 -0.001505 0.0015906
0.0021758 -0.0004323 -0.00010094 -0.00079186
-0.021136 0.0039892 0.10775 0.3374 -0.0049099 0.014805 0.0015895 0.00024713
0.0010884 -0.0011604 0.0012522 -0.0005547
0.0049502 -0.0016316 -0.0048469 0.014841 0.35678 0.0057458 -0.0010018 -0.0010418
0.0003392 -0.00034517 0.00064324 -0.00033093
-0.0014369 0.001606 0.0015441 0.00028299 -0.0009997 -0.0010506 0.19794 0.17842
-0.015854 -0.0031539 -0.0010979 0.0019254
0.0021473 -0.00048845 0.0011178 -0.0011604 0.00034894 -0.0003218 -0.015831 -0.0031012
0.093305 0.21119 -0.012036 -0.0032317
-0.00017399 -0.00087857 0.0012117 -0.00055986 0.00067925 -0.00028079 -0.0010446 0.0019662
-0.011995 -0.003325 0.14134 0.2863
1520000000 0.27793 0.11546 -0.015785 0.0099669 0.0029875 -0.0037612 0.00010718 0.0025968
0.0022814 -0.0019097 -0.0010732 -9.0195e-05
-0.015755 0.0099444 0.14123 0.32363 0.0022643 0.012004 0.0016507 -0.00061012
0.00022095 -0.0010015 0.00030116 -0.0010412
0.0029621 -0.0037614 0.0023438 0.011998 0.34886 -0.051013 -0.00083839 -0.00035091
0.00059327 -0.00099198 0.00015162 -0.00016142
0.00012749 0.0026135 0.0016464 -0.00064581 -0.00082868 -0.00033662 0.22114 0.14035
-0.015228 0.002668 0.0013705 0.001994
0.002334 -0.0019121 0.00021277 -0.0010235 0.0005902 -0.00093169 -0.015246 0.0027406
0.1208 0.20042 -0.011646 0.001086
-0.0010599 -5.7397e-05 0.00031275 -0.0010725 0.00018081 -0.00019571 0.0013873 0.0019941
-0.011636 0.001125 0.17511 0.26798
1580000000 0.28836 0.070604 -0.0090065 0.013742 -0.0012153 -0.0043756 0.0013927 0.0018492
-0.0002895 -0.0022852 -0.00015502 0.00032902
-0.0090437 0.013719 0.16863 0.29949 0.0053078 0.0068296 0.00065464 -0.0015167
-0.00045665 -0.001178 -0.00026237 -0.00071178
-0.001178 -0.0044141 0.0053715 0.0067981 0.32813 -0.10785 -0.0014328 0.00028786
-0.00058625 -0.001306 0.00028689 -0.00056441
0.0014278 0.0018261 0.00062775 -0.0015093 -0.001411 0.00028702 0.23529 0.10171
-0.011393 0.0079133 0.0019302 0.00079371
-0.00035038 -0.0023286 -0.00045064 -0.0011904 -0.00059294 -0.0013009 -0.011337 0.0079231
0.14655 0.18572 -0.0095438 0.0075611
-0.00018235 0.00031272 -0.00030156 -0.00068994 0.00027947 -0.00054233 0.0019145 0.00080253
-0.0095371 0.007493 0.20872 0.24282
1640000000 0.29161 0.030112 -0.0018851 0.012887 -0.0028756 -0.0019532 0.0027147 0.0010955
-0.00062836 -0.0017609 -0.00038768 0.00047994
-0.0018806 0.012858 0.19841 0.27555 0.0052122 0.0021334 -0.00048776 -0.0018729
-0.0010031 -0.00055478 -0.00046077 -0.00061754
-0.0028535 -0.001937 0.0052252 0.0021083 0.29907 -0.15674 -0.00075099 0.0010939
-0.0011335 -0.0010948 -0.00014857 -0.0003477
0.0026943 0.0010892 -0.00051858 -0.0018709 -0.00078179 0.0011523 0.24817 0.052768
-0.0071265 0.0087772 0.0024819 -0.00049901
-0.00064014 -0.0017646 -0.0010187 -0.00055559 -0.0011309 -0.0010558 -0.007063 0.0087937
0.17 0.16496 -0.0044309 0.0095763
-0.00030065 0.00041673 -0.00051498 -0.00058185 -0.00015159 -0.00041832 0.0024761 -0.00052945
-0.0044275 0.0095839 0.23508 0.21269
1700000000 0.28564 -0.014571 0.001918 0.010025 -0.0031423 0.00057142 0.0030987 -0.0011775
-0.0021206 -0.00061893 0.00052488 0.00040706
0.0019152 0.010029 0.21674 0.2449 0.0025742 -0.00038777 -0.0014946 -0.00072093
-0.00083415 -0.00012934 -0.00069896 -0.0003305
-0.0031412 0.00061732 0.002574 -0.0003958 0.25524 -0.19558 3.6533e-05 0.0016252
-0.0021192 -0.00012266 -0.00030573 -0.00074711
0.0030892 -0.001193 -0.0014855 -0.00072391 6.2383e-05 0.0016308 0.24525 0.0033753
-0.0042416 0.0094106 0.0016885 -0.0019769
-0.0021307 -0.00061303 -0.00082874 -0.00010528 -0.002086 -7.6357e-05 -0.0042212 0.0094163
0.18938 0.14826 0.00046167 0.0096944
0.00051272 0.00039087 -0.00073706 -0.00035347 -0.00031478 -0.00072393 0.0017019 -0.0019691
0.00051193 0.009673 0.25285 0.17911
1760000000 0.27534 -0.062889 0.0044286 0.0066803 -0.0018406 0.0012183 0.0013186 -0.003403
-0.001281 0.00060225 0.00025398 -0.00054369
0.0044407 0.0066785 0.2435 0.20608 -2.396e-05 -0.0015847 -0.0012852 8.4718e-05
-0.0011194 0.00098045 -0.0005079 0.00037241
-0.0017866 0.0012328 -5.7711e-05 -0.0015975 0.20666 -0.2273 0.0011214 0.0013639
-0.0010297 0.0013817 -0.0012602 -0.00067236
0.0013469 -0.0034431 -0.0013207 6.0792e-05 0.0011029 0.0013901 0.23721 -0.048152
-0.0010497 0.0083529 -4.8205e-05 -0.0023273
-0.0012638 0.00059762 -0.0011352 0.00096784 -0.0010108 0.0014051 -0.0010348 0.0083613
0.20609 0.11662 0.0044244 0.0070631
0.00022983 -0.00053668 -0.00046748 0.00041383 -0.0012528 -0.00073056 -0.00011871 -0.0022749
0.004409 0.0070834 0.26684 0.14209
1820000000 0.2523 -0.10072 0.0047107 0.0029267 0.00034528 0.0020696 -0.00083764 -0.0030891
-0.0010211 0.00093541 -2.4383e-05 -9.3915e-05
0.0046916 0.0029643 0.25449 0.17672 -0.0019706 0.00015457 -0.0014266 0.001029
-2.6021e-05 0.0012254 -0.00054082 0.00031491
0.00029297 0.0021157 -0.0020114 0.00021837 0.15675 -0.24243 0.0019023 0.00070721
-0.00019135 0.0023726 -0.0016767 0.00010625
-0.00077268 -0.003117 -0.001398 0.0010409 0.0019314 0.00064417 0.20779 -0.095925
0.00046141 0.0071953 -0.0015513 -0.0018255
-0.00099045 0.00093903 1.344e-05 0.0012307 -0.00015837 0.0023986 0.00040557 0.007196
0.22633 0.090593 0.0053196 0.0031984
1.1446e-05 -0.0001755 -0.00055085 0.00032829 -0.0015763 9.9227e-05 -0.0015001 -0.0017971
0.0053106 0.0031791 0.27059 0.10684
1880000000 0.21835 -0.14118 0.0024727 0.00076158 -0.00027871 0.0020892 -0.0028063 -0.002434
-0.00015221 0.0016619 0.00037461 -0.00056615
0.0025127 0.00077422 0.2596 0.13097 -0.0038095 0.0029893 -0.00023233 0.0018141
0.00058763 0.0013406 0.00010045 0.00088202
-0.00021609 0.002141 -0.0038264 0.0030096 0.10516 -0.24975 0.0021062 -0.0013663
0.001611 0.0018925 -0.001064 0.0013388
-0.00287 -0.0023734 -0.00022383 0.0018171 0.0021113 -0.001322 0.16771 -0.13649
0.0012758 0.005117 -0.0022637 0.00029858
-0.00014643 0.0016382 0.00063191 0.0013542 0.0016384 0.0019134 0.0013158 0.0050882
0.23301 0.061995 0.0056558 0.0011977
0.00039077 -0.00051169 6.8022e-05 0.00090626 -0.0010631 0.0014017 -0.0022456 0.00019325
0.0056462 0.0012332 0.27154 0.073023
1940000000 0.18017 -0.16816 0.00049679 -0.0010576 0.0017179 0.0017881 -0.0039385 0.00024538
0.0011231 0.00075653 -0.00068145 -0.00074067
0.00047849 -0.0010611 0.26194 0.099685 -0.0016843 0.0058071 0.0010926 0.0013592
0.0019465 0.00032694 0.00083014 0.00021677
0.0017752 0.001727 -0.0016593 0.0057852 0.061748 -0.24213 0.00048286 -0.0025248
0.0021986 0.00030884 7.0149e-05 0.0016902
-0.003929 0.00028947 0.0010543 0.0013563 0.00045812 -0.0024542 0.11575 -0.16818
0.0006987 0.003713 -0.0014004 0.0011028
0.0011022 0.00076361 0.0019337 0.00028914 0.0021816 0.00033139 0.00078658 0.0037513
0.24007 0.025721 0.0041724 -0.0028469
-0.00075149 -0.00083048 0.00087001 0.00022352 4.6525e-05 0.0017712 -0.0013006 0.0010721
0.0042091 -0.0028467 0.26251 0.037177
2000000000 0.13416 -0.1837 -0.0031446 0.0008767 0.0029021 0.0011265 -0.0024514 0.0036743
0.00079602 0.00045869 -0.0008652 0.00054247
-0.0031699 0.00090319 0.24895 0.064158 -0.00024936 0.0077109 0.0016012 0.00027035
0.00111 -0.0013574 0.00039801 0.00017321
0.0028695 0.0011174 -0.00023473 0.0076953 0.020197 -0.22809 -0.0017887 -0.0014339
0.0019596 -0.0010503 0.0017182 0.0016065
-0.0024317 0.0037071 0.0016113 0.00024023 -0.0018363 -0.0014905 0.061648 -0.17877
-0.0010421 0.003254 -0.00020001 0.0022902
0.0008108 0.0003808 0.0011077 -0.0013849 0.0019943 -0.001104 -0.001014 0.003262
0.23837 -0.00683 0.00055184 -0.0037287
