!Keysight Technologies,M9804A,MY58100912,A.14.10.03
!Date: Thursday, April 27, 2023 10:28:33
!Correction: S11(C  6-Port  ) 
!S12(C  6-Port  ) 
!S13(C  6-Port  ) 
!S14(C  6-Port  ) 
!S15(C  6-Port  ) 
!S16(C  6-Port  ) 
!S21(C  6-Port  ) 
!S22(C  6-Port  ) 
!S23(C  6-Port  ) 
!S24(C  6-Port  ) 
!S25(C  6-Port  ) 
!S26(C  6-Port  ) 
!S31(C  6-Port  ) 
!S32(C  6-Port  ) 
!S33(C  6-Port  ) 
!S34(C  6-Port  ) 
!S35(C  6-Port  ) 
!S36(C  6-Port  ) 
!S41(C  6-Port  ) 
!S42(C  6-Port  ) 
!S43(C  6-Port  ) 
!S44(C  6-Port  ) 
!S45(C  6-Port  ) 
!S46(C  6-Port  ) 
!S51(C  6-Port  ) 
!S52(C  6-Port  ) 
!S53(C  6-Port  ) 
!S54(C  6-Port  ) 
!S55(C  6-Port  ) 
!S56(C  6-Port  ) 
!S61(C  6-Port  ) 
!S62(C  6-Port  ) 
!S63(C  6-Port  ) 
!S64(C  6-Port  ) 
!S65(C  6-Port  ) 
!S66(C  6-Port  ) 
!S6P File: Measurement: :
# Hz S  RI   R 50
500000000 -0.32706 -0.062626 -0.010604 -0.0019931 -0.0087226 0.011541 -0.0038625 0.012519
0.013768 0.0061763 -0.0039825 0.008947
-0.010544 -0.0020803 -0.40814 -0.072408 0.0082218 -0.011407 0.0010312 0.011908
0.0091548 0.0037077 0.0015627 0.014199
-0.0086609 0.011701 0.0081813 -0.011474 -0.25388 0.19351 0.0072197 0.002815
-0.0017301 0.0077608 0.0018096 0.010868
-0.0038799 0.012448 0.0010791 0.012015 0.007313 0.0029127 -0.3268 0.044312
-0.020232 -0.0048836 0.015427 0.02848
0.013432 0.0061385 0.0089915 0.0037753 -0.0016046 0.0076194 -0.020302 -0.0047847
-0.20497 -0.25492 -0.030075 0.0054551
-0.0042537 0.0090261 0.0011397 0.013936 0.0016446 0.011001 0.016319 0.028391
-0.030013 0.0058922 -0.25453 -0.14657
560000000 -0.31165 0.10495 -0.021923 -0.067291 0.00044209 0.013233 0.0053963 0.011445
0.010476 0.0055187 0.010832 0.0086301
-0.021767 -0.067145 -0.36773 0.089644 -0.041195 -0.038652 0.013173 0.0027009
-0.013976 -0.0060127 0.0042531 -0.001364
0.00043032 0.01311 -0.041309 -0.038546 -0.1792 0.24135 -0.00052531 -0.0047531
0.017194 0.0062198 0.0078048 -0.0059451
0.0053611 0.01171 0.013214 0.002656 -0.00074442 -0.0045743 -0.30253 0.13292
0.0074484 -0.023134 0.0050402 -0.021477
0.010709 0.0052401 -0.014071 -0.0060885 0.017376 0.0056965 0.0073231 -0.023035
-0.29832 -0.072227 0.011008 -0.051149
0.011685 0.0088674 0.0044932 -0.0010525 0.0080578 -0.0061834 0.0049842 -0.021506
0.0113 -0.051385 -0.32602 -0.00096085
620000000 -0.2733 0.081701 -0.02386 0.0089591 0.0033602 0.0086418 0.0083051 -0.0042102
0.012063 -0.00064712 -0.00029498 -0.0022618
-0.023892 0.0089453 -0.39844 0.035944 -0.019464 0.00024991 -0.0020169 -0.0019589
0.012514 -0.0053022 0.00053847 -0.0033305
0.0034805 0.0086874 -0.019486 0.00031339 -0.15285 0.25082 -0.0015776 -0.0047913
-0.0038738 -0.0025381 0.0080142 -0.0027271
0.0084646 -0.0039481 -0.0019081 -0.0019234 -0.0015996 -0.0049542 -0.26141 0.14202
-0.039859 -0.020874 0.012228 0.027942
0.01176 -0.00057822 0.012746 -0.0055322 -0.003713 -0.002565 -0.040068 -0.020865
-0.20808 -0.11146 -0.046129 0.013259
0.00019858 -0.0012777 0.00065885 -0.003096 0.0080968 -0.0027447 0.01183 0.028417
-0.045594 0.013066 -0.24136 -0.038794
680000000 -0.23981 0.17412 -0.026452 -0.015027 0.0047692 0.0053268 0.0015693 -0.0076753
-0.0017272 -0.011965 0.0059073 -0.0071501
-0.026433 -0.015058 -0.38942 0.13838 -0.032911 -0.001488 -0.0017602 -0.00031301
-0.0015102 -0.009777 -0.00080963 -0.0017938
0.0047963 0.0053 -0.032945 -0.0014271 -0.10685 0.27451 -0.00070933 0.00019911
-0.0015771 0.00098914 -0.0029691 -0.0091704
0.0016007 -0.0074921 -0.0017734 -0.00033681 -0.00070081 0.00018569 -0.21828 0.19483
-0.023192 -0.0080218 -0.0087302 -0.011333
-0.001911 -0.011762 -0.0014501 -0.0097552 -0.0015916 0.0008575 -0.023191 -0.0080455
-0.28576 -0.0077542 -0.0051472 -0.0081035
0.0053475 -0.0073363 -0.00088102 -0.0018401 -0.0030794 -0.00915 -0.0088045 -0.011477
-0.0051593 -0.0077302 -0.25963 0.067562
740000000 -0.19354 0.16803 -0.040888 0.026577 0.013158 -0.0038512 0.00040018 -0.0042078
-0.0041428 -0.0023058 -0.0062536 0.0028737
-0.040735 0.026581 -0.33583 0.15755 -0.036921 0.034148 -3.192e-05 -0.0057673
-0.013049 0.0068803 -0.00084161 -0.0057426
0.013167 -0.003788 -0.03682 0.034248 -0.07313 0.27531 -0.0017998 0.0032843
-0.0011256 -0.0054408 -0.0019354 0.00098209
0.00043388 -0.0040935 -3.6849e-05 -0.0058459 -0.001763 0.0033004 -0.20104 0.20056
-0.042924 -0.0097084 0.022296 0.016405
-0.0040866 -0.001985 -0.013055 0.006579 -0.00093778 -0.0055247 -0.042958 -0.0095379
-0.18116 0.029619 -0.045319 -0.0004013
-0.0062224 0.002482 -0.0011232 -0.0058125 -0.0018135 0.0012332 0.022429 0.01637
-0.044868 -0.0016672 -0.25165 0.071935
800000000 -0.16617 0.21427 -0.022914 0.016542 0.0055904 -0.010088 -0.0045451 -0.0024775
-0.0043613 0.0016011 0.0042187 0.00022006
-0.022908 0.016548 -0.34507 0.22942 -0.0085595 0.034783 -0.0020135 0.0021628
-0.00017072 0.0021021 0.00088623 0.0056177
0.0055286 -0.010074 -0.0084648 0.034822 -0.035048 0.30174 0.0010424 0.0011887
-4.1638e-05 0.0029982 -0.0016455 0.00060882
-0.0045404 -0.0024619 -0.0019953 0.0022188 0.001079 0.0011795 -0.17367 0.22902
-0.029891 0.013103 0.014917 -0.010075
-0.0043224 0.0016031 -0.00015924 0.0021808 -3.2014e-05 0.0029941 -0.029818 0.013191
-0.24078 0.052838 -0.019299 0.021059
0.0043618 0.00054572 0.0010636 0.0056493 -0.0016828 0.00079096 0.014777 -0.010214
-0.018909 0.020862 -0.25033 0.12471
860000000 -0.13116 0.23537 -0.018375 0.030831 -0.0034599 -0.0098844 -0.0020241 0.00081038
0.0040653 0.0050497 -0.0035981 -0.0032357
-0.018391 0.030787 -0.29681 0.2748 0.0078525 0.034487 7.7229e-05 0.0021676
0.003881 0.00015341 0.003521 -0.00012193
-0.0034752 -0.0098913 0.0079778 0.034514 0.014547 0.31197 -0.00055895 -0.00044597
0.0024156 -0.0016431 0.0017821 0.0043284
-0.0019926 0.0007617 0.00011743 0.0021163 -0.00053499 -0.00041802 -0.13674 0.24088
-0.019353 0.018134 -0.006492 -0.010198
0.003872 0.0049779 0.0037923 -4.5765e-05 0.0024746 -0.0016712 -0.019465 0.018163
-0.18612 0.1188 -0.027571 0.016002
-0.003739 -0.0030627 0.0037337 -8.4194e-05 0.0018047 0.0042645 -0.0064577 -0.0097632
-0.027344 0.01583 -0.20015 0.17459
920000000 -0.10827 0.25868 0.0045095 0.039909 -0.0093503 -0.0041581 -0.0017772 0.0018352
-1.6534e-05 0.0017679 0.002856 -0.001581
0.00446 0.039865 -0.27059 0.29636 0.028349 0.022825 0.0014641 0.0011721
0.0073901 6.2099e-05 0.0039353 -0.0028679
-0.0093772 -0.0041131 0.028447 0.022771 0.061156 0.31331 0.0016682 2.0585e-05
0.0005385 -0.00026706 0.00088866 -0.0013192
-0.0017712 0.0017966 0.0015002 0.0011388 0.0016872 2.1027e-05 -0.11326 0.25787
-0.012917 0.031643 0.0044496 -0.006219
-4.244e-05 0.0018276 0.0074269 5.5117e-05 0.00054377 -0.00027112 -0.01294 0.031748
-0.18081 0.12178 -0.0035886 0.029703
0.0028353 -0.0015508 0.0041012 -0.0029498 0.00097734 -0.0013037 0.0041834 -0.0063329
-0.0037964 0.02955 -0.21088 0.18673
980000000 -0.061692 0.28173 0.017174 0.030736 -0.0091099 0.004925 0.0019524 0.0036297
0.0039743 -0.0016094 -0.0034441 -0.0026648
0.0171 0.030712 -0.21854 0.33475 0.033327 0.004934 0.0019917 -0.00022713
0.0019182 -0.0061793 -0.00046481 -0.0027522
-0.0090816 0.0049379 0.033403 0.0048075 0.1081 0.30874 0.00045724 -0.0010709
0.0003376 -0.0017118 0.0016169 -0.00037249
0.0019856 0.0036377 0.0019994 -0.00022799 0.00044042 -0.0010611 -0.074241 0.27055
0.0071143 0.031826 -0.0094987 -0.0081559
0.0039541 -0.001565 0.0018563 -0.0061449 0.00029334 -0.0017106 0.0072301 0.031793
-0.15192 0.1622 0.0048506 0.021296
-0.0035221 -0.002542 -0.00054784 -0.0027113 0.0016637 -0.00039349 -0.0095049 -0.0080481
0.0047571 0.021288 -0.1697 0.23698
1040000000 -0.019538 0.29012 0.03371 0.019798 -0.00079339 0.0075767 0.0025347 0.00047465
0.00037498 -0.0033076 -0.0001708 -0.001659
0.033625 0.0198 -0.18256 0.3483 0.029607 -0.014796 0.0014517 -0.0017769
-0.0023221 -0.0022689 -0.0011512 -0.0028477
-0.00079391 0.0075483 0.029613 -0.014946 0.15556 0.29461 -0.00054832 -0.0013925
-0.0014518 -0.00099463 -0.00055445 -0.0011767
0.0025505 0.00049876 0.0014687 -0.0017755 -0.00055578 -0.0013875 -0.046008 0.27964
0.01969 0.020523 -0.0022122 0.001377
0.00037307 -0.0032281 -0.0023903 -0.0021793 -0.0014369 -0.00094926 0.019765 0.02053
-0.11806 0.17108 0.013385 0.021418
-0.00012205 -0.0016266 -0.0011304 -0.0028413 -0.00055028 -0.0012094 -0.0021384 0.0013531
0.013328 0.021097 -0.14808 0.25752
1100000000 0.024435 0.30094 0.037127 -0.0032178 0.0037316 0.0040461 0.0023506 -0.0010531
-0.0023716 -0.0030176 -0.0041473 0.00010693
0.037099 -0.00317 -0.13991 0.369 0.01504 -0.02793 -0.00025474 -0.0017972
-0.0033236 -0.00092847 -0.0037731 -0.0004531
0.0037431 0.0040477 0.01496 -0.028014 0.20159 0.27507 -0.0017659 0.00035172
-0.0017039 0.00054906 -0.0011026 -0.00059734
0.0023237 -0.0010516 -0.00026488 -0.0017946 -0.0017834 0.00036581 -0.0057646 0.28521
0.02616 0.0071406 -0.0024211 -9.2301e-05
-0.0024207 -0.0030452 -0.0033596 -0.00092448 -0.0017057 0.00058166 0.026138 0.0070549
-0.1023 0.19029 0.020341 0.010702
-0.0042372 8.1059e-05 -0.0038143 -0.00050335 -0.001128 -0.00062267 -0.0024767 -3.4983e-05
0.020176 0.010858 -0.10466 0.29157
1160000000 0.076941 0.29776 0.025249 -0.020568 0.0035457 -0.00078367 -0.00018278 -0.0024549
-0.0041388 -0.00092497 -0.0013109 0.0043291
0.025239 -0.020526 -0.093804 0.37421 -0.004138 -0.028689 -0.0016464 -0.0013961
-0.0025739 0.0025455 -0.0017141 0.0019637
0.0035453 -0.00082402 -0.0042316 -0.028705 0.24628 0.24429 -0.00056315 0.0016476
-0.00044711 0.0017563 -0.0010497 0.00035463
-0.00019881 -0.0024543 -0.0016445 -0.0013972 -0.00055758 0.0016323 0.03517 0.28184
0.023556 -0.010086 -0.0036096 0.0051612
-0.0040879 -0.00080038 -0.0025772 0.002616 -0.00043163 0.0017696 0.023565 -0.010169
-0.065636 0.20374 0.019749 0.0014731
-0.0011381 0.0042735 -0.0016459 0.0019837 -0.0010178 0.00033368 -0.0036661 0.0051654
0.019942 0.0013312 -0.055316 0.29535
1220000000 0.12038 0.28745 0.011967 -0.030503 -0.0010878 -0.0016601 -9.8123e-05 -0.00095327
-0.0027527 0.002269 0.0012391 0.001967
0.011969 -0.030463 -0.050035 0.38779 -0.017069 -0.020699 -0.0025052 0.0005924
-7.5151e-05 0.0029859 -0.0008044 0.0019611
-0.0011047 -0.0016538 -0.017181 -0.020658 0.28515 0.20455 0.00088608 0.0014105
0.00046731 0.001182 6.0895e-05 0.00059875
-9.2378e-05 -0.00095022 -0.0024702 0.00062426 0.00090128 0.00141 0.074359 0.27228
0.012347 -0.017654 0.0023285 0.0015079
-0.0027381 0.0023111 -3.5267e-05 0.0029769 0.00049586 0.0011692 0.012335 -0.017655
-0.044715 0.21568 0.015653 -0.012451
0.0012556 0.0019793 -0.00077115 0.0019333 5.1701e-05 0.00061138 0.0024027 0.0014093
0.015646 -0.012444 -0.026433 0.31418
1280000000 0.17115 0.26879 -0.0072195 -0.029517 -0.0019194 0.0014857 -0.00094125 -0.0019643
-0.00099755 0.0033869 0.0024895 0.0013673
-0.0071778 -0.0295 -0.0025037 0.38024 -0.023812 -0.007579 -0.00073118 0.0014257
0.0016172 0.0018037 0.00056818 0.002038
-0.0019268 0.0015006 -0.02387 -0.0074724 0.31605 0.16142 0.001335 -0.00021859
0.001033 0.00049231 0.00027395 0.00048125
-0.00098156 -0.0019557 -0.00073826 0.001441 0.0013455 -0.00021165 0.11116 0.25628
0.0022125 -0.020735 -0.00020904 4.8052e-05
-0.0010053 0.0033797 0.0016401 0.0017912 0.0010558 0.00045962 0.0021687 -0.020754
-0.0071443 0.22405 0.0040926 -0.015508
0.0025509 0.0013616 0.00060057 0.0020041 0.00025493 0.00051343 -0.00025774 0.0001905
0.0040158 -0.015465 0.022288 0.31898
1340000000 0.20916 0.23493 -0.017142 -0.020075 0.00026754 0.0040243 -0.0017592 -0.00066771
0.0016307 0.0029337 0.0018226 -0.0015274
-0.017109 -0.020078 0.037543 0.37177 -0.020567 0.004974 -0.00013776 0.0019008
0.0017328 0.0010074 0.0012976 0.00081209
0.00029102 0.004014 -0.020571 0.0050759 0.33883 0.11237 0.00075855 -0.00083534
0.00074049 -0.00044824 0.00011469 0.00040006
-0.0017242 -0.00065551 -0.00014096 0.0019172 0.00074941 -0.00085029 0.14379 0.23453
-0.0080866 -0.018128 0.00099376 0.00052347
0.0016442 0.0029074 0.0017532 0.00097273 0.00072075 -0.00049369 -0.008141 -0.018151
0.022939 0.22179 -0.0026058 -0.014362
0.0017685 -0.0014545 0.0012812 0.00082722 0.00016603 0.00040123 0.00099865 0.00038909
-0.0025734 -0.01429 0.061108 0.31554
1400000000 0.24277 0.19827 -0.023819 -0.0086609 0.0045443 0.0029539 -0.002045 0.00074478
0.0025879 0.0009571 0.00032075 -0.0013005
-0.023787 -0.0086808 0.074861 0.35958 -0.01365 0.012556 0.0013168 0.0012915
0.0012029 -0.00053246 0.0011007 0.00025219
0.0045641 0.0029512 -0.013614 0.012642 0.35139 0.05853 1.1179e-05 -0.0012718
0.00022737 -0.00013534 0.00049859 0.00025632
-0.0020493 0.00074687 0.0013122 0.0012899 -8.7729e-06 -0.00129 0.172 0.20606
-0.014996 -0.011078 -0.00099061 -0.00035335
0.002632 0.00090465 0.0012007 -0.00055175 0.0002504 -0.00015867 -0.015041 -0.011052
0.055818 0.22211 -0.0094337 -0.009472
0.00032007 -0.0013571 0.0011472 0.00020659 0.00051884 0.00018191 -0.0010503 -0.00032463
-0.0093582 -0.0094586 0.10605 0.30696
1460000000 0.26712 0.15504 -0.02106 0.0041943 0.0049346 -0.0016439 -0.001538 0.0016331
0.0021746 -0.00030419 -0.00021188 -0.00083852
-0.021041 0.0041674 0.11016 0.33771 -0.0047174 0.014733 0.001581 0.00023378
0.0012072 -0.0012512 0.0012956 -0.00061664
0.0049306 -0.0016825 -0.0046426 0.014774 0.3579 0.0035368 -0.0010683 -0.0010848
0.00033198 -0.00026897 0.00073538 -0.0002819
-0.0015166 0.0016408 0.0015856 0.00021752 -0.001081 -0.0010605 0.19902 0.17761
-0.016423 -0.0039972 -0.0011122 0.002128
0.0021643 -0.00030894 0.0012021 -0.0012573 0.00033552 -0.00023683 -0.016408 -0.0039346
0.086367 0.21073 -0.011901 -0.0031528
-0.00020239 -0.00087353 0.0012576 -0.00063192 0.0007629 -0.00031107 -0.0010707 0.0020826
-0.011727 -0.003199 0.14111 0.28705
1520000000 0.27933 0.11309 -0.015658 0.010017 0.0029727 -0.0037784 0.00015814 0.0025729
0.0025119 -0.0019263 -0.0010745 -0.00015748
-0.015651 0.0099896 0.14354 0.32311 0.0023938 0.011833 0.0016722 -0.00065538
0.00024628 -0.0010784 0.00031144 -0.0010135
0.0029495 -0.0038022 0.0024687 0.011823 0.34979 -0.054483 -0.00073326 -0.00034862
0.0006593 -0.0010406 0.00014406 -0.0001165
0.00017583 0.0025629 0.0016696 -0.00066039 -0.00073572 -0.00035918 0.22163 0.13911
-0.016219 0.002284 0.0014221 0.002138
0.0025081 -0.0019513 0.00023232 -0.0010807 0.00068521 -0.0010554 -0.016203 0.0023247
0.11387 0.20052 -0.011845 0.0012495
-0.0010796 -0.0001716 0.00030777 -0.0010073 0.00019085 -0.00014593 0.0013883 0.0021546
-0.011958 0.0012438 0.17432 0.26817
1580000000 0.28948 0.068545 -0.0088837 0.0138 -0.0012148 -0.0043244 0.0015206 0.0018401
-0.00017367 -0.0022981 -0.00017516 0.00034397
-0.0088852 0.013782 0.17085 0.29945 0.0052558 0.0066263 0.00059148 -0.0015383
-0.00045795 -0.0012725 -0.00022132 -0.00066396
-0.0012282 -0.004315 0.0053095 0.006616 0.32799 -0.11071 -0.0014225 0.00024782
-0.00042047 -0.0013345 0.00031373 -0.00050195
0.0015078 0.0018496 0.00059563 -0.0015472 -0.0014242 0.00024909 0.23574 0.10097
-0.012351 0.0078889 0.0022454 0.00091049
-0.00017318 -0.0022868 -0.00045826 -0.0012481 -0.00046063 -0.0013392 -0.012315 0.007911
0.13974 0.18695 -0.0093961 0.0075012
-0.00023508 0.00029231 -0.00023347 -0.00066913 0.00028317 -0.00054444 0.0023235 0.00092285
-0.0092848 0.0075655 0.20822 0.2439
1640000000 0.29278 0.027059 -0.0018041 0.012739 -0.0027293 -0.0019281 0.0027092 0.00096133
-0.00051009 -0.0018654 -0.00034317 0.00038709
-0.0018103 0.012741 0.20145 0.27443 0.0051348 0.0020336 -0.00051761 -0.0018729
-0.0010493 -0.00058726 -0.00047874 -0.00062266
-0.0027653 -0.0019204 0.0051604 0.0020172 0.29856 -0.16026 -0.00081046 0.0012468
-0.0012285 -0.0011533 -0.00014724 -0.00040857
0.0027036 0.00092324 -0.00051863 -0.0018687 -0.00079809 0.0012455 0.24882 0.051587
-0.0079841 0.0091464 0.0026039 -0.00067656
-0.00053676 -0.0018489 -0.0010546 -0.00059051 -0.0012204 -0.0011525 -0.0079568 0.0091654
0.16365 0.16674 -0.0042624 0.0096759
-0.00036051 0.00043671 -0.00050021 -0.00062077 -0.00015212 -0.00037745 0.0025717 -0.00072559
-0.0043408 0.0096206 0.23515 0.21288
1700000000 0.28549 -0.017364 0.0019068 0.0099567 -0.0030374 0.0005402 0.0030406 -0.0011958
-0.0023313 -0.00071633 0.00041108 0.00049272
0.0018927 0.0099487 0.21888 0.24374 0.0025492 -0.0003123 -0.0014992 -0.00066681
-0.00094697 -8.6195e-05 -0.00080579 -0.00034639
-0.0030391 0.00055497 0.0025433 -0.00032743 0.25339 -0.19782 6.6593e-05 0.0017503
-0.0021851 -0.00018144 -0.00042555 -0.00088111
0.0030336 -0.0012126 -0.0015051 -0.00065558 7.6801e-05 0.0017779 0.24522 0.0021448
-0.0050597 0.010235 0.0017375 -0.0021066
-0.0023332 -0.00070912 -0.00094021 -7.9902e-05 -0.0022152 -0.00016173 -0.0050408 0.010241
0.18245 0.15098 0.00056409 0.0096912
0.00042636 0.00045901 -0.00081353 -0.00034629 -0.00037721 -0.00083306 0.0017196 -0.0020317
0.00057687 0.0097204 0.25258 0.17963
1760000000 0.27569 -0.065544 0.0044147 0.0066338 -0.0019099 0.0010975 0.0012596 -0.0033541
-0.0012798 0.00057192 0.00026165 -0.00057437
0.004406 0.0066353 0.24643 0.20478 -2.9691e-05 -0.0015379 -0.0012667 8.3594e-05
-0.0011341 0.0010735 -0.00042611 0.00037428
-0.0018966 0.0011397 -4.062e-05 -0.0015451 0.20537 -0.2295 0.0012074 0.0015053
-0.0011573 0.0016018 -0.0012504 -0.0006552
0.0012301 -0.003367 -0.0012618 0.00010032 0.0012156 0.0014956 0.2379 -0.049023
-0.0012849 0.0095198 -4.7305e-05 -0.0023406
-0.0012975 0.00060715 -0.0011272 0.0011124 -0.0011513 0.0015829 -0.0012965 0.0095262
0.20035 0.12093 0.0045771 0.0070894
0.00026589 -0.00057278 -0.00043189 0.00037246 -0.0012727 -0.00063956 -4.8539e-05 -0.0024583
0.0045781 0.0070822 0.26699 0.14283
1820000000 0.25158 -0.10385 0.0047232 0.0029465 0.00042036 0.0022099 -0.00091146 -0.003129
-0.0012748 0.00090738 -9.037e-05 -7.7799e-05
0.0047179 0.0029424 0.25657 0.17451 -0.0019724 0.00031132 -0.0013714 0.00098031
0.00011275 0.001265 -0.00060084 0.00040545
0.00043092 0.0022097 -0.0019938 0.00032441 0.15499 -0.2443 0.0019128 0.00049322
-3.6023e-05 0.002433 -0.0017793 0.00016045
-0.00090626 -0.0031031 -0.0013697 0.0010007 0.0019238 0.00052435 0.20784 -0.097293
0.00066314 0.008282 -0.0014978 -0.0017395
-0.0012652 0.00091322 0.00012066 0.0012531 -4.1262e-05 0.0023636 0.00068598 0.008316
0.22111 0.095113 0.0055259 0.0031585
-0.00011425 -8.0896e-05 -0.00059216 0.00039935 -0.0018664 0.00011538 -0.0015591 -0.0017719
0.0054865 0.0031365 0.27053 0.10688
1880000000 0.21675 -0.14362 0.0025068 0.00068498 -0.00018361 0.0020545 -0.0028555 -0.0023821
-0.00014599 0.0017909 0.00045344 -0.00071334
0.0024944 0.00067326 0.26149 0.12925 -0.0037442 0.002956 -0.00019504 0.0017692
0.00068192 0.0012536 0.00026275 0.00087271
-0.00018822 0.002039 -0.003713 0.0029878 0.10318 -0.25139 0.002073 -0.0012888
0.0018147 0.0019998 -0.00088337 0.0013845
-0.0028543 -0.0023458 -0.00018719 0.0017897 0.0020544 -0.0012383 0.16762 -0.13725
0.0021131 0.0060968 -0.0024092 0.00020077
-0.00014462 0.0018098 0.00068428 0.0012387 0.001782 0.0019995 0.0021319 0.0061432
0.22894 0.068351 0.0058488 0.0010953
0.00040431 -0.0007361 0.00023459 0.00085354 -0.0009016 0.0013867 -0.0023496 0.00017565
0.0057567 0.0010706 0.27208 0.074012
1940000000 0.17856 -0.17069 0.00038461 -0.0010653 0.0017419 0.0017862 -0.0037454 0.00036781
0.0012325 0.00087837 -0.00078516 -0.00079876
0.00039713 -0.0010637 0.26392 0.097135 -0.0017539 0.0058263 0.001094 0.0014346
0.0019214 0.00024727 0.00085318 0.0001461
0.0017563 0.0017585 -0.0017302 0.0058625 0.059417 -0.24357 0.00046674 -0.0025158
0.0023126 0.00012886 0.00036266 0.0016392
-0.003793 0.0004097 0.0011115 0.001431 0.0004685 -0.0025196 0.11553 -0.16979
0.0016934 0.0042302 -0.0013271 0.0014377
0.0012557 0.00088867 0.0019326 0.00025798 0.0023018 0.00012661 0.0017917 0.0042154
0.23768 0.032049 0.0043 -0.003151
-0.00080141 -0.00076183 0.00085928 0.0001735 0.00030858 0.0016994 -0.0015106 0.0014725
0.0042792 -0.003149 0.26314 0.0371
2000000000 0.13158 -0.18546 -0.0031544 0.00076578 0.0028709 0.0011397 -0.0024459 0.0035969
0.00097123 0.00035284 -0.00087715 0.00049827
-0.0031541 0.00073918 0.25002 0.061727 -0.00029222 0.0078532 0.0016307 0.00029697
0.00099954 -0.0013426 0.00030749 4.242e-05
0.0029146 0.0010676 -0.0002059 0.0078305 0.017638 -0.2288 -0.001763 -0.0014774
0.0018509 -0.00099421 0.001658 0.0013798
-0.0024844 0.003606 0.0016499 0.00025463 -0.0017512 -0.0014853 0.060528 -0.17977
0.00031064 0.0033057 -0.00011485 0.0021021
0.00095772 0.00032257 0.00098536 -0.0013292 0.0018483 -0.0010247 0.00034423 0.0033965
0.23702 0.00010875 0.00059151 -0.0039515
