!Keysight Technologies,M9804A,MY58100912,A.14.10.03
!Date: Thursday, April 27, 2023 10:28:33
!Correction: S11(C  6-Port  ) 
!S12(C  6-Port  ) 
!S13(C  6-Port  ) 
!S14(C  6-Port  ) 
!S15(C  6-Port  ) 
!S16(C  6-Port  ) 
!S21(C  6-Port  ) 
!S22(C  6-Port  ) 
!S23(C  6-Port  ) 
!S24(C  6-Port  ) 
!S25(C  6-Port  ) 
!S26(C  6-Port  ) 
!S31(C  6-Port  ) 
!S32(C  6-Port  ) 
!S33(C  6-Port  ) 
!S34(C  6-Port  ) 
!S35(C  6-Port  ) 
!S36(C  6-Port  ) 
!S41(C  6-Port  ) 
!S42(C  6-Port  ) 
!S43(C  6-Port  ) 
!S44(C  6-Port  ) 
!S45(C  6-Port  ) 
!S46(C  6-Port  ) 
!S51(C  6-Port  ) 
!S52(C  6-Port  ) 
!S53(C  6-Port  ) 
!S54(C  6-Port  ) 
!S55(C  6-Port  ) 
!S56(C  6-Port  ) 
!S61(C  6-Port  ) 
!S62(C  6-Port  ) 
!S63(C  6-Port  ) 
!S64(C  6-Port  ) 
!S65(C  6-Port  ) 
!S66(C  6-Port  ) 
!S6P File: Measurement: :
# Hz S  RI   R 50
500000000 -0.32722 -0.063174 -0.010584 -0.002108 -0.0088208 0.011584 -0.0043096 0.01158
0.012234 0.0062712 -0.0050631 0.0083777
-0.010514 -0.0020281 -0.40806 -0.074561 0.0083168 -0.011041 0.0014359 0.011471
0.0083482 0.0028901 0.0012808 0.013139
-0.0087592 0.011556 0.0082739 -0.011022 -0.25556 0.19165 0.0066348 0.00311
-0.0023025 0.0079856 0.00085682 0.012062
-0.0043235 0.011656 0.0013461 0.011449 0.0065744 0.0032005 -0.32547 0.041677
-0.019574 -0.0052225 0.016462 0.026037
0.012236 0.0060161 0.008255 0.0028257 -0.0023326 0.0079628 -0.01973 -0.0053793
-0.21438 -0.24017 -0.028287 0.0036361
-0.0053703 0.0083334 0.00091583 0.013318 0.00075757 0.012184 0.016565 0.026025
-0.028312 0.0035543 -0.25928 -0.14611
560000000 -0.31548 0.10507 -0.021515 -0.067406 -0.00029431 0.013325 0.0064548 0.011487
0.010677 0.0049924 0.010957 0.0094341
-0.021393 -0.067302 -0.3702 0.090084 -0.040794 -0.039152 0.013121 0.0029454
-0.014376 -0.0051224 0.0043915 -0.00073163
-0.00017148 0.013413 -0.040962 -0.039122 -0.18156 0.24142 0.0003467 -0.0050879
0.017945 0.0063891 0.0076553 -0.0057015
0.0063333 0.011423 0.013056 0.0029112 0.00033856 -0.0050552 -0.30354 0.13116
0.0063359 -0.021656 0.0060527 -0.020867
0.010666 0.004825 -0.014314 -0.0052464 0.01796 0.0057289 0.0060632 -0.021663
-0.29879 -0.056962 0.010331 -0.051415
0.011114 0.009481 0.0046016 -0.0012809 0.0078915 -0.0058931 0.0059624 -0.021092
0.010646 -0.051368 -0.32859 0.0051526
620000000 -0.27519 0.081652 -0.02345 0.0092212 0.0035485 0.0089642 0.0088684 -0.004578
0.011274 -0.00019331 0.0014342 -0.0015476
-0.023424 0.0091656 -0.39896 0.03588 -0.019241 -5.4647e-05 -0.0017139 -0.002269
0.012178 -0.0052554 0.00080036 -0.0037586
0.0036483 0.0089758 -0.019253 2.5673e-05 -0.15458 0.24979 -0.0010214 -0.0053676
-0.0045649 -0.0023447 0.0083917 -0.0036433
0.0087915 -0.004727 -0.0016843 -0.0022805 -0.0010725 -0.0053103 -0.26105 0.14148
-0.039025 -0.020586 0.012571 0.029263
0.011658 -2.8861e-05 0.012245 -0.0053106 -0.0044665 -0.0025955 -0.039161 -0.021093
-0.21634 -0.093876 -0.044559 0.011821
0.0015003 -0.0013305 0.00069914 -0.0035837 0.0084687 -0.0034477 0.012998 0.029157
-0.044573 0.012047 -0.24676 -0.03126
680000000 -0.2409 0.1743 -0.026295 -0.015219 0.0047581 0.0052683 0.0018048 -0.0071467
-0.0018028 -0.011896 0.0051092 -0.00639
-0.026284 -0.015214 -0.38998 0.13751 -0.032554 -0.001916 -0.001667 -0.00015259
-0.0015323 -0.0095996 -0.0010882 -0.0021016
0.0047131 0.0052751 -0.032617 -0.0018432 -0.10755 0.27341 -0.00074355 0.00013934
-0.0015042 0.00082218 -0.0031059 -0.0094697
0.0017751 -0.0071119 -0.0015689 -0.00023505 -0.00072755 9.1368e-05 -0.2192 0.19315
-0.022318 -0.0072951 -0.0081389 -0.012029
-0.0018446 -0.012004 -0.0016257 -0.0095395 -0.0016333 0.00084008 -0.022634 -0.0070214
-0.28202 0.0067525 -0.0053633 -0.0079258
0.0054186 -0.0063485 -0.0010404 -0.0021472 -0.0031568 -0.009464 -0.0087135 -0.011634
-0.0052677 -0.0079245 -0.25992 0.071794
740000000 -0.19523 0.16721 -0.041267 0.026316 0.01337 -0.0035481 -9.246e-05 -0.0042142
-0.0040703 -0.0022643 -0.00689 0.0032009
-0.041238 0.02621 -0.33608 0.15726 -0.037047 0.034177 -0.00019267 -0.0056235
-0.011971 0.0070368 -0.0011726 -0.0051044
0.013364 -0.0035849 -0.036985 0.034383 -0.074279 0.27396 -0.0019589 0.0029426
-0.00096836 -0.004743 -0.0019332 0.00057214
-0.00016204 -0.004282 -0.00010245 -0.0056134 -0.0019641 0.0029943 -0.20138 0.20004
-0.043058 -0.009587 0.022327 0.01659
-0.0039257 -0.0021934 -0.012158 0.0070971 -0.00089059 -0.0049266 -0.042928 -0.0099385
-0.17746 0.044675 -0.044741 -0.0021198
-0.0069576 0.0032151 -0.00090416 -0.0051729 -0.001948 0.00071898 0.022366 0.016548
-0.04486 -0.0020837 -0.25087 0.077396
800000000 -0.16601 0.21299 -0.022642 0.015894 0.0054914 -0.010319 -0.0044389 -0.0024905
-0.0038724 0.0018951 0.0045355 0.00018647
-0.022579 0.015895 -0.3446 0.22844 -0.008756 0.034195 -0.0021821 0.0020037
-0.00020468 0.0024312 0.00061115 0.0053826
0.0055179 -0.010286 -0.0086793 0.034259 -0.035732 0.30008 0.0011649 0.0012278
-5.3756e-05 0.0032385 -0.0013927 0.00090828
-0.0044962 -0.0025287 -0.002152 0.0019503 0.0011856 0.0011554 -0.17354 0.22791
-0.029264 0.012819 0.01533 -0.0099231
-0.0040274 0.0019031 -0.00021335 0.0024463 2.5449e-05 0.0032655 -0.029333 0.012942
-0.23411 0.066174 -0.019837 0.020389
0.0045673 0.00021224 0.00066812 0.0053084 -0.0015219 0.00078505 0.015153 -0.0098553
-0.019813 0.020369 -0.24771 0.12885
860000000 -0.13245 0.23462 -0.018621 0.03068 -0.0033071 -0.009892 -0.0022045 0.00056675
0.0041627 0.0054799 -0.0034166 -0.0031088
-0.018698 0.030645 -0.2978 0.27304 0.0074149 0.034219 0.00012717 0.0021233
0.004129 0.0002261 0.0032386 0.00028289
-0.0033685 -0.0098969 0.0075317 0.03426 0.012677 0.31015 -0.00053937 -0.00056372
0.0025624 -0.0018015 0.0013985 0.0041502
-0.0021569 0.00056892 0.00023877 0.0021492 -0.00049103 -0.00052677 -0.13671 0.2398
-0.018745 0.017016 -0.0067969 -0.0099549
0.0043032 0.0053343 0.004114 0.0001612 0.0025381 -0.0018438 -0.018586 0.017087
-0.17936 0.12713 -0.025926 0.016361
-0.0034391 -0.0032004 0.0034603 0.00022286 0.0014826 0.0041635 -0.006908 -0.01002
-0.025898 0.016351 -0.19941 0.17658
920000000 -0.10927 0.25825 0.0042972 0.039464 -0.0092419 -0.004261 -0.0019258 0.0017474
0.00023851 0.0015798 0.0028608 -0.0017386
0.0042541 0.039415 -0.27146 0.29523 0.027725 0.022945 0.0013091 0.001057
0.0069165 0.00022637 0.0036391 -0.0028849
-0.0092528 -0.0042659 0.027848 0.022894 0.058964 0.31211 0.001759 -9.697e-05
0.00043546 -0.00031695 0.00081197 -0.0013532
-0.0019962 0.0018207 0.0013111 0.0010567 0.0017215 -8.7326e-05 -0.11354 0.25702
-0.012682 0.030502 0.0042715 -0.0064575
0.00028099 0.0015416 0.0069952 0.00023387 0.00050045 -0.00029838 -0.012735 0.030569
-0.17313 0.13171 -0.0040284 0.028632
0.0029734 -0.0015575 0.0037154 -0.0028361 0.0007286 -0.0012899 0.0043184 -0.0064692
-0.0039897 0.028591 -0.20767 0.19016
980000000 -0.063082 0.28068 0.016496 0.0308 -0.0091371 0.0047522 0.0018469 0.0037349
0.0039034 -0.0013483 -0.0032442 -0.0028169
0.01651 0.030762 -0.21937 0.33256 0.032912 0.0053151 0.0018671 -0.00019034
0.0015831 -0.0059484 -0.00031949 -0.0024692
-0.0090946 0.0047955 0.032976 0.0052066 0.10546 0.30698 0.00041116 -0.0011802
0.00037315 -0.001683 0.0013415 -0.00022275
0.0017956 0.0037018 0.0018271 -0.00018372 0.00042379 -0.0011657 -0.075151 0.26842
0.0063839 0.030503 -0.009726 -0.0081261
0.003858 -0.0014637 0.0015689 -0.0059766 0.00034318 -0.0016769 0.0065459 0.030513
-0.14382 0.16858 0.0049725 0.020817
-0.0035164 -0.0027965 -0.00043869 -0.0024931 0.0014301 -0.0002296 -0.0098248 -0.0080155
0.0049805 0.020837 -0.16751 0.23865
1040000000 -0.022032 0.28995 0.033085 0.020049 -0.00097839 0.0075016 0.002533 0.00072663
0.00040372 -0.0033849 -4.2902e-05 -0.0013576
0.033012 0.020029 -0.18425 0.34693 0.029516 -0.01414 0.00139 -0.0017101
-0.0023823 -0.0023297 -0.0011349 -0.0028511
-0.00096294 0.0074866 0.02949 -0.01425 0.15202 0.29412 -0.00054104 -0.0013344
-0.0015062 -0.0009443 -0.00060786 -0.0011148
0.0025591 0.00068524 0.0014316 -0.0017137 -0.00055253 -0.0013332 -0.047855 0.27842
0.018262 0.019747 -0.0020251 0.0015959
0.00047747 -0.0033122 -0.0024165 -0.0022328 -0.0014954 -0.00092571 0.018264 0.019723
-0.11088 0.17786 0.012959 0.020448
2.6353e-05 -0.0014045 -0.0011303 -0.0028985 -0.00060305 -0.0010916 -0.0019586 0.0014555
0.012899 0.020468 -0.1457 0.25949
1100000000 0.022699 0.30047 0.036703 -0.0027939 0.0035087 0.0039976 0.0025379 -0.0009628
-0.0022681 -0.0031473 -0.0041578 -0.00010026
0.036656 -0.0027678 -0.14092 0.36688 0.015434 -0.027304 -1.8883e-05 -0.0018395
-0.003393 -0.00093484 -0.0036162 -0.00059859
0.003552 0.0039906 0.015349 -0.027408 0.19828 0.27496 -0.0017024 0.00031689
-0.0015881 0.00074336 -0.0010499 -0.000488
0.0024751 -0.00097191 -6.819e-05 -0.0018312 -0.00168 0.00031858 -0.0078034 0.28358
0.024345 0.0068903 -0.0025782 -0.00012483
-0.0023123 -0.0031144 -0.0034388 -0.00090158 -0.0015887 0.00074581 0.024423 0.0068442
-0.094291 0.19504 0.019811 0.010471
-0.0040656 -3.9797e-05 -0.0036311 -0.00056529 -0.0010378 -0.00051354 -0.0026347 -8.5557e-05
0.019829 0.010471 -0.10212 0.29191
1160000000 0.074185 0.29737 0.0252 -0.019914 0.0033744 -0.00065122 -8.7231e-05 -0.0024734
-0.0041047 -0.00092991 -0.0011975 0.0041185
0.025214 -0.019871 -0.096572 0.37206 -0.0033854 -0.028524 -0.001576 -0.0014096
-0.0025544 0.0024923 -0.001535 0.0020344
0.003375 -0.00069034 -0.0035384 -0.028529 0.24213 0.24512 -0.00056901 0.0016392
-0.00037803 0.0017539 -0.0009213 0.00023354
-6.6989e-05 -0.0025073 -0.0015859 -0.0014319 -0.00058516 0.0016295 0.031658 0.28085
0.021874 -0.009416 -0.003621 0.0053052
-0.004087 -0.00079873 -0.0025357 0.0024833 -0.00037303 0.0017445 0.021869 -0.0094422
-0.057825 0.20638 0.019144 0.0015004
-0.0011878 0.0041532 -0.0015377 0.0020129 -0.00092995 0.00023314 -0.0034622 0.005241
0.019128 0.0015457 -0.053371 0.29514
1220000000 0.11788 0.28853 0.012224 -0.029968 -0.0011625 -0.0015055 2.2125e-05 -0.0010296
-0.0027591 0.0023167 0.0012331 0.002033
0.012251 -0.029877 -0.052795 0.38643 -0.016441 -0.020946 -0.0024147 0.00048973
-4.9942e-06 0.0029919 -0.00081533 0.0017833
-0.0011796 -0.0014852 -0.01657 -0.02091 0.28166 0.20692 0.00086032 0.0014286
0.00051442 0.0011226 0.00013934 0.00055246
1.9276e-05 -0.0010487 -0.0024541 0.00049163 0.00086456 0.0014185 0.071138 0.27259
0.01147 -0.016191 0.0022175 0.0015005
-0.0027882 0.0023542 3.5934e-05 0.0030508 0.00049833 0.001123 0.011504 -0.016181
-0.036275 0.21882 0.015388 -0.012091
0.0011992 0.0019605 -0.00083242 0.0018302 0.00016118 0.00055518 0.002202 0.0015248
0.015393 -0.012067 -0.024448 0.31458
1280000000 0.16829 0.26897 -0.0066221 -0.029093 -0.0018894 0.0016275 -0.00098969 -0.0020424
-0.0010215 0.0032981 0.0024341 0.0012884
-0.0065932 -0.02909 -0.0061013 0.37877 -0.023423 -0.0081577 -0.00083087 0.0014074
0.0016091 0.0017546 0.00065365 0.0020445
-0.0019023 0.0016169 -0.02349 -0.0080625 0.3133 0.16376 0.001362 -0.00011855
0.0010171 0.00036818 0.00032881 0.00027918
-0.0010121 -0.0020542 -0.0007869 0.0014436 0.0013759 -0.00013269 0.10779 0.25681
0.0021669 -0.018973 -0.00012788 0.00011093
-0.00099727 0.003331 0.0016101 0.0017557 0.0010334 0.00038503 0.0021117 -0.018985
0.00060399 0.22498 0.0041411 -0.015147
0.0024357 0.0013524 0.00060625 0.0019824 0.00026888 0.00028797 -6.5524e-05 0.00013164
0.004092 -0.015137 0.023953 0.31794
1340000000 0.20598 0.23701 -0.01655 -0.020085 0.00024915 0.0041041 -0.0018287 -0.00072478
0.0015529 0.0029002 0.0017933 -0.0014297
-0.016491 -0.020034 0.033062 0.37185 -0.020677 0.0043195 -0.00015448 0.0019078
0.0017806 0.00089501 0.0011946 0.00082544
0.00027488 0.0041096 -0.020682 0.004429 0.33641 0.11614 0.00077037 -0.00082932
0.00052907 -0.00042612 6.2199e-05 0.00025361
-0.0018062 -0.00075027 -0.00018134 0.0019177 0.00077305 -0.00079379 0.14084 0.23707
-0.0073437 -0.016563 0.0010044 0.00043651
0.0015409 0.0028534 0.001817 0.00087101 0.00051117 -0.00044286 -0.0073331 -0.016567
0.029573 0.22298 -0.0024973 -0.013972
0.0016804 -0.0014381 0.001199 0.00084663 6.7818e-05 0.00024149 0.0010286 0.00045591
-0.0024385 -0.013988 0.061902 0.31495
1400000000 0.24044 0.2007 -0.023293 -0.0088504 0.0046813 0.0030678 -0.00212 0.00074137
0.0025592 0.00095686 0.00038128 -0.0012646
-0.023272 -0.0088991 0.071529 0.36026 -0.014124 0.012135 0.0011959 0.0013572
0.0011316 -0.00057738 0.0011371 0.00025356
0.0047103 0.003074 -0.014096 0.012233 0.35034 0.062086 -8.822e-07 -0.0013369
0.00025065 -0.0001901 0.00048309 0.00024692
-0.0021341 0.00075877 0.0012471 0.0013646 -2.4094e-05 -0.0013917 0.17068 0.20869
-0.013528 -0.010371 -0.00098604 -0.00046649
0.0025656 0.00095434 0.0011195 -0.00056488 0.00029237 -0.00013988 -0.013572 -0.010354
0.062912 0.22242 -0.0091944 -0.0092239
0.00037292 -0.0012596 0.0011348 0.00021614 0.00042134 0.00024814 -0.00098678 -0.00045738
-0.0092059 -0.0092212 0.10697 0.30613
1460000000 0.26461 0.15781 -0.020688 0.0036107 0.0050523 -0.0015765 -0.0015235 0.0017108
0.0021199 -0.00037735 -0.00026232 -0.00085918
-0.020632 0.0036197 0.10636 0.33903 -0.0053404 0.0148 0.0015878 0.00028002
0.0010801 -0.0011826 0.0012295 -0.00053445
0.0050545 -0.0015825 -0.0052681 0.01484 0.35717 0.0069081 -0.0010135 -0.0011405
0.00032602 -0.00022275 0.00060648 -0.00025992
-0.0014867 0.0017142 0.001583 0.00028014 -0.0010312 -0.0010991 0.19776 0.18002
-0.014878 -0.0041149 -0.00099176 0.0018593
0.002116 -0.00041229 0.0010855 -0.0012083 0.00027425 -0.0002442 -0.014893 -0.0040523
0.092555 0.21093 -0.011454 -0.0033674
-0.00022875 -0.00085845 0.0012448 -0.00055702 0.00063811 -0.00030924 -0.00098473 0.0018667
-0.011409 -0.003379 0.14079 0.28648
1520000000 0.27805 0.11692 -0.015564 0.0093942 0.0030909 -0.003749 0.00011742 0.0025965
0.0023101 -0.0018366 -0.0010136 -0.00023753
-0.015577 0.0093681 0.14073 0.3255 0.0020174 0.012106 0.0016798 -0.00067862
0.00020989 -0.0010387 0.00038335 -0.00093536
0.0030675 -0.0037815 0.00209 0.012127 0.34956 -0.050182 -0.0007433 -0.00040585
0.00064051 -0.0010293 0.00014859 -9.5234e-05
0.00011604 0.0025945 0.0016867 -0.0006631 -0.00077207 -0.00041756 0.22175 0.14195
-0.01507 0.0015217 0.0013423 0.0020493
0.0022525 -0.0018407 0.00020315 -0.0010069 0.00068045 -0.0010143 -0.015074 0.0015329
0.12075 0.20079 -0.011472 0.0011034
-0.0010299 -0.00022778 0.0003629 -0.00095028 0.0001467 -4.7242e-05 0.0013394 0.0020383
-0.011461 0.0010844 0.17471 0.268
1580000000 0.28879 0.071647 -0.0091832 0.013168 -0.0011241 -0.0045165 0.0014802 0.0018973
-0.00014325 -0.0022234 -0.00034228 0.00039154
-0.0091427 0.013146 0.169 0.30109 0.0052193 0.0070559 0.0006214 -0.0014886
-0.00043609 -0.0011642 -0.00019304 -0.00073071
-0.0011472 -0.0044897 0.0052769 0.0070321 0.32877 -0.10783 -0.0015055 0.00022836
-0.00037574 -0.0013346 0.00025245 -0.00048314
0.0014634 0.0019291 0.00059569 -0.0014967 -0.0015004 0.00023278 0.23636 0.1025
-0.012011 0.0067859 0.0020742 0.00082972
-0.00015379 -0.0022663 -0.00042841 -0.0011992 -0.00038963 -0.0014064 -0.012011 0.0068202
0.14659 0.1864 -0.0093956 0.0069754
-0.00028772 0.00042486 -0.00017662 -0.0007188 0.0002663 -0.00048405 0.0020958 0.00085138
-0.0094173 0.006983 0.20846 0.24295
1640000000 0.29218 0.030568 -0.0023076 0.012465 -0.0027358 -0.0020879 0.0027538 0.0010576
-0.00052998 -0.0017272 -0.00035825 0.00041818
-0.0023192 0.012455 0.19915 0.27686 0.0053352 0.0023359 -0.0004274 -0.0018489
-0.00095077 -0.00059158 -0.00039382 -0.00071116
-0.0027555 -0.0020739 0.0053596 0.0023133 0.29931 -0.15678 -0.00078303 0.001202
-0.001056 -0.0010903 -7.9376e-05 -0.00038858
0.0027517 0.0010212 -0.00045443 -0.0018556 -0.00082494 0.0012101 0.24964 0.053104
-0.008081 0.0083696 0.002504 -0.00064255
-0.00056237 -0.0017125 -0.00094697 -0.00057554 -0.0010421 -0.0010885 -0.0080593 0.0083693
0.17043 0.16577 -0.0045608 0.0091445
-0.00034227 0.00039431 -0.00041491 -0.0006915 -9.7169e-05 -0.00037388 0.0024989 -0.00064002
-0.0045429 0.0091302 0.23463 0.21278
1700000000 0.28649 -0.014333 0.0013607 0.010001 -0.0032068 0.00047021 0.0030834 -0.0012298
-0.0021524 -0.00078772 0.00055214 0.00046418
0.0013588 0.009964 0.21808 0.24548 0.0027628 -0.00025179 -0.0014518 -0.00077001
-0.0009082 -0.00016284 -0.00077212 -0.00044853
-0.0032294 0.00049565 0.0027715 -0.00027123 0.25521 -0.19547 0.00012662 0.0016532
-0.0021495 -0.00027483 -0.00033585 -0.00071006
0.0030487 -0.0012118 -0.0014639 -0.00077531 0.00015441 0.0016259 0.24652 0.002666
-0.0053458 0.0095416 0.0017387 -0.0019646
-0.0021539 -0.00076112 -0.00091403 -0.00017397 -0.0021331 -0.0002842 -0.005379 0.0095788
0.19023 0.14895 4.9171e-05 0.0094226
0.00056027 0.0004498 -0.00075517 -0.00045209 -0.00032449 -0.00072624 0.0017193 -0.0020138
1.757e-05 0.0094368 0.25273 0.17933
1760000000 0.27585 -0.063281 0.0040719 0.0069161 -0.0018886 0.0011771 0.0013786 -0.0034684
-0.0012476 0.00048726 0.00014825 -0.00052809
0.0040656 0.0069101 0.24471 0.20592 0.00019541 -0.0016093 -0.0012799 1.8565e-05
-0.0012001 0.0009753 -0.00056216 0.00026531
-0.0018885 0.0011913 0.000185 -0.0016161 0.20641 -0.22721 0.0010768 0.0015099
-0.0011234 0.0014456 -0.0012397 -0.00075922
0.0014316 -0.0034933 -0.0012578 2.9608e-05 0.0010738 0.0015063 0.23783 -0.049532
-0.0015904 0.009176 -0.00021748 -0.0024769
-0.0012404 0.00051055 -0.0011953 0.0009906 -0.0011268 0.00146 -0.0015124 0.0091834
0.20725 0.11727 0.0038873 0.0070451
0.00014443 -0.00052127 -0.00055436 0.00027432 -0.0012694 -0.00077188 -0.0002258 -0.0024612
0.0039337 0.0070294 0.26629 0.14228
1820000000 0.25263 -0.10125 0.0046068 0.0032937 0.00021986 0.002362 -0.00089696 -0.0030766
-0.0012029 0.00088139 3.9578e-05 -0.00011997
0.004585 0.0033005 0.25548 0.1761 -0.0019343 9.028e-05 -0.001495 0.00097312
-4.4502e-05 0.0013223 -0.0007168 0.0004529
0.0002305 0.0023483 -0.0019466 9.5171e-05 0.15677 -0.24192 0.0016384 0.00065726
-0.00035671 0.0024462 -0.0018314 0.0002454
-0.00097634 -0.0030696 -0.0014886 0.000964 0.001682 0.00065397 0.20762 -0.097365
0.00043883 0.0078315 -0.0015164 -0.0016183
-0.0012108 0.00087977 -4.5629e-05 0.001313 -0.00035272 0.0024315 0.00039504 0.0078175
0.22793 0.090827 0.0049026 0.0034595
3.033e-05 -0.0001116 -0.00071542 0.00045659 -0.0018008 0.00026973 -0.001472 -0.0016211
0.0048789 0.0034671 0.27027 0.10719
1880000000 0.21799 -0.14225 0.0025623 0.00086281 -0.00023586 0.0022391 -0.002854 -0.0023217
-0.00031189 0.0016314 0.00032656 -0.00055235
0.0025623 0.00086011 0.26007 0.12966 -0.0038775 0.0028565 -0.00035519 0.0018275
0.00058043 0.0013545 0.00013232 0.0010354
-0.00023422 0.002228 -0.0038688 0.0028839 0.10512 -0.24974 0.0021 -0.0011756
0.0017316 0.0020134 -0.00098628 0.0015396
-0.0028568 -0.0023251 -0.00034837 0.0018055 0.0020634 -0.0012238 0.16644 -0.1375
0.001588 0.0057486 -0.0022505 0.00020326
-0.00030594 0.0016539 0.0006075 0.0013529 0.0017326 0.0020046 0.0016132 0.0057502
0.23483 0.061539 0.0053829 0.0015595
0.0003311 -0.0005875 0.0001382 0.0010291 -0.0010024 0.0015446 -0.0022667 0.00021033
0.0054223 0.0015321 0.27159 0.073607
1940000000 0.17932 -0.1686 0.00049479 -0.00099388 0.0016753 0.0018581 -0.0038992 0.00016992
0.0010784 0.00098762 -0.00070104 -0.00080173
0.00049073 -0.00099515 0.26161 0.098451 -0.0019606 0.0057431 0.0010878 0.001422
0.0020582 0.00032391 0.00093363 0.00024518
0.0017179 0.0018771 -0.0019346 0.0057737 0.061107 -0.24169 0.00043649 -0.0024631
0.002299 0.00026658 0.00020985 0.001621
-0.0039768 0.00021924 0.0011214 0.0014357 0.00045325 -0.0024611 0.11405 -0.16866
0.0012269 0.0038084 -0.0014175 0.0014587
0.0010802 0.00098176 0.0020621 0.00031033 0.0022974 0.00022655 0.0011964 0.0037591
0.24156 0.024963 0.0042484 -0.0024858
-0.00068576 -0.00079144 0.00093727 0.00023925 0.00022042 0.0016054 -0.0013025 0.0014004
0.0042495 -0.0024888 0.26238 0.037414
2000000000 0.13327 -0.18352 -0.0032106 0.0008228 0.0029245 0.0011203 -0.0025649 0.0036747
0.00090132 0.00044732 -0.00097527 0.00053246
-0.0032169 0.00082703 0.24809 0.063077 -0.00039253 0.0078065 0.0016661 0.00035896
0.001106 -0.0013446 0.00046922 6.0116e-05
0.0028943 0.0010885 -0.00033337 0.0078261 0.019999 -0.22749 -0.0015304 -0.0016069
0.002033 -0.0010864 0.0016409 0.0013793
-0.0025369 0.0036572 0.0016422 0.00033898 -0.0015414 -0.0016444 0.059697 -0.17809
-0.0007627 0.0033273 -0.00019192 0.0019955
0.00089704 0.00038553 0.0010985 -0.0013568 0.002035 -0.0010844 -0.00073638 0.0033301
0.24002 -0.0081097 0.00072648 -0.0033248
