!Keysight Technologies,M9804A,MY58100912,A.14.10.03
!Date: Thursday, April 27, 2023 10:28:33
!Correction: S11(C  6-Port  ) 
!S12(C  6-Port  ) 
!S13(C  6-Port  ) 
!S14(C  6-Port  ) 
!S15(C  6-Port  ) 
!S16(C  6-Port  ) 
!S21(C  6-Port  ) 
!S22(C  6-Port  ) 
!S23(C  6-Port  ) 
!S24(C  6-Port  ) 
!S25(C  6-Port  ) 
!S26(C  6-Port  ) 
!S31(C  6-Port  ) 
!S32(C  6-Port  ) 
!S33(C  6-Port  ) 
!S34(C  6-Port  ) 
!S35(C  6-Port  ) 
!S36(C  6-Port  ) 
!S41(C  6-Port  ) 
!S42(C  6-Port  ) 
!S43(C  6-Port  ) 
!S44(C  6-Port  ) 
!S45(C  6-Port  ) 
!S46(C  6-Port  ) 
!S51(C  6-Port  ) 
!S52(C  6-Port  ) 
!S53(C  6-Port  ) 
!S54(C  6-Port  ) 
!S55(C  6-Port  ) 
!S56(C  6-Port  ) 
!S61(C  6-Port  ) 
!S62(C  6-Port  ) 
!S63(C  6-Port  ) 
!S64(C  6-Port  ) 
!S65(C  6-Port  ) 
!S66(C  6-Port  ) 
!S6P File: Measurement: :
# Hz S  RI   R 50
500000000 -0.32692 -0.063118 -0.010515 -0.0016941 -0.0087245 0.011923 -0.004062 0.011345
0.013311 0.0064541 -0.0052631 0.0080434
-0.010696 -0.0017089 -0.40785 -0.074242 0.0085216 -0.011017 0.0013312 0.011498
0.008565 0.0031244 0.00087299 0.013495
-0.0087628 0.011799 0.0085239 -0.01101 -0.25556 0.19138 0.007048 0.0028995
-0.0022461 0.0077275 0.0014682 0.012076
-0.0041155 0.011632 0.001393 0.011774 0.0070579 0.003012 -0.32539 0.041986
-0.02095 -0.0048804 0.017141 0.026669
0.012893 0.005877 0.0084919 0.0029434 -0.0022374 0.0076355 -0.020681 -0.0052198
-0.21318 -0.2396 -0.029582 0.0043646
-0.0050826 0.0083619 0.0011406 0.013574 0.0014925 0.011784 0.016696 0.026404
-0.029601 0.004385 -0.25901 -0.14541
560000000 -0.31478 0.10527 -0.020841 -0.067355 -2.3033e-05 0.013411 0.0059379 0.011267
0.010372 0.005343 0.011346 0.010814
-0.021071 -0.067467 -0.37119 0.090014 -0.040143 -0.039789 0.013167 0.0032578
-0.013478 -0.0060209 0.0045038 -0.00043015
0.00017488 0.013174 -0.04022 -0.039615 -0.18154 0.242 0.00011206 -0.0053021
0.018124 0.0065821 0.0078493 -0.0058491
0.0057353 0.011428 0.012946 0.0032435 0.0001162 -0.0053051 -0.30405 0.13104
0.0069992 -0.021797 0.0050978 -0.021454
0.010761 0.0059476 -0.013362 -0.0056446 0.018201 0.0064445 0.0068725 -0.021457
-0.29924 -0.055579 0.010583 -0.051184
0.011447 0.010543 0.004538 -0.00052781 0.0081853 -0.0058566 0.0049239 -0.021396
0.010389 -0.051247 -0.32943 0.0059014
620000000 -0.2751 0.081389 -0.02341 0.0090941 0.0034492 0.0089298 0.0083736 -0.0050789
0.012058 0.00031592 0.00082797 -0.0015036
-0.023394 0.0089603 -0.39918 0.035951 -0.019275 0.00010007 -0.0018264 -0.0023232
0.012596 -0.0051304 0.00091306 -0.0032342
0.0034673 0.0088149 -0.019332 0.00013282 -0.15474 0.25012 -0.001357 -0.0053496
-0.0042012 -0.0025179 0.0087042 -0.0032482
0.0081807 -0.0052622 -0.0018094 -0.0023393 -0.0013717 -0.0052789 -0.26085 0.14077
-0.039768 -0.020974 0.012164 0.028862
0.012206 -5.7386e-05 0.012638 -0.0051635 -0.0042314 -0.0024204 -0.039648 -0.020733
-0.21442 -0.092796 -0.043383 0.011262
0.00093115 -0.0022823 0.00087722 -0.0031573 0.0086281 -0.0031011 0.01258 0.029073
-0.043789 0.01108 -0.24543 -0.033489
680000000 -0.24046 0.17387 -0.026299 -0.015133 0.0045648 0.005311 0.0012027 -0.0070618
-0.0014591 -0.011965 0.0056463 -0.0065083
-0.026204 -0.015063 -0.38995 0.13741 -0.032497 -0.0018895 -0.0014779 -0.00041615
-0.0015236 -0.0092101 -0.0011369 -0.0020694
0.0046411 0.0052102 -0.03255 -0.0018139 -0.10757 0.27331 -0.00080372 5.9777e-05
-0.0015195 0.00081547 -0.0029731 -0.0093177
0.0014579 -0.0071463 -0.0014168 -0.0004121 -0.00087316 2.6781e-05 -0.21904 0.19331
-0.022737 -0.0073398 -0.0085622 -0.012623
-0.0015794 -0.011723 -0.001639 -0.0092056 -0.001489 0.0008689 -0.022694 -0.0073434
-0.28208 0.007459 -0.0049525 -0.0066364
0.0059919 -0.0070239 -0.0012575 -0.0020743 -0.0030976 -0.0092909 -0.0087131 -0.012269
-0.0048652 -0.0071577 -0.26054 0.072101
740000000 -0.19473 0.16729 -0.040839 0.026282 0.013244 -0.0035653 -0.00018868 -0.0045319
-0.0043652 -0.0017016 -0.006429 0.003088
-0.040875 0.026349 -0.33588 0.15731 -0.036809 0.034181 0.00031483 -0.0054779
-0.012813 0.0067093 -0.00069949 -0.0049922
0.013236 -0.0036609 -0.036749 0.034363 -0.074329 0.27394 -0.0020828 0.0031089
-0.0010315 -0.005176 -0.0020783 0.00068652
-5.0535e-05 -0.0042372 0.00032147 -0.0054595 -0.0019789 0.003123 -0.20201 0.19994
-0.042577 -0.010131 0.022053 0.016677
-0.004241 -0.0015393 -0.013016 0.0067372 -0.0010392 -0.0051919 -0.042431 -0.0098528
-0.17929 0.043989 -0.044811 -0.0027341
-0.0063071 0.0031754 -0.00048882 -0.0052948 -0.0018673 0.00069678 0.022155 0.016594
-0.044713 -0.0023546 -0.2521 0.077861
800000000 -0.16644 0.21276 -0.022742 0.015885 0.0054041 -0.010094 -0.0043888 -0.0023651
-0.0041139 0.0012465 0.0040452 0.00056133
-0.022765 0.015612 -0.3446 0.22821 -0.0088032 0.034231 -0.0021134 0.0020494
-0.00014495 0.0021029 0.00059752 0.0053144
0.0053595 -0.010234 -0.0086838 0.034334 -0.035935 0.30006 0.0011499 0.0011868
9.5101e-05 0.0031105 -0.0016474 0.00063319
-0.0043152 -0.002532 -0.0021745 0.0020446 0.001091 0.0011478 -0.17334 0.22801
-0.02919 0.012727 0.014745 -0.010465
-0.0044159 0.0013923 -0.00020098 0.0021097 0.00012973 0.0031745 -0.029066 0.012765
-0.23424 0.065871 -0.019249 0.020931
0.0043647 0.00087076 0.00072489 0.0055936 -0.0017318 0.00076487 0.014937 -0.010471
-0.019196 0.021025 -0.24881 0.12781
860000000 -0.13241 0.23455 -0.018802 0.030619 -0.0034183 -0.0098936 -0.0022845 0.00046788
0.0039092 0.0051593 -0.0032735 -0.0032033
-0.018718 0.03053 -0.2979 0.27315 0.0072868 0.034228 0.00019665 0.0022432
0.0039125 0.000264 0.0036257 0.00020899
-0.0034545 -0.0099431 0.0074228 0.034239 0.01255 0.31009 -0.00061291 -0.00041713
0.0026097 -0.0018325 0.0017012 0.0042932
-0.0021794 0.00053472 0.00022458 0.0021349 -0.00059038 -0.00044241 -0.1375 0.23969
-0.018673 0.017215 -0.006715 -0.0092524
0.004228 0.0053226 0.004011 0.00020848 0.0026077 -0.0018425 -0.018763 0.017301
-0.1795 0.12771 -0.026282 0.015983
-0.0034835 -0.0034802 0.0032446 0.00022953 0.0016024 0.004153 -0.0070758 -0.0094376
-0.026339 0.015807 -0.1985 0.17794
920000000 -0.10954 0.25798 0.0041583 0.039286 -0.0092732 -0.004398 -0.0020665 0.0017065
0.00015444 0.0014614 0.0030206 -0.0012614
0.004073 0.039171 -0.2713 0.29509 0.027734 0.022887 0.0012764 0.0010862
0.006915 -0.0001744 0.0038733 -0.0030111
-0.0092955 -0.0043502 0.027862 0.02281 0.058859 0.31208 0.001665 -0.00014654
0.00048113 -0.00021968 0.00085856 -0.0013066
-0.0020898 0.0017779 0.0013386 0.0010651 0.0016797 -9.9198e-05 -0.11345 0.25692
-0.01282 0.03065 0.0042229 -0.0065053
0.00024032 0.0015607 0.0069152 2.8478e-06 0.00051218 -0.00028113 -0.012686 0.030576
-0.17307 0.13152 -0.0037995 0.028701
0.003178 -0.001351 0.0039039 -0.0030819 0.00095297 -0.0013281 0.0042584 -0.0064286
-0.0037797 0.02857 -0.20842 0.18987
980000000 -0.063054 0.28032 0.016533 0.030715 -0.0091688 0.0047351 0.0019688 0.0036928
0.003949 -0.0011849 -0.0035131 -0.0028651
0.016513 0.030658 -0.21932 0.33252 0.032825 0.005331 0.0019622 -0.00024725
0.0016758 -0.0057842 -0.00050868 -0.0027355
-0.0091702 0.0047667 0.032924 0.0052221 0.1054 0.30694 0.00046032 -0.0011489
0.00029761 -0.0016736 0.0014586 -0.00030356
0.0020588 0.0035846 0.0019744 -0.00029296 0.00045611 -0.0011446 -0.07522 0.26839
0.0065706 0.030287 -0.0098301 -0.0076252
0.0039658 -0.0012356 0.0017227 -0.0058274 0.00031948 -0.0016561 0.0066248 0.030305
-0.1437 0.16882 0.0045184 0.020751
-0.003835 -0.0029302 -0.00058481 -0.0027192 0.0014597 -0.00031811 -0.0099388 -0.007704
0.0045537 0.020863 -0.16682 0.23878
1040000000 -0.021797 0.29008 0.033115 0.01999 -0.00095269 0.0074242 0.0025698 0.00067331
0.00034631 -0.0034055 5.4416e-05 -0.0011785
0.033017 0.019988 -0.18426 0.34687 0.029524 -0.014105 0.0014837 -0.0017267
-0.0023754 -0.0022635 -0.0012312 -0.0027755
-0.000933 0.0074423 0.029517 -0.014273 0.15195 0.2941 -0.00057759 -0.0013361
-0.0015135 -0.00095892 -0.00058226 -0.0010647
0.0024805 0.0007761 0.0014455 -0.0017329 -0.00058006 -0.0013494 -0.047848 0.27831
0.018371 0.01975 -0.0022018 0.001262
0.00047155 -0.0033012 -0.0023997 -0.0022563 -0.0014962 -0.00096181 0.018411 0.019719
-0.11105 0.17758 0.01324 0.020548
0.00021839 -0.0012101 -0.0011445 -0.0027272 -0.00058881 -0.0010212 -0.0019579 0.0013089
0.013083 0.020492 -0.14611 0.2591
1100000000 0.022546 0.30059 0.036764 -0.0027972 0.003512 0.004057 0.0024488 -0.0010041
-0.0022901 -0.0030625 -0.0041169 -5.4492e-05
0.03661 -0.0027511 -0.14089 0.36682 0.015447 -0.027297 -6.0742e-05 -0.0017972
-0.003383 -0.00082947 -0.003642 -0.00054572
0.0035121 0.0040646 0.015374 -0.027418 0.19821 0.27498 -0.001716 0.00028903
-0.0015886 0.00067988 -0.0010611 -0.00047043
0.0024717 -0.0010581 -6.8976e-05 -0.0018268 -0.0017341 0.0003005 -0.0077219 0.28355
0.024517 0.0068597 -0.0024803 -0.00013355
-0.0023332 -0.0031088 -0.0033807 -0.00080746 -0.0015976 0.00067484 0.024511 0.0068495
-0.093711 0.19559 0.019351 0.010201
-0.0041744 -5.5102e-05 -0.0036758 -0.00049337 -0.0010344 -0.00051142 -0.0026044 -0.00012918
0.019368 0.010072 -0.10127 0.29191
1160000000 0.07408 0.29729 0.025248 -0.019893 0.0033762 -0.00073413 -5.5074e-05 -0.0024976
-0.0041254 -0.00097718 -0.0011938 0.0041617
0.025182 -0.019912 -0.09675 0.372 -0.0034474 -0.028499 -0.0015623 -0.0014247
-0.0027069 0.0025567 -0.0015191 0.0018501
0.0033784 -0.00074574 -0.0035741 -0.028538 0.24201 0.24513 -0.0006023 0.0016637
-0.0003105 0.0017796 -0.00091178 0.00027282
-0.00015966 -0.0024408 -0.0015205 -0.0014095 -0.0006197 0.0016315 0.031587 0.28076
0.021878 -0.009388 -0.003514 0.0051978
-0.0041218 -0.001016 -0.0026492 0.0025351 -0.00032974 0.001769 0.021884 -0.0093925
-0.058006 0.20675 0.019236 0.0015692
-0.001156 0.004138 -0.0015589 0.0018162 -0.00093387 0.00029674 -0.0034035 0.0052058
0.019298 0.0016832 -0.054004 0.29529
1220000000 0.11779 0.28848 0.012196 -0.02992 -0.0011394 -0.0015019 -6.8961e-05 -0.0010653
-0.0026712 0.002278 0.0010888 0.0020631
0.012218 -0.029886 -0.052872 0.38643 -0.016452 -0.020917 -0.0024704 0.00049886
4.7988e-05 0.0029734 -0.00077357 0.0019135
-0.0011626 -0.0014932 -0.016566 -0.020874 0.28155 0.20696 0.00086175 0.0013984
0.00050542 0.0011546 0.00019564 0.00055198
-3.042e-05 -0.0010892 -0.0024771 0.00050979 0.00087269 0.0014109 0.071008 0.27263
0.011491 -0.016195 0.0022599 0.00153
-0.0026812 0.0022959 7.095e-05 0.0029611 0.00055834 0.0011472 0.011464 -0.016252
-0.036296 0.21874 0.015319 -0.012273
0.0011066 0.0019937 -0.00075214 0.0018961 0.00022661 0.00052272 0.0022011 0.0015676
0.015314 -0.01226 -0.024309 0.31446
1280000000 0.16822 0.26903 -0.0065811 -0.029125 -0.001937 0.0016047 -0.00096305 -0.0019828
-0.0011206 0.0033277 0.0025172 0.0013397
-0.006623 -0.02908 -0.0061423 0.37869 -0.023414 -0.0082 -0.00076835 0.0014016
0.0016565 0.0018373 0.00056495 0.0019716
-0.0019351 0.0016452 -0.023492 -0.0081102 0.31319 0.16388 0.0013744 -0.00015111
0.0010665 0.00037319 0.00020206 0.00031994
-0.0010051 -0.0019751 -0.00076028 0.0014181 0.0013492 -0.00015784 0.10762 0.25692
0.0021104 -0.019071 -5.8232e-05 0.00019982
-0.0010685 0.0032845 0.0016886 0.0017943 0.0010648 0.00036254 0.0021169 -0.019083
0.00038562 0.22477 0.0039851 -0.01501
0.0025218 0.0013551 0.00055505 0.0020021 0.00021278 0.00036988 -4.6189e-05 0.00019728
0.0039557 -0.01504 0.024079 0.31793
1340000000 0.20596 0.23701 -0.016616 -0.020022 0.00032998 0.0041066 -0.0018329 -0.00074074
0.0015173 0.0026368 0.0017577 -0.0013803
-0.016568 -0.020095 0.033047 0.37187 -0.020676 0.0042836 -0.00018059 0.0019131
0.0017069 0.00089721 0.0011562 0.00075232
0.00030875 0.0041069 -0.020686 0.0043943 0.3364 0.11615 0.00078644 -0.00083974
0.00048966 -0.00046761 0.00013436 0.00021732
-0.0017664 -0.00073808 -0.00018647 0.0019 0.00077754 -0.00081955 0.14083 0.23705
-0.0072346 -0.016686 0.0010719 0.00036506
0.0016122 0.002734 0.0017666 0.00092562 0.00049613 -0.00049778 -0.0072711 -0.016695
0.029484 0.22323 -0.002401 -0.013911
0.0016256 -0.0013757 0.001163 0.00075136 0.00012859 0.00024792 0.0010724 0.00040311
-0.0023704 -0.013932 0.061582 0.31493
1400000000 0.24031 0.20081 -0.02327 -0.0088655 0.0045992 0.0030781 -0.0020771 0.00078336
0.002596 0.0010303 0.00037884 -0.0013167
-0.023206 -0.0088468 0.07144 0.36027 -0.014139 0.012163 0.0011971 0.001362
0.001161 -0.00059404 0.001126 0.00025429
0.0046432 0.0030569 -0.014094 0.012274 0.35024 0.062088 -1.2386e-05 -0.0013519
0.00019099 -0.00018581 0.00046622 0.00024397
-0.0021275 0.00079205 0.0012528 0.0013368 -5.889e-06 -0.001352 0.17061 0.20874
-0.013539 -0.010391 -0.00093847 -0.00046709
0.002567 0.0010599 0.0011569 -0.00060555 0.00018881 -0.0002007 -0.01353 -0.010385
0.063052 0.22241 -0.0092806 -0.0091468
0.0003994 -0.001326 0.001121 0.0002446 0.00048063 0.00024507 -0.00095585 -0.00043463
-0.009236 -0.0091786 0.10734 0.30608
1460000000 0.26453 0.15785 -0.020665 0.0036313 0.0050586 -0.001532 -0.001512 0.0017059
0.0021356 -0.00043192 -0.0002089 -0.00086061
-0.020688 0.0036135 0.10632 0.339 -0.0052976 0.01477 0.0016213 0.00026505
0.0010646 -0.0012348 0.001222 -0.00046568
0.0050471 -0.0015357 -0.0052295 0.014831 0.35709 0.0069154 -0.0010068 -0.0011261
0.00029584 -0.00024327 0.00062433 -0.00016218
-0.001478 0.0017401 0.0016059 0.00027361 -0.0010236 -0.0011039 0.19778 0.18002
-0.01486 -0.0040449 -0.0010153 0.0018149
0.0021389 -0.00040831 0.0010705 -0.001258 0.00027644 -0.00022554 -0.01492 -0.0040111
0.092497 0.21104 -0.011266 -0.0034488
-0.00024157 -0.00092501 0.0012085 -0.00049031 0.00066192 -0.00012837 -0.001021 0.0017141
-0.011209 -0.0034641 0.14079 0.2866
1520000000 0.27797 0.11709 -0.015567 0.0093931 0.0031245 -0.003774 0.00010827 0.002626
0.0023624 -0.0018212 -0.0010387 -0.00016754
-0.01555 0.009369 0.14067 0.3255 0.0020267 0.012106 0.0016489 -0.0006643
0.00018214 -0.0010289 0.00038474 -0.0009481
0.0030947 -0.0037676 0.0021003 0.01211 0.34954 -0.05012 -0.00078056 -0.0004158
0.00070952 -0.0010011 9.3668e-05 -6.1894e-05
9.3917e-05 0.0025885 0.0016641 -0.00067959 -0.00075783 -0.00043389 0.22172 0.14195
-0.015046 0.0014982 0.001321 0.0020578
0.0023639 -0.001806 0.00016844 -0.0010612 0.00068695 -0.0010326 -0.015052 0.0015239
0.12097 0.20081 -0.011557 0.0010529
-0.0010573 -0.00014812 0.00041634 -0.00095448 6.0383e-05 -7.6952e-05 0.0013567 0.0020648
-0.011534 0.0010555 0.17478 0.26815
1580000000 0.28877 0.071611 -0.0091838 0.013145 -0.0011256 -0.0045037 0.0014936 0.0018353
-0.00019588 -0.0022209 -0.0001893 0.00036693
-0.0091818 0.013136 0.16892 0.30104 0.0052194 0.0070457 0.00063329 -0.0014914
-0.00044563 -0.0011442 -0.00019505 -0.00073367
-0.0011471 -0.0044927 0.0052625 0.0070304 0.32872 -0.1077 -0.0014821 0.00024366
-0.00038806 -0.0012838 0.00028759 -0.00046294
0.0015056 0.0018708 0.00060886 -0.0014882 -0.0015015 0.00025598 0.2364 0.10252
-0.012035 0.0068361 0.0020494 0.00081322
-0.00016368 -0.002213 -0.00043156 -0.0011536 -0.00036423 -0.0012899 -0.012035 0.0068564
0.14644 0.1864 -0.0091958 0.0070496
-0.00018664 0.00033804 -0.00018264 -0.00071368 0.00033875 -0.00049243 0.0020545 0.00079753
-0.0091998 0.0070433 0.20829 0.24283
1640000000 0.29214 0.030707 -0.0022973 0.012433 -0.0027046 -0.0020891 0.0027482 0.0010945
-0.00052332 -0.0017131 -0.00037266 0.00041022
-0.0023101 0.012419 0.19908 0.27686 0.0053348 0.0023231 -0.00046198 -0.0018492
-0.0009639 -0.00060571 -0.00042794 -0.00069908
-0.0027268 -0.0020652 0.0053614 0.0022938 0.29933 -0.15688 -0.00076387 0.0011835
-0.0010081 -0.0011522 -0.00016141 -0.00041927
0.0027429 0.0010774 -0.0004728 -0.0018498 -0.00077134 0.0011892 0.24956 0.053139
-0.0080506 0.0083211 0.0024798 -0.00058504
-0.00053355 -0.0017299 -0.00096989 -0.00060283 -0.0010527 -0.0011175 -0.0080377 0.0083556
0.17061 0.16566 -0.0046789 0.0091771
-0.00036632 0.00048629 -0.00042981 -0.00068875 -9.8672e-05 -0.00038316 0.0024959 -0.00058002
-0.0046664 0.0091611 0.23478 0.21278
1700000000 0.28652 -0.014309 0.0013668 0.0099538 -0.0032065 0.0004462 0.0031074 -0.0012131
-0.0021196 -0.00073565 0.00055316 0.000452
0.0013645 0.0099592 0.21807 0.24547 0.0027445 -0.00029733 -0.0014541 -0.00076068
-0.000852 -0.00014358 -0.00078636 -0.00043715
-0.0032092 0.00046616 0.002729 -0.00030951 0.25509 -0.19547 0.00010561 0.0016423
-0.0020518 -0.00019779 -0.00035334 -0.00077066
0.0031207 -0.0012708 -0.0014708 -0.00075592 9.3946e-05 0.0016602 0.24653 0.002672
-0.0053167 0.0095678 0.001691 -0.0020306
-0.0021099 -0.00075918 -0.00087185 -0.00012676 -0.0020819 -0.00018417 -0.0053229 0.0095848
0.1901 0.14894 8.7453e-05 0.0093851
0.00051317 0.00043888 -0.00078917 -0.00045348 -0.00037183 -0.00078046 0.001754 -0.0020739
0.00010032 0.0094165 0.25264 0.17948
1760000000 0.27585 -0.063169 0.0040727 0.0069049 -0.0019649 0.0011535 0.0013339 -0.0034123
-0.0012699 0.00049671 0.00026428 -0.00048834
0.004047 0.0069236 0.24462 0.20592 0.00019613 -0.0016563 -0.0012779 1.3423e-05
-0.0012096 0.00099735 -0.00052748 0.00030136
-0.0019858 0.0011927 0.00018568 -0.0016439 0.20654 -0.2272 0.0010947 0.0014653
-0.0011947 0.0014596 -0.0012284 -0.00059822
0.0013053 -0.0034671 -0.0012842 1.7215e-06 0.0011097 0.00144 0.23776 -0.049541
-0.001665 0.0090764 -9.026e-05 -0.0023938
-0.001219 0.00049662 -0.0011911 0.00099069 -0.0011523 0.0014265 -0.0015721 0.0090758
0.20736 0.11719 0.0039217 0.0071258
0.00023551 -0.00056216 -0.00051829 0.00030363 -0.0012676 -0.00060211 -0.00012712 -0.002355
0.0038787 0.00708 0.2665 0.14228
1820000000 0.25268 -0.1011 0.0046148 0.0033154 0.00030439 0.0022735 -0.00086842 -0.0030842
-0.0012314 0.00088258 -5.8563e-05 -7.053e-06
0.0046143 0.0033073 0.25542 0.17616 -0.0019339 9.4623e-05 -0.0014798 0.0009384
-5.7808e-05 0.001282 -0.00073342 0.00045359
0.00030135 0.0022704 -0.0019188 8.2898e-05 0.15684 -0.24206 0.0016756 0.00056676
-0.00034563 0.0023219 -0.0016745 0.00023662
-0.00088286 -0.0030825 -0.0014771 0.00095356 0.0016695 0.00057204 0.20751 -0.097311
0.00032854 0.0079023 -0.0015382 -0.0016454
-0.0011993 0.00090362 -4.1107e-05 0.0013071 -0.00033151 0.0023718 0.0003065 0.007886
0.22783 0.090899 0.0049529 0.0034542
-6.6947e-05 -3.6016e-05 -0.0007399 0.00044882 -0.001661 0.00026196 -0.0014872 -0.0016794
0.0049942 0.0034546 0.27014 0.10743
1880000000 0.21803 -0.14212 0.0025364 0.0008778 -0.00026006 0.0021913 -0.0028614 -0.0023655
-0.00028035 0.0015938 0.00034204 -0.00061272
0.0025352 0.00087984 0.26002 0.12973 -0.003845 0.0028831 -0.00032475 0.0018687
0.00061794 0.0013861 7.5177e-05 0.0010088
-0.00024122 0.0021838 -0.0038597 0.0029148 0.10501 -0.24978 0.0021088 -0.0011253
0.001697 0.0020582 -0.0009329 0.0015414
-0.002899 -0.0023847 -0.00033022 0.0018315 0.0021255 -0.0010987 0.16645 -0.13752
0.0015623 0.0056131 -0.0022168 0.00032928
-0.00029142 0.0016571 0.00063509 0.0013641 0.0017021 0.0021031 0.0016081 0.0056649
0.23485 0.0615 0.005441 0.0016379
0.00033659 -0.00057937 0.00010092 0.0010529 -0.00089839 0.0014359 -0.0022497 0.00035124
0.0054019 0.0016205 0.27161 0.073364
1940000000 0.17927 -0.16847 0.00048539 -0.00097836 0.0017412 0.0018438 -0.0039655 0.00018306
0.0010814 0.00094763 -0.00077701 -0.00078801
0.00047033 -0.00097663 0.2615 0.098468 -0.0019434 0.0057686 0.0010862 0.0014297
0.0020418 0.00030233 0.0009535 0.0002538
0.001761 0.0018611 -0.0019219 0.0057847 0.061216 -0.24157 0.00044173 -0.0024315
0.0023365 0.00026581 0.00026189 0.0016262
-0.0039904 0.00020912 0.0010627 0.0014377 0.00039888 -0.002376 0.11378 -0.16837
0.0010605 0.0039398 -0.001353 0.0012002
0.00098153 0.00090066 0.0020543 0.00029683 0.0023232 0.00029216 0.0010549 0.0039174
0.24162 0.024954 0.0043657 -0.0025981
-0.00076717 -0.00074267 0.00092497 0.000233 0.00033016 0.0015919 -0.0012675 0.0011736
0.0043627 -0.0025899 0.26241 0.037622
2000000000 0.13345 -0.1835 -0.0031989 0.00091121 0.0029086 0.0011585 -0.0026195 0.0036784
0.00079982 0.00047919 -0.00091669 0.00049877
-0.0031606 0.00090542 0.24812 0.063136 -0.00041562 0.0077958 0.0016395 0.0003201
0.0011023 -0.0013572 0.00043812 3.4279e-07
0.0029128 0.001136 -0.00035275 0.0078276 0.02006 -0.22732 -0.0015938 -0.0014942
0.0019651 -0.001052 0.0015087 0.0013794
-0.0026058 0.0036625 0.0016741 0.00033369 -0.0015593 -0.0014874 0.05966 -0.17787
-0.00080639 0.0034039 -0.00011158 0.002071
0.00084715 0.0004492 0.0010893 -0.0013635 0.0019879 -0.0010158 -0.0007685 0.0034291
0.24007 -0.0080529 0.00071559 -0.003455
