!Keysight Technologies,M9804A,MY58100912,A.14.10.03
!Date: Thursday, April 27, 2023 10:28:33
!Correction: S11(C  6-Port  ) 
!S12(C  6-Port  ) 
!S13(C  6-Port  ) 
!S14(C  6-Port  ) 
!S15(C  6-Port  ) 
!S16(C  6-Port  ) 
!S21(C  6-Port  ) 
!S22(C  6-Port  ) 
!S23(C  6-Port  ) 
!S24(C  6-Port  ) 
!S25(C  6-Port  ) 
!S26(C  6-Port  ) 
!S31(C  6-Port  ) 
!S32(C  6-Port  ) 
!S33(C  6-Port  ) 
!S34(C  6-Port  ) 
!S35(C  6-Port  ) 
!S36(C  6-Port  ) 
!S41(C  6-Port  ) 
!S42(C  6-Port  ) 
!S43(C  6-Port  ) 
!S44(C  6-Port  ) 
!S45(C  6-Port  ) 
!S46(C  6-Port  ) 
!S51(C  6-Port  ) 
!S52(C  6-Port  ) 
!S53(C  6-Port  ) 
!S54(C  6-Port  ) 
!S55(C  6-Port  ) 
!S56(C  6-Port  ) 
!S61(C  6-Port  ) 
!S62(C  6-Port  ) 
!S63(C  6-Port  ) 
!S64(C  6-Port  ) 
!S65(C  6-Port  ) 
!S66(C  6-Port  ) 
!S6P File: Measurement: :
# Hz S  RI   R 50
500000000 -0.32715 -0.06044 -0.010274 -0.0014087 -0.0082684 0.01179 -0.0039581 0.011893
0.013379 0.0059168 -0.0048758 0.0083603
-0.01055 -0.0013155 -0.40859 -0.071925 0.0075826 -0.011271 0.00067373 0.011714
0.0095068 0.0030953 0.0007256 0.013222
-0.0080964 0.011781 0.0075937 -0.011312 -0.25485 0.19364 0.0064283 0.0032847
-0.0019519 0.0078072 0.00097499 0.012087
-0.0039822 0.012122 0.0004578 0.011994 0.0065575 0.0034825 -0.32709 0.04495
-0.019401 -0.0056024 0.014506 0.027898
0.012952 0.0058545 0.0093845 0.0028313 -0.0020237 0.0077001 -0.019087 -0.0053845
-0.2104 -0.24484 -0.028183 0.0031309
-0.0046728 0.0087717 0.00045 0.013633 0.0010608 0.011958 0.014317 0.027317
-0.028692 0.0040945 -0.26021 -0.14293
560000000 -0.31297 0.10636 -0.022938 -0.066234 0.00072287 0.012643 0.0057119 0.010701
0.010967 0.0052575 0.011624 0.010103
-0.0231 -0.066079 -0.36842 0.091425 -0.041627 -0.037739 0.013776 0.0029747
-0.014567 -0.0060236 0.0049731 -0.00071455
0.0011529 0.012656 -0.041629 -0.037851 -0.17944 0.24267 -0.00049406 -0.0049287
0.018398 0.0072029 0.0075397 -0.0054209
0.0057779 0.010817 0.013922 0.0029681 -0.00050301 -0.0048817 -0.30225 0.13345
0.0068048 -0.022707 0.0060997 -0.021756
0.011077 0.004513 -0.014814 -0.0058952 0.018024 0.0069262 0.0064497 -0.021819
-0.29863 -0.061118 0.0099307 -0.051013
0.011556 0.010006 0.0041271 -0.00080813 0.0077683 -0.0060097 0.006228 -0.021788
0.0099752 -0.051682 -0.32649 0.0044872
620000000 -0.27443 0.082134 -0.023723 0.0088336 0.0033049 0.0085697 0.0083401 -0.0043156
0.012435 -0.00081342 0.00058883 -0.0013255
-0.023693 0.0087579 -0.39877 0.03731 -0.019556 0.00048816 -0.0018057 -0.0023519
0.01222 -0.0051685 0.0002277 -0.002975
0.0031894 0.0087098 -0.019566 0.00049391 -0.15336 0.25181 -0.0014462 -0.005419
-0.0038082 -0.0019526 0.0082686 -0.0031673
0.008413 -0.0042981 -0.0018259 -0.0023402 -0.0015959 -0.0054511 -0.26172 0.14299
-0.037815 -0.021195 0.011937 0.028338
0.012488 -0.00088253 0.012472 -0.0050295 -0.0038653 -0.0020647 -0.038281 -0.021317
-0.21338 -0.099443 -0.043863 0.012183
0.00056634 -0.0013676 3.7412e-05 -0.0028345 0.0077351 -0.003121 0.011825 0.028263
-0.044371 0.013458 -0.24295 -0.031715
680000000 -0.23959 0.17562 -0.026573 -0.014638 0.0046807 0.0053678 0.0013042 -0.0071569
-0.0015128 -0.011534 0.0059414 -0.0069522
-0.026337 -0.014623 -0.38919 0.13917 -0.032506 -0.0014344 -0.0015197 -0.00058678
-0.0016224 -0.0094043 -0.0010136 -0.0016956
0.0047973 0.0053498 -0.032567 -0.0013989 -0.10625 0.27507 -0.00055332 7.1844e-05
-0.0014887 0.00092656 -0.0030339 -0.0092046
0.0012604 -0.0073321 -0.0015077 -0.00061042 -0.00056753 -6.23e-06 -0.21736 0.19486
-0.023223 -0.0076267 -0.0093134 -0.010866
-0.0017773 -0.011616 -0.0015196 -0.0093876 -0.0016247 0.00096404 -0.023155 -0.0074202
-0.28375 0.0016722 -0.0049507 -0.0073004
0.0061701 -0.0066288 -0.00091899 -0.0016912 -0.0028711 -0.0090298 -0.0092859 -0.010684
-0.0050348 -0.0072807 -0.25968 0.072646
740000000 -0.19291 0.16881 -0.040706 0.026629 0.013338 -0.0038859 -7.3576e-05 -0.0037762
-0.0040077 -0.0018317 -0.0065306 0.0027869
-0.040878 0.026669 -0.33498 0.15875 -0.036344 0.034588 0.00021471 -0.0055539
-0.013092 0.0067693 -0.0012488 -0.0055456
0.013339 -0.0038815 -0.036348 0.034728 -0.072732 0.27564 -0.0017322 0.0033878
-0.0010571 -0.0054552 -0.001915 0.00089096
-0.00014286 -0.0039516 0.00016865 -0.0055354 -0.0017711 0.0033514 -0.20148 0.20138
-0.042139 -0.0089152 0.021988 0.016682
-0.0041141 -0.0018002 -0.012824 0.0066061 -0.00072277 -0.0050745 -0.042269 -0.0088262
-0.17859 0.036812 -0.044353 -0.00019036
-0.0067183 0.00296 -0.00080269 -0.0058584 -0.0018766 0.00092086 0.021956 0.016493
-0.044462 -0.00029645 -0.25124 0.076314
800000000 -0.16555 0.21416 -0.022423 0.016252 0.0054831 -0.010403 -0.0043457 -0.0024201
-0.0042994 0.0015572 0.0043801 0.00059619
-0.022469 0.016086 -0.34391 0.2297 -0.0083 0.034363 -0.0022092 0.0020751
5.603e-05 0.0020236 0.00063358 0.0054931
0.0054608 -0.010444 -0.0082104 0.034381 -0.034718 0.30145 0.0010852 0.0012571
-0.00012291 0.0029589 -0.001661 0.00069613
-0.0043884 -0.0024356 -0.0021808 0.0021119 0.0010194 0.0012611 -0.17285 0.22912
-0.029618 0.013142 0.014815 -0.010678
-0.0042481 0.00138 6.1452e-05 0.0019234 -2.9135e-05 0.0029287 -0.029681 0.013162
-0.2356 0.059966 -0.019245 0.02092
0.0046075 0.00046567 0.0007243 0.0053318 -0.0017026 0.00066146 0.014871 -0.010582
-0.019391 0.021125 -0.2482 0.12835
860000000 -0.13053 0.23552 -0.018 0.030747 -0.0033601 -0.0099239 -0.0019991 0.00080596
0.003889 0.005104 -0.0035761 -0.0032727
-0.018009 0.030666 -0.2961 0.27475 0.0078294 0.0343 4.5797e-05 0.0022516
0.0040727 0.00021454 0.0040324 -0.00023254
-0.003373 -0.0099329 0.0079803 0.034309 0.014524 0.31152 -0.00053736 -0.00047183
0.0023962 -0.0016935 0.001935 0.0040224
-0.0021516 0.00057822 0.00010386 0.0021963 -0.00054351 -0.00048604 -0.13597 0.24094
-0.018391 0.017549 -0.0062722 -0.009461
0.0039932 0.0052311 0.0041331 0.00014134 0.0023758 -0.0017612 -0.018521 0.01754
-0.18219 0.12516 -0.026426 0.015605
-0.0034698 -0.0030036 0.0038834 2.2869e-05 0.0019597 0.004058 -0.0064363 -0.0095949
-0.026486 0.015606 -0.19806 0.17737
920000000 -0.10804 0.25894 0.0047488 0.039491 -0.009313 -0.0043409 -0.0017295 0.0017783
-5.1856e-05 0.0015856 0.003065 -0.0013777
0.0046595 0.039513 -0.26993 0.29624 0.028188 0.022566 0.0014623 0.0011419
0.0072402 -0.00014051 0.0041134 -0.0030671
-0.0093471 -0.0042717 0.028311 0.022494 0.060836 0.31302 0.0016706 -7.9609e-05
0.00065439 -0.00031265 0.00080659 -0.0014425
-0.0016718 0.0017637 0.0014825 0.0010954 0.0016889 -7.6995e-05 -0.11243 0.25764
-0.012728 0.031357 0.0041395 -0.006824
-0.00018462 0.0016585 0.0072411 -0.00011203 0.00064247 -0.00042188 -0.012661 0.031347
-0.17475 0.12746 -0.0034144 0.02922
0.0031837 -0.0014773 0.003993 -0.0030175 0.00082683 -0.0014025 0.0042062 -0.0067815
-0.0035601 0.029177 -0.20886 0.18971
980000000 -0.061414 0.28157 0.016953 0.030704 -0.0092412 0.004877 0.0019472 0.0035472
0.0037295 -0.0015931 -0.003712 -0.0029274
0.016934 0.030673 -0.21833 0.33441 0.03316 0.0048463 0.0018781 -0.00024541
0.0019012 -0.0062499 -0.00063973 -0.0026486
-0.0091688 0.0048746 0.033195 0.0047608 0.10772 0.30839 0.00037307 -0.0011697
0.00022875 -0.0016232 0.0015152 -0.0003897
0.0018809 0.0035456 0.0018779 -0.00022373 0.00037422 -0.0011816 -0.07391 0.27004
0.0069865 0.03094 -0.0094728 -0.0078118
0.0037322 -0.0015623 0.0016985 -0.0062088 0.00026664 -0.0016092 0.0069999 0.031026
-0.14672 0.16634 0.0048254 0.021054
-0.003601 -0.0026699 -0.0006152 -0.0025235 0.0014138 -0.00039617 -0.0095253 -0.0079147
0.0048506 0.021138 -0.16629 0.23953
1040000000 -0.019895 0.2903 0.033465 0.019508 -0.00096839 0.0075064 0.0024587 0.00054569
0.00025027 -0.0035886 -1.8143e-05 -0.0013595
0.03336 0.019549 -0.1825 0.34803 0.029432 -0.014789 0.0014258 -0.0018854
-0.002386 -0.0025009 -0.0009979 -0.002904
-0.00092326 0.0075433 0.029438 -0.014896 0.15492 0.29453 -0.00058434 -0.0013856
-0.0015054 -0.0009554 -0.00062599 -0.0010759
0.0024017 0.00054376 0.0014067 -0.0018839 -0.0006185 -0.0013932 -0.046079 0.27919
0.01897 0.01971 -0.0024702 0.0010756
0.00028332 -0.0036611 -0.0023056 -0.0024845 -0.0014232 -0.00092141 0.019111 0.019691
-0.1132 0.17454 0.013617 0.020408
-4.9391e-05 -0.0015128 -0.0010141 -0.0029392 -0.00059324 -0.0010775 -0.0024644 0.0010901
0.013481 0.020429 -0.14588 0.25968
1100000000 0.024289 0.30085 0.036754 -0.0032852 0.0035034 0.0040699 0.0023848 -0.00097615
-0.0024578 -0.002964 -0.0041973 -0.00022627
0.03671 -0.0032698 -0.13994 0.36849 0.014946 -0.027824 -0.00017777 -0.0017945
-0.0035459 -0.00073166 -0.0037158 -0.00063874
0.0035179 0.0040652 0.014862 -0.02792 0.20108 0.27503 -0.0017513 0.000351
-0.0017412 0.00072785 -0.0010795 -0.00052431
0.0023241 -0.0010136 -0.00019093 -0.0017881 -0.0017435 0.0003515 -0.006033 0.28467
0.02541 0.0066309 -0.0026149 0.00011686
-0.0023991 -0.0030642 -0.0035054 -0.00074597 -0.0017185 0.0007402 0.02533 0.0065922
-0.097264 0.19376 0.020186 0.01027
-0.0041746 -0.0001442 -0.0036741 -0.00057877 -0.0011041 -0.00056099 -0.0025789 3.3952e-05
0.020177 0.010275 -0.10109 0.29287
1160000000 0.076545 0.29767 0.025047 -0.020511 0.0033265 -0.00071319 -0.00011122 -0.0023852
-0.0040452 -0.00081694 -0.0011816 0.0043607
0.02499 -0.020446 -0.094224 0.37373 -0.0041731 -0.028643 -0.0016089 -0.0013744
-0.0027672 0.0024613 -0.0016162 0.002027
0.0033567 -0.00070162 -0.004261 -0.028677 0.2455 0.24442 -0.00056792 0.0016523
-0.0003684 0.0017654 -0.00090441 0.0003259
-0.0001264 -0.002373 -0.0015959 -0.0013772 -0.00061291 0.0016695 0.03437 0.28164
0.022547 -0.0099676 -0.0038543 0.0050397
-0.0041446 -0.00083944 -0.0027741 0.00253 -0.00034551 0.0017779 0.022624 -0.0099658
-0.06096 0.20574 0.019883 0.00071085
-0.0012366 0.0042582 -0.0017122 0.0020116 -0.00094389 0.00026764 -0.0038323 0.0050795
0.019903 0.00066876 -0.053167 0.29718
1220000000 0.11982 0.28785 0.011755 -0.03028 -0.0011376 -0.0014447 -1.289e-05 -0.0010367
-0.002731 0.0023074 0.0011034 0.0020775
0.011731 -0.030247 -0.050418 0.38753 -0.017028 -0.020676 -0.0024511 0.00055549
3.4781e-06 0.003074 -0.00074442 0.0018731
-0.0011634 -0.0014089 -0.017147 -0.020609 0.28443 0.20497 0.00088813 0.0014824
0.00048644 0.0011487 0.0001865 0.00064389
-3.2542e-05 -0.0010375 -0.0024731 0.00056389 0.00089081 0.0014591 0.073725 0.2726
0.011612 -0.017181 0.0021947 0.0016609
-0.0026751 0.0023616 3.2227e-05 0.0031176 0.00051579 0.0011434 0.011536 -0.017224
-0.039934 0.21738 0.015366 -0.012615
0.0011446 0.0020687 -0.00073905 0.0019051 0.00019272 0.00065096 0.0022069 0.0016372
0.015388 -0.01259 -0.023125 0.31442
1280000000 0.17067 0.26907 -0.007311 -0.029243 -0.0017917 0.0017307 -0.00096248 -0.0019647
-0.0010289 0.0033816 0.0026197 0.0012861
-0.0073137 -0.029195 -0.0031723 0.38003 -0.023792 -0.0075994 -0.0007864 0.0013932
0.0017091 0.0017811 0.00062799 0.0020293
-0.0018228 0.0017258 -0.023869 -0.007489 0.31532 0.16189 0.0013926 -0.00019795
0.0010874 0.00037915 0.00023416 0.00046465
-0.00093981 -0.001938 -0.00076185 0.0013557 0.0013675 -0.00018575 0.11044 0.25659
0.0018558 -0.019797 -0.00023898 6.5058e-05
-0.0010608 0.0033363 0.0017217 0.0017457 0.0010925 0.00035635 0.0018303 -0.019794
-0.0026173 0.22504 0.0041062 -0.015563
0.0026188 0.001355 0.00058779 0.0020684 0.00027306 0.00046459 -0.00027721 0.00010208
0.0041369 -0.01558 0.025023 0.31894
1340000000 0.20855 0.23567 -0.017159 -0.019799 0.00041915 0.0041048 -0.0018539 -0.00072332
0.0015472 0.0029366 0.0017809 -0.0014189
-0.017127 -0.019788 0.036802 0.3719 -0.020613 0.0050278 -0.00013402 0.0018723
0.0018985 0.00084725 0.0011963 0.00085366
0.00045642 0.0041174 -0.020606 0.0051463 0.3381 0.11308 0.00083986 -0.00093058
0.00067837 -0.00059516 0.00015423 0.00027585
-0.0018558 -0.00072872 -0.00011859 0.0019085 0.00082748 -0.00094393 0.14343 0.23565
-0.0081409 -0.01736 0.0009953 0.00059717
0.0016479 0.0029435 0.0019029 0.00080712 0.00067986 -0.00060941 -0.0081817 -0.017359
0.027579 0.22293 -0.0031776 -0.014392
0.0017794 -0.0013923 0.0012258 0.0007794 0.0001335 0.00028399 0.0010116 0.00062435
-0.0031988 -0.014391 0.063697 0.31492
1400000000 0.24245 0.19906 -0.023679 -0.0083905 0.0047425 0.0029795 -0.0021433 0.00082581
0.0026133 0.00094169 0.0003535 -0.0013745
-0.023627 -0.0083886 0.074354 0.35985 -0.0137 0.012607 0.0012507 0.0012828
0.001133 -0.00059963 0.0011356 0.00018131
0.0047385 0.0029774 -0.013668 0.012695 0.351 0.059447 -7.1626e-05 -0.0013348
0.0002046 -0.00013388 0.00044128 0.00026606
-0.0021311 0.00081623 0.0012682 0.0012539 -6.0159e-05 -0.0012848 0.1723 0.20692
-0.014726 -0.010287 -0.00083608 -0.0002694
0.002622 0.00096054 0.0011351 -0.00064075 0.00016488 -0.00010545 -0.014717 -0.010286
0.060684 0.22234 -0.0097593 -0.0093459
0.00033786 -0.0014055 0.0011573 0.000201 0.00043846 0.00021098 -0.00084821 -0.00029845
-0.009754 -0.0093782 0.10828 0.30623
1460000000 0.2667 0.15587 -0.020801 0.0042754 0.005018 -0.0017338 -0.001525 0.0017339
0.0021925 -0.00041147 -0.00021096 -0.00075493
-0.020764 0.0042732 0.10961 0.33805 -0.0047148 0.014896 0.001596 0.00025514
0.001149 -0.0012655 0.0012344 -0.00057938
0.0050364 -0.0017855 -0.0046369 0.014924 0.35763 0.0047257 -0.0010831 -0.0010669
0.00027361 -0.00031256 0.00071515 -0.00038736
-0.0015107 0.00173 0.0016104 0.00025745 -0.0011018 -0.001064 0.19946 0.17827
-0.0157 -0.0034141 -0.00090345 0.002004
0.0021734 -0.00040235 0.0011442 -0.0012473 0.00028626 -0.00031535 -0.015738 -0.0033911
0.091243 0.21095 -0.012104 -0.0031083
-0.00026891 -0.00083413 0.0012045 -0.00056496 0.00070523 -0.00032277 -0.00086466 0.0020164
-0.012082 -0.0030908 0.14295 0.28604
1520000000 0.27929 0.11401 -0.015346 0.0099611 0.0030141 -0.003867 0.0001718 0.0026019
0.0024665 -0.0019573 -0.0011364 -0.00015445
-0.015331 0.0099553 0.14319 0.32365 0.0024658 0.011906 0.0016626 -0.00066305
0.00018071 -0.0010051 0.00032316 -0.0009499
0.0030343 -0.0039044 0.0025455 0.011898 0.34978 -0.053141 -0.00079563 -0.00033142
0.00067272 -0.0010312 9.6318e-05 -6.5987e-05
0.00018425 0.002629 0.0016688 -0.00067914 -0.00078936 -0.00032006 0.2225 0.13962
-0.015332 0.002402 0.0014876 0.0019912
0.0024532 -0.0019642 0.00017876 -0.0010381 0.0006853 -0.00098404 -0.015331 0.0024663
0.11901 0.2003 -0.011956 0.0014732
-0.0011231 -0.00014977 0.0003369 -0.00096532 7.6295e-05 -9.8615e-05 0.0014897 0.0019752
-0.011939 0.0014652 0.17612 0.26706
1580000000 0.28953 0.069333 -0.0086896 0.013625 -0.0012195 -0.0045223 0.001512 0.0017743
-0.00016108 -0.0023443 -0.00016286 0.0004041
-0.008684 0.013597 0.17072 0.29977 0.0054121 0.006682 0.00060534 -0.0015066
-0.00043691 -0.0011795 -0.00019789 -0.00070646
-0.0012145 -0.0045119 0.0054701 0.0066329 0.32843 -0.10952 -0.001443 0.00028641
-0.00044507 -0.0013558 0.00024536 -0.00055074
0.0015213 0.0017844 0.0005897 -0.0015331 -0.001452 0.00026522 0.23651 0.10097
-0.011715 0.00771 0.0021623 0.00070299
-0.0001775 -0.0023751 -0.00042864 -0.001134 -0.00043975 -0.0013129 -0.01171 0.0077207
0.14461 0.18606 -0.0093622 0.0079171
-0.00011458 0.00045923 -0.00020952 -0.00070272 0.00020664 -0.0005312 0.0021503 0.00073297
-0.0093818 0.0079289 0.20967 0.2423
1640000000 0.2928 0.027841 -0.0016373 0.012489 -0.0026775 -0.002006 0.0027699 0.0010255
-0.00057775 -0.0017832 -0.00029333 0.00035438
-0.0016389 0.012487 0.20117 0.27491 0.0053173 0.0020431 -0.00049973 -0.0018396
-0.00095196 -0.0005865 -0.00045405 -0.00060944
-0.0027001 -0.0019779 0.0053442 0.0020276 0.2991 -0.15909 -0.00073417 0.0012708
-0.0011586 -0.0010104 -7.0181e-05 -0.00035175
0.0027497 0.0010283 -0.00048996 -0.0018221 -0.00070482 0.0012874 0.24964 0.051382
-0.0073324 0.0088374 0.0025481 -0.00066531
-0.00062853 -0.0017723 -0.00098024 -0.00058177 -0.0012018 -0.0009964 -0.0073195 0.0089045
0.16872 0.1651 -0.0042464 0.0097507
-0.00033672 0.00039868 -0.00044986 -0.00062563 -6.5419e-05 -0.00040066 0.0025247 -0.00070667
-0.0042504 0.0097433 0.23611 0.21173
1700000000 0.2858 -0.016543 0.001896 0.0097179 -0.0031884 0.00037918 0.0031012 -0.0012989
-0.0022683 -0.00067877 0.0004809 0.00048486
0.0018782 0.009704 0.21893 0.24404 0.0027162 -0.00047227 -0.0014155 -0.00071529
-0.0008286 -0.00013983 -0.00079367 -0.00045415
-0.0031978 0.00036452 0.0026919 -0.00048095 0.25458 -0.19685 0.00015046 0.0016073
-0.0020824 -0.00027938 -0.00030085 -0.00091277
0.0030865 -0.0013282 -0.0014456 -0.000712 0.00014652 0.0016026 0.24597 0.0015129
-0.0045757 0.0095625 0.0017141 -0.0020924
-0.0022462 -0.00065829 -0.00080563 -0.00013188 -0.0021028 -0.00023482 -0.0045567 0.0095727
0.18731 0.14847 0.00068365 0.0098612
0.00051274 0.0004636 -0.00079556 -0.00041904 -0.00034984 -0.00087782 0.0017373 -0.002052
0.00068397 0.0098764 0.25337 0.17822
1760000000 0.27573 -0.064833 0.0042845 0.0064401 -0.0021114 0.001216 0.0012622 -0.0034317
-0.0012595 0.00059746 0.00010813 -0.0005469
0.0042686 0.0064249 0.24621 0.2049 8.1736e-05 -0.0017912 -0.0012906 3.8655e-05
-0.0011634 0.00096656 -0.00050081 0.00032276
-0.0020732 0.0012378 7.5663e-05 -0.0018144 0.20664 -0.22882 0.0011481 0.0014076
-0.0010596 0.0015598 -0.0012683 -0.00063952
0.0012794 -0.0034534 -0.0012686 4.5458e-05 0.0011525 0.0014064 0.238 -0.049939
-0.0010817 0.0088019 -0.00014007 -0.0024601
-0.0012231 0.00066875 -0.0011441 0.00097793 -0.0011185 0.0015453 -0.0010994 0.0087639
0.20448 0.11748 0.0048037 0.0071457
0.00010832 -0.00056115 -0.00051191 0.00033203 -0.0012615 -0.00066685 -0.00016322 -0.0024676
0.0047783 0.0071319 0.26761 0.14135
1820000000 0.25198 -0.10306 0.0045941 0.0028533 0.00028879 0.0024144 -0.00091056 -0.0031551
-0.0011818 0.00089249 -6.5724e-05 -1.4468e-05
0.004598 0.0028622 0.25643 0.17476 -0.0021799 0.00014262 -0.0014558 0.00096012
-4.6636e-05 0.0012186 -0.00065092 0.00042722
0.00025491 0.0024041 -0.0021802 0.00013178 0.15577 -0.24423 0.0017877 0.00054602
-0.00020173 0.0022551 -0.0017719 0.00018192
-0.00093948 -0.0031228 -0.0014757 0.00097049 0.0018131 0.00056405 0.20727 -0.098096
0.00044099 0.007391 -0.0015777 -0.001762
-0.0011831 0.00091057 -2.7504e-05 0.0012282 -0.0001549 0.0022688 0.00046665 0.0074469
0.22462 0.09108 0.0056569 0.0031978
-5.1995e-05 -6.1251e-05 -0.00065146 0.00044105 -0.0017683 0.00022421 -0.0015621 -0.0017629
0.0056895 0.0032099 0.27102 0.10568
1880000000 0.21722 -0.14313 0.0023039 0.0005724 -8.907e-05 0.0021907 -0.0028868 -0.0023183
-0.00010009 0.00171 0.00042398 -0.0004883
0.0023247 0.00057834 0.26127 0.12911 -0.0039115 0.0029508 -0.00028173 0.0018597
0.00055703 0.0013717 9.9177e-05 0.00092107
-9.3537e-05 0.002227 -0.0038793 0.0029805 0.10379 -0.25109 0.001943 -0.0012022
0.0016837 0.002026 -0.0010576 0.0014555
-0.0029179 -0.0023552 -0.00024948 0.0018541 0.0019559 -0.0011523 0.16663 -0.1378
0.0015899 0.0054154 -0.0023283 0.00029366
-9.6046e-05 0.0017076 0.00057466 0.0013629 0.0016959 0.00201 0.0015878 0.0054227
0.23156 0.063604 0.0059472 0.0010657
0.00041232 -0.00051556 8.702e-05 0.00094361 -0.00099337 0.0014566 -0.0023067 0.00034196
0.0059388 0.0010491 0.2723 0.072558
1940000000 0.17897 -0.17015 0.00023734 -0.0011731 0.001963 0.0018108 -0.0038863 0.00023648
0.0011255 0.00081733 -0.00063288 -0.00073365
0.0002212 -0.0011304 0.26347 0.097269 -0.0018118 0.0058842 0.0011081 0.0014564
0.0019669 0.00044563 0.00087162 0.0003286
0.0019878 0.0018457 -0.0017949 0.0059145 0.060427 -0.24342 0.00060609 -0.0023345
0.0022799 0.00037907 0.00028179 0.0018162
-0.0038605 0.00026895 0.0011324 0.0014315 0.00061877 -0.002341 0.11443 -0.16956
0.00099982 0.003839 -0.0014468 0.0014507
0.0011474 0.00081586 0.0019538 0.00040915 0.0022834 0.00036596 0.00098601 0.0038173
0.23919 0.02743 0.0043755 -0.0029856
-0.00057624 -0.00068561 0.00091877 0.00032131 0.00021293 0.0018301 -0.0014557 0.0014034
0.0043779 -0.0029685 0.26348 0.035957
2000000000 0.13238 -0.18484 -0.0034652 0.00090525 0.0028848 0.0011081 -0.0024228 0.0037633
0.00079687 0.00037328 -0.00090259 0.00042548
-0.0034934 0.00088514 0.24949 0.061873 -0.00043418 0.0078748 0.0017148 0.00033011
0.0011828 -0.0013128 0.0004847 8.7674e-05
0.0028658 0.0010458 -0.00038222 0.0078712 0.018618 -0.2287 -0.0015328 -0.0015138
0.0020452 -0.0010131 0.0018061 0.0013862
-0.0023683 0.0037154 0.0017392 0.00029145 -0.0015655 -0.0014951 0.060045 -0.17912
-0.00071535 0.0032981 -0.00028848 0.0022755
0.00084151 0.00037298 0.0011861 -0.0013072 0.0020535 -0.0010674 -0.00064625 0.0033028
0.23782 -0.0048292 0.00061098 -0.0038662
