!Keysight Technologies,M9804A,MY58100912,A.14.10.03
!Date: Thursday, April 27, 2023 10:28:33
!Correction: S11(C  6-Port  ) 
!S12(C  6-Port  ) 
!S13(C  6-Port  ) 
!S14(C  6-Port  ) 
!S15(C  6-Port  ) 
!S16(C  6-Port  ) 
!S21(C  6-Port  ) 
!S22(C  6-Port  ) 
!S23(C  6-Port  ) 
!S24(C  6-Port  ) 
!S25(C  6-Port  ) 
!S26(C  6-Port  ) 
!S31(C  6-Port  ) 
!S32(C  6-Port  ) 
!S33(C  6-Port  ) 
!S34(C  6-Port  ) 
!S35(C  6-Port  ) 
!S36(C  6-Port  ) 
!S41(C  6-Port  ) 
!S42(C  6-Port  ) 
!S43(C  6-Port  ) 
!S44(C  6-Port  ) 
!S45(C  6-Port  ) 
!S46(C  6-Port  ) 
!S51(C  6-Port  ) 
!S52(C  6-Port  ) 
!S53(C  6-Port  ) 
!S54(C  6-Port  ) 
!S55(C  6-Port  ) 
!S56(C  6-Port  ) 
!S61(C  6-Port  ) 
!S62(C  6-Port  ) 
!S63(C  6-Port  ) 
!S64(C  6-Port  ) 
!S65(C  6-Port  ) 
!S66(C  6-Port  ) 
!S6P File: Measurement: :
# Hz S  RI   R 50
500000000 -0.32678 -0.061949 -0.010428 -0.001958 -0.0083384 0.011986 -0.0038114 0.012248
0.01267 0.0055246 -0.0048081 0.008789
-0.010512 -0.0018984 -0.40907 -0.071767 0.0075533 -0.010849 0.00090277 0.011359
0.0090999 0.0037274 0.00062694 0.013151
-0.0085541 0.012057 0.0075379 -0.011047 -0.25483 0.19375 0.0066155 0.0030743
-0.0022831 0.0080133 0.0014847 0.012059
-0.0040521 0.012577 0.00098007 0.011365 0.0066249 0.0030454 -0.32718 0.04506
-0.019645 -0.0056801 0.014656 0.027764
0.012929 0.0055533 0.0089579 0.0036642 -0.0023163 0.0081737 -0.019529 -0.0056307
-0.21009 -0.24601 -0.02885 0.0034553
-0.0051483 0.0094458 0.00078181 0.013218 0.0014324 0.011933 0.014303 0.027308
-0.028866 0.0034111 -0.26028 -0.14289
560000000 -0.31287 0.10627 -0.023128 -0.06637 0.00090921 0.012624 0.0054062 0.011056
0.011896 0.0051281 0.010975 0.010072
-0.022798 -0.066399 -0.36814 0.091335 -0.041329 -0.038442 0.01402 0.0024497
-0.015076 -0.0061415 0.0047948 -0.0012787
0.0010792 0.012851 -0.041826 -0.038426 -0.17932 0.24334 -0.00076564 -0.0049996
0.018851 0.0065215 0.0076443 -0.0053569
0.0054119 0.011012 0.014148 0.002214 -0.00045136 -0.0052502 -0.30206 0.1324
0.0058812 -0.021915 0.0064243 -0.022114
0.011523 0.0050242 -0.015166 -0.0059729 0.018166 0.006708 0.0057937 -0.022498
-0.29733 -0.06122 0.0097608 -0.051032
0.011379 0.0095821 0.0048903 -0.0011046 0.0075308 -0.0061136 0.0063957 -0.021915
0.0098902 -0.050766 -0.32731 0.0043776
620000000 -0.27426 0.082602 -0.023629 0.0090934 0.003759 0.0087576 0.0087403 -0.0043399
0.012403 -0.00045468 0.00082269 -0.001035
-0.023648 0.0091174 -0.39871 0.037057 -0.019366 0.00026767 -0.0017449 -0.0023088
0.012233 -0.0051408 0.00011058 -0.0029575
0.0037941 0.0087131 -0.019471 0.0004622 -0.15327 0.2514 -0.0013964 -0.0053422
-0.0038353 -0.0016427 0.0084342 -0.0030866
0.0088554 -0.0044104 -0.0016601 -0.0023415 -0.0012593 -0.0054485 -0.26207 0.14275
-0.037185 -0.020854 0.012829 0.028313
0.012032 -0.00061355 0.012261 -0.0051855 -0.0042377 -0.0019287 -0.037488 -0.020788
-0.21446 -0.099165 -0.044617 0.01276
0.001018 -0.00084014 6.7222e-06 -0.0029001 0.0087261 -0.0033327 0.012766 0.028624
-0.045033 0.012138 -0.24168 -0.029892
680000000 -0.24007 0.17496 -0.026592 -0.014864 0.0047057 0.0052321 0.0013688 -0.0070419
-0.0017076 -0.011396 0.0058917 -0.0070752
-0.026579 -0.014832 -0.38917 0.13906 -0.032586 -0.0014677 -0.0016892 -0.00069165
-0.0016292 -0.0094673 -0.0009261 -0.0015421
0.0046124 0.0052305 -0.032653 -0.0013602 -0.10648 0.27498 -0.00071347 -3.8748e-05
-0.0016438 0.00099864 -0.0028315 -0.0089913
0.0012806 -0.0071568 -0.0016044 -0.00067734 -0.00075624 -2.377e-05 -0.21756 0.19481
-0.023088 -0.0076516 -0.0091064 -0.011183
-0.0016167 -0.011528 -0.0016446 -0.0094113 -0.0015075 0.00078957 -0.023078 -0.007668
-0.28326 0.0010738 -0.0054456 -0.0072431
0.0056661 -0.0073265 -0.00097329 -0.0015925 -0.003087 -0.0091701 -0.0094752 -0.011014
-0.0052922 -0.007326 -0.26079 0.072
740000000 -0.19343 0.16866 -0.040814 0.026585 0.013359 -0.0035128 8.9373e-05 -0.0039119
-0.0038559 -0.0018653 -0.0063396 0.0031557
-0.040732 0.02647 -0.33484 0.15847 -0.036396 0.034608 9.4229e-05 -0.0055899
-0.013046 0.0068495 -0.0011421 -0.0053895
0.013518 -0.0036571 -0.036433 0.034762 -0.072869 0.27525 -0.0017773 0.0031893
-0.0010641 -0.005254 -0.0018027 0.00086859
0.00011439 -0.0040228 2.4401e-06 -0.0054997 -0.0016809 0.0032619 -0.20162 0.2014
-0.041684 -0.0091251 0.022085 0.016971
-0.0040824 -0.001598 -0.012864 0.0069597 -0.0010114 -0.005282 -0.041959 -0.009045
-0.17834 0.037227 -0.044131 -0.0010061
-0.0061237 0.0030866 -0.0012775 -0.0053453 -0.0020453 0.0007642 0.022026 0.016722
-0.044208 -0.0011433 -0.25175 0.076249
800000000 -0.16538 0.21412 -0.022454 0.01617 0.0055586 -0.010327 -0.0045905 -0.0024991
-0.0039768 0.0018445 0.0045457 0.00044421
-0.022475 0.016166 -0.34404 0.22971 -0.0083669 0.034414 -0.0023253 0.002177
0.00030354 0.0022663 0.00073458 0.0055605
0.0054929 -0.010391 -0.0082911 0.034409 -0.034757 0.3014 0.00099237 0.0013261
2.955e-05 0.0031016 -0.0017568 0.00063617
-0.0046064 -0.002579 -0.0023588 0.002078 0.00093814 0.0013137 -0.17283 0.22894
-0.029729 0.013184 0.014843 -0.010611
-0.0041143 0.0019126 0.0002123 0.0023538 4.0807e-05 0.0031188 -0.029642 0.013219
-0.23535 0.060264 -0.019166 0.021505
0.0043645 0.00064195 0.00057401 0.0055581 -0.0017241 0.00067052 0.014956 -0.010639
-0.019295 0.021549 -0.24798 0.12876
860000000 -0.13075 0.23571 -0.018159 0.030705 -0.0033915 -0.0099247 -0.0019224 0.00065776
0.0038847 0.0050949 -0.0037023 -0.0032078
-0.018122 0.030725 -0.29637 0.27469 0.007859 0.034247 0.00010308 0.0021316
0.003971 0.00032097 0.0039497 -0.00030046
-0.0034165 -0.0099377 0.0079371 0.034258 0.014452 0.31151 -0.000561 -0.00057737
0.0023548 -0.0018203 0.0020196 0.0040007
-0.0017264 0.0008585 0.00016757 0.0022412 -0.00048101 -0.00045476 -0.13601 0.24067
-0.018509 0.017493 -0.0061927 -0.0095403
0.0037878 0.0050422 0.0039866 0.00025206 0.0022871 -0.0018745 -0.018551 0.017815
-0.18195 0.12478 -0.026547 0.015593
-0.0035626 -0.0035349 0.0040775 -0.00034862 0.0018014 0.004003 -0.0061555 -0.0095021
-0.026542 0.015497 -0.19862 0.17776
920000000 -0.10818 0.25892 0.0046155 0.039576 -0.0093136 -0.0042714 -0.0018324 0.001863
-5.9299e-05 0.0015681 0.003143 -0.0011199
0.004609 0.039554 -0.27003 0.29628 0.028193 0.02262 0.001471 0.0011439
0.0073521 -9.3639e-05 0.0041827 -0.0029884
-0.0092979 -0.0042177 0.028318 0.022578 0.060705 0.31302 0.001712 -0.00011178
0.00063627 -0.00036688 0.00096837 -0.0014039
-0.0018516 0.0018617 0.0014035 0.0011517 0.0017126 -8.7784e-05 -0.11245 0.2577
-0.012437 0.031307 0.0041697 -0.0068428
-7.5261e-05 0.0016117 0.0073459 -0.00019472 0.00059992 -0.00046421 -0.012301 0.031364
-0.17566 0.12745 -0.0029673 0.029298
0.0032197 -0.0011138 0.0042432 -0.0029476 0.00087769 -0.001243 0.0041724 -0.0067717
-0.0030313 0.029302 -0.20864 0.18944
980000000 -0.061335 0.28159 0.01714 0.030655 -0.0091652 0.0048176 0.0019978 0.0035057
0.0039804 -0.0015967 -0.0037375 -0.0028198
0.017078 0.030671 -0.21824 0.33425 0.03316 0.0048503 0.0019152 -0.00026517
0.0019109 -0.006128 -0.00085407 -0.0026294
-0.0091623 0.0048259 0.033203 0.0047444 0.10763 0.30835 0.00039262 -0.0011889
0.0002838 -0.0015738 0.0014786 -0.00034281
0.0019567 0.00354 0.0018902 -0.00025062 0.00035791 -0.0011556 -0.074008 0.26997
0.0070627 0.030964 -0.0095827 -0.007844
0.0039116 -0.0015672 0.0018488 -0.0061898 0.00028897 -0.0016519 0.0071158 0.030911
-0.14683 0.16629 0.0049512 0.020987
-0.003762 -0.0028136 -0.0008998 -0.0025596 0.0014183 -0.00043961 -0.0097399 -0.0080045
0.0049433 0.02102 -0.16667 0.23959
1040000000 -0.020065 0.2903 0.033504 0.019508 -0.00099707 0.0075128 0.002303 0.00067627
0.00026474 -0.0036503 -6.9472e-05 -0.0013708
0.033391 0.019557 -0.18254 0.34798 0.029488 -0.014751 0.0014384 -0.0018968
-0.0024453 -0.0023864 -0.0011213 -0.0029843
-0.00093339 0.0075678 0.029457 -0.014884 0.15481 0.29452 -0.00057833 -0.0013733
-0.001498 -0.00096843 -0.00052328 -0.0011035
0.0023372 0.00065437 0.0013912 -0.0018634 -0.00059366 -0.0013653 -0.04608 0.27919
0.018876 0.019764 -0.0023352 0.0011505
0.00030155 -0.0035588 -0.0024334 -0.0024223 -0.0014804 -0.0008751 0.018929 0.019725
-0.11349 0.17443 0.013298 0.020667
-5.1355e-05 -0.0012945 -0.0011481 -0.0029698 -0.00060903 -0.0010927 -0.0022741 0.0011525
0.013328 0.020559 -0.14544 0.25965
1100000000 0.024196 0.30094 0.036797 -0.003251 0.0035033 0.0040593 0.0023996 -0.00099949
-0.0024189 -0.0029966 -0.0041376 -0.00029619
0.036756 -0.0031968 -0.13998 0.36841 0.014951 -0.027831 -0.00015966 -0.0018185
-0.0035186 -0.00084635 -0.0037207 -0.00059639
0.0035335 0.0040344 0.014879 -0.027901 0.20099 0.2751 -0.0017423 0.00028872
-0.0016936 0.00071246 -0.0010804 -0.00053636
0.0023857 -0.0010079 -0.00017379 -0.0018502 -0.0017342 0.00031764 -0.0060284 0.28461
0.025357 0.0067243 -0.0026955 -4.8837e-05
-0.0024297 -0.0029975 -0.0035273 -0.00085936 -0.0017134 0.00072917 0.025339 0.0066222
-0.097412 0.19365 0.020216 0.010439
-0.004152 -0.00024567 -0.0037662 -0.0005403 -0.0010144 -0.00051639 -0.0026449 -5.3685e-05
0.02018 0.010458 -0.10132 0.29247
1160000000 0.076311 0.29769 0.025066 -0.020522 0.0033603 -0.00074367 -0.00016029 -0.0023125
-0.0041089 -0.00085805 -0.001138 0.0042985
0.025023 -0.02047 -0.094392 0.3737 -0.0040814 -0.028637 -0.0016466 -0.0013684
-0.0028193 0.0024536 -0.0015029 0.0019997
0.0033236 -0.00070989 -0.004235 -0.028611 0.24544 0.2444 -0.00057603 0.0016473
-0.00041276 0.0017004 -0.00097617 0.00022745
-0.00011551 -0.002354 -0.0016437 -0.0013646 -0.00055821 0.0016628 0.034286 0.28171
0.02264 -0.010012 -0.0037294 0.005122
-0.0041104 -0.00085375 -0.0027941 0.0024308 -0.00039703 0.0017088 0.022554 -0.010062
-0.060744 0.20551 0.019665 0.00071674
-0.0011052 0.0043641 -0.0014879 0.0020659 -0.00098703 0.00026354 -0.0038619 0.0051695
0.019661 0.0006381 -0.053373 0.29704
1220000000 0.11976 0.28794 0.011724 -0.03025 -0.0011667 -0.0013673 -5.4376e-06 -0.0010482
-0.0027316 0.0022953 0.0011466 0.0020548
0.011755 -0.030211 -0.050577 0.38751 -0.017011 -0.020673 -0.0024636 0.00056174
-1.9184e-05 0.0030776 -0.0008124 0.0018583
-0.001163 -0.0013902 -0.017143 -0.020629 0.2843 0.20508 0.00092652 0.0014525
0.00051375 0.0011393 0.00017616 0.00065179
-1.5536e-05 -0.0010585 -0.0024806 0.00056865 0.00092563 0.0014431 0.073687 0.27251
0.011613 -0.017112 0.0021761 0.0017061
-0.0027387 0.0023093 2.7745e-05 0.0030768 0.00052495 0.0011133 0.011633 -0.017179
-0.039864 0.21741 0.01551 -0.012491
0.0011472 0.0021038 -0.00073994 0.0018831 0.00015062 0.00068738 0.0022309 0.0016388
0.015476 -0.012499 -0.023175 0.31443
1280000000 0.17061 0.26908 -0.0072543 -0.029248 -0.0017983 0.0016908 -0.00092822 -0.0019596
-0.0010629 0.0034632 0.0026274 0.0012574
-0.0072327 -0.029233 -0.0032969 0.37999 -0.023773 -0.0075993 -0.00077503 0.0013998
0.0017959 0.0017564 0.00061659 0.0019889
-0.0018143 0.0016832 -0.023858 -0.0075172 0.31534 0.1619 0.0013764 -0.00018366
0.0010962 0.00037606 0.00021308 0.00040965
-0.0008973 -0.0019648 -0.00076183 0.0014207 0.0013588 -0.00018291 0.11041 0.25659
0.0017868 -0.019711 -5.0884e-05 7.2934e-05
-0.0010626 0.0034749 0.0017847 0.0017431 0.0011031 0.00041594 0.0016824 -0.019718
-0.0027143 0.22506 0.0041178 -0.015588
0.0025905 0.0011948 0.00057793 0.0019504 0.00022867 0.00035497 -0.00013663 6.1905e-05
0.0040933 -0.015569 0.024991 0.31898
1340000000 0.20837 0.23579 -0.017155 -0.019735 0.00045089 0.0041276 -0.0018167 -0.00073714
0.0015523 0.0028715 0.0018264 -0.0014405
-0.017115 -0.01973 0.03667 0.3719 -0.02062 0.005003 -0.00013597 0.0019288
0.0018263 0.00087865 0.0012316 0.00085005
0.00047725 0.0041429 -0.02061 0.0051007 0.33807 0.11323 0.0008437 -0.00093336
0.000666 -0.00056255 0.00014697 0.00025451
-0.0018343 -0.00072059 -0.0001233 0.0019239 0.00082916 -0.00090978 0.14338 0.23561
-0.0082189 -0.017282 0.0009526 0.0005776
0.0015581 0.0028835 0.0018256 0.00084025 0.00062681 -0.00055787 -0.0082317 -0.017284
0.027555 0.22263 -0.0031311 -0.01425
0.0018499 -0.0014125 0.0012856 0.00080066 0.00014197 0.00027378 0.0010402 0.00056824
-0.0030812 -0.014232 0.063595 0.31501
1400000000 0.2424 0.1992 -0.023685 -0.0084109 0.0047643 0.0029939 -0.0021366 0.00082414
0.0026285 0.0010379 0.00034481 -0.0013214
-0.023651 -0.0084075 0.074195 0.35984 -0.013719 0.012605 0.0012896 0.001244
0.0011337 -0.0006139 0.0011404 0.00016857
0.0047753 0.0029952 -0.013688 0.012691 0.35096 0.059489 -0.00010329 -0.0013446
0.00018734 -0.00015054 0.00039786 0.000258
-0.0021275 0.00080913 0.0012842 0.0012469 -9.6368e-05 -0.0013252 0.17228 0.20697
-0.014626 -0.010283 -0.00074935 -0.00029072
0.0025938 0.00098562 0.0011457 -0.00061807 0.00021026 -0.00017992 -0.014693 -0.010222
0.060475 0.22263 -0.0096168 -0.0093177
0.0002903 -0.0013794 0.0011216 0.00019764 0.00046698 0.00026937 -0.00081224 -0.00029868
-0.0096261 -0.0093429 0.10822 0.30614
1460000000 0.2666 0.15597 -0.020799 0.0043007 0.0050378 -0.0016724 -0.001504 0.0016745
0.0022007 -0.00044563 -0.00025985 -0.00082739
-0.020786 0.0042691 0.10943 0.33802 -0.0047047 0.014894 0.0016039 0.0002922
0.0011413 -0.0012423 0.0012342 -0.00054371
0.0050461 -0.0017338 -0.0046156 0.014933 0.35765 0.0048213 -0.001076 -0.0010504
0.00024984 -0.00032674 0.00073414 -0.00030904
-0.0014902 0.0017153 0.0016094 0.00027646 -0.0011156 -0.0010691 0.19944 0.17833
-0.01561 -0.0033805 -0.00092938 0.0019953
0.0022165 -0.00046826 0.0011118 -0.0012297 0.00027524 -0.00034217 -0.015624 -0.003364
0.091077 0.21106 -0.011933 -0.0031796
-0.00020806 -0.00078882 0.0012282 -0.00060223 0.00069796 -0.00025015 -0.00091443 0.0019714
-0.011933 -0.0031528 0.14292 0.28624
1520000000 0.27929 0.11414 -0.015343 0.0099928 0.0030576 -0.0039048 0.00017456 0.0026164
0.0024651 -0.0019764 -0.0010955 -0.0001232
-0.015338 0.00998 0.14305 0.32369 0.0024607 0.011896 0.0016744 -0.00066857
0.00019613 -0.0010444 0.00034495 -0.00092816
0.0030523 -0.0038992 0.0025232 0.011921 0.34976 -0.053008 -0.00079921 -0.0003822
0.00065841 -0.0010145 0.00010551 -7.3489e-05
0.0001763 0.002589 0.0016572 -0.00066809 -0.00078176 -0.00037475 0.22241 0.13965
-0.015307 0.0024346 0.0014348 0.0020202
0.0024847 -0.0020063 0.00018372 -0.0010655 0.00065258 -0.0010405 -0.015311 0.0024612
0.11882 0.2004 -0.01189 0.0014419
-0.0010787 -0.0001518 0.00036505 -0.0009423 0.00014034 -8.0193e-05 0.0014393 0.0019824
-0.011918 0.00141 0.17606 0.26717
1580000000 0.28946 0.069467 -0.0086739 0.01356 -0.0012158 -0.004489 0.0015196 0.0018099
-0.00022602 -0.0023082 -9.8382e-05 0.00038685
-0.0086883 0.013555 0.17052 0.29976 0.005417 0.0066324 0.00059214 -0.0014994
-0.00041501 -0.0011487 -0.0001563 -0.00069548
-0.0012625 -0.004508 0.005459 0.0066154 0.32842 -0.10941 -0.0014896 0.00033358
-0.00039543 -0.0013119 0.000289 -0.00053937
0.0015083 0.0018233 0.00059564 -0.001507 -0.0015028 0.0003124 0.2365 0.101
-0.011648 0.0076858 0.0021859 0.00067925
-0.00027045 -0.0022891 -0.00042873 -0.0011251 -0.00041602 -0.001356 -0.011642 0.0077176
0.14471 0.18636 -0.009299 0.0076294
-8.9002e-05 0.00041877 -0.000197 -0.00070648 0.00027551 -0.00053639 0.0021967 0.00068641
-0.009239 0.0076344 0.20963 0.24242
1640000000 0.29276 0.027934 -0.0016329 0.012536 -0.0027366 -0.0020176 0.0027295 0.00099962
-0.00060827 -0.0018055 -0.00030388 0.00035399
-0.0016295 0.01251 0.20104 0.27497 0.0053104 0.0020353 -0.00050478 -0.001846
-0.00097846 -0.00056097 -0.00045426 -0.00064936
-0.0027122 -0.0020309 0.005365 0.0020076 0.29908 -0.15907 -0.00072426 0.0012448
-0.001176 -0.0009803 -0.00011192 -0.00036628
0.0027396 0.00099622 -0.00052998 -0.0018479 -0.00071242 0.0012529 0.24959 0.051422
-0.0073067 0.0087328 0.0024694 -0.00065372
-0.00060315 -0.0018179 -0.00098539 -0.00059785 -0.0011508 -0.0010071 -0.007284 0.0087626
0.16887 0.16525 -0.0043485 0.0096746
-0.0003038 0.00036197 -0.00043558 -0.0006398 -0.00010528 -0.00037574 0.0024631 -0.00067146
-0.004373 0.0096645 0.23618 0.21169
1700000000 0.28582 -0.016394 0.0018925 0.0096834 -0.0031746 0.00036867 0.0030856 -0.0012641
-0.0022355 -0.00061462 0.00051279 0.00044645
0.0018794 0.009665 0.21881 0.24412 0.0027254 -0.00043048 -0.001403 -0.00070632
-0.00083229 -0.00013885 -0.00075455 -0.00044004
-0.0031849 0.00035215 0.0027126 -0.00046122 0.25468 -0.19678 0.00017051 0.0016519
-0.0021024 -0.00016923 -0.00025952 -0.00085853
0.0030808 -0.0012546 -0.0014065 -0.00071149 0.00015733 0.0016126 0.24598 0.0015218
-0.0045547 0.0095821 0.0017572 -0.0020758
-0.0022831 -0.00059944 -0.00082938 -0.00014725 -0.0020974 -0.00021297 -0.0045575 0.0095929
0.18755 0.14868 0.00060456 0.0097863
0.00053697 0.00044536 -0.00079854 -0.00043327 -0.0002818 -0.00088746 0.001731 -0.0020271
0.00061598 0.0098002 0.25341 0.17834
1760000000 0.27572 -0.064751 0.0042997 0.0064113 -0.002119 0.0012126 0.0013214 -0.0034937
-0.001275 0.00060741 0.00010743 -0.00038789
0.0042714 0.0064093 0.24605 0.20497 6.8103e-05 -0.0017805 -0.00128 3.336e-05
-0.0011895 0.00095011 -0.00055993 0.00031813
-0.0020919 0.0012091 6.586e-05 -0.0017731 0.20674 -0.22871 0.0011607 0.0014334
-0.0011496 0.0015427 -0.0013698 -0.00068423
0.001319 -0.0034909 -0.0012915 5.4798e-05 0.0011129 0.0014789 0.23795 -0.049826
-0.0010625 0.0086949 -0.00016819 -0.0024946
-0.0012811 0.00057768 -0.0011725 0.00095665 -0.0011159 0.0015339 -0.0010617 0.0087064
0.20482 0.11749 0.0045886 0.0071209
4.8578e-05 -0.00045094 -0.00053323 0.00029599 -0.0013332 -0.00071169 -0.00019501 -0.0025102
0.0045665 0.007108 0.26772 0.14145
1820000000 0.25202 -0.10286 0.0045723 0.0028682 0.00023423 0.0024095 -0.0009409 -0.0030887
-0.0012219 0.00089634 -9.4474e-05 -3.6941e-05
0.0045437 0.0028532 0.25631 0.17489 -0.0021803 6.8306e-05 -0.0014363 0.00093872
-4.4511e-05 0.0011939 -0.00063906 0.00039752
0.00026564 0.0023859 -0.0022002 9.5401e-05 0.15589 -0.2442 0.0017574 0.00060053
-0.00016614 0.0023186 -0.0017019 0.00011373
-0.00097687 -0.0030532 -0.001451 0.0009418 0.0017837 0.00056383 0.20719 -0.098056
0.0003595 0.0074342 -0.0015649 -0.0017799
-0.0012499 0.0009144 -5.0305e-05 0.0011939 -0.00020154 0.0023222 0.00039276 0.0074105
0.22484 0.091012 0.0055526 0.0031674
-6.5485e-05 -9.4236e-05 -0.00061755 0.000403 -0.0016746 7.1579e-05 -0.0015864 -0.001769
0.0055438 0.0031716 0.2709 0.10565
1880000000 0.21723 -0.14298 0.0023168 0.00058637 -8.5547e-05 0.0022453 -0.0028409 -0.0024499
-0.00014421 0.0016385 0.00042007 -0.00046687
0.0023075 0.00058572 0.26115 0.12925 -0.0039505 0.0029586 -0.00026318 0.001833
0.0005646 0.0013501 5.6613e-05 0.00095465
-8.1596e-05 0.0022325 -0.0039184 0.0029966 0.10391 -0.2511 0.001997 -0.001152
0.0017274 0.0020185 -0.0011541 0.0014869
-0.0028393 -0.0024247 -0.00025367 0.0018212 0.0019781 -0.001175 0.16669 -0.13773
0.0015707 0.0054248 -0.002287 0.00032482
-0.00011518 0.0016388 0.00061951 0.0013579 0.0017423 0.0019817 0.0016065 0.0054447
0.23176 0.063399 0.005833 0.0010472
0.00040091 -0.0004614 4.3786e-05 0.00095308 -0.0010533 0.0014469 -0.0023086 0.00034762
0.0058426 0.0010287 0.27229 0.072331
1940000000 0.17915 -0.17006 0.00021088 -0.0011091 0.001937 0.0019108 -0.0038774 0.00035577
0.001173 0.00087806 -0.00062 -0.00070851
0.00022582 -0.0011142 0.26336 0.097377 -0.0018736 0.0058925 0.0011912 0.0014348
0.0019969 0.00044456 0.00089187 0.00029047
0.0019468 0.0018729 -0.0018422 0.0058893 0.060448 -0.24332 0.00061236 -0.0023578
0.0022865 0.00037732 0.00027037 0.0017767
-0.0038821 0.00040664 0.0011989 0.0014408 0.00068158 -0.0024068 0.11441 -0.16952
0.00085239 0.0037636 -0.0015502 0.0014588
0.001147 0.00090874 0.0019972 0.00042841 0.0023259 0.00034578 0.00090111 0.003775
0.23919 0.027058 0.0042983 -0.0029443
-0.00068157 -0.00068331 0.00089563 0.00030877 0.00035838 0.0018598 -0.0015553 0.0014596
0.0042837 -0.0029423 0.26317 0.035976
2000000000 0.13246 -0.18465 -0.0034844 0.00090137 0.002863 0.0010678 -0.0025358 0.0037106
0.0007924 0.00038672 -0.00087892 0.00041759
-0.003506 0.00093193 0.24945 0.061994 -0.00044243 0.0078733 0.0016935 0.00028587
0.001223 -0.0013757 0.00036882 9.6464e-05
0.0028547 0.0010681 -0.0003773 0.0078678 0.018698 -0.2287 -0.0015869 -0.0015303
0.00204 -0.0010264 0.0017521 0.0014658
-0.0024864 0.0037397 0.0017093 0.00024637 -0.00158 -0.0015603 0.060118 -0.17894
-0.00068909 0.0033282 -0.00019395 0.0020901
0.00076283 0.00030601 0.0012259 -0.0013665 0.0020747 -0.0010733 -0.00066406 0.0033434
0.23774 -0.005058 0.00072 -0.0039191
