!Keysight Technologies,M9804A,MY58100912,A.14.10.03
!Date: Thursday, April 27, 2023 10:28:33
!Correction: S11(C  6-Port  ) 
!S12(C  6-Port  ) 
!S13(C  6-Port  ) 
!S14(C  6-Port  ) 
!S15(C  6-Port  ) 
!S16(C  6-Port  ) 
!S21(C  6-Port  ) 
!S22(C  6-Port  ) 
!S23(C  6-Port  ) 
!S24(C  6-Port  ) 
!S25(C  6-Port  ) 
!S26(C  6-Port  ) 
!S31(C  6-Port  ) 
!S32(C  6-Port  ) 
!S33(C  6-Port  ) 
!S34(C  6-Port  ) 
!S35(C  6-Port  ) 
!S36(C  6-Port  ) 
!S41(C  6-Port  ) 
!S42(C  6-Port  ) 
!S43(C  6-Port  ) 
!S44(C  6-Port  ) 
!S45(C  6-Port  ) 
!S46(C  6-Port  ) 
!S51(C  6-Port  ) 
!S52(C  6-Port  ) 
!S53(C  6-Port  ) 
!S54(C  6-Port  ) 
!S55(C  6-Port  ) 
!S56(C  6-Port  ) 
!S61(C  6-Port  ) 
!S62(C  6-Port  ) 
!S63(C  6-Port  ) 
!S64(C  6-Port  ) 
!S65(C  6-Port  ) 
!S66(C  6-Port  ) 
!S6P File: Measurement: :
# Hz S  RI   R 50
500000000 -0.32545 -0.061764 -0.0095595 -0.001863 -0.0085781 0.011582 -0.0043193 0.011744
0.013009 0.0056763 -0.0055789 0.0088837
-0.0096702 -0.0020773 -0.40805 -0.07349 0.0083082 -0.011584 0.0011526 0.012136
0.0090963 0.0028151 0.00024161 0.014305
-0.0086224 0.011492 0.0082293 -0.011601 -0.25455 0.19161 0.0070563 0.0033326
-0.0018481 0.0076775 0.0007386 0.012584
-0.00436 0.012031 0.00088715 0.012139 0.0070173 0.003293 -0.32464 0.042184
-0.019801 -0.0055832 0.016678 0.026597
0.013504 0.0057661 0.008961 0.0030716 -0.0020173 0.0080195 -0.019764 -0.0052044
-0.21284 -0.24117 -0.028912 0.0040986
-0.0053234 0.0087931 0.0005468 0.01425 0.001331 0.01278 0.016902 0.026007
-0.028713 0.0034326 -0.25994 -0.14502
560000000 -0.31375 0.10508 -0.021562 -0.06761 0.00056914 0.013227 0.0059599 0.010813
0.011361 0.0049294 0.010878 0.009066
-0.021289 -0.067417 -0.3693 0.090445 -0.041288 -0.039533 0.012876 0.0037373
-0.012977 -0.0059426 0.0049691 -0.00045031
0.00045106 0.013191 -0.041278 -0.03946 -0.17966 0.24062 -0.00045483 -0.0055993
0.017955 0.0061028 0.0079175 -0.0058934
0.005692 0.010595 0.012902 0.0037544 -0.00070919 -0.0055038 -0.30214 0.13175
0.0070092 -0.023328 0.0058946 -0.020991
0.011511 0.0048282 -0.013226 -0.0058822 0.018622 0.0064762 0.0071568 -0.023686
-0.30154 -0.059265 0.013507 -0.053433
0.011397 0.0096029 0.0049356 -0.00063218 0.0078712 -0.0056174 0.0057796 -0.021328
0.013675 -0.052885 -0.32671 0.0062257
620000000 -0.2739 0.081862 -0.023319 0.0088653 0.0031259 0.0090341 0.0080207 -0.0041826
0.012532 -0.00082265 0.0010001 -0.00096445
-0.023466 0.0087513 -0.39822 0.0362 -0.019527 1.2928e-05 -0.0018153 -0.0019095
0.012482 -0.0053172 0.00099651 -0.0029911
0.0032178 0.0090479 -0.019576 6.7981e-05 -0.15432 0.24969 -0.0017662 -0.0052988
-0.0038643 -0.0029114 0.0087932 -0.0028442
0.0081737 -0.0041555 -0.0017332 -0.002014 -0.0015228 -0.0053335 -0.26157 0.14133
-0.037723 -0.020945 0.010958 0.029192
0.012447 -0.0013114 0.012412 -0.005295 -0.0041533 -0.0027834 -0.03827 -0.020286
-0.2143 -0.098144 -0.042525 0.010818
0.00021715 -0.00092878 0.00078444 -0.0030465 0.0085955 -0.0033935 0.012088 0.028689
-0.042755 0.012017 -0.24517 -0.033261
680000000 -0.23976 0.17441 -0.026496 -0.015268 0.0045295 0.005407 0.00093806 -0.0076503
-0.0017143 -0.011825 0.0059721 -0.0063131
-0.026477 -0.015207 -0.38957 0.13728 -0.033231 -0.0020134 -0.0018064 -0.00050258
-0.0015306 -0.0094026 -0.00056375 -0.0019863
0.004561 0.0054722 -0.033231 -0.0019027 -0.10799 0.27316 -0.00084832 0.00019586
-0.0014613 0.001078 -0.0029397 -0.0089009
0.0010626 -0.0076343 -0.0018808 -0.00047329 -0.00082092 0.00026303 -0.21824 0.19302
-0.022905 -0.0084385 -0.0095484 -0.012244
-0.0021547 -0.01183 -0.0017413 -0.0096472 -0.0015031 0.00094194 -0.023181 -0.0081273
-0.2822 0.0047635 -0.0047775 -0.0066388
0.0061182 -0.0066924 -0.0010649 -0.0019359 -0.0031689 -0.0089377 -0.0093851 -0.011945
-0.0047888 -0.0070333 -0.25988 0.071152
740000000 -0.19432 0.16716 -0.041395 0.026099 0.013547 -0.0036865 0.00011385 -0.003814
-0.0038943 -0.0019359 -0.0069249 0.0030685
-0.041328 0.02605 -0.33617 0.15712 -0.03735 0.034507 0.00025438 -0.0053472
-0.013228 0.0070266 -0.00093545 -0.0049166
0.013573 -0.0035601 -0.037261 0.03469 -0.075045 0.27455 -0.0019197 0.0031972
-0.0019155 -0.0054529 -0.0024635 0.00090639
0.00032134 -0.0039395 0.00011184 -0.0055982 -0.0017857 0.0032812 -0.20176 0.2007
-0.043133 -0.0098947 0.023199 0.016294
-0.0036441 -0.0022567 -0.013375 0.0065795 -0.0016467 -0.0052607 -0.04322 -0.010505
-0.17983 0.040352 -0.045763 -0.0017818
-0.0065659 0.003488 -0.0010574 -0.0050842 -0.0021993 0.00089935 0.022348 0.016885
-0.044879 -0.00081319 -0.24913 0.075697
800000000 -0.16614 0.2131 -0.023068 0.015997 0.0055092 -0.010183 -0.0047128 -0.0022823
-0.0036648 0.0016808 0.0038837 0.00060131
-0.023088 0.015926 -0.34504 0.22838 -0.008918 0.034811 -0.0021736 0.0023166
3.8161e-05 0.0025006 0.00056706 0.0057928
0.0054719 -0.010188 -0.0088389 0.034853 -0.036454 0.301 0.0010869 0.0011252
0.00024766 0.0033272 -0.0019061 0.00075533
-0.0046061 -0.002274 -0.0022001 0.0023071 0.001072 0.0011473 -0.17403 0.22792
-0.029339 0.013032 0.014477 -0.0099353
-0.0036231 0.0016929 0.00019759 0.0024901 0.00028939 0.00326 -0.029607 0.0131
-0.23593 0.063398 -0.018737 0.020729
0.003987 0.00075861 0.00067677 0.0054592 -0.0019796 0.00079381 0.014697 -0.010058
-0.018642 0.021037 -0.24926 0.12835
860000000 -0.13215 0.23502 -0.018636 0.030846 -0.0032245 -0.010013 -0.0017093 0.00067528
0.0046413 0.0050103 -0.0041103 -0.0032673
-0.01863 0.030848 -0.29792 0.27369 0.0077808 0.034742 0.0003348 0.0021199
0.0041524 0.00020056 0.0036485 -7.8057e-05
-0.0032564 -0.010041 0.0078829 0.034739 0.012771 0.31147 -0.00041878 -0.00046768
0.002633 -0.0017151 0.001651 0.0041954
-0.0017104 0.00073091 0.0003105 0.002016 -0.00044134 -0.00045802 -0.13751 0.24025
-0.018771 0.017841 -0.0068743 -0.0097576
0.0044506 0.0051051 0.0040418 0.00034206 0.002607 -0.0017056 -0.018698 0.017698
-0.18039 0.12505 -0.028072 0.016042
-0.0038581 -0.0030937 0.0038016 1.0446e-05 0.0016505 0.0043956 -0.0066887 -0.0095032
-0.027433 0.016927 -0.19722 0.17522
920000000 -0.10914 0.25846 0.0042714 0.039766 -0.0092838 -0.0042916 -0.0018417 0.0020622
0.00033036 0.0012223 0.0031137 -0.00075088
0.0042921 0.039724 -0.27141 0.29582 0.028326 0.023158 0.0015364 0.0011332
0.0068971 -0.00011512 0.0042026 -0.0024703
-0.0092715 -0.004262 0.028435 0.02308 0.05944 0.31328 0.0016756 -2.8478e-06
0.00055479 -0.00046122 0.0010734 -0.0013658
-0.0017725 0.0020276 0.0015306 0.0011374 0.0016532 -2.359e-05 -0.11413 0.25736
-0.012782 0.031425 0.0040256 -0.006512
0.0003483 0.0012578 0.0070187 -0.00011323 0.00060334 -0.00040314 -0.01275 0.03141
-0.17536 0.13007 -0.0032536 0.029238
0.0032361 -0.00087189 0.0041362 -0.0027226 0.0011049 -0.0012715 0.0040308 -0.0065349
-0.0032644 0.029134 -0.20867 0.18946
980000000 -0.062849 0.28121 0.016852 0.031154 -0.0093386 0.0048472 0.0021493 0.0035978
0.0039421 -0.0014472 -0.0038791 -0.0028235
0.016827 0.031102 -0.21963 0.33361 0.033457 0.0051593 0.0018957 -0.00039101
0.0018818 -0.0061331 -0.00069204 -0.0027089
-0.0093205 0.0048484 0.033522 0.0050288 0.10633 0.30836 0.00041958 -0.0011529
0.00018643 -0.0017796 0.0015489 -0.00038924
0.0021129 0.003513 0.0018695 -0.00035457 0.00042375 -0.0011505 -0.075289 0.26986
0.0068024 0.031193 -0.0095856 -0.0080519
0.004027 -0.0015241 0.0017986 -0.0061575 0.00024 -0.001784 0.0069593 0.031082
-0.14555 0.16778 0.0043334 0.021263
-0.0039077 -0.0028482 -0.00072723 -0.0028467 0.0015643 -0.00036198 -0.0097594 -0.0078611
0.0045788 0.021217 -0.16756 0.23886
1040000000 -0.021518 0.29036 0.033583 0.020052 -0.0009041 0.0076591 0.0026331 0.00075217
0.00023222 -0.0033995 -0.00019796 -0.0014466
0.033496 0.020079 -0.18417 0.34792 0.029912 -0.014578 0.0013246 -0.001757
-0.0023565 -0.0022022 -0.0012575 -0.0029887
-0.00088207 0.0076603 0.029875 -0.01472 0.15341 0.29505 -0.00059527 -0.0013956
-0.0015966 -0.0010041 -0.00052812 -0.0013125
0.0025811 0.00075058 0.0013114 -0.0017172 -0.00059059 -0.001398 -0.047432 0.27952
0.019167 0.020151 -0.0023722 0.0013554
0.00026758 -0.00344 -0.002399 -0.002194 -0.0015192 -0.00098463 0.019257 0.020108
-0.11261 0.17712 0.013303 0.020381
-8.4135e-06 -0.001418 -0.0013392 -0.0028512 -0.00057527 -0.0012616 -0.0024108 0.0013724
0.013594 0.020424 -0.14685 0.25903
1100000000 0.023267 0.30092 0.03726 -0.002898 0.0037826 0.0041205 0.0022322 -0.0011557
-0.0024132 -0.0032267 -0.0044289 0.0001175
0.037223 -0.0029003 -0.14082 0.36829 0.015425 -0.027956 -0.00028911 -0.0018263
-0.0034044 -0.0008138 -0.0037725 -0.00060276
0.0038058 0.0041171 0.01533 -0.028059 0.19996 0.27558 -0.0017579 0.0003665
-0.0016859 0.00071206 -0.0011261 -0.00064584
0.0022598 -0.0011763 -0.00024174 -0.0017617 -0.0017654 0.00036764 -0.0069082 0.285
0.025443 0.0067046 -0.002607 0.0002169
-0.002411 -0.0032343 -0.0034833 -0.00088037 -0.0016741 0.00070512 0.025519 0.0065581
-0.095935 0.19533 0.020095 0.010321
-0.0043699 9.2425e-05 -0.0037891 -0.00049062 -0.0011535 -0.00062474 -0.0025895 0.00018248
0.019914 0.010414 -0.10234 0.2926
1160000000 0.07511 0.29812 0.025537 -0.020349 0.0036121 -0.00083911 -0.00028607 -0.0024413
-0.0042191 -0.00099326 -0.0010435 0.0040919
0.025544 -0.0203 -0.095682 0.3735 -0.0038741 -0.028862 -0.0016007 -0.0015037
-0.0026151 0.0024466 -0.0014515 0.002071
0.0036251 -0.00084883 -0.0040061 -0.028894 0.24416 0.24505 -0.00056646 0.0016717
-0.0003867 0.0017662 -0.001095 0.00020803
-0.00028674 -0.0024591 -0.0016177 -0.0014813 -0.00058363 0.0016659 0.033496 0.28191
0.022691 -0.010165 -0.003493 0.0052055
-0.0042661 -0.00089535 -0.0025768 0.0025054 -0.00040046 0.0017575 0.022754 -0.010102
-0.059955 0.20707 0.020142 0.0016606
-0.0011675 0.0041463 -0.001545 0.0019998 -0.0011873 0.00017508 -0.0035361 0.0051624
0.019998 0.0011879 -0.053719 0.2959
1220000000 0.11859 0.28867 0.012251 -0.030489 -0.0010938 -0.0017267 -0.00016766 -0.0008938
-0.0028238 0.0022856 0.0011439 0.0020979
0.012239 -0.030449 -0.051374 0.3876 -0.017031 -0.020954 -0.0024597 0.00063932
7.1982e-05 0.0029617 -0.00080082 0.0019734
-0.0010838 -0.0017284 -0.017153 -0.020917 0.28316 0.20597 0.00094784 0.0014469
0.00051427 0.0011559 4.7945e-05 0.00058538
-0.00017256 -0.00092483 -0.0024739 0.00063706 0.00093947 0.0014483 0.073073 0.27295
0.011619 -0.017488 0.0023229 0.0016525
-0.0027781 0.0023475 8.269e-05 0.0029758 0.00048647 0.0011424 0.011567 -0.017462
-0.038241 0.21912 0.015593 -0.012462
0.0011375 0.0020436 -0.00078734 0.0018722 7.4351e-05 0.00057946 0.0023246 0.0016035
0.015586 -0.012472 -0.024588 0.31522
1280000000 0.16964 0.26946 -0.0070043 -0.02972 -0.0020215 0.0014898 -0.00093961 -0.0019131
-0.0010097 0.0034475 0.0024874 0.001129
-0.0069334 -0.029684 -0.0040545 0.37965 -0.023809 -0.0078187 -0.00065245 0.0014008
0.0016588 0.0017498 0.00062731 0.0020574
-0.0019957 0.0014803 -0.023896 -0.0077245 0.31437 0.16272 0.0013839 -0.00015817
0.0010237 0.00037548 0.00013999 0.00049973
-0.00093148 -0.001927 -0.00067927 0.0014115 0.0014096 -0.00017508 0.10984 0.25638
0.0016957 -0.020008 -5.9503e-05 -4.2412e-05
-0.00096011 0.0034217 0.0016533 0.0017628 0.0010132 0.00034275 0.0016775 -0.020024
-0.00051905 0.2262 0.0042906 -0.015431
0.0025847 0.001085 0.00066604 0.0020334 0.00013309 0.00056458 -3.9557e-05 -8.6592e-05
0.0042721 -0.015748 0.024093 0.31882
1340000000 0.20742 0.23657 -0.017131 -0.0203 0.00016084 0.0040806 -0.0017131 -0.00063301
0.0015509 0.0028421 0.0016097 -0.0014265
-0.017076 -0.020286 0.035406 0.37168 -0.020766 0.0048063 -0.00013174 0.0018346
0.0016995 0.00083154 0.0011527 0.00076016
0.00018236 0.0040409 -0.020769 0.0049142 0.33717 0.11453 0.0007254 -0.0009538
0.00059326 -0.00057396 0.00015492 0.00023384
-0.00172 -0.00063815 -0.00013116 0.0018367 0.00072558 -0.00094633 0.14255 0.23564
-0.0084173 -0.017156 0.00095405 0.00043113
0.0015768 0.0028523 0.0017275 0.00082952 0.00058576 -0.00055446 -0.0084266 -0.017117
0.02927 0.22393 -0.002765 -0.014467
0.0017367 -0.0014076 0.0011903 0.00073588 0.00022856 0.00028118 0.0010082 0.00038968
-0.0028315 -0.014547 0.062103 0.31542
1400000000 0.24162 0.19976 -0.023895 -0.0088292 0.0045783 0.0030992 -0.0020333 0.00073997
0.0026205 0.00091898 0.00034347 -0.0013273
-0.023887 -0.0088332 0.073378 0.35932 -0.013864 0.012557 0.0011978 0.0013001
0.0010917 -0.00058826 0.0011746 0.00019914
0.004596 0.0030838 -0.013816 0.012665 0.3504 0.060681 -5.6857e-05 -0.0013043
7.4269e-05 -0.00021101 0.00053994 0.00029446
-0.002023 0.00073461 0.0012128 0.0012834 -4.8259e-05 -0.0013175 0.17142 0.20691
-0.014774 -0.010301 -0.00092039 -0.00047182
0.0026229 0.00096521 0.0010915 -0.00059857 0.0001333 -0.00020815 -0.014844 -0.010206
0.062851 0.22295 -0.0096101 -0.009431
0.00032647 -0.0013053 0.0011963 0.00019396 0.00050255 0.00025424 -0.00091644 -0.00041515
-0.0096293 -0.0095114 0.10781 0.30661
1460000000 0.26545 0.15661 -0.02117 0.0039912 0.0049271 -0.0016121 -0.0014598 0.0015649
0.0020862 -0.00049214 -8.7716e-05 -0.00082175
-0.021132 0.0039534 0.10795 0.33742 -0.004904 0.014808 0.0015445 0.00025552
0.00109 -0.0011954 0.0011244 -0.0005755
0.0049315 -0.0016275 -0.0048191 0.014837 0.35685 0.0057287 -0.00099268 -0.0010521
0.00035958 -0.00026535 0.00068002 -0.00029465
-0.0014527 0.0015929 0.0015503 0.00024566 -0.00098116 -0.0010288 0.19805 0.17836
-0.015766 -0.0031555 -0.0010056 0.0019188
0.0021411 -0.00049408 0.001088 -0.0011902 0.00035061 -0.00031067 -0.015791 -0.0031158
0.092955 0.21115 -0.011984 -0.0032994
-0.00011416 -0.00087526 0.0011816 -0.0005613 0.00065441 -0.00033311 -0.0010613 0.0020334
-0.011901 -0.0033676 0.14161 0.28657
1520000000 0.27804 0.11525 -0.015768 0.0099545 0.0030121 -0.0037774 0.0001272 0.0026066
0.0023456 -0.0019467 -0.0010376 -0.00010921
-0.015754 0.0099418 0.14139 0.32358 0.0023191 0.011967 0.0016376 -0.00062797
0.00023014 -0.0010092 0.00031438 -0.0010362
0.0029679 -0.0038028 0.002381 0.011965 0.34896 -0.051172 -0.00083018 -0.00035028
0.00060987 -0.00098476 0.00013219 -0.0001942
0.00013564 0.0025923 0.0016435 -0.00065245 -0.00081411 -0.00034099 0.2212 0.14024
-0.015221 0.0026885 0.0013829 0.0020243
0.0023449 -0.0019571 0.00020034 -0.0010151 0.00061138 -0.00098233 -0.015255 0.0027595
0.12074 0.20034 -0.011931 0.0011816
-0.0010281 -0.00014609 0.0002949 -0.0010553 0.00017075 -0.0001871 0.0013606 0.0020041
-0.011894 0.0012591 0.17498 0.26791
1580000000 0.28839 0.070417 -0.0090195 0.013752 -0.0012232 -0.0043852 0.0014023 0.0018317
-0.00026994 -0.002298 -0.00017465 0.0003698
-0.0090185 0.013737 0.16875 0.29947 0.0053019 0.0068017 0.00063363 -0.0014954
-0.00046621 -0.0011593 -0.00030667 -0.00074919
-0.0012605 -0.0043819 0.0053377 0.006783 0.32819 -0.1079 -0.0014475 0.00031577
-0.00054348 -0.0013404 0.00028923 -0.00058854
0.0014088 0.001841 0.00063535 -0.0014996 -0.0014448 0.00030656 0.23534 0.10161
-0.01138 0.0078477 0.0019834 0.00083998
-0.00030601 -0.0022591 -0.00048859 -0.0011529 -0.000578 -0.0013765 -0.011355 0.0078781
0.14628 0.18586 -0.0095188 0.007573
-0.00019596 0.00038975 -0.00029962 -0.00070797 0.00030014 -0.00055508 0.0019973 0.00082256
-0.0095402 0.0075703 0.20883 0.24279
1640000000 0.29152 0.029897 -0.0018975 0.012851 -0.0028578 -0.0019177 0.0027374 0.001053
-0.00065667 -0.0017775 -0.00043634 0.00049076
-0.0019134 0.012838 0.19857 0.27547 0.0051864 0.0021328 -0.00050894 -0.0018834
-0.0010062 -0.00058548 -0.00046107 -0.00063119
-0.0028754 -0.0018972 0.0051981 0.0020934 0.29899 -0.15699 -0.00078537 0.0011464
-0.0011586 -0.0010881 -0.00011403 -0.00046117
0.002745 0.0010644 -0.00052156 -0.0018836 -0.00078133 0.0011435 0.24825 0.052776
-0.0070727 0.0087588 0.0024987 -0.00054529
-0.00064105 -0.0017829 -0.00099391 -0.00055716 -0.0011734 -0.0010807 -0.0070588 0.0087722
0.17008 0.16496 -0.0044905 0.0096827
-0.00039336 0.0004876 -0.00049064 -0.00060264 -0.00016397 -0.0003873 0.0024168 -0.00055761
-0.0045385 0.0097031 0.235 0.21271
1700000000 0.28559 -0.01477 0.0019349 0.010021 -0.003092 0.00056749 0.0030992 -0.0011688
-0.0021447 -0.00060291 0.00056385 0.00043891
0.0019344 0.010018 0.21684 0.24481 0.0025835 -0.00034917 -0.0014756 -0.00072261
-0.00081318 -0.00010988 -0.00070611 -0.00034013
-0.0030682 0.00059453 0.0025946 -0.00037737 0.25503 -0.19563 4.3148e-05 0.0016093
-0.0020527 -2.2493e-05 -0.00030643 -0.00074746
0.0031016 -0.0011954 -0.0014814 -0.00073001 3.1264e-06 0.0016193 0.24521 0.0032665
-0.0042431 0.0093592 0.001659 -0.0019419
-0.0021356 -0.00060334 -0.00083044 -0.0001008 -0.0020796 -6.4217e-05 -0.0042241 0.0093643
0.1892 0.14828 0.00036081 0.009769
0.00050994 0.00042952 -0.00072415 -0.00035814 -0.00031879 -0.00080724 0.0017242 -0.0019823
0.00040305 0.0098644 0.25275 0.1791
1760000000 0.27533 -0.062916 0.0044372 0.0066868 -0.0018028 0.0011851 0.0013657 -0.0034354
-0.0013023 0.00059932 0.00023393 -0.00050125
0.0044262 0.0066794 0.24367 0.20602 1.8105e-05 -0.0015722 -0.0012925 8.1148e-05
-0.0011451 0.0009756 -0.00048024 0.00035617
-0.0018319 0.0012152 7.8683e-06 -0.0015868 0.20678 -0.22723 0.0011721 0.0013941
-0.0010395 0.0013889 -0.001244 -0.00068679
0.0013254 -0.003439 -0.0012746 6.9038e-05 0.0011702 0.0014241 0.23735 -0.048229
-0.001058 0.0084075 -9.1842e-05 -0.0024506
-0.0012536 0.00063111 -0.0011312 0.00097846 -0.001031 0.0013954 -0.0010316 0.0083976
0.20615 0.11669 0.0045131 0.0070804
0.0002522 -0.00052813 -0.00044893 0.00038271 -0.0013336 -0.00064722 -7.012e-05 -0.0024845
0.0044342 0.007108 0.26683 0.14192
1820000000 0.25221 -0.10078 0.0047266 0.0029518 0.00024581 0.0021014 -0.00073607 -0.0030892
-0.00098964 0.00094261 -5.6031e-05 -9.9075e-05
0.0047077 0.0029593 0.25461 0.17661 -0.0019697 0.0001757 -0.0014137 0.0010008
3.7503e-05 0.0012248 -0.00057714 0.00030355
0.00028769 0.0021277 -0.0019708 0.0001993 0.15671 -0.24264 0.0018525 0.00061482
-0.00018435 0.0023785 -0.0016486 0.00013942
-0.00078844 -0.003069 -0.001386 0.0010046 0.001831 0.00062423 0.20781 -0.096089
0.00042918 0.0071375 -0.0013932 -0.0017659
-0.00099269 0.00096524 3.1023e-05 0.0012295 -0.00017066 0.0023806 0.00048779 0.0071473
0.22628 0.090547 0.005411 0.0033338
-1.6728e-05 -0.00013364 -0.0005393 0.00036491 -0.001629 0.00015428 -0.0014864 -0.0017469
0.005387 0.0033208 0.27069 0.10689
1880000000 0.21834 -0.14125 0.002512 0.00072606 -0.00030641 0.0021177 -0.0028506 -0.0024149
-0.00010535 0.0016203 0.00051252 -0.00057482
0.0025135 0.00073849 0.25969 0.13088 -0.0038681 0.0029652 -0.00024976 0.0018449
0.00058614 0.0013189 0.00016682 0.00088487
-0.00029718 0.0021341 -0.0038665 0.002991 0.10495 -0.24995 0.0020566 -0.0013155
0.0015924 0.0018838 -0.0010919 0.0013124
-0.0029238 -0.0023567 -0.00025833 0.0018706 0.0020694 -0.0012814 0.16778 -0.13649
0.0013472 0.0052101 -0.0023413 0.00035925
-0.00013232 0.0016321 0.00057493 0.0013144 0.0015967 0.001865 0.0013367 0.0052391
0.23305 0.062022 0.0056762 0.0012305
0.00040732 -0.00054863 0.00010951 0.00090659 -0.0011079 0.0013089 -0.0023201 0.00026772
0.0057266 0.0012383 0.2716 0.073075
1940000000 0.18022 -0.16829 0.00048004 -0.0010372 0.0017881 0.0018495 -0.0039195 0.00021142
0.0012166 0.00072102 -0.00070953 -0.00067908
0.00049082 -0.0010411 0.26206 0.099573 -0.0016881 0.0058466 0.0011346 0.0013225
0.0019885 0.00032725 0.00083209 0.00023848
0.0018003 0.0018297 -0.0016585 0.0058701 0.06163 -0.2422 0.00050077 -0.0025262
0.0022461 0.00027222 0.0001384 0.0016782
-0.0039298 0.00022347 0.0011413 0.001316 0.00049516 -0.0025268 0.11562 -0.16835
0.00078855 0.0036735 -0.0012781 0.0010819
0.0011926 0.00064384 0.0019556 0.00029025 0.0022322 0.00027365 0.00078936 0.0036713
0.2401 0.025591 0.0044301 -0.0029579
-0.00068825 -0.0008131 0.00088521 0.00022905 0.00020595 0.0017327 -0.0013685 0.0011027
0.0043848 -0.0029128 0.26265 0.036998
2000000000 0.13415 -0.18368 -0.0031828 0.00085422 0.002856 0.0010925 -0.0024627 0.0037704
0.00076065 0.00056494 -0.0009146 0.00055493
-0.0031743 0.00085252 0.24893 0.064055 -0.00035301 0.0077639 0.0016507 0.0003226
0.0011068 -0.0013058 0.00029946 0.00018461
0.0028514 0.0010526 -0.00030867 0.007786 0.020026 -0.22807 -0.0016456 -0.0014153
0.0019835 -0.0010606 0.0016246 0.0015384
-0.0024791 0.0037193 0.0016538 0.00030767 -0.0016232 -0.0014345 0.061403 -0.17869
-0.0011098 0.0033402 -0.00027725 0.0022178
0.00082934 0.00048455 0.0011119 -0.0013255 0.0020063 -0.0010343 -0.0010848 0.0033303
0.23826 -0.0068289 0.00071074 -0.0037709
