!Keysight Technologies,M9804A,MY58100912,A.14.10.03
!Date: Thursday, April 27, 2023 10:28:33
!Correction: S11(C  6-Port  ) 
!S12(C  6-Port  ) 
!S13(C  6-Port  ) 
!S14(C  6-Port  ) 
!S15(C  6-Port  ) 
!S16(C  6-Port  ) 
!S21(C  6-Port  ) 
!S22(C  6-Port  ) 
!S23(C  6-Port  ) 
!S24(C  6-Port  ) 
!S25(C  6-Port  ) 
!S26(C  6-Port  ) 
!S31(C  6-Port  ) 
!S32(C  6-Port  ) 
!S33(C  6-Port  ) 
!S34(C  6-Port  ) 
!S35(C  6-Port  ) 
!S36(C  6-Port  ) 
!S41(C  6-Port  ) 
!S42(C  6-Port  ) 
!S43(C  6-Port  ) 
!S44(C  6-Port  ) 
!S45(C  6-Port  ) 
!S46(C  6-Port  ) 
!S51(C  6-Port  ) 
!S52(C  6-Port  ) 
!S53(C  6-Port  ) 
!S54(C  6-Port  ) 
!S55(C  6-Port  ) 
!S56(C  6-Port  ) 
!S61(C  6-Port  ) 
!S62(C  6-Port  ) 
!S63(C  6-Port  ) 
!S64(C  6-Port  ) 
!S65(C  6-Port  ) 
!S66(C  6-Port  ) 
!S6P File: Measurement: :
# Hz S  RI   R 50
500000000 -0.32735 -0.063453 -0.010005 -0.0010381 -0.0080131 0.011697 -0.004088 0.011798
0.013425 0.0060199 -0.0045078 0.0082362
-0.010002 -0.00096285 -0.40799 -0.074926 0.0083993 -0.011186 0.00081084 0.011098
0.0091343 0.0032812 0.0011928 0.012786
-0.0079589 0.011712 0.0083608 -0.011233 -0.25614 0.19073 0.0064225 0.0029878
-0.00163 0.0079751 0.00039045 0.012188
-0.0040133 0.011884 0.00080259 0.01117 0.0064193 0.0030053 -0.3262 0.041374
-0.019273 -0.0049397 0.016018 0.026353
0.013304 0.0060737 0.0091264 0.0032296 -0.0016293 0.0079825 -0.019325 -0.0049534
-0.21691 -0.23823 -0.02803 0.0038361
-0.0043076 0.0082575 0.0010167 0.012918 0.00052664 0.012142 0.016078 0.026379
-0.027966 0.0038668 -0.25997 -0.14648
560000000 -0.31564 0.10344 -0.021171 -0.067239 -0.00010326 0.013395 0.0056965 0.011115
0.01258 0.0056117 0.011059 0.010152
-0.021149 -0.06716 -0.3701 0.089483 -0.041176 -0.039611 0.01376 0.0032984
-0.01386 -0.0047901 0.0045915 -0.0015701
-9.522e-05 0.013363 -0.041316 -0.039573 -0.18171 0.24055 -0.0004941 -0.0049791
0.018337 0.0066947 0.0076502 -0.0057966
0.0057508 0.011102 0.013767 0.0032705 -0.00053843 -0.0049988 -0.30347 0.13081
0.0071848 -0.022355 0.005393 -0.02082
0.012469 0.0056091 -0.014031 -0.0048398 0.018403 0.0066573 0.0070899 -0.022476
-0.29895 -0.055104 0.011389 -0.050786
0.01059 0.01016 0.0045109 -0.0015611 0.007544 -0.0055743 0.00555 -0.021129
0.011548 -0.050492 -0.32857 0.0051732
620000000 -0.27465 0.081214 -0.023399 0.0087319 0.0031415 0.0088943 0.0076865 -0.0051709
0.012054 -0.00019276 -0.00034406 -0.003456
-0.023369 0.0087013 -0.39919 0.035666 -0.019204 -0.00011591 -0.0018293 -0.0019865
0.012134 -0.0055576 0.00048419 -0.0031251
0.0032371 0.0088824 -0.01923 -7.6232e-05 -0.1552 0.24937 -0.0011996 -0.0054936
-0.0040796 -0.002227 0.0086872 -0.0037911
0.0078666 -0.0051769 -0.0018347 -0.0020435 -0.00119 -0.0054996 -0.26185 0.13911
-0.039523 -0.019211 0.012128 0.026681
0.012064 -0.00026085 0.012088 -0.0055994 -0.0040401 -0.0022433 -0.039519 -0.01901
-0.21381 -0.094094 -0.044385 0.012844
-0.00018536 -0.0034888 0.00044962 -0.0029786 0.0086374 -0.0036799 0.012075 0.0263
-0.044533 0.013533 -0.24542 -0.034725
680000000 -0.24091 0.17379 -0.026282 -0.014955 0.0044454 0.0057022 0.0013756 -0.0071489
-0.0015407 -0.011641 0.0059794 -0.0068344
-0.026298 -0.014948 -0.3902 0.13689 -0.032687 -0.0022307 -0.0017949 -5.6382e-05
-0.0012943 -0.009152 -0.00083778 -0.0017823
0.0043998 0.0056623 -0.032731 -0.0021421 -0.10805 0.27265 -0.00088002 0.00032435
-0.0013186 0.0012328 -0.0029515 -0.008719
0.0012767 -0.0071506 -0.0017689 -7.8004e-05 -0.00086726 0.00032364 -0.21911 0.19243
-0.023206 -0.0076593 -0.0083926 -0.011622
-0.0016112 -0.011675 -0.0013306 -0.0091978 -0.0012985 0.0012188 -0.02332 -0.0076521
-0.28281 0.0097025 -0.005698 -0.0071546
0.0062028 -0.0069823 -0.0006868 -0.0018228 -0.0029475 -0.0088177 -0.00839 -0.011515
-0.005654 -0.00723 -0.2605 0.072836
740000000 -0.19555 0.16682 -0.040804 0.026238 0.013487 -0.0034075 7.8307e-05 -0.0039738
-0.0035536 -0.0018535 -0.0067308 0.0031908
-0.040799 0.026217 -0.33762 0.15752 -0.037514 0.03409 -8.8792e-05 -0.0057015
-0.013381 0.0070521 -0.0016289 -0.0059506
0.01349 -0.0034579 -0.037442 0.034262 -0.075214 0.27358 -0.0019284 0.003326
-0.0010389 -0.0054452 -0.0017633 0.00055843
0.0001146 -0.0040433 -0.00010289 -0.0057574 -0.0019023 0.00331 -0.20239 0.19976
-0.043462 -0.0095855 0.022445 0.016218
-0.0035731 -0.001864 -0.01326 0.0071345 -0.0010462 -0.0054008 -0.043503 -0.0095525
-0.17978 0.045049 -0.045463 -0.001374
-0.0068325 0.0031431 -0.0018199 -0.0059127 -0.0018943 0.00056968 0.022237 0.016211
-0.045533 -0.0011168 -0.25178 0.07623
800000000 -0.16648 0.21299 -0.022617 0.016105 0.0056783 -0.010223 -0.0043666 -0.0025764
-0.0040689 0.0020194 0.0043533 -4.975e-05
-0.022606 0.016101 -0.34506 0.22829 -0.0088456 0.03449 -0.0020654 0.0021176
-0.00027131 0.002308 0.00090955 0.0054308
0.0056647 -0.010212 -0.0087465 0.034572 -0.036434 0.29986 0.0013048 0.0011838
-0.00010733 0.0032648 -0.0015621 0.00086543
-0.004416 -0.0025095 -0.0020867 0.0021417 0.0013158 0.001182 -0.17377 0.22745
-0.029202 0.013039 0.015925 -0.010314
-0.0041299 0.002081 -0.00024356 0.0023326 -9.6798e-05 0.0032716 -0.029192 0.013049
-0.23382 0.067057 -0.019715 0.020959
0.004616 3.7875e-07 0.00089852 0.0053194 -0.0015293 0.00068272 0.015809 -0.01041
-0.019672 0.020895 -0.24641 0.12925
860000000 -0.13297 0.23438 -0.018539 0.030679 -0.003295 -0.0099432 -0.0021431 0.00068142
0.0041493 0.0050303 -0.0036968 -0.0031497
-0.01856 0.030662 -0.29831 0.27303 0.0074927 0.03452 0.00010316 0.002253
0.0039157 0.00027564 0.0037367 0.00013093
-0.0033279 -0.0099569 0.0076048 0.034539 0.011957 0.31014 -0.00055342 -0.00037507
0.002309 -0.001843 0.0017035 0.0041066
-0.0021617 0.00065104 9.0602e-05 0.0022717 -0.00055406 -0.0003729 -0.13794 0.2398
-0.01911 0.017908 -0.0068438 -0.0099498
0.0042581 0.0049357 0.0039511 0.00029496 0.0023095 -0.0018126 -0.019034 0.018023
-0.17863 0.12976 -0.026977 0.015398
-0.0039736 -0.0030156 0.0037849 8.1494e-05 0.0016769 0.0041486 -0.0067587 -0.010066
-0.027398 0.015456 -0.19749 0.17847
920000000 -0.10978 0.25809 0.0041996 0.039636 -0.0094394 -0.004377 -0.0018795 0.0016963
0.00033031 0.0013588 0.0027792 -0.0012269
0.0041751 0.039586 -0.27173 0.29526 0.027966 0.023118 0.0011661 0.0011364
0.0071689 -0.00028418 0.0035783 -0.0028529
-0.0094464 -0.0043613 0.02808 0.023051 0.05845 0.3122 0.0017111 -0.00010335
0.00049322 -0.00035469 0.00095435 -0.0013909
-0.0018354 0.0017299 0.0011797 0.0011438 0.0017072 -0.00010518 -0.11401 0.25692
-0.01288 0.030517 0.0043669 -0.0063073
0.00035163 0.0013794 0.0071695 -0.0003261 0.00048957 -0.00037005 -0.012842 0.030554
-0.17193 0.13335 -0.0037382 0.028507
0.0026678 -0.0013045 0.003483 -0.0027854 0.00093514 -0.0014197 0.0043526 -0.0062781
-0.0038215 0.02865 -0.20873 0.19041
980000000 -0.063681 0.28025 0.016416 0.030836 -0.0092426 0.0046706 0.0019751 0.0037191
0.0038535 -0.0011684 -0.0034568 -0.0026046
0.01641 0.030791 -0.21969 0.33258 0.033144 0.0053593 0.0018882 -0.00030241
0.0015805 -0.0059196 -0.00036666 -0.0028887
-0.0092208 0.0047127 0.033215 0.0052309 0.105 0.30696 0.00045788 -0.001121
0.00027406 -0.0017198 0.001445 -0.00027622
0.0019479 0.003699 0.0018945 -0.00029029 0.00045914 -0.0011196 -0.075727 0.26846
0.0066819 0.030597 -0.0099682 -0.0078186
0.0039065 -0.0013211 0.0016162 -0.0059491 0.00024375 -0.0016954 0.0067263 0.030562
-0.14239 0.17059 0.0053542 0.020727
-0.003387 -0.0025075 -0.00038946 -0.0029305 0.0015067 -0.00029486 -0.0098982 -0.0077808
0.0050915 0.020824 -0.1681 0.23946
1040000000 -0.02255 0.29019 0.033138 0.019929 -0.00098932 0.007553 0.0024471 0.00048585
0.00057066 -0.0032442 -0.00013083 -0.0014893
0.033101 0.019923 -0.18477 0.34692 0.029708 -0.014273 0.001408 -0.0017666
-0.0024406 -0.002231 -0.0013647 -0.0029693
-0.00095603 0.0075681 0.029669 -0.01443 0.15157 0.2943 -0.00053924 -0.0013934
-0.0015422 -0.00090901 -0.00058749 -0.0011133
0.0025058 0.00047356 0.0014242 -0.0017656 -0.00052892 -0.0013867 -0.048383 0.27845
0.018585 0.019623 -0.0020846 0.0013663
0.00051515 -0.0032236 -0.0024374 -0.0021602 -0.0015298 -0.00090139 0.018636 0.019607
-0.11004 0.17903 0.013153 0.020419
-0.00025803 -0.0015305 -0.0013427 -0.0029421 -0.00057408 -0.0011486 -0.0021009 0.0013486
0.013258 0.020288 -0.1466 0.25954
1100000000 0.022187 0.30059 0.036882 -0.0026279 0.0035453 0.0041418 0.0026025 -0.00090557
-0.0024705 -0.0030912 -0.0040349 -7.536e-05
0.036835 -0.0026266 -0.14114 0.36721 0.015408 -0.027546 -7.0874e-05 -0.0017649
-0.003366 -0.00082506 -0.0036325 -0.00070018
0.0035718 0.0041234 0.015318 -0.027648 0.19813 0.27503 -0.0016664 0.00034646
-0.0016964 0.0006475 -0.0011543 -0.00054827
0.0025645 -0.00091599 -7.5963e-05 -0.0017696 -0.0016722 0.00033135 -0.0079022 0.28375
0.024575 0.0067211 -0.0024986 0.00028462
-0.002524 -0.0030839 -0.0033747 -0.00083132 -0.0016999 0.00066891 0.024587 0.0066822
-0.092631 0.19622 0.019533 0.010096
-0.0039164 -7.5022e-05 -0.0036106 -0.00073727 -0.0011148 -0.000536 -0.0025079 0.00027407
0.019454 0.010161 -0.10137 0.29285
1160000000 0.073766 0.29762 0.025169 -0.019955 0.0035531 -0.00075435 -0.00027381 -0.0026172
-0.0040359 -0.0011147 -0.0011779 0.0042263
0.025175 -0.019954 -0.097135 0.37218 -0.0033847 -0.028645 -0.0015815 -0.0015554
-0.0025097 0.0023579 -0.0015015 0.0020646
0.0035459 -0.00075121 -0.003534 -0.028689 0.24165 0.24508 -0.00063309 0.0016765
-0.00047026 0.0017521 -0.0010172 0.0002374
-0.00025516 -0.0026233 -0.0015872 -0.0015419 -0.00063298 0.001682 0.031476 0.28089
0.022004 -0.0097163 -0.0035225 0.0052842
-0.0040151 -0.0010561 -0.0025344 0.0024062 -0.00046429 0.0017464 0.022005 -0.0097381
-0.057422 0.20745 0.019501 0.0012442
-0.0011653 0.004239 -0.0013566 0.0021457 -0.0010289 0.00019002 -0.0035216 0.0052956
0.01961 0.0013154 -0.054514 0.29589
1220000000 0.11742 0.28892 0.012309 -0.030084 -0.0011251 -0.0016183 5.569e-05 -0.00095492
-0.0028877 0.0023203 0.0012854 0.0018819
0.012312 -0.030036 -0.052749 0.38661 -0.016633 -0.021033 -0.0024163 0.00051642
-2.225e-05 0.0030259 -0.00076536 0.0018029
-0.0011325 -0.0016219 -0.016757 -0.020995 0.28128 0.207 0.00085869 0.0014343
0.00056542 0.0011566 0.00016569 0.00055619
3.0413e-05 -0.00091936 -0.0024054 0.00053165 0.00085866 0.0014269 0.071058 0.27274
0.011375 -0.016466 0.0022014 0.0015345
-0.0029133 0.0023521 1.1124e-05 0.0030561 0.0005591 0.0011544 0.011344 -0.016484
-0.035623 0.2195 0.015489 -0.012238
0.0013081 0.0018691 -0.00080097 0.0018046 0.0001749 0.00056957 0.0022194 0.0016166
0.015377 -0.012217 -0.023813 0.31448
1280000000 0.16815 0.26917 -0.0067587 -0.029315 -0.0019915 0.001682 -0.0010465 -0.0020132
-0.00097189 0.0032006 0.0026472 0.0013233
-0.006728 -0.029304 -0.006022 0.37876 -0.02357 -0.0081304 -0.00084655 0.0013786
0.0015664 0.0017909 0.0007073 0.0021013
-0.001995 0.0016967 -0.023641 -0.0080263 0.31295 0.16372 0.0013775 -0.00015711
0.00099908 0.00034903 0.00038362 0.0003179
-0.0010428 -0.0020129 -0.00084118 0.0013848 0.0013708 -0.00015211 0.10768 0.2566
0.0019469 -0.019252 8.4164e-06 8.9316e-05
-0.00093569 0.003148 0.001573 0.0017739 0.00099561 0.00032619 0.0019279 -0.019271
0.0016095 0.22556 0.0040763 -0.015142
0.0026479 0.0013427 0.0007536 0.0020248 0.00026748 0.00033443 -8.599e-07 0.00011499
0.0040351 -0.015232 0.023859 0.31843
1340000000 0.20583 0.23721 -0.016731 -0.020169 0.00020635 0.0040928 -0.0017662 -0.00077423
0.001531 0.0028713 0.0016657 -0.0013763
-0.016678 -0.020156 0.033148 0.37176 -0.020796 0.0044279 -0.00018218 0.001861
0.0018194 0.00088935 0.0011101 0.00077583
0.00022024 0.0040791 -0.020809 0.0045393 0.3359 0.11619 0.00077749 -0.0008489
0.00047994 -0.00064582 9.5599e-05 0.00036719
-0.0017687 -0.000762 -0.00017258 0.0018633 0.00078677 -0.00085432 0.1406 0.23691
-0.0075589 -0.016661 0.0010602 0.00040357
0.0015292 0.0028959 0.0018261 0.00085938 0.00049448 -0.00065108 -0.0076011 -0.016643
0.030843 0.22358 -0.0026913 -0.014236
0.0015939 -0.0013908 0.0011182 0.0008026 9.173e-05 0.00035032 0.0011039 0.00038355
-0.0025996 -0.014298 0.061935 0.31525
1400000000 0.24031 0.20063 -0.023426 -0.0088559 0.0046525 0.0030909 -0.0021414 0.0007653
0.002605 0.00097059 0.00034288 -0.0012751
-0.023399 -0.0088646 0.071625 0.35993 -0.014075 0.012277 0.001188 0.0013414
0.0010593 -0.00058189 0.0011035 0.00021344
0.0046717 0.0030816 -0.014033 0.012371 0.34994 0.062232 -4.1638e-05 -0.0012912
0.00013617 -0.00021052 0.00040106 0.00017164
-0.002122 0.00078394 0.001203 0.0013412 -3.8745e-05 -0.0012775 0.17043 0.20839
-0.013857 -0.010284 -0.00086807 -0.00048052
0.002579 0.00092137 0.0010774 -0.0005898 0.000131 -0.00019895 -0.01389 -0.01023
0.064576 0.22264 -0.0093654 -0.009243
0.00033283 -0.0013141 0.0011213 0.00019122 0.00044141 0.00018997 -0.00085824 -0.00047248
-0.0093943 -0.009153 0.10751 0.30612
1460000000 0.26411 0.15778 -0.020868 0.0037382 0.005073 -0.0016172 -0.0015384 0.0016849
0.0020494 -0.00034526 -0.00020656 -0.00087269
-0.020839 0.0037051 0.10624 0.33853 -0.0052538 0.014774 0.0015861 0.00029893
0.0011261 -0.001247 0.0012056 -0.00052493
0.0050864 -0.0016565 -0.0051817 0.014824 0.35644 0.0072343 -0.0010592 -0.0010569
0.00033297 -0.00017483 0.00064016 -0.00021698
-0.0015467 0.0016927 0.0015956 0.00029476 -0.0010652 -0.0010442 0.19725 0.17985
-0.01506 -0.0038376 -0.0010234 0.0019454
0.0020228 -0.00034967 0.001118 -0.0012302 0.00034827 -0.00016482 -0.015044 -0.0038246
0.094085 0.21085 -0.011483 -0.003443
-0.00017154 -0.00084405 0.0012238 -0.00054516 0.0006139 -0.00025028 -0.0010909 0.0019544
-0.011557 -0.0034673 0.14114 0.2863
1520000000 0.27755 0.11718 -0.015628 0.0095778 0.0030796 -0.0038684 5.4231e-05 0.00265
0.0022951 -0.0018542 -0.0010752 -0.00018893
-0.015619 0.0095641 0.14037 0.32512 0.0020781 0.012068 0.0016666 -0.0006671
0.00020293 -0.0010066 0.00036977 -0.0009658
0.0030622 -0.0038833 0.0021508 0.012073 0.34916 -0.049614 -0.00072587 -0.00037229
0.00072073 -0.00095571 0.00014112 -0.00016142
8.2163e-05 0.0026302 0.0016667 -0.00066281 -0.00072423 -0.00036943 0.22117 0.14186
-0.015011 0.0018343 0.0012653 0.0018948
0.0022615 -0.0018772 0.00017733 -0.0010139 0.000714 -0.00096782 -0.015034 0.0018709
0.1223 0.20033 -0.011761 0.0010589
-0.0010435 -0.0001728 0.00034485 -0.00095109 0.00014687 -0.00016286 0.0012783 0.0018723
-0.011745 0.0010646 0.17479 0.26801
1580000000 0.28835 0.071764 -0.0090518 0.013408 -0.001164 -0.0044246 0.0014839 0.0018964
-0.00015406 -0.0022475 -0.00023089 0.00044356
-0.0090619 0.013382 0.16846 0.30071 0.0052466 0.006983 0.00059133 -0.0015293
-0.00045256 -0.0012165 -0.00022604 -0.00069425
-0.0011989 -0.0044311 0.0052901 0.0069583 0.32856 -0.10742 -0.0014661 0.00019212
-0.00043621 -0.0013757 0.00034021 -0.00047091
0.0014806 0.0018868 0.00057724 -0.0015355 -0.0014731 0.00019355 0.2357 0.10271
-0.011757 0.0070066 0.002043 0.00073686
-0.00013899 -0.0022557 -0.00046224 -0.0011871 -0.00041397 -0.0013716 -0.011744 0.0070169
0.14763 0.18568 -0.0093188 0.0070801
-0.00029822 0.00042386 -0.00021558 -0.00074062 0.00027396 -0.00050769 0.0020286 0.0008362
-0.0093224 0.0071722 0.20839 0.24247
1640000000 0.29166 0.031045 -0.0021419 0.012512 -0.0027626 -0.0021646 0.0027427 0.0010762
-0.00054422 -0.0016905 -0.00052275 0.00046005
-0.0021402 0.012501 0.19834 0.27675 0.0053076 0.002324 -0.00043726 -0.0018458
-0.00093639 -0.00057677 -0.00045537 -0.00070111
-0.0027487 -0.0021608 0.0053305 0.0022949 0.29898 -0.15587 -0.00073375 0.0012176
-0.0010027 -0.0010453 -0.00014128 -0.00040145
0.002774 0.0010616 -0.00045501 -0.0018482 -0.00074021 0.0012215 0.24891 0.05374
-0.00783 0.0084217 0.002428 -0.00055455
-0.00056052 -0.0017118 -0.00095527 -0.00057384 -0.0010108 -0.0010732 -0.007793 0.0084438
0.1713 0.16486 -0.0047439 0.0093594
-0.00054497 0.00038822 -0.00046654 -0.00069951 -0.0001275 -0.00042109 0.0024632 -0.00065048
-0.0047236 0.009337 0.23477 0.21282
1700000000 0.28632 -0.01373 0.0015611 0.010017 -0.0032159 0.00041561 0.0031264 -0.0012591
-0.0021394 -0.00069072 0.0005343 0.00049064
0.0015468 0.010014 0.21739 0.24563 0.0027343 -0.00030599 -0.0014288 -0.00074759
-0.00087529 -8.0011e-05 -0.00081421 -0.00042886
-0.0032209 0.00044298 0.0027246 -0.00033342 0.2556 -0.19496 3.6449e-05 0.0016637
-0.0021359 -0.00010412 -0.00037014 -0.00083959
0.0031228 -0.0012781 -0.0014366 -0.00074139 4.0145e-05 0.0016671 0.24614 0.0033184
-0.0050926 0.0094581 0.0017798 -0.0020548
-0.0021188 -0.00068982 -0.00086595 -7.9457e-05 -0.0021313 -0.00010855 -0.0051086 0.0094713
0.19096 0.14809 0.00017757 0.0095697
0.00055104 0.00046821 -0.00082042 -0.00046805 -0.0004062 -0.00085017 0.0017578 -0.0019856
0.00023545 0.0096071 0.2528 0.17926
1760000000 0.27567 -0.062629 0.0042008 0.0068328 -0.0019651 0.00124 0.0012964 -0.0034687
-0.0013017 0.00054897 0.000227 -0.00046157
0.0041814 0.0068221 0.24388 0.20628 0.0001406 -0.0016399 -0.0012504 -2.0886e-06
-0.0011589 0.00092054 -0.00052985 0.00033652
-0.0019562 0.0012504 0.00013339 -0.0016421 0.20684 -0.2273 0.0011131 0.0014047
-0.0011762 0.0014195 -0.0012798 -0.00055628
0.0013053 -0.0034867 -0.0012471 -4.1812e-06 0.0011182 0.0014021 0.23768 -0.04863
-0.0015309 0.0089784 -0.00019679 -0.002396
-0.0013054 0.00055522 -0.0011412 0.00094317 -0.0011476 0.001418 -0.0014691 0.0089764
0.20781 0.11628 0.0040453 0.0070797
0.00023092 -0.00047955 -0.00054577 0.00036804 -0.0012713 -0.00052933 -0.00012615 -0.0023647
0.0040091 0.0070815 0.26617 0.14221
1820000000 0.25267 -0.10044 0.0046583 0.0031711 0.0003581 0.0023251 -0.00085542 -0.0031078
-0.0012215 0.00086665 -6.5366e-07 -0.0001479
0.0046549 0.0031781 0.25502 0.17677 -0.0019088 0.00028411 -0.001449 0.00095265
-2.4469e-05 0.0012506 -0.00064083 0.00041464
0.00036753 0.0023156 -0.0019135 0.00030879 0.15674 -0.24154 0.0018662 0.00060654
-0.00025128 0.002369 -0.0016522 0.0002798
-0.00089535 -0.0030739 -0.0014441 0.00095335 0.0018766 0.00060086 0.20772 -0.096611
0.00032452 0.0076404 -0.0015436 -0.001521
-0.0012179 0.00089091 -1.3506e-05 0.0012658 -0.00024173 0.0023905 0.00031904 0.0076535
0.22809 0.090053 0.0050844 0.0036167
-2.8177e-06 -0.0001339 -0.00063667 0.0004147 -0.0016654 0.00027956 -0.0015618 -0.0015376
0.0051333 0.0035961 0.27034 0.1071
1880000000 0.21835 -0.14167 0.0025301 0.00075622 -0.00028866 0.0020729 -0.0029083 -0.0023485
-0.00020164 0.0016902 0.00027284 -0.00069627
0.0025326 0.00076214 0.25986 0.13024 -0.0037161 0.0028604 -0.00034324 0.0018398
0.00059116 0.0013351 3.4451e-05 0.00093839
-0.00027096 0.0020803 -0.0037023 0.0028874 0.10529 -0.24953 0.0019935 -0.0011927
0.0015705 0.0018984 -0.000949 0.0014836
-0.0029421 -0.0023517 -0.00033165 0.0018424 0.0020067 -0.0011899 0.16706 -0.13716
0.0015423 0.0055455 -0.0023258 0.00011663
-0.00019366 0.0016842 0.00060213 0.0013111 0.0015506 0.0019095 0.0015251 0.0055793
0.23509 0.060676 0.0054788 0.0013833
0.00032711 -0.00074688 6.7766e-05 0.00094817 -0.00092783 0.0015109 -0.0022621 0.00013125
0.0054792 0.0013044 0.27164 0.073201
1940000000 0.17961 -0.16802 0.00037718 -0.0010965 0.00159 0.0016169 -0.0039399 0.00024135
0.0011354 0.00083888 -0.00066161 -0.00071396
0.00038603 -0.0010944 0.26144 0.098965 -0.0017543 0.0056499 0.0010232 0.0014609
0.0019489 0.00037451 0.00091941 0.00029038
0.0016106 0.0015993 -0.001709 0.0056752 0.061619 -0.24134 0.00042863 -0.0023436
0.002247 0.00036325 0.00026304 0.0017301
-0.0039485 0.0002461 0.0010389 0.0014536 0.00043091 -0.0023585 0.1142 -0.16816
0.00096727 0.0038185 -0.0013649 0.0012933
0.0011561 0.00081277 0.0019616 0.00036858 0.0022735 0.00037293 0.00097609 0.0038106
0.24157 0.024121 0.0043326 -0.0025763
-0.00069905 -0.00066899 0.00091661 0.00028816 0.00023321 0.0017215 -0.0013677 0.0012244
0.0043322 -0.002518 0.26218 0.03748
2000000000 0.13372 -0.1834 -0.0031978 0.00088967 0.0028802 0.0012754 -0.0024872 0.0037694
0.00085366 0.00056168 -0.00092641 0.00056764
-0.0031882 0.00087346 0.24817 0.063548 -0.00051883 0.0076186 0.0016251 0.00045381
0.0010226 -0.0012972 0.00030033 0.00010955
0.0028963 0.0012532 -0.00047637 0.0076292 0.020156 -0.22764 -0.001542 -0.0014443
0.0019142 -0.00094527 0.0014275 0.0015318
-0.0024908 0.0037748 0.0016534 0.00044516 -0.001532 -0.0014557 0.060336 -0.17842
-0.00074903 0.0033607 -2.2909e-05 0.0020267
0.00084941 0.00059301 0.00099746 -0.0013072 0.0019125 -0.00094191 -0.00076776 0.003367
0.24011 -0.0086523 0.00066253 -0.0033954
