!Keysight Technologies,M9804A,MY58100912,A.14.10.03
!Date: Thursday, April 27, 2023 10:28:33
!Correction: S11(C  6-Port  ) 
!S12(C  6-Port  ) 
!S13(C  6-Port  ) 
!S14(C  6-Port  ) 
!S15(C  6-Port  ) 
!S16(C  6-Port  ) 
!S21(C  6-Port  ) 
!S22(C  6-Port  ) 
!S23(C  6-Port  ) 
!S24(C  6-Port  ) 
!S25(C  6-Port  ) 
!S26(C  6-Port  ) 
!S31(C  6-Port  ) 
!S32(C  6-Port  ) 
!S33(C  6-Port  ) 
!S34(C  6-Port  ) 
!S35(C  6-Port  ) 
!S36(C  6-Port  ) 
!S41(C  6-Port  ) 
!S42(C  6-Port  ) 
!S43(C  6-Port  ) 
!S44(C  6-Port  ) 
!S45(C  6-Port  ) 
!S46(C  6-Port  ) 
!S51(C  6-Port  ) 
!S52(C  6-Port  ) 
!S53(C  6-Port  ) 
!S54(C  6-Port  ) 
!S55(C  6-Port  ) 
!S56(C  6-Port  ) 
!S61(C  6-Port  ) 
!S62(C  6-Port  ) 
!S63(C  6-Port  ) 
!S64(C  6-Port  ) 
!S65(C  6-Port  ) 
!S66(C  6-Port  ) 
!S6P File: Measurement: :
# Hz S  RI   R 50
500000000 -0.32638 -0.063515 -0.0097511 -0.0011183 -0.0083008 0.011744 -0.0039025 0.011671
0.013505 0.0061788 -0.0044096 0.0084301
-0.0096242 -0.0011357 -0.40817 -0.074847 0.008408 -0.011108 0.00065397 0.011312
0.0092637 0.0032297 0.00062233 0.013123
-0.0082517 0.011747 0.0084062 -0.011125 -0.25614 0.19049 0.0064278 0.0031051
-0.0015638 0.0079363 0.00054407 0.012226
-0.0038468 0.011628 0.00073391 0.011314 0.0064009 0.0031016 -0.32564 0.041337
-0.019565 -0.0051699 0.016676 0.026765
0.013575 0.0062423 0.0092766 0.0032116 -0.0015615 0.0079796 -0.019563 -0.0051577
-0.2174 -0.23764 -0.028185 0.0038675
-0.0043947 0.0083012 0.00061372 0.013102 0.00043774 0.012219 0.016539 0.026762
-0.028218 0.0038637 -0.25997 -0.14609
560000000 -0.31543 0.1032 -0.021582 -0.067554 3.9777e-05 0.013337 0.0057943 0.01085
0.011587 0.0057509 0.011088 0.010055
-0.021386 -0.067445 -0.36955 0.08961 -0.041443 -0.039551 0.013958 0.0034637
-0.013464 -0.0055319 0.0045303 -0.0016233
4.0076e-05 0.013438 -0.041614 -0.039533 -0.1815 0.24014 -0.00051581 -0.0052134
0.018081 0.0064026 0.0076798 -0.0056838
0.005805 0.010838 0.013895 0.0034582 -0.00048798 -0.0051836 -0.30313 0.13125
0.0069869 -0.023266 0.0062323 -0.021078
0.011673 0.0057801 -0.013602 -0.0053982 0.018142 0.0063711 0.0066941 -0.023246
-0.30047 -0.058232 0.013134 -0.05069
0.011208 0.01013 0.004545 -0.0016515 0.0076907 -0.0057809 0.0064018 -0.021104
0.013171 -0.050763 -0.32888 0.0062307
620000000 -0.27475 0.081368 -0.023511 0.0088565 0.00311 0.008992 0.0079575 -0.0046786
0.011912 -0.00046215 -3.0276e-05 -0.0026197
-0.023488 0.0088012 -0.39925 0.035672 -0.01917 -0.00012327 -0.001841 -0.0019008
0.011996 -0.0053264 0.00061559 -0.0028902
0.0031179 0.0089561 -0.019229 -6.5633e-05 -0.15528 0.24939 -0.0015202 -0.0053196
-0.0039276 -0.0025066 0.0081015 -0.003374
0.0080164 -0.0047993 -0.001839 -0.001936 -0.0015252 -0.0053356 -0.26228 0.13997
-0.038914 -0.020589 0.011275 0.027699
0.011903 -0.00073462 0.011945 -0.0054097 -0.0038078 -0.0024969 -0.038808 -0.020271
-0.215 -0.092429 -0.042972 0.012177
-5.8315e-05 -0.0025107 0.00064235 -0.0028296 0.0080246 -0.0033964 0.011124 0.027737
-0.042839 0.012062 -0.24731 -0.032744
680000000 -0.2412 0.17364 -0.026214 -0.015024 0.0045082 0.0057241 0.0014544 -0.0073479
-0.0015874 -0.012101 0.0058305 -0.0068792
-0.026173 -0.01502 -0.39024 0.13696 -0.032656 -0.0021973 -0.0016753 -0.00028349
-0.0013847 -0.0092349 -0.00071942 -0.0017628
0.004541 0.0057429 -0.032703 -0.0021059 -0.108 0.27259 -0.00082533 0.00025814
-0.0012451 0.0012992 -0.002984 -0.0089185
0.0014749 -0.0073545 -0.0017113 -0.00023601 -0.00084371 0.00025937 -0.21939 0.19231
-0.02294 -0.0076483 -0.0088274 -0.011846
-0.0016516 -0.012079 -0.0014392 -0.009246 -0.0012602 0.0013048 -0.022929 -0.007514
-0.28306 0.010031 -0.0058041 -0.0074288
0.0058999 -0.0070099 -0.00075371 -0.0017687 -0.0029589 -0.0088918 -0.0087299 -0.012072
-0.0057682 -0.0074177 -0.26162 0.072062
740000000 -0.19576 0.16691 -0.040894 0.026346 0.013348 -0.0035094 0.00012922 -0.0037446
-0.0029706 -0.0023075 -0.0068281 0.003488
-0.040811 0.026359 -0.33706 0.15791 -0.037657 0.034389 0.00020986 -0.0057448
-0.013465 0.0072727 -0.0014015 -0.0055364
0.013284 -0.003545 -0.037601 0.034509 -0.07542 0.27346 -0.0017208 0.0036304
-0.0010798 -0.0057477 -0.0018337 0.0010913
0.00011328 -0.0037358 0.00014159 -0.0057477 -0.0017492 0.0036278 -0.20241 0.19965
-0.043215 -0.0092489 0.022654 0.016289
-0.0029919 -0.0022677 -0.013494 0.0073967 -0.0011082 -0.005714 -0.043211 -0.0091724
-0.17907 0.044878 -0.045581 -0.00063396
-0.0067874 0.0035485 -0.0015489 -0.0055775 -0.0019105 0.0011238 0.022722 0.016368
-0.045456 -0.00067051 -0.25198 0.076348
800000000 -0.16615 0.21299 -0.022681 0.016027 0.0057112 -0.010341 -0.0043431 -0.0027143
-0.0044895 0.0018505 0.0046096 -3.8719e-05
-0.022663 0.016024 -0.34512 0.22821 -0.0089004 0.034464 -0.0021735 0.0020649
-0.00047221 0.0022114 0.00085535 0.0052293
0.0056803 -0.010366 -0.0088236 0.034532 -0.036532 0.29971 0.0012598 0.0011206
7.2993e-06 0.0032326 -0.0016773 0.00055722
-0.0043025 -0.0026963 -0.0021467 0.0020639 0.0012621 0.0011199 -0.17384 0.22724
-0.029295 0.012773 0.015452 -0.010603
-0.0045254 0.0018369 -0.00047544 0.0022034 7.1982e-06 0.0032183 -0.029334 0.012833
-0.23405 0.067684 -0.019329 0.020572
0.0046666 -0.00010896 0.00091993 0.0052196 -0.0016912 0.00057224 0.015527 -0.010621
-0.019407 0.020568 -0.2476 0.12862
860000000 -0.13298 0.23429 -0.01845 0.030617 -0.0031894 -0.0099467 -0.0019873 0.00071242
0.0041581 0.0051861 -0.0039203 -0.0032019
-0.018442 0.030564 -0.2982 0.27294 0.0074649 0.034544 0.00031556 0.0021862
0.0040906 0.00018013 0.0039179 0.00046144
-0.003218 -0.0099603 0.0075968 0.034547 0.01188 0.31007 -0.00052237 -0.00038765
0.0023494 -0.0018142 0.0016257 0.0043129
-0.0020429 0.00072952 0.00030468 0.0022064 -0.00052896 -0.00038773 -0.1378 0.23985
-0.018838 0.017608 -0.0069666 -0.0092657
0.0041096 0.0051495 0.0040971 0.00015627 0.0023682 -0.0018323 -0.018766 0.017664
-0.17858 0.12974 -0.027421 0.015686
-0.0037957 -0.0030574 0.003905 0.00047999 0.0016175 0.0043442 -0.0070441 -0.0092153
-0.027389 0.015629 -0.19725 0.17796
920000000 -0.10978 0.25827 0.0042231 0.039597 -0.0093546 -0.0043574 -0.0021068 0.0017029
0.00037809 0.0013146 0.0026815 -0.0011837
0.0041623 0.039551 -0.27167 0.29533 0.027975 0.023083 0.0011797 0.0011165
0.0071296 -0.00032399 0.0035791 -0.0027188
-0.0093641 -0.0043401 0.028109 0.023014 0.058368 0.31216 0.0016592 -5.3992e-05
0.00047478 -0.00041001 0.00081968 -0.0013592
-0.0020967 0.001708 0.0011982 0.0011427 0.0016514 -5.645e-05 -0.11424 0.25665
-0.012968 0.030771 0.0042326 -0.0066896
0.00033437 0.001287 0.0071783 -0.00040261 0.00048679 -0.00041457 -0.012897 0.030788
-0.17177 0.13349 -0.0039798 0.028793
0.0026217 -0.0012407 0.0035848 -0.0027801 0.0007768 -0.0013577 0.0042384 -0.0067524
-0.0040369 0.028769 -0.2086 0.19013
980000000 -0.063899 0.28019 0.016319 0.030851 -0.0092903 0.0046921 0.0019558 0.0037348
0.0038099 -0.0011655 -0.0033656 -0.002691
0.016274 0.030814 -0.2197 0.33251 0.033143 0.0053523 0.0018732 -0.00032831
0.0015986 -0.0058542 -0.00039857 -0.0030194
-0.0092703 0.0047117 0.033219 0.00525 0.10488 0.30689 0.00046645 -0.0011108
0.00027378 -0.0017355 0.0014515 -0.00033672
0.00198 0.003721 0.0018584 -0.00033592 0.00047056 -0.0011153 -0.075723 0.2684
0.0067588 0.030574 -0.0098052 -0.0077239
0.0037802 -0.0011818 0.0016094 -0.0058526 0.00028257 -0.0017389 0.006834 0.030582
-0.14223 0.17085 0.0048452 0.020448
-0.0033184 -0.0027135 -0.00038216 -0.003044 0.001449 -0.00033403 -0.0098307 -0.0077308
0.0049388 0.020405 -0.16754 0.23895
1040000000 -0.022493 0.28997 0.033057 0.020005 -0.00098786 0.0075843 0.0023754 0.00062552
0.0005076 -0.0032498 -0.00035146 -0.0013747
0.033005 0.020032 -0.18477 0.34689 0.029705 -0.0143 0.0013711 -0.0017359
-0.0025601 -0.0022872 -0.0012507 -0.0029456
-0.00096615 0.0075818 0.029706 -0.014429 0.15142 0.29429 -0.00050918 -0.0013464
-0.0015505 -0.00093701 -0.00056339 -0.0010799
0.002395 0.00062686 0.0013498 -0.0017419 -0.00050989 -0.00135 -0.048465 0.27845
0.018495 0.019571 -0.0021879 0.0013077
0.00042446 -0.0032852 -0.0025719 -0.0022608 -0.0015497 -0.00093196 0.018529 0.019562
-0.11028 0.17918 0.013471 0.020105
-0.00030566 -0.0013112 -0.0013002 -0.0029574 -0.00056467 -0.0010918 -0.0021623 0.0013377
0.01343 0.020115 -0.14646 0.25944
1100000000 0.022239 0.30084 0.036914 -0.0025992 0.0035452 0.0042033 0.0025243 -0.0010215
-0.0023985 -0.0031606 -0.0041501 -7.7854e-05
0.036889 -0.0025641 -0.14108 0.36718 0.01543 -0.027534 -8.3364e-05 -0.0017999
-0.0033457 -0.00089108 -0.0037101 -0.00069147
0.0035628 0.0041854 0.015354 -0.027639 0.19801 0.27498 -0.0016954 0.00032506
-0.0016445 0.00068526 -0.001174 -0.00055075
0.0025109 -0.0010348 -8.661e-05 -0.0018011 -0.0016974 0.00032695 -0.008022 0.28361
0.024728 0.0066937 -0.0025177 0.00013033
-0.0023183 -0.0031811 -0.0033543 -0.00087948 -0.0016342 0.00069906 0.024726 0.0066724
-0.092683 0.19642 0.019695 0.010231
-0.0042183 -7.0092e-05 -0.0037167 -0.00069272 -0.0011706 -0.00056258 -0.0025535 0.00016085
0.019717 0.010247 -0.10109 0.29252
1160000000 0.07353 0.29755 0.025216 -0.019962 0.0035516 -0.00075713 -0.0003285 -0.0026194
-0.0040728 -0.0011582 -0.0012186 0.0042255
0.025196 -0.019919 -0.09717 0.37212 -0.0034054 -0.028669 -0.0015498 -0.0015647
-0.0025567 0.0023415 -0.0015757 0.002004
0.003554 -0.00077724 -0.0035317 -0.028684 0.24151 0.2451 -0.00062165 0.0016762
-0.00045691 0.0018105 -0.0010041 0.00013895
-0.00032768 -0.0026088 -0.0015826 -0.0015502 -0.00062108 0.0016806 0.031374 0.28093
0.021922 -0.0096868 -0.003502 0.0053101
-0.0040877 -0.0011425 -0.0025583 0.0023661 -0.00046189 0.0018116 0.021904 -0.00969
-0.057105 0.20718 0.018986 0.0014831
-0.0011031 0.0042319 -0.0015598 0.0019819 -0.0010064 0.00015999 -0.0034914 0.0052972
0.018982 0.001465 -0.054052 0.29616
1220000000 0.1175 0.28878 0.012302 -0.030077 -0.0011049 -0.0015991 6.4601e-05 -0.00099663
-0.002836 0.0023339 0.0011781 0.0018724
0.012299 -0.030034 -0.052839 0.38668 -0.016628 -0.021063 -0.0024153 0.00053923
3.6007e-05 0.0029925 -0.00079073 0.0017909
-0.0011111 -0.001596 -0.016748 -0.021007 0.28119 0.20701 0.00088694 0.0014636
0.00057202 0.0011358 0.00016728 0.00058827
4.0569e-05 -0.001001 -0.0024282 0.00054804 0.00088441 0.0014579 0.070972 0.2728
0.011424 -0.01653 0.0022129 0.0016847
-0.0028099 0.0023334 6.8402e-05 0.0029986 0.00057981 0.0011424 0.011412 -0.016536
-0.035371 0.21953 0.015305 -0.012468
0.0011708 0.0018631 -0.00078861 0.0018015 0.00018132 0.00059933 0.0022104 0.0016796
0.015342 -0.012426 -0.024323 0.31509
1280000000 0.16804 0.26917 -0.0066946 -0.029281 -0.0019584 0.001677 -0.0010322 -0.0020034
-0.00093956 0.0032822 0.0026321 0.001222
-0.0066792 -0.029261 -0.0059894 0.3787 -0.023558 -0.008136 -0.00082422 0.0013861
0.0015688 0.0017462 0.00070352 0.0020743
-0.0019489 0.001667 -0.023644 -0.0080358 0.31284 0.16379 0.0014004 -0.00015064
0.00098054 0.00032049 0.00027842 0.00038663
-0.0010287 -0.002015 -0.0008123 0.0013957 0.0013893 -0.0001384 0.10756 0.25667
0.0019325 -0.019274 -2.853e-05 9.0618e-05
-0.0009225 0.0033008 0.0015963 0.001748 0.00096334 0.00030951 0.0018966 -0.019271
0.0017945 0.22566 0.0039783 -0.015107
0.0026637 0.0012557 0.00071612 0.0020522 0.00025217 0.00041138 -1.9564e-05 5.7644e-05
0.0039692 -0.015105 0.024109 0.31828
1340000000 0.2057 0.23705 -0.016754 -0.020135 0.00021134 0.0041212 -0.0017564 -0.00075565
0.0015397 0.0028205 0.0016398 -0.0013935
-0.016726 -0.020123 0.033075 0.37174 -0.020825 0.0044081 -0.00019216 0.0018671
0.0018423 0.00089726 0.0011279 0.00078185
0.00023117 0.0041079 -0.020823 0.0045183 0.33578 0.11628 0.00074902 -0.00088971
0.00058215 -0.00064471 2.8601e-05 0.00028255
-0.0017574 -0.00074229 -0.00018264 0.0018695 0.00074795 -0.00088369 0.14051 0.23689
-0.0076076 -0.01667 0.0011819 0.0003932
0.0015425 0.0028007 0.0018369 0.00088002 0.00058023 -0.0006543 -0.0076369 -0.016663
0.030935 0.22392 -0.002612 -0.014158
0.0016344 -0.0014187 0.0011526 0.00080161 3.5334e-05 0.0002913 0.0011728 0.00038745
-0.0026359 -0.014156 0.061946 0.31511
1400000000 0.24029 0.2007 -0.02342 -0.0088749 0.0046175 0.0030968 -0.0021486 0.00077749
0.0025788 0.00097601 0.0003135 -0.0012897
-0.023381 -0.0088815 0.071571 0.35987 -0.014096 0.012292 0.001185 0.001341
0.0010963 -0.00057548 0.0011445 0.0002445
0.0046193 0.0030725 -0.014057 0.012374 0.34989 0.062289 -2.1576e-05 -0.0013112
0.00011258 -0.0002 0.00045844 0.00030046
-0.0021396 0.00076884 0.0011971 0.0013298 -1.7401e-05 -0.0013103 0.17036 0.20844
-0.013896 -0.010231 -0.00082182 -0.00039714
0.002594 0.00096909 0.0010839 -0.00057667 0.00011377 -0.00019277 -0.013919 -0.010193
0.064718 0.22269 -0.0095125 -0.0092208
0.00033235 -0.0012805 0.0011447 0.00023422 0.00042832 0.00028551 -0.00083813 -0.00039317
-0.0095184 -0.0092383 0.10775 0.30616
1460000000 0.26402 0.15766 -0.020855 0.0037597 0.0050433 -0.0016409 -0.0014927 0.0016879
0.0021033 -0.00037214 -0.00014575 -0.00087551
-0.020817 0.0037482 0.10619 0.33844 -0.0052582 0.014787 0.0016051 0.00032352
0.0011543 -0.0012172 0.0012199 -0.00056578
0.0050401 -0.0016676 -0.0051905 0.014842 0.35639 0.0073357 -0.0010443 -0.0010577
0.00037489 -0.00013692 0.00059125 -0.00025719
-0.0014863 0.0017019 0.0016053 0.000319 -0.001046 -0.0010525 0.19727 0.17993
-0.015038 -0.0038382 -0.0010243 0.0019164
0.0021181 -0.00038791 0.0011378 -0.0012301 0.00036155 -0.00013145 -0.015058 -0.003819
0.094099 0.21074 -0.011501 -0.0033166
-0.00015482 -0.00092127 0.0012385 -0.00056258 0.00062728 -0.00022352 -0.0010223 0.001916
-0.011509 -0.0033207 0.14099 0.28651
1520000000 0.27753 0.11727 -0.01564 0.0095846 0.0030627 -0.0038727 7.768e-05 0.0026737
0.0023009 -0.0017788 -0.0010164 -0.00015756
-0.015636 0.0095653 0.14032 0.32516 0.0020711 0.01209 0.0016762 -0.00066259
0.00019162 -0.00099562 0.00037939 -0.00096691
0.0030405 -0.0038898 0.0021462 0.012101 0.34909 -0.049478 -0.00071526 -0.0003612
0.00065994 -0.0009282 0.0001263 -0.0001326
0.0001017 0.0026638 0.0016779 -0.00068338 -0.00072126 -0.00036325 0.2211 0.14197
-0.015003 0.0017786 0.0012792 0.0019524
0.0023135 -0.0017721 0.00018383 -0.0010051 0.00066134 -0.00093717 -0.015015 0.0018087
0.12253 0.20033 -0.011703 0.0011497
-0.0010245 -0.00016117 0.00036922 -0.0009707 0.00011563 -0.00016785 0.0012753 0.0019386
-0.011702 0.0011345 0.17471 0.26789
1580000000 0.28828 0.07185 -0.0090463 0.013369 -0.0011251 -0.0044519 0.0015057 0.0018467
-0.00018092 -0.0022404 -0.0001876 0.00035462
-0.0090468 0.013359 0.16838 0.30067 0.0052527 0.0069845 0.00058864 -0.0015281
-0.00047687 -0.0011813 -0.00016036 -0.00075544
-0.0011343 -0.0044452 0.0052999 0.0069746 0.32854 -0.10726 -0.001509 0.00017863
-0.00042025 -0.0013564 0.00034359 -0.00051246
0.0014956 0.001837 0.0005887 -0.001527 -0.0015033 0.00017723 0.23571 0.10269
-0.011698 0.0069672 0.0019832 0.00093251
-0.00020185 -0.0022464 -0.00047215 -0.0011825 -0.00041786 -0.0013588 -0.011698 0.0070025
0.14773 0.18558 -0.0093058 0.0073612
-0.00017314 0.00035794 -0.00015671 -0.00076443 0.00037893 -0.00048806 0.0020007 0.00094434
-0.009326 0.0073999 0.20841 0.24256
1640000000 0.29162 0.031092 -0.0021535 0.012523 -0.0027472 -0.0021316 0.0027784 0.0011017
-0.00056911 -0.0017237 -0.00042596 0.00049569
-0.0021583 0.012509 0.19828 0.27677 0.0053015 0.0023352 -0.0004451 -0.0018682
-0.00093738 -0.00060592 -0.000466 -0.00064489
-0.0027481 -0.0021253 0.0053153 0.0022952 0.29897 -0.15581 -0.00068883 0.0012119
-0.0010424 -0.0011254 -0.0001141 -0.00039698
0.0027826 0.0010701 -0.00044731 -0.0018659 -0.00069175 0.0012074 0.24885 0.053721
-0.0078666 0.0083838 0.0024875 -0.00058752
-0.00057083 -0.001735 -0.00094623 -0.00059112 -0.0010326 -0.0011154 -0.0078431 0.0084077
0.17136 0.16492 -0.0047005 0.0093241
-0.000442 0.0004935 -0.00047092 -0.00064103 -0.00012041 -0.00040469 0.002483 -0.00057509
-0.0047036 0.0093202 0.23465 0.21264
1700000000 0.28638 -0.013648 0.0015564 0.0099979 -0.003229 0.00037544 0.0031538 -0.0012743
-0.0021188 -0.00072194 0.00049482 0.00040493
0.0015564 0.0099958 0.21738 0.24561 0.002727 -0.0003235 -0.0014411 -0.00073626
-0.00087501 -8.1953e-05 -0.00082494 -0.00050171
-0.0032162 0.00041033 0.0027334 -0.00035007 0.25559 -0.19487 6.5207e-05 0.0016433
-0.0021615 -0.00010497 -0.00034235 -0.000863
0.0031422 -0.0012956 -0.0014466 -0.00072176 6.4384e-05 0.0016406 0.24614 0.0034827
-0.0050737 0.0093916 0.0016451 -0.0018947
-0.0021484 -0.0006968 -0.00086671 -8.1304e-05 -0.0021692 -0.00011149 -0.0050568 0.0094092
0.19103 0.14788 0.00018225 0.0095929
0.00050124 0.00038912 -0.00084609 -0.00050349 -0.00036 -0.00086659 0.0016484 -0.0019162
0.00018589 0.009611 0.25273 0.17933
1760000000 0.27568 -0.062492 0.0041925 0.0068463 -0.0019726 0.0012097 0.0013573 -0.0035254
-0.0012851 0.00046589 0.00023074 -0.00050497
0.0041897 0.0068491 0.24382 0.20626 0.00014845 -0.0016602 -0.0012688 -2.3956e-05
-0.0011593 0.00088332 -0.00050254 0.00032857
-0.0019604 0.0012179 0.00014847 -0.0016577 0.20688 -0.22722 0.0010801 0.0014098
-0.0011469 0.0014332 -0.0012047 -0.00061375
0.0013458 -0.0035192 -0.0012678 -8.8897e-06 0.0010862 0.0014067 0.23761 -0.048693
-0.0015464 0.0089199 -6.2193e-05 -0.0025206
-0.0012777 0.0004645 -0.0011444 0.00088407 -0.0011375 0.0014255 -0.0015307 0.0089408
0.2078 0.11623 0.0040248 0.0070379
0.00024068 -0.00052436 -0.00049265 0.00033261 -0.0012044 -0.00061548 -3.8977e-05 -0.0025126
0.004035 0.0070392 0.26649 0.14212
1820000000 0.25272 -0.10034 0.0046741 0.0031864 0.00038975 0.0023134 -0.00087116 -0.0031404
-0.0011622 0.0008684 1.4006e-05 -7.2177e-05
0.0046843 0.0031716 0.255 0.17683 -0.0018888 0.00029744 -0.001476 0.00090215
-2.2386e-06 0.0012344 -0.00064656 0.00038667
0.00042129 0.002305 -0.001881 0.00030885 0.15675 -0.24143 0.001864 0.00053803
-0.00020648 0.0023608 -0.0017219 0.00024545
-0.00088735 -0.0031517 -0.0014724 0.00091015 0.0018621 0.00053382 0.20786 -0.096587
0.00036696 0.007666 -0.0015582 -0.001655
-0.0011725 0.00086431 1.6909e-05 0.001229 -0.00017441 0.0023463 0.00037594 0.0076589
0.22811 0.089963 0.005151 0.0035486
-9.4317e-06 -2.7386e-05 -0.00064476 0.00039859 -0.0017207 0.00025043 -0.0015853 -0.001636
0.0051647 0.0035609 0.2703 0.10725
1880000000 0.21837 -0.14165 0.0025458 0.00078247 -0.0002428 0.0021307 -0.0027846 -0.0023165
-0.00019302 0.0017552 0.00028356 -0.00063035
0.0025367 0.00079073 0.25979 0.13024 -0.0037289 0.0028337 -0.00032197 0.0018549
0.00061248 0.0013384 9.2925e-05 0.00093575
-0.00022901 0.0021331 -0.0037312 0.0028681 0.10521 -0.24959 0.0020351 -0.0012088
0.0015772 0.0018965 -0.00086895 0.0014956
-0.0027898 -0.0023182 -0.0003265 0.0018696 0.0020216 -0.0012098 0.16692 -0.13709
0.0013817 0.0056646 -0.0021183 0.00016184
-0.00017973 0.0017678 0.00061117 0.0013352 0.0015695 0.0019246 0.0014107 0.005669
0.23503 0.060692 0.0055114 0.0013824
0.00025979 -0.00065033 0.00011508 0.00094118 -0.00084618 0.0014942 -0.0021355 0.00014459
0.0055039 0.0013836 0.27179 0.073242
1940000000 0.1796 -0.16793 0.00034307 -0.0010474 0.0015693 0.0016732 -0.0039137 0.00032611
0.001109 0.00088655 -0.00065995 -0.0006289
0.00035485 -0.0010457 0.26137 0.099004 -0.0017186 0.0056674 0.0010569 0.0014653
0.0019641 0.00038313 0.00092314 0.0002816
0.001586 0.0016327 -0.0016871 0.0056908 0.061728 -0.24127 0.00049267 -0.0024149
0.0022914 0.00034194 0.00029222 0.0016174
-0.0039197 0.00032775 0.0010603 0.0014539 0.00050088 -0.0024345 0.11439 -0.1683
0.0011101 0.003801 -0.0014234 0.0013058
0.001081 0.00087157 0.0019815 0.00035195 0.0022813 0.00032542 0.0011018 0.0038031
0.24181 0.024122 0.0043463 -0.0025578
-0.00064432 -0.00060622 0.00090621 0.00026964 0.00030863 0.0016247 -0.0014224 0.0013255
0.0043565 -0.0025483 0.26218 0.037559
2000000000 0.13384 -0.18329 -0.0031904 0.00089104 0.0028687 0.0013369 -0.0025263 0.0036965
0.00079703 0.00055876 -0.00090127 0.00058298
-0.003218 0.00090876 0.24814 0.063608 -0.00050886 0.0076819 0.0016497 0.00042674
0.00106 -0.0012758 0.00036286 0.00012179
0.0028696 0.0013246 -0.00046809 0.0076894 0.020265 -0.22754 -0.0014769 -0.001443
0.0019445 -0.00094075 0.0014671 0.0014791
-0.002461 0.0037005 0.0016582 0.00042008 -0.0014798 -0.0014219 0.060438 -0.1782
-0.00084213 0.0033955 -4.8644e-05 0.0021246
0.00086155 0.00051699 0.001042 -0.0012819 0.001938 -0.00095118 -0.0008104 0.003408
0.24013 -0.0086293 0.00062241 -0.003511
