!Keysight Technologies,M9804A,MY58100912,A.14.10.03
!Date: Thursday, April 27, 2023 10:28:33
!Correction: S11(C  6-Port  ) 
!S12(C  6-Port  ) 
!S13(C  6-Port  ) 
!S14(C  6-Port  ) 
!S15(C  6-Port  ) 
!S16(C  6-Port  ) 
!S21(C  6-Port  ) 
!S22(C  6-Port  ) 
!S23(C  6-Port  ) 
!S24(C  6-Port  ) 
!S25(C  6-Port  ) 
!S26(C  6-Port  ) 
!S31(C  6-Port  ) 
!S32(C  6-Port  ) 
!S33(C  6-Port  ) 
!S34(C  6-Port  ) 
!S35(C  6-Port  ) 
!S36(C  6-Port  ) 
!S41(C  6-Port  ) 
!S42(C  6-Port  ) 
!S43(C  6-Port  ) 
!S44(C  6-Port  ) 
!S45(C  6-Port  ) 
!S46(C  6-Port  ) 
!S51(C  6-Port  ) 
!S52(C  6-Port  ) 
!S53(C  6-Port  ) 
!S54(C  6-Port  ) 
!S55(C  6-Port  ) 
!S56(C  6-Port  ) 
!S61(C  6-Port  ) 
!S62(C  6-Port  ) 
!S63(C  6-Port  ) 
!S64(C  6-Port  ) 
!S65(C  6-Port  ) 
!S66(C  6-Port  ) 
!S6P File: Measurement: :
# Hz S  RI   R 50
500000000 -0.3278 -0.063183 -0.010492 -0.0012055 -0.0082017 0.012061 -0.004494 0.011557
0.012455 0.0053245 -0.0059236 0.0083376
-0.010667 -0.0011388 -0.40798 -0.073088 0.0082811 -0.011072 0.00094169 0.011331
0.0086677 0.0033843 0.00072344 0.013353
-0.0084332 0.012159 0.0085983 -0.011068 -0.25564 0.19155 0.0065005 0.0032331
-0.001879 0.0082301 0.00096596 0.012247
-0.0043284 0.011477 0.0012317 0.011946 0.0062997 0.0033233 -0.32543 0.041533
-0.020084 -0.0046262 0.016823 0.02625
0.012541 0.0060045 0.0084695 0.0027952 -0.0016137 0.008064 -0.019942 -0.0047538
-0.21278 -0.24125 -0.028592 0.0031344
-0.0051475 0.0085553 0.00097142 0.013746 0.00037083 0.012294 0.016697 0.025483
-0.029382 0.0046382 -0.25872 -0.1462
560000000 -0.31532 0.10391 -0.021463 -0.067871 0.00027736 0.013092 0.0058381 0.010738
0.01112 0.0046954 0.010996 0.0086993
-0.021917 -0.068043 -0.37015 0.090461 -0.041602 -0.039254 0.013081 0.0036977
-0.012303 -0.0042474 0.0042832 -0.0015621
0.00024348 0.013211 -0.041295 -0.039207 -0.18087 0.24102 -0.00045499 -0.0057021
0.017165 0.0067384 0.0078755 -0.0060142
0.0057418 0.010493 0.013383 0.0034022 -0.000321 -0.0052157 -0.30272 0.13178
0.0069918 -0.023173 0.0062666 -0.02156
0.011656 0.0048681 -0.0135 -0.0046101 0.017683 0.0057186 0.006459 -0.02221
-0.30126 -0.056096 0.010679 -0.050298
0.011315 0.0086723 0.0039653 -0.0017054 0.0083468 -0.0061365 0.0060109 -0.021343
0.013107 -0.051081 -0.32794 0.0040015
620000000 -0.27475 0.081394 -0.023325 0.0089825 0.0034639 0.0089785 0.0083237 -0.0041048
0.011129 -0.00015959 0.0014593 -0.00098619
-0.023368 0.0091309 -0.39877 0.03608 -0.019215 0.00010418 -0.0016612 -0.0022552
0.011705 -0.0049211 0.00049479 -0.0036536
0.0036294 0.008642 -0.019281 0.00013449 -0.1545 0.25003 -0.0011221 -0.0053157
-0.0040676 -0.0021736 0.0085474 -0.0032195
0.0084445 -0.0044346 -0.0017709 -0.0024294 -0.0010498 -0.00532 -0.26175 0.14204
-0.037723 -0.022615 0.01326 0.028965
0.011455 -0.00023686 0.012099 -0.0051421 -0.0041487 -0.0024545 -0.039253 -0.021783
-0.21808 -0.091894 -0.045996 0.011623
0.00084315 -0.0011304 0.0004409 -0.0036819 0.0088628 -0.003368 0.012237 0.02848
-0.042261 0.013021 -0.24613 -0.031097
680000000 -0.24044 0.17476 -0.026253 -0.014959 0.004434 0.0055662 0.0016087 -0.0072787
-0.0014064 -0.012164 0.004954 -0.0064203
-0.026183 -0.01483 -0.38972 0.13782 -0.032517 -0.0018835 -0.0016713 6.2826e-05
-0.0014471 -0.0096446 -0.00084533 -0.0019828
0.0045794 0.0055183 -0.032664 -0.0017987 -0.10743 0.27342 -0.00083705 0.00022184
-0.0014837 0.001099 -0.0032538 -0.0092971
0.0013387 -0.0075021 -0.001624 -0.00023196 -0.001046 0.00019529 -0.21809 0.19367
-0.022481 -0.007106 -0.0084288 -0.012091
-0.0022776 -0.011632 -0.001538 -0.0093416 -0.0013175 0.0010737 -0.022953 -0.0080032
-0.28332 0.0071744 -0.0052211 -0.007742
0.0061205 -0.0062637 -0.00027811 -0.0017457 -0.0029651 -0.0090258 -0.0082501 -0.011479
-0.0062559 -0.0072573 -0.25964 0.071499
740000000 -0.19478 0.1676 -0.041339 0.026669 0.013402 -0.0037542 -4.0795e-05 -0.0042862
-0.0037936 -0.0021884 -0.006889 0.0032197
-0.041243 0.026539 -0.33636 0.15713 -0.037145 0.034201 0.00010026 -0.0053374
-0.012388 0.006606 -0.00075403 -0.0052381
0.013601 -0.0037598 -0.037003 0.034296 -0.074139 0.27398 -0.0022321 0.0030919
-0.00089323 -0.0050276 -0.0019172 0.00062866
0.00020022 -0.0041261 -8.7463e-05 -0.0055971 -0.0021509 0.0032584 -0.20219 0.20028
-0.043236 -0.0095075 0.022224 0.016922
-0.0036706 -0.002102 -0.012488 0.0076632 -0.0011322 -0.0054722 -0.043009 -0.0092774
-0.17821 0.043607 -0.044986 -0.0020104
-0.0065875 0.0030998 -0.001015 -0.0053631 -0.0019769 0.00094271 0.022373 0.016905
-0.043874 -0.0015266 -0.25032 0.077516
800000000 -0.16601 0.21329 -0.02271 0.016019 0.0055639 -0.010209 -0.004538 -0.002576
-0.0042821 0.0016463 0.004263 0.00033321
-0.022712 0.015995 -0.34457 0.22845 -0.0088173 0.034307 -0.0021774 0.0020364
-0.00045072 0.0021995 0.00047636 0.0054317
0.0054711 -0.010216 -0.0086736 0.034337 -0.03576 0.30014 0.0012138 0.0011849
-9.3619e-05 0.003219 -0.001583 0.00075546
-0.0044164 -0.0025463 -0.0022343 0.0021398 0.0012494 0.0011684 -0.17337 0.22813
-0.029207 0.012466 0.015372 -0.010281
-0.0040003 0.001479 -0.00011031 0.0023976 -2.5762e-06 0.0033187 -0.029208 0.012576
-0.23441 0.065982 -0.019718 0.020698
0.0041129 0.00049236 0.00037594 0.0052854 -0.0015903 0.000687 0.015337 -0.010292
-0.019124 0.021058 -0.24822 0.12818
860000000 -0.13231 0.23459 -0.018409 0.030577 -0.0032825 -0.009819 -0.0020466 0.0006017
0.0045955 0.0050988 -0.0033732 -0.0032006
-0.018323 0.030539 -0.29778 0.27321 0.0074252 0.034182 0.00013055 0.002026
0.0043656 0.00029258 0.003449 0.00025441
-0.0033061 -0.0098923 0.0075408 0.034163 0.012804 0.31026 -0.00047467 -0.00050754
0.0028227 -0.0018939 0.0015437 0.0042138
-0.0021762 0.00075689 5.0309e-05 0.0020914 -0.00048723 -0.00042328 -0.13695 0.2398
-0.018298 0.017331 -0.0070506 -0.0096114
0.0044838 0.0050403 0.0040834 0.0004686 0.0026137 -0.0016851 -0.018732 0.017221
-0.17968 0.12734 -0.025882 0.016507
-0.0035455 -0.0031507 0.0037089 -3.0345e-05 0.0013892 0.0042576 -0.0070977 -0.0096449
-0.026763 0.015567 -0.19928 0.17701
920000000 -0.10917 0.25833 0.0043287 0.039486 -0.0092013 -0.0043191 -0.0019689 0.0017162
0.00050225 0.0016229 0.0027948 -0.0014528
0.0042976 0.039492 -0.27112 0.29543 0.027795 0.022897 0.0012843 0.0010743
0.0070993 0.00026077 0.003643 -0.0027559
-0.0092409 -0.0043011 0.027927 0.022912 0.059128 0.31215 0.0017257 -0.00014696
0.00058054 -0.00017283 0.00075077 -0.001224
-0.0018364 0.0017536 0.00127 0.0010616 0.001678 -5.9859e-05 -0.11352 0.25689
-0.01269 0.030478 0.0042147 -0.0066049
0.00027274 0.0013323 0.0069281 0.00018966 0.00045188 -0.0003235 -0.012835 0.030711
-0.17305 0.13189 -0.0040253 0.028977
0.0027484 -0.0011124 0.0036334 -0.0027918 0.00085292 -0.001397 0.0044163 -0.0065819
-0.003688 0.02892 -0.20796 0.18975
980000000 -0.063024 0.28048 0.016486 0.030637 -0.0091213 0.0046766 0.0019195 0.0038103
0.0037308 -0.0013667 -0.0033391 -0.0029633
0.016483 0.030627 -0.21922 0.33272 0.032871 0.005298 0.0018399 -0.00014274
0.0015595 -0.0059552 -0.00036613 -0.002651
-0.0090862 0.0047163 0.032944 0.0051614 0.10564 0.30706 0.00043309 -0.0011501
0.00024935 -0.0017052 0.0014028 -0.00029543
0.0020002 0.0038344 0.0018997 -0.00015587 0.00042114 -0.0011718 -0.07511 0.26844
0.0064611 0.030474 -0.0097553 -0.0079955
0.0038581 -0.0015495 0.0017661 -0.0061013 0.00023978 -0.0017479 0.0063739 0.030441
-0.1436 0.16882 0.0047518 0.020862
-0.0036611 -0.0027493 -0.000556 -0.0027876 0.0014281 -0.00023576 -0.0097615 -0.0080171
0.0048671 0.021123 -0.16747 0.23883
1040000000 -0.02183 0.29 0.03316 0.020027 -0.00092496 0.0074774 0.0024651 0.0005525
0.00040471 -0.0036203 -0.00014081 -0.0013389
0.03307 0.019977 -0.18406 0.34696 0.02954 -0.01418 0.001373 -0.0017022
-0.0023935 -0.0023833 -0.0011361 -0.0028597
-0.00088821 0.0075111 0.029503 -0.014257 0.15219 0.29413 -0.00056426 -0.0013381
-0.0014474 -0.0010273 -0.00060757 -0.0010991
0.0024534 0.00052955 0.0013788 -0.0017379 -0.00053604 -0.0013593 -0.047772 0.2783
0.018415 0.019542 -0.0020007 0.0014836
0.00044396 -0.0033908 -0.0023386 -0.0022692 -0.0015639 -0.00093191 0.018418 0.019488
-0.11045 0.17788 0.013148 0.02049
-0.00019758 -0.0013086 -0.0011862 -0.0028586 -0.00068251 -0.0010888 -0.0021205 0.0016218
0.012837 0.020081 -0.14615 0.25936
1100000000 0.022766 0.30056 0.036652 -0.002727 0.0035352 0.0040399 0.0025053 -0.00094216
-0.0023272 -0.0030978 -0.0040231 -0.00017315
0.0366 -0.002703 -0.14091 0.36708 0.015441 -0.027294 -6.0774e-05 -0.0018076
-0.0035137 -0.00091468 -0.0036289 -0.0006654
0.0035611 0.0040074 0.015323 -0.027404 0.19842 0.27496 -0.0017102 0.00031647
-0.001671 0.00074077 -0.0010564 -0.00046498
0.0024915 -0.00089033 -0.00011982 -0.0018 -0.001698 0.00035019 -0.0077112 0.28358
0.024456 0.0068529 -0.0025544 -0.00010833
-0.0023623 -0.0031294 -0.0034276 -0.00089321 -0.0016688 0.00071821 0.024424 0.0068877
-0.093901 0.19495 0.01989 0.01065
-0.00421 -3.5938e-05 -0.0037122 -0.00074014 -0.0010582 -0.00054681 -0.0025627 -7.1035e-05
0.02014 0.010745 -0.1017 0.29193
1160000000 0.074256 0.29748 0.025186 -0.019871 0.0033895 -0.00065974 -8.3685e-05 -0.002523
-0.0040454 -0.00082961 -0.0013369 0.0042214
0.025136 -0.019888 -0.096547 0.37206 -0.0034308 -0.028443 -0.0016536 -0.0015139
-0.0026448 0.0024786 -0.0015418 0.0021326
0.00338 -0.00068806 -0.0035779 -0.028458 0.24224 0.24509 -0.00055489 0.0016491
-0.00038281 0.0017737 -0.0009877 0.00020663
-0.00013306 -0.0025836 -0.0016099 -0.0015079 -0.00060943 0.0016476 0.031614 0.28078
0.022001 -0.0095158 -0.003645 0.005299
-0.0040484 -0.00084399 -0.002694 0.0024492 -0.00044381 0.0017984 0.021955 -0.0095539
-0.057783 0.20625 0.019206 0.0013007
-0.0011738 0.0043132 -0.0015092 0.002082 -0.00095077 0.00023171 -0.003698 0.0051685
0.019069 0.0013565 -0.05376 0.29536
1220000000 0.11789 0.28849 0.012183 -0.029898 -0.001185 -0.0015311 5.5309e-05 -0.0010856
-0.0028347 0.0023322 0.0012023 0.0019558
0.012212 -0.029862 -0.052695 0.38643 -0.016463 -0.020917 -0.002412 0.00051231
-3.4026e-06 0.0029683 -0.00081674 0.0017811
-0.0011823 -0.0015364 -0.016602 -0.020875 0.28172 0.2069 0.00086116 0.0014402
0.00048476 0.0010739 0.00018721 0.00058951
5.2193e-05 -0.0010634 -0.0024091 0.00054156 0.00084225 0.0014486 0.071156 0.2726
0.011422 -0.016161 0.0022105 0.0015233
-0.0028123 0.0023207 -2.3312e-05 0.0029665 0.0004934 0.0010623 0.011346 -0.016315
-0.036446 0.21843 0.015483 -0.012136
0.0012042 0.0018966 -0.00079887 0.0018277 0.00019967 0.00054693 0.0022468 0.0015932
0.015339 -0.012291 -0.024322 0.31443
1280000000 0.16845 0.26902 -0.0066217 -0.029152 -0.0018612 0.0016681 -0.00094332 -0.002047
-0.0010223 0.0033486 0.0025068 0.0013436
-0.0066308 -0.029095 -0.006072 0.37875 -0.023382 -0.0081639 -0.00085292 0.0013896
0.0015715 0.0018148 0.00061096 0.0020075
-0.0018803 0.0016608 -0.023463 -0.008062 0.31338 0.16378 0.001327 -0.00014629
0.0011118 0.00041192 0.00018438 0.00034404
-0.0010198 -0.0020469 -0.00079606 0.0014174 0.0013445 -0.00013591 0.10791 0.25686
0.0021766 -0.018969 -0.00026175 4.1431e-05
-0.0010252 0.0033331 0.001575 0.0018396 0.0010883 0.00035261 0.0021823 -0.018906
9.5934e-05 0.22498 0.0043106 -0.015479
0.0025916 0.0012048 0.00066408 0.0020847 0.00017143 0.00030161 -0.00029435 6.1115e-05
0.0043618 -0.01546 0.0239 0.31844
1340000000 0.20605 0.23695 -0.016564 -0.020044 0.00026591 0.0041191 -0.0018091 -0.0007326
0.0015932 0.0027324 0.0016555 -0.0013708
-0.016542 -0.020042 0.033253 0.37184 -0.02067 0.0043362 -0.00018064 0.0018963
0.0017444 0.0008876 0.0011918 0.00087289
0.00028992 0.0041181 -0.020709 0.0044453 0.33659 0.11603 0.00079975 -0.0008555
0.00053849 -0.00046859 0.00011139 0.00024161
-0.0018503 -0.00072427 -0.00020706 0.0018947 0.0007746 -0.00086275 0.14093 0.23704
-0.0074533 -0.016626 0.0010845 0.00044471
0.0016203 0.0027908 0.0018012 0.00085381 0.00057663 -0.0005536 -0.0073655 -0.016646
0.029483 0.22274 -0.0025938 -0.013987
0.0017068 -0.0013903 0.001165 0.00079477 8.3544e-05 0.00020028 0.0010383 0.00040642
-0.0026413 -0.013923 0.061916 0.3148
1400000000 0.24052 0.20065 -0.023275 -0.0089076 0.0046432 0.0030292 -0.0021267 0.00077723
0.0025411 0.001016 0.00037959 -0.0012715
-0.023256 -0.0088902 0.071564 0.36025 -0.014086 0.012128 0.0012231 0.0013906
0.0011824 -0.00054741 0.0011298 0.0002266
0.0046445 0.0030329 -0.014046 0.012227 0.35042 0.061944 -2.2578e-05 -0.0013683
0.0002197 -0.00015414 0.00038642 0.00021001
-0.0021174 0.00078263 0.0012288 0.001367 -3.8858e-06 -0.0013502 0.17058 0.2086
-0.013576 -0.010391 -0.0010601 -0.00042717
0.0024977 0.0010435 0.0011376 -0.00056965 0.0002178 -0.00015669 -0.013621 -0.010404
0.062712 0.22239 -0.0091231 -0.0094095
0.00033794 -0.0013394 0.0011506 0.00020867 0.00033805 0.00026595 -0.0010501 -0.00041214
-0.0090461 -0.009423 0.10692 0.30636
1460000000 0.2647 0.1578 -0.0207 0.003682 0.0050672 -0.00155 -0.0014912 0.0016453
0.0021314 -0.00040701 -0.00027144 -0.00082854
-0.020693 0.0036443 0.10654 0.339 -0.0053459 0.014722 0.0015847 0.00028339
0.0010736 -0.0012531 0.0012818 -0.00055545
0.0050545 -0.0015741 -0.0052366 0.014798 0.35715 0.0067083 -0.0010077 -0.0011002
0.00023014 -0.00020807 0.0006572 -0.00029152
-0.0014366 0.0016639 0.0015839 0.00028501 -0.0010249 -0.001084 0.19791 0.18005
-0.014924 -0.004034 -0.0010073 0.0018695
0.0021139 -0.0004244 0.0011107 -0.0012759 0.00024876 -0.00023497 -0.014886 -0.0039853
0.092431 0.21086 -0.011734 -0.0033082
-0.00016914 -0.00075186 0.0012227 -0.0005213 0.0006674 -0.0003347 -0.0011179 0.0018698
-0.011754 -0.0033054 0.14079 0.28624
1520000000 0.27806 0.11691 -0.015579 0.0093826 0.0030722 -0.0037788 9.4258e-05 0.0026191
0.0022362 -0.0018123 -0.0010029 -0.00025175
-0.015569 0.0093806 0.14084 0.32544 0.0020119 0.012121 0.0016767 -0.00062153
0.00018932 -0.0010347 0.00039164 -0.00096449
0.0030422 -0.0038094 0.0020705 0.012126 0.3496 -0.050312 -0.00082404 -0.00041187
0.00061545 -0.0010367 0.0001288 -1.0534e-05
8.1395e-05 0.0026189 0.0016663 -0.00064104 -0.00084616 -0.00039733 0.22174 0.14183
-0.015139 0.0016099 0.0013516 0.002101
0.0022921 -0.0018334 0.00023292 -0.0010033 0.00066992 -0.00097166 -0.015126 0.001575
0.1204 0.20071 -0.011478 0.00099357
-0.001049 -0.00029647 0.00035919 -0.0010308 0.00015616 -0.00012597 0.0013841 0.0020844
-0.011565 0.00094528 0.17462 0.26814
1580000000 0.28883 0.071515 -0.0091442 0.013179 -0.0011204 -0.0044961 0.0014973 0.0019111
-8.7517e-05 -0.0023048 -0.00029212 0.00045382
-0.0091504 0.01316 0.16902 0.30106 0.0052216 0.0070372 0.00062516 -0.0015147
-0.00038388 -0.0011954 -0.00019622 -0.00070133
-0.0011602 -0.004521 0.0052575 0.0070077 0.32875 -0.10793 -0.0014791 0.0002729
-0.00042639 -0.0013764 0.0002632 -0.00046285
0.0015448 0.0019144 0.00064729 -0.0015152 -0.0014867 0.00025528 0.23648 0.10253
-0.01204 0.0068349 0.0021543 0.00082481
-0.00019915 -0.0022823 -0.00039354 -0.0012018 -0.00049001 -0.0013612 -0.011985 0.0069139
0.1463 0.18644 -0.0095939 0.0071183
-0.00016059 0.00042485 -0.00016027 -0.00073829 0.00033058 -0.00042724 0.0021471 0.00076524
-0.0095612 0.007107 0.20832 0.24282
1640000000 0.29218 0.030492 -0.0023497 0.01246 -0.0027472 -0.002075 0.0027524 0.0010667
-0.00052468 -0.0017668 -0.0003341 0.00039838
-0.0023357 0.012449 0.19927 0.27677 0.0053071 0.0023534 -0.00043208 -0.0018698
-0.0009415 -0.0006001 -0.00039698 -0.00068939
-0.0027683 -0.0020509 0.0053074 0.002324 0.29928 -0.15689 -0.00074536 0.001182
-0.0010762 -0.0011227 -8.5445e-05 -0.00038338
0.0027643 0.0010764 -0.00045522 -0.0018435 -0.00071182 0.0012106 0.24967 0.053114
-0.0080041 0.0084045 0.0024717 -0.00065248
-0.00052972 -0.0017455 -0.0009466 -0.00059288 -0.0010222 -0.0010929 -0.0080338 0.0084473
0.17007 0.16585 -0.0046059 0.009237
-0.00035957 0.00051852 -0.00045292 -0.00070451 -0.00010747 -0.00042866 0.0024632 -0.00063658
-0.0045834 0.009287 0.23448 0.21284
1700000000 0.28649 -0.014455 0.0013758 0.0099732 -0.0031807 0.00045132 0.0031168 -0.0012556
-0.0021838 -0.0007793 0.00053946 0.00040593
0.0013654 0.0099811 0.21815 0.24543 0.0027509 -0.00031187 -0.0014393 -0.00079082
-0.00088578 -0.0001553 -0.00080027 -0.00045507
-0.0032196 0.00045054 0.0027559 -0.00032966 0.25517 -0.19563 0.00010912 0.0016493
-0.0020965 -0.0003517 -0.00031238 -0.0007272
0.0031413 -0.0012602 -0.0014487 -0.00076147 0.0001308 0.0016412 0.24649 0.0026549
-0.0053665 0.0096271 0.0017804 -0.0020119
-0.0021154 -0.00077083 -0.00085988 -0.00011548 -0.0021188 -0.00029316 -0.0053021 0.0095969
0.18987 0.14914 1.8737e-05 0.0095474
0.00050068 0.00040138 -0.00083371 -0.00042477 -0.00032351 -0.00073213 0.0018051 -0.0020219
3.7905e-05 0.0095441 0.25273 0.17939
1760000000 0.27592 -0.063235 0.0040823 0.0069339 -0.0020178 0.0012074 0.0014223 -0.0035027
-0.001256 0.00046226 0.00021296 -0.00046495
0.0040666 0.0069121 0.24477 0.20589 0.00017166 -0.0016474 -0.0012615 4.6325e-06
-0.0011715 0.00098081 -0.00054613 0.00028636
-0.001967 0.0011969 0.00017515 -0.0016214 0.20649 -0.22739 0.0010564 0.0014621
-0.0011728 0.0014867 -0.0012684 -0.00075885
0.0013723 -0.0034881 -0.001288 1.4064e-05 0.0010256 0.0014284 0.23779 -0.049474
-0.0015402 0.0091483 -0.00017122 -0.0024156
-0.0012553 0.00048029 -0.0011769 0.00096716 -0.0011602 0.0014514 -0.0015129 0.0091971
0.20713 0.11749 0.0039583 0.0072152
0.00023277 -0.00046189 -0.00056726 0.00028977 -0.0013379 -0.00071985 -0.00017201 -0.0024927
0.0040135 0.0071847 0.26623 0.1424
1820000000 0.25259 -0.10128 0.0046047 0.0032915 0.00026367 0.0023187 -0.00092574 -0.0030653
-0.0012478 0.00089084 5.2837e-07 -0.00011795
0.0045928 0.0032923 0.25556 0.17603 -0.001965 8.3355e-05 -0.0015103 0.0009496
-1.0772e-05 0.0013001 -0.00072538 0.00044047
0.00028051 0.0023157 -0.0019512 0.00010563 0.15663 -0.2421 0.0017614 0.00061134
-0.00020225 0.0024528 -0.0018151 0.00030773
-0.00095935 -0.0030845 -0.0015037 0.0009433 0.0017722 0.00065791 0.20771 -0.097409
0.00050904 0.0079274 -0.0015332 -0.0017166
-0.0012615 0.00090054 -1.514e-05 0.0012945 -0.00020037 0.00249 0.00049703 0.0078672
0.22778 0.091094 0.0050007 0.0034613
-1.7935e-05 -0.0001071 -0.00067446 0.00044302 -0.0017774 0.00031047 -0.0015531 -0.0016935
0.005029 0.0034695 0.27018 0.10737
1880000000 0.218 -0.1422 0.0025631 0.00084721 -0.00033364 0.0022293 -0.00278 -0.002376
-0.00031965 0.0017277 0.00033657 -0.00059923
0.0025238 0.00085418 0.26011 0.12966 -0.0038514 0.0028464 -0.00031461 0.0018404
0.00055953 0.0013488 0.00014662 0.00098778
-0.00028228 0.002222 -0.0038082 0.0028552 0.10501 -0.24979 0.0020146 -0.0012099
0.0016832 0.0019517 -0.0010083 0.0015075
-0.0028485 -0.0024071 -0.00031674 0.0018544 0.0019951 -0.0012676 0.16656 -0.13757
0.0015973 0.0056764 -0.0022833 0.00014202
-0.00023746 0.001677 0.00061043 0.0013412 0.0016423 0.0019743 0.0016726 0.0057018
0.23473 0.061845 0.0054988 0.0015769
0.00029645 -0.00060994 5.9257e-05 0.00098976 -0.00085727 0.0015102 -0.0022845 0.00019856
0.0054889 0.00154 0.27163 0.073571
1940000000 0.17918 -0.16862 0.0004569 -0.0010235 0.0017925 0.0017789 -0.0039889 0.00015914
0.0010476 0.00095388 -0.00066708 -0.00078457
0.0004479 -0.0010315 0.26165 0.098338 -0.0019247 0.0057651 0.0010545 0.001412
0.0020019 0.00033876 0.00095463 0.00024745
0.0017802 0.0018085 -0.0018823 0.0057905 0.061132 -0.24177 0.00045643 -0.0024604
0.0023086 0.00021981 0.00023576 0.0016062
-0.0039698 0.000243 0.0010402 0.0014366 0.0005283 -0.0024466 0.11407 -0.16857
0.001214 0.0038656 -0.0013531 0.0013555
0.0010779 0.00095145 0.0020079 0.00031506 0.0022931 0.00023226 0.0012902 0.0037933
0.24169 0.025236 0.0043587 -0.0024547
-0.00070382 -0.00071897 0.00086448 0.00030091 0.0001874 0.0016086 -0.0013584 0.0013502
0.0043821 -0.0024726 0.26231 0.037599
2000000000 0.13333 -0.1836 -0.0032113 0.0008931 0.002912 0.0012022 -0.00251 0.0036334
0.00092682 0.00038388 -0.0010006 0.00053139
-0.0031968 0.0008572 0.24815 0.063044 -0.00037805 0.0078197 0.0016536 0.00027078
0.0011553 -0.0013367 0.00043624 6.6466e-05
0.0029636 0.0012049 -0.00030295 0.0078355 0.020163 -0.22759 -0.0014788 -0.0015558
0.0020546 -0.0010919 0.001596 0.0014841
-0.0024382 0.0036912 0.0016067 0.00037025 -0.0015485 -0.001564 0.059663 -0.17819
-0.00077455 0.0032682 -0.00015893 0.0019706
0.00084372 0.00049983 0.0010109 -0.0013675 0.0020097 -0.0010644 -0.00079159 0.0032752
0.2401 -0.0078791 0.00084862 -0.0034207
