!Keysight Technologies,M9804A,MY58100912,A.14.10.03
!Date: Thursday, April 27, 2023 10:28:33
!Correction: S11(C  6-Port  ) 
!S12(C  6-Port  ) 
!S13(C  6-Port  ) 
!S14(C  6-Port  ) 
!S15(C  6-Port  ) 
!S16(C  6-Port  ) 
!S21(C  6-Port  ) 
!S22(C  6-Port  ) 
!S23(C  6-Port  ) 
!S24(C  6-Port  ) 
!S25(C  6-Port  ) 
!S26(C  6-Port  ) 
!S31(C  6-Port  ) 
!S32(C  6-Port  ) 
!S33(C  6-Port  ) 
!S34(C  6-Port  ) 
!S35(C  6-Port  ) 
!S36(C  6-Port  ) 
!S41(C  6-Port  ) 
!S42(C  6-Port  ) 
!S43(C  6-Port  ) 
!S44(C  6-Port  ) 
!S45(C  6-Port  ) 
!S46(C  6-Port  ) 
!S51(C  6-Port  ) 
!S52(C  6-Port  ) 
!S53(C  6-Port  ) 
!S54(C  6-Port  ) 
!S55(C  6-Port  ) 
!S56(C  6-Port  ) 
!S61(C  6-Port  ) 
!S62(C  6-Port  ) 
!S63(C  6-Port  ) 
!S64(C  6-Port  ) 
!S65(C  6-Port  ) 
!S66(C  6-Port  ) 
!S6P File: Measurement: :
# Hz S  RI   R 50
500000000 -0.32719 -0.062467 -0.010025 -0.0011262 -0.0083282 0.011822 -0.0040995 0.011618
0.01304 0.0064 -0.0055083 0.0082628
-0.010253 -0.00076155 -0.40786 -0.073933 0.0082818 -0.011374 0.0010504 0.011947
0.0091771 0.003616 0.00029684 0.013262
-0.00807 0.012115 0.0084119 -0.011344 -0.25588 0.19153 0.0066904 0.0031728
-0.001525 0.0080121 0.00043569 0.012545
-0.0037034 0.011801 0.0011805 0.012228 0.006641 0.0032772 -0.32476 0.041923
-0.019574 -0.0054702 0.016406 0.026956
0.012636 0.0060088 0.0090014 0.0026198 -0.0019652 0.0074854 -0.020558 -0.0053444
-0.21427 -0.24069 -0.027871 0.0021055
-0.0043539 0.0082528 0.0011578 0.013857 0.00080496 0.012208 0.017401 0.0261
-0.027665 0.0029809 -0.2597 -0.14542
560000000 -0.31477 0.10471 -0.022117 -0.067618 0.00021992 0.013027 0.0057318 0.010952
0.011387 0.0051941 0.011653 0.0094323
-0.022039 -0.067173 -0.37026 0.090433 -0.041095 -0.039075 0.013247 0.0034756
-0.013102 -0.0054118 0.0031886 -0.0013648
0.00043012 0.013271 -0.041292 -0.039331 -0.18132 0.24119 -0.00026237 -0.0053425
0.017465 0.0063438 0.0082942 -0.0063448
0.0052594 0.010686 0.013378 0.0037305 -0.0007125 -0.0052781 -0.30242 0.13195
0.0071525 -0.022598 0.0059233 -0.021033
0.011892 0.0056271 -0.01374 -0.0053168 0.017834 0.0059746 0.0060272 -0.023487
-0.29995 -0.058905 0.011619 -0.049996
0.011462 0.010225 0.0045306 -0.0011838 0.0084976 -0.0060302 0.0068616 -0.020481
0.011636 -0.050335 -0.32846 0.0035463
620000000 -0.27486 0.081824 -0.023432 0.0090572 0.003617 0.0087039 0.0074534 -0.0047953
0.012124 -0.00064428 0.00046952 -0.0016058
-0.023554 0.0090703 -0.39895 0.035975 -0.019202 6.7863e-05 -0.0019875 -0.0021593
0.012227 -0.0055293 0.00026798 -0.0029482
0.003366 0.0085775 -0.019342 0.00023309 -0.15446 0.24998 -0.0012274 -0.0053685
-0.0039675 -0.0022813 0.0087761 -0.0036553
0.0078429 -0.0050448 -0.0019336 -0.002044 -0.0012414 -0.0052138 -0.26172 0.14113
-0.038564 -0.021054 0.012574 0.027837
0.012341 0.00040106 0.012416 -0.0052906 -0.0040231 -0.0026813 -0.039116 -0.020612
-0.21571 -0.095517 -0.045355 0.012505
0.00038881 -0.0019315 0.00024905 -0.0033151 0.0082901 -0.0034514 0.012055 0.028131
-0.04469 0.012061 -0.2452 -0.033254
680000000 -0.24083 0.17401 -0.026015 -0.015098 0.0046647 0.0054328 0.0018818 -0.0075744
-0.0013569 -0.011805 0.0061555 -0.0066703
-0.026147 -0.015137 -0.39 0.13769 -0.0326 -0.0018235 -0.0015258 -0.00023856
-0.0013684 -0.0092593 -0.00093202 -0.001781
0.0046692 0.005187 -0.03275 -0.0017864 -0.10742 0.27352 -0.00084923 0.00020563
-0.0014053 0.0012242 -0.0030931 -0.0087137
0.0013634 -0.006942 -0.0017181 -0.00022889 -0.000904 0.00027759 -0.21803 0.19421
-0.023385 -0.0077971 -0.0089181 -0.011247
-0.0014875 -0.011473 -0.0015218 -0.0094481 -0.0014129 0.00090587 -0.023148 -0.0076831
-0.28225 0.0066609 -0.0052076 -0.0075046
0.0055089 -0.0068053 -0.00075203 -0.0016551 -0.0028428 -0.0088168 -0.0083253 -0.011561
-0.0052973 -0.0074324 -0.2607 0.070674
740000000 -0.19449 0.16745 -0.040983 0.026395 0.013686 -0.0037839 0.00020523 -0.0037234
-0.0028678 -0.002521 -0.0072695 0.0032308
-0.041056 0.026475 -0.33703 0.15769 -0.037066 0.034064 6.0028e-05 -0.0055368
-0.012743 0.00663 -0.0012762 -0.0054275
0.013294 -0.0039518 -0.037111 0.034039 -0.073909 0.27426 -0.0020325 0.0033148
-0.0012247 -0.0051353 -0.0019996 0.00083829
9.4709e-05 -0.0039998 -5.8733e-05 -0.0057037 -0.0021036 0.0032507 -0.2019 0.20066
-0.042545 -0.0089926 0.022454 0.016251
-0.0037453 -0.0022883 -0.013644 0.007007 -0.0010701 -0.0048834 -0.042545 -0.0092923
-0.17787 0.041972 -0.04523 0.0001829
-0.0069083 0.0032851 -0.001894 -0.0054454 -0.0020325 0.00073287 0.022128 0.016808
-0.044636 0.00028716 -0.25045 0.075316
800000000 -0.16622 0.21331 -0.022864 0.015906 0.0054502 -0.010249 -0.0043387 -0.0028016
-0.0043161 0.0016664 0.004785 0.00069158
-0.022876 0.016003 -0.34468 0.22839 -0.0088092 0.034203 -0.0021256 0.0020369
-0.00030643 0.0022475 0.00081681 0.0054301
0.0055017 -0.010227 -0.0087491 0.03428 -0.035702 0.30017 0.0012443 0.0011421
-0.00010064 0.003181 -0.0015321 0.00074927
-0.0041618 -0.0023876 -0.0021087 0.0021181 0.0012472 0.0011429 -0.1735 0.22825
-0.02929 0.012635 0.015832 -0.010063
-0.0039912 0.0014361 -4.817e-05 0.0020873 6.2368e-06 0.0032281 -0.028666 0.012644
-0.23387 0.065492 -0.01917 0.020282
0.0046642 0.00047693 0.00065462 0.0050334 -0.0015129 0.00051793 0.014993 -0.010359
-0.018993 0.020449 -0.24707 0.12884
860000000 -0.13219 0.23454 -0.018283 0.030564 -0.0032193 -0.0099178 -0.0019566 0.00088793
0.0044417 0.0051374 -0.0040813 -0.0028185
-0.018335 0.030515 -0.29767 0.27331 0.007454 0.034146 0.00016885 0.0022336
0.0041295 0.00040416 0.0029374 0.000328
-0.0032224 -0.0098355 0.0075488 0.034197 0.012899 0.31027 -0.00042541 -0.00041047
0.0024537 -0.0018282 0.0012443 0.0042404
-0.0021318 0.0006828 -3.3221e-05 0.0020598 -0.00049708 -0.00040825 -0.13708 0.24008
-0.018335 0.01729 -0.0070208 -0.009587
0.004561 0.0051844 0.0043131 0.0005979 0.0026339 -0.0017814 -0.018378 0.017665
-0.17881 0.12755 -0.027599 0.016357
-0.0036045 -0.002861 0.0036841 0.00014841 0.0016019 0.0043171 -0.0068302 -0.0095891
-0.027758 0.016326 -0.20011 0.17648
920000000 -0.10906 0.25825 0.0042275 0.039452 -0.0092075 -0.0043145 -0.0020406 0.0016852
0.00031211 0.00092972 0.0030737 -0.0013724
0.0041843 0.039471 -0.27113 0.29531 0.027868 0.022937 0.001225 0.0011105
0.006988 -9.7908e-05 0.003946 -0.0030592
-0.0092642 -0.0042713 0.02797 0.022836 0.059126 0.31214 0.0016749 -6.7873e-05
0.00049252 -0.00038151 0.00080096 -0.0014196
-0.0017638 0.0017359 0.0013969 0.0011937 0.0016871 -9.808e-05 -0.11349 0.25679
-0.012529 0.03063 0.0046041 -0.0065229
8.7257e-05 0.0012797 0.0068937 -8.9732e-05 0.00050934 -0.00027153 -0.012646 0.030962
-0.17346 0.13163 -0.0037159 0.028813
0.0028055 -0.0013045 0.0037463 -0.0026944 0.0008038 -0.0013345 0.0044049 -0.0066286
-0.0032065 0.028929 -0.20763 0.18926
980000000 -0.06289 0.28046 0.016556 0.030674 -0.0090989 0.004673 0.0020499 0.0036084
0.0038342 -0.0013371 -0.0033946 -0.0026129
0.016527 0.030697 -0.2192 0.33283 0.032856 0.0052773 0.0019516 -0.0002696
0.0018137 -0.0059576 -9.619e-05 -0.0025796
-0.0091315 0.0047484 0.032947 0.0052117 0.10566 0.30709 0.00043795 -0.0011863
0.00030418 -0.0016609 0.001454 -0.00032619
0.0019099 0.0037224 0.0018414 -0.00022284 0.00043268 -0.0011508 -0.075014 0.26839
0.0062588 0.030217 -0.0098883 -0.0080029
0.0038629 -0.0014293 0.0017876 -0.006007 0.00027117 -0.0017118 0.0063907 0.03028
-0.14377 0.16924 0.0051036 0.020913
-0.0035976 -0.0027475 -0.00065798 -0.0025709 0.001398 -0.00024049 -0.0097263 -0.007757
0.0047214 0.021072 -0.16837 0.23821
1040000000 -0.022066 0.28985 0.033124 0.019927 -0.00092065 0.0075025 0.0023122 0.00067935
0.00031558 -0.0033297 -0.00020892 -0.001523
0.033086 0.01993 -0.18418 0.34697 0.029514 -0.014159 0.0014403 -0.0017614
-0.0023035 -0.0023074 -0.001217 -0.003009
-0.00087891 0.0074479 0.029464 -0.014321 0.15225 0.29417 -0.00053861 -0.0013291
-0.0015611 -0.00091096 -0.00069213 -0.0011299
0.0025341 0.00068652 0.001436 -0.0017112 -0.00055572 -0.0013735 -0.047708 0.27823
0.018365 0.019657 -0.0019553 0.0014284
0.00043156 -0.0032795 -0.0024493 -0.0023137 -0.0014996 -0.00093836 0.018262 0.019419
-0.11086 0.17801 0.013139 0.020208
-8.7136e-05 -0.0015661 -0.0011581 -0.0029571 -0.00068394 -0.0011466 -0.0021811 0.0013891
0.013248 0.020359 -0.14609 0.25964
1100000000 0.022811 0.30034 0.036651 -0.0027118 0.0035361 0.0040116 0.0025555 -0.00093422
-0.0023675 -0.0030995 -0.0041995 -3.1276e-05
0.03662 -0.0027376 -0.1409 0.36704 0.015441 -0.027306 -3.0523e-05 -0.0018136
-0.0033619 -0.00092319 -0.0037366 -0.00054023
0.0035814 0.0039961 0.015367 -0.02742 0.19847 0.27499 -0.0016775 0.00032979
-0.0016903 0.00068803 -0.0010932 -0.00057001
0.0024444 -0.00095933 -0.00010367 -0.0018281 -0.0017251 0.00034248 -0.007693 0.28359
0.024398 0.0067502 -0.0025936 -1.7648e-05
-0.0023486 -0.0031752 -0.0033919 -0.0010301 -0.0016162 0.00066654 0.02451 0.0066301
-0.093721 0.19532 0.019847 0.010548
-0.0041896 6.4041e-05 -0.003728 -0.00063116 -0.0011299 -0.0005533 -0.0027533 0.00015793
0.019524 0.010068 -0.10224 0.29179
1160000000 0.074344 0.29751 0.025168 -0.019853 0.0033951 -0.00067611 -0.00027181 -0.0024785
-0.0040236 -0.0010361 -0.0014276 0.0042281
0.025259 -0.019801 -0.096521 0.37221 -0.003468 -0.028465 -0.001566 -0.0014466
-0.0026267 0.0024162 -0.0015857 0.0018302
0.0033805 -0.00072786 -0.0036016 -0.028505 0.24234 0.24511 -0.00063788 0.0016177
-0.00036171 0.0017721 -0.0010557 0.0002145
-5.8515e-05 -0.0024363 -0.0015212 -0.0014475 -0.00057618 0.001645 0.031769 0.28074
0.021854 -0.0094156 -0.0036512 0.0052653
-0.0041228 -0.00093861 -0.0026446 0.0024888 -0.00038473 0.0017744 0.021767 -0.0095467
-0.058163 0.20621 0.019027 0.0012785
-0.0012571 0.0041059 -0.0015335 0.0019442 -0.00096037 0.00024492 -0.003514 0.0051745
0.019584 0.0015312 -0.053867 0.29586
1220000000 0.11773 0.28839 0.012163 -0.029917 -0.0011593 -0.0014985 4.6317e-05 -0.0010918
-0.0028076 0.0022859 0.0011562 0.0018628
0.012182 -0.029828 -0.052704 0.38647 -0.016492 -0.020915 -0.0024284 0.00045606
-1.7571e-05 0.0030084 -0.00083146 0.0018304
-0.001169 -0.0015369 -0.016621 -0.020885 0.28179 0.20683 0.00085815 0.0014323
0.00052098 0.0010815 0.00021726 0.00061523
-4.547e-05 -0.0010287 -0.0024604 0.00054782 0.00086364 0.0014562 0.071177 0.27249
0.011429 -0.016289 0.0021012 0.0016249
-0.0028163 0.0022232 4.5732e-05 0.002978 0.00051694 0.0011184 0.011376 -0.01631
-0.036428 0.21857 0.015516 -0.012021
0.0012825 0.0019254 -0.00078227 0.0018518 0.00024625 0.00055554 0.0021953 0.001647
0.015314 -0.012187 -0.024533 0.31426
1280000000 0.16851 0.26919 -0.0065935 -0.029174 -0.0018848 0.001683 -0.0010162 -0.0019855
-0.0010968 0.0032194 0.0025445 0.0013841
-0.0065811 -0.029142 -0.006025 0.37872 -0.023439 -0.0081266 -0.00077492 0.0014324
0.0016423 0.0018207 0.00072056 0.0020632
-0.0019305 0.0017318 -0.023485 -0.0080113 0.31344 0.16373 0.0013433 -0.00010613
0.0010166 0.00037631 0.00028568 0.00037428
-0.00098233 -0.0020159 -0.00078309 0.0013709 0.0013682 -9.4927e-05 0.1078 0.25678
0.0020848 -0.019064 -0.00014234 1.375e-06
-0.00096129 0.0034079 0.0016021 0.0018431 0.00099049 0.00034618 0.0020433 -0.019045
0.00052156 0.22492 0.0042227 -0.015389
0.0025296 0.0012759 0.00065246 0.0021219 0.00037951 0.00038094 -5.5483e-05 8.9522e-05
0.0041309 -0.015278 0.023851 0.3182
1340000000 0.20604 0.23708 -0.016601 -0.020069 0.00029036 0.0041007 -0.00182 -0.00084175
0.0015007 0.0027486 0.0016783 -0.0013188
-0.016531 -0.020062 0.03324 0.37185 -0.02069 0.004375 -0.00022117 0.0019156
0.0017629 0.0008956 0.0011983 0.00090503
0.00029808 0.0041021 -0.020725 0.0045031 0.33663 0.11594 0.00084298 -0.00085683
0.00052313 -0.00060659 9.5868e-05 0.00027537
-0.0018668 -0.00076049 -0.00018971 0.0019353 0.00080736 -0.00085725 0.14095 0.23697
-0.0074017 -0.016616 0.0010345 0.00042952
0.0014397 0.0028969 0.0018194 0.00089303 0.00057867 -0.00057159 -0.007384 -0.016711
0.029252 0.22299 -0.002675 -0.014087
0.0017429 -0.0013939 0.0011119 0.00069648 0.00015176 0.00025913 0.000998 0.00047011
-0.0025231 -0.014098 0.061845 0.31513
1400000000 0.24055 0.20075 -0.023291 -0.0088702 0.0046259 0.0030455 -0.0021667 0.00083832
0.0025162 0.0010214 0.00038187 -0.0012913
-0.02325 -0.0089084 0.071564 0.36027 -0.014116 0.012201 0.0012358 0.0013453
0.0010894 -0.00055381 0.0011792 0.00025291
0.0046698 0.0030657 -0.014041 0.012303 0.35041 0.061873 -2.147e-05 -0.0013545
0.00016859 -0.00011966 0.00038351 0.00027241
-0.0021057 0.000797 0.0011995 0.0013376 -6.8827e-06 -0.0013888 0.17069 0.20857
-0.013665 -0.010429 -0.00094489 -0.00041784
0.0024867 0.0010294 0.0011571 -0.00057089 0.00013979 -0.00020144 -0.013645 -0.010329
0.062549 0.22215 -0.0091781 -0.0093384
0.00044743 -0.0013059 0.0011908 0.00026656 0.0004333 0.0002965 -0.00088852 -0.00047522
-0.0091555 -0.0092844 0.10691 0.30618
1460000000 0.2648 0.15778 -0.020701 0.0036767 0.0050881 -0.00158 -0.0014936 0.0016458
0.0020652 -0.00035543 -0.00017608 -0.00084894
-0.020708 0.0036699 0.10655 0.33904 -0.0053044 0.014765 0.0016257 0.00029733
0.0011154 -0.0012535 0.0011761 -0.00054769
0.0050329 -0.0015922 -0.0052331 0.014844 0.35714 0.0066682 -0.0010099 -0.0011138
0.00029193 -0.00022074 0.00065843 -0.00036117
-0.0015472 0.0016459 0.0016309 0.00025139 -0.0010057 -0.0010869 0.19787 0.18
-0.014968 -0.0040147 -0.0010996 0.0018937
0.0020979 -0.00044852 0.001143 -0.0012313 0.00028532 -0.00016339 -0.014977 -0.003955
0.092275 0.21069 -0.011346 -0.0033513
-0.00018926 -0.00092439 0.0012335 -0.00054359 0.00067079 -0.00033905 -0.0010518 0.0019284
-0.01134 -0.0032915 0.14065 0.28616
1520000000 0.27823 0.1168 -0.01558 0.0094188 0.0030644 -0.0037826 0.00012262 0.0026867
0.0023102 -0.0018591 -0.0010389 -0.00022444
-0.015554 0.009397 0.14085 0.32546 0.0020617 0.012171 0.0016451 -0.00065444
0.00019894 -0.0010236 0.00038297 -0.0010392
0.0030876 -0.0038194 0.0021228 0.012156 0.34958 -0.050331 -0.0008192 -0.00038221
0.00064281 -0.00096444 0.00014407 -0.00015463
0.00013484 0.0026306 0.0016596 -0.00065577 -0.00083804 -0.0003837 0.22171 0.14177
-0.015063 0.0015611 0.0013914 0.0020455
0.0023729 -0.001848 0.00020278 -0.0010427 0.00057615 -0.00099841 -0.015082 0.0015912
0.12024 0.20062 -0.011518 0.001042
-0.0010629 -0.00021979 0.00038369 -0.0010148 0.00012161 -7.9375e-05 0.0013293 0.002037
-0.011477 0.0010209 0.17466 0.26793
1580000000 0.28892 0.071362 -0.0091658 0.013188 -0.0011765 -0.0045409 0.0015041 0.0019039
-0.00012229 -0.0022522 -0.00022426 0.00039304
-0.0091594 0.013164 0.16907 0.30112 0.0052472 0.0070529 0.00062051 -0.0014871
-0.00041224 -0.0012294 -0.00018438 -0.00072172
-0.0011812 -0.0045239 0.0052731 0.0070103 0.32876 -0.10789 -0.0014862 0.00028047
-0.00046912 -0.0014354 0.00026316 -0.00042499
0.0015581 0.0019292 0.00061681 -0.0015201 -0.0014462 0.00030554 0.23645 0.10254
-0.011991 0.0069603 0.002003 0.00086818
-0.00019201 -0.0022143 -0.00040549 -0.0011728 -0.00040402 -0.0013905 -0.011923 0.0069576
0.146 0.1866 -0.0094093 0.0071262
-0.00024648 0.00032237 -0.00021247 -0.00075461 0.00028869 -0.00046473 0.0020724 0.00080919
-0.0094606 0.0070963 0.20807 0.24294
1640000000 0.29227 0.030317 -0.0022956 0.012435 -0.0027362 -0.0020934 0.0028113 0.0010916
-0.0004964 -0.0017796 -0.00036213 0.00049705
-0.0023028 0.012446 0.19933 0.27681 0.005319 0.0023551 -0.00043732 -0.0018433
-0.0009371 -0.00057518 -0.00039276 -0.00072736
-0.0027668 -0.0020554 0.0053404 0.0023236 0.29928 -0.15689 -0.00071514 0.0011971
-0.0010464 -0.0010905 -6.3479e-05 -0.00043371
0.0028055 0.00106 -0.00043157 -0.0018269 -0.00076003 0.0012044 0.2496 0.053
-0.0080346 0.0083328 0.0024654 -0.00055274
-0.00055048 -0.0017785 -0.00096689 -0.00057782 -0.0010865 -0.0011243 -0.0080318 0.0083289
0.16993 0.16584 -0.0046718 0.0091886
-0.00034767 0.00043952 -0.00042544 -0.00070484 -0.00010538 -0.00043472 0.0025305 -0.00055186
-0.004637 0.0091917 0.23441 0.2128
1700000000 0.28644 -0.01456 0.00139 0.0099822 -0.0031645 0.00040647 0.0031498 -0.0013209
-0.0021175 -0.00069842 0.00044934 0.0003505
0.0013687 0.0099935 0.21818 0.24545 0.0027898 -0.00034577 -0.0014254 -0.00079234
-0.00082649 -0.00012739 -0.00079278 -0.00049556
-0.003223 0.00046943 0.0027728 -0.00035355 0.25521 -0.19554 9.4602e-05 0.0016042
-0.0021072 -0.00019736 -0.00030439 -0.0008052
0.0031435 -0.0013131 -0.0014778 -0.0007659 0.00012177 0.0016362 0.24644 0.0027745
-0.0052073 0.0096261 0.0017762 -0.00205
-0.0021546 -0.00076424 -0.00084098 -0.00013336 -0.0021047 -0.00017443 -0.0052607 0.0096897
0.18977 0.14929 9.1751e-05 0.0095429
0.00051063 0.00048787 -0.00080478 -0.00046399 -0.00031908 -0.00085874 0.0016611 -0.002037
0.00010419 0.009489 0.2524 0.17928
1760000000 0.27586 -0.063342 0.0040757 0.0069225 -0.0019773 0.0011764 0.0013927 -0.0034901
-0.0012737 0.00048709 0.0002515 -0.0005187
0.0040684 0.0069101 0.24485 0.20589 0.0001928 -0.0016621 -0.0013066 -1.64e-05
-0.0011921 0.00095318 -0.00054269 0.00033923
-0.0019813 0.0012096 0.00018855 -0.0016752 0.20658 -0.22739 0.0010998 0.0014198
-0.0011358 0.0014398 -0.0012945 -0.0007353
0.0013137 -0.0035092 -0.0012905 1.3377e-05 0.0010345 0.0014249 0.23786 -0.049454
-0.0015192 0.0090862 -0.00018198 -0.0024491
-0.0013022 0.000486 -0.0011919 0.00097117 -0.0011671 0.0014238 -0.0015161 0.0090855
0.20703 0.11767 0.0039948 0.0071129
0.00027027 -0.00052579 -0.00052849 0.00032133 -0.0012587 -0.00065616 -7.0325e-05 -0.0023952
0.0039622 0.0071423 0.26639 0.1424
1820000000 0.25255 -0.1013 0.0046133 0.003308 0.000255 0.0022916 -0.00097515 -0.0031096
-0.0012299 0.00093541 -1.2446e-07 -5.6652e-05
0.0046096 0.0033096 0.2556 0.17598 -0.0019662 6.4686e-05 -0.0015134 0.00092913
-4.8318e-05 0.001251 -0.00069564 0.00040567
0.00029344 0.0023231 -0.0019452 7.7995e-05 0.15676 -0.24207 0.0017503 0.00063934
-0.00028194 0.0024563 -0.001773 0.00031009
-0.00086151 -0.0031103 -0.0014979 0.00094855 0.0018074 0.00063739 0.20761 -0.097272
0.00039664 0.00792 -0.0014795 -0.0017303
-0.0011922 0.00090702 -3.4545e-05 0.0012731 -0.00019409 0.002457 0.00042509 0.0078867
0.22767 0.091233 0.0050189 0.0034886
-5.0983e-05 -9.8262e-05 -0.0007053 0.00043683 -0.0017762 0.00035521 -0.0015153 -0.0016815
0.0050253 0.0035526 0.27013 0.10762
1880000000 0.21803 -0.14206 0.0025586 0.00087854 -0.00026616 0.0022454 -0.0029444 -0.0023768
-0.00033651 0.0016994 0.00026363 -0.00060549
0.0025316 0.00090086 0.2602 0.12964 -0.0038638 0.0027904 -0.00034261 0.0018671
0.00056396 0.0013703 8.5148e-05 0.00096086
-0.00024001 0.0022257 -0.0038661 0.0028545 0.10504 -0.24988 0.0021162 -0.0011752
0.0016673 0.0019251 -0.00093168 0.0014936
-0.0028983 -0.002339 -0.00035568 0.0018711 0.0020404 -0.0011926 0.16671 -0.13775
0.0017647 0.005635 -0.0022893 0.00026264
-0.00029813 0.0017211 0.0005717 0.0013568 0.0016306 0.0019531 0.0017281 0.0056318
0.23476 0.062065 0.0054569 0.0016249
0.0003849 -0.00055808 0.00012672 0.0010293 -0.00092958 0.0015329 -0.0021536 0.00032905
0.0054625 0.0016017 0.27119 0.073742
1940000000 0.17922 -0.16859 0.00047387 -0.0010404 0.0017814 0.0018425 -0.0039772 0.00014535
0.0011243 0.00088628 -0.00066894 -0.00077506
0.00046679 -0.0010231 0.26175 0.098309 -0.0019416 0.0057385 0.0010862 0.0014125
0.0019993 0.00036012 0.00090313 0.00023312
0.0017571 0.0018383 -0.001912 0.0057792 0.06118 -0.24185 0.00052641 -0.0023704
0.0022415 0.00034889 0.00018755 0.0015821
-0.0039888 0.00029405 0.0010778 0.0014246 0.00045365 -0.0023892 0.11399 -0.16854
0.0011875 0.0038289 -0.0014643 0.0013136
0.0010842 0.00090264 0.0020075 0.00032297 0.0022702 0.0002289 0.0011746 0.0038617
0.2418 0.025299 0.0044266 -0.0024665
-0.0006923 -0.00072826 0.0009407 0.00026287 0.00023635 0.001542 -0.0013626 0.0012498
0.0043519 -0.0024466 0.26245 0.037846
2000000000 0.13333 -0.18361 -0.0031624 0.0008651 0.0030036 0.0011678 -0.0024364 0.0037461
0.0009504 0.0005489 -0.00081067 0.00060435
-0.0032143 0.00088699 0.24823 0.062953 -0.00037981 0.0078351 0.0016615 0.0003707
0.0011413 -0.0013024 0.00038339 0.00011922
0.0029978 0.0011835 -0.00034195 0.0078601 0.020056 -0.22761 -0.0015169 -0.0014988
0.0019736 -0.0010777 0.0015598 0.001493
-0.002434 0.0037605 0.0016119 0.00035934 -0.0015893 -0.0014625 0.059702 -0.1783
-0.00081577 0.0033255 -0.00028685 0.0021397
0.00092096 0.0005171 0.0010906 -0.0013494 0.0019162 -0.00098552 -0.0008032 0.0032814
0.24001 -0.0078163 0.00079035 -0.0033866
