!Keysight Technologies,M9804A,MY58100912,A.14.10.03
!Date: Thursday, April 27, 2023 10:28:33
!Correction: S11(C  6-Port  ) 
!S12(C  6-Port  ) 
!S13(C  6-Port  ) 
!S14(C  6-Port  ) 
!S15(C  6-Port  ) 
!S16(C  6-Port  ) 
!S21(C  6-Port  ) 
!S22(C  6-Port  ) 
!S23(C  6-Port  ) 
!S24(C  6-Port  ) 
!S25(C  6-Port  ) 
!S26(C  6-Port  ) 
!S31(C  6-Port  ) 
!S32(C  6-Port  ) 
!S33(C  6-Port  ) 
!S34(C  6-Port  ) 
!S35(C  6-Port  ) 
!S36(C  6-Port  ) 
!S41(C  6-Port  ) 
!S42(C  6-Port  ) 
!S43(C  6-Port  ) 
!S44(C  6-Port  ) 
!S45(C  6-Port  ) 
!S46(C  6-Port  ) 
!S51(C  6-Port  ) 
!S52(C  6-Port  ) 
!S53(C  6-Port  ) 
!S54(C  6-Port  ) 
!S55(C  6-Port  ) 
!S56(C  6-Port  ) 
!S61(C  6-Port  ) 
!S62(C  6-Port  ) 
!S63(C  6-Port  ) 
!S64(C  6-Port  ) 
!S65(C  6-Port  ) 
!S66(C  6-Port  ) 
!S6P File: Measurement: :
# Hz S  RI   R 50
500000000 -0.32762 -0.061867 -0.009882 -0.0018508 -0.0080668 0.011901 -0.0042514 0.012122
0.012837 0.0060373 -0.0049921 0.0082921
-0.010017 -0.0018293 -0.40902 -0.071349 0.0075073 -0.01136 0.000889 0.011687
0.0089636 0.0034024 0.00077371 0.013572
-0.0078642 0.011612 0.0076667 -0.011368 -0.25496 0.19359 0.0066801 0.0033542
-0.0021636 0.0077756 0.0012288 0.012225
-0.0041048 0.012046 0.00087143 0.011884 0.0068417 0.0034403 -0.32715 0.045363
-0.019596 -0.0055888 0.014412 0.027914
0.012821 0.0058514 0.0088547 0.0035072 -0.0023419 0.007825 -0.019604 -0.005607
-0.21017 -0.24527 -0.028323 0.003411
-0.0048412 0.0082151 0.00087446 0.013798 0.0016251 0.012062 0.01445 0.027906
-0.028499 0.003437 -0.26038 -0.1429
560000000 -0.31286 0.10729 -0.023517 -0.066882 0.0012564 0.012539 0.0056992 0.010796
0.011024 0.0050517 0.011404 0.010432
-0.023484 -0.066579 -0.36872 0.091799 -0.042687 -0.037863 0.013869 0.0026683
-0.015133 -0.0062256 0.004265 -0.00061465
0.0011006 0.012422 -0.04197 -0.037505 -0.17855 0.24266 -0.00054556 -0.0046119
0.018756 0.0070808 0.007931 -0.0055599
0.0059045 0.011054 0.014687 0.0025135 -0.00022561 -0.0049203 -0.30215 0.13366
0.0070337 -0.022157 0.005886 -0.021737
0.010771 0.004545 -0.015383 -0.0062012 0.018468 0.0069587 0.0069804 -0.022043
-0.29968 -0.061563 0.0098305 -0.051627
0.011572 0.010377 0.0047259 -0.00042104 0.008071 -0.0054803 0.0060244 -0.021628
0.0097354 -0.051672 -0.32701 0.0041924
620000000 -0.27357 0.082841 -0.023592 0.009011 0.0035263 0.0086286 0.0085251 -0.0043861
0.012107 -0.001142 0.00068929 -0.00082578
-0.02354 0.0089308 -0.3987 0.037372 -0.019317 0.00053396 -0.0018657 -0.0023687
0.012517 -0.0050741 0.0001417 -0.0030688
0.0033856 0.0084467 -0.019446 0.00048066 -0.15273 0.2519 -0.0017572 -0.0053766
-0.0036228 -0.0022659 0.0079663 -0.0033531
0.0087291 -0.0048436 -0.0017856 -0.0023911 -0.0016765 -0.0053926 -0.26167 0.14318
-0.038294 -0.021001 0.011817 0.02838
0.01256 3.2406e-05 0.012604 -0.0048273 -0.0035995 -0.0020245 -0.038421 -0.021034
-0.21243 -0.10084 -0.043673 0.011766
0.00061526 -0.00066451 0.00029262 -0.0031094 0.0074926 -0.0026294 0.011876 0.028391
-0.043846 0.011701 -0.24121 -0.03242
680000000 -0.23934 0.17526 -0.026406 -0.014671 0.0048567 0.0051534 0.0011913 -0.0072898
-0.0015624 -0.011604 0.0059574 -0.0067318
-0.026356 -0.014704 -0.38907 0.13934 -0.032533 -0.0014663 -0.0016275 -0.0006346
-0.0014968 -0.0092535 -0.00092157 -0.0016582
0.0047971 0.0051851 -0.032572 -0.0014452 -0.10632 0.275 -0.00064668 -3.0317e-05
-0.001445 0.0010153 -0.0029429 -0.0090186
0.0012396 -0.0072093 -0.0017786 -0.00066421 -0.00081283 -7.0991e-05 -0.21725 0.195
-0.023545 -0.0075259 -0.0092104 -0.011198
-0.0016921 -0.011567 -0.0017723 -0.0094199 -0.0015435 0.0010325 -0.023554 -0.0075449
-0.28388 0.0010815 -0.0051762 -0.0072833
0.0058155 -0.0068383 -0.00084611 -0.0015707 -0.0027922 -0.0091161 -0.0091858 -0.011161
-0.0052704 -0.0072645 -0.26007 0.072663
740000000 -0.19315 0.16892 -0.040431 0.026709 0.013559 -0.0038082 1.0684e-05 -0.0039036
-0.0037656 -0.0016363 -0.0068986 0.0028131
-0.040398 0.026569 -0.33496 0.15916 -0.036578 0.034614 0.00027684 -0.0055354
-0.013188 0.0068611 -0.0009554 -0.0057387
0.013421 -0.0038767 -0.036411 0.034892 -0.072578 0.27521 -0.0016496 0.0033047
-0.0012862 -0.005364 -0.0017311 0.00090587
-3.5467e-05 -0.0040343 0.00021115 -0.0054377 -0.0016242 0.0033778 -0.20146 0.20168
-0.041955 -0.0091296 0.022119 0.016318
-0.0038694 -0.0012507 -0.012225 0.0063962 -0.001156 -0.0051946 -0.041996 -0.0089225
-0.17871 0.036913 -0.044007 -0.00045943
-0.0065777 0.0024595 -0.0015674 -0.0052228 -0.0015046 0.0007681 0.022157 0.016303
-0.043988 -0.00080306 -0.25125 0.076069
800000000 -0.16547 0.21417 -0.022295 0.01598 0.0054389 -0.010429 -0.0045428 -0.0024815
-0.0042896 0.0014312 0.0042777 0.00061566
-0.02239 0.015994 -0.34366 0.22973 -0.0082698 0.034399 -0.0022437 0.0021392
0.00016572 0.0019722 0.00073325 0.0055178
0.0054836 -0.010455 -0.0081099 0.034458 -0.034681 0.30139 0.0010501 0.0012524
-5.6744e-05 0.0028937 -0.0017749 0.00074612
-0.0046576 -0.0024762 -0.0022772 0.0020232 0.0010206 0.0012183 -0.17278 0.22903
-0.029805 0.013124 0.014687 -0.010621
-0.0042889 0.0015113 8.9107e-05 0.0019937 4.3371e-05 0.0030706 -0.029805 0.013184
-0.23575 0.060376 -0.019429 0.021134
0.0042963 0.00070468 0.00050531 0.0054193 -0.0016588 0.00078266 0.014706 -0.010667
-0.01945 0.02117 -0.24851 0.12848
860000000 -0.13013 0.23582 -0.018178 0.030916 -0.003286 -0.009943 -0.0019114 0.00066893
0.0039604 0.0051651 -0.0036109 -0.003203
-0.018112 0.030978 -0.2961 0.27443 0.0078089 0.034242 7.3009e-05 0.0021265
0.0041792 0.00039167 0.0040031 -0.00023315
-0.0034031 -0.0099423 0.0080197 0.034133 0.014659 0.31152 -0.00043218 -0.00050508
0.0024569 -0.0016447 0.0018786 0.0040058
-0.0018642 0.00088198 0.00019891 0.0021063 -0.00041579 -0.00045521 -0.13601 0.24085
-0.018475 0.017522 -0.0061563 -0.0096923
0.0039165 0.0052205 0.0039768 -2.3776e-06 0.0024862 -0.00162 -0.018392 0.017618
-0.1821 0.12537 -0.026554 0.015717
-0.003479 -0.0031135 0.0041482 6.1383e-05 0.0018762 0.0039234 -0.0062381 -0.0096417
-0.026481 0.015817 -0.19779 0.17742
920000000 -0.10815 0.259 0.0046976 0.039524 -0.009326 -0.0042759 -0.0018792 0.0018155
-2.2728e-05 0.0016593 0.0032598 -0.001199
0.0046375 0.039491 -0.26983 0.29649 0.028235 0.022552 0.0014241 0.0011043
0.0071918 2.468e-05 0.004046 -0.0028183
-0.0093106 -0.0042168 0.028346 0.022589 0.060858 0.31308 0.0016245 -6.7549e-05
0.00060591 -0.00027956 0.00094371 -0.0014074
-0.0018481 0.0017575 0.0014733 0.0011428 0.001624 -6.8919e-05 -0.11237 0.25766
-0.01262 0.031252 0.0040716 -0.0070036
-6.7845e-05 0.0016806 0.0071413 0.00014023 0.00058283 -0.00029547 -0.012556 0.031295
-0.17506 0.1276 -0.0034363 0.029376
0.0031036 -0.0015318 0.0043099 -0.0029929 0.00094674 -0.0014266 0.0040172 -0.0070148
-0.0032934 0.029426 -0.20896 0.18997
980000000 -0.061364 0.28156 0.016995 0.030714 -0.0091873 0.0047749 0.0019885 0.0035323
0.0036664 -0.0015249 -0.0037202 -0.0027115
0.016983 0.030692 -0.21822 0.33439 0.033217 0.004813 0.0019145 -0.00023501
0.0017937 -0.0062121 -0.00071284 -0.0025627
-0.0092322 0.0048125 0.033192 0.0047161 0.10781 0.30841 0.00041386 -0.0012008
0.00025144 -0.0016263 0.0014209 -0.00036081
0.0019556 0.0034906 0.0019095 -0.00024163 0.00042482 -0.0011522 -0.073802 0.2701
0.0070614 0.030972 -0.0093881 -0.0078578
0.0036427 -0.0016087 0.00164 -0.0062445 0.00020169 -0.0017459 0.0070878 0.030948
-0.14677 0.16654 0.004933 0.021125
-0.0035356 -0.002648 -0.0007994 -0.0023268 0.001403 -0.00050489 -0.0094221 -0.0078773
0.0048513 0.021211 -0.16644 0.23955
1040000000 -0.01983 0.29036 0.033363 0.019472 -0.00091078 0.007515 0.0023437 0.00063594
0.00026697 -0.0036179 -4.7865e-05 -0.0013935
0.033329 0.019528 -0.18224 0.34801 0.029414 -0.014773 0.0013765 -0.0018781
-0.0023228 -0.0025345 -0.0010036 -0.0030463
-0.00092455 0.0075584 0.029411 -0.014939 0.15502 0.29453 -0.00065319 -0.0014014
-0.0015279 -0.00097913 -0.00059645 -0.0010313
0.0023574 0.00055006 0.0013544 -0.0019624 -0.0005916 -0.0014016 -0.046008 0.27923
0.019046 0.019682 -0.0024223 0.0011229
0.00040279 -0.003619 -0.002357 -0.0025191 -0.0013635 -0.00084857 0.019098 0.01967
-0.11298 0.17458 0.013413 0.020448
-0.00018313 -0.0014113 -0.0010803 -0.0029443 -0.00072514 -0.0010548 -0.0024119 0.0010886
0.013487 0.020477 -0.14539 0.25968
1100000000 0.024398 0.3009 0.03674 -0.0033354 0.0034989 0.0040572 0.0024352 -0.0010282
-0.0023611 -0.0029463 -0.0043005 -0.0001709
0.036736 -0.0032968 -0.13978 0.36843 0.014928 -0.027861 -0.00013614 -0.0018139
-0.0034733 -0.00071121 -0.0036969 -0.00065366
0.0034945 0.0040643 0.01482 -0.027879 0.20105 0.27507 -0.0017394 0.00036013
-0.0017312 0.00074998 -0.0010695 -0.00066408
0.0022975 -0.0010205 -0.00017627 -0.0017826 -0.0018177 0.00030504 -0.0060341 0.28471
0.025358 0.0066292 -0.0025822 -2.0183e-05
-0.0023888 -0.0030827 -0.0034851 -0.00068103 -0.0017331 0.00073354 0.02541 0.0066013
-0.097167 0.19383 0.020169 0.010292
-0.0042254 -0.00026663 -0.00375 -0.00056082 -0.00093347 -0.0005186 -0.0026201 -6.6399e-06
0.020185 0.010251 -0.10141 0.2929
1160000000 0.076631 0.29766 0.025023 -0.020499 0.0032926 -0.00071089 -0.0001014 -0.0024086
-0.00413 -0.00087543 -0.0011782 0.0042468
0.025054 -0.020458 -0.093982 0.3737 -0.0041279 -0.028587 -0.0016011 -0.001382
-0.0028318 0.0024504 -0.001683 0.0020367
0.0032772 -0.00075331 -0.0042549 -0.028708 0.24573 0.24442 -0.00056752 0.0016537
-0.00038288 0.0018125 -0.00084895 0.00030139
-8.7934e-05 -0.002446 -0.0016132 -0.0013653 -0.00057083 0.0017027 0.03444 0.28169
0.02265 -0.009955 -0.0038609 0.0050665
-0.0040435 -0.00085059 -0.0028432 0.0025886 -0.00044514 0.0017073 0.022674 -0.010003
-0.060672 0.2057 0.020011 0.00070236
-0.0012198 0.0044158 -0.0017948 0.0020457 -0.00086473 0.00030016 -0.0038539 0.0050846
0.020004 0.00073091 -0.053161 0.2971
1220000000 0.11992 0.28782 0.01174 -0.030247 -0.0011015 -0.0013776 -5.5784e-07 -0.0010512
-0.0027538 0.0023383 0.0011254 0.0020959
0.011752 -0.030225 -0.050295 0.38759 -0.017051 -0.020651 -0.0024565 0.00055327
-1.2149e-05 0.0030888 -0.00073905 0.0019726
-0.0011184 -0.0013832 -0.017155 -0.020645 0.28454 0.20485 0.00091671 0.0014599
0.0005431 0.0011035 0.0001095 0.00061857
-6.9621e-05 -0.0010002 -0.002487 0.00056067 0.00091301 0.001429 0.073788 0.27251
0.011581 -0.017247 0.0021755 0.0016759
-0.0027713 0.0023776 1.3445e-06 0.0030257 0.00055936 0.0011415 0.011579 -0.017248
-0.039775 0.21721 0.015331 -0.01269
0.00116 0.0020369 -0.00070083 0.001873 0.00011064 0.00057646 0.0021636 0.0016677
0.015399 -0.01268 -0.023163 0.31447
1280000000 0.17079 0.26899 -0.00732 -0.029281 -0.0018055 0.001725 -0.00094197 -0.0019407
-0.001066 0.0033551 0.0026173 0.0013259
-0.0072919 -0.029242 -0.0030802 0.37994 -0.023841 -0.0075846 -0.00074809 0.0013662
0.0016398 0.0017486 0.00059786 0.0020467
-0.0018025 0.0016342 -0.023871 -0.0074755 0.3154 0.16182 0.0013796 -0.00017811
0.0010874 0.00039025 0.0002353 0.00039876
-0.00093643 -0.00193 -0.00072894 0.0013819 0.0013751 -0.00022141 0.11057 0.25661
0.0018245 -0.019838 -0.00023213 7.6365e-05
-0.0010538 0.003388 0.001794 0.0017921 0.0010911 0.00040735 0.001797 -0.019856
-0.0025286 0.22491 0.0041004 -0.015621
0.0025434 0.001324 0.00059368 0.0021011 0.00017761 0.00051318 -0.00024228 8.0675e-05
0.0040934 -0.015589 0.025022 0.3188
1340000000 0.20869 0.23564 -0.017196 -0.019771 0.0004284 0.0040865 -0.0018596 -0.00074393
0.0016161 0.0029752 0.0017695 -0.0014015
-0.017151 -0.019746 0.037005 0.3719 -0.020623 0.0050131 -0.00016397 0.00189
0.0019316 0.00083167 0.0012274 0.00087959
0.00046235 0.0041573 -0.020595 0.0050967 0.33823 0.1131 0.00081403 -0.00093955
0.00069018 -0.00053544 0.00014425 0.0002282
-0.0018562 -0.00073204 -0.00014227 0.0019114 0.00083488 -0.00088008 0.14349 0.23556
-0.0081673 -0.01741 0.00098781 0.0006099
0.00167 0.0028985 0.0018974 0.00085572 0.00063004 -0.00056544 -0.0082108 -0.017414
0.027585 0.22265 -0.0031584 -0.014487
0.0018117 -0.0014416 0.0012286 0.00077943 0.00016345 0.00024675 0.00096091 0.00060846
-0.0032173 -0.014534 0.063755 0.31488
1400000000 0.24254 0.19907 -0.023712 -0.0083801 0.0046854 0.0030306 -0.0021081 0.00079961
0.0026161 0.00097313 0.00038603 -0.0013706
-0.023673 -0.0083849 0.074432 0.35981 -0.013706 0.012617 0.0012617 0.0012588
0.0011253 -0.00059914 0.0011763 0.00019122
0.0047384 0.0029147 -0.013671 0.012668 0.35108 0.059338 -6.8539e-05 -0.0013092
0.00017886 -0.00015197 0.00040454 0.0002659
-0.0020636 0.00081402 0.0012762 0.0012523 -7.53e-05 -0.0013473 0.17234 0.20692
-0.014766 -0.010326 -0.00084406 -0.00024674
0.0026962 0.00097666 0.0011635 -0.00060006 0.00019985 -0.00010369 -0.014804 -0.010303
0.060631 0.22205 -0.0097621 -0.0093612
0.00036255 -0.0013476 0.0011575 0.00022358 0.00039934 0.00023692 -0.00082909 -0.00026129
-0.0097339 -0.0093651 0.10831 0.30617
1460000000 0.26684 0.15576 -0.020802 0.0043555 0.0050898 -0.0017596 -0.0015308 0.0016813
0.0022144 -0.00042282 -0.00022721 -0.00077751
-0.020773 0.0043289 0.10975 0.33798 -0.0047019 0.014886 0.0015861 0.00027255
0.0011406 -0.0012863 0.001222 -0.00059913
0.005048 -0.0017689 -0.0046841 0.014934 0.35779 0.0046246 -0.0011119 -0.0010895
0.00029546 -0.00032373 0.00066992 -0.00034733
-0.0014854 0.0017049 0.0015787 0.00022381 -0.0011223 -0.0010778 0.19953 0.17824
-0.015774 -0.003387 -0.0008676 0.0020527
0.0022345 -0.00046286 0.0011217 -0.0012692 0.0002853 -0.00035441 -0.015792 -0.0033529
0.091084 0.2108 -0.012042 -0.0031515
-0.00024276 -0.00085494 0.0012136 -0.00058691 0.00066609 -0.00033922 -0.00084722 0.0020427
-0.012056 -0.0031679 0.14286 0.28617
1520000000 0.27939 0.11389 -0.015317 0.0099929 0.0030115 -0.0038424 0.00021841 0.0025865
0.0024579 -0.0019567 -0.0011198 -0.00014125
-0.015345 0.0099794 0.14331 0.32361 0.0024786 0.011885 0.0016575 -0.00067123
0.00018793 -0.0010257 0.00032409 -0.00094248
0.0029713 -0.0038089 0.002524 0.011892 0.34973 -0.053314 -0.00078605 -0.00031534
0.00074331 -0.0010165 0.00013061 -8.5647e-05
0.00021697 0.0025965 0.0016462 -0.0006938 -0.00078764 -0.00032443 0.22256 0.13955
-0.015346 0.0024766 0.001469 0.0020248
0.0024343 -0.0019359 0.00017863 -0.0010688 0.00067497 -0.001043 -0.015345 0.0025196
0.11882 0.20014 -0.011974 0.0014982
-0.0011319 -0.00017488 0.00037496 -0.00096987 7.7628e-05 -7.741e-05 0.0014739 0.0020358
-0.011986 0.0014889 0.17612 0.26702
1580000000 0.28953 0.069243 -0.0087022 0.013599 -0.0011946 -0.0045386 0.0014708 0.0017654
-0.00016959 -0.0023785 -0.00013024 0.00044417
-0.0087133 0.013587 0.1708 0.29968 0.0053826 0.0066445 0.00060327 -0.0015105
-0.0004352 -0.0011491 -0.00019172 -0.0007055
-0.0011864 -0.0045569 0.0054574 0.0066313 0.32838 -0.10956 -0.0014305 0.00028826
-0.0005193 -0.0013421 0.00025276 -0.00058005
0.0015037 0.0017572 0.00061318 -0.0015055 -0.0014288 0.00030124 0.23655 0.10094
-0.011746 0.0077467 0.0021771 0.00071412
-0.00018869 -0.0023832 -0.00047249 -0.0011369 -0.00042679 -0.0013488 -0.011728 0.0077746
0.14426 0.18597 -0.009373 0.0079058
-0.00017876 0.00040208 -0.00023146 -0.00071059 0.0002701 -0.00055145 0.0022086 0.00068474
-0.0093501 0.0078819 0.20969 0.24226
1640000000 0.29288 0.027664 -0.001649 0.012516 -0.0026766 -0.0019964 0.0027671 0.0010635
-0.00062077 -0.0017517 -0.00031523 0.00034248
-0.0016354 0.012506 0.20132 0.27481 0.0053082 0.0020398 -0.00049427 -0.0018323
-0.00097545 -0.00056246 -0.00046474 -0.00062532
-0.0026959 -0.0019827 0.0053204 0.0020417 0.29902 -0.1593 -0.00072002 0.0012579
-0.0011364 -0.0010085 -0.00013162 -0.00036172
0.0027428 0.0010784 -0.00051378 -0.0018214 -0.00074201 0.001246 0.24969 0.051294
-0.0073096 0.0088708 0.0025818 -0.00065484
-0.00063676 -0.0017536 -0.00098794 -0.00057041 -0.0011552 -0.00099351 -0.0072853 0.0089053
0.16858 0.16509 -0.004268 0.0097744
-0.00030338 0.00035085 -0.00046064 -0.00060887 -0.00010199 -0.00038489 0.0025728 -0.00065883
-0.0042814 0.009769 0.23602 0.21169
1700000000 0.28574 -0.016723 0.001923 0.0096977 -0.0031478 0.00034568 0.0030812 -0.0013212
-0.0022777 -0.00066546 0.00051052 0.00046869
0.0019088 0.0096544 0.21905 0.24398 0.0027004 -0.00040212 -0.001408 -0.00070747
-0.00081545 -0.0001483 -0.00079418 -0.00044046
-0.0031226 0.00033416 0.0026852 -0.0004642 0.25441 -0.19687 0.00014478 0.0015915
-0.0021094 -0.00025566 -0.00026987 -0.0008968
0.0030918 -0.0013254 -0.0014098 -0.00069501 0.00013661 0.0016213 0.24602 0.0014609
-0.0045407 0.009591 0.0017185 -0.0021039
-0.0022925 -0.00064435 -0.00080526 -0.00012011 -0.0020562 -0.00025824 -0.0045289 0.0096051
0.18714 0.14863 0.00062091 0.0098452
0.00047509 0.00046475 -0.00083472 -0.00042767 -0.00032999 -0.00088137 0.0017578 -0.0020756
0.00061391 0.0098612 0.25339 0.17824
1760000000 0.27568 -0.065049 0.0042884 0.0064353 -0.0020044 0.0012411 0.0012954 -0.0034349
-0.0012692 0.00062697 8.9364e-05 -0.00055149
0.0042816 0.0064245 0.24631 0.20477 9.9281e-05 -0.0017601 -0.0012982 3.5546e-05
-0.0011471 0.0009679 -0.00049431 0.00032973
-0.0020797 0.0012596 5.1414e-05 -0.0017681 0.20657 -0.22882 0.0011279 0.0014015
-0.0010295 0.0015558 -0.0013042 -0.0006671
0.0013195 -0.0034066 -0.0013042 3.2349e-05 0.0011128 0.0014056 0.23809 -0.049958
-0.0010331 0.008834 -0.00011199 -0.0024119
-0.0012534 0.00073026 -0.0011647 0.00095833 -0.0010676 0.0015514 -0.0010077 0.0088589
0.2044 0.11762 0.0047698 0.0072788
6.6495e-05 -0.00049917 -0.00045456 0.00030952 -0.0012147 -0.00072827 -0.00015703 -0.0024175
0.0047817 0.0072407 0.26752 0.14142
1820000000 0.25202 -0.10315 0.0045765 0.0028382 0.00024178 0.0024132 -0.00090811 -0.003095
-0.0011802 0.00092196 -7.0375e-05 2.7413e-06
0.0045582 0.0029008 0.25652 0.17461 -0.0021952 0.00011116 -0.0014752 0.00096174
-3.4231e-05 0.0011998 -0.00067234 0.00042578
0.00015501 0.0023457 -0.0021976 0.00013608 0.1558 -0.24441 0.0017515 0.00054958
-0.00019066 0.0022681 -0.001746 0.0002406
-0.00096635 -0.0030971 -0.0014769 0.00095839 0.0017898 0.00055723 0.2073 -0.098227
0.00048106 0.0073871 -0.0015658 -0.0017868
-0.0011478 0.00090117 -1.1501e-05 0.0012274 -0.00017205 0.0022708 0.0004983 0.0073923
0.22457 0.091246 0.0055923 0.0032307
-4.1189e-05 3.1044e-06 -0.00068938 0.00038374 -0.0017723 0.00028492 -0.0015271 -0.0017875
0.0056035 0.0032421 0.27103 0.10572
1880000000 0.21705 -0.1433 0.0023903 0.00055679 9.4867e-06 0.0022728 -0.0028643 -0.0023556
-9.5737e-05 0.0017353 0.00037138 -0.00048508
0.0023457 0.00058124 0.26133 0.12902 -0.0039011 0.0030084 -0.00027527 0.0018409
0.00055318 0.0013739 7.2714e-05 0.0009379
3.0644e-05 0.0022983 -0.0039022 0.0030539 0.10375 -0.25105 0.0019363 -0.0011188
0.0016796 0.0020513 -0.00099297 0.0015076
-0.0029223 -0.0022972 -0.00028939 0.0018523 0.0019225 -0.0012256 0.16658 -0.13782
0.0015528 0.0054149 -0.0022744 0.00029341
-0.00011615 0.0017033 0.00054345 0.0013361 0.001701 0.0019945 0.0015702 0.0054273
0.23159 0.063704 0.0059606 0.0010989
0.00039287 -0.0004515 0.00015534 0.00094756 -0.0010556 0.0014269 -0.0022677 0.00027379
0.0059385 0.0011087 0.27227 0.072478
1940000000 0.17897 -0.17036 0.00021512 -0.0011212 0.0019971 0.0019023 -0.003889 0.00023259
0.0011199 0.00081698 -0.00056836 -0.0006778
0.00029976 -0.0011077 0.26352 0.097068 -0.0018803 0.0059282 0.0011288 0.0014364
0.0019428 0.00042489 0.00085971 0.00037415
0.0019875 0.0018844 -0.0018019 0.0058733 0.060343 -0.24336 0.00060037 -0.0023404
0.0022827 0.00030321 0.00013553 0.0018728
-0.0039484 0.00027597 0.0011266 0.001418 0.00059877 -0.0022522 0.11445 -0.16968
0.0010344 0.0037657 -0.0014538 0.0014511
0.0011049 0.00080443 0.0019843 0.00042621 0.0022682 0.00040219 0.0010544 0.003773
0.23926 0.027538 0.004395 -0.0029329
-0.0005341 -0.00077559 0.00086453 0.00034747 0.00021595 0.0019229 -0.0014309 0.0014583
0.0043997 -0.0029649 0.26349 0.036204
2000000000 0.13217 -0.1849 -0.0034356 0.00088296 0.0028618 0.0010618 -0.0023717 0.0037375
0.00083275 0.00041084 -0.00093652 0.00037355
-0.0034527 0.0008594 0.24955 0.061755 -0.00041957 0.0078081 0.0017218 0.00029997
0.0011794 -0.0012984 0.00042593 8.5933e-05
0.0029293 0.0011262 -0.00037846 0.0078131 0.018448 -0.22879 -0.0015408 -0.0014695
0.0020033 -0.0010202 0.0018014 0.0013865
-0.002434 0.0037726 0.0017229 0.00029475 -0.0014742 -0.0015063 0.059966 -0.17922
-0.0006542 0.0032593 -0.00028888 0.0022548
0.00074766 0.00033538 0.0011764 -0.0013372 0.0020299 -0.0010036 -0.00065554 0.0032328
