!Keysight Technologies,M9804A,MY58100912,A.14.10.03
!Date: Thursday, April 27, 2023 10:28:33
!Correction: S11(C  6-Port  ) 
!S12(C  6-Port  ) 
!S13(C  6-Port  ) 
!S14(C  6-Port  ) 
!S15(C  6-Port  ) 
!S16(C  6-Port  ) 
!S21(C  6-Port  ) 
!S22(C  6-Port  ) 
!S23(C  6-Port  ) 
!S24(C  6-Port  ) 
!S25(C  6-Port  ) 
!S26(C  6-Port  ) 
!S31(C  6-Port  ) 
!S32(C  6-Port  ) 
!S33(C  6-Port  ) 
!S34(C  6-Port  ) 
!S35(C  6-Port  ) 
!S36(C  6-Port  ) 
!S41(C  6-Port  ) 
!S42(C  6-Port  ) 
!S43(C  6-Port  ) 
!S44(C  6-Port  ) 
!S45(C  6-Port  ) 
!S46(C  6-Port  ) 
!S51(C  6-Port  ) 
!S52(C  6-Port  ) 
!S53(C  6-Port  ) 
!S54(C  6-Port  ) 
!S55(C  6-Port  ) 
!S56(C  6-Port  ) 
!S61(C  6-Port  ) 
!S62(C  6-Port  ) 
!S63(C  6-Port  ) 
!S64(C  6-Port  ) 
!S65(C  6-Port  ) 
!S66(C  6-Port  ) 
!S6P File: Measurement: :
# Hz S  RI   R 50
500000000 -0.3271 -0.063412 -0.0098506 -0.00091105 -0.00812 0.011664 -0.003913 0.01218
0.013266 0.0061425 -0.0043949 0.0082625
-0.0096363 -0.0010774 -0.40819 -0.074778 0.0083134 -0.011062 0.0011559 0.011207
0.0088453 0.0034496 0.0010465 0.012649
-0.0080915 0.011678 0.0083338 -0.011133 -0.25601 0.19078 0.0064816 0.0028948
-0.0016474 0.0082348 0.00034497 0.012123
-0.0036273 0.011513 0.00050559 0.011306 0.0062168 0.0029664 -0.32648 0.041186
-0.019154 -0.0051382 0.016326 0.026327
0.013293 0.0060836 0.0092353 0.0030874 -0.001619 0.008204 -0.019107 -0.0047643
-0.21709 -0.23802 -0.028083 0.0039065
-0.0044442 0.0079091 0.00071467 0.012806 0.00016094 0.01204 0.015762 0.026219
-0.028003 0.0037511 -0.2596 -0.14666
560000000 -0.31606 0.10382 -0.021237 -0.067329 5.2001e-05 0.013189 0.0058885 0.010894
0.012453 0.004902 0.010703 0.0099477
-0.021364 -0.067289 -0.36988 0.089581 -0.041252 -0.039467 0.014024 0.0034707
-0.013771 -0.0048267 0.0044235 -0.001449
-5.5009e-05 0.013337 -0.041203 -0.039284 -0.18165 0.24032 -0.00047062 -0.0050397
0.017999 0.0068085 0.0075432 -0.0057662
0.0056857 0.011009 0.014131 0.0032191 -0.00054738 -0.0050515 -0.30357 0.13136
0.0068535 -0.022323 0.0056283 -0.020593
0.012234 0.0053729 -0.013496 -0.0051997 0.017703 0.0069146 0.0068824 -0.022383
-0.29942 -0.05404 0.011696 -0.050555
0.011333 0.009948 0.0044781 -0.0011017 0.0076025 -0.006148 0.0055799 -0.020876
0.011467 -0.05077 -0.32836 0.0056457
620000000 -0.27486 0.081048 -0.023464 0.0087989 0.0030748 0.0088584 0.0080157 -0.0050984
0.012459 -0.00047105 -0.00011899 -0.0033178
-0.023433 0.0088668 -0.39914 0.035783 -0.019187 -0.00013453 -0.0016 -0.0019897
0.012379 -0.0056675 0.00040805 -0.0030681
0.003036 0.0090667 -0.019256 -0.00013278 -0.15514 0.2493 -0.0009977 -0.0055092
-0.0040548 -0.0023367 0.0087613 -0.0037939
0.0076182 -0.0047193 -0.0017586 -0.001959 -0.0012368 -0.0054696 -0.26188 0.13962
-0.039342 -0.019622 0.012086 0.026397
0.012445 -0.00025645 0.012216 -0.0057245 -0.0041136 -0.0022831 -0.039237 -0.019485
-0.21439 -0.093773 -0.04483 0.013217
-0.00042909 -0.0024589 0.00069725 -0.0028849 0.0086018 -0.0037627 0.012403 0.026196
-0.044659 0.012954 -0.24534 -0.035077
680000000 -0.24099 0.17425 -0.026326 -0.014929 0.0043319 0.0057447 0.0012813 -0.0075454
-0.0017498 -0.011694 0.0060112 -0.0068369
-0.026142 -0.014995 -0.39018 0.13708 -0.032718 -0.0021442 -0.0019813 -4.0117e-05
-0.0013903 -0.0091529 -0.00069836 -0.001865
0.0044985 0.0055518 -0.032763 -0.0020465 -0.10802 0.27273 -0.001086 0.00036319
-0.0013286 0.0013134 -0.0028834 -0.0088226
0.0012067 -0.0073238 -0.0018087 -8.7672e-05 -0.00093004 0.00026654 -0.219 0.19254
-0.023038 -0.0076535 -0.0082955 -0.011567
-0.0012962 -0.01153 -0.0013078 -0.0092089 -0.001333 0.0013111 -0.023271 -0.0076116
-0.28276 0.0095234 -0.0056342 -0.0071225
0.0061629 -0.0071865 -0.0006885 -0.0016191 -0.0028979 -0.0087293 -0.0084525 -0.011352
-0.0056109 -0.0070585 -0.26043 0.071945
740000000 -0.19543 0.16684 -0.040827 0.026319 0.013324 -0.0035134 0.00018186 -0.0040715
-0.0037603 -0.0022346 -0.0069922 0.0029313
-0.040842 0.026497 -0.33734 0.15741 -0.037505 0.034165 -9.4788e-05 -0.0056525
-0.01322 0.0066831 -0.0014018 -0.0061588
0.013337 -0.0035506 -0.03727 0.034293 -0.075227 0.27353 -0.0019092 0.0032017
-0.00092791 -0.0053339 -0.0017681 0.00073707
0.00043058 -0.0036639 -4.5765e-06 -0.0056414 -0.0019991 0.0033432 -0.2024 0.19975
-0.043398 -0.0093707 0.022441 0.016079
-0.0034384 -0.0020749 -0.013006 0.006777 -0.0010136 -0.005282 -0.04341 -0.0094161
-0.17956 0.044943 -0.045472 -0.0012275
-0.006549 0.0036462 -0.0016632 -0.005535 -0.0019452 0.00071174 0.02229 0.016039
-0.045527 -0.0011232 -0.2516 0.07626
800000000 -0.16636 0.21319 -0.022517 0.016062 0.0057308 -0.010214 -0.0044562 -0.002611
-0.0039806 0.0021312 0.0045925 8.6906e-05
-0.022653 0.01604 -0.34497 0.22824 -0.0088144 0.034523 -0.002131 0.0021409
-0.00021778 0.0023925 0.0009422 0.0053878
0.0055059 -0.010361 -0.0087246 0.034566 -0.036363 0.2999 0.0013397 0.0012547
-6.9461e-05 0.0032953 -0.0014702 0.00074023
-0.0045316 -0.0026265 -0.0020619 0.0021893 0.0012998 0.0012099 -0.17368 0.22743
-0.029391 0.013072 0.015885 -0.010344
-0.0041462 0.0018744 -0.00019748 0.0023384 -5.5058e-05 0.0032544 -0.029213 0.013118
-0.2337 0.066812 -0.019804 0.021104
0.0041441 -0.00028436 0.0009682 0.0054032 -0.0014814 0.00076662 0.015955 -0.010255
-0.019877 0.021046 -0.24662 0.12893
860000000 -0.13303 0.23439 -0.01857 0.030745 -0.0032783 -0.0099199 -0.0020214 0.00077755
0.0041749 0.0049572 -0.0039837 -0.0030392
-0.018485 0.030598 -0.29825 0.27316 0.0074782 0.034561 6.7553e-05 0.0022417
0.0038545 0.00033375 0.0036742 0.00019474
-0.0031793 -0.0099356 0.0076302 0.03461 0.012001 0.31018 -0.00053166 -0.00039649
0.002345 -0.0018158 0.0016113 0.0041943
-0.0020546 0.00085861 0.00013014 0.0022593 -0.00052463 -0.00039714 -0.13782 0.23993
-0.018857 0.017929 -0.006776 -0.0099514
0.0041035 0.0051543 0.0039535 0.0003497 0.0023605 -0.0017666 -0.019013 0.018042
-0.17891 0.12971 -0.027338 0.015404
-0.0037421 -0.0030949 0.003708 0.00010889 0.0015302 0.0041224 -0.0070131 -0.01023
-0.027319 0.015243 -0.1973 0.17815
920000000 -0.10957 0.25814 0.0041812 0.039646 -0.0094133 -0.00437 -0.001796 0.0017834
0.00030075 0.0014241 0.0026917 -0.0012866
0.0042036 0.039595 -0.27166 0.29526 0.027983 0.023103 0.0012264 0.0011074
0.0070939 -0.00036138 0.0036204 -0.0028139
-0.0094328 -0.0043096 0.028098 0.023039 0.058491 0.31219 0.0017196 -0.00011539
0.00048216 -0.00033326 0.0009107 -0.0013775
-0.001966 0.0016581 0.0011565 0.0011461 0.0017174 -0.00010222 -0.11391 0.25701
-0.012974 0.030412 0.0043458 -0.0062894
0.00042464 0.0013984 0.0072144 -0.0003212 0.00052134 -0.00033171 -0.012946 0.030437
-0.17203 0.13356 -0.0036618 0.028603
0.0025978 -0.0012776 0.0035117 -0.0027571 0.0009171 -0.0014011 0.0044968 -0.0063846
-0.0037915 0.02857 -0.20879 0.19026
980000000 -0.063752 0.28022 0.016379 0.030863 -0.009261 0.0046836 0.0019625 0.0036224
0.0038034 -0.001229 -0.0034145 -0.0025354
0.016376 0.030826 -0.21968 0.33261 0.03315 0.0053788 0.001895 -0.00033173
0.0016466 -0.0059346 -0.00038005 -0.0028438
-0.0092313 0.0047208 0.033202 0.0052196 0.10504 0.30697 0.00044602 -0.0011252
0.00023334 -0.0017391 0.0014854 -0.00029803
0.0019201 0.0036356 0.0019151 -0.00026963 0.00046658 -0.0011235 -0.075778 0.26836
0.0066999 0.030542 -0.0098868 -0.0077742
0.0038694 -0.0011868 0.0016559 -0.0059183 0.00021516 -0.0017397 0.0066941 0.030568
-0.1428 0.17057 0.0051218 0.020879
-0.0034629 -0.0027469 -0.00047419 -0.0029104 0.0014859 -0.00031242 -0.010008 -0.0077739
0.0051682 0.020696 -0.16792 0.23937
1040000000 -0.022551 0.2899 0.03313 0.019974 -0.00098429 0.0075366 0.0025088 0.00058762
0.0005267 -0.0032726 -0.00016692 -0.0015133
0.033053 0.019935 -0.18471 0.34693 0.029717 -0.014278 0.0014377 -0.0017806
-0.0023753 -0.0021725 -0.0013639 -0.0029823
-0.00093495 0.0075921 0.029678 -0.014431 0.15163 0.29429 -0.00055093 -0.0013967
-0.0015321 -0.00092632 -0.00057865 -0.0011301
0.0023551 0.00047267 0.0013975 -0.0017767 -0.00055087 -0.0013843 -0.048318 0.27852
0.018506 0.019667 -0.0020585 0.0013472
0.00052548 -0.0033253 -0.002493 -0.0022143 -0.0015353 -0.00092352 0.018559 0.019647
-0.11002 0.17899 0.01328 0.020346
-0.00027359 -0.0013463 -0.0012581 -0.002956 -0.00059605 -0.001101 -0.0019826 0.0013833
0.01325 0.020515 -0.14663 0.25941
1100000000 0.02225 0.30072 0.036897 -0.0026315 0.0035547 0.0041134 0.0025118 -0.0010005
-0.0023984 -0.0030696 -0.0040076 -6.0421e-05
0.036879 -0.0025555 -0.14107 0.36719 0.015406 -0.027553 -0.00011844 -0.0017401
-0.0033863 -0.00079148 -0.0035999 -0.00071535
0.003553 0.0041366 0.015312 -0.027676 0.19815 0.27502 -0.0016847 0.00030288
-0.001699 0.00065268 -0.0011451 -0.0005541
0.0025582 -0.0010326 -9.7512e-05 -0.0017832 -0.001699 0.00031349 -0.0078538 0.28378
0.024652 0.0067138 -0.0025229 0.00030526
-0.0024087 -0.003079 -0.003378 -0.00087327 -0.0017029 0.0006339 0.024701 0.006739
-0.092843 0.1961 0.01955 0.010086
-0.0039787 -0.00022238 -0.0036324 -0.00068859 -0.0011323 -0.00055028 -0.0025275 0.0002201
0.019501 0.010102 -0.10139 0.29287
1160000000 0.073586 0.2975 0.025245 -0.019944 0.0035582 -0.00075023 -0.00024185 -0.002512
-0.0040571 -0.0010977 -0.0011467 0.0042715
0.025216 -0.019903 -0.097064 0.3722 -0.0033813 -0.028624 -0.0015528 -0.0015124
-0.0025548 0.0024065 -0.0014178 0.0021082
0.0035552 -0.00078767 -0.0035309 -0.028661 0.24173 0.24507 -0.00064696 0.0016847
-0.00048119 0.0017441 -0.00099319 0.0002589
-0.0002629 -0.0026005 -0.0015601 -0.0015428 -0.000641 0.0016848 0.031621 0.28093
0.021961 -0.0097131 -0.0035047 0.0052575
-0.0040581 -0.0010142 -0.0024617 0.0024063 -0.00046609 0.001751 0.02202 -0.0097372
-0.057364 0.20743 0.019619 0.0014708
-0.0010654 0.0043102 -0.0014455 0.0020885 -0.0010278 0.00029527 -0.0034826 0.0053389
0.019592 0.0013955 -0.054515 0.29567
1220000000 0.11742 0.28886 0.012289 -0.030058 -0.0011395 -0.0016292 -3.0576e-06 -0.00098387
-0.0029118 0.0022782 0.0012375 0.0019332
0.012317 -0.030081 -0.052708 0.38666 -0.016637 -0.021025 -0.0024573 0.0005413
2.0915e-06 0.0029774 -0.00079144 0.0018517
-0.0011309 -0.0016053 -0.016761 -0.021003 0.28132 0.20696 0.00086509 0.0014336
0.0005701 0.0011319 0.00017048 0.00055334
2.7744e-05 -0.00098706 -0.0024393 0.0005542 0.00087406 0.0014373 0.071122 0.27271
0.011371 -0.016443 0.0022166 0.0015877
-0.0028076 0.0023194 3.8515e-05 0.003016 0.00056209 0.0011467 0.011367 -0.016448
-0.035864 0.21945 0.01538 -0.012253
0.0011595 0.0018421 -0.00081271 0.0018064 0.0001597 0.00053629 0.0021489 0.0015624
0.015436 -0.012292 -0.023923 0.31447
1280000000 0.16806 0.26932 -0.0067605 -0.029322 -0.001994 0.0016752 -0.0010206 -0.002002
-0.0009451 0.0032045 0.0026801 0.0013147
-0.0067058 -0.029264 -0.0059642 0.37876 -0.023557 -0.0081274 -0.00078909 0.0013634
0.0015939 0.00179 0.00064946 0.0020516
-0.0019622 0.0016622 -0.023632 -0.0080136 0.31297 0.16368 0.0013401 -0.00014066
0.00099204 0.00032355 0.00033706 0.00037629
-0.0010369 -0.0019797 -0.00083406 0.0013782 0.001359 -0.00013055 0.10774 0.25667
0.0019858 -0.019254 -1.4014e-05 0.00012248
-0.00094197 0.0032686 0.001606 0.001789 0.00097782 0.00033995 0.0019647 -0.019281
0.0016193 0.22557 0.0040511 -0.015228
0.0025714 0.001329 0.00064997 0.0020367 0.0003117 0.00039307 4.0259e-05 0.00012038
0.0040402 -0.0153 0.023779 0.31859
1340000000 0.20579 0.23722 -0.016755 -0.020152 0.00022179 0.0040895 -0.0017367 -0.00076228
0.0014612 0.0029419 0.0015924 -0.0013458
-0.016747 -0.020148 0.03318 0.37178 -0.020798 0.0044182 -0.0001726 0.0018996
0.0018014 0.00088848 0.0011178 0.00074743
0.00023683 0.0041165 -0.020802 0.0045369 0.33593 0.11619 0.00079461 -0.00085114
0.0004985 -0.00067048 4.4754e-05 0.00034767
-0.0017669 -0.00079231 -0.00014984 0.0018617 0.00077569 -0.00086315 0.14059 0.23684
-0.0075998 -0.016642 0.0010847 0.00036532
0.0015344 0.002836 0.0018364 0.00084345 0.00049208 -0.00066654 -0.0076515 -0.016618
0.030735 0.22362 -0.0025572 -0.01427
0.001677 -0.0014548 0.0011376 0.00071643 3.5751e-05 0.00030403 0.0010586 0.00039376
-0.0025599 -0.014231 0.061739 0.31507
1400000000 0.24034 0.20077 -0.023445 -0.0088608 0.0046448 0.003099 -0.002126 0.00080996
0.0025956 0.00094794 0.00033349 -0.0013351
-0.023408 -0.008857 0.071647 0.35988 -0.014063 0.012274 0.0011805 0.0013079
0.0010542 -0.00059298 0.0011301 0.00025646
0.0046475 0.0030569 -0.014027 0.012368 0.34991 0.062195 -4.7759e-05 -0.0012838
0.00013999 -0.00021563 0.00047219 0.00019898
-0.0021629 0.00079238 0.0011862 0.0013398 -3.8741e-05 -0.0012805 0.17045 0.20841
-0.013836 -0.010297 -0.0008656 -0.00046617
0.0026185 0.0009614 0.0010738 -0.00056807 0.00012441 -0.00022512 -0.013841 -0.010312
0.064434 0.22265 -0.0093863 -0.0091525
0.00030655 -0.0012942 0.0011865 0.00021384 0.00049313 0.00027003 -0.00086216 -0.00049936
-0.0093748 -0.009213 0.10749 0.30612
1460000000 0.26432 0.15778 -0.020878 0.003747 0.00509 -0.0016237 -0.0015247 0.0016465
0.0020525 -0.00033204 -0.00023645 -0.00086866
-0.020862 0.0037602 0.10629 0.3385 -0.0052467 0.014766 0.0016057 0.00030489
0.0011147 -0.0012246 0.0012016 -0.00053546
0.0051026 -0.0016732 -0.0051938 0.014832 0.35647 0.0072241 -0.0010578 -0.001047
0.00036186 -0.00017448 0.00064829 -0.00024916
-0.0015208 0.0016796 0.0016079 0.00029079 -0.0010457 -0.0010457 0.19728 0.17982
-0.015044 -0.0038401 -0.0010572 0.0019325
0.0020699 -0.00036956 0.0011448 -0.0012255 0.00035675 -0.00018534 -0.015077 -0.0038129
0.093982 0.21084 -0.011531 -0.0034962
-0.00017957 -0.00093301 0.0012178 -0.00053526 0.00064554 -0.0002362 -0.0010691 0.0019217
-0.011545 -0.0034832 0.14112 0.28644
1520000000 0.27771 0.11713 -0.015618 0.0095874 0.003058 -0.0038634 8.6555e-05 0.0026554
0.0022742 -0.0018544 -0.00097477 -0.00017466
-0.015634 0.0095475 0.14039 0.3251 0.0020697 0.012067 0.0016746 -0.00065578
0.00020665 -0.0010163 0.00038184 -0.00095969
0.003058 -0.0039019 0.0021413 0.012078 0.34916 -0.049647 -0.00072541 -0.00037516
0.00069211 -0.00096844 0.00015872 -0.00011342
9.8105e-05 0.0026597 0.001671 -0.00065939 -0.00071583 -0.00037539 0.2212 0.14189
-0.015021 0.0018082 0.0012876 0.0019061
0.002297 -0.0018476 0.00019161 -0.0010485 0.00070905 -0.00097672 -0.01501 0.0018583
0.12228 0.20033 -0.011758 0.001068
-0.00098428 -0.00011031 0.00033127 -0.00097539 0.00012361 -0.00014281 0.0013214 0.0018824
-0.011762 0.0010332 0.1747 0.26795
1580000000 0.28846 0.071678 -0.0090428 0.013404 -0.0011737 -0.0044423 0.0014783 0.0018832
-0.00014998 -0.0022466 -0.0003338 0.00040915
-0.0090296 0.013386 0.16846 0.30064 0.0052435 0.007009 0.0006062 -0.0015204
-0.00045395 -0.0012198 -0.00022677 -0.00074642
-0.0011657 -0.0044438 0.0052905 0.006978 0.32858 -0.10738 -0.0014363 0.00021495
-0.00044744 -0.001327 0.00029618 -0.00054227
0.0014768 0.0018641 0.00060732 -0.0015272 -0.0014411 0.00019185 0.23578 0.10267
-0.011737 0.0070292 0.0019939 0.00082157
-0.00019881 -0.0022495 -0.00047175 -0.0011763 -0.00045504 -0.0013437 -0.011753 0.007019
0.14766 0.18564 -0.0093112 0.007146
-0.00029284 0.00033905 -0.00019437 -0.00072903 0.00029472 -0.00054973 0.0019663 0.00079663
-0.0093745 0.0071833 0.20845 0.24258
1640000000 0.29163 0.030901 -0.0021275 0.012504 -0.0027509 -0.0021279 0.0027734 0.0010856
-0.00056259 -0.0016831 -0.00050992 0.00036537
-0.0021523 0.012493 0.19839 0.27668 0.0052822 0.0023333 -0.0004683 -0.0018477
-0.0009374 -0.00058204 -0.00044733 -0.00068981
-0.0027743 -0.0021219 0.0053176 0.0022994 0.29898 -0.15591 -0.00075668 0.0012073
-0.0010173 -0.0010703 -0.00013401 -0.00042784
0.0027555 0.0010842 -0.00045817 -0.001836 -0.00075436 0.0012239 0.24886 0.053723
-0.0078593 0.0084 0.0024724 -0.00061064
-0.00060041 -0.0016719 -0.00097183 -0.00058441 -0.0010293 -0.0010586 -0.0078435 0.0084728
0.17134 0.16487 -0.0047065 0.009426
-0.00047473 0.00044065 -0.00049336 -0.00071286 -0.00012082 -0.00044919 0.0024879 -0.00059658
-0.0046981 0.0094228 0.23472 0.2127
1700000000 0.2862 -0.01383 0.0015523 0.0099975 -0.0032347 0.00040355 0.0031094 -0.0012755
-0.0021304 -0.00068294 0.00054051 0.00048734
0.0015332 0.009994 0.21739 0.24558 0.0027306 -0.00031809 -0.0014107 -0.00072869
-0.00086354 -8.0184e-05 -0.00080071 -0.0004596
-0.0032684 0.00043325 0.0027281 -0.00033394 0.25558 -0.19497 4.3617e-05 0.0016551
-0.0021373 -0.00011926 -0.00038049 -0.0008411
0.0031254 -0.0013083 -0.0014382 -0.00074932 4.3103e-05 0.0016624 0.24623 0.0033103
-0.0050925 0.0094672 0.0017255 -0.0019888
-0.0021512 -0.00070978 -0.00086023 -7.2186e-05 -0.0021442 -9.2813e-05 -0.0050775 0.0094645
0.1909 0.14809 0.00013955 0.009583
0.00053803 0.00047728 -0.00080328 -0.00045028 -0.00041168 -0.00083556 0.001709 -0.0019891
0.00013713 0.0096 0.25279 0.17933
1760000000 0.27554 -0.06264 0.0041844 0.0068327 -0.0019828 0.0012255 0.0012765 -0.0034567
-0.0012983 0.00053681 0.00023131 -0.00046393
0.004185 0.006823 0.24389 0.20626 0.00013532 -0.001641 -0.001253 2.4498e-05
-0.0011529 0.00092455 -0.00054321 0.000368
-0.0019624 0.0012405 0.00011643 -0.00164 0.20688 -0.22727 0.0011387 0.0013964
-0.0011812 0.0014144 -0.0012875 -0.00053077
0.0013293 -0.0034621 -0.0012655 2.293e-05 0.00113 0.0013859 0.23765 -0.048722
-0.001563 0.0089785 -8.6748e-05 -0.0023648
-0.0012678 0.000504 -0.0011411 0.00094429 -0.0011693 0.0014127 -0.001551 0.0089713
0.20779 0.11625 0.0040247 0.0071174
0.00025478 -0.00046166 -0.00051789 0.00036933 -0.001272 -0.00052991 -0.00011251 -0.0023374
0.0040187 0.00708 0.26619 0.14211
1820000000 0.2526 -0.10033 0.0046471 0.0031647 0.00033763 0.0022885 -0.0008921 -0.0031061
-0.001229 0.00086323 -3.3763e-06 -0.00014794
0.0046378 0.0031678 0.25502 0.17672 -0.0018995 0.00026977 -0.0014793 0.00093903
-3.6823e-05 0.0012521 -0.00064522 0.00039681
0.00036481 0.0022878 -0.0019185 0.00029799 0.15669 -0.24157 0.0018802 0.00064045
-0.00023573 0.0023864 -0.0017177 0.00027415
-0.00091705 -0.003146 -0.0014614 0.00094063 0.0018537 0.00064674 0.20779 -0.096586
0.0003245 0.0076629 -0.0015795 -0.001528
-0.0012094 0.0008627 -1.6962e-05 0.001284 -0.00023414 0.0023901 0.00037872 0.0076413
0.2281 0.089996 0.0051399 0.0035659
-8.0593e-05 -0.000139 -0.00063551 0.00040986 -0.0016885 0.00025908 -0.0015478 -0.0014903
0.0051603 0.0035814 0.27036 0.10718
1880000000 0.21837 -0.14143 0.0025423 0.00076887 -0.00028265 0.0020881 -0.0029363 -0.0023525
-0.00018288 0.0016712 0.00033869 -0.00071713
0.002521 0.00079636 0.25984 0.13023 -0.0037281 0.002862 -0.00034147 0.0018571
0.00059208 0.0013236 9.0321e-05 0.0009347
-0.00026637 0.002108 -0.0037161 0.0028815 0.10522 -0.24954 0.0019669 -0.0011872
0.0015658 0.0018966 -0.00092102 0.0015067
-0.0029054 -0.0023616 -0.0003472 0.0018826 0.0019686 -0.0012079 0.16703 -0.13726
0.0014856 0.0055787 -0.002163 0.00013627
-0.0001952 0.0016613 0.00059808 0.0013035 0.0016 0.0019099 0.0014992 0.0055513
0.23495 0.060763 0.0054976 0.0013435
0.00031657 -0.00071994 7.46e-05 0.00093173 -0.00092247 0.001527 -0.0022514 9.4523e-05
0.0054836 0.0013191 0.27169 0.073266
1940000000 0.17971 -0.16788 0.00034128 -0.001063 0.0015739 0.0016286 -0.0039206 0.00025155
0.0011436 0.0008567 -0.00067098 -0.00066467
0.00036044 -0.0010738 0.26144 0.098926 -0.0017647 0.0056519 0.0010387 0.0014862
0.0019573 0.0003899 0.00092363 0.00029447
0.0015638 0.0016262 -0.0017094 0.0056716 0.061633 -0.24141 0.00044121 -0.0023763
0.0022756 0.000392 0.00025983 0.0017099
-0.003962 0.00028325 0.0010647 0.0014498 0.00046268 -0.002356 0.11423 -0.16822
0.0010262 0.0037671 -0.0013852 0.0012815
0.0010877 0.00082837 0.0019987 0.00036364 0.0022587 0.00039774 0.001055 0.003762
0.24162 0.024118 0.0043365 -0.002471
-0.00072358 -0.00065855 0.000903 0.00029 0.00024674 0.0016839 -0.0012818 0.001381
0.0043368 -0.0024727 0.26226 0.037591
2000000000 0.13392 -0.18334 -0.0031902 0.00088516 0.0029072 0.0012717 -0.0024758 0.0037151
0.00084683 0.00053584 -0.00086645 0.00056169
-0.00318 0.00086152 0.24818 0.063534 -0.00048998 0.0076003 0.0016384 0.00042344
0.0010287 -0.0013028 0.00031543 0.00012269
0.0029156 0.0012816 -0.00048416 0.0076233 0.020216 -0.22774 -0.0015269 -0.0014726
0.0019171 -0.00097318 0.0015109 0.0015883
-0.002482 0.0037281 0.0016715 0.00040222 -0.0015378 -0.0014924 0.06028 -0.17838
-0.00085805 0.0033545 -4.1495e-06 0.002085
0.00082804 0.00051501 0.0010251 -0.0012961 0.0019111 -0.0010068 -0.00085669 0.0033593
0.23997 -0.0085705 0.0006326 -0.0035344
