!Keysight Technologies,M9804A,MY58100912,A.14.10.03
!Date: Thursday, April 27, 2023 10:28:33
!Correction: S11(C  6-Port  ) 
!S12(C  6-Port  ) 
!S13(C  6-Port  ) 
!S14(C  6-Port  ) 
!S15(C  6-Port  ) 
!S16(C  6-Port  ) 
!S21(C  6-Port  ) 
!S22(C  6-Port  ) 
!S23(C  6-Port  ) 
!S24(C  6-Port  ) 
!S25(C  6-Port  ) 
!S26(C  6-Port  ) 
!S31(C  6-Port  ) 
!S32(C  6-Port  ) 
!S33(C  6-Port  ) 
!S34(C  6-Port  ) 
!S35(C  6-Port  ) 
!S36(C  6-Port  ) 
!S41(C  6-Port  ) 
!S42(C  6-Port  ) 
!S43(C  6-Port  ) 
!S44(C  6-Port  ) 
!S45(C  6-Port  ) 
!S46(C  6-Port  ) 
!S51(C  6-Port  ) 
!S52(C  6-Port  ) 
!S53(C  6-Port  ) 
!S54(C  6-Port  ) 
!S55(C  6-Port  ) 
!S56(C  6-Port  ) 
!S61(C  6-Port  ) 
!S62(C  6-Port  ) 
!S63(C  6-Port  ) 
!S64(C  6-Port  ) 
!S65(C  6-Port  ) 
!S66(C  6-Port  ) 
!S6P File: Measurement: :
# Hz S  RI   R 50
500000000 -0.32557 -0.061728 -0.0095009 -0.0017689 -0.0083923 0.011732 -0.0045242 0.012269
0.012891 0.0057826 -0.0057804 0.0089325
-0.0096143 -0.0016214 -0.40839 -0.073211 0.0082108 -0.01113 0.0008044 0.011807
0.0087817 0.0035713 9.0617e-05 0.013933
-0.0082639 0.011732 0.008247 -0.011152 -0.25441 0.19179 0.0066742 0.0033426
-0.001724 0.0084519 0.00043984 0.012732
-0.004339 0.01237 0.00066281 0.011832 0.0067571 0.0032876 -0.32477 0.042115
-0.019743 -0.0051325 0.016084 0.026563
0.013128 0.005526 0.0091407 0.0037573 -0.001844 0.0084611 -0.020022 -0.0048177
-0.21215 -0.24213 -0.027992 0.0045806
-0.0053218 0.0091029 -7.4717e-05 0.01399 0.00057962 0.01264 0.01634 0.026541
-0.028111 0.0045445 -0.26048 -0.14391
560000000 -0.31448 0.10513 -0.021338 -0.068178 0.00076511 0.01312 0.0058173 0.011269
0.01067 0.0043515 0.011354 0.0092668
-0.021381 -0.068031 -0.36964 0.091278 -0.041312 -0.039556 0.013279 0.003721
-0.012737 -0.0060908 0.004634 -0.00087715
0.00085818 0.012958 -0.041488 -0.039746 -0.17952 0.24064 -0.00067499 -0.0057026
0.018043 0.0064703 0.0080683 -0.0059732
0.005904 0.011215 0.013049 0.0040486 -0.00062386 -0.0056972 -0.30207 0.13263
0.0067434 -0.022663 0.0058496 -0.021385
0.010741 0.0047659 -0.012585 -0.0053149 0.017866 0.0065209 0.0070894 -0.022831
-0.29793 -0.060755 0.011558 -0.052517
0.011414 0.009258 0.004273 -0.0013553 0.0080419 -0.0057423 0.006011 -0.021237
0.011818 -0.052015 -0.32658 0.0045474
620000000 -0.27417 0.083404 -0.023533 0.0087203 0.0030009 0.0092453 0.0083289 -0.0040498
0.01266 -0.0011283 0.00017979 -0.0016635
-0.023488 0.0086801 -0.39829 0.036347 -0.019498 4.8726e-05 -0.0017719 -0.0019891
0.012356 -0.005256 0.00044817 -0.0029005
0.0030395 0.0092293 -0.019597 0.0001927 -0.15444 0.24981 -0.0016119 -0.0051545
-0.0037617 -0.0026124 0.0084818 -0.0031308
0.0083441 -0.0042874 -0.0016008 -0.0018156 -0.0016404 -0.0051605 -0.26225 0.14179
-0.038467 -0.021402 0.011911 0.028688
0.01231 -0.0011327 0.012188 -0.0056224 -0.0036496 -0.0025231 -0.037616 -0.021153
-0.21346 -0.097659 -0.043478 0.011692
0.00079038 -0.0015125 0.00075904 -0.0027184 0.0084677 -0.0031865 0.011567 0.028868
-0.043431 0.011897 -0.24436 -0.032947
680000000 -0.23993 0.17487 -0.02661 -0.015309 0.0043878 0.0053779 0.0011451 -0.0072389
-0.0019535 -0.011534 0.0060544 -0.0064299
-0.026513 -0.01534 -0.38944 0.13736 -0.033113 -0.0020372 -0.0021169 -0.00051235
-0.0017422 -0.0094664 -0.00088539 -0.0019882
0.0044036 0.0053528 -0.033137 -0.0018823 -0.10787 0.27319 -0.0010486 0.00015904
-0.0016185 0.00092661 -0.0031593 -0.0091285
0.00111 -0.0071174 -0.002048 -0.00054307 -0.001087 0.00018422 -0.21809 0.19318
-0.023068 -0.0080009 -0.0094649 -0.012314
-0.0014127 -0.011328 -0.0017287 -0.0093978 -0.0016216 0.00087785 -0.023169 -0.0080947
-0.28148 0.004507 -0.0053081 -0.0071056
0.0059946 -0.0062273 -0.00087489 -0.0017834 -0.0032799 -0.0090733 -0.009784 -0.012269
-0.0055821 -0.0070942 -0.25948 0.071116
740000000 -0.19452 0.16735 -0.041394 0.026127 0.013391 -0.0037987 -9.6653e-05 -0.0038659
-0.0038272 -0.0017496 -0.0069434 0.0029129
-0.041368 0.025941 -0.33628 0.15714 -0.037436 0.034537 0.00024673 -0.0057064
-0.013408 0.0062148 -0.00090517 -0.0051486
0.0134 -0.0038097 -0.037186 0.034793 -0.074943 0.27451 -0.0018678 0.0031473
-0.0014394 -0.0054603 -0.0022107 0.0011896
-1.2796e-05 -0.0039801 0.00024273 -0.005733 -0.001867 0.0031449 -0.20135 0.20054
-0.043708 -0.010191 0.023429 0.016805
-0.003613 -0.0019135 -0.013594 0.0063874 -0.0015084 -0.0054924 -0.043737 -0.010221
-0.17906 0.042049 -0.045829 -0.0019786
-0.0068309 0.0028171 -0.00082914 -0.004912 -0.002188 0.00093838 0.023399 0.016532
-0.046003 -0.0017486 -0.24924 0.07645
800000000 -0.16633 0.21342 -0.023191 0.01617 0.005613 -0.010127 -0.0044822 -0.0021882
-0.0036446 0.0016831 0.0039936 0.00085581
-0.023191 0.016156 -0.34524 0.22853 -0.0089284 0.03483 -0.0019513 0.0024167
5.0872e-05 0.0022887 0.0006249 0.0058914
0.0055942 -0.010127 -0.0088356 0.034936 -0.036353 0.30105 0.0012236 0.0012033
0.00029356 0.0031397 -0.0018715 0.0009197
-0.0046609 -0.00218 -0.0020412 0.0024205 0.0012088 0.0012239 -0.17398 0.22824
-0.029499 0.012737 0.014728 -0.0096827
-0.0036298 0.0018245 8.1699e-05 0.0023405 0.00035798 0.003117 -0.029477 0.012897
-0.23563 0.06309 -0.018592 0.020477
0.0040417 0.00065961 0.00063239 0.0058599 -0.0019363 0.0010021 0.014744 -0.0095603
-0.018788 0.020358 -0.24917 0.12899
860000000 -0.13192 0.23484 -0.018526 0.03078 -0.0032515 -0.010039 -0.001787 0.00085162
0.0044215 0.0050106 -0.0040776 -0.0031593
-0.018535 0.030801 -0.29791 0.27364 0.0077541 0.034727 0.00030373 0.00212
0.0039461 0.0003288 0.0036905 -6.1074e-05
-0.0032617 -0.010027 0.0078785 0.034722 0.012796 0.31146 -0.00041169 -0.00048115
0.0025421 -0.0016765 0.0016514 0.0042607
-0.0018353 0.00078971 0.00035361 0.0020684 -0.00040986 -0.00049241 -0.13742 0.24059
-0.018626 0.017925 -0.0069559 -0.0095942
0.0043608 0.0049505 0.0039316 0.00021187 0.002526 -0.001653 -0.018705 0.017877
-0.1804 0.12566 -0.028014 0.016356
-0.0040866 -0.0029075 0.003766 7.8298e-05 0.0016545 0.0042356 -0.0070887 -0.0096543
-0.027775 0.016336 -0.19809 0.17449
920000000 -0.10899 0.25876 0.0043739 0.039893 -0.0092123 -0.0043067 -0.0017235 0.0020051
0.00041839 0.001283 0.0031537 -0.00088639
0.0043712 0.039907 -0.27141 0.29606 0.028333 0.023143 0.0016286 0.0011135
0.0069671 9.9024e-05 0.0042982 -0.0024283
-0.0092819 -0.0042525 0.028435 0.023099 0.059484 0.3133 0.0016761 -3.7685e-05
0.00053313 -0.00043168 0.0010848 -0.0013249
-0.0017525 0.0020117 0.001558 0.0011314 0.0016781 -2.9998e-05 -0.11408 0.25746
-0.012704 0.031445 0.0042691 -0.0065595
0.00049871 0.0013844 0.0069231 0.0001707 0.00058289 -0.00046591 -0.012604 0.031567
-0.17572 0.13036 -0.003579 0.029363
0.0029486 -0.00091402 0.0041514 -0.0026133 0.0011169 -0.0012422 0.00411 -0.0064495
-0.0037553 0.029283 -0.20833 0.18944
980000000 -0.062875 0.28122 0.016775 0.031183 -0.0093176 0.00484 0.0020497 0.0036227
0.0038986 -0.0014342 -0.0037429 -0.002707
0.01669 0.031167 -0.2196 0.33362 0.033428 0.005095 0.0018133 -0.00023613
0.0017166 -0.0059957 -0.0007106 -0.0026258
-0.0092881 0.0048568 0.033514 0.0050337 0.10636 0.30836 0.00040709 -0.0011639
0.00022616 -0.0017483 0.0015717 -0.00036206
0.0020734 0.0036213 0.0018242 -0.0003118 0.0004163 -0.0011637 -0.0752 0.26966
0.0067547 0.031202 -0.0096496 -0.0079453
0.0039839 -0.0013845 0.0018077 -0.0060458 0.00024038 -0.0017598 0.0067618 0.031275
-0.1461 0.16774 0.0044529 0.021365
-0.0036593 -0.0025592 -0.00058471 -0.0026749 0.0015215 -0.00037802 -0.0095175 -0.008138
0.0045225 0.02145 -0.16716 0.23846
1040000000 -0.021506 0.29025 0.033596 0.020048 -0.00088895 0.0076885 0.0026067 0.00064012
0.00028818 -0.0035382 -0.00022966 -0.0013687
0.033538 0.020049 -0.18414 0.34781 0.02986 -0.014648 0.0012627 -0.0017715
-0.0023895 -0.0022751 -0.0013331 -0.0029557
-0.00089033 0.0076766 0.029852 -0.014768 0.15346 0.29503 -0.00061918 -0.0013991
-0.0015541 -0.001025 -0.00053031 -0.0012715
0.0025865 0.00064117 0.0012568 -0.0017591 -0.0006125 -0.0014005 -0.047396 0.27958
0.019028 0.020015 -0.0023926 0.0015121
0.0002196 -0.0034991 -0.0023712 -0.0022659 -0.0015468 -0.001027 0.01915 0.020015
-0.11274 0.17701 0.013419 0.020241
-0.00042279 -0.0016325 -0.00126 -0.0029647 -0.0005713 -0.0013302 -0.0024521 0.001611
0.013376 0.020037 -0.14755 0.25933
1100000000 0.023244 0.30091 0.037241 -0.0028997 0.0038264 0.0041246 0.0023268 -0.0011492
-0.0024185 -0.0031893 -0.0043894 -1.3259e-05
0.037214 -0.0028441 -0.14086 0.36837 0.015413 -0.027975 -0.00023724 -0.0018047
-0.0033715 -0.00082205 -0.0038022 -0.00066387
0.0038215 0.0041166 0.015316 -0.028053 0.2 0.27557 -0.0017495 0.0003558
-0.0016241 0.00069627 -0.0011344 -0.00064736
0.0022987 -0.0010941 -0.00021812 -0.0017835 -0.0017521 0.00035197 -0.0068581 0.28494
0.02543 0.0065325 -0.0024276 0.0001865
-0.0024649 -0.0032197 -0.0034084 -0.00084977 -0.0016386 0.00069927 0.025481 0.0064902
-0.09578 0.19519 0.020124 0.010378
-0.0041664 0.00018794 -0.0037639 -0.00049269 -0.001096 -0.0006487 -0.0024983 0.00014718
0.020207 0.010558 -0.1016 0.2923
1160000000 0.075074 0.2981 0.025525 -0.020336 0.0036135 -0.00083902 -0.00037555 -0.0024314
-0.0042699 -0.00089252 -0.0012687 0.0041708
0.025526 -0.020302 -0.095703 0.3735 -0.0038691 -0.028898 -0.0016687 -0.0015789
-0.0025781 0.0024009 -0.0015743 0.0019976
0.0036185 -0.00087503 -0.0040039 -0.028901 0.24422 0.24503 -0.00060739 0.0016325
-0.00043751 0.0017195 -0.0011028 0.00014967
-0.00034408 -0.0024932 -0.0016631 -0.001531 -0.00060212 0.0016383 0.033469 0.28199
0.022637 -0.010154 -0.0035829 0.0050147
-0.0042346 -0.00088379 -0.0025664 0.0023996 -0.00043092 0.0017202 0.022624 -0.010138
-0.060315 0.20683 0.019938 0.0014032
-0.0013756 0.0043049 -0.0016369 0.0020342 -0.001118 0.00016129 -0.0036022 0.0050889
0.019939 0.0013621 -0.054091 0.29658
1220000000 0.11853 0.28873 0.012234 -0.030485 -0.0010449 -0.0017403 -0.00014159 -0.00094106
-0.002832 0.0022725 0.0011771 0.0020279
0.012244 -0.030436 -0.051356 0.38762 -0.017046 -0.020977 -0.0024352 0.00064918
5.5628e-05 0.0029647 -0.00081905 0.0019308
-0.0010615 -0.0017331 -0.017154 -0.020927 0.28324 0.20596 0.00094624 0.0014636
0.00049963 0.0011329 8.6687e-06 0.00062751
-9.1815e-05 -0.00086407 -0.0024367 0.00065012 0.00094485 0.0014556 0.073185 0.27294
0.01163 -0.017457 0.0023911 0.001773
-0.0028738 0.0022815 5.1812e-05 0.0029662 0.00050755 0.0011226 0.01158 -0.017468
-0.038273 0.21916 0.015672 -0.012468
0.0012109 0.0019635 -0.00070859 0.0019177 2.4255e-05 0.00060066 0.0024562 0.0017375
0.015589 -0.012393 -0.024739 0.31484
1280000000 0.16962 0.26952 -0.0069858 -0.029713 -0.0019943 0.0015065 -0.00096194 -0.0019099
-0.0010063 0.0034414 0.0026275 0.001132
-0.0069747 -0.029681 -0.0040878 0.37964 -0.023789 -0.0078183 -0.00065538 0.0014056
0.0016896 0.0017213 0.00067871 0.002028
-0.0019832 0.0015211 -0.023885 -0.0076949 0.31443 0.16271 0.0013968 -0.00018057
0.001104 0.00037368 0.00017875 0.00046869
-0.00098079 -0.0019306 -0.00068628 0.0014069 0.0014013 -0.00017415 0.10984 0.25638
0.0016492 -0.02003 -1.0652e-05 -0.00013195
-0.00098734 0.0033832 0.0016673 0.001702 0.0010947 0.00034287 0.0016358 -0.020038
-0.00056516 0.2262 0.0045302 -0.015617
0.0025522 0.0011832 0.00061973 0.0020658 0.00018827 0.00051142 -2.061e-06 -6.5192e-05
0.0044652 -0.015668 0.024027 0.31936
1340000000 0.20748 0.23667 -0.017103 -0.020307 0.00012879 0.0040378 -0.0017218 -0.00062538
0.0014879 0.0028487 0.0016352 -0.0013802
-0.017049 -0.020307 0.035457 0.37168 -0.020767 0.0048075 -0.00012982 0.0018529
0.001709 0.00088356 0.0011378 0.00078462
0.00015159 0.0040434 -0.020767 0.0049117 0.33723 0.11449 0.00071141 -0.00090699
0.00062992 -0.00054092 0.00015523 0.00027915
-0.0016874 -0.00065519 -9.6336e-05 0.001845 0.00070611 -0.0009122 0.14259 0.23562
-0.0084254 -0.01722 0.0010355 0.00049049
0.0014731 0.0028617 0.0017547 0.0008366 0.0006312 -0.00055008 -0.0084498 -0.017172
0.029393 0.22387 -0.0028595 -0.014451
0.0017248 -0.001449 0.0011631 0.0007985 0.00014177 0.00030143 0.0010044 0.00045879
-0.0028346 -0.014449 0.062282 0.31529
1400000000 0.24165 0.19985 -0.023904 -0.0088371 0.0045814 0.0031095 -0.0020349 0.00073214
0.0026003 0.00095088 0.00041949 -0.0013018
-0.023866 -0.0088355 0.073423 0.35932 -0.01386 0.012565 0.0011919 0.0012797
0.0010856 -0.00056486 0.0011938 0.00018235
0.0045973 0.0030839 -0.013823 0.012661 0.35043 0.060691 -8.3203e-05 -0.0013377
0.00017652 -0.00017778 0.00051109 0.0002876
-0.0020396 0.0007532 0.0012051 0.0013071 -7.7214e-05 -0.0013302 0.17145 0.20697
-0.014797 -0.010253 -0.00092043 -0.00045341
0.002599 0.00089805 0.0010752 -0.00059904 0.00016185 -0.00016926 -0.014817 -0.010271
0.062635 0.22307 -0.0094835 -0.0095617
0.00038099 -0.0012044 0.0012399 0.00020011 0.00050282 0.00025627 -0.00090524 -0.00038885
-0.0093983 -0.0095897 0.10768 0.30683
1460000000 0.2656 0.15657 -0.021193 0.0039793 0.0049303 -0.0015911 -0.0014223 0.0015613
0.0021536 -0.00046237 -0.00010983 -0.00074201
-0.021173 0.0039627 0.10798 0.33742 -0.0048851 0.014773 0.0015535 0.00026302
0.0010876 -0.0011911 0.0012362 -0.00053223
0.0049113 -0.0016092 -0.0048002 0.014809 0.35685 0.0056464 -0.00098373 -0.001022
0.00033826 -0.00027606 0.00069346 -0.0003468
-0.001409 0.0015798 0.0015454 0.0002602 -0.00097412 -0.0010305 0.19806 0.17839
-0.015775 -0.0031299 -0.0010822 0.0018732
0.0021476 -0.00051292 0.0011235 -0.0012159 0.00033186 -0.00028314 -0.015796 -0.003076
0.093001 0.21099 -0.012107 -0.0032664
-0.00021078 -0.00075688 0.0011612 -0.00054721 0.00071132 -0.00031443 -0.0011022 0.001827
-0.012092 -0.0032784 0.14176 0.28624
1520000000 0.27815 0.11526 -0.015765 0.009953 0.0029674 -0.0037556 0.00010859 0.0026041
0.0023145 -0.0019332 -0.0010315 -6.2756e-05
-0.015758 0.0099513 0.14143 0.32358 0.0023159 0.011982 0.0016659 -0.0006282
0.00018821 -0.0010219 0.00033827 -0.0010239
0.0029562 -0.0037801 0.0024 0.011988 0.34897 -0.051232 -0.00083678 -0.00033974
0.00063123 -0.001027 0.00015616 -0.00012575
8.0061e-05 0.0026095 0.0016599 -0.00066903 -0.00083388 -0.0003346 0.22124 0.14019
-0.015239 0.0026966 0.0013858 0.0020307
0.0022811 -0.0019557 0.00018157 -0.00099501 0.00064065 -0.0010055 -0.015241 0.0027044
0.12066 0.20042 -0.011962 0.001197
-0.0010376 -0.00014095 0.00033427 -0.0010647 0.00012532 -0.00013857 0.0014048 0.0020487
-0.01191 0.0011802 0.17495 0.26799
1580000000 0.28849 0.070346 -0.0089943 0.013768 -0.0012182 -0.0043604 0.0014054 0.0018403
-0.00027193 -0.002286 -0.00019104 0.00036214
-0.0090034 0.013754 0.16878 0.29944 0.0053043 0.0067938 0.00063499 -0.0015068
-0.00048182 -0.0012022 -0.00026236 -0.00072825
-0.0012334 -0.0043406 0.0053463 0.0067707 0.32825 -0.10796 -0.0014089 0.00028386
-0.00062249 -0.0013288 0.0002592 -0.00057889
0.0014403 0.0018498 0.00062505 -0.0015009 -0.0014344 0.00029427 0.23543 0.10158
-0.011362 0.0079417 0.0019815 0.00080997
-0.00027566 -0.0022926 -0.00048291 -0.0011724 -0.0006107 -0.0013342 -0.011353 0.0079415
0.14632 0.18585 -0.0095652 0.0075241
-0.00021857 0.0003888 -0.00029998 -0.00071736 0.00026308 -0.00057399 0.0019806 0.00081085
-0.0095667 0.0075351 0.20868 0.24296
1640000000 0.29154 0.029768 -0.0018979 0.012844 -0.0028647 -0.0019394 0.0027772 0.0010799
-0.00062881 -0.0018105 -0.00037398 0.00050255
-0.0019155 0.01284 0.19859 0.27543 0.005184 0.0021073 -0.00050418 -0.0018695
-0.0010027 -0.00052941 -0.00047353 -0.00063704
-0.0029002 -0.0019193 0.0051966 0.0020711 0.29902 -0.15709 -0.00080119 0.0011679
-0.0011418 -0.0010263 -0.00017017 -0.00046536
0.002758 0.0010518 -0.00051258 -0.001872 -0.00078753 0.0011646 0.24823 0.052762
-0.0071195 0.0087689 0.0024463 -0.00056273
-0.00065623 -0.0017786 -0.00098328 -0.00053814 -0.0011585 -0.0010531 -0.0071263 0.0088038
0.16991 0.16501 -0.0045445 0.0096648
-0.00038476 0.00050003 -0.00048079 -0.00061425 -0.00013224 -0.00045007 0.0024539 -0.00055298
-0.0045118 0.0097087 0.23517 0.21243
1700000000 0.28556 -0.014899 0.0019497 0.01001 -0.0030933 0.00053327 0.0030974 -0.001208
-0.0021487 -0.00058849 0.00055416 0.00035081
0.0019234 0.01001 0.21685 0.24481 0.0026003 -0.00035951 -0.0014783 -0.00072817
-0.00081802 -9.902e-05 -0.00072227 -0.00034927
-0.0030841 0.00055916 0.0025912 -0.000373 0.25501 -0.19568 5.0485e-05 0.001624
-0.0020923 -5.6571e-05 -0.00026307 -0.00073072
0.0031243 -0.0011853 -0.0014844 -0.00071682 3.7967e-05 0.0016169 0.24525 0.0031911
-0.0041788 0.0093473 0.0017274 -0.0019435
-0.0021229 -0.00060267 -0.00081219 -9.9096e-05 -0.0021014 -2.7047e-05 -0.0041628 0.0093398
0.18933 0.14821 0.00044356 0.0098868
0.00046636 0.00038703 -0.00071023 -0.00036094 -0.00025651 -0.00073331 0.0017313 -0.0019405
0.00041106 0.0098707 0.25285 0.17916
1760000000 0.27527 -0.06298 0.0044309 0.0066785 -0.0018093 0.0011973 0.0013365 -0.0034116
-0.0012749 0.00063405 0.00034587 -0.00047467
0.0044181 0.0066867 0.24369 0.20601 2.3318e-06 -0.0015669 -0.0012969 7.7259e-05
-0.0011167 0.00099291 -0.00045412 0.00035547
-0.0017893 0.0012118 -1.0568e-05 -0.0015945 0.20675 -0.2273 0.001108 0.0013813
-0.0010084 0.0013766 -0.0013023 -0.00074431
0.001314 -0.0034281 -0.001279 6.5933e-05 0.0011237 0.0013733 0.23738 -0.048236
-0.0010101 0.0083853 -1.5158e-05 -0.002434
-0.0012853 0.00065895 -0.0011174 0.0010064 -0.0010245 0.0013873 -0.0010096 0.0084345
0.20609 0.11668 0.0043634 0.0071801
0.00030912 -0.00049618 -0.00045537 0.00037437 -0.0013184 -0.00070628 -1.4211e-05 -0.0024643
0.0044351 0.0072024 0.26691 0.1421
1820000000 0.25213 -0.10071 0.0047216 0.0029757 0.00027071 0.0021335 -0.00080991 -0.0030625
-0.0010648 0.00095837 -5.6405e-05 -9.1217e-05
0.0047004 0.0029688 0.2546 0.17657 -0.0019832 0.00017179 -0.0013968 0.00099342
3.4109e-06 0.0012115 -0.00053131 0.00035074
0.00026725 0.0021109 -0.0019709 0.00017776 0.1567 -0.24264 0.0019001 0.00061012
-0.00017426 0.0024049 -0.0016079 0.00013785
-0.00081763 -0.0030744 -0.0013936 0.0010065 0.001895 0.00062292 0.20797 -0.096129
0.00055656 0.0072239 -0.0014386 -0.0017133
-0.00101 0.00096401 3.834e-05 0.0012115 -0.00015307 0.0024039 0.00056913 0.007178
0.22641 0.090531 0.0054552 0.0033678
-1.0053e-05 -5.0505e-05 -0.00054918 0.0003339 -0.0016246 0.00013588 -0.0014841 -0.0017419
0.0054182 0.0033307 0.27067 0.10674
1880000000 0.21824 -0.14121 0.0025062 0.00072893 -0.00030577 0.0021175 -0.0028526 -0.0024117
-0.00014695 0.0016096 0.00042225 -0.00057166
0.002494 0.00072931 0.25968 0.13088 -0.0038836 0.0029512 -0.00021324 0.0018646
0.00059185 0.0013015 0.00010541 0.0008839
-0.00034122 0.0021279 -0.0038681 0.0029929 0.10491 -0.24996 0.002077 -0.0012879
0.0016107 0.0018288 -0.0010001 0.0013995
-0.0028862 -0.0023348 -0.00021702 0.0018692 0.0020788 -0.0012883 0.16769 -0.13652
0.0012823 0.0051696 -0.0022349 0.00019139
-0.00011219 0.0016144 0.00062072 0.0012816 0.0016439 0.0018416 0.0012573 0.0051948
0.23293 0.062022 0.0057424 0.0012269
0.00030125 -0.0006044 0.00010241 0.00087828 -0.0010052 0.0013809 -0.0021859 0.00022654
0.0057617 0.0012933 0.2717 0.073246
1940000000 0.18023 -0.16822 0.00046913 -0.001005 0.0018276 0.001848 -0.0039594 0.00026492
0.001122 0.0006716 -0.00075194 -0.00074255
0.00046976 -0.0010091 0.26204 0.099562 -0.0017042 0.0058364 0.0011259 0.0013946
0.0019151 0.00030535 0.00086837 0.0002193
0.0018304 0.0018403 -0.0016687 0.0058809 0.061659 -0.24223 0.00048037 -0.0025197
0.0021685 0.00028394 0.00017117 0.0017747
-0.0039829 0.0002403 0.0011172 0.0013732 0.00051377 -0.0025096 0.11568 -0.16839
0.00088097 0.0036671 -0.0013731 0.0011331
0.0011524 0.00067608 0.0019588 0.00032813 0.0022182 0.00027965 0.00087392 0.0036401
0.24016 0.025599 0.0043537 -0.002805
-0.00071248 -0.00078552 0.00085686 0.00021616 0.00013044 0.0017578 -0.0014308 0.0010755
0.0043442 -0.002858 0.26277 0.037063
2000000000 0.13422 -0.18364 -0.0031262 0.00082985 0.0029107 0.0010266 -0.0024357 0.0036936
0.00086275 0.00045189 -0.00092378 0.00051129
-0.0031232 0.00082425 0.24897 0.064011 -0.0003062 0.0077239 0.0016156 0.00030274
0.0011675 -0.0013504 0.00031439 7.9775e-05
0.0029279 0.0010773 -0.00027522 0.0077299 0.020121 -0.22814 -0.0017018 -0.0014923
0.0019555 -0.001119 0.0015649 0.0014657
-0.0023828 0.0036937 0.0016053 0.00031968 -0.0016996 -0.0014852 0.061354 -0.179
-0.001042 0.0032089 -0.00014581 0.0021528
0.00083222 0.00042787 0.0011348 -0.0013729 0.0019641 -0.0011031 -0.001091 0.0032899
0.23827 -0.006865 0.00082085 -0.00385
