!Keysight Technologies,M9804A,MY58100912,A.14.10.03
!Date: Thursday, April 27, 2023 10:28:33
!Correction: S11(C  6-Port  ) 
!S12(C  6-Port  ) 
!S13(C  6-Port  ) 
!S14(C  6-Port  ) 
!S15(C  6-Port  ) 
!S16(C  6-Port  ) 
!S21(C  6-Port  ) 
!S22(C  6-Port  ) 
!S23(C  6-Port  ) 
!S24(C  6-Port  ) 
!S25(C  6-Port  ) 
!S26(C  6-Port  ) 
!S31(C  6-Port  ) 
!S32(C  6-Port  ) 
!S33(C  6-Port  ) 
!S34(C  6-Port  ) 
!S35(C  6-Port  ) 
!S36(C  6-Port  ) 
!S41(C  6-Port  ) 
!S42(C  6-Port  ) 
!S43(C  6-Port  ) 
!S44(C  6-Port  ) 
!S45(C  6-Port  ) 
!S46(C  6-Port  ) 
!S51(C  6-Port  ) 
!S52(C  6-Port  ) 
!S53(C  6-Port  ) 
!S54(C  6-Port  ) 
!S55(C  6-Port  ) 
!S56(C  6-Port  ) 
!S61(C  6-Port  ) 
!S62(C  6-Port  ) 
!S63(C  6-Port  ) 
!S64(C  6-Port  ) 
!S65(C  6-Port  ) 
!S66(C  6-Port  ) 
!S6P File: Measurement: :
# Hz S  RI   R 50
500000000 -0.32743 -0.061028 -0.010644 -0.0018319 -0.0082195 0.011878 -0.004142 0.012118
0.012366 0.0058266 -0.0049779 0.0084594
-0.010458 -0.0020004 -0.40855 -0.072032 0.0076277 -0.011246 0.00086359 0.011595
0.0093634 0.0035364 0.00081791 0.013149
-0.0082816 0.011902 0.0076225 -0.011244 -0.25498 0.19347 0.0067795 0.0032978
-0.0021683 0.0080525 0.0013992 0.012002
-0.0040985 0.01205 0.00090246 0.01161 0.0067631 0.003277 -0.32705 0.045379
-0.01969 -0.0057284 0.014693 0.027737
0.012517 0.0057075 0.0095622 0.0034664 -0.0021486 0.0079206 -0.019693 -0.0056419
-0.21023 -0.24608 -0.02857 0.0032149
-0.0049798 0.0085586 0.00096479 0.013177 0.0014989 0.012011 0.014656 0.02794
-0.028581 0.0032544 -0.26023 -0.14267
560000000 -0.31343 0.10639 -0.022959 -0.06652 0.0014535 0.012886 0.0056725 0.010894
0.012071 0.0052483 0.011079 0.010002
-0.022885 -0.066327 -0.36861 0.091986 -0.042066 -0.03884 0.013744 0.0024276
-0.015131 -0.0060246 0.0048593 -0.0012143
0.0011653 0.013012 -0.042172 -0.038844 -0.17877 0.24285 -0.0007053 -0.0049054
0.01896 0.0066618 0.0074742 -0.0054987
0.0057278 0.010932 0.013789 0.0024193 -0.0007456 -0.0048684 -0.30277 0.13296
0.0057036 -0.021834 0.0061692 -0.022171
0.011617 0.0049641 -0.015255 -0.0059935 0.018935 0.0067492 0.0058331 -0.02139
-0.29752 -0.060807 0.0096509 -0.051225
0.011327 0.009874 0.0047051 -0.0011513 0.0075462 -0.0054953 0.0062172 -0.022167
0.0095449 -0.050936 -0.32711 0.0040525
620000000 -0.27426 0.08235 -0.023596 0.0089639 0.0035494 0.0084894 0.0084403 -0.0043118
0.012356 -0.00080667 0.00079773 -0.0011653
-0.023674 0.0088967 -0.39881 0.036973 -0.019378 0.00038004 -0.0018219 -0.0022997
0.01232 -0.0051125 8.3518e-05 -0.0030323
0.0034671 0.0085345 -0.019417 0.00042938 -0.15312 0.25139 -0.0016043 -0.0053485
-0.0036544 -0.0017216 0.0082851 -0.0031164
0.0084932 -0.0043731 -0.0018266 -0.0023615 -0.0016632 -0.0052989 -0.26223 0.14284
-0.037537 -0.02138 0.012458 0.028013
0.012474 -0.00073634 0.01232 -0.0050957 -0.0037038 -0.0017214 -0.03778 -0.021375
-0.21339 -0.098278 -0.044127 0.013115
0.0007025 -0.0011114 9.4476e-05 -0.0031038 0.0083129 -0.0031464 0.012567 0.027958
-0.044387 0.012897 -0.24186 -0.029717
680000000 -0.23977 0.17521 -0.02646 -0.014646 0.0047953 0.0052442 0.001431 -0.0071655
-0.0015638 -0.011313 0.0057428 -0.0071624
-0.026384 -0.014658 -0.38916 0.13903 -0.032564 -0.0014627 -0.0015243 -0.00067045
-0.0016012 -0.0093554 -0.00092928 -0.001671
0.0047924 0.0052542 -0.032603 -0.0013808 -0.1065 0.2749 -0.00072624 -4.4519e-05
-0.0016522 0.00094183 -0.0028522 -0.0090425
0.0013154 -0.0071478 -0.0015678 -0.00066227 -0.00071862 -1.1801e-05 -0.21773 0.19518
-0.023287 -0.0074884 -0.009014 -0.011176
-0.0016318 -0.011281 -0.0016925 -0.0094292 -0.0016286 0.00096986 -0.023185 -0.0074964
-0.28353 0.0011573 -0.0053573 -0.0074861
0.0059586 -0.0071812 -0.0010128 -0.0015903 -0.002885 -0.0089989 -0.0091619 -0.011044
-0.0050927 -0.0074354 -0.26072 0.071403
740000000 -0.19344 0.1688 -0.040653 0.026751 0.013383 -0.0036209 -1.0495e-05 -0.0038663
-0.0039852 -0.0018403 -0.0064025 0.0033023
-0.040578 0.026643 -0.33494 0.15873 -0.036555 0.03456 0.00025081 -0.0054848
-0.013104 0.0069702 -0.001037 -0.0055326
0.013419 -0.0037105 -0.036498 0.034695 -0.072693 0.27548 -0.0018431 0.0032914
-0.0011478 -0.0051809 -0.0017278 0.0009484
-8.2386e-05 -0.0038773 0.00017972 -0.0054591 -0.0018514 0.0032979 -0.20171 0.20152
-0.041629 -0.0092749 0.022188 0.016926
-0.0039258 -0.0018426 -0.013048 0.0067439 -0.00099899 -0.0050641 -0.041851 -0.0092275
-0.17829 0.036922 -0.044007 -0.0009066
-0.0063661 0.003353 -0.001059 -0.0055221 -0.0017589 0.00092905 0.022289 0.016925
-0.044035 -0.0009031 -0.25195 0.076733
800000000 -0.16546 0.21398 -0.022503 0.016087 0.0055271 -0.010343 -0.0044593 -0.0025421
-0.0041129 0.0018817 0.00433 0.00047671
-0.022447 0.016018 -0.34399 0.22936 -0.008383 0.034314 -0.0022147 0.002137
0.00020505 0.0020574 0.00059325 0.0055121
0.0055307 -0.010395 -0.008295 0.03437 -0.03485 0.30132 0.00099923 0.0012571
2.4585e-05 0.0030798 -0.0017861 0.00061268
-0.0044936 -0.0024541 -0.0022359 0.0021834 0.0009994 0.0012643 -0.17273 0.229
-0.02961 0.013114 0.014926 -0.010738
-0.0040334 0.001796 0.00026788 0.0020919 5.2563e-05 0.0030986 -0.029537 0.01323
-0.23539 0.059981 -0.01917 0.02123
0.0045908 0.00048252 0.00069775 0.0055714 -0.0017573 0.00065964 0.014837 -0.010651
-0.019122 0.021302 -0.24804 0.12847
860000000 -0.13088 0.23548 -0.018059 0.030724 -0.0033888 -0.0099684 -0.0020522 0.00086168
0.0038508 0.0049116 -0.0034862 -0.0031955
-0.018071 0.030668 -0.29642 0.27471 0.0078204 0.034292 6.3343e-05 0.0022968
0.0039974 0.00015884 0.0040723 -0.00021268
-0.0033724 -0.0099673 0.0079465 0.034295 0.01438 0.31142 -0.00058958 -0.00041555
0.0024197 -0.0018548 0.0020547 0.0040602
-0.0019784 0.00085254 8.6844e-05 0.002257 -0.00056273 -0.00040309 -0.13631 0.24091
-0.018533 0.017399 -0.0061192 -0.0093663
0.0039265 0.004945 0.0040395 0.00015639 0.0024177 -0.0018746 -0.018575 0.017401
-0.18165 0.12505 -0.026663 0.015565
-0.0035686 -0.0032357 0.0040035 -0.0002182 0.0020197 0.0040493 -0.0060592 -0.0094709
-0.026734 0.015497 -0.19851 0.1777
920000000 -0.10815 0.25875 0.0047165 0.039595 -0.0092861 -0.0042342 -0.0018175 0.0017008
-0.00014465 0.0015311 0.003143 -0.0011138
0.0046713 0.039505 -0.27004 0.29622 0.028213 0.022644 0.0014418 0.0010647
0.0073335 -0.00010234 0.0042357 -0.0029651
-0.0093037 -0.0042161 0.028316 0.022568 0.060662 0.31301 0.0017157 -0.00010285
0.00069451 -0.00039366 0.00089397 -0.0014053
-0.00186 0.0017733 0.0014789 0.001073 0.0017025 -9.7793e-05 -0.11259 0.25759
-0.012466 0.031409 0.0042144 -0.0069659
-0.00020152 0.0015881 0.007325 -0.00014718 0.00066532 -0.0003772 -0.012386 0.031443
-0.17554 0.12743 -0.0031769 0.029291
0.0031116 -0.0011085 0.0042206 -0.00296 0.00092031 -0.0014063 0.0042048 -0.0068505
-0.0031177 0.029238 -0.20852 0.1896
980000000 -0.061528 0.28155 0.017096 0.030685 -0.0092341 0.0047635 0.0019328 0.0035426
0.0039877 -0.0014496 -0.0036188 -0.0028323
0.017017 0.030674 -0.21834 0.33413 0.033131 0.0048992 0.0018784 -0.00024875
0.0019246 -0.0061429 -0.00072643 -0.002492
-0.0092254 0.0048143 0.033195 0.0047736 0.10753 0.30832 0.00035375 -0.0011674
0.00032924 -0.0015511 0.00152 -0.0003694
0.0019781 0.0035107 0.0019134 -0.00023046 0.00036169 -0.0011427 -0.074051 0.26991
0.0070869 0.031022 -0.0095623 -0.0077206
0.00392 -0.001534 0.0018813 -0.0061656 0.0003004 -0.001575 0.0070931 0.031066
-0.14692 0.16607 0.0049531 0.020933
-0.0036913 -0.0027921 -0.00079095 -0.0024829 0.0015146 -0.00035695 -0.009602 -0.0078041
0.0048527 0.020984 -0.16655 0.23944
1040000000 -0.020158 0.2902 0.03342 0.019517 -0.00096537 0.0075256 0.0022739 0.00059015
0.00026461 -0.0035088 -9.438e-05 -0.0013356
0.033361 0.019471 -0.1827 0.3478 0.029497 -0.014757 0.0013814 -0.0018826
-0.0024079 -0.0024229 -0.0011221 -0.0028888
-0.00092577 0.0075363 0.029477 -0.014896 0.15473 0.29455 -0.00057928 -0.0013946
-0.0015029 -0.00091513 -0.00057977 -0.0011254
0.0022724 0.00061213 0.0013976 -0.0018779 -0.0005925 -0.0013871 -0.046237 0.27919
0.018807 0.019705 -0.0023417 0.0011529
0.00026009 -0.0034496 -0.0024424 -0.0023939 -0.0014869 -0.00091075 0.018843 0.0197
-0.11364 0.17429 0.01334 0.020694
-0.00016098 -0.001361 -0.001135 -0.0029051 -0.00055411 -0.0011312 -0.0023997 0.0012204
0.01332 0.020704 -0.14551 0.2596
1100000000 0.024046 0.30089 0.036797 -0.0032193 0.0035024 0.0040355 0.0024342 -0.00097904
-0.0024389 -0.0029921 -0.0041283 -0.00029408
0.036754 -0.0032107 -0.14008 0.36835 0.01499 -0.027815 -0.00014358 -0.0017971
-0.0035193 -0.00084957 -0.0037368 -0.00056278
0.0035215 0.0040322 0.014903 -0.027918 0.20091 0.27508 -0.001764 0.00032494
-0.001705 0.00072249 -0.0010359 -0.00047656
0.0024378 -0.00099787 -0.00014034 -0.0018149 -0.0017547 0.00033868 -0.0060568 0.28462
0.025377 0.0066509 -0.0026899 -5.7766e-05
-0.0024307 -0.0030028 -0.0035161 -0.0008058 -0.0017018 0.00072314 0.025355 0.0066264
-0.097386 0.1936 0.020262 0.010394
-0.0041522 -0.00029156 -0.0037649 -0.00055753 -0.0010467 -0.0004819 -0.0026287 -8.2679e-05
0.02018 0.010403 -0.1012 0.29231
1160000000 0.07622 0.29774 0.025079 -0.020493 0.0033398 -0.00070487 -0.00010979 -0.0023696
-0.0041056 -0.0009258 -0.0011495 0.0043388
0.02506 -0.020489 -0.094503 0.37363 -0.004084 -0.028595 -0.0016925 -0.0013171
-0.0027968 0.002418 -0.0014705 0.0020068
0.0033369 -0.00071418 -0.0042235 -0.028619 0.24537 0.24451 -0.00056396 0.0016469
-0.00046545 0.0016721 -0.0009883 0.0002058
-0.00015082 -0.0023459 -0.0017025 -0.0013259 -0.00056634 0.0016399 0.034184 0.28164
0.022535 -0.0099911 -0.0037327 0.0051089
-0.0041287 -0.00085 -0.0027803 0.0024604 -0.00047293 0.0016649 0.022579 -0.0099905
-0.060862 0.20562 0.019623 0.00070185
-0.0011161 0.0043305 -0.0014791 0.0020321 -0.00098248 0.00021938 -0.0037834 0.0052019
0.019701 0.0006831 -0.05342 0.29705
1220000000 0.11962 0.288 0.011778 -0.030225 -0.0011515 -0.0014061 -4.1362e-05 -0.0009974
-0.0027377 0.002297 0.0011454 0.0020411
0.011789 -0.030202 -0.050677 0.38749 -0.017036 -0.020681 -0.002452 0.00056274
7.0871e-06 0.0030776 -0.00079228 0.0018719
-0.0011679 -0.0014089 -0.01714 -0.020641 0.28428 0.2051 0.00090851 0.0014705
0.00053322 0.0011534 0.00019381 0.00065334
-3.3305e-05 -0.0010205 -0.002457 0.000555 0.00091635 0.0014591 0.073673 0.27255
0.01161 -0.017115 0.002172 0.0016973
-0.0027368 0.0022989 2.5294e-05 0.0030865 0.00052288 0.001132 0.011561 -0.017117
-0.039955 0.21749 0.015518 -0.012517
0.0011707 0.0020476 -0.00078719 0.0018705 0.00019371 0.00066312 0.0022173 0.0016762
0.015447 -0.012498 -0.023268 0.31446
1280000000 0.17049 0.2691 -0.0072776 -0.029261 -0.0018094 0.0017095 -0.0009023 -0.0019986
-0.0010273 0.0034596 0.0026435 0.001263
-0.0072609 -0.029236 -0.0034258 0.37999 -0.023771 -0.0075949 -0.00082616 0.0013986
0.0017897 0.0017017 0.00065711 0.0019959
-0.001797 0.0017146 -0.023839 -0.0074932 0.31524 0.16193 0.0013734 -0.00017534
0.0011111 0.00040456 0.00021303 0.00037569
-0.00093253 -0.00197 -0.00080796 0.0014096 0.0013753 -0.00018406 0.11029 0.25659
0.001735 -0.019696 -7.3515e-05 9.256e-05
-0.00098208 0.0034509 0.0018069 0.0016956 0.0011041 0.00041905 0.0017463 -0.019688
-0.0027518 0.22506 0.0040906 -0.01558
0.0026101 0.0012241 0.00065604 0.0019931 0.00020774 0.00036626 -0.00013952 0.00012559
0.0041583 -0.015604 0.024952 0.31885
1340000000 0.20832 0.23595 -0.017109 -0.019754 0.00044147 0.0041294 -0.0018119 -0.00067765
0.0015251 0.0028756 0.001813 -0.0014532
-0.017069 -0.019776 0.03649 0.3719 -0.020627 0.0049936 -0.00011955 0.0019019
0.0018192 0.00086068 0.0012436 0.00087617
0.00047192 0.0041367 -0.020633 0.0050947 0.33805 0.11334 0.00080719 -0.00093376
0.00062939 -0.00058005 0.00016252 0.000263
-0.001793 -0.0006926 -0.00010575 0.0018953 0.00080669 -0.0009331 0.14333 0.23568
-0.0081701 -0.017262 0.00095889 0.00055953
0.0015442 0.0028418 0.0018493 0.00086652 0.00063092 -0.00060392 -0.0082526 -0.017239
0.027448 0.22274 -0.003086 -0.014253
0.0018394 -0.0014663 0.0012478 0.00084384 0.00016031 0.00025433 0.0010135 0.00055744
-0.0030971 -0.014176 0.063617 0.31503
1400000000 0.24225 0.19922 -0.023714 -0.0083818 0.0047811 0.0030269 -0.0021201 0.00082761
0.002604 0.0010195 0.00034825 -0.0013304
-0.023667 -0.0083882 0.074098 0.35985 -0.013739 0.012604 0.0012885 0.0012626
0.0011257 -0.00059098 0.0011415 0.0001717
0.0047971 0.0030129 -0.013699 0.012689 0.35091 0.059606 -7.3498e-05 -0.001351
0.00021219 -0.00018423 0.00040168 0.00026657
-0.0021209 0.00081015 0.0012878 0.0012677 -5.9773e-05 -0.0013567 0.17224 0.20698
-0.01463 -0.010214 -0.00074851 -0.00028422
0.0026346 0.00096321 0.0011143 -0.00061416 0.00020213 -0.00015714 -0.014637 -0.010202
0.060383 0.22266 -0.0096288 -0.0093013
0.00031871 -0.0013182 0.0011629 0.00018589 0.00040451 0.0002713 -0.00078457 -0.00029028
-0.0095923 -0.0093543 0.1082 0.30618
1460000000 0.2665 0.15608 -0.020792 0.0042787 0.0050309 -0.001718 -0.0014942 0.0016967
0.002194 -0.00045497 -0.00024268 -0.00083657
-0.020757 0.0042533 0.10928 0.33805 -0.0046908 0.014901 0.0015836 0.00026284
0.0011109 -0.0012458 0.0012381 -0.00054415
0.0050056 -0.0017337 -0.0046295 0.014945 0.35758 0.0048398 -0.0010585 -0.0010425
0.00028361 -0.00032631 0.0007341 -0.00032111
-0.00148 0.001699 0.001585 0.00025189 -0.0010696 -0.0010503 0.19936 0.17837
-0.01561 -0.0033884 -0.00092001 0.0019883
0.0022021 -0.00041761 0.0011317 -0.0012549 0.00027176 -0.00031735 -0.015636 -0.0033448
0.091065 0.2111 -0.011928 -0.0032056
-0.00023036 -0.00083994 0.001229 -0.00056039 0.00070902 -0.00029864 -0.0008992 0.0020061
-0.011929 -0.0031365 0.14283 0.28623
1520000000 0.27911 0.11429 -0.015329 0.01 0.0030571 -0.0038936 0.00018901 0.0026082
0.0024565 -0.0019935 -0.0010941 -0.00012941
-0.015312 0.0099793 0.14291 0.32373 0.0024621 0.011919 0.0016713 -0.00066677
0.00020073 -0.0010194 0.0003514 -0.00094777
0.0030611 -0.0039138 0.0025262 0.011921 0.34974 -0.052839 -0.00079762 -0.00034206
0.00067081 -0.0010443 0.0001204 -7.5697e-05
0.00017377 0.0025892 0.0016642 -0.00067204 -0.00079681 -0.00035731 0.2224 0.13968
-0.01531 0.002453 0.0014451 0.0020234
0.0024415 -0.0020169 0.0001827 -0.0010122 0.00065634 -0.0010094 -0.015291 0.0025029
0.11883 0.20052 -0.01188 0.0014117
-0.0011038 -0.0001043 0.00034932 -0.00095574 0.0001244 -8.5099e-05 0.0014386 0.0020175
-0.011885 0.0013789 0.17601 0.26722
1580000000 0.28942 0.069559 -0.0087003 0.013574 -0.0012182 -0.0045236 0.0015125 0.0017982
-0.00023841 -0.0023051 -7.9111e-05 0.00039566
-0.0087078 0.013565 0.17043 0.29983 0.0054131 0.0066577 0.00057756 -0.0015042
-0.00042728 -0.0011584 -0.00017444 -0.0006854
-0.0012614 -0.0045083 0.0054509 0.0066297 0.32844 -0.10936 -0.0014894 0.00030579
-0.00045966 -0.0013157 0.00029363 -0.00052994
0.0015276 0.0018072 0.00058168 -0.0015082 -0.0014834 0.00031177 0.23648 0.10102
-0.011605 0.007655 0.0021832 0.00068619
-0.0002462 -0.0023059 -0.00042742 -0.0011682 -0.00044602 -0.0013373 -0.011615 0.0076893
0.14472 0.18646 -0.0092803 0.0076336
-6.8828e-05 0.00038227 -0.0001859 -0.0006875 0.00030262 -0.00052877 0.0021783 0.00067813
-0.0092771 0.0076656 0.20955 0.24246
1640000000 0.29274 0.028143 -0.0016376 0.012497 -0.0027316 -0.0020451 0.0027084 0.0010298
-0.00060636 -0.0018332 -0.00031254 0.00037301
-0.0016462 0.012491 0.20087 0.27508 0.0053055 0.0020542 -0.00049397 -0.0018249
-0.00096259 -0.00059241 -0.00045688 -0.00065414
-0.0027341 -0.0020541 0.0053255 0.0020162 0.2991 -0.15886 -0.00069421 0.0012374
-0.0011714 -0.0010393 -0.00012069 -0.00039437
0.0027092 0.0010059 -0.00050769 -0.0018297 -0.00070094 0.0012405 0.24957 0.051439
-0.0073181 0.0087434 0.0024752 -0.00063842
-0.00061067 -0.0018225 -0.00096825 -0.00056691 -0.0011584 -0.00099998 -0.0072868 0.0087647
0.16884 0.16538 -0.004382 0.0096714
-0.00031031 0.00037953 -0.00047005 -0.00065214 -0.00012214 -0.00039143 0.0024865 -0.00063749
-0.0043483 0.0096296 0.2361 0.21177
1700000000 0.28583 -0.016254 0.0018819 0.0097047 -0.0031918 0.00031497 0.0031257 -0.0013053
-0.0022473 -0.00060951 0.00053735 0.00044675
0.0018716 0.0096997 0.21872 0.24419 0.0027032 -0.00043269 -0.0014433 -0.00071416
-0.00082536 -0.00015927 -0.00076345 -0.00043459
-0.0031991 0.00035511 0.0027116 -0.00044649 0.25459 -0.19657 0.00014898 0.0016406
-0.002119 -0.00023297 -0.00029212 -0.00085718
0.0031231 -0.0012874 -0.0014508 -0.00070673 0.00014947 0.001653 0.24605 0.0015758
-0.0045332 0.0095382 0.0017625 -0.002061
-0.0022549 -0.00061263 -0.00082297 -0.00015881 -0.0020847 -0.00023786 -0.0045173 0.0095597
0.18761 0.14875 0.00061602 0.0097939
0.00053462 0.00043813 -0.0007645 -0.00042515 -0.00028695 -0.00088444 0.0017365 -0.0020852
0.00060083 0.0098365 0.25339 0.17835
1760000000 0.27574 -0.064549 0.0042628 0.0064202 -0.0020946 0.0012315 0.0013088 -0.0034444
-0.0012654 0.00056318 7.7341e-05 -0.00042416
0.0042553 0.0064147 0.24591 0.20506 4.3448e-05 -0.0017874 -0.0012767 4.6853e-05
-0.0011638 0.0009538 -0.00055313 0.00029579
-0.0020847 0.001239 3.9145e-05 -0.0017953 0.20665 -0.22874 0.0011411 0.0014115
-0.001096 0.0015416 -0.0013124 -0.00072003
0.0012779 -0.0034827 -0.0012661 4.7177e-05 0.0011503 0.001419 0.23792 -0.049889
-0.0010658 0.0086646 -0.00020348 -0.0024993
-0.0012559 0.00057248 -0.0011588 0.00096463 -0.0011021 0.001572 -0.0010613 0.0086605
0.20485 0.11752 0.0045543 0.0070662
7.7747e-05 -0.00042666 -0.00056059 0.00030415 -0.0013149 -0.00071025 -0.00016078 -0.0024923
0.00457 0.0070237 0.2677 0.14151
1820000000 0.25206 -0.10274 0.0045614 0.0028825 0.00021521 0.0023781 -0.00094119 -0.0031588
-0.001216 0.00088442 -7.2898e-05 -4.4408e-05
0.0045672 0.0028738 0.25622 0.175 -0.0022096 7.4662e-05 -0.0014449 0.00094611
-6.3118e-05 0.0012009 -0.00063788 0.00040437
0.00025438 0.0023681 -0.0022139 8.8432e-05 0.15596 -0.24408 0.0018192 0.00062357
-0.00018493 0.0023458 -0.0017277 0.00011553
-0.00095642 -0.0030927 -0.0014553 0.00096246 0.0018025 0.00062431 0.20728 -0.09795
0.00040822 0.007387 -0.00157 -0.0017647
-0.001215 0.00091318 -4.1138e-05 0.0012078 -0.00016954 0.002339 0.00045156 0.0073877
0.22496 0.091042 0.0055365 0.0031765
-7.4039e-05 -5.4412e-05 -0.00063694 0.00039689 -0.0017391 9.5776e-05 -0.0015886 -0.0017828
0.0055212 0.0031787 0.27092 0.10568
1880000000 0.21732 -0.14284 0.0023011 0.00059319 -6.3338e-05 0.002183 -0.0028841 -0.0023782
-0.00015288 0.0016155 0.0004178 -0.00050313
0.0023051 0.00059318 0.26107 0.12933 -0.0039035 0.0029383 -0.00026076 0.0018326
0.00057898 0.0013676 6.7121e-05 0.00092571
-7.4084e-05 0.002185 -0.0038889 0.002977 0.104 -0.25094 0.0019418 -0.0011793
0.0017456 0.0019891 -0.0011178 0.0014334
-0.002881 -0.0023888 -0.00024994 0.0018557 0.0019601 -0.0011562 0.16658 -0.13779
0.0015382 0.0053931 -0.0023084 0.00028668
-0.00013054 0.0016415 0.00059397 0.0013581 0.0017469 0.0020081 0.001554 0.0053765
0.23178 0.063394 0.0058558 0.001042
0.00044415 -0.00047851 7.3917e-05 0.00095147 -0.0010891 0.0014238 -0.002241 0.00029414
0.0058952 0.0010121 0.27238 0.072443
1940000000 0.17908 -0.16991 0.0002323 -0.0011221 0.0019194 0.0018826 -0.0038396 0.00027228
0.0012016 0.00089766 -0.00060168 -0.00069822
0.00022992 -0.0011258 0.26327 0.097516 -0.0018738 0.0058867 0.0012117 0.0014459
0.0020004 0.00045001 0.00089138 0.00030893
0.0019436 0.0018531 -0.0018385 0.0059013 0.060475 -0.24328 0.00070754 -0.002325
0.002274 0.00039356 0.00027277 0.001803
-0.0038183 0.00034746 0.0012088 0.0014234 0.00071377 -0.0023365 0.1143 -0.16935
0.00088886 0.0037246 -0.0015462 0.001465
0.0011849 0.00090237 0.0020121 0.0004257 0.0022998 0.00037443 0.00085069 0.0037387
0.23929 0.026992 0.0042591 -0.002953
-0.0006442 -0.00066354 0.00090876 0.0003038 0.00027532 0.0018135 -0.0015788 0.0014254
0.0042005 -0.0029173 0.26317 0.036012
2000000000 0.13251 -0.18459 -0.0035176 0.00095025 0.0028704 0.0010904 -0.0024785 0.0037818
0.00075548 0.00032763 -0.00087415 0.00042984
-0.0035007 0.00092868 0.24939 0.062106 -0.0004352 0.0078446 0.0017022 0.00027988
0.0012505 -0.0013715 0.00039072 6.4955e-05
0.0028787 0.0010642 -0.00037857 0.0078522 0.018821 -0.22871 -0.0015987 -0.001535
0.0020237 -0.0010801 0.0017833 0.0014777
-0.002467 0.0037675 0.0016967 0.00025157 -0.0016048 -0.0015452 0.060189 -0.17895
-0.00076826 0.0033195 -0.00016301 0.0021113
0.00076318 0.00033512 0.001233 -0.0013966 0.0020255 -0.0010781 -0.00072208 0.0032731
0.23775 -0.0050725 0.00071849 -0.0038353
