!Keysight Technologies,M9804A,MY58100912,A.14.10.03
!Date: Thursday, April 27, 2023 10:28:33
!Correction: S11(C  6-Port  ) 
!S12(C  6-Port  ) 
!S13(C  6-Port  ) 
!S14(C  6-Port  ) 
!S15(C  6-Port  ) 
!S16(C  6-Port  ) 
!S21(C  6-Port  ) 
!S22(C  6-Port  ) 
!S23(C  6-Port  ) 
!S24(C  6-Port  ) 
!S25(C  6-Port  ) 
!S26(C  6-Port  ) 
!S31(C  6-Port  ) 
!S32(C  6-Port  ) 
!S33(C  6-Port  ) 
!S34(C  6-Port  ) 
!S35(C  6-Port  ) 
!S36(C  6-Port  ) 
!S41(C  6-Port  ) 
!S42(C  6-Port  ) 
!S43(C  6-Port  ) 
!S44(C  6-Port  ) 
!S45(C  6-Port  ) 
!S46(C  6-Port  ) 
!S51(C  6-Port  ) 
!S52(C  6-Port  ) 
!S53(C  6-Port  ) 
!S54(C  6-Port  ) 
!S55(C  6-Port  ) 
!S56(C  6-Port  ) 
!S61(C  6-Port  ) 
!S62(C  6-Port  ) 
!S63(C  6-Port  ) 
!S64(C  6-Port  ) 
!S65(C  6-Port  ) 
!S66(C  6-Port  ) 
!S6P File: Measurement: :
# Hz S  RI   R 50
500000000 -0.32885 -0.063398 -0.011803 -0.0013338 -0.0088755 0.01154 -0.0031723 0.013719
0.013235 0.0072257 -0.0026197 0.0091057
-0.011695 -0.0012551 -0.40838 -0.072423 0.0080377 -0.011521 0.0012886 0.012483
0.009339 0.0034641 0.0016192 0.01377
-0.0089612 0.011413 0.0079344 -0.011566 -0.25389 0.19357 0.0074799 0.0028365
-0.0020674 0.0072572 0.001553 0.011141
-0.0040932 0.014443 0.0010335 0.012861 0.0076026 0.0028859 -0.3277 0.043652
-0.019306 -0.0050377 0.015077 0.02739
0.013163 0.0069064 0.0091729 0.0032745 -0.0019212 0.0072372 -0.019434 -0.0048053
-0.20724 -0.25684 -0.028493 0.0045656
-0.0036074 0.011184 0.0014668 0.014583 0.0017665 0.010952 0.015242 0.026824
-0.028623 0.0051283 -0.25538 -0.14819
560000000 -0.31155 0.10806 -0.019324 -0.067842 9.695e-05 0.0133 0.0063466 0.009555
0.0093097 0.0044486 0.011318 0.0084725
-0.019441 -0.067871 -0.36973 0.088338 -0.04022 -0.038799 0.013137 0.0026548
-0.015806 -0.0061515 0.0035692 -0.0012383
0.00057163 0.013359 -0.04033 -0.039338 -0.17934 0.24193 -0.00083333 -0.0043902
0.018286 0.0058984 0.0082151 -0.0067383
0.0071354 0.0097859 0.013652 0.0023113 -0.0010599 -0.0042963 -0.30283 0.13433
0.0078338 -0.023109 0.0054242 -0.02168
0.0096798 0.0027112 -0.016167 -0.0067116 0.0184 0.0064138 0.0076814 -0.023081
-0.2974 -0.072886 0.010697 -0.052698
0.011391 0.0079213 0.0032128 -0.0019025 0.0080647 -0.0059569 0.0051941 -0.021374
0.011215 -0.053285 -0.32636 0.0012607
620000000 -0.27472 0.082966 -0.023223 0.0088172 0.0029706 0.0093385 0.0081492 -0.002577
0.012388 -0.0017694 0.0012042 -0.002092
-0.023211 0.0087888 -0.39826 0.03565 -0.019338 0.0003713 -0.0014199 -0.0018257
0.012357 -0.0054102 0.00090144 -0.003806
0.0030412 0.0094434 -0.019424 0.00033002 -0.15345 0.25073 -0.0016925 -0.0050271
-0.0039279 -0.0022308 0.0088052 -0.0033913
0.0073465 -0.0031019 -0.0016349 -0.0019302 -0.0018945 -0.0054281 -0.2617 0.14204
-0.040376 -0.020234 0.012673 0.028667
0.013529 -0.00073909 0.01254 -0.0054153 -0.0039732 -0.0019073 -0.040301 -0.020197
-0.20866 -0.11223 -0.045928 0.013055
-7.7956e-05 -0.0014849 0.00077302 -0.0034564 0.0085687 -0.0033638 0.012486 0.028716
-0.04582 0.013426 -0.24096 -0.038023
680000000 -0.23938 0.17505 -0.026084 -0.015229 0.0051688 0.00517 0.0020661 -0.0085955
-0.002215 -0.011521 0.0042822 -0.0062436
-0.026064 -0.015243 -0.38937 0.138 -0.032834 -0.001617 -0.0018094 -0.00076021
-0.0010849 -0.009498 -0.0010543 -0.0016836
0.0051835 0.005103 -0.032859 -0.0015278 -0.10662 0.27454 -0.00068549 -5.2873e-05
-0.0013873 0.0010336 -0.0027404 -0.0093274
0.002214 -0.0081648 -0.0017409 -0.00050973 -0.0006789 0.00020808 -0.21728 0.19523
-0.023161 -0.0076992 -0.0088276 -0.01218
-0.0020205 -0.011605 -0.0011401 -0.0093111 -0.0014796 0.0010496 -0.023296 -0.0076322
-0.28593 -0.0092962 -0.0055187 -0.0078461
0.004743 -0.0072309 -0.00068235 -0.0017049 -0.0023738 -0.0088979 -0.0084244 -0.012321
-0.0054867 -0.0077434 -0.26096 0.067796
740000000 -0.19419 0.16886 -0.041256 0.026889 0.013053 -0.0033985 -0.00027309 -0.0033434
-0.0039234 -0.002761 -0.0064328 0.0034467
-0.041216 0.026851 -0.33539 0.15677 -0.037099 0.034649 0.0001157 -0.005591
-0.014212 0.00657 -0.00029582 -0.006012
0.012975 -0.0035081 -0.036963 0.034717 -0.073694 0.27502 -0.001925 0.003369
-0.0010133 -0.0059536 -0.0019473 0.0016722
-0.00038533 -0.0036593 -4.9394e-05 -0.005948 -0.0017728 0.003161 -0.20133 0.20077
-0.04372 -0.010997 0.022223 0.017185
-0.0036611 -0.0020308 -0.014355 0.0069502 -0.00083058 -0.0058927 -0.043626 -0.011046
-0.18173 0.031132 -0.045289 -0.0020808
-0.0069992 0.0033916 -0.00081251 -0.0057391 -0.0021729 0.00072966 0.022354 0.016939
-0.045024 -0.0023818 -0.25295 0.072158
800000000 -0.16647 0.21359 -0.023059 0.016392 0.0054586 -0.010227 -0.0043188 -0.0028804
-0.0045565 0.0014104 0.0036894 0.00023149
-0.023039 0.016389 -0.34514 0.22913 -0.0085873 0.034692 -0.0020983 0.0020401
-0.00029408 0.0020938 0.00067034 0.0053695
0.0054865 -0.010233 -0.0084758 0.034731 -0.034972 0.30154 0.0012354 0.0010693
-5.1992e-05 0.0032124 -0.0019327 0.00035708
-0.0042966 -0.002573 -0.0019967 0.002173 0.001191 0.001244 -0.17341 0.22915
-0.030119 0.013087 0.014896 -0.010267
-0.0042441 0.00138 -0.00014638 0.0021302 -0.00013455 0.0032053 -0.030097 0.013083
-0.24048 0.053103 -0.0198 0.021758
0.00422 -0.00010845 0.00099514 0.0052106 -0.0011628 0.00071455 0.01502 -0.010224
-0.019938 0.021842 -0.25017 0.12409
860000000 -0.13082 0.23542 -0.018444 0.031028 -0.0035081 -0.009763 -0.0024938 0.00061988
0.003916 0.0050373 -0.0035651 -0.0031448
-0.018419 0.031027 -0.29691 0.27473 0.0079076 0.034646 0.00027464 0.0024997
0.0038589 -0.00014062 0.0037533 -0.00069173
-0.0035344 -0.0097544 0.0079996 0.034638 0.014466 0.312 -0.00056474 -0.00054388
0.0025795 -0.0017327 0.0016049 0.0042532
-0.00232 0.00039048 0.00016066 0.0023263 -0.00044453 -0.00057949 -0.1362 0.24107
-0.019206 0.017859 -0.0061898 -0.0096934
0.0038695 0.0049401 0.0038661 3.0682e-05 0.002624 -0.0016687 -0.019257 0.017962
-0.18566 0.11923 -0.027868 0.014721
-0.0046334 -0.0032273 0.0035758 -0.0002279 0.0013116 0.0039797 -0.0061672 -0.010065
-0.027214 0.014813 -0.19945 0.17452
920000000 -0.10859 0.25856 0.0045006 0.040082 -0.0093815 -0.0042228 -0.0015059 0.0021064
0.00025922 0.0013248 0.0030396 -0.0014043
0.0044889 0.040046 -0.27044 0.29612 0.028373 0.022878 0.0013028 0.0007062
0.0068612 -5.5536e-05 0.0038815 -0.0029693
-0.0093913 -0.0041924 0.028506 0.022813 0.061132 0.3133 0.0017344 -3.252e-05
0.00060402 -0.000288 0.00086654 -0.0014222
-0.0016928 0.0021992 0.0015004 0.0008799 0.0016928 3.1928e-05 -0.11334 0.25818
-0.013147 0.031758 0.0043556 -0.0063863
0.00048602 0.0015322 0.0072911 -0.00017125 0.00063712 -0.00024402 -0.012945 0.031817
-0.18055 0.12141 -0.0033665 0.030286
0.0032353 -0.0014762 0.0040216 -0.0031468 0.001017 -0.0012897 0.0041943 -0.00629
-0.0035998 0.030212 -0.21136 0.18596
980000000 -0.061569 0.28156 0.017308 0.030738 -0.0091307 0.0048481 0.0020045 0.0033108
0.0039649 -0.0012826 -0.0036479 -0.0024567
0.017281 0.030711 -0.21864 0.33462 0.033321 0.004932 0.0017988 -0.00016436
0.0019649 -0.005965 -0.00031566 -0.0025268
-0.0091411 0.0048994 0.033379 0.0048293 0.10803 0.3087 0.0003292 -0.0011414
0.00030189 -0.0016972 0.0015232 -0.00028244
0.0020756 0.0032834 0.0018089 -0.0003811 0.00042266 -0.0011853 -0.073899 0.27064
0.0071162 0.03204 -0.0096598 -0.008325
0.0038272 -0.0014693 0.0016281 -0.0058236 0.00027842 -0.0016839 0.0070508 0.031863
-0.15167 0.16238 0.0050115 0.021456
-0.0037682 -0.0029048 -0.00075289 -0.002511 0.0014147 -0.00041534 -0.0094565 -0.0085458
0.0051769 0.021512 -0.17002 0.23744
1040000000 -0.019959 0.28963 0.033647 0.019841 -0.00072097 0.0075878 0.0026155 0.00088672
0.00013461 -0.0035101 0.00010349 -0.0018339
0.033601 0.019822 -0.18256 0.34828 0.029604 -0.014798 0.001455 -0.0019578
-0.0025256 -0.0021969 -0.0011005 -0.0029023
-0.00071515 0.0075543 0.029627 -0.01493 0.15556 0.29458 -0.0005512 -0.001436
-0.0014819 -0.00092393 -0.00059147 -0.0011905
0.0024805 0.00080451 0.0015972 -0.0018669 -0.00058591 -0.0014205 -0.045985 0.27972
0.019706 0.020681 -0.0019796 0.0013241
0.000419 -0.0032278 -0.0025037 -0.0022085 -0.0015644 -0.00094689 0.019813 0.020652
-0.11848 0.17068 0.013654 0.021676
0.00025667 -0.0012388 -0.0011345 -0.0029743 -0.00063206 -0.0011209 -0.0021558 0.001349
0.013672 0.021646 -0.14843 0.25763
1100000000 0.024398 0.30098 0.037206 -0.0031244 0.003679 0.0040413 0.0024824 -0.0012063
-0.0024788 -0.0030463 -0.0044488 0.0001354
0.037188 -0.0031153 -0.13997 0.369 0.014999 -0.02791 -0.00020652 -0.0018113
-0.0033384 -0.00096862 -0.0038023 -0.00048599
0.0036866 0.0040258 0.01491 -0.027995 0.20152 0.27503 -0.0017963 0.00035219
-0.0017902 0.00062556 -0.0011295 -0.00054553
0.0024861 -0.0011245 -0.00021668 -0.0018304 -0.0017777 0.00035197 -0.0056909 0.28522
0.026153 0.0070885 -0.002342 -0.00037786
-0.0024805 -0.0030752 -0.0034158 -0.00084395 -0.0017769 0.00066681 0.026222 0.0069771
-0.1027 0.18954 0.02033 0.011201
-0.0042592 -0.0002515 -0.0037545 -0.00064557 -0.0011801 -0.00060127 -0.0022904 -0.0003368
0.020191 0.011125 -0.10458 0.29102
1160000000 0.076802 0.2975 0.025195 -0.020521 0.0035163 -0.00083505 -0.00038557 -0.002562
-0.0042565 -0.00090146 -0.00089578 0.0042347
0.025184 -0.020508 -0.093888 0.37426 -0.0041327 -0.028721 -0.0017589 -0.0013808
-0.0027618 0.002539 -0.0015127 0.0019578
0.0035081 -0.00085542 -0.0042371 -0.028743 0.24628 0.24428 -0.00052616 0.0016215
-0.00046848 0.0018261 -0.0010939 0.00043552
-0.00026482 -0.0026 -0.0017182 -0.0014035 -0.0005415 0.0016409 0.035224 0.2817
0.023597 -0.010309 -0.0036928 0.0052995
-0.0041821 -0.00097531 -0.0027495 0.0025078 -0.00043538 0.001794 0.023623 -0.010338
-0.065813 0.20282 0.01977 0.0014808
-0.0010903 0.0045023 -0.0014465 0.0021154 -0.0010563 0.0003258 -0.0038653 0.0053185
0.01964 0.0014554 -0.055109 0.29546
1220000000 0.12002 0.28767 0.01197 -0.030344 -0.001059 -0.0016727 4.9648e-05 -0.00078301
-0.0028294 0.0023312 0.0010298 0.0019674
0.012001 -0.030305 -0.050072 0.38779 -0.017078 -0.020753 -0.002445 0.00066829
-5.7192e-05 0.0030155 -0.00085657 0.0019938
-0.0010724 -0.0016697 -0.01719 -0.020701 0.2851 0.20453 0.00086738 0.0013928
0.00045598 0.0011142 0.00018014 0.00067592
-0.00012972 -0.00075083 -0.0024798 0.00072385 0.00091785 0.0013575 0.07436 0.2723
0.012355 -0.017685 0.002039 0.001309
-0.0028312 0.0021923 -0.00013348 0.0030365 0.00049258 0.0011908 0.012277 -0.017695
-0.045152 0.21545 0.015879 -0.012492
0.0012937 0.0019509 -0.00076534 0.001986 4.874e-05 0.00068068 0.0021148 0.0013711
0.015838 -0.012476 -0.026449 0.31422
1280000000 0.17122 0.26868 -0.007113 -0.029619 -0.0019292 0.0015269 -0.00097679 -0.0021317
-0.00091361 0.0032514 0.0025358 0.00145
-0.00711 -0.029614 -0.0026016 0.38013 -0.023824 -0.0075578 -0.00075713 0.001375
0.0015278 0.0017144 0.0006677 0.002136
-0.0019346 0.0015357 -0.023876 -0.0074589 0.316 0.16147 0.0013955 -0.00020238
0.0010464 0.00045515 0.00011183 0.00031101
-0.00088978 -0.0020537 -0.00067256 0.0014305 0.0013753 -0.00021238 0.11128 0.2561
0.0022266 -0.02083 -0.0004859 0.00013659
-0.00079186 0.003271 0.0017 0.001714 0.0010775 0.00037258 0.0022024 -0.020836
-0.0078215 0.22368 0.0040326 -0.015711
0.0023016 0.0013206 0.0005849 0.0020073 0.00022242 0.00035889 -0.00055686 -4.2169e-05
0.0040183 -0.015738 0.022373 0.31958
1340000000 0.20902 0.23492 -0.01717 -0.020059 0.00026333 0.0039889 -0.0017464 -0.00060353
0.0014483 0.0031145 0.0018003 -0.0014935
-0.017121 -0.020047 0.037469 0.37177 -0.020548 0.0049352 -6.6647e-05 0.0019689
0.0017821 0.0010345 0.0011834 0.0007861
0.00027673 0.003964 -0.020549 0.0050523 0.33884 0.11237 0.00079088 -0.00086673
0.00071692 -0.00043297 0.00015775 0.00043615
-0.0017823 -0.00065313 -0.00010876 0.0019562 0.00080617 -0.00081463 0.14368 0.23441
-0.0082358 -0.018215 0.000876 0.00049955
0.0014074 0.0030296 0.0017172 0.00095626 0.00070341 -0.00047788 -0.0082876 -0.018234
0.021901 0.22188 -0.0026936 -0.014494
0.0019091 -0.001425 0.0013481 0.00070423 0.00023531 0.00036114 0.00087197 0.00054738
-0.0026255 -0.014485 0.061391 0.31547
1400000000 0.24272 0.19833 -0.023834 -0.0087312 0.0045809 0.0029881 -0.0020267 0.00072072
0.0027003 0.00089195 0.00037185 -0.0013674
-0.023802 -0.0087404 0.074806 0.35963 -0.013647 0.012546 0.0012842 0.0012131
0.0012035 -0.00060097 0.0011781 0.00018857
0.0045708 0.0029712 -0.013619 0.012607 0.35138 0.058475 -8.0928e-05 -0.0012913
0.00032069 -0.00022256 0.00049671 0.00018535
-0.0020216 0.00077523 0.0013698 0.001276 -4.0008e-05 -0.0013453 0.17201 0.20607
-0.015317 -0.011238 -0.0011425 -0.0003689
0.0027421 0.0009155 0.0012627 -0.00047501 0.00031824 -0.00016235 -0.015322 -0.011262
0.055336 0.22195 -0.0099513 -0.0094613
0.00026767 -0.0013545 0.0011148 0.00021459 0.00035343 0.00022242 -0.0009985 -0.00026369
-0.010031 -0.0095058 0.10621 0.30713
1460000000 0.26707 0.15495 -0.021145 0.0042148 0.0049331 -0.0016175 -0.0015249 0.001525
0.0021746 -0.00042045 -0.00025295 -0.00086104
-0.021107 0.0042118 0.11009 0.33771 -0.004773 0.014742 0.0016223 0.00027735
0.0012278 -0.0012764 0.0012039 -0.00055134
0.0049326 -0.0016285 -0.0046841 0.014763 0.35787 0.0035487 -0.0010509 -0.0010802
0.00038004 -0.00026115 0.00071719 -0.00031224
-0.0014815 0.0015919 0.0015821 0.00023863 -0.001079 -0.0010947 0.19892 0.17751
-0.01655 -0.0037748 -0.001046 0.0023403
0.002276 -0.00038262 0.0011189 -0.0013896 0.00032472 -0.00034062 -0.016656 -0.0036958
0.086407 0.21081 -0.012244 -0.0033882
-0.0001682 -0.00093963 0.0011865 -0.00063652 0.00081014 -0.00037771 -0.0011382 0.002163
-0.012144 -0.0033507 0.14116 0.28706
1520000000 0.2793 0.11317 -0.015661 0.00997 0.0029699 -0.0037965 0.00011633 0.0026314
0.0026038 -0.0018184 -0.0010336 -0.0002561
-0.015654 0.0099379 0.14344 0.32309 0.002409 0.011798 0.0016783 -0.00066045
0.00025944 -0.0010594 0.00035205 -0.00098771
0.0029601 -0.0038096 0.0024693 0.011794 0.34977 -0.054555 -0.00078081 -0.00034632
0.00063172 -0.00107 0.00019505 -7.055e-05
0.00012071 0.0025571 0.0016896 -0.0006465 -0.00076474 -0.00034541 0.22145 0.13917
-0.016367 0.0024196 0.0015679 0.002201
0.002533 -0.0018594 0.00024486 -0.0010501 0.00057581 -0.0010808 -0.016342 0.0024722
0.11341 0.20081 -0.011979 0.0012845
-0.0010853 -0.00020559 0.0002976 -0.0010021 0.0001843 -0.00011437 0.0014247 0.0022654
-0.011959 0.0013064 0.17415 0.26815
1580000000 0.28951 0.06851 -0.0089439 0.013818 -0.0012355 -0.0042904 0.0015373 0.0019096
-0.00010552 -0.0024197 -0.0003082 0.0003358
-0.0089561 0.013796 0.17077 0.29948 0.0052445 0.0066741 0.00061111 -0.0015783
-0.00047317 -0.0012572 -0.00026913 -0.00069232
-0.00126 -0.004273 0.0052953 0.0066557 0.32786 -0.11073 -0.0014228 0.00021058
-0.00045831 -0.0014018 0.00026496 -0.00060392
0.0015052 0.0018976 0.00060497 -0.0015851 -0.0014181 0.00021277 0.23555 0.10106
-0.012436 0.0080866 0.0022433 0.0008247
-6.7757e-05 -0.0023189 -0.00042639 -0.0013061 -0.00043465 -0.0013624 -0.012392 0.0080254
0.13954 0.18726 -0.0094063 0.0078018
-0.0002839 0.00034608 -0.00024531 -0.00064879 0.00019033 -0.00058723 0.0024254 0.00094208
-0.0093971 0.0077922 0.20799 0.24389
1640000000 0.2927 0.027098 -0.0017955 0.012767 -0.0026628 -0.0019248 0.0027166 0.00093869
-0.00057476 -0.0018273 -0.00032412 0.00050673
-0.0018116 0.012759 0.2014 0.27445 0.0051529 0.0020568 -0.00049994 -0.0019043
-0.0010696 -0.00062729 -0.00040872 -0.00063067
-0.0026814 -0.0019191 0.0051685 0.0020132 0.29855 -0.16028 -0.00082781 0.0012452
-0.0012368 -0.0010883 -0.00018256 -0.00052909
0.0027793 0.00097793 -0.00052489 -0.00185 -0.00084058 0.0011835 0.24877 0.051814
-0.0079535 0.0094406 0.0026251 -0.00066524
-0.00060709 -0.0018864 -0.0010484 -0.00057447 -0.0011968 -0.0011672 -0.0080326 0.0094951
0.16344 0.16684 -0.0042795 0.0099991
-0.00034514 0.00045828 -0.00045677 -0.00065574 -0.00016061 -0.00035461 0.0027065 -0.00078293
-0.0042482 0.0099376 0.23512 0.21285
1700000000 0.28554 -0.017262 0.0019292 0.010016 -0.0030397 0.00055065 0.0030369 -0.0012413
-0.002279 -0.0007835 0.00048409 0.00050073
0.0019236 0.0099981 0.21882 0.24383 0.0025381 -0.00031359 -0.0014974 -0.00065247
-0.00093153 -6.6069e-05 -0.00081635 -0.00039913
-0.0030316 0.00055519 0.0025441 -0.00032203 0.25336 -0.19784 9.9227e-05 0.0017428
-0.0022765 -0.00010132 -0.00037483 -0.00087631
0.0029988 -0.0012704 -0.0015171 -0.00067224 3.0565e-05 0.0017692 0.24526 0.0022289
-0.0049468 0.010206 0.0017285 -0.0020618
-0.0023077 -0.00073079 -0.00090541 -8.8666e-05 -0.0023691 -8.5126e-05 -0.004829 0.010278
0.18226 0.15103 0.00069665 0.0097654
0.00049122 0.00051827 -0.00082163 -0.00031657 -0.00026395 -0.00095102 0.0015698 -0.0020997
0.00067617 0.0097455 0.25222 0.17962
1760000000 0.27569 -0.065551 0.0044291 0.0066165 -0.0019063 0.0011246 0.0012412 -0.0033245
-0.0013055 0.00058815 0.00027825 -0.0006133
0.0044178 0.0066211 0.24639 0.20485 -2.0106e-05 -0.0015531 -0.0012821 0.00010261
-0.0010861 0.0010506 -0.00034728 0.00038618
-0.0019011 0.0011546 -2.6037e-05 -0.0015536 0.20539 -0.22952 0.0011964 0.001445
-0.0011433 0.0016192 -0.0012457 -0.00078148
0.0012722 -0.0033473 -0.0013061 8.6059e-05 0.0012592 0.0014161 0.238 -0.048881
-0.0011654 0.0096634 2.3076e-05 -0.0025706
-0.0012986 0.00057437 -0.0011266 0.001117 -0.0010155 0.0016125 -0.0011004 0.0095816
0.20018 0.12135 0.0047079 0.0070934
0.00029804 -0.00049071 -0.000397 0.00039973 -0.0013247 -0.00058437 1.6325e-05 -0.0024197
0.0047359 0.0070533 0.26666 0.14291
1820000000 0.25162 -0.1037 0.0047754 0.0029581 0.00037732 0.0022161 -0.00088953 -0.0030541
-0.001283 0.0010022 -3.0312e-05 -6.1022e-05
0.0047692 0.0029625 0.25656 0.17457 -0.0020051 0.00032224 -0.0013884 0.0010528
6.8254e-05 0.0012643 -0.00059391 0.00036367
0.00036772 0.0021933 -0.0019909 0.00034125 0.15487 -0.24427 0.0017827 0.00060809
-0.00012728 0.0025145 -0.0019429 0.0002719
-0.00094732 -0.0030517 -0.0013992 0.0010786 0.0018413 0.0004933 0.20756 -0.096992
0.00075507 0.0083194 -0.0017202 -0.0017548
-0.0012489 0.0010194 0.00015187 0.0012755 -0.00012096 0.0022757 0.00067969 0.0083578
0.2208 0.095258 0.005848 0.0031879
-6.902e-05 -0.00016396 -0.00060077 0.00039358 -0.0018218 0.0003326 -0.0016056 -0.0017724
0.0057972 0.0032714 0.27049 0.10681
1880000000 0.21675 -0.14357 0.0025104 0.00068986 -0.00023264 0.0020798 -0.002881 -0.0024156
-0.00014587 0.0018632 0.0004629 -0.00071968
0.0025084 0.00069143 0.26147 0.1293 -0.0037434 0.0029783 -0.00025198 0.0017844
0.00064922 0.0012587 0.0001768 0.00085331
-0.00020894 0.0021035 -0.0037175 0.0030215 0.10317 -0.2513 0.0021048 -0.0013346
0.0018036 0.0018632 -0.00089609 0.0014863
-0.0029346 -0.0023118 -0.00022711 0.0017562 0.002065 -0.0012056 0.16786 -0.13702
0.002346 0.0058423 -0.0025442 0.00030026
-0.00014606 0.0019159 0.00066383 0.0012607 0.0018994 0.0020078 0.0023849 0.0059635
0.22873 0.068511 0.005905 0.00097394
0.00031801 -0.00081585 0.00013393 0.00082842 -0.0010013 0.0013997 -0.0023853 -8.1285e-06
0.0059113 0.00096136 0.27173 0.074372
1940000000 0.17868 -0.17071 0.00042177 -0.0010625 0.0017748 0.001696 -0.0039158 0.0003
0.001242 0.0008428 -0.00082137 -0.0006763
0.00042668 -0.0010653 0.26389 0.097219 -0.0017588 0.0058006 0.0010363 0.0013917
0.0019258 0.00020421 0.00079415 0.00018434
0.0017741 0.0016822 -0.0017255 0.0058383 0.059457 -0.24349 0.00033636 -0.0024478
0.0022277 1.1653e-05 0.00020554 0.001761
-0.003873 0.0001691 0.0010162 0.0012305 0.00031053 -0.0025157 0.11595 -0.17003
0.0018392 0.0040647 -0.0013387 0.0012995
0.0012229 0.00077343 0.0018592 0.00021157 0.0021788 5.274e-05 0.0020169 0.0040026
0.23764 0.032286 0.0044937 -0.0032674
-0.00073017 -0.00060946 0.00085661 0.00013615 0.00032337 0.0015757 -0.0014745 0.0016149
0.0045426 -0.0032941 0.26305 0.037197
2000000000 0.13157 -0.18553 -0.0031001 0.00072495 0.0029042 0.0010433 -0.0024827 0.003513
0.00085476 0.0003731 -0.00076705 0.00068463
-0.0031043 0.00071285 0.25006 0.061771 -0.00024042 0.0078182 0.0017045 0.00020665
0.0010012 -0.0013144 0.00031911 3.8033e-05
0.002945 0.0010436 -0.0001695 0.0078139 0.017658 -0.22872 -0.0019332 -0.001436
0.0019184 -0.00098809 0.0014771 0.0014418
-0.0024976 0.0036972 0.0016768 0.00034705 -0.0018543 -0.0016314 0.060283 -0.17996
0.00046168 0.0035014 -9.6319e-05 0.0020509
0.00087654 0.00039261 0.0010806 -0.0012642 0.0018818 -0.0012352 0.00018443 0.0032404
0.2371 0.00052 0.00068793 -0.0040903
