!Keysight Technologies,M9804A,MY58100912,A.14.10.03
!Date: Thursday, April 27, 2023 10:28:33
!Correction: S11(C  6-Port  ) 
!S12(C  6-Port  ) 
!S13(C  6-Port  ) 
!S14(C  6-Port  ) 
!S15(C  6-Port  ) 
!S16(C  6-Port  ) 
!S21(C  6-Port  ) 
!S22(C  6-Port  ) 
!S23(C  6-Port  ) 
!S24(C  6-Port  ) 
!S25(C  6-Port  ) 
!S26(C  6-Port  ) 
!S31(C  6-Port  ) 
!S32(C  6-Port  ) 
!S33(C  6-Port  ) 
!S34(C  6-Port  ) 
!S35(C  6-Port  ) 
!S36(C  6-Port  ) 
!S41(C  6-Port  ) 
!S42(C  6-Port  ) 
!S43(C  6-Port  ) 
!S44(C  6-Port  ) 
!S45(C  6-Port  ) 
!S46(C  6-Port  ) 
!S51(C  6-Port  ) 
!S52(C  6-Port  ) 
!S53(C  6-Port  ) 
!S54(C  6-Port  ) 
!S55(C  6-Port  ) 
!S56(C  6-Port  ) 
!S61(C  6-Port  ) 
!S62(C  6-Port  ) 
!S63(C  6-Port  ) 
!S64(C  6-Port  ) 
!S65(C  6-Port  ) 
!S66(C  6-Port  ) 
!S6P File: Measurement: :
# Hz S  RI   R 50
500000000 -0.33122 -0.066813 -0.010276 -0.00033681 -0.0087329 0.01388 -0.0038893 0.012001
0.0134 0.0051891 -0.0039693 0.0086952
-0.010244 -0.00033756 -0.41226 -0.076326 0.0080654 -0.010091 0.00071979 0.012582
0.008802 0.0029129 0.00073565 0.014416
-0.0087224 0.013833 0.0080612 -0.010095 -0.26471 0.18985 0.0066364 0.0038339
-0.0023056 0.009087 0.00045599 0.012738
-0.0039279 0.012131 0.00073725 0.012624 0.0066469 0.003823 -0.33077 0.038176
-0.020067 -0.0044333 0.015202 0.026549
0.013181 0.0055599 0.0085583 0.0027695 -0.0023488 0.0090073 -0.02003 -0.0045339
-0.2301 -0.22416 -0.027552 0.0050036
-0.0039556 0.0086176 0.00085942 0.014209 0.00080329 0.012719 0.015201 0.027585
-0.028277 0.0040314 -0.26676 -0.14405
560000000 -0.32117 0.10139 -0.022062 -0.066749 0.00017505 0.013754 0.0042543 0.01206
0.010142 0.0053564 0.011088 0.0102
-0.022008 -0.066693 -0.37381 0.091413 -0.041586 -0.038838 0.014271 0.0042019
-0.01202 -0.0055229 0.0040679 0.0002732
0.00023839 0.013733 -0.041749 -0.038794 -0.18589 0.2429 5.2768e-05 -0.0046373
0.018978 0.0074324 0.0076142 -0.0049475
0.0042993 0.012118 0.014317 0.0041658 7.0371e-05 -0.0046514 -0.30806 0.1304
0.0058092 -0.023467 0.0058067 -0.021972
0.010356 0.0052726 -0.012743 -0.0053514 0.019082 0.0071608 0.0055639 -0.022887
-0.3093 -0.042848 0.0099511 -0.051961
0.010473 0.0097364 0.0043763 0.00012229 0.0075738 -0.0048088 0.0050085 -0.021998
0.012635 -0.051443 -0.33244 0.010888
620000000 -0.2792 0.080991 -0.023592 0.0098613 0.0039354 0.0095828 0.0084097 -0.0047352
0.012154 -0.00080853 -0.00051546 -0.0026111
-0.023563 0.0098619 -0.40259 0.036754 -0.018075 0.00064037 -0.0017589 -0.0022861
0.012837 -0.0052133 0.0007996 -0.0032022
0.0039331 0.0095696 -0.018102 0.00069848 -0.15739 0.25232 -0.00082122 -0.0052467
-0.0030142 -0.0026618 0.0092808 -0.0037397
0.0083581 -0.0048126 -0.0017794 -0.0022672 -0.00082679 -0.0052593 -0.26453 0.14051
-0.038687 -0.019721 0.01357 0.027567
0.012155 -0.0010419 0.01322 -0.0051702 -0.0028991 -0.0028356 -0.039315 -0.02036
-0.22505 -0.077014 -0.043906 0.013415
0.00020103 -0.0022715 0.00090761 -0.0032002 0.0091709 -0.0031879 0.013202 0.028563
-0.042546 0.013207 -0.24785 -0.028814
680000000 -0.24511 0.17629 -0.026232 -0.014755 0.0046237 0.0056128 0.0014565 -0.0071232
-0.001596 -0.011484 0.0059178 -0.0064103
-0.026206 -0.014735 -0.39134 0.13942 -0.032015 -0.0027985 -0.0017316 -0.0005719
-0.0013179 -0.0098961 -0.00088506 -0.0021982
0.0047049 0.0055932 -0.03203 -0.0027241 -0.10729 0.27425 -0.0010893 -0.00030096
-0.0010956 -9.1721e-05 -0.0027305 -0.0091305
0.0016131 -0.0071474 -0.0017262 -0.00056358 -0.0010912 -0.0003027 -0.22123 0.19365
-0.022887 -0.0065439 -0.0093453 -0.011401
-0.0012529 -0.011578 -0.0011298 -0.0097102 -0.0010472 7.1605e-05 -0.023182 -0.0070743
-0.28402 0.027555 -0.0070745 -0.0075491
0.0061577 -0.0065423 -0.00043779 -0.0023439 -0.0025169 -0.0091982 -0.0097574 -0.011172
-0.0065145 -0.0062007 -0.26389 0.077571
740000000 -0.19712 0.16817 -0.039817 0.027218 0.014144 -0.004234 0.00062003 -0.0042548
-0.0046333 -0.0021435 -0.0068466 0.0025612
-0.039782 0.027161 -0.33763 0.1587 -0.037792 0.034199 -0.00022158 -0.006373
-0.013719 0.0067255 -0.00087936 -0.0058647
0.014159 -0.0042451 -0.037733 0.034308 -0.074253 0.27222 -0.0022955 0.0034273
-0.0018388 -0.0060414 -0.0024754 0.0010284
0.00064329 -0.0043032 -0.00025343 -0.0063662 -0.0023062 0.0034368 -0.20433 0.20031
-0.042942 -0.0089068 0.022879 0.016491
-0.0044996 -0.001915 -0.013136 0.0065914 -0.0017797 -0.0058165 -0.042391 -0.0089447
-0.18178 0.060073 -0.043458 0.00097538
-0.0062996 0.0029928 -0.0015462 -0.0066537 -0.0021371 0.00095669 0.022792 0.016089
-0.043713 0.0011074 -0.25381 0.083912
800000000 -0.16624 0.21503 -0.022167 0.015888 0.006109 -0.010515 -0.0043485 -0.0025376
-0.0044514 0.0014172 0.0043044 0.00048462
-0.022139 0.015875 -0.34503 0.22949 -0.0091828 0.034087 -0.0021224 0.001982
-0.00085366 0.0022206 0.0010936 0.0052835
0.0060647 -0.010545 -0.0091175 0.034117 -0.03603 0.29779 0.00097312 0.0014547
-0.00010182 0.0033686 -0.0013319 0.00057568
-0.0043673 -0.0025677 -0.0021213 0.0019596 0.0009751 0.0014545 -0.1749 0.22824
-0.028389 0.013005 0.01482 -0.010481
-0.0045209 0.001568 -0.00090424 0.0022286 -6.0478e-05 0.0034204 -0.028426 0.013015
-0.22974 0.085428 -0.017331 0.020702
0.0041675 0.00037635 0.00088364 0.0053408 -0.0016289 0.00064522 0.015078 -0.010186
-0.017833 0.020466 -0.24675 0.13495
860000000 -0.13185 0.2347 -0.018161 0.029951 -0.0027941 -0.010488 -0.0020222 0.00018599
0.0038525 0.0055095 -0.004376 -0.0025416
-0.018172 0.029945 -0.298 0.27338 0.0068811 0.034754 8.5718e-05 0.0021792
0.0036785 0.0012124 0.0035868 0.00067422
-0.0028092 -0.010495 0.0070121 0.034727 0.011186 0.30758 -0.0004402 -0.00026422
0.0024897 -0.0012753 0.0015364 0.0041856
-0.0020091 0.00021357 0.00013554 0.0021938 -0.00043927 -0.00026688 -0.13863 0.23885
-0.017963 0.017591 -0.0069723 -0.0090223
0.0038722 0.0054435 0.0035458 0.0010163 0.0023955 -0.0013611 -0.018054 0.017524
-0.17329 0.14184 -0.026425 0.017266
-0.0040416 -0.0029798 0.0037906 0.0004545 0.0016629 0.0042685 -0.0067888 -0.0091629
-0.026732 0.017195 -0.19688 0.18093
920000000 -0.10912 0.25812 0.0044015 0.038674 -0.0093701 -0.0054263 -0.0020996 0.0013838
0.00054049 0.0018934 0.0033929 -0.0012956
0.004396 0.038693 -0.27137 0.2954 0.028104 0.023328 0.001315 0.0011766
0.0075134 0.00021405 0.0043196 -0.0025837
-0.0094023 -0.0053878 0.028212 0.023247 0.056817 0.31007 0.0019689 -2.9318e-05
0.00065548 -0.00025035 0.00085407 -0.0016566
-0.0020668 0.001394 0.0013158 0.0011605 0.0019665 -2.1825e-05 -0.11453 0.25596
-0.011668 0.030202 0.0046115 -0.0068093
0.00032267 0.0018302 0.0073293 8.4672e-05 0.00060298 -0.00026265 -0.011537 0.030152
-0.16575 0.14742 -0.0021939 0.027809
0.0032651 -0.0011199 0.0043279 -0.002596 0.00092783 -0.0016334 0.0047384 -0.0066616
-0.0022387 0.027721 -0.20522 0.19527
980000000 -0.063498 0.27918 0.015909 0.030422 -0.0098397 0.0042211 0.0013886 0.0037785
0.0040627 -0.0011261 -0.0033122 -0.0025793
0.015888 0.030433 -0.21927 0.33205 0.033382 0.0059837 0.00188 -7.415e-05
0.0020431 -0.0059675 -3.2542e-05 -0.0028
-0.0098304 0.0042364 0.033449 0.0058802 0.10289 0.30504 0.00059454 -0.0011888
0.00045416 -0.0018403 0.0012855 -0.0003629
0.0014308 0.0037851 0.001919 -9.0027e-05 0.00058458 -0.0011842 -0.076882 0.26673
0.0068922 0.030003 -0.009527 -0.0078948
0.0040265 -0.0013355 0.0020565 -0.0061005 0.00051611 -0.001817 0.0069335 0.029893
-0.13312 0.18086 0.005804 0.020391
-0.0034957 -0.0026215 -0.00034928 -0.0029631 0.0013133 -0.00037094 -0.0096525 -0.0077534
0.0056482 0.020743 -0.16442 0.24136
1040000000 -0.023191 0.28892 0.032902 0.019997 -0.0017309 0.0073135 0.0024789 0.00090696
0.00038887 -0.003248 -0.00027054 -0.0016997
0.032855 0.020034 -0.18486 0.34648 0.030418 -0.014153 0.0016424 -0.0017261
-0.0023057 -0.0026519 -0.0012369 -0.0032144
-0.0017048 0.0073275 0.030415 -0.014289 0.14902 0.29324 -0.00046877 -0.0015788
-0.0016569 -0.00099306 -0.00074857 -0.0010958
0.0024573 0.00093101 0.001638 -0.0017495 -0.00047605 -0.0015801 -0.050136 0.27688
0.018761 0.019032 -0.002207 0.00090641
0.00056187 -0.0032951 -0.0022314 -0.0025644 -0.0016903 -0.00095521 0.018929 0.019055
-0.10056 0.18824 0.013736 0.018761
-0.00030821 -0.001613 -0.0011911 -0.0032191 -0.00068053 -0.0011216 -0.0024258 0.0009592
0.01363 0.018542 -0.14292 0.26317
1100000000 0.021214 0.29951 0.036816 -0.0026977 0.0030104 0.0043353 0.0023528 -0.0008191
-0.0022307 -0.0032831 -0.0043328 -0.00022548
0.036782 -0.0026705 -0.14158 0.36617 0.016281 -0.02801 -2.6974e-05 -0.0019182
-0.0037742 -0.0012832 -0.0038714 -0.00076567
0.0030258 0.0043362 0.016208 -0.028093 0.19594 0.27438 -0.0019395 0.00017667
-0.0018468 0.0006099 -0.0013087 -0.00030624
0.002371 -0.0008489 -2.1083e-05 -0.0019347 -0.0019403 0.00018759 -0.010204 0.28225
0.024651 0.0058836 -0.0027433 -0.00036831
-0.0021104 -0.0032453 -0.0036959 -0.0012633 -0.0018364 0.00059091 0.024724 0.0058915
-0.081372 0.20326 0.019674 0.0092957
-0.0043777 -0.00032409 -0.0038215 -0.00080351 -0.0012574 -0.000283 -0.0026929 -0.00036568
0.019788 0.0092251 -0.097365 0.29376
1160000000 0.07203 0.2968 0.025274 -0.02011 0.0031141 -0.00045364 2.4026e-05 -0.0023311
-0.0041604 -0.0009354 -0.0013353 0.0042377
0.025288 -0.020065 -0.098668 0.37192 -0.0032271 -0.029615 -0.0015709 -0.0017857
-0.0030265 0.0026706 -0.0016976 0.0019012
0.0030806 -0.00047807 -0.0033347 -0.029644 0.23943 0.2446 -0.0007975 0.0017914
-0.00058594 0.002035 -0.00091118 0.00051819
6.0134e-06 -0.0023243 -0.0015665 -0.0017956 -0.00078976 0.0017838 0.028118 0.28019
0.021652 -0.010286 -0.0040018 0.0050879
-0.004237 -0.000944 -0.0030092 0.0026899 -0.0005295 0.0020151 0.021514 -0.010318
-0.047769 0.21257 0.019536 -0.00024964
-0.0012558 0.0043965 -0.0018355 0.0019353 -0.00092138 0.00047738 -0.0040264 0.0051572
0.01971 -0.00019858 -0.050914 0.29837
1220000000 0.11562 0.2888 0.01195 -0.030363 -0.0014492 -0.00107 0.00023278 -0.00094347
-0.0028825 0.0022557 0.001176 0.0024154
0.011958 -0.030327 -0.054156 0.38699 -0.017063 -0.021926 -0.0026977 0.00043299
1.031e-05 0.0032827 -0.00078032 0.0021366
-0.0014497 -0.0010586 -0.017163 -0.02188 0.27926 0.20648 0.00086701 0.0017735
0.00074162 0.0012271 0.00041407 0.00066837
0.00020539 -0.00096377 -0.0026935 0.00045221 0.00086457 0.0017736 0.067906 0.27333
0.010911 -0.016927 0.0018136 0.0016919
-0.002879 0.0023233 3.0875e-05 0.0032847 0.00078921 0.001229 0.0108 -0.016989
-0.025814 0.22334 0.014839 -0.01286
0.0011522 0.0023618 -0.00085248 0.0020835 0.00037651 0.00063415 0.0018629 0.0016445
0.014916 -0.01274 -0.020268 0.31546
1280000000 0.16654 0.2696 -0.0071315 -0.029463 -0.0019317 0.0023956 -0.00078448 -0.0023376
-0.00095902 0.0034143 0.0027311 0.0014103
-0.007108 -0.02944 -0.0071601 0.37956 -0.024534 -0.0086593 -0.0010361 0.0015145
0.0019726 0.0019299 0.00074279 0.0021851
-0.0019186 0.0024064 -0.024589 -0.0085824 0.31034 0.16301 0.0016584 -2.2763e-05
0.0012337 0.00022584 0.00050698 0.00021123
-0.00079185 -0.0023268 -0.0010349 0.0015147 0.0016517 -2.5138e-05 0.10485 0.25788
0.0011691 -0.019522 -0.00031755 0.00044344
-0.00093981 0.0034916 0.0019533 0.001999 0.0012133 0.00021944 0.0011694 -0.019524
0.010532 0.22811 0.0036115 -0.016169
0.0027913 0.0014752 0.00081814 0.0021766 0.00044925 0.00024637 -0.00036156 0.00057797
0.0035121 -0.016296 0.027554 0.31895
1340000000 0.20408 0.2385 -0.017369 -0.019773 0.00065095 0.0046779 -0.0019988 -0.0010216
0.0014986 0.0028513 0.0020013 -0.0014506
-0.017345 -0.019753 0.032647 0.37296 -0.021901 0.0046289 -0.00014537 0.0021048
0.0021962 0.00076016 0.0012665 0.00081475
0.00068447 0.004677 -0.021894 0.0047448 0.33259 0.11615 0.0010038 -0.0010687
0.00053804 -0.00058536 0.00010182 0.00021266
-0.0019906 -0.0010254 -0.0001356 0.0021147 0.0010041 -0.0010751 0.1385 0.23875
-0.0085442 -0.016685 0.00087431 0.00066703
0.0015098 0.0028652 0.0022039 0.0008015 0.00058763 -0.00052602 -0.0086165 -0.016682
0.039406 0.22617 -0.0036856 -0.014594
0.0020015 -0.0014725 0.0012832 0.00077209 0.00019363 0.00015954 0.00088735 0.0007679
-0.0035464 -0.014666 0.065733 0.31484
1400000000 0.23961 0.20235 -0.023827 -0.00808 0.0053286 0.0034013 -0.0023452 0.00071134
0.0027285 0.0011236 0.00044662 -0.0016838
-0.023802 -0.0080908 0.071689 0.361 -0.014901 0.013073 0.0013893 0.0013753
0.0013194 -0.00086603 0.0012487 0.00014028
0.0053508 0.0033817 -0.014863 0.013151 0.34654 0.063195 -1.0393e-05 -0.0016153
0.0001196 -0.00029914 0.00039805 0.00025916
-0.002334 0.00072539 0.0013833 0.0013865 -2.7162e-07 -0.0016118 0.1691 0.2103
-0.014727 -0.0097753 -0.00087962 -2.8458e-05
0.002736 0.0011143 0.0012887 -0.00086077 0.00010989 -0.00032236 -0.014764 -0.0097551
0.073135 0.22434 -0.010607 -0.009485
0.00050133 -0.0017365 0.0012636 0.00011464 0.0004466 0.00026996 -0.00093492 2.4243e-05
-0.010743 -0.0094389 0.11092 0.30526
1460000000 0.26389 0.15941 -0.020684 0.0046678 0.0058406 -0.0017613 -0.0016205 0.0018582
0.0024129 -0.00041182 -0.00029855 -0.001101
-0.020684 0.0046505 0.10667 0.33925 -0.0053974 0.016009 0.0017594 0.00016035
0.00090815 -0.0014489 0.0012368 -0.00060075
0.0058404 -0.0017696 -0.0053251 0.016044 0.35328 0.0092105 -0.0012816 -0.0011878
0.00028701 -0.00012841 0.00069178 -0.00029817
-0.0016162 0.0018639 0.0017589 0.00016118 -0.0012877 -0.0011759 0.19638 0.18137
-0.015799 -0.0027608 -0.00089656 0.0022498
0.002407 -0.00044184 0.00087406 -0.0014366 0.0002708 -0.00010656 -0.015756 -0.0027217
0.10264 0.21247 -0.01282 -0.0030609
-0.00034458 -0.0011203 0.001269 -0.00064644 0.00067442 -0.0003068 -0.00072961 0.002208
-0.012768 -0.0030049 0.14389 0.28536
1520000000 0.27821 0.1184 -0.014967 0.010271 0.0036001 -0.0044288 0.00019783 0.0028257
0.0024353 -0.0020301 -0.0011694 -0.00022271
-0.014973 0.010262 0.14104 0.32551 0.002584 0.013038 0.0017345 -0.00081184
5.8196e-05 -0.0010351 0.00040381 -0.0011009
0.0035876 -0.0044468 0.0026525 0.013033 0.34709 -0.046332 -0.0009664 -0.0002693
0.00083027 -0.0009636 0.00019242 -0.00017594
0.00021972 0.0028134 0.0017356 -0.0008205 -0.00096925 -0.00027072 0.22076 0.14334
-0.014989 0.0031314 0.0016985 0.0022301
0.0024507 -0.0020486 4.0531e-05 -0.0010386 0.00082231 -0.00098415 -0.015004 0.003151
0.13171 0.2017 -0.012538 0.0019672
-0.0012524 -0.00017389 0.00040629 -0.0010631 0.00014507 -0.0002321 0.0016499 0.0022461
-0.012573 0.0018989 0.17725 0.26674
1580000000 0.2892 0.072126 -0.0081239 0.013556 -0.0009506 -0.0052114 0.0016309 0.0018525
-0.00029229 -0.0024907 -0.00028395 0.00056305
-0.0081371 0.013546 0.16914 0.30053 0.0062169 0.0075444 0.00052003 -0.0016647
-0.00053907 -0.0010797 -0.00023343 -0.00083236
-0.00097508 -0.0052188 0.006262 0.0075176 0.32809 -0.10416 -0.0015084 0.00042799
-0.00042337 -0.0014497 0.00028415 -0.00059066
0.001642 0.0018356 0.00051523 -0.0016587 -0.0015144 0.0004268 0.23545 0.10356
-0.011048 0.008236 0.0025666 0.00083911
-0.00032602 -0.002521 -0.00053805 -0.0010673 -0.00040106 -0.001434 -0.01108 0.0082421
0.15756 0.18571 -0.009733 0.0081688
-0.00031087 0.00054661 -0.00025229 -0.00082388 0.00029059 -0.0006002 0.0025228 0.00084751
-0.0096891 0.0081894 0.21031 0.24108
1640000000 0.29231 0.030983 -0.0012498 0.012215 -0.0031558 -0.0028311 0.0029522 0.0010179
-0.0008358 -0.0017172 -0.00034326 0.00057027
-0.00126 0.012204 0.19869 0.27643 0.006208 0.0022628 -0.00056508 -0.0018737
-0.00085241 -0.00051972 -0.00053879 -0.00072914
-0.0031824 -0.0028247 0.0062307 0.0022237 0.29944 -0.15309 -0.000642 0.0013008
-0.0011214 -0.0011556 -0.00028145 -0.00037301
0.0029404 0.001013 -0.00057469 -0.0018803 -0.00064139 0.001296 0.24834 0.054336
-0.006569 0.0090739 0.002847 -0.00079608
-0.00081632 -0.0017257 -0.00085009 -0.0005054 -0.0011462 -0.0011192 -0.0065489 0.0090503
0.1818 0.16392 -0.0046259 0.010439
-0.00035399 0.0006345 -0.00053061 -0.0007011 -0.00025453 -0.00032097 0.0028175 -0.0008068
-0.0046461 0.010426 0.23622 0.21132
1700000000 0.28662 -0.014501 0.0021155 0.0092172 -0.0039617 8.4883e-05 0.0031867 -0.0013273
-0.0022246 -0.00057939 0.00068545 0.00051851
0.0021096 0.0092038 0.21768 0.24497 0.0033772 -0.00087838 -0.0015883 -0.0007026
-0.00085586 -0.00015595 -0.00092707 -0.00043405
-0.0039654 0.00010799 0.0033707 -0.00090779 0.25701 -0.19321 8.9791e-05 0.0015214
-0.0023001 -5.7505e-05 -0.00039945 -0.00082422
0.003189 -0.001366 -0.0015884 -0.00069035 9.5472e-05 0.0015194 0.2458 0.0039735
-0.0035872 0.009348 0.0018207 -0.0024226
-0.0022431 -0.00055295 -0.00084444 -0.00017054 -0.002242 -3.7672e-05 -0.003519 0.0093419
0.20169 0.14511 0.00057009 0.010516
0.00076501 0.00046269 -0.00092912 -0.00043788 -0.00044346 -0.00087565 0.001842 -0.0025053
0.00055694 0.01048 0.2543 0.1778
1760000000 0.2752 -0.063299 0.0042994 0.0058933 -0.0025886 0.0013613 0.0012548 -0.0035421
-0.0013686 0.00072745 0.00036619 -0.00062841
0.0042897 0.0058864 0.24374 0.20548 0.00039318 -0.0024011 -0.0013619 0.00011609
-0.001242 0.00081864 -0.00066457 0.00037384
-0.0025849 0.0013647 0.00038291 -0.0024038 0.20831 -0.22667 0.0011049 0.0012258
-0.0011954 0.0015615 -0.0013751 -0.00056708
0.0012236 -0.0035426 -0.0013567 0.00012541 0.0011024 0.0012282 0.2368 -0.048437
-0.00041703 0.0079944 -0.00023208 -0.0028289
-0.001396 0.0007235 -0.0012432 0.00083934 -0.0012032 0.0015731 -0.00037782 0.008001
0.2182 0.11148 0.0047977 0.0076405
0.00036529 -0.00060051 -0.00067874 0.00035361 -0.001391 -0.00055317 -0.00010398 -0.0028366
0.0048062 0.0076194 0.26795 0.14056
1820000000 0.25198 -0.10064 0.0042638 0.0023958 3.5963e-06 0.0028051 -0.0010767 -0.0032236
-0.0011255 0.00097045 -0.00018515 -0.00019187
0.0042596 0.0023962 0.25479 0.17606 -0.0020468 -0.00040535 -0.0014481 0.0010351
-0.00021748 0.0012929 -0.00069914 0.00053056
1.7724e-05 0.0027936 -0.0020513 -0.00039939 0.15793 -0.24142 0.0016876 0.00075753
-0.00019118 0.0026184 -0.0016422 0.00035154
-0.0010958 -0.0032278 -0.0014438 0.0010354 0.0016948 0.00075403 0.2069 -0.095801
0.00072005 0.0064226 -0.0017724 -0.0021266
-0.0011125 0.00094301 -0.00021298 0.0012854 -0.00015823 0.0026341 0.00073991 0.006451
0.23756 0.083596 0.0059809 0.0036088
-0.00017166 -0.00020689 -0.00070701 0.00056438 -0.0016089 0.0003522 -0.0018443 -0.0020885
0.0059539 0.0036221 0.27167 0.10541
1880000000 0.21766 -0.14189 0.0018297 0.00028131 -0.00046045 0.0026498 -0.0029246 -0.0023036
-0.00011871 0.0017515 0.00020436 -0.00066824
0.0018303 0.00028435 0.25941 0.12937 -0.0041695 0.0023798 -0.00016606 0.0019241
0.00051738 0.0015883 0.00018711 0.0011014
-0.00045164 0.0026374 -0.0041559 0.0024232 0.10581 -0.25025 0.0022757 -0.0009518
0.001819 0.0020377 -0.00093907 0.0017046
-0.0029346 -0.0022963 -0.00015396 0.001921 0.0022656 -0.0009442 0.16605 -0.13668
0.0012238 0.0042719 -0.0027696 5.7997e-05
-5.7369e-05 0.0017456 0.00051746 0.0015967 0.0018181 0.0020798 0.0012545 0.0042439
0.24317 0.052152 0.0060219 0.0010764
0.00016587 -0.00065428 0.000217 0.001057 -0.00085142 0.0016264 -0.0028029 1.6345e-05
0.0060298 0.001038 0.27279 0.070808
1940000000 0.17872 -0.16767 -0.0003748 -0.0011437 0.0018538 0.0022651 -0.0038126 0.00022171
0.0012729 0.00087957 -0.00065179 -0.00023435
-0.00038016 -0.0011359 0.26054 0.098346 -0.0022581 0.005559 0.0012697 0.0012885
0.0021724 0.00066578 0.0010129 0.00041728
0.0018608 0.0022412 -0.0022189 0.0055778 0.061422 -0.24256 0.00072074 -0.0025641
0.0025799 0.00029958 0.00051847 0.0016005
-0.0038141 0.00025195 0.0012833 0.0012838 0.00071258 -0.0025723 0.11316 -0.16685
-8.1929e-06 0.0030644 -0.0018088 0.0013746
0.0013348 0.00089944 0.0021846 0.00066845 0.0025986 0.00028934 1.2319e-05 0.0031502
0.24751 0.014701 0.0046342 -0.0030852
-0.00063782 -0.00023396 0.0010501 0.0004351 0.00048056 0.0016499 -0.0017182 0.0014617
0.0046489 -0.0030735 0.26261 0.035341
2000000000 0.13342 -0.18293 -0.0039443 0.0012413 0.0031746 0.0015051 -0.0025633 0.0038071
0.00096868 0.00036314 -0.0005004 0.00043679
-0.003944 0.0012353 0.24725 0.063148 -0.00099997 0.0078977 0.0017117 0.00025085
0.0015322 -0.001302 0.00055662 -8.0618e-05
0.0031924 0.0014968 -0.00094931 0.0079049 0.019228 -0.22884 -0.0016533 -0.0017566
0.0020327 -0.0013931 0.0016004 0.0011745
-0.0025475 0.0038405 0.0017165 0.00023117 -0.0016451 -0.0017584 0.060092 -0.17712
-0.0015367 0.00328 -0.00030476 0.0023061
0.00098848 0.00036921 0.0015061 -0.0013215 0.0020161 -0.0013759 -0.0015514 0.0033228
0.24441 -0.018435 0.0009735 -0.0040037
