!Keysight Technologies,M9804A,MY58100912,A.14.10.03
!Date: Thursday, April 27, 2023 10:28:33
!Correction: S11(C  6-Port  ) 
!S12(C  6-Port  ) 
!S13(C  6-Port  ) 
!S14(C  6-Port  ) 
!S15(C  6-Port  ) 
!S16(C  6-Port  ) 
!S21(C  6-Port  ) 
!S22(C  6-Port  ) 
!S23(C  6-Port  ) 
!S24(C  6-Port  ) 
!S25(C  6-Port  ) 
!S26(C  6-Port  ) 
!S31(C  6-Port  ) 
!S32(C  6-Port  ) 
!S33(C  6-Port  ) 
!S34(C  6-Port  ) 
!S35(C  6-Port  ) 
!S36(C  6-Port  ) 
!S41(C  6-Port  ) 
!S42(C  6-Port  ) 
!S43(C  6-Port  ) 
!S44(C  6-Port  ) 
!S45(C  6-Port  ) 
!S46(C  6-Port  ) 
!S51(C  6-Port  ) 
!S52(C  6-Port  ) 
!S53(C  6-Port  ) 
!S54(C  6-Port  ) 
!S55(C  6-Port  ) 
!S56(C  6-Port  ) 
!S61(C  6-Port  ) 
!S62(C  6-Port  ) 
!S63(C  6-Port  ) 
!S64(C  6-Port  ) 
!S65(C  6-Port  ) 
!S66(C  6-Port  ) 
!S6P File: Measurement: :
# Hz S  RI   R 50
500000000 -0.3319 -0.069218 -0.010562 -0.0013243 -0.009135 0.013579 -0.0044003 0.012216
0.01222 0.0057126 -0.0045416 0.0089966
-0.010488 -0.0012891 -0.41211 -0.076868 0.0083271 -0.010036 0.00084347 0.012263
0.0085129 0.0038479 0.00097964 0.014221
-0.0090644 0.013452 0.0083561 -0.010057 -0.26449 0.18918 0.0069392 0.0036871
-0.002333 0.0091861 0.00082651 0.012851
-0.0045324 0.012333 0.00075408 0.012131 0.0069188 0.003651 -0.33156 0.037574
-0.020824 -0.0037686 0.014711 0.025821
0.012881 0.0054597 0.0085196 0.0035363 -0.0026694 0.0088801 -0.020206 -0.0038724
-0.22824 -0.22572 -0.028564 0.0051078
-0.0056198 0.0088544 0.0008922 0.014049 0.0008864 0.012735 0.014362 0.026602
-0.028884 0.0052953 -0.26679 -0.14546
560000000 -0.32065 0.10123 -0.022675 -0.067648 0.00022114 0.013607 0.0057013 0.011875
0.010801 0.005164 0.011261 0.009249
-0.022823 -0.067777 -0.37371 0.089775 -0.041278 -0.038781 0.014452 0.0043675
-0.013481 -0.0042746 0.0036443 -0.00069728
0.00050603 0.013689 -0.041292 -0.038572 -0.1862 0.24224 -0.00017689 -0.0048469
0.018746 0.0066895 0.0072361 -0.0055311
0.0054469 0.011284 0.014127 0.0038146 1.9306e-05 -0.0047339 -0.30772 0.12991
0.0051666 -0.022517 0.0047488 -0.021665
0.01036 0.0058329 -0.012736 -0.0037227 0.01864 0.006862 0.0056944 -0.022141
-0.30563 -0.040679 0.0092154 -0.050617
0.011269 0.0093764 0.0034587 -0.0006002 0.0073195 -0.0055677 0.0053102 -0.021262
0.0088757 -0.050573 -0.33393 0.0084423
620000000 -0.27941 0.080591 -0.023419 0.0099529 0.0038766 0.0096396 0.0084156 -0.00422
0.012639 -0.00043536 0.00065871 -0.0016679
-0.023333 0.0099678 -0.40269 0.036168 -0.018105 0.00072471 -0.0015528 -0.0018581
0.013159 -0.005147 0.0012189 -0.0026716
0.0040293 0.0096902 -0.018112 0.00077058 -0.1575 0.25192 -0.00056824 -0.0051498
-0.0031625 -0.0028584 0.0094749 -0.0029053
0.0089512 -0.0040955 -0.0015924 -0.0020209 -0.00062615 -0.0054677 -0.2647 0.14047
-0.03841 -0.019797 0.012654 0.029514
0.011826 -0.00092571 0.012949 -0.0052233 -0.003445 -0.0027606 -0.039333 -0.01986
-0.2246 -0.079574 -0.042727 0.011881
0.00048872 -0.0016235 0.00094162 -0.0028527 0.00954 -0.0028604 0.0132 0.029565
-0.043391 0.011676 -0.24791 -0.028868
680000000 -0.24513 0.17503 -0.026226 -0.015152 0.0048439 0.0054444 0.0019497 -0.0074823
-0.0020394 -0.012039 0.00543 -0.0070079
-0.026255 -0.015192 -0.39176 0.1387 -0.03229 -0.0027509 -0.001664 -0.00058932
-0.001357 -0.0098571 -0.00077377 -0.0021152
0.0048437 0.0053645 -0.032316 -0.0026817 -0.10798 0.27397 -0.00091803 -0.0004546
-0.0013835 0.00030647 -0.0025796 -0.0095508
0.0016851 -0.0073435 -0.0015889 -0.00044106 -0.00090532 -0.00048869 -0.22104 0.19287
-0.022733 -0.0067939 -0.0099279 -0.011517
-0.0017228 -0.012062 -0.0013435 -0.0098687 -0.0012897 0.00028294 -0.022639 -0.0069259
-0.28441 0.027205 -0.0055002 -0.0068591
0.0055706 -0.0071946 -0.00093459 -0.0023923 -0.0026572 -0.0094488 -0.010029 -0.011249
-0.0055718 -0.0068196 -0.2621 0.078855
740000000 -0.19753 0.16756 -0.040341 0.027525 0.01426 -0.0041937 0.00049983 -0.0043024
-0.0041698 -0.0026289 -0.00646 0.0025746
-0.040226 0.02748 -0.33704 0.15756 -0.037633 0.034445 5.1147e-05 -0.0062939
-0.013749 0.0062542 -0.00046265 -0.0065477
0.01427 -0.0041236 -0.037651 0.034592 -0.074619 0.27197 -0.0021532 0.00325
-0.0014866 -0.0059748 -0.0021612 0.0010212
0.0005862 -0.0042818 -3.626e-05 -0.0061516 -0.0022687 0.0031127 -0.20455 0.20042
-0.042797 -0.0094526 0.023006 0.016516
-0.0039134 -0.0030229 -0.013074 0.0061375 -0.0012369 -0.0053167 -0.04268 -0.009275
-0.18059 0.059064 -0.044329 0.00026116
-0.0062328 0.0027534 -0.0013227 -0.0064611 -0.001843 0.00035362 0.023272 0.016593
-0.044482 0.00017065 -0.25361 0.083032
800000000 -0.1665 0.21455 -0.022134 0.015805 0.006007 -0.010512 -0.004498 -0.0026662
-0.0049459 0.0013252 0.0041292 0.00032486
-0.022159 0.015798 -0.34505 0.22877 -0.0092349 0.034068 -0.002366 0.002122
-0.0010887 0.0021944 0.00066274 0.005501
0.0058837 -0.010559 -0.0091852 0.034157 -0.036382 0.29753 0.00084445 0.0014042
-0.00014199 0.0033945 -0.0018205 0.00040139
-0.0045818 -0.0025649 -0.002371 0.0021576 0.0009974 0.0015436 -0.17507 0.22749
-0.028215 0.013159 0.014997 -0.010772
-0.0048768 0.0014557 -0.0011251 0.0021659 -0.00024081 0.0034503 -0.0283 0.013345
-0.23054 0.084613 -0.017609 0.0211
0.0037744 0.00026774 0.00047643 0.005673 -0.0015652 0.00080794 0.014868 -0.010911
-0.017504 0.021052 -0.24686 0.13384
860000000 -0.13242 0.23435 -0.01811 0.029943 -0.0026682 -0.010481 -0.0016084 0.00041407
0.0035497 0.0053649 -0.0040007 -0.0026889
-0.018134 0.029904 -0.29845 0.27291 0.0068374 0.034804 0.0002041 0.0019151
0.0033501 0.0012513 0.0036761 0.00046487
-0.0026731 -0.010481 0.0069628 0.034815 0.0107 0.30741 -0.00037728 -0.00013066
0.0024774 -0.0015386 0.0017133 0.0043324
-0.0018627 0.00053841 0.000246 0.0019582 -0.00048497 -0.00022738 -0.13887 0.23884
-0.018065 0.01708 -0.0066818 -0.0089573
0.0036901 0.0052733 0.0035147 0.0012189 0.002531 -0.0015887 -0.018158 0.017047
-0.17431 0.14146 -0.025511 0.016328
-0.0038937 -0.002683 0.0033019 0.00042776 0.0014896 0.0042739 -0.0064028 -0.0090975
-0.025564 0.016414 -0.19675 0.18165
920000000 -0.10981 0.25773 0.0043269 0.038607 -0.0093255 -0.0054033 -0.0021633 0.0015772
0.00064814 0.0017937 0.0031404 -0.0011778
0.0043545 0.038589 -0.27185 0.29496 0.028014 0.023406 0.0012544 0.0011032
0.0076531 0.00010187 0.0040081 -0.0027127
-0.0093546 -0.0054072 0.028136 0.023343 0.056376 0.30995 0.0018572 -3.4089e-05
0.000755 -0.00022317 0.00086048 -0.0016398
-0.0021421 0.0013061 0.0012085 0.0011226 0.0018354 -0.00011401 -0.115 0.25562
-0.01168 0.030408 0.0044689 -0.0071294
0.00051698 0.0017829 0.0076754 3.8692e-05 0.00070999 -0.00022221 -0.011638 0.030484
-0.16627 0.14661 -0.0021329 0.02823
0.0029179 -0.0012948 0.0039793 -0.0027749 0.00084382 -0.0016879 0.0043115 -0.0070724
-0.002162 0.028247 -0.20607 0.19486
980000000 -0.064211 0.27857 0.015857 0.030442 -0.0098821 0.0042011 0.0015036 0.0035763
0.0040104 -0.0013703 -0.0033629 -0.0028247
0.015824 0.030372 -0.21989 0.3314 0.033321 0.0060002 0.0019699 -0.00013733
0.0020874 -0.006055 -0.00035492 -0.0029058
-0.0098558 0.0042268 0.033411 0.0058777 0.10239 0.3049 0.00058815 -0.0011969
0.00038049 -0.0018861 0.0013057 -0.00041809
0.0015124 0.0036638 0.0020307 -0.00012666 0.00063318 -0.0011738 -0.076957 0.26638
0.0070996 0.029774 -0.0095373 -0.0078366
0.004044 -0.0015236 0.0020306 -0.0061381 0.00046683 -0.0019243 0.006998 0.02984
-0.13401 0.18054 0.0053252 0.020539
-0.0031367 -0.0026631 -0.00032674 -0.0028924 0.0012882 -0.00044459 -0.0093487 -0.0079769
0.0052452 0.020544 -0.16431 0.24095
1040000000 -0.023938 0.289 0.032895 0.020054 -0.0017033 0.0074221 0.002462 0.0010188
0.00052381 -0.0033841 -0.00025803 -0.0015413
0.032916 0.020031 -0.18564 0.34608 0.030432 -0.014075 0.0016356 -0.001606
-0.0022988 -0.002666 -0.0011801 -0.0029785
-0.0017082 0.0074432 0.030422 -0.014231 0.14841 0.29326 -0.0004698 -0.0015374
-0.0017128 -0.00095311 -0.00065411 -0.0010922
0.0025192 0.00089182 0.0017034 -0.0016467 -0.00045484 -0.0015718 -0.050467 0.27689
0.018723 0.019153 -0.0022782 0.00089648
0.00039839 -0.0033021 -0.0023407 -0.0027257 -0.0017738 -0.00096826 0.01883 0.019229
-0.10201 0.1882 0.013495 0.019368
-0.00010358 -0.0017612 -0.0012966 -0.0029283 -0.00071367 -0.0010728 -0.0023275 0.0010505
0.013555 0.019263 -0.1434 0.26284
1100000000 0.020558 0.29934 0.036875 -0.0026816 0.0029585 0.004335 0.0024857 -0.00083139
-0.0021734 -0.0032484 -0.0044519 -0.00015985
0.036861 -0.0026977 -0.14223 0.36566 0.016257 -0.028023 3.5974e-05 -0.0019071
-0.0038185 -0.0012645 -0.0038895 -0.00056681
0.0029664 0.0043261 0.016169 -0.028128 0.19541 0.27448 -0.0019471 0.00019847
-0.0018219 0.00068044 -0.0012349 -0.00027648
0.0024342 -0.00080681 2.4103e-05 -0.0018917 -0.001938 0.00018114 -0.010581 0.28221
0.02496 0.0060928 -0.0028829 -0.00030331
-0.0022313 -0.0033267 -0.0038271 -0.0012669 -0.0018381 0.00066962 0.024931 0.0060128
-0.082318 0.2032 0.020091 0.00943
-0.0045464 -0.00011251 -0.0039327 -0.00057287 -0.0012448 -0.0003209 -0.0028519 -0.0002226
0.02002 0.0093806 -0.098169 0.29398
1160000000 0.07115 0.29692 0.025408 -0.020172 0.0031321 -0.00040767 -1.372e-05 -0.0022528
-0.0042259 -0.0012244 -0.0013869 0.0045962
0.025405 -0.020178 -0.099541 0.37157 -0.003173 -0.029596 -0.001567 -0.0018072
-0.0029436 0.0026382 -0.0017308 0.0020438
0.0031085 -0.00042693 -0.0033083 -0.029621 0.23888 0.24484 -0.00079673 0.0017995
-0.00051864 0.0020064 -0.00094844 0.00047914
-2.0592e-05 -0.0022725 -0.0016245 -0.0018255 -0.00080227 0.0018423 0.027866 0.28027
0.021565 -0.010146 -0.0037338 0.0050268
-0.0042214 -0.001169 -0.0029114 0.0026879 -0.0004953 0.0019608 0.021546 -0.01021
-0.048359 0.21226 0.019806 0.00047711
-0.0014115 0.0044865 -0.0018179 0.0019419 -0.0010067 0.00044902 -0.0036192 0.005073
0.019811 0.00048829 -0.051758 0.29753
1220000000 0.11486 0.28902 0.011994 -0.030424 -0.0013904 -0.0010813 0.00019994 -0.001004
-0.0029446 0.0023314 0.0010735 0.0022611
0.011964 -0.030441 -0.054935 0.38689 -0.017003 -0.021947 -0.0026937 0.00044168
-6.4325e-05 0.0033895 -0.00093627 0.0020227
-0.0014169 -0.0010829 -0.017112 -0.021894 0.27877 0.20684 0.00085224 0.0017831
0.00067163 0.0012983 0.00039858 0.00069689
0.00020386 -0.0010485 -0.0027168 0.00045011 0.00081473 0.0017453 0.067586 0.27333
0.011044 -0.01702 0.0017099 0.0017444
-0.0029052 0.0022812 9.5882e-06 0.0034017 0.0006907 0.0012891 0.010997 -0.017028
-0.0263 0.22345 0.014981 -0.013148
0.0010291 0.002283 -0.00088052 0.0020697 0.00037034 0.00071865 0.001715 0.0017236
0.014922 -0.013061 -0.020741 0.31563
1280000000 0.16579 0.26991 -0.0071918 -0.029582 -0.0020131 0.0023322 -0.0007745 -0.0022543
-0.00088827 0.0034308 0.002768 0.0015006
-0.0072037 -0.029573 -0.0079897 0.3795 -0.024471 -0.0086656 -0.0010339 0.0015291
0.0019305 0.0020495 0.00079771 0.0021312
-0.0020125 0.0023314 -0.024554 -0.0085772 0.31004 0.16349 0.0016949 -4.1374e-06
0.001232 0.00026445 0.00042431 0.00033915
-0.00081524 -0.0022681 -0.00099659 0.0015226 0.0016601 2.118e-06 0.10456 0.25786
0.0012438 -0.019534 -0.00033272 0.00044291
-0.00086519 0.0034876 0.0019458 0.0020386 0.0011934 0.00028036 0.0012378 -0.019555
0.010011 0.22807 0.0038376 -0.016057
0.0027043 0.0015178 0.00076233 0.0021197 0.00043142 0.00031732 -0.00029079 0.00047822
0.0039231 -0.016042 0.026816 0.31862
1340000000 0.20343 0.23895 -0.017477 -0.019863 0.00060794 0.0046652 -0.0019417 -0.0010626
0.0015544 0.002883 0.0020261 -0.0015343
-0.017507 -0.019846 0.031859 0.37301 -0.021907 0.0045619 -0.00013729 0.0021433
0.0021771 0.00085544 0.0013399 0.00084351
0.00061936 0.004684 -0.021909 0.0046822 0.33244 0.1167 0.0010314 -0.0010245
0.00062231 -0.00066431 0.00014522 0.00016414
-0.0019893 -0.0010612 -0.00014311 0.0021554 0.0010133 -0.0010266 0.1382 0.23894
-0.0084404 -0.016642 0.00091663 0.00078741
0.0015649 0.0028412 0.0021789 0.00079232 0.00060828 -0.00064616 -0.0084926 -0.016647
0.038878 0.22639 -0.0035383 -0.014888
0.0019893 -0.0015468 0.0013186 0.00084294 0.00012205 0.0002202 0.00095456 0.00076503
-0.0035358 -0.014846 0.064975 0.3153
1400000000 0.23906 0.20283 -0.023912 -0.008081 0.0053535 0.0034215 -0.0023474 0.00076353
0.0027049 0.0011336 0.00048218 -0.0016049
-0.023921 -0.0080283 0.071055 0.36113 -0.014882 0.013074 0.0014352 0.0013771
0.0013045 -0.00089667 0.0012704 0.00017028
0.0053799 0.0034317 -0.014847 0.013155 0.34638 0.063691 -2.8228e-07 -0.0016331
0.00015536 -0.00020698 0.00040361 0.00019333
-0.002369 0.00072777 0.0014532 0.0013769 -1.0648e-05 -0.0015901 0.16892 0.21052
-0.014788 -0.0098158 -0.00081611 7.5754e-05
0.0027497 0.0011204 0.0012795 -0.00091654 9.7905e-05 -0.00021235 -0.014789 -0.0098065
0.072664 0.22426 -0.010671 -0.009577
0.00043424 -0.0015897 0.0012427 0.00012824 0.00048149 0.00022137 -0.00086308 9.1564e-05
-0.01067 -0.0095512 0.11019 0.30549
1460000000 0.26327 0.15983 -0.020757 0.0047781 0.0058864 -0.0017434 -0.0016256 0.0018289
0.002419 -0.00043221 -0.00038894 -0.0011251
-0.020774 0.0048288 0.10594 0.33929 -0.0053906 0.01596 0.0017319 0.00018967
0.00091297 -0.001441 0.0012806 -0.00060212
0.0058574 -0.0017679 -0.0053024 0.015999 0.35323 0.0097329 -0.0012677 -0.001232
0.00025859 -0.00015516 0.00072871 -0.00030233
-0.0016279 0.0018684 0.0017662 0.00020662 -0.001258 -0.0012388 0.19613 0.18153
-0.015766 -0.0028893 -0.00078329 0.0021773
0.0024278 -0.00045953 0.00089403 -0.0014504 0.00028485 -0.00017181 -0.015764 -0.0028606
0.10187 0.21253 -0.012737 -0.0031734
-0.00037237 -0.0011621 0.0013172 -0.00058413 0.00066805 -0.00032274 -0.00079952 0.0021808
-0.012672 -0.0031628 0.14329 0.28573
1520000000 0.27776 0.11909 -0.015003 0.01037 0.0036413 -0.0044959 0.00016098 0.0027904
0.0023645 -0.0020405 -0.00126 -0.00019623
-0.01496 0.010417 0.14035 0.32572 0.0025609 0.012934 0.0017347 -0.00083661
3.8289e-05 -0.0010892 0.00039118 -0.0010742
0.0036347 -0.0045229 0.0026288 0.012929 0.34714 -0.045978 -0.00097805 -0.00031588
0.00078261 -0.0010226 0.00017345 -0.00017496
0.00020372 0.0027889 0.0017193 -0.00084788 -0.00096935 -0.00032257 0.22061 0.14365
-0.015065 0.0030727 0.0016934 0.0021995
0.0023821 -0.0020707 1.3402e-05 -0.0010531 0.00076315 -0.00098286 -0.015054 0.003143
0.13112 0.20193 -0.012546 0.0018752
-0.0012441 -0.00018952 0.00037237 -0.0010711 0.00013699 -0.00014123 0.0016826 0.0022516
-0.012537 0.0018819 0.17678 0.26692
1580000000 0.28875 0.072738 -0.0080603 0.013639 -0.00096937 -0.0052534 0.0016604 0.0018902
-0.00029886 -0.002471 -0.00038293 0.00053477
-0.0080226 0.013678 0.16848 0.30071 0.0061134 0.0074901 0.00050753 -0.0016269
-0.00052755 -0.0010661 -0.00024783 -0.00081879
-0.0010058 -0.0052556 0.0061662 0.0074642 0.32801 -0.10384 -0.0015683 0.00046607
-0.00039199 -0.0014856 0.00019294 -0.00056416
0.0016616 0.0019286 0.00051654 -0.0016529 -0.0015592 0.00045902 0.23534 0.10367
-0.011065 0.0081964 0.0024514 0.0008234
-0.00033583 -0.0024534 -0.00052333 -0.0010607 -0.00035181 -0.001477 -0.011068 0.0082118
0.15674 0.18591 -0.0097911 0.0080484
-0.00036976 0.00053625 -0.00025992 -0.00078709 0.00017578 -0.00062597 0.0024843 0.00083147
-0.0098109 0.0080473 0.20986 0.24147
1640000000 0.29188 0.03172 -0.0011442 0.012196 -0.0031023 -0.0028676 0.0028385 0.00097519
-0.00083782 -0.0017678 -0.00032626 0.00064923
-0.0010887 0.0122 0.19785 0.27681 0.0061129 0.0022206 -0.00057246 -0.0018834
-0.0009045 -0.00052954 -0.00051481 -0.00073483
-0.0031055 -0.0028569 0.0061458 0.0021888 0.29944 -0.15276 -0.00063544 0.0013593
-0.0012118 -0.0011432 -0.0003011 -0.00037489
0.0028841 0.00097885 -0.00057857 -0.0018697 -0.00059141 0.00135 0.24825 0.05478
-0.0066712 0.0090786 0.0028466 -0.00076961
-0.000876 -0.0017755 -0.00089586 -0.00051262 -0.0012124 -0.0011441 -0.0066516 0.0090971
0.18106 0.16429 -0.0046687 0.010265
-0.00032663 0.00061834 -0.00054051 -0.00072054 -0.00031276 -0.00041297 0.002826 -0.00080144
-0.0046715 0.010257 0.2358 0.21177
1700000000 0.28643 -0.013521 0.0021942 0.009187 -0.0039551 3.4469e-05 0.0031364 -0.0013482
-0.0022545 -0.00066047 0.00073134 0.00047578
0.002247 0.0091572 0.21706 0.24542 0.0033367 -0.00079111 -0.0015564 -0.00070061
-0.00084341 -0.00016396 -0.00093578 -0.00044564
-0.0039899 7.5079e-05 0.00333 -0.00080868 0.25691 -0.19254 0.00016824 0.0015306
-0.002293 -4.5208e-05 -0.00047271 -0.00089569
0.0031416 -0.0013982 -0.0015922 -0.00069611 0.00014912 0.0015573 0.24569 0.0042431
-0.0037237 0.0092881 0.0019251 -0.0024034
-0.0022627 -0.00063684 -0.00086273 -0.00017299 -0.0023401 -3.9039e-05 -0.0036772 0.0092791
0.20094 0.14553 0.0004362 0.010458
0.00074494 0.00044595 -0.00092571 -0.00042102 -0.00040097 -0.0008646 0.0018682 -0.0023733
0.00045459 0.010449 0.25379 0.17842
1760000000 0.27508 -0.062359 0.0043129 0.0058191 -0.0026483 0.0013441 0.0013059 -0.0035591
-0.0013554 0.00071287 0.00040827 -0.0005766
0.004333 0.0057624 0.24302 0.20603 0.0004225 -0.002316 -0.0012783 0.00011293
-0.0012363 0.00088515 -0.00059159 0.00039263
-0.0026971 0.0013749 0.0004141 -0.0023156 0.20844 -0.22593 0.0011185 0.0012872
-0.0012814 0.0016294 -0.0013529 -0.00049061
0.001246 -0.0036174 -0.0012783 0.00010794 0.0010748 0.0013068 0.2366 -0.048011
-0.00043633 0.0080345 -9.3637e-05 -0.0027752
-0.0013455 0.00072717 -0.0012113 0.00089911 -0.0012644 0.0016065 -0.00046604 0.008053
0.2174 0.11194 0.0046263 0.0077167
0.00038137 -0.00056888 -0.00060657 0.00039404 -0.0012931 -0.00051491 7.4007e-06 -0.0027822
0.0046084 0.0077316 0.2675 0.14133
1820000000 0.25213 -0.099594 0.00425 0.002272 -3.3268e-05 0.0028185 -0.0010322 -0.0032189
-0.001119 0.00097018 -0.00025107 -0.00027901
0.004257 0.002217 0.25429 0.17684 -0.0020669 -0.0003334 -0.0014894 0.0010702
-0.000211 0.0013042 -0.00070146 0.00047976
-3.1186e-05 0.0028124 -0.0020777 -0.00030282 0.15794 -0.24104 0.0016252 0.00067297
-5.9096e-05 0.0024643 -0.0016851 0.00034866
-0.0010502 -0.0031432 -0.0014525 0.0010625 0.0016651 0.00067185 0.20715 -0.095541
0.00073785 0.006558 -0.0017809 -0.0020943
-0.0011041 0.00097807 -0.0002076 0.0012967 -0.00011628 0.0024505 0.00081967 0.0064892
0.23698 0.08442 0.0059402 0.0036056
-0.00022801 -0.00028056 -0.00069544 0.0005218 -0.0016884 0.00036795 -0.0018741 -0.0020646
0.0059379 0.0035583 0.27138 0.10607
1880000000 0.21802 -0.1409 0.0017908 0.00025451 -0.00041586 0.0026039 -0.0029715 -0.0022627
-0.00015099 0.001746 9.9098e-05 -0.00057281
0.0017635 0.0002102 0.25902 0.1301 -0.0040559 0.0024036 -0.00015317 0.0019179
0.00048896 0.0015884 0.00016984 0.0010644
-0.00041712 0.0025994 -0.0040584 0.0024397 0.10631 -0.24993 0.0022227 -0.00086665
0.0018551 0.0021092 -0.00083039 0.0015785
-0.0029913 -0.0023052 -0.00020337 0.001907 0.002202 -0.00089994 0.16606 -0.13642
0.0011863 0.0043052 -0.0027497 9.1702e-05
-0.00015545 0.0017514 0.00050739 0.0016267 0.0019115 0.0020965 0.0011539 0.0043086
0.24249 0.052975 0.0059835 0.0012011
0.00011174 -0.00056944 0.00021335 0.0010537 -0.00079835 0.0015385 -0.0026909 3.0091e-05
0.0060008 0.0011982 0.27279 0.071634
1940000000 0.17917 -0.16679 -0.0004881 -0.0011779 0.0017473 0.0022281 -0.0038983 0.00018676
0.0012856 0.00081239 -0.00065166 -0.00038021
-0.00051323 -0.0011977 0.26019 0.099132 -0.0022313 0.0055044 0.0012358 0.0013605
0.0021527 0.00065913 0.0010997 0.00034247
0.0017773 0.0022407 -0.0021878 0.0055353 0.061804 -0.24225 0.00065301 -0.0026059
0.0025788 0.0002687 0.00052597 0.0016335
-0.0038692 0.00025166 0.0012837 0.0013129 0.00065575 -0.0026625 0.1137 -0.16675
0.00025184 0.0032623 -0.0018837 0.0015104
0.0012839 0.00080396 0.0021704 0.00065366 0.0025212 0.0002488 0.00029555 0.003213
0.24718 0.015839 0.0044628 -0.0030261
-0.00065534 -0.00037541 0.0010509 0.00037124 0.00056979 0.0017069 -0.0018702 0.0015986
0.0044626 -0.003015 0.26266 0.035632
2000000000 0.13398 -0.18219 -0.0041323 0.0011672 0.003069 0.0015233 -0.0025524 0.003882
0.0009744 0.00041495 -0.00063038 0.00040869
-0.0041781 0.0011547 0.24713 0.06391 -0.0010119 0.0078284 0.0017324 0.00023219
0.001502 -0.0012716 0.00048715 5.058e-05
0.0030967 0.0015148 -0.00091528 0.0078433 0.01953 -0.22842 -0.0016057 -0.0017871
0.002016 -0.0013199 0.0016569 0.0012296
-0.0024735 0.003846 0.0017741 0.00019188 -0.0015206 -0.0017935 0.059961 -0.17678
-0.0015277 0.0032055 -0.00011961 0.0025659
0.00096577 0.00041287 0.0015363 -0.0013251 0.0020602 -0.001318 -0.0015871 0.0032751
0.24424 -0.017217 0.00097167 -0.0037025
