!Keysight Technologies,M9804A,MY58100912,A.14.10.03
!Date: Thursday, April 27, 2023 10:28:33
!Correction: S11(C  6-Port  ) 
!S12(C  6-Port  ) 
!S13(C  6-Port  ) 
!S14(C  6-Port  ) 
!S15(C  6-Port  ) 
!S16(C  6-Port  ) 
!S21(C  6-Port  ) 
!S22(C  6-Port  ) 
!S23(C  6-Port  ) 
!S24(C  6-Port  ) 
!S25(C  6-Port  ) 
!S26(C  6-Port  ) 
!S31(C  6-Port  ) 
!S32(C  6-Port  ) 
!S33(C  6-Port  ) 
!S34(C  6-Port  ) 
!S35(C  6-Port  ) 
!S36(C  6-Port  ) 
!S41(C  6-Port  ) 
!S42(C  6-Port  ) 
!S43(C  6-Port  ) 
!S44(C  6-Port  ) 
!S45(C  6-Port  ) 
!S46(C  6-Port  ) 
!S51(C  6-Port  ) 
!S52(C  6-Port  ) 
!S53(C  6-Port  ) 
!S54(C  6-Port  ) 
!S55(C  6-Port  ) 
!S56(C  6-Port  ) 
!S61(C  6-Port  ) 
!S62(C  6-Port  ) 
!S63(C  6-Port  ) 
!S64(C  6-Port  ) 
!S65(C  6-Port  ) 
!S66(C  6-Port  ) 
!S6P File: Measurement: :
# Hz S  RI   R 50
500000000 -0.3313 -0.066957 -0.010163 -0.00048886 -0.0087726 0.0137 -0.0039522 0.012039
0.013355 0.0055769 -0.0039998 0.0085086
-0.010286 -0.00031775 -0.41208 -0.076154 0.0081596 -0.010128 0.00074513 0.01263
0.0086253 0.0028287 0.00086629 0.014211
-0.0087029 0.01388 0.0081821 -0.010125 -0.26468 0.18982 0.0066644 0.0038587
-0.002343 0.0089812 0.0007948 0.012739
-0.004009 0.012103 0.00098757 0.012669 0.0066287 0.0037752 -0.33064 0.038137
-0.020109 -0.0044769 0.015384 0.027572
0.013457 0.0054695 0.0083526 0.0026427 -0.0023329 0.0091167 -0.020044 -0.0045082
-0.23047 -0.22441 -0.028335 0.0032967
-0.0040837 0.0085279 0.00094581 0.014426 0.00073473 0.012775 0.015362 0.027568
-0.028446 0.003368 -0.26685 -0.14288
560000000 -0.32113 0.10132 -0.021749 -0.066804 -1.7773e-05 0.013797 0.0042596 0.012139
0.010336 0.0053787 0.010557 0.009826
-0.022054 -0.066811 -0.37371 0.091432 -0.041826 -0.038721 0.014264 0.0041745
-0.012566 -0.0053517 0.0043432 0.00017126
0.0002474 0.013777 -0.041979 -0.038639 -0.18605 0.24267 8.3227e-05 -0.0046474
0.019017 0.0071823 0.007587 -0.0048548
0.0042405 0.012095 0.014483 0.0039466 -0.00013175 -0.0045751 -0.30801 0.13039
0.005627 -0.022946 0.0049394 -0.021985
0.010366 0.0054014 -0.012698 -0.0056412 0.019049 0.0072271 0.0055761 -0.022856
-0.30949 -0.043376 0.012227 -0.051674
0.010677 0.0098 0.0047199 -0.00010274 0.0074306 -0.0050131 0.0049522 -0.021963
0.012475 -0.051677 -0.33378 0.010282
620000000 -0.27908 0.080837 -0.023522 0.0098665 0.0039879 0.0094075 0.0083853 -0.0048093
0.011986 -0.00089068 0.00020869 -0.0021971
-0.023513 0.0098665 -0.40264 0.036752 -0.01801 0.00072197 -0.0017825 -0.0022314
0.013213 -0.0052036 0.0008524 -0.0031645
0.0038996 0.0094896 -0.018013 0.00077444 -0.15749 0.25225 -0.00080332 -0.0052383
-0.0029125 -0.0028561 0.0092403 -0.0031493
0.0084227 -0.0048485 -0.001643 -0.0022352 -0.00095486 -0.0055171 -0.26454 0.14042
-0.039271 -0.020313 0.013295 0.028574
0.011935 -0.00080175 0.012965 -0.0053377 -0.0028852 -0.0024876 -0.039337 -0.020258
-0.22479 -0.076224 -0.043081 0.012605
0.00028529 -0.0022462 0.0010073 -0.0029668 0.0092751 -0.0035913 0.013179 0.028546
-0.042826 0.012594 -0.24768 -0.028955
680000000 -0.2452 0.17636 -0.026192 -0.014634 0.0047437 0.0055823 0.0016313 -0.0070994
-0.0012479 -0.011567 0.006135 -0.0065627
-0.026212 -0.014724 -0.39151 0.13941 -0.032055 -0.0028061 -0.0017233 -0.00053062
-0.0010687 -0.009739 -0.00044098 -0.0023583
0.0046698 0.0056142 -0.032104 -0.0027181 -0.10734 0.27413 -0.0010855 -0.00028024
-0.0010757 2.7766e-05 -0.0025338 -0.0091695
0.0016591 -0.0070786 -0.0014257 -0.00028829 -0.00093119 -0.00021946 -0.22118 0.19356
-0.02316 -0.0070893 -0.0096514 -0.011125
-0.0012952 -0.011583 -0.0011905 -0.0099502 -0.0011412 0.00016015 -0.023205 -0.0071145
-0.284 0.027892 -0.0060793 -0.0069915
0.006233 -0.0064438 -0.00052135 -0.0023075 -0.0024705 -0.0091501 -0.009641 -0.011198
-0.0060881 -0.0068669 -0.26268 0.077779
740000000 -0.19718 0.16809 -0.040204 0.027265 0.014252 -0.0044061 0.00059158 -0.0042612
-0.0043454 -0.0019879 -0.0064202 0.0030907
-0.039832 0.027228 -0.33712 0.15888 -0.037904 0.034373 -0.00026226 -0.0063089
-0.013206 0.0065774 -0.0015742 -0.0066306
0.014122 -0.0042315 -0.037864 0.03454 -0.074305 0.27215 -0.0023516 0.0034315
-0.0017954 -0.0058702 -0.0021772 0.0009493
0.00051083 -0.0041801 -8.788e-05 -0.0063132 -0.0021805 0.003418 -0.20432 0.20036
-0.0424 -0.0089833 0.022695 0.016177
-0.0044474 -0.001992 -0.013759 0.0067197 -0.0018238 -0.0060193 -0.042351 -0.0089291
-0.18177 0.060903 -0.042785 0.00088882
-0.00662 0.0030976 -0.0010945 -0.0062135 -0.0020792 0.0011246 0.022702 0.016199
-0.042879 0.00089966 -0.25384 0.082338
800000000 -0.16626 0.21488 -0.022185 0.015892 0.0060749 -0.010479 -0.0043482 -0.0026215
-0.0045104 0.0015211 0.0042578 0.0003183
-0.022164 0.015858 -0.34496 0.22936 -0.0092208 0.034073 -0.002126 0.0019324
-0.00092015 0.0022163 0.00090746 0.0053266
0.0060573 -0.010575 -0.0091111 0.034135 -0.03607 0.29774 0.00098198 0.001432
-0.0001003 0.0034058 -0.0016456 0.00060787
-0.0043431 -0.0026099 -0.0022131 0.0019768 0.0010096 0.0014249 -0.17491 0.22817
-0.028432 0.012924 0.015123 -0.010238
-0.0044551 0.0014914 -0.00089738 0.0023123 -0.00013851 0.0034559 -0.02844 0.012973
-0.22978 0.085259 -0.018037 0.020394
0.0042132 0.00028046 0.000903 0.0052506 -0.0015168 0.00060255 0.01511 -0.010288
-0.018055 0.020365 -0.24631 0.13576
860000000 -0.13189 0.23465 -0.018275 0.02999 -0.002754 -0.010518 -0.0019706 0.00022911
0.0038507 0.0054009 -0.0040621 -0.0029578
-0.018178 0.029944 -0.29808 0.27318 0.0068583 0.034703 0.00014213 0.0021698
0.0035489 0.0010174 0.0038223 0.0005915
-0.0027788 -0.010481 0.0069868 0.034708 0.01112 0.30754 -0.00042657 -0.0002602
0.0024028 -0.0013701 0.0016925 0.0042704
-0.0019667 0.00023733 8.5285e-06 0.0021789 -0.00045663 -0.00021824 -0.13867 0.23884
-0.01806 0.01744 -0.0066837 -0.0090893
0.0038935 0.0054448 0.003383 0.0010718 0.0023592 -0.0013771 -0.018047 0.017471
-0.17362 0.14165 -0.025967 0.017171
-0.0040441 -0.0028687 0.0037587 0.00031423 0.0016174 0.004263 -0.0066787 -0.009033
-0.025936 0.017193 -0.1977 0.18081
920000000 -0.1092 0.25803 0.0044142 0.038753 -0.0093854 -0.0053893 -0.0020965 0.001378
0.00035524 0.0018475 0.0032258 -0.0011769
0.0043076 0.038658 -0.27128 0.29537 0.028089 0.023346 0.0013071 0.0011645
0.0073198 0.00015072 0.0043141 -0.0025351
-0.0094092 -0.0053879 0.028202 0.023296 0.056768 0.31007 0.0019676 -2.3363e-05
0.00061068 -0.00022183 0.00092394 -0.0016258
-0.0021025 0.0013632 0.0013366 0.0011458 0.001933 -4.678e-05 -0.11459 0.25594
-0.011628 0.030089 0.0046951 -0.0066802
0.00038658 0.0018337 0.0074987 8.2445e-05 0.00068371 -0.0002591 -0.011573 0.030123
-0.16595 0.14725 -0.0020634 0.02794
0.0032277 -0.001264 0.0043914 -0.0026579 0.00083415 -0.0016639 0.0046812 -0.0067073
-0.0020978 0.027881 -0.20511 0.19581
980000000 -0.063618 0.27918 0.015805 0.030466 -0.0098269 0.0041856 0.0014128 0.003804
0.0040237 -0.0012527 -0.0034516 -0.0026479
0.015845 0.030426 -0.21928 0.332 0.033407 0.0059642 0.0018919 -0.00010776
0.002067 -0.0060318 -0.0003514 -0.0029609
-0.0098414 0.0042412 0.033462 0.0058817 0.10282 0.30503 0.00060248 -0.0011799
0.00051813 -0.0018124 0.0013336 -0.00038059
0.0014072 0.0037952 0.0019378 -5.9843e-05 0.00062684 -0.0012026 -0.076921 0.26674
0.0068682 0.029902 -0.0096623 -0.0077162
0.0040079 -0.001275 0.0020421 -0.0060844 0.00054044 -0.0018495 0.0069222 0.029892
-0.13319 0.1807 0.0055194 0.020562
-0.0034342 -0.0026269 -0.00030143 -0.0028307 0.0012718 -0.00038318 -0.0096469 -0.0077156
0.0055778 0.020554 -0.16441 0.24151
1040000000 -0.023239 0.28887 0.032826 0.020108 -0.0017424 0.0073406 0.0024683 0.00093114
0.00054808 -0.0033297 -0.00027851 -0.0016319
0.03285 0.020028 -0.18496 0.34641 0.030401 -0.014178 0.0016346 -0.0017582
-0.002227 -0.0025745 -0.0011788 -0.0032044
-0.0017076 0.0073369 0.030389 -0.014282 0.14896 0.29324 -0.00047866 -0.0015698
-0.0016894 -0.00095065 -0.00067845 -0.0011124
0.0024451 0.00092558 0.0016405 -0.0016785 -0.00047769 -0.0015721 -0.050167 0.27686
0.018871 0.019107 -0.0024588 0.00090967
0.00054779 -0.0033175 -0.0022828 -0.0026559 -0.0017225 -0.00096439 0.018923 0.019081
-0.10052 0.18831 0.013758 0.018575
-0.00030072 -0.00166 -0.001292 -0.0030911 -0.00074479 -0.0010964 -0.0024184 0.00089347
0.013755 0.018608 -0.14328 0.26286
1100000000 0.021126 0.2995 0.036821 -0.0026825 0.0030261 0.0043421 0.0023583 -0.00081894
-0.0021095 -0.003275 -0.0043558 -0.00033963
0.036781 -0.0026377 -0.14159 0.36613 0.016307 -0.028028 -2.3077e-05 -0.0019193
-0.0036743 -0.0012833 -0.0038213 -0.00079963
0.0030221 0.0043266 0.016231 -0.028112 0.19588 0.27439 -0.0019399 0.00018871
-0.0018429 0.00059002 -0.0012764 -0.00029311
0.0023524 -0.00082682 -1.112e-05 -0.0019346 -0.0019471 0.00016266 -0.010236 0.28222
0.024708 0.0059399 -0.002706 -0.00034504
-0.0021176 -0.0032719 -0.0036678 -0.0012193 -0.0018462 0.00062642 0.024718 0.005908
-0.081324 0.20312 0.019987 0.0092868
-0.0043369 -0.00031628 -0.0037692 -0.00070586 -0.0012421 -0.00031089 -0.0026768 -0.00033366
0.01998 0.0093188 -0.097366 0.29369
1160000000 0.071906 0.29682 0.025265 -0.020134 0.0030849 -0.00043213 1.7155e-05 -0.0023214
-0.0041989 -0.00098068 -0.0012775 0.0043707
0.025266 -0.020036 -0.098655 0.37186 -0.0032011 -0.029647 -0.0015629 -0.0018024
-0.0029956 0.002663 -0.0018724 0.0019455
0.0030992 -0.00047209 -0.0033212 -0.029655 0.23936 0.24462 -0.00079573 0.0017949
-0.00055056 0.0020346 -0.00091296 0.0004805
-2.1165e-05 -0.0023303 -0.001581 -0.0017843 -0.00080971 0.0018136 0.028109 0.28021
0.021531 -0.010284 -0.0040269 0.0051321
-0.0042187 -0.00095682 -0.0029766 0.0027511 -0.00053939 0.0020177 0.021519 -0.010296
-0.047931 0.21247 0.019532 -0.00017628
-0.0012565 0.0043711 -0.0017562 0.0018852 -0.00091617 0.00046221 -0.0040393 0.0051278
0.019493 -0.00018952 -0.050942 0.29847
1220000000 0.11555 0.28882 0.01195 -0.030356 -0.0014592 -0.0010777 0.00022692 -0.00093121
-0.0029027 0.0023071 0.0011565 0.0023689
0.011964 -0.030324 -0.054205 0.38693 -0.017037 -0.021945 -0.0026965 0.00042523
1.3936e-05 0.0032869 -0.00087183 0.0020762
-0.0014541 -0.0010577 -0.017151 -0.021898 0.2792 0.20652 0.00087292 0.0017649
0.00077814 0.0012282 0.00038118 0.00064748
0.00023011 -0.00094486 -0.0026748 0.00045117 0.00085703 0.0017843 0.06786 0.27333
0.010812 -0.016977 0.0018679 0.001667
-0.0028822 0.0023386 5.1402e-05 0.0033238 0.00074998 0.0012461 0.01079 -0.016988
-0.025743 0.22334 0.014795 -0.012997
0.0011838 0.0023539 -0.00080523 0.0021313 0.00037322 0.00063972 0.0018674 0.0016648
0.014813 -0.013007 -0.020335 0.31559
1280000000 0.16641 0.26963 -0.0071098 -0.029457 -0.0019568 0.0023511 -0.00079425 -0.0023377
-0.00096805 0.0034705 0.0027733 0.0014895
-0.0070966 -0.029437 -0.0072398 0.37951 -0.024524 -0.0086759 -0.0010344 0.0015205
0.0019339 0.0019917 0.00082571 0.0021733
-0.0019227 0.0024057 -0.024604 -0.0085852 0.31031 0.16308 0.0016575 -8.1233e-06
0.0012179 0.00022868 0.00045394 0.00025697
-0.00080937 -0.0023573 -0.0009961 0.0015557 0.0016728 -9.8214e-06 0.10484 0.25788
0.0012003 -0.019527 -0.00035178 0.00055195
-0.00094692 0.0034834 0.0019311 0.0019815 0.0012485 0.00026182 0.0011743 -0.019527
0.010471 0.22824 0.0037372 -0.016346
0.0027945 0.0014681 0.00077766 0.0022391 0.00046418 0.00022018 -0.00037132 0.00052169
0.0037462 -0.016326 0.027103 0.31886
1340000000 0.204 0.23853 -0.01738 -0.019797 0.00066204 0.0046637 -0.0019792 -0.0010207
0.0015056 0.002884 0.0020227 -0.0014609
-0.017335 -0.019777 0.032597 0.37293 -0.021907 0.0046354 -0.00014107 0.0021039
0.002211 0.00082147 0.0012661 0.00078748
0.00066706 0.004668 -0.021897 0.0047262 0.33255 0.11622 0.0010061 -0.0010655
0.00058285 -0.00052383 0.00019711 0.00015274
-0.0019865 -0.0010175 -0.00012297 0.0021277 0.0010065 -0.0010307 0.13847 0.23875
-0.0085621 -0.016692 0.00087936 0.0007941
0.0015234 0.0028728 0.0022129 0.00077623 0.00059962 -0.0005619 -0.0085934 -0.016688
0.039465 0.22624 -0.0036509 -0.014771
0.0020458 -0.0014976 0.0012728 0.0008224 0.00015258 0.00019951 0.00089803 0.00078417
-0.0036405 -0.014752 0.065343 0.31474
1400000000 0.2395 0.2024 -0.023824 -0.0080892 0.0053555 0.0034347 -0.0023325 0.00071689
0.0027255 0.0011399 0.00049657 -0.0017237
-0.023808 -0.0081087 0.07158 0.36098 -0.014904 0.013066 0.001383 0.0013852
0.0012966 -0.0008506 0.0012654 0.00012284
0.0053335 0.0033828 -0.014856 0.01315 0.34656 0.063257 2.6601e-06 -0.0016131
0.00011832 -0.00032097 0.00043688 0.00026062
-0.0023341 0.00072291 0.0013944 0.001386 -1.5878e-05 -0.001613 0.1691 0.21033
-0.014711 -0.0097808 -0.00094 1.8785e-05
0.0027255 0.0011265 0.0012741 -0.00087662 9.6283e-05 -0.00032376 -0.014735 -0.0097682
0.073136 0.2244 -0.010623 -0.0094483
0.00048379 -0.0017254 0.0012812 0.00011621 0.00041492 0.00025629 -0.00095059 1.0269e-05
-0.010629 -0.0094646 0.11082 0.30522
1460000000 0.26383 0.15948 -0.020721 0.0046518 0.0058321 -0.0017329 -0.0016209 0.0018668
0.0024032 -0.00042844 -0.00035241 -0.0010917
-0.020689 0.0046398 0.1066 0.33921 -0.0054009 0.016001 0.0017485 0.00014132
0.00087998 -0.0014171 0.0012557 -0.00063197
0.0058316 -0.0017814 -0.0053254 0.016045 0.35327 0.0092686 -0.001295 -0.0011714
0.00026475 -0.00010376 0.00066071 -0.00031097
-0.0016209 0.0018749 0.0017567 0.00015066 -0.0012903 -0.001211 0.19634 0.18139
-0.015732 -0.0027535 -0.00073028 0.0022015
0.0023786 -0.00043648 0.0009319 -0.0014217 0.00029803 -0.00011581 -0.015744 -0.0027079
0.10253 0.21249 -0.01282 -0.0029105
-0.00034275 -0.0010816 0.0012689 -0.00063885 0.00071282 -0.00034632 -0.00068191 0.0022157
-0.012831 -0.0029161 0.14395 0.28551
1520000000 0.27816 0.11849 -0.015 0.01025 0.0035715 -0.0044439 0.00019792 0.0028213
0.002452 -0.0020263 -0.0012386 -0.00017878
-0.014973 0.010256 0.14096 0.32551 0.0025606 0.013039 0.0017367 -0.00081674
4.0018e-05 -0.0010331 0.00041315 -0.0010607
0.0035828 -0.0044414 0.0026407 0.013034 0.34706 -0.046246 -0.00096859 -0.00026696
0.00080514 -0.00099153 0.00014664 -0.00022459
0.00021389 0.0028132 0.0017456 -0.00083487 -0.00098537 -0.000255 0.22074 0.14337
-0.015007 0.0031102 0.0016651 0.0022593
0.002435 -0.0020645 2.9239e-05 -0.0010205 0.00079022 -0.00095687 -0.015012 0.0031453
0.13172 0.2017 -0.012623 0.0018955
-0.0012471 -0.00014636 0.00039347 -0.0010861 0.00016423 -0.00017862 0.0016632 0.0022571
-0.01264 0.0018623 0.17717 0.26683
1580000000 0.28915 0.072217 -0.0081459 0.013559 -0.00095184 -0.0052186 0.0016253 0.0018473
-0.0003065 -0.0025189 -0.00031646 0.00055039
-0.0081395 0.013543 0.16903 0.30052 0.0062085 0.0075663 0.00053132 -0.0016573
-0.00054108 -0.0010754 -0.00024152 -0.00081168
-0.00098464 -0.0052202 0.00626 0.0075484 0.32805 -0.10412 -0.0015196 0.00042201
-0.00041318 -0.0014493 0.00028936 -0.00058407
0.0016253 0.0018343 0.00050847 -0.0016653 -0.0015166 0.00040809 0.23545 0.10354
-0.011098 0.0082147 0.0025033 0.00085849
-0.00032608 -0.0025128 -0.00053904 -0.0010563 -0.00038513 -0.0014836 -0.011096 0.0082393
0.1574 0.18575 -0.0097505 0.0081912
-0.00031308 0.00053533 -0.00025768 -0.00083393 0.00025741 -0.0006417 0.0025043 0.0008628
-0.0097381 0.0081881 0.21016 0.241
1640000000 0.29226 0.031095 -0.0012621 0.012199 -0.0031772 -0.0028438 0.0029461 0.0010213
-0.00080883 -0.0017229 -0.00034788 0.00062771
-0.0012638 0.012206 0.19863 0.27642 0.0062194 0.0022724 -0.00056199 -0.0018795
-0.00083792 -0.00052211 -0.00052677 -0.00070832
-0.0031827 -0.0028186 0.0062279 0.0022308 0.29938 -0.15305 -0.000639 0.0012945
-0.0011488 -0.0011202 -0.00024319 -0.00032971
0.0029565 0.0010188 -0.00058184 -0.0018883 -0.00061941 0.001303 0.24833 0.054381
-0.0065685 0.0090206 0.0028147 -0.00079166
-0.00082978 -0.0017149 -0.00085067 -0.00050702 -0.00115 -0.001131 -0.0065427 0.0090467
0.18172 0.16388 -0.0046306 0.010462
-0.00034653 0.00064653 -0.00054956 -0.00072603 -0.00030034 -0.00037467 0.0027962 -0.00080362
-0.0046307 0.01047 0.23635 0.21142
1700000000 0.28661 -0.014391 0.0021134 0.0092269 -0.0039905 0.00011348 0.0031858 -0.0013269
-0.0022575 -0.00057193 0.00073473 0.00048523
0.0021017 0.0092189 0.21761 0.24502 0.0033739 -0.00089088 -0.0015835 -0.00070014
-0.00083347 -0.00017885 -0.0009254 -0.00044212
-0.0039806 0.0001158 0.003361 -0.00089951 0.25699 -0.19323 8.2286e-05 0.001519
-0.0022554 -3.1724e-05 -0.00044018 -0.00085923
0.0031608 -0.0013477 -0.0015967 -0.00067812 6.957e-05 0.0015738 0.2458 0.0039972
-0.0035355 0.0093376 0.0018414 -0.0024979
-0.0022561 -0.00054739 -0.00084964 -0.00017866 -0.0023476 -9.7208e-05 -0.0035224 0.0093374
0.20167 0.14519 0.00054884 0.010484
0.00073557 0.00045906 -0.00093507 -0.00043658 -0.00047449 -0.00080051 0.001865 -0.0025268
0.00056003 0.010489 0.25418 0.17786
1760000000 0.27518 -0.063203 0.0042767 0.0058803 -0.002617 0.0013025 0.0012448 -0.0035428
-0.0013886 0.00070811 0.00036257 -0.00061997
0.0042956 0.0058873 0.24366 0.20554 0.00040484 -0.002402 -0.0013485 0.00012389
-0.0012394 0.00083469 -0.00068388 0.00035494
-0.0026144 0.0013609 0.00039016 -0.0024055 0.2084 -0.22649 0.0010965 0.0012255
-0.0012068 0.001574 -0.0013891 -0.00056696
0.0012661 -0.0035598 -0.0013451 0.00012666 0.0010349 0.0012357 0.23676 -0.048392
-0.00041224 0.0079846 -9.2913e-05 -0.0028285
-0.0013921 0.00073703 -0.0012489 0.00082793 -0.0011873 0.0015625 -0.00040177 0.0079907
0.21809 0.11148 0.0048379 0.0077028
0.00034544 -0.0006116 -0.00067888 0.0003731 -0.0013745 -0.00061449 -0.0001079 -0.0028246
0.0048366 0.007702 0.26802 0.14062
1820000000 0.25198 -0.10049 0.0042548 0.0023717 -8.8197e-06 0.0027988 -0.0010788 -0.0032402
-0.0011021 0.00093854 -0.00015806 -0.00019116
0.0042577 0.0023774 0.25478 0.17611 -0.0020397 -0.00039631 -0.0014512 0.0010227
-0.00021396 0.0012862 -0.00071445 0.00055419
1.0572e-05 0.0027572 -0.0020599 -0.00038972 0.15795 -0.24133 0.0016874 0.00075432
-0.00017454 0.0026302 -0.0016073 0.00037691
-0.0010926 -0.0032114 -0.001452 0.0010263 0.0017202 0.00076749 0.20689 -0.095783
0.00072497 0.0064728 -0.0018381 -0.0020858
-0.0011096 0.00097317 -0.00020303 0.0012907 -0.00014337 0.0026427 0.00072809 0.0064682
0.23753 0.083702 0.0059557 0.0036107
-0.00014382 -0.00017592 -0.00067562 0.00055509 -0.0015682 0.00036423 -0.0018059 -0.002078
0.0059522 0.0036094 0.2717 0.10541
1880000000 0.21765 -0.14177 0.0018436 0.00023997 -0.00042977 0.0026417 -0.0029043 -0.0023089
-9.0609e-05 0.0017481 0.00016372 -0.00068132
0.0018253 0.0002712 0.25934 0.12946 -0.0041842 0.0023701 -0.00017529 0.0019406
0.00050426 0.001613 0.0002034 0.0010504
-0.00040261 0.0026453 -0.0041796 0.002415 0.10579 -0.25033 0.0022511 -0.00094845
0.0018151 0.0020711 -0.00086128 0.001621
-0.002951 -0.0022972 -0.00016288 0.0019691 0.0022715 -0.00084311 0.16605 -0.13662
0.001224 0.004254 -0.0027884 3.2698e-05
-0.00010628 0.001737 0.00053055 0.0015946 0.0018436 0.0020401 0.0012423 0.0042694
0.24313 0.052245 0.0060879 0.0010538
0.00013338 -0.00066735 0.00018223 0.001085 -0.00094054 0.0015821 -0.0028258 4.0867e-05
0.006077 0.0010466 0.2729 0.070846
1940000000 0.17874 -0.16758 -0.00038356 -0.0011576 0.0018523 0.0022506 -0.0038268 0.00025231
0.0013208 0.00088348 -0.00059589 -0.0002561
-0.00037315 -0.0011423 0.26052 0.098405 -0.00225 0.0055335 0.0012398 0.0013092
0.0021794 0.00068255 0.0010384 0.00042488
0.0018426 0.0022649 -0.0022147 0.0055522 0.061466 -0.2425 0.0007135 -0.0025412
0.0025871 0.00031042 0.00046165 0.0016397
-0.0038108 0.00025007 0.0012081 0.0013258 0.00061475 -0.0025539 0.11315 -0.16686
1.7749e-06 0.0031423 -0.0017741 0.0014321
0.0012986 0.00090195 0.0021458 0.00064397 0.0025531 0.0002601 7.3633e-06 0.0031389
0.24745 0.01483 0.004685 -0.003013
-0.00064203 -0.00026938 0.0010191 0.00035014 0.0004945 0.0015661 -0.0017252 0.0014147
0.0046751 -0.00302 0.2626 0.035434
2000000000 0.13347 -0.18293 -0.0039357 0.0012385 0.0031405 0.0015219 -0.0025507 0.0038472
0.00098125 0.00040328 -0.00055023 0.00051395
-0.0039627 0.0012113 0.24721 0.063227 -0.0010348 0.0078966 0.0017284 0.00024223
0.0015178 -0.0012982 0.00055892 -0.00011077
0.0031353 0.0014863 -0.00097034 0.0078874 0.019162 -0.22872 -0.0016357 -0.0017743
0.0020065 -0.0013684 0.0016009 0.0011063
-0.0025271 0.0038658 0.0017282 0.00022814 -0.0016794 -0.0018758 0.060136 -0.17714
-0.0015452 0.0033395 -0.00037491 0.0024896
0.0009434 0.00041558 0.0015153 -0.0013326 0.002046 -0.0013744 -0.0015296 0.0033291
0.24446 -0.018258 0.0008754 -0.0040452
