!Keysight Technologies,M9804A,MY58100912,A.14.10.03
!Date: Thursday, April 27, 2023 10:28:33
!Correction: S11(C  6-Port  ) 
!S12(C  6-Port  ) 
!S13(C  6-Port  ) 
!S14(C  6-Port  ) 
!S15(C  6-Port  ) 
!S16(C  6-Port  ) 
!S21(C  6-Port  ) 
!S22(C  6-Port  ) 
!S23(C  6-Port  ) 
!S24(C  6-Port  ) 
!S25(C  6-Port  ) 
!S26(C  6-Port  ) 
!S31(C  6-Port  ) 
!S32(C  6-Port  ) 
!S33(C  6-Port  ) 
!S34(C  6-Port  ) 
!S35(C  6-Port  ) 
!S36(C  6-Port  ) 
!S41(C  6-Port  ) 
!S42(C  6-Port  ) 
!S43(C  6-Port  ) 
!S44(C  6-Port  ) 
!S45(C  6-Port  ) 
!S46(C  6-Port  ) 
!S51(C  6-Port  ) 
!S52(C  6-Port  ) 
!S53(C  6-Port  ) 
!S54(C  6-Port  ) 
!S55(C  6-Port  ) 
!S56(C  6-Port  ) 
!S61(C  6-Port  ) 
!S62(C  6-Port  ) 
!S63(C  6-Port  ) 
!S64(C  6-Port  ) 
!S65(C  6-Port  ) 
!S66(C  6-Port  ) 
!S6P File: Measurement: :
# Hz S  RI   R 50
500000000 -0.3314 -0.069789 -0.010444 -0.0012893 -0.0090432 0.013489 -0.0051686 0.012796
0.011704 0.0069731 -0.0070512 0.0093285
-0.010786 -0.0012995 -0.41153 -0.076586 0.0085434 -0.010226 0.0011448 0.012621
0.0082734 0.0029785 0.0022315 0.015549
-0.008883 0.013802 0.0084036 -0.0098343 -0.26449 0.18917 0.0070861 0.0039974
-0.0025338 0.0082889 0.0017291 0.012847
-0.0046091 0.012532 0.0011785 0.01231 0.0069631 0.0041304 -0.33117 0.037523
-0.020138 -0.0049814 0.015603 0.026968
0.01237 0.0057708 0.0081728 0.0037301 -0.0024254 0.0089026 -0.020268 -0.0052084
-0.23023 -0.22515 -0.028849 0.0029712
-0.0052919 0.0093745 0.0016298 0.013986 0.00089577 0.013013 0.015429 0.027052
-0.028258 0.003408 -0.26331 -0.14352
560000000 -0.3218 0.10326 -0.022065 -0.0671 0.00032059 0.013645 0.0060018 0.011386
0.010859 0.0040256 0.01015 0.0090333
-0.021383 -0.068112 -0.37294 0.090195 -0.04125 -0.039031 0.014196 0.003732
-0.01364 -0.0050399 0.0033907 -0.0033921
0.00057292 0.013811 -0.042269 -0.038841 -0.18645 0.24232 0.00056347 -0.0046369
0.018929 0.0072062 0.0080923 -0.0042288
0.0054763 0.011206 0.014974 0.0040636 0.00033109 -0.0046032 -0.30786 0.12918
0.0068284 -0.02101 0.0049748 -0.022181
0.010281 0.0051298 -0.013898 -0.0042532 0.018223 0.0068711 0.0065633 -0.02052
-0.30664 -0.041133 0.0096325 -0.048784
0.010973 0.0088397 0.0030742 -0.00095235 0.0073982 -0.0048075 0.00513 -0.022194
0.0090191 -0.04896 -0.33481 0.0052819
620000000 -0.27928 0.080365 -0.023555 0.0097478 0.0041817 0.010013 0.0088263 -0.0036224
0.012859 -0.00035195 0.0017555 -0.0013161
-0.023163 0.0096535 -0.40262 0.036055 -0.01828 0.00069832 -0.0017241 -0.0015789
0.013394 -0.0054365 0.0013864 -0.0029243
0.0040519 0.0096843 -0.018224 0.00074691 -0.15761 0.25216 -0.00050965 -0.0052526
-0.002724 -0.0027223 0.0090119 -0.0032293
0.0085095 -0.0040372 -0.0017129 -0.0019134 -0.00064692 -0.0051483 -0.26513 0.13912
-0.039702 -0.017864 0.012863 0.029786
0.012815 -0.00064972 0.013257 -0.0051452 -0.0034423 -0.0027871 -0.039635 -0.018154
-0.22439 -0.07927 -0.044187 0.012661
0.0014217 -0.0022672 0.0015118 -0.0027285 0.0098742 -0.0030063 0.012886 0.029615
-0.043937 0.014127 -0.25025 -0.029536
680000000 -0.24531 0.17501 -0.025888 -0.015364 0.0049827 0.0051776 0.0019806 -0.0078283
-0.001649 -0.012056 0.0051769 -0.0071709
-0.02609 -0.015238 -0.39158 0.13855 -0.032202 -0.0029592 -0.0012917 -0.00058634
-0.00093165 -0.0092923 -0.00098296 -0.0024564
0.0051955 0.0052396 -0.032254 -0.0027861 -0.10792 0.27381 -0.0011165 -0.00065312
-0.00093142 0.00064564 -0.0026096 -0.0098845
0.0021748 -0.0076362 -0.0016114 -0.00064543 -0.0010623 -0.00059331 -0.22142 0.19331
-0.022684 -0.0073544 -0.0084521 -0.012147
-0.0012674 -0.011673 -0.0011629 -0.0097304 -0.001142 0.00059333 -0.022842 -0.0071538
-0.28415 0.026203 -0.0060427 -0.006858
0.0054541 -0.0078445 -0.0011764 -0.0025506 -0.002693 -0.0099789 -0.0088415 -0.012218
-0.0061242 -0.0073589 -0.26273 0.078615
740000000 -0.19712 0.16851 -0.040474 0.027448 0.014323 -0.0040972 -5.5626e-05 -0.004085
-0.0041227 -0.0032616 -0.0065818 0.0025714
-0.040451 0.027315 -0.33663 0.1572 -0.037421 0.03468 0.00028105 -0.0059995
-0.013362 0.0062408 3.3736e-05 -0.0064236
0.014264 -0.0043571 -0.037304 0.034809 -0.074852 0.27206 -0.0021825 0.0036199
-0.0018218 -0.0058939 -0.0020711 0.0013443
0.00034118 -0.0042282 0.0001115 -0.006061 -0.0022992 0.0032978 -0.20491 0.20053
-0.041809 -0.0096223 0.022537 0.017191
-0.0039521 -0.0023909 -0.013347 0.0058513 -0.0014122 -0.0057043 -0.041862 -0.0095521
-0.18227 0.059749 -0.042439 -0.00086277
-0.00645 0.0022658 -0.00079903 -0.006084 -0.0021764 0.0010737 0.022848 0.017229
-0.04193 -0.0008708 -0.25397 0.085399
800000000 -0.16646 0.21407 -0.022338 0.015864 0.0057904 -0.010428 -0.0041848 -0.002495
-0.0049767 0.0012607 0.0037645 0.00014772
-0.022236 0.015937 -0.34517 0.22901 -0.0093654 0.034071 -0.0021604 0.0019449
-0.0007275 0.0023752 0.00053972 0.0053662
0.0060073 -0.010658 -0.0091893 0.03413 -0.036435 0.29757 0.00095245 0.0013883
-0.00019888 0.0034343 -0.0019006 0.00038604
-0.00429 -0.0023799 -0.0022854 0.0020448 0.00087103 0.001457 -0.17504 0.2279
-0.028 0.01344 0.014717 -0.011132
-0.0046249 0.001686 -0.000958 0.0024173 -0.00022416 0.0034165 -0.028065 0.013243
-0.23127 0.084237 -0.017636 0.021483
0.004278 0.00010959 0.00067709 0.0054009 -0.0019373 0.00053505 0.014586 -0.011171
-0.017623 0.021625 -0.24647 0.13361
860000000 -0.13237 0.23424 -0.018285 0.030081 -0.0027569 -0.01053 -0.0021627 0.00033945
0.004027 0.0055606 -0.003429 -0.0027698
-0.018392 0.030189 -0.29828 0.27304 0.0069541 0.034698 -2.3663e-05 0.0021273
0.0032112 0.001415 0.0033448 0.00043015
-0.0026988 -0.010502 0.0070534 0.034845 0.010804 0.30737 -0.00060337 -0.00028138
0.0023065 -0.0014657 0.0018808 0.004289
-0.0020706 0.00029606 7.9063e-05 0.0022857 -0.0005203 -0.00021181 -0.13887 0.2385
-0.018139 0.016841 -0.006122 -0.0085129
0.0037635 0.0054898 0.0030882 0.0010796 0.0026408 -0.0015781 -0.018253 0.017101
-0.17351 0.14123 -0.025513 0.01663
-0.0040771 -0.0030545 0.0035528 0.00044804 0.0017866 0.0041806 -0.0057701 -0.0090398
-0.025158 0.016547 -0.19735 0.18024
920000000 -0.11008 0.25805 0.0043112 0.038632 -0.0094777 -0.0053656 -0.0021248 0.0013982
0.00063546 0.0021307 0.0029762 -0.0015034
0.0042613 0.03861 -0.27171 0.29489 0.027972 0.023409 0.0011945 0.0011721
0.0074817 0.00010227 0.004153 -0.0025242
-0.0093691 -0.0053249 0.028132 0.023335 0.056334 0.30991 0.0018509 -0.00014948
0.00068581 -0.00016321 0.00071759 -0.0015845
-0.0020425 0.001525 0.0012134 0.0011293 0.0019065 -0.00018404 -0.11482 0.25588
-0.011738 0.03042 0.0043351 -0.0071541
0.00073435 0.0019187 0.0075707 -0.00015205 0.00075976 -0.00019124 -0.011812 0.030425
-0.16633 0.14705 -0.0021444 0.028686
0.0033138 -0.001364 0.004 -0.0027372 0.00070341 -0.0014623 0.004311 -0.0067418
-0.0021245 0.028492 -0.20556 0.19442
980000000 -0.063884 0.27859 0.015943 0.030507 -0.009857 0.004222 0.0015095 0.0035921
0.0041105 -0.001348 -0.0031856 -0.0028123
0.015874 0.030374 -0.21984 0.33153 0.033363 0.0060631 0.0020689 -6.3246e-05
0.0021722 -0.0059666 -0.00063974 -0.0025497
-0.0098993 0.0042048 0.033367 0.0059184 0.10247 0.30492 0.00061807 -0.0011688
0.00058587 -0.0018959 0.001273 -0.00026402
0.0014374 0.0035328 0.002014 -0.00019113 0.00061774 -0.0011553 -0.077073 0.2664
0.0070945 0.029866 -0.0095548 -0.0080683
0.0042424 -0.0015035 0.0022832 -0.0061029 0.00050357 -0.0019023 0.0072044 0.029977
-0.13377 0.18035 0.0055396 0.02028
-0.0033924 -0.0028227 -0.00031533 -0.0026353 0.0013432 -0.00038213 -0.0096725 -0.0081059
0.0053584 0.019961 -0.1645 0.24218
1040000000 -0.024154 0.28881 0.032886 0.020139 -0.0016993 0.0074595 0.0023625 0.001048
0.00053809 -0.0033341 -9.24e-05 -0.0013259
0.032822 0.020098 -0.18549 0.34626 0.030414 -0.014077 0.0016036 -0.0016875
-0.0023894 -0.0028558 -0.0010899 -0.0029056
-0.0016715 0.0074028 0.030445 -0.01426 0.14853 0.29327 -0.00049534 -0.0015114
-0.0018561 -0.0010633 -0.00069195 -0.00099483
0.0024377 0.00096198 0.0016926 -0.0016954 -0.00050342 -0.0015333 -0.050244 0.27689
0.018549 0.01913 -0.0020012 0.0010274
0.0004063 -0.0033248 -0.0021952 -0.0029297 -0.0016205 -0.00090903 0.018596 0.019162
-0.10184 0.18807 0.013307 0.019576
-0.00023144 -0.0015183 -0.0012399 -0.0030286 -0.00077745 -0.0010412 -0.0019549 0.00085473
0.01325 0.019883 -0.14336 0.26173
1100000000 0.020688 0.29939 0.036911 -0.0026394 0.0029423 0.0043575 0.0025132 -0.0008662
-0.0022405 -0.003246 -0.0044362 -0.00053426
0.03683 -0.0025893 -0.14206 0.36575 0.016299 -0.02803 9.1778e-05 -0.0018932
-0.0038306 -0.0012266 -0.0039213 -0.00083696
0.0029294 0.0043674 0.016176 -0.0281 0.19543 0.27447 -0.0019649 0.00015522
-0.0018106 0.000821 -0.0012729 -0.0002949
0.0025271 -0.00089621 5.5218e-05 -0.0019396 -0.0019369 0.00017631 -0.01056 0.28227
0.024673 0.0061846 -0.0027528 -0.00036577
-0.0022539 -0.0033132 -0.0037746 -0.0012353 -0.0018813 0.00067521 0.024837 0.006016
-0.082299 0.20347 0.02025 0.0096062
-0.0043989 -0.00033456 -0.0038835 -0.00079569 -0.0011809 -0.00025532 -0.0029501 -0.0003069
0.020239 0.0096467 -0.098634 0.29457
1160000000 0.071051 0.2968 0.025345 -0.02001 0.0030992 -0.00039137 -0.00012123 -0.002277
-0.0041684 -0.0010235 -0.0014457 0.0046129
0.025375 -0.020029 -0.099477 0.37158 -0.0031926 -0.029575 -0.0017148 -0.0016568
-0.0030005 0.0028137 -0.0017536 0.0019854
0.0031196 -0.00038916 -0.0033119 -0.029628 0.23898 0.24483 -0.00084265 0.0018666
-0.00050363 0.0020574 -0.00094108 0.00040791
-0.00011544 -0.0022997 -0.0016388 -0.0016937 -0.00089217 0.0018637 0.027781 0.2803
0.02179 -0.010225 -0.0038203 0.0052383
-0.0042831 -0.0011335 -0.0028574 0.0027281 -0.00057467 0.001998 0.021723 -0.010197
-0.048051 0.21234 0.019836 0.00047155
-0.0013707 0.0046591 -0.0017363 0.0020652 -0.00091737 0.00039343 -0.0035397 0.0051368
0.019948 0.00047142 -0.051406 0.29673
1220000000 0.11493 0.28904 0.011989 -0.030385 -0.0013251 -0.0010905 0.00022422 -0.00099176
-0.0029443 0.0021506 0.0012136 0.0022404
0.012027 -0.030342 -0.054817 0.38687 -0.016997 -0.021895 -0.0026891 0.0003403
-4.4702e-05 0.0033779 -0.00086019 0.002162
-0.0013679 -0.0010684 -0.017102 -0.021878 0.27888 0.20676 0.00087599 0.001739
0.00078655 0.001195 0.00041577 0.00067086
0.00022126 -0.0010107 -0.0026355 0.00040986 0.00083972 0.0017686 0.067685 0.27333
0.010995 -0.017007 0.0016379 0.0016786
-0.0028318 0.002241 -3.9325e-05 0.0034436 0.00072528 0.0013085 0.010879 -0.016963
-0.026124 0.22327 0.014837 -0.013119
0.0010804 0.0023046 -0.00089044 0.0020577 0.0003907 0.00062675 0.0016636 0.0017711
0.014914 -0.013149 -0.020638 0.31598
1280000000 0.16582 0.26992 -0.0071494 -0.029528 -0.0020133 0.0023103 -0.00082748 -0.0022705
-0.0010631 0.0034771 0.002819 0.0015067
-0.0070812 -0.029487 -0.007796 0.37945 -0.024477 -0.0087279 -0.0010261 0.0016106
0.0018609 0.0019913 0.00072432 0.0020994
-0.0019712 0.0023265 -0.024537 -0.0086187 0.31004 0.16343 0.0017527 -3.5686e-05
0.001196 0.00032646 0.0004321 0.00022414
-0.00081394 -0.0022105 -0.0010338 0.0015667 0.0017017 -3.8228e-06 0.10469 0.25786
0.0012291 -0.01967 -0.0002551 0.00047888
-0.00093708 0.0034536 0.0019409 0.0019652 0.0011774 0.00030313 0.0012152 -0.019592
0.010238 0.22816 0.0039193 -0.016183
0.0028435 0.0014736 0.00084638 0.0021749 0.00040399 0.00031637 -0.00032065 0.00040436
0.0040458 -0.016234 0.026848 0.31799
1340000000 0.20345 0.23902 -0.017451 -0.019819 0.00061948 0.0046505 -0.0019529 -0.00097982
0.0015936 0.0028825 0.0020676 -0.0014443
-0.0174 -0.01983 0.031991 0.37306 -0.02188 0.0045759 -0.00013173 0.0021472
0.0021556 0.000883 0.0013964 0.00081003
0.00065464 0.0046944 -0.021918 0.004699 0.33255 0.11656 0.00095348 -0.0010512
0.00054321 -0.00057802 0.0001518 9.7318e-05
-0.0019504 -0.0010435 -0.00013592 0.0021033 0.00096323 -0.0010596 0.13823 0.23891
-0.0084734 -0.016695 0.00082337 0.00080905
0.0016033 0.0028875 0.0021785 0.00080933 0.00055561 -0.00059178 -0.0084409 -0.016722
0.039358 0.22639 -0.0035764 -0.014761
0.0019569 -0.0014997 0.0013399 0.00083113 9.4241e-05 0.00022291 0.0009403 0.0007706
-0.0035857 -0.014753 0.064911 0.31498
1400000000 0.23911 0.20282 -0.023873 -0.0081001 0.0053471 0.003417 -0.0023121 0.00070113
0.0026296 0.0012179 0.00053373 -0.0015397
-0.023824 -0.0081457 0.071079 0.36109 -0.014887 0.013087 0.0014446 0.0013889
0.0013161 -0.0008208 0.0011653 0.00018621
0.0053457 0.0033894 -0.014898 0.013159 0.34634 0.063532 1.7493e-06 -0.0015644
0.00019372 -0.00022158 0.00030039 0.00029677
-0.0023619 0.00077418 0.0014292 0.0013889 -3.0591e-06 -0.0016176 0.16894 0.21044
-0.014803 -0.0097437 -0.00083281 -1.9963e-05
0.0026846 0.0011675 0.0013335 -0.00086829 0.00019605 -0.00022324 -0.014807 -0.0096784
0.072622 0.22436 -0.010379 -0.0095934
0.00044914 -0.0015761 0.00124 0.00013917 0.0004612 0.00022169 -0.00089053 -3.7647e-05
-0.010394 -0.0096343 0.10966 0.30533
1460000000 0.26336 0.15982 -0.020805 0.0046671 0.0058796 -0.0017468 -0.0016791 0.0018806
0.0024944 -0.00045021 -0.00043756 -0.0011107
-0.020768 0.0046852 0.10607 0.33927 -0.0053514 0.015918 0.001744 0.00018563
0.00097019 -0.0013997 0.0013056 -0.00066272
0.0058792 -0.0017972 -0.005282 0.016001 0.35312 0.0096937 -0.001299 -0.0011593
0.00020813 -0.0002356 0.00076805 -0.00038633
-0.00159 0.0018743 0.0017469 0.00016876 -0.0013056 -0.0012746 0.19604 0.18157
-0.015781 -0.0027998 -0.00083306 0.0022942
0.0023794 -0.0004474 0.00093446 -0.0014121 0.00028436 -0.00016764 -0.015802 -0.002816
0.10201 0.21252 -0.012829 -0.0031564
-0.00037097 -0.0011035 0.0012486 -0.00062737 0.00063182 -0.00023518 -0.00070889 0.0022808
-0.0129 -0.0032311 0.14387 0.28569
1520000000 0.27786 0.1191 -0.014992 0.010316 0.0035735 -0.0044791 0.00018875 0.0027903
0.0022976 -0.0020287 -0.0012912 -0.00026705
-0.014971 0.010294 0.14043 0.32571 0.0025564 0.012969 0.0017383 -0.00084307
2.8242e-05 -0.001064 0.00033581 -0.0010574
0.003632 -0.0044952 0.0026075 0.01295 0.34707 -0.045974 -0.00091242 -0.00029098
0.00073264 -0.0010159 4.4071e-05 -0.00015004
0.00017172 0.002767 0.0017427 -0.0008228 -0.0010138 -0.00026547 0.2207 0.14362
-0.015033 0.0030387 0.001762 0.0022192
0.0023866 -0.0020545 1.8821e-05 -0.0010874 0.00080172 -0.0010568 -0.01503 0.0031245
0.13115 0.20199 -0.012571 0.0017846
-0.0012656 -0.00019467 0.00031746 -0.001101 7.7597e-05 -0.00013384 0.0016967 0.0021329
-0.012623 0.0017842 0.17673 0.26701
1580000000 0.28894 0.072606 -0.0081057 0.013643 -0.00094601 -0.0052589 0.0016497 0.0019203
-0.00025088 -0.0025477 -0.00033167 0.00046501
-0.0081126 0.013612 0.16859 0.30067 0.0061775 0.0074966 0.00053848 -0.0016375
-0.00048013 -0.001067 -0.00024106 -0.00081797
-0.00095821 -0.0052333 0.0062375 0.0074984 0.32805 -0.10379 -0.0015266 0.00040641
-0.00042205 -0.0014256 0.00016763 -0.00073727
0.0016889 0.001899 0.00051624 -0.0016497 -0.0015545 0.00044861 0.23534 0.10358
-0.011153 0.0082465 0.0024901 0.00071505
-0.00029335 -0.0024982 -0.00047176 -0.00107 -0.00043965 -0.001464 -0.01112 0.0082532
0.15683 0.18596 -0.0098292 0.0080993
-0.00039252 0.00056961 -0.00029442 -0.00078839 0.00021962 -0.00064503 0.0024143 0.00087388
-0.0098286 0.0081159 0.21008 0.24145
1640000000 0.29205 0.031559 -0.0011775 0.012215 -0.0031581 -0.0027872 0.0028839 0.00099825
-0.0009372 -0.0017983 -0.00027734 0.00053518
-0.0012043 0.012233 0.19798 0.27675 0.006165 0.0022133 -0.00058474 -0.0018877
-0.00088815 -0.00055525 -0.00050506 -0.00070849
-0.0030987 -0.0027716 0.006189 0.0021973 0.29951 -0.15283 -0.00066793 0.0012822
-0.0011598 -0.0010984 -0.00032388 -0.00026501
0.0028878 0.00096179 -0.00058485 -0.0018755 -0.00059708 0.0013256 0.2482 0.054725
-0.0065901 0.0091202 0.0027353 -0.00076546
-0.00085759 -0.0017636 -0.00090987 -0.00049957 -0.0011697 -0.0010642 -0.0065445 0.0091373
0.18121 0.16408 -0.0047869 0.010183
-0.00033687 0.00061088 -0.00055728 -0.00070271 -0.00036506 -0.00033605 0.0028502 -0.00078639
-0.0047611 0.010257 0.23587 0.21166
1700000000 0.2865 -0.013706 0.0021414 0.0092251 -0.0039886 4.9524e-05 0.0031037 -0.0013596
-0.0022758 -0.00062278 0.00067328 0.00051139
0.0021355 0.0092001 0.21715 0.24532 0.0033238 -0.00078016 -0.0015931 -0.00070396
-0.00085927 -0.00018115 -0.00096478 -0.00048841
-0.0040212 7.5395e-05 0.0033257 -0.00077913 0.25675 -0.19252 0.00017921 0.0015793
-0.0022985 -4.9644e-05 -0.00049514 -0.00072603
0.0030972 -0.0013936 -0.0015953 -0.00066994 0.00018014 0.0015816 0.24578 0.0041912
-0.0036535 0.0092394 0.001901 -0.0023438
-0.0022418 -0.00062831 -0.00085209 -0.0001716 -0.0022856 -4.1319e-05 -0.0036923 0.0092636
0.20116 0.14539 0.00042819 0.010514
0.00075787 0.00046182 -0.0009631 -0.00045474 -0.00046401 -0.00082173 0.0018836 -0.0023827
0.00041294 0.010522 0.25387 0.17824
1760000000 0.2751 -0.062585 0.0042931 0.0058253 -0.0026239 0.0013727 0.0012719 -0.0035677
-0.0012655 0.00079861 0.00034589 -0.00073017
0.0042831 0.0058308 0.24312 0.2059 0.00043039 -0.0022746 -0.0012695 0.00012588
-0.001243 0.00094992 -0.00062445 0.00030082
-0.0026911 0.0013389 0.00040598 -0.0023528 0.20841 -0.22594 0.0010853 0.0012126
-0.0013512 0.0017234 -0.0012171 -0.0007661
0.0012486 -0.0035829 -0.0012808 0.00013997 0.0011024 0.0012577 0.23662 -0.048068
-0.00043725 0.0081193 -7.3925e-05 -0.0027881
-0.0013495 0.00073341 -0.0012209 0.00091201 -0.0012292 0.0016315 -0.00042826 0.0081088
0.21756 0.11192 0.0046123 0.0077213
0.00041031 -0.00066088 -0.00061132 0.00033727 -0.0012803 -0.00039442 -7.1189e-05 -0.0027576
0.0046342 0.0076932 0.26752 0.14128
1820000000 0.25213 -0.099792 0.0042758 0.0023201 -1.7319e-05 0.0027838 -0.0010308 -0.003173
-0.001162 0.00099957 -0.0002741 -0.00021761
0.0042478 0.0023109 0.25435 0.1767 -0.0020687 -0.0003191 -0.0014651 0.0011098
-0.00024341 0.0012839 -0.00071863 0.00049742
3.0405e-05 0.002781 -0.0020805 -0.00032527 0.1578 -0.24113 0.0016047 0.00085026
-0.00010778 0.0025531 -0.0017688 0.00027453
-0.0010271 -0.0031343 -0.00145 0.00106 0.0016773 0.00075979 0.20708 -0.095441
0.00078047 0.0064913 -0.0018847 -0.0020104
-0.0011274 0.00094933 -0.00019613 0.0012797 -0.00014109 0.0024901 0.00070256 0.0065269
0.23708 0.084177 0.0058535 0.0037122
-0.00027213 -0.00028654 -0.0006795 0.00052891 -0.001679 0.00031674 -0.0018719 -0.0020246
0.0058056 0.0037033 0.27148 0.10606
1880000000 0.21785 -0.14109 0.0017615 0.00024662 -0.0003703 0.0025208 -0.0029487 -0.0022741
-0.00015732 0.0016785 0.00015337 -0.00059334
0.001752 0.00025588 0.25901 0.12995 -0.0040674 0.0024455 -0.00017318 0.0019317
0.00054547 0.0015762 0.00015473 0.0010528
-0.00038427 0.0025716 -0.0041074 0.002395 0.10611 -0.24995 0.0022451 -0.00090151
0.002006 0.0020743 -0.00091672 0.0015897
-0.0029232 -0.0022563 -0.00012505 0.0019515 0.002199 -0.0009328 0.16622 -0.13645
0.0011826 0.0043537 -0.0026265 -4.9445e-05
-0.00010515 0.0017376 0.00052968 0.0015885 0.001777 0.001998 0.0011994 0.0043497
0.24267 0.052917 0.0061272 0.0011326
0.00017932 -0.00054104 0.00013296 0.0010311 -0.00078541 0.0015253 -0.0028859 -3.0839e-05
0.0060882 0.0011913 0.27289 0.0715
1940000000 0.17899 -0.16689 -0.00044484 -0.0011865 0.0017014 0.0021731 -0.0039116 0.00023748
0.0012586 0.00089021 -0.00055114 -0.00040284
-0.0004651 -0.0011937 0.26021 0.098994 -0.0022533 0.0054452 0.0012578 0.0013125
0.0020877 0.00062805 0.0011204 0.00037079
0.0017812 0.0022347 -0.0022231 0.0055032 0.06177 -0.24218 0.00066731 -0.0025828
0.0025304 0.00020213 0.0007092 0.0017212
-0.0038726 0.00034597 0.0012109 0.0013983 0.00067341 -0.002525 0.11341 -0.16678
0.000111 0.0031248 -0.0019779 0.0016072
0.0012863 0.00091676 0.0021336 0.00063564 0.0025639 0.00029658 0.0001498 0.00317
0.24725 0.015651 0.0045105 -0.0028963
-0.0005684 -0.00038311 0.0011127 0.00038375 0.00057541 0.001746 -0.0018447 0.0017355
0.0045338 -0.0027622 0.26273 0.035653
2000000000 0.13392 -0.18226 -0.0041209 0.0011531 0.0031685 0.0015588 -0.0025553 0.0038702
0.00086196 0.00035208 -0.00066646 0.0004585
-0.0041152 0.0012077 0.24714 0.063754 -0.0010467 0.0077933 0.0017151 0.00016029
0.0015513 -0.0013233 0.00049162 3.86e-05
0.003103 0.0015384 -0.00096449 0.0078012 0.019382 -0.22857 -0.0016076 -0.0018706
0.0020079 -0.0014355 0.0016626 0.0014408
-0.0025107 0.0037776 0.0017658 0.00019731 -0.0014945 -0.0018748 0.060123 -0.17679
-0.0017101 0.0030599 -8.6536e-05 0.002353
0.00093848 0.00033399 0.001539 -0.001334 0.0021219 -0.0012433 -0.0016215 0.0031029
0.24431 -0.017731 0.0010378 -0.0038458
