!Keysight Technologies,M9804A,MY58100912,A.14.10.03
!Date: Thursday, April 27, 2023 10:28:33
!Correction: S11(C  6-Port  ) 
!S12(C  6-Port  ) 
!S13(C  6-Port  ) 
!S14(C  6-Port  ) 
!S15(C  6-Port  ) 
!S16(C  6-Port  ) 
!S21(C  6-Port  ) 
!S22(C  6-Port  ) 
!S23(C  6-Port  ) 
!S24(C  6-Port  ) 
!S25(C  6-Port  ) 
!S26(C  6-Port  ) 
!S31(C  6-Port  ) 
!S32(C  6-Port  ) 
!S33(C  6-Port  ) 
!S34(C  6-Port  ) 
!S35(C  6-Port  ) 
!S36(C  6-Port  ) 
!S41(C  6-Port  ) 
!S42(C  6-Port  ) 
!S43(C  6-Port  ) 
!S44(C  6-Port  ) 
!S45(C  6-Port  ) 
!S46(C  6-Port  ) 
!S51(C  6-Port  ) 
!S52(C  6-Port  ) 
!S53(C  6-Port  ) 
!S54(C  6-Port  ) 
!S55(C  6-Port  ) 
!S56(C  6-Port  ) 
!S61(C  6-Port  ) 
!S62(C  6-Port  ) 
!S63(C  6-Port  ) 
!S64(C  6-Port  ) 
!S65(C  6-Port  ) 
!S66(C  6-Port  ) 
!S6P File: Measurement: :
# Hz S  RI   R 50
500000000 -0.33951 -0.019561 -0.010876 -0.0034249 -0.0075525 0.011993 -0.0035246 0.012229
0.011584 0.0042856 -0.0028828 0.0080825
-0.010874 -0.0033599 -0.41881 -0.038519 0.0066073 -0.011831 0.001708 0.012062
0.0074314 0.0022597 0.0025328 0.012876
-0.0075987 0.012013 0.0066347 -0.011815 -0.26277 0.22093 0.0072724 0.0034392
-0.00036864 0.0079402 0.0026051 0.011282
-0.0034534 0.012179 0.0018304 0.011977 0.0073158 0.0034623 -0.33111 0.059277
-0.019877 -0.0060728 0.01582 0.024028
0.011532 0.0042051 0.007385 0.0022773 -0.00034508 0.0079404 -0.019872 -0.00594
-0.23616 -0.16789 -0.026129 0.0056884
-0.0027983 0.0081258 0.002607 0.012884 0.0026455 0.011323 0.015678 0.02405
-0.026062 0.0054757 -0.28267 -0.084805
560000000 -0.31308 0.13529 -0.025914 -0.060231 0.00038501 0.011423 0.0057032 0.0095641
0.0094208 0.0048301 0.0106 0.0065162
-0.025917 -0.059976 -0.37599 0.1172 -0.041843 -0.035526 0.012489 0.0036585
-0.012172 -0.0050624 0.0030283 -0.00055642
0.00032266 0.011302 -0.041831 -0.035431 -0.18081 0.26595 -1.4625e-05 -0.0052542
0.019231 0.0045853 0.0066432 -0.0068213
0.0058139 0.009622 0.012483 0.0036571 -1.7833e-06 -0.0052075 -0.30574 0.14677
0.000359 -0.024451 0.0038238 -0.018442
0.0096304 0.004568 -0.012198 -0.0043851 0.0191 0.0045666 0.00050129 -0.024579
-0.28753 0.0062519 0.0038626 -0.047534
0.010428 0.006764 0.0029645 -0.00057909 0.0066028 -0.0067334 0.0037345 -0.018424
0.0037892 -0.047726 -0.32908 0.054007
620000000 -0.27083 0.12152 -0.02319 0.0070646 0.0035214 0.0078167 0.0073938 -0.004797
0.010743 -0.001433 -8.3846e-05 -0.002467
-0.023168 0.0070796 -0.40142 0.07187 -0.019491 0.00050853 -0.0010531 -0.0020449
0.0099563 -0.0065276 0.0011988 -0.0023625
0.0035011 0.0077924 -0.019534 0.00048807 -0.14971 0.27561 -0.00095806 -0.0048171
-0.0039667 -0.0028532 0.0082704 -0.0032687
0.0073605 -0.0048357 -0.0009973 -0.0020269 -0.00090287 -0.0047935 -0.26301 0.15851
-0.039896 -0.017478 0.012199 0.023769
0.010828 -0.0013675 0.010045 -0.0066902 -0.0039406 -0.0028498 -0.040056 -0.017329
-0.20968 -0.032149 -0.038459 0.01529
-6.4707e-05 -0.0025418 0.0011735 -0.0022663 0.0083284 -0.003168 0.012192 0.023793
-0.038381 0.015055 -0.2548 0.026198
680000000 -0.22809 0.20298 -0.027704 -0.012512 0.0053519 0.0046113 0.0010226 -0.0073043
-0.002754 -0.010629 0.0037703 -0.0068438
-0.027646 -0.012534 -0.38471 0.16617 -0.032369 0.00030532 -0.0012753 -0.00041671
-0.0026567 -0.0088439 -0.0015307 -0.0020988
0.005359 0.0046265 -0.032364 0.00037355 -0.099014 0.29333 -0.00099868 -0.00033674
-0.0016066 6.7307e-05 -0.0033354 -0.008907
0.0010447 -0.00727 -0.0012852 -0.00038324 -0.00098375 -0.00032435 -0.21698 0.20632
-0.026135 -0.005016 -0.0086125 -0.008997
-0.002862 -0.010716 -0.0026184 -0.0089304 -0.0015434 6.438e-05 -0.026164 -0.005067
-0.25001 0.064752 -0.0076312 -0.0076718
0.0038169 -0.0068677 -0.0015804 -0.0021287 -0.0033514 -0.0088341 -0.008645 -0.009027
-0.0075657 -0.0077229 -0.25466 0.12295
740000000 -0.18455 0.19762 -0.03712 0.026134 0.011845 -0.0057081 -0.00045412 -0.004121
-0.0049854 -0.0029853 -0.0056314 0.0029261
-0.037057 0.02604 -0.33333 0.18586 -0.033189 0.034756 -0.0011511 -0.0060815
-0.011845 0.0079722 -0.0019809 -0.0050734
0.011817 -0.0057025 -0.033154 0.034784 -0.065255 0.29307 -0.0018143 0.0031481
-0.0032714 -0.0049486 -0.0020335 0.0015042
-0.00051575 -0.0042082 -0.0011397 -0.0061176 -0.001789 0.0031514 -0.19937 0.21516
-0.043007 -0.0031605 0.02239 0.012731
-0.0048182 -0.0029861 -0.011706 0.0080053 -0.003267 -0.0049456 -0.043047 -0.0030678
-0.1586 0.086454 -0.039176 0.0035327
-0.0056337 0.0028084 -0.00205 -0.0049655 -0.0020296 0.0014971 0.022425 0.012721
-0.039124 0.0035302 -0.24291 0.13115
800000000 -0.15139 0.23524 -0.021765 0.017182 0.0043897 -0.010327 -0.0046632 -0.0017226
-0.0038645 0.0025859 0.0035497 0.00044076
-0.021755 0.017164 -0.33346 0.2542 -0.006892 0.033502 -0.0024251 0.0022262
-0.00067532 0.0031194 0.0010322 0.0052296
0.0043934 -0.010375 -0.0068244 0.033506 -0.022578 0.31508 0.00088149 0.0016956
0.00031474 0.0034828 -0.0019325 0.0012417
-0.0046564 -0.0017119 -0.0024479 0.002193 0.00088196 0.0016909 -0.16909 0.24153
-0.027164 0.016542 0.012676 -0.0098709
-0.003849 0.0025917 -0.00069068 0.0031441 0.00028318 0.0035197 -0.027162 0.016602
-0.19591 0.11335 -0.016304 0.018402
0.0034723 0.00037946 0.0010973 0.0051214 -0.0019467 0.0012389 0.012642 -0.0099087
-0.016303 0.018391 -0.23051 0.1765
860000000 -0.11641 0.2557 -0.016071 0.031079 -0.0039203 -0.0093351 -0.0021652 0.001251
0.0041356 0.0048343 -0.0023772 -0.002572
-0.01606 0.031042 -0.28634 0.29568 0.0090033 0.033157 0.00033355 0.0024079
0.0042805 0.0005112 0.003049 0.00039141
-0.0039234 -0.0093234 0.0090515 0.033152 0.025888 0.32202 -0.00033499 1.547e-05
0.0024722 -0.0010749 0.0015122 0.0040459
-0.0021638 0.0012483 0.00039095 0.0024173 -0.00035269 1.8998e-05 -0.13225 0.25196
-0.01514 0.020859 -0.0055532 -0.008854
0.0041309 0.0047951 0.0042308 0.00046625 0.0024762 -0.0010561 -0.015144 0.020871
-0.14335 0.16063 -0.021593 0.016407
-0.0025092 -0.0025657 0.0029879 0.000437 0.0015384 0.0040335 -0.0056032 -0.0088765
-0.021689 0.016325 -0.18216 0.21648
920000000 -0.089458 0.27788 0.0061856 0.036935 -0.0091533 -0.0036087 -0.0013993 0.0019584
0.0017611 0.001589 0.0025594 -0.0017643
0.0061809 0.036913 -0.25561 0.31636 0.028103 0.020308 0.0017302 0.00093284
0.0070659 -0.00052569 0.0037683 -0.0029175
-0.0091445 -0.0035886 0.02815 0.020263 0.073478 0.32184 0.0019603 -0.00011392
0.0016883 -0.00060376 0.00090152 -0.00097865
-0.0014053 0.0020053 0.0017584 0.00093545 0.0019484 -0.00010552 -0.10642 0.26781
-0.007275 0.030759 0.002376 -0.0061241
0.0016728 0.0016419 0.0071237 -0.0005168 0.0016834 -0.00062872 -0.0072781 0.030819
-0.12829 0.16402 -0.00050505 0.024971
0.0025599 -0.001695 0.0037455 -0.0028828 0.0009257 -0.00096317 0.0023619 -0.0061554
-0.00045762 0.024972 -0.182 0.23228
980000000 -0.042225 0.2952 0.018552 0.028561 -0.0082611 0.0048188 0.0022261 0.0029466
0.0039566 -0.0019183 -0.0034378 -0.0021225
0.018532 0.028544 -0.20352 0.34835 0.032286 0.0033439 0.002014 -0.00039355
0.0014302 -0.0060594 -0.00067446 -0.0022619
-0.0082434 0.0048219 0.032307 0.0032312 0.11988 0.31357 0.00047577 -0.0013284
5.9354e-05 -0.0023531 0.0013791 -0.00017471
0.0022375 0.0029671 0.0020322 -0.00034831 0.00049491 -0.0013269 -0.067323 0.27704
0.010473 0.028362 -0.0088357 -0.0061547
0.0039653 -0.001947 0.0013931 -0.0060735 6.9885e-05 -0.002352 0.01064 0.02839
-0.098074 0.18953 0.0061363 0.018138
-0.0034476 -0.0020917 -0.00075925 -0.0022524 0.0013895 -0.00018795 -0.0088581 -0.0061242
0.0061421 0.018059 -0.13729 0.27004
1040000000 0.00053419 0.3026 0.032848 0.015917 -0.00095647 0.006619 0.0023636 0.00059588
0.00010302 -0.0033287 -0.0008996 -0.0013023
0.032827 0.015922 -0.1676 0.36142 0.02763 -0.015446 0.0012515 -0.0016964
-0.0024414 -0.0024376 -0.001618 -0.0028507
-0.00093755 0.0066287 0.027567 -0.015533 0.16622 0.29895 -0.0006302 -0.0014187
-0.0015633 -0.000907 -0.00045678 -0.0011261
0.0023848 0.00060425 0.0012255 -0.0017209 -0.00062868 -0.001416 -0.038833 0.28638
0.020853 0.015563 -0.0026781 0.001285
0.00010436 -0.0033737 -0.0024467 -0.0024923 -0.0015799 -0.00090471 0.020871 0.015526
-0.065654 0.19598 0.013635 0.015719
-0.00092887 -0.0013187 -0.001612 -0.0028751 -0.00046536 -0.0011208 -0.0026406 0.00128
0.013661 0.015737 -0.11249 0.29001
1100000000 0.046411 0.30858 0.034417 -0.0056238 0.0028612 0.0035636 0.0021736 -0.0011567
-0.0020298 -0.0028275 -0.0034355 0.00043706
0.034406 -0.005602 -0.12378 0.3776 0.013551 -0.027273 -0.00015782 -0.0017195
-0.0032939 -0.0004397 -0.0032112 -0.00026562
0.0028878 0.0035664 0.013472 -0.027327 0.21286 0.27679 -0.0017579 0.00020735
-0.0017511 0.00058809 -0.00092478 -0.00032196
0.0021638 -0.0011564 -0.00014949 -0.0017382 -0.001768 0.00021456 0.002634 0.28886
0.02454 0.002505 -0.0023634 0.00025638
-0.0020601 -0.0028335 -0.0033305 -0.00043257 -0.0017696 0.00060763 0.024552 0.0024343
-0.046681 0.20744 0.018162 0.0062989
-0.0034372 0.00045144 -0.0031978 -0.00024359 -0.00093007 -0.00031997 -0.0023461 0.00025329
0.018158 0.006365 -0.065033 0.31416
1160000000 0.097199 0.30231 0.022142 -0.021208 0.0024261 -0.00046263 -0.00014752 -0.0021103
-0.0039179 -0.00046582 -0.00067593 0.0037543
0.022141 -0.021173 -0.07967 0.38107 -0.004635 -0.027742 -0.0016362 -0.0015263
-0.0024627 0.0022781 -0.0013219 0.0017001
0.0024188 -0.00046788 -0.0047388 -0.02774 0.25498 0.24455 -0.00077414 0.001777
-0.00052709 0.0018294 -0.00089141 7.0792e-05
-0.00014682 -0.0021032 -0.0016378 -0.0015038 -0.00078162 0.0017887 0.041913 0.2839
0.020137 -0.012355 -0.0030705 0.0044641
-0.0039246 -0.00045446 -0.0024417 0.0023333 -0.00055592 0.0018502 0.020104 -0.012396
-0.013089 0.21443 0.016506 -0.0015503
-0.0006548 0.0037355 -0.0013192 0.0016927 -0.00088002 4.494e-05 -0.0030998 0.0044414
0.016504 -0.0015433 -0.018658 0.31473
1220000000 0.14204 0.28931 0.0085891 -0.029273 -0.0015435 -0.00051185 8.1598e-05 -0.00090451
-0.0023471 0.0022818 0.0012669 0.0018152
0.0086031 -0.029245 -0.035371 0.39174 -0.016854 -0.019643 -0.0023783 0.00048793
8.4587e-05 0.0027667 -0.00053917 0.0019132
-0.0015349 -0.00049515 -0.016923 -0.0196 0.29376 0.20477 0.00076518 0.0017893
0.00062293 0.0012341 0.00028176 0.00053666
8.4683e-05 -0.00090483 -0.0023668 0.00049594 0.00075763 0.0017856 0.082149 0.27318
0.0091995 -0.018346 0.0016289 0.0014525
-0.002348 0.0022648 8.3626e-05 0.0028123 0.00061363 0.0012093 0.0091821 -0.018381
0.010917 0.22119 0.011581 -0.012947
0.0012768 0.0018174 -0.00053231 0.0019153 0.00029325 0.00055638 0.001641 0.0014368
0.011588 -0.012945 0.0146 0.32689
1280000000 0.19055 0.26543 -0.0087423 -0.026914 -0.0014863 0.0026912 -0.00097546 -0.001911
-0.00058361 0.0028337 0.0022711 0.00084212
-0.0087102 -0.026897 0.010058 0.38175 -0.022869 -0.0075502 -0.00099747 0.001369
0.001615 0.0016174 0.00066788 0.0017579
-0.001484 0.0026997 -0.022908 -0.007474 0.32348 0.15973 0.0015156 8.1428e-05
0.0010411 0.00028114 0.00025905 0.00019992
-0.00097334 -0.0019042 -0.00099688 0.0013803 0.0015203 6.5373e-05 0.11773 0.25414
-0.00042971 -0.01977 -0.00043572 0.00030343
-0.00058001 0.002837 0.0016212 0.0016284 0.0010403 0.00026653 -0.00045361 -0.019784
0.047294 0.2224 0.0015676 -0.014486
0.0023027 0.00082428 0.0006846 0.0017548 0.00027378 0.00021434 -0.00043791 0.00029765
0.0015783 -0.014485 0.060569 0.32459
1340000000 0.2268 0.2307 -0.017629 -0.017275 0.0011927 0.0041105 -0.0016412 -0.00078671
0.0013609 0.0024583 0.0014381 -0.0014482
-0.017594 -0.017275 0.049092 0.37285 -0.020522 0.0046013 -0.00015898 0.0020007
0.0018813 0.00074018 0.0012352 0.00065159
0.0012234 0.0041128 -0.020524 0.0046739 0.34465 0.11174 0.00128 -0.00094689
0.00062099 -0.00053564 6.7638e-05 0.00021329
-0.0016388 -0.00079573 -0.00013722 0.001991 0.0012876 -0.00095222 0.14898 0.23235
-0.0097182 -0.016502 0.00053852 0.0010479
0.0013819 0.002443 0.0018769 0.00072616 0.00062968 -0.00054605 -0.0097574 -0.016503
0.076791 0.21586 -0.0047174 -0.012432
0.0014117 -0.0014243 0.0012625 0.00061937 0.00010118 0.00022059 0.00052986 0.0010329
-0.0047078 -0.012419 0.099022 0.31712
1400000000 0.25878 0.19121 -0.022379 -0.0062072 0.0051045 0.0026134 -0.0020751 0.00056397
0.0022126 0.00076041 0.00011758 -0.0013251
-0.022362 -0.0062179 0.085999 0.35918 -0.013851 0.012038 0.0013197 0.0013839
0.0012044 -0.00073924 0.0011312 5.9407e-05
0.0051089 0.002608 -0.013819 0.01211 0.35751 0.057305 0.00013679 -0.00181
1.244e-05 -0.00038144 0.00031482 0.00016312
-0.0020659 0.00056279 0.0013302 0.0013782 0.00013363 -0.0018105 0.17717 0.20194
-0.015328 -0.009589 -0.00047163 0.00032093
0.0022325 0.0007437 0.0011983 -0.00075298 5.8957e-06 -0.00038737 -0.015367 -0.0095548
0.10902 0.20917 -0.010369 -0.0075061
0.00012149 -0.0013367 0.0011263 4.5443e-05 0.00032423 0.00016817 -0.00048336 0.00033081
-0.01037 -0.007495 0.14228 0.30289
1460000000 0.28006 0.14681 -0.019196 0.0050595 0.0052256 -0.0021394 -0.0015797 0.0016221
0.0018365 -0.00056847 -0.00034429 -0.00089309
-0.019187 0.0050447 0.11968 0.33701 -0.0057257 0.014531 0.0017554 0.00017107
0.00086962 -0.001272 0.001061 -0.00056149
0.0051953 -0.0021421 -0.0056719 0.014551 0.36213 0.0024828 -0.0014094 -0.0013863
0.00019766 -0.00018586 0.00058061 -0.00030337
-0.0015681 0.0016136 0.0017584 0.00016855 -0.0014134 -0.0013873 0.20101 0.17184
-0.016493 -0.0028812 -0.00039227 0.0021205
0.001846 -0.00056559 0.00084597 -0.0012937 0.00019486 -0.00016413 -0.016517 -0.0028514
0.13686 0.19283 -0.011311 -0.0020236
-0.00032346 -0.00089258 0.0010403 -0.00057101 0.00058012 -0.00029135 -0.00037485 0.0021165
-0.011329 -0.0019936 0.1741 0.28012
1520000000 0.29136 0.10433 -0.013571 0.010024 0.0028196 -0.0040467 0.00010954 0.0025603
0.0019459 -0.0015253 -0.00097558 -0.00011121
-0.01357 0.010002 0.15313 0.32188 0.0013687 0.012476 0.0017004 -0.00084435
-4.5065e-06 -0.0011075 0.0002261 -0.00091781
0.0028006 -0.0040404 0.0014381 0.01246 0.35466 -0.053994 -0.0014046 -0.00030453
0.00051216 -0.00085154 -6.6699e-05 -0.00012275
0.00011446 0.0025708 0.0016829 -0.00085203 -0.0014047 -0.00029691 0.22226 0.13401
-0.015693 0.0030744 0.001823 0.0018385
0.0019413 -0.0015236 -9.1519e-06 -0.0011139 0.00051189 -0.00084519 -0.0157 0.0031102
0.16396 0.17716 -0.011067 0.0021786
-0.0010026 -0.00012728 0.00023283 -0.00092359 -4.3099e-05 -0.00012013 0.0018225 0.0018256
-0.011058 0.0021779 0.20628 0.25717
1580000000 0.2993 0.057764 -0.0074121 0.01263 -0.0010933 -0.0045202 0.0014652 0.0018986
-0.00014788 -0.0020226 -0.00027691 0.00031668
-0.0074203 0.012625 0.18007 0.2964 0.0048127 0.0079287 0.0004361 -0.0017195
-0.00059246 -0.0010864 -0.00016864 -0.00079309
-0.0011117 -0.0045005 0.0048301 0.0078989 0.33375 -0.11192 -0.0016623 0.00095527
-0.00025383 -0.0010518 0.00021249 -0.00054509
0.0014675 0.0018993 0.00043244 -0.001715 -0.0016606 0.00094851 0.23409 0.094861
-0.012339 0.0082637 0.0023493 0.00037002
-0.00018036 -0.0020425 -0.00060404 -0.0010842 -0.00026844 -0.0010564 -0.012316 0.0082846
0.1866 0.15736 -0.0088731 0.0072337
-0.00029342 0.00032036 -0.00019392 -0.00078897 0.00018719 -0.00051426 0.0023598 0.00037327
-0.0088498 0.0072351 0.23612 0.22861
1640000000 0.30024 0.016289 -0.0013011 0.011501 -0.0026729 -0.0023334 0.0026494 0.00092573
-0.00068955 -0.0015566 -0.00029607 0.00058773
-0.0013077 0.011504 0.20916 0.27098 0.0054564 0.0035872 -0.00083849 -0.0016735
-0.0011126 -0.00033347 -0.00053516 -0.00057585
-0.0026915 -0.0023239 0.0054724 0.0035719 0.30399 -0.16024 -0.00055621 0.0016459
-0.0011703 -0.00083874 -0.00015149 -0.00027306
0.0026377 0.00093916 -0.00084795 -0.0016737 -0.00056008 0.0016391 0.24465 0.047554
-0.0079502 0.010063 0.0024436 -0.0010897
-0.00069235 -0.0015611 -0.0011141 -0.00032705 -0.0011749 -0.00084695 -0.0079254 0.01011
0.20741 0.13211 -0.0043124 0.0089647
-0.00029561 0.0005919 -0.00052925 -0.00058292 -0.00015033 -0.00025216 0.0024448 -0.0010823
-0.0043061 0.0089677 0.26 0.19597
1700000000 0.29194 -0.029374 0.0018379 0.0089131 -0.0032739 0.00026436 0.0029105 -0.0013393
-0.0019518 -0.00075438 0.00061882 0.00042297
0.0018339 0.0089025 0.2271 0.23893 0.0037879 0.00082304 -0.0015055 -0.00050099
-0.00078246 0.00026596 -0.00085125 -0.00040212
-0.003294 0.00026203 0.0037954 0.0008021 0.2611 -0.19996 0.00072334 0.0014935
-0.0018591 -0.00017829 -0.00055402 -0.00081827
0.0028961 -0.0013717 -0.001507 -0.00049336 0.00072404 0.0014915 0.24095 -0.0008378
-0.0044857 0.010886 0.0013577 -0.0022165
-0.0019618 -0.00075638 -0.00078085 0.00027336 -0.0018691 -0.00016501 -0.0044539 0.010901
0.22331 0.1108 -4.5011e-06 0.0093273
0.00063177 0.00042911 -0.00085125 -0.00041646 -0.00051952 -0.00081104 0.0013711 -0.0022151
1.6928e-05 0.0093353 0.2746 0.16036
1760000000 0.2783 -0.077922 0.0039327 0.0058961 -0.0020609 0.00087778 0.0010452 -0.0033976
-0.0014757 0.00064193 0.00040703 -0.00040938
0.0039284 0.0058914 0.25214 0.19822 0.0017083 -0.0010564 -0.001188 0.00031257
-0.00090089 0.00099201 -0.00062193 0.00044759
-0.0020755 0.00086718 0.0017016 -0.0010638 0.21158 -0.23341 0.0013915 0.00073219
-0.0011484 0.0015855 -0.0013647 -0.00032454
0.0010354 -0.00341 -0.00119 0.00032117 0.0013931 0.00075312 0.23144 -0.05046
-0.00061007 0.010284 -0.00038082 -0.0024283
-0.0014883 0.0006563 -0.00088789 0.00099746 -0.0011409 0.0015884 -0.00058792 0.010301
0.23588 0.075337 0.0036285 0.0067952
0.00043463 -0.00040508 -0.00060088 0.00046971 -0.0013637 -0.00032773 -0.00038421 -0.0024361
0.0036419 0.0067925 0.28502 0.12159
1820000000 0.25236 -0.11467 0.0041211 0.0025174 8.7968e-05 0.0023657 -0.001145 -0.0028634
-0.001094 0.0010937 3.77e-05 9.9437e-06
0.0041273 0.0025208 0.2615 0.1681 -0.00013078 -1.6177e-06 -0.0011599 0.0010293
0.00015334 0.0012568 -0.00051171 0.00058111
9.6932e-05 0.0023477 -0.00012167 1.079e-05 0.16103 -0.24823 0.0012938 1.0696e-05
1.0946e-05 0.0022068 -0.0012962 0.00046468
-0.0011458 -0.0028623 -0.0011612 0.0010331 0.0012674 1.7638e-05 0.20237 -0.09587
0.0015571 0.0083514 -0.0016142 -0.0013051
-0.0010787 0.0010974 0.00015853 0.0012626 2.011e-06 0.0022108 0.0015802 0.0083507
0.2515 0.046077 0.0045841 0.0035976
5.6343e-05 4.5159e-06 -0.00049229 0.00057727 -0.0013072 0.00045054 -0.0016161 -0.0012908
0.0045812 0.0035969 0.28569 0.084615
1880000000 0.21577 -0.15446 0.0019729 0.00040582 -0.00031454 0.0019799 -0.0028707 -0.0019581
-0.00010705 0.0017788 0.00026864 -0.00054545
0.0019688 0.00038225 0.2651 0.12096 -0.0022085 0.0016129 -6.9183e-05 0.0016428
0.00068032 0.00098732 0.00021524 0.00094542
-0.00032104 0.0019782 -0.0022074 0.001635 0.10798 -0.25822 0.0013391 -0.00093661
0.0015479 0.0017617 -0.00078446 0.0014245
-0.0028636 -0.0019746 -4.5121e-05 0.0016392 0.001345 -0.00093685 0.1632 -0.13615
0.002902 0.0057936 -0.0020919 0.00043586
-8.9606e-05 0.0017744 0.00068998 0.00097847 0.0015768 0.0017523 0.0029139 0.0057898
0.25296 0.012839 0.0044195 0.0015918
0.00026923 -0.00052864 0.00021872 0.00095269 -0.00079399 0.0014295 -0.0020874 0.00042784
0.0044095 0.0016029 0.28367 0.050162
1940000000 0.17543 -0.1792 -0.00018042 -0.0011127 0.0014254 0.0018306 -0.0035185 0.0006877
0.0015306 0.0011008 -0.00056782 -0.00077237
-0.00018098 -0.0011279 0.26442 0.089561 -0.0010533 0.0038777 0.00098036 0.0011197
0.001653 0.00025381 0.0008733 0.00031358
0.0014541 0.0018133 -0.0010401 0.0039101 0.061668 -0.25047 0.00017066 -0.0016344
0.0022684 0.0002456 0.00041342 0.0015061
-0.0035174 0.00073589 0.00099514 0.0011075 0.00018583 -0.0016645 0.11163 -0.16644
0.002361 0.0037767 -0.0011563 0.0011929
0.0015461 0.0011164 0.0016459 0.00024364 0.0022602 0.00024046 0.0023714 0.0037822
0.25331 -0.026207 0.0035792 -0.0013315
-0.00056392 -0.00076094 0.00089486 0.00030125 0.00046761 0.0014921 -0.0011504 0.0011744
0.0036045 -0.0013524 0.27085 0.01384
2000000000 0.12899 -0.19295 -0.0038805 0.00096052 0.0024959 0.0015362 -0.0021704 0.0033286
0.0013562 -1.146e-05 -0.00061425 0.00030878
-0.0038794 0.00095062 0.25 0.054064 -0.00083791 0.0057117 0.0014315 0.0002687
0.0010325 -0.0013316 0.00049618 -1.1381e-05
0.0025074 0.0015543 -0.00080225 0.0057128 0.018436 -0.2357 -0.0010466 -0.00093326
0.0016431 -0.0011761 0.0017141 0.0010699
-0.0021831 0.003328 0.0014278 0.00026721 -0.001032 -0.00093428 0.058887 -0.17746
0.00048304 0.0028278 -8.8569e-05 0.0019145
0.0013617 -3.2518e-05 0.0010175 -0.0013201 0.0016754 -0.001162 0.0005015 0.0028379
0.24627 -0.060703 0.00062384 -0.0024907
