!Keysight Technologies,M9804A,MY58100912,A.14.10.03
!Date: Thursday, April 27, 2023 10:28:33
!Correction: S11(C  6-Port  ) 
!S12(C  6-Port  ) 
!S13(C  6-Port  ) 
!S14(C  6-Port  ) 
!S15(C  6-Port  ) 
!S16(C  6-Port  ) 
!S21(C  6-Port  ) 
!S22(C  6-Port  ) 
!S23(C  6-Port  ) 
!S24(C  6-Port  ) 
!S25(C  6-Port  ) 
!S26(C  6-Port  ) 
!S31(C  6-Port  ) 
!S32(C  6-Port  ) 
!S33(C  6-Port  ) 
!S34(C  6-Port  ) 
!S35(C  6-Port  ) 
!S36(C  6-Port  ) 
!S41(C  6-Port  ) 
!S42(C  6-Port  ) 
!S43(C  6-Port  ) 
!S44(C  6-Port  ) 
!S45(C  6-Port  ) 
!S46(C  6-Port  ) 
!S51(C  6-Port  ) 
!S52(C  6-Port  ) 
!S53(C  6-Port  ) 
!S54(C  6-Port  ) 
!S55(C  6-Port  ) 
!S56(C  6-Port  ) 
!S61(C  6-Port  ) 
!S62(C  6-Port  ) 
!S63(C  6-Port  ) 
!S64(C  6-Port  ) 
!S65(C  6-Port  ) 
!S66(C  6-Port  ) 
!S6P File: Measurement: :
# Hz S  RI   R 50
500000000 -0.33893 -0.020161 -0.010417 -0.0036297 -0.0074167 0.011943 -0.0036342 0.012098
0.011594 0.0043991 -0.0033929 0.0081263
-0.010464 -0.0036292 -0.41882 -0.038724 0.0065272 -0.011956 0.0017821 0.011927
0.0075076 0.0024973 0.0023658 0.013071
-0.0074175 0.011945 0.006567 -0.011943 -0.26278 0.22097 0.0071078 0.0034526
-0.00046395 0.0081279 0.0022584 0.011089
-0.0036098 0.01207 0.0018199 0.012025 0.0071258 0.0031861 -0.33097 0.059067
-0.019734 -0.0059186 0.016165 0.024243
0.011631 0.0045147 0.0074286 0.0025313 -0.00036735 0.0081644 -0.019692 -0.0059172
-0.23589 -0.1684 -0.025811 0.0056303
-0.0030873 0.0083238 0.0025836 0.013245 0.0024993 0.011 0.016292 0.023892
-0.025925 0.0055554 -0.28158 -0.084338
560000000 -0.31255 0.13522 -0.025909 -0.059637 0.00058106 0.011137 0.0060417 0.009571
0.0095457 0.00361 0.01131 0.0062043
-0.025894 -0.059841 -0.3758 0.11656 -0.041775 -0.035417 0.012515 0.0037584
-0.011453 -0.0041812 0.0021513 -6.3058e-05
0.0005669 0.011161 -0.041842 -0.035425 -0.18044 0.26589 5.6979e-05 -0.0051342
0.018494 0.0043901 0.0070558 -0.0072124
0.005833 0.0093553 0.012701 0.0035145 5.7106e-05 -0.0049614 -0.30594 0.14687
0.00072787 -0.024054 0.003742 -0.018792
0.0089623 0.003881 -0.011863 -0.0040099 0.018039 0.0043795 0.00068493 -0.024034
-0.28669 0.0064521 0.0036787 -0.046913
0.011344 0.006141 0.0022469 -0.00031658 0.0072691 -0.0073739 0.0037584 -0.018656
0.0039256 -0.04692 -0.32889 0.053449
620000000 -0.27128 0.12147 -0.023404 0.0070553 0.0035093 0.0076484 0.0078607 -0.0048055
0.010097 -0.0014313 0.0008477 -0.0022413
-0.023292 0.0071106 -0.40141 0.071722 -0.019524 0.00038857 -0.00076828 -0.0020061
0.0095694 -0.0064328 0.0014089 -0.0022638
0.0034984 0.0076836 -0.019567 0.00044346 -0.14981 0.27545 -0.0012051 -0.0049781
-0.0036609 -0.0025844 0.0081226 -0.0033633
0.0077325 -0.0050542 -0.00081936 -0.0020288 -0.0010972 -0.0049436 -0.26385 0.15843
-0.038854 -0.017238 0.011241 0.022927
0.010285 -0.0011851 0.0095894 -0.0065299 -0.0037468 -0.0026784 -0.038987 -0.017434
-0.21103 -0.032655 -0.037077 0.015874
0.0007958 -0.0026697 0.001346 -0.0021519 0.0080642 -0.0032013 0.011406 0.022893
-0.037076 0.016022 -0.25571 0.024282
680000000 -0.22807 0.20281 -0.027793 -0.012577 0.0052974 0.0045984 0.00079834 -0.0070666
-0.0027327 -0.010566 0.0037545 -0.0070302
-0.027698 -0.012597 -0.38458 0.16606 -0.032331 0.00031734 -0.0015429 -0.00045578
-0.0026559 -0.0086395 -0.0014449 -0.0022763
0.0053965 0.0046631 -0.032283 0.00041261 -0.098992 0.29326 -0.0010859 -0.00035457
-0.0015233 8.059e-05 -0.0031853 -0.0087699
0.00088826 -0.0069224 -0.0015595 -0.0004588 -0.001033 -0.00017234 -0.21709 0.20665
-0.025801 -0.0053304 -0.0092768 -0.0085478
-0.0029935 -0.010609 -0.0027119 -0.0085299 -0.0014567 8.695e-05 -0.025903 -0.0052482
-0.25037 0.064758 -0.0070242 -0.007515
0.0037016 -0.0072339 -0.0015231 -0.0022604 -0.0032832 -0.0087215 -0.0091975 -0.0085908
-0.0070359 -0.0074892 -0.25568 0.12192
740000000 -0.18438 0.19753 -0.037422 0.026042 0.011852 -0.0058197 -0.00055895 -0.003995
-0.00499 -0.0031496 -0.0054549 0.0030128
-0.037463 0.025857 -0.33308 0.18579 -0.033179 0.034806 -0.0013592 -0.0063083
-0.011611 0.0076822 -0.0019608 -0.0051432
0.011909 -0.0058801 -0.033118 0.034877 -0.065309 0.29294 -0.0016433 0.0029743
-0.0029844 -0.0046473 -0.001968 0.0014233
-0.00055611 -0.0039821 -0.0012145 -0.0061825 -0.0017268 0.003038 -0.19987 0.21503
-0.042365 -0.0034561 0.021846 0.012157
-0.0051581 -0.0029695 -0.011533 0.0076617 -0.002989 -0.0048554 -0.042439 -0.0034928
-0.15804 0.087683 -0.038056 0.0040804
-0.0058415 0.0027783 -0.0020028 -0.005039 -0.0020708 0.0012876 0.021725 0.012256
-0.038187 0.0039997 -0.24381 0.13036
800000000 -0.15125 0.23551 -0.02174 0.017178 0.0044635 -0.010336 -0.004563 -0.0017823
-0.0036802 0.0024146 0.0037082 0.00046156
-0.021752 0.01733 -0.33345 0.25426 -0.0068757 0.03355 -0.0024202 0.0021916
-0.00052059 0.0032307 0.0011664 0.005196
0.0044058 -0.01031 -0.0068126 0.033565 -0.022598 0.31507 0.00085387 0.0016709
0.00031811 0.0035858 -0.0018202 0.0012465
-0.0045335 -0.0016965 -0.0024098 0.002154 0.00089058 0.0016634 -0.16902 0.2416
-0.027199 0.016144 0.012534 -0.0097204
-0.0038761 0.0025578 -0.00049256 0.0033125 0.00031826 0.003624 -0.027251 0.016257
-0.1956 0.11351 -0.015563 0.018184
0.0037576 0.00075015 0.0011391 0.0052405 -0.0017704 0.0012356 0.012653 -0.009756
-0.015629 0.018099 -0.23059 0.17626
860000000 -0.11657 0.25561 -0.016206 0.031017 -0.0039159 -0.0093422 -0.0022292 0.0013365
0.003931 0.0047869 -0.0024624 -0.0026337
-0.016261 0.031027 -0.28642 0.29557 0.0089643 0.033113 0.00041497 0.0023158
0.0041202 0.00043791 0.0030215 0.00036728
-0.0039645 -0.0093794 0.0090505 0.03311 0.025918 0.32203 -0.00027013 6.9745e-05
0.0023302 -0.0011318 0.0014646 0.0041044
-0.0021774 0.0012804 0.00039551 0.0022659 -0.00025941 7.4931e-05 -0.13238 0.25209
-0.015034 0.0208 -0.0055989 -0.0090968
0.0040588 0.0047304 0.0042727 0.00028702 0.002311 -0.0011365 -0.015049 0.02085
-0.14375 0.16073 -0.021631 0.016381
-0.0025298 -0.0026217 0.0030809 0.00054884 0.001458 0.0041437 -0.0054475 -0.0090508
-0.021587 0.016296 -0.18205 0.21642
920000000 -0.089511 0.27782 0.0061772 0.037036 -0.0091411 -0.0036506 -0.0013313 0.0020125
0.0016517 0.0016416 0.0026127 -0.0017683
0.0061213 0.036997 -0.25555 0.31622 0.028106 0.020318 0.0017991 0.00098676
0.0072395 -0.00058961 0.0037147 -0.0028831
-0.0091689 -0.0035977 0.028192 0.02027 0.073507 0.32184 0.0019581 -8.0103e-05
0.0017178 -0.00057207 0.00083586 -0.00099353
-0.0014343 0.0020025 0.0018421 0.00099829 0.0019664 -6.9613e-05 -0.10643 0.26786
-0.0073136 0.030877 0.0025344 -0.0061736
0.0017104 0.0015987 0.0071903 -0.00066213 0.0016989 -0.0006048 -0.0072169 0.030942
-0.12827 0.16428 -0.00061523 0.025031
0.0024692 -0.0017013 0.0037564 -0.0029303 0.00084423 -0.00095788 0.0024317 -0.0061384
-0.00070714 0.025065 -0.18143 0.23242
980000000 -0.042261 0.29521 0.018533 0.028543 -0.0082551 0.0048121 0.0022381 0.0029885
0.003974 -0.0018485 -0.0034561 -0.0021385
0.018473 0.028607 -0.20353 0.34834 0.032267 0.0032883 0.0020182 -0.00033335
0.0014477 -0.0060399 -0.0007186 -0.0022556
-0.0082638 0.004836 0.032295 0.003237 0.11988 0.31354 0.00044596 -0.0013282
5.8549e-05 -0.0023389 0.0013653 -0.00024025
0.0022493 0.0029374 0.0020383 -0.00038392 0.00045375 -0.0013276 -0.067259 0.27709
0.010543 0.028448 -0.008726 -0.0061106
0.0039202 -0.0018295 0.0014283 -0.0060636 7.4747e-05 -0.0023333 0.010595 0.028469
-0.098218 0.1895 0.0059747 0.018502
-0.0033244 -0.0019939 -0.00069776 -0.0021867 0.0013862 -0.00021811 -0.0086494 -0.0060584
0.0059736 0.018492 -0.13679 0.26989
1040000000 0.00061238 0.30256 0.032897 0.015915 -0.00093811 0.0066093 0.0023803 0.00053845
9.495e-05 -0.0034135 -0.0009539 -0.0015005
0.032915 0.015968 -0.1676 0.36138 0.027587 -0.015458 0.0013003 -0.0017645
-0.0023967 -0.0024604 -0.0015233 -0.0028195
-0.00090567 0.0066259 0.027578 -0.015517 0.16627 0.29894 -0.00062475 -0.0014304
-0.001548 -0.00088874 -0.0004381 -0.0011268
0.0023677 0.00049261 0.0012804 -0.0018161 -0.00061355 -0.0014413 -0.038832 0.28641
0.020853 0.015591 -0.0026535 0.0011261
5.9754e-05 -0.0034141 -0.0023956 -0.0024406 -0.0015125 -0.00087079 0.020964 0.015582
-0.065544 0.19579 0.013727 0.015761
-0.00081533 -0.0013907 -0.00153 -0.0028473 -0.00044572 -0.0011048 -0.0026109 0.0011995
0.013626 0.015792 -0.11212 0.28962
1100000000 0.046413 0.30857 0.03446 -0.0056 0.0028529 0.0035481 0.0021318 -0.0011467
-0.00202 -0.0027832 -0.0034479 0.00044167
0.034467 -0.005549 -0.12376 0.37763 0.013528 -0.027271 -0.0002039 -0.0017348
-0.0032993 -0.00045012 -0.003161 -0.00028965
0.0028897 0.0035372 0.013475 -0.027341 0.21286 0.27675 -0.0017652 0.00019946
-0.0017853 0.00057876 -0.00092973 -0.00032987
0.0021471 -0.0011389 -0.00021596 -0.0017417 -0.00177 0.0001821 0.0026767 0.28883
0.02459 0.0025411 -0.0023291 0.00029769
-0.0020679 -0.0027931 -0.003354 -0.00048223 -0.0017717 0.00059964 0.024638 0.0025066
-0.046778 0.20751 0.018159 0.0065218
-0.0034404 0.00050861 -0.0032001 -0.00028861 -0.00094847 -0.0003237 -0.0023277 0.00031357
0.01808 0.0065146 -0.065112 0.31424
1160000000 0.097258 0.3023 0.022161 -0.021206 0.0024413 -0.00045648 -0.00016962 -0.0021023
-0.0039521 -0.00052102 -0.00073133 0.0036966
0.022183 -0.021116 -0.079579 0.38112 -0.0046522 -0.027739 -0.0016309 -0.0015064
-0.002472 0.0023264 -0.0013885 0.0017366
0.0024448 -0.00046923 -0.0047173 -0.027734 0.25499 0.24457 -0.00078143 0.0017713
-0.00054234 0.0018215 -0.00090826 8.4638e-05
-0.00013765 -0.0020889 -0.0016378 -0.0015132 -0.00076561 0.0017671 0.041888 0.28389
0.020129 -0.012375 -0.0030754 0.0044103
-0.0039452 -0.0005232 -0.0024681 0.0023049 -0.00054564 0.0018591 0.020116 -0.012406
-0.013012 0.2143 0.016472 -0.0015251
-0.00077446 0.0037606 -0.0013289 0.0017193 -0.00089136 9.9812e-05 -0.0030937 0.0044322
0.016483 -0.0014853 -0.018743 0.31488
1220000000 0.14201 0.28924 0.0086271 -0.029314 -0.0015353 -0.00052189 4.3186e-05 -0.00092492
-0.0023793 0.0022482 0.0012653 0.0017649
0.0086602 -0.029265 -0.035327 0.39175 -0.01684 -0.019649 -0.0023702 0.0004676
7.4874e-05 0.0027906 -0.00051858 0.0019381
-0.001532 -0.00054415 -0.016914 -0.019611 0.2937 0.20476 0.00075564 0.0018028
0.00060786 0.0012244 0.0002579 0.00054522
3.8522e-05 -0.00095433 -0.0023362 0.0004749 0.00073638 0.0017845 0.082098 0.27315
0.0091712 -0.018408 0.0016423 0.0014215
-0.002361 0.0022168 7.9318e-05 0.002806 0.00060356 0.0012148 0.0091562 -0.018453
0.010893 0.22096 0.011624 -0.012927
0.0013065 0.0017494 -0.00051169 0.0019318 0.000277 0.00049897 0.0016318 0.0014414
0.011617 -0.012932 0.014716 0.32684
1280000000 0.19055 0.26549 -0.0087484 -0.026958 -0.0014871 0.0027024 -0.00096413 -0.0018808
-0.00057305 0.0028515 0.0022516 0.00088504
-0.0086846 -0.026919 0.010107 0.38176 -0.022843 -0.0075554 -0.00097626 0.001353
0.0015968 0.0016436 0.00065756 0.0018383
-0.001471 0.0027158 -0.022897 -0.0074741 0.32351 0.15976 0.0015295 5.5329e-05
0.0010571 0.00029625 0.00031399 0.00020734
-0.00098175 -0.0018823 -0.00097957 0.0013458 0.00152 5.62e-05 0.11774 0.25417
-0.00042521 -0.019766 -0.00042456 0.00038747
-0.00056146 0.0028733 0.0015769 0.0016205 0.0010727 0.00029626 -0.0004246 -0.019744
0.047283 0.2223 0.001536 -0.014404
0.0022742 0.00084641 0.00068855 0.0017925 0.00029094 0.00020298 -0.00042937 0.00034349
0.0015648 -0.014415 0.060412 0.32466
1340000000 0.22682 0.23064 -0.017622 -0.017342 0.0011712 0.0040942 -0.0016189 -0.00079145
0.0013847 0.0024359 0.001391 -0.0014416
-0.017598 -0.017341 0.049141 0.3728 -0.020525 0.0045693 -0.00013351 0.0020033
0.0018806 0.00075531 0.0012345 0.00063945
0.0011691 0.0041047 -0.020527 0.0046565 0.34471 0.11172 0.0012926 -0.00094938
0.00062039 -0.00050602 9.3697e-05 0.00023074
-0.0016228 -0.00078978 -0.00012358 0.0019782 0.0013037 -0.00094897 0.14896 0.23233
-0.0097076 -0.016458 0.00060303 0.0010281
0.001388 0.0024318 0.001898 0.0007402 0.00063399 -0.00051714 -0.0097581 -0.016458
0.076748 0.21582 -0.0046586 -0.012533
0.0013733 -0.0014139 0.0012767 0.00065796 0.00011599 0.00021518 0.00061611 0.00098496
-0.0046493 -0.012497 0.099073 0.31707
1400000000 0.25876 0.19117 -0.022418 -0.0062458 0.0050708 0.0026295 -0.0020518 0.00052544
0.0022251 0.00072108 0.00012865 -0.0013261
-0.022392 -0.0062538 0.085962 0.35912 -0.013863 0.01201 0.0013097 0.0013833
0.0011998 -0.00074391 0.0011106 8.5749e-05
0.0050646 0.0026182 -0.013837 0.012096 0.35756 0.057306 0.00016338 -0.0018352
1.5232e-05 -0.0003783 0.00031449 0.00019971
-0.002041 0.00051871 0.0013382 0.0013666 0.00015531 -0.0018274 0.17715 0.20193
-0.015366 -0.0095732 -0.00044965 0.00034885
0.0022304 0.00071405 0.0012154 -0.00072087 2.3501e-05 -0.00038325 -0.015375 -0.0095376
0.10894 0.20916 -0.010448 -0.0076314
0.00013488 -0.0013281 0.0011269 8.8699e-05 0.00031961 0.00022262 -0.00043719 0.00032709
-0.010428 -0.007619 0.14196 0.30295
1460000000 0.28002 0.14675 -0.019258 0.0050431 0.0052038 -0.0021257 -0.001573 0.001619
0.0018584 -0.00055161 -0.00036518 -0.00086255
-0.019229 0.0050291 0.11959 0.33695 -0.0057846 0.014507 0.0017518 0.00017844
0.00083657 -0.0012762 0.001078 -0.0005597
0.0052164 -0.0021198 -0.0057272 0.014531 0.36217 0.0024757 -0.0014129 -0.0013778
0.00016393 -0.00016154 0.00050293 -0.00027779
-0.001561 0.0016173 0.0017628 0.00019125 -0.0013828 -0.0013606 0.20104 0.17185
-0.016508 -0.002842 -0.00036622 0.0021387
0.0018956 -0.00053473 0.00085216 -0.0013072 0.00016831 -0.00018082 -0.01652 -0.0028137
0.13681 0.19285 -0.011396 -0.0021378
-0.00037828 -0.00085261 0.0010968 -0.00054112 0.00052667 -0.00028292 -0.00035042 0.0021081
-0.011398 -0.0021485 0.17379 0.28012
1520000000 0.29135 0.10434 -0.013609 0.010031 0.0028266 -0.0040302 0.00010065 0.0025802
0.0019679 -0.0015162 -0.00098228 -7.6672e-05
-0.013606 0.0099997 0.15306 0.32184 0.0013456 0.012476 0.0016904 -0.00085451
8.5293e-06 -0.0011245 0.00027689 -0.00091138
0.0028035 -0.0040425 0.0014016 0.012484 0.35467 -0.054101 -0.0014332 -0.00031596
0.00047789 -0.00085207 -3.2881e-05 -8.2301e-05
0.00010852 0.0025672 0.0016984 -0.00084697 -0.0014358 -0.0002976 0.22226 0.13395
-0.015708 0.0030637 0.0018736 0.0018228
0.001971 -0.0015288 -2.7011e-06 -0.0011286 0.0004856 -0.00086602 -0.0157 0.0031022
0.16386 0.17715 -0.011165 0.0021718
-0.001017 -4.1714e-05 0.00026483 -0.00089719 -3.3535e-05 -0.00010081 0.0019081 0.0018307
-0.011153 0.0021484 0.20605 0.25718
1580000000 0.29931 0.057776 -0.0074323 0.012685 -0.0011001 -0.0044762 0.0014755 0.0019117
-0.00015212 -0.0020107 -0.00030313 0.00032017
-0.0074561 0.012658 0.17998 0.29642 0.0047955 0.0079431 0.00044674 -0.0017006
-0.00061522 -0.0010862 -0.00017031 -0.00080833
-0.0011194 -0.0044707 0.0048224 0.00792 0.33373 -0.11198 -0.001687 0.00095242
-0.00027257 -0.0010637 0.00020349 -0.00057721
0.0014855 0.0019015 0.00044256 -0.0017179 -0.0016872 0.0009625 0.2341 0.094896
-0.012326 0.0082135 0.0023394 0.00036081
-0.00012585 -0.0020447 -0.00061706 -0.0010976 -0.00026888 -0.0010634 -0.01234 0.0082663
0.18655 0.15739 -0.0088929 0.0072892
-0.00025827 0.00036788 -0.00014776 -0.00079275 0.00019786 -0.00056752 0.0023504 0.0003767
-0.0088987 0.007272 0.23595 0.22873
1640000000 0.30025 0.016284 -0.0013026 0.011539 -0.0026697 -0.002306 0.0026546 0.00093221
-0.00068751 -0.0015464 -0.00031349 0.00059721
-0.001316 0.011527 0.20909 0.271 0.0054628 0.0036446 -0.00084469 -0.0016842
-0.0011129 -0.00032113 -0.00052635 -0.00060006
-0.0026918 -0.0023174 0.0054713 0.0036057 0.30397 -0.16027 -0.0005698 0.0016361
-0.0011569 -0.00083545 -0.00016305 -0.00024685
0.0026912 0.00091781 -0.0008423 -0.0016841 -0.00056383 0.0016434 0.24467 0.047525
-0.0079709 0.010092 0.0024424 -0.0010894
-0.00069115 -0.0015543 -0.001109 -0.00030292 -0.0011498 -0.00084274 -0.0079559 0.01009
0.20732 0.13217 -0.0043434 0.0090275
-0.00028487 0.00060495 -0.00052387 -0.00061666 -0.00021426 -0.00025163 0.0024493 -0.0011042
-0.0043543 0.0090176 0.25993 0.19607
1700000000 0.29194 -0.029424 0.0018496 0.0089282 -0.0033101 0.00025069 0.002913 -0.0013476
-0.0019856 -0.00076596 0.00064116 0.00046741
0.0018092 0.0089161 0.22703 0.23899 0.0037974 0.0008335 -0.0015098 -0.00050366
-0.00077205 0.00025684 -0.00084363 -0.00041338
-0.0032698 0.00026581 0.0037983 0.00082214 0.26108 -0.20001 0.00073547 0.0014517
-0.0018602 -0.00017856 -0.00055341 -0.00081011
0.0028997 -0.0013819 -0.0015205 -0.00051209 0.00072474 0.0014518 0.24093 -0.0008799
-0.0044854 0.010882 0.0014358 -0.0022399
-0.0019641 -0.00077953 -0.00078075 0.00027908 -0.0018593 -0.00016587 -0.0044591 0.010913
0.22322 0.1108 -1.8232e-05 0.0094754
0.00061286 0.00042283 -0.0008492 -0.00040643 -0.00055366 -0.00078731 0.0013936 -0.0022322
4.9729e-06 0.0094765 0.27446 0.16042
1760000000 0.27834 -0.078013 0.0039525 0.0059055 -0.0020264 0.00084355 0.001065 -0.0034344
-0.0015022 0.00065551 0.00040958 -0.0004028
0.0039388 0.0058853 0.25213 0.19832 0.00174 -0.0010631 -0.0011971 0.00029011
-0.00088722 0.00098144 -0.00061882 0.00046144
-0.0020387 0.00085195 0.0017339 -0.0010738 0.21156 -0.23349 0.0014138 0.00070336
-0.0011027 0.0015704 -0.0013122 -0.00033842
0.0010435 -0.0034107 -0.0012117 0.00029713 0.0013696 0.00069641 0.23151 -0.050515
-0.00056599 0.010336 -0.00037637 -0.0024322
-0.001502 0.00066092 -0.00089355 0.00098231 -0.0011431 0.0015687 -0.00056072 0.010318
0.23578 0.075382 0.0036233 0.0069161
0.00043316 -0.00038137 -0.00061453 0.00048423 -0.0013447 -0.00031688 -0.00037184 -0.0024654
0.0036029 0.0069186 0.28489 0.12186
1820000000 0.25233 -0.11483 0.0041481 0.0025122 0.00010069 0.0023884 -0.0011217 -0.0028644
-0.0010672 0.0011102 7.9416e-06 3.9465e-05
0.0041336 0.0025131 0.26151 0.16813 -8.5073e-05 -9.5469e-06 -0.0011522 0.0010035
0.00017305 0.001258 -0.00052373 0.00058256
9.9003e-05 0.0023577 -7.3816e-05 -1.3589e-05 0.16102 -0.24824 0.0013479 1.802e-06
-1.2294e-05 0.0022683 -0.0013643 0.00054002
-0.0011392 -0.0028728 -0.001152 0.00099693 0.0013545 -2.5597e-05 0.20233 -0.095984
0.0016026 0.0083831 -0.0015645 -0.001303
-0.0010802 0.0011021 0.00018447 0.0012585 3.003e-05 0.0022733 0.0016004 0.00836
0.25139 0.046106 0.0046937 0.0036244
2.8283e-05 6.2812e-06 -0.00051529 0.00058608 -0.0013386 0.00049314 -0.0015768 -0.0013065
0.004675 0.0036444 0.28565 0.084766
1880000000 0.21574 -0.15457 0.0019913 0.00039206 -0.00030368 0.0019945 -0.0028263 -0.0019657
-5.6259e-05 0.0017956 0.00027801 -0.0005172
0.0019834 0.00039795 0.26513 0.12103 -0.0021874 0.0016432 -6.1633e-05 0.0016492
0.00069979 0.00098415 0.00025514 0.00096877
-0.00029588 0.0019597 -0.0021723 0.0016521 0.10794 -0.25814 0.001398 -0.00095378
0.0015658 0.0017598 -0.00071418 0.0014532
-0.0028646 -0.0019481 -3.6199e-05 0.0016309 0.0014113 -0.0009444 0.16319 -0.1361
0.0029078 0.0058234 -0.0020934 0.00044467
-0.00010164 0.0018019 0.00068157 0.00096746 0.0015958 0.0017758 0.0029288 0.0057808
0.2529 0.012958 0.0045611 0.0016584
0.00028347 -0.00050799 0.00027418 0.00094736 -0.00070147 0.0014004 -0.0021369 0.0004306
0.0045788 0.0016421 0.28364 0.050294
1940000000 0.17538 -0.17927 -0.00013566 -0.0011258 0.0014414 0.0018296 -0.0035354 0.0007106
0.0015341 0.001108 -0.00052141 -0.00073226
-0.00012641 -0.0011151 0.26454 0.0896 -0.0010295 0.0039034 0.0010022 0.001099
0.0016188 0.00025024 0.00089117 0.00029054
0.0014394 0.0018052 -0.0010107 0.0039133 0.061577 -0.25046 0.00019054 -0.001638
0.0022189 0.00025084 0.00043395 0.0015072
-0.0035109 0.00072092 0.00099381 0.0010758 0.0001523 -0.0016548 0.11158 -0.16641
0.0023327 0.003842 -0.0012103 0.0012706
0.0015661 0.0010917 0.0016648 0.00022668 0.0022123 0.00027723 0.0023206 0.0037694
0.25325 -0.026114 0.0036295 -0.0013985
-0.00056571 -0.00072941 0.00091749 0.00025512 0.00041344 0.0015258 -0.0012596 0.0012341
0.003637 -0.0014123 0.27098 0.013938
2000000000 0.12895 -0.19302 -0.003841 0.00095113 0.0024706 0.0015761 -0.002235 0.0033431
0.0013366 5.9129e-06 -0.00068986 0.00027079
-0.0038308 0.00093042 0.25007 0.05402 -0.00080584 0.0056861 0.0014425 0.0002693
0.00099459 -0.0012839 0.00049904 -4.7665e-05
0.0024983 0.0014996 -0.00078201 0.0057104 0.018401 -0.23573 -0.0010519 -0.0009098
0.0015966 -0.0011048 0.0017522 0.0010224
-0.002191 0.0033507 0.0014581 0.00027379 -0.0010817 -0.00088018 0.058871 -0.17742
0.0004192 0.0028596 -0.00018951 0.001953
0.0013888 -4.3907e-05 0.0010165 -0.0012868 0.0016035 -0.0011016 0.00042219 0.0028504
