!Keysight Technologies,M9804A,MY58100912,A.14.10.03
!Date: Thursday, April 27, 2023 10:28:33
!Correction: S11(C  6-Port  ) 
!S12(C  6-Port  ) 
!S13(C  6-Port  ) 
!S14(C  6-Port  ) 
!S15(C  6-Port  ) 
!S16(C  6-Port  ) 
!S21(C  6-Port  ) 
!S22(C  6-Port  ) 
!S23(C  6-Port  ) 
!S24(C  6-Port  ) 
!S25(C  6-Port  ) 
!S26(C  6-Port  ) 
!S31(C  6-Port  ) 
!S32(C  6-Port  ) 
!S33(C  6-Port  ) 
!S34(C  6-Port  ) 
!S35(C  6-Port  ) 
!S36(C  6-Port  ) 
!S41(C  6-Port  ) 
!S42(C  6-Port  ) 
!S43(C  6-Port  ) 
!S44(C  6-Port  ) 
!S45(C  6-Port  ) 
!S46(C  6-Port  ) 
!S51(C  6-Port  ) 
!S52(C  6-Port  ) 
!S53(C  6-Port  ) 
!S54(C  6-Port  ) 
!S55(C  6-Port  ) 
!S56(C  6-Port  ) 
!S61(C  6-Port  ) 
!S62(C  6-Port  ) 
!S63(C  6-Port  ) 
!S64(C  6-Port  ) 
!S65(C  6-Port  ) 
!S66(C  6-Port  ) 
!S6P File: Measurement: :
# Hz S  RI   R 50
500000000 -0.33932 -0.01919 -0.010678 -0.0033145 -0.0074622 0.012226 -0.0034175 0.012099
0.011659 0.0040878 -0.0029914 0.0079536
-0.010747 -0.0033249 -0.41894 -0.037904 0.0065085 -0.011653 0.002032 0.012297
0.0075864 0.0022465 0.0031457 0.013066
-0.0075646 0.012172 0.006484 -0.011648 -0.26276 0.22105 0.0071253 0.0033841
-0.00022911 0.0079126 0.00275 0.010995
-0.0034785 0.012227 0.0020748 0.012265 0.0071603 0.0033738 -0.33103 0.059279
-0.019902 -0.006199 0.015625 0.02422
0.011691 0.0044819 0.0074234 0.0024357 -0.00022437 0.0080301 -0.019923 -0.005884
-0.23602 -0.16737 -0.026526 0.0052023
-0.0028797 0.0080221 0.0030721 0.013565 0.002644 0.011 0.015966 0.024269
-0.026176 0.0054055 -0.28224 -0.084537
560000000 -0.31212 0.1347 -0.026637 -0.06034 0.00067636 0.011177 0.0053874 0.0093764
0.0099609 0.0045168 0.010731 0.0065264
-0.026573 -0.06022 -0.37588 0.11723 -0.041988 -0.035649 0.012675 0.0034926
-0.012068 -0.005338 0.0035518 -0.00034372
0.00067506 0.011152 -0.042096 -0.035639 -0.18013 0.26626 -0.00034183 -0.0051446
0.019034 0.0049921 0.0063741 -0.0070019
0.0053559 0.0095082 0.012714 0.0034952 -0.00031673 -0.0050562 -0.30566 0.14701
0.00079219 -0.02508 0.0038834 -0.018342
0.0092275 0.0043128 -0.011535 -0.004495 0.019006 0.0045172 0.00052865 -0.024164
-0.28735 0.0048163 0.0041311 -0.047477
0.010644 0.006742 0.0031541 -0.00040081 0.0063552 -0.007056 0.0038428 -0.018335
0.0042279 -0.047394 -0.3296 0.053913
620000000 -0.27053 0.12152 -0.023223 0.0071352 0.003481 0.0078952 0.0075627 -0.0047423
0.010128 -0.0016891 0.0005468 -0.0026326
-0.023239 0.0071219 -0.40123 0.071889 -0.019532 0.0005651 -0.0011613 -0.0019686
0.0096619 -0.0066725 0.001013 -0.0023686
0.0035162 0.0078957 -0.019555 0.00060133 -0.14978 0.27561 -0.00079655 -0.0047719
-0.0036829 -0.0025585 0.0083463 -0.0032041
0.0075729 -0.0048548 -0.0012079 -0.0019552 -0.00079066 -0.0047924 -0.26314 0.15886
-0.039822 -0.016853 0.012036 0.023427
0.010582 -0.0015314 0.010166 -0.0063786 -0.0039678 -0.0028057 -0.039422 -0.018043
-0.21049 -0.033487 -0.038367 0.01462
0.00031301 -0.0025441 0.0011706 -0.0023367 0.0084207 -0.0031417 0.011817 0.023805
-0.038697 0.015261 -0.25634 0.025318
680000000 -0.22806 0.20302 -0.027687 -0.012533 0.0052777 0.0045692 0.0010341 -0.007204
-0.0025785 -0.010997 0.0040784 -0.0070296
-0.027669 -0.012545 -0.38452 0.16631 -0.032269 0.00040786 -0.0013231 -0.00053848
-0.0023917 -0.008817 -0.0013142 -0.0022945
0.0052905 0.0045431 -0.032281 0.00045402 -0.098869 0.29336 -0.00095832 -0.0003467
-0.0014286 0.00022099 -0.0034616 -0.0087067
0.0010684 -0.0071771 -0.0013639 -0.0004996 -0.00096952 -0.00035211 -0.21698 0.2065
-0.026379 -0.0052707 -0.0092009 -0.0086729
-0.0027221 -0.010783 -0.002467 -0.0084413 -0.0014515 0.00030762 -0.025789 -0.0053527
-0.2501 0.064831 -0.0068532 -0.0082693
0.0040539 -0.006861 -0.0011994 -0.0021777 -0.0034022 -0.00872 -0.0094269 -0.0087031
-0.0076825 -0.008219 -0.25508 0.12133
740000000 -0.18461 0.19767 -0.037108 0.026123 0.011833 -0.0057431 -0.00065092 -0.0041253
-0.0049536 -0.0030216 -0.00587 0.0029236
-0.037129 0.026034 -0.33375 0.18589 -0.033181 0.034609 -0.001422 -0.0062388
-0.011372 0.0078735 -0.0025947 -0.0054234
0.011802 -0.0057889 -0.033099 0.034671 -0.065213 0.29308 -0.0016692 0.0030057
-0.0033721 -0.0045668 -0.00181 0.0013667
-0.0006847 -0.0041183 -0.0014472 -0.0062412 -0.0016864 0.0029991 -0.19947 0.21514
-0.042877 -0.00322 0.022552 0.011983
-0.0053126 -0.0033955 -0.011543 0.0080665 -0.0032811 -0.004825 -0.043057 -0.0033571
-0.15823 0.087112 -0.039224 0.003549
-0.0056665 0.0028112 -0.0023958 -0.0052953 -0.002081 0.0014211 0.022664 0.012605
-0.039015 0.0033869 -0.24217 0.13009
800000000 -0.15105 0.23533 -0.021563 0.017223 0.0045205 -0.010348 -0.004628 -0.0017359
-0.0036003 0.0023652 0.0038284 0.0004685
-0.021567 0.017205 -0.33338 0.25438 -0.0068528 0.03352 -0.0024419 0.0021761
-0.00052294 0.0032569 0.0012299 0.0050745
0.0044813 -0.010359 -0.0067899 0.033562 -0.022501 0.31504 0.00087763 0.0017016
0.00034309 0.0035232 -0.0017818 0.0012154
-0.0046351 -0.0017173 -0.002421 0.0021887 0.00089409 0.0016981 -0.16915 0.24185
-0.027089 0.016202 0.01251 -0.0096216
-0.0035538 0.0021892 -0.00049707 0.003135 0.00045479 0.0034133 -0.027088 0.016136
-0.19568 0.11386 -0.015619 0.018343
0.0036435 0.00035355 0.0011368 0.0050554 -0.0019758 0.0012006 0.012248 -0.0095357
-0.015608 0.017943 -0.23111 0.17678
860000000 -0.11615 0.25581 -0.015994 0.031132 -0.0038442 -0.0092959 -0.0019998 0.0015198
0.0042214 0.0048427 -0.0026674 -0.0023809
-0.01597 0.031138 -0.28625 0.29566 0.0090458 0.033199 0.00032233 0.002475
0.0043824 0.00063224 0.0030743 0.00049188
-0.00386 -0.0092918 0.0091137 0.033184 0.025918 0.32207 -0.00033859 9.1135e-05
0.0024835 -0.0010417 0.0014597 0.0041947
-0.001999 0.0015444 0.00032123 0.0024555 -0.00035158 9.5004e-05 -0.13219 0.25205
-0.014981 0.020927 -0.005689 -0.0089896
0.0045116 0.0048592 0.0045368 0.00060723 0.0025299 -0.00099304 -0.01485 0.021117
-0.14313 0.16051 -0.021737 0.016789
-0.0028405 -0.0025053 0.0030678 7.8518e-05 0.0014495 0.003996 -0.0058299 -0.0089559
-0.021395 0.016633 -0.1813 0.21677
920000000 -0.089402 0.27785 0.0061902 0.036942 -0.0091089 -0.0035832 -0.0013127 0.0019711
0.0017015 0.0016476 0.0025332 -0.0016658
0.0061965 0.036957 -0.25549 0.31632 0.028142 0.02033 0.0018379 0.00091626
0.0072427 -0.00044578 0.0035772 -0.0028665
-0.0091116 -0.0035687 0.028185 0.020275 0.073546 0.32185 0.001933 -9.095e-05
0.0016469 -0.00051706 0.00080762 -0.00099356
-0.0012914 0.0019616 0.0018213 0.00089286 0.0019386 -0.00010034 -0.10631 0.26783
-0.0072536 0.030826 0.0025002 -0.0061599
0.0017552 0.0016082 0.0072126 -0.00051041 0.0016389 -0.00053663 -0.0072834 0.030831
-0.12843 0.16457 -0.00043406 0.02493
0.0026233 -0.001575 0.0038651 -0.00285 0.00087172 -0.00090843 0.0025436 -0.0061431
-0.0005144 0.024971 -0.18138 0.23276
980000000 -0.042404 0.29522 0.018448 0.028548 -0.0082635 0.0048028 0.0022245 0.0029381
0.003896 -0.0018243 -0.0033721 -0.0019869
0.018402 0.028525 -0.20359 0.3483 0.032287 0.0032468 0.0020633 -0.00029174
0.0013824 -0.0059892 -0.00068306 -0.002262
-0.0082605 0.0048164 0.032284 0.0031987 0.11989 0.31353 0.00047737 -0.0012697
1.9052e-05 -0.0023072 0.0013823 -0.00019931
0.0022232 0.0029138 0.0020738 -0.00030655 0.00048524 -0.001274 -0.067443 0.27694
0.010537 0.028392 -0.0088109 -0.0060832
0.0038747 -0.0018417 0.0013192 -0.006036 -1.705e-05 -0.002342 0.01057 0.028468
-0.097836 0.18935 0.0060027 0.018006
-0.0035579 -0.0020606 -0.00064289 -0.0021722 0.0013201 -0.00018168 -0.0087767 -0.0060419
0.0059782 0.01796 -0.13755 0.2703
1040000000 0.00058214 0.30249 0.032848 0.015925 -0.00091924 0.0066018 0.0023639 0.00048902
9.7674e-05 -0.0032178 -0.00079943 -0.0012508
0.032829 0.01594 -0.16767 0.36142 0.027603 -0.015485 0.0012352 -0.0017613
-0.0023834 -0.002441 -0.0015128 -0.0028183
-0.0009044 0.0065922 0.027582 -0.015527 0.16626 0.29897 -0.00063255 -0.001435
-0.001625 -0.0009219 -0.00045712 -0.001109
0.002379 0.00051227 0.0012037 -0.0017738 -0.00062764 -0.0014327 -0.038787 0.28638
0.020857 0.015551 -0.002609 0.0011658
6.8498e-05 -0.0033525 -0.0024508 -0.0024651 -0.001599 -0.00092972 0.020855 0.015527
-0.065148 0.196 0.013586 0.015385
-0.00090562 -0.0013701 -0.0015508 -0.0028522 -0.0003888 -0.0011027 -0.0026235 0.0012702
0.013567 0.015337 -0.11198 0.29004
1100000000 0.04641 0.30865 0.034389 -0.005603 0.0028506 0.0035625 0.0021637 -0.0010746
-0.0020828 -0.0027644 -0.0033793 0.00046127
0.034363 -0.0055679 -0.12375 0.3776 0.013529 -0.027315 -0.00018486 -0.0017472
-0.0032942 -0.0004487 -0.0031939 -0.00033145
0.0028539 0.0035416 0.01346 -0.027348 0.21292 0.27678 -0.001754 0.00019898
-0.001815 0.00058817 -0.00089007 -0.0003222
0.0021698 -0.0010843 -0.00020415 -0.0017439 -0.0017649 0.00020832 0.0026857 0.28897
0.024466 0.0025025 -0.0023547 0.00039849
-0.0021221 -0.002763 -0.0033073 -0.00046482 -0.0018069 0.0005837 0.024443 0.0024707
-0.046719 0.20751 0.0182 0.0063743
-0.0034586 0.00050108 -0.0031721 -0.00025797 -0.00091523 -0.00026736 -0.0024607 0.00038961
0.01815 0.0063333 -0.065144 0.31437
1160000000 0.097263 0.30226 0.022135 -0.021236 0.0024112 -0.00046949 -9.9188e-05 -0.0021263
-0.003906 -0.00057218 -0.00069192 0.0037466
0.022148 -0.021187 -0.079678 0.38102 -0.0046504 -0.027789 -0.0015879 -0.0015051
-0.0023428 0.002264 -0.0013394 0.0016384
0.0024195 -0.00048361 -0.0047428 -0.027768 0.255 0.24455 -0.00078586 0.0017588
-0.00051749 0.0018176 -0.00089865 6.453e-05
-0.0001009 -0.0021023 -0.0015964 -0.0015285 -0.00078868 0.0017587 0.041862 0.28392
0.020142 -0.01243 -0.0030892 0.0044531
-0.0038924 -0.00051935 -0.0024102 0.0022941 -0.00054013 0.001817 0.020132 -0.012468
-0.013042 0.21418 0.016335 -0.0016233
-0.00063092 0.003767 -0.0012846 0.0017212 -0.00088941 3.9319e-05 -0.0030719 0.0045136
0.016289 -0.0016238 -0.018505 0.31518
1220000000 0.14204 0.28928 0.0085904 -0.029277 -0.0015517 -0.00051735 3.6381e-05 -0.00087422
-0.002391 0.0022121 0.0012436 0.0018254
0.0086036 -0.029256 -0.035386 0.39174 -0.016876 -0.019635 -0.0023805 0.00049634
7.8874e-05 0.0027747 -0.00055055 0.0019113
-0.0015506 -0.00052206 -0.016943 -0.019592 0.29373 0.20474 0.00074757 0.0018342
0.00060223 0.00122 0.00024356 0.00052175
2.6239e-05 -0.00088911 -0.0023781 0.00049729 0.0007509 0.0018296 0.082113 0.27325
0.0092257 -0.018351 0.0015866 0.0014804
-0.0023899 0.0022443 6.3377e-05 0.002795 0.00059921 0.0011983 0.0092092 -0.018364
0.010975 0.22126 0.011649 -0.012942
0.001255 0.0017935 -0.00058539 0.0019267 0.00019195 0.00058237 0.0015415 0.001355
0.011602 -0.012928 0.014587 0.32679
1280000000 0.19065 0.26544 -0.0087491 -0.026915 -0.0014909 0.0027081 -0.00095828 -0.0019209
-0.000631 0.0028408 0.0023092 0.00084123
-0.0087204 -0.026897 0.010114 0.38176 -0.022863 -0.0075344 -0.0009607 0.0013675
0.0015639 0.0016188 0.00067663 0.0017588
-0.0014786 0.0027204 -0.022907 -0.0074599 0.32351 0.15971 0.0015414 6.4577e-05
0.0010615 0.00025139 0.00030592 0.00014554
-0.00096632 -0.0018993 -0.00096697 0.0013619 0.001543 6.2947e-05 0.1178 0.25414
-0.00046399 -0.019703 -0.00043147 0.00031102
-0.00056481 0.0028602 0.0016054 0.0016119 0.0011057 0.00022513 -0.00045876 -0.01969
0.047315 0.22242 0.0015045 -0.014477
0.0022839 0.00084342 0.00068801 0.001734 0.00028157 0.00020312 -0.00040948 0.00033649
0.0014231 -0.014488 0.0607 0.32469
1340000000 0.22689 0.23066 -0.017633 -0.017293 0.0011972 0.0041352 -0.001664 -0.00080792
0.0013884 0.0024153 0.0013946 -0.0013891
-0.01761 -0.017293 0.049119 0.37286 -0.020515 0.0045904 -0.00015966 0.0019745
0.0018484 0.00074726 0.0012656 0.00065599
0.001214 0.0041184 -0.020503 0.0046669 0.34468 0.11169 0.0012374 -0.00095919
0.00060789 -0.0004793 0.00013265 0.00020909
-0.0016692 -0.00079739 -0.00014956 0.0019758 0.0012382 -0.00096653 0.14899 0.23237
-0.0097477 -0.016482 0.00058464 0.0010031
0.0013672 0.002449 0.0018671 0.00072443 0.00062555 -0.00047819 -0.0097886 -0.016471
0.07676 0.21583 -0.0046943 -0.01246
0.0013997 -0.001434 0.0012742 0.00063214 0.00010755 0.00018864 0.0005932 0.00096252
-0.0047951 -0.012593 0.099096 0.31715
1400000000 0.25886 0.19113 -0.022375 -0.0062125 0.0051298 0.002639 -0.0020581 0.00055755
0.0021732 0.00070545 0.00010391 -0.0013207
-0.022345 -0.0062145 0.086017 0.35919 -0.01382 0.012061 0.0013105 0.0013551
0.0011727 -0.00073056 0.0011197 7.2252e-05
0.0051262 0.0026058 -0.013801 0.012112 0.35763 0.057309 0.00016471 -0.0018236
-1.6249e-05 -0.00041564 0.00024086 0.00018773
-0.0020678 0.00057527 0.0013203 0.0013581 0.0001467 -0.0018078 0.1772 0.20192
-0.015349 -0.0095731 -0.00040968 0.00028628
0.0021965 0.0007155 0.0011774 -0.00074441 1.1041e-05 -0.00037659 -0.015365 -0.0095417
0.10901 0.20911 -0.010473 -0.0075158
0.00011227 -0.001273 0.0011298 5.4322e-05 0.00029119 0.00016353 -0.00041728 0.0003465
-0.010358 -0.0074854 0.14232 0.30299
1460000000 0.28012 0.1467 -0.019176 0.0050772 0.0052085 -0.0021036 -0.0015848 0.0016039
0.0018316 -0.00054167 -0.00033103 -0.00088253
-0.019161 0.0050489 0.11968 0.337 -0.0057217 0.014515 0.0017679 0.00016377
0.00082606 -0.0012521 0.0010671 -0.00050607
0.0052122 -0.0021193 -0.0056706 0.014553 0.36216 0.0024753 -0.0014355 -0.0014013
0.00017544 -0.00016083 0.00055836 -0.00027809
-0.0015856 0.0016007 0.0017725 0.00016368 -0.0014562 -0.0014076 0.20107 0.17185
-0.016492 -0.0028373 -0.00025792 0.0021567
0.0018201 -0.00052887 0.00081913 -0.0012623 0.0001913 -0.00017655 -0.016519 -0.0028077
0.13684 0.19283 -0.011401 -0.0020057
-0.00034094 -0.00089359 0.0010838 -0.00056492 0.00055623 -0.00031582 -0.00029604 0.0021139
-0.011374 -0.0019524 0.17409 0.28046
1520000000 0.2914 0.10421 -0.013571 0.010029 0.0028187 -0.0040202 0.00010941 0.002586
0.0019634 -0.0015051 -0.0010032 -0.00010673
-0.013566 0.010022 0.15311 0.32186 0.001357 0.012484 0.0016918 -0.00084027
1.8069e-05 -0.0011238 0.00023841 -0.00093036
0.0028145 -0.0040227 0.0014165 0.012475 0.35469 -0.053979 -0.0014236 -0.00031314
0.0005094 -0.00083969 -4.0919e-05 -0.00012947
0.00011985 0.0026119 0.0016949 -0.00084783 -0.0014309 -0.00030628 0.22225 0.13398
-0.015688 0.0030803 0.0018925 0.0018384
0.0019545 -0.0015103 5.3628e-06 -0.0011199 0.0005195 -0.00086416 -0.015711 0.0030816
0.16394 0.17719 -0.011077 0.002135
-0.001047 -7.1349e-05 0.00021563 -0.00092697 -3.3773e-05 -0.00016883 0.0018888 0.0017939
-0.011093 0.002187 0.20628 0.25721
1580000000 0.29925 0.057664 -0.0074157 0.01264 -0.0011299 -0.0045101 0.0014861 0.0018966
-0.0001483 -0.0020169 -0.00027196 0.000367
-0.0074344 0.012619 0.18007 0.29637 0.0047964 0.0079189 0.00045766 -0.0017311
-0.00057824 -0.0010895 -0.00017562 -0.00083378
-0.0011336 -0.0045019 0.0048303 0.0079049 0.33377 -0.11192 -0.0016107 0.0009514
-0.00023803 -0.0010247 0.00026308 -0.00050966
0.0014937 0.0018954 0.00045054 -0.0017396 -0.001618 0.00096032 0.23416 0.094864
-0.012321 0.0082554 0.0023442 0.000418
-0.00014864 -0.0020074 -0.00060466 -0.001097 -0.00024499 -0.001045 -0.01232 0.0083116
0.18658 0.15735 -0.0088352 0.0072779
-0.00022829 0.00035279 -0.00014756 -0.0008194 0.00023909 -0.00049567 0.0023301 0.00041954
-0.0088457 0.007287 0.23605 0.22853
1640000000 0.30014 0.016204 -0.0013137 0.011501 -0.0027389 -0.0023469 0.0026487 0.00096921
-0.00071126 -0.0015395 -0.00031447 0.00061845
-0.0013229 0.011489 0.20913 0.27097 0.0054419 0.0036105 -0.00083951 -0.0016667
-0.0011123 -0.00032936 -0.00054585 -0.00060185
-0.0027454 -0.0023336 0.00546 0.0035826 0.30389 -0.16022 -0.00051868 0.0016747
-0.0011597 -0.00081529 -0.00016831 -0.00031482
0.0026529 0.00097237 -0.00084959 -0.0016544 -0.0005308 0.0016871 0.24465 0.047524
-0.0078943 0.010043 0.0024532 -0.0011039
-0.00069593 -0.0015328 -0.0011201 -0.00030903 -0.0011805 -0.00078726 -0.0078932 0.01012
0.20749 0.1321 -0.0043273 0.0089935
-0.00032324 0.0006625 -0.00056151 -0.00057182 -0.00025063 -0.0002262 0.0024681 -0.0011122
-0.004314 0.008978 0.26016 0.19591
1700000000 0.29181 -0.029387 0.0018363 0.0088987 -0.0032582 0.00025767 0.0029368 -0.001375
-0.0019596 -0.00074848 0.0006731 0.0004354
0.0018191 0.0088914 0.2271 0.23894 0.0037952 0.00081766 -0.0014933 -0.00050689
-0.00078024 0.00025967 -0.00084401 -0.00038032
-0.0032614 0.0002635 0.0037989 0.00079477 0.26111 -0.20001 0.00075859 0.0014964
-0.0018537 -0.00013364 -0.00049996 -0.00074669
0.0029317 -0.0013849 -0.0014958 -0.00050813 0.00075428 0.0015221 0.241 -0.00083666
-0.0044787 0.010909 0.0013057 -0.0022008
-0.0019167 -0.00073979 -0.0007783 0.00026334 -0.0018622 -0.00015577 -0.0044419 0.010906
0.22329 0.11081 -1.0861e-06 0.0093225
0.00070511 0.0004109 -0.00083393 -0.00039209 -0.00052877 -0.00075524 0.0013438 -0.002221
5.1148e-05 0.0093285 0.2746 0.1602
1760000000 0.27824 -0.0779 0.003942 0.0058762 -0.0020886 0.00087377 0.0010319 -0.00339
-0.0014854 0.00060179 0.00037987 -0.0003422
0.0039325 0.005879 0.25211 0.19823 0.0016889 -0.0010697 -0.0012179 0.00029725
-0.00090392 0.00098057 -0.00065013 0.00044709
-0.0020703 0.00089116 0.0016815 -0.0010796 0.21158 -0.23345 0.0013447 0.0007322
-0.0011293 0.001555 -0.0013305 -0.000356
0.00099848 -0.0033943 -0.001222 0.00030117 0.0013268 0.00071481 0.23142 -0.050469
-0.00062054 0.010276 -0.00033882 -0.0024531
-0.0015029 0.00062154 -0.00089789 0.0009721 -0.0011047 0.0015706 -0.00059202 0.010289
0.23595 0.075308 0.0037181 0.0068319
0.00037092 -0.00040382 -0.00060894 0.00044282 -0.0012971 -0.00042759 -0.00035679 -0.0024345
0.0037231 0.0067698 0.28513 0.12162
1820000000 0.25231 -0.11466 0.0041232 0.0025343 8.8736e-05 0.0023775 -0.0011234 -0.0029013
-0.0010854 0.0010768 9.8143e-05 1.8676e-05
0.0041267 0.0025331 0.26149 0.16811 -0.00010336 -4.3179e-06 -0.0011459 0.0010058
0.00017524 0.0012577 -0.00050573 0.00057523
9.485e-05 0.0023591 -0.0001135 -1.3029e-05 0.16098 -0.24815 0.001302 3.0441e-05
-2.2022e-05 0.0022418 -0.0013352 0.0005035
-0.0011402 -0.0029111 -0.0011463 0.0010143 0.0013219 2.0376e-05 0.20231 -0.0959
0.0015681 0.0083589 -0.0016277 -0.0013101
-0.0011029 0.0010695 0.00017652 0.0012513 -1.4166e-05 0.0022305 0.0015579 0.0083413
0.2515 0.046017 0.0046045 0.0035621
0.0001114 -2.6426e-05 -0.00046802 0.00057044 -0.0012969 0.00046971 -0.0015848 -0.001352
0.0046016 0.0035404 0.28579 0.084448
1880000000 0.21576 -0.15444 0.0019806 0.00038319 -0.00027976 0.0019955 -0.0028961 -0.0019776
-0.00011792 0.0017711 0.00026121 -0.00058482
0.0019758 0.00037477 0.26513 0.12095 -0.0022008 0.0016442 -6.3925e-05 0.0016414
0.00070039 0.00096435 0.00020646 0.00090455
-0.00027967 0.0019817 -0.0021948 0.0016434 0.10797 -0.25821 0.0013548 -0.00093293
0.0015953 0.0017904 -0.00080198 0.0014365
-0.0028768 -0.0019804 -4.6731e-05 0.0016412 0.001351 -0.00091394 0.16327 -0.13623
0.0029153 0.0057515 -0.0020837 0.00038709
-9.7117e-05 0.0017219 0.0007149 0.00096189 0.0016099 0.0018041 0.0029595 0.0057548
0.25303 0.012741 0.0044291 0.0015568
0.00025595 -0.00058661 0.00020764 0.00092931 -0.00078694 0.0014343 -0.0021156 0.00039863
0.004443 0.0015178 0.28368 0.04991
1940000000 0.17536 -0.1791 -0.00023536 -0.0011443 0.0013979 0.0017763 -0.0034601 0.00066637
0.0015778 0.0011149 -0.00045168 -0.00069665
-0.00025439 -0.0011501 0.2644 0.089548 -0.0010594 0.0038802 0.0010148 0.0011325
0.0016718 0.00025187 0.00087498 0.00035895
0.0013911 0.0017921 -0.0010414 0.0038736 0.061685 -0.25052 0.00022126 -0.0016999
0.0022803 0.00026273 0.00043253 0.0015586
-0.00345 0.0007116 0.0010247 0.0011316 0.00023146 -0.0016879 0.1116 -0.16647
0.0023199 0.0038074 -0.0012045 0.0011279
0.0015703 0.0011161 0.0016327 0.00025232 0.0022736 0.00027495 0.0023585 0.0037889
0.25331 -0.026265 0.003627 -0.001367
-0.00052983 -0.00061365 0.00083499 0.0003541 0.00041658 0.0016117 -0.0011758 0.0011461
0.0036723 -0.0014 0.27102 0.013899
2000000000 0.12903 -0.19293 -0.0038556 0.00099461 0.0024868 0.0015879 -0.0021971 0.0033282
0.001281 5.0858e-05 -0.00066979 0.00030476
-0.0038547 0.00098542 0.25001 0.054043 -0.00079166 0.0056502 0.0014201 0.00028083
0.0010243 -0.0013059 0.00049359 -5.6071e-05
0.0025182 0.0015951 -0.00077524 0.0056596 0.018533 -0.23573 -0.001062 -0.00089936
0.0016628 -0.0010947 0.0017346 0.0010045
-0.0021415 0.0033432 0.0014461 0.00027719 -0.0010602 -0.00091739 0.058957 -0.17753
0.00047332 0.0027939 1.3583e-06 0.0019338
0.0013446 -1.3356e-05 0.0010436 -0.0013025 0.0016397 -0.0011658 0.00046755 0.0028065
0.24627 -0.060777 0.00063489 -0.0025091
