!Keysight Technologies,M9804A,MY58100912,A.14.10.03
!Date: Thursday, April 27, 2023 10:28:33
!Correction: S11(C  6-Port  ) 
!S12(C  6-Port  ) 
!S13(C  6-Port  ) 
!S14(C  6-Port  ) 
!S15(C  6-Port  ) 
!S16(C  6-Port  ) 
!S21(C  6-Port  ) 
!S22(C  6-Port  ) 
!S23(C  6-Port  ) 
!S24(C  6-Port  ) 
!S25(C  6-Port  ) 
!S26(C  6-Port  ) 
!S31(C  6-Port  ) 
!S32(C  6-Port  ) 
!S33(C  6-Port  ) 
!S34(C  6-Port  ) 
!S35(C  6-Port  ) 
!S36(C  6-Port  ) 
!S41(C  6-Port  ) 
!S42(C  6-Port  ) 
!S43(C  6-Port  ) 
!S44(C  6-Port  ) 
!S45(C  6-Port  ) 
!S46(C  6-Port  ) 
!S51(C  6-Port  ) 
!S52(C  6-Port  ) 
!S53(C  6-Port  ) 
!S54(C  6-Port  ) 
!S55(C  6-Port  ) 
!S56(C  6-Port  ) 
!S61(C  6-Port  ) 
!S62(C  6-Port  ) 
!S63(C  6-Port  ) 
!S64(C  6-Port  ) 
!S65(C  6-Port  ) 
!S66(C  6-Port  ) 
!S6P File: Measurement: :
# Hz S  RI   R 50
500000000 -0.33126 -0.061278 -0.010084 -0.0015537 -0.0092095 0.01307 -0.0041356 0.011352
0.013296 0.0052981 -0.0048953 0.0071106
-0.010173 -0.0014557 -0.41354 -0.070079 0.0083331 -0.010533 0.00097363 0.012317
0.0079122 0.0027121 0.0015899 0.013725
-0.0092332 0.013082 0.008269 -0.010616 -0.26679 0.19344 0.0066892 0.0037777
-0.0018853 0.0087922 -4.1398e-05 0.012182
-0.0039833 0.011199 0.0013986 0.012311 0.0067989 0.0036149 -0.33047 0.03934
-0.019341 -0.0038653 0.017588 0.026691
0.013227 0.0063808 0.0083853 0.0027112 -0.0022629 0.0088223 -0.019481 -0.0040466
-0.24054 -0.20747 -0.027634 0.0050019
-0.004312 0.0064687 0.0017121 0.014621 0.00045256 0.012366 0.017976 0.026444
-0.027938 0.0064151 -0.26534 -0.13358
560000000 -0.31982 0.10603 -0.022108 -0.06622 -0.00030916 0.013715 0.0051598 0.011441
0.0097272 0.004013 0.010939 0.0082511
-0.022276 -0.066353 -0.37341 0.09372 -0.041241 -0.03923 0.014 0.0041947
-0.011368 -0.0039118 0.0043317 0.00024307
-0.00026001 0.013844 -0.0415 -0.039079 -0.18687 0.24633 -0.00085702 -0.0053568
0.018554 0.0066174 0.0073551 -0.0062741
0.0054302 0.011811 0.014087 0.0042531 -0.00078788 -0.0051506 -0.3069 0.13245
0.0056697 -0.024207 0.0053048 -0.020926
0.010144 0.0054346 -0.012352 -0.0044736 0.01849 0.0064343 0.0060558 -0.024156
-0.31132 -0.02562 0.0095713 -0.05063
0.010535 0.0083212 0.0037639 -0.00040795 0.0075351 -0.0057568 0.005481 -0.020419
0.010381 -0.051626 -0.33347 0.015745
620000000 -0.27874 0.085409 -0.023205 0.0084791 0.0038397 0.0096252 0.0079758 -0.0037032
0.012311 -0.0021477 -0.0010232 -0.0015957
-0.023114 0.0084814 -0.4027 0.041962 -0.018338 0.00016303 -0.0016847 -0.0021437
0.012404 -0.0057354 0.00065624 -0.0027015
0.0038946 0.0095578 -0.01847 0.00026723 -0.15718 0.25549 -0.00099059 -0.0050632
-0.0032793 -0.0031324 0.010019 -0.0029527
0.0080002 -0.0036775 -0.0017722 -0.002181 -0.00096543 -0.0050579 -0.26557 0.14256
-0.038198 -0.021049 0.013373 0.026594
0.012479 -0.0027336 0.012539 -0.0059375 -0.0031901 -0.0030683 -0.0382 -0.019866
-0.2303 -0.059438 -0.041256 0.013024
-0.00027049 -0.0020952 0.0010402 -0.0033819 0.0093344 -0.0028277 0.013224 0.027477
-0.040795 0.011162 -0.24799 -0.021539
680000000 -0.24258 0.17901 -0.026382 -0.015018 0.0051532 0.0054799 0.001461 -0.007329
-0.0013366 -0.011299 0.0067051 -0.0072427
-0.026321 -0.014989 -0.39066 0.14354 -0.032494 -0.0025345 -0.0017125 -0.00018113
-0.0017326 -0.0092195 -0.00041511 -0.0021689
0.0051237 0.0054846 -0.032556 -0.0024946 -0.10618 0.27749 -0.0010008 -0.00023527
-0.00144 0.00048881 -0.00245 -0.0093208
0.001341 -0.0069623 -0.0017065 -0.00019105 -0.000996 -0.00026995 -0.22046 0.19308
-0.022447 -0.0072367 -0.0094597 -0.011279
-0.001464 -0.011208 -0.0014299 -0.0093644 -0.0011939 0.0004108 -0.02308 -0.007274
-0.2807 0.042612 -0.0066017 -0.0074683
0.0060035 -0.0068592 -0.00073811 -0.0022547 -0.0025873 -0.0095669 -0.0085338 -0.011518
-0.0064425 -0.006753 -0.26132 0.084672
740000000 -0.19577 0.17185 -0.040211 0.026722 0.01397 -0.0044583 2.819e-05 -0.0042807
-0.0045301 -0.0030836 -0.0065497 0.003037
-0.040357 0.026654 -0.33722 0.16319 -0.037918 0.034588 -3.5229e-05 -0.0057964
-0.012944 0.0074408 -0.00087235 -0.0059262
0.014028 -0.0045136 -0.037894 0.034722 -0.07218 0.27455 -0.0019873 0.0032681
-0.0023542 -0.0061618 -0.0013499 0.00093219
-2.8941e-05 -0.0043568 7.7778e-06 -0.0054927 -0.0020792 0.0033304 -0.20434 0.20138
-0.043079 -0.0096859 0.02269 0.015922
-0.0041666 -0.0029872 -0.012636 0.0069212 -0.001714 -0.0063223 -0.043077 -0.010078
-0.18205 0.074194 -0.04327 -0.00065464
-0.0062607 0.0027513 -0.0012185 -0.0046822 -0.0020344 0.0011168 0.022744 0.016418
-0.043702 -0.00080085 -0.25107 0.091939
800000000 -0.16415 0.21674 -0.022407 0.015997 0.0060711 -0.010667 -0.0045091 -0.0026774
-0.0043138 0.0019278 0.0042023 0.00038619
-0.022394 0.016037 -0.3436 0.23351 -0.0091216 0.03416 -0.0020539 0.0017454
-0.0010793 0.0027124 0.00098961 0.0050722
0.0060133 -0.010727 -0.009051 0.034211 -0.033955 0.29958 0.00085035 0.0012742
0.0002163 0.0033625 -0.0017654 0.00081777
-0.0047545 -0.0027222 -0.0021753 0.001808 0.00080107 0.0011698 -0.17571 0.22892
-0.028204 0.012636 0.013858 -0.010294
-0.0043169 0.0020769 -0.00099963 0.0027405 0.00020438 0.003338 -0.02812 0.012359
-0.2262 0.10008 -0.017207 0.019965
0.0040794 -0.00059841 0.00085443 0.0047129 -0.0016656 0.00040542 0.013405 -0.0099721
-0.016492 0.019999 -0.24563 0.14228
860000000 -0.13007 0.23725 -0.018256 0.030345 -0.0028473 -0.010406 -0.0020809 0.00037072
0.0039461 0.0053415 -0.0037889 -0.0029579
-0.018247 0.030288 -0.29635 0.2773 0.0069644 0.034806 0.00028271 0.0022991
0.0032854 0.00083314 0.003486 0.00013663
-0.0028697 -0.010374 0.0071208 0.03484 0.013263 0.3087 -0.00063396 -0.00020487
0.0022135 -0.0013435 0.0016105 0.0042097
-0.0019524 0.00036807 0.00025765 0.0021499 -0.00063441 -0.00026546 -0.13902 0.23996
-0.018486 0.017934 -0.0064423 -0.008804
0.0038896 0.0052269 0.0033263 0.00072608 0.0021718 -0.0014575 -0.018552 0.017957
-0.16969 0.15351 -0.025296 0.017234
-0.0038721 -0.0026054 0.0037236 0.00048741 0.0015336 0.0045314 -0.0058569 -0.0091289
-0.02517 0.017271 -0.195 0.18728
920000000 -0.10732 0.26064 0.0042874 0.038864 -0.0094106 -0.0052522 -0.0020462 0.0015368
0.00091872 0.0023844 0.0029338 -0.0012356
0.0042825 0.038841 -0.26909 0.29935 0.028088 0.023358 0.0013578 0.00109
0.0077027 0.00066043 0.0045118 -0.0028784
-0.0094592 -0.0052176 0.02821 0.023299 0.058709 0.31078 0.001883 6.5888e-05
0.00085024 7.9298e-05 0.0009488 -0.0014099
-0.0021013 0.0016807 0.0013584 0.0012961 0.0018756 4.8023e-05 -0.11507 0.25688
-0.011594 0.030776 0.0037007 -0.006574
0.00074036 0.0023008 0.007493 0.0005637 0.00080708 2.8013e-05 -0.011844 0.031037
-0.15871 0.16035 -0.00039596 0.02688
0.0027001 -0.001245 0.004418 -0.0026559 0.00085477 -0.0015525 0.0040326 -0.0067004
-0.00024185 0.026905 -0.20231 0.19997
980000000 -0.061209 0.28167 0.016335 0.030543 -0.0097349 0.0042775 0.0017996 0.0039329
0.0041182 -0.0012737 -0.0029163 -0.0024272
0.016294 0.030492 -0.21668 0.33489 0.033534 0.0059067 0.0021392 -1.2341e-06
0.0017436 -0.0058761 -0.00022261 -0.0028059
-0.0097134 0.0042898 0.03359 0.0058012 0.10466 0.30552 0.00080881 -0.0011117
0.00057948 -0.0018109 0.0014811 -0.0002618
0.001865 0.0040282 0.0020521 -6.3087e-05 0.00080779 -0.0011058 -0.076769 0.26838
0.0071819 0.030048 -0.0094352 -0.007523
0.004218 -0.001415 0.0017303 -0.0060572 0.00057545 -0.0018629 0.0070985 0.029948
-0.1256 0.19011 0.0057547 0.019751
-0.0032056 -0.0026924 -0.00023422 -0.0030562 0.0013833 -0.00030132 -0.0094049 -0.0073235
0.0054913 0.01994 -0.15962 0.24622
1040000000 -0.020476 0.29107 0.033119 0.019738 -0.0016666 0.0072496 0.0026624 0.0009222
0.00050582 -0.0033923 -9.9901e-05 -0.0017407
0.033073 0.019737 -0.18193 0.34909 0.030461 -0.014317 0.0016745 -0.0017411
-0.0021311 -0.0025869 -0.0010648 -0.003339
-0.0016356 0.0072195 0.030478 -0.014451 0.15072 0.29322 -0.00037358 -0.0016636
-0.0015847 -0.00094592 -0.0004997 -0.001166
0.0026092 0.00084551 0.0016556 -0.0017544 -0.00036644 -0.0016614 -0.050031 0.27839
0.019127 0.019051 -0.0026494 0.0011062
0.00052005 -0.0033309 -0.0021859 -0.002405 -0.0015528 -0.00095598 0.019113 0.019039
-0.092409 0.19766 0.014055 0.018413
0.00025764 -0.0018543 -0.00095541 -0.003202 -0.00053747 -0.0010792 -0.0026518 0.0011474
0.013875 0.018269 -0.13876 0.26704
1100000000 0.024668 0.30122 0.036983 -0.0027787 0.0030327 0.0044011 0.0024012 -0.0010051
-0.0023428 -0.0030752 -0.0042385 -1.4338e-05
0.036973 -0.0027107 -0.13862 0.36837 0.016358 -0.028124 2.4953e-05 -0.0018233
-0.003775 -0.00080652 -0.0036893 -0.00039321
0.0030474 0.0044077 0.016296 -0.028198 0.19726 0.27422 -0.0020084 0.00012162
-0.0018405 0.00055589 -0.0012277 -0.0005605
0.0024288 -0.0010041 4.2505e-05 -0.00185 -0.0020271 0.00012169 -0.0098669 0.28384
0.024863 0.0058482 -0.0025447 9.9164e-05
-0.0023169 -0.0030274 -0.0038385 -0.00084093 -0.0018308 0.00055454 0.024932 0.0058474
-0.073059 0.21096 0.019702 0.0091556
-0.0042336 -5.7739e-05 -0.0036897 -0.00033876 -0.0011655 -0.00047575 -0.0025666 2.2507e-05
0.019737 0.0090633 -0.09269 0.29772
1160000000 0.075314 0.29791 0.025309 -0.020273 0.0031303 -0.00041384 -0.00017467 -0.0023714
-0.0042121 -0.00097469 -0.0010393 0.0040718
0.025287 -0.020255 -0.095111 0.3736 -0.0030987 -0.029733 -0.001613 -0.0018306
-0.0026386 0.0024529 -0.0016911 0.001771
0.0031287 -0.00043235 -0.0032415 -0.029721 0.24078 0.24425 -0.00082703 0.0017242
-0.00059259 0.0019692 -0.0011329 0.00043175
-9.3184e-05 -0.0024083 -0.0016154 -0.001769 -0.00085357 0.001753 0.029244 0.28197
0.021364 -0.010189 -0.0033825 0.0053908
-0.0042329 -0.00091129 -0.0026793 0.0024921 -0.00057452 0.0019921 0.021402 -0.010262
-0.038711 0.21886 0.019042 1.2815e-05
-0.0012415 0.0042849 -0.0017333 0.0016822 -0.0010585 0.00044198 -0.0035588 0.0052192
0.019004 0.00026739 -0.045385 0.30052
1220000000 0.11928 0.28903 0.011911 -0.03047 -0.0012896 -0.0011517 6.9587e-05 -0.0008892
-0.0028783 0.0021945 0.0011163 0.0021922
0.011933 -0.030458 -0.050573 0.38779 -0.017043 -0.022086 -0.0026375 0.00053067
-4.3454e-05 0.003165 -0.00073048 0.0020775
-0.0013189 -0.0011478 -0.017162 -0.022025 0.28028 0.20589 0.00076223 0.001832
0.00056621 0.0012198 0.00029123 0.00075277
5.0059e-05 -0.0009352 -0.0026218 0.00050593 0.00077217 0.0018171 0.06933 0.27397
0.011104 -0.017183 0.0019746 0.0014955
-0.0029003 0.0022187 -2.4471e-05 0.0031463 0.00052319 0.0012656 0.011065 -0.017187
-0.015343 0.22902 0.014564 -0.013312
0.0011537 0.0021779 -0.00068409 0.0021037 0.00027649 0.0008031 0.0021819 0.0015876
0.014471 -0.013414 -0.014759 0.31714
1280000000 0.16991 0.26929 -0.0071496 -0.029569 -0.0019767 0.0022874 -0.00094424 -0.0021724
-0.00090467 0.0033293 0.0027411 0.0014673
-0.0071317 -0.029529 -0.0038037 0.37984 -0.02441 -0.008839 -0.00095271 0.0015234
0.0017952 0.0017384 0.00073686 0.0020275
-0.0019534 0.0022759 -0.024512 -0.0087442 0.31108 0.16248 0.0016333 -9.6573e-06
0.0011679 0.00030604 0.00030265 0.00028572
-0.00093402 -0.0021433 -0.00095426 0.0015206 0.0016563 8.2165e-06 0.10651 0.25817
0.0011251 -0.019434 0.00023125 0.00033629
-0.00083378 0.0033429 0.0017369 0.0016921 0.0011772 0.00027026 0.00117 -0.0194
0.021095 0.23279 0.003573 -0.015656
0.0025967 0.0013513 0.00070327 0.0020889 0.00031327 0.00028347 0.00010408 0.00035401
0.0035717 -0.015716 0.032873 0.32021
1340000000 0.20755 0.23726 -0.017481 -0.019986 0.00055224 0.0045692 -0.001876 -0.00092003
0.0014163 0.0028615 0.0018678 -0.0013262
-0.017468 -0.019975 0.035973 0.37252 -0.022016 0.0043243 -0.00010897 0.002007
0.0020063 0.00073397 0.0012307 0.00075613
0.0005692 0.0045913 -0.022017 0.0044683 0.33311 0.11563 0.0010462 -0.00095271
0.00063931 -0.00054406 7.5926e-05 0.00016276
-0.0019336 -0.00089729 -5.6476e-05 0.0020232 0.0010409 -0.00095343 0.14003 0.23826
-0.0086343 -0.016722 0.00095793 0.00049072
0.0015083 0.0028422 0.0020373 0.00072511 0.0007025 -0.00049368 -0.0086446 -0.016762
0.050821 0.22892 -0.0039674 -0.014458
0.0018912 -0.0013169 0.0012266 0.00079556 0.00012245 0.00018385 0.00085897 0.00049399
-0.0039139 -0.014494 0.071058 0.31536
1400000000 0.2423 0.20057 -0.023931 -0.0082024 0.0052838 0.0034119 -0.0023053 0.00073268
0.0026537 0.00099469 0.00032334 -0.0017351
-0.02389 -0.0082164 0.074391 0.36002 -0.015048 0.012867 0.0013442 0.0012741
0.001247 -0.00085888 0.0011624 0.00014735
0.0053024 0.0033653 -0.015021 0.012949 0.34673 0.062776 6.5551e-05 -0.0016038
0.00010345 -0.00044234 0.00033243 0.00024421
-0.0023232 0.00068509 0.0013179 0.0012634 3.7291e-05 -0.0015925 0.17008 0.20944
-0.014854 -0.0097817 -0.00085723 -0.00012557
0.0026363 0.0010654 0.0012362 -0.00085902 0.0001745 -0.0004172 -0.014846 -0.0097094
0.084587 0.22521 -0.010632 -0.0093941
0.00034865 -0.0017642 0.0011816 0.00011674 0.00033237 0.00028723 -0.0007613 -0.0001353
-0.010628 -0.0094533 0.11585 0.30525
1460000000 0.26594 0.15735 -0.021034 0.0045311 0.0057355 -0.0017137 -0.0014996 0.0018362
0.0022942 -0.00037605 -0.0002833 -0.0010607
-0.021029 0.0045124 0.10893 0.33807 -0.0057704 0.01585 0.0016538 0.00021307
0.00090806 -0.0013251 0.0012584 -0.00056087
0.005761 -0.0017582 -0.0056935 0.015912 0.35357 0.0092177 -0.0012057 -0.0012053
0.00018575 -0.00018214 0.00078545 -0.00013428
-0.0015089 0.0018567 0.0016718 0.00018803 -0.0012086 -0.0011993 0.19695 0.18024
-0.015756 -0.0028106 -0.00079684 0.0018832
0.0022702 -0.0004789 0.00088893 -0.0013951 0.00020236 -0.00016383 -0.01579 -0.0027762
0.1141 0.2118 -0.012542 -0.0031165
-0.00034286 -0.00098765 0.0012278 -0.00056576 0.00083793 -0.00018402 -0.00090744 0.001973
-0.012481 -0.003069 0.14913 0.28486
1520000000 0.27953 0.11627 -0.015309 0.010353 0.0034381 -0.0043563 0.00015736 0.0026408
0.0021638 -0.0020349 -0.0011874 -1.9097e-05
-0.015306 0.010345 0.14274 0.32398 0.0021993 0.013129 0.001662 -0.0007243
1.8097e-05 -0.0010532 0.00032466 -0.0010364
0.0034315 -0.0043666 0.0022647 0.013133 0.3473 -0.046265 -0.00094609 -0.00030818
0.00073909 -0.00096098 0.00014391 -0.00022061
0.00017585 0.0026516 0.0016663 -0.00071649 -0.00094869 -0.00032967 0.22082 0.14209
-0.014821 0.0031825 0.0015765 0.0021528
0.0021517 -0.0019966 3.0678e-05 -0.0010662 0.00073006 -0.00092349 -0.014808 0.0032544
0.14281 0.19921 -0.012346 0.0018453
-0.0012491 -6.988e-05 0.00031799 -0.0010486 0.00014675 -0.00023637 0.0016209 0.0021182
-0.012317 0.0017627 0.18211 0.26541
1580000000 0.29022 0.070244 -0.0083619 0.013818 -0.00099959 -0.0051081 0.0015615 0.0018468
-0.00022201 -0.0022991 -0.00024992 0.00029817
-0.0083621 0.013793 0.17032 0.29919 0.0057568 0.007847 0.00057097 -0.0015736
-0.00048939 -0.0010492 -0.00019891 -0.00086169
-0.0010239 -0.0051098 0.005809 0.0078161 0.32823 -0.10394 -0.0015401 0.00037058
-0.00034411 -0.0013524 0.00037935 -0.00068825
0.0015957 0.0018114 0.0005614 -0.0015797 -0.0015612 0.00040619 0.23485 0.10232
-0.011134 0.0078616 0.002287 0.00075133
-0.00018177 -0.0022945 -0.00048152 -0.0010367 -0.00035533 -0.0013425 -0.011135 0.0078762
0.16748 0.1816 -0.0097664 0.0077888
-0.00017588 0.00030986 -0.00017361 -0.00089163 0.00033943 -0.00063534 0.0022513 0.00082861
-0.0097276 0.0078063 0.21462 0.23899
1640000000 0.29309 0.029213 -0.0013355 0.012497 -0.0030869 -0.0026554 0.0027074 0.0009741
-0.00086043 -0.0017059 -0.00031472 0.00056673
-0.0013448 0.012509 0.19969 0.2749 0.0060193 0.0027209 -0.00055652 -0.001855
-0.00093598 -0.00045948 -0.0005421 -0.00067474
-0.0030712 -0.002656 0.0060625 0.0026882 0.30021 -0.15283 -0.00084216 0.0013545
-0.0010911 -0.00099128 -0.00032089 -0.00050239
0.0027094 0.00098863 -0.00054591 -0.0018208 -0.00079165 0.0013361 0.24759 0.053514
-0.0067138 0.0088837 0.0024851 -0.00083615
-0.00089045 -0.0016836 -0.00094792 -0.00045847 -0.0011888 -0.0010269 -0.0066827 0.0089453
0.19098 0.15849 -0.004651 0.009921
-0.00034563 0.00064231 -0.00054866 -0.00065438 -0.00035091 -0.00045024 0.0025558 -0.00086922
-0.004658 0.0099245 0.24035 0.20864
1700000000 0.28702 -0.015977 0.0022019 0.0095692 -0.0038178 0.00016544 0.0031064 -0.0012025
-0.0021152 -0.00058156 0.0005502 0.00038089
0.002189 0.0095632 0.21824 0.24379 0.0035246 -0.00019892 -0.001451 -0.00070883
-0.00077098 -9.1058e-05 -0.00087891 -0.00048117
-0.003818 0.00022911 0.0035268 -0.00022298 0.25797 -0.19271 0.00035504 0.0016274
-0.0021264 -7.5626e-05 -0.00048228 -0.00081099
0.0031168 -0.0012232 -0.0014893 -0.00070557 0.00030084 0.0015873 0.24462 0.0033785
-0.0039018 0.0091517 0.0016947 -0.0022139
-0.0021604 -0.00057038 -0.00080064 -8.4282e-05 -0.0020762 -3.6583e-05 -0.0038772 0.00915
0.20927 0.13882 0.00024247 0.010216
0.0006236 0.000371 -0.00089666 -0.00042078 -0.0005762 -0.00077738 0.0015963 -0.002177
0.00020543 0.01022 0.25788 0.17477
1760000000 0.27563 -0.064561 0.0044868 0.0061546 -0.0023381 0.0012948 0.0013941 -0.003441
-0.0013464 0.00069291 0.00026282 -0.00055971
0.0044686 0.006158 0.24433 0.20451 0.00093177 -0.0017257 -0.001315 8.4682e-05
-0.0011321 0.00085929 -0.00063071 0.00037877
-0.0023189 0.0013006 0.00090787 -0.0017551 0.20996 -0.2263 0.0010119 0.0012432
-0.0012028 0.0015347 -0.0012847 -0.00060732
0.0013358 -0.0034705 -0.0013312 8.0009e-05 0.0010456 0.0012283 0.23545 -0.048297
-0.0010578 0.0081652 -0.00018027 -0.0024525
-0.0013423 0.00067725 -0.0011322 0.00086668 -0.0012017 0.0015497 -0.0010056 0.0080968
0.22441 0.10457 0.0043592 0.0075901
0.00028511 -0.000519 -0.00060526 0.00036312 -0.0013737 -0.0005781 -0.0002003 -0.0024566
0.0043147 0.0076281 0.27094 0.13748
1820000000 0.2524 -0.10185 0.0045195 0.0025828 4.377e-05 0.0026445 -0.00096365 -0.0031339
-0.0010898 0.0010412 -0.00016651 -0.00017562
0.0045222 0.0025817 0.25509 0.17515 -0.0013636 -0.00011299 -0.0014372 0.00097658
-0.0001745 0.0012339 -0.00063701 0.0004808
7.6332e-05 0.0026481 -0.0013373 -8.5146e-05 0.1594 -0.24202 0.0016573 0.00053572
-0.0002731 0.0023922 -0.0015783 0.00047389
-0.0009376 -0.0031134 -0.0014081 0.00097095 0.0016628 0.00052739 0.20605 -0.095556
0.00039293 0.0067776 -0.001845 -0.0017259
-0.0011149 0.0010931 -0.00018184 0.0012561 -0.00022962 0.0024351 0.00046467 0.0068447
0.2426 0.076376 0.0053362 0.0036489
-5.9513e-05 -8.5254e-05 -0.00067222 0.00057302 -0.001521 0.00045718 -0.0018341 -0.0018326
0.0053922 0.0036721 0.27401 0.10139
1880000000 0.21799 -0.14281 0.0021635 0.00037791 -0.00041446 0.0022265 -0.0027324 -0.0021825
-0.00014041 0.0017338 0.00031843 -0.00038161
0.002144 0.00038458 0.25989 0.12868 -0.0032176 0.0020666 -0.00022109 0.0018471
0.00053721 0.0014723 9.7659e-05 0.0010888
-0.0003864 0.0022722 -0.0031866 0.0021167 0.10786 -0.25162 0.0020998 -0.00089321
0.0017012 0.0020746 -0.0009333 0.0014278
-0.0028619 -0.0022594 -0.00023439 0.0018601 0.0020015 -0.00089161 0.16521 -0.13617
0.0010858 0.004952 -0.0023122 0.00028795
-0.00013358 0.0017612 0.00052916 0.0014258 0.001675 0.0019073 0.0010705 0.0048257
0.24716 0.045105 0.0056678 0.0013577
9.878e-05 -0.00042733 9.6777e-05 0.0010392 -0.0010373 0.0013867 -0.00238 0.00033969
0.0055642 0.0013301 0.27483 0.067444
1940000000 0.17898 -0.16911 -4.0766e-05 -0.0012231 0.0016287 0.0020296 -0.0039636 0.00029686
0.0011851 0.00099184 -0.00057391 -0.0005877
-4.3805e-05 -0.0012284 0.26107 0.097448 -0.0016894 0.0047652 0.0010817 0.0013765
0.0019374 0.00060616 0.00091139 0.00033992
0.001641 0.0020101 -0.0016749 0.0047694 0.06252 -0.24479 0.00061681 -0.002559
0.002433 0.00041362 0.00025976 0.0016623
-0.0038913 0.00025101 0.0011632 0.0013334 0.00065189 -0.0024652 0.11306 -0.16659
0.000228 0.0037023 -0.0017754 0.0017283
0.0012553 0.00097348 0.0020097 0.00059524 0.0023822 0.0004331 0.00037088 0.0037278
0.25079 0.0072286 0.003965 -0.0022973
-0.00049184 -0.00064177 0.00096603 0.00033885 0.0002624 0.0017502 -0.0016227 0.0015405
0.0039148 -0.0024237 0.26379 0.031153
2000000000 0.13332 -0.18455 -0.0037165 0.00079663 0.0028693 0.001575 -0.0023058 0.0036423
0.001257 0.00041689 -0.00062308 0.00036863
-0.003715 0.00080062 0.24772 0.062123 -0.0010255 0.0068533 0.0017943 0.00026229
0.001511 -0.0012148 0.00063065 3.6148e-06
0.0028739 0.001538 -0.00093822 0.0068542 0.019055 -0.23084 -0.0013213 -0.0018034
0.0021436 -0.0012417 0.0017391 0.0015077
-0.0022555 0.0035946 0.0017207 0.00027776 -0.0014413 -0.0019031 0.059237 -0.17714
-0.001333 0.0036177 0.000189 0.002122
0.0012166 0.00033411 0.0014858 -0.0012149 0.0021856 -0.0012191 -0.0012009 0.0034267
0.24672 -0.025735 0.00093668 -0.0032439
