!Keysight Technologies,M9804A,MY58100912,A.14.10.03
!Date: Thursday, April 27, 2023 10:28:33
!Correction: S11(C  6-Port  ) 
!S12(C  6-Port  ) 
!S13(C  6-Port  ) 
!S14(C  6-Port  ) 
!S15(C  6-Port  ) 
!S16(C  6-Port  ) 
!S21(C  6-Port  ) 
!S22(C  6-Port  ) 
!S23(C  6-Port  ) 
!S24(C  6-Port  ) 
!S25(C  6-Port  ) 
!S26(C  6-Port  ) 
!S31(C  6-Port  ) 
!S32(C  6-Port  ) 
!S33(C  6-Port  ) 
!S34(C  6-Port  ) 
!S35(C  6-Port  ) 
!S36(C  6-Port  ) 
!S41(C  6-Port  ) 
!S42(C  6-Port  ) 
!S43(C  6-Port  ) 
!S44(C  6-Port  ) 
!S45(C  6-Port  ) 
!S46(C  6-Port  ) 
!S51(C  6-Port  ) 
!S52(C  6-Port  ) 
!S53(C  6-Port  ) 
!S54(C  6-Port  ) 
!S55(C  6-Port  ) 
!S56(C  6-Port  ) 
!S61(C  6-Port  ) 
!S62(C  6-Port  ) 
!S63(C  6-Port  ) 
!S64(C  6-Port  ) 
!S65(C  6-Port  ) 
!S66(C  6-Port  ) 
!S6P File: Measurement: :
# Hz S  RI   R 50
500000000 -0.33099 -0.062224 -0.0098098 -0.0010903 -0.0089673 0.012767 -0.0033415 0.011899
0.012582 0.0055167 -0.0032238 0.0081964
-0.0098709 -0.0012277 -0.41291 -0.071027 0.0088211 -0.010846 0.00099655 0.012138
0.0080235 0.0029695 0.0011998 0.013939
-0.0090341 0.012726 0.008824 -0.010819 -0.26507 0.19217 0.0070416 0.0036252
-0.0022321 0.0088989 0.00070324 0.01257
-0.003489 0.012109 0.00099649 0.012171 0.007026 0.0036029 -0.33034 0.038082
-0.019052 -0.0039386 0.016482 0.026038
0.012713 0.0053047 0.0080706 0.0029694 -0.0022185 0.0088915 -0.019027 -0.0039095
-0.23781 -0.20933 -0.027116 0.0055646
-0.0034613 0.0082419 0.0012177 0.013851 0.00053983 0.012488 0.016358 0.025458
-0.027358 0.0054491 -0.26752 -0.13666
560000000 -0.31893 0.10408 -0.022162 -0.066366 -6.2756e-05 0.01324 0.0050659 0.012029
0.011558 0.0041487 0.0098144 0.0093844
-0.02211 -0.066458 -0.37249 0.09327 -0.041582 -0.039845 0.014145 0.0036981
-0.012785 -0.0038826 0.0030861 -0.001526
1.573e-05 0.013189 -0.041733 -0.039796 -0.18589 0.24416 -0.00099242 -0.0050262
0.018806 0.0061144 0.0073468 -0.0060786
0.0049863 0.011926 0.014167 0.0036687 -0.001006 -0.0050493 -0.30576 0.13086
0.0063178 -0.023968 0.0063846 -0.021743
0.011787 0.0042877 -0.012883 -0.0039194 0.018797 0.0060951 0.0063029 -0.023912
-0.30923 -0.027317 0.0097076 -0.052072
0.0098278 0.0091618 0.0032029 -0.0017754 0.0072171 -0.0061678 0.0065035 -0.021822
0.010233 -0.05235 -0.33109 0.013562
620000000 -0.27893 0.084665 -0.022919 0.0083728 0.003563 0.0095561 0.0085092 -0.003947
0.012346 -0.0021869 0.00081856 -0.0023375
-0.02289 0.0084084 -0.40193 0.040431 -0.018531 -0.0002888 -0.0018578 -0.0022325
0.012683 -0.0060116 0.00095015 -0.0039832
0.0035784 0.0095565 -0.018562 -0.00026133 -0.15731 0.25385 -0.0010853 -0.004759
-0.0034942 -0.0036657 0.0093996 -0.0031424
0.0084853 -0.0039772 -0.0018976 -0.0022675 -0.0010812 -0.004783 -0.26464 0.14209
-0.038462 -0.020637 0.013581 0.028607
0.012214 -0.002335 0.012668 -0.0060165 -0.003537 -0.0036383 -0.038487 -0.0205
-0.22758 -0.063994 -0.042331 0.010527
0.0010896 -0.0020664 0.0011719 -0.0039365 0.0095674 -0.0030531 0.013525 0.028633
-0.042087 0.010452 -0.24863 -0.023436
680000000 -0.24216 0.1769 -0.0265 -0.015122 0.0047078 0.0057062 0.0011584 -0.0072951
-0.0016845 -0.011497 0.0058247 -0.0063581
-0.026449 -0.015262 -0.39115 0.14191 -0.033314 -0.0026885 -0.0017278 -0.00049161
-0.0016211 -0.0089715 -0.00084852 -0.0015535
0.0046809 0.0056471 -0.03334 -0.0026129 -0.10764 0.27615 -0.00090638 -7.3326e-05
-0.001613 0.00080062 -0.0026711 -0.0094105
0.0010582 -0.0074467 -0.0017268 -0.00047776 -0.00090265 -7.5545e-05 -0.22063 0.19281
-0.022924 -0.0084281 -0.0092698 -0.011434
-0.0016926 -0.011647 -0.0016558 -0.0090009 -0.001629 0.00079658 -0.023002 -0.0084287
-0.2803 0.03884 -0.0066423 -0.0075922
0.0057027 -0.0065152 -0.0010284 -0.0015158 -0.0027043 -0.0092693 -0.0090245 -0.011558
-0.0066723 -0.0076111 -0.26061 0.084166
740000000 -0.19602 0.16994 -0.040923 0.026695 0.013606 -0.0046283 4.5998e-05 -0.004351
-0.0045073 -0.002909 -0.0065047 0.0027034
-0.040966 0.02639 -0.33757 0.16133 -0.03817 0.034606 -0.00014971 -0.0060435
-0.012241 0.0070935 -0.0015894 -0.0057504
0.013779 -0.004606 -0.038145 0.034714 -0.073668 0.27419 -0.0014636 0.0033341
-0.0024981 -0.0060816 -0.0016319 0.0013451
9.4196e-05 -0.0044349 -0.00014423 -0.0060693 -0.0015037 0.0033627 -0.20463 0.19967
-0.042786 -0.0098542 0.022741 0.015629
-0.0045552 -0.0030172 -0.012271 0.0071745 -0.0024629 -0.0061179 -0.042801 -0.009792
-0.18241 0.069276 -0.043967 -0.00095949
-0.0065522 0.0028207 -0.00159 -0.0059335 -0.0016333 0.0014704 0.022637 0.015768
-0.04369 -0.0010252 -0.25226 0.088691
800000000 -0.16563 0.21584 -0.02322 0.016197 0.0059142 -0.010427 -0.0046741 -0.0026223
-0.0044677 0.0019198 0.0039285 0.00033571
-0.023205 0.016128 -0.34494 0.23259 -0.0093901 0.034647 -0.0021298 0.0019985
-0.00083617 0.0026114 0.00073775 0.0054044
0.0059217 -0.010362 -0.0093163 0.034723 -0.035191 0.2999 0.00079976 0.001197
0.0002445 0.0031957 -0.0020968 0.00088756
-0.0046698 -0.0026046 -0.0021137 0.0020117 0.00080783 0.0011876 -0.17651 0.22728
-0.028866 0.012978 0.013791 -0.01039
-0.004463 0.0018808 -0.00083088 0.0026014 0.00027457 0.0031953 -0.02884 0.013018
-0.22681 0.095163 -0.01766 0.020042
0.003918 0.00042048 0.00078523 0.0054268 -0.0021076 0.00086961 0.013652 -0.01061
-0.017781 0.020184 -0.24702 0.13892
860000000 -0.13104 0.23651 -0.018935 0.030571 -0.003017 -0.01027 -0.0018117 0.0004022
0.0040571 0.0052163 -0.0034376 -0.0033907
-0.018955 0.030514 -0.2975 0.27691 0.0068753 0.035312 8.3922e-05 0.0021438
0.0032845 0.00035171 0.003654 -0.00013619
-0.003034 -0.010284 0.0069781 0.035323 0.012593 0.30931 -0.0005671 -0.00040194
0.0022129 -0.0016085 0.0017805 0.004292
-0.0018354 0.00048423 0.0001052 0.0021403 -0.00055527 -0.00039633 -0.13931 0.23981
-0.019472 0.01804 -0.0059357 -0.0088
0.004029 0.0052205 0.0032804 0.00037978 0.0022369 -0.0015789 -0.019407 0.018117
-0.17111 0.15012 -0.025841 0.01662
-0.0033 -0.0032215 0.0036274 -0.00023753 0.0017596 0.0043052 -0.0058895 -0.0086132
-0.025816 0.01639 -0.19415 0.18496
920000000 -0.10825 0.26038 0.0040619 0.039283 -0.0094045 -0.005085 -0.0018968 0.0019284
0.0010106 0.0019476 0.0030275 -0.0011476
0.0039783 0.039254 -0.27012 0.29896 0.028184 0.023709 0.0015663 0.0012058
0.0073498 1.0791e-05 0.004613 -0.0029113
-0.009406 -0.0050365 0.028295 0.023636 0.058493 0.31123 0.0018361 5.66e-05
0.00082288 -2.7495e-05 0.0011042 -0.0013944
-0.0019572 0.0019691 0.0015859 0.0012102 0.0018397 7.3065e-05 -0.11624 0.25693
-0.012129 0.031233 0.0038619 -0.0066894
0.0010367 0.0018374 0.0073483 -4.8948e-05 0.00081557 -5.2345e-05 -0.012096 0.031288
-0.16126 0.15668 -0.0021741 0.027565
0.0030742 -0.0010607 0.0047189 -0.0029564 0.0010725 -0.0013738 0.0037771 -0.0067711
-0.002098 0.027635 -0.20447 0.19853
980000000 -0.061991 0.28189 0.01632 0.031104 -0.0096961 0.0045251 0.0018392 0.0038503
0.0039934 -0.0015444 -0.0035409 -0.0022233
0.016368 0.031079 -0.21754 0.33525 0.033726 0.0060789 0.0019954 -0.00011465
0.0017164 -0.0060592 -0.00053238 -0.0025705
-0.0096919 0.0045536 0.033808 0.0059769 0.10471 0.30596 0.00078698 -0.0010849
0.00060174 -0.0017734 0.0015144 -0.00020548
0.0018645 0.0038306 0.001982 -9.7458e-05 0.00078446 -0.0010842 -0.077742 0.26845
0.0068218 0.030293 -0.0095156 -0.0077038
0.0039908 -0.0015377 0.0017097 -0.0060403 0.00059048 -0.0017728 0.0069005 0.030319
-0.12783 0.18758 0.005098 0.020288
-0.0035584 -0.0021185 -0.0005568 -0.0025149 0.0014882 -0.00021677 -0.0093714 -0.0076107
0.0049648 0.020395 -0.1623 0.24503
1040000000 -0.020809 0.29119 0.033382 0.020269 -0.0015047 0.0074806 0.0029128 0.00083127
0.00037715 -0.0034884 -0.00022097 -0.0017085
0.033337 0.02027 -0.18233 0.34939 0.030663 -0.014313 0.0015345 -0.0017444
-0.0021438 -0.0024426 -0.0011681 -0.0031254
-0.0014922 0.0074967 0.03066 -0.014454 0.15092 0.29343 -0.00044072 -0.0016487
-0.0015503 -0.00087805 -0.00050356 -0.0011543
0.0028836 0.0007921 0.0015528 -0.0017542 -0.00044401 -0.0016571 -0.050396 0.27886
0.019182 0.019764 -0.0026178 0.0014851
0.00038788 -0.0035233 -0.0021452 -0.0024236 -0.0015639 -0.00089682 0.019226 0.019735
-0.095251 0.19598 0.013802 0.019137
-0.0002414 -0.0016312 -0.001202 -0.0031586 -0.00050291 -0.0011788 -0.0026491 0.0015446
0.01378 0.018998 -0.14078 0.26626
1100000000 0.02451 0.30131 0.037383 -0.0026604 0.0033365 0.0043855 0.0024936 -0.0010892
-0.0020789 -0.0030144 -0.0040551 -0.00011772
0.037352 -0.0026682 -0.13894 0.36886 0.016429 -0.028161 9.0828e-06 -0.0018061
-0.0035223 -0.00076132 -0.0033955 -0.00062115
0.0033393 0.0043815 0.016347 -0.028254 0.19742 0.27438 -0.0019784 0.00017319
-0.001821 0.00048915 -0.001171 -0.00067009
0.0025418 -0.0010942 1.0884e-05 -0.0018167 -0.0019788 0.00017093 -0.0099001 0.28482
0.025268 0.0062297 -0.0023886 0.00044134
-0.0021507 -0.0029304 -0.0035216 -0.00075624 -0.0018296 0.00049853 0.025292 0.0061801
-0.075318 0.21007 0.020187 0.0094098
-0.0040859 -0.00022301 -0.0033967 -0.00059992 -0.0011931 -0.00067071 -0.0023293 0.00042284
0.020202 0.0094829 -0.094378 0.29694
1160000000 0.075541 0.29806 0.025778 -0.02023 0.0034671 -0.00051691 -0.00021744 -0.0026091
-0.0042274 -0.00087781 -0.0011765 0.004192
0.025807 -0.020202 -0.094863 0.37418 -0.003129 -0.029772 -0.0015844 -0.0017434
-0.002536 0.0024617 -0.0016438 0.0019548
0.0034691 -0.00053672 -0.0032476 -0.029795 0.24104 0.24433 -0.00076817 0.0017732
-0.00057409 0.0018912 -0.0011572 0.00029841
-0.00024661 -0.0026096 -0.0015751 -0.0017086 -0.00077128 0.00177 0.029868 0.28231
0.021982 -0.010104 -0.0031381 0.0052325
-0.0042272 -0.00088314 -0.002543 0.0025009 -0.00057112 0.0018845 0.021999 -0.010136
-0.041536 0.21922 0.019116 9.9253e-05
-0.0011587 0.0041629 -0.0016561 0.0019729 -0.0011474 0.00028426 -0.0031678 0.0053129
0.019082 8.5422e-05 -0.04775 0.3002
1220000000 0.11943 0.28887 0.012357 -0.030618 -0.0011088 -0.0014495 -0.00014354 -0.00092165
-0.0028569 0.002217 0.0010318 0.0021026
0.012373 -0.030606 -0.050306 0.38807 -0.017036 -0.022062 -0.0026358 0.00061859
1.8158e-05 0.0029962 -0.00082799 0.0019559
-0.0011244 -0.0014566 -0.017142 -0.022015 0.28062 0.20593 0.00079098 0.0016968
0.00045222 0.0012192 0.0001812 0.00072604
-0.00011136 -0.00093446 -0.0026265 0.00062273 0.00078262 0.0016994 0.070184 0.27405
0.011328 -0.017164 0.0023024 0.001442
-0.0028635 0.0022641 3.0731e-05 0.0030127 0.00046844 0.0012183 0.0113 -0.017171
-0.01756 0.22921 0.014753 -0.013114
0.0010645 0.0020548 -0.00080576 0.0019349 0.00018222 0.00073397 0.0023345 0.0013831
0.014767 -0.013061 -0.017345 0.31689
1280000000 0.17021 0.26913 -0.0068957 -0.029887 -0.0019923 0.0018982 -0.00097112 -0.0019994
-0.00076818 0.0033335 0.0026784 0.0014109
-0.0068447 -0.029866 -0.0033245 0.38 -0.024369 -0.0087496 -0.00090338 0.0014765
0.0016534 0.0016154 0.00072257 0.0021687
-0.0019949 0.0018914 -0.024441 -0.0086515 0.31152 0.16242 0.0015233 -0.00011857
0.0010989 0.00031185 0.00026678 0.00032477
-0.00099218 -0.0019966 -0.00089473 0.0014925 0.0015214 -0.00011446 0.10717 0.25798
0.0013542 -0.019656 0.00016134 0.00021201
-0.00074455 0.0033403 0.0016684 0.0016089 0.0011062 0.00031582 0.0013298 -0.019649
0.019532 0.2336 0.0036816 -0.015614
0.0026512 0.0014263 0.00072298 0.0021447 0.00027738 0.00031854 0.00016185 0.00025569
0.0036621 -0.015604 0.031163 0.32029
1340000000 0.20789 0.23678 -0.017363 -0.020437 0.00037634 0.0043082 -0.0018384 -0.00077714
0.0014286 0.0028161 0.0017729 -0.0013161
-0.017331 -0.020429 0.036514 0.37224 -0.021813 0.0043371 -9.6378e-05 0.0019468
0.0019071 0.0008013 0.0011786 0.00088919
0.00039094 0.0043001 -0.021805 0.0044458 0.33368 0.11522 0.00096412 -0.00094362
0.00059126 -0.00039895 0.00013998 0.00032273
-0.0018475 -0.00079247 -8.4504e-05 0.0019461 0.00096889 -0.0009376 0.14048 0.23738
-0.0084991 -0.017049 0.00095225 0.00028345
0.0014619 0.0028031 0.0019069 0.00078856 0.00058219 -0.00039774 -0.0085355 -0.017042
0.049854 0.22949 -0.0034762 -0.014481
0.0017447 -0.0013958 0.0011542 0.00087067 0.00014354 0.00034067 0.00090958 0.00027061
-0.0034308 -0.014516 0.06905 0.31582
1400000000 0.2424 0.19998 -0.024084 -0.008662 0.0049273 0.0032564 -0.0021936 0.00063435
0.0026552 0.0010316 0.00033672 -0.0017319
-0.024046 -0.008676 0.07466 0.35963 -0.014919 0.01271 0.0012715 0.0012155
0.0012001 -0.00065759 0.0011341 0.00015441
0.0049403 0.0032444 -0.014882 0.012797 0.34718 0.062075 3.9714e-05 -0.0015344
0.00016411 -0.00035878 0.0003724 0.00033791
-0.0021981 0.00066473 0.0012885 0.0012157 5.0331e-05 -0.0015374 0.16993 0.20863
-0.014872 -0.0099323 -0.00082715 -0.00042266
0.0026834 0.0010165 0.0012035 -0.00067388 0.00016209 -0.00035893 -0.014886 -0.009903
0.083596 0.22554 -0.010002 -0.0094436
0.00034943 -0.0017011 0.001181 0.00014126 0.00038508 0.00031878 -0.00080914 -0.00041873
-0.0099875 -0.009401 0.11442 0.306
1460000000 0.26576 0.15657 -0.021362 0.0042327 0.0054608 -0.0016557 -0.0014607 0.0016636
0.0022157 -0.00050179 -0.00026232 -0.00097603
-0.021357 0.0042094 0.10912 0.33756 -0.0057039 0.0156 0.0015776 0.00022567
0.00096848 -0.0012799 0.0012649 -0.00067166
0.0054458 -0.0016606 -0.0056325 0.015637 0.35378 0.00825 -0.0011717 -0.0011435
0.00026577 -0.00023029 0.00083013 -0.00029996
-0.0014569 0.0016669 0.0015871 0.00021438 -0.0011722 -0.0011305 0.19673 0.17967
-0.015843 -0.002957 -0.0010732 0.0019537
0.0022259 -0.0004985 0.00096802 -0.0013024 0.00026358 -0.00021782 -0.015859 -0.002929
0.11367 0.21169 -0.012231 -0.0032178
-0.00028318 -0.00097326 0.0012665 -0.00064078 0.00086269 -0.00029504 -0.0010834 0.0019578
-0.012253 -0.0032588 0.14785 0.28548
1520000000 0.27895 0.11556 -0.015764 0.01028 0.0032729 -0.0041145 0.00015019 0.0026258
0.0021412 -0.001902 -0.0011922 -5.108e-05
-0.015762 0.010266 0.14256 0.32338 0.0020819 0.012924 0.0016322 -0.00066025
0.00013371 -0.0010616 0.00029794 -0.0010934
0.0032497 -0.0041194 0.0021562 0.012934 0.34722 -0.047391 -0.00088708 -0.00034461
0.00070169 -0.00098692 0.00016172 -0.00026719
0.00013952 0.0026117 0.0016364 -0.00066986 -0.00089225 -0.00033354 0.22012 0.14159
-0.014938 0.0030138 0.0014392 0.0020712
0.0020998 -0.0019571 0.00013078 -0.0010647 0.00069975 -0.0010029 -0.014944 0.0030557
0.14194 0.19874 -0.01215 0.0014056
-0.0011537 -1.6531e-05 0.0002733 -0.0011033 0.00014537 -0.00026806 0.0014514 0.0020514
-0.012103 0.0014213 0.1811 0.26615
1580000000 0.28942 0.070031 -0.008782 0.01399 -0.0010573 -0.0048284 0.0014443 0.0018302
-0.00027648 -0.0022391 -0.00016994 0.00041754
-0.0087871 0.013981 0.16992 0.29878 0.0055903 0.0076873 0.00062311 -0.0015222
-0.00048724 -0.0011328 -0.00023111 -0.00081964
-0.0010871 -0.0048246 0.0056409 0.0076628 0.32786 -0.10483 -0.0015515 0.00039266
-0.000418 -0.0013098 0.00041771 -0.00065544
0.0014583 0.0018237 0.00061882 -0.0015288 -0.0015519 0.0003935 0.23416 0.10249
-0.011303 0.0079718 0.0020781 0.0007772
-0.00026364 -0.0022353 -0.00049494 -0.0011261 -0.00043375 -0.0013173 -0.011305 0.0079995
0.16626 0.18131 -0.0095793 0.0075406
-0.00018025 0.00042077 -0.0002299 -0.00081549 0.00040995 -0.00065529 0.0020714 0.00076009
-0.009612 0.007534 0.21408 0.23989
1640000000 0.29241 0.029239 -0.0015878 0.012854 -0.0029647 -0.0023656 0.0027039 0.0011217
-0.0008298 -0.0015492 -0.00037841 0.00060032
-0.0015917 0.012845 0.19934 0.27458 0.0057761 0.0026977 -0.00052979 -0.0018332
-0.00099009 -0.00051471 -0.00061869 -0.00059347
-0.0029953 -0.002349 0.0058009 0.002667 0.29953 -0.15375 -0.00079154 0.001334
-0.0010919 -0.0010326 -0.00037767 -0.00046271
0.0027078 0.0010992 -0.00053929 -0.001841 -0.00079264 0.0013374 0.24696 0.053732
-0.0069273 0.0089591 0.002457 -0.0005827
-0.00085258 -0.0015518 -0.00099684 -0.00050982 -0.0011027 -0.0010251 -0.0069039 0.0089803
0.18938 0.15816 -0.0047487 0.0097724
-0.00040494 0.00064202 -0.00062652 -0.0005978 -0.00036591 -0.00047011 0.0024703 -0.00056024
-0.0047348 0.0097352 0.23988 0.20943
1700000000 0.28654 -0.015789 0.0022064 0.0099167 -0.003457 0.00032811 0.0031883 -0.0011815
-0.0020008 -0.00061935 0.00054839 0.00037593
0.0021963 0.0099073 0.2177 0.24371 0.003327 -0.00011159 -0.0014193 -0.00069798
-0.00078412 -4.1616e-05 -0.0009089 -0.00042601
-0.0034613 0.0003495 0.0033305 -0.00013457 0.25681 -0.19326 0.00019163 0.0016397
-0.0020325 -5.6076e-05 -0.00043101 -0.00080183
0.003191 -0.0011955 -0.0014178 -0.00069217 0.00018166 0.0016473 0.24419 0.003942
-0.0039397 0.0092483 0.0015835 -0.0020855
-0.0020201 -0.00057996 -0.00078824 -3.6256e-05 -0.002037 -5.9643e-05 -0.0039214 0.009257
0.20751 0.13865 0.00012359 0.0098878
0.00052858 0.0003463 -0.00089878 -0.00043103 -0.00043172 -0.00082868 0.0015668 -0.0021075
0.00013572 0.0099083 0.25728 0.17523
1760000000 0.27555 -0.064334 0.0045707 0.0064443 -0.0021162 0.0011636 0.0013873 -0.0034488
-0.0013245 0.00063011 0.00036896 -0.0005338
0.0045711 0.0064505 0.24392 0.20469 0.00083523 -0.0015915 -0.0012991 2.7389e-05
-0.0011492 0.00091847 -0.00055569 0.00046054
-0.0021111 0.0011745 0.00081872 -0.0015921 0.20933 -0.2263 0.0010713 0.0012528
-0.0012702 0.0014127 -0.0013501 -0.00063538
0.0013501 -0.0034637 -0.0013122 3.2667e-05 0.0010641 0.0012559 0.23561 -0.04757
-0.00090498 0.0082109 -0.00017188 -0.0022725
-0.0013515 0.00063792 -0.0011532 0.0009284 -0.0012637 0.0014291 -0.00087677 0.0082298
0.22266 0.10494 0.0040895 0.0074342
0.00039663 -0.00054212 -0.00055032 0.00046792 -0.0013224 -0.00063617 -0.00014573 -0.0022361
0.0041132 0.007429 0.27082 0.13791
1820000000 0.25238 -0.10181 0.0046427 0.0027896 7.4289e-05 0.0024369 -0.00092084 -0.0032149
-0.001069 0.00089037 1.6444e-05 -0.00021212
0.004632 0.0027851 0.25463 0.17531 -0.0014614 -4.6095e-05 -0.0014459 0.00090946
-4.5814e-05 0.0012227 -0.00053209 0.00052352
7.8621e-05 0.0023912 -0.0014687 -4.3112e-05 0.15854 -0.24232 0.0017042 0.0003495
-0.00016785 0.0023139 -0.0014954 0.00039775
-0.00090883 -0.003224 -0.0014492 0.0009226 0.0016926 0.00035457 0.20622 -0.095199
0.00041941 0.0067894 -0.0015395 -0.0016486
-0.001048 0.00089127 -3.2379e-05 0.0012214 -0.00017949 0.002319 0.00040658 0.0068052
0.24075 0.076967 0.0051267 0.0035466
-1.2936e-07 -0.00019316 -0.00053373 0.00053618 -0.0015234 0.00039304 -0.001609 -0.0016912
0.005131 0.0035579 0.2735 0.10199
1880000000 0.21798 -0.14295 0.0024389 0.00052517 -0.00039499 0.0021582 -0.0028657 -0.002259
-0.0001645 0.0018068 0.00014886 -0.00062593
0.0024257 0.00053002 0.25963 0.12932 -0.0032963 0.0022952 -0.00024307 0.0018538
0.0006319 0.0013618 0.00014414 0.00092455
-0.00036761 0.0021947 -0.0032821 0.0023244 0.10665 -0.25139 0.001943 -0.00096766
0.0015434 0.0019268 -0.0011256 0.0014766
-0.0028969 -0.0022713 -0.00024008 0.0018541 0.0019459 -0.00097249 0.16587 -0.13583
0.0011084 0.0047074 -0.002419 8.1927e-05
-0.00017867 0.0018053 0.00063047 0.0013556 0.0015512 0.0019307 0.0011453 0.0046936
0.24542 0.046133 0.0053555 0.0012168
0.00014577 -0.00061163 0.00015416 0.0009114 -0.0011192 0.0014822 -0.0023734 0.0001323
0.0053634 0.0012204 0.2742 0.067787
1940000000 0.17892 -0.16931 0.00023401 -0.0011637 0.0017134 0.0019708 -0.0039058 0.00034382
0.001125 0.0010475 -0.00085804 -0.00048
0.00023994 -0.001151 0.26123 0.098012 -0.0016539 0.0049504 0.0010153 0.0014618
0.0018671 0.00047486 0.00081639 0.00021158
0.0017248 0.0019486 -0.001617 0.004973 0.061734 -0.24465 0.00041551 -0.0024393
0.0023665 0.00038455 0.00020061 0.0015773
-0.0038862 0.00037504 0.0010258 0.0014502 0.00041777 -0.0024356 0.11317 -0.16638
2.1849e-05 0.0037282 -0.0014978 0.0016028
0.0011409 0.0010187 0.0018669 0.00045935 0.0023517 0.00038844 -8.8057e-06 0.0037602
0.2493 0.0086266 0.0038812 -0.0021828
-0.0008759 -0.00050295 0.00082276 0.00019805 0.00021851 0.0015785 -0.0015473 0.0015545
0.0038648 -0.002168 0.26303 0.03187
2000000000 0.13296 -0.18484 -0.0033918 0.00074623 0.0028465 0.0012987 -0.0022091 0.0037095
0.0013 0.00036382 -0.00052599 0.00052349
-0.0034013 0.00073714 0.24805 0.062606 -0.00078796 0.006949 0.0018161 0.00042903
0.0013018 -0.0012142 0.00033938 1.2624e-05
0.0028282 0.0013102 -0.00074733 0.0069579 0.018405 -0.23032 -0.001406 -0.0015095
0.0020615 -0.0011052 0.0015314 0.0013808
-0.0022341 0.0037035 0.0018172 0.00042332 -0.0014073 -0.0015026 0.059855 -0.17699
-0.001391 0.0037461 -0.00038032 0.0020972
0.0012711 0.00038388 0.0012726 -0.0012194 0.0020672 -0.0011086 -0.0013328 0.0037231
0.24542 -0.024166 0.00062547 -0.0032864
