!Keysight Technologies,M9804A,MY58100912,A.14.10.03
!Date: Thursday, April 27, 2023 10:28:33
!Correction: S11(C  6-Port  ) 
!S12(C  6-Port  ) 
!S13(C  6-Port  ) 
!S14(C  6-Port  ) 
!S15(C  6-Port  ) 
!S16(C  6-Port  ) 
!S21(C  6-Port  ) 
!S22(C  6-Port  ) 
!S23(C  6-Port  ) 
!S24(C  6-Port  ) 
!S25(C  6-Port  ) 
!S26(C  6-Port  ) 
!S31(C  6-Port  ) 
!S32(C  6-Port  ) 
!S33(C  6-Port  ) 
!S34(C  6-Port  ) 
!S35(C  6-Port  ) 
!S36(C  6-Port  ) 
!S41(C  6-Port  ) 
!S42(C  6-Port  ) 
!S43(C  6-Port  ) 
!S44(C  6-Port  ) 
!S45(C  6-Port  ) 
!S46(C  6-Port  ) 
!S51(C  6-Port  ) 
!S52(C  6-Port  ) 
!S53(C  6-Port  ) 
!S54(C  6-Port  ) 
!S55(C  6-Port  ) 
!S56(C  6-Port  ) 
!S61(C  6-Port  ) 
!S62(C  6-Port  ) 
!S63(C  6-Port  ) 
!S64(C  6-Port  ) 
!S65(C  6-Port  ) 
!S66(C  6-Port  ) 
!S6P File: Measurement: :
# Hz S  RI   R 50
500000000 -0.33059 -0.061483 -0.0095682 -0.0013223 -0.0090251 0.0126 -0.0034098 0.012384
0.012984 0.0054239 -0.003317 0.0082973
-0.0093467 -0.0013435 -0.41304 -0.070556 0.0087097 -0.010799 0.0012956 0.011978
0.0081961 0.0031142 0.0013518 0.013759
-0.0089631 0.012564 0.0087117 -0.010804 -0.2651 0.19249 0.0071621 0.0033144
-0.0021354 0.0088555 0.00066995 0.012271
-0.0033756 0.012412 0.0012006 0.011971 0.0071017 0.0034557 -0.33018 0.038936
-0.018706 -0.0042811 0.016445 0.025805
0.013055 0.00544 0.0082193 0.0030972 -0.0021327 0.0088365 -0.018671 -0.0042899
-0.23821 -0.20891 -0.026954 0.0051229
-0.0032234 0.008446 0.0013086 0.013521 0.00058482 0.01229 0.016584 0.025883
-0.027047 0.0050035 -0.26797 -0.13614
560000000 -0.31852 0.10472 -0.022019 -0.066958 -9.4149e-05 0.013305 0.0051744 0.01181
0.011518 0.00406 0.010095 0.0089467
-0.02203 -0.066754 -0.37228 0.093415 -0.04157 -0.039825 0.014103 0.0037953
-0.012422 -0.0035875 0.0034525 -0.0017419
-0.00011173 0.013286 -0.041696 -0.039751 -0.18577 0.24446 -0.0011146 -0.0050014
0.018811 0.0061563 0.0071805 -0.0062319
0.0051844 0.011817 0.014129 0.0038334 -0.0011571 -0.0049532 -0.30563 0.13117
0.0059895 -0.024049 0.0063544 -0.021489
0.011555 0.0039671 -0.012457 -0.0036349 0.018785 0.0061958 0.0059787 -0.023946
-0.30963 -0.026466 0.010328 -0.052089
0.0099803 0.0090971 0.0036138 -0.0016247 0.0071326 -0.006183 0.0062488 -0.021463
0.010348 -0.052068 -0.33021 0.014587
620000000 -0.2787 0.085399 -0.022999 0.0084491 0.0034429 0.0095477 0.0079725 -0.004166
0.012215 -0.0022885 0.0008625 -0.0021984
-0.022981 0.0084605 -0.40193 0.040857 -0.018642 -0.00031485 -0.0020265 -0.002372
0.012726 -0.0060112 0.00087673 -0.0040229
0.0034138 0.0095588 -0.018681 -0.00027544 -0.1573 0.25404 -0.0011833 -0.0049317
-0.0034922 -0.0036597 0.0092223 -0.0031264
0.0079441 -0.0041858 -0.0020896 -0.002339 -0.0012327 -0.0048849 -0.26421 0.14191
-0.038347 -0.020723 0.013161 0.028761
0.012269 -0.002169 0.012738 -0.0060381 -0.0034546 -0.0035694 -0.038514 -0.020471
-0.22756 -0.063818 -0.041515 0.010587
0.00082666 -0.0020664 0.00083014 -0.0040035 0.0092149 -0.0031686 0.01302 0.028538
-0.041625 0.010494 -0.24886 -0.021713
680000000 -0.24197 0.17715 -0.026456 -0.015291 0.0046459 0.0055539 0.0012716 -0.0074203
-0.0014943 -0.011804 0.0056933 -0.0068527
-0.026398 -0.015225 -0.39091 0.14227 -0.033249 -0.0026857 -0.0015013 -0.00050577
-0.0016128 -0.0091446 -0.00080556 -0.0017703
0.0047065 0.0055781 -0.033307 -0.0026086 -0.10746 0.27632 -0.00072861 -0.00011748
-0.001649 0.00064976 -0.0027323 -0.0094967
0.0012604 -0.0074685 -0.001503 -0.00049776 -0.00073231 -0.00011812 -0.2204 0.19282
-0.023093 -0.0084423 -0.0091442 -0.01151
-0.0016137 -0.01181 -0.0016402 -0.0091288 -0.0016449 0.0006324 -0.023095 -0.0084818
-0.28044 0.039676 -0.0066332 -0.007451
0.0057784 -0.0067104 -0.00083073 -0.0017204 -0.0027636 -0.009474 -0.0090815 -0.011547
-0.0066816 -0.0073541 -0.26044 0.084338
740000000 -0.19538 0.16982 -0.040469 0.026401 0.013709 -0.0045392 0.00017938 -0.0041086
-0.0042849 -0.0031526 -0.0066394 0.0030384
-0.040434 0.026359 -0.33693 0.16174 -0.038204 0.034706 -8.1913e-05 -0.0057762
-0.011903 0.0070566 -0.0014467 -0.0055214
0.013744 -0.0045323 -0.03816 0.034852 -0.073602 0.27424 -0.0017011 0.003299
-0.0021823 -0.0056858 -0.0018032 0.0012655
0.0001813 -0.0041215 -0.00011152 -0.0057515 -0.0016906 0.0033005 -0.20471 0.20001
-0.042966 -0.009536 0.022418 0.015674
-0.0042399 -0.0031164 -0.011843 0.0071422 -0.0022116 -0.0057097 -0.042996 -0.0095053
-0.18187 0.069329 -0.043928 -0.00012832
-0.006481 0.0031965 -0.0014922 -0.0053911 -0.0018412 0.0012308 0.022412 0.015719
-0.043833 -0.00013237 -0.25205 0.089438
800000000 -0.16532 0.21621 -0.022981 0.016244 0.005891 -0.010386 -0.0047522 -0.0026353
-0.0043311 0.0021884 0.0040042 0.00037099
-0.02303 0.016179 -0.34466 0.23291 -0.0093407 0.034675 -0.0021339 0.0020303
-0.000777 0.0027015 0.00069662 0.0054635
0.005882 -0.01048 -0.0092258 0.034718 -0.035073 0.30006 0.00079706 0.0010995
0.00028813 0.0034136 -0.0020231 0.00071895
-0.0047584 -0.002596 -0.0021428 0.0020711 0.00077489 0.0011202 -0.1763 0.2275
-0.028905 0.013056 0.013996 -0.010584
-0.0043766 0.002126 -0.00079126 0.0026889 0.00028805 0.0034017 -0.028881 0.013054
-0.22669 0.095408 -0.018138 0.020059
0.0039198 0.00034047 0.00074981 0.0055788 -0.0020542 0.00076135 0.01403 -0.010706
-0.01814 0.020271 -0.24629 0.13923
860000000 -0.13072 0.2367 -0.018871 0.030622 -0.0029657 -0.01029 -0.0018876 0.00055518
0.0040432 0.0051955 -0.0032064 -0.0030846
-0.018872 0.030565 -0.29727 0.27721 0.0068623 0.035289 8.3603e-05 0.0021642
0.0033848 0.00030176 0.0037696 -0.00039967
-0.0029586 -0.010256 0.0069911 0.035305 0.012761 0.30942 -0.00057089 -0.00033881
0.0023574 -0.0015871 0.0017604 0.004309
-0.0018978 0.00053044 5.8442e-05 0.0021785 -0.00055208 -0.00035172 -0.13922 0.23985
-0.019478 0.018333 -0.0062643 -0.0086875
0.0040355 0.0051161 0.0034024 0.00026537 0.0023517 -0.0015876 -0.019453 0.018321
-0.17094 0.15018 -0.025125 0.016779
-0.0031672 -0.0030413 0.0037609 -0.00040221 0.0017865 0.0042961 -0.0063023 -0.0086572
-0.024987 0.016667 -0.1939 0.18581
920000000 -0.10797 0.26065 0.0040645 0.039232 -0.0094415 -0.0050578 -0.0020231 0.0018701
0.0010876 0.001896 0.0027707 -0.0011778
0.0041038 0.039237 -0.26981 0.29926 0.028194 0.023686 0.0015947 0.0012682
0.0073179 -6.482e-05 0.0046368 -0.0027537
-0.0094721 -0.0050212 0.028319 0.023599 0.058638 0.31129 0.0018608 5.0204e-05
0.00076466 -3.5609e-05 0.0010932 -0.0014081
-0.0019912 0.0018936 0.0015731 0.0012613 0.0018545 7.1982e-05 -0.11596 0.2572
-0.012193 0.031108 0.0039162 -0.0068053
0.001109 0.0018879 0.0073107 -0.00010204 0.00076461 -3.6664e-05 -0.012144 0.031105
-0.16122 0.15699 -0.0023796 0.027616
0.0027264 -0.0011283 0.0046626 -0.0027317 0.001089 -0.0013788 0.0039491 -0.0068619
-0.0023848 0.027627 -0.20383 0.19924
980000000 -0.061715 0.28215 0.016431 0.031138 -0.0096739 0.0044866 0.0019515 0.0038843
0.0038991 -0.0015053 -0.0034141 -0.002257
0.016384 0.031142 -0.21721 0.33544 0.033713 0.0060233 0.002018 -0.00012865
0.0016957 -0.0060093 -0.00052568 -0.0027151
-0.0096606 0.0045212 0.033791 0.0059188 0.10486 0.30601 0.00077817 -0.0010753
0.00054255 -0.0017531 0.0015151 -0.00022763
0.0019912 0.0038747 0.0020035 -0.00012903 0.00077254 -0.0010778 -0.077559 0.26841
0.0070314 0.030297 -0.0095723 -0.007526
0.0039056 -0.0015338 0.0016684 -0.0060554 0.00055368 -0.0017519 0.0070878 0.030317
-0.12768 0.18783 0.0052248 0.020251
-0.0034176 -0.002274 -0.00054782 -0.0027246 0.0015207 -0.00023628 -0.0096343 -0.0074595
0.0052205 0.020174 -0.16176 0.2453
1040000000 -0.020479 0.29129 0.03332 0.020204 -0.0014599 0.007442 0.0027896 0.00070262
0.00043553 -0.003458 -0.00028812 -0.0016397
0.0333 0.020228 -0.1821 0.34958 0.030638 -0.014342 0.0015644 -0.0018024
-0.0022285 -0.0024104 -0.0011832 -0.0031353
-0.0014548 0.0074618 0.030636 -0.014485 0.15109 0.29343 -0.00047875 -0.0016385
-0.0015461 -0.00089978 -0.00049662 -0.0011442
0.002798 0.0006945 0.0015539 -0.0017829 -0.00047389 -0.0016476 -0.050195 0.27899
0.019194 0.019654 -0.0026968 0.0014762
0.00043038 -0.0034586 -0.0022528 -0.0024102 -0.0015315 -0.00091297 0.0192 0.019635
-0.094909 0.19615 0.01381 0.018783
-0.00034079 -0.0016423 -0.001159 -0.00318 -0.00050114 -0.0011539 -0.0026595 0.0014802
0.013796 0.01878 -0.14037 0.26656
1100000000 0.024731 0.30148 0.037307 -0.0027186 0.0033059 0.00436 0.0025398 -0.0010894
-0.0022002 -0.0029144 -0.003888 -0.00021812
0.037296 -0.002662 -0.13869 0.36894 0.016378 -0.028167 3.1311e-06 -0.0018327
-0.0035478 -0.00076041 -0.0033589 -0.0005988
0.0033264 0.0043514 0.016303 -0.028272 0.19753 0.27439 -0.0019656 0.00017754
-0.0018439 0.00053662 -0.0011839 -0.00065623
0.002548 -0.0011028 -2.3155e-05 -0.0018187 -0.0019754 0.00017451 -0.0097268 0.28482
0.02525 0.0061802 -0.0023554 0.00040258
-0.0021937 -0.0028804 -0.0035614 -0.00074667 -0.0018539 0.00054164 0.025267 0.0061319
-0.07521 0.21025 0.020312 0.0095286
-0.003876 -0.00019702 -0.0033494 -0.0005757 -0.0012031 -0.00065595 -0.0024048 0.00041215
0.020321 0.0095327 -0.093765 0.29686
1160000000 0.075811 0.29797 0.025705 -0.020241 0.0034111 -0.00050059 -0.00025184 -0.0026164
-0.0041252 -0.00093744 -0.0012262 0.0041337
0.025698 -0.020223 -0.09463 0.37426 -0.0031814 -0.029756 -0.0015327 -0.0017292
-0.0024976 0.0024143 -0.0017328 0.0019034
0.0033842 -0.00051399 -0.0032937 -0.029792 0.24121 0.24435 -0.00076456 0.0017584
-0.00055788 0.0018605 -0.0011113 0.00033587
-0.00024728 -0.0026062 -0.0015623 -0.0017165 -0.00076521 0.0017488 0.029993 0.28231
0.021941 -0.010151 -0.0032335 0.0053134
-0.0041202 -0.00092606 -0.0024872 0.0024276 -0.00055944 0.001865 0.021927 -0.010153
-0.04118 0.21929 0.019157 -0.00010445
-0.0012068 0.0041392 -0.0017065 0.0019155 -0.0011266 0.00032894 -0.0032008 0.005293
0.019113 -4.7697e-05 -0.047255 0.30042
1220000000 0.11975 0.28884 0.012273 -0.030619 -0.0011392 -0.0014413 -0.00012626 -0.00094639
-0.0028565 0.0022466 0.0010857 0.0021098
0.012278 -0.030579 -0.050029 0.38811 -0.017066 -0.022037 -0.0026194 0.00058152
6.2123e-05 0.0030324 -0.00082219 0.0019391
-0.0011426 -0.0014292 -0.017167 -0.021985 0.2807 0.20588 0.00079255 0.0016984
0.00049146 0.0012134 0.00016331 0.00072052
-0.00012239 -0.00093927 -0.0026323 0.00060239 0.00077943 0.0017073 0.070235 0.27411
0.011194 -0.017237 0.0023794 0.0015146
-0.0028264 0.0022976 7.6112e-05 0.003037 0.00049637 0.0012022 0.011201 -0.017224
-0.017357 0.2292 0.014695 -0.012995
0.0010859 0.0021049 -0.00080453 0.0019585 0.00017171 0.00072258 0.0023875 0.001512
0.014718 -0.01296 -0.01651 0.31686
1280000000 0.17045 0.26901 -0.0069604 -0.029793 -0.0019976 0.0019461 -0.00093206 -0.0019993
-0.00072335 0.0032977 0.002619 0.0014124
-0.0069421 -0.029758 -0.0030853 0.38001 -0.024381 -0.0087128 -0.00089951 0.0014707
0.0016596 0.0015871 0.00070423 0.0021326
-0.0019981 0.0019542 -0.02445 -0.0086057 0.31162 0.16244 0.0014963 -0.00012105
0.0011231 0.00025422 0.00024706 0.00036574
-0.00093808 -0.0019979 -0.00088098 0.0014725 0.001495 -0.00013047 0.1073 0.25799
0.001308 -0.01962 0.00014646 0.00023262
-0.00071816 0.0033039 0.0016875 0.0015854 0.0011202 0.00025134 0.0012576 -0.019626
0.019757 0.23371 0.0036689 -0.01568
0.0026056 0.0013767 0.00069629 0.0021041 0.00025639 0.00037593 0.00013614 0.00023211
0.0036617 -0.015685 0.031723 0.32027
1340000000 0.20814 0.23664 -0.017386 -0.020382 0.00038988 0.0043215 -0.001857 -0.00077109
0.0014108 0.0027914 0.0018233 -0.001342
-0.017368 -0.020369 0.03674 0.37224 -0.021809 0.0043694 -7.1198e-05 0.0019505
0.0018721 0.0007875 0.0011674 0.00086868
0.00041059 0.0043294 -0.021824 0.0044802 0.33379 0.11517 0.00099029 -0.00094248
0.00058917 -0.00039937 0.00013976 0.00032378
-0.0018598 -0.00076063 -6.266e-05 0.0019659 0.00098551 -0.00094795 0.14057 0.23735
-0.0085297 -0.017048 0.00093217 0.00031349
0.0014206 0.0027746 0.0018863 0.0007816 0.00058938 -0.0003978 -0.0085619 -0.017044
0.050168 0.22945 -0.003552 -0.014418
0.0018116 -0.0013518 0.0011984 0.00086352 0.00014685 0.00032537 0.0009146 0.0002921
-0.0035241 -0.014396 0.069576 0.31564
1400000000 0.24253 0.19982 -0.024016 -0.0086089 0.0049413 0.0032604 -0.0021829 0.00061231
0.0026515 0.0010318 0.00032661 -0.0016676
-0.023995 -0.0086145 0.074816 0.3596 -0.014906 0.012715 0.0012551 0.0011871
0.0011852 -0.00070795 0.0011874 0.00015299
0.004964 0.0032452 -0.014855 0.012805 0.34722 0.062067 1.9266e-05 -0.0015318
0.00016942 -0.00039146 0.00039692 0.00031489
-0.0021881 0.00062549 0.0012778 0.0011982 2.5958e-05 -0.0015374 0.17011 0.20868
-0.014917 -0.0099052 -0.00077328 -0.00039849
0.002656 0.0010084 0.0011842 -0.00071518 0.00015514 -0.0003998 -0.014946 -0.0098741
0.083799 0.22557 -0.0099906 -0.0093309
0.00031712 -0.0016852 0.0011773 0.00014974 0.00040111 0.00032961 -0.00076007 -0.00040111
-0.0099973 -0.0093685 0.11479 0.30573
1460000000 0.26589 0.15648 -0.021308 0.0042536 0.0054806 -0.0017039 -0.0015041 0.0016583
0.0021571 -0.0005238 -0.00020772 -0.0009778
-0.021285 0.0042421 0.10936 0.33751 -0.0056894 0.015624 0.0015896 0.00021528
0.00096771 -0.0012762 0.0012353 -0.00062163
0.005477 -0.0017238 -0.0056109 0.015664 0.35388 0.0082234 -0.0011611 -0.0011359
0.00023368 -0.00018269 0.00086697 -0.00025377
-0.0014815 0.0016706 0.0016054 0.00020811 -0.0011632 -0.0011461 0.19686 0.17962
-0.015799 -0.0028833 -0.0010954 0.0019152
0.002167 -0.00054456 0.00095843 -0.0012903 0.00023276 -0.00018182 -0.015812 -0.0028688
0.11401 0.21169 -0.012327 -0.0033165
-0.00021871 -0.0009696 0.0012408 -0.00064057 0.00086771 -0.00028313 -0.001103 0.0019314
-0.012308 -0.0033083 0.14842 0.28524
1520000000 0.27905 0.1154 -0.015717 0.010265 0.0032754 -0.0041179 0.00013618 0.0026332
0.0021411 -0.0019455 -0.001158 -2.4588e-05
-0.015715 0.01025 0.14279 0.32329 0.002081 0.012921 0.0016486 -0.00066233
0.00011092 -0.0010173 0.00028565 -0.0010919
0.0032532 -0.0041399 0.0021495 0.012914 0.34725 -0.047388 -0.00086547 -0.00035118
0.00071549 -0.00095711 0.00014817 -0.00028253
0.00014841 0.0026271 0.0016398 -0.00067564 -0.00086621 -0.00034359 0.22024 0.14156
-0.014977 0.0030434 0.0014846 0.0021005
0.0021307 -0.0019536 0.00010143 -0.0010148 0.00071008 -0.0009628 -0.014981 0.0030763
0.1421 0.1987 -0.012108 0.0015599
-0.001174 -1.5234e-05 0.00026847 -0.0011073 0.00014324 -0.00028782 0.0014892 0.0020797
-0.012116 0.0015473 0.18143 0.26579
1580000000 0.28951 0.069918 -0.0087445 0.013958 -0.0010555 -0.0048305 0.0014296 0.0018414
-0.00024992 -0.0022247 -0.00016097 0.00038377
-0.0087443 0.013949 0.17012 0.29873 0.0055975 0.0076832 0.00060753 -0.0015264
-0.00047378 -0.0011286 -0.00022541 -0.00080028
-0.0010793 -0.0048303 0.0056468 0.0076527 0.32787 -0.10483 -0.0015505 0.00043915
-0.00043708 -0.0013101 0.00041443 -0.00063567
0.0014397 0.0018331 0.00060192 -0.0015395 -0.0015586 0.00043894 0.23432 0.10241
-0.011237 0.0080281 0.0020478 0.00076136
-0.00027013 -0.0022336 -0.00048388 -0.001128 -0.00044588 -0.0013046 -0.011216 0.0080511
0.16651 0.18136 -0.0095845 0.0075029
-0.00014871 0.00037751 -0.00023921 -0.0008048 0.00040918 -0.00062707 0.002037 0.0007899
-0.0095822 0.0075017 0.21443 0.23963
1640000000 0.29252 0.029113 -0.0015665 0.012808 -0.0029903 -0.0023808 0.0027029 0.0010962
-0.00083079 -0.0015683 -0.0003837 0.00060533
-0.0015758 0.012795 0.19953 0.27444 0.0057881 0.0026825 -0.00053687 -0.0018221
-0.0010066 -0.00051114 -0.00059304 -0.00060695
-0.0030084 -0.0023709 0.0058067 0.0026568 0.29962 -0.15376 -0.00079499 0.0013224
-0.0010907 -0.0010296 -0.00035177 -0.00044197
0.0026959 0.0010884 -0.00054696 -0.0018198 -0.00080038 0.001324 0.24709 0.053643
-0.0068481 0.0089289 0.002417 -0.00058628
-0.0008462 -0.0015677 -0.0010136 -0.00049854 -0.0010779 -0.0010368 -0.0068347 0.0089465
0.18969 0.15799 -0.0046952 0.0098035
-0.00038428 0.00062911 -0.00061252 -0.00060495 -0.00035315 -0.00043501 0.0024322 -0.00058057
-0.0046932 0.0098117 0.24011 0.20917
1700000000 0.28664 -0.015942 0.0021739 0.0098912 -0.0034763 0.00033911 0.0031717 -0.001162
-0.0020129 -0.00058686 0.00055806 0.0003309
0.0021694 0.0098865 0.21786 0.2436 0.0033074 -0.00012288 -0.0014259 -0.00069547
-0.00077677 -5.6413e-05 -0.00090067 -0.00044022
-0.0034722 0.00036579 0.0033041 -0.00013906 0.25681 -0.19331 0.00020681 0.0016608
-0.0020165 -4.5898e-05 -0.0004696 -0.00084514
0.0031743 -0.0011749 -0.0014296 -0.00069533 0.00020189 0.0016512 0.24429 0.0037966
-0.0039229 0.0092179 0.0016051 -0.0020887
-0.002015 -0.00057429 -0.00077822 -5.2001e-05 -0.0020188 -4.2324e-05 -0.0039066 0.0092437
0.20771 0.13862 0.00021435 0.0099025
0.00056655 0.00031955 -0.00090324 -0.00042589 -0.00045314 -0.00084151 0.0015737 -0.0021137
0.00021194 0.0098952 0.25744 0.17501
1760000000 0.27564 -0.064525 0.0045489 0.0064436 -0.00213 0.0011925 0.0013871 -0.0034706
-0.0013363 0.00059223 0.00035816 -0.00051472
0.0045402 0.0064432 0.24404 0.20456 0.00081299 -0.0015804 -0.0012907 2.454e-05
-0.0011305 0.00090077 -0.0005732 0.00046937
-0.0021388 0.0012097 0.00080696 -0.0015863 0.20943 -0.22627 0.0010568 0.0012514
-0.0012523 0.0014051 -0.0013372 -0.0006438
0.0013676 -0.0034687 -0.0012917 3.8047e-05 0.00107 0.0012571 0.23563 -0.047722
-0.00089277 0.0082014 -0.00017908 -0.0022993
-0.0013237 0.00061055 -0.0011385 0.00090776 -0.0012379 0.0014116 -0.00088057 0.0081901
0.22294 0.10478 0.0041509 0.0074228
0.0003407 -0.00052592 -0.00056954 0.00047302 -0.0013461 -0.00062424 -0.00014039 -0.0022921
0.00417 0.0074082 0.27113 0.13761
1820000000 0.25246 -0.10204 0.0046169 0.0027938 4.8776e-05 0.0024495 -0.00086817 -0.0031919
-0.0010449 0.00090096 1.613e-05 -0.00023378
0.0046219 0.0027948 0.25474 0.17513 -0.0014834 -4.0419e-05 -0.0014356 0.00092491
-4.8055e-05 0.0012404 -0.00055492 0.00051669
7.4451e-05 0.0024521 -0.0014861 -2.6689e-05 0.15864 -0.24241 0.0016924 0.00037067
-0.00017587 0.0023292 -0.001541 0.00037856
-0.00091439 -0.0031871 -0.0014359 0.00092684 0.0016913 0.00037923 0.20626 -0.095391
0.00038921 0.0067072 -0.0015854 -0.0016718
-0.001045 0.0009108 -4.2588e-05 0.0012442 -0.00017058 0.0023196 0.00040738 0.0067051
0.24091 0.076735 0.0051347 0.0035731
4.5085e-05 -0.00023403 -0.00054767 0.00052535 -0.001551 0.00034964 -0.0016196 -0.0017046
0.0051062 0.0035488 0.27364 0.10161
1880000000 0.21802 -0.14319 0.0024472 0.00050287 -0.00036174 0.0021607 -0.0028823 -0.0023063
-0.00021076 0.0017753 0.00012555 -0.00059681
0.0024377 0.00051113 0.25975 0.12916 -0.0032724 0.0023179 -0.00025609 0.001845
0.00058905 0.001349 0.00014461 0.00091385
-0.00035849 0.0021714 -0.0032588 0.0023454 0.10675 -0.2514 0.0019342 -0.00095922
0.0015514 0.001938 -0.0011031 0.0014798
-0.0028973 -0.0023018 -0.00024169 0.001848 0.0019337 -0.00094937 0.16579 -0.13587
0.0010522 0.004759 -0.0023442 4.3661e-05
-0.00018011 0.0017892 0.00059858 0.0013422 0.0015599 0.0019526 0.0010582 0.004767
0.24557 0.045963 0.005384 0.001118
0.00011114 -0.00060777 0.00015503 0.00091131 -0.0011117 0.0014906 -0.0023203 7.4571e-05
0.0053982 0.0011384 0.2743 0.067595
1940000000 0.1789 -0.16955 0.00023878 -0.0011329 0.0017143 0.0019794 -0.0039221 0.00035003
0.0011177 0.001004 -0.00078902 -0.00048371
0.00023068 -0.0011433 0.26128 0.097827 -0.0016288 0.0049642 0.0010075 0.0014232
0.0018591 0.00045806 0.00083795 0.00018923
0.0017172 0.0019606 -0.0015915 0.0049881 0.061871 -0.24472 0.0004274 -0.002447
0.0023543 0.00038989 0.00017224 0.0016224
-0.0039242 0.00037336 0.0010133 0.0014177 0.0004285 -0.0024552 0.11321 -0.16647
-2.0943e-05 0.0037242 -0.0015885 0.0015451
0.0010973 0.00097903 0.001866 0.00044239 0.002356 0.00038379 4.3455e-06 0.0037256
0.24939 0.0083867 0.0038155 -0.0022234
-0.00079423 -0.00049904 0.00085083 0.00019195 0.00019671 0.0016039 -0.0016184 0.0015552
0.0038035 -0.0022274 0.26311 0.031511
2000000000 0.13289 -0.185 -0.0034262 0.00074021 0.0028305 0.0012941 -0.0022043 0.003673
0.0012901 0.00038414 -0.0005541 0.00046125
-0.0034253 0.00074324 0.2481 0.062424 -0.0007588 0.0069401 0.0018235 0.00044063
0.0012961 -0.0012155 0.00039173 3.6553e-05
0.002813 0.0012953 -0.00070578 0.0069595 0.018491 -0.23049 -0.0014154 -0.0015579
0.002051 -0.0011416 0.0015325 0.0014269
-0.002178 0.0037022 0.0018435 0.00042007 -0.0014211 -0.0015437 0.059625 -0.17708
-0.0014285 0.0037436 -0.00027201 0.0021427
0.0013091 0.00038965 0.0012781 -0.0012245 0.0020447 -0.0011255 -0.0014704 0.0037516
0.24543 -0.024373 0.00067852 -0.0032864
