!Keysight Technologies,M9804A,MY58100912,A.14.10.03
!Date: Thursday, April 27, 2023 10:28:33
!Correction: S11(C  6-Port  ) 
!S12(C  6-Port  ) 
!S13(C  6-Port  ) 
!S14(C  6-Port  ) 
!S15(C  6-Port  ) 
!S16(C  6-Port  ) 
!S21(C  6-Port  ) 
!S22(C  6-Port  ) 
!S23(C  6-Port  ) 
!S24(C  6-Port  ) 
!S25(C  6-Port  ) 
!S26(C  6-Port  ) 
!S31(C  6-Port  ) 
!S32(C  6-Port  ) 
!S33(C  6-Port  ) 
!S34(C  6-Port  ) 
!S35(C  6-Port  ) 
!S36(C  6-Port  ) 
!S41(C  6-Port  ) 
!S42(C  6-Port  ) 
!S43(C  6-Port  ) 
!S44(C  6-Port  ) 
!S45(C  6-Port  ) 
!S46(C  6-Port  ) 
!S51(C  6-Port  ) 
!S52(C  6-Port  ) 
!S53(C  6-Port  ) 
!S54(C  6-Port  ) 
!S55(C  6-Port  ) 
!S56(C  6-Port  ) 
!S61(C  6-Port  ) 
!S62(C  6-Port  ) 
!S63(C  6-Port  ) 
!S64(C  6-Port  ) 
!S65(C  6-Port  ) 
!S66(C  6-Port  ) 
!S6P File: Measurement: :
# Hz S  RI   R 50
500000000 -0.33107 -0.064413 -0.0094754 -0.00087056 -0.008774 0.013096 -0.0037618 0.011969
0.012798 0.0062664 -0.0040855 0.0081373
-0.0095971 -0.00083984 -0.41238 -0.073061 0.0086324 -0.010684 0.001559 0.012251
0.0085961 0.0029868 0.0018359 0.013918
-0.0087253 0.013031 0.0086603 -0.010693 -0.26552 0.19076 0.0067913 0.0035899
-0.0017869 0.0085144 0.00026499 0.012478
-0.0035405 0.011851 0.0018228 0.01262 0.0066406 0.003721 -0.32965 0.03715
-0.018388 -0.0041843 0.017683 0.02598
0.012963 0.0057096 0.0081097 0.0028979 -0.0019312 0.0085524 -0.018511 -0.0042221
-0.23712 -0.21374 -0.026639 0.0045676
-0.0036361 0.0074626 0.0017379 0.014386 -9.9437e-05 0.012353 0.017717 0.026031
-0.026567 0.0046145 -0.2639 -0.14162
560000000 -0.32016 0.10327 -0.021592 -0.067396 -0.00016827 0.01369 0.0051193 0.012351
0.01054 0.0045566 0.010813 0.008958
-0.021503 -0.067079 -0.37333 0.09102 -0.041449 -0.039761 0.014257 0.0032826
-0.012772 -0.005099 0.0047734 -0.00039758
-0.00013863 0.013583 -0.041403 -0.039256 -0.18681 0.24332 -0.00079794 -0.0043443
0.018462 0.0061275 0.0071689 -0.0058737
0.0047985 0.012666 0.014176 0.003603 -0.00097699 -0.0050322 -0.30677 0.12819
0.0056336 -0.02266 0.005837 -0.02241
0.010815 0.0050478 -0.012845 -0.0041681 0.019121 0.0066025 0.0056741 -0.02276
-0.30665 -0.032075 0.0102 -0.049566
0.010249 0.0093306 0.0038267 -0.00095448 0.0073042 -0.0059413 0.0058211 -0.022464
0.010165 -0.049524 -0.33187 0.011415
620000000 -0.27912 0.082922 -0.023533 0.0087211 0.0034568 0.0095519 0.0084267 -0.004412
0.011985 -0.0019423 6.1502e-05 -0.0015293
-0.02344 0.0086799 -0.4025 0.038472 -0.018593 0.00015663 -0.00168 -0.0020203
0.012237 -0.0059944 0.00099239 -0.0027752
0.0033342 0.0097509 -0.018724 0.00015555 -0.15768 0.25322 -0.00083513 -0.0056008
-0.003827 -0.0025297 0.010361 -0.003465
0.007976 -0.0045675 -0.0016265 -0.0020823 -0.00076414 -0.0053716 -0.26386 0.13872
-0.0394 -0.018534 0.015099 0.025981
0.012445 -0.0023128 0.012318 -0.0060174 -0.0036599 -0.0027915 -0.03942 -0.018505
-0.22511 -0.067954 -0.0439 0.013668
-0.00036782 -0.0019387 0.00099609 -0.0029332 0.010294 -0.0030284 0.015101 0.02598
-0.043927 0.013593 -0.2453 -0.028456
680000000 -0.24353 0.17597 -0.02654 -0.015307 0.004707 0.0056778 0.0015236 -0.0071911
-0.0014657 -0.011473 0.0059744 -0.0063429
-0.026391 -0.015267 -0.39135 0.1402 -0.032899 -0.0028417 -0.0017454 -0.00029648
-0.0013926 -0.0093375 -0.0014034 -0.0020787
0.0046522 0.0057427 -0.032969 -0.0027858 -0.10777 0.27532 -0.00076886 -0.00031478
-0.0014757 0.00036734 -0.0031523 -0.0095926
0.0014104 -0.0071854 -0.0016518 -0.00015244 -0.00076408 8.5777e-05 -0.22048 0.19236
-0.023395 -0.0081492 -0.0082476 -0.010279
-0.001679 -0.011204 -0.0015086 -0.0096021 -0.001534 0.00036347 -0.02347 -0.008139
-0.28095 0.037343 -0.0064418 -0.007836
0.0061424 -0.0068038 -0.0012903 -0.0020459 -0.0029033 -0.0094156 -0.008202 -0.010286
-0.0064104 -0.0079502 -0.26092 0.081547
740000000 -0.19622 0.16895 -0.040589 0.02665 0.014078 -0.0044373 6.4825e-06 -0.0039708
-0.0040845 -0.0034165 -0.0069723 0.0033775
-0.040572 0.026638 -0.33788 0.15945 -0.038316 0.034837 0.00012364 -0.0062528
-0.012656 0.0078946 -0.00081535 -0.0064787
0.013996 -0.0044556 -0.038126 0.034823 -0.07413 0.27333 -0.0018146 0.003123
-0.0020589 -0.0056175 -0.0016364 0.001137
-7.9736e-05 -0.0039623 0.00021367 -0.0063331 -0.0018708 0.0035588 -0.20523 0.20018
-0.043207 -0.010342 0.022888 0.016226
-0.0041483 -0.0033958 -0.01321 0.0078988 -0.0021964 -0.0060843 -0.043295 -0.010367
-0.18256 0.068713 -0.043709 -0.00072809
-0.0069287 0.0036762 -0.00059949 -0.0064459 -0.0017045 0.0013667 0.022859 0.016228
-0.043806 -0.00078411 -0.25208 0.086348
800000000 -0.16559 0.21484 -0.022784 0.015893 0.0059955 -0.010519 -0.0044466 -0.0025144
-0.0045476 0.0018726 0.0044576 0.00019999
-0.022714 0.015911 -0.34511 0.23082 -0.0095034 0.03445 -0.002124 0.0019801
-0.00088424 0.0025125 0.00084317 0.0052338
0.0060518 -0.010587 -0.0093555 0.034496 -0.035673 0.29895 0.00090997 0.0011726
8.7518e-05 0.0034353 -0.0019173 0.0007752
-0.0044246 -0.0026112 -0.0020046 0.001969 0.00088168 0.0011356 -0.17637 0.22737
-0.028546 0.01259 0.014293 -0.010428
-0.0044121 0.002043 -0.00084411 0.0023845 4.4416e-05 0.0034599 -0.028541 0.012582
-0.22765 0.093935 -0.017876 0.020261
0.0045497 9.6522e-05 0.0010019 0.0053216 -0.0018888 0.00068936 0.014255 -0.010447
-0.017826 0.020304 -0.24777 0.13587
860000000 -0.1323 0.23551 -0.018893 0.030644 -0.0030336 -0.010293 -0.0021235 0.00054402
0.0041122 0.0057578 -0.0040007 -0.0032755
-0.018954 0.030597 -0.29845 0.27539 0.0067129 0.035262 0.00012701 0.0022762
0.0033864 0.0010732 0.0032955 0.00012085
-0.0030496 -0.010345 0.0068507 0.035301 0.011627 0.30857 -0.00060327 -0.00020717
0.0020912 -0.001172 0.0016603 0.0045738
-0.0020248 0.00057517 0.00019142 0.0024221 -0.00059984 -0.00021264 -0.14018 0.23863
-0.018852 0.01806 -0.0065019 -0.0092644
0.0039772 0.0056787 0.0033542 0.00078683 0.0020976 -0.0013031 -0.018777 0.018111
-0.17162 0.14904 -0.02677 0.016946
-0.003979 -0.003166 0.0031091 0.00033854 0.0015776 0.0045339 -0.0064886 -0.0092964
-0.026825 0.017033 -0.19626 0.18402
920000000 -0.10934 0.25907 0.0041392 0.03917 -0.0095125 -0.0052622 -0.0021835 0.0016527
0.00080235 0.0018608 0.0026491 -0.0012962
0.0040349 0.039217 -0.2709 0.2977 0.028135 0.023731 0.0013392 0.0011167
0.0078931 0.0001606 0.0044303 -0.0027911
-0.0095547 -0.0052213 0.02828 0.023726 0.05758 0.31086 0.0017411 3.0713e-05
0.0010194 -7.818e-05 0.00089316 -0.0015859
-0.0021655 0.0015414 0.0013963 0.0010701 0.0017635 3.7445e-05 -0.1163 0.25638
-0.012191 0.031104 0.0038554 -0.0066599
0.00093022 0.0020016 0.0077834 0.00029765 0.00095528 -9.9475e-05 -0.012165 0.031118
-0.16125 0.15462 -0.0013849 0.027451
0.0027463 -0.0014777 0.0047477 -0.0028977 0.00091587 -0.0014765 0.0038525 -0.0066247
-0.0012887 0.027385 -0.20581 0.19626
980000000 -0.063036 0.28072 0.016257 0.031 -0.0098193 0.0043497 0.0017752 0.0038152
0.0040617 -0.0014073 -0.0032669 -0.0026812
0.016226 0.031037 -0.21854 0.33367 0.033716 0.0060943 0.0020451 -0.00017785
0.0016887 -0.0062831 -0.00030519 -0.0029893
-0.0097777 0.004378 0.033803 0.0059803 0.10371 0.30542 0.00078357 -0.0012078
0.00060637 -0.0018855 0.0014854 -0.00039272
0.0018355 0.0037432 0.0019414 -0.00015119 0.00078039 -0.0011818 -0.078023 0.2678
0.0067685 0.030352 -0.0095483 -0.0072582
0.0039765 -0.0014208 0.0015583 -0.0062706 0.0006211 -0.0018363 0.0068409 0.030373
-0.12924 0.18639 0.0050956 0.020191
-0.0031607 -0.0026204 -0.00026118 -0.0030332 0.0015113 -0.00048902 -0.0095186 -0.0072685
0.0051131 0.020205 -0.16359 0.24368
1040000000 -0.022413 0.29058 0.033228 0.020202 -0.0015886 0.0074343 0.0026986 0.00074008
0.00056239 -0.0033422 3.7438e-05 -0.0020335
0.033187 0.020233 -0.18386 0.34821 0.030721 -0.014313 0.0016287 -0.0017183
-0.0022755 -0.002737 -0.0012117 -0.003205
-0.0015572 0.0074282 0.030725 -0.014411 0.14977 0.29338 -0.00048662 -0.0016463
-0.0015546 -0.0010422 -0.00054492 -0.0011144
0.002721 0.00074702 0.0015866 -0.0017726 -0.0004982 -0.001604 -0.051254 0.278
0.019371 0.019546 -0.0027208 0.00081241
0.00045734 -0.0034256 -0.0023592 -0.0025619 -0.0015589 -0.0010449 0.019388 0.019515
-0.096805 0.19417 0.01418 0.019037
2.1798e-05 -0.0018815 -0.0011192 -0.0031744 -0.00050253 -0.0010806 -0.0027411 0.00085118
0.014206 0.019011 -0.14325 0.2641
1100000000 0.022697 0.30081 0.037359 -0.0024549 0.0031732 0.0044843 0.0024728 -0.001126
-0.0023606 -0.00302 -0.0042343 -5.9809e-05
0.037299 -0.0024116 -0.14014 0.36787 0.016549 -0.02821 2.6517e-06 -0.0018576
-0.0037317 -0.00070418 -0.003706 -0.00036739
0.0032011 0.0044509 0.016449 -0.028315 0.19659 0.27434 -0.002024 0.00017096
-0.001838 0.00049607 -0.0011571 -0.00055975
0.0024529 -0.0010811 2.246e-05 -0.0018314 -0.002044 0.00018335 -0.010772 0.28392
0.025127 0.00598 -0.0026385 0.00023126
-0.0023251 -0.003066 -0.0037179 -0.00070131 -0.0018666 0.00048972 0.025121 0.0059459
-0.077216 0.20861 0.019519 0.0097149
-0.0043125 -0.00012434 -0.003681 -0.00034212 -0.0012007 -0.00052422 -0.0026365 0.00023929
0.019558 0.0097737 -0.096539 0.2959
1160000000 0.073426 0.29767 0.025728 -0.020261 0.0033461 -0.00039826 -0.00024423 -0.0025266
-0.0040916 -0.0010215 -0.0011705 0.0040731
0.025726 -0.020255 -0.09674 0.37315 -0.0031265 -0.029889 -0.0015079 -0.0017418
-0.0026883 0.0024617 -0.0015873 0.0018004
0.0033588 -0.00042464 -0.0032257 -0.029893 0.23994 0.24437 -0.00076964 0.0017817
-0.00061586 0.0019597 -0.0011678 0.00035958
-0.00025621 -0.0025761 -0.0015316 -0.0017121 -0.00081273 0.0018093 0.028357 0.28146
0.021884 -0.010224 -0.0035254 0.0053745
-0.004127 -0.0009944 -0.0026825 0.0024962 -0.00058246 0.001964 0.021895 -0.010263
-0.04307 0.21735 0.019333 0.00015746
-0.0011933 0.0041367 -0.0017129 0.0018461 -0.0011849 0.00037644 -0.003541 0.0053751
0.019354 0.00016979 -0.049591 0.2994
1220000000 0.11737 0.28928 0.012321 -0.030603 -0.0011944 -0.0013052 1.852e-06 -0.00088577
-0.0028487 0.0022809 0.0011192 0.0022187
0.012345 -0.030571 -0.052014 0.38763 -0.017101 -0.022183 -0.002666 0.00056542
5.1055e-06 0.0031057 -0.00080895 0.0020854
-0.0011993 -0.0013273 -0.017224 -0.022143 0.27954 0.20631 0.00074984 0.0017801
0.00049766 0.0012345 0.00023178 0.00073622
2.1826e-05 -0.00088142 -0.0026547 0.0005804 0.00075505 0.0017819 0.068807 0.2741
0.011145 -0.017179 0.0023202 0.0015634
-0.0028373 0.0022748 3.7259e-05 0.0030904 0.00048633 0.0012341 0.011134 -0.017181
-0.01975 0.2284 0.014882 -0.013012
0.0010886 0.0021947 -0.00080255 0.002011 0.00025069 0.00072148 0.0023393 0.0015633
0.01486 -0.013 -0.019131 0.31674
1280000000 0.16827 0.26956 -0.0069439 -0.029842 -0.0019831 0.0020099 -0.00092256 -0.0021081
-0.000885 0.0033841 0.002743 0.0013518
-0.006907 -0.029827 -0.0050933 0.37955 -0.024579 -0.0088037 -0.00090179 0.0014363
0.0017138 0.0017382 0.00072871 0.002167
-0.0019888 0.0020316 -0.024653 -0.0087079 0.31058 0.16272 0.0016398 -3.5695e-05
0.0011242 0.00026979 0.00036985 0.00040259
-0.0009426 -0.0020907 -0.00091298 0.0014787 0.0016307 -1.882e-05 0.10595 0.25784
0.001237 -0.019622 5.9415e-05 0.00032111
-0.00078153 0.0034012 0.0017573 0.0017406 0.0011323 0.00024707 0.0012153 -0.019626
0.017207 0.23254 0.0036764 -0.015586
0.0027316 0.0012574 0.00067668 0.0021264 0.00034749 0.00042297 3.7484e-05 0.00031399
0.0036943 -0.015615 0.029035 0.31989
1340000000 0.20583 0.23793 -0.017387 -0.020344 0.00050122 0.0044758 -0.0018605 -0.00082173
0.0014326 0.0027984 0.0018347 -0.0013795
-0.017362 -0.020331 0.034526 0.37235 -0.021987 0.0044044 -6.8986e-05 0.0019953
0.001976 0.00075411 0.001233 0.00076868
0.00049245 0.0044429 -0.021991 0.004554 0.33267 0.11593 0.00095041 -0.00099769
0.00062571 -0.00059749 6.5564e-05 0.00025066
-0.0018405 -0.00081673 -6.7052e-05 0.0019914 0.000909 -0.00097467 0.13919 0.23794
-0.0085554 -0.016858 0.0010457 0.00032581
0.0014477 0.0027896 0.0019648 0.0007062 0.00063285 -0.00054374 -0.0085819 -0.016841
0.047251 0.22915 -0.003607 -0.014327
0.0019303 -0.0013817 0.0012214 0.00078465 5.6989e-05 0.00023039 0.0010463 0.00034403
-0.0035984 -0.014331 0.067204 0.31596
1400000000 0.24106 0.20129 -0.024044 -0.0085457 0.0050832 0.003356 -0.0022688 0.00069327
0.0026977 0.0010554 0.00033288 -0.0017746
-0.024033 -0.008543 0.073217 0.35989 -0.014987 0.012869 0.0013036 0.0012332
0.0013058 -0.00079185 0.0011941 0.00012492
0.0050856 0.003325 -0.014953 0.012948 0.3465 0.063012 -8.3983e-06 -0.0015282
0.00020536 -0.00041068 0.00023034 0.00030917
-0.0022371 0.00070853 0.001325 0.0012578 5.05e-06 -0.0015551 0.16921 0.20924
-0.014917 -0.0098011 -0.00079899 -0.00024979
0.0026947 0.0010523 0.0012667 -0.00081757 0.00020686 -0.00036702 -0.014925 -0.0097858
0.081309 0.22583 -0.01025 -0.0093361
0.00036082 -0.0017628 0.0011687 0.00012675 0.00037014 0.00025904 -0.00081188 -0.00026441
-0.010228 -0.0093263 0.11263 0.30634
1460000000 0.26443 0.15811 -0.02117 0.0043676 0.0056151 -0.0016871 -0.0015363 0.0017665
0.0022609 -0.00045284 -0.00017783 -0.0010092
-0.021184 0.0043671 0.10747 0.33789 -0.0056522 0.015814 0.0016665 0.00022474
0.00093148 -0.0012423 0.0012877 -0.00055844
0.0056165 -0.0016491 -0.0055718 0.015889 0.35308 0.0091877 -0.001168 -0.0011639
0.00025951 -0.00015319 0.0008418 -0.00028168
-0.0014906 0.0017638 0.0016583 0.00022549 -0.0011604 -0.0011608 0.19576 0.18028
-0.015906 -0.0027591 -0.0009077 0.0020017
0.0022541 -0.00051108 0.00094198 -0.0012505 0.00019865 -0.00015396 -0.015906 -0.0027335
0.11106 0.21221 -0.012345 -0.0030118
-0.0001307 -0.0009993 0.0012777 -0.00063474 0.00081296 -0.00017941 -0.00089704 0.0020085
-0.012378 -0.003053 0.14569 0.28575
1520000000 0.27821 0.11727 -0.015552 0.010241 0.0034079 -0.0042077 0.00016754 0.0026377
0.0022407 -0.0019904 -0.0012456 -9.9015e-05
-0.01556 0.010233 0.14127 0.32413 0.0022784 0.013026 0.0016509 -0.00068072
8.9913e-05 -0.0010313 0.00034875 -0.0010864
0.0033973 -0.0042521 0.002332 0.013043 0.3469 -0.045953 -0.00087614 -0.00035607
0.00070134 -0.0010044 0.00011861 -0.00022132
0.00019532 0.0026271 0.0016652 -0.00069396 -0.00088941 -0.00037243 0.21962 0.14248
-0.014934 0.0032027 0.001611 0.002034
0.0022167 -0.0019931 7.6885e-05 -0.0010121 0.00069369 -0.0010063 -0.014936 0.0032464
0.13977 0.19995 -0.012172 0.0017408
-0.0012573 -8.8486e-05 0.00039167 -0.0010667 0.0001585 -0.00024196 0.0016177 0.0020411
-0.012139 0.0017474 0.17925 0.26708
1580000000 0.28894 0.071404 -0.0086046 0.013857 -0.0010284 -0.0049741 0.0014955 0.0018311
-0.00026608 -0.0023059 -0.00014546 0.00037877
-0.0086289 0.013857 0.16882 0.29932 0.0058082 0.0076854 0.00063211 -0.001548
-0.00044501 -0.001078 -0.00016366 -0.00086542
-0.0010603 -0.0049713 0.0058495 0.0076548 0.32782 -0.10392 -0.0015198 0.00038991
-0.00049398 -0.0013482 0.00032038 -0.00060412
0.0014846 0.0018233 0.00060992 -0.0015453 -0.0015128 0.00038084 0.2339 0.10299
-0.011092 0.0080284 0.0021556 0.00077731
-0.00031458 -0.002317 -0.00045648 -0.0010872 -0.00038416 -0.0013484 -0.011081 0.0080298
0.16455 0.18245 -0.0095582 0.0077565
-0.00015266 0.00036655 -0.00024923 -0.0008806 0.00033493 -0.00073418 0.002162 0.0007808
-0.0095743 0.0077278 0.21192 0.24046
1640000000 0.29178 0.03074 -0.0014565 0.012653 -0.003007 -0.0025572 0.0027704 0.0010532
-0.0007503 -0.0016443 -0.00044794 0.00059517
-0.0014628 0.012647 0.19803 0.27546 0.0059761 0.0026004 -0.0005344 -0.001858
-0.00093707 -0.0005016 -0.00054834 -0.00069129
-0.003002 -0.0025618 0.0060106 0.002562 0.29954 -0.15246 -0.0008304 0.0012586
-0.0011452 -0.00108 -0.00023644 -0.0005401
0.0027776 0.0010324 -0.00055218 -0.0018501 -0.00084272 0.0012591 0.24661 0.054477
-0.0065305 0.0089344 0.0025637 -0.0008379
-0.00079738 -0.0016461 -0.00094771 -0.00050462 -0.0011577 -0.0010331 -0.0065268 0.0089677
0.18779 0.15965 -0.0044918 0.0097509
-0.00042271 0.00061238 -0.00054432 -0.00066172 -0.00025742 -0.00046535 0.0025629 -0.0008506
-0.004531 0.0097564 0.23804 0.21085
1700000000 0.28644 -0.014341 0.0021117 0.0097546 -0.0036586 0.00031312 0.0031877 -0.0012136
-0.0021121 -0.00052242 0.00049707 0.00042629
0.0021024 0.0097375 0.21683 0.24452 0.0033924 -0.00034507 -0.001428 -0.00067958
-0.00079996 -0.0001206 -0.000931 -0.00047299
-0.0036612 0.00033128 0.0033684 -0.00037029 0.25737 -0.19251 0.0001888 0.0016593
-0.0020181 -0.00013363 -0.00047723 -0.00084366
0.0031714 -0.0012084 -0.0014526 -0.00068203 0.00015164 0.0016308 0.24421 0.0046213
-0.0037948 0.0090653 0.0015578 -0.0022516
-0.002078 -0.00053904 -0.000817 -0.00012165 -0.0020713 -0.00011277 -0.003765 0.009049
0.20645 0.14017 0.00030531 0.009946
0.00048392 0.00034598 -0.00092425 -0.00043813 -0.00046666 -0.00085572 0.0015748 -0.0022611
0.00035209 0.0099158 0.25593 0.17698
1760000000 0.27516 -0.062991 0.0044785 0.006288 -0.0021406 0.0012268 0.0013683 -0.003454
-0.0012854 0.00072115 0.00035819 -0.0006171
0.0044621 0.0062746 0.24287 0.20545 0.00079617 -0.0018362 -0.0013166 8.9556e-05
-0.0011805 0.00093578 -0.00054418 0.0004548
-0.0021761 0.0011932 0.00075787 -0.0018675 0.20946 -0.22576 0.0010619 0.0012747
-0.0012423 0.0015677 -0.001295 -0.00044231
0.00135 -0.0034476 -0.0013256 9.0189e-05 0.0011293 0.0012581 0.23542 -0.047059
-0.00084732 0.0079267 -0.00033275 -0.0023453
-0.001321 0.00072665 -0.0011721 0.00091803 -0.0011964 0.001522 -0.00085312 0.0079642
0.22151 0.10629 0.0042908 0.0072745
0.00032976 -0.0006313 -0.00053469 0.00044497 -0.0013026 -0.00040625 -0.00036573 -0.0023615
0.0042351 0.0073243 0.26924 0.13952
1820000000 0.25242 -0.10009 0.0045295 0.0027348 2.7271e-06 0.0026612 -0.00088508 -0.0032102
-0.0010518 0.00090167 -6.5061e-06 -6.7359e-05
0.0045353 0.0027344 0.25394 0.17646 -0.0016317 -0.00011402 -0.0014178 0.00096481
-0.00010319 0.0012511 -0.00060002 0.00055694
-1.5717e-05 0.0026305 -0.0016439 -0.00012084 0.15903 -0.24129 0.0017384 0.00052379
-0.00021275 0.0023992 -0.0016395 0.00045463
-0.00092111 -0.0032107 -0.0014088 0.00097294 0.001682 0.00047978 0.20629 -0.094297
0.00035019 0.0066148 -0.0017654 -0.0017473
-0.0010594 0.00094023 -0.00010764 0.0012741 -0.00023713 0.0024228 0.00038706 0.0066032
0.23986 0.078697 0.0052216 0.0034867
-6.1387e-05 -0.0001292 -0.00057793 0.00055466 -0.0016253 0.00039041 -0.0017558 -0.0017358
0.0053028 0.0034399 0.27278 0.10405
1880000000 0.21841 -0.14151 0.0022716 0.00049289 -0.00044869 0.0022934 -0.0029474 -0.0022599
-0.00012856 0.0017307 0.00013432 -0.00075753
0.0022521 0.00048571 0.25904 0.13008 -0.0034885 0.0022271 -0.0002625 0.001863
0.0006144 0.0014637 0.00018879 0.00093728
-0.00043634 0.0022743 -0.0034624 0.0022337 0.10737 -0.25095 0.002039 -0.0011267
0.0017446 0.0020196 -0.00094782 0.0016242
-0.0029345 -0.0022233 -0.00022866 0.0018498 0.0021288 -0.0010816 0.16601 -0.13536
0.0010119 0.0046129 -0.0023456 0.00022644
-0.00020981 0.0017169 0.00061758 0.0014415 0.0017573 0.0019598 0.0010082 0.0046069
0.24483 0.047529 0.005522 0.0011163
0.00020618 -0.00075626 0.00021733 0.00097776 -0.00093245 0.0016246 -0.0023548 0.00022762
0.0054766 0.0011412 0.27337 0.069593
1940000000 0.1793 -0.16773 0.00010756 -0.0011795 0.0017123 0.0020965 -0.0039096 0.00030299
0.0012067 0.0009558 -0.00060263 -0.00042891
9.784e-05 -0.0011776 0.26056 0.099163 -0.001872 0.0050506 0.0010504 0.0013611
0.0019762 0.00053207 0.00094684 0.00025329
0.0017242 0.0021008 -0.0018136 0.0051341 0.062042 -0.24385 0.00046354 -0.0025308
0.0024534 0.00038871 0.0003114 0.0016495
-0.0038567 0.00040994 0.0010929 0.0013145 0.00044541 -0.0025849 0.11346 -0.16584
-6.9176e-05 0.0036368 -0.0014775 0.0016694
0.0011954 0.0010011 0.0019901 0.0005463 0.002426 0.00034176 -7.3888e-05 0.0036868
0.24849 0.010519 0.0039653 -0.0024212
-0.00070635 -0.00047742 0.00096605 0.00026443 0.0003669 0.0016776 -0.0014852 0.0016463
0.0039854 -0.00244 0.26256 0.033705
2000000000 0.13428 -0.18364 -0.003535 0.0008304 0.0029841 0.0013783 -0.0023996 0.0036632
0.0011461 0.00039794 -0.00064247 0.00058794
-0.0035292 0.00084162 0.24774 0.063692 -0.00091811 0.0072013 0.0017049 0.00037782
0.0013566 -0.0012737 0.00040852 1.2919e-06
0.0028834 0.0013691 -0.00090716 0.0071834 0.01928 -0.22978 -0.001477 -0.0017592
0.0021177 -0.0011685 0.0015442 0.001384
-0.0024312 0.0037272 0.001736 0.00038969 -0.0014592 -0.0015959 0.06049 -0.1767
-0.0013861 0.0036716 -0.00020375 0.0024042
0.0011022 0.00036266 0.001334 -0.0012749 0.0020481 -0.0011915 -0.0014106 0.0036135
0.2452 -0.022506 0.00075187 -0.0032581
