!Keysight Technologies,M9804A,MY58100912,A.14.10.03
!Date: Thursday, April 27, 2023 10:28:33
!Correction: S11(C  6-Port  ) 
!S12(C  6-Port  ) 
!S13(C  6-Port  ) 
!S14(C  6-Port  ) 
!S15(C  6-Port  ) 
!S16(C  6-Port  ) 
!S21(C  6-Port  ) 
!S22(C  6-Port  ) 
!S23(C  6-Port  ) 
!S24(C  6-Port  ) 
!S25(C  6-Port  ) 
!S26(C  6-Port  ) 
!S31(C  6-Port  ) 
!S32(C  6-Port  ) 
!S33(C  6-Port  ) 
!S34(C  6-Port  ) 
!S35(C  6-Port  ) 
!S36(C  6-Port  ) 
!S41(C  6-Port  ) 
!S42(C  6-Port  ) 
!S43(C  6-Port  ) 
!S44(C  6-Port  ) 
!S45(C  6-Port  ) 
!S46(C  6-Port  ) 
!S51(C  6-Port  ) 
!S52(C  6-Port  ) 
!S53(C  6-Port  ) 
!S54(C  6-Port  ) 
!S55(C  6-Port  ) 
!S56(C  6-Port  ) 
!S61(C  6-Port  ) 
!S62(C  6-Port  ) 
!S63(C  6-Port  ) 
!S64(C  6-Port  ) 
!S65(C  6-Port  ) 
!S66(C  6-Port  ) 
!S6P File: Measurement: :
# Hz S  RI   R 50
500000000 -0.33092 -0.064775 -0.0096964 -0.00097593 -0.0086525 0.013002 -0.0035567 0.011946
0.012485 0.0059623 -0.0038197 0.0075174
-0.0097283 -0.001051 -0.41203 -0.073176 0.0087806 -0.010604 0.0019577 0.01245
0.0082131 0.002757 0.0022412 0.014337
-0.0087548 0.012994 0.0087904 -0.010607 -0.26572 0.19057 0.0069855 0.0036268
-0.0019455 0.0085977 0.00032379 0.012386
-0.0036299 0.011945 0.0020097 0.012487 0.0069651 0.0036578 -0.32899 0.036263
-0.018967 -0.0037362 0.019174 0.025048
0.012582 0.0058217 0.0082135 0.0027565 -0.0019237 0.0085293 -0.018931 -0.0037342
-0.23651 -0.21492 -0.026927 0.0053788
-0.0039744 0.0075242 0.0022624 0.014221 0.00032634 0.012362 0.01904 0.024966
-0.026961 0.0054777 -0.26138 -0.14269
560000000 -0.32 0.10298 -0.021275 -0.067297 -5.3568e-05 0.013586 0.0048782 0.012459
0.010439 0.0051496 0.010546 0.0089399
-0.021333 -0.067199 -0.37328 0.090904 -0.041308 -0.039287 0.014578 0.0034133
-0.013035 -0.0045473 0.0044093 -0.0008658
3.1696e-05 0.013639 -0.041491 -0.039287 -0.18717 0.24304 -0.00090193 -0.0048813
0.017889 0.0060671 0.0077798 -0.0057722
0.0048988 0.012538 0.014499 0.0033596 -0.00081547 -0.004876 -0.30604 0.1287
0.0059501 -0.023445 0.0056607 -0.021676
0.010362 0.0051489 -0.01312 -0.0045565 0.017797 0.005964 0.0058298 -0.023535
-0.30749 -0.030947 0.010386 -0.05039
0.010373 0.0088588 0.0044409 -0.00090331 0.0077915 -0.0058351 0.0057655 -0.021647
0.010538 -0.050358 -0.33175 0.011451
620000000 -0.27905 0.082889 -0.023428 0.0087382 0.0034358 0.009783 0.0081909 -0.0045014
0.01223 -0.0024584 8.257e-05 -0.0015507
-0.023465 0.008719 -0.40246 0.038269 -0.018606 0.00014991 -0.001562 -0.0020398
0.012201 -0.0061592 0.0012067 -0.0029614
0.0034406 0.0097935 -0.018629 0.00020275 -0.15782 0.25305 -0.00052572 -0.0054204
-0.0040845 -0.0026301 0.010543 -0.0031651
0.0083358 -0.0045324 -0.0015888 -0.0021025 -0.00046553 -0.0054671 -0.26418 0.13996
-0.039432 -0.019762 0.014432 0.027718
0.012131 -0.002553 0.012224 -0.0062098 -0.0041776 -0.0025931 -0.039523 -0.019605
-0.22526 -0.067258 -0.043919 0.012333
0.00017279 -0.0017418 0.0011565 -0.0030936 0.010556 -0.0031899 0.014385 0.027787
-0.043846 0.012299 -0.24676 -0.027309
680000000 -0.2436 0.17579 -0.026485 -0.015268 0.0046444 0.005673 0.0015765 -0.0072387
-0.0015358 -0.011381 0.0062963 -0.0067152
-0.026503 -0.015288 -0.39138 0.13986 -0.032931 -0.0028799 -0.0016211 -0.00014232
-0.0014487 -0.0096615 -0.0015076 -0.0020158
0.0046582 0.0056786 -0.032982 -0.0027976 -0.10788 0.27521 -0.00061741 -0.00022957
-0.0015433 0.00041572 -0.0029884 -0.0096158
0.001571 -0.0072463 -0.0016676 -0.00011996 -0.00062981 -0.0002194 -0.22142 0.19203
-0.023087 -0.0077308 -0.0091597 -0.010403
-0.0015419 -0.011355 -0.0014733 -0.009684 -0.0015322 0.00044148 -0.023124 -0.007705
-0.28155 0.036754 -0.0064608 -0.0078294
0.0062755 -0.0067074 -0.0014663 -0.0019984 -0.0029717 -0.0095907 -0.0090805 -0.010452
-0.0064391 -0.0077687 -0.26165 0.079751
740000000 -0.19615 0.16862 -0.040695 0.02666 0.014012 -0.0043512 9.3907e-05 -0.0040529
-0.0039296 -0.0034528 -0.0069855 0.0036847
-0.040731 0.02662 -0.338 0.15925 -0.038224 0.034634 0.00011176 -0.0061932
-0.013188 0.00757 -0.00084574 -0.0065638
0.01405 -0.0044371 -0.038195 0.034801 -0.074237 0.27322 -0.0018059 0.003415
-0.0021806 -0.0059647 -0.0015796 0.0011616
0.00010061 -0.0040703 0.00010335 -0.006212 -0.0017847 0.0033935 -0.20512 0.19988
-0.043383 -0.0096037 0.022855 0.016277
-0.0038587 -0.0034357 -0.013139 0.0076519 -0.0021708 -0.0059654 -0.043375 -0.0095791
-0.18207 0.06678 -0.044353 -0.00030398
-0.0069911 0.0037477 -0.0008727 -0.006475 -0.0015775 0.0011334 0.022817 0.016305
-0.044298 -0.00024479 -0.25238 0.085226
800000000 -0.16582 0.21442 -0.022863 0.015878 0.0059711 -0.010574 -0.0044398 -0.0026282
-0.0045762 0.001874 0.0044154 0.00012326
-0.022857 0.015855 -0.34522 0.23067 -0.0095246 0.034422 -0.0020235 0.0019737
-0.0007991 0.0024071 0.00089229 0.0054124
0.0059574 -0.010599 -0.0094343 0.034498 -0.035774 0.29885 0.00094006 0.0011807
-4.7327e-05 0.0033942 -0.0019 0.00083282
-0.0044498 -0.0025923 -0.0019902 0.0020091 0.00093842 0.0011892 -0.17628 0.22686
-0.028797 0.01268 0.014794 -0.01074
-0.0045876 0.0018501 -0.00079874 0.0023781 -4.3098e-05 0.003403 -0.028785 0.01273
-0.22727 0.092832 -0.017853 0.020243
0.0044647 0.00010777 0.00092265 0.0054738 -0.0018859 0.00081471 0.014852 -0.010805
-0.01793 0.020213 -0.24728 0.13607
860000000 -0.13252 0.23531 -0.018945 0.030571 -0.0030152 -0.010375 -0.0019487 0.00069111
0.0040707 0.0056007 -0.0043234 -0.0031372
-0.018953 0.030523 -0.2987 0.27513 0.0066885 0.035275 0.00024755 0.0024696
0.0033497 0.00066739 0.0028414 0.00040255
-0.0030388 -0.010362 0.0067947 0.03529 0.011459 0.30847 -0.00057028 -0.00023208
0.0020752 -0.0014262 0.0014841 0.004529
-0.0019585 0.00068493 0.00024047 0.0024709 -0.00058077 -0.00023486 -0.13991 0.23857
-0.01903 0.0179 -0.0064832 -0.0088835
0.0040481 0.0056326 0.0033768 0.00064342 0.0020923 -0.0014409 -0.018987 0.017932
-0.17163 0.1482 -0.026999 0.016666
-0.0042862 -0.0031315 0.0027882 0.00035366 0.0014805 0.0045628 -0.0064453 -0.0089445
-0.026996 0.016584 -0.19783 0.18299
920000000 -0.10942 0.25899 0.0041256 0.03922 -0.0094901 -0.0052865 -0.001964 0.0016183
0.0008395 0.002119 0.0029877 -0.0011502
0.0040827 0.039196 -0.27101 0.29754 0.028187 0.023801 0.0013853 0.0010972
0.0078258 0.0002505 0.004669 -0.0028691
-0.0095044 -0.0052626 0.028289 0.023729 0.05739 0.31082 0.0018081 3.1723e-05
0.00093306 3.9331e-06 0.0010437 -0.001468
-0.0019493 0.0016144 0.0013944 0.0010659 0.001809 3.4363e-05 -0.11639 0.25606
-0.012033 0.030948 0.0039855 -0.006783
0.00084279 0.0021303 0.0078582 0.00021378 0.0009293 -1.5263e-06 -0.011999 0.030967
-0.16169 0.1545 -0.00082044 0.027288
0.0030304 -0.0012186 0.0047053 -0.0029289 0.0010297 -0.0014683 0.004056 -0.0067952
-0.00086875 0.027265 -0.20593 0.1957
980000000 -0.063352 0.28065 0.016243 0.031003 -0.0097722 0.0043321 0.0016993 0.0038645
0.0040681 -0.0014595 -0.0033755 -0.0027813
0.016227 0.03094 -0.21871 0.33353 0.033746 0.0061513 0.0019921 -0.00021406
0.0016497 -0.0062129 -0.00020936 -0.0028912
-0.0097692 0.0043743 0.033802 0.0060345 0.10354 0.30537 0.00076937 -0.0011681
0.00062924 -0.0018603 0.0015149 -0.0003653
0.0017102 0.0038723 0.002009 -0.00023064 0.00077329 -0.0011625 -0.078161 0.26778
0.006784 0.030514 -0.0096258 -0.0075507
0.0040261 -0.0014638 0.001615 -0.0062432 0.00061996 -0.0018614 0.0068247 0.030508
-0.13008 0.18604 0.0050255 0.020534
-0.0033547 -0.0027837 -0.00022604 -0.0029117 0.0015151 -0.00037165 -0.0096477 -0.0075183
0.0050073 0.020529 -0.16455 0.24291
1040000000 -0.022882 0.29051 0.033207 0.02025 -0.0015654 0.0074273 0.0027442 0.00068137
0.00035999 -0.0032721 0.00026245 -0.0018137
0.033169 0.020242 -0.18408 0.34806 0.030781 -0.014238 0.0016315 -0.0017672
-0.0024062 -0.0025572 -0.0011169 -0.0031398
-0.0015328 0.007444 0.030754 -0.014386 0.14957 0.29338 -0.00048836 -0.0016325
-0.0015992 -0.0010104 -0.0005588 -0.0011286
0.0027412 0.00067001 0.0016145 -0.0017852 -0.00048608 -0.0016273 -0.051277 0.27794
0.019187 0.019619 -0.0026612 0.0010494
0.00033522 -0.0032729 -0.0024351 -0.0025051 -0.0016109 -0.0010077 0.0192 0.019613
-0.097416 0.19408 0.014133 0.019619
0.00026927 -0.0018288 -0.0011472 -0.0031143 -0.00055626 -0.0011122 -0.0026471 0.0010212
0.014129 0.019602 -0.14341 0.26401
1100000000 0.022491 0.30073 0.037351 -0.0024201 0.0031808 0.004477 0.0024864 -0.0011043
-0.0023469 -0.0030477 -0.0042854 -0.00018428
0.037315 -0.0024056 -0.14031 0.36768 0.016572 -0.028216 5.0219e-05 -0.0018263
-0.0037228 -0.0007204 -0.0036657 -0.00038389
0.0031979 0.0044734 0.016476 -0.028319 0.19642 0.27435 -0.0020443 0.00019496
-0.0018447 0.00047987 -0.0011788 -0.0005624
0.0025012 -0.0011139 2.9749e-05 -0.0018421 -0.0020501 0.00018836 -0.010878 0.28383
0.02512 0.0060261 -0.0026035 6.8403e-05
-0.0023618 -0.0030145 -0.0037326 -0.00069849 -0.0018492 0.00047543 0.025147 0.0059899
-0.077555 0.20848 0.01959 0.009736
-0.0042633 -0.00015412 -0.0036715 -0.00036826 -0.0011767 -0.000577 -0.0026243 8.5784e-05
0.019601 0.0097501 -0.096773 0.29561
1160000000 0.073133 0.2978 0.025765 -0.02023 0.0033518 -0.00045844 -0.00022099 -0.0024943
-0.0042103 -0.0010307 -0.0012314 0.0042349
0.025768 -0.02022 -0.097013 0.37301 -0.0030516 -0.029858 -0.0015245 -0.0016944
-0.0026527 0.0024866 -0.001621 0.0017894
0.0033562 -0.00045532 -0.003197 -0.029893 0.23977 0.24446 -0.00078648 0.0017883
-0.00055015 0.0019324 -0.0011474 0.00032797
-0.00023118 -0.0024953 -0.0015594 -0.0017199 -0.00077541 0.001785 0.028221 0.28155
0.021911 -0.010154 -0.0037199 0.0052172
-0.0041771 -0.001029 -0.0026671 0.0025245 -0.0005496 0.001926 0.021914 -0.010194
-0.04338 0.21743 0.019308 -5.4494e-06
-0.0012162 0.0042687 -0.0016231 0.0017944 -0.0011511 0.00033114 -0.0037263 0.0052218
0.019286 2.505e-05 -0.050198 0.29952
1220000000 0.11709 0.28934 0.01235 -0.030588 -0.0011899 -0.0013455 -3.0054e-05 -0.0008729
-0.0028294 0.0022175 0.0010679 0.0020983
0.012361 -0.030569 -0.05222 0.38762 -0.017074 -0.02221 -0.0026762 0.000546
3.872e-05 0.003085 -0.00077526 0.0019993
-0.001204 -0.0013334 -0.017189 -0.022167 0.27939 0.20641 0.00075734 0.0017894
0.00042518 0.0011891 0.00019214 0.00079804
-3.759e-05 -0.00086313 -0.0026811 0.00054714 0.00075244 0.0017948 0.068666 0.27403
0.011229 -0.017078 0.0025024 0.0014284
-0.0028127 0.0022575 5.4505e-05 0.0030903 0.00043647 0.001186 0.011223 -0.017087
-0.020236 0.22851 0.015067 -0.012795
0.0010709 0.0020909 -0.00078035 0.0019922 0.00019521 0.00079248 0.0024823 0.0014084
0.015074 -0.012785 -0.01921 0.31658
1280000000 0.16794 0.26965 -0.0068794 -0.029843 -0.0020015 0.0019724 -0.00092097 -0.0020544
-0.00080844 0.0034268 0.0026857 0.001356
-0.0068779 -0.02983 -0.0053432 0.37943 -0.024582 -0.0088366 -0.00086686 0.0014739
0.0017703 0.0017489 0.00068483 0.002118
-0.0020036 0.0019792 -0.024663 -0.0087341 0.31046 0.16285 0.0016618 -4.7233e-05
0.001185 0.00024306 0.00040947 0.00036497
-0.00092537 -0.0020555 -0.0008672 0.0014894 0.0016698 -3.5126e-05 0.10582 0.25778
0.0012283 -0.019501 0.00014066 0.00026684
-0.0008102 0.0034075 0.0017853 0.0017366 0.0011955 0.00023927 0.0011956 -0.019508
0.016917 0.23235 0.0035378 -0.015763
0.0026976 0.0013662 0.00069271 0.0021022 0.00039326 0.00039087 0.00013945 0.00025565
0.0035608 -0.015764 0.028675 0.32014
1340000000 0.20547 0.23811 -0.017355 -0.020369 0.0005115 0.0044489 -0.0018313 -0.00078749
0.001405 0.0027949 0.0018613 -0.0013417
-0.017332 -0.020362 0.034233 0.37238 -0.021982 0.0044099 -9.3058e-05 0.0019907
0.0019487 0.00072501 0.001204 0.00081727
0.00053427 0.0044488 -0.021988 0.0045189 0.33254 0.11612 0.00093227 -0.00096338
0.00065604 -0.00057333 5.3255e-05 0.000194
-0.0018302 -0.00077019 -7.9317e-05 0.001994 0.0009301 -0.00097399 0.13908 0.23801
-0.0085053 -0.01687 0.0010114 0.00037717
0.0014254 0.0027897 0.0019583 0.00070942 0.00065297 -0.00056708 -0.0085429 -0.016845
0.047042 0.22923 -0.0035908 -0.014572
0.0018663 -0.0013479 0.0012084 0.00081479 4.8412e-05 0.00017536 0.0010321 0.00036416
-0.0035767 -0.014588 0.066534 0.3161
1400000000 0.24086 0.20154 -0.024041 -0.0085803 0.0050775 0.0033672 -0.0022212 0.00072899
0.0026892 0.0010543 0.00035572 -0.0017788
-0.024012 -0.0085809 0.072949 0.35987 -0.015003 0.012862 0.0013275 0.0012671
0.001267 -0.00080999 0.001154 0.00014287
0.0050885 0.0033542 -0.014965 0.012965 0.34638 0.063201 4.0729e-05 -0.0015281
0.00020322 -0.00040199 0.00033451 0.00026254
-0.0022253 0.00073003 0.0013333 0.0012564 4.5659e-05 -0.0015259 0.16907 0.20931
-0.014809 -0.0097852 -0.00086215 -0.00025837
0.0026837 0.0010441 0.001265 -0.0008183 0.00020766 -0.0003963 -0.014832 -0.0097635
0.081173 0.22591 -0.010149 -0.009361
0.00035854 -0.0017738 0.0011699 0.00013279 0.00035741 0.0002581 -0.00085225 -0.00022731
-0.010162 -0.0093647 0.11224 0.30621
1460000000 0.26419 0.15832 -0.021207 0.0043622 0.0056207 -0.0016266 -0.0015298 0.0017316
0.0022696 -0.00050933 -0.0002462 -0.0010144
-0.021196 0.0043536 0.10716 0.33789 -0.0056779 0.01584 0.0016499 0.00025971
0.00095994 -0.0012317 0.0012786 -0.00062331
0.0056127 -0.0016466 -0.0056039 0.015884 0.35306 0.0093543 -0.0011675 -0.001146
0.00024493 -0.00014498 0.00085325 -0.00021092
-0.001513 0.0017485 0.0016552 0.00024267 -0.0011771 -0.0011444 0.19566 0.18037
-0.015772 -0.0027678 -0.00091799 0.0019569
0.0022658 -0.00052194 0.00094987 -0.0012446 0.00025378 -0.0001516 -0.015792 -0.0027573
0.11091 0.21224 -0.012427 -0.003104
-0.00024418 -0.0010026 0.0012904 -0.0006239 0.00085367 -0.00021897 -0.00090817 0.0019601
-0.012409 -0.0031299 0.14537 0.28573
1520000000 0.27809 0.11756 -0.015586 0.010224 0.0034346 -0.0042235 0.00017439 0.0026167
0.0022525 -0.0020126 -0.0012619 -0.00012361
-0.015573 0.010215 0.14102 0.32425 0.0022334 0.013037 0.0016727 -0.00068509
8.4273e-05 -0.0010194 0.00038693 -0.0010655
0.0034307 -0.0042502 0.0023064 0.013049 0.34685 -0.045731 -0.00088062 -0.00038471
0.00069522 -0.0010481 0.00014298 -0.00021951
0.00017805 0.002611 0.0016686 -0.00069605 -0.0008675 -0.00038056 0.21953 0.14255
-0.014919 0.0031011 0.0015854 0.0021024
0.0022182 -0.002031 8.8478e-05 -0.0010237 0.00068428 -0.0010512 -0.014905 0.0031294
0.13954 0.19987 -0.01218 0.0016196
-0.0012725 -0.00011177 0.00037285 -0.0010781 0.00014306 -0.00022034 0.0015972 0.0020981
-0.012205 0.0016316 0.17875 0.26714
1580000000 0.28878 0.071666 -0.0086196 0.013856 -0.0010276 -0.0050067 0.0014616 0.0018279
-0.00032171 -0.0023187 -0.00017344 0.00040248
-0.0086178 0.013853 0.16855 0.29937 0.0057767 0.0076887 0.00062519 -0.001527
-0.00044487 -0.0011042 -0.00024071 -0.00088259
-0.0010444 -0.0049912 0.0058348 0.0076682 0.32784 -0.10381 -0.0015484 0.00040917
-0.00041871 -0.0013879 0.00028597 -0.00066387
0.0014845 0.0018253 0.00061227 -0.0015365 -0.0015495 0.00039639 0.23387 0.10307
-0.011059 0.0079863 0.0021341 0.00075588
-0.00033285 -0.0023223 -0.00045801 -0.0011154 -0.00042471 -0.0013891 -0.011047 0.008018
0.16431 0.18251 -0.0095563 0.0076943
-0.00015862 0.00038975 -0.00025354 -0.00087837 0.00030221 -0.00067508 0.0021507 0.00075533
-0.0095582 0.007687 0.21164 0.24066
1640000000 0.29165 0.031113 -0.0014906 0.012649 -0.0030022 -0.0025493 0.0027637 0.0010789
-0.00077106 -0.0016048 -0.00042507 0.00058522
-0.0015083 0.012646 0.19779 0.27564 0.006009 0.0025932 -0.00053467 -0.0018568
-0.00095823 -0.00051907 -0.00053567 -0.00064448
-0.0030201 -0.002552 0.0060306 0.002568 0.29961 -0.15218 -0.00078322 0.0012576
-0.001135 -0.0010806 -0.00026626 -0.00044146
0.0027732 0.0010549 -0.00055291 -0.0018679 -0.00079511 0.0012597 0.2465 0.054591
-0.0065527 0.0088164 0.0025294 -0.00080087
-0.00077519 -0.0015981 -0.00095676 -0.00050147 -0.0011314 -0.0010681 -0.0065313 0.0088291
0.18748 0.15975 -0.0045332 0.0097606
-0.0004237 0.00059045 -0.00053425 -0.00063786 -0.0002579 -0.00044642 0.0025273 -0.00079667
-0.0045465 0.009756 0.23773 0.21096
1700000000 0.28643 -0.013991 0.0020883 0.009754 -0.0036886 0.00030996 0.003182 -0.001203
-0.0020699 -0.00051931 0.00054141 0.00042157
0.0020844 0.0097545 0.21664 0.24469 0.0033698 -0.00035086 -0.0014417 -0.00069401
-0.00083268 -0.00013542 -0.00091665 -0.00047411
-0.0036941 0.00033525 0.0033662 -0.00038103 0.25747 -0.1924 0.00016022 0.0016631
-0.0020609 -0.00016536 -0.00050977 -0.00091171
0.0031844 -0.00121 -0.0014465 -0.0006949 0.00016503 0.0016548 0.24416 0.0047475
-0.0038655 0.0090319 0.0015303 -0.0022989
-0.0020694 -0.00049764 -0.00083817 -0.00012349 -0.0020521 -0.00014809 -0.0038452 0.0090455
0.20599 0.14041 0.00034192 0.0099709
0.0005543 0.00041466 -0.00092384 -0.000464 -0.00051353 -0.0009073 0.0015312 -0.0022993
0.00034542 0.0099566 0.25563 0.17716
1760000000 0.27509 -0.062678 0.0044719 0.0063081 -0.0021764 0.0012045 0.0013906 -0.0034513
-0.0012998 0.00070954 0.00030191 -0.00058589
0.0044638 0.0062935 0.24262 0.2056 0.00077496 -0.0018392 -0.0013179 9.651e-05
-0.0011807 0.00092694 -0.00054052 0.00043692
-0.0021507 0.0012129 0.0007582 -0.0018501 0.20951 -0.22542 0.0011107 0.0013116
-0.0011868 0.0015527 -0.0013376 -0.00053419
0.0013634 -0.0034535 -0.0013252 0.0001083 0.0011073 0.0013112 0.23538 -0.047012
-0.00084275 0.0078967 -0.00025823 -0.0023978
-0.0013019 0.00071891 -0.0011747 0.00093023 -0.001189 0.0015394 -0.00083084 0.0078969
0.22115 0.10657 0.0042905 0.0073625
0.00029125 -0.00058615 -0.00053778 0.00044241 -0.0013477 -0.00054163 -0.00027385 -0.0023971
0.004298 0.007363 0.26934 0.13967
1820000000 0.25252 -0.099713 0.004544 0.0027488 -2.6541e-05 0.002676 -0.00092986 -0.0032311
-0.0010713 0.00086848 -3.583e-05 -0.00017053
0.0045352 0.0027668 0.25378 0.17672 -0.0016597 -0.00012313 -0.0013971 0.00097061
-0.0001036 0.0012861 -0.00060694 0.00054419
-1.5117e-05 0.0026564 -0.0016697 -0.0001186 0.1591 -0.24108 0.0018006 0.00050537
-0.00023244 0.002468 -0.0016508 0.00046198
-0.00093659 -0.003197 -0.0014056 0.0009641 0.0017898 0.00049835 0.20625 -0.094098
0.00027425 0.0065925 -0.001815 -0.0017372
-0.001056 0.00087735 -9.4065e-05 0.0012834 -0.00019774 0.002456 0.00028257 0.0065986
0.23966 0.079079 0.0053661 0.0034187
-3.5769e-05 -0.00017919 -0.0006043 0.00054562 -0.0016168 0.00043522 -0.0018031 -0.0017216
0.0053609 0.0034135 0.27262 0.10433
1880000000 0.21861 -0.14126 0.0022901 0.00048306 -0.00049181 0.0022513 -0.0028815 -0.0022909
-0.00013759 0.0017491 0.00026963 -0.00071809
0.0022909 0.00047909 0.25888 0.13025 -0.0034908 0.0022237 -0.00021308 0.0018528
0.0006183 0.0014492 0.00020958 0.00098246
-0.00047807 0.0022427 -0.0034714 0.0022288 0.10754 -0.25083 0.0020568 -0.0010875
0.0017053 0.0019291 -0.00097428 0.0015991
-0.0029095 -0.0022824 -0.0002087 0.0018464 0.0020538 -0.0010886 0.16604 -0.13517
0.00095986 0.0046895 -0.002402 0.00042185
-0.00014168 0.001769 0.00062075 0.0014568 0.0016941 0.0019414 0.00097453 0.0046813
0.2446 0.047945 0.005345 0.0011678
0.00027386 -0.00072841 0.00021284 0.00098178 -0.00097277 0.0016136 -0.0024019 0.0004367
0.005357 0.0011733 0.27343 0.069738
1940000000 0.17956 -0.16747 0.00014988 -0.0011852 0.0017258 0.0020952 -0.0038771 0.00030676
0.0011977 0.00098418 -0.00063856 -0.0004283
0.00015539 -0.0012034 0.26044 0.099403 -0.001833 0.0050939 0.0010858 0.0012568
0.0020366 0.00055361 0.00093643 0.00028349
0.001733 0.0020947 -0.0017926 0.0051193 0.062232 -0.24369 0.00049651 -0.0025878
0.0024763 0.00035963 0.00037139 0.001621
-0.0038836 0.00032635 0.0010967 0.0012486 0.00049308 -0.0025906 0.11353 -0.16575
-0.00013651 0.003678 -0.0014971 0.0014963
0.0012141 0.00096141 0.0020514 0.00054033 0.0024693 0.00033693 -0.00011787 0.0036821
0.24837 0.01095 0.0040393 -0.0024954
-0.00065501 -0.00041528 0.00094947 0.00027251 0.00037327 0.0015976 -0.0014951 0.0014907
0.0040278 -0.0025057 0.26266 0.034069
2000000000 0.13446 -0.18341 -0.0035539 0.00077991 0.0028985 0.0013374 -0.0024109 0.0036635
0.001104 0.00036118 -0.00074511 0.00047374
-0.0035411 0.00077648 0.2477 0.063909 -0.00092398 0.0071637 0.0017336 0.00039361
0.0013589 -0.0013217 0.00041844 -9.6795e-05
0.0029114 0.0013095 -0.00088676 0.0071773 0.019466 -0.22985 -0.0015265 -0.0017068
0.0020561 -0.0012436 0.0015331 0.0013213
-0.0024124 0.0036853 0.0017271 0.00041109 -0.0015237 -0.0016929 0.060578 -0.17661
-0.0013728 0.0037958 3.1276e-06 0.0024279
0.0010874 0.00035816 0.0013414 -0.001339 0.0020477 -0.0012437 -0.0013779 0.0038079
0.24517 -0.022049 0.00067479 -0.0032124
