!Keysight Technologies,M9804A,MY58100912,A.14.10.03
!Date: Thursday, April 27, 2023 10:28:33
!Correction: S11(C  6-Port  ) 
!S12(C  6-Port  ) 
!S13(C  6-Port  ) 
!S14(C  6-Port  ) 
!S15(C  6-Port  ) 
!S16(C  6-Port  ) 
!S21(C  6-Port  ) 
!S22(C  6-Port  ) 
!S23(C  6-Port  ) 
!S24(C  6-Port  ) 
!S25(C  6-Port  ) 
!S26(C  6-Port  ) 
!S31(C  6-Port  ) 
!S32(C  6-Port  ) 
!S33(C  6-Port  ) 
!S34(C  6-Port  ) 
!S35(C  6-Port  ) 
!S36(C  6-Port  ) 
!S41(C  6-Port  ) 
!S42(C  6-Port  ) 
!S43(C  6-Port  ) 
!S44(C  6-Port  ) 
!S45(C  6-Port  ) 
!S46(C  6-Port  ) 
!S51(C  6-Port  ) 
!S52(C  6-Port  ) 
!S53(C  6-Port  ) 
!S54(C  6-Port  ) 
!S55(C  6-Port  ) 
!S56(C  6-Port  ) 
!S61(C  6-Port  ) 
!S62(C  6-Port  ) 
!S63(C  6-Port  ) 
!S64(C  6-Port  ) 
!S65(C  6-Port  ) 
!S66(C  6-Port  ) 
!S6P File: Measurement: :
# Hz S  RI   R 50
500000000 -0.33215 -0.061252 -0.010079 -0.0010381 -0.0087095 0.012769 -0.0037662 0.01187
0.013273 0.0058685 -0.0036214 0.0067561
-0.010024 -0.0012883 -0.41384 -0.070858 0.0082135 -0.010839 0.0014369 0.012883
0.0079893 0.0029126 0.0012683 0.014466
-0.008805 0.012709 0.0081975 -0.010862 -0.26644 0.19323 0.0069952 0.0033731
-0.0022435 0.0087552 0.00040992 0.011962
-0.0037439 0.011575 0.0014605 0.012741 0.0068809 0.00339 -0.33012 0.03986
-0.019081 -0.0039258 0.017731 0.027766
0.013095 0.0058871 0.0079051 0.0025684 -0.0022386 0.0086734 -0.019073 -0.0039187
-0.23992 -0.20951 -0.027387 0.0048731
-0.0037736 0.0068083 0.0011919 0.01428 0.00036997 0.012006 0.017469 0.027397
-0.027637 0.0052667 -0.26681 -0.13274
560000000 -0.31845 0.10607 -0.022294 -0.066553 0.00024257 0.013523 0.0049194 0.011739
0.010934 0.0041658 0.011078 0.0093176
-0.02226 -0.066514 -0.37363 0.09445 -0.042051 -0.039382 0.013814 0.0041901
-0.012251 -0.0046618 0.0035372 -0.00065139
0.00023257 0.013524 -0.042194 -0.039294 -0.18647 0.24573 -0.00045878 -0.0054237
0.018895 0.0070426 0.0079652 -0.0060483
0.0049729 0.011752 0.014107 0.0040959 -0.00043792 -0.0049611 -0.30741 0.13209
0.0057345 -0.023699 0.0051819 -0.021813
0.011596 0.0042507 -0.012611 -0.0051152 0.019265 0.0068228 0.0056271 -0.02363
-0.31116 -0.02548 0.0099536 -0.052698
0.011069 0.0097607 0.0036117 -0.00054072 0.0076146 -0.0057183 0.0052981 -0.020822
0.010908 -0.052653 -0.33223 0.016961
620000000 -0.27849 0.086188 -0.023479 0.0088997 0.003691 0.0095111 0.0081832 -0.00431
0.012112 -0.0013917 0.00038045 -0.0021104
-0.023281 0.0088556 -0.40257 0.041832 -0.018509 0.00022125 -0.0016569 -0.0022334
0.0123 -0.0055293 0.00072918 -0.0032339
0.0038085 0.0094725 -0.018545 0.00028485 -0.15712 0.25517 -0.00065443 -0.0049688
-0.0034661 -0.0032898 0.0094334 -0.0023847
0.0080387 -0.0046288 -0.0019027 -0.0021759 -0.00086811 -0.0051975 -0.26446 0.14177
-0.038383 -0.020319 0.014554 0.027954
0.011688 -0.0012443 0.01238 -0.0054788 -0.0033579 -0.0028012 -0.038543 -0.020089
-0.22809 -0.061614 -0.0407 0.01054
2.7984e-05 -0.0023136 0.00046213 -0.0031984 0.0093517 -0.0024877 0.01401 0.027681
-0.040893 0.010429 -0.24838 -0.019918
680000000 -0.24277 0.17777 -0.026235 -0.014998 0.0048871 0.0055109 0.00079733 -0.007068
-0.0019776 -0.011097 0.0053806 -0.005921
-0.026266 -0.014911 -0.3908 0.14324 -0.032662 -0.0026058 -0.0018546 -0.00067278
-0.0016053 -0.0088521 -0.00071122 -0.0018976
0.0048704 0.005535 -0.032728 -0.0025138 -0.10649 0.27734 -0.0010644 -0.00022103
-0.0015238 0.00045003 -0.002415 -0.0090885
0.00068867 -0.0069924 -0.0018373 -0.0007046 -0.00097251 -0.00017347 -0.22036 0.19379
-0.022942 -0.0076305 -0.0098479 -0.011833
-0.0016118 -0.01117 -0.0015323 -0.0089779 -0.0014184 0.0003508 -0.022963 -0.0075935
-0.28148 0.041824 -0.0061759 -0.0059881
0.00572 -0.0060299 -0.00061799 -0.0021557 -0.002514 -0.0091815 -0.0098261 -0.011628
-0.0063061 -0.0060188 -0.26134 0.084509
740000000 -0.19527 0.17111 -0.040189 0.027001 0.013853 -0.0045835 1.8148e-05 -0.0040736
-0.0047494 -0.003083 -0.0067347 0.0029235
-0.040394 0.026718 -0.3363 0.16271 -0.03779 0.034848 0.00021006 -0.0060511
-0.011903 0.0071406 -0.0012465 -0.0055249
0.013752 -0.004672 -0.03775 0.035044 -0.072561 0.2747 -0.0017072 0.0032432
-0.0023625 -0.0055621 -0.0017141 0.0010052
-0.00010168 -0.004009 0.00016476 -0.005621 -0.0019716 0.0032729 -0.20425 0.20111
-0.042852 -0.0095889 0.02306 0.016237
-0.0046894 -0.0024494 -0.011898 0.0068963 -0.0021231 -0.0054091 -0.043155 -0.0095103
-0.18274 0.071895 -0.043434 -0.00020947
-0.0068088 0.0029313 -0.0013441 -0.0052556 -0.001811 0.00086594 0.023125 0.015952
-0.043293 -0.00014991 -0.25142 0.091906
800000000 -0.16439 0.21714 -0.022576 0.016097 0.0060564 -0.010532 -0.0048616 -0.0025
-0.0043147 0.0022506 0.0041463 0.00049809
-0.022534 0.016214 -0.3439 0.23348 -0.0089866 0.034219 -0.002197 0.002065
-0.0010015 0.002463 0.00091114 0.0053723
0.0060855 -0.010463 -0.0089158 0.034285 -0.033853 0.29969 0.00076222 0.0013499
0.00022724 0.0034206 -0.0017038 0.00092291
-0.0047049 -0.0024943 -0.0020657 0.0020143 0.00089829 0.0012889 -0.17574 0.22859
-0.028516 0.012927 0.014005 -0.010662
-0.0042989 0.0021415 -0.0010085 0.002569 8.7376e-05 0.0033304 -0.028385 0.012919
-0.22646 0.09813 -0.017741 0.020119
0.0042659 0.00061645 0.00088671 0.0054722 -0.0017214 0.00086017 0.013798 -0.010674
-0.017679 0.020306 -0.24521 0.1408
860000000 -0.13031 0.23733 -0.01847 0.030524 -0.0029591 -0.010175 -0.0017688 0.00036416
0.0040997 0.0055794 -0.0042443 -0.0026646
-0.018438 0.030619 -0.29625 0.27741 0.0069401 0.03489 -5.7972e-05 0.0020842
0.0033292 0.00070582 0.0033897 0.00058177
-0.0029934 -0.010177 0.0070542 0.034908 0.013512 0.30882 -0.00058774 -0.00022488
0.0022773 -0.0013808 0.0015093 0.0044181
-0.0018306 0.00041247 6.6019e-05 0.0021792 -0.00060737 -0.00018183 -0.13817 0.24033
-0.018546 0.018027 -0.0065841 -0.0088406
0.0041655 0.0056428 0.0033614 0.00080078 0.0022883 -0.0013273 -0.018465 0.018201
-0.16976 0.15226 -0.025179 0.01666
-0.0044862 -0.002821 0.0032012 0.00032562 0.0014672 0.0043576 -0.0064276 -0.0090272
-0.025159 0.016536 -0.19457 0.18738
920000000 -0.10723 0.2604 0.0042772 0.038745 -0.009381 -0.0051658 -0.002101 0.0017373
0.0010398 0.0016958 0.0028895 -0.0013926
0.004247 0.038702 -0.26912 0.29916 0.028018 0.023228 0.0014622 0.0012968
0.0074199 0.00019456 0.0047386 -0.0026757
-0.0094054 -0.0051453 0.028111 0.02319 0.058964 0.31063 0.0018698 6.3584e-05
0.00086522 -0.0001254 0.0010411 -0.0014624
-0.0020308 0.0016185 0.0015743 0.0012914 0.0018621 3.9058e-05 -0.11508 0.25709
-0.011588 0.030564 0.0041325 -0.0068471
0.00093472 0.0018695 0.0074228 0.00011093 0.00091851 -7.9072e-05 -0.011483 0.030592
-0.15938 0.1572 -0.0016545 0.02698
0.0029476 -0.0012812 0.0047484 -0.002557 0.0010198 -0.0014403 0.0039611 -0.0068383
-0.0016195 0.027025 -0.20176 0.19997
980000000 -0.061215 0.28159 0.016255 0.030613 -0.009698 0.0043479 0.0017713 0.003717
0.003921 -0.001101 -0.0030098 -0.0021372
0.016247 0.030524 -0.21665 0.33513 0.033316 0.005896 0.0020044 -8.3773e-05
0.0017322 -0.0057754 -0.00029138 -0.0025484
-0.009636 0.0043811 0.033364 0.0057902 0.10483 0.30535 0.00076273 -0.0011226
0.00049098 -0.0016765 0.0014387 -0.00021242
0.0017451 0.0038083 0.0019932 -0.00010533 0.00076302 -0.0011025 -0.076328 0.26785
0.0069504 0.02978 -0.0097492 -0.0071596
0.0038674 -0.0012608 0.0016687 -0.0058059 0.00052176 -0.0017067 0.0068934 0.029719
-0.1262 0.189 0.0054412 0.019859
-0.0030628 -0.002158 -0.00049438 -0.002679 0.0013953 -0.00024643 -0.0096553 -0.0072393
0.0051909 0.019636 -0.16205 0.24625
1040000000 -0.020469 0.29109 0.032944 0.01985 -0.0016172 0.0072569 0.0027775 0.00086189
0.0003677 -0.0033309 -0.00012066 -0.001817
0.032872 0.019793 -0.18176 0.34905 0.030314 -0.014287 0.0016225 -0.0016656
-0.0023813 -0.0025465 -0.0012856 -0.0031559
-0.001587 0.0072404 0.030275 -0.014391 0.1508 0.29287 -0.000445 -0.0016191
-0.0016193 -0.0009313 -0.00060149 -0.00094049
0.0028265 0.00081578 0.0016039 -0.001699 -0.00045855 -0.0016159 -0.04985 0.27813
0.018763 0.019118 -0.0027066 0.0012415
0.00035391 -0.0033082 -0.0023181 -0.002504 -0.001565 -0.00094295 0.018839 0.019086
-0.09439 0.19645 0.014067 0.018757
-0.00011175 -0.0017971 -0.0011998 -0.0031896 -0.00058393 -0.0010021 -0.0027048 0.0012415
0.014118 0.018567 -0.13969 0.26703
1100000000 0.024667 0.3011 0.036875 -0.0026908 0.0029766 0.0043174 0.0024576 -0.0010352
-0.0021463 -0.0029174 -0.0039082 2.3869e-05
0.036817 -0.0027258 -0.13839 0.36829 0.01621 -0.027901 9.164e-06 -0.0018657
-0.0035747 -0.0008951 -0.0035049 -0.00046469
0.0030027 0.0042748 0.016116 -0.027984 0.19722 0.27391 -0.0019292 0.00011243
-0.0018281 0.00055417 -0.0010752 -0.00049067
0.0024144 -0.001043 3.4175e-05 -0.0018991 -0.0019256 0.00011363 -0.0098929 0.28368
0.024515 0.0060263 -0.0026609 0.00024205
-0.0020733 -0.0029654 -0.0035246 -0.00086202 -0.0018157 0.00052658 0.024476 0.0060162
-0.074512 0.21026 0.019717 0.0097004
-0.0039189 -6.6965e-06 -0.0035376 -0.00042388 -0.0010522 -0.00043857 -0.0026363 0.00013627
0.019897 0.009625 -0.09252 0.29709
1160000000 0.075601 0.29787 0.025217 -0.020143 0.0031218 -0.00037056 -3.9784e-05 -0.0023967
-0.0040588 -0.00093018 -0.0013665 0.0039709
0.025246 -0.020084 -0.095018 0.37343 -0.0030506 -0.029526 -0.001526 -0.0017646
-0.0026295 0.0025016 -0.0016233 0.0018285
0.0031373 -0.00038585 -0.0031808 -0.029529 0.24059 0.24402 -0.00088431 0.0017601
-0.00055095 0.00189 -0.0010264 0.0003606
-4.3786e-05 -0.0024263 -0.0015734 -0.0017864 -0.00085559 0.0017901 0.029114 0.28148
0.021237 -0.0098052 -0.0034215 0.005204
-0.0041286 -0.00081262 -0.0026322 0.0025831 -0.00053841 0.0018567 0.021228 -0.0098542
-0.039954 0.21841 0.018731 -0.00052424
-0.0012816 0.0039491 -0.001508 0.0018207 -0.00097731 0.00035512 -0.0032869 0.0052006
0.018827 -9.9468e-05 -0.045731 0.30035
1220000000 0.11938 0.28871 0.011912 -0.03021 -0.0012775 -0.0011604 4.1732e-05 -0.00099058
-0.0028671 0.002151 0.0010904 0.0021173
0.011915 -0.030193 -0.050705 0.38746 -0.016876 -0.021902 -0.002625 0.00049175
3.6136e-05 0.0030687 -0.00076947 0.0019643
-0.0012753 -0.0011438 -0.017002 -0.021857 0.27998 0.20593 0.0007883 0.0017666
0.00052529 0.0012135 0.00033416 0.00070574
3.2319e-05 -0.00097688 -0.0025858 0.00048959 0.00076568 0.0017906 0.069152 0.27372
0.010978 -0.016679 0.0022695 0.0015642
-0.0028455 0.002135 3.4432e-05 0.0030825 0.0005188 0.0012173 0.010977 -0.016687
-0.016655 0.22865 0.014767 -0.012978
0.001114 0.0021025 -0.00082447 0.0019913 0.00030438 0.00075104 0.0022041 0.0015437
0.014703 -0.013014 -0.015423 0.31663
1280000000 0.17007 0.26901 -0.0069861 -0.02931 -0.0019248 0.0022168 -0.00093303 -0.0021314
-0.00083565 0.003351 0.0025953 0.0013994
-0.0069358 -0.029288 -0.0040314 0.37962 -0.024181 -0.0087844 -0.00094405 0.0014313
0.0017437 0.0017227 0.00066187 0.0020996
-0.0019251 0.0022386 -0.024265 -0.0086923 0.31102 0.16273 0.0016101 -2.3213e-05
0.0011697 0.00023733 0.00043125 0.00021931
-0.0009424 -0.002155 -0.00097181 0.0014501 0.0016229 -3.3962e-05 0.10614 0.25817
0.001409 -0.019071 0.00013318 0.00022573
-0.00081465 0.003381 0.0016941 0.0017418 0.0011807 0.00023864 0.0013669 -0.019069
0.019986 0.23256 0.0034453 -0.015663
0.0026741 0.0013882 0.00066533 0.0020478 0.00037527 0.00020575 0.00014502 0.00027851
0.0034893 -0.015568 0.032547 0.3197
1340000000 0.20758 0.23699 -0.017167 -0.019932 0.00068282 0.0044895 -0.0019685 -0.00089303
0.001354 0.0027855 0.002002 -0.0013057
-0.017143 -0.019899 0.035621 0.37243 -0.02182 0.0042673 -0.00013036 0.0020316
0.0019469 0.00076473 0.0010905 0.00077187
0.00070088 0.0044698 -0.021834 0.0043699 0.33345 0.11578 0.001061 -0.00096383
0.00069271 -0.0004868 2.5428e-05 0.00021617
-0.0019567 -0.00085145 -0.00012928 0.0020254 0.0010796 -0.00097242 0.13982 0.23816
-0.0081072 -0.016499 0.0010738 0.00042554
0.001387 0.0028087 0.001955 0.0007478 0.00069478 -0.00047849 -0.008141 -0.016509
0.049765 0.22859 -0.003754 -0.014178
0.0019577 -0.0012774 0.0011267 0.00081311 -1.7026e-05 0.0002041 0.0010798 0.00037266
-0.0036859 -0.014139 0.070635 0.31566
1400000000 0.24224 0.2004 -0.023643 -0.0083097 0.0051446 0.0032761 -0.002339 0.00071804
0.002633 0.00096732 0.00028509 -0.0016388
-0.023617 -0.0083027 0.073985 0.3602 -0.014967 0.012641 0.0013045 0.0012894
0.0012077 -0.0008066 0.0012182 0.00017967
0.0051412 0.0032565 -0.014927 0.012737 0.34719 0.062698 6.1042e-05 -0.0016057
8.3161e-05 -0.00040457 0.00032559 0.00026187
-0.0023254 0.00068579 0.0013016 0.0012946 8.0363e-05 -0.0015887 0.16988 0.20968
-0.014288 -0.0098371 -0.00071475 -0.00033178
0.0026138 0.0009718 0.0012524 -0.00081243 0.00011546 -0.00037933 -0.014305 -0.0097983
0.083493 0.22527 -0.010075 -0.0091252
0.00029201 -0.0016729 0.0011753 0.00018254 0.00027385 0.00028399 -0.00066445 -0.00025795
-0.010195 -0.0091001 0.11519 0.30508
1460000000 0.26586 0.15727 -0.020832 0.0042854 0.0056114 -0.0018057 -0.0015401 0.0017308
0.0021611 -0.000424 -0.00018491 -0.00094449
-0.020808 0.0042619 0.10879 0.33842 -0.0057576 0.015614 0.001694 0.000228
0.00093234 -0.0013167 0.0011595 -0.00050521
0.0056014 -0.0018517 -0.0056955 0.015669 0.35399 0.0087761 -0.0011663 -0.0011798
0.00023753 -0.00019152 0.00074422 -0.00019636
-0.0015666 0.0017985 0.0016682 0.0002341 -0.001187 -0.0011764 0.19707 0.1806
-0.01533 -0.0031821 -0.00097958 0.0018606
0.0021812 -0.00051618 0.00091684 -0.0012843 0.00022177 -0.000174 -0.015355 -0.0031247
0.11332 0.21184 -0.012144 -0.003078
-0.00026623 -0.00099426 0.0012294 -0.00058627 0.0007366 -0.00026288 -0.00098999 0.001873
-0.012094 -0.0031271 0.14862 0.2848
1520000000 0.27945 0.11613 -0.0153 0.010051 0.003349 -0.0042944 0.00022112 0.0027256
0.0021772 -0.0019192 -0.0012749 -0.00013764
-0.015297 0.010009 0.14275 0.32439 0.0020871 0.012986 0.0016382 -0.00071699
4.6928e-05 -0.0010103 0.00037446 -0.0011098
0.0033288 -0.0043124 0.0021418 0.012998 0.34764 -0.046924 -0.00096698 -0.00034386
0.00067816 -0.00089624 0.00011552 -0.00025199
0.00023066 0.0026839 0.0016328 -0.00069854 -0.00098033 -0.00034338 0.22086 0.14239
-0.014783 0.002616 0.0015722 0.0020339
0.0021839 -0.0019466 3.0551e-05 -0.0010157 0.000698 -0.00092248 -0.014788 0.0026466
0.14155 0.1993 -0.012093 0.0018039
-0.0012278 -0.00011571 0.00033916 -0.0010682 8.2872e-05 -0.00023377 0.0015764 0.0020283
-0.012062 0.0018171 0.18164 0.2655
1580000000 0.29026 0.070236 -0.0085706 0.013554 -0.0010295 -0.0049763 0.0015455 0.0018228
-0.00022044 -0.0022553 -0.00020605 0.00039584
-0.0085819 0.013539 0.1705 0.29959 0.0056389 0.0077876 0.00059513 -0.0015566
-0.00045926 -0.0010779 -0.00016425 -0.00087977
-0.0010639 -0.0049911 0.0056884 0.0077609 0.32821 -0.10458 -0.0015231 0.00043393
-0.00031574 -0.001313 0.00032958 -0.00057972
0.0015412 0.0018564 0.0005898 -0.0015599 -0.0015315 0.00040958 0.23536 0.10269
-0.011331 0.0074246 0.0021246 0.00066754
-0.00022412 -0.0022228 -0.00044438 -0.0010668 -0.00032555 -0.0013027 -0.011323 0.0074607
0.16642 0.18201 -0.0093939 0.0075811
-0.00019894 0.00036362 -0.0001468 -0.00088587 0.00034272 -0.00058709 0.0021179 0.00072215
-0.0094153 0.0076218 0.2143 0.23923
1640000000 0.2932 0.029207 -0.001612 0.012455 -0.0030456 -0.0025737 0.0027335 0.0010588
-0.00076418 -0.0016378 -0.00043058 0.00067804
-0.0016265 0.01244 0.20016 0.27517 0.0058887 0.0027697 -0.00056698 -0.0017952
-0.00097123 -0.00048242 -0.00053226 -0.00071352
-0.0030614 -0.0025606 0.0059126 0.00276 0.2998 -0.15343 -0.00085834 0.001401
-0.001171 -0.0010221 -0.00018431 -0.00053773
0.0027586 0.0010619 -0.0005433 -0.0017879 -0.00082773 0.0014094 0.24808 0.053532
-0.0071751 0.0087375 0.0024959 -0.00071366
-0.00079242 -0.0016353 -0.00098464 -0.00047387 -0.0011783 -0.0010312 -0.0071682 0.0087376
0.19005 0.15884 -0.0046307 0.0097198
-0.00045543 0.00073264 -0.00055538 -0.00069757 -0.00026312 -0.00051436 0.0025262 -0.00074108
-0.0046962 0.0097234 0.24021 0.20887
1700000000 0.28724 -0.016196 0.0019024 0.0096663 -0.0036548 0.00015026 0.003148 -0.0012026
-0.0020904 -0.00066009 0.00058099 0.00042602
0.0018907 0.0096559 0.21875 0.24385 0.0034652 -0.0001574 -0.0014025 -0.00069623
-0.00078955 -0.00012479 -0.00095233 -0.00049806
-0.0036763 0.0001655 0.0034957 -0.00015097 0.25732 -0.19299 0.00027046 0.0016527
-0.0020501 -6.6199e-05 -0.00062047 -0.00090673
0.0031288 -0.0012284 -0.0014286 -0.00067472 0.00022685 0.0016531 0.24514 0.0032263
-0.0043418 0.0091806 0.001507 -0.0022063
-0.0020645 -0.00064617 -0.00080656 -9.4477e-05 -0.0020754 -5.0477e-05 -0.0043327 0.0091977
0.20849 0.13932 0.00011211 0.0098555
0.00060238 0.00038878 -0.0009343 -0.00049762 -0.00064668 -0.0008625 0.0014599 -0.0021737
0.00015108 0.0098838 0.25754 0.17505
1760000000 0.27586 -0.06504 0.0043071 0.0063452 -0.0022924 0.0012596 0.0013559 -0.0034398
-0.0013366 0.00059231 0.00030158 -0.00062652
0.004293 0.0063412 0.24489 0.20438 0.00093708 -0.0017307 -0.0013121 3.3077e-05
-0.001135 0.00091428 -0.0005662 0.00040635
-0.0022741 0.0012669 0.00092355 -0.0017286 0.20994 -0.22643 0.0010737 0.0011622
-0.001259 0.0015468 -0.0012727 -0.00044704
0.0013405 -0.0034277 -0.0013166 3.5625e-05 0.0010432 0.0011374 0.236 -0.048746
-0.0012413 0.0084577 -0.00021746 -0.0022613
-0.0013678 0.00062671 -0.0011408 0.00090042 -0.0012207 0.0015566 -0.0011917 0.0084706
0.22391 0.10523 0.0041216 0.0073751
0.00027083 -0.00060651 -0.00055689 0.00041268 -0.0013006 -0.00049353 -0.0002267 -0.0023489
0.0041489 0.0073076 0.27091 0.13749
1820000000 0.25242 -0.10248 0.0044821 0.0028093 -4.1523e-05 0.0026918 -0.00098925 -0.0032127
-0.0011457 0.00093472 -0.00010383 -0.00026634
0.0044787 0.0028369 0.25553 0.17472 -0.0014862 -0.00014573 -0.0014305 0.00093165
-0.000152 0.0012707 -0.00059064 0.00052304
-4.1544e-05 0.0026581 -0.0014998 -0.00014714 0.1589 -0.2426 0.001606 0.00051766
-0.00023032 0.0023563 -0.0015951 0.00042137
-0.001012 -0.0032053 -0.0014625 0.00088161 0.0016186 0.00049226 0.20605 -0.096348
0.0004469 0.0070666 -0.0017778 -0.0016167
-0.0011309 0.00089607 -0.00011982 0.0012598 -0.00021323 0.002357 0.00045606 0.0070674
0.2422 0.07695 0.005128 0.0034949
-9.2686e-05 -0.00027297 -0.00061512 0.00053733 -0.001542 0.00045121 -0.0017442 -0.0016017
0.0051413 0.0035273 0.27375 0.1016
1880000000 0.21775 -0.14355 0.0022728 0.00049588 -0.00035447 0.0022375 -0.0029691 -0.0022654
-0.00024765 0.0017088 0.00016945 -0.00063979
0.0022523 0.00051417 0.26019 0.12824 -0.0033079 0.002264 -0.00028516 0.0018278
0.00062434 0.0013755 0.00016377 0.0010273
-0.00033551 0.0022112 -0.0033058 0.0022813 0.10674 -0.25149 0.0020189 -0.0010166
0.0016619 0.0018982 -0.00094645 0.0015747
-0.002969 -0.0022691 -0.00029276 0.0018037 0.0019816 -0.0010279 0.16527 -0.13685
0.0012416 0.0048728 -0.0021197 0.00013606
-0.0001996 0.0017494 0.00059478 0.0013698 0.0016195 0.001871 0.0012531 0.0049041
0.24695 0.045645 0.0055789 0.0012353
0.00019016 -0.00064366 0.00018477 0.0010035 -0.00094273 0.0015196 -0.0022589 0.00013887
0.0055215 0.0012152 0.27433 0.067497
1940000000 0.17835 -0.16968 8.4863e-05 -0.0011349 0.0017536 0.0020938 -0.0038691 0.0003153
0.0011995 0.0011085 -0.00062609 -0.00033645
7.2424e-05 -0.0011509 0.26127 0.096935 -0.0017125 0.0049882 0.0010307 0.0013874
0.0019193 0.00053166 0.00093714 0.00037569
0.0017537 0.0020808 -0.0016824 0.0050078 0.061893 -0.24462 0.00053658 -0.0024482
0.0023391 0.00043679 0.0002374 0.0016294
-0.0038971 0.00030637 0.00099892 0.0013885 0.00052678 -0.0024369 0.11217 -0.16712
0.00029815 0.0036402 -0.0017121 0.0014947
0.0011645 0.0010917 0.0019266 0.00052336 0.0023896 0.00044119 0.00029933 0.0036383
0.2507 0.0076292 0.0038143 -0.0023678
-0.00070122 -0.00029684 0.00092484 0.00033676 0.00018962 0.0016361 -0.0016098 0.0014712
0.0037796 -0.0023586 0.26346 0.031575
2000000000 0.13257 -0.18483 -0.0037782 0.00089988 0.0027509 0.0014006 -0.0022212 0.0037444
0.0012565 0.0004538 -0.00050647 0.00053478
-0.0037566 0.00089879 0.24757 0.061462 -0.00081239 0.0069741 0.0018133 0.00044536
0.0014299 -0.0012299 0.00040631 2.4944e-05
0.0027911 0.0013556 -0.00077555 0.007001 0.018795 -0.23053 -0.0013663 -0.0016345
0.0021586 -0.0011895 0.0015648 0.0013625
-0.0022224 0.0037547 0.0018314 0.00044107 -0.0014303 -0.0016834 0.058468 -0.17687
-0.0013253 0.0036867 0.00012519 0.0023972
0.0012246 0.00043012 0.0013818 -0.0012339 0.0021285 -0.0011821 -0.0013739 0.0036835
0.24632 -0.025293 0.00078559 -0.0029993
