!Keysight Technologies,M9804A,MY58100912,A.14.10.03
!Date: Thursday, April 27, 2023 10:28:33
!Correction: S11(C  6-Port  ) 
!S12(C  6-Port  ) 
!S13(C  6-Port  ) 
!S14(C  6-Port  ) 
!S15(C  6-Port  ) 
!S16(C  6-Port  ) 
!S21(C  6-Port  ) 
!S22(C  6-Port  ) 
!S23(C  6-Port  ) 
!S24(C  6-Port  ) 
!S25(C  6-Port  ) 
!S26(C  6-Port  ) 
!S31(C  6-Port  ) 
!S32(C  6-Port  ) 
!S33(C  6-Port  ) 
!S34(C  6-Port  ) 
!S35(C  6-Port  ) 
!S36(C  6-Port  ) 
!S41(C  6-Port  ) 
!S42(C  6-Port  ) 
!S43(C  6-Port  ) 
!S44(C  6-Port  ) 
!S45(C  6-Port  ) 
!S46(C  6-Port  ) 
!S51(C  6-Port  ) 
!S52(C  6-Port  ) 
!S53(C  6-Port  ) 
!S54(C  6-Port  ) 
!S55(C  6-Port  ) 
!S56(C  6-Port  ) 
!S61(C  6-Port  ) 
!S62(C  6-Port  ) 
!S63(C  6-Port  ) 
!S64(C  6-Port  ) 
!S65(C  6-Port  ) 
!S66(C  6-Port  ) 
!S6P File: Measurement: :
# Hz S  RI   R 50
500000000 -0.33106 -0.062206 -0.0098149 -0.001277 -0.0090858 0.012656 -0.0035999 0.012617
0.012944 0.0053339 -0.0035851 0.0089088
-0.0098172 -0.001289 -0.41302 -0.070578 0.0087529 -0.010789 0.0010826 0.012022
0.0082052 0.003055 0.0013056 0.013692
-0.0090841 0.012673 0.0087297 -0.01081 -0.26509 0.19245 0.0070344 0.0035585
-0.0021562 0.0088104 0.00054864 0.012444
-0.0035671 0.012619 0.0010999 0.012079 0.0070304 0.0035577 -0.32982 0.038759
-0.018937 -0.0043276 0.016879 0.0258
0.012955 0.0053184 0.008212 0.0030268 -0.0021597 0.0088114 -0.018905 -0.0043122
-0.23811 -0.20915 -0.027353 0.0050246
-0.0035371 0.0088633 0.0012853 0.013668 0.00050578 0.012443 0.01697 0.025685
-0.027342 0.0049476 -0.2668 -0.13761
560000000 -0.31804 0.10508 -0.021829 -0.067108 6.0293e-05 0.013312 0.0052267 0.011486
0.01128 0.0041068 0.0098206 0.0085822
-0.021776 -0.067019 -0.37241 0.093392 -0.041517 -0.039868 0.013898 0.0038694
-0.012487 -0.0035974 0.0035201 -0.0016021
9.52e-05 0.013338 -0.041665 -0.039826 -0.18571 0.24444 -0.0011709 -0.0050379
0.018664 0.0062136 0.0070809 -0.0061503
0.0052594 0.011492 0.013911 0.003872 -0.0011554 -0.0050423 -0.30594 0.13126
0.0061562 -0.023759 0.0062615 -0.021144
0.011275 0.0041108 -0.012528 -0.0035997 0.018663 0.0062051 0.0061205 -0.023758
-0.3093 -0.02679 0.010565 -0.051904
0.0098837 0.008579 0.0035595 -0.0016161 0.007072 -0.0061495 0.0062734 -0.021108
0.01058 -0.051877 -0.33009 0.013489
620000000 -0.27891 0.085129 -0.023062 0.00852 0.0033349 0.0097345 0.0079079 -0.003924
0.012535 -0.0023102 0.0010528 -0.0018858
-0.023068 0.0084983 -0.40195 0.040871 -0.018639 -0.0002471 -0.0020757 -0.0022477
0.012767 -0.0061536 0.0010141 -0.0039444
0.0033572 0.0097412 -0.018653 -0.00020702 -0.1573 0.25417 -0.0012165 -0.004728
-0.0034138 -0.0038301 0.0093943 -0.0031333
0.0078883 -0.0039234 -0.0020724 -0.002253 -0.0012427 -0.0047235 -0.26443 0.14216
-0.038251 -0.021032 0.013243 0.0289
0.012571 -0.0023416 0.012773 -0.0061961 -0.0033846 -0.0038235 -0.038288 -0.020939
-0.2277 -0.06388 -0.042075 0.01018
0.00097124 -0.0018275 0.0010118 -0.003955 0.0094205 -0.0031361 0.013263 0.028877
-0.041978 0.01017 -0.24857 -0.023004
680000000 -0.24192 0.17696 -0.026507 -0.015434 0.0046225 0.0053934 0.0013554 -0.0076641
-0.0016061 -0.011637 0.0056526 -0.0070369
-0.026456 -0.015438 -0.39102 0.14216 -0.033359 -0.0027838 -0.0015049 -0.00058984
-0.0016959 -0.0090257 -0.00098269 -0.0017528
0.0046233 0.0053894 -0.033394 -0.0026905 -0.10756 0.27623 -0.00076058 -0.00021764
-0.001693 0.00074075 -0.0029502 -0.0095259
0.0013206 -0.0076581 -0.0014941 -0.00059699 -0.000765 -0.00022515 -0.22038 0.19271
-0.023209 -0.0083833 -0.0091282 -0.011577
-0.0016156 -0.011667 -0.0017382 -0.0090204 -0.001714 0.00073543 -0.023239 -0.0083815
-0.28039 0.039595 -0.0066907 -0.0073291
0.0056436 -0.007079 -0.00099485 -0.0017472 -0.0029403 -0.0095432 -0.0091073 -0.011616
-0.0066961 -0.0073189 -0.26107 0.08381
740000000 -0.19545 0.16989 -0.040509 0.026312 0.013929 -0.004533 0.00028305 -0.0040657
-0.0043382 -0.0033574 -0.0061321 0.0031887
-0.040484 0.02627 -0.33683 0.16178 -0.03821 0.034745 -5.1135e-05 -0.0056649
-0.011865 0.0068513 -0.0014886 -0.0052083
0.013919 -0.0045525 -0.038155 0.034897 -0.073561 0.27419 -0.0016687 0.003344
-0.0021368 -0.005753 -0.0017899 0.0011851
0.00025047 -0.0040789 -5.3333e-05 -0.0056443 -0.0016836 0.0033582 -0.20476 0.20003
-0.042799 -0.0096399 0.022354 0.015866
-0.0043672 -0.0033176 -0.011886 0.0069205 -0.0021334 -0.0057396 -0.042811 -0.0095853
-0.18205 0.069555 -0.043702 -0.00033295
-0.0061261 0.0032081 -0.0015512 -0.0051673 -0.001794 0.0011947 0.022352 0.015857
-0.043721 -0.0003417 -0.25247 0.089124
800000000 -0.16545 0.21631 -0.02305 0.016265 0.0058205 -0.010364 -0.0048521 -0.0026292
-0.0043997 0.0022176 0.0035886 0.00054104
-0.023051 0.016244 -0.34472 0.2329 -0.0093619 0.034677 -0.0021846 0.0020492
-0.00085516 0.0027366 0.00058173 0.0056778
0.0057837 -0.010393 -0.0092755 0.034741 -0.03514 0.30001 0.00073845 0.0010579
0.00025087 0.0034711 -0.0021943 0.00076221
-0.0048417 -0.0026344 -0.0021753 0.0020504 0.00074292 0.0010563 -0.1763 0.2274
-0.028948 0.013065 0.01391 -0.010893
-0.0043851 0.0022111 -0.00085634 0.0027333 0.00026208 0.0034563 -0.028943 0.013121
-0.2268 0.095496 -0.018262 0.020521
0.0035905 0.00045939 0.00060444 0.0056501 -0.0022081 0.00074967 0.013905 -0.010913
-0.018288 0.020491 -0.24699 0.13852
860000000 -0.13072 0.23671 -0.018895 0.030533 -0.002919 -0.010295 -0.0018122 0.0005503
0.0040702 0.0051114 -0.0031455 -0.0031989
-0.018892 0.03048 -0.29732 0.27719 0.0068919 0.035264 0.00014585 0.0021376
0.003443 0.00019677 0.0036783 -0.00048213
-0.0029538 -0.010309 0.0069889 0.035272 0.012796 0.30941 -0.00057885 -0.0003023
0.0023769 -0.0016196 0.0018272 0.0043299
-0.001811 0.00055191 0.00016637 0.0021398 -0.00057886 -0.00030472 -0.1393 0.23976
-0.019492 0.018267 -0.0063981 -0.0086277
0.0040901 0.0050975 0.0034235 0.00017377 0.0023751 -0.0016105 -0.019479 0.018319
-0.17096 0.15003 -0.025099 0.01662
-0.0031508 -0.0031342 0.0037075 -0.00046392 0.0018516 0.004328 -0.0064048 -0.0085642
-0.025077 0.01661 -0.19397 0.18568
920000000 -0.10785 0.26059 0.0040219 0.039166 -0.0094204 -0.005014 -0.002089 0.0018964
0.0011303 0.0018319 0.0026769 -0.00090641
0.0039961 0.039131 -0.26984 0.29925 0.028218 0.023654 0.001595 0.0012327
0.0072319 -8.5993e-05 0.0046933 -0.0026912
-0.0094231 -0.0049924 0.028313 0.023601 0.058647 0.31129 0.0018224 5.6869e-05
0.00078086 8.9345e-07 0.0010837 -0.0013672
-0.0020748 0.0018914 0.001597 0.0012479 0.0018306 5.6434e-05 -0.11589 0.25715
-0.012341 0.031039 0.0039459 -0.0068768
0.0011442 0.0018319 0.0072423 -0.00013259 0.00078073 1.2844e-05 -0.012278 0.031072
-0.16127 0.15702 -0.0024637 0.027818
0.0026852 -0.00091145 0.0046603 -0.0026971 0.0010809 -0.0013646 0.0039315 -0.0068679
-0.0024999 0.027793 -0.20409 0.19879
980000000 -0.061803 0.28216 0.016441 0.031144 -0.0096907 0.0044759 0.0020008 0.0038724
0.0038787 -0.0015012 -0.0033456 -0.0023403
0.016422 0.031123 -0.21724 0.33543 0.033749 0.0060312 0.0020323 -0.0001434
0.0016993 -0.0059978 -0.00056809 -0.0027534
-0.0096734 0.0045024 0.033797 0.0059208 0.10484 0.30602 0.00077448 -0.00108
0.00056521 -0.0017878 0.0015729 -0.00024362
0.0020256 0.0038608 0.0020145 -0.0001481 0.00077414 -0.0010783 -0.077556 0.26842
0.0070809 0.030365 -0.0097017 -0.0074219
0.0038721 -0.0015271 0.0016669 -0.0060288 0.00055797 -0.0017866 0.0071277 0.030369
-0.12778 0.18782 0.0052932 0.020044
-0.0033493 -0.0023021 -0.00059673 -0.0027453 0.00157 -0.00024749 -0.0097081 -0.0074099
0.0052907 0.020015 -0.16216 0.24526
1040000000 -0.020425 0.29119 0.033358 0.020204 -0.0014666 0.0074768 0.0027933 0.00072093
0.00048981 -0.0034748 -0.00040905 -0.001539
0.033312 0.020198 -0.18209 0.34956 0.030669 -0.014384 0.0015882 -0.001793
-0.002212 -0.0023869 -0.0011279 -0.0032117
-0.0014404 0.0074724 0.030638 -0.014488 0.15107 0.29342 -0.00047192 -0.0016473
-0.0015483 -0.00087935 -0.00049704 -0.0011431
0.0028225 0.00069974 0.0015681 -0.0017857 -0.00046752 -0.0016466 -0.0502 0.27899
0.019105 0.019631 -0.0026646 0.0014647
0.000476 -0.0034655 -0.0022519 -0.0023929 -0.0015574 -0.00087594 0.019154 0.019615
-0.094985 0.19616 0.013745 0.018901
-0.00039789 -0.0015589 -0.0011437 -0.0031766 -0.00049144 -0.0011515 -0.0026544 0.0014638
0.013749 0.018877 -0.14107 0.26584
1100000000 0.024693 0.30144 0.037354 -0.0027111 0.0033091 0.0043673 0.0025651 -0.0010667
-0.0022442 -0.0029065 -0.0038606 -0.00027712
0.037317 -0.0026949 -0.13869 0.36889 0.016396 -0.02818 1.015e-05 -0.0018042
-0.0035464 -0.00073436 -0.003339 -0.00062918
0.0033312 0.0043542 0.016303 -0.028264 0.19751 0.27437 -0.0019657 0.00018113
-0.001857 0.0005106 -0.0011971 -0.00066883
0.0025687 -0.0010726 6.0093e-06 -0.0018012 -0.0019644 0.00018337 -0.0097109 0.28484
0.025278 0.0062467 -0.0024227 0.00043268
-0.0022519 -0.0028988 -0.0035582 -0.00072909 -0.0018506 0.0005181 0.02528 0.0062109
-0.075306 0.21024 0.020434 0.0096235
-0.0038672 -0.00025921 -0.0033523 -0.00059933 -0.0011855 -0.00067014 -0.002417 0.00045094
0.020391 0.0096242 -0.094655 0.29682
1160000000 0.075759 0.29797 0.025668 -0.020234 0.0034034 -0.00048134 -0.00029011 -0.0026433
-0.0041152 -0.00094725 -0.0012174 0.0041905
0.02566 -0.020212 -0.094654 0.37431 -0.0031424 -0.029771 -0.0015926 -0.0017184
-0.0025226 0.0024545 -0.0016385 0.001945
0.0034018 -0.00049615 -0.003275 -0.029778 0.2412 0.24431 -0.00077697 0.001768
-0.00057741 0.0018807 -0.0010948 0.00028686
-0.00028288 -0.0026375 -0.0016169 -0.0016931 -0.00077667 0.0017654 0.029985 0.28229
0.021984 -0.010163 -0.0031711 0.0053388
-0.0041243 -0.00089839 -0.0025303 0.0024552 -0.00057299 0.0018961 0.021977 -0.010179
-0.041138 0.21928 0.019106 -0.00012487
-0.0011733 0.0041818 -0.0016628 0.0019728 -0.0010886 0.00029731 -0.0031611 0.0053264
0.019105 -0.00016555 -0.048011 0.29991
1220000000 0.11973 0.28888 0.012315 -0.030611 -0.0011317 -0.0014464 -0.00011296 -0.00093447
-0.0028384 0.002269 0.0011027 0.0020909
0.012321 -0.03057 -0.050036 0.38807 -0.017054 -0.022055 -0.0026156 0.00058971
7.91e-05 0.0030317 -0.00081695 0.0019359
-0.0011322 -0.001449 -0.017174 -0.022 0.28068 0.20587 0.00079394 0.0017071
0.00048747 0.0012012 0.0001593 0.00073162
-0.00011978 -0.00093748 -0.0026138 0.00060214 0.00079627 0.0017023 0.070281 0.27412
0.011209 -0.017217 0.0023754 0.0014496
-0.002837 0.0022957 8.9932e-05 0.0030265 0.00048671 0.0012096 0.011179 -0.017237
-0.017372 0.2292 0.014774 -0.012955
0.0011214 0.0020973 -0.00080453 0.0019491 0.0001604 0.00073397 0.002387 0.0014561
0.014759 -0.012953 -0.017307 0.31669
1280000000 0.1704 0.26901 -0.0069756 -0.029795 -0.0020053 0.001949 -0.00096011 -0.0020325
-0.00072261 0.0032957 0.0026172 0.0014449
-0.006946 -0.029774 -0.0030991 0.38003 -0.02437 -0.0087122 -0.00091357 0.0014687
0.0016665 0.0016049 0.00073796 0.0021226
-0.0020009 0.0019532 -0.024442 -0.0086248 0.3116 0.16242 0.0014993 -0.00012443
0.0011121 0.00026571 0.00026163 0.00037203
-0.000968 -0.0020202 -0.00090123 0.001478 0.0014968 -0.00012697 0.10733 0.25795
0.0013449 -0.019622 0.0001492 0.00026487
-0.00070742 0.0032917 0.0016738 0.0015948 0.0011139 0.0002679 0.0013161 -0.019629
0.019743 0.23375 0.0036429 -0.015691
0.0026283 0.0014285 0.00075064 0.0021191 0.00025355 0.00036952 0.0001484 0.0002586
0.0036429 -0.015681 0.031456 0.32028
1340000000 0.20814 0.23664 -0.017387 -0.020405 0.00038535 0.0043063 -0.001844 -0.00075211
0.0014105 0.0027834 0.0018331 -0.0013742
-0.017343 -0.020395 0.036714 0.37224 -0.021814 0.0043708 -6.7567e-05 0.0019636
0.0018853 0.00077885 0.001159 0.00087519
0.00039671 0.0042969 -0.021817 0.0044838 0.33376 0.11517 0.00098045 -0.00093649
0.00059261 -0.00040466 0.00012222 0.00032365
-0.001858 -0.00074769 -6.4785e-05 0.0019743 0.00098902 -0.00093641 0.14056 0.23735
-0.0085274 -0.017058 0.00094181 0.00026161
0.0014264 0.0027758 0.001891 0.00076405 0.00059344 -0.00040079 -0.0085691 -0.017039
0.050157 0.22944 -0.0035068 -0.014377
0.0018194 -0.0013847 0.0011676 0.00087457 0.00012411 0.00032532 0.00094377 0.00025803
-0.003515 -0.01438 0.069069 0.31585
1400000000 0.24251 0.19983 -0.02401 -0.0086152 0.0049482 0.0032574 -0.002202 0.00062607
0.0026522 0.0010315 0.00033334 -0.0016868
-0.02398 -0.0086155 0.074787 0.35957 -0.0149 0.012711 0.0012632 0.0012116
0.0011887 -0.00070757 0.0011831 0.00016569
0.0049632 0.0032419 -0.014866 0.012792 0.34722 0.06208 2.0824e-05 -0.001519
0.00015973 -0.00039005 0.0004111 0.000334
-0.0022004 0.00063724 0.0012699 0.0012149 1.8759e-05 -0.0015249 0.17012 0.20864
-0.014923 -0.0099167 -0.00079354 -0.00039185
0.0026698 0.0010195 0.0011924 -0.00071621 0.00016144 -0.00038874 -0.014942 -0.0098866
0.083828 0.22555 -0.0099695 -0.0093749
0.00032182 -0.0016906 0.0011854 0.00017257 0.00040526 0.00034108 -0.00079608 -0.00039438
-0.0099669 -0.0093805 0.11446 0.30593
1460000000 0.26589 0.15649 -0.021308 0.0042605 0.0054772 -0.0016932 -0.0014899 0.0016818
0.0021502 -0.00053214 -0.00021216 -0.00099404
-0.021296 0.0042393 0.10934 0.33752 -0.0056914 0.015621 0.0016054 0.00022619
0.00097393 -0.0012703 0.0012575 -0.00062644
0.0054618 -0.0017061 -0.0056091 0.015664 0.35387 0.0082262 -0.0011666 -0.0011443
0.00023198 -0.00016305 0.00088538 -0.00029457
-0.0014793 0.0016863 0.0016186 0.00020529 -0.0011611 -0.0011427 0.19684 0.17959
-0.015796 -0.0029162 -0.0011233 0.0019083
0.0021454 -0.00054452 0.00097223 -0.0012831 0.00023784 -0.00016946 -0.015809 -0.0028765
0.11401 0.2117 -0.012318 -0.0032795
-0.00023492 -0.00099708 0.001241 -0.00063429 0.00088696 -0.00030275 -0.001122 0.0019091
-0.012312 -0.0032726 0.14797 0.28549
1520000000 0.27901 0.11541 -0.015716 0.010263 0.0032719 -0.0041262 0.00016188 0.0026021
0.0021463 -0.0019411 -0.0011942 -2.7388e-05
-0.015715 0.01024 0.14276 0.32327 0.0020755 0.012924 0.0016415 -0.00066419
0.00010833 -0.0010188 0.00027689 -0.0011006
0.0032518 -0.0041388 0.0021433 0.012923 0.34727 -0.047389 -0.00087107 -0.00034209
0.00070955 -0.00096634 0.00014864 -0.00028605
0.00016507 0.0026126 0.0016464 -0.00066695 -0.00086809 -0.0003478 0.22024 0.14158
-0.01497 0.0030672 0.0014991 0.0020855
0.0021372 -0.0019527 9.9082e-05 -0.0010192 0.00070654 -0.00096567 -0.014961 0.003109
0.14212 0.19867 -0.012068 0.0015336
-0.0011874 -2.573e-05 0.00027479 -0.0011087 0.00013837 -0.00029281 0.0014896 0.0020677
-0.012072 0.0015342 0.1811 0.26606
1580000000 0.2895 0.069953 -0.0087444 0.013963 -0.0010559 -0.0048325 0.0014397 0.0018656
-0.0002695 -0.0022062 -0.00012721 0.00036207
-0.0087497 0.013941 0.1701 0.29871 0.0055975 0.0076778 0.00062734 -0.0015283
-0.00046805 -0.0011146 -0.00022851 -0.00083218
-0.0010813 -0.0048297 0.0056478 0.0076533 0.32789 -0.10485 -0.0015361 0.00041622
-0.00042943 -0.0012974 0.00039314 -0.00061627
0.001448 0.0018688 0.00061811 -0.0015305 -0.0015398 0.00042026 0.23434 0.10236
-0.011236 0.0079986 0.0020423 0.0008109
-0.00028383 -0.0022121 -0.00047928 -0.0011191 -0.00042833 -0.0012957 -0.011223 0.0080223
0.16653 0.18131 -0.0096097 0.0075126
-0.00012344 0.0003671 -0.00023749 -0.00083369 0.00039356 -0.00061775 0.0020463 0.00081331
-0.0096141 0.007515 0.21403 0.23991
1640000000 0.29251 0.02915 -0.0015748 0.01281 -0.0030066 -0.0023786 0.0027048 0.0010872
-0.00082414 -0.0015722 -0.000405 0.00061569
-0.0015859 0.012796 0.19954 0.27445 0.0057748 0.0026822 -0.00053768 -0.00182
-0.00099165 -0.00051017 -0.00060665 -0.00060682
-0.0030157 -0.0023607 0.0057971 0.0026495 0.29962 -0.15379 -0.00080487 0.0013189
-0.0010729 -0.0010525 -0.00035732 -0.00043063
0.0027064 0.0010705 -0.00055168 -0.0018261 -0.00080467 0.0013185 0.24706 0.053666
-0.0068641 0.0089011 0.0024441 -0.00057957
-0.0008427 -0.0015588 -0.001001 -0.00049868 -0.001069 -0.0010485 -0.0068362 0.0089191
0.18966 0.15795 -0.0047077 0.0098362
-0.00039812 0.00062716 -0.00060821 -0.00060303 -0.00036792 -0.00043607 0.002449 -0.00060057
-0.0047117 0.009842 0.23974 0.20971
1700000000 0.28663 -0.015898 0.0021747 0.0099029 -0.0034827 0.00034499 0.0031775 -0.0011823
-0.0020111 -0.00060035 0.00056011 0.00035582
0.0021654 0.0098998 0.21781 0.24359 0.0033068 -0.00011893 -0.0014083 -0.00070962
-0.00078075 -5.3737e-05 -0.00090683 -0.00043642
-0.0034746 0.00036387 0.003307 -0.00014644 0.25681 -0.19335 0.00019994 0.0016478
-0.0020163 -5.4592e-05 -0.00045124 -0.00082038
0.0031742 -0.0011897 -0.0014147 -0.00070099 0.00020346 0.0016453 0.24436 0.0038043
-0.003914 0.009241 0.00159 -0.0021427
-0.0020064 -0.00058664 -0.00078138 -4.4192e-05 -0.0020138 -4.3167e-05 -0.0038929 0.009249
0.20769 0.13858 0.00020602 0.0098722
0.00056208 0.00034647 -0.00092065 -0.00042998 -0.00046074 -0.00080918 0.0015685 -0.0021434
0.00020646 0.0098895 0.257 0.17558
1760000000 0.27567 -0.064502 0.0045534 0.0064359 -0.0021347 0.0011749 0.0013954 -0.0034633
-0.0013308 0.00061498 0.00034355 -0.0005404
0.0045498 0.0064224 0.24406 0.20456 0.00080067 -0.0015747 -0.0013003 5.3296e-05
-0.0011513 0.00091035 -0.00054712 0.0004526
-0.0021326 0.0011858 0.00079539 -0.0015867 0.20938 -0.22631 0.0010615 0.0012438
-0.0012453 0.0013965 -0.0013333 -0.00060746
0.0013623 -0.0034717 -0.0013047 6.0144e-05 0.0010735 0.0012505 0.23563 -0.047783
-0.00088636 0.0081782 -0.00013625 -0.0022468
-0.0013376 0.00062415 -0.0011437 0.00091073 -0.0012419 0.0013988 -0.00088791 0.0081867
0.22296 0.10472 0.0041182 0.0074363
0.00034832 -0.00054363 -0.00055477 0.00045746 -0.0013396 -0.00061584 -0.00013174 -0.0022653
0.0041183 0.0074423 0.27086 0.13809
1820000000 0.25245 -0.10203 0.0046263 0.0028067 5.9376e-05 0.0024598 -0.00090308 -0.0032084
-0.001055 0.00090082 4.6567e-05 -0.00020903
0.0046257 0.0028084 0.25471 0.17513 -0.0014761 -4.1355e-05 -0.0014394 0.00090084
-4.5999e-05 0.001239 -0.00056547 0.00053572
6.8468e-05 0.0024552 -0.0014838 -3.4566e-05 0.15853 -0.24242 0.0016675 0.00039799
-0.00019128 0.0023243 -0.0015614 0.00034849
-0.00091755 -0.0032168 -0.0014352 0.00091114 0.0016611 0.00038849 0.20626 -0.095314
0.00037197 0.0067436 -0.0016181 -0.0017673
-0.0010449 0.00089426 -3.55e-05 0.0012522 -0.00018154 0.0023211 0.00039322 0.0067441
0.2409 0.076716 0.0051421 0.0035375
3.5394e-05 -0.00021552 -0.00055399 0.00053621 -0.0015584 0.00035705 -0.0016219 -0.0017499
0.0051414 0.0035383 0.27358 0.10203
1880000000 0.21799 -0.14315 0.0024412 0.0005028 -0.00037632 0.0021811 -0.0028795 -0.0022886
-0.00020655 0.0018007 0.00012582 -0.000622
0.0024383 0.00050728 0.25972 0.12918 -0.003274 0.002313 -0.00024165 0.0018509
0.00059678 0.0013531 0.00013777 0.00091419
-0.00036476 0.0021816 -0.0032522 0.00234 0.10671 -0.2514 0.0019606 -0.0010174
0.0015699 0.0019165 -0.0011244 0.0015088
-0.0028933 -0.0022813 -0.00022787 0.0018521 0.0019694 -0.0010135 0.16582 -0.13596
0.0010801 0.004722 -0.0023265 0.00013527
-0.0001953 0.0018112 0.00060961 0.0013521 0.001581 0.0019123 0.0010867 0.004721
0.24557 0.045921 0.0053779 0.0011781
0.00011352 -0.00061988 0.00013884 0.0009108 -0.0011291 0.0014949 -0.0023074 0.00012769
0.0053728 0.0011719 0.27426 0.067794
1940000000 0.17889 -0.1695 0.00024099 -0.0011578 0.0017267 0.0019646 -0.0038804 0.00036043
0.0011189 0.0010015 -0.00080619 -0.0004951
0.00023699 -0.0011481 0.26129 0.09783 -0.0016154 0.0049745 0.0010178 0.001429
0.001853 0.0004721 0.00083231 0.00020352
0.0017359 0.0019627 -0.0015934 0.0049979 0.061795 -0.24464 0.00039511 -0.0024368
0.0023469 0.00039107 0.00020899 0.0015848
-0.0038837 0.0004036 0.0010217 0.0014327 0.0003839 -0.0024426 0.11314 -0.16652
-3.8042e-05 0.0037234 -0.0016265 0.0015521
0.0011267 0.001001 0.0018697 0.00045321 0.0023438 0.00039875 -3.0991e-05 0.0037238
0.24938 0.0083318 0.0038068 -0.0022108
-0.00082131 -0.00050627 0.00084005 0.00019531 0.00021724 0.0015751 -0.0016099 0.0015741
0.0038019 -0.002207 0.26319 0.031765
2000000000 0.13285 -0.18495 -0.0034321 0.00074051 0.0027998 0.0013073 -0.0022061 0.0036708
0.0012773 0.0004087 -0.00056976 0.00046739
-0.0034259 0.00074059 0.24805 0.062437 -0.00075788 0.0069307 0.001856 0.00045502
0.0012897 -0.0012076 0.00036081 3.2518e-05
0.0028082 0.0012937 -0.00070549 0.0069506 0.018487 -0.23046 -0.0013494 -0.0015271
0.0020879 -0.0011107 0.0015059 0.0014239
-0.0021853 0.0036985 0.0018629 0.00044043 -0.001369 -0.0015363 0.059684 -0.17704
-0.0014083 0.0037544 -0.00019353 0.0020875
0.0012798 0.000396 0.0012786 -0.0012239 0.0020774 -0.0011242 -0.0014029 0.0037707
0.2454 -0.024427 0.00070534 -0.0033063
