!Keysight Technologies,M9804A,MY58100912,A.14.10.03
!Date: Thursday, April 27, 2023 10:28:33
!Correction: S11(C  6-Port  ) 
!S12(C  6-Port  ) 
!S13(C  6-Port  ) 
!S14(C  6-Port  ) 
!S15(C  6-Port  ) 
!S16(C  6-Port  ) 
!S21(C  6-Port  ) 
!S22(C  6-Port  ) 
!S23(C  6-Port  ) 
!S24(C  6-Port  ) 
!S25(C  6-Port  ) 
!S26(C  6-Port  ) 
!S31(C  6-Port  ) 
!S32(C  6-Port  ) 
!S33(C  6-Port  ) 
!S34(C  6-Port  ) 
!S35(C  6-Port  ) 
!S36(C  6-Port  ) 
!S41(C  6-Port  ) 
!S42(C  6-Port  ) 
!S43(C  6-Port  ) 
!S44(C  6-Port  ) 
!S45(C  6-Port  ) 
!S46(C  6-Port  ) 
!S51(C  6-Port  ) 
!S52(C  6-Port  ) 
!S53(C  6-Port  ) 
!S54(C  6-Port  ) 
!S55(C  6-Port  ) 
!S56(C  6-Port  ) 
!S61(C  6-Port  ) 
!S62(C  6-Port  ) 
!S63(C  6-Port  ) 
!S64(C  6-Port  ) 
!S65(C  6-Port  ) 
!S66(C  6-Port  ) 
!S6P File: Measurement: :
# Hz S  RI   R 50
500000000 -0.33053 -0.065545 -0.0096576 -0.001192 -0.0086871 0.013284 -0.0033697 0.012367
0.013367 0.0058193 -0.0039885 0.0088197
-0.00945 -0.0010421 -0.41217 -0.073982 0.0088483 -0.010595 0.0017514 0.012182
0.0084145 0.0026879 0.00078704 0.013986
-0.0088709 0.013195 0.008825 -0.010364 -0.26547 0.19055 0.0070589 0.003596
-0.0020037 0.0086043 0.0002743 0.01227
-0.0034979 0.011771 0.00092214 0.012687 0.0072654 0.0038354 -0.33064 0.037106
-0.018798 -0.0039216 0.017141 0.027272
0.012811 0.0054892 0.0085293 0.0019258 -0.0022099 0.008412 -0.018221 -0.0045765
-0.23619 -0.21421 -0.027984 0.0053136
-0.0039305 0.0075112 0.00070739 0.014188 0.00067299 0.012599 0.016528 0.025369
-0.026964 0.0060799 -0.26419 -0.14085
560000000 -0.32066 0.10293 -0.021392 -0.066934 -0.00038217 0.013451 0.0053003 0.012703
0.011717 0.0049636 0.009861 0.0091405
-0.020866 -0.067088 -0.37285 0.090799 -0.041405 -0.039591 0.014046 0.0037783
-0.013211 -0.0048748 0.0046809 -0.0011917
-0.00062553 0.013799 -0.041559 -0.039315 -0.18695 0.24254 -0.00055473 -0.0044732
0.019076 0.0064611 0.0068684 -0.0056393
0.0056144 0.012645 0.014355 0.0039036 -0.0005325 -0.0048959 -0.30692 0.12844
0.0062017 -0.023521 0.0062671 -0.022221
0.011279 0.0043403 -0.013499 -0.0039233 0.018521 0.0057623 0.0053432 -0.022959
-0.31013 -0.031474 0.010318 -0.050609
0.010504 0.009523 0.0050291 -0.0011179 0.0073959 -0.0057149 0.0055099 -0.02235
0.010631 -0.050286 -0.33136 0.010554
620000000 -0.27871 0.081789 -0.02349 0.0085304 0.0033631 0.0096685 0.0074396 -0.0045957
0.011914 -0.0019779 0.00047655 -0.0013439
-0.023277 0.008635 -0.40249 0.038154 -0.018559 7.5945e-05 -0.0016792 -0.0020637
0.012233 -0.0055369 0.00099379 -0.0029142
0.0032925 0.0099515 -0.018583 4.8076e-05 -0.15798 0.25298 -0.00098861 -0.0050936
-0.003714 -0.0027706 0.0097753 -0.0028719
0.0074754 -0.0039802 -0.0014615 -0.0023186 -0.00095006 -0.0050395 -0.26402 0.14011
-0.039459 -0.020969 0.014722 0.027609
0.013224 -0.002255 0.012063 -0.005307 -0.0034084 -0.0031244 -0.038964 -0.019662
-0.22586 -0.065905 -0.043223 0.012566
-0.00074745 -0.0014749 0.0010714 -0.0030297 0.0095119 -0.0027974 0.015209 0.027441
-0.042501 0.010438 -0.24594 -0.027393
680000000 -0.24375 0.17558 -0.026304 -0.015275 0.0048466 0.0057967 0.0015328 -0.0073603
-0.0017418 -0.011057 0.0063233 -0.0065233
-0.026426 -0.015376 -0.39147 0.1397 -0.032936 -0.0029737 -0.0016759 -0.0003193
-0.0014779 -0.009249 -0.00070185 -0.0017333
0.0048604 0.0057461 -0.032885 -0.0028461 -0.10799 0.2751 -0.00075382 -0.00030113
-0.001615 0.0004327 -0.00323 -0.0093697
0.0011634 -0.0071603 -0.0015934 -0.00042489 -0.00078493 -0.00024383 -0.22122 0.19186
-0.023462 -0.0075878 -0.0083282 -0.011658
-0.0016803 -0.011449 -0.0018075 -0.0093447 -0.0016295 0.00028491 -0.023019 -0.0074378
-0.28042 0.036745 -0.0072176 -0.0071605
0.0055739 -0.007389 -0.00055126 -0.0020368 -0.0029304 -0.0095694 -0.0090032 -0.010799
-0.0059794 -0.0065329 -0.26004 0.080023
740000000 -0.19645 0.16884 -0.040932 0.026378 0.014203 -0.0043337 0.00017064 -0.0038279
-0.0039971 -0.0031409 -0.007257 0.0028332
-0.040613 0.026317 -0.33703 0.1598 -0.038389 0.034963 0.00040753 -0.0064488
-0.013365 0.0075051 -0.00091782 -0.0058426
0.01408 -0.0042757 -0.038513 0.035131 -0.074458 0.27315 -0.0016992 0.003545
-0.0022658 -0.0062457 -0.001863 0.00092691
0.00010698 -0.0039542 0.00030934 -0.005762 -0.0019578 0.0034547 -0.20477 0.20004
-0.043925 -0.010279 0.023096 0.016711
-0.003817 -0.0033272 -0.012983 0.008015 -0.0018633 -0.0061266 -0.043455 -0.010116
-0.18092 0.068559 -0.044089 -0.0008216
-0.0065172 0.0032042 -0.00060823 -0.0053776 -0.0018035 0.0013572 0.023479 0.017015
-0.044954 -0.0012616 -0.25263 0.086337
800000000 -0.1658 0.21423 -0.022735 0.015713 0.0058813 -0.010648 -0.0044246 -0.0027809
-0.004643 0.0019535 0.0045065 0.0003314
-0.022818 0.015721 -0.34531 0.23048 -0.0095042 0.034405 -0.0020318 0.0018132
-0.00081879 0.0025857 0.0010518 0.005688
0.005924 -0.010694 -0.0093779 0.034431 -0.035831 0.29871 0.00089682 0.0010816
0.00018469 0.0033882 -0.0017502 0.00088022
-0.0044582 -0.0025792 -0.0020959 0.0018391 0.0008959 0.0010757 -0.17643 0.22706
-0.028507 0.012179 0.014441 -0.01028
-0.0048178 0.0018986 -0.00087217 0.0026468 3.1721e-05 0.0035785 -0.028871 0.012583
-0.22736 0.093854 -0.017878 0.019906
0.0040118 -3.7997e-06 0.00062139 0.0048057 -0.0020794 0.00058577 0.014391 -0.01079
-0.017341 0.019645 -0.24781 0.13633
860000000 -0.13281 0.23536 -0.019015 0.030375 -0.0029156 -0.010489 -0.0019334 0.00068252
0.0037605 0.0056792 -0.004095 -0.0029566
-0.019047 0.030467 -0.29881 0.27485 0.0067283 0.035242 0.00024686 0.0022208
0.0031603 0.00092496 0.0031985 0.00014642
-0.0029963 -0.010442 0.0068636 0.035258 0.011398 0.30841 -0.00053931 -0.0001963
0.0020607 -0.0012266 0.00155 0.0044918
-0.0020364 0.00053193 2.7931e-05 0.002351 -0.00061926 -0.00020788 -0.14037 0.2386
-0.018793 0.018132 -0.0071712 -0.0089504
0.0040983 0.0056318 0.003223 0.00074415 0.0021045 -0.0014531 -0.018827 0.017969
-0.17297 0.14887 -0.025779 0.017497
-0.0040208 -0.0033828 0.0037343 6.2332e-05 0.0017897 0.0045098 -0.0064028 -0.0090391
-0.02663 0.016547 -0.19723 0.18178
920000000 -0.10979 0.25912 0.0039421 0.039164 -0.0094936 -0.005213 -0.0022685 0.0015763
0.0010821 0.0019713 0.0028399 -0.0010983
0.0038754 0.039093 -0.27137 0.29733 0.028199 0.023777 0.0014145 0.0011337
0.0078147 0.00045318 0.0044984 -0.0026777
-0.0094822 -0.0051911 0.028282 0.023769 0.057289 0.31083 0.0017212 6.0034e-05
0.00098444 -5.5862e-05 0.0010842 -0.0015179
-0.00235 0.0016374 0.0012795 0.001157 0.0017615 2.0043e-05 -0.11666 0.25598
-0.012086 0.030856 0.004171 -0.0069229
0.0009973 0.0017802 0.0080973 0.00011886 0.0010615 3.4042e-05 -0.012286 0.031148
-0.16139 0.15449 -0.0016641 0.0274
0.0026273 -0.001328 0.0045666 -0.0028839 0.00096241 -0.0014603 0.0038212 -0.0070135
-0.0011737 0.027397 -0.20543 0.19563
980000000 -0.063503 0.28058 0.01619 0.031135 -0.0098401 0.0042934 0.0018688 0.0038057
0.0041026 -0.0015002 -0.0034446 -0.0026314
0.016186 0.031139 -0.21885 0.33338 0.033743 0.0061794 0.0020511 -0.00015856
0.0017139 -0.0063027 -0.00049769 -0.0029414
-0.009847 0.0043499 0.033792 0.0060406 0.10344 0.30533 0.000766 -0.0011734
0.00061275 -0.0018523 0.0014323 -0.00038769
0.0018205 0.0037232 0.0020275 -0.00015968 0.00078486 -0.0011492 -0.078057 0.26756
0.0068563 0.030402 -0.0094634 -0.0072756
0.0041291 -0.0013221 0.0017386 -0.0062286 0.00058567 -0.0018716 0.0070051 0.030412
-0.12969 0.18547 0.0049866 0.0201
-0.0033256 -0.0029144 -0.00054493 -0.0030572 0.001478 -0.00043762 -0.0095885 -0.0074166
0.0046201 0.020174 -0.16465 0.24284
1040000000 -0.022878 0.29025 0.033176 0.020232 -0.0015267 0.007444 0.0026563 0.00078916
0.00033922 -0.0033943 -0.00012766 -0.0018475
0.033121 0.020319 -0.18436 0.34797 0.030811 -0.014247 0.0015421 -0.0017155
-0.0024427 -0.002448 -0.0012792 -0.0033149
-0.0015691 0.0074536 0.030744 -0.01441 0.14947 0.2934 -0.00050065 -0.0016391
-0.0016037 -0.00098323 -0.00061351 -0.0012383
0.0027398 0.00076973 0.001555 -0.0017587 -0.00044991 -0.001624 -0.051458 0.27801
0.019277 0.019418 -0.0025339 0.0010939
0.00052245 -0.003523 -0.0022981 -0.0025129 -0.0015913 -0.00097958 0.019197 0.019486
-0.097147 0.19427 0.013977 0.019194
-0.00010894 -0.0018447 -0.0011785 -0.0033332 -0.00061106 -0.0011387 -0.0027917 0.0009776
0.013923 0.018835 -0.14354 0.26387
1100000000 0.022275 0.30063 0.037357 -0.0024669 0.0031812 0.0044702 0.0025375 -0.001133
-0.0023709 -0.0029786 -0.0042682 0.00015876
0.03735 -0.0024266 -0.14045 0.36764 0.016575 -0.028221 -5.6128e-06 -0.001879
-0.003791 -0.00073082 -0.0037508 -0.00036362
0.0031995 0.0044906 0.016486 -0.028308 0.1963 0.27439 -0.0019998 0.00018847
-0.0017767 0.0005248 -0.0011536 -0.00061658
0.0024908 -0.0011627 8.5177e-07 -0.0018568 -0.0020062 0.00015478 -0.01082 0.28377
0.025177 0.006176 -0.0025493 0.00016386
-0.0023673 -0.0029877 -0.0038217 -0.00070895 -0.0018313 0.00055494 0.02526 0.0060112
-0.078079 0.20828 0.019702 0.0099188
-0.004092 -0.00019378 -0.0035821 -0.00045856 -0.0011491 -0.00062534 -0.0026034 0.00014755
0.019954 0.0099389 -0.097021 0.29584
1160000000 0.072858 0.2977 0.0258 -0.020181 0.0033681 -0.00043763 -0.00029007 -0.0025737
-0.0040732 -0.0010057 -0.0012965 0.0040509
0.025798 -0.020194 -0.097249 0.37304 -0.0030179 -0.029905 -0.0015378 -0.0017648
-0.0026789 0.0024758 -0.0015291 0.0017828
0.003389 -0.00041921 -0.0031674 -0.029892 0.23963 0.24451 -0.00080505 0.0017688
-0.00061428 0.001907 -0.001204 0.00033275
-0.00028123 -0.0025829 -0.001528 -0.0017441 -0.00079671 0.0017955 0.028066 0.28147
0.021855 -0.010196 -0.0033246 0.0052485
-0.0041986 -0.00094537 -0.0026502 0.0025235 -0.00064562 0.0019715 0.021913 -0.01027
-0.043681 0.21715 0.019098 0.00032326
-0.0010313 0.0042614 -0.0015361 0.0020528 -0.0011414 0.00032496 -0.0035656 0.0053305
0.019108 0.00047019 -0.050153 0.29933
1220000000 0.11693 0.28938 0.012379 -0.030625 -0.0011779 -0.0012896 -4.9812e-05 -0.00086139
-0.0028771 0.0022558 0.0010571 0.0021037
0.012431 -0.030583 -0.052518 0.38755 -0.017042 -0.022207 -0.002647 0.00055939
2.5069e-05 0.0030689 -0.00086636 0.0020134
-0.0011927 -0.0013133 -0.017161 -0.022169 0.2793 0.20648 0.00075629 0.0017992
0.00049869 0.0012223 0.00018176 0.00083664
7.1896e-05 -0.00091207 -0.0026287 0.00054168 0.00075777 0.0017694 0.068709 0.27409
0.011275 -0.017117 0.002352 0.0015947
-0.0028787 0.0022805 8.0484e-05 0.0031371 0.00046934 0.0012189 0.011171 -0.017065
-0.020149 0.22839 0.014767 -0.013004
0.001152 0.0020956 -0.00074442 0.0019686 0.00018787 0.00080968 0.0023372 0.0015167
0.015058 -0.013 -0.019798 0.31685
1280000000 0.16774 0.26968 -0.0068606 -0.029853 -0.0019965 0.0020273 -0.00093406 -0.0021078
-0.00080994 0.0034137 0.0026756 0.0014015
-0.0068417 -0.029829 -0.0055131 0.37944 -0.024553 -0.0088147 -0.00093177 0.0015068
0.0017825 0.0017322 0.00075908 0.0020245
-0.0020158 0.0020133 -0.024627 -0.0087461 0.31039 0.16293 0.0015626 -3.2831e-05
0.0011234 0.00031446 0.000373 0.00038255
-0.0009512 -0.0020553 -0.00085092 0.0015063 0.001595 -9.7948e-05 0.10576 0.25791
0.0012994 -0.019592 0.00025844 0.00031816
-0.00086135 0.0033766 0.0017441 0.0016906 0.0011764 0.00028877 0.0011591 -0.019565
0.016745 0.23255 0.003879 -0.0157
0.0027225 0.0014377 0.00080552 0.0020947 0.00039779 0.00033826 0.00011201 0.00021775
0.00377 -0.015767 0.028377 0.31984
1340000000 0.20541 0.2382 -0.017424 -0.020395 0.00044097 0.0044441 -0.0018213 -0.00078196
0.0014584 0.0028224 0.001859 -0.0012823
-0.01735 -0.020423 0.033929 0.37239 -0.021993 0.0043892 -7.0807e-05 0.0019866
0.00194 0.00078525 0.0012227 0.00077391
0.00045695 0.0044174 -0.021999 0.0045239 0.3325 0.11623 0.00094688 -0.0009681
0.00065199 -0.00056918 8.277e-05 0.00019879
-0.0017925 -0.0008128 -6.4608e-05 0.0020016 0.0009488 -0.00094227 0.13901 0.23797
-0.008521 -0.016901 0.00085167 0.00037384
0.0015471 0.0027726 0.0019623 0.00078642 0.00064517 -0.00057881 -0.008488 -0.016822
0.046691 0.22921 -0.0035269 -0.014495
0.0017379 -0.0014322 0.0012104 0.00080459 2.449e-05 0.00020356 0.00090144 0.00037885
-0.0036115 -0.014488 0.06606 0.31601
1400000000 0.24066 0.20172 -0.024036 -0.0085612 0.0050775 0.0033794 -0.0022676 0.00071161
0.0027168 0.001046 0.00033022 -0.0017345
-0.024013 -0.008557 0.072731 0.35987 -0.015029 0.012839 0.0013178 0.0012666
0.0012581 -0.0007747 0.0012377 0.00012142
0.0050982 0.0033426 -0.014996 0.012968 0.3464 0.063273 1.1222e-05 -0.0015089
0.00020815 -0.00036215 0.00042205 0.00026313
-0.0022906 0.00067404 0.0013189 0.0012527 1.2116e-05 -0.0015344 0.16904 0.20934
-0.014755 -0.0097357 -0.00073342 -0.0003189
0.0027017 0.0010815 0.001229 -0.0007892 0.00020145 -0.00032473 -0.014825 -0.0097401
0.080941 0.22581 -0.010206 -0.0091271
0.0003884 -0.0017167 0.0012285 0.00011136 0.00038227 0.00028418 -0.0007638 -0.00030604
-0.01026 -0.0093673 0.11226 0.30645
1460000000 0.26407 0.15847 -0.021238 0.0043378 0.0056002 -0.0016318 -0.0014952 0.0017133
0.0022483 -0.00048394 -0.00025851 -0.00097641
-0.021235 0.0042883 0.10696 0.33793 -0.005667 0.015827 0.0016441 0.00023017
0.00095998 -0.0012674 0.0013153 -0.0005899
0.0055878 -0.0016297 -0.0056072 0.015888 0.35303 0.0095049 -0.0011534 -0.0011021
0.00026936 -0.00012609 0.00086728 -0.00024528
-0.0014592 0.00175 0.0016379 0.0002404 -0.001166 -0.001137 0.19564 0.1804
-0.015814 -0.0028219 -0.0010721 0.001978
0.002313 -0.00050784 0.00090607 -0.0013385 0.00021053 -0.0002146 -0.015775 -0.0027258
0.1107 0.21226 -0.01246 -0.003177
-0.00024465 -0.0010592 0.0012947 -0.00058724 0.00077538 -0.00028413 -0.00094553 0.0020695
-0.012284 -0.0031472 0.14532 0.28608
1520000000 0.27794 0.11776 -0.015588 0.010233 0.0034156 -0.0042397 0.00016064 0.0026186
0.0022327 -0.0020161 -0.0012009 -4.3175e-05
-0.015591 0.0102 0.1408 0.32433 0.0022561 0.013067 0.0016753 -0.00069307
0.00010107 -0.0010051 0.00033664 -0.0010895
0.0034149 -0.0042756 0.0023408 0.013052 0.34681 -0.045568 -0.00090879 -0.00038997
0.00071983 -0.00098226 0.0001885 -0.0002562
0.00014144 0.002605 0.0016701 -0.00072619 -0.00088842 -0.00034993 0.21945 0.1426
-0.014912 0.0031877 0.00157 0.0020819
0.0021793 -0.0020266 0.00011945 -0.0010339 0.00068351 -0.0010227 -0.014912 0.0031169
0.13941 0.2 -0.012121 0.0016829
-0.0012247 -4.4561e-05 0.00031545 -0.0010829 0.0001543 -0.00021693 0.0015928 0.0020758
-0.01214 0.0017408 0.17872 0.26755
1580000000 0.28866 0.071798 -0.0086594 0.013874 -0.0010417 -0.0049319 0.0014979 0.0018491
-0.00027367 -0.0023254 -0.0001497 0.00033261
-0.0086606 0.013896 0.1684 0.29942 0.005805 0.0076555 0.00059513 -0.0015546
-0.00045722 -0.0011055 -0.00016825 -0.00089291
-0.0010747 -0.0049137 0.0058368 0.0076599 0.32779 -0.10366 -0.0015274 0.00042276
-0.00039849 -0.0013343 0.00028428 -0.00070303
0.0015385 0.0018393 0.00059819 -0.001532 -0.0015296 0.00039083 0.23384 0.10313
-0.011021 0.0079332 0.0022522 0.00072552
-0.00027634 -0.002316 -0.00046198 -0.0010741 -0.00038418 -0.0013333 -0.011006 0.0080137
0.16412 0.18252 -0.0095399 0.0076894
-0.0002164 0.00043092 -0.00015198 -0.00089071 0.00034463 -0.0006516 0.0021951 0.0006815
-0.0096106 0.0076738 0.21171 0.24107
1640000000 0.29167 0.031292 -0.0015125 0.012692 -0.0030215 -0.0025772 0.0026981 0.0010614
-0.00084865 -0.0016515 -0.00039323 0.00058182
-0.001507 0.012647 0.19753 0.27576 0.0059976 0.0025685 -0.00054508 -0.0018476
-0.00093291 -0.00050194 -0.0005773 -0.00066899
-0.0030587 -0.0025864 0.0060156 0.0025517 0.29962 -0.1521 -0.00081548 0.0012424
-0.0011119 -0.0010579 -0.0002503 -0.00051883
0.002692 0.0010654 -0.0005576 -0.0018586 -0.00084841 0.0012846 0.24645 0.054674
-0.0066339 0.0088633 0.0024676 -0.00077064
-0.00084661 -0.00165 -0.00097331 -0.00053432 -0.0011824 -0.0010959 -0.0065517 0.0088205
0.18728 0.15983 -0.0045921 0.0098413
-0.00041811 0.00059263 -0.00056885 -0.0006343 -0.00023386 -0.00045048 0.0025411 -0.00076656
-0.0045874 0.0098193 0.23765 0.21111
1700000000 0.28637 -0.013815 0.0021004 0.0097527 -0.0036625 0.00031456 0.0031869 -0.001196
-0.0020891 -0.00057251 0.00052627 0.00036485
0.0021075 0.0097697 0.21649 0.2448 0.0033667 -0.00035057 -0.0014588 -0.00068382
-0.00084227 -0.00012517 -0.00090819 -0.00045685
-0.0036718 0.00035521 0.0033633 -0.00035882 0.25743 -0.19219 0.00014342 0.0016927
-0.0021434 -8.6445e-05 -0.00053836 -0.00079385
0.0031639 -0.0012295 -0.0014677 -0.00067057 0.00013414 0.0016836 0.24415 0.0048608
-0.0038207 0.0090421 0.0015316 -0.0022773
-0.0021101 -0.00054305 -0.00084011 -0.00011885 -0.0021237 -0.00013848 -0.0037978 0.0090481
0.20585 0.14048 0.00023889 0.0099366
0.00056305 0.00038518 -0.00090049 -0.00045342 -0.00053905 -0.00078487 0.0014993 -0.0023166
0.00024198 0.010016 0.2557 0.17739
1760000000 0.27516 -0.062419 0.0044974 0.0063217 -0.0021876 0.0011976 0.0013917 -0.003448
-0.0013099 0.00071617 0.00032791 -0.00056521
0.0044637 0.0063266 0.24244 0.20578 0.00077575 -0.001855 -0.0013259 0.00010558
-0.0011807 0.00090362 -0.00057705 0.00040739
-0.0022223 0.0011997 0.00074814 -0.0018696 0.20963 -0.22536 0.0011016 0.0013078
-0.0011837 0.0015156 -0.0013357 -0.00059194
0.0013234 -0.0034963 -0.0013535 7.2945e-05 0.001099 0.0012928 0.23541 -0.046966
-0.00090577 0.007983 -0.00021091 -0.0023696
-0.0012958 0.0007027 -0.0011938 0.00089606 -0.0012056 0.0015319 -0.00085698 0.0078885
0.22098 0.10674 0.0043002 0.0073548
0.0003024 -0.00065132 -0.00052952 0.0004441 -0.0012641 -0.00057793 -0.00027026 -0.0023492
0.0042307 0.0073144 0.26918 0.13984
1820000000 0.2525 -0.099531 0.0045378 0.0027874 3.8715e-05 0.0026572 -0.00091376 -0.0032567
-0.0010504 0.00093284 4.2609e-05 -0.00010558
0.0045547 0.002764 0.25362 0.17696 -0.0016452 -7.8098e-05 -0.0014105 0.00097212
-9.8282e-05 0.0012946 -0.00056621 0.00059538
3.9873e-05 0.0026352 -0.0016522 -7.0294e-05 0.15921 -0.24104 0.0017844 0.00056942
-0.00025209 0.0024981 -0.0015022 0.00049359
-0.00084265 -0.0031912 -0.0014116 0.00099439 0.0017262 0.0005239 0.20632 -0.093888
0.00030268 0.0065531 -0.001821 -0.0016647
-0.0010271 0.00095127 -0.00010449 0.0013178 -0.00021137 0.0023943 0.00038076 0.0066131
0.23951 0.079274 0.0051951 0.0034612
-9.6465e-05 -0.00011561 -0.00057131 0.0005412 -0.0016066 0.00040659 -0.0017551 -0.001779
0.0052226 0.0034478 0.27267 0.10453
1880000000 0.21861 -0.14106 0.0022777 0.00047149 -0.00041977 0.0022201 -0.0029084 -0.0022208
-0.00012669 0.0017364 0.00012248 -0.00062715
0.0022748 0.00049795 0.25875 0.13045 -0.0034638 0.0022291 -0.00022947 0.0018329
0.00061678 0.001447 0.00017422 0.00092468
-0.00041937 0.0022414 -0.0034793 0.0022511 0.10773 -0.25055 0.0020358 -0.0011258
0.0017635 0.0019844 -0.0010462 0.001495
-0.0029893 -0.0022305 -0.00023456 0.0018037 0.0021058 -0.0010823 0.1661 -0.13525
0.0009438 0.0047588 -0.0023921 0.00023629
-0.0001597 0.0017635 0.00060812 0.0014424 0.0017294 0.0020083 0.00092599 0.0046465
0.24448 0.048166 0.0053729 0.0010602
0.00014513 -0.00079149 0.00014974 0.0010097 -0.00097709 0.0015784 -0.0024108 0.00050025
0.0054611 0.0011748 0.27325 0.07012
1940000000 0.17954 -0.16722 0.00018577 -0.0012017 0.001689 0.0020286 -0.0038492 0.00037337
0.0012737 0.00098561 -0.00065679 -0.00046421
0.00013299 -0.0011986 0.26034 0.099646 -0.0018407 0.0050624 0.0010741 0.0013306
0.002037 0.00055489 0.00092357 0.00025171
0.0017048 0.0020181 -0.0018046 0.0050517 0.06229 -0.2437 0.00052661 -0.0025877
0.0024219 0.00033391 0.00030512 0.0016386
-0.0038503 0.0003818 0.0010465 0.0013256 0.00051576 -0.0026108 0.11357 -0.16573
-8.7471e-06 0.0036561 -0.0015455 0.0016049
0.0012353 0.00098978 0.002012 0.00050155 0.0025167 0.00027711 -6.4954e-05 0.0036568
0.24839 0.011101 0.0040124 -0.0023236
-0.00066026 -0.00051703 0.00095878 0.00019193 0.00033821 0.0015493 -0.001446 0.0016407
0.0039848 -0.00236 0.26273 0.034464
2000000000 0.13467 -0.18322 -0.0035485 0.00083682 0.0029222 0.001362 -0.0023996 0.0037041
0.0012166 0.00043547 -0.00068744 0.00050318
-0.0035334 0.0008402 0.24767 0.064128 -0.00095296 0.0071687 0.0017186 0.00038719
0.0013539 -0.0013061 0.00039953 -8.0708e-05
0.0029637 0.0014048 -0.00087277 0.0071777 0.019487 -0.22975 -0.0014797 -0.001629
0.0020441 -0.0012625 0.0015012 0.0012811
-0.0023386 0.003651 0.0017343 0.00037109 -0.0014958 -0.0015598 0.060711 -0.17667
-0.0015304 0.0039541 -0.00011314 0.0023999
0.0011134 0.0003562 0.0013374 -0.0013423 0.0020604 -0.0012565 -0.0014162 0.0037834
0.24497 -0.021621 0.00066034 -0.003217
