!Keysight Technologies,M9804A,MY58100912,A.14.10.03
!Date: Thursday, April 27, 2023 10:28:33
!Correction: S11(C  6-Port  ) 
!S12(C  6-Port  ) 
!S13(C  6-Port  ) 
!S14(C  6-Port  ) 
!S15(C  6-Port  ) 
!S16(C  6-Port  ) 
!S21(C  6-Port  ) 
!S22(C  6-Port  ) 
!S23(C  6-Port  ) 
!S24(C  6-Port  ) 
!S25(C  6-Port  ) 
!S26(C  6-Port  ) 
!S31(C  6-Port  ) 
!S32(C  6-Port  ) 
!S33(C  6-Port  ) 
!S34(C  6-Port  ) 
!S35(C  6-Port  ) 
!S36(C  6-Port  ) 
!S41(C  6-Port  ) 
!S42(C  6-Port  ) 
!S43(C  6-Port  ) 
!S44(C  6-Port  ) 
!S45(C  6-Port  ) 
!S46(C  6-Port  ) 
!S51(C  6-Port  ) 
!S52(C  6-Port  ) 
!S53(C  6-Port  ) 
!S54(C  6-Port  ) 
!S55(C  6-Port  ) 
!S56(C  6-Port  ) 
!S61(C  6-Port  ) 
!S62(C  6-Port  ) 
!S63(C  6-Port  ) 
!S64(C  6-Port  ) 
!S65(C  6-Port  ) 
!S66(C  6-Port  ) 
!S6P File: Measurement: :
# Hz S  RI   R 50
500000000 -0.33117 -0.06209 -0.0097483 -0.0012495 -0.0091189 0.01267 -0.0036252 0.012646
0.012945 0.0053431 -0.0035837 0.0088925
-0.0097177 -0.0012563 -0.41308 -0.070393 0.0087628 -0.010794 0.0011111 0.012042
0.0082047 0.0030422 0.0012645 0.01362
-0.0090469 0.012678 0.0087485 -0.010794 -0.26509 0.19239 0.0070433 0.0035468
-0.0021576 0.0088164 0.00051378 0.012454
-0.0034593 0.012625 0.0012155 0.01211 0.0070486 0.0035434 -0.3299 0.038763
-0.018917 -0.0043286 0.017008 0.025712
0.012903 0.0053836 0.0081294 0.0030866 -0.0021284 0.0088307 -0.018908 -0.0042914
-0.23818 -0.20907 -0.027248 0.0049362
-0.0033699 0.0088412 0.001433 0.013826 0.00052945 0.01239 0.016902 0.025721
-0.027299 0.0049446 -0.26714 -0.13666
560000000 -0.31804 0.10504 -0.022017 -0.067114 3.1531e-05 0.01328 0.0052256 0.0115
0.011292 0.0041012 0.0098494 0.0085996
-0.021958 -0.067033 -0.37238 0.093214 -0.041507 -0.039916 0.013898 0.0038658
-0.012486 -0.0036187 0.0035509 -0.0016057
0.00011767 0.013304 -0.041609 -0.039829 -0.18574 0.24445 -0.0011769 -0.0050385
0.018663 0.0062002 0.0070734 -0.0061348
0.0051973 0.01159 0.013943 0.0038568 -0.0011975 -0.0050783 -0.30592 0.13127
0.0061499 -0.023766 0.0062446 -0.021092
0.011257 0.0041064 -0.012616 -0.0034226 0.018691 0.006191 0.00616 -0.023776
-0.30933 -0.026637 0.01049 -0.051847
0.0098189 0.0087416 0.0034331 -0.0017172 0.0070964 -0.006191 0.0062551 -0.021113
0.010555 -0.051844 -0.33012 0.014492
620000000 -0.2789 0.085096 -0.023143 0.0085274 0.0033798 0.009703 0.0079314 -0.0039393
0.012534 -0.0023027 0.0010289 -0.0018445
-0.023057 0.0084941 -0.40193 0.040859 -0.018628 -0.00028059 -0.0020612 -0.0022638
0.012789 -0.0061562 0.0010167 -0.0039654
0.0034166 0.0097164 -0.018674 -0.00021469 -0.1573 0.25412 -0.0012225 -0.0047429
-0.0033839 -0.0038138 0.0094282 -0.0031487
0.007981 -0.0039319 -0.0020711 -0.0022834 -0.0012229 -0.0047541 -0.26443 0.14211
-0.038238 -0.020977 0.013253 0.028851
0.012412 -0.0023892 0.012763 -0.0061574 -0.0034218 -0.0038405 -0.038284 -0.020895
-0.22767 -0.063878 -0.042001 0.010115
0.0010712 -0.0018245 0.00093666 -0.0039156 0.0093934 -0.0031786 0.013262 0.028814
-0.041947 0.01013 -0.2488 -0.02224
680000000 -0.242 0.17693 -0.026536 -0.015467 0.0045883 0.0054202 0.0013435 -0.0076557
-0.0015846 -0.011646 0.0056165 -0.0069947
-0.026527 -0.015456 -0.39101 0.14209 -0.033355 -0.0027717 -0.0015109 -0.00056944
-0.0016914 -0.0090217 -0.00098369 -0.0017622
0.0046126 0.0053923 -0.033391 -0.002696 -0.1076 0.27621 -0.00078322 -0.0002037
-0.0016855 0.00074169 -0.0029416 -0.0095404
0.00135 -0.0075548 -0.0015837 -0.00053013 -0.00079001 -0.00019475 -0.2204 0.19266
-0.023213 -0.0083826 -0.0090545 -0.011624
-0.0015945 -0.011724 -0.0017069 -0.0090455 -0.0016754 0.00073146 -0.023255 -0.0083528
-0.28035 0.039681 -0.006731 -0.0073552
0.0054525 -0.0070328 -0.0010779 -0.0018753 -0.0029239 -0.0095361 -0.0090606 -0.011557
-0.0067401 -0.0073344 -0.26098 0.084337
740000000 -0.19546 0.16982 -0.040438 0.026342 0.013924 -0.0045164 0.000298 -0.0041072
-0.0043447 -0.0033414 -0.0061682 0.0031886
-0.040483 0.026279 -0.33685 0.16174 -0.038215 0.034735 -5.086e-05 -0.0056662
-0.011859 0.0068793 -0.0015501 -0.0052127
0.013873 -0.004562 -0.038194 0.034904 -0.073602 0.27417 -0.0016615 0.0033359
-0.0021461 -0.0057403 -0.0017961 0.0011466
0.00029772 -0.0040625 -5.9238e-05 -0.0056639 -0.0016615 0.0033413 -0.20477 0.19999
-0.042814 -0.0096188 0.022312 0.015848
-0.004359 -0.0033597 -0.011861 0.0070431 -0.0021851 -0.0057143 -0.042825 -0.0095786
-0.18197 0.069634 -0.043674 -0.00030957
-0.0061783 0.0031323 -0.0015882 -0.0052786 -0.0017868 0.0011739 0.022331 0.015809
-0.043687 -0.00034007 -0.25236 0.089477
800000000 -0.16542 0.21627 -0.023042 0.016257 0.0058622 -0.010358 -0.0048453 -0.0025974
-0.0043788 0.0022084 0.0035937 0.00050976
-0.023023 0.016261 -0.34474 0.23285 -0.0093506 0.034679 -0.0021685 0.0020599
-0.00086129 0.0027291 0.00056599 0.0056685
0.0058075 -0.010368 -0.0093001 0.034748 -0.035129 0.30001 0.00075655 0.0010856
0.00025213 0.0034614 -0.0022016 0.00076124
-0.0048638 -0.0026592 -0.0021715 0.0020208 0.00075379 0.0010679 -0.17633 0.22741
-0.028942 0.013046 0.013918 -0.010902
-0.0043721 0.0022225 -0.00084641 0.00274 0.00026408 0.0034488 -0.028904 0.013105
-0.22677 0.095501 -0.018281 0.020472
0.0035823 0.00042781 0.00061351 0.0056164 -0.0021978 0.00075581 0.013897 -0.010862
-0.018298 0.02043 -0.24671 0.13879
860000000 -0.13075 0.23671 -0.018905 0.030526 -0.0029495 -0.010299 -0.0018222 0.00052485
0.0040537 0.0050984 -0.0031302 -0.0031368
-0.018944 0.030511 -0.29737 0.27719 0.0068867 0.035273 0.00013687 0.0021357
0.0034396 0.00020056 0.0036749 -0.00044634
-0.0029778 -0.010324 0.0069669 0.035277 0.012744 0.30941 -0.00058233 -0.00031103
0.0023793 -0.0016025 0.0018294 0.004328
-0.0018422 0.00058363 0.00014068 0.0021794 -0.00058371 -0.00031194 -0.13931 0.23972
-0.019497 0.018255 -0.0064161 -0.0085548
0.0040684 0.0050902 0.0033823 0.00017097 0.002385 -0.0015983 -0.019482 0.018307
-0.17094 0.15007 -0.025084 0.016692
-0.0031448 -0.0031046 0.0036732 -0.00044283 0.0018281 0.0043373 -0.0064104 -0.0086157
-0.025099 0.016678 -0.19369 0.18586
920000000 -0.10788 0.26053 0.0040308 0.039181 -0.0094093 -0.0050269 -0.0020626 0.0019002
0.001134 0.0018242 0.0026823 -0.00094701
0.0040135 0.039152 -0.26986 0.29919 0.028222 0.02366 0.0015892 0.0012354
0.0072404 -8.5431e-05 0.0046663 -0.0026631
-0.0094269 -0.0049956 0.028323 0.023607 0.058623 0.31128 0.0018259 5.1198e-05
0.00078195 -1.5126e-06 0.0010872 -0.0013698
-0.0020926 0.0018667 0.0015941 0.0012227 0.0018378 5.7996e-05 -0.11592 0.25716
-0.01234 0.031023 0.0039367 -0.0068671
0.0011869 0.0018754 0.0072818 -0.00011241 0.00078049 5.0041e-06 -0.012276 0.031053
-0.16119 0.15707 -0.0024824 0.027768
0.0027479 -0.00098638 0.0047278 -0.0027659 0.0010921 -0.0013669 0.0039111 -0.0068509
-0.0025141 0.027763 -0.2038 0.19909
980000000 -0.061874 0.28215 0.016435 0.031176 -0.009691 0.0044737 0.0019935 0.0038759
0.0038717 -0.0015246 -0.0033199 -0.0023049
0.016388 0.03114 -0.21726 0.33541 0.033752 0.0060278 0.0020396 -0.00013173
0.0016781 -0.005996 -0.00058808 -0.0027309
-0.0096765 0.0045037 0.033789 0.0059256 0.10481 0.30603 0.00077523 -0.0010782
0.00055663 -0.0017923 0.0015631 -0.00024096
0.0019568 0.0038745 0.0020314 -0.00014939 0.00077842 -0.0010795 -0.077597 0.26841
0.0070502 0.030371 -0.0097233 -0.0074168
0.0038762 -0.0015235 0.0016584 -0.0060101 0.00056644 -0.0017849 0.007106 0.03037
-0.12775 0.18782 0.005324 0.020053
-0.0033929 -0.0022956 -0.00056395 -0.0026841 0.0015572 -0.00024784 -0.0097104 -0.0074061
0.005311 0.020053 -0.16191 0.24547
1040000000 -0.020468 0.29114 0.033347 0.020225 -0.0014774 0.0074691 0.0028011 0.00072114
0.00050366 -0.0034788 -0.00039457 -0.001565
0.033279 0.020233 -0.18213 0.34952 0.03067 -0.014379 0.0015919 -0.0017981
-0.0022237 -0.0023825 -0.001135 -0.0031478
-0.0014289 0.0074677 0.030646 -0.01449 0.15105 0.29345 -0.00047919 -0.0016393
-0.0015439 -0.00088341 -0.00048904 -0.0011377
0.0028054 0.00068885 0.0015671 -0.001776 -0.00046248 -0.0016416 -0.050237 0.27899
0.019124 0.019636 -0.0026498 0.0014593
0.00047451 -0.0034384 -0.0022352 -0.0023929 -0.0015401 -0.00087156 0.019159 0.019625
-0.094851 0.19623 0.013745 0.018834
-0.00034398 -0.0015414 -0.0011397 -0.0031379 -0.00048375 -0.0011335 -0.0026528 0.0014536
0.013756 0.018838 -0.14041 0.26626
1100000000 0.024633 0.30143 0.037364 -0.0027141 0.0033064 0.0043695 0.0025625 -0.0010655
-0.0022443 -0.0029128 -0.0038631 -0.00028047
0.037321 -0.0026905 -0.13871 0.3689 0.016407 -0.02817 7.2961e-06 -0.0017993
-0.0035525 -0.00074253 -0.0033459 -0.00061007
0.0033303 0.0043612 0.016304 -0.02826 0.1975 0.27438 -0.0019697 0.00018425
-0.0018473 0.00051175 -0.0011817 -0.00067081
0.0025598 -0.0010657 2.6601e-05 -0.0018097 -0.0019662 0.00017422 -0.0097264 0.28482
0.02527 0.0062436 -0.002434 0.00043716
-0.0022426 -0.0029335 -0.0035414 -0.00074769 -0.0018492 0.00051272 0.025273 0.0062174
-0.075283 0.21022 0.020382 0.0096073
-0.0039001 -0.0002836 -0.0033738 -0.00062853 -0.0011894 -0.00067438 -0.0024247 0.00046023
0.020356 0.0096415 -0.093912 0.29713
1160000000 0.075639 0.29794 0.025668 -0.020226 0.003402 -0.00048066 -0.0002844 -0.0026289
-0.0041002 -0.00092712 -0.0011858 0.0041886
0.025654 -0.020188 -0.094686 0.37425 -0.003145 -0.029776 -0.0015941 -0.0017158
-0.0025346 0.0024653 -0.0016586 0.0019682
0.0034241 -0.00050537 -0.0032825 -0.029775 0.24117 0.24433 -0.00078129 0.0017673
-0.00056513 0.0018874 -0.0010908 0.00029028
-0.00027617 -0.002643 -0.0016298 -0.0016972 -0.00078405 0.0017649 0.029962 0.28228
0.021986 -0.010148 -0.0031663 0.0053325
-0.0041407 -0.00091071 -0.0025214 0.0024758 -0.00058057 0.0018953 0.021973 -0.010171
-0.041056 0.21928 0.019113 -0.00020208
-0.0011643 0.0042465 -0.0016779 0.0019507 -0.0010904 0.00030176 -0.003147 0.0053261
0.019105 -0.00021951 -0.047411 0.3002
1220000000 0.1197 0.28883 0.01233 -0.030612 -0.0011266 -0.001456 -0.00012444 -0.00093758
-0.0028343 0.0022667 0.0011058 0.0020953
0.012325 -0.030582 -0.050074 0.38807 -0.01705 -0.022046 -0.0026133 0.00058866
6.7723e-05 0.0030315 -0.0008186 0.0019502
-0.0011343 -0.0014412 -0.017174 -0.021999 0.28066 0.20592 0.00079769 0.0017081
0.00048557 0.0012108 0.00016248 0.00072944
-0.00010466 -0.00092339 -0.0026145 0.00060078 0.00079241 0.001703 0.070263 0.27412
0.011209 -0.017222 0.0023895 0.0014562
-0.0028219 0.0022704 9.181e-05 0.0030367 0.00047975 0.0012055 0.01118 -0.017235
-0.017291 0.22919 0.014756 -0.012948
0.0010918 0.0020856 -0.00081073 0.0019276 0.00016511 0.00072745 0.0023779 0.0014675
0.014735 -0.012946 -0.01676 0.31675
1280000000 0.17035 0.26904 -0.006964 -0.029787 -0.0020033 0.0019385 -0.00095789 -0.0020211
-0.00072701 0.003295 0.0026168 0.0014376
-0.0069274 -0.029761 -0.0031289 0.38003 -0.024374 -0.0087194 -0.00090362 0.0014645
0.0016705 0.0016037 0.00074211 0.0021246
-0.0019916 0.0019394 -0.024434 -0.0086188 0.31159 0.16245 0.0014976 -0.00012491
0.0011155 0.00026081 0.00024853 0.00036246
-0.00097523 -0.0020177 -0.00089637 0.001487 0.001493 -0.00012921 0.1073 0.25797
0.0013533 -0.019621 0.00014163 0.0002685
-0.00071769 0.0033026 0.0016695 0.0015925 0.0011197 0.00027325 0.0013289 -0.019628
0.01975 0.2337 0.0036425 -0.015716
0.0026394 0.0014421 0.0007399 0.0021138 0.00025065 0.0003675 0.00015691 0.00025289
0.0036521 -0.015695 0.031796 0.32023
1340000000 0.20811 0.23665 -0.017386 -0.020418 0.0003791 0.0043097 -0.0018552 -0.00076907
0.001413 0.0027801 0.001821 -0.0013792
-0.017345 -0.020395 0.036675 0.37223 -0.021814 0.004377 -6.9228e-05 0.0019665
0.0018789 0.00077455 0.0011578 0.00087952
0.00039506 0.0043173 -0.021814 0.004494 0.33375 0.1152 0.00098732 -0.00093085
0.00059034 -0.00040046 0.00012697 0.00032483
-0.0018448 -0.00075199 -6.8422e-05 0.0019673 0.00098755 -0.00093061 0.14056 0.23736
-0.00853 -0.017052 0.00094715 0.00025115
0.001442 0.0027664 0.0018829 0.00078732 0.0005962 -0.00039897 -0.0085641 -0.01704
0.050219 0.22943 -0.0035121 -0.014379
0.0018189 -0.0013737 0.0011719 0.00088107 0.00013024 0.00032854 0.00093616 0.00026209
-0.0035262 -0.014383 0.069389 0.31569
1400000000 0.24244 0.19985 -0.02402 -0.0086106 0.0049392 0.0032665 -0.0021988 0.00062823
0.0026589 0.0010461 0.00032233 -0.0016873
-0.023982 -0.0086236 0.074766 0.35958 -0.014907 0.012705 0.0012613 0.0012056
0.0011968 -0.00070346 0.0011907 0.0001703
0.0049607 0.0032198 -0.014868 0.012788 0.34722 0.062109 1.2939e-05 -0.0015238
0.00016488 -0.00038862 0.00040668 0.00033354
-0.0021934 0.00063305 0.0012788 0.0012121 2.58e-05 -0.0015198 0.17008 0.20866
-0.014906 -0.0099189 -0.00081147 -0.00039018
0.0026648 0.0010247 0.0011823 -0.00070996 0.0001552 -0.00039137 -0.014929 -0.0098882
0.083819 0.22552 -0.0099811 -0.0093677
0.00029787 -0.0016859 0.0011996 0.00017844 0.00040504 0.00033802 -0.00078966 -0.00038661
-0.0099713 -0.0093725 0.11476 0.30572
1460000000 0.26588 0.15653 -0.021325 0.0042468 0.0054708 -0.0016873 -0.0014885 0.0016723
0.0021512 -0.00053207 -0.00021515 -0.00099629
-0.021305 0.0042385 0.10931 0.33751 -0.0056824 0.015613 0.0016134 0.00022102
0.00097455 -0.0012745 0.00126 -0.00062123
0.005466 -0.0017125 -0.0056076 0.015658 0.35386 0.0082523 -0.0011632 -0.0011478
0.00024196 -0.00016073 0.0008879 -0.00029464
-0.0014833 0.0017059 0.001592 0.0002077 -0.0011675 -0.0011508 0.19682 0.1796
-0.015811 -0.002915 -0.0011014 0.0019059
0.0021382 -0.00053447 0.00096521 -0.001281 0.0002369 -0.00016541 -0.015808 -0.0028794
0.11402 0.21167 -0.012337 -0.003275
-0.00021563 -0.0010212 0.0012605 -0.00062093 0.00089627 -0.0002787 -0.0011221 0.0019177
-0.012326 -0.0032816 0.14822 0.28528
1520000000 0.27897 0.11545 -0.015732 0.010268 0.0032702 -0.0041229 0.00016638 0.0026117
0.0021451 -0.0019348 -0.0011974 -2.7835e-05
-0.015721 0.010247 0.14272 0.3233 0.0020774 0.01292 0.0016477 -0.00066565
0.00010698 -0.0010208 0.00027914 -0.0011002
0.0032425 -0.0041386 0.0021517 0.012921 0.34728 -0.047363 -0.00087172 -0.00034599
0.00071474 -0.00095675 0.00014247 -0.00029885
0.00015735 0.0026081 0.001639 -0.00067967 -0.00086855 -0.00034821 0.22021 0.14159
-0.014966 0.003062 0.0014903 0.0020719
0.0021401 -0.0019664 9.5971e-05 -0.001023 0.00071384 -0.00096606 -0.014972 0.0030932
0.14215 0.19863 -0.012075 0.001543
-0.0012086 -1.8687e-05 0.00027826 -0.0011011 0.00013855 -0.00029907 0.0014949 0.002079
-0.012074 0.001539 0.18136 0.26583
1580000000 0.28948 0.069995 -0.0087515 0.013963 -0.0010552 -0.0048296 0.0014343 0.0018686
-0.00026906 -0.0022119 -0.00012426 0.00035607
-0.008754 0.01395 0.17006 0.29872 0.0055924 0.0076745 0.00062103 -0.0015301
-0.00047508 -0.0011174 -0.00023636 -0.00083579
-0.0010721 -0.0048371 0.0056483 0.0076482 0.32789 -0.10483 -0.0015397 0.00041563
-0.00043017 -0.0012999 0.00039201 -0.00060602
0.0014645 0.0018551 0.00062345 -0.0015364 -0.0015346 0.00040683 0.23434 0.10239
-0.011249 0.0079856 0.0020377 0.00081605
-0.000284 -0.0022121 -0.00047813 -0.0011179 -0.00042519 -0.0013061 -0.011225 0.0080173
0.16651 0.18129 -0.0096011 0.007535
-0.00012561 0.00036689 -0.00024631 -0.00084292 0.00039107 -0.00061144 0.0020452 0.00080105
-0.009611 0.0075324 0.21433 0.23962
1640000000 0.2925 0.029179 -0.0015727 0.012817 -0.0030036 -0.0023698 0.0026978 0.0010908
-0.00083643 -0.001565 -0.00039894 0.00062076
-0.0015847 0.012802 0.19947 0.27447 0.0057669 0.0026856 -0.00053561 -0.0018235
-0.0009992 -0.00050113 -0.00060889 -0.00060311
-0.0029992 -0.0023656 0.0057994 0.0026665 0.2996 -0.15376 -0.00079941 0.0013197
-0.0010635 -0.0010474 -0.00035752 -0.00043425
0.0027053 0.0010842 -0.0005356 -0.0018265 -0.00080739 0.0013161 0.24705 0.053671
-0.0068614 0.0089018 0.0024329 -0.00058829
-0.00083608 -0.0015638 -0.00099415 -0.00050506 -0.0010593 -0.0010469 -0.006846 0.0089308
0.18968 0.15793 -0.0047129 0.0098266
-0.0004053 0.00062084 -0.00061203 -0.00060228 -0.00035691 -0.00044185 0.0024445 -0.00058545
-0.0047197 0.0098267 0.24013 0.20927
1700000000 0.28663 -0.015859 0.0021717 0.0099062 -0.0034738 0.00034917 0.0031654 -0.001185
-0.0020047 -0.00060059 0.00056527 0.00034958
0.0021702 0.0098974 0.21778 0.24361 0.0033045 -0.00012378 -0.0014083 -0.00071392
-0.00078086 -4.7343e-05 -0.00090905 -0.00042418
-0.0034892 0.0003502 0.003316 -0.00013158 0.25682 -0.19329 0.00020646 0.0016552
-0.0020171 -5.117e-05 -0.0004464 -0.00081249
0.0031717 -0.0011929 -0.0014317 -0.00071267 0.00020214 0.0016525 0.24434 0.003842
-0.0039162 0.0092448 0.0015841 -0.0021375
-0.0020171 -0.00058086 -0.00078541 -4.749e-05 -0.0020181 -5.1561e-05 -0.0039026 0.0092554
0.20769 0.13856 0.00020053 0.0098932
0.00057661 0.00033242 -0.00090635 -0.00040883 -0.00046307 -0.00081686 0.001585 -0.0021573
0.00019979 0.0098935 0.25737 0.17502
1760000000 0.27565 -0.06445 0.0045417 0.0064293 -0.002137 0.0011772 0.0013866 -0.0034729
-0.001341 0.00061725 0.00034812 -0.00053645
0.0045334 0.0064246 0.24401 0.20457 0.00080186 -0.0015723 -0.0013061 5.351e-05
-0.0011504 0.00091013 -0.00055858 0.00044833
-0.0021187 0.0011723 0.00081197 -0.0015622 0.20941 -0.22627 0.0010748 0.0012477
-0.0012449 0.0013995 -0.0013429 -0.00060167
0.0013658 -0.0034729 -0.0012816 5.5817e-05 0.0010683 0.0012439 0.23564 -0.047761
-0.00089997 0.0081827 -0.00014366 -0.0022613
-0.0013299 0.00061851 -0.0011224 0.00091384 -0.0012436 0.0013956 -0.00088093 0.0081933
0.22291 0.10476 0.0041286 0.0074413
0.00034532 -0.00052016 -0.00058605 0.00045365 -0.0013396 -0.00059521 -0.00013263 -0.0022548
0.0041209 0.0074378 0.27107 0.13764
1820000000 0.25245 -0.10199 0.0046335 0.0028036 5.2527e-05 0.0024513 -0.00090034 -0.0032133
-0.0010588 0.00088587 4.4379e-05 -0.00021436
0.0046298 0.0028101 0.25468 0.17518 -0.0014817 -4.3e-05 -0.0014392 0.00089806
-4.728e-05 0.0012391 -0.00055672 0.00053119
5.5259e-05 0.0024653 -0.0014778 -4.1019e-05 0.15855 -0.2424 0.0016513 0.00038739
-0.00018555 0.0023336 -0.0015493 0.0003475
-0.00091957 -0.0032088 -0.0014406 0.0009113 0.0016631 0.00041293 0.20625 -0.095303
0.0003806 0.0067338 -0.0015988 -0.0017437
-0.0010543 0.00088471 -4.1941e-05 0.0012356 -0.00019765 0.0023289 0.00039239 0.0067518
0.24089 0.076682 0.0051318 0.0035554
8.8663e-06 -0.00022315 -0.00053755 0.0005222 -0.0015614 0.00035004 -0.001621 -0.0017432
0.0051311 0.0035575 0.2737 0.10169
1880000000 0.21805 -0.1431 0.0024466 0.00050808 -0.0003685 0.0021784 -0.0028861 -0.002295
-0.00019886 0.0018042 0.00011967 -0.00061975
0.0024453 0.00051155 0.25971 0.12918 -0.0032714 0.0023083 -0.00024133 0.0018426
0.00059735 0.00136 0.00013217 0.00091459
-0.00040346 0.002164 -0.0032616 0.0023334 0.10671 -0.25139 0.001962 -0.0010099
0.0015718 0.0019133 -0.0011417 0.001516
-0.002886 -0.0022717 -0.00023243 0.0018566 0.001958 -0.0010186 0.16581 -0.13594
0.0010785 0.004736 -0.0023262 0.00010259
-0.0001725 0.0018023 0.00061888 0.0013477 0.0015815 0.0019097 0.0010867 0.0047199
0.24553 0.045976 0.0053899 0.0011639
0.00012878 -0.00065231 0.00015349 0.00090793 -0.0011234 0.0015139 -0.0023037 0.000123
0.0053912 0.0011621 0.27421 0.067552
1940000000 0.17892 -0.16946 0.00021577 -0.0011652 0.0017223 0.0019585 -0.0038864 0.00035725
0.0011256 0.0010095 -0.00082522 -0.00051479
0.00022625 -0.001167 0.26124 0.09788 -0.0016286 0.0049756 0.00101 0.0014358
0.0018601 0.00047542 0.00082511 0.00020546
0.0017155 0.0019524 -0.0016064 0.0049861 0.061838 -0.24466 0.00038504 -0.0024431
0.0023518 0.00040423 0.00021387 0.0015943
-0.0038767 0.00037767 0.0010247 0.0014266 0.00038919 -0.0024351 0.11316 -0.16654
-2.5295e-05 0.0037007 -0.0016124 0.0015956
0.0011279 0.0010291 0.0018715 0.00044916 0.0023519 0.00040059 -1.3368e-05 0.0037268
0.24937 0.008349 0.0037945 -0.0021956
-0.00083102 -0.00048686 0.0008319 0.00020805 0.00022094 0.0015845 -0.0016229 0.0015823
0.0037921 -0.0021929 0.26313 0.031467
2000000000 0.13286 -0.18493 -0.0034226 0.00072372 0.0027929 0.0013224 -0.0022083 0.0036763
0.0012766 0.0003959 -0.00056844 0.00046627
-0.0034252 0.00072037 0.24806 0.062467 -0.00075946 0.0069341 0.001854 0.00045223
0.0012966 -0.0012086 0.00035701 2.3643e-05
0.0028156 0.0012775 -0.00070354 0.0069482 0.018475 -0.23043 -0.0013522 -0.0015303
0.0020847 -0.0011062 0.0014893 0.0014011
-0.0021937 0.0037136 0.0018604 0.00046424 -0.0013452 -0.0015239 0.059677 -0.17705
-0.0014387 0.0037805 -0.0001846 0.002033
0.0012833 0.0004036 0.0012818 -0.0012057 0.0020844 -0.0011102 -0.0014163 0.0037413
0.24537 -0.024426 0.00072097 -0.0033209
