!Keysight Technologies,M9804A,MY58100912,A.14.10.03
!Date: Thursday, April 27, 2023 10:28:33
!Correction: S11(C  6-Port  ) 
!S12(C  6-Port  ) 
!S13(C  6-Port  ) 
!S14(C  6-Port  ) 
!S15(C  6-Port  ) 
!S16(C  6-Port  ) 
!S21(C  6-Port  ) 
!S22(C  6-Port  ) 
!S23(C  6-Port  ) 
!S24(C  6-Port  ) 
!S25(C  6-Port  ) 
!S26(C  6-Port  ) 
!S31(C  6-Port  ) 
!S32(C  6-Port  ) 
!S33(C  6-Port  ) 
!S34(C  6-Port  ) 
!S35(C  6-Port  ) 
!S36(C  6-Port  ) 
!S41(C  6-Port  ) 
!S42(C  6-Port  ) 
!S43(C  6-Port  ) 
!S44(C  6-Port  ) 
!S45(C  6-Port  ) 
!S46(C  6-Port  ) 
!S51(C  6-Port  ) 
!S52(C  6-Port  ) 
!S53(C  6-Port  ) 
!S54(C  6-Port  ) 
!S55(C  6-Port  ) 
!S56(C  6-Port  ) 
!S61(C  6-Port  ) 
!S62(C  6-Port  ) 
!S63(C  6-Port  ) 
!S64(C  6-Port  ) 
!S65(C  6-Port  ) 
!S66(C  6-Port  ) 
!S6P File: Measurement: :
# Hz S  RI   R 50
500000000 -0.33008 -0.064225 -0.0091831 -0.0012275 -0.0085692 0.013009 -0.0032928 0.011663
0.012404 0.0058576 -0.0036803 0.0072312
-0.0094804 -0.0010398 -0.41198 -0.073196 0.0087508 -0.010616 0.0020178 0.012431
0.0081983 0.0027249 0.0021979 0.014206
-0.0089384 0.012689 0.0087399 -0.010439 -0.26552 0.19055 0.006967 0.0035812
-0.0019636 0.0085487 0.00031516 0.012346
-0.0037501 0.011891 0.0021139 0.012514 0.0069135 0.0036243 -0.32904 0.035849
-0.018807 -0.0036644 0.018747 0.024843
0.012847 0.0058901 0.0085816 0.0028708 -0.0018948 0.0085228 -0.018711 -0.0035905
-0.23609 -0.21552 -0.026707 0.0054841
-0.0037571 0.0072902 0.0025611 0.014278 0.00021914 0.01235 0.018897 0.024747
-0.026689 0.005491 -0.26194 -0.14314
560000000 -0.3204 0.10299 -0.021473 -0.067019 -6.9561e-05 0.013846 0.0048241 0.012631
0.010467 0.0050422 0.010559 0.0089778
-0.021212 -0.067114 -0.373 0.090911 -0.041701 -0.03971 0.014708 0.0035725
-0.013004 -0.004875 0.0047823 -0.00069197
-0.00019879 0.01349 -0.041518 -0.039595 -0.18673 0.24314 -0.0010397 -0.0048848
0.018014 0.0059338 0.0074863 -0.0055692
0.0049574 0.012404 0.014774 0.0038123 -0.0010558 -0.0050234 -0.30596 0.12897
0.0058166 -0.023459 0.0058337 -0.021573
0.010341 0.0051441 -0.012847 -0.0051586 0.018116 0.0060297 0.0058986 -0.023434
-0.30708 -0.030898 0.010238 -0.050484
0.010861 0.0091673 0.0047007 -8.4822e-05 0.0075464 -0.005486 0.0057618 -0.021475
0.010256 -0.050616 -0.33145 0.011148
620000000 -0.27873 0.082312 -0.023441 0.0086871 0.0034262 0.0096233 0.0083096 -0.004437
0.012241 -0.0025324 0.00033849 -0.0016755
-0.023249 0.0084375 -0.40232 0.038045 -0.018646 0.00020447 -0.0015963 -0.0020952
0.012309 -0.0061061 0.001168 -0.0029635
0.0034597 0.009738 -0.018626 0.00029111 -0.15788 0.25303 -0.00044142 -0.0054835
-0.0040271 -0.0026219 0.010419 -0.0031583
0.0080473 -0.0044107 -0.0015924 -0.0021694 -0.0005456 -0.0053805 -0.2642 0.14013
-0.039769 -0.019659 0.014622 0.028054
0.012359 -0.0026227 0.012684 -0.0060426 -0.0039736 -0.0026533 -0.039838 -0.019852
-0.2245 -0.067796 -0.04447 0.012123
-0.00047403 -0.0022709 0.0013497 -0.0031835 0.010247 -0.0029779 0.014532 0.027963
-0.044531 0.012141 -0.24647 -0.027096
680000000 -0.24363 0.1759 -0.026612 -0.015386 0.0047117 0.0055984 0.0018356 -0.0071764
-0.0015346 -0.011383 0.0063878 -0.0067885
-0.026476 -0.015202 -0.39148 0.13954 -0.032809 -0.0028985 -0.0016242 -9.0914e-05
-0.0014549 -0.0097005 -0.0015245 -0.0021259
0.0046584 0.0057346 -0.032915 -0.0028293 -0.10784 0.27512 -0.00063083 -0.00021676
-0.0015213 0.00036072 -0.002977 -0.0097124
0.0011569 -0.0074258 -0.0015576 -7.7759e-05 -0.00066634 -0.0001339 -0.22162 0.19216
-0.023155 -0.0079905 -0.008982 -0.010224
-0.0018792 -0.010959 -0.0015558 -0.0096703 -0.001475 0.00033916 -0.023124 -0.0080087
-0.28176 0.036796 -0.0064217 -0.0079446
0.0060073 -0.0066654 -0.0013655 -0.0020433 -0.0028835 -0.0096398 -0.0091091 -0.010073
-0.0063264 -0.0080134 -0.26162 0.079451
740000000 -0.19618 0.16852 -0.040798 0.026292 0.014068 -0.0044335 3.2959e-05 -0.0039861
-0.0038808 -0.0033315 -0.0069699 0.0036982
-0.040737 0.026258 -0.33761 0.15925 -0.038249 0.034864 0.00015481 -0.006474
-0.013182 0.0075272 -0.00086329 -0.0065156
0.014102 -0.0045447 -0.038454 0.034908 -0.074275 0.27319 -0.0017313 0.0034598
-0.0022359 -0.0060057 -0.001542 0.0011922
0.00013697 -0.0040699 0.00010796 -0.0060593 -0.0017566 0.0035205 -0.20503 0.1998
-0.043346 -0.0095872 0.022894 0.016407
-0.0041694 -0.003199 -0.013484 0.007094 -0.0020848 -0.0060081 -0.043383 -0.0094002
-0.18189 0.065601 -0.044395 -0.00031475
-0.0067493 0.0033146 -0.00074511 -0.006312 -0.0016237 0.0013396 0.022885 0.016198
-0.044179 -0.00030443 -0.25247 0.085432
800000000 -0.16604 0.21473 -0.022755 0.015927 0.0060103 -0.010581 -0.0043605 -0.0025609
-0.0047037 0.0018922 0.0044607 5.8135e-05
-0.022718 0.01597 -0.34539 0.23043 -0.0095601 0.034416 -0.0020186 0.0019963
-0.00082662 0.0023367 0.00095572 0.0053529
0.0059815 -0.010516 -0.0093647 0.034473 -0.035797 0.29879 0.00095102 0.0011894
-2.8614e-05 0.003411 -0.0018837 0.00074974
-0.0046403 -0.0025793 -0.0020378 0.0020059 0.00091582 0.0011404 -0.17627 0.22699
-0.028758 0.012599 0.014818 -0.010692
-0.0044264 0.0021155 -0.00077848 0.0024481 3.5135e-05 0.0034191 -0.028781 0.012632
-0.22746 0.092899 -0.017836 0.020161
0.0044185 0.0002833 0.00087136 0.0052327 -0.001917 0.00064769 0.014769 -0.010578
-0.017749 0.020161 -0.24758 0.13545
860000000 -0.1327 0.2354 -0.018951 0.030632 -0.0030092 -0.010304 -0.0020134 0.00071822
0.0040996 0.0056125 -0.0043544 -0.0030402
-0.019004 0.030621 -0.29875 0.27508 0.0066613 0.035329 0.00020692 0.0024346
0.0034902 0.00057974 0.0027203 0.0004289
-0.0029988 -0.01036 0.0068545 0.035344 0.011396 0.30849 -0.00056919 -0.0001901
0.0021169 -0.001465 0.0014883 0.0045773
-0.0020227 0.0006389 6.5407e-05 0.0024062 -0.00057541 -0.0001234 -0.13999 0.23849
-0.019037 0.018039 -0.0065361 -0.0089763
0.0038021 0.0055723 0.0034074 0.00062262 0.0021759 -0.0012989 -0.018994 0.01806
-0.17179 0.14779 -0.02686 0.016721
-0.004273 -0.0033214 0.0029928 0.00023791 0.0014827 0.0045246 -0.0064194 -0.0091042
-0.026983 0.01671 -0.19816 0.18295
920000000 -0.10952 0.25909 0.0039619 0.039233 -0.0095058 -0.0052866 -0.0018782 0.0015779
0.00081073 0.0020758 0.0030004 -0.0011618
0.0039352 0.039176 -0.27126 0.29746 0.028142 0.023807 0.0013798 0.001079
0.0077154 0.00030643 0.0046843 -0.0028935
-0.0095185 -0.0052135 0.0283 0.023774 0.057341 0.31084 0.0017767 3.7243e-05
0.00092226 -3.0351e-05 0.0010172 -0.0014462
-0.0020897 0.0016047 0.0013813 0.001124 0.0017412 1.7766e-05 -0.11634 0.25605
-0.012065 0.030947 0.0041139 -0.006781
0.0011162 0.0019132 0.0078649 0.00018523 0.00098736 -3.0492e-05 -0.012006 0.031006
-0.1621 0.15419 -0.0007831 0.027399
0.0028362 -0.0013371 0.0046323 -0.0028565 0.00096983 -0.0015829 0.0040823 -0.0067759
-0.00081593 0.027336 -0.20606 0.19542
980000000 -0.06336 0.28059 0.016235 0.031006 -0.0098029 0.0043133 0.0016791 0.0038857
0.0040566 -0.0014773 -0.003342 -0.0027585
0.01628 0.031079 -0.2188 0.33345 0.033733 0.0061955 0.0019994 -0.00026493
0.0017131 -0.0061551 -0.00021814 -0.002941
-0.0097883 0.0044041 0.033793 0.0060432 0.10351 0.30536 0.00077897 -0.0011728
0.00062184 -0.0018449 0.0015254 -0.00036154
0.0018279 0.0038733 0.0020294 -0.00024695 0.00077874 -0.0011697 -0.078231 0.26772
0.0066797 0.030565 -0.0096222 -0.007556
0.0039451 -0.0014182 0.0016192 -0.0063098 0.00059308 -0.0018757 0.0067443 0.030524
-0.12999 0.18577 0.0049177 0.020583
-0.0033461 -0.0027489 -0.00026662 -0.0030362 0.001503 -0.00040059 -0.0095927 -0.0075795
0.0049237 0.020567 -0.16469 0.24281
1040000000 -0.022763 0.29052 0.03318 0.020247 -0.0015785 0.0074471 0.0027557 0.00065507
0.00029263 -0.0032665 0.0002429 -0.0017698
0.033187 0.020298 -0.18419 0.34797 0.030793 -0.014224 0.0016345 -0.001789
-0.002407 -0.0024007 -0.0010672 -0.0032296
-0.0015667 0.007453 0.030763 -0.014389 0.14951 0.29341 -0.00047849 -0.0016204
-0.0016024 -0.00098405 -0.00055777 -0.0011397
0.0026934 0.00079875 0.0015996 -0.0018213 -0.00048837 -0.0016308 -0.051347 0.27791
0.019209 0.019554 -0.002668 0.0010667
0.00052574 -0.0034407 -0.0023996 -0.0026172 -0.0015745 -0.001017 0.019231 0.019528
-0.09772 0.19423 0.014111 0.019529
8.5465e-05 -0.0017486 -0.0012192 -0.0031783 -0.00053386 -0.0012009 -0.0027089 0.0011127
0.014134 0.019492 -0.14347 0.2639
1100000000 0.022381 0.3007 0.03736 -0.0024524 0.0031787 0.0044614 0.0024978 -0.0010702
-0.0023462 -0.0030659 -0.0042477 -0.00015742
0.037254 -0.0024231 -0.14046 0.36764 0.016579 -0.028196 4.0772e-05 -0.0018305
-0.0037079 -0.00073347 -0.0036548 -0.00038709
0.0032285 0.0044425 0.01648 -0.028304 0.19639 0.27437 -0.00203 0.00018452
-0.0018339 0.00046494 -0.001179 -0.00055897
0.0024493 -0.0010634 -6.9282e-06 -0.0018452 -0.0020209 0.00017508 -0.010898 0.28385
0.025112 0.0060923 -0.0026229 1.9777e-05
-0.0024451 -0.0030411 -0.0038306 -0.00066251 -0.0018457 0.00050324 0.025102 0.006037
-0.077843 0.20822 0.019686 0.0098338
-0.0042232 -0.00011189 -0.0035978 -0.00035817 -0.0011361 -0.0005632 -0.0025989 4.7173e-05
0.019612 0.0098451 -0.097047 0.29552
1160000000 0.072983 0.29773 0.02576 -0.0202 0.0033478 -0.00044296 -0.00023844 -0.0025126
-0.0041606 -0.0010663 -0.0012833 0.0042367
0.025738 -0.020177 -0.097123 0.37298 -0.0030383 -0.029865 -0.0015974 -0.0017065
-0.0026923 0.002537 -0.001596 0.0018318
0.0033261 -0.00043884 -0.0032076 -0.029901 0.23971 0.24448 -0.00078648 0.0018109
-0.00053444 0.0019115 -0.0011798 0.00031412
-0.00018569 -0.0025426 -0.0015605 -0.0017216 -0.00078842 0.0018026 0.028151 0.28153
0.021947 -0.01015 -0.0037161 0.0052715
-0.0040879 -0.0009384 -0.0026881 0.0025529 -0.00055951 0.0019481 0.021935 -0.010179
-0.043608 0.21732 0.019132 6.7837e-05
-0.0011916 0.00425 -0.0016519 0.0018309 -0.0011494 0.00036209 -0.0037048 0.0052604
0.019161 6.3693e-05 -0.050149 0.29949
1220000000 0.11698 0.28938 0.012382 -0.03061 -0.0011917 -0.0013405 -2.5529e-05 -0.00085359
-0.0028302 0.0022023 0.0010482 0.0021039
0.012365 -0.030568 -0.052379 0.38757 -0.017075 -0.022232 -0.0026366 0.00051238
2.9925e-05 0.0031069 -0.0007681 0.0019755
-0.001206 -0.0013286 -0.01719 -0.022179 0.27934 0.20645 0.00076485 0.0017914
0.00044729 0.001202 0.00019223 0.0008003
1.0596e-05 -0.00089508 -0.0026624 0.00054658 0.00076405 0.0018103 0.06866 0.27404
0.011213 -0.017057 0.0024616 0.0014161
-0.0028622 0.002263 3.6103e-05 0.0030869 0.00046837 0.0012096 0.011187 -0.017063
-0.020438 0.22838 0.015087 -0.012815
0.0010876 0.0021662 -0.0008058 0.0020879 0.00018943 0.00077134 0.0024483 0.0014497
0.015087 -0.0128 -0.019429 0.31667
1280000000 0.16789 0.26965 -0.0068811 -0.029878 -0.0019795 0.0019723 -0.00092423 -0.0020895
-0.00080709 0.0034166 0.0026473 0.0013099
-0.0068346 -0.029859 -0.0055121 0.37941 -0.024562 -0.0088396 -0.00088804 0.0014974
0.0017402 0.0017746 0.00071083 0.0021475
-0.0020241 0.0020339 -0.024637 -0.0087571 0.31041 0.16291 0.0016736 -3.6029e-05
0.0011837 0.00025329 0.00038314 0.00035665
-0.00095345 -0.0020785 -0.00090085 0.001479 0.0016517 -4.4594e-05 0.10574 0.25775
0.00126 -0.019495 0.00014157 0.00025933
-0.00077532 0.0033413 0.0018091 0.0017147 0.0011857 0.0002707 0.0012174 -0.019494
0.016569 0.23238 0.0036479 -0.015782
0.0027576 0.0013963 0.00076541 0.0021225 0.00042469 0.00033127 0.00013725 0.00026445
0.0036166 -0.015749 0.028362 0.31997
1340000000 0.20545 0.23822 -0.017385 -0.020386 0.00047201 0.0044197 -0.0018215 -0.00077653
0.0014185 0.002798 0.0018614 -0.0013712
-0.017359 -0.020383 0.034054 0.37236 -0.021978 0.0044067 -7.5731e-05 0.0019846
0.0019368 0.00072957 0.0012242 0.00082197
0.00047496 0.0044239 -0.022014 0.0045037 0.33255 0.11614 0.00092722 -0.00096454
0.00064614 -0.00056934 6.9862e-05 0.00021057
-0.0018625 -0.0008487 -4.5637e-05 0.0019784 0.00093291 -0.00097832 0.13904 0.23803
-0.0085327 -0.016857 0.0010759 0.00036315
0.0014221 0.0027934 0.0019746 0.00075121 0.00062833 -0.00054813 -0.0085626 -0.016855
0.046865 0.22914 -0.00355 -0.014468
0.0019177 -0.0014037 0.0011858 0.00075065 7.4278e-05 0.0001845 0.0010447 0.00038433
-0.0035535 -0.014478 0.066348 0.31604
1400000000 0.24077 0.2016 -0.024019 -0.0085578 0.0050623 0.0033635 -0.0022157 0.0007007
0.0026888 0.0010646 0.00033262 -0.0017722
-0.024016 -0.0085658 0.072823 0.35993 -0.015027 0.012851 0.0013294 0.0012771
0.0012647 -0.00082046 0.0011754 0.0001658
0.0050778 0.0033485 -0.014981 0.012991 0.34643 0.06326 4.3905e-05 -0.0015286
0.00020909 -0.00040537 0.00031816 0.0002832
-0.0022091 0.00070659 0.0013194 0.0012457 5.7775e-05 -0.0015315 0.16902 0.20931
-0.014802 -0.0097936 -0.00089032 -0.00022133
0.0026814 0.00098908 0.0012621 -0.00081509 0.00024084 -0.00038068 -0.014827 -0.0097706
0.080942 0.22593 -0.010229 -0.0094024
0.00035092 -0.0017251 0.0011848 0.00011094 0.00034072 0.00029027 -0.00089218 -0.0002585
-0.0102 -0.0094075 0.11213 0.30639
1460000000 0.26411 0.15844 -0.021212 0.004309 0.0056015 -0.0016333 -0.0015086 0.0017446
0.002258 -0.00054959 -0.00024692 -0.0010253
-0.021232 0.0043223 0.10702 0.33792 -0.0056634 0.015807 0.001664 0.00023465
0.00096439 -0.0012339 0.0012682 -0.00061939
0.0056317 -0.0016411 -0.0056019 0.015866 0.35304 0.0094047 -0.0011725 -0.0011273
0.00025776 -0.00015391 0.00083757 -0.00024116
-0.0015341 0.0017347 0.0016476 0.00022936 -0.0011706 -0.0011274 0.19563 0.18041
-0.015781 -0.0027434 -0.00089761 0.0019359
0.0022763 -0.00054186 0.00094525 -0.0013043 0.00023905 -0.00015502 -0.015784 -0.0027041
0.11077 0.21236 -0.012396 -0.003187
-0.00019639 -0.0010308 0.0012357 -0.00059548 0.00082866 -0.00027278 -0.00088117 0.0019752
-0.012375 -0.0031575 0.14519 0.28588
1520000000 0.27801 0.11768 -0.015578 0.010234 0.0034656 -0.0042291 0.00016326 0.0025949
0.0022451 -0.0020274 -0.0012906 -7.0922e-05
-0.015584 0.010219 0.14089 0.32431 0.0022393 0.013066 0.0016799 -0.00068397
9.5533e-05 -0.0010089 0.00038335 -0.0010756
0.0034177 -0.004254 0.0023367 0.013063 0.34684 -0.045661 -0.00088728 -0.00040576
0.00068527 -0.0010575 0.00015191 -0.0002383
0.00020374 0.0026408 0.0016751 -0.0007112 -0.00088613 -0.0003945 0.21946 0.14257
-0.01493 0.0030779 0.0015948 0.0021121
0.0021866 -0.002031 0.00010275 -0.0010457 0.00075088 -0.0010055 -0.014934 0.0031199
0.13935 0.19993 -0.012201 0.0016109
-0.0012417 -0.00011954 0.00036598 -0.0011098 0.00019232 -0.00027007 0.0015994 0.0021099
-0.012195 0.0016139 0.17871 0.26719
1580000000 0.28873 0.071689 -0.0086405 0.013875 -0.0010279 -0.0049694 0.0014762 0.001861
-0.00032196 -0.0023126 -0.00016664 0.00039267
-0.0086513 0.01388 0.16848 0.29945 0.005821 0.0077111 0.00061925 -0.0015423
-0.00044329 -0.0011163 -0.00023848 -0.00085813
-0.0010505 -0.0049583 0.0058675 0.0076705 0.3279 -0.1037 -0.0015278 0.00040394
-0.00041437 -0.0013924 0.00028428 -0.00065637
0.001491 0.0018257 0.00062523 -0.0015617 -0.0015247 0.00038173 0.23384 0.1031
-0.011054 0.0079661 0.0021105 0.00076132
-0.00026666 -0.002291 -0.00046243 -0.0010877 -0.00044744 -0.0013635 -0.011028 0.0080044
0.16415 0.18257 -0.0095706 0.0076772
-0.00022028 0.00039352 -0.00018687 -0.00087016 0.00032371 -0.00065054 0.0021115 0.00073389
-0.0095846 0.0076808 0.21151 0.24078
1640000000 0.29163 0.031202 -0.0014927 0.012665 -0.0030028 -0.0025882 0.0027511 0.0010634
-0.00077675 -0.0016129 -0.00045172 0.00060859
-0.0015089 0.012656 0.19764 0.27572 0.0060154 0.0025834 -0.00052883 -0.001849
-0.00094825 -0.00050775 -0.0005364 -0.00065456
-0.0030685 -0.0025678 0.0060313 0.0025474 0.29966 -0.15218 -0.00079008 0.0012677
-0.0011401 -0.0010541 -0.00027034 -0.00044645
0.0027475 0.0010762 -0.00055339 -0.0018573 -0.00081966 0.0012808 0.2465 0.054655
-0.0065524 0.0088281 0.0025614 -0.00081674
-0.00084399 -0.0016123 -0.00097364 -0.00053074 -0.0011275 -0.0010981 -0.0065337 0.0088655
0.18734 0.15992 -0.0045037 0.0097371
-0.00031705 0.00057313 -0.0005394 -0.00065992 -0.00027509 -0.00053647 0.0025495 -0.00080165
-0.0045208 0.0097622 0.23768 0.21106
1700000000 0.28638 -0.013905 0.0021262 0.0097523 -0.0036845 0.00030219 0.0031899 -0.0012042
-0.0020831 -0.00051707 0.00054225 0.00040572
0.0021018 0.0097468 0.21658 0.24478 0.0033872 -0.00035843 -0.0014622 -0.00071642
-0.00085435 -0.00014032 -0.00091338 -0.00045058
-0.003678 0.00034858 0.0033685 -0.00036353 0.25746 -0.19228 0.00014043 0.001622
-0.0020905 -0.00018264 -0.0005132 -0.00085377
0.0032037 -0.0011834 -0.0014558 -0.00067692 0.00012385 0.0016488 0.24411 0.0047758
-0.0038958 0.0090214 0.0014914 -0.0022399
-0.0020861 -0.00054229 -0.00082565 -0.00010084 -0.0020959 -0.00015945 -0.0038854 0.0090257
0.20577 0.14051 0.00032171 0.010026
0.00051881 0.00036131 -0.00091208 -0.00043621 -0.00051134 -0.00087156 0.0015136 -0.002268
0.00032686 0.010017 0.25565 0.17731
1760000000 0.27514 -0.062592 0.0044763 0.0063162 -0.0021807 0.0012085 0.0014007 -0.00341
-0.0012773 0.0007214 0.0002933 -0.00059378
0.0044792 0.0063227 0.24252 0.20569 0.00076842 -0.0018664 -0.0013103 0.00010236
-0.0011804 0.00090581 -0.00057096 0.00042029
-0.0021461 0.0012691 0.00076155 -0.0019045 0.20953 -0.22547 0.0010918 0.0012909
-0.0011835 0.0015268 -0.0013638 -0.00056021
0.0013241 -0.0034137 -0.0013343 9.2256e-05 0.0010635 0.0012871 0.23542 -0.047007
-0.00080593 0.0078902 -0.00023232 -0.0024384
-0.0013112 0.0007393 -0.0011752 0.00093505 -0.0011808 0.0014916 -0.00078126 0.00789
0.2211 0.10669 0.0042962 0.0073228
0.0004041 -0.00059369 -0.00052356 0.00042916 -0.0013315 -0.00055535 -0.0002347 -0.0023964
0.0042969 0.0073295 0.26911 0.13978
1820000000 0.25251 -0.09966 0.0045167 0.0027513 1.3131e-05 0.0026034 -0.00095121 -0.0031947
-0.001066 0.00088404 -4.7931e-05 -0.00020248
0.0045199 0.0027271 0.25367 0.17685 -0.0016526 -0.00012336 -0.0014361 0.00098603
-9.9744e-05 0.001295 -0.00058413 0.00055711
8.0828e-06 0.0026198 -0.0016517 -9.9547e-05 0.15909 -0.2411 0.0018043 0.00054531
-0.00019369 0.0024919 -0.0015995 0.00045443
-0.00087259 -0.0031962 -0.0014079 0.0009987 0.0018204 0.00052859 0.20622 -0.093961
0.00029153 0.0066545 -0.0018181 -0.0016742
-0.001012 0.0009553 -0.00011478 0.0013215 -0.00017752 0.0024342 0.00028674 0.0066591
0.23956 0.0793 0.0053583 0.0034338
-6.44e-05 -0.00013307 -0.00058462 0.00057756 -0.0016005 0.0003915 -0.0018075 -0.0016994
0.0053897 0.0034216 0.27261 0.10462
1880000000 0.21858 -0.14113 0.0022571 0.00050637 -0.00046487 0.0022404 -0.0029064 -0.002276
-0.00014421 0.0017507 0.00024057 -0.00068467
0.0022613 0.0005198 0.25883 0.13037 -0.0034645 0.0022109 -0.00021413 0.0018416
0.00061319 0.0014637 0.0001882 0.00098565
-0.00044492 0.0023147 -0.0034829 0.0022158 0.10771 -0.25076 0.0020874 -0.0010768
0.0017166 0.0019369 -0.00095462 0.0016046
-0.0029223 -0.002188 -0.00022436 0.0018562 0.0020802 -0.001063 0.16604 -0.1352
0.00090162 0.0046624 -0.0024269 0.00039863
-0.00020165 0.0017559 0.00062695 0.0014474 0.0017582 0.0019803 0.00090563 0.0046628
0.24449 0.048099 0.0053577 0.0011846
0.00024604 -0.00072444 0.00018249 0.00094227 -0.00092435 0.0015876 -0.0024024 0.00046374
0.005318 0.0012071 0.27332 0.07004
1940000000 0.17949 -0.16733 0.00014472 -0.0012094 0.001739 0.0020946 -0.0038461 0.0003194
0.001261 0.00099102 -0.00060956 -0.00043617
9.6715e-05 -0.0011646 0.26037 0.099531 -0.0018348 0.0050785 0.0010811 0.0012914
0.0020408 0.00055871 0.0009492 0.00025873
0.0017104 0.0021196 -0.0018124 0.0051108 0.062271 -0.24357 0.00051895 -0.0026196
0.0024828 0.00034475 0.00037298 0.0015696
-0.0038447 0.00041762 0.0010874 0.001315 0.0005199 -0.0025764 0.11362 -0.16578
-6.3319e-05 0.0036841 -0.0014982 0.0014979
0.0012129 0.00099914 0.0020238 0.00051494 0.0024863 0.00033379 -5.9645e-05 0.0036797
0.24843 0.011171 0.0040315 -0.0025227
-0.00080263 -0.00032407 0.00097284 0.00024809 0.00033904 0.0016069 -0.0014449 0.0014698
0.0040543 -0.0025064 0.26267 0.034226
2000000000 0.13459 -0.18339 -0.0035124 0.00081293 0.0029122 0.0013045 -0.0024323 0.0036187
0.0010704 0.00036757 -0.00073349 0.00045707
-0.0035314 0.00080131 0.24773 0.064038 -0.00090538 0.0071948 0.001761 0.00037949
0.0013527 -0.0013255 0.0004187 -8.6457e-05
0.0028932 0.0013534 -0.00084703 0.0071675 0.019451 -0.22973 -0.0014754 -0.0016851
0.00206 -0.0012688 0.0015334 0.0013091
-0.0024064 0.0036251 0.0017534 0.00040867 -0.0015256 -0.0016139 0.060491 -0.17665
-0.0014708 0.0038134 -1.9681e-05 0.0023779
0.0011398 0.000268 0.0013383 -0.001271 0.0020733 -0.0011973 -0.0014756 0.0038202
0.24506 -0.021764 0.00067353 -0.0032378
