!Keysight Technologies,M9804A,MY58100912,A.14.10.03
!Date: Thursday, April 27, 2023 10:28:33
!Correction: S11(C  6-Port  ) 
!S12(C  6-Port  ) 
!S13(C  6-Port  ) 
!S14(C  6-Port  ) 
!S15(C  6-Port  ) 
!S16(C  6-Port  ) 
!S21(C  6-Port  ) 
!S22(C  6-Port  ) 
!S23(C  6-Port  ) 
!S24(C  6-Port  ) 
!S25(C  6-Port  ) 
!S26(C  6-Port  ) 
!S31(C  6-Port  ) 
!S32(C  6-Port  ) 
!S33(C  6-Port  ) 
!S34(C  6-Port  ) 
!S35(C  6-Port  ) 
!S36(C  6-Port  ) 
!S41(C  6-Port  ) 
!S42(C  6-Port  ) 
!S43(C  6-Port  ) 
!S44(C  6-Port  ) 
!S45(C  6-Port  ) 
!S46(C  6-Port  ) 
!S51(C  6-Port  ) 
!S52(C  6-Port  ) 
!S53(C  6-Port  ) 
!S54(C  6-Port  ) 
!S55(C  6-Port  ) 
!S56(C  6-Port  ) 
!S61(C  6-Port  ) 
!S62(C  6-Port  ) 
!S63(C  6-Port  ) 
!S64(C  6-Port  ) 
!S65(C  6-Port  ) 
!S66(C  6-Port  ) 
!S6P File: Measurement: :
# Hz S  RI   R 50
500000000 -0.33135 -0.06122 -0.0098425 -0.0015741 -0.0091112 0.012798 -0.0040601 0.011785
0.013574 0.005544 -0.0042339 0.0062021
-0.0099691 -0.0017352 -0.41354 -0.07054 0.0079604 -0.010913 0.0014895 0.011918
0.0078603 0.003211 0.0021243 0.01405
-0.0091371 0.01302 0.0079606 -0.010922 -0.26721 0.19354 0.0065353 0.0035381
-0.0019015 0.0088927 -5.9737e-05 0.012152
-0.0039604 0.011136 0.0014972 0.011744 0.0063325 0.0033452 -0.33041 0.040542
-0.01882 -0.0042013 0.018879 0.026558
0.013612 0.0056184 0.0084832 0.002671 -0.0018943 0.0086378 -0.01912 -0.0049004
-0.24219 -0.20684 -0.028057 0.0057667
-0.0039099 0.0064965 0.001382 0.01304 -0.00020441 0.01172 0.018007 0.027263
-0.027534 0.0056494 -0.26468 -0.13246
560000000 -0.31964 0.10594 -0.021646 -0.066404 7.5483e-05 0.013969 0.0052594 0.011471
0.0099825 0.0050018 0.011133 0.0089092
-0.02154 -0.066353 -0.37364 0.094707 -0.041233 -0.038978 0.01417 0.0039409
-0.012315 -0.0049958 0.0043407 -0.00011865
-1.9211e-05 0.01411 -0.041388 -0.038937 -0.18724 0.24651 -0.0004677 -0.0050665
0.018484 0.0062934 0.0075608 -0.0057523
0.0049425 0.011697 0.013975 0.0036701 -9.2978e-05 -0.0049992 -0.30762 0.13148
0.005023 -0.02335 0.0050408 -0.021337
0.010594 0.0051157 -0.01279 -0.0048092 0.018503 0.0065023 0.0054993 -0.024127
-0.31014 -0.025142 0.010178 -0.050534
0.010839 0.0089265 0.0051099 -0.00044351 0.0076584 -0.0055545 0.0048648 -0.021379
0.0094528 -0.050815 -0.33241 0.016983
620000000 -0.27894 0.085233 -0.023468 0.0086981 0.0038653 0.0096685 0.0074461 -0.0041614
0.012209 -0.0016299 -0.0008274 -0.0025384
-0.023374 0.0085871 -0.40292 0.042167 -0.018475 0.00029043 -0.0018036 -0.0020617
0.012469 -0.0059562 0.00069542 -0.0031666
0.0038442 0.0094788 -0.018507 0.00032159 -0.15721 0.25554 -0.0010521 -0.0051876
-0.0033837 -0.0027914 0.0097804 -0.0032116
0.0079126 -0.0043579 -0.0019921 -0.0021907 -0.00091463 -0.0052937 -0.26553 0.14181
-0.039742 -0.020521 0.01377 0.027794
0.0115 -0.0024685 0.012425 -0.0056308 -0.0034018 -0.0027852 -0.038094 -0.019964
-0.22697 -0.058442 -0.042121 0.011272
-0.00013097 -0.0011484 0.00059134 -0.0027688 0.0094663 -0.0029989 0.012759 0.026541
-0.042494 0.01104 -0.24907 -0.018916
680000000 -0.24196 0.17876 -0.026203 -0.014989 0.0049142 0.005503 0.0013906 -0.0072751
-0.0016991 -0.011692 0.0068678 -0.006783
-0.02615 -0.014949 -0.39053 0.14371 -0.03261 -0.0026563 -0.001551 -0.00024403
-0.0014138 -0.0093893 -0.00075516 -0.0018324
0.0050067 0.0055463 -0.032648 -0.0025951 -0.10626 0.27755 -0.00085575 -4.5679e-05
-0.0012208 0.00047799 -0.0024001 -0.0094985
0.0012023 -0.0070816 -0.0015352 -0.00047792 -0.00080737 -0.00016924 -0.22032 0.19304
-0.023026 -0.0078442 -0.0092192 -0.011823
-0.0020097 -0.011766 -0.001542 -0.0092088 -0.0013359 0.00026442 -0.023037 -0.0075612
-0.28112 0.04392 -0.0059802 -0.0074567
0.0063267 -0.0070161 -0.00066691 -0.0021011 -0.0026861 -0.0095826 -0.0085398 -0.011888
-0.0061921 -0.0073293 -0.2617 0.086086
740000000 -0.19532 0.17217 -0.039882 0.026615 0.014133 -0.0041495 -3.0886e-05 -0.0039176
-0.0041497 -0.0031221 -0.0064087 0.0026639
-0.040153 0.026534 -0.33662 0.16318 -0.037724 0.03477 7.9437e-05 -0.0055319
-0.013125 0.0071631 -0.0012389 -0.0056374
0.014041 -0.0042084 -0.037656 0.034906 -0.072225 0.27469 -0.0019489 0.0033414
-0.0020092 -0.0062744 -0.0015341 0.00094408
-0.00015274 -0.0039459 0.00015981 -0.0058706 -0.0020852 0.0033977 -0.20457 0.2016
-0.04285 -0.0098583 0.023042 0.015823
-0.0045099 -0.0028242 -0.011895 0.0073148 -0.0018688 -0.0058144 -0.042832 -0.009432
-0.18222 0.073904 -0.043056 -0.00062131
-0.0067109 0.0030418 -0.0010447 -0.0054958 -0.0021128 0.0011311 0.022737 0.016279
-0.043035 -0.0010494 -0.25146 0.092318
800000000 -0.16401 0.2171 -0.022574 0.016023 0.005965 -0.010666 -0.0045025 -0.0024924
-0.0044668 0.0021743 0.0040101 0.00044958
-0.022481 0.015981 -0.34363 0.23372 -0.0090627 0.034096 -0.0021047 0.001754
-0.0011024 0.0026908 0.00082955 0.0051453
0.0060011 -0.010663 -0.0089818 0.034145 -0.0338 0.29958 0.00084771 0.001266
0.0001506 0.0033203 -0.0018979 0.00086705
-0.0046937 -0.0024293 -0.0022296 0.0019096 0.00084127 0.0011979 -0.17542 0.22895
-0.028387 0.012874 0.014186 -0.010241
-0.0041241 0.0020974 -0.00075918 0.0027587 0.00013588 0.0034612 -0.028854 0.012479
-0.22586 0.099958 -0.017923 0.020236
0.0038946 6.2527e-06 0.00092199 0.0047523 -0.001863 0.00047251 0.013841 -0.010323
-0.017336 0.020328 -0.24482 0.14268
860000000 -0.13009 0.23727 -0.018362 0.030391 -0.0028555 -0.010349 -0.0020783 0.00037386
0.0037136 0.0055311 -0.0037865 -0.0033787
-0.018232 0.030375 -0.29617 0.27736 0.0070685 0.034917 8.9182e-05 0.002193
0.0031577 0.00087625 0.0034692 0.00029226
-0.0028606 -0.010363 0.0071704 0.034939 0.013402 0.30877 -0.00072838 -0.00019034
0.0021336 -0.0012791 0.0016714 0.0041753
-0.002049 0.00035577 3.0751e-05 0.0023251 -0.00069201 -0.00022434 -0.13912 0.24007
-0.018927 0.017812 -0.0062744 -0.0091731
0.0038007 0.0052622 0.0031277 0.00081346 0.0022861 -0.0014545 -0.018474 0.017818
-0.16936 0.15321 -0.025403 0.016542
-0.0037986 -0.0026182 0.0038248 0.00024341 0.0016917 0.0043874 -0.0065068 -0.0091434
-0.025778 0.017008 -0.19524 0.18815
920000000 -0.10717 0.26069 0.0043527 0.038923 -0.0094723 -0.0052129 -0.0022652 0.0014848
0.00085194 0.0022459 0.0028215 -0.0013585
0.0042857 0.038795 -0.26897 0.29941 0.02812 0.02338 0.0014211 0.0011454
0.0075096 0.00068146 0.0046357 -0.0027408
-0.0094479 -0.0052047 0.028215 0.023322 0.058811 0.31074 0.0018552 3.2374e-05
0.00078892 6.5036e-05 0.0008967 -0.0013919
-0.002143 0.0016158 0.0013083 0.0012587 0.0018049 2.6998e-05 -0.11516 0.25696
-0.0117 0.030894 0.0038014 -0.0065758
0.00080595 0.0023042 0.007669 0.00051892 0.00085518 0.00011267 -0.011876 0.031018
-0.15842 0.15957 -0.00051001 0.027066
0.0026596 -0.0011926 0.0043761 -0.0026247 0.00080151 -0.0014112 0.003783 -0.0067433
-0.00054224 0.027039 -0.20184 0.20038
980000000 -0.061087 0.2818 0.016327 0.030682 -0.009754 0.0042448 0.0019844 0.0038708
0.0041891 -0.0013858 -0.0028293 -0.0024879
0.016322 0.030593 -0.21656 0.33516 0.033527 0.0059266 0.0020893 -8.4559e-05
0.0016711 -0.0059891 -0.00016757 -0.0027882
-0.0097254 0.0042592 0.033564 0.0058364 0.10474 0.30554 0.00082427 -0.001148
0.0006196 -0.0018954 0.0014571 -0.00027104
0.0018557 0.0039464 0.0019479 -6.2527e-05 0.0007611 -0.0011651 -0.076532 0.26852
0.0070542 0.030078 -0.0094844 -0.0075281
0.0041272 -0.001431 0.0016101 -0.0060585 0.00061529 -0.001974 0.0070906 0.030043
-0.12562 0.18986 0.0058534 0.01981
-0.003274 -0.0025664 -0.00053731 -0.003037 0.0012862 -0.00031212 -0.009495 -0.0075463
0.0057602 0.019513 -0.15974 0.24625
1040000000 -0.020289 0.29115 0.032949 0.019721 -0.0017026 0.0072672 0.0027263 0.00089268
0.00062128 -0.0034774 -0.00011041 -0.0015969
0.032914 0.019699 -0.18177 0.34913 0.030481 -0.01433 0.001644 -0.0018264
-0.0020681 -0.0025103 -0.0011837 -0.0032143
-0.0017001 0.0072383 0.030446 -0.014432 0.15086 0.29318 -0.00043013 -0.001649
-0.0015712 -0.00093563 -0.00061738 -0.0011475
0.0027441 0.00086147 0.0016064 -0.0018501 -0.00040275 -0.0016632 -0.050084 0.27842
0.019112 0.019092 -0.0027719 0.0011215
0.00070385 -0.0033907 -0.0018936 -0.0025503 -0.0015684 -0.0010562 0.019176 0.018986
-0.092945 0.19759 0.013941 0.018676
-2.6521e-05 -0.002036 -0.0010444 -0.0034166 -0.0005336 -0.0010514 -0.0028221 0.0010275
0.014251 0.018706 -0.13854 0.26705
1100000000 0.024703 0.30109 0.03691 -0.002775 0.0029898 0.0043836 0.0024148 -0.0010253
-0.0023034 -0.0029967 -0.0041799 7.2482e-05
0.036862 -0.0028146 -0.13856 0.3685 0.016349 -0.028117 8.2521e-06 -0.0019069
-0.0037913 -0.00087256 -0.0037132 -0.00031252
0.0030296 0.004356 0.016265 -0.028211 0.19732 0.27421 -0.0020182 0.00013241
-0.0018875 0.00056857 -0.0011991 -0.00046625
0.0024293 -0.00099067 2.8266e-05 -0.0018792 -0.0020292 0.00014083 -0.0097756 0.28388
0.024895 0.0060306 -0.0024473 6.5425e-05
-0.0023662 -0.0029008 -0.0038405 -0.00070016 -0.0018481 0.0005187 0.024881 0.0058389
-0.073487 0.21089 0.019669 0.0092767
-0.0041561 0.00011506 -0.0036227 -0.00025127 -0.0011849 -0.00051912 -0.0025623 7.73e-05
0.019655 0.0092779 -0.092075 0.29748
1160000000 0.075559 0.2979 0.025284 -0.020305 0.0031309 -0.0003984 -8.9472e-05 -0.0024109
-0.0041081 -0.0009082 -0.0012784 0.0041316
0.025277 -0.020248 -0.095048 0.37373 -0.0031168 -0.029701 -0.0015511 -0.0018239
-0.0025843 0.0025341 -0.0016683 0.0017221
0.0031174 -0.00039165 -0.003258 -0.029713 0.24093 0.24418 -0.00086516 0.0017442
-0.00053632 0.0019689 -0.0011004 0.00043874
-7.8987e-05 -0.002432 -0.0015583 -0.001758 -0.00084315 0.0017558 0.029298 0.28185
0.021481 -0.010148 -0.0036591 0.0052227
-0.0040349 -0.00091963 -0.0026227 0.0024936 -0.00059654 0.00197 0.021523 -0.010083
-0.038302 0.21947 0.018986 -0.00033594
-0.001124 0.0040811 -0.0016587 0.0018414 -0.0010033 0.0004805 -0.0035771 0.0053006
0.018815 -0.00032778 -0.045293 0.30047
1220000000 0.11938 0.28898 0.01191 -0.030416 -0.001322 -0.0011529 9.3146e-05 -0.00095305
-0.0029104 0.0021458 0.0010654 0.0022244
0.011875 -0.030407 -0.050454 0.38781 -0.017077 -0.022087 -0.0026674 0.00050618
-1.3048e-05 0.0031086 -0.00072996 0.0021134
-0.0013117 -0.0011452 -0.01719 -0.022039 0.28032 0.20578 0.00073701 0.0018576
0.00047931 0.0012802 0.00024816 0.00073965
7.6582e-05 -0.0009539 -0.0026725 0.00051186 0.00074075 0.0018233 0.069424 0.27403
0.011199 -0.017055 0.0021933 0.0016197
-0.0028873 0.0021566 6.6017e-07 0.003104 0.00052682 0.0012683 0.010998 -0.017096
-0.015604 0.22924 0.014455 -0.013059
0.0011356 0.0022076 -0.00075625 0.0020664 0.00030487 0.00069244 0.0021891 0.0016432
0.014503 -0.013248 -0.014465 0.31725
1280000000 0.17016 0.26921 -0.0072097 -0.029476 -0.001976 0.0023178 -0.00087503 -0.0020765
-0.00089908 0.0033209 0.0026721 0.0013635
-0.0071626 -0.029499 -0.0036942 0.37994 -0.024424 -0.0087777 -0.00092763 0.0015164
0.0017791 0.0017296 0.00072801 0.0020575
-0.0019809 0.0022947 -0.024494 -0.0086749 0.31113 0.16238 0.0016742 -2.6107e-05
0.0011582 0.00030338 0.00037574 0.00027307
-0.0009083 -0.0021241 -0.00095947 0.0014913 0.0017051 -3.0316e-05 0.10648 0.25815
0.0011547 -0.019423 0.00025454 0.00031574
-0.00084576 0.0033076 0.0017663 0.0016872 0.0011217 0.00027691 0.0011318 -0.019398
0.021154 0.23306 0.0035593 -0.015706
0.0027278 0.0013428 0.00069924 0.0020825 0.00037247 0.00043194 0.00032159 0.00031079
0.0034384 -0.01568 0.033128 0.32019
1340000000 0.20766 0.23714 -0.017505 -0.01999 0.00059572 0.0046 -0.0019683 -0.00083116
0.0014941 0.0028147 0.0018382 -0.0013555
-0.017451 -0.019959 0.036134 0.3725 -0.022014 0.0043283 -0.00010396 0.0020095
0.0020025 0.00071751 0.0012184 0.00073549
0.00062102 0.0045958 -0.022024 0.0044479 0.33318 0.11551 0.00099834 -0.0010113
0.00067645 -0.00051645 9.2759e-05 0.00017971
-0.0019564 -0.00087432 -6.366e-05 0.0019947 0.0010131 -0.0010039 0.14007 0.2381
-0.0085833 -0.016754 0.00090905 0.00051729
0.0014746 0.0027844 0.0020325 0.00069556 0.00067122 -0.00053225 -0.0086041 -0.016725
0.051129 0.22902 -0.0041623 -0.014404
0.0018813 -0.0013186 0.0012538 0.00078044 8.4572e-05 0.00018087 0.00099646 0.0005176
-0.0040613 -0.014426 0.071122 0.3153
1400000000 0.2425 0.20045 -0.023884 -0.0081805 0.0052806 0.0033601 -0.0023159 0.00067345
0.0026869 0.0010824 0.00030646 -0.0017311
-0.023862 -0.0081867 0.074454 0.36001 -0.015075 0.012869 0.0013173 0.0012793
0.0012453 -0.0008591 0.001171 0.00017928
0.0052929 0.0033384 -0.015033 0.01295 0.34669 0.062658 3.2965e-05 -0.001578
0.00017867 -0.00042091 0.00035239 0.00025074
-0.0023105 0.0007027 0.0013191 0.0012962 4.0105e-05 -0.0015909 0.17008 0.20942
-0.014797 -0.009783 -0.0007161 -0.00024145
0.0027045 0.0010406 0.0012323 -0.00083718 0.00016431 -0.00037651 -0.01479 -0.009758
0.084871 0.22551 -0.010444 -0.0091852
0.00029468 -0.0017605 0.0011925 0.00014631 0.00034433 0.00020745 -0.00077728 -0.00020549
-0.010567 -0.0092931 0.1158 0.30532
1460000000 0.26607 0.15728 -0.021007 0.0045346 0.0057535 -0.0017557 -0.0015146 0.0018424
0.0022566 -0.00039183 -0.00026582 -0.0010682
-0.020965 0.0045246 0.10915 0.33806 -0.0057486 0.015831 0.0016557 0.00019719
0.00091308 -0.0013171 0.0012345 -0.00055337
0.0057376 -0.001802 -0.0056768 0.015882 0.35366 0.0090593 -0.0011952 -0.0012175
0.0001997 -0.00014986 0.00076763 -0.0002021
-0.0015082 0.0018599 0.0016803 0.0001869 -0.0012379 -0.0011354 0.197 0.18028
-0.015736 -0.0028612 -0.00087681 0.0018735
0.0022814 -0.00045109 0.00091717 -0.0012847 0.00015628 -0.00014776 -0.015756 -0.0028762
0.1145 0.21187 -0.012505 -0.0030552
-0.00032881 -0.00099835 0.0012297 -0.00052296 0.00082007 -0.00022469 -0.00086946 0.0019039
-0.012491 -0.0030242 0.14934 0.28468
1520000000 0.27959 0.11613 -0.015306 0.010352 0.0034663 -0.0043333 0.00018277 0.0026462
0.0021986 -0.0019905 -0.0012195 7.5116e-06
-0.015288 0.010328 0.14286 0.32393 0.0021781 0.013115 0.001666 -0.00071189
3.3156e-05 -0.0010464 0.0003234 -0.001015
0.0034378 -0.0043634 0.0022542 0.013121 0.34722 -0.046447 -0.0009479 -0.00034826
0.00073213 -0.00093649 0.00012432 -0.00017616
0.00020168 0.002673 0.0016632 -0.00072816 -0.00095763 -0.00035039 0.22081 0.14206
-0.014899 0.0031422 0.001561 0.0021381
0.0021918 -0.0020064 1.6373e-05 -0.0010389 0.00073435 -0.00096974 -0.014868 0.0031682
0.1429 0.19917 -0.01215 0.001889
-0.0012296 -6.0866e-05 0.00034159 -0.0010523 7.1826e-05 -0.00016525 0.0016123 0.002094
-0.012179 0.0019255 0.18226 0.2653
1580000000 0.29027 0.070076 -0.0083706 0.013798 -0.0010133 -0.0051523 0.0015495 0.0018394
-0.00020008 -0.002322 -0.00021642 0.0003464
-0.0083647 0.01379 0.1704 0.29914 0.0057629 0.0077997 0.00056879 -0.0015554
-0.00046765 -0.0010631 -0.00021414 -0.00083968
-0.0010399 -0.0051681 0.0058152 0.007783 0.32817 -0.10407 -0.0015791 0.00044549
-0.00035594 -0.0013179 0.00031049 -0.00069053
0.0015689 0.0018268 0.00056375 -0.0015668 -0.0015822 0.00045334 0.23494 0.1024
-0.011121 0.0078578 0.0022203 0.00068323
-0.00021326 -0.0023105 -0.00048417 -0.0010675 -0.00035329 -0.0013531 -0.01113 0.0079084
0.16784 0.18155 -0.0096066 0.007782
-0.00017151 0.00035288 -0.00020302 -0.000876 0.00036047 -0.00069482 0.0022531 0.00067968
-0.0096074 0.0078259 0.21493 0.23912
1640000000 0.29313 0.029059 -0.0013123 0.012466 -0.003084 -0.0026804 0.0027045 0.00099153
-0.00085521 -0.0016628 -0.00030673 0.00060948
-0.0013219 0.012474 0.19984 0.27482 0.0060078 0.0027027 -0.00052817 -0.0018514
-0.0009423 -0.0004554 -0.00053931 -0.00066816
-0.0030823 -0.0026487 0.0060276 0.0026663 0.30015 -0.15293 -0.00072634 0.0013164
-0.001158 -0.0010367 -0.00030878 -0.0004258
0.002753 0.0009932 -0.00054426 -0.001853 -0.00074691 0.0013367 0.24762 0.053409
-0.0067608 0.0089099 0.0024899 -0.00080026
-0.00083321 -0.0017078 -0.00092233 -0.00047503 -0.0011154 -0.0010138 -0.0067469 0.0089004
0.19119 0.15837 -0.0045008 0.0098768
-0.00030078 0.0006393 -0.00055504 -0.00070818 -0.00034569 -0.00041844 0.0025105 -0.00081664
-0.0045383 0.0099031 0.2406 0.20841
1700000000 0.28697 -0.016171 0.0021626 0.0095547 -0.0038412 0.00022408 0.0031186 -0.0011924
-0.0021097 -0.00065162 0.0005274 0.00038914
0.0021557 0.0095392 0.21825 0.2437 0.0034919 -0.0002059 -0.0014665 -0.00071375
-0.00078807 -0.0001172 -0.00091858 -0.00044367
-0.0038365 0.00020495 0.0035033 -0.00023123 0.25788 -0.19281 0.00017796 0.0015889
-0.0020952 -8.0531e-05 -0.00049475 -0.00082777
0.0030795 -0.0012145 -0.0014616 -0.0006769 0.00022046 0.0016198 0.24464 0.0033062
-0.0039963 0.0091819 0.0015814 -0.0022729
-0.0021146 -0.00061658 -0.00076165 -8.0932e-05 -0.0021235 -9.7452e-05 -0.0039481 0.0091685
0.20935 0.13859 0.00025769 0.01007
0.00058211 0.00041304 -0.00089154 -0.00045681 -0.0005209 -0.00080028 0.0016104 -0.0022763
0.0003078 0.010106 0.25801 0.17488
1760000000 0.27563 -0.064782 0.004454 0.0061252 -0.0023421 0.001274 0.0013753 -0.0034192
-0.0013646 0.00070102 0.00031456 -0.00061686
0.0044509 0.0061185 0.24442 0.20442 0.00092053 -0.0017458 -0.0013103 7.2811e-05
-0.0011424 0.00087193 -0.00061753 0.00037375
-0.0023338 0.0013227 0.00091515 -0.0017542 0.20992 -0.22638 0.00097472 0.0012166
-0.0011675 0.0015253 -0.0013513 -0.00056791
0.0013169 -0.0034433 -0.0012898 7.8642e-05 0.0010188 0.0012263 0.23559 -0.048307
-0.00095886 0.0081698 -0.00026983 -0.0023946
-0.00136 0.0006958 -0.0011437 0.00085091 -0.0011392 0.0014824 -0.0010068 0.0081695
0.22469 0.10434 0.0043145 0.0074928
0.00024873 -0.00055197 -0.00061094 0.00035319 -0.0013058 -0.00064279 -0.00032096 -0.0023978
0.0044012 0.0075219 0.2711 0.1374
1820000000 0.25224 -0.10202 0.0044778 0.002587 6.8423e-05 0.0027388 -0.00096618 -0.0031522
-0.0010901 0.0010413 -0.00017564 -9.7598e-05
0.0044868 0.0026023 0.25515 0.17498 -0.0013596 -0.00010629 -0.0014533 0.00092012
-0.00017149 0.0012532 -0.00066798 0.00047441
8.4988e-05 0.0026978 -0.0013562 -8.8955e-05 0.15951 -0.24224 0.0016741 0.00055203
-0.00026965 0.0024028 -0.0015054 0.00042971
-0.00094669 -0.0032205 -0.0014449 0.00095358 0.0016045 0.00056099 0.20584 -0.095764
0.00030118 0.0068609 -0.0017374 -0.001696
-0.0010827 0.0010505 -0.00015102 0.0012707 -0.0002746 0.00245 0.00045658 0.0067607
0.24254 0.076122 0.005312 0.0035096
-5.5567e-05 1.6823e-05 -0.0006416 0.0005243 -0.001529 0.00044389 -0.0017371 -0.001829
0.0052507 0.0034984 0.27426 0.10141
1880000000 0.21791 -0.14303 0.0021251 0.00035315 -0.00041832 0.0022606 -0.0028958 -0.0022452
-0.00010982 0.0017535 0.00022326 -0.00041502
0.0021216 0.00037854 0.25987 0.12858 -0.0032082 0.0021339 -0.00021564 0.0018617
0.00056925 0.0014729 7.3369e-05 0.0010483
-0.00038204 0.0022806 -0.0031946 0.0021393 0.10767 -0.25149 0.0021404 -0.00093443
0.0016439 0.00204 -0.0010326 0.0014426
-0.0029275 -0.0022039 -0.00019555 0.0018551 0.0021469 -0.0009272 0.1654 -0.13613
0.0011567 0.0049349 -0.0024333 0.00023807
-0.00012821 0.0017252 0.00062131 0.0014697 0.0016526 0.0019883 0.0012074 0.0049603
0.24719 0.044869 0.0055373 0.0011281
0.00021571 -0.00048177 9.1608e-05 0.0010077 -0.00098643 0.0015223 -0.002402 0.00037213
0.0055142 0.0011671 0.2748 0.067242
1940000000 0.17889 -0.16933 -5.0197e-05 -0.0012339 0.0015371 0.0019267 -0.0038675 0.00032416
0.0012499 0.0010402 -0.00056206 -0.00055161
-7.9761e-05 -0.0012537 0.26118 0.097281 -0.0017321 0.0047293 0.0011098 0.0014123
0.0019854 0.00062231 0.00095446 0.00032738
0.0015724 0.0019602 -0.0016977 0.0047516 0.062343 -0.24492 0.00062297 -0.0024726
0.0024538 0.00042569 0.00030493 0.00163
-0.0038227 0.00038303 0.0011141 0.0014474 0.00061597 -0.0024562 0.11284 -0.16664
0.00021357 0.0036716 -0.0015136 0.001792
0.0012299 0.0010654 0.001959 0.00061449 0.0024556 0.00044214 0.00022472 0.0036943
0.2507 0.0070749 0.0039739 -0.0023475
-0.0005803 -0.00043676 0.00095521 0.00031625 0.00027615 0.0016019 -0.0014623 0.0016618
0.0039335 -0.0023756 0.26381 0.030724
2000000000 0.13311 -0.18471 -0.0037347 0.00082645 0.0028882 0.0015125 -0.0023839 0.0036544
0.0011261 0.00036392 -0.0005269 0.00035607
-0.0037103 0.00082704 0.24768 0.062022 -0.00094495 0.0068198 0.0017242 0.00030268
0.0014349 -0.0012309 0.00069494 1.9244e-05
0.0028852 0.0014858 -0.00091113 0.0068448 0.019033 -0.23104 -0.0013192 -0.0018004
0.0022188 -0.0010824 0.0016359 0.001467
-0.0024645 0.0036885 0.0016874 0.00029169 -0.0015022 -0.0019105 0.059249 -0.17696
-0.0012787 0.0037034 4.9931e-05 0.001973
0.0011678 0.00032982 0.0014876 -0.0012591 0.0022242 -0.0012287 -0.0011665 0.0036696
0.24654 -0.025864 0.00076424 -0.0033203
