!Keysight Technologies,M9804A,MY58100912,A.14.10.03
!Date: Thursday, April 27, 2023 10:28:33
!Correction: S11(C  6-Port  ) 
!S12(C  6-Port  ) 
!S13(C  6-Port  ) 
!S14(C  6-Port  ) 
!S15(C  6-Port  ) 
!S16(C  6-Port  ) 
!S21(C  6-Port  ) 
!S22(C  6-Port  ) 
!S23(C  6-Port  ) 
!S24(C  6-Port  ) 
!S25(C  6-Port  ) 
!S26(C  6-Port  ) 
!S31(C  6-Port  ) 
!S32(C  6-Port  ) 
!S33(C  6-Port  ) 
!S34(C  6-Port  ) 
!S35(C  6-Port  ) 
!S36(C  6-Port  ) 
!S41(C  6-Port  ) 
!S42(C  6-Port  ) 
!S43(C  6-Port  ) 
!S44(C  6-Port  ) 
!S45(C  6-Port  ) 
!S46(C  6-Port  ) 
!S51(C  6-Port  ) 
!S52(C  6-Port  ) 
!S53(C  6-Port  ) 
!S54(C  6-Port  ) 
!S55(C  6-Port  ) 
!S56(C  6-Port  ) 
!S61(C  6-Port  ) 
!S62(C  6-Port  ) 
!S63(C  6-Port  ) 
!S64(C  6-Port  ) 
!S65(C  6-Port  ) 
!S66(C  6-Port  ) 
!S6P File: Measurement: :
# Hz S  RI   R 50
500000000 -0.33203 -0.061557 -0.010166 -0.0011185 -0.008821 0.012781 -0.0041172 0.011989
0.012979 0.0061131 -0.0043506 0.0074794
-0.010171 -0.00098507 -0.41366 -0.070912 0.0082165 -0.010761 0.0014692 0.012716
0.0078799 0.0029556 0.0016768 0.013794
-0.0087232 0.012927 0.0081629 -0.010733 -0.26638 0.19322 0.0069164 0.0033812
-0.0020803 0.0086269 0.00052718 0.011766
-0.0038866 0.012077 0.001528 0.012784 0.0068645 0.0033039 -0.33015 0.039156
-0.019107 -0.003642 0.017606 0.025569
0.012825 0.00553 0.0080337 0.0028414 -0.0021398 0.0087095 -0.019268 -0.0035258
-0.23992 -0.20984 -0.027631 0.0052456
-0.0038339 0.0073663 0.0015648 0.014028 0.00056437 0.011619 0.017441 0.026596
-0.028004 0.0055072 -0.26621 -0.1363
560000000 -0.31847 0.10694 -0.022375 -0.066638 0.00025457 0.013572 0.0050297 0.011364
0.011136 0.0043563 0.009971 0.0094
-0.022265 -0.066533 -0.37349 0.093659 -0.041678 -0.039441 0.014219 0.003879
-0.012943 -0.0042147 0.003568 -0.0011861
0.00044737 0.013543 -0.04171 -0.039064 -0.18637 0.2461 -0.00059276 -0.0051235
0.018953 0.0062723 0.0076176 -0.0053644
0.005112 0.012138 0.013892 0.0036823 -0.000426 -0.0051541 -0.30728 0.13161
0.0046086 -0.023469 0.0056233 -0.021766
0.01058 0.0046685 -0.012968 -0.0044972 0.019007 0.0067578 0.0051537 -0.023266
-0.31132 -0.025616 0.010787 -0.051117
0.010606 0.0095013 0.0035538 -0.0010998 0.0076195 -0.0056532 0.0054083 -0.02116
0.010744 -0.052503 -0.33333 0.016981
620000000 -0.2792 0.08619 -0.023487 0.008961 0.0037226 0.0097256 0.0082487 -0.0042927
0.011729 -0.0013988 0.00047126 -0.0018807
-0.023408 0.0090606 -0.40245 0.041753 -0.018452 0.00020261 -0.0016317 -0.0023354
0.012371 -0.005484 0.00090018 -0.0030633
0.0037038 0.0099077 -0.018421 0.00031201 -0.15709 0.2552 -0.00073883 -0.0048354
-0.0033528 -0.0030569 0.0096146 -0.0026793
0.0082304 -0.0045726 -0.0014998 -0.0023271 -0.00074266 -0.004816 -0.26448 0.14198
-0.038401 -0.020417 0.014023 0.027257
0.012 -0.0015673 0.012219 -0.005723 -0.0033091 -0.0030934 -0.038574 -0.020383
-0.2279 -0.060832 -0.041441 0.011572
0.00094483 -0.0017628 0.0011542 -0.0034295 0.0092787 -0.0025819 0.014128 0.028223
-0.041018 0.010383 -0.24895 -0.020888
680000000 -0.24258 0.17843 -0.026464 -0.01499 0.0048366 0.005356 0.00070743 -0.0069616
-0.0019095 -0.011422 0.0049672 -0.0057441
-0.026327 -0.014983 -0.39091 0.14314 -0.032654 -0.0024554 -0.0018643 -0.00073558
-0.001576 -0.0088044 -0.00097596 -0.0019181
0.004884 0.0052361 -0.032658 -0.0024842 -0.10655 0.27734 -0.0010297 -0.0003886
-0.0015312 0.00061017 -0.0025007 -0.0091599
0.0014393 -0.0068245 -0.0017473 -0.00057118 -0.0010444 -0.00035629 -0.22038 0.19375
-0.022821 -0.0077945 -0.0090227 -0.01089
-0.0016721 -0.011161 -0.0016174 -0.0088419 -0.0015185 0.00051826 -0.022858 -0.0076125
-0.28174 0.042234 -0.0062391 -0.006418
0.0056583 -0.0055902 -0.00097042 -0.0017828 -0.0026338 -0.0091871 -0.0096645 -0.011349
-0.0061007 -0.0063212 -0.26203 0.08628
740000000 -0.195 0.17164 -0.040671 0.026938 0.013907 -0.0046115 -0.00020579 -0.0041215
-0.004452 -0.0029939 -0.0067176 0.0030499
-0.040284 0.027143 -0.33675 0.16232 -0.037653 0.034718 0.00010776 -0.0057302
-0.012206 0.0065744 -0.0014304 -0.0059016
0.013939 -0.0046235 -0.037618 0.034822 -0.072503 0.27469 -0.0018979 0.0031691
-0.0019304 -0.0056025 -0.0017192 0.0010202
-9.4096e-09 -0.0039471 -0.00012102 -0.0058665 -0.0018338 0.003139 -0.20441 0.20123
-0.042668 -0.0099135 0.022817 0.015815
-0.0045888 -0.0030195 -0.012078 0.0070376 -0.0021541 -0.0055166 -0.042916 -0.009912
-0.18339 0.072303 -0.04314 -0.00018851
-0.006404 0.003364 -0.0015464 -0.0056743 -0.001724 0.00069137 0.022854 0.016211
-0.042938 -0.0012807 -0.25204 0.090675
800000000 -0.16449 0.21665 -0.022694 0.01627 0.0059402 -0.010513 -0.0047034 -0.0027092
-0.0044481 0.0022311 0.004116 0.00025868
-0.022606 0.016218 -0.34396 0.2333 -0.0090214 0.034265 -0.0022257 0.0019901
-0.0010619 0.0025409 0.00081563 0.0052105
0.0059026 -0.010535 -0.0089701 0.034335 -0.03393 0.29966 0.00078505 0.0012373
0.00023421 0.0034267 -0.0016751 0.00062866
-0.0045533 -0.0026836 -0.0022 0.002013 0.00077407 0.0012376 -0.17575 0.22852
-0.028565 0.012692 0.014431 -0.010521
-0.004436 0.0017994 -0.00099852 0.0024973 0.00023761 0.003439 -0.028335 0.012823
-0.22606 0.098163 -0.018059 0.020258
0.0041194 0.00045279 0.00063259 0.0055508 -0.0017415 0.00080095 0.013669 -0.011001
-0.017471 0.020169 -0.24509 0.14063
860000000 -0.13026 0.23718 -0.018476 0.03054 -0.0028808 -0.010161 -0.0019745 0.00053151
0.0039961 0.0055913 -0.0035958 -0.0028881
-0.018524 0.030514 -0.29637 0.27731 0.006945 0.034875 -4.9851e-05 0.0021321
0.0033698 0.00082376 0.0034636 0.00021511
-0.002905 -0.010202 0.0070542 0.034868 0.013416 0.30878 -0.00062043 -0.00018766
0.0022284 -0.0013531 0.0016288 0.0044987
-0.0019141 0.00075283 -4.1115e-05 0.0019843 -0.00064824 -0.00021123 -0.13845 0.2402
-0.018426 0.018243 -0.0065126 -0.0091498
0.0042752 0.0059081 0.0034663 0.0007082 0.0022892 -0.0013458 -0.018533 0.018271
-0.16935 0.15202 -0.025421 0.016433
-0.0041296 -0.0031443 0.003133 0.00029662 0.0015165 0.0044238 -0.006428 -0.0090066
-0.025481 0.016395 -0.19468 0.18787
920000000 -0.10729 0.26026 0.0042149 0.038701 -0.0093662 -0.0050994 -0.0022519 0.0015617
0.0010505 0.0019409 0.0025973 -0.0011703
0.0042279 0.038703 -0.26925 0.299 0.028031 0.023301 0.0014092 0.0013403
0.0074253 0.00031268 0.0044384 -0.0026611
-0.0094097 -0.0050973 0.028124 0.023229 0.058872 0.31059 0.0018294 3.6251e-05
0.00091685 -9.0225e-06 0.0010265 -0.0014981
-0.0021666 0.0014269 0.0014471 0.0013251 0.0018424 4.3242e-05 -0.1151 0.25701
-0.011861 0.030415 0.0041309 -0.0069606
0.0010641 0.0019585 0.0074264 0.00016104 0.00094793 1.2148e-05 -0.011728 0.030518
-0.15899 0.15755 -0.0018636 0.026721
0.002873 -0.0013454 0.0044879 -0.0024991 0.0010702 -0.0014499 0.0039722 -0.0069745
-0.0018329 0.027149 -0.20259 0.19986
980000000 -0.061313 0.28154 0.016279 0.030549 -0.009671 0.0043216 0.0018478 0.0038752
0.0037806 -0.0013457 -0.0029812 -0.0023282
0.016209 0.030616 -0.21672 0.33491 0.0333 0.0058814 0.0020193 -9.6997e-05
0.0016677 -0.0060771 -0.00043143 -0.0026921
-0.0096556 0.0043416 0.033393 0.0057811 0.10475 0.30532 0.00078265 -0.0011192
0.00051706 -0.0017747 0.0014051 -0.00013573
0.0018265 0.0038212 0.002048 -8.342e-05 0.00079476 -0.0011294 -0.076336 0.26781
0.0068702 0.029855 -0.0096352 -0.0071231
0.0038776 -0.0013106 0.0016132 -0.0060329 0.00050177 -0.0016876 0.0069238 0.029811
-0.12668 0.18861 0.0053078 0.019551
-0.0031971 -0.0024099 -0.00037846 -0.0025658 0.0014546 -0.00029637 -0.009556 -0.0071448
0.0053166 0.019505 -0.16096 0.24654
1040000000 -0.020289 0.29102 0.032957 0.019817 -0.0015893 0.0072212 0.0027259 0.00087455
0.00051532 -0.0033404 -0.00014811 -0.0017396
0.032888 0.019918 -0.18185 0.34897 0.030267 -0.014204 0.0015651 -0.0017829
-0.0024253 -0.0024845 -0.0012895 -0.00312
-0.0015698 0.0073138 0.030288 -0.014358 0.15072 0.29291 -0.00044343 -0.0016386
-0.001575 -0.00092048 -0.00058544 -0.0010213
0.0027779 0.00074817 0.0016116 -0.001724 -0.00043934 -0.0016328 -0.049833 0.27809
0.018699 0.019139 -0.0027768 0.0012027
0.00043752 -0.003309 -0.0024422 -0.002556 -0.0016269 -0.00094021 0.018799 0.019057
-0.094233 0.1963 0.014119 0.018762
-0.00023823 -0.0017447 -0.0012734 -0.0030438 -0.00056615 -0.00099881 -0.0026698 0.0012301
0.014156 0.01882 -0.14007 0.26712
1100000000 0.024501 0.30118 0.036856 -0.002693 0.0029873 0.0042761 0.0024519 -0.00098
-0.00211 -0.0028727 -0.0039355 -0.00016221
0.036795 -0.0026242 -0.13853 0.36823 0.016169 -0.02792 1.7048e-05 -0.0018973
-0.003515 -0.00084026 -0.0035841 -0.00046809
0.0029883 0.0043015 0.016089 -0.027973 0.19714 0.27392 -0.0019509 0.00011893
-0.0018228 0.00054774 -0.0010938 -0.00045792
0.0025053 -0.00097764 -1.8445e-05 -0.0018931 -0.0019395 0.00011643 -0.0099685 0.28358
0.024409 0.0059999 -0.0025601 0.00019719
-0.0021016 -0.0029847 -0.0035175 -0.00086424 -0.0018328 0.00056473 0.024521 0.0060574
-0.074279 0.20997 0.019694 0.0094093
-0.0039325 -0.00018529 -0.003609 -0.00043982 -0.0011085 -0.00048453 -0.0025362 3.3141e-05
0.019617 0.0094262 -0.092207 0.29794
1160000000 0.075545 0.29769 0.025259 -0.020071 0.0031905 -0.00039643 -9.2642e-05 -0.0024413
-0.0041805 -0.00090289 -0.0012686 0.0040054
0.025206 -0.020135 -0.095075 0.37343 -0.0030615 -0.029502 -0.0015479 -0.0017292
-0.0026456 0.0025153 -0.0016108 0.0018153
0.0031722 -0.00038169 -0.0031743 -0.029545 0.24052 0.24405 -0.00085471 0.0017908
-0.00055666 0.0018766 -0.00098442 0.00028284
-0.00010844 -0.0025262 -0.0015611 -0.0017336 -0.00084639 0.0017953 0.029138 0.2815
0.021427 -0.0098919 -0.0034117 0.0051468
-0.0040661 -0.0010264 -0.0026202 0.0025718 -0.00057109 0.0018413 0.021296 -0.0099498
-0.03986 0.21879 0.018882 -0.00035083
-0.0010689 0.0042402 -0.0015669 0.0018204 -0.0010938 0.00040796 -0.0033168 0.0052242
0.018824 -0.00031694 -0.046592 0.29993
1220000000 0.11932 0.28883 0.011963 -0.030222 -0.0012536 -0.0011245 6.9018e-05 -0.00099292
-0.0028127 0.0021733 0.0010318 0.0019999
0.012008 -0.03016 -0.050831 0.38742 -0.016864 -0.021875 -0.0026317 0.00045178
7.8955e-05 0.0030575 -0.00087798 0.0019714
-0.0012782 -0.0011485 -0.016991 -0.021845 0.27993 0.20597 0.00076871 0.0017551
0.00048358 0.0012114 0.00026307 0.00075505
0.00012316 -0.00092566 -0.0026102 0.00046443 0.0007628 0.0017531 0.069111 0.2737
0.010968 -0.016562 0.0022344 0.0016257
-0.0027813 0.0022049 7.2895e-05 0.0030866 0.00052613 0.0012187 0.010999 -0.016599
-0.01685 0.22851 0.014676 -0.012995
0.00093568 0.002046 -0.00080077 0.002031 0.00030673 0.0007108 0.0022548 0.0015133
0.014598 -0.013 -0.015344 0.31682
1280000000 0.16988 0.26895 -0.0069717 -0.0293 -0.0019098 0.0022317 -0.00092536 -0.0021143
-0.00087823 0.0032888 0.0026054 0.0013709
-0.0069779 -0.029282 -0.0041646 0.3796 -0.024166 -0.0087934 -0.00094758 0.00145
0.0016341 0.0017093 0.00071544 0.0020502
-0.0019128 0.0022172 -0.024232 -0.0086895 0.31097 0.16276 0.0016274 1.1044e-06
0.0011707 0.00018801 0.00039296 0.00018978
-0.00090788 -0.0021856 -0.00093337 0.0014475 0.001632 -1.4013e-05 0.10612 0.25821
0.001295 -0.019035 0.00011895 0.00019521
-0.00085319 0.003312 0.0017054 0.0017041 0.0011945 0.00025686 0.0013604 -0.01907
0.019955 0.2324 0.0034674 -0.015433
0.0026811 0.0014674 0.00070761 0.0019802 0.00032893 0.00014139 0.00010727 0.00023369
0.003458 -0.015531 0.031977 0.3195
1340000000 0.20758 0.23701 -0.017175 -0.019964 0.00066267 0.0045005 -0.0019817 -0.00091829
0.0014454 0.0028199 0.0019376 -0.0013507
-0.017124 -0.019973 0.035552 0.37245 -0.021831 0.00424 -0.00012932 0.0020417
0.0019959 0.00076964 0.0011501 0.00087471
0.00068414 0.0045021 -0.021824 0.0043742 0.33334 0.11586 0.0010431 -0.00098461
0.00070321 -0.00047093 3.3712e-05 0.00026211
-0.0019131 -0.00080403 -0.00011813 0.002037 0.0010579 -0.00099498 0.13981 0.23821
-0.0080956 -0.016598 0.0010364 0.00046
0.0015071 0.0028634 0.0019746 0.00074555 0.00067698 -0.00045576 -0.0081405 -0.016505
0.049963 0.22868 -0.0038584 -0.014352
0.0017998 -0.0014053 0.0011131 0.00080124 4.7136e-05 0.00021597 0.0011348 0.0004196
-0.0038843 -0.014265 0.070407 0.31576
1400000000 0.24217 0.20049 -0.023624 -0.0083363 0.0051264 0.003236 -0.0023352 0.00073781
0.0025771 0.0010216 0.00037708 -0.0015719
-0.023613 -0.008332 0.073868 0.36019 -0.014963 0.012649 0.001316 0.0012965
0.0012022 -0.00078798 0.0011785 0.00015851
0.0051602 0.0032553 -0.014923 0.012745 0.34717 0.062779 7.0049e-05 -0.0015784
9.4931e-05 -0.00039652 0.00029652 0.00028758
-0.0023329 0.00072337 0.001326 0.0012816 9.7404e-05 -0.0015736 0.1698 0.20971
-0.014245 -0.009849 -0.00074573 -0.0003488
0.0025707 0.0010205 0.0012252 -0.00081426 8.448e-05 -0.00040714 -0.014282 -0.0098701
0.083377 0.2254 -0.01007 -0.0090596
0.00041999 -0.0016362 0.0012051 0.00014182 0.0002724 0.00033743 -0.0007643 -0.00031217
-0.0099594 -0.0090901 0.11505 0.30509
1460000000 0.26577 0.15727 -0.020842 0.0042749 0.0056118 -0.0017822 -0.0015351 0.0017497
0.0022355 -0.00043422 -0.00032077 -0.00095717
-0.020839 0.0042519 0.10869 0.33846 -0.0057869 0.015646 0.00169 0.00022905
0.0009297 -0.0013369 0.0012335 -0.00049447
0.0056157 -0.0018176 -0.0057015 0.015701 0.35397 0.0088172 -0.0011792 -0.0011883
0.00018693 -0.00021865 0.00072726 -0.00028089
-0.0015512 0.001851 0.0017133 0.00022961 -0.0012053 -0.001191 0.19702 0.18065
-0.015373 -0.0031496 -0.0008549 0.0019154
0.0022285 -0.00048819 0.00089886 -0.001339 0.00024362 -0.00019961 -0.015376 -0.0031137
0.11319 0.21189 -0.012221 -0.0031679
-0.00026606 -0.001009 0.0012145 -0.0004577 0.00077195 -0.00027981 -0.00098244 0.0019294
-0.012313 -0.0031214 0.14844 0.28495
1520000000 0.27941 0.11623 -0.015309 0.010052 0.0033144 -0.0043025 0.00020645 0.0027004
0.0021669 -0.0019594 -0.0012907 -0.00011248
-0.015307 0.010022 0.14266 0.32441 0.0020704 0.012982 0.0016264 -0.00071693
5.5319e-05 -0.0010355 0.00034992 -0.0011001
0.003347 -0.0042782 0.0021431 0.012992 0.34764 -0.046873 -0.00098828 -0.00034683
0.00074942 -0.00096051 7.6432e-05 -0.0002568
0.00019021 0.0026444 0.0016244 -0.00071566 -0.0009732 -0.00035187 0.22083 0.14237
-0.014775 0.0025979 0.0014923 0.0020307
0.0021221 -0.0019639 4.5212e-05 -0.0010437 0.00071119 -0.00091862 -0.014768 0.0026262
0.14155 0.19941 -0.012096 0.0018101
-0.0012262 -4.7472e-05 0.00032777 -0.0011239 0.00012523 -0.00028289 0.0015877 0.0020054
-0.011939 0.0017141 0.18161 0.26555
1580000000 0.29018 0.070301 -0.008593 0.013539 -0.0010083 -0.0049888 0.0015627 0.0018398
-0.00019683 -0.0022285 -0.00024761 0.00042671
-0.0085962 0.013539 0.17038 0.2996 0.0056428 0.0077935 0.00060628 -0.0015461
-0.00043866 -0.0010597 -0.00010222 -0.0008879
-0.0010789 -0.0049733 0.0056781 0.0077679 0.32817 -0.1045 -0.001512 0.00043726
-0.00034344 -0.0013119 0.00037314 -0.00059062
0.0015477 0.0018778 0.00060778 -0.0015593 -0.0015393 0.00042916 0.23526 0.10273
-0.011303 0.007384 0.0021422 0.00068138
-0.0002026 -0.0022114 -0.00043496 -0.001062 -0.00035022 -0.0013274 -0.011319 0.0074469
0.16647 0.18205 -0.0095345 0.0075257
-0.00024233 0.00034206 -0.00015287 -0.00087935 0.00030981 -0.00056348 0.0021173 0.00070116
-0.0094643 0.0075865 0.21425 0.2392
1640000000 0.29316 0.029282 -0.0016209 0.012454 -0.0030515 -0.0025515 0.002714 0.0010763
-0.00080455 -0.0016612 -0.00050101 0.00067598
-0.0016272 0.012453 0.20006 0.27524 0.0058954 0.0028117 -0.00055768 -0.0018136
-0.00098688 -0.00047979 -0.00052401 -0.00070482
-0.0030629 -0.0025264 0.0059269 0.0027787 0.29981 -0.15334 -0.00085171 0.0013887
-0.0011847 -0.0010292 -0.00020432 -0.00053919
0.0027864 0.0010619 -0.00057067 -0.001796 -0.00084258 0.0014087 0.24812 0.05355
-0.0072072 0.0087479 0.0024843 -0.00072631
-0.00079492 -0.0015986 -0.00098903 -0.00046683 -0.0011744 -0.0010191 -0.0071339 0.0087651
0.1899 0.15897 -0.0046353 0.0097636
-0.00042907 0.00069335 -0.00056158 -0.00068939 -0.00028062 -0.0005259 0.0025029 -0.00070955
-0.0045651 0.0097509 0.24006 0.2092
1700000000 0.28722 -0.016098 0.0019062 0.0096534 -0.0036358 0.00015463 0.0031327 -0.0012254
-0.0020497 -0.00063385 0.00060887 0.00037428
0.0018852 0.0096628 0.21867 0.24393 0.0034503 -0.00012481 -0.0014104 -0.00068688
-0.00080654 -0.00012472 -0.00095335 -0.00053017
-0.0036544 0.00017116 0.0034696 -0.00014416 0.25726 -0.19294 0.00024425 0.0016575
-0.002121 -9.3494e-05 -0.00068173 -0.00092125
0.003122 -0.0012298 -0.0014397 -0.00069107 0.00021807 0.0016272 0.24509 0.0032483
-0.0043254 0.0091689 0.0016044 -0.0021997
-0.0019929 -0.00059767 -0.00080669 -0.00012113 -0.0020787 -9.4354e-05 -0.004372 0.0091731
0.20842 0.13939 0.00018244 0.0099426
0.00059897 0.00037241 -0.00097008 -0.00048443 -0.00067409 -0.00084407 0.0014833 -0.0021825
0.00011258 0.0098718 0.25755 0.17495
1760000000 0.27584 -0.06491 0.0043113 0.0063836 -0.0023102 0.0012989 0.0013131 -0.0034258
-0.0014003 0.00059054 0.0002859 -0.00058588
0.0042915 0.0063573 0.24482 0.20444 0.0009379 -0.0017226 -0.0013183 1.8688e-05
-0.0011303 0.00088788 -0.00053457 0.00040401
-0.0022606 0.0012843 0.00093939 -0.0017493 0.20992 -0.22637 0.0011125 0.0011303
-0.0011778 0.0015521 -0.0012472 -0.00048499
0.0013336 -0.0034711 -0.0013251 3.397e-05 0.0011155 0.0011411 0.23606 -0.048682
-0.0012465 0.0085041 -0.00030534 -0.0022947
-0.0013905 0.00058505 -0.0011509 0.00090359 -0.0012062 0.0015669 -0.0011827 0.0085008
0.22384 0.10527 0.0041474 0.007328
0.00027179 -0.00056762 -0.00057992 0.00036336 -0.0012821 -0.00053472 -0.00023289 -0.0022878
0.00417 0.0073519 0.27077 0.13782
1820000000 0.2524 -0.10242 0.004439 0.002817 4.8709e-06 0.0026582 -0.00099989 -0.0032316
-0.001126 0.00091753 -0.0001378 -0.00023618
0.0044676 0.0028047 0.25548 0.17478 -0.0014637 -0.00013839 -0.0014437 0.0009407
-0.0001655 0.0012499 -0.00065878 0.00049818
-1.5817e-05 0.0026345 -0.0014607 -0.0001438 0.15898 -0.24259 0.0016252 0.00054177
-0.00025017 0.0023514 -0.0015822 0.00041377
-0.0010424 -0.0032098 -0.00145 0.00094139 0.0016159 0.00053 0.20603 -0.096339
0.00046152 0.0070731 -0.001737 -0.0015534
-0.0011087 0.00093234 -0.0001548 0.0012678 -0.00020928 0.0023375 0.00043042 0.0070811
0.24215 0.077036 0.0051256 0.0036008
-0.00011303 -0.0002734 -0.00064007 0.00051745 -0.0015921 0.00041588 -0.0016927 -0.0016653
0.0051345 0.0035609 0.27372 0.10173
1880000000 0.2178 -0.14349 0.0023063 0.0004927 -0.00035089 0.0022348 -0.002959 -0.0022184
-0.00027161 0.0017146 0.00023735 -0.00060497
0.0022686 0.00052722 0.26012 0.12832 -0.0033037 0.002248 -0.00028499 0.0018308
0.00061847 0.001397 0.00018773 0.0010192
-0.00033598 0.0022289 -0.0033069 0.0022535 0.10689 -0.25154 0.0020094 -0.0010528
0.001642 0.0018513 -0.00090625 0.0015533
-0.0029299 -0.002316 -0.00028865 0.0018066 0.0019789 -0.0010165 0.16531 -0.13686
0.0012951 0.004891 -0.0021887 5.8621e-05
-0.00021828 0.0016723 0.0006472 0.0013655 0.0016542 0.0019087 0.0013644 0.0048438
0.24699 0.045736 0.0055968 0.0012154
0.00020091 -0.00062821 0.00014404 0.00099476 -0.00094506 0.001493 -0.0023737 9.4085e-05
0.0055779 0.0011478 0.2744 0.06755
1940000000 0.1784 -0.1695 0.00010913 -0.0012001 0.0017848 0.0021423 -0.0038493 0.00034054
0.0011416 0.0010732 -0.0007056 -0.00033634
7.4374e-05 -0.0011477 0.26125 0.096989 -0.0017205 0.0050246 0.00099721 0.0014194
0.0018867 0.00049787 0.00090941 0.00033486
0.0017999 0.002093 -0.0016759 0.0050246 0.061863 -0.24454 0.00050508 -0.0024986
0.0023844 0.00042309 0.00023874 0.0015961
-0.0039148 0.00036489 0.00099662 0.001437 0.00051664 -0.0025114 0.11212 -0.16718
0.00030134 0.0036808 -0.0016055 0.0015654
0.0011637 0.0011092 0.0018885 0.00051022 0.0023813 0.00039424 0.0002707 0.003686
0.25062 0.0078131 0.0039411 -0.0023464
-0.00067269 -0.00034828 0.00086162 0.00028392 0.00023615 0.0016911 -0.001491 0.0015328
0.0037933 -0.0023224 0.26352 0.031574
2000000000 0.13266 -0.18473 -0.003705 0.0008874 0.0027051 0.0013602 -0.0023267 0.0037522
0.0012468 0.00047677 -0.00059878 0.00050124
-0.003739 0.00089829 0.24757 0.061604 -0.0008551 0.006988 0.0017749 0.00044181
0.0014234 -0.0011914 0.00047564 8.679e-05
0.0027759 0.0014192 -0.00079191 0.0070191 0.018903 -0.23047 -0.0013663 -0.0015741
0.0021452 -0.0011692 0.0015948 0.0014449
-0.0022942 0.0036898 0.0017764 0.0004051 -0.0013659 -0.0016249 0.058493 -0.1769
-0.0013238 0.0035691 -7.4305e-05 0.0023518
0.0011882 0.00042289 0.0014129 -0.0012575 0.0020948 -0.0011893 -0.0013278 0.003604
0.24637 -0.02521 0.00068568 -0.0029976
