!Keysight Technologies,M9804A,MY58100912,A.14.10.03
!Date: Thursday, April 27, 2023 10:28:33
!Correction: S11(C  6-Port  ) 
!S12(C  6-Port  ) 
!S13(C  6-Port  ) 
!S14(C  6-Port  ) 
!S15(C  6-Port  ) 
!S16(C  6-Port  ) 
!S21(C  6-Port  ) 
!S22(C  6-Port  ) 
!S23(C  6-Port  ) 
!S24(C  6-Port  ) 
!S25(C  6-Port  ) 
!S26(C  6-Port  ) 
!S31(C  6-Port  ) 
!S32(C  6-Port  ) 
!S33(C  6-Port  ) 
!S34(C  6-Port  ) 
!S35(C  6-Port  ) 
!S36(C  6-Port  ) 
!S41(C  6-Port  ) 
!S42(C  6-Port  ) 
!S43(C  6-Port  ) 
!S44(C  6-Port  ) 
!S45(C  6-Port  ) 
!S46(C  6-Port  ) 
!S51(C  6-Port  ) 
!S52(C  6-Port  ) 
!S53(C  6-Port  ) 
!S54(C  6-Port  ) 
!S55(C  6-Port  ) 
!S56(C  6-Port  ) 
!S61(C  6-Port  ) 
!S62(C  6-Port  ) 
!S63(C  6-Port  ) 
!S64(C  6-Port  ) 
!S65(C  6-Port  ) 
!S66(C  6-Port  ) 
!S6P File: Measurement: :
# Hz S  RI   R 50
500000000 -0.33129 -0.060881 -0.0099115 -0.0017559 -0.0089977 0.012765 -0.0041368 0.011647
0.013445 0.005453 -0.0043456 0.0067471
-0.010028 -0.0016596 -0.41339 -0.069979 0.0082652 -0.010812 0.0017478 0.011752
0.0079664 0.0024899 0.0022679 0.014039
-0.0093793 0.013134 0.0082276 -0.010664 -0.26693 0.1935 0.0064565 0.0034221
-0.0021117 0.0088237 -0.00011273 0.011556
-0.0041874 0.011355 0.0020408 0.011735 0.006455 0.0035444 -0.33082 0.039021
-0.019417 -0.0044119 0.01884 0.026257
0.013866 0.0057058 0.0081675 0.0032734 -0.0017582 0.008569 -0.018735 -0.0040062
-0.24034 -0.20716 -0.027714 0.0057148
-0.0043069 0.0065774 0.0026801 0.013479 -0.0001543 0.012239 0.017281 0.025489
-0.02748 0.0050257 -0.26475 -0.13252
560000000 -0.31922 0.10568 -0.021957 -0.065923 -0.00016505 0.01381 0.0053062 0.011565
0.010071 0.0050164 0.010491 0.0085267
-0.021957 -0.065867 -0.37366 0.094142 -0.041413 -0.038919 0.014194 0.0038388
-0.011524 -0.0051814 0.0046008 3.8641e-05
-8.4218e-05 0.013819 -0.041809 -0.038899 -0.18727 0.24623 -0.00072932 -0.0052543
0.018607 0.00684 0.0075289 -0.0056744
0.0051055 0.011353 0.014399 0.0040024 -0.00023242 -0.004957 -0.30714 0.13198
0.0060296 -0.024717 0.005545 -0.020883
0.010182 0.0051275 -0.012297 -0.0046792 0.01833 0.0057311 0.0054565 -0.023124
-0.30879 -0.023792 0.0095237 -0.052071
0.010979 0.0085485 0.0041817 0.00020252 0.0078098 -0.0056397 0.0056702 -0.021064
0.0093298 -0.050649 -0.33252 0.017834
620000000 -0.27907 0.085495 -0.023427 0.0086965 0.0037016 0.0096231 0.0080089 -0.0042502
0.012463 -0.0021095 -0.00045574 -0.0013597
-0.023357 0.0085939 -0.40288 0.042066 -0.018494 0.00025488 -0.0016432 -0.0019877
0.012528 -0.0058747 0.00099555 -0.0029166
0.0038173 0.0093332 -0.018497 0.00032234 -0.15725 0.25562 -0.0007723 -0.0051121
-0.0037299 -0.0030524 0.0099881 -0.0025836
0.0083902 -0.0041852 -0.0018352 -0.0019983 -0.00062241 -0.0053013 -0.26467 0.14267
-0.039218 -0.020517 0.013523 0.027828
0.011839 -0.0020955 0.012485 -0.0060203 -0.0034269 -0.0026986 -0.039461 -0.020623
-0.22828 -0.058808 -0.040657 0.011421
-0.00039757 -0.0021809 0.00061069 -0.0028295 0.010162 -0.0029476 0.013598 0.027818
-0.042063 0.011078 -0.24741 -0.019532
680000000 -0.24231 0.17875 -0.026174 -0.014925 0.005142 0.0053035 0.0012413 -0.0073991
-0.0012788 -0.011377 0.0059165 -0.0073513
-0.026226 -0.0149 -0.39048 0.14368 -0.032488 -0.0025974 -0.0018613 -0.00029088
-0.0014407 -0.0092006 -0.0005485 -0.0022842
0.0052599 0.005517 -0.032517 -0.002451 -0.1063 0.27745 -0.00088508 -0.00018564
-0.0012833 0.00047454 -0.0024925 -0.0095705
0.0014746 -0.0073437 -0.0017331 -0.00021993 -0.0006548 -0.00028733 -0.22093 0.19381
-0.022804 -0.0074815 -0.0098399 -0.01147
-0.0015011 -0.01181 -0.0014276 -0.0092039 -0.0013275 0.00062709 -0.02313 -0.0077825
-0.28066 0.04275 -0.0074702 -0.0071936
0.006613 -0.0069846 -0.00065396 -0.0021272 -0.0021874 -0.0098155 -0.0097863 -0.011393
-0.0056148 -0.0065939 -0.26199 0.086103
740000000 -0.19561 0.17217 -0.039808 0.026654 0.014157 -0.0040682 6.9193e-05 -0.0040919
-0.0043434 -0.0028053 -0.0065865 0.0027799
-0.040147 0.026594 -0.33644 0.16329 -0.037651 0.034725 0.00049827 -0.0059811
-0.013323 0.0076659 -0.0003272 -0.0053563
0.013962 -0.0044054 -0.037758 0.035033 -0.072202 0.2746 -0.001902 0.0034734
-0.0020199 -0.0064961 -0.0020528 0.0011047
-5.3362e-05 -0.0041498 0.00047481 -0.0055787 -0.001744 0.0035227 -0.20408 0.20121
-0.043954 -0.0094541 0.022577 0.015823
-0.0041927 -0.0032239 -0.012772 0.0072239 -0.0020453 -0.0055615 -0.043141 -0.0097356
-0.18032 0.074511 -0.042829 0.00031474
-0.0065544 0.0029234 -0.00078597 -0.0050445 -0.0014769 0.00087683 0.02284 0.015928
-0.044561 -0.00070998 -0.25142 0.092204
800000000 -0.16406 0.21711 -0.022352 0.015908 0.0059582 -0.010668 -0.004815 -0.0026305
-0.0042184 0.0020876 0.004329 0.00027564
-0.022387 0.016025 -0.34352 0.23358 -0.0090402 0.034205 -0.0022269 0.0019441
-0.00093153 0.0026119 0.00095183 0.0051323
0.0059988 -0.010646 -0.0089781 0.034217 -0.033892 0.29961 0.00075845 0.0012788
0.00023626 0.0032214 -0.0016984 0.00076378
-0.0045304 -0.0023079 -0.0021216 0.0018731 0.00078981 0.0012384 -0.17582 0.22882
-0.028669 0.012272 0.014027 -0.010177
-0.0043359 0.0019128 -0.0010771 0.002698 1.9253e-05 0.0034123 -0.02815 0.012722
-0.22502 0.10057 -0.018232 0.020211
0.0039367 0.00048561 0.0010202 0.0049589 -0.0019243 0.00049392 0.013488 -0.010154
-0.017195 0.01894 -0.24515 0.14246
860000000 -0.1303 0.23731 -0.0184 0.030351 -0.0028782 -0.010447 -0.0020994 0.00030066
0.0037531 0.0054217 -0.003994 -0.0026921
-0.018294 0.030268 -0.29636 0.27749 0.0069873 0.034916 0.00016924 0.0022387
0.0032142 0.0010312 0.0034686 0.00064755
-0.0028949 -0.010347 0.0071434 0.034896 0.013317 0.30872 -0.00070698 -0.00020193
0.0022034 -0.0012854 0.0016388 0.0043957
-0.0022659 0.00034359 5.7137e-05 0.0023484 -0.00069927 -0.00024125 -0.1389 0.24005
-0.018659 0.017526 -0.0065598 -0.0088474
0.0038096 0.0055204 0.0033883 0.00083497 0.0022784 -0.0013848 -0.018955 0.017902
-0.17011 0.15451 -0.025087 0.017194
-0.0037874 -0.0034362 0.0033615 0.00021605 0.0017364 0.0043156 -0.0058424 -0.0092707
-0.024902 0.017155 -0.19565 0.18725
920000000 -0.10737 0.26067 0.0043166 0.038782 -0.0094162 -0.0052177 -0.0021049 0.0017038
0.00080727 0.0022341 0.00307 -0.0013268
0.0042858 0.038711 -0.26912 0.29928 0.028098 0.023381 0.0013777 0.00096411
0.0076216 0.00073036 0.004666 -0.0027815
-0.0094156 -0.0052361 0.028232 0.023289 0.058741 0.31076 0.0018787 3.277e-05
0.00076062 9.9801e-05 0.00090835 -0.0014042
-0.0020817 0.0016419 0.0013964 0.0011045 0.0018872 1.24e-05 -0.11505 0.25722
-0.011518 0.030829 0.0042024 -0.006902
0.00082037 0.0023291 0.0075756 0.00046136 0.00079353 0.00018262 -0.011735 0.031025
-0.15937 0.16034 -0.00055595 0.027109
0.0028477 -0.00117 0.0045696 -0.0028528 0.00091837 -0.0014782 0.0037449 -0.0066281
-0.00041861 0.027121 -0.20127 0.20034
980000000 -0.061198 0.28156 0.016315 0.030684 -0.0097507 0.0042547 0.0018212 0.003815
0.0042055 -0.0013479 -0.0030238 -0.0025528
0.01627 0.030641 -0.21667 0.33504 0.033478 0.0058873 0.0020995 -3.2814e-05
0.0017915 -0.0059704 -0.00025172 -0.0027159
-0.0097598 0.0042397 0.033551 0.0058015 0.10471 0.30549 0.00078379 -0.0011487
0.00064232 -0.0018949 0.0014271 -0.00026075
0.0018452 0.0037299 0.0020935 -7.5619e-05 0.00077816 -0.0011636 -0.076669 0.26834
0.0071198 0.030016 -0.0095809 -0.007447
0.0041635 -0.0014002 0.0017665 -0.0060331 0.00062976 -0.0019345 0.007247 0.029955
-0.12542 0.18948 0.0057457 0.019791
-0.0029344 -0.0026971 -0.00039252 -0.002981 0.0013305 -0.00033726 -0.0093182 -0.007348
0.0051616 0.019894 -0.16057 0.24647
1040000000 -0.020362 0.29104 0.033052 0.01982 -0.0016174 0.0072252 0.0026481 0.0009216
0.00064752 -0.0033253 -7.2782e-05 -0.0017896
0.033049 0.01989 -0.18185 0.34913 0.030455 -0.014327 0.0016746 -0.0017363
-0.001965 -0.0024954 -0.0010666 -0.003262
-0.0016653 0.0072655 0.030462 -0.014428 0.15078 0.2932 -0.00039246 -0.0016602
-0.001551 -0.00091452 -0.00053919 -0.0010827
0.0027498 0.00092582 0.0016253 -0.0017759 -0.00039282 -0.001691 -0.050062 0.27836
0.019072 0.018948 -0.0026429 0.001078
0.00049541 -0.0034213 -0.002151 -0.002617 -0.0015443 -0.00090112 0.019158 0.019092
-0.092245 0.19807 0.014272 0.01848
-4.9787e-05 -0.0016012 -0.0012447 -0.0031276 -0.00052461 -0.0010721 -0.0025885 0.0010729
0.014384 0.018004 -0.13873 0.2671
1100000000 0.024673 0.30119 0.036926 -0.0027604 0.0030353 0.0043778 0.0024348 -0.0010329
-0.0023596 -0.003019 -0.0041678 4.772e-06
0.03693 -0.0027289 -0.13856 0.36844 0.016368 -0.02812 5.2901e-05 -0.0018824
-0.0038438 -0.00083513 -0.0036364 -0.0003319
0.0030388 0.0043942 0.016277 -0.028208 0.19728 0.2742 -0.0019951 0.0001445
-0.0018604 0.0005565 -0.0012145 -0.00051543
0.0024574 -0.0010382 8.7128e-06 -0.0018668 -0.0020474 0.00012944 -0.0098222 0.28385
0.02496 0.0058903 -0.0024893 5.1095e-05
-0.0023582 -0.0029863 -0.0038025 -0.00085351 -0.0018806 0.00053064 0.025035 0.0059002
-0.073234 0.21106 0.019751 0.0094098
-0.0042011 9.349e-05 -0.0037269 -0.00026221 -0.0011543 -0.00050749 -0.0025557 0.00014289
0.019631 0.0092841 -0.092078 0.29755
1160000000 0.075474 0.29785 0.025314 -0.020257 0.0031542 -0.00040027 -0.00016485 -0.0024642
-0.0041828 -0.00088296 -0.0011028 0.0040683
0.025347 -0.020246 -0.095015 0.37369 -0.0031424 -0.029674 -0.0015895 -0.001759
-0.0026315 0.0024701 -0.0016984 0.0017547
0.0031106 -0.00044015 -0.0032335 -0.029699 0.24087 0.24423 -0.00085248 0.0017223
-0.00058947 0.0019562 -0.0010626 0.00050989
-6.7202e-05 -0.0023774 -0.0015838 -0.0017409 -0.00084604 0.0017285 0.029277 0.28184
0.021373 -0.010141 -0.0035491 0.0053603
-0.0041046 -0.00095648 -0.0026742 0.0025445 -0.00058966 0.002004 0.021394 -0.010197
-0.038788 0.21901 0.018883 -0.00028481
-0.0011776 0.0041319 -0.0015598 0.001694 -0.0010325 0.00044007 -0.0033202 0.0053471
0.018988 2.291e-06 -0.045403 0.30101
1220000000 0.11937 0.28899 0.011923 -0.030476 -0.001274 -0.0011528 0.00013486 -0.00099393
-0.0028902 0.0021928 0.001112 0.0022151
0.011952 -0.030427 -0.050494 0.38781 -0.017038 -0.022084 -0.002625 0.00046711
8.7942e-06 0.0031239 -0.00072585 0.0021295
-0.001298 -0.0011301 -0.017155 -0.022045 0.28027 0.2058 0.000717 0.0018101
0.00055483 0.0012037 0.00026696 0.00067937
5.0536e-05 -0.00093809 -0.0026588 0.00049677 0.00074607 0.0018322 0.069378 0.27407
0.011103 -0.017162 0.0022576 0.0015185
-0.0029084 0.0021775 4.8934e-05 0.0031239 0.00051096 0.0012392 0.011061 -0.017132
-0.015307 0.22912 0.014525 -0.013072
0.0010093 0.0022397 -0.00074715 0.0021186 0.00033192 0.00079192 0.0021059 0.0015815
0.014451 -0.013331 -0.014664 0.31717
1280000000 0.17 0.26931 -0.0071693 -0.029523 -0.0019665 0.0022491 -0.00094029 -0.0021419
-0.00089167 0.003351 0.0026841 0.0013587
-0.007115 -0.029486 -0.0037321 0.37989 -0.024434 -0.0088185 -0.00093778 0.0015092
0.0017985 0.0017786 0.00069758 0.0020256
-0.0019627 0.0022811 -0.024512 -0.008729 0.31108 0.16242 0.0017481 -1.6686e-06
0.0012202 0.00031372 0.00032648 0.00034666
-0.00095773 -0.0021139 -0.00094203 0.0014864 0.0016687 6.126e-06 0.10648 0.25817
0.0011782 -0.019436 0.00011528 0.00029166
-0.00081175 0.0033292 0.0017684 0.0017312 0.0011494 0.00024154 0.0011343 -0.019502
0.021134 0.23297 0.0035127 -0.015898
0.0026468 0.0013391 0.00072499 0.0020592 0.00032071 0.0003583 9.4693e-05 0.00028215
0.0034682 -0.015625 0.032689 0.32001
1340000000 0.20756 0.23721 -0.017486 -0.019989 0.00057818 0.0045648 -0.001898 -0.00086569
0.0015033 0.0028683 0.0019038 -0.0013603
-0.01745 -0.019988 0.036058 0.37249 -0.021988 0.0043511 -0.00010479 0.0020162
0.0019979 0.00074115 0.0012246 0.00074249
0.00059633 0.0045809 -0.022011 0.0044785 0.33318 0.11563 0.0010021 -0.00099985
0.00061874 -0.00055369 5.3278e-05 0.00020766
-0.0018877 -0.00084963 -5.2687e-05 0.0020414 0.00099637 -0.00099808 0.14001 0.23814
-0.0086289 -0.016696 0.00092721 0.00050975
0.0015076 0.0027938 0.0020099 0.0007002 0.0006318 -0.0005376 -0.0086401 -0.016769
0.050867 0.22912 -0.0039435 -0.014463
0.0018448 -0.0012992 0.0011978 0.00077241 9.6342e-05 0.00020107 0.00093697 0.00043309
-0.0038997 -0.014439 0.071011 0.31518
1400000000 0.24242 0.20054 -0.023872 -0.0082125 0.0052738 0.0033992 -0.0023414 0.00072377
0.002644 0.0010198 0.00036119 -0.0017652
-0.023884 -0.0081933 0.074451 0.35999 -0.015065 0.012869 0.0013243 0.0012775
0.0012312 -0.00081624 0.0012025 0.00014352
0.0052871 0.0033458 -0.015017 0.012962 0.34671 0.062701 -1.118e-05 -0.0015686
0.00013332 -0.00041459 0.00034198 0.00022239
-0.0023332 0.00074863 0.001297 0.0012513 2.443e-05 -0.0015796 0.17016 0.2095
-0.014834 -0.0097867 -0.00067943 -0.00022991
0.0026892 0.0010676 0.0012535 -0.00088821 0.00019004 -0.00039658 -0.014866 -0.0096955
0.084629 0.22526 -0.010503 -0.0093009
0.00033169 -0.0017344 0.0011724 0.00012704 0.00040647 0.00021755 -0.00074798 -0.00011163
-0.010641 -0.0092801 0.11564 0.30545
1460000000 0.26602 0.15732 -0.021044 0.0045299 0.0057745 -0.0017537 -0.0015163 0.0017919
0.0023112 -0.00038741 -0.00031333 -0.00093631
-0.020975 0.0045207 0.10904 0.33804 -0.005777 0.015831 0.0016731 0.00020991
0.00093224 -0.0013128 0.0012223 -0.000522
0.0057486 -0.0017913 -0.0056791 0.015917 0.35366 0.0091598 -0.0011836 -0.00119
0.00020984 -0.00014843 0.00086108 -0.00014208
-0.0015285 0.0018222 0.0016986 0.00018602 -0.0012422 -0.0011947 0.19699 0.18021
-0.015791 -0.0028425 -0.00091307 0.001956
0.0023454 -0.00043444 0.00089502 -0.0013301 0.00016098 -0.00016642 -0.015788 -0.002819
0.1143 0.21168 -0.012531 -0.0031563
-0.00023808 -0.0010387 0.0012298 -0.00058193 0.00076292 -0.00021724 -0.00090677 0.0019935
-0.012571 -0.0030637 0.14913 0.28462
1520000000 0.27955 0.11622 -0.015313 0.010345 0.0034655 -0.0043634 0.00017373 0.0026547
0.0021877 -0.0020064 -0.001179 -8.9784e-05
-0.015291 0.010307 0.14282 0.32392 0.0021766 0.013105 0.0016559 -0.00071292
2.5113e-05 -0.0010276 0.00034953 -0.0010593
0.0034327 -0.0044128 0.0022433 0.013119 0.3473 -0.046405 -0.00097112 -0.00032152
0.00072846 -0.0009295 3.752e-05 -0.00014995
0.00019344 0.0026315 0.0016725 -0.00070851 -0.00092563 -0.00031255 0.2208 0.14214
-0.014859 0.0032174 0.0015127 0.0021698
0.0021692 -0.0019985 1.0789e-05 -0.0010474 0.00071952 -0.00095293 -0.01486 0.0032546
0.1428 0.19923 -0.012219 0.0018581
-0.0011987 -5.345e-06 0.00032222 -0.001039 0.00014992 -0.00023661 0.0015969 0.0021032
-0.012207 0.0018541 0.18214 0.26536
1580000000 0.29026 0.070199 -0.0083572 0.013825 -0.00098577 -0.0050947 0.0015297 0.0018623
-0.00022071 -0.0022981 -0.00017084 0.00029653
-0.0083638 0.013786 0.17036 0.29914 0.0057681 0.0078247 0.00057681 -0.0015767
-0.00048049 -0.0010437 -0.00016836 -0.0008808
-0.0010279 -0.0051028 0.0057979 0.0077914 0.32825 -0.10403 -0.0015243 0.00046254
-0.00033003 -0.0013831 0.00032702 -0.00068355
0.0015736 0.0018442 0.00057714 -0.0015585 -0.0015482 0.00046048 0.23496 0.10234
-0.011148 0.0078646 0.0022696 0.00071323
-0.00024314 -0.0023317 -0.00049853 -0.0010337 -0.00034112 -0.0013492 -0.011112 0.0078812
0.1676 0.18157 -0.009656 0.0077697
-0.00020866 0.00028842 -0.00023571 -0.00087032 0.00033065 -0.00070946 0.002217 0.0008265
-0.0097273 0.0078066 0.21479 0.23906
1640000000 0.29307 0.029146 -0.0013197 0.012503 -0.0031161 -0.0026846 0.0027088 0.0010007
-0.0008409 -0.0017084 -0.00036322 0.00068842
-0.001358 0.012482 0.19975 0.27483 0.0060165 0.0026992 -0.00054415 -0.0018569
-0.00093673 -0.00047328 -0.00054549 -0.00068533
-0.0031261 -0.0026886 0.0060426 0.0026923 0.3003 -0.1529 -0.00077123 0.0013092
-0.0010612 -0.00098839 -0.00033335 -0.00043914
0.0026836 0.00099235 -0.0005311 -0.0018526 -0.00076965 0.0012806 0.24756 0.053501
-0.0067418 0.0089227 0.0024631 -0.00086528
-0.00086585 -0.0016807 -0.00092538 -0.00048652 -0.0011343 -0.0010909 -0.0066993 0.0089619
0.19102 0.15843 -0.0045764 0.0099391
-0.00029068 0.00063563 -0.0005636 -0.0006736 -0.00030557 -0.00045655 0.0026197 -0.00087041
-0.0046372 0.0098496 0.24078 0.20858
1700000000 0.28704 -0.016069 0.0021913 0.0095551 -0.0037746 0.00019594 0.003084 -0.0012428
-0.0021239 -0.00060091 0.00061333 0.00039984
0.0021864 0.0095448 0.21828 0.24372 0.0034945 -0.00019936 -0.0014396 -0.00072381
-0.00076145 -8.6819e-05 -0.00086941 -0.00043931
-0.0038033 0.00024351 0.0034834 -0.00026605 0.25783 -0.19287 0.00029869 0.0016161
-0.0021264 -6.8277e-05 -0.00049536 -0.00072941
0.003109 -0.0012432 -0.001466 -0.00070147 0.00022728 0.001643 0.24468 0.0033713
-0.0039073 0.0091814 0.0016215 -0.0022394
-0.0021384 -0.00059028 -0.00078557 -7.4356e-05 -0.002129 -2.8678e-05 -0.0038959 0.0092017
0.20929 0.13873 0.00020865 0.010095
0.00053902 0.00038147 -0.00089921 -0.00048629 -0.0005607 -0.00082922 0.0016042 -0.0022144
0.00024955 0.010223 0.25788 0.17476
1760000000 0.27565 -0.064659 0.0044845 0.0061312 -0.0023091 0.0013317 0.0013887 -0.0034236
-0.0013518 0.00068041 0.00025391 -0.00048481
0.0044698 0.0061492 0.24438 0.20445 0.00094571 -0.001738 -0.0012919 7.7368e-05
-0.0011728 0.00084387 -0.00063417 0.00036957
-0.0023671 0.0012703 0.00094616 -0.0017527 0.21005 -0.22636 0.0010088 0.0012586
-0.001235 0.0015251 -0.001234 -0.00068006
0.0013347 -0.0034642 -0.0012945 7.3472e-05 0.0010221 0.0011767 0.23547 -0.048349
-0.0010963 0.0081967 -0.00025192 -0.0024798
-0.001373 0.00069264 -0.0011287 0.00085124 -0.0011814 0.0014909 -0.0010118 0.008125
0.22449 0.10456 0.004356 0.0074755
0.00029964 -0.00054819 -0.00057881 0.00036121 -0.001348 -0.00048638 -0.00018659 -0.0023645
0.004324 0.0074961 0.27112 0.13758
1820000000 0.2523 -0.10187 0.0045063 0.0025976 3.7579e-05 0.0027236 -0.00098169 -0.0031402
-0.0011265 0.00099648 -0.00016227 -4.3849e-05
0.0044851 0.0025939 0.25509 0.17504 -0.0013669 -0.00010235 -0.0014785 0.00096945
-0.00016003 0.0012263 -0.00066097 0.0004928
9.2818e-05 0.0027012 -0.0013596 -7.2776e-05 0.15943 -0.24212 0.0016295 0.00054865
-0.00028135 0.002363 -0.001552 0.00045977
-0.00099794 -0.0031171 -0.0014687 0.000962 0.0016429 0.00056239 0.20602 -0.09551
0.00045186 0.0068246 -0.0017594 -0.0016918
-0.0010939 0.0010596 -0.00017638 0.0012614 -0.00027543 0.0023592 0.00045331 0.0068254
0.24259 0.076349 0.005215 0.0036136
-0.00017912 -0.00017576 -0.00063848 0.00055541 -0.0015434 0.00030765 -0.0018928 -0.0019034
0.0052938 0.0035404 0.27403 0.10159
1880000000 0.21793 -0.14298 0.0021103 0.00039545 -0.00040578 0.0022938 -0.0028196 -0.0022081
-7.3834e-05 0.0017519 0.00026072 -0.00043704
0.0021254 0.00036892 0.25984 0.1286 -0.003244 0.0021544 -0.00021493 0.0018463
0.00056061 0.0014855 0.00013814 0.0010553
-0.00036615 0.0023011 -0.0032274 0.0021351 0.10771 -0.25148 0.0020644 -0.00085129
0.0016701 0.0020459 -0.00090045 0.0015359
-0.0028323 -0.0022812 -0.00022503 0.0018566 0.0021063 -0.00080315 0.16531 -0.1363
0.0011204 0.0048913 -0.002347 0.00021429
-0.00013168 0.0017347 0.00056624 0.0014454 0.0016164 0.0020099 0.0010977 0.0048158
0.24713 0.045082 0.0056691 0.0011754
0.00027914 -0.00031826 9.8046e-05 0.0010251 -0.0011299 0.0015039 -0.0024143 0.0004479
0.0056054 0.0013881 0.27478 0.067424
1940000000 0.17895 -0.16917 -3.1057e-05 -0.0012361 0.0016045 0.0019595 -0.0039589 0.00033461
0.0012062 0.0010689 -0.00061151 -0.00048562
-3.0771e-05 -0.0012331 0.26111 0.097355 -0.0017009 0.0047448 0.0010691 0.0014148
0.001897 0.00063839 0.00092149 0.00034994
0.0016137 0.0019797 -0.0016373 0.0047704 0.062502 -0.24485 0.0005955 -0.0024754
0.0024154 0.00043262 0.00036949 0.001638
-0.0038489 0.00044066 0.001162 0.0013671 0.00058484 -0.0025622 0.11294 -0.16641
0.00022314 0.0036777 -0.0015614 0.0018314
0.0011979 0.0010529 0.0019551 0.0005841 0.0024619 0.00042032 0.00023878 0.0038014
0.25082 0.0072109 0.004062 -0.0023129
-0.00056083 -0.00064034 0.00091321 0.00040795 0.00030753 0.0015749 -0.0016462 0.0015557
0.0039079 -0.0025445 0.26375 0.031059
2000000000 0.1333 -0.1845 -0.0037293 0.00089078 0.0028644 0.0015948 -0.0022189 0.0036901
0.0011689 0.00034332 -0.00062241 0.00041854
-0.0037245 0.00089752 0.24761 0.062085 -0.00099963 0.006859 0.0017783 0.00038564
0.0015188 -0.0012808 0.00059681 8.3522e-06
0.0028762 0.0015475 -0.00093892 0.0068824 0.019072 -0.231 -0.0013496 -0.0017541
0.0021643 -0.0012379 0.0016294 0.0015645
-0.0024077 0.003615 0.0017533 0.0003189 -0.001415 -0.0017662 0.059351 -0.17706
-0.0012439 0.003609 3.158e-05 0.0020244
0.001137 0.00031892 0.0014897 -0.0012327 0.0021721 -0.0011967 -0.0012175 0.0034466
0.24666 -0.025771 0.00076455 -0.0032682
