!Keysight Technologies,M9804A,MY58100912,A.14.10.03
!Date: Thursday, April 27, 2023 10:28:33
!Correction: S11(C  6-Port  ) 
!S12(C  6-Port  ) 
!S13(C  6-Port  ) 
!S14(C  6-Port  ) 
!S15(C  6-Port  ) 
!S16(C  6-Port  ) 
!S21(C  6-Port  ) 
!S22(C  6-Port  ) 
!S23(C  6-Port  ) 
!S24(C  6-Port  ) 
!S25(C  6-Port  ) 
!S26(C  6-Port  ) 
!S31(C  6-Port  ) 
!S32(C  6-Port  ) 
!S33(C  6-Port  ) 
!S34(C  6-Port  ) 
!S35(C  6-Port  ) 
!S36(C  6-Port  ) 
!S41(C  6-Port  ) 
!S42(C  6-Port  ) 
!S43(C  6-Port  ) 
!S44(C  6-Port  ) 
!S45(C  6-Port  ) 
!S46(C  6-Port  ) 
!S51(C  6-Port  ) 
!S52(C  6-Port  ) 
!S53(C  6-Port  ) 
!S54(C  6-Port  ) 
!S55(C  6-Port  ) 
!S56(C  6-Port  ) 
!S61(C  6-Port  ) 
!S62(C  6-Port  ) 
!S63(C  6-Port  ) 
!S64(C  6-Port  ) 
!S65(C  6-Port  ) 
!S66(C  6-Port  ) 
!S6P File: Measurement: :
# Hz S  RI   R 50
500000000 -0.33091 -0.065148 -0.0092218 -0.00076913 -0.008589 0.01309 -0.0035122 0.011781
0.013195 0.0058653 -0.0037935 0.0074112
-0.0092269 -0.00056721 -0.41198 -0.073534 0.0087807 -0.010635 0.0011279 0.012572
0.0084255 0.0024626 0.0015045 0.013863
-0.0085663 0.01311 0.0088397 -0.010661 -0.26567 0.19045 0.0068228 0.003834
-0.0021827 0.0083812 0.00027163 0.012494
-0.0034014 0.011837 0.0013287 0.012531 0.0068448 0.0038106 -0.33031 0.03693
-0.018351 -0.0051484 0.016743 0.025479
0.013088 0.0059079 0.0083521 0.0025153 -0.0021787 0.0084613 -0.018151 -0.0050525
-0.23654 -0.2133 -0.026207 0.0041733
-0.0034448 0.007383 0.0015862 0.013672 0.00027481 0.012444 0.016429 0.025522
-0.026349 0.0038722 -0.26493 -0.14411
560000000 -0.32051 0.10238 -0.020698 -0.06736 -0.00027489 0.014232 0.0052307 0.01211
0.010528 0.0054028 0.01007 0.0081057
-0.020795 -0.067186 -0.37311 0.090851 -0.041379 -0.039222 0.014358 0.0035198
-0.013297 -0.0050842 0.0057623 -0.00020193
-0.00031144 0.014185 -0.04156 -0.039144 -0.18759 0.24263 -0.00048866 -0.004694
0.018336 0.0059443 0.0068502 -0.0054315
0.005233 0.012292 0.014423 0.0034679 -0.00049203 -0.0047615 -0.30709 0.12895
0.0059416 -0.023177 0.0062774 -0.021161
0.010423 0.0053973 -0.013037 -0.0047656 0.018095 0.005792 0.0062166 -0.02301
-0.30738 -0.034402 0.012426 -0.048712
0.010291 0.0085696 0.00545 -0.00032612 0.0071194 -0.0053167 0.0062026 -0.021236
0.012805 -0.048901 -0.3327 0.011908
620000000 -0.2794 0.082855 -0.023482 0.0087797 0.0031245 0.0097146 0.0084367 -0.0043847
0.012184 -0.0017836 0.00069139 -0.0011108
-0.02347 0.0087506 -0.40239 0.038041 -0.018654 0.0001578 -0.0013876 -0.0022055
0.012075 -0.0053956 0.0014332 -0.0027641
0.0032347 0.0097155 -0.018644 0.00013859 -0.15781 0.25293 -0.00069321 -0.0052673
-0.0038083 -0.0031158 0.0098587 -0.0026988
0.0083195 -0.0045389 -0.0014657 -0.0022702 -0.00057703 -0.0052695 -0.26574 0.13938
-0.037711 -0.01992 0.012278 0.026703
0.012237 -0.0014627 0.012192 -0.0054639 -0.0039799 -0.0030698 -0.037897 -0.019711
-0.22818 -0.066829 -0.041094 0.013374
0.00057746 -0.001309 0.0013521 -0.0032253 0.010214 -0.0028162 0.012191 0.026553
-0.040851 0.013114 -0.2487 -0.029962
680000000 -0.24332 0.17556 -0.02634 -0.015326 0.0047871 0.0056362 0.0015815 -0.0072644
-0.0017016 -0.011421 0.0059916 -0.0071907
-0.026224 -0.015298 -0.39135 0.13956 -0.032782 -0.0028799 -0.0016777 -9.3848e-05
-0.0016593 -0.0092471 -0.00087109 -0.0020024
0.0048185 0.0056786 -0.032859 -0.0028012 -0.10795 0.27513 -0.00073885 3.6619e-05
-0.0016282 0.00040418 -0.0028205 -0.0098868
0.0017536 -0.0072269 -0.0015893 -3.5558e-05 -0.00071309 -5.4145e-06 -0.22122 0.19212
-0.022756 -0.0076074 -0.0084765 -0.011343
-0.0014918 -0.011513 -0.0015401 -0.009261 -0.0015988 0.00044705 -0.022848 -0.0077432
-0.28189 0.036734 -0.0061053 -0.0065774
0.0064202 -0.0070547 -0.00098757 -0.0019379 -0.0027966 -0.0098888 -0.0087075 -0.011021
-0.006151 -0.0064576 -0.26056 0.07868
740000000 -0.19668 0.16869 -0.040484 0.026458 0.013974 -0.0041582 0.00011069 -0.0038939
-0.0040202 -0.0031867 -0.0067628 0.0035308
-0.040461 0.026557 -0.33744 0.15908 -0.038212 0.0349 0.00034852 -0.0060569
-0.012725 0.0079016 -0.0011383 -0.0057024
0.013913 -0.0041903 -0.03813 0.035059 -0.074513 0.27324 -0.0018764 0.0035208
-0.0024199 -0.0062128 -0.0018418 0.0011015
0.00012424 -0.003882 0.00038545 -0.0061209 -0.0018281 0.0034864 -0.20502 0.19996
-0.043686 -0.0095866 0.022739 0.016859
-0.0040751 -0.0033409 -0.012465 0.0082336 -0.002446 -0.0060489 -0.043674 -0.0094996
-0.18244 0.067854 -0.043778 -0.00059243
-0.0065796 0.0035816 -0.0010023 -0.0061624 -0.0016037 0.0010496 0.022873 0.016528
-0.044517 -0.0009425 -0.25371 0.085576
800000000 -0.16584 0.21415 -0.022717 0.015766 0.0060275 -0.010628 -0.0043965 -0.002608
-0.0047568 0.0018735 0.0042049 -0.00031876
-0.022727 0.015768 -0.34522 0.23061 -0.0094826 0.034472 -0.0020914 0.0019617
-0.00082134 0.002528 0.00075485 0.0053342
0.0060498 -0.010662 -0.0093562 0.034568 -0.035815 0.29875 0.00089928 0.0010949
9.7245e-05 0.003548 -0.0019358 0.00046266
-0.0043363 -0.0026001 -0.0020983 0.0019755 0.00089348 0.0011271 -0.17629 0.22707
-0.028967 0.012144 0.014417 -0.010543
-0.0047612 0.0018621 -0.0008073 0.002538 9.1336e-05 0.0035183 -0.029043 0.012268
-0.22733 0.093658 -0.01804 0.019927
0.0042813 -4.7481e-05 0.00096035 0.005458 -0.0020273 0.00060079 0.014597 -0.010381
-0.018037 0.019779 -0.24809 0.13507
860000000 -0.1327 0.23535 -0.01902 0.030564 -0.0029208 -0.010373 -0.0018835 0.00066248
0.0040361 0.005398 -0.0039756 -0.0028434
-0.019084 0.030539 -0.29874 0.27508 0.0067114 0.035351 4.8239e-05 0.002373
0.0034376 0.00074751 0.0031851 0.00046043
-0.0030052 -0.010391 0.0068416 0.035367 0.011362 0.30845 -0.000653 -0.00015934
0.0021485 -0.0013967 0.001639 0.0046624
-0.00193 0.00063492 0.00010594 0.0023617 -0.00064962 -0.00013937 -0.14028 0.23861
-0.018754 0.018052 -0.006305 -0.0087389
0.0040704 0.0054493 0.0034991 0.00074385 0.0022196 -0.0013219 -0.018782 0.018026
-0.17294 0.14813 -0.025949 0.017273
-0.0042201 -0.002859 0.0033 0.00033783 0.0016923 0.0044987 -0.0064393 -0.0088508
-0.026076 0.017348 -0.19817 0.18357
920000000 -0.10966 0.25887 0.003953 0.039113 -0.0094814 -0.005236 -0.0021715 0.0015587
0.0011145 0.0019376 0.0024902 -0.0013052
0.0039812 0.039047 -0.27136 0.29716 0.028185 0.023794 0.0014147 0.0011545
0.007875 0.00016947 0.0045567 -0.002627
-0.0095286 -0.0052364 0.028298 0.023746 0.057258 0.31083 0.0017344 2.8451e-05
0.0009911 -2.3144e-05 0.00087889 -0.0014843
-0.0022563 0.0015365 0.0013921 0.0010956 0.0017402 5.0597e-05 -0.11656 0.25602
-0.012366 0.031077 0.0038994 -0.0068881
0.0011387 0.0018542 0.0077988 9.0817e-05 0.00099197 1.4988e-06 -0.012302 0.031132
-0.16134 0.15458 -0.0010543 0.02747
0.0025606 -0.0014322 0.0045812 -0.0028151 0.00089455 -0.0015451 0.0040029 -0.0068484
-0.0011782 0.02736 -0.20625 0.1953
980000000 -0.063453 0.28039 0.016297 0.031066 -0.0098327 0.0042913 0.0018631 0.0038045
0.0040482 -0.0014979 -0.0033494 -0.0028213
0.016268 0.03103 -0.21891 0.33335 0.033743 0.00613 0.0021161 -0.00014825
0.0017556 -0.0061982 -0.00052184 -0.0030001
-0.0097968 0.0043216 0.033789 0.0060262 0.10337 0.30532 0.00080033 -0.0011552
0.00054355 -0.0018928 0.0014608 -0.00038253
0.0018456 0.0037897 0.0021438 -0.00023697 0.00079096 -0.001172 -0.078229 0.26749
0.00666 0.030404 -0.0095955 -0.0073214
0.0039893 -0.001529 0.0017069 -0.0063124 0.00052054 -0.0018841 0.0067265 0.030453
-0.12993 0.1859 0.0047621 0.02
-0.0032492 -0.0027208 -0.00042104 -0.0029638 0.0015049 -0.00034871 -0.0095935 -0.007325
0.0048724 0.019941 -0.16459 0.24311
1040000000 -0.023055 0.29048 0.033178 0.02036 -0.0015807 0.0075013 0.0026892 0.00077547
0.00041253 -0.0034371 2.2042e-06 -0.0017066
0.033088 0.020372 -0.18443 0.34792 0.030785 -0.014264 0.0015995 -0.001698
-0.002355 -0.0025005 -0.0012354 -0.0034189
-0.0015449 0.0074909 0.030769 -0.014366 0.14939 0.29344 -0.00047813 -0.0016071
-0.0015888 -0.0010025 -0.00057058 -0.0011667
0.0026693 0.00075218 0.0016404 -0.001768 -0.00046716 -0.0015881 -0.051425 0.27798
0.019171 0.019502 -0.0028442 0.001011
0.00042453 -0.0033985 -0.0023876 -0.0025518 -0.0016 -0.0010077 0.019152 0.019489
-0.097363 0.19428 0.014159 0.019215
6.9469e-05 -0.0015653 -0.0012772 -0.0032961 -0.00064146 -0.0011433 -0.0028045 0.0010689
0.014157 0.019276 -0.14403 0.26343
1100000000 0.022181 0.30071 0.037377 -0.0023706 0.0031684 0.0044805 0.0025311 -0.0010883
-0.0024369 -0.0029839 -0.0042176 -0.00010868
0.037332 -0.0023397 -0.14052 0.36755 0.016592 -0.028209 1.1427e-05 -0.0018003
-0.0037782 -0.00078136 -0.003705 -0.00035043
0.0031893 0.0044542 0.016497 -0.02831 0.1963 0.27441 -0.0020275 0.00015244
-0.0018594 0.00049299 -0.0011756 -0.00049503
0.0025073 -0.0010917 1.4421e-06 -0.0018174 -0.0020238 0.00015587 -0.010951 0.2837
0.02522 0.0061298 -0.0024858 8.37e-05
-0.0024691 -0.002962 -0.0038052 -0.00069445 -0.0018976 0.00051515 0.025245 0.0060965
-0.077891 0.20827 0.019804 0.0096111
-0.0042101 -0.00012733 -0.0037373 -0.00034942 -0.0011338 -0.00049195 -0.0025431 3.0124e-05
0.019781 0.0095878 -0.097203 0.29598
1160000000 0.07281 0.2978 0.02576 -0.02018 0.0033758 -0.00040592 -0.00023798 -0.0025175
-0.0040543 -0.0010476 -0.0011801 0.0042167
0.025745 -0.020177 -0.097329 0.37286 -0.0030296 -0.0299 -0.0015971 -0.0017453
-0.0026972 0.002459 -0.0015743 0.0018678
0.0033815 -0.00042511 -0.0031713 -0.029936 0.23956 0.24454 -0.0007845 0.0018074
-0.00058701 0.0019428 -0.0011706 0.00033902
-0.00025396 -0.0025045 -0.0016247 -0.0017211 -0.00079482 0.0018094 0.028074 0.28154
0.021785 -0.010078 -0.0034508 0.0053542
-0.0040685 -0.00099155 -0.0027187 0.0024715 -0.00058216 0.0019318 0.021793 -0.010131
-0.043782 0.21715 0.019467 0.00053315
-0.0011663 0.0042422 -0.0014891 0.0017761 -0.0012223 0.00031279 -0.0034429 0.0053039
0.019383 0.00065475 -0.050449 0.29929
1220000000 0.11681 0.28949 0.012443 -0.030576 -0.0011663 -0.001336 5.3379e-05 -0.00093687
-0.0028364 0.0023397 0.0010662 0.00201
0.012444 -0.030558 -0.052541 0.38753 -0.017045 -0.022236 -0.0025833 0.00052789
2.287e-05 0.0031352 -0.00085525 0.001939
-0.0011721 -0.0013222 -0.017167 -0.022195 0.27925 0.20656 0.00076256 0.0017704
0.00046061 0.00119 0.00013462 0.00086081
2.9471e-05 -0.00093866 -0.0025764 0.00051551 0.00076386 0.0017695 0.068646 0.27413
0.011133 -0.017093 0.0022131 0.0016632
-0.0028439 0.0023558 3.9707e-05 0.0031575 0.00047424 0.0011751 0.011117 -0.017092
-0.020345 0.22819 0.014944 -0.013167
0.0010801 0.0019165 -0.00079045 0.001991 0.00014447 0.00083164 0.0023132 0.0016996
0.014951 -0.013208 -0.019781 0.31662
1280000000 0.1676 0.2697 -0.0068841 -0.02988 -0.001992 0.0020536 -0.00094963 -0.0020054
-0.00084546 0.0033363 0.0026902 0.0013752
-0.0068693 -0.029876 -0.0056754 0.3794 -0.024546 -0.0088247 -0.00091938 0.0014814
0.0016445 0.001734 0.00077535 0.0021352
-0.0020141 0.0020359 -0.024624 -0.0087273 0.31033 0.16297 0.0016015 -3.4156e-05
0.0010989 0.00027126 0.00036281 0.0003501
-0.00096928 -0.0019851 -0.00089462 0.001506 0.0015866 -3.657e-05 0.10573 0.25789
0.0012037 -0.019648 0.00011544 0.00018464
-0.00082423 0.0033641 0.0017022 0.0017263 0.0011138 0.00030741 0.0011914 -0.019651
0.016933 0.23223 0.0037715 -0.015666
0.0027623 0.0013848 0.0008121 0.0020857 0.00039397 0.00031392 3.1089e-05 0.00022648
0.0037327 -0.015716 0.028293 0.31982
1340000000 0.20531 0.23821 -0.017347 -0.020415 0.00041844 0.0044148 -0.001786 -0.00079769
0.001564 0.0028989 0.0017765 -0.0014798
-0.017312 -0.020397 0.033795 0.37238 -0.021998 0.0044018 -7.9312e-05 0.0020018
0.0020038 0.00071802 0.0011963 0.00081813
0.0004689 0.0044208 -0.021999 0.0045226 0.33242 0.11632 0.00099066 -0.00099164
0.0006193 -0.00055902 0.0001427 0.00028458
-0.0018066 -0.00081469 -7.6068e-05 0.0019758 0.0010113 -0.0010143 0.13889 0.23809
-0.0085082 -0.016801 0.0010167 0.00039547
0.0015926 0.0028872 0.0019902 0.0006675 0.00061271 -0.00055403 -0.0085214 -0.016795
0.046888 0.22943 -0.0035282 -0.014608
0.0017369 -0.0014021 0.0011925 0.00086675 0.00012731 0.00030005 0.00097751 0.00038145
-0.0034868 -0.014655 0.066316 0.31599
1400000000 0.24059 0.20178 -0.02404 -0.0086003 0.0050842 0.0033485 -0.0022846 0.00068624
0.0026463 0.0010565 0.00039388 -0.0017602
-0.024008 -0.0086025 0.072656 0.35989 -0.015011 0.012838 0.0012902 0.0012332
0.0012349 -0.0007595 0.001201 0.00014454
0.0050906 0.0033187 -0.014981 0.012945 0.34637 0.063385 1.1454e-05 -0.0015041
0.00018617 -0.00035148 0.0004008 0.00028919
-0.0022733 0.00070615 0.0012919 0.0012419 2.0476e-05 -0.0015146 0.169 0.20938
-0.01486 -0.0097901 -0.00083606 -0.00029307
0.0026664 0.0010366 0.0012755 -0.00078336 0.00022244 -0.00035282 -0.014874 -0.0097681
0.081053 0.22582 -0.010252 -0.0092649
0.00042176 -0.0017955 0.0011992 7.2428e-05 0.00038228 0.00022421 -0.00079419 -0.00031257
-0.010285 -0.0092779 0.11191 0.30643
1460000000 0.2639 0.15847 -0.021234 0.0043443 0.0056046 -0.0016594 -0.0014978 0.0017277
0.0022708 -0.00052807 -0.0002229 -0.00092642
-0.021222 0.0043246 0.10684 0.33796 -0.0056603 0.015829 0.0016716 0.00023948
0.00090947 -0.0012926 0.0012994 -0.00054974
0.0056203 -0.0016666 -0.0055872 0.015883 0.35304 0.0095701 -0.0011375 -0.0011664
0.0002133 -0.000142 0.00087521 -0.00017943
-0.0014967 0.0017068 0.0016559 0.00021997 -0.0011228 -0.0011709 0.19557 0.18037
-0.015848 -0.0027841 -0.00090715 0.0020168
0.0022946 -0.00050689 0.0009138 -0.0012772 0.00021293 -0.0001373 -0.015844 -0.0027366
0.11066 0.21242 -0.012286 -0.0032431
-0.00020547 -0.00092154 0.0013419 -0.00060229 0.00082398 -0.00025636 -0.00088502 0.0020163
-0.012322 -0.0033488 0.14513 0.28599
1520000000 0.27797 0.11791 -0.015619 0.010219 0.0034262 -0.0042162 0.00017978 0.0026283
0.0022022 -0.0019797 -0.0012765 -0.00013284
-0.015619 0.010213 0.14071 0.32438 0.0022473 0.013045 0.0016577 -0.00070154
8.8428e-05 -0.0010374 0.00033199 -0.0010755
0.0034023 -0.0042278 0.0023186 0.013052 0.34683 -0.045497 -0.00089446 -0.00039464
0.00072268 -0.0010343 0.00012007 -0.00025522
0.00019077 0.0026411 0.0016632 -0.00070738 -0.00088259 -0.0004153 0.21947 0.14264
-0.014892 0.0031131 0.0015968 0.0020023
0.0021925 -0.0019853 8.7251e-05 -0.0010416 0.00069863 -0.0010201 -0.014885 0.0031501
0.13938 0.19996 -0.012153 0.0017346
-0.0012964 -0.00015515 0.00033069 -0.001078 0.00015748 -0.00026136 0.0015864 0.0020187
-0.012158 0.0017637 0.17853 0.26733
1580000000 0.28858 0.071903 -0.0086557 0.013862 -0.0010368 -0.0049858 0.0014692 0.0018246
-0.00027948 -0.0023653 -0.00018057 0.00047437
-0.008669 0.013855 0.16827 0.29947 0.0057974 0.0076871 0.00061027 -0.001541
-0.00046651 -0.0011016 -0.00021155 -0.00088864
-0.0010536 -0.0049843 0.0058384 0.0076638 0.32786 -0.10352 -0.0015388 0.00038498
-0.00037526 -0.0013284 0.00036148 -0.0006761
0.0014935 0.0018094 0.00059445 -0.0015497 -0.0015511 0.0004014 0.23376 0.10314
-0.01106 0.0079147 0.002128 0.00075226
-0.00030005 -0.0023723 -0.00048687 -0.0011123 -0.00039211 -0.0013382 -0.011047 0.0079516
0.16406 0.18243 -0.0096621 0.0076678
-0.00019446 0.00044659 -0.00018891 -0.0008887 0.00032666 -0.00065878 0.0021676 0.000684
-0.0096282 0.0076539 0.21149 0.24098
1640000000 0.29159 0.031419 -0.0015095 0.012694 -0.0030259 -0.0025914 0.0027481 0.0010917
-0.00080758 -0.0015984 -0.00046043 0.00054845
-0.0015328 0.012696 0.19743 0.27584 0.0059816 0.0025745 -0.00053552 -0.0018451
-0.00093845 -0.00052198 -0.00055315 -0.00067282
-0.0030398 -0.0025646 0.0059944 0.0025407 0.29962 -0.15202 -0.00085056 0.0012573
-0.0011253 -0.0011132 -0.00027028 -0.00047022
0.0027495 0.0010784 -0.00056344 -0.0018501 -0.00084264 0.0012704 0.24645 0.054782
-0.0065802 0.0088666 0.0025264 -0.00082314
-0.00078112 -0.0016012 -0.00096262 -0.00053384 -0.0011336 -0.0011216 -0.0065707 0.00887
0.18731 0.15989 -0.0045338 0.0097921
-0.00043844 0.00050167 -0.00055896 -0.00065003 -0.00029078 -0.00042677 0.0025264 -0.00079229
-0.0045722 0.0097681 0.23736 0.21114
1700000000 0.28645 -0.013624 0.0021303 0.0097708 -0.003658 0.00033318 0.0031645 -0.0012151
-0.0021092 -0.00055741 0.00058031 0.00037715
0.0020947 0.0097844 0.21639 0.24489 0.003382 -0.0003314 -0.0014485 -0.00069803
-0.00081643 -0.00012147 -0.00092203 -0.00046744
-0.0036615 0.00035293 0.0033871 -0.00036606 0.2575 -0.19207 0.00019448 0.0016632
-0.0020989 -8.5823e-05 -0.00050579 -0.00086888
0.0031669 -0.0012362 -0.0014507 -0.00068398 0.00015421 0.0016597 0.24418 0.0048519
-0.003867 0.0090304 0.0015306 -0.0022013
-0.0021083 -0.00053621 -0.0008241 -0.00010074 -0.0021119 -7.907e-05 -0.0038417 0.0090363
0.20582 0.14056 0.00037597 0.010048
0.00059597 0.00039309 -0.00095281 -0.00044917 -0.00049339 -0.00084796 0.0014904 -0.0022077
0.00036809 0.010023 0.25569 0.17732
1760000000 0.27505 -0.06236 0.0044766 0.0063334 -0.0022111 0.0012248 0.0013612 -0.0034554
-0.0013113 0.00072129 0.00029906 -0.00060634
0.0044607 0.0063077 0.24235 0.20586 0.00077932 -0.0018084 -0.0013447 0.00010211
-0.0011729 0.00090789 -0.00053831 0.00040057
-0.0022015 0.0011939 0.00077251 -0.0018225 0.20967 -0.22526 0.001101 0.0012901
-0.0011912 0.0015202 -0.001342 -0.00055969
0.0013394 -0.0034752 -0.0013121 0.00010902 0.001129 0.0013094 0.23539 -0.046833
-0.00087083 0.0078781 -0.0002714 -0.0023911
-0.0012911 0.00073389 -0.0011834 0.00092205 -0.0012176 0.0015746 -0.00085694 0.007899
0.22099 0.10671 0.0042488 0.0074164
0.000292 -0.00060637 -0.00050362 0.00043157 -0.0013328 -0.00050092 -0.00027669 -0.0023451
0.0042618 0.0073745 0.26912 0.13992
1820000000 0.25254 -0.099406 0.0045476 0.0027667 -6.9609e-08 0.0026102 -0.00087634 -0.0032473
-0.0010271 0.00090678 -6.6504e-05 -7.4559e-05
0.0045621 0.0027599 0.25357 0.17703 -0.0016405 -0.00010224 -0.0014193 0.0009627
-0.00010889 0.00128 -0.0006056 0.00056713
2.0614e-05 0.0026359 -0.0016452 -0.00010025 0.15926 -0.24092 0.0017423 0.00056862
-0.00025813 0.0024544 -0.0016525 0.00047467
-0.00089069 -0.0032282 -0.0013985 0.0009644 0.0017725 0.00052904 0.20631 -0.094019
0.00037321 0.0066333 -0.0017394 -0.0017462
-0.001004 0.00091656 -9.6874e-05 0.0012738 -0.00021551 0.0024746 0.00036076 0.0066383
0.2395 0.079331 0.0052911 0.0033952
-8.0665e-05 -0.00010133 -0.00060878 0.00059538 -0.0015962 0.00051484 -0.0017812 -0.001722
0.0053269 0.0033585 0.27241 0.10463
1880000000 0.21869 -0.14098 0.0023201 0.0005047 -0.00041068 0.0022469 -0.002872 -0.0022379
-0.00016394 0.0017812 0.00016146 -0.00071484
0.0022857 0.00049935 0.25871 0.13054 -0.0034422 0.0022371 -0.00022865 0.0018615
0.00064637 0.0014736 0.00019612 0.0009572
-0.00045302 0.0022658 -0.0034529 0.0022626 0.10775 -0.25063 0.0020361 -0.0010518
0.0017105 0.0019963 -0.00088968 0.0015308
-0.0028958 -0.0022329 -0.00023501 0.0018703 0.0020244 -0.0010141 0.16616 -0.13517
0.00091702 0.0046487 -0.0024427 0.00037507
-0.00013069 0.0017874 0.00065284 0.0014689 0.001689 0.0019988 0.00092582 0.0046577
0.24446 0.048233 0.0054503 0.0012425
0.00022025 -0.00073676 0.00019879 0.00093981 -0.00090595 0.0015392 -0.0024568 0.00041109
0.0054593 0.0012522 0.27333 0.069962
1940000000 0.17961 -0.16717 0.00013389 -0.0011794 0.0017084 0.0020296 -0.0038152 0.00029344
0.0012198 0.00096404 -0.00071592 -0.0005142
9.7767e-05 -0.0012316 0.2603 0.099739 -0.0018136 0.0050384 0.001044 0.0013102
0.002028 0.00053644 0.00096498 0.00022367
0.0017141 0.0019677 -0.0017547 0.0050584 0.062422 -0.24358 0.00042699 -0.0027232
0.0024795 0.00027507 0.00044564 0.0016518
-0.003816 0.00030052 0.0010334 0.0012752 0.0004305 -0.0027316 0.11361 -0.1657
-7.3895e-05 0.0037118 -0.0015233 0.0015493
0.0012591 0.00095302 0.0020617 0.00048562 0.0024893 0.0002639 -5.9738e-05 0.0036792
0.24828 0.011218 0.0039869 -0.0024999
-0.00073238 -0.00047982 0.00096583 0.00016293 0.00045073 0.0016291 -0.0014167 0.0016087
0.0040309 -0.002422 0.26251 0.034544
2000000000 0.13468 -0.18328 -0.0035571 0.00077221 0.0029111 0.0013151 -0.0023399 0.0036966
0.0012152 0.00043597 -0.00061416 0.00052041
-0.0035488 0.00073098 0.24766 0.06422 -0.00094302 0.0071516 0.0017732 0.00040579
0.0013472 -0.0012429 0.00041287 -6.9146e-05
0.002915 0.0013494 -0.00089511 0.0071755 0.019596 -0.22976 -0.0014603 -0.0016175
0.0020212 -0.0012266 0.0014405 0.0014112
-0.0023057 0.0037406 0.0018035 0.00040099 -0.0014672 -0.0016291 0.060716 -0.17642
-0.0014528 0.0038118 -5.3987e-05 0.002474
0.0012006 0.00039719 0.001357 -0.0012266 0.0020233 -0.0012679 -0.0014691 0.0038553
0.24508 -0.021754 0.00065236 -0.0031868
