!Keysight Technologies,M9804A,MY58100912,A.14.10.03
!Date: Thursday, April 27, 2023 10:28:33
!Correction: S11(C  6-Port  ) 
!S12(C  6-Port  ) 
!S13(C  6-Port  ) 
!S14(C  6-Port  ) 
!S15(C  6-Port  ) 
!S16(C  6-Port  ) 
!S21(C  6-Port  ) 
!S22(C  6-Port  ) 
!S23(C  6-Port  ) 
!S24(C  6-Port  ) 
!S25(C  6-Port  ) 
!S26(C  6-Port  ) 
!S31(C  6-Port  ) 
!S32(C  6-Port  ) 
!S33(C  6-Port  ) 
!S34(C  6-Port  ) 
!S35(C  6-Port  ) 
!S36(C  6-Port  ) 
!S41(C  6-Port  ) 
!S42(C  6-Port  ) 
!S43(C  6-Port  ) 
!S44(C  6-Port  ) 
!S45(C  6-Port  ) 
!S46(C  6-Port  ) 
!S51(C  6-Port  ) 
!S52(C  6-Port  ) 
!S53(C  6-Port  ) 
!S54(C  6-Port  ) 
!S55(C  6-Port  ) 
!S56(C  6-Port  ) 
!S61(C  6-Port  ) 
!S62(C  6-Port  ) 
!S63(C  6-Port  ) 
!S64(C  6-Port  ) 
!S65(C  6-Port  ) 
!S66(C  6-Port  ) 
!S6P File: Measurement: :
# Hz S  RI   R 50
500000000 -0.33121 -0.066079 -0.0097243 -0.00082856 -0.0084843 0.013088 -0.0039165 0.012408
0.012791 0.0051696 -0.0040143 0.0084101
-0.0096484 -0.00074148 -0.4118 -0.07397 0.0089223 -0.011043 0.0010646 0.012835
0.0079929 0.0024235 0.00099484 0.014369
-0.0084075 0.013047 0.0088784 -0.011032 -0.26564 0.18982 0.0068956 0.0038151
-0.0025568 0.0083192 0.00016858 0.012178
-0.0039503 0.012229 0.0015058 0.012704 0.0068762 0.0038219 -0.33054 0.036907
-0.017998 -0.0039801 0.017001 0.026407
0.012456 0.0051877 0.0079692 0.0026186 -0.0025243 0.0083089 -0.018003 -0.0039586
-0.23675 -0.21474 -0.026701 0.0054494
-0.0038973 0.0077432 0.0016773 0.014381 0.00013331 0.012181 0.016852 0.026457
-0.026641 0.0053325 -0.26512 -0.14225
560000000 -0.31952 0.10186 -0.021621 -0.067326 6.3143e-05 0.013711 0.004487 0.012014
0.010861 0.0037918 0.010886 0.0089812
-0.021718 -0.067271 -0.37243 0.090559 -0.041818 -0.039495 0.014234 0.0034412
-0.01326 -0.0042292 0.0039547 -0.0021345
6.7231e-05 0.01327 -0.041644 -0.039286 -0.18747 0.24236 -0.00052949 -0.0046952
0.018532 0.0054226 0.0075958 -0.0051344
0.0045011 0.01243 0.014064 0.0032314 -0.0005509 -0.0047368 -0.30639 0.12898
0.0058099 -0.023115 0.0061792 -0.021836
0.010517 0.0037435 -0.01357 -0.0052063 0.018567 0.005475 0.0057714 -0.023103
-0.30941 -0.031248 0.010279 -0.050797
0.010629 0.0085578 0.0045782 -0.0015981 0.0076729 -0.0050414 0.0061339 -0.021816
0.010334 -0.050884 -0.33097 0.011915
620000000 -0.27945 0.082778 -0.023242 0.0088007 0.0036088 0.0097804 0.0084551 -0.0042509
0.011817 -0.0015228 0.00093376 -0.00068716
-0.023274 0.0088572 -0.40245 0.037765 -0.018607 -2.0985e-05 -0.0017641 -0.0023598
0.012187 -0.0055117 0.00084079 -0.0033191
0.0035338 0.0096856 -0.018612 7.9303e-05 -0.1578 0.25285 -0.00059895 -0.0050854
-0.0039231 -0.003068 0.010275 -0.0025886
0.0085753 -0.0041947 -0.0015514 -0.0023055 -0.00062342 -0.0050959 -0.26487 0.14121
-0.038418 -0.021145 0.013842 0.029136
0.011803 -0.001797 0.012068 -0.0056455 -0.0038697 -0.0030357 -0.038462 -0.021141
-0.2268 -0.065895 -0.042127 0.011169
0.00095023 -0.00051677 0.0010397 -0.0030812 0.010233 -0.0026123 0.013768 0.029112
-0.042047 0.011195 -0.24749 -0.026955
680000000 -0.24334 0.17522 -0.026379 -0.015432 0.0048495 0.0056248 0.0012544 -0.00722
-0.0012559 -0.011254 0.0066808 -0.0068822
-0.026361 -0.015421 -0.39137 0.13935 -0.032926 -0.0028521 -0.0019951 -0.00051
-0.0013071 -0.0091473 -0.00061639 -0.0018401
0.004861 0.005688 -0.032972 -0.0027365 -0.1081 0.27514 -0.0010657 -0.00014864
-0.0015088 0.00052869 -0.0031249 -0.009389
0.0012046 -0.0070894 -0.0020504 -0.00034829 -0.0010728 -0.00011972 -0.22129 0.19166
-0.022784 -0.0080318 -0.009902 -0.01132
-0.0015924 -0.01118 -0.0014545 -0.0092191 -0.0014824 0.00048241 -0.022792 -0.0079991
-0.28154 0.036371 -0.0062071 -0.0062095
0.0063718 -0.0068847 -0.0011318 -0.0019374 -0.0031687 -0.0093846 -0.00993 -0.011373
-0.0062623 -0.0061971 -0.26005 0.079269
740000000 -0.1966 0.16895 -0.04091 0.026291 0.014174 -0.0043379 4.9199e-05 -0.0040503
-0.0039533 -0.0036364 -0.0068635 0.0029982
-0.0408 0.026311 -0.33806 0.15914 -0.038695 0.034634 0.00017347 -0.0062091
-0.012728 0.0069392 -0.0014469 -0.0060864
0.014057 -0.0042271 -0.038545 0.034651 -0.074388 0.27301 -0.0016872 0.0032903
-0.0021245 -0.006001 -0.0017514 0.0011155
0.00011535 -0.003766 -8.1983e-05 -0.0061637 -0.0017388 0.0032794 -0.20537 0.19982
-0.042886 -0.010034 0.023215 0.016653
-0.0042494 -0.0038214 -0.01246 0.0069212 -0.0021081 -0.006038 -0.042898 -0.0099767
-0.18171 0.068149 -0.04377 -0.00090424
-0.0072235 0.0032092 -0.0019122 -0.0063331 -0.0017668 0.0010705 0.023246 0.016602
-0.043751 -0.00091146 -0.25299 0.0863
800000000 -0.16578 0.21379 -0.022854 0.015615 0.0060315 -0.010665 -0.0044055 -0.0026636
-0.0044514 0.0019627 0.0048942 0.00011034
-0.022731 0.01559 -0.34535 0.23006 -0.0094656 0.03436 -0.0019981 0.0020933
-0.00061483 0.0025988 0.0011249 0.0054601
0.0060281 -0.010705 -0.0094254 0.034414 -0.035913 0.2987 0.00092256 0.0013358
0.00028576 0.0033156 -0.0017985 0.0008481
-0.0045325 -0.0025936 -0.0019959 0.0020642 0.00093583 0.0013222 -0.17673 0.22687
-0.028728 0.012572 0.0142 -0.010541
-0.0041214 0.001845 -0.00070599 0.002582 0.00029078 0.0033044 -0.028723 0.012616
-0.2275 0.093467 -0.017378 0.020464
0.004411 -5.6224e-05 0.0011221 0.0054841 -0.0017923 0.00081256 0.014191 -0.010596
-0.017388 0.02053 -0.24732 0.1352
860000000 -0.13251 0.2352 -0.018975 0.030587 -0.0030293 -0.01043 -0.0018478 0.00035125
0.0039141 0.0055711 -0.0043208 -0.0030891
-0.018967 0.030581 -0.29878 0.27475 0.0066123 0.035267 -2.0268e-05 0.0022897
0.0034998 0.0009061 0.0027846 2.816e-05
-0.0030416 -0.01049 0.0067505 0.035303 0.011141 0.30835 -0.00069034 -0.00031817
0.0020804 -0.0012333 0.0013756 0.0043234
-0.0018095 0.00046154 6.8891e-05 0.002222 -0.00067938 -0.00033722 -0.13988 0.23862
-0.019037 0.017943 -0.0061401 -0.0090853
0.0039371 0.0054741 0.0034537 0.00083478 0.0020588 -0.0012627 -0.019021 0.017959
-0.17258 0.14828 -0.026669 0.017078
-0.0043578 -0.0033944 0.003127 0.00011251 0.0014026 0.0043609 -0.0061385 -0.0090953
-0.026649 0.017101 -0.19864 0.18117
920000000 -0.10992 0.25878 0.0040028 0.039052 -0.0094541 -0.0052672 -0.0020991 0.0016886
0.00086 0.0020041 0.003111 -0.0014105
0.0039013 0.039082 -0.27138 0.29701 0.02811 0.023817 0.001443 0.0011263
0.0076856 0.0003301 0.0048541 -0.0027066
-0.0095062 -0.0052605 0.02826 0.02378 0.057137 0.31083 0.0018355 5.8517e-05
0.0010046 3.4514e-06 0.0010862 -0.0014005
-0.0021952 0.0017227 0.0014401 0.0011417 0.0018468 7.4354e-05 -0.11663 0.25596
-0.011972 0.031027 0.003966 -0.0070224
0.00096297 0.0020693 0.0077248 0.00036492 0.0010068 2.6819e-06 -0.011925 0.031061
-0.16186 0.15454 -0.0008008 0.027788
0.00309 -0.0013689 0.0047307 -0.0025945 0.0010629 -0.0013668 0.0039766 -0.0070509
-0.00080708 0.027774 -0.20556 0.19566
980000000 -0.063508 0.28025 0.016301 0.031049 -0.0097852 0.0043722 0.0018049 0.003598
0.0040718 -0.0016826 -0.0032609 -0.0025129
0.016303 0.031065 -0.21897 0.33313 0.033741 0.0061886 0.0019922 -0.00021534
0.0018844 -0.00634 -0.00045601 -0.0026768
-0.0098101 0.0043862 0.033812 0.0060759 0.10326 0.30538 0.00077732 -0.0011556
0.00049889 -0.0019054 0.0015252 -0.00026927
0.0017817 0.0036306 0.0019637 -0.00020176 0.0007795 -0.0011595 -0.078082 0.26738
0.0066014 0.030395 -0.0096352 -0.0073576
0.0041452 -0.0016626 0.0018995 -0.006351 0.00049051 -0.0019113 0.0066448 0.030393
-0.12991 0.18547 0.0045989 0.020295
-0.0034108 -0.0025398 -0.00061756 -0.0027957 0.0015281 -0.00026899 -0.0096203 -0.0073724
0.0045733 0.020262 -0.16538 0.24273
1040000000 -0.023367 0.28996 0.033068 0.02036 -0.0016626 0.0075041 0.0027694 0.00086832
0.0002834 -0.0033726 0.00010712 -0.0017847
0.033054 0.020378 -0.18457 0.3478 0.030751 -0.014236 0.0015892 -0.0016208
-0.0024496 -0.0026517 -0.0012288 -0.0032848
-0.0016425 0.0074888 0.030759 -0.014381 0.14925 0.29349 -0.0005004 -0.0016294
-0.0016221 -0.0010633 -0.00058647 -0.0011716
0.0027667 0.00082921 0.0015636 -0.0016424 -0.00049941 -0.0016332 -0.051468 0.27806
0.019077 0.019628 -0.0027039 0.0011174
0.000361 -0.0035056 -0.0024458 -0.0027243 -0.0016137 -0.0010655 0.019094 0.019598
-0.097704 0.19354 0.013974 0.019492
3.871e-05 -0.0017692 -0.0012501 -0.0033265 -0.00057758 -0.001174 -0.0027142 0.0011401
0.013987 0.019497 -0.14401 0.26388
1100000000 0.022089 0.30067 0.037332 -0.002395 0.0032096 0.0045019 0.0024733 -0.0011546
-0.0022665 -0.0028537 -0.0042935 -3.2075e-05
0.037344 -0.0023216 -0.14076 0.36745 0.016548 -0.028177 -1.8114e-05 -0.0018415
-0.0037037 -0.00064108 -0.0036615 -0.00048665
0.0032202 0.0044965 0.016465 -0.028279 0.1961 0.27446 -0.0019813 0.00017673
-0.0018134 0.00049544 -0.0011985 -0.00059228
0.0025073 -0.0011686 5.9489e-06 -0.0018611 -0.0019914 0.00017392 -0.011055 0.28376
0.025075 0.0060807 -0.0027167 0.00016827
-0.0022495 -0.0029239 -0.0037191 -0.00065079 -0.0018158 0.00050537 0.025087 0.0060505
-0.078178 0.20823 0.019741 0.0095923
-0.0042818 -0.00010192 -0.0037132 -0.00041737 -0.0011957 -0.00058751 -0.0027078 0.00016828
0.019732 0.0096019 -0.097743 0.2955
1160000000 0.072514 0.29764 0.025802 -0.020146 0.0033728 -0.00039506 -0.00021365 -0.0023817
-0.0040211 -0.00095172 -0.001297 0.0041222
0.025776 -0.020101 -0.097556 0.37283 -0.003013 -0.029891 -0.0015694 -0.0016904
-0.0026658 0.0024392 -0.001509 0.0017067
0.0033677 -0.00043247 -0.0031454 -0.029922 0.23949 0.24464 -0.00078601 0.0018509
-0.00067557 0.0019156 -0.0012036 0.0003208
-0.00021107 -0.0023673 -0.001535 -0.0016522 -0.00079012 0.0018554 0.027963 0.28152
0.021853 -0.010158 -0.0036994 0.0053897
-0.0040665 -0.00089233 -0.0026516 0.0024644 -0.00065716 0.0019161 0.021834 -0.010195
-0.043764 0.217 0.019152 0.00036108
-0.0011188 0.0042037 -0.0014113 0.0018747 -0.0011968 0.00031645 -0.0037117 0.0053693
0.019182 0.00032812 -0.050283 0.29931
1220000000 0.1167 0.2895 0.012459 -0.030646 -0.0011817 -0.0013344 -4.9343e-05 -0.00094928
-0.0029209 0.0022168 0.0011165 0.002152
0.012496 -0.030602 -0.052809 0.38743 -0.017026 -0.022262 -0.0026633 0.00053826
1.024e-05 0.0030852 -0.00076639 0.001952
-0.0011884 -0.0013303 -0.017165 -0.022208 0.27916 0.20664 0.00072882 0.0018085
0.0004554 0.001208 0.00023336 0.0008364
-3.461e-05 -0.00096998 -0.0026654 0.00055249 0.00073275 0.0018028 0.068581 0.27398
0.011226 -0.017146 0.0022992 0.0014446
-0.002857 0.0022126 3.4617e-05 0.0031002 0.00045628 0.0012187 0.011212 -0.017167
-0.020501 0.22826 0.015078 -0.013045
0.0010746 0.0022504 -0.0008281 0.0019881 0.00023321 0.00083674 0.0023077 0.0014807
0.01506 -0.013048 -0.020054 0.31678
1280000000 0.16742 0.26978 -0.0067888 -0.029879 -0.0020115 0.0019922 -0.00093752 -0.0020194
-0.00085956 0.003385 0.00264 0.0013079
-0.0067837 -0.029841 -0.0058808 0.37932 -0.024538 -0.0088768 -0.00085223 0.0015528
0.0016707 0.0017575 0.00069974 0.0021128
-0.0020164 0.0020265 -0.024636 -0.0087848 0.31023 0.16307 0.0016107 -6.1988e-05
0.0012178 0.00030633 0.00032992 0.00036893
-0.00091691 -0.0020174 -0.00086148 0.0015581 0.0016067 -5.9949e-05 0.10558 0.25786
0.0011307 -0.019601 0.00013962 0.0003198
-0.00087958 0.0033778 0.0016915 0.0017371 0.0012137 0.00031478 0.0010999 -0.019602
0.016564 0.23233 0.0036607 -0.015665
0.0026367 0.0014155 0.00071605 0.0021453 0.00034171 0.00039823 0.00014278 0.00032645
0.0037107 -0.015651 0.028145 0.31982
1340000000 0.20514 0.23839 -0.017328 -0.020447 0.00043702 0.0044093 -0.0019119 -0.00087652
0.0014363 0.0027523 0.0018774 -0.001314
-0.017296 -0.020448 0.033579 0.37237 -0.021989 0.0043893 -0.00012402 0.0020207
0.0019555 0.00075801 0.0011845 0.00085053
0.00041769 0.0044225 -0.022011 0.0044967 0.33243 0.11651 0.00094881 -0.00097009
0.00064606 -0.00050889 3.5965e-05 0.00025316
-0.0018813 -0.0008487 -0.00012352 0.0020145 0.00095465 -0.00096366 0.13888 0.23804
-0.0084857 -0.016949 0.00087556 0.00044084
0.001462 0.0027962 0.0019624 0.00073194 0.00064316 -0.00052071 -0.0085141 -0.016939
0.046439 0.2291 -0.0034691 -0.01444
0.0018446 -0.0013261 0.0011737 0.0008385 1.7649e-05 0.00025177 0.00087126 0.00042941
-0.0034677 -0.014411 0.065823 0.31622
1400000000 0.2404 0.20193 -0.024014 -0.0086372 0.0050278 0.0033994 -0.0021989 0.000729
0.002697 0.0010215 0.00028943 -0.0017504
-0.023999 -0.0086293 0.072426 0.3599 -0.015043 0.012887 0.0013434 0.0012397
0.0012267 -0.00076289 0.0012282 0.00014644
0.0050425 0.0033498 -0.015012 0.012977 0.34631 0.063543 8.9016e-06 -0.00152
0.00021452 -0.00041531 0.00047056 0.00023004
-0.0022273 0.00074482 0.0013694 0.0012316 1.3938e-05 -0.0015282 0.16887 0.20943
-0.014873 -0.0098065 -0.00085092 -0.00034745
0.0026786 0.00096476 0.0012097 -0.00077435 0.00021417 -0.00041334 -0.014892 -0.0097788
0.080824 0.22584 -0.010252 -0.009291
0.00032307 -0.0016813 0.0012569 0.00015342 0.00046903 0.00024314 -0.00084403 -0.00037685
-0.010281 -0.0093065 0.11176 0.30629
1460000000 0.26384 0.15862 -0.021268 0.0042373 0.0056342 -0.0016505 -0.0014897 0.0017135
0.0023772 -0.00051313 -0.00031363 -0.00096882
-0.021263 0.004234 0.10658 0.33802 -0.0056653 0.015828 0.0016574 0.00024388
0.00094853 -0.0012751 0.0013414 -0.00059174
0.0056 -0.0016786 -0.0055856 0.015887 0.35291 0.0097038 -0.0011266 -0.001152
0.00018764 -0.00015477 0.00074507 -0.00021583
-0.0014341 0.0016998 0.0016556 0.00023676 -0.0011202 -0.0011418 0.19545 0.18042
-0.015774 -0.0028139 -0.00098013 0.0020026
0.0023528 -0.00052868 0.0009625 -0.0013068 0.00018778 -0.00016846 -0.0158 -0.0027854
0.11027 0.21236 -0.012322 -0.00319
-0.00033532 -0.00097829 0.0013325 -0.0006274 0.00073066 -0.00024318 -0.00099281 0.0020321
-0.012339 -0.0032263 0.14488 0.28619
1520000000 0.27782 0.11809 -0.015639 0.01019 0.0034385 -0.004224 0.00018835 0.0026854
0.0022252 -0.0019781 -0.0012509 -0.00014322
-0.015622 0.010188 0.14048 0.32446 0.0022309 0.01305 0.0016605 -0.00068857
0.00010699 -0.0010199 0.0003159 -0.0010108
0.0034167 -0.0042567 0.0023101 0.013073 0.34681 -0.045297 -0.0009133 -0.00036396
0.00068732 -0.0010569 0.00014882 -0.00018483
0.00017115 0.0026572 0.0016702 -0.00068838 -0.00091036 -0.00036987 0.21934 0.14275
-0.014919 0.0030971 0.0015577 0.0021322
0.0021846 -0.0020435 0.00010364 -0.0010084 0.00067641 -0.0010523 -0.014919 0.0031335
0.13913 0.20012 -0.012259 0.0016539
-0.0012485 -0.00016368 0.00031236 -0.0010462 0.00015284 -0.00017789 0.0015697 0.0021322
-0.012239 0.0016516 0.1785 0.26754
1580000000 0.28845 0.072059 -0.0087034 0.013886 -0.0010471 -0.0049609 0.0015099 0.0018227
-0.00023999 -0.0023068 -0.00020197 0.00040795
-0.0087124 0.013879 0.16809 0.29956 0.005791 0.0076843 0.00060454 -0.0015531
-0.00044118 -0.0011107 -0.00017847 -0.00087087
-0.0010946 -0.0049604 0.0058566 0.0076664 0.32788 -0.10335 -0.0015403 0.00040809
-0.00038255 -0.0013412 0.00033555 -0.00065238
0.0015037 0.001809 0.00060955 -0.001553 -0.0015461 0.00040766 0.23366 0.10324
-0.011054 0.0079951 0.0021525 0.00067283
-0.00025349 -0.0023 -0.00044633 -0.0011108 -0.00038704 -0.0013448 -0.011049 0.0080226
0.16386 0.1827 -0.0096067 0.0075798
-0.00014906 0.00041793 -0.00015822 -0.00086212 0.0003208 -0.00066895 0.0021313 0.0006688
-0.009634 0.0075725 0.21154 0.2412
1640000000 0.29153 0.031623 -0.0015605 0.012666 -0.0030588 -0.0025953 0.0027342 0.0011248
-0.00087438 -0.0016129 -0.00038027 0.00057618
-0.0015552 0.012667 0.1972 0.27598 0.0059973 0.0025985 -0.00052563 -0.0018631
-0.00095461 -0.0005125 -0.00057117 -0.00061757
-0.0030639 -0.0025883 0.0060166 0.0025721 0.2996 -0.15181 -0.00083773 0.0012507
-0.0011233 -0.0011011 -0.00028713 -0.00043754
0.0027234 0.0011077 -0.00053613 -0.0018652 -0.00082595 0.0012577 0.24639 0.054885
-0.0066002 0.0088555 0.0025734 -0.00078279
-0.00090731 -0.0015668 -0.00095868 -0.00051482 -0.0011311 -0.0010975 -0.0065927 0.0088703
0.18709 0.16001 -0.0045741 0.0098199
-0.00030971 0.00063038 -0.00058708 -0.00063309 -0.00030156 -0.0004347 0.0025751 -0.00078928
-0.0045593 0.0098158 0.23736 0.21123
1700000000 0.28635 -0.013409 0.0020965 0.0097991 -0.0036488 0.00030912 0.0031529 -0.0012022
-0.0020961 -0.00058833 0.00053241 0.00040706
0.0020833 0.0098039 0.21624 0.24504 0.0033649 -0.00032226 -0.0014553 -0.00065723
-0.00083285 -0.00011229 -0.00091328 -0.00052293
-0.0036681 0.00035485 0.003364 -0.00033456 0.25764 -0.19187 0.00016555 0.0017122
-0.0020996 -2.5636e-05 -0.00047132 -0.00093592
0.0031652 -0.0012212 -0.0014546 -0.00065397 0.00017087 0.0016944 0.24413 0.0049893
-0.003836 0.009079 0.0015003 -0.0021676
-0.0020971 -0.00060003 -0.0008254 -9.2671e-05 -0.0021138 -3.0066e-05 -0.0038336 0.0090817
0.20567 0.14071 0.00028245 0.0099815
0.00054974 0.00040817 -0.00091642 -0.00052635 -0.00047943 -0.00094281 0.0014872 -0.0021613
0.00027485 0.010002 0.2554 0.17752
1760000000 0.27512 -0.062101 0.0044441 0.0063077 -0.0022218 0.001174 0.0014427 -0.0034335
-0.0013046 0.00070912 0.00029498 -0.00061155
0.004425 0.0063082 0.24215 0.206 0.00079523 -0.0018396 -0.0013213 5.7144e-05
-0.0011879 0.00089147 -0.00056603 0.00042206
-0.002184 0.001137 0.0008072 -0.0018597 0.20977 -0.22517 0.0010732 0.0012957
-0.0012309 0.0015577 -0.0013017 -0.00054114
0.0014316 -0.0034395 -0.0013375 6.3997e-05 0.0010737 0.0012987 0.23536 -0.046863
-0.00080623 0.0078865 -0.00016534 -0.0025106
-0.0012481 0.00073683 -0.001179 0.00089353 -0.0012286 0.0015689 -0.00078828 0.0078981
0.22092 0.10697 0.0043491 0.0073136
0.0003283 -0.00058003 -0.00055926 0.00041627 -0.0013335 -0.00055247 -0.00015868 -0.002504
0.0043181 0.0073339 0.26887 0.14007
1820000000 0.25262 -0.09911 0.0045545 0.002769 2.9477e-05 0.0025548 -0.00097906 -0.0032352
-0.0010995 0.00092162 1.2567e-05 -0.0001266
0.0045713 0.0028162 0.25344 0.17722 -0.0016176 -0.00012728 -0.0014054 0.00097644
-0.00011214 0.0012987 -0.00058322 0.00054582
6.4002e-05 0.0026023 -0.0016405 -0.00016276 0.15947 -0.24074 0.0017727 0.0006007
-0.00020183 0.0025131 -0.0016524 0.00041353
-0.0010194 -0.0032422 -0.0014302 0.0010086 0.00177 0.00060186 0.20636 -0.093765
0.00033341 0.0066924 -0.001894 -0.0016668
-0.0010981 0.00093787 -0.0001103 0.001306 -0.00021635 0.0025162 0.0003417 0.0066886
0.23939 0.079507 0.0052938 0.0034727
-1.8131e-05 -0.00011897 -0.00058486 0.00054386 -0.0016451 0.00040697 -0.0018961 -0.001676
0.0052948 0.0034591 0.2725 0.10479
1880000000 0.2187 -0.14081 0.0023379 0.00049196 -0.00037295 0.0022383 -0.0028593 -0.0022563
-0.00021011 0.001748 0.00017204 -0.00068195
0.0022992 0.00048493 0.25863 0.13068 -0.0034686 0.0021883 -0.00027176 0.0018118
0.00061988 0.001438 0.00018145 0.00097263
-0.00048406 0.0022552 -0.0034358 0.0022022 0.10794 -0.25061 0.002094 -0.001132
0.0017618 0.001936 -0.00095212 0.0015958
-0.0028769 -0.0023033 -0.00024291 0.0018088 0.0020964 -0.0011202 0.16614 -0.13509
0.00098593 0.0046274 -0.002395 0.00045327
-0.00016891 0.0017662 0.00065262 0.0014378 0.0017573 0.0019214 0.00099291 0.0046376
0.24439 0.048356 0.0053613 0.0012465
0.00021927 -0.00068688 0.00018208 0.00095056 -0.00096689 0.0016253 -0.0023966 0.00046253
0.0053461 0.0012635 0.27308 0.070313
1940000000 0.17984 -0.16689 0.00014758 -0.0011746 0.001766 0.0020427 -0.0038138 0.00021916
0.0013036 0.00096872 -0.00061973 -0.00050774
0.00013814 -0.001192 0.26018 0.099959 -0.0018118 0.005033 0.0010843 0.0013327
0.0020343 0.00056139 0.00093308 0.00024174
0.0017461 0.0020009 -0.0017941 0.0050618 0.062612 -0.24358 0.0005538 -0.0026427
0.0024933 0.00035418 0.00037759 0.0016007
-0.0037796 0.00023195 0.0010602 0.0013243 0.00053457 -0.0026465 0.11379 -0.1659
-3.2123e-06 0.0035166 -0.0015946 0.0015931
0.0013143 0.00097845 0.0020313 0.00050895 0.002483 0.0003456 3.077e-07 0.0035117
0.24839 0.011299 0.0039866 -0.002403
-0.0006285 -0.00038513 0.0009606 0.00021968 0.00037084 0.0015957 -0.0016096 0.0015967
0.0039853 -0.0024207 0.26258 0.034648
2000000000 0.13488 -0.18284 -0.00355 0.00076525 0.0029312 0.0013562 -0.0023846 0.0037209
0.0010344 0.00044712 -0.00073611 0.00052296
-0.003574 0.00084114 0.24763 0.064409 -0.0009065 0.0071484 0.0017169 0.00039116
0.0013486 -0.0013046 0.00041699 -3.8621e-05
0.0029328 0.0014649 -0.00088171 0.0071812 0.019833 -0.22968 -0.0014939 -0.0016844
0.0020593 -0.0012418 0.0015017 0.0013609
-0.0023601 0.0037628 0.0017582 0.00035521 -0.0014958 -0.0016763 0.060846 -0.17637
-0.0014632 0.003839 -4.882e-05 0.0025823
0.0010348 0.0003865 0.0013522 -0.0013282 0.0020647 -0.0012554 -0.001456 0.0038496
0.24491 -0.021617 0.00066636 -0.0032565
