!Keysight Technologies,M9804A,MY58100912,A.14.10.03
!Date: Thursday, April 27, 2023 10:28:33
!Correction: S11(C  6-Port  ) 
!S12(C  6-Port  ) 
!S13(C  6-Port  ) 
!S14(C  6-Port  ) 
!S15(C  6-Port  ) 
!S16(C  6-Port  ) 
!S21(C  6-Port  ) 
!S22(C  6-Port  ) 
!S23(C  6-Port  ) 
!S24(C  6-Port  ) 
!S25(C  6-Port  ) 
!S26(C  6-Port  ) 
!S31(C  6-Port  ) 
!S32(C  6-Port  ) 
!S33(C  6-Port  ) 
!S34(C  6-Port  ) 
!S35(C  6-Port  ) 
!S36(C  6-Port  ) 
!S41(C  6-Port  ) 
!S42(C  6-Port  ) 
!S43(C  6-Port  ) 
!S44(C  6-Port  ) 
!S45(C  6-Port  ) 
!S46(C  6-Port  ) 
!S51(C  6-Port  ) 
!S52(C  6-Port  ) 
!S53(C  6-Port  ) 
!S54(C  6-Port  ) 
!S55(C  6-Port  ) 
!S56(C  6-Port  ) 
!S61(C  6-Port  ) 
!S62(C  6-Port  ) 
!S63(C  6-Port  ) 
!S64(C  6-Port  ) 
!S65(C  6-Port  ) 
!S66(C  6-Port  ) 
!S6P File: Measurement: :
# Hz S  RI   R 50
500000000 -0.33177 -0.061565 -0.010049 -0.0018675 -0.0093763 0.012894 -0.0039464 0.012004
0.012893 0.0067898 -0.0043985 0.0063976
-0.010112 -0.0017408 -0.41378 -0.070893 0.0080038 -0.010658 0.0019747 0.012557
0.0086842 0.0029213 0.0016427 0.014508
-0.0093279 0.012778 0.0078406 -0.010866 -0.26696 0.19354 0.0071166 0.0033036
-0.002019 0.0087124 0.00020612 0.012156
-0.0040465 0.01169 0.0015798 0.012126 0.0067374 0.0034395 -0.33069 0.040092
-0.018937 -0.0048853 0.018281 0.027103
0.012521 0.0061255 0.0082377 0.00254 -0.0021803 0.0086703 -0.018783 -0.0046179
-0.24117 -0.20766 -0.027146 0.0049784
-0.0048297 0.0072115 0.0017027 0.014145 0.00028969 0.012222 0.018017 0.026825
-0.026713 0.0046831 -0.26419 -0.13206
560000000 -0.31972 0.1052 -0.022313 -0.066305 -0.00033382 0.01391 0.0055741 0.011671
0.0097205 0.004969 0.011097 0.0089661
-0.022377 -0.066258 -0.37307 0.093675 -0.041382 -0.039239 0.01412 0.0044775
-0.012348 -0.0039994 0.0038179 -0.00023491
-0.00038619 0.013865 -0.041566 -0.039249 -0.1867 0.24636 -0.00060254 -0.0051109
0.018224 0.0061518 0.0075208 -0.0057658
0.0054205 0.011792 0.014043 0.0044711 -0.00052366 -0.00522 -0.30703 0.13126
0.0050757 -0.023678 0.005015 -0.021073
0.010403 0.0045706 -0.012109 -0.0041621 0.018027 0.0061112 0.0048559 -0.023743
-0.30871 -0.025005 0.0079154 -0.050126
0.011629 0.0079121 0.0043009 -0.00038554 0.0071661 -0.0056808 0.0049319 -0.020766
0.0084877 -0.05005 -0.33267 0.015941
620000000 -0.27884 0.085839 -0.023082 0.0085577 0.0039248 0.0097755 0.0074118 -0.0032751
0.01262 -0.0027474 -0.00085582 -0.0019319
-0.023111 0.0085634 -0.40257 0.041953 -0.018277 0.00032052 -0.0016865 -0.0017961
0.012279 -0.0059796 0.00098894 -0.003208
0.0038615 0.0096692 -0.018354 0.00041126 -0.15717 0.25556 -0.001031 -0.0046727
-0.0031749 -0.0032713 0.0095494 -0.0028009
0.0072653 -0.0037294 -0.0018315 -0.0016602 -0.0010609 -0.0047395 -0.2648 0.14341
-0.039144 -0.020569 0.014019 0.027432
0.01214 -0.0025235 0.012483 -0.0062149 -0.0031142 -0.0033492 -0.038581 -0.020946
-0.22968 -0.059674 -0.04227 0.012152
-0.00056228 -0.0014976 0.0012122 -0.0031137 0.0095171 -0.00272 0.014106 0.028045
-0.042347 0.012309 -0.24825 -0.020203
680000000 -0.24283 0.17841 -0.026552 -0.01508 0.0049785 0.0054317 0.001656 -0.0075243
-0.0016295 -0.011256 0.0065765 -0.0070141
-0.026569 -0.015132 -0.39082 0.14341 -0.032687 -0.0026046 -0.0018331 -0.0003572
-0.0012225 -0.0094264 -0.00078478 -0.0022077
0.0048102 0.005499 -0.032701 -0.0024686 -0.10633 0.27737 -0.0011329 -0.00024224
-0.0011829 0.00041877 -0.00272 -0.0096665
0.0018765 -0.007032 -0.0018288 -0.00025445 -0.0010417 -0.0003785 -0.22101 0.19331
-0.022731 -0.0072391 -0.0092283 -0.011683
-0.0016631 -0.011267 -0.0012719 -0.0092794 -0.0012622 0.00064152 -0.022677 -0.0072739
-0.28059 0.043106 -0.0066561 -0.0071273
0.0057166 -0.0071453 -0.0010224 -0.001988 -0.002905 -0.0094834 -0.0088004 -0.011798
-0.0067428 -0.0068757 -0.26079 0.085015
740000000 -0.19565 0.17167 -0.040011 0.026537 0.014316 -0.0043546 -5.567e-05 -0.0040232
-0.0039553 -0.0036727 -0.0063423 0.0028973
-0.040024 0.026539 -0.33722 0.16278 -0.037781 0.034558 -0.00012139 -0.005659
-0.012456 0.0070223 -0.0010569 -0.004945
0.014178 -0.004372 -0.037773 0.034801 -0.072256 0.27468 -0.0019516 0.0033126
-0.0017192 -0.0062004 -0.0017486 0.00099284
-0.00016566 -0.0040755 -8.6737e-06 -0.0056117 -0.0019601 0.0034266 -0.20443 0.2015
-0.042776 -0.010137 0.022939 0.016439
-0.003859 -0.0032733 -0.012673 0.0065004 -0.0014474 -0.0063492 -0.042832 -0.0097962
-0.18194 0.075675 -0.043702 -0.0015594
-0.0063737 0.0028186 -0.0012398 -0.0049695 -0.0019099 0.0010134 0.022727 0.016452
-0.043835 -0.0015699 -0.25142 0.092682
800000000 -0.16428 0.21657 -0.022505 0.016026 0.006002 -0.010656 -0.0045862 -0.0028381
-0.0043194 0.0021319 0.004096 -0.00030315
-0.022472 0.01599 -0.34369 0.23355 -0.0091549 0.034184 -0.0021659 0.0018007
-0.0010082 0.0027049 0.00087959 0.0049306
0.0059614 -0.010611 -0.0090409 0.034234 -0.034065 0.29957 0.00079789 0.0012324
0.00018797 0.0034397 -0.0018231 0.00043717
-0.0047063 -0.0027474 -0.0020963 0.0019131 0.00077115 0.0011936 -0.17584 0.22882
-0.028325 0.012302 0.013318 -0.0099655
-0.0042867 0.0021106 -0.0010285 0.002716 0.00033381 0.0034899 -0.028268 0.012382
-0.22631 0.10083 -0.016199 0.019494
0.0041159 -0.00050277 0.0010128 0.0049037 -0.0019323 0.00034885 0.013517 -0.01006
-0.016268 0.019294 -0.24704 0.14205
860000000 -0.13058 0.23697 -0.018455 0.030375 -0.0028747 -0.010414 -0.0019225 0.0002279
0.0039925 0.005206 -0.0038119 -0.0028692
-0.01849 0.03029 -0.2964 0.27724 0.0069455 0.034831 0.00015596 0.0020612
0.0033431 0.00059999 0.0035503 0.00023282
-0.002915 -0.010449 0.0070927 0.034873 0.013211 0.30866 -0.00061361 -0.00031689
0.0021754 -0.0014891 0.0017174 0.0044569
-0.0018951 0.00025707 0.00017585 0.0021183 -0.00061886 -0.00024659 -0.13879 0.24
-0.018363 0.01775 -0.0063252 -0.0088546
0.0036288 0.0053289 0.0033395 0.0008415 0.0020797 -0.0014582 -0.018619 0.017668
-0.16985 0.15342 -0.025214 0.017728
-0.0037591 -0.0029144 0.0034823 0.00036705 0.0018783 0.0043598 -0.0059171 -0.0091216
-0.024933 0.017432 -0.19396 0.18747
920000000 -0.10725 0.26036 0.0042018 0.038886 -0.0094627 -0.0052619 -0.0020332 0.0016324
0.00094751 0.0023854 0.002742 -0.0012146
0.0041586 0.038797 -0.26913 0.29936 0.028089 0.023385 0.0012934 0.001146
0.0076714 0.00057124 0.0046057 -0.0025333
-0.0094107 -0.0052432 0.028189 0.023333 0.05863 0.31075 0.0018974 0.00010379
0.00078368 3.0531e-05 0.00090973 -0.0013669
-0.0021568 0.0017026 0.0014173 0.0011921 0.0018888 7.5811e-05 -0.11525 0.25666
-0.011821 0.031012 0.0041481 -0.0069635
0.00071932 0.0022255 0.0074906 0.00062753 0.00082284 5.592e-05 -0.011798 0.031185
-0.15863 0.1593 -0.00083845 0.026982
0.0026559 -0.0012078 0.0044467 -0.0026444 0.00085788 -0.0014123 0.0040445 -0.0069043
-0.00087103 0.026903 -0.20193 0.19963
980000000 -0.061368 0.28174 0.016335 0.030668 -0.009754 0.0042603 0.0018201 0.0039132
0.0041389 -0.0013876 -0.0032217 -0.0025987
0.016291 0.030646 -0.21676 0.3348 0.033549 0.0059198 0.0020459 -7.961e-05
0.0017326 -0.0060003 -0.00030588 -0.0030497
-0.0097318 0.0042725 0.033604 0.0058324 0.10461 0.3055 0.00074251 -0.0011393
0.00065063 -0.0018344 0.001337 -0.00034964
0.0019909 0.0039621 0.0020271 -7.0253e-05 0.00073592 -0.0011166 -0.076579 0.26857
0.0068902 0.029993 -0.0094836 -0.007166
0.0043668 -0.0013471 0.0018568 -0.0060031 0.00058802 -0.0018554 0.0068496 0.02986
-0.1251 0.1898 0.0054518 0.019269
-0.0033489 -0.0026199 -0.00037767 -0.0029906 0.001242 -0.00032324 -0.0093774 -0.0073677
0.0056787 0.019478 -0.161 0.24665
1040000000 -0.020574 0.29077 0.033077 0.019791 -0.0016994 0.0073015 0.0027685 0.00082883
0.00043223 -0.0033605 8.9817e-05 -0.0019949
0.033058 0.01975 -0.18207 0.34902 0.030499 -0.014305 0.0016509 -0.0017891
-0.0021477 -0.0024801 -0.00098617 -0.0032274
-0.0016378 0.0072612 0.030474 -0.01444 0.15065 0.29323 -0.00039769 -0.0016576
-0.0016701 -0.00093707 -0.0004871 -0.0010767
0.0026081 0.00080775 0.0016623 -0.0018035 -0.00040444 -0.0016535 -0.050177 0.27826
0.018986 0.019132 -0.0025376 0.0010685
0.0006692 -0.0032944 -0.0021009 -0.0024114 -0.0016184 -0.00095421 0.019051 0.019199
-0.09317 0.19768 0.014513 0.018571
5.8747e-05 -0.0019438 -0.0010154 -0.0032965 -0.00052901 -0.0010398 -0.0025684 0.00096496
0.014162 0.018775 -0.13867 0.26675
1100000000 0.024474 0.30137 0.03703 -0.0026715 0.0030105 0.0044032 0.0024104 -0.0010207
-0.0022736 -0.0030795 -0.0042233 -9.4169e-05
0.036988 -0.0025922 -0.13869 0.36835 0.016397 -0.028118 4.3836e-05 -0.0018584
-0.0038064 -0.00081377 -0.0037144 -0.00033873
0.0030295 0.0043893 0.016314 -0.028202 0.19719 0.27425 -0.0020339 0.0001317
-0.0018281 0.0005531 -0.0011803 -0.00054804
0.002514 -0.00099355 4.3588e-05 -0.0018264 -0.0020458 0.00013473 -0.0099275 0.28395
0.024851 0.0059559 -0.0026318 3.6791e-05
-0.0022245 -0.0029092 -0.0038356 -0.00078843 -0.0018306 0.00056352 0.024876 0.0059048
-0.073243 0.21061 0.019649 0.0093586
-0.004172 -0.00015537 -0.0036361 -0.00032909 -0.0011267 -0.00054729 -0.0026351 9.4511e-05
0.019715 0.009051 -0.093195 0.29733
1160000000 0.07507 0.29775 0.025337 -0.020176 0.0031757 -0.00042228 -0.00011495 -0.0023861
-0.0041916 -0.00094381 -0.0012363 0.0043838
0.025306 -0.020174 -0.09521 0.37365 -0.0030523 -0.02976 -0.0015322 -0.0017881
-0.0026502 0.0024259 -0.0018126 0.0017204
0.0031624 -0.0004326 -0.0032125 -0.029768 0.24071 0.24426 -0.00082782 0.0017532
-0.00058612 0.0019708 -0.0011451 0.00043467
-0.00019732 -0.0024781 -0.0016028 -0.0017004 -0.00084404 0.0017795 0.029198 0.28184
0.021338 -0.010209 -0.0035413 0.0055106
-0.004173 -0.0010094 -0.0026221 0.0024592 -0.00055941 0.0019775 0.021289 -0.010199
-0.03866 0.21882 0.018849 -0.00010669
-0.0010182 0.0044612 -0.0017069 0.0017678 -0.0010853 0.00039329 -0.0035491 0.0053905
0.018932 -0.0001726 -0.045775 0.30102
1220000000 0.11915 0.28915 0.011969 -0.030489 -0.0013145 -0.0011713 3.6981e-05 -0.00095209
-0.002992 0.0022069 0.0010998 0.0022004
0.012003 -0.030426 -0.050677 0.38774 -0.017037 -0.022087 -0.0026622 0.00051114
-6.4213e-05 0.0031702 -0.00072576 0.0020095
-0.0013071 -0.001154 -0.017171 -0.022037 0.2802 0.20595 0.00077126 0.0018069
0.00053546 0.0012612 0.00029922 0.00078163
0.00011416 -0.00088877 -0.002593 0.0004755 0.00078613 0.0017841 0.069258 0.27402
0.011107 -0.017147 0.0020796 0.0014451
-0.0029348 0.0022291 -1.5801e-05 0.0032044 0.00053562 0.0012571 0.011126 -0.017142
-0.015693 0.229 0.014746 -0.013445
0.0010467 0.0021563 -0.00074632 0.0020337 0.00027866 0.00078382 0.0020381 0.0015318
0.014673 -0.013372 -0.014819 0.31702
1280000000 0.16973 0.2693 -0.0071918 -0.029514 -0.001994 0.0022345 -0.00090062 -0.0021008
-0.00087259 0.0033369 0.0025665 0.0014159
-0.0071986 -0.029511 -0.0038592 0.37988 -0.02446 -0.0088804 -0.00092517 0.0015001
0.0017382 0.0017175 0.00068048 0.0021191
-0.0019664 0.0023002 -0.024513 -0.0087895 0.31103 0.16252 0.0016564 -3.6641e-06
0.0011372 0.00027447 0.00033028 0.00028318
-0.00092842 -0.0022086 -0.00098573 0.0015697 0.0016251 1.4694e-05 0.10658 0.25814
0.0011391 -0.01936 3.8922e-05 0.00033421
-0.00089604 0.0033113 0.0017284 0.0017139 0.0011783 0.00021384 0.0011096 -0.01932
0.020926 0.23296 0.0035421 -0.016034
0.0026039 0.0014267 0.00074157 0.002091 0.00034185 0.00033116 8.8541e-05 0.00037623
0.0036611 -0.015948 0.032675 0.32011
1340000000 0.20747 0.23737 -0.01751 -0.02005 0.00053717 0.00459 -0.0019685 -0.0009348
0.0014144 0.0028088 0.0019445 -0.0013663
-0.017468 -0.020048 0.035861 0.37253 -0.022021 0.0043381 -8.6387e-05 0.0020164
0.002022 0.00077796 0.0012308 0.00082198
0.00054241 0.0045866 -0.022031 0.0044647 0.33305 0.11571 0.0010596 -0.00095051
0.00069537 -0.00046858 0.00012026 0.00023296
-0.0019236 -0.00082789 -3.6025e-05 0.0019726 0.0010924 -0.00092531 0.1401 0.23817
-0.0085605 -0.016809 0.00098101 0.00061242
0.0015266 0.0028131 0.0020435 0.0007619 0.00069671 -0.0004692 -0.008644 -0.016763
0.050733 0.22889 -0.0040431 -0.014644
0.0019613 -0.0013837 0.0012074 0.00078142 0.0001137 0.00020054 0.00091563 0.00058856
-0.0040906 -0.014626 0.071103 0.31538
1400000000 0.24227 0.20068 -0.023923 -0.0082184 0.0052728 0.0033736 -0.0023259 0.00072423
0.0026225 0.0010715 0.00034363 -0.0017437
-0.023899 -0.0082288 0.074316 0.36002 -0.015106 0.012871 0.0013344 0.0012638
0.0012439 -0.00084176 0.0011985 0.00011862
0.0053095 0.0033501 -0.015067 0.012953 0.34669 0.062822 3.6636e-05 -0.0015958
0.00018191 -0.00040729 0.00035793 0.00022499
-0.002319 0.0006729 0.0013113 0.0012893 1.3014e-05 -0.0015894 0.17002 0.20945
-0.01479 -0.0098037 -0.0007723 -0.00021529
0.0026201 0.0010526 0.0012349 -0.00085397 0.00017204 -0.00042125 -0.014767 -0.0097296
0.084465 0.22542 -0.010681 -0.0094182
0.00029973 -0.0017829 0.0012339 0.00012273 0.00033695 0.00023692 -0.00077289 -0.00018316
-0.010675 -0.0094285 0.11572 0.30523
1460000000 0.2658 0.15742 -0.021069 0.0045208 0.0057782 -0.0017332 -0.001519 0.0018103
0.0023064 -0.00049606 -0.00035246 -0.00097336
-0.021028 0.0045222 0.10885 0.33812 -0.0057856 0.015854 0.0016328 0.00021572
0.0009127 -0.0013734 0.0012391 -0.00054298
0.0057412 -0.0017615 -0.0056998 0.015913 0.35355 0.0092746 -0.0011917 -0.0011935
0.00016722 -0.00016735 0.00086917 -0.00012647
-0.0015529 0.0018432 0.0016516 0.00017432 -0.0011861 -0.0011974 0.19695 0.1803
-0.015715 -0.002811 -0.00088378 0.0019348
0.0022979 -0.00048855 0.00087633 -0.0013688 0.00018146 -0.00013224 -0.015737 -0.002833
0.11414 0.2119 -0.012794 -0.0031782
-0.00033201 -0.00091824 0.0012237 -0.00051532 0.00089539 -0.0002061 -0.0008716 0.0019581
-0.012727 -0.0031275 0.1489 0.28473
1520000000 0.27948 0.11626 -0.015329 0.010342 0.003445 -0.0043482 0.00016104 0.0026829
0.00215 -0.0019396 -0.0012259 -5.621e-05
-0.015322 0.010321 0.14267 0.32401 0.0021874 0.01314 0.0016693 -0.00073373
2.4213e-05 -0.0010569 0.00033789 -0.0010689
0.0034261 -0.0043692 0.0022689 0.013142 0.34727 -0.046162 -0.0009635 -0.00034406
0.0007536 -0.00093616 0.00010689 -0.0002366
0.00020431 0.0026239 0.0016662 -0.00073444 -0.00095269 -0.00036518 0.22075 0.14207
-0.014864 0.0031256 0.001676 0.0022226
0.0021514 -0.0019811 1.0031e-05 -0.0010811 0.00073587 -0.00096032 -0.014858 0.003197
0.14271 0.19929 -0.012464 0.0020048
-0.0012762 -0.00011533 0.00032048 -0.0010585 8.3381e-05 -0.00026009 0.0016687 0.0021907
-0.012501 0.0020066 0.18196 0.26528
1580000000 0.29013 0.070282 -0.0083855 0.013801 -0.00099194 -0.0051081 0.0015693 0.0018198
-0.00014852 -0.0022841 -0.00023855 0.00029845
-0.0083663 0.013798 0.17022 0.29921 0.0057519 0.0078542 0.00057816 -0.0015539
-0.00046392 -0.0010412 -0.0001976 -0.00089565
-0.0010267 -0.0051179 0.0058061 0.0078579 0.32819 -0.10386 -0.00157 0.0004209
-0.00035724 -0.0013396 0.00038259 -0.00066757
0.0015728 0.0018157 0.0006078 -0.001562 -0.0015555 0.00043711 0.23476 0.10244
-0.011163 0.0078613 0.0022806 0.00067318
-0.00014306 -0.0022858 -0.00045907 -0.0010262 -0.00036476 -0.0013294 -0.011165 0.00787
0.16747 0.18176 -0.0097415 0.0079313
-0.00017659 0.00032226 -0.00023199 -0.00089988 0.00039282 -0.0006336 0.0023094 0.00072191
-0.0097079 0.0079238 0.21462 0.23907
1640000000 0.29295 0.029247 -0.0013397 0.012507 -0.0030463 -0.002677 0.0027309 0.00098301
-0.00088525 -0.0016776 -0.00025836 0.00060001
-0.001343 0.012505 0.1996 0.27493 0.0060362 0.0027234 -0.00053475 -0.0018265
-0.00094532 -0.00045395 -0.0005815 -0.00062561
-0.0030377 -0.0026571 0.0060566 0.0027038 0.3002 -0.15272 -0.0007578 0.0013664
-0.0011619 -0.0010346 -0.0003248 -0.00043764
0.0027619 0.0009874 -0.00054587 -0.001804 -0.00074701 0.0013656 0.24762 0.053512
-0.0067367 0.0088766 0.0025076 -0.00081248
-0.00089361 -0.0016801 -0.00096857 -0.00046385 -0.0011589 -0.0010064 -0.0067202 0.0089063
0.19091 0.15853 -0.0046107 0.01018
-0.0003115 0.00063244 -0.00055034 -0.0006358 -0.00028667 -0.00047296 0.0025121 -0.00087396
-0.0046675 0.010163 0.24024 0.20866
1700000000 0.28692 -0.015842 0.0021979 0.0095888 -0.0038066 0.00019954 0.0030811 -0.0011994
-0.0021821 -0.00058514 0.00055148 0.00041381
0.0021821 0.0095831 0.21815 0.24381 0.0035143 -0.00022293 -0.0014849 -0.00069735
-0.00077061 -7.0661e-05 -0.00088746 -0.00044226
-0.0037869 0.00021553 0.0035265 -0.00023831 0.25798 -0.19261 0.00030029 0.0016
-0.0020978 -1.3411e-05 -0.00053366 -0.00078638
0.0031045 -0.0012498 -0.0014627 -0.00070988 0.00026746 0.0016316 0.24457 0.0034167
-0.0039736 0.0091525 0.0016901 -0.0022244
-0.0021539 -0.0006026 -0.00075912 -6.0476e-05 -0.0021324 -2.5299e-05 -0.0039411 0.0091274
0.20919 0.13881 0.00025269 0.010443
0.00057474 0.00040402 -0.0009119 -0.00047618 -0.00060478 -0.00080858 0.0016186 -0.0021649
0.00025721 0.010416 0.25765 0.17501
1760000000 0.27552 -0.06441 0.0044719 0.0061737 -0.0023438 0.0012905 0.0013811 -0.0034497
-0.0013608 0.00067814 0.0003135 -0.00057047
0.0044605 0.0061752 0.2442 0.20456 0.00092871 -0.0017485 -0.0013157 5.4954e-05
-0.0011486 0.00085283 -0.00060451 0.00034996
-0.0023341 0.0013261 0.00092117 -0.0017554 0.20999 -0.22634 0.00099287 0.0012069
-0.0012219 0.0015105 -0.001252 -0.00060359
0.0013522 -0.0034595 -0.0013137 7.8684e-05 0.0010109 0.0011982 0.23556 -0.048203
-0.00096599 0.0081194 -0.00032883 -0.0025094
-0.0013666 0.00069068 -0.0011227 0.00086362 -0.0011854 0.0015559 -0.00095226 0.0081632
0.22448 0.10458 0.0044749 0.0076974
0.00031656 -0.0005345 -0.00060941 0.00036437 -0.0012007 -0.00062407 -0.00027713 -0.0025612
0.0044703 0.0076893 0.27098 0.13777
1820000000 0.25235 -0.1016 0.0045144 0.0025879 7.9983e-05 0.0026981 -0.00090452 -0.0031092
-0.001095 0.0010867 -8.0507e-05 -8.6142e-05
0.0045094 0.0025816 0.25501 0.1752 -0.0013408 -0.0001091 -0.0014282 0.00098773
-0.00017502 0.0012813 -0.00066688 0.00057349
8.9457e-05 0.0026328 -0.0013555 -0.00010384 0.1595 -0.24199 0.001803 0.00048361
-0.0002013 0.002451 -0.0015431 0.00051588
-0.00095843 -0.0031577 -0.0014359 0.0010038 0.0017734 0.00052582 0.20611 -0.095584
0.00035249 0.0068847 -0.0017669 -0.0017127
-0.0011362 0.0010705 -0.00017921 0.0012704 -0.00018669 0.0024192 0.00042861 0.0068447
0.24242 0.076506 0.0054645 0.0037126
-1.1504e-05 -5.2326e-05 -0.00066531 0.00056026 -0.0016282 0.00053658 -0.0019178 -0.0016099
0.0054507 0.0037276 0.27393 0.10172
1880000000 0.21806 -0.14266 0.0021751 0.00036545 -0.0004418 0.0022778 -0.0028919 -0.0022375
-0.00015512 0.0017962 0.00017345 -0.00043181
0.0021615 0.0003776 0.25976 0.12873 -0.0032186 0.0020713 -0.00026585 0.0018815
0.00054402 0.0014576 4.2793e-05 0.00099062
-0.00037389 0.0022729 -0.0032067 0.002097 0.10792 -0.25152 0.0019479 -0.00088105
0.0016864 0.0019309 -0.0010042 0.0014101
-0.0028717 -0.002185 -0.00025157 0.0018549 0.0019961 -0.0008964 0.16516 -0.13604
0.0011117 0.0048238 -0.0025337 0.00023291
-0.00013551 0.0018333 0.00053883 0.0014372 0.0016619 0.00193 0.0011101 0.0048019
0.2472 0.045086 0.0056973 0.0012363
5.4942e-05 -0.00050178 3.3654e-05 0.0010108 -0.00095872 0.0014509 -0.0023863 0.00031951
0.0057233 0.0012144 0.2747 0.067516
1940000000 0.17914 -0.16896 -2.5285e-05 -0.0012336 0.0016316 0.0019973 -0.0039176 0.00021973
0.0012522 0.00096273 -0.00058681 -0.00060745
-2.7066e-05 -0.001239 0.26101 0.097527 -0.0016893 0.0047545 0.0011376 0.0012761
0.0019683 0.00063055 0.00096481 0.00035283
0.0016379 0.0019911 -0.0017061 0.0047879 0.062528 -0.24477 0.00060919 -0.0024488
0.0023961 0.00048111 0.00030854 0.0016829
-0.0039301 0.00025955 0.0011766 0.0012745 0.00057263 -0.0024701 0.11295 -0.16669
0.00018487 0.0036486 -0.0016394 0.0016459
0.0012222 0.00093859 0.0019942 0.00058398 0.0023758 0.00049065 0.00024404 0.0036422
0.25064 0.0074124 0.0041605 -0.0024915
-0.00053855 -0.00058228 0.00095394 0.00033661 0.00030498 0.0017088 -0.0017331 0.0015649
0.0041083 -0.0024638 0.26362 0.031344
2000000000 0.13351 -0.18445 -0.0037371 0.00079771 0.0028355 0.0015737 -0.0023578 0.0035623
0.0012092 0.00037983 -0.00057831 0.00043952
-0.0037263 0.00080815 0.24764 0.062218 -0.00098518 0.006879 0.0017629 0.00031097
0.0014775 -0.0012125 0.00059508 1.3594e-05
0.0028526 0.0015817 -0.00093906 0.006888 0.019119 -0.2308 -0.0014646 -0.0018638
0.0021733 -0.0011499 0.0015342 0.0014637
-0.0022383 0.0036525 0.0017442 0.00033464 -0.0014414 -0.001853 0.059375 -0.17709
-0.0010752 0.003637 8.0879e-05 0.0021827
0.0012313 0.00043447 0.0014393 -0.0012258 0.0020979 -0.0011999 -0.0010779 0.003604
0.24683 -0.025543 0.00086118 -0.0033251
