!Keysight Technologies,M9804A,MY58100912,A.14.10.03
!Date: Thursday, April 27, 2023 10:28:33
!Correction: S11(C  6-Port  ) 
!S12(C  6-Port  ) 
!S13(C  6-Port  ) 
!S14(C  6-Port  ) 
!S15(C  6-Port  ) 
!S16(C  6-Port  ) 
!S21(C  6-Port  ) 
!S22(C  6-Port  ) 
!S23(C  6-Port  ) 
!S24(C  6-Port  ) 
!S25(C  6-Port  ) 
!S26(C  6-Port  ) 
!S31(C  6-Port  ) 
!S32(C  6-Port  ) 
!S33(C  6-Port  ) 
!S34(C  6-Port  ) 
!S35(C  6-Port  ) 
!S36(C  6-Port  ) 
!S41(C  6-Port  ) 
!S42(C  6-Port  ) 
!S43(C  6-Port  ) 
!S44(C  6-Port  ) 
!S45(C  6-Port  ) 
!S46(C  6-Port  ) 
!S51(C  6-Port  ) 
!S52(C  6-Port  ) 
!S53(C  6-Port  ) 
!S54(C  6-Port  ) 
!S55(C  6-Port  ) 
!S56(C  6-Port  ) 
!S61(C  6-Port  ) 
!S62(C  6-Port  ) 
!S63(C  6-Port  ) 
!S64(C  6-Port  ) 
!S65(C  6-Port  ) 
!S66(C  6-Port  ) 
!S6P File: Measurement: :
# Hz S  RI   R 50
500000000 -0.33169 -0.062924 -0.010089 -0.0014094 -0.0086967 0.012986 -0.0046719 0.012138
0.013307 0.005281 -0.0051509 0.0074302
-0.0099484 -0.0016954 -0.41288 -0.070969 0.0084382 -0.01082 0.0017425 0.011454
0.0084642 0.0036211 0.0018204 0.013509
-0.0088035 0.013029 0.0083577 -0.010927 -0.2665 0.19293 0.0070456 0.0032472
-0.0023394 0.0090296 0.0005268 0.012079
-0.005244 0.011486 0.0016589 0.011697 0.0072685 0.0032379 -0.33067 0.037515
-0.018603 -0.0041787 0.016304 0.025111
0.013259 0.0045698 0.0084036 0.0032504 -0.0023576 0.0087523 -0.018922 -0.0046836
-0.23802 -0.20873 -0.026711 0.0047163
-0.0065585 0.0069299 0.0020606 0.013581 0.00088421 0.011782 0.017073 0.024617
-0.02654 0.0055591 -0.26574 -0.13807
560000000 -0.31818 0.10601 -0.022097 -0.066661 -7.6231e-05 0.013638 0.0053604 0.011748
0.010926 0.0041026 0.010373 0.0078784
-0.021847 -0.066326 -0.37307 0.093869 -0.041445 -0.038933 0.014362 0.0036362
-0.012816 -0.0051811 0.0047015 -0.00073343
-7.8572e-05 0.014033 -0.041884 -0.039183 -0.18705 0.24568 -0.00016399 -0.0049836
0.017389 0.0064723 0.0080402 -0.0062714
0.0054445 0.011916 0.014114 0.0037137 -3.5101e-05 -0.0048618 -0.30658 0.13166
0.0066618 -0.022956 0.0058227 -0.021237
0.01098 0.0047726 -0.012575 -0.0056654 0.017835 0.006233 0.0067056 -0.022715
-0.31051 -0.02372 0.0099358 -0.050052
0.011088 0.0080167 0.0046019 -0.00086586 0.008385 -0.0062184 0.006356 -0.021174
0.0094691 -0.049819 -0.33069 0.013564
620000000 -0.27828 0.085961 -0.022863 0.0087975 0.0036834 0.0098192 0.0071914 -0.0038578
0.013683 -0.0013397 -0.0012006 -0.0011184
-0.02295 0.0088339 -0.40242 0.041342 -0.018378 0.00034031 -0.0017456 -0.0019828
0.013072 -0.0060332 0.00036109 -0.0026529
0.0034787 0.010058 -0.018405 0.00065929 -0.15716 0.25498 -0.00048396 -0.0047565
-0.0043122 -0.0031796 0.010253 -0.0023846
0.007008 -0.0040394 -0.0022008 -0.0015475 -0.00042624 -0.005144 -0.2654 0.14268
-0.039609 -0.021169 0.014114 0.028334
0.013482 -0.0020278 0.013153 -0.006327 -0.0042925 -0.0027956 -0.039519 -0.021145
-0.22539 -0.060672 -0.043388 0.010194
-0.0014374 -0.0010165 0.00072727 -0.0026977 0.010462 -0.0024768 0.0133 0.029764
-0.043821 0.0091705 -0.2455 -0.020797
680000000 -0.24304 0.17833 -0.026549 -0.015131 0.0048591 0.005397 0.0010528 -0.0072909
-0.0024629 -0.011335 0.0065287 -0.0066477
-0.026433 -0.015169 -0.39067 0.1426 -0.032517 -0.0026214 -0.0017712 -0.00060945
-0.001611 -0.0090833 -0.00068312 -0.001672
0.0047618 0.0051799 -0.032704 -0.0026635 -0.10661 0.27706 -0.00099194 -0.00032316
-0.0014174 0.00038385 -0.0026644 -0.0093493
0.0012199 -0.0067409 -0.0017249 -0.00067208 -0.00085375 -0.00013005 -0.22046 0.1941
-0.022424 -0.0083274 -0.0099168 -0.010747
-0.0023509 -0.011254 -0.0016037 -0.0090695 -0.0014414 0.00051224 -0.02312 -0.0080568
-0.28219 0.042184 -0.0068478 -0.00678
0.0063103 -0.0063726 -0.00056052 -0.0020437 -0.0023444 -0.009461 -0.009228 -0.011934
-0.0066339 -0.0063218 -0.26068 0.083163
740000000 -0.1955 0.17113 -0.040633 0.026596 0.013796 -0.004612 0.00010124 -0.0040958
-0.0043932 -0.0036075 -0.0066382 0.0025614
-0.040628 0.026749 -0.33632 0.1615 -0.037614 0.034713 -0.00015874 -0.0063503
-0.011808 0.0075318 -0.0014359 -0.0059844
0.013655 -0.0044316 -0.037388 0.035091 -0.072707 0.27456 -0.0014259 0.003386
-0.0026382 -0.0061137 -0.0012896 0.0011836
-2.184e-05 -0.0041898 -8.3426e-05 -0.006515 -0.0015077 0.0033233 -0.20523 0.20067
-0.042924 -0.0087113 0.023085 0.01586
-0.0050065 -0.0036782 -0.011914 0.0073794 -0.0028901 -0.0058994 -0.041347 -0.0092904
-0.18167 0.068593 -0.044662 0.00086318
-0.0068539 0.002856 -0.00088053 -0.0058095 -0.0014018 0.00099381 0.021912 0.015919
-0.045126 -1.6702e-05 -0.25012 0.091755
800000000 -0.16468 0.21621 -0.02252 0.015934 0.0061021 -0.010556 -0.0046008 -0.0027054
-0.0046526 0.0020167 0.0038699 0.0010903
-0.022617 0.015884 -0.34383 0.23311 -0.0089453 0.034245 -0.0023751 0.0019392
-0.001204 0.0026232 0.00064611 0.0055716
0.0059107 -0.010622 -0.0089493 0.034298 -0.033979 0.29957 0.0007972 0.0012563
8.6429e-05 0.0034368 -0.0018588 0.0010325
-0.0047885 -0.0025246 -0.0021139 0.002018 0.00094063 0.0013389 -0.1756 0.22845
-0.028 0.012524 0.013336 -0.010622
-0.004557 0.0018854 -0.0010931 0.0025092 5.7692e-05 0.0034173 -0.028433 0.013078
-0.22721 0.09743 -0.017664 0.020532
0.0038951 0.00048331 0.00064244 0.0053536 -0.0016492 0.0009653 0.014061 -0.010961
-0.017449 0.020332 -0.24708 0.14028
860000000 -0.13053 0.23703 -0.018471 0.030568 -0.0028855 -0.010144 -0.0016583 0.00060156
0.0038154 0.0056582 -0.0039327 -0.0032081
-0.018447 0.030539 -0.29659 0.27709 0.0069711 0.034883 0.00012873 0.0018941
0.0034205 0.000604 0.0035359 9.6171e-05
-0.0029579 -0.010165 0.0070885 0.034893 0.013268 0.30873 -0.00049444 -0.00026552
0.0022043 -0.0011923 0.0016118 0.0042836
-0.0015974 0.00034961 2.8181e-05 0.0021317 -0.00061396 -0.00030101 -0.13877 0.24041
-0.018878 0.017734 -0.0062226 -0.0091942
0.0038928 0.0057632 0.0033991 0.00077234 0.0021843 -0.0012613 -0.018413 0.017948
-0.1694 0.15255 -0.025449 0.015991
-0.0039994 -0.0035019 0.0035797 0.00012847 0.0016008 0.0044014 -0.006595 -0.0089924
-0.025122 0.015934 -0.19331 0.18815
920000000 -0.10749 0.26012 0.0040822 0.038668 -0.0093432 -0.0051762 -0.0022366 0.0014908
0.0008002 0.0016939 0.0027743 -0.0010178
0.004205 0.038636 -0.26939 0.29893 0.027982 0.023291 0.0014692 0.0012899
0.0074818 8.2634e-05 0.0043054 -0.002333
-0.0093559 -0.0052321 0.028101 0.023243 0.058758 0.3106 0.0018761 9.9418e-06
0.00080819 -0.00010783 0.0010345 -0.0013791
-0.0022185 0.001701 0.0015106 0.0012841 0.0018689 4.9587e-05 -0.11517 0.25668
-0.011571 0.03057 0.0037588 -0.0072845
0.00067498 0.0016727 0.0073079 0.0001133 0.00082216 -8.0273e-05 -0.011875 0.030372
-0.16062 0.15767 -0.0012614 0.027585
0.002971 -0.0010663 0.0044005 -0.0023872 0.0010435 -0.0013502 0.0042791 -0.0070823
-0.0013648 0.027781 -0.20336 0.19881
980000000 -0.061449 0.28154 0.016171 0.030652 -0.0096461 0.0043337 0.0018408 0.0038363
0.0038528 -0.0012012 -0.0031742 -0.0023402
0.01622 0.030621 -0.21691 0.33484 0.03336 0.0059453 0.0020167 -0.00028755
0.0017862 -0.0060446 -0.00051313 -0.0028841
-0.0096338 0.0043548 0.033391 0.0058497 0.10464 0.30528 0.00079916 -0.0011441
0.00053409 -0.0017748 0.0014557 -0.00022509
0.0020267 0.0037081 0.0019871 -0.00023556 0.00085997 -0.0011416 -0.076548 0.26808
0.0063792 0.029971 -0.0092842 -0.0069937
0.00382 -0.0011061 0.001659 -0.0060061 0.00053134 -0.0016937 0.0067467 0.030099
-0.12666 0.18835 0.00478 0.019518
-0.0029933 -0.0023287 -0.00041349 -0.0027833 0.0015516 -0.00028816 -0.0096071 -0.007149
0.0050654 0.01958 -0.16141 0.24602
1040000000 -0.020939 0.29087 0.032856 0.019882 -0.0016241 0.0072742 0.0025255 0.0008677
0.0005253 -0.0033361 -7.7188e-05 -0.0017459
0.032852 0.019831 -0.18198 0.34884 0.030364 -0.014237 0.0017153 -0.0017952
-0.0019066 -0.0024112 -0.0010675 -0.0033071
-0.0016229 0.0072983 0.030313 -0.014327 0.15058 0.2929 -0.00039632 -0.0016139
-0.0015201 -0.00089162 -0.00056486 -0.0010875
0.0025766 0.00095881 0.001527 -0.0018656 -0.00044118 -0.0016179 -0.050185 0.27788
0.018808 0.018937 -0.0029702 0.00085048
0.00053246 -0.0032674 -0.0019621 -0.0025598 -0.001539 -0.00092099 0.018813 0.018782
-0.093818 0.19568 0.014251 0.018645
-2.5191e-05 -0.0019629 -0.0011573 -0.0034575 -0.00059018 -0.0011128 -0.0028931 0.0010686
0.013996 0.018693 -0.13978 0.26612
1100000000 0.024309 0.30115 0.036926 -0.0025447 0.003012 0.0043445 0.0025858 -0.0011044
-0.0020575 -0.0029644 -0.0040297 -6.812e-05
0.036825 -0.0025827 -0.13859 0.36815 0.016205 -0.027889 1.2892e-05 -0.0018724
-0.0035609 -0.00079078 -0.0035499 -0.00053155
0.0030368 0.004306 0.016131 -0.027993 0.19701 0.2739 -0.0019279 0.00011557
-0.0017956 0.00053434 -0.00109 -0.00047326
0.0025325 -0.0010504 7.4048e-05 -0.0018169 -0.001927 0.00012783 -0.0098951 0.28371
0.024484 0.0061062 -0.0027096 0.00037227
-0.0021398 -0.0028937 -0.0036179 -0.00076635 -0.00183 0.00062386 0.024487 0.0060944
-0.074261 0.20984 0.019594 0.0093201
-0.0039635 -4.3117e-06 -0.0034078 -0.00042288 -0.0011075 -0.00047014 -0.0025902 0.00031184
0.019559 0.0093887 -0.093529 0.29755
1160000000 0.075018 0.2978 0.025226 -0.019985 0.0031603 -0.00039849 -0.00015863 -0.0024429
-0.004054 -0.00091206 -0.0011882 0.0041844
0.025231 -0.020007 -0.095241 0.37333 -0.0030088 -0.029551 -0.0016412 -0.0017211
-0.0027258 0.0025362 -0.0015837 0.001774
0.0031938 -0.00039664 -0.003117 -0.029564 0.24032 0.24408 -0.0008455 0.0017746
-0.00057529 0.0019302 -0.0011352 0.00046461
-0.00013987 -0.0025228 -0.0016713 -0.0016764 -0.00082116 0.0017963 0.029168 0.28156
0.021373 -0.0097792 -0.0032752 0.0052976
-0.0040319 -0.00083256 -0.0026536 0.002502 -0.00055452 0.0019175 0.021243 -0.0097942
-0.039997 0.21818 0.019227 -0.00018164
-0.0010337 0.0040746 -0.0015214 0.0018396 -0.0011029 0.00043481 -0.0034091 0.0051821
0.019235 -0.00047239 -0.046262 0.30003
1220000000 0.11915 0.28889 0.012023 -0.030277 -0.0012431 -0.0011607 0.00012274 -0.00098046
-0.0027976 0.0022763 0.0010603 0.0019949
0.012035 -0.030268 -0.050928 0.3873 -0.016806 -0.021923 -0.0025872 0.00040992
1.3099e-05 0.0031494 -0.00074643 0.0019422
-0.0012986 -0.0011706 -0.01694 -0.021871 0.27984 0.20605 0.00066614 0.0017251
0.00054608 0.0011781 0.00026833 0.00068965
0.00014418 -0.00094902 -0.0025505 0.00044469 0.00066299 0.0017444 0.068975 0.27387
0.01097 -0.016612 0.0020867 0.0014554
-0.0028498 0.0022271 1.4634e-05 0.00317 0.00055055 0.0011997 0.011005 -0.016721
-0.016921 0.22834 0.014703 -0.013073
0.0010622 0.0020731 -0.0007811 0.0019943 0.00023034 0.0006255 0.0020764 0.0016652
0.014613 -0.013041 -0.015883 0.31666
1280000000 0.16961 0.26911 -0.0070115 -0.02938 -0.0019114 0.0021632 -0.00094331 -0.0022061
-0.00077198 0.0032401 0.002656 0.0015255
-0.006918 -0.029388 -0.0043398 0.37954 -0.024174 -0.0088397 -0.00097399 0.0015101
0.0016561 0.0017237 0.00077421 0.0021508
-0.0019211 0.0021356 -0.024206 -0.0087426 0.31086 0.16288 0.0016427 -1.3433e-05
0.0011771 0.00019485 0.00024624 0.00027763
-0.00090597 -0.0022818 -0.00098032 0.0015137 0.0016608 2.8385e-05 0.10621 0.25821
0.001445 -0.019071 -6.5142e-05 0.00045983
-0.00083416 0.003271 0.0016455 0.0017362 0.001168 0.00022682 0.0013525 -0.019033
0.019672 0.2325 0.0034493 -0.015838
0.0027275 0.0014873 0.00084448 0.0021286 0.00029697 0.00027661 8.4095e-05 0.00039477
0.0034687 -0.015932 0.031458 0.31986
1340000000 0.20729 0.23712 -0.017158 -0.020056 0.00062368 0.004467 -0.0019269 -0.00083562
0.0015415 0.0027534 0.0018677 -0.0013059
-0.017168 -0.020015 0.035309 0.37241 -0.021857 0.0042304 -0.00015303 0.0020124
0.0020044 0.00076725 0.0011022 0.00077906
0.0006421 0.0044618 -0.021863 0.0043738 0.33328 0.11601 0.0010487 -0.00093416
0.00068028 -0.00049387 0.00015254 0.00029321
-0.0019526 -0.00083748 -9.6519e-05 0.0020175 0.0010625 -0.00094465 0.13962 0.23813
-0.0080855 -0.016517 0.0010315 0.00046291
0.0015355 0.0027471 0.0019679 0.00075299 0.00071574 -0.00048811 -0.0081327 -0.016546
0.049382 0.22881 -0.0036485 -0.014456
0.0017714 -0.0014656 0.0011505 0.00074857 0.00011619 0.00028602 0.00099899 0.00039439
-0.0036074 -0.014455 0.069887 0.31515
1400000000 0.24206 0.20068 -0.023675 -0.0083657 0.0051304 0.0032672 -0.0023726 0.00063361
0.0025774 0.0010655 0.00035192 -0.001742
-0.023655 -0.008394 0.073669 0.36017 -0.014981 0.012632 0.0013018 0.0013306
0.0012475 -0.00078362 0.0012695 0.0002182
0.0051724 0.0032345 -0.014947 0.012712 0.34716 0.062903 4.9747e-05 -0.0015742
0.00012459 -0.00037508 0.0003061 0.00029004
-0.0023321 0.00069075 0.0013098 0.0013185 5.0785e-05 -0.0015745 0.1698 0.20972
-0.014301 -0.0098947 -0.00066467 -0.00021059
0.0026054 0.0010694 0.0012518 -0.00082708 8.7236e-05 -0.0004192 -0.014366 -0.0098954
0.082976 0.22513 -0.010375 -0.0090307
0.00039609 -0.0017596 0.0012178 0.00015406 0.00034943 0.00022354 -0.00068621 -8.1024e-05
-0.010385 -0.0090156 0.11515 0.30536
1460000000 0.26569 0.15732 -0.020943 0.0042026 0.0056012 -0.0017396 -0.0015231 0.0018069
0.0021985 -0.00041849 -0.00023101 -0.00099695
-0.020937 0.0042352 0.10847 0.33852 -0.0058393 0.015666 0.0016562 0.00020599
0.00092629 -0.0013016 0.001249 -0.00048894
0.0055947 -0.0017657 -0.0057531 0.015723 0.35397 0.0088713 -0.0012088 -0.0012039
0.00025139 -0.00019372 0.00075686 -0.00033601
-0.0015411 0.0017691 0.0016781 0.00017871 -0.0011958 -0.0012161 0.19694 0.18062
-0.015358 -0.0032247 -0.00097701 0.0019159
0.0021893 -0.00042051 0.00093229 -0.0013238 0.0002665 -0.00019936 -0.015331 -0.0030912
0.11288 0.21187 -0.012501 -0.0032125
-0.0001888 -0.0010749 0.0012361 -0.00045628 0.00074302 -0.00035105 -0.0009206 0.0019359
-0.012476 -0.0032929 0.14775 0.28499
1520000000 0.27932 0.11635 -0.015359 0.01004 0.0033325 -0.0042697 0.00013792 0.0026991
0.0021756 -0.001928 -0.0013358 -0.00012292
-0.015372 0.010029 0.14246 0.32447 0.0020611 0.012985 0.0016284 -0.00067551
4.6757e-05 -0.0010203 0.00035446 -0.0010839
0.0033369 -0.004281 0.0021285 0.013006 0.34761 -0.046746 -0.00096536 -0.00033228
0.00072863 -0.00089989 0.00012078 -0.00019304
0.00014987 0.0027032 0.0016242 -0.00069452 -0.00094161 -0.00035809 0.22077 0.14245
-0.014731 0.0025969 0.0016255 0.0021122
0.0021204 -0.001943 4.9941e-05 -0.0010466 0.00069237 -0.00088392 -0.014774 0.0025976
0.14135 0.19946 -0.012135 0.0019614
-0.0013524 -5.6948e-05 0.0002892 -0.0011027 0.00010769 -0.00027049 0.0016582 0.0020547
-0.012164 0.001969 0.18133 0.26546
1580000000 0.29001 0.070389 -0.0086355 0.013544 -0.0010075 -0.0049287 0.0015551 0.0018605
-0.00020163 -0.0022291 -0.00019586 0.00035924
-0.008605 0.013585 0.17024 0.29971 0.0056558 0.0077851 0.00059778 -0.0015475
-0.00049356 -0.0010238 -0.00011106 -0.00088752
-0.0010309 -0.0049333 0.0056824 0.007784 0.32825 -0.10449 -0.0015492 0.00041788
-0.0003206 -0.0013321 0.00031346 -0.00075941
0.001602 0.0018507 0.00060506 -0.0015763 -0.0015722 0.00041758 0.23519 0.1028
-0.011395 0.0074069 0.0021763 0.00073393
-0.00021486 -0.0022304 -0.00046408 -0.0010324 -0.00032985 -0.0012939 -0.011421 0.0074619
0.16602 0.18215 -0.0094832 0.0077475
-0.00027503 0.00044116 -0.00013753 -0.00090383 0.0003029 -0.00068087 0.0020944 0.00078719
-0.0095017 0.0077099 0.21361 0.2395
1640000000 0.29302 0.029422 -0.0016589 0.012468 -0.0030368 -0.0025849 0.0027939 0.0010097
-0.00078644 -0.0016327 -0.00043804 0.00070242
-0.001678 0.012483 0.19991 0.27535 0.0059002 0.0028188 -0.00054092 -0.0018151
-0.00096314 -0.00050665 -0.0005952 -0.00068756
-0.0030471 -0.002545 0.0059191 0.0028031 0.29976 -0.15322 -0.00079817 0.0014182
-0.0011687 -0.0010647 -0.00025489 -0.00047983
0.0027723 0.0010052 -0.00055568 -0.0017923 -0.00077731 0.0013972 0.248 0.053748
-0.0072043 0.0086564 0.0024463 -0.00084841
-0.00075962 -0.0016561 -0.001013 -0.00047478 -0.0011602 -0.0010414 -0.0070917 0.0086819
0.18973 0.15912 -0.0046812 0.0099715
-0.00037402 0.00070727 -0.00054689 -0.00068372 -0.00025462 -0.00045121 0.0024517 -0.00086578
-0.0046733 0.0099828 0.23992 0.20918
1700000000 0.2871 -0.015881 0.0019383 0.0097193 -0.0036138 0.00017682 0.003147 -0.0012045
-0.0020656 -0.00067044 0.00062949 0.00036729
0.0019471 0.0096919 0.21856 0.24405 0.0034864 -0.00010716 -0.0014108 -0.00070433
-0.00078884 -6.7631e-05 -0.00097365 -0.00047214
-0.003573 0.00016942 0.0034884 -0.00013684 0.25735 -0.19275 0.00027258 0.0016464
-0.0020277 -7.6891e-05 -0.0005973 -0.00077921
0.0031854 -0.0012439 -0.0014469 -0.00071835 0.00027849 0.0016467 0.24515 0.003261
-0.0043525 0.0091818 0.0016197 -0.0021729
-0.0020476 -0.00064729 -0.00077594 -9.1266e-05 -0.0020464 -2.0528e-05 -0.0043441 0.0092208
0.20823 0.13958 0.00024369 0.010065
0.00057619 0.00038527 -0.00097591 -0.00047805 -0.00054111 -0.00083363 0.0016657 -0.0022156
0.00019908 0.010088 0.25712 0.17525
1760000000 0.27573 -0.06464 0.0043315 0.006406 -0.0022697 0.0012392 0.0014036 -0.0034522
-0.0013601 0.00065474 0.00027057 -0.00058559
0.0043178 0.0063849 0.2447 0.20456 0.00095443 -0.0017453 -0.0013103 4.6722e-05
-0.0011618 0.00092092 -0.00057368 0.00037772
-0.0022988 0.0012435 0.00090922 -0.0017569 0.21 -0.22635 0.001098 0.0010978
-0.0012089 0.0015942 -0.0012051 -0.00055689
0.0013627 -0.0034857 -0.0012959 6.3423e-05 0.001088 0.0011143 0.23583 -0.048649
-0.0011982 0.0084488 -0.00027475 -0.0022294
-0.001341 0.00061305 -0.0011566 0.00094115 -0.0011991 0.0015494 -0.0012716 0.0084124
0.22371 0.10554 0.0041778 0.0074542
0.00030823 -0.00050799 -0.00051731 0.00037709 -0.0012944 -0.00054278 -0.00031958 -0.0023059
0.0042213 0.0074217 0.27038 0.13841
1820000000 0.25234 -0.102 0.004498 0.0028806 -2.2693e-05 0.0026298 -0.00098534 -0.0031454
-0.0011808 0.00090895 -9.0156e-05 -0.00011325
0.0045051 0.0028549 0.25538 0.17497 -0.0014762 -0.00018508 -0.0014615 0.00089573
-0.0001461 0.0012387 -0.0006934 0.0005548
-2.9786e-05 0.002641 -0.0014664 -0.00014662 0.15897 -0.24249 0.0016576 0.00042757
-0.0002793 0.002337 -0.0015207 0.00045227
-0.00095555 -0.0031347 -0.0014494 0.00090961 0.0016744 0.00042257 0.2063 -0.09604
0.00032568 0.0070897 -0.0016754 -0.0018337
-0.0011923 0.00097372 -0.00014352 0.0012502 -0.0002458 0.0023313 0.00046729 0.007183
0.24199 0.07733 0.005401 0.0035941
-5.5206e-05 -0.0002076 -0.00063646 0.00057831 -0.0015669 0.00051233 -0.0017414 -0.0017247
0.0053785 0.0036244 0.27352 0.1023
1880000000 0.21791 -0.14319 0.0023124 0.00052873 -0.00040583 0.002295 -0.0029238 -0.0022219
-0.00021116 0.0017755 0.00014766 -0.00069236
0.0023275 0.00050964 0.26003 0.12846 -0.0032909 0.0022043 -0.00027658 0.0018098
0.00058437 0.0014207 0.00016162 0.0010103
-0.0003929 0.0022824 -0.0032824 0.0022406 0.10699 -0.25141 0.0019642 -0.0010298
0.0015971 0.0019258 -0.00098539 0.0015671
-0.0030044 -0.0022383 -0.00026129 0.0018485 0.0020332 -0.00093141 0.16514 -0.137
0.0013926 0.0049385 -0.0023644 0.00021796
-0.0002436 0.0017346 0.000613 0.0013825 0.0017003 0.0019469 0.0013605 0.0049025
0.24694 0.046119 0.0056111 0.0011574
5.4376e-05 -0.00070887 9.9208e-05 0.001016 -0.0010128 0.001418 -0.0021677 0.0002902
0.0055832 0.0011709 0.27425 0.068082
1940000000 0.17871 -0.16935 0.00016696 -0.0011937 0.0016878 0.0020753 -0.0038419 0.00018739
0.001262 0.0011205 -0.000735 -0.00035046
0.00014397 -0.0011999 0.26119 0.097163 -0.0017142 0.0049847 0.0010482 0.0013691
0.001955 0.00052723 0.00091211 0.00031918
0.0016621 0.0020944 -0.0017176 0.0050245 0.06197 -0.24447 0.00041641 -0.0025665
0.0024171 0.00037632 0.0002571 0.0015641
-0.0038192 0.00024276 0.0010432 0.0013467 0.00036789 -0.002517 0.11225 -0.16696
0.00014369 0.0035992 -0.0014094 0.0015953
0.0012041 0.0011138 0.0019171 0.00049832 0.0023165 0.00035629 0.00018989 0.0036468
0.25058 0.0078859 0.0040819 -0.0024019
-0.00065287 -0.00025279 0.00085941 0.00034171 0.00027417 0.0016005 -0.001608 0.0014494
0.004084 -0.0024113 0.26322 0.032162
2000000000 0.13305 -0.18465 -0.0036381 0.00077167 0.0028312 0.0013256 -0.0023195 0.0037493
0.001198 0.00056879 -0.00030592 0.00061965
-0.0036199 0.00075865 0.24758 0.061719 -0.00089286 0.0069285 0.0018052 0.00045428
0.0013231 -0.0011746 0.00044105 0.00012259
0.0028337 0.0012636 -0.00079243 0.0069392 0.018897 -0.23049 -0.001264 -0.0016854
0.0020803 -0.0011006 0.0014988 0.0014461
-0.0022821 0.0037253 0.0017686 0.00050029 -0.001205 -0.0016076 0.058777 -0.17701
-0.0012206 0.003698 -0.00024226 0.0021731
0.0013091 0.00051424 0.0013766 -0.0011593 0.0020958 -0.0010913 -0.0011804 0.0037107
0.24637 -0.024925 0.00070942 -0.0032834
