!Keysight Technologies,M9804A,MY58100912,A.14.10.03
!Date: Thursday, April 27, 2023 10:28:33
!Correction: S11(C  6-Port  ) 
!S12(C  6-Port  ) 
!S13(C  6-Port  ) 
!S14(C  6-Port  ) 
!S15(C  6-Port  ) 
!S16(C  6-Port  ) 
!S21(C  6-Port  ) 
!S22(C  6-Port  ) 
!S23(C  6-Port  ) 
!S24(C  6-Port  ) 
!S25(C  6-Port  ) 
!S26(C  6-Port  ) 
!S31(C  6-Port  ) 
!S32(C  6-Port  ) 
!S33(C  6-Port  ) 
!S34(C  6-Port  ) 
!S35(C  6-Port  ) 
!S36(C  6-Port  ) 
!S41(C  6-Port  ) 
!S42(C  6-Port  ) 
!S43(C  6-Port  ) 
!S44(C  6-Port  ) 
!S45(C  6-Port  ) 
!S46(C  6-Port  ) 
!S51(C  6-Port  ) 
!S52(C  6-Port  ) 
!S53(C  6-Port  ) 
!S54(C  6-Port  ) 
!S55(C  6-Port  ) 
!S56(C  6-Port  ) 
!S61(C  6-Port  ) 
!S62(C  6-Port  ) 
!S63(C  6-Port  ) 
!S64(C  6-Port  ) 
!S65(C  6-Port  ) 
!S66(C  6-Port  ) 
!S6P File: Measurement: :
# Hz S  RI   R 50
500000000 -0.33122 -0.061047 -0.0099794 -0.0011765 -0.0090011 0.012824 -0.0037771 0.012168
0.013003 0.0051824 -0.0037719 0.0079956
-0.0092856 -0.00089935 -0.41299 -0.070196 0.0088171 -0.010773 0.00096948 0.012223
0.0083768 0.0028285 0.0014805 0.013703
-0.008722 0.012546 0.0088505 -0.010787 -0.26509 0.19246 0.007102 0.0035835
-0.0021438 0.0086197 0.00057741 0.012305
-0.0034405 0.012486 0.0010625 0.012275 0.0071363 0.0036538 -0.33032 0.039089
-0.01877 -0.0044589 0.016834 0.025931
0.012821 0.0055327 0.0082145 0.0030882 -0.0021144 0.0088566 -0.018834 -0.0044348
-0.2381 -0.2087 -0.027374 0.0049272
-0.0032011 0.0087041 0.0013815 0.014076 0.00066217 0.012573 0.016509 0.026195
-0.027417 0.005002 -0.26756 -0.13633
560000000 -0.31866 0.10482 -0.022087 -0.067143 0.00019572 0.013444 0.0055992 0.011643
0.011458 0.0039867 0.010688 0.0092827
-0.022052 -0.066783 -0.37256 0.093296 -0.041388 -0.03994 0.013856 0.0035804
-0.012195 -0.0038555 0.0033248 -0.001421
-3.1097e-05 0.013274 -0.041645 -0.039888 -0.18568 0.24455 -0.0010062 -0.0051728
0.018759 0.0061085 0.0072523 -0.0064812
0.005311 0.011829 0.013906 0.0036017 -0.00090015 -0.0053266 -0.30593 0.13082
0.0058836 -0.023579 0.0054853 -0.0218
0.011472 0.0039858 -0.012736 -0.0035786 0.018697 0.0061146 0.0059467 -0.023807
-0.30974 -0.027282 0.010706 -0.05166
0.0096362 0.0089108 0.003187 -0.0021053 0.0073454 -0.0064737 0.0060471 -0.021552
0.010961 -0.051866 -0.3313 0.015039
620000000 -0.27905 0.08514 -0.023075 0.008476 0.0033187 0.0095359 0.0078502 -0.0040506
0.011905 -0.00199 0.00056566 -0.0018123
-0.023096 0.0084349 -0.40202 0.040948 -0.0187 -0.00026301 -0.0021904 -0.0022831
0.012741 -0.0059359 0.0011022 -0.003581
0.0034094 0.0096064 -0.01873 -0.00021629 -0.15745 0.25417 -0.0013363 -0.0047017
-0.0032958 -0.0036269 0.0091833 -0.0031782
0.0080418 -0.0040311 -0.0021301 -0.0022634 -0.0012691 -0.0046749 -0.26451 0.14213
-0.038074 -0.020916 0.01281 0.028296
0.012362 -0.0021526 0.012761 -0.0061417 -0.0031818 -0.003713 -0.038189 -0.02073
-0.22707 -0.063292 -0.04094 0.010974
0.00082303 -0.0018875 0.00090286 -0.0037442 0.0095934 -0.0027212 0.013415 0.029
-0.040383 0.010888 -0.24848 -0.022706
680000000 -0.24188 0.17734 -0.026526 -0.015328 0.0048034 0.0055447 0.001488 -0.0073545
-0.0014826 -0.0118 0.0057934 -0.0069592
-0.026493 -0.015239 -0.39091 0.14222 -0.033332 -0.0028089 -0.0014615 -0.00046639
-0.0016926 -0.0092217 -0.00076 -0.0018764
0.0047023 0.0055286 -0.033339 -0.0026302 -0.10755 0.27626 -0.00074512 -0.0001602
-0.0015682 0.00062191 -0.0025422 -0.0095732
0.0013089 -0.0074207 -0.0015165 -0.00052254 -0.00075918 -0.00011938 -0.22034 0.19299
-0.022995 -0.0081886 -0.0091754 -0.011354
-0.0016203 -0.01185 -0.0016589 -0.0091357 -0.0016705 0.00065736 -0.023131 -0.0085428
-0.28059 0.039929 -0.0068545 -0.0073446
0.0054485 -0.0067006 -0.0010471 -0.0018348 -0.0029117 -0.0096844 -0.0089609 -0.01159
-0.0068681 -0.0071288 -0.26102 0.084807
740000000 -0.19532 0.17003 -0.040562 0.026303 0.013748 -0.0045333 0.00019629 -0.0040225
-0.0045172 -0.0030024 -0.0061339 0.0030142
-0.04047 0.026479 -0.33684 0.16158 -0.038272 0.034727 -0.00011943 -0.005719
-0.01203 0.0073752 -0.001106 -0.0054741
0.013738 -0.0045343 -0.03809 0.034885 -0.073578 0.27425 -0.001679 0.0033738
-0.0022803 -0.0058576 -0.0016378 0.001349
0.00014419 -0.0040293 -4.744e-05 -0.0057336 -0.0016434 0.0033231 -0.20468 0.20001
-0.042864 -0.0097146 0.022514 0.015681
-0.0041189 -0.0031345 -0.011898 0.0071922 -0.0021847 -0.005679 -0.042885 -0.0094552
-0.18244 0.069956 -0.043375 -0.00056769
-0.0065016 0.0032328 -0.0013519 -0.0055139 -0.0015946 0.0011454 0.022527 0.015869
-0.043252 -0.00075979 -0.25234 0.089053
800000000 -0.16534 0.21606 -0.02303 0.016241 0.0059305 -0.010485 -0.0047619 -0.0026779
-0.0043696 0.0020502 0.0040191 0.00067014
-0.02306 0.01616 -0.34469 0.23293 -0.0093858 0.034614 -0.002166 0.0019936
-0.0007663 0.0027338 0.00083645 0.0055466
0.0058402 -0.01048 -0.0092524 0.034716 -0.035004 0.30005 0.0007692 0.0010765
0.00022741 0.0033267 -0.0019352 0.000782
-0.0047225 -0.0027338 -0.0021758 0.0020357 0.00084412 0.0010984 -0.17618 0.22751
-0.028756 0.012899 0.013865 -0.010443
-0.0044717 0.0020975 -0.00082961 0.0027245 0.00020369 0.0033353 -0.028951 0.01302
-0.22708 0.095749 -0.017801 0.020112
0.0038708 0.00023215 0.00067507 0.0055584 -0.0019515 0.00086252 0.014059 -0.010804
-0.017776 0.020021 -0.24643 0.13952
860000000 -0.13058 0.23674 -0.018891 0.030572 -0.0029542 -0.010247 -0.001788 0.00061261
0.0038788 0.0053552 -0.0035118 -0.0032072
-0.018884 0.030555 -0.29731 0.27723 0.0069171 0.035309 0.00013323 0.0021965
0.0032752 0.00040821 0.0037114 -0.00017506
-0.0029591 -0.010261 0.0069886 0.035289 0.012737 0.30941 -0.00057278 -0.00035651
0.0022706 -0.001576 0.0016512 0.0043553
-0.0018969 0.0006081 0.00012526 0.0021679 -0.00061215 -0.00037171 -0.13929 0.23978
-0.0195 0.018179 -0.0061748 -0.0090011
0.0041833 0.0051648 0.0033525 0.00026174 0.0023421 -0.0015206 -0.019398 0.018347
-0.1708 0.15022 -0.025463 0.016733
-0.0031423 -0.0030712 0.0037901 -0.00045249 0.0016973 0.0042711 -0.0063849 -0.0086709
-0.025382 0.016721 -0.19454 0.18534
920000000 -0.10786 0.26068 0.0040564 0.039222 -0.0094376 -0.0050641 -0.0020038 0.0019005
0.0010952 0.0016483 0.0028759 -0.00116
0.004073 0.039258 -0.26976 0.29928 0.028198 0.023678 0.0015767 0.001256
0.0074657 3.6306e-05 0.0046308 -0.0027617
-0.009487 -0.0050276 0.028325 0.023603 0.058638 0.31132 0.0018636 2.7885e-05
0.00082452 -3.6606e-05 0.00108 -0.0013765
-0.0020223 0.001832 0.0015755 0.0012764 0.0018454 1.6797e-05 -0.1159 0.25713
-0.012042 0.031081 0.0039321 -0.006648
0.0011541 0.0019748 0.007335 -0.00016871 0.00071417 6.0727e-06 -0.012221 0.031093
-0.16099 0.15663 -0.0021252 0.027687
0.0026493 -0.0011878 0.004664 -0.0027617 0.0010829 -0.0013839 0.0040406 -0.0069022
-0.0021926 0.027726 -0.20385 0.19937
980000000 -0.061768 0.28216 0.016444 0.031131 -0.0096602 0.0044942 0.0019613 0.003875
0.0038428 -0.0014508 -0.0034739 -0.0022348
0.016381 0.031157 -0.21721 0.33547 0.033748 0.0060064 0.0019884 -0.00012597
0.0015899 -0.0060088 -0.00057259 -0.0026595
-0.009655 0.0045157 0.033793 0.0059015 0.10485 0.30604 0.00074882 -0.0010657
0.00056041 -0.0017472 0.0015279 -0.00024733
0.0019917 0.0038974 0.0019913 -0.00011168 0.00073253 -0.0010665 -0.077496 0.26837
0.0070316 0.030315 -0.0097155 -0.0075395
0.0038695 -0.0015949 0.0016472 -0.0060712 0.00057382 -0.0017922 0.0070857 0.030348
-0.12757 0.18829 0.0051176 0.019957
-0.0033788 -0.0023045 -0.00054339 -0.0027025 0.0015265 -0.00017338 -0.0097134 -0.0075057
0.0051383 0.019857 -0.16144 0.24534
1040000000 -0.020536 0.29125 0.033349 0.020199 -0.0014818 0.0074702 0.0027931 0.00074983
0.00038537 -0.0035969 -6.1708e-05 -0.0016192
0.033286 0.020207 -0.18207 0.34958 0.030636 -0.014378 0.0015414 -0.0017894
-0.0022162 -0.002451 -0.0011738 -0.0031166
-0.0014555 0.0074727 0.030643 -0.014497 0.15105 0.29345 -0.0004519 -0.0016661
-0.0015541 -0.00091735 -0.00048664 -0.0011628
0.0027766 0.00065737 0.0015657 -0.0017873 -0.00045212 -0.0016736 -0.050226 0.27897
0.019251 0.019701 -0.0027206 0.0015042
0.00047261 -0.0034292 -0.0022436 -0.0023941 -0.001572 -0.00091637 0.019192 0.01959
-0.094972 0.19604 0.01401 0.018864
-0.00029854 -0.0016266 -0.0011437 -0.0031578 -0.0004996 -0.0011339 -0.0026557 0.0015148
0.014093 0.018953 -0.14048 0.26671
1100000000 0.024739 0.30143 0.037319 -0.0027289 0.0033117 0.0043849 0.0025437 -0.0011159
-0.0021901 -0.0028826 -0.0040769 -0.00015916
0.037302 -0.0027218 -0.13867 0.36896 0.016399 -0.028165 2.3616e-05 -0.0018293
-0.0035295 -0.00074049 -0.0034456 -0.00056426
0.003329 0.004352 0.016302 -0.028275 0.19753 0.2744 -0.0019715 0.00017529
-0.0018319 0.00053761 -0.0012197 -0.0006409
0.002547 -0.0010826 3.449e-06 -0.0018071 -0.0019757 0.00019669 -0.0097719 0.28484
0.025228 0.0062445 -0.0023481 0.00036137
-0.0022251 -0.0029094 -0.0035435 -0.00075786 -0.0018406 0.00049727 0.02523 0.0061915
-0.075398 0.21035 0.020392 0.0094635
-0.0038828 -0.00021871 -0.0033559 -0.00060811 -0.0011769 -0.00069919 -0.0023182 0.00045722
0.020294 0.0095301 -0.09365 0.29665
1160000000 0.075791 0.29801 0.025698 -0.020223 0.0034179 -0.00052362 -0.00026077 -0.0025449
-0.0041882 -0.00089631 -0.0011237 0.0040187
0.025707 -0.020202 -0.094604 0.37429 -0.0031925 -0.029794 -0.0015986 -0.0016806
-0.0024585 0.0024519 -0.0016392 0.0018451
0.0033824 -0.0005421 -0.0032974 -0.029766 0.24119 0.24436 -0.00076111 0.0017466
-0.00052148 0.0018428 -0.0010892 0.00035152
-0.00026488 -0.0026126 -0.00155 -0.0016768 -0.00074866 0.0017438 0.030048 0.28231
0.021861 -0.010268 -0.0032621 0.0052194
-0.0041348 -0.00087372 -0.0025231 0.0024796 -0.00055054 0.0018507 0.021983 -0.010197
-0.040697 0.21911 0.019071 0.00012307
-0.0011823 0.0041945 -0.0017085 0.001866 -0.0011128 0.00030939 -0.0032825 0.0053614
0.018976 0.0001174 -0.046892 0.30041
1220000000 0.11975 0.28883 0.012274 -0.030647 -0.001147 -0.0014161 -9.248e-05 -0.00098018
-0.002817 0.0022783 0.0010405 0.0021474
0.012282 -0.030585 -0.050029 0.38809 -0.017057 -0.022046 -0.0026408 0.00056477
7.9039e-05 0.0030425 -0.00082004 0.0019825
-0.0011336 -0.0014203 -0.017172 -0.021989 0.28074 0.20592 0.00078128 0.0017331
0.00043947 0.0012351 0.00017864 0.00071455
-8.667e-05 -0.00096561 -0.0026414 0.00059225 0.00076626 0.0017201 0.070269 0.27408
0.011336 -0.017241 0.0023537 0.0015664
-0.0028138 0.002285 9.0061e-05 0.003005 0.00044498 0.001236 0.011207 -0.017189
-0.01733 0.22946 0.014696 -0.013132
0.0010665 0.0020564 -0.00080206 0.0019659 0.00016567 0.00071934 0.0023885 0.0014174
0.014809 -0.013123 -0.016708 0.31709
1280000000 0.17044 0.26902 -0.0069599 -0.029774 -0.0020025 0.0019392 -0.00095848 -0.0019904
-0.00074735 0.0032915 0.0027258 0.0013375
-0.0069544 -0.02975 -0.0030639 0.38004 -0.024368 -0.0087242 -0.00088765 0.0014857
0.0016918 0.0016011 0.00069481 0.0020743
-0.0020078 0.0019575 -0.024441 -0.0086205 0.31162 0.16246 0.0015001 -0.00014755
0.0011057 0.00028753 0.000251 0.00032898
-0.00095522 -0.0019834 -0.00087297 0.0014627 0.0015048 -0.00015188 0.10726 0.258
0.0012275 -0.019601 0.00019455 0.00024314
-0.00071993 0.0033086 0.0016733 0.0016173 0.0010974 0.00028915 0.0012482 -0.019623
0.019922 0.2337 0.0036364 -0.015588
0.0026419 0.0013982 0.00068971 0.0020996 0.00023857 0.00033897 0.00017063 0.00025665
0.0036483 -0.015516 0.031735 0.32022
1340000000 0.20815 0.23662 -0.017409 -0.020377 0.00038866 0.0043497 -0.0018206 -0.00078082
0.0014303 0.0028232 0.0017695 -0.0013517
-0.01737 -0.020365 0.036748 0.37224 -0.021813 0.0043643 -8.6944e-05 0.0019564
0.0018714 0.00079936 0.0012216 0.00084665
0.00041265 0.0043338 -0.021807 0.0044852 0.3338 0.1152 0.00097778 -0.00092516
0.00056929 -0.00041126 0.00019218 0.00032017
-0.0018683 -0.00077315 -6.8717e-05 0.0019747 0.00098685 -0.00093006 0.14059 0.23735
-0.0085629 -0.016998 0.00092431 0.00024947
0.0014376 0.002748 0.0018872 0.00076884 0.00057087 -0.00038057 -0.0085424 -0.017029
0.050154 0.22935 -0.003482 -0.014456
0.0018037 -0.0013466 0.0012251 0.00084156 0.00012297 0.00033474 0.00089558 0.00029756
-0.0034572 -0.014455 0.06962 0.3157
1400000000 0.24252 0.19983 -0.024006 -0.0086011 0.0049548 0.0032603 -0.0022031 0.00063459
0.0026591 0.0010125 0.00036441 -0.0017044
-0.023978 -0.0086036 0.074817 0.35959 -0.01492 0.012715 0.0012844 0.0012174
0.0011998 -0.00071511 0.0011387 0.00016652
0.0049753 0.0032325 -0.014872 0.012802 0.34723 0.062096 4.5603e-05 -0.0015344
0.00015341 -0.00041007 0.00042401 0.00036338
-0.0021951 0.00062404 0.0012829 0.0011941 4.6714e-05 -0.0015058 0.17005 0.20867
-0.0149 -0.0098985 -0.00081678 -0.00036228
0.0026754 0.0010287 0.0011846 -0.00071693 0.00016102 -0.00040957 -0.014942 -0.009849
0.084067 0.22556 -0.010165 -0.0093501
0.00030507 -0.0016739 0.0011757 0.00016248 0.00046681 0.00033427 -0.00078425 -0.0003967
-0.010144 -0.0093709 0.11489 0.30579
1460000000 0.2659 0.15646 -0.021289 0.0042637 0.005475 -0.0016838 -0.0014633 0.0016786
0.0021932 -0.00053213 -0.00028383 -0.00097164
-0.021288 0.0042555 0.10934 0.33752 -0.005698 0.015598 0.0015838 0.00021431
0.00096188 -0.0012951 0.001262 -0.0006111
0.0054683 -0.0017214 -0.0056154 0.015664 0.35389 0.0082674 -0.0011805 -0.0011255
0.00022011 -0.00017144 0.00085482 -0.00027569
-0.0014782 0.0016876 0.0016019 0.00022191 -0.0011431 -0.0011496 0.19684 0.17964
-0.015848 -0.0028311 -0.0010441 0.0018417
0.0021577 -0.00054032 0.00095151 -0.0012845 0.0002418 -0.00019869 -0.015836 -0.0028493
0.11402 0.21175 -0.012169 -0.0032731
-0.00022355 -0.0009798 0.001264 -0.00064382 0.00084285 -0.00029992 -0.0011105 0.0019071
-0.012154 -0.0032756 0.14821 0.28517
1520000000 0.27905 0.11542 -0.015704 0.010259 0.0032648 -0.0041274 0.00013292 0.0026141
0.0021532 -0.0019778 -0.0011462 -3.7893e-05
-0.01571 0.010258 0.14278 0.3233 0.0020992 0.012921 0.0016587 -0.00066212
0.00010571 -0.0010447 0.00028575 -0.001108
0.0032542 -0.0041375 0.0021492 0.012934 0.34728 -0.04739 -0.00086616 -0.00035113
0.00070273 -0.00095284 0.00015187 -0.00031106
0.00016001 0.0026319 0.0016509 -0.00066472 -0.00089352 -0.00034597 0.22023 0.14155
-0.014992 0.0030279 0.0014791 0.0021117
0.0021316 -0.0019529 0.00010475 -0.0010214 0.0006692 -0.00095319 -0.014975 0.0030866
0.14222 0.19865 -0.012174 0.001554
-0.0011623 -1.7425e-05 0.00027787 -0.0011016 0.00017799 -0.00027127 0.0014794 0.0021118
-0.012159 0.0015657 0.18152 0.2658
1580000000 0.28951 0.069934 -0.0087424 0.013949 -0.0010678 -0.0048259 0.0014608 0.0018458
-0.00025825 -0.0021981 -0.00018843 0.00041278
-0.0087404 0.013941 0.17013 0.29872 0.0056003 0.0076846 0.00061417 -0.0015252
-0.00046242 -0.0011193 -0.00023968 -0.0008211
-0.0010778 -0.0048413 0.0056406 0.0076449 0.32787 -0.10482 -0.0015545 0.00043087
-0.00041969 -0.0013046 0.00038139 -0.00061094
0.0014348 0.0018338 0.00060078 -0.0015267 -0.0015574 0.00041538 0.23432 0.10241
-0.011234 0.0080189 0.0020792 0.00078578
-0.00028104 -0.0022138 -0.00048217 -0.0011099 -0.00041585 -0.0012588 -0.011219 0.0080478
0.16662 0.18123 -0.0095184 0.0075612
-0.00015139 0.00038579 -0.00023752 -0.0008211 0.000364 -0.00067421 0.0020713 0.00077729
-0.0095786 0.0075387 0.21426 0.23949
1640000000 0.29253 0.029127 -0.0015688 0.012797 -0.0029946 -0.0023797 0.0027102 0.0010912
-0.00081824 -0.0015787 -0.00039579 0.00059271
-0.0015805 0.012799 0.19952 0.27445 0.0057907 0.0026869 -0.00052784 -0.0018154
-0.0010029 -0.00050059 -0.00061206 -0.00060317
-0.0030102 -0.0023763 0.0058021 0.0026631 0.29963 -0.15377 -0.00079849 0.001334
-0.0010897 -0.0010179 -0.00034095 -0.00048482
0.0027148 0.0010752 -0.00055162 -0.0018199 -0.00080497 0.001327 0.24708 0.053679
-0.0068216 0.0089643 0.0024011 -0.00062352
-0.00084937 -0.001565 -0.0010086 -0.00049984 -0.0011131 -0.0010152 -0.0068362 0.0089495
0.18979 0.15803 -0.0047457 0.0097178
-0.00039699 0.00061834 -0.00059456 -0.00060081 -0.0003436 -0.00045969 0.0024249 -0.00058121
-0.0047275 0.0096715 0.24016 0.20918
1700000000 0.28665 -0.015907 0.002177 0.0098931 -0.0035272 0.00032449 0.0031707 -0.0011684
-0.0020232 -0.00057285 0.00050764 0.00033851
0.0021738 0.0098805 0.21784 0.24358 0.0033068 -0.0001352 -0.0014305 -0.00070373
-0.0007985 -5.5615e-05 -0.0008833 -0.00044093
-0.0034859 0.00035426 0.0033144 -0.00015599 0.25693 -0.19333 0.00021502 0.0016661
-0.0020408 -8.4897e-05 -0.0004536 -0.00085262
0.0031654 -0.0011869 -0.0014316 -0.00070941 0.00020145 0.0016653 0.24434 0.0038039
-0.0039354 0.0091937 0.0016258 -0.0020805
-0.0020164 -0.00057916 -0.00078576 -5.7879e-05 -0.0020227 -5.522e-05 -0.0038751 0.0092236
0.20775 0.13848 0.00022644 0.0099359
0.00058752 0.00033865 -0.00090001 -0.00040516 -0.00046331 -0.00079322 0.0015606 -0.0020949
0.00021072 0.0099393 0.25748 0.17499
1760000000 0.27568 -0.064482 0.0045412 0.0064339 -0.0021234 0.001171 0.0013833 -0.0035021
-0.0013067 0.00062194 0.00035616 -0.00049881
0.0045298 0.0064254 0.24406 0.20456 0.00080636 -0.0015857 -0.0012802 4.4132e-05
-0.0011435 0.00092761 -0.00055735 0.00049186
-0.0021346 0.0011774 0.00081982 -0.0015885 0.20945 -0.22619 0.0010681 0.0012626
-0.0012376 0.0014404 -0.0013313 -0.00064227
0.0013652 -0.0034985 -0.0012756 5.2163e-05 0.0010497 0.0012137 0.2356 -0.047728
-0.00088805 0.0082073 -0.00013196 -0.0023211
-0.0013261 0.00060711 -0.0011286 0.00090368 -0.0012821 0.0013862 -0.00090317 0.008186
0.22293 0.1047 0.0041244 0.0073439
0.00034786 -0.00052037 -0.00057233 0.00047824 -0.001382 -0.00062885 -0.00011447 -0.0022736
0.0041258 0.0073785 0.27115 0.13776
1820000000 0.25246 -0.10202 0.0046237 0.0028063 3.7539e-05 0.0024717 -0.0008802 -0.0031743
-0.0010386 0.0009388 3.5771e-05 -0.00021606
0.0046178 0.0027919 0.25471 0.17516 -0.001466 -3.5953e-05 -0.0014451 0.00090662
-6.2328e-05 0.0012497 -0.0005313 0.00050404
6.7111e-05 0.0024713 -0.0014902 -3.6261e-05 0.15877 -0.24241 0.0017188 0.00037274
-0.00018871 0.0023471 -0.0015239 0.00033083
-0.00091589 -0.0031636 -0.0014453 0.00092771 0.001765 0.00038633 0.20635 -0.095333
0.00041901 0.0067089 -0.0016271 -0.0016253
-0.0010532 0.00090311 -4.8687e-05 0.0012456 -0.00012453 0.0023412 0.00043716 0.0067259
0.24104 0.076645 0.0051142 0.003617
2.6471e-05 -0.00024738 -0.00053879 0.000522 -0.0015013 0.00028943 -0.0016525 -0.0017216
0.0051452 0.0035848 0.27369 0.10149
1880000000 0.21803 -0.14316 0.0024383 0.00051284 -0.00038588 0.0021539 -0.0029284 -0.0023132
-0.00020493 0.001766 0.00017066 -0.00055754
0.0024339 0.00051198 0.25974 0.12917 -0.0032814 0.002331 -0.00025845 0.001852
0.00060347 0.0013453 0.00011993 0.00095022
-0.00036441 0.0021855 -0.003276 0.0023264 0.10679 -0.25137 0.0019272 -0.00097698
0.001559 0.0019414 -0.0011432 0.0014257
-0.0029142 -0.0022919 -0.00024007 0.0018443 0.0019683 -0.00097601 0.16582 -0.13591
0.0010788 0.0047766 -0.0023355 4.9041e-05
-0.00017232 0.0018087 0.00060953 0.0013424 0.0015549 0.0019393 0.0010564 0.0047165
0.24559 0.045935 0.0054019 0.0010787
0.00013168 -0.00063147 0.00014437 0.00092724 -0.0010911 0.0014844 -0.0023085 0.0001434
0.0053709 0.0010907 0.27433 0.067629
1940000000 0.17894 -0.16952 0.00023548 -0.0011579 0.0017108 0.0019986 -0.0039082 0.00034077
0.0011612 0.0010406 -0.00079138 -0.00046939
0.00023717 -0.0011506 0.2613 0.097841 -0.0016208 0.0050069 0.00098907 0.0014182
0.0018749 0.00047636 0.00082491 0.00018194
0.0017119 0.0019707 -0.0015985 0.0050035 0.061897 -0.24466 0.00041061 -0.0024387
0.0023508 0.00038584 0.00016834 0.001596
-0.003896 0.00035603 0.0010117 0.0014295 0.00043174 -0.0024771 0.11327 -0.16643
2.9811e-05 0.0036582 -0.0015952 0.001621
0.0011091 0.00097754 0.0018485 0.00046597 0.0023645 0.00036476 8.6228e-06 0.0037658
0.24945 0.0082593 0.0038143 -0.0022002
-0.0007946 -0.00048901 0.00086809 0.00019406 0.00022957 0.0015845 -0.0016653 0.0015167
0.0038093 -0.0021956 0.26314 0.031452
2000000000 0.13285 -0.18499 -0.0034197 0.00073916 0.0027709 0.0012336 -0.0022139 0.0036695
0.0012825 0.00036108 -0.00051857 0.00044655
-0.0034238 0.00072134 0.24808 0.062457 -0.00077326 0.0069517 0.0018391 0.00045246
0.0012841 -0.0011878 0.00036906 1.5199e-05
0.0028218 0.0012734 -0.00072094 0.0069695 0.018517 -0.23043 -0.0013961 -0.0015698
0.0020845 -0.0010491 0.0014978 0.0013928
-0.0021854 0.0036938 0.0018328 0.00043828 -0.0013437 -0.0014956 0.059736 -0.1772
-0.0014452 0.0038678 -0.00026724 0.0022018
0.0012887 0.00039044 0.0012996 -0.0012338 0.0020416 -0.0010332 -0.0013855 0.0037039
0.24537 -0.024391 0.0006932 -0.0032289
