!Keysight Technologies,M9804A,MY58100912,A.14.10.03
!Date: Thursday, April 27, 2023 10:28:33
!Correction: S11(C  6-Port  ) 
!S12(C  6-Port  ) 
!S13(C  6-Port  ) 
!S14(C  6-Port  ) 
!S15(C  6-Port  ) 
!S16(C  6-Port  ) 
!S21(C  6-Port  ) 
!S22(C  6-Port  ) 
!S23(C  6-Port  ) 
!S24(C  6-Port  ) 
!S25(C  6-Port  ) 
!S26(C  6-Port  ) 
!S31(C  6-Port  ) 
!S32(C  6-Port  ) 
!S33(C  6-Port  ) 
!S34(C  6-Port  ) 
!S35(C  6-Port  ) 
!S36(C  6-Port  ) 
!S41(C  6-Port  ) 
!S42(C  6-Port  ) 
!S43(C  6-Port  ) 
!S44(C  6-Port  ) 
!S45(C  6-Port  ) 
!S46(C  6-Port  ) 
!S51(C  6-Port  ) 
!S52(C  6-Port  ) 
!S53(C  6-Port  ) 
!S54(C  6-Port  ) 
!S55(C  6-Port  ) 
!S56(C  6-Port  ) 
!S61(C  6-Port  ) 
!S62(C  6-Port  ) 
!S63(C  6-Port  ) 
!S64(C  6-Port  ) 
!S65(C  6-Port  ) 
!S66(C  6-Port  ) 
!S6P File: Measurement: :
# Hz S  RI   R 50
500000000 -0.33197 -0.060962 -0.0097866 -0.0012246 -0.0085682 0.012718 -0.0049098 0.012347
0.013523 0.0054808 -0.0054257 0.0075278
-0.0098438 -0.00084671 -0.41305 -0.070908 0.0081661 -0.011028 0.0015683 0.011938
0.0088092 0.0035584 0.0017559 0.013789
-0.0085281 0.013016 0.0083237 -0.010997 -0.26653 0.19278 0.0070984 0.0033082
-0.0023759 0.0088708 0.00055701 0.011612
-0.0048054 0.012581 0.0013347 0.011958 0.0069014 0.0034008 -0.33047 0.038946
-0.018683 -0.0042567 0.018385 0.026258
0.01355 0.005426 0.0089793 0.0034414 -0.0021423 0.0086118 -0.018848 -0.0045475
-0.23838 -0.20905 -0.027312 0.0051542
-0.0049305 0.0078413 0.001747 0.013622 0.00055572 0.011957 0.017693 0.025738
-0.02669 0.0054912 -0.26457 -0.13532
560000000 -0.31888 0.10564 -0.022111 -0.066326 0.00027758 0.013669 0.0046321 0.011731
0.010382 0.0050042 0.010323 0.0084368
-0.022453 -0.066057 -0.37362 0.09336 -0.041313 -0.038993 0.014085 0.0037133
-0.012498 -0.0044991 0.0035197 -0.00024521
-4.6022e-05 0.01351 -0.041452 -0.038906 -0.18692 0.24575 -8.4408e-05 -0.0048455
0.017913 0.0061672 0.0087522 -0.0055935
0.0044151 0.011713 0.013897 0.0036345 -7.0103e-05 -0.0054801 -0.3068 0.13121
0.0064409 -0.023078 0.0053967 -0.021812
0.010363 0.0048724 -0.013226 -0.0047426 0.017602 0.0061373 0.0065354 -0.023538
-0.31002 -0.024384 0.0096711 -0.050981
0.0099236 0.008373 0.0040359 -0.00059792 0.0089737 -0.0059999 0.0055186 -0.021656
0.0090032 -0.050468 -0.33064 0.015224
620000000 -0.27817 0.085959 -0.022895 0.0089015 0.0035697 0.0097722 0.0072325 -0.0047295
0.013551 -0.0014525 -0.00061004 -0.0025576
-0.022946 0.0090262 -0.40259 0.041275 -0.018445 0.00026009 -0.001679 -0.0020427
0.012624 -0.0060307 0.0011586 -0.0031533
0.0036784 0.009825 -0.018404 0.00034016 -0.15725 0.25505 -0.00048288 -0.0049652
-0.0040477 -0.003129 0.0098614 -0.0020415
0.0071642 -0.004378 -0.00182 -0.0018057 -0.00032252 -0.0047938 -0.26475 0.1421
-0.039158 -0.020064 0.012976 0.028612
0.013607 -0.0014294 0.012896 -0.0061771 -0.0042635 -0.0032204 -0.039475 -0.0205
-0.22517 -0.061648 -0.041571 0.010716
-0.00091166 -0.0020111 0.00027 -0.0031382 0.01019 -0.0019796 0.013592 0.028672
-0.042429 0.010742 -0.24817 -0.019739
680000000 -0.24272 0.1782 -0.026434 -0.014754 0.0047205 0.0055288 0.00092622 -0.0070846
-0.0021913 -0.011589 0.0065172 -0.0054893
-0.026354 -0.014982 -0.39071 0.14282 -0.03265 -0.0025635 -0.0016007 -0.00057588
-0.0015665 -0.0091825 -0.00064359 -0.0010531
0.004853 0.0053483 -0.032695 -0.0024951 -0.10667 0.27714 -0.00090174 -0.00019493
-0.0014389 0.00047826 -0.0023626 -0.0092371
0.0010139 -0.0073506 -0.0018388 -0.00059525 -0.00097625 -0.00016036 -0.22093 0.19406
-0.023125 -0.0082536 -0.0093166 -0.011109
-0.0023968 -0.011581 -0.001275 -0.0092662 -0.0013148 0.00057663 -0.023424 -0.008088
-0.28155 0.042646 -0.0076353 -0.0072679
0.0064901 -0.0061421 -0.00051498 -0.0015206 -0.002597 -0.0090817 -0.0097581 -0.011279
-0.006861 -0.0070654 -0.25942 0.085922
740000000 -0.19541 0.17127 -0.04066 0.026723 0.013929 -0.0045323 -0.0001894 -0.0042834
-0.0046008 -0.0029978 -0.0063715 0.0024978
-0.040486 0.026584 -0.33675 0.16209 -0.037682 0.034517 -0.00020157 -0.0062986
-0.011428 0.0078029 -0.0025563 -0.0060063
0.013941 -0.0043817 -0.03761 0.034766 -0.072394 0.27449 -0.001608 0.0032561
-0.0032272 -0.0055484 -0.0012001 0.00033251
7.4307e-05 -0.0041777 -0.00042848 -0.0063843 -0.0015015 0.003068 -0.20503 0.20037
-0.041924 -0.0084479 0.021618 0.015313
-0.0045023 -0.0028358 -0.011459 0.0077525 -0.0028988 -0.0056133 -0.041848 -0.0090948
-0.18326 0.068333 -0.042184 0.00034867
-0.0061907 0.0029899 -0.0020922 -0.0061115 -0.0010141 0.00059514 0.022117 0.015299
-0.043698 0.0017143 -0.25332 0.089638
800000000 -0.16454 0.21667 -0.022535 0.01611 0.0060395 -0.010412 -0.0045348 -0.0023564
-0.0047646 0.0017867 0.0042833 0.0012166
-0.022516 0.016012 -0.34391 0.23317 -0.0090237 0.034318 -0.0023017 0.0020435
-0.00092083 0.0023609 0.00058896 0.0055987
0.0060604 -0.010497 -0.0089274 0.034374 -0.034024 0.29968 0.00082569 0.0013762
4.3934e-05 0.0033983 -0.0016584 0.0011383
-0.0045063 -0.002458 -0.0023164 0.0021591 0.00078728 0.0014179 -0.17576 0.22876
-0.028541 0.012878 0.014409 -0.010215
-0.0052434 0.0017597 -0.0010684 0.0023393 0.00010559 0.0035002 -0.028159 0.01306
-0.22651 0.096636 -0.01816 0.020737
0.0040901 0.000857 0.00025367 0.0053535 -0.0019689 0.0009243 0.013841 -0.010329
-0.018082 0.020132 -0.24534 0.14208
860000000 -0.13035 0.23709 -0.018449 0.030533 -0.0028857 -0.010191 -0.001926 0.00040214
0.0038468 0.0054663 -0.004408 -0.0028671
-0.018417 0.030567 -0.29628 0.27711 0.0069995 0.034932 9.7326e-05 0.0019184
0.0034231 0.00081246 0.0033192 0.00028611
-0.0028734 -0.010128 0.0071155 0.034946 0.013313 0.30874 -0.00055457 -0.0003475
0.0022759 -0.0012275 0.0015304 0.0044217
-0.0018532 0.00056254 0.00016675 0.0019866 -0.00052135 -0.00036913 -0.13854 0.24009
-0.018341 0.017928 -0.0066859 -0.0096453
0.0040646 0.0054734 0.0032919 0.00084465 0.0022928 -0.0012593 -0.018587 0.017966
-0.16974 0.15204 -0.024441 0.016272
-0.0043805 -0.0026439 0.003958 0.00029364 0.0016657 0.0044784 -0.0065675 -0.0094921
-0.024424 0.016432 -0.19516 0.18617
920000000 -0.10733 0.26034 0.0043434 0.038924 -0.0093268 -0.0051056 -0.0022192 0.0015929
0.00097329 0.0016103 0.0026572 -0.0008049
0.0044203 0.038808 -0.26938 0.29902 0.028025 0.023321 0.0014503 0.0013884
0.0074392 -6.7215e-05 0.0042505 -0.0027147
-0.009336 -0.0050808 0.028105 0.02327 0.058787 0.3106 0.0018291 6.0932e-05
0.000867 -5.5051e-05 0.0010714 -0.0014396
-0.0021173 0.0016009 0.001391 0.0013591 0.0018381 6.9178e-05 -0.11518 0.2571
-0.01167 0.03036 0.0041811 -0.0067483
0.0011185 0.0016187 0.0073323 -0.00016974 0.00090541 -4.3781e-05 -0.011679 0.030277
-0.15962 0.15673 -0.0017422 0.027067
0.002678 -0.00082466 0.0041421 -0.0025501 0.00091095 -0.001382 0.0039007 -0.0067934
-0.0016412 0.027238 -0.20279 0.19955
980000000 -0.061384 0.28156 0.016307 0.030585 -0.0096446 0.0043329 0.0019864 0.003895
0.0037839 -0.0012523 -0.0030137 -0.0023083
0.01625 0.030617 -0.21694 0.33477 0.033364 0.0059331 0.0020176 -0.0002254
0.0017621 -0.0060074 -0.00032043 -0.0027099
-0.009634 0.0043847 0.033397 0.0058156 0.10469 0.30527 0.00087708 -0.0010925
0.00059829 -0.0017366 0.0014542 -0.00019137
0.0018954 0.0039457 0.002151 -0.00025423 0.00086029 -0.0010538 -0.076477 0.26805
0.00669 0.030003 -0.0094813 -0.0072679
0.0037181 -0.0012157 0.0016386 -0.0060702 0.00048321 -0.0017068 0.0067671 0.030168
-0.12746 0.18854 0.0056463 0.020003
-0.0031856 -0.0022032 -0.00027391 -0.0027204 0.0015212 -0.00023861 -0.0093015 -0.0072279
0.0053794 0.019751 -0.16059 0.24612
1040000000 -0.020619 0.29115 0.033 0.019951 -0.0015948 0.0072593 0.0025738 0.00094111
0.00035088 -0.0033578 -1.679e-05 -0.0015813
0.032932 0.019919 -0.18197 0.34892 0.030342 -0.014207 0.0016477 -0.0018367
-0.0021563 -0.0024799 -0.0011604 -0.0030919
-0.0015861 0.0072915 0.030311 -0.014338 0.15062 0.29291 -0.00043242 -0.0016248
-0.001539 -0.00088624 -0.00056224 -0.0010622
0.0025684 0.00085857 0.0016354 -0.0017735 -0.00041491 -0.0016087 -0.050253 0.27792
0.018919 0.018898 -0.0029234 0.0011136
0.00029537 -0.0032846 -0.0020959 -0.0024916 -0.001562 -0.00086641 0.018868 0.018747
-0.093626 0.19531 0.01365 0.018298
-8.126e-05 -0.0016509 -0.0012519 -0.0031312 -0.0005607 -0.0010062 -0.0029944 0.0009508
0.014177 0.018673 -0.13998 0.26687
1100000000 0.024399 0.30113 0.036892 -0.0026189 0.0030063 0.0043067 0.0025672 -0.0011208
-0.0022067 -0.0029852 -0.0040767 -0.00012269
0.036829 -0.002603 -0.13863 0.36813 0.016205 -0.027908 1.4626e-05 -0.001803
-0.0035667 -0.00089473 -0.0035626 -0.00050641
0.0030245 0.0043177 0.016117 -0.02801 0.19704 0.27393 -0.0019105 0.00015917
-0.0018887 0.00057644 -0.001134 -0.00038334
0.0025618 -0.0010347 -1.2538e-05 -0.0018309 -0.001925 0.00016008 -0.0097949 0.2837
0.024489 0.0061698 -0.0026577 0.00025138
-0.0021528 -0.0028974 -0.003568 -0.0008264 -0.0019192 0.00055474 0.02445 0.006157
-0.074609 0.20986 0.019989 0.0089541
-0.0040387 -0.00010039 -0.0035336 -0.00047798 -0.0011206 -0.00039828 -0.0026229 0.00032368
0.019759 0.0091423 -0.093343 0.29712
1160000000 0.075253 0.29771 0.025248 -0.020022 0.003169 -0.00040652 -2.3936e-05 -0.002438
-0.004119 -0.0009128 -0.0012173 0.004077
0.025252 -0.020056 -0.095142 0.37331 -0.0029965 -0.029514 -0.0016222 -0.0017485
-0.0026882 0.002523 -0.0015716 0.0017322
0.0031694 -0.0004319 -0.0031272 -0.029553 0.24035 0.24407 -0.00080686 0.0017884
-0.00050971 0.0019493 -0.001042 0.00041457
-6.5396e-05 -0.002455 -0.0016426 -0.0017509 -0.00082114 0.0017703 0.02925 0.28151
0.021313 -0.009864 -0.003348 0.0052352
-0.0041238 -0.00092353 -0.0026687 0.0025836 -0.00050852 0.0019672 0.021297 -0.0099165
-0.039621 0.21833 0.018819 4.8263e-05
-0.0011449 0.0041633 -0.0015559 0.0017928 -0.0010927 0.00035365 -0.0033435 0.0052674
0.018843 -0.00018004 -0.045908 0.30018
1220000000 0.11918 0.28887 0.012019 -0.030248 -0.0012234 -0.0011351 8.2811e-05 -0.00096672
-0.0028296 0.0022749 0.0010881 0.0021309
0.012035 -0.030212 -0.050901 0.38741 -0.01681 -0.0219 -0.0026156 0.00045216
4.0485e-05 0.0030997 -0.00080517 0.0020304
-0.0012238 -0.0011375 -0.016926 -0.02186 0.27986 0.20604 0.00070583 0.0017352
0.0005138 0.0012223 0.0002569 0.00061178
7.8802e-05 -0.0010045 -0.0026436 0.00050159 0.00073983 0.0017485 0.068908 0.2738
0.011003 -0.016621 0.0020798 0.0015783
-0.0028092 0.0022504 7.9728e-05 0.003107 0.00054757 0.0011864 0.011028 -0.016667
-0.017039 0.22848 0.014502 -0.013249
0.0010595 0.0020669 -0.00085891 0.0020189 0.00024583 0.00067687 0.0020148 0.0014786
0.014675 -0.013206 -0.015982 0.31668
1280000000 0.16974 0.26905 -0.0069344 -0.02937 -0.0019039 0.0021696 -0.00085681 -0.0021881
-0.00087295 0.003234 0.0027073 0.0014999
-0.0069077 -0.029343 -0.0043238 0.37954 -0.024129 -0.0088363 -0.00097981 0.0014436
0.0016757 0.0017104 0.00072922 0.002105
-0.0018929 0.0021773 -0.024219 -0.0087211 0.31089 0.16285 0.0016096 3.004e-05
0.001163 0.00021483 0.00023607 0.00023062
-0.00087333 -0.0021495 -0.00095917 0.0014564 0.001596 1.9648e-05 0.1062 0.25819
0.0013565 -0.019032 -4.1906e-05 0.00028365
-0.00085577 0.0033091 0.0017172 0.0017285 0.0011782 0.00021052 0.0013695 -0.019085
0.019735 0.23241 0.0035893 -0.015658
0.0027134 0.0014652 0.00071368 0.0020637 0.0003126 0.00019172 -3.0874e-05 0.00039701
0.003485 -0.015922 0.031731 0.31929
1340000000 0.20739 0.23708 -0.017197 -0.019981 0.00059567 0.0044523 -0.0019619 -0.00087964
0.0014625 0.0027703 0.0018933 -0.0012697
-0.017148 -0.019971 0.035356 0.37244 -0.021859 0.0042396 -0.00011166 0.0020336
0.0020106 0.00075689 0.0011629 0.00080791
0.00061916 0.0044646 -0.021872 0.004337 0.33328 0.116 0.0010876 -0.00093719
0.00070995 -0.0004587 3.9482e-05 0.00021875
-0.0019442 -0.00090207 -0.00013174 0.0020265 0.0010776 -0.00094416 0.13967 0.23817
-0.008176 -0.016586 0.0010561 0.00041602
0.0014354 0.0027523 0.0019772 0.00072616 0.00070302 -0.00045917 -0.0082156 -0.016559
0.049518 0.22857 -0.0038909 -0.014284
0.0019734 -0.0013105 0.0011681 0.00076832 5.4855e-05 0.00022045 0.0010231 0.00038661
-0.0037868 -0.014338 0.07039 0.31553
1400000000 0.24212 0.20057 -0.023614 -0.0083833 0.0051508 0.0032287 -0.0023309 0.00066552
0.0026105 0.0010399 0.00034618 -0.0017045
-0.023614 -0.0084053 0.073753 0.36021 -0.014948 0.01262 0.0013033 0.0012885
0.0012322 -0.00081411 0.0011901 0.00020733
0.0051854 0.0032025 -0.014909 0.012712 0.34716 0.062883 3.6786e-05 -0.0015977
0.00011342 -0.00044733 0.0003277 0.00028968
-0.002296 0.00069602 0.0013148 0.0013035 4.9383e-05 -0.001579 0.16982 0.20967
-0.014295 -0.0099367 -0.00073305 -0.00014149
0.0026138 0.0010174 0.0012261 -0.00079873 9.8802e-05 -0.0004393 -0.014321 -0.0098652
0.083117 0.22532 -0.010184 -0.0092049
0.00034207 -0.001664 0.001146 0.00023108 0.00024576 0.00031024 -0.00072191 -0.00016488
-0.010238 -0.0092613 0.11468 0.30546
1460000000 0.26575 0.15736 -0.020908 0.0042234 0.0055706 -0.0017559 -0.0015426 0.0017652
0.002238 -0.00048052 -0.00028241 -0.00099226
-0.020881 0.0042136 0.10852 0.33848 -0.0058009 0.015664 0.0016635 0.00023593
0.0009281 -0.0013467 0.0012073 -0.0004983
0.0055896 -0.001792 -0.0057462 0.015719 0.35399 0.0088645 -0.0011774 -0.001172
0.00023685 -0.00023638 0.00077351 -0.00032701
-0.0015274 0.0017843 0.0016764 0.0002278 -0.0011875 -0.0011855 0.19693 0.18066
-0.015333 -0.0031444 -0.00094275 0.0017668
0.0022268 -0.00042576 0.00090848 -0.0013439 0.00024073 -0.00019863 -0.015393 -0.0031286
0.11278 0.21192 -0.012347 -0.0029406
-0.00026093 -0.0010302 0.0012999 -0.00048928 0.00083745 -0.00037324 -0.00097263 0.0018612
-0.01247 -0.0029471 0.14826 0.2849
1520000000 0.27935 0.11631 -0.01535 0.010029 0.0033713 -0.0042417 0.00018695 0.0026973
0.0021449 -0.0018904 -0.0012578 -0.0001381
-0.015363 0.010003 0.14254 0.32447 0.0020652 0.013025 0.0016396 -0.0006991
1.7443e-05 -0.0010026 0.00037203 -0.0010824
0.0033172 -0.0043072 0.0021346 0.01301 0.3476 -0.046672 -0.0009241 -0.00035028
0.00066262 -0.00089145 0.0001027 -0.00026197
0.00018555 0.0026922 0.0016299 -0.00069798 -0.00094791 -0.00034591 0.22074 0.14243
-0.014785 0.002568 0.0015467 0.0021111
0.0021425 -0.001859 4.2875e-05 -0.0010159 0.00066961 -0.00090225 -0.014768 0.0026274
0.14127 0.1994 -0.012102 0.0019401
-0.0012102 -0.00014209 0.00031041 -0.0011094 3.6335e-05 -0.0002849 0.0015788 0.0020887
-0.012158 0.0018435 0.18132 0.26551
1580000000 0.29008 0.070355 -0.0085978 0.013545 -0.0010228 -0.0049557 0.0015614 0.0018882
-0.00018026 -0.0022262 -0.00025267 0.00040901
-0.0086033 0.013532 0.17031 0.29967 0.0056151 0.007788 0.0005879 -0.0015552
-0.0004589 -0.0010526 -0.00013359 -0.00087251
-0.0010305 -0.0049497 0.0056757 0.0077615 0.32825 -0.10453 -0.0015512 0.00040526
-0.00033843 -0.001333 0.0003339 -0.00061329
0.0015549 0.0018791 0.00056613 -0.00155 -0.0015115 0.00040636 0.23527 0.10273
-0.011366 0.007433 0.0021361 0.00073007
-0.00022559 -0.0022362 -0.00049697 -0.0010454 -0.00031825 -0.0013412 -0.011331 0.007452
0.16609 0.18212 -0.009506 0.0076356
-0.00021578 0.00043054 -0.00014494 -0.0008779 0.00032639 -0.00057905 0.002175 0.00076183
-0.0097125 0.007644 0.21388 0.23931
1640000000 0.29306 0.029406 -0.0016893 0.012471 -0.0030177 -0.0025695 0.0027837 0.0010596
-0.00076346 -0.001669 -0.00042963 0.00067384
-0.0016915 0.012463 0.19995 0.27531 0.0059169 0.0028175 -0.00053135 -0.0018032
-0.00096075 -0.00045337 -0.00052755 -0.00072523
-0.0030503 -0.0025356 0.005909 0.0027842 0.29978 -0.15323 -0.00080006 0.0014163
-0.0011493 -0.0010501 -0.00028543 -0.00046182
0.0027851 0.0010158 -0.00055497 -0.0018164 -0.00083602 0.001386 0.24797 0.05368
-0.0071198 0.0086892 0.002501 -0.00095522
-0.00075136 -0.0016556 -0.00096522 -0.00044221 -0.0011421 -0.0010089 -0.0071047 0.0086749
0.18968 0.15916 -0.0045424 0.0098678
-0.00046466 0.00063444 -0.00054106 -0.00071817 -0.00025078 -0.000591 0.0024967 -0.00091642
-0.0046144 0.010004 0.24006 0.20917
1700000000 0.28712 -0.015928 0.0019055 0.0096722 -0.0036545 0.00011518 0.0031479 -0.0012324
-0.0020642 -0.00063247 0.00066765 0.00029913
0.0019046 0.0096645 0.21861 0.24405 0.0034846 -5.5272e-05 -0.0014069 -0.0007121
-0.00081466 -0.00010774 -0.00095956 -0.00042455
-0.0036517 0.00015315 0.0034806 -7.9939e-05 0.25742 -0.19278 0.00031203 0.0016234
-0.0021033 -0.00014237 -0.0006732 -0.00073709
0.0031423 -0.0012359 -0.0014138 -0.00068729 0.00030902 0.0016307 0.24515 0.0033074
-0.0043525 0.0091937 0.001565 -0.0020837
-0.0020631 -0.00061497 -0.00080725 -8.667e-05 -0.0020865 -0.00012037 -0.0043196 0.0092501
0.20822 0.13958 0.00015604 0.0099378
0.00070266 0.00033416 -0.00097431 -0.00045559 -0.00072219 -0.00074215 0.0016454 -0.0021456
0.00019251 0.01008 0.2571 0.17531
1760000000 0.2757 -0.064697 0.0043353 0.006393 -0.0022244 0.0012581 0.00137 -0.0034428
-0.0013529 0.00064279 0.0003277 -0.00048704
0.004326 0.0063843 0.24473 0.20458 0.00092676 -0.0017271 -0.0013136 4.8599e-05
-0.0011716 0.00091623 -0.00057625 0.00039849
-0.0022519 0.0012268 0.0009259 -0.0017249 0.20997 -0.22637 0.0011059 0.0010826
-0.0011786 0.0015579 -0.0012542 -0.000543
0.001377 -0.0034572 -0.0013174 3.3856e-05 0.0011838 0.0010733 0.23599 -0.048658
-0.001241 0.0083762 -0.00029843 -0.0023448
-0.0013526 0.00064309 -0.0011577 0.00089206 -0.0011834 0.0015352 -0.0012312 0.0084119
0.22369 0.10549 0.0043054 0.0073329
0.00022212 -0.00047938 -0.0005773 0.00040818 -0.0012635 -0.00048947 -0.0003538 -0.0023491
0.0043022 0.0074246 0.27021 0.13792
1820000000 0.25239 -0.10204 0.0044953 0.0028866 -1.3344e-05 0.0026059 -0.00098938 -0.0031603
-0.0011598 0.00089216 -0.00014199 -0.00021526
0.0044924 0.0028693 0.25545 0.17496 -0.001449 -0.00017852 -0.0014302 0.00089747
-0.00012633 0.0012594 -0.00068544 0.00053769
1.1465e-05 0.0025837 -0.0014468 -0.00014079 0.15892 -0.24253 0.0016249 0.00049255
-0.00024816 0.002281 -0.0015578 0.00048434
-0.0010463 -0.0031065 -0.0014374 0.00093222 0.0015604 0.00048687 0.20619 -0.096134
0.00041498 0.0071386 -0.0015977 -0.0017258
-0.0011544 0.00091335 -0.00010751 0.0012731 -0.00025053 0.0022869 0.00043169 0.0071306
0.24208 0.077343 0.0054034 0.0035363
-9.0188e-05 -0.00022831 -0.00064641 0.00050905 -0.0015282 0.0004469 -0.0015505 -0.001693
0.0053626 0.0036161 0.27379 0.10202
1880000000 0.21782 -0.1433 0.0022739 0.00051493 -0.00043592 0.0023159 -0.0029208 -0.00224
-0.00022178 0.0017387 0.00012067 -0.00059528
0.0022673 0.00052567 0.26008 0.1284 -0.0033521 0.0022298 -0.00026778 0.0018192
0.00061628 0.0013855 0.00011162 0.0010456
-0.00042078 0.0023266 -0.0033031 0.0022561 0.10696 -0.25151 0.0019989 -0.00096511
0.001615 0.0020107 -0.0010335 0.0015748
-0.0029433 -0.0021925 -0.00022853 0.0018325 0.0020295 -0.0009876 0.16521 -0.13685
0.0013343 0.0049449 -0.0023982 0.00020466
-0.0002153 0.0017636 0.00062508 0.0014031 0.0015848 0.0019866 0.0013764 0.0048883
0.24691 0.046054 0.0054921 0.0011493
2.5559e-05 -0.000595 8.1031e-05 0.0010947 -0.0010066 0.0016339 -0.002362 0.00014906
0.0055755 0.0012349 0.27423 0.067872
1940000000 0.17857 -0.16935 8.7032e-05 -0.0012297 0.0016522 0.0020424 -0.0038158 0.00030287
0.001217 0.0011612 -0.0007761 -0.00036554
7.9693e-05 -0.0012187 0.26117 0.097113 -0.0017376 0.0049715 0.0010301 0.0014125
0.0019124 0.0005873 0.00082938 0.00027553
0.0016668 0.0020464 -0.0016919 0.0050131 0.061935 -0.24449 0.00038718 -0.0025162
0.002361 0.00040258 0.0002413 0.0015195
-0.0038775 0.00029953 0.00099324 0.0014206 0.00033985 -0.0026025 0.1122 -0.16705
0.00028449 0.0036116 -0.0015356 0.001587
0.00121 0.0010432 0.0018611 0.00054328 0.0023454 0.00036181 0.00018354 0.0036006
0.25066 0.0079711 0.0040512 -0.0025266
-0.00080336 -0.00046995 0.00090107 0.00027986 0.00026289 0.0015261 -0.0016343 0.0015631
0.0041694 -0.0023428 0.26309 0.031893
2000000000 0.13298 -0.18466 -0.003619 0.00081542 0.0027762 0.0013333 -0.0023787 0.0037723
0.0012276 0.00043493 -0.00035166 0.00059132
-0.0036701 0.00083426 0.24763 0.061705 -0.00083743 0.0069326 0.001767 0.00044552
0.001362 -0.0012522 0.00042852 0.00016547
0.0027994 0.001347 -0.00076348 0.0069326 0.018936 -0.23045 -0.0011604 -0.0015646
0.0021256 -0.0011684 0.001462 0.0013715
-0.0022964 0.0038976 0.0018018 0.00043571 -0.0011964 -0.0015581 0.058744 -0.17709
-0.0013058 0.0036083 -5.1817e-06 0.0021466
0.0012887 0.00055117 0.0014359 -0.0012065 0.002114 -0.0011389 -0.0012438 0.0036982
0.24639 -0.025123 0.00080984 -0.0031523
