!Keysight Technologies,M9804A,MY58100912,A.14.10.03
!Date: Thursday, April 27, 2023 10:28:33
!Correction: S11(C  6-Port  ) 
!S12(C  6-Port  ) 
!S13(C  6-Port  ) 
!S14(C  6-Port  ) 
!S15(C  6-Port  ) 
!S16(C  6-Port  ) 
!S21(C  6-Port  ) 
!S22(C  6-Port  ) 
!S23(C  6-Port  ) 
!S24(C  6-Port  ) 
!S25(C  6-Port  ) 
!S26(C  6-Port  ) 
!S31(C  6-Port  ) 
!S32(C  6-Port  ) 
!S33(C  6-Port  ) 
!S34(C  6-Port  ) 
!S35(C  6-Port  ) 
!S36(C  6-Port  ) 
!S41(C  6-Port  ) 
!S42(C  6-Port  ) 
!S43(C  6-Port  ) 
!S44(C  6-Port  ) 
!S45(C  6-Port  ) 
!S46(C  6-Port  ) 
!S51(C  6-Port  ) 
!S52(C  6-Port  ) 
!S53(C  6-Port  ) 
!S54(C  6-Port  ) 
!S55(C  6-Port  ) 
!S56(C  6-Port  ) 
!S61(C  6-Port  ) 
!S62(C  6-Port  ) 
!S63(C  6-Port  ) 
!S64(C  6-Port  ) 
!S65(C  6-Port  ) 
!S66(C  6-Port  ) 
!S6P File: Measurement: :
# Hz S  RI   R 50
500000000 -0.33118 -0.060885 -0.010054 -0.0014365 -0.0090006 0.012992 -0.0034786 0.012112
0.013889 0.0056138 -0.0035852 0.0066217
-0.0099408 -0.0016599 -0.41357 -0.069948 0.0084329 -0.010775 0.0013528 0.012186
0.0084789 0.0029704 0.0022138 0.013594
-0.0091394 0.012636 0.008219 -0.010705 -0.26687 0.19345 0.0067918 0.0035678
-0.0019386 0.0088415 2.6329e-05 0.011432
-0.0035653 0.011687 0.0012908 0.011981 0.0068059 0.0036633 -0.33068 0.03935
-0.018387 -0.0035357 0.014995 0.027806
0.013615 0.0059751 0.0083037 0.0030869 -0.002274 0.008839 -0.019653 -0.0035562
-0.24061 -0.20665 -0.025594 0.0031619
-0.003808 0.0076774 0.001505 0.013781 0.00048383 0.012007 0.01734 0.025697
-0.026496 0.0059606 -0.27108 -0.13132
560000000 -0.31955 0.10542 -0.021861 -0.066084 -3.7092e-06 0.013685 0.0047395 0.011594
0.010838 0.005647 0.010337 0.0088246
-0.021517 -0.066156 -0.37406 0.094062 -0.041195 -0.039003 0.014502 0.0039569
-0.012895 -0.0034803 0.0046494 -0.0013501
6.355e-05 0.01405 -0.041549 -0.039135 -0.18681 0.2464 -0.00096173 -0.0050215
0.018576 0.0062255 0.0077627 -0.005514
0.0048369 0.011675 0.014568 0.0039637 -0.00071613 -0.0049114 -0.30691 0.13241
0.0053366 -0.023512 0.005758 -0.02142
0.010232 0.0051377 -0.012259 -0.0042392 0.018393 0.0068339 0.0053143 -0.023458
-0.30829 -0.024633 0.008593 -0.049619
0.010959 0.0088372 0.0044441 -0.00062068 0.0077835 -0.0059573 0.0052524 -0.02067
0.0084122 -0.050114 -0.33261 0.017002
620000000 -0.27911 0.085388 -0.023205 0.0087348 0.0040291 0.0094644 0.0079381 -0.0040497
0.011692 -0.0026293 -0.0010905 -0.0018065
-0.023418 0.0084783 -0.40279 0.042434 -0.018261 0.00027457 -0.0013345 -0.0019974
0.012057 -0.0058687 0.001041 -0.0029819
0.0037954 0.009634 -0.018217 0.00031518 -0.15692 0.25581 -0.00098101 -0.0051114
-0.0042221 -0.0030565 0.0098783 -0.0027209
0.0076432 -0.004168 -0.0013234 -0.0020271 -0.0008059 -0.0049012 -0.26532 0.14219
-0.039673 -0.02105 0.013842 0.027326
0.01163 -0.002477 0.011676 -0.0060819 -0.0036276 -0.0033019 -0.038292 -0.019775
-0.22771 -0.058835 -0.043108 0.01189
-0.0010034 -0.00048293 0.0011829 -0.0027076 0.0098193 -0.0029305 0.013433 0.026095
-0.043588 0.010973 -0.24745 -0.01949
680000000 -0.24173 0.17888 -0.026106 -0.014781 0.0052804 0.0055593 0.0012633 -0.0069387
-0.0014481 -0.011918 0.006612 -0.0069098
-0.026065 -0.014795 -0.39067 0.14383 -0.032603 -0.0024564 -0.0017803 -0.0001276
-0.0013676 -0.0095086 -0.00062183 -0.0021656
0.0049905 0.0055746 -0.032672 -0.0023797 -0.10618 0.27772 -0.0010117 -6.5269e-05
-0.0014141 0.00046781 -0.002598 -0.0096614
0.0010548 -0.0069875 -0.0018568 -0.00017901 -0.00088309 -5.2653e-05 -0.22057 0.19334
-0.022833 -0.0071392 -0.009826 -0.010852
-0.0020052 -0.012154 -0.0012992 -0.0092653 -0.0012562 0.00047132 -0.023335 -0.0074804
-0.28027 0.042937 -0.0055101 -0.0074713
0.0065862 -0.0072629 -0.00071277 -0.0019081 -0.0022429 -0.009098 -0.0092825 -0.010496
-0.006661 -0.0077914 -0.26183 0.08538
740000000 -0.19508 0.17222 -0.040375 0.026589 0.013899 -0.0043625 -0.00023317 -0.0042626
-0.003979 -0.0022115 -0.0065109 0.0023506
-0.040118 0.026387 -0.33718 0.16299 -0.03741 0.03456 1.0309e-05 -0.0060231
-0.012479 0.0078467 -0.0013496 -0.0051527
0.014157 -0.0043767 -0.037505 0.034764 -0.072154 0.27486 -0.0017654 0.0031586
-0.0022912 -0.0060668 -0.001528 0.0012456
-5.6149e-05 -0.0040055 8.8406e-05 -0.00596 -0.0017572 0.0034034 -0.20445 0.20136
-0.042014 -0.0088647 0.023062 0.015808
-0.0036101 -0.0030267 -0.012885 0.0072436 -0.0024945 -0.0063688 -0.043 -0.0095029
-0.18278 0.07332 -0.044012 0.00010573
-0.0066629 0.002843 -0.0011131 -0.0059102 -0.0015389 0.00089564 0.022796 0.015782
-0.042452 0.00012016 -0.24962 0.094047
800000000 -0.16379 0.2172 -0.022373 0.016061 0.0059802 -0.010633 -0.0045715 -0.0027209
-0.0049776 0.001547 0.0042098 -4.8898e-05
-0.022429 0.016089 -0.3436 0.23395 -0.0090528 0.034174 -0.0020609 0.0017874
-0.0012633 0.0023161 0.00087466 0.0049391
0.0059562 -0.010599 -0.0089904 0.034249 -0.033754 0.29973 0.00084248 0.0012002
-0.00010482 0.0032546 -0.0019737 0.00056203
-0.0042611 -0.0026176 -0.0020633 0.0017738 0.00091385 0.001267 -0.17572 0.2289
-0.028686 0.013008 0.013304 -0.010548
-0.0047664 0.002492 -0.00098899 0.0026487 0.00013139 0.0031621 -0.028207 0.012389
-0.22575 0.099166 -0.016336 0.01991
0.0045622 0.00022403 0.0010945 0.0051735 -0.0016533 0.00081536 0.013346 -0.010159
-0.018171 0.020385 -0.24647 0.14065
860000000 -0.13005 0.23733 -0.018343 0.030368 -0.0029024 -0.010365 -0.0020272 0.00055812
0.0040315 0.0051879 -0.0041866 -0.0031043
-0.018251 0.030283 -0.29625 0.27757 0.0070013 0.034871 0.00011289 0.0023418
0.0035151 0.0010145 0.0037561 0.00033041
-0.0028114 -0.010396 0.0071214 0.034857 0.01347 0.30882 -0.0007105 -7.4404e-05
0.0022594 -0.0013717 0.0017949 0.0045259
-0.0021312 0.00053893 0.00017549 0.0023572 -0.00072112 -0.0001782 -0.13883 0.24026
-0.018685 0.017573 -0.0062341 -0.0090817
0.0037829 0.0050433 0.0034612 0.00066068 0.0022763 -0.0012964 -0.018682 0.01805
-0.16941 0.15353 -0.025722 0.01743
-0.0037876 -0.0028736 0.002887 0.00028408 0.001508 0.0042426 -0.0060482 -0.0090902
-0.025569 0.017066 -0.19368 0.18892
920000000 -0.10712 0.26063 0.0044381 0.038782 -0.0094035 -0.0052753 -0.0021175 0.0015634
0.00094097 0.0021101 0.0026926 -0.00097131
0.0042755 0.038659 -0.26899 0.29951 0.02814 0.023332 0.0011909 0.0010893
0.0076308 0.0007312 0.0043328 -0.0026181
-0.009402 -0.0052336 0.02821 0.023278 0.05887 0.31081 0.0017795 -6.6982e-05
0.00089684 8.9688e-05 0.00079444 -0.0014214
-0.0023057 0.0015094 0.0012628 0.0010722 0.0018073 2.6803e-05 -0.11503 0.25712
-0.012065 0.030706 0.0040312 -0.0070856
0.000861 0.002189 0.0076074 0.0003945 0.00087041 6.483e-05 -0.011775 0.030845
-0.15776 0.15967 -0.00069671 0.027115
0.0027635 -0.0011823 0.0043653 -0.0029987 0.00088978 -0.0015418 0.0039268 -0.0066953
-0.00097058 0.02663 -0.20171 0.19973
980000000 -0.060963 0.28178 0.016423 0.030581 -0.0097198 0.0042683 0.0018572 0.0038137
0.0041506 -0.0014478 -0.0028789 -0.0028816
0.016389 0.030584 -0.21653 0.33516 0.033543 0.0058948 0.0021914 -6.4097e-05
0.0017069 -0.0060531 2.2925e-05 -0.0030003
-0.0097081 0.0042837 0.033572 0.0057983 0.10483 0.30556 0.00083252 -0.0011114
0.00055767 -0.0019991 0.0014139 -0.00047081
0.0019094 0.0038307 0.0022516 -7.2762e-05 0.00084973 -0.0011291 -0.076737 0.26846
0.0072108 0.030249 -0.0095914 -0.0073285
0.004206 -0.0014702 0.0016778 -0.0059805 0.00054997 -0.0018511 0.0070353 0.029931
-0.12583 0.18973 0.005486 0.019398
-0.0031832 -0.0025632 -0.00034472 -0.0027228 0.0014316 -0.000229 -0.00939 -0.0072865
0.0054127 0.020006 -0.16006 0.24646
1040000000 -0.019959 0.29109 0.033067 0.019789 -0.0017242 0.0072597 0.0028145 0.00085514
0.00060495 -0.0035322 4.7726e-05 -0.0018361
0.033047 0.019766 -0.18179 0.34915 0.030442 -0.014349 0.0016606 -0.0017573
-0.0020284 -0.002679 -0.0012067 -0.0032416
-0.0016272 0.0072711 0.030391 -0.014469 0.1509 0.29318 -0.00038817 -0.0016697
-0.001588 -0.0010284 -0.00054425 -0.0011198
0.0027766 0.00086873 0.0016832 -0.0017474 -0.00043093 -0.0016714 -0.049992 0.27835
0.019092 0.01902 -0.0026021 0.0010514
0.0004535 -0.0034397 -0.002095 -0.0024497 -0.001466 -0.00092413 0.019109 0.019068
-0.092459 0.19805 0.014281 0.018459
-6.168e-05 -0.001754 -0.0012011 -0.0033014 -0.00057206 -0.0011809 -0.0027329 0.0011323
0.014314 0.017949 -0.13865 0.2675
1100000000 0.024861 0.30121 0.036895 -0.0027983 0.0030096 0.0043615 0.0024645 -0.00099945
-0.0024101 -0.0029224 -0.0042458 -2.3558e-05
0.036846 -0.0028041 -0.13851 0.36851 0.016302 -0.028121 4.0247e-05 -0.0018554
-0.0038327 -0.00080785 -0.0036294 -0.00035234
0.0029985 0.0043904 0.016209 -0.028209 0.19742 0.27422 -0.0019798 0.00012297
-0.0018319 0.00054989 -0.0011549 -0.00047892
0.002512 -0.00099092 8.6126e-05 -0.0018538 -0.0019852 8.6937e-05 -0.0097694 0.28397
0.024846 0.0059815 -0.0026391 9.5532e-05
-0.0023156 -0.0028435 -0.0038215 -0.0007199 -0.0017974 0.00058081 0.024789 0.0058285
-0.073404 0.21108 0.01946 0.0090645
-0.0041474 2.3622e-05 -0.0035846 -0.00026988 -0.0011527 -0.00051223 -0.002613 4.2557e-05
0.019792 0.0094049 -0.092231 0.29783
1160000000 0.075615 0.29786 0.02531 -0.02029 0.0030763 -0.00042806 -5.5795e-05 -0.0023892
-0.0040393 -0.00092291 -0.0011628 0.0040087
0.025273 -0.020316 -0.09478 0.3738 -0.0031219 -0.029751 -0.0016014 -0.0018177
-0.0025371 0.0025568 -0.0015515 0.0017047
0.0031102 -0.00040313 -0.0032578 -0.029743 0.24103 0.24415 -0.00086138 0.0017487
-0.00061525 0.0019851 -0.0010762 0.00046201
-0.00018052 -0.002446 -0.0016521 -0.0017838 -0.00088644 0.0017418 0.029342 0.28193
0.021513 -0.010205 -0.0034821 0.005383
-0.0040952 -0.0008908 -0.0026257 0.0024674 -0.00060606 0.0019848 0.021379 -0.010206
-0.038414 0.2193 0.018835 0.00010777
-0.00091792 0.0040801 -0.0016121 0.0017935 -0.001035 0.00045733 -0.0034599 0.0053094
0.018766 -6.0284e-05 -0.044929 0.30091
1220000000 0.11959 0.28892 0.011924 -0.030499 -0.0013113 -0.0011149 6.461e-05 -0.00093679
-0.0028969 0.0021785 0.0011408 0.0021981
0.011879 -0.030442 -0.050348 0.38785 -0.017067 -0.022061 -0.0026109 0.00056374
-1.2474e-05 0.0030922 -0.00075596 0.0020759
-0.0013118 -0.0011241 -0.017195 -0.021997 0.28045 0.20571 0.0007789 0.0017952
0.00047324 0.0012333 0.00023593 0.00071823
0.00011296 -0.0010026 -0.0026211 0.00056336 0.00079133 0.0018053 0.069459 0.27392
0.011045 -0.016991 0.0022061 0.0014913
-0.0028177 0.0021536 2.0805e-05 0.0031439 0.00051505 0.0012649 0.011159 -0.017045
-0.015537 0.22929 0.014399 -0.013211
0.0010541 0.0022233 -0.00073855 0.0020822 0.0002904 0.00079774 0.002121 0.0015597
0.014543 -0.013158 -0.014557 0.31738
1280000000 0.17025 0.26923 -0.007182 -0.029504 -0.0019979 0.0022955 -0.00090677 -0.0021494
-0.00090159 0.0033144 0.0026934 0.0013481
-0.007161 -0.029466 -0.0035432 0.37995 -0.024471 -0.0087884 -0.00091197 0.0015202
0.0017718 0.0017357 0.00072438 0.0020525
-0.0019357 0.0022855 -0.02453 -0.0086977 0.31122 0.16229 0.0017044 1.9433e-05
0.0011816 0.0002993 0.00036165 0.00030502
-0.00093159 -0.0021175 -0.00091619 0.0015173 0.0017133 -9.8441e-06 0.10658 0.25815
0.0012334 -0.019412 0.00012148 0.00034804
-0.00080643 0.0033251 0.0017962 0.0016826 0.0012285 0.00027644 0.0011608 -0.019396
0.021346 0.23326 0.0034488 -0.015847
0.0027613 0.0012957 0.00071123 0.0020377 0.00031922 0.00029535 0.00024298 0.00018902
0.0035366 -0.01576 0.033328 0.31996
1340000000 0.20782 0.23702 -0.017519 -0.019936 0.00061509 0.0046179 -0.0019416 -0.00089623
0.0014299 0.0028163 0.0018832 -0.0013415
-0.017495 -0.019938 0.036305 0.37252 -0.021979 0.0043952 -7.3695e-05 0.0020114
0.0020158 0.00074391 0.0011836 0.00068269
0.00061371 0.004595 -0.021974 0.0044967 0.33326 0.11551 0.0010207 -0.0009817
0.00064988 -0.0005332 5.0776e-05 0.00021988
-0.0019231 -0.00088001 -8.9648e-05 0.0020243 0.0010411 -0.00098668 0.14013 0.2381
-0.008566 -0.0168 0.00093465 0.00043853
0.0015008 0.0027916 0.0020141 0.00071414 0.00070081 -0.00053157 -0.0086318 -0.016719
0.051198 0.22898 -0.0039103 -0.014321
0.0018932 -0.0012828 0.0011776 0.00081604 3.5911e-05 0.00012208 0.00099529 0.00059415
-0.0040597 -0.014361 0.071431 0.31521
1400000000 0.2426 0.20036 -0.023901 -0.0081394 0.0052852 0.0033734 -0.0023075 0.00070152
0.0026463 0.0010787 0.00030655 -0.0017544
-0.023842 -0.0081529 0.074604 0.36003 -0.015049 0.012881 0.0013206 0.0012691
0.0012514 -0.00084155 0.0011208 0.00018337
0.0053001 0.0033484 -0.015008 0.012962 0.34678 0.062579 3.9321e-05 -0.0016227
0.00013261 -0.0004294 0.00030521 0.00021285
-0.0022919 0.00072721 0.001342 0.0012522 1.6216e-05 -0.0016408 0.17007 0.20947
-0.014787 -0.0098209 -0.00071793 -0.00013837
0.0026545 0.0010487 0.0012178 -0.00084621 0.00013074 -0.00043819 -0.014764 -0.0097989
0.084843 0.2256 -0.010555 -0.0092298
0.00031746 -0.0016761 0.0011766 0.00015911 0.00034019 0.0003093 -0.00081008 -0.00019821
-0.010382 -0.0091607 0.11625 0.3053
1460000000 0.26617 0.15721 -0.021005 0.0045785 0.0057756 -0.001747 -0.0014879 0.0018265
0.0023018 -0.00045788 -0.00024325 -0.0009925
-0.020965 0.0045402 0.10925 0.33805 -0.0057395 0.015841 0.0016866 0.00020815
0.0009219 -0.0012884 0.0012523 -0.00053577
0.005789 -0.0017904 -0.0056525 0.015883 0.35366 0.0089383 -0.001181 -0.0012029
0.00019431 -0.00019268 0.00077049 -0.00018029
-0.0015321 0.0018885 0.001682 0.00018308 -0.0011671 -0.0012063 0.1971 0.18025
-0.015715 -0.0028242 -0.00095518 0.0018786
0.0023145 -0.00049644 0.00089423 -0.0013252 0.00019302 -0.00012857 -0.015723 -0.0028039
0.11462 0.2119 -0.012448 -0.0030308
-0.00026218 -0.0010432 0.0012898 -0.00058007 0.00074878 -0.00020929 -0.00092847 0.0018742
-0.012451 -0.0030629 0.14946 0.28462
1520000000 0.27976 0.11597 -0.01528 0.010344 0.0034319 -0.0043704 0.00018649 0.0026729
0.0022084 -0.0019898 -0.0012521 -0.00011736
-0.015261 0.010338 0.14299 0.32385 0.0021994 0.013135 0.0016646 -0.0007134
3.5148e-05 -0.0010132 0.00033031 -0.0010804
0.0033943 -0.0043926 0.0022627 0.013133 0.34728 -0.046496 -0.00094069 -0.00036532
0.00076268 -0.0009075 0.00018835 -0.00018667
0.00020458 0.0026649 0.0016473 -0.00073121 -0.00097425 -0.00032235 0.22074 0.14201
-0.014822 0.0031079 0.0016341 0.0020887
0.0021872 -0.0020295 1.0646e-05 -0.0010358 0.00072205 -0.00096243 -0.01484 0.0031649
0.14317 0.19921 -0.012233 0.0020241
-0.001254 -3.2787e-05 0.0003177 -0.0010507 0.00015705 -0.00021757 0.0016336 0.0021333
-0.012192 0.001959 0.18245 0.26534
1580000000 0.29035 0.069961 -0.008319 0.013793 -0.00099527 -0.0051682 0.0015519 0.0018103
-0.00020448 -0.002304 -0.00020439 0.00038677
-0.0083209 0.013771 0.17053 0.29908 0.0057677 0.0078125 0.00059686 -0.0015728
-0.00046248 -0.0010421 -0.00017097 -0.00086462
-0.0010076 -0.00515 0.0058154 0.0077883 0.3283 -0.10409 -0.0015241 0.00044302
-0.00034281 -0.0013952 0.00033463 -0.00070524
0.0015707 0.0018243 0.0005708 -0.0015759 -0.0015709 0.00041512 0.23495 0.10238
-0.011146 0.0078854 0.0022198 0.00071561
-0.00020517 -0.0022858 -0.00045857 -0.0010602 -0.00033 -0.0013852 -0.01116 0.0078529
0.16789 0.18157 -0.0095313 0.0076812
-0.00017421 0.0003524 -0.00018772 -0.00087555 0.00041053 -0.00068963 0.0021996 0.00069618
-0.0094849 0.0077949 0.21484 0.23897
1640000000 0.29323 0.028883 -0.0013165 0.01246 -0.0030783 -0.0026408 0.0027171 0.0010287
-0.00085738 -0.0016531 -0.0003895 0.0005454
-0.0013203 0.012475 0.19993 0.27472 0.0060108 0.0027046 -0.00055288 -0.0018336
-0.00091887 -0.00046505 -0.00053451 -0.0007298
-0.0030897 -0.0026536 0.006045 0.0026953 0.30018 -0.1531 -0.00078179 0.0013641
-0.0011164 -0.00096751 -0.00026528 -0.00048757
0.002735 0.00099659 -0.0005483 -0.0018396 -0.00077564 0.0014163 0.24771 0.053388
-0.0067267 0.0088594 0.0024489 -0.00081925
-0.00081646 -0.0016783 -0.00092633 -0.00045035 -0.0010939 -0.0009576 -0.0067356 0.008885
0.19135 0.15834 -0.0045154 0.0098649
-0.00037939 0.00060664 -0.00057925 -0.0006582 -0.00035237 -0.00047046 0.0024576 -0.00080077
-0.0046102 0.0098671 0.24082 0.20831
1700000000 0.287 -0.016351 0.0021723 0.0095214 -0.0038362 0.00016139 0.003127 -0.0012107
-0.0021071 -0.00062071 0.00061828 0.00039803
0.0021552 0.0095165 0.21839 0.24359 0.0035088 -0.00023212 -0.0014442 -0.00069114
-0.00077274 -0.00010652 -0.00087567 -0.00044201
-0.0038445 0.00017276 0.003497 -0.00028224 0.25775 -0.19294 0.00023125 0.0015495
-0.0020676 -4.2707e-05 -0.00050764 -0.00076892
0.0031259 -0.0012014 -0.0014639 -0.0006826 0.00022196 0.0015073 0.2445 0.00339
-0.003985 0.0091468 0.0016082 -0.0022005
-0.0021385 -0.00058026 -0.00077499 -0.00010948 -0.0020819 -0.00010283 -0.0040339 0.0091793
0.20958 0.13844 0.00020077 0.010104
0.00057754 0.00046109 -0.00092245 -0.00047515 -0.00048622 -0.00081214 0.0015838 -0.0022546
0.00029207 0.010101 0.25795 0.17465
1760000000 0.27559 -0.06494 0.0044694 0.0061412 -0.0023613 0.0013428 0.0013477 -0.0034692
-0.0013644 0.00070172 0.00023352 -0.00054923
0.0044663 0.0061198 0.2445 0.20433 0.00090099 -0.0017571 -0.0012943 7.013e-05
-0.0011887 0.00083553 -0.00059931 0.00040662
-0.0022619 0.0013353 0.00088866 -0.0017757 0.20992 -0.22652 0.0010442 0.0012719
-0.0012372 0.0014756 -0.001199 -0.00056006
0.0013332 -0.0034502 -0.001311 5.7745e-05 0.001027 0.0012323 0.23566 -0.048356
-0.001047 0.0081483 -0.00026979 -0.0024309
-0.0013804 0.000694 -0.0011479 0.00082658 -0.0011981 0.001523 -0.00096785 0.0081373
0.22478 0.10428 0.0044045 0.0074592
0.00024667 -0.00055756 -0.00065528 0.00035763 -0.0013104 -0.00062939 -0.0002804 -0.0024966
0.0043823 0.0074575 0.27131 0.13726
1820000000 0.25226 -0.10222 0.0044727 0.0025682 5.3504e-05 0.0026504 -0.0009554 -0.0031165
-0.0010164 0.001006 -0.00017711 -0.00015965
0.0044564 0.0026103 0.25521 0.17493 -0.0013486 -8.5383e-05 -0.0014452 0.00096883
-0.00013019 0.001297 -0.00068438 0.00049998
8.9413e-05 0.0027011 -0.0013596 -9.6119e-05 0.15941 -0.24214 0.0016096 0.00057246
-0.00028529 0.0024768 -0.001597 0.00046728
-0.00094442 -0.0031256 -0.0014448 0.0009744 0.0016234 0.00066054 0.20583 -0.095662
0.00040974 0.006812 -0.0018668 -0.0015819
-0.0011161 0.0010008 -0.00015688 0.0012872 -0.00034569 0.0024908 0.00035823 0.006888
0.24274 0.076033 0.0052469 0.0035424
-0.00024007 -3.0868e-05 -0.00057801 0.00049003 -0.0016329 0.00052392 -0.0018039 -0.00159
0.005338 0.0035035 0.2742 0.10112
1880000000 0.2178 -0.14324 0.0021146 0.00036818 -0.00038385 0.0022381 -0.0028725 -0.0022863
-0.00017872 0.0017669 0.00023834 -0.00037017
0.0021218 0.00034658 0.25996 0.1285 -0.0032544 0.0021458 -0.00020814 0.0018223
0.00054424 0.0014644 5.246e-05 0.0011233
-0.00039839 0.002274 -0.0032474 0.0021451 0.10756 -0.25159 0.0020711 -0.00087397
0.0016262 0.0019863 -0.00095049 0.0015018
-0.0029538 -0.0022805 -0.00021351 0.0018623 0.0020424 -0.00094544 0.16526 -0.13603
0.0011148 0.0049811 -0.0023972 0.00037181
-0.0001136 0.0017126 0.00055193 0.0014761 0.0016852 0.0020001 0.0010835 0.0049332
0.24729 0.04468 0.0054428 0.0011953
0.0002859 -0.00057288 4.3109e-05 0.0011131 -0.00092416 0.0014532 -0.0024113 0.00020124
0.0054573 0.0010847 0.27458 0.067171
1940000000 0.17897 -0.16941 -8.1424e-05 -0.0012245 0.0015706 0.0020102 -0.0038357 0.00033558
0.0012541 0.0010196 -0.00054957 -0.00063982
-5.9122e-05 -0.0012112 0.26119 0.097193 -0.0016939 0.0047151 0.0011241 0.0013789
0.0019926 0.00060008 0.00092299 0.00031022
0.001551 0.0019613 -0.001673 0.0047767 0.062354 -0.24507 0.00057497 -0.0025313
0.0024249 0.00046233 0.00027488 0.0015837
-0.0038649 0.00035837 0.0011199 0.0013967 0.00061379 -0.0024338 0.11299 -0.16689
0.00023113 0.0036171 -0.001515 0.0017556
0.001252 0.0010498 0.0019827 0.00057812 0.0023819 0.00043858 0.00033479 0.0036907
0.25079 0.0068897 0.004079 -0.002319
-0.00054887 -0.00042785 0.000902 0.00026309 0.00025121 0.0016661 -0.0015825 0.001768
0.0038953 -0.0023096 0.26403 0.030786
2000000000 0.13295 -0.18477 -0.003757 0.00086329 0.0028099 0.0015565 -0.0024366 0.0036564
0.0011645 0.00036036 -0.00046435 0.00046418
-0.0037296 0.0008652 0.24775 0.061963 -0.00097141 0.0068232 0.001691 0.0003224
0.0014778 -0.0012122 0.00053892 4.473e-05
0.0028811 0.001441 -0.00090909 0.006846 0.01913 -0.23107 -0.0013742 -0.0018411
0.0022515 -0.001216 0.0015946 0.0014988
-0.0024398 0.0036261 0.0017897 0.00028243 -0.0013471 -0.0018655 0.05914 -0.17661
-0.0012594 0.0037163 0.00016495 0.002277
0.0011028 0.00026097 0.0015375 -0.001244 0.0022729 -0.0011633 -0.0012569 0.0037035
0.24664 -0.026056 0.00069893 -0.0031999
