!Keysight Technologies,M9804A,MY58100912,A.14.10.03
!Date: Thursday, April 27, 2023 10:28:33
!Correction: S11(C  6-Port  ) 
!S12(C  6-Port  ) 
!S13(C  6-Port  ) 
!S14(C  6-Port  ) 
!S15(C  6-Port  ) 
!S16(C  6-Port  ) 
!S21(C  6-Port  ) 
!S22(C  6-Port  ) 
!S23(C  6-Port  ) 
!S24(C  6-Port  ) 
!S25(C  6-Port  ) 
!S26(C  6-Port  ) 
!S31(C  6-Port  ) 
!S32(C  6-Port  ) 
!S33(C  6-Port  ) 
!S34(C  6-Port  ) 
!S35(C  6-Port  ) 
!S36(C  6-Port  ) 
!S41(C  6-Port  ) 
!S42(C  6-Port  ) 
!S43(C  6-Port  ) 
!S44(C  6-Port  ) 
!S45(C  6-Port  ) 
!S46(C  6-Port  ) 
!S51(C  6-Port  ) 
!S52(C  6-Port  ) 
!S53(C  6-Port  ) 
!S54(C  6-Port  ) 
!S55(C  6-Port  ) 
!S56(C  6-Port  ) 
!S61(C  6-Port  ) 
!S62(C  6-Port  ) 
!S63(C  6-Port  ) 
!S64(C  6-Port  ) 
!S65(C  6-Port  ) 
!S66(C  6-Port  ) 
!S6P File: Measurement: :
# Hz S  RI   R 50
500000000 -0.33155 -0.061238 -0.0098306 -0.001215 -0.0086535 0.012977 -0.0036254 0.011303
0.013059 0.0054859 -0.0038162 0.0067794
-0.0098288 -0.0014159 -0.41347 -0.070234 0.0085811 -0.010887 0.00075983 0.01235
0.0081028 0.002395 0.0005944 0.014031
-0.008745 0.012925 0.0085087 -0.010893 -0.26633 0.19335 0.0064877 0.0035123
-0.0018426 0.0083886 3.39e-05 0.012023
-0.0036434 0.011135 0.00092986 0.012206 0.0064886 0.0034995 -0.33044 0.039789
-0.017868 -0.0035185 0.017157 0.026793
0.013042 0.0053446 0.0081856 0.0024836 -0.0018209 0.0083814 -0.017853 -0.0035085
-0.24104 -0.20725 -0.026562 0.0064092
-0.0039179 0.0065934 0.00082123 0.013831 3.4926e-05 0.012015 0.017155 0.026645
-0.02657 0.0062797 -0.26667 -0.13296
560000000 -0.31971 0.10559 -0.022079 -0.066896 -4.2438e-05 0.0136 0.0049663 0.012031
0.010601 0.0035048 0.011415 0.0083792
-0.022007 -0.066764 -0.37291 0.094116 -0.041676 -0.039571 0.014185 0.0040779
-0.012435 -0.0041536 0.0031073 -0.0010127
-5.4631e-05 0.013484 -0.041837 -0.03957 -0.18586 0.24571 -0.00080204 -0.0048561
0.018737 0.0058147 0.0076364 -0.0057512
0.0051342 0.012286 0.014098 0.0040738 -0.00079327 -0.0048458 -0.30629 0.13164
0.0059754 -0.023631 0.0056402 -0.020983
0.010696 0.003664 -0.012253 -0.004397 0.018727 0.0058467 0.0060023 -0.023644
-0.3103 -0.024815 0.01067 -0.051018
0.01108 0.0082222 0.0033398 -0.00080579 0.0076571 -0.0057282 0.0057616 -0.020942
0.01061 -0.050784 -0.3304 0.01676
620000000 -0.27777 0.084795 -0.023073 0.008053 0.0036531 0.0093652 0.0085087 -0.0041654
0.011156 -0.0015127 0.00034312 -0.001528
-0.022982 0.007954 -0.40223 0.041778 -0.018582 8.3306e-05 -0.0017368 -0.0019686
0.012575 -0.0056331 0.00096145 -0.003404
0.0038176 0.0094488 -0.018615 0.00017799 -0.15723 0.25523 -0.00064003 -0.0051778
-0.0037188 -0.0027782 0.0093953 -0.0027701
0.0085154 -0.0041662 -0.0018035 -0.0019177 -0.00063884 -0.0051742 -0.26479 0.14152
-0.037595 -0.019991 0.013555 0.027218
0.0116 -0.0021356 0.012576 -0.0057513 -0.0037613 -0.0027936 -0.037709 -0.019962
-0.22842 -0.060087 -0.039832 0.011081
0.0004752 -0.0019794 0.00094234 -0.0032653 0.0093789 -0.002887 0.013515 0.026993
-0.039848 0.011383 -0.24949 -0.021778
680000000 -0.24151 0.17879 -0.025897 -0.015006 0.0053007 0.0056513 0.0014063 -0.0067907
-0.001508 -0.011773 0.0067179 -0.0064109
-0.025997 -0.014873 -0.39053 0.14347 -0.032643 -0.0024462 -0.0018611 -0.00039519
-0.0014019 -0.0092936 -0.00074293 -0.0019149
0.0051094 0.005695 -0.032662 -0.0024218 -0.10654 0.27738 -0.00095756 -3.6144e-05
-0.0011895 0.00024679 -0.0027185 -0.0091446
0.0015031 -0.0067567 -0.0018728 -0.00043196 -0.00097311 -3.9316e-05 -0.22104 0.1936
-0.022771 -0.0078917 -0.0095164 -0.011286
-0.0015372 -0.011666 -0.0014247 -0.0093081 -0.0011897 0.00025059 -0.02281 -0.0078942
-0.27967 0.042483 -0.0062803 -0.0072868
0.0068334 -0.0059127 -0.00076261 -0.0019626 -0.0026938 -0.0091111 -0.0093969 -0.011256
-0.0063317 -0.0073479 -0.25975 0.085068
740000000 -0.19564 0.17113 -0.040562 0.026341 0.013526 -0.0045761 -6.8294e-05 -0.0042577
-0.003755 -0.0024594 -0.0065818 0.0028315
-0.040509 0.026309 -0.33654 0.16317 -0.038101 0.034405 -0.00020303 -0.0058639
-0.011887 0.00704 -0.001521 -0.0057114
0.013595 -0.0045177 -0.038001 0.03452 -0.072532 0.27461 -0.001922 0.0030513
-0.0024306 -0.0054078 -0.0013687 0.00081551
0.00012194 -0.0043471 -0.00021508 -0.0058729 -0.001922 0.0030509 -0.20412 0.20045
-0.043434 -0.0093867 0.022815 0.015364
-0.0039479 -0.002642 -0.011897 0.0072083 -0.002444 -0.0054187 -0.043485 -0.0092964
-0.18173 0.072273 -0.04407 -7.9475e-06
-0.0062613 0.0029442 -0.0015133 -0.0057256 -0.0014142 0.000749 0.022818 0.015358
-0.044102 8.3157e-05 -0.25069 0.091198
800000000 -0.16466 0.21654 -0.022613 0.015979 0.0058042 -0.01056 -0.0044736 -0.0025448
-0.0045362 0.0022945 0.0045284 0.00043923
-0.022655 0.01591 -0.34363 0.23351 -0.0092347 0.034001 -0.0021305 0.0019246
-0.00097928 0.0025465 0.00088005 0.0053085
0.0058418 -0.010581 -0.0091364 0.034028 -0.034151 0.29983 0.0008838 0.0012517
0.00018576 0.0033733 -0.0018241 0.00078352
-0.0044533 -0.0025314 -0.0020729 0.0019073 0.00088496 0.0012468 -0.17572 0.22892
-0.028506 0.012269 0.01361 -0.010224
-0.0045609 0.0020874 -0.00098022 0.0025266 0.00019291 0.0033697 -0.028516 0.012325
-0.22635 0.099223 -0.017435 0.019909
0.004475 0.00064937 0.0009623 0.0052695 -0.0017955 0.00078151 0.013664 -0.010226
-0.017455 0.019898 -0.2453 0.14044
860000000 -0.13079 0.23718 -0.019026 0.030434 -0.0031048 -0.010058 -0.0021823 0.00057126
0.0038071 0.0054383 -0.004302 -0.0031124
-0.019031 0.030491 -0.29701 0.27738 0.0066047 0.034698 0.00047318 0.0024155
0.0032055 0.00092633 0.0030236 0.00020158
-0.0031671 -0.010006 0.0067242 0.034734 0.013392 0.30897 -0.00056414 -0.00015297
0.0020657 -0.0011241 0.001041 0.004442
-0.0021548 0.00051734 0.00046507 0.0023496 -0.00056259 -0.00015982 -0.1389 0.23949
-0.018662 0.017952 -0.0063871 -0.0087194
0.0037588 0.0055008 0.0032591 0.00088994 0.0020621 -0.0011343 -0.018664 0.017985
-0.17082 0.15251 -0.026316 0.016906
-0.0045143 -0.0032919 0.0029733 0.00022186 0.0010526 0.0044372 -0.0064417 -0.008651
-0.026299 0.016852 -0.19549 0.18585
920000000 -0.10767 0.2611 0.0038364 0.039042 -0.0093029 -0.0048794 -0.0020634 0.0017819
0.0011521 0.0021426 0.0030897 -0.0015396
0.003892 0.038938 -0.26937 0.29935 0.027767 0.023468 0.0013794 0.0011615
0.0078493 0.0005228 0.0048064 -0.0028714
-0.0093007 -0.0048791 0.027863 0.023406 0.058904 0.31074 0.0018835 6.4697e-05
0.0010541 9.0881e-05 0.0011493 -0.0013715
-0.0020406 0.0017753 0.0013582 0.0011558 0.001885 6.5752e-05 -0.11514 0.25694
-0.012058 0.030351 0.0037572 -0.0065541
0.0011381 0.0021441 0.0078582 0.00046772 0.0010542 8.4425e-05 -0.012005 0.030379
-0.15812 0.15787 -0.0011863 0.026622
0.0032489 -0.0015283 0.0046992 -0.0028872 0.0011509 -0.0013525 0.0037698 -0.0065409
-0.0011854 0.026584 -0.2024 0.19988
980000000 -0.061228 0.28198 0.01621 0.030834 -0.0094954 0.004324 0.0019307 0.0038834
0.0039602 -0.0013902 -0.0031371 -0.002436
0.016187 0.030816 -0.21673 0.33527 0.03315 0.0060854 0.0021222 -0.00017341
0.0014693 -0.0060247 -0.0001225 -0.0026303
-0.0094924 0.0043637 0.033232 0.0059684 0.10479 0.30528 0.00077642 -0.0011971
0.00045255 -0.0018465 0.001489 -0.00024263
0.0018954 0.0038566 0.0020546 -0.00020598 0.00078296 -0.0012 -0.07687 0.26831
0.0064893 0.029748 -0.0092559 -0.0068979
0.0039748 -0.0014221 0.0014481 -0.0060425 0.00044031 -0.0018405 0.0065397 0.029764
-0.1264 0.18961 0.0052321 0.019947
-0.0031939 -0.0024176 -0.00016369 -0.0026528 0.0014812 -0.00023749 -0.0092631 -0.0068875
0.0052303 0.019944 -0.16043 0.24561
1040000000 -0.020151 0.29124 0.032964 0.01994 -0.0014983 0.0072426 0.002855 0.00076562
0.00059865 -0.0032825 4.7419e-05 -0.001761
0.032943 0.01997 -0.1816 0.34916 0.030234 -0.013896 0.0016397 -0.0016862
-0.0022095 -0.0024742 -0.00098035 -0.0033132
-0.001486 0.0072248 0.030228 -0.014052 0.15057 0.29281 -0.00042908 -0.0016215
-0.0014574 -0.00092469 -0.0005148 -0.0012406
0.0029226 0.00078348 0.0016275 -0.0016876 -0.00042123 -0.001621 -0.050069 0.2782
0.018736 0.019081 -0.0027402 0.0012439
0.00056626 -0.0033785 -0.0021982 -0.002476 -0.0014708 -0.00094481 0.018791 0.019035
-0.093729 0.19708 0.013818 0.018449
0.00018446 -0.0018891 -0.0010371 -0.0033037 -0.00051362 -0.0012518 -0.0027505 0.0012804
0.013812 0.018456 -0.13927 0.26639
1100000000 0.024747 0.30141 0.0368 -0.0024387 0.0031302 0.0042889 0.0024795 -0.0010332
-0.0024159 -0.0029565 -0.0040949 -7.3807e-05
0.036773 -0.0024212 -0.13831 0.36842 0.016353 -0.027541 -4.4528e-06 -0.0017816
-0.0038041 -0.00085826 -0.0036035 -0.00047745
0.0031544 0.0043041 0.016278 -0.027642 0.19665 0.27393 -0.0019431 0.00011574
-0.0017487 0.00051768 -0.0011393 -0.0005871
0.0024349 -0.0010526 -2.2026e-05 -0.0018006 -0.0019417 0.00011627 -0.0098751 0.28391
0.024269 0.0063194 -0.0024608 0.00023958
-0.0024239 -0.002963 -0.0038072 -0.00082926 -0.0017482 0.00051418 0.024292 0.0062974
-0.074188 0.2107 0.019384 0.0093329
-0.0041905 -5.5559e-05 -0.0036797 -0.00044066 -0.0011453 -0.00058758 -0.0024324 0.00021841
0.019363 0.0093365 -0.093439 0.29662
1160000000 0.075754 0.29784 0.025409 -0.019878 0.0032106 -0.00050305 -0.00019664 -0.0025781
-0.0040054 -0.00095062 -0.0013437 0.0039093
0.025415 -0.01984 -0.094802 0.37331 -0.0027173 -0.029347 -0.0016207 -0.0018033
-0.0026528 0.0022844 -0.0015876 0.0017525
0.0031784 -0.00052862 -0.0028425 -0.029376 0.24004 0.24445 -0.0008607 0.0017321
-0.00074365 0.001851 -0.0010864 0.00031044
-0.00012246 -0.0025979 -0.0016097 -0.0017774 -0.00085527 0.0017269 0.029281 0.28181
0.021363 -0.009319 -0.0033035 0.0052285
-0.004091 -0.00097919 -0.0026177 0.0023026 -0.00072443 0.001833 0.021375 -0.0093539
-0.038865 0.21898 0.018866 0.00038921
-0.0012042 0.0040627 -0.0016203 0.0016859 -0.0011058 0.00031706 -0.0033228 0.0051886
0.018893 0.00034671 -0.046059 0.3001
1220000000 0.11972 0.28879 0.012253 -0.030064 -0.001265 -0.0012765 5.6859e-06 -0.00090754
-0.0028657 0.0022493 0.0010975 0.0021267
0.012323 -0.030007 -0.05064 0.38727 -0.016503 -0.021924 -0.0025218 0.00044651
-4.9837e-05 0.0029592 -0.00080998 0.0018623
-0.0012609 -0.0012838 -0.016615 -0.021892 0.27961 0.20657 0.00068139 0.0017583
0.00049136 0.0012443 7.9126e-05 0.00067855
-5.5746e-05 -0.00089799 -0.0025972 0.00048548 0.00067262 0.0017592 0.06923 0.27392
0.011242 -0.016387 0.0023962 0.0015072
-0.0028435 0.0022111 -1.8369e-05 0.0029618 0.00050246 0.0012565 0.011221 -0.0164
-0.015894 0.22895 0.014556 -0.012702
0.0011057 0.0021012 -0.00078653 0.0018504 8.7577e-05 0.00068158 0.00244 0.0015238
0.014533 -0.01269 -0.015608 0.31692
1280000000 0.17004 0.26895 -0.0065474 -0.029365 -0.0019374 0.0020443 -0.0009856 -0.0020806
-0.00078329 0.0032187 0.0024873 0.0012921
-0.006554 -0.029302 -0.0042563 0.37936 -0.023897 -0.0090337 -0.00099403 0.0014606
0.0016023 0.0017326 0.00057136 0.0020964
-0.0019402 0.0020385 -0.023975 -0.0089181 0.31101 0.16348 0.0015421 1.744e-05
0.001092 0.00032877 0.00031708 0.00029786
-0.00097584 -0.0021096 -0.00096056 0.0014238 0.0015397 2.5315e-05 0.10627 0.25827
0.0019403 -0.01878 0.00019259 -2.2693e-05
-0.00075949 0.003253 0.001637 0.0017353 0.001097 0.00033136 0.0018898 -0.018793
0.020678 0.23276 0.0037808 -0.015299
0.002506 0.0013656 0.00057643 0.0020617 0.0003239 0.00029517 0.00020456 -3.2047e-05
0.0037865 -0.015303 0.031868 0.32011
1340000000 0.20749 0.23689 -0.016846 -0.020231 0.00050901 0.0043739 -0.0017877 -0.00078271
0.0015026 0.002729 0.0017372 -0.0013911
-0.016829 -0.020253 0.035305 0.37234 -0.021675 0.0039333 -0.00019993 0.0019543
0.0019284 0.00083383 0.0010518 0.00080262
0.00052464 0.0043715 -0.021697 0.0040291 0.33377 0.1166 0.00099544 -0.00089722
0.00063808 -0.00045267 0.00014241 0.00025457
-0.0018422 -0.0007696 -0.00016363 0.0019734 0.00099267 -0.000887 0.1398 0.23835
-0.0075774 -0.016543 0.001058 0.00035789
0.0015077 0.0027947 0.0019167 0.00080731 0.00064017 -0.00046337 -0.0075883 -0.016566
0.050436 0.22857 -0.0032275 -0.014098
0.0018114 -0.001452 0.0010674 0.00080101 0.00012459 0.00026128 0.0010651 0.00035824
-0.0032386 -0.014128 0.069851 0.31544
1400000000 0.24201 0.2004 -0.023506 -0.0087113 0.0049486 0.003313 -0.0022426 0.00070782
0.0025589 0.00097859 0.00031142 -0.0016311
-0.023457 -0.0087317 0.073625 0.36027 -0.015072 0.012318 0.0012574 0.0013448
0.0012583 -0.00068793 0.0012016 0.00018985
0.0049542 0.0033052 -0.015014 0.012403 0.34763 0.063205 0.0001364 -0.0015294
0.00016925 -0.000377 0.00035587 0.00023357
-0.0022491 0.00070601 0.0012304 0.0013667 0.0001375 -0.0015283 0.16982 0.20973
-0.013857 -0.010152 -0.00084847 -0.00046385
0.0025647 0.0009849 0.0012554 -0.00069444 0.00016637 -0.00037446 -0.013878 -0.010111
0.083893 0.22512 -0.0098034 -0.0091505
0.00031493 -0.0015989 0.001176 0.00022139 0.00036553 0.00024446 -0.00083766 -0.00046376
-0.0097977 -0.0091559 0.11496 0.30565
1460000000 0.26575 0.15753 -0.020984 0.0038253 0.0054826 -0.0017142 -0.0014786 0.0017296
0.0021798 -0.0003607 -0.00020675 -0.0010513
-0.021007 0.0037874 0.10845 0.3387 -0.0061127 0.015421 0.0016405 0.00025162
0.00099357 -0.0012285 0.0012989 -0.00054001
0.0054993 -0.0017391 -0.0060341 0.01546 0.35457 0.0090993 -0.0010993 -0.0011994
0.00023594 -0.00014234 0.00086722 -0.00021845
-0.0014752 0.0017458 0.0016559 0.00022714 -0.0010806 -0.0011953 0.19699 0.18066
-0.015143 -0.0037415 -0.0010855 0.0017802
0.002147 -0.00041903 0.00098907 -0.0012523 0.00022537 -0.0001425 -0.015158 -0.0037046
0.1136 0.21155 -0.011993 -0.003394
-0.00022733 -0.0010896 0.0012574 -0.00057157 0.00084794 -0.00022109 -0.0010898 0.0017893
-0.012012 -0.003423 0.14821 0.28549
1520000000 0.27935 0.11639 -0.015627 0.0097203 0.0033315 -0.0041391 0.00013608 0.0026182
0.0021407 -0.0018579 -0.0011554 -6.8828e-05
-0.015614 0.0096913 0.14255 0.32474 0.0017267 0.013016 0.0016978 -0.00069867
0.00012431 -0.0010754 0.00036606 -0.0010802
0.0033132 -0.0041532 0.0018034 0.013029 0.34788 -0.046775 -0.00092616 -0.00039778
0.00071334 -0.00090462 9.3742e-05 -0.00020077
0.0001214 0.0026176 0.0016958 -0.00068895 -0.0009258 -0.00041406 0.22084 0.14254
-0.014992 0.0019876 0.0013745 0.0021266
0.0021293 -0.0018747 0.00012904 -0.0010729 0.0007114 -0.00090463 -0.014997 0.0020195
0.14195 0.19902 -0.011959 0.0012917
-0.0011624 -5.7581e-05 0.00037609 -0.0011035 9.6068e-05 -0.00021046 0.001394 0.0021377
-0.011964 0.0012805 0.18139 0.26578
1580000000 0.29012 0.070683 -0.009015 0.013421 -0.00097998 -0.0048977 0.0014778 0.0018188
-0.00016047 -0.0022397 -0.00035701 0.00036829
-0.0090187 0.013424 0.17053 0.30001 0.0053926 0.0079398 0.00061121 -0.0015525
-0.00044023 -0.001176 -0.00017886 -0.00089736
-0.0010207 -0.0048887 0.0054562 0.0079287 0.32848 -0.10458 -0.0015578 0.00039391
-0.00029003 -0.0013504 0.00032315 -0.00063644
0.0015107 0.0017988 0.00061377 -0.0015726 -0.0015583 0.00040138 0.23542 0.10285
-0.011814 0.0071017 0.0020488 0.00078624
-0.0001872 -0.0022558 -0.00045068 -0.0011718 -0.0002883 -0.001346 -0.011798 0.0071361
0.16661 0.18189 -0.0095801 0.0071304
-0.00030817 0.00038382 -0.00019097 -0.00087947 0.00031891 -0.00065842 0.0020783 0.00077395
-0.0095794 0.0071159 0.21426 0.23957
1640000000 0.29338 0.029565 -0.0020585 0.012567 -0.0029678 -0.0026042 0.0026805 0.0011074
-0.00077527 -0.0016138 -0.00040839 0.0006102
-0.0020598 0.012557 0.20023 0.27549 0.0058086 0.0029837 -0.0005241 -0.0018581
-0.0010244 -0.00053271 -0.00051799 -0.00073405
-0.0030091 -0.0025967 0.0058301 0.0029584 0.30012 -0.15335 -0.00086364 0.0013272
-0.0010443 -0.0011069 -0.00026205 -0.000478
0.0026733 0.0010985 -0.00052628 -0.0018471 -0.00086015 0.0013264 0.2483 0.053617
-0.0077037 0.008603 0.0024536 -0.00069268
-0.00081669 -0.0016237 -0.0010233 -0.00052805 -0.0010471 -0.0010987 -0.0076926 0.008627
0.19019 0.15881 -0.0049183 0.0092939
-0.00041699 0.00062589 -0.00053642 -0.00074177 -0.00026061 -0.00047093 0.0024434 -0.00070703
-0.0049083 0.0092745 0.24018 0.20905
1700000000 0.28756 -0.015879 0.0016491 0.010024 -0.003648 0.0003003 0.0031607 -0.0011329
-0.0020548 -0.00065658 0.00055419 0.0004209
0.0016237 0.010018 0.21901 0.24406 0.0034488 1.5134e-05 -0.0014479 -0.00074211
-0.00091601 -9.3591e-05 -0.00091216 -0.00047275
-0.0036482 0.00033417 0.0034481 3.0419e-06 0.25763 -0.19316 0.00021856 0.0016643
-0.0021094 -0.00017178 -0.00053678 -0.0007416
0.0031727 -0.0011454 -0.001455 -0.00072028 0.00021691 0.0016635 0.24536 0.0031942
-0.004851 0.0095211 0.0016147 -0.0021282
-0.0020052 -0.00064503 -0.00091508 -7.3673e-05 -0.0021089 -0.00016242 -0.0048287 0.0095353
0.20846 0.1394 -0.00025194 0.009775
0.00054661 0.00040189 -0.00091239 -0.0004536 -0.00055901 -0.00074478 0.0015995 -0.0021301
-0.00025609 0.0097682 0.25738 0.17506
1760000000 0.27633 -0.064933 0.0043195 0.0067483 -0.0021577 0.0012123 0.0013705 -0.0034018
-0.0013978 0.00054905 0.00033738 -0.00051543
0.0043159 0.0067571 0.24508 0.20442 0.000999 -0.0015605 -0.0013343 5.151e-05
-0.0012146 0.00096323 -0.00058958 0.00040021
-0.0021418 0.0012304 0.00099193 -0.0015596 0.20962 -0.22638 0.0010668 0.0012515
-0.0012986 0.0015107 -0.0012061 -0.00065078
0.0013413 -0.0033967 -0.0013534 5.4018e-05 0.0010647 0.0012585 0.23611 -0.048989
-0.0013853 0.0087889 -0.00038323 -0.0023793
-0.0014015 0.00056418 -0.0012154 0.00097688 -0.0012962 0.0015013 -0.0013707 0.0087778
0.22411 0.1054 0.0036889 0.007304
0.00040282 -0.00052137 -0.00060124 0.00040537 -0.0012298 -0.00065253 -0.00037063 -0.0023853
0.0037127 0.0073122 0.27082 0.13788
1820000000 0.25271 -0.10259 0.0046766 0.0031247 0.0001127 0.0025659 -0.00086825 -0.0031674
-0.0011408 0.00090995 -4.9013e-05 -0.00011274
0.0046647 0.0031142 0.25564 0.17467 -0.0012547 -9.8049e-06 -0.0014723 0.0009872
-5.0971e-05 0.0013684 -0.0006541 0.00057291
0.00013716 0.0025659 -0.0012574 -1.374e-05 0.15919 -0.24201 0.0016455 0.00054896
-0.00027761 0.0024539 -0.0016409 0.0003947
-0.00090085 -0.003184 -0.0014427 0.0010037 0.0016494 0.00054274 0.20591 -0.096419
0.00032026 0.0074396 -0.0017227 -0.0015654
-0.0011561 0.00093946 -4.7005e-05 0.0013591 -0.00026335 0.0024641 0.00032787 0.0074589
0.24223 0.077147 0.0047006 0.0037487
-2.2559e-05 -0.00014469 -0.00064749 0.00058479 -0.0016163 0.00037324 -0.0017652 -0.0015856
0.0046805 0.0037196 0.27355 0.1019
1880000000 0.2179 -0.14364 0.0025706 0.00073302 -0.00030624 0.0021883 -0.0028704 -0.0023223
-0.00024324 0.0017974 0.00024862 -0.00056952
0.0025209 0.00072486 0.26011 0.12813 -0.0031718 0.0022422 -0.0002859 0.0018651
0.00067372 0.001466 0.00016672 0.0010783
-0.00030831 0.002174 -0.0031516 0.0022614 0.10731 -0.25125 0.0020028 -0.00094994
0.0016872 0.0021225 -0.000891 0.0016169
-0.002843 -0.0023103 -0.00026587 0.0018691 0.0020014 -0.00094977 0.16477 -0.13669
0.0012988 0.0053996 -0.0023774 0.00038392
-0.00019497 0.001793 0.00069859 0.0014531 0.0016868 0.00213 0.0013078 0.0053835
0.24717 0.046003 0.0049626 0.001623
0.00027418 -0.00050096 0.00015789 0.0010719 -0.00088272 0.0016239 -0.0023493 0.00045227
0.0049558 0.001648 0.27396 0.06813
1940000000 0.17853 -0.16977 0.00031481 -0.0011001 0.0015631 0.0019574 -0.0037987 0.00026244
0.001305 0.0010951 -0.00078373 -0.00054583
0.00032434 -0.0011242 0.26105 0.096851 -0.0015796 0.0048553 0.0010875 0.0013372
0.002048 0.00046814 0.00090343 0.00028662
0.0016107 0.0019373 -0.0015528 0.004869 0.062615 -0.24421 0.00049379 -0.0026589
0.0025093 0.00034341 0.00026283 0.0017671
-0.00378 0.00027723 0.0011297 0.001359 0.00050772 -0.002655 0.11235 -0.1669
0.00050738 0.0038978 -0.0013634 0.0016479
0.0013373 0.0011349 0.0020473 0.00045445 0.0024952 0.0003434 0.0005017 0.0039129
0.2509 0.007912 0.0039091 -0.0016996
-0.00078084 -0.00053582 0.000897 0.00025761 0.0002794 0.0017553 -0.0014056 0.0015829
0.003923 -0.0017113 0.26323 0.031989
2000000000 0.13271 -0.18489 -0.0034151 0.00088104 0.0029172 0.0014232 -0.0023881 0.0035069
0.001301 0.0003504 -0.00068653 0.00058016
-0.0034069 0.0008648 0.2474 0.061626 -0.00077068 0.0068912 0.0017709 0.00033386
0.0013612 -0.0013968 0.00047575 -5.38e-05
0.0029261 0.0014201 -0.00072484 0.0069053 0.019345 -0.23032 -0.0014097 -0.0017287
0.002172 -0.0012754 0.0015496 0.0012238
-0.002304 0.0035344 0.0017332 0.00031677 -0.001422 -0.0017214 0.05869 -0.17642
-0.00095924 0.0038845 0.00018534 0.0022564
0.0013416 0.00029103 0.0013469 -0.001426 0.0021747 -0.0012892 -0.00094916 0.0038896
0.24685 -0.025031 0.00097147 -0.002617
