!Keysight Technologies,M9804A,MY58100912,A.14.10.03
!Date: Thursday, April 27, 2023 10:28:33
!Correction: S11(C  6-Port  ) 
!S12(C  6-Port  ) 
!S13(C  6-Port  ) 
!S14(C  6-Port  ) 
!S15(C  6-Port  ) 
!S16(C  6-Port  ) 
!S21(C  6-Port  ) 
!S22(C  6-Port  ) 
!S23(C  6-Port  ) 
!S24(C  6-Port  ) 
!S25(C  6-Port  ) 
!S26(C  6-Port  ) 
!S31(C  6-Port  ) 
!S32(C  6-Port  ) 
!S33(C  6-Port  ) 
!S34(C  6-Port  ) 
!S35(C  6-Port  ) 
!S36(C  6-Port  ) 
!S41(C  6-Port  ) 
!S42(C  6-Port  ) 
!S43(C  6-Port  ) 
!S44(C  6-Port  ) 
!S45(C  6-Port  ) 
!S46(C  6-Port  ) 
!S51(C  6-Port  ) 
!S52(C  6-Port  ) 
!S53(C  6-Port  ) 
!S54(C  6-Port  ) 
!S55(C  6-Port  ) 
!S56(C  6-Port  ) 
!S61(C  6-Port  ) 
!S62(C  6-Port  ) 
!S63(C  6-Port  ) 
!S64(C  6-Port  ) 
!S65(C  6-Port  ) 
!S66(C  6-Port  ) 
!S6P File: Measurement: :
# Hz S  RI   R 50
500000000 -0.33126 -0.066018 -0.0096047 -0.00059435 -0.008446 0.013097 -0.0038813 0.012481
0.012676 0.0053784 -0.0039535 0.0070979
-0.0095831 -0.00054955 -0.41187 -0.074255 0.0088745 -0.01096 0.00096765 0.012799
0.0080232 0.0025746 0.001621 0.013847
-0.0083679 0.013173 0.0088622 -0.010982 -0.26572 0.18991 0.0068808 0.0038396
-0.0023647 0.0082334 3.5717e-06 0.012668
-0.003852 0.012431 0.0011359 0.01289 0.006904 0.0039164 -0.33082 0.037074
-0.018012 -0.0046637 0.0171 0.024967
0.012691 0.0051154 0.0080719 0.0023719 -0.002494 0.0083718 -0.017943 -0.0041288
-0.23661 -0.21431 -0.025253 0.0043655
-0.0040205 0.0083141 0.0010539 0.014422 7.2091e-05 0.012375 0.016466 0.026443
-0.026054 0.0041609 -0.2638 -0.14374
560000000 -0.31986 0.10219 -0.021444 -0.06758 4.8873e-05 0.013679 0.0044477 0.012175
0.010187 0.0041902 0.010898 0.0086898
-0.021479 -0.06737 -0.37285 0.09087 -0.041754 -0.039328 0.014346 0.0031756
-0.013458 -0.0044402 0.005739 -0.00049794
-1.9566e-05 0.013634 -0.041958 -0.039309 -0.18758 0.24234 -0.00051046 -0.004606
0.018503 0.0053885 0.0074481 -0.0054101
0.0045523 0.012187 0.014401 0.0032494 -0.00054992 -0.0046303 -0.30639 0.12867
0.0053452 -0.022706 0.0063329 -0.021511
0.010744 0.0042049 -0.013005 -0.0045293 0.018421 0.0055259 0.0056812 -0.023088
-0.30763 -0.031158 0.0093912 -0.048906
0.010869 0.0089053 0.00401 -0.0019804 0.0075458 -0.0052842 0.0061357 -0.021823
0.009359 -0.048371 -0.33038 0.010089
620000000 -0.27933 0.082796 -0.023273 0.0087918 0.0036087 0.0097469 0.0083795 -0.0041275
0.012295 -0.0016915 -0.00088404 -0.0013729
-0.023265 0.008796 -0.40241 0.037814 -0.018634 -2.8939e-06 -0.0017167 -0.0022786
0.012036 -0.005914 0.00091761 -0.0028247
0.0036836 0.0097321 -0.018656 4.5348e-05 -0.15775 0.25291 -0.0006082 -0.00497
-0.0037172 -0.0031244 0.0098764 -0.0026561
0.0083361 -0.0041417 -0.001772 -0.002212 -0.0006139 -0.0050902 -0.26494 0.14111
-0.038938 -0.019675 0.014919 0.027208
0.011998 -0.0016434 0.012281 -0.005731 -0.0039571 -0.0030182 -0.038314 -0.020942
-0.22596 -0.067653 -0.044806 0.012379
0.00063231 -0.0006554 0.00083381 -0.0031718 0.010214 -0.0025965 0.013698 0.029039
-0.043988 0.012617 -0.24572 -0.026723
680000000 -0.24317 0.17523 -0.026232 -0.015462 0.0048665 0.0056604 0.0012325 -0.0073056
-0.0015022 -0.011297 0.0070244 -0.0074819
-0.026193 -0.015489 -0.3913 0.13943 -0.032955 -0.0028516 -0.0019986 -0.00037936
-0.0013594 -0.0093521 -0.00092679 -0.0020448
0.0048842 0.0056447 -0.033001 -0.0027562 -0.10809 0.27517 -0.001042 -7.8832e-05
-0.0015056 0.00042111 -0.0032394 -0.0096844
0.0011751 -0.0072749 -0.0020062 -0.00034695 -0.001023 -7.5317e-05 -0.22121 0.19151
-0.023107 -0.0077987 -0.0088829 -0.010653
-0.0012898 -0.011263 -0.001333 -0.0092106 -0.0015462 0.00050826 -0.022882 -0.0078782
-0.28141 0.037168 -0.0061726 -0.0072494
0.0064848 -0.0072168 -0.00074501 -0.001901 -0.0030852 -0.0094139 -0.009852 -0.011285
-0.0063686 -0.0069924 -0.25938 0.078722
740000000 -0.19667 0.16895 -0.040855 0.026262 0.014177 -0.0042349 0.00010247 -0.003989
-0.0041152 -0.0034826 -0.0069995 0.0031595
-0.040837 0.026257 -0.33793 0.15933 -0.038647 0.034688 0.00013883 -0.0061492
-0.012781 0.0075519 -0.00096444 -0.0055426
0.014142 -0.0042963 -0.038582 0.03483 -0.074418 0.27311 -0.0016588 0.0032314
-0.0021841 -0.0057392 -0.0019431 0.00084995
6.3379e-05 -0.0040435 0.00012238 -0.0061868 -0.0016972 0.0032585 -0.20535 0.19996
-0.042789 -0.010318 0.022415 0.017072
-0.0040348 -0.0038556 -0.012787 0.007132 -0.0021472 -0.0059612 -0.042845 -0.010062
-0.18235 0.068535 -0.04314 -0.00082014
-0.0068557 0.0030884 -0.0014349 -0.0061227 -0.0016969 0.001037 0.023065 0.016526
-0.043375 -0.00069879 -0.25375 0.086778
800000000 -0.16592 0.21388 -0.022684 0.015713 0.0060505 -0.010636 -0.0044741 -0.002647
-0.0046695 0.0018754 0.00455 0.00021908
-0.022689 0.015675 -0.34518 0.2302 -0.0094503 0.034359 -0.0020185 0.0020806
-0.00080971 0.0025246 0.00086973 0.0054093
0.0059962 -0.010683 -0.0093851 0.034437 -0.035874 0.29875 0.00090511 0.0013224
0.00020843 0.0032952 -0.0019122 0.00076939
-0.0044488 -0.0027226 -0.001974 0.0020428 0.000933 0.0013218 -0.17672 0.22695
-0.0287 0.012565 0.014231 -0.010636
-0.0045484 0.0018719 -0.00063638 0.0025109 0.00024868 0.0032997 -0.028741 0.012519
-0.22772 0.092923 -0.017461 0.02046
0.0049643 -0.00010972 0.001247 0.0054384 -0.0017448 0.00086808 0.014194 -0.010556
-0.017697 0.020451 -0.24786 0.1347
860000000 -0.13257 0.23522 -0.01903 0.03056 -0.0030405 -0.010434 -0.0018441 0.00031242
0.0042612 0.005646 -0.0041824 -0.0029662
-0.01901 0.030554 -0.29883 0.27471 0.0066353 0.035254 -1.9148e-05 0.0022623
0.0035401 0.00088991 0.0029801 0.00019707
-0.0030725 -0.010438 0.0067439 0.035279 0.011197 0.30836 -0.00068782 -0.00033069
0.0021738 -0.0012573 0.0014594 0.0045866
-0.0018844 0.00031513 1.7995e-05 0.0022938 -0.00069744 -0.00032697 -0.13996 0.23865
-0.018896 0.018046 -0.0064499 -0.0089318
0.0038468 0.0054841 0.0034862 0.00072854 0.0020558 -0.00129 -0.019023 0.018025
-0.17221 0.14837 -0.026866 0.017159
-0.0042126 -0.0029874 0.0027405 0.00028793 0.0013779 0.0043957 -0.0061835 -0.009069
-0.026974 0.016974 -0.19801 0.18262
920000000 -0.10989 0.25898 0.003869 0.039149 -0.0094849 -0.0052624 -0.0021189 0.0017175
0.00090203 0.0020217 0.002683 -0.0015571
0.0038689 0.039133 -0.2715 0.29709 0.028117 0.023822 0.0013925 0.0011349
0.0076634 0.00056289 0.004727 -0.0029495
-0.0095063 -0.0052192 0.028223 0.023774 0.057179 0.31083 0.0018291 3.3466e-05
0.00095293 4.6537e-05 0.00099847 -0.0015498
-0.0021136 0.0017295 0.0013872 0.0011166 0.0018303 4.3531e-05 -0.11661 0.25596
-0.01217 0.030959 0.0038219 -0.0067358
0.00080999 0.0019698 0.0076824 0.00024207 0.0010243 2.192e-05 -0.012042 0.031094
-0.16207 0.15472 -0.00093099 0.027512
0.0029351 -0.001482 0.0046967 -0.0027744 0.0010796 -0.0014308 0.0039571 -0.0070787
-0.0013101 0.027378 -0.20587 0.19543
980000000 -0.063299 0.28035 0.016318 0.031081 -0.0097905 0.0043723 0.0017997 0.0036262
0.0040279 -0.0016791 -0.0033124 -0.0027382
0.016279 0.031081 -0.21899 0.33321 0.033764 0.0061934 0.0019864 -0.00023598
0.0017646 -0.0064403 -0.00036568 -0.0028099
-0.0097783 0.0043998 0.033813 0.006089 0.10332 0.30538 0.00077889 -0.0011551
0.00058913 -0.0019598 0.001498 -0.00033844
0.0017703 0.0036682 0.0019744 -0.00024099 0.00076628 -0.0011465 -0.078025 0.26743
0.0067286 0.030539 -0.0095811 -0.0075618
0.0040903 -0.0016942 0.0017738 -0.0063854 0.00048582 -0.001894 0.0067379 0.030381
-0.13026 0.18563 0.0049281 0.020255
-0.003359 -0.0025454 -0.00043541 -0.0026995 0.0015086 -0.00028195 -0.0096862 -0.0074159
0.0047584 0.020597 -0.16462 0.24278
1040000000 -0.023247 0.29012 0.03314 0.020361 -0.0016738 0.0075028 0.0027769 0.00093382
0.00056261 -0.0033661 2.2424e-05 -0.001663
0.033139 0.02038 -0.18457 0.34787 0.030793 -0.014254 0.001559 -0.0016245
-0.0022453 -0.0026704 -0.0012052 -0.0033789
-0.0016393 0.0075011 0.030764 -0.014368 0.14931 0.29347 -0.00050667 -0.0016233
-0.0015434 -0.0010516 -0.00058113 -0.0011367
0.0027744 0.00086375 0.0016112 -0.001635 -0.00050298 -0.0016335 -0.051436 0.27807
0.019137 0.019565 -0.0027372 0.0010318
0.00029138 -0.0033873 -0.0025043 -0.0026522 -0.0016107 -0.001047 0.019083 0.019604
-0.097025 0.19343 0.014061 0.019465
0.00016238 -0.0018322 -0.0011412 -0.0031773 -0.0005868 -0.0011728 -0.0026524 0.0011056
0.013807 0.019146 -0.14382 0.26352
1100000000 0.022145 0.30061 0.037333 -0.0023937 0.0032006 0.0044897 0.0024555 -0.0011808
-0.0024141 -0.0029751 -0.0040657 -0.00022197
0.0373 -0.002365 -0.14073 0.36752 0.016553 -0.028175 -1.8046e-05 -0.0018551
-0.0037849 -0.00064299 -0.0036704 -0.0004813
0.0032221 0.0044731 0.016464 -0.028272 0.19617 0.27444 -0.0019895 0.00016854
-0.001839 0.00050377 -0.001186 -0.0005207
0.0024564 -0.0011738 -4.6511e-06 -0.0018523 -0.0019878 0.00016366 -0.011015 0.28375
0.025121 0.0060335 -0.0025671 0.0001071
-0.0022556 -0.0028537 -0.0037049 -0.00064248 -0.0017946 0.00048559 0.025161 0.006062
-0.077847 0.20835 0.019603 0.0097144
-0.0042271 -5.6196e-05 -0.0036915 -0.00040338 -0.0012038 -0.00058483 -0.0026289 0.00012656
0.019753 0.0097558 -0.096992 0.29575
1160000000 0.07259 0.29768 0.025799 -0.02014 0.0033619 -0.00040867 -0.00023055 -0.0023823
-0.0040071 -0.00094763 -0.0012549 0.0043479
0.025816 -0.020099 -0.09749 0.37282 -0.0030021 -0.029877 -0.0015799 -0.0017143
-0.0026314 0.0024212 -0.0014107 0.0017851
0.0033729 -0.00041704 -0.0031425 -0.029902 0.23955 0.24458 -0.00078552 0.0018526
-0.00060211 0.0018995 -0.00119 0.00032847
-0.00020129 -0.0024053 -0.0015943 -0.001671 -0.00077776 0.001853 0.028004 0.28154
0.021948 -0.010188 -0.0036072 0.0053315
-0.0040593 -0.00090918 -0.0027133 0.0024708 -0.00064158 0.0019366 0.021825 -0.010177
-0.043808 0.21722 0.019344 0.00039282
-0.0012059 0.0041532 -0.0015065 0.001783 -0.001157 0.00032868 -0.0037072 0.0053961
0.019359 0.0003493 -0.050689 0.29922
1220000000 0.11675 0.28943 0.012438 -0.030658 -0.0011844 -0.0013494 -4.0093e-05 -0.00094702
-0.0029183 0.0022052 0.0010141 0.0019535
0.012438 -0.03062 -0.052746 0.38751 -0.017037 -0.022251 -0.0026467 0.00052758
-2.3641e-05 0.0030796 -0.00082478 0.0019198
-0.0011991 -0.001329 -0.017166 -0.022206 0.27922 0.2066 0.00072307 0.0018067
0.00050859 0.0012402 0.00017225 0.00077641
-5.2851e-05 -0.00093102 -0.0026584 0.00053875 0.00073001 0.0018125 0.068631 0.27398
0.01119 -0.017138 0.0021909 0.0014864
-0.0029014 0.0022196 2.6982e-05 0.003074 0.00045444 0.0012168 0.011202 -0.017153
-0.020536 0.22816 0.015109 -0.013161
0.0011271 0.0021656 -0.00074988 0.0019661 0.00020842 0.0008497 0.0023147 0.0014632
0.015025 -0.012929 -0.019818 0.3167
1280000000 0.16755 0.26979 -0.0068061 -0.029877 -0.0020012 0.0020131 -0.00094458 -0.0019988
-0.00080588 0.0033866 0.0027092 0.0013918
-0.00679 -0.029857 -0.0058178 0.37938 -0.024544 -0.0088754 -0.00086815 0.0015452
0.0018098 0.0017082 0.00079341 0.0021196
-0.0019975 0.002023 -0.024628 -0.0087705 0.31027 0.16301 0.0016043 -6.5989e-05
0.0011872 0.00025564 0.00041651 0.00037213
-0.00094217 -0.002015 -0.00086246 0.0015437 0.0016104 -5.2681e-05 0.10564 0.25787
0.0011205 -0.019511 0.00011907 0.00028659
-0.00082599 0.0034028 0.0016935 0.0017623 0.0012225 0.00030011 0.001088 -0.019628
0.016581 0.23231 0.0036502 -0.015622
0.0026163 0.0012959 0.0007203 0.0021546 0.00034677 0.00036236 0.00011894 0.00032421
0.0036266 -0.01564 0.02823 0.31965
1340000000 0.20519 0.23834 -0.017331 -0.020431 0.00042194 0.0044341 -0.0019063 -0.00087472
0.0014431 0.0028199 0.0018574 -0.0014106
-0.017314 -0.020435 0.033671 0.3724 -0.021983 0.0043875 -0.0001306 0.0020287
0.0019349 0.000737 0.0011652 0.00085361
0.00043226 0.004428 -0.021991 0.0045039 0.33245 0.11642 0.0009587 -0.00095937
0.00065713 -0.00057068 5.034e-05 0.00025824
-0.0019222 -0.00087118 -0.000112 0.0020169 0.00096094 -0.00097401 0.13892 0.23802
-0.0085219 -0.016959 0.00094463 0.00045535
0.0014413 0.002767 0.0019506 0.00073304 0.00063655 -0.00050775 -0.0085201 -0.016946
0.046527 0.22921 -0.0035432 -0.014691
0.0018998 -0.0013556 0.0012125 0.00084458 6.4542e-05 0.00027521 0.00086976 0.00043103
-0.0035108 -0.014525 0.066001 0.31614
1400000000 0.2405 0.20186 -0.024032 -0.0086175 0.0050494 0.0033989 -0.0022076 0.00071308
0.0027029 0.0009866 0.00034434 -0.0016949
-0.024011 -0.0086267 0.072505 0.35994 -0.015037 0.012895 0.0013402 0.001233
0.0012185 -0.00077752 0.0012188 0.00015281
0.0050646 0.0033676 -0.015004 0.013001 0.34634 0.063463 1.9165e-06 -0.0015215
0.00016013 -0.00038509 0.00036899 0.00027698
-0.0021968 0.00072249 0.0013507 0.0012361 6.1657e-06 -0.0015074 0.1689 0.2094
-0.014838 -0.00982 -0.00091168 -0.0003227
0.0026852 0.0010281 0.0012312 -0.00077688 0.00021659 -0.00041408 -0.0149 -0.009789
0.080724 0.2258 -0.010276 -0.0092627
0.00027612 -0.0017253 0.0012681 0.00015699 0.00045322 0.00021929 -0.00084041 -0.00035503
-0.010177 -0.00919 0.11186 0.3063
1460000000 0.2639 0.15855 -0.021254 0.0042399 0.0056217 -0.0016513 -0.001483 0.0017086
0.0023397 -0.00045452 -0.00021499 -0.00093445
-0.021236 0.0042372 0.10668 0.33801 -0.0056482 0.015822 0.0016536 0.0002537
0.00093373 -0.0012923 0.0013758 -0.00062058
0.0056111 -0.0016791 -0.0055868 0.015861 0.3529 0.0096203 -0.0011352 -0.0011729
0.00024711 -0.00015798 0.00081303 -0.00027887
-0.0014629 0.0017109 0.0016646 0.00024267 -0.0011312 -0.0011832 0.19549 0.1804
-0.015762 -0.0028116 -0.0008054 0.0020012
0.0023254 -0.00054087 0.00094178 -0.0012861 0.00020933 -0.00014307 -0.015801 -0.0027703
0.11036 0.21253 -0.012377 -0.003213
-0.00033016 -0.00093518 0.0013325 -0.0005772 0.00076245 -0.00019801 -0.0009958 0.0019922
-0.012307 -0.0032027 0.14491 0.28603
1520000000 0.27787 0.11802 -0.015612 0.010197 0.0034347 -0.0042446 0.00017999 0.0026649
0.0022726 -0.0020005 -0.0012871 -0.00010243
-0.015605 0.010189 0.14055 0.32444 0.0022406 0.013056 0.0016533 -0.00068767
9.2925e-05 -0.0010573 0.00030378 -0.0010631
0.0034185 -0.0042605 0.0023195 0.013055 0.34683 -0.045387 -0.00091087 -0.00035108
0.00065829 -0.0010396 0.00013759 -0.00028369
0.0001947 0.0026533 0.0016561 -0.00069124 -0.00090641 -0.00033633 0.21938 0.1427
-0.014929 0.0031024 0.001546 0.0020502
0.0022152 -0.0020225 0.00010487 -0.0010338 0.00068557 -0.0010297 -0.014913 0.0031483
0.13918 0.20017 -0.012191 0.0017114
-0.0013016 -0.00014877 0.00031213 -0.0010307 0.00016322 -0.00020475 0.0016178 0.0021124
-0.012229 0.0017222 0.17842 0.2674
1580000000 0.2885 0.071984 -0.0086768 0.013881 -0.0010437 -0.0049527 0.0015086 0.0018229
-0.00024321 -0.0023093 -0.00015607 0.00038272
-0.0086855 0.013875 0.1682 0.29954 0.0057989 0.007675 0.00059563 -0.0015348
-0.00045462 -0.0011156 -0.00015736 -0.00087117
-0.0010768 -0.0049599 0.0058556 0.0076649 0.32787 -0.10346 -0.0015536 0.00042065
-0.00034417 -0.0013341 0.00033336 -0.00063729
0.0015168 0.0018165 0.00060911 -0.0015395 -0.0015521 0.00040269 0.2337 0.10322
-0.011073 0.0079811 0.0021355 0.00077115
-0.00026113 -0.002312 -0.00044459 -0.0011077 -0.00039514 -0.0013257 -0.011074 0.0080352
0.16391 0.18272 -0.0096222 0.0076126
-0.00018501 0.00042021 -0.0001786 -0.00087568 0.00034454 -0.0006388 0.0021359 0.00069141
-0.0096184 0.0076131 0.2114 0.2409
1640000000 0.29155 0.031523 -0.0015523 0.012665 -0.0030628 -0.0025877 0.0027242 0.0011201
-0.00082474 -0.0016165 -0.00047158 0.00061147
-0.0015647 0.012665 0.19727 0.27596 0.0059807 0.0025886 -0.00052693 -0.0018583
-0.000975 -0.00053869 -0.00053841 -0.00064745
-0.0030873 -0.0025806 0.0060051 0.0025628 0.29956 -0.15191 -0.00083761 0.0012662
-0.0011359 -0.0011067 -0.00023757 -0.00049695
0.0027416 0.0011069 -0.00054194 -0.0018617 -0.00083421 0.0012699 0.24642 0.054818
-0.0066438 0.0088345 0.0024893 -0.00087264
-0.0008955 -0.0016019 -0.00096284 -0.00050725 -0.0011368 -0.0010681 -0.0065562 0.0088685
0.1871 0.15997 -0.0045562 0.0097703
-0.00033233 0.0005808 -0.00056363 -0.00062425 -0.00028694 -0.00044342 0.0025777 -0.00077215
-0.0045747 0.0098503 0.23745 0.21129
1700000000 0.2864 -0.013562 0.0021125 0.0097769 -0.0036641 0.00030523 0.0031461 -0.0012045
-0.0020598 -0.00056283 0.00057918 0.00031078
0.0021019 0.0097789 0.21632 0.24498 0.0033695 -0.00032319 -0.0014576 -0.00066442
-0.00079258 -8.7657e-05 -0.00092933 -0.00047368
-0.0036548 0.00032677 0.00337 -0.00034457 0.25758 -0.1919 0.00017542 0.0017002
-0.0021078 -3.7425e-05 -0.00050995 -0.00083932
0.0031549 -0.0012211 -0.0014539 -0.00065474 0.00016195 0.0017004 0.24412 0.0049309
-0.0037667 0.0090609 0.0015377 -0.0022259
-0.0020988 -0.00057903 -0.00083507 -0.00011248 -0.0021073 -2.7101e-05 -0.003818 0.0090956
0.2057 0.14075 0.00030572 0.010064
0.00055512 0.00045248 -0.00091928 -0.00051281 -0.00047752 -0.00092543 0.0014891 -0.0022248
0.00031397 0.0099958 0.25556 0.17741
1760000000 0.2751 -0.062238 0.0044437 0.0062981 -0.0021973 0.0011953 0.0014303 -0.0034435
-0.0012972 0.00071993 0.000311 -0.00058966
0.0044362 0.0063077 0.24225 0.20595 0.00077397 -0.0018411 -0.0013253 6.9135e-05
-0.0011957 0.00090476 -0.00052641 0.00041536
-0.0021989 0.0011902 0.00077251 -0.0018506 0.20965 -0.22525 0.0010818 0.0013078
-0.0011896 0.0015414 -0.0013255 -0.00059616
0.0014326 -0.0034416 -0.0013306 7.3228e-05 0.0010708 0.0012992 0.23536 -0.046904
-0.00089379 0.0079447 -0.00025115 -0.0024187
-0.0012834 0.00071284 -0.0011701 0.00090407 -0.0012091 0.0015557 -0.00080412 0.0078767
0.22088 0.10691 0.004334 0.007404
0.00025174 -0.00061527 -0.00057504 0.00041302 -0.0013315 -0.00060395 -0.00018923 -0.0024787
0.0041915 0.0073722 0.26903 0.14004
1820000000 0.25259 -0.099255 0.0045745 0.0027744 3.8876e-05 0.0025807 -0.00099251 -0.0032553
-0.001067 0.00094483 -8.0011e-05 -0.00016433
0.0045725 0.0027745 0.25349 0.17717 -0.0015866 -0.00011986 -0.0014282 0.00097819
-0.00014107 0.0012792 -0.00058608 0.00058131
3.8958e-05 0.0025891 -0.0015909 -0.00012249 0.1595 -0.2408 0.0018206 0.00062437
-0.00021647 0.0024508 -0.0015899 0.00045888
-0.0010022 -0.003226 -0.0014036 0.00099336 0.0018202 0.00062727 0.20633 -0.093854
0.00042266 0.0066319 -0.0017729 -0.0016573
-0.0010923 0.00092199 -0.00010839 0.0012973 -0.00018041 0.0025413 0.00033245 0.0066821
0.23946 0.079424 0.0051945 0.0034206
3.9174e-06 -0.00015886 -0.00058125 0.00055659 -0.0016482 0.00042228 -0.0018515 -0.001665
0.0052873 0.0034555 0.27242 0.10479
1880000000 0.21875 -0.14094 0.0023065 0.0004848 -0.00037685 0.0022386 -0.0028427 -0.0022714
-0.00016576 0.0017107 0.00022547 -0.00072211
0.0023084 0.00048533 0.2587 0.13062 -0.0034825 0.0022142 -0.00025633 0.0018173
0.00062312 0.0014066 0.00017321 0.00097364
-0.00036898 0.0022457 -0.0034623 0.002236 0.10785 -0.25058 0.002109 -0.0011157
0.0017177 0.0019511 -0.00099459 0.0015313
-0.0028614 -0.002269 -0.00025241 0.0018307 0.002072 -0.001112 0.16608 -0.13513
0.00094135 0.0046559 -0.0023935 0.00030881
-0.00016981 0.0017515 0.00063243 0.0014377 0.0017415 0.001961 0.0009862 0.0046214
0.24445 0.048362 0.0054572 0.0011418
0.00016163 -0.00069557 0.00020441 0.00097685 -0.0009147 0.0015745 -0.0023896 0.00044578
0.0054085 0.0012323 0.27311 0.070041
1940000000 0.17978 -0.16694 0.0001463 -0.0011933 0.0017616 0.0020543 -0.0038074 0.00025052
0.0012254 0.0010048 -0.00061888 -0.00052874
0.00013427 -0.0011831 0.26021 0.09988 -0.0018383 0.0050181 0.0010784 0.0013308
0.0020097 0.00053603 0.00097706 0.00024269
0.001768 0.0020455 -0.0018002 0.0050353 0.06248 -0.24369 0.00052525 -0.0026525
0.0024805 0.00035261 0.00038962 0.001629
-0.0038144 0.00026473 0.0011102 0.0013317 0.00053632 -0.0026457 0.11377 -0.16596
1.7438e-05 0.0035529 -0.0015891 0.0016559
0.0013325 0.00095885 0.0020684 0.00054749 0.0024707 0.00035021 -1.8727e-05 0.0035134
0.24844 0.01123 0.0039653 -0.0024564
-0.00062153 -0.00049712 0.00092958 0.00026145 0.00036865 0.0016353 -0.0016401 0.0015822
0.0039171 -0.0023973 0.26265 0.034401
2000000000 0.13481 -0.183 -0.0035428 0.00079431 0.0029141 0.0013536 -0.002401 0.0037366
0.0011338 0.00037924 -0.00078354 0.00058274
-0.0035436 0.00078705 0.24766 0.064341 -0.00090206 0.0071483 0.0017284 0.00040598
0.001342 -0.0012924 0.00031669 -4.2675e-05
0.0029355 0.0013238 -0.00085551 0.0071647 0.019784 -0.22975 -0.0014634 -0.0016667
0.0020794 -0.0012711 0.0015098 0.0013813
-0.0023459 0.0037924 0.0017204 0.00040077 -0.0015076 -0.0016752 0.060847 -0.17644
-0.0015473 0.0037529 -3.4617e-05 0.0024959
0.0010598 0.00046845 0.0013354 -0.0013007 0.0020517 -0.0012377 -0.0013934 0.0038404
0.24492 -0.021646 0.00069133 -0.0032161
