!Keysight Technologies,M9804A,MY58100912,A.14.10.03
!Date: Thursday, April 27, 2023 10:28:33
!Correction: S11(C  6-Port  ) 
!S12(C  6-Port  ) 
!S13(C  6-Port  ) 
!S14(C  6-Port  ) 
!S15(C  6-Port  ) 
!S16(C  6-Port  ) 
!S21(C  6-Port  ) 
!S22(C  6-Port  ) 
!S23(C  6-Port  ) 
!S24(C  6-Port  ) 
!S25(C  6-Port  ) 
!S26(C  6-Port  ) 
!S31(C  6-Port  ) 
!S32(C  6-Port  ) 
!S33(C  6-Port  ) 
!S34(C  6-Port  ) 
!S35(C  6-Port  ) 
!S36(C  6-Port  ) 
!S41(C  6-Port  ) 
!S42(C  6-Port  ) 
!S43(C  6-Port  ) 
!S44(C  6-Port  ) 
!S45(C  6-Port  ) 
!S46(C  6-Port  ) 
!S51(C  6-Port  ) 
!S52(C  6-Port  ) 
!S53(C  6-Port  ) 
!S54(C  6-Port  ) 
!S55(C  6-Port  ) 
!S56(C  6-Port  ) 
!S61(C  6-Port  ) 
!S62(C  6-Port  ) 
!S63(C  6-Port  ) 
!S64(C  6-Port  ) 
!S65(C  6-Port  ) 
!S66(C  6-Port  ) 
!S6P File: Measurement: :
# Hz S  RI   R 50
500000000 -0.33402 -0.055295 -0.010116 -0.0014458 -0.0084642 0.013353 -0.0035999 0.01186
0.012492 0.0061794 -0.0037333 0.0083096
-0.010112 -0.0015437 -0.4164 -0.064252 0.0081916 -0.010283 0.0013709 0.012425
0.0076088 0.0027222 0.0015509 0.014165
-0.0084977 0.013234 0.0081942 -0.01034 -0.26707 0.19874 0.0065099 0.0038714
-0.0013149 0.0081136 0.00044352 0.012022
-0.0037291 0.0117 0.0013986 0.012334 0.006526 0.0038805 -0.33182 0.042735
-0.018374 -0.0049626 0.016295 0.025699
0.012706 0.0062529 0.0076 0.0027827 -0.0013502 0.0081195 -0.018374 -0.0049853
-0.24828 -0.19624 -0.026567 0.0042171
-0.003823 0.0081214 0.001562 0.014051 0.00043713 0.011992 0.016376 0.025637
-0.026576 0.0042305 -0.27153 -0.1234
560000000 -0.31808 0.11138 -0.022491 -0.065129 -0.00038938 0.013579 0.0053097 0.010346
0.010812 0.0045489 0.010579 0.008823
-0.022497 -0.065094 -0.37579 0.098504 -0.0418 -0.03744 0.013639 0.0034829
-0.012282 -0.0031061 0.0036503 -0.001261
-0.00017934 0.013646 -0.041898 -0.037295 -0.18634 0.25016 -0.00076449 -0.0041058
0.017432 0.0051409 0.0076886 -0.0059091
0.0054719 0.010329 0.013646 0.0034071 -0.00073909 -0.0040559 -0.30702 0.1347
0.006331 -0.024127 0.0053161 -0.021477
0.010964 0.0042711 -0.012197 -0.0030828 0.017433 0.0052963 0.0064169 -0.024191
-0.31334 -0.019447 0.0098169 -0.047766
0.010622 0.0088253 0.0036506 -0.0012113 0.0076763 -0.0059591 0.0053272 -0.021466
0.0097873 -0.047858 -0.33198 0.024234
620000000 -0.27745 0.092792 -0.023232 0.0085271 0.0037166 0.0094439 0.0089196 -0.004399
0.011048 -0.00069858 0.00087388 -0.0025287
-0.023268 0.0085934 -0.40341 0.048049 -0.018398 0.00094658 -0.0015739 -0.002124
0.012248 -0.0060369 0.00077991 -0.0032764
0.0036771 0.00948 -0.018437 0.00098194 -0.1557 0.26035 -0.00081864 -0.0052802
-0.0029677 -0.0030509 0.00929 -0.0032022
0.0086485 -0.0042402 -0.0015961 -0.0021424 -0.00082114 -0.0052748 -0.26489 0.14536
-0.039562 -0.019617 0.013597 0.027053
0.011128 -0.00084114 0.01223 -0.0060022 -0.002943 -0.002981 -0.039606 -0.019512
-0.2302 -0.051007 -0.040799 0.012601
0.0006035 -0.0021777 0.00075157 -0.0032927 0.0093015 -0.0031906 0.013633 0.026962
-0.040881 0.012625 -0.24999 -0.0085538
680000000 -0.23981 0.18292 -0.02618 -0.014412 0.005099 0.0052464 0.0016224 -0.0076624
-0.0024041 -0.011408 0.0059318 -0.0074851
-0.026149 -0.014452 -0.3901 0.14935 -0.032407 -0.0020346 -0.0015519 -0.00077156
-0.0019432 -0.0092797 -0.0010382 -0.0018555
0.0051378 0.0052807 -0.03245 -0.0019656 -0.10417 0.28039 -0.00087802 -0.00073941
-0.0017424 0.00017369 -0.0025832 -0.0093627
0.0016456 -0.0077677 -0.0015486 -0.00077613 -0.00087773 -0.00073542 -0.22108 0.19704
-0.023792 -0.0083011 -0.0085712 -0.011198
-0.0023888 -0.011193 -0.0019573 -0.0093314 -0.0017439 0.00016501 -0.023781 -0.0082575
-0.27908 0.051905 -0.0078423 -0.0074025
0.005899 -0.0077504 -0.00098659 -0.0018936 -0.0025782 -0.009376 -0.0084824 -0.011149
-0.0078161 -0.0074135 -0.25988 0.095951
740000000 -0.19351 0.17672 -0.039935 0.026794 0.013723 -0.0047601 -0.00030411 -0.0041685
-0.0040641 -0.0027262 -0.006538 0.0031728
-0.039865 0.026631 -0.33557 0.16768 -0.036774 0.03482 -0.00047113 -0.0059177
-0.012458 0.0071689 -0.0012491 -0.0061641
0.013754 -0.004775 -0.03677 0.034929 -0.070377 0.27785 -0.0017673 0.0032825
-0.0028924 -0.0060208 -0.00087949 0.0016735
-0.00021195 -0.0041097 -0.00046303 -0.0058588 -0.0017679 0.0032543 -0.20367 0.20446
-0.043195 -0.0077617 0.023113 0.015394
-0.0040795 -0.0027945 -0.012512 0.0073003 -0.0029775 -0.0060145 -0.043223 -0.0076665
-0.17894 0.078257 -0.042265 0.00048668
-0.006574 0.0032935 -0.0013178 -0.0062074 -0.00084556 0.0016657 0.023102 0.015353
-0.042326 0.00044472 -0.24768 0.10072
800000000 -0.16204 0.22035 -0.022378 0.016577 0.0060802 -0.010521 -0.0040686 -0.0020262
-0.0043654 0.0022844 0.0047858 0.00057157
-0.0223 0.016588 -0.34186 0.23868 -0.0085532 0.034426 -0.0021969 0.0023435
-0.0013148 0.0028651 0.0010719 0.005605
0.0060421 -0.010627 -0.0084642 0.034465 -0.031639 0.30198 0.0010284 0.0015874
0.00019573 0.0037005 -0.0016638 0.00092175
-0.004084 -0.0020939 -0.0021875 0.0023349 0.0010291 0.0015987 -0.17404 0.23178
-0.028609 0.013401 0.014381 -0.0098922
-0.004372 0.002229 -0.0013043 0.0028439 0.00019489 0.0036876 -0.028651 0.013446
-0.22178 0.10803 -0.017181 0.019452
0.0049062 0.00040327 0.0011603 0.0056279 -0.0016331 0.00093699 0.014461 -0.0098874
-0.017184 0.019395 -0.24033 0.14979
860000000 -0.12768 0.2406 -0.017899 0.030335 -0.0027535 -0.010539 -0.0017957 0.00068681
0.0039744 0.0050143 -0.0038085 -0.0030546
-0.0178 0.030322 -0.29341 0.28137 0.0074213 0.034622 0.00010748 0.0019591
0.0037655 0.00066998 0.0029246 -3.7175e-06
-0.0027466 -0.010534 0.0075325 0.034626 0.015879 0.31042 -0.00059169 -0.00013264
0.0023364 -0.0014516 0.0015838 0.0040695
-0.001701 0.00071693 8.3338e-05 0.0019813 -0.00060486 -0.00013577 -0.13781 0.24279
-0.018256 0.018123 -0.0062421 -0.0091986
0.0040635 0.0048098 0.0037819 0.00064824 0.0023489 -0.001485 -0.0182 0.018133
-0.16583 0.15952 -0.024381 0.017028
-0.00368 -0.0027356 0.0029286 4.402e-06 0.0015642 0.004072 -0.0063083 -0.0092034
-0.024411 0.017023 -0.19051 0.1928
920000000 -0.10405 0.26386 0.0046669 0.038404 -0.0093901 -0.0052288 -0.001865 0.0017508
0.0011472 0.0020615 0.003095 -0.0016059
0.00464 0.038376 -0.26633 0.30285 0.028159 0.022936 0.0013956 0.001278
0.0078715 -0.0002791 0.0040548 -0.0031542
-0.009408 -0.00519 0.02827 0.022869 0.061245 0.3119 0.0019114 3.3545e-05
0.0010772 -0.0003284 0.0009688 -0.0013141
-0.0019001 0.0017348 0.00139 0.0012899 0.0019182 2.9831e-05 -0.11351 0.25936
-0.0113 0.03057 0.0034443 -0.006799
0.0012289 0.0020775 0.0079237 -0.00032102 0.0010752 -0.00031706 -0.011266 0.030581
-0.155 0.16529 -0.0018399 0.026623
0.0030417 -0.0018054 0.0040432 -0.0031685 0.00097914 -0.0013484 0.0034921 -0.0068072
-0.0018684 0.026605 -0.19759 0.20822
980000000 -0.057738 0.28416 0.016816 0.030296 -0.0096269 0.0041991 0.0017447 0.0036246
0.004223 -0.0017061 -0.002871 -0.0022438
0.016783 0.030288 -0.21327 0.33786 0.033549 0.0054772 0.0020225 -0.00014288
0.0018599 -0.0060264 -0.00019678 -0.0022312
-0.0096192 0.0042371 0.03362 0.0053637 0.10714 0.30649 0.00067043 -0.0011208
0.0005231 -0.0020109 0.0015447 -0.00014861
0.0018071 0.0035529 0.0020137 -0.00013436 0.0006683 -0.001131 -0.075149 0.27078
0.0074995 0.030496 -0.0088917 -0.0071576
0.0042599 -0.0017641 0.0018567 -0.0060458 0.00051741 -0.0020083 0.007564 0.030495
-0.12156 0.19518 0.005905 0.019766
-0.0028676 -0.0023737 -0.00020432 -0.0022404 0.0015433 -0.00013356 -0.0089257 -0.0071283
0.0059189 0.019785 -0.15435 0.25211
1040000000 -0.016427 0.29328 0.033006 0.019169 -0.0016809 0.0071417 0.0027428 0.00078064
0.00039988 -0.0032491 -0.0001462 -0.0015854
0.03294 0.01924 -0.17831 0.35146 0.030299 -0.014647 0.0017054 -0.0017481
-0.0021105 -0.0025016 -0.00096182 -0.0027837
-0.0016729 0.0071556 0.030291 -0.014786 0.15324 0.29365 -0.00043367 -0.0015946
-0.0016543 -0.00095585 -0.00054153 -0.0010203
0.0027478 0.00075678 0.00169 -0.0017389 -0.00043078 -0.0016009 -0.047455 0.2802
0.019754 0.019196 -0.0025774 0.0010989
0.00036914 -0.0032002 -0.0021612 -0.0024804 -0.0016552 -0.00096733 0.019796 0.019175
-0.088232 0.20222 0.013873 0.018458
-0.00018819 -0.0016509 -0.00096237 -0.002756 -0.00054175 -0.0010216 -0.0025579 0.0010911
0.013837 0.018506 -0.13142 0.27215
1100000000 0.028373 0.30253 0.036636 -0.0035319 0.0028141 0.0042556 0.0023942 -0.001111
-0.0021592 -0.0032614 -0.0041134 1.6657e-05
0.036605 -0.0034767 -0.1353 0.36978 0.016026 -0.028247 6.6819e-05 -0.001961
-0.0037123 -0.00095741 -0.0035523 -0.00067044
0.0028246 0.004253 0.015943 -0.02834 0.19958 0.27439 -0.0019441 9.0836e-05
-0.0018373 0.0004771 -0.0011032 -0.00051195
0.0024101 -0.0011324 5.0485e-05 -0.0019522 -0.0019422 7.7471e-05 -0.007304 0.28554
0.025544 0.0054143 -0.0024548 0.00016072
-0.0021896 -0.003216 -0.0037307 -0.00095433 -0.0018368 0.00048681 0.025553 0.0053897
-0.067483 0.21519 0.019508 0.0082495
-0.0040434 5.6837e-06 -0.0035899 -0.00064054 -0.0011132 -0.000509 -0.0024606 0.00016338
0.019487 0.0082512 -0.086275 0.30147
1160000000 0.079453 0.29879 0.024772 -0.020754 0.0028528 -0.00042326 -0.00019479 -0.0023823
-0.0040186 -0.00087955 -0.0010302 0.0039986
0.024762 -0.020707 -0.091767 0.37477 -0.0033743 -0.029927 -0.001624 -0.0017266
-0.0028595 0.0026355 -0.0015431 0.0020234
0.0028441 -0.00042309 -0.0034889 -0.029956 0.24314 0.24413 -0.00079565 0.001777
-0.00059433 0.0019373 -0.0010266 0.00029148
-0.00018172 -0.0023708 -0.0016453 -0.0017138 -0.00079118 0.0017833 0.032204 0.28283
0.021755 -0.01067 -0.0033063 0.0051711
-0.0039783 -0.00089668 -0.0028597 0.0026534 -0.00058769 0.0019449 0.021751 -0.010684
-0.033545 0.22321 0.018634 -0.00060051
-0.0011079 0.0040591 -0.0015409 0.0020299 -0.0010239 0.00028007 -0.0032753 0.0051952
0.018635 -0.0006 -0.03956 0.30396
1220000000 0.12365 0.28926 0.011192 -0.030473 -0.001545 -0.00090741 2.6951e-06 -0.00086804
-0.0027205 0.0021728 0.0011412 0.0020672
0.011192 -0.030432 -0.047531 0.38799 -0.017216 -0.022122 -0.0027043 0.0005382
1.6779e-06 0.0031652 -0.00087129 0.0019912
-0.0015613 -0.00090139 -0.017313 -0.022076 0.28226 0.20533 0.00075617 0.0018046
0.00060783 0.0012779 0.00023184 0.00059216
4.3815e-06 -0.00089891 -0.0027094 0.00054338 0.00075605 0.0018043 0.072363 0.27421
0.011071 -0.017837 0.0020194 0.001395
-0.0026998 0.0021758 1.7937e-05 0.0031809 0.00061761 0.0012809 0.011038 -0.017857
-0.0094946 0.23187 0.013973 -0.013503
0.0011444 0.0020408 -0.00083898 0.0019897 0.00023219 0.00059556 0.0020044 0.0013901
0.01397 -0.013509 -0.0078382 0.31856
1280000000 0.17408 0.26885 -0.0078729 -0.029184 -0.0020373 0.0024649 -0.00080937 -0.0020463
-0.00081361 0.0033095 0.0025332 0.0012115
-0.0078277 -0.029163 -0.0010869 0.37985 -0.02456 -0.0089945 -0.0010039 0.0014771
0.0018479 0.0017768 0.00063603 0.0020919
-0.0020238 0.0024843 -0.024629 -0.0088945 0.31291 0.16183 0.0016503 6.5801e-06
0.0012383 0.000279 0.00038016 0.00027799
-0.00084709 -0.0020383 -0.00099497 0.0014753 0.0016485 7.6822e-06 0.10951 0.25806
0.00090444 -0.02009 -0.0001264 0.00031161
-0.00078819 0.0032748 0.0018655 0.001767 0.001255 0.00027713 0.00087636 -0.020113
0.027444 0.23492 0.0028112 -0.015762
0.0025254 0.0011979 0.00065687 0.0020842 0.00038085 0.00026187 -0.00012721 0.00029202
0.0028048 -0.015738 0.039513 0.32067
1340000000 0.21174 0.23598 -0.017879 -0.019356 0.00083726 0.0048075 -0.0017722 -0.00084455
0.0014341 0.0027691 0.0017556 -0.0013858
-0.017836 -0.019355 0.038614 0.37202 -0.022271 0.0043208 -8.9631e-05 0.0020202
0.0020171 0.00079329 0.0012531 0.00078741
0.00084274 0.0048081 -0.022274 0.0044302 0.33495 0.11465 0.0011071 -0.0010014
0.00068419 -0.00070946 2.149e-05 0.00023366
-0.0017841 -0.00081743 -7.9393e-05 0.0020269 0.0011028 -0.00099874 0.14268 0.23711
-0.0090091 -0.01712 0.00075953 0.00053211
0.0014083 0.0027264 0.0020239 0.00077326 0.00067449 -0.00071717 -0.0090446 -0.017109
0.057778 0.23023 -0.004179 -0.014231
0.0017303 -0.0013098 0.0012607 0.00079573 1.8309e-05 0.00023917 0.00077121 0.00052697
-0.0041817 -0.014247 0.077527 0.31535
1400000000 0.24575 0.19871 -0.023892 -0.0075107 0.0053849 0.003506 -0.002247 0.00063544
0.002462 0.0010001 0.00024126 -0.0015575
-0.02385 -0.0075306 0.076244 0.35943 -0.015429 0.012904 0.0014338 0.0012965
0.0013043 -0.00084205 0.0012308 4.8668e-05
0.0054111 0.0034777 -0.01538 0.012987 0.34799 0.061697 7.2728e-05 -0.0016868
0.00012495 -0.00043184 0.00038191 0.00014488
-0.0022668 0.00064997 0.0014322 0.0012898 8.8079e-05 -0.001687 0.17217 0.20807
-0.01527 -0.0099476 -0.00090736 -9.0488e-05
0.0024753 0.00098489 0.001293 -0.00085959 0.00012416 -0.00042478 -0.015279 -0.0099198
0.090981 0.22559 -0.010616 -0.0088751
0.00020148 -0.001546 0.0012093 5.0666e-05 0.00036856 0.0001422 -0.00090164 -0.00010385
-0.01061 -0.008876 0.1215 0.30423
1460000000 0.26922 0.15488 -0.020665 0.0049962 0.0060391 -0.0017492 -0.0015996 0.0017908
0.00231 -0.00047669 -0.00037977 -0.0010379
-0.020647 0.0049797 0.11081 0.33762 -0.0061325 0.016061 0.0016935 0.00014039
0.00091217 -0.0013762 0.0012246 -0.00062842
0.0060388 -0.001752 -0.0060592 0.016104 0.35463 0.0081979 -0.0012669 -0.0013837
8.7875e-05 -0.00028388 0.00065313 -0.00024013
-0.0015626 0.0017994 0.001694 0.00014142 -0.0012674 -0.0013818 0.19881 0.17856
-0.016443 -0.0028242 -0.00076172 0.00209
0.0023125 -0.00048146 0.00089403 -0.0013809 9.1358e-05 -0.00026571 -0.01645 -0.0027758
0.12061 0.21131 -0.012468 -0.0026889
-0.00037043 -0.0010451 0.0012353 -0.00064166 0.00067706 -0.00024917 -0.00076207 0.002097
-0.012474 -0.0026911 0.15495 0.28349
1520000000 0.28187 0.11345 -0.014903 0.010582 0.0035656 -0.0044813 0.00010604 0.00259
0.0021659 -0.0020067 -0.0011806 -0.00020548
-0.014891 0.010564 0.14434 0.32325 0.0018469 0.013583 0.0016557 -0.00081219
-3.4417e-06 -0.0010993 0.00031406 -0.0010743
0.0035453 -0.0044775 0.001916 0.013592 0.3484 -0.047301 -0.0011189 -0.00030954
0.0006804 -0.00088906 1.9256e-05 -0.0002622
0.00012353 0.0025921 0.0016512 -0.00082474 -0.001114 -0.00031393 0.22177 0.13995
-0.015351 0.0033669 0.001604 0.0020793
0.0021627 -0.002035 -2.8012e-06 -0.0010933 0.00064816 -0.00090466 -0.015343 0.0034005
0.14894 0.19768 -0.012124 0.0019568
-0.0011928 -0.00019669 0.00030783 -0.0010774 1.4871e-05 -0.00024937 0.0016001 0.0020727
-0.012125 0.0019487 0.18762 0.26273
1580000000 0.29194 0.067565 -0.0079292 0.013803 -0.00091284 -0.0052798 0.0015032 0.0019546
-0.000275 -0.0022506 -0.00025854 0.00044715
-0.0079254 0.013779 0.1717 0.29876 0.0056827 0.0084175 0.00050913 -0.0015866
-0.00059991 -0.00099675 -0.00023924 -0.0008469
-0.00092932 -0.0052746 0.0057405 0.0083957 0.32937 -0.10471 -0.0016067 0.00067546
-0.00036679 -0.0011789 0.00024012 -0.00057709
0.0014991 0.0019064 0.00050086 -0.0015899 -0.0016044 0.00067523 0.23534 0.10058
-0.011448 0.0082895 0.0023609 0.00079055
-0.00031172 -0.0022576 -0.00061033 -0.00099319 -0.00035503 -0.0011796 -0.01144 0.0083123
0.17333 0.17966 -0.00952 0.0077409
-0.00018685 0.00042937 -0.00023244 -0.00086716 0.00025899 -0.00057558 0.0023443 0.00076338
-0.0095286 0.0077376 0.21932 0.23624
1640000000 0.29454 0.026427 -0.0010155 0.01245 -0.0030376 -0.0027214 0.0027927 0.0010819
-0.00085394 -0.0015541 -0.00039919 0.00063754
-0.0010165 0.012435 0.20135 0.27425 0.0063105 0.0033233 -0.0006563 -0.0017906
-0.00099504 -0.00034756 -0.000558 -0.00061974
-0.0030616 -0.002734 0.0063434 0.0032848 0.30141 -0.15414 -0.00060185 0.0014228
-0.00097514 -0.00090479 -0.00025109 -0.00031416
0.0027904 0.0010328 -0.00066106 -0.0017783 -0.00060588 0.0014229 0.2475 0.051765
-0.0068506 0.0094841 0.0025846 -0.0007907
-0.00087371 -0.0015788 -0.0010004 -0.00033983 -0.00099339 -0.0009034 -0.0068326 0.0095034
0.19666 0.15566 -0.0044282 0.0098091
-0.00039753 0.00066384 -0.00055811 -0.0006253 -0.00026309 -0.00031228 0.0025888 -0.00079927
-0.0044247 0.0098103 0.24484 0.20532
1700000000 0.28774 -0.018708 0.0023917 0.009358 -0.0037394 -1.0412e-05 0.0031687 -0.0012577
-0.0019744 -0.00060117 0.00050687 0.00038794
0.0023817 0.0093545 0.21958 0.2432 0.0041563 0.00030305 -0.0015237 -0.00057248
-0.00078183 4.2075e-05 -0.00090314 -0.0004609
-0.0037495 -8.9996e-06 0.0041535 0.0002842 0.25862 -0.19392 0.0004352 0.0016232
-0.0019861 -9.2634e-06 -0.00041656 -0.00087133
0.0031915 -0.001264 -0.001522 -0.00055425 0.00042905 0.0016181 0.24401 0.0022989
-0.003942 0.0096614 0.0016602 -0.0022893
-0.0020012 -0.00058074 -0.00077554 4.1782e-05 -0.0019789 -5.1394e-06 -0.0039417 0.0096664
0.21403 0.13512 0.00029047 0.0099465
0.00051506 0.00042448 -0.00089893 -0.00045443 -0.00039772 -0.00086356 0.0016561 -0.0023132
0.00029486 0.0099592 0.26133 0.17126
1760000000 0.2762 -0.067282 0.0045543 0.0059053 -0.0024883 0.0010545 0.0012693 -0.0035087
-0.0013627 0.00069396 0.00035963 -0.00049021
0.0045322 0.0059073 0.24602 0.20387 0.0016726 -0.0016375 -0.001233 0.00018487
-0.0010728 0.00087562 -0.00062132 0.00040926
-0.0024707 0.0010985 0.0016645 -0.0016632 0.21097 -0.22772 0.0010219 0.0011035
-0.0013099 0.0014644 -0.0011805 -0.00068522
0.0012185 -0.0035056 -0.0012377 0.00018734 0.0010294 0.0011057 0.23529 -0.04885
-0.00073708 0.0085419 -0.00018213 -0.0026615
-0.0013685 0.00070762 -0.0010656 0.00088741 -0.0013131 0.0014675 -0.0007144 0.0085513
0.229 0.10061 0.0043051 0.0072391
0.00033696 -0.00049793 -0.00062685 0.00039411 -0.0012167 -0.00068187 -0.00020489 -0.002641
0.0042974 0.0072272 0.2743 0.13361
1820000000 0.25212 -0.10473 0.0045106 0.002344 -0.00029489 0.0025839 -0.00097965 -0.0031166
-0.001089 0.00094454 -7.8144e-05 -0.00014079
0.0044974 0.0023422 0.25653 0.17402 -0.00081555 -0.00036271 -0.0012687 0.00094401
-5.505e-05 0.0012351 -0.00062065 0.00049865
-0.00027264 0.0026062 -0.00081481 -0.00035594 0.15956 -0.2439 0.0016849 0.0004671
-0.00011108 0.0024046 -0.0014398 0.00025406
-0.001021 -0.0031373 -0.0012714 0.00095407 0.0016831 0.00045875 0.20552 -0.095908
0.00066839 0.0070345 -0.0016595 -0.0016853
-0.0010845 0.00096392 -4.1643e-05 0.0012368 -9.9623e-05 0.0023957 0.00066431 0.007049
0.2462 0.071665 0.0052293 0.0035226
-9.7815e-05 -0.00014639 -0.0006083 0.00050886 -0.0014472 0.00025121 -0.0016447 -0.0016636
0.0052244 0.003535 0.27645 0.097272
1880000000 0.21743 -0.14523 0.0022068 1.8805e-05 -0.00053652 0.002275 -0.0029399 -0.0021825
-0.00024063 0.0017741 6.1348e-05 -0.0006312
0.0022023 2.0906e-05 0.26159 0.12767 -0.0026287 0.0016169 -0.00020273 0.0017172
0.00052882 0.0013346 8.4871e-05 0.00098842
-0.00051666 0.0022866 -0.0026185 0.001644 0.10771 -0.25305 0.0017867 -0.00094903
0.0015456 0.0020095 -0.0010976 0.0014515
-0.002985 -0.0021589 -0.00019478 0.0017128 0.0017955 -0.00095937 0.16536 -0.13611
0.0012985 0.0050624 -0.0025263 4.6534e-05
-0.00025823 0.001765 0.00053644 0.0013317 0.0015434 0.0020015 0.0013198 0.0050672
0.25 0.040394 0.0055031 0.00088647
1.1565e-05 -0.00058816 8.4672e-05 0.00097464 -0.0011144 0.0014284 -0.0025431 2.9923e-05
0.0054913 0.00086582 0.27664 0.062941
1940000000 0.1783 -0.17109 -0.00028966 -0.001475 0.0013871 0.0021635 -0.0038169 0.00040548
0.0013385 0.0010242 -0.00057712 -0.0006817
-0.00028946 -0.0014791 0.26272 0.095714 -0.0013945 0.0040794 0.0010221 0.0013059
0.0018858 0.00053429 0.0010333 0.00034157
0.0014635 0.0021508 -0.0013671 0.0040845 0.062636 -0.24605 0.00050529 -0.0022967
0.0023998 0.00035495 0.00045333 0.0016817
-0.0038122 0.00049249 0.0010454 0.001305 0.00051163 -0.002305 0.1133 -0.16691
0.0006012 0.0038041 -0.0016734 0.001445
0.0013041 0.00098236 0.001905 0.00052102 0.002424 0.00034597 0.00059593 0.0038301
0.25316 0.002291 0.0038875 -0.002366
-0.00063442 -0.00063968 0.0010643 0.00035334 0.00046397 0.0016802 -0.001642 0.0014774
0.0038862 -0.0023458 0.26591 0.026904
2000000000 0.13212 -0.18618 -0.004121 0.00076316 0.0025653 0.0014793 -0.0022534 0.0037511
0.0012701 0.00045198 -0.00056672 0.00050646
-0.0041208 0.00071652 0.24877 0.059974 -0.0010264 0.0058594 0.0016221 0.00051282
0.0013797 -0.0010941 0.0004963 0.0001451
0.0025885 0.0014555 -0.00099248 0.0058845 0.018921 -0.23256 -0.0012472 -0.0014171
0.0021488 -0.0011401 0.0017256 0.0016595
-0.0022452 0.0037163 0.0016221 0.00049712 -0.0012377 -0.0014092 0.059898 -0.17735
-0.00076256 0.0036387 -0.00018383 0.0023719
0.0013082 0.0003379 0.0013945 -0.0011028 0.0021696 -0.0011514 -0.0007453 0.0036273
0.24818 -0.030792 0.00039691 -0.0031611
