!Keysight Technologies,M9804A,MY58100912,A.14.10.03
!Date: Thursday, April 27, 2023 10:28:33
!Correction: S11(C  6-Port  ) 
!S12(C  6-Port  ) 
!S13(C  6-Port  ) 
!S14(C  6-Port  ) 
!S15(C  6-Port  ) 
!S16(C  6-Port  ) 
!S21(C  6-Port  ) 
!S22(C  6-Port  ) 
!S23(C  6-Port  ) 
!S24(C  6-Port  ) 
!S25(C  6-Port  ) 
!S26(C  6-Port  ) 
!S31(C  6-Port  ) 
!S32(C  6-Port  ) 
!S33(C  6-Port  ) 
!S34(C  6-Port  ) 
!S35(C  6-Port  ) 
!S36(C  6-Port  ) 
!S41(C  6-Port  ) 
!S42(C  6-Port  ) 
!S43(C  6-Port  ) 
!S44(C  6-Port  ) 
!S45(C  6-Port  ) 
!S46(C  6-Port  ) 
!S51(C  6-Port  ) 
!S52(C  6-Port  ) 
!S53(C  6-Port  ) 
!S54(C  6-Port  ) 
!S55(C  6-Port  ) 
!S56(C  6-Port  ) 
!S61(C  6-Port  ) 
!S62(C  6-Port  ) 
!S63(C  6-Port  ) 
!S64(C  6-Port  ) 
!S65(C  6-Port  ) 
!S66(C  6-Port  ) 
!S6P File: Measurement: :
# Hz S  RI   R 50
500000000 -0.33364 -0.054262 -0.010016 -0.00093555 -0.0086899 0.013476 -0.0043381 0.011569
0.013194 0.0056065 -0.0041189 0.0071069
-0.0099759 -0.00095084 -0.41596 -0.064497 0.0079398 -0.010707 0.0017291 0.011206
0.0081431 0.0041085 0.001531 0.013102
-0.0086032 0.013517 0.0078953 -0.010767 -0.26773 0.19884 0.0064468 0.0035748
-0.0012391 0.0085196 -0.00011757 0.012321
-0.0038365 0.011953 0.0018079 0.011388 0.0065146 0.0035639 -0.33138 0.042376
-0.019251 -0.0045734 0.017508 0.025293
0.013041 0.0054985 0.0082113 0.0041552 -0.0012498 0.0085299 -0.019194 -0.00452
-0.24636 -0.19795 -0.028098 0.0051767
-0.0037594 0.0080039 0.0019452 0.013714 6.1143e-06 0.012343 0.01758 0.02524
-0.028036 0.0051671 -0.26902 -0.12343
560000000 -0.3205 0.11194 -0.023432 -0.064171 0.00034705 0.012943 0.0050763 0.011118
0.011347 0.004572 0.0099481 0.00885
-0.023271 -0.064037 -0.37518 0.099256 -0.041969 -0.037645 0.013459 0.003013
-0.012496 -0.003174 0.0036982 -0.0002885
0.00016631 0.012806 -0.041914 -0.037667 -0.18593 0.25013 -0.00020114 -0.0043563
0.018554 0.0045893 0.0076078 -0.0055943
0.0053783 0.011113 0.013495 0.0032776 -0.00016768 -0.0043494 -0.30605 0.13375
0.0046367 -0.023215 0.006341 -0.022182
0.011054 0.0049275 -0.013077 -0.0032113 0.018717 0.0043901 0.004556 -0.02317
-0.30965 -0.02122 0.0088029 -0.049094
0.009769 0.008747 0.0037666 -0.00047319 0.0075256 -0.0056427 0.0063385 -0.022236
0.0089826 -0.049199 -0.33102 0.024339
620000000 -0.27732 0.09235 -0.02315 0.0087135 0.0040272 0.009258 0.0079952 -0.0045743
0.013525 -0.0016355 0.00038478 -0.0032131
-0.023118 0.0087191 -0.40341 0.048053 -0.018441 0.0010506 -0.0015477 -0.0019973
0.012567 -0.0065312 0.0010551 -0.0028245
0.0041985 0.0092182 -0.018425 0.0010605 -0.15561 0.26004 -0.00073141 -0.0051416
-0.0031423 -0.0032464 0.0095843 -0.0026976
0.008111 -0.0042799 -0.0015733 -0.0018349 -0.00075016 -0.0052091 -0.26612 0.14506
-0.038977 -0.018468 0.012445 0.027408
0.013489 -0.0021431 0.012475 -0.0068329 -0.0030592 -0.0031085 -0.039396 -0.018408
-0.23046 -0.051536 -0.041302 0.013508
0.00050833 -0.0026503 0.0011189 -0.002499 0.0095201 -0.0027958 0.012853 0.027473
-0.041248 0.013708 -0.24934 -0.0086953
680000000 -0.23985 0.18345 -0.02645 -0.0143 0.0051688 0.0055492 0.0010713 -0.0076977
-0.0024421 -0.011967 0.0059719 -0.0064585
-0.026412 -0.014303 -0.38997 0.14934 -0.032398 -0.0020391 -0.0013157 -0.0006115
-0.0018171 -0.0095956 -0.0010993 -0.001712
0.0052097 0.0054772 -0.032452 -0.0019583 -0.10383 0.28024 -0.00058049 -0.00039294
-0.0017148 0.000405 -0.0023493 -0.009022
0.00082164 -0.007247 -0.0014964 -0.00057345 -0.00056973 -0.0003611 -0.22062 0.19724
-0.023215 -0.0079361 -0.0088117 -0.011912
-0.0024135 -0.011942 -0.001773 -0.0096918 -0.0018165 0.00038148 -0.023305 -0.0080044
-0.27998 0.052138 -0.0078106 -0.0069069
0.0056111 -0.0069782 -0.0011297 -0.00182 -0.0022096 -0.0089631 -0.008926 -0.011666
-0.0078269 -0.0069534 -0.26025 0.094875
740000000 -0.19343 0.17721 -0.039651 0.027186 0.013932 -0.0047211 -0.0008459 -0.0043328
-0.0045336 -0.002291 -0.006648 0.002717
-0.03964 0.027164 -0.33518 0.16741 -0.037231 0.035458 1.1128e-05 -0.0060421
-0.013212 0.0070683 -0.00076925 -0.0056458
0.013848 -0.0047643 -0.037156 0.035474 -0.070574 0.27753 -0.0020266 0.0036822
-0.0026417 -0.0061446 -0.0016211 0.0018984
-0.00087521 -0.0039884 0.00012407 -0.0062064 -0.0020536 0.0038652 -0.20467 0.20358
-0.04249 -0.0065531 0.022008 0.014898
-0.0044616 -0.0029112 -0.012843 0.0075122 -0.0029 -0.0063205 -0.042507 -0.0066735
-0.17821 0.076428 -0.041981 0.0011463
-0.0071493 0.00306 -0.00051446 -0.005852 -0.0018363 0.0020461 0.022035 0.015042
-0.042002 0.0011523 -0.25001 0.10029
800000000 -0.16187 0.22054 -0.022294 0.016593 0.0061546 -0.010694 -0.0042438 -0.0018318
-0.0044715 0.0021877 0.0042788 0.00046408
-0.022262 0.016549 -0.34154 0.23887 -0.0085508 0.034555 -0.0022774 0.0021996
-0.0014 0.0029803 0.00094797 0.005232
0.0061686 -0.010768 -0.0084197 0.034605 -0.031923 0.30182 0.0010036 0.0015569
-0.0002149 0.0036523 -0.0018643 0.00071989
-0.0043962 -0.0019885 -0.0022652 0.0022013 0.0010135 0.0015104 -0.17421 0.23179
-0.029225 0.013594 0.014323 -0.010253
-0.004417 0.0023151 -0.0013358 0.0030798 -0.0001516 0.0037353 -0.029146 0.013674
-0.22156 0.10787 -0.018526 0.020045
0.0042425 0.00012731 0.00095132 0.0052457 -0.0017783 0.00063201 0.01419 -0.010381
-0.018479 0.020018 -0.24069 0.14874
860000000 -0.12765 0.24053 -0.017916 0.030522 -0.0028088 -0.010561 -0.0021154 0.00023791
0.0036263 0.0048974 -0.003281 -0.002648
-0.017924 0.030476 -0.29347 0.28145 0.0074585 0.03487 -3.4489e-05 0.0021616
0.0031402 0.00052964 0.0037474 0.00053712
-0.0028297 -0.010531 0.007572 0.034937 0.015616 0.3106 -0.00074748 -8.0422e-05
0.0020583 -0.0017444 0.0019983 0.0044415
-0.0020635 0.00038489 -0.00011996 0.0021669 -0.000779 -0.00011379 -0.13849 0.24236
-0.018488 0.018032 -0.0060394 -0.0091877
0.0036547 0.004912 0.0032851 0.00056086 0.0020441 -0.0017099 -0.018568 0.018085
-0.16608 0.1585 -0.024065 0.016863
-0.0034324 -0.0026406 0.0035663 0.00036749 0.0019867 0.0043873 -0.0058327 -0.0091429
-0.024027 0.016879 -0.1899 0.19526
920000000 -0.10401 0.2635 0.0044364 0.038327 -0.0096229 -0.0052382 -0.0019401 0.0015949
0.0014438 0.0018785 0.0026889 -0.0015996
0.0044247 0.038266 -0.2666 0.30241 0.028413 0.023008 0.0014559 0.0013084
0.007572 -0.00057032 0.0041663 -0.0027075
-0.009617 -0.0052004 0.028518 0.022945 0.061157 0.31219 0.0019165 -3.1468e-05
0.0011761 -0.00023484 0.00084416 -0.001429
-0.0018871 0.0016331 0.00151 0.0013241 0.001932 -4.6567e-05 -0.11364 0.2595
-0.011207 0.031334 0.0033667 -0.0068976
0.001306 0.001887 0.0074104 -0.00041023 0.0011551 -0.00017196 -0.011152 0.031319
-0.15541 0.16493 -0.0016666 0.027209
0.0028481 -0.0015911 0.0042942 -0.0025958 0.00090925 -0.0014326 0.0033234 -0.0069326
-0.0016115 0.02723 -0.19832 0.20781
980000000 -0.057218 0.28395 0.017017 0.030414 -0.0098451 0.0042232 0.0019497 0.0034974
0.0040769 -0.0013673 -0.002719 -0.0023551
0.016994 0.030358 -0.21338 0.33787 0.033855 0.0054423 0.0021492 -0.00016321
0.0018894 -0.005907 0.0001455 -0.0026607
-0.009794 0.0042419 0.033892 0.0053757 0.10711 0.30688 0.00072457 -0.0011763
0.00048105 -0.001983 0.0016598 -0.00028919
0.0018859 0.003433 0.0021676 -0.00016719 0.00074768 -0.0011912 -0.075174 0.27078
0.0077773 0.031004 -0.0088809 -0.0074906
0.0042006 -0.0015505 0.00198 -0.0061141 0.000522 -0.0019881 0.0078346 0.031024
-0.12192 0.19631 0.0069267 0.019933
-0.0027825 -0.0023663 -2.5799e-06 -0.0027699 0.0016735 -0.00030834 -0.0087197 -0.007422
0.0068454 0.01984 -0.15416 0.25037
1040000000 -0.015878 0.29324 0.033329 0.019183 -0.0016948 0.0072702 0.0026826 0.00075413
0.00050529 -0.0034638 -0.0003271 -0.0016383
0.033297 0.019158 -0.17851 0.35146 0.030568 -0.014926 0.0017225 -0.0018694
-0.0021357 -0.0027254 -0.0010124 -0.0028283
-0.0016603 0.0073046 0.030552 -0.015026 0.1535 0.29405 -0.00045518 -0.0016865
-0.0015967 -0.00093879 -0.00050287 -0.001166
0.0026866 0.00073037 0.0017582 -0.0018748 -0.00045889 -0.0016818 -0.047409 0.28033
0.020226 0.018996 -0.0027373 0.0009582
0.00048211 -0.0035076 -0.0020861 -0.002695 -0.0016236 -0.00093148 0.020271 0.018958
-0.08806 0.20169 0.01387 0.018237
-0.00036628 -0.0014865 -0.0010697 -0.002884 -0.00051245 -0.001187 -0.0027507 0.00094032
0.013911 0.018311 -0.13177 0.27246
1100000000 0.028328 0.30265 0.03681 -0.0035246 0.0028631 0.0042976 0.0023706 -0.0011082
-0.0021084 -0.0030672 -0.0040693 -0.00020753
0.03678 -0.0035042 -0.13555 0.37009 0.016148 -0.028604 -5.3108e-06 -0.0018851
-0.0037698 -0.00098445 -0.0036556 -0.00060713
0.0028794 0.0042663 0.016025 -0.028722 0.20013 0.27468 -0.0020533 0.00014637
-0.0019014 0.00055703 -0.0011157 -0.00042411
0.0023201 -0.0011169 -4.7921e-06 -0.001925 -0.0020472 0.00014386 -0.0070705 0.28569
0.026171 0.0052112 -0.0024962 -2.8218e-05
-0.0021395 -0.0030908 -0.0038207 -0.00097658 -0.0018958 0.00054069 0.026194 0.0051858
-0.067702 0.21471 0.019914 0.0082986
-0.0040594 -0.00021122 -0.0036715 -0.00063442 -0.0011142 -0.00044305 -0.0025024 1.1514e-06
0.019892 0.0082808 -0.086777 0.30074
1160000000 0.079711 0.29875 0.024786 -0.021121 0.0028854 -0.00040829 -0.00020507 -0.0023824
-0.0040288 -0.00084716 -0.0011023 0.0043144
0.024771 -0.021096 -0.091752 0.37528 -0.0036368 -0.030214 -0.0017608 -0.0018232
-0.002876 0.0028491 -0.0014973 0.0021673
0.0029242 -0.00040744 -0.0038035 -0.030222 0.24393 0.24414 -0.00078655 0.0018355
-0.00052533 0.0020807 -0.00092798 0.00032783
-0.00018569 -0.0023791 -0.0018087 -0.001772 -0.0007801 0.0018334 0.032535 0.28313
0.022062 -0.01136 -0.003582 0.0050181
-0.0040128 -0.00078845 -0.0028718 0.00287 -0.00053461 0.0020874 0.022045 -0.011411
-0.033637 0.22251 0.018769 -0.0010871
-0.0010311 0.004287 -0.0014865 0.0021141 -0.00093361 0.00034373 -0.0035662 0.0049888
0.018762 -0.0010636 -0.039501 0.30413
1220000000 0.1238 0.28935 0.011129 -0.030834 -0.0016335 -0.00095402 6.8834e-05 -0.00081714
-0.0028081 0.0022573 0.0011843 0.0021139
0.011137 -0.030798 -0.047174 0.38856 -0.017563 -0.022255 -0.0026792 0.0005471
2.5498e-05 0.0033775 -0.00082871 0.0020861
-0.0016379 -0.00096516 -0.017693 -0.022188 0.28301 0.20484 0.00079486 0.0018146
0.00068105 0.0012728 0.00027436 0.0006601
6.1997e-05 -0.0008408 -0.0026637 0.00053923 0.00078987 0.0018277 0.072873 0.27441
0.010999 -0.018618 0.0019756 0.0015339
-0.0028665 0.0022596 3.0075e-05 0.0033639 0.00064802 0.0012835 0.010991 -0.018616
-0.0096122 0.23143 0.014023 -0.013741
0.0011958 0.0021124 -0.00084659 0.0020975 0.00029315 0.00068352 0.0019996 0.0015508
0.014023 -0.013749 -0.0075921 0.3188
1280000000 0.17431 0.26901 -0.0082369 -0.029434 -0.0020486 0.0025784 -0.00085112 -0.0020834
-0.00083496 0.003292 0.0026966 0.0012892
-0.008219 -0.029399 -0.00040798 0.3804 -0.024921 -0.0088543 -0.00097106 0.0016133
0.0019343 0.0017297 0.00071021 0.0020677
-0.0020357 0.0025929 -0.024998 -0.0087411 0.31323 0.16109 0.0016442 9.7915e-06
0.0014039 0.00018583 0.0003579 0.00023278
-0.00082415 -0.0020701 -0.00098604 0.0016108 0.0016645 4.2425e-06 0.11006 0.25787
0.00039092 -0.020816 -0.00017584 0.00052579
-0.0007503 0.0032933 0.0019717 0.0017387 0.0014014 0.00018364 0.00032648 -0.020841
0.027066 0.23516 0.002791 -0.016172
0.002696 0.0012218 0.00073864 0.0020618 0.00038207 0.0002126 -0.00018733 0.00050646
0.0027955 -0.01617 0.039339 0.32068
1340000000 0.2122 0.23589 -0.018401 -0.019404 0.00075732 0.004911 -0.0017041 -0.00082995
0.0014221 0.0028528 0.0018916 -0.0014266
-0.018371 -0.019384 0.039482 0.37205 -0.022461 0.004604 -1.7031e-05 0.0020356
0.0021304 0.00067854 0.0013083 0.00078322
0.00076374 0.0048976 -0.022464 0.0047157 0.33464 0.11376 0.0011052 -0.0009438
0.00067516 -0.00056566 0.00014739 0.0003337
-0.0016756 -0.00079137 5.3757e-07 0.0020311 0.0010985 -0.00093042 0.1432 0.23673
-0.0098486 -0.017578 0.00062134 0.00064847
0.0014714 0.0028671 0.002149 0.00067799 0.00066952 -0.00054546 -0.0098764 -0.017549
0.057613 0.23028 -0.0044629 -0.014737
0.0018375 -0.0013816 0.0013003 0.00076113 0.00012922 0.0003281 0.00057677 0.00064426
-0.00446 -0.014728 0.077375 0.31526
1400000000 0.24614 0.19852 -0.024352 -0.0072407 0.0055533 0.0035318 -0.0022825 0.00061363
0.0025644 0.00098662 0.00024079 -0.0015444
-0.024317 -0.0072496 0.077192 0.3592 -0.015407 0.013236 0.0014522 0.0012666
0.0012751 -0.00095072 0.001243 1.8487e-05
0.005574 0.0035012 -0.015355 0.013316 0.34744 0.061281 9.1048e-05 -0.0017808
0.00015229 -0.00043445 0.00037604 0.00018834
-0.0023265 0.00061388 0.0014419 0.0012725 5.8364e-05 -0.0017909 0.17229 0.20742
-0.016224 -0.0097489 -0.00089621 9.1635e-05
0.0025928 0.001006 0.0012886 -0.00095163 0.00014812 -0.00044668 -0.016261 -0.0097507
0.090886 0.22579 -0.011297 -0.0089915
0.00026587 -0.0015785 0.0012478 3.2557e-06 0.0003521 0.00022511 -0.00090096 6.1099e-05
-0.011261 -0.0090079 0.12186 0.30414
1460000000 0.26973 0.15448 -0.020861 0.0054666 0.0061005 -0.0017554 -0.0015619 0.0018109
0.0022571 -0.00054682 -0.00046383 -0.0011607
-0.020838 0.0054571 0.11149 0.33699 -0.0059624 0.016316 0.0016636 6.0319e-05
0.00082327 -0.0014201 0.0012258 -0.00058047
0.0060936 -0.0018035 -0.0058676 0.016355 0.35422 0.0080306 -0.0013803 -0.0013601
0.00013266 -0.00022609 0.0007802 -0.0002296
-0.0015396 0.0018173 0.001673 6.1551e-05 -0.0013726 -0.0013519 0.1987 0.17794
-0.017219 -0.0021444 -0.00066503 0.0022569
0.0022717 -0.00056429 0.00084588 -0.0014255 0.00012803 -0.00023286 -0.017224 -0.0021236
0.12075 0.21133 -0.012973 -0.00267
-0.00047423 -0.001131 0.0012296 -0.00061133 0.00075751 -0.00025553 -0.00067829 0.0022712
-0.012976 -0.0026555 0.15501 0.28347
1520000000 0.28228 0.11272 -0.014739 0.011061 0.0037177 -0.0045414 0.00011748 0.0026295
0.0021509 -0.0021464 -0.0012463 -8.2631e-05
-0.014734 0.011032 0.14464 0.32247 0.0021258 0.01366 0.0016327 -0.00082975
-6.0558e-05 -0.001086 0.00027301 -0.0011018
0.0036991 -0.0045978 0.0022193 0.013651 0.34797 -0.047378 -0.001156 -0.00021947
0.00062312 -0.00088526 0.00014635 -0.00020426
0.00010778 0.0026517 0.0016336 -0.00082361 -0.0011525 -0.00024587 0.2215 0.13957
-0.015627 0.0044314 0.0017452 0.0022232
0.002108 -0.0021796 -8.0411e-05 -0.0011032 0.00064112 -0.00090773 -0.01562 0.0044631
0.14909 0.19785 -0.012526 0.0024677
-0.0012497 -7.2032e-05 0.00026954 -0.0010799 0.00015066 -0.00019999 0.0017656 0.0021986
-0.012531 0.0024477 0.18749 0.26253
1580000000 0.292 0.066675 -0.0075179 0.014139 -0.00089069 -0.0054086 0.0016044 0.0018932
-0.00032061 -0.0022566 -0.00021147 0.0003775
-0.0075328 0.014133 0.17169 0.29802 0.0059423 0.0082996 0.00046986 -0.0016128
-0.00059262 -0.00097426 -0.00021527 -0.00081544
-0.00090121 -0.0053417 0.0060059 0.0082858 0.32912 -0.10463 -0.0016198 0.00059675
-0.00046308 -0.001297 0.00030852 -0.00057573
0.0016146 0.0018983 0.00045605 -0.0016209 -0.0016416 0.00061448 0.23479 0.10037
-0.011038 0.0093194 0.0024534 0.00073516
-0.00031394 -0.0022735 -0.00059437 -0.000975 -0.00048925 -0.0013147 -0.01104 0.0093733
0.17354 0.17967 -0.0094139 0.0084022
-0.00021786 0.00034951 -0.00022241 -0.00081059 0.00031184 -0.00058831 0.0024435 0.00074466
-0.0094487 0.0084057 0.21906 0.23615
1640000000 0.29417 0.025641 -0.0005379 0.012434 -0.0031073 -0.0029073 0.0027647 0.0010103
-0.00091781 -0.0015888 -0.00038497 0.0006805
-0.00054441 0.01243 0.20109 0.27358 0.0064347 0.0031244 -0.00068124 -0.0017677
-0.00095906 -0.00035352 -0.00059388 -0.00063768
-0.0031425 -0.0028926 0.0064788 0.0030981 0.3013 -0.15407 -0.00061612 0.0014661
-0.0011193 -0.00093284 -0.00012856 -0.0004351
0.002764 0.00099242 -0.00069112 -0.0017613 -0.00059914 0.0014734 0.24694 0.051781
-0.00587 0.010054 0.0026758 -0.00094411
-0.000939 -0.0015933 -0.00097342 -0.00033755 -0.0011057 -0.00093982 -0.0058338 0.010077
0.19699 0.15551 -0.0043309 0.010299
-0.00038867 0.00064021 -0.00058677 -0.00064478 -0.0001574 -0.00042908 0.0026741 -0.00095822
-0.0043157 0.010291 0.24489 0.20529
1700000000 0.28706 -0.019285 0.0027637 0.0091097 -0.0039096 -9.5131e-06 0.0031243 -0.0013395
-0.0021083 -0.00061855 0.00061811 0.00047088
0.0027564 0.0091004 0.21901 0.24278 0.0041542 4.5474e-05 -0.0015259 -0.00056565
-0.00073188 -1.2259e-05 -0.0009353 -0.00043713
-0.0039295 4.0922e-05 0.0041021 3.2241e-05 0.25852 -0.1939 0.00041738 0.0015419
-0.0020566 7.4612e-05 -0.00045904 -0.00091976
0.0031389 -0.0013558 -0.0015308 -0.00053793 0.00042291 0.0015577 0.24344 0.002572
-0.0028539 0.0095019 0.0015871 -0.0023257
-0.00212 -0.00055986 -0.0007512 1.2679e-05 -0.0020052 2.2677e-05 -0.0028471 0.0095264
0.21426 0.13485 0.00071121 0.010368
0.00059391 0.00053937 -0.00093273 -0.00040272 -0.00044872 -0.00096221 0.0015846 -0.0023486
0.00069081 0.010357 0.26093 0.17134
1760000000 0.27557 -0.067401 0.0047433 0.0055091 -0.0025678 0.0010989 0.001274 -0.0034495
-0.0013178 0.00081884 0.00035978 -0.00059251
0.004727 0.0055166 0.24543 0.20382 0.0015305 -0.0018328 -0.001245 0.0002044
-0.0010653 0.00081891 -0.0005487 0.00044741
-0.0025686 0.0011222 0.0014962 -0.0018456 0.2109 -0.22763 0.0011184 0.0010079
-0.0013076 0.0015507 -0.0013345 -0.00075761
0.0012341 -0.0034721 -0.0012378 0.00020339 0.0010707 0.00099544 0.23501 -0.048124
0.00012254 0.0079127 -0.00011664 -0.0027529
-0.0013766 0.00078649 -0.0010713 0.00081711 -0.0012949 0.0015824 0.00015108 0.0079147
0.22932 0.10012 0.0048455 0.0072698
0.00038223 -0.00058658 -0.00058456 0.00044563 -0.0013489 -0.00075519 -0.00011047 -0.0027121
0.0048607 0.0072582 0.27453 0.13385
1820000000 0.25148 -0.10439 0.0043541 0.0019486 -0.00025035 0.0026802 -0.0010335 -0.0031025
-0.0010236 0.001147 -3.6181e-05 -7.2411e-05
0.004344 0.0019611 0.256 0.17421 -0.00095057 -0.0003753 -0.0012443 0.00097648
-0.00011841 0.0012338 -0.00058678 0.00052263
-0.0002322 0.0026998 -0.00095846 -0.00038099 0.15959 -0.24382 0.0016092 0.00041502
-0.00012857 0.0023951 -0.0016361 0.00046593
-0.0010241 -0.0031106 -0.001233 0.0010063 0.0016467 0.00041363 0.20572 -0.095221
0.00091897 0.0062789 -0.0018848 -0.0016607
-0.0010128 0.0011371 -9.819e-05 0.0012394 -0.00012102 0.0024167 0.00092466 0.0062951
0.24611 0.071133 0.0055595 0.0033682
-9.7559e-05 -0.00014609 -0.00054163 0.00049378 -0.0015907 0.00044218 -0.0018825 -0.0016944
0.0055639 0.0033581 0.27649 0.097151
1880000000 0.21731 -0.1447 0.0019239 -3.5237e-05 -0.0005259 0.0024251 -0.0028402 -0.0021837
-7.8418e-05 0.0018178 3.2547e-05 -0.00059883
0.0019331 -3.0659e-05 0.2612 0.12825 -0.0028291 0.0015926 -0.00014843 0.0017631
0.00048997 0.0013752 8.2874e-05 0.00091674
-0.00048962 0.0024681 -0.0028385 0.0016563 0.10779 -0.25322 0.0019149 -0.00082515
0.0016754 0.0021193 -0.0011767 0.0014717
-0.0028675 -0.0021507 -0.00015813 0.0017747 0.0019076 -0.00077865 0.16589 -0.13543
0.0012964 0.0043733 -0.0025561 0.00015793
-6.9083e-05 0.0018564 0.00047189 0.001361 0.0016773 0.0020898 0.0013167 0.0043469
0.24986 0.039815 0.0055514 0.00064535
5.7576e-05 -0.00045975 2.5034e-05 0.00091147 -0.001191 0.0014585 -0.0025643 0.00015643
0.0055369 0.00060442 0.27652 0.063182
1940000000 0.17886 -0.17086 -0.00045979 -0.0014058 0.0015165 0.0022206 -0.0036518 0.00046786
0.0014488 0.0010111 -0.00061807 -0.000618
-0.00046766 -0.0013805 0.26277 0.096385 -0.001536 0.0041306 0.00111 0.0013156
0.0018774 0.00064943 0.0010486 0.00033027
0.0014936 0.0021884 -0.001494 0.0041442 0.062423 -0.24644 0.00057851 -0.0024226
0.0024967 0.00026308 0.00074776 0.0017209
-0.0037258 0.00046874 0.0011405 0.0012792 0.0005328 -0.0024131 0.11398 -0.16686
0.00020692 0.0033467 -0.0017555 0.0016278
0.0014921 0.00096133 0.001902 0.00065076 0.0024463 0.0002563 0.0002098 0.0033466
0.25258 0.0017906 0.0039776 -0.0025872
-0.00056635 -0.00070784 0.001114 0.00027916 0.00073461 0.0016789 -0.0016841 0.0017186
0.003949 -0.0025463 0.26593 0.026857
2000000000 0.13268 -0.18629 -0.0040658 0.00079689 0.0027105 0.0014763 -0.0022915 0.0036811
0.0013215 0.00026569 -0.00045106 0.00061734
-0.004061 0.000791 0.24922 0.060651 -0.0010232 0.0060029 0.0017023 0.00037452
0.0014954 -0.0010371 0.00042156 0.00016771
0.0027441 0.0014653 -0.00098912 0.0060235 0.018766 -0.23258 -0.0013265 -0.0012915
0.0020971 -0.0012185 0.0015988 0.001351
-0.0023244 0.0037398 0.0016661 0.00037298 -0.0012648 -0.0013267 0.060389 -0.17752
-0.0012689 0.003578 -0.00015567 0.0023735
0.0013006 0.00026844 0.0014868 -0.0010691 0.0021359 -0.0012047 -0.0012483 0.0035819
0.24728 -0.03091 0.00045076 -0.0036679
