!Keysight Technologies,M9804A,MY58100912,A.14.10.03
!Date: Thursday, April 27, 2023 10:28:33
!Correction: S11(C  6-Port  ) 
!S12(C  6-Port  ) 
!S13(C  6-Port  ) 
!S14(C  6-Port  ) 
!S15(C  6-Port  ) 
!S16(C  6-Port  ) 
!S21(C  6-Port  ) 
!S22(C  6-Port  ) 
!S23(C  6-Port  ) 
!S24(C  6-Port  ) 
!S25(C  6-Port  ) 
!S26(C  6-Port  ) 
!S31(C  6-Port  ) 
!S32(C  6-Port  ) 
!S33(C  6-Port  ) 
!S34(C  6-Port  ) 
!S35(C  6-Port  ) 
!S36(C  6-Port  ) 
!S41(C  6-Port  ) 
!S42(C  6-Port  ) 
!S43(C  6-Port  ) 
!S44(C  6-Port  ) 
!S45(C  6-Port  ) 
!S46(C  6-Port  ) 
!S51(C  6-Port  ) 
!S52(C  6-Port  ) 
!S53(C  6-Port  ) 
!S54(C  6-Port  ) 
!S55(C  6-Port  ) 
!S56(C  6-Port  ) 
!S61(C  6-Port  ) 
!S62(C  6-Port  ) 
!S63(C  6-Port  ) 
!S64(C  6-Port  ) 
!S65(C  6-Port  ) 
!S66(C  6-Port  ) 
!S6P File: Measurement: :
# Hz S  RI   R 50
500000000 -0.33494 -0.054633 -0.010574 -0.001347 -0.0088063 0.013586 -0.0043319 0.012657
0.013186 0.0047821 -0.0042512 0.0096879
-0.01083 -0.001752 -0.41608 -0.063568 0.0082847 -0.010287 0.0013877 0.01203
0.0075284 0.0027778 0.0016277 0.013812
-0.0088116 0.01349 0.0083475 -0.010354 -0.26702 0.19892 0.0069193 0.0039013
-0.0016725 0.0084175 0.00081945 0.01268
-0.0043302 0.012768 0.001435 0.011984 0.0069161 0.0038964 -0.33157 0.042779
-0.019321 -0.0040824 0.016475 0.025398
0.013086 0.0047795 0.0074018 0.003087 -0.0016369 0.0084072 -0.019343 -0.0041231
-0.24677 -0.19657 -0.028034 0.0050248
-0.0042888 0.0097667 0.0017195 0.01374 0.00085584 0.012743 0.016646 0.025295
-0.028184 0.0049187 -0.27233 -0.12324
560000000 -0.31852 0.11274 -0.02297 -0.065595 0.00026862 0.012585 0.0052505 0.010406
0.011535 0.0053031 0.01047 0.0070011
-0.022705 -0.065687 -0.37566 0.099058 -0.041674 -0.038056 0.014073 0.0030066
-0.013561 -0.0041087 0.0048349 -0.0016643
0.00028182 0.012687 -0.041853 -0.0381 -0.18523 0.25072 -0.00030202 -0.0045631
0.018103 0.0051579 0.008337 -0.0059722
0.0052983 0.010399 0.01422 0.0031781 -0.00028181 -0.0045842 -0.30737 0.1353
0.0052043 -0.023706 0.004548 -0.02078
0.011303 0.0048537 -0.013616 -0.0044306 0.01802 0.0049838 0.0053397 -0.023619
-0.31081 -0.01963 0.0096594 -0.04779
0.010809 0.0072753 0.0048221 -0.0015106 0.0084028 -0.0060457 0.0044245 -0.020956
0.0094174 -0.047743 -0.33202 0.024309
620000000 -0.27765 0.09291 -0.023342 0.0085146 0.003884 0.0091677 0.0080695 -0.0048829
0.012151 -0.0010002 0.00049959 -0.0025457
-0.023424 0.0084127 -0.40349 0.048569 -0.018196 0.0005927 -0.0014987 -0.0022114
0.012239 -0.0059868 0.0010348 -0.0029521
0.0039272 0.0091993 -0.018192 0.00066364 -0.15519 0.26037 -0.00078954 -0.0045651
-0.0027181 -0.0035454 0.009261 -0.0027308
0.0081091 -0.0045107 -0.0017129 -0.0020558 -0.00080898 -0.0045556 -0.26566 0.14594
-0.038773 -0.020114 0.012546 0.026966
0.012047 -0.0012665 0.01262 -0.0062279 -0.0027213 -0.0035073 -0.038651 -0.020098
-0.23054 -0.049686 -0.040842 0.012087
0.0005353 -0.0024133 0.00094789 -0.0031846 0.0092648 -0.0026316 0.012393 0.027047
-0.040875 0.011571 -0.2508 -0.0086343
680000000 -0.23919 0.18351 -0.026078 -0.014382 0.0051786 0.0051404 0.00099882 -0.0076775
-0.0018081 -0.011894 0.0055437 -0.0069015
-0.02595 -0.014315 -0.39002 0.15002 -0.032199 -0.0018195 -0.0011466 -0.00043978
-0.0021877 -0.0092262 -0.0012374 -0.0012876
0.0051711 0.0051496 -0.032226 -0.0017237 -0.1039 0.28073 -0.00088188 -0.00033715
-0.001853 0.00026593 -0.0025666 -0.0087968
0.00096545 -0.007814 -0.0012443 -0.00046072 -0.00088732 -0.00034843 -0.2213 0.1967
-0.02326 -0.0076141 -0.0086518 -0.011693
-0.0017438 -0.011873 -0.0021967 -0.0090653 -0.0018872 0.00027224 -0.023308 -0.0075628
-0.27972 0.052391 -0.0075723 -0.0073494
0.005145 -0.0072149 -0.0012969 -0.0013477 -0.0026524 -0.0088101 -0.0085206 -0.011688
-0.0079004 -0.0071234 -0.25985 0.096379
740000000 -0.19332 0.17705 -0.039725 0.026445 0.013403 -0.0049093 0.00016559 -0.003881
-0.0049283 -0.0035586 -0.0062919 0.0038026
-0.039672 0.02654 -0.3355 0.16859 -0.036845 0.034645 7.5847e-05 -0.006015
-0.012387 0.0073348 -0.0012077 -0.0057858
0.013348 -0.0049082 -0.036787 0.034825 -0.070068 0.27758 -0.0020078 0.0032392
-0.0028765 -0.0057202 -0.0010862 0.00085677
0.00029042 -0.0037703 -6.9208e-05 -0.0060626 -0.0020001 0.0032452 -0.20319 0.20473
-0.042711 -0.0083815 0.022507 0.015678
-0.0050262 -0.003475 -0.012359 0.0075431 -0.0028947 -0.0057038 -0.042733 -0.0083333
-0.18086 0.081297 -0.041413 -0.00020626
-0.0063283 0.0038374 -0.0013107 -0.0058413 -0.0010535 0.00096761 0.022604 0.015646
-0.041407 -0.00026931 -0.2488 0.10176
800000000 -0.16178 0.22109 -0.022398 0.016313 0.0059258 -0.010566 -0.004334 -0.0021281
-0.0042969 0.0021645 0.0045322 0.00057878
-0.022373 0.016287 -0.34122 0.23924 -0.0084022 0.034039 -0.0023476 0.0021034
-0.0009685 0.0028993 0.0009755 0.0051294
0.0058381 -0.010606 -0.0083172 0.034097 -0.031199 0.30182 0.0008978 0.001427
0.00021891 0.0035545 -0.0015945 0.00052118
-0.0044166 -0.002117 -0.0024005 0.0021885 0.00089391 0.0014342 -0.17402 0.23224
-0.02873 0.01316 0.013795 -0.0097763
-0.0042939 0.0022246 -0.0008372 0.0028126 0.00020213 0.0035596 -0.028697 0.013219
-0.22097 0.10909 -0.017643 0.019388
0.0045515 0.00046831 0.00095646 0.0051308 -0.0015141 0.00052529 0.013868 -0.009682
-0.017681 0.019213 -0.24034 0.15026
860000000 -0.12757 0.24048 -0.018023 0.030335 -0.0028452 -0.010366 -0.0019727 0.00044028
0.003819 0.0044677 -0.003404 -0.0028988
-0.017894 0.030308 -0.29292 0.28176 0.0073712 0.034229 -1.0815e-05 0.0017518
0.0035893 0.00019397 0.0033749 0.0002949
-0.0028121 -0.010364 0.0074508 0.034236 0.016369 0.31027 -0.00064309 -0.00026908
0.0023367 -0.0017756 0.0014721 0.0042516
-0.0019169 0.00047519 -5.8595e-05 0.0017965 -0.00063288 -0.00028038 -0.13741 0.24242
-0.018415 0.017526 -0.0057441 -0.0091093
0.0038791 0.0044591 0.0036809 0.00014462 0.0023545 -0.0017537 -0.018408 0.017595
-0.16591 0.15922 -0.024181 0.017194
-0.0034506 -0.0028402 0.0032802 0.0002934 0.001433 0.0042625 -0.0057917 -0.0090531
-0.024351 0.01723 -0.19005 0.1942
920000000 -0.10404 0.26385 0.0044655 0.038303 -0.0092896 -0.0049914 -0.0020507 0.0018128
0.0012374 0.0017708 0.0027068 -0.0013602
0.0044401 0.038211 -0.26574 0.303 0.027935 0.022772 0.0012907 0.0012317
0.0074999 -0.00023673 0.0039141 -0.0028093
-0.009282 -0.0049837 0.028041 0.022736 0.061591 0.31156 0.0019133 -2.312e-06
0.00098366 -0.00017069 0.0009787 -0.0012072
-0.0019595 0.0018112 0.0013104 0.0012921 0.001912 1.9938e-06 -0.11308 0.25911
-0.011305 0.030496 0.0034851 -0.0065581
0.0012076 0.0019162 0.007461 -0.00021781 0.00097381 -0.0001749 -0.01122 0.030536
-0.15494 0.16686 -0.0017905 0.026597
0.0029134 -0.0014715 0.0037806 -0.0028585 0.00098697 -0.001287 0.0035513 -0.0066077
-0.0017297 0.026332 -0.19747 0.20874
980000000 -0.057508 0.2845 0.016788 0.03006 -0.0094403 0.0041708 0.0018694 0.0037962
0.0041556 -0.0016975 -0.0031902 -0.0025559
0.016705 0.030055 -0.21266 0.33799 0.033236 0.0054928 0.0020062 -5.2492e-05
0.0017446 -0.0060022 -0.00039925 -0.0024997
-0.0094014 0.0042141 0.033284 0.0054005 0.10733 0.30602 0.00068293 -0.001151
0.00053599 -0.0019196 0.0014885 -0.00028956
0.0018396 0.0037519 0.0019714 -5.444e-05 0.00068617 -0.0011533 -0.074735 0.27066
0.0072171 0.030137 -0.0088278 -0.0072141
0.0041625 -0.0018262 0.0017069 -0.0060005 0.00052203 -0.0019261 0.0072646 0.030108
-0.12115 0.19557 0.005892 0.019296
-0.0032528 -0.0025683 -0.00042927 -0.002437 0.0015145 -0.00025731 -0.0089281 -0.0071364
0.0057823 0.019358 -0.15414 0.25163
1040000000 -0.015736 0.29334 0.032964 0.019239 -0.0015043 0.0070404 0.0027412 0.00069879
0.00061121 -0.0034463 -0.00021104 -0.0018323
0.03292 0.019229 -0.17766 0.35155 0.030058 -0.014333 0.0018436 -0.00181
-0.0020101 -0.0025971 -0.00075057 -0.0027684
-0.001468 0.0070394 0.03001 -0.014442 0.15315 0.2931 -0.00034515 -0.0016162
-0.0015351 -0.00090314 -0.00039734 -0.001201
0.0027823 0.00070069 0.0018454 -0.0017754 -0.00034013 -0.0016191 -0.047286 0.27977
0.019161 0.018793 -0.0025737 0.0010031
0.0006609 -0.0034083 -0.001989 -0.0026232 -0.001534 -0.00089552 0.019205 0.018739
-0.087554 0.20293 0.01408 0.018151
-0.00014196 -0.0018809 -0.00081428 -0.0027117 -0.00044563 -0.0011796 -0.0024694 0.00092727
0.014037 0.01819 -0.13098 0.27228
1100000000 0.028938 0.30256 0.036343 -0.00338 0.002834 0.0041522 0.0024231 -0.0011462
-0.0021345 -0.0032071 -0.0040174 -0.00021551
0.036296 -0.003378 -0.13472 0.36953 0.016036 -0.027779 4.5007e-05 -0.0019215
-0.0036768 -0.00113 -0.003513 -0.00064749
0.0028506 0.004166 0.015962 -0.027877 0.19908 0.27396 -0.0018851 5.5102e-05
-0.0017648 0.00045495 -0.0010874 -0.00040484
0.0024601 -0.0011634 6.2448e-06 -0.0018903 -0.0018841 5.2188e-05 -0.007245 0.285
0.024938 0.0055876 -0.0023026 4.1095e-05
-0.0021128 -0.003256 -0.0036677 -0.0011818 -0.0017622 0.00044481 0.02496 0.005554
-0.066801 0.21508 0.019152 0.0081824
-0.0039678 -0.00023963 -0.0035653 -0.00066422 -0.0010897 -0.00043603 -0.0023179 6.2505e-05
0.019121 0.0081934 -0.085906 0.30111
1160000000 0.080085 0.29867 0.024669 -0.020377 0.0027594 -0.00041683 -4.5547e-05 -0.0024685
-0.0038961 -0.00086659 -0.001039 0.004198
0.024621 -0.020318 -0.091225 0.37423 -0.0031016 -0.029564 -0.0016562 -0.0017543
-0.0029175 0.0025007 -0.0013844 0.0018745
0.0027562 -0.00044223 -0.0032403 -0.029576 0.24248 0.24408 -0.000815 0.0017
-0.0005347 0.0018634 -0.00089201 0.00034645
-5.1919e-05 -0.0024308 -0.0016748 -0.0017804 -0.00080877 0.0016991 0.032045 0.28255
0.021434 -0.010057 -0.0034015 0.0052095
-0.0038968 -0.00082744 -0.002863 0.0025259 -0.00053001 0.0018758 0.021418 -0.010086
-0.032378 0.22296 0.018358 -0.0005485
-0.0010188 0.004276 -0.0013388 0.0019043 -0.00088694 0.0003398 -0.0033855 0.0052308
0.018416 -0.00061478 -0.038844 0.30371
1220000000 0.12399 0.28876 0.011262 -0.030053 -0.0015427 -0.00090782 -8.0256e-06 -0.00093604
-0.0026543 0.0022374 0.0011198 0.0019259
0.011255 -0.030005 -0.047483 0.38733 -0.016711 -0.021999 -0.0027011 0.00044647
-5.9452e-06 0.0031763 -0.00084662 0.0019276
-0.0015315 -0.00089252 -0.016829 -0.02195 0.28165 0.20582 0.00073223 0.0017354
0.00065105 0.0012131 0.0002378 0.00056069
1.3614e-05 -0.00095258 -0.0027031 0.00046422 0.0007298 0.0017353 0.071992 0.27415
0.01101 -0.017071 0.0021645 0.0014542
-0.0026566 0.0022282 -1.1693e-05 0.0031714 0.00064594 0.0012162 0.010986 -0.017095
-0.0085448 0.23116 0.013746 -0.013184
0.0011286 0.0018834 -0.00087498 0.0019062 0.00023981 0.00054202 0.0021131 0.0014413
0.013717 -0.013151 -0.0070017 0.31863
1280000000 0.17439 0.2684 -0.007404 -0.028873 -0.0019853 0.0024338 -0.00082817 -0.0020349
-0.00078202 0.0031413 0.0024918 0.0013455
-0.0073852 -0.028852 -0.0014929 0.37939 -0.024128 -0.0091524 -0.0010061 0.0014846
0.0017203 0.001707 0.00055367 0.0020988
-0.0019815 0.0024328 -0.024188 -0.0090555 0.31283 0.16268 0.0015903 1.126e-06
0.0012802 0.00023775 0.00040422 0.00019541
-0.00084187 -0.0020114 -0.00099943 0.0014809 0.0015794 1.3827e-06 0.10898 0.25826
0.0013778 -0.019452 -0.000182 0.00026745
-0.00073736 0.003148 0.0017488 0.0016953 0.0012745 0.00022768 0.0013315 -0.019456
0.028071 0.23443 0.0030954 -0.01544
0.0024688 0.0013667 0.00056495 0.0020982 0.00037855 0.00018602 -0.00014164 0.0002724
0.0031037 -0.015402 0.039513 0.32055
1340000000 0.21183 0.23556 -0.017382 -0.019443 0.0007388 0.0047475 -0.0017898 -0.0008205
0.0013598 0.0026689 0.0017645 -0.0011779
-0.017336 -0.019426 0.038064 0.37195 -0.022061 0.0039037 -0.0001112 0.0020439
0.0020314 0.00083188 0.0012264 0.00081121
0.00076845 0.0047504 -0.022062 0.0040113 0.3351 0.11537 0.0011151 -0.00085428
0.00066468 -0.00057658 2.5866e-06 0.00031578
-0.0017927 -0.00081432 -0.00012459 0.0020457 0.0011109 -0.00086018 0.14244 0.23761
-0.0081942 -0.017045 0.0007956 0.00053213
0.0013814 0.0026641 0.0020439 0.00082761 0.00066595 -0.00056429 -0.0082284 -0.017047
0.058012 0.22934 -0.0038653 -0.013938
0.0017532 -0.0012357 0.0012695 0.00081099 2.1658e-05 0.000327 0.00077773 0.00051901
-0.0038099 -0.013994 0.077842 0.31475
1400000000 0.24567 0.1985 -0.023492 -0.00789 0.0053172 0.0034455 -0.0022416 0.00057189
0.0024166 0.0009939 0.00041422 -0.0015692
-0.023467 -0.0078962 0.07565 0.35983 -0.015502 0.012489 0.0013436 0.0013269
0.0013415 -0.00078956 0.0012216 0.00011169
0.0053198 0.0034054 -0.015454 0.01258 0.34875 0.062281 9.3224e-05 -0.0016259
4.935e-05 -0.00042783 0.00030599 0.00020449
-0.0022611 0.00058044 0.0013588 0.0013111 8.9693e-05 -0.0016311 0.17212 0.20863
-0.014324 -0.0102 -0.00083785 -0.0002304
0.0024197 0.00096293 0.0013324 -0.00080169 2.9099e-05 -0.00043679 -0.014353 -0.010165
0.090899 0.22481 -0.01021 -0.0087668
0.0004024 -0.0015823 0.001214 0.00011125 0.00030735 0.00014925 -0.00086766 -0.00023437
-0.010154 -0.008781 0.12204 0.30399
1460000000 0.26927 0.15491 -0.020572 0.0044645 0.0058978 -0.0016969 -0.001579 0.0018053
0.002134 -0.00040751 -0.00028717 -0.0010031
-0.020556 0.0044449 0.11061 0.33847 -0.0064509 0.015826 0.0017325 0.00016241
0.00092181 -0.0013928 0.0012722 -0.00058932
0.0059034 -0.001716 -0.0063837 0.015875 0.35564 0.0083063 -0.0012164 -0.0013767
0.00014065 -0.00022185 0.00070884 -0.00028902
-0.0015926 0.0018063 0.0017424 0.00015651 -0.0012126 -0.0013818 0.19914 0.17916
-0.015835 -0.0036471 -0.00090267 0.0020988
0.0020948 -0.0004157 0.00090694 -0.0014031 0.00013395 -0.00023022 -0.015849 -0.0036041
0.12025 0.2108 -0.012078 -0.0029453
-0.00028931 -0.00097345 0.0012256 -0.00059039 0.00069704 -0.00028423 -0.00083651 0.0020904
-0.012054 -0.0028917 0.15538 0.2834
1520000000 0.28204 0.11346 -0.015034 0.010084 0.0035375 -0.0043375 9.2025e-05 0.0025924
0.0021307 -0.001824 -0.0012282 -0.00021889
-0.015028 0.010086 0.14453 0.32413 0.0015016 0.013595 0.0016632 -0.00074677
1.3716e-05 -0.0011318 0.00034826 -0.0010163
0.0035095 -0.0043412 0.0015807 0.013596 0.34901 -0.047763 -0.0010664 -0.0003067
0.00064455 -0.00077256 0.0001262 -0.00011636
0.00012216 0.002595 0.0016571 -0.00075945 -0.0010676 -0.00029836 0.22236 0.14048
-0.01544 0.0023879 0.0014743 0.0021767
0.0021151 -0.0018245 1.3385e-05 -0.0011293 0.00064986 -0.0007984 -0.015439 0.0024143
0.14835 0.19745 -0.01187 0.0016587
-0.0012484 -0.00023297 0.00033859 -0.0010162 9.7746e-05 -0.00011517 0.0014792 0.0021694
-0.011886 0.0016245 0.18793 0.26268
1580000000 0.29232 0.067612 -0.0083397 0.01343 -0.00088101 -0.0051801 0.0015233 0.0019785
-0.00018371 -0.0021502 -0.00024992 0.00038029
-0.0083471 0.013419 0.17238 0.29968 0.0054933 0.0085686 0.00053985 -0.0015595
-0.00061447 -0.0010385 -0.00017492 -0.00079658
-0.00092581 -0.0051724 0.0055338 0.0085568 0.32973 -0.10524 -0.0017101 0.00063387
-0.00030714 -0.001236 0.00027194 -0.00053043
0.001512 0.0020124 0.00053728 -0.0015591 -0.001716 0.00063142 0.23621 0.10082
-0.012082 0.0074871 0.0022391 0.00082071
-0.00019697 -0.0021511 -0.00062945 -0.0010141 -0.00029481 -0.0012268 -0.012053 0.0075284
0.17288 0.17975 -0.0095856 0.0073362
-0.00023945 0.00038469 -0.00016351 -0.00078356 0.00024931 -0.00054486 0.0022805 0.00081281
-0.0095525 0.007329 0.21962 0.23603
1640000000 0.29512 0.026206 -0.0015783 0.012366 -0.0029458 -0.0027625 0.0027786 0.0010514
-0.00069356 -0.0016124 -0.0003587 0.0006579
-0.0015896 0.012365 0.20248 0.27471 0.0062637 0.0035153 -0.00060778 -0.0017928
-0.001053 -0.00041702 -0.00054009 -0.00068743
-0.0029617 -0.0027619 0.0062924 0.0034871 0.30169 -0.15485 -0.00064069 0.0013868
-0.0010059 -0.0010327 -0.00020411 -0.0003598
0.002772 0.001028 -0.00061967 -0.0018054 -0.00063579 0.0013709 0.24847 0.051518
-0.0077975 0.0091964 0.002553 -0.00082218
-0.00066571 -0.0016167 -0.0010504 -0.00041216 -0.00102 -0.0010306 -0.0077832 0.0092244
0.19632 0.156 -0.0046991 0.0093758
-0.00033521 0.00066596 -0.00055409 -0.00066961 -0.00015803 -0.00033039 0.0025597 -0.00082205
-0.004726 0.0094076 0.24537 0.20507
1700000000 0.28845 -0.019205 0.0019417 0.0096701 -0.0037302 3.5987e-05 0.0031656 -0.0012007
-0.0020018 -0.00070689 0.00063113 0.00044805
0.0019421 0.0096578 0.2208 0.24328 0.0041008 0.00045195 -0.0015032 -0.00061353
-0.00079939 5.4509e-05 -0.00095578 -0.000469
-0.0037098 3.3322e-05 0.0041083 0.00045026 0.25818 -0.19484 0.00038263 0.0016212
-0.0019403 -0.00018474 -0.0003734 -0.00080337
0.003142 -0.0012205 -0.0014953 -0.00061413 0.00039518 0.0016211 0.24484 0.0016363
-0.0048759 0.010018 0.0017143 -0.0022304
-0.0020069 -0.00069641 -0.00080793 5.6644e-05 -0.0019303 -0.00020747 -0.0048593 0.010026
0.21382 0.13565 -0.00013378 0.0097774
0.0006072 0.00046767 -0.00098191 -0.00047802 -0.00041332 -0.00083609 0.0017144 -0.0022392
-0.00011593 0.0097755 0.26162 0.1708
1760000000 0.27676 -0.068089 0.0044038 0.0063744 -0.0023702 0.00098992 0.0012664 -0.0034368
-0.0015171 0.00059713 0.00035161 -0.000486
0.0043823 0.0063671 0.24728 0.20348 0.001788 -0.0014443 -0.0012492 0.00013997
-0.0010723 0.00090039 -0.0006662 0.00031121
-0.002369 0.0010011 0.0017826 -0.0014608 0.21011 -0.22768 0.0010624 0.0010447
-0.0013813 0.0014065 -0.0012072 -0.00081541
0.0012651 -0.0034511 -0.0012498 0.00014272 0.001047 0.0010447 0.23577 -0.049916
-0.0011412 0.0092597 -9.6035e-05 -0.0027336
-0.0014975 0.00059579 -0.0010519 0.00091482 -0.0013627 0.0013913 -0.0011206 0.0092691
0.22918 0.10124 0.0039396 0.0071939
0.00034038 -0.00049456 -0.00065155 0.00031453 -0.001193 -0.00078383 -0.00018153 -0.0026826
0.0038924 0.0072092 0.27411 0.1332
1820000000 0.25225 -0.10588 0.004648 0.0026816 -0.00013202 0.0024412 -0.00093554 -0.0031302
-0.0011965 0.0010448 -9.6263e-05 -0.00013908
0.0046172 0.0026858 0.25752 0.17312 -0.00061571 -0.00036537 -0.0013609 0.00091198
-4.156e-05 0.0012492 -0.00063582 0.00054852
-0.00010649 0.0024782 -0.00061229 -0.00035411 0.1594 -0.24408 0.0015605 0.00045831
-0.00031134 0.0024125 -0.0014285 0.00041314
-0.00093061 -0.0031301 -0.0013521 0.0009116 0.001539 0.00043037 0.20537 -0.097129
0.00056349 0.007876 -0.0016372 -0.0014296
-0.0011704 0.0010428 -2.597e-05 0.001237 -0.00029772 0.0023711 0.0005826 0.0078688
0.24646 0.072216 0.0047613 0.003884
-4.7278e-05 -0.00019816 -0.00065147 0.00055013 -0.0013967 0.00046882 -0.0015554 -0.0014388
0.0048225 0.0039106 0.27661 0.096817
1880000000 0.21718 -0.14633 0.002477 0.00024999 -0.00059553 0.0021895 -0.002888 -0.002186
-0.00034002 0.0019699 7.9943e-06 -0.00053054
0.0024638 0.0002501 0.26212 0.12657 -0.0025652 0.0015977 -0.00026267 0.0018012
0.00051382 0.0013201 3.0228e-05 0.00099492
-0.00059815 0.0022081 -0.0025676 0.0015933 0.10732 -0.2531 0.0017599 -0.00079379
0.0014553 0.0020614 -0.0011646 0.001429
-0.002922 -0.0021728 -0.00025864 0.0018042 0.0017633 -0.00079877 0.16464 -0.13721
0.0018682 0.0055506 -0.0024644 0.00011647
-0.00033731 0.0019542 0.00053059 0.0013102 0.0014533 0.0020597 0.0018889 0.0055346
0.25083 0.040873 0.0051993 0.0013151
7.0472e-06 -0.00050024 4.9581e-05 0.0010006 -0.0011331 0.001465 -0.0025757 0.00014927
0.0051336 0.001249 0.27636 0.062884
1940000000 0.17761 -0.17219 -6.3307e-06 -0.001505 0.0013811 0.0022314 -0.0037379 0.00037283
0.0014609 0.0011713 -0.00050622 -0.00055845
7.5818e-06 -0.0015349 0.26287 0.094491 -0.0014329 0.0040805 0.0010532 0.0013298
0.0019026 0.00050035 0.0010266 0.00052096
0.0013901 0.0021824 -0.0014209 0.004108 0.061916 -0.24589 0.00050643 -0.0021923
0.0024774 0.00033741 0.00053054 0.0018252
-0.0037758 0.0004473 0.001067 0.0013559 0.00052103 -0.0021996 0.11218 -0.16741
0.0010548 0.004187 -0.0014936 0.0014733
0.0014569 0.0012299 0.0019052 0.00050104 0.0024917 0.00034088 0.0010875 0.0041978
0.25396 0.0024796 0.0039286 -0.0016286
-0.00048406 -0.00061161 0.0010457 0.00051327 0.00050895 0.0018349 -0.0014223 0.0015023
0.0039994 -0.0016461 0.2658 0.026804
2000000000 0.13133 -0.18674 -0.0039829 0.00059904 0.0026074 0.0015339 -0.0023554 0.0037501
0.0013717 0.0004279 -0.00059568 0.00049885
-0.0039614 0.00062674 0.24847 0.058848 -0.0010022 0.0059075 0.0017099 0.00049871
0.0014035 -0.001046 0.00056506 0.00012858
0.0026112 0.0015359 -0.00095215 0.0059216 0.018946 -0.23215 -0.0012544 -0.0013268
0.0021903 -0.0011394 0.0015973 0.0014178
-0.0023774 0.0037537 0.0017202 0.00048966 -0.0012661 -0.0013468 0.058865 -0.17741
-0.00015721 0.0035114 -1.4869e-05 0.0021314
0.0013263 0.00037795 0.0014062 -0.0010693 0.0022267 -0.0011523 -0.00015168 0.0035507
0.24933 -0.030951 0.00080429 -0.002946
