!Keysight Technologies,M9804A,MY58100912,A.14.10.03
!Date: Thursday, April 27, 2023 10:28:33
!Correction: S11(C  6-Port  ) 
!S12(C  6-Port  ) 
!S13(C  6-Port  ) 
!S14(C  6-Port  ) 
!S15(C  6-Port  ) 
!S16(C  6-Port  ) 
!S21(C  6-Port  ) 
!S22(C  6-Port  ) 
!S23(C  6-Port  ) 
!S24(C  6-Port  ) 
!S25(C  6-Port  ) 
!S26(C  6-Port  ) 
!S31(C  6-Port  ) 
!S32(C  6-Port  ) 
!S33(C  6-Port  ) 
!S34(C  6-Port  ) 
!S35(C  6-Port  ) 
!S36(C  6-Port  ) 
!S41(C  6-Port  ) 
!S42(C  6-Port  ) 
!S43(C  6-Port  ) 
!S44(C  6-Port  ) 
!S45(C  6-Port  ) 
!S46(C  6-Port  ) 
!S51(C  6-Port  ) 
!S52(C  6-Port  ) 
!S53(C  6-Port  ) 
!S54(C  6-Port  ) 
!S55(C  6-Port  ) 
!S56(C  6-Port  ) 
!S61(C  6-Port  ) 
!S62(C  6-Port  ) 
!S63(C  6-Port  ) 
!S64(C  6-Port  ) 
!S65(C  6-Port  ) 
!S66(C  6-Port  ) 
!S6P File: Measurement: :
# Hz S  RI   R 50
500000000 -0.33508 -0.054649 -0.010642 -0.0011219 -0.0082566 0.013407 -0.004877 0.012315
0.013282 0.004666 -0.0050997 0.0080005
-0.010658 -0.0013783 -0.4167 -0.063856 0.0079756 -0.010417 0.0007961 0.01173
0.0081002 0.002906 0.00077755 0.012997
-0.0082397 0.013563 0.0079565 -0.010444 -0.26729 0.19911 0.0066294 0.0038548
-0.0015765 0.008378 4.8482e-05 0.012465
-0.0048334 0.012261 0.00080117 0.011731 0.0066699 0.0038758 -0.33201 0.043799
-0.018486 -0.0050226 0.015685 0.026397
0.01328 0.0042584 0.0081991 0.0027744 -0.0015519 0.0083973 -0.018692 -0.0048907
-0.24567 -0.19661 -0.026377 0.0046138
-0.0046202 0.008404 0.00097193 0.013473 0.00035125 0.012709 0.015921 0.02603
-0.026611 0.0047185 -0.27256 -0.12236
560000000 -0.31958 0.11315 -0.02279 -0.064074 -0.00042921 0.011756 0.0047698 0.010729
0.010806 0.0042583 0.010634 0.0082868
-0.022793 -0.0641 -0.37653 0.099428 -0.04077 -0.037848 0.013263 0.0032486
-0.01192 -0.0040544 0.0038946 -0.0010732
-0.00030011 0.011946 -0.040905 -0.037774 -0.18543 0.25107 -0.00046075 -0.0048135
0.018356 0.0058522 0.0082015 -0.0061265
0.0049825 0.010632 0.013257 0.0032404 -0.00050042 -0.0047968 -0.30684 0.13467
0.0048293 -0.023705 0.0055967 -0.021587
0.010927 0.0037715 -0.011845 -0.0038486 0.018074 0.005826 0.0049312 -0.023809
-0.30991 -0.017609 0.0089779 -0.049334
0.010337 0.008384 0.0033874 -0.0009099 0.0078502 -0.0064113 0.0057415 -0.021625
0.0082313 -0.048387 -0.33116 0.024144
620000000 -0.27777 0.093557 -0.023166 0.0084636 0.0036367 0.0092781 0.007801 -0.004577
0.012284 -0.00081996 -0.00036769 -0.002025
-0.023199 0.0084568 -0.4036 0.048652 -0.018298 0.00089335 -0.0014397 -0.0019614
0.012203 -0.0064952 0.0010539 -0.0029902
0.0037542 0.0093272 -0.018321 0.00094245 -0.15535 0.26022 -0.00079964 -0.0050448
-0.0033852 -0.0026647 0.0091265 -0.0027012
0.0078565 -0.0046146 -0.0014839 -0.0019798 -0.00079437 -0.0050629 -0.26616 0.14566
-0.038665 -0.018634 0.012482 0.027364
0.012044 -0.00093625 0.01226 -0.0064819 -0.0034631 -0.0026068 -0.038697 -0.018611
-0.22926 -0.052569 -0.041882 0.013065
-0.00057432 -0.0020938 0.0011881 -0.0030146 0.008997 -0.0027822 0.012344 0.026883
-0.041954 0.013444 -0.2509 -0.0078406
680000000 -0.23885 0.18322 -0.026333 -0.014521 0.0051766 0.0051379 0.0018613 -0.0075186
-0.0027723 -0.012025 0.0060125 -0.0069555
-0.026228 -0.014585 -0.39016 0.14978 -0.032419 -0.0020312 -0.0011532 -0.00041915
-0.0020363 -0.0095786 -0.0014278 -0.001625
0.0051763 0.0050591 -0.032446 -0.0019445 -0.10403 0.28063 -0.00045644 -0.00029901
-0.0019424 0.00022895 -0.002422 -0.009357
0.0018971 -0.0075387 -0.0011266 -0.00036419 -0.00046762 -0.0002983 -0.22061 0.19749
-0.023398 -0.007992 -0.0084131 -0.012484
-0.0028381 -0.011902 -0.0021039 -0.009551 -0.0019595 0.00021575 -0.02333 -0.0080483
-0.27953 0.053017 -0.0078682 -0.0074695
0.0060129 -0.007174 -0.0012049 -0.0017314 -0.0020553 -0.0092205 -0.0083029 -0.012234
-0.0077156 -0.0073805 -0.25817 0.095555
740000000 -0.19359 0.177 -0.039568 0.026483 0.013358 -0.0048458 -0.00011301 -0.0039406
-0.0043639 -0.0033242 -0.0067307 0.0036568
-0.039518 0.026508 -0.33555 0.16815 -0.036953 0.034874 -0.00013663 -0.0063385
-0.012549 0.0076814 -0.0012344 -0.0063878
0.013459 -0.0049095 -0.036877 0.035029 -0.070126 0.27761 -0.0019177 0.0033349
-0.0025351 -0.0055034 -0.00092353 0.00088653
-0.00022057 -0.0038404 -0.0001757 -0.0063323 -0.0019635 0.0033467 -0.20373 0.20399
-0.043089 -0.0073592 0.022517 0.014949
-0.0042431 -0.0033641 -0.012337 0.0078887 -0.0026262 -0.0054304 -0.042929 -0.0072807
-0.17857 0.079159 -0.043512 -0.00039138
-0.0067028 0.0037293 -0.0014159 -0.0061684 -0.0012411 0.0011275 0.022534 0.014622
-0.043586 0.00038018 -0.24782 0.10179
800000000 -0.16232 0.2204 -0.022384 0.016308 0.0059232 -0.010625 -0.0041264 -0.0020826
-0.0048641 0.0018357 0.0045312 0.00064545
-0.022331 0.016363 -0.3414 0.23944 -0.008419 0.034117 -0.0021383 0.0022138
-0.001217 0.0027601 0.00095172 0.0054721
0.0058758 -0.010685 -0.0083273 0.034178 -0.031257 0.3019 0.0010035 0.0014503
-0.00014446 0.0037115 -0.0015141 0.00059234
-0.0041557 -0.0020901 -0.00212 0.0022288 0.001002 0.0014331 -0.17378 0.23198
-0.028604 0.013532 0.014293 -0.0096599
-0.0049086 0.0020712 -0.0011984 0.002793 -9.0711e-05 0.0037002 -0.028586 0.01359
-0.22184 0.10854 -0.01813 0.019709
0.0046728 0.00059271 0.0011316 0.0055009 -0.0015357 0.00065559 0.014208 -0.010227
-0.01803 0.019766 -0.24012 0.1502
860000000 -0.12753 0.24067 -0.017992 0.030215 -0.0028558 -0.010404 -0.0020206 0.00056733
0.00338 0.0048071 -0.0033475 -0.003335
-0.018057 0.030218 -0.29303 0.2818 0.0073326 0.034243 0.00010339 0.0019473
0.0034253 0.00031198 0.0032218 0.00037645
-0.00289 -0.010379 0.007442 0.034243 0.016379 0.3102 -0.00061611 -0.00017055
0.0022018 -0.001678 0.0015261 0.0043838
-0.0020506 0.00041889 0.00011789 0.0019455 -0.00061189 -0.0002138 -0.13733 0.24271
-0.018639 0.017818 -0.0060538 -0.0090845
0.0035012 0.0047742 0.0034683 0.00038638 0.0021731 -0.0016199 -0.018535 0.017724
-0.166 0.16008 -0.024723 0.016473
-0.0035717 -0.0031285 0.0032576 0.00038781 0.0016642 0.0043674 -0.0058162 -0.0089033
-0.024774 0.016747 -0.19011 0.19466
920000000 -0.10395 0.26391 0.0043999 0.038257 -0.0092892 -0.0050087 -0.0021644 0.0016792
0.0010657 0.0019925 0.0027476 -0.0015073
0.0043528 0.038238 -0.26602 0.30294 0.027932 0.022855 0.0012726 0.0012622
0.0074009 -0.00032023 0.0040165 -0.0028466
-0.0093132 -0.0049977 0.028025 0.022798 0.061548 0.31158 0.0017941 3.7812e-05
0.0009597 -0.00026198 0.00092637 -0.0012629
-0.0021516 0.0017183 0.00125 0.0012608 0.0018036 2.6515e-05 -0.11314 0.25938
-0.011497 0.030637 0.0032436 -0.00635
0.001059 0.0020119 0.0074649 -0.00032414 0.0009224 -0.00028044 -0.011495 0.030529
-0.15503 0.16532 -0.0019445 0.026429
0.0026379 -0.0016891 0.0037586 -0.0029086 0.00086945 -0.0013412 0.0033216 -0.0063787
-0.0020344 0.026751 -0.19755 0.20883
980000000 -0.057419 0.28427 0.016797 0.03007 -0.0094153 0.0042012 0.0018485 0.0036417
0.0040761 -0.001562 -0.0028176 -0.002337
0.016778 0.030036 -0.21267 0.33791 0.033232 0.0055061 0.0020662 -3.8093e-05
0.0017279 -0.0059662 -0.00012716 -0.0022408
-0.0093998 0.0042196 0.033273 0.0053918 0.10727 0.30602 0.00065819 -0.0011443
0.00061167 -0.001973 0.0015909 -0.00020611
0.0019007 0.0036302 0.0020537 -3.0368e-05 0.00065688 -0.001144 -0.074791 0.27052
0.0073485 0.030272 -0.0087432 -0.0072895
0.0040577 -0.0014943 0.0015972 -0.0059881 0.00056589 -0.0019253 0.0072918 0.030277
-0.12129 0.19578 0.0065547 0.019416
-0.002795 -0.0023848 -7.6647e-05 -0.0022762 0.0016419 -0.00021231 -0.0087544 -0.0070609
0.0064201 0.019199 -0.15419 0.25138
1040000000 -0.015781 0.29335 0.03291 0.019212 -0.0015303 0.0070298 0.0027993 0.00083288
0.00052456 -0.0032913 -0.00015942 -0.001671
0.032847 0.019208 -0.17766 0.35154 0.030097 -0.014354 0.0018186 -0.0017459
-0.0019833 -0.0023614 -0.00062699 -0.0027471
-0.0014951 0.0070356 0.030061 -0.014462 0.15313 0.29309 -0.00034443 -0.0016158
-0.0015566 -0.00085581 -0.00043397 -0.0011417
0.0027942 0.00080426 0.001799 -0.0017474 -0.00036108 -0.0016273 -0.047326 0.27991
0.019107 0.018843 -0.0024419 0.0011464
0.00050137 -0.0033165 -0.002021 -0.0023672 -0.0015784 -0.00086913 0.019126 0.018892
-0.087269 0.20212 0.013953 0.017998
-0.00011095 -0.0017376 -0.00073171 -0.0026999 -0.00043471 -0.0011342 -0.0024224 0.001173
0.013877 0.018132 -0.13146 0.27207
1100000000 0.028794 0.3026 0.036294 -0.003318 0.0028314 0.0042187 0.0024738 -0.0011647
-0.0020858 -0.0033198 -0.0039256 -6.538e-05
0.036248 -0.0033169 -0.13475 0.36947 0.016062 -0.027725 0.00012187 -0.0019227
-0.0035338 -0.0012492 -0.0036197 -0.00056009
0.0028468 0.0042129 0.015972 -0.027809 0.19904 0.27397 -0.0018988 0.00012206
-0.0017641 0.0004719 -0.0011167 -0.00042486
0.00248 -0.0011804 0.0001213 -0.0019192 -0.0018977 0.0001328 -0.0073304 0.28502
0.02498 0.0056528 -0.0022851 -6.3627e-05
-0.0021158 -0.0033339 -0.0035247 -0.0012016 -0.0017596 0.00046616 0.024966 0.0055825
-0.066843 0.21529 0.019377 0.0081949
-0.0040158 -2.2012e-05 -0.0036135 -0.00053219 -0.0011345 -0.00043103 -0.0023555 -8.0691e-06
0.01945 0.0081819 -0.085803 0.30109
1160000000 0.080037 0.2987 0.024605 -0.020329 0.0027852 -0.000403 -7.9997e-05 -0.0023924
-0.004023 -0.00086433 -0.00101 0.0041509
0.024581 -0.020328 -0.091317 0.37417 -0.0030539 -0.029604 -0.0015907 -0.0017608
-0.0028748 0.002512 -0.0015098 0.0019826
0.0027915 -0.00040773 -0.0031899 -0.029611 0.24243 0.24412 -0.00078245 0.0017276
-0.0006008 0.0019707 -0.00077749 0.00024544
-7.5627e-05 -0.0024239 -0.0016083 -0.0017481 -0.00078801 0.0017212 0.031946 0.28253
0.021442 -0.010127 -0.0033198 0.0051308
-0.0039922 -0.00085325 -0.0028288 0.0025426 -0.00058776 0.0019798 0.021429 -0.010181
-0.032506 0.22283 0.018383 -0.00044804
-0.0010072 0.0040994 -0.0016268 0.0019347 -0.00073829 0.0002415 -0.0033403 0.0051553
0.018314 -0.0004607 -0.038938 0.30361
1220000000 0.12395 0.28882 0.011327 -0.030051 -0.0015106 -0.00090808 2.083e-05 -0.00093565
-0.0027135 0.0022016 0.0010579 0.001955
0.01132 -0.030038 -0.047507 0.38731 -0.016737 -0.022029 -0.0026619 0.00042109
-2.5917e-05 0.0031446 -0.00084477 0.0018258
-0.0015256 -0.00089671 -0.016854 -0.021979 0.28164 0.20584 0.00068797 0.0017442
0.00057276 0.0011874 0.00021392 0.00061782
-2.8233e-05 -0.00094249 -0.0026759 0.00042768 0.00068509 0.0017321 0.072034 0.27414
0.011187 -0.01702 0.0021134 0.0015218
-0.0027248 0.0022061 -1.5848e-05 0.0031277 0.00055131 0.0012065 0.011196 -0.017066
-0.0085578 0.23136 0.013799 -0.013151
0.0010708 0.0019853 -0.00082565 0.0018746 0.00022845 0.00058995 0.0020916 0.0014458
0.013871 -0.013054 -0.0071343 0.31869
1280000000 0.17424 0.26847 -0.0074087 -0.028906 -0.0019546 0.0024345 -0.00089852 -0.0020539
-0.00078185 0.0032081 0.0025046 0.0013252
-0.0074163 -0.028882 -0.0015444 0.37934 -0.024116 -0.0091704 -0.0010839 0.0014531
0.0017505 0.001754 0.00056734 0.0020517
-0.0019644 0.0024305 -0.024198 -0.0090771 0.31275 0.16269 0.0016056 4.2983e-05
0.0012887 0.00024726 0.00036508 0.00016813
-0.00090998 -0.002068 -0.0010752 0.0014597 0.0016033 4.0564e-05 0.10899 0.25825
0.0012798 -0.019471 -0.00021655 0.00034485
-0.00077408 0.0031846 0.0017581 0.001735 0.0012924 0.00023 0.0012645 -0.0195
0.027883 0.23433 0.002997 -0.015498
0.0025093 0.0012527 0.00051096 0.0020344 0.00032865 0.00014538 -0.00013548 0.00031648
0.0029931 -0.015464 0.039346 0.32039
1340000000 0.21175 0.23564 -0.017371 -0.019463 0.00074467 0.0047184 -0.0017677 -0.00081511
0.0013149 0.0026548 0.0017849 -0.0012288
-0.017369 -0.019453 0.037981 0.3719 -0.022071 0.0038697 -9.3044e-05 0.0020624
0.0020094 0.00085964 0.001281 0.0007857
0.00076943 0.0047325 -0.022069 0.0039772 0.33507 0.11547 0.0011558 -0.00082275
0.00065218 -0.00053151 4.7807e-05 0.00022489
-0.001792 -0.00085473 -8.3778e-05 0.002068 0.0011567 -0.00081431 0.14236 0.23748
-0.0081128 -0.017001 0.00081738 0.00041102
0.0013131 0.0026295 0.0020125 0.00085359 0.00061206 -0.00053864 -0.0081332 -0.016996
0.058104 0.22937 -0.0037528 -0.014139
0.0017701 -0.0012804 0.0012752 0.00077712 0.00010333 0.00021146 0.00079339 0.00043248
-0.0037562 -0.014073 0.07771 0.31477
1400000000 0.24565 0.19857 -0.023493 -0.0079107 0.0053513 0.0034418 -0.0022558 0.00063414
0.0023748 0.00098414 0.00028862 -0.001463
-0.02347 -0.0079086 0.075603 0.35982 -0.015484 0.012465 0.0013599 0.0013387
0.0013464 -0.00074917 0.0012181 0.00020121
0.0053567 0.0034122 -0.015437 0.012553 0.34876 0.062318 0.00010895 -0.0016509
0.00011413 -0.00039833 0.00035837 0.0001643
-0.002252 0.00061869 0.0013672 0.0013383 9.1938e-05 -0.0016461 0.17212 0.20864
-0.014409 -0.010222 -0.00082895 -0.0002489
0.002385 0.00095426 0.0013398 -0.0007706 0.00012749 -0.00038211 -0.014441 -0.010184
0.090668 0.22483 -0.010355 -0.0088227
0.00033601 -0.0014782 0.0012207 0.00012843 0.00035093 0.00012966 -0.00086447 -0.00026199
-0.010303 -0.0087519 0.1219 0.30395
1460000000 0.26932 0.15491 -0.020579 0.0044415 0.0058403 -0.0016682 -0.0015747 0.0017996
0.0021548 -0.00042084 -0.00031832 -0.0010422
-0.020576 0.0044259 0.11053 0.33848 -0.0065093 0.015811 0.001744 0.0001869
0.00090819 -0.0013539 0.0012523 -0.00057403
0.0058535 -0.001669 -0.0064348 0.015858 0.35559 0.0082185 -0.001207 -0.00132
5.398e-05 -0.00016793 0.00069927 -0.00023055
-0.0015868 0.0017877 0.0017512 0.00018312 -0.0011959 -0.0013315 0.19904 0.17913
-0.015847 -0.0036396 -0.00082572 0.0020169
0.0021475 -0.00044185 0.00089619 -0.0013628 4.1776e-05 -0.00013072 -0.015861 -0.0036449
0.1202 0.21088 -0.012023 -0.0028293
-0.00034556 -0.0010377 0.0012335 -0.00059173 0.00072392 -0.00017287 -0.00086098 0.0020823
-0.01204 -0.0028469 0.15514 0.2835
1520000000 0.28209 0.11347 -0.015066 0.01007 0.0035639 -0.0043229 6.5833e-05 0.0026089
0.0021737 -0.0018087 -0.0011677 -0.00021072
-0.015053 0.010058 0.14448 0.32413 0.0015062 0.013624 0.0016318 -0.00077264
1.3495e-05 -0.0011251 0.00032783 -0.00099311
0.0035548 -0.0043435 0.0015722 0.013627 0.34897 -0.047743 -0.001083 -0.00036348
0.00067764 -0.00074573 8.5159e-05 -0.00012539
7.3181e-05 0.0026268 0.0016249 -0.00078472 -0.0010798 -0.00036517 0.22229 0.14056
-0.015443 0.0023572 0.0015091 0.0022311
0.002131 -0.0018453 -5.3026e-06 -0.00115 0.00065553 -0.00075787 -0.015431 0.0023827
0.1483 0.19746 -0.011983 0.0017286
-0.001189 -0.00022603 0.00031167 -0.0010252 8.7394e-05 -9.8692e-05 0.0015466 0.0021948
-0.011945 0.0017171 0.18785 0.26279
1580000000 0.29237 0.067603 -0.0083446 0.013442 -0.00091912 -0.005169 0.0015543 0.0019657
-0.00014548 -0.0021456 -0.00024765 0.0003954
-0.0083475 0.013444 0.17233 0.2997 0.0054648 0.0085758 0.00052952 -0.001551
-0.00064293 -0.0010379 -0.00013751 -0.00086537
-0.0009582 -0.0051684 0.0055097 0.0085575 0.32994 -0.1053 -0.0017506 0.0006108
-0.00030462 -0.0012996 0.00030457 -0.00061809
0.0015428 0.0019666 0.00053013 -0.001549 -0.0017537 0.00061426 0.23611 0.10089
-0.01209 0.0074963 0.0022412 0.00089095
-0.00014196 -0.0021457 -0.00064176 -0.0010179 -0.0002902 -0.0012931 -0.012094 0.0075085
0.17278 0.17969 -0.0095339 0.0073247
-0.00028068 0.00042578 -0.00014557 -0.00083678 0.00026088 -0.00057368 0.0022493 0.00088495
-0.009572 0.007312 0.2194 0.23609
1640000000 0.29505 0.026279 -0.0016014 0.012409 -0.0029438 -0.0027496 0.0027652 0.0010618
-0.0007205 -0.001601 -0.00035252 0.00065581
-0.001602 0.012388 0.20243 0.27474 0.0062313 0.0035501 -0.00059517 -0.0017921
-0.0010532 -0.00040321 -0.00053539 -0.00070698
-0.0029777 -0.0027151 0.0062594 0.0035288 0.30159 -0.15471 -0.00063357 0.0014845
-0.0010257 -0.00096387 -0.00020405 -0.00028248
0.0027606 0.0010296 -0.00059887 -0.0017796 -0.00062806 0.0014818 0.2485 0.051608
-0.0078564 0.009143 0.002571 -0.00069834
-0.00072905 -0.001604 -0.001056 -0.0003709 -0.0010357 -0.00097788 -0.0078009 0.0091346
0.19618 0.15587 -0.004741 0.0095316
-0.00034679 0.00067216 -0.00055715 -0.00067132 -0.00017763 -0.00024184 0.0025854 -0.00077583
-0.0047506 0.0095086 0.24526 0.20507
1700000000 0.28837 -0.019192 0.0019262 0.0096839 -0.0038102 5.6172e-05 0.0031846 -0.0012476
-0.0020107 -0.00073922 0.00057239 0.00042998
0.0019308 0.0096675 0.22078 0.24329 0.0041204 0.00041628 -0.0014934 -0.00060836
-0.000794 4.8798e-05 -0.00094922 -0.00047505
-0.0038106 6.4505e-05 0.0041195 0.0004044 0.25816 -0.19484 0.00046114 0.0015971
-0.00196 -0.00011126 -0.00039172 -0.0008092
0.0031698 -0.0012341 -0.0014955 -0.00060262 0.0004511 0.0015968 0.24486 0.0016177
-0.0048136 0.0099566 0.001656 -0.0022706
-0.002029 -0.00072558 -0.00081903 5.0661e-05 -0.0019715 -0.00014568 -0.0048058 0.010001
0.21372 0.13568 -0.00012828 0.0097216
0.00061023 0.00040892 -0.00095045 -0.00048944 -0.00038781 -0.00086798 0.0016983 -0.0022885
-9.6114e-05 0.00979 0.26144 0.17106
1760000000 0.27676 -0.067994 0.0044258 0.006418 -0.0024092 0.0010312 0.0013082 -0.0034334
-0.0014872 0.00063347 0.00031848 -0.00046922
0.004419 0.0063999 0.24725 0.20351 0.0017668 -0.0014702 -0.0012368 0.00019045
-0.0010938 0.00090974 -0.00068481 0.00032978
-0.0024101 0.0010321 0.0017618 -0.0014745 0.21028 -0.2278 0.0010135 0.0011289
-0.0013977 0.0013748 -0.0012235 -0.00078313
0.0013183 -0.0034516 -0.0012418 0.00020614 0.0010016 0.0011227 0.23573 -0.049858
-0.0011411 0.0092368 -0.00018931 -0.0027128
-0.0014593 0.00063708 -0.0010747 0.00091974 -0.0013783 0.0013475 -0.0011722 0.0092701
0.22905 0.10131 0.0038759 0.0072394
0.00032919 -0.00046583 -0.00068083 0.00034262 -0.0012616 -0.00083234 -0.00015559 -0.0026146
0.0038735 0.007236 0.27402 0.13327
1820000000 0.25229 -0.10568 0.0046449 0.0027159 -0.00015521 0.0024611 -0.0009632 -0.0031378
-0.0011842 0.0010359 -6.7523e-05 -8.3592e-05
0.0046366 0.0027039 0.2575 0.17316 -0.00057913 -0.00035279 -0.0013456 0.00091587
-2.3089e-05 0.0012364 -0.00066088 0.00055077
-0.00016917 0.002473 -0.0005804 -0.00034767 0.1594 -0.24391 0.0016018 0.00048115
-0.00028839 0.0023958 -0.0015155 0.00047214
-0.00093931 -0.0031431 -0.0013585 0.00092507 0.0016133 0.00050517 0.20546 -0.097164
0.00064238 0.0078944 -0.0016266 -0.0015987
-0.001169 0.00099623 8.1708e-06 0.0012423 -0.00023711 0.0024259 0.00065661 0.0078847
0.24645 0.072346 0.0048056 0.0038023
-2.8541e-05 -0.00012837 -0.00064331 0.00054128 -0.0015106 0.00043099 -0.0016559 -0.0015222
0.004819 0.0038036 0.27628 0.096895
1880000000 0.21722 -0.14608 0.0024389 0.00026992 -0.00065508 0.0021906 -0.0028946 -0.0021824
-0.00039197 0.0019774 -7.4869e-05 -0.00047656
0.0024384 0.00027778 0.2621 0.12659 -0.0025118 0.0014929 -0.0002533 0.0018058
0.00051733 0.0013131 1.8558e-05 0.00096917
-0.00066278 0.0021964 -0.0024999 0.0015123 0.10768 -0.25317 0.0018617 -0.00081556
0.0015664 0.0021084 -0.0011775 0.0013117
-0.0028916 -0.0022126 -0.00024657 0.001809 0.0018702 -0.00085085 0.16464 -0.1371
0.0017371 0.0055499 -0.0024287 0.00018805
-0.00030166 0.0019292 0.00056293 0.0012851 0.0015386 0.0020668 0.0017357 0.0055636
0.25072 0.040986 0.0051828 0.0013781
-0.00010011 -0.00049816 4.5633e-06 0.00098645 -0.00112 0.0013824 -0.0023926 0.00020387
0.0051641 0.001419 0.27631 0.063293
1940000000 0.17757 -0.17211 -2.6083e-05 -0.0015403 0.0014532 0.0021178 -0.0037567 0.00045586
0.0013494 0.001248 -0.00060643 -0.00050084
-2.6654e-05 -0.001514 0.26284 0.094555 -0.0014436 0.0040821 0.0010282 0.001368
0.0018463 0.00050297 0.0010044 0.00050262
0.0014768 0.0021293 -0.0014079 0.0040959 0.061935 -0.24585 0.00044888 -0.002196
0.0024505 0.00039134 0.00040827 0.00174
-0.0037013 0.00047106 0.0010382 0.0013786 0.00045368 -0.0021915 0.11231 -0.16773
0.0011038 0.0040695 -0.0014435 0.001491
0.0013904 0.0012447 0.0018315 0.00047237 0.0024132 0.00037326 0.0011675 0.0040099
0.25403 0.0025608 0.0039872 -0.0017635
-0.00054839 -0.00045223 0.00098892 0.00049344 0.00050052 0.0017944 -0.0015563 0.0014764
0.0039887 -0.0017194 0.26561 0.026867
2000000000 0.13136 -0.18683 -0.0039679 0.0006137 0.0025771 0.0015368 -0.002286 0.003713
0.0014396 0.00031984 -0.00052573 0.00044091
-0.0039868 0.00058054 0.2485 0.058921 -0.00099513 0.0059527 0.0016463 0.00052772
0.0013921 -0.0010599 0.00059045 0.00017728
0.0026029 0.0015436 -0.00094365 0.0059653 0.018756 -0.23204 -0.0011005 -0.0012768
0.0021745 -0.00098001 0.0016483 0.0015466
-0.0023099 0.0037167 0.001657 0.00050135 -0.0010835 -0.0012793 0.05873 -0.17713
-0.00030159 0.0035573 -0.00013313 0.0023932
0.0014041 0.00026713 0.0013567 -0.0010881 0.0021241 -0.00099742 -0.00028248 0.0036393
0.2493 -0.03085 0.0006972 -0.0027845
