!Keysight Technologies,M9804A,MY58100912,A.14.10.03
!Date: Thursday, April 27, 2023 10:28:33
!Correction: S11(C  6-Port  ) 
!S12(C  6-Port  ) 
!S13(C  6-Port  ) 
!S14(C  6-Port  ) 
!S15(C  6-Port  ) 
!S16(C  6-Port  ) 
!S21(C  6-Port  ) 
!S22(C  6-Port  ) 
!S23(C  6-Port  ) 
!S24(C  6-Port  ) 
!S25(C  6-Port  ) 
!S26(C  6-Port  ) 
!S31(C  6-Port  ) 
!S32(C  6-Port  ) 
!S33(C  6-Port  ) 
!S34(C  6-Port  ) 
!S35(C  6-Port  ) 
!S36(C  6-Port  ) 
!S41(C  6-Port  ) 
!S42(C  6-Port  ) 
!S43(C  6-Port  ) 
!S44(C  6-Port  ) 
!S45(C  6-Port  ) 
!S46(C  6-Port  ) 
!S51(C  6-Port  ) 
!S52(C  6-Port  ) 
!S53(C  6-Port  ) 
!S54(C  6-Port  ) 
!S55(C  6-Port  ) 
!S56(C  6-Port  ) 
!S61(C  6-Port  ) 
!S62(C  6-Port  ) 
!S63(C  6-Port  ) 
!S64(C  6-Port  ) 
!S65(C  6-Port  ) 
!S66(C  6-Port  ) 
!S6P File: Measurement: :
# Hz S  RI   R 50
500000000 -0.33477 -0.054528 -0.010607 -0.0012046 -0.0085341 0.013425 -0.0047717 0.012349
0.013436 0.0053566 -0.0044904 0.0080497
-0.010482 -0.00095895 -0.4163 -0.06451 0.0080418 -0.010471 0.0010722 0.012452
0.0079702 0.0025317 0.0011693 0.013965
-0.0083869 0.013529 0.0079968 -0.010493 -0.26731 0.19853 0.006897 0.0036846
-0.001843 0.0078531 0.00033184 0.011965
-0.0047281 0.012451 0.00099868 0.012491 0.0068662 0.0036957 -0.3322 0.042771
-0.01826 -0.004026 0.016434 0.0252
0.013554 0.005403 0.0077499 0.002563 -0.0019316 0.0083901 -0.018428 -0.0043694
-0.24693 -0.1974 -0.026428 0.0049215
-0.0048694 0.0089934 0.0010145 0.014316 0.00059842 0.011991 0.016104 0.025437
-0.026905 0.0055482 -0.27097 -0.12429
560000000 -0.31941 0.11268 -0.02286 -0.064514 0.00033492 0.01298 0.0046022 0.0099329
0.010925 0.0039422 0.010433 0.0086963
-0.022773 -0.064554 -0.37579 0.098622 -0.041639 -0.037879 0.012984 0.0035233
-0.012124 -0.003723 0.0027355 -0.00096759
0.00049208 0.013086 -0.041837 -0.037659 -0.18589 0.25036 -0.00034459 -0.0046421
0.018254 0.0058774 0.0077421 -0.0061591
0.0046026 0.0098867 0.013244 0.0034862 -0.00047471 -0.0046155 -0.30741 0.13418
0.0056795 -0.024636 0.0052053 -0.021822
0.01033 0.0050059 -0.012246 -0.0031121 0.018214 0.0055351 0.0053906 -0.024376
-0.31156 -0.020232 0.0085907 -0.047877
0.0099378 0.0083337 0.0029852 -0.0011218 0.0073727 -0.0060257 0.0053587 -0.02202
0.0091977 -0.0476 -0.33237 0.023811
620000000 -0.27752 0.092217 -0.023236 0.0086608 0.0036734 0.0092745 0.0083272 -0.004567
0.012036 -0.00062964 0.00015179 -0.0030667
-0.023278 0.0086417 -0.40362 0.048025 -0.018444 0.00081104 -0.0014733 -0.0019953
0.012213 -0.0063301 0.0009085 -0.0029154
0.0038083 0.0091884 -0.018412 0.00085744 -0.15578 0.2601 -0.00107 -0.0052235
-0.0027223 -0.002952 0.0085632 -0.0028372
0.008341 -0.0044116 -0.0015013 -0.0019073 -0.0011004 -0.0052968 -0.26581 0.14553
-0.038346 -0.019112 0.013021 0.027253
0.011856 -0.0010662 0.012164 -0.0065138 -0.0028388 -0.0028002 -0.038342 -0.018943
-0.23214 -0.052245 -0.040677 0.013088
-0.00017905 -0.0027684 0.0010164 -0.0028469 0.0083859 -0.003118 0.012416 0.027391
-0.040095 0.01288 -0.251 -0.0090952
680000000 -0.23966 0.18263 -0.026241 -0.014691 0.0051463 0.0051056 0.0017845 -0.007258
-0.0021827 -0.012017 0.0054853 -0.0070282
-0.026158 -0.014672 -0.39014 0.14926 -0.032405 -0.0020283 -0.0014135 -0.00064619
-0.0020976 -0.0094067 -0.001004 -0.0015414
0.00522 0.0050691 -0.032431 -0.0019231 -0.10419 0.28029 -0.00069409 -0.00045638
-0.0018053 0.00019206 -0.0026069 -0.0091043
0.0017924 -0.007228 -0.0013924 -0.00062174 -0.00070319 -0.00050606 -0.22128 0.19708
-0.023391 -0.0076858 -0.0086918 -0.011475
-0.002056 -0.012133 -0.0020138 -0.0095356 -0.0019142 0.0001506 -0.023517 -0.0076267
-0.27973 0.051487 -0.0077443 -0.0072543
0.0058856 -0.0072143 -0.00098483 -0.0016053 -0.0024231 -0.0090694 -0.0085497 -0.011633
-0.0079332 -0.0070583 -0.25967 0.095785
740000000 -0.19381 0.17658 -0.040063 0.026501 0.013818 -0.0048723 -0.00014746 -0.0040284
-0.0041473 -0.0026344 -0.0062856 0.0031839
-0.039985 0.026582 -0.33555 0.16738 -0.036991 0.034988 -0.00030783 -0.0062934
-0.011817 0.007355 -0.0011061 -0.0059308
0.013812 -0.0048718 -0.036896 0.035073 -0.070485 0.27759 -0.0018853 0.0034379
-0.0028242 -0.0058844 -0.0014039 0.001372
-0.00021474 -0.0040813 -0.00034349 -0.0063043 -0.0018839 0.0034688 -0.20356 0.20389
-0.043629 -0.0069757 0.022989 0.015279
-0.0042751 -0.0030752 -0.012055 0.0077727 -0.0029038 -0.0058783 -0.043534 -0.006997
-0.17915 0.077688 -0.041883 0.00071275
-0.0065651 0.0034026 -0.0014519 -0.0063319 -0.001319 0.0013968 0.023128 0.014837
-0.042269 0.00099799 -0.24853 0.099911
800000000 -0.16214 0.2207 -0.022529 0.016748 0.0060357 -0.010435 -0.0041136 -0.0019687
-0.0046309 0.0023457 0.0048779 0.00068551
-0.022476 0.016757 -0.34189 0.23883 -0.0086237 0.034414 -0.0022787 0.0022499
-0.0011388 0.0030721 0.0012182 0.0054047
0.0060204 -0.010482 -0.0085152 0.034427 -0.03169 0.30194 0.0010309 0.0016261
-4.7913e-05 0.0035057 -0.0016207 0.0008755
-0.0041726 -0.0020115 -0.0022608 0.002204 0.0010359 0.0016358 -0.17409 0.23181
-0.028929 0.013237 0.014086 -0.0099902
-0.0044799 0.0025188 -0.0011336 0.0030953 3.8462e-05 0.0036009 -0.028967 0.013322
-0.22186 0.10887 -0.017325 0.018915
0.0047788 0.00083349 0.00109 0.0053634 -0.0015369 0.001125 0.014236 -0.0096669
-0.017133 0.018656 -0.24102 0.14938
860000000 -0.12772 0.24054 -0.017949 0.030381 -0.0027251 -0.010548 -0.0017361 0.00069338
0.0036113 0.0049838 -0.0035468 -0.0031032
-0.017874 0.030356 -0.29333 0.28134 0.0075167 0.034611 8.8113e-06 0.0020116
0.0036596 0.0005097 0.0031475 0.0003937
-0.0027472 -0.010526 0.0076451 0.034635 0.015835 0.31035 -0.00060126 -0.00013613
0.0022819 -0.0016418 0.0017017 0.0042346
-0.0017152 0.00076925 2.8612e-05 0.0020069 -0.00060892 -0.00013517 -0.13773 0.2427
-0.01853 0.017906 -0.0062267 -0.0088323
0.0037205 0.0049685 0.0038005 0.0005007 0.0023296 -0.0015748 -0.018543 0.018028
-0.16605 0.15931 -0.024556 0.017182
-0.0034903 -0.0030735 0.0032574 0.00041763 0.0017757 0.0041297 -0.0062109 -0.0088875
-0.024199 0.017287 -0.18985 0.19327
920000000 -0.10419 0.26374 0.0046252 0.038435 -0.009382 -0.0052056 -0.0019301 0.0017222
0.0010835 0.0021208 0.0027515 -0.0015609
0.0045461 0.038353 -0.26639 0.30264 0.028202 0.022873 0.0014122 0.0013856
0.007821 -0.00041291 0.0040254 -0.0029363
-0.0094026 -0.0051748 0.028326 0.022792 0.061176 0.31185 0.0018854 4.0855e-07
0.001043 -0.00032302 0.00092063 -0.0013795
-0.0019869 0.0017289 0.0014264 0.0013743 0.0018609 -1.0946e-05 -0.11347 0.25934
-0.011145 0.030774 0.0033805 -0.0070622
0.0011337 0.0021002 0.0077456 -0.00048333 0.0010139 -0.00031197 -0.011042 0.030815
-0.15529 0.16535 -0.002068 0.026892
0.0027686 -0.0016432 0.0041291 -0.0029519 0.00094431 -0.0013924 0.0034281 -0.0069801
-0.001958 0.027079 -0.19742 0.20771
980000000 -0.057743 0.28411 0.016977 0.030355 -0.0096062 0.0041773 0.0017585 0.0035837
0.0041342 -0.0016645 -0.0028079 -0.0023579
0.01692 0.030322 -0.21325 0.33774 0.033616 0.0054805 0.0020834 -0.00010515
0.0017909 -0.00592 -5.2273e-05 -0.0023115
-0.0095978 0.0041997 0.033687 0.0053693 0.10708 0.30648 0.00068937 -0.0011133
0.00053618 -0.0020048 0.0015802 -0.00020173
0.0017864 0.0035571 0.0020828 -0.00010229 0.00070659 -0.0011357 -0.075168 0.27069
0.0076408 0.030682 -0.0088412 -0.0071254
0.0041894 -0.0017078 0.0018059 -0.0059418 0.00054922 -0.0020086 0.007655 0.030597
-0.12174 0.19545 0.0060574 0.019737
-0.0029239 -0.0025007 -2.8326e-05 -0.0022597 0.0016057 -0.00018139 -0.0088673 -0.0071793
0.0062278 0.019676 -0.15444 0.25189
1040000000 -0.016518 0.29325 0.033047 0.019239 -0.0016788 0.007155 0.0027768 0.0008749
0.00050414 -0.0033219 -9.5667e-05 -0.0014698
0.033004 0.019193 -0.1785 0.35135 0.030305 -0.014607 0.0016911 -0.0017534
-0.002016 -0.0024821 -0.000949 -0.0027564
-0.0016526 0.0071668 0.030295 -0.014757 0.15315 0.29365 -0.0004341 -0.0016199
-0.0016373 -0.0008811 -0.00053917 -0.0010691
0.0028158 0.00085289 0.001671 -0.0017281 -0.00042202 -0.0016097 -0.047436 0.28017
0.019817 0.019165 -0.0026105 0.0010813
0.00047905 -0.0033502 -0.0020095 -0.0024209 -0.0016481 -0.00089705 0.019858 0.019161
-0.087938 0.20197 0.01386 0.018354
-9.2304e-05 -0.0015755 -0.00098317 -0.0028683 -0.00052821 -0.0010755 -0.0025864 0.0010032
0.013761 0.018204 -0.13208 0.27237
1100000000 0.028263 0.30256 0.036643 -0.0034715 0.0028221 0.0042662 0.0024127 -0.0011538
-0.0021393 -0.0032124 -0.0039824 -0.00012272
0.03662 -0.0034439 -0.13537 0.36975 0.016049 -0.028218 6.2952e-05 -0.0019627
-0.0036812 -0.00096256 -0.003508 -0.00063653
0.0028355 0.0042587 0.015955 -0.028316 0.1995 0.27445 -0.0019342 8.5406e-05
-0.0018044 0.00051783 -0.00105 -0.00052522
0.002406 -0.0011698 4.9135e-05 -0.0019742 -0.0019372 8.5284e-05 -0.0073189 0.28547
0.025661 0.005534 -0.002507 -4.6591e-05
-0.0021726 -0.003218 -0.003716 -0.00090802 -0.001809 0.00050341 0.025672 0.0054373
-0.067504 0.21488 0.019627 0.0084052
-0.0040786 -0.0001173 -0.0035522 -0.00064547 -0.0011058 -0.00050744 -0.0025057 2.9646e-05
0.019542 0.0084238 -0.086417 0.30105
1160000000 0.07933 0.29884 0.024727 -0.020762 0.0028474 -0.00039822 -0.00017509 -0.0023798
-0.003944 -0.0008865 -0.0011221 0.004126
0.024715 -0.020731 -0.091896 0.37472 -0.0033699 -0.029913 -0.0016864 -0.0017467
-0.0028684 0.0026498 -0.0015947 0.0020668
0.0028338 -0.00040487 -0.003498 -0.029941 0.24309 0.24417 -0.00084766 0.0017958
-0.00060347 0.0020123 -0.00096322 0.00027571
-0.00014475 -0.0023789 -0.0017115 -0.0017345 -0.0008405 0.001792 0.032172 0.28279
0.021794 -0.010742 -0.00322 0.0051061
-0.0040085 -0.00089231 -0.0028873 0.002623 -0.00060272 0.0019779 0.021852 -0.010765
-0.033169 0.22284 0.018476 -0.00066836
-0.0010651 0.0041285 -0.0015169 0.0020262 -0.00098206 0.00025818 -0.0032487 0.0050968
0.018356 -0.00074499 -0.039373 0.304
1220000000 0.12349 0.28923 0.011208 -0.030453 -0.001588 -0.0008967 -3.4398e-05 -0.00089389
-0.0026969 0.0022633 0.0011309 0.0020289
0.011204 -0.03043 -0.047622 0.38797 -0.017214 -0.022144 -0.0027089 0.00048843
-2.7473e-05 0.00324 -0.00081179 0.0020031
-0.0015961 -0.00090828 -0.017322 -0.022105 0.2822 0.20543 0.00078738 0.001815
0.00063633 0.0012886 0.00024313 0.00060785
-3.5005e-05 -0.00089556 -0.0027281 0.00050407 0.00078385 0.0018117 0.072313 0.27415
0.0111 -0.017925 0.0019445 0.0014286
-0.002718 0.0023075 1.6035e-06 0.0032164 0.00065372 0.0012911 0.011135 -0.017937
-0.0094486 0.23145 0.013811 -0.013536
0.0011243 0.0019833 -0.0008062 0.0019601 0.00026353 0.00059719 0.0019533 0.0013767
0.013741 -0.013521 -0.0081114 0.31882
1280000000 0.17401 0.26887 -0.0078369 -0.029187 -0.0020231 0.0024968 -0.00082974 -0.0020642
-0.00080896 0.0033088 0.0025627 0.0012207
-0.0078181 -0.029167 -0.0012109 0.3798 -0.024542 -0.0090056 -0.001006 0.0015037
0.001852 0.0017148 0.00063498 0.0020675
-0.002033 0.0025158 -0.024607 -0.0089073 0.3129 0.16192 0.0015966 6.0663e-06
0.001289 0.00025039 0.00034922 0.00023508
-0.00083567 -0.0020586 -0.001015 0.0015148 0.001598 1.1345e-05 0.10946 0.25799
0.00082892 -0.020256 -0.00014151 0.00034694
-0.000817 0.0032738 0.0018813 0.001725 0.001281 0.0002581 0.00078089 -0.020236
0.027278 0.23475 0.0027865 -0.015678
0.0025301 0.001225 0.00064146 0.0020854 0.00036778 0.00027834 -0.00016896 0.00031016
0.0028102 -0.015797 0.039634 0.32071
1340000000 0.21163 0.23602 -0.017875 -0.019425 0.00081834 0.0048049 -0.0017409 -0.00084815
0.0014471 0.0026934 0.001721 -0.0013587
-0.017836 -0.019418 0.038525 0.37194 -0.022297 0.0042784 -3.8255e-05 0.0020342
0.0020395 0.00079564 0.0012597 0.00077221
0.00084815 0.0047897 -0.022298 0.004395 0.33488 0.11471 0.0011318 -0.0010031
0.00065251 -0.00067793 3.1019e-06 0.00026957
-0.0017503 -0.000847 -3.8503e-05 0.0020472 0.0011312 -0.0009932 0.14252 0.23712
-0.009093 -0.017272 0.00070769 0.00058715
0.0014719 0.0027108 0.0020383 0.00078432 0.00062818 -0.00068334 -0.009168 -0.01725
0.057634 0.23017 -0.0042364 -0.01429
0.0018075 -0.00135 0.0012945 0.00078012 9.3787e-05 0.0002722 0.00076023 0.00064006
-0.004132 -0.014375 0.077347 0.31532
1400000000 0.24564 0.1988 -0.023879 -0.0075703 0.0053688 0.0034798 -0.0022528 0.00067669
0.0024559 0.00099958 0.00028875 -0.0015432
-0.023866 -0.0075545 0.076142 0.35943 -0.015451 0.012883 0.0014536 0.001324
0.0013383 -0.00083347 0.0012592 7.0914e-06
0.005381 0.0034774 -0.015414 0.012975 0.348 0.061772 7.3463e-05 -0.0016745
0.00017875 -0.00042263 0.00038136 0.00013278
-0.0022506 0.00067132 0.0014349 0.0013136 8.5682e-05 -0.0016612 0.17205 0.20809
-0.015398 -0.0099847 -0.00081244 -0.00014942
0.0024893 0.0010145 0.0013284 -0.0008398 0.00015801 -0.00043004 -0.015477 -0.0099838
0.09072 0.22557 -0.010646 -0.0087659
0.00027573 -0.0014971 0.0012656 5.299e-05 0.00038197 0.00012877 -0.00090908 -8.403e-05
-0.010671 -0.0088634 0.12171 0.30418
1460000000 0.26912 0.15492 -0.020706 0.0049279 0.0060242 -0.0017241 -0.0015997 0.0018229
0.0023252 -0.00052257 -0.00036707 -0.0010226
-0.020701 0.0049142 0.11072 0.33762 -0.006163 0.016045 0.0017149 0.00014455
0.00085467 -0.0013638 0.0012148 -0.0006052
0.0060252 -0.0017458 -0.0060966 0.016092 0.35457 0.0082934 -0.0012483 -0.0013288
0.00010328 -0.00027045 0.00060497 -0.00019586
-0.0015746 0.0018235 0.0016998 0.00012686 -0.0012472 -0.0013379 0.19865 0.17863
-0.016598 -0.0027854 -0.00071321 0.0021166
0.0023112 -0.00053489 0.00085482 -0.0013576 7.0668e-05 -0.0002774 -0.01661 -0.0027713
0.12018 0.21125 -0.012473 -0.0026198
-0.00039457 -0.00095406 0.0012268 -0.00060886 0.00065915 -0.00020597 -0.00073671 0.0021613
-0.012496 -0.0026241 0.15507 0.28351
1520000000 0.28178 0.1136 -0.01494 0.01057 0.0035929 -0.0044922 0.00012036 0.0025668
0.0021654 -0.0020152 -0.0012172 -0.00011277
-0.014929 0.010564 0.14421 0.32327 0.0018436 0.013578 0.0016467 -0.00081294
-2.3964e-05 -0.0011208 0.00028949 -0.0010485
0.0035725 -0.0045046 0.0019152 0.013583 0.34844 -0.04721 -0.0011094 -0.00032217
0.00063275 -0.00085863 2.3932e-05 -0.00015824
0.00013097 0.0025561 0.0016509 -0.00081215 -0.0011037 -0.00032243 0.22178 0.14017
-0.015461 0.0035134 0.0016186 0.002097
0.002161 -0.0020198 -2.5015e-05 -0.0011049 0.00064281 -0.0008514 -0.01547 0.0035585
0.14861 0.1977 -0.012185 0.0020676
-0.0011977 -0.00015352 0.0002834 -0.0010701 5.7514e-05 -0.00021901 0.0016719 0.0021503
-0.012133 0.0020431 0.18748 0.26274
1580000000 0.29188 0.067634 -0.0079758 0.013795 -0.00089719 -0.0052656 0.0015184 0.0019471
-0.0002636 -0.0023178 -0.00028738 0.0004605
-0.0079798 0.013791 0.17156 0.29881 0.0056704 0.008401 0.00053971 -0.0015668
-0.00059343 -0.0010035 -0.0002579 -0.00081216
-0.00091022 -0.0052577 0.0057297 0.0083844 0.32937 -0.10465 -0.0016032 0.00065138
-0.0003443 -0.0011747 0.00025229 -0.00059609
0.0015141 0.0019509 0.00051714 -0.001563 -0.0016111 0.00065793 0.23532 0.10067
-0.011444 0.0084528 0.0022897 0.0007652
-0.0002605 -0.002289 -0.00059893 -0.0010106 -0.00037749 -0.0011595 -0.011469 0.0084887
0.17304 0.18002 -0.0094205 0.0077674
-0.00027491 0.00043443 -0.00025531 -0.00081034 0.00028802 -0.00057666 0.002305 0.00073363
-0.0094404 0.0078521 0.2191 0.23627
1640000000 0.29444 0.026589 -0.0010431 0.012457 -0.0030496 -0.0027176 0.0027673 0.0010859
-0.0009093 -0.0015819 -0.00038253 0.00067521
-0.001059 0.012447 0.20127 0.27431 0.0063184 0.0033207 -0.0006344 -0.0018053
-0.00098798 -0.00035837 -0.00058094 -0.00064073
-0.0030865 -0.0026894 0.0063515 0.0032956 0.30147 -0.15401 -0.00059753 0.0014148
-0.0010407 -0.0009341 -0.00020811 -0.00034936
0.0027597 0.0010756 -0.00064613 -0.0017968 -0.00060259 0.0014041 0.24753 0.05191
-0.0067907 0.0096284 0.0026429 -0.00075322
-0.00090463 -0.0015618 -0.0010113 -0.00035948 -0.0010838 -0.00096282 -0.0067563 0.0096378
0.19641 0.15595 -0.0044367 0.0099081
-0.00031667 0.00065864 -0.00057711 -0.00062767 -0.00020876 -0.00026912 0.0026586 -0.00079776
-0.004389 0.0099131 0.24499 0.20543
1700000000 0.28776 -0.018567 0.0023641 0.0093798 -0.003767 -1.8079e-05 0.0031868 -0.0012389
-0.0020253 -0.00058337 0.00059802 0.00045271
0.0023652 0.0093798 0.21951 0.24326 0.0041672 0.00031768 -0.0015405 -0.00057069
-0.00077146 3.4037e-05 -0.00087825 -0.00046694
-0.0037619 4.0125e-06 0.0041701 0.00029468 0.25871 -0.19383 0.0004605 0.0015813
-0.0019408 -6.0906e-05 -0.00039498 -0.00091521
0.0031946 -0.0012511 -0.0015319 -0.00055458 0.00044828 0.0015962 0.24406 0.0023599
-0.0038019 0.0097547 0.0016805 -0.0023513
-0.0020406 -0.00056782 -0.0007843 3.0738e-05 -0.0020194 -4.4792e-05 -0.0037663 0.0097608
0.21398 0.1355 0.00039809 0.0099154
0.00056508 0.00040688 -0.00092205 -0.00043866 -0.00043109 -0.00089846 0.0016911 -0.0023731
0.00045512 0.0098855 0.26116 0.17125
1760000000 0.27618 -0.067122 0.0045526 0.0059378 -0.0024848 0.0010588 0.0013199 -0.0034754
-0.0013371 0.00071283 0.00041638 -0.00053602
0.0045212 0.0059326 0.24593 0.20395 0.0016558 -0.0016473 -0.0012062 0.00018747
-0.0010461 0.0008685 -0.00062882 0.00038548
-0.0024789 0.0010891 0.0016573 -0.0016556 0.21101 -0.22767 0.0011021 0.0010419
-0.0012545 0.0014404 -0.0012091 -0.00071468
0.0013018 -0.0034657 -0.0012 0.0002014 0.001101 0.0010545 0.23538 -0.048795
-0.00052256 0.0085861 -9.7266e-05 -0.0026737
-0.001336 0.00071885 -0.0010217 0.00089178 -0.0012541 0.0014358 -0.00051529 0.0085654
0.22907 0.10088 0.0043968 0.0072168
0.00039827 -0.00048998 -0.00059658 0.00036653 -0.0012577 -0.00069548 -0.00011588 -0.0025895
0.0043974 0.0072403 0.27417 0.13364
1820000000 0.25216 -0.10458 0.004519 0.0023835 -0.0002537 0.0026243 -0.00092222 -0.0031388
-0.0010853 0.0010102 -5.1085e-05 -0.00012807
0.0045046 0.0023754 0.25649 0.1741 -0.00077987 -0.00035203 -0.0012846 0.00096626
-8.4311e-05 0.0012126 -0.0006513 0.00052779
-0.00022889 0.0025957 -0.00078829 -0.00035295 0.15962 -0.24385 0.0017192 0.00046036
-0.00012898 0.002381 -0.0014935 0.00032805
-0.00093772 -0.0031429 -0.0012887 0.00097057 0.0017158 0.00045073 0.20564 -0.096005
0.00074342 0.0069984 -0.0017311 -0.0017159
-0.0010282 0.00099823 -4.1307e-05 0.0012211 -0.0001159 0.002424 0.00083913 0.0069492
0.24622 0.071863 0.0052248 0.0035446
-6.006e-06 -0.00013018 -0.00061185 0.00050231 -0.0015057 0.00027871 -0.0017361 -0.0017637
0.0052427 0.0035474 0.27631 0.097353
1880000000 0.21751 -0.14507 0.0021919 6.3134e-05 -0.00054513 0.0022848 -0.0029583 -0.0021959
-0.00025994 0.0018025 5.5227e-05 -0.0006137
0.0022032 7.5767e-05 0.2615 0.12776 -0.0026041 0.0016116 -0.00019093 0.0017417
0.0005468 0.0013437 6.0504e-05 0.00096824
-0.00052521 0.0023003 -0.0026059 0.0016366 0.10781 -0.25303 0.0017653 -0.0009084
0.001584 0.002024 -0.001151 0.001519
-0.0029643 -0.0021982 -0.00018863 0.0017252 0.001795 -0.0008999 0.16542 -0.13606
0.0013494 0.0049227 -0.0025663 9.6114e-05
-0.00024699 0.0017601 0.00054883 0.0013274 0.001556 0.0020309 0.00136 0.0049672
0.25021 0.040381 0.0054694 0.00088047
3.5195e-05 -0.00059235 7.8945e-05 0.00097733 -0.001082 0.0015161 -0.0025501 6.1174e-05
0.0054818 0.0008851 0.27658 0.063219
1940000000 0.17836 -0.17107 -0.00026926 -0.001487 0.0014224 0.0021571 -0.0037338 0.00038043
0.0013973 0.0010649 -0.0005539 -0.0006502
-0.0002622 -0.0014892 0.26269 0.095811 -0.0013875 0.004057 0.0010728 0.0013102
0.0018924 0.00054889 0.0010515 0.00038088
0.0014334 0.0021638 -0.0013536 0.004056 0.062612 -0.24603 0.00047056 -0.0022061
0.0023971 0.00035361 0.00049095 0.0016761
-0.0037126 0.00038761 0.0010786 0.0013399 0.00049433 -0.0022205 0.11322 -0.16705
0.00061942 0.0037009 -0.0016053 0.0014834
0.0013976 0.0010416 0.0018925 0.000532 0.002407 0.00037879 0.00059371 0.0036835
0.25318 0.0023274 0.003946 -0.0022747
-0.00051312 -0.00070232 0.001064 0.000394 0.00053391 0.0017239 -0.0016765 0.0014606
0.003883 -0.002371 0.26591 0.027095
2000000000 0.13232 -0.1861 -0.0040883 0.00073001 0.0025643 0.001469 -0.0020919 0.0037384
0.0013471 0.00043237 -0.00060633 0.00054319
-0.0040679 0.00074356 0.24875 0.060029 -0.0010702 0.0058386 0.0017003 0.00054778
0.0014426 -0.0010425 0.00051449 0.00012754
0.0025962 0.0014431 -0.0010251 0.0058303 0.018983 -0.23253 -0.001212 -0.0014102
0.0022143 -0.0010843 0.0016979 0.0016066
-0.0020939 0.0037368 0.0017086 0.00050242 -0.0011952 -0.0014022 0.059999 -0.17725
-0.00089168 0.0034766 -0.00020744 0.0022976
0.0013419 0.00039284 0.0014541 -0.0010693 0.0022208 -0.0010687 -0.00080382 0.003544
0.24818 -0.03086 0.00039033 -0.0032246
