!Keysight Technologies,M9804A,MY58100912,A.14.10.03
!Date: Thursday, April 27, 2023 10:28:33
!Correction: S11(C  6-Port  ) 
!S12(C  6-Port  ) 
!S13(C  6-Port  ) 
!S14(C  6-Port  ) 
!S15(C  6-Port  ) 
!S16(C  6-Port  ) 
!S21(C  6-Port  ) 
!S22(C  6-Port  ) 
!S23(C  6-Port  ) 
!S24(C  6-Port  ) 
!S25(C  6-Port  ) 
!S26(C  6-Port  ) 
!S31(C  6-Port  ) 
!S32(C  6-Port  ) 
!S33(C  6-Port  ) 
!S34(C  6-Port  ) 
!S35(C  6-Port  ) 
!S36(C  6-Port  ) 
!S41(C  6-Port  ) 
!S42(C  6-Port  ) 
!S43(C  6-Port  ) 
!S44(C  6-Port  ) 
!S45(C  6-Port  ) 
!S46(C  6-Port  ) 
!S51(C  6-Port  ) 
!S52(C  6-Port  ) 
!S53(C  6-Port  ) 
!S54(C  6-Port  ) 
!S55(C  6-Port  ) 
!S56(C  6-Port  ) 
!S61(C  6-Port  ) 
!S62(C  6-Port  ) 
!S63(C  6-Port  ) 
!S64(C  6-Port  ) 
!S65(C  6-Port  ) 
!S66(C  6-Port  ) 
!S6P File: Measurement: :
# Hz S  RI   R 50
500000000 -0.33439 -0.055028 -0.010487 -0.0014118 -0.0085167 0.013345 -0.0036865 0.011972
0.012509 0.0060358 -0.0037264 0.0084395
-0.010434 -0.0013841 -0.41651 -0.064713 0.0080024 -0.010313 0.0011486 0.012394
0.0077418 0.0027453 0.0013134 0.014215
-0.0085125 0.013311 0.008015 -0.010428 -0.26733 0.19887 0.0064051 0.0039328
-0.0012657 0.0079805 0.0004668 0.012082
-0.0036121 0.011998 0.001181 0.012608 0.0064012 0.0039419 -0.33192 0.042497
-0.018587 -0.0047994 0.016182 0.025501
0.012535 0.0059955 0.0077768 0.0028253 -0.0012176 0.0079972 -0.018564 -0.004777
-0.24766 -0.1965 -0.026584 0.0044792
-0.0036513 0.0083828 0.0010811 0.014341 0.00043384 0.012035 0.016121 0.025502
-0.026616 0.0044594 -0.27191 -0.12371
560000000 -0.31845 0.11146 -0.022879 -0.065345 -0.00038589 0.013224 0.0051126 0.010472
0.010669 0.0044877 0.010484 0.0088672
-0.022758 -0.065317 -0.37545 0.09882 -0.041753 -0.037717 0.013555 0.003344
-0.012451 -0.0032748 0.0033998 -0.0011376
-0.00017537 0.013318 -0.042224 -0.037414 -0.18592 0.25024 -0.00077348 -0.0042712
0.017844 0.0050665 0.0076416 -0.0061784
0.0050941 0.010624 0.013536 0.0032705 -0.00073595 -0.0043129 -0.30703 0.1344
0.0054641 -0.024115 0.0052588 -0.021409
0.010691 0.0046975 -0.012944 -0.0036401 0.018031 0.0051002 0.0053619 -0.024161
-0.31197 -0.019101 0.0092831 -0.047983
0.010252 0.008664 0.0038028 -0.0012867 0.0076693 -0.0060917 0.0053027 -0.021433
0.0093594 -0.047928 -0.33196 0.024281
620000000 -0.27765 0.092741 -0.023112 0.0086685 0.0036566 0.0094846 0.0086714 -0.0043472
0.011138 -0.0007329 0.00060238 -0.0023421
-0.023139 0.0086196 -0.40339 0.047943 -0.018396 0.00098941 -0.0015367 -0.0020776
0.012303 -0.0061176 0.00084944 -0.0031496
0.0036858 0.0095106 -0.018424 0.0010348 -0.15568 0.26033 -0.00079217 -0.0050952
-0.0030267 -0.0030878 0.0093388 -0.0029484
0.008684 -0.0042648 -0.0015897 -0.0020391 -0.00079718 -0.0050857 -0.26474 0.14548
-0.039569 -0.019407 0.013795 0.027296
0.011258 -0.00083251 0.012301 -0.0062068 -0.0029702 -0.003139 -0.039475 -0.019465
-0.23049 -0.051571 -0.040822 0.012686
0.00065203 -0.0020749 0.00076951 -0.0032633 0.0092506 -0.0029376 0.013792 0.027453
-0.040897 0.012743 -0.24961 -0.0081706
680000000 -0.23987 0.18327 -0.026258 -0.014427 0.0051365 0.0052517 0.0015916 -0.0076673
-0.0023772 -0.011447 0.0058613 -0.007389
-0.026211 -0.014437 -0.3901 0.14924 -0.032417 -0.0020228 -0.0016002 -0.00076132
-0.0019689 -0.0093421 -0.0010164 -0.0018604
0.0051317 0.00525 -0.032449 -0.0019333 -0.10413 0.28038 -0.00087273 -0.00065827
-0.0017217 0.00014431 -0.0025459 -0.0091808
0.0016399 -0.0075988 -0.0016006 -0.00072059 -0.00086239 -0.00063603 -0.22108 0.19703
-0.023829 -0.0081669 -0.0086867 -0.011185
-0.0025504 -0.011555 -0.0019791 -0.0093144 -0.0017046 0.00015615 -0.02385 -0.0081324
-0.27912 0.051674 -0.0077136 -0.0072239
0.0057683 -0.0075338 -0.00096159 -0.0019495 -0.0026028 -0.0091678 -0.0087332 -0.011227
-0.0077631 -0.0072207 -0.26014 0.095566
740000000 -0.19352 0.17688 -0.039989 0.026729 0.013748 -0.0047913 -0.0002636 -0.0041733
-0.004218 -0.0027877 -0.0065197 0.0032487
-0.03992 0.026701 -0.33559 0.1677 -0.03681 0.034827 -0.00044317 -0.0059523
-0.012107 0.0069501 -0.0013788 -0.0060536
0.013652 -0.0048344 -0.036742 0.034899 -0.070468 0.27792 -0.0017125 0.0033351
-0.0029423 -0.0058119 -0.00094295 0.0016907
-0.00023788 -0.0041741 -0.00045236 -0.0058993 -0.0016919 0.0033225 -0.20371 0.20448
-0.042904 -0.0078325 0.023003 0.015399
-0.0041187 -0.0027475 -0.012149 0.0071259 -0.0029532 -0.0057465 -0.04285 -0.0078227
-0.17926 0.078593 -0.041859 0.00055708
-0.0065183 0.0032108 -0.0013858 -0.00597 -0.00098714 0.0017009 0.023031 0.015456
-0.041848 0.00048129 -0.24813 0.10052
800000000 -0.16202 0.2205 -0.022426 0.016692 0.0060163 -0.010512 -0.0041697 -0.0020376
-0.0042429 0.0022991 0.0047566 0.0005674
-0.022375 0.016654 -0.34184 0.23863 -0.0085727 0.034365 -0.0023103 0.0023262
-0.001205 0.0029498 0.0010507 0.0056036
0.0059591 -0.01052 -0.0085124 0.034422 -0.031663 0.30193 0.00099921 0.0015478
0.00011281 0.0037459 -0.0016373 0.00086729
-0.0041776 -0.0020209 -0.0022952 0.0023916 0.0010096 0.0015467 -0.17411 0.23175
-0.028648 0.013531 0.014384 -0.0099747
-0.0042106 0.0023018 -0.0011963 0.0029707 9.7013e-05 0.0037389 -0.028649 0.013583
-0.22167 0.10811 -0.01723 0.019649
0.0047272 0.00045838 0.00098572 0.005543 -0.0016612 0.00085074 0.014331 -0.0099971
-0.017252 0.019639 -0.24039 0.14951
860000000 -0.12778 0.24055 -0.01798 0.03033 -0.0027392 -0.010534 -0.0017721 0.00061393
0.0038394 0.0049856 -0.0036637 -0.0030379
-0.01793 0.030302 -0.29339 0.2814 0.0074142 0.034592 8.0461e-05 0.0019049
0.0037919 0.00070297 0.0030304 4.4439e-05
-0.0028077 -0.010555 0.007521 0.034591 0.015867 0.31039 -0.00060579 -0.00014806
0.0023235 -0.0014839 0.0016105 0.0040711
-0.0017485 0.00058917 7.6968e-05 0.001837 -0.00059628 -0.00015369 -0.13779 0.24279
-0.018213 0.018078 -0.0062256 -0.0091232
0.0039485 0.004962 0.0037345 0.0007254 0.0023041 -0.0014664 -0.018171 0.018118
-0.16573 0.15978 -0.024596 0.01661
-0.0037066 -0.0029722 0.0030563 0.00016662 0.001638 0.0041045 -0.0062152 -0.0090917
-0.024612 0.016597 -0.19003 0.19336
920000000 -0.10408 0.26381 0.0046544 0.03839 -0.0093669 -0.005201 -0.0018578 0.0017704
0.001193 0.002046 0.0030686 -0.0016555
0.0046454 0.038377 -0.26647 0.3028 0.028187 0.022885 0.0014151 0.0012681
0.0078248 -0.00027768 0.0042462 -0.00321
-0.009371 -0.0051955 0.02829 0.022836 0.06123 0.31191 0.0019071 3.8825e-05
0.0011184 -0.00033728 0.00093618 -0.0013323
-0.0018296 0.0017886 0.001428 0.0012596 0.0019139 3.7056e-05 -0.11351 0.25931
-0.011346 0.030586 0.0034837 -0.0068713
0.0012178 0.0020705 0.007817 -0.00032765 0.0011132 -0.00033895 -0.011288 0.030631
-0.15471 0.16529 -0.0017415 0.026746
0.0029687 -0.0016262 0.0041883 -0.0031581 0.0009352 -0.0013222 0.0034325 -0.0068983
-0.0017979 0.026708 -0.19767 0.20795
980000000 -0.057738 0.28408 0.016865 0.030293 -0.0096266 0.0041964 0.0017519 0.0035866
0.0042151 -0.0017469 -0.0029764 -0.0022781
0.016805 0.030275 -0.21332 0.33781 0.033607 0.0054686 0.0020067 -0.00016717
0.0018929 -0.0060142 -0.00021912 -0.0022748
-0.0096041 0.0042268 0.033637 0.0053704 0.10712 0.3065 0.00068012 -0.0011369
0.00050798 -0.0020005 0.0015239 -0.00015659
0.0017593 0.0036202 0.0020097 -0.00017511 0.00068511 -0.0011294 -0.075162 0.27079
0.0075242 0.030541 -0.0089541 -0.0071166
0.0041391 -0.0017488 0.0018128 -0.0060729 0.00051474 -0.0020129 0.007575 0.03054
-0.12142 0.19529 0.0060376 0.019865
-0.0029827 -0.002307 -0.00022458 -0.0023598 0.0015432 -0.00016247 -0.0089421 -0.0070999
0.0060539 0.019838 -0.15454 0.25191
1040000000 -0.016497 0.29318 0.033 0.019181 -0.0016932 0.0071487 0.0027851 0.00076244
0.00046077 -0.0032323 -0.00017052 -0.0016388
0.032981 0.0192 -0.17836 0.35139 0.030336 -0.014667 0.0016965 -0.0017106
-0.0021247 -0.0024935 -0.0009078 -0.0028056
-0.0016575 0.0071398 0.030322 -0.014777 0.15322 0.29367 -0.00043236 -0.0016072
-0.0016689 -0.000946 -0.00052294 -0.0010451
0.0027664 0.00076478 0.0017161 -0.001717 -0.00043902 -0.0016024 -0.047486 0.28027
0.01977 0.01925 -0.0025293 0.0010569
0.00039866 -0.0032328 -0.0021644 -0.0024989 -0.0016694 -0.00093522 0.01981 0.019198
-0.088195 0.20199 0.013859 0.018647
-0.00020105 -0.0016063 -0.0010022 -0.0028879 -0.00052928 -0.0010241 -0.0025519 0.0010677
0.013855 0.018668 -0.1313 0.27208
1100000000 0.028276 0.30253 0.036636 -0.0035007 0.002798 0.0042675 0.0023916 -0.001103
-0.0021564 -0.0032855 -0.0041173 2.5503e-05
0.03659 -0.0034792 -0.13539 0.36979 0.016058 -0.028257 6.1876e-05 -0.0019217
-0.0037332 -0.00098971 -0.0035518 -0.00059096
0.0028329 0.0042498 0.01596 -0.02834 0.19957 0.27442 -0.0019405 9.4648e-05
-0.001848 0.00048481 -0.001113 -0.00049186
0.0023929 -0.0011097 2.9876e-05 -0.0019364 -0.0019378 9.4942e-05 -0.0072791 0.28552
0.025592 0.0053673 -0.0024968 0.00019213
-0.0021625 -0.0032488 -0.0037544 -0.00093786 -0.0018431 0.00049201 0.025612 0.0053345
-0.067376 0.21503 0.019357 0.0081898
-0.0041061 4.4627e-05 -0.003546 -0.00060854 -0.0011044 -0.00049943 -0.002487 0.00019877
0.019336 0.0082083 -0.086403 0.30163
1160000000 0.079409 0.2988 0.02477 -0.020764 0.0028326 -0.00044873 -0.00016371 -0.0023693
-0.0040263 -0.00093849 -0.00099381 0.0040839
0.024768 -0.020704 -0.091787 0.37476 -0.0033508 -0.02994 -0.0016747 -0.0016989
-0.0028801 0.0026309 -0.0015272 0.0020266
0.0028348 -0.00044865 -0.0034631 -0.02995 0.24313 0.24415 -0.00078492 0.0017844
-0.0005995 0.0019576 -0.0010164 0.0002805
-0.00016851 -0.00239 -0.0016806 -0.0016948 -0.00079409 0.0017825 0.032233 0.28282
0.021771 -0.010672 -0.0032091 0.005132
-0.0040228 -0.00087285 -0.0028786 0.0026455 -0.00061647 0.0019619 0.021784 -0.010711
-0.033651 0.22302 0.018782 -0.00046275
-0.00090949 0.0041535 -0.0014788 0.0019999 -0.00099865 0.00030505 -0.0031929 0.005148
0.018773 -0.00046871 -0.039674 0.30354
1220000000 0.12356 0.28925 0.011192 -0.030454 -0.0015668 -0.00089945 1.6218e-05 -0.00089203
-0.0026725 0.0021744 0.0010942 0.0020539
0.011203 -0.030414 -0.047616 0.38797 -0.01719 -0.022133 -0.0027128 0.00055267
-1.0725e-06 0.0031979 -0.00085512 0.002001
-0.001559 -0.00089927 -0.017315 -0.022088 0.28225 0.20538 0.00077759 0.0018155
0.00061897 0.0012685 0.00024057 0.00059298
2.9836e-06 -0.00088348 -0.0027031 0.00054868 0.00077742 0.0018171 0.072377 0.27421
0.011078 -0.01792 0.0019842 0.0014019
-0.0026647 0.0021667 4.0633e-05 0.0031856 0.00061726 0.0012829 0.011055 -0.017926
-0.0095607 0.23161 0.013928 -0.013485
0.0011014 0.002037 -0.00084883 0.0019911 0.00024867 0.00058793 0.0020043 0.0014023
0.013914 -0.013486 -0.007861 0.31853
1280000000 0.17403 0.26888 -0.0078623 -0.029171 -0.0020278 0.0024711 -0.00082646 -0.0020513
-0.00080181 0.0032911 0.0025134 0.0011801
-0.0078322 -0.029148 -0.0010933 0.37986 -0.02455 -0.0090045 -0.0010202 0.0014793
0.001901 0.0017804 0.00063559 0.0020381
-0.0020147 0.002477 -0.024635 -0.008904 0.31289 0.16185 0.0016361 1.1793e-05
0.0012566 0.00029198 0.0004209 0.00024836
-0.00084574 -0.0020541 -0.001011 0.0015033 0.0016232 1.3128e-05 0.10953 0.25802
0.00090284 -0.020154 -0.00013671 0.00026041
-0.00077769 0.0032995 0.0018966 0.0017615 0.0012544 0.00027334 0.00087428 -0.020165
0.027327 0.23485 0.0027934 -0.015709
0.0025379 0.0011734 0.0006363 0.0020672 0.00040496 0.00026917 -0.00014372 0.00026112
0.0027856 -0.015712 0.039506 0.32063
1340000000 0.2117 0.236 -0.017858 -0.019373 0.00082445 0.0048168 -0.0017568 -0.00084924
0.0013947 0.0027782 0.0017768 -0.0013718
-0.017817 -0.019358 0.038578 0.372 -0.022276 0.0043046 -9.0285e-05 0.0020229
0.0020211 0.00077843 0.0012502 0.0007974
0.00084144 0.0048133 -0.022265 0.0044179 0.33495 0.11469 0.001103 -0.0010202
0.00066275 -0.00072431 3.7467e-05 0.00023512
-0.001754 -0.00085053 -9.4236e-05 0.0020286 0.0011102 -0.0010107 0.14263 0.23709
-0.0090405 -0.017214 0.00071186 0.00060299
0.0014327 0.0027943 0.0020218 0.0007803 0.00067242 -0.00070076 -0.0090627 -0.017205
0.057723 0.23015 -0.0042734 -0.014372
0.0018184 -0.0013915 0.0012685 0.00077011 4.9556e-05 0.00023136 0.00070504 0.00060344
-0.0042608 -0.014368 0.077311 0.31561
1400000000 0.24569 0.19874 -0.023886 -0.0075314 0.0053818 0.0034988 -0.0022651 0.00064378
0.0024597 0.0010067 0.0002497 -0.0015478
-0.023848 -0.0075424 0.07619 0.35942 -0.01542 0.012897 0.0014262 0.0013077
0.0013163 -0.00083405 0.0012252 6.9751e-05
0.0054067 0.0034784 -0.015382 0.012991 0.34801 0.061735 9.52e-05 -0.0016745
0.00013122 -0.00042293 0.00040017 0.00014258
-0.0022688 0.00065769 0.00144 0.0013031 8.4417e-05 -0.0016719 0.17212 0.20808
-0.015338 -0.010002 -0.00091459 -0.00012468
0.0024611 0.0009878 0.001285 -0.00082266 0.00011589 -0.00043123 -0.015372 -0.0099677
0.090825 0.22564 -0.010541 -0.008893
0.00025325 -0.0015472 0.0012369 5.4402e-05 0.00038874 0.00017049 -0.00092941 -0.00012563
-0.010541 -0.0089018 0.12149 0.30411
1460000000 0.26917 0.15491 -0.020668 0.0049937 0.0060432 -0.0017246 -0.0015745 0.0017723
0.0023128 -0.00044595 -0.0003305 -0.0010663
-0.02065 0.0049869 0.11078 0.33764 -0.0061378 0.016059 0.001688 0.00014561
0.00088644 -0.0013507 0.0012278 -0.0006517
0.0060494 -0.001757 -0.0060701 0.01612 0.35464 0.0082234 -0.0012848 -0.0013682
8.2861e-05 -0.00027548 0.00067131 -0.0001936
-0.0015659 0.001779 0.0016903 0.00014091 -0.0012872 -0.0013711 0.19872 0.17856
-0.016545 -0.0028057 -0.00079716 0.0021541
0.0023226 -0.00047973 0.00087563 -0.0013819 9.2781e-05 -0.00028352 -0.016556 -0.0027583
0.12043 0.21132 -0.012426 -0.0026376
-0.00035351 -0.0010783 0.0012322 -0.00066986 0.00065709 -0.00023157 -0.00080501 0.0021537
-0.012438 -0.0026446 0.15493 0.28339
1520000000 0.28184 0.11351 -0.014914 0.010569 0.0035645 -0.0044729 0.00010997 0.0026027
0.0021486 -0.0020012 -0.0011728 -0.0001629
-0.014895 0.010551 0.14429 0.32325 0.0018515 0.013586 0.001661 -0.00079673
-1.7043e-05 -0.0011021 0.00031931 -0.0010373
0.0035528 -0.0044901 0.0019216 0.013605 0.34843 -0.047285 -0.0011102 -0.00032858
0.00064282 -0.00087052 5.9554e-05 -0.00025236
0.00011352 0.0026118 0.0016502 -0.00079911 -0.0011137 -0.00033549 0.22176 0.13995
-0.015392 0.0034368 0.0016407 0.0020365
0.002152 -0.0020101 -2.7468e-06 -0.0011062 0.0006599 -0.00085642 -0.015388 0.0034749
0.14881 0.19785 -0.012091 0.0019517
-0.0011868 -0.0001843 0.00030083 -0.0010561 5.7235e-05 -0.00024863 0.0016626 0.00204
-0.012097 0.0019437 0.18769 0.26277
1580000000 0.29193 0.067615 -0.0079303 0.013809 -0.00091479 -0.0052611 0.0014863 0.0019046
-0.00027658 -0.0022623 -0.00025291 0.00042206
-0.0079272 0.013793 0.17164 0.29879 0.0056924 0.0084246 0.00049585 -0.0015931
-0.00059583 -0.0010074 -0.00025826 -0.00087379
-0.00092942 -0.005277 0.0057418 0.0083937 0.32937 -0.10471 -0.0016308 0.00064251
-0.00036203 -0.0011967 0.00024281 -0.000599
0.0015054 0.0018993 0.00048626 -0.0016072 -0.0016227 0.00064325 0.23528 0.10068
-0.011501 0.0083841 0.0023109 0.00084687
-0.00029666 -0.002263 -0.00061338 -0.00099424 -0.00037513 -0.0011959 -0.01148 0.0084133
0.17321 0.17982 -0.0094843 0.007777
-0.00021815 0.0004398 -0.00024738 -0.00087187 0.00025073 -0.00062568 0.0022921 0.00083105
-0.0094919 0.0077748 0.21924 0.23627
1640000000 0.29449 0.026476 -0.0010184 0.012447 -0.0030391 -0.0027191 0.002787 0.0010564
-0.00083232 -0.001568 -0.0004177 0.00064221
-0.0010304 0.01244 0.20134 0.27428 0.006316 0.0033214 -0.00064796 -0.0017972
-0.00098741 -0.00035225 -0.00055913 -0.0006314
-0.0030545 -0.0026983 0.0063405 0.0032891 0.30146 -0.15409 -0.00059648 0.0014286
-0.00097846 -0.00092594 -0.00024138 -0.00032049
0.0027762 0.0010603 -0.00066455 -0.0017919 -0.00059188 0.0014241 0.24751 0.051814
-0.0068196 0.0095742 0.0026289 -0.00081405
-0.00085443 -0.0015885 -0.00098312 -0.00034327 -0.00097281 -0.00091245 -0.0067916 0.0096075
0.19674 0.15582 -0.0044529 0.0098285
-0.00041221 0.00064985 -0.00055917 -0.00061896 -0.00025442 -0.00030813 0.0026329 -0.00082487
-0.0044495 0.0098391 0.24489 0.20531
1700000000 0.28771 -0.018678 0.0023954 0.0093689 -0.003744 -2.7107e-05 0.0032099 -0.0012245
-0.0019579 -0.0005507 0.00052704 0.00038013
0.0023808 0.0093562 0.21953 0.24323 0.0041606 0.00030464 -0.0015048 -0.00055643
-0.00076444 6.3316e-05 -0.00086988 -0.00047164
-0.0037293 2.1933e-06 0.0041685 0.00029807 0.25868 -0.1939 0.00042901 0.0015889
-0.0019288 -5.7076e-06 -0.00038995 -0.00094884
0.0031943 -0.0012559 -0.0015053 -0.00054537 0.00043024 0.0015936 0.24408 0.0023461
-0.0038494 0.0097169 0.0016681 -0.0023166
-0.0019623 -0.00055181 -0.00077212 6.8589e-05 -0.0019458 1.5098e-06 -0.0038334 0.00973
0.21408 0.13528 0.00034989 0.0098951
0.00052095 0.00038381 -0.00088558 -0.00047287 -0.00037307 -0.00096211 0.0016574 -0.0023295
0.00035035 0.0098933 0.26121 0.17133
1760000000 0.27621 -0.067223 0.0045484 0.0058918 -0.0024802 0.0010573 0.0012262 -0.0035095
-0.0013811 0.00068963 0.00030903 -0.00046056
0.0045318 0.0059013 0.246 0.2039 0.0016607 -0.0016317 -0.0012711 0.00017737
-0.0010798 0.00085039 -0.00066164 0.00040874
-0.0024672 0.0010678 0.0016569 -0.0016598 0.21096 -0.22769 0.0010175 0.0011156
-0.0013448 0.0014699 -0.0011673 -0.00068004
0.0012003 -0.0035048 -0.0012755 0.00018191 0.0010218 0.0011096 0.2354 -0.048778
-0.00066611 0.008595 -9.2773e-05 -0.0026153
-0.0013854 0.00068698 -0.0010663 0.00085634 -0.0013456 0.0014686 -0.00065666 0.0085954
0.22918 0.10066 0.0042126 0.007214
0.00030665 -0.00045477 -0.00067227 0.0004144 -0.0011872 -0.00062588 -0.00011517 -0.0025984
0.0042246 0.007218 0.27425 0.13383
1820000000 0.25215 -0.1047 0.0045144 0.0023681 -0.00032116 0.0026065 -0.00098012 -0.0031675
-0.0010578 0.00093718 -9.3815e-05 -0.00020759
0.0045018 0.0023651 0.25651 0.17407 -0.00081628 -0.00038772 -0.001271 0.00094069
-6.3439e-05 0.0012268 -0.00061776 0.00050284
-0.00029865 0.0026312 -0.00082951 -0.00036096 0.15957 -0.24395 0.0016523 0.00048466
-0.00015959 0.0023818 -0.0014409 0.00030615
-0.00099828 -0.0031446 -0.0012702 0.00096675 0.0016412 0.00050022 0.20551 -0.095956
0.00072625 0.0070029 -0.0017025 -0.0016987
-0.0010781 0.00094534 -6.4035e-05 0.0012339 -0.00017761 0.0023743 0.00076247 0.0069995
0.24635 0.071591 0.0052197 0.0035138
-0.00011018 -0.00020273 -0.00062206 0.00050464 -0.001491 0.00033204 -0.0017086 -0.0017162
0.0052153 0.0035187 0.27636 0.097285
1880000000 0.21745 -0.14511 0.0021846 2.3434e-05 -0.00052586 0.0022738 -0.0029582 -0.0022174
-0.00024157 0.0017283 2.0193e-06 -0.00062025
0.0021924 2.3756e-05 0.26155 0.1277 -0.002624 0.001613 -0.00022149 0.0016903
0.00052164 0.0013094 4.9424e-05 0.00098336
-0.00054166 0.0022646 -0.0026101 0.0016225 0.10769 -0.25305 0.0017074 -0.00093907
0.0014901 0.0019783 -0.0011418 0.0014916
-0.0029985 -0.0022167 -0.00022041 0.0016799 0.0017213 -0.00094036 0.1654 -0.13617
0.0013419 0.0050173 -0.0025454 8.7172e-05
-0.00021355 0.0017297 0.00054095 0.0013164 0.0015115 0.0019748 0.0013492 0.0050155
0.25013 0.040301 0.005433 0.00088793
1.4371e-05 -0.00064366 5.1587e-05 0.00096003 -0.0011599 0.0015053 -0.0025474 9.5247e-05
0.0054217 0.00089422 0.27662 0.063059
1940000000 0.17832 -0.17105 -0.00031233 -0.0014765 0.0013885 0.0021734 -0.0037898 0.00038071
0.0013068 0.0010034 -0.00059264 -0.0006718
-0.00030614 -0.0014737 0.26274 0.09575 -0.0014012 0.0040531 0.0010249 0.0012859
0.0018971 0.00051619 0.0010481 0.0003335
0.0013938 0.0021372 -0.001375 0.0040629 0.062658 -0.24607 0.00041984 -0.0022921
0.0023696 0.00034002 0.00046725 0.0016723
-0.0037713 0.00038596 0.0010632 0.0012788 0.00042457 -0.0022685 0.11334 -0.16696
0.0006497 0.0037528 -0.0016378 0.0013844
0.0013601 0.00098482 0.0019188 0.0005162 0.0023699 0.00033087 0.00066554 0.0037496
0.2532 0.0021439 0.0039476 -0.0023493
-0.00058448 -0.00065119 0.0010681 0.00033008 0.00047009 0.001664 -0.0016236 0.0013676
0.0039412 -0.0023525 0.26593 0.026795
2000000000 0.13215 -0.18613 -0.0041216 0.00072087 0.0026019 0.0014824 -0.0022768 0.0037855
0.0012606 0.00039879 -0.00067161 0.00056154
-0.0041282 0.00072157 0.24874 0.060016 -0.0010285 0.0058597 0.001636 0.00051038
0.0014148 -0.0011075 0.00046059 0.00011909
0.0026017 0.0014436 -0.00099537 0.005871 0.018934 -0.23253 -0.0012033 -0.0013893
0.0021633 -0.0011167 0.001733 0.0016725
-0.002233 0.0037924 0.0016729 0.00050008 -0.0011957 -0.0014041 0.059895 -0.17733
-0.00079248 0.0035349 -0.00028681 0.0024548
0.0012801 0.00040781 0.0014101 -0.0011054 0.0021507 -0.0011113 -0.00078325 0.0035404
