!Keysight Technologies,M9804A,MY58100912,A.14.10.03
!Date: Thursday, April 27, 2023 10:28:33
!Correction: S11(C  6-Port  ) 
!S12(C  6-Port  ) 
!S13(C  6-Port  ) 
!S14(C  6-Port  ) 
!S15(C  6-Port  ) 
!S16(C  6-Port  ) 
!S21(C  6-Port  ) 
!S22(C  6-Port  ) 
!S23(C  6-Port  ) 
!S24(C  6-Port  ) 
!S25(C  6-Port  ) 
!S26(C  6-Port  ) 
!S31(C  6-Port  ) 
!S32(C  6-Port  ) 
!S33(C  6-Port  ) 
!S34(C  6-Port  ) 
!S35(C  6-Port  ) 
!S36(C  6-Port  ) 
!S41(C  6-Port  ) 
!S42(C  6-Port  ) 
!S43(C  6-Port  ) 
!S44(C  6-Port  ) 
!S45(C  6-Port  ) 
!S46(C  6-Port  ) 
!S51(C  6-Port  ) 
!S52(C  6-Port  ) 
!S53(C  6-Port  ) 
!S54(C  6-Port  ) 
!S55(C  6-Port  ) 
!S56(C  6-Port  ) 
!S61(C  6-Port  ) 
!S62(C  6-Port  ) 
!S63(C  6-Port  ) 
!S64(C  6-Port  ) 
!S65(C  6-Port  ) 
!S66(C  6-Port  ) 
!S6P File: Measurement: :
# Hz S  RI   R 50
500000000 -0.33414 -0.054816 -0.0098713 -0.0012414 -0.0084169 0.013447 -0.0044318 0.011801
0.0135 0.005982 -0.0044212 0.008456
-0.0098497 -0.0012135 -0.41581 -0.06463 0.0080923 -0.010632 0.00098043 0.012127
0.0080457 0.0028477 0.0011063 0.014006
-0.0083602 0.013479 0.008099 -0.010634 -0.26736 0.19852 0.0065877 0.0036962
-0.0014613 0.0081158 0.00028782 0.012015
-0.0044067 0.011803 0.00098852 0.012118 0.006573 0.0036742 -0.33187 0.042613
-0.018615 -0.0045476 0.016392 0.025344
0.013544 0.0060611 0.0080249 0.0028965 -0.0014449 0.0081258 -0.018587 -0.0045054
-0.2468 -0.19708 -0.02697 0.0050448
-0.0044224 0.0084839 0.001114 0.013898 0.00028461 0.011993 0.016348 0.025305
-0.026966 0.0050237 -0.2712 -0.12428
560000000 -0.31901 0.1125 -0.022858 -0.064839 0.00068225 0.013177 0.0047459 0.01001
0.011125 0.0053729 0.010062 0.0080445
-0.022779 -0.064799 -0.37579 0.098597 -0.041679 -0.037778 0.013368 0.0031854
-0.013136 -0.0032567 0.0031339 -0.0013608
0.00069067 0.013227 -0.041803 -0.037691 -0.18598 0.25042 -0.00039748 -0.0047909
0.018127 0.0057929 0.0073061 -0.0063356
0.0047518 0.0099658 0.013404 0.0031509 -0.00036888 -0.0047803 -0.30664 0.13466
0.0054526 -0.024223 0.0062546 -0.021521
0.011206 0.0053656 -0.013056 -0.0032323 0.018009 0.0058676 0.0054028 -0.024258
-0.31161 -0.019288 0.0085101 -0.04746
0.01003 0.0079372 0.0032382 -0.001279 0.0073033 -0.0063196 0.0062649 -0.021479
0.0085496 -0.047397 -0.33126 0.022868
620000000 -0.27849 0.092569 -0.023157 0.0088961 0.0037687 0.009304 0.0082667 -0.0048663
0.01234 -0.00031134 0.00011581 -0.0029772
-0.023123 0.0088816 -0.40351 0.047881 -0.01847 0.0007665 -0.0015446 -0.0019779
0.012279 -0.0064177 0.00097556 -0.0030331
0.0037849 0.0092933 -0.018499 0.00082319 -0.15581 0.26018 -0.00091205 -0.005148
-0.0027383 -0.0031736 0.0086653 -0.0029331
0.0082442 -0.0048973 -0.0015792 -0.0019542 -0.00091483 -0.0051649 -0.26523 0.14505
-0.039121 -0.018971 0.012803 0.026939
0.012386 -0.0002849 0.012339 -0.0064354 -0.0027838 -0.0031031 -0.039105 -0.018979
-0.23141 -0.051733 -0.040661 0.013579
8.9301e-06 -0.0030752 0.00094207 -0.0030067 0.008646 -0.0029399 0.012847 0.026909
-0.04072 0.013642 -0.25186 -0.0093357
680000000 -0.24012 0.18328 -0.026207 -0.014514 0.0051347 0.0052048 0.0010919 -0.0072382
-0.0019647 -0.012112 0.005901 -0.0069398
-0.026196 -0.014502 -0.39004 0.14912 -0.032427 -0.0019781 -0.0015571 -0.00065508
-0.0020047 -0.0093858 -0.00093514 -0.0016892
0.0051444 0.0051901 -0.032476 -0.0019105 -0.10426 0.28032 -0.00076688 -0.0004301
-0.0019419 8.3781e-05 -0.0026737 -0.0090719
0.0010287 -0.0073105 -0.0015416 -0.00068139 -0.00076712 -0.00043287 -0.22126 0.19658
-0.023258 -0.0076598 -0.0086421 -0.011213
-0.0019871 -0.012148 -0.0020384 -0.0093797 -0.0019247 5.0641e-05 -0.023271 -0.0076177
-0.27981 0.051093 -0.0078782 -0.0075017
0.0058755 -0.0070202 -0.00091685 -0.0016941 -0.0026692 -0.0090719 -0.008648 -0.011215
-0.0079124 -0.0074627 -0.25924 0.094807
740000000 -0.19346 0.17621 -0.03981 0.026765 0.013639 -0.0048532 -8.0732e-05 -0.0040733
-0.0042897 -0.003317 -0.0062873 0.0033092
-0.039764 0.026747 -0.33556 0.16731 -0.036865 0.034841 -0.00028853 -0.006216
-0.012667 0.0073487 -0.0010484 -0.0060486
0.01362 -0.0049019 -0.036841 0.034966 -0.070444 0.27779 -0.001939 0.0034482
-0.0028275 -0.0062529 -0.0011957 0.0017307
-0.0001463 -0.004101 -0.00029822 -0.0062253 -0.0019334 0.0034524 -0.20356 0.2038
-0.043174 -0.0071169 0.02309 0.014916
-0.0042016 -0.0032142 -0.012683 0.0073555 -0.0028474 -0.0062032 -0.043159 -0.0070616
-0.17901 0.077763 -0.042154 0.0012633
-0.0063166 0.0033212 -0.0010915 -0.00602 -0.0012287 0.0017334 0.023047 0.014908
-0.042188 0.0012995 -0.24787 0.099273
800000000 -0.16188 0.22074 -0.022499 0.016678 0.0062088 -0.010477 -0.0041474 -0.0018226
-0.0044019 0.0026447 0.0045365 0.0010827
-0.022497 0.016648 -0.34184 0.23872 -0.0085083 0.034332 -0.0022495 0.0022717
-0.0012336 0.0031176 0.0011969 0.0056035
0.006177 -0.01049 -0.0084138 0.034402 -0.031744 0.3019 0.0009423 0.0016472
2.1345e-05 0.0035857 -0.0017504 0.0010352
-0.0041525 -0.001848 -0.0022368 0.0022811 0.00094016 0.0016419 -0.17442 0.23164
-0.028813 0.013457 0.013907 -0.010049
-0.0043657 0.0026764 -0.0012226 0.0031141 1.025e-05 0.0035884 -0.0288 0.01353
-0.22162 0.10854 -0.017204 0.019628
0.0045736 0.0010339 0.0012386 0.0056057 -0.0017262 0.0010324 0.013888 -0.010086
-0.0172 0.019554 -0.24108 0.14926
860000000 -0.12787 0.2405 -0.017981 0.030357 -0.0027544 -0.010573 -0.0016739 0.00054876
0.0036934 0.0051177 -0.003617 -0.0031416
-0.017992 0.030336 -0.29361 0.28127 0.0074762 0.034634 0.00014413 0.0018032
0.0037681 0.00061431 0.0032316 0.00045746
-0.0027731 -0.010566 0.0076027 0.034648 0.015777 0.31033 -0.0005608 -0.00019022
0.0023114 -0.0016032 0.0017507 0.0041841
-0.0016652 0.00052501 0.00012573 0.0018125 -0.00055522 -0.00018934 -0.13793 0.24266
-0.018778 0.017695 -0.006022 -0.008968
0.0037882 0.0051659 0.0038295 0.00061047 0.0023179 -0.0015938 -0.018757 0.01771
-0.16576 0.15966 -0.025002 0.017037
-0.0036075 -0.0031928 0.0032478 0.00049114 0.0017647 0.0041976 -0.0060517 -0.0089649
-0.024935 0.01706 -0.18942 0.19326
920000000 -0.10431 0.26367 0.004563 0.038393 -0.0093333 -0.0052422 -0.0018539 0.001802
0.0012185 0.0020321 0.0029099 -0.0016009
0.0045285 0.038368 -0.26655 0.30257 0.028187 0.022883 0.0014771 0.0013125
0.0077868 -0.00045519 0.0041396 -0.0030509
-0.009352 -0.0052077 0.028296 0.022795 0.061146 0.31185 0.0019416 -1.7968e-05
0.0011 -0.00032317 0.00099249 -0.0013472
-0.0018606 0.0018018 0.0014723 0.0013043 0.0019528 -1.9576e-05 -0.11361 0.25939
-0.011312 0.03072 0.0034303 -0.0069731
0.0012767 0.0020565 0.0077723 -0.00045972 0.0010881 -0.00033645 -0.011251 0.030734
-0.15539 0.16547 -0.0020124 0.027213
0.0029332 -0.0016423 0.0041142 -0.0030927 0.00099455 -0.0013683 0.0034523 -0.0069754
-0.0020899 0.027206 -0.19761 0.20774
980000000 -0.057889 0.28394 0.01686 0.030317 -0.0096232 0.0041898 0.0017568 0.0035437
0.0041808 -0.0017317 -0.0029356 -0.0023141
0.016794 0.03029 -0.21346 0.33761 0.033551 0.0055178 0.0020182 -9.2038e-05
0.0017171 -0.0060686 -4.0075e-05 -0.0021747
-0.0096209 0.0042222 0.033641 0.0053977 0.107 0.30646 0.00066529 -0.0011264
0.00051286 -0.0020192 0.0015809 -0.00018679
0.0017832 0.0035248 0.0020187 -9.1552e-05 0.00067118 -0.0011338 -0.075287 0.27063
0.0076659 0.030714 -0.0089186 -0.0071718
0.0042042 -0.0017753 0.0016887 -0.0060984 0.00050522 -0.0020308 0.0077327 0.030736
-0.12197 0.19537 0.0062703 0.020037
-0.0029007 -0.0023181 -3.59e-05 -0.0021527 0.001605 -0.00017224 -0.0089252 -0.0071807
0.0062953 0.020081 -0.15458 0.25155
1040000000 -0.016737 0.2932 0.033047 0.019303 -0.0016455 0.0071838 0.0027747 0.00083979
0.00045088 -0.0033527 -0.00013274 -0.0015449
0.032988 0.019314 -0.17859 0.35137 0.030303 -0.014589 0.0017105 -0.0017636
-0.0021304 -0.0026691 -0.00089713 -0.0027547
-0.0016348 0.007193 0.030302 -0.014736 0.15303 0.29366 -0.00044163 -0.0016465
-0.0016301 -0.00092916 -0.00055188 -0.001103
0.0027898 0.00083363 0.0016955 -0.0017467 -0.00044015 -0.0016438 -0.047525 0.28019
0.019793 0.019319 -0.0025319 0.0010208
0.00042919 -0.0033455 -0.0021594 -0.0026478 -0.0016402 -0.00093259 0.019856 0.019302
-0.088319 0.20202 0.013958 0.018437
-0.0001301 -0.001535 -0.00094602 -0.0027584 -0.00054448 -0.0011118 -0.0025169 0.0010187
0.013906 0.018459 -0.13207 0.27233
1100000000 0.028112 0.30268 0.036651 -0.0034015 0.0028201 0.0042821 0.0023443 -0.0011185
-0.0021688 -0.0032467 -0.0041685 -0.00015314
0.036607 -0.0033741 -0.13544 0.36974 0.01606 -0.0282 -7.1306e-07 -0.0019207
-0.0037249 -0.00099351 -0.0036856 -0.00062223
0.0028335 0.0042696 0.015965 -0.028298 0.19943 0.27445 -0.0019793 0.00010589
-0.001804 0.00049539 -0.0011686 -0.00049919
0.0023385 -0.0011278 -2.1506e-05 -0.0019184 -0.0019763 0.00011103 -0.0073488 0.28539
0.025754 0.0055909 -0.0024524 -7.9306e-05
-0.0021683 -0.003253 -0.0037287 -0.00097137 -0.0018006 0.0004964 0.025764 0.005556
-0.067404 0.21494 0.019776 0.008498
-0.0041528 -0.00011761 -0.0036985 -0.00059048 -0.0011633 -0.00048569 -0.0024465 -7.9328e-05
0.019787 0.0085077 -0.086546 0.30083
1160000000 0.079228 0.29888 0.024835 -0.020744 0.0028771 -0.00040855 -0.00015684 -0.002367
-0.0039991 -0.0009428 -0.0011297 0.0041148
0.024806 -0.020704 -0.091999 0.37468 -0.0033396 -0.029911 -0.0016581 -0.0017495
-0.0028756 0.0025731 -0.0015238 0.0020267
0.0028671 -0.00042526 -0.0034632 -0.029944 0.24297 0.24422 -0.000839 0.0017898
-0.00059433 0.001977 -0.0010179 0.00028445
-0.00015716 -0.0023528 -0.0016871 -0.0017318 -0.00083636 0.0017856 0.032121 0.28281
0.021896 -0.010681 -0.0032223 0.0051419
-0.0040033 -0.00093573 -0.0028673 0.0026112 -0.00057994 0.0019906 0.021878 -0.010694
-0.033106 0.22273 0.018501 -0.00065154
-0.0011191 0.004113 -0.0015151 0.0020216 -0.0010251 0.0002749 -0.0032241 0.0051407
0.018503 -0.00065941 -0.039658 0.30413
1220000000 0.12341 0.28932 0.011233 -0.030465 -0.0015435 -0.00091815 -1.7168e-05 -0.00087379
-0.0027331 0.002291 0.0011278 0.0020325
0.01122 -0.030425 -0.047713 0.3879 -0.017173 -0.022148 -0.0027234 0.00051115
-3.5874e-05 0.003259 -0.00078317 0.0020357
-0.0015605 -0.00091605 -0.017291 -0.0221 0.2821 0.2055 0.00077057 0.0018263
0.00059314 0.0013035 0.00027623 0.00065094
-1.9385e-05 -0.00087681 -0.002723 0.00052561 0.00077455 0.0018307 0.072219 0.2742
0.011131 -0.017884 0.0019515 0.0013574
-0.0027063 0.0022982 -7.7619e-06 0.0032609 0.00059281 0.0013026 0.01112 -0.01791
-0.0095041 0.23143 0.013876 -0.013674
0.0011526 0.0020371 -0.00077652 0.0020395 0.00028435 0.00065691 0.001944 0.0013587
0.013887 -0.013656 -0.0080888 0.3188
1280000000 0.17392 0.26895 -0.007768 -0.029212 -0.002032 0.0024841 -0.00079492 -0.0020465
-0.00081449 0.0033032 0.0025286 0.0012365
-0.0077363 -0.029194 -0.0013163 0.37976 -0.024537 -0.0090478 -0.001018 0.0014958
0.0018547 0.00177 0.0006142 0.0020954
-0.002021 0.0024932 -0.024612 -0.0089475 0.31287 0.16199 0.0015862 5.1023e-05
0.0013105 0.00025474 0.00032213 0.0003221
-0.0008096 -0.0020542 -0.0009989 0.0014982 0.001572 4.0076e-05 0.10942 0.25807
0.00092452 -0.020173 -0.00017616 0.00034419
-0.000794 0.0033263 0.0018749 0.0017578 0.0013168 0.00024886 0.00089512 -0.020174
0.027218 0.23458 0.0029533 -0.015881
0.0025364 0.0012278 0.0006308 0.0020979 0.00031078 0.00031245 -0.00018649 0.00033316
0.0029354 -0.015885 0.039262 0.3207
1340000000 0.21156 0.23608 -0.017862 -0.019488 0.0007912 0.0047659 -0.0017348 -0.00081295
0.0014837 0.0026918 0.0017925 -0.0013173
-0.017836 -0.019475 0.038428 0.37192 -0.022288 0.0042785 -6.9247e-05 0.0020437
0.0020471 0.00079004 0.001309 0.00081277
0.00081348 0.004762 -0.022296 0.0043814 0.33482 0.11483 0.0011574 -0.0010089
0.00066042 -0.00067505 9.8878e-05 0.00025152
-0.0017373 -0.00079519 -5.9458e-05 0.0020611 0.0011563 -0.0010098 0.14249 0.23713
-0.009033 -0.01731 0.00067581 0.00061252
0.0014987 0.0026867 0.0020582 0.0007803 0.00065892 -0.00067878 -0.0090706 -0.017298
0.057618 0.23013 -0.0043045 -0.014485
0.001786 -0.0013348 0.0013071 0.00078355 0.00010456 0.00024492 0.00066594 0.00063436
-0.0043071 -0.014496 0.077227 0.31536
1400000000 0.24557 0.19887 -0.023906 -0.0075945 0.0053611 0.0035031 -0.0022463 0.00062147
0.0025083 0.0010149 0.00022627 -0.0015718
-0.023887 -0.0076002 0.076025 0.35941 -0.01546 0.012871 0.0014117 0.0013054
0.0013579 -0.00081487 0.0012235 5.7023e-05
0.0053872 0.0034852 -0.01542 0.012965 0.34797 0.06191 7.2412e-05 -0.0016977
0.00017464 -0.00043869 0.00035148 0.00010055
-0.0022373 0.00063655 0.001421 0.0013018 6.9249e-05 -0.0016971 0.172 0.20807
-0.015342 -0.010055 -0.00089872 -7.9511e-05
0.0025171 0.00098576 0.0013577 -0.00082933 0.00017352 -0.00044103 -0.01537 -0.01003
0.09069 0.22543 -0.010798 -0.0090228
0.0002242 -0.0015791 0.0012214 4.2568e-05 0.00035344 9.9708e-05 -0.00090407 -8.6229e-05
-0.01078 -0.0090231 0.12145 0.3043
1460000000 0.26907 0.15499 -0.020744 0.0049067 0.006013 -0.0016859 -0.0015868 0.0017583
0.0023081 -0.00051574 -0.00034333 -0.0010046
-0.020734 0.0048908 0.11056 0.33763 -0.0062019 0.016041 0.0017232 0.00014198
0.00088221 -0.0013485 0.0012275 -0.00058891
0.0060099 -0.0017244 -0.0061293 0.016085 0.35453 0.0083745 -0.0012253 -0.0013524
9.1561e-05 -0.00026878 0.00069094 -0.00026733
-0.0015848 0.0017665 0.0017169 0.00013216 -0.0012247 -0.0013656 0.19855 0.1787
-0.016617 -0.0028857 -0.00072346 0.0022285
0.0023014 -0.0005326 0.00088498 -0.0013657 9.7929e-05 -0.00027335 -0.016613 -0.0028589
0.12014 0.21114 -0.012701 -0.0026422
-0.00036622 -0.0010055 0.0012365 -0.00060759 0.00070745 -0.00027662 -0.00073308 0.0022459
-0.012697 -0.0026483 0.15493 0.28339
1520000000 0.28168 0.11367 -0.014968 0.010571 0.0036111 -0.0044701 0.00011608 0.0025458
0.0021184 -0.0020236 -0.0012149 -0.00019401
-0.014964 0.010559 0.14408 0.32332 0.0018172 0.013585 0.0016601 -0.00080068
-7.6739e-06 -0.0011002 0.00028964 -0.0010886
0.0035903 -0.0044888 0.0018895 0.013588 0.34842 -0.04711 -0.0010932 -0.00031789
0.00062724 -0.00083471 8.47e-05 -0.00023535
0.000135 0.0025474 0.0016623 -0.00080733 -0.0010977 -0.00031897 0.22168 0.14027
-0.015489 0.0034168 0.0016802 0.0021903
0.0021027 -0.0020285 -1.1641e-05 -0.0010931 0.00063183 -0.00084445 -0.01549 0.0034566
0.14861 0.19766 -0.012286 0.0020763
-0.0012061 -0.00019323 0.00028846 -0.0010832 7.9788e-05 -0.00022101 0.0016948 0.0021778
-0.012299 0.0020663 0.18735 0.26279
1580000000 0.29179 0.067708 -0.0079989 0.013803 -0.00087002 -0.0052438 0.0014505 0.001941
-0.00024819 -0.002266 -0.00031002 0.00039768
-0.0079963 0.013789 0.17145 0.29888 0.0056442 0.0084235 0.00051631 -0.0015945
-0.00059005 -0.0010402 -0.00030172 -0.00083509
-0.0009035 -0.0052443 0.0057025 0.0083984 0.32939 -0.1046 -0.0016449 0.00060042
-0.00036929 -0.0012009 0.00023449 -0.00064371
0.0014601 0.0019497 0.00051628 -0.0015937 -0.0016381 0.00060243 0.23535 0.10078
-0.011573 0.008403 0.0023459 0.00079484
-0.00027344 -0.0022607 -0.00059145 -0.0010327 -0.00036691 -0.0011928 -0.011556 0.0084395
0.1729 0.17986 -0.0095749 0.0079208
-0.00030304 0.000409 -0.00030467 -0.00082767 0.00023424 -0.00064842 0.0023407 0.00078305
-0.009575 0.0079134 0.21899 0.23631
1640000000 0.29436 0.026698 -0.0010559 0.012499 -0.0030639 -0.0027423 0.0027288 0.0010948
-0.00087086 -0.0015761 -0.00037163 0.000681
-0.0010698 0.012483 0.20114 0.2744 0.0063141 0.0033348 -0.00065074 -0.0018333
-0.0010292 -0.00038555 -0.00057601 -0.00063988
-0.0030731 -0.0027272 0.006353 0.0033026 0.30144 -0.15396 -0.0006353 0.0014151
-0.0010617 -0.00097521 -0.00025198 -0.0003119
0.0027273 0.0010719 -0.0006555 -0.0018297 -0.00065 0.0014221 0.24754 0.052054
-0.0068359 0.0096111 0.0026322 -0.00079758
-0.00086919 -0.0015617 -0.0010221 -0.00037451 -0.0010486 -0.00098602 -0.0068354 0.0096488
0.19638 0.15595 -0.0045367 0.0099503
-0.00035793 0.00068213 -0.00058833 -0.00065392 -0.00026241 -0.0003047 0.0026404 -0.00080243
-0.0045354 0.0099484 0.24469 0.2055
1700000000 0.28773 -0.018405 0.0023717 0.0094211 -0.0037223 -1.7831e-05 0.0031727 -0.0012247
-0.0020776 -0.00059502 0.00056308 0.00044803
0.002366 0.0094132 0.21944 0.24336 0.0041566 0.00029956 -0.0015367 -0.00056474
-0.0008041 1.2288e-05 -0.00090557 -0.00045179
-0.0037165 3.4443e-06 0.0041671 0.0002779 0.25866 -0.19376 0.0004551 0.0016238
-0.0020119 -6.6661e-05 -0.00039827 -0.000903
0.0031639 -0.0012444 -0.0015429 -0.00055112 0.00045373 0.0016211 0.24417 0.0024976
-0.0038984 0.0098339 0.0016968 -0.0023603
-0.0020928 -0.00057944 -0.00079955 2.527e-05 -0.0019996 -5.8332e-05 -0.003875 0.0098377
0.21375 0.13551 0.0003616 0.010126
0.00056649 0.00044144 -0.00090502 -0.00044784 -0.0003997 -0.00091411 0.0017002 -0.0023777
0.00037343 0.010122 0.26092 0.17147
1760000000 0.27614 -0.066896 0.0045562 0.005967 -0.002484 0.001023 0.0013218 -0.0034804
-0.0013826 0.00071729 0.0003888 -0.00047211
0.0045525 0.0059602 0.24586 0.20402 0.0016507 -0.0016313 -0.0012404 0.0002238
-0.0010896 0.00092183 -0.00058955 0.00039919
-0.0024813 0.001055 0.0016395 -0.0016418 0.211 -0.22753 0.0010814 0.0011196
-0.001329 0.0014967 -0.0011772 -0.00073708
0.0013096 -0.0034936 -0.0012451 0.0002436 0.0010854 0.0011194 0.23554 -0.048832
-0.00048217 0.0086242 -0.00013662 -0.0027374
-0.0013811 0.00072078 -0.0010822 0.00092162 -0.0013404 0.0014929 -0.00044731 0.008635
0.229 0.10099 0.0044136 0.0072546
0.00039955 -0.00047613 -0.00059171 0.00040748 -0.0011768 -0.00072705 -0.00013882 -0.0027229
0.0044096 0.0072769 0.27379 0.13394
1820000000 0.25217 -0.10444 0.0045109 0.0023875 -0.00026708 0.0026182 -0.00095219 -0.0030677
-0.0010808 0.0010512 5.0926e-05 -0.00016827
0.0044992 0.0023891 0.25642 0.17419 -0.00078048 -0.00033463 -0.0012694 0.00097618
-7.6061e-05 0.0012587 -0.0005888 0.00048712
-0.0002515 0.0026274 -0.00078329 -0.00032379 0.15973 -0.24376 0.0017544 0.0003965
-0.0001582 0.0024099 -0.0015097 0.00030433
-0.00096854 -0.0030701 -0.0012732 0.00098822 0.0017588 0.00039052 0.20568 -0.096007
0.00080579 0.0070449 -0.0017089 -0.0017409
-0.0010915 0.0010589 -6.8569e-05 0.0012658 -0.00014453 0.0024273 0.00083041 0.0070549
0.24619 0.072107 0.0053339 0.0035851
1.9184e-05 -0.00014537 -0.00058731 0.0004994 -0.00149 0.0002934 -0.0016974 -0.0017378
0.0053258 0.0035789 0.27628 0.09761
1880000000 0.21758 -0.14493 0.002206 7.6611e-05 -0.00054996 0.002295 -0.0028997 -0.0021822
-0.00022393 0.0017982 9.5474e-05 -0.00059464
0.0022109 6.8718e-05 0.26146 0.12785 -0.0026099 0.0016624 -0.00011877 0.0017748
0.00056347 0.0013714 0.00015423 0.00095489
-0.00053766 0.0023127 -0.0026204 0.0016913 0.10787 -0.25291 0.0018612 -0.00097335
0.0016546 0.0019924 -0.0011004 0.0014235
-0.002916 -0.0021682 -0.00010279 0.0017573 0.0018561 -0.00097559 0.16551 -0.13619
0.0015095 0.0049165 -0.0024967 5.2631e-05
-0.00021764 0.0018067 0.00057722 0.0013648 0.0016552 0.0019927 0.0015165 0.0049281
0.25022 0.040621 0.0056167 0.00092178
7.369e-05 -0.00061015 0.00015139 0.00094453 -0.0010908 0.0014343 -0.0024761 8.6867e-05
0.0056103 0.0009136 0.27656 0.063626
1940000000 0.17852 -0.1709 -0.0002113 -0.0015064 0.0014384 0.002181 -0.0037472 0.00032129
0.0014401 0.0010028 -0.00062041 -0.00067889
-0.00020673 -0.0015026 0.26266 0.095907 -0.0013908 0.0040907 0.0010866 0.0012733
0.0019553 0.00053351 0.0010266 0.00037585
0.0014428 0.0021678 -0.0013653 0.0041195 0.062646 -0.2459 0.00044964 -0.0022663
0.0024653 0.00030683 0.00048954 0.0017184
-0.0037502 0.00035754 0.0010968 0.001264 0.00044553 -0.0022645 0.1131 -0.16709
0.00055457 0.0036346 -0.0017313 0.0015183
0.0014367 0.0010058 0.0019514 0.00052052 0.0024686 0.00030104 0.00053998 0.0036211
0.25316 0.0025158 0.0040231 -0.0023359
-0.00063514 -0.00069858 0.0010466 0.00036954 0.00051586 0.0017346 -0.0017063 0.0015264
0.0040367 -0.002347 0.26592 0.027354
2000000000 0.13248 -0.18599 -0.0040389 0.00071669 0.0025965 0.0014325 -0.002236 0.0036706
0.0013263 0.00035183 -0.0006971 0.00058371
-0.0040327 0.00070982 0.24873 0.060162 -0.0010131 0.0058272 0.0016952 0.00047464
0.0014941 -0.0010711 0.00050764 0.00011858
0.0026035 0.0014153 -0.00097325 0.0058531 0.01913 -0.23246 -0.0012014 -0.0014154
0.0022174 -0.0011564 0.0016967 0.0016212
-0.002196 0.0036915 0.0017087 0.00045666 -0.0011877 -0.0014273 0.059931 -0.17724
-0.00082841 0.0035035 -0.00022211 0.0022934
0.0013544 0.0003464 0.0014899 -0.0010798 0.0022332 -0.0011632 -0.00080858 0.0035052
0.24831 -0.030627 0.00053359 -0.0033453
