!Keysight Technologies,M9804A,MY58100912,A.14.10.03
!Date: Thursday, April 27, 2023 10:28:33
!Correction: S11(C  6-Port  ) 
!S12(C  6-Port  ) 
!S13(C  6-Port  ) 
!S14(C  6-Port  ) 
!S15(C  6-Port  ) 
!S16(C  6-Port  ) 
!S21(C  6-Port  ) 
!S22(C  6-Port  ) 
!S23(C  6-Port  ) 
!S24(C  6-Port  ) 
!S25(C  6-Port  ) 
!S26(C  6-Port  ) 
!S31(C  6-Port  ) 
!S32(C  6-Port  ) 
!S33(C  6-Port  ) 
!S34(C  6-Port  ) 
!S35(C  6-Port  ) 
!S36(C  6-Port  ) 
!S41(C  6-Port  ) 
!S42(C  6-Port  ) 
!S43(C  6-Port  ) 
!S44(C  6-Port  ) 
!S45(C  6-Port  ) 
!S46(C  6-Port  ) 
!S51(C  6-Port  ) 
!S52(C  6-Port  ) 
!S53(C  6-Port  ) 
!S54(C  6-Port  ) 
!S55(C  6-Port  ) 
!S56(C  6-Port  ) 
!S61(C  6-Port  ) 
!S62(C  6-Port  ) 
!S63(C  6-Port  ) 
!S64(C  6-Port  ) 
!S65(C  6-Port  ) 
!S66(C  6-Port  ) 
!S6P File: Measurement: :
# Hz S  RI   R 50
500000000 -0.33594 -0.053751 -0.011177 -0.0012222 -0.00879 0.013877 -0.004036 0.011869
0.011943 0.0041244 -0.0055978 0.0081086
-0.010994 -0.0013761 -0.41666 -0.063982 0.0079077 -0.010748 0.0013415 0.012174
0.0076194 0.0027454 0.00048454 0.01509
-0.0085962 0.013789 0.0076372 -0.010504 -0.26802 0.1991 0.0066598 0.0040253
-0.0024786 0.0087325 0.00050826 0.013065
-0.0040627 0.011956 0.0017495 0.012184 0.0068292 0.0032595 -0.33232 0.042909
-0.019028 -0.0053835 0.014185 0.025339
0.012266 0.0045045 0.0067588 0.0033313 -0.0018171 0.0092236 -0.019619 -0.0054125
-0.24867 -0.19615 -0.025845 0.0034517
-0.0045351 0.008541 0.0019779 0.013962 0.00077356 0.011567 0.016164 0.024871
-0.027288 0.0049145 -0.27543 -0.1232
560000000 -0.31977 0.11242 -0.022395 -0.064738 0.00020731 0.013556 0.0052989 0.011183
0.012332 0.0037436 0.011818 0.0080004
-0.023324 -0.065162 -0.37558 0.098712 -0.042177 -0.037852 0.01393 0.0037056
-0.013083 -0.0045188 0.0034962 -0.0017415
0.00096172 0.013533 -0.042398 -0.037589 -0.18519 0.25125 -0.00029108 -0.0043062
0.018318 0.0060835 0.0074409 -0.0060998
0.0057919 0.010645 0.013876 0.0034656 -0.00014594 -0.0042548 -0.30727 0.13518
0.0043371 -0.023105 0.0048733 -0.0215
0.010989 0.0034603 -0.012882 -0.0037411 0.018549 0.0056839 0.0040426 -0.023339
-0.31435 -0.01771 0.0087945 -0.047299
0.011313 0.0072604 0.0028541 -0.0011331 0.0081114 -0.0051148 0.0042458 -0.021143
0.01021 -0.048423 -0.32864 0.024624
620000000 -0.27857 0.094155 -0.023101 0.0090752 0.0040828 0.0097396 0.0069711 -0.0045469
0.011995 -0.00062346 0.00017053 -0.0016307
-0.022838 0.0091439 -0.40377 0.049103 -0.018343 0.0011158 -0.0015444 -0.0020751
0.012282 -0.0055406 0.00089007 -0.0027568
0.0040834 0.010113 -0.0183 0.0011056 -0.15558 0.26058 -0.00070585 -0.0056325
-0.0025776 -0.0021144 0.0091495 -0.0032908
0.0072259 -0.0045911 -0.0014799 -0.0020954 -0.00077792 -0.0052159 -0.26683 0.1457
-0.038549 -0.019936 0.011985 0.025618
0.012536 -0.00010466 0.012266 -0.0057048 -0.0031254 -0.0027213 -0.037812 -0.019524
-0.23331 -0.050779 -0.041214 0.014822
0.00036442 -0.002787 0.0011718 -0.0032093 0.0094072 -0.0028831 0.012143 0.026399
-0.040871 0.012782 -0.25133 -0.0096899
680000000 -0.23889 0.18459 -0.026662 -0.014154 0.005352 0.0052823 0.0023101 -0.0071962
-0.0018759 -0.011877 0.0063753 -0.0079132
-0.026516 -0.014271 -0.39025 0.15017 -0.032477 -0.0017735 -0.0014742 -0.00039619
-0.0015476 -0.0091584 -0.00060661 -0.0018618
0.0052485 0.0048858 -0.032519 -0.0017312 -0.10366 0.28109 -0.00069167 -0.00066713
-0.0016206 0.00020718 -0.0027457 -0.0094915
0.0012484 -0.0076607 -0.0013668 -0.0008452 -0.00088958 -0.00068845 -0.22158 0.19705
-0.024157 -0.0068785 -0.0087777 -0.010768
-0.00093845 -0.011633 -0.0014181 -0.0091485 -0.0017072 0.00041888 -0.024238 -0.006804
-0.27937 0.053251 -0.0089271 -0.0073864
0.0058078 -0.0077398 -0.0016309 -0.0019003 -0.0024704 -0.0090988 -0.008806 -0.010627
-0.0081407 -0.0063835 -0.25929 0.096091
740000000 -0.19398 0.17801 -0.039732 0.026653 0.013742 -0.0048017 -0.00079354 -0.0042328
-0.0042913 -0.003021 -0.0066632 0.0036462
-0.039823 0.026862 -0.33531 0.16786 -0.036953 0.035058 -0.00083991 -0.0058878
-0.012612 0.0075718 -0.001815 -0.0061796
0.014131 -0.0049553 -0.036603 0.035183 -0.070167 0.27762 -0.0022478 0.0031581
-0.0020907 -0.0064869 -0.0016626 0.0015918
-0.00062107 -0.0039498 -0.0002966 -0.0064611 -0.0018549 0.003336 -0.20434 0.20522
-0.042943 -0.0078894 0.022876 0.016115
-0.0054674 -0.0020085 -0.012435 0.008304 -0.0027755 -0.006287 -0.041963 -0.0073967
-0.17956 0.080781 -0.042649 0.00027002
-0.005752 0.0035675 -0.0017529 -0.0064848 -0.0012928 0.0012003 0.022934 0.015955
-0.042574 0.0002751 -0.24845 0.10347
800000000 -0.16175 0.22185 -0.022193 0.016373 0.005804 -0.010646 -0.004358 -0.0018202
-0.0047325 0.0021951 0.0043366 -0.00013855
-0.022354 0.016406 -0.34115 0.23922 -0.008608 0.034324 -0.0023084 0.0021524
-0.0018816 0.0026812 0.00099703 0.004981
0.0057945 -0.010403 -0.0085132 0.034422 -0.031615 0.30214 0.0007949 0.0015513
-0.00022782 0.0037102 -0.0019243 0.00072038
-0.0048384 -0.0018838 -0.0026046 0.0021884 0.00066485 0.0015118 -0.17386 0.23235
-0.028376 0.014151 0.014225 -0.010535
-0.0049796 0.0023952 -0.0014916 0.0026651 -0.00023313 0.0037434 -0.028551 0.014234
-0.22266 0.10967 -0.017492 0.02031
0.0035066 0.00095213 0.00071565 0.0052428 -0.0020154 0.00092483 0.014275 -0.010454
-0.017281 0.020643 -0.2408 0.14963
860000000 -0.12673 0.24098 -0.017308 0.030236 -0.0025592 -0.010761 -0.0020092 0.00039168
0.0039599 0.0052578 -0.0036652 -0.0027672
-0.0174 0.030293 -0.29239 0.28167 0.0079077 0.034754 0.00014161 0.0020376
0.0038917 0.00081698 0.003418 0.00077122
-0.0025454 -0.010731 0.0079331 0.03476 0.016074 0.31071 -0.00065345 -0.00014208
0.0021474 -0.0013824 0.0017029 0.0041705
-0.0019084 0.00058328 0.00026876 0.0020033 -0.00051575 -0.00013823 -0.13761 0.24272
-0.017925 0.01826 -0.0054819 -0.0089153
0.00383 0.0053207 0.0039285 0.00059595 0.0022396 -0.0014786 -0.017888 0.018288
-0.16446 0.16009 -0.024465 0.017259
-0.0034182 -0.0029152 0.0032438 0.00014507 0.0015837 0.0042633 -0.0053012 -0.0087656
-0.02443 0.017398 -0.18959 0.1949
920000000 -0.10293 0.26375 0.004759 0.037898 -0.0095071 -0.0054713 -0.0016719 0.0016325
0.0012622 0.001491 0.0030072 -0.0017325
0.0046536 0.037781 -0.26603 0.30289 0.028441 0.022743 0.0016796 0.001217
0.0082222 -0.00025665 0.0043186 -0.0030864
-0.0094634 -0.0054364 0.028516 0.022659 0.061347 0.31217 0.0020247 -5.5088e-05
0.0011633 -0.00042732 0.00098409 -0.0014163
-0.0017452 0.0013082 0.0014473 0.0012576 0.0019895 -0.00011094 -0.11292 0.25992
-0.01061 0.031311 0.0036857 -0.0069239
0.0013771 0.0017364 0.008234 -0.00012632 0.0012182 -0.00027979 -0.010658 0.030976
-0.15429 0.16532 -0.0014232 0.026458
0.0027712 -0.0015119 0.0042432 -0.0031434 0.00088796 -0.0015454 0.0037289 -0.0068276
-0.0014922 0.026831 -0.19721 0.20963
980000000 -0.05697 0.28422 0.017036 0.03016 -0.00981 0.0040313 0.0015988 0.0032198
0.0040073 -0.0019267 -0.0030756 -0.0023476
0.017031 0.030107 -0.21289 0.33798 0.033909 0.0052612 0.0019899 -0.00020562
0.0017739 -0.0060643 -0.00030986 -0.0024267
-0.009817 0.0040246 0.033882 0.0051544 0.10738 0.30696 0.00064486 -0.001265
0.00040955 -0.0020182 0.0013018 -0.00015724
0.0016624 0.0032318 0.0019914 -0.00010634 0.0006429 -0.0012015 -0.074929 0.27059
0.0078458 0.030499 -0.009165 -0.0074309
0.0038166 -0.0014858 0.0017398 -0.0059476 0.00044119 -0.0020256 0.0079024 0.030484
-0.12039 0.19718 0.0067888 0.019912
-0.0027717 -0.0022789 -0.00013395 -0.0023627 0.0014282 -4.1126e-05 -0.0093021 -0.0075741
0.0067194 0.019792 -0.1541 0.25238
1040000000 -0.015651 0.29289 0.03307 0.0189 -0.0018063 0.007193 0.002511 0.00092781
0.00046704 -0.0036071 -0.00010878 -0.0016702
0.033135 0.018952 -0.17814 0.35151 0.030447 -0.015017 0.0016179 -0.0018007
-0.0024666 -0.0027301 -0.0010207 -0.0031491
-0.0016949 0.0071502 0.030447 -0.015173 0.15367 0.29413 -0.00049492 -0.001648
-0.0016976 -0.00095929 -0.00060025 -0.001109
0.0025739 0.00066517 0.0014975 -0.0017864 -0.000511 -0.0016706 -0.047094 0.28058
0.020212 0.019088 -0.0026287 0.00074765
0.00039875 -0.003443 -0.002142 -0.0027895 -0.0016817 -0.00094871 0.020275 0.01878
-0.086987 0.20276 0.014319 0.018012
-0.00049974 -0.0017839 -0.0010688 -0.0029186 -0.00060681 -0.0010307 -0.0027928 0.00069792
0.014414 0.01815 -0.13101 0.27328
1100000000 0.028945 0.30263 0.036737 -0.0036885 0.0027291 0.0042451 0.0023847 -0.0011857
-0.0020107 -0.0031098 -0.0042272 -0.00025118
0.036645 -0.0036224 -0.13513 0.37022 0.015923 -0.028662 0.00012112 -0.0019978
-0.0038434 -0.0010214 -0.0036728 -0.00062045
0.0027928 0.0042914 0.01584 -0.028735 0.20033 0.27468 -0.0019694 0.00011961
-0.0018652 0.00064543 -0.0011592 -0.00038666
0.0023932 -0.0010511 4.8336e-06 -0.0019803 -0.0019881 8.2015e-05 -0.0068246 0.28554
0.026098 0.0050676 -0.0025941 -0.00015117
-0.0021043 -0.0032318 -0.0039165 -0.0009852 -0.0018763 0.0005654 0.02616 0.0050032
-0.066342 0.21528 0.019954 0.0081
-0.0040842 -0.00034066 -0.003714 -0.00067192 -0.0011993 -0.00042517 -0.0025312 -7.6713e-05
0.019871 0.0080719 -0.085689 0.30143
1160000000 0.080029 0.29864 0.024563 -0.021051 0.002753 -0.00040848 -0.00014486 -0.0022988
-0.003985 -0.0009368 -0.0010083 0.0042151
0.024554 -0.021028 -0.091644 0.37549 -0.0036656 -0.030185 -0.0016598 -0.0018353
-0.002879 0.002787 -0.001584 0.0021154
0.0027505 -0.00042643 -0.0038202 -0.03023 0.24408 0.2441 -0.00083394 0.0018837
-0.00060178 0.0020899 -0.00093627 0.00027301
-5.7786e-05 -0.0022652 -0.0016753 -0.0017946 -0.00090452 0.0018693 0.032835 0.28291
0.022321 -0.011689 -0.0036756 0.0049732
-0.0039806 -0.0010515 -0.0028593 0.0027123 -0.00062303 0.0021262 0.02234 -0.01169
-0.031928 0.22258 0.018788 -0.001088
-0.00099422 0.0041579 -0.0015741 0.0020506 -0.0010345 0.00039573 -0.0037475 0.0049689
0.018794 -0.0012847 -0.038224 0.30468
1220000000 0.124 0.28902 0.010887 -0.030827 -0.0016918 -0.00083762 0.00011705 -0.00083089
-0.0028344 0.0022304 0.0010732 0.0021068
0.010854 -0.030759 -0.047023 0.3885 -0.017632 -0.022193 -0.0026958 0.00061882
6.8227e-06 0.0034116 -0.00081221 0.0020498
-0.0016545 -0.00085736 -0.017764 -0.022147 0.28302 0.20478 0.0008052 0.0018381
0.00075093 0.0013426 0.00032471 0.00060156
2.5738e-05 -0.00081818 -0.0026928 0.00053801 0.00079427 0.0018481 0.072845 0.2742
0.011027 -0.01876 0.0016282 0.0013564
-0.0028485 0.0021437 5.282e-05 0.0034241 0.00077598 0.0013173 0.010922 -0.018812
-0.0084754 0.23103 0.014303 -0.014135
0.0011749 0.0020786 -0.00077919 0.0020717 0.00027491 0.00062418 0.0016858 0.0014383
0.014373 -0.014167 -0.0064293 0.31934
1280000000 0.17457 0.26881 -0.0083556 -0.02933 -0.0020712 0.002692 -0.0007552 -0.0020556
-0.00090363 0.0032194 0.0027243 0.0013661
-0.0083446 -0.029331 -0.00031773 0.38044 -0.024991 -0.0087834 -0.00096499 0.0015381
0.0019329 0.0018222 0.00078248 0.0021226
-0.0020588 0.0027335 -0.025077 -0.0086707 0.31328 0.16112 0.0017543 -1.5246e-05
0.0013683 0.00024223 0.00033708 0.00019715
-0.00068612 -0.0020391 -0.0010103 0.0015925 0.0017416 -5.5101e-05 0.10992 0.25796
0.00023887 -0.020943 -0.00042629 0.00042391
-0.00081921 0.0033126 0.0020723 0.0018906 0.0013685 0.00022101 0.00010549 -0.021016
0.027998 0.23457 0.0027726 -0.016603
0.0027136 0.0014155 0.00073347 0.0020991 0.00027055 0.00021939 -0.00041112 0.00048689
0.0027417 -0.016469 0.040321 0.32068
1340000000 0.21236 0.23573 -0.018497 -0.019187 0.00080334 0.0049639 -0.0017727 -0.0010335
0.0013659 0.0027812 0.0017774 -0.0014447
-0.018491 -0.019215 0.039698 0.37224 -0.022493 0.0046944 1.4802e-05 0.0020696
0.0021885 0.00067308 0.0012892 0.0007547
0.00086748 0.0049458 -0.022477 0.0048156 0.33473 0.1139 0.001219 -0.0010486
0.00071424 -0.00069126 -6.1163e-05 0.00026858
-0.0018061 -0.00099077 2.6918e-05 0.0020914 0.001165 -0.0010635 0.1429 0.23671
-0.010215 -0.017598 0.0005146 0.00096238
0.0014387 0.0028088 0.0022014 0.00071252 0.00069995 -0.00073521 -0.010228 -0.0177
0.058261 0.22982 -0.0048178 -0.014858
0.0017754 -0.0013751 0.0013661 0.00070507 -6.0321e-06 0.00027654 0.00046631 0.00082522
-0.0047461 -0.014862 0.078678 0.31502
1400000000 0.24634 0.1984 -0.024279 -0.0070558 0.0055652 0.0035424 -0.0023038 0.00054436
0.0025811 0.0010112 0.00032523 -0.0016245
-0.024237 -0.007049 0.077348 0.35933 -0.015361 0.013314 0.0014781 0.0012477
0.0013148 -0.0009782 0.0012961 1.0827e-05
0.0056322 0.0035305 -0.015312 0.013412 0.34745 0.06133 5.1915e-05 -0.0018733
0.00016748 -0.00050424 0.00030955 0.00026481
-0.0022959 0.00061832 0.0014681 0.0012224 3.954e-05 -0.0018365 0.17242 0.20778
-0.016549 -0.0097798 -0.00080847 0.00016978
0.0026143 0.0011112 0.0013323 -0.001041 9.5948e-05 -0.00046925 -0.016638 -0.0097016
0.091096 0.2252 -0.011544 -0.0090623
0.00031798 -0.0016073 0.0012254 1.0455e-05 0.00030115 0.00025217 -0.00076339 0.00032164
-0.011499 -0.0090762 0.12259 0.30374
1460000000 0.27 0.15454 -0.020756 0.0056777 0.006162 -0.001852 -0.0016772 0.0017938
0.0023621 -0.00055347 -0.00046917 -0.0010578
-0.020697 0.0056826 0.11184 0.33718 -0.0058662 0.016349 0.0017061 0.00010651
0.00075872 -0.0015459 0.001221 -0.00061571
0.0061532 -0.0018917 -0.0058041 0.016383 0.35429 0.0083015 -0.0014679 -0.0013938
8.9507e-05 -0.00025178 0.00072427 -0.00025462
-0.0016901 0.0018698 0.0017482 0.00010934 -0.0014568 -0.0013813 0.19896 0.17815
-0.017501 -0.0018755 -0.00059399 0.0023834
0.0022829 -0.00056226 0.00075302 -0.0015642 0.0001532 -0.00026756 -0.017482 -0.001876
0.12076 0.21108 -0.01342 -0.0025971
-0.00043345 -0.001025 0.0011835 -0.00062135 0.00073585 -0.00018806 -0.00061062 0.0023892
-0.013413 -0.0025568 0.15565 0.28283
1520000000 0.28264 0.11263 -0.014551 0.011115 0.0037273 -0.0045609 0.00010168 0.0027294
0.002255 -0.0020171 -0.0012201 -0.00012317
-0.014515 0.011117 0.14503 0.32248 0.0022284 0.013657 0.0015683 -0.00084616
-0.00016964 -0.0010943 0.00030595 -0.0010163
0.0037008 -0.0046129 0.0022903 0.013685 0.34818 -0.0472 -0.001194 -0.00024506
0.00063847 -0.00093744 9.4921e-05 -0.00020097
0.00014972 0.0027119 0.0016056 -0.00087789 -0.0012686 -0.0002808 0.22176 0.13967
-0.015771 0.0047279 0.0018841 0.0022044
0.0021976 -0.0020097 -0.00019273 -0.001094 0.0006399 -0.00098263 -0.015776 0.0047936
0.14898 0.19747 -0.012744 0.0026921
-0.0012204 -0.00018234 0.00024045 -0.0010314 7.1411e-05 -0.00029981 0.00186 0.0022086
-0.012681 0.0026867 0.18784 0.26202
1580000000 0.29231 0.066492 -0.0073166 0.014111 -0.00093599 -0.0053879 0.0016479 0.0020069
-0.00028957 -0.0023637 -0.00023159 0.00042023
-0.0073196 0.014095 0.17207 0.298 0.0060107 0.0083284 0.00043906 -0.0015847
-0.00068785 -0.00091041 -0.00022056 -0.00082763
-0.00091467 -0.0053797 0.0060477 0.0082601 0.32921 -0.10433 -0.0016518 0.00072424
-0.00048318 -0.0012938 0.00032519 -0.00069389
0.0016596 0.0020221 0.00040708 -0.0015685 -0.0016095 0.00076403 0.23515 0.10037
-0.011108 0.0096052 0.0024754 0.00063858
-0.00023923 -0.0023451 -0.00067571 -0.00093008 -0.00045926 -0.0012149 -0.011073 0.0096476
0.17351 0.17967 -0.0097631 0.0085435
-0.00025811 0.00045968 -0.00021787 -0.00079798 0.00027758 -0.00066938 0.0024889 0.00069836
-0.0098305 0.0085641 0.21958 0.2358
1640000000 0.29444 0.025309 -0.00039061 0.012359 -0.0030767 -0.0028907 0.002888 0.0010045
-0.0010284 -0.0016716 -0.00037976 0.0005784
-0.00040537 0.012321 0.20146 0.27343 0.0064845 0.0031691 -0.00062905 -0.0017419
-0.00095716 -0.00026939 -0.00058809 -0.00064276
-0.0030799 -0.0028367 0.0064669 0.0031207 0.30154 -0.15367 -0.00045381 0.0015455
-0.0012033 -0.00085874 -0.00028067 -0.00035027
0.0028965 0.0010041 -0.00065897 -0.0017225 -0.00053809 0.0014899 0.24734 0.051666
-0.0058212 0.010333 0.002775 -0.0010029
-0.0010677 -0.0016659 -0.00099286 -0.00022219 -0.0011902 -0.00092439 -0.0057483 0.01034
0.197 0.15542 -0.0044038 0.010749
-0.0003271 0.0005774 -0.00057337 -0.0006423 -0.00027686 -0.00032687 0.0027938 -0.0010247
-0.0044462 0.010684 0.24504 0.20482
1700000000 0.2873 -0.019482 0.0028536 0.0089834 -0.0039969 -9.2061e-05 0.0030795 -0.0013567
-0.0022223 -0.00051017 0.00060959 0.00043379
0.0028333 0.0089439 0.21931 0.2426 0.0041747 -6.6848e-07 -0.0014741 -0.00054579
-0.00065351 4.7846e-05 -0.00096454 -0.00045179
-0.0040222 -0.00014867 0.00418 -3.3747e-05 0.25904 -0.19381 0.00052531 0.0016225
-0.0019818 6.3028e-05 -0.00044702 -0.00099773
0.0030934 -0.0013614 -0.0014572 -0.00055975 0.00050911 0.0015271 0.24369 0.0023786
-0.0025393 0.0097584 0.0017294 -0.0024248
-0.0021409 -0.00051284 -0.00060884 4.8114e-05 -0.0019805 5.7257e-05 -0.0026179 0.0098178
0.21433 0.13506 0.00065155 0.010546
0.00066488 0.0004505 -0.0009897 -0.00042112 -0.00047633 -0.00093146 0.0017101 -0.0023738
0.0006784 0.010548 0.26131 0.17073
1760000000 0.27591 -0.0677 0.0047161 0.0053641 -0.0027119 0.0010419 0.0013109 -0.0035558
-0.0014045 0.00082294 0.00030812 -0.00056935
0.0047017 0.0053875 0.24573 0.20361 0.0015487 -0.0019021 -0.0012272 0.00017699
-0.00097029 0.00078067 -0.00055776 0.00041963
-0.0026956 0.0010852 0.0015885 -0.0019194 0.21113 -0.2278 0.0010333 0.0010241
-0.0013144 0.0016094 -0.0012594 -0.00065606
0.0012383 -0.0035375 -0.0012291 0.00019047 0.0010246 0.0010189 0.23512 -0.04842
0.0002831 0.0080249 -5.8155e-05 -0.0027866
-0.0014456 0.00086127 -0.00099826 0.00080206 -0.0012974 0.0016326 0.00029609 0.0080113
0.22937 0.10033 0.0049145 0.0078046
0.00029793 -0.0005881 -0.00055762 0.00041466 -0.0013557 -0.00058551 -0.00014336 -0.002801
0.004894 0.0077287 0.2744 0.13343
1820000000 0.25183 -0.10512 0.0044385 0.0018683 -0.00023466 0.0027841 -0.0011455 -0.0031577
-0.00095195 0.0011637 -6.0323e-05 2.5929e-05
0.0044289 0.0018659 0.25627 0.17395 -0.00084894 -0.00046267 -0.0012966 0.00089215
-0.00013189 0.0011156 -0.000609 0.00053154
-0.00020407 0.0028091 -0.00083806 -0.0004237 0.16005 -0.2438 0.0017082 0.0003781
-9.9178e-05 0.0024615 -0.0016416 0.00050783
-0.0010853 -0.0031648 -0.0012972 0.00092821 0.0015472 0.00036516 0.20594 -0.095593
0.0013448 0.0062942 -0.0019058 -0.0018917
-0.00098497 0.0011614 -0.00011805 0.0011004 -9.2169e-05 0.0024644 0.0013734 0.0063533
0.24655 0.071319 0.0058088 0.0037219
-9.8336e-05 -1.4858e-05 -0.0005814 0.0005332 -0.0016331 0.0004538 -0.0017425 -0.0019659
0.0058889 0.0037904 0.27668 0.097183
1880000000 0.21688 -0.14531 0.0018599 -0.00022179 -0.00049631 0.0023425 -0.002866 -0.0020909
-2.8971e-05 0.0017133 8.8977e-05 -0.00050322
0.0018512 -0.00025163 0.26144 0.12792 -0.0027541 0.0014704 -0.00030366 0.0017754
0.00040522 0.0012878 3.3764e-05 0.00094616
-0.00050603 0.0023922 -0.0027761 0.0015219 0.10844 -0.25345 0.0015629 -0.00071606
0.0016048 0.0019157 -0.0010211 0.0016179
-0.0030138 -0.0021614 -0.0002687 0.001727 0.0018781 -0.00091256 0.16559 -0.13581
0.0014284 0.004234 -0.0025912 -7.3248e-05
-2.6458e-05 0.0017022 0.00038498 0.0012784 0.0016674 0.0019656 0.0014191 0.0041959
0.25042 0.040099 0.0063178 0.00079479
5.5504e-05 -0.00056367 2.7318e-05 0.00095519 -0.00095946 0.0016137 -0.0026518 1.8165e-05
0.0063224 0.00073638 0.27676 0.062941
1940000000 0.17837 -0.1711 -0.00061117 -0.0015787 0.0014645 0.0022404 -0.0038855 0.00032784
0.001308 0.00088271 -0.00038441 -0.00065217
-0.00066459 -0.0015471 0.26287 0.095893 -0.0016581 0.0041204 0.0011342 0.0012479
0.0017406 0.00064856 0.0010535 0.00044623
0.0014424 0.0022308 -0.0016452 0.0040934 0.062371 -0.24671 0.0007739 -0.0022334
0.0023911 0.00029147 0.00065428 0.001847
-0.0038226 0.00051863 0.0010914 0.001347 0.00057535 -0.002149 0.11407 -0.16713
0.00039928 0.0031324 -0.0017705 0.0013877
0.0012977 0.0009658 0.0017363 0.00064477 0.0023809 0.00027507 0.00044838 0.0031528
0.25339 0.0017469 0.004551 -0.0028135
-0.00057796 -0.00073475 0.0010001 0.00036872 0.00073358 0.0018374 -0.0018433 0.0013772
0.0045165 -0.0028067 0.26617 0.026618
2000000000 0.13241 -0.18636 -0.004369 0.00079056 0.0026705 0.0016304 -0.0022344 0.0038381
0.0011452 0.00037207 -0.00068244 0.00051005
-0.0043235 0.00076882 0.24925 0.060151 -0.0011095 0.0059264 0.0016882 0.00045685
0.0014858 -0.0008736 0.00045582 0.00017827
0.0027195 0.0016718 -0.0010949 0.0059757 0.01878 -0.23295 -0.0011301 -0.001457
0.0021336 -0.0010879 0.0017134 0.0016386
-0.0021561 0.0040118 0.0016262 0.00052279 -0.0012706 -0.0013093 0.060347 -0.17768
-0.0010909 0.0029869 -0.0006671 0.0023193
0.0011289 0.00042502 0.0013982 -0.00086931 0.0019976 -0.0010672 -0.0010667 0.0031207
0.24832 -0.031342 0.00072045 -0.0039709
