!Keysight Technologies,M9804A,MY58100912,A.14.10.03
!Date: Thursday, April 27, 2023 10:28:33
!Correction: S11(C  6-Port  ) 
!S12(C  6-Port  ) 
!S13(C  6-Port  ) 
!S14(C  6-Port  ) 
!S15(C  6-Port  ) 
!S16(C  6-Port  ) 
!S21(C  6-Port  ) 
!S22(C  6-Port  ) 
!S23(C  6-Port  ) 
!S24(C  6-Port  ) 
!S25(C  6-Port  ) 
!S26(C  6-Port  ) 
!S31(C  6-Port  ) 
!S32(C  6-Port  ) 
!S33(C  6-Port  ) 
!S34(C  6-Port  ) 
!S35(C  6-Port  ) 
!S36(C  6-Port  ) 
!S41(C  6-Port  ) 
!S42(C  6-Port  ) 
!S43(C  6-Port  ) 
!S44(C  6-Port  ) 
!S45(C  6-Port  ) 
!S46(C  6-Port  ) 
!S51(C  6-Port  ) 
!S52(C  6-Port  ) 
!S53(C  6-Port  ) 
!S54(C  6-Port  ) 
!S55(C  6-Port  ) 
!S56(C  6-Port  ) 
!S61(C  6-Port  ) 
!S62(C  6-Port  ) 
!S63(C  6-Port  ) 
!S64(C  6-Port  ) 
!S65(C  6-Port  ) 
!S66(C  6-Port  ) 
!S6P File: Measurement: :
# Hz S  RI   R 50
500000000 -0.33468 -0.054083 -0.010738 -0.0014884 -0.0084327 0.013592 -0.0038735 0.011867
0.012913 0.0048909 -0.0044671 0.0083497
-0.01097 -0.0015505 -0.41631 -0.064076 0.0084071 -0.010385 0.0011221 0.012077
0.0079032 0.0024769 0.0010356 0.013139
-0.0084227 0.013545 0.0082494 -0.010507 -0.26693 0.19917 0.0067071 0.0038714
-0.0013348 0.0078975 0.00048069 0.012348
-0.0040318 0.012084 0.0012017 0.012086 0.0067022 0.0039014 -0.33171 0.043656
-0.019049 -0.0039077 0.017048 0.026194
0.01277 0.0043882 0.0081057 0.0026667 -0.0013155 0.0080945 -0.018811 -0.0042162
-0.24716 -0.19652 -0.02771 0.0050228
-0.0040238 0.0080895 0.0011388 0.013404 0.00059364 0.012385 0.016972 0.026355
-0.027926 0.0062332 -0.27125 -0.12136
560000000 -0.31915 0.11343 -0.022389 -0.065165 0.00025577 0.013451 0.0047756 0.011126
0.01081 0.0049297 0.0095617 0.0079551
-0.022336 -0.065224 -0.37494 0.099944 -0.041522 -0.037583 0.013836 0.003117
-0.012247 -0.0048959 0.005607 -0.0010521
0.00041639 0.013477 -0.041524 -0.037461 -0.1858 0.25109 -0.00033261 -0.0048969
0.017963 0.0059043 0.0083637 -0.0057756
0.0051608 0.010959 0.01396 0.0030301 -0.00038828 -0.0047428 -0.30728 0.13515
0.0052093 -0.023766 0.004653 -0.020792
0.011851 0.0048469 -0.013012 -0.004492 0.018152 0.0058312 0.0053136 -0.023664
-0.31138 -0.016692 0.0085835 -0.047858
0.010013 0.0084997 0.0056903 -0.0010894 0.008204 -0.0054732 0.0046079 -0.021075
0.0090296 -0.048773 -0.33175 0.02505
620000000 -0.27736 0.093027 -0.022969 0.0086835 0.0040452 0.0094161 0.007687 -0.0044126
0.012694 -0.0018207 -4.5629e-05 -0.0023463
-0.022874 0.0086552 -0.40358 0.048805 -0.018199 0.00084871 -0.0015419 -0.0019684
0.012277 -0.0067328 0.00094494 -0.002944
0.0040779 0.0093101 -0.018322 0.00085773 -0.1553 0.26053 -0.00078 -0.0050312
-0.0028159 -0.0030892 0.008957 -0.0026423
0.0074253 -0.0040559 -0.0016719 -0.0019804 -0.0009495 -0.0047741 -0.26523 0.14547
-0.038968 -0.019662 0.012726 0.026796
0.012675 -0.0019533 0.012363 -0.0065948 -0.0029675 -0.0031228 -0.039212 -0.019358
-0.23031 -0.05054 -0.041221 0.012661
-0.00023597 -0.002157 0.00079781 -0.0028645 0.0087774 -0.0027075 0.013175 0.026754
-0.041133 0.012187 -0.2519 -0.0074415
680000000 -0.23899 0.18347 -0.026127 -0.014597 0.0051593 0.0048904 0.0015699 -0.0078574
-0.0025872 -0.011409 0.0058885 -0.0075471
-0.02625 -0.014581 -0.39014 0.14987 -0.032285 -0.0020327 -0.0012339 -0.00054244
-0.0019308 -0.0094873 -0.001253 -0.0017994
0.0051171 0.0049013 -0.032248 -0.0019687 -0.10395 0.28057 -0.0008042 -0.00056158
-0.0018684 0.00030178 -0.0028459 -0.0092502
0.0014441 -0.0080176 -0.0011457 -0.00064803 -0.00080544 -0.00068454 -0.221 0.19732
-0.023563 -0.008244 -0.0085792 -0.012157
-0.0021041 -0.011604 -0.0019246 -0.0094096 -0.0017901 0.00029442 -0.023526 -0.0082265
-0.279 0.052681 -0.0072582 -0.0076323
0.0057931 -0.0075441 -0.0012781 -0.0017419 -0.0028534 -0.0093839 -0.0081636 -0.012383
-0.0072922 -0.0077929 -0.25748 0.095308
740000000 -0.19316 0.17696 -0.03979 0.026556 0.013435 -0.0050206 0.0001455 -0.0041287
-0.0049034 -0.002885 -0.0063149 0.0032776
-0.039862 0.02658 -0.33571 0.16833 -0.036853 0.034531 -0.00022552 -0.0057827
-0.011887 0.0074214 -0.0015437 -0.005885
0.01351 -0.0049976 -0.036646 0.034596 -0.069774 0.27784 -0.0021459 0.0031119
-0.002739 -0.0053561 -0.0011628 0.00083534
9.1956e-05 -0.0041132 -0.00010866 -0.0058271 -0.0021465 0.0032064 -0.2036 0.20474
-0.042405 -0.0080911 0.022048 0.015319
-0.0051598 -0.0025649 -0.012192 0.0073258 -0.0026743 -0.005463 -0.042209 -0.0082117
-0.17983 0.08186 -0.041058 -0.00058359
-0.0058507 0.0029361 -0.0012406 -0.0055451 -0.001267 0.00086467 0.022093 0.015279
-0.041123 -0.00068992 -0.24918 0.1026
800000000 -0.16192 0.22132 -0.022534 0.016441 0.0058354 -0.010453 -0.0045104 -0.0023058
-0.0045065 0.0023381 0.0043656 0.00071371
-0.022492 0.016415 -0.34139 0.23924 -0.0084892 0.033986 -0.002321 0.0021099
-0.00111 0.0026749 0.0010881 0.0054522
0.0058585 -0.010495 -0.0083825 0.03404 -0.031213 0.302 0.00082338 0.0014904
2.1463e-05 0.0034267 -0.0016584 0.00095144
-0.0044804 -0.0021688 -0.0022768 0.002143 0.0008375 0.0015002 -0.17423 0.23192
-0.028599 0.013481 0.013834 -0.0097739
-0.0045491 0.002355 -0.001245 0.0027722 -7.182e-06 0.0035368 -0.028597 0.013518
-0.22192 0.10896 -0.017382 0.019529
0.0044657 0.00078006 0.0010437 0.0054061 -0.0019113 0.00095134 0.013562 -0.010368
-0.017871 0.01982 -0.23994 0.15118
860000000 -0.12762 0.24047 -0.017878 0.03031 -0.0029142 -0.01039 -0.0021077 0.00020006
0.0037709 0.004648 -0.0033701 -0.0031689
-0.017836 0.030221 -0.29295 0.28184 0.0073518 0.03424 -3.8266e-06 0.0019749
0.0036172 0.00031129 0.0032158 0.00036312
-0.0029142 -0.010345 0.0074719 0.034257 0.016452 0.31023 -0.00067394 -0.0001924
0.0024808 -0.0016302 0.001477 0.0042033
-0.002302 0.00026424 -0.00012314 0.0020087 -0.0006333 -0.00024883 -0.13742 0.24237
-0.018636 0.018083 -0.0060501 -0.0088821
0.0037815 0.0048743 0.003508 0.0002411 0.0023607 -0.0017121 -0.01857 0.018223
-0.16595 0.15965 -0.024177 0.016492
-0.0036093 -0.0028941 0.0033938 0.00029198 0.0015043 0.00421 -0.006182 -0.0087861
-0.023678 0.016857 -0.18967 0.19413
920000000 -0.1039 0.26404 0.004486 0.038379 -0.009289 -0.0049607 -0.0018483 0.0018589
0.0011625 0.0019902 0.0028603 -0.0013968
0.0044626 0.038282 -0.26573 0.30305 0.027926 0.022824 0.0014703 0.0012753
0.0075331 2.092e-05 0.0040699 -0.0028818
-0.0092704 -0.0049357 0.02801 0.02272 0.061625 0.3116 0.0019083 2.5145e-05
0.00088179 -0.00015906 0.0010314 -0.0012307
-0.0019059 0.0018862 0.0014519 0.0012894 0.0019091 2.0984e-05 -0.113 0.25934
-0.011255 0.030568 0.0034993 -0.0063853
0.0011112 0.0019366 0.0075661 4.8295e-06 0.00086381 -0.00013505 -0.011395 0.030852
-0.15507 0.16633 -0.0020519 0.026352
0.0028246 -0.0011921 0.0039712 -0.0030164 0.00090025 -0.0012913 0.0034606 -0.0065657
-0.0018541 0.026287 -0.19687 0.20937
980000000 -0.05734 0.28457 0.016785 0.030089 -0.0094452 0.0041884 0.001816 0.0037461
0.0040105 -0.0017279 -0.0029717 -0.0023076
0.016722 0.030097 -0.21262 0.33802 0.033211 0.0055321 0.002003 3.6848e-05
0.0016659 -0.006121 -0.00044288 -0.002208
-0.0094408 0.0042306 0.03328 0.0054143 0.10741 0.30607 0.00066122 -0.0011201
0.00049995 -0.0019622 0.0015251 -0.00016552
0.0019184 0.0038208 0.0020424 5.6281e-05 0.0006863 -0.0011101 -0.074791 0.27067
0.00724 0.030108 -0.0089076 -0.0073269
0.0041091 -0.0016051 0.0017157 -0.006113 0.00054695 -0.0019878 0.0073296 0.030124
-0.12126 0.19601 0.0062084 0.019717
-0.0029243 -0.00233 -0.00026305 -0.0021039 0.0016399 -0.00013693 -0.0087983 -0.0071022
0.0062169 0.019585 -0.1532 0.25143
1040000000 -0.015795 0.29339 0.032922 0.019176 -0.0015209 0.0069827 0.0026824 0.0007885
0.00049567 -0.0035508 -0.00020464 -0.0016098
0.032885 0.019174 -0.17757 0.35153 0.030086 -0.014324 0.0017856 -0.0017165
-0.0019563 -0.0027186 -0.00084989 -0.0026505
-0.0015112 0.0070182 0.030025 -0.014447 0.15323 0.29309 -0.00039334 -0.0016149
-0.0015338 -0.00090955 -0.00042887 -0.0012197
0.002703 0.00081216 0.0017404 -0.0017219 -0.0003938 -0.0016024 -0.047283 0.27989
0.019263 0.018784 -0.0025187 0.0010016
0.00048335 -0.0034426 -0.0020182 -0.0026619 -0.0015779 -0.00090514 0.019178 0.018746
-0.086929 0.20252 0.013787 0.017879
-0.00020052 -0.0015673 -0.00086751 -0.0027434 -0.0004656 -0.0011339 -0.0025095 0.0010631
0.013804 0.017671 -0.13117 0.27272
1100000000 0.029057 0.3028 0.036297 -0.0033631 0.0028049 0.0041173 0.002427 -0.001141
-0.0020725 -0.003223 -0.0040178 -0.00011747
0.036318 -0.003307 -0.13468 0.36956 0.016028 -0.027801 4.4815e-05 -0.0019089
-0.0035507 -0.001096 -0.0036052 -0.0005726
0.0028306 0.0041045 0.015933 -0.027888 0.19909 0.27395 -0.0019014 8.2716e-05
-0.0018172 0.00040707 -0.0010829 -0.00040263
0.002454 -0.0010676 4.9662e-05 -0.001902 -0.0018896 6.5902e-05 -0.0072258 0.28503
0.024851 0.0056354 -0.0023454 -2.7494e-06
-0.0020761 -0.003208 -0.0035905 -0.0010474 -0.0017587 0.00043284 0.024906 0.0056109
-0.066925 0.21528 0.019368 0.0080947
-0.0040102 -0.00012834 -0.0036198 -0.00052404 -0.0010667 -0.00043528 -0.0023536 2.5391e-05
0.019369 0.0082529 -0.085694 0.30109
1160000000 0.080086 0.29876 0.024621 -0.020397 0.0027787 -0.0004541 -3.2736e-05 -0.0024948
-0.0039758 -0.00080833 -0.00095518 0.004293
0.024565 -0.020316 -0.091244 0.37426 -0.0030831 -0.02953 -0.001593 -0.0016826
-0.0028756 0.0025172 -0.0015695 0.001918
0.0027718 -0.00045634 -0.0032154 -0.029561 0.24253 0.24407 -0.00079283 0.0016656
-0.00062366 0.0019039 -0.00086832 0.0003277
-8.6319e-05 -0.0024596 -0.0016455 -0.0017646 -0.00080468 0.0016954 0.032099 0.28256
0.021363 -0.010167 -0.0033639 0.0052868
-0.0039782 -0.00083512 -0.0029153 0.0025072 -0.00056467 0.001914 0.021328 -0.010265
-0.032372 0.22299 0.018367 -0.00062477
-0.0009781 0.0043004 -0.0016392 0.001951 -0.00089949 0.00032814 -0.0032694 0.0052049
0.018265 -0.00045001 -0.03886 0.30391
1220000000 0.12409 0.2888 0.01126 -0.030027 -0.0015494 -0.00090463 7.4462e-06 -0.00091208
-0.0026762 0.0021978 0.0010546 0.0019163
0.011252 -0.030015 -0.047399 0.38732 -0.016766 -0.021976 -0.0027508 0.00044195
-1.5272e-05 0.0031108 -0.0009085 0.0018505
-0.0015607 -0.00089903 -0.016883 -0.021958 0.28169 0.20578 0.0007284 0.0017183
0.00059053 0.0011887 0.00025902 0.0005166
-1.9522e-05 -0.00091229 -0.0027299 0.0004726 0.0007438 0.0016806 0.072027 0.27419
0.011105 -0.0171 0.0021283 0.001432
-0.0026695 0.0021999 -7.0049e-06 0.0031492 0.0006175 0.0011667 0.01112 -0.017088
-0.0085282 0.2311 0.013792 -0.013057
0.0011396 0.0019235 -0.0008263 0.0019072 0.00024503 0.00050148 0.0021048 0.0014553
0.013713 -0.013118 -0.0067836 0.3186
1280000000 0.17443 0.2684 -0.00748 -0.028877 -0.0020022 0.0024454 -0.00086443 -0.0020728
-0.0007736 0.0031223 0.0024468 0.0013267
-0.0074269 -0.028867 -0.001443 0.37941 -0.024147 -0.0091561 -0.0009893 0.001434
0.0017352 0.0017796 0.00056605 0.0020372
-0.0019997 0.0024554 -0.024207 -0.0090408 0.31273 0.16263 0.0015856 2.1413e-05
0.0012767 0.0002679 0.00037496 0.00021495
-0.00087652 -0.0020597 -0.0010388 0.0014177 0.001555 3.4946e-05 0.10913 0.25831
0.0013527 -0.019494 -0.00012762 0.00022011
-0.00073797 0.0031176 0.0018003 0.0017147 0.0012906 0.00025024 0.0012848 -0.019512
0.027952 0.2344 0.0031485 -0.015249
0.0025254 0.0012493 0.00060218 0.002053 0.00037858 0.00018063 -6.4746e-05 0.00034015
0.0030591 -0.015379 0.039909 0.32047
1340000000 0.21194 0.23547 -0.017403 -0.019418 0.00077879 0.0047684 -0.0017669 -0.00084449
0.0014265 0.0026243 0.0018263 -0.0012612
-0.017359 -0.019414 0.03816 0.37192 -0.022066 0.0039333 -0.0001395 0.0020322
0.0020062 0.00083374 0.0012627 0.00078089
0.00077645 0.0047635 -0.022074 0.0040495 0.33513 0.11533 0.0011012 -0.00089114
0.00068707 -0.00053178 2.4356e-05 0.00023942
-0.0017839 -0.00081834 -0.00011378 0.0020288 0.0010887 -0.0009144 0.14251 0.2375
-0.0081583 -0.016992 0.00077831 0.00054509
0.0014154 0.0026737 0.0020244 0.00083118 0.00067663 -0.00056728 -0.0082014 -0.016999
0.058027 0.22949 -0.0039066 -0.013951
0.001799 -0.00128 0.001249 0.00076027 3.0278e-05 0.00022013 0.00075932 0.00042766
-0.0037567 -0.013953 0.077871 0.31498
1400000000 0.24575 0.19844 -0.023455 -0.0078504 0.0053386 0.0034634 -0.0022351 0.0006293
0.0024084 0.00098895 0.00036467 -0.0014795
-0.023437 -0.007857 0.075706 0.35984 -0.015489 0.012526 0.0013802 0.0013428
0.0013105 -0.00076362 0.0012299 0.00016191
0.0053579 0.0034441 -0.015436 0.012606 0.34862 0.062243 0.00011372 -0.0016332
5.8881e-05 -0.00040298 0.00034112 0.00019082
-0.0022842 0.00063198 0.0013443 0.0013147 0.00012813 -0.0016088 0.17218 0.20863
-0.014378 -0.010247 -0.00095463 -0.00024334
0.0024006 0.00093044 0.0013155 -0.00078478 7.9952e-05 -0.00039347 -0.014376 -0.010211
0.090882 0.22485 -0.010162 -0.008813
0.00038276 -0.0014609 0.0012518 0.00012913 0.00031978 0.00022937 -0.00091943 -0.00026659
-0.010118 -0.0088393 0.12184 0.30381
1460000000 0.26927 0.15488 -0.02053 0.0044628 0.0058699 -0.0017067 -0.001616 0.0018066
0.0021045 -0.00045848 -0.00034883 -0.0010429
-0.020524 0.0044516 0.11067 0.33843 -0.0064777 0.015823 0.0017037 0.00016894
0.0009273 -0.0013988 0.0012737 -0.00059924
0.0058638 -0.001715 -0.0063994 0.015849 0.35561 0.0082067 -0.0012132 -0.0013962
0.00011109 -0.00020177 0.00069628 -0.00033734
-0.0015872 0.0018006 0.0017375 0.00017577 -0.0012343 -0.0013916 0.19916 0.17909
-0.015816 -0.0036254 -0.00088298 0.0021405
0.0021097 -0.00047027 0.00095931 -0.0013867 9.2022e-05 -0.00020268 -0.015862 -0.0036467
0.12041 0.21081 -0.012019 -0.0028513
-0.0003649 -0.0010079 0.00125 -0.00055516 0.00066366 -0.00023617 -0.00095739 0.0020853
-0.012044 -0.002887 0.1555 0.28335
1520000000 0.28205 0.11341 -0.01503 0.010096 0.0035497 -0.0043294 0.00013588 0.0025686
0.0021131 -0.0018493 -0.0011928 -0.00015917
-0.01502 0.010071 0.14457 0.32409 0.0015461 0.013566 0.0016704 -0.00078294
7.0006e-06 -0.0011095 0.0003337 -0.0010265
0.0035415 -0.0043488 0.00162 0.013577 0.34913 -0.047844 -0.0011346 -0.00036027
0.00067857 -0.00081831 4.4364e-05 -0.00019107
0.0001553 0.0025858 0.0016692 -0.00078484 -0.0011077 -0.00034335 0.22236 0.14043
-0.015406 0.002332 0.0014767 0.0021608
0.0021347 -0.0018671 1.2555e-05 -0.00111 0.00069706 -0.00081691 -0.015426 0.0023982
0.14847 0.19735 -0.011876 0.0016529
-0.0011978 -0.00023287 0.00034298 -0.0010663 5.9225e-05 -0.00019169 0.0014408 0.0021436
-0.011951 0.0016235 0.188 0.26266
1580000000 0.29237 0.067552 -0.0083345 0.013433 -0.00088393 -0.0051821 0.0015206 0.0019634
-0.00016126 -0.0021449 -0.00027848 0.00037156
-0.0083329 0.01341 0.17241 0.29966 0.0055323 0.0085646 0.00052018 -0.0015616
-0.0006368 -0.0010573 -0.00016171 -0.00083067
-0.00092211 -0.0051773 0.005564 0.0085505 0.32986 -0.10531 -0.0016727 0.00062423
-0.00033302 -0.0012479 0.00020118 -0.00057158
0.0014872 0.0019735 0.00053764 -0.0015698 -0.0016851 0.00062314 0.2362 0.10084
-0.012077 0.0075335 0.0022704 0.00080019
-0.00018122 -0.0021415 -0.00063317 -0.0010213 -0.00029742 -0.0012179 -0.012062 0.0075344
0.17292 0.17972 -0.0094837 0.007268
-0.00032531 0.00037037 -0.00014339 -0.00079831 0.00022448 -0.00057919 0.0022602 0.00080818
-0.0095155 0.0072565 0.21972 0.23603
1640000000 0.29513 0.026189 -0.0015825 0.012371 -0.0029492 -0.0027637 0.0027504 0.0010546
-0.00075032 -0.0015935 -0.00043778 0.00069577
-0.0015935 0.012349 0.20251 0.27466 0.0062821 0.0035218 -0.00057306 -0.0017927
-0.0010426 -0.00038337 -0.0005451 -0.00069489
-0.0029587 -0.0027705 0.006284 0.0034947 0.30169 -0.15493 -0.00064428 0.0014852
-0.001053 -0.00097749 -0.00015263 -0.00029623
0.0027331 0.0010491 -0.00060499 -0.0017751 -0.00064217 0.0014583 0.24851 0.051549
-0.0078996 0.0091274 0.002562 -0.00071104
-0.00073077 -0.001614 -0.0010411 -0.00036581 -0.0010434 -0.0010023 -0.0078984 0.009201
0.1963 0.15581 -0.0048162 0.009455
-0.00036775 0.00075431 -0.00054236 -0.00072143 -0.00012666 -0.00030267 0.0025847 -0.00068773
-0.0048386 0.0094468 0.24545 0.20509
1700000000 0.28836 -0.019286 0.0019168 0.0096376 -0.0037821 -4.077e-05 0.0031164 -0.0012298
-0.0019685 -0.00071117 0.00063822 0.00046021
0.001917 0.009635 0.22083 0.24322 0.0040922 0.00042172 -0.0014752 -0.00061845
-0.0008277 9.6108e-05 -0.00091936 -0.00047386
-0.0037847 -6.1717e-06 0.0040889 0.00038706 0.25813 -0.19494 0.00045266 0.0016425
-0.0020316 -4.9432e-05 -0.00034305 -0.0007576
0.003144 -0.0012282 -0.0015005 -0.00061157 0.00043556 0.0016216 0.24489 0.0015446
-0.0047448 0.0099821 0.0016733 -0.0022703
-0.0020012 -0.00069522 -0.00081856 7.5571e-05 -0.0019589 -0.00011676 -0.0047155 0.010005
0.21388 0.13564 -0.00010014 0.009718
0.00059345 0.0004751 -0.00095532 -0.0004931 -0.00035888 -0.00074982 0.0015507 -0.0022476
-9.5031e-05 0.0097973 0.26168 0.17074
1760000000 0.27683 -0.068175 0.0044171 0.0063619 -0.0023956 0.0010601 0.0012767 -0.0033995
-0.0014634 0.00060122 0.00029661 -0.00048687
0.0044071 0.0063631 0.24735 0.20341 0.0018069 -0.0014523 -0.0012628 0.00015171
-0.0010728 0.00093291 -0.00070161 0.00032399
-0.0024108 0.0010424 0.001793 -0.0015026 0.21033 -0.22777 0.0011025 0.0011021
-0.001434 0.0014129 -0.0012404 -0.00075918
0.001258 -0.0034438 -0.0012334 0.00017939 0.0010978 0.0011337 0.23567 -0.049879
-0.0012218 0.0092434 -0.00015525 -0.0026179
-0.0014735 0.00059288 -0.0010588 0.00092514 -0.0013811 0.0014354 -0.0012156 0.0092598
0.22907 0.10114 0.0039062 0.007208
0.0003296 -0.00049835 -0.00065997 0.00034414 -0.0011953 -0.00071917 -9.9878e-05 -0.0025562
0.0038925 0.0072243 0.2742 0.1332
1820000000 0.25225 -0.10594 0.004639 0.0026813 -0.00018177 0.0025052 -0.00099178 -0.0031555
-0.0012445 0.0010337 -4.6657e-05 -0.00011892
0.0046377 0.0026673 0.25756 0.17307 -0.00063847 -0.00033413 -0.0013334 0.00091497
-4.3827e-05 0.0012527 -0.00063846 0.00049958
-0.00013949 0.0025107 -0.00062256 -0.00034145 0.15926 -0.24408 0.0015876 0.00047906
-0.00022001 0.0024348 -0.0014645 0.00033202
-0.0010001 -0.0031608 -0.0013635 0.00090531 0.0015902 0.000492 0.20542 -0.097298
0.00068412 0.0078918 -0.0016119 -0.0015015
-0.0012327 0.0010321 -4.2571e-05 0.0012312 -0.00022821 0.0024385 0.00071877 0.0078644
0.24665 0.072184 0.0047827 0.003755
-7.9823e-05 -8.3661e-05 -0.00065224 0.00056589 -0.001486 0.00033604 -0.0016953 -0.0015114
0.0047007 0.0037323 0.27645 0.096617
1880000000 0.21721 -0.14647 0.0024748 0.00027141 -0.00058152 0.0021979 -0.0029032 -0.0022523
-0.00029196 0.0019685 1.3974e-05 -0.00055269
0.002479 0.00023961 0.26218 0.12653 -0.0025479 0.0015697 -0.0002485 0.0017844
0.00055418 0.0013076 1.0722e-05 0.0010019
-0.00061265 0.0022221 -0.0025242 0.0015617 0.10745 -0.25298 0.0018528 -0.00082416
0.0014755 0.0020689 -0.0011481 0.0014028
-0.0029185 -0.0022112 -0.00021282 0.001809 0.0018949 -0.00080397 0.16458 -0.13697
0.0018654 0.0054941 -0.0023014 0.00020439
-0.0003032 0.0019617 0.00055172 0.0013223 0.0014895 0.0021143 0.00182 0.0055739
0.25081 0.040866 0.0052413 0.0015687
7.5935e-07 -0.00056472 1.8271e-05 0.0010102 -0.0011649 0.0014058 -0.0022357 0.00010865
0.0052807 0.0014443 0.27648 0.062974
1940000000 0.17765 -0.17227 -9.9488e-06 -0.001502 0.0014945 0.0022098 -0.0037528 0.00044383
0.0013489 0.0012482 -0.00055968 -0.00054759
1.7801e-05 -0.0015003 0.26291 0.094439 -0.0014082 0.004072 0.0010466 0.0013744
0.0018238 0.00052871 0.0010377 0.00044882
0.0014929 0.0022074 -0.0013827 0.0040803 0.062034 -0.24604 0.0005033 -0.002164
0.0024494 0.00033945 0.00053243 0.001732
-0.0037276 0.00046726 0.0010105 0.0013823 0.00044407 -0.0021771 0.11223 -0.1677
0.0010775 0.0040565 -0.0016403 0.001472
0.0014347 0.001215 0.0018407 0.00050799 0.0024216 0.00040517 0.0011439 0.0040862
0.25409 0.0024214 0.0038549 -0.0018357
-0.00058515 -0.00054678 0.0010119 0.0004625 0.00054751 0.0017349 -0.0017703 0.0014576
0.0038025 -0.0018555 0.26558 0.026744
2000000000 0.13128 -0.18682 -0.0039426 0.0006677 0.0026194 0.0016207 -0.0022965 0.0037025
0.001463 0.00028992 -0.00057594 0.00049774
-0.0039389 0.00068592 0.24849 0.05882 -0.00096956 0.0060214 0.0016993 0.00047779
0.0014308 -0.0010936 0.00056555 0.00021331
0.0026128 0.0015956 -0.00092879 0.0059907 0.018665 -0.23205 -0.0011591 -0.0012897
0.002186 -0.0010536 0.0016683 0.001457
-0.0023026 0.0037752 0.0017017 0.00045569 -0.0011237 -0.0013796 0.058734 -0.17704
-0.00016403 0.0036825 -0.00012075 0.0022144
0.001352 0.00036921 0.0014211 -0.0010808 0.0021719 -0.0010946 -0.00022518 0.0036879
0.24933 -0.030963 0.00081673 -0.0028641
