!Keysight Technologies,M9804A,MY58100912,A.14.10.03
!Date: Thursday, April 27, 2023 10:28:33
!Correction: S11(C  6-Port  ) 
!S12(C  6-Port  ) 
!S13(C  6-Port  ) 
!S14(C  6-Port  ) 
!S15(C  6-Port  ) 
!S16(C  6-Port  ) 
!S21(C  6-Port  ) 
!S22(C  6-Port  ) 
!S23(C  6-Port  ) 
!S24(C  6-Port  ) 
!S25(C  6-Port  ) 
!S26(C  6-Port  ) 
!S31(C  6-Port  ) 
!S32(C  6-Port  ) 
!S33(C  6-Port  ) 
!S34(C  6-Port  ) 
!S35(C  6-Port  ) 
!S36(C  6-Port  ) 
!S41(C  6-Port  ) 
!S42(C  6-Port  ) 
!S43(C  6-Port  ) 
!S44(C  6-Port  ) 
!S45(C  6-Port  ) 
!S46(C  6-Port  ) 
!S51(C  6-Port  ) 
!S52(C  6-Port  ) 
!S53(C  6-Port  ) 
!S54(C  6-Port  ) 
!S55(C  6-Port  ) 
!S56(C  6-Port  ) 
!S61(C  6-Port  ) 
!S62(C  6-Port  ) 
!S63(C  6-Port  ) 
!S64(C  6-Port  ) 
!S65(C  6-Port  ) 
!S66(C  6-Port  ) 
!S6P File: Measurement: :
# Hz S  RI   R 50
500000000 -0.33383 -0.053762 -0.0099488 -0.00076964 -0.0084387 0.013639 -0.00428 0.01125
0.013418 0.0058929 -0.0039227 0.0067725
-0.0099801 -0.00072695 -0.41571 -0.064358 0.0080629 -0.010525 0.0017397 0.011659
0.00803 0.0037429 0.0017537 0.013745
-0.0084064 0.013669 0.0080269 -0.010576 -0.26783 0.19864 0.0064092 0.003498
-0.0013026 0.0088145 -0.00020933 0.012329
-0.004112 0.011239 0.0018001 0.011449 0.0064414 0.0035174 -0.33065 0.041844
-0.019584 -0.0040674 0.018509 0.024543
0.013563 0.0059863 0.0080317 0.0034518 -0.0014451 0.0086834 -0.019601 -0.0040154
-0.24669 -0.19899 -0.028025 0.0055422
-0.0035646 0.0068733 0.0018754 0.013349 -0.00016928 0.012366 0.018457 0.024696
-0.027873 0.0056598 -0.26681 -0.12469
560000000 -0.32049 0.11276 -0.023702 -0.063289 -0.00027406 0.013049 0.0051606 0.01108
0.011076 0.0046021 0.0099171 0.0087196
-0.023734 -0.063319 -0.37487 0.098639 -0.041785 -0.037719 0.013465 0.003247
-0.012159 -0.0031313 0.0030709 -0.0004473
-0.00022377 0.013019 -0.041933 -0.037647 -0.1858 0.25041 0.00013253 -0.0047416
0.018145 0.0049638 0.0079632 -0.0056617
0.0051959 0.011171 0.013642 0.0034684 2.5559e-05 -0.0046476 -0.30636 0.1344
0.005094 -0.023767 0.0054118 -0.022011
0.01171 0.0048598 -0.012461 -0.0036331 0.018137 0.0050426 0.0050881 -0.023806
-0.31155 -0.020203 0.0089961 -0.048078
0.009755 0.0091562 0.003228 3.1782e-05 0.0078893 -0.0057792 0.0054602 -0.022017
0.008855 -0.048655 -0.33296 0.023848
620000000 -0.27728 0.091854 -0.02305 0.0087012 0.0039135 0.0091106 0.0082075 -0.0045902
0.012985 -0.0014678 0.00040406 -0.0025028
-0.023039 0.0086961 -0.4035 0.047862 -0.018454 0.0008604 -0.0016009 -0.0021428
0.012663 -0.006236 0.00087432 -0.0027785
0.0040056 0.0091097 -0.018474 0.00088746 -0.15576 0.25981 -0.00090292 -0.0050385
-0.0029736 -0.0036602 0.0091736 -0.0023873
0.0082359 -0.004767 -0.001548 -0.0020248 -0.00096175 -0.0051429 -0.26628 0.14481
-0.038957 -0.018783 0.01204 0.026489
0.013142 -0.001361 0.012447 -0.0063732 -0.0030058 -0.0035131 -0.038888 -0.01881
-0.23118 -0.050675 -0.040783 0.014065
0.00038601 -0.0030947 0.0007439 -0.0027606 0.0091862 -0.0023757 0.01185 0.026691
-0.040525 0.013665 -0.24965 -0.010248
680000000 -0.23965 0.18396 -0.026352 -0.014257 0.0053039 0.0055215 0.0010743 -0.007421
-0.0020484 -0.011926 0.0057978 -0.006878
-0.026321 -0.014302 -0.38997 0.14914 -0.032403 -0.0021951 -0.0013003 -0.00070782
-0.0018047 -0.0092086 -0.00062939 -0.0018302
0.005318 0.0055331 -0.03244 -0.0020679 -0.10393 0.28006 -0.00058258 -0.00043396
-0.0018015 0.00054016 -0.0023364 -0.0089636
0.0014057 -0.0072793 -0.0013827 -0.00048471 -0.00054063 -0.00031256 -0.2206 0.19694
-0.023081 -0.0082719 -0.0088673 -0.011555
-0.0021502 -0.011922 -0.0017774 -0.0094474 -0.0018404 0.00048839 -0.023083 -0.0082295
-0.2809 0.052252 -0.0072009 -0.0069458
0.0057335 -0.0065928 -0.0010327 -0.002022 -0.0023937 -0.0092196 -0.0086607 -0.011689
-0.0069874 -0.0067935 -0.26064 0.093557
740000000 -0.19397 0.17713 -0.039516 0.027243 0.013763 -0.0046969 -0.00085788 -0.0040789
-0.0046757 -0.0031047 -0.0070678 0.0032542
-0.039469 0.027222 -0.33524 0.16731 -0.037062 0.035373 0.00011685 -0.0060472
-0.012687 0.0074818 -0.00076797 -0.0059893
0.013704 -0.0047304 -0.037033 0.035545 -0.070666 0.27749 -0.0020425 0.0037638
-0.0029801 -0.0063623 -0.0017775 0.0021973
-0.00091162 -0.0042323 7.1867e-05 -0.0061479 -0.0020012 0.0037344 -0.20428 0.20342
-0.04268 -0.0065584 0.022533 0.014785
-0.0046606 -0.0027901 -0.012613 0.0072192 -0.0029444 -0.0062872 -0.042731 -0.0064529
-0.1785 0.076959 -0.043137 0.0019537
-0.0067794 0.0031983 -0.00098423 -0.0060484 -0.0016163 0.0022226 0.022555 0.014902
-0.043144 0.0015756 -0.24863 0.099687
800000000 -0.1621 0.2206 -0.022365 0.016586 0.0060196 -0.010661 -0.0043045 -0.0019607
-0.0044389 0.0019762 0.004278 0.00023358
-0.022404 0.01661 -0.34175 0.23873 -0.0087066 0.034563 -0.0022782 0.0020591
-0.0012889 0.0029731 0.00095888 0.0050231
0.0060402 -0.010663 -0.0086057 0.034627 -0.032111 0.30177 0.0010393 0.0014772
-0.00013208 0.0036296 -0.0017713 0.00057358
-0.0043348 -0.0017568 -0.0022406 0.0021679 0.00098922 0.0015045 -0.17424 0.23176
-0.029179 0.013308 0.014262 -0.010092
-0.0044785 0.0021058 -0.0012509 0.0030139 -0.00018914 0.0036532 -0.029167 0.013322
-0.22182 0.10887 -0.018139 0.01942
0.0041447 0.00034883 0.00092405 0.0051361 -0.0019808 0.00062777 0.014212 -0.010116
-0.01805 0.019365 -0.24123 0.14834
860000000 -0.12773 0.24034 -0.017967 0.030475 -0.0027623 -0.010554 -0.0020703 0.00045516
0.0037936 0.004657 -0.0034186 -0.0024754
-0.017965 0.030419 -0.29353 0.28127 0.007453 0.034875 1.5355e-05 0.0022267
0.0031517 0.00038284 0.0035975 0.00038476
-0.0028083 -0.010547 0.0075807 0.034896 0.015596 0.31057 -0.00079866 -1.5535e-05
0.002164 -0.0018807 0.0019269 0.0044096
-0.0021191 0.00033724 2.9467e-05 0.0021746 -0.00078287 -3.5192e-05 -0.13862 0.24242
-0.018597 0.018003 -0.0064677 -0.0087609
0.0036984 0.0047361 0.0031107 0.00046049 0.002179 -0.0018375 -0.018554 0.018075
-0.16616 0.15841 -0.024385 0.01667
-0.0033455 -0.0025678 0.003555 0.00055375 0.0020055 0.0044207 -0.0063615 -0.0087875
-0.024363 0.016701 -0.19028 0.19558
920000000 -0.10415 0.2635 0.0044809 0.038228 -0.0095359 -0.0052575 -0.0019349 0.0015327
0.0012174 0.0019475 0.0026849 -0.0014053
0.0044764 0.038168 -0.2665 0.30233 0.028466 0.022993 0.001411 0.0012075
0.0076701 -0.00033172 0.0042519 -0.0026624
-0.0095667 -0.0052417 0.028562 0.022938 0.061088 0.31215 0.001902 -5.4175e-05
0.001156 -0.00017261 0.00085451 -0.0013297
-0.0019377 0.0015342 0.0014234 0.0012512 0.0018823 -6.1471e-05 -0.11369 0.25928
-0.010793 0.031408 0.0034898 -0.0071957
0.0013108 0.0019591 0.0076039 -0.00038636 0.0012154 -0.00016765 -0.010738 0.031452
-0.15598 0.16594 -0.00080922 0.027984
0.0026909 -0.0014767 0.0041696 -0.0026591 0.00084932 -0.0013435 0.0035266 -0.0071822
-0.00081188 0.027871 -0.19804 0.20703
980000000 -0.057417 0.28392 0.017098 0.030347 -0.009816 0.0042017 0.0018553 0.0035283
0.0042031 -0.0016275 -0.0029621 -0.0024143
0.017096 0.030332 -0.21344 0.33769 0.033919 0.0054921 0.0022333 -0.00012131
0.0019985 -0.0060614 2.2708e-05 -0.0027788
-0.0097934 0.0042361 0.033956 0.0053788 0.10704 0.30685 0.00070789 -0.0011608
0.00048506 -0.0019525 0.0016476 -0.00029676
0.0019283 0.0035092 0.0022364 -0.00011983 0.00070811 -0.001167 -0.075241 0.27094
0.0079073 0.03074 -0.0089523 -0.0072343
0.0041243 -0.0016185 0.0018783 -0.0060663 0.00049257 -0.0019456 0.0079532 0.030746
-0.12155 0.19551 0.0060646 0.019913
-0.0029139 -0.0022605 -3.2343e-05 -0.0026958 0.0016354 -0.00030099 -0.0090272 -0.0072226
0.0060468 0.019914 -0.15503 0.25113
1040000000 -0.015969 0.29319 0.033353 0.019111 -0.0016717 0.007273 0.0026179 0.00071273
0.00049811 -0.0035051 -0.0002183 -0.0014736
0.033338 0.019124 -0.1787 0.35155 0.030575 -0.014893 0.0017747 -0.0018569
-0.0021165 -0.0027222 -0.00093454 -0.0027804
-0.001657 0.0072815 0.030549 -0.015005 0.15336 0.29405 -0.00045678 -0.001655
-0.0016949 -0.00096202 -0.00052466 -0.0010861
0.0026556 0.00069477 0.0017508 -0.0018301 -0.00043903 -0.0016651 -0.047427 0.28033
0.020299 0.019055 -0.0025792 0.00092809
0.00048384 -0.0034469 -0.0021188 -0.0027565 -0.0016783 -0.00095251 0.02034 0.019037
-0.087462 0.20178 0.014079 0.018095
-0.00020506 -0.0015429 -0.00095575 -0.0028381 -0.00049361 -0.0011108 -0.0026006 0.00092403
0.014061 0.018194 -0.13229 0.27247
1100000000 0.02832 0.30264 0.036912 -0.0035598 0.0027839 0.0043044 0.0024335 -0.0011502
-0.0021036 -0.003045 -0.0039916 -0.00029395
0.036865 -0.0035511 -0.13557 0.37003 0.016113 -0.028602 1.5876e-05 -0.0019885
-0.0038012 -0.00097839 -0.0036072 -0.00069705
0.002807 0.004268 0.016004 -0.0287 0.20001 0.27466 -0.0020541 0.0001036
-0.0019328 0.00055188 -0.0011108 -0.00042431
0.0024108 -0.0011121 2.2327e-05 -0.001945 -0.0020632 0.00011873 -0.0071791 0.28574
0.026172 0.0051225 -0.002642 -6.9592e-05
-0.002134 -0.003083 -0.0038408 -0.0010297 -0.0019404 0.00055911 0.026197 0.0050753
-0.067352 0.21474 0.020091 0.0082192
-0.0040201 -0.00023263 -0.0036694 -0.00066724 -0.0011215 -0.00041747 -0.0026486 -9.8699e-05
0.020032 0.0082023 -0.087208 0.30049
1160000000 0.079563 0.29877 0.024807 -0.021091 0.0029201 -0.00041416 -0.00028499 -0.0023841
-0.00408 -0.00084791 -0.0010651 0.0043603
0.024808 -0.02106 -0.091931 0.37543 -0.0036259 -0.030265 -0.0017436 -0.0017237
-0.0029108 0.0028908 -0.0015261 0.0021989
0.0029083 -0.00040159 -0.0037612 -0.030278 0.24378 0.2442 -0.000794 0.0018528
-0.00054287 0.0020989 -0.0009666 0.00036471
-0.00028081 -0.0024123 -0.0017899 -0.0016822 -0.00076327 0.0018615 0.032457 0.28302
0.02208 -0.011423 -0.0035019 0.0048535
-0.004074 -0.00079757 -0.0029586 0.0029358 -0.0005717 0.0021288 0.022074 -0.01145
-0.033474 0.22253 0.019152 -0.00098755
-0.0010339 0.0043491 -0.001501 0.0021974 -0.00096833 0.00037571 -0.0034985 0.0048426
0.019179 -0.00099219 -0.039738 0.30459
1220000000 0.12381 0.28934 0.011156 -0.030931 -0.0016301 -0.00094747 4.5685e-05 -0.0008833
-0.0027819 0.0022779 0.0011028 0.0020307
0.011177 -0.030869 -0.047297 0.38859 -0.017544 -0.022235 -0.0026716 0.0005046
1.3828e-06 0.0034455 -0.0008424 0.0021162
-0.0016311 -0.00096179 -0.017674 -0.022193 0.28286 0.20494 0.00079254 0.0017919
0.00071316 0.0012993 0.00029792 0.00066172
5.9505e-05 -0.00084022 -0.0026658 0.00052198 0.00081475 0.0017765 0.072874 0.27442
0.011057 -0.018616 0.0019689 0.0015185
-0.0027611 0.0023293 4.1506e-05 0.0034392 0.00073302 0.0012655 0.011021 -0.018622
-0.0096728 0.23127 0.014352 -0.013892
0.0011366 0.0020431 -0.00082482 0.0021467 0.0003303 0.00063767 0.0019555 0.0015294
0.014362 -0.013848 -0.0078461 0.31876
1280000000 0.17425 0.26899 -0.0082202 -0.029457 -0.0020692 0.0025336 -0.00081332 -0.0020584
-0.00082788 0.0033455 0.0027266 0.0013371
-0.0082133 -0.029442 -0.00046659 0.38044 -0.024909 -0.0088862 -0.00092627 0.0016793
0.0019492 0.0017846 0.00075041 0.0020841
-0.0020508 0.0025613 -0.024983 -0.0087829 0.31319 0.16118 0.0016908 -2.7312e-05
0.0014 0.00018411 0.00032166 0.00021331
-0.00083503 -0.0020747 -0.00094123 0.0016781 0.0016473 -2.5489e-05 0.10995 0.25787
0.0002528 -0.020846 -0.00032372 0.0005175
-0.00079908 0.0033156 0.001956 0.0017766 0.0014091 0.00022256 0.00023643 -0.020867
0.027153 0.23484 0.0029879 -0.016439
0.002663 0.0013192 0.00073172 0.0020684 0.0002925 0.00023417 -0.00029567 0.00052348
0.0029914 -0.016435 0.039137 0.32077
1340000000 0.21229 0.23587 -0.018479 -0.01942 0.00077211 0.0049406 -0.0016692 -0.0008571
0.0014609 0.0028523 0.0019202 -0.0014371
-0.018433 -0.019418 0.039462 0.37213 -0.022452 0.0045879 -4.45e-05 0.0020164
0.0021333 0.00071021 0.001319 0.0008008
0.00078162 0.004929 -0.022457 0.0047138 0.33459 0.1138 0.0010785 -0.00095178
0.00063215 -0.000532 7.8045e-05 0.00030394
-0.001681 -0.00082406 -2.7446e-05 0.0020257 0.0011155 -0.00092864 0.14313 0.23666
-0.0098532 -0.017561 0.00056336 0.00071544
0.0015053 0.0028417 0.0021166 0.00068045 0.00063543 -0.00054173 -0.009893 -0.017521
0.057472 0.2301 -0.0045539 -0.015046
0.0018921 -0.0014184 0.0013363 0.00079426 8.9665e-05 0.00031739 0.00053479 0.0006846
-0.0045523 -0.015019 0.077096 0.31515
1400000000 0.24616 0.19854 -0.024361 -0.0072301 0.0055354 0.0035361 -0.0022716 0.00064977
0.0026479 0.0010069 0.00029242 -0.0016784
-0.024332 -0.0072287 0.077138 0.35918 -0.015404 0.013233 0.0014689 0.0012653
0.0013358 -0.00095175 0.0012421 -2.5171e-05
0.0055698 0.0035191 -0.015374 0.013328 0.34738 0.061382 7.7528e-05 -0.0017659
0.00018175 -0.00049108 0.00036871 0.00018386
-0.0022752 0.0006414 0.0014708 0.0012698 4.6202e-05 -0.0017628 0.17227 0.20742
-0.016292 -0.0096978 -0.00095443 0.00011203
0.0026672 0.00101 0.0013369 -0.00094537 0.00017526 -0.0004567 -0.016323 -0.0096706
0.090708 0.22563 -0.011419 -0.009252
0.00031301 -0.0017074 0.0012548 -3.3663e-05 0.00036969 0.00019645 -0.00093966 0.00013551
-0.011416 -0.0092305 0.12174 0.3041
1460000000 0.2697 0.15439 -0.020913 0.0055491 0.0060839 -0.0017842 -0.001572 0.0017713
0.0023322 -0.00056065 -0.00036344 -0.0011655
-0.020898 0.0055179 0.11144 0.33697 -0.0059628 0.016283 0.0016518 9.3839e-05
0.00082109 -0.0014345 0.001246 -0.00058956
0.0060644 -0.0018151 -0.0058877 0.016335 0.35423 0.0080994 -0.0013442 -0.0013513
0.00019377 -0.00024677 0.00077258 -0.00020731
-0.0015879 0.0017884 0.0016447 8.1656e-05 -0.0013634 -0.0013341 0.1987 0.17798
-0.017253 -0.0020681 -0.0006458 0.0024473
0.0022963 -0.00061464 0.00081679 -0.0014665 0.00018221 -0.00022957 -0.017263 -0.002043
0.12043 0.21119 -0.013331 -0.0027081
-0.00038779 -0.0011179 0.0012505 -0.00059371 0.00077722 -0.00021627 -0.00065105 0.0024159
-0.013348 -0.0027153 0.15486 0.28334
1520000000 0.28218 0.11272 -0.014735 0.011129 0.0037036 -0.0045461 0.00015985 0.0026524
0.0021577 -0.0021373 -0.0012679 -8.5226e-05
-0.014741 0.011116 0.14459 0.3225 0.0021414 0.013655 0.0016369 -0.0008515
-7.5337e-05 -0.0011062 0.00025856 -0.001123
0.0036756 -0.0045675 0.0022123 0.013663 0.348 -0.047196 -0.0011307 -0.00021672
0.00061823 -0.00094338 0.00017609 -0.00026329
0.00016414 0.0026294 0.0016381 -0.00086867 -0.0011287 -0.00020517 0.22144 0.13957
-0.015627 0.0044543 0.0018216 0.002205
0.0021486 -0.0021427 -9.0243e-05 -0.0011051 0.00061063 -0.00094705 -0.015627 0.0044906
0.14888 0.19773 -0.01276 0.0024535
-0.0012849 -7.618e-05 0.0002483 -0.0011264 0.00016228 -0.00027487 0.0018108 0.002204
-0.012783 0.0024469 0.18714 0.26249
1580000000 0.29188 0.066685 -0.0075112 0.014193 -0.00089432 -0.0053756 0.0015933 0.0018936
-0.00029758 -0.0022922 -0.00028775 0.00036133
-0.0075146 0.01418 0.17156 0.29801 0.0059234 0.0083105 0.00048411 -0.001605
-0.00060089 -0.00099364 -0.00021348 -0.00085415
-0.0009104 -0.0053602 0.0059771 0.0083057 0.32906 -0.10439 -0.001643 0.00064889
-0.00046091 -0.0012539 0.00030598 -0.00057796
0.0016061 0.0018949 0.00047387 -0.0016064 -0.0016384 0.00063208 0.23477 0.10039
-0.011007 0.0094152 0.0024993 0.00082601
-0.00030695 -0.0022954 -0.00060265 -0.00098921 -0.00046828 -0.0012749 -0.010989 0.0094471
0.17317 0.17968 -0.0097621 0.008591
-0.00029708 0.0003589 -0.00023474 -0.00084926 0.00030726 -0.00058203 0.0025178 0.00080376
-0.0097757 0.0085839 0.2189 0.23614
1640000000 0.29406 0.025681 -0.00051515 0.012482 -0.0031552 -0.0028707 0.0027989 0.0010256
-0.00092738 -0.0016003 -0.00038613 0.00064655
-0.00051758 0.012468 0.20094 0.27363 0.0064186 0.0031261 -0.00069277 -0.0017633
-0.00098393 -0.00032952 -0.00060157 -0.00063161
-0.0031734 -0.0028798 0.0064565 0.0030872 0.30129 -0.15393 -0.00063015 0.0014706
-0.0011738 -0.00094822 -0.00011175 -0.00040907
0.0028213 0.0010105 -0.00070045 -0.0017583 -0.0006484 0.001474 0.2469 0.051797
-0.005888 0.010035 0.0027692 -0.00097032
-0.00093279 -0.0015954 -0.00098555 -0.00031939 -0.0011741 -0.00093972 -0.0058674 0.010055
0.19671 0.15549 -0.0044695 0.010536
-0.00038894 0.00064917 -0.00059877 -0.00061505 -0.00010885 -0.00039851 0.002767 -0.00097017
-0.004475 0.010533 0.24435 0.20538
1700000000 0.28701 -0.019177 0.0028296 0.009097 -0.0038942 2.3749e-05 0.003117 -0.0014025
-0.0020986 -0.00060845 0.00057304 0.00054708
0.0028252 0.0090961 0.21893 0.24287 0.0041494 0.00011174 -0.0015008 -0.00057223
-0.0006896 2.3125e-05 -0.00092909 -0.00045197
-0.0038892 4.0908e-05 0.0041545 8.8775e-05 0.2585 -0.1939 0.00043727 0.0015553
-0.0020349 3.0006e-05 -0.00042076 -0.00094472
0.0031043 -0.0014006 -0.0015112 -0.00055294 0.00043972 0.0015697 0.24341 0.0025893
-0.0027701 0.00953 0.00166 -0.0024595
-0.0021132 -0.0005904 -0.00071644 3.3889e-05 -0.0020734 2.8655e-05 -0.0027385 0.0095433
0.21403 0.13499 0.00067556 0.010596
0.00060921 0.00053267 -0.00093037 -0.00043365 -0.00045495 -0.0008997 0.0016764 -0.0024855
0.00069873 0.010618 0.2607 0.17149
1760000000 0.27554 -0.067271 0.0047863 0.0054885 -0.0025538 0.0010812 0.0013007 -0.0034262
-0.0013843 0.00082718 0.0003819 -0.00063099
0.0047774 0.0054948 0.24533 0.20395 0.0015584 -0.0018196 -0.0012432 0.0002309
-0.0010663 0.00084635 -0.00052438 0.00048796
-0.0025256 0.0010719 0.0015474 -0.0018317 0.21092 -0.22749 0.001061 0.0010774
-0.0013013 0.001594 -0.0013336 -0.00069319
0.0012812 -0.0034618 -0.0012412 0.00023221 0.0010689 0.0010468 0.23509 -0.048092
0.00021222 0.0079257 -6.8504e-05 -0.0027247
-0.0013804 0.00082251 -0.0010421 0.00085255 -0.0012801 0.0015796 0.00022214 0.0079269
0.22908 0.10031 0.0048238 0.0075975
0.00038308 -0.00061219 -0.00051739 0.00048498 -0.0013233 -0.0007192 -9.8315e-05 -0.0027205
0.0048113 0.0076177 0.27393 0.13425
1820000000 0.25155 -0.10428 0.0043556 0.001935 -0.0002887 0.0026839 -0.001065 -0.0031215
-0.0010146 0.0011665 -5.4127e-05 -9.8163e-05
0.0043461 0.0019278 0.25596 0.17433 -0.00093165 -0.00042423 -0.0012478 0.00097147
-0.00011109 0.0011821 -0.00059508 0.00047369
-0.00027706 0.0026916 -0.00094033 -0.00042295 0.15981 -0.24386 0.0015924 0.00039096
-0.00013601 0.0024135 -0.0016116 0.00047509
-0.0010728 -0.0030976 -0.0012321 0.00099051 0.0016054 0.0003706 0.20563 -0.095247
0.00091031 0.0062968 -0.0018477 -0.0017838
-0.0010261 0.001168 -0.00010486 0.0011932 -8.3945e-05 0.002422 0.00094944 0.0063119
0.24596 0.071357 0.0058277 0.0035966
-5.3102e-05 -0.00011771 -0.00058107 0.00048861 -0.0015731 0.00050534 -0.0018305 -0.0017793
0.0058591 0.0035764 0.27618 0.097614
1880000000 0.2174 -0.14461 0.0019352 -0.00010715 -0.00046108 0.0023908 -0.0028334 -0.0021866
-5.4809e-05 0.0018103 2.3109e-05 -0.00058621
0.0019399 -0.0001076 0.26124 0.12835 -0.0027989 0.0016346 -0.00015556 0.0017776
0.00046855 0.0013598 6.8262e-05 0.00095622
-0.00045646 0.0023876 -0.0027904 0.0016527 0.10773 -0.25309 0.001845 -0.00083478
0.0016602 0.0020448 -0.0011895 0.001557
-0.0028491 -0.0021443 -0.0001515 0.0017838 0.0018635 -0.00081043 0.16586 -0.13548
0.0013485 0.0042932 -0.0026014 4.8313e-05
-3.4568e-05 0.0018293 0.00048136 0.0013499 0.0016426 0.0020352 0.0013452 0.0043024
0.24976 0.040112 0.00591 0.00077633
4.5188e-05 -0.00059755 6.495e-05 0.00094322 -0.0011143 0.0015994 -0.0025903 4.7731e-05
0.00591 0.00079885 0.27641 0.063637
1940000000 0.17884 -0.17082 -0.00047654 -0.0014496 0.0015002 0.0021775 -0.0037472 0.0003861
0.0014309 0.00091479 -0.00058128 -0.00070944
-0.00047192 -0.001451 0.26279 0.096495 -0.001508 0.0041109 0.0011216 0.0012402
0.0018307 0.00066119 0.00099188 0.00029065
0.0015132 0.0021611 -0.0014997 0.0041358 0.062641 -0.24625 0.0005666 -0.0023849
0.0024305 0.00031767 0.00058773 0.0016821
-0.0037255 0.00041125 0.0011279 0.001243 0.00060033 -0.002434 0.11396 -0.16683
0.00024568 0.0033618 -0.0018052 0.0016195
0.0014454 0.00089809 0.0018634 0.00064327 0.0024719 0.00035292 0.00025419 0.0033677
0.25264 0.0021619 0.004336 -0.0025588
-0.00056735 -0.00072131 0.0010156 0.00027938 0.0006004 0.0017304 -0.0018109 0.0016241
0.0043397 -0.0025745 0.266 0.027418
2000000000 0.1328 -0.18624 -0.0040884 0.00076982 0.0027099 0.0015616 -0.0023062 0.0036129
0.0012883 0.00027646 -0.00049792 0.00056728
-0.0040881 0.00077773 0.24927 0.060663 -0.0010857 0.0059852 0.0016351 0.00039973
0.0014449 -0.0010031 0.00050758 0.00013369
0.0027382 0.0015305 -0.0010244 0.0059913 0.018723 -0.23285 -0.001266 -0.0013556
0.0021787 -0.0011779 0.0017364 0.0013216
-0.0022469 0.0036664 0.0016624 0.00039101 -0.0013322 -0.0013824 0.060429 -0.17748
-0.0011911 0.0034614 -0.00017037 0.0022889
0.0012869 0.00028191 0.0014523 -0.0010256 0.0021906 -0.0012413 -0.001184 0.0034491
0.24751 -0.030613 0.00069664 -0.0038063
