!Keysight Technologies,M9804A,MY58100912,A.14.10.03
!Date: Thursday, April 27, 2023 10:28:33
!Correction: S11(C  6-Port  ) 
!S12(C  6-Port  ) 
!S13(C  6-Port  ) 
!S14(C  6-Port  ) 
!S15(C  6-Port  ) 
!S16(C  6-Port  ) 
!S21(C  6-Port  ) 
!S22(C  6-Port  ) 
!S23(C  6-Port  ) 
!S24(C  6-Port  ) 
!S25(C  6-Port  ) 
!S26(C  6-Port  ) 
!S31(C  6-Port  ) 
!S32(C  6-Port  ) 
!S33(C  6-Port  ) 
!S34(C  6-Port  ) 
!S35(C  6-Port  ) 
!S36(C  6-Port  ) 
!S41(C  6-Port  ) 
!S42(C  6-Port  ) 
!S43(C  6-Port  ) 
!S44(C  6-Port  ) 
!S45(C  6-Port  ) 
!S46(C  6-Port  ) 
!S51(C  6-Port  ) 
!S52(C  6-Port  ) 
!S53(C  6-Port  ) 
!S54(C  6-Port  ) 
!S55(C  6-Port  ) 
!S56(C  6-Port  ) 
!S61(C  6-Port  ) 
!S62(C  6-Port  ) 
!S63(C  6-Port  ) 
!S64(C  6-Port  ) 
!S65(C  6-Port  ) 
!S66(C  6-Port  ) 
!S6P File: Measurement: :
# Hz S  RI   R 50
500000000 -0.33365 -0.053888 -0.010046 -0.00075745 -0.0084405 0.013587 -0.0041201 0.011354
0.01357 0.0055878 -0.0035969 0.0069544
-0.010032 -0.00069648 -0.41568 -0.064416 0.0080546 -0.010616 0.0017455 0.011466
0.0080968 0.0032578 0.0017307 0.013608
-0.0084461 0.013556 0.0080444 -0.010641 -0.26786 0.19861 0.0064054 0.0034555
-0.0014455 0.0085967 -0.00024081 0.01235
-0.004131 0.011339 0.0017466 0.011515 0.0064234 0.0035038 -0.33095 0.042468
-0.019901 -0.0041745 0.018096 0.025207
0.013294 0.0058965 0.0080327 0.0035707 -0.0013862 0.0085951 -0.019962 -0.0046526
-0.24628 -0.19897 -0.028538 0.0048456
-0.0037317 0.006849 0.0018195 0.013542 -0.00023099 0.012305 0.017809 0.025516
-0.028275 0.0055903 -0.2676 -0.12418
560000000 -0.3199 0.11257 -0.02388 -0.063625 -8.6111e-05 0.01304 0.0050458 0.011046
0.011448 0.0051287 0.0098731 0.0092506
-0.02375 -0.063498 -0.37489 0.098753 -0.041814 -0.037733 0.013444 0.0034021
-0.012926 -0.0040476 0.0033503 -1.3056e-05
-0.00017304 0.012982 -0.042008 -0.037686 -0.1859 0.25037 5.5468e-06 -0.0047373
0.018246 0.0048933 0.0080061 -0.0055763
0.0050919 0.01079 0.013331 0.0033458 4.1449e-05 -0.0047184 -0.30629 0.1343
0.0061054 -0.023998 0.0054807 -0.022069
0.011177 0.0052978 -0.012671 -0.003484 0.018287 0.0049845 0.0056663 -0.023793
-0.3107 -0.02218 0.0093166 -0.048202
0.0098387 0.0087563 0.0031335 -8.8481e-05 0.0079255 -0.0057064 0.0055636 -0.022034
0.0094484 -0.047637 -0.33299 0.023958
620000000 -0.27737 0.09235 -0.023035 0.0087537 0.0040358 0.0091236 0.0083089 -0.0046863
0.013159 -0.0015105 0.00048887 -0.0031293
-0.023039 0.0087853 -0.40345 0.047817 -0.018384 0.00080615 -0.0013958 -0.0019605
0.012387 -0.0064571 0.00085266 -0.0028754
0.0041344 0.0092595 -0.018398 0.00086301 -0.15566 0.25977 -0.00078423 -0.0050978
-0.0032892 -0.0035071 0.0092789 -0.0023089
0.00839 -0.0046758 -0.0014127 -0.0019282 -0.0008363 -0.0051025 -0.26684 0.14481
-0.038908 -0.018297 0.012101 0.026922
0.013035 -0.0017847 0.012196 -0.0065616 -0.0031316 -0.0036419 -0.038217 -0.018678
-0.23042 -0.050753 -0.040774 0.013228
0.00063662 -0.0026767 0.0009823 -0.0027106 0.0093501 -0.0024505 0.011851 0.026732
-0.04147 0.014322 -0.25026 -0.0092674
680000000 -0.23957 0.18404 -0.02626 -0.014302 0.0052182 0.005569 0.001464 -0.0071659
-0.0021549 -0.011792 0.0057861 -0.0063246
-0.026224 -0.014228 -0.38992 0.14915 -0.032409 -0.0021525 -0.0015076 -0.00035002
-0.0018506 -0.0093882 -0.0011434 -0.0019414
0.005338 0.0056373 -0.032446 -0.0020336 -0.10398 0.2801 -0.0006373 -0.00023781
-0.001863 0.00049315 -0.0025959 -0.0091749
0.0015408 -0.0070209 -0.0015025 -0.00036645 -0.00064517 -0.00028811 -0.22043 0.19667
-0.023293 -0.0077942 -0.0088986 -0.011651
-0.0020757 -0.011849 -0.0016997 -0.0094647 -0.0016805 0.00052643 -0.023476 -0.0075816
-0.28117 0.051949 -0.0078904 -0.0070312
0.0059135 -0.0063583 -0.0011384 -0.0020641 -0.0024964 -0.0092546 -0.0084879 -0.011376
-0.0075443 -0.0067379 -0.26041 0.093934
740000000 -0.19398 0.17697 -0.03918 0.027283 0.013738 -0.0046651 -0.00083957 -0.0042341
-0.0048304 -0.0026134 -0.0068688 0.0032007
-0.039025 0.027321 -0.33518 0.16747 -0.037142 0.035366 4.1083e-05 -0.0060732
-0.012403 0.0072758 -0.0010402 -0.006048
0.013608 -0.0046092 -0.036994 0.035543 -0.07067 0.27745 -0.0020156 0.0037257
-0.0029303 -0.0059886 -0.0017227 0.0019414
-0.00077191 -0.0040795 3.6444e-05 -0.0060533 -0.002051 0.0036643 -0.20443 0.20348
-0.042697 -0.0063449 0.022091 0.015145
-0.0046979 -0.0027099 -0.012462 0.0074615 -0.0027891 -0.0059776 -0.042496 -0.0066561
-0.17895 0.076849 -0.042696 0.00099218
-0.0067654 0.0036637 -0.0010795 -0.0061371 -0.0016278 0.0018946 0.022009 0.015101
-0.042396 0.0017407 -0.2502 0.10014
800000000 -0.16227 0.22058 -0.022352 0.016623 0.0061034 -0.010632 -0.0043705 -0.0018032
-0.0045185 0.0019421 0.0042379 0.00040941
-0.022471 0.016638 -0.34172 0.23868 -0.0086793 0.034582 -0.0022812 0.0021416
-0.0012234 0.0029624 0.00091073 0.0052575
0.0059935 -0.010677 -0.0085807 0.034619 -0.032067 0.30176 0.00096939 0.0015252
-0.00024823 0.0035954 -0.0018484 0.00077427
-0.0044349 -0.0017221 -0.0023161 0.0020947 0.00099252 0.0015285 -0.1744 0.2319
-0.029197 0.013214 0.014136 -0.010178
-0.0042342 0.0018729 -0.0012232 0.0029967 -0.00018181 0.0036508 -0.029193 0.013338
-0.22179 0.10857 -0.01828 0.01986
0.0038002 0.00038044 0.00095596 0.0051073 -0.0018579 0.00068876 0.014074 -0.010128
-0.018345 0.019658 -0.24091 0.14844
860000000 -0.1277 0.24032 -0.017952 0.030433 -0.0027732 -0.010537 -0.0020576 0.00029312
0.0038132 0.0048514 -0.0034942 -0.0026366
-0.017904 0.030451 -0.29355 0.28122 0.0074722 0.034889 1.139e-05 0.0021548
0.0031706 0.00046116 0.0034889 0.00061944
-0.0027786 -0.010539 0.0076081 0.034894 0.015562 0.31058 -0.00080155 -9.521e-05
0.0022452 -0.001802 0.0018941 0.0044726
-0.0020009 0.0003973 3.2432e-05 0.0021758 -0.00079872 -6.7399e-05 -0.13846 0.24213
-0.018386 0.018206 -0.0062484 -0.008852
0.0037704 0.0048658 0.0031344 0.00042307 0.0021586 -0.001861 -0.0185 0.018047
-0.16566 0.15863 -0.024383 0.016683
-0.003583 -0.0025847 0.0034437 0.00050296 0.0018665 0.0044579 -0.0062309 -0.0087694
-0.024536 0.017122 -0.19072 0.19498
920000000 -0.10399 0.26344 0.0044924 0.038231 -0.0095335 -0.0052843 -0.0018751 0.0015807
0.0014239 0.0017999 0.0027659 -0.0015681
0.0045471 0.038162 -0.26642 0.30236 0.028475 0.022973 0.0014516 0.0013464
0.0076599 -0.00059991 0.0041751 -0.0025636
-0.0095367 -0.0052353 0.028589 0.022932 0.061063 0.31213 0.0019107 -5.2974e-05
0.0012008 -0.00025837 0.00080909 -0.0013983
-0.0018815 0.0015701 0.0014137 0.0013477 0.0019068 -6.5784e-05 -0.11379 0.25942
-0.010944 0.031451 0.0035256 -0.0072322
0.0014723 0.0019004 0.007534 -0.00054169 0.0012091 -0.0001833 -0.010952 0.031512
-0.15541 0.16556 -0.0012946 0.027885
0.0028203 -0.0016402 0.0041508 -0.0026185 0.00085154 -0.0014173 0.0034104 -0.0071708
-0.0011173 0.027687 -0.19792 0.20715
980000000 -0.057493 0.28393 0.01711 0.030357 -0.0098389 0.0042122 0.0018913 0.0035402
0.0041392 -0.0014871 -0.0028982 -0.0022637
0.017034 0.030405 -0.21338 0.33765 0.033906 0.0054816 0.0022663 -0.00011594
0.0019854 -0.0058698 6.9782e-05 -0.0027279
-0.0098313 0.00424 0.033948 0.005372 0.10701 0.30684 0.00070921 -0.0011398
0.00044927 -0.0019113 0.0016629 -0.00027323
0.0019002 0.0034655 0.002244 -0.00011053 0.00069673 -0.0011463 -0.075228 0.27088
0.0079375 0.030792 -0.0088537 -0.0073132
0.0040618 -0.001552 0.0020346 -0.0060635 0.00049637 -0.0019403 0.0079421 0.03081
-0.1215 0.19583 0.0064579 0.019873
-0.0028994 -0.0021373 1.5689e-05 -0.0027463 0.0016187 -0.0002913 -0.0088634 -0.0072636
0.0063894 0.020109 -0.15503 0.25066
1040000000 -0.016065 0.29302 0.033289 0.019165 -0.0017032 0.0072669 0.002632 0.00071394
0.00037454 -0.0035321 -0.00020771 -0.0016117
0.033257 0.019139 -0.1787 0.35148 0.030594 -0.014893 0.0017389 -0.0018471
-0.0021839 -0.0028001 -0.00099025 -0.002773
-0.0016716 0.0072649 0.030542 -0.015008 0.15335 0.29403 -0.00047265 -0.0016894
-0.001693 -0.00094718 -0.00054171 -0.0010929
0.0026822 0.00066788 0.0017322 -0.0018283 -0.00046028 -0.0016872 -0.047485 0.28028
0.020238 0.019012 -0.0025625 0.00082317
0.00043261 -0.0035433 -0.0021656 -0.0027678 -0.001664 -0.00092945 0.020346 0.018857
-0.08767 0.20148 0.01392 0.018042
-0.00025506 -0.0014024 -0.00098776 -0.0028081 -0.00048973 -0.0011394 -0.0026304 0.00080018
0.013873 0.018081 -0.1325 0.27243
1100000000 0.028362 0.30269 0.036886 -0.0035531 0.0028051 0.0042835 0.0023842 -0.0010939
-0.0021436 -0.0030368 -0.0039304 -0.00018315
0.036869 -0.0035052 -0.13554 0.37 0.016106 -0.028614 1.0625e-05 -0.0019368
-0.0038373 -0.0010645 -0.0035881 -0.00060043
0.0028235 0.00428 0.016007 -0.028708 0.19998 0.27466 -0.002065 0.00011112
-0.0019344 0.0005639 -0.0011041 -0.00042448
0.0024031 -0.0010261 2.2174e-06 -0.0019175 -0.0020616 0.00010932 -0.0072104 0.28578
0.026228 0.0050959 -0.0026545 -7.7299e-05
-0.0021594 -0.0031006 -0.0038064 -0.0010215 -0.0019486 0.00058433 0.026251 0.0050709
-0.067385 0.21465 0.02006 0.0082036
-0.004126 -0.00013087 -0.0036715 -0.00064896 -0.0010952 -0.00040288 -0.0026387 -7.5514e-05
0.020143 0.0081443 -0.087256 0.30048
1160000000 0.07947 0.29872 0.024832 -0.021103 0.0029104 -0.00037117 -0.00025221 -0.0024381
-0.0040183 -0.00084722 -0.001136 0.0043064
0.024843 -0.021069 -0.091922 0.37541 -0.0035966 -0.030242 -0.001749 -0.0017433
-0.0029258 0.0028881 -0.0016476 0.0021244
0.0029233 -0.00039825 -0.0037547 -0.030251 0.24376 0.24419 -0.00078961 0.0018765
-0.00058949 0.0021213 -0.00094967 0.00042194
-0.00021612 -0.0024327 -0.0017985 -0.001767 -0.00079616 0.0018768 0.032535 0.28298
0.022105 -0.011369 -0.0034132 0.0049164
-0.0039876 -0.00077676 -0.0029347 0.002924 -0.00057313 0.0020814 0.022113 -0.011407
-0.033426 0.22254 0.019222 -0.00090614
-0.00098312 0.0042085 -0.0014721 0.0021905 -0.00096567 0.00040521 -0.0033359 0.0048741
0.019195 -0.0010988 -0.039828 0.30427
1220000000 0.12376 0.28927 0.011165 -0.030904 -0.0016144 -0.00096752 6.4525e-05 -0.00086757
-0.0027941 0.0022986 0.0011642 0.0020909
0.011176 -0.030886 -0.047272 0.38856 -0.017551 -0.022258 -0.0026648 0.00053255
1.034e-05 0.0034087 -0.0008223 0.0021498
-0.0016094 -0.0009664 -0.017679 -0.022207 0.28282 0.20497 0.00082459 0.0017868
0.00074204 0.0012466 0.00029659 0.00061987
8.2328e-05 -0.00082455 -0.0026696 0.00055785 0.0008203 0.001774 0.072803 0.27446
0.010966 -0.018626 0.0019303 0.0015266
-0.0027997 0.0023313 1.6612e-05 0.003432 0.0007371 0.0012767 0.010958 -0.01867
-0.0097411 0.2312 0.014325 -0.013761
0.0011865 0.0020807 -0.00084088 0.0021263 0.00030648 0.00060144 0.0018575 0.001493
0.014345 -0.013811 -0.0078439 0.319
1280000000 0.17425 0.26903 -0.0082575 -0.029468 -0.0020652 0.0025625 -0.00080088 -0.0021143
-0.00082469 0.0032904 0.0026122 0.0012684
-0.0082366 -0.029435 -0.00050832 0.38045 -0.024908 -0.0088637 -0.00097736 0.0016263
0.0019245 0.0017679 0.00067374 0.002071
-0.0020398 0.0025796 -0.024964 -0.0087543 0.31316 0.1612 0.0016533 -2.3505e-05
0.0014337 0.00020395 0.00032619 0.0002209
-0.0008094 -0.0021425 -0.000965 0.001607 0.0016607 -2.2216e-05 0.11003 0.2579
0.0003127 -0.020869 -0.00030837 0.0004956
-0.00078959 0.0033152 0.0019535 0.0017806 0.001408 0.00020782 0.00028187 -0.020882
0.027099 0.23493 0.0029267 -0.016434
0.0027389 0.0013251 0.00075222 0.0020648 0.00029311 0.0002447 -0.00029005 0.00056844
0.0029221 -0.016464 0.039179 0.32078
1340000000 0.21227 0.2359 -0.018464 -0.019429 0.00074106 0.0049234 -0.0016697 -0.00077302
0.001476 0.0028926 0.0019496 -0.0014129
-0.01844 -0.019434 0.039438 0.37212 -0.022452 0.0045913 -2.87e-06 0.002025
0.0021531 0.00073193 0.0013125 0.00082771
0.00076673 0.0049144 -0.022474 0.0046964 0.3346 0.11381 0.0011164 -0.00095856
0.00065771 -0.00051975 6.5484e-05 0.00033717
-0.0016626 -0.00078079 -1.2418e-05 0.0020351 0.0011134 -0.00095391 0.14306 0.23662
-0.0098535 -0.01755 0.00059377 0.00071769
0.0014886 0.0028501 0.0021439 0.00069129 0.00066217 -0.00053135 -0.0098894 -0.017525
0.057448 0.23005 -0.0045063 -0.015013
0.0018855 -0.0014259 0.0013429 0.00079366 0.00010216 0.00030052 0.00054658 0.00067155
-0.0045005 -0.015001 0.077108 0.31523
1400000000 0.24618 0.19854 -0.024387 -0.007229 0.0055267 0.0035513 -0.0023005 0.00062469
0.0026074 0.0010033 0.00028844 -0.0016933
-0.024332 -0.0072304 0.07714 0.35921 -0.015426 0.013229 0.0014457 0.0012823
0.0013302 -0.00094572 0.0012626 -6.0044e-06
0.0055482 0.0035408 -0.015383 0.013337 0.34734 0.061432 7.0516e-05 -0.0017424
0.00014749 -0.0004541 0.0004123 0.00019817
-0.0023044 0.00063984 0.0014573 0.0012614 7.5543e-05 -0.0017414 0.17228 0.20742
-0.016285 -0.009727 -0.00097432 0.00010723
0.0026492 0.00098782 0.001343 -0.0009552 0.00014537 -0.00048284 -0.016325 -0.0096785
0.090696 0.22561 -0.011452 -0.009199
0.00031382 -0.0016596 0.0012443 7.7689e-06 0.00036739 0.00021214 -0.00094476 0.00016357
-0.011497 -0.009181 0.12176 0.30411
1460000000 0.26971 0.15442 -0.02092 0.00549 0.0060543 -0.0018042 -0.00156 0.001788
0.0022713 -0.00058537 -0.00035957 -0.0010942
-0.020911 0.0054874 0.11143 0.33695 -0.0059634 0.01629 0.0016554 7.7359e-05
0.00083142 -0.0014441 0.0012411 -0.00060909
0.0060653 -0.0018309 -0.0058898 0.016334 0.35426 0.0081088 -0.0013799 -0.0013643
0.00019523 -0.00023062 0.00076018 -0.00018024
-0.0015544 0.0017939 0.001644 6.4843e-05 -0.0013713 -0.0013797 0.19867 0.17799
-0.017259 -0.0020966 -0.00065667 0.0023889
0.0022826 -0.00062548 0.00083312 -0.0014508 0.00019723 -0.00023498 -0.017233 -0.0020304
0.12047 0.21123 -0.013346 -0.0027136
-0.00043131 -0.0011381 0.0012498 -0.00059765 0.00080499 -0.00020179 -0.0006577 0.0024089
-0.013363 -0.0027639 0.15487 0.2834
1520000000 0.28218 0.11271 -0.014745 0.011136 0.0036882 -0.0045436 0.00013086 0.0026264
0.0021315 -0.0021538 -0.0012983 -9.9003e-05
-0.014734 0.011124 0.14456 0.32247 0.0021225 0.013666 0.0016339 -0.00083626
-7.7833e-05 -0.0011209 0.00029849 -0.0011303
0.0036507 -0.0045452 0.0022136 0.013677 0.34799 -0.047177 -0.001151 -0.00020048
0.00062329 -0.00094179 0.00018783 -0.00024119
0.00013265 0.002621 0.0016307 -0.00084579 -0.0011654 -0.00019724 0.22145 0.13961
-0.015637 0.0044456 0.0018355 0.0022182
0.0021057 -0.0021679 -8.3172e-05 -0.0011198 0.00060834 -0.00095467 -0.015627 0.0044582
0.14881 0.19771 -0.012777 0.0024588
-0.0012404 -6.6317e-05 0.00024339 -0.0011391 0.00015659 -0.00026499 0.0018131 0.0022073
-0.012774 0.0024811 0.18708 0.2625
1580000000 0.29192 0.066623 -0.0075289 0.014199 -0.00089668 -0.0053612 0.0016156 0.0019265
-0.00028729 -0.0022805 -0.00025824 0.00033203
-0.0075226 0.014173 0.17158 0.298 0.0059169 0.0083311 0.00046721 -0.0015864
-0.00059789 -0.00098384 -0.00023352 -0.00083431
-0.00090752 -0.0053968 0.0059749 0.0082988 0.32905 -0.10438 -0.0016416 0.00063539
-0.00047403 -0.0012759 0.00031306 -0.00056921
0.0015945 0.0019033 0.00046286 -0.0015942 -0.0016403 0.00061909 0.23477 0.10039
-0.011042 0.00941 0.0024868 0.00077493
-0.00032439 -0.0022879 -0.00062185 -0.00099129 -0.00048964 -0.0012712 -0.011016 0.0094412
0.17312 0.17969 -0.0097264 0.0085626
-0.00028355 0.00033741 -0.00023785 -0.00085154 0.00033335 -0.00054178 0.0025231 0.00075026
-0.0097314 0.0086311 0.2188 0.23615
1640000000 0.29407 0.025713 -0.0005046 0.012496 -0.0031607 -0.002904 0.0027577 0.0010224
-0.00093077 -0.0016124 -0.00041955 0.00068291
-0.00052145 0.012485 0.20091 0.27363 0.0064307 0.0031303 -0.00070327 -0.0017732
-0.00097446 -0.00033182 -0.00061527 -0.00061757
-0.0031733 -0.0029027 0.0064656 0.0030877 0.30134 -0.15389 -0.00063221 0.0014539
-0.0011696 -0.0009597 -0.00014177 -0.00036699
0.0027861 0.0010156 -0.00071521 -0.0017707 -0.00064202 0.0014647 0.24686 0.051808
-0.0058738 0.010033 0.0027213 -0.00097026
-0.00092945 -0.0016195 -0.00099992 -0.0003223 -0.0011707 -0.0009767 -0.0058489 0.010037
0.19669 0.15549 -0.0045076 0.010516
-0.00040956 0.00066277 -0.0005973 -0.00062132 -0.00012272 -0.00039532 0.002718 -0.00098751
-0.0045065 0.010573 0.24441 0.20535
1700000000 0.28699 -0.019167 0.0028276 0.0091243 -0.0038902 2.7351e-05 0.0031306 -0.0013908
-0.0020801 -0.00057979 0.00061765 0.00047017
0.0028162 0.0091002 0.21893 0.24288 0.0041354 0.00011173 -0.001516 -0.0005588
-0.00071287 2.96e-05 -0.00091321 -0.00042536
-0.0038739 3.5343e-05 0.0041351 7.9998e-05 0.2585 -0.19385 0.00046289 0.0016008
-0.0020834 1.1111e-05 -0.00042502 -0.00097648
0.003122 -0.0014438 -0.0015159 -0.00056093 0.00046576 0.0015883 0.24345 0.0026049
-0.0027759 0.0095505 0.0016698 -0.0024389
-0.0020971 -0.00055807 -0.00072054 3.5018e-05 -0.002074 2.7244e-05 -0.0027648 0.0095455
0.21395 0.13501 0.00065948 0.0106
0.00068058 0.00053046 -0.00092328 -0.00040213 -0.0004572 -0.00091681 0.0017096 -0.0024695
0.00071884 0.010613 0.26063 0.17156
1760000000 0.27554 -0.067277 0.0047969 0.0054884 -0.0025441 0.0010443 0.0012804 -0.0034472
-0.0013719 0.00081684 0.00040908 -0.00055466
0.0047885 0.0054791 0.24532 0.20395 0.0015568 -0.0018134 -0.001236 0.00023089
-0.001056 0.00084478 -0.00054966 0.00049506
-0.0025607 0.0010525 0.0015293 -0.0018367 0.2109 -0.22746 0.0010777 0.0010566
-0.0012973 0.0015993 -0.0013102 -0.00070437
0.001256 -0.0034499 -0.0012677 0.00023556 0.0010549 0.0010689 0.23502 -0.048036
0.00017919 0.0079162 -8.5667e-05 -0.0027386
-0.001349 0.00081857 -0.0010679 0.0008578 -0.001318 0.0015909 0.00017799 0.0079475
0.22906 0.10033 0.0048856 0.0075961
0.00038023 -0.00059779 -0.00053616 0.00047517 -0.0013209 -0.00074423 -0.00011845 -0.0026671
0.00488 0.0076104 0.27402 0.13424
1820000000 0.25153 -0.10423 0.0043716 0.001942 -0.00028744 0.0026664 -0.0010594 -0.0031268
-0.0010307 0.0011669 -3.6399e-05 -0.00016079
0.004355 0.001928 0.25597 0.17438 -0.00094672 -0.0004305 -0.0012595 0.00096824
-0.000103 0.0011693 -0.00057488 0.00045306
-0.00027142 0.0026154 -0.00093903 -0.00041096 0.15983 -0.24389 0.0016261 0.00035688
-7.1008e-05 0.0023946 -0.0016268 0.00048493
-0.0010373 -0.0031134 -0.001245 0.00097402 0.001625 0.00033051 0.20566 -0.095174
0.00096315 0.0063148 -0.0018649 -0.0017683
-0.0010235 0.0011529 -9.2996e-05 0.0011919 -3.906e-05 0.0024102 0.00098097 0.0062761
0.24592 0.071434 0.0058011 0.0036061
-9.253e-05 -0.00012908 -0.00054139 0.00048142 -0.0015609 0.00051956 -0.0018683 -0.0017606
0.0058283 0.0035812 0.27636 0.097599
1880000000 0.21744 -0.14462 0.0019561 -9.705e-05 -0.00046924 0.0024039 -0.0028507 -0.002142
-4.9008e-05 0.0018017 3.7947e-05 -0.00056601
0.001945 -8.7335e-05 0.26126 0.12835 -0.0027935 0.0016378 -0.00015207 0.0017833
0.00049085 0.0013625 4.4442e-05 0.00096029
-0.00045075 0.0024142 -0.0028229 0.0016405 0.1077 -0.25315 0.0018537 -0.00079217
0.0016771 0.0020411 -0.0011733 0.0015587
-0.0028681 -0.0021221 -0.00013056 0.001781 0.0018442 -0.00077915 0.16582 -0.13549
0.0013168 0.0042922 -0.0025486 0.00012093
-3.8011e-05 0.0018188 0.00048179 0.0013678 0.0016286 0.0020508 0.0013608 0.0043019
0.24975 0.040144 0.0058486 0.00084727
9.7278e-05 -0.00054535 8.0701e-05 0.00096308 -0.0011698 0.0015186 -0.0025071 0.00010079
0.0058793 0.00083421 0.27645 0.063568
1940000000 0.17883 -0.17086 -0.00046458 -0.0014666 0.0014836 0.0021325 -0.003766 0.0003848
0.0014587 0.00092139 -0.00050402 -0.00069198
-0.00047348 -0.0014831 0.2628 0.096482 -0.0015397 0.0040936 0.0010816 0.0012448
0.0018117 0.00064679 0.0010732 0.00030776
0.0014938 0.0021395 -0.0014959 0.00412 0.062601 -0.24628 0.0005258 -0.0024464
0.0024738 0.000269 0.000651 0.0017293
-0.0037473 0.00043455 0.0010747 0.0012597 0.00054647 -0.0024425 0.11409 -0.16683
0.00028067 0.0033553 -0.0017721 0.0014702
0.0015085 0.00089422 0.0018451 0.00062272 0.0024441 0.00032277 0.00028195 0.0033594
0.25264 0.0022287 0.0043497 -0.0026237
-0.00058566 -0.00071637 0.0010388 0.00027962 0.00067274 0.0017347 -0.0018569 0.0015917
0.0043782 -0.0026273 0.26588 0.027371
2000000000 0.13289 -0.18624 -0.0040637 0.00074458 0.002715 0.0015453 -0.0023122 0.0036619
0.0012582 0.00029369 -0.00061157 0.0006297
-0.0040388 0.00076677 0.24929 0.060659 -0.001062 0.0059638 0.0016384 0.00033023
0.0014489 -0.0010005 0.00041229 0.00014093
0.0027474 0.0015367 -0.0010214 0.0059752 0.018774 -0.23278 -0.0012813 -0.0014775
0.0021224 -0.001202 0.0017554 0.0013065
-0.0023097 0.0037031 0.0016608 0.00034336 -0.0013203 -0.00143 0.060286 -0.1776
-0.0012945 0.0034415 -0.0001327 0.0024188
0.0012481 0.00025892 0.0014539 -0.0010345 0.0021858 -0.0012528 -0.0012117 0.0034021
0.24755 -0.030677 0.00083204 -0.003785
