!Keysight Technologies,M9804A,MY58100912,A.14.10.03
!Date: Thursday, April 27, 2023 10:28:33
!Correction: S11(C  6-Port  ) 
!S12(C  6-Port  ) 
!S13(C  6-Port  ) 
!S14(C  6-Port  ) 
!S15(C  6-Port  ) 
!S16(C  6-Port  ) 
!S21(C  6-Port  ) 
!S22(C  6-Port  ) 
!S23(C  6-Port  ) 
!S24(C  6-Port  ) 
!S25(C  6-Port  ) 
!S26(C  6-Port  ) 
!S31(C  6-Port  ) 
!S32(C  6-Port  ) 
!S33(C  6-Port  ) 
!S34(C  6-Port  ) 
!S35(C  6-Port  ) 
!S36(C  6-Port  ) 
!S41(C  6-Port  ) 
!S42(C  6-Port  ) 
!S43(C  6-Port  ) 
!S44(C  6-Port  ) 
!S45(C  6-Port  ) 
!S46(C  6-Port  ) 
!S51(C  6-Port  ) 
!S52(C  6-Port  ) 
!S53(C  6-Port  ) 
!S54(C  6-Port  ) 
!S55(C  6-Port  ) 
!S56(C  6-Port  ) 
!S61(C  6-Port  ) 
!S62(C  6-Port  ) 
!S63(C  6-Port  ) 
!S64(C  6-Port  ) 
!S65(C  6-Port  ) 
!S66(C  6-Port  ) 
!S6P File: Measurement: :
# Hz S  RI   R 50
500000000 -0.33554 -0.052985 -0.011125 -0.00055204 -0.0086461 0.013757 -0.0039195 0.01257
0.012572 0.0058245 -0.0039422 0.0088163
-0.011121 -0.0004792 -0.41692 -0.063591 0.0077532 -0.010294 0.0017993 0.012342
0.0079242 0.0028575 0.0020032 0.01434
-0.0086576 0.013695 0.0077865 -0.010403 -0.26812 0.19948 0.0071039 0.0035223
-0.001555 0.0086572 0.0012636 0.012124
-0.0037377 0.012716 0.0017069 0.012184 0.0071216 0.003528 -0.33298 0.043366
-0.018521 -0.00512 0.014867 0.025043
0.012226 0.0057578 0.0079878 0.0027862 -0.0017239 0.0085143 -0.018297 -0.0049178
-0.24801 -0.19672 -0.02496 0.0043179
-0.0038619 0.0089957 0.0015251 0.014162 0.0010162 0.012438 0.015157 0.025463
-0.025172 0.0042546 -0.27372 -0.12396
560000000 -0.31912 0.11322 -0.023071 -0.065692 0.0004397 0.013596 0.0054991 0.010655
0.010658 0.0033008 0.009381 0.0086983
-0.02309 -0.065332 -0.37559 0.098819 -0.04152 -0.037608 0.013306 0.0035738
-0.013547 -0.0028198 0.0028138 -0.00058373
0.00059427 0.013277 -0.041705 -0.037524 -0.18619 0.25158 -0.00033022 -0.0047468
0.018517 0.0052326 0.007822 -0.0057786
0.0052895 0.010594 0.013106 0.0034334 -0.00040971 -0.0046345 -0.30763 0.13522
0.0055412 -0.023077 0.0051884 -0.021932
0.0098834 0.0042539 -0.012716 -0.0032915 0.018259 0.0048877 0.0047508 -0.023114
-0.30987 -0.018505 0.0081803 -0.047561
0.010018 0.0088705 0.0032904 -0.0012993 0.0082046 -0.0059594 0.0052986 -0.022041
0.0076859 -0.048057 -0.33207 0.024329
620000000 -0.27876 0.093872 -0.023135 0.0088299 0.0041827 0.0096089 0.0083274 -0.0034953
0.011601 -0.0016261 0.0012799 -0.0021365
-0.023106 0.0088079 -0.40371 0.048858 -0.018408 0.0010521 -0.0014375 -0.0018133
0.012384 -0.006389 0.0011058 -0.0031373
0.0043979 0.0094564 -0.018461 0.0010648 -0.15573 0.26082 -0.00042645 -0.0049138
-0.0030756 -0.0028516 0.009438 -0.0034031
0.0086677 -0.0037978 -0.0015221 -0.0019031 -0.00037839 -0.0051473 -0.26607 0.14578
-0.038927 -0.017868 0.013401 0.02567
0.011814 -0.0018954 0.012386 -0.0061427 -0.0029753 -0.00293 -0.038486 -0.018364
-0.23246 -0.051514 -0.042333 0.015398
0.00054886 -0.0024224 0.00069306 -0.0030593 0.0094565 -0.0028597 0.013894 0.026658
-0.042528 0.015146 -0.24989 -0.0090894
680000000 -0.23972 0.18389 -0.026731 -0.014143 0.0049724 0.0051689 0.0011003 -0.0077153
-0.0017137 -0.011872 0.0050491 -0.0076276
-0.02676 -0.014144 -0.39023 0.15025 -0.032463 -0.0017473 -0.0016001 -0.00073237
-0.0014675 -0.0092046 -0.0012686 -0.0018898
0.00491 0.0053024 -0.032566 -0.0016408 -0.10374 0.28118 -0.00099506 -0.00072096
-0.0016867 0.00039687 -0.002534 -0.0087838
0.0010676 -0.0077527 -0.0016294 -0.0006463 -0.0010097 -0.00065597 -0.22089 0.19769
-0.024095 -0.0074182 -0.0091196 -0.010444
-0.0014481 -0.012007 -0.0015848 -0.0093717 -0.0015675 0.00030859 -0.023985 -0.0073894
-0.28028 0.052358 -0.008428 -0.0083711
0.0054342 -0.0079478 -0.0012602 -0.001706 -0.0024475 -0.0088619 -0.0091798 -0.011216
-0.0087818 -0.0082099 -0.26283 0.097422
740000000 -0.19311 0.17749 -0.039279 0.027192 0.014091 -0.005043 -4.0589e-05 -0.0041533
-0.0049205 -0.0032168 -0.0060727 0.0033033
-0.039259 0.027128 -0.33545 0.16847 -0.036808 0.035005 -0.00039982 -0.0062092
-0.012219 0.0080033 -0.0016025 -0.0063882
0.014088 -0.005038 -0.036898 0.035264 -0.069902 0.27776 -0.0020145 0.0032162
-0.0029727 -0.006246 -0.001471 0.0012967
8.2067e-05 -0.0043223 -0.00031945 -0.0062567 -0.0019611 0.0031779 -0.20331 0.20503
-0.043346 -0.0067278 0.023025 0.015332
-0.0050313 -0.0031953 -0.012455 0.0076856 -0.0029902 -0.0060876 -0.04347 -0.0067834
-0.18031 0.081279 -0.041771 0.0013445
-0.0060397 0.0035191 -0.001426 -0.006486 -0.0013035 0.001249 0.022987 0.015659
-0.041498 0.00088251 -0.24874 0.10105
800000000 -0.16168 0.22136 -0.022258 0.016319 0.0058901 -0.01066 -0.0046564 -0.0018637
-0.0046985 0.0026502 0.0039452 0.00075779
-0.022206 0.016356 -0.34127 0.23916 -0.0085791 0.034274 -0.0024364 0.0020137
-0.0014295 0.0031013 0.0010703 0.0051723
0.0059085 -0.01067 -0.0084523 0.034359 -0.031569 0.30207 0.00075652 0.001404
-4.1198e-05 0.0038418 -0.001954 0.0007903
-0.0047058 -0.0016907 -0.0024318 0.0020607 0.00073048 0.0014629 -0.17392 0.23228
-0.029177 0.013811 0.013712 -0.0099365
-0.0046754 0.0024873 -0.0015408 0.0030491 -3.7806e-05 0.0038195 -0.029139 0.013634
-0.22149 0.11011 -0.017842 0.01979
0.0040341 0.00089433 0.0011974 0.0051238 -0.0019124 0.00080397 0.014162 -0.010176
-0.017723 0.019743 -0.24098 0.15036
860000000 -0.12698 0.24105 -0.017343 0.030262 -0.0026982 -0.010631 -0.0019302 0.00042715
0.0036225 0.0051888 -0.0035336 -0.0030021
-0.017348 0.030253 -0.29246 0.2821 0.0076835 0.034869 0.00012735 0.0019308
0.003759 0.00078262 0.0031489 0.0005293
-0.0027592 -0.010613 0.0077989 0.034905 0.01599 0.31068 -0.00066624 -3.3873e-05
0.0023368 -0.0013824 0.0017035 0.0040553
-0.0018026 0.00044216 0.00014855 0.0019537 -0.00064552 -7.2219e-05 -0.13752 0.24276
-0.018121 0.018386 -0.0057515 -0.0092685
0.003711 0.0053974 0.0038613 0.00079126 0.0024185 -0.0013372 -0.018115 0.018428
-0.16457 0.16154 -0.023482 0.017456
-0.0037237 -0.0027837 0.0030892 0.00081822 0.0016073 0.0040971 -0.0057574 -0.0091678
-0.023552 0.017215 -0.19039 0.19463
920000000 -0.10308 0.26383 0.0048011 0.038256 -0.0094434 -0.0054011 -0.0016714 0.0017105
0.0015644 0.0018772 0.0031095 -0.0015078
0.0047985 0.038237 -0.26578 0.30304 0.028417 0.022855 0.0015047 0.0014166
0.0078138 -0.00045923 0.0040427 -0.0029277
-0.0094305 -0.0053464 0.028564 0.022791 0.061371 0.31214 0.0020062 -1.9573e-05
0.0012326 -0.00031575 0.0009072 -0.0015058
-0.0015702 0.0017707 0.0015369 0.0014128 0.0020124 -2.178e-05 -0.11302 0.25978
-0.010704 0.030988 0.0033841 -0.0068985
0.0016002 0.0017669 0.0079249 -0.00040508 0.0011612 -0.00034938 -0.010437 0.030861
-0.15376 0.16571 -0.0014218 0.026689
0.0029637 -0.001425 0.0040515 -0.0028825 0.0009684 -0.0014973 0.0033479 -0.0067047
-0.0014821 0.02675 -0.19706 0.20943
980000000 -0.056871 0.28435 0.017032 0.030108 -0.0097785 0.0041151 0.0015575 0.0034336
0.0037669 -0.001569 -0.0028629 -0.0024143
0.017021 0.030097 -0.2129 0.33798 0.033838 0.0053158 0.0019937 -0.00013947
0.0018144 -0.0060742 -1.0342e-05 -0.0025523
-0.0098486 0.004136 0.033912 0.0051985 0.10733 0.30697 0.0006399 -0.0011576
0.00045813 -0.0020287 0.0015725 -4.9881e-05
0.0015571 0.0033321 0.0020452 -0.00017789 0.00064708 -0.0011539 -0.074771 0.27081
0.0077659 0.030685 -0.0089702 -0.0072832
0.003908 -0.00155 0.0018714 -0.0061262 0.00047921 -0.0019979 0.0078128 0.030584
-0.12033 0.19661 0.0069749 0.019608
-0.0029199 -0.0023944 1.204e-06 -0.0026383 0.0015513 -2.4793e-05 -0.0090699 -0.0073885
0.0068432 0.01959 -0.15353 0.25193
1040000000 -0.01575 0.29318 0.033164 0.018827 -0.0018174 0.0071971 0.0026269 0.00084188
0.00064232 -0.0033732 -8.9569e-05 -0.0015227
0.033132 0.018886 -0.17816 0.35159 0.030386 -0.014969 0.0016698 -0.0015982
-0.0022973 -0.0028648 -0.0010163 -0.0028975
-0.0017919 0.0071656 0.030386 -0.015124 0.15365 0.29411 -0.00052495 -0.00162
-0.0016122 -0.00092998 -0.00056321 -0.0010981
0.0026648 0.00091274 0.001695 -0.0016139 -0.00049226 -0.0015983 -0.047004 0.28051
0.02013 0.019022 -0.0027927 0.0010264
0.00065425 -0.0034698 -0.0023267 -0.0028313 -0.0016275 -0.00099471 0.02024 0.018965
-0.087075 0.2022 0.014079 0.017653
-0.00011989 -0.0016877 -0.00099471 -0.0028106 -0.00055889 -0.0011193 -0.0027711 0.0010728
0.014103 0.017737 -0.13111 0.2732
1100000000 0.028892 0.30238 0.036614 -0.0037508 0.0027363 0.0042534 0.0023624 -0.00096937
-0.0022548 -0.0029341 -0.0042393 -0.00011388
0.036592 -0.003733 -0.1353 0.37013 0.015939 -0.02861 3.9416e-06 -0.0018662
-0.0039099 -0.0010025 -0.0037339 -0.00057584
0.0027381 0.0042596 0.015831 -0.028716 0.20028 0.27469 -0.0020081 0.0001014
-0.0019014 0.00053871 -0.0012164 -0.00032404
0.00235 -0.00096286 1.0883e-05 -0.0018569 -0.0020129 0.00011231 -0.0068718 0.28556
0.026223 0.0051495 -0.0025461 -1.3006e-05
-0.002115 -0.0029558 -0.0038815 -0.00098006 -0.0018583 0.00058482 0.026135 0.0051269
-0.066893 0.21541 0.019887 0.0079604
-0.0041915 -2.1109e-05 -0.0036903 -0.00053085 -0.0011655 -0.00034536 -0.0024923 -8.241e-05
0.02002 0.0079155 -0.085392 0.30135
1160000000 0.080047 0.29871 0.024641 -0.021105 0.0028196 -0.0003867 -3.7977e-05 -0.0023135
-0.003912 -0.00096307 -0.0010605 0.0041041
0.024645 -0.021047 -0.09162 0.37541 -0.0036948 -0.030203 -0.001684 -0.0017801
-0.0028942 0.0027011 -0.0016 0.0019025
0.0028119 -0.00040409 -0.0038009 -0.030212 0.244 0.24416 -0.00082109 0.0018646
-0.00058858 0.0021666 -0.00097091 0.00036037
-3.1932e-05 -0.0022884 -0.001688 -0.00181 -0.00081866 0.0018611 0.03279 0.28291
0.02212 -0.01162 -0.0036832 0.0050408
-0.003919 -0.00093796 -0.0028886 0.0027534 -0.00058167 0.0021308 0.022105 -0.011584
-0.032313 0.22254 0.018749 -0.00080326
-0.0011214 0.0041166 -0.0016536 0.0019782 -0.00096039 0.00038234 -0.0036214 0.0051091
0.018769 -0.00080622 -0.038257 0.30478
1220000000 0.12403 0.289 0.010834 -0.030773 -0.0016956 -0.00085674 0.00014423 -0.00085184
-0.002874 0.0022361 0.0010879 0.0021003
0.010856 -0.030736 -0.047057 0.38855 -0.017676 -0.022177 -0.0026903 0.00055336
6.46e-05 0.0033923 -0.00083946 0.002042
-0.0016949 -0.00084454 -0.017782 -0.022116 0.28307 0.2048 0.00084115 0.0018542
0.00070733 0.0013602 0.00034704 0.00064973
0.00016771 -0.00083114 -0.0026781 0.00054422 0.00083903 0.0018504 0.072803 0.27417
0.010995 -0.018822 0.0017784 0.0015265
-0.0027974 0.0022268 2.748e-05 0.0033668 0.0007095 0.0013715 0.010984 -0.018819
-0.0085783 0.23112 0.013858 -0.014034
0.0011321 0.0021065 -0.00079756 0.0020217 0.00033485 0.00066172 0.0018463 0.0015189
0.01387 -0.01402 -0.0065271 0.31928
1280000000 0.17464 0.2689 -0.0083599 -0.029325 -0.0020865 0.0027617 -0.00068201 -0.0021367
-0.00080421 0.0032621 0.0026822 0.0013103
-0.0083434 -0.029297 -0.00036728 0.38047 -0.024956 -0.0087867 -0.00099663 0.001538
0.0019547 0.0018686 0.00071012 0.0020613
-0.0020714 0.0027579 -0.025038 -0.0086755 0.31325 0.16105 0.0017442 -9.409e-06
0.001404 0.00030681 0.00040987 0.00016511
-0.00068416 -0.0020969 -0.0010086 0.0015594 0.0017413 -6.6834e-07 0.10987 0.25783
0.00018205 -0.021087 -0.00033918 0.00046061
-0.00084299 0.0032651 0.001984 0.00184 0.0014004 0.00026043 0.00025131 -0.021083
0.027964 0.23478 0.002786 -0.016525
0.0026841 0.0012755 0.00069432 0.0020835 0.000376 0.00018739 -0.00032352 0.00044573
0.0027962 -0.016414 0.040091 0.32084
1340000000 0.21231 0.23585 -0.018435 -0.019124 0.00089708 0.0049549 -0.001829 -0.0010141
0.0014258 0.0028708 0.0018486 -0.0014033
-0.018412 -0.019124 0.039737 0.37219 -0.022473 0.0047406 1.4481e-05 0.0020589
0.0022309 0.00067956 0.001385 0.00077802
0.00092084 0.004921 -0.022483 0.004848 0.33471 0.11393 0.0012323 -0.0010753
0.00075963 -0.0007522 -2.7434e-05 0.00028477
-0.0018409 -0.0010237 3.4397e-05 0.0020506 0.0012132 -0.0010883 0.14306 0.23681
-0.010039 -0.017615 0.00041358 0.00083804
0.0014345 0.0028225 0.0021894 0.00066329 0.00072426 -0.00069794 -0.010008 -0.017561
0.058016 0.22995 -0.0046536 -0.014886
0.0018554 -0.00141 0.0013887 0.00074798 -1.9057e-05 0.00029275 0.00045543 0.00080535
-0.0046525 -0.014919 0.078291 0.31498
1400000000 0.24629 0.19842 -0.024277 -0.0070352 0.0056561 0.003538 -0.0023205 0.00059826
0.0026039 0.0010252 0.0003499 -0.0015957
-0.024239 -0.0070441 0.077309 0.35932 -0.015352 0.013299 0.0014558 0.0012395
0.0013204 -0.00099247 0.0012013 4.5309e-05
0.0056801 0.0035164 -0.015315 0.013393 0.34749 0.061349 -3.9417e-05 -0.001857
0.00013784 -0.00051738 0.00031275 0.00021741
-0.0022861 0.00060864 0.0014435 0.0012545 -3.2264e-05 -0.0018508 0.17235 0.20778
-0.01647 -0.0097701 -0.00082411 0.00014859
0.0025676 0.0010543 0.0013387 -0.0010053 0.00012058 -0.00051884 -0.016493 -0.009728
0.091179 0.22536 -0.011438 -0.008961
0.00032896 -0.0016397 0.0012217 7.2363e-05 0.00032977 0.00018615 -0.00079715 0.00016847
-0.011482 -0.0090014 0.12283 0.3036
1460000000 0.26992 0.15459 -0.020678 0.0056305 0.0061792 -0.0019132 -0.0016976 0.0018216
0.0023223 -0.00043046 -0.00042545 -0.0010332
-0.020682 0.0056493 0.1118 0.33712 -0.0058882 0.016364 0.0017472 9.9225e-05
0.00079194 -0.0015594 0.0011951 -0.00062659
0.0061678 -0.0019679 -0.005813 0.016432 0.3542 0.0083585 -0.001395 -0.0013821
0.00010161 -0.00019546 0.0007446 -0.00024297
-0.0016921 0.0018775 0.001739 7.1979e-05 -0.001408 -0.001359 0.1989 0.17818
-0.017395 -0.0019573 -0.00064784 0.002336
0.0023469 -0.00052511 0.00075607 -0.0015185 9.3283e-05 -0.00022937 -0.017394 -0.0019449
0.12078 0.21112 -0.01319 -0.0025685
-0.00038991 -0.0010201 0.0011597 -0.00066868 0.00079498 -0.00023769 -0.00061986 0.0023876
-0.013187 -0.0025937 0.15568 0.28318
1520000000 0.28254 0.11267 -0.014529 0.011146 0.0037217 -0.0045478 0.00011313 0.0027164
0.0022055 -0.002068 -0.0011863 -0.00018698
-0.014527 0.011134 0.14497 0.32245 0.002231 0.013622 0.0015704 -0.00083442
-0.00013209 -0.0010695 0.00029727 -0.0010659
0.0036869 -0.0045701 0.0023114 0.013637 0.34806 -0.047077 -0.0012141 -0.00020066
0.00061653 -0.00092792 7.4174e-05 -0.0002112
0.000122 0.0027195 0.0015877 -0.00083218 -0.0011997 -0.00020396 0.22175 0.13968
-0.015797 0.004629 0.0018405 0.0021863
0.0021859 -0.0020645 -0.00013726 -0.0010705 0.00063218 -0.00094149 -0.015774 0.0046748
0.14909 0.19753 -0.012629 0.0025782
-0.0012111 -0.00018038 0.00029763 -0.0010515 8.386e-05 -0.00020195 0.0018562 0.0021708
-0.012673 0.0026113 0.18792 0.26208
1580000000 0.29237 0.066525 -0.0073218 0.014078 -0.00089618 -0.0054486 0.001633 0.0020049
-0.00026995 -0.0023846 -0.00024824 0.00038513
-0.0073096 0.014061 0.172 0.29802 0.0060139 0.0082784 0.00047186 -0.0015646
-0.00066916 -0.00091931 -0.00022645 -0.00088852
-0.00095764 -0.0054566 0.0060725 0.0082541 0.32929 -0.10442 -0.0016364 0.00069109
-0.00047577 -0.0013027 0.00025999 -0.00064731
0.0016567 0.0020002 0.00045107 -0.0015885 -0.0016396 0.00069888 0.23507 0.10036
-0.011061 0.0096114 0.002502 0.00068753
-0.000299 -0.0023679 -0.00068291 -0.0009085 -0.00046744 -0.0013008 -0.011061 0.0096496
0.17372 0.17968 -0.0096885 0.0085181
-0.00026991 0.0003623 -0.00024221 -0.00087789 0.00019073 -0.00066894 0.0024739 0.00058879
-0.0097033 0.0084245 0.21971 0.23582
1640000000 0.29447 0.025361 -0.00041359 0.012329 -0.0030648 -0.0028921 0.0028969 0.00099811
-0.0010035 -0.0016966 -0.00041271 0.00066842
-0.00041618 0.012326 0.20139 0.27346 0.0064518 0.0031263 -0.00067192 -0.0017312
-0.00098332 -0.00024593 -0.00056343 -0.00061822
-0.0031184 -0.0028617 0.0064885 0.0030991 0.3014 -0.15368 -0.00048835 0.00159
-0.0012416 -0.00078574 -0.00024287 -0.00024707
0.0028621 0.00098047 -0.00067652 -0.0017082 -0.00045228 0.0015754 0.24726 0.051661
-0.0058691 0.010282 0.0027438 -0.00083052
-0.0010048 -0.0016726 -0.00099012 -0.00023507 -0.0012439 -0.0007809 -0.0058467 0.010316
0.19705 0.15536 -0.0045256 0.010628
-0.00035788 0.00067287 -0.00055264 -0.00064043 -0.00026151 -0.00031088 0.0027718 -0.00082476
-0.0045367 0.010634 0.24529 0.20489
1700000000 0.2873 -0.019489 0.0028272 0.0089431 -0.0039492 -0.00012804 0.0031281 -0.0013346
-0.0021435 -0.00051711 0.00061041 0.00040476
0.0028338 0.0089251 0.21927 0.24265 0.0041528 7.28e-06 -0.0014599 -0.00057485
-0.00066557 1.6487e-05 -0.00093517 -0.00041436
-0.0039025 -0.000142 0.0041728 -2.1775e-05 0.25899 -0.19368 0.00057462 0.0015049
-0.0019788 1.6257e-05 -0.00043967 -0.00083356
0.0031452 -0.0013671 -0.001484 -0.00057738 0.00052828 0.0015124 0.24356 0.0022801
-0.0027522 0.0097375 0.0017061 -0.0023656
-0.0021551 -0.00051735 -0.00064073 2.9041e-05 -0.001952 1.5471e-05 -0.0027107 0.009678
0.21431 0.13494 0.00064543 0.010538
0.00057333 0.00041153 -0.0010023 -0.00039573 -0.00054243 -0.00087001 0.0016596 -0.0023931
0.00071652 0.010557 0.26143 0.17083
1760000000 0.27588 -0.067749 0.0047169 0.0053911 -0.0026961 0.0010538 0.0012532 -0.0034977
-0.0013937 0.00087532 0.00027477 -0.00047568
0.0047082 0.0053803 0.24566 0.20366 0.0015572 -0.0018835 -0.0012241 0.00022809
-0.0010203 0.00079087 -0.00060388 0.0004122
-0.0027413 0.0011138 0.0015391 -0.0019113 0.21123 -0.22761 0.001047 0.0010429
-0.0012973 0.0015374 -0.0013174 -0.0007125
0.001202 -0.0035 -0.0012196 0.0002321 0.0010674 0.00099931 0.23511 -0.048527
0.00032846 0.0079334 -0.00015313 -0.0028278
-0.0013953 0.00087562 -0.0010298 0.00080728 -0.0012852 0.0015423 0.00034575 0.0079802
0.22939 0.1003 0.0048408 0.0076177
0.00030691 -0.0004882 -0.00058577 0.00040128 -0.0012718 -0.00068592 -0.00014161 -0.0028135
0.0048316 0.0076174 0.27443 0.13348
1820000000 0.25173 -0.10502 0.0043748 0.0018247 -0.00024926 0.0027149 -0.001128 -0.0031461
-0.0009666 0.0011758 -4.3628e-05 1.1428e-05
0.0043581 0.001818 0.25626 0.17399 -0.00084846 -0.00045929 -0.001276 0.00092874
-0.0001229 0.0011169 -0.00059953 0.00054131
-0.00021723 0.0027092 -0.0008557 -0.00043859 0.16029 -0.24368 0.0015422 0.00035217
-0.00012431 0.0024405 -0.0015712 0.00059413
-0.0011311 -0.0031312 -0.0012817 0.00091575 0.0015266 0.00032914 0.20561 -0.095651
0.0011157 0.0063686 -0.0016454 -0.0017303
-0.00097177 0.0011602 -9.7347e-05 0.0011247 -4.7914e-05 0.0024795 0.0011342 0.0063491
0.24642 0.071282 0.0058384 0.0036864
-2.1694e-05 -1.7221e-05 -0.0005936 0.00056357 -0.0015911 0.00060108 -0.0016822 -0.0017895
0.0058354 0.0036946 0.27679 0.096876
1880000000 0.21695 -0.14523 0.0018679 -0.00021056 -0.0004892 0.0023376 -0.0029474 -0.0022258
-3.0098e-05 0.0016884 4.7822e-05 -0.00048197
0.0018606 -0.00022364 0.26144 0.12796 -0.0027559 0.0015049 -0.00028657 0.0017153
0.00042172 0.0012798 3.6431e-05 0.00095725
-0.00048643 0.0023455 -0.0027533 0.0015267 0.10832 -0.25328 0.0016488 -0.00078288
0.0016743 0.0019045 -0.00093907 0.0014204
-0.0030046 -0.0022949 -0.0002532 0.001724 0.0016462 -0.0008305 0.1656 -0.13576
0.0014183 0.0040425 -0.0025803 -0.00023986
-3.6433e-05 0.0016856 0.00041195 0.0012904 0.0016183 0.0019431 0.0015111 0.0040494
0.25042 0.039901 0.0061767 0.00072862
4.662e-05 -0.00036106 6.8334e-05 0.00098407 -0.00093529 0.001411 -0.0025976 -0.00013953
0.0061757 0.00071792 0.277 0.062964
1940000000 0.17846 -0.17107 -0.00062141 -0.0015191 0.0014503 0.002261 -0.0037642 0.00060882
0.0013479 0.0010399 -0.00049505 -0.00065493
-0.00063406 -0.0015224 0.26286 0.095975 -0.001663 0.0041128 0.0010881 0.0013661
0.001759 0.00066265 0.00093255 0.00038876
0.0014697 0.0022931 -0.0016396 0.0041448 0.062654 -0.24661 0.00058742 -0.002049
0.0024535 0.00028859 0.00055543 0.0017336
-0.0037317 0.00058126 0.0010937 0.001364 0.00059002 -0.0020473 0.1141 -0.16707
0.00047279 0.0032101 -0.001706 0.0015291
0.0013957 0.0010173 0.0017536 0.00065695 0.0024206 0.00030029 0.00047975 0.003285
0.25327 0.0018039 0.0044337 -0.0027459
-0.00051242 -0.00061784 0.00093636 0.00042353 0.00060354 0.001733 -0.0016478 0.0014253
0.0043515 -0.0026585 0.26616 0.02616
2000000000 0.13247 -0.18627 -0.0043807 0.0008292 0.002661 0.0015706 -0.0023264 0.0039083
0.0011171 0.00030023 -0.00069235 0.0003956
-0.0043767 0.00080269 0.2492 0.060236 -0.0011074 0.0059747 0.0015705 0.00050698
0.0014125 -0.00089812 0.00044826 0.00014945
0.0026902 0.0015788 -0.0010544 0.0059777 0.018897 -0.2329 -0.0011736 -0.0013771
0.0020234 -0.0010676 0.0017807 0.0014482
-0.002278 0.0038601 0.0016172 0.00049211 -0.0011612 -0.001402 0.060105 -0.17758
-0.0012524 0.0031483 -0.00046842 0.0021634
0.0011235 0.0002404 0.0014338 -0.00088857 0.0020354 -0.0010833 -0.0011944 0.0030823
0.24821 -0.031264 0.00077741 -0.0040186
