!Keysight Technologies,M9804A,MY58100912,A.14.10.03
!Date: Thursday, April 27, 2023 10:28:33
!Correction: S11(C  6-Port  ) 
!S12(C  6-Port  ) 
!S13(C  6-Port  ) 
!S14(C  6-Port  ) 
!S15(C  6-Port  ) 
!S16(C  6-Port  ) 
!S21(C  6-Port  ) 
!S22(C  6-Port  ) 
!S23(C  6-Port  ) 
!S24(C  6-Port  ) 
!S25(C  6-Port  ) 
!S26(C  6-Port  ) 
!S31(C  6-Port  ) 
!S32(C  6-Port  ) 
!S33(C  6-Port  ) 
!S34(C  6-Port  ) 
!S35(C  6-Port  ) 
!S36(C  6-Port  ) 
!S41(C  6-Port  ) 
!S42(C  6-Port  ) 
!S43(C  6-Port  ) 
!S44(C  6-Port  ) 
!S45(C  6-Port  ) 
!S46(C  6-Port  ) 
!S51(C  6-Port  ) 
!S52(C  6-Port  ) 
!S53(C  6-Port  ) 
!S54(C  6-Port  ) 
!S55(C  6-Port  ) 
!S56(C  6-Port  ) 
!S61(C  6-Port  ) 
!S62(C  6-Port  ) 
!S63(C  6-Port  ) 
!S64(C  6-Port  ) 
!S65(C  6-Port  ) 
!S66(C  6-Port  ) 
!S6P File: Measurement: :
# Hz S  RI   R 50
500000000 -0.33217 -0.054566 -0.010074 -0.0029469 -0.0084082 0.012666 -0.0045728 0.010352
0.01183 0.0056091 -0.0041483 0.006938
-0.009577 -0.0027078 -0.41518 -0.066697 0.0081163 -0.010965 0.001288 0.011105
0.0069476 0.0030343 0.0018421 0.012459
-0.0081561 0.01221 0.0081538 -0.010999 -0.26729 0.19763 0.0065975 0.0029147
-0.0024819 0.0096163 0.00096485 0.010662
-0.0030858 0.010053 0.0015656 0.010781 0.0065852 0.0027979 -0.33229 0.041919
-0.017949 -0.0038998 0.016855 0.023875
0.011277 0.0053321 0.0071892 0.0031421 -0.0025082 0.0094769 -0.017376 -0.0038749
-0.24757 -0.20117 -0.026162 0.005434
-0.0034211 0.0059076 0.00083961 0.01183 -5.1613e-05 0.011367 0.016054 0.024466
-0.025714 0.0061366 -0.27001 -0.13067
560000000 -0.32099 0.11293 -0.022341 -0.063727 -0.00059485 0.012702 0.006563 0.012047
0.012124 0.003985 0.011045 0.0092413
-0.022688 -0.064138 -0.37505 0.096821 -0.041472 -0.038123 0.013988 0.0033882
-0.01255 -0.0022571 0.0035917 -0.0014281
-9.8058e-05 0.013259 -0.041592 -0.038067 -0.18522 0.24922 6.6341e-05 -0.0043046
0.018143 0.0041137 0.0071592 -0.0042039
0.0064839 0.012531 0.013703 0.0035739 -0.00011793 -0.004463 -0.30566 0.13282
0.0058009 -0.024368 0.0053078 -0.020881
0.011011 0.0048386 -0.013243 -0.0022421 0.01891 0.0034304 0.0049561 -0.023831
-0.30985 -0.019565 0.011215 -0.047424
0.010096 0.0090925 0.0049433 -0.0013385 0.0090114 -0.0054326 0.0065867 -0.021253
0.0089305 -0.051305 -0.33574 0.023001
620000000 -0.27802 0.091268 -0.023041 0.0089537 0.0035371 0.0096313 0.0080478 -0.0040502
0.011434 -0.0017984 -0.00095433 -0.00017584
-0.023289 0.0086306 -0.40329 0.046627 -0.018478 0.00043045 -0.0016935 -0.0026389
0.0114 -0.005653 0.0017853 -0.0028171
0.0035612 0.010116 -0.018528 0.00056978 -0.15585 0.25917 -0.00044266 -0.0046277
-0.0042313 -0.0039434 0.0084268 -0.0022378
0.0079736 -0.0032884 -0.0014484 -0.0025399 -0.00066328 -0.0044661 -0.26543 0.14395
-0.038688 -0.020184 0.016262 0.026591
0.012724 -0.0027761 0.011151 -0.0062994 -0.0034471 -0.0043796 -0.038483 -0.019989
-0.23137 -0.051386 -0.045533 0.013535
-2.2443e-05 0.00067864 0.0012954 -0.0039464 0.0088618 -0.0014977 0.013833 0.027531
-0.044073 0.012126 -0.24535 -0.010147
680000000 -0.2402 0.18251 -0.026387 -0.014814 0.0051353 0.0053457 0.0010472 -0.0066852
-0.0027235 -0.011519 0.006707 -0.0064249
-0.026443 -0.014808 -0.39058 0.1478 -0.032428 -0.0021371 -0.0011956 -0.00053567
-0.0011988 -0.0090993 -0.00092472 -0.0019488
0.0050241 0.0051768 -0.032501 -0.0020375 -0.10446 0.27998 -0.00054552 -0.00045725
-0.0017488 0.00035634 -0.0025333 -0.0089211
0.0010041 -0.0075736 -0.0013593 -0.00054606 -0.00048805 -0.00041172 -0.22134 0.19599
-0.023144 -0.0076563 -0.0087894 -0.012088
-0.0029393 -0.011646 -0.0013084 -0.0089183 -0.00176 0.0004116 -0.023175 -0.0077224
-0.27991 0.049847 -0.0061184 -0.0076325
0.0060861 -0.0074908 -0.00087045 -0.0017672 -0.0021914 -0.0093776 -0.0086975 -0.011606
-0.0069351 -0.0081149 -0.26038 0.090117
740000000 -0.19414 0.17565 -0.039979 0.026709 0.01389 -0.0041948 -0.00048285 -0.0048697
-0.0043927 -0.0038315 -0.0086482 0.0032334
-0.040115 0.02657 -0.33667 0.16719 -0.037137 0.034694 -0.00055662 -0.0060175
-0.011689 0.0068336 -0.0022364 -0.0058532
0.013701 -0.0043484 -0.037105 0.034836 -0.070644 0.27749 -0.0017221 0.0033372
-0.0030543 -0.0054141 -0.0013135 0.0011228
-0.00090039 -0.0045167 -0.00068523 -0.0062593 -0.0017358 0.0033643 -0.20464 0.20353
-0.040877 -0.0076907 0.021697 0.014708
-0.0037032 -0.0035098 -0.011517 0.0077095 -0.0032525 -0.0052752 -0.040697 -0.0073494
-0.1821 0.076734 -0.043912 -0.0013484
-0.0075746 0.0037019 -0.0023133 -0.0065984 -0.001661 0.0012077 0.021529 0.015622
-0.041668 0.00072234 -0.24899 0.098072
800000000 -0.16294 0.2197 -0.022733 0.016353 0.0059281 -0.010362 -0.0043336 -0.0019565
-0.0045628 0.0026304 0.0047943 0.0010968
-0.022665 0.016358 -0.34232 0.23748 -0.0087205 0.034144 -0.0020718 0.0022188
-0.0013284 0.0028431 0.00063153 0.0053984
0.0059791 -0.010357 -0.0086142 0.034205 -0.031929 0.3015 0.0010495 0.0014354
-8.1503e-05 0.0036992 -0.0015446 0.0009717
-0.0045386 -0.0018397 -0.0021294 0.0022903 0.001077 0.0014758 -0.17417 0.23098
-0.028658 0.01412 0.014313 -0.0095509
-0.004387 0.002246 -0.0010163 0.0025802 -7.5914e-05 0.0034934 -0.028744 0.014175
-0.22347 0.10574 -0.0178 0.020413
0.0044808 0.0011449 0.00062056 0.0053666 -0.001413 0.0007598 0.014657 -0.010627
-0.018428 0.021503 -0.24201 0.14715
860000000 -0.12853 0.24057 -0.018233 0.030578 -0.0029159 -0.010276 -0.0019931 0.00036413
0.004336 0.0050393 -0.0033842 -0.0029166
-0.018208 0.030518 -0.29362 0.28053 0.0074504 0.034435 -1.9438e-05 0.0021612
0.0034579 -1.9406e-05 0.003021 0.00059563
-0.002962 -0.010297 0.0076372 0.034486 0.015662 0.31014 -0.00086599 -0.00025097
0.0022134 -0.0016874 0.0016138 0.004232
-0.0018674 0.0002114 -4.1064e-05 0.0022244 -0.00090221 -0.00024168 -0.13764 0.24248
-0.018686 0.017902 -0.0062224 -0.0094682
0.0036118 0.0050394 0.0036651 0.000377 0.0021796 -0.001642 -0.018558 0.017844
-0.16646 0.15732 -0.02372 0.017216
-0.003538 -0.0031594 0.0030991 0.00028395 0.001491 0.0041531 -0.0068218 -0.0094662
-0.025003 0.016455 -0.19169 0.19279
920000000 -0.10534 0.26316 0.0044888 0.038229 -0.0094258 -0.0051466 -0.0019629 0.0020113
0.00094007 0.001842 0.0033252 -0.0016035
0.0044743 0.038289 -0.26681 0.30176 0.028164 0.022802 0.0014704 0.0012864
0.0077948 -0.00028917 0.0043908 -0.0030134
-0.0095641 -0.005052 0.028273 0.022716 0.060909 0.31148 0.0019918 2.3595e-05
0.00098821 -0.00013448 0.0011278 -0.0014911
-0.0020307 0.0018204 0.0014002 0.0012527 0.0019595 3.5582e-06 -0.11374 0.25924
-0.0112 0.030887 0.0037544 -0.0069501
0.0010085 0.0018725 0.0074666 -0.00034623 0.00093048 -6.5941e-05 -0.011119 0.030848
-0.1554 0.16417 -0.0014133 0.026777
0.0031066 -0.0020261 0.0042291 -0.002548 0.0009646 -0.0015605 0.0034796 -0.0063876
-0.0022885 0.027465 -0.19785 0.2052
980000000 -0.058296 0.28412 0.016583 0.030496 -0.0095401 0.0043524 0.0019093 0.0034623
0.0040098 -0.001622 -0.0036796 -0.0025598
0.01665 0.030532 -0.21399 0.33718 0.033406 0.005582 0.0019849 -0.00010477
0.0016928 -0.0060673 -0.00070485 -0.0021752
-0.00945 0.0043289 0.033498 0.0054747 0.10671 0.30617 0.00063984 -0.0011754
0.00039622 -0.0020865 0.0013374 -0.00035322
0.0018294 0.0036687 0.0019934 -0.00010741 0.00063647 -0.0011735 -0.075228 0.27014
0.0071911 0.030394 -0.0094376 -0.0076286
0.004103 -0.001746 0.0018486 -0.0059729 0.00052667 -0.0020575 0.0070983 0.030431
-0.12342 0.19476 0.0048871 0.019638
-0.0034204 -0.0021067 -0.00054763 -0.0022988 0.0013738 -0.0002095 -0.0090835 -0.0071833
0.0058959 0.018951 -0.15669 0.24939
1040000000 -0.017293 0.29318 0.032918 0.019291 -0.0015805 0.0071835 0.00261 0.0010215
0.00045953 -0.0033375 3.7635e-05 -0.0012588
0.032846 0.019343 -0.17879 0.35094 0.030252 -0.014418 0.0016302 -0.0018328
-0.0019227 -0.0026093 -0.00094679 -0.0029939
-0.0015805 0.0072023 0.030255 -0.014537 0.15272 0.29328 -0.0004515 -0.0016502
-0.001591 -0.00089619 -0.00058902 -0.0010794
0.0027895 0.00096562 0.0016563 -0.0017703 -0.00042033 -0.0016267 -0.047833 0.28005
0.018829 0.019075 -0.002976 0.001586
3.7925e-05 -0.0033751 -0.0021149 -0.0026726 -0.001636 -0.00097951 0.018908 0.018903
-0.089146 0.20121 0.013605 0.018476
0.00013074 -0.0014239 -0.0010109 -0.0028548 -0.00047986 -0.0010443 -0.002466 0.0011475
0.013556 0.018507 -0.13488 0.2708
1100000000 0.027795 0.30229 0.036539 -0.0033104 0.0028647 0.0041728 0.0025638 -0.0011716
-0.0020028 -0.0031611 -0.0039302 -0.00027811
0.036541 -0.0032442 -0.13591 0.36928 0.016053 -0.028005 8.1092e-05 -0.0019343
-0.0035369 -0.00092672 -0.0033829 -0.00060652
0.0028786 0.0041575 0.015963 -0.028091 0.19877 0.27412 -0.001917 4.2947e-05
-0.0017854 0.00042382 -0.00094251 -0.00042243
0.0025408 -0.0012251 9.9854e-05 -0.0019439 -0.0018973 2.42e-05 -0.00759 0.28523
0.025137 0.0056146 -0.0023264 0.00035132
-0.0020975 -0.0031745 -0.0035133 -0.00090677 -0.0017699 0.0004384 0.025009 0.0056957
-0.068968 0.21448 0.019707 0.0084728
-0.003966 -0.00034759 -0.0032867 -0.0007015 -0.0010203 -0.00053838 -0.002714 -1.5041e-05
0.019795 0.0080597 -0.088621 0.29918
1160000000 0.07861 0.29874 0.024877 -0.020345 0.0028793 -0.0004333 -7.0146e-05 -0.0024192
-0.00431 -0.001074 -0.00074712 0.0039939
0.024892 -0.020396 -0.092446 0.37392 -0.0031726 -0.029754 -0.0015583 -0.0016318
-0.0027458 0.0025278 -0.0015534 0.0019124
0.0028096 -0.00048765 -0.0032855 -0.029793 0.24223 0.24419 -0.00078185 0.0017198
-0.00062762 0.0020453 -0.00095671 0.00033718
-0.00010399 -0.002443 -0.0015401 -0.0016445 -0.00081066 0.0017211 0.031826 0.28253
0.021608 -0.010663 -0.0033272 0.0051312
-0.0039727 -0.00071236 -0.0027126 0.0024948 -0.00063515 0.0020554 0.02169 -0.010639
-0.034277 0.22231 0.018608 -0.0005386
-0.0011018 0.0037076 -0.0015208 0.0021088 -0.000949 0.00030786 -0.0034478 0.0053862
0.018119 -0.00033423 -0.041702 0.30266
1220000000 0.12264 0.28921 0.011436 -0.030351 -0.0015464 -0.0010256 -1.2367e-05 -0.00086333
-0.0027771 0.0020967 0.00088754 0.0020715
0.011463 -0.030244 -0.048312 0.38738 -0.016894 -0.022119 -0.0027109 0.00044185
-4.5534e-05 0.0031128 -0.0010348 0.0019471
-0.001538 -0.0010654 -0.017025 -0.022056 0.28153 0.20568 0.00068379 0.0017455
0.00063838 0.0012049 0.0001552 0.00067193
-8.5799e-06 -0.00084139 -0.002724 0.00044877 0.00070195 0.0017604 0.071879 0.27397
0.010977 -0.017142 0.0021101 0.0013277
-0.0028325 0.002015 6.9677e-05 0.0031152 0.0006814 0.0011818 0.010965 -0.017157
-0.010814 0.23095 0.014156 -0.013067
0.0010192 0.0021312 -0.00096048 0.0019807 0.00022447 0.00065996 0.0021011 0.001365
0.01438 -0.012939 -0.0092266 0.31802
1280000000 0.1731 0.2691 -0.0074977 -0.029108 -0.0021234 0.0024812 -0.00088045 -0.0020642
-0.00088103 0.0030666 0.0023234 0.0013681
-0.0075174 -0.02907 -0.002095 0.37926 -0.024304 -0.0091104 -0.00091262 0.0014219
0.001803 0.0017668 0.00050985 0.0021028
-0.0021194 0.0024969 -0.024384 -0.0090289 0.3123 0.16252 0.0016198 -6.7015e-05
0.0012103 0.00022166 0.00029231 0.00034836
-0.00076807 -0.0020825 -0.00087316 0.0014736 0.0016432 -4.9087e-05 0.10878 0.25811
0.0011566 -0.01958 -0.0002432 0.00021173
-0.00084593 0.003148 0.0017114 0.0017076 0.001168 0.00023452 0.0011235 -0.019659
0.026306 0.23435 0.0029246 -0.01528
0.0024505 0.0014199 0.00065308 0.0020285 0.00033516 0.00036086 -0.00013219 0.00026797
0.0029597 -0.015334 0.036891 0.31999
1340000000 0.21081 0.23626 -0.017632 -0.019515 0.00068943 0.0047351 -0.0017118 -0.00081704
0.0014353 0.0027188 0.0019772 -0.0011949
-0.017535 -0.019538 0.037367 0.37185 -0.02221 0.0040145 -8.6479e-05 0.0019862
0.0020627 0.00083129 0.0011603 0.00082804
0.00073635 0.0047598 -0.022238 0.0041462 0.33452 0.11556 0.0011378 -0.0009277
0.00067277 -0.00046096 0.0002764 0.00028251
-0.0017534 -0.00083192 -9.6057e-05 0.001989 0.0011317 -0.00093364 0.14214 0.23737
-0.0085356 -0.016974 0.00045838 0.00040237
0.0014026 0.0027425 0.0020467 0.00080683 0.00059462 -0.00052007 -0.0085611 -0.017
0.056231 0.22947 -0.0038018 -0.014212
0.0017581 -0.0013135 0.0011927 0.0008219 0.00017394 0.00021138 0.00064101 0.00039974
-0.0037967 -0.014019 0.074245 0.31502
1400000000 0.24476 0.19925 -0.02373 -0.0078936 0.005317 0.0034838 -0.002216 0.00065036
0.0024102 0.00093127 0.00039748 -0.0016103
-0.023728 -0.0078914 0.074993 0.35963 -0.015563 0.012621 0.001381 0.0013395
0.0012225 -0.00081719 0.0012712 1.5878e-05
0.0053089 0.0034539 -0.015499 0.01273 0.34802 0.062512 0.00014197 -0.0016013
8.5278e-05 -0.00049089 0.00026579 0.00010528
-0.0022444 0.00063565 0.0013756 0.001323 0.00013742 -0.0015578 0.17182 0.20844
-0.014616 -0.009987 -0.00083728 -3.3582e-05
0.0024709 0.00090822 0.0012734 -0.00078386 0.00015087 -0.00040267 -0.014695 -0.0099429
0.089158 0.22539 -0.010021 -0.0088037
0.00030564 -0.0015125 0.0011596 0.00010421 0.00025227 0.00028865 -0.00083276 -0.00022929
-0.0099736 -0.0088347 0.11932 0.305
1460000000 0.26839 0.1557 -0.020702 0.0046683 0.0059834 -0.0017108 -0.0016605 0.0017375
0.002065 -0.00042399 -0.00036483 -0.0010885
-0.020671 0.0046146 0.10967 0.33823 -0.0064023 0.015906 0.0016315 0.00012938
0.00089663 -0.0013317 0.0011583 -0.00063461
0.0059008 -0.001713 -0.0063393 0.015957 0.35478 0.0087501 -0.0012212 -0.0013683
0.00014776 -0.00018136 0.00060883 -0.00029724
-0.0016452 0.0017643 0.0016488 0.00014872 -0.0012041 -0.0013888 0.1985 0.17919
-0.015881 -0.0033687 -0.00076913 0.0019837
0.0022141 -0.00052638 0.00081755 -0.0013979 0.00012903 -0.00021808 -0.015919 -0.0032891
0.11887 0.21091 -0.012486 -0.0032238
-0.00036267 -0.0010381 0.0012735 -0.00064684 0.00062722 -0.0002459 -0.00085806 0.0019816
-0.012218 -0.0030014 0.15273 0.28418
1520000000 0.28132 0.11433 -0.015077 0.010275 0.0035134 -0.0043325 6.0572e-05 0.002627
0.0022686 -0.0018498 -0.0012897 -0.00012926
-0.015085 0.010265 0.14346 0.32408 0.0015835 0.013594 0.0016355 -0.00074339
1.2748e-05 -0.0010979 0.00036353 -0.00092586
0.0035279 -0.0043427 0.0016809 0.013611 0.34861 -0.04714 -0.0011427 -0.00038248
0.00063288 -0.00085833 -1.5994e-05 -0.00018411
0.00012597 0.0026636 0.0016361 -0.00075865 -0.0011498 -0.00039445 0.22186 0.14064
-0.01529 0.0027543 0.001629 0.0019646
0.0020731 -0.0017792 -1.1586e-05 -0.0010831 0.00060565 -0.00090625 -0.015253 0.0027793
0.14704 0.19782 -0.012176 0.0018079
-0.001218 -0.00012743 0.00033136 -0.00095619 9.4652e-05 -0.00029401 0.0015563 0.0020694
-0.01207 0.0017137 0.18573 0.26401
1580000000 0.29164 0.068556 -0.0082582 0.013644 -0.0010002 -0.0051186 0.0016434 0.0019848
-9.4041e-05 -0.0021178 -0.00018622 0.00039473
-0.0082774 0.013649 0.17118 0.29973 0.0055047 0.0085711 0.00059736 -0.0015599
-0.00054028 -0.0010453 -8.3457e-05 -0.00084272
-0.0010021 -0.0051242 0.0055668 0.0085478 0.32951 -0.10475 -0.0015629 0.00062921
-0.00029921 -0.0012222 0.00047037 -0.00066521
0.0016131 0.0019633 0.00057866 -0.0015748 -0.0015547 0.00061809 0.23552 0.10113
-0.011761 0.0076966 0.0021122 0.00072334
-3.4473e-05 -0.0021036 -0.00057417 -0.0010587 -0.00029785 -0.0010597 -0.01178 0.007735
0.17151 0.18016 -0.009339 0.0076476
-0.0003569 0.00042162 -4.577e-05 -0.00087881 0.00035609 -0.0006211 0.0021628 0.00074887
-0.0096663 0.0074255 0.21762 0.23656
1640000000 0.29436 0.02723 -0.0013713 0.012487 -0.0028994 -0.0027671 0.0028303 0.001119
-0.00075924 -0.0016205 -0.00043425 0.00056987
-0.0013671 0.01246 0.20116 0.27517 0.0063132 0.0035708 -0.00056062 -0.0017193
-0.00098661 -0.00036737 -0.00052337 -0.0007174
-0.002923 -0.0027137 0.0063546 0.0035366 0.30149 -0.15406 -0.00058028 0.0014936
-0.00094836 -0.00093583 -0.0002164 -0.00042215
0.0027898 0.0010672 -0.00058179 -0.0017426 -0.000611 0.0014728 0.24795 0.052078
-0.0073928 0.0092233 0.0024156 -0.00063126
-0.00070646 -0.0016734 -0.0010105 -0.00039411 -0.00096233 -0.0010201 -0.007427 0.0091995
0.19477 0.15648 -0.0046426 0.0094791
-0.00056161 0.00064059 -0.00057893 -0.00067845 -0.00020333 -0.00038232 0.0025295 -0.00071161
-0.0045906 0.0097578 0.24289 0.20693
1700000000 0.28775 -0.018003 0.0021154 0.0095678 -0.0036714 -5.5645e-05 0.0032213 -0.0012994
-0.0019413 -0.00064557 0.00045803 0.00049829
0.0020926 0.0095514 0.2196 0.24393 0.0041386 0.00039803 -0.0014397 -0.00064003
-0.00076932 6.6083e-05 -0.00096421 -0.00054561
-0.0037301 -3.9669e-05 0.0041488 0.0003632 0.25849 -0.19415 0.00038019 0.0016163
-0.0020438 -2.435e-05 -0.00047998 -0.00079902
0.0031867 -0.0013014 -0.0014249 -0.00060554 0.00038958 0.0016427 0.24456 0.0022026
-0.0044085 0.0096687 0.0015562 -0.0019882
-0.001996 -0.00070909 -0.00075856 4.566e-05 -0.0020774 -0.00010764 -0.004461 0.0097335
0.21245 0.13637 -0.00010053 0.0096824
0.00059599 0.00054741 -0.00093758 -0.00045289 -0.00039255 -0.00074233 0.0015688 -0.0020898
7.4437e-06 0.0096804 0.25972 0.1728
1760000000 0.27642 -0.0666 0.0044636 0.0062039 -0.0023406 0.0010038 0.0011896 -0.003438
-0.0014396 0.0005989 0.00047375 -0.00039657
0.0044322 0.0062292 0.24617 0.20446 0.0017223 -0.0015074 -0.001232 0.00014837
-0.00098257 0.00084132 -0.00065491 0.00046775
-0.0023512 0.00096213 0.0016995 -0.0015275 0.21069 -0.22746 0.0011532 0.00098437
-0.0011615 0.0012993 -0.0011557 -0.00063691
0.0012496 -0.0035243 -0.0012211 0.00011694 0.0011925 0.00095517 0.23567 -0.048923
-0.0011378 0.0088162 3.9569e-05 -0.0024771
-0.0013907 0.00062097 -0.0010059 0.0008894 -0.0011978 0.0014285 -0.0010646 0.0088497
0.22777 0.10211 0.0037231 0.0072888
0.00044599 -0.00059444 -0.00066863 0.00038039 -0.0012984 -0.00063584 -6.2545e-05 -0.0025465
0.0039838 0.0070811 0.27318 0.13557
1820000000 0.25235 -0.10424 0.004545 0.0026041 -0.00032747 0.0024865 -0.0011426 -0.0029631
-0.0012996 0.00099161 -2.2941e-05 -0.00026671
0.0045549 0.0025923 0.25676 0.17436 -0.00051549 -0.00028917 -0.001409 0.00091881
-0.00010038 0.0011485 -0.00057962 0.00051076
-0.00035125 0.0024439 -0.00051335 -0.00029793 0.15982 -0.2433 0.0015677 0.00040763
-0.00027072 0.002323 -0.0015046 0.00039318
-0.0011553 -0.0030134 -0.0014139 0.00095243 0.0015934 0.00042491 0.2056 -0.096446
0.00046228 0.0074707 -0.0018054 -0.0017389
-0.0013222 0.00098512 -8.8346e-05 0.0011661 -0.00024679 0.0023652 0.00055282 0.0074219
0.24516 0.073253 0.0049212 0.0038829
-0.00011212 -0.00021033 -0.00055575 0.00049022 -0.0014188 0.0003685 -0.0018928 -0.001644
0.0045868 0.0036945 0.27584 0.098489
1880000000 0.21765 -0.14488 0.0023813 0.00020928 -0.00061581 0.0022141 -0.0028965 -0.0023682
-0.00024492 0.0018028 4.1184e-05 -0.00053313
0.0023831 0.00025432 0.26164 0.12787 -0.002544 0.0015481 -0.00028135 0.0018234
0.00045502 0.0012697 8.3025e-05 0.0010475
-0.00055115 0.0022309 -0.002542 0.001555 0.10789 -0.25261 0.0019357 -0.00084291
0.00146 0.0020009 -0.00088047 0.0014241
-0.0029803 -0.0022449 -0.00034377 0.0017606 0.0017664 -0.00079146 0.1652 -0.13646
0.0014237 0.0055138 -0.0022631 9.4503e-05
-0.00021897 0.0018672 0.00045601 0.0012816 0.0014566 0.0019592 0.0014558 0.0054325
0.24937 0.042181 0.0054551 0.0013192
-4.9889e-05 -0.00065895 -6.7588e-05 0.00091191 -0.0012289 0.001336 -0.0021309 0.00014929
0.0054342 0.0015822 0.27547 0.064523
1940000000 0.1785 -0.17083 -6.8237e-05 -0.0015025 0.0014525 0.0020485 -0.0037626 0.0005457
0.001377 0.0011918 -0.00061485 -0.00056882
-5.5475e-05 -0.0015329 0.2627 0.095897 -0.001381 0.0040126 0.0010213 0.0015133
0.001811 0.0006376 0.0008412 0.0002646
0.0013714 0.0020165 -0.0013641 0.004043 0.062422 -0.24574 0.00044661 -0.0020046
0.0025101 0.00056162 0.00026336 0.0015675
-0.0037247 0.00060966 0.0010451 0.0015988 0.00053245 -0.0019521 0.11296 -0.16722
0.00087568 0.0040905 -0.00152 0.001477
0.0013546 0.0012095 0.0017572 0.00060571 0.0024119 0.00052575 0.00079637 0.0040508
0.253 0.0043353 0.004129 -0.0022454
-0.00073138 -0.00065603 0.00094031 0.0004591 0.00043197 0.0015852 -0.0015349 0.0015898
0.004333 -0.002179 0.2649 0.028697
2000000000 0.13252 -0.18594 -0.0039234 0.000569 0.002619 0.0016029 -0.0022785 0.0037205
0.0013002 0.00054839 -0.0005859 0.00059684
-0.003874 0.00053921 0.24872 0.060114 -0.00097046 0.0058818 0.0016484 0.00055497
0.0013996 -0.0010152 0.00054716 0.00022748
0.0027148 0.0016148 -0.00097977 0.0058943 0.01916 -0.23186 -0.001157 -0.0013993
0.0022416 -0.0010421 0.0015306 0.0016589
-0.002197 0.0036564 0.0016826 0.0005103 -0.0010592 -0.001397 0.059196 -0.17726
-0.00038944 0.0034095 -0.00031592 0.0023568
0.0014017 0.00048738 0.0013136 -0.0009632 0.0021959 -0.00086897 -0.00037538 0.0035333
0.24856 -0.029192 0.0006112 -0.0033314
