!Keysight Technologies,M9804A,MY58100912,A.14.10.03
!Date: Thursday, April 27, 2023 10:28:33
!Correction: S11(C  6-Port  ) 
!S12(C  6-Port  ) 
!S13(C  6-Port  ) 
!S14(C  6-Port  ) 
!S15(C  6-Port  ) 
!S16(C  6-Port  ) 
!S21(C  6-Port  ) 
!S22(C  6-Port  ) 
!S23(C  6-Port  ) 
!S24(C  6-Port  ) 
!S25(C  6-Port  ) 
!S26(C  6-Port  ) 
!S31(C  6-Port  ) 
!S32(C  6-Port  ) 
!S33(C  6-Port  ) 
!S34(C  6-Port  ) 
!S35(C  6-Port  ) 
!S36(C  6-Port  ) 
!S41(C  6-Port  ) 
!S42(C  6-Port  ) 
!S43(C  6-Port  ) 
!S44(C  6-Port  ) 
!S45(C  6-Port  ) 
!S46(C  6-Port  ) 
!S51(C  6-Port  ) 
!S52(C  6-Port  ) 
!S53(C  6-Port  ) 
!S54(C  6-Port  ) 
!S55(C  6-Port  ) 
!S56(C  6-Port  ) 
!S61(C  6-Port  ) 
!S62(C  6-Port  ) 
!S63(C  6-Port  ) 
!S64(C  6-Port  ) 
!S65(C  6-Port  ) 
!S66(C  6-Port  ) 
!S6P File: Measurement: :
# Hz S  RI   R 50
500000000 -0.33482 -0.054886 -0.012281 -0.0013094 -0.0082086 0.014485 -0.0054581 0.011292
0.014073 0.0054129 -0.0054851 0.0067836
-0.010199 -0.0013395 -0.41651 -0.065365 0.0085232 -0.0099097 0.0014004 0.012502
0.0071202 0.0033278 0.0024847 0.013683
-0.0091993 0.013534 0.0080562 -0.011107 -0.26701 0.19956 0.0069194 0.0033595
-0.0022336 0.0087915 0.00082641 0.011375
-0.0020051 0.011856 0.0011941 0.012846 0.0078541 0.0032084 -0.33217 0.043758
-0.01948 -0.004933 0.01667 0.026478
0.013441 0.0061335 0.0069007 0.0029557 -0.0012715 0.0091414 -0.020056 -0.0049829
-0.24493 -0.19683 -0.026729 0.004977
-0.0022592 0.0069122 0.0010991 0.014618 0.0026508 0.012315 0.01546 0.026313
-0.027493 0.0047143 -0.27141 -0.12115
560000000 -0.31891 0.11209 -0.022326 -0.067327 0.0009326 0.012824 0.0050072 0.0095945
0.011843 0.004699 0.0087291 0.0083131
-0.023891 -0.065503 -0.37677 0.09649 -0.042085 -0.037515 0.013092 0.0035091
-0.012165 -0.004884 0.004566 -0.00073455
0.00059917 0.012175 -0.040628 -0.038917 -0.18638 0.24905 0.00023529 -0.0056611
0.018123 0.0060312 0.0081933 -0.0063145
0.0049574 0.010399 0.014318 0.0034653 0.00097169 -0.0053301 -0.30762 0.13509
0.0064331 -0.024265 0.0042371 -0.020853
0.0092276 0.0049898 -0.014513 -0.0051902 0.018567 0.0060964 0.005776 -0.024622
-0.31232 -0.017777 0.010132 -0.051334
0.009802 0.0081046 0.0059719 -0.0020806 0.0063194 -0.007864 0.0053628 -0.021052
0.010666 -0.05106 -0.33199 0.022265
620000000 -0.27652 0.092397 -0.022581 0.0080091 0.0040723 0.0091137 0.0083146 -0.0042877
0.012427 -0.0022057 0.0011785 -0.0015334
-0.022765 0.0083118 -0.4033 0.047414 -0.018701 0.00072288 -0.0014971 -0.0015212
0.012142 -0.0063699 0.0011292 -0.0034249
0.004941 0.009246 -0.018338 0.00091064 -0.15558 0.25961 -0.00070536 -0.0048767
-0.0029127 -0.0035091 0.0089552 -0.0020727
0.0093922 -0.0043227 -0.00115 -0.0019698 -0.00054864 -0.0046497 -0.26556 0.14294
-0.037107 -0.020885 0.011994 0.028045
0.012453 -0.0028908 0.012091 -0.0061107 -0.004388 -0.0037569 -0.039354 -0.01793
-0.23349 -0.051255 -0.037797 0.010753
0.00087264 -0.0029552 0.0011013 -0.0034041 0.0090684 -0.0026248 0.013814 0.025635
-0.037935 0.010799 -0.25306 -0.0085924
680000000 -0.23887 0.18285 -0.026332 -0.01456 0.0048225 0.0058882 0.0014381 -0.0072332
-0.0031894 -0.011909 0.0050586 -0.0067747
-0.026186 -0.014446 -0.39017 0.14902 -0.032388 -0.0018154 -0.0020336 -0.00055615
-0.0016896 -0.0095607 -0.0008079 -0.0015689
0.0051261 0.0055608 -0.03259 -0.0019079 -0.10458 0.28024 -0.0011682 -0.00014067
-0.0016108 -0.00015217 -0.0030349 -0.0089939
0.00056879 -0.0081416 -0.0014515 -0.00069885 -0.001134 -0.0011057 -0.22063 0.19684
-0.022608 -0.0076937 -0.0092248 -0.011544
-0.0026321 -0.012021 -0.0017989 -0.0093686 -0.0017666 0.0010355 -0.023451 -0.0084373
-0.28057 0.051622 -0.0079262 -0.0060837
0.0043461 -0.0063721 -0.00094414 -0.0021003 -0.0025406 -0.0087938 -0.009593 -0.011745
-0.0082787 -0.0063791 -0.25924 0.095298
740000000 -0.19415 0.17647 -0.039988 0.026547 0.014005 -0.0046959 -0.00036865 -0.0039519
-0.0043881 -0.0037184 -0.0062937 0.0029727
-0.039627 0.026161 -0.33629 0.1671 -0.036903 0.034474 -0.00014197 -0.0064672
-0.012128 0.0075927 -0.0018952 -0.0056914
0.013947 -0.0047679 -0.03639 0.034895 -0.070048 0.27742 -0.0015579 0.003386
-0.0028242 -0.005513 -0.0016852 0.00087003
0.00028346 -0.0035987 -0.00058674 -0.0066341 -0.0019847 0.0037095 -0.20364 0.20374
-0.042275 -0.0082665 0.022183 0.015407
-0.0041251 -0.0027664 -0.012204 0.0077971 -0.00049374 -0.0064293 -0.042899 -0.0076339
-0.18156 0.078718 -0.041857 -0.000156
-0.0058016 0.0030414 -0.0010573 -0.0063197 -0.0017866 0.001552 0.023822 0.014346
-0.041991 -0.00026054 -0.24975 0.10053
800000000 -0.16227 0.22106 -0.022768 0.016439 0.0059705 -0.010714 -0.0046267 -0.0016178
-0.0043401 0.0022222 0.0055633 0.0014465
-0.022677 0.016294 -0.34204 0.23829 -0.0085057 0.034434 -0.0023207 0.0023134
-0.0010234 0.0029061 0.0013892 0.0055122
0.005878 -0.010219 -0.0086445 0.034339 -0.031693 0.30169 0.00088605 0.0016185
0.00023924 0.0037524 -0.0014081 0.00088282
-0.0048235 -0.002264 -0.0022347 0.0020719 0.0010692 0.0011512 -0.17492 0.23189
-0.028082 0.01313 0.014092 -0.010018
-0.0052209 0.002003 -0.0013081 0.0028439 -0.00017676 0.0039775 -0.02835 0.013205
-0.22284 0.10877 -0.016167 0.019907
0.0035527 0.001648 0.00090993 0.0051506 -0.0010248 0.00076305 0.013438 -0.0096954
-0.01616 0.019814 -0.24067 0.14926
860000000 -0.12866 0.23996 -0.017963 0.030438 -0.0029291 -0.010449 -0.00167 0.0008074
0.0042726 0.0051375 -0.0040167 -0.0028022
-0.017883 0.030494 -0.29354 0.28116 0.0074957 0.034675 8.0178e-05 0.0021252
0.0036794 0.00039294 0.0034312 0.00090331
-0.0027067 -0.010551 0.0076375 0.034763 0.015619 0.31036 -0.00062474 -9.8429e-05
0.0023841 -0.0016055 0.0016591 0.004197
-0.0018189 0.0010839 -1.5477e-05 0.0022018 -0.00090659 2.5921e-05 -0.13773 0.24265
-0.018684 0.018283 -0.0061861 -0.0090315
0.0035232 0.0054607 0.003533 0.00076686 0.0022055 -0.0018139 -0.018049 0.018025
-0.1655 0.15983 -0.025388 0.016843
-0.002861 -0.0028319 0.0033526 0.00070251 0.0012938 0.0040781 -0.0064078 -0.0091974
-0.025379 0.016742 -0.19044 0.19358
920000000 -0.10398 0.26361 0.0049234 0.038468 -0.0093236 -0.0051787 -0.001913 0.0015702
0.0012674 0.0018094 0.0032816 -0.0013778
0.0042414 0.038355 -0.26636 0.30219 0.028141 0.023202 0.001433 0.001219
0.0074109 -0.00037074 0.0040872 -0.0029603
-0.0093528 -0.0050764 0.028458 0.02284 0.061007 0.31199 0.001924 -8.7628e-05
0.0011545 -0.00024556 0.00091148 -0.0013768
-0.0017591 0.0017489 0.0017248 0.0013412 0.0019092 -2.887e-05 -0.1137 0.25889
-0.011509 0.030643 0.0037451 -0.0072074
0.0011752 0.0017526 0.007848 -0.00044146 0.0012098 -0.00011401 -0.011329 0.030782
-0.15543 0.16464 -0.0021912 0.027125
0.0026947 -0.0016084 0.0046188 -0.0031339 0.00089296 -0.0015229 0.00396 -0.0070186
-0.0021435 0.026994 -0.19735 0.20758
980000000 -0.058315 0.28362 0.016815 0.030235 -0.0095603 0.0041766 0.0017579 0.0035769
0.0038561 -0.0018473 -0.0026517 -0.001998
0.016846 0.030275 -0.21366 0.33765 0.033607 0.0053429 0.0020493 -0.00029709
0.0017216 -0.0059417 0.00023064 -0.0023462
-0.009692 0.0041782 0.033539 0.0054171 0.10695 0.30638 0.00065709 -0.0012071
0.00051117 -0.0020308 0.00163 -0.00023261
0.0017282 0.0035058 0.002017 -0.00038779 0.00070663 -0.0010979 -0.075481 0.27096
0.0073216 0.030429 -0.0091153 -0.007056
0.0040702 -0.0015234 0.0016169 -0.0058836 0.00072833 -0.0020844 0.0072622 0.030837
-0.12122 0.19568 0.0061688 0.019419
-0.0029867 -0.0024216 -0.00018467 -0.0027757 0.0014378 -0.00019829 -0.0089226 -0.0069605
0.0062307 0.019167 -0.15531 0.25077
1040000000 -0.01649 0.29333 0.033015 0.019248 -0.0017005 0.0071454 0.002846 0.00082819
0.0005718 -0.003547 -0.00048585 -0.0015737
0.032877 0.019398 -0.17874 0.35127 0.030306 -0.014579 0.0016842 -0.0017331
-0.0021867 -0.0026971 -0.00098089 -0.0029318
-0.001596 0.0071299 0.030257 -0.014744 0.153 0.29369 -0.00044357 -0.001629
-0.0015694 -0.00094391 -0.00066601 -0.0012688
0.0029538 0.0007749 0.0017926 -0.0017446 -0.00046641 -0.0016345 -0.047559 0.28033
0.019785 0.019258 -0.00282 0.0012445
0.00057763 -0.0035995 -0.0021857 -0.0026024 -0.0018276 -0.0010121 0.01977 0.019033
-0.088186 0.20176 0.013657 0.018473
-0.00044281 -0.0017347 -0.0010708 -0.0028642 -0.00043627 -0.0010865 -0.0025534 0.0013303
0.013781 0.018417 -0.13288 0.27208
1100000000 0.027969 0.30262 0.036726 -0.0032845 0.0027584 0.0043261 0.0023582 -0.0011605
-0.0020444 -0.003333 -0.0041632 -0.00010917
0.036566 -0.0033324 -0.13561 0.3698 0.016053 -0.028206 -3.5917e-05 -0.0019437
-0.0035527 -0.0011672 -0.0038674 -0.0006039
0.0027892 0.0042986 0.015993 -0.028267 0.19935 0.27446 -0.0019641 8.886e-05
-0.0017333 0.00051276 -0.0012068 -0.0005348
0.0023563 -0.0012154 -5.1804e-05 -0.0019447 -0.0019932 0.00013552 -0.0073428 0.28536
0.02566 0.0055025 -0.0025421 0.0001876
-0.0022462 -0.003267 -0.0034947 -0.0010053 -0.0018113 0.00050559 0.025812 0.0055091
-0.067288 0.21466 0.019671 0.0082604
-0.0041549 -2.1086e-06 -0.0037621 -0.00044196 -0.0011854 -0.00066958 -0.0026723 6.8874e-05
0.01966 0.00832 -0.08728 0.30044
1160000000 0.079261 0.29907 0.024783 -0.020575 0.0028593 -0.00045118 -0.00021881 -0.0023851
-0.0041127 -0.00098825 -0.00084356 0.0041568
0.024826 -0.020599 -0.092112 0.37465 -0.0033543 -0.029913 -0.001735 -0.0017175
-0.0028776 0.0025405 -0.0014931 0.0020206
0.0028818 -0.0004794 -0.0034281 -0.029956 0.24297 0.24427 -0.00081686 0.0017853
-0.00065604 0.0019301 -0.0010138 0.00024566
-0.00022082 -0.0022737 -0.0016111 -0.001613 -0.00084262 0.0018208 0.032005 0.28275
0.021922 -0.010868 -0.0033072 0.0051343
-0.003949 -0.00088064 -0.0028496 0.0025518 -0.00079163 0.0019891 0.02176 -0.010799
-0.033323 0.22259 0.018983 -0.00060833
-0.0008881 0.0040998 -0.0013518 0.0018731 -0.001018 0.00036569 -0.0031179 0.0050371
0.018935 -0.00072011 -0.039685 0.30361
1220000000 0.12321 0.28941 0.011249 -0.030504 -0.0015242 -0.00088155 8.3574e-05 -0.00085589
-0.002706 0.0021555 0.0010617 0.0020985
0.011264 -0.030424 -0.047817 0.38786 -0.01712 -0.022136 -0.0026593 0.00052633
-6.7484e-05 0.0032349 -0.00082947 0.0021247
-0.0015353 -0.00091774 -0.017307 -0.022083 0.28202 0.20548 0.00073965 0.0018127
0.00065634 0.001288 0.00016155 0.00055519
-1.8015e-05 -0.00090079 -0.0027013 0.00044243 0.00073643 0.0018128 0.072225 0.27433
0.011108 -0.017757 0.0019934 0.0014017
-0.0027203 0.002257 1.3641e-05 0.0032179 0.00066232 0.0012686 0.01099 -0.017883
-0.009943 0.23125 0.013934 -0.013409
0.0011106 0.0021553 -0.00081912 0.0021237 0.00022999 0.00059389 0.0018062 0.0016293
0.013933 -0.013392 -0.0073472 0.31862
1280000000 0.17398 0.26913 -0.0077547 -0.02924 -0.0020577 0.002446 -0.00082161 -0.0021083
-0.00079637 0.0032159 0.0026119 0.0013927
-0.0077661 -0.029236 -0.0014683 0.37968 -0.024593 -0.009051 -0.00098161 0.0015443
0.0018171 0.0017887 0.00066821 0.002015
-0.0019997 0.0024824 -0.024611 -0.008925 0.3127 0.16213 0.001656 1.4916e-05
0.0013196 0.00027369 0.00038042 0.0004943
-0.00087564 -0.0020176 -0.00098273 0.0015296 0.0016602 -2.7177e-06 0.10935 0.2579
0.00092459 -0.020201 -0.00021798 0.00030707
-0.00078385 0.0033561 0.0018462 0.0017975 0.0011911 0.00027596 0.00099626 -0.02026
0.027325 0.23464 0.0026146 -0.016187
0.0026495 0.0012722 0.00052438 0.0020221 0.00032822 0.00045071 -0.00026657 0.00022451
0.0026291 -0.016176 0.038452 0.32106
1340000000 0.21147 0.2362 -0.017856 -0.019462 0.00067886 0.0047933 -0.0018201 -0.00088567
0.0014332 0.0026945 0.0018657 -0.0014746
-0.017843 -0.019435 0.038291 0.37195 -0.022313 0.0042585 -7.7855e-05 0.0020079
0.002085 0.0008304 0.0012478 0.00070428
0.00076753 0.0047524 -0.022287 0.0043792 0.3348 0.11487 0.0011572 -0.0010105
0.00067258 -0.00059752 0.00018629 0.00012532
-0.0017406 -0.00089328 -8.8352e-05 0.0020401 0.0011224 -0.00094203 0.14261 0.23701
-0.0089458 -0.017324 0.00074934 0.00067304
0.001496 0.0026519 0.0020908 0.00078493 0.00079361 -0.00066158 -0.0089344 -0.017332
0.057122 0.23019 -0.0040187 -0.014313
0.0017791 -0.0013501 0.0012841 0.00090431 0.00018625 0.00015241 0.00079304 0.00065112
-0.0040464 -0.01428 0.077226 0.31473
1400000000 0.2456 0.19897 -0.02392 -0.0076636 0.0052998 0.0034545 -0.002268 0.00059096
0.0025431 0.00096226 0.00028259 -0.0015943
-0.023875 -0.0076195 0.075922 0.3594 -0.015437 0.012886 0.0014055 0.0012985
0.001335 -0.00082459 0.0012795 5.6243e-05
0.005343 0.0034775 -0.015358 0.01296 0.34797 0.061965 0.00012573 -0.0016797
0.00010496 -0.00040329 0.00029203 0.00017716
-0.002193 0.00064537 0.001426 0.0012916 0.00021405 -0.0016741 0.17186 0.20801
-0.01534 -0.010073 -0.00093451 -0.00026236
0.0025496 0.0010413 0.001316 -0.00085557 2.1294e-05 -0.00053897 -0.015381 -0.010062
0.090467 0.22548 -0.010812 -0.0090877
0.00031205 -0.0016465 0.001246 6.2215e-05 0.00024236 0.00030052 -0.00095125 -0.00022147
-0.010898 -0.0090262 0.12152 0.30431
1460000000 0.26896 0.15508 -0.020782 0.004927 0.0060393 -0.0016507 -0.0015268 0.0017412
0.0022783 -0.00052951 -0.00029536 -0.00097355
-0.020767 0.0049364 0.11049 0.33766 -0.0062189 0.016001 0.0017245 0.00015557
0.0008524 -0.0013447 0.0012 -0.00056535
0.00594 -0.0017412 -0.0061854 0.016075 0.35464 0.0085021 -0.0012741 -0.0013624
0.00010719 -0.00031072 0.00071403 -0.00028445
-0.0014967 0.0017687 0.0016847 0.00012879 -0.0013932 -0.0013812 0.19858 0.17871
-0.016647 -0.0029635 -0.00079362 0.0023248
0.0022847 -0.00052341 0.00080772 -0.0014196 0.00021821 -0.0002447 -0.016605 -0.0028478
0.12019 0.21127 -0.012726 -0.0027886
-0.00025041 -0.0010731 0.0012048 -0.00050999 0.00061533 -0.00063475 -0.00074627 0.0022784
-0.012724 -0.0028768 0.15453 0.28333
1520000000 0.2816 0.11373 -0.014956 0.010571 0.0036632 -0.0044097 6.8844e-05 0.0025419
0.0021348 -0.0021002 -0.001343 -0.00013782
-0.014992 0.010522 0.14396 0.32338 0.0018329 0.01364 0.0016638 -0.00081528
5.2577e-05 -0.0010835 0.00036092 -0.0011514
0.003626 -0.0044968 0.0019022 0.013675 0.34836 -0.047017 -0.0010761 -0.00032999
0.00063541 -0.00085192 0.00015307 -0.0003056
3.8941e-05 0.0025861 0.0016369 -0.00078042 -0.0011124 -0.00031847 0.22165 0.14025
-0.015528 0.0034458 0.0015927 0.002203
0.0020477 -0.0020224 -1.2649e-05 -0.0011387 0.00048519 -0.00092774 -0.015468 0.00352
0.14832 0.19788 -0.012245 0.0021088
-0.001292 -0.0001039 0.00027283 -0.0010018 4.5873e-05 1.2131e-05 0.0016787 0.0021861
-0.012265 0.0021333 0.18707 0.26296
1580000000 0.29164 0.067749 -0.0080325 0.013881 -0.00093306 -0.0052327 0.0014354 0.0019674
-0.00025867 -0.002259 -0.00028702 0.00036648
-0.0080289 0.013847 0.17134 0.29895 0.0056559 0.008399 0.00052751 -0.0015936
-0.00055157 -0.00098311 -0.00023559 -0.00079758
-0.00094085 -0.0052186 0.0057224 0.0083722 0.32941 -0.10453 -0.0016531 0.0006278
-0.00039678 -0.0012517 0.00019531 -0.00051829
0.0016016 0.0020128 0.00051483 -0.0016541 -0.0016207 0.00062358 0.23534 0.10084
-0.011593 0.0084066 0.0023695 0.00064631
-0.00019452 -0.002242 -0.00054161 -0.0010794 -0.00038911 -0.0011116 -0.011623 0.0084414
0.17283 0.17997 -0.0095614 0.0079793
-0.00027458 0.00032596 -0.00028892 -0.00081592 0.00040931 -0.00069082 0.0024381 0.00078618
-0.0096183 0.0079865 0.21914 0.23626
1640000000 0.29418 0.026743 -0.0010787 0.01248 -0.0030366 -0.0027093 0.0027624 0.0011741
-0.00093627 -0.0015529 -0.00033715 0.00069858
-0.0011193 0.012489 0.20101 0.27451 0.0062763 0.0033537 -0.00064526 -0.0018242
-0.0010504 -0.000427 -0.00057351 -0.00064614
-0.003029 -0.0027322 0.0063085 0.0033178 0.30133 -0.15386 -0.00058835 0.0014566
-0.0010596 -0.00097561 -0.00015938 -0.00023395
0.0026917 0.00097367 -0.00066405 -0.0017962 -0.00062909 0.001512 0.24751 0.052017
-0.0068738 0.0096473 0.0025234 -0.00077095
-0.00089505 -0.0016349 -0.001045 -0.00038197 -0.0010198 -0.00094726 -0.0068155 0.0096704
0.19621 0.15607 -0.0044839 0.0099467
-0.00050792 0.00066961 -0.00052504 -0.00067833 -0.00020709 -0.00019804 0.0025212 -0.0008289
-0.0044618 0.0099663 0.24448 0.20568
1700000000 0.28762 -0.018383 0.0023971 0.0094419 -0.0037832 -2.2081e-05 0.0032058 -0.0012667
-0.0020434 -0.00059853 0.00062134 0.00041416
0.0023873 0.0094269 0.21932 0.24346 0.004184 0.00023208 -0.0015544 -0.00056383
-0.0007859 2.4357e-05 -0.00089926 -0.00040215
-0.0037576 4.5049e-06 0.0041874 0.00028248 0.25871 -0.1937 0.00040038 0.0016647
-0.0020074 -0.00011243 -0.00038909 -0.00081944
0.0030422 -0.0012642 -0.001553 -0.00054735 0.00040706 0.0017068 0.24421 0.0026935
-0.0038997 0.0098396 0.0016794 -0.0021915
-0.0021283 -0.00058943 -0.0007973 6.6767e-05 -0.0019366 6.7597e-06 -0.0039527 0.0099264
0.21361 0.13555 0.00029935 0.010185
0.00063856 0.0005101 -0.0010217 -0.00044982 -0.00030515 -0.00094309 0.0016322 -0.0023061
0.00029053 0.010153 0.26082 0.17159
1760000000 0.27613 -0.066755 0.0045151 0.0059754 -0.0024687 0.0010066 0.0012142 -0.0034544
-0.0014437 0.00072014 0.00035173 -0.00039519
0.0045588 0.0059438 0.24577 0.20415 0.0016441 -0.0016199 -0.0013073 0.00023941
-0.0011343 0.00090462 -0.00069351 0.00038829
-0.002456 0.0010012 0.0016244 -0.0016571 0.21102 -0.22748 0.0010294 0.0010934
-0.0013728 0.0014522 -0.001325 -0.00071079
0.0013168 -0.00342 -0.0012323 0.00022195 0.0011309 0.0010633 0.2355 -0.048842
-0.00047639 0.0086622 -0.00011017 -0.002756
-0.0013931 0.00076345 -0.0011 0.00087162 -0.0013214 0.0014493 -0.00043961 0.0086013
0.22885 0.10113 0.0044658 0.0073045
0.00048099 -0.00046565 -0.00055385 0.00041353 -0.0013495 -0.0005871 -0.00028048 -0.0026332
0.0044871 0.0072808 0.27358 0.13414
1820000000 0.25209 -0.10419 0.0045635 0.0023596 -0.00033662 0.0025719 -0.00099551 -0.0031496
-0.0010975 0.001067 5.0241e-05 -0.00014977
0.0045507 0.0023723 0.25638 0.1743 -0.00073054 -0.00037264 -0.0012589 0.00098381
-5.553e-05 0.0012808 -0.0005439 0.00058164
-0.00025487 0.0025951 -0.00081244 -0.00032321 0.15967 -0.24373 0.0017813 0.00056228
-0.00017301 0.0024431 -0.0015155 0.00034551
-0.0010558 -0.0031548 -0.0012507 0.0010157 0.0017023 0.00045515 0.20556 -0.096142
0.00081053 0.0070289 -0.0016343 -0.0017382
-0.0010478 0.0010386 -1.2412e-05 0.0012965 -0.00011488 0.0023438 0.00091473 0.0069914
0.24616 0.072229 0.0053523 0.0037015
-6.6189e-05 -0.00014715 -0.00056223 0.0005552 -0.0014813 0.00027021 -0.0014597 -0.0017825
0.0053685 0.0037162 0.27644 0.097607
1880000000 0.21759 -0.14479 0.0022464 8.8039e-05 -0.00047057 0.0022563 -0.0028945 -0.0023367
-8.5993e-05 0.0017915 3.6253e-05 -0.00070778
0.0022709 5.5571e-05 0.26143 0.12799 -0.0026293 0.0016473 -0.00017674 0.0017981
0.00055369 0.0013703 7.0934e-05 0.00092113
-0.00044428 0.002246 -0.0025637 0.0016409 0.10807 -0.25282 0.0017664 -0.00093086
0.0015196 0.0019976 -0.0011508 0.0014192
-0.0029481 -0.0022703 -0.00020926 0.0018061 0.0018576 -0.00098105 0.16548 -0.13607
0.00154 0.004924 -0.0026116 0.00011927
-0.00021153 0.0018501 0.00048803 0.0013756 0.0016073 0.0019478 0.0014988 0.0049085
0.25018 0.04085 0.0055564 0.00094385
0.00023945 -0.00067811 0.00011688 0.00099591 -0.0010488 0.0013626 -0.0026862 -8.6684e-05
0.0055477 0.00095887 0.27629 0.063603
1940000000 0.17886 -0.17052 -0.00023707 -0.0014578 0.0015215 0.0021382 -0.0037042 0.00042212
0.0013353 0.0010192 -0.00071781 -0.00058299
-0.00018483 -0.0014528 0.26257 0.096051 -0.0013482 0.0040168 0.0010401 0.0013144
0.0018919 0.0005642 0.00089312 0.00041367
0.0014096 0.0021049 -0.0013838 0.0041741 0.062946 -0.24596 0.00034467 -0.002315
0.0023772 0.00030469 0.00038397 0.0016592
-0.0037012 0.00035031 0.0011731 0.0012849 0.0004021 -0.0022523 0.11322 -0.16708
0.00056615 0.0035967 -0.0015007 0.0015132
0.0014585 0.0010834 0.0019742 0.00052778 0.0025425 0.00027656 0.00053861 0.003612
0.25314 0.0025556 0.0039574 -0.0023048
-0.00063454 -0.00067467 0.0010065 0.00032097 0.00025856 0.0016286 -0.0017468 0.0016184
0.0039114 -0.0023253 0.26582 0.027594
2000000000 0.13267 -0.18595 -0.0040075 0.00074034 0.002647 0.0015614 -0.0022379 0.003691
0.0013999 0.00028152 -0.00053262 0.00065489
-0.0039852 0.00071897 0.24876 0.060243 -0.00090223 0.005946 0.0016576 0.00047108
0.0014475 -0.0010807 0.0005302 0.0001652
0.0026869 0.001436 -0.0010369 0.0058173 0.01925 -0.23239 -0.0012673 -0.0013905
0.0020809 -0.0012573 0.0015539 0.0013944
-0.0023062 0.0037385 0.001625 0.00031287 -0.0010514 -0.0013488 0.060033 -0.17738
-0.00063961 0.0035839 -6.6737e-05 0.0024059
0.0012746 0.00032758 0.0014441 -0.0011156 0.0021101 -0.0011137 -0.000618 0.0035817
0.24827 -0.030364 0.00055042 -0.0031847
