!Keysight Technologies,M9804A,MY58100912,A.14.10.03
!Date: Thursday, April 27, 2023 10:28:33
!Correction: S11(C  6-Port  ) 
!S12(C  6-Port  ) 
!S13(C  6-Port  ) 
!S14(C  6-Port  ) 
!S15(C  6-Port  ) 
!S16(C  6-Port  ) 
!S21(C  6-Port  ) 
!S22(C  6-Port  ) 
!S23(C  6-Port  ) 
!S24(C  6-Port  ) 
!S25(C  6-Port  ) 
!S26(C  6-Port  ) 
!S31(C  6-Port  ) 
!S32(C  6-Port  ) 
!S33(C  6-Port  ) 
!S34(C  6-Port  ) 
!S35(C  6-Port  ) 
!S36(C  6-Port  ) 
!S41(C  6-Port  ) 
!S42(C  6-Port  ) 
!S43(C  6-Port  ) 
!S44(C  6-Port  ) 
!S45(C  6-Port  ) 
!S46(C  6-Port  ) 
!S51(C  6-Port  ) 
!S52(C  6-Port  ) 
!S53(C  6-Port  ) 
!S54(C  6-Port  ) 
!S55(C  6-Port  ) 
!S56(C  6-Port  ) 
!S61(C  6-Port  ) 
!S62(C  6-Port  ) 
!S63(C  6-Port  ) 
!S64(C  6-Port  ) 
!S65(C  6-Port  ) 
!S66(C  6-Port  ) 
!S6P File: Measurement: :
# Hz S  RI   R 50
500000000 -0.33374 -0.054307 -0.01007 -0.0011204 -0.0086501 0.013571 -0.0045401 0.011654
0.013509 0.0053977 -0.0038158 0.0080366
-0.010175 -0.00097268 -0.41585 -0.064644 0.0079911 -0.010722 0.0017846 0.011423
0.0080491 0.0041355 0.0019366 0.013583
-0.008721 0.013506 0.0079132 -0.010821 -0.26765 0.1988 0.0063762 0.0035165
-0.0012095 0.0084634 0.00030252 0.012354
-0.0038671 0.011867 0.001641 0.011401 0.0066012 0.0036273 -0.33093 0.041611
-0.019216 -0.004194 0.016734 0.02509
0.012955 0.0056719 0.0082658 0.0038757 -0.0014628 0.0084775 -0.019264 -0.0040322
-0.24711 -0.1982 -0.028149 0.0050382
-0.0036863 0.0079657 0.001814 0.013772 0.00018569 0.012393 0.01843 0.024323
-0.028204 0.0057291 -0.26987 -0.12496
560000000 -0.31998 0.11176 -0.023118 -0.063633 0.00024066 0.012742 0.0050775 0.010925
0.010844 0.0049549 0.0096036 0.0088621
-0.023459 -0.064213 -0.37466 0.099674 -0.041987 -0.03761 0.013339 0.00305
-0.012577 -0.0033636 0.0039308 -0.00011103
-2.5822e-05 0.012798 -0.042428 -0.037698 -0.18593 0.25011 -0.00025175 -0.0046118
0.018726 0.0044945 0.0071616 -0.0057346
0.0052743 0.011194 0.013699 0.0032476 -0.00025163 -0.0043268 -0.30615 0.13397
0.0045812 -0.022944 0.0062076 -0.022395
0.011073 0.0050587 -0.013424 -0.0034788 0.018853 0.0043924 0.0047771 -0.023151
-0.30928 -0.021063 0.0081231 -0.048844
0.0099852 0.0087644 0.0039418 8.3307e-05 0.0073521 -0.0059142 0.0057905 -0.022403
0.0083493 -0.048279 -0.33112 0.023317
620000000 -0.27743 0.092227 -0.023181 0.0087416 0.0039972 0.0092624 0.0081707 -0.0046933
0.013385 -0.0017166 0.00049923 -0.0027724
-0.023247 0.0086672 -0.40336 0.047987 -0.018413 0.00099949 -0.001552 -0.002036
0.012702 -0.0066607 0.0013127 -0.0024564
0.0041502 0.0092152 -0.018356 0.00096705 -0.15552 0.25998 -0.00077803 -0.0051452
-0.0031503 -0.0032775 0.0095897 -0.0028291
0.0079232 -0.0042036 -0.0014916 -0.0017368 -0.00069535 -0.0052413 -0.266 0.145
-0.039658 -0.018204 0.013227 0.026538
0.013438 -0.0022852 0.012368 -0.0068859 -0.0031023 -0.0031257 -0.039402 -0.018312
-0.22976 -0.052297 -0.042407 0.014926
0.00039918 -0.0024504 0.0011997 -0.0024477 0.0095785 -0.0026922 0.01285 0.027464
-0.042606 0.013746 -0.24816 -0.0099183
680000000 -0.23965 0.18386 -0.026427 -0.014081 0.005256 0.005472 0.0011192 -0.0074104
-0.002374 -0.011762 0.0057448 -0.0068789
-0.026543 -0.014138 -0.38998 0.1494 -0.032366 -0.0020958 -0.0014226 -0.00061941
-0.0018133 -0.0093784 -0.00099246 -0.0017626
0.0051187 0.00553 -0.032485 -0.0019322 -0.10383 0.28014 -0.00059598 -0.00030943
-0.0018193 0.00041733 -0.0023109 -0.0090402
0.0011098 -0.0075142 -0.0014458 -0.00055707 -0.00065534 -0.00043653 -0.22091 0.19726
-0.023256 -0.0082638 -0.0085831 -0.011505
-0.002852 -0.011924 -0.0020051 -0.009757 -0.0016987 0.00044422 -0.023191 -0.0082174
-0.28055 0.052367 -0.0075614 -0.0070855
0.0058952 -0.0065093 -0.00092309 -0.0015037 -0.0022324 -0.0090389 -0.0095646 -0.011839
-0.0069838 -0.0070204 -0.26069 0.094666
740000000 -0.1935 0.17706 -0.039634 0.027079 0.01386 -0.0047119 -0.00092412 -0.0041855
-0.00477 -0.0024656 -0.0070238 0.0029905
-0.039601 0.026988 -0.33518 0.16779 -0.037143 0.035365 0.00015365 -0.0061036
-0.013119 0.0072791 -0.00062952 -0.0058239
0.013808 -0.0047211 -0.03737 0.035506 -0.070514 0.27755 -0.0020387 0.0037698
-0.002879 -0.0062778 -0.0018211 0.0017181
-0.00068196 -0.0040269 0.00018146 -0.0058696 -0.0019766 0.0037632 -0.20451 0.20353
-0.042721 -0.0061614 0.021939 0.014892
-0.0044841 -0.0030673 -0.013181 0.0071505 -0.0027895 -0.0060813 -0.042803 -0.0062393
-0.17874 0.075848 -0.041613 0.00097238
-0.0067414 0.0030981 -0.00051106 -0.0052612 -0.001682 0.0018914 0.022261 0.014967
-0.042514 0.0020622 -0.24951 0.10057
800000000 -0.16185 0.22056 -0.022272 0.016512 0.0061468 -0.010721 -0.0042772 -0.0019202
-0.0044009 0.0021616 0.0043377 0.00034876
-0.022228 0.016517 -0.34153 0.23876 -0.008562 0.034549 -0.0022794 0.0021604
-0.0013759 0.002968 0.00092138 0.0052623
0.0061771 -0.010748 -0.0084301 0.034534 -0.031951 0.30181 0.0010156 0.0014918
-0.00016827 0.0037048 -0.0018406 0.00072851
-0.0044811 -0.0020173 -0.0022797 0.0022229 0.0010242 0.0015056 -0.17435 0.23172
-0.029103 0.013603 0.014158 -0.010607
-0.0041454 0.0022411 -0.001191 0.0030974 -0.00019793 0.0037369 -0.029122 0.013551
-0.22159 0.10819 -0.017843 0.020302
0.0044024 0.00019121 0.00086738 0.0051168 -0.001887 0.00072565 0.014209 -0.010546
-0.018395 0.019908 -0.24114 0.14794
860000000 -0.12767 0.24059 -0.017884 0.030553 -0.0028089 -0.010578 -0.0020711 0.00037855
0.0036093 0.0050135 -0.003646 -0.0025416
-0.017872 0.030467 -0.29345 0.28142 0.0074314 0.034889 1.449e-05 0.0021416
0.00312 0.00054337 0.003498 0.00030275
-0.0027791 -0.010535 0.0075847 0.034947 0.015601 0.31059 -0.00077425 -8.8909e-05
0.0019946 -0.0017298 0.0019678 0.0044007
-0.0020138 0.00037503 -6.5621e-05 0.0022003 -0.00082014 -9.3486e-05 -0.13823 0.24247
-0.018795 0.018168 -0.0061992 -0.00893
0.0037849 0.0049633 0.0034093 0.00058859 0.0020086 -0.0016973 -0.018847 0.018154
-0.16599 0.15861 -0.024559 0.016538
-0.0034366 -0.0026672 0.0035372 0.00020975 0.0019922 0.004354 -0.0061244 -0.0085243
-0.024564 0.0169 -0.19007 0.1952
920000000 -0.10397 0.26346 0.0044861 0.038321 -0.0095858 -0.0052177 -0.001943 0.0016105
0.0014685 0.0018639 0.0029046 -0.0015897
0.0044143 0.038307 -0.26659 0.30239 0.028406 0.023014 0.0013883 0.0013212
0.0075867 -0.0005696 0.0044173 -0.0025763
-0.0096227 -0.0052011 0.028554 0.022939 0.061143 0.31217 0.0018993 -3.0201e-05
0.0011812 -0.00021594 0.00087604 -0.0013428
-0.0018168 0.0015794 0.0015706 0.0011932 0.0019235 -3.9425e-05 -0.11375 0.25943
-0.011104 0.031118 0.0036982 -0.0070804
0.0011131 0.0020268 0.0074717 -0.00030603 0.0011283 -0.00022896 -0.010825 0.031231
-0.15539 0.16591 -0.0014883 0.027736
0.0029284 -0.0015604 0.0045134 -0.0027345 0.00087156 -0.0013891 0.003305 -0.0071608
-0.0010656 0.027203 -0.19756 0.20766
980000000 -0.057219 0.284 0.017075 0.030416 -0.0098477 0.0042221 0.001897 0.0034873
0.0041554 -0.0014274 -0.0028488 -0.0024121
0.017037 0.030398 -0.21341 0.3379 0.033848 0.0054704 0.0021819 -0.00011129
0.0018799 -0.0059955 -2.9462e-05 -0.0027455
-0.0097647 0.0042628 0.033916 0.0053892 0.10709 0.30689 0.00069497 -0.0011501
0.00050824 -0.0019574 0.0015696 -0.00041007
0.0018605 0.0035002 0.0021612 -0.00012213 0.00075573 -0.001233 -0.07508 0.27089
0.0078419 0.030973 -0.008842 -0.0070097
0.0041743 -0.0016018 0.0019339 -0.006283 0.00056987 -0.0019655 0.0078351 0.030875
-0.12191 0.196 0.0064764 0.019492
-0.0028412 -0.002359 -0.00017527 -0.0027982 0.0016625 -0.00036848 -0.0087563 -0.0071599
0.0065846 0.020158 -0.15546 0.25093
1040000000 -0.015854 0.29325 0.033397 0.019153 -0.0016861 0.0072746 0.0026564 0.00065168
0.00053924 -0.0034697 -0.00016725 -0.0015243
0.033362 0.019145 -0.17852 0.35151 0.030574 -0.014914 0.0017437 -0.001816
-0.0020611 -0.0027422 -0.00097936 -0.0028373
-0.0016601 0.007319 0.03057 -0.015029 0.15346 0.29405 -0.00044184 -0.0016788
-0.001639 -0.00091839 -0.00053756 -0.0011755
0.0026642 0.0007533 0.0016767 -0.0018433 -0.00046209 -0.0016956 -0.04741 0.2803
0.020268 0.018953 -0.0025869 0.00099724
0.00052022 -0.0035859 -0.0021359 -0.0027474 -0.0016484 -0.00093649 0.020289 0.018999
-0.087549 0.20186 0.014088 0.018318
-0.00035671 -0.0014491 -0.0010097 -0.0027975 -0.00052435 -0.0011586 -0.0025647 0.00091186
0.014113 0.018179 -0.13178 0.27239
1100000000 0.028352 0.30263 0.036852 -0.0035198 0.0028745 0.0042865 0.0023985 -0.0011096
-0.0020747 -0.0030745 -0.0041163 -0.00026684
0.036825 -0.0035215 -0.13554 0.37011 0.016159 -0.028604 4.7896e-05 -0.0019418
-0.0038121 -0.0010162 -0.003671 -0.00067712
0.002858 0.0042732 0.016004 -0.028723 0.20011 0.27467 -0.002065 0.00012644
-0.0018964 0.00054133 -0.0011409 -0.00045638
0.0023181 -0.0011246 -1.3638e-05 -0.0019549 -0.0020395 0.00013341 -0.0071138 0.2857
0.026223 0.0051562 -0.002427 -6.2232e-05
-0.0021156 -0.0031233 -0.0037807 -0.00097572 -0.0018979 0.00053807 0.026205 0.0050749
-0.067428 0.21465 0.019966 0.0082513
-0.0041461 -0.00028258 -0.0037311 -0.00066417 -0.0011161 -0.00045345 -0.0024904 1.5373e-05
0.019919 0.0083427 -0.086766 0.30081
1160000000 0.079646 0.29873 0.024773 -0.021107 0.0029196 -0.00042444 -0.00024837 -0.0024178
-0.0040481 -0.0007881 -0.0010329 0.0042646
0.02478 -0.021094 -0.091828 0.37527 -0.0036482 -0.030217 -0.0017258 -0.0017125
-0.0029019 0.0028548 -0.0014917 0.0021012
0.0029198 -0.00042253 -0.003798 -0.030209 0.2439 0.24415 -0.00074575 0.001858
-0.00051674 0.0020685 -0.00097287 0.00034249
-0.0002161 -0.0023606 -0.0017917 -0.0016985 -0.00079542 0.0018313 0.032492 0.28298
0.02203 -0.011438 -0.0036011 0.005158
-0.0040772 -0.00077036 -0.0028666 0.0029167 -0.00053974 0.0020764 0.022085 -0.011522
-0.033403 0.22244 0.01867 -0.00090646
-0.0010107 0.0042942 -0.0014651 0.0019491 -0.00096219 0.00031638 -0.0035125 0.0049227
0.018866 -0.0010492 -0.039497 0.30415
1220000000 0.12377 0.28932 0.01111 -0.030821 -0.0016167 -0.0009473 5.546e-05 -0.0008348
-0.0028176 0.002278 0.0011417 0.0020715
0.011132 -0.030798 -0.047208 0.38858 -0.017545 -0.022246 -0.0026874 0.00052965
1.5993e-05 0.0033493 -0.00087686 0.0020658
-0.0016497 -0.00094817 -0.017691 -0.022193 0.28297 0.20486 0.00082038 0.0018052
0.00065869 0.0012892 0.0003286 0.00065151
5.7933e-05 -0.00083867 -0.0026841 0.00052456 0.00080351 0.0018282 0.072881 0.27437
0.011008 -0.018637 0.0019986 0.0014478
-0.0028743 0.0022998 2.4983e-05 0.0033581 0.00066987 0.0012945 0.011017 -0.018628
-0.0094849 0.23125 0.014227 -0.013762
0.0011489 0.002116 -0.00084953 0.0021085 0.00033311 0.00066759 0.0020332 0.0014255
0.014154 -0.013795 -0.007714 0.31874
1280000000 0.17427 0.26904 -0.0082399 -0.029408 -0.0020416 0.0025648 -0.00080027 -0.0020792
-0.00080036 0.0033146 0.0026941 0.0012285
-0.0082049 -0.029375 -0.00042437 0.38041 -0.024927 -0.0088605 -0.00096265 0.0016502
0.0019523 0.0017665 0.00075359 0.0020271
-0.0020421 0.0025848 -0.025002 -0.0087508 0.31321 0.16113 0.0016675 -2.4325e-05
0.0013967 0.00019863 0.00031469 0.00024461
-0.00086118 -0.0020766 -0.00097845 0.0016229 0.0016826 1.0456e-05 0.10999 0.25791
0.00032556 -0.02087 -0.00014097 0.00048691
-0.00081441 0.0033077 0.0019503 0.0017658 0.0013815 0.00017553 0.00025824 -0.02088
0.027099 0.23503 0.0027562 -0.016191
0.0026697 0.0012898 0.00072648 0.0020426 0.00037159 0.00018464 -0.00019146 0.00056224
0.002838 -0.016227 0.039474 0.32084
1340000000 0.21218 0.23588 -0.018407 -0.019399 0.00077272 0.0049143 -0.0016509 -0.00084388
0.0014592 0.0028399 0.0018618 -0.0013678
-0.018384 -0.019387 0.03947 0.37208 -0.022451 0.0045938 -2.6866e-05 0.0020169
0.0021051 0.00067169 0.001297 0.0007828
0.00078179 0.0049237 -0.022459 0.0047112 0.33464 0.11378 0.0010929 -0.00093937
0.00067131 -0.00055824 9.14e-05 0.00028286
-0.0016796 -0.00081316 5.9323e-06 0.0020309 0.0011071 -0.00092458 0.14318 0.23667
-0.0098277 -0.017537 0.00054337 0.00064623
0.0015109 0.0028438 0.0021487 0.00071334 0.00069233 -0.00056263 -0.0098685 -0.017492
0.057543 0.2302 -0.0045112 -0.01494
0.0018116 -0.001366 0.0013346 0.00077273 0.00015564 0.00032016 0.0005667 0.00065772
-0.0044783 -0.014879 0.077147 0.3152
1400000000 0.24618 0.19854 -0.024343 -0.0072298 0.0055368 0.0035188 -0.0022838 0.00063525
0.0025648 0.0010365 0.00029699 -0.0015822
-0.024303 -0.0072344 0.077186 0.35919 -0.015411 0.013243 0.0014681 0.001263
0.0013068 -0.00095129 0.0012282 1.2736e-05
0.0055862 0.0034995 -0.015342 0.013327 0.34743 0.061307 6.9747e-05 -0.0018125
0.00018386 -0.00045606 0.00034934 0.00020661
-0.0023445 0.00063741 0.0014527 0.0012591 3.4746e-05 -0.001796 0.17228 0.20745
-0.016303 -0.0097626 -0.00093041 7.6838e-05
0.0026166 0.00098967 0.0012876 -0.00094031 0.00016915 -0.00046457 -0.016308 -0.0097194
0.090824 0.22576 -0.011297 -0.0090614
0.00026961 -0.0016109 0.0012408 3.2807e-06 0.00031253 0.00019311 -0.00095144 0.00013812
-0.011324 -0.0090852 0.12199 0.30406
1460000000 0.26975 0.15449 -0.020845 0.0054684 0.006124 -0.0017772 -0.0015744 0.0017655
0.00226 -0.00057305 -0.00048558 -0.0010935
-0.020854 0.0054507 0.11149 0.337 -0.0059539 0.016312 0.001662 6.8616e-05
0.00085862 -0.0014221 0.0012211 -0.00062308
0.0061019 -0.0017911 -0.0058831 0.016343 0.35423 0.008043 -0.0013669 -0.0013343
0.00013834 -0.00022984 0.00073295 -0.00020791
-0.0015363 0.0018224 0.001675 8.3957e-05 -0.0013575 -0.0013495 0.19874 0.17798
-0.017213 -0.002095 -0.00075413 0.0022858
0.0022831 -0.00061176 0.00082971 -0.0014382 0.00013864 -0.00023009 -0.017237 -0.0020101
0.12064 0.21138 -0.013061 -0.0026133
-0.00051472 -0.0011313 0.0012022 -0.00061075 0.00076261 -0.00024793 -0.00065973 0.0023275
-0.013072 -0.0027307 0.15509 0.28341
1520000000 0.28223 0.11273 -0.014756 0.011067 0.0037129 -0.0045359 0.00013694 0.002655
0.0021297 -0.0021342 -0.0012547 -0.00011168
-0.014752 0.011055 0.14462 0.32245 0.0021385 0.01367 0.0016413 -0.00082678
-5.9133e-05 -0.0010963 0.00029447 -0.0010903
0.0036875 -0.0045879 0.0022123 0.013643 0.34799 -0.047358 -0.0011195 -0.00023212
0.00062755 -0.00091305 0.0001523 -0.00019688
0.00010735 0.0026677 0.0016333 -0.00083238 -0.0011534 -0.00024548 0.22146 0.1395
-0.015675 0.0044053 0.0018108 0.0022625
0.0020938 -0.0021623 -7.619e-05 -0.0011037 0.00064026 -0.00092556 -0.015631 0.004454
0.14907 0.19782 -0.012664 0.0024729
-0.0012318 -5.9186e-05 0.00027727 -0.0010973 0.00014499 -0.00021982 0.0017784 0.0022553
-0.012622 0.00249 0.18748 0.2625
1580000000 0.29201 0.066683 -0.0075193 0.01413 -0.00090291 -0.005402 0.0015777 0.0019249
-0.00032198 -0.0022791 -0.00022355 0.00032551
-0.0075303 0.014112 0.17167 0.29804 0.0059282 0.0083073 0.00047264 -0.0016168
-0.00059309 -0.0009719 -0.00022363 -0.00082377
-0.0008892 -0.0053735 0.0059996 0.0082903 0.32906 -0.10462 -0.0016459 0.00061978
-0.0004899 -0.001311 0.00030686 -0.00059923
0.0015963 0.0019062 0.00046542 -0.0016077 -0.0016373 0.00063103 0.23483 0.10037
-0.011001 0.0093959 0.0024952 0.00073005
-0.00032976 -0.0022777 -0.00061273 -0.00097001 -0.00051412 -0.0012833 -0.010951 0.0094401
0.17342 0.17979 -0.0095241 0.0084642
-0.0002332 0.00034197 -0.00023684 -0.00080446 0.00034504 -0.0005615 0.0025009 0.00073569
-0.0094996 0.0083855 0.21894 0.23618
1640000000 0.29412 0.025617 -0.00053467 0.012417 -0.0031081 -0.0029013 0.002756 0.0010037
-0.00090155 -0.0015837 -0.00039248 0.00067272
-0.0005437 0.012414 0.2011 0.27358 0.006434 0.003126 -0.00068258 -0.0017569
-0.0009659 -0.00034972 -0.00057342 -0.00065767
-0.0031295 -0.0029092 0.0064901 0.0030881 0.30127 -0.15403 -0.00061805 0.001468
-0.0011207 -0.00094108 -0.00015 -0.00039669
0.0027652 0.00095617 -0.00069137 -0.0017658 -0.00061629 0.0014445 0.2469 0.05175
-0.0058568 0.0099927 0.0026593 -0.00096476
-0.00094644 -0.0016206 -0.0009554 -0.00035067 -0.0010837 -0.00095759 -0.0058424 0.01002
0.19704 0.15545 -0.0044285 0.010355
-0.00044224 0.00067082 -0.00061157 -0.00066133 -0.00019198 -0.00044473 0.0026697 -0.00091457
-0.0044101 0.010456 0.24478 0.20536
1700000000 0.28706 -0.019293 0.0027623 0.0091107 -0.0039169 1.0809e-05 0.0031158 -0.0013502
-0.0021119 -0.00061071 0.0005494 0.00052301
0.0027631 0.0091078 0.219 0.24278 0.0041373 4.795e-05 -0.0015435 -0.00058741
-0.00072152 -1.3435e-05 -0.00093238 -0.00042521
-0.0038806 7.2224e-05 0.0041191 4.9406e-05 0.25846 -0.1939 0.00039387 0.0015719
-0.002016 3.6567e-05 -0.00044187 -0.00093133
0.003175 -0.0013387 -0.0015022 -0.00054121 0.00039401 0.0015618 0.24344 0.0025927
-0.0028503 0.0095665 0.0016762 -0.0023516
-0.002099 -0.00056124 -0.00072486 3.7732e-05 -0.0020239 2.3554e-05 -0.0027755 0.0095435
0.21429 0.13486 0.00067089 0.010419
0.00064212 0.00048083 -0.00093223 -0.00041536 -0.0004481 -0.00092809 0.0016422 -0.0023997
0.0007021 0.010391 0.26093 0.17133
1760000000 0.27558 -0.067356 0.00474 0.0055251 -0.0025419 0.0011002 0.001301 -0.0034637
-0.0013476 0.00080928 0.00040067 -0.00060566
0.0047266 0.0055315 0.24543 0.20384 0.0015215 -0.0018367 -0.0012488 0.00022932
-0.0010857 0.00084812 -0.00056596 0.00042137
-0.0025578 0.0011477 0.0014954 -0.0018351 0.21086 -0.22764 0.0010942 0.0010537
-0.0012965 0.0015823 -0.0013478 -0.00072221
0.0012231 -0.0034912 -0.0012648 0.0002117 0.0010805 0.0010045 0.23501 -0.048128
0.00013506 0.0078834 -0.00015677 -0.0026818
-0.0013963 0.00083547 -0.0010884 0.00084228 -0.0012798 0.0015974 0.00017005 0.0078395
0.22934 0.10006 0.0047927 0.0074462
0.00040874 -0.00052566 -0.00056609 0.00046277 -0.0013948 -0.00075901 -8.8558e-05 -0.002789
0.0048189 0.0074469 0.27422 0.13388
1820000000 0.2515 -0.10433 0.004352 0.001971 -0.00026629 0.0026553 -0.001057 -0.0031076
-0.0010334 0.0011233 -7.614e-05 -0.00013647
0.0043526 0.001974 0.25597 0.17422 -0.0009212 -0.00037831 -0.001238 0.00095488
-0.00012192 0.0012036 -0.00054017 0.0005023
-0.00021647 0.0027325 -0.00093227 -0.00035802 0.15969 -0.2438 0.0016186 0.00044785
-0.00014212 0.0024162 -0.0015255 0.00051536
-0.00098927 -0.0031328 -0.0012321 0.00096344 0.0016295 0.00042242 0.20571 -0.095236
0.0009373 0.0063573 -0.0017995 -0.0018072
-0.0010188 0.0011149 -9.7483e-05 0.0012161 -0.00013804 0.0024406 0.00097575 0.0063342
0.24614 0.071111 0.0057303 0.00341
-7.3995e-05 -0.00011581 -0.00055542 0.00051064 -0.0015502 0.00045788 -0.0018795 -0.0017517
0.0056681 0.0033736 0.27646 0.097419
1880000000 0.21738 -0.14469 0.0019428 -5.5435e-05 -0.00050649 0.0023977 -0.0028599 -0.0022057
-8.325e-05 0.0018056 7.1139e-05 -0.00044884
0.0019312 -4.8998e-05 0.2612 0.12826 -0.0028316 0.0015979 -0.00013496 0.0017635
0.00049324 0.0013672 1.6213e-06 0.00092988
-0.00055596 0.002395 -0.0028061 0.0016452 0.1078 -0.25319 0.0018619 -0.00088275
0.0016777 0.0020688 -0.0012721 0.0015059
-0.002855 -0.0021694 -0.0001185 0.001794 0.0019069 -0.0008672 0.16577 -0.13542
0.0012947 0.0043362 -0.0026078 0.00011799
-7.8342e-05 0.001829 0.00048153 0.0013707 0.0017113 0.0020432 0.001235 0.0042799
0.24982 0.03975 0.0056098 0.00073029
3.0424e-05 -0.00051746 2.1261e-05 0.00095363 -0.0012368 0.0015311 -0.002545 7.1871e-05
0.0056347 0.00073105 0.27647 0.063225
1940000000 0.17883 -0.17085 -0.00044175 -0.0013997 0.0015272 0.0022055 -0.0037551 0.00043476
0.0014442 0.00099456 -0.00059031 -0.00070989
-0.00044654 -0.0014093 0.26276 0.096396 -0.0015243 0.0041236 0.0010966 0.0012754
0.0018687 0.00064429 0.001094 0.00027788
0.001483 0.0021596 -0.0015144 0.0041322 0.062447 -0.2464 0.00059627 -0.0023797
0.0024309 0.00028519 0.00076878 0.001689
-0.0036756 0.00042012 0.0011264 0.001257 0.00050433 -0.0023841 0.11407 -0.16692
0.00023263 0.0033603 -0.0016935 0.0017172
0.0014613 0.00099174 0.0018888 0.00063361 0.0024417 0.00027733 0.00029846 0.0033739
0.25259 0.001805 0.0041044 -0.00257
-0.00057115 -0.00070775 0.0010523 0.0002536 0.00073143 0.0016965 -0.0017354 0.001695
0.0041749 -0.0025886 0.26584 0.027147
2000000000 0.13262 -0.18625 -0.004062 0.00077847 0.00272 0.0014922 -0.0022695 0.0036673
0.0013063 0.00020558 -0.00045817 0.00062277
-0.0040804 0.00078532 0.24918 0.060598 -0.0010319 0.0060052 0.0016729 0.00043187
0.0014943 -0.001024 0.00047434 0.00018019
0.0026844 0.0014608 -0.0010113 0.0059627 0.018762 -0.23262 -0.0012885 -0.0013501
0.0021604 -0.0012131 0.0016865 0.001386
-0.0023118 0.0037124 0.0016391 0.0004097 -0.0012598 -0.0013089 0.060381 -0.17746
-0.0011248 0.0035701 -0.0002665 0.0022128
0.0012784 0.00022324 0.0014533 -0.001037 0.0021507 -0.0012357 -0.0011763 0.0035327
0.24736 -0.030898 0.00059977 -0.0037709
