!Keysight Technologies,M9804A,MY58100912,A.14.10.03
!Date: Thursday, April 27, 2023 10:28:33
!Correction: S11(C  6-Port  ) 
!S12(C  6-Port  ) 
!S13(C  6-Port  ) 
!S14(C  6-Port  ) 
!S15(C  6-Port  ) 
!S16(C  6-Port  ) 
!S21(C  6-Port  ) 
!S22(C  6-Port  ) 
!S23(C  6-Port  ) 
!S24(C  6-Port  ) 
!S25(C  6-Port  ) 
!S26(C  6-Port  ) 
!S31(C  6-Port  ) 
!S32(C  6-Port  ) 
!S33(C  6-Port  ) 
!S34(C  6-Port  ) 
!S35(C  6-Port  ) 
!S36(C  6-Port  ) 
!S41(C  6-Port  ) 
!S42(C  6-Port  ) 
!S43(C  6-Port  ) 
!S44(C  6-Port  ) 
!S45(C  6-Port  ) 
!S46(C  6-Port  ) 
!S51(C  6-Port  ) 
!S52(C  6-Port  ) 
!S53(C  6-Port  ) 
!S54(C  6-Port  ) 
!S55(C  6-Port  ) 
!S56(C  6-Port  ) 
!S61(C  6-Port  ) 
!S62(C  6-Port  ) 
!S63(C  6-Port  ) 
!S64(C  6-Port  ) 
!S65(C  6-Port  ) 
!S66(C  6-Port  ) 
!S6P File: Measurement: :
# Hz S  RI   R 50
500000000 -0.33224 -0.055158 -0.0099187 -0.00057387 -0.0082075 0.013533 -0.004956 0.01172
0.013148 0.0075149 -0.0049587 0.008886
-0.0098616 -0.00068844 -0.416 -0.066083 0.0079995 -0.010741 0.0014064 0.011872
0.0085282 0.0021948 0.0023588 0.013967
-0.0082615 0.013334 0.0079952 -0.010825 -0.26726 0.1976 0.0070948 0.0033895
-0.0018992 0.0081284 0.0011472 0.012305
-0.004806 0.011652 0.0015567 0.011993 0.0070841 0.0033982 -0.33086 0.043538
-0.018905 -0.0043663 0.017477 0.026747
0.012916 0.0071783 0.0084798 0.0022358 -0.0018112 0.0081472 -0.018835 -0.0043453
-0.24624 -0.20019 -0.027415 0.0052544
-0.0053055 0.0082388 0.0025484 0.01416 0.0012246 0.012036 0.016864 0.027387
-0.027076 0.0052634 -0.26882 -0.12556
560000000 -0.31967 0.11121 -0.023346 -0.065927 0.00020125 0.013478 0.0069362 0.0098098
0.011594 0.0053812 0.010629 0.009181
-0.023215 -0.065765 -0.37407 0.097854 -0.042479 -0.03679 0.013443 0.0045225
-0.014651 -0.0026761 0.0024284 -0.0012038
0.00027822 0.013415 -0.042734 -0.037367 -0.18656 0.24918 2.3909e-07 -0.0049394
0.017934 0.0034825 0.0080328 -0.0056573
0.0069288 0.010029 0.013465 0.004835 1.1713e-05 -0.0049059 -0.30751 0.13501
0.0069693 -0.023535 0.0049172 -0.021312
0.011814 0.0049665 -0.014808 -0.0026366 0.018043 0.0035294 0.0068966 -0.023514
-0.30954 -0.022037 0.0082488 -0.047635
0.011517 0.009748 0.0021968 -0.0010165 0.0078061 -0.0053383 0.0055847 -0.021631
0.0086748 -0.047145 -0.33179 0.019942
620000000 -0.27725 0.09218 -0.023099 0.0085422 0.004018 0.0095898 0.0080135 -0.0037633
0.012774 -0.0025692 0.00099392 -0.0028739
-0.023053 0.0085729 -0.40344 0.046435 -0.018436 0.0007176 -0.0012248 -0.0015622
0.011361 -0.0075051 0.0007564 -0.0033221
0.0040698 0.0097044 -0.01852 0.00067917 -0.15587 0.25962 -0.00059726 -0.0048305
-0.0036021 -0.0033335 0.007944 -0.002519
0.007844 -0.0039332 -0.0012368 -0.0017978 -0.00067359 -0.0048435 -0.26504 0.14317
-0.039394 -0.018765 0.014419 0.026546
0.013163 -0.0023011 0.011111 -0.0071372 -0.0037564 -0.0032395 -0.039243 -0.018605
-0.2312 -0.051986 -0.043068 0.014119
0.00096662 -0.0019384 0.00092589 -0.0032287 0.0079107 -0.0022607 0.014095 0.02653
-0.043419 0.013212 -0.25173 -0.0090331
680000000 -0.24032 0.18177 -0.026124 -0.014692 0.0053772 0.0053793 0.0016322 -0.007051
-0.0020836 -0.011663 0.0055121 -0.0076232
-0.026045 -0.014741 -0.39033 0.14793 -0.032465 -0.0023541 -0.0016717 -0.00016519
-0.0014618 -0.0093869 -4.807e-05 -0.0020547
0.0053743 0.00533 -0.032496 -0.0022359 -0.10457 0.27969 -0.00075733 -0.00013861
-0.0017 0.00023345 -0.0029548 -0.0087549
0.0019643 -0.0072253 -0.0015571 -0.00018999 -0.00072732 -0.00016859 -0.22047 0.19599
-0.023471 -0.0078391 -0.009112 -0.012415
-0.0017083 -0.011828 -0.0014017 -0.009419 -0.001785 0.00023739 -0.023486 -0.0078036
-0.27854 0.048345 -0.007152 -0.0076056
0.0050919 -0.0073975 -0.00044087 -0.0020921 -0.0027686 -0.0087602 -0.0094794 -0.011988
-0.0070596 -0.0070654 -0.25839 0.089848
740000000 -0.19385 0.17555 -0.039753 0.026893 0.014009 -0.0045571 -0.00028206 -0.0041175
-0.0043177 -0.0031675 -0.0063306 0.0030702
-0.039864 0.026841 -0.33605 0.16709 -0.037342 0.034674 -8.3963e-05 -0.0055649
-0.013372 0.0069212 -0.0012932 -0.0049418
0.013925 -0.004677 -0.037323 0.034857 -0.071143 0.27701 -0.0019814 0.0032357
-0.0027438 -0.0070284 -0.0018204 0.0013229
-0.00048136 -0.0039834 3.0842e-05 -0.0056363 -0.0020117 0.0033319 -0.203 0.20345
-0.043078 -0.0073247 0.023244 0.015915
-0.0043153 -0.0032456 -0.013268 0.0074684 -0.0029011 -0.006971 -0.043101 -0.007263
-0.1793 0.078735 -0.044395 0.00053753
-0.0066858 0.0029147 -0.0010398 -0.0050067 -0.0017307 0.0015838 0.023385 0.015791
-0.044273 -3.7282e-05 -0.24642 0.097071
800000000 -0.16296 0.21942 -0.022377 0.016505 0.0060605 -0.010639 -0.0045411 -0.0019634
-0.0037252 0.0024373 0.0044872 0.00077265
-0.022378 0.016541 -0.34242 0.23792 -0.0085362 0.034309 -0.0025386 0.0020192
-0.0011494 0.0031866 0.0012649 0.0053502
0.0060711 -0.010548 -0.0084945 0.034416 -0.03187 0.30151 0.00076916 0.0015674
0.00020417 0.0037453 -0.0016956 0.0010046
-0.0046319 -0.0021019 -0.002431 0.0019146 0.00077374 0.0015373 -0.17426 0.23077
-0.029286 0.013218 0.014295 -0.0097933
-0.0040113 0.0027786 -0.0013543 0.0032636 0.00019571 0.0037034 -0.029262 0.013281
-0.22314 0.10643 -0.017896 0.019077
0.0044453 0.00092735 0.0012163 0.0056151 -0.0018214 0.0009385 0.013979 -0.0095846
-0.01795 0.019176 -0.24193 0.14788
860000000 -0.12871 0.24024 -0.018184 0.030366 -0.0028898 -0.010337 -0.0021049 0.00070977
0.0038874 0.0052748 -0.0036057 -0.0028073
-0.018095 0.030309 -0.29361 0.28027 0.0074442 0.034547 0.00026653 0.0020131
0.0032679 -1.1966e-05 0.003062 0.00084086
-0.0030325 -0.01032 0.0075313 0.034558 0.015563 0.31022 -0.00078902 -3.1263e-05
0.0021496 -0.0018152 0.0016248 0.0041455
-0.0017749 0.0004957 0.00033716 0.0021702 -0.00082772 -4.7203e-05 -0.13814 0.24263
-0.0183 0.017524 -0.0063352 -0.0085188
0.0042716 0.0050679 0.0035653 0.00014371 0.0021622 -0.0017069 -0.018221 0.01761
-0.16576 0.15835 -0.024377 0.016492
-0.0042991 -0.0028758 0.003061 0.0005395 0.001631 0.0042371 -0.006229 -0.0090943
-0.024722 0.01654 -0.19157 0.193
920000000 -0.105 0.26324 0.0045381 0.038422 -0.0093605 -0.0050256 -0.0018772 0.0017732
0.0013741 0.0019017 0.0029648 -0.0013095
0.0045555 0.038334 -0.26687 0.30197 0.028059 0.022885 0.0015275 0.0012016
0.0075363 -5.8218e-05 0.0041806 -0.002801
-0.009351 -0.0051156 0.028157 0.022847 0.060861 0.31148 0.0019478 -1.3924e-05
0.0010619 -0.00040526 0.00088294 -0.0014363
-0.0019055 0.0017827 0.0015379 0.0011547 0.0019796 9.3645e-06 -0.11377 0.2587
-0.011179 0.030479 0.0036538 -0.0068324
0.0012378 0.0019502 0.0075293 -1.9138e-06 0.001065 -0.00037705 -0.011122 0.030528
-0.15648 0.16464 -0.0019674 0.026581
0.0030998 -0.0015706 0.004072 -0.0026005 0.0008129 -0.0014809 0.0037753 -0.0068784
-0.0019985 0.026142 -0.19939 0.20618
980000000 -0.058219 0.28388 0.016921 0.03035 -0.0094207 0.0041789 0.0016943 0.00357
0.0042462 -0.0010962 -0.0028248 -0.0019463
0.01682 0.03036 -0.21383 0.33702 0.033448 0.0056053 0.0020602 -0.00035196
0.0015908 -0.005941 -0.00013849 -0.0017085
-0.0093826 0.004258 0.033519 0.0054692 0.10668 0.30606 0.00069828 -0.0011548
0.00050162 -0.0018577 0.0015849 5.3357e-05
0.0017518 0.0035145 0.002094 -0.00034194 0.00070802 -0.0011526 -0.075236 0.27022
0.0072431 0.030349 -0.0088553 -0.0071366
0.003999 -0.0014519 0.0014789 -0.0060834 0.00050063 -0.0018206 0.0072618 0.030357
-0.12274 0.19407 0.0061067 0.019852
-0.0029438 -0.0020434 -0.00013989 -0.0019424 0.0015755 -8.9871e-05 -0.009123 -0.0070844
0.0062675 0.019794 -0.15554 0.24975
1040000000 -0.017348 0.29295 0.032754 0.019357 -0.0016478 0.0071367 0.0028617 0.00086346
0.00047742 -0.0032841 -0.00021825 -0.0017578
0.032782 0.019362 -0.17892 0.35084 0.030148 -0.01442 0.0017992 -0.0015761
-0.0020036 -0.002343 -0.00098262 -0.0030609
-0.0016652 0.0071428 0.030219 -0.014547 0.15262 0.29333 -0.00039303 -0.0015786
-0.0015446 -0.0010025 -0.0003412 -0.0011481
0.0029621 0.00083306 0.0016815 -0.001691 -0.00040669 -0.0016151 -0.048007 0.27996
0.019272 0.019042 -0.0024076 0.00089867
0.00070291 -0.0032993 -0.0020565 -0.0025095 -0.0015355 -0.0010937 0.019303 0.01901
-0.089954 0.20094 0.013655 0.01788
-0.00038182 -0.0015798 -0.00073945 -0.0030773 -0.00031994 -0.0010988 -0.0023194 0.00087385
0.013849 0.018029 -0.13434 0.26973
1100000000 0.027452 0.30241 0.036528 -0.0032732 0.0028741 0.0042499 0.0024836 -0.0011245
-0.0018681 -0.0031077 -0.0040913 -8.2665e-05
0.036528 -0.0032495 -0.13604 0.36923 0.016071 -0.027922 7.3232e-05 -0.0019133
-0.0035141 -0.00099447 -0.0035562 -0.00059048
0.0028797 0.004227 0.015967 -0.02803 0.19883 0.2741 -0.0018791 0.00011896
-0.0018012 0.00059201 -0.0010759 -0.00052798
0.0024942 -0.0011034 9.9562e-05 -0.0018227 -0.0018547 0.00013251 -0.0076759 0.28523
0.02517 0.0056466 -0.0025313 -0.00021568
-0.0020245 -0.0030824 -0.0035492 -0.00092647 -0.0017764 0.0006059 0.025186 0.005579
-0.069002 0.21399 0.019563 0.0085947
-0.0041099 -0.00012052 -0.0037316 -0.00053348 -0.0010782 -0.00050102 -0.0026459 -0.00026093
0.019606 0.0083211 -0.08823 0.29926
1160000000 0.078666 0.29878 0.02472 -0.020411 0.0028951 -0.00053674 -0.00019256 -0.0024452
-0.0040389 -0.00082878 -0.00096596 0.0040755
0.024715 -0.020403 -0.092577 0.37393 -0.0031613 -0.029726 -0.0016269 -0.0018177
-0.0028875 0.0026667 -0.0015434 0.0021372
0.0029155 -0.00050506 -0.00331 -0.029756 0.24231 0.24402 -0.00089893 0.001758
-0.00059144 0.0019809 -0.00097617 0.00022439
-0.00012444 -0.0025431 -0.0016307 -0.0018108 -0.00088789 0.0017869 0.031652 0.28248
0.021557 -0.010251 -0.0030829 0.0053444
-0.0040383 -0.0010836 -0.0027975 0.0025841 -0.00061624 0.0020221 0.021573 -0.010268
-0.034404 0.22231 0.018422 -0.00023475
-0.0011002 0.0040604 -0.0013916 0.0020093 -0.00096327 0.00022485 -0.0030972 0.0051874
0.018277 -0.0003056 -0.04212 0.30371
1220000000 0.12251 0.28917 0.011365 -0.030339 -0.0015572 -0.0010279 6.5044e-05 -0.00086921
-0.002729 0.0021648 0.0010182 0.0020678
0.011408 -0.030288 -0.048376 0.38736 -0.016934 -0.022119 -0.0026785 0.000503
-3.672e-05 0.003139 -0.00081789 0.0019163
-0.001543 -0.0010166 -0.017024 -0.022088 0.28142 0.20577 0.00076498 0.0017233
0.00058632 0.0011538 0.00012394 0.00061158
1.4522e-05 -0.00082419 -0.0027367 0.0005198 0.00075434 0.0017354 0.071822 0.27406
0.011166 -0.017261 0.0020469 0.0014901
-0.0026725 0.0022595 -0.00010285 0.0031623 0.00061706 0.0011704 0.011141 -0.017288
-0.010886 0.231 0.014198 -0.013348
0.0010306 0.0019596 -0.0007406 0.0019705 0.00012818 0.00065694 0.0021392 0.0015779
0.014112 -0.01319 -0.01007 0.31788
1280000000 0.1731 0.26892 -0.0075299 -0.029017 -0.002093 0.002475 -0.00080327 -0.0020641
-0.00082333 0.0032834 0.0025875 0.0013775
-0.0075161 -0.028965 -0.0023511 0.37931 -0.024258 -0.009102 -0.00093067 0.001459
0.0016771 0.0017013 0.00062744 0.0020945
-0.0020787 0.0024634 -0.024355 -0.0089975 0.3124 0.16253 0.0015721 1.3456e-06
0.0012778 0.0002342 0.00045829 0.00018013
-0.00079534 -0.0020514 -0.00092207 0.0015144 0.00157 1.5254e-05 0.10875 0.25821
0.0012563 -0.019707 -7.9105e-05 0.00020861
-0.00087017 0.0033073 0.0016418 0.0017598 0.0012825 0.00024054 0.0012255 -0.019722
0.025898 0.2345 0.0031866 -0.015347
0.0025644 0.0013492 0.00052411 0.0020789 0.00042012 0.00014793 7.7161e-06 3.3133e-05
0.0032394 -0.01534 0.037157 0.32018
1340000000 0.2107 0.23631 -0.017547 -0.019465 0.00071268 0.0047098 -0.0018001 -0.00082613
0.0014248 0.0026419 0.0017846 -0.0012412
-0.017551 -0.019481 0.037227 0.37184 -0.022208 0.0039762 -8.4275e-05 0.0020479
0.0020246 0.00078071 0.0011254 0.00072471
0.0007367 0.0047465 -0.022221 0.0040979 0.33456 0.11541 0.0011016 -0.00088592
0.00061729 -0.00059562 7.1282e-05 0.00031017
-0.0017465 -0.00083112 -3.2852e-05 0.0020411 0.0010837 -0.00086647 0.14211 0.23731
-0.0083663 -0.016934 0.00076907 0.00054832
0.0015021 0.0026386 0.002071 0.00084379 0.00053025 -0.00054699 -0.0084044 -0.016921
0.05629 0.22973 -0.003458 -0.014012
0.0017797 -0.0012775 0.0011561 0.00073014 0.00013252 0.00030344 0.00072276 0.000533
-0.0036548 -0.014203 0.074676 0.31494
1400000000 0.24452 0.19924 -0.023669 -0.0079089 0.0053751 0.0034438 -0.0022933 0.00062374
0.0023673 0.00094161 0.00038681 -0.0014928
-0.023598 -0.0079121 0.074984 0.35967 -0.015456 0.01262 0.0013136 0.0012583
0.0012955 -0.00079875 0.0012628 9.3706e-05
0.0054088 0.0034488 -0.015399 0.012721 0.348 0.062481 7.1358e-05 -0.0016513
0.00015566 -0.00041689 0.00029671 0.00013335
-0.0022693 0.0006154 0.0013204 0.0012044 9.8305e-05 -0.001644 0.17167 0.20859
-0.014639 -0.010062 -0.00087682 -0.00027089
0.0023601 0.00093707 0.0012582 -0.00080224 0.00013646 -0.00045102 -0.01467 -0.010036
0.089108 0.22542 -0.01001 -0.0088133
0.00035247 -0.0015491 0.0012709 0.00013875 0.00032893 0.0001754 -0.00095582 -0.00026545
-0.010042 -0.0088363 0.1198 0.30446
1460000000 0.26826 0.15584 -0.020655 0.0045582 0.0058882 -0.0017404 -0.0015944 0.0017728
0.0021519 -0.00043528 -0.00032311 -0.0010049
-0.020646 0.0045318 0.10955 0.33817 -0.0063411 0.015896 0.0016507 0.00021858
0.00085034 -0.0013968 0.0012647 -0.00064906
0.0059263 -0.0017694 -0.0063067 0.015958 0.35475 0.008806 -0.0012147 -0.0012665
0.00011921 -0.00021878 0.0006144 -0.00025589
-0.0015597 0.0018088 0.0016626 0.00019742 -0.0012446 -0.0012689 0.19848 0.17904
-0.015848 -0.0033168 -0.00096023 0.0021005
0.0021028 -0.00048981 0.00083035 -0.0013817 0.00014259 -0.00022848 -0.015863 -0.0032926
0.1189 0.21106 -0.012285 -0.0030243
-0.00034945 -0.0010008 0.0012451 -0.00067137 0.0006073 -0.0002922 -0.00079413 0.0022177
-0.012262 -0.0029727 0.15293 0.28396
1520000000 0.2812 0.11462 -0.015053 0.010248 0.003532 -0.0043664 3.2393e-05 0.002617
0.0020526 -0.0018712 -0.0012031 -0.0001724
-0.015053 0.010223 0.1434 0.32411 0.0016063 0.013579 0.0016471 -0.00074804
-9.1218e-07 -0.001057 0.00036178 -0.001049
0.0035015 -0.0043962 0.0016951 0.013595 0.34856 -0.047081 -0.0010331 -0.00032546
0.00071361 -0.00085887 0.00012568 -0.00016723
4.5113e-05 0.0025965 0.0016572 -0.00074893 -0.0010285 -0.00032859 0.22174 0.14073
-0.015216 0.0026223 0.0015704 0.0020549
0.0020926 -0.0019444 1.0856e-06 -0.0010358 0.00069843 -0.00084255 -0.015221 0.0026477
0.14715 0.19785 -0.011993 0.0017051
-0.0012229 -0.00016964 0.00035282 -0.0010304 0.00016828 -0.00017484 0.0015503 0.0020503
-0.011981 0.0016633 0.18547 0.26369
1580000000 0.29155 0.068746 -0.0082692 0.013559 -0.00092974 -0.0051817 0.0015815 0.0019166
-0.00013354 -0.0022326 -0.00025977 0.00036015
-0.0082684 0.013555 0.1711 0.29973 0.0055096 0.0084817 0.00056794 -0.0015259
-0.00054664 -0.0010214 -0.00014825 -0.00083479
-0.00098194 -0.0051276 0.005572 0.0084468 0.32944 -0.10461 -0.0016315 0.00058727
-0.00032686 -0.0011188 0.00028037 -0.00056659
0.0015869 0.0019449 0.00055611 -0.0015299 -0.0015994 0.00063252 0.23554 0.10112
-0.011758 0.0076655 0.0022741 0.00079792
-0.00012888 -0.002198 -0.00054471 -0.0010389 -0.00027573 -0.0011053 -0.011744 0.0076921
0.1714 0.18031 -0.0094223 0.0073346
-0.00023639 0.0003078 -0.00015777 -0.00083258 0.0002563 -0.00061139 0.0023367 0.0007637
-0.0093809 0.0073444 0.21751 0.2376
1640000000 0.29433 0.027642 -0.0014214 0.012393 -0.0028989 -0.0027337 0.0027828 0.0010825
-0.0008022 -0.0015418 -0.00040568 0.00060059
-0.0014171 0.012386 0.20104 0.27518 0.0062865 0.003534 -0.00058953 -0.0017842
-0.00099196 -0.00040585 -0.00060158 -0.00066202
-0.0028925 -0.0027121 0.0062764 0.0034952 0.30137 -0.15378 -0.00063027 0.0014731
-0.00098955 -0.0009806 -0.00016804 -0.00034861
0.0028086 0.0010584 -0.00060346 -0.001819 -0.00062612 0.0014162 0.24791 0.0522
-0.0074796 0.0090913 0.0025269 -0.00070411
-0.00079469 -0.0015763 -0.00099432 -0.00038865 -0.00091272 -0.00097354 -0.0074869 0.009121
0.19481 0.15633 -0.0047522 0.0096109
-0.00038595 0.00062863 -0.00058253 -0.00065869 -0.00011721 -0.0003032 0.0024596 -0.00065959
-0.0047286 0.0094754 0.24361 0.20651
1700000000 0.28787 -0.017631 0.0020602 0.0095387 -0.0036068 1.8269e-05 0.0031441 -0.0012763
-0.0020393 -0.00075569 0.00056851 0.00054567
0.0020339 0.0095222 0.21954 0.24398 0.0040778 0.00035629 -0.0014666 -0.00062366
-0.00077685 1.5708e-05 -0.00089017 -0.00049228
-0.0036659 2.1549e-05 0.0040868 0.00032372 0.2584 -0.19409 0.00042023 0.0016197
-0.0020232 -0.00010853 -0.00022675 -0.00082895
0.0031273 -0.0013181 -0.0014703 -0.00060804 0.00044014 0.0016437 0.2445 0.002355
-0.0045005 0.0096299 0.0015767 -0.0022469
-0.0019389 -0.00074389 -0.00078243 3.8102e-05 -0.0020539 -0.0001202 -0.0044871 0.0096447
0.21252 0.13652 -5.2223e-05 0.0097475
0.00062349 0.00045147 -0.00091802 -0.00051734 -0.00032076 -0.00093409 0.0016056 -0.0022393
-4.2031e-05 0.009848 0.25992 0.17231
1760000000 0.27666 -0.066387 0.0044652 0.0062669 -0.0023804 0.0010282 0.0013128 -0.0034455
-0.001404 0.00064463 0.00039552 -0.00053576
0.0044381 0.0062673 0.24603 0.20447 0.001682 -0.0015082 -0.0012552 0.00013169
-0.0010708 0.00088113 -0.00065196 0.00036386
-0.0023559 0.0010287 0.001661 -0.0015177 0.21054 -0.22739 0.0011038 0.0010162
-0.0012761 0.0014078 -0.0012608 -0.00056836
0.0012784 -0.0034178 -0.001268 0.00010657 0.0010659 0.0010469 0.23559 -0.049077
-0.0010811 0.0087503 -0.00018699 -0.0025259
-0.0014709 0.00066872 -0.0010592 0.00086269 -0.0012744 0.0014129 -0.0010856 0.0087414
0.22772 0.10207 0.0039537 0.0072165
0.00040724 -0.00046124 -0.00064961 0.00040797 -0.0012423 -0.00063547 -0.00016583 -0.0024427
0.0038931 0.007273 0.27269 0.13512
1820000000 0.25253 -0.10412 0.0045391 0.002639 -0.00027311 0.002407 -0.0010505 -0.0031644
-0.001225 0.00095217 8.8569e-05 -0.0001427
0.004544 0.0026415 0.25661 0.17444 -0.00063076 -0.000291 -0.0013979 0.00083469
-6.2526e-05 0.0011647 -0.00065061 0.00052554
-0.0002259 0.0024622 -0.00063228 -0.00029798 0.1597 -0.24333 0.0015591 0.00039814
-0.00022235 0.0022863 -0.0014549 0.00034059
-0.0010014 -0.0031018 -0.0013654 0.00089228 0.0016426 0.00039483 0.20554 -0.096106
0.00041253 0.0075201 -0.001498 -0.0017019
-0.0012386 0.00099249 -5.375e-05 0.0012065 -0.00018854 0.0023314 0.00048272 0.0075072
0.24524 0.073535 0.0050664 0.0037038
2.4855e-05 -3.6707e-05 -0.00064022 0.0005073 -0.0014659 0.00038149 -0.0014998 -0.0017689
0.0050971 0.0037542 0.27541 0.09896
1880000000 0.21781 -0.14475 0.0023563 0.00020897 -0.00053624 0.002246 -0.002832 -0.0021235
-0.00041883 0.0019148 4.4607e-06 -0.00061063
0.0023587 0.00021381 0.26154 0.12788 -0.0026246 0.0015794 -0.00027233 0.0018436
0.00047383 0.0013571 4.1714e-05 0.0009742
-0.00053112 0.0022335 -0.0025762 0.0016129 0.10758 -0.25263 0.0017161 -0.00086427
0.0015871 0.0020736 -0.001026 0.0014912
-0.002929 -0.0021612 -0.00029646 0.0018106 0.0016184 -0.00082636 0.16531 -0.13659
0.0015188 0.0053305 -0.0025719 0.00017675
-0.00037276 0.0018559 0.00046558 0.001282 0.0015249 0.001997 0.0014827 0.0053127
0.24943 0.042203 0.0051131 0.0012558
-3.8446e-05 -0.00069414 5.6966e-05 0.00095298 -0.00093165 0.0014254 -0.0025536 0.00023274
0.0051171 0.0012475 0.2759 0.06514
1940000000 0.17873 -0.17089 7.0673e-07 -0.0014184 0.0013143 0.002113 -0.0036481 0.00046803
0.001339 0.0012312 -0.00062099 -0.0006366
-3.2004e-06 -0.0013963 0.26264 0.096013 -0.0013263 0.0040264 0.001 0.0015272
0.0017679 0.00059797 0.00099215 0.00041094
0.0013666 0.002088 -0.0013094 0.0040516 0.062839 -0.24566 0.00039441 -0.0020733
0.0022938 0.00051391 0.00063762 0.0017054
-0.0037117 0.0004622 0.0010353 0.0015163 0.00041326 -0.0020231 0.11279 -0.16701
0.00077663 0.0041343 -0.0016059 0.0015631
0.0013358 0.0011609 0.0017901 0.00059647 0.0022871 0.00058213 0.00082429 0.0041558
0.25296 0.0042388 0.0040185 -0.0019838
-0.00057206 -0.00058754 0.00099912 0.00039913 0.00053786 0.0016469 -0.0016599 0.0015225
0.0040138 -0.002031 0.2653 0.028587
2000000000 0.13248 -0.18606 -0.0037814 0.00055506 0.0027364 0.0014712 -0.0022559 0.0037408
0.0013964 0.00047037 -0.00049927 0.00070982
-0.0038176 0.0005826 0.24872 0.06024 -0.00090818 0.0058071 0.001764 0.00051913
0.0014021 -0.00098771 0.00053933 0.00026091
0.0027723 0.0015306 -0.000861 0.0058332 0.019274 -0.23206 -0.00095179 -0.0014558
0.0022415 -0.0011567 0.0017938 0.0013866
-0.0022013 0.003836 0.0017628 0.00052829 -0.00097319 -0.0013877 0.059568 -0.17697
-0.0004619 0.0036878 0.0001166 0.0022011
0.0013998 0.00046357 0.0014437 -0.0010075 0.0022064 -0.0011565 -0.00045237 0.0036917
0.2485 -0.029041 0.00052665 -0.0029533
