!Keysight Technologies,M9804A,MY58100912,A.14.10.03
!Date: Thursday, April 27, 2023 10:28:33
!Correction: S11(C  6-Port  ) 
!S12(C  6-Port  ) 
!S13(C  6-Port  ) 
!S14(C  6-Port  ) 
!S15(C  6-Port  ) 
!S16(C  6-Port  ) 
!S21(C  6-Port  ) 
!S22(C  6-Port  ) 
!S23(C  6-Port  ) 
!S24(C  6-Port  ) 
!S25(C  6-Port  ) 
!S26(C  6-Port  ) 
!S31(C  6-Port  ) 
!S32(C  6-Port  ) 
!S33(C  6-Port  ) 
!S34(C  6-Port  ) 
!S35(C  6-Port  ) 
!S36(C  6-Port  ) 
!S41(C  6-Port  ) 
!S42(C  6-Port  ) 
!S43(C  6-Port  ) 
!S44(C  6-Port  ) 
!S45(C  6-Port  ) 
!S46(C  6-Port  ) 
!S51(C  6-Port  ) 
!S52(C  6-Port  ) 
!S53(C  6-Port  ) 
!S54(C  6-Port  ) 
!S55(C  6-Port  ) 
!S56(C  6-Port  ) 
!S61(C  6-Port  ) 
!S62(C  6-Port  ) 
!S63(C  6-Port  ) 
!S64(C  6-Port  ) 
!S65(C  6-Port  ) 
!S66(C  6-Port  ) 
!S6P File: Measurement: :
# Hz S  RI   R 50
500000000 -0.3353 -0.053925 -0.011093 -0.00091909 -0.008946 0.013862 -0.0047259 0.012223
0.012472 0.0054137 -0.0046535 0.0083264
-0.01069 -0.0014422 -0.41681 -0.063907 0.00799 -0.010334 0.00095421 0.012264
0.0074201 0.0029604 0.00063279 0.014002
-0.0084777 0.013784 0.0079735 -0.010447 -0.26783 0.19917 0.0065968 0.0038215
-0.0018515 0.0086988 0.00049446 0.012554
-0.0051474 0.011853 0.00090629 0.012291 0.0066452 0.0038857 -0.33339 0.043311
-0.018129 -0.0052261 0.014366 0.02519
0.013155 0.0054947 0.0076069 0.002953 -0.0017631 0.008697 -0.018107 -0.0052002
-0.24814 -0.19555 -0.025082 0.0043025
-0.0048627 0.0077691 0.00052138 0.014203 0.00042507 0.012588 0.014573 0.025323
-0.025023 0.0044832 -0.2749 -0.12369
560000000 -0.32016 0.11291 -0.023618 -0.065244 0.00084851 0.013124 0.0048226 0.010823
0.010886 0.0047264 0.009156 0.0086772
-0.023657 -0.065117 -0.37587 0.098877 -0.041978 -0.037657 0.013153 0.0027732
-0.013385 -0.0036012 0.0034034 -0.0019421
0.0005288 0.013204 -0.041976 -0.037348 -0.18582 0.25103 -0.00013988 -0.004651
0.018545 0.0051025 0.0080389 -0.0058031
0.0045315 0.010805 0.013046 0.0032657 -0.00031176 -0.0047497 -0.30789 0.13538
0.0050631 -0.022611 0.0053032 -0.02157
0.010889 0.0046886 -0.013132 -0.0034038 0.018131 0.0051309 0.0051333 -0.022606
-0.31082 -0.016832 0.007639 -0.047884
0.009601 0.0086613 0.0028783 -0.001832 0.0084061 -0.0062057 0.0049647 -0.021584
0.0073206 -0.047901 -0.33092 0.025388
620000000 -0.27919 0.093508 -0.023622 0.0090229 0.0041884 0.009532 0.0083806 -0.0045917
0.011807 -0.0012176 0.00039115 -0.0022824
-0.023551 0.0090846 -0.40399 0.049011 -0.018394 0.0010174 -0.0015516 -0.0020512
0.012383 -0.0063329 0.00093202 -0.0029556
0.0041614 0.0096103 -0.018461 0.0011467 -0.1557 0.26103 -0.00058793 -0.0050605
-0.0029252 -0.0030142 0.009087 -0.0026825
0.0081035 -0.0047307 -0.0013582 -0.0018795 -0.00058433 -0.0051264 -0.26543 0.14478
-0.039332 -0.017516 0.013627 0.026206
0.011975 -0.0011762 0.012071 -0.0065136 -0.0027954 -0.0029358 -0.039315 -0.017556
-0.23143 -0.052467 -0.043026 0.014801
-4.6086e-07 -0.0018071 0.0010806 -0.0026241 0.009453 -0.002741 0.013796 0.026459
-0.043037 0.014568 -0.25052 -0.0083182
680000000 -0.23938 0.18421 -0.026396 -0.013964 0.0054123 0.0053498 0.0011627 -0.0072723
-0.0012117 -0.012339 0.0058338 -0.0077544
-0.026424 -0.014107 -0.38991 0.15035 -0.032253 -0.001776 -0.0015975 -0.00077382
-0.0014875 -0.0093314 -0.00074563 -0.0019116
0.0053569 0.0051877 -0.0323 -0.0017272 -0.10366 0.28106 -0.0010103 -0.00057435
-0.0016251 0.00023511 -0.0025806 -0.0093034
0.0015963 -0.0071341 -0.0014083 -0.00066454 -0.0010908 -0.00063214 -0.22095 0.19782
-0.023892 -0.0074497 -0.0089718 -0.011235
-0.0017654 -0.012539 -0.0014929 -0.0093401 -0.0015447 0.00025934 -0.023908 -0.0073788
-0.27987 0.052818 -0.0080779 -0.0083601
0.005778 -0.0078776 -0.0008764 -0.001849 -0.0025578 -0.0091532 -0.0091979 -0.011215
-0.0082329 -0.0082504 -0.26017 0.097253
740000000 -0.19318 0.178 -0.039144 0.027096 0.013769 -0.0047755 -2.0383e-05 -0.0044717
-0.0045661 -0.003087 -0.0064162 0.0032706
-0.038993 0.026822 -0.33535 0.16852 -0.036782 0.034995 -0.0005826 -0.0062099
-0.011878 0.0076263 -0.0015264 -0.0063289
0.013824 -0.0049398 -0.036785 0.035231 -0.069857 0.27754 -0.0019622 0.0031638
-0.0029607 -0.0062358 -0.0012092 0.001653
-0.00010711 -0.004396 -0.00055721 -0.0061651 -0.00194 0.0031505 -0.20357 0.20466
-0.042738 -0.0073937 0.022479 0.015386
-0.0040653 -0.0033176 -0.011866 0.0074818 -0.0028783 -0.0061764 -0.042779 -0.0072999
-0.18055 0.081562 -0.041189 0.00068717
-0.0067916 0.0032148 -0.0016647 -0.0064943 -0.0011253 0.0015782 0.022638 0.015336
-0.041316 0.00069761 -0.24941 0.10223
800000000 -0.16142 0.22132 -0.02215 0.016329 0.006085 -0.010745 -0.0043077 -0.0018679
-0.0048318 0.0025291 0.0044286 0.00061248
-0.022082 0.016331 -0.34123 0.23903 -0.0084799 0.034354 -0.0023387 0.0021616
-0.0015319 0.0030992 0.0011694 0.0053353
0.006025 -0.010834 -0.0083873 0.034358 -0.031517 0.30189 0.00082798 0.0014782
0.00010629 0.0036773 -0.0017109 0.00065151
-0.0041709 -0.0020127 -0.002328 0.0020621 0.00085788 0.0015081 -0.17402 0.2325
-0.028691 0.013763 0.014409 -0.010045
-0.0049541 0.0025223 -0.0015172 0.0031635 0.00015893 0.003685 -0.028706 0.013771
-0.22143 0.10983 -0.01729 0.019869
0.0047823 0.00034117 0.0013057 0.0052761 -0.0016035 0.00060533 0.014476 -0.0099261
-0.017288 0.020032 -0.23936 0.15072
860000000 -0.12672 0.24125 -0.017397 0.030393 -0.002645 -0.010624 -0.0019271 0.00070844
0.0038522 0.0054417 -0.0033438 -0.0028897
-0.01743 0.030377 -0.29253 0.28201 0.007744 0.034777 0.00019354 0.0019559
0.0040436 0.00084065 0.0033056 0.00045266
-0.0027055 -0.010602 0.0078265 0.034873 0.015898 0.3106 -0.00050469 -4.4511e-05
0.0023138 -0.0013531 0.0018491 0.0040047
-0.001776 0.00066437 0.00017354 0.0020025 -0.00050165 1.768e-07 -0.13743 0.24247
-0.018329 0.018274 -0.0055063 -0.0087439
0.0039919 0.005458 0.0040472 0.00081857 0.0023066 -0.0013719 -0.018248 0.0183
-0.16424 0.16108 -0.023645 0.01657
-0.0035312 -0.0030723 0.0032539 0.0004535 0.0017658 0.0040051 -0.0055147 -0.008792
-0.023731 0.016607 -0.18906 0.19472
920000000 -0.10311 0.26395 0.004887 0.038214 -0.0094339 -0.0053746 -0.0016516 0.0016189
0.0014361 0.0016471 0.0029414 -0.0014118
0.0049019 0.038124 -0.26605 0.30284 0.028478 0.02288 0.0015565 0.0013592
0.0078484 -0.00066567 0.0041813 -0.002987
-0.0093795 -0.0053906 0.028602 0.022786 0.061312 0.31215 0.002049 -5.7821e-05
0.0012287 -0.0004612 0.0010738 -0.0014628
-0.0017144 0.0016373 0.0015392 0.0012807 0.0020052 -2.4761e-05 -0.11288 0.25965
-0.01091 0.030499 0.003513 -0.0068235
0.0014531 0.0017137 0.0077481 -0.00056803 0.0011984 -0.00044887 -0.010868 0.030547
-0.15429 0.16547 -0.0015748 0.025908
0.0030449 -0.0014572 0.0043084 -0.0029661 0.0010089 -0.0014521 0.0035092 -0.0068873
-0.0015488 0.02593 -0.19697 0.20931
980000000 -0.056859 0.28404 0.016989 0.029974 -0.0098013 0.0039819 0.0016287 0.0034029
0.0038778 -0.0018003 -0.0027778 -0.0023313
0.016956 0.029969 -0.21303 0.33773 0.033858 0.0053002 0.00199 -0.00020722
0.0017885 -0.0062267 -0.00013315 -0.0024656
-0.0097778 0.0040898 0.033922 0.0052071 0.10721 0.30695 0.00071531 -0.0012087
0.00044578 -0.0020065 0.0015519 -0.00018328
0.0016288 0.003356 0.0020119 -0.00018765 0.00070944 -0.0012319 -0.075013 0.27075
0.0076926 0.030333 -0.0090246 -0.0073399
0.0038994 -0.0018052 0.001767 -0.006289 0.00045628 -0.0020451 0.0077663 0.030338
-0.12081 0.19602 0.0068049 0.019653
-0.0027834 -0.0023309 -0.00019428 -0.0025192 0.0015517 -0.00024064 -0.0090136 -0.0073362
0.0067664 0.019687 -0.15326 0.2515
1040000000 -0.015915 0.293 0.033078 0.018842 -0.0018944 0.0071768 0.0025729 0.0008269
0.00052105 -0.003392 -0.00035483 -0.0017922
0.033031 0.018834 -0.17832 0.35153 0.030384 -0.014948 0.0016674 -0.0017513
-0.0023734 -0.00278 -0.0010249 -0.0029216
-0.0018466 0.0072097 0.03037 -0.015044 0.15349 0.2942 -0.00050216 -0.0016693
-0.0016597 -0.00098954 -0.00065338 -0.0011878
0.0025597 0.00079194 0.0016443 -0.0017622 -0.00050311 -0.0016722 -0.047207 0.28047
0.020005 0.01901 -0.0028056 0.00089401
0.0004879 -0.0034431 -0.0023964 -0.002733 -0.0016616 -0.00097314 0.020045 0.018977
-0.087489 0.20176 0.013736 0.017978
-0.00033451 -0.0017178 -0.0010836 -0.0028471 -0.00065372 -0.0011883 -0.002832 0.00087252
0.013711 0.01794 -0.1309 0.27302
1100000000 0.028749 0.30232 0.036609 -0.0037231 0.0027452 0.004315 0.0023779 -0.00097363
-0.0020795 -0.0030938 -0.0040108 1.5348e-05
0.036593 -0.0036651 -0.13543 0.37009 0.015967 -0.028644 4.1292e-05 -0.0018963
-0.003893 -0.0010302 -0.0036534 -0.00046889
0.0027521 0.0043127 0.015875 -0.028744 0.20023 0.27477 -0.0019703 0.0001282
-0.0019141 0.00055748 -0.0010922 -0.00036858
0.0023765 -0.00097943 6.938e-05 -0.0018764 -0.0019664 0.00012011 -0.0069958 0.28555
0.025985 0.0051781 -0.0026192 -9.6034e-05
-0.002054 -0.0030479 -0.0039155 -0.00095494 -0.0019225 0.00055528 0.025995 0.0051365
-0.066897 0.2154 0.019844 0.0079701
-0.0041406 -4.5788e-05 -0.0036763 -0.00045864 -0.0011157 -0.0003686 -0.0025767 -9.3948e-05
0.019839 0.007975 -0.08579 0.30134
1160000000 0.079714 0.29864 0.024565 -0.021121 0.0027753 -0.0004001 -4.8754e-05 -0.0022587
-0.0039152 -0.00093994 -0.0010673 0.004237
0.024515 -0.021119 -0.091865 0.3753 -0.0036302 -0.030231 -0.0016876 -0.0018184
-0.0028628 0.0027343 -0.0014592 0.0019263
0.0027593 -0.00036064 -0.0037612 -0.030228 0.24395 0.2442 -0.00082673 0.0018866
-0.00057363 0.0021053 -0.00092523 0.00025744
-5.6348e-05 -0.0022868 -0.0016964 -0.001811 -0.00081947 0.001893 0.032589 0.28303
0.022164 -0.011369 -0.0035411 0.0051148
-0.0039459 -0.00090428 -0.0028572 0.0027679 -0.00058143 0.0021114 0.022168 -0.011396
-0.032564 0.22283 0.018939 -0.0010386
-0.0010367 0.0042795 -0.0014652 0.0018841 -0.0009184 0.00026234 -0.0035847 0.0051421
0.018939 -0.0010339 -0.038593 0.30426
1220000000 0.12369 0.28898 0.010803 -0.030793 -0.0016782 -0.00081115 0.00014663 -0.00086984
-0.0027878 0.0021604 0.001219 0.0021414
0.010814 -0.030774 -0.04724 0.38858 -0.017637 -0.02216 -0.0027113 0.00050665
0.00012789 0.0033197 -0.00076563 0.0020169
-0.0016975 -0.00082418 -0.01776 -0.022113 0.28302 0.20493 0.00080753 0.0018614
0.00071561 0.0013026 0.0003492 0.00061957
0.00014388 -0.00086688 -0.0027058 0.00052635 0.00081954 0.0018428 0.072775 0.27423
0.010906 -0.018582 0.001891 0.0014839
-0.0028194 0.002159 9.9215e-05 0.0033272 0.00070827 0.001298 0.010886 -0.018602
-0.0091225 0.23142 0.013991 -0.013966
0.0012022 0.0020957 -0.00077726 0.0020249 0.00035803 0.00061587 0.0019036 0.001456
0.013999 -0.013893 -0.0063609 0.31913
1280000000 0.17436 0.26892 -0.0083876 -0.02931 -0.0020706 0.0027596 -0.00069807 -0.0021407
-0.00083034 0.0032954 0.0026522 0.0013302
-0.0083364 -0.029276 -0.00051691 0.3805 -0.024981 -0.0087743 -0.0010092 0.0015497
0.0019568 0.0018673 0.00072033 0.0020783
-0.0020256 0.0027476 -0.025052 -0.0086734 0.31329 0.16116 0.0017544 -7.0905e-06
0.0013481 0.0002783 0.00040615 0.00024663
-0.00072288 -0.0021295 -0.0010178 0.0015784 0.0017413 4.0158e-06 0.10977 0.25797
0.00032136 -0.020814 -0.00030117 0.00045235
-0.00081972 0.003314 0.0019811 0.0018366 0.0013446 0.00029302 0.00027473 -0.020803
0.027696 0.23498 0.0028286 -0.016278
0.0025877 0.0013517 0.00072827 0.002113 0.00041092 0.00022973 -0.00030145 0.00047478
0.0028201 -0.016324 0.040229 0.32083
1340000000 0.21206 0.23593 -0.018491 -0.019113 0.00088205 0.0049293 -0.0017525 -0.00095253
0.0014362 0.0027648 0.0018992 -0.0014526
-0.01845 -0.019124 0.039519 0.37225 -0.022477 0.0047139 1.7642e-05 0.0020665
0.0021886 0.00066482 0.0013648 0.00075196
0.00089616 0.0049476 -0.02248 0.0048128 0.33462 0.11398 0.0012354 -0.0010597
0.00072881 -0.00066805 6.071e-05 0.00026934
-0.001771 -0.0010176 2.6145e-05 0.0020588 0.0012458 -0.0010302 0.143 0.2369
-0.0098914 -0.017467 0.00052721 0.00082333
0.0014018 0.0027133 0.0022202 0.00066122 0.00072333 -0.00066102 -0.0099332 -0.017473
0.057932 0.2302 -0.0047096 -0.014763
0.0018823 -0.0014957 0.0013797 0.00074039 5.0312e-05 0.00029614 0.00053264 0.00081205
-0.0047073 -0.014773 0.078551 0.315
1400000000 0.24613 0.19866 -0.024249 -0.0070147 0.0056549 0.0035458 -0.0023369 0.00057834
0.0026127 0.0010706 0.00030598 -0.0016512
-0.024214 -0.0070156 0.077188 0.35935 -0.015362 0.013331 0.0014675 0.0012549
0.0012983 -0.00098083 0.0012278 3.8313e-05
0.0056623 0.0035419 -0.015316 0.013416 0.34746 0.061442 3.0469e-06 -0.0018002
0.00011875 -0.00051422 0.00032113 0.00017809
-0.0023068 0.00060235 0.0014789 0.0012479 -2.2633e-05 -0.0017989 0.17235 0.2078
-0.016188 -0.0096738 -0.0007944 0.0001254
0.0025804 0.0009806 0.0013023 -0.00099501 0.00010103 -0.00051942 -0.016224 -0.0096316
0.09122 0.22563 -0.011374 -0.0089501
0.0003162 -0.0016423 0.001235 2.957e-05 0.00030165 0.0001477 -0.00078286 0.00013806
-0.011389 -0.0089517 0.12249 0.30373
1460000000 0.26981 0.15476 -0.020679 0.0057205 0.0062105 -0.0018782 -0.0016288 0.0018541
0.0023087 -0.00056336 -0.00046103 -0.0010171
-0.020664 0.0056916 0.11162 0.33713 -0.0058746 0.016371 0.0017067 6.1495e-05
0.00075291 -0.0015194 0.0011844 -0.0006638
0.0062141 -0.0018936 -0.0057986 0.016421 0.3541 0.0084518 -0.0013674 -0.0012759
0.00014816 -0.00023045 0.0007803 -0.00031284
-0.0016418 0.0018441 0.0017143 5.2618e-05 -0.0013633 -0.0012951 0.19898 0.1782
-0.017104 -0.0020432 -0.00061696 0.0023533
0.0023303 -0.00056815 0.00072121 -0.0015318 0.00013828 -0.00023559 -0.017131 -0.0020091
0.12092 0.21137 -0.013151 -0.0025078
-0.00043902 -0.0010417 0.0011966 -0.00065487 0.00074509 -0.00030522 -0.00058842 0.0023392
-0.013129 -0.0025219 0.15583 0.28294
1520000000 0.28243 0.11298 -0.014502 0.011169 0.0037348 -0.0045542 8.9616e-05 0.0027622
0.002156 -0.0020225 -0.001177 -0.00016336
-0.014502 0.011149 0.14483 0.32254 0.0022418 0.013643 0.0016112 -0.00083551
-0.00011605 -0.0010511 0.00028154 -0.0010732
0.0036966 -0.0045591 0.0023091 0.013644 0.348 -0.046892 -0.001165 -0.00023521
0.00061745 -0.00091896 2.2815e-05 -0.00019614
0.00012497 0.0027555 0.0015912 -0.0008632 -0.0011846 -0.00024441 0.22168 0.13967
-0.015624 0.0044302 0.0018317 0.0022443
0.0021655 -0.0020364 -0.00012586 -0.0010752 0.00062495 -0.00092542 -0.015607 0.0044755
0.14933 0.19772 -0.012562 0.0026296
-0.0011967 -0.00012493 0.00026666 -0.0010787 6.3967e-05 -0.000216 0.0018207 0.0022109
-0.012566 0.0026148 0.18802 0.26209
1580000000 0.29234 0.06677 -0.0072653 0.01407 -0.00090184 -0.0054555 0.0016181 0.0019684
-0.00029394 -0.0023941 -0.00024052 0.00043833
-0.0072542 0.014033 0.17182 0.29803 0.0060008 0.0082507 0.0004585 -0.0015708
-0.00066354 -0.00088902 -0.00021324 -0.0008549
-0.00089574 -0.0054721 0.0060591 0.0082416 0.32929 -0.10426 -0.0016254 0.00069577
-0.00043131 -0.0012849 0.00028555 -0.00065918
0.0015822 0.0019675 0.00045097 -0.0015815 -0.0016232 0.00072046 0.23513 0.1003
-0.011013 0.0092741 0.002438 0.00055401
-0.00028146 -0.0023974 -0.00066513 -0.00088749 -0.00042352 -0.0012854 -0.011003 0.0093116
0.17389 0.17972 -0.0096219 0.0083935
-0.00025392 0.0004343 -0.00021165 -0.00086417 0.00028856 -0.00065842 0.0024607 0.000553
-0.0096384 0.0084005 0.21957 0.23579
1640000000 0.2945 0.025569 -0.00039345 0.012304 -0.0031051 -0.0029364 0.0029112 0.0010236
-0.00097992 -0.0015914 -0.00028077 0.00059136
-0.00039724 0.012298 0.20116 0.27356 0.0064513 0.0030998 -0.00064764 -0.0017174
-0.00095568 -0.0002635 -0.00058944 -0.00065264
-0.0030758 -0.0028652 0.0064629 0.0030632 0.30147 -0.1535 -0.00049012 0.0015843
-0.0012091 -0.00083114 -0.00020078 -0.00019473
0.0028982 0.00097777 -0.00065353 -0.0017158 -0.00049387 0.0015855 0.24724 0.05165
-0.0059955 0.010012 0.0027186 -0.00083108
-0.00099222 -0.0015966 -0.00096514 -0.00026204 -0.0012192 -0.00082177 -0.0059614 0.010023
0.19715 0.15532 -0.0043769 0.010619
-0.00029569 0.00062348 -0.00060585 -0.00063839 -0.00019662 -0.00020368 0.002721 -0.0008344
-0.0043565 0.010604 0.24529 0.20498
1700000000 0.28739 -0.019289 0.0028664 0.00889 -0.0039396 -0.00016019 0.0031583 -0.0013491
-0.0021365 -0.00050225 0.00058269 0.00042034
0.0028477 0.0088796 0.21915 0.24272 0.0041577 -1.6973e-05 -0.0014946 -0.00051915
-0.00068229 3.1842e-05 -0.00094032 -0.00042314
-0.0039943 -0.00013453 0.0041643 -5.7268e-05 0.25914 -0.1935 0.00054205 0.0015554
-0.0020155 2.7509e-05 -0.00046824 -0.00090266
0.0031555 -0.0013849 -0.0014846 -0.00052921 0.00054466 0.0015861 0.24357 0.0024519
-0.0029404 0.0095984 0.0016782 -0.0024994
-0.0021331 -0.00050642 -0.00067119 2.111e-05 -0.0020097 2.6985e-05 -0.0029336 0.0096223
0.21454 0.13487 0.00073311 0.010371
0.00060227 0.00039576 -0.00095412 -0.00041473 -0.00050886 -0.00090653 0.0016659 -0.002494
0.00070904 0.010374 0.26147 0.17087
1760000000 0.2759 -0.067504 0.0046797 0.0053483 -0.0027255 0.0010597 0.0012671 -0.0035526
-0.0013676 0.00084482 0.00026299 -0.00057261
0.0046764 0.0053456 0.24548 0.20378 0.0015203 -0.0019072 -0.0011842 0.00019315
-0.0010198 0.00079296 -0.00061333 0.00038061
-0.0027328 0.0010616 0.001531 -0.0019161 0.21125 -0.22758 0.0010795 0.0010204
-0.0012816 0.0015067 -0.0012988 -0.00070769
0.00126 -0.0035742 -0.0012005 0.00020566 0.0010683 0.0010182 0.23508 -0.048448
2.8663e-05 0.0079982 -2.3482e-05 -0.002755
-0.0013729 0.00082802 -0.001028 0.00079566 -0.0012982 0.0014949 5.6292e-05 0.0079927
0.22941 0.10018 0.004951 0.0075988
0.00023992 -0.00051268 -0.00060559 0.00038391 -0.0012949 -0.0006709 -5.9333e-05 -0.0028034
0.0049698 0.0075536 0.27445 0.13346
1820000000 0.25178 -0.10495 0.0043338 0.0018001 -0.00026552 0.0027649 -0.0010114 -0.0031062
-0.00095344 0.0011212 -0.00010787 -4.6753e-05
0.0043115 0.001805 0.25611 0.17415 -0.00087242 -0.00042891 -0.001288 0.00093095
-0.00013415 0.0011744 -0.00057176 0.00053686
-0.00023075 0.0027329 -0.00085897 -0.00044072 0.16042 -0.24355 0.0015264 0.00040387
-0.00010229 0.0024659 -0.0015336 0.00048872
-0.0010171 -0.0031301 -0.0012858 0.00093972 0.0015536 0.00038662 0.20559 -0.095402
0.00093789 0.0063825 -0.0016336 -0.0017778
-0.00092466 0.0011383 -0.00012163 0.001162 -7.749e-05 0.0024534 0.00094013 0.0063993
0.24646 0.071237 0.0058212 0.0035787
-5.3167e-05 6.4132e-06 -0.00057649 0.00056746 -0.0015462 0.00049009 -0.0015821 -0.0017459
0.0058031 0.0035859 0.27661 0.097032
1880000000 0.21707 -0.14514 0.0018098 -0.00024174 -0.00057419 0.0023848 -0.0030839 -0.002134
-6.9684e-05 0.0016566 -8.7526e-06 -0.00054274
0.0017889 -0.00024033 0.2613 0.12807 -0.0027935 0.0015009 -0.00023367 0.0017287
0.00041478 0.0013164 3.9752e-05 0.00093517
-0.00051949 0.0023741 -0.0027978 0.001549 0.10852 -0.25333 0.0018543 -0.00086768
0.0016512 0.001967 -0.00094099 0.0014706
-0.0030509 -0.0021654 -0.0002059 0.0017279 0.0018173 -0.0008699 0.16565 -0.13573
0.0012326 0.0042967 -0.0026287 -7.0991e-05
-9.8993e-05 0.0016374 0.00045401 0.0013096 0.0016284 0.0019553 0.0012362 0.0042593
0.2502 0.039853 0.0061075 0.00076375
-7.0414e-05 -0.00048371 6.5614e-05 0.00092092 -0.00094226 0.0015018 -0.0026239 -9.246e-05
0.0061327 0.00073663 0.27715 0.062773
1940000000 0.17849 -0.17094 -0.00066751 -0.0015141 0.001446 0.0022603 -0.0038101 0.00049904
0.0013091 0.00097356 -0.00043184 -0.00064185
-0.00065707 -0.0015206 0.26277 0.096181 -0.0016486 0.0041113 0.00099503 0.0013005
0.0017727 0.00061596 0.00098763 0.0004458
0.0014506 0.0022287 -0.0016395 0.0041433 0.062824 -0.24668 0.00046339 -0.0021047
0.0024441 0.00029637 0.00064054 0.0017872
-0.0037517 0.00049467 0.0010561 0.0013266 0.00047982 -0.0020938 0.114 -0.1671
0.00037009 0.0032605 -0.0017851 0.0014907
0.0013184 0.00098269 0.0017889 0.00063666 0.0024591 0.00029556 0.00041337 0.0032849
0.25319 0.0017558 0.0043667 -0.0027037
-0.00049335 -0.00063015 0.00098245 0.00041725 0.0006265 0.0018004 -0.0017776 0.0015158
0.0043254 -0.0026825 0.26617 0.026496
2000000000 0.13252 -0.18618 -0.0044069 0.000822 0.0026699 0.0016176 -0.0023286 0.0038711
0.0011584 0.00034895 -0.00067706 0.0005166
-0.0044071 0.00083246 0.24912 0.060385 -0.001094 0.0059404 0.001648 0.00052314
0.0014637 -0.00085618 0.00053141 0.0001629
0.0026823 0.0016011 -0.0010733 0.0059831 0.01909 -0.23302 -0.0011494 -0.0013999
0.0020568 -0.0010248 0.0018182 0.0014699
-0.0022514 0.0039378 0.0016565 0.00054497 -0.0011396 -0.0013889 0.060486 -0.17723
-0.0011511 0.0035067 -0.00039841 0.0022979
0.0011708 0.00033457 0.0014534 -0.00086479 0.0020687 -0.0010281 -0.0011886 0.0034879
0.24811 -0.031043 0.0006346 -0.0038402
