!Keysight Technologies,M9804A,MY58100912,A.14.10.03
!Date: Thursday, April 27, 2023 10:28:33
!Correction: S11(C  6-Port  ) 
!S12(C  6-Port  ) 
!S13(C  6-Port  ) 
!S14(C  6-Port  ) 
!S15(C  6-Port  ) 
!S16(C  6-Port  ) 
!S21(C  6-Port  ) 
!S22(C  6-Port  ) 
!S23(C  6-Port  ) 
!S24(C  6-Port  ) 
!S25(C  6-Port  ) 
!S26(C  6-Port  ) 
!S31(C  6-Port  ) 
!S32(C  6-Port  ) 
!S33(C  6-Port  ) 
!S34(C  6-Port  ) 
!S35(C  6-Port  ) 
!S36(C  6-Port  ) 
!S41(C  6-Port  ) 
!S42(C  6-Port  ) 
!S43(C  6-Port  ) 
!S44(C  6-Port  ) 
!S45(C  6-Port  ) 
!S46(C  6-Port  ) 
!S51(C  6-Port  ) 
!S52(C  6-Port  ) 
!S53(C  6-Port  ) 
!S54(C  6-Port  ) 
!S55(C  6-Port  ) 
!S56(C  6-Port  ) 
!S61(C  6-Port  ) 
!S62(C  6-Port  ) 
!S63(C  6-Port  ) 
!S64(C  6-Port  ) 
!S65(C  6-Port  ) 
!S66(C  6-Port  ) 
!S6P File: Measurement: :
# Hz S  RI   R 50
500000000 -0.33539 -0.052553 -0.01085 -0.00025542 -0.0085922 0.013878 -0.0038738 0.012794
0.012346 0.0059815 -0.0039493 0.008712
-0.010787 -0.00022516 -0.417 -0.063211 0.0078874 -0.010237 0.00173 0.012161
0.0080943 0.0028987 0.0017123 0.014309
-0.0086399 0.013891 0.0078706 -0.010218 -0.26806 0.19948 0.0071599 0.0035207
-0.0015499 0.0085495 0.0010774 0.012192
-0.0039779 0.012782 0.0017092 0.01213 0.007018 0.0034798 -0.33313 0.043256
-0.018289 -0.0052416 0.014861 0.025469
0.012435 0.0057891 0.0079464 0.0027978 -0.0015898 0.008502 -0.018252 -0.0052903
-0.24793 -0.19658 -0.02476 0.0040232
-0.0039938 0.0088646 0.0019465 0.014327 0.001038 0.012256 0.015059 0.025242
-0.024827 0.0038607 -0.27391 -0.12344
560000000 -0.31898 0.11279 -0.023693 -0.065232 0.00052653 0.013423 0.005157 0.010806
0.01051 0.0041546 0.0094277 0.009004
-0.023704 -0.065166 -0.37596 0.09881 -0.041695 -0.037483 0.013178 0.0036034
-0.012788 -0.0030931 0.0033437 -0.00087769
0.00064665 0.013314 -0.04177 -0.037493 -0.18605 0.25142 -0.00032952 -0.0044463
0.018746 0.0048082 0.0079324 -0.0056324
0.0053855 0.010746 0.013317 0.0034794 -0.00030898 -0.0045134 -0.30773 0.13541
0.0049825 -0.022284 0.0053206 -0.0222
0.010282 0.0039457 -0.012925 -0.0028361 0.018757 0.0047677 0.0053169 -0.022475
-0.31011 -0.017295 0.0076757 -0.04728
0.0096661 0.0087299 0.0029387 -0.00098258 0.0079024 -0.0057223 0.0050196 -0.022097
0.0079661 -0.046985 -0.332 0.024502
620000000 -0.27878 0.093811 -0.023291 0.0088701 0.004415 0.0094812 0.008667 -0.0040852
0.011749 -0.0016679 0.00096451 -0.0024029
-0.023291 0.0088495 -0.40383 0.048999 -0.018422 0.0010273 -0.0014295 -0.0018716
0.012459 -0.0062189 0.00098549 -0.002941
0.0044625 0.0094752 -0.018416 0.0010813 -0.15555 0.26089 -0.00047483 -0.005392
-0.003 -0.0027403 0.0095357 -0.0030155
0.0089449 -0.0040262 -0.0012813 -0.0018522 -0.00048012 -0.0053847 -0.26617 0.14506
-0.038392 -0.018149 0.013745 0.02607
0.011388 -0.0017582 0.01226 -0.0061951 -0.0032161 -0.0027409 -0.03858 -0.017806
-0.23311 -0.05172 -0.041981 0.014954
0.0010875 -0.0025083 0.00094348 -0.0029386 0.0095198 -0.0031314 0.013475 0.025657
-0.042243 0.015205 -0.24949 -0.0081195
680000000 -0.23948 0.18406 -0.026674 -0.014225 0.0051018 0.0053889 0.0010414 -0.0075575
-0.0015054 -0.011826 0.0051202 -0.007722
-0.026635 -0.01419 -0.39018 0.15027 -0.03247 -0.0017335 -0.0016808 -0.00078885
-0.0015445 -0.0093615 -0.0012148 -0.0017528
0.0050919 0.005371 -0.03253 -0.0016612 -0.10375 0.28125 -0.00098824 -0.00053395
-0.0017355 0.00039081 -0.0024139 -0.008775
0.00104 -0.007745 -0.0017064 -0.00085178 -0.0010424 -0.00057249 -0.22062 0.19776
-0.024066 -0.0072879 -0.0090817 -0.010748
-0.0015204 -0.011996 -0.001513 -0.0094109 -0.0016954 0.00024422 -0.023995 -0.0073683
-0.28022 0.052563 -0.0087364 -0.0082952
0.005063 -0.0077931 -0.0012331 -0.0018062 -0.0024999 -0.0087894 -0.0090702 -0.010625
-0.0088642 -0.0081839 -0.26258 0.097111
740000000 -0.19307 0.17751 -0.039384 0.02727 0.013985 -0.0050347 8.5693e-05 -0.0042949
-0.0048276 -0.0027711 -0.0057215 0.0032452
-0.039318 0.027228 -0.33543 0.16849 -0.036839 0.034928 -0.00032058 -0.0061365
-0.01252 0.0077153 -0.0014158 -0.0063752
0.013982 -0.0050931 -0.036786 0.035117 -0.069756 0.27765 -0.0020088 0.0032252
-0.002997 -0.0061092 -0.0014878 0.001433
0.00012622 -0.0042804 -0.0002883 -0.0061218 -0.0020622 0.0031743 -0.20321 0.20487
-0.043185 -0.0069559 0.023071 0.015323
-0.0049066 -0.0031147 -0.012367 0.0078385 -0.003095 -0.0060305 -0.043223 -0.0067841
-0.18031 0.081022 -0.041644 0.0011754
-0.0059814 0.0033458 -0.0014068 -0.0064512 -0.001324 0.0014195 0.023118 0.015419
-0.04149 0.001166 -0.24847 0.10143
800000000 -0.16143 0.22126 -0.022284 0.016287 0.0059852 -0.010657 -0.0048005 -0.0018317
-0.0047832 0.0025935 0.0041294 0.0008255
-0.022291 0.016259 -0.34118 0.23922 -0.0085549 0.034275 -0.0025124 0.0020953
-0.0015132 0.0031018 0.0012629 0.0053474
0.00595 -0.01062 -0.0084787 0.034371 -0.031585 0.30205 0.00072256 0.001512
-6.9047e-05 0.0038567 -0.0018379 0.00090365
-0.0049672 -0.0018359 -0.0025886 0.0021313 0.00070543 0.0015026 -0.17409 0.23232
-0.029228 0.01365 0.013829 -0.010084
-0.0046844 0.0025666 -0.0015143 0.0031622 -2.0099e-05 0.0038554 -0.029191 0.013864
-0.22156 0.11022 -0.017767 0.019671
0.0039735 0.00076419 0.0010758 0.0051736 -0.0019117 0.00077759 0.013852 -0.0099412
-0.017836 0.019595 -0.24065 0.15046
860000000 -0.1268 0.24117 -0.017484 0.030171 -0.0027807 -0.010663 -0.001785 0.00039825
0.0037715 0.0052787 -0.0035027 -0.0030745
-0.017482 0.030154 -0.29254 0.28207 0.0076448 0.034851 0.00015097 0.0019196
0.0037881 0.00079279 0.0030413 0.00072325
-0.0028114 -0.010696 0.0077663 0.034848 0.015961 0.31066 -0.00065062 -9.635e-05
0.0024075 -0.0013353 0.0017034 0.0040525
-0.0016288 0.00039024 0.0001951 0.0018909 -0.00065158 -6.9723e-05 -0.13738 0.24282
-0.018208 0.018301 -0.005501 -0.0091888
0.0037553 0.0053567 0.0037471 0.00073141 0.0023652 -0.0013499 -0.018228 0.018215
-0.16436 0.16135 -0.023449 0.01749
-0.0035761 -0.0030829 0.003168 0.0005838 0.0017362 0.0041105 -0.0057319 -0.0091297
-0.023669 0.017336 -0.19084 0.19475
920000000 -0.10311 0.26369 0.0048123 0.038181 -0.0094239 -0.0054576 -0.0016968 0.0017129
0.001542 0.0019054 0.0030109 -0.0013971
0.0048055 0.038178 -0.2658 0.30312 0.028449 0.022846 0.0015222 0.0013905
0.0079404 -0.00037344 0.0039406 -0.0028602
-0.0094512 -0.0054203 0.028557 0.022786 0.061338 0.31211 0.001996 -2.9239e-05
0.0011819 -0.00028468 0.0009236 -0.0014858
-0.0016952 0.0017973 0.0015669 0.0013942 0.0019914 -2.8793e-05 -0.11311 0.25967
-0.010606 0.030697 0.0033609 -0.0067896
0.0015145 0.0018168 0.0079301 -0.00040716 0.001216 -0.00035166 -0.010518 0.030793
-0.15406 0.16556 -0.0015939 0.02671
0.0029786 -0.0014879 0.0039876 -0.0029728 0.00094737 -0.0014924 0.0033703 -0.006807
-0.0014522 0.026469 -0.1974 0.20927
980000000 -0.056844 0.28442 0.017038 0.030112 -0.0098348 0.0041176 0.0015973 0.0034073
0.0038651 -0.0015436 -0.0028136 -0.0024541
0.017004 0.030107 -0.21293 0.33795 0.03389 0.0053118 0.0020199 -0.00016132
0.001907 -0.0061688 -7.7375e-05 -0.0026465
-0.0098209 0.0041438 0.033918 0.0052113 0.1073 0.30698 0.00068698 -0.0011609
0.00048725 -0.0020294 0.0015653 -6.5363e-05
0.0016532 0.0033623 0.0019991 -0.00017532 0.00065741 -0.0011617 -0.074813 0.27077
0.0077143 0.030614 -0.0089784 -0.0072385
0.0039005 -0.00157 0.001832 -0.0061791 0.00049696 -0.0020237 0.0077718 0.030558
-0.12031 0.19654 0.0068215 0.019586
-0.0028122 -0.0024648 -3.0251e-05 -0.0026324 0.0015861 -6.5388e-05 -0.0089767 -0.0072814
0.0068257 0.019626 -0.15362 0.252
1040000000 -0.015929 0.29318 0.033145 0.018935 -0.0018314 0.0071693 0.0025842 0.00093594
0.00048766 -0.0034618 -5.6984e-05 -0.0016025
0.033115 0.018945 -0.17812 0.35152 0.030441 -0.015046 0.0017307 -0.0016721
-0.0023169 -0.002821 -0.00086748 -0.0028545
-0.001785 0.0071633 0.030405 -0.01516 0.15364 0.29414 -0.00052789 -0.0016226
-0.0016644 -0.00092274 -0.00052265 -0.001127
0.0026106 0.0010141 0.0017205 -0.0016499 -0.00052472 -0.0016293 -0.047031 0.28047
0.020116 0.018973 -0.0027929 0.0009867
0.00051383 -0.003463 -0.0023681 -0.0028526 -0.0016386 -0.00094794 0.02012 0.018962
-0.087134 0.20223 0.014037 0.017639
-4.971e-05 -0.0016014 -0.00093715 -0.0028394 -0.00052275 -0.0011297 -0.0027567 0.00099839
0.014096 0.017657 -0.13104 0.27306
1100000000 0.028945 0.30223 0.03665 -0.0038106 0.0027163 0.0042532 0.0023748 -0.00097295
-0.0020957 -0.0030016 -0.0042253 -0.00020262
0.036613 -0.0037846 -0.13529 0.37014 0.015939 -0.028647 1.9111e-05 -0.0018593
-0.0038532 -0.0009876 -0.0036668 -0.00054998
0.0027159 0.0042379 0.015832 -0.028744 0.20028 0.27469 -0.0019945 0.00010907
-0.0018969 0.00057645 -0.0011877 -0.00032985
0.00241 -0.0010091 1.4373e-05 -0.0018625 -0.002018 0.0001223 -0.006898 0.28558
0.026099 0.0051721 -0.0025646 -8.8456e-05
-0.0021862 -0.0029661 -0.0038975 -0.00095487 -0.0018677 0.00057764 0.026108 0.0051236
-0.066753 0.21531 0.019849 0.0080202
-0.0042191 -0.00013336 -0.0036945 -0.00052619 -0.0011772 -0.00034747 -0.0025105 -4.1165e-05
0.019871 0.0081163 -0.085441 0.30134
1160000000 0.079945 0.29877 0.02464 -0.021043 0.0027755 -0.00039284 -6.3002e-05 -0.0022549
-0.0040008 -0.00094493 -0.0010487 0.0040688
0.024654 -0.02101 -0.091612 0.37537 -0.0036769 -0.030228 -0.0016667 -0.0017792
-0.0028982 0.0027208 -0.0016127 0.0018833
0.0027773 -0.00040564 -0.0038211 -0.030252 0.24402 0.24418 -0.00083539 0.001838
-0.00061407 0.0021346 -0.00095542 0.00041239
-7.4582e-05 -0.0022353 -0.0016627 -0.001737 -0.00084313 0.00184 0.032853 0.28295
0.022118 -0.011493 -0.0035678 0.0050926
-0.0039339 -0.0009306 -0.0028968 0.0027559 -0.00061007 0.0021354 0.022104 -0.011556
-0.03242 0.22262 0.018777 -0.00079677
-0.0010588 0.0040954 -0.0016063 0.0019375 -0.0009695 0.0004035 -0.0036127 0.0050571
0.018676 -0.00088205 -0.038341 0.30461
1220000000 0.12399 0.28897 0.010811 -0.030826 -0.0016982 -0.00083133 0.00016074 -0.00086172
-0.002843 0.0021606 0.0010988 0.0021015
0.01082 -0.030766 -0.047089 0.38862 -0.017648 -0.022158 -0.0026812 0.00054229
5.03e-05 0.0033602 -0.00084377 0.002071
-0.0016935 -0.00081815 -0.017783 -0.022097 0.28307 0.20479 0.00083346 0.0018645
0.00070275 0.0013524 0.00034929 0.00069396
0.00016194 -0.00089637 -0.0027048 0.00054993 0.00081842 0.0018727 0.072842 0.27414
0.011014 -0.018769 0.0018354 0.0015473
-0.0028375 0.0022385 6.4595e-05 0.0033701 0.00069116 0.001341 0.01098 -0.018785
-0.0086469 0.23118 0.013903 -0.014008
0.0010859 0.0020974 -0.00081977 0.0020338 0.00035987 0.00065877 0.0017948 0.0015245
0.013847 -0.014012 -0.0065467 0.3193
1280000000 0.1746 0.26899 -0.008343 -0.029301 -0.0020539 0.0027613 -0.00070845 -0.0021188
-0.00087018 0.0032743 0.0026508 0.0013315
-0.0083186 -0.029278 -0.00042478 0.38045 -0.025003 -0.0087815 -0.00096265 0.0015788
0.0019578 0.0018453 0.00069396 0.0019668
-0.0020295 0.0027686 -0.025085 -0.0086721 0.31326 0.16112 0.0017514 -2.3681e-05
0.0013842 0.00027719 0.0003771 0.00019063
-0.00072153 -0.0020889 -0.00093068 0.001572 0.0017923 -2.5847e-05 0.10987 0.25784
0.0003299 -0.021023 -0.00034679 0.00051774
-0.00084849 0.0032681 0.0019575 0.0018202 0.0013943 0.00024113 0.00027168 -0.021056
0.027833 0.23484 0.0028444 -0.016416
0.0026691 0.0013506 0.00068281 0.0020589 0.00037396 0.00018314 -0.00028868 0.00050429
0.0027847 -0.016419 0.040091 0.32074
1340000000 0.21226 0.2358 -0.018478 -0.019115 0.00087229 0.0049365 -0.0017955 -0.001016
0.0014146 0.0028251 0.0018587 -0.0014353
-0.018435 -0.019107 0.039732 0.37223 -0.022483 0.0047423 -1.1298e-05 0.0020659
0.0022012 0.00068091 0.001408 0.00078267
0.00090604 0.0049258 -0.022488 0.0048532 0.33472 0.11391 0.0012021 -0.0010427
0.00071783 -0.00070731 -4.768e-05 0.00030927
-0.0018113 -0.0010354 1.5119e-05 0.0020593 0.0012131 -0.0010644 0.14306 0.23679
-0.0099743 -0.017575 0.00043624 0.00084976
0.0014283 0.0028222 0.0022308 0.00066233 0.00075403 -0.00069937 -0.010031 -0.01758
0.057964 0.23006 -0.0047354 -0.014813
0.0018309 -0.0014426 0.0013966 0.00077923 -3.5631e-05 0.00028188 0.00044411 0.00075963
-0.0046449 -0.014783 0.0784 0.31494
1400000000 0.24627 0.19851 -0.024258 -0.0070183 0.0056519 0.0035439 -0.0023222 0.0006247
0.0025604 0.0010761 0.00037273 -0.001583
-0.024225 -0.0070302 0.077323 0.35936 -0.015353 0.01331 0.0014759 0.0012442
0.0013336 -0.00099205 0.0011946 4.3414e-05
0.0056738 0.0035269 -0.015311 0.013419 0.34743 0.061368 -2.1648e-05 -0.0018339
9.6822e-05 -0.00051512 0.00030377 0.00021788
-0.0023189 0.00064097 0.00148 0.0012381 -1.6112e-05 -0.0018073 0.17235 0.20773
-0.016411 -0.0097724 -0.00079642 0.00014221
0.0025466 0.0010534 0.0013335 -0.00098912 0.00010532 -0.00050542 -0.016436 -0.009746
0.091181 0.22544 -0.011393 -0.0089065
0.00033854 -0.0015872 0.0012007 4.5961e-05 0.00031493 0.00020922 -0.00079016 0.00016856
-0.011425 -0.0089677 0.12268 0.30359
1460000000 0.2699 0.15458 -0.02066 0.0056709 0.0061791 -0.0019429 -0.0016662 0.0018619
0.0023211 -0.00051772 -0.00042679 -0.0010486
-0.020647 0.0056505 0.11176 0.33709 -0.0058852 0.016343 0.0017286 8.3368e-05
0.00076549 -0.0014947 0.0012109 -0.00059746
0.0062056 -0.0019562 -0.0058191 0.016391 0.35421 0.0083273 -0.0014174 -0.0013868
0.0001236 -0.00024011 0.00076598 -0.00020072
-0.0016577 0.0018525 0.0017135 8.5809e-05 -0.0014185 -0.0013911 0.19886 0.17816
-0.017383 -0.0020092 -0.00059331 0.0023363
0.0023167 -0.00048232 0.00077311 -0.0015413 0.00012152 -0.00022915 -0.017402 -0.0019752
0.1209 0.21121 -0.013218 -0.0025378
-0.00046 -0.0010516 0.0011988 -0.00066066 0.00075042 -0.00023049 -0.00062888 0.0023272
-0.013194 -0.0025763 0.15567 0.28305
1520000000 0.28259 0.1127 -0.014515 0.011166 0.0037219 -0.0045457 8.7608e-05 0.0027321
0.0022092 -0.0020532 -0.0011547 -0.00019047
-0.01451 0.011142 0.14497 0.32248 0.002231 0.013642 0.0015924 -0.00084671
-0.00014335 -0.0010589 0.00028412 -0.0010541
0.0036878 -0.0045705 0.0023171 0.01364 0.34804 -0.047073 -0.0011852 -0.00021798
0.00063288 -0.00090833 7.0514e-05 -0.00018655
0.00011927 0.0027387 0.0015926 -0.00086739 -0.0011722 -0.00020257 0.22173 0.13968
-0.015777 0.0046078 0.0018209 0.0021868
0.0021807 -0.0020843 -0.00014389 -0.0010638 0.00063966 -0.00092439 -0.015769 0.0046617
0.14918 0.1976 -0.012573 0.0026036
-0.0011735 -0.00017389 0.00029287 -0.0010295 6.4869e-05 -0.00018293 0.001822 0.0021523
-0.012572 0.0025821 0.18794 0.26208
1580000000 0.29244 0.066549 -0.0072879 0.014044 -0.00089036 -0.0054732 0.0016381 0.0019903
-0.00026556 -0.0023833 -0.00029311 0.00041663
-0.0073036 0.014037 0.17198 0.29802 0.0060206 0.0082559 0.0004603 -0.0015694
-0.00065516 -0.00089367 -0.00021805 -0.00088039
-0.00091264 -0.0054814 0.0060744 0.0082365 0.32929 -0.10437 -0.0016368 0.00069707
-0.00045394 -0.0012997 0.00027613 -0.00069437
0.0016545 0.0019665 0.00044719 -0.0015841 -0.0016391 0.00069558 0.23504 0.10039
-0.011099 0.0095351 0.0024807 0.00062397
-0.00027139 -0.0023514 -0.00066131 -0.00090723 -0.00043171 -0.0013012 -0.011075 0.0095844
0.17376 0.17965 -0.0096814 0.008413
-0.00027693 0.0004152 -0.00023286 -0.00087749 0.00021902 -0.00064965 0.0024858 0.00063787
-0.0096899 0.0084705 0.21956 0.23592
1640000000 0.29449 0.025401 -0.00040301 0.012322 -0.0030573 -0.0028672 0.0028922 0.00099509
-0.00099733 -0.0016671 -0.00037753 0.0006669
-0.00041797 0.01231 0.20132 0.27349 0.0064477 0.0031317 -0.00066568 -0.0017078
-0.0009838 -0.00025881 -0.00057282 -0.00064484
-0.0030876 -0.0028449 0.0064688 0.0031025 0.30142 -0.15363 -0.00045925 0.0015859
-0.001219 -0.00078328 -0.00022177 -0.00025379
0.0029089 0.00097973 -0.00067077 -0.0017085 -0.00049463 0.0015851 0.24727 0.051692
-0.0058898 0.01027 0.0027382 -0.00082424
-0.0010352 -0.0016802 -0.00097036 -0.00025085 -0.0012218 -0.00076909 -0.0058717 0.010297
0.19713 0.15539 -0.0044923 0.010649
-0.00039597 0.00065611 -0.0005825 -0.00060699 -0.00021386 -0.00023466 0.0027167 -0.00081275
-0.0044944 0.010586 0.24512 0.20491
1700000000 0.28735 -0.019504 0.0028279 0.0089201 -0.003951 -0.00016154 0.0031165 -0.0013549
-0.0021759 -0.00054584 0.00055669 0.00041144
0.0028214 0.0089128 0.21927 0.24266 0.0041492 -1.2905e-05 -0.0014711 -0.00056264
-0.00066223 3.5411e-05 -0.00092581 -0.00041067
-0.0039504 -0.00013618 0.0041572 -3.1108e-05 0.25895 -0.19368 0.00055495 0.0015004
-0.0019597 3.914e-05 -0.00046156 -0.00085025
0.0031055 -0.0013598 -0.0014834 -0.00055184 0.00053112 0.0015375 0.24355 0.002334
-0.0027662 0.0096715 0.0017106 -0.0023982
-0.0021673 -0.00051616 -0.00065866 2.119e-05 -0.0020012 2.5873e-05 -0.0027453 0.0096774
0.2144 0.13488 0.00069112 0.010484
0.00060081 0.00042206 -0.0009546 -0.00043005 -0.00048462 -0.00085297 0.001671 -0.0024151
0.00068592 0.010512 0.26143 0.17089
1760000000 0.2759 -0.067731 0.0046908 0.005375 -0.0027411 0.0010768 0.0012693 -0.0035098
-0.0013838 0.00084282 0.0003019 -0.00050647
0.004676 0.0053808 0.24563 0.20368 0.0015264 -0.001884 -0.0011976 0.00020158
-0.0010136 0.00078042 -0.00059133 0.00041316
-0.002737 0.0011066 0.001512 -0.0019123 0.21125 -0.22762 0.0010669 0.0010289
-0.0012922 0.001494 -0.001293 -0.00072829
0.0012131 -0.0035187 -0.0012123 0.00020982 0.001085 0.0010487 0.2351 -0.048454
0.00030819 0.0079713 -0.00015096 -0.002761
-0.0013954 0.00085899 -0.0010102 0.00077782 -0.0012629 0.0015068 0.00030624 0.0079927
0.22947 0.10032 0.0048108 0.0076127
0.00026671 -0.00047987 -0.00060351 0.00042754 -0.0013032 -0.00070455 -0.00014828 -0.0027789
0.0048099 0.0075688 0.2744 0.13344
1820000000 0.25173 -0.10508 0.0043418 0.0018352 -0.00026064 0.0027348 -0.0011343 -0.003155
-0.00098049 0.0011244 -7.9161e-05 -4.2544e-06
0.0043321 0.0018342 0.25623 0.17401 -0.00086023 -0.00044646 -0.0012767 0.00093879
-0.00011688 0.0011286 -0.00059325 0.00055314
-0.00026681 0.0027226 -0.00086576 -0.00044335 0.16029 -0.24371 0.0015525 0.00035475
-7.4294e-05 0.0024599 -0.0015359 0.00058244
-0.0011527 -0.003135 -0.0012732 0.00092009 0.0015358 0.00034414 0.20566 -0.095577
0.0010932 0.0063487 -0.0016627 -0.0017708
-0.00095517 0.0011451 -0.00010486 0.001142 -7.4482e-05 0.0024932 0.0011225 0.0063509
0.2465 0.071221 0.0058088 0.0036343
-5.3935e-05 -4.5153e-06 -0.00058741 0.00054668 -0.0015859 0.00057456 -0.0016548 -0.0017275
0.0058052 0.0036724 0.27677 0.096903
1880000000 0.217 -0.14528 0.0018602 -0.00021676 -0.00044779 0.0023631 -0.0029616 -0.002226
-5.5699e-05 0.0016814 0.00017062 -0.00042841
0.0018592 -0.00022195 0.26142 0.12793 -0.0027552 0.0015262 -0.00027197 0.0017129
0.0003973 0.0012912 6.0084e-05 0.00096648
-0.00043301 0.0023441 -0.0027595 0.0015589 0.10834 -0.25323 0.0016529 -0.00082756
0.0016214 0.0019477 -0.00095577 0.0014908
-0.0029434 -0.0021901 -0.0002374 0.0017337 0.0016351 -0.00084392 0.16564 -0.13575
0.0015202 0.0040627 -0.002563 -0.00021822
-1.8848e-05 0.0016759 0.00043708 0.0012774 0.0016217 0.0019322 0.0015018 0.0040751
0.25047 0.039802 0.0061609 0.00073269
5.5345e-05 -0.00046032 7.0708e-05 0.00096409 -0.00089099 0.001456 -0.002646 -0.00023455
0.0061177 0.00066729 0.27702 0.062974
1940000000 0.17839 -0.17107 -0.00065707 -0.0014968 0.0014495 0.0022492 -0.0038304 0.00059545
0.0012905 0.0010395 -0.00057256 -0.00064251
-0.00065727 -0.0014955 0.26283 0.096 -0.0016331 0.0041112 0.0010752 0.0013797
0.0017562 0.00066303 0.00095146 0.00038189
0.0014556 0.0022494 -0.0016039 0.0041203 0.062768 -0.2466 0.00058591 -0.0020032
0.0024072 0.00031533 0.00065097 0.0017237
-0.0037923 0.00063696 0.0010973 0.0013601 0.000609 -0.0020564 0.11403 -0.16701
0.00041752 0.0033074 -0.0016877 0.0015337
0.0013105 0.0010383 0.0017591 0.00064766 0.002434 0.00029283 0.00043603 0.0033333
0.25327 0.0017855 0.0043601 -0.0027338
-0.00054677 -0.0006588 0.00094801 0.00038105 0.0005979 0.0017481 -0.0016036 0.0015305
0.0043922 -0.0026777 0.26619 0.026335
2000000000 0.13238 -0.18625 -0.0043925 0.00087192 0.0027082 0.0016161 -0.0023061 0.003916
0.001134 0.00027161 -0.00065921 0.00035593
-0.0043781 0.00086696 0.2492 0.060253 -0.0010826 0.0059917 0.0015666 0.0005056
0.0014157 -0.00090242 0.00046821 0.00013137
0.0027185 0.0015977 -0.001029 0.0060024 0.018904 -0.23288 -0.0012014 -0.0014223
0.0020256 -0.0010971 0.0017676 0.0014219
-0.0022663 0.0039627 0.0015799 0.00046605 -0.0012188 -0.0013916 0.060176 -0.17768
-0.0011473 0.0031203 -0.00043558 0.0021668
0.0011205 0.00028713 0.0014262 -0.00093874 0.0020378 -0.0011289 -0.0011323 0.0031138
0.2482 -0.031351 0.00074347 -0.0039654
