!Keysight Technologies,M9804A,MY58100912,A.14.10.03
!Date: Thursday, April 27, 2023 10:28:33
!Correction: S11(C  6-Port  ) 
!S12(C  6-Port  ) 
!S13(C  6-Port  ) 
!S14(C  6-Port  ) 
!S15(C  6-Port  ) 
!S16(C  6-Port  ) 
!S21(C  6-Port  ) 
!S22(C  6-Port  ) 
!S23(C  6-Port  ) 
!S24(C  6-Port  ) 
!S25(C  6-Port  ) 
!S26(C  6-Port  ) 
!S31(C  6-Port  ) 
!S32(C  6-Port  ) 
!S33(C  6-Port  ) 
!S34(C  6-Port  ) 
!S35(C  6-Port  ) 
!S36(C  6-Port  ) 
!S41(C  6-Port  ) 
!S42(C  6-Port  ) 
!S43(C  6-Port  ) 
!S44(C  6-Port  ) 
!S45(C  6-Port  ) 
!S46(C  6-Port  ) 
!S51(C  6-Port  ) 
!S52(C  6-Port  ) 
!S53(C  6-Port  ) 
!S54(C  6-Port  ) 
!S55(C  6-Port  ) 
!S56(C  6-Port  ) 
!S61(C  6-Port  ) 
!S62(C  6-Port  ) 
!S63(C  6-Port  ) 
!S64(C  6-Port  ) 
!S65(C  6-Port  ) 
!S66(C  6-Port  ) 
!S6P File: Measurement: :
# Hz S  RI   R 50
500000000 -0.335 -0.054431 -0.010791 -0.0014855 -0.0082418 0.01346 -0.004192 0.012362
0.012546 0.0046678 -0.0043368 0.0087919
-0.010893 -0.0015217 -0.41644 -0.063702 0.0082229 -0.010434 0.0011037 0.012222
0.0077411 0.0026762 0.001028 0.013566
-0.0082844 0.013534 0.0082376 -0.010468 -0.26702 0.19911 0.0067822 0.0039009
-0.0014207 0.0082629 0.00058591 0.012444
-0.0039882 0.012227 0.0011335 0.012236 0.0067858 0.0038966 -0.33147 0.043438
-0.019248 -0.004491 0.017624 0.025765
0.012539 0.0041064 0.007669 0.0025638 -0.0013492 0.0083045 -0.019397 -0.0044887
-0.24676 -0.19684 -0.028514 0.005587
-0.0040476 0.0083136 0.0010741 0.013778 0.00067229 0.012516 0.01725 0.025842
-0.028299 0.0047171 -0.26999 -0.12148
560000000 -0.31869 0.11337 -0.022712 -0.06502 0.0001637 0.013448 0.0051693 0.01048
0.011532 0.0044141 0.010598 0.0080068
-0.022328 -0.064808 -0.37544 0.099717 -0.041181 -0.038308 0.013893 0.0034938
-0.012695 -0.0049329 0.0057333 -0.0011741
0.0001605 0.01351 -0.041327 -0.038235 -0.18538 0.25118 -0.00041 -0.0047795
0.01843 0.0051621 0.0087056 -0.005681
0.0049672 0.010749 0.013822 0.0034718 -0.00038673 -0.0048058 -0.30769 0.13542
0.0052905 -0.023633 0.0045139 -0.02101
0.01188 0.0045272 -0.012685 -0.0049268 0.018366 0.0051565 0.0052581 -0.023766
-0.31108 -0.017905 0.0096824 -0.048213
0.010374 0.0083568 0.0053992 -0.00073934 0.0083894 -0.0051993 0.0041978 -0.021228
0.008977 -0.047635 -0.33203 0.024639
620000000 -0.27733 0.092999 -0.02299 0.008615 0.0041394 0.0093128 0.0073554 -0.0040255
0.012646 -0.0017905 -0.00035006 -0.0017605
-0.02299 0.0086695 -0.40347 0.048827 -0.018212 0.00083365 -0.0016482 -0.0018923
0.012372 -0.0065301 0.0010666 -0.002789
0.0041725 0.0092889 -0.018225 0.00088727 -0.15525 0.26052 -0.00089926 -0.0047186
-0.0030178 -0.0031885 0.0091364 -0.0024846
0.0074021 -0.0041615 -0.0016961 -0.0019012 -0.00087799 -0.0047029 -0.26609 0.14551
-0.037945 -0.019392 0.01266 0.026843
0.012625 -0.0014802 0.012484 -0.0066091 -0.0029813 -0.003175 -0.03819 -0.019268
-0.23162 -0.0507 -0.04081 0.012705
8.0443e-06 -0.0023082 0.0010253 -0.0026853 0.0089589 -0.0023611 0.012423 0.02655
-0.039989 0.013147 -0.25066 -0.0081049
680000000 -0.23933 0.18324 -0.026296 -0.014657 0.0049649 0.004956 0.0014532 -0.0080222
-0.0021533 -0.011849 0.0055575 -0.0076698
-0.026238 -0.014665 -0.39028 0.14996 -0.032397 -0.001968 -0.0012435 -0.00067568
-0.0019645 -0.0094754 -0.0015629 -0.0016255
0.0049597 0.0049361 -0.032435 -0.0018936 -0.10406 0.28082 -0.00081925 -0.00062795
-0.0018252 0.00029346 -0.0030092 -0.0093362
0.0013573 -0.0079507 -0.0012479 -0.00069522 -0.00082923 -0.00061204 -0.22066 0.19709
-0.023297 -0.007944 -0.0081681 -0.012427
-0.0022042 -0.011922 -0.0020289 -0.009479 -0.0018545 0.00027608 -0.023368 -0.0079789
-0.2791 0.052956 -0.0072502 -0.0073522
0.0054405 -0.0076605 -0.0016085 -0.0016433 -0.0031121 -0.0092008 -0.0081076 -0.012648
-0.0076491 -0.0074138 -0.2583 0.094625
740000000 -0.19299 0.17676 -0.039955 0.026594 0.013637 -0.0051284 0.00013404 -0.0040244
-0.0049985 -0.0025956 -0.0057233 0.0030227
-0.039944 0.026574 -0.33542 0.16852 -0.037066 0.034484 -0.00014171 -0.0060207
-0.012111 0.0073945 -0.001362 -0.0058943
0.013635 -0.0052076 -0.036995 0.034616 -0.069727 0.27771 -0.0021204 0.0031955
-0.0026052 -0.0053378 -0.0012453 0.00091704
0.00019628 -0.0039971 -0.00011802 -0.006017 -0.002148 0.003194 -0.20366 0.20449
-0.042333 -0.0082011 0.022108 0.015359
-0.0049109 -0.0023821 -0.012032 0.0073313 -0.0025931 -0.0053919 -0.042212 -0.0081318
-0.18065 0.081843 -0.041266 -0.00051844
-0.0057244 0.0029996 -0.0012362 -0.0058233 -0.0012354 0.00084447 0.022072 0.015135
-0.040953 -0.00043692 -0.2492 0.10215
800000000 -0.16185 0.22133 -0.022447 0.01639 0.0059144 -0.010508 -0.0044855 -0.0021254
-0.0044323 0.0024155 0.0045025 0.00084794
-0.022514 0.016346 -0.34137 0.23939 -0.0084882 0.034025 -0.00229 0.0021205
-0.0012008 0.0029308 0.0010895 0.0052832
0.0058403 -0.010531 -0.0083973 0.034081 -0.03118 0.302 0.00081386 0.0015681
4.3184e-05 0.0036194 -0.0018193 0.00098059
-0.0044716 -0.0021221 -0.0022778 0.002155 0.00081065 0.0015533 -0.17418 0.23208
-0.028526 0.013254 0.013595 -0.010031
-0.0044716 0.0024273 -0.0011845 0.0028763 7.5187e-05 0.0036366 -0.028535 0.013276
-0.2221 0.1089 -0.017677 0.01959
0.0045674 0.00082116 0.001013 0.0053031 -0.0018663 0.00086619 0.013507 -0.010201
-0.017721 0.019829 -0.24082 0.15
860000000 -0.12749 0.24074 -0.017796 0.030291 -0.0028382 -0.010324 -0.0021837 0.00035129
0.0039307 0.0048439 -0.0036988 -0.0029745
-0.017794 0.03019 -0.29297 0.28181 0.0073387 0.034238 -3.012e-05 0.0020527
0.0036416 0.00015942 0.0033661 0.00032068
-0.0028568 -0.010349 0.0074424 0.034239 0.016408 0.31023 -0.00067658 -0.00027088
0.0024513 -0.0018158 0.0014595 0.0041945
-0.0021393 0.00038946 -3.0903e-05 0.0020683 -0.00066764 -0.00030198 -0.13756 0.2424
-0.018367 0.018069 -0.0061135 -0.0087224
0.0038246 0.0049173 0.0036748 0.00021375 0.0024446 -0.0018352 -0.018381 0.018038
-0.16552 0.15961 -0.023715 0.016715
-0.0035579 -0.0030395 0.0033951 0.00023477 0.0015353 0.0041976 -0.0060397 -0.0086482
-0.023993 0.016629 -0.18987 0.19479
920000000 -0.10384 0.26406 0.0045762 0.038323 -0.0092112 -0.0050104 -0.0018899 0.0018643
0.0011322 0.0020506 0.0029139 -0.0012779
0.0045207 0.03827 -0.26569 0.30298 0.027973 0.022789 0.0014121 0.0013023
0.0075662 -3.2055e-05 0.0039186 -0.0029726
-0.0092067 -0.0049505 0.02806 0.022722 0.061646 0.31157 0.0019081 1.8854e-05
0.00096529 -0.00015727 0.00091305 -0.0013389
-0.0018995 0.0019005 0.0014268 0.0013573 0.0019159 3.2053e-05 -0.11303 0.25933
-0.011458 0.030683 0.0036044 -0.0066782
0.0011343 0.002024 0.0075138 -9.972e-05 0.00096788 -0.00013646 -0.011418 0.030652
-0.15502 0.16635 -0.00225 0.026743
0.0029691 -0.0012999 0.0038514 -0.0029354 0.00092525 -0.0013772 0.0035049 -0.0066526
-0.0023333 0.026497 -0.19652 0.20867
980000000 -0.057376 0.28453 0.016728 0.030156 -0.0094512 0.0041991 0.0018809 0.003848
0.0041015 -0.0015539 -0.0029533 -0.002301
0.016674 0.030161 -0.21258 0.33808 0.033221 0.0055282 0.0020227 1.5213e-05
0.0016453 -0.0060685 -0.00019848 -0.0022613
-0.0094612 0.0042434 0.033272 0.0054194 0.10737 0.30607 0.00068387 -0.0011209
0.00051963 -0.002009 0.0015742 -0.00022779
0.0019107 0.0038262 0.0020282 3.1825e-05 0.00067397 -0.0011203 -0.074654 0.27068
0.007265 0.030056 -0.0087575 -0.0071255
0.0040766 -0.0015934 0.001618 -0.0060886 0.00048906 -0.0020078 0.0073243 0.030121
-0.1214 0.19615 0.0063214 0.019429
-0.0030919 -0.0022097 -0.00030449 -0.0022892 0.0015363 -0.0001837 -0.0087979 -0.0069534
0.0063459 0.019524 -0.15336 0.25202
1040000000 -0.015801 0.29332 0.032881 0.019238 -0.00153 0.0070228 0.0027089 0.00079556
0.00049851 -0.0034252 -0.00019594 -0.0016302
0.032875 0.01924 -0.17757 0.35149 0.030063 -0.014303 0.0017391 -0.0017091
-0.0020151 -0.0026691 -0.00078381 -0.0027213
-0.0015302 0.0070254 0.03003 -0.014445 0.15322 0.29311 -0.00036024 -0.0015783
-0.0015861 -0.00087949 -0.00041989 -0.0011137
0.0027358 0.00077117 0.0017644 -0.0016808 -0.00036222 -0.0015829 -0.04731 0.27991
0.019162 0.018878 -0.0024971 0.0010814
0.00045228 -0.0034477 -0.0019569 -0.002655 -0.0015811 -0.00088004 0.019224 0.018854
-0.087279 0.20234 0.013715 0.017969
-0.00022984 -0.0015808 -0.00083391 -0.0027827 -0.00039813 -0.0010791 -0.0025335 0.0011207
0.013714 0.017844 -0.13132 0.2726
1100000000 0.029023 0.30269 0.036309 -0.0033187 0.0028072 0.0041017 0.0024637 -0.0010997
-0.0021282 -0.003196 -0.003982 -0.00017977
0.036303 -0.0033084 -0.13472 0.36957 0.016037 -0.027792 6.6956e-05 -0.0019201
-0.0036091 -0.001092 -0.0035646 -0.00060444
0.0028378 0.0040901 0.015953 -0.027883 0.19909 0.27397 -0.0018996 4.3387e-05
-0.0017612 0.00047215 -0.0010635 -0.00043396
0.0024744 -0.0010892 5.6535e-05 -0.0019393 -0.0018997 4.7609e-05 -0.0071662 0.285
0.024859 0.0056311 -0.0023178 -1.2474e-05
-0.0020989 -0.0031824 -0.0035801 -0.0010967 -0.0017661 0.00046164 0.024886 0.0056313
-0.066839 0.2153 0.019264 0.0082749
-0.0039949 -0.00018044 -0.0035676 -0.00061887 -0.0010581 -0.00042871 -0.0023381 -2.5811e-05
0.019347 0.0082766 -0.085581 0.30112
1160000000 0.080119 0.2987 0.024615 -0.020313 0.0027806 -0.00044281 -7.939e-05 -0.0024536
-0.0039861 -0.00079488 -0.0010619 0.0043312
0.024625 -0.020285 -0.091181 0.37423 -0.0030844 -0.029565 -0.0016476 -0.0017262
-0.0029243 0.0025318 -0.0015492 0.0019379
0.0027743 -0.00044438 -0.0032314 -0.029587 0.2425 0.24407 -0.00080266 0.0016993
-0.00059074 0.0019013 -0.00092209 0.00031245
-9.2011e-05 -0.0024553 -0.0016195 -0.0017128 -0.0007984 0.0016927 0.032143 0.28252
0.021363 -0.010186 -0.0032699 0.0052005
-0.0039932 -0.00079992 -0.0028431 0.0026055 -0.00057955 0.0019061 0.021354 -0.010193
-0.032258 0.22303 0.018326 -0.00048265
-0.00098605 0.0042457 -0.0015601 0.0020511 -0.00091576 0.00031915 -0.0032427 0.0052122
0.018339 -0.00044464 -0.038604 0.30362
1220000000 0.12406 0.28878 0.01125 -0.030062 -0.0015679 -0.00090131 6.1353e-06 -0.00089458
-0.0026703 0.002184 0.0011411 0.0019125
0.011271 -0.030011 -0.047404 0.38728 -0.01678 -0.021977 -0.0027272 0.00043588
-1.1858e-05 0.0031365 -0.0008401 0.001882
-0.0015797 -0.00089352 -0.016885 -0.021931 0.28172 0.20579 0.00072581 0.0016785
0.00063926 0.0011552 0.00025035 0.00052695
-5.1852e-06 -0.0008922 -0.0027312 0.00045688 0.0007188 0.0016722 0.072031 0.27416
0.011106 -0.017119 0.0021171 0.0014379
-0.0026799 0.0022003 -3.491e-05 0.003127 0.000623 0.0011457 0.011075 -0.017142
-0.0084453 0.2311 0.013809 -0.013183
0.0011041 0.0019383 -0.00084956 0.0018547 0.00021258 0.00049062 0.0021121 0.0014403
0.013761 -0.013161 -0.0067824 0.31868
1280000000 0.1744 0.2684 -0.0074054 -0.028889 -0.001993 0.0024304 -0.00087301 -0.0020633
-0.00079474 0.0031208 0.002527 0.0012821
-0.0073867 -0.028858 -0.0015017 0.37935 -0.024131 -0.0091701 -0.0010334 0.0014595
0.0017882 0.0017091 0.00059143 0.0020321
-0.0019831 0.0024441 -0.024207 -0.0090693 0.31276 0.16263 0.0015914 2.8002e-05
0.0012512 0.00023997 0.00038883 0.00017602
-0.00089178 -0.002065 -0.0010467 0.0014746 0.0016026 4.8775e-05 0.10914 0.25823
0.0012951 -0.019474 -0.00010481 0.00024049
-0.00078908 0.0030941 0.0017886 0.001721 0.001276 0.00021038 0.0012466 -0.019478
0.027996 0.2345 0.0029848 -0.015304
0.0025471 0.001253 0.00059864 0.0020428 0.00041673 0.00017474 -8.3935e-05 0.00025784
0.0029953 -0.01525 0.03989 0.32054
1340000000 0.21188 0.23545 -0.017394 -0.019427 0.00074617 0.0047558 -0.0017812 -0.00081012
0.0014051 0.0026674 0.0017703 -0.0012939
-0.017369 -0.019427 0.038139 0.37191 -0.022063 0.0039245 -0.00014571 0.002029
0.0020359 0.00084254 0.001262 0.00081734
0.00075548 0.0047587 -0.022063 0.0040382 0.33513 0.11537 0.0011024 -0.00092043
0.00068751 -0.00055865 -1.8494e-05 0.00020984
-0.0017726 -0.00081719 -0.00012816 0.002017 0.0011022 -0.00092599 0.14244 0.2376
-0.0081828 -0.016969 0.00079833 0.00050386
0.0014354 0.0026622 0.002061 0.00082838 0.00070445 -0.00056745 -0.0082121 -0.016962
0.05814 0.22949 -0.0037848 -0.013913
0.0017688 -0.0012632 0.0013103 0.00080557 -3.4177e-05 0.00022794 0.00077238 0.00047898
-0.0037689 -0.013906 0.077666 0.315
1400000000 0.24571 0.19844 -0.023498 -0.0078593 0.0053146 0.0034431 -0.0022614 0.0006134
0.002389 0.0009292 0.00041222 -0.0014944
-0.023455 -0.0078601 0.075705 0.35982 -0.015478 0.01252 0.0013467 0.0013043
0.0013131 -0.00079191 0.0012256 0.00012124
0.005328 0.0034374 -0.015446 0.012602 0.3486 0.062289 0.00014022 -0.0016276
5.8214e-05 -0.00040901 0.00030899 0.00018884
-0.0022555 0.00061893 0.0013554 0.0012945 0.00013719 -0.0016317 0.17216 0.20857
-0.01435 -0.010216 -0.00093555 -0.00023898
0.0023948 0.00093801 0.001289 -0.00079508 7.5998e-05 -0.00038103 -0.014366 -0.010178
0.091017 0.22487 -0.01018 -0.0089205
0.00037535 -0.0014678 0.0012145 0.00013087 0.00030182 0.00015308 -0.00093296 -0.00025344
-0.010177 -0.0089241 0.12203 0.30383
1460000000 0.26922 0.1549 -0.020541 0.0044768 0.0058934 -0.0016635 -0.0016063 0.0017814
0.0020942 -0.00045236 -0.00033455 -0.0010001
-0.020518 0.0044468 0.11068 0.33845 -0.0064911 0.015809 0.0017173 0.00016879
0.00091526 -0.0014024 0.0012727 -0.00054109
0.0058793 -0.0017197 -0.006422 0.015869 0.35558 0.0081908 -0.0012403 -0.0013847
0.00010148 -0.00021393 0.00064625 -0.00022167
-0.0015884 0.0018009 0.0017202 0.00016426 -0.0012242 -0.0013782 0.19916 0.1791
-0.015844 -0.00356 -0.00089822 0.0021398
0.0021265 -0.00046132 0.00089293 -0.0014087 0.00010215 -0.00020356 -0.015866 -0.003552
0.12035 0.21082 -0.012047 -0.0028609
-0.00034635 -0.0010512 0.0012801 -0.00052357 0.00066601 -0.00022362 -0.00087656 0.0021324
-0.012003 -0.0028952 0.15544 0.28344
1520000000 0.28206 0.1134 -0.015013 0.010079 0.003565 -0.0043456 0.00015533 0.0025894
0.0021576 -0.0018192 -0.0011461 -0.00025502
-0.015002 0.010069 0.14457 0.32406 0.0015399 0.013557 0.001654 -0.00078327
2.8234e-05 -0.0011284 0.00034281 -0.0010394
0.0035611 -0.0043379 0.0016073 0.013559 0.34912 -0.047843 -0.0011438 -0.00034013
0.00069172 -0.00081457 7.2466e-05 -0.00018661
0.00015513 0.0025752 0.0016429 -0.00078646 -0.0011331 -0.00034427 0.22237 0.14039
-0.015419 0.0023638 0.001434 0.0020975
0.0021294 -0.0018644 1.3137e-05 -0.0011539 0.00068193 -0.00083271 -0.015415 0.0024043
0.14847 0.19741 -0.01197 0.0016013
-0.0011682 -0.00023581 0.00033758 -0.0010595 6.5489e-05 -0.00019458 0.0014285 0.0021103
-0.011951 0.001656 0.18792 0.26277
1580000000 0.29236 0.067555 -0.0083338 0.013443 -0.00090781 -0.005164 0.0014967 0.0019719
-0.00015108 -0.0021495 -0.00032922 0.00039084
-0.0083331 0.013413 0.17241 0.29968 0.0055086 0.0085729 0.00054447 -0.0015621
-0.00061266 -0.0010313 -0.0001488 -0.00083514
-0.00090681 -0.0051643 0.0055618 0.0085524 0.32985 -0.1053 -0.0016581 0.00062328
-0.00030846 -0.0011969 0.00024046 -0.00055739
0.0015142 0.0019711 0.00053827 -0.0015642 -0.0016512 0.0006383 0.23624 0.10083
-0.012064 0.0074903 0.002251 0.00083653
-0.000172 -0.002131 -0.00062396 -0.0010132 -0.00028026 -0.0011952 -0.01205 0.0075349
0.17301 0.17967 -0.0095135 0.0073473
-0.00030992 0.00038487 -0.00015376 -0.00083785 0.00025964 -0.00059197 0.0022647 0.00082838
-0.0095507 0.0073467 0.21977 0.23612
1640000000 0.29511 0.026166 -0.0015876 0.012369 -0.002945 -0.0027978 0.0027507 0.0010651
-0.0006909 -0.0015893 -0.00042184 0.00070058
-0.0015924 0.012353 0.20251 0.27466 0.0062841 0.0035114 -0.00061192 -0.0017505
-0.0010585 -0.00039056 -0.00052206 -0.00070411
-0.0029603 -0.0027674 0.0062986 0.0034684 0.30169 -0.15488 -0.00062703 0.0014734
-0.0010457 -0.0010044 -0.00013984 -0.00029882
0.0027579 0.0010506 -0.00062519 -0.0017636 -0.00063356 0.0014484 0.2485 0.051543
-0.0078226 0.0091688 0.0025812 -0.00071578
-0.0007314 -0.0016219 -0.0010446 -0.00037397 -0.001045 -0.0009665 -0.0077925 0.0091746
0.19636 0.15588 -0.0047754 0.0094994
-0.00039883 0.00075623 -0.00053306 -0.00071644 -0.00014937 -0.00033368 0.0025759 -0.00071684
-0.0047936 0.0094902 0.24533 0.20511
1700000000 0.28834 -0.019264 0.0019249 0.0096438 -0.0037796 -1.3279e-05 0.00314 -0.001211
-0.0019841 -0.00073345 0.00060536 0.00047677
0.0019104 0.0096438 0.2208 0.24323 0.0040899 0.00042971 -0.0014781 -0.0006421
-0.00076741 6.4815e-05 -0.0009614 -0.00047317
-0.0037927 5.698e-07 0.0040965 0.00040664 0.25812 -0.19488 0.00042452 0.001595
-0.0019451 -0.00014317 -0.00037576 -0.0007892
0.0031476 -0.0012277 -0.0014834 -0.00063488 0.00041639 0.0016118 0.24475 0.0015237
-0.0048076 0.0099569 0.0016271 -0.0022444
-0.0019867 -0.00071624 -0.00078656 5.5649e-05 -0.0019765 -0.00016788 -0.0047977 0.0099698
0.21389 0.13564 -0.00010278 0.0097338
0.00061976 0.0004571 -0.00094999 -0.00045471 -0.00036442 -0.00076209 0.0016446 -0.0022632
-0.00011219 0.0097223 0.26163 0.17068
1760000000 0.2768 -0.068187 0.0044095 0.0063631 -0.0023904 0.001062 0.0012992 -0.0034558
-0.0014841 0.00058603 0.00033172 -0.00048266
0.0044118 0.0063595 0.24732 0.20343 0.0017916 -0.0014608 -0.0012476 0.00016007
-0.0010634 0.00090115 -0.00068452 0.00038736
-0.002396 0.0010709 0.0017974 -0.0014935 0.2103 -0.22778 0.0010925 0.0011589
-0.0013785 0.0013796 -0.0011885 -0.00065498
0.0012778 -0.0034591 -0.0012463 0.00016183 0.001088 0.0011518 0.23569 -0.049852
-0.0012054 0.0092259 -0.00014967 -0.0025646
-0.0014815 0.00058894 -0.0010494 0.00092019 -0.0013894 0.0014235 -0.0011762 0.0092347
0.22918 0.1011 0.0037986 0.0072603
0.00032324 -0.00047154 -0.00067914 0.00038701 -0.001209 -0.00070563 -0.00016015 -0.002559
0.00384 0.0072463 0.27433 0.13339
1820000000 0.25221 -0.10588 0.0046277 0.0026779 -0.00014421 0.0024902 -0.00098591 -0.0031377
-0.0012293 0.0010397 -0.00012959 -8.8618e-05
0.0046199 0.0026844 0.25754 0.17307 -0.00060899 -0.0003241 -0.0013728 0.00090672
-3.6504e-05 0.0012342 -0.00065233 0.00054048
-0.00016521 0.0024992 -0.00061726 -0.00032155 0.15931 -0.24404 0.0016009 0.00045748
-0.00024439 0.0024263 -0.0014845 0.0003377
-0.0010084 -0.003139 -0.0013803 0.00091959 0.0015975 0.00045761 0.20538 -0.097302
0.00063445 0.0078233 -0.001619 -0.0015309
-0.0012307 0.0010369 -3.2372e-05 0.0012253 -0.0002215 0.0024142 0.00067495 0.0078215
0.24659 0.072094 0.0047623 0.0037164
-9.5108e-05 -0.00013178 -0.00063395 0.0005366 -0.001458 0.00033252 -0.0016078 -0.0015398
0.0047356 0.0037186 0.27641 0.096631
1880000000 0.21711 -0.14641 0.0024439 0.00026319 -0.00064598 0.0022307 -0.0028856 -0.0022354
-0.00031761 0.0019285 -4.8124e-06 -0.00058032
0.0024391 0.00024695 0.26213 0.12653 -0.0025632 0.0015305 -0.00022553 0.0018235
0.00055839 0.0013202 1.5954e-05 0.00098529
-0.00060441 0.0021947 -0.0025435 0.0015447 0.10742 -0.25308 0.0018029 -0.00080105
0.0015289 0.0021116 -0.0011484 0.0013829
-0.0028604 -0.0022228 -0.00021409 0.001824 0.001797 -0.0008019 0.16458 -0.13709
0.0018376 0.0055394 -0.0023502 0.00019952
-0.00028409 0.00195 0.00057024 0.0013181 0.00152 0.002082 0.0018378 0.0055392
0.25089 0.040782 0.0051875 0.0013995
1.1406e-05 -0.00058845 3.305e-05 0.00095824 -0.0011566 0.0013868 -0.0024074 0.00017384
0.0051755 0.0013835 0.27652 0.063063
1940000000 0.17766 -0.17228 -2.9369e-06 -0.0015246 0.0014996 0.0021679 -0.0037489 0.00044437
0.0014137 0.0012516 -0.0006189 -0.00049845
4.8007e-06 -0.0015238 0.26291 0.094461 -0.0014005 0.0040858 0.0010284 0.0013754
0.001831 0.00055182 0.00099487 0.00047023
0.0014777 0.0021615 -0.0013799 0.0040943 0.062035 -0.246 0.00046919 -0.0021443
0.002387 0.00043971 0.00055087 0.0017442
-0.0037604 0.00046667 0.0010219 0.0013669 0.00048079 -0.0021286 0.11214 -0.16766
0.001028 0.0040881 -0.0016668 0.0014934
0.0014089 0.0012071 0.0018543 0.00053022 0.0023759 0.00045586 0.0010588 0.0041015
0.25401 0.0023543 0.0038171 -0.0018602
-0.00056755 -0.00052326 0.0010138 0.00047644 0.00056464 0.0017892 -0.0016518 0.001512
0.003809 -0.0018481 0.26553 0.02683
2000000000 0.13125 -0.18684 -0.0039298 0.0006839 0.002584 0.001623 -0.0023506 0.0037518
0.0013548 0.00037784 -0.0005905 0.00051186
-0.0039144 0.00066922 0.24848 0.058853 -0.0009767 0.0059781 0.0016744 0.0004872
0.0013961 -0.0010824 0.00058523 0.0001647
0.0026067 0.0016059 -0.00093343 0.0059969 0.018676 -0.23204 -0.0011668 -0.0014355
0.0021844 -0.0010686 0.0017285 0.0014135
-0.0022944 0.0037603 0.0016933 0.00045925 -0.0011526 -0.0014246 0.058787 -0.17732
-0.00013857 0.0036649 -2.4164e-05 0.0022087
0.0013259 0.0003818 0.0013839 -0.0010999 0.0022148 -0.0011095 -0.0001594 0.0035794
0.24932 -0.030969 0.00079169 -0.002863
