!Keysight Technologies,M9804A,MY58100912,A.14.10.03
!Date: Thursday, April 27, 2023 10:28:33
!Correction: S11(C  6-Port  ) 
!S12(C  6-Port  ) 
!S13(C  6-Port  ) 
!S14(C  6-Port  ) 
!S15(C  6-Port  ) 
!S16(C  6-Port  ) 
!S21(C  6-Port  ) 
!S22(C  6-Port  ) 
!S23(C  6-Port  ) 
!S24(C  6-Port  ) 
!S25(C  6-Port  ) 
!S26(C  6-Port  ) 
!S31(C  6-Port  ) 
!S32(C  6-Port  ) 
!S33(C  6-Port  ) 
!S34(C  6-Port  ) 
!S35(C  6-Port  ) 
!S36(C  6-Port  ) 
!S41(C  6-Port  ) 
!S42(C  6-Port  ) 
!S43(C  6-Port  ) 
!S44(C  6-Port  ) 
!S45(C  6-Port  ) 
!S46(C  6-Port  ) 
!S51(C  6-Port  ) 
!S52(C  6-Port  ) 
!S53(C  6-Port  ) 
!S54(C  6-Port  ) 
!S55(C  6-Port  ) 
!S56(C  6-Port  ) 
!S61(C  6-Port  ) 
!S62(C  6-Port  ) 
!S63(C  6-Port  ) 
!S64(C  6-Port  ) 
!S65(C  6-Port  ) 
!S66(C  6-Port  ) 
!S6P File: Measurement: :
# Hz S  RI   R 50
500000000 -0.33361 -0.053968 -0.0099658 -0.0011108 -0.0085241 0.01364 -0.0042423 0.011343
0.013569 0.0059801 -0.0040555 0.0070118
-0.0099103 -0.0011366 -0.41573 -0.064252 0.0080549 -0.010586 0.0019191 0.011522
0.0081281 0.0037823 0.0019919 0.013722
-0.0084576 0.013627 0.0080957 -0.010664 -0.26783 0.1986 0.0064459 0.003504
-0.001312 0.0087584 -0.00015924 0.01231
-0.0044442 0.011415 0.0018483 0.011505 0.0064363 0.0034766 -0.33081 0.041649
-0.019553 -0.0041772 0.018456 0.024238
0.01376 0.0055919 0.0082368 0.0037841 -0.0012766 0.0087288 -0.019568 -0.0040782
-0.2467 -0.19879 -0.028092 0.005492
-0.0042859 0.0069558 0.0018049 0.01365 -0.00017131 0.012267 0.018463 0.024176
-0.027972 0.0053835 -0.26657 -0.12522
560000000 -0.32036 0.11272 -0.023462 -0.063522 -0.00019909 0.013157 0.0051235 0.011137
0.011137 0.0049883 0.0097312 0.0084953
-0.023326 -0.06334 -0.37432 0.098834 -0.042016 -0.037588 0.013498 0.0033822
-0.012181 -0.0034491 0.0032057 -0.00043549
-0.00016975 0.013314 -0.042155 -0.03746 -0.18597 0.25035 -7.9888e-06 -0.0047515
0.01832 0.0048022 0.007946 -0.0056403
0.0051289 0.010987 0.013549 0.0032499 1.4558e-07 -0.0046849 -0.30611 0.1343
0.005285 -0.023463 0.0054002 -0.021988
0.011206 0.0048782 -0.012232 -0.0036855 0.018353 0.0048645 0.0054769 -0.023586
-0.30971 -0.020024 0.0087513 -0.047445
0.010006 0.0085878 0.0034743 -0.00026014 0.0078772 -0.0055972 0.0053563 -0.021942
0.0085347 -0.047774 -0.33295 0.023419
620000000 -0.27759 0.091978 -0.023101 0.0087187 0.0039436 0.009092 0.0081974 -0.0046602
0.013002 -0.0013417 0.00057279 -0.0026834
-0.023132 0.0087396 -0.40352 0.047966 -0.018525 0.0008616 -0.0016117 -0.0020731
0.012717 -0.0063359 0.00074872 -0.0028057
0.0038779 0.0091933 -0.018521 0.00097638 -0.1558 0.25984 -0.00084478 -0.0051101
-0.0030937 -0.0036268 0.0093494 -0.0022976
0.0081037 -0.0047444 -0.0016799 -0.0020694 -0.00085122 -0.0051244 -0.26613 0.14449
-0.039516 -0.018431 0.0125 0.026544
0.013213 -0.0012849 0.012669 -0.0064188 -0.003091 -0.0035918 -0.039214 -0.01839
-0.23015 -0.050641 -0.041578 0.013693
0.00050649 -0.0027162 0.00084277 -0.002782 0.0092708 -0.0023383 0.012408 0.026593
-0.041504 0.01345 -0.24936 -0.0096779
680000000 -0.23972 0.18392 -0.026275 -0.01434 0.0052781 0.0056587 0.0011795 -0.0072502
-0.0021529 -0.011859 0.0056563 -0.0068937
-0.026263 -0.014374 -0.38983 0.1492 -0.032388 -0.0021077 -0.0014462 -0.00058118
-0.0017601 -0.0093 -0.00058653 -0.002074
0.0053464 0.0055286 -0.032427 -0.0020817 -0.10388 0.28015 -0.00058119 -0.00034107
-0.0018573 0.00047547 -0.0023403 -0.0089754
0.0013275 -0.0073775 -0.0013342 -0.00067617 -0.00059787 -0.0003062 -0.22045 0.19723
-0.023251 -0.0083223 -0.009541 -0.011454
-0.0022641 -0.012029 -0.0018565 -0.0093303 -0.0018161 0.00045782 -0.023351 -0.0081979
-0.28079 0.052218 -0.0069453 -0.007121
0.0058342 -0.0070242 -0.00061783 -0.0020089 -0.0023359 -0.0089927 -0.009501 -0.011474
-0.0068068 -0.007014 -0.2611 0.092323
740000000 -0.19382 0.17727 -0.03951 0.027225 0.01377 -0.0047043 -0.00091983 -0.0040885
-0.0047528 -0.0028605 -0.0069808 0.0032524
-0.039412 0.027246 -0.33533 0.16731 -0.037168 0.035317 9.3509e-05 -0.0061048
-0.012439 0.0071159 -0.000719 -0.0060176
0.013818 -0.0046772 -0.037044 0.035377 -0.07064 0.27748 -0.0020375 0.0037797
-0.0029444 -0.0062017 -0.0016773 0.0021911
-0.00082411 -0.0039961 3.7712e-05 -0.0061256 -0.0020405 0.0037437 -0.20429 0.20341
-0.042758 -0.0064435 0.022414 0.014726
-0.0048138 -0.0028132 -0.012313 0.0070506 -0.0029019 -0.0062165 -0.042706 -0.0064799
-0.17867 0.076752 -0.042836 0.0020836
-0.0067128 0.0035157 -0.0011011 -0.0059287 -0.0016722 0.0020931 0.022439 0.014762
-0.042797 0.002033 -0.24853 0.099697
800000000 -0.16201 0.22053 -0.022374 0.016582 0.0061221 -0.010707 -0.0044241 -0.0019639
-0.0044065 0.0021145 0.0042267 0.0001342
-0.022338 0.016524 -0.34167 0.23873 -0.0086482 0.034514 -0.0022821 0.0021573
-0.0012155 0.0029609 0.00084431 0.0051083
0.0060162 -0.01069 -0.0085787 0.034592 -0.032049 0.30172 0.0010112 0.0014859
-0.00015912 0.003632 -0.001822 0.00054711
-0.0044137 -0.0019789 -0.0022667 0.0021213 0.0010393 0.0014866 -0.17433 0.2318
-0.029144 0.013406 0.014297 -0.010221
-0.0044251 0.0021019 -0.0013186 0.0030077 -0.00015826 0.0036291 -0.029101 0.013459
-0.2216 0.1087 -0.018283 0.019497
0.0039869 0.00023207 0.00092821 0.0051555 -0.0017714 0.00055243 0.014271 -0.010202
-0.018317 0.019441 -0.24097 0.14865
860000000 -0.12771 0.24043 -0.01793 0.030472 -0.0027701 -0.01054 -0.0020639 0.00032738
0.003652 0.0046948 -0.0032243 -0.0025055
-0.017961 0.030426 -0.29354 0.28126 0.0074846 0.034872 -2.3279e-05 0.0021822
0.0030904 0.00048395 0.0036073 0.000375
-0.0028054 -0.010589 0.0075649 0.034872 0.015625 0.3106 -0.00079865 -6.6547e-05
0.0021388 -0.0018396 0.0020634 0.0044931
-0.0020647 0.00041315 6.107e-05 0.0022005 -0.00080872 -7.0284e-05 -0.13838 0.24226
-0.018688 0.017998 -0.0064383 -0.0085328
0.0036806 0.0047774 0.0030373 0.00054403 0.0021412 -0.0018212 -0.018675 0.018047
-0.1663 0.15855 -0.02434 0.016856
-0.0032171 -0.0027534 0.0036718 0.00031387 0.0020651 0.0045213 -0.0064059 -0.0085327
-0.024264 0.016884 -0.18999 0.19522
920000000 -0.10408 0.26351 0.0045405 0.038224 -0.0095798 -0.0052447 -0.0019903 0.0015554
0.0012501 0.0018997 0.0026371 -0.0014818
0.0044867 0.038208 -0.26658 0.30231 0.028459 0.022962 0.0013864 0.0012747
0.0076262 -0.00045795 0.0042257 -0.0027015
-0.0095622 -0.0052374 0.028557 0.022898 0.061107 0.31216 0.0019063 -4.8931e-05
0.0011463 -0.00020584 0.00085175 -0.0013052
-0.0020648 0.0016301 0.0014602 0.0013141 0.0019082 -2.8544e-05 -0.11383 0.25945
-0.010864 0.031312 0.0033204 -0.0071668
0.001181 0.0018515 0.0074793 -0.00050396 0.0011416 -0.00019499 -0.010788 0.031409
-0.15586 0.16598 -0.00083078 0.027827
0.0026704 -0.0013546 0.0042202 -0.0026033 0.00083963 -0.0013231 0.0033211 -0.0071763
-0.00087236 0.027804 -0.19809 0.20717
980000000 -0.057468 0.28393 0.017082 0.030341 -0.0097941 0.0041787 0.0019591 0.0035863
0.0041755 -0.0016454 -0.0029345 -0.0022919
0.01701 0.030305 -0.21341 0.33771 0.033928 0.005472 0.0022031 -0.00012119
0.0019424 -0.006058 -5.9981e-06 -0.0027601
-0.0098127 0.004229 0.033964 0.0053719 0.10707 0.30687 0.00071698 -0.0011615
0.00047738 -0.0019678 0.0016427 -0.00032346
0.0019811 0.0034813 0.0021628 -0.00014566 0.00070306 -0.0011533 -0.07516 0.27087
0.0079309 0.030798 -0.0087668 -0.0072456
0.0041163 -0.0016243 0.001958 -0.006047 0.00047971 -0.001958 0.0079829 0.030777
-0.12178 0.1955 0.00599 0.020134
-0.0028546 -0.0023254 2.6231e-05 -0.0028097 0.0016541 -0.00030353 -0.0087992 -0.0072497
0.0059835 0.02008 -0.15462 0.25147
1040000000 -0.016037 0.29292 0.033325 0.01909 -0.001691 0.007272 0.0025891 0.00071162
0.00041832 -0.0035218 -0.00026398 -0.0015712
0.033245 0.019076 -0.17869 0.35145 0.030581 -0.01491 0.0017083 -0.0018486
-0.0020307 -0.0026817 -0.00089674 -0.0029852
-0.0016343 0.0072614 0.030554 -0.015026 0.1534 0.29406 -0.00044409 -0.0016675
-0.0016608 -0.0009426 -0.00050599 -0.0010945
0.0025676 0.00073094 0.0017216 -0.0018519 -0.00043959 -0.0016721 -0.047513 0.28031
0.02028 0.019062 -0.002535 0.00082156
0.00042869 -0.0035243 -0.0020942 -0.0027423 -0.0016689 -0.00095385 0.020344 0.019056
-0.087263 0.20175 0.014063 0.017813
-0.00022978 -0.001371 -0.00093168 -0.0028738 -0.00049797 -0.0010989 -0.0025238 0.00086016
0.01415 0.017853 -0.1324 0.27224
1100000000 0.028462 0.30266 0.036898 -0.0035723 0.0028114 0.0042843 0.0024218 -0.0011669
-0.0021475 -0.0030924 -0.0040337 -0.00031786
0.03687 -0.0035424 -0.13559 0.37001 0.016113 -0.028603 3.8086e-05 -0.0019964
-0.0038366 -0.0010256 -0.0036064 -0.00066685
0.0028287 0.0042911 0.016014 -0.028687 0.20003 0.27466 -0.0020815 0.00011149
-0.0019318 0.00054472 -0.0011316 -0.00042103
0.0024338 -0.0011968 3.7282e-05 -0.0019923 -0.0020813 0.00011415 -0.0071319 0.28573
0.026244 0.0051882 -0.0025886 -4.0926e-05
-0.0021386 -0.0030591 -0.0038351 -0.00099578 -0.0019291 0.00055431 0.02625 0.0051393
-0.06751 0.21472 0.02003 0.0082879
-0.0040952 -0.00026698 -0.0036522 -0.00065684 -0.0011262 -0.00042049 -0.0026029 -5.5863e-05
0.019981 0.0083076 -0.087036 0.30068
1160000000 0.079475 0.29879 0.024767 -0.021075 0.0028899 -0.00038567 -0.00025448 -0.0023976
-0.0040569 -0.00080774 -0.00095461 0.0043994
0.024737 -0.021034 -0.091924 0.37538 -0.0036238 -0.03025 -0.0017448 -0.0016749
-0.0029326 0.0029281 -0.0015801 0.0021916
0.0029171 -0.00041903 -0.0037631 -0.030259 0.24383 0.2442 -0.00078268 0.0018625
-0.00053957 0.0021012 -0.00098259 0.00038695
-0.00032112 -0.0023326 -0.0017482 -0.0016446 -0.00077717 0.0018599 0.032462 0.28293
0.022101 -0.011432 -0.0034607 0.0049176
-0.0040599 -0.0008153 -0.0028932 0.0029077 -0.00055082 0.002108 0.022112 -0.011437
-0.033453 0.22267 0.019137 -0.0008844
-0.00094788 0.0042651 -0.0015591 0.0021844 -0.00095815 0.00036518 -0.0034673 0.0049428
0.01915 -0.00091131 -0.039657 0.30437
1220000000 0.12388 0.28927 0.011134 -0.030914 -0.0016414 -0.00096532 6.2352e-05 -0.00085534
-0.0027679 0.0022544 0.0010789 0.0020679
0.011122 -0.030894 -0.047269 0.38857 -0.017551 -0.022235 -0.0026684 0.00048527
2.9775e-05 0.003389 -0.00085716 0.0021053
-0.0016263 -0.00094117 -0.017672 -0.022183 0.28289 0.20493 0.00081114 0.0017832
0.00073086 0.0012661 0.00029039 0.00065223
6.8029e-05 -0.00090154 -0.0026955 0.00050357 0.00079547 0.0017775 0.072849 0.27439
0.011105 -0.018607 0.0019581 0.0014749
-0.0027491 0.0022689 3.0948e-05 0.003411 0.00073106 0.0012685 0.011062 -0.01862
-0.0095752 0.23141 0.014267 -0.013872
0.0011346 0.0020697 -0.0008396 0.0021275 0.00029384 0.00065106 0.0019729 0.0014761
0.014267 -0.013841 -0.0077874 0.3188
1280000000 0.17428 0.26904 -0.0082289 -0.029448 -0.002088 0.0025608 -0.00082847 -0.0020328
-0.00081766 0.0033318 0.0027244 0.0013164
-0.0081719 -0.029429 -0.00043266 0.38045 -0.024933 -0.0088664 -0.00093365 0.0016866
0.0019545 0.0017732 0.00074545 0.0020386
-0.0020941 0.0025661 -0.025012 -0.0087615 0.31318 0.16116 0.0016902 -2.2514e-05
0.0013995 0.00023132 0.00031465 0.00022173
-0.0008416 -0.0020075 -0.00092096 0.0016966 0.0016798 -1.2619e-05 0.10999 0.25787
0.00029654 -0.020864 -0.00030614 0.00056738
-0.0008065 0.0033369 0.0019595 0.0017721 0.0014054 0.00022454 0.00025295 -0.020863
0.02721 0.23488 0.0028374 -0.016353
0.0027396 0.0012868 0.00075138 0.0020506 0.00032269 0.00023069 -0.00030312 0.00057297
0.0028542 -0.016353 0.039289 0.32073
1340000000 0.21225 0.23583 -0.01849 -0.019399 0.0007677 0.0049191 -0.0016757 -0.00084942
0.0014694 0.0028264 0.0018893 -0.001401
-0.018457 -0.019371 0.039493 0.37211 -0.022445 0.0046058 -2.1109e-05 0.0020255
0.0021265 0.00069851 0.0013175 0.00082142
0.0008028 0.004924 -0.022448 0.0047077 0.33464 0.1138 0.0010988 -0.00096013
0.00064943 -0.00054403 7.0013e-05 0.00033247
-0.0016837 -0.00087922 -3.3297e-05 0.0020304 0.0010897 -0.00095868 0.14311 0.23665
-0.0098055 -0.017576 0.00062492 0.00068662
0.0015034 0.0028315 0.002123 0.00068313 0.00063828 -0.00054346 -0.0098421 -0.017552
0.057704 0.23013 -0.0045338 -0.014964
0.0018518 -0.0013924 0.0013327 0.00080151 6.6553e-05 0.00031013 0.00063387 0.00066819
-0.0045231 -0.014965 0.07711 0.31528
1400000000 0.24619 0.19856 -0.024362 -0.0072325 0.005543 0.0035415 -0.0022867 0.00064522
0.002648 0.0010248 0.00030467 -0.0016905
-0.02432 -0.0072419 0.077173 0.35919 -0.015437 0.013222 0.0014552 0.0012809
0.0013147 -0.00093147 0.0012309 -2.4369e-05
0.0055343 0.0035484 -0.015389 0.013327 0.34736 0.061361 5.909e-05 -0.0017583
0.00016564 -0.00046508 0.00036928 0.00019135
-0.0022801 0.00067855 0.0014778 0.001258 6.6086e-05 -0.0017565 0.1723 0.20745
-0.016279 -0.0097415 -0.00096918 0.00012219
0.0026478 0.00099914 0.0013105 -0.00094665 0.00016526 -0.00048006 -0.016314 -0.0096918
0.090807 0.22562 -0.011353 -0.009137
0.00029512 -0.0016781 0.0012251 -3.5614e-05 0.00037424 0.00018411 -0.00096415 0.00012401
-0.011345 -0.009126 0.12174 0.30414
1460000000 0.26964 0.15438 -0.020902 0.0055428 0.006068 -0.0017556 -0.0015676 0.0017765
0.00234 -0.00058461 -0.00042077 -0.0011336
-0.020885 0.0055227 0.11146 0.33695 -0.0059628 0.016283 0.0016489 8.7007e-05
0.00082365 -0.0014201 0.0012453 -0.00059694
0.0060703 -0.0017856 -0.0058976 0.016329 0.35427 0.0080955 -0.0013581 -0.0013496
0.00020363 -0.00023412 0.00076841 -0.00019841
-0.0015748 0.0017509 0.0016579 8.9137e-05 -0.0013575 -0.0013591 0.19869 0.17796
-0.017247 -0.0020611 -0.00062187 0.0023845
0.0023161 -0.00061688 0.00082638 -0.0014297 0.00021224 -0.00023562 -0.017245 -0.0020316
0.12058 0.21117 -0.013218 -0.0026074
-0.00045637 -0.0011305 0.0012503 -0.0006035 0.00079316 -0.00019554 -0.00059497 0.0023753
-0.013228 -0.0026383 0.15487 0.28346
1520000000 0.2822 0.11271 -0.014737 0.011142 0.0036965 -0.0045485 0.00013592 0.0026495
0.0021508 -0.002118 -0.0012579 -7.7141e-05
-0.014739 0.011112 0.1446 0.32248 0.0021382 0.013663 0.0016397 -0.00086219
-5.4401e-05 -0.0011003 0.00027063 -0.0011238
0.0036733 -0.0045527 0.0022132 0.013663 0.34799 -0.047257 -0.0011244 -0.00022796
0.00062248 -0.00093782 0.00016829 -0.00024003
0.00017144 0.0026845 0.0016375 -0.00086859 -0.0011226 -0.00022768 0.22147 0.13957
-0.015664 0.0044474 0.001801 0.0022146
0.0021421 -0.0021412 -7.7983e-05 -0.0010998 0.00062125 -0.00093447 -0.015662 0.004488
0.14895 0.19761 -0.012661 0.0024573
-0.0012176 -0.00011841 0.00025304 -0.0011294 0.00015549 -0.0002405 0.0018088 0.0021832
-0.012658 0.0024505 0.18724 0.26251
1580000000 0.29189 0.066676 -0.0074936 0.014197 -0.00087002 -0.0053727 0.0015835 0.0019047
-0.00029681 -0.0023059 -0.00028616 0.00034859
-0.0074999 0.014178 0.17161 0.298 0.0059369 0.0083203 0.0004689 -0.0016075
-0.00060616 -0.00099985 -0.00022576 -0.00085277
-0.00091925 -0.0053922 0.0059932 0.0082896 0.3291 -0.10442 -0.0016658 0.00062776
-0.00046883 -0.0012868 0.00031321 -0.00057837
0.0015578 0.001898 0.00047163 -0.0016079 -0.0016652 0.00061477 0.23476 0.10039
-0.011026 0.0093996 0.0024911 0.00080609
-0.00032156 -0.0022835 -0.0006135 -0.0009728 -0.00047017 -0.001284 -0.011003 0.0094301
0.17324 0.17965 -0.0096109 0.0085496
-0.00025931 0.00040941 -0.00023249 -0.00084994 0.00030976 -0.00057912 0.0024948 0.0008172
-0.0096416 0.008551 0.21895 0.23613
1640000000 0.29404 0.025682 -0.00051669 0.012477 -0.0031548 -0.0028979 0.0027853 0.0010063
-0.00090376 -0.0016161 -0.00037542 0.0006717
-0.00051659 0.01247 0.20096 0.27361 0.0064441 0.0031363 -0.00067769 -0.001773
-0.00097326 -0.00035086 -0.00060149 -0.00062325
-0.0031644 -0.0028486 0.0064698 0.0030899 0.30133 -0.15397 -0.00062511 0.0014857
-0.0011627 -0.00094586 -0.00013271 -0.00040645
0.0028021 0.00097737 -0.00070059 -0.0017666 -0.00061481 0.0014874 0.24694 0.051795
-0.005892 0.010059 0.0027035 -0.00098824
-0.00095027 -0.001621 -0.0009761 -0.00033759 -0.0011594 -0.00093624 -0.00588 0.010075
0.19677 0.15544 -0.004411 0.01042
-0.00040225 0.00064667 -0.0006048 -0.0006334 -0.00012536 -0.00041729 0.0027108 -0.0010146
-0.0044171 0.010413 0.24451 0.20539
1700000000 0.28705 -0.019208 0.0028297 0.0090834 -0.0038735 3.4286e-05 0.0030983 -0.0013831
-0.0021206 -0.0006227 0.00061411 0.00049163
0.0028185 0.0090748 0.21895 0.24284 0.004167 0.00011854 -0.0015049 -0.00056814
-0.00070597 2.0035e-05 -0.00090632 -0.0004669
-0.0039006 3.8885e-05 0.0041811 9.1017e-05 0.25851 -0.19388 0.00043 0.0015519
-0.0020423 2.1433e-05 -0.00042264 -0.00099265
0.0030803 -0.00139 -0.0015025 -0.00056372 0.00042441 0.0015661 0.2434 0.0025642
-0.0027975 0.0095324 0.0016861 -0.002434
-0.0021193 -0.00058499 -0.00069623 1.8914e-05 -0.0020548 3.8097e-05 -0.0027707 0.0095456
0.21401 0.13491 0.00068086 0.010499
0.00066165 0.00048462 -0.00093191 -0.00044955 -0.00043695 -0.00098477 0.0016543 -0.0024063
0.00068419 0.010522 0.26059 0.17137
1760000000 0.27557 -0.067273 0.0047925 0.0054944 -0.0025623 0.0010604 0.0013275 -0.0034463
-0.0013698 0.00082569 0.00038207 -0.00058422
0.0047826 0.0054835 0.24535 0.20393 0.0015368 -0.0018277 -0.001249 0.00023354
-0.0010682 0.00083806 -0.00052873 0.00047263
-0.0025561 0.0010706 0.0015412 -0.0018376 0.21093 -0.22748 0.0010657 0.0010649
-0.0013241 0.0015715 -0.0013115 -0.00066878
0.0013009 -0.0034789 -0.0012487 0.00024369 0.0010538 0.0010465 0.23507 -0.048058
0.00018704 0.0079395 -9.9757e-05 -0.0027344
-0.001374 0.00081873 -0.0010675 0.00085121 -0.0013194 0.0015723 0.00020542 0.0079343
0.2291 0.10029 0.0048125 0.0074667
0.0003227 -0.00060435 -0.00051286 0.00045446 -0.0012872 -0.00068048 -7.3129e-05 -0.002769
0.0048221 0.0074643 0.27411 0.13421
1820000000 0.2516 -0.10428 0.0043486 0.0019216 -0.00027467 0.0026928 -0.0010781 -0.0031349
-0.0010262 0.0011517 -5.6539e-05 -8.061e-05
0.0043509 0.0019359 0.25596 0.17434 -0.00094948 -0.00041873 -0.0012416 0.00097545
-0.00011129 0.001202 -0.0006164 0.00047623
-0.00028725 0.0026871 -0.0009538 -0.00040252 0.15972 -0.24396 0.0016012 0.00041034
-0.00013108 0.0024176 -0.0016269 0.00045169
-0.0011003 -0.0031099 -0.0012228 0.00097266 0.0016383 0.00042359 0.20564 -0.095231
0.00092258 0.0063052 -0.0018683 -0.0017792
-0.0010264 0.0011561 -0.0001035 0.0012035 -0.0001164 0.0024385 0.00092798 0.0063323
0.24596 0.07126 0.0057152 0.0035139
-3.1322e-05 -9.5533e-05 -0.00061403 0.00050431 -0.0016664 0.00046004 -0.0018696 -0.0017523
0.0057024 0.0035207 0.27629 0.097498
1880000000 0.21736 -0.14463 0.0019101 -0.00011863 -0.00049075 0.0023938 -0.0028428 -0.0021692
-7.5155e-05 0.0018509 3.5028e-05 -0.00058769
0.0018992 -9.9128e-05 0.26126 0.12831 -0.0027893 0.0016265 -0.00015657 0.001787
0.00048169 0.0013773 6.3142e-05 0.00097343
-0.00046164 0.002374 -0.0027807 0.0016468 0.10785 -0.25311 0.0018535 -0.00082514
0.001653 0.0020342 -0.0011697 0.0015989
-0.0028419 -0.0022235 -0.00014254 0.0017802 0.0018452 -0.00083327 0.16581 -0.13551
0.0013548 0.0043117 -0.0025377 9.2016e-05
-4.2734e-05 0.0018094 0.00049314 0.0013554 0.001666 0.0020379 0.0013748 0.0043185
0.24977 0.040077 0.0057737 0.00076006
2.8298e-06 -0.00052884 8.1876e-05 0.00095566 -0.0011422 0.0016089 -0.0025406 7.6021e-05
0.0057991 0.00075097 0.27634 0.063566
1940000000 0.17891 -0.17089 -0.00046934 -0.0014337 0.0015113 0.0021725 -0.0037602 0.00041299
0.0014265 0.00092907 -0.0006256 -0.00068372
-0.00045889 -0.0014564 0.2628 0.096482 -0.0015311 0.0041331 0.0011093 0.0012704
0.0018313 0.0006542 0.0010179 0.00028292
0.0015297 0.0021353 -0.0015147 0.0041423 0.062581 -0.24632 0.0006135 -0.0024363
0.0024447 0.00033854 0.00063331 0.0016725
-0.0037442 0.00041274 0.0011267 0.0012514 0.00065607 -0.0024211 0.11402 -0.16687
0.00027985 0.0033798 -0.0017619 0.0016026
0.0014376 0.00091993 0.0018579 0.00064453 0.0024506 0.00033371 0.00028183 0.0033785
0.25263 0.0020736 0.0042766 -0.0025286
-0.00067206 -0.00069537 0.0010108 0.00028046 0.00061845 0.0016749 -0.0017922 0.0016403
0.0042403 -0.002558 0.2661 0.0274
2000000000 0.13283 -0.18623 -0.0041182 0.00081096 0.0027278 0.0015739 -0.0022981 0.0036379
0.00132 0.00027138 -0.00048819 0.00051783
-0.0041092 0.0008093 0.24928 0.06065 -0.0010645 0.0060073 0.001667 0.00041538
0.0014421 -0.00099804 0.00047527 0.00016943
0.002735 0.0015696 -0.001028 0.0060309 0.018719 -0.2328 -0.0012456 -0.0013054
0.0021661 -0.0011694 0.0016755 0.0013799
-0.00225 0.0036408 0.0016502 0.00042572 -0.0012923 -0.0013054 0.060327 -0.1775
-0.001199 0.0034625 -0.00018706 0.0023235
0.0013211 0.0002335 0.0014321 -0.0010011 0.0021541 -0.0011806 -0.0011774 0.0034591
0.24747 -0.03078 0.00058839 -0.0038238
