!Keysight Technologies,M9804A,MY58100912,A.14.10.03
!Date: Thursday, April 27, 2023 10:28:33
!Correction: S11(C  6-Port  ) 
!S12(C  6-Port  ) 
!S13(C  6-Port  ) 
!S14(C  6-Port  ) 
!S15(C  6-Port  ) 
!S16(C  6-Port  ) 
!S21(C  6-Port  ) 
!S22(C  6-Port  ) 
!S23(C  6-Port  ) 
!S24(C  6-Port  ) 
!S25(C  6-Port  ) 
!S26(C  6-Port  ) 
!S31(C  6-Port  ) 
!S32(C  6-Port  ) 
!S33(C  6-Port  ) 
!S34(C  6-Port  ) 
!S35(C  6-Port  ) 
!S36(C  6-Port  ) 
!S41(C  6-Port  ) 
!S42(C  6-Port  ) 
!S43(C  6-Port  ) 
!S44(C  6-Port  ) 
!S45(C  6-Port  ) 
!S46(C  6-Port  ) 
!S51(C  6-Port  ) 
!S52(C  6-Port  ) 
!S53(C  6-Port  ) 
!S54(C  6-Port  ) 
!S55(C  6-Port  ) 
!S56(C  6-Port  ) 
!S61(C  6-Port  ) 
!S62(C  6-Port  ) 
!S63(C  6-Port  ) 
!S64(C  6-Port  ) 
!S65(C  6-Port  ) 
!S66(C  6-Port  ) 
!S6P File: Measurement: :
# Hz S  RI   R 50
500000000 -0.33401 -0.053854 -0.0099566 -0.0010201 -0.0084885 0.013849 -0.0044631 0.012148
0.012944 0.005381 -0.0040587 0.0081243
-0.0098876 -0.00078809 -0.41574 -0.063954 0.0080954 -0.010423 0.0014599 0.011536
0.0083996 0.0030425 0.0022075 0.013464
-0.0084697 0.013742 0.0080594 -0.010489 -0.26728 0.19887 0.0068579 0.0035699
-0.0015759 0.0085873 0.00082369 0.012073
-0.0044473 0.012247 0.0013221 0.011659 0.0069316 0.0033905 -0.33245 0.042892
-0.018549 -0.0049735 0.016268 0.025378
0.01369 0.0048315 0.0083934 0.0030241 -0.0014946 0.0088465 -0.018264 -0.0048142
-0.24704 -0.19644 -0.026542 0.0046777
-0.0041863 0.0081655 0.0021834 0.013293 0.00087601 0.011897 0.016 0.025396
-0.026728 0.0043419 -0.27144 -0.12268
560000000 -0.31909 0.11179 -0.022877 -0.064806 -0.00019473 0.012812 0.0045948 0.01076
0.01086 0.0047639 0.010663 0.0081791
-0.023197 -0.064609 -0.37617 0.099217 -0.041609 -0.037795 0.013399 0.0029755
-0.012204 -0.0038126 0.0035791 -0.0007938
0.00028547 0.012507 -0.041666 -0.037852 -0.18573 0.25075 -0.00034734 -0.0047248
0.01792 0.005129 0.008276 -0.0061677
0.0044733 0.010758 0.014086 0.00279 -0.0002086 -0.0045287 -0.3067 0.13498
0.0055965 -0.023604 0.0052363 -0.020956
0.010923 0.0045273 -0.013171 -0.0044763 0.017952 0.0053625 0.0052619 -0.023545
-0.31011 -0.018476 0.0094397 -0.048546
0.010447 0.0081586 0.0045685 -0.00080648 0.0082085 -0.0060692 0.0051081 -0.020959
0.008879 -0.048264 -0.3326 0.023484
620000000 -0.27772 0.093799 -0.023051 0.0085821 0.0043269 0.009139 0.0082726 -0.0045444
0.011791 -0.0022082 -2.7306e-05 -0.0030368
-0.023096 0.0084971 -0.40357 0.048507 -0.018311 0.00070213 -0.0013743 -0.0021218
0.012411 -0.0066208 0.0010199 -0.0029756
0.0040453 0.0092461 -0.018334 0.00075537 -0.15532 0.25988 -0.00032824 -0.0050499
-0.0037098 -0.0030436 0.0094336 -0.0028202
0.0081513 -0.0046286 -0.0012774 -0.0020399 -0.00052261 -0.0050995 -0.26534 0.14596
-0.039102 -0.019619 0.013195 0.026968
0.011653 -0.0013089 0.012232 -0.0066025 -0.0033924 -0.0032153 -0.038879 -0.019685
-0.22966 -0.051806 -0.041594 0.012364
-0.00013448 -0.0027129 0.0010464 -0.0027665 0.0091938 -0.0030519 0.013485 0.027222
-0.042241 0.012323 -0.24937 -0.0081808
680000000 -0.23926 0.18344 -0.026039 -0.014336 0.0053134 0.0053438 0.0012547 -0.0072534
-0.0023526 -0.011691 0.0055105 -0.0061447
-0.02612 -0.014435 -0.39022 0.14977 -0.032265 -0.001948 -0.0014051 -0.00026719
-0.0019956 -0.0096149 -0.0012023 -0.0013644
0.0055104 0.0053937 -0.03229 -0.0018822 -0.10379 0.28085 -0.00074061 -0.00033241
-0.0021339 0.00035379 -0.0024074 -0.0086811
0.0014118 -0.0072144 -0.0012948 -0.00039798 -0.00091936 -0.00023818 -0.22104 0.19646
-0.023199 -0.007336 -0.0094088 -0.012142
-0.0021411 -0.012052 -0.0018989 -0.0095644 -0.0017367 7.4607e-05 -0.023106 -0.0075055
-0.27954 0.052289 -0.0066658 -0.0077784
0.0057029 -0.0062774 -0.00098279 -0.0013314 -0.0025951 -0.0085727 -0.0094885 -0.011838
-0.0067822 -0.0073721 -0.25904 0.096436
740000000 -0.19384 0.1772 -0.039689 0.026484 0.013414 -0.0050232 -0.0003664 -0.0042249
-0.0042833 -0.0027096 -0.0062393 0.002915
-0.03958 0.02644 -0.33545 0.16867 -0.037033 0.034804 -7.9573e-05 -0.0059636
-0.012282 0.0070642 -0.0018248 -0.0059739
0.013441 -0.0050151 -0.036903 0.034887 -0.070113 0.27743 -0.0021475 0.0032689
-0.0026902 -0.0053695 -0.0012014 0.0010945
-0.00040725 -0.0041927 -4.691e-05 -0.0057466 -0.0022657 0.0032757 -0.20368 0.20389
-0.042907 -0.0077103 0.022199 0.014457
-0.0044812 -0.0025576 -0.011936 0.0070262 -0.0023865 -0.0057102 -0.042859 -0.007421
-0.17907 0.080686 -0.042195 -0.00034402
-0.0063118 0.0030541 -0.0017979 -0.0053746 -0.0014605 0.00088342 0.022041 0.014805
-0.042783 -0.00055944 -0.24946 0.10148
800000000 -0.16209 0.22076 -0.022565 0.016465 0.0059374 -0.010607 -0.0044739 -0.0021012
-0.0046234 0.0025249 0.0044733 0.00078169
-0.022503 0.016482 -0.34152 0.23936 -0.0085636 0.034081 -0.002266 0.0022622
-0.001139 0.0030941 0.00098972 0.0053575
0.0059385 -0.010626 -0.0084593 0.034151 -0.031298 0.30179 0.00093708 0.0015675
8.6043e-06 0.0037883 -0.0016713 0.00095394
-0.0044657 -0.0021336 -0.0023824 0.0022471 0.00090185 0.0015906 -0.1741 0.23176
-0.028791 0.013421 0.013562 -0.0099214
-0.0047315 0.0025939 -0.0011311 0.003031 6.4608e-05 0.0037229 -0.028963 0.013367
-0.22139 0.1088 -0.01793 0.019501
0.0045284 0.00070574 0.0011333 0.0053093 -0.0015753 0.00079549 0.013676 -0.010067
-0.017741 0.019759 -0.24131 0.15054
860000000 -0.12753 0.24061 -0.017894 0.030255 -0.0027894 -0.010228 -0.0023109 0.00042902
0.0038034 0.0046084 -0.003666 -0.0028708
-0.018172 0.03013 -0.29324 0.28181 0.0073223 0.034232 6.1181e-05 0.0020524
0.0034712 0.00031176 0.003579 0.00043165
-0.0028157 -0.010256 0.0074449 0.034253 0.016352 0.31026 -0.00069607 -0.00025894
0.0024285 -0.0015799 0.0015794 0.0042805
-0.0022658 0.00053357 9.6728e-05 0.0020782 -0.00066219 -0.00011586 -0.13764 0.2423
-0.01848 0.017627 -0.0060507 -0.0089003
0.0037543 0.0046524 0.0036181 0.00021562 0.0024478 -0.0017493 -0.018327 0.017598
-0.166 0.15956 -0.023943 0.016429
-0.0035206 -0.0029222 0.0032457 0.00029966 0.001447 0.0043531 -0.006317 -0.008809
-0.023827 0.016568 -0.19021 0.19415
920000000 -0.10413 0.26406 0.0044324 0.038272 -0.0093292 -0.0049821 -0.002077 0.0017508
0.0012299 0.0020552 0.0028549 -0.0015217
0.0043143 0.038287 -0.26603 0.3029 0.027869 0.022802 0.0013288 0.0012739
0.007274 2.1885e-05 0.0038869 -0.002912
-0.0093186 -0.0049786 0.027996 0.022736 0.061544 0.31155 0.0018708 -4.103e-05
0.00090506 -0.0001485 0.00088336 -0.0013972
-0.0020656 0.0017962 0.0013542 0.0012064 0.0018506 -1.1198e-05 -0.11332 0.25928
-0.011482 0.030641 0.0033573 -0.0064916
0.00145 0.002098 0.0075059 0.00026816 0.0009586 -5.1265e-05 -0.011403 0.030511
-0.15555 0.16586 -0.0017053 0.026481
0.0028866 -0.0014957 0.0039363 -0.0030102 0.00089109 -0.001432 0.0034146 -0.0064611
-0.0020142 0.026767 -0.19738 0.20824
980000000 -0.057425 0.28421 0.016589 0.030057 -0.0094773 0.0042234 0.0018422 0.0036733
0.0041704 -0.001592 -0.0030935 -0.002274
0.016697 0.029971 -0.21276 0.33792 0.033217 0.0055137 0.0019973 -0.00014841
0.0018852 -0.0061399 -0.00031238 -0.0023744
-0.0094425 0.0042359 0.033246 0.005428 0.10727 0.30604 0.00071822 -0.0011121
0.00062203 -0.0020106 0.0016349 -0.00019474
0.0017778 0.00359 0.0020086 -2.2959e-05 0.0006699 -0.0010887 -0.074945 0.27047
0.0072758 0.030325 -0.0088862 -0.0070228
0.0040773 -0.0015091 0.0017902 -0.0062379 0.00052426 -0.0020216 0.0074174 0.030297
-0.12173 0.19549 0.0063825 0.019342
-0.0031528 -0.0023117 -0.00041736 -0.002337 0.001575 -0.00016125 -0.0089603 -0.007085
0.0065978 0.019296 -0.15367 0.25148
1040000000 -0.015706 0.29347 0.03282 0.019207 -0.0015452 0.0070423 0.0028121 0.00080955
0.00059734 -0.0033972 -4.3304e-05 -0.0017065
0.032862 0.019202 -0.17776 0.35146 0.030055 -0.014311 0.0018062 -0.001781
-0.001686 -0.0025456 -0.00082118 -0.0027798
-0.0014884 0.0070391 0.030027 -0.014412 0.15312 0.29311 -0.00035491 -0.0016395
-0.0015221 -0.00095073 -0.0004595 -0.0011237
0.0028649 0.00077675 0.0017816 -0.0018047 -0.00035592 -0.0016325 -0.047318 0.27993
0.01914 0.019061 -0.0023376 0.0011118
0.00051638 -0.0034081 -0.0018722 -0.0026066 -0.0015762 -0.00086968 0.019163 0.018991
-0.087727 0.20221 0.013495 0.018027
1.3657e-05 -0.0017757 -0.00074296 -0.0027914 -0.00040515 -0.0011415 -0.0023408 0.0011315
0.013821 0.018247 -0.13156 0.27225
1100000000 0.028834 0.30256 0.036353 -0.0032859 0.0028327 0.0041578 0.0024747 -0.0011433
-0.0019936 -0.0032997 -0.0040707 -3.0878e-05
0.036362 -0.0032754 -0.13475 0.36948 0.016059 -0.027765 0.00012839 -0.001945
-0.0035229 -0.001202 -0.0036242 -0.00055234
0.0028333 0.0041523 0.015957 -0.027855 0.19904 0.27399 -0.0019301 9.7249e-05
-0.0018097 0.00044677 -0.0011311 -0.00041747
0.0024283 -0.0011263 9.9014e-05 -0.0019157 -0.0019006 2.6229e-05 -0.007322 0.28505
0.025011 0.0056793 -0.0023338 8.9968e-06
-0.0021158 -0.0032985 -0.0035164 -0.0011348 -0.0017912 0.00038675 0.024985 0.0056492
-0.067199 0.21506 0.019366 0.0082918
-0.0040696 -9.9639e-06 -0.0036463 -0.00055656 -0.0011148 -0.00043678 -0.0023099 2.5634e-06
0.019385 0.0081826 -0.085891 0.30117
1160000000 0.080029 0.29871 0.024697 -0.020341 0.0028092 -0.00040626 -8.4495e-05 -0.002402
-0.0039903 -0.00083524 -0.0010538 0.0041063
0.024706 -0.02029 -0.091331 0.37411 -0.0030872 -0.029602 -0.0015779 -0.0017647
-0.0027732 0.0024931 -0.0015216 0.0019798
0.0028174 -0.0004526 -0.0032139 -0.029621 0.24239 0.24414 -0.0007857 0.0016862
-0.00059397 0.0019565 -0.00087288 0.00038941
-3.7479e-05 -0.0024323 -0.0016295 -0.0017353 -0.00084002 0.0017363 0.031963 0.28265
0.02132 -0.010118 -0.003252 0.0049938
-0.0039873 -0.00077245 -0.0028466 0.0025877 -0.00062758 0.0018995 0.021342 -0.010152
-0.032838 0.22281 0.018397 -0.00044648
-0.0010422 0.0040505 -0.0015719 0.0019003 -0.00096023 0.0003345 -0.0032477 0.0050721
0.018393 -0.00045372 -0.038844 0.30334
1220000000 0.12392 0.28885 0.011388 -0.030094 -0.0015058 -0.00093537 -3.4353e-05 -0.00091779
-0.0027041 0.0022391 0.0011006 0.0021031
0.011403 -0.03002 -0.047465 0.38723 -0.016733 -0.022023 -0.002677 0.00041325
-1.8627e-05 0.0031362 -0.00076694 0.0019079
-0.001486 -0.00094387 -0.016863 -0.021984 0.28161 0.20587 0.00071173 0.0017076
0.00059079 0.0011958 0.00022577 0.00054914
-7.3883e-05 -0.00089099 -0.002685 0.00046545 0.00074169 0.0017111 0.071999 0.27423
0.011197 -0.016964 0.0021482 0.0014114
-0.0027123 0.0022112 -4.8086e-05 0.0031311 0.000605 0.0011827 0.011185 -0.016988
-0.0088006 0.2313 0.013849 -0.013169
0.0011137 0.0020876 -0.00080993 0.0019196 0.00023989 0.0005273 0.0021499 0.0014142
0.013837 -0.013143 -0.0073136 0.31875
1280000000 0.17426 0.26838 -0.0073844 -0.028937 -0.001968 0.002404 -0.00084218 -0.0021178
-0.00077472 0.0031258 0.0025103 0.0013165
-0.0074059 -0.02895 -0.0016294 0.3793 -0.024099 -0.0091858 -0.0010165 0.0014388
0.0017933 0.0017134 0.00052603 0.0020328
-0.0020132 0.0024136 -0.024176 -0.0090582 0.31273 0.16276 0.0015968 0.00013051
0.0012753 0.00025176 0.00038487 0.00020318
-0.0007815 -0.0021152 -0.0010052 0.0014357 0.0016095 6.7179e-05 0.10906 0.25826
0.0013482 -0.019431 -0.00015159 0.00027019
-0.00079125 0.0031597 0.0017645 0.0017441 0.0012899 0.00026007 0.0013306 -0.019485
0.027678 0.23438 0.0030014 -0.015311
0.0025032 0.0012756 0.00054417 0.002038 0.00039287 0.00023258 -0.00018272 0.00032592
0.0029688 -0.015348 0.03944 0.32024
1340000000 0.21173 0.23558 -0.017398 -0.019524 0.00070161 0.0046871 -0.0017436 -0.00079317
0.0013717 0.0027125 0.0017592 -0.0012651
-0.017356 -0.019531 0.037959 0.37188 -0.022076 0.0038491 -0.00011597 0.0020656
0.0020068 0.00086575 0.0012838 0.00078566
0.00076078 0.004656 -0.022088 0.0039528 0.3351 0.11547 0.00113 -0.00084852
0.0006951 -0.00057612 1.8195e-06 0.00024831
-0.0017396 -0.0007864 -0.00012179 0.002075 0.0011342 -0.00085653 0.14253 0.23749
-0.0079859 -0.016984 0.00076596 0.00037446
0.0013959 0.0026577 0.0020437 0.00082956 0.00067867 -0.00058694 -0.0080161 -0.016948
0.057992 0.22967 -0.0037085 -0.013991
0.0017442 -0.0012705 0.0012486 0.00080747 -2.8479e-05 0.00027586 0.00082431 0.00033995
-0.0037293 -0.014087 0.077548 0.31505
1400000000 0.24555 0.1986 -0.023541 -0.0079303 0.0053017 0.0034594 -0.002218 0.00063189
0.002452 0.00092941 0.00031583 -0.0015657
-0.023494 -0.0079641 0.075556 0.3598 -0.015485 0.012461 0.0013149 0.0013283
0.0013677 -0.00075892 0.0011584 0.00017123
0.0053414 0.0034217 -0.015435 0.012555 0.34875 0.062404 9.5048e-05 -0.0016756
0.00016498 -0.00042669 0.00030096 0.00011195
-0.0022356 0.00062783 0.0013314 0.0013037 0.00010896 -0.0016697 0.17211 0.20857
-0.01429 -0.01031 -0.00084201 -0.0002205
0.0024424 0.00091366 0.0013633 -0.00078167 0.00012619 -0.00047182 -0.014328 -0.010254
0.090655 0.22509 -0.010319 -0.0087565
0.00030345 -0.0015765 0.001171 0.00017743 0.00027398 0.00010699 -0.00092881 -0.0002014
-0.010293 -0.0087786 0.122 0.30411
1460000000 0.26923 0.15501 -0.020622 0.004422 0.0058299 -0.0016523 -0.0015767 0.0017556
0.0021145 -0.00044891 -0.00027026 -0.0010107
-0.020593 0.0043976 0.11047 0.33847 -0.0065237 0.015837 0.0017359 0.00018903
0.00096636 -0.0013605 0.0012233 -0.00057247
0.0058677 -0.0016636 -0.0064783 0.015872 0.35567 0.0082451 -0.0011522 -0.0013612
7.4924e-05 -0.00020836 0.0006828 -0.00021396
-0.0015827 0.0017734 0.0017567 0.00015509 -0.0011232 -0.0013741 0.19903 0.17914
-0.01584 -0.0036886 -0.00084489 0.0020779
0.0020798 -0.00048679 0.00097309 -0.0013688 0.00011198 -0.00015029 -0.015865 -0.0036776
0.1202 0.21096 -0.012019 -0.002738
-0.00027133 -0.0010054 0.0012251 -0.00058743 0.0007103 -0.00023498 -0.00081672 0.0020926
-0.011923 -0.0027237 0.15516 0.28351
1520000000 0.28203 0.11363 -0.01509 0.010102 0.0035605 -0.0043229 7.1956e-05 0.0025701
0.0021387 -0.0019171 -0.0012811 -0.00020266
-0.015094 0.01008 0.14444 0.32417 0.00149 0.013619 0.0016519 -0.00077952
3.4408e-05 -0.0011442 0.00031201 -0.0010466
0.0035447 -0.0043297 0.0015725 0.013639 0.3491 -0.04773 -0.0010777 -0.00031949
0.0006503 -0.00076022 0.00010113 -0.00014983
8.0382e-05 0.0025695 0.0016432 -0.00076678 -0.0010952 -0.00031237 0.22229 0.14053
-0.015428 0.0022152 0.0015308 0.0021294
0.0021569 -0.0019227 1.4808e-05 -0.0011727 0.00065059 -0.00084237 -0.015418 0.0022704
0.14835 0.19745 -0.011851 0.0016541
-0.0012542 -0.00021906 0.00032526 -0.0010231 9.2124e-05 -9.1928e-05 0.0014987 0.0020843
-0.011873 0.0015979 0.18776 0.26265
1580000000 0.29236 0.06769 -0.008372 0.013457 -0.00088831 -0.005109 0.0014802 0.0019662
-0.00019047 -0.002116 -0.0003234 0.00036698
-0.0083756 0.013463 0.1723 0.29976 0.0054708 0.0086235 0.00055267 -0.0015944
-0.00062305 -0.0010721 -0.00013372 -0.00087574
-0.00084552 -0.0050807 0.0055346 0.0085922 0.32988 -0.10532 -0.0017698 0.00050618
-0.00035986 -0.0013123 0.00030505 -0.0005723
0.0015448 0.001959 0.00053835 -0.0016169 -0.0017189 0.00053765 0.23606 0.10093
-0.012178 0.0074592 0.0023044 0.00078404
-0.000166 -0.0020919 -0.00061744 -0.00108 -0.00033741 -0.0012845 -0.012179 0.0074683
0.17283 0.17984 -0.0094191 0.0073609
-0.00031409 0.00035769 -0.00014584 -0.00087366 0.00029143 -0.0005965 0.0022759 0.00087716
-0.0094547 0.007331 0.2195 0.23595
1640000000 0.29504 0.026327 -0.0015812 0.012412 -0.0028827 -0.0027769 0.0027517 0.0010088
-0.0007175 -0.0016362 -0.00043485 0.00071878
-0.0015969 0.012408 0.20239 0.27479 0.0062413 0.003556 -0.00059278 -0.0017938
-0.001059 -0.00040645 -0.00055385 -0.00068888
-0.0029073 -0.0027685 0.0062747 0.0035217 0.30168 -0.15481 -0.00066284 0.0015068
-0.0010182 -0.0010062 -0.0002133 -0.00029414
0.0027118 0.0010665 -0.00063801 -0.0017911 -0.00067384 0.0014225 0.24856 0.051752
-0.0078794 0.0091914 0.0025608 -0.00074559
-0.00075519 -0.0016661 -0.001082 -0.00041108 -0.0010186 -0.0010003 -0.0078448 0.0092412
0.19632 0.15594 -0.0047437 0.0093382
-0.00040995 0.00076309 -0.0005641 -0.00069304 -0.00022788 -0.00029502 0.0026487 -0.00077253
-0.00469 0.0093204 0.24507 0.20517
1700000000 0.28835 -0.019182 0.0019169 0.0097018 -0.0037831 2.204e-05 0.0030768 -0.0012004
-0.0020188 -0.00072039 0.0006136 0.0004427
0.0019073 0.0097052 0.22075 0.24331 0.0041125 0.00044947 -0.0015328 -0.00062235
-0.00085123 2.1339e-05 -0.00095972 -0.00047297
-0.0037937 4.2217e-05 0.0041363 0.00041163 0.25815 -0.19485 0.00049447 0.001633
-0.001978 -0.00018237 -0.0003292 -0.00083563
0.0031244 -0.0012419 -0.0015378 -0.00062625 0.00044013 0.0016412 0.24485 0.0016125
-0.0048568 0.010007 0.0015576 -0.0022824
-0.0019887 -0.00073616 -0.00085852 3.8752e-05 -0.00203 -0.00013164 -0.0048495 0.0099902
0.21374 0.13575 -0.00012774 0.0097204
0.00058976 0.00046304 -0.00095666 -0.00046285 -0.00029332 -0.00081281 0.0015248 -0.0022589
-0.00010559 0.0097208 0.26134 0.17086
1760000000 0.27683 -0.068029 0.0044208 0.0064133 -0.0023827 0.0010125 0.0013548 -0.0033976
-0.0014956 0.00064427 0.00040001 -0.00050289
0.0044455 0.0064229 0.24721 0.20352 0.0018139 -0.0014648 -0.0012735 0.00020752
-0.0011182 0.00092799 -0.00064208 0.00038274
-0.0023852 0.00104 0.0018296 -0.0014676 0.21031 -0.2278 0.0009833 0.0011641
-0.0013988 0.0013811 -0.0012008 -0.00082682
0.0012497 -0.003413 -0.0012632 0.000185 0.0010124 0.001152 0.23569 -0.049777
-0.0011946 0.0093317 -0.00013518 -0.0025843
-0.0014672 0.00062926 -0.0010944 0.00092882 -0.0013857 0.0014061 -0.0012026 0.009362
0.22915 0.10126 0.0039246 0.0072177
0.000397 -0.00052683 -0.0006686 0.00036446 -0.0012316 -0.00074813 -5.3578e-05 -0.0025265
0.0039025 0.0072405 0.27398 0.13335
1820000000 0.2523 -0.10564 0.0046478 0.002718 -0.0001712 0.0025286 -0.0010052 -0.003145
-0.0012009 0.0010184 -8.1372e-06 -0.00013571
0.0046333 0.00273 0.25745 0.17318 -0.00066462 -0.00031843 -0.0013152 0.0009292
-2.1272e-05 0.0012945 -0.00063505 0.00052448
-0.00023363 0.0024812 -0.00062943 -0.00035187 0.15927 -0.24396 0.0016455 0.00045505
-0.00019693 0.0024839 -0.0015398 0.00039981
-0.0010092 -0.0031013 -0.0013359 0.00095675 0.0016948 0.00045768 0.20557 -0.097329
0.000749 0.0078227 -0.0017599 -0.0015912
-0.0011966 0.0010559 -3.1056e-05 0.0012854 -0.00015215 0.0024647 0.00080792 0.0077996
0.24669 0.072251 0.0045963 0.0036246
-1.0492e-05 -0.00014779 -0.00061985 0.00056123 -0.0015254 0.00035264 -0.001779 -0.0015864
0.0046445 0.0036521 0.27633 0.097014
1880000000 0.21713 -0.14615 0.0024782 0.0002787 -0.00058633 0.0021684 -0.0027655 -0.0021793
-0.00031068 0.0020209 -9.3822e-05 -0.00052458
0.0024874 0.00026268 0.26206 0.12667 -0.002467 0.0015494 -0.00014731 0.0018651
0.00058998 0.0013467 8.0756e-05 0.0010034
-0.00057559 0.0022313 -0.0024799 0.0015985 0.10771 -0.253 0.0019296 -0.00086271
0.0016003 0.0020734 -0.0010585 0.0014441
-0.0028661 -0.0021992 -0.00017246 0.001831 0.0018509 -0.00089552 0.1645 -0.13714
0.0016415 0.0054238 -0.0023368 0.00026991
-0.00030518 0.00201 0.00062544 0.0013447 0.001521 0.0020603 0.0016535 0.0054408
0.25075 0.040734 0.0051608 0.0014837
-5.8895e-05 -0.00047531 5.9432e-05 0.0009631 -0.0010654 0.0014219 -0.0023363 0.00032314
0.0050752 0.0015011 0.27621 0.06324
1940000000 0.17772 -0.17214 -7.0942e-06 -0.0015138 0.0014586 0.0022097 -0.0037352 0.0004533
0.0013932 0.0012188 -0.00042447 -0.00061329
5.2827e-05 -0.0015453 0.26284 0.094653 -0.0014136 0.0040907 0.0010254 0.001379
0.0019031 0.00052154 0.0010067 0.00045817
0.0015429 0.0021864 -0.00138 0.0040548 0.061964 -0.24599 0.00048481 -0.0022025
0.0025209 0.0003745 0.00039952 0.0018181
-0.0037127 0.00045649 0.0010641 0.001346 0.00051069 -0.0021944 0.11228 -0.16762
0.00107 0.004073 -0.0015496 0.0014348
0.0014608 0.0012015 0.0019464 0.00051612 0.0025756 0.00035247 0.0011081 0.0041021
0.25403 0.0023773 0.0038256 -0.0019349
-0.00049295 -0.00069456 0.0010067 0.00045263 0.00042642 0.0018373 -0.0014983 0.0013581
0.0039583 -0.0019653 0.26553 0.027204
2000000000 0.13153 -0.18685 -0.0039308 0.00055843 0.0026428 0.0015286 -0.0023137 0.0036641
0.0014597 0.00029633 -0.00063579 0.00051783
-0.0038929 0.00060253 0.24856 0.05897 -0.00096609 0.0059351 0.0016588 0.00039782
0.0014704 -0.0011305 0.00053902 0.00021209
0.0026172 0.0015394 -0.00090175 0.0059236 0.018665 -0.23195 -0.0012373 -0.0013015
0.0021032 -0.0010882 0.0016789 0.0014528
-0.0022664 0.0037663 0.0016978 0.00047802 -0.0012296 -0.0013575 0.05857 -0.17721
-0.00030891 0.0036009 0.00010488 0.002335
0.001395 0.00030484 0.0014217 -0.0011524 0.0021259 -0.0010889 -0.00035726 0.0036109
0.24912 -0.030851 0.00082973 -0.0026763
