!Keysight Technologies,M9804A,MY58100912,A.14.10.03
!Date: Thursday, April 27, 2023 10:28:33
!Correction: S11(C  6-Port  ) 
!S12(C  6-Port  ) 
!S13(C  6-Port  ) 
!S14(C  6-Port  ) 
!S15(C  6-Port  ) 
!S16(C  6-Port  ) 
!S21(C  6-Port  ) 
!S22(C  6-Port  ) 
!S23(C  6-Port  ) 
!S24(C  6-Port  ) 
!S25(C  6-Port  ) 
!S26(C  6-Port  ) 
!S31(C  6-Port  ) 
!S32(C  6-Port  ) 
!S33(C  6-Port  ) 
!S34(C  6-Port  ) 
!S35(C  6-Port  ) 
!S36(C  6-Port  ) 
!S41(C  6-Port  ) 
!S42(C  6-Port  ) 
!S43(C  6-Port  ) 
!S44(C  6-Port  ) 
!S45(C  6-Port  ) 
!S46(C  6-Port  ) 
!S51(C  6-Port  ) 
!S52(C  6-Port  ) 
!S53(C  6-Port  ) 
!S54(C  6-Port  ) 
!S55(C  6-Port  ) 
!S56(C  6-Port  ) 
!S61(C  6-Port  ) 
!S62(C  6-Port  ) 
!S63(C  6-Port  ) 
!S64(C  6-Port  ) 
!S65(C  6-Port  ) 
!S66(C  6-Port  ) 
!S6P File: Measurement: :
# Hz S  RI   R 50
500000000 -0.33651 -0.034018 -0.0093692 -0.0024812 -0.007545 0.011933 -0.0036484 0.011748
0.012068 0.0044772 -0.0037174 0.0081029
-0.0099221 -0.0037992 -0.41888 -0.04791 0.0080104 -0.011326 0.001345 0.011403
0.0073462 0.0024269 0.00066772 0.013077
-0.0081291 0.012391 0.0077122 -0.011386 -0.26382 0.2122 0.0067733 0.0030102
0.00022124 0.0083077 0.00060351 0.012155
-0.0029185 0.010646 0.0017353 0.011454 0.0076296 0.0031112 -0.32732 0.049272
-0.019189 -0.0046436 0.017725 0.025878
0.012264 0.00399 0.0080338 0.0025962 -0.00094371 0.0075279 -0.018933 -0.0054114
-0.22869 -0.17906 -0.027704 0.0047921
-0.0038773 0.0068528 0.0010589 0.012903 0.0018904 0.011713 0.017585 0.025213
-0.027453 0.0046995 -0.27219 -0.1299
560000000 -0.315 0.12609 -0.024623 -0.062034 0.00013011 0.011954 0.006353 0.0097
0.010841 0.0042078 0.0096139 0.0073484
-0.022994 -0.062113 -0.37634 0.11018 -0.041945 -0.036405 0.013105 0.0034886
-0.013283 -0.0049248 0.0043355 -0.00042627
-0.00057673 0.012395 -0.042525 -0.036631 -0.1816 0.25871 -0.00012422 -0.0049347
0.018929 0.0042623 0.0071408 -0.0061992
0.0069052 0.0094717 0.013504 0.0028485 -0.0011004 -0.0052152 -0.30257 0.13629
0.0041382 -0.024575 0.0053598 -0.019498
0.010843 0.0038825 -0.013429 -0.0029367 0.018644 0.0041662 0.0045041 -0.024531
-0.28548 -0.00522 0.0074714 -0.050556
0.010585 0.0072079 0.0032604 -0.00095124 0.0065146 -0.0064013 0.0047083 -0.019693
0.0073783 -0.050429 -0.33353 0.018953
620000000 -0.27311 0.10953 -0.022798 0.0068741 0.0036312 0.0084209 0.0065704 -0.005276
0.011138 -0.0010101 0.00028983 -0.0020919
-0.022878 0.0071346 -0.4023 0.063817 -0.01885 -0.00026997 -0.0013746 -0.0022525
0.01021 -0.0070512 0.001094 -0.0027297
0.0032615 0.0081437 -0.018802 -0.00030073 -0.15247 0.26806 -0.0017366 -0.0053056
-0.0039384 -0.0030317 0.0083061 -0.0036492
0.006425 -0.0061254 -0.0014193 -0.0022918 -0.0015097 -0.0047819 -0.2605 0.14708
-0.038696 -0.018488 0.014134 0.023732
0.011006 -0.00042516 0.010719 -0.0071493 -0.0038405 -0.0037648 -0.03876 -0.018708
-0.20538 -0.044845 -0.040351 0.015081
9.3872e-05 -0.0022935 0.0007452 -0.0027265 0.0084135 -0.0033205 0.014845 0.023519
-0.04076 0.014802 -0.2512 -0.020008
680000000 -0.23216 0.19437 -0.027862 -0.01394 0.0047721 0.0051744 0.0011458 -0.0076311
-0.0034523 -0.010976 0.0044715 -0.0069022
-0.027774 -0.013828 -0.38652 0.16042 -0.032841 -0.0010695 -0.0014912 -0.00032401
-0.0029269 -0.0089352 -0.0010792 -0.0019232
0.0051159 0.0051793 -0.032907 -0.0009162 -0.10188 0.28768 -0.00055361 0.00013469
-0.0024608 0.00061846 -0.002997 -0.0095098
0.00070755 -0.0073095 -0.0016997 -0.0001182 -0.0010342 0.00024812 -0.21804 0.19573
-0.023609 -0.0083838 -0.010707 -0.010594
-0.0040411 -0.010817 -0.0031362 -0.0088901 -0.0022282 0.00063374 -0.023485 -0.0086105
-0.25079 0.052876 -0.0055774 -0.0096753
0.0045624 -0.0060895 -0.0016077 -0.0019088 -0.0025398 -0.0089144 -0.010588 -0.01035
-0.0054173 -0.0096836 -0.26202 0.086619
740000000 -0.18873 0.18919 -0.038422 0.026106 0.012766 -0.0054239 -0.00072414 -0.0041795
-0.0045987 -0.0025858 -0.0061494 0.0036444
-0.038502 0.026029 -0.33484 0.17923 -0.035219 0.034643 -0.00081922 -0.0062192
-0.01088 0.0079909 -0.0029197 -0.0061161
0.012562 -0.005161 -0.034571 0.03467 -0.068212 0.28633 -0.0014959 0.0032893
-0.0027145 -0.003632 -0.0011274 8.3912e-05
-0.00077231 -0.0045031 -0.0008961 -0.0061768 -0.0016177 0.003471 -0.20174 0.20341
-0.042391 -0.0076718 0.021977 0.013012
-0.0048194 -0.0027114 -0.011384 0.0077955 -0.0028179 -0.0046719 -0.042592 -0.0073482
-0.15678 0.075231 -0.042086 0.00086397
-0.0067322 0.0032211 -0.0029271 -0.0060777 -0.0021572 0.00031668 0.021896 0.012827
-0.041867 0.00069247 -0.25443 0.092012
800000000 -0.15698 0.22903 -0.022564 0.017148 0.0051606 -0.010399 -0.0048487 -0.0020774
-0.004017 0.0031136 0.0045822 0.00081226
-0.022704 0.017187 -0.33714 0.24924 -0.0077966 0.033993 -0.0020354 0.0022008
-0.000455 0.0035733 0.0012801 0.0053109
0.0051461 -0.01036 -0.0077881 0.034143 -0.026924 0.30972 0.0012486 0.0014338
0.00072175 0.0035388 -0.0018104 0.00097728
-0.0052952 -0.0018022 -0.0022773 0.0021823 0.0012443 0.0014855 -0.17363 0.23121
-0.028538 0.012668 0.0133 -0.0099804
-0.0043774 0.0031348 -0.00054742 0.0036743 0.00099922 0.003797 -0.028497 0.01272
-0.19858 0.10036 -0.017803 0.017639
0.0042681 0.0015159 0.0010174 0.0056227 -0.001753 0.00069154 0.013425 -0.0098626
-0.01781 0.017623 -0.24602 0.14658
860000000 -0.12209 0.25049 -0.016975 0.031321 -0.0034989 -0.009623 -0.0026262 0.0013555
0.0042161 0.0050477 -0.0030278 -0.0027099
-0.017072 0.031304 -0.28891 0.29118 0.0080499 0.033999 0.00028729 0.0021348
0.0045536 0.00028141 0.0033793 0.00019181
-0.0036813 -0.0094525 0.0081838 0.033969 0.021575 0.31736 -0.00036322 -0.00027311
0.0029043 -0.0015732 0.0015907 0.0045562
-0.0025069 0.0011623 0.00028298 0.0020933 -0.0003803 -0.00030586 -0.13802 0.24319
-0.018174 0.018643 -0.0064059 -0.0092639
0.0047495 0.0048919 0.0046256 0.00043751 0.0026462 -0.0017141 -0.018068 0.018639
-0.15021 0.14783 -0.024592 0.015861
-0.0038119 -0.0030325 0.0033181 9.5465e-05 0.0013547 0.0043751 -0.0063027 -0.0089943
-0.024486 0.015653 -0.19512 0.19032
920000000 -0.096804 0.27322 0.0052536 0.037938 -0.0092645 -0.0040768 -0.0016887 0.0023835
0.0014133 0.0014862 0.0024497 -0.0015492
0.0052841 0.037911 -0.25988 0.31195 0.027941 0.021555 0.001582 0.0009779
0.0066895 -0.00066719 0.0037142 -0.0030152
-0.0093409 -0.0040501 0.028016 0.021512 0.068106 0.31755 0.0017911 -0.00021095
0.0012395 -0.00044384 0.00079846 -0.0010417
-0.0016623 0.0025167 0.0016773 0.0011009 0.0017956 -0.00025832 -0.11375 0.25938
-0.010337 0.029916 0.0025116 -0.0065324
0.0012254 0.0016964 0.0067503 -0.00058791 0.0013443 -0.00025943 -0.010363 0.030003
-0.13929 0.15428 -0.0016939 0.027689
0.002697 -0.0014521 0.0039198 -0.0030204 0.0011087 -0.001188 0.0023653 -0.0063929
-0.0017602 0.027551 -0.20322 0.20394
980000000 -0.048714 0.29288 0.018056 0.029787 -0.0087032 0.0047175 0.0025238 0.0037654
0.0040204 -0.0017749 -0.0030308 -0.0020412
0.017973 0.029783 -0.20689 0.3453 0.032622 0.0044646 0.0020081 -8.0029e-05
0.0010267 -0.0060477 -0.00056043 -0.0021353
-0.0085601 0.0048487 0.032771 0.0043465 0.11436 0.31047 0.00042953 -0.0011579
1.7918e-06 -0.0020543 0.0015539 -5.8518e-05
0.0026141 0.0037098 0.0020272 -0.0002128 0.00035651 -0.0011223 -0.075241 0.27112
0.0071597 0.028784 -0.0092753 -0.0063744
0.0040341 -0.0019242 0.0012393 -0.0062069 6.7902e-05 -0.0020502 0.0072765 0.028841
-0.10777 0.18102 0.0050131 0.019018
-0.0030783 -0.0021664 -0.00062469 -0.0023349 0.00129 -0.00016203 -0.0091435 -0.0064813
0.0049567 0.019026 -0.15948 0.24999
1040000000 -0.0059575 0.30048 0.033262 0.017715 -0.0009419 0.0068144 0.0028375 0.0006823
-8.0688e-05 -0.0036734 -0.00055165 -0.0014518
0.033316 0.017555 -0.17108 0.35827 0.028763 -0.014804 0.0014442 -0.0016532
-0.0025783 -0.0022015 -0.0014162 -0.002728
-0.00088776 0.0067536 0.028813 -0.014932 0.16041 0.29642 -0.00048328 -0.0013636
-0.0015433 -0.00075931 -0.00038744 -0.0011972
0.0026984 0.00070372 0.0014944 -0.0016665 -0.00051117 -0.0013352 -0.047501 0.28087
0.018102 0.01703 -0.0029352 0.0021742
-0.00027558 -0.0035515 -0.0025205 -0.0021228 -0.0016073 -0.00067666 0.018183 0.017049
-0.076396 0.18955 0.013378 0.017645
-0.0004303 -0.0014172 -0.0014021 -0.0028198 -0.00046747 -0.0010992 -0.0028762 0.0021505
0.013376 0.017711 -0.13929 0.27136
1100000000 0.040255 0.30756 0.035564 -0.0045708 0.0030118 0.0036576 0.0025439 -0.0015448
-0.0021453 -0.0029789 -0.0039128 9.7298e-05
0.035589 -0.0045573 -0.12746 0.37488 0.014765 -0.027412 -2.8347e-05 -0.0018185
-0.0030386 -0.00039446 -0.0034223 -0.0004732
0.0030304 0.0035401 0.014631 -0.02751 0.20645 0.27579 -0.0017978 0.0002411
-0.0015952 0.00067676 -0.00093025 -0.00039954
0.0027246 -0.0015314 -2.3996e-05 -0.0018264 -0.0017711 0.00021622 -0.0068793 0.28551
0.022497 0.0050368 -0.0022251 0.0010012
-0.0021767 -0.0029961 -0.0029663 -0.00033697 -0.0016076 0.000593 0.022489 0.0050095
-0.05768 0.20245 0.018637 0.0084119
-0.0039606 -0.00012716 -0.0035241 -0.00055985 -0.00094735 -0.00042346 -0.002192 0.00097591
0.01862 0.0083707 -0.092128 0.30103
1160000000 0.091385 0.30175 0.023644 -0.020806 0.0026626 -0.00063585 -0.0001631 -0.0025866
-0.0039714 -0.00039836 -0.00097046 0.0040035
0.023568 -0.020743 -0.083544 0.37857 -0.0037592 -0.028574 -0.0017663 -0.0016035
-0.0022659 0.0025507 -0.0013217 0.0015699
0.0027015 -0.00065311 -0.0039364 -0.028552 0.24918 0.24482 -0.00060323 0.001661
-0.00035245 0.0017432 -0.00097655 0.00011561
-0.00013632 -0.0025614 -0.0016977 -0.0015463 -0.00061103 0.0016592 0.032494 0.28242
0.019163 -0.0093935 -0.0025884 0.0055772
-0.004032 -0.00035593 -0.0023367 0.0025468 -0.00042344 0.0017199 0.01917 -0.0093787
-0.024111 0.21158 0.017355 0.00056061
-0.00092446 0.0038334 -0.0013125 0.0015472 -0.00082132 8.0752e-06 -0.0025961 0.0056072
0.017335 0.00061104 -0.044969 0.30371
1220000000 0.13599 0.28974 0.010071 -0.029716 -0.0015207 -0.00090235 -0.00022353 -0.0011197
-0.0024157 0.0025792 0.0013357 0.0018268
0.010143 -0.0297 -0.039592 0.38984 -0.016623 -0.020642 -0.0024597 0.00042872
0.00026827 0.0027505 -0.00066378 0.001776
-0.0015868 -0.00094078 -0.016699 -0.020598 0.2882 0.20587 0.00087339 0.0015098
0.00053359 0.001086 0.00025436 0.00074862
-0.00026866 -0.0010685 -0.0025105 0.00046092 0.00086596 0.001546 0.07205 0.27363
0.0093089 -0.015089 0.0028302 0.00165
-0.0025145 0.0025544 0.00027287 0.002741 0.00059377 0.0010256 0.0092743 -0.015112
-0.00026302 0.22046 0.013396 -0.012257
0.0012881 0.0019161 -0.00065455 0.0018095 0.00016677 0.00070498 0.0028773 0.001655
0.013393 -0.012219 -0.013033 0.32137
1280000000 0.18509 0.26688 -0.0078625 -0.028003 -0.0019049 0.0024479 -0.0010986 -0.0019158
-0.00051473 0.0030157 0.0025026 0.00096337
-0.0078412 -0.028001 0.005954 0.38048 -0.023155 -0.0083017 -0.00095442 0.0014444
0.0015917 0.0015273 0.0004912 0.0018918
-0.0018799 0.0024501 -0.023189 -0.008233 0.31884 0.16189 0.0013106 -0.00017993
0.00093533 0.00010536 0.00027409 0.0003541
-0.0011607 -0.0018902 -0.00098449 0.0014854 0.0012549 -0.00020577 0.10839 0.25745
0.00084501 -0.01674 0.00060953 -4.7832e-05
-0.00046441 0.0029666 0.00164 0.0015143 0.00091203 9.1144e-05 0.00081261 -0.016746
0.036781 0.22374 0.0029554 -0.014153
0.0025576 0.00097765 0.00045161 0.001933 0.00028138 0.00028704 0.0005873 -5.2724e-05
0.002959 -0.014175 0.034654 0.32278
1340000000 0.22178 0.2324 -0.017468 -0.01873 0.00082317 0.0042644 -0.0018564 -0.00069291
0.0014768 0.0024726 0.0015801 -0.0014918
-0.017443 -0.018731 0.045118 0.37204 -0.021135 0.0040271 -6.6386e-05 0.0019298
0.0016513 0.00064132 0.0012991 0.00090504
0.00085551 0.0042757 -0.0211 0.0041426 0.34112 0.11382 0.00090139 -0.00080833
0.00056406 -0.00035025 0.00020725 0.00022447
-0.0018492 -0.00064378 -9.0773e-05 0.0018938 0.00089763 -0.00080228 0.14121 0.23733
-0.0071361 -0.014167 0.0013592 -9.8947e-05
0.0015395 0.0025127 0.0016759 0.00064255 0.00049699 -0.00038617 -0.0071718 -0.014159
0.067328 0.21858 -0.0032552 -0.01271
0.0015925 -0.0015614 0.0012803 0.00092171 0.0001749 0.00026532 0.0013222 -0.00011432
-0.0032385 -0.012701 0.073939 0.31864
1400000000 0.25402 0.19383 -0.023042 -0.0074519 0.0049451 0.0030666 -0.0019649 0.0006707
0.0023747 0.00057816 0.0002204 -0.0013166
-0.023033 -0.0074475 0.081832 0.35893 -0.014601 0.011942 0.0013316 0.001265
0.00093548 -0.00076732 0.0012012 0.00030158
0.0049631 0.0030242 -0.014562 0.012061 0.35438 0.059823 6.5375e-05 -0.0014036
2.4038e-05 -0.0003804 0.00034103 0.00024972
-0.0019856 0.00066258 0.0013744 0.0012806 4.5259e-05 -0.001405 0.17109 0.20897
-0.012048 -0.0084193 -0.00064911 -0.00098924
0.0023473 0.00055934 0.0010139 -0.00072905 4.9248e-05 -0.00039772 -0.012057 -0.0083723
0.10024 0.21326 -0.0093519 -0.0081428
0.00013694 -0.0012928 0.0012111 0.00024786 0.00033056 0.0001366 -0.00063753 -0.0010093
-0.0093402 -0.0081749 0.11911 0.30769
1460000000 0.27628 0.14969 -0.020282 0.0044711 0.0053504 -0.0016638 -0.0015166 0.0017205
0.0018685 -0.00074111 -0.00032214 -0.00078806
-0.020222 0.0044492 0.11597 0.33729 -0.0062587 0.014801 0.0016641 0.00019678
0.00081272 -0.001107 0.0011696 -0.00061269
0.0053422 -0.0017238 -0.0061993 0.014853 0.35997 0.0049191 -0.0010166 -0.0012295
0.00026665 -0.00012433 0.0006087 -0.00041541
-0.0015384 0.0017517 0.0016039 0.00012817 -0.00096574 -0.0011261 0.19811 0.17987
-0.012913 -0.0031801 -0.0012261 0.0014049
0.0018265 -0.00067111 0.00074664 -0.0011102 0.0002552 -0.00010848 -0.012932 -0.0031835
0.13001 0.19789 -0.010891 -0.0028682
-0.00027884 -0.00083158 0.001117 -0.00062368 0.00054349 -0.00031461 -0.00118 0.0014272
-0.01088 -0.0028642 0.15272 0.28652
1520000000 0.28797 0.10779 -0.014726 0.010065 0.0030634 -0.0039813 0.0001277 0.0025158
0.0016948 -0.0016253 -0.0011334 -0.0001627
-0.014743 0.010057 0.14949 0.32241 0.0011595 0.012882 0.0016053 -0.000799
0.00013499 -0.00089045 0.00031634 -0.0010342
0.0030441 -0.0039398 0.0012185 0.01292 0.35281 -0.051559 -0.00087184 -0.00036837
0.00054665 -0.00071718 -1.873e-05 -6.6451e-05
0.00018602 0.0024746 0.0015865 -0.00076714 -0.00095814 -0.0004185 0.22204 0.14158
-0.012692 0.0014124 0.00091838 0.0017645
0.0017066 -0.0016319 0.00013633 -0.00089243 0.00062684 -0.00073593 -0.012699 0.0014327
0.158 0.18299 -0.011057 0.0011538
-0.0012391 -0.00015667 0.00031555 -0.0010284 -0.00013176 -7.6698e-05 0.00090546 0.0017762
-0.011069 0.0011473 0.18635 0.26642
1580000000 0.29702 0.061382 -0.0082896 0.013214 -0.00092078 -0.0046109 0.0013484 0.0018199
-0.000501 -0.0019676 -0.0003923 0.0003767
-0.00829 0.013189 0.17676 0.2976 0.004848 0.008249 0.00046214 -0.0015448
-0.00038168 -0.0010155 -0.00028602 -0.00087192
-0.00096642 -0.004618 0.0049126 0.0082726 0.33224 -0.10917 -0.0015425 0.0004457
-0.00024378 -0.0010812 8.0968e-05 -0.00055021
0.0013574 0.0018926 0.00047481 -0.0016027 -0.0015486 0.00039546 0.23682 0.10138
-0.010226 0.0055559 0.0017265 0.00070868
-0.00049657 -0.0019363 -0.00035976 -0.0010501 -0.00022549 -0.0010847 -0.010227 0.0055758
0.18235 0.1645 -0.0088876 0.0063902
-0.00035667 0.00036528 -0.0002834 -0.00087136 0.00021178 -0.00053572 0.0017042 0.00070959
-0.0088942 0.0063865 0.21855 0.23943
1640000000 0.29849 0.019586 -0.0016839 0.012285 -0.0026043 -0.0023477 0.0025671 0.00099528
-0.00072257 -0.0011247 -0.00031333 0.00071542
-0.0016897 0.012296 0.20635 0.27218 0.0055982 0.0037074 -0.00071208 -0.0016437
-0.00096033 -0.00048878 -0.00053221 -0.0006439
-0.0025544 -0.0023957 0.0056609 0.0036795 0.30338 -0.15855 -0.00090235 0.0012529
-0.0010045 -0.00084618 -0.00011418 -0.00030024
0.0026066 0.00096338 -0.00071156 -0.0016353 -0.0008985 0.0013275 0.24935 0.051222
-0.007008 0.0067707 0.0021373 -0.00064828
-0.00068397 -0.0011158 -0.00097281 -0.00048502 -0.001049 -0.00080374 -0.0069849 0.0067876
0.20534 0.13891 -0.0045085 0.0085601
-0.00037163 0.00071343 -0.00059279 -0.00070495 -0.00012534 -0.00028957 0.0021429 -0.0006341
-0.004511 0.0085707 0.24466 0.20786
1700000000 0.29045 -0.025903 0.0018223 0.0096937 -0.0033047 1.515e-05 0.0029049 -0.0010661
-0.0017725 -0.00041021 0.00063111 0.00046946
0.0018157 0.0096856 0.22429 0.24033 0.0037671 0.00088691 -0.0013883 -0.00057432
-0.00083565 -5.8332e-06 -0.00091668 -0.00040067
-0.0033265 5.3376e-05 0.0037763 0.00084876 0.25915 -0.19785 0.0002808 0.0016026
-0.0017 -0.00030833 -0.00049748 -0.00094888
0.0028484 -0.0011242 -0.0014002 -0.0005735 0.00028683 0.001671 0.24559 5.1678e-05
-0.0049589 0.0075492 0.001302 -0.0019557
-0.0018039 -0.00038427 -0.00086036 -2.2609e-05 -0.0017336 -0.00031877 -0.0049621 0.0075778
0.22286 0.11705 -0.00025941 0.0090913
0.00062133 0.00054645 -0.00091875 -0.00034319 -0.00059265 -0.00099631 0.001286 -0.0019234
-0.0002622 0.0090991 0.26111 0.17318
1760000000 0.27724 -0.074585 0.004288 0.0065069 -0.0022026 0.00075996 0.0013567 -0.0032812
-0.0010164 0.00061752 0.0004147 -0.00052472
0.0042744 0.0064872 0.25004 0.20004 0.001782 -0.00091196 -0.001119 0.00017982
-0.0011649 0.00088056 -0.00059145 0.00053722
-0.0021911 0.00080416 0.0017478 -0.00088697 0.2104 -0.23059 0.0011224 0.0013231
-0.0012148 0.0013007 -0.0013425 -0.00042156
0.0013795 -0.0032444 -0.0010953 0.00022435 0.0011759 0.0013034 0.23499 -0.05221
-0.0022965 0.007315 -0.00045225 -0.0020952
-0.00098745 0.00066263 -0.0011312 0.00094967 -0.0011405 0.0013675 -0.0022922 0.0073433
0.23776 0.080162 0.0033903 0.0064604
0.00040855 -0.00055474 -0.00055592 0.00050783 -0.0013955 -0.00049167 -0.00048015 -0.0021181
0.0033929 0.0064641 0.27359 0.13528
1820000000 0.25169 -0.11156 0.0046744 0.0029374 -0.00019812 0.0024729 -0.00086915 -0.0030094
-0.00086026 0.00065812 4.245e-05 -0.00018414
0.0046648 0.0029119 0.25941 0.16958 -0.00021895 2.1663e-05 -0.0013096 0.00088661
-0.00011007 0.0014213 -0.00050902 0.00053384
-0.0001601 0.0024636 -0.0001833 6.5424e-05 0.16016 -0.24628 0.0015713 0.00058465
-0.00039694 0.0021394 -0.0014343 0.00049694
-0.00095537 -0.0030346 -0.0013472 0.00087086 0.0015232 0.0004586 0.20329 -0.099566
-0.0010168 0.0061471 -0.0016354 -0.0013109
-0.00089482 0.00061734 -0.00014846 0.0014168 -0.00035121 0.0021023 -0.0009965 0.0061348
0.25355 0.048589 0.0043211 0.0032626
5.7608e-05 -0.00021073 -0.00051181 0.00059141 -0.0013038 0.00062107 -0.0016457 -0.0012808
0.0043043 0.0032489 0.27592 0.099063
1880000000 0.2156 -0.15102 0.0026376 0.00057202 -0.00020238 0.0021081 -0.00277 -0.0021983
-0.00030164 0.0014482 0.0002822 -0.00059802
0.0026674 0.0005319 0.26327 0.12305 -0.0020759 0.0017732 -0.00015042 0.0017474
0.00068326 0.0013985 0.0002456 0.0010059
-0.0002114 0.0021016 -0.0020894 0.0017691 0.1082 -0.25498 0.0020087 -0.0010045
0.0014512 0.0021192 -0.00090209 0.0015117
-0.0028413 -0.002242 -0.00013699 0.0017366 0.0020035 -0.0009363 0.16136 -0.13856
-0.000507 0.0049416 -0.0022729 0.00087017
-0.00029455 0.0014246 0.00069324 0.0014395 0.0014546 0.0020764 -0.00046768 0.0049252
0.25469 0.013653 0.0039867 0.001533
0.00026465 -0.00055511 0.00026368 0.0010176 -0.00078314 0.0014715 -0.0022171 0.00086686
0.0039921 0.0015302 0.27587 0.065067
1940000000 0.1758 -0.17588 0.00040072 -0.0013482 0.0013755 0.0018278 -0.003771 0.00048796
0.0011655 0.0010533 -0.00060905 -0.00063241
0.00040257 -0.0013422 0.26322 0.09121 -0.00094208 0.0038594 0.00099066 0.0012902
0.0020748 0.00055131 0.00088738 0.00025979
0.0013898 0.0018122 -0.00091739 0.0039237 0.062475 -0.24876 0.00034137 -0.0025316
0.0025331 0.00056738 0.00032152 0.0016015
-0.0037733 0.00043985 0.0010149 0.0014002 0.00042224 -0.0024685 0.10815 -0.1674
-0.0014771 0.0043359 -0.0011038 0.0018467
0.0011892 0.0010824 0.0020393 0.00058909 0.002399 0.00054521 -0.0014496 0.0043228
0.25364 -0.027188 0.0029403 -0.0015096
-0.00059477 -0.00064012 0.00094017 0.00023986 0.00021706 0.0014255 -0.0011054 0.0018445
0.0029396 -0.0014799 0.26476 0.029151
2000000000 0.12956 -0.18945 -0.0035543 0.00052032 0.0023061 0.0015276 -0.002311 0.0035388
0.0010148 0.00029247 -0.00065328 0.0003913
-0.0034713 0.00049505 0.24835 0.056006 -0.0008797 0.0055044 0.0016993 0.00019161
0.0015919 -0.001574 0.0005499 0.00010156
0.0024099 0.0015264 -0.00071282 0.0056221 0.018943 -0.23454 -0.0014741 -0.0014516
0.00216 -0.001257 0.0016687 0.0011933
-0.0022116 0.0035815 0.0015786 0.00029652 -0.0015471 -0.0015286 0.05491 -0.17571
-0.0026568 0.0047426 0.00039558 0.0021594
0.0010082 0.0002437 0.0015321 -0.0016236 0.0022503 -0.0011607 -0.0026583 0.0047257
