!Keysight Technologies,M9804A,MY58100912,A.14.10.03
!Date: Thursday, April 27, 2023 10:28:33
!Correction: S11(C  6-Port  ) 
!S12(C  6-Port  ) 
!S13(C  6-Port  ) 
!S14(C  6-Port  ) 
!S15(C  6-Port  ) 
!S16(C  6-Port  ) 
!S21(C  6-Port  ) 
!S22(C  6-Port  ) 
!S23(C  6-Port  ) 
!S24(C  6-Port  ) 
!S25(C  6-Port  ) 
!S26(C  6-Port  ) 
!S31(C  6-Port  ) 
!S32(C  6-Port  ) 
!S33(C  6-Port  ) 
!S34(C  6-Port  ) 
!S35(C  6-Port  ) 
!S36(C  6-Port  ) 
!S41(C  6-Port  ) 
!S42(C  6-Port  ) 
!S43(C  6-Port  ) 
!S44(C  6-Port  ) 
!S45(C  6-Port  ) 
!S46(C  6-Port  ) 
!S51(C  6-Port  ) 
!S52(C  6-Port  ) 
!S53(C  6-Port  ) 
!S54(C  6-Port  ) 
!S55(C  6-Port  ) 
!S56(C  6-Port  ) 
!S61(C  6-Port  ) 
!S62(C  6-Port  ) 
!S63(C  6-Port  ) 
!S64(C  6-Port  ) 
!S65(C  6-Port  ) 
!S66(C  6-Port  ) 
!S6P File: Measurement: :
# Hz S  RI   R 50
500000000 -0.33501 -0.032861 -0.0094473 -0.0040107 -0.0066245 0.010876 -0.0031189 0.011693
0.012029 0.0049375 -0.0032533 0.0091993
-0.0092825 -0.0039604 -0.42008 -0.047778 0.0075147 -0.01029 0.0014954 0.011647
0.0078454 0.0022516 0.0010265 0.013433
-0.0075244 0.011534 0.0073039 -0.011296 -0.26411 0.21307 0.0070174 0.0038653
0.00016623 0.0080311 0.00044524 0.013091
-0.0045256 0.011114 0.0015071 0.01148 0.0070391 0.0039862 -0.32673 0.049325
-0.019485 -0.0052199 0.017965 0.025642
0.012107 0.0053797 0.0075285 0.0020374 -0.00012792 0.0079911 -0.019498 -0.0052169
-0.22834 -0.17726 -0.028541 0.0038741
-0.0052116 0.0071244 0.001315 0.013118 0.00047237 0.013424 0.017961 0.025641
-0.028562 0.0038682 -0.27135 -0.12977
560000000 -0.31513 0.12635 -0.023908 -0.062064 0.00037046 0.011373 0.006286 0.0095799
0.010744 0.0033712 0.010389 0.008192
-0.024313 -0.062353 -0.37569 0.10809 -0.042557 -0.035906 0.013145 0.0032373
-0.013841 -0.004827 0.0043615 -0.00094619
-9.39e-05 0.011772 -0.041744 -0.035132 -0.18182 0.25857 5.3807e-05 -0.0050769
0.01943 0.003729 0.0076513 -0.0055919
0.0069092 0.0096687 0.012921 0.0035099 0.00032855 -0.0050165 -0.30216 0.13804
0.0050702 -0.023494 0.0031503 -0.020108
0.011304 0.0032994 -0.013867 -0.0046722 0.019486 0.0038747 0.0051093 -0.023563
-0.28534 -0.0041867 0.0080158 -0.048988
0.0097925 0.0087928 0.0040731 -0.00056364 0.0075159 -0.0057511 0.0030995 -0.020118
0.0080054 -0.04902 -0.33452 0.018895
620000000 -0.27251 0.11073 -0.023317 0.0067615 0.003247 0.0079673 0.0074618 -0.0053761
0.010129 -0.0010233 0.00083744 -0.0020355
-0.023285 0.0071734 -0.40215 0.063859 -0.018609 -0.00033468 -0.0015359 -0.0021036
0.010406 -0.0070856 0.001228 -0.0023196
0.003575 0.0083149 -0.018663 -0.0002208 -0.15146 0.26746 -0.0019745 -0.0046825
-0.0031098 -0.004262 0.0077827 -0.0027527
0.0069487 -0.0055182 -0.0014611 -0.0020102 -0.0018269 -0.0045281 -0.26067 0.14572
-0.038087 -0.017559 0.014822 0.02316
0.010731 -0.0007258 0.010285 -0.0070271 -0.0036761 -0.0042211 -0.038112 -0.017588
-0.20706 -0.044114 -0.040835 0.017801
0.00063709 -0.0011606 0.0011496 -0.0024846 0.007795 -0.0028453 0.014745 0.023146
-0.040869 0.017521 -0.25121 -0.016956
680000000 -0.23167 0.19342 -0.027951 -0.014128 0.004773 0.0050097 0.00089308 -0.0070714
-0.0035024 -0.010893 0.0040432 -0.0071531
-0.027709 -0.014085 -0.38668 0.1604 -0.032928 -0.0012162 -0.001823 -0.00027839
-0.0031096 -0.0084933 -0.00099195 -0.0022418
0.0050649 0.005131 -0.032785 -0.0010569 -0.10173 0.28755 -0.00076404 -0.00046437
-0.0025237 0.0010218 -0.0024358 -0.0093539
0.00096033 -0.0070156 -0.0015614 -0.00021725 -0.00065305 -0.0004341 -0.21854 0.19483
-0.02319 -0.0090127 -0.0099243 -0.0098583
-0.0033832 -0.010495 -0.0029796 -0.0085005 -0.0023348 0.00097356 -0.023273 -0.0090128
-0.24983 0.052076 -0.0055955 -0.0090636
0.0046151 -0.0079239 -0.001204 -0.0022292 -0.0025385 -0.0094282 -0.009879 -0.010022
-0.0054727 -0.0090754 -0.26256 0.08819
740000000 -0.18905 0.18874 -0.038456 0.026052 0.012657 -0.0050077 -0.0003545 -0.0038627
-0.0051641 -0.002063 -0.0072784 0.0040866
-0.038123 0.026234 -0.33458 0.17942 -0.03501 0.034926 -0.0011567 -0.0062762
-0.010818 0.0075427 -0.0022634 -0.0059568
0.012368 -0.0053274 -0.035004 0.035242 -0.068336 0.28663 -0.0013919 0.003539
-0.0027288 -0.0041018 -0.001786 0.00081601
-0.00063398 -0.0039559 -0.0010468 -0.0062179 -0.0013095 0.0036168 -0.2012 0.20401
-0.042629 -0.0078511 0.021483 0.01277
-0.0046924 -0.0027798 -0.010851 0.0079391 -0.0028774 -0.0039735 -0.042617 -0.0077423
-0.15609 0.07744 -0.041543 -0.001922
-0.0060912 0.0043633 -0.0025596 -0.006457 -0.0016664 0.00093161 0.021531 0.012942
-0.041736 -0.0020031 -0.25235 0.095199
800000000 -0.15691 0.22917 -0.022455 0.017259 0.0051295 -0.010305 -0.0047749 -0.0021242
-0.0034835 0.0030856 0.004356 0.001068
-0.022534 0.017239 -0.3368 0.24941 -0.0077944 0.034115 -0.0021831 0.0021663
-4.5913e-05 0.0040722 0.0011864 0.0052962
0.0049494 -0.010447 -0.0077163 0.034144 -0.026838 0.30976 0.0012108 0.0013943
0.00098466 0.0038032 -0.0016542 0.0010418
-0.0048582 -0.0020272 -0.0021793 0.0022572 0.0011682 0.0014295 -0.17351 0.23126
-0.02866 0.012826 0.012761 -0.0095804
-0.0037634 0.0030914 -2.7214e-05 0.0038272 0.00098051 0.0038386 -0.02867 0.012882
-0.19888 0.10062 -0.01759 0.016813
0.0043829 0.00071887 0.0011558 0.0052251 -0.0016824 0.00085991 0.012778 -0.0095558
-0.017717 0.016883 -0.24565 0.14578
860000000 -0.12209 0.25048 -0.017089 0.031253 -0.0034412 -0.0095146 -0.0026991 0.0012837
0.0043846 0.0051228 -0.0028959 -0.0025967
-0.01697 0.031228 -0.28909 0.29096 0.0081462 0.03407 0.00026356 0.0020792
0.004387 0.00029477 0.0033121 0.00063407
-0.0034597 -0.0095571 0.008355 0.034041 0.021553 0.31753 -0.0003142 -0.00036329
0.0029116 -0.0018381 0.0015189 0.0048912
-0.0025657 0.0014696 0.00027882 0.0021539 -0.00028471 -0.00035479 -0.13809 0.24344
-0.017796 0.018678 -0.0065083 -0.0095123
0.0045617 0.005182 0.0044188 0.00045767 0.0028417 -0.0017353 -0.017793 0.018661
-0.15054 0.14803 -0.024811 0.01548
-0.0029308 -0.0028491 0.0033415 0.00043923 0.0013817 0.0047386 -0.0063479 -0.0094538
-0.024922 0.015632 -0.19505 0.19069
920000000 -0.096339 0.27346 0.0052342 0.037615 -0.0092875 -0.0039957 -0.0019068 0.0024406
0.0014005 0.0014268 0.0026894 -0.0019933
0.0053472 0.037737 -0.25978 0.31189 0.027944 0.021546 0.0015144 0.0010222
0.0069612 -0.00076858 0.0037036 -0.0032464
-0.0092842 -0.004046 0.027974 0.021439 0.068344 0.3176 0.0017092 -8.0555e-05
0.0011966 -0.00049387 0.00091166 -0.0014279
-0.0017006 0.0022965 0.0015494 0.0010244 0.0017184 -9.0536e-05 -0.11372 0.25954
-0.010288 0.029919 0.0026287 -0.0065829
0.0015012 0.0018886 0.0068845 -0.00080053 0.0012999 -0.00047371 -0.010216 0.029955
-0.13893 0.15468 -0.0015062 0.02726
0.0025067 -0.0014737 0.0035726 -0.003261 0.00078481 -0.0013733 0.0026658 -0.0066055
-0.0013841 0.027239 -0.20337 0.20397
980000000 -0.048518 0.29288 0.018004 0.029906 -0.0085047 0.0045726 0.0025448 0.0038354
0.0036447 -0.0015512 -0.0029281 -0.0020318
0.018041 0.029832 -0.20692 0.34542 0.032842 0.0044069 0.0020567 -0.00015276
0.00092657 -0.0061581 -0.00089965 -0.0019543
-0.0085227 0.0048176 0.032811 0.0043441 0.11451 0.31044 0.00052323 -0.0012758
-0.00014137 -0.0021582 0.0013519 -0.00018797
0.0024749 0.00367 0.0019987 -0.00017089 0.00051698 -0.0012354 -0.075126 0.27119
0.0071922 0.028874 -0.00931 -0.0064409
0.0037504 -0.0016778 0.00091039 -0.006088 -0.00011985 -0.002088 0.0072599 0.028875
-0.10748 0.1816 0.004696 0.01957
-0.0028459 -0.0019842 -0.00069858 -0.001804 0.0013393 -1.6121e-05 -0.0092822 -0.0065013
0.0048076 0.019552 -0.15846 0.2516
1040000000 -0.0054701 0.30067 0.033303 0.017539 -0.0010213 0.0067033 0.0028467 0.00076022
-0.00015047 -0.0037212 -0.00043207 -0.0014605
0.033213 0.017466 -0.1708 0.35827 0.028783 -0.014967 0.0014024 -0.0016256
-0.0025453 -0.0022267 -0.0013224 -0.0028886
-0.00094964 0.0067594 0.028796 -0.015008 0.16037 0.29629 -0.00052794 -0.0013082
-0.0015111 -0.00068647 -0.00044348 -0.0011202
0.0029522 0.00067258 0.001447 -0.0015535 -0.00050982 -0.0013415 -0.04752 0.2809
0.018083 0.016896 -0.0027045 0.0021566
2.9022e-05 -0.0036816 -0.002668 -0.0022563 -0.0014962 -0.00065357 0.018118 0.016897
-0.076311 0.1897 0.013309 0.01773
-0.00057656 -0.0014368 -0.0014477 -0.0028951 -0.0004029 -0.0010257 -0.0027872 0.0021113
0.013384 0.01755 -0.13916 0.27128
1100000000 0.040041 0.30761 0.035515 -0.0046945 0.0028729 0.0036851 0.0026022 -0.0016052
-0.0020469 -0.0028185 -0.0040084 0.00017847
0.035426 -0.0046072 -0.12739 0.37488 0.014604 -0.027431 1.7316e-05 -0.0017306
-0.0031706 -0.00033295 -0.0034691 -0.00041601
0.0029758 0.0035995 0.014592 -0.027502 0.20637 0.27585 -0.0017332 0.000223
-0.0015568 0.00060699 -0.00096137 -0.00025074
0.0024939 -0.0015294 2.3172e-05 -0.0017376 -0.001722 0.00020514 -0.0067802 0.28555
0.0225 0.0050588 -0.0020575 0.00068322
-0.0020638 -0.0028861 -0.0031857 -0.00025496 -0.0015536 0.00057293 0.022537 0.0050244
-0.057496 0.2026 0.018833 0.0084611
-0.0038194 3.7843e-05 -0.0033955 -0.00042634 -0.0008082 -0.00028167 -0.0021531 0.00073664
0.018759 0.0083543 -0.091618 0.30198
1160000000 0.091721 0.30179 0.02353 -0.020795 0.002599 -0.00055375 -0.00017746 -0.0025651
-0.0039268 -0.00040271 -0.00097728 0.0042431
0.023508 -0.02086 -0.083448 0.37863 -0.0038538 -0.028523 -0.0018347 -0.0016243
-0.0023122 0.0025805 -0.0012861 0.001402
0.002627 -0.00063103 -0.0039477 -0.028574 0.24934 0.24486 -0.00064446 0.0016626
-0.00034778 0.0017408 -0.00093277 0.00031739
-0.00016036 -0.0025849 -0.001801 -0.0015699 -0.00068801 0.0016565 0.032596 0.2824
0.018994 -0.0094639 -0.0027223 0.005646
-0.0040043 -0.00042274 -0.0023582 0.0026092 -0.00037828 0.001706 0.019001 -0.009474
-0.024105 0.21136 0.01771 0.00055522
-0.001141 0.0040679 -0.0014767 0.0015511 -0.00087965 0.00010594 -0.0027237 0.0057599
0.017566 0.0004557 -0.044378 0.30339
1220000000 0.13605 0.2896 0.010069 -0.02975 -0.0014441 -0.00083874 -0.00030748 -0.0011049
-0.0024858 0.0024682 0.00157 0.0017936
0.010009 -0.02971 -0.039485 0.38993 -0.016518 -0.02055 -0.0024999 0.00040205
0.00032558 0.0027213 -0.0005456 0.0019276
-0.0015326 -0.00088597 -0.01664 -0.020558 0.28853 0.2059 0.0008192 0.0015485
0.00048391 0.00084994 0.00050813 0.00070812
-0.0002854 -0.0010695 -0.0025238 0.00042735 0.00081748 0.0015775 0.07213 0.27363
0.009373 -0.015043 0.002699 0.0017471
-0.0024906 0.0025603 0.00034551 0.0026972 0.00044417 0.00089434 0.0093613 -0.015086
-0.00013277 0.2208 0.013244 -0.012514
0.0014532 0.0017265 -0.00049997 0.0018025 0.00033046 0.00056524 0.0028187 0.0018113
0.013086 -0.012322 -0.012223 0.32133
1280000000 0.1853 0.26672 -0.00788 -0.028049 -0.0017572 0.0023316 -0.0010884 -0.0018347
-0.00065508 0.0030092 0.0025388 0.00085942
-0.0078907 -0.027963 0.0060967 0.3805 -0.023064 -0.0083175 -0.0010515 0.0015065
0.0014634 0.0014636 0.00070263 0.001826
-0.0018072 0.0024265 -0.023147 -0.0081797 0.3191 0.16166 0.0013274 -0.00013344
0.00081515 7.7005e-05 0.00047378 0.00016929
-0.0011466 -0.0019189 -0.0010132 0.0015094 0.0013384 -9.6862e-05 0.10844 0.25737
0.00082266 -0.01684 0.00061839 0.0001782
-0.00051601 0.0029993 0.0014974 0.0014452 0.00079773 0.00022146 0.00076311 -0.016873
0.037057 0.22403 0.0027638 -0.014071
0.0025777 0.00098624 0.00059823 0.0017881 0.00024629 0.00018419 0.00072912 0.00012721
0.0028513 -0.013846 0.035276 0.32158
1340000000 0.22184 0.23232 -0.017514 -0.018644 0.00077394 0.0042041 -0.0018384 -0.00067405
0.0013837 0.0026339 0.0014443 -0.0015894
-0.017458 -0.01864 0.045176 0.37201 -0.021137 0.0040048 -0.00010983 0.0019211
0.0014854 0.00071998 0.0013264 0.00084083
0.00086296 0.0042483 -0.021079 0.0041489 0.34083 0.1136 0.00093386 -0.00085096
0.00042864 -0.00022497 0.00012937 7.2876e-05
-0.0018755 -0.00060395 -0.00011606 0.0019872 0.00097143 -0.00089584 0.14134 0.23736
-0.0071287 -0.014254 0.0014666 -5.8517e-05
0.0013697 0.0025279 0.001547 0.0006519 0.00058035 -0.00027682 -0.0071937 -0.014244
0.067971 0.21875 -0.0034937 -0.012227
0.0015643 -0.0015643 0.001357 0.00074789 7.9379e-05 0.00039358 0.0014803 -0.00017182
-0.0032312 -0.012149 0.073978 0.31848
1400000000 0.25413 0.1937 -0.023042 -0.007408 0.0048875 0.0029797 -0.0019363 0.00069216
0.0024104 0.00067428 0.00013009 -0.0012489
-0.02302 -0.0074014 0.081911 0.35892 -0.014642 0.011977 0.0013508 0.0012899
0.00090625 -0.00069149 0.0011132 0.00011897
0.0049625 0.0030013 -0.014555 0.012028 0.35419 0.059856 0.00015155 -0.0014089
0.00010692 -0.00023821 6.7974e-05 0.00014086
-0.0019467 0.00069072 0.0013739 0.0012663 9.6245e-05 -0.0014139 0.17116 0.20896
-0.012195 -0.0084373 -0.00048788 -0.00098301
0.0023976 0.00057408 0.00091759 -0.00067838 0.00015311 -0.00036602 -0.01223 -0.0083707
0.10059 0.21292 -0.0090489 -0.0077471
0.0001858 -0.0012219 0.0010464 0.00021263 0.00029181 0.00027723 -0.00057273 -0.0010927
-0.0088691 -0.0079177 0.11876 0.3074
1460000000 0.27638 0.1495 -0.020201 0.0044861 0.0053058 -0.001589 -0.0015168 0.0016937
0.0019405 -0.00071679 -0.00033944 -0.00076378
-0.020182 0.0044613 0.11604 0.33726 -0.0062192 0.014841 0.0016247 0.00014242
0.00082217 -0.0010784 0.0011685 -0.00048972
0.0053788 -0.0016579 -0.00617 0.014883 0.35993 0.0052601 -0.0010262 -0.0011919
0.00046126 -0.00013188 0.0004581 -0.00015728
-0.0015079 0.0017013 0.0016453 0.0001607 -0.0010289 -0.0011903 0.19821 0.1798
-0.012998 -0.003064 -0.0012653 0.0012078
0.0018641 -0.00070083 0.00080127 -0.0010686 0.00031528 -0.00019784 -0.012985 -0.0030171
0.1301 0.19777 -0.010568 -0.0029985
-0.0003684 -0.00086836 0.0012313 -0.00058163 0.00070618 -0.000285 -0.0013773 0.0013009
-0.010659 -0.0031944 0.15299 0.287
1520000000 0.28797 0.10765 -0.014656 0.010041 0.0030056 -0.0039709 1.4719e-05 0.0025016
0.0016567 -0.0017437 -0.001081 -6.435e-05
-0.014692 0.010005 0.14954 0.32246 0.0012121 0.012868 0.001575 -0.00081204
0.00016326 -0.00095807 0.00030075 -0.00099404
0.0030247 -0.0040102 0.0012418 0.012898 0.35296 -0.051613 -0.00087926 -0.00039976
0.0006335 -0.00082262 -4.4858e-05 9.6809e-05
9.5409e-05 0.0025065 0.0015689 -0.00084036 -0.00084435 -0.00035211 0.2221 0.14157
-0.012663 0.0015474 0.00083283 0.0017429
0.0016941 -0.0016521 0.00016276 -0.00094024 0.00055093 -0.00077345 -0.012634 0.0015766
0.1581 0.18295 -0.010803 0.00095067
-0.0010886 -8.7116e-05 0.00030914 -0.00099462 -0.00011332 -0.00013535 0.00082653 0.0018286
-0.010931 0.00089353 0.18684 0.26639
1580000000 0.29698 0.061309 -0.0082536 0.013163 -0.00095523 -0.0046801 0.0013873 0.0018138
-0.00046039 -0.0019657 -0.00037317 0.00031732
-0.0082639 0.013155 0.1769 0.29755 0.0048729 0.008201 0.0004638 -0.0015051
-0.00037639 -0.0010039 -0.0001927 -0.00086802
-0.00097589 -0.0045851 0.0049391 0.0082332 0.33248 -0.10925 -0.0015806 0.00045898
-0.00026283 -0.0012494 0.00031122 -0.00047717
0.001367 0.001793 0.0004567 -0.0015047 -0.001548 0.00043906 0.23684 0.10129
-0.010134 0.0056091 0.0016562 0.0007616
-0.00047522 -0.0020061 -0.00037293 -0.00099835 -0.00027472 -0.0011514 -0.010111 0.0056194
0.18261 0.16444 -0.0087934 0.0061386
-0.00033391 0.00035885 -0.00019783 -0.00093114 0.00022754 -0.00058133 0.001738 0.00081078
-0.0089367 0.0061781 0.21936 0.23947
1640000000 0.29854 0.019531 -0.001685 0.012248 -0.0025487 -0.0024111 0.0025721 0.00099625
-0.00078418 -0.0011172 -0.00028609 0.0007301
-0.0016797 0.012247 0.20639 0.2722 0.0055546 0.0036479 -0.00071158 -0.0016171
-0.00096668 -0.00049698 -0.00054385 -0.00062881
-0.0026174 -0.0024466 0.0056371 0.0036458 0.30332 -0.15876 -0.00095294 0.0012843
-0.0011154 -0.00091915 6.4828e-05 -0.00035399
0.0025455 0.00098355 -0.00073798 -0.0016075 -0.00091886 0.00122 0.24934 0.051189
-0.006904 0.0067676 0.0021446 -0.00054082
-0.00072968 -0.0010934 -0.00097015 -0.00050634 -0.0010505 -0.00077787 -0.0068904 0.0067747
0.20552 0.13881 -0.0046453 0.0083821
-0.00025143 0.00067284 -0.00055935 -0.00062743 -0.00017837 -0.00037131 0.002206 -0.00060505
-0.0046262 0.0085151 0.24508 0.2075
1700000000 0.29054 -0.026006 0.0018323 0.0096129 -0.0033606 3.5006e-05 0.0028734 -0.0011148
-0.0017442 -0.00044967 0.0006572 0.00039614
0.0018005 0.0096546 0.22442 0.24031 0.0037449 0.00090275 -0.0013435 -0.00058238
-0.00083323 -1.3945e-05 -0.00087274 -0.0004576
-0.0032925 1.4513e-05 0.0037708 0.00085695 0.25897 -0.19782 0.0002949 0.0016369
-0.0018268 -0.00025841 -0.00050063 -0.0011869
0.0028881 -0.0010746 -0.0013646 -0.00057493 0.00028878 0.0015891 0.24564 5.0335e-05
-0.0049238 0.0074935 0.0013873 -0.0018869
-0.0017535 -0.00036465 -0.00083889 -7.534e-06 -0.0016898 -0.00033371 -0.0049206 0.0075105
0.22312 0.11682 -0.0004133 0.0090234
0.00064281 0.00043362 -0.00095007 -0.00046203 -0.00052796 -0.00092669 0.0014004 -0.0019442
-0.00038346 0.0090766 0.26159 0.1727
1760000000 0.27737 -0.074679 0.004252 0.0065109 -0.0022082 0.00080661 0.0013269 -0.0032954
-0.0010276 0.00066333 0.00032027 -0.00060792
0.0042733 0.006521 0.25009 0.19997 0.0017569 -0.00083286 -0.0011197 0.00015938
-0.0011985 0.0008916 -0.00057242 0.00045843
-0.0022875 0.00082781 0.0017376 -0.00087699 0.21042 -0.23064 0.0011222 0.0013417
-0.0012108 0.0014798 -0.0012933 -0.0004839
0.0013793 -0.0033062 -0.0011094 0.00020033 0.0010871 0.0013071 0.23505 -0.052251
-0.0023116 0.0072855 -0.0004247 -0.0020669
-0.00095381 0.00069369 -0.0011872 0.00091971 -0.0011706 0.0013961 -0.0022937 0.0072971
0.23781 0.080007 0.003172 0.0064557
0.00030755 -0.00049783 -0.00060373 0.00050929 -0.0012325 -0.00031076 -0.00049857 -0.0021517
0.0032778 0.0065069 0.27385 0.1348
1820000000 0.25172 -0.11176 0.0046209 0.0029487 -0.0001868 0.0023647 -0.00083431 -0.003063
-0.00081485 0.00072368 -1.5066e-05 -0.00012133
0.004643 0.0029208 0.25947 0.16952 -0.00013607 0.00010601 -0.0013183 0.00087737
-0.00014663 0.0014437 -0.00056526 0.00055512
-0.00013675 0.0025135 -0.00019782 4.849e-05 0.16015 -0.24604 0.0015735 0.00054564
-0.00039261 0.002268 -0.0015643 0.00047162
-0.00093598 -0.003077 -0.001285 0.00087916 0.0015445 0.00058735 0.20334 -0.099582
-0.00097926 0.0061142 -0.0016481 -0.0013066
-0.00084127 0.00062927 -0.00010727 0.0014868 -0.00046281 0.0021342 -0.00095935 0.0061048
0.25359 0.048382 0.0041189 0.003317
0.00012812 -0.0001357 -0.00054721 0.00057118 -0.0013239 0.00050446 -0.0016731 -0.0012502
0.0041868 0.0032831 0.27597 0.098638
1880000000 0.21556 -0.15112 0.0026374 0.00062371 -0.00023546 0.0021182 -0.0028232 -0.002221
-0.00029453 0.0013906 0.00020096 -0.00038134
0.0026048 0.00059381 0.26333 0.12296 -0.0020137 0.0017656 -0.00019026 0.001721
0.00069828 0.0013553 0.00015143 0.0010729
-0.00020058 0.0021487 -0.0020375 0.0017448 0.10839 -0.25521 0.0019153 -0.0010812
0.0016039 0.0020315 -0.00083037 0.0016444
-0.002807 -0.0021792 -0.00015968 0.0017242 0.0019134 -0.0011119 0.16145 -0.13871
-0.00048122 0.0048895 -0.0022718 0.00083063
-0.00033857 0.0014282 0.00069306 0.0013476 0.0015172 0.0020281 -0.0004692 0.0048831
0.25479 0.013502 0.0038611 0.0016247
0.00023207 -0.00055371 0.00025006 0.0010992 -0.00070539 0.0014683 -0.0023604 0.0008555
0.0039063 0.001555 0.27577 0.064715
1940000000 0.17559 -0.17605 0.00038329 -0.0013654 0.0014959 0.0018534 -0.0038006 0.00047601
0.0011879 0.0010093 -0.00054127 -0.00071689
0.00035683 -0.001366 0.26323 0.091182 -0.00096968 0.0039207 0.00099614 0.0012633
0.0021172 0.00053482 0.00095586 0.0003548
0.0014237 0.0019018 -0.00092442 0.0039792 0.062233 -0.2487 0.00030618 -0.0024698
0.0025382 0.00047571 0.00043024 0.0018102
-0.0036794 0.00048826 0.0009846 0.0012512 0.00029848 -0.0024171 0.10803 -0.16739
-0.0015591 0.0042735 -0.0012016 0.0017186
0.0011853 0.001105 0.0021154 0.00052579 0.0024269 0.0005489 -0.0015547 0.004281
0.25357 -0.02736 0.0029789 -0.0014034
-0.00056693 -0.00055713 0.00097844 0.00027298 0.00031531 0.0015396 -0.001159 0.0018157
0.0029022 -0.0014883 0.26522 0.028719
2000000000 0.12936 -0.18954 -0.003519 0.0005105 0.0023125 0.0014951 -0.0022367 0.0036496
0.00090368 0.00034873 -0.00049586 0.00024361
-0.0035279 0.00048497 0.24844 0.055856 -0.00073564 0.0055153 0.0016377 0.00021694
0.0015724 -0.0015791 0.00056977 0.00015958
0.0024116 0.0014664 -0.00071202 0.0054677 0.019072 -0.23446 -0.0015314 -0.0014687
0.0020968 -0.0012929 0.001795 0.0012136
-0.002294 0.0035674 0.0016167 0.00020965 -0.0015043 -0.0014961 0.054787 -0.17568
-0.0028109 0.0047365 0.00029187 0.0022233
0.0010471 0.00027481 0.0015674 -0.0015853 0.0021843 -0.0012126 -0.0028036 0.0047515
