!Keysight Technologies,M9804A,MY58100912,A.14.10.03
!Date: Thursday, April 27, 2023 10:28:33
!Correction: S11(C  6-Port  ) 
!S12(C  6-Port  ) 
!S13(C  6-Port  ) 
!S14(C  6-Port  ) 
!S15(C  6-Port  ) 
!S16(C  6-Port  ) 
!S21(C  6-Port  ) 
!S22(C  6-Port  ) 
!S23(C  6-Port  ) 
!S24(C  6-Port  ) 
!S25(C  6-Port  ) 
!S26(C  6-Port  ) 
!S31(C  6-Port  ) 
!S32(C  6-Port  ) 
!S33(C  6-Port  ) 
!S34(C  6-Port  ) 
!S35(C  6-Port  ) 
!S36(C  6-Port  ) 
!S41(C  6-Port  ) 
!S42(C  6-Port  ) 
!S43(C  6-Port  ) 
!S44(C  6-Port  ) 
!S45(C  6-Port  ) 
!S46(C  6-Port  ) 
!S51(C  6-Port  ) 
!S52(C  6-Port  ) 
!S53(C  6-Port  ) 
!S54(C  6-Port  ) 
!S55(C  6-Port  ) 
!S56(C  6-Port  ) 
!S61(C  6-Port  ) 
!S62(C  6-Port  ) 
!S63(C  6-Port  ) 
!S64(C  6-Port  ) 
!S65(C  6-Port  ) 
!S66(C  6-Port  ) 
!S6P File: Measurement: :
# Hz S  RI   R 50
500000000 -0.33657 -0.032755 -0.0097624 -0.0036302 -0.007931 0.0118 -0.0036306 0.011652
0.01196 0.0047069 -0.0039326 0.0082471
-0.0094945 -0.0037887 -0.41941 -0.048335 0.0072667 -0.011737 0.001464 0.011615
0.0074763 0.0021672 0.00025046 0.012725
-0.0077942 0.011674 0.0075122 -0.011693 -0.26442 0.21174 0.0069468 0.0032135
2.9968e-05 0.0081689 0.0004367 0.012091
-0.0034583 0.011436 0.0011658 0.011492 0.0067156 0.0030987 -0.3266 0.049127
-0.019086 -0.0046866 0.018207 0.025503
0.012112 0.0047004 0.0076016 0.0022559 1.9371e-05 0.0080315 -0.019239 -0.004812
-0.22871 -0.1782 -0.027021 0.0048028
-0.0037438 0.0080311 0.00030843 0.012591 0.00053053 0.011927 0.018352 0.025624
-0.027186 0.0047351 -0.27104 -0.13014
560000000 -0.31504 0.12585 -0.024189 -0.062803 0.00022081 0.011931 0.006218 0.0098443
0.010747 0.0043465 0.0098305 0.0074067
-0.02432 -0.062924 -0.37686 0.10972 -0.041889 -0.036332 0.013975 0.0034972
-0.012931 -0.0045063 0.0045076 -0.00024127
0.00044487 0.011949 -0.041946 -0.036471 -0.18213 0.25908 -0.00080419 -0.0047453
0.018916 0.004099 0.0069515 -0.0061885
0.0064228 0.0097555 0.013909 0.0036849 -0.00061204 -0.0050603 -0.30181 0.13647
0.0038809 -0.024644 0.0051778 -0.019339
0.011175 0.0041515 -0.01286 -0.0047002 0.018746 0.0038299 0.0039276 -0.025007
-0.28516 -0.0052328 0.0069294 -0.050334
0.0094165 0.0073785 0.0044971 -0.0001024 0.0071151 -0.0062989 0.0050698 -0.019446
0.0069261 -0.050145 -0.33389 0.019378
620000000 -0.27269 0.11048 -0.023107 0.0069648 0.0032991 0.0086125 0.0067114 -0.0055479
0.011506 -0.0010158 0.0006006 -0.0024251
-0.02299 0.0070418 -0.40227 0.063915 -0.018833 -0.0001601 -0.0014429 -0.002266
0.010238 -0.0071182 0.0010852 -0.0025531
0.003492 0.008387 -0.01898 -0.00013325 -0.15237 0.26838 -0.0016213 -0.0049186
-0.0039316 -0.0032774 0.0077875 -0.0035033
0.0063562 -0.0056535 -0.001501 -0.0021474 -0.0017982 -0.0050643 -0.26082 0.1469
-0.038482 -0.018933 0.013881 0.023306
0.011287 -0.0012064 0.010394 -0.0070806 -0.0038422 -0.0032083 -0.038425 -0.018633
-0.20567 -0.04382 -0.040395 0.015224
0.00037323 -0.0024588 0.0010704 -0.0025643 0.0077564 -0.0034447 0.01391 0.023471
-0.040468 0.015217 -0.25031 -0.019997
680000000 -0.23218 0.19379 -0.027982 -0.014065 0.0048036 0.0048779 0.00099401 -0.0072786
-0.0033489 -0.010932 0.0043461 -0.007012
-0.027848 -0.014065 -0.38673 0.16041 -0.032861 -0.0011788 -0.0015964 -0.00019178
-0.0030313 -0.0088807 -0.0012627 -0.0018892
0.0048124 0.0048196 -0.032887 -0.0010642 -0.1019 0.28764 -0.00063209 0.00016942
-0.0025369 0.00067686 -0.0029932 -0.0094186
0.0010889 -0.0074339 -0.0015892 -0.00015798 -0.00067395 0.00017097 -0.21815 0.19579
-0.023643 -0.0084276 -0.010755 -0.010557
-0.0034132 -0.010948 -0.0028993 -0.008858 -0.0023783 0.00076202 -0.023556 -0.0085716
-0.25104 0.053229 -0.0052931 -0.0095282
0.0044097 -0.0070024 -0.0010538 -0.0020503 -0.0030958 -0.0095043 -0.010726 -0.010299
-0.0050796 -0.0094632 -0.2616 0.086845
740000000 -0.18841 0.18847 -0.038233 0.026113 0.012468 -0.0052694 -0.00081918 -0.0039979
-0.004539 -0.0023925 -0.0062876 0.0037464
-0.038362 0.026067 -0.33478 0.17916 -0.034623 0.034763 -0.00086332 -0.0062249
-0.010823 0.0082896 -0.0029742 -0.0061172
0.012438 -0.0054968 -0.034537 0.034857 -0.068187 0.28684 -0.0014878 0.0032791
-0.0025534 -0.0037007 -0.0010474 0.00018342
-0.0008012 -0.0040144 -0.0008017 -0.0062605 -0.0014596 0.0032167 -0.20165 0.20354
-0.042362 -0.0074232 0.022031 0.012993
-0.0044939 -0.0025202 -0.010773 0.0080311 -0.0025363 -0.0036921 -0.042428 -0.0074447
-0.15666 0.075196 -0.042161 0.00074305
-0.0061638 0.0037666 -0.0031652 -0.0061508 -0.00098507 0.00018136 0.022115 0.012868
-0.042299 0.00087731 -0.2539 0.092547
800000000 -0.15696 0.22913 -0.022561 0.017204 0.0050259 -0.010446 -0.0047968 -0.0019909
-0.0039763 0.0030396 0.0046107 0.00066109
-0.022562 0.017178 -0.33712 0.24922 -0.0078392 0.033931 -0.0020299 0.0022296
-0.00043558 0.0035664 0.0013392 0.0052127
0.0050282 -0.01046 -0.0077097 0.033991 -0.026913 0.30973 0.0012583 0.001468
0.00069398 0.0034953 -0.0017482 0.00085689
-0.0048084 -0.0019669 -0.002064 0.0022247 0.0012692 0.001467 -0.17368 0.2312
-0.028464 0.012612 0.013432 -0.0099018
-0.0040521 0.0031392 -0.00034341 0.003577 0.00073012 0.0035497 -0.028395 0.012614
-0.19878 0.10065 -0.017651 0.017602
0.0045705 0.00078494 0.0012902 0.0052982 -0.0017671 0.00082226 0.013426 -0.0099469
-0.01766 0.017563 -0.24569 0.14725
860000000 -0.12195 0.25046 -0.017178 0.031253 -0.0035048 -0.0095324 -0.0027112 0.0013601
0.0041866 0.0049592 -0.0030055 -0.0027376
-0.017096 0.031229 -0.28918 0.29117 0.0080994 0.034017 0.00026573 0.0021179
0.0046963 0.00017889 0.0033588 0.00046038
-0.0035042 -0.0095449 0.0083227 0.033969 0.021657 0.31747 -0.00033962 -0.00031604
0.0028709 -0.0016056 0.0015416 0.0045741
-0.002665 0.0014453 0.00018271 0.0020616 -0.00035786 -0.00031117 -0.13799 0.24312
-0.01814 0.01852 -0.0063401 -0.0091885
0.0042708 0.0050343 0.0046866 0.00039209 0.0028167 -0.0016196 -0.018005 0.018574
-0.15021 0.14734 -0.024222 0.016111
-0.0029224 -0.0026791 0.00343 0.00022461 0.001632 0.0045208 -0.0062847 -0.0091945
-0.024227 0.01601 -0.19509 0.19051
920000000 -0.096517 0.27351 0.0052078 0.037878 -0.0093149 -0.003977 -0.0017506 0.0022985
0.0014134 0.0014144 0.002497 -0.0016867
0.0051782 0.037853 -0.25993 0.31213 0.027885 0.021568 0.0015557 0.0010542
0.0067436 -0.00078735 0.0037475 -0.002991
-0.0093427 -0.003983 0.027986 0.021548 0.068141 0.31759 0.0017299 -0.00017409
0.0012548 -0.00047274 0.00076575 -0.00099009
-0.0017361 0.0023489 0.0015816 0.0010666 0.001704 -0.00016623 -0.1138 0.25944
-0.010343 0.029962 0.0024299 -0.0064911
0.0014061 0.0015383 0.0068502 -0.00075997 0.0012874 -0.00043868 -0.010239 0.030031
-0.13897 0.15453 -0.0016571 0.027534
0.0025434 -0.0015304 0.0037726 -0.0030962 0.00069266 -0.0011194 0.0024321 -0.006495
-0.0015783 0.0275 -0.20256 0.2039
980000000 -0.048601 0.29278 0.018011 0.029875 -0.0085856 0.0048057 0.00252 0.0037135
0.0039571 -0.0017193 -0.0029825 -0.0020651
0.018002 0.029844 -0.20691 0.34548 0.032737 0.0045091 0.0019998 -9.3531e-05
0.00098616 -0.0061091 -0.00054647 -0.0021728
-0.0085817 0.0047893 0.032779 0.004422 0.11448 0.31055 0.00041506 -0.0011837
2.4377e-05 -0.0020654 0.0015617 -5.4278e-05
0.0025565 0.0037281 0.0019997 -8.4432e-05 0.00044542 -0.0011884 -0.075156 0.27104
0.0071302 0.028811 -0.0092718 -0.0063345
0.0039596 -0.0017641 0.00092533 -0.0060742 1.2574e-06 -0.0020606 0.0072136 0.028759
-0.10783 0.18116 0.0050585 0.018955
-0.0030806 -0.0020507 -0.00059959 -0.0021036 0.0015326 -7.0325e-05 -0.0093019 -0.0063487
0.0049356 0.019052 -0.15918 0.25002
1040000000 -0.005545 0.30064 0.033296 0.017553 -0.00099741 0.0067959 0.0028553 0.00067953
-3.7924e-05 -0.0036308 -0.00054737 -0.0014805
0.033271 0.017572 -0.17103 0.35831 0.028839 -0.014849 0.0014535 -0.0016011
-0.0026521 -0.0022226 -0.001335 -0.00269
-0.00094617 0.0067627 0.028783 -0.014975 0.16043 0.29643 -0.00050604 -0.0013515
-0.0015175 -0.00071489 -0.00035738 -0.0012145
0.0028698 0.00067164 0.0014506 -0.0016621 -0.00049705 -0.0013409 -0.047453 0.28088
0.018223 0.017031 -0.002898 0.0021682
-0.00012712 -0.0036819 -0.0026045 -0.0022456 -0.0014956 -0.000746 0.018237 0.016999
-0.076211 0.18969 0.013328 0.017542
-0.00053287 -0.0014488 -0.0013742 -0.0026914 -0.00032065 -0.0012132 -0.0029002 0.0021674
0.013284 0.017582 -0.13905 0.2716
1100000000 0.040061 0.30754 0.035495 -0.0046382 0.0030105 0.0036363 0.0025512 -0.0015766
-0.0021367 -0.0029474 -0.0038863 9.3265e-05
0.035524 -0.0046023 -0.12738 0.37491 0.014739 -0.027443 -7.0969e-06 -0.001811
-0.0030505 -0.00038651 -0.0033773 -0.00050444
0.002998 0.0036394 0.014633 -0.0275 0.2065 0.27576 -0.0017379 0.00026222
-0.0016177 0.00065365 -0.00088719 -0.00043604
0.0025378 -0.0015471 -2.9754e-05 -0.0017879 -0.0017503 0.00025558 -0.0068122 0.28549
0.022474 0.0050369 -0.0022728 0.00098882
-0.0022274 -0.0029472 -0.0030557 -0.00038524 -0.0016187 0.00068209 0.022495 0.0049944
-0.05758 0.20258 0.018618 0.0083661
-0.0039165 7.1645e-05 -0.0034071 -0.00051144 -0.00093458 -0.00040669 -0.0022465 0.001001
0.018591 0.0084339 -0.091879 0.30118
1160000000 0.091708 0.30181 0.023571 -0.020819 0.0026535 -0.00059695 -0.00017051 -0.0025697
-0.0039902 -0.00036091 -0.00098249 0.0039769
0.023578 -0.020738 -0.083476 0.37855 -0.0038684 -0.028559 -0.0017718 -0.001589
-0.0022673 0.0025126 -0.001319 0.0015711
0.0026391 -0.00064164 -0.0039616 -0.02859 0.24926 0.24485 -0.00059676 0.0016774
-0.00034751 0.0017289 -0.0010172 0.00011835
-0.00016862 -0.0025791 -0.0017869 -0.0015822 -0.00057348 0.001675 0.032509 0.28243
0.019107 -0.0094531 -0.002575 0.0055541
-0.0039872 -0.00040848 -0.0022594 0.0025385 -0.00033143 0.0017305 0.019075 -0.0094614
-0.023982 0.21159 0.017417 0.00056532
-0.00099599 0.0040152 -0.0013934 0.0015565 -0.00096446 0.00013 -0.0026145 0.0055763
0.017372 0.00058491 -0.04469 0.30368
1220000000 0.13606 0.28964 0.010034 -0.029704 -0.0015516 -0.0008937 -0.00024054 -0.0011161
-0.0024365 0.0025498 0.0012864 0.0018747
0.010059 -0.029649 -0.039515 0.38988 -0.016579 -0.020641 -0.0024716 0.00046086
0.00026376 0.0027366 -0.0006865 0.0017441
-0.0015557 -0.00088437 -0.016681 -0.020597 0.28827 0.20589 0.00084404 0.0014838
0.00056145 0.0010807 0.00024596 0.00074012
-0.00021347 -0.0011253 -0.0024711 0.00045801 0.0008569 0.0014899 0.0721 0.27367
0.0092736 -0.015101 0.0028164 0.0016327
-0.0024037 0.0025666 0.00026014 0.0027528 0.00054986 0.001024 0.0092685 -0.015094
-0.0001261 0.22057 0.013342 -0.012307
0.0013287 0.0018243 -0.00068415 0.0018019 0.00025759 0.00073178 0.0028289 0.0016208
0.013387 -0.012312 -0.01281 0.32144
1280000000 0.18524 0.26679 -0.0079112 -0.02799 -0.0018129 0.0024035 -0.0011167 -0.001905
-0.00051359 0.0030015 0.0025152 0.00098573
-0.0078649 -0.027965 0.0059936 0.38051 -0.023161 -0.0083 -0.00097266 0.001463
0.0015977 0.0015206 0.00047155 0.0019588
-0.0018393 0.0024342 -0.023212 -0.0081926 0.31898 0.16186 0.0012915 -0.00016674
0.0009364 0.00014392 0.00024528 0.00041058
-0.0011377 -0.0018957 -0.00095369 0.0014486 0.0012977 -0.00013525 0.10841 0.25744
0.00080066 -0.016754 0.00061914 -1.1527e-05
-0.00048475 0.003023 0.0015957 0.0015203 0.00091949 0.00011904 0.00076652 -0.016764
0.036946 0.22382 0.0029071 -0.014165
0.0025518 0.00091595 0.00050872 0.0019186 0.00024052 0.00038242 0.00061233 -4.0636e-06
0.0029408 -0.014166 0.035051 0.32266
1340000000 0.2218 0.23236 -0.017449 -0.018666 0.00080885 0.0043088 -0.001856 -0.0006779
0.0014843 0.0024766 0.0015945 -0.0014872
-0.017418 -0.018672 0.045132 0.37203 -0.021116 0.004041 -6.1824e-05 0.0019318
0.0016484 0.00063676 0.0013153 0.00088033
0.00084453 0.0042831 -0.021128 0.0041359 0.34122 0.11379 0.00088416 -0.00080482
0.00056843 -0.00036882 0.00022582 0.0002422
-0.0018879 -0.00067856 -7.1426e-05 0.0019255 0.00091385 -0.00082319 0.14127 0.23735
-0.0071894 -0.01412 0.0013581 -8.6619e-05
0.0014943 0.0024712 0.0016579 0.00062712 0.00055237 -0.00035557 -0.0072003 -0.014141
0.067467 0.21862 -0.0033121 -0.012683
0.0015884 -0.001518 0.0013054 0.00086131 0.00020731 0.00021994 0.0013698 -0.00010175
-0.0033137 -0.012706 0.074109 0.31861
1400000000 0.25406 0.19378 -0.02304 -0.0074271 0.004952 0.0030254 -0.0019792 0.00069187
0.0023639 0.00059424 0.0002332 -0.0013254
-0.023002 -0.0074361 0.081913 0.35894 -0.014615 0.011972 0.0013082 0.0012487
0.00092773 -0.00076494 0.0011914 0.00028831
0.0049468 0.0029983 -0.014549 0.012043 0.35434 0.05979 7.8768e-05 -0.0013919
3.5169e-05 -0.00035026 0.00031873 0.00020332
-0.0019735 0.00068909 0.0013201 0.0012458 8.9133e-05 -0.0013893 0.17114 0.20895
-0.012055 -0.0083814 -0.00062813 -0.00096333
0.0023782 0.00059968 0.00092781 -0.00078605 4.7345e-05 -0.00035797 -0.012082 -0.0083506
0.10047 0.21325 -0.0093563 -0.0081315
0.00021155 -0.0013069 0.0011846 0.00030262 0.00032856 0.00024892 -0.00063907 -0.00097558
-0.009332 -0.0081515 0.11932 0.30762
1460000000 0.27634 0.14958 -0.020228 0.0044552 0.0053821 -0.0016804 -0.0015072 0.0017153
0.0018479 -0.00069474 -0.00034863 -0.00080653
-0.020193 0.0044324 0.11601 0.33724 -0.0062708 0.014811 0.0016639 0.00017174
0.00080192 -0.0010921 0.0011877 -0.00061021
0.0053667 -0.0016687 -0.0062023 0.01485 0.35997 0.0048921 -0.0010068 -0.0012094
0.00025322 -0.00012074 0.00063988 -0.00042667
-0.001493 0.0017044 0.0016722 0.0001744 -0.0010203 -0.0012175 0.19815 0.17985
-0.012911 -0.0031426 -0.0012145 0.0013961
0.0018494 -0.00073169 0.00078337 -0.0010997 0.00025831 -0.00012072 -0.012937 -0.0030937
0.1302 0.19789 -0.010903 -0.0028811
-0.00033012 -0.00077185 0.0011782 -0.00061896 0.00062619 -0.00045753 -0.0012185 0.0013907
-0.010907 -0.0028807 0.15282 0.28646
1520000000 0.28806 0.10775 -0.014709 0.010034 0.0030197 -0.0039706 0.00012318 0.0025176
0.0017126 -0.0016309 -0.0011412 -0.00019337
-0.014703 0.010022 0.14953 0.32243 0.0011633 0.012882 0.0015944 -0.00078798
0.00013508 -0.0009013 0.00031978 -0.0010311
0.0030334 -0.0040015 0.0012474 0.012882 0.3529 -0.051615 -0.00089111 -0.00038094
0.00056767 -0.00071536 -1.3454e-05 -6.8834e-05
0.00012982 0.0025154 0.0015859 -0.00080776 -0.00089911 -0.00039935 0.22206 0.14156
-0.012665 0.0014486 0.00091585 0.0017717
0.001693 -0.0016309 0.00012581 -0.00090693 0.00056557 -0.00074316 -0.012656 0.0014678
0.15812 0.18296 -0.011056 0.0011579
-0.0011407 -0.00015635 0.0003026 -0.0010402 -8.3767e-06 -9.1696e-05 0.00092323 0.0017634
-0.011071 0.0011492 0.18648 0.26634
1580000000 0.29699 0.061335 -0.0082621 0.013175 -0.0009507 -0.0046163 0.0013539 0.0018313
-0.00048065 -0.0019845 -0.00037446 0.00035237
-0.0082827 0.013162 0.17685 0.29757 0.0048293 0.0082542 0.00045132 -0.0015402
-0.00037387 -0.0010261 -0.00026659 -0.00087392
-0.00096565 -0.004625 0.0048937 0.0082504 0.33214 -0.10927 -0.0015342 0.00043527
-0.00025269 -0.00108 0.00013563 -0.00054294
0.0013755 0.0018146 0.00045026 -0.0015427 -0.0015319 0.00043751 0.23687 0.10136
-0.010182 0.0055767 0.0017285 0.00068947
-0.00050263 -0.0019733 -0.00038788 -0.0010191 -0.000251 -0.0010925 -0.010177 0.0055974
0.18251 0.1644 -0.0088753 0.0064077
-0.00039513 0.00038279 -0.00028205 -0.00088584 0.0001134 -0.00054306 0.0017243 0.00070336
-0.0088877 0.0064077 0.21868 0.23936
1640000000 0.29852 0.019581 -0.0016762 0.012273 -0.002569 -0.0024138 0.002559 0.00099433
-0.00071428 -0.0011123 -0.00034118 0.00073347
-0.001687 0.012253 0.20638 0.27218 0.005638 0.0036623 -0.00070727 -0.0016328
-0.00094188 -0.00048266 -0.00055162 -0.0006307
-0.0025674 -0.0024076 0.0056607 0.0036496 0.30341 -0.15853 -0.000899 0.001245
-0.00099634 -0.00082696 -5.6204e-05 -0.00024223
0.0025697 0.00098962 -0.00072804 -0.0016184 -0.00088577 0.0012684 0.24936 0.051168
-0.0069567 0.0067439 0.0021497 -0.00065447
-0.00073122 -0.0011167 -0.00096486 -0.00047072 -0.00097053 -0.00082447 -0.0069416 0.0067825
0.20546 0.13883 -0.0044829 0.0086141
-0.00034381 0.00072981 -0.00055482 -0.00064553 -9.72e-05 -0.00027187 0.0021366 -0.00066449
-0.004494 0.0086216 0.24486 0.20782
1700000000 0.29052 -0.025999 0.0018206 0.0096786 -0.0032936 2.802e-05 0.0029 -0.0010843
-0.0017549 -0.00039094 0.00061438 0.00047799
0.0018076 0.0096614 0.22438 0.24034 0.0037675 0.00088228 -0.0013842 -0.00058247
-0.00082625 -7.31e-06 -0.0009151 -0.00042809
-0.0033407 5.3271e-05 0.0037838 0.00085104 0.25924 -0.19796 0.00028573 0.0015827
-0.0016939 -0.00033001 -0.00048501 -0.00099505
0.0028929 -0.0010885 -0.0013956 -0.00056797 0.00025928 0.001592 0.24559 2.9912e-06
-0.0049331 0.0075177 0.0013092 -0.0019632
-0.0017947 -0.00039828 -0.00082691 -2.4042e-06 -0.0017012 -0.00033283 -0.0049198 0.0075381
0.22297 0.11695 -0.00020954 0.0091097
0.00062969 0.00045118 -0.00092755 -0.00040751 -0.00048438 -0.00096871 0.0013021 -0.0019697
-0.00023004 0.009105 0.26138 0.17307
1760000000 0.27735 -0.07457 0.0042715 0.0065193 -0.0022301 0.00081822 0.0013599 -0.0032675
-0.0010074 0.00062321 0.00041556 -0.00051563
0.0042566 0.0065152 0.25008 0.19999 0.0017467 -0.00088891 -0.0011142 0.00019016
-0.0011687 0.00087366 -0.00058844 0.0005323
-0.0021948 0.00082068 0.00174 -0.00087731 0.21021 -0.23061 0.0011274 0.0013339
-0.0012275 0.0012868 -0.001342 -0.00039783
0.0013576 -0.0032884 -0.0011113 0.0001824 0.0011435 0.001332 0.23501 -0.052291
-0.0022708 0.0072983 -0.00047781 -0.0021181
-0.001007 0.00062972 -0.0011494 0.00089286 -0.0012005 0.0013379 -0.0022652 0.0073203
0.23779 0.080031 0.003425 0.0064829
0.00040497 -0.00052564 -0.00057788 0.00054478 -0.0013681 -0.00039804 -0.00049345 -0.0021067
0.0034191 0.0064832 0.2738 0.1351
1820000000 0.2517 -0.11162 0.0046592 0.0029393 -0.0001202 0.0024219 -0.00086459 -0.0030573
-0.00085006 0.0006497 5.8339e-05 -0.00016409
0.0046379 0.0029467 0.25946 0.16955 -0.0001927 7.885e-05 -0.0013188 0.00086774
-0.00013181 0.0014125 -0.00051013 0.00053947
-0.00012272 0.0024015 -0.00017709 6.786e-05 0.16024 -0.24611 0.0015639 0.00055836
-0.00037709 0.0020977 -0.001368 0.00048981
-0.00090038 -0.0030381 -0.0013122 0.00088786 0.0015481 0.00054765 0.20324 -0.09957
-0.0010137 0.0060719 -0.0016554 -0.0013319
-0.00086315 0.00066029 -0.0001259 0.0014235 -0.00037255 0.0021459 -0.0010121 0.006107
0.25362 0.048489 0.0043653 0.003259
3.4272e-05 -0.00018205 -0.00050956 0.00052653 -0.0014094 0.0004763 -0.0016555 -0.0013139
0.0043532 0.0032502 0.27613 0.098876
1880000000 0.21561 -0.15108 0.0026198 0.00056873 -0.00020353 0.0020942 -0.0028135 -0.0022192
-0.00032587 0.0014292 0.00028701 -0.00057935
0.0026008 0.00057003 0.26335 0.12293 -0.0020678 0.001701 -0.00014691 0.0017188
0.00068702 0.0014129 0.00022517 0.0010185
-0.00023971 0.0021226 -0.0020555 0.0017551 0.10845 -0.25531 0.0019994 -0.00098893
0.0014436 0.0021358 -0.00090975 0.0014932
-0.0028105 -0.0021955 -0.00014285 0.0017257 0.0020335 -0.00098529 0.16136 -0.13864
-0.00050802 0.004911 -0.0022983 0.00087023
-0.00030943 0.0014368 0.00068131 0.0014097 0.0014626 0.002139 -0.00050465 0.0049147
0.25472 0.013532 0.0040067 0.0015066
0.0002671 -0.00058754 0.00022946 0.001016 -0.00081806 0.001508 -0.0022949 0.00085509
0.0039896 0.001516 0.27595 0.064737
1940000000 0.1757 -0.17598 0.00039259 -0.0013495 0.0014116 0.0018676 -0.0037398 0.00049573
0.0011928 0.0010405 -0.00056861 -0.00063259
0.00039028 -0.001346 0.2632 0.091176 -0.00097141 0.0039061 0.00099594 0.0013167
0.0020676 0.0005601 0.00089319 0.00027638
0.0014111 0.0018757 -0.00096442 0.0039418 0.06242 -0.24883 0.00029056 -0.0024546
0.0024781 0.00054499 0.00036934 0.0016083
-0.003746 0.00052812 0.00099986 0.0013188 0.00031306 -0.0024537 0.10811 -0.16739
-0.0015369 0.0043196 -0.0011135 0.0018756
0.0011927 0.0010426 0.0020766 0.00054354 0.0024836 0.00056298 -0.0015263 0.0043154
0.25364 -0.027268 0.00293 -0.0014869
-0.0005987 -0.00061887 0.00088849 0.00028213 0.00041978 0.0015883 -0.0010901 0.0018751
0.0029367 -0.0014692 0.26478 0.028894
2000000000 0.12951 -0.18952 -0.0035574 0.00048039 0.0023867 0.0014715 -0.0023214 0.003528
0.0010033 0.00030779 -0.00064848 0.00039299
-0.0035406 0.00048444 0.24843 0.055875 -0.00079047 0.0055813 0.0016605 0.00019067
0.0016058 -0.0015613 0.00055217 0.00011462
0.0023885 0.0014797 -0.00075263 0.0055849 0.018932 -0.23439 -0.0015269 -0.0014364
0.002145 -0.0012211 0.0016708 0.0012052
-0.0022994 0.003521 0.0016658 0.00018749 -0.001512 -0.0014777 0.054839 -0.17576
-0.002715 0.0047331 0.00035353 0.0021762
