!Keysight Technologies,M9804A,MY58100912,A.14.10.03
!Date: Thursday, April 27, 2023 10:28:33
!Correction: S11(C  6-Port  ) 
!S12(C  6-Port  ) 
!S13(C  6-Port  ) 
!S14(C  6-Port  ) 
!S15(C  6-Port  ) 
!S16(C  6-Port  ) 
!S21(C  6-Port  ) 
!S22(C  6-Port  ) 
!S23(C  6-Port  ) 
!S24(C  6-Port  ) 
!S25(C  6-Port  ) 
!S26(C  6-Port  ) 
!S31(C  6-Port  ) 
!S32(C  6-Port  ) 
!S33(C  6-Port  ) 
!S34(C  6-Port  ) 
!S35(C  6-Port  ) 
!S36(C  6-Port  ) 
!S41(C  6-Port  ) 
!S42(C  6-Port  ) 
!S43(C  6-Port  ) 
!S44(C  6-Port  ) 
!S45(C  6-Port  ) 
!S46(C  6-Port  ) 
!S51(C  6-Port  ) 
!S52(C  6-Port  ) 
!S53(C  6-Port  ) 
!S54(C  6-Port  ) 
!S55(C  6-Port  ) 
!S56(C  6-Port  ) 
!S61(C  6-Port  ) 
!S62(C  6-Port  ) 
!S63(C  6-Port  ) 
!S64(C  6-Port  ) 
!S65(C  6-Port  ) 
!S66(C  6-Port  ) 
!S6P File: Measurement: :
# Hz S  RI   R 50
500000000 -0.33645 -0.033025 -0.0095005 -0.0035946 -0.0077638 0.011753 -0.0032849 0.011593
0.01224 0.0050141 -0.0038048 0.0083185
-0.0094911 -0.0035972 -0.41935 -0.048189 0.0074053 -0.011346 0.0013079 0.011817
0.0074994 0.0019936 0.00048073 0.012946
-0.0076727 0.011791 0.0073865 -0.011527 -0.26434 0.21205 0.0068779 0.0033175
-0.0001155 0.0081101 0.00035452 0.012093
-0.0034612 0.011591 0.0012945 0.011546 0.0068323 0.0032423 -0.32696 0.049426
-0.018987 -0.0049232 0.017629 0.025839
0.012238 0.0043266 0.0077928 0.0024498 0.00026265 0.0081667 -0.019159 -0.0047997
-0.22862 -0.17841 -0.026804 0.0044852
-0.0038469 0.0081559 0.000402 0.013004 0.00044405 0.012102 0.017649 0.026066
-0.02659 0.0045388 -0.27235 -0.12963
560000000 -0.31498 0.12588 -0.024071 -0.063022 0.00035847 0.012088 0.0063339 0.0099414
0.01088 0.0040674 0.0094875 0.0076298
-0.024048 -0.062981 -0.37657 0.11015 -0.041649 -0.036617 0.013943 0.0039804
-0.012936 -0.00491 0.0044837 -0.00021731
0.00034447 0.011928 -0.04204 -0.036807 -0.18227 0.25922 -0.00080546 -0.0050134
0.018843 0.0042534 0.0072787 -0.0064566
0.0061834 0.0096953 0.013689 0.0038774 -0.00082542 -0.0049613 -0.30187 0.1365
0.0038074 -0.024915 0.0049477 -0.019272
0.011047 0.0041132 -0.013048 -0.0052396 0.018915 0.0042762 0.0037748 -0.024944
-0.28535 -0.0049918 0.007096 -0.050634
0.0093902 0.0074037 0.0042243 -9.4314e-05 0.007091 -0.0063319 0.0049579 -0.019349
0.0070949 -0.050685 -0.33355 0.018973
620000000 -0.27293 0.11042 -0.022929 0.0069884 0.0037264 0.0083548 0.006759 -0.0054269
0.011387 -0.00099386 0.00038024 -0.0021279
-0.022917 0.0069832 -0.40243 0.06396 -0.018866 -6.0166e-05 -0.0014822 -0.002147
0.010317 -0.0071151 0.0010508 -0.0026706
0.0036212 0.0085342 -0.018993 -0.00015083 -0.15218 0.26857 -0.0019435 -0.0052433
-0.00386 -0.0033878 0.0076503 -0.003876
0.0066381 -0.0055089 -0.0014046 -0.0022367 -0.0017848 -0.0051381 -0.26017 0.14692
-0.03867 -0.018566 0.01425 0.023527
0.011204 -0.0010616 0.010254 -0.0070609 -0.0038041 -0.0032486 -0.039073 -0.018499
-0.20546 -0.044336 -0.040891 0.015289
0.00012215 -0.0022939 0.00091762 -0.0025864 0.0077831 -0.003624 0.014189 0.023481
-0.040905 0.01536 -0.25044 -0.020106
680000000 -0.23216 0.19382 -0.027854 -0.013979 0.0047869 0.0048254 0.0009349 -0.007313
-0.003309 -0.010925 0.00448 -0.0069309
-0.027833 -0.01396 -0.38674 0.16042 -0.03284 -0.0011537 -0.0016823 -0.00032232
-0.0029458 -0.0088971 -0.0010787 -0.0019187
0.0048294 0.0048554 -0.032886 -0.0010529 -0.10191 0.28767 -0.00066013 0.00018756
-0.0024382 0.00057899 -0.0029637 -0.0094161
0.0010864 -0.0074706 -0.0016446 -0.00022751 -0.00058388 0.00024445 -0.21808 0.1958
-0.023634 -0.0084601 -0.010697 -0.010542
-0.0035616 -0.010939 -0.0029555 -0.008934 -0.0023584 0.00059404 -0.023815 -0.0084779
-0.25085 0.052997 -0.0051487 -0.0096197
0.0044917 -0.0069207 -0.0011327 -0.0019721 -0.0030437 -0.0095588 -0.01069 -0.010403
-0.0051903 -0.00958 -0.26184 0.086775
740000000 -0.1887 0.18839 -0.038191 0.026088 0.012435 -0.0053886 -0.00075352 -0.0041611
-0.0044826 -0.0025724 -0.0061736 0.0038536
-0.038163 0.026087 -0.33472 0.17922 -0.034715 0.034813 -0.00095706 -0.0063454
-0.010622 0.0083234 -0.0029849 -0.0062356
0.012305 -0.0054238 -0.034666 0.034922 -0.068053 0.28681 -0.0014727 0.0031863
-0.002621 -0.0034926 -0.00089799 -6.0246e-05
-0.00064264 -0.0039952 -0.00096515 -0.0063146 -0.0015005 0.0031607 -0.20186 0.20369
-0.042137 -0.0075589 0.021919 0.012876
-0.004644 -0.0024064 -0.011023 0.0082117 -0.0027495 -0.0036928 -0.042288 -0.0076087
-0.15723 0.075387 -0.041831 0.00076585
-0.0061814 0.0038931 -0.0031417 -0.0060823 -0.0010752 9.6679e-05 0.021984 0.012943
-0.041765 0.0006893 -0.2541 0.092552
800000000 -0.1569 0.22907 -0.022521 0.017231 0.0050731 -0.010432 -0.0048319 -0.0019808
-0.0040884 0.0031847 0.0045632 0.00089806
-0.022519 0.017203 -0.33712 0.24924 -0.0078529 0.034022 -0.0020846 0.0022448
-0.00047529 0.0035838 0.0013075 0.0052744
0.0050239 -0.010448 -0.0077854 0.034057 -0.026894 0.30973 0.0012634 0.0014835
0.00073317 0.0035593 -0.0017613 0.00092612
-0.0048023 -0.001991 -0.0020507 0.0022283 0.0012469 0.0014897 -0.17369 0.23124
-0.028414 0.012646 0.013286 -0.0098795
-0.0040155 0.0030242 -0.00029419 0.0035305 0.00075335 0.0035508 -0.028455 0.012728
-0.19878 0.1005 -0.017681 0.017649
0.0045772 0.00074793 0.0013556 0.0052228 -0.0018232 0.00094942 0.01336 -0.0098887
-0.017686 0.017616 -0.24594 0.14687
860000000 -0.12197 0.25047 -0.017108 0.031295 -0.0035299 -0.0095665 -0.0026529 0.0013019
0.0042296 0.0049704 -0.0029185 -0.002598
-0.017119 0.03125 -0.28913 0.29128 0.008148 0.034041 0.0002291 0.0020541
0.0046306 0.0003452 0.0033788 0.00037442
-0.0034937 -0.0096259 0.0083038 0.034038 0.021683 0.31746 -0.00035311 -0.00029466
0.0028264 -0.0015813 0.0015241 0.004521
-0.0026528 0.0014525 0.0002477 0.0021171 -0.00036555 -0.00033348 -0.13802 0.24311
-0.018086 0.018582 -0.0062881 -0.0092038
0.0043414 0.0050527 0.0046652 0.0002901 0.0028308 -0.001606 -0.018079 0.018566
-0.15032 0.1474 -0.024333 0.016123
-0.0029929 -0.0027213 0.003293 0.00024581 0.0015535 0.0045203 -0.0063034 -0.0090785
-0.024334 0.016107 -0.19532 0.19056
920000000 -0.096568 0.27354 0.0052631 0.037815 -0.0093503 -0.0040162 -0.0017448 0.002392
0.001343 0.0014601 0.0024331 -0.0016138
0.0052627 0.03779 -0.26001 0.31205 0.027889 0.021517 0.0015726 0.0010951
0.006808 -0.00075544 0.003768 -0.003015
-0.009292 -0.0039825 0.028003 0.021492 0.068116 0.31754 0.001741 -0.00014684
0.0012989 -0.00046785 0.00079451 -0.0010231
-0.0016393 0.0023176 0.0015976 0.0010506 0.0016909 -0.0001756 -0.11373 0.25944
-0.010326 0.029952 0.0025081 -0.0065778
0.0013552 0.0014416 0.0067918 -0.00078417 0.0012902 -0.0004879 -0.0103 0.029938
-0.13893 0.15454 -0.00162 0.027589
0.0023935 -0.0014887 0.0036962 -0.0030876 0.0007727 -0.0010324 0.0024353 -0.0065702
-0.0015962 0.027482 -0.20282 0.20419
980000000 -0.04863 0.29281 0.018052 0.029823 -0.0086143 0.004767 0.0025365 0.003709
0.0039864 -0.001674 -0.0029848 -0.0020386
0.018029 0.029798 -0.20682 0.34548 0.03273 0.0045197 0.0020124 -7.9681e-05
0.00098138 -0.0060728 -0.00055142 -0.0022062
-0.0085699 0.0048128 0.032765 0.004415 0.11443 0.31054 0.00040409 -0.0011677
-1.4887e-05 -0.002081 0.0015882 -5.1396e-05
0.0025691 0.0037299 0.002012 -9.4911e-05 0.00042227 -0.0011854 -0.075174 0.27105
0.0072119 0.028749 -0.0092207 -0.0063923
0.0039601 -0.0017932 0.00097776 -0.0060743 -1.9624e-05 -0.0020866 0.007249 0.028721
-0.10785 0.18116 0.0050559 0.019053
-0.0030571 -0.0020777 -0.00058053 -0.0022336 0.0015551 -7.311e-05 -0.009265 -0.0064154
0.005005 0.019091 -0.15921 0.25017
1040000000 -0.0055601 0.30063 0.033253 0.017544 -0.00097493 0.0067749 0.0028584 0.00064517
-5.8734e-05 -0.0036533 -0.00058003 -0.0014225
0.0332 0.017549 -0.17099 0.35833 0.028862 -0.014869 0.0015074 -0.0016336
-0.0026204 -0.0022128 -0.0013549 -0.0027008
-0.00094073 0.0067713 0.028807 -0.014988 0.16045 0.29639 -0.00051633 -0.0013696
-0.0015056 -0.00073077 -0.00036327 -0.0011527
0.0028891 0.000682 0.0015159 -0.0016456 -0.00052021 -0.0013728 -0.047519 0.28088
0.018176 0.017048 -0.0028977 0.002194
-0.00010367 -0.0036682 -0.002648 -0.0022199 -0.001541 -0.00074806 0.018214 0.017015
-0.076332 0.1897 0.013358 0.017605
-0.00051881 -0.0014216 -0.0014708 -0.0026989 -0.00036597 -0.0011704 -0.00291 0.0022221
0.013375 0.01757 -0.13895 0.27161
1100000000 0.040056 0.30753 0.035543 -0.0046397 0.0029878 0.0036438 0.0025257 -0.0015529
-0.0021532 -0.0029452 -0.0039116 0.00010461
0.035514 -0.0046129 -0.12736 0.37488 0.014715 -0.027435 -2.0919e-05 -0.001797
-0.0030034 -0.00036563 -0.0033889 -0.00050673
0.0030053 0.0036346 0.014648 -0.027509 0.20646 0.27579 -0.0017387 0.0002605
-0.0015981 0.00065253 -0.00088127 -0.00040465
0.0025607 -0.0015374 -1.8032e-06 -0.0017981 -0.0017413 0.0002525 -0.0068234 0.28551
0.022453 0.0050164 -0.0022603 0.0010053
-0.0021592 -0.0029284 -0.0030389 -0.00035227 -0.0016291 0.00065773 0.022465 0.0049768
-0.057536 0.20255 0.018596 0.0083404
-0.0039051 8.2128e-05 -0.0034042 -0.00047486 -0.00092099 -0.00039346 -0.0022519 0.00098833
0.018603 0.0083632 -0.091892 0.30125
1160000000 0.091717 0.30185 0.023582 -0.020793 0.0026694 -0.00063939 -0.00017572 -0.0025857
-0.0039871 -0.00037243 -0.0010497 0.0040058
0.023564 -0.020762 -0.083444 0.37861 -0.0038076 -0.028558 -0.0017624 -0.0015793
-0.0022642 0.002544 -0.0013866 0.0015583
0.0026379 -0.00065691 -0.0039225 -0.02858 0.24926 0.2448 -0.00058706 0.0016725
-0.00032363 0.0017081 -0.0010121 0.00014153
-0.00016519 -0.0025711 -0.0017699 -0.0015899 -0.00058248 0.0016804 0.032473 0.28246
0.019145 -0.0093981 -0.0026135 0.0055642
-0.0039765 -0.00039486 -0.0022441 0.0025663 -0.00032761 0.0017204 0.019139 -0.0094324
-0.024055 0.21165 0.017327 0.00057789
-0.0010016 0.0040083 -0.0013378 0.0015748 -0.00098143 0.00011788 -0.00261 0.0055587
0.017331 0.00060504 -0.044575 0.30374
1220000000 0.13603 0.28965 0.010034 -0.029714 -0.0015567 -0.00089129 -0.00022896 -0.0011034
-0.0024208 0.0025795 0.0013081 0.0018658
0.010043 -0.029688 -0.039517 0.3899 -0.016583 -0.020663 -0.0024864 0.00047265
0.00025501 0.0027567 -0.00069773 0.0017903
-0.0015588 -0.00089151 -0.016686 -0.020598 0.28831 0.20584 0.00085532 0.0014787
0.00054131 0.0010683 0.00024493 0.00074432
-0.00022609 -0.0011184 -0.0024652 0.00046559 0.00086366 0.0014696 0.072108 0.27367
0.0093112 -0.015074 0.0028636 0.0016702
-0.0023804 0.0025881 0.00027575 0.0027464 0.00053019 0.0010721 0.0093065 -0.0151
-0.00012393 0.22049 0.013401 -0.012248
0.0013432 0.0018215 -0.00067798 0.0017433 0.00026938 0.00072455 0.0028475 0.0016641
0.013421 -0.012265 -0.012731 0.32147
1280000000 0.18521 0.26681 -0.0078972 -0.027976 -0.0018454 0.0024219 -0.0011285 -0.0018993
-0.00051252 0.0030245 0.0025181 0.00098123
-0.0078937 -0.027963 0.0059556 0.38049 -0.02312 -0.0083001 -0.00096252 0.0014548
0.0015724 0.0015185 0.00052132 0.0019351
-0.001832 0.0024406 -0.02322 -0.0082105 0.31888 0.1619 0.0013082 -0.00017497
0.00095266 0.0001494 0.00031698 0.00037302
-0.0011343 -0.0018869 -0.00097624 0.0014591 0.0013048 -0.00016486 0.10842 0.25742
0.00082265 -0.016756 0.00062746 -2.9508e-05
-0.00048644 0.003026 0.0016118 0.0015042 0.00095062 0.00013613 0.00078621 -0.016753
0.036951 0.2238 0.0029707 -0.014166
0.0025158 0.00095053 0.00053017 0.0019114 0.00029415 0.00037576 0.00061904 -2.7412e-05
0.0029733 -0.014164 0.034917 0.32264
1340000000 0.22181 0.23236 -0.017453 -0.018668 0.00082173 0.0043097 -0.0018726 -0.00067255
0.0014674 0.0024777 0.0015872 -0.0014602
-0.017425 -0.018659 0.045114 0.37206 -0.02112 0.0040435 -7.3825e-05 0.0019225
0.0016228 0.00062279 0.0012901 0.00088756
0.00086276 0.0042843 -0.021124 0.0041486 0.34118 0.11381 0.00090184 -0.00081693
0.0005853 -0.00033815 0.00020825 0.00024043
-0.0018762 -0.00066608 -5.8722e-05 0.0019182 0.00088573 -0.00082016 0.14126 0.23736
-0.0071603 -0.014126 0.0013588 -8.9148e-05
0.0014775 0.0024936 0.0016365 0.00062688 0.00057052 -0.00034098 -0.0071905 -0.014128
0.067494 0.2186 -0.0032731 -0.012692
0.0015571 -0.0015009 0.0013018 0.0008945 0.00022364 0.00023057 0.001362 -9.2883e-05
-0.0032663 -0.012696 0.074119 0.31854
1400000000 0.25404 0.19377 -0.02305 -0.0074379 0.0049207 0.0030027 -0.0019732 0.0006733
0.0023548 0.00057542 0.00021625 -0.0013007
-0.023021 -0.0074537 0.081918 0.35897 -0.014595 0.011957 0.0012979 0.0012553
0.00092906 -0.00076834 0.0011942 0.00029573
0.0049399 0.0030018 -0.014569 0.012037 0.35434 0.059784 9.1177e-05 -0.0014051
3.9486e-05 -0.00034903 0.00031125 0.00022314
-0.001976 0.0006889 0.0013235 0.0012438 9.3375e-05 -0.001396 0.17114 0.20898
-0.01206 -0.0083742 -0.0006297 -0.00096756
0.0023972 0.00061164 0.00092837 -0.00075031 7.024e-06 -0.00036983 -0.012083 -0.0083513
0.10044 0.21327 -0.0093579 -0.0081338
0.00019808 -0.0012846 0.0011853 0.00029255 0.00031672 0.00023221 -0.00063978 -0.00098451
-0.0093583 -0.0081462 0.11926 0.30756
1460000000 0.27635 0.14959 -0.020223 0.0044713 0.0053788 -0.0016273 -0.0015115 0.0017154
0.0018517 -0.00072434 -0.00034118 -0.00079476
-0.020208 0.004444 0.11599 0.33724 -0.0062609 0.014803 0.0016649 0.00017705
0.00079966 -0.0011039 0.0011606 -0.00061418
0.0053412 -0.0016574 -0.0062027 0.01486 0.36001 0.0048574 -0.0010291 -0.0012042
0.00025739 -0.00012198 0.00063718 -0.00040286
-0.0015159 0.0016974 0.001682 0.00015349 -0.0010185 -0.0012068 0.19814 0.17986
-0.012898 -0.003151 -0.0012095 0.0013906
0.0018501 -0.00074322 0.00079743 -0.0011097 0.00025883 -0.00012241 -0.012906 -0.0031268
0.13014 0.19787 -0.010893 -0.0028671
-0.00032621 -0.00079199 0.0011713 -0.00060288 0.00064144 -0.00042185 -0.0011915 0.0013891
-0.010889 -0.0028643 0.1528 0.28641
1520000000 0.28805 0.10775 -0.01471 0.010063 0.0030272 -0.003978 0.00012553 0.0025149
0.0016879 -0.0016035 -0.0011395 -0.00016293
-0.014709 0.010047 0.14953 0.32247 0.0011698 0.012889 0.0015871 -0.00079482
0.00013115 -0.00089704 0.00030667 -0.0010397
0.0030203 -0.0039897 0.0012421 0.012887 0.3529 -0.051614 -0.00089817 -0.00037467
0.00055382 -0.00073824 -1.5485e-05 -8.1441e-05
0.00013444 0.0025173 0.0015834 -0.00080474 -0.00088852 -0.00037731 0.22208 0.14158
-0.012649 0.0014381 0.00092025 0.0017761
0.0016895 -0.0016406 0.00012497 -0.00090225 0.00053807 -0.00072828 -0.012663 0.0014731
0.15811 0.18298 -0.011055 0.0011605
-0.0011368 -0.00015549 0.00030063 -0.0010356 -2.6305e-05 -8.3478e-05 0.00092022 0.0017725
-0.011054 0.001156 0.18648 0.26627
1580000000 0.29695 0.061342 -0.0082778 0.013172 -0.00093041 -0.0046358 0.0013617 0.0018215
-0.00048302 -0.0019827 -0.00038572 0.00037528
-0.0082792 0.013172 0.17684 0.29759 0.0048564 0.0082572 0.00046951 -0.0015358
-0.00037494 -0.0010053 -0.00027921 -0.00088435
-0.00097401 -0.0046224 0.0048931 0.0082508 0.33207 -0.10922 -0.0015144 0.00043406
-0.00025912 -0.0010713 0.00010541 -0.00052877
0.0013762 0.0018185 0.0004556 -0.0015335 -0.0015226 0.00042396 0.23686 0.10137
-0.010197 0.005565 0.0017384 0.00070251
-0.00050574 -0.001962 -0.0003887 -0.0010091 -0.0002376 -0.0010747 -0.010186 0.0055888
0.18248 0.16443 -0.0088886 0.0064377
-0.0003818 0.00038437 -0.00029534 -0.00086554 9.319e-05 -0.00053754 0.0017308 0.00070663
-0.0088989 0.0064296 0.21868 0.23927
1640000000 0.2985 0.019572 -0.0016837 0.012256 -0.0025593 -0.0024147 0.0025667 0.00099988
-0.00072817 -0.0011146 -0.00034312 0.00071223
-0.0016835 0.012255 0.20637 0.27222 0.0056175 0.0036767 -0.00071525 -0.0016287
-0.00096254 -0.00049137 -0.00053395 -0.00063611
-0.0025645 -0.0024199 0.005661 0.0036414 0.30344 -0.15855 -0.00089904 0.0012391
-0.0010111 -0.00083682 -6.6655e-05 -0.00028676
0.0025692 0.00099635 -0.00072035 -0.0016171 -0.00088162 0.0012791 0.24936 0.051212
-0.0069605 0.0067585 0.0021354 -0.00066243
-0.00072897 -0.0011243 -0.00094821 -0.0004882 -0.0010051 -0.00083034 -0.0069634 0.0067702
0.20542 0.13884 -0.0044937 0.0086001
-0.00033867 0.00072552 -0.00054877 -0.00063816 -8.6972e-05 -0.00027414 0.0021236 -0.00065915
-0.0045119 0.0085999 0.24483 0.20777
1700000000 0.29048 -0.025975 0.0018057 0.0096834 -0.003333 6.0345e-05 0.0029042 -0.0010632
-0.0017678 -0.00038027 0.00063769 0.00046333
0.0017922 0.0096724 0.22439 0.24036 0.0037736 0.00088942 -0.0013937 -0.00057555
-0.00084602 -1.2569e-05 -0.00091474 -0.00041457
-0.0033295 9.3344e-05 0.0037898 0.00086651 0.25925 -0.19786 0.00027861 0.0015872
-0.001695 -0.00031725 -0.0004725 -0.00094517
0.0028938 -0.0010822 -0.0013864 -0.00055549 0.0002694 0.0015875 0.24562 -1.4469e-06
-0.0049499 0.0075351 0.0012999 -0.0019487
-0.0017789 -0.00039779 -0.00082126 4.9098e-06 -0.0017104 -0.00029869 -0.004941 0.007537
0.22295 0.11696 -0.00024667 0.0091023
0.00062698 0.00046586 -0.00092373 -0.00041544 -0.00048925 -0.00096317 0.0012946 -0.0019561
-0.0002357 0.0091033 0.26132 0.17307
1760000000 0.27733 -0.074559 0.0042726 0.0065149 -0.0021598 0.00080273 0.0013582 -0.003285
-0.00099683 0.00061848 0.00041751 -0.00052116
0.0042608 0.0065116 0.25007 0.19999 0.0017553 -0.00087571 -0.0011054 0.00018406
-0.0011696 0.00087435 -0.00059703 0.00053693
-0.0021896 0.00084231 0.0017375 -0.0008886 0.21024 -0.23057 0.0011131 0.0013274
-0.0012048 0.0013262 -0.0013297 -0.00038624
0.0013536 -0.0032773 -0.0011199 0.00019573 0.0011234 0.0012995 0.23499 -0.052313
-0.0022847 0.0072865 -0.00045998 -0.0020949
-0.0009966 0.00061975 -0.0011663 0.00088108 -0.0012071 0.0013178 -0.0022675 0.0073163
0.2378 0.080035 0.0034192 0.0064661
0.0004063 -0.00054825 -0.00059165 0.00053286 -0.001352 -0.00036909 -0.00046861 -0.0021047
0.0034143 0.006471 0.27376 0.13518
1820000000 0.2517 -0.11165 0.0046672 0.002934 -9.9995e-05 0.0024039 -0.00088963 -0.0030323
-0.00087356 0.0006531 2.0677e-05 -0.00016127
0.0046642 0.0029344 0.25947 0.16959 -0.0001709 8.4808e-05 -0.0013183 0.00087252
-0.00012454 0.0014103 -0.00052129 0.00053012
-9.1896e-05 0.0024081 -0.00018213 7.9836e-05 0.16022 -0.24595 0.0015524 0.00056727
-0.00038554 0.0021123 -0.0013944 0.00049314
-0.00088358 -0.0030355 -0.0013165 0.00089516 0.0015283 0.00055018 0.20325 -0.099538
-0.001037 0.0061002 -0.0016444 -0.0013008
-0.00085708 0.00066338 -0.00010607 0.0014328 -0.00039732 0.0021264 -0.0010219 0.0061133
0.2536 0.048491 0.0043393 0.0032448
4.1148e-05 -0.00018752 -0.00051084 0.00054537 -0.0014282 0.00050539 -0.0016479 -0.0013139
0.0043378 0.0032508 0.27607 0.098892
1880000000 0.21562 -0.15103 0.0026145 0.00058105 -0.0002321 0.0021426 -0.0027736 -0.0022243
-0.00032274 0.0014401 0.00026412 -0.00059252
0.0026171 0.00057035 0.26336 0.12294 -0.0020654 0.0017387 -0.00014076 0.0017225
0.00067411 0.0014055 0.000217 0.00098567
-0.00026326 0.0021388 -0.0020702 0.0017431 0.10841 -0.25518 0.0019779 -0.00097869
0.0014259 0.0021318 -0.00086656 0.0014807
-0.0028196 -0.002199 -0.00014483 0.0017095 0.0019973 -0.00095623 0.16136 -0.13864
-0.00052156 0.0049225 -0.0022392 0.00087418
-0.00031084 0.0014491 0.00069499 0.001409 0.0014339 0.0021194 -0.00052073 0.0049392
0.25476 0.013533 0.0039892 0.0015494
0.00025845 -0.00058656 0.00021917 0.00098667 -0.0008939 0.0015103 -0.0022562 0.00086442
0.0039877 0.0015343 0.27593 0.064866
1940000000 0.17576 -0.17597 0.00042045 -0.001334 0.001377 0.0018706 -0.0037743 0.00046806
0.0011915 0.0010655 -0.00061964 -0.00061818
0.00041058 -0.0013387 0.2632 0.091208 -0.00097725 0.0039128 0.00098117 0.0013137
0.0020607 0.00055082 0.00088245 0.00026337
0.0014198 0.0018993 -0.00095352 0.0039364 0.062323 -0.24889 0.00027541 -0.0024378
0.0024826 0.00055007 0.00037102 0.001629
-0.0037432 0.00051447 0.0010131 0.00131 0.00033582 -0.0024374 0.1081 -0.16738
-0.0014873 0.0043121 -0.0010835 0.0018589
0.001198 0.0010494 0.0020735 0.00054293 0.0024872 0.00056728 -0.0014981 0.004324
0.25366 -0.027262 0.0029189 -0.0014721
-0.00061568 -0.00061092 0.00088371 0.00025499 0.0003419 0.0016232 -0.0011058 0.0018845
0.0029136 -0.0014763 0.26479 0.028992
2000000000 0.12945 -0.18952 -0.0035388 0.00048844 0.0023922 0.0014651 -0.0023479 0.0035017
0.0010206 0.00028078 -0.00067801 0.00037056
-0.00354 0.00046447 0.24846 0.055891 -0.00077548 0.0055761 0.001649 0.00017854
0.0016068 -0.0015692 0.00054473 0.00011644
0.0024199 0.0014684 -0.00073956 0.0056119 0.018921 -0.23444 -0.0015189 -0.0014662
0.002178 -0.0012391 0.0016294 0.0012229
-0.0022873 0.0035328 0.001654 0.00019399 -0.0014991 -0.0014922 0.054795 -0.17578
-0.0026506 0.00475 0.00036597 0.0021987
