!Keysight Technologies,M9804A,MY58100912,A.14.10.03
!Date: Thursday, April 27, 2023 10:28:33
!Correction: S11(C  6-Port  ) 
!S12(C  6-Port  ) 
!S13(C  6-Port  ) 
!S14(C  6-Port  ) 
!S15(C  6-Port  ) 
!S16(C  6-Port  ) 
!S21(C  6-Port  ) 
!S22(C  6-Port  ) 
!S23(C  6-Port  ) 
!S24(C  6-Port  ) 
!S25(C  6-Port  ) 
!S26(C  6-Port  ) 
!S31(C  6-Port  ) 
!S32(C  6-Port  ) 
!S33(C  6-Port  ) 
!S34(C  6-Port  ) 
!S35(C  6-Port  ) 
!S36(C  6-Port  ) 
!S41(C  6-Port  ) 
!S42(C  6-Port  ) 
!S43(C  6-Port  ) 
!S44(C  6-Port  ) 
!S45(C  6-Port  ) 
!S46(C  6-Port  ) 
!S51(C  6-Port  ) 
!S52(C  6-Port  ) 
!S53(C  6-Port  ) 
!S54(C  6-Port  ) 
!S55(C  6-Port  ) 
!S56(C  6-Port  ) 
!S61(C  6-Port  ) 
!S62(C  6-Port  ) 
!S63(C  6-Port  ) 
!S64(C  6-Port  ) 
!S65(C  6-Port  ) 
!S66(C  6-Port  ) 
!S6P File: Measurement: :
# Hz S  RI   R 50
500000000 -0.33648 -0.033073 -0.009443 -0.0036418 -0.0077532 0.011768 -0.0035658 0.01159
0.01224 0.0044126 -0.0039957 0.0080909
-0.0094877 -0.0036509 -0.41933 -0.048199 0.0073894 -0.01152 0.0012785 0.011508
0.0077193 0.0025302 0.00033282 0.013015
-0.0077207 0.011752 0.0073952 -0.011525 -0.26444 0.21192 0.0068039 0.0030783
0.00037331 0.0083015 0.00055453 0.012087
-0.0034819 0.011619 0.001287 0.01155 0.0068052 0.0030728 -0.32704 0.049193
-0.019112 -0.0043316 0.017736 0.025773
0.012156 0.0044734 0.0078167 0.0025554 0.0003589 0.0082665 -0.019148 -0.0043196
-0.22844 -0.17921 -0.027467 0.0053613
-0.0038443 0.0082115 0.00032558 0.013025 0.00056328 0.01198 0.017699 0.025727
-0.02743 0.0053996 -0.27197 -0.13018
560000000 -0.31503 0.12576 -0.024029 -0.063029 0.00032532 0.011925 0.0061816 0.0096843
0.011083 0.0041343 0.0094208 0.0074186
-0.024036 -0.062964 -0.37687 0.11011 -0.04169 -0.037016 0.013777 0.0038215
-0.013084 -0.0054076 0.0042695 -6.6637e-05
0.00031933 0.011938 -0.041855 -0.036931 -0.18216 0.25938 -0.00082401 -0.0046624
0.01876 0.0043396 0.0072362 -0.0063995
0.0062286 0.0097869 0.013691 0.0038356 -0.00083582 -0.0046994 -0.30165 0.13666
0.0039834 -0.024585 0.005027 -0.019481
0.011069 0.0042046 -0.012918 -0.0052985 0.01866 0.0044264 0.0039492 -0.024566
-0.28553 -0.004686 0.0073992 -0.050844
0.0093607 0.0073982 0.0042215 -6.7464e-05 0.0072331 -0.0064653 0.0050554 -0.019476
0.0073677 -0.050791 -0.33345 0.01893
620000000 -0.27268 0.11048 -0.022927 0.0070168 0.0035336 0.0085818 0.0065657 -0.0054391
0.011161 -0.0010953 0.00017704 -0.0024195
-0.022968 0.0069943 -0.40241 0.063888 -0.01898 -0.00030103 -0.001379 -0.0022766
0.010271 -0.006923 0.00097124 -0.0025193
0.0035597 0.0084409 -0.019021 -0.00020778 -0.15218 0.26831 -0.0015483 -0.0052647
-0.0037839 -0.0031563 0.007907 -0.0033779
0.0066721 -0.0055812 -0.0013928 -0.0022472 -0.0015747 -0.0052178 -0.26034 0.14694
-0.038739 -0.018447 0.013959 0.023794
0.011296 -0.00095947 0.010248 -0.0070205 -0.0038135 -0.003299 -0.038671 -0.018435
-0.2056 -0.044829 -0.040732 0.014766
0.00034885 -0.0021773 0.00090811 -0.0025477 0.0078629 -0.0035473 0.013981 0.023709
-0.040738 0.014807 -0.25071 -0.020489
680000000 -0.23211 0.1938 -0.027864 -0.013972 0.0047847 0.0048686 0.0011003 -0.007451
-0.0034914 -0.011026 0.0044811 -0.0069083
-0.027826 -0.014025 -0.38675 0.16031 -0.032855 -0.0012103 -0.0016346 -0.00025489
-0.0029187 -0.0088806 -0.0011081 -0.0020159
0.0048109 0.0048343 -0.032875 -0.0010966 -0.10188 0.28758 -0.00061875 0.00024677
-0.0023727 0.00069227 -0.0030194 -0.0095268
0.0010389 -0.0074203 -0.0016372 -0.00021977 -0.00062905 0.00026777 -0.21815 0.1958
-0.023556 -0.0084387 -0.01065 -0.010579
-0.0034418 -0.010944 -0.0029262 -0.0089148 -0.0023667 0.00072194 -0.023575 -0.0084363
-0.25075 0.052792 -0.005326 -0.0095536
0.0045484 -0.0070146 -0.0011226 -0.0019852 -0.0030285 -0.009504 -0.010655 -0.010569
-0.0053294 -0.0095332 -0.26183 0.086678
740000000 -0.18876 0.18849 -0.038176 0.026098 0.012321 -0.0053856 -0.00064583 -0.0039861
-0.0045325 -0.0024682 -0.0061292 0.0037972
-0.038241 0.025969 -0.33472 0.1792 -0.034738 0.034788 -0.00091185 -0.0063265
-0.011029 0.0081399 -0.0030534 -0.0059857
0.012374 -0.0054343 -0.034662 0.034907 -0.068102 0.28674 -0.0014855 0.0032413
-0.0026319 -0.0037232 -0.00098582 5.2863e-05
-0.00069906 -0.0040353 -0.00096098 -0.0062819 -0.0014913 0.0032447 -0.20181 0.20365
-0.042324 -0.0074482 0.021858 0.012945
-0.0046002 -0.0024354 -0.010985 0.0082333 -0.0026532 -0.0037074 -0.042316 -0.0073894
-0.15743 0.075214 -0.041865 0.0007894
-0.0062515 0.0038446 -0.0031472 -0.0060766 -0.001026 3.3087e-05 0.021841 0.012941
-0.041862 0.00072762 -0.25406 0.091913
800000000 -0.15691 0.22908 -0.022535 0.017232 0.0050582 -0.010425 -0.0048159 -0.0020075
-0.0040215 0.0030508 0.0045872 0.00080011
-0.022533 0.017212 -0.33715 0.2492 -0.0078792 0.034004 -0.0020406 0.0022463
-0.00035143 0.0035887 0.001311 0.0052299
0.0050283 -0.010443 -0.0077972 0.03405 -0.026926 0.30971 0.0012648 0.0015072
0.00073316 0.0036207 -0.0018266 0.00089609
-0.004803 -0.0019885 -0.0020401 0.0022539 0.0012716 0.0015067 -0.17378 0.23116
-0.028508 0.012674 0.013289 -0.009929
-0.0040133 0.0030505 -0.00030712 0.0035788 0.00074747 0.0036408 -0.02851 0.012744
-0.19862 0.10021 -0.017711 0.017587
0.0045526 0.00076278 0.001346 0.0052657 -0.0017996 0.00090174 0.013275 -0.0099851
-0.017707 0.017577 -0.2458 0.14679
860000000 -0.12197 0.25041 -0.017141 0.031265 -0.0034571 -0.0096283 -0.0026841 0.0014402
0.0042893 0.0050618 -0.0028914 -0.0027269
-0.017131 0.031246 -0.28914 0.29119 0.0081894 0.034053 0.00023058 0.0021229
0.0046179 0.00033846 0.0033573 0.00033209
-0.0034826 -0.0095852 0.0083048 0.034054 0.021686 0.3174 -0.00029482 -0.0003324
0.0028968 -0.0015437 0.0015282 0.0045052
-0.0026844 0.0014241 0.00023484 0.0021273 -0.00029695 -0.00033712 -0.13811 0.24312
-0.018067 0.018622 -0.0062975 -0.009242
0.0042844 0.0050914 0.004629 0.00032072 0.0028791 -0.0015714 -0.018049 0.018661
-0.15016 0.14765 -0.024349 0.015858
-0.0029133 -0.0027191 0.0033661 0.00029143 0.0015319 0.0045292 -0.0063294 -0.009229
-0.024291 0.01588 -0.19537 0.19041
920000000 -0.096583 0.2735 0.0052683 0.037833 -0.0092854 -0.0039981 -0.0016626 0.0023372
0.0013362 0.0014618 0.0024625 -0.0015164
0.0052275 0.037803 -0.26002 0.31201 0.027886 0.021564 0.0015946 0.0010785
0.006775 -0.00074064 0.0036928 -0.0031258
-0.0093054 -0.0040094 0.027995 0.021509 0.068108 0.31756 0.0017294 -0.00014779
0.0012554 -0.00048798 0.00081297 -0.0010874
-0.0016761 0.0023331 0.0016095 0.0010562 0.0017303 -0.00013741 -0.11377 0.25945
-0.010351 0.029924 0.0024715 -0.006595
0.0013576 0.0015294 0.0067901 -0.00080516 0.001274 -0.00050991 -0.010327 0.029959
-0.13905 0.15448 -0.0016874 0.02754
0.0023967 -0.0014543 0.0037115 -0.0031037 0.00080326 -0.001092 0.0024599 -0.0065921
-0.0016571 0.027533 -0.20297 0.20409
980000000 -0.04868 0.29279 0.018031 0.029858 -0.0086134 0.0047822 0.0025611 0.0037469
0.0039622 -0.0017719 -0.0030391 -0.0020691
0.01799 0.029836 -0.20686 0.34547 0.032708 0.0045099 0.0020079 -7.0269e-05
0.0010376 -0.0060515 -0.00052034 -0.0022829
-0.0085899 0.0048111 0.032754 0.0044213 0.11442 0.31053 0.00040156 -0.0012134
1.2346e-05 -0.0020783 0.0015551 -6.3897e-05
0.0025628 0.0037402 0.0020129 -8.6112e-05 0.00041307 -0.0012174 -0.075233 0.27105
0.0071947 0.028768 -0.0092626 -0.0063484
0.0039942 -0.001773 0.00098105 -0.0060813 2.8493e-05 -0.0020797 0.0072507 0.028749
-0.10775 0.18104 0.0049518 0.018933
-0.0030241 -0.0020768 -0.00055947 -0.0022421 0.0015576 -4.3556e-05 -0.0092457 -0.0063312
0.0049376 0.018952 -0.15937 0.25011
1040000000 -0.0056611 0.30065 0.033267 0.017585 -0.00096485 0.0067662 0.0028945 0.00069165
-7.9803e-05 -0.0036742 -0.00050949 -0.0013812
0.033206 0.017596 -0.17102 0.35834 0.028852 -0.014863 0.001523 -0.0015996
-0.0025899 -0.0022056 -0.0014622 -0.0027622
-0.00094237 0.0067727 0.02884 -0.014987 0.16038 0.2964 -0.00052348 -0.0013522
-0.0015527 -0.00075811 -0.00034235 -0.0011719
0.002893 0.00067757 0.0014979 -0.0016412 -0.00052115 -0.0013572 -0.047586 0.28088
0.018135 0.016997 -0.0028714 0.0021538
-6.9913e-05 -0.0036689 -0.0026222 -0.0022294 -0.0015655 -0.00074954 0.018168 0.016974
-0.076369 0.18955 0.013398 0.01768
-0.00053964 -0.0013921 -0.0015053 -0.0027113 -0.00034992 -0.0011939 -0.0028642 0.0021502
0.013389 0.017683 -0.13914 0.27147
1100000000 0.040032 0.30756 0.035568 -0.0046087 0.0029874 0.0036487 0.0025549 -0.0015328
-0.0021595 -0.0029656 -0.0039263 8.6777e-05
0.035535 -0.0045732 -0.12738 0.37486 0.014719 -0.027422 -1.0457e-05 -0.0017782
-0.0030572 -0.00037525 -0.0033938 -0.00050192
0.0030282 0.0036499 0.014643 -0.027497 0.20644 0.27578 -0.0017667 0.00024436
-0.0016037 0.00066667 -0.00090789 -0.00040348
0.0025488 -0.0015618 -1.725e-05 -0.0017984 -0.0017652 0.00025088 -0.0068988 0.28551
0.022462 0.0050276 -0.002225 0.00099446
-0.0021885 -0.0029606 -0.0030534 -0.00036646 -0.0016035 0.00067438 0.022472 0.0049964
-0.057657 0.2025 0.018644 0.008429
-0.0039054 0.00010025 -0.0034137 -0.00047485 -0.00090216 -0.00039246 -0.0021991 0.00099876
0.018633 0.0084429 -0.092048 0.30112
1160000000 0.091617 0.30184 0.023592 -0.020788 0.0026667 -0.00064433 -0.00016243 -0.0025725
-0.0039836 -0.00042509 -0.001035 0.0039745
0.023582 -0.020759 -0.083485 0.37861 -0.003801 -0.028573 -0.0017615 -0.0015863
-0.002244 0.0025475 -0.0013401 0.0015772
0.0026673 -0.00065071 -0.0039196 -0.028567 0.24923 0.24482 -0.00057778 0.0016722
-0.00032379 0.0017086 -0.0010144 0.00014146
-0.00016035 -0.0025666 -0.0017732 -0.0015917 -0.00058333 0.0016741 0.03246 0.28243
0.019118 -0.0094344 -0.0026297 0.0055383
-0.0039522 -0.00039344 -0.0022563 0.0025495 -0.00030247 0.0017309 0.019116 -0.0094618
-0.024131 0.21153 0.017338 0.00059048
-0.00096192 0.004014 -0.0013455 0.0015826 -0.0010062 0.00012462 -0.0026265 0.0055521
0.017336 0.00059442 -0.044838 0.30367
1220000000 0.13594 0.28966 0.010066 -0.029737 -0.0015618 -0.00089672 -0.00021945 -0.0011295
-0.0024083 0.0025819 0.0013279 0.0018219
0.010065 -0.029688 -0.039551 0.38987 -0.016567 -0.020669 -0.0024715 0.000451
0.00026527 0.0027536 -0.00066666 0.0017476
-0.0015668 -0.00088534 -0.016678 -0.020617 0.28828 0.20587 0.00087852 0.0014584
0.00054579 0.0010725 0.00027957 0.00071898
-0.00022025 -0.0011193 -0.0024759 0.00046542 0.0008728 0.0014527 0.072077 0.27365
0.0092818 -0.015049 0.002817 0.0016403
-0.0024046 0.002587 0.00027889 0.0027456 0.00054722 0.0010689 0.0092633 -0.015076
-0.00023727 0.2205 0.013381 -0.012246
0.0013641 0.0018215 -0.0006742 0.0017595 0.0002764 0.00072688 0.0028253 0.0016349
0.013381 -0.01225 -0.012998 0.32136
1280000000 0.18515 0.26681 -0.0078928 -0.028006 -0.0018482 0.0024208 -0.0011282 -0.0018949
-0.00051767 0.0030468 0.0025141 0.0009552
-0.0078533 -0.027973 0.0059271 0.3805 -0.023118 -0.0083081 -0.0009695 0.0014557
0.001592 0.0015392 0.00050625 0.0019172
-0.0018398 0.0024212 -0.023196 -0.0082254 0.31887 0.16193 0.0013122 -0.00016523
0.00093411 0.00013497 0.0002865 0.00036181
-0.0011234 -0.0018828 -0.0009756 0.0014611 0.0013118 -0.00016566 0.10842 0.25743
0.00080585 -0.016746 0.00060641 -4.7814e-05
-0.00048361 0.0030385 0.001606 0.0015172 0.00092865 0.00013564 0.00077411 -0.016759
0.036832 0.22376 0.0029578 -0.014175
0.0025436 0.00094371 0.00051838 0.0019191 0.00027743 0.00036347 0.00059999 -5.0178e-05
0.0029782 -0.01417 0.034789 0.32269
1340000000 0.22173 0.2324 -0.017445 -0.018695 0.0008367 0.0042843 -0.0018786 -0.00067961
0.0014578 0.0024931 0.0015627 -0.0014936
-0.017415 -0.018702 0.045092 0.37205 -0.021114 0.0040366 -7.6478e-05 0.0019242
0.0016386 0.00063538 0.0012771 0.00088996
0.00085766 0.0042847 -0.021125 0.0041386 0.34117 0.11384 0.00088095 -0.0008269
0.00054579 -0.00035839 0.00020194 0.0002366
-0.0018817 -0.00066929 -6.7049e-05 0.0019263 0.00088345 -0.00082856 0.14123 0.23738
-0.0071612 -0.014147 0.0013628 -0.00010061
0.0014734 0.0024969 0.0016339 0.00062791 0.00056342 -0.00035615 -0.0071889 -0.01414
0.067369 0.21858 -0.0032774 -0.012694
0.0015592 -0.001505 0.0012947 0.00088932 0.00021552 0.00023914 0.0013702 -9.8103e-05
-0.0032624 -0.012684 0.074032 0.31864
1400000000 0.254 0.19383 -0.023059 -0.0074578 0.0049208 0.0030233 -0.001966 0.00067268
0.0023905 0.00060905 0.00018735 -0.0012979
-0.023021 -0.0074616 0.081887 0.35897 -0.01461 0.011944 0.0013157 0.0012588
0.00093614 -0.00075494 0.0011856 0.00028191
0.0049164 0.003 -0.014561 0.012032 0.35433 0.059809 9.0362e-05 -0.0013977
1.8084e-05 -0.00036432 0.00034452 0.00025072
-0.001971 0.00067598 0.0013233 0.0012497 9.4546e-05 -0.0013989 0.17114 0.20897
-0.012052 -0.0084184 -0.00064924 -0.00096847
0.0024037 0.00058017 0.00092872 -0.00075066 1.4274e-05 -0.00035869 -0.012077 -0.0083951
0.10027 0.21321 -0.0093551 -0.0081342
0.00019828 -0.0012886 0.0011917 0.00027863 0.00034679 0.00023753 -0.00064506 -0.00097576
-0.0093474 -0.0081527 0.11921 0.30771
1460000000 0.27632 0.14968 -0.020247 0.0044531 0.0053571 -0.0016624 -0.0015212 0.0016985
0.0018618 -0.00072468 -0.00033183 -0.00079129
-0.020224 0.0044267 0.11598 0.33725 -0.0062763 0.014792 0.0016835 0.00017621
0.00080665 -0.0010956 0.0011779 -0.00060323
0.0053464 -0.0016695 -0.0062115 0.014839 0.35993 0.0048598 -0.0010061 -0.0011802
0.00027271 -9.959e-05 0.00061258 -0.00043344
-0.0014947 0.0017095 0.0016844 0.00016024 -0.0010075 -0.0011843 0.19813 0.17988
-0.012895 -0.003175 -0.0012056 0.0013958
0.0018526 -0.00073165 0.00079437 -0.0011078 0.00027628 -0.00010851 -0.012913 -0.0031476
0.13006 0.19788 -0.01089 -0.0028568
-0.00034624 -0.00079685 0.0011699 -0.00062252 0.00061444 -0.00044779 -0.0012007 0.0013925
-0.01088 -0.0028693 0.15277 0.28647
1520000000 0.28802 0.10781 -0.014745 0.010067 0.003022 -0.0039677 0.00013444 0.0025145
0.001707 -0.0016311 -0.0011314 -0.0001642
-0.014739 0.010046 0.14951 0.32246 0.0011629 0.012901 0.0016074 -0.00080165
0.00013107 -0.00090743 0.00032216 -0.0010381
0.0030044 -0.0039877 0.0012384 0.012897 0.35287 -0.051558 -0.00086594 -0.0003904
0.00056842 -0.00074914 -1.7079e-05 -0.00010283
0.0001411 0.0025179 0.0015906 -0.00080388 -0.00086855 -0.00038446 0.22204 0.14159
-0.012703 0.0014277 0.00091586 0.0017578
0.0017019 -0.0016279 0.00012148 -0.00090125 0.00056395 -0.00074171 -0.0127 0.0014532
0.15802 0.18301 -0.01107 0.0011656
-0.0011384 -0.0001502 0.00030715 -0.0010389 -1.3267e-05 -9.1985e-05 0.00093001 0.0017648
-0.011074 0.0011686 0.18643 0.26631
1580000000 0.29697 0.0614 -0.0082827 0.013191 -0.00092548 -0.0046187 0.0013476 0.0018198
-0.00048759 -0.0019807 -0.00037638 0.00038511
-0.0082864 0.013178 0.17682 0.2976 0.0048619 0.0082821 0.00046201 -0.0015423
-0.00038249 -0.0010338 -0.00030321 -0.00087304
-0.00095709 -0.004623 0.0049054 0.0082626 0.33212 -0.10918 -0.0015362 0.00042328
-0.00023453 -0.0010815 0.00010404 -0.00053437
0.0013688 0.0018136 0.00045726 -0.0015382 -0.0015293 0.00042034 0.23685 0.10141
-0.010224 0.005564 0.0017357 0.00071624
-0.00051932 -0.0019899 -0.00039471 -0.0010204 -0.00023919 -0.0010816 -0.010214 0.0055881
0.18243 0.16448 -0.0088774 0.0063843
-0.00039125 0.00038166 -0.00029651 -0.00087894 9.1603e-05 -0.00054666 0.0017382 0.00069965
-0.0088821 0.0063907 0.21866 0.2393
1640000000 0.29851 0.019607 -0.0016781 0.012281 -0.0025543 -0.0024283 0.0025605 0.0010052
-0.00072465 -0.0011293 -0.00034191 0.00072395
-0.0016859 0.012278 0.20636 0.27223 0.0056265 0.0036719 -0.00071587 -0.001628
-0.00094582 -0.00049539 -0.00054332 -0.00063809
-0.0025615 -0.0024031 0.0056476 0.0036486 0.30343 -0.1585 -0.00091716 0.0012794
-0.0010274 -0.00082444 -8.3546e-05 -0.00028128
0.002568 0.00099701 -0.00071851 -0.0016221 -0.00092269 0.0012821 0.24935 0.051233
-0.0069883 0.0067704 0.0021346 -0.00063109
-0.00072603 -0.0011275 -0.00094975 -0.00048543 -0.0010269 -0.00083741 -0.0069748 0.0067948
0.20536 0.1389 -0.0045088 0.0085767
-0.000341 0.00072899 -0.00055042 -0.00063684 -8.4764e-05 -0.00027496 0.0021385 -0.00065009
-0.0045091 0.0085734 0.24473 0.20777
1700000000 0.29047 -0.025926 0.0018075 0.0096947 -0.003343 5.6922e-05 0.0029002 -0.0010767
-0.0017694 -0.00040431 0.00062639 0.00048033
0.0017969 0.0096874 0.22434 0.24036 0.0037664 0.00088859 -0.0013763 -0.00057274
-0.00082691 9.2308e-07 -0.00092406 -0.00041584
-0.0033499 7.9231e-05 0.0037855 0.00086746 0.25926 -0.19782 0.00026827 0.0015901
-0.0017015 -0.0003311 -0.00048833 -0.00095462
0.0028843 -0.0010878 -0.0013829 -0.00056556 0.00027655 0.0015785 0.24561 2.9729e-05
-0.0049523 0.0075423 0.001326 -0.0019587
-0.0017903 -0.0003901 -0.00082869 -1.098e-07 -0.0017112 -0.00031754 -0.004938 0.0075505
0.2229 0.11702 -0.00025707 0.0090782
0.0006314 0.00047611 -0.00093145 -0.00040662 -0.00048124 -0.00095051 0.0013067 -0.0019612
-0.00025143 0.0090851 0.26118 0.1731
1760000000 0.27732 -0.074519 0.0042779 0.0065258 -0.0021988 0.00082898 0.0013754 -0.003268
-0.00099827 0.00063279 0.00040912 -0.00053435
0.0042681 0.00652 0.25006 0.20001 0.0017441 -0.00088196 -0.0011218 0.00018462
-0.0011583 0.00088049 -0.00060086 0.00053205
-0.0021901 0.000849 0.0017491 -0.0008866 0.2102 -0.23058 0.0011066 0.0013159
-0.0012221 0.0012953 -0.0013546 -0.00039391
0.0013676 -0.0032753 -0.0011187 0.00019277 0.0010975 0.0013138 0.23496 -0.052286
-0.0022747 0.0072771 -0.00044368 -0.0020941
-0.0010027 0.00063917 -0.00116 0.0008871 -0.0012295 0.0013005 -0.0022659 0.0073007
0.2378 0.080127 0.0033991 0.0064741
0.00039057 -0.00054448 -0.00058861 0.00053681 -0.0013678 -0.00039324 -0.00043541 -0.0021014
0.0034014 0.0064804 0.27361 0.13521
1820000000 0.25169 -0.11158 0.0046718 0.0029384 -0.0001261 0.0024136 -0.0008729 -0.0030531
-0.00086214 0.00066057 5.4158e-05 -0.0001845
0.0046674 0.0029411 0.25945 0.16961 -0.00017692 8.8074e-05 -0.0013209 0.00088455
-0.00011349 0.0014224 -0.0005081 0.00054426
-9.6554e-05 0.0023972 -0.00016731 9.1191e-05 0.16019 -0.2459 0.0015437 0.00057066
-0.00042214 0.0021307 -0.0014386 0.00047702
-0.00087172 -0.0030308 -0.001313 0.00089478 0.0015405 0.00055938 0.20325 -0.099517
-0.001037 0.0061367 -0.0016496 -0.0012993
-0.00085154 0.0006743 -0.00011099 0.0014287 -0.0004054 0.0021217 -0.0010103 0.0061337
0.25356 0.048552 0.0043113 0.0032481
3.1858e-05 -0.00019436 -0.00050814 0.00054272 -0.0014172 0.0005036 -0.0016477 -0.0012975
0.0043105 0.0032441 0.27596 0.098991
1880000000 0.21563 -0.15098 0.0026245 0.00057389 -0.00026235 0.0021362 -0.0028111 -0.0022291
-0.00032235 0.0014339 0.00026871 -0.00058054
0.0026275 0.00057142 0.26335 0.12298 -0.0020653 0.0017392 -0.00013913 0.0017163
0.00069005 0.0014043 0.00022295 0.00099953
-0.00023128 0.0021403 -0.0020659 0.0017585 0.10841 -0.2552 0.0020188 -0.00098967
0.0014528 0.0021259 -0.00089925 0.0015225
-0.0028067 -0.0022012 -0.00014423 0.0017196 0.0020126 -0.00099754 0.16135 -0.13861
-0.0004934 0.0049424 -0.0022921 0.00088845
-0.00030269 0.00145 0.00069683 0.0014066 0.0014556 0.002122 -0.00048835 0.0049369
0.25471 0.013613 0.0039927 0.0015255
0.00026651 -0.00058985 0.00023634 0.00099488 -0.00088982 0.0015311 -0.0022817 0.00088388
0.003994 0.0015286 0.27585 0.065008
1940000000 0.17575 -0.17593 0.00041486 -0.0013338 0.001381 0.0019122 -0.0037449 0.00049629
0.0011922 0.0010452 -0.00062165 -0.00061836
0.00041884 -0.0013446 0.26321 0.091249 -0.001001 0.003918 0.00099165 0.0013218
0.0020745 0.00055774 0.0008717 0.00025651
0.0013671 0.0018839 -0.00096377 0.0039303 0.062395 -0.24876 0.00033236 -0.0024497
0.0024756 0.00059197 0.0003335 0.0015951
-0.0037505 0.00052149 0.0010071 0.0013175 0.00033083 -0.0024619 0.10814 -0.16737
-0.0014788 0.0043218 -0.0010894 0.0018642
0.0012047 0.001044 0.0020826 0.00053469 0.0024918 0.00056846 -0.0014685 0.0043237
0.25364 -0.02722 0.0029403 -0.0014667
-0.00062533 -0.00062736 0.00088301 0.00025137 0.00036844 0.0015937 -0.0010938 0.0018677
0.0029377 -0.0014567 0.26471 0.029061
2000000000 0.12956 -0.18949 -0.0035263 0.00047351 0.0024069 0.0014575 -0.0023095 0.0035244
0.0010009 0.00027921 -0.0007001 0.00039426
-0.0035252 0.0004659 0.24848 0.055936 -0.00078612 0.0055757 0.0016579 0.00020275
0.0015774 -0.0015871 0.00053535 0.00011861
0.0024001 0.001482 -0.00075361 0.0055824 0.018901 -0.2344 -0.0015262 -0.00151
0.0021618 -0.0012718 0.0016541 0.0012208
-0.0023031 0.0035443 0.0016532 0.00019508 -0.0015253 -0.0015061 0.054869 -0.17581
-0.002678 0.0047267 0.0003818 0.0022019
