!Keysight Technologies,M9804A,MY58100912,A.14.10.03
!Date: Thursday, April 27, 2023 10:28:33
!Correction: S11(C  6-Port  ) 
!S12(C  6-Port  ) 
!S13(C  6-Port  ) 
!S14(C  6-Port  ) 
!S15(C  6-Port  ) 
!S16(C  6-Port  ) 
!S21(C  6-Port  ) 
!S22(C  6-Port  ) 
!S23(C  6-Port  ) 
!S24(C  6-Port  ) 
!S25(C  6-Port  ) 
!S26(C  6-Port  ) 
!S31(C  6-Port  ) 
!S32(C  6-Port  ) 
!S33(C  6-Port  ) 
!S34(C  6-Port  ) 
!S35(C  6-Port  ) 
!S36(C  6-Port  ) 
!S41(C  6-Port  ) 
!S42(C  6-Port  ) 
!S43(C  6-Port  ) 
!S44(C  6-Port  ) 
!S45(C  6-Port  ) 
!S46(C  6-Port  ) 
!S51(C  6-Port  ) 
!S52(C  6-Port  ) 
!S53(C  6-Port  ) 
!S54(C  6-Port  ) 
!S55(C  6-Port  ) 
!S56(C  6-Port  ) 
!S61(C  6-Port  ) 
!S62(C  6-Port  ) 
!S63(C  6-Port  ) 
!S64(C  6-Port  ) 
!S65(C  6-Port  ) 
!S66(C  6-Port  ) 
!S6P File: Measurement: :
# Hz S  RI   R 50
500000000 -0.33573 -0.035071 -0.0094353 -0.0032952 -0.0077687 0.012013 -0.0031935 0.011298
0.012448 0.0041281 -0.0038191 0.0075205
-0.0094062 -0.0032604 -0.41849 -0.049481 0.0077852 -0.011286 0.0018839 0.011758
0.0075092 0.0022529 0.0012273 0.013258
-0.0077408 0.012031 0.0077724 -0.011308 -0.26489 0.211 0.00715 0.0029553
-0.00035423 0.00847 0.00092208 0.011851
-0.0031674 0.011313 0.0018967 0.011772 0.0071503 0.0029576 -0.32704 0.047145
-0.019828 -0.0041625 0.017983 0.025891
0.012544 0.0041304 0.0075399 0.0022149 -0.00034547 0.0084751 -0.019849 -0.004157
-0.22582 -0.18465 -0.027547 0.0049435
-0.0036674 0.0074991 0.0012753 0.013238 0.00093998 0.011839 0.017908 0.025858
-0.027543 0.004939 -0.27202 -0.11358
560000000 -0.316 0.12488 -0.023481 -0.061967 -0.000245 0.012284 0.0064415 0.009965
0.010801 0.0041465 0.010438 0.0082529
-0.023437 -0.061879 -0.37499 0.10908 -0.04218 -0.036495 0.013414 0.0038658
-0.013358 -0.0047537 0.0044255 -0.00032402
-0.00021189 0.01224 -0.042323 -0.036441 -0.1825 0.25883 -0.00075417 -0.0045908
0.0193 0.0038861 0.0064892 -0.0062978
0.00646 0.0099244 0.013428 0.0038548 -0.00073496 -0.0046022 -0.30212 0.13584
0.0038979 -0.025374 0.0046153 -0.019882
0.01081 0.0041609 -0.0134 -0.0047336 0.019297 0.0038773 0.0039052 -0.025366
-0.28496 -0.010658 0.0081015 -0.050373
0.01029 0.0083115 0.0044157 -0.0002589 0.0065088 -0.0063018 0.0046538 -0.019875
0.0081213 -0.050365 -0.33026 0.03241
620000000 -0.27296 0.10953 -0.023039 0.0075508 0.0033304 0.0086907 0.0065543 -0.0053886
0.011443 -0.00022878 -0.00033024 -0.0016086
-0.023026 0.0075458 -0.40237 0.062499 -0.018475 5.0267e-05 -0.0013012 -0.001818
0.010379 -0.0073827 0.0011489 -0.0026677
0.0033388 0.0086537 -0.018506 0.00010397 -0.15256 0.2681 -0.0013418 -0.0050565
-0.0039956 -0.0037771 0.0087115 -0.0031424
0.0065553 -0.0054414 -0.001318 -0.0018166 -0.0013396 -0.0050419 -0.26182 0.14588
-0.038283 -0.018816 0.014365 0.024223
0.011441 -0.00026844 0.010382 -0.0074304 -0.0039862 -0.0037788 -0.0383 -0.018757
-0.20407 -0.049381 -0.03982 0.013364
-0.0004606 -0.0017164 0.0010968 -0.0026737 0.0086985 -0.0031501 0.014351 0.024176
-0.039831 0.013349 -0.24897 -0.0042729
680000000 -0.23304 0.19312 -0.027665 -0.013954 0.0050204 0.0049708 0.0011325 -0.0076131
-0.0033329 -0.010935 0.0046178 -0.0066247
-0.027628 -0.013961 -0.38705 0.15953 -0.032667 -0.0013156 -0.0016714 -0.0001893
-0.0027774 -0.0088895 -0.0010616 -0.0019628
0.0050344 0.0049789 -0.032697 -0.001233 -0.1018 0.28734 -0.00086942 9.4815e-05
-0.0023178 0.000621 -0.0028856 -0.0094598
0.0011139 -0.0075862 -0.0016598 -0.0001957 -0.00086993 9.3991e-05 -0.21912 0.19507
-0.023278 -0.0083465 -0.009182 -0.010674
-0.0033961 -0.010921 -0.0028167 -0.0088897 -0.002318 0.00062478 -0.023289 -0.0083188
-0.25191 0.047668 -0.0053392 -0.0093011
0.0046774 -0.0065795 -0.0010243 -0.0019621 -0.0028721 -0.0094759 -0.0091897 -0.010642
-0.0053282 -0.0093124 -0.25843 0.097335
740000000 -0.18969 0.18769 -0.038559 0.026218 0.012716 -0.0054262 -0.00092957 -0.0038388
-0.0042638 -0.0025913 -0.0062661 0.0031524
-0.038549 0.026164 -0.33409 0.17789 -0.034663 0.035247 -0.00034008 -0.0062523
-0.012474 0.0072053 -0.0023712 -0.0056334
0.012731 -0.0054375 -0.0346 0.035376 -0.068098 0.28624 -0.0016067 0.0036967
-0.0022533 -0.0043549 -0.0014056 0.00041444
-0.0009592 -0.0038366 -0.00036874 -0.006266 -0.0016142 0.0036924 -0.20244 0.20271
-0.042677 -0.0081876 0.021866 0.013151
-0.0042837 -0.0025827 -0.012449 0.0072506 -0.0022785 -0.0043542 -0.042727 -0.0081602
-0.15679 0.071983 -0.042022 4.3851e-06
-0.0063376 0.0031961 -0.0024406 -0.0056079 -0.0014388 0.00041666 0.021855 0.013154
-0.042024 -3.6755e-05 -0.2457 0.10396
800000000 -0.15771 0.22837 -0.022574 0.017199 0.0050442 -0.010286 -0.0049059 -0.0021317
-0.0041447 0.0027947 0.0039091 0.0012712
-0.02257 0.017177 -0.33733 0.24844 -0.0078039 0.033942 -0.0021838 0.0021477
-0.00059669 0.0034044 0.0010528 0.0053304
0.0050122 -0.010311 -0.0077092 0.033987 -0.026931 0.30913 0.00102 0.0014552
0.00061145 0.003665 -0.0019694 0.0010416
-0.0049107 -0.0021117 -0.002175 0.002154 0.0010196 0.0014624 -0.1743 0.23021
-0.02826 0.01225 0.012624 -0.010198
-0.0041295 0.0028336 -0.00058615 0.003407 0.00062006 0.0036612 -0.028244 0.012324
-0.20085 0.095342 -0.017337 0.017149
0.0038893 0.0012706 0.0010866 0.0053284 -0.0019595 0.0010389 0.012655 -0.010222
-0.017354 0.017122 -0.23862 0.15478
860000000 -0.12304 0.24938 -0.017213 0.031038 -0.0034324 -0.0097017 -0.0027022 0.0012381
0.0039781 0.0050416 -0.002847 -0.0025402
-0.017211 0.031002 -0.28935 0.29035 0.0081397 0.033882 0.0001105 0.0022702
0.0043552 0.00013747 0.0036448 0.00022441
-0.003468 -0.0096959 0.0082622 0.033894 0.021417 0.31681 -0.00049127 -0.00026366
0.0028883 -0.001505 0.001627 0.0045018
-0.0026995 0.0012466 0.00012922 0.0022746 -0.00049506 -0.00026333 -0.13872 0.24192
-0.018176 0.018493 -0.0066788 -0.0086422
0.0039937 0.0050059 0.0043619 0.00011148 0.002894 -0.0015185 -0.018155 0.018531
-0.15186 0.14423 -0.024039 0.015099
-0.0028812 -0.0025055 0.0036495 0.00025033 0.001632 0.0045149 -0.0067272 -0.0086963
-0.024015 0.015093 -0.18839 0.19773
920000000 -0.097329 0.27253 0.0052523 0.037785 -0.009243 -0.0041353 -0.0017871 0.0023139
0.0015598 0.0015126 0.0024978 -0.0015429
0.0052462 0.037746 -0.26019 0.31097 0.027886 0.021501 0.0016231 0.001019
0.0066056 -0.00050455 0.0037855 -0.0031535
-0.0092631 -0.0041081 0.027988 0.021447 0.067697 0.31696 0.0018127 -0.00019662
0.0011321 -0.00039393 0.00081079 -0.0011307
-0.001786 0.0023242 0.0016236 0.0010225 0.0018084 -0.00019964 -0.11412 0.25853
-0.010695 0.029737 0.0028789 -0.0064022
0.0015967 0.0015108 0.0066011 -0.0005241 0.00114 -0.00039408 -0.010616 0.029776
-0.1415 0.15009 -0.0024717 0.026848
0.0025272 -0.001547 0.0037801 -0.0031495 0.00081647 -0.0011439 0.002902 -0.0063656
-0.0025066 0.026827 -0.19322 0.21108
980000000 -0.049856 0.29208 0.017822 0.029824 -0.0086933 0.0046936 0.002412 0.0038839
0.0038703 -0.001752 -0.003031 -0.001968
0.017816 0.0298 -0.20727 0.34465 0.032594 0.0045533 0.0020239 -8.1732e-06
0.0011183 -0.0061876 -0.00074806 -0.0019473
-0.0086839 0.0047187 0.032646 0.004476 0.11387 0.31009 0.00045703 -0.0011507
5.2699e-05 -0.0021349 0.0014394 1.5425e-05
0.0024146 0.0038664 0.0020331 5.7743e-06 0.00045075 -0.0011454 -0.076147 0.27004
0.0070871 0.028674 -0.009174 -0.0065299
0.003853 -0.0017647 0.0010698 -0.006213 4.2093e-05 -0.002136 0.0071528 0.028676
-0.11017 0.17751 0.0046927 0.018423
-0.0030456 -0.001958 -0.00079062 -0.0019445 0.0014341 2.1099e-05 -0.0091791 -0.0065343
0.0046773 0.018413 -0.15049 0.25617
1040000000 -0.0071151 0.30002 0.033118 0.017722 -0.00094915 0.0067487 0.0027673 0.00072937
-0.00010969 -0.0037699 -0.00059027 -0.0013665
0.033103 0.017705 -0.17167 0.3576 0.028826 -0.014758 0.001418 -0.0017197
-0.0024645 -0.0022582 -0.0013354 -0.0025913
-0.00093697 0.0067458 0.028819 -0.014864 0.15983 0.29603 -0.00045981 -0.001396
-0.001612 -0.00073574 -0.00044192 -0.0011586
0.0027635 0.00070013 0.0014354 -0.0017171 -0.00046071 -0.0013965 -0.048473 0.27998
0.017949 0.017152 -0.0028607 0.0021222
-0.00010301 -0.0037635 -0.00249 -0.0022549 -0.001603 -0.00072366 0.017998 0.017118
-0.079594 0.18672 0.013074 0.01779
-0.00060157 -0.0013887 -0.0013595 -0.0025718 -0.00043527 -0.0011633 -0.0028452 0.0021378
0.013063 0.017786 -0.12877 0.27494
1100000000 0.038884 0.30724 0.035458 -0.0044789 0.0029369 0.0036357 0.0026575 -0.0013943
-0.002139 -0.0029095 -0.0038659 0.00013209
0.035431 -0.004463 -0.12812 0.37427 0.014767 -0.02738 8.3189e-05 -0.0017797
-0.0031608 -0.00039397 -0.0032674 -0.0005149
0.002949 0.003619 0.014682 -0.027461 0.20585 0.27554 -0.0017495 0.00022701
-0.001637 0.00066824 -0.00088772 -0.00025664
0.0026568 -0.0014105 7.8432e-05 -0.0017767 -0.001749 0.00022507 -0.0079831 0.28493
0.022333 0.0052679 -0.002238 0.00095279
-0.0021637 -0.0028599 -0.0031751 -0.00037182 -0.0016345 0.00067224 0.022341 0.0052376
-0.060921 0.19972 0.018346 0.0085333
-0.0038557 0.00016224 -0.0032788 -0.0004845 -0.00089244 -0.00025572 -0.0022358 0.00095801
0.018331 0.0085324 -0.081626 0.30281
1160000000 0.090315 0.3017 0.023481 -0.020683 0.0026193 -0.00052085 -0.00013297 -0.0025694
-0.0038946 -0.00038713 -0.00098081 0.0037085
0.02349 -0.020658 -0.084448 0.37813 -0.00379 -0.028585 -0.0017404 -0.0015974
-0.0023655 0.0026017 -0.0012127 0.0014981
0.002621 -0.00054373 -0.0039005 -0.028587 0.24865 0.24479 -0.00062738 0.0016323
-0.00032737 0.0018235 -0.00095723 2.6847e-05
-0.00013886 -0.0025764 -0.0017455 -0.0015796 -0.00063158 0.0016338 0.031188 0.28196
0.018999 -0.0092827 -0.0024964 0.0056669
-0.0039235 -0.00035962 -0.0023746 0.0026184 -0.00032318 0.0018252 0.018998 -0.0093084
-0.027822 0.20939 0.016936 0.00086881
-0.0009581 0.0037286 -0.0012119 0.0015298 -0.00095918 1.1234e-05 -0.0025058 0.0057021
0.016951 0.00087137 -0.034777 0.30507
1220000000 0.1347 0.28984 0.010074 -0.02957 -0.0015637 -0.00083841 -0.00018307 -0.0011814
-0.002575 0.0025342 0.0012327 0.0018115
0.010093 -0.029541 -0.0405 0.38971 -0.016562 -0.02073 -0.0024988 0.00042091
0.00024899 0.0028447 -0.00067532 0.0017524
-0.0015633 -0.00084431 -0.016676 -0.020668 0.28768 0.2058 0.00081906 0.0015687
0.0005589 0.0010869 0.00021057 0.00067479
-0.00018966 -0.0011824 -0.0024947 0.00043686 0.00081183 0.0015662 0.070796 0.27367
0.0093497 -0.014901 0.0028451 0.0017177
-0.002573 0.0025468 0.00025854 0.002843 0.00056372 0.0010896 0.0093203 -0.014925
-0.0040475 0.21883 0.013118 -0.011673
0.0012573 0.0017968 -0.00067993 0.0017457 0.00020414 0.00068078 0.0028605 0.0017122
0.013116 -0.011675 -0.0030412 0.32069
1280000000 0.18401 0.26712 -0.0078236 -0.027958 -0.0018341 0.0024631 -0.001094 -0.0020001
-0.00062798 0.0029163 0.0024442 0.0010054
-0.0077995 -0.027934 0.0050995 0.38052 -0.02319 -0.0084236 -0.00097244 0.0013933
0.0015945 0.0015339 0.00045737 0.001918
-0.0018254 0.0024734 -0.023264 -0.008327 0.31843 0.16203 0.001358 -0.00019626
0.00095986 6.8791e-05 0.00026505 0.00036538
-0.0010989 -0.0019898 -0.00097189 0.0013946 0.0013542 -0.00019425 0.10725 0.25772
0.0010556 -0.016719 0.0005966 8.1196e-05
-0.00059738 0.0029097 0.0015999 0.0015312 0.00096302 5.9527e-05 0.0010198 -0.016725
0.032824 0.2228 0.0028769 -0.013804
0.0024518 0.0009999 0.00048037 0.0019087 0.00026539 0.0003628 0.00058118 8.2374e-05
0.0028987 -0.013803 0.044092 0.3208
1340000000 0.22071 0.23294 -0.01733 -0.018706 0.0008006 0.0042877 -0.0019145 -0.00071948
0.0014382 0.0025815 0.0015972 -0.0014855
-0.017308 -0.018698 0.044285 0.37232 -0.021185 0.0039709 -9.273e-05 0.0019505
0.0017013 0.00063178 0.0012546 0.00087533
0.00082322 0.0042827 -0.021185 0.0040739 0.34068 0.11393 0.00095101 -0.00088193
0.0005415 -0.00034613 0.0001293 0.00026088
-0.001914 -0.00069914 -7.9997e-05 0.0019483 0.00095602 -0.00088065 0.14023 0.23785
-0.0070258 -0.014153 0.0013663 -0.00011125
0.0014532 0.0025736 0.001704 0.00063182 0.0005412 -0.00034959 -0.0070527 -0.01416
0.063107 0.21828 -0.0028245 -0.012385
0.0015758 -0.0014962 0.0012579 0.00087792 0.00012842 0.00026184 0.0013732 -0.00011607
-0.0028269 -0.012384 0.082157 0.31542
1400000000 0.25327 0.19454 -0.022898 -0.0074861 0.0050493 0.0029768 -0.0019937 0.00075756
0.0024197 0.0007166 0.00019002 -0.0012567
-0.022875 -0.0074893 0.081274 0.35935 -0.014669 0.011979 0.0013133 0.0012673
0.00098165 -0.0007496 0.0011264 0.00026512
0.0050637 0.0029653 -0.014625 0.012059 0.35388 0.060031 7.7318e-05 -0.0013784
2.0051e-05 -0.00032817 0.00031347 0.00014035
-0.0019942 0.00076849 0.0013186 0.0012506 8.0191e-05 -0.0013784 0.17012 0.20941
-0.01195 -0.0084676 -0.00062442 -0.00092027
0.0024216 0.00068968 0.00098026 -0.00076318 2.3702e-05 -0.00033369 -0.011974 -0.0084399
0.096366 0.21363 -0.0089382 -0.0080661
0.00017703 -0.0012725 0.0011342 0.00024248 0.00032702 0.00014221 -0.00063551 -0.00094236
-0.0089347 -0.0080895 0.12644 0.30387
1460000000 0.27578 0.15041 -0.020123 0.0043435 0.0053996 -0.0017105 -0.0014803 0.0018013
0.0018676 -0.00060606 -0.00034201 -0.00083057
-0.020121 0.004336 0.11552 0.33768 -0.006309 0.014918 0.0017005 0.00018026
0.00087745 -0.0010685 0.0011751 -0.00058554
0.0053935 -0.0017404 -0.0062403 0.014973 0.35984 0.0051692 -0.0010496 -0.0012129
0.00024916 -7.3196e-05 0.00063372 -0.00036042
-0.0014679 0.0018133 0.0017009 0.00017553 -0.0010466 -0.0012099 0.1974 0.18042
-0.012831 -0.0032017 -0.0012118 0.0012805
0.0018602 -0.00061438 0.00087616 -0.0010809 0.00024694 -6.7718e-05 -0.012841 -0.0031732
0.12646 0.19894 -0.010656 -0.0029733
-0.00035373 -0.00084147 0.0011794 -0.00059592 0.00063328 -0.00037723 -0.0011994 0.0012755
-0.010644 -0.0029763 0.15971 0.28229
1520000000 0.28772 0.10851 -0.014692 0.0099087 0.003127 -0.0040686 0.00020141 0.0025335
0.0017062 -0.0016198 -0.0011071 -0.0001314
-0.014688 0.0098993 0.14921 0.32288 0.0012116 0.012943 0.0016109 -0.0007988
0.000115 -0.00086638 0.00031213 -0.0009876
0.0031026 -0.0040786 0.0012892 0.012956 0.35255 -0.051344 -0.00092876 -0.00035541
0.00053283 -0.00070368 1.953e-06 -1.733e-05
0.00020044 0.0025365 0.0016063 -0.00080415 -0.00093435 -0.00035692 0.22151 0.14224
-0.012581 0.0014003 0.00086691 0.0016327
0.0017042 -0.0016395 0.0001144 -0.00086815 0.00052995 -0.00071031 -0.012595 0.0014247
0.15471 0.18435 -0.010779 0.00099787
-0.0011127 -0.00012737 0.00030073 -0.00099099 8.4151e-06 -1.8736e-05 0.00088108 0.0016241
-0.010764 0.00098542 0.19246 0.26114
1580000000 0.29681 0.061925 -0.0082987 0.013058 -0.0008983 -0.0046646 0.0014205 0.0018247
-0.00042155 -0.0019975 -0.00035681 0.00036597
-0.0082913 0.013041 0.17664 0.29795 0.0048955 0.0083341 0.00047763 -0.0015564
-0.00033647 -0.0010456 -0.00020868 -0.00085239
-0.0009292 -0.0046648 0.0049452 0.008315 0.33184 -0.10889 -0.001464 0.00043402
-0.00018517 -0.0011234 0.00012292 -0.00050223
0.0014257 0.0018086 0.00045964 -0.0015618 -0.0014759 0.00043369 0.23633 0.10214
-0.010212 0.0054923 0.0017213 0.00070958
-0.00043435 -0.0019898 -0.00035198 -0.0010482 -0.00018497 -0.0011191 -0.010199 0.0055219
0.17932 0.16595 -0.0087177 0.0063112
-0.00035954 0.00037711 -0.00022047 -0.00085006 0.00010968 -0.00052144 0.0017039 0.00071605
-0.0087154 0.0063088 0.22387 0.23367
1640000000 0.29833 0.020107 -0.001783 0.01219 -0.0026428 -0.002509 0.0025715 0.00096813
-0.00071336 -0.0011281 -0.00029324 0.0006526
-0.0017885 0.012179 0.20623 0.2726 0.0056631 0.0036774 -0.00066939 -0.0016286
-0.00092011 -0.0005096 -0.00051855 -0.00066206
-0.0026444 -0.0024983 0.0056873 0.0036456 0.30331 -0.15807 -0.00083471 0.00128
-0.00098834 -0.00092415 -8.1128e-05 -0.00032038
0.0025832 0.00096071 -0.00068254 -0.0016355 -0.00083579 0.0012752 0.24903 0.052056
-0.006919 0.0067021 0.002082 -0.00057377
-0.00072374 -0.0011096 -0.00092949 -0.00049605 -0.00099224 -0.00092599 -0.006921 0.0067185
0.20271 0.14065 -0.0046047 0.0083626
-0.00029062 0.00064215 -0.00052471 -0.0006615 -7.6473e-05 -0.00031483 0.0020734 -0.00058468
-0.0046116 0.0083642 0.24895 0.20179
1700000000 0.29052 -0.025541 0.0016967 0.0096741 -0.0034096 0.00013588 0.0028924 -0.0011457
-0.0018053 -0.00050533 0.00059313 0.00046971
0.001692 0.0096737 0.22436 0.24067 0.0038634 0.00085848 -0.0013403 -0.00058869
-0.00081679 -7.4444e-05 -0.00093071 -0.00043767
-0.003419 0.00016205 0.0038729 0.00083036 0.25935 -0.19769 0.00038647 0.0015314
-0.0016614 -0.00036648 -0.00059955 -0.00099039
0.0028786 -0.0011518 -0.0013441 -0.00058917 0.00038715 0.0015329 0.24557 0.00074656
-0.0049166 0.0075448 0.0011639 -0.0019588
-0.0018012 -0.00048987 -0.0008219 -7.1039e-05 -0.0016698 -0.00035628 -0.0049033 0.0075666
0.22038 0.11916 -0.00037162 0.0088825
0.00061032 0.00046484 -0.00092842 -0.00042002 -0.00059496 -0.0010074 0.0011689 -0.0019714
-0.00037693 0.0088779 0.26472 0.16696
1760000000 0.27729 -0.074289 0.0042146 0.0065622 -0.0022458 0.00082389 0.0012928 -0.0032919
-0.0010734 0.00055151 0.00038737 -0.00047825
0.0042013 0.0065676 0.25 0.20035 0.0017649 -0.00091221 -0.0010981 0.00012088
-0.0011828 0.00084668 -0.00062745 0.0005483
-0.0022429 0.00083677 0.001771 -0.00093271 0.21034 -0.23039 0.0011795 0.0012175
-0.0011041 0.0012777 -0.0013137 -0.00046748
0.0012809 -0.0033011 -0.0011092 0.0001264 0.0011708 0.0012187 0.23513 -0.051799
-0.0022353 0.0071553 -0.00045006 -0.0020703
-0.0010697 0.00056476 -0.0011827 0.00085201 -0.001096 0.001292 -0.0022215 0.0071666
0.2352 0.082409 0.0032659 0.0065617
0.00038308 -0.00048783 -0.00063194 0.00055349 -0.001335 -0.00046507 -0.00045852 -0.0020727
0.0032665 0.0065599 0.27663 0.12899
1820000000 0.25151 -0.11124 0.004617 0.0029716 -7.2033e-05 0.0023423 -0.00093668 -0.0031071
-0.0008891 0.00058346 1.31e-05 -0.00012634
0.0046053 0.0029733 0.25951 0.1699 -0.00019356 2.7982e-05 -0.0013458 0.00083799
-0.00016697 0.0013849 -0.00055844 0.00053143
-6.0022e-05 0.0023409 -0.0001895 2.3207e-05 0.16022 -0.24594 0.001505 0.00048646
-0.00047927 0.0021578 -0.0014674 0.00053929
-0.00095292 -0.003099 -0.0013553 0.00084223 0.0014948 0.00048546 0.20348 -0.099108
-0.00092589 0.0060165 -0.0015298 -0.0012136
-0.0008746 0.00059639 -0.00016791 0.0013893 -0.00047167 0.0021724 -0.00091204 0.0060197
0.25185 0.051276 0.0042549 0.003279
2.5067e-06 -0.00012471 -0.00054377 0.00053483 -0.0014739 0.00054079 -0.001535 -0.0012022
0.004257 0.0032923 0.27801 0.092501
1880000000 0.21552 -0.15082 0.0026004 0.00060137 -0.00037831 0.0021292 -0.0028101 -0.0022554
-0.00025092 0.0014666 0.00034143 -0.00055732
0.00259 0.0005962 0.26337 0.12321 -0.0021423 0.0016714 -0.00021966 0.0017055
0.00065518 0.0014186 0.00019643 0.0010025
-0.00037445 0.0021311 -0.0021413 0.001681 0.10811 -0.25527 0.0020323 -0.00085206
0.0013396 0.0021246 -0.00080277 0.0013262
-0.0028118 -0.0022373 -0.00020296 0.0017071 0.0020318 -0.00084247 0.16132 -0.13843
-0.00049666 0.0046534 -0.0022223 0.00077842
-0.00025701 0.001464 0.00066705 0.0014048 0.001336 0.0021206 -0.00047021 0.0046599
0.25339 0.016518 0.0040381 0.0014744
0.00035272 -0.00056616 0.00020809 0.0010049 -0.00080755 0.0013524 -0.0022442 0.00074018
0.0040215 0.001459 0.27694 0.058371
1940000000 0.17565 -0.17555 0.00043657 -0.0013499 0.0013825 0.0018859 -0.0037319 0.00055955
0.0011204 0.0011388 -0.00058211 -0.000665
0.00044381 -0.0013452 0.26332 0.0914 -0.0010705 0.0038287 0.00095614 0.0014118
0.0020416 0.00060365 0.00089417 0.00031045
0.0013928 0.001873 -0.0010472 0.0038357 0.06194 -0.24887 0.00042262 -0.0022579
0.0024326 0.00064496 0.00043438 0.0016772
-0.0037353 0.00058197 0.00097347 0.001403 0.00043374 -0.0022581 0.10805 -0.1673
-0.0015383 0.0039783 -0.0011385 0.0016905
0.0011341 0.0011444 0.0020502 0.00058618 0.0024354 0.00063847 -0.0015394 0.0039743
0.25284 -0.024413 0.0030329 -0.0016145
-0.00058789 -0.00065676 0.00089282 0.00030677 0.00044121 0.0016814 -0.0010528 0.0016857
0.0030499 -0.0016179 0.26504 0.022365
2000000000 0.12937 -0.1889 -0.0035459 0.00058954 0.0024372 0.0016552 -0.0023214 0.003615
0.0010865 0.00046888 -0.00064541 0.00035977
-0.0035434 0.00058068 0.24864 0.056121 -0.000811 0.0056929 0.0017159 0.00036858
0.0015921 -0.001425 0.00059037 0.0001743
0.0024423 0.0016226 -0.00076653 0.005711 0.018718 -0.23395 -0.001287 -0.0013937
0.0022211 -0.00112 0.001693 0.0012116
-0.0022894 0.0036254 0.0017171 0.00035271 -0.0012887 -0.0013932 0.05469 -0.17525
-0.0029398 0.0046678 0.00048549 0.0021936
0.00108 0.00044373 0.0015809 -0.0014385 0.0022118 -0.0011143 -0.002919 0.0046873
0.24378 -0.059354 8.7121e-06 -0.0021217
