!Keysight Technologies,M9804A,MY58100912,A.14.10.03
!Date: Thursday, April 27, 2023 10:28:33
!Correction: S11(C  6-Port  ) 
!S12(C  6-Port  ) 
!S13(C  6-Port  ) 
!S14(C  6-Port  ) 
!S15(C  6-Port  ) 
!S16(C  6-Port  ) 
!S21(C  6-Port  ) 
!S22(C  6-Port  ) 
!S23(C  6-Port  ) 
!S24(C  6-Port  ) 
!S25(C  6-Port  ) 
!S26(C  6-Port  ) 
!S31(C  6-Port  ) 
!S32(C  6-Port  ) 
!S33(C  6-Port  ) 
!S34(C  6-Port  ) 
!S35(C  6-Port  ) 
!S36(C  6-Port  ) 
!S41(C  6-Port  ) 
!S42(C  6-Port  ) 
!S43(C  6-Port  ) 
!S44(C  6-Port  ) 
!S45(C  6-Port  ) 
!S46(C  6-Port  ) 
!S51(C  6-Port  ) 
!S52(C  6-Port  ) 
!S53(C  6-Port  ) 
!S54(C  6-Port  ) 
!S55(C  6-Port  ) 
!S56(C  6-Port  ) 
!S61(C  6-Port  ) 
!S62(C  6-Port  ) 
!S63(C  6-Port  ) 
!S64(C  6-Port  ) 
!S65(C  6-Port  ) 
!S66(C  6-Port  ) 
!S6P File: Measurement: :
# Hz S  RI   R 50
500000000 -0.33571 -0.03503 -0.0094929 -0.0031059 -0.0077424 0.012212 -0.0030973 0.011478
0.012168 0.0042545 -0.0036034 0.0078055
-0.0094934 -0.0030497 -0.41837 -0.049441 0.0078931 -0.011254 0.0022329 0.011845
0.0075806 0.0024344 0.0018317 0.013458
-0.0077559 0.012231 0.0078625 -0.01128 -0.2648 0.21091 0.0074905 0.0028767
-0.00046533 0.0086046 0.0013869 0.011769
-0.0030523 0.011488 0.0022764 0.011862 0.0074824 0.0028744 -0.32735 0.046791
-0.019427 -0.0042158 0.017725 0.025591
0.012158 0.0042528 0.0076011 0.0024191 -0.00047151 0.0085898 -0.019407 -0.0041948
-0.22587 -0.18505 -0.02708 0.0050231
-0.0035248 0.0078833 0.0019212 0.013503 0.0013837 0.011751 0.017728 0.025575
-0.027059 0.0050339 -0.27188 -0.11401
560000000 -0.31594 0.12467 -0.023532 -0.061988 -0.00022721 0.01233 0.006517 0.0098815
0.010467 0.0038705 0.0096163 0.0083686
-0.02352 -0.061933 -0.37491 0.10907 -0.042091 -0.036599 0.013455 0.0040205
-0.013055 -0.0047547 0.0039631 0.00024703
-0.00013021 0.012212 -0.042254 -0.036561 -0.18264 0.25869 -0.00073082 -0.0046166
0.019106 0.0040396 0.0065448 -0.0064312
0.0065566 0.0098285 0.013489 0.0040011 -0.00072244 -0.0046395 -0.30193 0.13584
0.0039137 -0.025294 0.0049345 -0.020114
0.0105 0.0037862 -0.013062 -0.0046774 0.019088 0.0040164 0.0039039 -0.025291
-0.28506 -0.010396 0.0077329 -0.05069
0.0095961 0.0082628 0.0039232 0.00023954 0.0065231 -0.0064379 0.0049411 -0.020157
0.0076659 -0.050729 -0.33137 0.032152
620000000 -0.27306 0.1093 -0.02313 0.0074844 0.0033523 0.0085205 0.0068595 -0.0057417
0.011515 -6.2296e-05 -0.00019749 -0.0020701
-0.023109 0.0074798 -0.40239 0.062458 -0.018548 1.8241e-05 -0.001441 -0.0017196
0.010521 -0.0073255 0.00093388 -0.0025794
0.0034008 0.0084269 -0.0186 5.9386e-05 -0.15274 0.26791 -0.0016204 -0.0050999
-0.0036652 -0.0035142 0.0084426 -0.0031441
0.0069019 -0.0057517 -0.0014618 -0.001713 -0.0016074 -0.0050786 -0.26183 0.14601
-0.038419 -0.01878 0.014404 0.024518
0.011545 -0.00012277 0.010521 -0.0073503 -0.0036767 -0.0035368 -0.038425 -0.018751
-0.20373 -0.048805 -0.039586 0.013181
-0.00015923 -0.0021711 0.00090962 -0.0025816 0.0084935 -0.0031284 0.014483 0.024536
-0.039599 0.01314 -0.24864 -0.0039788
680000000 -0.23307 0.19289 -0.027724 -0.013895 0.0049565 0.0050257 0.0011246 -0.0072403
-0.0030592 -0.01083 0.0046599 -0.0062609
-0.027687 -0.013894 -0.38717 0.15948 -0.032674 -0.0012737 -0.0016894 -0.0001718
-0.0026735 -0.0088516 -0.001241 -0.0018945
0.0049561 0.0050552 -0.032728 -0.0011766 -0.10179 0.28739 -0.00086838 0.00021522
-0.0022635 0.00059855 -0.0028169 -0.0093333
0.0010734 -0.0072482 -0.0016879 -0.00016892 -0.00086207 0.00020488 -0.21953 0.19498
-0.023511 -0.0082204 -0.0091882 -0.010538
-0.0031095 -0.010807 -0.0027117 -0.0088642 -0.0022797 0.00057866 -0.02355 -0.0082062
-0.25238 0.047642 -0.0053658 -0.0092321
0.0045723 -0.0061976 -0.0012932 -0.0018497 -0.0028307 -0.0093372 -0.009281 -0.010566
-0.00536 -0.0092214 -0.25882 0.097901
740000000 -0.18913 0.18758 -0.038533 0.026463 0.012618 -0.0054094 -0.00098248 -0.0039699
-0.0043214 -0.0027259 -0.0066207 0.0029741
-0.038527 0.026439 -0.33423 0.1778 -0.034696 0.03536 -0.00043986 -0.0063859
-0.012445 0.0072798 -0.0025555 -0.0056037
0.01262 -0.0054334 -0.034674 0.03549 -0.068278 0.2861 -0.001667 0.0035209
-0.0021055 -0.0041159 -0.0016561 0.0001213
-0.00097191 -0.0039917 -0.00044627 -0.0063896 -0.0016806 0.0035532 -0.20239 0.20258
-0.042984 -0.0081579 0.021871 0.012988
-0.0043588 -0.0027392 -0.012453 0.007359 -0.0020559 -0.0041402 -0.043033 -0.0081066
-0.15641 0.073135 -0.041936 -6.0581e-05
-0.0066129 0.0029473 -0.0025937 -0.0056245 -0.0016927 0.00013873 0.021902 0.013001
-0.041969 -7.9406e-05 -0.24614 0.10335
800000000 -0.15765 0.22832 -0.022533 0.01708 0.0049744 -0.010429 -0.0048788 -0.0020371
-0.0040447 0.0027967 0.0041058 0.00099563
-0.02254 0.017066 -0.33734 0.24828 -0.0078423 0.033904 -0.0020695 0.002146
-0.00063909 0.0032401 0.0011053 0.0052462
0.0049858 -0.010474 -0.0077364 0.033954 -0.027076 0.30899 0.001166 0.0013582
0.00054868 0.0036516 -0.0018467 0.00081902
-0.0049147 -0.0020155 -0.0020679 0.0021482 0.0011369 0.0013323 -0.17432 0.23036
-0.028085 0.012313 0.012813 -0.010051
-0.004057 0.0028414 -0.00062304 0.0032417 0.00054681 0.0036594 -0.028078 0.012357
-0.20115 0.095549 -0.017262 0.017139
0.0041202 0.0010142 0.0011326 0.0052419 -0.001901 0.00081084 0.012784 -0.010061
-0.01728 0.017125 -0.23847 0.15492
860000000 -0.12299 0.24904 -0.017214 0.03096 -0.0033305 -0.0097043 -0.0027141 0.0012883
0.0038705 0.0048298 -0.0029273 -0.0023153
-0.017208 0.030911 -0.28942 0.29033 0.0081285 0.033877 0.00025107 0.0023418
0.0043267 5.1295e-05 0.0036181 0.00029795
-0.0033676 -0.0096668 0.0082496 0.033903 0.021438 0.3168 -0.00053715 -0.00021439
0.0028668 -0.00152 0.001617 0.0045683
-0.0027069 0.0012835 0.00027163 0.002347 -0.00052536 -0.0001988 -0.13885 0.24183
-0.018075 0.018242 -0.0068691 -0.0087551
0.0039138 0.0047808 0.004322 1.1397e-05 0.0028735 -0.0015075 -0.018053 0.018291
-0.15183 0.14406 -0.024265 0.015346
-0.0029723 -0.0023098 0.0036458 0.00027167 0.0016416 0.0045459 -0.0068613 -0.0087438
-0.024271 0.015306 -0.18876 0.1973
920000000 -0.097528 0.27256 0.0052128 0.037706 -0.0092861 -0.0041065 -0.0017465 0.0022474
0.0015057 0.0014789 0.0023497 -0.001551
0.005174 0.037668 -0.26025 0.31092 0.027874 0.021506 0.0015852 0.0010626
0.0065362 -0.00048113 0.0037694 -0.0030065
-0.009317 -0.0040742 0.027989 0.021447 0.067676 0.31695 0.0017881 -0.00019193
0.0011717 -0.00036965 0.00081399 -0.0011036
-0.0017491 0.0022652 0.0016144 0.0010558 0.0017966 -0.00019029 -0.11405 0.25859
-0.010518 0.029881 0.0029614 -0.0063499
0.0015282 0.0014867 0.006552 -0.00052555 0.0011748 -0.00038438 -0.010465 0.029915
-0.1412 0.15004 -0.0022836 0.027091
0.0023433 -0.0015691 0.0037589 -0.0030311 0.00080521 -0.0011019 0.0029462 -0.0063499
-0.0023034 0.027092 -0.19325 0.21099
980000000 -0.049902 0.2919 0.0178 0.02987 -0.0086896 0.0046958 0.0023758 0.0038979
0.0040162 -0.0017225 -0.0029637 -0.0019334
0.017765 0.029838 -0.20723 0.34469 0.032597 0.0045802 0.0019957 2.4836e-05
0.0011895 -0.0061974 -0.00080722 -0.0020852
-0.0086795 0.0047175 0.032648 0.0044918 0.11382 0.31006 0.00041984 -0.0011658
3.9123e-05 -0.0021286 0.001426 4.627e-06
0.0023864 0.0038804 0.0020032 4.0622e-05 0.00041254 -0.0011714 -0.076162 0.27007
0.0071023 0.028668 -0.0092585 -0.0065344
0.0040236 -0.0017502 0.0011435 -0.0061912 4.6186e-05 -0.0021162 0.0071598 0.028666
-0.10999 0.17752 0.0046235 0.018693
-0.0030064 -0.0019339 -0.00079872 -0.0020564 0.0014226 1.4796e-05 -0.0092693 -0.0065258
0.0046107 0.018686 -0.15061 0.25593
1040000000 -0.0067896 0.30002 0.033156 0.01768 -0.00095731 0.0068002 0.0028343 0.00070271
1.9542e-05 -0.003713 -0.00055842 -0.0014878
0.033109 0.017665 -0.17173 0.35751 0.02885 -0.01474 0.0014402 -0.0017139
-0.0023913 -0.0022561 -0.0013588 -0.0026159
-0.00094789 0.0067991 0.028842 -0.014844 0.15981 0.29601 -0.00047209 -0.0013745
-0.0015644 -0.00080565 -0.00046287 -0.0011395
0.0028433 0.00069184 0.0014563 -0.0017041 -0.00046782 -0.001388 -0.04849 0.27988
0.017975 0.017212 -0.0028124 0.0020626
1.4983e-05 -0.003717 -0.0024157 -0.0022059 -0.0015854 -0.00080874 0.018023 0.017193
-0.079175 0.1863 0.013035 0.017909
-0.0005607 -0.0015003 -0.0013536 -0.0026247 -0.00047406 -0.0011377 -0.0028123 0.0020809
0.013023 0.017922 -0.1288 0.27465
1100000000 0.03882 0.30735 0.035503 -0.0044551 0.0029588 0.0036233 0.0026541 -0.0013877
-0.002109 -0.0028997 -0.003776 4.6767e-05
0.035466 -0.0044277 -0.12812 0.37426 0.014789 -0.027365 8.5371e-05 -0.0017756
-0.0031763 -0.00041637 -0.0032642 -0.00056748
0.0029622 0.0036323 0.014702 -0.027449 0.2058 0.27554 -0.0017637 0.00025128
-0.0016388 0.00065346 -0.00088798 -0.00022377
0.0026473 -0.0014069 8.1945e-05 -0.0017773 -0.0017651 0.00024734 -0.0080235 0.28488
0.022368 0.0051493 -0.0023336 0.00088497
-0.0021373 -0.0028869 -0.0031813 -0.00037997 -0.0016238 0.00066169 0.022391 0.005115
-0.060729 0.19982 0.018335 0.0084454
-0.0037698 6.1943e-05 -0.0032616 -0.0005482 -0.00087988 -0.00022089 -0.0023433 0.00088695
0.018329 0.0084578 -0.08179 0.30283
1160000000 0.090269 0.30168 0.023476 -0.020706 0.0026535 -0.00052964 -9.023e-05 -0.0026539
-0.003946 -0.00042055 -0.00096093 0.0037222
0.023478 -0.020693 -0.084488 0.37809 -0.0037544 -0.02857 -0.0017571 -0.0016592
-0.00239 0.0026434 -0.0012135 0.0016052
0.0026458 -0.00054621 -0.0038658 -0.028568 0.24861 0.24479 -0.0006131 0.0016562
-0.00034018 0.0018367 -0.00090594 -5.0012e-06
-9.4083e-05 -0.0026635 -0.001757 -0.0016396 -0.00061138 0.00165 0.031153 0.28184
0.019002 -0.0093451 -0.0026415 0.0056734
-0.0039218 -0.00040398 -0.0023865 0.0026774 -0.00033825 0.0018433 0.019006 -0.0093681
-0.027551 0.2092 0.016921 0.00083096
-0.00093524 0.0037053 -0.0012086 0.0016087 -0.00091222 -6.7048e-06 -0.0026239 0.0056854
0.016903 0.00082495 -0.034955 0.30502
1220000000 0.1347 0.28991 0.010132 -0.029598 -0.0015722 -0.00086135 -0.00019982 -0.0011254
-0.0026223 0.0025429 0.0012295 0.0018235
0.010144 -0.029558 -0.040533 0.38967 -0.016567 -0.020741 -0.0024317 0.00040019
0.00023858 0.0028302 -0.00068792 0.0017012
-0.001556 -0.00085943 -0.016673 -0.020685 0.28764 0.20585 0.00083277 0.0015678
0.00058633 0.001128 0.00021964 0.00067878
-0.00020614 -0.0011308 -0.0024313 0.00041436 0.00082302 0.0015719 0.0707 0.27359
0.0093049 -0.01497 0.0028257 0.0017597
-0.0026045 0.0025624 0.0002467 0.0028314 0.00059088 0.0011326 0.009284 -0.014977
-0.0041188 0.21847 0.013094 -0.011665
0.0012277 0.0018182 -0.00068038 0.0017107 0.00023263 0.00068124 0.0028242 0.0017551
0.013094 -0.011667 -0.0030696 0.32071
1280000000 0.18402 0.26714 -0.0077942 -0.027956 -0.0018119 0.0024572 -0.0011094 -0.0019764
-0.00060988 0.0029596 0.0024463 0.00099798
-0.0077706 -0.027942 0.0051017 0.38052 -0.023184 -0.0084581 -0.0010004 0.0014191
0.001584 0.0015698 0.00055067 0.0018827
-0.0018089 0.002466 -0.023253 -0.0083525 0.31838 0.16206 0.0013786 -0.00014562
0.00097965 6.8577e-05 0.00030365 0.00030692
-0.0011213 -0.0019684 -0.00099709 0.0014284 0.0013796 -0.00015522 0.10719 0.25766
0.00087667 -0.016743 0.00050336 7.361e-05
-0.00058325 0.0029618 0.0015904 0.0015574 0.00098216 6.8134e-05 0.00085108 -0.016741
0.032802 0.22251 0.002789 -0.01378
0.0024537 0.00098128 0.00056409 0.0018872 0.00029449 0.0003007 0.00051229 7.8013e-05
0.0027983 -0.013779 0.044024 0.32073
1340000000 0.22071 0.23298 -0.01733 -0.018725 0.00078789 0.0043006 -0.0018937 -0.00068759
0.0014574 0.0026168 0.0016439 -0.001496
-0.017293 -0.018723 0.044274 0.3723 -0.021173 0.0039609 -6.043e-05 0.001907
0.0016699 0.00063339 0.0012246 0.00086209
0.0007982 0.0042968 -0.021178 0.0040683 0.34064 0.11398 0.00094057 -0.00086194
0.0005621 -0.00039432 0.00011721 0.00021921
-0.0018993 -0.00067397 -4.9829e-05 0.0018983 0.00093713 -0.00087059 0.14017 0.23785
-0.0071022 -0.014152 0.0013456 -6.8953e-05
0.0014696 0.0026134 0.0016853 0.00062458 0.00056197 -0.00039161 -0.007126 -0.01414
0.062865 0.21805 -0.0029291 -0.012495
0.0016413 -0.0014997 0.0012273 0.00085333 0.00011388 0.00021827 0.0013406 -6.5161e-05
-0.0029217 -0.012496 0.082177 0.31545
1400000000 0.2533 0.19453 -0.022927 -0.0075103 0.0050609 0.0029811 -0.0020104 0.00074689
0.0024028 0.0007173 0.00019467 -0.0012964
-0.022901 -0.0075331 0.081278 0.35936 -0.014675 0.011958 0.0012783 0.0012782
0.00096784 -0.00074857 0.0011727 0.00024871
0.0050677 0.0029735 -0.014625 0.01205 0.35387 0.060074 6.8336e-05 -0.0013481
1.8532e-05 -0.00032194 0.0003309 0.00015475
-0.0020047 0.00075067 0.0012943 0.0012748 8.4457e-05 -0.0013561 0.17007 0.20947
-0.01206 -0.0083836 -0.00059797 -0.00091274
0.0024018 0.0006988 0.0009637 -0.00074856 1.4552e-05 -0.00032801 -0.012083 -0.0083613
0.096026 0.2136 -0.0089203 -0.0079833
0.00018332 -0.001303 0.0011751 0.00023057 0.00033112 0.000146 -0.00060007 -0.00091572
-0.0089104 -0.0079778 0.12635 0.30383
1460000000 0.27572 0.15045 -0.020129 0.0043425 0.0054167 -0.0017133 -0.0014959 0.0017863
0.0018581 -0.0006257 -0.00031783 -0.00082429
-0.020119 0.004314 0.11547 0.33765 -0.0063415 0.014905 0.001687 0.0001675
0.00085087 -0.0010642 0.0011732 -0.00055607
0.0054013 -0.0017518 -0.0062586 0.014959 0.35983 0.0051896 -0.0010528 -0.001208
0.00021856 -4.7713e-05 0.00067891 -0.00036383
-0.0015003 0.0017989 0.0016901 0.00016431 -0.0010551 -0.0011911 0.19734 0.18052
-0.01285 -0.0030688 -0.0011543 0.0013008
0.0018639 -0.00064026 0.00083855 -0.001066 0.00023016 -5.243e-05 -0.012865 -0.0030317
0.12611 0.19905 -0.010638 -0.0029764
-0.00032196 -0.00080343 0.0011709 -0.00057303 0.00068537 -0.00037166 -0.0011506 0.0012955
-0.010631 -0.0029827 0.1596 0.28232
1520000000 0.28774 0.10852 -0.0147 0.009935 0.0031319 -0.0040594 0.00020982 0.0025167
0.0017686 -0.0016285 -0.0011415 -0.0001271
-0.014705 0.0099129 0.14918 0.3229 0.0012231 0.012962 0.0015967 -0.00078565
0.00011914 -0.00088035 0.00029714 -0.00098381
0.0031089 -0.0040779 0.0013011 0.012976 0.35256 -0.051307 -0.00095924 -0.00032618
0.00052906 -0.00075563 6.2211e-06 -1.9581e-05
0.00022611 0.0025184 0.0015999 -0.00079998 -0.000941 -0.00031998 0.22155 0.14229
-0.012586 0.0015029 0.00090601 0.0016191
0.0017526 -0.0016362 0.00010561 -0.00088441 0.00052682 -0.00075404 -0.012585 0.0015382
0.15439 0.18461 -0.010697 0.0010393
-0.0011507 -0.00011551 0.00030213 -0.00099192 1.1128e-05 -2.3624e-05 0.00090567 0.0016091
-0.0107 0.0010396 0.19235 0.26113
1580000000 0.2968 0.061894 -0.0083119 0.013076 -0.00087664 -0.0046196 0.0014477 0.0018169
-0.00041022 -0.0019587 -0.0003842 0.00033661
-0.0083188 0.01306 0.17661 0.29798 0.0048893 0.0083372 0.00046921 -0.00155
-0.0003512 -0.0010194 -0.00020602 -0.00087524
-0.00091565 -0.0046139 0.0049431 0.0083184 0.33183 -0.10891 -0.0014763 0.00043007
-0.00023638 -0.0010935 0.00015674 -0.00053373
0.0014539 0.0018205 0.00045669 -0.0015553 -0.0014747 0.00043746 0.23638 0.10216
-0.01009 0.0055827 0.0017157 0.00070907
-0.00042431 -0.0019497 -0.00035413 -0.0010211 -0.00023663 -0.0011004 -0.010083 0.0056087
0.17926 0.16612 -0.0086688 0.0063544
-0.0003873 0.00033244 -0.00021576 -0.00086987 0.00015955 -0.00053228 0.0017237 0.00070628
-0.0086669 0.006357 0.22385 0.2336
1640000000 0.29832 0.020085 -0.001775 0.012212 -0.0026344 -0.002504 0.0025922 0.00098279
-0.00073597 -0.0011461 -0.00030341 0.0006259
-0.0017989 0.012213 0.20619 0.27264 0.005671 0.0036883 -0.00065429 -0.001629
-0.00091825 -0.00050746 -0.0005129 -0.00067794
-0.0026485 -0.0024865 0.0057005 0.00365 0.30327 -0.15806 -0.00080643 0.0012363
-0.00094501 -0.00095015 -8.712e-05 -0.00028597
0.0026039 0.00097491 -0.00066225 -0.0016346 -0.00081495 0.0012472 0.24912 0.051992
-0.0067839 0.0067095 0.0021184 -0.00060296
-0.00074505 -0.001151 -0.00091943 -0.00050404 -0.0009435 -0.00094622 -0.0067665 0.0067339
0.20269 0.14094 -0.0045791 0.0083637
-0.00028989 0.00062002 -0.00052475 -0.00067186 -8.2772e-05 -0.00029435 0.0021222 -0.00060666
-0.0045762 0.0083588 0.24887 0.20175
1700000000 0.29049 -0.025517 0.0017023 0.0096741 -0.003416 0.00010887 0.0029012 -0.0011314
-0.0017774 -0.00047919 0.00059494 0.00051671
0.0016881 0.0096776 0.22433 0.24069 0.0038463 0.00082996 -0.0013293 -0.00059383
-0.00079759 -8.0146e-05 -0.0009145 -0.00043385
-0.0034147 0.00012738 0.0038594 0.00079386 0.25928 -0.19775 0.00033059 0.0015671
-0.0016734 -0.00032393 -0.00053661 -0.00099544
0.0028899 -0.0011427 -0.001333 -0.00059067 0.00033398 0.0015631 0.24548 0.0006927
-0.0048621 0.0074363 0.001193 -0.0019667
-0.0017862 -0.00047113 -0.00079904 -8.2743e-05 -0.0016674 -0.00032721 -0.0048466 0.0074403
0.22041 0.1193 -0.00039216 0.0088839
0.00059624 0.00051426 -0.00092109 -0.00043059 -0.00055576 -0.00099575 0.0012017 -0.001965
-0.00039231 0.0088865 0.26463 0.167
1760000000 0.27717 -0.074248 0.0042171 0.006579 -0.0022052 0.00082571 0.0013293 -0.0032923
-0.0010435 0.00058894 0.00036692 -0.00048467
0.0042128 0.0065742 0.25 0.20035 0.0017725 -0.00089808 -0.0011277 0.00014402
-0.0011851 0.00085343 -0.00063611 0.0005415
-0.0021911 0.00083884 0.0017709 -0.00093071 0.21032 -0.23037 0.0011185 0.0012554
-0.0011464 0.0013306 -0.001292 -0.00047736
0.0013207 -0.0032874 -0.0011223 0.00014941 0.0011301 0.0012695 0.23514 -0.051852
-0.0020854 0.0070665 -0.00047811 -0.0021202
-0.0010444 0.00060653 -0.0011789 0.00086545 -0.0011385 0.001337 -0.0020693 0.007074
0.23553 0.082552 0.0032939 0.0064217
0.00036881 -0.00050326 -0.00063457 0.00055097 -0.0012951 -0.00048452 -0.00049569 -0.0021263
0.0032944 0.0064304 0.27651 0.12914
1820000000 0.25144 -0.11117 0.0046053 0.0029768 -6.8064e-05 0.0023519 -0.00094193 -0.0031083
-0.00088151 0.00063296 -2.2059e-06 -0.00017403
0.0046123 0.0029776 0.25951 0.16993 -0.0001762 2.531e-05 -0.0013782 0.00083995
-0.00019723 0.0013719 -0.00055208 0.00055355
-7.071e-05 0.002346 -0.00018787 2.4561e-05 0.16021 -0.24596 0.001546 0.00043938
-0.00048123 0.002131 -0.0015117 0.00050798
-0.00095123 -0.0031152 -0.0013694 0.00085075 0.0015423 0.00042688 0.20345 -0.099039
-0.00084844 0.005953 -0.0015436 -0.0013322
-0.00088694 0.00063771 -0.0001808 0.0013709 -0.00047905 0.0021262 -0.00083004 0.0059498
0.25206 0.051263 0.004259 0.0032707
1.4661e-06 -0.00017477 -0.00054404 0.00055755 -0.0015172 0.00052144 -0.0015438 -0.0013243
0.004261 0.0032645 0.27782 0.092606
1880000000 0.21551 -0.15069 0.002603 0.00062518 -0.0004139 0.0022085 -0.0028346 -0.0022428
-0.00030084 0.0014497 0.00037459 -0.00054148
0.0026086 0.0006132 0.26339 0.12321 -0.0021505 0.0016655 -0.00022502 0.0017041
0.00060525 0.0014072 0.00020764 0.00098758
-0.00040371 0.0021991 -0.0021433 0.0016838 0.10808 -0.25533 0.0020635 -0.00094532
0.0013393 0.0021026 -0.0008716 0.0013586
-0.0028496 -0.0022212 -0.00021409 0.0017017 0.0020506 -0.00096536 0.16116 -0.13834
-0.00050082 0.0047106 -0.0022572 0.00067018
-0.00028839 0.0014606 0.00062211 0.0014101 0.0013246 0.0020934 -0.00049518 0.004719
0.2535 0.016553 0.0040201 0.00137
0.00037596 -0.00056388 0.00021404 0.00098884 -0.00086902 0.001378 -0.002266 0.0006675
0.0040075 0.0013505 0.27681 0.058604
1940000000 0.17564 -0.17535 0.00044668 -0.0013412 0.0013885 0.0018717 -0.0037668 0.00052115
0.0011143 0.0011311 -0.00055432 -0.00065342
0.00043797 -0.0013357 0.26334 0.091424 -0.0010845 0.0038141 0.00093729 0.0014019
0.0019916 0.00060829 0.0009263 0.00030554
0.0014132 0.0018746 -0.0010538 0.0038266 0.061908 -0.24884 0.00043019 -0.002227
0.0024226 0.00063873 0.00042087 0.0016718
-0.0037675 0.00053923 0.00096008 0.0014119 0.00044233 -0.0022236 0.10787 -0.16727
-0.0016579 0.003933 -0.0010475 0.0017388
0.0011308 0.0011245 0.0019994 0.00060095 0.0024338 0.00063546 -0.0016497 0.0039216
0.25291 -0.02442 0.0030563 -0.0015615
-0.00056049 -0.00064638 0.00093951 0.00028409 0.00042819 0.0016711 -0.0010267 0.0017615
0.0030701 -0.0015482 0.26506 0.022418
2000000000 0.12945 -0.18879 -0.0035079 0.00058246 0.0025359 0.0015793 -0.0022593 0.0036789
0.0010615 0.00039219 -0.00067383 0.00043766
-0.0035236 0.00057063 0.24866 0.05611 -0.00080166 0.0056458 0.0017137 0.00034587
0.0015557 -0.001467 0.00055596 0.00015822
0.0025715 0.0015966 -0.00076204 0.0056427 0.018682 -0.23393 -0.0014178 -0.0014881
0.0021386 -0.0011345 0.0016979 0.0012424
-0.0022418 0.0036961 0.0017181 0.0003121 -0.0014477 -0.0014558 0.054731 -0.17544
-0.0029124 0.0045578 0.00032317 0.0022126
0.0010746 0.00039254 0.0015326 -0.001483 0.0021227 -0.0011162 -0.0029039 0.0045691
