!Keysight Technologies,M9804A,MY58100912,A.14.10.03
!Date: Thursday, April 27, 2023 10:28:33
!Correction: S11(C  6-Port  ) 
!S12(C  6-Port  ) 
!S13(C  6-Port  ) 
!S14(C  6-Port  ) 
!S15(C  6-Port  ) 
!S16(C  6-Port  ) 
!S21(C  6-Port  ) 
!S22(C  6-Port  ) 
!S23(C  6-Port  ) 
!S24(C  6-Port  ) 
!S25(C  6-Port  ) 
!S26(C  6-Port  ) 
!S31(C  6-Port  ) 
!S32(C  6-Port  ) 
!S33(C  6-Port  ) 
!S34(C  6-Port  ) 
!S35(C  6-Port  ) 
!S36(C  6-Port  ) 
!S41(C  6-Port  ) 
!S42(C  6-Port  ) 
!S43(C  6-Port  ) 
!S44(C  6-Port  ) 
!S45(C  6-Port  ) 
!S46(C  6-Port  ) 
!S51(C  6-Port  ) 
!S52(C  6-Port  ) 
!S53(C  6-Port  ) 
!S54(C  6-Port  ) 
!S55(C  6-Port  ) 
!S56(C  6-Port  ) 
!S61(C  6-Port  ) 
!S62(C  6-Port  ) 
!S63(C  6-Port  ) 
!S64(C  6-Port  ) 
!S65(C  6-Port  ) 
!S66(C  6-Port  ) 
!S6P File: Measurement: :
# Hz S  RI   R 50
500000000 -0.33575 -0.03501 -0.0094182 -0.0032413 -0.0077574 0.012025 -0.0031745 0.01131
0.012584 0.0041784 -0.0037247 0.0075148
-0.0094018 -0.0031859 -0.41849 -0.049445 0.0077924 -0.011272 0.0019011 0.01176
0.0075641 0.0022381 0.0012379 0.013245
-0.0077482 0.012044 0.00777 -0.011282 -0.2649 0.211 0.0071717 0.0029586
-0.00032612 0.0084683 0.00094708 0.011857
-0.0031283 0.011327 0.0019167 0.011787 0.007168 0.0029637 -0.32706 0.047132
-0.019839 -0.0041764 0.017904 0.025863
0.012605 0.0041724 0.0075685 0.0022324 -0.00033359 0.0084675 -0.019834 -0.0041613
-0.22584 -0.18465 -0.027561 0.0049358
-0.0035577 0.0075029 0.001304 0.01323 0.00096903 0.011832 0.017874 0.025869
-0.02757 0.0049364 -0.2721 -0.11379
560000000 -0.31618 0.12486 -0.023521 -0.061957 -0.00025836 0.012245 0.006424 0.0099247
0.010822 0.0042466 0.010315 0.008276
-0.02351 -0.061869 -0.37505 0.10903 -0.042174 -0.036512 0.013388 0.0038645
-0.013346 -0.0047434 0.0044163 -0.00025424
-0.00023939 0.012229 -0.042331 -0.03644 -0.18255 0.25881 -0.00076257 -0.0045699
0.019302 0.0038884 0.0065281 -0.0063065
0.0064615 0.0099125 0.0134 0.0038413 -0.00075339 -0.004578 -0.30211 0.13585
0.0039516 -0.025361 0.0046685 -0.019862
0.010813 0.0042332 -0.01339 -0.0046939 0.019307 0.0038926 0.0039484 -0.025363
-0.28487 -0.010749 0.0081413 -0.050345
0.010209 0.0082957 0.0043655 -0.00023682 0.0065398 -0.0063153 0.0046592 -0.019907
0.0081679 -0.050322 -0.33036 0.03237
620000000 -0.27294 0.10961 -0.023026 0.007554 0.0033078 0.0086444 0.006517 -0.0054615
0.011445 -0.00022703 -0.00041737 -0.0016842
-0.023015 0.007552 -0.40239 0.062505 -0.018486 5.3177e-05 -0.001327 -0.0018288
0.010384 -0.00739 0.0011105 -0.0026633
0.0033347 0.0086091 -0.018503 9.5849e-05 -0.15257 0.26806 -0.0013528 -0.0050997
-0.0039757 -0.0037485 0.0086821 -0.0031581
0.0065094 -0.0054905 -0.001324 -0.001825 -0.0013527 -0.0050838 -0.26181 0.14577
-0.038281 -0.018727 0.014344 0.02418
0.011433 -0.00024992 0.010369 -0.0074214 -0.0039798 -0.0037572 -0.038305 -0.018695
-0.20402 -0.049355 -0.039778 0.013393
-0.00058297 -0.001768 0.0010815 -0.0026661 0.0086496 -0.0031776 0.014344 0.024127
-0.039743 0.013433 -0.24902 -0.004353
680000000 -0.23296 0.19312 -0.027638 -0.013945 0.0050253 0.0049801 0.001142 -0.0075653
-0.0033857 -0.010913 0.0046812 -0.00659
-0.027602 -0.013931 -0.38704 0.15948 -0.032651 -0.00131 -0.0016499 -0.00019638
-0.0027902 -0.0088775 -0.0010233 -0.0019695
0.0050564 0.0049797 -0.032687 -0.0012341 -0.1018 0.28733 -0.00086466 0.00010234
-0.002326 0.00063773 -0.0028533 -0.0094751
0.0011238 -0.0075627 -0.0016566 -0.00019411 -0.00086353 0.0001017 -0.2191 0.19508
-0.023263 -0.0083238 -0.0091886 -0.010631
-0.0034219 -0.010904 -0.0028164 -0.0088897 -0.0023222 0.00063925 -0.023279 -0.0083063
-0.2519 0.047605 -0.0053311 -0.0093011
0.0047394 -0.0065904 -0.00099923 -0.0019682 -0.0028249 -0.0094789 -0.0091838 -0.010616
-0.0053466 -0.009284 -0.25826 0.097284
740000000 -0.1897 0.18768 -0.038537 0.026213 0.012723 -0.0054193 -0.00095704 -0.003855
-0.0042883 -0.0025922 -0.00632 0.0031663
-0.038497 0.026166 -0.33408 0.17789 -0.034671 0.035237 -0.00036922 -0.0062829
-0.012455 0.0071695 -0.0024102 -0.0056084
0.012711 -0.0053989 -0.034605 0.035374 -0.068119 0.28624 -0.0016387 0.0036854
-0.0022735 -0.0043369 -0.0014376 0.00042262
-0.00097173 -0.0038751 -0.00037089 -0.0062777 -0.0016222 0.0036854 -0.20242 0.20268
-0.042696 -0.0082421 0.021853 0.013153
-0.0043127 -0.0025634 -0.012452 0.0072196 -0.0022905 -0.0043452 -0.04272 -0.0081882
-0.15681 0.071964 -0.04202 -3.9223e-05
-0.0063638 0.00317 -0.0024367 -0.0055941 -0.0014327 0.00044026 0.021894 0.01315
-0.042019 -5.7915e-05 -0.24575 0.10397
800000000 -0.15782 0.22838 -0.022586 0.01723 0.0050235 -0.010279 -0.0049163 -0.0021214
-0.004145 0.0028217 0.0038766 0.0012875
-0.022581 0.01721 -0.33732 0.24846 -0.0078041 0.033937 -0.0021796 0.0021512
-0.00059031 0.0034115 0.001071 0.0053413
0.0049938 -0.0103 -0.0077063 0.033998 -0.026938 0.30912 0.0010324 0.0014574
0.00061207 0.0036687 -0.001945 0.0010239
-0.0049387 -0.002114 -0.00217 0.0021672 0.0010169 0.0014591 -0.17432 0.23021
-0.028219 0.012262 0.012671 -0.010195
-0.00414 0.0028562 -0.00057596 0.0034156 0.00061812 0.0036702 -0.028228 0.012321
-0.20088 0.095387 -0.017303 0.017165
0.0038512 0.0012808 0.0010816 0.0053505 -0.0019593 0.0010243 0.012671 -0.0102
-0.017297 0.017151 -0.23854 0.15474
860000000 -0.12307 0.24934 -0.017228 0.031039 -0.0034318 -0.0097074 -0.0027007 0.0012362
0.0039924 0.005006 -0.002861 -0.0025206
-0.01723 0.031002 -0.28937 0.29036 0.0081388 0.033893 9.6767e-05 0.0022662
0.0043475 0.00013912 0.0036438 0.00026134
-0.003464 -0.0096944 0.0082609 0.033906 0.021417 0.31679 -0.00049501 -0.00026732
0.0028876 -0.0015202 0.0016175 0.0045194
-0.0026956 0.0012254 9.7956e-05 0.0022716 -0.000496 -0.00027015 -0.13869 0.24192
-0.018155 0.01847 -0.006735 -0.0087014
0.0040103 0.0049952 0.004345 0.00012208 0.0028914 -0.0015226 -0.018142 0.018514
-0.15191 0.14414 -0.024037 0.015119
-0.0029052 -0.0025191 0.0036331 0.00029071 0.0016111 0.0045188 -0.0067483 -0.0087527
-0.024025 0.015088 -0.18863 0.19758
920000000 -0.097323 0.27253 0.0052548 0.0378 -0.0092487 -0.0041282 -0.0017817 0.002326
0.0016016 0.0015013 0.002524 -0.0015275
0.0052422 0.037747 -0.2602 0.31097 0.027887 0.021506 0.001624 0.0010195
0.006594 -0.00048392 0.0037991 -0.0031296
-0.00926 -0.0041075 0.027994 0.021449 0.067685 0.31696 0.0018169 -0.00018863
0.0011413 -0.00040154 0.00082198 -0.0011394
-0.0017687 0.0023424 0.001628 0.0010217 0.001815 -0.0001978 -0.11415 0.25853
-0.010642 0.029766 0.0029139 -0.0063557
0.0016242 0.0015031 0.0066074 -0.00052353 0.0011457 -0.00039592 -0.010591 0.029803
-0.14142 0.15001 -0.0024638 0.026859
0.0025286 -0.0015482 0.0037763 -0.0031562 0.00082793 -0.0011468 0.0029052 -0.006334
-0.0024618 0.026829 -0.19334 0.21091
980000000 -0.049871 0.29207 0.017824 0.029823 -0.008698 0.0046921 0.0023809 0.0038718
0.0038624 -0.0017517 -0.0030458 -0.0019825
0.017817 0.029811 -0.20728 0.34465 0.032588 0.0045663 0.0020453 7.9988e-06
0.0010854 -0.0061867 -0.00076962 -0.0019412
-0.0086844 0.004719 0.03264 0.0044766 0.11386 0.31007 0.00044996 -0.0011471
4.8269e-05 -0.0021398 0.0014234 9.3172e-06
0.0024006 0.0038505 0.0020315 4.8889e-06 0.00044255 -0.0011495 -0.076142 0.27004
0.0070739 0.028671 -0.0091721 -0.0065466
0.0038472 -0.0017703 0.0010658 -0.0062083 4.5402e-05 -0.0021337 0.0071315 0.028677
-0.11017 0.17756 0.0046547 0.018447
-0.0030726 -0.001966 -0.00078667 -0.0019414 0.0014348 1.9815e-05 -0.0091746 -0.0065515
0.0046337 0.018453 -0.15074 0.25598
1040000000 -0.007138 0.3 0.033122 0.017712 -0.00095398 0.00675 0.0027534 0.00070848
-6.9605e-05 -0.0037865 -0.00060343 -0.0013925
0.033107 0.017694 -0.17169 0.35758 0.028835 -0.014754 0.0014537 -0.0017218
-0.0024771 -0.002247 -0.0013253 -0.0025666
-0.00093558 0.0067528 0.02882 -0.01486 0.15982 0.29603 -0.00045941 -0.001393
-0.0015968 -0.00073565 -0.00043764 -0.0011558
0.0027753 0.00068646 0.0014354 -0.0017152 -0.00046096 -0.0013981 -0.048453 0.27996
0.01796 0.017147 -0.002853 0.0021339
-9.3852e-05 -0.0037675 -0.0024889 -0.0022577 -0.0015946 -0.00072629 0.018004 0.017128
-0.079599 0.18666 0.013077 0.017793
-0.00060518 -0.0014066 -0.0013669 -0.0025778 -0.00043249 -0.0011555 -0.0028428 0.0021451
0.013074 0.017789 -0.12892 0.27482
1100000000 0.038864 0.30725 0.035462 -0.0044833 0.002935 0.0036348 0.0026433 -0.0013963
-0.0021521 -0.0028711 -0.0038698 0.00013713
0.03544 -0.004463 -0.12813 0.37426 0.014772 -0.027381 8.632e-05 -0.0017716
-0.0031774 -0.00038211 -0.0032639 -0.00049921
0.0029448 0.0036243 0.014689 -0.027458 0.20587 0.27556 -0.0017441 0.00022666
-0.0016374 0.00067247 -0.00089869 -0.00025768
0.0026391 -0.0014083 7.7364e-05 -0.0017782 -0.0017394 0.00022656 -0.0080153 0.28491
0.022306 0.005265 -0.0022382 0.0009584
-0.0021747 -0.0028432 -0.0031849 -0.00037228 -0.0016311 0.00067872 0.022319 0.0052402
-0.060897 0.19978 0.018319 0.0085253
-0.0038588 0.00016691 -0.0032695 -0.00048984 -0.00089454 -0.0002615 -0.0022434 0.00094996
0.018309 0.0085363 -0.081735 0.30282
1160000000 0.090272 0.30172 0.023486 -0.020677 0.0026193 -0.0005268 -0.0001376 -0.0025853
-0.0038987 -0.00038595 -0.0009752 0.0037086
0.023504 -0.020663 -0.08446 0.37813 -0.0037863 -0.028587 -0.0017279 -0.0015998
-0.002384 0.0025926 -0.001216 0.0015342
0.0026227 -0.00055397 -0.0039052 -0.028591 0.24864 0.24478 -0.00062212 0.0016291
-0.00032719 0.0018212 -0.00095254 8.3596e-06
-0.00013144 -0.0025873 -0.0017461 -0.0015893 -0.00063194 0.0016316 0.031195 0.28196
0.019008 -0.0092816 -0.0025273 0.0057015
-0.0039174 -0.00036461 -0.0023802 0.0026024 -0.00032156 0.0018343 0.018999 -0.009303
-0.027818 0.20938 0.016959 0.00084599
-0.00096695 0.0037261 -0.00122 0.0015358 -0.00095322 1.3579e-05 -0.0025264 0.0057252
0.016943 0.0008594 -0.034797 0.3051
1220000000 0.13468 0.28988 0.010074 -0.029572 -0.0015572 -0.00084405 -0.00018213 -0.0011738
-0.002578 0.0025357 0.0012454 0.0018023
0.010098 -0.029545 -0.040512 0.38971 -0.016568 -0.020728 -0.0024916 0.00042324
0.0002382 0.0028362 -0.00068934 0.0017456
-0.0015566 -0.00084761 -0.016673 -0.020678 0.28769 0.20582 0.00081098 0.0015699
0.00056146 0.0010878 0.00019695 0.00068001
-0.0001905 -0.0011802 -0.0024882 0.00043728 0.0008095 0.0015695 0.070788 0.27364
0.0093517 -0.014922 0.0028638 0.0017137
-0.0025843 0.0025414 0.00025046 0.0028429 0.00055926 0.001083 0.0093293 -0.014943
-0.0041171 0.21879 0.01312 -0.011683
0.0012575 0.0017959 -0.00068089 0.0017441 0.00019709 0.00068221 0.0028665 0.0017086
0.013106 -0.011673 -0.0031426 0.32066
1280000000 0.18401 0.26714 -0.0078328 -0.027973 -0.0018445 0.0024604 -0.0010848 -0.0019888
-0.00060962 0.0028997 0.0024443 0.0010063
-0.0078021 -0.027948 0.0051144 0.38052 -0.023193 -0.0084201 -0.00097144 0.0013933
0.0015975 0.001539 0.00045971 0.0019074
-0.0018337 0.0024733 -0.023265 -0.0083241 0.31844 0.16203 0.001348 -0.00020099
0.00095574 6.1258e-05 0.00025915 0.0003597
-0.0010998 -0.0019877 -0.0009633 0.0013985 0.0013473 -0.00019353 0.10722 0.25773
0.0010601 -0.016705 0.00057737 8.2444e-05
-0.00059229 0.0029024 0.0016037 0.0015287 0.00095991 6.6493e-05 0.0010252 -0.016714
0.032842 0.22283 0.0029114 -0.013814
0.0024443 0.00098779 0.0004736 0.0019089 0.00026302 0.00036717 0.00057872 7.9619e-05
0.0029252 -0.013797 0.044058 0.32086
1340000000 0.22073 0.23298 -0.01734 -0.018713 0.00080763 0.0042812 -0.0019091 -0.00069572
0.0014339 0.0025801 0.0015834 -0.0014871
-0.017302 -0.018698 0.044275 0.37231 -0.021189 0.0039711 -9.442e-05 0.0019406
0.0016895 0.00064663 0.0012538 0.00089043
0.00083013 0.0042854 -0.021194 0.0040797 0.34067 0.11394 0.00095564 -0.00088437
0.00053572 -0.00034704 0.0001266 0.00026244
-0.0019147 -0.00070062 -7.7337e-05 0.0019444 0.00095505 -0.00087892 0.14023 0.23784
-0.0070179 -0.01417 0.0013764 -0.00011001
0.0014457 0.0025696 0.0017021 0.00063302 0.00053895 -0.00035029 -0.0070445 -0.014157
0.063018 0.21826 -0.0028367 -0.01239
0.0015773 -0.0015027 0.0012601 0.00087625 0.0001288 0.00026189 0.0013785 -0.00010845
-0.002844 -0.012388 0.082125 0.31541
1400000000 0.25333 0.19456 -0.022906 -0.0074869 0.0050523 0.0029876 -0.0019923 0.00076026
0.0024136 0.00071201 0.00018058 -0.0012701
-0.02288 -0.0074866 0.081274 0.35935 -0.014669 0.011977 0.0013111 0.0012539
0.00099165 -0.00075463 0.0011375 0.00025603
0.0050578 0.0029728 -0.014627 0.012056 0.35389 0.060039 7.6118e-05 -0.0013756
2.5809e-05 -0.00033709 0.00032629 0.00014793
-0.0019957 0.00076667 0.0013136 0.0012504 7.9789e-05 -0.0013738 0.17011 0.2094
-0.011952 -0.0084804 -0.00063817 -0.00094708
0.0024246 0.00068585 0.00098168 -0.00076051 3.0057e-05 -0.00033726 -0.011982 -0.0084503
0.09637 0.21367 -0.0089311 -0.0080757
0.00017117 -0.001281 0.0011334 0.00024752 0.00033215 0.00014766 -0.00064233 -0.00096012
-0.0089218 -0.0080766 0.12639 0.30392
1460000000 0.27582 0.1504 -0.020133 0.0043553 0.0054014 -0.0017135 -0.0014885 0.0018044
0.0018554 -0.00060144 -0.00034794 -0.00084009
-0.020115 0.0043337 0.11553 0.33768 -0.0063171 0.014931 0.0017065 0.00017391
0.00088282 -0.0010663 0.0011772 -0.00058584
0.0053932 -0.0017432 -0.006249 0.014961 0.35982 0.0051801 -0.0010351 -0.0012112
0.00024675 -6.4781e-05 0.00062906 -0.00037762
-0.0014722 0.0018144 0.0017005 0.00017272 -0.001031 -0.0012178 0.19738 0.18043
-0.012827 -0.0032027 -0.0012115 0.0012738
0.0018623 -0.00061306 0.00087691 -0.0010753 0.0002453 -6.2439e-05 -0.012845 -0.0031796
0.12648 0.19893 -0.010647 -0.0029724
-0.00035235 -0.00083357 0.0011826 -0.0005967 0.00063296 -0.00038782 -0.00121 0.0012798
-0.010656 -0.0029732 0.15954 0.28235
1520000000 0.28774 0.10848 -0.014692 0.0099178 0.0031226 -0.0040635 0.00019497 0.0025299
0.001715 -0.0016224 -0.0011122 -0.00013602
-0.014686 0.0099018 0.1492 0.32287 0.0012186 0.012949 0.0016071 -0.00080097
0.00011713 -0.00086351 0.00030984 -0.00099021
0.0030987 -0.0040722 0.0012895 0.012956 0.35255 -0.05133 -0.0009222 -0.00035731
0.00052204 -0.0007106 7.2824e-06 -1.7492e-05
0.0002033 0.0025337 0.0015985 -0.00080182 -0.0009273 -0.00035429 0.22151 0.14223
-0.012603 0.0013761 0.00087873 0.0016256
0.001713 -0.0016402 0.00010969 -0.00086391 0.00052612 -0.00071272 -0.012607 0.0014104
0.15467 0.18434 -0.010772 0.00099651
-0.0011128 -0.00013126 0.00029404 -0.00099217 8.341e-06 -2.3161e-05 0.00088851 0.0016141
-0.010772 0.00099823 0.19232 0.26128
1580000000 0.29681 0.061858 -0.0082826 0.013054 -0.00090957 -0.0046662 0.0014161 0.001822
-0.00041423 -0.0019835 -0.00036094 0.00037265
-0.0082874 0.013029 0.17664 0.29795 0.0048899 0.008343 0.00047201 -0.0015591
-0.00035268 -0.0010456 -0.00020692 -0.00085387
-0.00092734 -0.004658 0.0049415 0.0083237 0.33186 -0.10891 -0.0014682 0.0004343
-0.00018282 -0.0011082 0.00011218 -0.00052513
0.0014161 0.0018097 0.00046558 -0.001557 -0.0014623 0.0004295 0.23632 0.10214
-0.010198 0.0054862 0.0017006 0.00071625
-0.00042656 -0.0019871 -0.0003566 -0.001045 -0.0001879 -0.0011159 -0.0102 0.0055166
0.17934 0.16595 -0.0087153 0.0063033
-0.00037065 0.00038139 -0.00020853 -0.00085667 0.00010484 -0.0005302 0.0016924 0.00071702
-0.0087146 0.0062915 0.22381 0.23375
1640000000 0.29831 0.020061 -0.0017841 0.012189 -0.00264 -0.0025089 0.0025787 0.00097419
-0.00071852 -0.0011222 -0.00029846 0.00064254
-0.0017886 0.012179 0.20622 0.27259 0.0056699 0.003686 -0.00067374 -0.0016324
-0.00092477 -0.00050533 -0.00051481 -0.00066455
-0.0026495 -0.0024948 0.0056924 0.0036525 0.3033 -0.15808 -0.00083244 0.0012769
-0.00099296 -0.0009301 -7.6118e-05 -0.00031484
0.002577 0.00096614 -0.0006773 -0.0016382 -0.00083425 0.0012708 0.24904 0.052051
-0.0069443 0.0067002 0.002066 -0.00057928
-0.00073948 -0.0011299 -0.00092824 -0.0004969 -0.00099069 -0.00093214 -0.006921 0.006719
0.2027 0.14066 -0.0046129 0.0083702
-0.00028737 0.00063766 -0.00052193 -0.00065753 -7.9546e-05 -0.00031101 0.0020594 -0.00058793
-0.0046129 0.008378 0.24886 0.20186
1700000000 0.2905 -0.02555 0.001692 0.009675 -0.0034155 0.00013479 0.0028937 -0.0011413
-0.0017959 -0.00050331 0.00060416 0.00046875
0.0016866 0.0096693 0.22435 0.24066 0.0038673 0.00085938 -0.0013387 -0.00059337
-0.00082502 -7.7659e-05 -0.00092837 -0.00043167
-0.0034074 0.00015305 0.0038802 0.00083691 0.25936 -0.1977 0.00039066 0.0015465
-0.0016707 -0.00035851 -0.00058462 -0.0010103
0.0028781 -0.0011549 -0.0013401 -0.00059245 0.00039476 0.0015383 0.24557 0.00073373
-0.0049225 0.0075626 0.0011718 -0.001969
-0.0017964 -0.00048819 -0.00082325 -7.4096e-05 -0.0016632 -0.00035812 -0.0049107 0.0075772
0.22037 0.11919 -0.00039798 0.0088698
0.00061516 0.00046979 -0.00093098 -0.00042103 -0.00058966 -0.0010159 0.0011708 -0.0019797
-0.000392 0.0088683 0.26475 0.16701
1760000000 0.27722 -0.074306 0.0042136 0.006564 -0.0022382 0.00081593 0.0013016 -0.0032989
-0.0010665 0.00054881 0.00038776 -0.00048505
0.0041987 0.006562 0.25002 0.20033 0.0017634 -0.00091423 -0.0010963 0.00012205
-0.0011855 0.00084196 -0.00064045 0.00054641
-0.0022344 0.00083283 0.0017593 -0.00093229 0.21034 -0.23042 0.0011652 0.0012304
-0.0010964 0.0013012 -0.0013351 -0.00047581
0.0012835 -0.0032883 -0.0011056 0.00012349 0.0011665 0.0012346 0.23512 -0.051752
-0.0022345 0.0071633 -0.00044644 -0.002086
-0.0010653 0.0005634 -0.0011742 0.00085301 -0.0011 0.0012962 -0.0022189 0.0071774
0.23523 0.082401 0.0032655 0.0065463
0.00038619 -0.00049014 -0.00063656 0.00054871 -0.001331 -0.00047804 -0.00043354 -0.0020697
0.0032753 0.006551 0.27658 0.12899
1820000000 0.25148 -0.11118 0.0046082 0.0029717 -7.6237e-05 0.002338 -0.00094204 -0.0031197
-0.00087512 0.0005962 6.4332e-06 -0.00012375
0.0046084 0.0029797 0.2595 0.16989 -0.00018959 2.5275e-05 -0.0013538 0.0008396
-0.00017938 0.0013896 -0.00054351 0.00053108
-6.2344e-05 0.002338 -0.00019565 2.6112e-05 0.16022 -0.24594 0.0015067 0.00048165
-0.0004819 0.0021711 -0.0014736 0.0005379
-0.00095434 -0.0031108 -0.0013482 0.00084262 0.0015049 0.00047632 0.2035 -0.099115
-0.00092105 0.0060293 -0.0015259 -0.0011998
-0.00086894 0.00060231 -0.00017125 0.0013915 -0.00047854 0.0021709 -0.0009189 0.0060349
0.25182 0.051305 0.0042431 0.0033143
-1.8801e-06 -0.00011966 -0.00053663 0.00052791 -0.0014847 0.00053263 -0.0015269 -0.0011938
0.0042456 0.0033093 0.27807 0.092479
1880000000 0.21552 -0.15079 0.0026011 0.00060495 -0.00038021 0.0021277 -0.0027947 -0.0022582
-0.00025586 0.0014658 0.00035824 -0.00056419
0.002605 0.00060517 0.26339 0.1232 -0.0021459 0.001667 -0.00020973 0.0016961
0.00065286 0.0013992 0.00020192 0.0010018
-0.00036687 0.0021357 -0.0021431 0.0016813 0.10811 -0.25528 0.0020198 -0.00085946
0.001321 0.0021171 -0.00081028 0.0013526
-0.0028058 -0.0022378 -0.0002037 0.0017081 0.0020282 -0.00084835 0.16133 -0.13842
-0.0004786 0.0046614 -0.0022391 0.00074377
-0.00024912 0.0014633 0.000658 0.0014083 0.0013263 0.0021106 -0.00046164 0.0046758
0.25341 0.016539 0.0040399 0.0014396
0.00035472 -0.0005788 0.00020377 0.0010094 -0.00081234 0.0013581 -0.0022253 0.00073461
0.004042 0.0014292 0.27692 0.058407
1940000000 0.17567 -0.17548 0.00045499 -0.0013453 0.0013787 0.0018723 -0.0037519 0.00055052
0.0011234 0.0011408 -0.00057857 -0.00066679
0.00045215 -0.0013415 0.26334 0.091408 -0.0010698 0.0038224 0.00096494 0.001407
0.0020434 0.00061018 0.00089256 0.00031474
0.0013904 0.0018603 -0.0010413 0.0038357 0.061929 -0.24887 0.00043163 -0.0022618
0.0024338 0.00063765 0.00043913 0.0016802
-0.0037493 0.00057303 0.00097898 0.0014064 0.00044092 -0.0022598 0.10806 -0.1673
-0.0015505 0.003965 -0.0010713 0.0016839
0.0011359 0.0011298 0.0020449 0.00058755 0.0024395 0.00062992 -0.0015377 0.0039792
0.25285 -0.024405 0.0030785 -0.0015902
-0.00059047 -0.00064893 0.00088909 0.00031027 0.0004483 0.0016745 -0.0010328 0.0017015
0.0030801 -0.0015861 0.26501 0.022434
2000000000 0.12942 -0.18884 -0.0035373 0.00058314 0.002436 0.0016438 -0.0022949 0.0036104
0.0010789 0.00044751 -0.0006508 0.0003506
-0.0035371 0.00058328 0.24866 0.056128 -0.00081016 0.005698 0.0017159 0.00036904
0.0015888 -0.0014187 0.00058267 0.00015868
0.0024473 0.0016244 -0.00077171 0.0057069 0.018699 -0.23392 -0.0013026 -0.0013911
0.0022035 -0.0010968 0.0017083 0.0012463
-0.0022663 0.0036311 0.0017224 0.00035358 -0.0012978 -0.0013897 0.054678 -0.17524
-0.0029161 0.0046723 0.0004509 0.0022085
0.0010739 0.0004351 0.0015803 -0.0014305 0.002205 -0.0011087 -0.0029046 0.0046907
0.2438 -0.059321 -8.2128e-07 -0.0021318
