!Keysight Technologies,M9804A,MY58100912,A.14.10.03
!Date: Thursday, April 27, 2023 10:28:33
!Correction: S11(C  6-Port  ) 
!S12(C  6-Port  ) 
!S13(C  6-Port  ) 
!S14(C  6-Port  ) 
!S15(C  6-Port  ) 
!S16(C  6-Port  ) 
!S21(C  6-Port  ) 
!S22(C  6-Port  ) 
!S23(C  6-Port  ) 
!S24(C  6-Port  ) 
!S25(C  6-Port  ) 
!S26(C  6-Port  ) 
!S31(C  6-Port  ) 
!S32(C  6-Port  ) 
!S33(C  6-Port  ) 
!S34(C  6-Port  ) 
!S35(C  6-Port  ) 
!S36(C  6-Port  ) 
!S41(C  6-Port  ) 
!S42(C  6-Port  ) 
!S43(C  6-Port  ) 
!S44(C  6-Port  ) 
!S45(C  6-Port  ) 
!S46(C  6-Port  ) 
!S51(C  6-Port  ) 
!S52(C  6-Port  ) 
!S53(C  6-Port  ) 
!S54(C  6-Port  ) 
!S55(C  6-Port  ) 
!S56(C  6-Port  ) 
!S61(C  6-Port  ) 
!S62(C  6-Port  ) 
!S63(C  6-Port  ) 
!S64(C  6-Port  ) 
!S65(C  6-Port  ) 
!S66(C  6-Port  ) 
!S6P File: Measurement: :
# Hz S  RI   R 50
500000000 -0.33575 -0.03506 -0.0094325 -0.0032721 -0.0077593 0.012017 -0.0031827 0.011314
0.012534 0.0041561 -0.0037387 0.0074957
-0.0094203 -0.0032777 -0.41852 -0.049432 0.007784 -0.011256 0.0018946 0.011754
0.007548 0.0022352 0.0012445 0.013241
-0.0077409 0.012035 0.0077627 -0.011281 -0.2649 0.21103 0.00718 0.0029505
-0.00033191 0.0084762 0.00094109 0.011857
-0.0031856 0.011309 0.0018997 0.01177 0.0071584 0.0029646 -0.32704 0.047186
-0.019838 -0.0041927 0.017934 0.025893
0.012537 0.0041158 0.007559 0.0022259 -0.00033553 0.0084775 -0.019856 -0.0041872
-0.22585 -0.18464 -0.027573 0.0049229
-0.003688 0.0074918 0.001282 0.013226 0.00095149 0.011848 0.017898 0.025897
-0.027571 0.0049138 -0.27206 -0.11367
560000000 -0.31605 0.12491 -0.023509 -0.061972 -0.00022884 0.012251 0.0063898 0.0099231
0.010796 0.0041955 0.010327 0.0082749
-0.023447 -0.061884 -0.37507 0.1091 -0.042199 -0.036514 0.013387 0.0038575
-0.013321 -0.0047583 0.0043914 -0.00026319
-0.0002208 0.012263 -0.042317 -0.036457 -0.18252 0.25884 -0.00076861 -0.0045748
0.019292 0.0039149 0.0065096 -0.0063058
0.0064339 0.0099485 0.013405 0.0038348 -0.0007569 -0.0045972 -0.30208 0.13586
0.0039507 -0.025373 0.0046389 -0.019871
0.010852 0.0041739 -0.013369 -0.0047289 0.019295 0.0039025 0.0039369 -0.025376
-0.28492 -0.010674 0.0081446 -0.05035
0.010337 0.0082786 0.00437 -0.00025471 0.0065228 -0.0063043 0.0046572 -0.019883
0.0081619 -0.05035 -0.33031 0.032415
620000000 -0.27295 0.10956 -0.023026 0.0075426 0.0033321 0.0086595 0.0065436 -0.0054393
0.011441 -0.00023337 -0.00040934 -0.0016785
-0.023015 0.0075462 -0.40239 0.062517 -0.018484 5.9106e-05 -0.001325 -0.0018161
0.010384 -0.0073881 0.0011223 -0.0026599
0.0033494 0.0086622 -0.018503 0.00011066 -0.15256 0.26807 -0.0013584 -0.0050837
-0.003981 -0.0037603 0.0086769 -0.0031665
0.0065456 -0.0054261 -0.0013165 -0.0018134 -0.0013494 -0.0050869 -0.26182 0.14579
-0.038273 -0.018737 0.014321 0.024179
0.011448 -0.00024735 0.010371 -0.007431 -0.0039905 -0.0037702 -0.038278 -0.018702
-0.20407 -0.049251 -0.039742 0.01339
-0.0004383 -0.0016947 0.0010966 -0.0026672 0.0086653 -0.0031718 0.014327 0.024139
-0.039743 0.013382 -0.24903 -0.0042519
680000000 -0.23304 0.19314 -0.02765 -0.013949 0.0050339 0.0049855 0.0011449 -0.0075791
-0.003369 -0.010919 0.004679 -0.0066072
-0.027618 -0.013963 -0.38704 0.15952 -0.032662 -0.0013174 -0.0016631 -0.00018917
-0.0027879 -0.008883 -0.0010222 -0.001971
0.0050354 0.0049661 -0.032683 -0.0012315 -0.10179 0.28735 -0.00086431 0.00010966
-0.0023201 0.00064784 -0.0028443 -0.0094701
0.0011264 -0.0076003 -0.0016539 -0.00019513 -0.00085917 0.00010139 -0.21911 0.19511
-0.023269 -0.0083208 -0.0091799 -0.010645
-0.0033933 -0.010916 -0.0028278 -0.0088817 -0.0023297 0.00064376 -0.023284 -0.0082952
-0.2519 0.047712 -0.0053536 -0.0092879
0.0046744 -0.0066042 -0.0010175 -0.0019678 -0.0028383 -0.0094786 -0.0091618 -0.010652
-0.0053501 -0.0092658 -0.25828 0.097392
740000000 -0.18972 0.1877 -0.038545 0.026216 0.012739 -0.0054021 -0.00093683 -0.0038455
-0.0042542 -0.0026197 -0.0063021 0.0031633
-0.03854 0.026163 -0.3341 0.17787 -0.034671 0.035231 -0.00035881 -0.0062645
-0.012476 0.0072048 -0.0024045 -0.0056123
0.012724 -0.0054298 -0.03459 0.035363 -0.068103 0.28625 -0.0016166 0.0036818
-0.0022749 -0.0043534 -0.0014233 0.00041367
-0.00095087 -0.0038376 -0.00035388 -0.0062786 -0.001628 0.003686 -0.20238 0.20269
-0.042685 -0.008209 0.021868 0.013143
-0.0042806 -0.0025895 -0.01246 0.0072445 -0.0022766 -0.0043526 -0.042722 -0.0081767
-0.15682 0.072063 -0.042008 -2.6249e-05
-0.0063206 0.0031823 -0.0024311 -0.0056024 -0.0014445 0.00042272 0.021871 0.013138
-0.042022 -5.5142e-05 -0.24571 0.10402
800000000 -0.15773 0.22838 -0.022578 0.017221 0.0050305 -0.01028 -0.0049088 -0.0021264
-0.0041323 0.002819 0.0038881 0.0012785
-0.022558 0.017185 -0.33733 0.24846 -0.0077966 0.033935 -0.0021801 0.0021466
-0.00059357 0.0034003 0.001058 0.0053327
0.0050073 -0.010309 -0.0077093 0.033995 -0.026924 0.30913 0.0010275 0.0014514
0.00061982 0.0036635 -0.0019651 0.0010331
-0.0049265 -0.0021218 -0.0021687 0.002161 0.001024 0.001462 -0.1743 0.2302
-0.028237 0.012276 0.012653 -0.010179
-0.0041246 0.0028372 -0.00058368 0.0034167 0.00061972 0.0036619 -0.028237 0.012335
-0.20083 0.095489 -0.017312 0.017161
0.003888 0.0012601 0.0010874 0.0053498 -0.0019584 0.0010245 0.012662 -0.010198
-0.017313 0.017162 -0.23854 0.15486
860000000 -0.12302 0.24939 -0.017215 0.031029 -0.003438 -0.0096986 -0.002703 0.0012416
0.0039797 0.0050235 -0.0028462 -0.0025294
-0.017225 0.031003 -0.28936 0.29036 0.0081538 0.033893 0.00010158 0.0022729
0.0043543 0.00013288 0.0036458 0.00025457
-0.0034591 -0.0096959 0.0082616 0.033898 0.021419 0.31681 -0.00049355 -0.00026655
0.0028881 -0.0015216 0.0016148 0.0045119
-0.0027031 0.0012497 0.00011739 0.0022825 -0.00049469 -0.00026745 -0.13867 0.24191
-0.018167 0.018458 -0.0067115 -0.0086913
0.0040072 0.0050106 0.0043528 0.00011684 0.0028818 -0.0015231 -0.018135 0.018505
-0.15188 0.14418 -0.024047 0.015097
-0.0028707 -0.0025229 0.0036535 0.00027163 0.0016157 0.0045142 -0.0067307 -0.0087209
-0.02405 0.015082 -0.18849 0.19775
920000000 -0.097313 0.27251 0.0052523 0.037779 -0.0092454 -0.0041263 -0.0017841 0.0023209
0.0015924 0.001527 0.002517 -0.0015335
0.0052405 0.037761 -0.2602 0.31099 0.0279 0.021502 0.0016098 0.0010099
0.0066072 -0.00050737 0.0037816 -0.0031494
-0.0092608 -0.0041112 0.02799 0.021448 0.067698 0.31698 0.0018105 -0.00019351
0.001154 -0.00039042 0.00082352 -0.0011308
-0.0017865 0.0023139 0.0016305 0.0010139 0.001813 -0.00019722 -0.11413 0.25852
-0.010644 0.029761 0.002897 -0.0063675
0.001596 0.0015116 0.0066004 -0.00052591 0.0011439 -0.00039731 -0.010581 0.02981
-0.1414 0.15005 -0.0024475 0.026854
0.0025111 -0.0015553 0.003773 -0.0031528 0.00082122 -0.0011423 0.0028981 -0.0063525
-0.0024424 0.026834 -0.1932 0.2111
980000000 -0.049828 0.29207 0.017822 0.029811 -0.0087038 0.0046798 0.0024028 0.0038816
0.0038478 -0.0017385 -0.0030404 -0.0019774
0.017799 0.029809 -0.20728 0.34466 0.032612 0.0045741 0.0020298 1.4801e-06
0.0011072 -0.0062087 -0.00076685 -0.0019525
-0.0086865 0.0047084 0.032646 0.0044717 0.11386 0.31008 0.00045021 -0.0011505
4.3308e-05 -0.0021378 0.0014317 1.1926e-05
0.0024211 0.0038671 0.0020272 1.8413e-07 0.00044675 -0.0011507 -0.076132 0.27004
0.0070798 0.028667 -0.0091666 -0.0065522
0.0038417 -0.0017612 0.0010649 -0.0062113 3.7848e-05 -0.0021353 0.0071428 0.028668
-0.11015 0.17759 0.0046631 0.018449
-0.0030453 -0.0019711 -0.00079039 -0.0019422 0.001428 9.3709e-06 -0.0091805 -0.0065394
0.0046487 0.018445 -0.15059 0.2561
1040000000 -0.0071101 0.30001 0.033118 0.017715 -0.00096599 0.0067378 0.0027675 0.00072704
-8.5195e-05 -0.0037602 -0.0005964 -0.001371
0.033106 0.017728 -0.17169 0.3576 0.028865 -0.014765 0.0014142 -0.0017222
-0.0024693 -0.002293 -0.0013427 -0.0025865
-0.00093264 0.0067429 0.028818 -0.014859 0.15982 0.29605 -0.00045357 -0.0013884
-0.0016009 -0.00072975 -0.00043722 -0.0011532
0.0027702 0.00070853 0.0014303 -0.0017098 -0.00046135 -0.0013973 -0.048434 0.27995
0.017964 0.017132 -0.0028583 0.0021333
-0.00010333 -0.0037753 -0.0024896 -0.0022547 -0.0015988 -0.00072411 0.01801 0.01711
-0.079558 0.18667 0.013082 0.017788
-0.00059934 -0.0013862 -0.0013646 -0.0025728 -0.00043568 -0.0011539 -0.002852 0.0021442
0.013063 0.017772 -0.12883 0.27486
1100000000 0.038885 0.30723 0.035453 -0.0044773 0.0029225 0.003631 0.0026555 -0.0014011
-0.0021562 -0.0028678 -0.0038705 0.0001444
0.035438 -0.0044495 -0.12813 0.37427 0.01478 -0.02738 7.793e-05 -0.001781
-0.0031633 -0.00039888 -0.0032666 -0.00051409
0.0029501 0.0036182 0.014681 -0.027462 0.20589 0.27556 -0.001747 0.00022503
-0.0016282 0.00067156 -0.00089143 -0.00025869
0.0026484 -0.0014083 7.8374e-05 -0.0017803 -0.0017524 0.00022762 -0.0079996 0.2849
0.022314 0.0052593 -0.0022457 0.00094675
-0.00217 -0.0028635 -0.0031816 -0.00037173 -0.0016342 0.0006891 0.02234 0.0052319
-0.060915 0.19977 0.018324 0.0085257
-0.00386 0.000162 -0.0032714 -0.00048716 -0.00089421 -0.00026225 -0.0022539 0.00095639
0.018309 0.0085269 -0.081671 0.30282
1160000000 0.090329 0.30169 0.02348 -0.02068 0.0026126 -0.00054288 -0.00013098 -0.0025737
-0.0039229 -0.00038087 -0.00098275 0.0037146
0.023487 -0.020635 -0.084461 0.37813 -0.0037681 -0.028581 -0.0017479 -0.0016001
-0.002372 0.0025815 -0.0012123 0.0015086
0.0026196 -0.00054328 -0.0039054 -0.028581 0.24866 0.24479 -0.00062321 0.001627
-0.00032458 0.0018163 -0.00095501 1.9404e-05
-0.00013971 -0.0025752 -0.001746 -0.0015842 -0.00062477 0.0016289 0.031219 0.28196
0.019001 -0.0092877 -0.0025055 0.0056929
-0.003922 -0.00037599 -0.0023755 0.0026109 -0.00033152 0.00183 0.019002 -0.0093116
-0.027797 0.20939 0.016947 0.00085823
-0.00096048 0.0037294 -0.0012119 0.0015342 -0.00094889 1.8699e-05 -0.002514 0.0057083
0.016948 0.00085566 -0.034721 0.30512
1220000000 0.13469 0.28982 0.01007 -0.029567 -0.0015665 -0.00084417 -0.00018873 -0.0011759
-0.0025836 0.002539 0.0012369 0.0018071
0.010094 -0.029534 -0.040504 0.38971 -0.016563 -0.020723 -0.0024946 0.00041916
0.00025386 0.0028375 -0.00068163 0.0017419
-0.0015566 -0.00084081 -0.016671 -0.020673 0.2877 0.20582 0.00081641 0.0015676
0.00056271 0.001088 0.00019828 0.00068062
-0.00018393 -0.0011764 -0.0024956 0.00043915 0.00081664 0.0015725 0.070805 0.27363
0.0093386 -0.014919 0.0028536 0.001713
-0.0025637 0.0025517 0.00025676 0.0028408 0.00055667 0.0010773 0.0093209 -0.014931
-0.0040687 0.2188 0.013104 -0.011686
0.001253 0.0018005 -0.00067787 0.0017404 0.00019784 0.00068406 0.0028591 0.0017099
0.0131 -0.011684 -0.003043 0.32069
1280000000 0.18401 0.26712 -0.0078379 -0.027957 -0.001837 0.0024677 -0.0010876 -0.0019973
-0.0006182 0.0029005 0.0024434 0.00099967
-0.0078093 -0.027937 0.0050948 0.38052 -0.023202 -0.008429 -0.00096788 0.0013923
0.0015955 0.001539 0.00046667 0.001907
-0.0018255 0.0024848 -0.023267 -0.0083215 0.31845 0.16203 0.0013525 -0.00020126
0.00095706 6.537e-05 0.00026181 0.0003626
-0.0010948 -0.0019946 -0.00096265 0.0013904 0.001349 -0.00019432 0.10724 0.25772
0.0010526 -0.016715 0.00058627 8.516e-05
-0.00059552 0.002906 0.0015992 0.0015312 0.00096194 6.4629e-05 0.001014 -0.016722
0.032902 0.22286 0.0029015 -0.013807
0.00244 0.00099469 0.00047612 0.0019053 0.00026189 0.00036297 0.00057918 8.5369e-05
0.0029054 -0.013808 0.044142 0.32084
1340000000 0.22072 0.23295 -0.017331 -0.018705 0.00079764 0.0042895 -0.0019161 -0.00071235
0.0014404 0.0025834 0.0015928 -0.001481
-0.017312 -0.018707 0.044278 0.37231 -0.021183 0.003964 -9.3197e-05 0.0019547
0.0016914 0.0006441 0.0012518 0.00087522
0.00081395 0.0042898 -0.021186 0.0040854 0.34067 0.11394 0.00095597 -0.00088278
0.00053375 -0.00034525 0.00012601 0.00025896
-0.0019162 -0.00070525 -7.9173e-05 0.0019503 0.00095689 -0.0008819 0.14025 0.23783
-0.0070291 -0.014162 0.0013754 -0.00010406
0.0014552 0.0025692 0.0016991 0.00062648 0.00053318 -0.00034574 -0.0070557 -0.014155
0.063102 0.21828 -0.0028422 -0.012385
0.0015799 -0.0014948 0.0012648 0.00087412 0.00012786 0.00026018 0.001377 -0.00010715
-0.0028393 -0.012385 0.082222 0.31539
1400000000 0.25328 0.19454 -0.022904 -0.0074813 0.0050422 0.0029848 -0.0019942 0.00075739
0.0024179 0.00070832 0.00018281 -0.0012681
-0.022875 -0.0074827 0.081271 0.35937 -0.014662 0.011969 0.0013054 0.0012589
0.00098148 -0.00074952 0.0011218 0.00025413
0.0050601 0.0029619 -0.014626 0.012058 0.35389 0.06004 8.33e-05 -0.0013808
2.2667e-05 -0.00033447 0.00032421 0.00014359
-0.0019927 0.00076833 0.0013185 0.0012522 8.2006e-05 -0.0013827 0.1701 0.2094
-0.011961 -0.0084573 -0.00063415 -0.00093531
0.0024138 0.0006944 0.00097792 -0.00076169 2.0495e-05 -0.00033695 -0.011978 -0.0084392
0.096394 0.21365 -0.0089374 -0.0080556
0.00018287 -0.0012702 0.0011337 0.00024938 0.00033006 0.00014976 -0.00064141 -0.00095018
-0.0089228 -0.0080636 0.12648 0.30387
1460000000 0.27578 0.15042 -0.020126 0.0043521 0.0053986 -0.0017241 -0.0014848 0.0017995
0.0018589 -0.0005994 -0.00033922 -0.00083213
-0.020106 0.0043278 0.11553 0.3377 -0.006308 0.014932 0.0016936 0.00017389
0.0008804 -0.0010698 0.0011867 -0.00059468
0.0053922 -0.001732 -0.0062392 0.014965 0.35984 0.0051753 -0.0010427 -0.0012176
0.00024609 -7.2125e-05 0.00062997 -0.00037513
-0.0014744 0.0018037 0.0017051 0.00017264 -0.0010366 -0.0012206 0.19741 0.18042
-0.012832 -0.0031947 -0.0012116 0.0012743
0.0018609 -0.00060583 0.00086912 -0.001083 0.00025127 -6.8471e-05 -0.012849 -0.0031735
0.12652 0.19894 -0.010664 -0.0029721
-0.00034909 -0.00082865 0.0011809 -0.00059564 0.00062329 -0.00038761 -0.0012119 0.0012686
-0.010661 -0.0029726 0.15969 0.28228
1520000000 0.28771 0.10853 -0.014688 0.009917 0.003123 -0.0040619 0.0001942 0.0025312
0.001709 -0.001616 -0.0011081 -0.00013304
-0.014682 0.0098928 0.14921 0.32289 0.0012145 0.012945 0.0016052 -0.00080626
0.00011664 -0.00087056 0.00030577 -0.00098795
0.0031008 -0.0040833 0.0012837 0.01295 0.35256 -0.051321 -0.00092784 -0.00035989
0.00052736 -0.00070906 5.177e-06 -2.0843e-05
0.00020312 0.0025311 0.0016013 -0.0008119 -0.00093144 -0.00036364 0.22151 0.14222
-0.012593 0.0013977 0.00087503 0.0016257
0.001696 -0.0016343 0.00010781 -0.00086775 0.00052412 -0.00071455 -0.0126 0.0014241
0.15468 0.18432 -0.010769 0.0010051
-0.0011155 -0.00012602 0.00030037 -0.00099082 6.0091e-06 -2.1644e-05 0.00088571 0.0016181
-0.010769 0.00099999 0.19239 0.2612
1580000000 0.29681 0.061914 -0.0082906 0.013049 -0.00090693 -0.0046671 0.0014139 0.0018177
-0.00041832 -0.0019931 -0.00035874 0.00037509
-0.0083003 0.01304 0.17664 0.29796 0.0048888 0.0083359 0.00047659 -0.0015555
-0.00034776 -0.0010463 -0.00020808 -0.00085278
-0.00092501 -0.0046632 0.0049392 0.008316 0.33186 -0.1089 -0.0014614 0.0004246
-0.00018086 -0.0011139 0.0001114 -0.00051368
0.0014211 0.0018101 0.00046546 -0.0015654 -0.0014688 0.00042661 0.23632 0.10213
-0.010205 0.0054915 0.0017087 0.00071555
-0.00043162 -0.0019903 -0.00035166 -0.0010432 -0.00018532 -0.0011145 -0.010199 0.0055224
0.17934 0.16594 -0.00871 0.0063052
-0.00035914 0.00038195 -0.00021143 -0.0008535 0.00010601 -0.00052628 0.0017025 0.00071579
-0.0087217 0.0063055 0.22385 0.23371
1640000000 0.29834 0.020087 -0.0017818 0.012186 -0.0026402 -0.0025115 0.0025705 0.00096963
-0.00071296 -0.001123 -0.00029549 0.00064301
-0.0017919 0.012184 0.20621 0.27261 0.0056615 0.0036701 -0.00066791 -0.001634
-0.00092635 -0.00050311 -0.00051857 -0.00065994
-0.0026546 -0.0025014 0.0056917 0.0036425 0.3033 -0.15807 -0.00083822 0.0012708
-0.00098789 -0.00092314 -7.6372e-05 -0.00031542
0.002583 0.0009619 -0.00067936 -0.0016294 -0.00083976 0.0012782 0.24904 0.052046
-0.0069345 0.0067042 0.0020764 -0.00057255
-0.00072551 -0.0011165 -0.00093224 -0.00049967 -0.00099073 -0.00092402 -0.0069166 0.0067234
0.20272 0.14063 -0.004602 0.0083715
-0.0002891 0.00064389 -0.0005224 -0.00065755 -7.8537e-05 -0.00031533 0.0020708 -0.00058042
-0.0046077 0.0083644 0.24893 0.2018
1700000000 0.29055 -0.025526 0.0017014 0.00967 -0.0034171 0.00013975 0.0028858 -0.0011418
-0.0017961 -0.00050546 0.0006021 0.00046994
0.0016853 0.0096688 0.22435 0.24067 0.0038642 0.00085014 -0.0013362 -0.00058388
-0.00082035 -7.851e-05 -0.00092365 -0.00043702
-0.0034205 0.00016014 0.0038766 0.00082923 0.2594 -0.19771 0.00039234 0.0015268
-0.0016658 -0.00035618 -0.00059129 -0.0010067
0.0028775 -0.0011538 -0.0013415 -0.00057962 0.00039121 0.0015313 0.24558 0.00071697
-0.0049082 0.0075515 0.0011648 -0.0019697
-0.0018012 -0.00048423 -0.00082057 -7.2187e-05 -0.0016656 -0.00035836 -0.0049009 0.0075674
0.22038 0.11916 -0.00038418 0.0088767
0.00061091 0.00046689 -0.00093078 -0.00042481 -0.000592 -0.0010134 0.0011629 -0.0019678
-0.00038576 0.0088772 0.26478 0.16695
1760000000 0.27729 -0.074305 0.0042117 0.0065565 -0.0022482 0.00082387 0.0013055 -0.0032924
-0.0010661 0.00055331 0.00038291 -0.00048508
0.0042053 0.006561 0.25001 0.20035 0.0017628 -0.00091831 -0.0010973 0.00012022
-0.0011795 0.00084787 -0.00063755 0.00054465
-0.0022368 0.00084304 0.0017573 -0.00093187 0.21034 -0.23042 0.0011657 0.0012288
-0.0010994 0.0012883 -0.0013292 -0.00046416
0.0012832 -0.0032952 -0.0010977 0.00013313 0.0011657 0.0012269 0.23514 -0.051773
-0.0022195 0.0071622 -0.00043436 -0.0020744
-0.0010697 0.000555 -0.0011824 0.0008611 -0.0010996 0.0013036 -0.0022057 0.0071665
0.23524 0.082377 0.0032613 0.0065463
0.00037895 -0.00048961 -0.00063302 0.0005527 -0.0013352 -0.00046987 -0.00043592 -0.0020688
0.0032699 0.0065409 0.27663 0.12894
1820000000 0.25152 -0.11125 0.0046208 0.00297 -7.3701e-05 0.0023394 -0.00094692 -0.0031129
-0.00088947 0.00059311 7.9901e-06 -0.00012517
0.0046057 0.0029657 0.2595 0.16989 -0.00019003 2.4733e-05 -0.0013481 0.00083764
-0.00017564 0.0013861 -0.0005531 0.0005254
-6.2305e-05 0.0023397 -0.0001975 1.6456e-05 0.16024 -0.24594 0.0014921 0.00046843
-0.00049126 0.0021686 -0.0014794 0.00053974
-0.00096201 -0.0031045 -0.0013486 0.00084441 0.0015042 0.000474 0.20347 -0.099145
-0.00093929 0.0060269 -0.0015264 -0.0012058
-0.00088224 0.00060396 -0.00016711 0.0013963 -0.00047776 0.0021681 -0.00091859 0.0060321
0.25185 0.051267 0.0042538 0.0032972
3.3391e-06 -0.00011894 -0.00054133 0.00053571 -0.0014791 0.00054303 -0.0015331 -0.0011979
0.0042547 0.0033031 0.27807 0.09243
1880000000 0.21553 -0.15085 0.0025905 0.00059398 -0.00037997 0.0021286 -0.002803 -0.0022698
-0.00025445 0.0014571 0.00035194 -0.00056695
0.0025848 0.00059555 0.26338 0.12322 -0.0021498 0.0016666 -0.00021277 0.0017058
0.00064659 0.0014094 0.0001964 0.0010011
-0.00037417 0.0021281 -0.0021416 0.0016754 0.10811 -0.25529 0.0020256 -0.00085855
0.0013251 0.0021234 -0.00080395 0.0013482
-0.002812 -0.0022469 -0.00019909 0.0017049 0.0020328 -0.00084545 0.16132 -0.13843
-0.00048842 0.0046507 -0.0022422 0.00075761
-0.00024666 0.0014516 0.00066725 0.0014045 0.0013207 0.0021224 -0.00047834 0.0046544
0.2534 0.016514 0.0040257 0.0014448
0.00034589 -0.00057446 0.00020706 0.0010014 -0.00081169 0.0013546 -0.0022446 0.00074786
0.0040269 0.0014482 0.27695 0.058321
1940000000 0.17563 -0.17555 0.00043741 -0.0013462 0.0013866 0.0018771 -0.0037373 0.00055068
0.0011292 0.0011358 -0.00057987 -0.00065656
0.00044073 -0.0013475 0.26334 0.091419 -0.0010709 0.0038212 0.0009583 0.0014004
0.0020376 0.00060118 0.0008917 0.00031417
0.001396 0.001869 -0.0010492 0.0038318 0.061946 -0.24887 0.00042494 -0.0022562
0.0024204 0.00064069 0.00043078 0.001676
-0.0037353 0.00057201 0.00096669 0.0013992 0.00043497 -0.002263 0.10807 -0.16731
-0.0015533 0.0039723 -0.0010891 0.0016672
0.0011466 0.0011297 0.0020477 0.00058767 0.0024302 0.00063064 -0.0015375 0.0039684
0.25286 -0.024456 0.0030556 -0.0016071
-0.00058829 -0.00064605 0.00089353 0.00030893 0.00043792 0.001674 -0.001055 0.0016738
0.0030633 -0.0015993 0.26504 0.022351
2000000000 0.12939 -0.18891 -0.0035477 0.00058886 0.0024463 0.0016488 -0.0023089 0.0036166
0.0010768 0.00046071 -0.0006492 0.00034711
-0.0035483 0.00059047 0.24866 0.056135 -0.00081067 0.0056999 0.0017179 0.00036297
0.0015915 -0.0014248 0.00058298 0.00016528
0.0024625 0.0016358 -0.0007723 0.0057106 0.018712 -0.23394 -0.0012889 -0.0013928
0.0022108 -0.0011166 0.0017041 0.0012337
-0.0022911 0.0036393 0.0017238 0.00034946 -0.0012899 -0.0013951 0.054647 -0.17525
-0.0029356 0.0046702 0.00045705 0.0022189
0.0010717 0.00044735 0.0015758 -0.0014368 0.0022161 -0.0011155 -0.0029175 0.0046837
