!Keysight Technologies,M9804A,MY58100912,A.14.10.03
!Date: Thursday, April 27, 2023 10:28:33
!Correction: S11(C  6-Port  ) 
!S12(C  6-Port  ) 
!S13(C  6-Port  ) 
!S14(C  6-Port  ) 
!S15(C  6-Port  ) 
!S16(C  6-Port  ) 
!S21(C  6-Port  ) 
!S22(C  6-Port  ) 
!S23(C  6-Port  ) 
!S24(C  6-Port  ) 
!S25(C  6-Port  ) 
!S26(C  6-Port  ) 
!S31(C  6-Port  ) 
!S32(C  6-Port  ) 
!S33(C  6-Port  ) 
!S34(C  6-Port  ) 
!S35(C  6-Port  ) 
!S36(C  6-Port  ) 
!S41(C  6-Port  ) 
!S42(C  6-Port  ) 
!S43(C  6-Port  ) 
!S44(C  6-Port  ) 
!S45(C  6-Port  ) 
!S46(C  6-Port  ) 
!S51(C  6-Port  ) 
!S52(C  6-Port  ) 
!S53(C  6-Port  ) 
!S54(C  6-Port  ) 
!S55(C  6-Port  ) 
!S56(C  6-Port  ) 
!S61(C  6-Port  ) 
!S62(C  6-Port  ) 
!S63(C  6-Port  ) 
!S64(C  6-Port  ) 
!S65(C  6-Port  ) 
!S66(C  6-Port  ) 
!S6P File: Measurement: :
# Hz S  RI   R 50
500000000 -0.33647 -0.035966 -0.0099411 -0.0036846 -0.0083651 0.01212 -0.0030023 0.011738
0.011975 0.0050157 -0.003179 0.007614
-0.0098772 -0.0037159 -0.41888 -0.050034 0.0077146 -0.011369 0.0022403 0.011798
0.0076322 0.0025802 0.0015888 0.013105
-0.0083307 0.012107 0.0076993 -0.011386 -0.26469 0.21078 0.0071871 0.0030199
-0.00045094 0.0085705 0.001028 0.012065
-0.0017648 0.011629 0.0027041 0.011649 0.0074386 0.0030459 -0.32647 0.046607
-0.020048 -0.0047729 0.018317 0.02569
0.011743 0.0041716 0.0071518 0.002366 -0.00057346 0.008687 -0.019798 -0.004451
-0.22509 -0.18506 -0.027625 0.0047892
-0.0025958 0.0076077 0.001882 0.013215 0.001264 0.012221 0.018424 0.02487
-0.027522 0.0042984 -0.2713 -0.11429
560000000 -0.31593 0.124 -0.02337 -0.061513 -0.00033265 0.011856 0.0076422 0.010134
0.010206 0.0039127 0.0097119 0.0078913
-0.023393 -0.061437 -0.37477 0.10922 -0.042263 -0.036564 0.013498 0.0038589
-0.013731 -0.0045865 0.0037927 -0.00046768
-0.00027492 0.011877 -0.042403 -0.036492 -0.18248 0.25861 -0.00046407 -0.0047924
0.018903 0.0040794 0.0064888 -0.0061927
0.0061486 0.0097801 0.013257 0.0036142 -0.00061336 -0.0042674 -0.30298 0.13541
0.0040748 -0.024636 0.0050139 -0.019866
0.010145 0.0035944 -0.014492 -0.0036311 0.019486 0.0040456 0.0029335 -0.02515
-0.28439 -0.010594 0.0084568 -0.050479
0.010208 0.0080755 0.0049595 -0.00057707 0.0065682 -0.0061655 0.0048973 -0.019519
0.0080874 -0.050334 -0.33075 0.031386
620000000 -0.27294 0.10856 -0.022915 0.0074732 0.0036812 0.008206 0.0064226 -0.0049527
0.011492 -0.00066635 -0.00020691 -0.0021588
-0.022908 0.0074703 -0.40234 0.062404 -0.018391 -8.2165e-05 -0.0013412 -0.0019457
0.010418 -0.007247 0.00083605 -0.0027767
0.0037134 0.0081923 -0.018413 -1.9054e-05 -0.1525 0.26759 -0.0014432 -0.0052139
-0.0043346 -0.0034724 0.0085439 -0.0035215
0.0072778 -0.0056323 -0.0014284 -0.0020025 -0.0014608 -0.005528 -0.26158 0.14586
-0.039354 -0.018533 0.014169 0.024125
0.011233 -0.00047606 0.010244 -0.0073675 -0.0041633 -0.0035699 -0.038656 -0.018932
-0.20345 -0.04931 -0.039573 0.014241
0.00066581 -0.0019084 0.00085228 -0.0027012 0.0085441 -0.0034871 0.014854 0.024541
-0.040337 0.013834 -0.2493 -0.0048294
680000000 -0.23303 0.19354 -0.027955 -0.013961 0.0048797 0.005254 0.0013694 -0.0079078
-0.0031194 -0.011326 0.0047054 -0.0061506
-0.027951 -0.013958 -0.38707 0.15944 -0.032613 -0.0012118 -0.0016271 -0.00047775
-0.0029783 -0.0090089 -0.00094791 -0.0018151
0.0049205 0.0052205 -0.032646 -0.0011205 -0.10172 0.28735 -0.00093317 -0.00011078
-0.0026063 0.00051028 -0.0025642 -0.0091007
0.00054698 -0.0079319 -0.0017445 -6.6613e-05 -0.00088441 9.4434e-05 -0.21931 0.19591
-0.023242 -0.0085514 -0.0089312 -0.010603
-0.0039676 -0.010558 -0.0029841 -0.008688 -0.0024869 0.00083838 -0.023017 -0.0083177
-0.25237 0.047631 -0.005655 -0.0092406
0.0038529 -0.0052311 -0.0011445 -0.0017688 -0.0027869 -0.0092369 -0.0085202 -0.011054
-0.0059427 -0.0096555 -0.25821 0.097664
740000000 -0.18963 0.18807 -0.038328 0.026228 0.012792 -0.0049383 -0.001023 -0.0038794
-0.0041216 -0.0025211 -0.0066805 0.0029657
-0.038315 0.026212 -0.3343 0.17806 -0.034891 0.035197 -0.00035124 -0.0061585
-0.012601 0.0074372 -0.0023111 -0.005869
0.012801 -0.0049383 -0.034803 0.03532 -0.067959 0.28611 -0.0015537 0.0036077
-0.0023152 -0.0046738 -0.0015208 0.00036808
-0.00034728 -0.0038144 -0.00067346 -0.005829 -0.0015681 0.003392 -0.20268 0.20292
-0.042592 -0.0080802 0.02207 0.01317
-0.0045304 -0.0033023 -0.011962 0.0071597 -0.0023018 -0.0040061 -0.042613 -0.0080145
-0.15677 0.072589 -0.042167 -0.0006124
-0.0063762 0.0033023 -0.0028274 -0.0052689 -0.0014412 6.5881e-05 0.021859 0.013464
-0.041706 -0.00044989 -0.2457 0.1039
800000000 -0.1574 0.22839 -0.022609 0.017073 0.0048872 -0.010365 -0.0049203 -0.0021888
-0.003982 0.0025536 0.0040389 0.0009272
-0.022581 0.017062 -0.33738 0.24825 -0.0078716 0.033929 -0.002278 0.002125
-0.00055508 0.0032908 0.0010842 0.005303
0.0048772 -0.010398 -0.0077743 0.033989 -0.027034 0.30902 0.001014 0.0013634
0.00060129 0.0037021 -0.0018646 0.00095427
-0.0053445 -0.0022498 -0.0022684 0.0021584 0.0009837 0.0014253 -0.17437 0.23007
-0.028071 0.012305 0.012689 -0.0099941
-0.0042304 0.0028286 -0.00076588 0.0032519 0.00050364 0.0036795 -0.028171 0.012282
-0.20098 0.095195 -0.017174 0.017151
0.0033922 0.00083024 0.00077606 0.0053546 -0.002015 0.0010533 0.012489 -0.010298
-0.017121 0.017219 -0.23878 0.15465
860000000 -0.12313 0.24902 -0.017206 0.030904 -0.0034568 -0.0096722 -0.0026789 0.0011387
0.0040257 0.0049754 -0.0029583 -0.0022963
-0.017214 0.030875 -0.28935 0.29032 0.0081165 0.033948 0.00038129 0.0021135
0.0043298 8.8263e-05 0.0034568 0.00028544
-0.0034816 -0.009655 0.0082344 0.033968 0.021327 0.31677 -0.00047253 -0.00023358
0.0029326 -0.00153 0.001544 0.0044614
-0.0024747 0.0014782 0.0002559 0.0022053 -0.00045239 -0.00035732 -0.13857 0.24196
-0.018176 0.018563 -0.0066305 -0.0089954
0.0044238 0.0048161 0.0044154 -0.00011184 0.0028602 -0.0015006 -0.018181 0.01854
-0.15159 0.14458 -0.024357 0.015415
-0.0028473 -0.0027807 0.003187 0.00040354 0.001465 0.0043328 -0.0065087 -0.0089423
-0.024097 0.015301 -0.18867 0.19643
920000000 -0.09745 0.27222 0.0052853 0.037728 -0.009292 -0.004219 -0.0018094 0.0022424
0.0014624 0.0016505 0.0023375 -0.0013936
0.0052564 0.037707 -0.26037 0.31098 0.027897 0.021552 0.0015934 0.0010266
0.0067759 -0.00043159 0.0038107 -0.0029634
-0.0093041 -0.0041973 0.02799 0.021493 0.067629 0.31694 0.0017656 -0.00021954
0.0010667 -0.00044915 0.00082776 -0.0010614
-0.0017631 0.0023068 0.0016099 0.0010716 0.0017771 -0.00018229 -0.11421 0.25861
-0.010601 0.0298 0.0028759 -0.0062742
0.001289 0.0015593 0.0067063 -0.00047449 0.0010775 -0.00043395 -0.010388 0.029948
-0.14176 0.14998 -0.0024481 0.026966
0.0025003 -0.0015902 0.0037685 -0.0031881 0.0008191 -0.0010914 0.0027098 -0.0064867
-0.0023984 0.027045 -0.1934 0.21102
980000000 -0.050108 0.29185 0.017836 0.029789 -0.0086701 0.0047793 0.0023905 0.0038441
0.0039043 -0.0018281 -0.0029466 -0.0019925
0.017796 0.029793 -0.20735 0.34464 0.032626 0.0046022 0.0019408 8.7351e-05
0.0011037 -0.0061701 -0.00078336 -0.0020726
-0.0086682 0.004812 0.03268 0.0045041 0.1138 0.31008 0.00041025 -0.0011844
7.8281e-05 -0.0021077 0.0013814 7.2184e-06
0.0023115 0.0037801 0.0019167 -2.3086e-05 0.00046491 -0.001194 -0.076268 0.27008
0.0070684 0.028752 -0.0091956 -0.0065218
0.004119 -0.001928 0.0010806 -0.0063716 6.866e-05 -0.0021199 0.0070323 0.028743
-0.10981 0.17732 0.004804 0.018616
-0.002995 -0.0017968 -0.00086278 -0.0018603 0.0013469 -5.3462e-05 -0.0092041 -0.0065214
0.0046827 0.01872 -0.15084 0.25582
1040000000 -0.0072611 0.30006 0.033196 0.017746 -0.0009795 0.0067646 0.0028305 0.00079474
0.00014328 -0.0035885 -0.00056296 -0.0014601
0.033159 0.017756 -0.17177 0.3576 0.028893 -0.014709 0.001407 -0.0015888
-0.0024074 -0.0021983 -0.0013028 -0.0025841
-0.00094801 0.0067485 0.028858 -0.014811 0.15977 0.29606 -0.00049163 -0.0013872
-0.0015694 -0.00074254 -0.00041891 -0.0011056
0.0028878 0.00065974 0.0015317 -0.0016806 -0.00049368 -0.0014031 -0.048459 0.27992
0.017966 0.017321 -0.0028383 0.0020972
-0.00036674 -0.003795 -0.0023418 -0.0024401 -0.0016325 -0.00077633 0.018079 0.017097
-0.079277 0.18658 0.013305 0.017875
-0.00047428 -0.001727 -0.0012988 -0.0026486 -0.00047088 -0.001083 -0.0028742 0.002024
0.013148 0.018215 -0.12902 0.27479
1100000000 0.038865 0.30734 0.035553 -0.0044789 0.0029721 0.0036434 0.0026594 -0.0014044
-0.0022452 -0.0029171 -0.0038252 2.1067e-05
0.035534 -0.004456 -0.12813 0.37427 0.014809 -0.027355 0.00010584 -0.0018331
-0.0032074 -0.0003975 -0.0032712 -0.00055544
0.002995 0.0036417 0.014714 -0.027441 0.2058 0.27555 -0.0017697 0.0002225
-0.0016483 0.00059673 -0.00088848 -0.00022931
0.0026534 -0.001402 8.6237e-05 -0.0018279 -0.0017178 0.00026606 -0.0081072 0.2849
0.022332 0.00518 -0.0022009 0.00081086
-0.0021572 -0.003011 -0.0031652 -0.00038373 -0.0017045 0.00061965 0.022338 0.0051303
-0.060743 0.19961 0.018243 0.0086242
-0.0037972 0.00010469 -0.003385 -0.00051185 -0.00081686 -0.00029303 -0.0023208 0.0009525
0.018214 0.0086573 -0.082067 0.30244
1160000000 0.090186 0.30168 0.023556 -0.020585 0.0026306 -0.00061865 -5.7535e-05 -0.0026356
-0.0039106 -0.00040224 -0.00097603 0.0037174
0.023554 -0.020547 -0.084448 0.37817 -0.003722 -0.028603 -0.001727 -0.0015949
-0.0023654 0.0025993 -0.0012007 0.0016161
0.0026431 -0.00063304 -0.0038582 -0.028611 0.2486 0.24478 -0.00062404 0.0016524
-0.000345 0.0018447 -0.00091462 8.2073e-05
-7.9727e-05 -0.0024686 -0.0016809 -0.0015449 -0.00061775 0.0015977 0.031137 0.28186
0.019109 -0.009367 -0.0025721 0.0056986
-0.00401 -0.0004826 -0.0024329 0.0026925 -0.00032667 0.001912 0.019182 -0.0094267
-0.027642 0.20935 0.016925 0.00074067
-0.0007257 0.0035309 -0.0011375 0.0014682 -0.0010033 4.6949e-05 -0.0026374 0.0056358
0.016823 0.00070027 -0.035052 0.30504
1220000000 0.1347 0.28998 0.010136 -0.029655 -0.0015721 -0.00088531 -0.00020446 -0.0011167
-0.0026369 0.0025092 0.0012635 0.0017816
0.010147 -0.029619 -0.040539 0.38968 -0.016543 -0.020768 -0.0024107 0.00043741
0.00019801 0.002809 -0.00070245 0.001742
-0.0015764 -0.00087917 -0.016665 -0.02072 0.28761 0.20588 0.00081764 0.0015602
0.00056436 0.0010902 0.00020227 0.00068328
-0.0002261 -0.0011761 -0.0024543 0.000406 0.00079591 0.0015696 0.070655 0.27357
0.0093361 -0.014943 0.0028524 0.0017307
-0.0025875 0.0025694 0.0002042 0.0028286 0.00054126 0.0010604 0.0092606 -0.014991
-0.004279 0.21837 0.013208 -0.011669
0.0011393 0.0018498 -0.00067712 0.0017479 0.0002504 0.00069739 0.0027788 0.0017842
0.013288 -0.011683 -0.0033116 0.32046
1280000000 0.18407 0.2672 -0.0077754 -0.027973 -0.0018261 0.002445 -0.0010894 -0.0019613
-0.00051714 0.0029741 0.0024678 0.0010768
-0.0077519 -0.027948 0.0050747 0.38051 -0.023181 -0.008433 -0.001015 0.0014307
0.0016488 0.0015269 0.00049221 0.0018953
-0.0018243 0.0024401 -0.023249 -0.0083226 0.31839 0.16206 0.0013555 -0.00018846
0.00096659 6.5043e-05 0.00027053 0.00031317
-0.0011541 -0.001949 -0.0009869 0.0014359 0.0013508 -0.0001686 0.10717 0.25764
0.00091827 -0.016704 0.00053542 0.00013115
-0.00053382 0.0028832 0.0016134 0.0014949 0.0010017 1.5257e-05 0.00091014 -0.016643
0.032546 0.22247 0.0028569 -0.013781
0.002506 0.0010365 0.00052048 0.0019054 0.00023298 0.00027274 0.00048511 -1.6821e-05
0.0028893 -0.013694 0.043873 0.32091
1340000000 0.22088 0.23301 -0.017397 -0.018722 0.00079699 0.0043211 -0.0019074 -0.00072209
0.0014151 0.0025274 0.0016167 -0.001494
-0.017374 -0.018728 0.044268 0.3723 -0.021182 0.0039203 -5.717e-05 0.0019207
0.0016673 0.00064767 0.0012488 0.00088414
0.00081106 0.0043191 -0.021191 0.004027 0.34064 0.11403 0.0009271 -0.00083556
0.00057864 -0.00036365 9.4515e-05 0.00024989
-0.0019049 -0.00073397 -5.2767e-05 0.0019382 0.00093146 -0.00089349 0.1401 0.23785
-0.0071107 -0.014108 0.0013863 -0.00013103
0.001466 0.0026018 0.0017388 0.00059207 0.00061319 -0.00038322 -0.0071421 -0.014082
0.062773 0.21795 -0.002938 -0.012461
0.0015927 -0.0014811 0.0012192 0.00079881 8.3626e-05 0.00027506 0.0014245 -7.2446e-05
-0.0028779 -0.012392 0.081993 0.31543
1400000000 0.25336 0.19446 -0.022942 -0.0075051 0.0049955 0.0030031 -0.0020127 0.00075924
0.0024418 0.00073775 0.00020154 -0.0012891
-0.022905 -0.0075224 0.081279 0.35929 -0.014678 0.011958 0.0013206 0.0013023
0.00095283 -0.00075243 0.0011471 0.00022789
0.0050049 0.0029729 -0.014646 0.012046 0.35389 0.060076 4.2196e-05 -0.0013714
-1.0516e-05 -0.00033865 0.00031313 0.00012938
-0.002011 0.00076209 0.001334 0.0012894 2.9691e-05 -0.0013353 0.17005 0.20948
-0.01203 -0.0084292 -0.00058802 -0.00089539
0.002478 0.0006397 0.00091229 -0.00075863 2.7731e-05 -0.00036036 -0.012088 -0.0083971
0.095958 0.21362 -0.0089097 -0.0080678
0.00015583 -0.0013392 0.001146 0.00023517 0.00036345 0.0001968 -0.00062606 -0.00095696
-0.0089637 -0.0080872 0.12624 0.30398
1460000000 0.27585 0.15029 -0.020193 0.004395 0.0054086 -0.0016991 -0.0015026 0.0017766
0.0018782 -0.00062955 -0.00033459 -0.00087953
-0.020176 0.0043718 0.11553 0.33768 -0.0063329 0.01491 0.0016709 0.00019957
0.00085487 -0.0011047 0.0012365 -0.00052038
0.0053916 -0.0017243 -0.0062699 0.014956 0.35985 0.0051817 -0.0010549 -0.0012027
0.00023235 -4.634e-05 0.0006884 -0.00033743
-0.0014848 0.0017756 0.0017082 0.00017529 -0.0010491 -0.0011809 0.19721 0.18056
-0.012871 -0.0031031 -0.0011341 0.0012958
0.001844 -0.00064096 0.00082449 -0.0011185 0.00017281 -6.0878e-05 -0.012913 -0.0030138
0.12595 0.19904 -0.01068 -0.0029646
-0.00035437 -0.00085957 0.0011981 -0.00060693 0.00065496 -0.00042416 -0.0011367 0.0013359
-0.010583 -0.0030302 0.1594 0.28229
1520000000 0.28768 0.10837 -0.014712 0.0099475 0.003095 -0.0040189 0.00016468 0.0025755
0.0017176 -0.0016157 -0.0011413 -0.00016723
-0.014707 0.00994 0.14915 0.32286 0.0012379 0.01299 0.0016205 -0.00082683
0.00013713 -0.0008817 0.00031338 -0.00098164
0.0030727 -0.0040414 0.0013121 0.013007 0.35261 -0.051327 -0.00094023 -0.00034569
0.00051996 -0.00076209 -6.505e-06 -7.0112e-06
0.00018353 0.0025659 0.0016142 -0.00080174 -0.00098186 -0.00034892 0.22149 0.14235
-0.012573 0.0014999 0.00087285 0.0016927
0.0017471 -0.0016572 9.3127e-05 -0.00087423 0.00051067 -0.0007753 -0.012611 0.0014595
0.15433 0.18458 -0.010797 0.0010274
-0.0011434 -0.00010988 0.00031975 -0.00098244 2.9002e-05 -3.8278e-05 0.00086371 0.0016432
-0.010729 0.0010207 0.19233 0.2612
1580000000 0.29666 0.061761 -0.0083286 0.013057 -0.00090505 -0.004675 0.0014541 0.0018219
-0.00045854 -0.0019798 -0.00036534 0.00035848
-0.0083329 0.013055 0.17656 0.298 0.0048825 0.0083922 0.00045954 -0.0015426
-0.00035533 -0.0010088 -0.00016952 -0.0008686
-0.00092666 -0.0046675 0.0049403 0.00838 0.33184 -0.10883 -0.0014979 0.00043392
-0.0001819 -0.0011035 0.00018288 -0.000531
0.0014724 0.0018533 0.00045919 -0.001564 -0.0014441 0.00044046 0.23639 0.10226
-0.010116 0.0055432 0.0017739 0.00066472
-0.00042071 -0.0019772 -0.00030614 -0.001021 -0.0001942 -0.0011296 -0.010144 0.0056584
0.17904 0.1662 -0.0087451 0.0062832
-0.00037699 0.00035818 -0.00019676 -0.00083906 0.00011798 -0.00061217 0.001712 0.00063958
-0.0087154 0.006313 0.22368 0.23379
1640000000 0.29808 0.020072 -0.0017665 0.012226 -0.0026528 -0.0025147 0.0025275 0.0010039
-0.00072306 -0.0011359 -0.00031525 0.00070684
-0.0017778 0.012224 0.20616 0.27266 0.0056695 0.003725 -0.00064393 -0.0016416
-0.00090791 -0.00050918 -0.00050416 -0.00065524
-0.0026533 -0.0025094 0.0056987 0.0036908 0.30333 -0.15804 -0.00081937 0.0012572
-0.00095734 -0.00091602 -7.5067e-05 -0.00033327
0.0025696 0.00095623 -0.00068592 -0.001623 -0.00081994 0.0012654 0.24917 0.052069
-0.0068103 0.006696 0.0021376 -0.00062068
-0.00072331 -0.0011311 -0.00094866 -0.00052252 -0.00097327 -0.00085687 -0.0067469 0.0067365
0.2026 0.14099 -0.0046385 0.0083373
-0.00028753 0.00062615 -0.00049244 -0.00067313 -7.4598e-05 -0.00032068 0.0021348 -0.00060748
-0.0045966 0.0084117 0.24872 0.20195
1700000000 0.29021 -0.025387 0.0017057 0.0097092 -0.0033706 0.00010072 0.0029229 -0.0011966
-0.001795 -0.00048639 0.0006511 0.00050723
0.0017008 0.0097073 0.22429 0.24073 0.0038451 0.00085871 -0.0013671 -0.00057304
-0.00079765 -7.451e-05 -0.00096897 -0.0004428
-0.0033782 0.00011916 0.0038608 0.00083663 0.25929 -0.19772 0.00033368 0.0016123
-0.0016624 -0.00032895 -0.00059314 -0.00097087
0.00294 -0.0011543 -0.0013431 -0.00056548 0.00034367 0.0016197 0.2457 0.0007971
-0.0047676 0.0074275 0.0012374 -0.0019507
-0.0017659 -0.00044791 -0.0007787 -5.6358e-05 -0.0016544 -0.00033102 -0.0048045 0.0075109
0.22045 0.11937 -0.00035354 0.0088353
0.00062372 0.00045252 -0.00095694 -0.00042252 -0.00056466 -0.00094692 0.0011463 -0.0020362
-0.0004302 0.0088296 0.26445 0.16719
1760000000 0.27702 -0.074078 0.0042399 0.0065801 -0.0022191 0.00082594 0.0013166 -0.0032144
-0.0010623 0.00056853 0.00040084 -0.00042941
0.004226 0.0065815 0.25001 0.20042 0.0017902 -0.00091558 -0.0010909 9.6734e-05
-0.0011717 0.00084236 -0.00061476 0.00054023
-0.0022115 0.00084167 0.0017918 -0.0009376 0.2103 -0.23039 0.001093 0.0012229
-0.0011754 0.0013071 -0.0012971 -0.00050539
0.001312 -0.0032947 -0.0011242 0.00017091 0.001147 0.001284 0.23516 -0.051868
-0.0021762 0.0071484 -0.00039163 -0.002155
-0.0010574 0.00059959 -0.0011637 0.00085079 -0.0011267 0.0013188 -0.0021321 0.0071457
0.2354 0.082717 0.0033394 0.0065134
0.00038784 -0.00051196 -0.00060587 0.00056877 -0.0012793 -0.00052382 -0.00039057 -0.0020937
0.0033044 0.0065425 0.27632 0.12907
1820000000 0.25154 -0.1109 0.0046503 0.0029635 -6.9855e-05 0.0023822 -0.0008376 -0.003124
-0.00084827 0.00064696 -4.6775e-06 -0.00015076
0.0046527 0.0029706 0.25951 0.16998 -0.00018392 3.4905e-05 -0.0013929 0.00087952
-0.00016831 0.0013816 -0.00055254 0.00055956
-5.9767e-05 0.0023848 -0.00018649 3.9304e-05 0.16015 -0.24592 0.001596 0.00043574
-0.00038226 0.0021336 -0.0014649 0.00059378
-0.00090319 -0.003059 -0.0013887 0.0008865 0.001553 0.00044301 0.20363 -0.099029
-0.00085521 0.005956 -0.0016269 -0.0011624
-0.00077514 0.00060716 -0.00018339 0.0013711 -0.00048876 0.0021502 -0.00090554 0.0059175
0.25208 0.051428 0.0042149 0.0033326
1.7668e-05 -0.0001777 -0.00052136 0.0005348 -0.0014765 0.00053623 -0.0016178 -0.0012395
0.0041959 0.0033528 0.27794 0.092794
1880000000 0.21566 -0.15046 0.0027041 0.0005883 -0.00035073 0.0021669 -0.0028379 -0.0021514
-0.00027846 0.0014238 0.00035879 -0.00055042
0.0026968 0.00059783 0.26341 0.12329 -0.002143 0.0016547 -0.00020433 0.0017272
0.00063481 0.0014217 0.00020381 0.00099083
-0.00034167 0.0021795 -0.002137 0.0016773 0.10801 -0.25525 0.0020589 -0.00092237
0.0013636 0.0021394 -0.00084067 0.00142
-0.002776 -0.0022873 -0.00019592 0.0017431 0.0020158 -0.00090467 0.16128 -0.13844
-0.00061479 0.0046352 -0.0021844 0.00065385
-0.00025253 0.001368 0.00066699 0.0013971 0.0013743 0.0020961 -0.00052078 0.0046488
0.25342 0.016666 0.0041513 0.0014252
0.00038748 -0.00056048 0.00020576 0.0010086 -0.00077871 0.0013985 -0.0021847 0.00078858
0.0041289 0.0013943 0.27671 0.058691
1940000000 0.17586 -0.1752 0.0004349 -0.0013896 0.0013495 0.0018858 -0.0038333 0.00044057
0.0010746 0.0011577 -0.00059349 -0.00071674
0.00043576 -0.0013866 0.26337 0.091439 -0.0010748 0.003823 0.00096238 0.0014089
0.0020034 0.00061 0.00088083 0.00029601
0.0013671 0.0018586 -0.0010434 0.0038446 0.061967 -0.24879 0.00046267 -0.0022474
0.0024263 0.00063303 0.00044321 0.0017314
-0.003722 0.00050674 0.00099523 0.0013706 0.00040795 -0.0023153 0.10795 -0.1673
-0.0015319 0.0038977 -0.0011201 0.0018763
0.0011226 0.001188 0.0020383 0.00056735 0.0024334 0.00056087 -0.0014865 0.0039266
0.25292 -0.024464 0.0029834 -0.0014731
-0.00062183 -0.00062796 0.00089555 0.00030522 0.00050847 0.0016444 -0.0010931 0.0018682
0.0031062 -0.0015081 0.26498 0.022606
2000000000 0.12962 -0.18877 -0.0035177 0.00053068 0.0024609 0.0016405 -0.0022522 0.003688
0.0010778 0.00046383 -0.00072814 0.00044599
-0.0035088 0.00053266 0.24872 0.056125 -0.00078875 0.0056728 0.0017424 0.00031283
0.0015719 -0.0014314 0.00058116 0.00019186
0.0024723 0.0016367 -0.00075198 0.0057002 0.018753 -0.23385 -0.0014719 -0.0014804
0.0021181 -0.0011723 0.0016996 0.00122
-0.0022716 0.0037594 0.0016876 0.00037239 -0.0014486 -0.0014845 0.054609 -0.17545
-0.0029301 0.004595 0.00040853 0.0020816
0.00108 0.00039584 0.0015231 -0.0014805 0.0021071 -0.0011212 -0.0030195 0.0045557
