!Keysight Technologies,M9804A,MY58100912,A.14.10.03
!Date: Thursday, April 27, 2023 10:28:33
!Correction: S11(C  6-Port  ) 
!S12(C  6-Port  ) 
!S13(C  6-Port  ) 
!S14(C  6-Port  ) 
!S15(C  6-Port  ) 
!S16(C  6-Port  ) 
!S21(C  6-Port  ) 
!S22(C  6-Port  ) 
!S23(C  6-Port  ) 
!S24(C  6-Port  ) 
!S25(C  6-Port  ) 
!S26(C  6-Port  ) 
!S31(C  6-Port  ) 
!S32(C  6-Port  ) 
!S33(C  6-Port  ) 
!S34(C  6-Port  ) 
!S35(C  6-Port  ) 
!S36(C  6-Port  ) 
!S41(C  6-Port  ) 
!S42(C  6-Port  ) 
!S43(C  6-Port  ) 
!S44(C  6-Port  ) 
!S45(C  6-Port  ) 
!S46(C  6-Port  ) 
!S51(C  6-Port  ) 
!S52(C  6-Port  ) 
!S53(C  6-Port  ) 
!S54(C  6-Port  ) 
!S55(C  6-Port  ) 
!S56(C  6-Port  ) 
!S61(C  6-Port  ) 
!S62(C  6-Port  ) 
!S63(C  6-Port  ) 
!S64(C  6-Port  ) 
!S65(C  6-Port  ) 
!S66(C  6-Port  ) 
!S6P File: Measurement: :
# Hz S  RI   R 50
500000000 -0.33597 -0.035569 -0.0094661 -0.0034326 -0.0076563 0.012035 -0.0031782 0.011783
0.011968 0.0041831 -0.0035688 0.008389
-0.009458 -0.0034301 -0.41813 -0.049839 0.0079844 -0.011494 0.0023693 0.011855
0.0074433 0.0021999 0.0019952 0.013326
-0.0076389 0.012018 0.0079777 -0.01152 -0.26472 0.21068 0.0071901 0.0027697
-0.00064595 0.008519 0.0009481 0.011691
-0.0031454 0.011811 0.0023654 0.01184 0.0071638 0.0027551 -0.32709 0.046404
-0.019291 -0.0043557 0.017962 0.024805
0.011988 0.0042645 0.0074884 0.0021888 -0.00064698 0.0085204 -0.019308 -0.0043465
-0.22562 -0.18552 -0.026987 0.0044846
-0.0034653 0.0083516 0.0019967 0.01332 0.00094257 0.011683 0.018006 0.024838
-0.026946 0.0045285 -0.27194 -0.11563
560000000 -0.31536 0.12479 -0.022836 -0.062332 -0.0001086 0.012272 0.0066969 0.010151
0.010499 0.0038649 0.010436 0.0082203
-0.022764 -0.062341 -0.37489 0.10829 -0.042084 -0.036546 0.013595 0.0037984
-0.013442 -0.0046464 0.0045871 -0.00034669
-5.9789e-05 0.012285 -0.042232 -0.03652 -0.18257 0.25858 -0.00075663 -0.0047101
0.019239 0.0041352 0.0064659 -0.0060139
0.0067503 0.010137 0.013628 0.00377 -0.00076051 -0.0047086 -0.30212 0.13571
0.0036595 -0.025394 0.0048758 -0.019807
0.010499 0.003789 -0.013403 -0.0045992 0.019261 0.0041419 0.0036099 -0.025395
-0.28487 -0.01029 0.0077938 -0.05016
0.010474 0.008121 0.0045758 -0.0003972 0.0064842 -0.0059993 0.0048799 -0.019817
0.0077188 -0.050249 -0.33018 0.032443
620000000 -0.2729 0.10918 -0.023028 0.0075088 0.003585 0.0085954 0.006943 -0.0054034
0.011432 -6.3939e-05 0.00052588 -0.0019361
-0.022994 0.0074853 -0.40238 0.062446 -0.018397 -3.6627e-05 -0.0011603 -0.0018028
0.01038 -0.0074627 0.0012137 -0.0028272
0.003628 0.0085575 -0.018431 7.9794e-06 -0.15245 0.26792 -0.0013442 -0.0050685
-0.003901 -0.0037319 0.0088047 -0.0035447
0.0069091 -0.0054529 -0.001189 -0.0018228 -0.0013315 -0.0050971 -0.26168 0.14599
-0.038286 -0.018931 0.014548 0.024284
0.011436 -6.8041e-05 0.010356 -0.0074527 -0.0039399 -0.0037124 -0.038341 -0.0189
-0.2043 -0.049642 -0.039928 0.013461
0.00049197 -0.0019992 0.0011732 -0.0028372 0.0088099 -0.0035596 0.014566 0.024279
-0.039931 0.01337 -0.24893 -0.0049891
680000000 -0.2331 0.19297 -0.027806 -0.014111 0.0048756 0.0048666 0.00134 -0.0076118
-0.0032607 -0.010981 0.0043911 -0.0065363
-0.027791 -0.014107 -0.38717 0.15934 -0.03275 -0.0013117 -0.0017784 -0.00020755
-0.0027394 -0.0088424 -0.0011304 -0.0017443
0.0048834 0.0048325 -0.032793 -0.0012318 -0.10192 0.28734 -0.00099151 0.00017465
-0.0023193 0.00060653 -0.0027303 -0.0093677
0.0012899 -0.0076735 -0.0017675 -0.00017893 -0.00099336 0.00018691 -0.21963 0.19533
-0.023436 -0.0082559 -0.0088819 -0.01046
-0.0033222 -0.011006 -0.0027803 -0.0088594 -0.0023313 0.00061715 -0.023446 -0.0082342
-0.25219 0.047702 -0.0057476 -0.0094433
0.0043033 -0.0065248 -0.0011165 -0.001794 -0.0027155 -0.0093623 -0.0089288 -0.010443
-0.0056818 -0.0094359 -0.25815 0.097833
740000000 -0.1896 0.18756 -0.038597 0.026404 0.01266 -0.0053936 -0.00079393 -0.0036908
-0.0042087 -0.0028812 -0.0062919 0.0031137
-0.038572 0.026362 -0.3344 0.17766 -0.034527 0.035317 -0.0004474 -0.0062642
-0.012534 0.0074831 -0.00217 -0.0053027
0.012634 -0.0054211 -0.034439 0.03544 -0.068309 0.28621 -0.0015485 0.0035001
-0.0024265 -0.0045371 -0.0017431 0.00040932
-0.00077599 -0.0037476 -0.00043558 -0.0062813 -0.0015846 0.0034968 -0.20248 0.20291
-0.042846 -0.0083744 0.021855 0.013541
-0.0043043 -0.0028948 -0.012504 0.0075772 -0.0024711 -0.0045104 -0.042893 -0.0083239
-0.1561 0.073096 -0.041951 -0.00044937
-0.0063124 0.00318 -0.0021551 -0.0053362 -0.0017682 0.00045323 0.021851 0.013544
-0.041927 -0.00050036 -0.24657 0.10406
800000000 -0.15748 0.22829 -0.022555 0.01705 0.0049842 -0.01018 -0.0051263 -0.0021043
-0.0042615 0.0026646 0.0037752 0.0012159
-0.022548 0.017051 -0.33739 0.24827 -0.0078441 0.033999 -0.0022616 0.0021838
-0.00069923 0.0033158 0.00093058 0.0053195
0.0049918 -0.010183 -0.0077564 0.034058 -0.027052 0.30916 0.00093228 0.0014627
0.00054894 0.0037389 -0.0021059 0.0011232
-0.0051704 -0.0020499 -0.0022455 0.0022231 0.00094141 0.0014733 -0.17448 0.23003
-0.028277 0.012339 0.012343 -0.010152
-0.004288 0.0027703 -0.0006895 0.003346 0.00055002 0.003755 -0.028281 0.012403
-0.20085 0.095353 -0.017456 0.017248
0.0038076 0.0012232 0.00094726 0.0053077 -0.0021036 0.001104 0.012365 -0.010226
-0.017484 0.017251 -0.23933 0.15471
860000000 -0.12283 0.2494 -0.017265 0.031047 -0.0034712 -0.0097534 -0.0025089 0.0013458
0.0040227 0.0050533 -0.002984 -0.0028359
-0.017269 0.031019 -0.28946 0.29051 0.0080302 0.033932 0.00013531 0.0020604
0.0043034 9.5711e-05 0.0031534 0.00020158
-0.0035055 -0.0097315 0.0081427 0.033962 0.021322 0.31674 -0.00040521 -0.00034425
0.0028906 -0.0015277 0.0015261 0.0043415
-0.0024905 0.0012867 9.0979e-05 0.0020584 -0.00043121 -0.00036471 -0.13847 0.24227
-0.017998 0.018478 -0.0061006 -0.0090795
0.0040728 0.0050253 0.0042873 6.3713e-05 0.0028996 -0.0015424 -0.017976 0.018522
-0.15152 0.14414 -0.024253 0.015345
-0.0030515 -0.0028408 0.0031503 0.00020873 0.0015254 0.0043568 -0.0060852 -0.0090002
-0.024258 0.015326 -0.18858 0.19616
920000000 -0.097604 0.27228 0.0052354 0.037611 -0.0093341 -0.0041903 -0.0019042 0.0023096
0.0013915 0.001575 0.0023166 -0.0016199
0.0052109 0.037584 -0.26026 0.311 0.027877 0.021524 0.0015687 0.00094394
0.0065503 -0.00055165 0.0036359 -0.0030938
-0.0093427 -0.004149 0.027976 0.021479 0.067626 0.31693 0.0017837 -0.00020441
0.0010952 -0.0004125 0.00076813 -0.0010844
-0.0018896 0.0023395 0.0015677 0.00096571 0.0017845 -0.00020258 -0.11446 0.25842
-0.010644 0.03001 0.0025725 -0.0062975
0.0014961 0.0015897 0.0065712 -0.00060312 0.001105 -0.00040207 -0.010605 0.030049
-0.14155 0.15017 -0.0024221 0.027177
0.0022943 -0.0016231 0.0036237 -0.0031089 0.00076502 -0.0010797 0.0025568 -0.0063302
-0.0024358 0.027157 -0.19359 0.21111
980000000 -0.049844 0.29191 0.01778 0.029801 -0.0087103 0.0047011 0.002473 0.0037527
0.0039619 -0.0018161 -0.0030544 -0.0021577
0.017733 0.029784 -0.20738 0.34472 0.032622 0.0045984 0.0019502 5.7596e-06
0.0011566 -0.0062059 -0.00070316 -0.0020107
-0.0086796 0.0047263 0.032661 0.0044935 0.11382 0.31007 0.00040121 -0.0011788
7.8578e-05 -0.0021272 0.0014023 1.3823e-05
0.0024372 0.0037215 0.0019569 1.6916e-05 0.00039724 -0.001183 -0.076039 0.27006
0.0071778 0.028643 -0.0091979 -0.0068078
0.0038978 -0.0017988 0.0011161 -0.0062286 6.8813e-05 -0.0021119 0.0072371 0.028644
-0.11008 0.17735 0.0047986 0.018378
-0.0030678 -0.0021292 -0.00072797 -0.0020266 0.0013985 1.4326e-05 -0.009159 -0.0067701
0.0048461 0.018378 -0.15113 0.25558
1040000000 -0.0071563 0.30015 0.033173 0.017649 -0.00097501 0.006774 0.0027713 0.00089544
9.02e-06 -0.0036005 -0.00046825 -0.0015546
0.033111 0.017646 -0.17171 0.3576 0.028858 -0.014746 0.0014489 -0.0017182
-0.0025094 -0.0022678 -0.0012583 -0.0026941
-0.00093801 0.0067715 0.028812 -0.014854 0.15978 0.29605 -0.00053771 -0.0013814
-0.0016088 -0.00068161 -0.000456 -0.0010748
0.0028154 0.00085982 0.0014527 -0.0017129 -0.00052349 -0.0013713 -0.048515 0.27994
0.017893 0.017227 -0.0028702 0.0020959
2.5437e-05 -0.0036066 -0.0025496 -0.0022667 -0.001599 -0.00066956 0.01794 0.017196
-0.079468 0.18675 0.013165 0.017952
-0.00046106 -0.0015351 -0.0013094 -0.0026893 -0.00045525 -0.0010853 -0.0028753 0.0020926
0.013181 0.017967 -0.12903 0.27481
1100000000 0.038682 0.30711 0.035479 -0.0044956 0.0029231 0.0036363 0.0026322 -0.0014476
-0.002185 -0.0029971 -0.0038892 0.00011766
0.035442 -0.0044566 -0.12814 0.37429 0.014798 -0.027362 6.7608e-05 -0.0017985
-0.0031772 -0.00045843 -0.0032779 -0.00045383
0.0029409 0.0036227 0.014705 -0.027444 0.20579 0.27557 -0.0017586 0.00022996
-0.0016747 0.00062755 -0.00083687 -0.00025437
0.0026025 -0.0014419 6.0742e-05 -0.0018031 -0.0017627 0.00022573 -0.0080229 0.28495
0.022345 0.0051336 -0.0021713 0.00091356
-0.0022151 -0.0029477 -0.0031997 -0.00045236 -0.0016782 0.00064141 0.022367 0.0051122
-0.060875 0.19957 0.018327 0.0086501
-0.0038767 0.00013367 -0.0032916 -0.00044167 -0.00084096 -0.00024961 -0.0021605 0.00092789
0.018327 0.0086393 -0.081905 0.30252
1160000000 0.09017 0.30168 0.023514 -0.020654 0.0026584 -0.00057719 -0.00010949 -0.0025628
-0.0038793 -0.0004904 -0.00095506 0.0037385
0.023496 -0.020622 -0.084496 0.37814 -0.0037368 -0.028559 -0.0017159 -0.001626
-0.0024472 0.0025674 -0.0012785 0.0016876
0.0026539 -0.00058293 -0.003875 -0.028571 0.24859 0.24479 -0.00064764 0.0016409
-0.00034274 0.0018146 -0.00090001 0.00011777
-9.6118e-05 -0.0025767 -0.0017243 -0.0016181 -0.00064206 0.001635 0.031184 0.2819
0.019042 -0.0093626 -0.0025566 0.0056456
-0.0039128 -0.00049733 -0.0024499 0.0025658 -0.00035439 0.0018074 0.019034 -0.0093883
-0.027643 0.20931 0.016842 0.00087129
-0.0009332 0.0037453 -0.0012779 0.0016973 -0.00091757 0.00011323 -0.0025653 0.005638
0.016845 0.0008651 -0.034999 0.30503
1220000000 0.13455 0.28999 0.01012 -0.029596 -0.0015529 -0.00085182 -0.00020549 -0.001162
-0.0026649 0.0025518 0.0012202 0.0018234
0.010134 -0.029554 -0.040523 0.38971 -0.016557 -0.020759 -0.0024456 0.00042764
0.0002216 0.0028182 -0.00065454 0.0017706
-0.0015494 -0.00084612 -0.016673 -0.020711 0.28759 0.20585 0.000838 0.0015666
0.00056667 0.0011128 0.00021561 0.00067071
-0.00021834 -0.0011421 -0.0024446 0.0004466 0.00083204 0.0015704 0.070656 0.27358
0.0093042 -0.014963 0.0028361 0.001733
-0.0026553 0.0025762 0.00023061 0.0028115 0.00056538 0.0011088 0.009289 -0.01498
-0.004233 0.21853 0.013201 -0.011666
0.0012348 0.0018286 -0.00064447 0.001759 0.00022024 0.00066568 0.002845 0.0017239
0.013208 -0.011674 -0.0033558 0.3206
1280000000 0.18398 0.26719 -0.007778 -0.027972 -0.0018353 0.0024518 -0.0011309 -0.0019646
-0.00058754 0.0029213 0.0024395 0.00096865
-0.007755 -0.027947 0.0050546 0.38051 -0.023162 -0.0084441 -0.0010138 0.0013931
0.0016214 0.0015079 0.00042937 0.001928
-0.0018274 0.0024765 -0.023229 -0.0083403 0.31838 0.16209 0.0013321 -0.00018111
0.0010076 3.9595e-06 0.0002803 0.00035217
-0.0011233 -0.0019605 -0.0010134 0.0014066 0.0013242 -0.00016415 0.10717 0.25761
0.00097856 -0.016669 0.00053919 6.4218e-05
-0.00058297 0.0029188 0.0016331 0.0014872 0.000999 6.2949e-06 0.00094704 -0.016677
0.032583 0.22254 0.0029197 -0.013773
0.0024438 0.00096281 0.00044516 0.001931 0.00028249 0.00035147 0.00053615 6.1674e-05
0.0029408 -0.013783 0.043952 0.32085
1340000000 0.22068 0.23309 -0.017322 -0.018727 0.00080194 0.0043025 -0.0019201 -0.00070551
0.0014961 0.0025907 0.0016169 -0.0014315
-0.017286 -0.018739 0.044225 0.37229 -0.021192 0.0039364 -5.2141e-05 0.0019251
0.0017146 0.0006313 0.001246 0.0008296
0.00080312 0.0043019 -0.021194 0.0040559 0.34062 0.11397 0.00095807 -0.00086315
0.00056621 -0.00040132 9.7636e-05 0.00022439
-0.0019062 -0.00068373 -4.3432e-05 0.0019144 0.00095383 -0.00086099 0.14011 0.23782
-0.0070866 -0.014077 0.0013425 -0.00014545
0.0015074 0.0025682 0.0017184 0.00062934 0.00056993 -0.0004025 -0.0071208 -0.014082
0.062754 0.21798 -0.0028248 -0.012439
0.0016292 -0.0014437 0.0012447 0.00082116 0.00010388 0.00022675 0.0013551 -0.00014418
-0.0028133 -0.012441 0.081951 0.3155
1400000000 0.25334 0.1946 -0.022955 -0.0075255 0.0050028 0.0030151 -0.0019907 0.00071897
0.0024221 0.00069287 0.00017381 -0.0013377
-0.022918 -0.0075433 0.081286 0.35934 -0.014683 0.011943 0.0012735 0.0012779
0.00095882 -0.00074545 0.0011711 0.00028836
0.0050269 0.0029974 -0.014648 0.012031 0.35386 0.0601 7.1971e-05 -0.0013772
-4.4792e-06 -0.00032211 0.00029559 0.0001643
-0.0019884 0.00072682 0.0012918 0.0012728 7.3077e-05 -0.0013753 0.17003 0.20953
-0.012045 -0.0083841 -0.00057568 -0.00093547
0.0024127 0.00067294 0.00095987 -0.00075167 -1.0185e-05 -0.00032699 -0.012059 -0.0083609
0.096041 0.2136 -0.0089984 -0.0079678
0.00015369 -0.0013175 0.0011771 0.00027854 0.00029232 0.00016879 -0.00057823 -0.00093088
-0.008997 -0.0079922 0.12644 0.30387
1460000000 0.27577 0.15047 -0.020158 0.0043554 0.0053748 -0.0017216 -0.0014939 0.001826
0.0018802 -0.00062003 -0.00032634 -0.00081316
-0.020137 0.004328 0.11549 0.33768 -0.0063171 0.014915 0.0017034 0.00015713
0.00084657 -0.0010567 0.0011729 -0.000563
0.0053853 -0.0017432 -0.0062414 0.01496 0.35986 0.0052113 -0.0010393 -0.0012138
0.00019471 -7.6972e-05 0.00069614 -0.00033228
-0.0014839 0.0018325 0.0017054 0.00014287 -0.001044 -0.0012192 0.19727 0.18058
-0.012852 -0.0030864 -0.0011598 0.0013116
0.0018885 -0.00064613 0.00083893 -0.0010644 0.00019897 -7.6893e-05 -0.012867 -0.0030654
0.12593 0.199 -0.010581 -0.0029794
-0.00032301 -0.00081969 0.0011608 -0.000577 0.00069853 -0.00033689 -0.0011637 0.0013205
-0.010582 -0.0030001 0.15949 0.28233
1520000000 0.28779 0.10849 -0.014727 0.009926 0.0031301 -0.0040549 0.00019998 0.0025352
0.0017343 -0.0016313 -0.0011441 -0.00014308
-0.014715 0.0099058 0.14918 0.32292 0.0012318 0.012967 0.0015939 -0.00079739
0.00010723 -0.0008618 0.00028834 -0.00098953
0.0031218 -0.0040726 0.0013074 0.012972 0.3526 -0.051299 -0.00097425 -0.00036064
0.00051674 -0.0007806 8.7805e-06 3.7158e-05
0.00019945 0.0025221 0.0015842 -0.00081134 -0.00098136 -0.00036121 0.22146 0.14234
-0.012613 0.0014487 0.00088336 0.001648
0.0017304 -0.0016302 0.00011032 -0.00087289 0.00051356 -0.00078506 -0.012615 0.0014849
0.15434 0.18459 -0.010728 0.0010514
-0.0011568 -0.00011667 0.00028779 -0.00098558 5.0894e-06 3.7873e-05 0.00089892 0.001648
-0.010757 0.0010528 0.1923 0.26117
1580000000 0.29678 0.06184 -0.0083201 0.01307 -0.00088975 -0.0046464 0.0014514 0.0018363
-0.00043018 -0.0019477 -0.00038614 0.00029686
-0.0083266 0.013059 0.17661 0.29797 0.004882 0.0083507 0.00045244 -0.0015502
-0.00034751 -0.0010218 -0.00020364 -0.00087078
-0.00090785 -0.0046423 0.0049433 0.0083368 0.33188 -0.1089 -0.0014558 0.00041079
-0.00023023 -0.0011225 0.00010751 -0.0004998
0.0014794 0.0018332 0.00044374 -0.0015535 -0.0014667 0.00041297 0.2364 0.10223
-0.010121 0.0056052 0.0017347 0.00072185
-0.00043534 -0.0019403 -0.00035156 -0.0010148 -0.00023621 -0.0011257 -0.010122 0.0056257
0.17917 0.16617 -0.0087084 0.0062571
-0.00039716 0.00029845 -0.00021837 -0.00085129 0.00010346 -0.00050634 0.001726 0.00071624
-0.0087307 0.0062489 0.22385 0.23376
1640000000 0.29825 0.020051 -0.001785 0.012199 -0.0026315 -0.0025044 0.002579 0.00097514
-0.00074796 -0.0011505 -0.00033451 0.00064713
-0.0017969 0.012201 0.20619 0.27266 0.0056624 0.0036957 -0.00064549 -0.0016148
-0.00091237 -0.0005023 -0.00049589 -0.00069215
-0.0026509 -0.0024887 0.0056868 0.0036613 0.30326 -0.15806 -0.00081644 0.0012675
-0.00095315 -0.00091107 -8.9355e-05 -0.00031272
0.0025775 0.00094812 -0.00065558 -0.0016237 -0.00082768 0.0012627 0.24916 0.052104
-0.0068008 0.0067469 0.0021296 -0.00064025
-0.00074901 -0.0011506 -0.00091437 -0.00049562 -0.00096013 -0.00091249 -0.0067972 0.0067706
0.20261 0.14102 -0.0045906 0.0083049
-0.00032295 0.00065944 -0.00049694 -0.00068402 -8.3187e-05 -0.00031796 0.0021306 -0.0006483
-0.004606 0.0083205 0.24889 0.20179
1700000000 0.29034 -0.025527 0.0016811 0.009686 -0.0034113 9.0695e-05 0.0028916 -0.0011608
-0.0018174 -0.00049526 0.00065634 0.00053315
0.001668 0.0096758 0.22433 0.24071 0.0038495 0.00084635 -0.0013538 -0.00058893
-0.0008061 -6.8973e-05 -0.00091915 -0.00043305
-0.0034119 0.00010975 0.003864 0.00082832 0.2593 -0.19772 0.00033504 0.0015828
-0.001681 -0.00032178 -0.00053806 -0.0010029
0.0028861 -0.0011803 -0.0013405 -0.00057729 0.00034826 0.0015852 0.24561 0.00073336
-0.0048224 0.0074365 0.0012255 -0.0019748
-0.0018043 -0.00048762 -0.00079337 -4.9551e-05 -0.001688 -0.00031546 -0.0048076 0.0074544
0.22038 0.11931 -0.00036404 0.0088658
0.00065656 0.00053247 -0.00093516 -0.000422 -0.00053659 -0.00098752 0.0012329 -0.0019782
-0.00038099 0.0088671 0.26458 0.16704
1760000000 0.27709 -0.074224 0.0042188 0.0065752 -0.0022156 0.00081857 0.0012992 -0.0032637
-0.0010504 0.00058279 0.00040736 -0.00049042
0.0042041 0.0065773 0.24999 0.20035 0.001772 -0.00090538 -0.0011271 0.00015979
-0.0011844 0.00084766 -0.00058562 0.00055955
-0.0022223 0.00083421 0.0017763 -0.00092296 0.21026 -0.23037 0.0011234 0.0012433
-0.0011353 0.0013166 -0.0012784 -0.00045419
0.0013152 -0.0032929 -0.001128 0.00016112 0.0011262 0.00125 0.23519 -0.051824
-0.0021574 0.0071465 -0.00046227 -0.0020918
-0.0010493 0.00058015 -0.0011856 0.00086069 -0.001141 0.0013187 -0.0021382 0.0071508
0.23543 0.082667 0.0032752 0.0065079
0.00039225 -0.00051211 -0.00058639 0.00056483 -0.0012855 -0.00044566 -0.0004755 -0.00211
0.0032746 0.0065364 0.2765 0.12908
1820000000 0.25139 -0.11109 0.0046421 0.0029845 -2.902e-05 0.0023349 -0.00091449 -0.0031241
-0.00087578 0.00060587 2.3172e-05 -0.00017952
0.0046365 0.0029841 0.25952 0.16993 -0.00018357 3.2141e-05 -0.0013716 0.00082867
-0.00017982 0.0013521 -0.00055087 0.00053405
-1.6783e-05 0.0023199 -0.00017584 4.4331e-05 0.16018 -0.2459 0.0015625 0.00045615
-0.00046003 0.0021316 -0.0015233 0.00057143
-0.00092293 -0.0031234 -0.0013819 0.00083387 0.0015449 0.00044252 0.20347 -0.099192
-0.00090165 0.005893 -0.0015615 -0.0012191
-0.00084649 0.00061928 -0.00017146 0.0013538 -0.00046181 0.0021387 -0.00088235 0.0058915
0.25201 0.051346 0.0042271 0.0032985
2.7427e-05 -0.00019833 -0.00053863 0.00054033 -0.0015137 0.00055687 -0.0015714 -0.0012072
0.0042267 0.003319 0.27785 0.092553
1880000000 0.21552 -0.1506 0.0026363 0.00060657 -0.00039484 0.0021808 -0.0028221 -0.0021873
-0.00026001 0.0014633 0.00039542 -0.00058148
0.0026301 0.00062708 0.26339 0.12322 -0.0021522 0.0016725 -0.00020507 0.0017195
0.00062584 0.0014149 0.00023045 0.00097847
-0.00036699 0.0021856 -0.0021344 0.0016945 0.10806 -0.25527 0.0020656 -0.00086458
0.0013525 0.0021421 -0.0008434 0.0013289
-0.0028105 -0.0021973 -0.0001931 0.001707 0.0020606 -0.0008801 0.1612 -0.13847
-0.00051682 0.004616 -0.0022244 0.00075256
-0.00025511 0.0014644 0.00063213 0.0014082 0.0013574 0.0021445 -0.00050809 0.0046161
0.25354 0.016608 0.0039891 0.0013851
0.00038252 -0.00058774 0.00024043 0.00098069 -0.00082708 0.0013508 -0.0022315 0.00073869
0.0040203 0.0013873 0.27692 0.058517
1940000000 0.17568 -0.17527 0.00044548 -0.0013474 0.0013776 0.0018801 -0.003758 0.00053769
0.0010855 0.0011118 -0.0005895 -0.00067091
0.00044135 -0.0013447 0.26333 0.09143 -0.0010512 0.0038261 0.00096117 0.0014321
0.0020086 0.00060423 0.00092188 0.00028457
0.0013869 0.0018769 -0.0010243 0.0038424 0.061972 -0.24874 0.00041905 -0.0022731
0.0023963 0.00060873 0.00046465 0.0016727
-0.0037652 0.00057065 0.0009782 0.0014301 0.0004161 -0.0022665 0.10782 -0.16735
-0.0016129 0.0038874 -0.0010857 0.0016701
0.0010936 0.0011194 0.0020178 0.0005876 0.0023938 0.00059629 -0.0015904 0.0038904
0.25296 -0.024413 0.0030416 -0.0015625
-0.00059306 -0.00067882 0.00092582 0.00026939 0.00046144 0.0016733 -0.0010311 0.0016767
0.0030708 -0.0015643 0.26493 0.022678
2000000000 0.12954 -0.18875 -0.0035245 0.00058251 0.0025202 0.0016633 -0.0022924 0.0036318
0.0010527 0.00038626 -0.00071702 0.00038317
-0.0035112 0.00056905 0.24867 0.056113 -0.00081363 0.0056493 0.0017009 0.00031162
0.0015316 -0.0014675 0.0005547 0.00015323
0.0025405 0.0016425 -0.00076922 0.0056651 0.018644 -0.23381 -0.0014508 -0.0014898
0.002083 -0.0011165 0.0016551 0.0012522
-0.0022917 0.003682 0.0016871 0.00031661 -0.001468 -0.0014919 0.054554 -0.17531
-0.0029227 0.0046346 0.00034374 0.0021565
