!Keysight Technologies,M9804A,MY58100912,A.14.10.03
!Date: Thursday, April 27, 2023 10:28:33
!Correction: S11(C  6-Port  ) 
!S12(C  6-Port  ) 
!S13(C  6-Port  ) 
!S14(C  6-Port  ) 
!S15(C  6-Port  ) 
!S16(C  6-Port  ) 
!S21(C  6-Port  ) 
!S22(C  6-Port  ) 
!S23(C  6-Port  ) 
!S24(C  6-Port  ) 
!S25(C  6-Port  ) 
!S26(C  6-Port  ) 
!S31(C  6-Port  ) 
!S32(C  6-Port  ) 
!S33(C  6-Port  ) 
!S34(C  6-Port  ) 
!S35(C  6-Port  ) 
!S36(C  6-Port  ) 
!S41(C  6-Port  ) 
!S42(C  6-Port  ) 
!S43(C  6-Port  ) 
!S44(C  6-Port  ) 
!S45(C  6-Port  ) 
!S46(C  6-Port  ) 
!S51(C  6-Port  ) 
!S52(C  6-Port  ) 
!S53(C  6-Port  ) 
!S54(C  6-Port  ) 
!S55(C  6-Port  ) 
!S56(C  6-Port  ) 
!S61(C  6-Port  ) 
!S62(C  6-Port  ) 
!S63(C  6-Port  ) 
!S64(C  6-Port  ) 
!S65(C  6-Port  ) 
!S66(C  6-Port  ) 
!S6P File: Measurement: :
# Hz S  RI   R 50
500000000 -0.33543 -0.035067 -0.0093541 -0.0030906 -0.0077041 0.012268 -0.0031899 0.011442
0.012228 0.0041444 -0.0035661 0.0078219
-0.0093221 -0.0030835 -0.41829 -0.049419 0.0078983 -0.011222 0.0021657 0.011843
0.0075693 0.002379 0.0018828 0.013451
-0.0076724 0.012274 0.007891 -0.011246 -0.26478 0.21095 0.0074402 0.0028728
-0.00046228 0.0086019 0.0013995 0.011765
-0.0031657 0.011455 0.0021822 0.011848 0.0074596 0.0028579 -0.32728 0.046865
-0.019509 -0.0042335 0.017751 0.025589
0.012278 0.0041302 0.0076179 0.0023487 -0.00046582 0.0085818 -0.019504 -0.0042202
-0.22586 -0.18517 -0.027048 0.0050011
-0.0037217 0.0078098 0.001786 0.013485 0.0013572 0.011744 0.01784 0.025643
-0.027172 0.0050193 -0.27186 -0.11407
560000000 -0.31597 0.12483 -0.023409 -0.061792 -0.00026256 0.012238 0.0065416 0.010024
0.010515 0.0039342 0.0096704 0.0083254
-0.023339 -0.061728 -0.37476 0.10905 -0.042104 -0.036592 0.013476 0.0039739
-0.013177 -0.0047433 0.0039621 0.00021971
-0.00025164 0.012271 -0.042219 -0.036521 -0.18266 0.25872 -0.00068539 -0.0045925
0.019189 0.0040041 0.0065331 -0.0064332
0.0065352 0.0099465 0.013458 0.0039662 -0.00069681 -0.0045834 -0.30196 0.13569
0.0038855 -0.025326 0.0049073 -0.020124
0.010472 0.0039358 -0.013246 -0.0046616 0.019172 0.0040139 0.0038415 -0.025347
-0.28502 -0.010675 0.007727 -0.050627
0.0097242 0.0085482 0.0040688 0.00033696 0.006513 -0.0064146 0.0048736 -0.02007
0.0076507 -0.050742 -0.33136 0.032128
620000000 -0.27317 0.10924 -0.023139 0.0075035 0.0033008 0.0085051 0.0067123 -0.0057168
0.011519 1.3551e-05 -0.00017909 -0.0020428
-0.023135 0.0075025 -0.4024 0.062459 -0.018592 2.3294e-05 -0.0014271 -0.001736
0.010502 -0.0073044 0.00097407 -0.0025954
0.0032989 0.0085314 -0.018602 7.6701e-05 -0.15277 0.2679 -0.0016299 -0.0050797
-0.0036428 -0.0035384 0.0084949 -0.0031504
0.006732 -0.005739 -0.0014646 -0.0017213 -0.0016541 -0.0051115 -0.26182 0.14593
-0.038393 -0.018756 0.014498 0.024497
0.011566 -3.1188e-05 0.0105 -0.00733 -0.003654 -0.003521 -0.038452 -0.018748
-0.20365 -0.049078 -0.03963 0.013144
-0.00023166 -0.002023 0.00094542 -0.0025689 0.0084099 -0.0031161 0.014369 0.02447
-0.039568 0.013165 -0.24855 -0.0041784
680000000 -0.2332 0.19299 -0.027707 -0.013919 0.0049611 0.0050552 0.001282 -0.0073198
-0.0030636 -0.010875 0.004638 -0.0063293
-0.027671 -0.013936 -0.38717 0.15945 -0.032663 -0.001282 -0.0016628 -0.00017563
-0.0026775 -0.0088469 -0.0012515 -0.0018828
0.0049898 0.0050325 -0.032699 -0.0011941 -0.10178 0.28737 -0.00087229 0.00017122
-0.0022625 0.00060692 -0.0028253 -0.0093152
0.0012428 -0.0072785 -0.0016623 -0.00016267 -0.00087458 0.00018395 -0.21961 0.19503
-0.023476 -0.0082272 -0.0091861 -0.010528
-0.0030971 -0.010831 -0.0026932 -0.0088515 -0.0022451 0.00061485 -0.023474 -0.0082055
-0.25239 0.047564 -0.0053953 -0.0092288
0.004698 -0.0063253 -0.0012149 -0.0019188 -0.0027947 -0.0093696 -0.0090968 -0.010566
-0.0053289 -0.0092253 -0.25886 0.097895
740000000 -0.18918 0.18751 -0.038532 0.026433 0.012622 -0.0053598 -0.0010532 -0.0038428
-0.0043355 -0.0027181 -0.0066029 0.0029692
-0.03852 0.026403 -0.33424 0.1778 -0.034736 0.035339 -0.00047062 -0.0063603
-0.012488 0.0072712 -0.002531 -0.0055919
0.012622 -0.0054073 -0.034667 0.035466 -0.068284 0.28611 -0.0016857 0.0035643
-0.002093 -0.0041232 -0.0016634 0.00012967
-0.0010474 -0.0038703 -0.0004733 -0.006389 -0.0016819 0.0035377 -0.20246 0.20252
-0.042981 -0.0081286 0.021861 0.013004
-0.0043727 -0.0027014 -0.012453 0.0073267 -0.0021222 -0.0041159 -0.043004 -0.0080427
-0.15648 0.073101 -0.041931 -5.5669e-05
-0.0066157 0.0031485 -0.0026061 -0.0056217 -0.001635 0.00012758 0.021845 0.01298
-0.041949 -0.00012465 -0.24617 0.10327
800000000 -0.15759 0.22825 -0.022537 0.017018 0.0049773 -0.010465 -0.004831 -0.0020755
-0.00402 0.0027239 0.0040707 0.00099634
-0.022526 0.01699 -0.33734 0.24827 -0.0078289 0.033882 -0.002064 0.0021119
-0.00065267 0.003234 0.0010942 0.0052404
0.0049381 -0.010467 -0.0077472 0.033943 -0.027073 0.30895 0.0011575 0.0013329
0.00055427 0.0036379 -0.0018853 0.00082082
-0.004854 -0.0020481 -0.0020572 0.0021314 0.0011833 0.001359 -0.17431 0.23027
-0.028086 0.012293 0.012799 -0.010092
-0.0040209 0.0027362 -0.00063863 0.0032488 0.00054978 0.0036231 -0.028085 0.012339
-0.20115 0.095469 -0.017292 0.017128
0.0040918 0.00093934 0.0011328 0.005222 -0.0018374 0.00080019 0.01283 -0.010126
-0.017304 0.017096 -0.23853 0.15483
860000000 -0.12301 0.24907 -0.017232 0.030953 -0.003338 -0.0096781 -0.002721 0.0013308
0.0038565 0.0048658 -0.0028914 -0.0023393
-0.017243 0.030925 -0.28942 0.29035 0.0081362 0.033903 0.00026315 0.0022968
0.0043372 7.0067e-05 0.003617 0.000279
-0.0033663 -0.0096783 0.0082552 0.033903 0.021434 0.31681 -0.00054135 -0.00020848
0.0029014 -0.0015157 0.0016276 0.0045483
-0.0027246 0.0013051 0.000261 0.0023163 -0.00054972 -0.00022864 -0.13891 0.24184
-0.018137 0.018297 -0.0068294 -0.0086862
0.0038831 0.0048402 0.004339 5.1016e-05 0.0028947 -0.0015127 -0.018144 0.01836
-0.15192 0.14408 -0.024294 0.015343
-0.0029131 -0.0022912 0.0036183 0.00028799 0.0016105 0.0045844 -0.0068517 -0.0086933
-0.024233 0.015333 -0.18872 0.19724
920000000 -0.097465 0.2725 0.005192 0.037705 -0.0092929 -0.0041156 -0.0017698 0.002233
0.0015007 0.0014854 0.0023359 -0.0015369
0.0051622 0.037691 -0.26025 0.31093 0.027874 0.021522 0.0016123 0.0010626
0.0065553 -0.00048293 0.0037858 -0.0030327
-0.0093113 -0.0040902 0.027975 0.021453 0.067663 0.31694 0.0017885 -0.00018378
0.0011967 -0.00036323 0.0008213 -0.0010872
-0.0017543 0.0022443 0.0016127 0.0010748 0.0017883 -0.00018058 -0.11402 0.2585
-0.010548 0.029823 0.0029266 -0.0063655
0.0014977 0.0014603 0.0065666 -0.000494 0.0011865 -0.00037423 -0.010502 0.029838
-0.14131 0.14997 -0.0022972 0.0271
0.0023329 -0.0015551 0.0037715 -0.0030109 0.00081412 -0.0010947 0.0029674 -0.0063948
-0.0023204 0.027075 -0.19333 0.21093
980000000 -0.049942 0.29187 0.017816 0.029884 -0.0086817 0.004692 0.0023857 0.0039165
0.0040038 -0.0016998 -0.0029653 -0.0019395
0.017762 0.029868 -0.20725 0.3447 0.032579 0.0046026 0.0020018 3.5196e-05
0.0012022 -0.0061863 -0.00078447 -0.0020773
-0.0086829 0.0047245 0.032651 0.004502 0.11382 0.31006 0.00042634 -0.0011617
4.5289e-05 -0.0021272 0.0014123 8.9029e-06
0.0023774 0.003895 0.0020081 4.6239e-05 0.00041938 -0.001162 -0.076187 0.27012
0.0071133 0.028702 -0.0092298 -0.0065318
0.0040049 -0.0017289 0.0011495 -0.0062017 4.6399e-05 -0.0021265 0.0071755 0.028723
-0.10998 0.17746 0.0046218 0.018707
-0.0029725 -0.0019134 -0.00080987 -0.0020672 0.0014383 2.7262e-05 -0.0092589 -0.0064816
0.0046359 0.018694 -0.15062 0.25588
1040000000 -0.0069205 0.29987 0.033133 0.017693 -0.00095856 0.0067719 0.0027896 0.00068896
-2.0693e-06 -0.0037414 -0.00056066 -0.0014797
0.03308 0.017729 -0.17172 0.35758 0.028852 -0.014707 0.0014478 -0.0016848
-0.0023979 -0.0022777 -0.0013364 -0.0026285
-0.00095605 0.0067802 0.028844 -0.014855 0.15981 0.29601 -0.00046564 -0.0013859
-0.0015768 -0.00080605 -0.00045683 -0.0011399
0.0028074 0.00067446 0.0014545 -0.001685 -0.00047073 -0.0013765 -0.04847 0.27986
0.017976 0.0172 -0.0028219 0.0020597
-1.7962e-05 -0.003762 -0.0024263 -0.0022447 -0.0015764 -0.00081048 0.018012 0.017159
-0.079239 0.18635 0.013027 0.017919
-0.00058095 -0.0014636 -0.0013417 -0.0025971 -0.00046104 -0.0011257 -0.0028051 0.0020581
0.012995 0.017907 -0.12885 0.27467
1100000000 0.038847 0.3073 0.035536 -0.0044563 0.0029658 0.0036247 0.0026665 -0.0013919
-0.0020975 -0.0029006 -0.0038036 3.1865e-05
0.035501 -0.0044366 -0.1281 0.37426 0.014787 -0.027356 8.5588e-05 -0.001784
-0.0031634 -0.00041044 -0.0032611 -0.00057524
0.0029731 0.0036083 0.014701 -0.027451 0.20582 0.27554 -0.0017635 0.00024305
-0.001625 0.00065971 -0.00088459 -0.0002202
0.0026596 -0.0014062 8.0738e-05 -0.0017836 -0.0017693 0.00025062 -0.0080392 0.28488
0.022376 0.0051542 -0.0023179 0.00090272
-0.00208 -0.0029019 -0.0031742 -0.00038719 -0.0016268 0.00065445 0.02239 0.0051316
-0.060748 0.19976 0.018316 0.0084668
-0.0037695 5.6883e-05 -0.0032626 -0.00054858 -0.00088373 -0.00022227 -0.0023208 0.00089025
0.018294 0.0084441 -0.081789 0.30284
1160000000 0.090182 0.30166 0.023501 -0.020715 0.0026548 -0.00053688 -0.0001122 -0.0026452
-0.0039503 -0.0004044 -0.0009338 0.0037175
0.023479 -0.020666 -0.084478 0.37811 -0.0037463 -0.028547 -0.0017605 -0.0016128
-0.002376 0.0026357 -0.001196 0.0015983
0.0026433 -0.00054242 -0.0038623 -0.028573 0.2486 0.24478 -0.00061729 0.0016518
-0.00034363 0.0018283 -0.00089654 1.1812e-06
-0.00011082 -0.0026517 -0.0017619 -0.0016185 -0.0006189 0.001653 0.031143 0.28186
0.019015 -0.0093319 -0.0026306 0.0056658
-0.0039454 -0.00040425 -0.0023692 0.0026542 -0.00034109 0.0018222 0.019003 -0.00935
-0.027635 0.20918 0.016915 0.00083853
-0.00095064 0.0037073 -0.0011677 0.0016014 -0.00089957 -3.1688e-06 -0.0025978 0.0056672
0.016926 0.00082016 -0.035013 0.30501
1220000000 0.13469 0.28992 0.010146 -0.029615 -0.0015471 -0.00087511 -0.00016993 -0.0011352
-0.0026226 0.0025356 0.0012148 0.0018182
0.010151 -0.02958 -0.040519 0.38968 -0.016558 -0.020743 -0.002462 0.00040434
0.00023701 0.0028476 -0.00068719 0.0017168
-0.0015475 -0.00086629 -0.016664 -0.020689 0.28763 0.20587 0.0008346 0.0015692
0.00058854 0.0011239 0.00022603 0.0006767
-0.0001709 -0.001133 -0.0024484 0.00042277 0.00083526 0.0015662 0.070685 0.27357
0.0093082 -0.014956 0.0028389 0.0017614
-0.0025958 0.0025445 0.0002375 0.0028363 0.00059802 0.0011352 0.0092948 -0.014966
-0.0041134 0.2185 0.013082 -0.011656
0.0012509 0.0018085 -0.00068239 0.001719 0.00022511 0.00067428 0.0028502 0.0017581
0.013098 -0.011658 -0.0031125 0.32072
1280000000 0.18396 0.26721 -0.0077892 -0.027957 -0.0018256 0.0024563 -0.001116 -0.0019817
-0.00060756 0.0029574 0.0024632 0.00099362
-0.0077607 -0.027935 0.0051048 0.3805 -0.023203 -0.0084517 -0.00096951 0.0014206
0.0016009 0.0015639 0.00054233 0.0018896
-0.0018085 0.0024649 -0.023266 -0.008359 0.31838 0.16207 0.0013746 -0.00016346
0.00096909 5.9298e-05 0.00030363 0.00030226
-0.0011175 -0.0019696 -0.00098529 0.0014326 0.0013772 -0.00016334 0.10717 0.25767
0.00089671 -0.016724 0.00050443 8.0932e-05
-0.00060143 0.0029698 0.0016061 0.0015565 0.00097226 6.0698e-05 0.00086705 -0.01673
0.032745 0.22251 0.0028065 -0.013771
0.0024617 0.00099837 0.00055516 0.0018693 0.00029833 0.00031466 0.00051811 6.4359e-05
0.002812 -0.013782 0.043989 0.32073
1340000000 0.22071 0.23303 -0.017342 -0.018714 0.00079049 0.004306 -0.0018782 -0.00071171
0.0014596 0.0026062 0.0016441 -0.0014798
-0.017315 -0.018713 0.044275 0.3723 -0.02117 0.0039482 -8.8868e-05 0.0019169
0.0016765 0.00064314 0.0012128 0.00086358
0.00080082 0.0043049 -0.021179 0.004062 0.34065 0.11399 0.00093758 -0.00086592
0.00056106 -0.00038579 0.00011146 0.00021531
-0.0018868 -0.00069841 -8.1155e-05 0.0019046 0.00093941 -0.00086499 0.14013 0.23784
-0.0070894 -0.014178 0.0013513 -6.7276e-05
0.0014745 0.0025887 0.0016797 0.00063054 0.00056221 -0.00039094 -0.0071313 -0.014171
0.062849 0.21808 -0.0029197 -0.012474
0.0016329 -0.0014934 0.0012248 0.00086087 0.00011708 0.00022307 0.0013526 -8.7005e-05
-0.0029186 -0.012485 0.082141 0.31548
1400000000 0.25333 0.19457 -0.022925 -0.0074924 0.0050457 0.0029874 -0.0020206 0.00075541
0.0024081 0.00072561 0.00020076 -0.001291
-0.022895 -0.0075058 0.081263 0.35933 -0.014674 0.011963 0.0012932 0.0012659
0.00096488 -0.00075027 0.0011655 0.00023636
0.0050625 0.002956 -0.014635 0.012046 0.35391 0.060068 7.5147e-05 -0.0013708
8.8182e-06 -0.0003141 0.00032934 0.00014894
-0.0020251 0.00076682 0.0013026 0.0012674 7.3183e-05 -0.0013688 0.17002 0.20947
-0.012038 -0.0083875 -0.00061893 -0.00091453
0.0024211 0.00071781 0.00096034 -0.00075062 4.1228e-06 -0.00031602 -0.012052 -0.0083542
0.096044 0.2136 -0.0089084 -0.0079822
0.00019911 -0.0012994 0.0011703 0.0002291 0.00031888 0.00016367 -0.00060565 -0.00092086
-0.0088838 -0.0080011 0.1263 0.30388
1460000000 0.27581 0.15044 -0.020145 0.0043546 0.0054089 -0.0017219 -0.0014759 0.0017673
0.0018425 -0.00063136 -0.00031933 -0.00080543
-0.020131 0.0043402 0.11547 0.33765 -0.0063342 0.014911 0.0016803 0.00018677
0.00086578 -0.0010755 0.001187 -0.00057042
0.0054059 -0.0017459 -0.0062776 0.014951 0.35985 0.0051916 -0.0010491 -0.0011892
0.00022175 -5.6085e-05 0.00066562 -0.00036449
-0.001474 0.0017889 0.0016854 0.00017078 -0.0010502 -0.0011913 0.19736 0.18053
-0.012856 -0.0030935 -0.001172 0.0013074
0.0018487 -0.00065082 0.0008535 -0.0010706 0.00021938 -5.9189e-05 -0.012882 -0.0030723
0.12607 0.19904 -0.010631 -0.0029715
-0.00031988 -0.00083634 0.0011857 -0.00056432 0.00068894 -0.00035226 -0.0011643 0.001277
-0.010632 -0.0029767 0.15957 0.28236
1520000000 0.28783 0.10847 -0.014699 0.0099214 0.0031221 -0.0040547 0.00020248 0.0025372
0.0017671 -0.0016303 -0.0011482 -0.00012571
-0.01469 0.0099074 0.14917 0.32287 0.0012267 0.012972 0.0016042 -0.00079082
0.00011297 -0.00088478 0.00029607 -0.00097526
0.0031066 -0.0040697 0.0012934 0.012976 0.35257 -0.051309 -0.00094249 -0.00033977
0.00052714 -0.00074438 1.0169e-05 -1.8316e-05
0.00020839 0.0025369 0.0016031 -0.00079934 -0.00095228 -0.00033718 0.22152 0.1423
-0.012593 0.0015146 0.00090973 0.0016059
0.0017627 -0.0016555 0.00010485 -0.00087939 0.00052589 -0.00075201 -0.012581 0.0015431
0.15444 0.18461 -0.010712 0.0010369
-0.0011225 -0.00012152 0.00029367 -0.00099924 -4.1358e-06 -1.4897e-05 0.00090437 0.0016332
-0.010696 0.0010252 0.19234 0.26119
1580000000 0.29679 0.061804 -0.0083114 0.013076 -0.0008752 -0.0046151 0.0014393 0.0018199
-0.00041025 -0.0019734 -0.00039044 0.00034218
-0.0083084 0.013054 0.17659 0.29798 0.0048848 0.0083408 0.00046811 -0.001528
-0.0003431 -0.0010233 -0.0002134 -0.00087453
-0.0009002 -0.0046189 0.0049366 0.0083291 0.33186 -0.10891 -0.0014711 0.00043547
-0.00022878 -0.0011015 0.00015169 -0.00053371
0.0014599 0.0018173 0.0004571 -0.001537 -0.0014705 0.00044385 0.23637 0.10219
-0.010109 0.0055623 0.0017161 0.00072738
-0.00043038 -0.001964 -0.00034703 -0.00103 -0.00022766 -0.0011102 -0.010116 0.0055793
0.17922 0.16614 -0.0086461 0.0063437
-0.00038219 0.00033911 -0.00020496 -0.00087496 0.00017757 -0.00054108 0.0017303 0.00070654
-0.0086791 0.0063398 0.22385 0.23363
1640000000 0.29825 0.020045 -0.0017911 0.012213 -0.0026418 -0.0024917 0.0025999 0.00098878
-0.00073543 -0.0011469 -0.00031246 0.00061702
-0.0017978 0.012204 0.20621 0.27263 0.0056582 0.0036824 -0.00066194 -0.0016369
-0.00091098 -0.00050262 -0.00051737 -0.00067089
-0.0026492 -0.0024741 0.0056932 0.0036524 0.30329 -0.15809 -0.0008196 0.0012501
-0.00093754 -0.00094547 -7.0773e-05 -0.00029735
0.0025969 0.00097415 -0.00066502 -0.00164 -0.00082209 0.0012407 0.24914 0.052006
-0.0068032 0.0067061 0.0021296 -0.0006067
-0.00074825 -0.0011429 -0.0009146 -0.0004997 -0.00093816 -0.00094518 -0.0067963 0.006724
0.20266 0.14095 -0.0045847 0.0083629
-0.00030265 0.00063941 -0.00052712 -0.00066846 -8.6174e-05 -0.00027813 0.0021211 -0.00060417
-0.00459 0.0083701 0.24885 0.20177
1700000000 0.2904 -0.025529 0.0016895 0.009686 -0.0034148 0.00010186 0.0029245 -0.0011445
-0.001774 -0.00047809 0.00058247 0.00052346
0.0016795 0.0096829 0.22432 0.24068 0.0038476 0.00081763 -0.0013245 -0.00058899
-0.00079776 -7.4402e-05 -0.00091465 -0.00044228
-0.003415 0.00012632 0.0038684 0.00080587 0.25927 -0.19777 0.00035254 0.0015474
-0.0016666 -0.0003226 -0.00055279 -0.00099258
0.0029148 -0.001156 -0.0013414 -0.00057815 0.00034049 0.001567 0.24549 0.00070616
-0.0048702 0.0074444 0.0011773 -0.0019698
-0.0017834 -0.00046368 -0.00079712 -6.8326e-05 -0.0016707 -0.00031382 -0.0048636 0.0074539
0.22042 0.11932 -0.00037897 0.0088815
0.0006004 0.00051732 -0.00091802 -0.00042916 -0.00053231 -0.0010077 0.0012004 -0.0019676
-0.00039291 0.008887 0.26463 0.16705
1760000000 0.27713 -0.074195 0.0042261 0.0065842 -0.0021965 0.00082663 0.0012932 -0.0032985
-0.0010599 0.00058529 0.0003719 -0.00048217
0.0042054 0.0065805 0.25 0.20037 0.0017677 -0.00090527 -0.0011207 0.00014381
-0.0011887 0.00084905 -0.00063673 0.0005515
-0.0022071 0.00083328 0.0017681 -0.00091645 0.21029 -0.23037 0.001139 0.0012573
-0.0011417 0.0013381 -0.0012756 -0.00046967
0.0012818 -0.0033081 -0.0011316 0.000155 0.0011307 0.0012564 0.23519 -0.051862
-0.0021053 0.0070787 -0.00045659 -0.002105
-0.0010655 0.00059795 -0.0011722 0.00085661 -0.0011421 0.0013429 -0.0020875 0.0070931
0.23548 0.082601 0.0032753 0.0064473
0.00037783 -0.00046546 -0.00063173 0.00055471 -0.0013135 -0.00048387 -0.00052299 -0.0021209
0.0032618 0.0064369 0.27652 0.12915
1820000000 0.25142 -0.11109 0.0046265 0.0029773 -7.1226e-05 0.0023271 -0.0009294 -0.0031019
-0.00087619 0.0006327 -1.0619e-05 -0.00016573
0.0046214 0.0029834 0.25952 0.16992 -0.00017636 2.5667e-05 -0.0013799 0.00084234
-0.0001888 0.0013772 -0.00054977 0.00054704
-6.3994e-05 0.0023282 -0.00018263 3.0477e-05 0.16018 -0.24594 0.0015327 0.00043542
-0.00047889 0.0021363 -0.0015243 0.00052003
-0.00094988 -0.0031022 -0.0013785 0.00085343 0.001538 0.00043736 0.20344 -0.099072
-0.00084085 0.0059572 -0.0015946 -0.0013378
-0.00086914 0.00064087 -0.00017679 0.0013814 -0.00046123 0.0021369 -0.00082754 0.0059621
0.25205 0.051308 0.0042376 0.0032669
-1.1416e-05 -0.00016446 -0.00054216 0.00055448 -0.0015043 0.00051389 -0.0015539 -0.0013335
0.0042595 0.0032655 0.27784 0.092634
1880000000 0.21553 -0.1506 0.0026162 0.00063349 -0.0004002 0.0021987 -0.0028366 -0.0022262
-0.00031284 0.0014606 0.00037185 -0.00056919
0.0026185 0.00064108 0.26336 0.12323 -0.0021399 0.0016622 -0.00022383 0.001685
0.00059882 0.0014085 0.00020076 0.00098504
-0.00039074 0.0022093 -0.0021341 0.0016882 0.10807 -0.25528 0.0020472 -0.00096547
0.0013262 0.0021095 -0.00086849 0.0013902
-0.0028425 -0.0022217 -0.00020645 0.0016915 0.0020487 -0.00095492 0.1612 -0.13831
-0.00047609 0.0047121 -0.0022475 0.00068847
-0.00029867 0.0014579 0.0006135 0.001404 0.0013172 0.0021155 -0.00045754 0.0047008
0.25352 0.016572 0.0039937 0.0013673
0.00036711 -0.00054432 0.00021326 0.00098755 -0.00087129 0.0013502 -0.0022463 0.00067916
0.0039933 0.0013815 0.27684 0.058545
1940000000 0.17571 -0.1753 0.00045474 -0.0013395 0.0013887 0.0018746 -0.0037761 0.00053757
0.0011103 0.0011276 -0.00053963 -0.00065753
0.00045747 -0.0013425 0.26334 0.091405 -0.0010757 0.0038113 0.0009505 0.0014191
0.0019818 0.000608 0.00092856 0.00027813
0.001391 0.0018695 -0.001054 0.0038189 0.061925 -0.24878 0.00043539 -0.0021984
0.0024387 0.00064075 0.00039873 0.0016486
-0.0037777 0.00055881 0.00095549 0.0014181 0.000428 -0.0022112 0.1079 -0.16725
-0.0016304 0.0039713 -0.0010581 0.0017019
0.0011108 0.0011288 0.0019963 0.0005939 0.0024418 0.00062354 -0.0015938 0.0039874
0.2529 -0.024368 0.0030835 -0.001558
-0.00057311 -0.00065081 0.00093574 0.00028607 0.00046752 0.0016499 -0.0010677 0.0017406
0.0030797 -0.0015575 0.26503 0.022471
2000000000 0.12952 -0.18881 -0.0035094 0.00055695 0.0025212 0.001572 -0.0022528 0.0036611
0.001049 0.00039999 -0.00068702 0.00041748
-0.0035046 0.00055385 0.24865 0.056094 -0.0008065 0.0056371 0.0016791 0.00031063
0.0015452 -0.0014605 0.0005661 0.00016331
0.0025255 0.0015626 -0.00076699 0.0056588 0.018685 -0.23389 -0.0014439 -0.0014235
0.0021347 -0.0011144 0.001745 0.001218
-0.0022334 0.0036947 0.0017101 0.00030789 -0.0014348 -0.0014519 0.054642 -0.17542
-0.0029298 0.0045417 0.0003517 0.002243
0.0010536 0.00039786 0.0015333 -0.0014791 0.0021327 -0.0011226 -0.002941 0.0045524
