!Keysight Technologies,M9804A,MY58100912,A.14.10.03
!Date: Thursday, April 27, 2023 10:28:33
!Correction: S11(C  6-Port  ) 
!S12(C  6-Port  ) 
!S13(C  6-Port  ) 
!S14(C  6-Port  ) 
!S15(C  6-Port  ) 
!S16(C  6-Port  ) 
!S21(C  6-Port  ) 
!S22(C  6-Port  ) 
!S23(C  6-Port  ) 
!S24(C  6-Port  ) 
!S25(C  6-Port  ) 
!S26(C  6-Port  ) 
!S31(C  6-Port  ) 
!S32(C  6-Port  ) 
!S33(C  6-Port  ) 
!S34(C  6-Port  ) 
!S35(C  6-Port  ) 
!S36(C  6-Port  ) 
!S41(C  6-Port  ) 
!S42(C  6-Port  ) 
!S43(C  6-Port  ) 
!S44(C  6-Port  ) 
!S45(C  6-Port  ) 
!S46(C  6-Port  ) 
!S51(C  6-Port  ) 
!S52(C  6-Port  ) 
!S53(C  6-Port  ) 
!S54(C  6-Port  ) 
!S55(C  6-Port  ) 
!S56(C  6-Port  ) 
!S61(C  6-Port  ) 
!S62(C  6-Port  ) 
!S63(C  6-Port  ) 
!S64(C  6-Port  ) 
!S65(C  6-Port  ) 
!S66(C  6-Port  ) 
!S6P File: Measurement: :
# Hz S  RI   R 50
500000000 -0.3388 -0.017889 -0.010433 -0.0037807 -0.0072326 0.012219 -0.0042639 0.010722
0.012989 0.0040461 -0.0041501 0.0061666
-0.010239 -0.0027862 -0.41951 -0.036011 0.0062206 -0.011926 0.0012323 0.011376
0.0073756 0.0025244 0.0012105 0.01229
-0.0070618 0.012492 0.0062638 -0.011788 -0.26219 0.22302 0.0067998 0.0035164
-0.00088522 0.008408 0.0017619 0.011864
-0.0023231 0.012181 0.0013451 0.011696 0.0069074 0.0032901 -0.33124 0.062499
-0.018786 -0.0059743 0.014898 0.023227
0.01351 0.0042842 0.0074267 0.002169 -0.000946 0.0084234 -0.018374 -0.0057131
-0.23583 -0.16449 -0.02518 0.0039469
-0.0011954 0.0065445 0.0015572 0.012531 0.0017964 0.011474 0.014954 0.023053
-0.025037 0.0034383 -0.28524 -0.077606
560000000 -0.31051 0.13843 -0.026495 -0.059891 0.00038623 0.011069 0.0066767 0.0093727
0.0090953 0.0040058 0.011646 0.0070204
-0.028164 -0.061075 -0.37508 0.11942 -0.042913 -0.035394 0.013837 0.0036472
-0.01235 -0.002702 0.004698 -0.00058681
0.0016582 0.010668 -0.042925 -0.035101 -0.17925 0.26728 -0.00069985 -0.0053286
0.017336 0.004096 0.0066769 -0.0071431
0.0056526 0.0081032 0.013888 0.0034097 -0.00032523 -0.0049355 -0.30333 0.15032
0.0035383 -0.02555 0.0031263 -0.017623
0.0086289 0.0035572 -0.011858 -0.0026474 0.017418 0.0033314 0.0027854 -0.02582
-0.28574 0.0055738 0.0034761 -0.048007
0.0088668 0.0060044 0.0039349 -0.00060028 0.0067859 -0.0068752 0.0032212 -0.017367
0.0034757 -0.047989 -0.32959 0.063072
620000000 -0.26977 0.12381 -0.023078 0.006883 0.0041476 0.0077808 0.0082359 -0.0052872
0.0093021 -0.0020996 0.00059675 -0.0026471
-0.023191 0.0071254 -0.40117 0.074023 -0.019572 8.4198e-05 -0.00073396 -0.0024767
0.0096761 -0.0070444 0.0012239 -0.003438
0.0042021 0.0081528 -0.019564 0.00021775 -0.14847 0.277 -6.7199e-05 -0.0046078
-0.0044625 -0.0039778 0.009119 -0.0035492
0.0078214 -0.0046975 -0.00083069 -0.0024312 -0.00018789 -0.0044846 -0.26168 0.16064
-0.03881 -0.018127 0.01246 0.021678
0.010827 -0.0011504 0.0098088 -0.0067043 -0.0043731 -0.0041766 -0.039034 -0.01826
-0.21133 -0.025633 -0.037871 0.014812
0.00075887 -0.0026254 0.0011631 -0.0035543 0.0091214 -0.0033008 0.012441 0.021886
-0.038112 0.014493 -0.25449 0.031721
680000000 -0.22648 0.20507 -0.027698 -0.011749 0.0053372 0.0045803 0.00097338 -0.0071319
-0.0035293 -0.010428 0.0040539 -0.0065656
-0.027484 -0.011925 -0.38404 0.16863 -0.032402 0.00069239 -0.0017335 -0.00058661
-0.0027087 -0.0084503 -0.00178 -0.002357
0.0053835 0.0045841 -0.032386 0.00073422 -0.098522 0.2949 -0.0010691 -0.00047269
-0.0015138 0.00064394 -0.0040759 -0.0092206
0.0012441 -0.0074801 -0.001666 -0.00068714 -0.0010163 -0.00038419 -0.21669 0.2072
-0.025384 -0.0048492 -0.0093742 -0.0087575
-0.0036617 -0.011198 -0.0028291 -0.008597 -0.0016448 0.00047959 -0.025403 -0.0046848
-0.24777 0.067627 -0.0062697 -0.0074839
0.0035174 -0.0070081 -0.0016025 -0.0021783 -0.0040376 -0.0092632 -0.0094581 -0.0087514
-0.0065 -0.0074492 -0.2538 0.12454
740000000 -0.18398 0.19908 -0.036807 0.025768 0.01202 -0.0058516 -0.00059157 -0.0034842
-0.0044822 -0.0029817 -0.0062824 0.0032406
-0.036648 0.026104 -0.33251 0.18859 -0.032692 0.034938 -0.00085006 -0.0054787
-0.011741 0.0064683 -0.0016143 -0.0039001
0.012002 -0.0058532 -0.032756 0.0348 -0.064708 0.29484 -0.0017414 0.0034956
-0.0028057 -0.0052403 -0.0024937 0.0022335
-0.0008176 -0.0035431 -0.0011235 -0.0053003 -0.0017616 0.0035011 -0.19938 0.21664
-0.041058 -0.0025659 0.02099 0.012289
-0.0044387 -0.0032562 -0.011519 0.0065848 -0.0031686 -0.0050819 -0.041281 -0.0027586
-0.15836 0.0878 -0.038366 0.0032038
-0.0063166 0.0031926 -0.0021712 -0.0038431 -0.0024398 0.0023568 0.021128 0.012201
-0.038066 0.002941 -0.2417 0.13831
800000000 -0.14982 0.23746 -0.021463 0.017741 0.0043642 -0.010294 -0.004718 -0.0018282
-0.0034085 0.0035901 0.0033714 0.00047475
-0.021418 0.01757 -0.33262 0.25652 -0.0066238 0.033572 -0.0025745 0.0022691
-0.00030192 0.0038626 0.00095434 0.0051674
0.0046404 -0.010204 -0.0064407 0.033592 -0.021903 0.31623 0.00090676 0.0015516
0.00061303 0.0036281 -0.0019149 0.00076825
-0.0047192 -0.0013912 -0.0023606 0.0021819 0.00094559 0.001532 -0.16833 0.24277
-0.027273 0.015954 0.012328 -0.0099122
-0.0035089 0.0034494 -0.00043952 0.0040742 0.00045859 0.0035014 -0.027403 0.016211
-0.19342 0.11709 -0.015818 0.018998
0.0040618 0.0012331 0.0014162 0.005373 -0.0019129 0.00078988 0.012307 -0.0098379
-0.015803 0.019116 -0.22764 0.18145
860000000 -0.11529 0.25652 -0.015984 0.030932 -0.0038598 -0.009351 -0.0025325 0.0014759
0.0044979 0.0048661 -0.0025581 -0.0019697
-0.015804 0.031065 -0.28532 0.29701 0.0092459 0.032895 0.000401 0.0024064
0.0039864 0.00046542 0.0037665 0.00061618
-0.0039161 -0.0094024 0.0092671 0.032885 0.027098 0.32313 -0.00029567 -3.2296e-05
0.0024565 -0.0010032 0.0015887 0.0041644
-0.0019914 0.0013891 0.00023533 0.0025743 -0.00039803 -1.5102e-05 -0.13175 0.25354
-0.015729 0.021112 -0.0051944 -0.0090753
0.0043092 0.0044521 0.0040012 0.00031828 0.0026073 -0.0010698 -0.015534 0.020855
-0.14233 0.16301 -0.022166 0.016307
-0.0025875 -0.0026426 0.0034479 0.00069081 0.0015069 0.0041935 -0.0050347 -0.0090652
-0.022275 0.016187 -0.17907 0.22142
920000000 -0.088494 0.27873 0.0064172 0.036894 -0.0092101 -0.0035839 -0.0012607 0.0020553
0.0015585 0.0015287 0.0028705 -0.0019295
0.0063205 0.03692 -0.25455 0.31721 0.028138 0.020118 0.0017443 0.00085698
0.0071045 -0.0007172 0.0034687 -0.0032024
-0.009157 -0.0035072 0.028235 0.020047 0.074423 0.32276 0.002006 -7.1224e-05
0.0014921 -0.00065909 0.00096963 -0.0012048
-0.0015168 0.0022103 0.0017781 0.00085038 0.0020175 -0.00011267 -0.10555 0.26881
-0.0072771 0.030828 0.0020538 -0.0062278
0.0019572 0.0020389 0.0072149 -0.00071777 0.0015225 -0.00046237 -0.0071988 0.031046
-0.12655 0.16738 0.00027001 0.024709
0.0026952 -0.0013608 0.0036124 -0.0033372 0.00099475 -0.0012407 0.002001 -0.0062977
0.00035829 0.02482 -0.17848 0.23597
980000000 -0.040969 0.29617 0.018918 0.028265 -0.0081625 0.0047572 0.0021841 0.0029521
0.0038803 -0.0021647 -0.0031656 -0.0022556
0.018883 0.028262 -0.20233 0.34971 0.032294 0.0029517 0.0019487 -0.00039893
0.0014173 -0.0062628 -0.0005595 -0.0022602
-0.0081704 0.0047365 0.032281 0.0029168 0.12129 0.31469 0.00044446 -0.0014186
0.00011531 -0.0024057 0.0013801 -8.7372e-05
0.0024742 0.0030059 0.0019985 -0.00039672 0.00044291 -0.0014018 -0.066426 0.27883
0.010725 0.028027 -0.0088486 -0.0060685
0.0040958 -0.0022861 0.0014253 -0.0062385 8.9212e-05 -0.002435 0.010772 0.027927
-0.096757 0.19149 0.006892 0.01788
-0.0032887 -0.0024664 -0.00066133 -0.0022889 0.0013773 -6.4116e-05 -0.0088021 -0.0059303
0.0067182 0.017917 -0.13418 0.27592
1040000000 0.0021092 0.30326 0.032909 0.015645 -0.00099195 0.0065792 0.0023975 0.0005602
0.00013351 -0.0034529 -0.00088419 -0.0012966
0.03289 0.015555 -0.16627 0.36248 0.027409 -0.01567 0.0013732 -0.0018185
-0.0022377 -0.0025093 -0.0017682 -0.0028819
-0.00094615 0.0065874 0.027392 -0.015734 0.1679 0.29943 -0.00065554 -0.0014399
-0.0016035 -0.00085555 -0.00029724 -0.001258
0.0024007 0.00049038 0.001393 -0.0017826 -0.00065824 -0.0014522 -0.037226 0.28756
0.021003 0.014988 -0.0025571 0.001776
-0.00017667 -0.003382 -0.0024931 -0.0023485 -0.001588 -0.00088215 0.020916 0.015024
-0.063029 0.19709 0.012637 0.015446
-0.00086145 -0.0013718 -0.0015222 -0.0029235 -0.00031951 -0.0012323 -0.0025664 0.001709
0.012853 0.015323 -0.10689 0.29337
1100000000 0.047599 0.3092 0.034297 -0.0058725 0.0027844 0.0036231 0.002226 -0.0011548
-0.0022976 -0.0027751 -0.0035557 0.0002741
0.034304 -0.005905 -0.12284 0.37859 0.013291 -0.027355 -8.9521e-05 -0.0018714
-0.00354 -0.00041164 -0.0033322 -0.00035048
0.0027441 0.0035604 0.013201 -0.027428 0.21434 0.27721 -0.0017887 0.0001724
-0.0018115 0.00059878 -0.00097199 -0.00025791
0.0022634 -0.0010962 -8.483e-05 -0.0018262 -0.0017945 0.00018628 0.0040309 0.29006
0.024009 0.0021597 -0.0020573 0.00031577
-0.0020534 -0.0026896 -0.0034315 -0.00051336 -0.0018302 0.00060869 0.024094 0.0020698
-0.045324 0.20839 0.018474 0.0066332
-0.0035351 0.00041798 -0.0033775 -0.00027081 -0.00096174 -0.00026959 -0.0021504 0.00034379
0.018234 0.0066621 -0.060885 0.31624
1160000000 0.098818 0.30284 0.021883 -0.021519 0.0023259 -0.0004973 -0.00011489 -0.0021486
-0.0038032 -0.00035566 -0.00062989 0.0037837
0.021929 -0.021471 -0.078127 0.3819 -0.005064 -0.027722 -0.0016513 -0.0014115
-0.0022818 0.0022631 -0.0014155 0.0016752
0.0023028 -0.00048495 -0.0051363 -0.027706 0.25682 0.24473 -0.00068248 0.0016572
-0.00047004 0.0018261 -0.00084793 0.0002328
-0.00011547 -0.0021043 -0.0016656 -0.0013882 -0.00068653 0.0016505 0.043882 0.28474
0.019561 -0.012251 -0.0030878 0.0041156
-0.0040183 -0.00042982 -0.0023861 0.0024278 -0.0004419 0.001794 0.01948 -0.012296
-0.011047 0.21629 0.016979 -0.0019789
-0.00054541 0.0036956 -0.001277 0.0016835 -0.00085553 0.00026591 -0.00286 0.004213
0.016961 -0.0019571 -0.014221 0.31757
1220000000 0.14352 0.28932 0.0082153 -0.029402 -0.0015884 -0.00041399 -1.1489e-05 -0.00094334
-0.0023544 0.0023413 0.0012816 0.0018817
0.0082505 -0.029355 -0.034035 0.39222 -0.017041 -0.019446 -0.0024456 0.00047828
0.00015042 0.0028117 -0.000546 0.0018272
-0.0015553 -0.00047409 -0.017115 -0.019405 0.2952 0.2041 0.00070065 0.0017876
0.00059271 0.0011818 0.00027303 0.00056069
-1.8142e-05 -0.00084172 -0.0024284 0.00048608 0.00070027 0.0017748 0.083796 0.27337
0.008848 -0.01811 0.0014434 0.0015187
-0.0024378 0.0023626 0.00018517 0.0028015 0.00056475 0.0012111 0.008815 -0.018175
0.0129 0.22253 0.011451 -0.01336
0.00138 0.0018552 -0.00059762 0.0018756 0.0002902 0.00052444 0.0013663 0.0014748
0.011519 -0.013416 0.019609 0.32822
1280000000 0.19216 0.26564 -0.0092132 -0.026835 -0.0014862 0.0026677 -0.00092321 -0.0018642
-0.00061737 0.0028402 0.0023158 0.00077675
-0.0091663 -0.026826 0.011512 0.38244 -0.022942 -0.0072803 -0.00089491 0.0013913
0.0015742 0.0015916 0.00076404 0.0017478
-0.0015034 0.0027027 -0.022986 -0.0071843 0.32454 0.1592 0.0015739 6.9217e-05
0.00088388 0.0002367 0.00018024 0.00018276
-0.00097791 -0.001911 -0.00089892 0.0014148 0.0015888 9.8013e-05 0.11954 0.25466
-0.00075642 -0.019488 -0.00041776 0.00059296
-0.00057778 0.0028823 0.0015595 0.0016464 0.00093563 0.00021979 -0.00089299 -0.019411
0.049492 0.22358 0.0011905 -0.014374
0.0023533 0.00084421 0.00078948 0.0017834 0.00014832 0.00022114 -0.00045578 0.00062045
0.0010153 -0.01452 0.065733 0.32567
1340000000 0.22864 0.23 -0.017934 -0.017033 0.0013425 0.0041686 -0.0017119 -0.00084848
0.0014522 0.0024725 0.0014806 -0.0014414
-0.017945 -0.017025 0.050914 0.37287 -0.020432 0.0048121 -9.9509e-05 0.0019494
0.0018896 0.00063926 0.00125 0.00064808
0.0013384 0.0041633 -0.02041 0.0048844 0.34559 0.11087 0.001212 -0.0010117
0.00067217 -0.00040446 0.00015042 0.00013181
-0.0016854 -0.00078739 -9.0517e-05 0.0019721 0.0012337 -0.0010204 0.15107 0.23205
-0.0098193 -0.015792 0.00056013 0.00095696
0.0014695 0.0023929 0.0018875 0.00060775 0.00069131 -0.00042918 -0.0098218 -0.01582
0.079085 0.21686 -0.0051564 -0.012626
0.0014405 -0.0014582 0.0012238 0.00061225 0.00017055 0.00011381 0.00066606 0.00098983
-0.0050465 -0.01264 0.10395 0.31713
1400000000 0.25997 0.19026 -0.022522 -0.005837 0.0051157 0.0026124 -0.0020366 0.00066156
0.0023664 0.00068446 8.1118e-06 -0.0013661
-0.022507 -0.0058507 0.087257 0.35914 -0.0137 0.012171 0.0013277 0.0013802
0.0010965 -0.0007829 0.0010928 6.699e-05
0.005148 0.0025544 -0.013677 0.012238 0.35797 0.056691 0.000139 -0.0017873
5.0487e-05 -0.00033648 0.00040997 0.0002247
-0.0020683 0.00064542 0.0013221 0.0013801 0.00014552 -0.0018018 0.17869 0.20141
-0.01526 -0.0088553 -0.00027658 0.0003218
0.0023613 0.00071858 0.0011044 -0.00077544 1.7081e-05 -0.00037008 -0.015227 -0.0087239
0.11083 0.21001 -0.010382 -0.0072562
3.1164e-05 -0.0013662 0.0011319 4.6612e-05 0.00040525 0.00023502 -0.00025293 0.00024897
-0.01043 -0.0073136 0.14664 0.30208
1460000000 0.28136 0.14578 -0.019141 0.0054908 0.005349 -0.0022404 -0.0014942 0.0016023
0.0018825 -0.00070628 -0.00045876 -0.00088966
-0.019163 0.0054638 0.12124 0.33679 -0.0055458 0.01454 0.001772 0.00011241
0.00078486 -0.0012954 0.0009767 -0.00053557
0.0052813 -0.0022211 -0.00548 0.014568 0.36302 0.0019935 -0.001453 -0.001331
5.1585e-05 -0.00023844 0.00063645 -0.00027199
-0.0015192 0.0017173 0.0018166 0.00013047 -0.0014697 -0.0013087 0.20288 0.17116
-0.015899 -0.0023053 -0.00030225 0.0018579
0.0018742 -0.00062624 0.00077881 -0.0013062 8.074e-05 -0.0001617 -0.015932 -0.0023459
0.13942 0.19382 -0.011466 -0.0020304
-0.00034473 -0.00081921 0.00095649 -0.00052859 0.00064887 -0.00026248 -0.00038929 0.0019295
-0.011478 -0.001842 0.17842 0.27927
1520000000 0.29209 0.10297 -0.013355 0.010385 0.0027442 -0.0041038 0.00013504 0.0025567
0.0018854 -0.0016252 -0.0010795 -5.2744e-05
-0.013356 0.010374 0.15428 0.32118 0.0015132 0.012429 0.0016904 -0.00088604
4.8545e-06 -0.0010701 0.00028319 -0.00090463
0.0027711 -0.0040977 0.0015796 0.012412 0.35522 -0.054825 -0.0013101 -0.00024405
0.00046326 -0.00076867 4.2444e-05 -0.00016105
0.00012517 0.0024841 0.0016815 -0.00089316 -0.0012837 -0.0002648 0.2237 0.13248
-0.01489 0.0032168 0.0018156 0.0017524
0.0018074 -0.0016791 -1.3682e-05 -0.0010499 0.00050845 -0.0008079 -0.014915 0.0032395
0.16681 0.17754 -0.011375 0.002299
-0.0011362 -8.8508e-05 0.00030205 -0.00091907 2.5391e-05 -0.00015172 0.0018694 0.0017319
-0.011303 0.0022114 0.21015 0.25551
1580000000 0.29979 0.056769 -0.0070156 0.012848 -0.0011395 -0.0044412 0.0015257 0.0018264
-0.00025004 -0.002064 -0.00025255 0.00038362
-0.0070097 0.012825 0.18101 0.296 0.0048039 0.0078744 0.00040104 -0.0017675
-0.00056449 -0.0010023 -0.00018271 -0.00080581
-0.0011402 -0.004452 0.0048472 0.0078559 0.33407 -0.11219 -0.0016355 0.00090308
-0.00029793 -0.0010744 0.00025707 -0.00063925
0.0015447 0.0017741 0.000405 -0.0017488 -0.0016419 0.00089835 0.23525 0.093367
-0.01164 0.0079485 0.002357 0.00027488
-0.00019831 -0.0020352 -0.00051745 -0.0010237 -0.00033381 -0.0010801 -0.011616 0.0079996
0.18959 0.15737 -0.0088361 0.0075026
-0.00035125 0.00037911 -0.00021274 -0.00078211 0.00027153 -0.00064919 0.0023385 0.00025767
-0.0089023 0.0074764 0.23954 0.22645
1640000000 0.30054 0.01514 -0.0008988 0.011454 -0.0026907 -0.00229 0.0026444 0.00088585
-0.00079096 -0.0014358 -0.00025844 0.0006402
-0.00091638 0.011435 0.21021 0.27023 0.0054597 0.0035341 -0.00090136 -0.0016711
-0.00099279 -0.00035637 -0.00056766 -0.00051891
-0.0027167 -0.0022659 0.0054813 0.0035127 0.30463 -0.16092 -0.00061004 0.0016221
-0.0011085 -0.00081412 -0.00017497 -8.372e-05
0.0026225 0.00094657 -0.00091029 -0.0016684 -0.00062889 0.0016228 0.24541 0.045504
-0.0074641 0.0095676 0.0023262 -0.0010352
-0.00076382 -0.0014707 -0.0010488 -0.00036282 -0.0011687 -0.00084091 -0.0074592 0.0096497
0.21045 0.13136 -0.0041786 0.0093029
-0.0001827 0.00066961 -0.00053986 -0.00052456 -0.0001741 -6.851e-05 0.002327 -0.0010763
-0.0042348 0.0092859 0.26319 0.19355
1700000000 0.29167 -0.03021 0.0021353 0.0087324 -0.0033005 0.00029587 0.0028857 -0.0012843
-0.001933 -0.00065524 0.00056592 0.00041758
0.0021296 0.0087044 0.22759 0.23832 0.0036989 0.00074136 -0.0015358 -0.00043403
-0.00081654 0.00017211 -0.00089505 -0.00039256
-0.0032971 0.00031567 0.0037349 0.00072175 0.26109 -0.20065 0.00066056 0.0014924
-0.0018621 -0.00021035 -0.00062822 -0.00069266
0.0028967 -0.0013074 -0.0015461 -0.000439 0.00065134 0.0015411 0.24086 -0.002871
-0.0042774 0.010359 0.0012732 -0.0023029
-0.0019384 -0.00062661 -0.00077472 0.00021889 -0.0018732 -0.00016413 -0.0041621 0.010337
0.22607 0.1097 0.0002122 0.0093871
0.00066907 0.00045015 -0.00089864 -0.00038292 -0.00061319 -0.00068784 0.0012038 -0.0022581
0.00023042 0.0095034 0.277 0.15761
1760000000 0.27838 -0.078365 0.0040716 0.0055811 -0.0021336 0.00085099 0.00098507 -0.0033884
-0.001482 0.00071066 0.00053512 -0.00043049
0.0040823 0.0055752 0.25298 0.19777 0.0016894 -0.0011205 -0.0011897 0.00036093
-0.00096767 0.00086559 -0.00050077 0.0005146
-0.0021833 0.00084624 0.0016892 -0.0011196 0.21222 -0.23398 0.0013352 0.00094536
-0.0011609 0.0016465 -0.0011006 -0.0003683
0.0010151 -0.0033804 -0.0011646 0.00038653 0.0013908 0.00092238 0.23097 -0.052384
-0.00060186 0.009639 -0.0006203 -0.002326
-0.0013641 0.00073566 -0.0009953 0.00091008 -0.0010908 0.0016306 -0.00060277 0.0095778
0.23891 0.073693 0.0037655 0.0066903
0.00043696 -0.00050373 -0.00053068 0.0005684 -0.0011223 -0.00038947 -0.00051556 -0.0023597
0.0038438 0.0066583 0.28748 0.11897
1820000000 0.25228 -0.11527 0.0041247 0.0022356 0.00013561 0.0023664 -0.0011191 -0.0028653
-0.00098784 0.0010652 -0.00013057 -0.00012737
0.0041011 0.0022324 0.26196 0.1673 -0.00013185 5.1682e-05 -0.0010317 0.0010472
8.2616e-05 0.0012735 -0.00044904 0.00046299
7.8051e-05 0.0023651 -0.00013752 5.7029e-05 0.16108 -0.24899 0.0012675 -0.00010287
-3.3511e-05 0.002114 -0.001379 0.00052304
-0.001203 -0.0027804 -0.0010796 0.0010463 0.0011853 -7.0998e-05 0.20114 -0.097512
0.0015069 0.0077483 -0.0016172 -0.0012165
-0.0010114 0.0011015 7.4256e-05 0.0012821 -7.3544e-05 0.0021853 0.001463 0.0077444
0.25399 0.043352 0.0045898 0.0034733
-6.773e-05 -6.5237e-05 -0.00042826 0.0005012 -0.0013236 0.0005326 -0.0016918 -0.0012512
0.0045687 0.0034449 0.28745 0.081383
1880000000 0.21584 -0.1546 0.0018069 0.00013786 -0.00035823 0.0018599 -0.0028022 -0.0018944
-0.00010453 0.0017225 0.00027542 -0.00050388
0.0017966 0.00014001 0.26562 0.12054 -0.0022519 0.0015997 4.1548e-06 0.0015688
0.00067575 0.0010509 0.00021789 0.00089749
-0.00037728 0.0019017 -0.0022377 0.0016117 0.10809 -0.25876 0.0014371 -0.0010565
0.0016035 0.0016399 -0.00071123 0.0014087
-0.0029633 -0.0018345 4.7549e-05 0.0016076 0.0014073 -0.00099486 0.16138 -0.13642
0.0023152 0.0054359 -0.0021603 0.00064492
-0.00020906 0.0017076 0.00069028 0.0010639 0.0016288 0.0016959 0.0023179 0.0055489
0.25472 0.010038 0.0043073 0.001584
0.00028313 -0.0002963 0.00022837 0.0008689 -0.0006962 0.0014361 -0.0021368 0.00069302
0.0042567 0.0015681 0.28482 0.047627
1940000000 0.17589 -0.17953 -0.00046175 -0.001249 0.0014097 0.0018581 -0.0036235 0.00079554
0.0013722 0.0011507 -0.00051221 -0.00062247
-0.00049451 -0.0011865 0.26505 0.088676 -0.0010333 0.0038996 0.00093873 0.0011006
0.0016623 0.00034105 0.00082739 0.00030955
0.0013398 0.0018346 -0.0010214 0.0038822 0.062097 -0.25126 6.2157e-05 -0.0016325
0.0022066 0.00017028 0.00043246 0.0015947
-0.0034483 0.00069993 0.00095058 0.0010119 0.00016869 -0.0016645 0.1103 -0.16679
0.0015834 0.0036039 -0.001224 0.0016382
0.00161 0.0010793 0.0016803 0.00028848 0.0022112 0.00018454 0.0016353 0.003546
0.25405 -0.029757 0.0034071 -0.0012534
-0.00056934 -0.00075403 0.00080044 0.00026696 0.00043712 0.0015768 -0.0012519 0.001607
0.0034271 -0.0012638 0.27226 0.010482
2000000000 0.12908 -0.19346 -0.0040947 0.0010146 0.0024583 0.0014598 -0.0023396 0.0032615
0.0012142 -0.00018387 -0.00066239 0.00048607
-0.0040427 0.00094481 0.2501 0.053347 -0.00080275 0.0057152 0.0014438 0.00023194
0.0011921 -0.0012469 0.00044584 4.9938e-05
0.0024465 0.0013991 -0.0007939 0.0056677 0.018314 -0.23623 -0.0010613 -0.00097393
0.001804 -0.001092 0.0015976 0.00097944
-0.0021593 0.0031957 0.0014276 0.0002625 -0.0011297 -0.0011204 0.057932 -0.17748
4.7347e-05 0.0028182 0.00015045 0.0019074
0.0012342 -0.00025383 0.0011963 -0.0012235 0.0016536 -0.0011924 7.5196e-05 0.0027637
0.24592 -0.063703 0.00055169 -0.0025433
