!Keysight Technologies,M9804A,MY58100912,A.14.10.03
!Date: Thursday, April 27, 2023 10:28:33
!Correction: S11(C  6-Port  ) 
!S12(C  6-Port  ) 
!S13(C  6-Port  ) 
!S14(C  6-Port  ) 
!S15(C  6-Port  ) 
!S16(C  6-Port  ) 
!S21(C  6-Port  ) 
!S22(C  6-Port  ) 
!S23(C  6-Port  ) 
!S24(C  6-Port  ) 
!S25(C  6-Port  ) 
!S26(C  6-Port  ) 
!S31(C  6-Port  ) 
!S32(C  6-Port  ) 
!S33(C  6-Port  ) 
!S34(C  6-Port  ) 
!S35(C  6-Port  ) 
!S36(C  6-Port  ) 
!S41(C  6-Port  ) 
!S42(C  6-Port  ) 
!S43(C  6-Port  ) 
!S44(C  6-Port  ) 
!S45(C  6-Port  ) 
!S46(C  6-Port  ) 
!S51(C  6-Port  ) 
!S52(C  6-Port  ) 
!S53(C  6-Port  ) 
!S54(C  6-Port  ) 
!S55(C  6-Port  ) 
!S56(C  6-Port  ) 
!S61(C  6-Port  ) 
!S62(C  6-Port  ) 
!S63(C  6-Port  ) 
!S64(C  6-Port  ) 
!S65(C  6-Port  ) 
!S66(C  6-Port  ) 
!S6P File: Measurement: :
# Hz S  RI   R 50
500000000 -0.3392 -0.017178 -0.010718 -0.0033256 -0.0072225 0.012221 -0.0030585 0.012019
0.011412 0.0037306 -0.0024731 0.0079508
-0.010699 -0.0033254 -0.41945 -0.035249 0.0065004 -0.01188 0.0019862 0.012593
0.0065871 0.0021974 0.0023584 0.013678
-0.0072102 0.012207 0.0064866 -0.011891 -0.26226 0.22297 0.007407 0.0036617
-0.00071722 0.0082961 0.0025873 0.011919
-0.0030544 0.012016 0.0020011 0.012608 0.007399 0.0036599 -0.33024 0.063445
-0.01903 -0.0065607 0.015309 0.023604
0.011419 0.0037156 0.0065838 0.002196 -0.00070802 0.0083025 -0.019039 -0.0065414
-0.23698 -0.16262 -0.024512 0.0044004
-0.0024645 0.0079582 0.0023635 0.013664 0.0025926 0.011911 0.015298 0.023597
-0.024515 0.0043854 -0.28465 -0.077436
560000000 -0.31101 0.13797 -0.026864 -0.060519 0.00078708 0.011405 0.0057379 0.0094722
0.0088668 0.0041097 0.010444 0.0064001
-0.026808 -0.060443 -0.37488 0.11942 -0.042294 -0.034957 0.013341 0.0032911
-0.012347 -0.0038019 0.0031405 -0.0011176
0.0008236 0.011398 -0.042372 -0.034924 -0.17957 0.26739 -0.00053347 -0.0045369
0.01843 0.0034805 0.0068429 -0.0066496
0.0057491 0.0094618 0.013335 0.0033008 -0.00051386 -0.0045313 -0.3037 0.14879
0.00050899 -0.024377 0.0030022 -0.018309
0.0088914 0.0040947 -0.012398 -0.0037862 0.018455 0.0034337 0.00047986 -0.024378
-0.28657 0.0098964 0.0032034 -0.045908
0.01045 0.006395 0.0031426 -0.0011558 0.0068279 -0.0066302 0.0030127 -0.0183
0.0032182 -0.045916 -0.32953 0.060097
620000000 -0.27019 0.12352 -0.023309 0.0068742 0.0038172 0.0080635 0.0075317 -0.0054949
0.010439 -0.0014379 0.00042216 -0.0025124
-0.023294 0.0068588 -0.40114 0.07423 -0.019712 0.00013378 -0.00098119 -0.0022245
0.0098126 -0.0066155 0.0013258 -0.0028298
0.0038353 0.0080573 -0.019729 0.00017522 -0.14917 0.27669 -0.001126 -0.0047677
-0.0037847 -0.0027143 0.0080131 -0.0037066
0.0075263 -0.0054989 -0.00098048 -0.0022291 -0.0011165 -0.0047821 -0.2623 0.16057
-0.038977 -0.017299 0.012048 0.022637
0.01045 -0.0014866 0.0097975 -0.0066187 -0.0038121 -0.0026716 -0.038979 -0.017283
-0.21071 -0.02768 -0.038527 0.014611
0.00045877 -0.0024752 0.0013285 -0.0028182 0.0080487 -0.0037163 0.012075 0.022625
-0.038518 0.014597 -0.25575 0.032135
680000000 -0.22693 0.20496 -0.02798 -0.01204 0.0053191 0.0045148 0.0007956 -0.0070758
-0.003292 -0.010953 0.0038991 -0.0065306
-0.027945 -0.012043 -0.38414 0.16839 -0.032317 0.00057923 -0.0014958 -0.00056641
-0.0027076 -0.0087684 -0.0016143 -0.0021102
0.0053322 0.0045079 -0.032333 0.00063211 -0.098372 0.2949 -0.00087258 -0.00033057
-0.0017339 0.00020814 -0.0036258 -0.0085902
0.00079035 -0.0070489 -0.001509 -0.00057735 -0.00087393 -0.00033156 -0.21679 0.20752
-0.025455 -0.0053941 -0.0090682 -0.0084634
-0.0033062 -0.010948 -0.0027355 -0.0087657 -0.0017394 0.000223 -0.025473 -0.0053796
-0.24858 0.068962 -0.0068143 -0.007083
0.0038822 -0.0065644 -0.0016208 -0.002099 -0.003618 -0.0085809 -0.0090569 -0.0084621
-0.0068159 -0.0070888 -0.25318 0.12683
740000000 -0.18386 0.19963 -0.036658 0.026096 0.01177 -0.0058315 -0.00079862 -0.0040114
-0.0051309 -0.0027578 -0.0059117 0.0033992
-0.036657 0.026048 -0.33277 0.1879 -0.032785 0.034888 -0.00091349 -0.0060928
-0.011326 0.0079525 -0.0019425 -0.0045708
0.011758 -0.0058432 -0.032725 0.034949 -0.0645 0.29435 -0.0016875 0.003045
-0.003219 -0.0043862 -0.0021742 0.0011335
-0.00079879 -0.004014 -0.00092753 -0.0061035 -0.0016983 0.0030519 -0.1986 0.21641
-0.04188 -0.0035778 0.021342 0.012272
-0.0051208 -0.0027532 -0.01132 0.0080029 -0.003212 -0.0044127 -0.041912 -0.0035353
-0.15804 0.088743 -0.038685 0.0034549
-0.0059246 0.0034193 -0.0019544 -0.0045388 -0.0022097 0.0011312 0.021369 0.012283
-0.038698 0.0034201 -0.24054 0.13679
800000000 -0.15025 0.23679 -0.021441 0.017591 0.0044206 -0.010367 -0.0044585 -0.0016752
-0.0037975 0.0029284 0.003671 0.00073502
-0.021427 0.017583 -0.33253 0.25638 -0.006521 0.033526 -0.0022225 0.0022972
-0.00045827 0.0032985 0.0012454 0.0052654
0.0043964 -0.010368 -0.0064528 0.033544 -0.021739 0.31637 0.0008857 0.0015409
0.00041472 0.0034931 -0.0018273 0.0011649
-0.0044619 -0.0016782 -0.0022145 0.0023071 0.00088306 0.0015392 -0.16869 0.24278
-0.02672 0.016079 0.012174 -0.0099304
-0.0037958 0.0029544 -0.00045712 0.0033068 0.00041757 0.0035083 -0.02671 0.016138
-0.19404 0.11653 -0.015605 0.018513
0.0036848 0.0007465 0.0012636 0.0052593 -0.0018295 0.0011654 0.012176 -0.0099486
-0.015615 0.018484 -0.22816 0.18221
860000000 -0.11525 0.25697 -0.015863 0.031005 -0.0039705 -0.0093123 -0.0022543 0.0014276
0.0044128 0.0048315 -0.0027075 -0.0024302
-0.015844 0.030974 -0.28511 0.29718 0.0093142 0.03291 0.00027915 0.0022563
0.0047277 0.00045454 0.0032315 0.00045351
-0.003984 -0.0093041 0.0093883 0.032903 0.027108 0.32316 -0.00028099 -4.2215e-05
0.0025205 -0.0011712 0.001617 0.0040832
-0.002255 0.0014352 0.00028058 0.0022606 -0.00028578 -3.8891e-05 -0.13175 0.25361
-0.015152 0.021018 -0.0055059 -0.0089247
0.0044212 0.0048261 0.0047189 0.00042704 0.0025186 -0.0011719 -0.015131 0.021055
-0.14231 0.16196 -0.021849 0.016434
-0.0027115 -0.0024211 0.0032292 0.00043694 0.0016213 0.004083 -0.0055155 -0.0089319
-0.021857 0.016413 -0.17919 0.22205
920000000 -0.088375 0.27855 0.0063775 0.036773 -0.0091738 -0.0036205 -0.0013305 0.0019311
0.0017579 0.0016714 0.0028295 -0.001718
0.0063687 0.036745 -0.25445 0.31757 0.028128 0.020025 0.0017366 0.00098383
0.0071847 -0.00054464 0.0036762 -0.0030318
-0.0091836 -0.0036019 0.028198 0.019978 0.07448 0.32274 0.0019302 -8.7961e-05
0.0016831 -0.00054906 0.00097361 -0.0011441
-0.0013277 0.0019285 0.0017509 0.00098981 0.0019251 -7.3855e-05 -0.1056 0.2692
-0.0072246 0.030695 0.0022452 -0.006105
0.0017767 0.0016679 0.0071824 -0.00055925 0.0016823 -0.00055179 -0.0071674 0.030724
-0.12691 0.16769 -9.5568e-05 0.025021
0.0028377 -0.0017237 0.0036675 -0.0030809 0.00097703 -0.0011587 0.0022334 -0.0061151
-0.00011789 0.025015 -0.17775 0.2369
980000000 -0.041036 0.29639 0.018843 0.028299 -0.0081844 0.0047989 0.0022547 0.0030653
0.0038962 -0.0022362 -0.0032348 -0.0021201
0.018838 0.028287 -0.20231 0.34978 0.032293 0.0029756 0.0020953 -0.00038456
0.0013887 -0.0062912 -0.00073115 -0.002392
-0.0081742 0.0048073 0.032323 0.0029074 0.12127 0.31464 0.00049677 -0.0013482
5.398e-05 -0.0022547 0.0013955 -0.00030608
0.0022604 0.0030518 0.0020966 -0.00036945 0.00050054 -0.0013535 -0.066283 0.27884
0.01073 0.027954 -0.0084098 -0.00593
0.0038993 -0.0022366 0.0013516 -0.0063196 6.2187e-05 -0.0022459 0.010795 0.02795
-0.096546 0.19152 0.0061968 0.01852
-0.0032436 -0.0021149 -0.00071456 -0.0024072 0.0013936 -0.00030781 -0.008413 -0.0059268
0.0061762 0.01853 -0.13317 0.27485
1040000000 0.002247 0.30326 0.032892 0.015554 -0.00094831 0.0065971 0.0024712 0.00044855
-3.4002e-05 -0.0032344 -0.0007171 -0.0014337
0.032853 0.015556 -0.16617 0.36254 0.027405 -0.015636 0.0013512 -0.0018104
-0.0023908 -0.0023924 -0.0015643 -0.002751
-0.00094573 0.0065882 0.027387 -0.015708 0.16793 0.29948 -0.0006327 -0.0014638
-0.0015619 -0.00084884 -0.00040522 -0.0011299
0.0024696 0.00042825 0.0013647 -0.0017943 -0.00063401 -0.001462 -0.037205 0.28739
0.020818 0.015341 -0.0026611 0.0013637
-4.4229e-05 -0.0032236 -0.0024339 -0.0023846 -0.0015458 -0.00083835 0.020858 0.015306
-0.064073 0.19762 0.013778 0.01558
-0.00072593 -0.0014303 -0.0015627 -0.0027777 -0.00041206 -0.0011389 -0.0026642 0.0013636
0.013752 0.015594 -0.10734 0.29331
1100000000 0.047677 0.30909 0.034239 -0.0059608 0.0027905 0.0035779 0.0021834 -0.0011674
-0.0022196 -0.0028126 -0.0035036 0.00052792
0.034224 -0.0059266 -0.12271 0.37849 0.013291 -0.027392 -0.00014594 -0.0017926
-0.0033697 -0.00047224 -0.0033123 -0.00015044
0.0027966 0.0035667 0.013222 -0.027441 0.21432 0.27718 -0.0017975 0.00020363
-0.0017463 0.00064271 -0.00089374 -0.00027806
0.0021726 -0.0011746 -0.00013765 -0.0017972 -0.0018076 0.0002049 0.0040995 0.28993
0.024237 0.0021965 -0.0023581 0.00027611
-0.0022341 -0.0027946 -0.0033734 -0.00047377 -0.001746 0.00064622 0.024254 0.0021694
-0.044867 0.2088 0.018139 0.0061282
-0.0034978 0.00053423 -0.0033157 -0.00014673 -0.00089465 -0.00026896 -0.0023669 0.00028361
0.01813 0.0061356 -0.060709 0.31707
1160000000 0.098864 0.30274 0.02191 -0.021405 0.0023494 -0.00043652 -0.00019869 -0.0021172
-0.003929 -0.00039045 -0.00056811 0.0037139
0.02191 -0.021377 -0.078015 0.3819 -0.0050258 -0.02773 -0.0016812 -0.0014562
-0.0024443 0.0023919 -0.0012929 0.0017479
0.0023485 -0.00045475 -0.0051128 -0.027704 0.25683 0.24464 -0.00068837 0.0017245
-0.00051917 0.001801 -0.00087324 0.0001802
-0.0002043 -0.0021177 -0.0016769 -0.0014458 -0.0006893 0.0017231 0.04381 0.28468
0.019558 -0.012397 -0.0028708 0.0044819
-0.0039419 -0.00036048 -0.0024498 0.0023877 -0.00051317 0.0018072 0.019551 -0.012421
-0.011066 0.21625 0.016694 -0.001971
-0.00056365 0.0037204 -0.0012754 0.0017591 -0.00086922 0.00017143 -0.0028694 0.004496
0.016687 -0.0019618 -0.013701 0.31729
1220000000 0.14352 0.28913 0.0082182 -0.029323 -0.0015442 -0.00042035 5.6108e-05 -0.00087254
-0.0023672 0.0023641 0.0013669 0.0018469
0.0082363 -0.029287 -0.034019 0.3922 -0.017011 -0.019432 -0.0023998 0.00048688
0.00017875 0.0028055 -0.0004866 0.0018501
-0.0015443 -0.00043267 -0.017082 -0.019381 0.29518 0.20409 0.00074358 0.001781
0.00059046 0.0011916 0.00024508 0.00050565
6.5596e-05 -0.0008866 -0.0023985 0.00049532 0.0007344 0.0017795 0.08387 0.27351
0.0087203 -0.018136 0.0015856 0.0014239
-0.0023586 0.0023759 0.00018634 0.0027895 0.00059654 0.0011974 0.0087014 -0.018154
0.013133 0.22254 0.011527 -0.013239
0.0013769 0.0018448 -0.00048168 0.0018549 0.00025385 0.00050524 0.0015881 0.0014238
0.01152 -0.013242 0.019942 0.32815
1280000000 0.19207 0.26544 -0.0091116 -0.02676 -0.0014827 0.0026676 -0.00098371 -0.0019449
-0.0005536 0.0028455 0.0022902 0.00081033
-0.0090769 -0.026747 0.011495 0.38237 -0.022959 -0.0072756 -0.00092427 0.0013971
0.0016323 0.0016153 0.00072495 0.0017402
-0.0014672 0.002675 -0.022995 -0.0071947 0.32455 0.15919 0.0015893 -2.6976e-05
0.0010239 0.00020202 0.00017384 0.0002803
-0.00098879 -0.0019436 -0.00091952 0.0014006 0.0015791 -2.3619e-05 0.11967 0.25455
-0.00086046 -0.019195 -0.00032484 0.00038363
-0.0005424 0.0028472 0.0016368 0.0016143 0.0010237 0.00019468 -0.00089574 -0.019212
0.049349 0.22386 0.0013398 -0.014657
0.0022992 0.00079766 0.00072894 0.0017348 0.00017147 0.00028307 -0.00032159 0.00038569
0.0013439 -0.014654 0.0658 0.32576
1340000000 0.22844 0.22994 -0.01783 -0.017004 0.0013316 0.0041502 -0.0016888 -0.00084089
0.0014488 0.0024457 0.0014353 -0.0014516
-0.017794 -0.016995 0.050909 0.37288 -0.020406 0.0048342 -0.00012722 0.0019842
0.0018467 0.00064483 0.0012792 0.0006344
0.001339 0.0041499 -0.020392 0.0049089 0.34569 0.11081 0.0012029 -0.0009787
0.0006765 -0.0004478 0.00017277 0.00024022
-0.0016852 -0.00083548 -0.00012223 0.0019866 0.0011987 -0.00097082 0.15092 0.23208
-0.0098251 -0.015777 0.0005878 0.0009718
0.0014693 0.0024408 0.0018528 0.00064017 0.00069095 -0.0004493 -0.0098588 -0.015772
0.079259 0.21688 -0.0051409 -0.012645
0.001427 -0.0014602 0.001291 0.00063393 0.00017396 0.00024055 0.00059179 0.00096685
-0.0051344 -0.012644 0.10452 0.31695
1400000000 0.25982 0.19044 -0.022411 -0.0058758 0.0051692 0.0025785 -0.0020379 0.00059206
0.0022925 0.00068626 8.3847e-05 -0.0013441
-0.022387 -0.0058825 0.087315 0.35916 -0.013681 0.012146 0.0013048 0.0013404
0.0011276 -0.0007891 0.0010461 7.6507e-05
0.005167 0.0025616 -0.01364 0.012199 0.35799 0.056628 0.00015539 -0.0017906
8.2616e-05 -0.00034986 0.00033374 0.00016277
-0.0020449 0.00060173 0.00131 0.001339 0.00015522 -0.0017919 0.17873 0.20141
-0.015128 -0.0089518 -0.00037169 0.00030794
0.0023085 0.00067877 0.001121 -0.00079976 9.1833e-05 -0.00035498 -0.015155 -0.0089218
0.11119 0.21007 -0.010584 -0.0074619
7.5512e-05 -0.0013498 0.0010519 7.6651e-05 0.00033823 0.00015656 -0.00036881 0.00030254
-0.01058 -0.0074741 0.14677 0.30204
1460000000 0.28123 0.14587 -0.019105 0.0053574 0.00524 -0.0022139 -0.0015145 0.0016364
0.0019165 -0.00064907 -0.00042127 -0.00080333
-0.01909 0.0053412 0.12126 0.3368 -0.0055611 0.014501 0.001757 0.00015446
0.00079116 -0.0012372 0.0010272 -0.00056787
0.0052368 -0.0022307 -0.005514 0.014533 0.36296 0.0020852 -0.0014124 -0.0012912
0.00013663 -0.00016487 0.00062331 -0.00031873
-0.0015122 0.0016521 0.0017568 0.00014565 -0.0014241 -0.0012921 0.20286 0.17107
-0.01598 -0.002322 -0.00029311 0.0020312
0.0019142 -0.0006642 0.00077942 -0.0012439 0.00014225 -0.00017171 -0.015995 -0.0022862
0.13959 0.19353 -0.011686 -0.0017182
-0.00042353 -0.0008063 0.0010392 -0.00057151 0.00063718 -0.00032203 -0.00028844 0.0020258
-0.011669 -0.0017138 0.17887 0.27908
1520000000 0.29206 0.1032 -0.013334 0.010271 0.0027852 -0.004107 0.00011718 0.0025636
0.0018512 -0.0016529 -0.0010798 -7.537e-05
-0.013331 0.010261 0.15433 0.3212 0.0015237 0.012395 0.0016819 -0.00088434
4.2524e-05 -0.0010423 0.00023892 -0.00092521
0.0027807 -0.0041174 0.0015678 0.012394 0.35518 -0.054805 -0.0013309 -0.00028984
0.00048703 -0.00087487 -3.3849e-05 -0.00012993
0.00012711 0.0025595 0.0016804 -0.00088676 -0.0013215 -0.00029172 0.22364 0.1325
-0.014993 0.0032699 0.0018252 0.0017746
0.0018382 -0.0016659 3.3465e-05 -0.0010366 0.00048188 -0.00088527 -0.014995 0.003313
0.16672 0.17732 -0.011259 0.0024714
-0.0010744 -7.3094e-05 0.00024333 -0.00092596 -3.0796e-05 -0.00013614 0.0018324 0.0017741
-0.011259 0.002463 0.21041 0.25514
1580000000 0.2999 0.057007 -0.0070964 0.012751 -0.0011703 -0.0044782 0.0014796 0.0018131
-0.00020732 -0.0020167 -0.00025384 0.00040709
-0.0071019 0.012724 0.18107 0.29596 0.0048384 0.0078022 0.00040443 -0.0017256
-0.00054847 -0.001015 -0.00023215 -0.00076985
-0.0011776 -0.0044715 0.0048707 0.0077894 0.33421 -0.11217 -0.0016361 0.00088855
-0.00029247 -0.0010536 0.0001855 -0.00056512
0.0014881 0.0018071 0.00039398 -0.0017299 -0.0016433 0.0008837 0.23519 0.093403
-0.011613 0.0080177 0.0023834 0.00023098
-0.00022461 -0.0020119 -0.00055369 -0.0010065 -0.00029076 -0.0010593 -0.011599 0.0080547
0.18956 0.15741 -0.0086795 0.0074235
-0.00025273 0.00040897 -0.0002338 -0.00077045 0.00018589 -0.00057652 0.0023814 0.00021753
-0.0086821 0.0074217 0.23961 0.22654
1640000000 0.30081 0.01524 -0.00097676 0.01141 -0.0027402 -0.0023446 0.0026692 0.00088051
-0.00077057 -0.0014574 -0.00018899 0.00054211
-0.00098662 0.0114 0.21025 0.27012 0.0054564 0.0034799 -0.00088946 -0.0016744
-0.0010586 -0.00036039 -0.00051892 -0.00053663
-0.0027371 -0.0023314 0.0054797 0.0034701 0.30473 -0.16086 -0.00063405 0.0015873
-0.0012022 -0.0007594 -0.00018469 -0.00019354
0.002677 0.00086628 -0.00090132 -0.0016709 -0.00063176 0.0015892 0.24543 0.045462
-0.0073702 0.0095666 0.0023074 -0.0012196
-0.00078061 -0.0014566 -0.001063 -0.00034853 -0.0011946 -0.00075937 -0.0073467 0.0095924
0.21072 0.13138 -0.0041798 0.0091243
-0.00018191 0.00054315 -0.00052233 -0.00053372 -0.0001904 -0.00019 0.0023093 -0.001231
-0.0041796 0.0091259 0.26339 0.19321
1700000000 0.29201 -0.030252 0.0020542 0.0087268 -0.0032951 0.00032452 0.002925 -0.0012855
-0.0019352 -0.00064694 0.0006606 0.00034976
0.0020593 0.0087175 0.22758 0.23823 0.0037105 0.00075647 -0.001499 -0.00042377
-0.00078246 0.00019097 -0.00084251 -0.0003671
-0.0032986 0.00033931 0.0037203 0.00074101 0.26119 -0.20061 0.00073089 0.0015142
-0.0017874 -0.00014993 -0.00057172 -0.00071727
0.0029175 -0.0012955 -0.0015021 -0.0004211 0.00073732 0.0015148 0.24075 -0.0029129
-0.0042542 0.010297 0.0012139 -0.0022232
-0.0019348 -0.00062638 -0.00078077 0.00019442 -0.0017883 -0.0001436 -0.004229 0.01031
0.22614 0.10961 0.00021024 0.0093933
0.00066445 0.00034261 -0.00084476 -0.00036433 -0.00058112 -0.00072 0.0012106 -0.0022285
0.00021276 0.0093931 0.27713 0.15742
1760000000 0.27856 -0.078591 0.004024 0.0055828 -0.002031 0.00089386 0.0010511 -0.0034174
-0.0013803 0.00071397 0.00045626 -0.00043738
0.0040155 0.0055715 0.25296 0.19766 0.001664 -0.0010918 -0.0011648 0.00035335
-0.00093798 0.00090454 -0.00055576 0.00048147
-0.0020359 0.0009016 0.0016652 -0.0010978 0.21207 -0.23408 0.0013559 0.00083636
-0.0010795 0.0015686 -0.0012021 -0.00027143
0.0010312 -0.0034131 -0.0011638 0.0003574 0.0013609 0.00082914 0.23096 -0.052294
-0.00062078 0.0096031 -0.00053818 -0.0023717
-0.0013717 0.00073545 -0.00093318 0.00091103 -0.0010826 0.0015675 -0.00060261 0.0096089
0.23899 0.073488 0.0037349 0.0067543
0.00045261 -0.00044316 -0.00055759 0.00048655 -0.0012114 -0.00027376 -0.00055185 -0.0023687
0.0037347 0.0067568 0.28761 0.11887
1820000000 0.25244 -0.11549 0.0040691 0.0022868 0.00013289 0.0023783 -0.0011984 -0.0028328
-0.0010314 0.0010723 -2.8206e-05 -9.285e-05
0.0040676 0.0022855 0.26191 0.16724 -0.0001306 5.394e-05 -0.0011068 0.0010317
7.0556e-05 0.0013096 -0.00046413 0.0005437
0.00015093 0.0023672 -0.00012482 4.7508e-05 0.16121 -0.24909 0.0013544 5.9656e-05
-6.8336e-05 0.0021715 -0.001306 0.00052793
-0.0012089 -0.0028219 -0.0010969 0.0010323 0.0013433 5.7224e-05 0.201 -0.097519
0.0013352 0.0077927 -0.0016553 -0.0012893
-0.0010179 0.0010859 8.6129e-05 0.0012964 -7.6928e-05 0.0021604 0.0013525 0.0077931
0.25394 0.043359 0.0046801 0.0033935
-2.6615e-05 -8.9907e-05 -0.0004561 0.00054976 -0.0012882 0.00053223 -0.0016573 -0.0012793
0.0046715 0.0033944 0.28736 0.081288
1880000000 0.21588 -0.15491 0.0017684 0.00018479 -0.00040904 0.0018229 -0.0028775 -0.0019028
-9.8256e-05 0.001707 0.0002258 -0.0004302
0.0017631 0.00018818 0.26554 0.12052 -0.0022071 0.0015735 2.5112e-05 0.0015859
0.0006955 0.0010441 0.00020686 0.0008789
-0.0004019 0.0018135 -0.0021921 0.0015838 0.10835 -0.25873 0.0014354 -0.0010457
0.0015923 0.0016296 -0.00070572 0.0013533
-0.0028879 -0.00189 3.8553e-05 0.0015856 0.0014395 -0.0010387 0.16152 -0.13658
0.0022974 0.0053859 -0.0021186 0.00049143
-9.3316e-05 0.001698 0.00070185 0.0010444 0.0016025 0.0016204 0.0023073 0.0053713
0.25459 0.0098935 0.004429 0.001463
0.00022356 -0.00043311 0.00021727 0.00087985 -0.00072017 0.0013578 -0.0021147 0.00049059
0.0044341 0.0014662 0.28475 0.047118
1940000000 0.17572 -0.17988 -0.0004029 -0.0011622 0.0013814 0.0017912 -0.0035073 0.00071482
0.0015531 0.0010971 -0.0005943 -0.00059818
-0.00039473 -0.0011622 0.26506 0.088771 -0.00101 0.0038764 0.00099011 0.0010636
0.0017002 0.00033505 0.00085262 0.00031926
0.0013851 0.0017861 -0.00099572 0.0038852 0.062041 -0.25151 7.8823e-05 -0.0017859
0.0022919 0.00015172 0.00044442 0.0015001
-0.0034848 0.00073485 0.0009954 0.0010468 7.9482e-05 -0.0017909 0.11018 -0.16665
0.0015366 0.0036123 -0.0013069 0.0014823
0.0015548 0.0011051 0.0017022 0.00032369 0.0023024 0.0001485 0.0015474 0.0035993
0.25429 -0.0297 0.0033404 -0.0013856
-0.00060216 -0.00059206 0.00085139 0.00030764 0.00044379 0.0015085 -0.0012963 0.0014777
0.003338 -0.0013776 0.272 0.010419
2000000000 0.12877 -0.19367 -0.0040729 0.0010076 0.0024727 0.0014858 -0.0021762 0.0033054
0.0012512 -7.3852e-05 -0.0005978 0.00040871
-0.0040741 0.001004 0.25013 0.053375 -0.0008528 0.0056724 0.0014802 0.00015988
0.0011967 -0.0012717 0.00036573 3.3288e-05
0.0024736 0.0014767 -0.00081993 0.0056733 0.018219 -0.2364 -0.0011291 -0.00092863
0.0017686 -0.0011083 0.0016362 0.0010885
-0.0021659 0.0033165 0.0014865 0.00015001 -0.0011277 -0.00091517 0.057498 -0.17712
-0.00013773 0.0028891 6.8112e-05 0.0020788
0.0012554 -8.9551e-05 0.0011885 -0.001286 0.0017658 -0.0011133 -0.00014435 0.0028943
0.24586 -0.063843 0.00042548 -0.002403
