!Keysight Technologies,M9804A,MY58100912,A.14.10.03
!Date: Thursday, April 27, 2023 10:28:33
!Correction: S11(C  6-Port  ) 
!S12(C  6-Port  ) 
!S13(C  6-Port  ) 
!S14(C  6-Port  ) 
!S15(C  6-Port  ) 
!S16(C  6-Port  ) 
!S21(C  6-Port  ) 
!S22(C  6-Port  ) 
!S23(C  6-Port  ) 
!S24(C  6-Port  ) 
!S25(C  6-Port  ) 
!S26(C  6-Port  ) 
!S31(C  6-Port  ) 
!S32(C  6-Port  ) 
!S33(C  6-Port  ) 
!S34(C  6-Port  ) 
!S35(C  6-Port  ) 
!S36(C  6-Port  ) 
!S41(C  6-Port  ) 
!S42(C  6-Port  ) 
!S43(C  6-Port  ) 
!S44(C  6-Port  ) 
!S45(C  6-Port  ) 
!S46(C  6-Port  ) 
!S51(C  6-Port  ) 
!S52(C  6-Port  ) 
!S53(C  6-Port  ) 
!S54(C  6-Port  ) 
!S55(C  6-Port  ) 
!S56(C  6-Port  ) 
!S61(C  6-Port  ) 
!S62(C  6-Port  ) 
!S63(C  6-Port  ) 
!S64(C  6-Port  ) 
!S65(C  6-Port  ) 
!S66(C  6-Port  ) 
!S6P File: Measurement: :
# Hz S  RI   R 50
500000000 -0.33858 -0.018028 -0.010526 -0.0038742 -0.0071798 0.012371 -0.0033366 0.011979
0.010993 0.0039642 -0.0025358 0.0082408
-0.010108 -0.003783 -0.41896 -0.035064 0.0060741 -0.012259 0.001855 0.012255
0.0071147 0.0023361 0.0023905 0.013464
-0.0071574 0.011977 0.0065942 -0.011688 -0.2624 0.2228 0.0074671 0.0034885
-0.00034197 0.0079378 0.0025182 0.01181
-0.0033195 0.012499 0.0018765 0.012407 0.007663 0.0035512 -0.32984 0.063655
-0.018951 -0.006857 0.015439 0.023529
0.011486 0.0048315 0.006801 0.0020574 -0.0009236 0.0082472 -0.018996 -0.0069851
-0.23726 -0.16216 -0.024952 0.0041374
-0.0030815 0.0087213 0.0029201 0.013111 0.0031752 0.012002 0.015596 0.024332
-0.0251 0.0040432 -0.28454 -0.078189
560000000 -0.31095 0.13867 -0.02711 -0.059761 0.00090653 0.011592 0.0054587 0.0097176
0.0092116 0.0039778 0.010533 0.0065652
-0.026628 -0.060076 -0.37623 0.11748 -0.042022 -0.034532 0.013379 0.0032013
-0.011836 -0.0038338 0.0033541 -0.001165
6.3023e-05 0.011261 -0.040929 -0.034562 -0.1801 0.26721 -0.00076285 -0.004445
0.017973 0.0038476 0.0070025 -0.0064977
0.0061712 0.0092086 0.013074 0.0032421 -0.00024678 -0.0047336 -0.30352 0.14857
0.00050486 -0.024121 0.0031614 -0.01844
0.0094847 0.0032244 -0.011949 -0.0030347 0.018577 0.0037932 -6.0996e-05 -0.024827
-0.28671 0.010687 0.0033003 -0.046392
0.011363 0.0075519 0.0027498 -0.00091162 0.0072531 -0.005969 0.0035959 -0.018017
0.0036829 -0.046492 -0.33001 0.059628
620000000 -0.27013 0.12312 -0.023367 0.0069526 0.0040243 0.0079475 0.0076213 -0.0051564
0.010549 -0.0018373 0.00060794 -0.0022322
-0.02351 0.0067854 -0.40104 0.07417 -0.019735 0.00015148 -0.0011171 -0.0024747
0.0097501 -0.0065411 0.0013443 -0.0027719
0.0038344 0.0080647 -0.0198 0.00012194 -0.14921 0.27659 -0.0012924 -0.0048385
-0.0032544 -0.0024011 0.0080841 -0.0038245
0.0076259 -0.0050732 -0.00070763 -0.0020233 -0.0010128 -0.0050401 -0.2615 0.16062
-0.039155 -0.017426 0.012504 0.022777
0.0098981 -0.0022093 0.0094981 -0.0065838 -0.0035758 -0.0022744 -0.039655 -0.017473
-0.21102 -0.027837 -0.038335 0.014462
0.0010796 -0.0027933 0.00081214 -0.0024179 0.0079454 -0.003221 0.011768 0.023215
-0.038106 0.014578 -0.25564 0.032331
680000000 -0.22719 0.20484 -0.027982 -0.012056 0.0055786 0.0044254 0.00093029 -0.0072256
-0.0029978 -0.011137 0.0038355 -0.0067588
-0.027827 -0.012151 -0.38416 0.1683 -0.032352 0.00065965 -0.0016939 -0.00057262
-0.0026832 -0.0086258 -0.0015745 -0.0020804
0.0053457 0.0044256 -0.032422 0.00066821 -0.098466 0.29497 -0.00088902 -0.00014412
-0.0017369 0.00025112 -0.003665 -0.0085882
0.0012457 -0.0070897 -0.0015554 -0.00066683 -0.001084 -0.00027186 -0.21665 0.20749
-0.025736 -0.005236 -0.0088491 -0.0081746
-0.0033415 -0.011243 -0.002709 -0.0088244 -0.0016074 0.00034882 -0.025221 -0.0052585
-0.24843 0.068829 -0.0066627 -0.0072746
0.0035322 -0.0064913 -0.0016157 -0.0022607 -0.00347 -0.0087733 -0.0090034 -0.0088784
-0.0069156 -0.0077651 -0.25357 0.12657
740000000 -0.184 0.19995 -0.036366 0.026061 0.011623 -0.005614 -0.00063198 -0.0040615
-0.0051097 -0.0028329 -0.0060323 0.0035367
-0.036379 0.026248 -0.33272 0.1883 -0.032763 0.034889 -0.00092946 -0.0061244
-0.011509 0.0081603 -0.0019041 -0.0045159
0.011578 -0.0056897 -0.032988 0.034961 -0.064426 0.29447 -0.0017134 0.0030309
-0.0033775 -0.0042791 -0.002151 0.0013109
-0.00058207 -0.0038695 -0.00079189 -0.0058987 -0.0018316 0.0030725 -0.19836 0.2163
-0.042138 -0.0034569 0.021515 0.012204
-0.0055268 -0.0027506 -0.010926 0.0079957 -0.0035733 -0.0042707 -0.042261 -0.0034304
-0.15738 0.08864 -0.039083 0.0030674
-0.0058976 0.0030275 -0.0022951 -0.0042062 -0.0020937 0.0012899 0.021639 0.012329
-0.038606 0.0027085 -0.24089 0.13664
800000000 -0.15061 0.23671 -0.021441 0.017629 0.0043529 -0.010266 -0.0043799 -0.0015642
-0.0036709 0.0029832 0.0036053 0.00067677
-0.021578 0.017468 -0.33245 0.25631 -0.006619 0.03351 -0.0022612 0.0023234
-0.00049534 0.0034004 0.0012998 0.0052345
0.0043316 -0.010478 -0.0064912 0.033504 -0.021811 0.31642 0.00083945 0.0015649
0.00046247 0.0035213 -0.0018476 0.0011771
-0.0043253 -0.0018002 -0.0022735 0.0022773 0.00088842 0.0014401 -0.16868 0.24265
-0.026643 0.016081 0.012161 -0.0099421
-0.0038174 0.0031475 -0.00051117 0.0035273 0.00046525 0.0035529 -0.026678 0.016198
-0.1942 0.1159 -0.015611 0.018579
0.0038058 0.00087731 0.0011712 0.0051503 -0.001633 0.0012429 0.012358 -0.0097667
-0.015584 0.018377 -0.22817 0.18191
860000000 -0.11527 0.25685 -0.015903 0.030828 -0.0039572 -0.0094024 -0.0022307 0.001365
0.0044088 0.0047945 -0.0027151 -0.0025067
-0.015517 0.031253 -0.28516 0.29724 0.0092508 0.032805 0.00025659 0.0023292
0.0048143 0.00055978 0.0030639 0.00059035
-0.0040232 -0.0091709 0.0092903 0.032864 0.02708 0.32308 -0.00030641 -3.7078e-05
0.0024814 -0.0011144 0.0015986 0.0041492
-0.0022995 0.0015817 9.5338e-05 0.002249 -0.00036617 -3.4055e-05 -0.13164 0.25359
-0.015177 0.020974 -0.0056067 -0.0087604
0.0044915 0.0048039 0.0044919 0.00057725 0.0025794 -0.0011627 -0.015402 0.020854
-0.14213 0.16172 -0.021983 0.01647
-0.0025529 -0.0024903 0.0032486 0.00077276 0.0016262 0.0040062 -0.0058643 -0.0089869
-0.021802 0.016715 -0.17907 0.22159
920000000 -0.088621 0.27854 0.0064027 0.036858 -0.0091382 -0.0036273 -0.0013714 0.0019313
0.0016939 0.0017492 0.0028384 -0.001708
0.0063006 0.036691 -0.25454 0.31761 0.028157 0.020065 0.0018577 0.00095343
0.0071863 -0.00052837 0.0036439 -0.0030905
-0.0092009 -0.0036333 0.028205 0.020004 0.074497 0.32276 0.0019817 -0.00012223
0.0016707 -0.00057771 0.00096656 -0.001215
-0.0014862 0.0019266 0.0017556 0.001017 0.0019044 -9.4729e-05 -0.10549 0.26921
-0.0071766 0.030711 0.0021646 -0.0061049
0.0017934 0.0018094 0.0072619 -0.00060271 0.0016821 -0.00053968 -0.0070823 0.030708
-0.12689 0.16747 -0.0002015 0.025031
0.0030678 -0.0016141 0.0037724 -0.0029438 0.0010837 -0.001233 0.0021467 -0.0060217
-0.00010311 0.025169 -0.17793 0.2368
980000000 -0.041095 0.29631 0.018836 0.028336 -0.0081383 0.0048044 0.0022203 0.0030966
0.0038853 -0.0021271 -0.0031077 -0.0021548
0.01884 0.02829 -0.2023 0.34968 0.03224 0.0030323 0.0021319 -0.00031306
0.0013545 -0.0062492 -0.00066146 -0.0023937
-0.0081688 0.0047813 0.032284 0.0029237 0.12124 0.31468 0.00050344 -0.0013128
0.00011096 -0.0022781 0.0014693 -0.00028861
0.0022054 0.0030765 0.0021008 -0.00036772 0.00051128 -0.0013727 -0.066394 0.2789
0.010656 0.027974 -0.0083528 -0.0059134
0.0037546 -0.0021968 0.0014674 -0.0063707 7.6245e-05 -0.0022918 0.010907 0.028024
-0.096758 0.19145 0.0061163 0.018502
-0.0031723 -0.0021753 -0.00071152 -0.0024493 0.00141 -0.00023116 -0.0081949 -0.0061148
0.006288 0.018734 -0.13359 0.27464
1040000000 0.0021412 0.30319 0.032934 0.015526 -0.00097131 0.0065671 0.0024079 0.00043875
-4.2296e-05 -0.0032428 -0.00073578 -0.0014086
0.032891 0.01559 -0.16621 0.36251 0.027446 -0.015631 0.0013787 -0.0018012
-0.0024529 -0.0023932 -0.0015804 -0.0027701
-0.00095494 0.0065904 0.027413 -0.015715 0.16788 0.29954 -0.00064291 -0.0014639
-0.0016 -0.00082043 -0.00041412 -0.0011357
0.0024439 0.0003892 0.00134 -0.0018447 -0.00063257 -0.0014628 -0.037272 0.28736
0.020768 0.015349 -0.0027033 0.0013203
-0.00012595 -0.0033634 -0.0025546 -0.0022903 -0.0015733 -0.00095407 0.02082 0.015327
-0.064037 0.19749 0.013843 0.015643
-0.00068684 -0.0014658 -0.0015663 -0.0027658 -0.0003553 -0.0011481 -0.0026105 0.0012959
0.013885 0.015724 -0.10746 0.29326
1100000000 0.047651 0.30916 0.034337 -0.0060106 0.0028026 0.0035383 0.0021867 -0.0011389
-0.002252 -0.0028019 -0.0035256 0.00052409
0.034283 -0.0059661 -0.12279 0.37842 0.013336 -0.02742 -0.00012129 -0.0018034
-0.0033632 -0.00051979 -0.0032837 -0.00015129
0.0027996 0.0035338 0.013263 -0.027449 0.21432 0.27721 -0.0018445 0.00020296
-0.001773 0.00063111 -0.00086649 -0.00024134
0.0021597 -0.0011531 -8.5672e-05 -0.0017554 -0.0018074 0.00016602 0.0041054 0.28992
0.024195 0.0021943 -0.0023689 0.00027638
-0.0021599 -0.0027701 -0.0033778 -0.00051701 -0.0017286 0.00062638 0.024282 0.0021303
-0.044982 0.20886 0.018088 0.006208
-0.0035398 0.00045823 -0.0033536 -0.00020897 -0.00089452 -0.00033177 -0.0024336 0.00030488
0.018088 0.0061981 -0.061034 0.3169
1160000000 0.0988 0.30278 0.021915 -0.021501 0.0023184 -0.00045457 -0.00016397 -0.0021449
-0.0039109 -0.00038574 -0.00058006 0.0037148
0.021941 -0.021433 -0.078098 0.38189 -0.0049887 -0.02769 -0.0016206 -0.0014816
-0.0024441 0.0024353 -0.0012835 0.0017528
0.0023188 -0.00046086 -0.0051475 -0.027716 0.25677 0.24472 -0.00068285 0.001675
-0.00049854 0.0017822 -0.00089321 0.00013136
-7.1644e-05 -0.0020922 -0.0017244 -0.0014379 -0.0006908 0.0016918 0.043735 0.28471
0.019541 -0.012369 -0.0029221 0.0044991
-0.0038881 -0.00038144 -0.0025437 0.0024394 -0.00049602 0.001789 0.019521 -0.012406
-0.011149 0.2162 0.016772 -0.0019818
-0.00069626 0.0037446 -0.0013128 0.0016527 -0.00084262 0.00016964 -0.0028612 0.0044089
0.016684 -0.0020033 -0.013841 0.31721
1220000000 0.14357 0.28934 0.0082021 -0.029401 -0.0015413 -0.00038875 6.601e-05 -0.00086089
-0.0023924 0.0023733 0.001388 0.0018348
0.0082443 -0.029318 -0.034002 0.39225 -0.017005 -0.019458 -0.0024008 0.00049037
0.00016729 0.0028038 -0.00045028 0.0018557
-0.0015745 -0.00042041 -0.017092 -0.019451 0.29522 0.20412 0.00074244 0.0017656
0.00060356 0.0011694 0.00026111 0.00050628
6.2153e-05 -0.00088317 -0.0023852 0.00052563 0.00074827 0.0017591 0.083838 0.27347
0.0086945 -0.01814 0.001617 0.00143
-0.0024033 0.0023229 0.00010581 0.0028218 0.00061119 0.001209 0.008695 -0.018101
0.013002 0.22247 0.01152 -0.013242
0.0013903 0.0016544 -0.00048214 0.0018655 0.00035821 0.00047579 0.0016257 0.001457
0.011468 -0.01326 0.019707 0.32816
1280000000 0.1922 0.26544 -0.0091663 -0.026823 -0.0014565 0.002676 -0.00096632 -0.0019638
-0.00056895 0.0028707 0.0022963 0.00082767
-0.0091253 -0.026826 0.011574 0.38241 -0.022988 -0.0073316 -0.00093679 0.001393
0.001625 0.0016162 0.00074077 0.0017269
-0.0014748 0.0026183 -0.022982 -0.0072166 0.32457 0.15923 0.001568 -9.7114e-06
0.0010408 0.00021076 0.00014913 0.00025114
-0.0010193 -0.0019194 -0.0008942 0.0013996 0.0015577 -7.7387e-06 0.11964 0.25461
-0.00081106 -0.019202 -0.00031467 0.00039546
-0.00055831 0.0029407 0.0016596 0.0015599 0.00099163 0.00022039 -0.00087855 -0.019203
0.049282 0.2238 0.0013258 -0.014614
0.0023256 0.00076842 0.00064808 0.001722 0.00010937 0.00029825 -0.00035194 0.00035927
0.0013821 -0.01461 0.065551 0.32574
1340000000 0.2287 0.23008 -0.017919 -0.016985 0.0013304 0.0042096 -0.0017323 -0.00080309
0.0014511 0.0024366 0.0014369 -0.0014562
-0.017926 -0.016959 0.050941 0.37284 -0.020414 0.0048109 -0.00015667 0.0020005
0.0018536 0.0006479 0.0013076 0.00063044
0.001318 0.0041993 -0.020418 0.0049197 0.34568 0.11079 0.0011529 -0.00093481
0.00066128 -0.00043952 0.00017342 0.00021392
-0.0016794 -0.00084693 -0.00015062 0.0020385 0.0011586 -0.00096962 0.15092 0.23206
-0.0098413 -0.015785 0.00059859 0.00095493
0.0015213 0.0024244 0.001912 0.00062229 0.00062629 -0.00045466 -0.0098804 -0.015774
0.079119 0.21685 -0.0051179 -0.012642
0.0013714 -0.0013667 0.0012585 0.00053383 0.00017504 0.00019352 0.00057547 0.00093304
-0.0051309 -0.012659 0.10426 0.31695
1400000000 0.2599 0.19038 -0.022482 -0.0058328 0.0051236 0.0025969 -0.0020578 0.00059673
0.0023252 0.0007062 9.0686e-05 -0.0013734
-0.022464 -0.0058571 0.08733 0.35915 -0.013694 0.012169 0.0013014 0.001338
0.0011283 -0.00079217 0.0010611 8.1576e-05
0.0051925 0.0025852 -0.013677 0.012232 0.35807 0.056623 0.00013614 -0.001776
5.9675e-05 -0.00034311 0.00031347 0.0001551
-0.0020734 0.00062455 0.0013136 0.0013255 0.00016555 -0.0017756 0.17874 0.20143
-0.015121 -0.0089621 -0.00038769 0.00031939
0.0023183 0.0007167 0.0011253 -0.00080387 4.5641e-05 -0.00039032 -0.015149 -0.00888
0.11106 0.21009 -0.010555 -0.0074579
0.00010471 -0.001317 0.0010768 9.9404e-05 0.00029863 0.00012609 -0.00037024 0.00031872
-0.010553 -0.0074651 0.14649 0.30215
1460000000 0.28127 0.14572 -0.019172 0.0054452 0.0053089 -0.0021738 -0.0015194 0.0016719
0.0019226 -0.00066549 -0.00042934 -0.00082376
-0.019103 0.0054525 0.12123 0.33673 -0.0055433 0.014525 0.0017931 0.00015374
0.00077907 -0.0012376 0.0010287 -0.00056845
0.0052682 -0.0022903 -0.0055244 0.014505 0.36286 0.0019973 -0.0013945 -0.0013211
0.00017414 -0.00014961 0.00061102 -0.00025228
-0.0015171 0.0016366 0.0017683 0.00016285 -0.0013857 -0.0013061 0.20287 0.17107
-0.015974 -0.0023094 -0.00029148 0.002022
0.0018727 -0.00069958 0.00075772 -0.0012472 0.00012946 -0.00019111 -0.015979 -0.0023031
0.13948 0.19356 -0.011655 -0.0017665
-0.00038085 -0.00092064 0.00096871 -0.00060538 0.00058407 -0.00025008 -0.00027245 0.0020663
-0.011623 -0.0017798 0.17867 0.27922
1520000000 0.29202 0.10305 -0.013319 0.010349 0.0027993 -0.0041436 0.00010865 0.0025399
0.001868 -0.0016502 -0.0010771 -5.3468e-05
-0.013342 0.010307 0.15429 0.32123 0.0015191 0.012418 0.0017052 -0.0008874
3.0066e-05 -0.0010461 0.00024504 -0.00092707
0.0026817 -0.0041161 0.0015938 0.012436 0.35515 -0.054818 -0.0013046 -0.00029222
0.00047433 -0.00088333 -4.0221e-05 -0.00014195
0.00014423 0.0025725 0.0016913 -0.00089717 -0.0012951 -0.00029497 0.22364 0.13251
-0.014974 0.0032552 0.0018253 0.0017768
0.0018445 -0.0016401 4.3485e-05 -0.0010589 0.00051524 -0.00088871 -0.014967 0.0032681
0.16663 0.17735 -0.011239 0.0024443
-0.0011167 -4.0811e-05 0.00025462 -0.00091353 -7.501e-05 -0.00014899 0.0018076 0.0017898
-0.011247 0.002438 0.21021 0.25528
1580000000 0.29972 0.056841 -0.0070302 0.012787 -0.0011324 -0.0045023 0.0014972 0.0018142
-0.00021919 -0.0020434 -0.00025852 0.00041452
-0.0070454 0.012794 0.18105 0.29599 0.0048505 0.0078438 0.00038187 -0.0017208
-0.00055456 -0.0010119 -0.00023718 -0.00078757
-0.0011394 -0.0043912 0.004916 0.0078264 0.33416 -0.11222 -0.0016601 0.00084893
-0.0002561 -0.0010657 0.00018029 -0.00055012
0.0015105 0.0018092 0.00037803 -0.0017192 -0.0016642 0.00087201 0.23519 0.093389
-0.01161 0.0080298 0.0023628 0.00024161
-0.00017284 -0.0020286 -0.00059589 -0.0009972 -0.00030322 -0.0010847 -0.011591 0.0080364
0.18948 0.15747 -0.0087208 0.0074175
-0.00027758 0.00039693 -0.0002158 -0.00079291 0.00024876 -0.00057444 0.0023818 0.00025696
-0.0087111 0.0073985 0.23941 0.22667
1640000000 0.30061 0.01515 -0.00087694 0.01144 -0.0026852 -0.0023621 0.0026429 0.00088423
-0.00076704 -0.0014518 -0.00018672 0.00051851
-0.00087793 0.011407 0.21023 0.27021 0.0055047 0.0035215 -0.0009072 -0.0016719
-0.0010632 -0.00034402 -0.00050902 -0.00053614
-0.0026965 -0.0023235 0.0055061 0.00348 0.30476 -0.16096 -0.00067231 0.0015913
-0.0011994 -0.00079254 -0.00020039 -0.0001615
0.0026523 0.00087069 -0.000904 -0.0016696 -0.00063 0.0015403 0.24544 0.04547
-0.0073702 0.0095636 0.0023017 -0.0012062
-0.00076 -0.0014346 -0.0010557 -0.00035333 -0.0011597 -0.00076783 -0.0073692 0.0095855
0.21067 0.1314 -0.0042021 0.0091226
-0.00018171 0.0005841 -0.00056841 -0.00053644 -0.0001727 -0.00017573 0.0022821 -0.0012176
-0.004194 0.0091224 0.26327 0.19337
1700000000 0.29178 -0.030202 0.0021475 0.0087128 -0.0032774 0.00023872 0.0029074 -0.0012906
-0.0019541 -0.00063868 0.00068703 0.00034765
0.0021079 0.0086978 0.22761 0.23831 0.0037409 0.00074041 -0.0015155 -0.00042848
-0.00078098 0.00018533 -0.00083369 -0.00035562
-0.0032572 0.00023315 0.0037403 0.00074153 0.26123 -0.20075 0.00075932 0.0015089
-0.0018312 -0.00015153 -0.00061596 -0.00072172
0.002878 -0.0012891 -0.0015136 -0.00040422 0.00070956 0.0014888 0.24077 -0.0028982
-0.0042634 0.010293 0.0011797 -0.0022129
-0.0019654 -0.00066441 -0.00076841 0.00019653 -0.0018316 -0.00017903 -0.0042501 0.010326
0.22604 0.10965 0.00018608 0.0093736
0.00069664 0.00032137 -0.00082123 -0.0003308 -0.00052661 -0.00070132 0.0012069 -0.0022303
0.00019482 0.0093927 0.27706 0.15761
1760000000 0.27832 -0.078418 0.004086 0.005519 -0.0020821 0.00093191 0.0010357 -0.003428
-0.0013782 0.0007187 0.00042483 -0.00046198
0.0040465 0.0055275 0.25302 0.19771 0.0016831 -0.0011096 -0.0011518 0.00035857
-0.00092701 0.00090963 -0.00056308 0.00047069
-0.0020311 0.00090831 0.001703 -0.0011705 0.21212 -0.23409 0.0013125 0.0008294
-0.0010971 0.0016282 -0.0012312 -0.00032611
0.0010569 -0.0034228 -0.00115 0.00037461 0.0013904 0.0008584 0.23091 -0.05223
-0.00064192 0.0095874 -0.00052466 -0.0023506
-0.0013156 0.00075313 -0.00093498 0.00093626 -0.0010915 0.0016301 -0.00062405 0.0095904
0.23894 0.073544 0.0036842 0.0067753
0.00046766 -0.00039942 -0.00054502 0.00046513 -0.0011998 -0.0002878 -0.00051249 -0.0023327
0.0036769 0.0067759 0.28752 0.11896
1820000000 0.25243 -0.11533 0.0041047 0.0022221 0.00015815 0.0023979 -0.0011815 -0.0027824
-0.0010143 0.0010589 -1.396e-05 -0.00010331
0.0041128 0.0022453 0.26202 0.1673 -0.00014602 8.2505e-05 -0.0010958 0.0010349
6.818e-05 0.0012964 -0.0004526 0.00055221
0.00010324 0.0024169 -0.00014581 0.00010045 0.16117 -0.24902 0.001357 6.0579e-05
-2.8694e-05 0.0022051 -0.0012628 0.00055207
-0.0011817 -0.002854 -0.0010807 0.0010487 0.0013038 2.1184e-05 0.20106 -0.097534
0.0013351 0.0077983 -0.0016066 -0.0012833
-0.00099403 0.0010638 9.8382e-05 0.0013061 1.5868e-05 0.002212 0.0013376 0.0078096
0.25386 0.043389 0.0047143 0.0034067
2.4197e-05 -0.00010851 -0.00048449 0.00054837 -0.0011968 0.00066472 -0.0016608 -0.0012453
0.0046783 0.0034044 0.28733 0.081451
1880000000 0.21588 -0.15471 0.0017434 0.00015381 -0.00035689 0.0018896 -0.0028656 -0.0018955
-9.4658e-05 0.0016902 0.00025879 -0.00046084
0.0017631 0.00014182 0.26559 0.12049 -0.0022272 0.0015748 1.3041e-05 0.001604
0.00067086 0.001041 0.00023609 0.00089685
-0.00025344 0.0018488 -0.0022561 0.001555 0.1083 -0.25875 0.0014021 -0.0010733
0.0015927 0.0016658 -0.00072033 0.0013403
-0.0028623 -0.0018745 2.3455e-05 0.0016134 0.0014147 -0.0010354 0.16152 -0.13664
0.0023073 0.0053849 -0.0021149 0.00051575
-0.00014844 0.0017068 0.00069074 0.0010504 0.0015874 0.0016745 0.0023349 0.0053648
0.25454 0.010011 0.0044127 0.0014652
0.00018711 -0.00041985 0.00019355 0.00088782 -0.000715 0.0013945 -0.0021105 0.0005254
0.0043981 0.001524 0.28474 0.04733
1940000000 0.1758 -0.17968 -0.00045816 -0.0012313 0.0014599 0.0019021 -0.0035171 0.00072603
0.0015417 0.0011138 -0.00057702 -0.00059338
-0.00043275 -0.0011712 0.26507 0.088711 -0.0010238 0.0038887 0.00098395 0.0010568
0.0016938 0.00033479 0.00085529 0.00032131
0.0014401 0.0019192 -0.0010353 0.0038858 0.06204 -0.25143 7.3751e-05 -0.0017135
0.0022942 0.00020652 0.00040701 0.001551
-0.0034751 0.00073912 0.00097037 0.0010757 0.00012406 -0.001714 0.11015 -0.16674
0.0015423 0.0036552 -0.0013225 0.0014838
0.0015697 0.0011167 0.0016314 0.00031287 0.0023089 0.00021711 0.001551 0.0035876
0.25418 -0.02958 0.0033195 -0.0014083
-0.00052752 -0.00058368 0.00084665 0.00026629 0.00037655 0.0015663 -0.0012894 0.0014497
0.0032686 -0.0014473 0.27193 0.010574
2000000000 0.12873 -0.19379 -0.0041215 0.00097277 0.0024251 0.0015759 -0.0022056 0.0032911
0.0012251 -0.00012191 -0.00057651 0.00036735
-0.0040413 0.00094438 0.25019 0.053305 -0.00085977 0.0056846 0.0014276 0.00015871
0.0012303 -0.0012812 0.00040206 3.917e-05
0.0024809 0.0014943 -0.00083148 0.0056488 0.018139 -0.23635 -0.0011466 -0.00091871
0.0017711 -0.0011291 0.0016658 0.0011015
-0.0021079 0.0032941 0.0014304 0.0001314 -0.0011568 -0.0008625 0.057553 -0.17708
-0.00017088 0.0029472 2.8784e-05 0.0021258
0.0012919 -0.00011987 0.0012417 -0.0012957 0.0017224 -0.001165 -6.9003e-05 0.0029375
