!Keysight Technologies,M9804A,MY58100912,A.14.10.03
!Date: Thursday, April 27, 2023 10:28:33
!Correction: S11(C  6-Port  ) 
!S12(C  6-Port  ) 
!S13(C  6-Port  ) 
!S14(C  6-Port  ) 
!S15(C  6-Port  ) 
!S16(C  6-Port  ) 
!S21(C  6-Port  ) 
!S22(C  6-Port  ) 
!S23(C  6-Port  ) 
!S24(C  6-Port  ) 
!S25(C  6-Port  ) 
!S26(C  6-Port  ) 
!S31(C  6-Port  ) 
!S32(C  6-Port  ) 
!S33(C  6-Port  ) 
!S34(C  6-Port  ) 
!S35(C  6-Port  ) 
!S36(C  6-Port  ) 
!S41(C  6-Port  ) 
!S42(C  6-Port  ) 
!S43(C  6-Port  ) 
!S44(C  6-Port  ) 
!S45(C  6-Port  ) 
!S46(C  6-Port  ) 
!S51(C  6-Port  ) 
!S52(C  6-Port  ) 
!S53(C  6-Port  ) 
!S54(C  6-Port  ) 
!S55(C  6-Port  ) 
!S56(C  6-Port  ) 
!S61(C  6-Port  ) 
!S62(C  6-Port  ) 
!S63(C  6-Port  ) 
!S64(C  6-Port  ) 
!S65(C  6-Port  ) 
!S66(C  6-Port  ) 
!S6P File: Measurement: :
# Hz S  RI   R 50
500000000 -0.33924 -0.017121 -0.01072 -0.0033158 -0.0072276 0.012222 -0.0030666 0.012022
0.011432 0.0037337 -0.002459 0.0079759
-0.010703 -0.0033019 -0.41945 -0.035193 0.0065232 -0.011886 0.0019884 0.012599
0.0065703 0.0022102 0.0023498 0.013674
-0.007223 0.012214 0.0065038 -0.011891 -0.26225 0.22298 0.00741 0.003661
-0.0007187 0.0083186 0.002584 0.011918
-0.0030642 0.012016 0.0020049 0.012609 0.0074157 0.0036631 -0.33023 0.063494
-0.019031 -0.0065521 0.015302 0.023595
0.011426 0.0037298 0.0065799 0.0021967 -0.00071388 0.0082991 -0.019036 -0.0065435
-0.23702 -0.16257 -0.024512 0.0043913
-0.0024612 0.0079574 0.0023713 0.01367 0.0026027 0.011923 0.015308 0.023585
-0.024514 0.004392 -0.28471 -0.077247
560000000 -0.31101 0.13801 -0.026806 -0.06049 0.00080152 0.011395 0.0057558 0.0094673
0.008874 0.0041318 0.010462 0.0063974
-0.026764 -0.060423 -0.37485 0.11942 -0.04228 -0.034992 0.013341 0.0032892
-0.012328 -0.0037974 0.0031298 -0.0011376
0.00081651 0.011402 -0.042357 -0.034934 -0.17956 0.26745 -0.00054219 -0.0045379
0.018451 0.0034758 0.0068265 -0.0066538
0.0057481 0.0094562 0.013348 0.0032822 -0.00054319 -0.0045291 -0.30367 0.1488
0.00048746 -0.024374 0.0030128 -0.018294
0.0088718 0.0041047 -0.012367 -0.0037779 0.018456 0.0034595 0.0004735 -0.024383
-0.28659 0.0099653 0.0031905 -0.045908
0.010449 0.0063901 0.0031466 -0.0011342 0.0068404 -0.0066472 0.0030016 -0.018292
0.0032095 -0.045911 -0.32953 0.060212
620000000 -0.27017 0.12355 -0.023286 0.0068713 0.0038023 0.0080621 0.0075287 -0.0054991
0.01045 -0.0014677 0.00045148 -0.0024923
-0.023284 0.0068718 -0.40113 0.074278 -0.019707 0.0001446 -0.00097262 -0.0022342
0.0098008 -0.0066096 0.0013198 -0.0028201
0.0038124 0.0080511 -0.019714 0.00018094 -0.14911 0.27673 -0.0011227 -0.0047704
-0.0038095 -0.0026837 0.0080341 -0.003712
0.0075252 -0.005509 -0.00097932 -0.0022316 -0.0011261 -0.0047726 -0.26229 0.16058
-0.038974 -0.017333 0.012079 0.02261
0.010439 -0.0014687 0.0097905 -0.0066341 -0.0038104 -0.0027014 -0.038988 -0.017298
-0.21071 -0.027569 -0.038532 0.01463
0.00041836 -0.0025123 0.0013123 -0.0028348 0.0080186 -0.0037089 0.012083 0.022608
-0.03854 0.014608 -0.25584 0.032355
680000000 -0.22694 0.20502 -0.027961 -0.012049 0.0053063 0.0044984 0.00078367 -0.0070739
-0.0032954 -0.010931 0.0039272 -0.0065371
-0.027926 -0.012059 -0.38412 0.16839 -0.03231 0.00057219 -0.0015013 -0.00057003
-0.0027307 -0.0087595 -0.0016331 -0.0021089
0.0053083 0.0044917 -0.032322 0.0006164 -0.098357 0.29491 -0.00086221 -0.00033379
-0.001743 0.00021716 -0.0036215 -0.0085711
0.00078571 -0.0070761 -0.0015014 -0.00057045 -0.00085871 -0.00033964 -0.21675 0.20752
-0.025456 -0.0054061 -0.009079 -0.0084408
-0.0033234 -0.010946 -0.0027377 -0.0087722 -0.0017391 0.00021706 -0.025477 -0.0053742
-0.24856 0.069037 -0.0068153 -0.0070781
0.0038991 -0.0065318 -0.0016252 -0.0020979 -0.0036241 -0.0085802 -0.0090814 -0.0084706
-0.0068116 -0.0070798 -0.25314 0.12694
740000000 -0.18383 0.19967 -0.036661 0.02607 0.011754 -0.0058348 -0.00081801 -0.0040057
-0.005145 -0.0027478 -0.0058966 0.0033954
-0.036632 0.02602 -0.33277 0.18788 -0.032766 0.034877 -0.00092284 -0.0061025
-0.011344 0.0079631 -0.0019681 -0.0045299
0.011751 -0.0058417 -0.032705 0.034947 -0.064477 0.29438 -0.0016864 0.003047
-0.003216 -0.0044005 -0.0021849 0.0011318
-0.00080379 -0.0040128 -0.00093452 -0.0060965 -0.0016829 0.0030372 -0.1986 0.21641
-0.041892 -0.0035761 0.021372 0.012284
-0.0051513 -0.0027364 -0.011335 0.0080037 -0.0032304 -0.0044006 -0.041921 -0.0035172
-0.15808 0.088769 -0.03867 0.0034562
-0.0058962 0.0034115 -0.0019659 -0.0045496 -0.0021838 0.0011298 0.021381 0.012271
-0.038666 0.0034293 -0.24053 0.13689
800000000 -0.15023 0.23684 -0.021454 0.017568 0.0044163 -0.010351 -0.0044673 -0.0016821
-0.0037868 0.0029381 0.0036758 0.00074977
-0.021438 0.017552 -0.33255 0.25639 -0.0065273 0.033525 -0.0022314 0.0023044
-0.00045012 0.003313 0.0012546 0.0052519
0.0043875 -0.010361 -0.0064562 0.033547 -0.021709 0.31638 0.00088431 0.0015421
0.00041419 0.0034939 -0.0018248 0.0011611
-0.0044699 -0.0016645 -0.0022244 0.0023063 0.00089393 0.0015511 -0.16867 0.24278
-0.026717 0.016078 0.01216 -0.0099252
-0.0037838 0.0029452 -0.0004416 0.0033135 0.00041618 0.0034922 -0.026724 0.01614
-0.19404 0.11659 -0.015605 0.018499
0.0036694 0.00072729 0.0012742 0.0052607 -0.0018353 0.001186 0.012161 -0.0099433
-0.015599 0.018486 -0.22811 0.18232
860000000 -0.1152 0.25702 -0.015863 0.030964 -0.0039742 -0.0093194 -0.0022652 0.0014282
0.0044172 0.0048319 -0.0027056 -0.0024202
-0.015861 0.030939 -0.28508 0.29718 0.0093126 0.032896 0.00028711 0.002263
0.0047203 0.00043211 0.003227 0.00044091
-0.0039872 -0.0093031 0.0093939 0.032892 0.027115 0.32317 -0.0002841 -4.6218e-05
0.0025133 -0.0011772 0.0016179 0.0040802
-0.0022644 0.0014325 0.00029262 0.0022603 -0.00028408 -4.5588e-05 -0.13175 0.25361
-0.015161 0.021019 -0.0055137 -0.0089249
0.0044215 0.0048113 0.0047364 0.00041877 0.0025217 -0.0011791 -0.01514 0.021059
-0.14224 0.16197 -0.021868 0.016443
-0.0027134 -0.0024134 0.0032274 0.00045132 0.0016186 0.0040855 -0.0055256 -0.0089212
-0.021866 0.016431 -0.1791 0.22213
920000000 -0.088334 0.27851 0.006355 0.036769 -0.00918 -0.0036118 -0.0013314 0.0019349
0.0017851 0.0016709 0.0028294 -0.0017112
0.006355 0.036748 -0.25448 0.31759 0.028119 0.020025 0.0017421 0.0010002
0.0071579 -0.00055435 0.0036715 -0.0030769
-0.0091823 -0.0036004 0.028189 0.019974 0.074509 0.32276 0.0019179 -8.7201e-05
0.0016861 -0.00056115 0.00096844 -0.0011559
-0.0013323 0.0019401 0.0017551 0.00099109 0.0019226 -8.8585e-05 -0.10561 0.26923
-0.0072319 0.030703 0.0022281 -0.0061076
0.001777 0.0016681 0.0071727 -0.00058391 0.0016884 -0.00054908 -0.0071734 0.030723
-0.12687 0.16774 -7.8656e-05 0.025026
0.0028187 -0.0017314 0.0036703 -0.0030729 0.00097567 -0.0011561 0.0022288 -0.0061099
-0.00010117 0.025015 -0.17763 0.23702
980000000 -0.040992 0.2964 0.018824 0.028292 -0.0081851 0.0048122 0.0022559 0.003051
0.0039019 -0.0022245 -0.0032496 -0.0021025
0.018805 0.028292 -0.2023 0.34982 0.032297 0.002975 0.0020718 -0.00037363
0.0013435 -0.0063174 -0.00070438 -0.0024071
-0.0081742 0.0048185 0.032316 0.0029101 0.1213 0.31465 0.00049501 -0.0013547
4.973e-05 -0.0022512 0.0013831 -0.00030474
0.0022557 0.0030505 0.0021009 -0.00038095 0.00049323 -0.001345 -0.066287 0.27886
0.01073 0.027953 -0.0083921 -0.0059328
0.0038965 -0.0022372 0.0013421 -0.0063193 5.2603e-05 -0.0022514 0.010804 0.027948
-0.096504 0.19155 0.0062155 0.018515
-0.003242 -0.0021078 -0.00072724 -0.0023923 0.0013859 -0.00030667 -0.0084162 -0.0059138
0.0061903 0.018502 -0.13308 0.27492
1040000000 0.002276 0.30323 0.032861 0.015565 -0.00094691 0.0066037 0.0024737 0.00042665
-1.7409e-05 -0.003226 -0.00073444 -0.0014207
0.032841 0.015567 -0.16612 0.36258 0.027401 -0.015634 0.0013524 -0.0017806
-0.0024421 -0.0023962 -0.0015495 -0.0027953
-0.00093887 0.0065896 0.027378 -0.015701 0.16794 0.2995 -0.00064105 -0.0014678
-0.0015556 -0.00084357 -0.0004082 -0.0011338
0.0024569 0.00043309 0.0013649 -0.0018015 -0.00063784 -0.0014692 -0.037211 0.28744
0.020824 0.015344 -0.0026718 0.0013483
-3.2722e-05 -0.0032343 -0.002436 -0.0023837 -0.0015497 -0.00084085 0.020863 0.015316
-0.06401 0.19762 0.013781 0.015592
-0.00072304 -0.0014252 -0.0015707 -0.0027681 -0.00040982 -0.0011363 -0.0026621 0.0013552
0.013761 0.015589 -0.10723 0.29341
1100000000 0.047673 0.30908 0.034225 -0.0059232 0.0028014 0.0035681 0.0021759 -0.0011744
-0.0022234 -0.0028072 -0.0035025 0.00052412
0.034197 -0.0058978 -0.12266 0.37853 0.013293 -0.027402 -0.00015304 -0.0017851
-0.003375 -0.00047251 -0.0033067 -0.00015876
0.002797 0.0035502 0.013225 -0.027441 0.21435 0.27717 -0.001798 0.00020834
-0.0017536 0.00064603 -0.00089202 -0.00026263
0.0021679 -0.0011898 -0.00014989 -0.001788 -0.0017948 0.00020479 0.0041053 0.28995
0.024251 0.0021956 -0.0023661 0.00027774
-0.0022282 -0.0027966 -0.0033789 -0.00046311 -0.0017468 0.00065162 0.024271 0.0021613
-0.044832 0.20881 0.018131 0.0061231
-0.0034975 0.000536 -0.0033092 -0.00014393 -0.00090058 -0.00027272 -0.0023618 0.00028427
0.018122 0.0061203 -0.060577 0.31711
1160000000 0.098858 0.30272 0.021903 -0.021355 0.0023559 -0.00044603 -0.00018621 -0.0021271
-0.0039345 -0.00036829 -0.00058914 0.0037151
0.021921 -0.021331 -0.077934 0.38193 -0.0050281 -0.027733 -0.0016847 -0.0014307
-0.0024533 0.0023639 -0.0012745 0.0017308
0.0023593 -0.00045591 -0.0051045 -0.027713 0.25684 0.24462 -0.00068759 0.0017163
-0.00052007 0.0017998 -0.000871 0.00017846
-0.00019438 -0.0021178 -0.0016784 -0.0014403 -0.00069051 0.001717 0.04382 0.28471
0.019554 -0.0124 -0.0028712 0.0044775
-0.003946 -0.00035673 -0.0024441 0.0023889 -0.00051276 0.0018055 0.019557 -0.012441
-0.011023 0.21629 0.016686 -0.0019703
-0.00056575 0.003719 -0.0012764 0.0017512 -0.00086749 0.00017542 -0.0028672 0.0044815
0.016685 -0.0019753 -0.013582 0.31733
1220000000 0.1435 0.28915 0.0082325 -0.02928 -0.0015403 -0.00042595 6.0505e-05 -0.00087904
-0.0023601 0.0023736 0.0013685 0.0018504
0.0082524 -0.029247 -0.033965 0.39216 -0.01702 -0.019432 -0.0023984 0.0004958
0.00018243 0.002784 -0.00048074 0.0018522
-0.0015369 -0.0004185 -0.017089 -0.019384 0.2952 0.20409 0.00074287 0.0017798
0.00059461 0.0011926 0.00024907 0.00050656
5.1976e-05 -0.00087843 -0.0023939 0.00050415 0.00073583 0.0017809 0.083899 0.27355
0.0087201 -0.018149 0.0015869 0.0014153
-0.0023587 0.0023718 0.00019309 0.0027863 0.00059692 0.0011938 0.0087072 -0.01817
0.013168 0.22257 0.011504 -0.013251
0.0013802 0.0018389 -0.00047642 0.0018564 0.00025153 0.00050819 0.0015911 0.0014227
0.011506 -0.013241 0.020071 0.3282
1280000000 0.19206 0.2655 -0.0090638 -0.026739 -0.0014823 0.0026643 -0.00098753 -0.0019394
-0.00054875 0.0028418 0.0022929 0.00080717
-0.0090316 -0.026712 0.01152 0.38234 -0.022962 -0.0072683 -0.00092225 0.0013924
0.0016294 0.0016039 0.00072837 0.001746
-0.0014593 0.0026762 -0.023 -0.007194 0.32456 0.15918 0.0015872 -2.6085e-05
0.0010266 0.00019223 0.0001772 0.00028067
-0.00098873 -0.0019404 -0.00092281 0.0014011 0.0015851 -2.8354e-05 0.11971 0.25457
-0.00086623 -0.019199 -0.00032404 0.00038066
-0.00053662 0.0028439 0.0016405 0.0016083 0.0010223 0.00019506 -0.00090053 -0.019207
0.049394 0.22387 0.001335 -0.014669
0.0022994 0.00080059 0.00073413 0.0017353 0.00017882 0.00028173 -0.00032349 0.00038241
0.0013379 -0.014655 0.065932 0.32575
1340000000 0.22848 0.22999 -0.017771 -0.017009 0.0013324 0.0041593 -0.0016849 -0.00083811
0.0014519 0.0024384 0.0014254 -0.0014444
-0.01773 -0.017009 0.050898 0.37285 -0.020409 0.0048445 -0.00012021 0.0019744
0.0018425 0.00063944 0.0012797 0.00063676
0.0013501 0.0041588 -0.020394 0.0049165 0.34568 0.11081 0.0012041 -0.00097319
0.00068254 -0.00045582 0.00017431 0.00024061
-0.0016819 -0.00083705 -0.00011527 0.0019732 0.0012039 -0.00097495 0.15096 0.2321
-0.0098307 -0.015777 0.00058068 0.00097994
0.001461 0.0024331 0.0018412 0.00063371 0.00068379 -0.00044719 -0.0098698 -0.015762
0.079309 0.21686 -0.0051551 -0.012646
0.0014226 -0.0014522 0.0012872 0.00063158 0.00017307 0.0002391 0.00058374 0.00097822
-0.0051469 -0.012644 0.10462 0.31693
1400000000 0.25989 0.19049 -0.02236 -0.0059067 0.0051625 0.0025775 -0.0020465 0.00059827
0.0022955 0.00068695 8.1391e-05 -0.00134
-0.02234 -0.0059206 0.087285 0.35915 -0.013682 0.012158 0.0013082 0.0013324
0.0011208 -0.00078674 0.0010526 8.0211e-05
0.0051694 0.0025628 -0.013638 0.012208 0.35802 0.056624 0.00015208 -0.0017929
8.8214e-05 -0.00035452 0.00033552 0.0001565
-0.0020411 0.00060321 0.0013059 0.0013344 0.00015669 -0.0017839 0.17879 0.2014
-0.015125 -0.0089428 -0.00037258 0.00030471
0.0023014 0.00067704 0.0011196 -0.00080048 8.9054e-05 -0.00035389 -0.015166 -0.0089179
0.11122 0.21006 -0.010591 -0.0074625
7.3898e-05 -0.0013496 0.0010538 7.5077e-05 0.00033636 0.0001561 -0.00037194 0.00031117
-0.010589 -0.0074657 0.14685 0.30201
1460000000 0.28132 0.14591 -0.019084 0.0053003 0.0052301 -0.0022096 -0.0015153 0.0016362
0.0019082 -0.00065229 -0.00041798 -0.00080305
-0.019074 0.0052783 0.12124 0.33683 -0.0055599 0.01451 0.0017487 0.00014663
0.00079388 -0.0012242 0.0010324 -0.00056238
0.0052258 -0.0022328 -0.0055099 0.014544 0.36293 0.0020632 -0.0014175 -0.0012991
0.0001388 -0.00017047 0.00062313 -0.00032043
-0.0015212 0.0016399 0.001756 0.0001509 -0.0014185 -0.0012904 0.20289 0.17104
-0.015973 -0.0023041 -0.00029005 0.0020331
0.0019035 -0.00065671 0.00078453 -0.0012381 0.00014071 -0.00017161 -0.016003 -0.0022747
0.13964 0.19353 -0.011682 -0.0017155
-0.00042472 -0.00079248 0.0010327 -0.00057599 0.00062001 -0.00031367 -0.00028792 0.0020206
-0.01168 -0.0017229 0.17894 0.27903
1520000000 0.29217 0.10316 -0.013351 0.010222 0.0027885 -0.0041031 0.00010682 0.002556
0.0018489 -0.001653 -0.0010745 -8.3258e-05
-0.01336 0.010196 0.15434 0.32126 0.0015186 0.012389 0.0016869 -0.00087582
4.3262e-05 -0.0010417 0.00023703 -0.00092341
0.0027807 -0.0041215 0.0015817 0.012383 0.35518 -0.054823 -0.0013195 -0.00029879
0.00048389 -0.00088075 -3.1649e-05 -0.00013154
0.00011647 0.0025536 0.0016809 -0.00088903 -0.0013241 -0.0002908 0.22368 0.13249
-0.014982 0.0032815 0.0018223 0.001778
0.001849 -0.0016636 4.2364e-05 -0.0010484 0.00048509 -0.00088454 -0.014989 0.003311
0.16675 0.1773 -0.011262 0.0024793
-0.0010719 -7.5309e-05 0.00023206 -0.00092227 -3.4722e-05 -0.00012863 0.0018246 0.0017721
-0.011257 0.0024629 0.21049 0.2551
1580000000 0.29997 0.056928 -0.0071505 0.0127 -0.0011628 -0.0044696 0.0014821 0.0018216
-0.00021297 -0.0020138 -0.00025523 0.00040239
-0.0071513 0.012685 0.18112 0.296 0.0048437 0.0078027 0.00040432 -0.0017237
-0.00054596 -0.0010172 -0.00023245 -0.00076233
-0.0011866 -0.0044687 0.0048735 0.0077811 0.33419 -0.11219 -0.0016394 0.00087876
-0.00029103 -0.0010554 0.00019162 -0.00056749
0.001492 0.0018122 0.00039403 -0.0017211 -0.0016417 0.00088402 0.23522 0.093338
-0.011599 0.0080205 0.0023767 0.00022589
-0.00021627 -0.0020146 -0.00054995 -0.0010081 -0.00029514 -0.0010578 -0.011589 0.0080599
0.18959 0.1574 -0.0086794 0.0074356
-0.00025228 0.00040829 -0.00023325 -0.00077179 0.00018517 -0.00056942 0.0023792 0.00021926
-0.008685 0.0074245 0.23969 0.22646
1640000000 0.30084 0.015132 -0.0010412 0.011402 -0.0027286 -0.0023309 0.0026813 0.00087842
-0.00077096 -0.001458 -0.00018943 0.00054001
-0.0010511 0.0114 0.21032 0.27014 0.0054615 0.0034863 -0.00089139 -0.0016846
-0.0010684 -0.00036053 -0.000515 -0.00052795
-0.0027395 -0.0023268 0.0054698 0.0034556 0.30473 -0.16088 -0.00063541 0.0015921
-0.0011898 -0.00075835 -0.00018852 -0.00018979
0.0026774 0.00087454 -0.00089419 -0.0016736 -0.00063276 0.0015899 0.24543 0.045444
-0.0073555 0.0095587 0.002311 -0.001227
-0.00078179 -0.0014583 -0.0010684 -0.00035102 -0.0012043 -0.00075835 -0.0073401 0.0095919
0.21076 0.13135 -0.0041694 0.0091261
-0.00018605 0.00054621 -0.00052307 -0.00052978 -0.00018808 -0.00019338 0.0023113 -0.0012385
-0.0041755 0.0091263 0.26344 0.19316
1700000000 0.29197 -0.030364 0.0020059 0.0087505 -0.0032782 0.00032904 0.0029365 -0.0012809
-0.0019297 -0.00064054 0.00065955 0.00035309
0.0019972 0.0087481 0.22768 0.23823 0.0037016 0.00076685 -0.001496 -0.00043615
-0.00078672 0.00019034 -0.00083921 -0.00036652
-0.003293 0.00035357 0.0037028 0.00073789 0.26116 -0.20062 0.00073025 0.0015111
-0.0017891 -0.00014123 -0.00057535 -0.00071656
0.0029241 -0.0012865 -0.0015044 -0.00042458 0.00073169 0.0015123 0.24076 -0.0029425
-0.0042483 0.010295 0.0012056 -0.0022253
-0.0019323 -0.00062914 -0.00078158 0.00019918 -0.001792 -0.0001397 -0.0042389 0.010305
0.22616 0.10959 0.00021818 0.0093848
0.00066492 0.00034785 -0.00084142 -0.00036215 -0.00058201 -0.00071778 0.0012133 -0.0022335
0.00021321 0.0093938 0.27722 0.15736
1760000000 0.27851 -0.078649 0.0039999 0.0056253 -0.0020326 0.00089706 0.0010532 -0.0034191
-0.0013829 0.00072259 0.00045679 -0.00044043
0.0039873 0.0056315 0.25303 0.1976 0.0016456 -0.0010855 -0.0011711 0.00034221
-0.00093504 0.00091094 -0.00056019 0.00047664
-0.0020236 0.00089986 0.0016382 -0.0010943 0.21206 -0.23411 0.0013525 0.00083673
-0.0010762 0.0015662 -0.0012044 -0.00027179
0.0010423 -0.0034243 -0.0011671 0.00035052 0.0013537 0.00083908 0.23094 -0.052325
-0.0006261 0.0096077 -0.00054212 -0.0023755
-0.0013756 0.00073118 -0.00093262 0.0009141 -0.0010817 0.0015671 -0.00060824 0.0096141
0.23899 0.073464 0.0037419 0.0067414
0.00045622 -0.00043774 -0.00055664 0.0004871 -0.0012052 -0.00026897 -0.00055071 -0.002373
0.0037422 0.0067543 0.28766 0.11878
1820000000 0.25235 -0.11555 0.0040617 0.0023301 0.00013606 0.0023559 -0.0012021 -0.0028344
-0.001025 0.0010786 -2.7356e-05 -9.2159e-05
0.004066 0.0023289 0.26195 0.16718 -0.00013348 5.5744e-05 -0.0011214 0.0010272
7.6287e-05 0.0013085 -0.00046264 0.00054571
0.00013383 0.002359 -0.00013458 5.5393e-05 0.16118 -0.2491 0.0013488 6.1317e-05
-6.6725e-05 0.002165 -0.0013002 0.00053363
-0.0012086 -0.0028316 -0.0011038 0.0010321 0.001357 5.9581e-05 0.20099 -0.097527
0.0013237 0.0077945 -0.0016592 -0.0012818
-0.0010235 0.0010896 8.2607e-05 0.0013084 -6.7866e-05 0.0021694 0.0013494 0.0077949
0.25397 0.04334 0.0046841 0.0033897
-3.0114e-05 -9.5219e-05 -0.00045729 0.00054459 -0.0012981 0.000535 -0.0016526 -0.0012852
0.0046798 0.003387 0.28742 0.081178
1880000000 0.2158 -0.15491 0.0017854 0.00023545 -0.00040588 0.0018142 -0.0028846 -0.0019019
-9.3938e-05 0.0017054 0.00023123 -0.00043741
0.0017841 0.00023068 0.26551 0.12043 -0.0021958 0.0015801 2.9748e-05 0.0015908
0.00070602 0.0010438 0.00020736 0.00088211
-0.00040132 0.0018208 -0.0021819 0.0015979 0.10835 -0.25877 0.0014384 -0.0010393
0.001584 0.001632 -0.00070922 0.0013463
-0.0028857 -0.0018907 2.4935e-05 0.0015913 0.0014488 -0.0010448 0.16151 -0.13661
0.0022874 0.0053901 -0.0021186 0.00049151
-9.119e-05 0.0017106 0.00070507 0.0010345 0.0016005 0.001622 0.0023054 0.0053863
0.25462 0.0098616 0.0044372 0.0014552
0.00022217 -0.00043315 0.00021586 0.00088046 -0.00070591 0.0013489 -0.0021158 0.00049463
0.0044315 0.0014626 0.28476 0.047048
1940000000 0.17568 -0.17984 -0.00036931 -0.001131 0.0013853 0.0017913 -0.0034945 0.00072234
0.0015546 0.0011035 -0.00059469 -0.00060131
-0.00037166 -0.0011311 0.26499 0.088711 -0.001006 0.0038848 0.00099575 0.0010681
0.0016893 0.00032906 0.00085112 0.00031182
0.0013953 0.0017845 -0.00097803 0.0039056 0.062025 -0.25154 7.2177e-05 -0.0017799
0.0022978 0.00014723 0.00043634 0.0015088
-0.0034977 0.00073183 0.00099638 0.001056 7.808e-05 -0.0017925 0.11015 -0.16664
0.0015278 0.0036091 -0.0013201 0.0014836
0.0015572 0.0010966 0.0017039 0.00031632 0.0023001 0.00013955 0.001544 0.0036147
0.25432 -0.02974 0.0033432 -0.0013847
-0.00059891 -0.00059001 0.00085394 0.00031002 0.00043751 0.0015097 -0.0013037 0.0014841
0.0033336 -0.0013848 0.27202 0.010343
2000000000 0.12873 -0.19364 -0.0040307 0.0010161 0.0024613 0.0014782 -0.0021687 0.0033075
0.0012625 -7.7236e-05 -0.00059706 0.00040619
-0.0040244 0.0010169 0.25006 0.053347 -0.00083626 0.0056648 0.0014842 0.00015351
0.0011861 -0.0012717 0.00036717 3.6281e-05
0.0024708 0.0014699 -0.00080339 0.0056709 0.018241 -0.23642 -0.0011306 -0.00092728
0.0017626 -0.0011074 0.0016397 0.0010857
-0.0021594 0.0033138 0.0014837 0.00015282 -0.0011316 -0.00092768 0.057503 -0.17712
-0.00014714 0.0028989 7.2001e-05 0.0020729
0.0012567 -8.9379e-05 0.0011834 -0.0012849 0.0017623 -0.0011118 -0.00013507 0.0029034
