!Keysight Technologies,M9804A,MY58100912,A.14.10.03
!Date: Thursday, April 27, 2023 10:28:33
!Correction: S11(C  6-Port  ) 
!S12(C  6-Port  ) 
!S13(C  6-Port  ) 
!S14(C  6-Port  ) 
!S15(C  6-Port  ) 
!S16(C  6-Port  ) 
!S21(C  6-Port  ) 
!S22(C  6-Port  ) 
!S23(C  6-Port  ) 
!S24(C  6-Port  ) 
!S25(C  6-Port  ) 
!S26(C  6-Port  ) 
!S31(C  6-Port  ) 
!S32(C  6-Port  ) 
!S33(C  6-Port  ) 
!S34(C  6-Port  ) 
!S35(C  6-Port  ) 
!S36(C  6-Port  ) 
!S41(C  6-Port  ) 
!S42(C  6-Port  ) 
!S43(C  6-Port  ) 
!S44(C  6-Port  ) 
!S45(C  6-Port  ) 
!S46(C  6-Port  ) 
!S51(C  6-Port  ) 
!S52(C  6-Port  ) 
!S53(C  6-Port  ) 
!S54(C  6-Port  ) 
!S55(C  6-Port  ) 
!S56(C  6-Port  ) 
!S61(C  6-Port  ) 
!S62(C  6-Port  ) 
!S63(C  6-Port  ) 
!S64(C  6-Port  ) 
!S65(C  6-Port  ) 
!S66(C  6-Port  ) 
!S6P File: Measurement: :
# Hz S  RI   R 50
500000000 -0.33936 -0.017412 -0.01053 -0.0033686 -0.0072446 0.012151 -0.0031427 0.011952
0.011279 0.0035923 -0.002713 0.0078473
-0.010566 -0.0033907 -0.4197 -0.035281 0.0063761 -0.011694 0.0019826 0.012506
0.0066442 0.0020359 0.0024458 0.013631
-0.0071883 0.012199 0.0064313 -0.011698 -0.26216 0.2231 0.0073825 0.0036236
-0.00054118 0.0082507 0.002659 0.012036
-0.0029916 0.01209 0.0020207 0.012614 0.0073959 0.0036153 -0.33016 0.063447
-0.01895 -0.0066281 0.015398 0.023697
0.011171 0.0038549 0.0066392 0.0022395 -0.00060885 0.0082792 -0.018992 -0.006657
-0.23716 -0.163 -0.024561 0.0043168
-0.0024756 0.0081829 0.0024158 0.013951 0.0025893 0.011849 0.015502 0.023614
-0.024312 0.0041528 -0.28455 -0.077343
560000000 -0.31093 0.13807 -0.026924 -0.060639 0.00089045 0.011512 0.0056093 0.0096072
0.008941 0.0042325 0.010406 0.0066272
-0.026886 -0.060654 -0.37522 0.1189 -0.042001 -0.034795 0.013326 0.0031921
-0.012457 -0.0037831 0.0031792 -0.00099753
0.0008323 0.011593 -0.042109 -0.034696 -0.17986 0.26723 -0.0003566 -0.0045167
0.01834 0.0033296 0.0067583 -0.0065852
0.0057285 0.0094049 0.013262 0.0031691 -0.00036038 -0.0047742 -0.30367 0.14901
0.00042653 -0.024343 0.003005 -0.018243
0.0089575 0.0041983 -0.012289 -0.0038138 0.018149 0.0034389 0.00063503 -0.024235
-0.28646 0.0096812 0.0030622 -0.046014
0.010478 0.0065213 0.003547 -0.0012205 0.0070684 -0.006484 0.003023 -0.018326
0.003189 -0.046064 -0.32979 0.059897
620000000 -0.27042 0.12362 -0.023419 0.0068783 0.0039082 0.0077865 0.007514 -0.0053228
0.010287 -0.0016055 0.00057823 -0.0025417
-0.023413 0.006839 -0.40123 0.074292 -0.019813 0.00020759 -0.0010437 -0.0022195
0.0098991 -0.0065832 0.0014515 -0.0028409
0.0038751 0.0079062 -0.019742 0.00023939 -0.14936 0.27693 -0.0012059 -0.0047412
-0.0036228 -0.0027361 0.0079554 -0.003837
0.0076657 -0.0051602 -0.00102 -0.0023359 -0.0010322 -0.0049352 -0.26226 0.16043
-0.03902 -0.017169 0.011871 0.022342
0.010107 -0.0017625 0.0099592 -0.006447 -0.0037336 -0.0025937 -0.03911 -0.017182
-0.21054 -0.027966 -0.038206 0.01494
0.00037337 -0.002538 0.0013895 -0.0027682 0.007955 -0.0037534 0.012105 0.022701
-0.038394 0.014824 -0.25559 0.032282
680000000 -0.22701 0.20511 -0.027991 -0.011972 0.0053764 0.0045395 0.00083904 -0.0071292
-0.0032322 -0.010968 0.0038417 -0.0066262
-0.027968 -0.011996 -0.38412 0.16834 -0.032338 0.00058625 -0.0014111 -0.0004966
-0.0026684 -0.0087508 -0.0015426 -0.0020809
0.0053532 0.004569 -0.03232 0.00063935 -0.098394 0.2949 -0.00081161 -0.00025771
-0.0017002 0.00023708 -0.0036025 -0.008581
0.00080324 -0.0070107 -0.0014271 -0.00056567 -0.00085022 -0.00033096 -0.21662 0.20772
-0.025403 -0.0053338 -0.0090674 -0.0084003
-0.0031863 -0.011103 -0.0026544 -0.0087718 -0.0016687 0.00018872 -0.025452 -0.0052313
-0.24862 0.068815 -0.0067328 -0.0069912
0.0038444 -0.0067039 -0.0016435 -0.0020683 -0.0036656 -0.0086176 -0.0090019 -0.0083538
-0.0067967 -0.0070692 -0.25331 0.12651
740000000 -0.18393 0.19975 -0.036604 0.026172 0.01175 -0.0057628 -0.00064763 -0.0039172
-0.0051923 -0.002788 -0.0059499 0.0036069
-0.036585 0.026115 -0.33285 0.18797 -0.032769 0.034829 -0.00092803 -0.006103
-0.011166 0.008017 -0.0020107 -0.0046794
0.011716 -0.0057346 -0.032689 0.034902 -0.064547 0.29442 -0.0016122 0.0031057
-0.003334 -0.0042707 -0.0020034 0.0011649
-0.00090589 -0.0039418 -0.00080454 -0.0061105 -0.0017105 0.0030037 -0.19854 0.21629
-0.041993 -0.0035018 0.021404 0.012104
-0.0050853 -0.0026224 -0.011357 0.0079718 -0.0035597 -0.0043019 -0.042136 -0.0033449
-0.15821 0.088855 -0.038538 0.0034614
-0.0060769 0.0035289 -0.0018578 -0.0044834 -0.0020483 0.0012566 0.02143 0.012125
-0.038558 0.0033802 -0.2407 0.13652
800000000 -0.15021 0.23688 -0.02142 0.017624 0.0043399 -0.010345 -0.0044191 -0.0016578
-0.0037515 0.0029322 0.0036737 0.00075623
-0.021418 0.017605 -0.33255 0.25627 -0.0065798 0.033527 -0.0022611 0.00229
-0.00043816 0.0032735 0.0011679 0.0052458
0.0043761 -0.010319 -0.0065113 0.033505 -0.021791 0.31636 0.00088462 0.0015343
0.00041843 0.0035218 -0.0018395 0.0012039
-0.0044985 -0.0016398 -0.002174 0.0022572 0.00087262 0.0015216 -0.16868 0.24278
-0.026673 0.016068 0.012187 -0.0098912
-0.0037623 0.002971 -0.00057617 0.0033654 0.00035838 0.0035756 -0.026667 0.016197
-0.19414 0.11635 -0.015667 0.018534
0.0035399 0.00065806 0.0012505 0.0052535 -0.0018706 0.0012264 0.01225 -0.0099019
-0.015643 0.018488 -0.22829 0.18198
860000000 -0.11513 0.25699 -0.015754 0.031087 -0.0039186 -0.009303 -0.0022932 0.0014262
0.0045201 0.0048296 -0.0026945 -0.0024538
-0.01574 0.031042 -0.28498 0.29713 0.0093046 0.032908 0.00032207 0.0022035
0.0047445 0.00052906 0.0031585 0.00048173
-0.003948 -0.009282 0.0093613 0.032955 0.027091 0.32315 -0.00027588 -6.9123e-05
0.0025032 -0.0011839 0.0016161 0.0040584
-0.0022201 0.001493 0.0003099 0.0022705 -0.00032506 -3.9521e-05 -0.13166 0.25356
-0.01515 0.020968 -0.0055552 -0.008853
0.0044838 0.0047811 0.0048096 0.0005137 0.0024366 -0.0011941 -0.015204 0.021063
-0.1424 0.16191 -0.021911 0.016628
-0.0026836 -0.0024985 0.0030576 0.00066779 0.0015952 0.0041086 -0.0055582 -0.0088988
-0.021768 0.016503 -0.17921 0.22169
920000000 -0.088259 0.27863 0.006452 0.03679 -0.0091846 -0.0035567 -0.0013468 0.001971
0.001736 0.0016792 0.0028164 -0.0018553
0.0064273 0.036756 -0.25451 0.31745 0.028156 0.020012 0.0017112 0.00095801
0.007171 -0.00055254 0.0036019 -0.003054
-0.0091234 -0.003603 0.02823 0.019972 0.074481 0.32275 0.0019318 -0.00010976
0.0016669 -0.00055812 0.00092776 -0.0011508
-0.0013105 0.0019277 0.0017182 0.00091837 0.0019321 -8.0359e-05 -0.10561 0.26913
-0.0072145 0.03067 0.0021618 -0.0059975
0.0016808 0.0016546 0.0071766 -0.00064159 0.0016521 -0.00055371 -0.0071817 0.030704
-0.12699 0.16752 -3.6869e-05 0.02507
0.0027654 -0.0017615 0.0035787 -0.0030479 0.0009475 -0.0011608 0.0022455 -0.0060385
-0.00015414 0.02499 -0.1778 0.23667
980000000 -0.041013 0.29635 0.018886 0.028326 -0.008185 0.004771 0.0022419 0.0030713
0.0039052 -0.0021913 -0.0032756 -0.0020655
0.018832 0.028318 -0.20231 0.3497 0.032325 0.002986 0.0021183 -0.00034932
0.0014163 -0.0062662 -0.00077593 -0.0024261
-0.0081734 0.0048044 0.032303 0.0029178 0.12125 0.31468 0.00049493 -0.001323
8.0401e-05 -0.0022454 0.0013605 -0.00025811
0.0022259 0.0030721 0.0020803 -0.00036737 0.00048847 -0.001326 -0.066291 0.27886
0.010703 0.027954 -0.0084494 -0.0059559
0.0039256 -0.0021304 0.0012996 -0.0063092 6.3546e-05 -0.0022978 0.010743 0.027919
-0.096649 0.19139 0.0060776 0.018492
-0.0031311 -0.0021658 -0.0007182 -0.0023697 0.001372 -0.00030435 -0.0084742 -0.0059544
0.0060275 0.018392 -0.13325 0.27487
1040000000 0.0022562 0.30318 0.032907 0.015561 -0.00098116 0.0065593 0.0024462 0.00042853
-4.649e-05 -0.0032637 -0.00072791 -0.0014381
0.032881 0.015577 -0.16622 0.36248 0.027431 -0.015642 0.0013678 -0.0017891
-0.0023935 -0.0023903 -0.0015731 -0.0027297
-0.00094841 0.0065778 0.027371 -0.015709 0.16791 0.29948 -0.00065262 -0.0014735
-0.0015622 -0.00085458 -0.00039636 -0.0011283
0.0024495 0.00045498 0.0013845 -0.0018173 -0.00063956 -0.0014722 -0.037258 0.28736
0.020819 0.015324 -0.0026657 0.0013812
-5.6279e-05 -0.0032132 -0.0024714 -0.0024228 -0.0015725 -0.00083299 0.02086 0.015325
-0.064071 0.1975 0.013793 0.015636
-0.00075308 -0.0014423 -0.0016137 -0.0027736 -0.00040611 -0.0011105 -0.0026625 0.0013734
0.013816 0.015633 -0.1075 0.29324
1100000000 0.047665 0.3091 0.03426 -0.00598 0.0027808 0.0035541 0.0021801 -0.0011792
-0.0022471 -0.0027873 -0.003508 0.00053262
0.034256 -0.0059624 -0.12275 0.37849 0.013284 -0.027381 -0.00011998 -0.0018068
-0.0033679 -0.00048785 -0.0033022 -0.00014989
0.0027751 0.0035668 0.013197 -0.027429 0.21426 0.27719 -0.0017992 0.000193
-0.0017421 0.0006668 -0.00088863 -0.00027144
0.002195 -0.0011595 -0.00012061 -0.0017994 -0.0018 0.0001871 0.0040873 0.28994
0.024227 0.0022064 -0.0023782 0.0002572
-0.0022331 -0.0027661 -0.0033763 -0.00044685 -0.0017393 0.00063887 0.024234 0.0021832
-0.04492 0.20875 0.018103 0.0061442
-0.003494 0.0005207 -0.0032966 -0.00011845 -0.00087667 -0.00028392 -0.0023748 0.00030635
0.018098 0.0061445 -0.060798 0.31708
1160000000 0.098856 0.30276 0.021864 -0.021447 0.0023242 -0.00044894 -0.00014944 -0.0021195
-0.0039354 -0.00039809 -0.00057333 0.0037179
0.021891 -0.021414 -0.07807 0.38194 -0.0050011 -0.027714 -0.0016528 -0.0014571
-0.0024531 0.0023989 -0.0012809 0.0017665
0.0023542 -0.00044004 -0.0050951 -0.027723 0.25681 0.24464 -0.00069738 0.0017037
-0.00050252 0.0018087 -0.00085999 0.00016912
-0.00016823 -0.0020957 -0.001697 -0.0014689 -0.00069954 0.0017085 0.043758 0.28468
0.019523 -0.012384 -0.0028373 0.0044429
-0.0039491 -0.00034357 -0.0024645 0.0024266 -0.00049801 0.001826 0.019522 -0.012429
-0.011119 0.21622 0.016707 -0.0019916
-0.00054989 0.003695 -0.0012211 0.001753 -0.00086153 0.00014761 -0.002887 0.0044725
0.016745 -0.0019359 -0.013866 0.31735
1220000000 0.14356 0.28917 0.0081846 -0.029343 -0.0015522 -0.00040376 7.0194e-05 -0.00087964
-0.0023547 0.0023653 0.0013577 0.0018536
0.0082009 -0.02931 -0.034009 0.39225 -0.016985 -0.019441 -0.0024086 0.00049544
0.00017045 0.0028196 -0.00047944 0.0018502
-0.0015589 -0.00041807 -0.017065 -0.019381 0.29519 0.20407 0.00072102 0.001763
0.00059034 0.0012027 0.00024079 0.00052446
7.5312e-05 -0.00087231 -0.0023936 0.00048597 0.0007367 0.001761 0.083848 0.27357
0.0087022 -0.018143 0.0015991 0.0014292
-0.00235 0.0023536 0.00020877 0.0027998 0.00059323 0.0011914 0.0086781 -0.018157
0.013119 0.22248 0.011568 -0.013222
0.0013735 0.0018358 -0.00044246 0.001853 0.00024414 0.00051743 0.0016246 0.0014141
0.011523 -0.013229 0.019837 0.32817
1280000000 0.19208 0.26546 -0.0091749 -0.026798 -0.0014865 0.0026632 -0.00099886 -0.0019648
-0.00054032 0.0028572 0.0023117 0.00081098
-0.0091547 -0.026783 0.011583 0.38241 -0.022992 -0.0073133 -0.00094114 0.00139
0.0016256 0.0016097 0.0007275 0.0017119
-0.0014922 0.0026624 -0.023005 -0.0072273 0.32451 0.15924 0.0015904 -1.1678e-05
0.0010049 0.00020359 0.00018568 0.00026321
-0.00097243 -0.0019533 -0.00093085 0.0013883 0.0015751 -1.0344e-05 0.11963 0.25457
-0.00086137 -0.019199 -0.00030889 0.0003807
-0.00054609 0.0028514 0.0016457 0.0015967 0.0010212 0.00021587 -0.00089427 -0.019196
0.04928 0.22382 0.0013235 -0.014665
0.0022949 0.00082747 0.00072151 0.0017213 0.00013391 0.0002868 -0.00029762 0.00037362
0.0013408 -0.014628 0.065652 0.32575
1340000000 0.22855 0.22993 -0.017902 -0.016985 0.0013262 0.0042173 -0.0017013 -0.00082772
0.0014356 0.0024497 0.0014541 -0.0014768
-0.01788 -0.016998 0.050958 0.37286 -0.020401 0.0048231 -0.000138 0.0020011
0.0018477 0.00065262 0.0012938 0.00063802
0.0013309 0.0041883 -0.020421 0.0049124 0.34563 0.11082 0.0011837 -0.0009785
0.0006656 -0.00048403 0.00018571 0.00023817
-0.0017134 -0.00084491 -0.00013467 0.002001 0.0011963 -0.001005 0.15091 0.23208
-0.0098128 -0.015776 0.00061017 0.00097527
0.0014306 0.0024359 0.0018374 0.00063907 0.00065746 -0.00046165 -0.0098425 -0.01578
0.079219 0.21685 -0.0051354 -0.012655
0.0014334 -0.0014659 0.0013125 0.00062879 0.00017238 0.00025269 0.00059206 0.00094225
-0.0051193 -0.01265 0.10438 0.31693
1400000000 0.25984 0.19035 -0.022465 -0.0058346 0.005176 0.0026031 -0.0020595 0.00058896
0.0022935 0.00067468 0.00010298 -0.0013599
-0.022447 -0.005843 0.087359 0.35912 -0.013689 0.012146 0.0013069 0.0013347
0.001136 -0.00079914 0.0010641 7.5287e-05
0.0051984 0.0025593 -0.013647 0.012212 0.358 0.056636 0.00016184 -0.0017809
7.4002e-05 -0.00036366 0.00032144 0.00017272
-0.0020606 0.00062157 0.0013245 0.0013368 0.00014614 -0.0017762 0.17877 0.20147
-0.015115 -0.0089461 -0.00038177 0.00031047
0.0023226 0.0006899 0.0011288 -0.00079712 7.4085e-05 -0.0003495 -0.015154 -0.0088967
0.11113 0.21009 -0.010575 -0.0074853
9.2029e-05 -0.0013556 0.0010465 8.0449e-05 0.00030761 0.00016197 -0.00036437 0.00030613
-0.010563 -0.0074755 0.14661 0.30208
1460000000 0.28121 0.14579 -0.019121 0.0054488 0.0052645 -0.0022231 -0.001508 0.0016725
0.00193 -0.00064844 -0.00043003 -0.00080902
-0.019105 0.0054163 0.12127 0.33675 -0.0055562 0.014487 0.0017797 0.00015777
0.00077489 -0.0012425 0.0010371 -0.00056239
0.0052576 -0.0022555 -0.0054927 0.014543 0.36291 0.002061 -0.0014058 -0.0012927
0.00013885 -0.00016017 0.00062474 -0.00030931
-0.0015144 0.0016702 0.0017433 0.00015235 -0.0014007 -0.001293 0.20287 0.1711
-0.015976 -0.0022929 -0.00029779 0.0020342
0.0019066 -0.00066364 0.00077797 -0.0012477 0.00015361 -0.00016905 -0.01599 -0.0022717
0.13958 0.19359 -0.011674 -0.0017075
-0.00043149 -0.00082449 0.0010411 -0.00058205 0.00061801 -0.00028418 -0.00029568 0.0020044
-0.011667 -0.001746 0.17874 0.27911
1520000000 0.29201 0.10314 -0.013296 0.01035 0.0028031 -0.0041164 0.00013205 0.0025453
0.0018534 -0.0016659 -0.0010636 -5.7133e-05
-0.013297 0.010334 0.15432 0.32116 0.001501 0.012401 0.0016935 -0.0008885
4.2579e-05 -0.0010381 0.00024679 -0.00091779
0.0027942 -0.0041191 0.0015728 0.012409 0.35518 -0.054819 -0.0013372 -0.00029832
0.00048408 -0.0008628 -4.5455e-05 -0.00012103
0.00012402 0.0025422 0.0016871 -0.00090132 -0.0013257 -0.00030113 0.22367 0.13257
-0.014976 0.0032687 0.0018285 0.0017683
0.0018567 -0.0016569 1.4982e-05 -0.0010467 0.00048009 -0.00088718 -0.014995 0.0033125
0.16669 0.17734 -0.011249 0.0024419
-0.0010646 -4.2968e-05 0.00023412 -0.00092254 -4.5437e-05 -0.00014228 0.0018293 0.0017609
-0.011247 0.0024414 0.21031 0.25521
1580000000 0.29983 0.05692 -0.0070343 0.012784 -0.0011601 -0.0045117 0.0014909 0.001821
-0.00021267 -0.0020184 -0.00024599 0.00042024
-0.0070471 0.012772 0.18104 0.29597 0.0048415 0.0078182 0.00039426 -0.0017287
-0.00054687 -0.0010024 -0.00022808 -0.00077017
-0.0011846 -0.0044891 0.0048716 0.0078132 0.33413 -0.11214 -0.0016478 0.00087547
-0.00030181 -0.0010708 0.00020194 -0.00055403
0.0014732 0.0018139 0.00038926 -0.0017417 -0.0016389 0.00088887 0.23524 0.0934
-0.011601 0.0080276 0.0023759 0.00023159
-0.00022626 -0.0020207 -0.00056478 -0.0010184 -0.00026632 -0.0010547 -0.011601 0.008067
0.18952 0.15745 -0.0086839 0.0074165
-0.00025573 0.00040142 -0.00025045 -0.00077884 0.00016838 -0.00056916 0.0023661 0.00024508
-0.0086678 0.0074051 0.23957 0.2266
1640000000 0.3007 0.015249 -0.00087316 0.011422 -0.0026999 -0.0023301 0.0026771 0.00086478
-0.00075885 -0.0014603 -0.00018086 0.00055196
-0.00089222 0.011414 0.21021 0.27017 0.0054777 0.0035045 -0.0008997 -0.0016696
-0.0010513 -0.00035225 -0.00051278 -0.00053791
-0.0026904 -0.0022931 0.005502 0.0034957 0.30476 -0.16085 -0.00063417 0.001599
-0.0011789 -0.00079869 -0.00014714 -0.00017963
0.0026706 0.00087528 -0.00091985 -0.0016725 -0.00063501 0.0015698 0.24545 0.04548
-0.0073648 0.0095492 0.0023203 -0.0012003
-0.00077386 -0.0014448 -0.0010633 -0.0003503 -0.0011973 -0.00078235 -0.0073504 0.0095764
0.21069 0.1314 -0.004188 0.0091271
-0.00017282 0.000529 -0.00051977 -0.00053384 -0.000181 -0.00018429 0.0022952 -0.001219
-0.0041795 0.0091258 0.26334 0.19328
1700000000 0.2919 -0.030229 0.0021407 0.0086822 -0.0032997 0.00031357 0.0029175 -0.0012954
-0.001933 -0.00062536 0.00065445 0.00035676
0.0021325 0.0086727 0.22761 0.23831 0.0037268 0.00075254 -0.0015048 -0.00041399
-0.0007814 0.00018529 -0.00084621 -0.00036932
-0.0032687 0.00033829 0.0037294 0.00076092 0.26111 -0.20066 0.00074461 0.0014915
-0.0017887 -0.00014855 -0.00055723 -0.00074961
0.002906 -0.0013001 -0.0015131 -0.00040806 0.00076635 0.0014884 0.24083 -0.002909
-0.004245 0.010292 0.00122 -0.0022298
-0.0019462 -0.00062578 -0.00077183 0.00018686 -0.001789 -0.00014157 -0.0042273 0.010325
0.22609 0.10964 0.00019675 0.0094046
0.00068103 0.00033252 -0.00083491 -0.00037156 -0.000595 -0.00073176 0.0011917 -0.0022239
0.0001958 0.0094006 0.27711 0.15751
1760000000 0.27848 -0.078518 0.0040759 0.0055066 -0.0020725 0.00093011 0.0010298 -0.0034015
-0.001385 0.0007144 0.00046828 -0.0004429
0.004066 0.0055044 0.25302 0.1977 0.001668 -0.0011179 -0.0011601 0.00035603
-0.00093106 0.00089639 -0.00055355 0.00048408
-0.0020644 0.00093654 0.0016727 -0.0011021 0.21211 -0.23403 0.0013408 0.00086231
-0.0010959 0.0015781 -0.0011954 -0.00027096
0.001029 -0.0034166 -0.0011627 0.00036624 0.0013258 0.00088058 0.23095 -0.052302
-0.00063284 0.0096001 -0.00054364 -0.0023782
-0.0013611 0.00074252 -0.0009227 0.0009206 -0.001123 0.0015954 -0.00061171 0.0096092
0.23895 0.07354 0.0037357 0.006735
0.00042907 -0.00044863 -0.0005511 0.00047369 -0.001199 -0.00030393 -0.00054782 -0.0023641
0.0037289 0.0067421 0.28759 0.11891
1820000000 0.25246 -0.11539 0.0040803 0.0022092 8.9761e-05 0.0023954 -0.0011879 -0.0028416
-0.0010122 0.0010702 -2.5879e-05 -9.673e-05
0.0040677 0.0022135 0.26198 0.16727 -0.00014603 5.9286e-05 -0.0010888 0.0010271
7.2345e-05 0.0013023 -0.00044517 0.00054285
9.3337e-05 0.0023875 -0.00013027 5.7549e-05 0.16115 -0.24906 0.0013321 2.0038e-05
-7.5349e-05 0.0021603 -0.0012776 0.00051652
-0.001199 -0.0028442 -0.0010839 0.0010348 0.0013141 3.9742e-05 0.201 -0.097542
0.0013231 0.0077844 -0.0016388 -0.0012853
-0.00099442 0.0010545 8.4031e-05 0.0013029 -3.9393e-05 0.0021782 0.001351 0.0078034
0.25389 0.043371 0.0046761 0.0033988
-4.0899e-05 -8.8592e-05 -0.00045273 0.00055172 -0.0012796 0.00051976 -0.0016547 -0.0012854
0.0046859 0.0033874 0.28737 0.081315
1880000000 0.2159 -0.15482 0.0017266 0.0001235 -0.00036025 0.0018255 -0.0028845 -0.0018728
-0.00010751 0.0016978 0.00022882 -0.00045509
0.0017358 0.00013623 0.26559 0.12049 -0.0022067 0.001573 3.5219e-05 0.0015781
0.00068287 0.0010378 0.0002293 0.00087795
-0.00040485 0.0018562 -0.0022322 0.0015751 0.10827 -0.25867 0.0014335 -0.0010687
0.001585 0.0016485 -0.00074707 0.0013473
-0.0029077 -0.0018762 4.5928e-05 0.001584 0.0014197 -0.0010485 0.16152 -0.13662
0.0022876 0.0054014 -0.002116 0.00051194
-9.3757e-05 0.0016717 0.00069975 0.0010399 0.0015841 0.0016155 0.00228 0.0053847
0.25456 0.0099886 0.004397 0.0014708
0.00023186 -0.00046213 0.00023154 0.00090312 -0.0007153 0.0013383 -0.0021051 0.00049807
0.0044013 0.0014594 0.28468 0.047184
1940000000 0.17584 -0.1798 -0.00043896 -0.0011861 0.001391 0.0018749 -0.0034701 0.00072295
0.0015308 0.0011031 -0.00060475 -0.0005959
-0.00043649 -0.0011884 0.26509 0.088729 -0.0010312 0.0038894 0.0010011 0.0010681
0.0016872 0.00033055 0.00084401 0.00032359
0.0013875 0.0018878 -0.0010326 0.0039 0.062006 -0.25148 9.595e-05 -0.0017684
0.0022856 0.00016279 0.00043518 0.0015063
-0.0034881 0.00072698 0.00097876 0.0010433 9.5612e-05 -0.0017962 0.11018 -0.16665
0.0015332 0.003614 -0.0012732 0.0014738
0.0015691 0.0011174 0.0016963 0.00032488 0.0023481 0.0001641 0.001582 0.0036212
0.25427 -0.029641 0.0033352 -0.0013783
-0.00058193 -0.00053181 0.00086331 0.00033961 0.00046183 0.0015618 -0.0013011 0.0015255
0.0033102 -0.0013682 0.27195 0.010502
2000000000 0.12888 -0.1937 -0.0040959 0.00098487 0.0024646 0.0014813 -0.0021648 0.0033125
0.0012277 -7.7985e-05 -0.00058142 0.00039104
-0.0040931 0.00097265 0.25015 0.053304 -0.00085186 0.005683 0.0014759 0.00015884
0.0012053 -0.0012899 0.00039349 2.0994e-05
0.0025005 0.0014563 -0.00082739 0.0056624 0.018252 -0.23643 -0.001112 -0.00094195
0.0017853 -0.0011231 0.0016727 0.0010853
-0.0021571 0.0033304 0.0014654 0.00016107 -0.0011031 -0.00093131 0.057534 -0.1771
-0.00012865 0.0029195 8.2889e-05 0.0020919
0.0012375 -8.6194e-05 0.0011959 -0.0012795 0.0017658 -0.0010763 -0.00014843 0.002923
0.24585 -0.063796 0.00043136 -0.0023881
