!Keysight Technologies,M9804A,MY58100912,A.14.10.03
!Date: Thursday, April 27, 2023 10:28:33
!Correction: S11(C  6-Port  ) 
!S12(C  6-Port  ) 
!S13(C  6-Port  ) 
!S14(C  6-Port  ) 
!S15(C  6-Port  ) 
!S16(C  6-Port  ) 
!S21(C  6-Port  ) 
!S22(C  6-Port  ) 
!S23(C  6-Port  ) 
!S24(C  6-Port  ) 
!S25(C  6-Port  ) 
!S26(C  6-Port  ) 
!S31(C  6-Port  ) 
!S32(C  6-Port  ) 
!S33(C  6-Port  ) 
!S34(C  6-Port  ) 
!S35(C  6-Port  ) 
!S36(C  6-Port  ) 
!S41(C  6-Port  ) 
!S42(C  6-Port  ) 
!S43(C  6-Port  ) 
!S44(C  6-Port  ) 
!S45(C  6-Port  ) 
!S46(C  6-Port  ) 
!S51(C  6-Port  ) 
!S52(C  6-Port  ) 
!S53(C  6-Port  ) 
!S54(C  6-Port  ) 
!S55(C  6-Port  ) 
!S56(C  6-Port  ) 
!S61(C  6-Port  ) 
!S62(C  6-Port  ) 
!S63(C  6-Port  ) 
!S64(C  6-Port  ) 
!S65(C  6-Port  ) 
!S66(C  6-Port  ) 
!S6P File: Measurement: :
# Hz S  RI   R 50
500000000 -0.33659 -0.035164 -0.0098087 -0.0038196 -0.0077536 0.011646 -0.0036918 0.011974
0.012412 0.0049002 -0.0038324 0.0082247
-0.009805 -0.0038238 -0.41956 -0.049794 0.0070823 -0.011433 0.0014294 0.011202
0.0082532 0.00238 0.0011927 0.012083
-0.0077205 0.011631 0.0070714 -0.011454 -0.26502 0.21117 0.0064477 0.0027721
1.1852e-05 0.0084942 0.00045507 0.011285
-0.0036388 0.011968 0.0014425 0.011217 0.0064388 0.0027886 -0.32732 0.0472
-0.019196 -0.004505 0.017795 0.024511
0.012423 0.0048899 0.008265 0.0023392 3.9161e-06 0.0084995 -0.019192 -0.0044945
-0.22679 -0.18417 -0.026566 0.0049568
-0.0036733 0.0082438 0.0012005 0.012073 0.00039019 0.011305 0.017823 0.024451
-0.026532 0.0049642 -0.2725 -0.11143
560000000 -0.31534 0.12485 -0.023723 -0.063049 -5.6021e-05 0.011914 0.0063149 0.0097535
0.010117 0.0038905 0.0098837 0.007347
-0.023695 -0.063003 -0.37637 0.10823 -0.041769 -0.036159 0.013595 0.0030457
-0.01332 -0.0039455 0.0045256 -0.0006977
1.6573e-06 0.011901 -0.041907 -0.036105 -0.18273 0.25883 -0.00061435 -0.0048075
0.019445 0.0036959 0.006766 -0.0055459
0.0063683 0.0097224 0.013563 0.0030585 -0.00061143 -0.0048447 -0.30289 0.13579
0.0041715 -0.024492 0.0045349 -0.02011
0.010086 0.0038449 -0.013372 -0.003862 0.019435 0.0037005 0.004145 -0.024496
-0.28493 -0.010154 0.007313 -0.049261
0.0098894 0.0073392 0.0045653 -0.00067229 0.0067475 -0.0056075 0.0045024 -0.020158
0.0073164 -0.049273 -0.33011 0.034128
620000000 -0.27329 0.11011 -0.023111 0.0072787 0.0033657 0.0083598 0.0071184 -0.005575
0.010941 -0.00067819 0.00050661 -0.0026698
-0.0231 0.0072707 -0.40239 0.062469 -0.018752 -9.0316e-05 -0.0014003 -0.0020026
0.010313 -0.0069647 0.00091188 -0.0025793
0.0034022 0.0083556 -0.018777 -4.8539e-05 -0.15262 0.26801 -0.0017808 -0.0049306
-0.0036018 -0.0032059 0.0081394 -0.0033018
0.0070975 -0.0055981 -0.0014187 -0.0020159 -0.0017818 -0.0049059 -0.26173 0.14562
-0.037993 -0.018023 0.013952 0.023735
0.011017 -0.00069699 0.010319 -0.0069895 -0.0035855 -0.0032361 -0.037998 -0.018014
-0.20563 -0.049157 -0.039885 0.013844
0.00062439 -0.0025687 0.00095098 -0.0026278 0.0081182 -0.0033401 0.013974 0.02367
-0.039898 0.013894 -0.25074 -0.0010731
680000000 -0.2328 0.19323 -0.027933 -0.01394 0.0047679 0.0050551 0.001252 -0.007804
-0.0034778 -0.010937 0.0042415 -0.0063493
-0.027907 -0.013938 -0.38715 0.15926 -0.032752 -0.0013807 -0.0016485 -0.00032359
-0.0026213 -0.0088735 -0.00094366 -0.0018675
0.0047733 0.0050493 -0.032778 -0.0012967 -0.10187 0.2873 -0.00089342 0.00014217
-0.0021129 0.00080668 -0.0027512 -0.0093848
0.0012483 -0.0078231 -0.0016667 -0.0003296 -0.00090555 0.0001321 -0.21879 0.1955
-0.023715 -0.0087383 -0.0087545 -0.010391
-0.0034763 -0.010949 -0.0026565 -0.008873 -0.0021164 0.00081204 -0.023739 -0.0087058
-0.25235 0.049347 -0.005428 -0.0090936
0.0042165 -0.0063494 -0.00093994 -0.0018716 -0.0027497 -0.0094101 -0.0087587 -0.010365
-0.0054304 -0.0090894 -0.25834 0.10073
740000000 -0.18934 0.18819 -0.038386 0.026572 0.012446 -0.0052095 -0.00063761 -0.0039142
-0.004646 -0.002672 -0.0062338 0.003765
-0.038376 0.02654 -0.33504 0.17784 -0.03469 0.035001 -0.0009414 -0.0062332
-0.010896 0.0082913 -0.002917 -0.0061897
0.012423 -0.005217 -0.034607 0.035144 -0.068302 0.28638 -0.0014784 0.0032676
-0.0026964 -0.0038538 -0.0011338 4.1458e-05
-0.00063258 -0.0039237 -0.00095081 -0.0062161 -0.0014819 0.003275 -0.20235 0.20311
-0.042231 -0.0078151 0.021283 0.01307
-0.0046855 -0.00262 -0.010887 0.0083466 -0.0026908 -0.0038426 -0.04226 -0.0077638
-0.1568 0.072944 -0.041574 0.00021248
-0.0061611 0.0037172 -0.0029764 -0.0062138 -0.0011264 -2.8974e-06 0.021279 0.013034
-0.04157 0.0001707 -0.24633 0.10668
800000000 -0.15762 0.22838 -0.022582 0.017142 0.0051399 -0.010507 -0.0048679 -0.0020508
-0.0039894 0.0025908 0.0043795 0.0006642
-0.022587 0.017119 -0.33749 0.24831 -0.0076989 0.033921 -0.0021239 0.0021609
-0.00057513 0.0033328 0.0013534 0.005251
0.0051092 -0.010534 -0.0076007 0.03398 -0.027017 0.30912 0.0011453 0.0014756
0.00059589 0.0035225 -0.0016554 0.00099472
-0.0048794 -0.0020388 -0.0021191 0.0021654 0.00115 0.0014702 -0.17407 0.23048
-0.028398 0.012475 0.012965 -0.0097325
-0.0040055 0.0025982 -0.00054855 0.0033119 0.00061033 0.0035093 -0.028398 0.012542
-0.20028 0.097218 -0.01743 0.017164
0.0043759 0.00064286 0.0013417 0.0052661 -0.0016712 0.00099176 0.012978 -0.0097433
-0.01748 0.017125 -0.23706 0.15801
860000000 -0.12264 0.24935 -0.017039 0.031155 -0.0034066 -0.0096904 -0.0024714 0.0012061
0.0042791 0.0048249 -0.0030661 -0.0025696
-0.017046 0.031136 -0.2894 0.29034 0.0082242 0.033996 0.00022181 0.0021229
0.0046859 0.00015915 0.0031725 0.00039651
-0.0034288 -0.0096901 0.008327 0.034002 0.021359 0.31687 -0.00041177 -0.00029335
0.002882 -0.0016444 0.001584 0.0044259
-0.0024568 0.0012102 0.00024185 0.0021231 -0.00041069 -0.00029917 -0.13838 0.24234
-0.017681 0.018544 -0.006284 -0.0087059
0.0043393 0.0048021 0.004723 0.00012814 0.0028869 -0.0016548 -0.017659 0.018581
-0.1509 0.14547 -0.023969 0.015217
-0.0031181 -0.0025413 0.0031173 0.00041068 0.0015774 0.0044382 -0.0063302 -0.0087129
-0.024029 0.015214 -0.18702 0.19872
920000000 -0.097371 0.27276 0.0052963 0.037771 -0.009295 -0.0041294 -0.0017655 0.0023279
0.0011158 0.0015997 0.002623 -0.0014641
0.0052745 0.037748 -0.26031 0.31113 0.027979 0.021568 0.0015764 0.0010562
0.0068244 -0.00069049 0.003645 -0.0029943
-0.0093123 -0.0041177 0.028071 0.021501 0.067682 0.31714 0.0017691 -0.00012356
0.0012403 -0.00051363 0.00077684 -0.00098714
-0.001754 0.0023288 0.0015655 0.0010437 0.0017775 -0.00013182 -0.11418 0.25865
-0.0104 0.030011 0.0026533 -0.006513
0.0010985 0.0016067 0.0068376 -0.00073827 0.0012371 -0.00051219 -0.010354 0.030046
-0.14042 0.1517 -0.0023472 0.027287
0.0025987 -0.0014679 0.0036161 -0.003013 0.00076367 -0.00097955 0.0026397 -0.0065245
-0.0023525 0.027273 -0.19132 0.21376
980000000 -0.049672 0.29202 0.017874 0.029732 -0.0087478 0.0046394 0.0024063 0.0037675
0.0038281 -0.0017114 -0.0030086 -0.0021052
0.017837 0.029737 -0.20747 0.34473 0.032658 0.0045093 0.0019902 -7.6081e-06
0.00097409 -0.0061147 -0.000538 -0.0021186
-0.0087297 0.0046568 0.032685 0.0044034 0.11384 0.3101 0.00045832 -0.0011561
-2.1341e-05 -0.0020662 0.0014598 2.954e-06
0.0024224 0.0037842 0.0019906 -3.1852e-05 0.0004508 -0.001159 -0.076006 0.27021
0.0072454 0.02851 -0.0090551 -0.0065609
0.0038324 -0.0017441 0.00096834 -0.0061508 -3.0377e-05 -0.0020766 0.0073008 0.02851
-0.10916 0.1787 0.0045891 0.018625
-0.0030205 -0.0021123 -0.00053561 -0.0021316 0.0014703 -8.0586e-06 -0.009044 -0.0065632
0.004582 0.018627 -0.14901 0.2575
1040000000 -0.0069128 0.30016 0.033112 0.017643 -0.0011239 0.0067507 0.0027883 0.00062278
1.1535e-05 -0.0036463 -0.00048531 -0.0015163
0.033092 0.017674 -0.17194 0.35762 0.028831 -0.014839 0.0014668 -0.0016803
-0.0026296 -0.0022575 -0.0012932 -0.0026547
-0.0010845 0.0067515 0.028783 -0.014946 0.15976 0.29613 -0.0004971 -0.0013821
-0.0015277 -0.00077197 -0.00038608 -0.0011591
0.0027932 0.0006338 0.0014442 -0.0017027 -0.00049073 -0.0013869 -0.048431 0.28016
0.018134 0.017134 -0.0028435 0.0020924
-2.2258e-05 -0.0036351 -0.0026447 -0.0022726 -0.0015356 -0.00075182 0.018164 0.0171
-0.078323 0.18771 0.013176 0.017556
-0.00051116 -0.0015204 -0.0013029 -0.0026614 -0.00038412 -0.0011572 -0.0028349 0.0021005
0.013172 0.017557 -0.12675 0.27658
1100000000 0.038797 0.30729 0.035449 -0.0045603 0.002862 0.0037079 0.0025916 -0.001471
-0.002077 -0.0030067 -0.0038266 0.00011123
0.035427 -0.004524 -0.1282 0.3744 0.014741 -0.027425 1.8397e-05 -0.0018375
-0.0030386 -0.00042957 -0.0032783 -0.00050607
0.0028748 0.0036947 0.014649 -0.02751 0.20584 0.27562 -0.0017375 0.00025628
-0.0016078 0.00066105 -0.00091397 -0.00034551
0.0025987 -0.0014658 4.0606e-06 -0.0018459 -0.0017462 0.00026516 -0.0078451 0.28511
0.022472 0.0051375 -0.0023592 0.0010146
-0.002097 -0.0029873 -0.0030383 -0.0004207 -0.0016025 0.0006673 0.022479 0.0050974
-0.059782 0.20052 0.018248 0.0083566
-0.0038252 0.00013489 -0.003281 -0.00049715 -0.00090444 -0.00036467 -0.0023599 0.0010191
0.018232 0.0083575 -0.080041 0.30424
1160000000 0.090401 0.30178 0.023489 -0.020711 0.00258 -0.00054449 -0.00021421 -0.0025842
-0.0040513 -0.00044322 -0.0010075 0.0038697
0.023493 -0.020664 -0.084568 0.37823 -0.0038185 -0.02866 -0.0017051 -0.0016188
-0.0022932 0.0025615 -0.0013025 0.0015635
0.0025923 -0.00054716 -0.0039548 -0.028663 0.24862 0.24476 -0.00060692 0.0016583
-0.00037141 0.0017911 -0.00093391 0.00012225
-0.00022255 -0.0025723 -0.0017159 -0.0016224 -0.00060906 0.0016594 0.031382 0.28204
0.019222 -0.0094176 -0.0025186 0.0054967
-0.0040659 -0.00042677 -0.0022787 0.0025596 -0.00036848 0.0017929 0.019207 -0.0094526
-0.026399 0.20968 0.016948 0.00072997
-0.00099099 0.0038834 -0.0013267 0.0015538 -0.00094644 0.0001245 -0.0025057 0.0055019
0.016942 0.00073584 -0.032845 0.30609
1220000000 0.13478 0.28986 0.010082 -0.02967 -0.0015149 -0.00082279 -0.00013223 -0.0011514
-0.0024889 0.0025695 0.0012948 0.0018311
0.01009 -0.029627 -0.040482 0.38973 -0.016559 -0.020731 -0.0024725 0.0004574
0.00026633 0.0028369 -0.00070857 0.0017437
-0.0015109 -0.00081655 -0.016669 -0.020679 0.28768 0.20594 0.00081346 0.0015473
0.00056719 0.0010875 0.00026064 0.00062813
-0.00013477 -0.0011502 -0.0024715 0.00046411 0.00081707 0.0015556 0.071009 0.27375
0.0093663 -0.015128 0.0027053 0.0016751
-0.002479 0.002603 0.00028504 0.0028355 0.00055852 0.001085 0.0093475 -0.015148
-0.0029714 0.21906 0.013237 -0.012027
0.0013072 0.0018323 -0.00070494 0.0017359 0.00026269 0.00062562 0.0027088 0.0016809
0.013243 -0.012007 -0.00095262 0.32112
1280000000 0.18411 0.26718 -0.0078624 -0.027935 -0.0017992 0.002464 -0.0011184 -0.001978
-0.00058083 0.003001 0.0024447 0.00097424
-0.0078477 -0.027908 0.0050765 0.38045 -0.023229 -0.0083592 -0.00095401 0.0014377
0.0016041 0.0015639 0.00046072 0.0019469
-0.0017983 0.0024719 -0.023296 -0.0082523 0.31833 0.16213 0.0013374 -0.00014177
0.00096668 7.2279e-05 0.00026177 0.00037136
-0.0011205 -0.0019725 -0.00095843 0.0014471 0.0013346 -0.00013566 0.10744 0.25766
0.00083409 -0.016852 0.00061353 4.677e-05
-0.0005575 0.0030195 0.0016257 0.0015501 0.00096493 7.4444e-05 0.0008024 -0.016854
0.033832 0.22265 0.002935 -0.013818
0.0024612 0.00095846 0.00047515 0.0019425 0.0002522 0.00037872 0.0006004 3.6362e-05
0.0029418 -0.013802 0.046181 0.32116
1340000000 0.22074 0.233 -0.017368 -0.01867 0.00090943 0.0043125 -0.0018971 -0.00073386
0.0014665 0.0025119 0.0016092 -0.0014615
-0.017332 -0.018674 0.044254 0.37219 -0.02119 0.0040168 -7.2003e-05 0.0018989
0.0016954 0.00064885 0.0013258 0.00085887
0.00093505 0.0042935 -0.021196 0.0041232 0.34062 0.11408 0.00095036 -0.00083484
0.00059087 -0.00037261 0.0001446 0.00025107
-0.0019052 -0.00073434 -6.0176e-05 0.0018973 0.00094594 -0.00083398 0.14047 0.23778
-0.0072131 -0.014178 0.0013138 -2.6229e-05
0.0014778 0.0025092 0.0016982 0.00063575 0.00059034 -0.00037421 -0.0072285 -0.014162
0.064094 0.21807 -0.003112 -0.012574
0.0016118 -0.0014578 0.0013293 0.00084242 0.00013552 0.00024769 0.0012952 -2.5192e-05
-0.0030989 -0.01256 0.084559 0.31536
1400000000 0.25319 0.19448 -0.022975 -0.0074495 0.0049958 0.0029976 -0.0020012 0.00073059
0.0023773 0.00067794 0.00019717 -0.001319
-0.022943 -0.0074708 0.081198 0.35916 -0.014654 0.012017 0.0013377 0.0012573
0.0009628 -0.00079086 0.001186 0.00030396
0.0050101 0.0029738 -0.014622 0.012107 0.35384 0.060189 0.0001315 -0.0013608
5.6689e-05 -0.00032137 0.00026498 0.0002233
-0.0020041 0.00073905 0.0013491 0.0012467 0.00013203 -0.0013639 0.17046 0.20937
-0.012179 -0.0084108 -0.00053049 -0.00088008
0.0023787 0.00066338 0.00095498 -0.00079637 6.0467e-05 -0.0003239 -0.012192 -0.0083932
0.097226 0.21328 -0.0092165 -0.0082537
0.00020278 -0.0013093 0.0011903 0.00029758 0.00026516 0.00023243 -0.00053515 -0.00088369
-0.0091819 -0.0082594 0.12852 0.30352
1460000000 0.27564 0.15036 -0.020164 0.0044062 0.0053943 -0.0017162 -0.0015188 0.0017179
0.0018782 -0.00072016 -0.00036665 -0.00081638
-0.020146 0.0043883 0.11531 0.33745 -0.0062275 0.014872 0.0016939 0.00015721
0.00082934 -0.001139 0.0011737 -0.00059363
0.0053924 -0.0017373 -0.0061575 0.014917 0.35966 0.0054177 -0.0010681 -0.0012389
0.00028445 -0.00010639 0.00066574 -0.00037532
-0.001513 0.001733 0.0016967 0.00015373 -0.0010567 -0.0012341 0.19752 0.1803
-0.012973 -0.0030407 -0.001083 0.0013859
0.0018811 -0.00074243 0.0008239 -0.0011562 0.00028525 -0.00010408 -0.012995 -0.0030237
0.12704 0.19851 -0.010878 -0.0029583
-0.00036156 -0.00082139 0.0011754 -0.00059913 0.0006814 -0.00038957 -0.0010919 0.0013908
-0.010877 -0.0029831 0.16142 0.28166
1520000000 0.28755 0.10866 -0.0147 0.0099734 0.0030955 -0.0040478 0.00013309 0.0025544
0.0017146 -0.001643 -0.0011564 -0.00012587
-0.014693 0.0099528 0.14889 0.32273 0.0012186 0.012915 0.0015717 -0.0008024
0.00010261 -0.00090118 0.0003028 -0.0010149
0.0030695 -0.0040663 0.0012927 0.012926 0.35261 -0.051118 -0.00095108 -0.00041131
0.00056224 -0.00076674 -5.2974e-06 -0.00010227
0.00014614 0.0025522 0.0015787 -0.00080854 -0.0009426 -0.00041065 0.22157 0.14204
-0.012678 0.0015115 0.00089879 0.0017516
0.0017061 -0.0016539 9.6717e-05 -0.00090599 0.00056022 -0.00077281 -0.01268 0.0015411
0.15525 0.18405 -0.010993 0.0011317
-0.0011534 -0.00013654 0.0002927 -0.0010257 1.1015e-06 -0.00010637 0.00091186 0.0017413
-0.011019 0.0011222 0.19414 0.26021
1580000000 0.29655 0.062186 -0.0082801 0.013103 -0.00094501 -0.0046867 0.0013817 0.0018516
-0.00043753 -0.0019911 -0.00035784 0.00037694
-0.0082878 0.013088 0.17623 0.29787 0.0048517 0.0082948 0.00044277 -0.0015151
-0.00040372 -0.00098394 -0.00024245 -0.00086878
-0.00096733 -0.0046798 0.0049044 0.0082834 0.33189 -0.10875 -0.0015014 0.00044099
-0.00023171 -0.0011008 0.00011388 -0.00050334
0.0013859 0.0018526 0.00043381 -0.0015228 -0.0015043 0.00044046 0.23637 0.10189
-0.010186 0.0056619 0.0017073 0.00068166
-0.00046051 -0.0019877 -0.00040821 -0.00097859 -0.00023635 -0.0011046 -0.010195 0.0056954
0.17985 0.16568 -0.0088661 0.0063255
-0.00035905 0.00038476 -0.00024527 -0.00086471 0.00010292 -0.00051444 0.0017222 0.00068643
-0.0089273 0.0063642 0.22521 0.23273
1640000000 0.29821 0.020476 -0.0017362 0.012247 -0.0026932 -0.0024688 0.0025641 0.0010007
-0.00074372 -0.001121 -0.00030691 0.0006904
-0.0017529 0.012242 0.20569 0.27268 0.0056315 0.0036371 -0.00069984 -0.001616
-0.00095012 -0.00046588 -0.00053627 -0.00062563
-0.0027082 -0.0024479 0.0056583 0.0036062 0.30325 -0.15778 -0.00088543 0.001322
-0.0010088 -0.000847 -0.00010733 -0.00031113
0.0025669 0.00099209 -0.0007051 -0.0016141 -0.00087834 0.0013205 0.24897 0.051869
-0.0068951 0.0068714 0.0021706 -0.00059605
-0.00076248 -0.0011067 -0.00095676 -0.00046299 -0.0010237 -0.00084593 -0.0068918 0.0069012
0.20296 0.14044 -0.0045228 0.0085317
-0.00029939 0.00069685 -0.00054699 -0.00062789 -0.00010999 -0.00031621 0.002183 -0.00061329
-0.0045622 0.0086127 0.25023 0.20065
1700000000 0.29047 -0.025045 0.0017805 0.0096815 -0.0033934 0.00013199 0.0029575 -0.0010848
-0.0017486 -0.00044453 0.0006487 0.00044396
0.0017583 0.0096771 0.22388 0.2409 0.0038277 0.00091375 -0.0013522 -0.00055415
-0.00079046 -1.1617e-05 -0.00091785 -0.00040164
-0.0033924 0.00015217 0.0038291 0.00089443 0.25944 -0.19734 0.00030406 0.0015792
-0.0017401 -0.00030176 -0.00058533 -0.00095984
0.0029575 -0.0010932 -0.0013565 -0.0005415 0.00029321 0.0015852 0.24544 0.00077404
-0.0048953 0.007604 0.0012767 -0.0018794
-0.0017559 -0.00043532 -0.00079369 -3.7896e-06 -0.0017416 -0.00029937 -0.0048754 0.0076171
0.2208 0.11876 -0.00035419 0.0090248
0.00065459 0.00044963 -0.00093079 -0.00039464 -0.00059565 -0.00096976 0.0012707 -0.0018916
-0.00034812 0.0091247 0.26585 0.16573
1760000000 0.27735 -0.073722 0.0042805 0.0065575 -0.0021816 0.00089484 0.0013651 -0.0033192
-0.0010142 0.00059874 0.00040311 -0.00047078
0.0042651 0.0065545 0.2496 0.20068 0.0017662 -0.00089385 -0.0010947 0.00016257
-0.0011118 0.00087382 -0.00059812 0.00052733
-0.0021797 0.00091086 0.0017643 -0.00090208 0.21058 -0.23022 0.0011281 0.001295
-0.0011775 0.0013718 -0.0012604 -0.00038763
0.0013421 -0.0033311 -0.0010905 0.00016185 0.0011307 0.0012972 0.23503 -0.051612
-0.002098 0.0073458 -0.00035124 -0.0020793
-0.0010139 0.00060418 -0.0011111 0.00088148 -0.0011772 0.0013848 -0.002081 0.0073592
0.23577 0.082269 0.0033452 0.0065634
0.00041002 -0.00047997 -0.00058815 0.00054772 -0.0012789 -0.00036828 -0.00037213 -0.0020943
0.0034067 0.0066532 0.2774 0.12766
1820000000 0.25188 -0.1108 0.0047211 0.002922 -8.5748e-06 0.0023682 -0.00091945 -0.0030646
-0.00086461 0.00060487 4.6486e-05 -0.00018325
0.0047156 0.002929 0.25927 0.1704 -0.00015112 7.9922e-05 -0.0013203 0.00079345
-9.8722e-05 0.0013615 -0.00047174 0.00052355
6.3076e-06 0.0023732 -0.00015054 8.2369e-05 0.16041 -0.24601 0.0016221 0.00044584
-0.00042197 0.0021405 -0.0013915 0.00044854
-0.00093533 -0.0030592 -0.0013161 0.00080701 0.0016293 0.00044435 0.20357 -0.098953
-0.00079825 0.0060201 -0.0016181 -0.001379
-0.00085566 0.00060223 -8.3657e-05 0.0013708 -0.00042036 0.0021491 -0.00078094 0.0060213
0.25221 0.050995 0.0044427 0.0033392
4.4642e-05 -0.00019041 -0.00045931 0.00052921 -0.0013553 0.00044401 -0.0016221 -0.0013653
0.004518 0.0033739 0.27857 0.091037
1880000000 0.21593 -0.15039 0.0026238 0.00053055 -0.00032126 0.002079 -0.0028352 -0.0022079
-0.00031238 0.0013949 0.00031583 -0.00055767
0.0026157 0.00052983 0.26329 0.12364 -0.0020078 0.0016521 -0.00020892 0.0016965
0.00064417 0.0013355 0.00022336 0.00096827
-0.00031354 0.0020891 -0.0020092 0.0016649 0.10856 -0.2552 0.001919 -0.0009269
0.0013826 0.0020759 -0.00077784 0.001373
-0.0028496 -0.002182 -0.00020631 0.0016899 0.0019319 -0.00091895 0.16151 -0.13828
-0.00035201 0.0046937 -0.0022098 0.00070983
-0.00029329 0.0014022 0.00066967 0.0013394 0.0013925 0.002068 -0.00034572 0.0046905
0.25379 0.016129 0.0040572 0.0015426
0.00031024 -0.00058276 0.00024147 0.0009567 -0.00077225 0.0013825 -0.002214 0.00071699
0.0041544 0.0015315 0.27736 0.056978
1940000000 0.17608 -0.1753 0.00032154 -0.0014327 0.0012944 0.0018126 -0.0037751 0.00056591
0.0011235 0.0011158 -0.00057306 -0.00065625
0.00032596 -0.0014313 0.26333 0.091773 -0.00095332 0.0037305 0.00088309 0.001364
0.0019676 0.00054428 0.00089343 0.00026435
0.0013002 0.0018151 -0.00093267 0.0037522 0.06234 -0.2487 0.00028785 -0.0023848
0.0024498 0.00055852 0.00037046 0.0015807
-0.003771 0.00058629 0.00089035 0.0013636 0.00029079 -0.002374 0.1082 -0.16706
-0.0015126 0.0039621 -0.0012454 0.0016505
0.0011373 0.0010951 0.0019807 0.00051926 0.0024315 0.00054995 -0.001489 0.003953
0.25318 -0.024625 0.0029771 -0.0014886
-0.00060988 -0.00065688 0.00088814 0.00024123 0.00037377 0.0015509 -0.0012383 0.0016702
0.0030641 -0.0015434 0.26532 0.021112
2000000000 0.12982 -0.18895 -0.0036092 0.0004984 0.002337 0.0015922 -0.0022273 0.0036347
0.0010339 0.00042023 -0.00069252 0.00035834
-0.0036016 0.00049308 0.24871 0.0564 -0.00085722 0.0056052 0.0016604 0.00031712
0.0014938 -0.0014453 0.00054452 9.8163e-05
0.0023398 0.0015799 -0.00082105 0.005614 0.018916 -0.23392 -0.001451 -0.0014449
0.0021265 -0.0011427 0.0017074 0.0011834
-0.0022032 0.0036445 0.0016596 0.00030564 -0.0014525 -0.0014423 0.05509 -0.17548
-0.0028774 0.0045109 0.00014142 0.0022444
