!Keysight Technologies,M9804A,MY58100912,A.14.10.03
!Date: Thursday, April 27, 2023 10:28:33
!Correction: S11(C  6-Port  ) 
!S12(C  6-Port  ) 
!S13(C  6-Port  ) 
!S14(C  6-Port  ) 
!S15(C  6-Port  ) 
!S16(C  6-Port  ) 
!S21(C  6-Port  ) 
!S22(C  6-Port  ) 
!S23(C  6-Port  ) 
!S24(C  6-Port  ) 
!S25(C  6-Port  ) 
!S26(C  6-Port  ) 
!S31(C  6-Port  ) 
!S32(C  6-Port  ) 
!S33(C  6-Port  ) 
!S34(C  6-Port  ) 
!S35(C  6-Port  ) 
!S36(C  6-Port  ) 
!S41(C  6-Port  ) 
!S42(C  6-Port  ) 
!S43(C  6-Port  ) 
!S44(C  6-Port  ) 
!S45(C  6-Port  ) 
!S46(C  6-Port  ) 
!S51(C  6-Port  ) 
!S52(C  6-Port  ) 
!S53(C  6-Port  ) 
!S54(C  6-Port  ) 
!S55(C  6-Port  ) 
!S56(C  6-Port  ) 
!S61(C  6-Port  ) 
!S62(C  6-Port  ) 
!S63(C  6-Port  ) 
!S64(C  6-Port  ) 
!S65(C  6-Port  ) 
!S66(C  6-Port  ) 
!S6P File: Measurement: :
# Hz S  RI   R 50
500000000 -0.33605 -0.03535 -0.0095217 -0.003428 -0.0079111 0.011786 -0.0041183 0.011769
0.011883 0.0057451 -0.0044638 0.0076868
-0.0094345 -0.003706 -0.41952 -0.049647 0.0072266 -0.011673 0.0016512 0.011428
0.0074963 0.0022556 0.0017426 0.012695
-0.0077328 0.011696 0.0072342 -0.011727 -0.26491 0.21087 0.0071067 0.0028425
-0.00048962 0.0082446 0.0012195 0.011777
-0.0038249 0.011753 0.0013697 0.011416 0.0069835 0.0028356 -0.32731 0.04798
-0.018846 -0.0055375 0.017326 0.025717
0.012184 0.0051204 0.0072985 0.0024045 -0.0004643 0.0082676 -0.01916 -0.0052428
-0.22705 -0.18344 -0.025995 0.0039242
-0.0043296 0.0083002 0.0012671 0.012474 0.0013628 0.011678 0.017589 0.025408
-0.026075 0.0032132 -0.27316 -0.11019
560000000 -0.31552 0.12499 -0.024042 -0.063551 0.00036274 0.012009 0.0069428 0.0095836
0.010905 0.0034751 0.0095269 0.0078238
-0.023963 -0.063359 -0.3761 0.1091 -0.041627 -0.036414 0.013485 0.0034701
-0.013032 -0.0051434 0.0038974 -0.00096461
0.00031598 0.012072 -0.042039 -0.036289 -0.1828 0.25881 -0.00010125 -0.0046165
0.019042 0.0046903 0.0073006 -0.005438
0.0066612 0.0095916 0.013407 0.0034676 -0.00023338 -0.0050622 -0.30318 0.13544
0.0049684 -0.023696 0.0040228 -0.020086
0.010599 0.003607 -0.013586 -0.0052212 0.019329 0.0046461 0.004922 -0.023195
-0.28566 -0.0085499 0.007568 -0.048885
0.010043 0.0073612 0.0039121 -0.0014087 0.0075683 -0.0052247 0.0038033 -0.020252
0.0078359 -0.04823 -0.3315 0.033488
620000000 -0.2731 0.10894 -0.023188 0.00713 0.0034952 0.0084164 0.0065548 -0.0050339
0.011118 -0.0012463 0.00039743 -0.001654
-0.023235 0.0071709 -0.40236 0.062334 -0.018686 3.7347e-05 -0.0015639 -0.0019176
0.010592 -0.0068466 0.00095236 -0.0028579
0.0035832 0.008465 -0.018643 3.8319e-05 -0.15216 0.26788 -0.0012826 -0.0049969
-0.0037932 -0.0038015 0.0072944 -0.0038897
0.0067995 -0.0050658 -0.0017176 -0.0019731 -0.0013504 -0.0047758 -0.26131 0.14599
-0.038479 -0.018025 0.014282 0.023886
0.011073 -0.0013787 0.010603 -0.0072216 -0.0039118 -0.003494 -0.038692 -0.018178
-0.20609 -0.049959 -0.040142 0.013946
0.00063428 -0.0020081 0.00088646 -0.003089 0.0075577 -0.0028763 0.014309 0.023895
-0.039662 0.014675 -0.24959 -0.0028998
680000000 -0.23311 0.19316 -0.027839 -0.014026 0.004774 0.0048976 0.001383 -0.0078615
-0.0031048 -0.011389 0.0039834 -0.0063717
-0.027772 -0.014049 -0.38722 0.15928 -0.032757 -0.0012124 -0.0014126 -0.00030079
-0.0025049 -0.0086484 -0.0011313 -0.0020132
0.0048641 0.0049009 -0.032795 -0.0011524 -0.10195 0.2874 -0.00069057 -3.4869e-05
-0.0020228 0.0010087 -0.002529 -0.0092456
0.0014306 -0.0079321 -0.0014724 -0.00035394 -0.00072513 -2.9795e-05 -0.21957 0.19513
-0.023992 -0.0085932 -0.0086283 -0.0099033
-0.0030619 -0.011291 -0.0025798 -0.0087377 -0.0020679 0.0009819 -0.023701 -0.0085471
-0.2524 0.048631 -0.0057653 -0.0090575
0.0038777 -0.0064795 -0.00093744 -0.0020488 -0.0025851 -0.0092608 -0.0086903 -0.010217
-0.0059725 -0.0093396 -0.25944 0.10069
740000000 -0.18972 0.18838 -0.038075 0.026116 0.012474 -0.0051087 -0.00073039 -0.0041022
-0.0044279 -0.0026931 -0.0064445 0.0036218
-0.038089 0.026016 -0.33524 0.17821 -0.034677 0.034857 -0.00085624 -0.0063165
-0.011032 0.0080886 -0.0025888 -0.0060753
0.01267 -0.0051448 -0.034794 0.035007 -0.068328 0.28626 -0.0014896 0.0036802
-0.0030547 -0.0041162 -0.001347 0.00078645
-0.00066095 -0.0040071 -0.00091338 -0.0062752 -0.0015491 0.0034408 -0.20235 0.20287
-0.041975 -0.0081215 0.02107 0.012942
-0.0043288 -0.002604 -0.011016 0.0081618 -0.0027138 -0.004233 -0.042329 -0.0080479
-0.15706 0.073083 -0.040931 -0.00019912
-0.0064828 0.0035961 -0.0025201 -0.0061176 -0.0015043 0.00095299 0.021124 0.01301
-0.040886 -0.00018146 -0.24759 0.10608
800000000 -0.15741 0.22846 -0.02256 0.017094 0.005163 -0.010433 -0.0049729 -0.0019473
-0.0039974 0.0025979 0.004027 0.00038111
-0.02263 0.017073 -0.33735 0.24818 -0.0077503 0.033916 -0.0021771 0.0022419
-0.00031985 0.0034803 0.0012332 0.0050913
0.0051688 -0.010484 -0.0076481 0.034038 -0.027126 0.30907 0.001155 0.001513
0.00061157 0.0035437 -0.0018134 0.0008297
-0.0048222 -0.0018521 -0.0021896 0.0023187 0.0011729 0.001531 -0.17408 0.23065
-0.028351 0.012665 0.013212 -0.0096324
-0.0040518 0.0025584 -0.00040178 0.0034 0.00057255 0.0035018 -0.028234 0.012681
-0.20048 0.096732 -0.017453 0.017453
0.0040169 0.00054797 0.0011651 0.0052238 -0.0018208 0.0009558 0.013055 -0.009899
-0.017443 0.017298 -0.23767 0.15808
860000000 -0.12272 0.24957 -0.017407 0.031279 -0.0035152 -0.0096396 -0.0026905 0.0012154
0.0041816 0.005136 -0.0028853 -0.0027224
-0.017198 0.031215 -0.28999 0.29009 0.0081001 0.03393 -4.9525e-05 0.0020067
0.0042672 0.0006195 0.0031849 0.00041668
-0.0035405 -0.0095897 0.0080807 0.033982 0.021199 0.31686 -0.00059581 -0.00036715
0.002747 -0.0015009 0.0016099 0.0043725
-0.0026775 0.0014554 5.5425e-05 0.0021229 -0.00052295 -0.0002516 -0.13874 0.24199
-0.018193 0.01849 -0.0061023 -0.0086612
0.0040469 0.0051517 0.0042922 0.00011943 0.0028139 -0.0016216 -0.018095 0.018447
-0.15139 0.14497 -0.024166 0.015617
-0.0029701 -0.0032472 0.0032483 0.00015598 0.0018121 0.0041891 -0.0055586 -0.0087499
-0.023992 0.015212 -0.18668 0.1992
920000000 -0.097265 0.27241 0.0054265 0.037715 -0.009235 -0.0042467 -0.0017715 0.0022799
0.0013179 0.001737 0.0027351 -0.0016239
0.0055022 0.037653 -0.26026 0.31105 0.027971 0.02161 0.0015781 0.00096035
0.006837 -0.00040393 0.0037628 -0.0029831
-0.0092826 -0.0042053 0.028117 0.021533 0.067584 0.3171 0.0018156 -0.00020736
0.0010702 -0.00047681 0.00083924 -0.0010929
-0.0017411 0.002272 0.0015905 0.00097383 0.0018521 -0.00020652 -0.11415 0.2587
-0.010353 0.029839 0.0025055 -0.0064645
0.0013733 0.0016697 0.006873 -0.00050747 0.0011256 -0.00040467 -0.010402 0.0299
-0.14095 0.15137 -0.0022221 0.027389
0.0025789 -0.0016631 0.003641 -0.0029871 0.00070756 -0.0010527 0.0024948 -0.0063602
-0.0020747 0.027139 -0.192 0.21374
980000000 -0.049885 0.29205 0.017804 0.029752 -0.008734 0.0045908 0.002461 0.003715
0.0038926 -0.0017115 -0.002824 -0.0020253
0.017726 0.02979 -0.20742 0.34447 0.032737 0.0044941 0.0020272 4.2382e-05
0.00097362 -0.0061935 -0.00054641 -0.0020658
-0.0086811 0.0046169 0.032773 0.0044115 0.11381 0.31018 0.0005007 -0.0011616
8.431e-05 -0.0020937 0.0015873 -6.0234e-05
0.0023822 0.0037594 0.0019929 -2.7624e-05 0.00048662 -0.0011816 -0.076157 0.27016
0.0071746 0.028525 -0.0090208 -0.0065707
0.0038829 -0.0016769 0.00083149 -0.0061945 4.8967e-05 -0.002121 0.0072358 0.028653
-0.10935 0.17868 0.0046798 0.018506
-0.0026726 -0.0019898 -0.00072802 -0.0019895 0.0014902 -7.6184e-05 -0.0089003 -0.006712
0.0044367 0.018803 -0.14884 0.25677
1040000000 -0.0070821 0.30022 0.033076 0.017622 -0.0011529 0.0068089 0.0027048 0.00067915
-9.7513e-06 -0.0037257 -0.00042992 -0.0013144
0.033114 0.017663 -0.17193 0.35741 0.028833 -0.01488 0.0014328 -0.0016935
-0.0027496 -0.0022576 -0.0014058 -0.0026475
-0.0011008 0.0068289 0.028761 -0.014995 0.15978 0.29619 -0.00050063 -0.0013905
-0.0016101 -0.00082174 -0.0003446 -0.001135
0.0027531 0.00068133 0.0013765 -0.0017184 -0.00048486 -0.0013768 -0.048376 0.28021
0.018036 0.017126 -0.0029183 0.0020779
-0.00011734 -0.0037372 -0.0026159 -0.0022406 -0.0015992 -0.00077345 0.018142 0.017037
-0.078233 0.1874 0.012854 0.017595
-0.00046475 -0.0013334 -0.0014689 -0.0026034 -0.00037021 -0.001187 -0.0027593 0.002214
0.013063 0.017824 -0.1269 0.27623
1100000000 0.038653 0.3072 0.035482 -0.0046039 0.0028798 0.0037046 0.0025714 -0.0014514
-0.0020868 -0.0030394 -0.0038822 1.8597e-05
0.03544 -0.0045764 -0.12835 0.37426 0.01473 -0.027448 2.5447e-05 -0.0018516
-0.0031468 -0.00038465 -0.003176 -0.0005931
0.0028995 0.0036995 0.014649 -0.027506 0.2058 0.2756 -0.0017293 0.0002562
-0.0015662 0.00065593 -0.00097527 -0.00042151
0.0025555 -0.0014695 -8.4001e-06 -0.0018209 -0.0017359 0.0002304 -0.0078474 0.28508
0.022516 0.0053316 -0.002331 0.00091261
-0.0021361 -0.0029699 -0.0031199 -0.0003136 -0.0016825 0.00062089 0.02249 0.0051693
-0.060142 0.20077 0.018362 0.0084873
-0.003802 0.00022319 -0.0032763 -0.0005162 -0.0010049 -0.00031934 -0.0023246 0.00083914
0.018497 0.0085581 -0.080839 0.30407
1160000000 0.090186 0.30185 0.023397 -0.020674 0.0025862 -0.00048697 -0.00015541 -0.0025677
-0.0040423 -0.00036466 -0.0010944 0.0036802
0.023464 -0.0206 -0.084751 0.37805 -0.0037531 -0.028629 -0.0017344 -0.0016041
-0.0022828 0.0026208 -0.0011862 0.0015211
0.0026321 -0.0005518 -0.0038771 -0.028656 0.24853 0.24473 -0.00066881 0.0016588
-0.00034777 0.0017536 -0.00094172 0.00014697
-0.00020698 -0.0025861 -0.0017507 -0.0016324 -0.00068219 0.001654 0.031386 0.28202
0.019224 -0.009397 -0.0026021 0.005583
-0.0040306 -0.00046361 -0.0022641 0.0025491 -0.00037618 0.0017894 0.019204 -0.0093084
-0.026902 0.20949 0.017117 0.00093904
-0.0010499 0.0037612 -0.0012521 0.0015102 -0.0009178 0.00016744 -0.0025213 0.0056006
0.017284 0.00065092 -0.033118 0.30553
1220000000 0.1346 0.28997 0.010071 -0.029713 -0.0014911 -0.00085519 -0.00016836 -0.0011629
-0.0025312 0.0026016 0.0012849 0.0018727
0.01009 -0.02967 -0.040549 0.38972 -0.01656 -0.020738 -0.0024659 0.00043583
0.00025836 0.0028062 -0.00071467 0.0017239
-0.0015755 -0.0008521 -0.016683 -0.020702 0.28762 0.20592 0.00081815 0.0015751
0.00052622 0.0010333 0.00019788 0.00072908
-0.00012838 -0.0011319 -0.0024548 0.00045213 0.00080352 0.0015969 0.070978 0.2737
0.0094218 -0.015107 0.0027401 0.0016885
-0.0024892 0.0025591 0.00025028 0.0027722 0.00048676 0.0010751 0.0094194 -0.015078
-0.0031765 0.21917 0.013244 -0.011959
0.0012956 0.0018806 -0.00071353 0.0017315 0.00026343 0.00066671 0.0027481 0.001696
0.013202 -0.012048 -0.001105 0.32146
1280000000 0.18397 0.26722 -0.0078807 -0.027976 -0.0018087 0.0024151 -0.0011189 -0.0019613
-0.00052374 0.003041 0.0024794 0.00096657
-0.0078661 -0.027956 0.004973 0.38047 -0.02318 -0.0083284 -0.00098894 0.0014573
0.0016107 0.001584 0.00051882 0.0020069
-0.0017854 0.0024701 -0.023265 -0.0082835 0.31832 0.16219 0.0013355 -8.5726e-05
0.00094408 0.0001032 0.00028237 0.0002806
-0.0011086 -0.0019748 -0.00099589 0.0014428 0.0013301 -6.4249e-05 0.10745 0.25765
0.0009098 -0.016827 0.00055196 5.1636e-05
-0.00053716 0.0030082 0.0016183 0.0015033 0.0009902 0.00013613 0.00086503 -0.016831
0.033525 0.22279 0.0028344 -0.013858
0.0024122 0.0010152 0.00043651 0.0019595 0.00018284 0.00028448 0.00057497 9.271e-05
0.0029541 -0.013904 0.046139 0.32083
1340000000 0.22076 0.23318 -0.017424 -0.018699 0.00090845 0.0043177 -0.0019081 -0.00076146
0.0015534 0.0025159 0.0016783 -0.0015121
-0.01738 -0.018711 0.044219 0.37214 -0.021188 0.003972 -8.6291e-05 0.0019481
0.0016688 0.00066404 0.0012899 0.00087747
0.00087625 0.0043028 -0.021198 0.0040935 0.34043 0.1141 0.00097357 -0.00080801
0.00053088 -0.00027429 0.00011635 0.00016154
-0.0019301 -0.00075478 -6.7722e-05 0.0019482 0.0010099 -0.00081291 0.14039 0.2377
-0.0071962 -0.014196 0.0013 -1.3609e-05
0.0014785 0.0025766 0.0016765 0.00064663 0.00053797 -0.00025161 -0.007181 -0.014208
0.063978 0.21814 -0.0032501 -0.012524
0.0015799 -0.0014808 0.0012927 0.00084831 4.5037e-05 0.00025599 0.0013211 -3.6913e-06
-0.0032081 -0.01245 0.08435 0.31536
1400000000 0.25315 0.19458 -0.023037 -0.0074408 0.0049879 0.0030152 -0.0019974 0.00072356
0.0024345 0.00070426 0.00022499 -0.0012944
-0.023003 -0.0074498 0.081098 0.35917 -0.014664 0.012027 0.0013566 0.0012568
0.00099601 -0.00081296 0.0011649 0.00027418
0.0049781 0.0029887 -0.014639 0.01212 0.35377 0.060392 0.00014664 -0.0014055
8.6542e-05 -0.00030317 0.00018119 0.00022195
-0.0019991 0.00070537 0.001347 0.0012594 0.00013681 -0.0014005 0.17033 0.20934
-0.012136 -0.0084437 -0.00054317 -0.00094544
0.002436 0.00067061 0.00099389 -0.00080434 0.00014363 -0.00033673 -0.012166 -0.0084592
0.09701 0.21342 -0.0092394 -0.0081822
0.00018902 -0.0012671 0.00117 0.00031013 0.0002317 0.0002526 -0.00055456 -0.00094098
-0.0092186 -0.0082045 0.12832 0.30349
1460000000 0.27562 0.15045 -0.020178 0.0044291 0.0054417 -0.0017099 -0.0015294 0.0017027
0.0018209 -0.00079855 -0.0003399 -0.00088597
-0.020195 0.004428 0.11525 0.33748 -0.0062121 0.014868 0.0016894 0.00014791
0.00079004 -0.001161 0.0012084 -0.00060027
0.0054488 -0.0017469 -0.0061459 0.014935 0.35972 0.0056667 -0.0010312 -0.0012139
0.00036729 -0.00010201 0.00070167 -0.00034466
-0.0015221 0.0017326 0.0016855 0.0001406 -0.0010038 -0.0012413 0.19739 0.1804
-0.012942 -0.0031428 -0.0011079 0.0014109
0.0018861 -0.00074821 0.00080784 -0.0011274 0.0003121 -0.00017898 -0.013009 -0.0031047
0.12686 0.19846 -0.010996 -0.0028812
-0.00039231 -0.00088056 0.0012018 -0.00061985 0.00065778 -0.00039524 -0.0010865 0.0014205
-0.010933 -0.0028429 0.16125 0.28161
1520000000 0.2875 0.10873 -0.014751 0.010024 0.0030222 -0.0040992 0.00012879 0.0025356
0.0017406 -0.0016117 -0.0011646 -9.2862e-05
-0.014726 0.01002 0.14879 0.32271 0.0012475 0.012874 0.0015763 -0.00080559
8.935e-05 -0.0008826 0.00027391 -0.0010058
0.0029386 -0.0040744 0.0012912 0.012888 0.35274 -0.051007 -0.00093887 -0.00043389
0.00054905 -0.00074668 -6.8551e-05 -4.5459e-05
0.00017295 0.0025469 0.0015916 -0.00081755 -0.00094596 -0.00041175 0.22151 0.14214
-0.012719 0.0014256 0.00092368 0.0017207
0.0017047 -0.0016397 0.0001005 -0.00092576 0.00052995 -0.00077015 -0.012715 0.0014862
0.1551 0.18406 -0.011052 0.0012383
-0.0011686 -9.1136e-05 0.00027863 -0.000991 -5.3202e-05 -9.7551e-05 0.00092457 0.0017194
-0.011069 0.0011953 0.19383 0.26031
1580000000 0.29657 0.062179 -0.0082349 0.01317 -0.0010416 -0.0046199 0.0013708 0.0018687
-0.00047787 -0.0020083 -0.00033053 0.0003614
-0.0082216 0.013174 0.17615 0.29789 0.0048353 0.0082778 0.00043748 -0.0015255
-0.00041823 -0.0009902 -0.00024278 -0.00088044
-0.0009907 -0.0045911 0.0048826 0.0082759 0.33204 -0.10872 -0.0015279 0.00043553
-0.00018878 -0.0011836 0.00015768 -0.000535
0.0014009 0.0018469 0.00044378 -0.0015224 -0.0015192 0.00040181 0.23633 0.102
-0.010222 0.0056302 0.0017146 0.00067247
-0.00045751 -0.0020322 -0.00038949 -0.00097667 -0.00025252 -0.001158 -0.010224 0.0056909
0.17973 0.16575 -0.0089235 0.0064427
-0.00038439 0.00037704 -0.00024989 -0.00086142 0.00010851 -0.00040233 0.0016891 0.00064586
-0.0088588 0.006461 0.22494 0.23272
1640000000 0.29806 0.020555 -0.0017004 0.01227 -0.0027064 -0.002434 0.0025855 0.0010116
-0.00069686 -0.0011062 -0.00027509 0.00070204
-0.0017028 0.012252 0.20559 0.27271 0.005629 0.0037089 -0.0007225 -0.0016063
-0.00095319 -0.00047819 -0.00056884 -0.00061287
-0.0026856 -0.0024033 0.0056559 0.0037076 0.30323 -0.15761 -0.00088345 0.0013242
-0.00097772 -0.00084565 -0.0001379 -0.00033351
0.0025757 0.00099506 -0.00072025 -0.0016157 -0.00082997 0.0012698 0.24895 0.051975
-0.0069673 0.0068371 0.0021483 -0.00062443
-0.00077868 -0.0011203 -0.00096451 -0.00049932 -0.00088992 -0.00093539 -0.0069295 0.0068461
0.20274 0.14044 -0.0045229 0.0086704
-0.00029648 0.00065421 -0.00053022 -0.00059601 -9.5184e-05 -0.00025729 0.0021388 -0.00063222
-0.0045165 0.0086745 0.24985 0.20071
1700000000 0.29044 -0.024988 0.0018406 0.0096766 -0.0033141 0.00014426 0.0029707 -0.0011661
-0.0017405 -0.00037539 0.00062684 0.00048281
0.0018446 0.0096614 0.22379 0.24095 0.0038786 0.00097841 -0.0013408 -0.00055966
-0.00082891 -1.038e-05 -0.00092918 -0.00038036
-0.0033252 0.00011281 0.0039102 0.00095863 0.25946 -0.19697 0.00029424 0.0016244
-0.0017305 -0.00040106 -0.00064368 -0.00088667
0.0029248 -0.0011163 -0.0013568 -0.00056457 0.00028901 0.0015968 0.24544 0.00089886
-0.0049066 0.0076323 0.0013082 -0.0018732
-0.0017606 -0.00038568 -0.00080373 2.9969e-06 -0.0017618 -0.00034385 -0.0048619 0.0076376
0.22063 0.1189 -0.00030668 0.009163
0.00064694 0.00051403 -0.00092873 -0.00041759 -0.00052882 -0.00086341 0.0012839 -0.0018919
-0.00023414 0.0091675 0.26543 0.16606
1760000000 0.27733 -0.073459 0.0043006 0.0065294 -0.0021829 0.0009026 0.0013658 -0.0033343
-0.0010216 0.0005775 0.00041697 -0.00052695
0.0042625 0.0065287 0.24948 0.20075 0.0017064 -0.0010165 -0.0010967 0.00016325
-0.0011288 0.00088956 -0.00058029 0.00052006
-0.0022302 0.00084461 0.0017264 -0.0010444 0.21088 -0.23094 0.0010788 0.0012279
-0.0011728 0.0014115 -0.0012294 -0.00037086
0.0013627 -0.0033053 -0.0011052 0.00017246 0.001076 0.0012859 0.23505 -0.051542
-0.0021191 0.0074035 -0.00036135 -0.002107
-0.0010149 0.00065665 -0.0011446 0.00091622 -0.0012348 0.0013582 -0.0021121 0.0073795
0.23552 0.082431 0.0034405 0.0066326
0.0004138 -0.0004893 -0.00060271 0.00051289 -0.0012392 -0.00042306 -0.00039538 -0.0020792
0.0034225 0.0066577 0.27718 0.12797
1820000000 0.25193 -0.1106 0.0047501 0.0029142 -3.87e-05 0.0024217 -0.00093365 -0.0030409
-0.00088054 0.00061098 -1.9932e-05 -0.00020113
0.0047546 0.0029027 0.25921 0.17052 -0.00023801 0.00019093 -0.0013098 0.00080721
-9.7755e-05 0.0013758 -0.00050717 0.00048051
-2.6994e-06 0.0024056 -0.00010526 0.00017532 0.15997 -0.24601 0.0015978 0.00044611
-0.00052105 0.0021214 -0.0013533 0.00050923
-0.00090458 -0.0030351 -0.001306 0.00082506 0.0016994 0.00045496 0.20363 -0.098948
-0.00075187 0.0060369 -0.0015929 -0.0013215
-0.00083054 0.0006202 -7.8777e-05 0.0014052 -0.00048168 0.0022446 -0.00076918 0.0060454
0.25205 0.051223 0.0044948 0.003343
3.6759e-06 -0.00011523 -0.00054613 0.00054353 -0.0014597 0.00048429 -0.001573 -0.0013466
0.0044692 0.0033028 0.27839 0.091519
1880000000 0.21591 -0.15022 0.0026147 0.00046499 -0.00023916 0.0021568 -0.0028516 -0.0022512
-0.00037042 0.0013646 0.00025875 -0.00050183
0.0026439 0.00048283 0.26325 0.12376 -0.0020226 0.0017639 -0.00020766 0.0016556
0.00063486 0.0013294 0.00019594 0.00097739
-0.00026553 0.0021799 -0.0020619 0.0016056 0.10802 -0.2548 0.0019319 -0.00099763
0.001367 0.0021118 -0.00080259 0.001329
-0.002892 -0.0022196 -0.00018919 0.0016286 0.0020333 -0.0010186 0.16159 -0.13828
-0.00031525 0.0046828 -0.0021946 0.00073483
-0.00037518 0.0013596 0.00066265 0.0013339 0.0014419 0.002151 -0.0003083 0.0046661
0.2537 0.016358 0.0042327 0.0015317
0.00034567 -0.00056664 0.00022607 0.0010244 -0.00089997 0.0015515 -0.002217 0.00065829
0.0042678 0.0014695 0.27735 0.057303
1940000000 0.17631 -0.175 0.00027786 -0.0014759 0.0012755 0.0016642 -0.0037367 0.00058552
0.0011555 0.001161 -0.00067513 -0.00067698
0.00024908 -0.0014802 0.2633 0.091852 -0.00086387 0.0037652 0.00092429 0.0013216
0.0020339 0.00055347 0.00088995 0.00022508
0.0013199 0.0017783 -0.00099767 0.0037506 0.062759 -0.24836 0.00028262 -0.0024099
0.0024584 0.00063593 0.00038296 0.0015746
-0.0038276 0.00067712 0.00090906 0.0013537 0.00025514 -0.0024281 0.10833 -0.16715
-0.0014878 0.0039513 -0.0012407 0.0017147
0.0010465 0.0011786 0.0020209 0.00046476 0.0025594 0.00049624 -0.0014838 0.0039889
0.25315 -0.024369 0.0030898 -0.0015949
-0.00073046 -0.00078976 0.00096511 0.00024002 0.00053719 0.0016858 -0.0012956 0.0016781
0.0030358 -0.0016059 0.26544 0.021559
2000000000 0.1301 -0.18909 -0.0036649 0.00051912 0.0023356 0.0016141 -0.0022744 0.0036988
0.0010425 0.00043466 -0.00058654 0.00036809
-0.003659 0.00054036 0.24878 0.056484 -0.00083547 0.005521 0.0015737 0.00039411
0.0014942 -0.0014338 0.00051366 8.6273e-05
0.0024182 0.0015885 -0.00079576 0.0056414 0.019182 -0.23404 -0.0013142 -0.0014333
0.0022154 -0.00098797 0.0016033 0.0012615
-0.0021897 0.0036532 0.0015881 0.00036601 -0.001401 -0.0014632 0.055227 -0.17546
-0.0028987 0.0045461 5.3797e-05 0.0020319
0.0011223 0.0004643 0.0014749 -0.0014031 0.0021616 -0.0011582 -0.0028857 0.0045369
