!Keysight Technologies,M9804A,MY58100912,A.14.10.03
!Date: Thursday, April 27, 2023 10:28:33
!Correction: S11(C  6-Port  ) 
!S12(C  6-Port  ) 
!S13(C  6-Port  ) 
!S14(C  6-Port  ) 
!S15(C  6-Port  ) 
!S16(C  6-Port  ) 
!S21(C  6-Port  ) 
!S22(C  6-Port  ) 
!S23(C  6-Port  ) 
!S24(C  6-Port  ) 
!S25(C  6-Port  ) 
!S26(C  6-Port  ) 
!S31(C  6-Port  ) 
!S32(C  6-Port  ) 
!S33(C  6-Port  ) 
!S34(C  6-Port  ) 
!S35(C  6-Port  ) 
!S36(C  6-Port  ) 
!S41(C  6-Port  ) 
!S42(C  6-Port  ) 
!S43(C  6-Port  ) 
!S44(C  6-Port  ) 
!S45(C  6-Port  ) 
!S46(C  6-Port  ) 
!S51(C  6-Port  ) 
!S52(C  6-Port  ) 
!S53(C  6-Port  ) 
!S54(C  6-Port  ) 
!S55(C  6-Port  ) 
!S56(C  6-Port  ) 
!S61(C  6-Port  ) 
!S62(C  6-Port  ) 
!S63(C  6-Port  ) 
!S64(C  6-Port  ) 
!S65(C  6-Port  ) 
!S66(C  6-Port  ) 
!S6P File: Measurement: :
# Hz S  RI   R 50
500000000 -0.33599 -0.035431 -0.0099817 -0.0035321 -0.007719 0.011659 -0.0036821 0.011935
0.012407 0.0047307 -0.0036199 0.0082067
-0.0098976 -0.0036522 -0.41915 -0.049681 0.0072118 -0.011575 0.0014776 0.011239
0.0082272 0.0024629 0.0011741 0.012109
-0.0079376 0.011906 0.0073228 -0.011636 -0.26498 0.21112 0.0065101 0.0028826
-5.9953e-06 0.0086148 0.00041764 0.011364
-0.0036704 0.012014 0.001669 0.011209 0.0065026 0.0027951 -0.32727 0.047208
-0.019276 -0.0043996 0.017841 0.02449
0.012645 0.0047158 0.0079755 0.0025534 2.6741e-05 0.008518 -0.019251 -0.0044364
-0.22665 -0.18412 -0.026591 0.0050107
-0.003558 0.0085359 0.0013895 0.012068 0.00048906 0.011352 0.017817 0.024488
-0.026654 0.0050417 -0.27244 -0.11153
560000000 -0.31657 0.12495 -0.024061 -0.063325 0.00010421 0.011961 0.0063457 0.0095682
0.010047 0.0038552 0.009896 0.007383
-0.023546 -0.063339 -0.37625 0.10919 -0.041899 -0.036213 0.013448 0.0032197
-0.013008 -0.0039456 0.0045644 -0.00069394
0.00031726 0.012191 -0.042188 -0.036565 -0.18272 0.25884 -0.00066896 -0.0048446
0.019323 0.0038251 0.0067492 -0.0056168
0.0062518 0.0097341 0.013529 0.003146 -0.00062833 -0.0047925 -0.30277 0.13603
0.0041495 -0.02455 0.0044649 -0.020175
0.010492 0.0045355 -0.013447 -0.0045555 0.019464 0.0037412 0.0040909 -0.024532
-0.28504 -0.010411 0.0072135 -0.049302
0.0090297 0.0066914 0.0043858 -0.00068432 0.006815 -0.0056082 0.0042592 -0.020014
0.0072448 -0.049363 -0.33004 0.033986
620000000 -0.27293 0.10942 -0.023079 0.0074092 0.0035134 0.0084213 0.0069437 -0.0055406
0.011048 -0.00098252 0.00065387 -0.0025836
-0.023169 0.0073113 -0.40242 0.062482 -0.018831 -0.00012214 -0.0014687 -0.0019715
0.010434 -0.0069872 0.00094198 -0.002646
0.0033822 0.0085462 -0.01871 -8.3609e-05 -0.15288 0.26792 -0.0018912 -0.004856
-0.0033357 -0.0032748 0.0080577 -0.0033412
0.0068066 -0.0051398 -0.0013268 -0.0020612 -0.0016986 -0.0051867 -0.26162 0.14537
-0.038191 -0.017885 0.013887 0.023669
0.011267 -0.00096312 0.010148 -0.0069253 -0.003613 -0.0030313 -0.038112 -0.017943
-0.20535 -0.049316 -0.039829 0.014011
-4.6204e-06 -0.0022298 0.0009034 -0.0026126 0.0080725 -0.0033794 0.013917 0.023687
-0.039853 0.014077 -0.25061 -0.0011645
680000000 -0.23321 0.19366 -0.027909 -0.013848 0.0047696 0.0050384 0.0012594 -0.0078221
-0.0033679 -0.010984 0.0042531 -0.0062996
-0.028147 -0.01401 -0.38713 0.15933 -0.032737 -0.0013911 -0.0016755 -0.00033643
-0.0025949 -0.0088596 -0.00093206 -0.0018684
0.0047967 0.0050068 -0.032757 -0.0012813 -0.1019 0.28728 -0.00092559 0.00016422
-0.0020856 0.00082167 -0.002765 -0.0094139
0.0012161 -0.0077411 -0.0017151 -0.00032226 -0.00093838 0.00015599 -0.21874 0.19562
-0.023678 -0.0086416 -0.0087512 -0.010371
-0.0033949 -0.010831 -0.0026701 -0.008881 -0.002095 0.00081794 -0.023673 -0.0086385
-0.2525 0.049369 -0.0053952 -0.0091349
0.0041193 -0.0068681 -0.0010109 -0.0020236 -0.0027409 -0.0094365 -0.0088408 -0.010462
-0.0054096 -0.0092226 -0.25829 0.10065
740000000 -0.18945 0.18858 -0.038247 0.026316 0.012571 -0.0052319 -0.00061656 -0.0039117
-0.0045794 -0.0026404 -0.0061776 0.0037107
-0.038297 0.026211 -0.33526 0.17786 -0.03474 0.035004 -0.00090643 -0.0061963
-0.010938 0.0082947 -0.0029276 -0.0062449
0.012534 -0.0051032 -0.034693 0.035106 -0.068346 0.28632 -0.0014392 0.0032684
-0.0027312 -0.0038272 -0.0011283 1.4385e-05
-0.0004122 -0.0038985 -0.00098167 -0.006306 -0.0014448 0.0032536 -0.20232 0.203
-0.042192 -0.0076704 0.021229 0.013052
-0.00499 -0.0027615 -0.011367 0.0084547 -0.0027809 -0.0037746 -0.042236 -0.0077069
-0.15687 0.072765 -0.041598 0.00024284
-0.005864 0.0036602 -0.0029902 -0.0058642 -0.0011531 2.3184e-05 0.021205 0.012974
-0.041549 0.00022728 -0.24641 0.10667
800000000 -0.15741 0.22853 -0.022577 0.017153 0.0051195 -0.01051 -0.0048508 -0.0020253
-0.0040362 0.0026096 0.0043619 0.00067767
-0.022586 0.01705 -0.33746 0.24834 -0.0077072 0.033919 -0.0021254 0.0021598
-0.00061744 0.003337 0.0012998 0.0052551
0.0051785 -0.010505 -0.0076215 0.033965 -0.027038 0.30908 0.0011395 0.0014839
0.00059676 0.0035169 -0.0016876 0.00098369
-0.0048841 -0.0020641 -0.0021084 0.0022237 0.0011236 0.0014495 -0.17411 0.23045
-0.028408 0.01248 0.012995 -0.00972
-0.0041949 0.0026875 -0.00054256 0.0033312 0.00060355 0.0035527 -0.028403 0.012537
-0.20036 0.097218 -0.01752 0.01718
0.0045734 0.00063254 0.0014031 0.005321 -0.0016885 0.0010189 0.012981 -0.0097041
-0.017554 0.017249 -0.23707 0.15812
860000000 -0.12253 0.24948 -0.01724 0.031311 -0.0033891 -0.0096633 -0.0025326 0.0011914
0.0042422 0.0047914 -0.0031116 -0.0025123
-0.017115 0.031153 -0.28957 0.29051 0.008204 0.034071 0.00016102 0.0020609
0.0046778 0.00010068 0.0030945 0.00044079
-0.003419 -0.0097356 0.0082483 0.034066 0.021337 0.31688 -0.00040954 -0.00028877
0.0028545 -0.0016398 0.0015777 0.0044494
-0.0023132 0.0011325 0.00010913 0.0021584 -0.00040782 -0.0002641 -0.13847 0.24225
-0.017773 0.01843 -0.0063737 -0.0086938
0.0043231 0.0050062 0.0045183 0.00036714 0.0028474 -0.0016714 -0.017861 0.018525
-0.1511 0.14528 -0.024074 0.015338
-0.003127 -0.0024777 0.0032601 0.00043098 0.0015662 0.0044422 -0.0062761 -0.0086527
-0.023922 0.015498 -0.18693 0.19856
920000000 -0.097233 0.27279 0.0053614 0.037684 -0.0093002 -0.0041138 -0.0017404 0.0022912
0.0010811 0.0016291 0.0026045 -0.0014706
0.0053406 0.037779 -0.26028 0.31117 0.027966 0.02158 0.0015789 0.0010353
0.0067765 -0.00071614 0.0036106 -0.0030054
-0.0092658 -0.0040966 0.028088 0.021509 0.067668 0.31716 0.0017709 -0.00016306
0.0011934 -0.00053248 0.00074048 -0.00096614
-0.0017369 0.0023697 0.0015462 0.0010336 0.0017774 -0.00010459 -0.11422 0.25861
-0.010414 0.030007 0.0026306 -0.0065054
0.0011985 0.0016624 0.0067113 -0.00066309 0.0012351 -0.00049406 -0.010378 0.030057
-0.14044 0.15163 -0.0023208 0.027303
0.0024734 -0.0014687 0.0036539 -0.0030673 0.00070741 -0.00098479 0.0026291 -0.0064748
-0.002312 0.027316 -0.19123 0.21378
980000000 -0.049703 0.29194 0.01777 0.029755 -0.0087377 0.0046146 0.002394 0.003765
0.003826 -0.0017301 -0.0030223 -0.0021482
0.017842 0.029729 -0.2075 0.34461 0.032669 0.0045269 0.0019949 -2.2364e-05
0.00099518 -0.0061591 -0.00049673 -0.0021292
-0.0086929 0.0046574 0.032731 0.0043851 0.11383 0.31011 0.00045958 -0.0011509
-4.8235e-05 -0.0020846 0.0014666 -1.4114e-05
0.002374 0.0037859 0.001982 -4.0992e-05 0.00044113 -0.0011546 -0.076027 0.27022
0.0072279 0.028518 -0.0090296 -0.0065926
0.0040198 -0.0016986 0.00086682 -0.0061304 -3.3354e-05 -0.0020818 0.0072621 0.028533
-0.10916 0.17882 0.004609 0.018703
-0.0029779 -0.0021586 -0.00068147 -0.0020223 0.001474 -4.0658e-05 -0.0090604 -0.0065707
0.0046287 0.018749 -0.14911 0.25753
1040000000 -0.0068921 0.3001 0.033122 0.017679 -0.0011127 0.0067471 0.0027687 0.00062961
-8.6633e-06 -0.0036651 -0.0005238 -0.0015276
0.033135 0.017627 -0.17196 0.35757 0.028825 -0.014851 0.0014618 -0.0016868
-0.0025665 -0.0023004 -0.0012723 -0.0026627
-0.0010678 0.0067672 0.028788 -0.014933 0.15976 0.29614 -0.00048806 -0.0013944
-0.0014863 -0.00077253 -0.00038078 -0.0011598
0.0027895 0.00058927 0.0014529 -0.0017002 -0.00048626 -0.0013831 -0.048412 0.28013
0.01815 0.017148 -0.0028415 0.0021072
-7.9483e-05 -0.0036392 -0.0026689 -0.0023428 -0.0015391 -0.00074968 0.018184 0.017108
-0.0784 0.18775 0.01321 0.017568
-0.0004151 -0.0015833 -0.0012857 -0.0025933 -0.0003936 -0.0011509 -0.0028439 0.0021058
0.013144 0.017497 -0.12679 0.27658
1100000000 0.038718 0.30722 0.035455 -0.0045491 0.0028715 0.0037014 0.0025891 -0.0014663
-0.0020885 -0.0029874 -0.0038387 0.00012019
0.035406 -0.0045394 -0.12824 0.37437 0.014751 -0.027422 1.1106e-05 -0.0018355
-0.0030252 -0.00043291 -0.0032679 -0.00050725
0.0029001 0.0036865 0.014642 -0.027513 0.20582 0.27561 -0.0017409 0.00026974
-0.0016136 0.00066002 -0.00089413 -0.00036566
0.002538 -0.0014468 -7.8238e-06 -0.001835 -0.0017558 0.00024714 -0.0078798 0.28512
0.022447 0.0051358 -0.002345 0.0010079
-0.0021302 -0.0030335 -0.0030875 -0.00044424 -0.0016161 0.00066424 0.022465 0.0051078
-0.059879 0.20047 0.018266 0.0083501
-0.0039009 0.00011397 -0.0032951 -0.00049043 -0.00091853 -0.00034508 -0.0023531 0.0009872
0.018255 0.0083719 -0.080188 0.30417
1160000000 0.090289 0.30173 0.023512 -0.020685 0.0025785 -0.00052943 -0.00020909 -0.0025804
-0.0040343 -0.00045939 -0.0010017 0.0038463
0.023447 -0.02066 -0.084659 0.37823 -0.0037921 -0.028621 -0.0017118 -0.0016315
-0.0022882 0.0025551 -0.0013306 0.0015469
0.0025931 -0.00054687 -0.0039005 -0.028663 0.24863 0.24477 -0.00064135 0.0016567
-0.00036956 0.0017972 -0.00094319 0.00012103
-0.00018923 -0.0025933 -0.0017414 -0.0016166 -0.00060032 0.001647 0.031377 0.28206
0.019221 -0.0094157 -0.002511 0.0054943
-0.0040467 -0.0004125 -0.0023339 0.0025609 -0.00037845 0.0017864 0.019221 -0.0094447
-0.026479 0.2097 0.017006 0.00071893
-0.00095389 0.0039415 -0.0012633 0.0015048 -0.00094341 0.00016599 -0.0024812 0.0055085
0.017018 0.00072966 -0.032889 0.30613
1220000000 0.13465 0.28984 0.010092 -0.029666 -0.0015132 -0.00081446 -0.00012432 -0.0011491
-0.0024874 0.0025876 0.0013102 0.0018375
0.010117 -0.029669 -0.040527 0.38972 -0.016568 -0.020718 -0.0024708 0.0004608
0.00027772 0.0028502 -0.00071526 0.0017435
-0.0014995 -0.00081606 -0.016672 -0.020663 0.28764 0.20595 0.00081803 0.0015512
0.00056598 0.0010934 0.00025882 0.00061806
-0.00013328 -0.001114 -0.0024575 0.00045082 0.00081812 0.001551 0.071001 0.27376
0.0093598 -0.015129 0.0027118 0.0016685
-0.0025372 0.0025607 0.00026511 0.0028294 0.00055832 0.0010565 0.0093517 -0.015156
-0.0030222 0.21905 0.013272 -0.012017
0.0012834 0.0018828 -0.00066483 0.0017302 0.00026079 0.00062387 0.0027072 0.0016666
0.0133 -0.012001 -0.00099545 0.32117
1280000000 0.18396 0.26725 -0.0078539 -0.02796 -0.0018091 0.0024739 -0.0011217 -0.001978
-0.00056402 0.003015 0.0024551 0.0009738
-0.0078186 -0.027914 0.0050489 0.38045 -0.023235 -0.0083672 -0.00096376 0.0014458
0.0016037 0.0015676 0.00046852 0.0019409
-0.0017751 0.0024743 -0.023278 -0.0082327 0.31833 0.16214 0.001336 -0.00014273
0.0009745 5.9345e-05 0.00024611 0.00037492
-0.0011404 -0.0019595 -0.00095159 0.0014588 0.0013473 -0.00013778 0.10742 0.25766
0.00084522 -0.016845 0.00059019 2.7103e-05
-0.00057397 0.0030495 0.00163 0.0015712 0.00095622 6.3964e-05 0.0008141 -0.016868
0.03377 0.22268 0.002936 -0.013847
0.0024903 0.00097028 0.00051473 0.0019734 0.00025205 0.00034896 0.00060223 5.7385e-05
0.0029393 -0.013834 0.046157 0.32126
1340000000 0.22066 0.23312 -0.017373 -0.018693 0.00088578 0.0043239 -0.0019068 -0.00074146
0.0014604 0.0025188 0.0015971 -0.0014532
-0.017327 -0.018683 0.044227 0.37217 -0.021186 0.0040034 -6.3012e-05 0.0019053
0.0016899 0.00065214 0.001322 0.00085793
0.00093616 0.0043291 -0.021182 0.0041006 0.34059 0.11409 0.00095394 -0.00083878
0.00058785 -0.00037033 0.00012669 0.00024398
-0.0019361 -0.00074937 -4.3079e-05 0.0019116 0.00091603 -0.00085329 0.14048 0.23776
-0.0071891 -0.014169 0.0012893 -3.6685e-05
0.0014917 0.0025192 0.0016976 0.00064723 0.00058239 -0.00037753 -0.0072309 -0.014163
0.064077 0.21806 -0.0031299 -0.01259
0.0016208 -0.0014918 0.001304 0.00084686 0.00014062 0.00022902 0.001301 -1.8847e-05
-0.0031139 -0.012593 0.084553 0.31541
1400000000 0.25318 0.19463 -0.022997 -0.0074613 0.0049821 0.0029812 -0.0020079 0.00073811
0.0023854 0.0006745 0.00021574 -0.0013062
-0.022956 -0.0074681 0.081168 0.35919 -0.014656 0.01201 0.0013343 0.0012496
0.00095484 -0.00078082 0.0011859 0.00030974
0.0049966 0.0029916 -0.014609 0.012105 0.35384 0.060228 0.00012152 -0.0013658
6.0985e-05 -0.00032964 0.00026885 0.00022814
-0.0020157 0.00075078 0.0013492 0.00125 0.00012264 -0.0013628 0.17043 0.20936
-0.012167 -0.0084267 -0.00054076 -0.00088244
0.0023915 0.00065381 0.00095402 -0.00079848 5.2534e-05 -0.00031753 -0.012205 -0.0083994
0.097168 0.21332 -0.0092274 -0.0082711
0.0001604 -0.0012811 0.0011751 0.00030042 0.00023313 0.00022758 -0.00055107 -0.00088307
-0.0092354 -0.0082852 0.12853 0.30355
1460000000 0.27568 0.1505 -0.020169 0.0043963 0.005393 -0.0017139 -0.0015129 0.0017243
0.0018816 -0.00073452 -0.00035485 -0.00082326
-0.020161 0.0043825 0.11527 0.33747 -0.0062222 0.01488 0.0016917 0.00016054
0.00083038 -0.0011487 0.0011741 -0.00058315
0.0054128 -0.0017227 -0.006165 0.014913 0.35965 0.0054107 -0.0010558 -0.0012258
0.00029143 -0.0001216 0.00068289 -0.00038485
-0.001522 0.0017467 0.001696 0.00016245 -0.0010608 -0.0012412 0.19752 0.1803
-0.012979 -0.0030567 -0.0010935 0.0014008
0.0018821 -0.00074087 0.00082317 -0.0011381 0.00027911 -0.00011938 -0.012993 -0.0030365
0.12711 0.19853 -0.010928 -0.0029521
-0.00032432 -0.0008359 0.0011801 -0.0005849 0.00067345 -0.00038028 -0.0010859 0.0013846
-0.010927 -0.002955 0.1615 0.28157
1520000000 0.28762 0.10869 -0.014705 0.0099811 0.0030749 -0.004055 0.00014221 0.0025574
0.0017232 -0.0016504 -0.0011536 -0.00014618
-0.014696 0.0099756 0.14886 0.32275 0.0012133 0.012913 0.0015821 -0.0007981
0.00010243 -0.00090807 0.00029862 -0.001021
0.0030731 -0.004049 0.0012764 0.012917 0.35261 -0.051082 -0.00094927 -0.00041254
0.0005557 -0.00077527 -1.1063e-06 -9.8114e-05
0.0001543 0.0025606 0.0015798 -0.00081418 -0.00094516 -0.00040113 0.22158 0.14206
-0.012687 0.0014974 0.00090659 0.0017604
0.001735 -0.0016608 8.9612e-05 -0.00091035 0.00054903 -0.00078413 -0.012678 0.0015256
0.15525 0.18403 -0.011039 0.0011515
-0.0011425 -0.00015498 0.00028769 -0.0010245 -1.3676e-05 -0.00011394 0.00089265 0.0017406
-0.011042 0.0011448 0.19413 0.26014
1580000000 0.29664 0.062222 -0.0082583 0.013113 -0.00097251 -0.0046956 0.0013829 0.0018479
-0.00045186 -0.0019875 -0.00035679 0.00038654
-0.0082672 0.013094 0.17623 0.29789 0.0048414 0.0082875 0.00043631 -0.0015203
-0.00039137 -0.00099105 -0.00023719 -0.00086875
-0.00095917 -0.0046909 0.0048974 0.0082758 0.33191 -0.10872 -0.0015134 0.00045811
-0.00022875 -0.0011157 0.00010614 -0.00050832
0.0013909 0.0018731 0.00043214 -0.0015214 -0.0015136 0.00043977 0.23636 0.1019
-0.010199 0.0056612 0.0017087 0.00068765
-0.00046506 -0.0019658 -0.0004087 -0.00098607 -0.00021559 -0.0011006 -0.010182 0.0056845
0.17986 0.16566 -0.0089437 0.0063873
-0.0003176 0.0004066 -0.00024658 -0.00085656 0.00011984 -0.00051009 0.0017162 0.00067376
-0.0089397 0.0063798 0.22513 0.23265
1640000000 0.29825 0.020468 -0.0017309 0.012241 -0.0026944 -0.0024903 0.0025755 0.00099473
-0.00074696 -0.0011069 -0.00030229 0.00069434
-0.0017332 0.01224 0.20567 0.27269 0.0056346 0.0036481 -0.0006958 -0.0016126
-0.00095843 -0.00046631 -0.00054106 -0.00063367
-0.0026606 -0.0024502 0.0056593 0.0036271 0.30326 -0.15771 -0.00089792 0.0013069
-0.0010095 -0.00085202 -0.0001121 -0.00032064
0.0025845 0.00097719 -0.00071011 -0.0016096 -0.00088906 0.0013289 0.24897 0.051879
-0.0069116 0.0068772 0.0021762 -0.00061151
-0.0007749 -0.0011193 -0.00095693 -0.00046241 -0.0010225 -0.00084801 -0.0068939 0.0068914
0.20295 0.14041 -0.0045706 0.0086492
-0.00024592 0.00069333 -0.00055329 -0.00063426 -8.3429e-05 -0.00031999 0.0021689 -0.00061298
-0.0045709 0.0086509 0.25009 0.20062
1700000000 0.29041 -0.025112 0.0017863 0.0096661 -0.0033794 0.0001243 0.0029544 -0.00109
-0.0017628 -0.00043451 0.00064374 0.00045471
0.0017852 0.0096596 0.22386 0.24091 0.0038226 0.00091723 -0.001344 -0.00055279
-0.00079447 -5.2529e-06 -0.00092007 -0.00040044
-0.0033661 0.00014552 0.0038387 0.0008905 0.25944 -0.19732 0.00032372 0.0015841
-0.0017418 -0.00031102 -0.00058821 -0.00097319
0.0029595 -0.0010785 -0.0013551 -0.00053738 0.00031815 0.0015979 0.24546 0.00077879
-0.0048907 0.0076009 0.001274 -0.001886
-0.0017678 -0.00041754 -0.00080863 5.08e-06 -0.0017274 -0.00031538 -0.004887 0.0076089
0.22074 0.11876 -0.00034954 0.0091495
0.00066082 0.00043969 -0.00094174 -0.00040579 -0.00059744 -0.00096274 0.0012776 -0.0018966
-0.00033966 0.009167 0.26568 0.16581
1760000000 0.27733 -0.073726 0.0042935 0.0065527 -0.0021823 0.00089474 0.0013553 -0.003328
-0.001004 0.00062121 0.00041371 -0.00047232
0.0042719 0.0065432 0.24956 0.2007 0.0017627 -0.00088363 -0.0010937 0.00016053
-0.0011137 0.00087961 -0.00059302 0.00054662
-0.0021752 0.00085993 0.0017748 -0.00091696 0.21049 -0.23022 0.0011317 0.0012862
-0.0011679 0.0013767 -0.0012915 -0.00038099
0.0013415 -0.0033584 -0.0010833 0.00016509 0.0011229 0.0012835 0.23502 -0.051598
-0.002114 0.0073333 -0.0003639 -0.002096
-0.00096115 0.00056412 -0.0011076 0.00089007 -0.0011877 0.0013725 -0.0021017 0.0073469
0.23574 0.08226 0.0034269 0.0066856
0.00036547 -0.00046011 -0.0005905 0.00057096 -0.0012855 -0.00039611 -0.00036349 -0.0020804
0.0034402 0.0066954 0.27729 0.1278
1820000000 0.25183 -0.11079 0.0047286 0.0029225 2.6143e-05 0.002411 -0.00094219 -0.0030662
-0.00085185 0.00060352 4.6595e-05 -0.000188
0.0046997 0.0029251 0.25926 0.17041 -0.00015931 7.9433e-05 -0.0013185 0.00079238
-9.4687e-05 0.0013682 -0.00046244 0.00052754
3.8473e-06 0.0024286 -0.00014728 6.3517e-05 0.16049 -0.24598 0.0016451 0.00044442
-0.00042561 0.0021511 -0.0013434 0.00043886
-0.00092861 -0.0030594 -0.0013253 0.00079339 0.0016417 0.00045599 0.20356 -0.098948
-0.00079352 0.0060178 -0.0016089 -0.0013799
-0.00085028 0.00061916 -9.0651e-05 0.0013614 -0.00039854 0.0021197 -0.00078463 0.0060254
0.25215 0.051039 0.0045533 0.0033818
2.7531e-05 -0.00016462 -0.00046495 0.00052243 -0.0013165 0.00046432 -0.0016123 -0.0013663
0.0045582 0.0033794 0.27855 0.091225
1880000000 0.21583 -0.15029 0.0026073 0.00052483 -0.00032832 0.0020835 -0.0028408 -0.0022073
-0.00031001 0.0013948 0.00031676 -0.00057616
0.0025991 0.00050341 0.26326 0.12364 -0.0020104 0.0016529 -0.00020792 0.0017027
0.0006625 0.001344 0.00023719 0.00096116
-0.00036459 0.0020793 -0.0019956 0.0016635 0.10849 -0.25516 0.0019294 -0.00092404
0.0013935 0.0020726 -0.00079007 0.0013916
-0.0028868 -0.0021672 -0.00019413 0.0016882 0.0018847 -0.00091718 0.16153 -0.13824
-0.00035639 0.0046983 -0.0022164 0.00072172
-0.00032856 0.0013932 0.00064699 0.0013422 0.0013951 0.0020973 -0.00034181 0.0046965
0.2537 0.016203 0.0042092 0.0015148
0.00031468 -0.00058281 0.00025484 0.00094429 -0.00080348 0.0013554 -0.0022022 0.00071324
0.0042066 0.0015181 0.27741 0.057128
1940000000 0.17612 -0.17521 0.00031507 -0.0014254 0.0012966 0.001801 -0.003797 0.00058183
0.001126 0.0011008 -0.00060727 -0.00065976
0.0003365 -0.0014179 0.26332 0.09179 -0.00094829 0.0037394 0.00087265 0.0013797
0.0019662 0.00053822 0.00088711 0.0002486
0.0013232 0.0017996 -0.00097943 0.0037498 0.062427 -0.24865 0.00026645 -0.0023936
0.0024354 0.00057493 0.00038833 0.0015521
-0.0037769 0.00060095 0.00088656 0.0013343 0.00029542 -0.0023818 0.10822 -0.16705
-0.0014957 0.003966 -0.0012222 0.0016731
0.0011105 0.0011207 0.0019868 0.00049476 0.0024199 0.0005437 -0.0014915 0.0039714
0.25317 -0.02457 0.0030916 -0.0015827
-0.00062471 -0.00067703 0.00091966 0.00022723 0.00043031 0.0015717 -0.0012272 0.0016575
0.0030854 -0.0015573 0.26543 0.021196
2000000000 0.12991 -0.18896 -0.0036093 0.0005338 0.0023352 0.0015625 -0.0022171 0.0036335
0.0010218 0.00044085 -0.00069139 0.00034844
-0.003607 0.00053264 0.24867 0.056404 -0.00087797 0.0055859 0.001665 0.00031906
0.0014881 -0.0014359 0.00054905 0.00010243
0.0023018 0.0015943 -0.00084005 0.0055532 0.018835 -0.23397 -0.0014214 -0.0014303
0.0021195 -0.0011414 0.0017124 0.0012085
-0.0021999 0.0035768 0.0016849 0.00028638 -0.0014428 -0.0014936 0.055143 -0.17547
-0.0028802 0.0045271 0.00012296 0.0022248
