!Keysight Technologies,M9804A,MY58100912,A.14.10.03
!Date: Thursday, April 27, 2023 10:28:33
!Correction: S11(C  6-Port  ) 
!S12(C  6-Port  ) 
!S13(C  6-Port  ) 
!S14(C  6-Port  ) 
!S15(C  6-Port  ) 
!S16(C  6-Port  ) 
!S21(C  6-Port  ) 
!S22(C  6-Port  ) 
!S23(C  6-Port  ) 
!S24(C  6-Port  ) 
!S25(C  6-Port  ) 
!S26(C  6-Port  ) 
!S31(C  6-Port  ) 
!S32(C  6-Port  ) 
!S33(C  6-Port  ) 
!S34(C  6-Port  ) 
!S35(C  6-Port  ) 
!S36(C  6-Port  ) 
!S41(C  6-Port  ) 
!S42(C  6-Port  ) 
!S43(C  6-Port  ) 
!S44(C  6-Port  ) 
!S45(C  6-Port  ) 
!S46(C  6-Port  ) 
!S51(C  6-Port  ) 
!S52(C  6-Port  ) 
!S53(C  6-Port  ) 
!S54(C  6-Port  ) 
!S55(C  6-Port  ) 
!S56(C  6-Port  ) 
!S61(C  6-Port  ) 
!S62(C  6-Port  ) 
!S63(C  6-Port  ) 
!S64(C  6-Port  ) 
!S65(C  6-Port  ) 
!S66(C  6-Port  ) 
!S6P File: Measurement: :
# Hz S  RI   R 50
500000000 -0.3369 -0.035361 -0.0099158 -0.003342 -0.0075469 0.012023 -0.0042904 0.011517
0.012146 0.0052969 -0.004266 0.0081672
-0.010458 -0.0036191 -0.41911 -0.04973 0.0078075 -0.011572 0.0014274 0.011489
0.0078592 0.0021879 0.0013363 0.012948
-0.0079833 0.012335 0.0072 -0.011552 -0.26487 0.21109 0.0069938 0.0027236
-0.00026787 0.0083827 0.0012676 0.011751
-0.0028527 0.011608 0.0012605 0.011623 0.0067402 0.0028143 -0.32754 0.048287
-0.01922 -0.0051045 0.017728 0.025561
0.011199 0.0045858 0.0079979 0.0024013 -0.00043232 0.0082013 -0.0188 -0.0053485
-0.22667 -0.18301 -0.026702 0.0039243
-0.0039961 0.0083932 0.00088286 0.013007 0.00065827 0.011019 0.017203 0.025638
-0.026917 0.0039119 -0.2724 -0.11086
560000000 -0.3158 0.12555 -0.023944 -0.062823 -0.00011989 0.012262 0.0068986 0.0098908
0.010463 0.0035741 0.010045 0.0074368
-0.023302 -0.062232 -0.3762 0.10848 -0.041619 -0.036799 0.013212 0.0038166
-0.013432 -0.0051452 0.0036765 -0.00078154
7.4785e-05 0.012552 -0.04177 -0.03704 -0.18275 0.25905 -9.8148e-05 -0.0048851
0.019214 0.0046792 0.0076359 -0.0059728
0.0064676 0.010039 0.013274 0.0023325 -0.00090369 -0.0048869 -0.30311 0.13521
0.0054882 -0.023883 0.0036879 -0.019655
0.011602 0.0028721 -0.014916 -0.0028971 0.019889 0.00391 0.0044511 -0.0235
-0.28531 -0.0089411 0.0082331 -0.048406
0.01041 0.007248 0.0043814 -0.0022122 0.0063392 -0.0057636 0.0037111 -0.020566
0.0081444 -0.048122 -0.33126 0.033853
620000000 -0.27412 0.10874 -0.02328 0.0073578 0.0037493 0.0087158 0.0062469 -0.0050733
0.010827 -0.0012566 0.00087352 -0.0020928
-0.022946 0.0074014 -0.40238 0.062367 -0.018697 -0.00023306 -0.0015235 -0.0020316
0.010557 -0.00688 0.001225 -0.0029793
0.0033656 0.0088953 -0.018688 -0.00025783 -0.1529 0.26761 -0.0013453 -0.0050324
-0.0033895 -0.0032893 0.0075869 -0.0036482
0.0058213 -0.0050132 -0.0015809 -0.0021536 -0.0015166 -0.0051501 -0.26121 0.14602
-0.038355 -0.017669 0.014373 0.023511
0.012083 -7.5097e-05 0.010486 -0.0071125 -0.0035577 -0.0034017 -0.039156 -0.018506
-0.20628 -0.050186 -0.040208 0.014766
0.0002191 -0.0020928 0.0010387 -0.0031276 0.007897 -0.0038379 0.014126 0.024141
-0.040107 0.015202 -0.24923 -0.00265
680000000 -0.23255 0.19435 -0.028007 -0.013766 0.004774 0.0050719 0.0013472 -0.0075155
-0.0029807 -0.011199 0.0040167 -0.0064505
-0.02784 -0.013747 -0.38736 0.15932 -0.032785 -0.0011487 -0.0014226 -0.00019932
-0.0025216 -0.0085771 -0.00098468 -0.0020749
0.0049878 0.0049761 -0.032843 -0.001174 -0.10196 0.28737 -0.00079312 4.3021e-05
-0.0022967 0.0009789 -0.0025473 -0.0093578
0.0013814 -0.0075171 -0.0016508 -0.00030587 -0.00093963 -1.1112e-05 -0.21961 0.19517
-0.023972 -0.0084455 -0.0086466 -0.010028
-0.0035176 -0.011268 -0.0027395 -0.0088445 -0.0020588 0.00078394 -0.023603 -0.0085225
-0.25243 0.048658 -0.0057942 -0.0094331
0.0042751 -0.007078 -0.0012661 -0.0019756 -0.0024593 -0.0091081 -0.0082324 -0.010068
-0.0057866 -0.0093578 -0.2598 0.10075
740000000 -0.18918 0.18829 -0.038444 0.026404 0.012487 -0.0050503 -0.00068701 -0.0041078
-0.0041841 -0.0026183 -0.006538 0.0036978
-0.038501 0.026187 -0.33523 0.17819 -0.035161 0.034844 -0.00086527 -0.0062555
-0.01129 0.0079594 -0.0023299 -0.0060629
0.012885 -0.0050757 -0.034852 0.034638 -0.068156 0.28613 -0.0015647 0.0035571
-0.0030561 -0.0044485 -0.0013438 0.0011178
-0.0010632 -0.0039345 -0.00097163 -0.0063766 -0.0018719 0.0035592 -0.20243 0.20274
-0.042188 -0.0081856 0.021274 0.012973
-0.0044769 -0.0029765 -0.011726 0.0082583 -0.0029808 -0.0041372 -0.042228 -0.0081853
-0.15687 0.072951 -0.041208 -7.9529e-05
-0.0064362 0.0034482 -0.0026501 -0.0061449 -0.001488 0.000497 0.021027 0.013108
-0.040986 -8.3986e-05 -0.24748 0.10635
800000000 -0.15729 0.22842 -0.022733 0.017263 0.0051464 -0.010381 -0.0049179 -0.0020663
-0.0038518 0.0026116 0.0042188 0.00074062
-0.022477 0.017139 -0.33757 0.24818 -0.0078871 0.033924 -0.0021625 0.0022586
-0.00043203 0.0035942 0.0011259 0.0053686
0.005116 -0.010498 -0.0078128 0.034059 -0.027149 0.30913 0.0011993 0.001523
0.00066167 0.0035081 -0.0018508 0.0011381
-0.0047397 -0.0019061 -0.0024038 0.0024684 0.0011781 0.0015336 -0.17417 0.23069
-0.028397 0.012752 0.013011 -0.0096928
-0.0041425 0.002563 -0.00053611 0.0031454 0.00056271 0.0035698 -0.028214 0.01273
-0.20069 0.096631 -0.017654 0.01727
0.0043326 0.00099959 0.00046659 0.005475 -0.0019827 0.00099406 0.013098 -0.0098146
-0.017545 0.017413 -0.23723 0.15762
860000000 -0.12288 0.24934 -0.017096 0.031257 -0.00335 -0.0096847 -0.0025952 0.0010646
0.0040294 0.0052277 -0.0030758 -0.0030553
-0.017211 0.031233 -0.28933 0.29054 0.0081523 0.034007 2.3931e-05 0.0018347
0.0041728 0.00028973 0.0033248 0.00015551
-0.0033869 -0.0095987 0.0083703 0.03405 0.021281 0.31688 -0.0004501 -0.00043138
0.0027022 -0.0016739 0.0016903 0.004316
-0.0027143 0.0013029 -8.1879e-06 0.0023676 -0.00025462 -0.00025114 -0.13836 0.24184
-0.018113 0.018558 -0.0058202 -0.0087063
0.0041808 0.004839 0.0047106 0.00017043 0.0025746 -0.0015433 -0.018089 0.018519
-0.15143 0.14492 -0.024192 0.015436
-0.0030042 -0.0025078 0.0034668 0.00055727 0.0017291 0.0043985 -0.0058711 -0.008396
-0.024394 0.015408 -0.18701 0.19878
920000000 -0.097281 0.27286 0.0053228 0.037806 -0.0092952 -0.004141 -0.0017797 0.0023604
0.0013476 0.0016955 0.0025137 -0.0016587
0.0053656 0.037675 -0.26046 0.3113 0.027974 0.021557 0.001568 0.0011349
0.0069425 -0.00053556 0.0035892 -0.0029338
-0.0092966 -0.0040633 0.028063 0.021572 0.067613 0.31717 0.001846 -0.00016958
0.0011562 -0.00048977 0.00063755 -0.00095475
-0.0016535 0.0023464 0.0014384 0.00099455 0.0017809 -9.2114e-05 -0.11415 0.25878
-0.010264 0.029977 0.0025266 -0.0064626
0.0014687 0.0015787 0.0070223 -0.00076594 0.0011595 -0.00052888 -0.01043 0.029969
-0.14078 0.15141 -0.0023936 0.027317
0.0024505 -0.0015859 0.0034958 -0.0031001 0.00098225 -0.0008875 0.0023797 -0.0064627
-0.002371 0.027083 -0.19214 0.21413
980000000 -0.049635 0.29193 0.017854 0.029753 -0.0087323 0.0046523 0.0024483 0.0038382
0.0039461 -0.0015975 -0.0026333 -0.0019654
0.017823 0.029725 -0.20749 0.34451 0.032723 0.0045677 0.0019939 2.4098e-05
0.00085082 -0.0060514 -0.00055724 -0.0018029
-0.0086815 0.0047041 0.032821 0.0044302 0.11378 0.31011 0.00049518 -0.0011743
-8.4326e-06 -0.0021123 0.0014858 -0.00013067
0.0024281 0.0037801 0.0020161 -9.7096e-05 0.00044405 -0.0011775 -0.076169 0.27013
0.0071622 0.028632 -0.0089223 -0.0067172
0.0039784 -0.0016532 0.0011671 -0.0061352 3.623e-05 -0.0020848 0.0072225 0.028675
-0.10911 0.17866 0.0046782 0.018873
-0.0031444 -0.0019031 -0.00050354 -0.0022308 0.0015239 -5.2024e-05 -0.008911 -0.0065672
0.0045465 0.018923 -0.14863 0.25742
1040000000 -0.0069766 0.30015 0.033196 0.017758 -0.0011211 0.0067915 0.002824 0.00067834
-6.947e-05 -0.0037103 -0.00048157 -0.0013294
0.03316 0.017597 -0.17207 0.35757 0.028847 -0.014847 0.001411 -0.0017222
-0.0026665 -0.0023417 -0.0014243 -0.0026205
-0.0010663 0.0067645 0.028754 -0.014899 0.15976 0.29622 -0.00050784 -0.0013971
-0.001583 -0.00081599 -0.00040509 -0.0011695
0.0028827 0.00069924 0.0014392 -0.0017165 -0.00053368 -0.0014106 -0.048403 0.28019
0.017946 0.017122 -0.0028297 0.0021766
-0.00014391 -0.0038402 -0.0025956 -0.0024061 -0.001554 -0.00086096 0.018038 0.017151
-0.078446 0.18733 0.013142 0.017609
-0.00042563 -0.0015037 -0.0017251 -0.0027399 -0.00033834 -0.0011353 -0.0029533 0.0021887
0.013159 0.017638 -0.12689 0.27658
1100000000 0.038686 0.30715 0.035492 -0.004524 0.0028357 0.0036891 0.0025587 -0.0014308
-0.0020895 -0.0030137 -0.0037702 0.00016556
0.035452 -0.0045645 -0.12844 0.37428 0.014731 -0.027456 -5.2276e-06 -0.0017899
-0.0031139 -0.00044193 -0.0032356 -0.00053666
0.0029019 0.0036969 0.01464 -0.02749 0.20577 0.27566 -0.0017721 0.00021928
-0.0016541 0.00066376 -0.00096193 -0.00029592
0.0026253 -0.001402 -2.7795e-05 -0.0018277 -0.001753 0.00023332 -0.0078884 0.28507
0.022506 0.0052611 -0.0023792 0.00090871
-0.0020338 -0.0029975 -0.0030147 -0.00055089 -0.0016806 0.00067615 0.022501 0.0053142
-0.060041 0.20058 0.018232 0.0084053
-0.0038357 0.00020164 -0.0032948 -0.00050157 -0.00097471 -0.00041349 -0.0022764 0.00093851
0.018277 0.0084198 -0.080187 0.30421
1160000000 0.090232 0.30194 0.023529 -0.020724 0.0025972 -0.00057132 -0.00018137 -0.0025167
-0.0040477 -0.00046816 -0.0010806 0.0038448
0.023532 -0.020677 -0.084856 0.37815 -0.0037792 -0.0286 -0.0017818 -0.0016268
-0.0023529 0.002463 -0.0012289 0.0015654
0.0026279 -0.00058623 -0.0039108 -0.028578 0.24854 0.24484 -0.00069887 0.0016973
-0.00041203 0.001704 -0.00086729 0.00011591
-0.00014518 -0.002583 -0.0017127 -0.0016127 -0.00064668 0.0016667 0.031383 0.28202
0.019256 -0.0093421 -0.0025483 0.0055929
-0.0039993 -0.00035127 -0.0023439 0.0025517 -0.00036671 0.001743 0.019243 -0.009395
-0.02676 0.20981 0.017057 0.0007564
-0.00098169 0.0036377 -0.0011477 0.001714 -0.00091724 6.7211e-05 -0.0026018 0.0055435
0.017038 0.00067689 -0.033293 0.30586
1220000000 0.13452 0.28989 0.010056 -0.029718 -0.0015393 -0.00082131 -0.0001119 -0.0011113
-0.0025003 0.0025596 0.0013108 0.0018799
0.010046 -0.029672 -0.040654 0.38969 -0.01658 -0.020727 -0.0024628 0.00042792
0.00025661 0.0027868 -0.00072403 0.0017493
-0.0015364 -0.00081528 -0.01669 -0.020651 0.28757 0.20604 0.00082402 0.0015641
0.00059036 0.0011507 0.0002769 0.00060039
-0.00017556 -0.001169 -0.0024695 0.00048991 0.00084823 0.0015442 0.070922 0.27363
0.0094161 -0.015073 0.0027318 0.0016737
-0.002581 0.0025759 0.00031491 0.0028228 0.00055026 0.0011158 0.0094228 -0.01502
-0.0029142 0.21914 0.013236 -0.012026
0.0012137 0.0018306 -0.00079231 0.0017447 0.00022989 0.00071762 0.0027354 0.0016741
0.013199 -0.012061 -0.0010386 0.32119
1280000000 0.18402 0.26738 -0.0079028 -0.028028 -0.0017801 0.0024758 -0.0011377 -0.001988
-0.00056967 0.0029896 0.0024313 0.001036
-0.0078391 -0.028034 0.0049701 0.38048 -0.02321 -0.008361 -0.0010176 0.0014613
0.0015955 0.0015169 0.00038961 0.0019968
-0.0018175 0.0025052 -0.023285 -0.008299 0.31834 0.16215 0.0013568 -0.00011398
0.00095157 5.6704e-05 0.00019915 0.00027574
-0.0011114 -0.0018724 -0.00098516 0.0014923 0.0013363 -0.00011026 0.10741 0.2577
0.00093738 -0.016767 0.00052158 3.6668e-05
-0.00053048 0.0030182 0.0016463 0.001595 0.0010049 6.1342e-05 0.00088068 -0.016833
0.033641 0.22288 0.0029731 -0.013922
0.0025504 0.00097039 0.00038436 0.0019308 0.00024664 0.00034238 0.00056545 9.3499e-05
0.0029673 -0.013875 0.046022 0.32111
1340000000 0.22068 0.23308 -0.017428 -0.0187 0.00088267 0.0042993 -0.0019344 -0.0007994
0.0014755 0.0025507 0.0015711 -0.0014564
-0.017415 -0.018708 0.044136 0.37221 -0.021196 0.0039859 -8.2067e-05 0.0019327
0.0016824 0.00065655 0.0012767 0.0008858
0.00089913 0.0043127 -0.021176 0.0041473 0.3405 0.11424 0.00099714 -0.00080952
0.00059469 -0.00028732 0.00012762 0.00030754
-0.0018957 -0.000747 -4.1853e-05 0.0019336 0.00093648 -0.00078678 0.14036 0.23777
-0.0071441 -0.01423 0.0013546 -1.3328e-05
0.0014917 0.00248 0.0017023 0.00064245 0.0005511 -0.00033629 -0.0071614 -0.014202
0.064088 0.21812 -0.0031455 -0.012597
0.0015527 -0.0015376 0.0012439 0.00087926 0.00015704 0.0002495 0.0013294 1.676e-05
-0.0031107 -0.012574 0.08431 0.31536
1400000000 0.25315 0.1946 -0.023033 -0.0074475 0.0049957 0.0030266 -0.001964 0.00075332
0.0024302 0.00067113 0.00025277 -0.0012665
-0.023037 -0.0074469 0.081096 0.35915 -0.01466 0.011985 0.0013461 0.0012879
0.00098246 -0.00080317 0.0011791 0.0002972
0.0049968 0.0029599 -0.014598 0.012091 0.35389 0.060392 0.00012077 -0.0014027
0.00010754 -0.0003588 0.00026042 0.0002241
-0.0020162 0.0008179 0.0013292 0.0012648 0.00014131 -0.0014244 0.17033 0.20935
-0.012114 -0.0084858 -0.00056825 -0.00092423
0.0024707 0.00067957 0.00097875 -0.00076619 5.9327e-05 -0.00038819 -0.012127 -0.0084631
0.097109 0.2134 -0.009282 -0.0082161
0.00022549 -0.0013171 0.0011881 0.00021223 0.00024043 0.00021115 -0.00056178 -0.0009736
-0.0092786 -0.0082136 0.12859 0.30345
1460000000 0.2756 0.15053 -0.020214 0.0045216 0.0054136 -0.0017222 -0.0015387 0.0017209
0.0018807 -0.00075871 -0.00039982 -0.00085654
-0.020186 0.0044844 0.11524 0.33751 -0.0062717 0.014889 0.0016907 0.00014021
0.00079202 -0.0011331 0.0011712 -0.0006092
0.0054294 -0.0017682 -0.0062041 0.014921 0.35978 0.0055455 -0.001059 -0.0012328
0.00025697 -0.00016902 0.00071139 -0.00039777
-0.0015205 0.0017433 0.0016623 0.0001475 -0.0010777 -0.0012167 0.19742 0.18038
-0.012972 -0.0031547 -0.0010513 0.0013879
0.0018204 -0.00067112 0.00082657 -0.0011141 0.00025385 -0.00012896 -0.012987 -0.0031613
0.12694 0.19843 -0.01094 -0.0028698
-0.00041362 -0.00089735 0.001135 -0.00061871 0.00069806 -0.000382 -0.0010838 0.0014019
-0.010963 -0.0028741 0.16127 0.28152
1520000000 0.28743 0.10875 -0.014705 0.010052 0.003023 -0.0040617 0.00012676 0.002501
0.0017204 -0.0016259 -0.0011486 -0.00010769
-0.014705 0.010059 0.14878 0.32274 0.0011564 0.012912 0.0015985 -0.00081192
9.626e-05 -0.00090459 0.00029475 -0.0009893
0.0030457 -0.0040894 0.0012567 0.012937 0.35252 -0.051029 -0.00093369 -0.00041584
0.00052414 -0.00073324 -8.2806e-05 -0.00010837
0.00016731 0.0025632 0.001583 -0.00077413 -0.00096061 -0.00037795 0.22146 0.14216
-0.012701 0.0014478 0.00091625 0.0017226
0.0017166 -0.0016709 7.126e-05 -0.00088926 0.00047775 -0.00070412 -0.012728 0.0014617
0.15522 0.18401 -0.011037 0.0012159
-0.0011836 -0.00015566 0.00033657 -0.00099319 -1.0861e-05 -6.5817e-05 0.00089712 0.0017159
-0.011053 0.0012152 0.194 0.26009
1580000000 0.29639 0.062246 -0.0082063 0.013176 -0.00093284 -0.0046138 0.0013762 0.0018425
-0.0004575 -0.0020206 -0.00037425 0.00040397
-0.0082512 0.013137 0.17613 0.29787 0.0048642 0.0083343 0.00043854 -0.0015148
-0.00038506 -0.0010048 -0.00024163 -0.00086702
-0.00093367 -0.0045896 0.0048871 0.0083319 0.33203 -0.10856 -0.0015422 0.00044876
-0.00029093 -0.00114 0.00020769 -0.00044218
0.0014316 0.0018126 0.00046233 -0.0015405 -0.0015386 0.0004393 0.23633 0.102
-0.01023 0.0055985 0.0016651 0.00066718
-0.00042966 -0.0020087 -0.00037138 -0.0010327 -0.00022161 -0.0011165 -0.010248 0.005691
0.1798 0.1657 -0.0088869 0.0063998
-0.00043846 0.00039923 -0.00020745 -0.00091188 0.00016184 -0.00054537 0.0016826 0.0006374
-0.00888 0.0063989 0.22496 0.23273
1640000000 0.298 0.020661 -0.0016669 0.012251 -0.0026491 -0.0025695 0.0025762 0.0010129
-0.00074006 -0.0011491 -0.00032468 0.00067356
-0.0016816 0.012235 0.20557 0.27274 0.0055893 0.0037558 -0.00070982 -0.0016001
-0.00094244 -0.0004871 -0.00054063 -0.0006314
-0.0026684 -0.0025648 0.0056167 0.0037316 0.30307 -0.15736 -0.00084712 0.0013476
-0.00095176 -0.00090998 -7.9745e-05 -0.0002964
0.0025377 0.00098326 -0.0006953 -0.0016269 -0.00086229 0.0013119 0.24897 0.051957
-0.0069895 0.0068696 0.0021336 -0.00061823
-0.00080016 -0.0010454 -0.00095515 -0.00047934 -0.00096985 -0.00087048 -0.0069293 0.0068941
0.20277 0.14039 -0.0045534 0.0086537
-0.00030218 0.00064613 -0.00057991 -0.0006693 -5.0164e-05 -0.00023592 0.0021486 -0.00059968
-0.0045615 0.0086658 0.24993 0.20073
1700000000 0.29043 -0.024899 0.0018659 0.009656 -0.003463 5.8088e-05 0.002955 -0.0011091
-0.0017581 -0.00042547 0.00065186 0.00047859
0.0018597 0.0096632 0.2237 0.24094 0.0038484 0.00085869 -0.0013401 -0.00056154
-0.00079763 -2.6386e-05 -0.00093618 -0.00040778
-0.0034119 0.00014877 0.0038696 0.00083895 0.2598 -0.19706 0.00029283 0.0016028
-0.0017148 -0.00030919 -0.00052339 -0.00092412
0.0029133 -0.0011138 -0.0013904 -0.00055583 0.00032503 0.0015923 0.24542 0.00085605
-0.0049013 0.0076387 0.001267 -0.0018647
-0.0018119 -0.00041572 -0.0007617 -4.5968e-05 -0.0017397 -0.00032345 -0.0048598 0.0076137
0.22065 0.11884 -0.00032798 0.009126
0.00063282 0.00046384 -0.00099923 -0.00039286 -0.00048331 -0.00096088 0.0012979 -0.0018504
-0.00030881 0.0091272 0.26551 0.16591
1760000000 0.27736 -0.073618 0.0043459 0.0064603 -0.0022938 0.00085929 0.0013265 -0.0033167
-0.0010435 0.00065869 0.00039638 -0.00052052
0.0043495 0.0064538 0.24943 0.2008 0.0017641 -0.0010481 -0.0010952 0.00015335
-0.0011272 0.00088959 -0.00058363 0.00053019
-0.0022392 0.00086915 0.0017845 -0.0010027 0.21111 -0.23063 0.0010983 0.0012385
-0.0011545 0.0013708 -0.0013501 -0.00031307
0.0012658 -0.0032261 -0.0010822 0.00020277 0.0010835 0.0012845 0.23503 -0.051585
-0.0020702 0.0073619 -0.00030728 -0.0020091
-0.0010837 0.00061886 -0.0011647 0.0008626 -0.0011725 0.0013896 -0.0021023 0.0073175
0.23563 0.082429 0.0033979 0.0067354
0.00047181 -0.00049002 -0.0005272 0.00059393 -0.0013458 -0.00045203 -0.0003333 -0.0020537
0.0034051 0.0067317 0.2771 0.12795
1820000000 0.25188 -0.11048 0.0047245 0.002862 -3.8912e-05 0.0024591 -0.00093868 -0.0030193
-0.00088312 0.00061618 1.1519e-05 -0.0001651
0.0046993 0.0028666 0.25914 0.17054 -0.00012763 0.00016829 -0.0013501 0.00081271
-9.2595e-05 0.0013515 -0.00048648 0.00053245
-2.4176e-05 0.0024535 -0.0001859 0.00015113 0.16055 -0.24547 0.0015748 0.0004856
-0.00042951 0.0022117 -0.0014196 0.00051408
-0.00090802 -0.0030707 -0.0013368 0.00087664 0.0016316 0.00054756 0.20358 -0.098899
-0.00083724 0.0059916 -0.0014849 -0.0013608
-0.00084087 0.00063892 -0.00013455 0.0014373 -0.00041757 0.0021885 -0.00082227 0.0060682
0.25207 0.051106 0.004566 0.003437
4.5367e-06 -0.00019892 -0.00046018 0.00052928 -0.0014133 0.00056955 -0.0015051 -0.0013382
0.0045381 0.0034327 0.27822 0.091463
1880000000 0.21609 -0.15028 0.0026358 0.0003863 -0.00041532 0.0020807 -0.002796 -0.0022871
-0.00038414 0.0013858 0.00026243 -0.00052376
0.0026726 0.00041394 0.26324 0.12382 -0.0021331 0.0016265 -0.00018038 0.0016545
0.00061252 0.0013281 0.00023508 0.00095936
-0.00028111 0.0021452 -0.0020725 0.001672 0.1081 -0.25508 0.0020011 -0.0010093
0.0014135 0.0020582 -0.00076553 0.00148
-0.002873 -0.0021748 -0.00017414 0.0016706 0.0018859 -0.0009557 0.16159 -0.13818
-0.00037932 0.0046898 -0.0022726 0.00060447
-0.00029375 0.0014424 0.00065071 0.0013673 0.0013574 0.0020229 -0.00032746 0.0047041
0.25369 0.016344 0.0042663 0.0014493
0.00024926 -0.0004893 0.00020194 0.00098944 -0.00082926 0.001434 -0.0021826 0.00066342
0.0042635 0.0014573 0.27754 0.057498
1940000000 0.17634 -0.17507 0.00025434 -0.001494 0.0013503 0.001749 -0.0038088 0.00054929
0.0011256 0.0011767 -0.00069594 -0.00055292
0.00035175 -0.0014693 0.26333 0.091943 -0.00096458 0.0037573 0.00091318 0.0013526
0.002007 0.00050343 0.00084106 0.00021658
0.0014087 0.0018072 -0.00094958 0.0038138 0.062737 -0.2486 0.0003285 -0.0023943
0.0025464 0.00048218 0.000391 0.0014581
-0.0037079 0.00062209 0.00093648 0.0013185 0.00022552 -0.0024865 0.10835 -0.16716
-0.0014751 0.0040292 -0.001244 0.0017285
0.001154 0.0011448 0.0019907 0.0004981 0.0024752 0.00038164 -0.0014584 0.0040123
0.25308 -0.024501 0.0031354 -0.0016512
-0.00061111 -0.00072608 0.00087096 0.00020373 0.00048649 0.0014951 -0.0013379 0.0016521
0.0031164 -0.0016627 0.26557 0.021414
2000000000 0.13001 -0.18887 -0.0037451 0.00036557 0.0022691 0.0015949 -0.0023547 0.003692
0.0011092 0.00035498 -0.0006334 0.00021851
-0.0037232 0.00048874 0.24872 0.05641 -0.00080465 0.0055935 0.0016313 0.00034858
0.0014957 -0.0013512 0.00046818 9.95e-05
0.0023486 0.0014395 -0.00075805 0.0055384 0.01888 -0.23393 -0.0013769 -0.0013489
0.0021481 -0.0011448 0.0015518 0.0011501
-0.0022861 0.003592 0.0015788 0.00032199 -0.0013948 -0.0013408 0.055189 -0.17544
-0.0028362 0.0045454 0.00010062 0.0022685
0.001024 0.00042256 0.0014407 -0.0015436 0.0021434 -0.0011275 -0.002862 0.0045457
