!Keysight Technologies,M9804A,MY58100912,A.14.10.03
!Date: Thursday, April 27, 2023 10:28:33
!Correction: S11(C  6-Port  ) 
!S12(C  6-Port  ) 
!S13(C  6-Port  ) 
!S14(C  6-Port  ) 
!S15(C  6-Port  ) 
!S16(C  6-Port  ) 
!S21(C  6-Port  ) 
!S22(C  6-Port  ) 
!S23(C  6-Port  ) 
!S24(C  6-Port  ) 
!S25(C  6-Port  ) 
!S26(C  6-Port  ) 
!S31(C  6-Port  ) 
!S32(C  6-Port  ) 
!S33(C  6-Port  ) 
!S34(C  6-Port  ) 
!S35(C  6-Port  ) 
!S36(C  6-Port  ) 
!S41(C  6-Port  ) 
!S42(C  6-Port  ) 
!S43(C  6-Port  ) 
!S44(C  6-Port  ) 
!S45(C  6-Port  ) 
!S46(C  6-Port  ) 
!S51(C  6-Port  ) 
!S52(C  6-Port  ) 
!S53(C  6-Port  ) 
!S54(C  6-Port  ) 
!S55(C  6-Port  ) 
!S56(C  6-Port  ) 
!S61(C  6-Port  ) 
!S62(C  6-Port  ) 
!S63(C  6-Port  ) 
!S64(C  6-Port  ) 
!S65(C  6-Port  ) 
!S66(C  6-Port  ) 
!S6P File: Measurement: :
# Hz S  RI   R 50
500000000 -0.33543 -0.03541 -0.0095036 -0.0037182 -0.0078403 0.011837 -0.0034816 0.011994
0.012423 0.0048092 -0.0036305 0.0082102
-0.0094112 -0.003546 -0.41991 -0.049359 0.0071444 -0.011712 0.0014371 0.011548
0.0077646 0.0027788 0.0011471 0.012872
-0.0078982 0.011824 0.0072963 -0.011451 -0.26506 0.21091 0.0066457 0.0028159
-2.1064e-05 0.0086491 0.00079433 0.01171
-0.0040759 0.011926 0.0015853 0.011254 0.0068273 0.0027625 -0.32727 0.047622
-0.019536 -0.0040791 0.017363 0.025264
0.012126 0.006024 0.007683 0.0024839 -5.5438e-05 0.0082286 -0.019597 -0.0044391
-0.22683 -0.18434 -0.027283 0.0050837
-0.0046815 0.0082172 0.0019774 0.012402 0.00081954 0.011554 0.017636 0.025267
-0.027317 0.0049823 -0.27389 -0.11117
560000000 -0.31598 0.12505 -0.023952 -0.063045 -0.00018058 0.01186 0.0058689 0.0096802
0.010762 0.0038518 0.0095722 0.0073403
-0.023821 -0.063334 -0.37519 0.10765 -0.04164 -0.036594 0.013767 0.0036539
-0.013597 -0.0046941 0.0043005 -0.00084242
0.00012557 0.011889 -0.04188 -0.035533 -0.18285 0.25891 -0.00063108 -0.0050654
0.019429 0.0040682 0.006972 -0.0056893
0.0070024 0.0094154 0.012672 0.0032866 -0.00038223 -0.0049559 -0.30267 0.13558
0.0037805 -0.024328 0.0047516 -0.019677
0.010439 0.0034901 -0.013868 -0.0045002 0.019269 0.0040086 0.0039581 -0.0242
-0.28504 -0.0097024 0.0071751 -0.049386
0.0097142 0.0079705 0.0034505 -0.00080993 0.0070099 -0.0060492 0.0043366 -0.01979
0.0070197 -0.049467 -0.33088 0.034323
620000000 -0.27302 0.109 -0.023163 0.0073401 0.0034757 0.0083529 0.0070522 -0.0051639
0.011461 -0.00093149 0.00024156 -0.0020187
-0.023096 0.0072435 -0.40234 0.06233 -0.018665 -0.00020777 -0.0012569 -0.001897
0.010226 -0.0070486 0.0011358 -0.0026546
0.0035446 0.0081889 -0.01877 -0.00018993 -0.15266 0.26767 -0.0014743 -0.0050181
-0.0041227 -0.0032589 0.0082268 -0.0034801
0.006657 -0.0051216 -0.0015573 -0.0019611 -0.0014688 -0.0053064 -0.26138 0.14538
-0.038364 -0.018357 0.014264 0.023436
0.011242 -0.0013975 0.010427 -0.0070819 -0.0037327 -0.0031214 -0.038313 -0.018015
-0.20539 -0.048942 -0.039849 0.014256
0.00080469 -0.0019 0.00084478 -0.0031231 0.0082099 -0.0033688 0.014421 0.023742
-0.040173 0.014139 -0.25009 -0.0014735
680000000 -0.233 0.19301 -0.027789 -0.014054 0.0049398 0.0049259 0.0011842 -0.0078447
-0.003346 -0.010944 0.0041467 -0.0065363
-0.027823 -0.014045 -0.38725 0.15922 -0.032709 -0.0012164 -0.0016401 -0.00034149
-0.0027256 -0.0089416 -0.0010181 -0.001855
0.0047436 0.0049827 -0.032803 -0.0011895 -0.10181 0.28738 -0.00080608 0.0001311
-0.0021777 0.00069646 -0.0027555 -0.0094259
0.0012842 -0.0078224 -0.001478 -0.00042487 -0.00094093 7.8516e-05 -0.21918 0.19534
-0.023564 -0.0083579 -0.0088138 -0.010398
-0.0034447 -0.011248 -0.0025596 -0.0088379 -0.001948 0.00076853 -0.023578 -0.0081857
-0.25212 0.04903 -0.0057699 -0.0093635
0.0039773 -0.0064933 -0.00086748 -0.0019373 -0.0027641 -0.0096315 -0.0089104 -0.010564
-0.0057181 -0.0092384 -0.25869 0.10084
740000000 -0.18981 0.18829 -0.03839 0.0263 0.012401 -0.0050107 -0.00048888 -0.0038347
-0.0045431 -0.0029173 -0.0061444 0.0035263
-0.038284 0.026136 -0.33503 0.17791 -0.034685 0.034934 -0.0008168 -0.0064027
-0.011193 0.0083897 -0.003101 -0.0062541
0.01269 -0.0051236 -0.034642 0.035321 -0.068271 0.28633 -0.0013653 0.0032739
-0.0027712 -0.0040508 -0.0013118 8.7829e-06
-0.00079835 -0.0039477 -0.00099075 -0.0062616 -0.0014755 0.0032217 -0.2023 0.20279
-0.042456 -0.0078522 0.021443 0.013141
-0.0044468 -0.0025164 -0.011281 0.0083575 -0.0025667 -0.0037444 -0.042398 -0.0075752
-0.15705 0.073138 -0.041589 0.00050697
-0.006386 0.0037003 -0.00299 -0.0059422 -0.0013826 -2.3305e-05 0.021438 0.013224
-0.041524 0.00024306 -0.24632 0.10654
800000000 -0.15741 0.22844 -0.022415 0.017118 0.0052168 -0.010518 -0.004832 -0.0019973
-0.0040104 0.002638 0.0043324 0.0007954
-0.022484 0.017104 -0.33745 0.24821 -0.0076967 0.033968 -0.0021171 0.0022212
-0.00051056 0.0033302 0.0012026 0.0052173
0.0052666 -0.010486 -0.0075635 0.034015 -0.027026 0.30912 0.0011837 0.0014974
0.00065189 0.0035195 -0.0017977 0.0010531
-0.00497 -0.0020048 -0.0022273 0.0021322 0.0011398 0.0014656 -0.17415 0.23052
-0.02842 0.012528 0.012881 -0.0098376
-0.0039082 0.0027786 -0.00049514 0.0035781 0.00061775 0.0037346 -0.028372 0.01263
-0.20033 0.09705 -0.017702 0.017255
0.0040534 0.0006649 0.0013414 0.0053815 -0.0015676 0.001128 0.012929 -0.0097434
-0.017772 0.01719 -0.23711 0.15775
860000000 -0.1227 0.24956 -0.017169 0.031264 -0.0034036 -0.0096884 -0.0026297 0.0012742
0.0042231 0.0050454 -0.0030401 -0.0027697
-0.017298 0.031195 -0.28981 0.29042 0.0081548 0.033965 1.5079e-05 0.0020914
0.0043755 0.00019424 0.0033668 0.00035455
-0.003583 -0.0096642 0.0081576 0.034019 0.021315 0.31687 -0.00046893 -0.00030306
0.0028775 -0.0015396 0.0015235 0.004349
-0.0026204 0.0011287 0.00014411 0.0021434 -0.00038852 -0.00023583 -0.13869 0.24225
-0.017952 0.018581 -0.0058468 -0.0089778
0.0042168 0.0049742 0.0043625 0.00015941 0.0027739 -0.0015506 -0.017881 0.018699
-0.15142 0.14567 -0.024218 0.014894
-0.0027736 -0.0027317 0.0033767 0.00037598 0.0015643 0.0042737 -0.0058411 -0.0088561
-0.024149 0.015021 -0.18736 0.20004
920000000 -0.097382 0.27251 0.0054007 0.037716 -0.0092325 -0.0041084 -0.0018072 0.002266
0.0013297 0.0016119 0.0025504 -0.0014504
0.0053411 0.037698 -0.26027 0.31115 0.027972 0.021551 0.0015754 0.0010266
0.0067449 -0.00061154 0.0038567 -0.0028843
-0.0093123 -0.0041582 0.028078 0.021416 0.067667 0.3171 0.0017732 -0.00015576
0.0011723 -0.0005448 0.00084193 -0.00094194
-0.0017958 0.002294 0.0015883 0.0010967 0.0018173 -0.000143 -0.11421 0.25866
-0.010413 0.029805 0.0025161 -0.0064199
0.0013781 0.0018168 0.0068865 -0.00064978 0.0011573 -0.00048496 -0.010329 0.029918
-0.14083 0.15152 -0.0020628 0.027092
0.0026676 -0.0015946 0.0036387 -0.0031979 0.00083076 -0.0010892 0.0025759 -0.0064475
-0.0019977 0.027045 -0.19241 0.21341
980000000 -0.049703 0.29196 0.017848 0.029833 -0.0086933 0.004635 0.0024116 0.0037697
0.0039423 -0.0017616 -0.0029802 -0.0021474
0.017784 0.029721 -0.2076 0.34463 0.032656 0.00454 0.0019894 -2.3206e-05
0.00096405 -0.0061218 -0.00054308 -0.0021904
-0.0086524 0.0046399 0.032727 0.0044226 0.11381 0.31014 0.0004363 -0.0011503
2.2036e-05 -0.0021173 0.0015278 -3.4697e-05
0.0024562 0.0037129 0.0019662 -5.9362e-05 0.00044028 -0.0012088 -0.076045 0.2702
0.0072691 0.028523 -0.0090364 -0.0066461
0.003818 -0.0017275 0.00083657 -0.0061059 1.2782e-05 -0.002078 0.0072955 0.028499
-0.10898 0.17883 0.0046756 0.01878
-0.0028607 -0.0019328 -0.00071587 -0.001832 0.001505 -1.6387e-06 -0.0090247 -0.0066865
0.004653 0.018721 -0.14903 0.25732
1040000000 -0.0070896 0.30034 0.033046 0.017686 -0.0010684 0.0067986 0.0027633 0.00063677
-7.0697e-05 -0.0037025 -0.000544 -0.0014826
0.033048 0.017589 -0.17194 0.3574 0.028813 -0.014839 0.0014697 -0.0017438
-0.0026362 -0.0022522 -0.0013803 -0.0026446
-0.0011092 0.0067886 0.028785 -0.014974 0.15976 0.29616 -0.00050995 -0.0013822
-0.0015353 -0.00081142 -0.00038795 -0.0011659
0.002803 0.00068152 0.0014638 -0.0016233 -0.00047623 -0.001404 -0.048411 0.28015
0.018023 0.017096 -0.0029057 0.0021992
1.4497e-05 -0.0037741 -0.0025691 -0.002161 -0.0015304 -0.00087907 0.01812 0.017078
-0.078322 0.18754 0.013131 0.01761
-0.00046531 -0.001237 -0.0013895 -0.0026696 -0.00035857 -0.0011969 -0.0028495 0.0022096
0.013079 0.017632 -0.12703 0.27653
1100000000 0.03873 0.30723 0.035438 -0.0045639 0.0028666 0.0037002 0.0026092 -0.0014659
-0.0021095 -0.0029881 -0.0038381 0.00015252
0.035448 -0.0045712 -0.12832 0.37428 0.014756 -0.027408 4.7995e-05 -0.0018399
-0.0030683 -0.00038129 -0.0032688 -0.00050511
0.0028796 0.0036947 0.014643 -0.027518 0.20578 0.27563 -0.0017504 0.00026084
-0.0016369 0.00065748 -0.00093683 -0.00037048
0.0025562 -0.0014406 5.9445e-05 -0.0017843 -0.0017544 0.0002535 -0.0078744 0.28505
0.022477 0.0051855 -0.002311 0.0010084
-0.0021426 -0.0029395 -0.0031158 -0.00031745 -0.0016043 0.00064599 0.022443 0.0051236
-0.05988 0.20056 0.018357 0.0083762
-0.0038767 0.00010717 -0.0031806 -0.00051708 -0.00098793 -0.0004093 -0.0023419 0.00097491
0.018402 0.0083395 -0.080274 0.30416
1160000000 0.090334 0.30179 0.023534 -0.020694 0.0026207 -0.00049861 -0.00020467 -0.0025912
-0.0039746 -0.00048473 -0.00098487 0.0038471
0.023509 -0.020676 -0.0846 0.37824 -0.0037728 -0.028609 -0.0017371 -0.0016483
-0.002325 0.0025721 -0.0012463 0.0015614
0.0025683 -0.00052307 -0.0038882 -0.028629 0.24859 0.24483 -0.00061748 0.0016589
-0.00033495 0.0017818 -0.00097228 0.00011333
-0.00014686 -0.0025663 -0.0018171 -0.0015927 -0.00060319 0.0016815 0.031399 0.28201
0.019213 -0.0093642 -0.0025466 0.0054807
-0.0040364 -0.00039614 -0.0023124 0.0026524 -0.00030302 0.0017812 0.019241 -0.0093588
-0.026562 0.20975 0.017043 0.00068266
-0.0010228 0.003776 -0.0011349 0.0015573 -0.00090669 9.7429e-05 -0.0025232 0.0055078
0.017054 0.00068739 -0.033099 0.3059
1220000000 0.13464 0.28988 0.010085 -0.029686 -0.0014944 -0.00082334 -0.00014681 -0.001156
-0.0024847 0.0025378 0.0012894 0.0018538
0.010095 -0.029678 -0.040519 0.38968 -0.016591 -0.020751 -0.0024642 0.0004402
0.00025893 0.0028112 -0.00072483 0.0017469
-0.001499 -0.00081983 -0.016675 -0.020679 0.28764 0.20599 0.00081856 0.0015618
0.00054956 0.0011133 0.0002348 0.00066871
-0.00016752 -0.0011182 -0.0024561 0.00045956 0.00084231 0.0015706 0.071005 0.27368
0.0094012 -0.015042 0.0027023 0.0016517
-0.0025444 0.0025345 0.00026882 0.0028149 0.00051633 0.0011133 0.00936 -0.015078
-0.0031448 0.21914 0.013158 -0.011981
0.0013118 0.0018405 -0.00071302 0.0017369 0.00025804 0.00065737 0.0027171 0.001691
0.013145 -0.011998 -0.00097327 0.32131
1280000000 0.18396 0.26714 -0.0078659 -0.027958 -0.0017705 0.0024374 -0.0011101 -0.0019797
-0.00058023 0.0030141 0.0024792 0.00094345
-0.0078434 -0.027977 0.0050256 0.38051 -0.02318 -0.0083664 -0.00097797 0.0014498
0.0016047 0.0015726 0.00047526 0.0019284
-0.0017772 0.0024465 -0.023253 -0.0082687 0.31828 0.16219 0.0013666 -0.00013522
0.00096896 6.6887e-05 0.00027077 0.00034305
-0.0011286 -0.0019554 -0.00094709 0.0014341 0.00134 -0.00013284 0.10739 0.25763
0.00088619 -0.016821 0.00056037 5.7176e-05
-0.0005775 0.0030048 0.0015861 0.0015165 0.00097967 9.9595e-05 0.00085478 -0.016825
0.033706 0.22271 0.0028849 -0.013931
0.0024601 0.00095354 0.00051154 0.0020029 0.00019741 0.00038045 0.00060449 3.6262e-05
0.0028975 -0.013931 0.045996 0.32111
1340000000 0.22071 0.23315 -0.017364 -0.018695 0.00094317 0.004352 -0.0018916 -0.00073283
0.001477 0.0025517 0.0016383 -0.0014525
-0.017406 -0.018695 0.044211 0.37217 -0.021171 0.0040014 -5.768e-05 0.0019113
0.0016743 0.00066507 0.0012979 0.00089311
0.00092806 0.0043328 -0.021154 0.0041242 0.34061 0.11414 0.00092695 -0.00084026
0.00059435 -0.00037622 0.00015265 0.00026807
-0.0019157 -0.00076499 -5.5986e-05 0.0019133 0.00096362 -0.00084248 0.14037 0.23772
-0.0071919 -0.014212 0.0012895 -1.3628e-05
0.0015016 0.0025186 0.0017254 0.00059377 0.00060191 -0.00041685 -0.0072448 -0.01421
0.064085 0.21811 -0.0031347 -0.012626
0.0016148 -0.0014539 0.0013001 0.00086678 0.00013415 0.0002241 0.0012605 2.5624e-06
-0.0031328 -0.012631 0.084515 0.31535
1400000000 0.25315 0.19462 -0.02302 -0.0074732 0.0049864 0.0030067 -0.0020074 0.00073701
0.0024098 0.00072957 0.00019909 -0.0012939
-0.022992 -0.0074542 0.081138 0.35914 -0.01467 0.012031 0.0013376 0.0012645
0.00097803 -0.00077463 0.0011821 0.00025892
0.0050183 0.002985 -0.014617 0.012105 0.35381 0.060333 0.0001066 -0.0013763
6.388e-05 -0.00034091 0.00024248 0.00019045
-0.0020018 0.00073605 0.0013282 0.0012741 0.00011158 -0.00139 0.17039 0.20941
-0.012149 -0.0084577 -0.00053348 -0.00089542
0.0024351 0.00072197 0.00097555 -0.00082202 8.1108e-05 -0.00035653 -0.012166 -0.0084302
0.09712 0.21332 -0.009297 -0.008125
0.00025783 -0.00127 0.0011364 0.00023251 0.00026098 0.00020925 -0.00055532 -0.00087577
-0.0092771 -0.0081541 0.12847 0.30353
1460000000 0.27567 0.15054 -0.020205 0.0044313 0.0053955 -0.001718 -0.0015209 0.0017271
0.0018936 -0.00072367 -0.00035231 -0.00080734
-0.020162 0.0044291 0.11523 0.33744 -0.0062189 0.014854 0.0016891 0.00017144
0.00084838 -0.0011301 0.001204 -0.00058458
0.0053967 -0.0017712 -0.006204 0.014939 0.35966 0.0054374 -0.0010463 -0.0012498
0.00028499 -0.00013093 0.00066786 -0.00040438
-0.0015545 0.0017285 0.0017188 0.00017833 -0.0010728 -0.0012116 0.19743 0.18039
-0.013016 -0.0031091 -0.0010987 0.0013915
0.0018848 -0.00074437 0.00081215 -0.0011151 0.00027972 -0.000135 -0.013036 -0.0030615
0.12698 0.19845 -0.010942 -0.0028152
-0.00032558 -0.00083766 0.0011886 -0.0006054 0.00070058 -0.00032973 -0.001091 0.0014014
-0.010957 -0.0028474 0.16142 0.28151
1520000000 0.28747 0.10878 -0.014704 0.0099903 0.0030989 -0.0040183 0.00016228 0.0025435
0.0017244 -0.0016288 -0.0011546 -0.00013214
-0.014722 0.010012 0.14881 0.32275 0.0011987 0.012916 0.0015901 -0.00080806
9.378e-05 -0.00089132 0.00031153 -0.0010138
0.0030108 -0.0039985 0.0013102 0.012935 0.35254 -0.051053 -0.00094583 -0.00040053
0.00054135 -0.00077302 -2.4975e-05 -9.3458e-05
0.00014461 0.0025418 0.0015839 -0.00081366 -0.00089661 -0.00042793 0.22152 0.14212
-0.012722 0.0015023 0.0009105 0.0017186
0.0017017 -0.0016672 0.00010544 -0.00091583 0.00056123 -0.00075224 -0.012718 0.001531
0.15517 0.18398 -0.01106 0.0012656
-0.0011635 -8.6835e-05 0.0002964 -0.00096573 -5.7676e-05 -7.1398e-05 0.00091286 0.0017308
-0.011056 0.001248 0.19393 0.26015
1580000000 0.29651 0.062327 -0.0082726 0.01315 -0.00094961 -0.0047042 0.0013869 0.001857
-0.00044444 -0.0019837 -0.00036392 0.00040356
-0.0082496 0.013147 0.17616 0.2979 0.0048592 0.0082791 0.00042905 -0.0015207
-0.00041162 -0.00099237 -0.00024784 -0.0008577
-0.00093308 -0.0046443 0.004904 0.008258 0.33194 -0.10862 -0.0015109 0.00044435
-0.00025394 -0.0011086 0.00015336 -0.000498
0.0014014 0.0018692 0.00043333 -0.0015212 -0.0015279 0.00044966 0.23635 0.10201
-0.010219 0.0056629 0.0017274 0.00066793
-0.00044723 -0.0019911 -0.00042094 -0.0010058 -0.00023291 -0.0011248 -0.010222 0.0057055
0.17983 0.16569 -0.0088751 0.0064405
-0.00032139 0.00036557 -0.00025863 -0.00088256 0.00016478 -0.00049048 0.001734 0.00066086
-0.0088825 0.006433 0.22493 0.23267
1640000000 0.29818 0.020603 -0.0017113 0.012271 -0.002664 -0.0024668 0.0025502 0.0010136
-0.00075429 -0.0011182 -0.0002777 0.00068526
-0.0017046 0.012279 0.2056 0.27272 0.0056366 0.0036606 -0.00070083 -0.0016224
-0.0009553 -0.00047494 -0.00054579 -0.00062176
-0.002703 -0.0024846 0.0056381 0.0036491 0.30325 -0.1578 -0.00086494 0.0013011
-0.0010223 -0.00087282 -0.00012656 -0.0003263
0.002583 0.00097122 -0.00071704 -0.001609 -0.00088549 0.0012965 0.249 0.051993
-0.0069116 0.006881 0.0021371 -0.00061664
-0.00075813 -0.0011301 -0.00095955 -0.00046179 -0.0010066 -0.00090234 -0.0068898 0.0069038
0.2029 0.14048 -0.0045115 0.0086846
-0.00027295 0.00069189 -0.0005503 -0.00062056 -0.00011411 -0.00033728 0.0021513 -0.00060782
-0.0045228 0.0086706 0.2499 0.20068
1700000000 0.29043 -0.024999 0.0018174 0.0096423 -0.0033132 9.5393e-05 0.0029476 -0.0011065
-0.0017776 -0.00044591 0.00063519 0.0004432
0.0018361 0.0096158 0.22382 0.24096 0.0038598 0.0009429 -0.0013586 -0.00055273
-0.00079916 -6.2012e-06 -0.00092123 -0.00042319
-0.0033682 0.00013743 0.0039034 0.00095524 0.25946 -0.19725 0.00031595 0.0015853
-0.0017172 -0.00027917 -0.00056814 -0.0009708
0.0029194 -0.0011082 -0.0013483 -0.00055549 0.0003436 0.0016148 0.24549 0.00084872
-0.0048681 0.0076299 0.0012904 -0.0018947
-0.001749 -0.00037128 -0.00079423 2.4466e-06 -0.0017227 -0.00031231 -0.0048655 0.007643
0.22067 0.11891 -0.00026684 0.0091772
0.00063067 0.00046689 -0.00092949 -0.00038019 -0.00056742 -0.0009621 0.0012917 -0.001897
-0.00028282 0.0091719 0.26548 0.16597
1760000000 0.2773 -0.073609 0.0043084 0.006507 -0.0021947 0.00088196 0.0013774 -0.0033341
-0.00099689 0.00057847 0.00040514 -0.00048581
0.004296 0.0065117 0.24955 0.20075 0.0017637 -0.0008909 -0.0010863 0.00015894
-0.0011152 0.00087345 -0.00060387 0.00054518
-0.0022688 0.00093486 0.0017533 -0.00088893 0.21053 -0.23019 0.0010708 0.0012739
-0.001164 0.0013416 -0.0012733 -0.00041161
0.0013922 -0.0033451 -0.0010845 0.00017319 0.0010851 0.0012729 0.2351 -0.051554
-0.0020657 0.0073316 -0.00036479 -0.0020969
-0.00098765 0.00066528 -0.0011111 0.00087919 -0.0011969 0.0013907 -0.0020508 0.0073539
0.23571 0.082392 0.0034885 0.0066722
0.00037292 -0.00054639 -0.0005678 0.00055133 -0.0012929 -0.00046814 -0.00037079 -0.0020894
0.0034848 0.0066686 0.2772 0.12797
1820000000 0.2519 -0.11063 0.0046913 0.0028988 -2.8646e-05 0.0024154 -0.00092955 -0.0030799
-0.00084919 0.00061283 5.2791e-05 -0.00018435
0.0046893 0.0028834 0.25924 0.17044 -0.00014297 0.00011377 -0.0013211 0.00079408
-9.1795e-05 0.0013659 -0.00048356 0.00052732
1.3936e-05 0.0024187 -0.00014132 0.00011217 0.1605 -0.24583 0.0015853 0.00047134
-0.00037646 0.0021278 -0.0013961 0.00046584
-0.00093056 -0.0030384 -0.0013301 0.00083983 0.0015856 0.00048591 0.20357 -0.098939
-0.00078516 0.0060067 -0.0015585 -0.0013821
-0.00088079 0.00060245 -0.00010136 0.0013884 -0.00039736 0.0021688 -0.00078004 0.0060097
0.25216 0.051157 0.0045597 0.0033434
-2.4734e-05 -0.00011921 -0.00052342 0.00051168 -0.001343 0.00054442 -0.0015678 -0.0013777
0.0045433 0.0033474 0.27845 0.091479
1880000000 0.21599 -0.15022 0.0026372 0.00052848 -0.00035043 0.0020634 -0.0028214 -0.0022079
-0.00033759 0.001395 0.00033184 -0.00056115
0.00261 0.00054206 0.26329 0.12378 -0.0020047 0.0016299 -0.00022779 0.0016792
0.0006458 0.0013256 0.00024767 0.00098968
-0.0003315 0.0020962 -0.0020137 0.0016858 0.10839 -0.25521 0.0019143 -0.00091964
0.0013914 0.0020848 -0.00083363 0.0014011
-0.0028893 -0.0022088 -0.00019459 0.0016534 0.0019619 -0.00090334 0.1616 -0.13828
-0.00033456 0.0046898 -0.0022355 0.00069576
-0.00035966 0.0013498 0.00065212 0.0013261 0.0014046 0.002109 -0.00033382 0.0047003
0.25379 0.016346 0.0042139 0.0014531
0.00034019 -0.00052088 0.00024358 0.0010271 -0.00079881 0.001388 -0.0022108 0.00070985
0.0042097 0.0014438 0.27741 0.057321
1940000000 0.17608 -0.1752 0.00029752 -0.0014213 0.0012859 0.0017767 -0.0037649 0.00057274
0.0011044 0.0011517 -0.00062382 -0.00072246
0.0002664 -0.0014749 0.26332 0.091843 -0.00097414 0.0037508 0.00088641 0.0013514
0.0019777 0.00053917 0.00089303 0.00025244
0.0013011 0.001802 -0.00095341 0.0037151 0.06247 -0.24863 0.00027265 -0.0024248
0.0024428 0.0005677 0.00038301 0.0015599
-0.0037834 0.00061626 0.00089253 0.0013607 0.00028159 -0.0023346 0.1083 -0.16712
-0.0014756 0.0039627 -0.0012286 0.0016767
0.0011248 0.0011401 0.0020324 0.0005143 0.0023974 0.00056367 -0.0014775 0.0039587
0.25321 -0.024511 0.0030772 -0.0016836
-0.00072642 -0.00064706 0.00087116 0.00024968 0.00034866 0.0015501 -0.0012159 0.0017074
0.0030575 -0.0016814 0.26544 0.021443
2000000000 0.12996 -0.18903 -0.0036435 0.00052312 0.0023367 0.0016373 -0.0022746 0.0036052
0.00103 0.00039656 -0.00069985 0.0003717
-0.0036232 0.0004641 0.24868 0.056485 -0.00084538 0.0056333 0.001671 0.00032642
0.0014686 -0.001428 0.00048903 7.034e-05
0.0023679 0.0015326 -0.00079205 0.0056121 0.01894 -0.23397 -0.0013991 -0.0014194
0.0021085 -0.001114 0.0016746 0.0011942
-0.0022376 0.0036784 0.0016511 0.00035397 -0.0014114 -0.0014542 0.055085 -0.17548
-0.0029257 0.0045037 0.00013639 0.0022018
0.0010046 0.00047141 0.0014458 -0.0014381 0.0021428 -0.0011527 -0.0029058 0.004502
