!Keysight Technologies,M9804A,MY58100912,A.14.10.03
!Date: Thursday, April 27, 2023 10:28:33
!Correction: S11(C  6-Port  ) 
!S12(C  6-Port  ) 
!S13(C  6-Port  ) 
!S14(C  6-Port  ) 
!S15(C  6-Port  ) 
!S16(C  6-Port  ) 
!S21(C  6-Port  ) 
!S22(C  6-Port  ) 
!S23(C  6-Port  ) 
!S24(C  6-Port  ) 
!S25(C  6-Port  ) 
!S26(C  6-Port  ) 
!S31(C  6-Port  ) 
!S32(C  6-Port  ) 
!S33(C  6-Port  ) 
!S34(C  6-Port  ) 
!S35(C  6-Port  ) 
!S36(C  6-Port  ) 
!S41(C  6-Port  ) 
!S42(C  6-Port  ) 
!S43(C  6-Port  ) 
!S44(C  6-Port  ) 
!S45(C  6-Port  ) 
!S46(C  6-Port  ) 
!S51(C  6-Port  ) 
!S52(C  6-Port  ) 
!S53(C  6-Port  ) 
!S54(C  6-Port  ) 
!S55(C  6-Port  ) 
!S56(C  6-Port  ) 
!S61(C  6-Port  ) 
!S62(C  6-Port  ) 
!S63(C  6-Port  ) 
!S64(C  6-Port  ) 
!S65(C  6-Port  ) 
!S66(C  6-Port  ) 
!S6P File: Measurement: :
# Hz S  RI   R 50
500000000 -0.3366 -0.034934 -0.0099634 -0.003732 -0.0080365 0.011976 -0.003377 0.011709
0.012566 0.0047122 -0.0032381 0.0085484
-0.0099508 -0.0037164 -0.41911 -0.049633 0.0074387 -0.011525 0.001456 0.01168
0.0077927 0.002575 0.00099995 0.012324
-0.0078637 0.011905 0.0074105 -0.011627 -0.26477 0.21101 0.0068388 0.0029553
-0.00032859 0.00865 0.0005378 0.011514
-0.0034655 0.011821 0.0015568 0.011812 0.0068412 0.002952 -0.3274 0.047566
-0.019493 -0.004127 0.017295 0.02495
0.012436 0.0046946 0.0078074 0.0023318 -0.00028656 0.0085736 -0.019426 -0.004101
-0.22681 -0.1833 -0.027018 0.0050994
-0.0037025 0.0083703 0.00095469 0.013146 0.00065382 0.011788 0.017184 0.025108
-0.02707 0.0051588 -0.2738 -0.11088
560000000 -0.3159 0.12519 -0.023624 -0.063112 0.00011532 0.011918 0.0061943 0.0096595
0.010659 0.0036864 0.0098006 0.0071059
-0.023635 -0.063058 -0.37679 0.10892 -0.041874 -0.036799 0.013597 0.0035936
-0.013375 -0.0045248 0.004289 -0.00078211
8.6703e-05 0.011859 -0.042028 -0.036694 -0.18271 0.25905 -0.00070759 -0.0048646
0.019369 0.0039742 0.0073427 -0.0057178
0.0063203 0.0095861 0.013481 0.0034656 -0.00069305 -0.0048711 -0.3025 0.13603
0.0036354 -0.024492 0.0044294 -0.019908
0.010913 0.0038582 -0.013579 -0.0045391 0.019568 0.0040709 0.0036751 -0.024471
-0.28456 -0.009048 0.0072075 -0.049454
0.0096959 0.0069273 0.004039 -0.0005689 0.0071056 -0.0057943 0.0044167 -0.01993
0.0071865 -0.04946 -0.33042 0.034498
620000000 -0.27287 0.10955 -0.023254 0.0073067 0.0034664 0.0084429 0.0065173 -0.005362
0.011406 -0.0010205 0.0005345 -0.0020058
-0.023246 0.0072904 -0.40249 0.062585 -0.018755 -0.00017498 -0.0013888 -0.0019586
0.010368 -0.0072029 0.0010285 -0.0027238
0.0033965 0.0084564 -0.018763 -2.3642e-05 -0.1526 0.26783 -0.0014941 -0.00515
-0.0037469 -0.003334 0.0078576 -0.0036812
0.0067335 -0.0054723 -0.0014001 -0.0019617 -0.0015309 -0.0051338 -0.26139 0.14584
-0.038411 -0.018438 0.014387 0.023295
0.011207 -0.00078014 0.010239 -0.0073009 -0.0038254 -0.0033251 -0.038492 -0.018415
-0.20542 -0.048841 -0.039805 0.014252
0.00036698 -0.0023199 0.0010188 -0.0027561 0.0084318 -0.0035988 0.014189 0.023576
-0.039602 0.014114 -0.24947 -0.0013685
680000000 -0.23279 0.19335 -0.027981 -0.013863 0.0046974 0.0049454 0.0010737 -0.0076067
-0.00328 -0.010981 0.0039609 -0.006378
-0.027933 -0.013885 -0.38721 0.15947 -0.032751 -0.0012612 -0.0017788 -0.00024773
-0.0027111 -0.0088641 -0.001027 -0.0019311
0.0046666 0.0049134 -0.032777 -0.0011887 -0.10185 0.2875 -0.00086435 0.00015997
-0.0022616 0.0007913 -0.0028119 -0.0094734
0.0010848 -0.0077365 -0.0016735 -0.00020076 -0.00085559 0.000193 -0.21907 0.19556
-0.023494 -0.0084305 -0.0089022 -0.010435
-0.0033231 -0.010936 -0.0027396 -0.0090237 -0.0022138 0.00078162 -0.02355 -0.0084181
-0.25191 0.048811 -0.0058121 -0.0093056
0.0040434 -0.0064857 -0.0011468 -0.0019538 -0.0027312 -0.0094453 -0.0088152 -0.010435
-0.0056718 -0.0091679 -0.2585 0.10124
740000000 -0.18974 0.18819 -0.038304 0.026563 0.012449 -0.0053021 -0.00064429 -0.0038881
-0.0044633 -0.0028944 -0.006063 0.00343
-0.038288 0.026519 -0.33507 0.17821 -0.034831 0.035043 -0.001116 -0.0063124
-0.011223 0.0083101 -0.0029784 -0.0058442
0.012446 -0.005236 -0.034712 0.035128 -0.068299 0.28625 -0.001401 0.0032188
-0.00269 -0.004007 -0.0012247 -2.4749e-05
-0.00060999 -0.0038786 -0.0010324 -0.0062993 -0.0014158 0.0032185 -0.20241 0.20296
-0.042343 -0.0077555 0.021321 0.012865
-0.004527 -0.0028361 -0.011292 0.0084088 -0.0026796 -0.0039852 -0.042339 -0.0076574
-0.15626 0.073022 -0.041325 0.0005358
-0.0060679 0.0034674 -0.0030989 -0.0061223 -0.0012256 2.2679e-05 0.021411 0.012807
-0.041658 0.00032579 -0.24618 0.1064
800000000 -0.15745 0.22841 -0.022493 0.017206 0.0051776 -0.010456 -0.0048033 -0.0020083
-0.0039857 0.002637 0.0043466 0.00080372
-0.022474 0.017176 -0.3374 0.24845 -0.0077068 0.03398 -0.0021442 0.0021942
-0.000586 0.0033848 0.0011593 0.0052512
0.0051154 -0.010477 -0.0076256 0.034024 -0.026956 0.30918 0.0011806 0.0015146
0.00055941 0.0035628 -0.0018093 0.0010559
-0.0049039 -0.0019885 -0.0021944 0.0022038 0.0011836 0.0015084 -0.17408 0.23051
-0.028455 0.012518 0.012902 -0.0098012
-0.0040231 0.0026571 -0.00059238 0.0034305 0.00057594 0.0035661 -0.028474 0.012564
-0.20022 0.096806 -0.017699 0.017007
0.0043577 0.00063676 0.0013172 0.0052676 -0.0017117 0.0010507 0.012895 -0.0098503
-0.017585 0.017073 -0.23666 0.15806
860000000 -0.12265 0.24943 -0.017047 0.031241 -0.0033887 -0.0096776 -0.0024851 0.0011951
0.0043404 0.0050138 -0.0029645 -0.002649
-0.017055 0.03122 -0.28944 0.29054 0.0081849 0.03407 0.00019487 0.0020799
0.0043623 0.00031854 0.0033267 0.00048873
-0.0034133 -0.0096703 0.0082716 0.034063 0.02135 0.3169 -0.00035928 -0.00027636
0.0028783 -0.0015576 0.0015234 0.0043884
-0.0025642 0.0012006 0.00020683 0.0020316 -0.00036255 -0.00030114 -0.13854 0.24226
-0.017832 0.018683 -0.0059931 -0.0087778
0.0042776 0.004945 0.0043105 0.00024249 0.0028667 -0.0015759 -0.017842 0.018713
-0.15118 0.14574 -0.0242 0.01497
-0.0030164 -0.0027252 0.0033126 0.00033767 0.0015792 0.0043879 -0.005925 -0.0088993
-0.024244 0.014774 -0.18754 0.19965
920000000 -0.097257 0.27271 0.00531 0.037718 -0.0093146 -0.0041251 -0.0018248 0.0023037
0.0012504 0.0015874 0.0025825 -0.0014081
0.0052698 0.037694 -0.26031 0.31119 0.027932 0.021558 0.0015882 0.0010642
0.0067624 -0.00065128 0.0039185 -0.002826
-0.0092895 -0.0041312 0.028034 0.021489 0.067691 0.31717 0.0017259 -0.00011959
0.0011719 -0.00053427 0.00085849 -0.00086158
-0.0017904 0.0022648 0.0015672 0.001015 0.0017442 -0.00010993 -0.11414 0.25866
-0.010401 0.029926 0.0026445 -0.0064067
0.0012911 0.0015967 0.0067952 -0.00072221 0.0012147 -0.00053624 -0.010321 0.02997
-0.14079 0.15136 -0.0023335 0.026937
0.0025126 -0.0014241 0.0037425 -0.003018 0.00085656 -0.00098692 0.0026196 -0.0064234
-0.00229 0.027053 -0.19208 0.21385
980000000 -0.04964 0.29202 0.017917 0.029697 -0.008702 0.0046414 0.0024441 0.0037305
0.0039517 -0.0017116 -0.0029154 -0.0021791
0.017867 0.029683 -0.2074 0.34471 0.032652 0.0044959 0.0019892 -5.0797e-05
0.0010228 -0.0060718 -0.00056631 -0.0021956
-0.0086745 0.0046573 0.032708 0.0044214 0.11388 0.31011 0.00044218 -0.0011843
2.4872e-05 -0.0021311 0.0014976 -1.9823e-05
0.0024698 0.0037192 0.0019786 -4.0391e-05 0.00043723 -0.0011986 -0.075961 0.27014
0.0072715 0.028576 -0.0089934 -0.0066185
0.0039705 -0.0017348 0.0010199 -0.0061005 3.5274e-05 -0.0021258 0.0073408 0.028576
-0.10895 0.17881 0.0045855 0.018697
-0.0029297 -0.0021871 -0.00049903 -0.0022094 0.0015194 -3.6017e-05 -0.0090605 -0.0065956
0.0046472 0.018637 -0.14853 0.25758
1040000000 -0.0067884 0.30027 0.033113 0.017633 -0.0010714 0.0067635 0.0028343 0.00066408
-6.5457e-05 -0.0035965 -0.00050409 -0.0014703
0.033064 0.017663 -0.17187 0.35761 0.028817 -0.014831 0.0014914 -0.0017116
-0.0026133 -0.002287 -0.0013548 -0.0026124
-0.0010751 0.0067694 0.0288 -0.01494 0.15981 0.29617 -0.00050642 -0.0013754
-0.001541 -0.00079289 -0.00037644 -0.0011579
0.0028179 0.00064589 0.0014796 -0.001697 -0.00050367 -0.0013776 -0.048393 0.28024
0.018011 0.017091 -0.0028856 0.0022164
-7.6477e-05 -0.0036261 -0.0026416 -0.0022545 -0.0015531 -0.0007878 0.018043 0.017071
-0.078377 0.1877 0.012987 0.017539
-0.00048237 -0.0015161 -0.0013822 -0.0026347 -0.0003997 -0.0011524 -0.002954 0.0022101
0.01299 0.017531 -0.12663 0.27673
1100000000 0.038866 0.30735 0.035425 -0.0046322 0.0028506 0.0036761 0.002585 -0.0014779
-0.0020698 -0.002972 -0.0038423 0.00013624
0.035391 -0.0046023 -0.1282 0.37435 0.014713 -0.027441 1.4944e-05 -0.0017977
-0.0030135 -0.00039263 -0.0033473 -0.0005331
0.0028492 0.0036825 0.014635 -0.027511 0.20591 0.27565 -0.0017428 0.0002454
-0.0016292 0.00066538 -0.00094787 -0.00037637
0.0025631 -0.0014769 1.2942e-06 -0.0018335 -0.0017305 0.0002441 -0.0078122 0.28505
0.022492 0.0051897 -0.0023056 0.0010536
-0.0020994 -0.0029696 -0.0030448 -0.00040155 -0.0016274 0.00066 0.022525 0.0051234
-0.059896 0.2007 0.018245 0.0083789
-0.0038102 0.00015381 -0.0033045 -0.00046048 -0.00095995 -0.00041037 -0.0022407 0.00099399
0.018228 0.0083975 -0.079864 0.30421
1160000000 0.090514 0.30183 0.0235 -0.020698 0.0025984 -0.00052467 -0.00017924 -0.0025797
-0.0040428 -0.00048605 -0.00096096 0.0038701
0.023483 -0.02065 -0.084569 0.37822 -0.0038281 -0.028595 -0.0017596 -0.0016216
-0.0022898 0.002526 -0.0013084 0.0015555
0.0025963 -0.00056121 -0.0039342 -0.028614 0.24865 0.24478 -0.00060618 0.0016737
-0.00033509 0.001765 -0.00096144 0.00012919
-0.00018094 -0.0025759 -0.0017749 -0.0016183 -0.0006046 0.001676 0.031469 0.28206
0.019246 -0.0094079 -0.0025256 0.0055
-0.0040109 -0.00044919 -0.0022973 0.0025541 -0.00035286 0.0017583 0.019233 -0.0094495
-0.026459 0.21005 0.016905 0.00073553
-0.00097645 0.0038941 -0.0012797 0.0015338 -0.00096866 0.0001212 -0.0025312 0.0055496
0.016892 0.00077704 -0.032891 0.30606
1220000000 0.13495 0.28991 0.010028 -0.029683 -0.0015269 -0.00079224 -0.00014942 -0.0011188
-0.0024965 0.0025016 0.0012926 0.0018412
0.01003 -0.029642 -0.040444 0.38974 -0.016599 -0.020716 -0.002465 0.00045981
0.00029599 0.0028073 -0.00072536 0.0017246
-0.001535 -0.0007878 -0.016701 -0.020654 0.28771 0.20592 0.00080847 0.0015337
0.00053615 0.0011104 0.00023704 0.00065891
-0.00014975 -0.0011119 -0.0024658 0.00047033 0.00080238 0.0015527 0.071066 0.27368
0.0094191 -0.015069 0.0027708 0.0016335
-0.0024689 0.0025349 0.00030657 0.0028307 0.00053473 0.001126 0.009391 -0.015086
-0.0028796 0.21936 0.013193 -0.011786
0.0012778 0.0018503 -0.0006791 0.0017189 0.00027879 0.00067072 0.0027733 0.0016476
0.013146 -0.011732 -0.00066412 0.32123
1280000000 0.18424 0.26717 -0.007887 -0.027913 -0.0017931 0.0024736 -0.0011104 -0.0019678
-0.00061645 0.0029889 0.0024951 0.00097038
-0.0078527 -0.027894 0.0051239 0.38049 -0.023203 -0.008356 -0.00098254 0.0014741
0.001591 0.0015687 0.00047667 0.0019561
-0.0017978 0.0024942 -0.023301 -0.0082656 0.31837 0.16214 0.0013528 -0.00012764
0.00095874 6.5428e-05 0.00027575 0.0003282
-0.0011205 -0.0019673 -0.00098784 0.001472 0.0013581 -0.00011919 0.10749 0.25767
0.000858 -0.016867 0.00056671 4.4236e-05
-0.00058333 0.0029711 0.0016114 0.0015379 0.00094309 0.00010427 0.00081873 -0.016884
0.033945 0.2228 0.0028861 -0.013711
0.00253 0.00094559 0.00048927 0.0019602 0.00027583 0.0003811 0.00058569 3.8497e-05
0.0028977 -0.013695 0.046205 0.3211
1340000000 0.2209 0.23293 -0.01739 -0.018646 0.00091255 0.0043041 -0.0018987 -0.00073822
0.0014947 0.0025348 0.0016129 -0.0014576
-0.017356 -0.018642 0.044291 0.37221 -0.021186 0.0040458 -5.8078e-05 0.0019087
0.0016532 0.00064266 0.0012949 0.00089575
0.00091669 0.0043123 -0.021188 0.0041431 0.34061 0.11405 0.00092394 -0.00085029
0.00060061 -0.00039243 0.00012148 0.00024753
-0.0019152 -0.00072862 -3.9941e-05 0.0019085 0.00093203 -0.00084159 0.14049 0.23773
-0.0072441 -0.014215 0.0013326 -3.6495e-05
0.0014984 0.0025236 0.0016905 0.00064974 0.00060287 -0.00039384 -0.007279 -0.014197
0.064345 0.21815 -0.0030105 -0.012458
0.0016062 -0.0014807 0.0013186 0.00087729 0.00014654 0.0002343 0.0013433 -2.0298e-05
-0.0030112 -0.012469 0.084609 0.31537
1400000000 0.25335 0.19437 -0.022969 -0.0074186 0.0050168 0.0029968 -0.0020136 0.00073817
0.0024238 0.00069898 0.00018954 -0.0012811
-0.022945 -0.0074257 0.081289 0.35918 -0.014645 0.012036 0.0013321 0.0012491
0.00094103 -0.00077198 0.0011798 0.00030262
0.0050068 0.0029757 -0.014599 0.012125 0.35381 0.060195 0.00011532 -0.0013894
6.1027e-05 -0.00034783 0.00023628 0.00020813
-0.0020042 0.00073977 0.0013327 0.0012367 0.00011715 -0.0013851 0.17049 0.20936
-0.012172 -0.0084633 -0.00057178 -0.00095414
0.0024264 0.00068257 0.00094289 -0.00078101 6.2425e-05 -0.00037361 -0.012226 -0.0084387
0.09742 0.21329 -0.0090896 -0.0081007
0.00017854 -0.0012942 0.0011816 0.00029885 0.00026262 0.00022878 -0.00055887 -0.00094352
-0.0090804 -0.0081272 0.12855 0.30352
1460000000 0.2757 0.1502 -0.020128 0.0044444 0.0054215 -0.0016786 -0.0015259 0.0017237
0.0019057 -0.00068729 -0.0003663 -0.00082269
-0.020118 0.0044265 0.11537 0.33745 -0.0062223 0.014894 0.0016928 0.00014557
0.00085055 -0.0011456 0.0012003 -0.00056744
0.0054218 -0.0017039 -0.0061569 0.014941 0.35966 0.0053554 -0.00106 -0.0012363
0.00030028 -9.5074e-05 0.0006724 -0.00040583
-0.0015304 0.0017478 0.0016988 0.00012874 -0.0010638 -0.0012312 0.19758 0.18026
-0.013004 -0.0030604 -0.0010854 0.0013534
0.0018913 -0.00070392 0.00084654 -0.0011546 0.00030307 -9.5847e-05 -0.013041 -0.0030175
0.12721 0.19839 -0.010739 -0.0028755
-0.00033347 -0.00081137 0.0011832 -0.00057841 0.00069705 -0.00041267 -0.0011171 0.0013727
-0.010726 -0.002896 0.16157 0.28159
1520000000 0.2876 0.10848 -0.01467 0.0099825 0.0030785 -0.0040591 0.00014417 0.0025555
0.0017157 -0.0016294 -0.0011266 -0.00015587
-0.014663 0.0099611 0.14897 0.32274 0.0012271 0.012917 0.0015764 -0.00080175
0.0001098 -0.00089684 0.00032277 -0.0010104
0.0030455 -0.0040797 0.0013011 0.012897 0.35258 -0.051157 -0.00093535 -0.00042453
0.00055915 -0.00076255 -2.238e-05 -0.00010425
0.000143 0.0025611 0.0015759 -0.00081754 -0.0009439 -0.00042641 0.22159 0.14201
-0.012686 0.0015098 0.00086938 0.0017152
0.0016997 -0.0016554 0.00010576 -0.00090106 0.00055333 -0.00077502 -0.012696 0.0015548
0.15543 0.18388 -0.010913 0.0010703
-0.0011274 -0.00015189 0.00030591 -0.0010159 -1.0771e-05 -9.2366e-05 0.00086393 0.0017147
-0.010906 0.0010942 0.19422 0.26016
1580000000 0.29657 0.061997 -0.0082578 0.0131 -0.00094556 -0.0046775 0.0013851 0.0018441
-0.00045299 -0.0019874 -0.00036474 0.00041319
-0.0082502 0.013085 0.1763 0.29783 0.0048749 0.0082835 0.00043156 -0.0015297
-0.00039527 -0.00099429 -0.00026341 -0.00086046
-0.0009457 -0.0046839 0.004926 0.0082757 0.33192 -0.10871 -0.001498 0.00043554
-0.0002432 -0.0010928 0.00014462 -0.00049975
0.0013902 0.0018466 0.00042469 -0.0015202 -0.0015087 0.00044397 0.23639 0.10186
-0.010197 0.005671 0.0017089 0.00067637
-0.00046451 -0.0019837 -0.00040315 -0.0010037 -0.00025001 -0.0011106 -0.010195 0.005707
0.17997 0.16551 -0.0088 0.0062806
-0.00036242 0.00038457 -0.00024346 -0.00088084 0.00012025 -0.00051441 0.0017077 0.00066977
-0.0088112 0.0062576 0.22531 0.2327
1640000000 0.29818 0.020338 -0.0017199 0.012219 -0.0026831 -0.0024838 0.0025664 0.0010069
-0.00073328 -0.0011422 -0.00031352 0.00068353
-0.0017191 0.012211 0.20573 0.27264 0.005623 0.0036438 -0.0007117 -0.0016095
-0.00094962 -0.00048239 -0.0005461 -0.00061947
-0.0027053 -0.0024564 0.0056313 0.0036109 0.30325 -0.15786 -0.00088045 0.0013385
-0.0010524 -0.00086443 -0.0001155 -0.00029542
0.0025648 0.00099579 -0.0007162 -0.0016075 -0.00087035 0.0013353 0.24899 0.051827
-0.0068942 0.0068541 0.002108 -0.00059809
-0.00074948 -0.001137 -0.00095164 -0.00047232 -0.0010563 -0.00086163 -0.0068543 0.0068872
0.20304 0.14023 -0.0045258 0.0085119
-0.00030193 0.0006565 -0.00053886 -0.00062643 -0.00012838 -0.00032891 0.002124 -0.00059064
-0.0045414 0.0084973 0.25034 0.20058
1700000000 0.29038 -0.025182 0.0017692 0.0096476 -0.0033792 0.00010489 0.0029417 -0.0010912
-0.001777 -0.00046111 0.00062413 0.00045016
0.0017611 0.0096433 0.22394 0.24085 0.003847 0.00090549 -0.0013463 -0.00056071
-0.0007964 -6.8868e-06 -0.00091687 -0.00040683
-0.0033766 9.1164e-05 0.0038665 0.00088945 0.25954 -0.19724 0.00033857 0.0015893
-0.0017333 -0.00029769 -0.00058776 -0.00098628
0.0029458 -0.0011162 -0.0013482 -0.00054569 0.00033823 0.0015908 0.24544 0.00075351
-0.0048668 0.0075936 0.001298 -0.0018732
-0.0017945 -0.00043597 -0.00080806 -4.2841e-06 -0.0017349 -0.00028803 -0.0048438 0.0076257
0.22078 0.11863 -0.00036955 0.0090018
0.00060987 0.0004527 -0.00092126 -0.00040618 -0.00054285 -0.00096002 0.0012939 -0.0018791
-0.00036537 0.0090012 0.26588 0.16571
1760000000 0.27728 -0.073788 0.004261 0.0065444 -0.002184 0.00086016 0.0013746 -0.0033337
-0.001001 0.00056987 0.00038308 -0.00046067
0.0042545 0.006536 0.24963 0.20061 0.0017737 -0.0008867 -0.0010867 0.0001526
-0.0011238 0.00088637 -0.00061095 0.00055227
-0.002164 0.00085834 0.0017518 -0.00090583 0.21048 -0.23029 0.001122 0.0012546
-0.0011988 0.001347 -0.0012949 -0.00041513
0.0013713 -0.0033533 -0.001085 0.00015726 0.0011332 0.0012597 0.23499 -0.051666
-0.0021174 0.0073239 -0.00036699 -0.0020497
-0.00099827 0.00057808 -0.0011204 0.00088133 -0.001195 0.0013496 -0.002089 0.0073146
0.23572 0.082166 0.0033403 0.0065572
0.00038539 -0.00048731 -0.00060449 0.00054953 -0.0012922 -0.00040577 -0.00035144 -0.0020912
0.0033366 0.0065262 0.27747 0.12762
1820000000 0.2518 -0.11089 0.0047022 0.0029068 -2.2022e-05 0.002368 -0.00091439 -0.0030724
-0.00085519 0.00060629 3.9593e-05 -0.0002011
0.0047047 0.0029011 0.25932 0.17032 -0.00015162 0.00012032 -0.0013186 0.00081704
-9.3104e-05 0.001382 -0.00048782 0.0005174
6.1325e-06 0.0023748 -0.00014739 0.00012542 0.1603 -0.24583 0.0015862 0.00049818
-0.00041552 0.0021437 -0.0014209 0.00051019
-0.00092672 -0.0030732 -0.0013168 0.00081471 0.0015985 0.00047886 0.2035 -0.099023
-0.00081997 0.0060063 -0.0015591 -0.0013698
-0.00085492 0.00062448 -8.3845e-05 0.0013837 -0.00039679 0.0021411 -0.00078599 0.0059959
0.25217 0.050895 0.004395 0.0033048
5.9742e-05 -0.00017127 -0.00047975 0.0005464 -0.0014047 0.00050178 -0.0015464 -0.001351
0.0044006 0.0033085 0.27865 0.091018
1880000000 0.21587 -0.15042 0.0026207 0.00052334 -0.00032829 0.0020945 -0.0028624 -0.0021903
-0.00032551 0.0014132 0.00035483 -0.00055582
0.0026085 0.00051993 0.26333 0.12357 -0.0020344 0.0016655 -0.00024111 0.0016842
0.00065354 0.0013348 0.00024865 0.00097303
-0.00031951 0.0020837 -0.0020258 0.0016802 0.10848 -0.25525 0.0019264 -0.00092855
0.0013863 0.0020958 -0.00084827 0.0013457
-0.0028812 -0.0021841 -0.00023406 0.0016843 0.0019123 -0.00093187 0.16153 -0.1383
-0.00037341 0.0046924 -0.0022611 0.00071249
-0.00031572 0.0014039 0.00066357 0.0013327 0.0013947 0.0020827 -0.00035793 0.0046931
0.25375 0.016131 0.0040143 0.0015148
0.00034342 -0.00055541 0.00025728 0.000984 -0.0007951 0.0014085 -0.0022216 0.00071738
0.0040197 0.0015075 0.27745 0.056887
1940000000 0.17597 -0.17532 0.00031405 -0.0014316 0.0012892 0.0018073 -0.0037568 0.00060577
0.0010962 0.001134 -0.00063043 -0.00068032
0.00032769 -0.0014326 0.26334 0.091708 -0.00097294 0.0037469 0.00089272 0.0013573
0.0019805 0.00049943 0.00087191 0.00025445
0.0012836 0.001827 -0.00095957 0.0037655 0.062269 -0.24876 0.00032877 -0.0023702
0.0024464 0.0005311 0.00039764 0.0015833
-0.003774 0.00063564 0.00089648 0.0013495 0.00031501 -0.0023821 0.10826 -0.16712
-0.001474 0.0039884 -0.0012011 0.0016784
0.0011176 0.0011463 0.001973 0.00050816 0.002441 0.00053466 -0.0014675 0.0040018
0.25315 -0.024663 0.0029286 -0.0015325
-0.0006092 -0.00069142 0.0008741 0.00024958 0.00037366 0.0015435 -0.0012101 0.0016706
0.0029532 -0.001541 0.26537 0.021058
2000000000 0.12982 -0.18898 -0.0036137 0.00053967 0.0022934 0.0015771 -0.002252 0.0035877
0.0010049 0.00039768 -0.0006978 0.00036323
-0.0036081 0.00053795 0.24871 0.056341 -0.00083906 0.0055597 0.0016721 0.00033646
0.001475 -0.0014596 0.00050792 6.2307e-05
0.0023049 0.0015732 -0.00081978 0.0055797 0.018926 -0.23413 -0.0014689 -0.0014397
0.0020994 -0.0011676 0.0016287 0.0011944
-0.0022206 0.0035927 0.0016716 0.00033709 -0.0014397 -0.0014432 0.054995 -0.17546
-0.0029125 0.0045102 0.00014835 0.0021627
0.0010126 0.00036738 0.0014747 -0.0014804 0.0021124 -0.0011733 -0.0028976 0.0045203
