!Keysight Technologies,M9804A,MY58100912,A.14.10.03
!Date: Thursday, April 27, 2023 10:28:33
!Correction: S11(C  6-Port  ) 
!S12(C  6-Port  ) 
!S13(C  6-Port  ) 
!S14(C  6-Port  ) 
!S15(C  6-Port  ) 
!S16(C  6-Port  ) 
!S21(C  6-Port  ) 
!S22(C  6-Port  ) 
!S23(C  6-Port  ) 
!S24(C  6-Port  ) 
!S25(C  6-Port  ) 
!S26(C  6-Port  ) 
!S31(C  6-Port  ) 
!S32(C  6-Port  ) 
!S33(C  6-Port  ) 
!S34(C  6-Port  ) 
!S35(C  6-Port  ) 
!S36(C  6-Port  ) 
!S41(C  6-Port  ) 
!S42(C  6-Port  ) 
!S43(C  6-Port  ) 
!S44(C  6-Port  ) 
!S45(C  6-Port  ) 
!S46(C  6-Port  ) 
!S51(C  6-Port  ) 
!S52(C  6-Port  ) 
!S53(C  6-Port  ) 
!S54(C  6-Port  ) 
!S55(C  6-Port  ) 
!S56(C  6-Port  ) 
!S61(C  6-Port  ) 
!S62(C  6-Port  ) 
!S63(C  6-Port  ) 
!S64(C  6-Port  ) 
!S65(C  6-Port  ) 
!S66(C  6-Port  ) 
!S6P File: Measurement: :
# Hz S  RI   R 50
500000000 -0.33115 -0.062755 -0.010073 -0.0012546 -0.0091619 0.013018 -0.0033911 0.011797
0.012616 0.0051616 -0.0035211 0.0078799
-0.01012 -0.0013761 -0.41365 -0.071591 0.0081268 -0.010574 0.0012867 0.011901
0.0077141 0.0032228 0.0015026 0.013362
-0.0093267 0.013113 0.0081201 -0.010399 -0.26711 0.19305 0.0068573 0.0037307
-0.0022409 0.0089574 0.00052891 0.01238
-0.0037375 0.011863 0.0013395 0.011962 0.0070046 0.0037425 -0.3312 0.038182
-0.019454 -0.0045123 0.016593 0.025366
0.012727 0.0052273 0.0077054 0.003221 -0.0023572 0.0084178 -0.019032 -0.0045954
-0.23865 -0.20889 -0.027116 0.0045634
-0.0038999 0.0078651 0.0015526 0.013504 0.00074147 0.012306 0.016485 0.025266
-0.027813 0.0050138 -0.2666 -0.13902
560000000 -0.32056 0.10486 -0.021424 -0.066272 0.00013026 0.0138 0.0045373 0.012448
0.011324 0.0050544 0.0096015 0.0087614
-0.021543 -0.066353 -0.37455 0.093685 -0.041561 -0.03879 0.01454 0.00341
-0.013642 -0.0051886 0.004722 -0.0010651
0.00012566 0.013958 -0.04161 -0.039052 -0.18734 0.24566 -0.00040254 -0.0045791
0.019005 0.0065978 0.0070894 -0.0055267
0.0047416 0.012373 0.014351 0.0034914 -0.00036493 -0.0046859 -0.30751 0.13044
0.0054848 -0.023302 0.0051522 -0.022199
0.011496 0.0050592 -0.013992 -0.0050146 0.018429 0.0060893 0.0050246 -0.023181
-0.30963 -0.027161 0.010729 -0.049481
0.0097031 0.0088452 0.0046903 -0.00076723 0.0073039 -0.0057251 0.0053893 -0.022305
0.010059 -0.050722 -0.33352 0.012832
620000000 -0.27938 0.084497 -0.023591 0.0089811 0.0040489 0.0095153 0.008334 -0.0043894
0.012381 -0.0019059 0.0009439 -0.0010571
-0.023388 0.0088863 -0.4028 0.040913 -0.018214 0.00037538 -0.0012574 -0.0019002
0.012504 -0.0057842 0.0016082 -0.0025559
0.0039897 0.0094391 -0.0183 0.00046983 -0.15732 0.25492 -0.0008191 -0.0051729
-0.0033027 -0.0028914 0.0095719 -0.002754
0.0083992 -0.0042247 -0.0011993 -0.0018537 -0.00071849 -0.005173 -0.2658 0.14181
-0.038359 -0.019617 0.01312 0.027665
0.012516 -0.0018553 0.012574 -0.0058698 -0.0033805 -0.0030746 -0.038066 -0.019707
-0.22786 -0.063264 -0.041069 0.012434
0.00065523 -0.0011601 0.0014392 -0.0026015 0.0098835 -0.0029525 0.013286 0.027708
-0.041411 0.012664 -0.24872 -0.024067
680000000 -0.2432 0.17783 -0.026291 -0.015113 0.0051338 0.0052567 0.0014568 -0.0070406
-0.0016706 -0.011327 0.0059812 -0.0073548
-0.026281 -0.015059 -0.39083 0.14262 -0.032308 -0.0025463 -0.0015393 -0.00050197
-0.0016486 -0.0095246 -0.0011809 -0.0020852
0.0051375 0.0052071 -0.032339 -0.0024633 -0.10655 0.27704 -0.00085894 -0.00044769
-0.0013819 0.00014695 -0.0024077 -0.009565
0.0013023 -0.0071193 -0.0016014 -0.00051049 -0.00087675 -0.00053785 -0.22137 0.19373
-0.022812 -0.007178 -0.0087077 -0.011623
-0.0017484 -0.011329 -0.0016183 -0.0095372 -0.0013235 0.0002413 -0.022601 -0.0071434
-0.28177 0.041529 -0.0068528 -0.0060933
0.0059068 -0.0069181 -0.0012987 -0.0020207 -0.0023283 -0.0094682 -0.0085867 -0.01149
-0.0067849 -0.0059794 -0.26093 0.084777
740000000 -0.19563 0.17088 -0.040045 0.026605 0.014072 -0.004517 -4.6044e-05 -0.0041895
-0.0041777 -0.002925 -0.0063759 0.0028755
-0.040234 0.026454 -0.33618 0.16194 -0.037656 0.034699 0.00046603 -0.0061789
-0.012985 0.0072918 -0.0012656 -0.0063517
0.013979 -0.004644 -0.037691 0.034784 -0.072605 0.27414 -0.0020413 0.0034455
-0.0021312 -0.0059908 -0.0013191 0.0010671
-0.00010819 -0.0043666 0.0005319 -0.0060958 -0.0019871 0.0034272 -0.20404 0.20087
-0.043318 -0.0093783 0.023411 0.016011
-0.0041773 -0.0028837 -0.01268 0.0074317 -0.0020835 -0.0057361 -0.043416 -0.0084751
-0.18142 0.071015 -0.044814 0.0010422
-0.0065021 0.0027248 -0.00096737 -0.0062532 -0.0014712 0.0010833 0.023322 0.016125
-0.044751 -0.00047492 -0.25162 0.089322
800000000 -0.16469 0.21644 -0.022376 0.015916 0.0059829 -0.010487 -0.0044205 -0.0026599
-0.0045536 0.0019794 0.0040839 3.5603e-05
-0.02225 0.016013 -0.34374 0.23266 -0.0091192 0.034051 -0.0022299 0.0019229
-0.0010939 0.0026377 0.00072597 0.0051289
0.0059517 -0.010444 -0.0090078 0.034177 -0.034239 0.29934 0.00072312 0.0012212
4.5164e-05 0.0034781 -0.0018781 0.00064391
-0.004622 -0.002533 -0.0022941 0.0019344 0.00072036 0.0012836 -0.17521 0.22854
-0.028331 0.012417 0.014187 -0.010528
-0.0044981 0.0019318 -0.0011552 0.0027108 -5.3486e-05 0.0035457 -0.028351 0.012429
-0.22636 0.09806 -0.017481 0.019713
0.0038563 0.00027672 0.00073217 0.0051159 -0.0017825 0.00070892 0.014229 -0.010568
-0.017102 0.019544 -0.24682 0.13931
860000000 -0.13056 0.23648 -0.018359 0.030302 -0.0028684 -0.010272 -0.0018787 0.00046944
0.0038298 0.0055334 -0.0038623 -0.0027468
-0.018304 0.030258 -0.29675 0.27635 0.0067989 0.03476 0.00010325 0.0021999
0.0033593 0.0010427 0.0034032 0.00058094
-0.0028261 -0.010227 0.0069227 0.034764 0.012896 0.30831 -0.00042954 -0.0001604
0.0021435 -0.0013097 0.001526 0.0045125
-0.0019661 0.00028489 0.00014175 0.0021109 -0.00045393 -0.00017718 -0.13865 0.23975
-0.018534 0.017435 -0.0066241 -0.0089635
0.0038983 0.0053854 0.0033654 0.0010814 0.0021212 -0.0013907 -0.01832 0.017468
-0.17009 0.15133 -0.02477 0.016632
-0.0040272 -0.0028129 0.0032783 0.00050512 0.0013858 0.004572 -0.0067331 -0.0087163
-0.025155 0.016926 -0.19542 0.18553
920000000 -0.10781 0.25975 0.0041991 0.038599 -0.0093014 -0.0053982 -0.0022616 0.0014895
0.00081253 0.0019139 0.0026413 -0.0013512
0.0041378 0.038549 -0.26956 0.29813 0.027851 0.02332 0.0012177 0.0012647
0.0079175 0.0001783 0.0044938 -0.0026907
-0.0093104 -0.0053143 0.027977 0.023284 0.05811 0.31037 0.0018507 1.1859e-05
0.00092221 3.187e-05 0.00087922 -0.001501
-0.002172 0.0014514 0.0012356 0.0012156 0.0018602 3.4504e-05 -0.11498 0.25641
-0.011807 0.030447 0.0039835 -0.0070395
0.00087346 0.001905 0.0077549 2.8687e-06 0.00090352 1.7002e-05 -0.011791 0.030548
-0.1601 0.15707 -0.0012293 0.02761
0.0026441 -0.0014566 0.0045256 -0.0028844 0.00089709 -0.0015514 0.0041436 -0.0070467
-0.0012418 0.027363 -0.20334 0.19849
980000000 -0.061921 0.28107 0.016155 0.030481 -0.009719 0.004117 0.0016054 0.0037861
0.0041675 -0.0012201 -0.0032134 -0.0027922
0.01613 0.030446 -0.21729 0.33397 0.033278 0.0059716 0.0019414 -0.00014075
0.0018359 -0.0061859 -0.00035766 -0.0030314
-0.0097288 0.0041713 0.033364 0.0058975 0.10406 0.30519 0.00077639 -0.0011782
0.00054999 -0.0017997 0.0013921 -0.0002621
0.0016616 0.0038129 0.001968 -0.00015788 0.00078632 -0.001159 -0.076778 0.26755
0.0069348 0.029839 -0.0094012 -0.0075084
0.0041912 -0.0012147 0.0019071 -0.006153 0.00059292 -0.0017857 0.0068032 0.029768
-0.12669 0.18746 0.0046082 0.019574
-0.0031686 -0.0027415 -0.00037717 -0.0029637 0.0014188 -0.00027339 -0.0094958 -0.0074952
0.0049612 0.019643 -0.1619 0.24553
1040000000 -0.021448 0.2906 0.032799 0.019868 -0.0016926 0.007204 0.0025991 0.00083534
0.00048177 -0.0033548 1.5104e-05 -0.0018316
0.03279 0.019838 -0.18259 0.34824 0.030337 -0.014112 0.001644 -0.0017709
-0.001983 -0.0026895 -0.0011169 -0.0032728
-0.0016614 0.0071501 0.030349 -0.014244 0.14996 0.29302 -0.00043503 -0.0016791
-0.0015351 -0.0010131 -0.00061826 -0.0010512
0.0026394 0.00091906 0.0016366 -0.0018045 -0.00044295 -0.001693 -0.050375 0.27753
0.018471 0.019098 -0.0028897 0.001059
0.00043031 -0.003308 -0.0020227 -0.0025958 -0.0015486 -0.00099668 0.018527 0.018876
-0.093536 0.19503 0.014348 0.018076
-2.8457e-05 -0.0017811 -0.0011388 -0.0031832 -0.00062422 -0.0010754 -0.0028052 0.0010547
0.014057 0.018331 -0.14085 0.26583
1100000000 0.02364 0.30064 0.036811 -0.0026826 0.0029143 0.0043873 0.0025128 -0.00088691
-0.0022109 -0.0028556 -0.0040473 -0.00012117
0.036777 -0.0026993 -0.13932 0.36739 0.016362 -0.027817 3.7426e-05 -0.0018546
-0.0037463 -0.00077615 -0.0035226 -0.00044122
0.002931 0.0043587 0.016274 -0.027937 0.19643 0.27421 -0.0020598 0.00012199
-0.0019291 0.00049307 -0.0012775 -0.00038714
0.0024976 -0.00089059 1.5408e-05 -0.0018885 -0.0020648 0.00013564 -0.010414 0.28321
0.024448 0.0059859 -0.0026574 0.00016714
-0.0022415 -0.0028652 -0.0037719 -0.00081256 -0.0018912 0.00044527 0.024541 0.0059467
-0.074383 0.2095 0.019958 0.0095694
-0.0041001 -0.00011875 -0.0036032 -0.00041893 -0.0012758 -0.00038618 -0.0027338 0.00014281
0.019668 0.0093859 -0.094225 0.29632
1160000000 0.074163 0.29768 0.025239 -0.019983 0.0030562 -0.00031161 -7.7389e-05 -0.0023724
-0.0040982 -0.00098493 -0.0012654 0.0041219
0.025234 -0.019993 -0.096394 0.37279 -0.0029123 -0.029624 -0.001562 -0.0017507
-0.0027457 0.0024745 -0.0016547 0.0018484
0.0030409 -0.00036061 -0.0030666 -0.029651 0.23982 0.24451 -0.00087142 0.0018332
-0.00057269 0.0019968 -0.0009189 0.00041863
-9.3292e-05 -0.002372 -0.001561 -0.0017352 -0.00088453 0.0018423 0.028351 0.28111
0.021365 -0.0097434 -0.0036126 0.0050983
-0.0041209 -0.00097785 -0.0027854 0.0025221 -0.00061248 0.0020046 0.021331 -0.0097446
-0.040273 0.21768 0.018904 -0.00028867
-0.0012005 0.004182 -0.0016977 0.001807 -0.00092307 0.00043661 -0.0036036 0.0051946
0.019002 -0.00022014 -0.047303 0.29993
1220000000 0.11805 0.28897 0.011924 -0.030227 -0.0013408 -0.0010627 0.00021259 -0.0010166
-0.0028327 0.0022606 0.00097656 0.0022363
0.011917 -0.030203 -0.051994 0.38708 -0.016817 -0.022065 -0.002657 0.00042021
2.9415e-05 0.0031642 -0.00087396 0.0019964
-0.0013326 -0.0010395 -0.016921 -0.022016 0.27937 0.2065 0.00074959 0.00189
0.00050931 0.0013057 0.00033689 0.00079591
0.00018898 -0.0010212 -0.0026796 0.00042673 0.00074651 0.0018645 0.068381 0.27385
0.01105 -0.016561 0.0021409 0.0015692
-0.0028008 0.002294 5.9825e-05 0.0032023 0.00053517 0.001314 0.010966 -0.016573
-0.017523 0.22778 0.014646 -0.013229
0.00098713 0.0022775 -0.0008466 0.002039 0.00033663 0.00078959 0.0021931 0.001516
0.014676 -0.0132 -0.016876 0.31639
1280000000 0.16867 0.26946 -0.0069798 -0.029297 -0.0018869 0.0023047 -0.00089538 -0.0022222
-0.00089494 0.0032592 0.0027236 0.0014247
-0.0069451 -0.02929 -0.0054855 0.37949 -0.024316 -0.0089535 -0.0010546 0.0014481
0.0017892 0.0017512 0.00070878 0.0021124
-0.0018938 0.0023185 -0.024406 -0.0088352 0.31053 0.16324 0.0016646 1.2494e-05
0.001198 0.00028347 0.00051403 0.0002165
-0.00090123 -0.0021895 -0.0010029 0.0014421 0.0016608 2.7761e-05 0.1054 0.25828
0.0014131 -0.019165 -0.00010608 0.00036419
-0.00087501 0.0032722 0.0017735 0.001773 0.0011945 0.0003075 0.0014061 -0.019169
0.018971 0.23161 0.0034007 -0.015734
0.0027506 0.001498 0.00068319 0.0020564 0.00051884 0.00021806 -8.0189e-05 0.00041071
0.0032951 -0.015702 0.030734 0.31932
1340000000 0.20631 0.2378 -0.017256 -0.019899 0.00067383 0.0045734 -0.0019311 -0.00094514
0.0014325 0.0027968 0.0019121 -0.0013621
-0.017236 -0.019871 0.034265 0.37259 -0.021935 0.0042503 -0.00012344 0.0020931
0.0020465 0.00074857 0.0011679 0.00082618
0.00069158 0.0046122 -0.021957 0.0043665 0.33297 0.11654 0.0010976 -0.00097057
0.00064203 -0.0005525 6.134e-05 0.00020847
-0.0019474 -0.0009671 -0.00012276 0.0021199 0.001081 -0.00099026 0.13912 0.23859
-0.0080322 -0.016639 0.00099525 0.00049389
0.0014506 0.0027896 0.0020562 0.00071745 0.00061189 -0.00053818 -0.0080721 -0.016574
0.048501 0.22829 -0.0037341 -0.014385
0.0018378 -0.0014134 0.0012386 0.00083853 7.8148e-05 0.00021875 0.0010186 0.00045531
-0.0036763 -0.014466 0.068655 0.31522
1400000000 0.24125 0.20151 -0.023649 -0.0082421 0.0052497 0.003408 -0.0023446 0.00071456
0.0026791 0.0010259 0.00039244 -0.0018244
-0.023618 -0.008244 0.072827 0.36054 -0.015119 0.012707 0.0013736 0.0013348
0.0013132 -0.00085501 0.0011716 0.00016745
0.0052458 0.003356 -0.015076 0.012841 0.34664 0.063558 8.3912e-05 -0.00163
0.00018578 -0.00041716 0.00035603 0.00027656
-0.0023786 0.00072003 0.0014058 0.00131 8.7147e-05 -0.0016238 0.16942 0.21017
-0.01434 -0.0098484 -0.00074903 -0.00015975
0.0026967 0.00099484 0.0013033 -0.00086865 0.00019757 -0.00041351 -0.01436 -0.0098424
0.081918 0.22518 -0.010451 -0.0092358
0.00037508 -0.0018507 0.0011611 0.00012537 0.00035803 0.000256 -0.00072932 -0.00011473
-0.010448 -0.0091981 0.11384 0.30544
1460000000 0.26511 0.15848 -0.02081 0.0044179 0.0057496 -0.0017503 -0.0015292 0.0018185
0.0023 -0.00042924 -0.00027917 -0.0010728
-0.020788 0.0043869 0.10773 0.33891 -0.0058699 0.015853 0.0017204 0.000192
0.00093463 -0.0013383 0.001271 -0.00058144
0.0057724 -0.0017742 -0.0058157 0.015921 0.35376 0.009778 -0.0012364 -0.0012176
0.0001703 -0.00017321 0.00072074 -0.00028589
-0.0015052 0.0017957 0.0017271 0.00021523 -0.0012276 -0.0012352 0.19654 0.18107
-0.015506 -0.0031774 -0.00087743 0.0020208
0.0022991 -0.00044569 0.00091301 -0.0013212 0.00018971 -0.00019031 -0.015509 -0.003121
0.11145 0.21205 -0.012368 -0.003041
-0.00031657 -0.0011048 0.0012844 -0.0005688 0.00074621 -0.000267 -0.00091357 0.0019746
-0.012333 -0.0029963 0.14689 0.28523
1520000000 0.27914 0.1174 -0.015219 0.010088 0.0035076 -0.0043253 0.00016341 0.0027061
0.002223 -0.0020101 -0.0012941 -8.6236e-05
-0.015194 0.010076 0.14181 0.32492 0.0020926 0.013178 0.001655 -0.00075866
3.6185e-05 -0.0010571 0.0003565 -0.0010478
0.003456 -0.0043356 0.002169 0.01318 0.34735 -0.045694 -0.0010129 -0.00033385
0.00067164 -0.00097467 7.5298e-05 -0.00020316
0.00016408 0.0027296 0.0016582 -0.0007646 -0.0010322 -0.00034865 0.22067 0.14288
-0.014907 0.0026666 0.0016406 0.0021421
0.0022238 -0.0020383 3.6915e-05 -0.0010833 0.00068003 -0.0010106 -0.014885 0.0026937
0.14029 0.19994 -0.012261 0.0017726
-0.0012375 -7.0192e-05 0.0003359 -0.0010616 5.8744e-05 -0.00021366 0.0016715 0.0021271
-0.012261 0.0017867 0.18028 0.26604
1580000000 0.2899 0.071304 -0.0084319 0.013522 -0.00097667 -0.0051161 0.0015549 0.0018404
-0.00020023 -0.0023491 -0.00023904 0.00046133
-0.008431 0.0135 0.16975 0.30011 0.0057625 0.0079002 0.00056265 -0.0015898
-0.00047782 -0.0011093 -0.00019769 -0.0009238
-0.00097509 -0.0051256 0.0058157 0.0078907 0.32844 -0.10353 -0.0015652 0.00045708
-0.00036748 -0.0013543 0.00037155 -0.00069243
0.0015852 0.0018432 0.0005523 -0.0015828 -0.001556 0.00046 0.23514 0.10314
-0.011383 0.0076169 0.0022495 0.00069571
-0.00023587 -0.0023255 -0.00048759 -0.0010948 -0.00033428 -0.0013155 -0.011389 0.0076266
0.16521 0.18298 -0.0096262 0.0077312
-0.00024924 0.00044834 -0.00017923 -0.00090604 0.00037872 -0.00071603 0.0022533 0.00069086
-0.0095461 0.0077201 0.21283 0.24
1640000000 0.29303 0.030206 -0.0014904 0.012362 -0.0030351 -0.0027637 0.002736 0.0010341
-0.0008311 -0.0016426 -0.00038759 0.00063701
-0.0014931 0.012349 0.19927 0.27581 0.0060962 0.0027844 -0.00059661 -0.0018444
-0.00097399 -0.00050409 -0.00049862 -0.00069087
-0.0030771 -0.0027567 0.006102 0.0027489 0.30028 -0.15228 -0.00079398 0.0013528
-0.0011609 -0.001046 -0.00021824 -0.00036082
0.0027511 0.0010403 -0.00061263 -0.0018477 -0.00079591 0.0013778 0.24796 0.054053
-0.0070643 0.0088354 0.0026168 -0.00086664
-0.00083707 -0.0016322 -0.00097673 -0.00050121 -0.0011771 -0.001023 -0.0070347 0.008896
0.18913 0.16017 -0.004554 0.0097915
-0.00029951 0.00063612 -0.00051719 -0.00067579 -0.0002017 -0.00036681 0.0025905 -0.00083221
-0.0046118 0.0097697 0.2388 0.20982
1700000000 0.28719 -0.015151 0.0019911 0.0095343 -0.0038694 0.00018904 0.0031965 -0.0011906
-0.0020836 -0.00056294 0.00069531 0.00043887
0.0019734 0.0095251 0.21812 0.24449 0.0035894 -0.00028969 -0.0014819 -0.00069006
-0.00086911 -0.00010906 -0.00095122 -0.00046882
-0.0038632 0.00021685 0.0036031 -0.00032097 0.25817 -0.19243 0.00023575 0.0016393
-0.0021088 -0.00013841 -0.00045843 -0.00089709
0.0031955 -0.0011764 -0.0014872 -0.00066459 0.00022446 0.0016142 0.24518 0.003621
-0.0042055 0.0093198 0.001539 -0.0022934
-0.002079 -0.00057823 -0.00086148 -0.00010929 -0.0021519 -0.00017414 -0.0041937 0.0092996
0.20786 0.1406 0.000211 0.01004
0.00068425 0.00040033 -0.00096452 -0.00047498 -0.00043904 -0.000921 0.0015519 -0.002323
0.00020219 0.010022 0.25636 0.17615
1760000000 0.27582 -0.064068 0.0043659 0.0061664 -0.0023484 0.0012123 0.0014371 -0.0035278
-0.0013996 0.000714 0.00028502 -0.00062287
0.004354 0.0061868 0.2442 0.20505 0.00093277 -0.0018888 -0.0012733 0.00011204
-0.0012059 0.00089799 -0.00057173 0.00038088
-0.0023691 0.0012531 0.00093285 -0.0018971 0.21021 -0.2258 0.0010212 0.0012801
-0.0012814 0.0015734 -0.0011696 -0.00058683
0.0013655 -0.0035148 -0.0012825 0.0001265 0.0010158 0.0013191 0.23601 -0.048279
-0.00097774 0.0084462 -0.00022013 -0.0024196
-0.0013948 0.00070901 -0.0011937 0.00090018 -0.0013004 0.0015777 -0.00099263 0.0084786
0.22349 0.10647 0.0042259 0.0074933
0.00034922 -0.00055192 -0.00058305 0.00040611 -0.0011878 -0.00056485 -0.00025635 -0.0024882
0.0041701 0.0074912 0.26992 0.13902
1820000000 0.2525 -0.10139 0.0044259 0.0026504 -3.7184e-05 0.0027112 -0.00091394 -0.0031613
-0.001065 0.00094182 -0.00012983 -0.00019101
0.0043829 0.0026539 0.25499 0.17552 -0.0014299 -0.00029342 -0.0013973 0.00099653
-0.00013456 0.0013618 -0.00063021 0.00061524
-3.4631e-05 0.0026987 -0.0014235 -0.00029858 0.15997 -0.24173 0.0017872 0.00050766
-0.00017865 0.0024872 -0.0016097 0.00042736
-0.00092559 -0.0031541 -0.0014002 0.0010141 0.0017917 0.00057404 0.20619 -0.095898
0.0005735 0.0068993 -0.0018448 -0.0017495
-0.0010558 0.0009384 -0.00011377 0.0013454 -0.00011266 0.0025564 0.00058133 0.0069067
0.24204 0.078175 0.0053135 0.003649
-0.00016869 -0.00015719 -0.00062973 0.00057216 -0.0016159 0.00040553 -0.0017919 -0.0016596
0.0053259 0.0036223 0.27297 0.10337
1880000000 0.21791 -0.1424 0.0020952 0.00040116 -0.00046176 0.0023304 -0.0029921 -0.0023431
-0.00027774 0.0017232 0.00017464 -0.0006369
0.0020692 0.00041809 0.25963 0.12893 -0.0034871 0.0020478 -0.00021991 0.0018284
0.00062644 0.0014701 0.00014469 0.0010708
-0.00044494 0.0023566 -0.0034899 0.0020412 0.1076 -0.25118 0.0021157 -0.00099455
0.0017835 0.0018999 -0.00096549 0.0015454
-0.0030258 -0.0023476 -0.00021525 0.0018286 0.0020466 -0.0010478 0.16535 -0.13653
0.0013615 0.0048417 -0.0023556 0.00033409
-0.00028228 0.0017045 0.00062593 0.0014875 0.0017232 0.001916 0.001305 0.0047771
0.24693 0.046676 0.0055491 0.0012539
0.00014227 -0.00053063 0.00019998 0.0010516 -0.00098878 0.0015383 -0.0024383 0.00030301
0.0055317 0.001201 0.27383 0.068987
1940000000 0.17882 -0.16842 -0.00016051 -0.0011298 0.0016457 0.0022634 -0.0039461 0.00042136
0.0012034 0.0010712 -0.00071736 -0.0003699
-0.00015453 -0.001143 0.26072 0.097755 -0.001899 0.0049662 0.0010875 0.0013244
0.0020346 0.00059954 0.00096586 0.00034132
0.0016168 0.0022776 -0.0018692 0.0049842 0.062783 -0.24401 0.00059929 -0.0025802
0.002531 0.00040889 0.00030785 0.0016591
-0.0038896 0.00044984 0.0010936 0.0013272 0.00057525 -0.0025589 0.11247 -0.16669
0.00024735 0.0034201 -0.0015545 0.0015429
0.0011959 0.0010967 0.0020409 0.00056568 0.0025462 0.00040047 0.00032978 0.0034615
0.25056 0.0087372 0.0040997 -0.002213
-0.00088286 -0.00038285 0.00091267 0.00028658 0.00032353 0.0016315 -0.0014715 0.00158
0.0041647 -0.0021779 0.2633 0.033333
2000000000 0.13333 -0.18384 -0.0037913 0.00090697 0.0031248 0.0015188 -0.0023807 0.0036811
0.0011765 0.00043183 -0.00055704 0.00046607
-0.0038243 0.00093218 0.24724 0.062466 -0.0010463 0.0070561 0.0016868 0.00043328
0.0014297 -0.0012785 0.00046761 2.124e-06
0.0031311 0.0015472 -0.0010108 0.0070824 0.019503 -0.23031 -0.0014342 -0.001651
0.0021095 -0.0012062 0.0017068 0.0014581
-0.0023401 0.0037621 0.0017134 0.00038903 -0.0014457 -0.0016753 0.058878 -0.17656
-0.0015777 0.0035943 -0.00018918 0.0023451
0.0011539 0.00043042 0.0014655 -0.0013207 0.002066 -0.0012159 -0.0015994 0.0034555
0.24638 -0.024482 0.00094689 -0.0032358
