!Keysight Technologies,M9804A,MY58100912,A.14.10.03
!Date: Thursday, April 27, 2023 10:28:33
!Correction: S11(C  6-Port  ) 
!S12(C  6-Port  ) 
!S13(C  6-Port  ) 
!S14(C  6-Port  ) 
!S15(C  6-Port  ) 
!S16(C  6-Port  ) 
!S21(C  6-Port  ) 
!S22(C  6-Port  ) 
!S23(C  6-Port  ) 
!S24(C  6-Port  ) 
!S25(C  6-Port  ) 
!S26(C  6-Port  ) 
!S31(C  6-Port  ) 
!S32(C  6-Port  ) 
!S33(C  6-Port  ) 
!S34(C  6-Port  ) 
!S35(C  6-Port  ) 
!S36(C  6-Port  ) 
!S41(C  6-Port  ) 
!S42(C  6-Port  ) 
!S43(C  6-Port  ) 
!S44(C  6-Port  ) 
!S45(C  6-Port  ) 
!S46(C  6-Port  ) 
!S51(C  6-Port  ) 
!S52(C  6-Port  ) 
!S53(C  6-Port  ) 
!S54(C  6-Port  ) 
!S55(C  6-Port  ) 
!S56(C  6-Port  ) 
!S61(C  6-Port  ) 
!S62(C  6-Port  ) 
!S63(C  6-Port  ) 
!S64(C  6-Port  ) 
!S65(C  6-Port  ) 
!S66(C  6-Port  ) 
!S6P File: Measurement: :
# Hz S  RI   R 50
500000000 -0.33107 -0.062701 -0.010328 -0.0015342 -0.0093377 0.013351 -0.0036586 0.011777
0.012674 0.0050999 -0.0035747 0.0073361
-0.010029 -0.0014471 -0.41372 -0.071036 0.0082492 -0.010228 0.001425 0.0118
0.0074462 0.0026298 0.0010354 0.013301
-0.0092474 0.013183 0.0081972 -0.010193 -0.26685 0.19301 0.0067835 0.0036823
-0.0024716 0.008343 -0.00012185 0.012024
-0.0038766 0.011574 0.0015218 0.012038 0.0067786 0.0037495 -0.33136 0.038059
-0.018868 -0.0045926 0.016784 0.025389
0.012822 0.005201 0.0079845 0.0034161 -0.0023044 0.0087078 -0.019031 -0.0047059
-0.23957 -0.20897 -0.026769 0.0053583
-0.0038132 0.0070922 0.0016638 0.013928 0.00036781 0.012314 0.015776 0.024798
-0.026572 0.0045842 -0.26671 -0.13846
560000000 -0.31921 0.10493 -0.022196 -0.066931 0.0002007 0.013443 0.0050609 0.011982
0.011315 0.0048947 0.010164 0.008883
-0.02217 -0.065798 -0.37388 0.09305 -0.040753 -0.039006 0.014616 0.0041026
-0.013054 -0.0055288 0.0043008 0.00066649
0.00011922 0.013929 -0.040942 -0.039094 -0.18731 0.2462 -0.00061594 -0.0044925
0.018825 0.0068624 0.0069824 -0.0058211
0.0051072 0.011797 0.013925 0.0042705 -0.0003924 -0.0048886 -0.30776 0.13046
0.0050934 -0.023002 0.0049481 -0.022088
0.011339 0.0047951 -0.013656 -0.0051198 0.01835 0.0067876 0.0056473 -0.022906
-0.31093 -0.027118 0.011032 -0.052604
0.010957 0.0093389 0.0044695 -0.0005011 0.0075023 -0.0060369 0.0053617 -0.022114
0.011294 -0.050323 -0.33231 0.014054
620000000 -0.27883 0.084261 -0.023282 0.0090012 0.0039092 0.0095097 0.0080283 -0.0050243
0.012869 -0.0013688 0.00029243 -0.0027667
-0.023407 0.0090203 -0.40282 0.040925 -0.018285 0.00041336 -0.0013562 -0.0021063
0.012786 -0.005668 0.0010649 -0.0032499
0.0038529 0.0096108 -0.018214 0.00048864 -0.15732 0.25503 -0.00056507 -0.0052967
-0.0031178 -0.0031996 0.0099061 -0.0032242
0.0080341 -0.0048345 -0.0013958 -0.0018268 -0.00051203 -0.0052558 -0.26588 0.14193
-0.038973 -0.019842 0.013512 0.029249
0.012864 -0.0014255 0.012741 -0.0060984 -0.0035639 -0.0026795 -0.038644 -0.020102
-0.22697 -0.061314 -0.042136 0.010974
6.2435e-05 -0.0020627 0.001061 -0.0030581 0.010221 -0.0026839 0.012799 0.02786
-0.041332 0.011156 -0.24906 -0.022344
680000000 -0.24252 0.17758 -0.026167 -0.014923 0.0051223 0.0052626 0.0017414 -0.007262
-0.0013877 -0.011925 0.0068759 -0.0069449
-0.026094 -0.014929 -0.39088 0.14274 -0.032368 -0.0025712 -0.0015002 -0.00040213
-0.001221 -0.0095287 -0.0011536 -0.002056
0.0050815 0.0053036 -0.032405 -0.0024005 -0.1066 0.27705 -0.00086102 -0.00025643
-0.0014519 0.00033744 -0.0026729 -0.0096144
0.0013183 -0.007398 -0.0015851 -0.0005842 -0.00097549 -0.00035115 -0.221 0.19406
-0.022823 -0.0075238 -0.0089683 -0.011118
-0.0014965 -0.012024 -0.0015837 -0.0094559 -0.001388 0.00010856 -0.022808 -0.0073313
-0.28205 0.041803 -0.0058678 -0.0075918
0.0064803 -0.0073064 -0.00091496 -0.0021742 -0.0022966 -0.0096027 -0.008911 -0.011042
-0.0060143 -0.0067712 -0.26071 0.085068
740000000 -0.19577 0.17075 -0.040431 0.026556 0.013818 -0.0044354 -0.00014458 -0.0042438
-0.0037225 -0.0034216 -0.006717 0.0029124
-0.039851 0.026752 -0.33583 0.16193 -0.037761 0.034567 0.00036738 -0.0060424
-0.011862 0.0075968 -0.0011602 -0.0063256
0.013939 -0.0044823 -0.037719 0.034816 -0.07245 0.27416 -0.0020085 0.0034085
-0.002404 -0.0058402 -0.0014253 0.00085753
-0.0001391 -0.0043865 0.00051277 -0.0061681 -0.0020349 0.0033835 -0.20432 0.20082
-0.042466 -0.0086299 0.0229 0.016194
-0.0035184 -0.0031794 -0.013145 0.0074101 -0.0021705 -0.0061237 -0.04268 -0.0084522
-0.18101 0.070195 -0.043743 0.00025751
-0.0067413 0.0029277 -0.00045048 -0.006215 -0.0015332 0.0014634 0.02276 0.01577
-0.043422 0.0009262 -0.25176 0.089918
800000000 -0.1646 0.21627 -0.02223 0.016051 0.0059186 -0.010498 -0.0043785 -0.0026383
-0.0050065 0.002132 0.0039903 0.00021301
-0.022214 0.015741 -0.34363 0.23261 -0.0091007 0.033918 -0.0021625 0.0019309
-0.0010464 0.0024385 0.00056136 0.0051075
0.0059312 -0.010586 -0.0089876 0.034106 -0.034216 0.29915 0.00073416 0.0012254
-6.9571e-05 0.0035627 -0.0018743 0.00078355
-0.0044001 -0.0025447 -0.0021206 0.0019962 0.00071326 0.0013189 -0.17536 0.22854
-0.028324 0.012811 0.01431 -0.010664
-0.0046427 0.0020213 -0.0010676 0.0025485 -1.0985e-05 0.0033677 -0.028208 0.012833
-0.22596 0.097488 -0.017809 0.020342
0.003953 5.2206e-05 0.0008307 0.0053471 -0.0020035 0.00082138 0.014048 -0.011197
-0.017679 0.020535 -0.24656 0.13913
860000000 -0.1308 0.23636 -0.018434 0.030167 -0.0028842 -0.010273 -0.0019481 0.00017923
0.0038621 0.0055714 -0.003849 -0.0029856
-0.018399 0.03013 -0.29653 0.27621 0.0068519 0.034743 1.359e-05 0.0021194
0.0033749 0.00089803 0.0030923 -7.2566e-06
-0.0028749 -0.010343 0.0070339 0.034756 0.012968 0.30832 -0.00055442 -0.0001933
0.0022538 -0.001412 0.0014495 0.0041739
-0.0020392 0.00020474 -2.218e-05 0.002063 -0.00061458 -0.00024401 -0.13851 0.23944
-0.01841 0.017677 -0.0065086 -0.0087513
0.0040124 0.0056062 0.00345 0.00096784 0.0023257 -0.0013296 -0.018319 0.017825
-0.1699 0.15148 -0.025868 0.016948
-0.0036803 -0.0031212 0.0033533 0.00031305 0.00124 0.0043117 -0.0061541 -0.0084034
-0.025463 0.016432 -0.19442 0.18583
920000000 -0.10798 0.25971 0.0042471 0.038615 -0.0092507 -0.0053221 -0.0021926 0.0015409
0.00087596 0.0018216 0.0028432 -0.0015327
0.0042191 0.038649 -0.26937 0.29818 0.027895 0.023312 0.0013877 0.0011943
0.0075792 0.00025985 0.0047016 -0.0029289
-0.0093382 -0.0052551 0.028041 0.023285 0.05822 0.31036 0.0018445 1.8047e-05
0.00086668 2.5484e-05 0.00084797 -0.0015021
-0.0022092 0.0014199 0.0012229 0.0011948 0.0019114 -1.955e-05 -0.11486 0.25656
-0.011971 0.03072 0.0041883 -0.0067491
0.00088631 0.0019251 0.0078138 0.0003949 0.00091205 9.6026e-05 -0.011818 0.030635
-0.15983 0.15733 -0.0015549 0.027067
0.0029777 -0.0014361 0.0045485 -0.0031128 0.00086211 -0.0015292 0.0039675 -0.0068684
-0.0012978 0.027375 -0.20318 0.19904
980000000 -0.061858 0.28089 0.016265 0.030554 -0.0097189 0.0041573 0.0015831 0.0037918
0.0040846 -0.0012677 -0.0030843 -0.0027421
0.016177 0.030452 -0.21725 0.33392 0.033303 0.0059866 0.0019602 -0.00015599
0.0018393 -0.0061325 -0.00022278 -0.0028897
-0.009751 0.0041772 0.033339 0.0059097 0.10413 0.30513 0.00077761 -0.0011909
0.00056898 -0.0018202 0.0014788 -0.00029456
0.0016705 0.0038255 0.0020744 -0.00016057 0.00078286 -0.0011702 -0.07682 0.26755
0.0068657 0.029578 -0.0095884 -0.0075192
0.0040819 -0.0013119 0.0018524 -0.0062667 0.00054513 -0.0018106 0.0068714 0.0296
-0.12627 0.18778 0.0053415 0.020046
-0.0031968 -0.0025866 -6.0106e-05 -0.0028236 0.0015235 -0.00032203 -0.0095871 -0.0074222
0.0050431 0.0196 -0.16208 0.24494
1040000000 -0.021481 0.29053 0.032836 0.019858 -0.0017065 0.0071776 0.0026186 0.0008822
0.00048794 -0.0035392 0.00013431 -0.0016519
0.032721 0.019779 -0.18261 0.34815 0.030363 -0.014137 0.0016895 -0.0017612
-0.0021872 -0.0026077 -0.0012584 -0.0030457
-0.0016791 0.0071739 0.030337 -0.014255 0.15002 0.29298 -0.00044264 -0.001678
-0.0015609 -0.0010193 -0.0007336 -0.0010413
0.0025938 0.00085843 0.0016414 -0.0016945 -0.00045321 -0.0016612 -0.050358 0.2775
0.018575 0.01906 -0.0025733 0.00096499
0.0005277 -0.0034274 -0.0020267 -0.0027108 -0.0015277 -0.001021 0.01867 0.018971
-0.093895 0.1955 0.013959 0.018805
-4.7524e-05 -0.0017148 -0.0013238 -0.0031546 -0.00070349 -0.00097904 -0.002642 0.00094313
0.014404 0.01847 -0.14055 0.26572
1100000000 0.023563 0.30058 0.036742 -0.0027463 0.0029055 0.004356 0.0024782 -0.00092085
-0.002171 -0.0028489 -0.0039548 -4.5122e-05
0.036708 -0.0027161 -0.13931 0.36731 0.016375 -0.027831 -1.666e-05 -0.0018183
-0.0036781 -0.00086737 -0.0034704 -0.00047516
0.0029176 0.0043428 0.016258 -0.027939 0.19651 0.27415 -0.002026 0.00012574
-0.0019292 0.0004865 -0.0011679 -0.00040205
0.0024624 -0.00093648 3.366e-05 -0.0018329 -0.0020496 0.00010378 -0.010301 0.28309
0.024455 0.0060084 -0.0026615 0.00019131
-0.0022184 -0.0027749 -0.0037431 -0.00078001 -0.001917 0.00048502 0.024508 0.0059786
-0.074054 0.20999 0.01966 0.009234
-0.0040485 -0.00011229 -0.0037288 -0.00036512 -0.001179 -0.00041531 -0.0027005 0.00012955
0.019938 0.0094539 -0.093666 0.297
1160000000 0.074266 0.29761 0.025265 -0.020016 0.0030312 -0.0003557 -2.9297e-05 -0.0022931
-0.0041335 -0.0010135 -0.0013774 0.0042558
0.025225 -0.019972 -0.096152 0.37287 -0.0029407 -0.029627 -0.0015591 -0.0018418
-0.0028564 0.0024887 -0.0018229 0.0017301
0.0030351 -0.00036543 -0.0030545 -0.029634 0.23985 0.2444 -0.0008979 0.0018064
-0.00057146 0.0020046 -0.00096617 0.00040908
-1.4815e-05 -0.0023548 -0.0015504 -0.0018222 -0.00091443 0.0017583 0.028285 0.28119
0.021204 -0.0097795 -0.0036812 0.005262
-0.0041863 -0.00094623 -0.0027689 0.0025337 -0.00055027 0.0019899 0.021268 -0.0098135
-0.040405 0.21746 0.018973 -0.00055879
-0.0012509 0.0042277 -0.0016186 0.0017789 -0.00099971 0.00054167 -0.0035892 0.0050889
0.018916 -0.00028907 -0.047618 0.29949
1220000000 0.11805 0.28897 0.01191 -0.030186 -0.0013364 -0.0010539 0.00017593 -0.00097736
-0.0027727 0.0022432 0.00107 0.002192
0.011926 -0.030151 -0.051958 0.38716 -0.016814 -0.022044 -0.0026281 0.00043432
2.3068e-05 0.0032201 -0.00074668 0.0020782
-0.0013373 -0.0010239 -0.016937 -0.021998 0.27945 0.20636 0.00076726 0.0018678
0.00055613 0.0012594 0.00039204 0.00076074
0.00017695 -0.0010288 -0.0026982 0.00045245 0.00076298 0.0018892 0.068394 0.27381
0.011049 -0.016547 0.0021565 0.0015013
-0.0027343 0.0022908 1.7946e-05 0.0032082 0.00052711 0.0013002 0.010974 -0.016609
-0.017256 0.2277 0.014659 -0.013069
0.0010494 0.00217 -0.00081031 0.0020572 0.00039145 0.00078283 0.0021848 0.0016212
0.014692 -0.013223 -0.016506 0.31621
1280000000 0.1687 0.26946 -0.0069653 -0.029317 -0.0018973 0.0023138 -0.0008542 -0.0022077
-0.00086832 0.0032977 0.0026432 0.0015379
-0.0069626 -0.02929 -0.0053584 0.37944 -0.024323 -0.0089613 -0.001026 0.0014912
0.0016941 0.0017723 0.00063099 0.0020978
-0.001914 0.0022964 -0.024419 -0.0088547 0.31055 0.16315 0.0016797 2.1476e-05
0.0011732 0.0002584 0.0004373 0.00019183
-0.00085537 -0.002204 -0.0010266 0.0015073 0.0016765 4.236e-05 0.10546 0.25818
0.0014285 -0.019077 9.3635e-05 0.0003666
-0.00084856 0.0033201 0.0017987 0.0017215 0.0012111 0.00022006 0.0014259 -0.019152
0.019046 0.23162 0.0034041 -0.015741
0.0027456 0.0015139 0.00073025 0.0020606 0.00041259 0.00019173 -5.0106e-05 0.00030971
0.0035063 -0.015681 0.031363 0.31972
1340000000 0.20626 0.23782 -0.017245 -0.019867 0.00069628 0.0045904 -0.001917 -0.00094451
0.0014802 0.0028116 0.0018868 -0.0013353
-0.017208 -0.019852 0.034378 0.37261 -0.02196 0.0042546 -0.00012619 0.0020845
0.0020446 0.00072141 0.0012007 0.00082388
0.00071741 0.0045663 -0.021984 0.0043806 0.33294 0.11639 0.0010889 -0.0010166
0.00063699 -0.00055776 6.3019e-05 0.00017395
-0.0019136 -0.00096415 -0.00013205 0.0021425 0.0011057 -0.00099406 0.13909 0.23871
-0.0081174 -0.016612 0.00098538 0.00043915
0.0014791 0.0027884 0.0020387 0.00076411 0.00061948 -0.00052953 -0.0081639 -0.016588
0.048512 0.22833 -0.0037452 -0.014404
0.0019338 -0.0012885 0.0011775 0.0007932 0.00015382 0.00015813 0.00097392 0.00049359
-0.0037981 -0.014404 0.068831 0.31538
1400000000 0.24121 0.20148 -0.023633 -0.0082267 0.0052382 0.0033543 -0.0023289 0.00072216
0.0026337 0.0010598 0.00035953 -0.0017841
-0.02359 -0.0082523 0.072976 0.36049 -0.015114 0.012726 0.0013697 0.001328
0.0013104 -0.00088489 0.0011536 0.00015395
0.0052658 0.00334 -0.015066 0.012832 0.34669 0.063381 7.7536e-05 -0.0016307
0.00016452 -0.00047082 0.00040943 0.00021602
-0.0023493 0.00069556 0.001371 0.0012881 5.957e-05 -0.0016588 0.16944 0.21009
-0.014345 -0.0097928 -0.00075119 -0.00014279
0.0027174 0.0010313 0.0013402 -0.00089294 0.00016243 -0.0004436 -0.014346 -0.0098167
0.081944 0.22516 -0.01045 -0.0091997
0.00037766 -0.0018442 0.0011898 0.00012351 0.0003794 0.00022657 -0.00075165 -0.00018702
-0.010437 -0.0092955 0.11397 0.30526
1460000000 0.26506 0.15852 -0.020807 0.0043867 0.0057768 -0.0018108 -0.0015658 0.0018379
0.0023119 -0.0004233 -0.00023468 -0.0010785
-0.020783 0.0043506 0.10785 0.33883 -0.0058464 0.015865 0.0017336 0.00021295
0.00090967 -0.0013233 0.0012548 -0.00051181
0.0057926 -0.0018049 -0.0057861 0.015902 0.35374 0.0096876 -0.001232 -0.0011966
0.00020687 -0.00021278 0.00076893 -0.00019204
-0.0015908 0.0018401 0.0017176 0.0001931 -0.0012489 -0.001204 0.19657 0.18102
-0.015484 -0.0031355 -0.00085196 0.0019224
0.0023065 -0.0004379 0.00090885 -0.0013266 0.00012222 -0.00018494 -0.015498 -0.0031168
0.11163 0.21203 -0.012351 -0.003038
-0.00028564 -0.001088 0.0012589 -0.00057914 0.00078009 -0.0002246 -0.0008727 0.0019941
-0.012427 -0.0030798 0.14721 0.28511
1520000000 0.27913 0.11741 -0.015178 0.010075 0.0034909 -0.0043408 0.00017591 0.0026995
0.0022647 -0.0019966 -0.0012828 -7.7514e-05
-0.015171 0.010071 0.14195 0.32487 0.0021535 0.013169 0.0016696 -0.00075894
3.4511e-05 -0.0010688 0.00035444 -0.00107
0.0034487 -0.0043178 0.0022243 0.013194 0.34739 -0.045835 -0.0010141 -0.00036134
0.00073974 -0.00099732 0.00014226 -0.00024229
0.00019851 0.0027301 0.0016949 -0.00076544 -0.0010516 -0.00035702 0.22071 0.14287
-0.014881 0.0026915 0.0015948 0.0021568
0.0022445 -0.0020099 2.2845e-05 -0.0010468 0.00075469 -0.00093788 -0.014897 0.002691
0.14033 0.19996 -0.012189 0.0017772
-0.001265 -7.5329e-05 0.00032278 -0.0010748 9.5729e-05 -0.00027047 0.0016378 0.0021469
-0.012235 0.0018211 0.18029 0.26595
1580000000 0.2899 0.071308 -0.0084193 0.013497 -0.00094616 -0.0051286 0.0015527 0.0018463
-0.000235 -0.0022924 -0.0001908 0.00046789
-0.0084311 0.013487 0.16982 0.3 0.0057847 0.0078851 0.00057787 -0.0015913
-0.0004389 -0.0010845 -0.000181 -0.00091752
-0.00099314 -0.0051191 0.0058289 0.0078651 0.32835 -0.10364 -0.0015432 0.00045714
-0.00031245 -0.0013056 0.0003689 -0.00065765
0.0015935 0.0018585 0.00054349 -0.0015877 -0.001539 0.00046149 0.2352 0.10304
-0.01135 0.0075642 0.0022784 0.00065293
-0.00022961 -0.0023309 -0.00046272 -0.0011184 -0.00034624 -0.0013862 -0.011346 0.0076192
0.1654 0.18287 -0.009539 0.0076849
-0.00018778 0.00041729 -0.00021615 -0.00091709 0.00036092 -0.00061828 0.0022323 0.00069212
-0.009642 0.0077072 0.21314 0.23979
1640000000 0.29301 0.030227 -0.0015137 0.012334 -0.0030659 -0.0027493 0.0027214 0.0010474
-0.00087074 -0.0016533 -0.00036793 0.00063139
-0.0015037 0.012334 0.19939 0.27575 0.0060713 0.0027893 -0.00058913 -0.0018267
-0.00099352 -0.00050339 -0.00051546 -0.00070512
-0.003082 -0.002742 0.0061071 0.0027317 0.30013 -0.1524 -0.00079363 0.0013321
-0.0011675 -0.0010535 -0.00029824 -0.00040164
0.0027691 0.0010445 -0.000613 -0.0018611 -0.00078941 0.0013543 0.24796 0.053979
-0.0070524 0.0088587 0.0025791 -0.00084681
-0.0008152 -0.001642 -0.00096387 -0.00050771 -0.0011193 -0.0010765 -0.007048 0.0088418
0.18928 0.16011 -0.0045863 0.0097445
-0.00034062 0.00067679 -0.00052879 -0.00069712 -0.00032374 -0.00037266 0.0025999 -0.00085132
-0.004607 0.0097888 0.23909 0.20963
1700000000 0.28725 -0.015196 0.0019788 0.0095098 -0.0038326 0.00020317 0.0031795 -0.0012197
-0.002032 -0.00064433 0.0005993 0.00032575
0.0019905 0.0095188 0.21818 0.2444 0.0035822 -0.00028805 -0.0014894 -0.00070115
-0.00083152 -0.00013795 -0.00094238 -0.00049495
-0.0038516 0.00021364 0.003587 -0.00030946 0.25805 -0.19255 0.00023472 0.0016228
-0.0021711 -0.00015388 -0.00054799 -0.00086844
0.0031699 -0.0012015 -0.0014911 -0.0006485 0.00021445 0.001621 0.24517 0.003539
-0.0042017 0.0093328 0.0015466 -0.0022525
-0.0020618 -0.00055719 -0.00083805 -0.00010031 -0.002129 -0.00012821 -0.0041738 0.0093362
0.20796 0.14052 0.00017083 0.01002
0.0006702 0.00035729 -0.00094625 -0.00048598 -0.00055846 -0.0008371 0.0015559 -0.002328
0.00015539 0.010003 0.25642 0.1761
1760000000 0.2758 -0.064077 0.0043287 0.006178 -0.0023219 0.0012423 0.0014356 -0.0035157
-0.0012923 0.00065642 0.00038724 -0.00064665
0.0043329 0.0061818 0.24426 0.2049 0.00093392 -0.0019118 -0.0012716 9.6893e-05
-0.0011844 0.00090616 -0.00063327 0.00041121
-0.0023109 0.0012377 0.00093308 -0.0018887 0.21004 -0.22601 0.0010911 0.0012549
-0.0012697 0.0015449 -0.0013365 -0.00057225
0.0013795 -0.0035311 -0.001307 0.00011556 0.0010827 0.0012059 0.23598 -0.048415
-0.00099496 0.0083647 -0.00036234 -0.0025334
-0.0013657 0.00068787 -0.0012058 0.00092412 -0.0012494 0.0015842 -0.00095283 0.0083877
0.22361 0.10632 0.0042571 0.0073833
0.00040939 -0.0005493 -0.00058984 0.00039101 -0.0012611 -0.00057306 -0.00023399 -0.0024764
0.0042868 0.0074376 0.26997 0.13862
1820000000 0.25244 -0.10143 0.0043793 0.002648 -3.7948e-05 0.0026803 -0.00095951 -0.0031822
-0.001089 0.00089663 -0.00015094 -0.00016003
0.0043796 0.0026661 0.25503 0.17542 -0.0014625 -0.00025178 -0.0013903 0.0010013
-0.00012636 0.0013041 -0.00063629 0.00055852
-5.4818e-05 0.0026962 -0.0014803 -0.00028021 0.15965 -0.24179 0.0017518 0.00050694
-0.00013806 0.0024762 -0.0015936 0.00048092
-0.00093157 -0.0031287 -0.001357 0.00099044 0.0016648 0.00051715 0.20624 -0.09588
0.00063213 0.0069696 -0.0017196 -0.0016869
-0.001098 0.00094354 -0.00010948 0.0013595 -0.00021758 0.0024388 0.00061903 0.006987
0.24217 0.077958 0.0053061 0.0035919
-0.00014498 -0.00014566 -0.00064969 0.00063564 -0.0016496 0.00048325 -0.0018004 -0.0017419
0.0053135 0.0035974 0.27328 0.10304
1880000000 0.21789 -0.14253 0.0020559 0.00039948 -0.00046406 0.0023782 -0.002937 -0.002325
-0.00019621 0.0016784 0.00020048 -0.00058166
0.0020654 0.00040471 0.25963 0.12877 -0.0035212 0.0020556 -0.00021254 0.001835
0.00065082 0.0014828 0.00016152 0.0010293
-0.000507 0.0023707 -0.0034412 0.0020441 0.10747 -0.25136 0.0020086 -0.0010356
0.0017076 0.0019256 -0.0010187 0.0015184
-0.0030463 -0.002317 -0.00019037 0.0018016 0.0020669 -0.0010961 0.16516 -0.13658
0.0013001 0.0047634 -0.0022936 0.00024785
-0.00027456 0.0016892 0.00064474 0.0014803 0.0018131 0.0018817 0.0012991 0.004724
0.24688 0.046575 0.0054768 0.0013598
0.0001859 -0.00058287 0.00012547 0.0010664 -0.0010144 0.0014904 -0.0023189 0.00035364
0.005535 0.0013412 0.27381 0.06891
1940000000 0.17878 -0.16856 -8.5734e-05 -0.0011832 0.0016642 0.0022745 -0.0040079 0.00033254
0.0011629 0.0010615 -0.00079996 -0.00040803
-9.6408e-05 -0.001171 0.26074 0.09763 -0.0018779 0.0049653 0.0010746 0.0012625
0.0020438 0.00055082 0.00096423 0.00032467
0.001629 0.0022294 -0.0018425 0.0050275 0.062668 -0.24402 0.00067593 -0.0025354
0.0025425 0.00038503 0.0002667 0.0015673
-0.0039459 0.00039645 0.0010901 0.0013573 0.00063453 -0.0025425 0.11236 -0.16682
0.00026569 0.0034752 -0.0014658 0.0015092
0.0011587 0.00099696 0.0020525 0.00057446 0.0025342 0.00039536 0.0003116 0.0034677
0.25058 0.0085416 0.0041936 -0.0023443
-0.00073612 -0.00051644 0.0009845 0.00026558 0.00036844 0.0016708 -0.001489 0.0015079
0.0041909 -0.0023497 0.26315 0.033064
2000000000 0.13324 -0.1838 -0.0038063 0.00093417 0.0030524 0.0016016 -0.0023753 0.0037205
0.0011263 0.00048781 -0.00044399 0.00054243
-0.003808 0.00093909 0.24728 0.062346 -0.00098355 0.0070744 0.0017011 0.0004156
0.0014177 -0.0012957 0.00056484 5.9648e-05
0.0030904 0.0014683 -0.00098414 0.0070961 0.019435 -0.23028 -0.0015064 -0.0016295
0.0019898 -0.0013179 0.0016791 0.001368
-0.0024271 0.0036536 0.0016452 0.00038651 -0.0013702 -0.0016504 0.058845 -0.17656
-0.0016363 0.0034818 -0.0002804 0.0023255
0.0011377 0.0004239 0.0013625 -0.0013355 0.0020636 -0.0011958 -0.001527 0.0034775
0.24629 -0.024787 0.0007926 -0.003211
