!Keysight Technologies,M9804A,MY58100912,A.14.10.03
!Date: Thursday, April 27, 2023 10:28:33
!Correction: S11(C  6-Port  ) 
!S12(C  6-Port  ) 
!S13(C  6-Port  ) 
!S14(C  6-Port  ) 
!S15(C  6-Port  ) 
!S16(C  6-Port  ) 
!S21(C  6-Port  ) 
!S22(C  6-Port  ) 
!S23(C  6-Port  ) 
!S24(C  6-Port  ) 
!S25(C  6-Port  ) 
!S26(C  6-Port  ) 
!S31(C  6-Port  ) 
!S32(C  6-Port  ) 
!S33(C  6-Port  ) 
!S34(C  6-Port  ) 
!S35(C  6-Port  ) 
!S36(C  6-Port  ) 
!S41(C  6-Port  ) 
!S42(C  6-Port  ) 
!S43(C  6-Port  ) 
!S44(C  6-Port  ) 
!S45(C  6-Port  ) 
!S46(C  6-Port  ) 
!S51(C  6-Port  ) 
!S52(C  6-Port  ) 
!S53(C  6-Port  ) 
!S54(C  6-Port  ) 
!S55(C  6-Port  ) 
!S56(C  6-Port  ) 
!S61(C  6-Port  ) 
!S62(C  6-Port  ) 
!S63(C  6-Port  ) 
!S64(C  6-Port  ) 
!S65(C  6-Port  ) 
!S66(C  6-Port  ) 
!S6P File: Measurement: :
# Hz S  RI   R 50
500000000 -0.33147 -0.062806 -0.010297 -0.0012555 -0.0091726 0.013152 -0.0042114 0.012331
0.012586 0.005111 -0.0037732 0.0076687
-0.010203 -0.001241 -0.4135 -0.071899 0.0084019 -0.010441 0.00074565 0.01262
0.0076641 0.0027917 0.00063938 0.013513
-0.0091411 0.01316 0.0083703 -0.010425 -0.26702 0.19301 0.006795 0.0039843
-0.0022426 0.0090134 0.00010185 0.012563
-0.0035779 0.011888 0.0012314 0.012501 0.0068628 0.0039312 -0.33037 0.038312
-0.019477 -0.0043538 0.017289 0.025469
0.012359 0.0052251 0.007702 0.0028021 -0.002254 0.0090014 -0.019729 -0.0041879
-0.23879 -0.20945 -0.027 0.0044139
-0.0037027 0.0078605 0.0011289 0.013915 0.00038293 0.012526 0.017764 0.025929
-0.027608 0.0049201 -0.26593 -0.13804
560000000 -0.31979 0.10428 -0.021817 -0.066142 1.3128e-05 0.013939 0.0045652 0.01152
0.010885 0.0049573 0.010087 0.008749
-0.02149 -0.06598 -0.37491 0.093216 -0.041053 -0.039266 0.014571 0.0036841
-0.012571 -0.0055731 0.0042192 -0.00019424
2.2037e-05 0.014274 -0.041193 -0.039102 -0.18731 0.24596 -0.00054282 -0.004681
0.018941 0.0068417 0.007178 -0.0055805
0.0046326 0.012113 0.014575 0.0038848 -0.00050468 -0.0046962 -0.30771 0.13138
0.0056371 -0.023 0.0055153 -0.022199
0.011009 0.0049984 -0.012716 -0.0054536 0.018906 0.0070794 0.0057797 -0.023185
-0.31065 -0.026157 0.0099322 -0.051068
0.010059 0.0086977 0.0040901 8.746e-05 0.0071541 -0.0061733 0.0058002 -0.021399
0.010232 -0.051589 -0.33321 0.013477
620000000 -0.27893 0.084699 -0.0233 0.0090218 0.0040737 0.0097683 0.0079647 -0.0039605
0.012605 -0.0019354 0.00014929 -0.0017561
-0.023359 0.0090126 -0.40273 0.040885 -0.018227 0.00037304 -0.0014197 -0.0017826
0.012671 -0.0058072 0.00094785 -0.0026479
0.0039524 0.0096873 -0.018264 0.00041271 -0.15737 0.25508 -0.00075606 -0.0047936
-0.0034506 -0.0031718 0.009749 -0.0029144
0.0080782 -0.0046069 -0.0012712 -0.0017972 -0.00070412 -0.0048566 -0.26526 0.1424
-0.039101 -0.019804 0.013831 0.028143
0.012534 -0.0017511 0.012674 -0.0059532 -0.003443 -0.003359 -0.039205 -0.020279
-0.22702 -0.06226 -0.042826 0.011739
0.00021425 -0.0019092 0.0010652 -0.0029284 0.0096944 -0.0029563 0.014065 0.028814
-0.042978 0.01197 -0.24846 -0.021741
680000000 -0.24307 0.17786 -0.02625 -0.014866 0.0048646 0.0053146 0.0013145 -0.0073139
-0.0012196 -0.011956 0.0061831 -0.0073199
-0.026167 -0.014856 -0.3908 0.14276 -0.032418 -0.0025702 -0.0017799 -0.00056687
-0.0012074 -0.0095602 -0.0010398 -0.0023476
0.0050202 0.0052785 -0.032444 -0.0025063 -0.10652 0.2771 -0.0010757 -0.00028089
-0.0013548 0.00029051 -0.0025819 -0.009402
0.0014173 -0.0070553 -0.0017111 -0.00048811 -0.0010733 -0.00023274 -0.22086 0.19378
-0.023588 -0.0076063 -0.0092993 -0.010917
-0.0012522 -0.012096 -0.0012541 -0.0095406 -0.0013737 0.00032337 -0.023533 -0.0076254
-0.28183 0.041423 -0.0063657 -0.0074567
0.0061192 -0.0072202 -0.0009335 -0.0023025 -0.0026923 -0.0092732 -0.0095548 -0.011059
-0.0062573 -0.007157 -0.26231 0.083573
740000000 -0.19565 0.17092 -0.040394 0.026591 0.014006 -0.0047358 6.1581e-05 -0.0045158
-0.0042097 -0.0030514 -0.0064703 0.0031296
-0.040083 0.026685 -0.33594 0.16169 -0.03763 0.034619 0.00061983 -0.0062075
-0.012491 0.0077172 -0.00089385 -0.0066415
0.013838 -0.0045446 -0.037733 0.034699 -0.072521 0.27435 -0.0019906 0.0034204
-0.0026226 -0.0060179 -0.001257 0.00091836
-4.9875e-05 -0.004292 0.0004919 -0.0061994 -0.00197 0.0034134 -0.20438 0.20089
-0.043192 -0.0092887 0.023168 0.015866
-0.0039798 -0.0033215 -0.012511 0.0076775 -0.0026021 -0.0060937 -0.043121 -0.0094216
-0.18066 0.070792 -0.043934 0.0012574
-0.0064525 0.0030375 -0.00055885 -0.0064846 -0.0014555 0.00097926 0.023023 0.016267
-0.044221 5.8627e-05 -0.25116 0.089082
800000000 -0.16478 0.21596 -0.022261 0.015894 0.0058967 -0.010503 -0.0046908 -0.0026533
-0.0045958 0.0019567 0.0040569 0.00010831
-0.022338 0.015743 -0.34353 0.23258 -0.009044 0.033996 -0.0022618 0.0019704
-0.0010349 0.00235 0.00077726 0.0051615
0.005852 -0.010636 -0.0089848 0.034054 -0.034188 0.29918 0.00059703 0.0012818
7.762e-05 0.0033283 -0.001899 0.00065335
-0.0044312 -0.0025609 -0.0022174 0.0019998 0.00060115 0.001329 -0.17528 0.22835
-0.028362 0.012657 0.014259 -0.010568
-0.0048045 0.0019962 -0.0010479 0.0023056 0.00017127 0.0033732 -0.028395 0.012819
-0.22581 0.097628 -0.017941 0.020128
0.004024 0.00015935 0.00067663 0.0053445 -0.0020656 0.00077224 0.014001 -0.01076
-0.017514 0.019824 -0.24648 0.13924
860000000 -0.13061 0.23636 -0.018387 0.030296 -0.0028023 -0.010319 -0.0018084 0.00015381
0.0039723 0.0055708 -0.0036753 -0.0030772
-0.018363 0.030204 -0.29655 0.27627 0.0068599 0.03475 2.7038e-05 0.0022149
0.0035001 0.00096032 0.0032779 0.00022012
-0.0028584 -0.010299 0.0069732 0.034771 0.012997 0.30831 -0.00051102 -0.00013093
0.0022456 -0.0013195 0.0014875 0.0042272
-0.001894 0.00032672 -4.5981e-05 0.0021496 -0.00052564 -0.00015476 -0.13847 0.23965
-0.01855 0.01775 -0.0064818 -0.0089623
0.004015 0.005521 0.0035021 0.0009535 0.0022469 -0.0014117 -0.018478 0.017811
-0.16985 0.15121 -0.025442 0.016823
-0.0036369 -0.0030867 0.0032658 0.00012115 0.001435 0.0044118 -0.0064058 -0.0090932
-0.025659 0.017004 -0.19464 0.18587
920000000 -0.10787 0.25971 0.0042157 0.038601 -0.009274 -0.0053193 -0.0021774 0.0015295
0.00073595 0.0018529 0.0027702 -0.0013299
0.0042403 0.038561 -0.26932 0.29818 0.027952 0.023268 0.0013919 0.0012121
0.0078328 0.00032099 0.0046736 -0.0027878
-0.0093263 -0.0053139 0.028015 0.023254 0.058225 0.31038 0.0018805 -2.5121e-05
0.00091336 6.8931e-05 0.00087523 -0.0014589
-0.0022154 0.0014912 0.0013387 0.0012275 0.0018678 -2.085e-05 -0.11482 0.25672
-0.011772 0.030468 0.0039964 -0.0068622
0.0007642 0.0018676 0.0078571 0.00030042 0.00091389 7.2232e-05 -0.012004 0.030623
-0.15959 0.15722 -0.0014215 0.027404
0.0027372 -0.0013521 0.0047261 -0.002953 0.00086437 -0.0014909 0.0041467 -0.0068222
-0.0014507 0.027189 -0.20364 0.19895
980000000 -0.061758 0.28083 0.016218 0.030408 -0.009731 0.0041214 0.0017517 0.0037553
0.0041468 -0.0013334 -0.003059 -0.0027216
0.016188 0.030445 -0.21713 0.33386 0.033324 0.0059896 0.0021155 -7.3102e-05
0.0017862 -0.0061846 -0.00031131 -0.002862
-0.0097049 0.0041407 0.033372 0.005883 0.10417 0.30512 0.0008051 -0.0011493
0.0005385 -0.0018413 0.0014259 -0.00025349
0.0017329 0.0037598 0.0020867 -2.6782e-05 0.00081781 -0.0011605 -0.076869 0.26735
0.0068684 0.029673 -0.0094781 -0.0075182
0.0041534 -0.0013568 0.0017727 -0.0061829 0.00053694 -0.0018336 0.0069564 0.029583
-0.12663 0.18773 0.0050137 0.019749
-0.003041 -0.0026502 -0.00025344 -0.002754 0.001492 -0.00025466 -0.0096046 -0.0074676
0.0052534 0.019733 -0.16152 0.24491
1040000000 -0.021574 0.29037 0.03283 0.019845 -0.0017144 0.0072096 0.0026407 0.00089466
0.00048489 -0.0034202 -7.4329e-06 -0.0017596
0.032765 0.019815 -0.18248 0.34824 0.030357 -0.014142 0.0016944 -0.00176
-0.0021131 -0.002719 -0.0013192 -0.0032198
-0.0016821 0.0072136 0.030342 -0.014253 0.15003 0.29297 -0.00044806 -0.0016755
-0.0015037 -0.0010107 -0.00068146 -0.0011181
0.0027046 0.00083226 0.0016136 -0.0017714 -0.00045727 -0.001675 -0.05033 0.27751
0.018586 0.019164 -0.0027376 0.00105
0.00048459 -0.0034581 -0.0021015 -0.0027046 -0.0015181 -0.0009468 0.018614 0.019042
-0.093502 0.19495 0.013973 0.018356
-7.9695e-05 -0.0017392 -0.0014296 -0.0031153 -0.00070085 -0.001145 -0.0026167 0.0010244
0.013918 0.018615 -0.14056 0.266
1100000000 0.023615 0.3006 0.036729 -0.0027498 0.0028843 0.0043396 0.0025288 -0.0008505
-0.0022811 -0.0028015 -0.0040291 2.5789e-05
0.036712 -0.0027166 -0.13918 0.36743 0.016318 -0.027845 4.6537e-05 -0.0018207
-0.0036976 -0.00078868 -0.0034917 -0.00039223
0.0029042 0.004349 0.016231 -0.027919 0.19655 0.27412 -0.0020386 0.00010852
-0.0019152 0.00051742 -0.0011758 -0.00038476
0.002514 -0.00088094 1.1562e-05 -0.0018414 -0.0020411 0.00010669 -0.010296 0.28312
0.024405 0.0059711 -0.0027007 5.7895e-05
-0.0022302 -0.0028464 -0.0037047 -0.00077163 -0.0019115 0.00048832 0.024517 0.0059872
-0.074055 0.20967 0.020093 0.0092496
-0.0039811 5.6944e-07 -0.0035178 -0.0004912 -0.0012361 -0.00038042 -0.0026127 -1.2081e-05
0.019685 0.0092244 -0.093869 0.29645
1160000000 0.074245 0.29767 0.025229 -0.019983 0.0030511 -0.00035344 -6.9733e-05 -0.0023186
-0.0041321 -0.00090327 -0.0013686 0.0041937
0.025222 -0.01998 -0.096123 0.37293 -0.0028859 -0.029633 -0.0015842 -0.0018459
-0.0027762 0.0024829 -0.0017228 0.0018714
0.0030397 -0.00035143 -0.0030472 -0.029652 0.23986 0.24437 -0.00091308 0.0017959
-0.00056009 0.0019494 -0.00091745 0.00044044
-7.9795e-05 -0.002321 -0.0015735 -0.0018836 -0.00091524 0.0018067 0.028317 0.28124
0.02135 -0.0097312 -0.0035137 0.0051114
-0.0041458 -0.00092117 -0.0027642 0.0024978 -0.0005994 0.002007 0.021229 -0.0098082
-0.039959 0.21764 0.019043 -0.00029265
-0.0013099 0.0042104 -0.0017529 0.0018147 -0.00095333 0.00047968 -0.0033872 0.0052375
0.019049 -0.00033094 -0.0472 0.29977
1220000000 0.11803 0.2889 0.011915 -0.03021 -0.0013361 -0.0010331 0.00012794 -0.00096697
-0.0028512 0.0022313 0.0010154 0.0021599
0.011931 -0.030175 -0.051852 0.38713 -0.016813 -0.022027 -0.0026579 0.00049334
8.3715e-08 0.0031704 -0.00083738 0.0020222
-0.0013018 -0.0010317 -0.016943 -0.021989 0.27949 0.20638 0.00077211 0.0018673
0.00052374 0.0013265 0.00034695 0.00075859
0.00015052 -0.00099236 -0.0026529 0.00049557 0.00076253 0.0018599 0.068475 0.27369
0.011098 -0.016602 0.0022162 0.0017051
-0.0028471 0.0022529 -5.9709e-06 0.0031907 0.00054937 0.0013029 0.011106 -0.016614
-0.017232 0.22775 0.01458 -0.013031
0.0010332 0.0021547 -0.00082925 0.0020459 0.00034043 0.00077319 0.0021103 0.0015273
0.014637 -0.0131 -0.016655 0.31652
1280000000 0.16865 0.26941 -0.0069905 -0.029353 -0.0018847 0.0023622 -0.00090926 -0.0022153
-0.00082836 0.0032518 0.0026223 0.0014088
-0.0069577 -0.029317 -0.0053049 0.37942 -0.024337 -0.0089328 -0.001046 0.0015279
0.0017785 0.0017302 0.00062044 0.0020847
-0.0019028 0.002351 -0.024429 -0.0088313 0.31057 0.16304 0.00167 5.3946e-05
0.0012277 0.00028911 0.00047508 0.00017763
-0.00091553 -0.0022071 -0.001022 0.0015033 0.0016789 6.488e-05 0.10551 0.25837
0.0013793 -0.019136 -9.1114e-05 0.00039954
-0.00077211 0.0032713 0.00179 0.0017357 0.0012152 0.00035561 0.0014049 -0.019125
0.019193 0.23164 0.0034913 -0.015828
0.0026104 0.0014769 0.00066343 0.0021073 0.00051263 0.00018471 -1.1922e-05 0.0003987
0.0033439 -0.01568 0.030917 0.31947
1340000000 0.20632 0.23782 -0.017244 -0.019879 0.000671 0.0046071 -0.0019337 -0.00092898
0.0014305 0.0027858 0.0018932 -0.0013326
-0.017205 -0.01987 0.034476 0.37258 -0.021957 0.0042479 -0.00012803 0.0020909
0.002065 0.00077766 0.0012322 0.00082519
0.00072007 0.0045774 -0.02197 0.0043688 0.3329 0.11634 0.0011178 -0.00098634
0.00064853 -0.00053373 9.9349e-05 0.00018252
-0.0019508 -0.00092544 -0.00010099 0.0020928 0.0011053 -0.00098903 0.13908 0.23862
-0.0080668 -0.01666 0.0010023 0.00048954
0.0014984 0.0027892 0.0020556 0.00076722 0.0006318 -0.00054108 -0.0081804 -0.016621
0.048564 0.2283 -0.003696 -0.014265
0.001857 -0.0013814 0.0011915 0.00076994 0.00010356 0.00019909 0.00099318 0.00054609
-0.003638 -0.01441 0.069029 0.31496
1400000000 0.24125 0.20145 -0.023657 -0.0082292 0.0052685 0.003365 -0.0023474 0.00070445
0.002681 0.0010281 0.00040777 -0.0018609
-0.023617 -0.0082526 0.07304 0.3605 -0.015091 0.012734 0.0013746 0.0012996
0.0013148 -0.00087645 0.0011772 0.00016067
0.0052931 0.0033473 -0.01506 0.012829 0.34677 0.063354 6.4795e-05 -0.0016631
0.00017012 -0.00042407 0.00037549 0.00028147
-0.002355 0.00070405 0.0013695 0.0012714 6.2641e-05 -0.0016709 0.16945 0.21018
-0.014347 -0.0098123 -0.00071845 -0.00014468
0.0027014 0.0010616 0.0013282 -0.00088955 0.00016256 -0.0004093 -0.014369 -0.0097953
0.082076 0.2251 -0.010506 -0.009173
0.00037733 -0.0018686 0.0011452 0.00011636 0.00040211 0.0002711 -0.00071196 -0.00018062
-0.010485 -0.0090983 0.11397 0.30554
1460000000 0.26504 0.15844 -0.020768 0.0043842 0.0057585 -0.0018044 -0.0015143 0.0017889
0.0023082 -0.00042612 -0.00019789 -0.0010252
-0.020755 0.0043865 0.1079 0.33879 -0.0058672 0.015849 0.0017242 0.00023286
0.00090695 -0.0013382 0.0012469 -0.00058039
0.0057686 -0.0018411 -0.0058044 0.015887 0.35372 0.0095846 -0.001237 -0.0011842
0.00017433 -0.00015534 0.00074436 -0.00027312
-0.0015598 0.001803 0.0017255 0.00022023 -0.0012332 -0.0011931 0.19663 0.18097
-0.015539 -0.0031572 -0.00085567 0.0020044
0.0023075 -0.00044936 0.00089551 -0.0013268 0.00020086 -0.00013894 -0.015518 -0.0030872
0.11165 0.21196 -0.012457 -0.0031085
-0.00021432 -0.0010888 0.0012603 -0.00055821 0.00080912 -0.00023966 -0.00086324 0.0020011
-0.012359 -0.0030769 0.1471 0.28526
1520000000 0.27919 0.11734 -0.015164 0.010077 0.0035104 -0.0043243 0.00018441 0.0027026
0.0022343 -0.0020477 -0.0013009 -7.8068e-05
-0.015168 0.010059 0.14197 0.32482 0.0021316 0.013192 0.0016819 -0.00076467
4.3767e-05 -0.001076 0.00035289 -0.0010608
0.0034864 -0.0043257 0.002219 0.013184 0.34737 -0.045881 -0.0010614 -0.00037093
0.00071213 -0.00096433 8.5179e-05 -0.00019423
0.00020747 0.00271 0.0016536 -0.00076877 -0.0010733 -0.00036034 0.22065 0.14291
-0.014861 0.0026711 0.0016394 0.002102
0.0022593 -0.0020332 3.6941e-05 -0.0010775 0.00070009 -0.00098236 -0.014895 0.0027441
0.14047 0.19991 -0.012188 0.0018077
-0.0012769 -5.1989e-05 0.00034557 -0.0010686 0.00012944 -0.00018623 0.0016433 0.0021517
-0.012205 0.0018114 0.1804 0.26598
1580000000 0.2899 0.071278 -0.0084072 0.013493 -0.00093765 -0.0051718 0.0015871 0.0018505
-0.00019729 -0.0023151 -0.00018132 0.00048313
-0.0084181 0.013484 0.16991 0.29996 0.0057717 0.0079106 0.00053863 -0.0016073
-0.0004473 -0.0010955 -0.0001853 -0.00092008
-0.00098425 -0.0051506 0.0058395 0.0078831 0.32829 -0.10373 -0.0015474 0.00047696
-0.00036127 -0.0013383 0.00037957 -0.00065064
0.0015817 0.0018426 0.00054085 -0.0015974 -0.0015428 0.00047148 0.23523 0.10303
-0.011368 0.0076185 0.002235 0.00070646
-0.00027681 -0.0023313 -0.00045392 -0.0010804 -0.00034356 -0.0013291 -0.011349 0.0076426
0.1654 0.18288 -0.0096049 0.0077438
-0.00017451 0.000487 -0.00017021 -0.00094728 0.00034312 -0.00065025 0.0022312 0.00069731
-0.0095682 0.007716 0.21308 0.23987
1640000000 0.29306 0.030155 -0.0014934 0.012331 -0.003094 -0.0028306 0.0027297 0.0010574
-0.00083989 -0.0016235 -0.00040924 0.0006368
-0.0014866 0.012332 0.19944 0.27568 0.006086 0.0027688 -0.00057938 -0.001863
-0.00095653 -0.00049571 -0.00051093 -0.00071165
-0.0030954 -0.0028076 0.0060995 0.0027334 0.30016 -0.15244 -0.00081909 0.0013356
-0.0011573 -0.0010568 -0.00027696 -0.00038905
0.0027541 0.0010641 -0.00061175 -0.0018478 -0.00081818 0.0013417 0.24794 0.053969
-0.0070404 0.0088225 0.0026235 -0.0008738
-0.00083621 -0.0016276 -0.00096701 -0.00048936 -0.0011524 -0.0010353 -0.007099 0.0088638
0.18926 0.16002 -0.0045895 0.0098119
-0.00041527 0.00063924 -0.00051309 -0.00070164 -0.00031748 -0.00040476 0.002587 -0.00088119
-0.0046317 0.0098072 0.23904 0.20973
1700000000 0.28723 -0.015322 0.0019936 0.0094926 -0.0038333 0.00016808 0.0032208 -0.0012322
-0.0020546 -0.00056179 0.00065249 0.00041255
0.0019911 0.0095012 0.21827 0.24432 0.0035722 -0.00027375 -0.0014807 -0.00069022
-0.0008521 -0.00011002 -0.00096581 -0.00047612
-0.0038369 0.00018633 0.0035925 -0.00030345 0.25793 -0.19261 0.00024831 0.0016026
-0.0021237 -0.00014615 -0.00054766 -0.00081864
0.0032003 -0.0012384 -0.0014774 -0.00067408 0.00026767 0.0016029 0.24513 0.0035207
-0.0041962 0.0093104 0.0015386 -0.0022784
-0.0020824 -0.00056829 -0.00085476 -9.517e-05 -0.0021308 -0.00016874 -0.0042179 0.0093201
0.20803 0.14051 0.00018535 0.010039
0.0006676 0.00041558 -0.00092863 -0.00048137 -0.00060709 -0.00082675 0.0015417 -0.0022222
0.00022047 0.0099899 0.25655 0.17604
1760000000 0.27579 -0.064131 0.0043373 0.0061999 -0.0023611 0.0012649 0.0013814 -0.0034463
-0.0013636 0.00071461 0.0003128 -0.00065324
0.0043397 0.0061934 0.2443 0.20483 0.0009504 -0.001887 -0.0012973 9.9043e-05
-0.001194 0.00089517 -0.00058161 0.00039671
-0.0023437 0.001236 0.0009347 -0.0019026 0.21 -0.22594 0.0011269 0.0012413
-0.0012302 0.0015265 -0.0012684 -0.00060606
0.0013811 -0.0035022 -0.0012942 0.00011183 0.001132 0.001238 0.236 -0.048413
-0.00095495 0.0084142 -0.00021183 -0.0024952
-0.0013468 0.00069336 -0.0011949 0.00091692 -0.0011896 0.0015659 -0.00093207 0.0084022
0.22364 0.10628 0.0042621 0.0074919
0.00035902 -0.00063925 -0.00058393 0.00041892 -0.0013528 -0.00066618 -0.00027464 -0.0025399
0.0042255 0.0075033 0.27011 0.13873
1820000000 0.25248 -0.10146 0.0043712 0.0026572 -2.8901e-05 0.0026446 -0.0009571 -0.0032453
-0.0010836 0.00094175 -0.00012484 -0.0001695
0.0043747 0.0026728 0.25503 0.17533 -0.0014744 -0.00026169 -0.0013729 0.00099518
-0.00014041 0.0013472 -0.00065948 0.000586
1.0656e-06 0.0026543 -0.0014893 -0.00025443 0.15963 -0.24184 0.0016921 0.00053711
-0.00021313 0.0024571 -0.0015983 0.0004335
-0.00090864 -0.0031986 -0.0013699 0.0010513 0.0016604 0.00053415 0.20608 -0.095998
0.00056027 0.0069324 -0.0017821 -0.0016928
-0.0010784 0.00094551 -0.00014237 0.00134 -0.00020993 0.0025058 0.00053802 0.0069775
0.2421 0.077956 0.0052614 0.0036727
-0.00014887 -0.00011399 -0.00063983 0.00062576 -0.0015771 0.00051544 -0.0017287 -0.0016141
0.0052621 0.0036167 0.27311 0.10319
1880000000 0.21795 -0.14258 0.0020577 0.00041132 -0.00051329 0.0023163 -0.0029782 -0.0022662
-0.00026525 0.001689 0.00021693 -0.00061138
0.0020641 0.00040573 0.25965 0.12871 -0.0034979 0.0020589 -0.00023462 0.0017754
0.0006383 0.0014636 0.00019067 0.0010443
-0.00047878 0.0023362 -0.0035085 0.002079 0.10749 -0.2513 0.0020509 -0.001092
0.0017724 0.0019161 -0.00099574 0.0015029
-0.0030189 -0.0022983 -0.00022547 0.0017914 0.0020722 -0.0011027 0.16521 -0.13662
0.0013479 0.0047635 -0.0023612 0.00037753
-0.0002153 0.0017298 0.00064601 0.0014673 0.0017588 0.0019554 0.0013126 0.0047399
0.24707 0.046404 0.0055452 0.0012887
0.00015012 -0.00061778 0.00014661 0.0010242 -0.0010271 0.0015095 -0.002325 0.00032777
0.0055779 0.0012361 0.27377 0.068821
1940000000 0.17874 -0.16861 -9.2975e-05 -0.001157 0.0016437 0.0022815 -0.0038837 0.00039033
0.0011977 0.0010614 -0.00083204 -0.00040827
-8.6762e-05 -0.0011495 0.26072 0.097558 -0.0018733 0.0049439 0.0010652 0.0013646
0.0020368 0.00058239 0.00095525 0.00027464
0.0016828 0.0022436 -0.0018633 0.0049887 0.062432 -0.24406 0.00065029 -0.0025201
0.0024909 0.0003284 0.00033244 0.0015422
-0.0039182 0.00041483 0.0011096 0.0013655 0.00065897 -0.0025022 0.11239 -0.16686
0.00020694 0.0034088 -0.0014774 0.0014353
0.00116 0.0010728 0.0020409 0.00056706 0.0025104 0.00028607 0.00028474 0.003435
0.25052 0.0084588 0.0041953 -0.0023389
-0.00084014 -0.00040552 0.00089965 0.00024042 0.00024948 0.0016025 -0.0016328 0.0015748
0.004197 -0.0022849 0.26322 0.032983
2000000000 0.13325 -0.18398 -0.0038078 0.00092359 0.0030058 0.0015751 -0.0023388 0.0037598
0.0011793 0.00046851 -0.00047867 0.00040525
-0.0037573 0.00092708 0.24729 0.062272 -0.0010433 0.0070933 0.0017047 0.00038439
0.0014017 -0.0012764 0.00058994 -9.1427e-06
0.0030845 0.001543 -0.00096853 0.0070956 0.019204 -0.23022 -0.0013899 -0.0016694
0.0020842 -0.0012047 0.0016905 0.0014341
-0.0023342 0.0037 0.0016658 0.00037842 -0.0013858 -0.0016461 0.058606 -0.17649
-0.0015473 0.0036277 -0.00035358 0.0024023
0.0011516 0.00047288 0.0013971 -0.0013215 0.0020293 -0.0012358 -0.0016265 0.0035559
0.24643 -0.024734 0.00075774 -0.0031881
