!Keysight Technologies,M9804A,MY58100912,A.14.10.03
!Date: Thursday, April 27, 2023 10:28:33
!Correction: S11(C  6-Port  ) 
!S12(C  6-Port  ) 
!S13(C  6-Port  ) 
!S14(C  6-Port  ) 
!S15(C  6-Port  ) 
!S16(C  6-Port  ) 
!S21(C  6-Port  ) 
!S22(C  6-Port  ) 
!S23(C  6-Port  ) 
!S24(C  6-Port  ) 
!S25(C  6-Port  ) 
!S26(C  6-Port  ) 
!S31(C  6-Port  ) 
!S32(C  6-Port  ) 
!S33(C  6-Port  ) 
!S34(C  6-Port  ) 
!S35(C  6-Port  ) 
!S36(C  6-Port  ) 
!S41(C  6-Port  ) 
!S42(C  6-Port  ) 
!S43(C  6-Port  ) 
!S44(C  6-Port  ) 
!S45(C  6-Port  ) 
!S46(C  6-Port  ) 
!S51(C  6-Port  ) 
!S52(C  6-Port  ) 
!S53(C  6-Port  ) 
!S54(C  6-Port  ) 
!S55(C  6-Port  ) 
!S56(C  6-Port  ) 
!S61(C  6-Port  ) 
!S62(C  6-Port  ) 
!S63(C  6-Port  ) 
!S64(C  6-Port  ) 
!S65(C  6-Port  ) 
!S66(C  6-Port  ) 
!S6P File: Measurement: :
# Hz S  RI   R 50
500000000 -0.33126 -0.062368 -0.010102 -0.0014706 -0.0088825 0.012943 -0.0037451 0.011709
0.013396 0.0052419 -0.0032019 0.0082132
-0.010094 -0.0017615 -0.4135 -0.070545 0.0080777 -0.010505 0.0012438 0.012412
0.0079985 0.0030847 0.0014482 0.013569
-0.0093299 0.012899 0.0080123 -0.010311 -0.26698 0.19308 0.0068856 0.0038158
-0.0022434 0.0087324 0.00030223 0.012117
-0.0042289 0.012036 0.0014263 0.012115 0.0070621 0.0036448 -0.33128 0.038865
-0.019457 -0.0045358 0.017437 0.025756
0.012649 0.0058316 0.0085497 0.0030659 -0.0027583 0.0086695 -0.018848 -0.0054235
-0.23863 -0.20851 -0.027818 0.0052071
-0.0040563 0.0076781 0.0018774 0.014207 0.00079747 0.012192 0.016198 0.026726
-0.02806 0.0050071 -0.26591 -0.13798
560000000 -0.32019 0.1054 -0.022119 -0.066885 0.00012079 0.01353 0.0044759 0.012016
0.010935 0.0048769 0.0096285 0.0086286
-0.022523 -0.066534 -0.37377 0.094031 -0.041303 -0.039489 0.014612 0.0040261
-0.012692 -0.0051041 0.0046351 0.00012515
0.00029228 0.013511 -0.041651 -0.039169 -0.18723 0.24619 -0.00036166 -0.0044392
0.018683 0.0070327 0.0068677 -0.0061736
0.0046382 0.011867 0.014388 0.0038997 -0.00045802 -0.0045263 -0.30805 0.13104
0.0058247 -0.022845 0.0055212 -0.021663
0.0095893 0.0056692 -0.013257 -0.0045398 0.017431 0.0070025 0.0058939 -0.022785
-0.31239 -0.026138 0.010945 -0.050901
0.010185 0.0086449 0.0045661 -0.000545 0.0074108 -0.0063613 0.0044228 -0.022605
0.011292 -0.051434 -0.33233 0.013903
620000000 -0.27815 0.085193 -0.023414 0.0091496 0.0041079 0.0096178 0.00803 -0.0047388
0.012869 -0.0018621 0.00069779 -0.0016241
-0.023125 0.0090781 -0.40276 0.04111 -0.01841 0.00034301 -0.0014212 -0.0019595
0.01295 -0.0056082 0.001291 -0.0030677
0.0040595 0.0097014 -0.018424 0.00048405 -0.15726 0.25495 -0.00061652 -0.0052767
-0.0031902 -0.0033541 0.0095543 -0.0032564
0.0077056 -0.0039244 -0.0015934 -0.0019346 -0.00037018 -0.0053503 -0.26478 0.14163
-0.039139 -0.020694 0.013654 0.028816
0.013521 -0.002284 0.012965 -0.0059318 -0.0033182 -0.0027603 -0.039309 -0.019734
-0.22733 -0.060901 -0.041999 0.010593
-0.00031915 -0.0020098 0.0011768 -0.0034968 0.01027 -0.0030718 0.014086 0.027992
-0.041575 0.0099741 -0.24954 -0.023143
680000000 -0.24286 0.17731 -0.026334 -0.015173 0.0048745 0.0052188 0.00093748 -0.0072934
-0.0017146 -0.011677 0.0063952 -0.0070538
-0.026282 -0.015187 -0.39076 0.14279 -0.032458 -0.0025521 -0.0015631 -0.00071076
-0.0011598 -0.0094506 -0.00043929 -0.0018808
0.0048472 0.0051202 -0.032504 -0.0024916 -0.10668 0.27719 -0.001008 -0.00034791
-0.0013071 8.2412e-05 -0.0026386 -0.0093961
0.00081185 -0.0071586 -0.0017523 -0.00040399 -0.00087091 -0.00053483 -0.22113 0.19423
-0.02321 -0.0076912 -0.0096911 -0.011817
-0.0016 -0.010719 -0.0013565 -0.0094131 -0.0012312 0.00056384 -0.023287 -0.0077509
-0.28098 0.042474 -0.0058112 -0.0066639
0.006733 -0.0073739 -0.00049532 -0.0021476 -0.0022335 -0.0096899 -0.0093133 -0.011912
-0.0059787 -0.0065223 -0.26012 0.083479
740000000 -0.19553 0.1705 -0.03993 0.026957 0.013867 -0.0043741 -2.291e-05 -0.0042559
-0.0044844 -0.0034952 -0.0063382 0.0026807
-0.040416 0.026514 -0.33572 0.16193 -0.037689 0.034817 0.00027582 -0.0058582
-0.01245 0.0072649 -0.0010334 -0.0053436
0.014049 -0.0044816 -0.037651 0.034787 -0.072769 0.27416 -0.0020611 0.0032335
-0.0019326 -0.0059123 -0.0016938 0.0010148
0.00024526 -0.0045337 -8.6382e-05 -0.0062803 -0.002006 0.0033085 -0.20422 0.20126
-0.043044 -0.0098732 0.023148 0.016207
-0.0051371 -0.0029343 -0.01159 0.007234 -0.0022748 -0.0059096 -0.042727 -0.009528
-0.18074 0.072724 -0.043977 -0.00019293
-0.0062205 0.0024998 -0.0010338 -0.0062569 -0.0015789 0.0010238 0.02324 0.016269
-0.043976 -0.0008539 -0.25191 0.089999
800000000 -0.16455 0.21635 -0.022352 0.015916 0.005846 -0.010492 -0.0045837 -0.0027471
-0.004847 0.0021638 0.0038721 -2.0248e-06
-0.022218 0.015988 -0.3435 0.23283 -0.0090999 0.034037 -0.0022883 0.0018296
-0.0012512 0.0025612 0.00071503 0.0051201
0.0059576 -0.010357 -0.0090273 0.034122 -0.034253 0.29932 0.00070911 0.0012693
9.3999e-05 0.0034512 -0.0018792 0.00083189
-0.004823 -0.0026543 -0.0023179 0.0020213 0.00073886 0.001266 -0.17542 0.2289
-0.028235 0.012965 0.01397 -0.010709
-0.0043969 0.0021197 -0.0010462 0.0024883 0.00012134 0.003671 -0.028265 0.012952
-0.22638 0.098271 -0.017342 0.020249
0.0038201 0.00018888 0.00060847 0.0051853 -0.0018187 0.0008037 0.014041 -0.010419
-0.017472 0.02027 -0.24647 0.1388
860000000 -0.1306 0.23644 -0.018438 0.030189 -0.0028749 -0.010259 -0.0018417 0.00021211
0.0038353 0.0053244 -0.0039096 -0.0031663
-0.018406 0.030313 -0.29646 0.27658 0.0068415 0.034761 0.00011747 0.0020425
0.003402 0.00071746 0.0035257 0.00042235
-0.0028926 -0.010271 0.0069277 0.034794 0.012985 0.30845 -0.00047859 -0.0001521
0.0022538 -0.0014423 0.0013243 0.0044706
-0.0018308 0.00015587 -0.00015218 0.0020592 -0.00063602 -0.00018261 -0.13816 0.2397
-0.018497 0.017488 -0.0061666 -0.008735
0.0036282 0.0056685 0.0034631 0.0009947 0.0023122 -0.0013454 -0.018238 0.017442
-0.17003 0.1511 -0.025649 0.016572
-0.0043795 -0.0031412 0.0029381 -1.083e-06 0.0013174 0.0041763 -0.006396 -0.0089834
-0.025269 0.016457 -0.1949 0.18634
920000000 -0.1079 0.25994 0.0041747 0.038616 -0.0093254 -0.0053736 -0.0022364 0.0013411
0.00085749 0.0019328 0.0028711 -0.0013087
0.0042007 0.038644 -0.26948 0.29834 0.027889 0.023274 0.0012869 0.0012755
0.0077963 0.00053735 0.0046039 -0.0027851
-0.0093091 -0.0053027 0.027944 0.023248 0.058233 0.31041 0.0019354 3.484e-05
0.00088169 0.00013719 0.00091483 -0.0015048
-0.0021619 0.0015602 0.0012828 0.0012143 0.001895 6.3958e-05 -0.11485 0.25679
-0.012182 0.030498 0.0038583 -0.0068386
0.00075065 0.00171 0.0076845 0.00035182 0.00086293 0.00011235 -0.012009 0.03052
-0.15951 0.15691 -0.0013066 0.027359
0.0029003 -0.0012582 0.0046008 -0.0027479 0.0009981 -0.001514 0.0039822 -0.0068201
-0.0016232 0.027448 -0.20347 0.19833
980000000 -0.061744 0.28111 0.016167 0.030577 -0.009742 0.0041336 0.0017685 0.0038307
0.0041495 -0.001296 -0.0032197 -0.0027955
0.016214 0.030498 -0.21696 0.33418 0.033282 0.0060044 0.0020779 -9.7698e-05
0.0018595 -0.0060116 -0.00024054 -0.0029646
-0.0097249 0.0042082 0.033341 0.0058663 0.10419 0.30526 0.00079219 -0.0011849
0.00059499 -0.0018182 0.0014224 -0.0002619
0.0016525 0.0037878 0.0019073 -6.4223e-05 0.00074048 -0.0012134 -0.076584 0.26747
0.0070695 0.029417 -0.0094775 -0.0075895
0.00417 -0.0012645 0.001935 -0.0062811 0.00057025 -0.0018255 0.0070406 0.029572
-0.12622 0.18831 0.005494 0.019446
-0.0034349 -0.0027809 -0.00052838 -0.0030811 0.0014008 -0.00026922 -0.0094891 -0.0075942
0.0051846 0.019541 -0.16155 0.24463
1040000000 -0.021075 0.29059 0.032828 0.019852 -0.0016436 0.0071876 0.0026107 0.00088803
0.00056707 -0.0035858 -0.00010451 -0.0016037
0.032912 0.019863 -0.18242 0.34828 0.030345 -0.014095 0.0015704 -0.0017929
-0.001998 -0.0026541 -0.0013018 -0.00305
-0.0016251 0.007177 0.03031 -0.014261 0.15012 0.293 -0.0004973 -0.0016831
-0.0015602 -0.0010594 -0.00072211 -0.0010913
0.0026555 0.00088704 0.0015859 -0.0018547 -0.00044014 -0.001679 -0.050173 0.27739
0.018599 0.019089 -0.0025846 0.00084409
0.00047679 -0.0035252 -0.0020202 -0.002571 -0.0016003 -0.0010105 0.018589 0.019103
-0.093985 0.19527 0.014353 0.018847
9.4286e-05 -0.0017054 -0.0010793 -0.0032174 -0.00063914 -0.0010707 -0.0025841 0.00091883
0.014019 0.018508 -0.14064 0.26551
1100000000 0.023853 0.30075 0.036858 -0.0026935 0.0029321 0.0043569 0.0025047 -0.00092305
-0.002134 -0.0029272 -0.004209 -0.00019874
0.036898 -0.0026976 -0.13906 0.36744 0.016344 -0.02783 7.9539e-05 -0.0018538
-0.0036753 -0.00097957 -0.0036505 -0.00056473
0.0029371 0.0043053 0.016228 -0.027944 0.19653 0.27417 -0.0020363 8.978e-05
-0.0018724 0.00052204 -0.001287 -0.00045428
0.0024515 -0.00088985 4.9055e-05 -0.0018688 -0.0020033 0.0001033 -0.010231 0.28302
0.024521 0.006058 -0.0025573 0.00015968
-0.0021466 -0.0029073 -0.0037097 -0.00083243 -0.0018461 0.00052152 0.024444 0.0059592
-0.074159 0.20935 0.019659 0.009549
-0.0042145 -0.00011786 -0.0035593 -0.00044873 -0.0011364 -0.00042548 -0.0025877 9.4093e-05
0.019866 0.0097468 -0.09336 0.29671
1160000000 0.074457 0.29767 0.025221 -0.020114 0.0030664 -0.0003607 -5.6281e-05 -0.0024089
-0.0041598 -0.00099698 -0.001201 0.004188
0.02527 -0.020091 -0.096035 0.37283 -0.0029013 -0.029577 -0.0015782 -0.0017791
-0.0027985 0.0024997 -0.0017056 0.0017744
0.0030458 -0.00038626 -0.0030497 -0.029643 0.23998 0.24447 -0.00091516 0.0017923
-0.00055172 0.0019919 -0.0010387 0.00047172
-1.204e-05 -0.0024277 -0.00166 -0.0016807 -0.00091418 0.0018442 0.028501 0.28102
0.021163 -0.009914 -0.0035765 0.0051731
-0.0041406 -0.00095908 -0.002916 0.0026025 -0.00061266 0.0019541 0.021261 -0.0098117
-0.040175 0.21743 0.01916 -9.6151e-05
-0.0011977 0.0040118 -0.0016271 0.001942 -0.0010043 0.00052967 -0.0035899 0.0053018
0.01894 3.795e-05 -0.047573 0.29978
1220000000 0.11837 0.28901 0.011913 -0.030247 -0.0013619 -0.0010882 0.000251 -0.00098616
-0.0029037 0.0022841 0.00098102 0.0021906
0.011911 -0.030271 -0.051723 0.38708 -0.016821 -0.02202 -0.0026709 0.0004119
-3.908e-05 0.0032169 -0.00088167 0.0020461
-0.0013826 -0.0010567 -0.01695 -0.02197 0.27954 0.20641 0.00075068 0.0018533
0.00057283 0.00134 0.00038149 0.00076699
0.00015897 -0.00094597 -0.0025814 0.00043602 0.00073824 0.0018193 0.068388 0.27371
0.011129 -0.0167 0.0020023 0.0015561
-0.0028166 0.0023165 -1.9352e-05 0.0032785 0.00057165 0.0013022 0.011028 -0.016672
-0.017133 0.22751 0.014755 -0.013193
0.00095901 0.0022312 -0.00088603 0.0020968 0.00033596 0.0007389 0.0020519 0.0015672
0.014739 -0.013213 -0.017017 0.31658
1280000000 0.16885 0.26938 -0.0071442 -0.029424 -0.0019117 0.0022938 -0.00087302 -0.002187
-0.00085051 0.0033347 0.0028254 0.001522
-0.0070469 -0.029369 -0.0053286 0.37955 -0.024305 -0.0089593 -0.0010393 0.001504
0.0017701 0.0018227 0.00075451 0.0021063
-0.0018609 0.002356 -0.024365 -0.0088247 0.31064 0.16326 0.0016995 3.0283e-05
0.001196 0.00034043 0.00047503 0.00022819
-0.00083562 -0.0022117 -0.0010741 0.001506 0.0016701 1.1215e-05 0.10547 0.25826
0.0013513 -0.019145 9.5932e-05 0.00037108
-0.00090261 0.003338 0.0017431 0.0018257 0.0011548 0.00023393 0.0013005 -0.019175
0.018971 0.23152 0.0034866 -0.015707
0.002768 0.0013808 0.00073835 0.0021321 0.00050804 0.00020665 3.8247e-05 0.00038817
0.0037136 -0.015795 0.031073 0.3194
1340000000 0.20668 0.23775 -0.017394 -0.019928 0.00064698 0.0045692 -0.0019588 -0.0010172
0.0014425 0.0028546 0.0019261 -0.0013422
-0.017383 -0.019914 0.034518 0.37258 -0.021935 0.0042257 -0.00014225 0.0020962
0.002066 0.00076383 0.0011822 0.0008221
0.00065715 0.0045814 -0.021948 0.0043524 0.33309 0.11637 0.0011074 -0.00098138
0.00058163 -0.0005914 8.0418e-05 0.00022035
-0.0019367 -0.00091023 -6.8145e-05 0.0020804 0.0011153 -0.00098976 0.13915 0.2386
-0.0082979 -0.016655 0.00089059 0.0005283
0.0014245 0.0028873 0.00215 0.00073711 0.00066162 -0.00051318 -0.0082739 -0.016657
0.048476 0.22804 -0.0038276 -0.014564
0.00195 -0.0013337 0.0012102 0.00082955 9.233e-05 0.00025543 0.00097332 0.00054315
-0.0037971 -0.014469 0.068978 0.31537
1400000000 0.24152 0.20132 -0.023765 -0.0082161 0.005244 0.0033685 -0.0023759 0.00066004
0.0026567 0.0010246 0.0004145 -0.0018075
-0.023719 -0.0082022 0.073068 0.36049 -0.015114 0.012685 0.0013699 0.0013102
0.0013107 -0.00084479 0.001181 0.0001272
0.0052353 0.0033365 -0.015069 0.012772 0.3468 0.063416 6.3264e-05 -0.0016872
0.00015228 -0.00039502 0.00032841 0.00020227
-0.0023812 0.00072535 0.0013594 0.0013382 7.4481e-05 -0.0016324 0.16945 0.21016
-0.014525 -0.0097663 -0.00072676 -0.00012904
0.0026875 0.0010418 0.0013762 -0.00088577 0.00022301 -0.00039821 -0.014538 -0.0097519
0.081854 0.22492 -0.010457 -0.0093833
0.00043003 -0.0018062 0.0012673 0.00014668 0.00041002 0.00021364 -0.00077077 -0.00013169
-0.010448 -0.0094126 0.11381 0.30535
1460000000 0.26545 0.1582 -0.02093 0.004465 0.005753 -0.0017851 -0.0015696 0.0018397
0.0023428 -0.00044821 -0.00033975 -0.0011644
-0.020868 0.0044418 0.10801 0.33884 -0.005895 0.015819 0.0017447 0.00021247
0.00091851 -0.0013432 0.0012524 -0.00057137
0.0057179 -0.0018189 -0.0058195 0.015869 0.35383 0.0097108 -0.0012666 -0.0012194
0.00019754 -0.00015178 0.0008048 -0.00024654
-0.0015253 0.0018071 0.0017595 0.00019943 -0.0012474 -0.0012154 0.19661 0.18104
-0.015606 -0.0030381 -0.00085199 0.0020123
0.0023294 -0.00048826 0.00092633 -0.0014254 0.00024951 -0.00016758 -0.015649 -0.0030413
0.11157 0.21197 -0.012478 -0.0031361
-0.0003624 -0.001115 0.0012318 -0.00058964 0.00082266 -0.00025762 -0.00083654 0.0020235
-0.012435 -0.0032849 0.14694 0.28507
1520000000 0.2793 0.117 -0.015171 0.010205 0.0034979 -0.004293 0.00017848 0.0027226
0.002291 -0.002016 -0.0012642 -0.00011808
-0.015174 0.010183 0.14205 0.32483 0.002086 0.013178 0.0016643 -0.00077253
3.8205e-05 -0.001077 0.00037929 -0.0010689
0.0034825 -0.0043588 0.0021819 0.013179 0.34748 -0.045958 -0.001046 -0.00035378
0.00071567 -0.0010123 0.00011108 -0.00021158
0.00017722 0.0027241 0.0016763 -0.00075123 -0.0010292 -0.00034412 0.22066 0.14286
-0.014913 0.0029071 0.0016443 0.0021862
0.0022559 -0.0020275 1.2247e-05 -0.0010844 0.00073361 -0.00095603 -0.014899 0.0029201
0.14015 0.19983 -0.01242 0.0016943
-0.0013047 -0.00011966 0.00034751 -0.0010561 6.5962e-05 -0.00020559 0.0016846 0.0021582
-0.012265 0.0017497 0.18028 0.26608
1580000000 0.29002 0.07091 -0.0083717 0.013602 -0.00095046 -0.005187 0.0015918 0.001859
-0.00022701 -0.0023541 -0.00022618 0.00044129
-0.0083779 0.013582 0.16999 0.30005 0.0057789 0.0079021 0.00057955 -0.0015849
-0.0004763 -0.0010888 -0.00019154 -0.00090756
-0.00096822 -0.005127 0.0058455 0.0078996 0.32837 -0.10362 -0.0015572 0.00051022
-0.0003556 -0.00133 0.00030929 -0.00061552
0.0016062 0.0018382 0.00056605 -0.0016254 -0.0016112 0.00051058 0.2352 0.10309
-0.011254 0.0077617 0.0023424 0.00071494
-0.00018544 -0.0023731 -0.00051333 -0.0010776 -0.00039388 -0.0013612 -0.011279 0.0077887
0.16522 0.18291 -0.0097453 0.0077367
-0.00024753 0.00037955 -0.00022359 -0.00091066 0.00033428 -0.00075438 0.0022817 0.00072466
-0.0098467 0.0076773 0.21282 0.23989
1640000000 0.29305 0.029786 -0.0014068 0.012365 -0.0030572 -0.002784 0.0027514 0.0010581
-0.00089409 -0.0016456 -0.0003841 0.00072257
-0.0014229 0.012349 0.19957 0.27568 0.0060976 0.0027647 -0.00060674 -0.0018541
-0.00097966 -0.00051002 -0.00054718 -0.00067679
-0.0030485 -0.0027744 0.0061306 0.0027563 0.30033 -0.15251 -0.00078594 0.001354
-0.0010893 -0.0010582 -0.0003034 -0.00036706
0.0027362 0.0010658 -0.00061484 -0.0018402 -0.00074773 0.0013345 0.24797 0.053964
-0.0069513 0.0089311 0.0026013 -0.0008869
-0.00091374 -0.001705 -0.00098966 -0.00048937 -0.0011697 -0.0011242 -0.0068414 0.0089257
0.189 0.16008 -0.0047623 0.0098332
-0.00036686 0.00065571 -0.00055207 -0.00070267 -0.00028923 -0.00038818 0.0025891 -0.00090301
-0.0047195 0.0099173 0.23882 0.20981
1700000000 0.28703 -0.015465 0.0020326 0.0095518 -0.0038832 0.00020227 0.0032191 -0.0011911
-0.0020944 -0.00060704 0.00064867 0.00039136
0.0020667 0.0095247 0.2183 0.24436 0.0036093 -0.00024388 -0.0014819 -0.00068236
-0.0008477 -0.00011758 -0.00096854 -0.00048994
-0.0038821 0.00017219 0.0036215 -0.00029662 0.25808 -0.19252 0.00022503 0.0016172
-0.0022098 -0.00015694 -0.00052802 -0.00086495
0.0031984 -0.0011641 -0.0014745 -0.00067776 0.00024011 0.0016332 0.24518 0.0036653
-0.0040117 0.0092798 0.0015945 -0.002297
-0.0021449 -0.00056399 -0.00084142 -8.0018e-05 -0.0021676 -0.00012258 -0.0039865 0.0093258
0.20773 0.14064 4.968e-05 0.010156
0.00068497 0.0003602 -0.00095836 -0.00048377 -0.00051434 -0.00086181 0.0016147 -0.0022862
8.52e-05 0.010146 0.25608 0.17614
1760000000 0.27567 -0.064294 0.0044165 0.0061244 -0.0022951 0.0011411 0.0013778 -0.003494
-0.001392 0.00070121 0.00035375 -0.00059541
0.0044037 0.0061237 0.24445 0.20491 0.00099634 -0.0018542 -0.0012819 0.00011798
-0.0011842 0.00088282 -0.0005949 0.00040646
-0.0023158 0.0012029 0.0009766 -0.0018909 0.21008 -0.2259 0.0010887 0.0012434
-0.0012323 0.0015362 -0.0013006 -0.00054869
0.0013086 -0.0035413 -0.0012826 0.00012845 0.00099694 0.0012422 0.23614 -0.048266
-0.000858 0.0082946 -0.00025843 -0.0024009
-0.0013992 0.00069198 -0.001154 0.00092056 -0.0012842 0.0015834 -0.00084412 0.0083349
0.22344 0.10645 0.004185 0.0076393
0.00041934 -0.00050696 -0.00056168 0.00041562 -0.0012161 -0.00056665 -0.00030852 -0.002428
0.0040966 0.0076832 0.2698 0.13907
1820000000 0.25228 -0.10159 0.0044464 0.0025769 -5.5128e-05 0.00271 -0.00097558 -0.0031786
-0.0011129 0.00099118 -0.0001033 -0.00016147
0.0044252 0.0025797 0.25518 0.17528 -0.0014367 -0.00032687 -0.0013991 0.0010398
-0.00014142 0.0013244 -0.00064576 0.00062721
-2.0302e-05 0.0026058 -0.0014096 -0.00027327 0.15991 -0.24189 0.0016924 0.00048609
-0.00014931 0.0024985 -0.0015811 0.00051413
-0.00095564 -0.003194 -0.0014178 0.00099227 0.0018401 0.00052341 0.20628 -0.095879
0.00060312 0.0068505 -0.0017504 -0.001737
-0.0010574 0.0010068 -9.2593e-05 0.0012571 -7.055e-05 0.0025397 0.00062738 0.0067906
0.24196 0.078183 0.0052784 0.0037938
-0.00013837 -0.0002025 -0.00060277 0.00063496 -0.0015407 0.00046831 -0.0016816 -0.0017232
0.005303 0.0037575 0.27316 0.10334
1880000000 0.21776 -0.14255 0.0020892 0.00034497 -0.00046827 0.0023064 -0.002954 -0.0023358
-0.00020962 0.0017265 4.7768e-05 -0.00060049
0.0020818 0.00034287 0.25978 0.12877 -0.0035115 0.0020556 -0.00020407 0.0018064
0.00061165 0.0014514 9.3747e-05 0.0010274
-0.0004426 0.0023179 -0.0034836 0.0020406 0.10732 -0.25123 0.0021675 -0.0010523
0.0017448 0.0020012 -0.0010753 0.0015564
-0.0029689 -0.0022622 -0.00019958 0.0018164 0.0019186 -0.0010087 0.16545 -0.13658
0.0012672 0.0045727 -0.0022301 0.000263
-0.00021827 0.0017549 0.00060361 0.0014139 0.0016873 0.0019 0.0013677 0.0046388
0.24685 0.046809 0.0057022 0.0014406
0.00011887 -0.00060601 0.00010695 0.00099064 -0.0010663 0.001444 -0.0022587 0.00025771
0.0056153 0.0015348 0.27352 0.069105
1940000000 0.17874 -0.1687 -0.00012158 -0.0012761 0.0016673 0.0023387 -0.0038639 0.00042914
0.0011815 0.0010244 -0.00080805 -0.00042916
-0.00018781 -0.0012637 0.2609 0.097492 -0.001923 0.0049932 0.0010878 0.0014166
0.0020188 0.00056297 0.00093678 0.00023364
0.0016053 0.0022667 -0.0018783 0.0050133 0.062777 -0.24407 0.00057398 -0.0024536
0.0025268 0.00036764 0.00026518 0.0016766
-0.0039311 0.00041015 0.0010819 0.0013195 0.00064095 -0.0025746 0.11254 -0.16698
0.00021818 0.0033175 -0.0014793 0.0016365
0.0011916 0.0010644 0.0019863 0.00056432 0.0025384 0.00035507 0.00021148 0.0033442
0.25069 0.0087572 0.0043212 -0.0021398
-0.00078147 -0.00041666 0.00094401 0.00032741 0.00030003 0.0016555 -0.0015329 0.0016486
0.0042901 -0.0021101 0.26329 0.033294
2000000000 0.13329 -0.18388 -0.0039173 0.00095601 0.0030577 0.0015922 -0.0024028 0.0037272
0.0012033 0.00047411 -0.00056081 0.00055844
-0.0039194 0.00094917 0.24727 0.062223 -0.0010485 0.0071227 0.0016638 0.00036827
0.0014222 -0.001277 0.00046441 2.9514e-06
0.0030322 0.0015948 -0.00099884 0.0071182 0.019496 -0.23011 -0.0013554 -0.0017012
0.002067 -0.0013132 0.001621 0.0012561
-0.0023554 0.0037795 0.001688 0.00034835 -0.0014599 -0.0017888 0.058749 -0.17661
-0.001542 0.0034521 -0.00027372 0.0022189
0.0011409 0.00044996 0.0013971 -0.0012922 0.0020737 -0.0012782 -0.0016803 0.0035128
0.24649 -0.02444 0.001084 -0.0032215
