!Keysight Technologies,M9804A,MY58100912,A.14.10.03
!Date: Thursday, April 27, 2023 10:28:33
!Correction: S11(C  6-Port  ) 
!S12(C  6-Port  ) 
!S13(C  6-Port  ) 
!S14(C  6-Port  ) 
!S15(C  6-Port  ) 
!S16(C  6-Port  ) 
!S21(C  6-Port  ) 
!S22(C  6-Port  ) 
!S23(C  6-Port  ) 
!S24(C  6-Port  ) 
!S25(C  6-Port  ) 
!S26(C  6-Port  ) 
!S31(C  6-Port  ) 
!S32(C  6-Port  ) 
!S33(C  6-Port  ) 
!S34(C  6-Port  ) 
!S35(C  6-Port  ) 
!S36(C  6-Port  ) 
!S41(C  6-Port  ) 
!S42(C  6-Port  ) 
!S43(C  6-Port  ) 
!S44(C  6-Port  ) 
!S45(C  6-Port  ) 
!S46(C  6-Port  ) 
!S51(C  6-Port  ) 
!S52(C  6-Port  ) 
!S53(C  6-Port  ) 
!S54(C  6-Port  ) 
!S55(C  6-Port  ) 
!S56(C  6-Port  ) 
!S61(C  6-Port  ) 
!S62(C  6-Port  ) 
!S63(C  6-Port  ) 
!S64(C  6-Port  ) 
!S65(C  6-Port  ) 
!S66(C  6-Port  ) 
!S6P File: Measurement: :
# Hz S  RI   R 50
500000000 -0.33158 -0.062978 -0.010276 -0.0013633 -0.0094258 0.013149 -0.0035097 0.011719
0.012977 0.0057166 -0.0031496 0.0079489
-0.010243 -0.0013399 -0.41336 -0.071436 0.0081701 -0.010222 0.001222 0.011929
0.0079609 0.0028116 0.0019056 0.01326
-0.0092017 0.013072 0.0080582 -0.010399 -0.26687 0.19314 0.0066845 0.0036232
-0.0021434 0.0084551 0.00037069 0.012019
-0.0032441 0.011583 0.0013515 0.011912 0.006764 0.0036277 -0.33123 0.038232
-0.018713 -0.0046895 0.016067 0.024966
0.013012 0.0055605 0.0079889 0.0029198 -0.0020101 0.0087459 -0.018849 -0.0048298
-0.24031 -0.20903 -0.027002 0.0041116
-0.0028674 0.0078063 0.0017246 0.013097 0.00027241 0.012019 0.0164 0.025393
-0.027029 0.0040336 -0.26752 -0.13957
560000000 -0.32011 0.10415 -0.02152 -0.066192 0.00011979 0.01391 0.004701 0.012232
0.010895 0.0054346 0.010261 0.0086738
-0.021397 -0.066108 -0.37444 0.093672 -0.041056 -0.03925 0.014327 0.0042924
-0.012956 -0.0041322 0.0038478 -0.00069833
0.00025606 0.013958 -0.041558 -0.038991 -0.1872 0.246 -0.0003973 -0.0048903
0.017766 0.0064548 0.0077564 -0.0056802
0.0046789 0.012418 0.01445 0.0041645 -0.00038405 -0.0049261 -0.30779 0.13068
0.0056198 -0.022472 0.0052206 -0.022203
0.011209 0.005322 -0.013129 -0.0039268 0.018086 0.0067879 0.0054285 -0.022708
-0.31038 -0.028331 0.010524 -0.049453
0.0099553 0.0087783 0.003756 -0.00092255 0.0078278 -0.0059949 0.0055135 -0.022452
0.01045 -0.04937 -0.33199 0.013332
620000000 -0.27907 0.084769 -0.023477 0.0090743 0.0040915 0.0096065 0.008404 -0.0044072
0.012086 -0.0018451 0.00075052 -0.0014336
-0.023462 0.0091111 -0.4027 0.040944 -0.018281 0.00044722 -0.0013085 -0.0018208
0.012476 -0.0058625 0.0011854 -0.0027546
0.004118 0.0097068 -0.018274 0.00046168 -0.15743 0.2549 -0.00063452 -0.0053447
-0.0031293 -0.0029783 0.010099 -0.0029345
0.0082427 -0.004456 -0.001406 -0.0019584 -0.00061505 -0.0053131 -0.2654 0.14152
-0.038069 -0.019636 0.013828 0.02756
0.012158 -0.0016266 0.012476 -0.0058015 -0.0031514 -0.0026583 -0.03845 -0.019265
-0.22816 -0.061933 -0.042363 0.012315
0.0007424 -0.0015369 0.0012714 -0.0029362 0.010228 -0.0030924 0.014395 0.027701
-0.042448 0.012342 -0.24773 -0.023139
680000000 -0.24281 0.17758 -0.026258 -0.014692 0.0049218 0.0053517 0.0014983 -0.0071606
-0.0013791 -0.011893 0.0067685 -0.0071224
-0.026216 -0.014769 -0.39098 0.14269 -0.032415 -0.0026058 -0.0014997 -0.0004667
-0.0012365 -0.0094708 -0.0011802 -0.0018526
0.0049744 0.0053265 -0.032451 -0.0025607 -0.1065 0.27708 -0.00093935 -0.00033596
-0.0013299 0.00025703 -0.0027937 -0.0095537
0.0017228 -0.0071101 -0.0014392 -0.00046407 -0.0010241 -0.00029789 -0.22051 0.19385
-0.022849 -0.0075002 -0.0088986 -0.010446
-0.0015874 -0.011836 -0.0013167 -0.0094553 -0.0013545 0.00019281 -0.02305 -0.0074943
-0.28209 0.041161 -0.0066793 -0.0072277
0.0067058 -0.0070164 -0.0012463 -0.0017534 -0.002819 -0.0094296 -0.0088205 -0.011107
-0.0067249 -0.0072249 -0.2608 0.083885
740000000 -0.19559 0.17101 -0.039851 0.02683 0.013876 -0.0045854 -8.1087e-05 -0.004281
-0.0037069 -0.0032774 -0.0065188 0.0027976
-0.039838 0.026753 -0.33654 0.16213 -0.03779 0.034409 0.00016618 -0.0058775
-0.012219 0.0073783 -0.0016089 -0.0057953
0.013951 -0.0045326 -0.037685 0.03471 -0.072513 0.27424 -0.0021092 0.0032064
-0.0021408 -0.0058612 -0.0016848 0.00081446
-2.8296e-05 -0.0041917 0.00011139 -0.0058929 -0.0020896 0.0031592 -0.20465 0.20103
-0.042996 -0.0086784 0.02287 0.016034
-0.0037572 -0.0033554 -0.01248 0.0075584 -0.0021467 -0.0060741 -0.042955 -0.0091284
-0.17976 0.069327 -0.04408 0.00099596
-0.0065174 0.0028914 -0.0017922 -0.0057942 -0.0014883 0.00088885 0.0228 0.016074
-0.044005 0.00094595 -0.25224 0.088978
800000000 -0.16484 0.21605 -0.022395 0.015952 0.0059643 -0.010421 -0.0044761 -0.0025733
-0.0047801 0.0023532 0.004291 0.00016951
-0.022406 0.015934 -0.34383 0.23276 -0.0091715 0.034044 -0.0021513 0.0019597
-0.0012284 0.0025872 0.0008408 0.0054056
0.0059095 -0.010451 -0.009084 0.034186 -0.03436 0.29926 0.00073217 0.0013302
-0.00012763 0.0036035 -0.0018822 0.00085892
-0.0044019 -0.0026537 -0.0021969 0.0019492 0.0006728 0.0013602 -0.17537 0.22858
-0.028139 0.012659 0.014081 -0.010641
-0.0048068 0.0022902 -0.0012755 0.0026694 -8.6112e-05 0.0034928 -0.028139 0.012712
-0.2263 0.09777 -0.017409 0.020458
0.0043119 7.9585e-05 0.00099694 0.0053201 -0.0019708 0.00094424 0.01407 -0.01059
-0.017376 0.020457 -0.24603 0.1392
860000000 -0.13085 0.23627 -0.018375 0.030167 -0.002832 -0.010265 -0.0020325 0.00030131
0.0039465 0.0055292 -0.0038653 -0.0031653
-0.018368 0.030136 -0.29666 0.27624 0.0068513 0.034676 9.1092e-05 0.0021674
0.0034025 0.00097905 0.0031021 0.00033788
-0.0028947 -0.010277 0.0069487 0.034765 0.012944 0.30829 -0.00048217 -0.0001019
0.002239 -0.0014202 0.0013329 0.0042167
-0.0020417 0.00039391 6.2239e-05 0.0020909 -0.0004898 -0.0001243 -0.13857 0.23948
-0.018442 0.017776 -0.006297 -0.0091194
0.0039983 0.0054581 0.0033451 0.0010096 0.0022494 -0.0013703 -0.018287 0.017607
-0.17014 0.15098 -0.025841 0.016908
-0.0039654 -0.0030669 0.003244 0.00039103 0.001337 0.0042026 -0.0066653 -0.0087422
-0.025827 0.016846 -0.1959 0.18458
920000000 -0.10783 0.25964 0.0041748 0.038557 -0.0092681 -0.0053352 -0.0022219 0.0014989
0.00096654 0.0019279 0.002955 -0.0013303
0.0041837 0.038551 -0.26965 0.29808 0.027855 0.023349 0.0013902 0.0011775
0.0077271 0.0003541 0.0047163 -0.0026816
-0.0093293 -0.005343 0.027993 0.023296 0.058076 0.31037 0.0019013 -3.0614e-07
0.00085088 5.6921e-05 0.0010043 -0.0015198
-0.002143 0.0015051 0.0013312 0.0011487 0.0018968 -3.1237e-06 -0.11485 0.25668
-0.011783 0.030631 0.0039148 -0.0068962
0.00091911 0.0018758 0.0076718 0.00010531 0.00084999 3.5866e-05 -0.011708 0.030678
-0.16041 0.15711 -0.0010949 0.02748
0.0029512 -0.0014098 0.0046821 -0.0027345 0.00090214 -0.0015986 0.0040226 -0.0069115
-0.0011443 0.027474 -0.20346 0.19853
980000000 -0.061973 0.28089 0.016154 0.030503 -0.0097391 0.0041801 0.0016642 0.0037214
0.0040893 -0.001374 -0.0032672 -0.0026423
0.016125 0.030511 -0.21739 0.33393 0.033322 0.0060068 0.0020506 -1.3199e-06
0.0018474 -0.0060258 -0.00039684 -0.0029258
-0.0097303 0.0041704 0.033368 0.0058968 0.10404 0.30519 0.00078267 -0.0011545
0.00055432 -0.0018312 0.0013417 -0.00026729
0.0015873 0.0037187 0.0020292 -4.8814e-05 0.00078422 -0.0011376 -0.076954 0.26731
0.0067286 0.029534 -0.0094905 -0.0078015
0.0041043 -0.0013618 0.001864 -0.0060847 0.00054733 -0.0018269 0.0068905 0.02962
-0.12664 0.18762 0.0052874 0.019674
-0.0032494 -0.0026575 -0.00042458 -0.0029352 0.0013342 -0.00028573 -0.0094574 -0.0077605
0.0052752 0.019653 -0.16146 0.24445
1040000000 -0.021539 0.29054 0.032823 0.019899 -0.00169 0.0071574 0.002657 0.00087751
0.00059269 -0.0034604 -1.4891e-05 -0.0017767
0.032807 0.019923 -0.18266 0.34823 0.030395 -0.014123 0.0016409 -0.0017273
-0.0020188 -0.0027069 -0.0012749 -0.0032377
-0.0016489 0.0071948 0.03036 -0.014222 0.14996 0.29301 -0.00048594 -0.0016852
-0.0015915 -0.0010829 -0.00063151 -0.0010717
0.002647 0.00081736 0.0016353 -0.0017592 -0.00048218 -0.0016997 -0.050278 0.27754
0.018642 0.019086 -0.0027441 0.0010594
0.00055922 -0.0034758 -0.0020887 -0.00267 -0.0015595 -0.0011022 0.01864 0.019096
-0.094168 0.19507 0.013994 0.01883
5.9929e-05 -0.0017895 -0.0012484 -0.0032097 -0.00071635 -0.00098225 -0.0026385 0.0010448
0.013992 0.018796 -0.14054 0.26645
1100000000 0.023531 0.30069 0.036803 -0.0026703 0.0029036 0.0043468 0.0024514 -0.00092758
-0.0020629 -0.0029019 -0.0040577 -0.00014485
0.036734 -0.0026119 -0.13931 0.3674 0.01636 -0.027811 -2.9171e-05 -0.0018434
-0.0035917 -0.00091456 -0.0035354 -0.00050908
0.0029427 0.0043345 0.016283 -0.027941 0.19639 0.27419 -0.0020383 9.7982e-05
-0.001861 0.00048276 -0.0012109 -0.00038839
0.0024741 -0.0009362 -2.5692e-05 -0.0018385 -0.0020427 9.0915e-05 -0.010364 0.28313
0.024433 0.0060952 -0.0025507 0.00011392
-0.0020892 -0.0029057 -0.0036481 -0.00089373 -0.0018952 0.00053385 0.024423 0.0059967
-0.074413 0.20958 0.019988 0.0094374
-0.0040575 -0.00010056 -0.0035386 -0.00044113 -0.0011999 -0.0004214 -0.002557 0.00019361
0.019948 0.0094629 -0.093843 0.29619
1160000000 0.074217 0.29767 0.025252 -0.020064 0.0030328 -0.00034449 -7.3095e-05 -0.0023424
-0.0041089 -0.00099018 -0.0012065 0.0041133
0.025235 -0.02002 -0.096373 0.37288 -0.0029325 -0.029609 -0.0015345 -0.001801
-0.0027711 0.002531 -0.0016918 0.0019308
0.0030462 -0.00034066 -0.0030229 -0.029637 0.23977 0.24454 -0.00092547 0.0017984
-0.00054068 0.0019505 -0.00094561 0.00040989
-3.5841e-05 -0.0023275 -0.0015769 -0.0017815 -0.00091765 0.0017826 0.02833 0.2812
0.021281 -0.0098136 -0.003637 0.005253
-0.0041066 -0.0009231 -0.0028043 0.0025631 -0.00050959 0.0019672 0.021331 -0.0098288
-0.040539 0.21741 0.018873 -3.7492e-05
-0.0012488 0.004114 -0.0017085 0.0019391 -0.00097695 0.00048122 -0.0036344 0.0052374
0.018828 -7.164e-06 -0.047308 0.29988
1220000000 0.11795 0.28902 0.011944 -0.030203 -0.0013355 -0.0010552 0.00016536 -0.0010164
-0.0028563 0.0022576 0.001056 0.0022396
0.011951 -0.030143 -0.05203 0.3871 -0.016796 -0.022026 -0.0026786 0.00044935
9.1929e-06 0.0032219 -0.0008788 0.0019436
-0.0013296 -0.0010804 -0.01693 -0.021997 0.27935 0.20647 0.00073032 0.001865
0.00054037 0.0013688 0.00035685 0.00076897
0.00016259 -0.00097947 -0.0026579 0.00046392 0.00073767 0.001867 0.068362 0.27384
0.011021 -0.016567 0.0021266 0.0016621
-0.0028409 0.0023054 4.3258e-05 0.0032213 0.00050784 0.0013619 0.010958 -0.016544
-0.017401 0.22776 0.014637 -0.013135
0.0010401 0.002195 -0.00085038 0.0019682 0.00042617 0.00076082 0.0021918 0.0016132
0.014644 -0.013171 -0.016953 0.31645
1280000000 0.16862 0.26942 -0.0069946 -0.029327 -0.0019097 0.0023017 -0.00089414 -0.0021803
-0.00084984 0.0033052 0.0027715 0.0014506
-0.006988 -0.02931 -0.0055138 0.37947 -0.02432 -0.0089479 -0.0010167 0.0014952
0.0017465 0.0018249 0.00071724 0.0020729
-0.0018757 0.00233 -0.024394 -0.0088271 0.3105 0.16332 0.0016583 -1.37e-05
0.0011852 0.00026892 0.00046697 0.00023771
-0.00088524 -0.0021849 -0.0010132 0.0015009 0.0016431 -7.2858e-06 0.10546 0.25826
0.0014085 -0.019084 -6.956e-06 0.00033262
-0.00081761 0.0033054 0.0017414 0.0018142 0.0011844 0.00025391 0.0013871 -0.019173
0.018926 0.23163 0.003482 -0.015768
0.0027817 0.0014697 0.00068255 0.0020902 0.00043314 0.00024215 3.5123e-05 0.00042075
0.0034485 -0.01572 0.03081 0.31949
1340000000 0.20622 0.23787 -0.017219 -0.019888 0.00069633 0.0045977 -0.0019541 -0.0009695
0.0014581 0.0027946 0.0019503 -0.0013837
-0.017187 -0.019889 0.034255 0.3726 -0.021934 0.0042464 -0.00014837 0.0021008
0.002055 0.00073041 0.0012541 0.00079605
0.00070265 0.0045843 -0.021957 0.0043684 0.33289 0.11649 0.001088 -0.00096275
0.00060687 -0.00050662 0.00010004 0.00018268
-0.0019186 -0.00093646 -0.00012365 0.0020951 0.0011108 -0.00096345 0.13908 0.2386
-0.0080936 -0.016587 0.00095625 0.00049662
0.0014816 0.002792 0.0020507 0.00070618 0.00064026 -0.00049991 -0.0080569 -0.016574
0.048473 0.22828 -0.0039352 -0.014277
0.0019571 -0.0013856 0.0012827 0.0008211 9.7966e-05 0.00018011 0.00093088 0.00043502
-0.0039242 -0.014279 0.068895 0.31536
1400000000 0.24114 0.20151 -0.02366 -0.0082491 0.0052221 0.0033576 -0.0023438 0.0007149
0.0026824 0.0010188 0.00037312 -0.0018301
-0.023625 -0.0082658 0.072818 0.36053 -0.01511 0.012751 0.0013879 0.0013141
0.0013417 -0.00085614 0.0011453 0.00017182
0.0052501 0.0033453 -0.01506 0.012825 0.34665 0.063583 8.6589e-05 -0.0016544
0.00018518 -0.00040893 0.0003199 0.00028115
-0.0023481 0.00072423 0.0013856 0.0013262 8.7404e-05 -0.0016581 0.16944 0.21016
-0.014328 -0.0098 -0.00071487 -0.00010499
0.0026839 0.0010116 0.0013246 -0.00086557 0.0001597 -0.00042533 -0.014367 -0.0098259
0.081944 0.22523 -0.010422 -0.0092374
0.00037156 -0.0018289 0.0011437 0.00015321 0.00033277 0.00017616 -0.00062655 -8.1786e-05
-0.010403 -0.0092737 0.11381 0.30551
1460000000 0.26507 0.15847 -0.02079 0.0044064 0.0057612 -0.0018134 -0.0015783 0.0018033
0.0023368 -0.00038471 -0.00026363 -0.0011021
-0.02077 0.0043804 0.10773 0.3389 -0.005862 0.015848 0.0017121 0.00021436
0.00090098 -0.001336 0.0012754 -0.00059254
0.0057384 -0.0018309 -0.0057941 0.015895 0.35379 0.0098459 -0.0012496 -0.0012362
0.00021867 -0.00017828 0.00075182 -0.00034588
-0.001558 0.0018132 0.0017427 0.00020472 -0.0012622 -0.0012204 0.19654 0.18105
-0.015493 -0.0031933 -0.0009281 0.002003
0.0023434 -0.00037966 0.00090342 -0.0013072 0.00020022 -0.00017388 -0.015495 -0.0031637
0.11147 0.21209 -0.012359 -0.0030749
-0.00026794 -0.0010665 0.0012833 -0.00059308 0.00085345 -0.00026537 -0.00094312 0.0019654
-0.012323 -0.0030465 0.14695 0.28515
1520000000 0.2791 0.11744 -0.015206 0.010081 0.0034942 -0.0043102 0.00020068 0.0027184
0.0022441 -0.0019902 -0.0012964 -0.00010602
-0.015203 0.010056 0.14179 0.32492 0.0021243 0.013174 0.001663 -0.00074688
4.8882e-05 -0.0010706 0.00033846 -0.0010731
0.0034835 -0.0043125 0.0021766 0.013191 0.34736 -0.045676 -0.001025 -0.00031767
0.00069614 -0.00099717 0.00010592 -0.00021068
0.00020284 0.0026991 0.0016624 -0.00075979 -0.0010451 -0.00032521 0.22067 0.14291
-0.014884 0.0026568 0.0016316 0.0021379
0.0022465 -0.0020024 5.6574e-05 -0.0010802 0.00068705 -0.00097647 -0.014876 0.0026872
0.14025 0.19993 -0.01222 0.0018157
-0.0012893 -9.9094e-05 0.00034591 -0.0010902 9.8598e-05 -0.00022106 0.001625 0.002116
-0.012221 0.0017766 0.18031 0.26601
1580000000 0.28982 0.071378 -0.0084324 0.013517 -0.00098083 -0.00513 0.0015754 0.0018297
-0.00021908 -0.0022915 -0.00018829 0.00049495
-0.0084355 0.01349 0.16973 0.3001 0.0057906 0.0079022 0.00058703 -0.0015755
-0.00044844 -0.0010947 -0.00018242 -0.00091278
-0.0010257 -0.0051416 0.005854 0.0078794 0.32843 -0.10347 -0.001573 0.00046628
-0.00036165 -0.001302 0.00034303 -0.00068089
0.001571 0.0018513 0.00057039 -0.0015925 -0.001581 0.00047507 0.23513 0.1031
-0.011389 0.0075642 0.0022783 0.00069526
-0.00022586 -0.0023054 -0.00046508 -0.0010756 -0.00037207 -0.0013571 -0.011371 0.0076188
0.16527 0.18295 -0.0096578 0.007692
-0.00017553 0.00046587 -0.00017991 -0.00089488 0.00032209 -0.00066239 0.0022875 0.00070196
-0.0096445 0.0077065 0.2129 0.24004
1640000000 0.29307 0.030252 -0.0014887 0.012354 -0.0030698 -0.0027709 0.002739 0.0010715
-0.00088002 -0.0016317 -0.00038966 0.00064833
-0.0014977 0.012344 0.19926 0.27584 0.0060641 0.0027859 -0.00059647 -0.0018284
-0.00097322 -0.0005263 -0.00051944 -0.00069308
-0.0030261 -0.0027603 0.0060826 0.0027528 0.30026 -0.1522 -0.00077418 0.0013661
-0.0011424 -0.0010614 -0.00026402 -0.00041358
0.0027586 0.0010537 -0.00061314 -0.0018241 -0.00078712 0.0013343 0.24793 0.054044
-0.0070559 0.0088356 0.0026288 -0.00087239
-0.00087522 -0.0016225 -0.00098945 -0.00050755 -0.001114 -0.001062 -0.0070499 0.0088619
0.18916 0.16017 -0.0045699 0.0097802
-0.00035811 0.00065834 -0.0005206 -0.00068044 -0.00030492 -0.00040729 0.0026094 -0.0008336
-0.0045657 0.0097569 0.23882 0.20979
1700000000 0.28712 -0.015112 0.0019579 0.0095279 -0.0038695 0.00018345 0.0031861 -0.0012051
-0.0020725 -0.00059841 0.00061033 0.00044862
0.0019293 0.0095306 0.21809 0.24448 0.0035678 -0.00031429 -0.0014777 -0.00067343
-0.00084628 -0.00013196 -0.00095928 -0.00051013
-0.0038941 0.0002338 0.0035716 -0.00032226 0.25814 -0.19249 0.0002306 0.0016369
-0.0021824 -0.00013714 -0.00049302 -0.00080927
0.0031808 -0.001239 -0.0014848 -0.00067806 0.00023459 0.0016219 0.24521 0.0036324
-0.004193 0.0092832 0.0015218 -0.0023564
-0.0020818 -0.00058039 -0.00085544 -0.00012298 -0.0021573 -0.0001446 -0.004176 0.0093231
0.20784 0.14055 0.00018555 0.010023
0.00064241 0.0004287 -0.00096857 -0.00050158 -0.00049349 -0.00081424 0.0015366 -0.002351
0.00016964 0.010058 0.25638 0.17619
1760000000 0.27575 -0.06401 0.0043432 0.0061694 -0.0023741 0.0012043 0.0014098 -0.0035003
-0.001306 0.000674 0.00029246 -0.00064632
0.0043329 0.0061746 0.24418 0.20503 0.0009614 -0.0019068 -0.0012682 0.00010364
-0.0011983 0.00089399 -0.00058505 0.00039649
-0.002341 0.001238 0.00094682 -0.0018987 0.21026 -0.22574 0.0010581 0.0013092
-0.0012775 0.0015648 -0.0012217 -0.00060316
0.0014227 -0.0034981 -0.0012851 0.0001188 0.0010778 0.0012951 0.236 -0.04831
-0.0010102 0.0084929 -0.00023363 -0.0024047
-0.0013198 0.00066985 -0.0012062 0.00089285 -0.0012776 0.0015745 -0.00096546 0.0084799
0.22348 0.1065 0.00423 0.0074742
0.00028722 -0.00064319 -0.00059969 0.00040624 -0.0013285 -0.00062267 -0.00025799 -0.0024691
0.004267 0.0074106 0.26995 0.13877
1820000000 0.25249 -0.10138 0.0044228 0.0026621 -2.8238e-05 0.0027238 -0.00093376 -0.0031549
-0.0010927 0.00095712 -0.00011728 -0.00021057
0.0044045 0.0026475 0.25497 0.17554 -0.0014721 -0.00028294 -0.0013864 0.00099923
-0.00014357 0.0013385 -0.00064718 0.00059108
-4.3697e-05 0.0026736 -0.0014684 -0.00027719 0.15978 -0.24172 0.001785 0.00050369
-0.00017031 0.0025216 -0.0016279 0.00039532
-0.00099374 -0.0031856 -0.0013815 0.00099599 0.0017128 0.00046655 0.20621 -0.095852
0.00058035 0.0068686 -0.0017852 -0.001785
-0.0010656 0.00095039 -0.00012942 0.0013356 -0.00017962 0.0024148 0.00055475 0.0069102
0.24204 0.078029 0.0053411 0.0035964
-0.00012881 -0.00020723 -0.00064861 0.00058696 -0.0015654 0.00046525 -0.0017831 -0.0016894
0.0053345 0.0036199 0.27312 0.1033
1880000000 0.21802 -0.14242 0.0020953 0.00042847 -0.00054228 0.0023222 -0.0029951 -0.0023798
-0.0002326 0.001725 0.00019764 -0.00059877
0.0020851 0.00043923 0.25957 0.12893 -0.0035072 0.0020017 -0.0002179 0.0018252
0.00060946 0.001445 0.00016613 0.0010378
-0.00052438 0.0023309 -0.0034957 0.0020504 0.10764 -0.25122 0.0020637 -0.0010508
0.0016637 0.0018817 -0.0010194 0.0014774
-0.0029721 -0.0023256 -0.00018536 0.0018252 0.0021007 -0.0010442 0.16519 -0.1366
0.00135 0.0047205 -0.0023343 0.0002777
-0.00022476 0.0017266 0.00063109 0.0014737 0.0017359 0.0019073 0.0013198 0.0046957
0.24688 0.046717 0.0055146 0.0013196
0.00018842 -0.00062088 0.00016708 0.0010306 -0.0010715 0.0014632 -0.0024229 0.00025148
0.0055471 0.0012604 0.27379 0.068882
1940000000 0.17886 -0.16838 -0.00013239 -0.0011367 0.0016398 0.0022575 -0.0038895 0.00035336
0.0012005 0.0010585 -0.00074018 -0.00032175
-0.00010765 -0.001123 0.26071 0.097806 -0.0019073 0.0049915 0.0011275 0.0013099
0.0020635 0.00061418 0.00095927 0.00035
0.0016964 0.0022525 -0.0018531 0.0050272 0.062789 -0.2439 0.00064178 -0.0025796
0.0025455 0.0003791 0.00031067 0.0016597
-0.0039411 0.00037896 0.0011272 0.0012843 0.00063053 -0.0025057 0.11242 -0.16679
0.00026734 0.0033609 -0.0015211 0.0015276
0.0011762 0.0010377 0.0020594 0.00055784 0.0025432 0.00036334 0.00031165 0.0033716
0.25057 0.0086413 0.004171 -0.0022961
-0.0007764 -0.00030781 0.00094221 0.00030839 0.00027228 0.0016478 -0.0014173 0.0015516
0.0041192 -0.0022178 0.2632 0.033122
2000000000 0.13334 -0.18383 -0.0037976 0.00091328 0.0030917 0.001558 -0.0023743 0.003705
0.0010964 0.00045979 -0.0005967 0.00039712
-0.0038561 0.00094895 0.24722 0.062502 -0.0010003 0.0070651 0.001692 0.00046381
0.0014089 -0.0013022 0.00047267 -5.2314e-05
0.0030618 0.0015715 -0.00099072 0.0071156 0.019535 -0.23032 -0.0014582 -0.0016753
0.0020701 -0.001197 0.0016287 0.0014303
-0.0023604 0.0037186 0.0016947 0.00042878 -0.0013813 -0.001647 0.058914 -0.17672
-0.0015022 0.0035331 -0.00026275 0.0023114
0.0011573 0.00043101 0.0014225 -0.0013225 0.0020742 -0.0012082 -0.0015045 0.0034429
0.2463 -0.024484 0.00081344 -0.0032564
