!Keysight Technologies,M9804A,MY58100912,A.14.10.03
!Date: Thursday, April 27, 2023 10:28:33
!Correction: S11(C  6-Port  ) 
!S12(C  6-Port  ) 
!S13(C  6-Port  ) 
!S14(C  6-Port  ) 
!S15(C  6-Port  ) 
!S16(C  6-Port  ) 
!S21(C  6-Port  ) 
!S22(C  6-Port  ) 
!S23(C  6-Port  ) 
!S24(C  6-Port  ) 
!S25(C  6-Port  ) 
!S26(C  6-Port  ) 
!S31(C  6-Port  ) 
!S32(C  6-Port  ) 
!S33(C  6-Port  ) 
!S34(C  6-Port  ) 
!S35(C  6-Port  ) 
!S36(C  6-Port  ) 
!S41(C  6-Port  ) 
!S42(C  6-Port  ) 
!S43(C  6-Port  ) 
!S44(C  6-Port  ) 
!S45(C  6-Port  ) 
!S46(C  6-Port  ) 
!S51(C  6-Port  ) 
!S52(C  6-Port  ) 
!S53(C  6-Port  ) 
!S54(C  6-Port  ) 
!S55(C  6-Port  ) 
!S56(C  6-Port  ) 
!S61(C  6-Port  ) 
!S62(C  6-Port  ) 
!S63(C  6-Port  ) 
!S64(C  6-Port  ) 
!S65(C  6-Port  ) 
!S66(C  6-Port  ) 
!S6P File: Measurement: :
# Hz S  RI   R 50
500000000 -0.33372 -0.052662 -0.010695 -0.0010884 -0.0078038 0.012802 -0.0050811 0.012272
0.011823 0.00554 -0.0040818 0.0084638
-0.01082 -0.00074749 -0.41723 -0.062731 0.0088118 -0.01009 0.0012789 0.011594
0.007694 0.0028837 0.0018608 0.01324
-0.0083675 0.013658 0.007978 -0.010664 -0.26636 0.20016 0.0066954 0.0034872
-0.0017999 0.0085713 0.00053434 0.012563
-0.0046593 0.012596 0.00093125 0.011861 0.0060947 0.0036756 -0.33096 0.044382
-0.018645 -0.0059802 0.015613 0.025099
0.012237 0.0054899 0.0079424 0.0028229 -0.0014011 0.0090553 -0.018147 -0.0067668
-0.24954 -0.19168 -0.025308 0.0038109
-0.0047711 0.0090319 0.00099473 0.013407 -0.0009483 0.011644 0.016318 0.026523
-0.025741 0.0032251 -0.27479 -0.11787
560000000 -0.31945 0.11413 -0.022372 -0.064199 -0.00039136 0.013366 0.0065059 0.0096836
0.0096673 0.0041117 0.010494 0.0079425
-0.02236 -0.06479 -0.37588 0.098763 -0.04034 -0.038032 0.013743 0.0032868
-0.012478 -0.0043028 0.0038732 -0.00017192
0.0002922 0.013635 -0.041518 -0.037274 -0.18538 0.25174 -7.7074e-05 -0.0047991
0.019252 0.004904 0.006879 -0.0049905
0.0061722 0.010264 0.01357 0.0036721 -0.0010937 -0.0047284 -0.30916 0.13549
0.0067818 -0.02352 0.0046145 -0.020143
0.011905 0.004018 -0.012751 -0.0032963 0.0181 0.0044946 0.0068347 -0.022186
-0.30945 -0.007583 0.0080107 -0.04574
0.010098 0.008208 0.0035074 -0.00056735 0.0077863 -0.0063204 0.0047125 -0.021676
0.0075349 -0.048232 -0.33083 0.028888
620000000 -0.27692 0.094252 -0.022743 0.0085024 0.003668 0.01023 0.0081952 -0.0033075
0.012765 -0.0023616 0.0010129 -0.0012685
-0.022894 0.0085071 -0.40337 0.050263 -0.018145 0.00057672 -0.001393 -0.0019852
0.012213 -0.0061236 0.0011846 -0.0033155
0.0039072 0.0098589 -0.018151 0.00073621 -0.15504 0.26084 -0.00081268 -0.0054558
-0.0028194 -0.0034737 0.0097621 -0.0034657
0.0081072 -0.0032109 -0.0016893 -0.0017651 -0.00070415 -0.0050887 -0.26586 0.14488
-0.038568 -0.020348 0.012017 0.025868
0.013125 -0.0028385 0.012384 -0.0068287 -0.0023688 -0.003619 -0.037703 -0.017816
-0.23301 -0.043721 -0.039819 0.012667
0.000198 -0.00048304 0.00059484 -0.002694 0.010125 -0.0013573 0.014926 0.024896
-0.040816 0.013487 -0.25409 -0.0048778
680000000 -0.23928 0.18505 -0.026424 -0.014173 0.0055364 0.0059054 0.0018101 -0.0079001
-0.0027599 -0.011809 0.0043355 -0.006828
-0.026439 -0.014371 -0.3897 0.15063 -0.03267 -0.0018016 -0.0010496 -0.00053877
-0.0019114 -0.0095109 -0.0012954 -0.001684
0.0051279 0.0056073 -0.032622 -0.0019922 -0.10414 0.28096 -0.00085458 -0.0008608
-0.0017412 0.00041049 -0.0031568 -0.0088748
0.001535 -0.0082549 -0.001513 -0.0010871 -0.0011694 -0.0012034 -0.21971 0.19693
-0.023821 -0.0073121 -0.0088986 -0.011613
-0.0025159 -0.011498 -0.0018129 -0.009453 -0.0018206 0.000324 -0.023709 -0.007575
-0.27892 0.05781 -0.006804 -0.0065954
0.0042205 -0.007408 -0.00050513 -0.0019901 -0.0017249 -0.0087636 -0.0076936 -0.010445
-0.0072919 -0.0062424 -0.25968 0.098396
740000000 -0.19307 0.17735 -0.039883 0.026781 0.013602 -0.0047429 -0.00021128 -0.0042377
-0.0043337 -0.0025067 -0.0067686 0.0032454
-0.039535 0.026218 -0.33476 0.16919 -0.036462 0.03483 -0.00040715 -0.0057042
-0.012218 0.0068281 -0.0019045 -0.0057602
0.013709 -0.0047901 -0.037039 0.035338 -0.070021 0.27953 -0.0020553 0.0035183
-0.002541 -0.0055905 -0.0017078 0.00081793
-0.00026494 -0.0042773 -0.00028734 -0.0055628 -0.0024883 0.003369 -0.2038 0.20521
-0.042701 -0.006889 0.022201 0.014424
-0.0041269 -0.0021871 -0.012169 0.0064461 -0.0030173 -0.0063471 -0.043396 -0.0081514
-0.18048 0.081989 -0.041304 0.0014476
-0.0071203 0.0037387 -0.0022625 -0.0048091 -0.0017581 0.0012107 0.022278 0.015497
-0.041256 0.0018928 -0.24794 0.10478
800000000 -0.16176 0.22171 -0.022662 0.016153 0.0053365 -0.010815 -0.0048711 -0.0025298
-0.0042816 0.0025006 0.0034656 7.769e-05
-0.022696 0.016363 -0.34094 0.23961 -0.0083836 0.033771 -0.0024307 0.0019002
-0.0010772 0.0030675 0.00044333 0.0051127
0.005532 -0.010437 -0.0086108 0.034034 -0.030952 0.30196 0.00060097 0.0012748
5.6794e-05 0.0037312 -0.0022497 0.00055584
-0.0048484 -0.0023504 -0.0025287 0.0020919 0.00066018 0.0015592 -0.17396 0.23245
-0.02838 0.013068 0.013799 -0.010458
-0.0041004 0.0025686 -0.0011869 0.0030611 0.00042712 0.0037792 -0.028046 0.012912
-0.21982 0.11269 -0.016246 0.019224
0.0034971 4.4512e-05 0.00033083 0.0050275 -0.0027688 0.00027932 0.012682 -0.011075
-0.016162 0.01959 -0.23983 0.15306
860000000 -0.12738 0.24093 -0.017942 0.030222 -0.0027872 -0.01005 -0.0018811 0.00056136
0.004178 0.0052564 -0.0027707 -0.0023619
-0.017884 0.030263 -0.29244 0.282 0.0072642 0.034418 8.937e-05 0.0021859
0.0035383 0.00037699 0.0041637 0.00072443
-0.0028032 -0.010176 0.0075368 0.034364 0.016337 0.31072 -0.00075196 -8.2164e-05
0.0023174 -0.001415 0.0018938 0.0045034
-0.0020329 0.00071751 -3.6745e-05 0.0023123 -0.00066508 -8.6958e-05 -0.13706 0.24254
-0.018168 0.018055 -0.0066137 -0.0089968
0.0038579 0.0053276 0.0035667 0.00025529 0.0020762 -0.0014563 -0.017989 0.018458
-0.16524 0.16293 -0.023287 0.016648
-0.0030073 -0.002442 0.0037901 0.0003579 0.0018071 0.0041589 -0.0057931 -0.0084363
-0.023377 0.017034 -0.18774 0.1986
920000000 -0.10343 0.26451 0.0044245 0.038079 -0.0094758 -0.0050469 -0.0019897 0.0016798
0.0010925 0.0021992 0.0025393 -0.0013541
0.004355 0.038081 -0.26552 0.30363 0.027958 0.022757 0.0014498 0.0012815
0.0075371 -0.00010269 0.0040653 -0.0027804
-0.009432 -0.0049884 0.028048 0.022628 0.061692 0.3122 0.0019471 -1.7463e-05
0.0010653 -0.00010165 0.0010152 -0.001273
-0.001809 0.0016481 0.0013716 0.0014467 0.0020821 -1.4535e-05 -0.11251 0.25991
-0.010978 0.030545 0.0036633 -0.0066152
0.0010936 0.0020165 0.0074677 -0.00019366 0.00099225 -0.00025844 -0.01106 0.031054
-0.15252 0.16971 -0.0016178 0.026419
0.0025858 -0.0012362 0.0035028 -0.0026114 0.00069753 -0.00075822 0.0038454 -0.0067483
-0.0011684 0.026315 -0.19461 0.21186
980000000 -0.056938 0.28464 0.016868 0.030356 -0.0092757 0.0042357 0.0018484 0.0038132
0.0039387 -0.0017811 -0.00281 -0.0024156
0.016695 0.030333 -0.21246 0.33835 0.03313 0.0055202 0.0021329 -6.3755e-05
0.0016814 -0.0061587 -0.00015982 -0.0027231
-0.0093372 0.0042323 0.033248 0.00531 0.10765 0.30632 0.00075108 -0.0011432
0.00048868 -0.0020065 0.0015219 -0.0002386
0.0019058 0.0037249 0.0020795 -6.0115e-05 0.00081696 -0.001235 -0.074848 0.27056
0.0072518 0.03023 -0.009099 -0.006808
0.0040365 -0.0018687 0.0016262 -0.0062762 0.00046633 -0.0019623 0.0071509 0.030529
-0.11891 0.198 0.0063957 0.01876
-0.0029011 -0.0022766 -5.0781e-05 -0.0028217 0.0015113 -5.2881e-05 -0.0088802 -0.0067946
0.006436 0.019501 -0.15215 0.25523
1040000000 -0.015936 0.29378 0.03273 0.019093 -0.0015308 0.007035 0.0024604 0.00079021
0.00056964 -0.003593 -0.00037961 -0.0015173
0.032729 0.019037 -0.1775 0.3518 0.030243 -0.014393 0.0015982 -0.0018132
-0.0019726 -0.0027929 -0.0010995 -0.0029936
-0.0014634 0.007048 0.030043 -0.014563 0.15334 0.29366 -0.0004632 -0.0016254
-0.0015146 -0.00096017 -0.0005765 -0.0010185
0.0024936 0.00072676 0.0014663 -0.0018376 -0.00052676 -0.0015867 -0.04736 0.28057
0.019386 0.018754 -0.0024006 0.0012787
0.00041437 -0.0034776 -0.0019368 -0.0027288 -0.0015105 -0.0011191 0.019393 0.018772
-0.085212 0.20456 0.013791 0.017824
-0.00036155 -0.0014155 -0.0011677 -0.0029858 -0.00054486 -0.0011 -0.0024225 0.0012648
0.013404 0.018073 -0.12845 0.27457
1100000000 0.029278 0.30274 0.036306 -0.0034291 0.0027764 0.0040626 0.0025849 -0.0011893
-0.0021922 -0.0031749 -0.0037825 -0.00041495
0.036266 -0.0034275 -0.13421 0.36974 0.015933 -0.027761 0.0001296 -0.0019561
-0.0036811 -0.0010436 -0.003486 -0.00075359
0.0027491 0.0041156 0.015817 -0.027912 0.19973 0.27428 -0.0019498 8.0135e-05
-0.001793 0.00040064 -0.0010788 -0.00053871
0.0026197 -0.0010615 0.00012768 -0.0019808 -0.0019602 0.00012069 -0.0066427 0.28536
0.025064 0.0054684 -0.0025683 0.00024054
-0.0022632 -0.0032015 -0.0035807 -0.0010114 -0.0018585 0.00053749 0.025201 0.0053879
-0.064196 0.21723 0.019524 0.0076134
-0.0038648 9.6515e-06 -0.0034733 -0.00088014 -0.00085916 -0.00052914 -0.0025255 0.00034871
0.019547 0.0074316 -0.082806 0.30343
1160000000 0.08015 0.29883 0.024643 -0.020497 0.0027667 -0.00037459 -0.00020199 -0.0023647
-0.0039453 -0.00078639 -0.00081683 0.0042324
0.024621 -0.020453 -0.091095 0.37451 -0.0032836 -0.029706 -0.0016666 -0.0017764
-0.0027969 0.0025944 -0.0013981 0.0021363
0.0028006 -0.00043363 -0.0033432 -0.029623 0.24276 0.2441 -0.00083234 0.0017427
-0.00062422 0.0019386 -0.00083776 0.00037403
-0.00024284 -0.0024975 -0.0016937 -0.0017149 -0.00075969 0.0018495 0.032124 0.2827
0.021427 -0.010434 -0.0030974 0.0049194
-0.0039126 -0.00083502 -0.0028453 0.0026186 -0.00068589 0.0019982 0.02138 -0.010555
-0.029959 0.22435 0.018024 -0.00055417
-0.0010686 0.0040267 -0.0013831 0.002227 -0.00094759 0.00014532 -0.0030975 0.0046267
0.018051 -0.00056324 -0.036346 0.30536
1220000000 0.12436 0.28926 0.011195 -0.030069 -0.001558 -0.00091495 0.0001355 -0.0009485
-0.0026173 0.0022321 0.00105 0.0019375
0.011229 -0.030029 -0.047021 0.38759 -0.016801 -0.021867 -0.0026203 0.00044657
-3.0002e-05 0.0031241 -0.00092571 0.0018948
-0.0015822 -0.00092244 -0.016966 -0.021877 0.282 0.20599 0.00071418 0.0017638
0.00061853 0.0012491 0.00019526 0.00053582
8.0813e-05 -0.0009438 -0.002623 0.000467 0.00077393 0.0016963 0.072483 0.27432
0.011152 -0.017234 0.0018209 0.0015441
-0.0026538 0.0022043 -1.704e-05 0.0030954 0.00069568 0.0013433 0.011157 -0.017179
-0.0060657 0.23268 0.013538 -0.013326
0.00115 0.00191 -0.00096065 0.0018905 0.00010736 0.000626 0.0017923 0.001405
0.01362 -0.013323 -0.0041975 0.32009
1280000000 0.17455 0.26841 -0.0076344 -0.028885 -0.0019824 0.0024482 -0.00095849 -0.0020956
-0.0008012 0.0031238 0.0026132 0.0013261
-0.0076087 -0.028883 -0.0011408 0.3793 -0.024193 -0.0091406 -0.001037 0.0014902
0.001771 0.0017873 0.00078213 0.0020059
-0.001998 0.0024781 -0.024236 -0.0089953 0.31292 0.1626 0.0016016 -1.6502e-05
0.0012189 0.00029108 0.00035114 0.00018315
-0.00092853 -0.0020844 -0.0010802 0.0014875 0.0015781 -7.4505e-05 0.10961 0.25785
0.0012243 -0.019704 -0.0001368 0.0002642
-0.00075432 0.0031302 0.0017744 0.0018068 0.0013059 7.7208e-05 0.0011823 -0.019689
0.030729 0.23506 0.0026113 -0.015199
0.0026193 0.0012893 0.00078228 0.0019873 0.00019966 0.00034272 5.8641e-05 0.00044024
0.0026535 -0.015151 0.042712 0.32035
1340000000 0.21193 0.23586 -0.017554 -0.019321 0.00071729 0.0047145 -0.0017665 -0.00088389
0.0014661 0.0026138 0.0018084 -0.0013607
-0.017517 -0.019281 0.03829 0.37189 -0.021972 0.0039659 -0.00011521 0.0019896
0.0020268 0.00071027 0.0012032 0.00080452
0.00078344 0.0047478 -0.022053 0.0041135 0.33525 0.11551 0.0011423 -0.00089439
0.00068884 -0.00062833 0.00011448 0.0001949
-0.0018169 -0.00083235 -6.7216e-05 0.0019769 0.0010098 -0.00086994 0.14278 0.23728
-0.0083973 -0.017017 0.00074943 0.00060414
0.001398 0.0026834 0.0021028 0.00071056 0.00058203 -0.00047449 -0.0084718 -0.017059
0.060557 0.23022 -0.0040508 -0.013855
0.0017213 -0.0014088 0.0011706 0.00079839 0.00026788 0.00021288 0.00070725 0.00071444
-0.0040441 -0.013877 0.080781 0.31505
1400000000 0.24586 0.19854 -0.023605 -0.0076789 0.0053668 0.0034176 -0.002232 0.00056342
0.0024176 0.00098493 0.00024522 -0.0015972
-0.023562 -0.0077111 0.076081 0.35958 -0.015513 0.012582 0.0013461 0.0013507
0.0012607 -0.00086674 0.0011708 0.00016983
0.0053284 0.0033708 -0.015418 0.01264 0.34886 0.062521 0.00011769 -0.0016474
8.6313e-05 -0.00041137 0.00027085 0.00023081
-0.0022451 0.00055284 0.0013682 0.0013818 0.00017289 -0.0016238 0.17243 0.20806
-0.014634 -0.010269 -0.00078751 -0.00010732
0.0024482 0.00095698 0.0012531 -0.00088909 2.5382e-05 -0.00047162 -0.014662 -0.010247
0.093851 0.22502 -0.010398 -0.0085746
0.00031613 -0.0016132 0.0012151 0.00015255 0.00013113 0.00039183 -0.00078017 -0.00019485
-0.010404 -0.0086366 0.12488 0.30399
1460000000 0.26925 0.15507 -0.02054 0.0046274 0.0060016 -0.0015838 -0.0015488 0.001779
0.0021175 -0.00034317 -0.00030658 -0.00091702
-0.020493 0.0046628 0.11052 0.33807 -0.0064132 0.015814 0.0017514 0.00016152
0.00087739 -0.0013677 0.001251 -0.00056896
0.005868 -0.0017483 -0.0063196 0.01584 0.35568 0.0083523 -0.0012183 -0.0013673
0.00010445 -0.00020164 0.00074383 -0.00025778
-0.001603 0.0018085 0.0017245 0.00016489 -0.0011432 -0.0013035 0.19888 0.1785
-0.016059 -0.0034718 -0.00089794 0.0019789
0.0021242 -0.00036061 0.00089199 -0.0013812 0.00025375 -0.00011511 -0.016121 -0.0034484
0.12302 0.21053 -0.012101 -0.0027914
-0.00032437 -0.00096777 0.0011894 -0.00061631 0.00075075 -0.00027025 -0.00096733 0.0021046
-0.012029 -0.0027396 0.15757 0.28275
1520000000 0.28205 0.11378 -0.014897 0.010255 0.0035409 -0.0045047 0.0001152 0.0026093
0.0021396 -0.0019054 -0.001161 -0.0001799
-0.014891 0.010241 0.14447 0.32395 0.001588 0.013569 0.0016535 -0.00077536
0.00010695 -0.0011135 0.00038035 -0.0010081
0.0035169 -0.0043906 0.0016801 0.013599 0.3492 -0.047478 -0.0011634 -0.00033869
0.00059668 -0.00084664 9.537e-05 -0.00017789
0.0001715 0.0025935 0.0016666 -0.00078678 -0.0010591 -0.00043267 0.22198 0.14013
-0.01548 0.0025745 0.0015224 0.0020906
0.0021283 -0.0019378 6.032e-05 -0.0010503 0.0005342 -0.00098819 -0.015461 0.002623
0.15105 0.19696 -0.011791 0.0018949
-0.0012324 -0.00012112 0.0003422 -0.0010307 9.5363e-05 -0.00026634 0.0016496 0.0020498
-0.011848 0.0018661 0.19059 0.26178
1580000000 0.29235 0.067646 -0.0081674 0.013433 -0.00090638 -0.0052181 0.0015186 0.0019269
-0.00010642 -0.0021467 -0.00031284 0.00042566
-0.0081515 0.013428 0.17219 0.29929 0.0055211 0.0085183 0.00052778 -0.0016205
-0.00060725 -0.0010728 -0.00020591 -0.00085212
-0.00088251 -0.0051893 0.005591 0.0085239 0.32987 -0.1051 -0.001656 0.00055216
-0.0003299 -0.0012363 0.00014196 -0.00055786
0.0015445 0.0019449 0.00051727 -0.0016307 -0.0017955 0.00051771 0.23567 0.10036
-0.012003 0.0077382 0.0022764 0.00074935
-0.00017859 -0.0021451 -0.0005987 -0.0010553 -0.00035067 -0.0012414 -0.012019 0.0078232
0.17514 0.17891 -0.0092031 0.0074694
-0.00029928 0.00042182 -0.00017026 -0.00084972 0.00033773 -0.00076996 0.0021929 0.00071131
-0.0092155 0.0074542 0.22175 0.23492
1640000000 0.29496 0.026546 -0.0013647 0.012324 -0.0030315 -0.0027783 0.0027305 0.0010368
-0.00070241 -0.001607 -0.00038799 0.00057154
-0.0013841 0.012312 0.20194 0.27464 0.0062181 0.0034321 -0.0006534 -0.0018021
-0.0009967 -0.00042365 -0.00051741 -0.00068417
-0.0029375 -0.002778 0.0063144 0.0034299 0.3018 -0.15429 -0.00069834 0.0014951
-0.0010894 -0.00094951 -0.00017658 -0.0003885
0.0026893 0.0010552 -0.00064708 -0.0018217 -0.00073108 0.0016405 0.24771 0.051617
-0.0076387 0.0092877 0.0025123 -0.00080859
-0.00076881 -0.0016066 -0.00098021 -0.00041894 -0.0011995 -0.0009773 -0.0076409 0.0092871
0.19834 0.15486 -0.0045246 0.0094312
-0.00045694 0.00062887 -0.00053093 -0.0006968 -0.00050092 -0.00041787 0.0025142 -0.00082432
-0.0045107 0.0093976 0.24696 0.20359
1700000000 0.28847 -0.018888 0.0020435 0.0094324 -0.0037092 4.7259e-05 0.0031151 -0.001256
-0.0019686 -0.00071659 0.00056332 0.00038875
0.0020492 0.0094223 0.22057 0.24315 0.0041423 0.00042207 -0.0015367 -0.00061916
-0.00085214 1.6534e-05 -0.00088374 -0.00045566
-0.0036847 -5.3071e-05 0.004148 0.00035716 0.25894 -0.19425 0.00033594 0.001645
-0.0019806 -0.00016843 -0.00038752 -0.00082011
0.0031632 -0.0012432 -0.0015362 -0.00059513 0.00038734 0.0016577 0.24439 0.0016941
-0.0046099 0.0099575 0.0016097 -0.0023005
-0.0019667 -0.00067926 -0.00085738 2.7925e-05 -0.00195 -0.00010635 -0.0046165 0.010007
0.21579 0.1344 -2.5368e-05 0.0096192
0.0006824 0.0004159 -0.00088784 -0.0004136 -0.00051993 -0.00077035 0.0015787 -0.0021745
-2.5108e-05 0.0095463 0.26316 0.16924
1760000000 0.27675 -0.067771 0.0043831 0.0062066 -0.0024176 0.0010477 0.0012776 -0.0034416
-0.0014619 0.00063036 0.00037591 -0.00054454
0.0043613 0.0062079 0.24672 0.20339 0.0017657 -0.001514 -0.0012346 0.00014578
-0.0010876 0.00091634 -0.00063979 0.00042741
-0.0025029 0.0011619 0.0017512 -0.0015136 0.2104 -0.22775 0.0012119 0.0010605
-0.0012666 0.0015141 -0.0012335 -0.00061495
0.0012397 -0.0034967 -0.001263 0.00014558 0.0012402 0.0010057 0.23491 -0.049608
-0.0010434 0.0090603 -0.00025339 -0.0025147
-0.0014313 0.00060385 -0.0011065 0.0009181 -0.0012756 0.0014473 -0.0011688 0.0091114
0.23068 0.099583 0.0038442 0.0071032
0.00034391 -0.00064348 -0.0006935 0.00040455 -0.0012406 -0.00057155 -0.00037314 -0.0025764
0.003894 0.0070374 0.2757 0.1316
1820000000 0.25251 -0.10526 0.0044566 0.0026022 -0.00035719 0.0024887 -0.00092769 -0.0031036
-0.0011637 0.0010034 -0.00018517 -0.00011242
0.0044807 0.0025439 0.25706 0.1733 -0.00068587 -0.00045536 -0.0013516 0.00096265
-6.1482e-05 0.001311 -0.00069437 0.00054237
-0.00034636 0.0025267 -0.00072961 -0.00042339 0.16005 -0.24377 0.0015834 0.00044164
-0.00021724 0.0024103 -0.0015611 0.00037517
-0.0009764 -0.0031018 -0.0013282 0.00095299 0.0016454 0.00021913 0.20503 -0.096336
0.00060714 0.0077396 -0.0017221 -0.0015562
-0.001176 0.0010735 -3.3739e-05 0.0013163 -0.00012401 0.0024787 0.00057319 0.0077248
0.24784 0.070857 0.0046535 0.0035522
-0.00013629 -0.00016317 -0.00061861 0.00057966 -0.0012541 0.00038569 -0.0017837 -0.0015972
0.0046594 0.0035795 0.27741 0.095107
1880000000 0.21756 -0.14611 0.0023054 0.00019737 -0.000521 0.002259 -0.002976 -0.002108
-0.0001787 0.0019678 0.0001828 -0.00044356
0.0023042 0.00019174 0.2617 0.12656 -0.002683 0.0015601 -0.0001911 0.0017431
0.00064635 0.0013979 0.00011813 0.0010411
-0.00052301 0.0022513 -0.0025831 0.0015691 0.10807 -0.2532 0.0018241 -0.00091609
0.0016166 0.0021176 -0.0010342 0.0013029
-0.0030413 -0.0022047 -0.00014854 0.0017599 0.0018599 -0.00082511 0.16457 -0.1365
0.0016195 0.0056687 -0.0025466 0.00046463
-0.00019466 0.0018983 0.00068336 0.0013935 0.0015252 0.0021049 0.0016816 0.0056838
0.25166 0.039112 0.0047455 0.0015395
0.00013935 -0.00056703 0.00011423 0.0010567 -0.0012543 0.0011646 -0.0024698 0.00054582
0.0046505 0.00147 0.27707 0.06115
1940000000 0.17796 -0.17158 -0.00023196 -0.0013875 0.0013143 0.0022008 -0.0035621 0.00046835
0.0014539 0.0011826 -0.00033074 -0.00047844
-0.0002242 -0.0013833 0.26219 0.09486 -0.0015674 0.0040873 0.0011183 0.0013269
0.0019803 0.00052221 0.0010296 0.00048726
0.0013785 0.0022428 -0.0015989 0.004132 0.062107 -0.24598 0.00050692 -0.0024542
0.0024317 0.00042086 0.00057209 0.0017688
-0.0036712 0.00041274 0.001082 0.0012381 0.00050394 -0.0024263 0.11218 -0.16723
0.0010896 0.0041003 -0.0013058 0.0017904
0.0014701 0.001184 0.0019925 0.00047038 0.002503 0.00038469 0.0011377 0.004092
0.2545 0.0010888 0.0035102 -0.001683
-0.00046828 -0.00044946 0.001065 0.00042939 0.0004505 0.0017954 -0.001278 0.0016858
0.0036352 -0.001615 0.26554 0.024964
2000000000 0.13198 -0.18644 -0.0040157 0.00065026 0.002789 0.0016186 -0.0025145 0.0037332
0.0012916 0.00032493 -0.00065767 0.0004302
-0.003933 0.00068682 0.2483 0.059267 -0.00093689 0.0059751 0.0015602 0.00033083
0.0014563 -0.0012683 0.00061714 8.7039e-05
0.0026901 0.0015284 -0.00083387 0.0059806 0.019406 -0.23197 -0.0013231 -0.0013866
0.0021623 -0.0012647 0.0017051 0.0013018
-0.0024357 0.0037478 0.0015409 0.00035159 -0.0014661 -0.0014578 0.059222 -0.17659
-0.00015284 0.0039982 1.4411e-05 0.0022019
0.0012848 0.00037474 0.0014003 -0.0013123 0.002261 -0.0012598 -0.00010664 0.0039704
0.24997 -0.032139 0.00067182 -0.0024697
