!Keysight Technologies,M9804A,MY58100912,A.14.10.03
!Date: Thursday, April 27, 2023 10:28:33
!Correction: S11(C  6-Port  ) 
!S12(C  6-Port  ) 
!S13(C  6-Port  ) 
!S14(C  6-Port  ) 
!S15(C  6-Port  ) 
!S16(C  6-Port  ) 
!S21(C  6-Port  ) 
!S22(C  6-Port  ) 
!S23(C  6-Port  ) 
!S24(C  6-Port  ) 
!S25(C  6-Port  ) 
!S26(C  6-Port  ) 
!S31(C  6-Port  ) 
!S32(C  6-Port  ) 
!S33(C  6-Port  ) 
!S34(C  6-Port  ) 
!S35(C  6-Port  ) 
!S36(C  6-Port  ) 
!S41(C  6-Port  ) 
!S42(C  6-Port  ) 
!S43(C  6-Port  ) 
!S44(C  6-Port  ) 
!S45(C  6-Port  ) 
!S46(C  6-Port  ) 
!S51(C  6-Port  ) 
!S52(C  6-Port  ) 
!S53(C  6-Port  ) 
!S54(C  6-Port  ) 
!S55(C  6-Port  ) 
!S56(C  6-Port  ) 
!S61(C  6-Port  ) 
!S62(C  6-Port  ) 
!S63(C  6-Port  ) 
!S64(C  6-Port  ) 
!S65(C  6-Port  ) 
!S66(C  6-Port  ) 
!S6P File: Measurement: :
# Hz S  RI   R 50
500000000 -0.33417 -0.051912 -0.0106 -0.00096843 -0.0085727 0.013159 -0.004538 0.012834
0.012752 0.0049609 -0.0039987 0.0091362
-0.010582 -0.00097078 -0.41674 -0.062186 0.0081107 -0.010614 0.0016372 0.012055
0.0079926 0.003168 0.0020921 0.014018
-0.0085527 0.013177 0.0081061 -0.010642 -0.26721 0.19997 0.0069389 0.0034513
-0.0016311 0.008808 0.00065393 0.01217
-0.0045682 0.012839 0.001642 0.012089 0.0069415 0.0034626 -0.33196 0.043408
-0.019331 -0.0053705 0.016252 0.024762
0.012789 0.0049264 0.0080009 0.0031583 -0.0016207 0.0088142 -0.019332 -0.0053352
-0.24909 -0.19142 -0.026726 0.0038292
-0.004074 0.0091726 0.0020866 0.01406 0.00067169 0.012182 0.016273 0.024738
-0.02673 0.0038093 -0.2731 -0.11761
560000000 -0.3187 0.1138 -0.022061 -0.064733 -9.2929e-05 0.013349 0.0053694 0.010813
0.0099412 0.0047361 0.010062 0.0085347
-0.021972 -0.064685 -0.37622 0.099768 -0.042041 -0.037754 0.013942 0.0035279
-0.011812 -0.0044052 0.0040882 0.00084872
-3.2468e-05 0.01336 -0.042161 -0.037688 -0.185 0.25116 -0.00056083 -0.0049088
0.018373 0.0051402 0.0070934 -0.0050705
0.0053805 0.01086 0.013948 0.0034795 -0.00054942 -0.0048969 -0.30685 0.1366
0.0067969 -0.024561 0.0047696 -0.020003
0.0099417 0.0047442 -0.0119 -0.0043704 0.018407 0.0050959 0.006792 -0.024554
-0.31135 -0.011908 0.0098289 -0.048258
0.010079 0.0084275 0.0040961 0.00078745 0.0071154 -0.0050498 0.0047549 -0.020017
0.0098747 -0.048232 -0.33183 0.029809
620000000 -0.27787 0.094062 -0.022979 0.0085448 0.0037929 0.009323 0.0079388 -0.0043681
0.013279 -0.0018837 -6.2526e-05 -0.0019389
-0.022983 0.0085369 -0.40342 0.050255 -0.018148 0.00068461 -0.0014022 -0.0023785
0.011948 -0.0061689 0.0011395 -0.003035
0.0037944 0.0093342 -0.018156 0.00072956 -0.15512 0.26097 -0.00082132 -0.0053377
-0.0031559 -0.0029296 0.0095241 -0.0034134
0.0079351 -0.0043346 -0.0014098 -0.0023801 -0.00081517 -0.0053368 -0.26591 0.14686
-0.037897 -0.019807 0.012543 0.026695
0.013353 -0.0019859 0.011926 -0.0062229 -0.0031743 -0.0029423 -0.037914 -0.019779
-0.23126 -0.04559 -0.04018 0.013061
-8.2683e-05 -0.0019335 0.0011441 -0.0030465 0.0095493 -0.003432 0.012557 0.026678
-0.040164 0.013066 -0.25096 -0.0025186
680000000 -0.23895 0.18458 -0.026387 -0.014525 0.0050285 0.0053767 0.0014311 -0.0073168
-0.0030427 -0.011809 0.004621 -0.0072681
-0.026381 -0.014555 -0.38957 0.15074 -0.032403 -0.00208 -0.0015381 -0.00059909
-0.0018191 -0.0096286 -0.0011608 -0.0020697
0.005023 0.0053612 -0.032452 -0.0019952 -0.10383 0.28081 -0.00081475 -0.00041851
-0.0014394 0.00034244 -0.0026115 -0.0091621
0.0014394 -0.0073231 -0.0015522 -0.00058904 -0.00080989 -0.00042212 -0.22019 0.19776
-0.023691 -0.0083071 -0.0090793 -0.010893
-0.0031189 -0.011772 -0.001848 -0.0096473 -0.0014618 0.00034992 -0.023728 -0.0082782
-0.27862 0.058499 -0.0073715 -0.0070103
0.0045814 -0.0072277 -0.0012038 -0.002053 -0.0026314 -0.0091598 -0.0091132 -0.010901
-0.0073728 -0.0069916 -0.26158 0.097916
740000000 -0.19333 0.17784 -0.039913 0.02633 0.013827 -0.0050042 -0.00066547 -0.0044132
-0.0040234 -0.0029331 -0.0065161 0.00291
-0.039899 0.026267 -0.3354 0.16897 -0.036601 0.034997 -0.00014247 -0.0061814
-0.012587 0.0072915 -0.0018028 -0.0061903
0.013861 -0.0050903 -0.036531 0.035155 -0.070018 0.27845 -0.0021335 0.0035142
-0.0020047 -0.0056613 -0.0015973 0.0010558
-0.00067552 -0.0044321 -0.00017587 -0.0061909 -0.0021414 0.003507 -0.20417 0.20475
-0.041875 -0.007019 0.021949 0.014259
-0.0040519 -0.002908 -0.012573 0.0073483 -0.0020129 -0.0056455 -0.041912 -0.006977
-0.17961 0.083162 -0.040334 0.001616
-0.006542 0.0029209 -0.0018186 -0.0062354 -0.0015958 0.0010512 0.021964 0.014243
-0.040307 0.0016034 -0.24815 0.10471
800000000 -0.16175 0.22125 -0.022844 0.016146 0.0056505 -0.01034 -0.0047595 -0.0022787
-0.0047673 0.0024646 0.0035966 0.00057449
-0.022846 0.016114 -0.34095 0.23956 -0.0086464 0.034058 -0.0024926 0.0020397
-0.0010454 0.002909 0.00068453 0.0052558
0.0056402 -0.010351 -0.0085639 0.03413 -0.031074 0.3024 0.00069917 0.0012554
-6.2496e-06 0.0038511 -0.0021466 0.00059667
-0.004773 -0.0022491 -0.0024828 0.0020404 0.00070119 0.0012344 -0.17374 0.23206
-0.028646 0.013102 0.013739 -0.010932
-0.0047562 0.0024714 -0.0010674 0.0029287 4.2849e-06 0.0038426 -0.028638 0.013161
-0.22 0.11294 -0.016901 0.019585
0.0035805 0.00060826 0.000712 0.00526 -0.0021532 0.00060658 0.013728 -0.010949
-0.016929 0.01956 -0.23926 0.15234
860000000 -0.12731 0.24098 -0.017876 0.030325 -0.002901 -0.010249 -0.0017122 0.00070297
0.0039627 0.0053495 -0.0031625 -0.0029151
-0.017866 0.030285 -0.2926 0.28224 0.0073213 0.034368 0.00016419 0.0020888
0.0035973 0.00080438 0.0035993 0.00022494
-0.0029257 -0.010251 0.0074219 0.034375 0.016327 0.31062 -0.00058686 -4.9608e-05
0.0023273 -0.0012728 0.0018523 0.0042385
-0.0017137 0.00069226 0.00018005 0.0020817 -0.00059285 -4.1877e-05 -0.13734 0.24345
-0.018464 0.018065 -0.006067 -0.0085943
0.0040005 0.0053343 0.0036155 0.00079212 0.0023245 -0.001285 -0.018438 0.0181
-0.16451 0.16249 -0.023518 0.016699
-0.0031879 -0.0029649 0.0035758 0.00021531 0.00187 0.0042221 -0.0060468 -0.008587
-0.023533 0.016677 -0.18894 0.19842
920000000 -0.10374 0.26451 0.0042553 0.038121 -0.0093715 -0.004988 -0.0021378 0.0018492
0.0012281 0.0020644 0.0026862 -0.0014241
0.0042322 0.038087 -0.26557 0.3037 0.027893 0.022812 0.0014523 0.0013252
0.0073459 -5.2471e-05 0.0040905 -0.0026842
-0.0093844 -0.0049706 0.027988 0.022733 0.061784 0.31218 0.0019274 4.1369e-05
0.0010486 -0.00013336 0.00096449 -0.0012564
-0.0021222 0.0018419 0.0014498 0.0013096 0.0019285 3.9237e-05 -0.11296 0.25984
-0.011169 0.03062 0.0033232 -0.0066428
0.0012362 0.0020867 0.0073409 -7.4071e-05 0.0010497 -0.00013683 -0.01112 0.030661
-0.15223 0.1695 -0.0019615 0.026464
0.0027303 -0.0014671 0.0040804 -0.0027104 0.000977 -0.0012552 0.0033206 -0.0066436
-0.001988 0.026453 -0.19466 0.21226
980000000 -0.057123 0.28471 0.016781 0.030341 -0.0094318 0.0042055 0.0018797 0.0035406
0.0040236 -0.0016725 -0.003023 -0.0026371
0.016746 0.030323 -0.21252 0.33839 0.033198 0.0055165 0.0020079 -0.0001374
0.0018767 -0.0060602 -0.00029895 -0.0028064
-0.0094266 0.0042417 0.033264 0.005391 0.10762 0.30628 0.00073479 -0.0012566
0.0005031 -0.0020121 0.0014906 -0.00029092
0.0018655 0.0035254 0.0020149 -0.00014874 0.00073151 -0.0012558 -0.074667 0.27076
0.0072071 0.030146 -0.0088169 -0.0067174
0.0040177 -0.0016879 0.0018399 -0.0061006 0.00049208 -0.0020171 0.0072756 0.030144
-0.11847 0.19799 0.0062494 0.018918
-0.0030186 -0.0026028 -0.00031591 -0.0027762 0.00149 -0.0002921 -0.0088067 -0.0067127
0.0062482 0.018908 -0.15194 0.25461
1040000000 -0.015963 0.29385 0.032757 0.019026 -0.001492 0.0069753 0.0025536 0.00096777
0.00055174 -0.0036952 -3.6328e-05 -0.0014407
0.032712 0.019018 -0.17754 0.3519 0.030067 -0.014384 0.0015774 -0.001763
-0.0018643 -0.0027659 -0.0011401 -0.0029175
-0.0014682 0.0069948 0.030025 -0.014527 0.15332 0.29355 -0.00046154 -0.0016323
-0.0014982 -0.00095984 -0.00055303 -0.00098979
0.0025595 0.00096504 0.0015827 -0.0017878 -0.00046175 -0.0016239 -0.047374 0.28045
0.019418 0.018912 -0.0025321 0.0012067
0.00052335 -0.0036698 -0.0019042 -0.0027571 -0.0015112 -0.00096498 0.019464 0.018886
-0.085104 0.20467 0.013775 0.017832
-1.8912e-05 -0.0014534 -0.001145 -0.0028924 -0.00056123 -0.0009902 -0.0025338 0.0012257
0.013752 0.017805 -0.12871 0.27486
1100000000 0.029312 0.30281 0.036344 -0.0033804 0.0027758 0.0041137 0.0024506 -0.0013116
-0.0019738 -0.0030959 -0.0041015 -0.00027329
0.036298 -0.0033707 -0.1343 0.36983 0.015958 -0.027776 9.246e-05 -0.001999
-0.0036262 -0.0010147 -0.0036586 -0.00065168
0.0027882 0.0041136 0.015866 -0.027877 0.19958 0.27423 -0.0019285 4.5596e-05
-0.0017513 0.00039871 -0.001144 -0.00045575
0.0024419 -0.0013251 9.4614e-05 -0.0020031 -0.0019342 4.2437e-05 -0.0067658 0.28542
0.025155 0.0054461 -0.002441 0.0002323
-0.0019801 -0.0030793 -0.0036489 -0.00099561 -0.0017579 0.00039215 0.025185 0.0054003
-0.064338 0.21702 0.019536 0.0079427
-0.004085 -0.00024782 -0.0036666 -0.00062934 -0.0011381 -0.00046208 -0.0024364 0.00024827
0.019538 0.0079415 -0.082527 0.30283
1160000000 0.080092 0.29883 0.024589 -0.020425 0.002775 -0.00044231 -3.9813e-05 -0.0023095
-0.0040004 -0.00071442 -0.00086896 0.0040161
0.02457 -0.020408 -0.09111 0.37455 -0.0032029 -0.029601 -0.0016004 -0.001675
-0.00282 0.0026269 -0.0016191 0.0018435
0.0027799 -0.00045042 -0.0033355 -0.029637 0.24275 0.24422 -0.00082043 0.0017701
-0.00061593 0.0020164 -0.00088179 0.00036154
-5.6099e-05 -0.00231 -0.0015964 -0.0016823 -0.00082969 0.0017675 0.032277 0.28278
0.021441 -0.010277 -0.0031965 0.0048916
-0.0040051 -0.00067626 -0.0028051 0.0026293 -0.00061836 0.0020086 0.021441 -0.010313
-0.030182 0.22449 0.018206 -0.00099622
-0.00084011 0.0040172 -0.0016456 0.0018629 -0.00088923 0.00036672 -0.0032112 0.0049004
0.018207 -0.00099564 -0.036609 0.30565
1220000000 0.12436 0.28911 0.011148 -0.030156 -0.0015759 -0.00087671 1.9884e-05 -0.0010057
-0.0025598 0.0021535 0.0010406 0.0019749
0.01115 -0.030119 -0.047127 0.38759 -0.016865 -0.021913 -0.0027227 0.00042467
2.1809e-05 0.0030992 -0.00085256 0.0019438
-0.0015828 -0.00086795 -0.016982 -0.02188 0.28204 0.206 0.00072053 0.0018233
0.00052114 0.0012475 0.00029594 0.00052594
1.1719e-05 -0.00099507 -0.0027137 0.00042923 0.00072117 0.0018275 0.072494 0.27438
0.011078 -0.017287 0.00193 0.0015958
-0.002557 0.0021735 4.1678e-05 0.0030951 0.00051829 0.0012463 0.011055 -0.017307
-0.0060064 0.23244 0.013475 -0.013081
0.0010636 0.001976 -0.00084148 0.001949 0.0002977 0.00052682 0.0019334 0.0016004
0.013458 -0.013061 -0.0039167 0.31957
1280000000 0.17456 0.26851 -0.0075731 -0.028854 -0.0020013 0.0024858 -0.00090649 -0.0020151
-0.00079305 0.0031164 0.0025658 0.001226
-0.0075436 -0.028818 -0.0011316 0.37924 -0.024163 -0.0091035 -0.00097101 0.0014917
0.0017818 0.001833 0.00063171 0.0019709
-0.0019855 0.002501 -0.02425 -0.0090096 0.31291 0.16252 0.0016101 9.7638e-06
0.0012817 0.00027963 0.00033005 0.00016141
-0.00091514 -0.0020164 -0.00096257 0.0014939 0.0016017 6.3309e-06 0.10961 0.25797
0.0012161 -0.019675 -7.6445e-05 0.00020885
-0.00077046 0.0031231 0.0018029 0.0018224 0.0012786 0.00026837 0.0011787 -0.019681
0.030619 0.23503 0.002836 -0.015363
0.0025492 0.0012246 0.00063155 0.0019721 0.00032621 0.00016534 -8.45e-05 0.00020629
0.0028455 -0.015352 0.042569 0.32062
1340000000 0.21185 0.23587 -0.01754 -0.019285 0.00080775 0.0047725 -0.0018392 -0.00091352
0.0014387 0.0025485 0.0018197 -0.0013246
-0.017506 -0.019278 0.038248 0.3719 -0.022045 0.0039807 -0.00013331 0.0020404
0.0020538 0.00072585 0.0012228 0.00082629
0.00082653 0.0047789 -0.02206 0.004089 0.33516 0.11559 0.0011041 -0.00089255
0.00071549 -0.00061306 7.236e-05 0.00015323
-0.0018379 -0.00090122 -0.00012099 0.0020377 0.0011073 -0.0008852 0.14273 0.23732
-0.0083491 -0.01713 0.00080475 0.00065688
0.0014498 0.0025338 0.0020557 0.00071712 0.00071735 -0.00060145 -0.0083844 -0.01712
0.060626 0.23018 -0.0041512 -0.013758
0.0018081 -0.0013365 0.0012259 0.00081727 7.1818e-05 0.00015203 0.00081512 0.00065817
-0.0041473 -0.013743 0.080759 0.31499
1400000000 0.24584 0.19864 -0.023563 -0.0077037 0.0053158 0.0034226 -0.0022576 0.00060457
0.0024371 0.0010146 0.00034253 -0.0016609
-0.02353 -0.0077082 0.075993 0.35954 -0.015444 0.012577 0.0013972 0.0013405
0.0012951 -0.00082449 0.0011452 6.5129e-05
0.0053374 0.0033932 -0.015401 0.012666 0.34877 0.062384 8.2113e-05 -0.0016906
8.3866e-05 -0.00040376 0.00020458 0.00018116
-0.0022445 0.00062679 0.0014062 0.0013352 7.9755e-05 -0.0016888 0.17248 0.2082
-0.014669 -0.010246 -0.0008075 -0.00017315
0.0024505 0.00099612 0.0012986 -0.00084181 7.915e-05 -0.00040691 -0.014701 -0.010224
0.093686 0.22512 -0.010202 -0.0085667
0.00031311 -0.0016645 0.0011492 5.5364e-05 0.00021012 0.0001818 -0.00081333 -0.00017361
-0.010187 -0.0085768 0.12478 0.30371
1460000000 0.26917 0.1551 -0.020498 0.0046512 0.0058852 -0.0017407 -0.0015872 0.0018009
0.0021471 -0.00036807 -0.00030581 -0.00095023
-0.020488 0.0046324 0.11047 0.33805 -0.0063882 0.015819 0.0017322 0.0001976
0.00088069 -0.0013275 0.0012667 -0.00052085
0.0058736 -0.0017524 -0.0063226 0.015867 0.35552 0.0083283 -0.0012059 -0.0013135
8.9841e-05 -0.00026004 0.0007135 -0.00032678
-0.0015829 0.0018098 0.0017416 0.00018901 -0.0012029 -0.001318 0.19885 0.17847
-0.015987 -0.0034787 -0.00086173 0.0020454
0.0021429 -0.00037709 0.00088126 -0.0013375 0.00010067 -0.00025658 -0.016014 -0.0034529
0.1229 0.21057 -0.012128 -0.0026546
-0.00029045 -0.00096189 0.001249 -0.00052778 0.0007004 -0.00032983 -0.00085722 0.0020521
-0.012125 -0.0026433 0.15761 0.28256
1520000000 0.28206 0.11389 -0.014892 0.010267 0.003574 -0.004354 0.00018316 0.0026157
0.0022071 -0.0018517 -0.0011938 -0.00021921
-0.014886 0.010243 0.14444 0.32395 0.0016005 0.013577 0.0016621 -0.00076811
6.361e-05 -0.0010907 0.00035681 -0.0010157
0.003558 -0.0043769 0.0016742 0.013592 0.34915 -0.047369 -0.0011331 -0.00037993
0.00056729 -0.00078185 4.2654e-05 -0.00019991
0.00020573 0.0026176 0.0016541 -0.0007755 -0.0011319 -0.0003785 0.22203 0.1402
-0.015494 0.0026131 0.0015463 0.0021212
0.0021958 -0.0018707 5.3357e-05 -0.0010816 0.00056745 -0.00078346 -0.015506 0.0026529
0.151 0.19695 -0.011742 0.001938
-0.0011893 -0.00019547 0.00035462 -0.0010206 4.5858e-05 -0.00020168 0.0015488 0.0021145
-0.011735 0.0019329 0.1904 0.26185
1580000000 0.2924 0.067647 -0.008145 0.013444 -0.00085505 -0.0051776 0.0014927 0.0019353
-0.00016921 -0.0021611 -0.00022075 0.00040188
-0.0081469 0.013427 0.17215 0.29926 0.005536 0.0085533 0.0005023 -0.0016191
-0.00057513 -0.0010637 -0.00018668 -0.00086668
-0.00087089 -0.0051828 0.005582 0.00853 0.32999 -0.10504 -0.0016662 0.00059656
-0.0003362 -0.0012183 0.00023024 -0.0005796
0.0014918 0.0019273 0.00050051 -0.0016259 -0.0016683 0.00058962 0.23564 0.10038
-0.012044 0.0077208 0.0022796 0.00072112
-0.00018772 -0.0021449 -0.00058082 -0.0010598 -0.00033946 -0.0012154 -0.01202 0.0077586
0.17512 0.17897 -0.0092852 0.007472
-0.00021596 0.00040924 -0.0001966 -0.00086857 0.00022376 -0.00057815 0.0022723 0.00072263
-0.0092828 0.0074796 0.22196 0.23463
1640000000 0.29496 0.026574 -0.0013287 0.012321 -0.002916 -0.002775 0.0026898 0.00097161
-0.00065648 -0.0016331 -0.00036398 0.00059765
-0.0013325 0.012306 0.20193 0.27464 0.0062774 0.0034336 -0.00064558 -0.0018192
-0.0010114 -0.00042439 -0.00053604 -0.00067693
-0.0029352 -0.0027575 0.0063004 0.0034061 0.30186 -0.15433 -0.00069502 0.0014936
-0.0010285 -0.00099994 -0.00021339 -0.00036206
0.0026972 0.00095685 -0.00065514 -0.0018134 -0.00070369 0.001489 0.2477 0.051538
-0.0077019 0.009251 0.0025264 -0.00076851
-0.00066902 -0.0016293 -0.0010234 -0.00040578 -0.0010297 -0.0010062 -0.0076849 0.0092839
0.19817 0.15487 -0.0044565 0.0093971
-0.00035854 0.00061375 -0.00053872 -0.00068098 -0.00021516 -0.00035671 0.0025317 -0.00078789
-0.0044611 0.0093893 0.24704 0.20358
1700000000 0.28844 -0.018812 0.0020143 0.0094462 -0.0037497 -6.9577e-05 0.0030901 -0.0012198
-0.0019844 -0.00067905 0.00063122 0.00032837
0.002013 0.0094419 0.22056 0.24321 0.0041628 0.00037967 -0.0014733 -0.00061701
-0.00082324 2.8915e-05 -0.00088381 -0.00046632
-0.0037466 -6.3179e-05 0.0041702 0.00035308 0.25899 -0.1944 0.00041381 0.0016085
-0.0019565 -0.00018226 -0.00045713 -0.00084182
0.0030917 -0.0012259 -0.001486 -0.00061264 0.00041016 0.0015997 0.24438 0.001699
-0.0045663 0.0099854 0.0015798 -0.0023058
-0.0019966 -0.00065936 -0.00083404 3.0974e-05 -0.0019588 -0.00019217 -0.0045327 0.009995
0.21583 0.13449 -3.4047e-05 0.0095611
0.0006316 0.00032797 -0.00089445 -0.00044862 -0.00046539 -0.00083828 0.0015651 -0.0022984
-3.2471e-05 0.0095633 0.26303 0.16925
1760000000 0.27672 -0.067689 0.0043691 0.0062028 -0.0024757 0.0011043 0.0013466 -0.0034505
-0.0014515 0.0006325 0.00038553 -0.00057498
0.0043638 0.0062041 0.24668 0.20336 0.0017412 -0.0015155 -0.0012267 0.00018931
-0.0010965 0.00095629 -0.00063127 0.00039373
-0.0024648 0.001117 0.0017335 -0.001534 0.21041 -0.22764 0.0012391 0.0010967
-0.0012786 0.0014992 -0.0012713 -0.00061188
0.0013212 -0.0034547 -0.0012188 0.00019201 0.0012411 0.0010983 0.23489 -0.049677
-0.0011614 0.0090454 -0.00025985 -0.0024988
-0.0014495 0.00063847 -0.0010851 0.00096434 -0.0012723 0.001502 -0.0011473 0.0090551
0.23054 0.099591 0.0039095 0.0070475
0.00038328 -0.00057363 -0.00062413 0.0004019 -0.0012822 -0.00061624 -0.00026067 -0.0025015
0.0039092 0.0070515 0.27561 0.13134
1820000000 0.25248 -0.10516 0.0044888 0.0025364 -0.00030887 0.0025117 -0.00099783 -0.0030298
-0.0011767 0.0010511 -0.00021056 -0.00014386
0.0044846 0.0025425 0.25709 0.17336 -0.00067894 -0.00039529 -0.0013683 0.00096046
-6.9189e-05 0.0012885 -0.00066814 0.00057706
-0.00029581 0.0025231 -0.00067866 -0.00039388 0.16005 -0.24365 0.0015609 0.00037681
-0.00027316 0.0024056 -0.0014372 0.00026723
-0.001006 -0.0030153 -0.0013673 0.00097781 0.0015648 0.00037828 0.20512 -0.096414
0.00067151 0.0077066 -0.0017248 -0.0015802
-0.0011643 0.0010666 -6.0515e-05 0.0013026 -0.00026557 0.0024104 0.00069775 0.0077105
0.24792 0.070895 0.0046534 0.0034639
-0.00022102 -0.00014461 -0.00065745 0.00058483 -0.0014307 0.00025737 -0.0017362 -0.0015988
0.0046674 0.0034547 0.27748 0.095232
1880000000 0.21764 -0.14601 0.0023424 0.00023101 -0.00047472 0.0022394 -0.0029405 -0.0022366
-0.00022162 0.0018972 0.00017172 -0.00041418
0.0023401 0.00023351 0.26171 0.1266 -0.0026191 0.0015536 -0.00016933 0.0017535
0.00066251 0.0013737 4.8687e-05 0.0010167
-0.00046093 0.002239 -0.0026146 0.0015727 0.1083 -0.25323 0.0019239 -0.00087792
0.001686 0.0020634 -0.0010538 0.001446
-0.0029464 -0.002221 -0.00015673 0.0017613 0.0019239 -0.00088086 0.16437 -0.13662
0.0015933 0.0056089 -0.0023961 0.00051589
-0.00021403 0.0019045 0.00066755 0.001372 0.0016939 0.0020552 0.001605 0.0056243
0.25161 0.039184 0.004865 0.0015033
0.00017351 -0.00041771 6.0738e-05 0.0010265 -0.0010555 0.0014519 -0.0023736 0.00052953
0.0048588 0.0015084 0.27685 0.061034
1940000000 0.17799 -0.17146 -0.00011992 -0.0013646 0.0014296 0.0022483 -0.0036159 0.00047129
0.001535 0.0012155 -0.00044191 -0.00059075
-0.0001304 -0.001355 0.26224 0.094953 -0.0015264 0.0042045 0.0011682 0.001269
0.0020038 0.00053431 0.0010791 0.00044687
0.0014249 0.0022383 -0.0015066 0.0042221 0.062161 -0.24585 0.00050251 -0.0022575
0.0024315 0.00041127 0.00060513 0.0016468
-0.0036092 0.00049718 0.0011805 0.0012732 0.0005029 -0.0022554 0.1123 -0.16704
0.0011486 0.0041246 -0.001349 0.0017755
0.001547 0.0012069 0.0019987 0.00052442 0.0024369 0.00040802 0.001169 0.0041227
0.2546 0.0010365 0.0035353 -0.0017045
-0.0004459 -0.00056626 0.0010798 0.00043768 0.00060366 0.001638 -0.0013481 0.0017682
0.0035214 -0.0017084 0.26571 0.024756
2000000000 0.13202 -0.18655 -0.0039084 0.00065945 0.0026476 0.0016217 -0.0024354 0.003811
0.001284 0.00042542 -0.00042757 0.00036079
-0.0039103 0.0006537 0.24835 0.059337 -0.00084516 0.0060278 0.001611 0.00031542
0.0014436 -0.0012123 0.00064548 0.0001389
0.0026817 0.001608 -0.00080669 0.0060385 0.01948 -0.2321 -0.0013303 -0.0015498
0.0021931 -0.0012619 0.0017126 0.0013371
-0.0024145 0.003833 0.0016256 0.000306 -0.0013297 -0.0015615 0.059111 -0.17688
-0.00016156 0.0038527 -4.669e-05 0.002294
0.0012873 0.00042281 0.0014385 -0.0012373 0.0021934 -0.0012714 -0.00015022 0.0038571
0.24998 -0.032257 0.00059048 -0.0025096
