!Keysight Technologies,M9804A,MY58100912,A.14.10.03
!Date: Thursday, April 27, 2023 10:28:33
!Correction: S11(C  6-Port  ) 
!S12(C  6-Port  ) 
!S13(C  6-Port  ) 
!S14(C  6-Port  ) 
!S15(C  6-Port  ) 
!S16(C  6-Port  ) 
!S21(C  6-Port  ) 
!S22(C  6-Port  ) 
!S23(C  6-Port  ) 
!S24(C  6-Port  ) 
!S25(C  6-Port  ) 
!S26(C  6-Port  ) 
!S31(C  6-Port  ) 
!S32(C  6-Port  ) 
!S33(C  6-Port  ) 
!S34(C  6-Port  ) 
!S35(C  6-Port  ) 
!S36(C  6-Port  ) 
!S41(C  6-Port  ) 
!S42(C  6-Port  ) 
!S43(C  6-Port  ) 
!S44(C  6-Port  ) 
!S45(C  6-Port  ) 
!S46(C  6-Port  ) 
!S51(C  6-Port  ) 
!S52(C  6-Port  ) 
!S53(C  6-Port  ) 
!S54(C  6-Port  ) 
!S55(C  6-Port  ) 
!S56(C  6-Port  ) 
!S61(C  6-Port  ) 
!S62(C  6-Port  ) 
!S63(C  6-Port  ) 
!S64(C  6-Port  ) 
!S65(C  6-Port  ) 
!S66(C  6-Port  ) 
!S6P File: Measurement: :
# Hz S  RI   R 50
500000000 -0.33415 -0.052003 -0.011011 -0.0008635 -0.0088777 0.013451 -0.0045763 0.012551
0.012434 0.005918 -0.0046649 0.0086503
-0.011004 -0.0008618 -0.41688 -0.062271 0.0079876 -0.010298 0.0011791 0.011918
0.008067 0.0029384 0.0011365 0.013435
-0.0088522 0.013449 0.0079758 -0.010318 -0.26711 0.20014 0.0068228 0.0035871
-0.0014616 0.0085633 0.00059663 0.012545
-0.0046179 0.012548 0.0011819 0.011933 0.0068005 0.00361 -0.33089 0.043628
-0.020095 -0.004856 0.017732 0.025251
0.012466 0.0056144 0.0080982 0.002777 -0.0014999 0.0084926 -0.019836 -0.0047112
-0.24894 -0.19227 -0.02731 0.0032822
-0.0048436 0.0088251 0.0012887 0.013588 0.00061391 0.012512 0.017479 0.025198
-0.027113 0.0038143 -0.27174 -0.11734
560000000 -0.31893 0.11399 -0.022631 -0.06463 -7.4132e-05 0.013634 0.0056012 0.010541
0.011021 0.0052209 0.010236 0.0073509
-0.022622 -0.064561 -0.37496 0.099182 -0.042382 -0.037239 0.014023 0.0034209
-0.01277 -0.0041725 0.0047024 9.6754e-05
-4.1474e-05 0.013624 -0.042542 -0.037196 -0.18486 0.25095 -0.00058133 -0.0049704
0.018095 0.0057977 0.0071685 -0.0059509
0.0057552 0.010384 0.014166 0.0033984 -0.00054795 -0.0049769 -0.30687 0.13624
0.0062936 -0.02484 0.005279 -0.019744
0.011341 0.0049043 -0.012924 -0.0042843 0.018098 0.0056497 0.006158 -0.024937
-0.31156 -0.011274 0.010122 -0.04717
0.010059 0.0074465 0.0049265 -1.2374e-05 0.0070909 -0.0058565 0.0051228 -0.019794
0.0098593 -0.047778 -0.33185 0.029585
620000000 -0.27756 0.09452 -0.022745 0.0085308 0.0038303 0.0095805 0.0079776 -0.0040752
0.012943 -0.0018283 0.00064562 -0.0010967
-0.022737 0.0085313 -0.40323 0.050433 -0.018234 0.00079068 -0.0015409 -0.0023495
0.012246 -0.0062675 0.0011106 -0.0033767
0.0038606 0.0095753 -0.018251 0.00082838 -0.15521 0.26133 -0.00068663 -0.0050867
-0.0027574 -0.0033775 0.0094594 -0.0029367
0.0080163 -0.004044 -0.0015585 -0.002299 -0.00069707 -0.005052 -0.26472 0.14644
-0.039315 -0.020402 0.013895 0.026497
0.013054 -0.0017131 0.012453 -0.0061747 -0.0025863 -0.0033491 -0.039248 -0.020073
-0.23159 -0.044098 -0.041471 0.012379
0.00072941 -0.0015395 0.0010393 -0.0035412 0.0092526 -0.0030644 0.013787 0.026352
-0.041339 0.012432 -0.25295 -0.0033196
680000000 -0.23927 0.18481 -0.026468 -0.014462 0.005211 0.0052804 0.0014311 -0.00776
-0.0025424 -0.011661 0.0040921 -0.0070274
-0.026423 -0.014462 -0.3896 0.15081 -0.032376 -0.0021016 -0.0012652 -0.0009121
-0.0019465 -0.0095671 -0.001008 -0.0017077
0.005219 0.0052531 -0.032426 -0.0020299 -0.10367 0.28092 -0.00094321 -0.00076951
-0.0017413 0.00031579 -0.0026231 -0.0089649
0.001432 -0.0078304 -0.0012763 -0.00092483 -0.00094132 -0.00079152 -0.22023 0.19797
-0.023796 -0.0077768 -0.009054 -0.011251
-0.0026507 -0.011589 -0.0019742 -0.0095915 -0.0017559 0.00034745 -0.023909 -0.0077898
-0.27861 0.057477 -0.0068962 -0.0067489
0.0042835 -0.0069196 -0.001043 -0.0019017 -0.0025733 -0.0091227 -0.0092501 -0.011399
-0.0070625 -0.0068333 -0.26046 0.09849
740000000 -0.19326 0.17742 -0.039961 0.0266 0.013876 -0.0049744 -0.00014125 -0.0040267
-0.0044955 -0.0029325 -0.0067566 0.0036716
-0.039892 0.026534 -0.33516 0.16888 -0.036686 0.034796 -0.00020095 -0.0058704
-0.012341 0.0066277 -0.0018962 -0.0061976
0.013852 -0.0050275 -0.036625 0.034928 -0.069905 0.27862 -0.0019791 0.0034868
-0.0023451 -0.0055469 -0.0014722 0.0011169
-8.8e-05 -0.0040151 -0.00022546 -0.0058855 -0.0019415 0.0034834 -0.20363 0.20527
-0.043193 -0.0076773 0.022061 0.015438
-0.0046879 -0.0032697 -0.01243 0.006686 -0.0024158 -0.0056225 -0.043277 -0.0074712
-0.17944 0.083905 -0.041469 -0.00025155
-0.0065048 0.0038569 -0.0019064 -0.0060272 -0.0014894 0.0010831 0.022133 0.015352
-0.041245 -0.00018316 -0.24883 0.1059
800000000 -0.16173 0.2215 -0.022784 0.016219 0.0055252 -0.010565 -0.0047712 -0.0024764
-0.0045478 0.0025365 0.0036134 -5.3336e-06
-0.022789 0.016204 -0.34093 0.23976 -0.0086815 0.03399 -0.0024549 0.0020062
-0.0011226 0.0030185 0.00041675 0.0051318
0.0054791 -0.010586 -0.0085878 0.034062 -0.031047 0.30236 0.00076237 0.0012973
5.4599e-05 0.0036555 -0.0022543 0.00057372
-0.0047619 -0.0024514 -0.0024376 0.0020028 0.00077293 0.0012985 -0.17353 0.23228
-0.028838 0.013343 0.013669 -0.010758
-0.0046081 0.0024656 -0.0011815 0.0029994 -3.2707e-05 0.0036562 -0.028927 0.013264
-0.2196 0.11283 -0.01648 0.019432
0.0035694 0.00012668 0.0004311 0.0052625 -0.0022141 0.00051597 0.013807 -0.010759
-0.01658 0.019533 -0.23968 0.1526
860000000 -0.12724 0.24106 -0.017864 0.030387 -0.0027977 -0.01018 -0.0020627 0.00082935
0.003633 0.0053018 -0.0031659 -0.0024532
-0.017842 0.030349 -0.2924 0.28232 0.0074259 0.034377 9.8718e-06 0.0024361
0.0034672 0.00057148 0.0036225 0.00051859
-0.0028321 -0.010184 0.0075526 0.034392 0.01646 0.3107 -0.00069383 3.7174e-05
0.0023246 -0.0013928 0.0018372 0.0044236
-0.0020466 0.00085478 1.4983e-05 0.0024383 -0.00069965 4.3848e-05 -0.13739 0.24312
-0.018399 0.018033 -0.006438 -0.008724
0.0034562 0.005315 0.0034035 0.00055687 0.0022635 -0.0013836 -0.018428 0.018089
-0.16535 0.16326 -0.023434 0.016474
-0.0032159 -0.0024978 0.0037117 0.00036996 0.0019473 0.0044284 -0.0062964 -0.0085338
-0.023423 0.016381 -0.1891 0.19847
920000000 -0.10371 0.2645 0.0043299 0.038157 -0.009424 -0.0049929 -0.0020275 0.001698
0.0010917 0.0019438 0.0025856 -0.0013237
0.0043186 0.038127 -0.26551 0.30377 0.027877 0.022714 0.0014206 0.0013109
0.0074259 -0.0002441 0.0041208 -0.0027906
-0.0094457 -0.0049653 0.027997 0.022666 0.061829 0.31222 0.0019028 -2.005e-05
0.0010986 -0.00020121 0.00091689 -0.0012675
-0.002071 0.0017368 0.0014158 0.0013014 0.0019107 -1.6686e-05 -0.11261 0.25979
-0.011127 0.030784 0.0035104 -0.0065865
0.0011426 0.0019378 0.0074657 -0.00019918 0.0010961 -0.00022728 -0.011119 0.030826
-0.15248 0.16966 -0.0015254 0.026566
0.0026359 -0.0012914 0.0041763 -0.0027921 0.00092201 -0.0013206 0.0035044 -0.0065986
-0.0015185 0.026668 -0.19487 0.21153
980000000 -0.056933 0.28472 0.016813 0.030288 -0.0093599 0.0042435 0.001817 0.0036841
0.0040081 -0.0018252 -0.0029705 -0.0023864
0.016773 0.030288 -0.21244 0.3384 0.033214 0.005473 0.0021036 -0.00012225
0.0018023 -0.0060653 -0.00016291 -0.002664
-0.0093566 0.0042674 0.033278 0.0053883 0.10769 0.30629 0.00072216 -0.00116
0.00050028 -0.0020033 0.001463 -0.00021735
0.0018243 0.0036619 0.0021155 -0.00013781 0.00071899 -0.0011564 -0.074659 0.27069
0.0072209 0.030323 -0.0091661 -0.0068153
0.00403 -0.0017322 0.0017579 -0.0060664 0.00052704 -0.002004 0.0073125 0.030317
-0.11878 0.1982 0.0063205 0.019535
-0.0030147 -0.0024847 -0.0002912 -0.0026671 0.0014308 -0.00029327 -0.0090076 -0.0067561
0.0062491 0.01948 -0.15199 0.25514
1040000000 -0.015666 0.29385 0.032783 0.018993 -0.0014788 0.0070419 0.0024711 0.00083295
0.000575 -0.0036299 -0.00028504 -0.0014698
0.032749 0.019013 -0.17742 0.35193 0.030035 -0.01439 0.0016106 -0.0018078
-0.0017499 -0.0026955 -0.001077 -0.00298
-0.0014649 0.0070356 0.030031 -0.014505 0.15339 0.29356 -0.00045986 -0.0016347
-0.0014839 -0.00098212 -0.00055733 -0.0010398
0.0024608 0.00085413 0.0016141 -0.0018363 -0.00045828 -0.0016316 -0.047329 0.28054
0.019358 0.018797 -0.0022979 0.0013514
0.00042872 -0.0036393 -0.0018285 -0.0027505 -0.0014811 -0.00099101 0.019424 0.018703
-0.085085 0.20477 0.013766 0.017776
-0.00017145 -0.0012637 -0.0011146 -0.0029412 -0.00055966 -0.0010299 -0.0024079 0.0013344
0.013736 0.017857 -0.12851 0.27499
1100000000 0.029331 0.30277 0.036327 -0.0034621 0.0027429 0.0041282 0.0025884 -0.0011928
-0.0021932 -0.0031428 -0.0037209 -0.00028101
0.036295 -0.0034286 -0.13417 0.36979 0.015878 -0.027794 0.00014767 -0.0019299
-0.0036872 -0.00095506 -0.0034672 -0.00068123
0.0027581 0.004119 0.015794 -0.027882 0.19967 0.27425 -0.0019397 2.9968e-05
-0.0016966 0.00035912 -0.0010336 -0.00055402
0.0025856 -0.0012258 0.0001481 -0.0019608 -0.0019427 2.9588e-05 -0.0068391 0.28537
0.025215 0.005429 -0.0025753 6.066e-05
-0.0021282 -0.0031114 -0.0036287 -0.00093545 -0.001709 0.00034782 0.025229 0.0054317
-0.064322 0.21747 0.019709 0.0077592
-0.0039553 -0.00032019 -0.0035966 -0.00067575 -0.001059 -0.00055542 -0.0025423 0.00010878
0.019716 0.0077377 -0.082392 0.30322
1160000000 0.080296 0.2988 0.024589 -0.020497 0.0027694 -0.00043291 -0.00018531 -0.0023907
-0.0039081 -0.00085544 -0.0011625 0.0041473
0.024591 -0.020448 -0.090974 0.37457 -0.003239 -0.029619 -0.0017234 -0.0016668
-0.0027697 0.0026293 -0.0015412 0.0019849
0.0027829 -0.00045286 -0.0033673 -0.029633 0.24279 0.24419 -0.00080621 0.0018113
-0.00064162 0.0019558 -0.00079291 0.00037189
-0.00020527 -0.0023814 -0.0017078 -0.0016701 -0.00080576 0.0018087 0.032325 0.28272
0.021375 -0.010426 -0.0030475 0.0049051
-0.0039079 -0.00083738 -0.0027673 0.0026648 -0.00061222 0.0019569 0.021398 -0.010445
-0.030053 0.2242 0.018052 -0.00057589
-0.0010058 0.0041003 -0.0015788 0.0019183 -0.00086281 0.00036312 -0.0030962 0.0048174
0.018158 -0.00056888 -0.036485 0.30488
1220000000 0.12449 0.28928 0.0112 -0.030078 -0.0015638 -0.00090462 6.0455e-05 -0.00099099
-0.0026089 0.0022258 0.0010678 0.0019135
0.011216 -0.030024 -0.04693 0.38762 -0.016857 -0.021917 -0.0026702 0.00043782
-3.3713e-05 0.0031668 -0.00090515 0.0018164
-0.0015661 -0.00090195 -0.016977 -0.02186 0.28206 0.20599 0.0007018 0.0018238
0.00059917 0.0012706 0.00022089 0.00057028
5.204e-05 -0.0010083 -0.0026708 0.00044539 0.00069628 0.0018196 0.072597 0.2743
0.011164 -0.017264 0.0018261 0.0014846
-0.0025742 0.0022633 2.5263e-06 0.0031594 0.00058084 0.0012823 0.011112 -0.01731
-0.0059646 0.23261 0.013478 -0.013287
0.00097881 0.0018993 -0.00093671 0.0018431 0.00026405 0.00058086 0.0018882 0.0015533
0.013457 -0.013274 -0.0040887 0.32008
1280000000 0.17462 0.26845 -0.0076285 -0.028892 -0.0019828 0.002486 -0.00094045 -0.0020261
-0.00074201 0.0031394 0.0025576 0.0013219
-0.0076076 -0.028858 -0.0010885 0.37929 -0.024153 -0.0091066 -0.0010698 0.0014842
0.0018288 0.0017487 0.00072712 0.0019901
-0.001977 0.0024873 -0.024237 -0.0090072 0.31295 0.16251 0.001634 6.7293e-06
0.0012531 0.00025669 0.00035842 0.00016133
-0.00094597 -0.0020126 -0.0010632 0.0014935 0.0016356 6.7567e-06 0.10962 0.25794
0.0011646 -0.019686 -0.00013821 0.00037899
-0.00076632 0.0031357 0.0018341 0.0017538 0.0012832 0.00025086 0.0011479 -0.019686
0.030811 0.23486 0.0025847 -0.015253
0.0026729 0.0012379 0.00071757 0.001958 0.00033567 0.00016208 -0.00014732 0.00031053
0.0026639 -0.015234 0.04266 0.32033
1340000000 0.212 0.23576 -0.01757 -0.019316 0.00075914 0.0047431 -0.0018213 -0.0008904
0.0013926 0.0026194 0.0017809 -0.0014003
-0.017527 -0.01932 0.038341 0.3719 -0.022052 0.0039855 -9.6253e-05 0.0020287
0.0020531 0.00073829 0.001183 0.00087074
0.00077766 0.0047487 -0.02206 0.0040987 0.33526 0.11545 0.0011119 -0.00087913
0.00069562 -0.00054341 8.2821e-05 0.00027664
-0.0018282 -0.0008923 -8.4187e-05 0.0020337 0.0011156 -0.0008792 0.14275 0.23732
-0.0083703 -0.017104 0.00079661 0.00054532
0.0014403 0.0026031 0.0020443 0.00072497 0.00067888 -0.00056294 -0.0083992 -0.017089
0.060546 0.2302 -0.0040179 -0.013884
0.0017397 -0.0013964 0.0011983 0.0008858 9.7676e-05 0.00027091 0.00080779 0.00057833
-0.0040897 -0.013877 0.08093 0.31528
1400000000 0.24592 0.19855 -0.023585 -0.0076799 0.0053202 0.0033827 -0.002253 0.00057561
0.0024002 0.0009586 0.00024379 -0.0015413
-0.02355 -0.0076878 0.076143 0.35957 -0.015433 0.012557 0.0013656 0.0013521
0.0012818 -0.00085851 0.0011633 0.00022049
0.00534 0.0033585 -0.015389 0.012651 0.34881 0.062433 0.00010323 -0.0016194
6.0967e-05 -0.00043132 0.00026665 0.00026228
-0.0022421 0.00059198 0.0013782 0.0013481 0.00010577 -0.0016197 0.17251 0.20812
-0.014629 -0.010224 -0.00080531 -0.00013046
0.0023573 0.00093572 0.001273 -0.00084143 9.1099e-05 -0.00041853 -0.014648 -0.010214
0.093952 0.22505 -0.010395 -0.0086101
0.00026921 -0.001576 0.0011464 0.00017949 0.00026357 0.00021289 -0.00075541 -0.00011961
-0.010339 -0.0085326 0.125 0.30391
1460000000 0.26932 0.1549 -0.020509 0.0046589 0.0058935 -0.0017072 -0.0015962 0.0018369
0.0021902 -0.00038521 -0.0003265 -0.00094064
-0.020495 0.004639 0.11061 0.33805 -0.0064289 0.015794 0.0017406 0.00018859
0.00087986 -0.0013325 0.0011906 -0.00057739
0.0058913 -0.0017331 -0.0063574 0.015841 0.3555 0.008323 -0.0012312 -0.0013128
0.00011788 -0.00018201 0.00068101 -0.0002364
-0.0015858 0.0018286 0.0017555 0.00018926 -0.0012375 -0.0013056 0.19885 0.17846
-0.016082 -0.0035083 -0.00085488 0.0019526
0.0022228 -0.00038522 0.0008617 -0.001353 7.5455e-05 -0.00019468 -0.0161 -0.0034873
0.12305 0.21054 -0.012057 -0.0028274
-0.00036814 -0.00089092 0.001201 -0.000573 0.00075482 -0.00026983 -0.00086378 0.0019692
-0.012071 -0.0028935 0.15755 0.2827
1520000000 0.28218 0.11373 -0.014912 0.010237 0.0035702 -0.0043966 0.00016489 0.0026492
0.0021865 -0.0018551 -0.0012472 -0.00020918
-0.014907 0.01022 0.14453 0.32392 0.0015964 0.013549 0.0016852 -0.00076396
8.5253e-05 -0.0011022 0.00035266 -0.0009689
0.0035519 -0.0044103 0.0016753 0.013552 0.34926 -0.047429 -0.0011187 -0.00034499
0.0005449 -0.00085704 0.00013642 -0.00015809
0.00017353 0.0026573 0.0016689 -0.00078022 -0.001109 -0.00034304 0.22211 0.14012
-0.015499 0.0026196 0.0015073 0.0020729
0.0021578 -0.0018945 8.1426e-05 -0.0011035 0.00055382 -0.00085763 -0.01547 0.0026507
0.15108 0.19687 -0.011828 0.0018282
-0.0012221 -0.00021971 0.00033617 -0.00098045 0.00012306 -0.00018173 0.0015215 0.0020727
-0.011793 0.0018794 0.1905 0.26169
1580000000 0.29239 0.067525 -0.0081296 0.013446 -0.00081284 -0.0052025 0.0014945 0.0019022
-0.00015475 -0.0021038 -0.00025838 0.00040206
-0.0081334 0.013433 0.17224 0.29925 0.0055081 0.0085253 0.0005131 -0.001615
-0.00057786 -0.0010478 -0.0002014 -0.00085221
-0.00082933 -0.0052025 0.0055653 0.0085147 0.32991 -0.10503 -0.0016856 0.00057797
-0.00034769 -0.0012617 0.00019743 -0.00060599
0.0014977 0.0018903 0.00050997 -0.0016134 -0.0016934 0.00056322 0.23569 0.10033
-0.011953 0.0076641 0.0021648 0.00075289
-0.0001334 -0.0021103 -0.00061441 -0.0010415 -0.00036624 -0.001264 -0.011959 0.0077564
0.17525 0.1789 -0.0092109 0.0074718
-0.00030385 0.00042531 -0.00020755 -0.00086257 0.00021882 -0.00058285 0.0021893 0.00073601
-0.0092749 0.0074097 0.22174 0.23476
1640000000 0.295 0.026387 -0.0013846 0.012329 -0.0029143 -0.0027354 0.0026945 0.0010251
-0.0006938 -0.0016206 -0.00042652 0.00055761
-0.0013928 0.012324 0.202 0.27458 0.0062585 0.0034584 -0.00062775 -0.001817
-0.00097948 -0.00043153 -0.00053388 -0.00071913
-0.0029277 -0.0027096 0.0062865 0.0034185 0.3018 -0.15451 -0.00070185 0.0015083
-0.001028 -0.00097962 -0.00012659 -0.00032243
0.0026907 0.0010202 -0.00064797 -0.0018262 -0.00070936 0.0014998 0.24772 0.05157
-0.0076829 0.0092825 0.0025305 -0.0008912
-0.00070599 -0.0016311 -0.00099543 -0.00043415 -0.0010415 -0.0009651 -0.007639 0.0092847
0.19829 0.15473 -0.0044977 0.009367
-0.00040583 0.00055993 -0.00053104 -0.00070485 -0.0001537 -0.00028034 0.0024898 -0.00086135
-0.0044754 0.0093663 0.24703 0.20348
1700000000 0.28844 -0.018976 0.0020385 0.0094304 -0.0037291 -7.0805e-05 0.0031052 -0.001272
-0.0019689 -0.00067929 0.00060565 0.00036352
0.0020339 0.009419 0.22062 0.24311 0.0041441 0.00040429 -0.0015069 -0.00060201
-0.00083214 5.2216e-05 -0.00089698 -0.0004291
-0.0037306 -4.7103e-05 0.0041513 0.00038167 0.25888 -0.19447 0.0004009 0.0016303
-0.0019415 -0.00012181 -0.00044562 -0.00083802
0.0031 -0.0012878 -0.0015025 -0.00059378 0.00041291 0.0016244 0.24441 0.0016451
-0.0045698 0.0099833 0.001664 -0.0022583
-0.0019846 -0.00070231 -0.00084871 5.7894e-05 -0.0019691 -0.00010202 -0.0045469 0.010008
0.21587 0.13441 -9.0781e-06 0.0096041
0.00066008 0.0003816 -0.00091352 -0.0004514 -0.00049199 -0.00083496 0.0016559 -0.0023098
-3.3686e-05 0.0096013 0.26305 0.16916
1760000000 0.27673 -0.067873 0.0043818 0.0062206 -0.0025005 0.0010948 0.0013107 -0.0034201
-0.0014256 0.00059408 0.00033882 -0.00052925
0.0043796 0.0062168 0.24676 0.20332 0.001768 -0.0014983 -0.0012249 0.00013301
-0.0011172 0.00092428 -0.00065999 0.00039281
-0.0024923 0.0011071 0.0017605 -0.0015086 0.21042 -0.22764 0.0011974 0.0011358
-0.0013109 0.0015266 -0.0012043 -0.00074423
0.00131 -0.0034166 -0.0012244 0.00015379 0.001196 0.0011391 0.23503 -0.049634
-0.0010987 0.0091016 -0.00031691 -0.0025292
-0.0014181 0.00060745 -0.0011091 0.000938 -0.0013084 0.0015245 -0.0010615 0.0091444
0.23057 0.099552 0.0038228 0.0070069
0.00035946 -0.00052847 -0.00063696 0.00038389 -0.0012571 -0.00078177 -0.0002613 -0.0025414
0.0038351 0.0069946 0.2757 0.13154
1820000000 0.2525 -0.1053 0.0044912 0.0025532 -0.00036491 0.002533 -0.00097465 -0.0030679
-0.0011774 0.0010347 -0.00019809 -0.00011199
0.0045009 0.0025562 0.25713 0.17325 -0.00071679 -0.00041388 -0.0013589 0.00097491
-7.3906e-05 0.0012962 -0.00066318 0.00055593
-0.00034188 0.0025325 -0.00072277 -0.000409 0.15986 -0.2437 0.0015482 0.00035026
-0.00023135 0.0023331 -0.0015425 0.00033139
-0.0010104 -0.0030767 -0.0013519 0.00097636 0.0015342 0.00034361 0.205 -0.09635
0.0005734 0.0077051 -0.0017167 -0.0015352
-0.0011837 0.0010316 -5.0829e-05 0.0012894 -0.00023918 0.0023258 0.00058931 0.0076788
0.24785 0.070772 0.0046417 0.0035948
-0.0001783 -0.00010225 -0.00066268 0.00058294 -0.0015411 0.00031127 -0.0017124 -0.0015157
0.0046634 0.003607 0.2773 0.095165
1880000000 0.21757 -0.14617 0.0023528 0.00020744 -0.00050829 0.0021695 -0.0029589 -0.0021787
-0.0002049 0.0019436 0.00015846 -0.00051928
0.0023535 0.00020515 0.26175 0.1265 -0.0026113 0.0015292 -0.00019219 0.0017104
0.00064504 0.0013848 0.00010367 0.0010359
-0.00049472 0.002189 -0.0025958 0.0015459 0.10817 -0.25335 0.0018093 -0.00094664
0.0016006 0.0020616 -0.0010598 0.0013797
-0.0029719 -0.0021727 -0.0001807 0.0017238 0.0018294 -0.0009376 0.16443 -0.1366
0.0015541 0.0056072 -0.0025892 0.00037192
-0.00016703 0.0019191 0.00067324 0.0013749 0.0016161 0.0020154 0.001601 0.0056243
0.25164 0.038976 0.0046645 0.0013496
0.00013549 -0.00050896 9.911e-05 0.0010275 -0.0010713 0.0014125 -0.0026185 0.00037057
0.0047417 0.0013577 0.27695 0.061158
1940000000 0.17789 -0.17169 -0.00016463 -0.0013518 0.0013928 0.002279 -0.0037347 0.00035851
0.0014398 0.0011924 -0.00031087 -0.00053386
-0.00016043 -0.001353 0.26227 0.094802 -0.0015406 0.0041719 0.0011053 0.0012298
0.0019418 0.00052479 0.001074 0.00048854
0.0014107 0.0022654 -0.0015159 0.0041847 0.062154 -0.24582 0.00053642 -0.0023901
0.0024344 0.00043724 0.00053339 0.0018232
-0.0037443 0.00038909 0.0011236 0.0012317 0.00054023 -0.0023819 0.1123 -0.16699
0.0010197 0.0041855 -0.0012924 0.0017022
0.0014752 0.0012379 0.001983 0.00050718 0.0024483 0.00038319 0.0010598 0.0041564
0.25454 0.00098969 0.0035803 -0.0017381
-0.00034543 -0.00052339 0.0010981 0.00048356 0.00055037 0.0018184 -0.0013448 0.0017414
0.0035409 -0.0017168 0.26539 0.024941
2000000000 0.13192 -0.18648 -0.003976 0.00070936 0.0026813 0.0015506 -0.0023771 0.0037336
0.0012725 0.00042101 -0.00056079 0.00042156
-0.0039631 0.00070345 0.24836 0.059296 -0.00087093 0.0060096 0.0015659 0.00040538
0.001405 -0.0012401 0.00057235 0.00015608
0.0026952 0.0015421 -0.00083537 0.0060153 0.019357 -0.23206 -0.0014361 -0.0014059
0.0021308 -0.0012882 0.001773 0.0013341
-0.0023493 0.0037398 0.0015746 0.00039501 -0.001433 -0.0014106 0.059069 -0.17656
-0.00018464 0.0038984 2.1634e-05 0.0024357
0.0012741 0.00036181 0.0014025 -0.0012512 0.0021243 -0.0012736 -0.00021275 0.0039316
0.24993 -0.032348 0.00060794 -0.002437
