!Keysight Technologies,M9804A,MY58100912,A.14.10.03
!Date: Thursday, April 27, 2023 10:28:33
!Correction: S11(C  6-Port  ) 
!S12(C  6-Port  ) 
!S13(C  6-Port  ) 
!S14(C  6-Port  ) 
!S15(C  6-Port  ) 
!S16(C  6-Port  ) 
!S21(C  6-Port  ) 
!S22(C  6-Port  ) 
!S23(C  6-Port  ) 
!S24(C  6-Port  ) 
!S25(C  6-Port  ) 
!S26(C  6-Port  ) 
!S31(C  6-Port  ) 
!S32(C  6-Port  ) 
!S33(C  6-Port  ) 
!S34(C  6-Port  ) 
!S35(C  6-Port  ) 
!S36(C  6-Port  ) 
!S41(C  6-Port  ) 
!S42(C  6-Port  ) 
!S43(C  6-Port  ) 
!S44(C  6-Port  ) 
!S45(C  6-Port  ) 
!S46(C  6-Port  ) 
!S51(C  6-Port  ) 
!S52(C  6-Port  ) 
!S53(C  6-Port  ) 
!S54(C  6-Port  ) 
!S55(C  6-Port  ) 
!S56(C  6-Port  ) 
!S61(C  6-Port  ) 
!S62(C  6-Port  ) 
!S63(C  6-Port  ) 
!S64(C  6-Port  ) 
!S65(C  6-Port  ) 
!S66(C  6-Port  ) 
!S6P File: Measurement: :
# Hz S  RI   R 50
500000000 -0.33355 -0.052234 -0.010331 -0.0018332 -0.0092042 0.013556 -0.0030118 0.01177
0.012328 0.0058913 -0.0034215 0.0076162
-0.010577 -0.0016296 -0.41718 -0.06245 0.0076961 -0.0098995 0.0015849 0.011684
0.0079601 0.0026279 0.0013181 0.013146
-0.0089062 0.013559 0.0077208 -0.009869 -0.267 0.20054 0.0072697 0.0034583
-0.0017337 0.0085544 0.00097484 0.012519
-0.0028929 0.011774 0.0017233 0.011584 0.0071975 0.0034799 -0.33124 0.044481
-0.019521 -0.0052578 0.017327 0.026007
0.012287 0.0056878 0.0080199 0.0026036 -0.0017838 0.0086211 -0.019615 -0.0053274
-0.24906 -0.19287 -0.027144 0.0030392
-0.0028601 0.0076935 0.0014971 0.013276 0.00090764 0.01258 0.017223 0.02597
-0.02698 0.0030939 -0.27204 -0.11612
560000000 -0.31821 0.11458 -0.02271 -0.064841 -0.0003197 0.013175 0.0054127 0.011367
0.011454 0.0054857 0.011081 0.008821
-0.022475 -0.064703 -0.37532 0.099089 -0.042135 -0.037453 0.014387 0.0029709
-0.013252 -0.0040429 0.0055174 4.0097e-05
-0.00023396 0.013111 -0.042168 -0.037356 -0.18558 0.25045 -0.00025606 -0.0045109
0.018819 0.004843 0.0077577 -0.0057559
0.0055131 0.011565 0.014146 0.0026947 -5.6847e-05 -0.0046233 -0.30665 0.13552
0.0057139 -0.024577 0.0052423 -0.02052
0.012048 0.0053873 -0.013217 -0.0038146 0.018969 0.0045492 0.0056721 -0.024455
-0.31089 -0.012882 0.0092171 -0.048052
0.0098783 0.0099359 0.0053732 -0.00030068 0.0076845 -0.0058057 0.0053268 -0.020482
0.0092174 -0.048292 -0.33147 0.030122
620000000 -0.27754 0.095247 -0.022815 0.0085694 0.0038212 0.0094407 0.0083699 -0.0045457
0.012267 -0.0022021 5.7822e-05 -0.0021701
-0.022756 0.008521 -0.40322 0.050388 -0.018176 0.00061762 -0.0014764 -0.0023204
0.012358 -0.0060674 0.0011943 -0.0033249
0.0038822 0.0093048 -0.018255 0.00059631 -0.15523 0.26098 -0.00054974 -0.0051853
-0.0030825 -0.0036739 0.0088036 -0.0031568
0.0083759 -0.0045547 -0.0015274 -0.0022881 -0.00067557 -0.0051004 -0.26459 0.14582
-0.04007 -0.019473 0.013992 0.026001
0.012062 -0.0019881 0.012398 -0.0060968 -0.0029308 -0.0034127 -0.040267 -0.019513
-0.22957 -0.045112 -0.041714 0.012272
0.00021677 -0.002486 0.00093375 -0.0034279 0.0086767 -0.0032006 0.014129 0.025961
-0.041589 0.012354 -0.25248 -0.0037736
680000000 -0.23957 0.18485 -0.026605 -0.014223 0.0049808 0.0055682 0.0011526 -0.0073828
-0.0025866 -0.011258 0.0049961 -0.0064808
-0.026644 -0.014312 -0.38969 0.15092 -0.032283 -0.0018855 -0.0014292 -0.00079867
-0.0018899 -0.0095792 -0.00096825 -0.0017762
0.004821 0.0054777 -0.032353 -0.0018199 -0.10351 0.28124 -0.00086812 -0.00055948
-0.0016772 0.00038974 -0.0024504 -0.0091353
0.0011573 -0.0074808 -0.0012996 -0.00075941 -0.00089229 -0.00052484 -0.22035 0.19825
-0.023723 -0.0081177 -0.0092682 -0.010944
-0.0027408 -0.011135 -0.0019436 -0.0096849 -0.0017226 0.00035439 -0.023761 -0.0080531
-0.27862 0.057999 -0.0068825 -0.0068636
0.0049663 -0.0063797 -0.00093203 -0.0014482 -0.002402 -0.0090241 -0.0093089 -0.01091
-0.0069344 -0.0068644 -0.25945 0.098871
740000000 -0.1928 0.17784 -0.039687 0.026661 0.013591 -0.0050355 1.9762e-05 -0.0041864
-0.0052567 -0.002657 -0.0065856 0.0037132
-0.039534 0.026424 -0.33517 0.1695 -0.036822 0.03482 -0.00014694 -0.0061649
-0.013198 0.007009 -0.0017002 -0.0060055
0.013682 -0.005036 -0.036774 0.034875 -0.069954 0.27854 -0.0019261 0.0033134
-0.0024252 -0.0057381 -0.0013525 0.0011536
-0.00027734 -0.0043702 -0.00042552 -0.0060057 -0.0020076 0.0033224 -0.20309 0.20517
-0.044182 -0.0076449 0.022112 0.015199
-0.004833 -0.0025765 -0.013035 0.006839 -0.002297 -0.0055906 -0.044247 -0.0076794
-0.17803 0.084741 -0.042129 -0.0001954
-0.006751 0.0031585 -0.0020399 -0.0059854 -0.001445 0.001078 0.02218 0.015186
-0.042204 -0.00022589 -0.24866 0.10601
800000000 -0.16165 0.22161 -0.022918 0.01659 0.0055987 -0.010517 -0.0045427 -0.0020946
-0.0046145 0.0021378 0.0041441 0.00042685
-0.022817 0.016433 -0.341 0.24001 -0.0085865 0.034057 -0.002244 0.0021983
-0.0012556 0.0027306 0.00068432 0.0052147
0.0056339 -0.010494 -0.0084614 0.034091 -0.030908 0.3024 0.00088248 0.0014529
-2.8562e-05 0.0035087 -0.0017916 0.00071068
-0.0045151 -0.0019509 -0.0023135 0.0022373 0.00083175 0.0014625 -0.17363 0.23258
-0.028588 0.013277 0.014043 -0.010241
-0.0044846 0.0021089 -0.0012832 0.0027697 -0.00010868 0.0035517 -0.028591 0.013351
-0.22012 0.11292 -0.016486 0.019252
0.0040999 0.00049061 0.00063936 0.0053617 -0.0018456 0.00080275 0.01399 -0.010192
-0.016424 0.019232 -0.23883 0.15364
860000000 -0.12683 0.24162 -0.017849 0.030479 -0.0028267 -0.010255 -0.001907 0.00059924
0.0038662 0.0053983 -0.0036558 -0.0025668
-0.017759 0.030355 -0.29226 0.28253 0.0074495 0.034442 -0.00011562 0.002292
0.0034788 0.00086889 0.0035593 0.00060491
-0.0028168 -0.010191 0.0075495 0.034479 0.016472 0.31079 -0.00071413 -4.7645e-05
0.0023685 -0.0013444 0.0017184 0.0044572
-0.0019139 0.00060592 -0.00012137 0.0022808 -0.00074261 -4.633e-05 -0.13707 0.24323
-0.018297 0.018138 -0.0062487 -0.0088203
0.0039304 0.0053514 0.0034885 0.0010165 0.0023402 -0.0012943 -0.018303 0.018163
-0.16353 0.16359 -0.024127 0.016698
-0.0038232 -0.0029469 0.0034895 0.00062609 0.0016308 0.0044385 -0.0062578 -0.0089065
-0.023976 0.016737 -0.1895 0.19723
920000000 -0.1033 0.26483 0.0044483 0.038094 -0.009314 -0.0049065 -0.001975 0.0017786
0.0012854 0.0018367 0.0027092 -0.0013712
0.0043922 0.038078 -0.26555 0.30383 0.027916 0.022776 0.0013314 0.0013132
0.0072043 -0.00030096 0.003908 -0.0024281
-0.0093666 -0.00491 0.028045 0.022744 0.06196 0.31222 0.0019462 1.7922e-05
0.0011802 -0.00017718 0.00093349 -0.0012268
-0.001957 0.0017689 0.0012953 0.0013361 0.0019205 4.1635e-05 -0.11286 0.26
-0.010681 0.030708 0.00348 -0.006342
0.0012683 0.0018661 0.0072508 -0.00032207 0.0011932 -0.00017287 -0.010642 0.030728
-0.1528 0.16969 -0.0012346 0.026665
0.0028722 -0.0012871 0.0038269 -0.0024463 0.00091792 -0.0012227 0.0034444 -0.0063248
-0.001157 0.026711 -0.19488 0.21171
980000000 -0.056818 0.28469 0.016795 0.030284 -0.0093477 0.0042434 0.0016967 0.0036734
0.0040743 -0.0017727 -0.0031099 -0.0025431
0.016801 0.030244 -0.21236 0.33849 0.033225 0.0054851 0.0020682 -7.2778e-05
0.0018473 -0.0059441 -0.00023469 -0.0026673
-0.0093007 0.0042525 0.033253 0.0053807 0.10776 0.30635 0.00067274 -0.0011594
0.00052339 -0.0020053 0.0013581 -0.00020541
0.0017294 0.0036769 0.0020255 -6.9351e-05 0.00065875 -0.0011802 -0.074543 0.27078
0.0073408 0.030228 -0.0089683 -0.0069415
0.0040315 -0.0018072 0.0017914 -0.0060137 0.00051721 -0.0020265 0.0074327 0.030228
-0.11833 0.19829 0.006182 0.019611
-0.0031131 -0.0023234 -0.00039115 -0.0027217 0.0013182 -0.00022042 -0.0089954 -0.0069616
0.0061319 0.019666 -0.15202 0.2547
1040000000 -0.015776 0.294 0.032718 0.019134 -0.0014703 0.0069736 0.0026195 0.00086895
0.00041173 -0.0035497 -3.4525e-05 -0.001491
0.032721 0.019106 -0.17735 0.35203 0.030074 -0.014419 0.0016527 -0.0017808
-0.0018898 -0.0027317 -0.00096035 -0.0029472
-0.0014493 0.0070122 0.030018 -0.014514 0.15351 0.29354 -0.00043526 -0.0016498
-0.0014616 -0.00096592 -0.00052525 -0.0010915
0.002506 0.00086354 0.0016711 -0.0017588 -0.00045134 -0.0016527 -0.047193 0.28061
0.019589 0.018655 -0.0024533 0.0014068
0.00041147 -0.0035043 -0.0019292 -0.0026904 -0.0014666 -0.00094366 0.019623 0.018635
-0.08468 0.20438 0.013985 0.017859
-0.0001091 -0.0016367 -0.0010724 -0.0029016 -0.00051376 -0.0010851 -0.0024469 0.0014197
0.014074 0.017819 -0.12854 0.27529
1100000000 0.029499 0.30281 0.036333 -0.0034658 0.0027867 0.0041052 0.0025005 -0.0012215
-0.0021301 -0.0030648 -0.0038208 -0.00025313
0.036324 -0.003432 -0.13404 0.36982 0.015898 -0.027812 7.4642e-05 -0.0019392
-0.0035691 -0.00092966 -0.0035128 -0.00068951
0.0028164 0.0040889 0.015809 -0.027925 0.19968 0.27421 -0.0019485 3.3297e-05
-0.0016739 0.00032755 -0.0010278 -0.00047487
0.0024828 -0.0011684 0.0001017 -0.0019256 -0.001964 5.3435e-05 -0.0067063 0.28542
0.025085 0.0053848 -0.0024132 -2.2067e-05
-0.002175 -0.003118 -0.0035836 -0.00090733 -0.0016928 0.00032795 0.025115 0.0053548
-0.063938 0.21718 0.019813 0.0079681
-0.0039035 -1.8396e-05 -0.003503 -0.00054925 -0.0010889 -0.00046566 -0.0024139 -3.424e-05
0.019818 0.0079669 -0.082539 0.30305
1160000000 0.080424 0.29884 0.024597 -0.020515 0.0027566 -0.00043253 -0.00012742 -0.0023494
-0.0039344 -0.00089091 -0.0011387 0.0039133
0.024613 -0.020467 -0.090786 0.37464 -0.0032079 -0.02957 -0.0017058 -0.0017564
-0.0029099 0.0025344 -0.0016833 0.0018586
0.0027642 -0.00044654 -0.0033411 -0.029587 0.24286 0.24421 -0.0008757 0.001795
-0.00063983 0.0019049 -0.00086691 0.00045305
-0.00013728 -0.0023696 -0.0017115 -0.0017566 -0.0008775 0.0017887 0.032503 0.28272
0.021446 -0.010384 -0.0031779 0.0048448
-0.0039545 -0.00077782 -0.0029285 0.0025651 -0.00064199 0.0019567 0.021455 -0.010411
-0.030166 0.2241 0.01809 -0.00086688
-0.0010104 0.0040203 -0.0016662 0.001864 -0.00081632 0.00047425 -0.0031616 0.0048362
0.018183 -0.00090931 -0.036148 0.30537
1220000000 0.12475 0.28914 0.011226 -0.030167 -0.0015933 -0.00094652 8.1175e-06 -0.00099064
-0.0026309 0.0022069 0.0010407 0.0020138
0.011226 -0.030138 -0.046803 0.38758 -0.016883 -0.021916 -0.00266 0.00044786
-4.2237e-05 0.0031309 -0.00086325 0.0018792
-0.0015932 -0.00096089 -0.017012 -0.021859 0.28208 0.2059 0.00072672 0.0018274
0.00060487 0.0013182 0.00027383 0.00054049
-1.3784e-05 -0.00095907 -0.0026525 0.00047164 0.00072564 0.0018259 0.072727 0.27422
0.011034 -0.017325 0.001966 0.0014982
-0.0026504 0.0021425 -5.236e-05 0.0031263 0.0005785 0.0013078 0.011001 -0.017334
-0.0060721 0.23229 0.013468 -0.013235
0.0010199 0.0021345 -0.00084367 0.0018304 0.00026118 0.00053887 0.0019718 0.0015006
0.013437 -0.013293 -0.0039819 0.31982
1280000000 0.17476 0.26846 -0.0076327 -0.028906 -0.0019778 0.0025099 -0.0009106 -0.0020421
-0.00074831 0.0031111 0.0025753 0.0013048
-0.0075904 -0.028881 -0.00091355 0.37932 -0.024113 -0.0091012 -0.0010734 0.0014697
0.0017643 0.0017808 0.00074868 0.0020506
-0.0019796 0.0024973 -0.024198 -0.0089998 0.31299 0.1625 0.0015805 1.0055e-05
0.0012692 0.00029907 0.00040951 0.00019658
-0.00090944 -0.0020505 -0.0010685 0.001455 0.0015972 1.4329e-05 0.10973 0.25788
0.0011468 -0.01978 -0.00018671 0.00037678
-0.00075926 0.0031237 0.0017979 0.0018013 0.0012729 0.00030404 0.0011221 -0.019797
0.03086 0.23465 0.0025384 -0.015575
0.0025823 0.001334 0.0007694 0.0020174 0.00041008 0.00020207 -0.00020916 0.00039946
0.0026068 -0.015641 0.042862 0.32056
1340000000 0.2122 0.2357 -0.017601 -0.01936 0.00075564 0.0047036 -0.0018295 -0.00088479
0.0013921 0.0026064 0.0017906 -0.0014008
-0.01758 -0.019332 0.038557 0.37192 -0.022049 0.0039912 -7.0768e-05 0.0020575
0.0020379 0.00075933 0.001166 0.00081045
0.00078095 0.0047039 -0.022058 0.0041052 0.3353 0.11544 0.0011465 -0.00088468
0.00066914 -0.00059703 8.387e-05 0.00028629
-0.0018153 -0.00088092 -7.0123e-05 0.0020563 0.0011528 -0.00089686 0.14278 0.23718
-0.0084638 -0.017114 0.00078235 0.00053126
0.0013713 0.0026609 0.0020376 0.00076805 0.00064562 -0.00058556 -0.0084884 -0.017111
0.060378 0.23 -0.0040559 -0.013985
0.0017963 -0.0013982 0.0011897 0.00077531 9.4412e-05 0.00026467 0.00078166 0.00051878
-0.0040809 -0.013982 0.080785 0.31517
1400000000 0.24613 0.19837 -0.023616 -0.0077025 0.0053051 0.0033954 -0.0022174 0.00060797
0.0024017 0.00094992 0.00033521 -0.0015758
-0.023596 -0.0077304 0.076272 0.35956 -0.015407 0.012553 0.0013869 0.0013116
0.0013222 -0.00079329 0.001185 0.00012647
0.0053247 0.0033676 -0.015353 0.012657 0.34888 0.062346 6.2637e-05 -0.0016378
0.00012736 -0.00038047 0.00022884 0.00017649
-0.002224 0.00061615 0.0014039 0.0013117 7.6286e-05 -0.0016531 0.17241 0.20808
-0.014781 -0.010287 -0.00079745 -3.9985e-05
0.0024237 0.00094976 0.0013393 -0.0008195 0.00012489 -0.00038799 -0.014808 -0.010255
0.09376 0.22523 -0.010459 -0.0087406
0.00037933 -0.0016155 0.0011592 0.00010709 0.00023065 0.00017953 -0.00081109 -2.3716e-05
-0.010484 -0.0087698 0.12489 0.30391
1460000000 0.26953 0.15476 -0.020497 0.0046989 0.0058623 -0.0017248 -0.0016198 0.0018097
0.0022618 -0.00040258 -0.00041298 -0.0009637
-0.02048 0.0047052 0.11082 0.33802 -0.0064206 0.015808 0.0017352 0.00019237
0.0008893 -0.0013686 0.0011944 -0.00054197
0.0058797 -0.001733 -0.0063433 0.015847 0.35559 0.0082902 -0.0012098 -0.0013334
0.00011149 -0.00023271 0.00073776 -0.00022235
-0.0016168 0.0017841 0.0017406 0.00017141 -0.0012079 -0.0013509 0.19883 0.17843
-0.016228 -0.0034637 -0.00084225 0.001996
0.002214 -0.00042081 0.00090253 -0.0014121 0.00011534 -0.00023707 -0.016239 -0.0034414
0.12272 0.21044 -0.012212 -0.0028119
-0.00047103 -0.00097296 0.0011714 -0.00057939 0.00069156 -0.00026008 -0.00082256 0.0020069
-0.012241 -0.0027625 0.15779 0.28284
1520000000 0.28235 0.11348 -0.014911 0.010282 0.0035639 -0.0043651 0.00017111 0.0026018
0.0021783 -0.001926 -0.0012061 -0.00018243
-0.014894 0.010264 0.1447 0.32386 0.0015838 0.013573 0.0016678 -0.0007819
4.4813e-05 -0.0011274 0.00033756 -0.00098815
0.0035375 -0.0043817 0.0016427 0.013588 0.34921 -0.047554 -0.0011275 -0.0003955
0.0005362 -0.0008679 8.1826e-05 -0.00017279
0.00017453 0.0025921 0.0016653 -0.00078749 -0.001125 -0.00039259 0.22197 0.14014
-0.015605 0.0027297 0.0015912 0.0020902
0.0021689 -0.0019755 4.368e-05 -0.0011157 0.00054868 -0.00087386 -0.015613 0.0027692
0.15091 0.19704 -0.011932 0.0019286
-0.001229 -0.00021747 0.00035041 -0.00098254 7.5833e-05 -0.00017149 0.0016053 0.0020956
-0.011961 0.0019557 0.19047 0.26151
1580000000 0.2925 0.067198 -0.0081602 0.013453 -0.0008714 -0.0052085 0.0015137 0.0019535
-0.00016871 -0.0021137 -0.00025401 0.00040079
-0.0081281 0.013451 0.17241 0.2992 0.0055244 0.0085348 0.00056107 -0.0016115
-0.00055288 -0.0010141 -0.00022256 -0.00080866
-0.00091858 -0.0051902 0.0055949 0.0085166 0.32995 -0.10511 -0.0016656 0.00056855
-0.00033314 -0.0011995 0.00028906 -0.00055358
0.0015173 0.0019749 0.00055007 -0.0016032 -0.0016656 0.00056716 0.23572 0.10038
-0.012036 0.0077977 0.002208 0.00074299
-0.00015623 -0.0021469 -0.00057025 -0.0010141 -0.00033266 -0.0012058 -0.012027 0.0078323
0.17517 0.17892 -0.0094579 0.0076215
-0.00031065 0.00050238 -0.00024339 -0.00081869 0.00025816 -0.00057249 0.0022015 0.00071312
-0.0094682 0.0076965 0.22192 0.23465
1640000000 0.29505 0.02612 -0.0013877 0.01233 -0.0029327 -0.0027402 0.0026959 0.0010656
-0.00074829 -0.0016217 -0.00038423 0.00061173
-0.0013704 0.012319 0.20218 0.27451 0.0062277 0.0034847 -0.00064334 -0.001762
-0.0010069 -0.00037963 -0.00050264 -0.00071503
-0.0029597 -0.0027429 0.0062566 0.003462 0.30174 -0.15452 -0.00064569 0.00153
-0.0010402 -0.00091296 -0.00011352 -0.00031067
0.0027254 0.001076 -0.0006548 -0.0017625 -0.00064496 0.0015363 0.24778 0.051676
-0.0076486 0.0094406 0.0026121 -0.00090359
-0.00074929 -0.001586 -0.0010081 -0.0003634 -0.001027 -0.00091895 -0.0076342 0.0094625
0.19836 0.15497 -0.0044811 0.0095052
-0.00036225 0.00063422 -0.00050167 -0.00071608 -0.00011495 -0.00030454 0.0026166 -0.00089441
-0.0044547 0.0095547 0.24696 0.20342
1700000000 0.28839 -0.019259 0.0020241 0.0094323 -0.003745 -5.7237e-05 0.0031309 -0.0012306
-0.0020058 -0.00069869 0.00065537 0.00038749
0.0020423 0.0094238 0.22075 0.24301 0.0041893 0.00040525 -0.0015046 -0.00061949
-0.00082519 7.3879e-05 -0.00089609 -0.00040705
-0.0037576 -5.7173e-05 0.0041876 0.00036728 0.25886 -0.19455 0.00041511 0.0015914
-0.0019936 -0.0001027 -0.00046147 -0.00082749
0.0031114 -0.0012392 -0.0015362 -0.00061833 0.00038713 0.0016056 0.24446 0.0015746
-0.0044718 0.010043 0.0015546 -0.0022759
-0.002028 -0.00064476 -0.00084872 5.8871e-05 -0.0020159 -0.00010411 -0.004448 0.010064
0.21596 0.13445 -4.2708e-05 0.0098081
0.00070893 0.00044482 -0.00092978 -0.00041968 -0.00051461 -0.0008059 0.0015324 -0.0023561
-9.5481e-06 0.0098265 0.26304 0.1693
1760000000 0.27671 -0.068086 0.0043957 0.0061943 -0.0024949 0.0010833 0.0013366 -0.0034615
-0.0014221 0.00060189 0.00034552 -0.00053257
0.0044121 0.0062094 0.24692 0.20323 0.0017822 -0.0014927 -0.0012172 0.00017932
-0.0010518 0.0009342 -0.00063083 0.00037632
-0.0024627 0.0011279 0.0017839 -0.0014778 0.21036 -0.22768 0.0011695 0.0010765
-0.0012902 0.001502 -0.0012975 -0.00074771
0.0012454 -0.0034672 -0.0012254 0.00018599 0.0011738 0.0010973 0.23509 -0.04959
-0.00099824 0.0092153 -0.00022496 -0.0026742
-0.0014314 0.00062468 -0.0010416 0.00093783 -0.0013004 0.001505 -0.00097988 0.0092266
0.23084 0.099646 0.0038792 0.0071094
0.00031251 -0.00055651 -0.00061368 0.00037504 -0.0012803 -0.0007194 -0.00021659 -0.0026468
0.0039793 0.0071026 0.27549 0.13162
1820000000 0.25243 -0.10546 0.0045391 0.0025529 -0.00031141 0.0025009 -0.0010497 -0.0031164
-0.0011906 0.0010219 -0.00013894 -0.00020417
0.0045165 0.0025603 0.25727 0.17313 -0.00068812 -0.00042833 -0.0013437 0.00095425
-5.5586e-05 0.0012655 -0.00065368 0.00054493
-0.00030405 0.0024856 -0.0006866 -0.00041705 0.15976 -0.24387 0.0015787 0.00037075
-0.00020406 0.0023598 -0.0015683 0.00021649
-0.0010041 -0.0031387 -0.0013401 0.00097444 0.0015447 0.00037802 0.20509 -0.096512
0.000729 0.0076968 -0.0019002 -0.0015361
-0.0011335 0.0010733 -5.6745e-05 0.0012632 -0.00018982 0.0023551 0.00076279 0.0076959
0.24809 0.070627 0.0046899 0.0035955
-8.6336e-05 -0.00017982 -0.00066839 0.0005725 -0.0015775 0.00025309 -0.0019213 -0.0015815
0.0047455 0.0036022 0.27721 0.095167
1880000000 0.21741 -0.14617 0.0023123 0.00022344 -0.00053294 0.0021666 -0.0029298 -0.0021696
-0.00018341 0.0019338 4.8567e-05 -0.00046552
0.0023584 0.00021636 0.26181 0.12643 -0.0026072 0.0015286 -0.00021319 0.0017473
0.00062597 0.0013362 5.5196e-05 0.0010083
-0.00045524 0.0022349 -0.0025875 0.0015622 0.10815 -0.25338 0.0018294 -0.00089505
0.0016086 0.0020324 -0.0010366 0.0014647
-0.0029522 -0.0022022 -0.00019976 0.0017503 0.0018323 -0.00089742 0.16435 -0.13654
0.0016281 0.0056433 -0.0024158 0.00027936
-0.00010364 0.0018937 0.00065263 0.0013287 0.0016032 0.0020204 0.0016436 0.0056465
0.25176 0.038938 0.0049415 0.0013861
6.5012e-06 -0.0006054 6.6473e-05 0.00099225 -0.0010095 0.0014813 -0.002379 0.00033037
0.0050501 0.0014017 0.27693 0.061324
1940000000 0.17777 -0.17173 -0.00020157 -0.0013662 0.0014075 0.0022564 -0.0036113 0.00046527
0.0015774 0.0012074 -0.00044859 -0.00061024
-0.00019241 -0.0013741 0.26239 0.094632 -0.00155 0.0041579 0.0011221 0.0012928
0.0019318 0.00054016 0.0010578 0.00043441
0.0013789 0.0022535 -0.0015351 0.004166 0.062087 -0.24596 0.00062043 -0.0023142
0.0024901 0.00043304 0.00045815 0.0017511
-0.0036067 0.00049649 0.0011402 0.0012912 0.00060017 -0.0023434 0.11241 -0.16711
0.0012303 0.0040401 -0.0014854 0.0018642
0.0015562 0.0012312 0.0019416 0.00053147 0.0025155 0.00040708 0.0012204 0.0040399
0.25482 0.00067214 0.0035676 -0.0017062
-0.00036412 -0.00050667 0.0010479 0.00043971 0.00046976 0.0017462 -0.0014733 0.0017763
0.0036476 -0.0017836 0.26564 0.024907
2000000000 0.1319 -0.18656 -0.0039408 0.0007084 0.0027182 0.0015343 -0.0023316 0.0037617
0.0013311 0.00037055 -0.00064048 0.00055453
-0.003986 0.0007094 0.24843 0.0591 -0.00092296 0.0059816 0.0015836 0.0003959
0.0014084 -0.0012421 0.00057362 0.00015347
0.0027138 0.0015311 -0.00086235 0.0059816 0.019221 -0.23212 -0.0013921 -0.001458
0.0021222 -0.0012876 0.0017578 0.0013454
-0.0023034 0.0038458 0.0015868 0.00039302 -0.001409 -0.0014661 0.05902 -0.17696
-0.0003312 0.003756 -5.5493e-06 0.0022372
0.001307 0.00038598 0.0014013 -0.0012536 0.0021005 -0.0012786 -0.00029391 0.0037705
