!Keysight Technologies,M9804A,MY58100912,A.14.10.03
!Date: Thursday, April 27, 2023 10:28:33
!Correction: S11(C  6-Port  ) 
!S12(C  6-Port  ) 
!S13(C  6-Port  ) 
!S14(C  6-Port  ) 
!S15(C  6-Port  ) 
!S16(C  6-Port  ) 
!S21(C  6-Port  ) 
!S22(C  6-Port  ) 
!S23(C  6-Port  ) 
!S24(C  6-Port  ) 
!S25(C  6-Port  ) 
!S26(C  6-Port  ) 
!S31(C  6-Port  ) 
!S32(C  6-Port  ) 
!S33(C  6-Port  ) 
!S34(C  6-Port  ) 
!S35(C  6-Port  ) 
!S36(C  6-Port  ) 
!S41(C  6-Port  ) 
!S42(C  6-Port  ) 
!S43(C  6-Port  ) 
!S44(C  6-Port  ) 
!S45(C  6-Port  ) 
!S46(C  6-Port  ) 
!S51(C  6-Port  ) 
!S52(C  6-Port  ) 
!S53(C  6-Port  ) 
!S54(C  6-Port  ) 
!S55(C  6-Port  ) 
!S56(C  6-Port  ) 
!S61(C  6-Port  ) 
!S62(C  6-Port  ) 
!S63(C  6-Port  ) 
!S64(C  6-Port  ) 
!S65(C  6-Port  ) 
!S66(C  6-Port  ) 
!S6P File: Measurement: :
# Hz S  RI   R 50
500000000 -0.33699 -0.041644 -0.010052 -0.0025423 -0.0082912 0.012462 -0.0049302 0.01199
0.011843 0.0046916 -0.0055286 0.0085772
-0.0099718 -0.0024841 -0.41839 -0.053463 0.0082193 -0.010492 0.0015758 0.012234
0.0076768 0.0014555 0.0018519 0.013911
-0.0082121 0.01247 0.0082399 -0.010551 -0.26484 0.20817 0.0075194 0.0037532
-0.0025331 0.0073644 0.0016821 0.012687
-0.0048198 0.012023 0.0015062 0.012322 0.0074848 0.0037801 -0.33421 0.03766
-0.019934 -0.0069847 0.015902 0.026473
0.011864 0.0045906 0.0076976 0.0013804 -0.0025392 0.0073405 -0.019986 -0.007025
-0.2183 -0.20707 -0.026519 0.0045815
-0.0053018 0.0085072 0.0016679 0.01399 0.0016281 0.012728 0.015828 0.026521
-0.026378 0.0047341 -0.25865 -0.15876
560000000 -0.31679 0.12051 -0.023975 -0.063369 8.4208e-05 0.011667 0.0053532 0.011051
0.010285 0.0045428 0.011443 0.0082783
-0.02396 -0.06327 -0.37662 0.1059 -0.04079 -0.0373 0.013732 0.0042164
-0.012765 -0.0045195 0.0026899 -0.00036565
0.00013741 0.011643 -0.040994 -0.037239 -0.18402 0.25646 -2.9328e-05 -0.0039655
0.019586 0.0057508 0.006726 -0.0058239
0.0052015 0.011077 0.013728 0.0041327 -2.5835e-06 -0.0039161 -0.31066 0.12973
0.0047121 -0.023365 0.0042475 -0.022453
0.010372 0.004433 -0.012801 -0.0046278 0.01957 0.0057987 0.0046943 -0.023441
-0.28794 -0.030608 0.0093953 -0.049673
0.011475 0.0082576 0.0028513 -0.00040421 0.0066841 -0.0058346 0.0042479 -0.022346
0.0093627 -0.049593 -0.32906 -0.0038165
620000000 -0.27611 0.1042 -0.023421 0.0079665 0.0031376 0.0083108 0.0082529 -0.0048294
0.010636 -0.00026709 0.0021992 -0.0026392
-0.023421 0.0079854 -0.4025 0.05802 -0.018433 -0.00036887 -0.0012003 -0.0018248
0.011444 -0.0061819 0.0015519 -0.0031517
0.0031878 0.0083062 -0.018401 -0.00030384 -0.1545 0.26483 -0.0010545 -0.0051064
-0.002593 -0.0024497 0.0082498 -0.0031236
0.0083933 -0.0048964 -0.0012233 -0.0017723 -0.0010381 -0.0051186 -0.26986 0.14128
-0.039298 -0.018891 0.012568 0.027455
0.010561 -0.00032408 0.011523 -0.0063568 -0.002515 -0.002464 -0.039371 -0.018872
-0.20591 -0.06941 -0.042864 0.014691
0.0020831 -0.0025569 0.0015275 -0.0032267 0.0083373 -0.0030658 0.012649 0.027523
-0.043064 0.014585 -0.24656 -0.044747
680000000 -0.23554 0.19061 -0.027263 -0.014601 0.0047634 0.0051391 0.0021172 -0.0071543
-0.0030605 -0.011409 0.0053483 -0.0069656
-0.027248 -0.01461 -0.38823 0.15628 -0.032674 -0.0015545 -0.0014098 -0.00041749
-0.0018105 -0.0086556 -0.0010533 -0.0017339
0.0047187 0.0051379 -0.032706 -0.0014821 -0.10291 0.28568 -0.00062509 -0.00041229
-0.0016543 0.00069977 -0.0026827 -0.0095344
0.0021336 -0.0071042 -0.0014301 -0.00039765 -0.00063541 -0.00041753 -0.22375 0.19438
-0.023993 -0.0065562 -0.0096714 -0.012847
-0.0030943 -0.011391 -0.0018647 -0.0086312 -0.0016818 0.00067864 -0.024041 -0.0065323
-0.2607 0.0315 -0.0056438 -0.0089541
0.0053944 -0.0070582 -0.0010443 -0.0017143 -0.0026695 -0.0095077 -0.0096881 -0.012863
-0.0056187 -0.0089101 -0.26335 0.067934
740000000 -0.19163 0.18506 -0.038732 0.026985 0.012206 -0.0050072 -1.5e-05 -0.0042995
-0.0035777 -0.0023879 -0.0065526 0.0023211
-0.038722 0.026913 -0.33547 0.1755 -0.035493 0.034827 -0.0005913 -0.0062984
-0.011332 0.0076762 -0.0022212 -0.0067519
0.01223 -0.0050574 -0.035408 0.03498 -0.068888 0.28412 -0.002303 0.0027621
-0.0021133 -0.0047694 -0.0014703 -0.0004012
-8.3218e-05 -0.0043806 -0.00057873 -0.0061897 -0.0023175 0.0027788 -0.20671 0.20244
-0.044576 -0.0068188 0.024223 0.016135
-0.0035369 -0.0022817 -0.011439 0.0077317 -0.0021654 -0.0048469 -0.044591 -0.0067768
-0.15878 0.059552 -0.045238 -0.0012531
-0.0064736 0.0022269 -0.002173 -0.0068955 -0.0014057 -0.00039601 0.024228 0.01608
-0.045255 -0.0013926 -0.25437 0.07237
800000000 -0.15886 0.22593 -0.022701 0.016565 0.0051318 -0.010629 -0.0045075 -0.0021732
-0.0039138 0.0023472 0.0049099 -0.00011583
-0.022687 0.016545 -0.33868 0.24549 -0.0080408 0.033772 -0.0023874 0.0021657
-0.00081117 0.0027 0.00099497 0.005282
0.0051104 -0.010669 -0.0079409 0.03381 -0.028334 0.30716 0.00086941 0.0015106
0.00018556 0.0034936 -0.0016773 0.00067633
-0.0045546 -0.0021385 -0.0023742 0.0021702 0.00085228 0.001516 -0.17728 0.23108
-0.02869 0.014565 0.014744 -0.010673
-0.0040065 0.0023745 -0.00075859 0.0026039 0.00019882 0.0034736 -0.028675 0.014617
-0.20858 0.082134 -0.018232 0.019245
0.0048298 -0.00016252 0.0010375 0.0052419 -0.0017256 0.00063261 0.014764 -0.010698
-0.018262 0.01923 -0.25222 0.12361
860000000 -0.12402 0.24669 -0.017606 0.030733 -0.00338 -0.0097422 -0.0021877 0.00056722
0.0039254 0.0047565 -0.0034892 -0.0034712
-0.017627 0.030717 -0.29115 0.28785 0.0075794 0.034012 9.5899e-05 0.0019157
0.0037769 0.0001304 0.0030355 0.00067814
-0.0034265 -0.0097452 0.0076914 0.034017 0.019832 0.31515 -0.00064385 -0.00010918
0.0026765 -0.0014396 0.0012961 0.0042813
-0.0020823 0.00057041 0.00012984 0.0019831 -0.00065338 -0.00012113 -0.13957 0.24172
-0.017686 0.018838 -0.0064008 -0.0091603
0.0040205 0.0047058 0.0039354 9.2093e-05 0.0026927 -0.0014516 -0.017662 0.018903
-0.15647 0.13534 -0.027917 0.01513
-0.0035585 -0.0033485 0.0029427 0.00063892 0.0013056 0.0042975 -0.0065152 -0.0091595
-0.028028 0.015263 -0.19997 0.17346
920000000 -0.099731 0.26991 0.0048566 0.037874 -0.0093094 -0.0043132 -0.0019345 0.0018279
0.0007194 0.0018346 0.0027031 -0.0015703
0.0048305 0.037851 -0.26213 0.30899 0.027868 0.021941 0.0013834 0.0011332
0.0070041 -0.0003098 0.0038235 -0.0027247
-0.0093382 -0.0043185 0.027983 0.021904 0.06605 0.31567 0.0019585 0.0001648
0.0011701 -0.00038831 0.0006473 -0.0011344
-0.0019195 0.0017879 0.0013587 0.0011211 0.0019428 0.00016434 -0.11561 0.25873
-0.0106 0.031281 0.0043595 -0.0069781
0.00069075 0.0018303 0.0069981 -0.00033092 0.0011697 -0.0003643 -0.010554 0.031314
-0.14756 0.14152 -0.0033764 0.028262
0.0026448 -0.0013934 0.0038393 -0.0027925 0.00071943 -0.0012043 0.0042863 -0.0069978
-0.0034048 0.028249 -0.21393 0.18769
980000000 -0.052215 0.28964 0.017293 0.029999 -0.0088636 0.0046199 0.0018904 0.0035122
0.0039436 -0.0010012 -0.0031711 -0.0020871
0.017271 0.029996 -0.20903 0.34299 0.032775 0.0050242 0.0020075 -1.9601e-05
0.0015446 -0.0057646 -0.00039937 -0.0021571
-0.0088518 0.0046418 0.032833 0.0049305 0.1121 0.30894 0.00063357 -0.0011524
0.0004669 -0.0019938 0.0014896 -0.00012626
0.001917 0.0035114 0.0020349 -4.0939e-05 0.00063763 -0.0011548 -0.076388 0.26944
0.0081864 0.030877 -0.009149 -0.0076079
0.0038274 -0.0010889 0.0014906 -0.0057813 0.00042927 -0.001987 0.0082593 0.030875
-0.1169 0.1717 0.004399 0.020243
-0.0032638 -0.0020621 -0.00051236 -0.0021847 0.0014596 -0.00010654 -0.0091319 -0.0075874
0.0043739 0.020246 -0.17105 0.23629
1040000000 -0.0099338 0.29791 0.033069 0.01844 -0.001167 0.0069585 0.0024556 0.00072895
0.00012318 -0.0035802 3.1752e-05 -0.0012456
0.033053 0.018457 -0.17348 0.35609 0.029225 -0.014484 0.0015314 -0.0017237
-0.0023455 -0.0025537 -0.0012731 -0.0025412
-0.0011747 0.0069358 0.029216 -0.014586 0.15775 0.29532 -0.00043162 -0.0016141
-0.0015536 -0.00097169 -0.0003613 -0.0011288
0.002452 0.00070281 0.0015138 -0.0017097 -0.00044133 -0.0016135 -0.049126 0.27932
0.019945 0.018592 -0.0018534 0.001109
0.000181 -0.0036639 -0.0023075 -0.0025221 -0.0015236 -0.00099345 0.019998 0.018577
-0.08426 0.17943 0.013119 0.01977
-1.0033e-05 -0.00123 -0.0012696 -0.0025336 -0.00036185 -0.0011228 -0.0018334 0.0010922
0.013206 0.01978 -0.15202 0.25771
1100000000 0.035556 0.30583 0.035708 -0.0039209 0.0029375 0.0038236 0.002242 -0.00121
-0.0019157 -0.0031955 -0.0037798 3.2525e-05
0.03569 -0.0038994 -0.1301 0.37314 0.015183 -0.027377 -1.231e-05 -0.0017466
-0.0032152 -0.00094493 -0.0034283 -0.00056451
0.002952 0.0038131 0.015094 -0.027472 0.20377 0.27521 -0.0018792 9.0387e-05
-0.0017644 0.00034965 -0.001046 -0.00048358
0.0022406 -0.0012388 -3.4571e-05 -0.0017466 -0.0018755 9.2566e-05 -0.0086013 0.28389
0.025448 0.0054726 -0.0026181 -0.00049679
-0.0019644 -0.0031962 -0.0032328 -0.00093953 -0.0017596 0.00035031 0.025465 0.005443
-0.066669 0.19374 0.019119 0.0098485
-0.0038143 4.2309e-05 -0.0034351 -0.00051035 -0.0010403 -0.0004936 -0.0026036 -0.00049758
0.019118 0.0098555 -0.10674 0.29186
1160000000 0.086906 0.3007 0.02395 -0.020266 0.0028213 -0.00059746 -0.0003806 -0.0023105
-0.0039823 -0.00086514 -0.00093822 0.0040722
0.023954 -0.020223 -0.086644 0.37703 -0.0032749 -0.028833 -0.0016423 -0.0017389
-0.0027384 0.0022343 -0.0012548 0.0018532
0.0028169 -0.00061036 -0.0034046 -0.028836 0.24664 0.24485 -0.00083125 0.0017013
-0.00072474 0.0019106 -0.00098761 0.00020446
-0.00037949 -0.0023038 -0.0016476 -0.0017367 -0.0008132 0.0017039 0.03062 0.28062
0.022227 -0.010429 -0.0033998 0.0051449
-0.0040342 -0.00083712 -0.0027663 0.0022683 -0.000715 0.0019289 0.022209 -0.010458
-0.032751 0.20306 0.018606 0.0016856
-0.00092424 0.0040835 -0.0012924 0.0019093 -0.00096883 0.00017372 -0.0033899 0.0052013
0.018605 0.0016495 -0.059239 0.29503
1220000000 0.13114 0.28949 0.010765 -0.029643 -0.0015394 -0.00099336 6.5302e-05 -0.00076129
-0.0026837 0.0023841 0.0012185 0.0021164
0.010792 -0.029604 -0.042598 0.38912 -0.016392 -0.021147 -0.0025042 0.00034111
-0.00017779 0.002955 -0.00087047 0.0018706
-0.0015324 -0.00098729 -0.016501 -0.021093 0.28607 0.20639 0.0006717 0.0017125
0.00052753 0.0012951 0.00037212 0.00071276
7.1736e-05 -0.00075225 -0.0025059 0.00034843 0.00067868 0.0017178 0.070277 0.27192
0.01143 -0.017573 0.0020052 0.0012259
-0.0026827 0.0023324 -0.0001593 0.0029352 0.0005395 0.0012847 0.011411 -0.017588
-0.01086 0.21185 0.015192 -0.012036
0.0012139 0.0020971 -0.00086215 0.0018848 0.00035891 0.00071215 0.0020026 0.0012356
0.015177 -0.01203 -0.029234 0.31556
1280000000 0.18062 0.26744 -0.0073669 -0.028321 -0.0019066 0.0022819 -0.00075671 -0.001929
-0.00081386 0.0029391 0.0023611 0.0012599
-0.0073411 -0.028306 0.003001 0.38019 -0.023261 -0.0088183 -0.0010486 0.001361
0.001491 0.0019199 0.00057842 0.0021371
-0.0019041 0.0022819 -0.023334 -0.0087159 0.31715 0.16274 0.0016299 0.00018006
0.0011244 0.00034056 0.00032514 0.00030652
-0.00076195 -0.0019452 -0.0010395 0.0013718 0.0016329 0.00016502 0.10688 0.25499
0.0021366 -0.020068 -0.00052952 0.0002077
-0.00081274 0.0029618 0.0014962 0.0019085 0.0011133 0.00033784 0.0021027 -0.020087
0.025654 0.21595 0.0040761 -0.014482
0.0023435 0.0012779 0.00059563 0.0021674 0.00036426 0.00031312 -0.00053804 0.00020359
0.0040822 -0.014487 0.019881 0.32011
1340000000 0.21748 0.23378 -0.017002 -0.019199 0.00078042 0.0043117 -0.0015565 -0.00092307
0.0013221 0.0026916 0.0017565 -0.0012884
-0.016967 -0.019201 0.042206 0.37243 -0.021444 0.0037102 -0.00026229 0.0020236
0.0018177 0.0010561 0.0013387 0.00079161
0.00080174 0.0043128 -0.021444 0.0038161 0.33962 0.1148 0.0012979 -0.000868
0.00081075 -0.00044052 0.00024125 0.00036551
-0.001562 -0.00094322 -0.00024777 0.0020286 0.0013052 -0.00087103 0.1385 0.2345
-0.0078218 -0.01786 0.0007541 0.00065229
0.001359 0.0026667 0.0018164 0.0010569 0.00080377 -0.00042966 -0.0078606 -0.017842
0.054463 0.21132 -0.0022338 -0.013669
0.001748 -0.0013158 0.0013426 0.00080299 0.00024889 0.00039491 0.0007651 0.00065326
-0.0022453 -0.013664 0.058186 0.3182
1400000000 0.25022 0.1958 -0.023 -0.0080066 0.0049344 0.0030617 -0.0021047 0.00043185
0.0022489 0.00089009 0.00049215 -0.0012907
-0.022971 -0.0080191 0.079503 0.35969 -0.014977 0.011895 0.0012736 0.0014897
0.0012846 -0.00065187 0.0013128 0.00033768
0.0049589 0.0030408 -0.014934 0.011986 0.35325 0.060763 0.00030893 -0.001749
-8.004e-06 -0.00045413 0.00047184 0.00022673
-0.0021148 0.00043819 0.0012805 0.0014944 0.00030198 -0.001744 0.16731 0.20566
-0.014302 -0.011486 -0.0010983 -0.00043699
0.0022687 0.0009005 0.0012702 -0.00066445 7.7537e-06 -0.0004545 -0.014349 -0.011462
0.086705 0.2077 -0.008809 -0.0095572
0.00046378 -0.0012761 0.0012984 0.00034048 0.00048201 0.00022754 -0.0011053 -0.00043544
-0.0087967 -0.0095481 0.1048 0.30909
1460000000 0.27291 0.15219 -0.020378 0.0040239 0.0054706 -0.001674 -0.0017575 0.0016694
0.0020305 -0.00033264 -0.00028583 -0.001033
-0.02037 0.0040067 0.11391 0.33823 -0.0065599 0.014974 0.0018336 0.00029778
0.0010632 -0.0013393 0.0011788 -0.00066879
0.0054309 -0.001686 -0.0064857 0.015036 0.35907 0.0059837 -0.0013495 -0.0015551
0.00015609 -0.00035846 0.0005563 -0.00040153
-0.0017394 0.0016668 0.0018263 0.0002877 -0.0013404 -0.0015622 0.19252 0.17694
-0.016571 -0.0048802 -0.00094039 0.00228
0.0020299 -0.0003664 0.0010539 -0.0013385 0.00014314 -0.00035484 -0.01659 -0.0048471
0.11491 0.19357 -0.01115 -0.0037093
-0.00029381 -0.0010142 0.0011937 -0.00068415 0.00055413 -0.00040807 -0.00092875 0.0022867
-0.011142 -0.0037071 0.13913 0.28945
1520000000 0.2852 0.11078 -0.01513 0.0097148 0.0031925 -0.0039898 -8.0874e-06 0.0027009
0.0022252 -0.0014981 -0.0011053 -0.00025237
-0.015121 0.0096954 0.14777 0.32361 0.0010527 0.013095 0.0018166 -0.00077791
9.5101e-05 -0.001207 0.00037016 -0.0010285
0.0031774 -0.0040332 0.0011318 0.013096 0.35197 -0.050875 -0.0012951 -0.00047436
0.00055167 -0.00076391 0.00010918 -9.9126e-05
1.3881e-05 0.0027036 0.0018121 -0.00079349 -0.0013025 -0.0004787 0.21491 0.14016
-0.016871 0.0014765 0.0014921 0.0022874
0.0021979 -0.0015206 9.0271e-05 -0.0012151 0.00055267 -0.00077881 -0.016881 0.0015195
0.14192 0.18076 -0.011767 0.00034653
-0.0011152 -0.00023265 0.00035894 -0.0010406 9.984e-05 -0.00010243 0.0014995 0.0022856
-0.011777 0.00034947 0.17426 0.27137
1580000000 0.29477 0.064802 -0.0086866 0.013121 -0.00085396 -0.0046978 0.0014342 0.002064
-3.1198e-05 -0.0020611 -0.00044592 0.00044643
-0.0086968 0.013094 0.17538 0.29884 0.0047991 0.0085214 0.00055696 -0.00171
-0.00067562 -0.00119 -0.00026535 -0.00078808
-0.00087688 -0.0047241 0.0048473 0.0085143 0.33129 -0.10835 -0.0018716 0.00084419
-0.00023339 -0.0010713 7.1897e-05 -0.00048053
0.001452 0.0020701 0.00054809 -0.0017164 -0.001874 0.00083821 0.22838 0.10235
-0.013891 0.007498 0.002442 0.0011235
-3.643e-05 -0.0020435 -0.00069007 -0.001198 -0.00024708 -0.0010795 -0.013887 0.0075306
0.16592 0.16398 -0.0096852 0.0065878
-0.00044984 0.00042143 -0.00026992 -0.00077629 7.9099e-05 -0.00047784 0.0024408 0.0011273
-0.0096736 0.0065829 0.20863 0.24486
1640000000 0.29714 0.023478 -0.0019634 0.012461 -0.002433 -0.0025457 0.0029123 0.0010712
-0.00042733 -0.0016756 -0.00029531 0.00055911
-0.0019691 0.012463 0.20523 0.27365 0.0058013 0.003891 -0.00070287 -0.0018489
-0.0011604 -0.00039855 -0.00041868 -0.00072145
-0.0024372 -0.002524 0.0058252 0.0038481 0.30254 -0.15743 -0.00064333 0.0017023
-0.00090393 -0.0011001 -0.00010313 -0.00036733
0.0029254 0.0010588 -0.0007217 -0.0018481 -0.00065266 0.0016958 0.24083 0.055346
-0.0094727 0.010055 0.0026725 -0.00076537
-0.0004477 -0.0016758 -0.0011681 -0.0003812 -0.00091678 -0.0011023 -0.0094495 0.010094
0.18799 0.14122 -0.0053391 0.0088034
-0.00026185 0.00057024 -0.00042531 -0.0007109 -0.00010426 -0.00035822 0.00267 -0.00077292
-0.0053303 0.0088073 0.23531 0.21441
1700000000 0.29019 -0.022209 0.0016079 0.0099587 -0.0033599 -1.6037e-06 0.0031812 -0.0013147
-0.0020178 -0.00098676 0.00070797 0.00049047
0.0015995 0.0099482 0.22345 0.24175 0.0039854 0.00090211 -0.0015579 -0.00064019
-0.00083486 0.00021298 -0.0009151 -0.00049932
-0.0033826 -4.6927e-06 0.0039798 0.00087244 0.25901 -0.19696 0.00069031 0.0017119
-0.0018919 -0.00030779 -0.00040838 -0.00078757
0.0031687 -0.0013099 -0.001573 -0.00062664 0.00069095 0.0017174 0.23875 0.0074623
-0.0058361 0.011734 0.0016812 -0.002244
-0.0020526 -0.00099043 -0.0008429 0.00020847 -0.0019258 -0.00030486 -0.0058108 0.011749
0.20551 0.12228 -0.00075668 0.0096332
0.00071074 0.00047504 -0.00092344 -0.00048621 -0.00040324 -0.00079325 0.001676 -0.0022607
-0.00075218 0.0096326 0.25326 0.18002
1760000000 0.27784 -0.071229 0.0043141 0.0067806 -0.0022103 0.000813 0.0012256 -0.0035258
-0.0015869 0.00046572 0.00048768 -0.00062094
0.0043096 0.0067854 0.2494 0.20149 0.0018525 -0.0010376 -0.0012925 0.00022522
-0.000888 0.0010566 -0.00053793 0.00035866
-0.0021818 0.00087874 0.0018469 -0.0010579 0.2103 -0.2301 0.0013731 0.00089629
-0.0012546 0.0014157 -0.0012068 -0.00044654
0.0012092 -0.0035415 -0.0012947 0.00023144 0.0013743 0.00089742 0.23156 -0.042406
-0.0011237 0.011385 -3.9399e-05 -0.0026586
-0.0015533 0.00049143 -0.00089378 0.0010648 -0.0012773 0.0014309 -0.0011035 0.01139
0.22056 0.088668 0.0033991 0.007352
0.00046612 -0.00060213 -0.00052857 0.0003752 -0.0012213 -0.00043617 -4.2793e-05 -0.002664
0.0034165 0.0073412 0.26661 0.14249
1820000000 0.25289 -0.10864 0.0048169 0.0031332 -3.9778e-05 0.0024891 -0.0011081 -0.0030706
-0.0014773 0.0009685 -7.1247e-05 -0.00017771
0.004793 0.0031324 0.25916 0.17109 -0.00019627 4.9355e-05 -0.0013205 0.0010714
0.00014798 0.0012515 -0.00060346 0.00050557
-5.6116e-05 0.0024786 -0.00020164 4.4146e-05 0.15953 -0.24528 0.0014509 0.00023511
-0.00035432 0.0023422 -0.001353 0.00022044
-0.0011243 -0.0030565 -0.0013177 0.00108 0.0014406 0.00023635 0.20418 -0.089213
0.0016444 0.0094189 -0.0015512 -0.0017092
-0.0014666 0.00096077 0.00015431 0.0012348 -0.00033783 0.002322 0.0016696 0.0094174
0.23856 0.06083 0.0046112 0.0040752
-8.5483e-05 -0.0001791 -0.00061599 0.00049731 -0.0013469 0.00024678 -0.001541 -0.0016946
0.0046086 0.0040909 0.27036 0.10725
1880000000 0.2174 -0.14913 0.0028292 0.00055868 -0.0003736 0.0020205 -0.0029732 -0.0021608
-0.00030736 0.0019818 0.00021316 -0.00057546
0.002834 0.00055356 0.26325 0.12433 -0.0021724 0.0016545 -0.00010078 0.0016849
0.00063446 0.0010182 3.9982e-05 0.00093636
-0.00036351 0.0020559 -0.0021458 0.0016824 0.10749 -0.25477 0.001516 -0.00096207
0.0015235 0.0020957 -0.0011227 0.0013072
-0.0029727 -0.0021238 -9.4704e-05 0.0016905 0.0015225 -0.00095464 0.16609 -0.13033
0.0033988 0.0066058 -0.0023306 0.00033242
-0.00027073 0.0019734 0.00065494 0.0010125 0.0015298 0.0021187 0.0034143 0.0066018
0.24251 0.029271 0.0050745 0.0020578
0.00021352 -0.00057335 4.4981e-05 0.00094552 -0.0010765 0.0012786 -0.0023203 0.00033598
0.0050856 0.0020604 0.27097 0.072691
1940000000 0.17752 -0.17447 0.00054229 -0.0014087 0.0012867 0.001838 -0.0036501 0.00062782
0.0014943 0.0012794 -0.00083599 -0.00050547
0.0005548 -0.0014128 0.26339 0.092494 -0.00093526 0.0039178 0.0010437 0.0012734
0.0016882 0.00024505 0.00081596 0.00027733
0.0013282 0.0018158 -0.00093067 0.0039366 0.061859 -0.24748 0.00030394 -0.0018548
0.0024544 0.00045235 0.00027577 0.001657
-0.0036338 0.00066866 0.0010366 0.0012703 0.00029127 -0.0018459 0.11523 -0.16309
0.0029822 0.0041038 -0.0014534 0.0014144
0.0015093 0.0013126 0.0016726 0.00024293 0.0024393 0.00042276 0.0029797 0.0040873
0.24571 -0.0094391 0.0040683 -0.0017399
-0.00085533 -0.00051711 0.00082241 0.00028961 0.00025615 0.0016639 -0.0014646 0.001426
0.0040524 -0.0017519 0.26112 0.037741
2000000000 0.1309 -0.18895 -0.0035244 0.0004489 0.0022931 0.0016552 -0.0023355 0.0033575
0.0013942 0.00010317 -0.00065691 0.00035674
-0.0035267 0.00044876 0.24884 0.056998 -0.00073849 0.0056576 0.0015291 0.0003405
0.0010461 -0.0012773 0.00051064 0.00016744
0.0022882 0.0015962 -0.00069759 0.0056774 0.01857 -0.23297 -0.0010701 -0.0010646
0.0020052 -0.0011573 0.0016018 0.0012877
-0.002293 0.0033445 0.0015517 0.00032838 -0.0010672 -0.0010716 0.061743 -0.1752
0.0011379 0.0027177 -5.783e-05 0.0020912
0.0013896 7.2413e-05 0.0010456 -0.0012726 0.0020636 -0.0011843 0.0011393 0.0027226
0.2409 -0.043687 0.00086656 -0.0027503
