!Keysight Technologies,M9804A,MY58100912,A.14.10.03
!Date: Thursday, April 27, 2023 10:28:33
!Correction: S11(C  6-Port  ) 
!S12(C  6-Port  ) 
!S13(C  6-Port  ) 
!S14(C  6-Port  ) 
!S15(C  6-Port  ) 
!S16(C  6-Port  ) 
!S21(C  6-Port  ) 
!S22(C  6-Port  ) 
!S23(C  6-Port  ) 
!S24(C  6-Port  ) 
!S25(C  6-Port  ) 
!S26(C  6-Port  ) 
!S31(C  6-Port  ) 
!S32(C  6-Port  ) 
!S33(C  6-Port  ) 
!S34(C  6-Port  ) 
!S35(C  6-Port  ) 
!S36(C  6-Port  ) 
!S41(C  6-Port  ) 
!S42(C  6-Port  ) 
!S43(C  6-Port  ) 
!S44(C  6-Port  ) 
!S45(C  6-Port  ) 
!S46(C  6-Port  ) 
!S51(C  6-Port  ) 
!S52(C  6-Port  ) 
!S53(C  6-Port  ) 
!S54(C  6-Port  ) 
!S55(C  6-Port  ) 
!S56(C  6-Port  ) 
!S61(C  6-Port  ) 
!S62(C  6-Port  ) 
!S63(C  6-Port  ) 
!S64(C  6-Port  ) 
!S65(C  6-Port  ) 
!S66(C  6-Port  ) 
!S6P File: Measurement: :
# Hz S  RI   R 50
500000000 -0.33678 -0.041294 -0.0098115 -0.0024359 -0.0081706 0.012459 -0.0048315 0.012093
0.012009 0.0049609 -0.0054333 0.0089315
-0.0098012 -0.0024356 -0.4185 -0.053548 0.0082727 -0.010287 0.0015258 0.012255
0.0076343 0.0012515 0.0021962 0.01364
-0.0080909 0.012494 0.0081671 -0.010418 -0.26478 0.20811 0.0074057 0.0038255
-0.0027935 0.0073953 0.0014662 0.012233
-0.0048343 0.012058 0.0015929 0.012275 0.0074565 0.0038285 -0.33387 0.037777
-0.020355 -0.0070567 0.016357 0.027366
0.012043 0.0049981 0.0074324 0.0014084 -0.0028473 0.0074085 -0.020415 -0.0070406
-0.21775 -0.20745 -0.026837 0.0048568
-0.0054914 0.0087921 0.0022321 0.01384 0.001571 0.012309 0.016318 0.027377
-0.026748 0.0047572 -0.25867 -0.15733
560000000 -0.31704 0.12085 -0.023533 -0.063468 -0.00023071 0.011723 0.005489 0.01081
0.010059 0.0046235 0.011622 0.0083315
-0.023534 -0.063463 -0.37752 0.10604 -0.0403 -0.037647 0.013823 0.0042586
-0.01238 -0.0050355 0.0026981 0.00027103
-0.00016984 0.011747 -0.040456 -0.037623 -0.18378 0.25669 7.8699e-06 -0.004253
0.019423 0.0058384 0.006604 -0.0057808
0.005467 0.01078 0.013798 0.0043276 -1.4892e-05 -0.0043005 -0.31054 0.13041
0.0048236 -0.023796 0.0043508 -0.022166
0.010126 0.004628 -0.012525 -0.0052139 0.019491 0.0058771 0.0048046 -0.023859
-0.28938 -0.03139 0.0096372 -0.049479
0.011591 0.0082801 0.0026026 0.00041192 0.0066138 -0.0059574 0.0043074 -0.022131
0.0096535 -0.049513 -0.32985 -0.004355
620000000 -0.27622 0.10421 -0.023322 0.007872 0.0030281 0.0082467 0.0082509 -0.0049275
0.010942 9.0969e-05 0.0022061 -0.0027333
-0.023288 0.0078151 -0.40266 0.057883 -0.018496 -0.00028057 -0.0012025 -0.0020101
0.011586 -0.0060577 0.0017869 -0.0030838
0.0030833 0.0082227 -0.018479 -0.00026024 -0.15462 0.2653 -0.0010464 -0.0051544
-0.0025246 -0.0023024 0.0083578 -0.003407
0.0082117 -0.0049342 -0.001146 -0.0019698 -0.0011144 -0.0051701 -0.26986 0.14151
-0.039435 -0.019265 0.012418 0.027425
0.01108 3.4964e-05 0.011496 -0.0061934 -0.002521 -0.002333 -0.039393 -0.01925
-0.20613 -0.069428 -0.043156 0.015298
0.0021536 -0.0029024 0.0017787 -0.0030247 0.0083663 -0.0034293 0.012448 0.027402
-0.043124 0.015174 -0.24689 -0.0458
680000000 -0.23581 0.19042 -0.02734 -0.01469 0.0047134 0.0050194 0.0020378 -0.0072653
-0.0032934 -0.011307 0.005445 -0.0068146
-0.027325 -0.014702 -0.38816 0.15604 -0.032574 -0.0016509 -0.0014144 -0.00048069
-0.0019137 -0.008763 -0.00095234 -0.0016101
0.0046892 0.0050293 -0.032607 -0.0015619 -0.10287 0.2856 -0.00066171 -0.00056702
-0.0017597 0.00054411 -0.0026941 -0.0092805
0.0020289 -0.0072382 -0.0014163 -0.00048008 -0.00063743 -0.00057199 -0.22372 0.194
-0.024258 -0.0068225 -0.0097497 -0.012291
-0.0033256 -0.011342 -0.0019717 -0.0088137 -0.0017512 0.00056388 -0.024331 -0.0067997
-0.26161 0.030822 -0.0058202 -0.0082038
0.005495 -0.0068063 -0.0010443 -0.0016761 -0.0027472 -0.0093085 -0.009778 -0.012316
-0.0058748 -0.0081445 -0.26305 0.067058
740000000 -0.19163 0.18497 -0.038635 0.026892 0.012452 -0.0049474 -3.5075e-05 -0.0044174
-0.0035958 -0.0023713 -0.0064905 0.0024496
-0.038709 0.026788 -0.33568 0.17529 -0.035529 0.034789 -0.00074225 -0.0062697
-0.01114 0.0075029 -0.0019743 -0.0067544
0.012363 -0.0049863 -0.035485 0.034891 -0.068895 0.28397 -0.0023414 0.0028447
-0.0018573 -0.0049822 -0.0016608 -0.00041314
1.6267e-05 -0.0044272 -0.000713 -0.0063236 -0.0023443 0.002846 -0.20676 0.20241
-0.044462 -0.0068712 0.024191 0.016476
-0.0036131 -0.002358 -0.011314 0.0076048 -0.0018526 -0.0049935 -0.044495 -0.0068516
-0.15799 0.05985 -0.045522 -0.001524
-0.0065055 0.0025076 -0.0020648 -0.0066538 -0.0016017 -0.00037758 0.024186 0.016407
-0.045441 -0.0014757 -0.25457 0.071731
800000000 -0.15902 0.22602 -0.022591 0.016555 0.0051783 -0.010557 -0.0045685 -0.0022921
-0.0037993 0.0021673 0.0048591 -0.0003133
-0.022582 0.016515 -0.33873 0.24554 -0.0080487 0.033815 -0.0024193 0.0022219
-0.00061294 0.0027077 0.0010515 0.0052262
0.0051405 -0.010569 -0.0079553 0.03388 -0.028375 0.30724 0.00082071 0.0015156
0.00022608 0.0035393 -0.0018185 0.00055215
-0.0045847 -0.0022474 -0.0024399 0.0021926 0.00080843 0.0014966 -0.17739 0.23103
-0.028691 0.014502 0.014823 -0.010752
-0.0038591 0.0021717 -0.00062081 0.0026951 0.00022985 0.0035543 -0.028689 0.014557
-0.20853 0.082525 -0.018088 0.019393
0.0048698 -0.00029557 0.0010579 0.0052764 -0.001815 0.00054839 0.014797 -0.010756
-0.018073 0.019416 -0.25269 0.1231
860000000 -0.12409 0.24667 -0.01762 0.030684 -0.003348 -0.0097564 -0.0023146 0.00068832
0.0040259 0.0046214 -0.0035813 -0.003374
-0.017637 0.03066 -0.29102 0.28767 0.0075951 0.034056 4.8152e-05 0.0020193
0.0040198 0.00038688 0.0030627 0.00069007
-0.0033746 -0.0097533 0.0077285 0.034081 0.019735 0.31513 -0.00058548 -5.7371e-05
0.0027622 -0.0013357 0.0012015 0.0042664
-0.0023006 0.00070261 3.9975e-05 0.0020543 -0.00059326 -5.5012e-05 -0.13981 0.24175
-0.017763 0.019048 -0.0063103 -0.0091297
0.0041036 0.0045963 0.0040552 0.00028573 0.002769 -0.0013416 -0.01771 0.019124
-0.15672 0.13551 -0.027227 0.014873
-0.0035914 -0.0033381 0.0030136 0.00075148 0.0012288 0.0042492 -0.0062934 -0.0091087
-0.027127 0.014932 -0.20072 0.17288
920000000 -0.099731 0.26983 0.0048835 0.037881 -0.0092488 -0.0043481 -0.0018584 0.0017341
0.00067059 0.0018466 0.0026358 -0.0014535
0.0048846 0.037843 -0.26226 0.30893 0.027844 0.022012 0.0013119 0.0010728
0.0070098 -0.00022018 0.0038603 -0.0025432
-0.0092635 -0.0043272 0.027951 0.021941 0.065892 0.31563 0.001941 6.2192e-05
0.0010326 -0.0002507 0.00076718 -0.00092327
-0.0018826 0.0017383 0.0013329 0.0010898 0.0019407 6.6269e-05 -0.11565 0.25851
-0.010657 0.031294 0.0043733 -0.0067495
0.00068793 0.0018529 0.0069586 -0.00023824 0.0010336 -0.00024591 -0.010597 0.031315
-0.14765 0.14164 -0.0029174 0.028147
0.0026662 -0.0014424 0.0037935 -0.0026158 0.00071067 -0.00097053 0.0043026 -0.0067973
-0.0029314 0.028146 -0.2143 0.18649
980000000 -0.052203 0.28959 0.017311 0.030089 -0.0088415 0.0046298 0.001903 0.0034913
0.0040057 -0.0011716 -0.0032082 -0.0021652
0.017281 0.030057 -0.20918 0.34294 0.032801 0.0050557 0.002008 -2.6822e-06
0.0016359 -0.0057231 -0.00037379 -0.0023122
-0.0088407 0.0046591 0.032859 0.0049735 0.11199 0.30897 0.00063223 -0.0011528
0.00045178 -0.0020409 0.001469 -0.00019598
0.0019118 0.0034789 0.0020086 -3.6819e-06 0.00063364 -0.0011518 -0.076457 0.26942
0.008354 0.030803 -0.009126 -0.0078564
0.0039647 -0.0012076 0.0015457 -0.0057709 0.00045634 -0.0020352 0.0084306 0.030807
-0.11682 0.17155 0.004464 0.020164
-0.0032275 -0.0021796 -0.0003785 -0.0022896 0.0014994 -0.00019383 -0.0091303 -0.0078593
0.0044781 0.020216 -0.17168 0.23606
1040000000 -0.010003 0.29782 0.033067 0.018515 -0.0011732 0.0068986 0.0024799 0.00071848
0.00018495 -0.0035359 -8.2663e-05 -0.0012616
0.033015 0.018509 -0.17358 0.35606 0.029255 -0.01449 0.0015094 -0.001719
-0.002272 -0.0025562 -0.0012263 -0.0025467
-0.0011463 0.0068938 0.029241 -0.014605 0.1577 0.29529 -0.00041418 -0.0016157
-0.0014832 -0.00093452 -0.0005021 -0.0010698
0.0024633 0.00067571 0.0015468 -0.0017183 -0.00040503 -0.0016199 -0.049257 0.27927
0.019947 0.018643 -0.001874 0.0010223
0.00018439 -0.003525 -0.002283 -0.0025499 -0.0014823 -0.00091655 0.020019 0.018624
-0.084318 0.17921 0.01325 0.019542
-9.9472e-05 -0.0012916 -0.0012669 -0.0025681 -0.00050583 -0.0010843 -0.0018663 0.001019
0.013268 0.019509 -0.15252 0.25779
1100000000 0.035444 0.30575 0.035779 -0.0038992 0.0029384 0.0038507 0.0022641 -0.0012109
-0.0019026 -0.003152 -0.0038595 -3.0518e-05
0.035736 -0.0039018 -0.1302 0.37302 0.015207 -0.0274 -2.9751e-05 -0.0017988
-0.0032064 -0.00093818 -0.0035151 -0.00053812
0.0029644 0.003837 0.01511 -0.027482 0.20367 0.27525 -0.001941 8.1259e-05
-0.0017829 0.00038112 -0.0010515 -0.00045865
0.0022502 -0.0012057 -3.0833e-05 -0.0017856 -0.0019422 7.5549e-05 -0.0087522 0.28381
0.025454 0.0054296 -0.0026683 -0.0004616
-0.0019096 -0.0031518 -0.0032416 -0.00090821 -0.0017981 0.00037519 0.025481 0.0054007
-0.066736 0.19347 0.019188 0.0097613
-0.0038835 -9.3041e-06 -0.0035481 -0.00052961 -0.0010607 -0.00045164 -0.0026561 -0.00043942
0.019194 0.009772 -0.10725 0.29147
1160000000 0.086679 0.30068 0.023999 -0.020275 0.0028185 -0.00060094 -0.0003454 -0.002292
-0.0040103 -0.00089311 -0.00086581 0.0041335
0.023979 -0.020247 -0.086796 0.37693 -0.0032696 -0.02887 -0.0016439 -0.001703
-0.0027853 0.0022355 -0.0014083 0.0018659
0.0028307 -0.00060675 -0.0033784 -0.028891 0.24652 0.24489 -0.00081103 0.001747
-0.00078878 0.0019226 -0.00096207 0.00025406
-0.00035984 -0.002294 -0.0016371 -0.0016895 -0.00081901 0.0017421 0.030504 0.28057
0.022246 -0.010504 -0.0034379 0.0051786
-0.0040348 -0.00086144 -0.0027906 0.0022394 -0.00078517 0.0019347 0.022245 -0.010536
-0.032813 0.20266 0.018691 0.0017334
-0.00084015 0.0041397 -0.00138 0.0018758 -0.00095272 0.00024848 -0.0034315 0.0051923
0.018666 0.0017517 -0.059557 0.29492
1220000000 0.13094 0.28946 0.010829 -0.029694 -0.0015218 -0.00096348 6.3112e-05 -0.00075158
-0.0026786 0.0023594 0.0012057 0.0020844
0.010837 -0.029671 -0.04274 0.38909 -0.016394 -0.021134 -0.0025159 0.00034047
-0.00017239 0.0029616 -0.00084909 0.0019029
-0.0015099 -0.00095913 -0.016489 -0.021068 0.28595 0.20649 0.00065909 0.0017193
0.00055194 0.0013284 0.00033532 0.00071324
5.1268e-05 -0.00074831 -0.0025219 0.0003513 0.0006543 0.0017242 0.070125 0.2719
0.011447 -0.01759 0.0019761 0.0012741
-0.0026759 0.0023775 -0.00014379 0.0029394 0.00054809 0.0013189 0.011423 -0.017609
-0.011158 0.21168 0.015298 -0.012047
0.0012498 0.0020534 -0.00084361 0.0018858 0.00030617 0.00069706 0.0019538 0.0012639
0.015286 -0.012033 -0.029748 0.31535
1280000000 0.18044 0.26751 -0.0073394 -0.028367 -0.0018569 0.0022781 -0.00075291 -0.0019377
-0.00087552 0.0029806 0.0023797 0.001303
-0.0073248 -0.028345 0.0028362 0.38022 -0.023273 -0.0087854 -0.0010708 0.001362
0.0014941 0.0019182 0.00055207 0.0022033
-0.0018519 0.002263 -0.023355 -0.0086655 0.31708 0.1628 0.0017022 0.00019222
0.0011393 0.00035534 0.0003751 0.00031658
-0.00075141 -0.0019222 -0.0010684 0.0013642 0.001706 0.0001898 0.10675 0.25505
0.0020867 -0.020055 -0.00051023 0.00016419
-0.00086456 0.0029951 0.001511 0.001913 0.0011265 0.00035502 0.0020473 -0.020061
0.025312 0.21576 0.0041178 -0.014679
0.002387 0.0012611 0.00057407 0.0021948 0.00038269 0.00029606 -0.0005142 0.00015917
0.0041272 -0.014675 0.01936 0.32003
1340000000 0.2173 0.23394 -0.017064 -0.019236 0.00076653 0.0043017 -0.0015571 -0.00093713
0.0013515 0.0026609 0.0017626 -0.0012872
-0.017037 -0.019234 0.042103 0.37251 -0.021405 0.0037271 -0.00026112 0.0020313
0.0018608 0.0010293 0.0013569 0.00083977
0.00078835 0.0043178 -0.021413 0.0038031 0.3396 0.11481 0.0012944 -0.00086072
0.00079372 -0.00047473 0.00026703 0.00035594
-0.0015573 -0.00092166 -0.00025041 0.0020284 0.0012895 -0.00085392 0.13838 0.23458
-0.0078654 -0.017833 0.00072999 0.00064889
0.0013764 0.0026851 0.0018743 0.0010131 0.00079507 -0.0004829 -0.0079067 -0.017829
0.05411 0.21124 -0.0023743 -0.013789
0.001784 -0.0012783 0.0013679 0.00081928 0.0002501 0.0003423 0.00073262 0.0006541
-0.0023556 -0.013781 0.057701 0.31805
1400000000 0.25008 0.19601 -0.023094 -0.0080092 0.0049389 0.0030577 -0.0021163 0.00044133
0.0022374 0.00091678 0.00048241 -0.0013195
-0.023057 -0.0080124 0.07942 0.35974 -0.014964 0.011872 0.0012658 0.0015197
0.0012822 -0.00065294 0.001288 0.00035791
0.0049609 0.0030169 -0.014944 0.011964 0.35314 0.060861 0.00029734 -0.0017643
7.9664e-06 -0.00048937 0.00044159 0.00023438
-0.002114 0.00044552 0.0012778 0.0015105 0.00029388 -0.0017549 0.1672 0.20572
-0.014279 -0.011479 -0.0011201 -0.00042795
0.0022453 0.00090055 0.0012819 -0.0006797 6.4869e-06 -0.00049197 -0.014308 -0.011451
0.086451 0.20774 -0.0089437 -0.0096471
0.00048932 -0.0013156 0.0012983 0.00034713 0.00046424 0.00023989 -0.0011144 -0.00043184
-0.0089249 -0.0096524 0.10435 0.30913
1460000000 0.27285 0.15234 -0.020455 0.0040788 0.0054485 -0.0017096 -0.001755 0.0016845
0.0020302 -0.00036915 -0.00028686 -0.0010892
-0.020422 0.0040647 0.11385 0.33826 -0.006586 0.014938 0.0018385 0.00028754
0.0010483 -0.0013407 0.0011825 -0.0006582
0.0054326 -0.0017339 -0.0065055 0.014995 0.3591 0.006047 -0.0013275 -0.0015144
0.00015547 -0.00035437 0.00054066 -0.00038143
-0.0017607 0.0016978 0.0018291 0.00028697 -0.0013265 -0.0015198 0.1924 0.17698
-0.016567 -0.004849 -0.0009201 0.0023092
0.0020229 -0.00035489 0.0010321 -0.0013462 0.00015935 -0.00035716 -0.016588 -0.004821
0.11454 0.19365 -0.011359 -0.0037232
-0.00029465 -0.0011073 0.0011738 -0.00067446 0.00055882 -0.00039684 -0.00091331 0.0023136
-0.011342 -0.0037131 0.13864 0.28953
1520000000 0.28516 0.11093 -0.015157 0.0098119 0.0032271 -0.0040042 2.3835e-05 0.0027315
0.0022498 -0.0015185 -0.0011181 -0.00026674
-0.015146 0.0097873 0.14769 0.32363 0.0010566 0.013102 0.001812 -0.00079426
8.0587e-05 -0.001208 0.00038351 -0.0010111
0.0031892 -0.0040252 0.0011146 0.013095 0.35201 -0.050781 -0.0013314 -0.00049307
0.0005744 -0.00075504 0.00012567 -0.00011397
3.3523e-05 0.0027461 0.0018184 -0.00079576 -0.0013347 -0.0004856 0.21482 0.1402
-0.016844 0.0014693 0.0014956 0.0023315
0.0022405 -0.0015319 7.2004e-05 -0.0012134 0.00057715 -0.00076072 -0.016849 0.0015164
0.14153 0.18085 -0.011963 0.00047673
-0.001117 -0.00025364 0.00037757 -0.0010206 0.00012513 -0.00010443 0.0014912 0.0023102
-0.011961 0.00045039 0.17367 0.27146
1580000000 0.29479 0.064877 -0.0086638 0.013214 -0.00084901 -0.0047073 0.0014231 0.0020372
-5.3587e-05 -0.002043 -0.00045525 0.00047236
-0.0086805 0.013187 0.1753 0.29885 0.0047803 0.0085376 0.00056691 -0.001724
-0.00068666 -0.0011918 -0.00027688 -0.00078554
-0.0008367 -0.0046967 0.0048379 0.0085126 0.33128 -0.10828 -0.0018581 0.00083512
-0.00025498 -0.0010717 4.0991e-05 -0.000468
0.0014451 0.0020456 0.00056152 -0.0017322 -0.0018431 0.00084399 0.22828 0.10244
-0.013865 0.0074901 0.0024659 0.0011122
-7.0018e-05 -0.0020515 -0.00069378 -0.0011907 -0.00023843 -0.001073 -0.013851 0.0075243
0.16563 0.16431 -0.0097968 0.0066724
-0.0004352 0.00046885 -0.00027079 -0.00078379 4.8207e-05 -0.00049481 0.0024583 0.0011098
-0.0097814 0.0066472 0.20801 0.24511
1640000000 0.29708 0.023564 -0.0019138 0.012502 -0.0024552 -0.0025305 0.0029097 0.0010821
-0.00043099 -0.0016734 -0.00028519 0.00056539
-0.0019384 0.012488 0.20512 0.27369 0.0057909 0.0038975 -0.0007081 -0.0018444
-0.0011554 -0.00037637 -0.00043975 -0.00075663
-0.0024615 -0.0025239 0.0058167 0.0038759 0.30262 -0.15733 -0.00064997 0.001711
-0.00096671 -0.0010933 -0.00013932 -0.00041999
0.0029216 0.0010509 -0.00071164 -0.0018391 -0.00065347 0.0017103 0.24076 0.055473
-0.0094836 0.010059 0.0027071 -0.00077329
-0.00044235 -0.001676 -0.0011593 -0.00037244 -0.00097934 -0.0010811 -0.0094671 0.010091
0.18767 0.14153 -0.0053371 0.0090142
-0.00028331 0.00056157 -0.00044717 -0.00075129 -0.00013496 -0.00042855 0.0026986 -0.00077071
-0.0053507 0.0089926 0.23471 0.21477
1700000000 0.29018 -0.022103 0.001701 0.0099615 -0.0033483 -3.7366e-06 0.0031697 -0.0013234
-0.0020188 -0.00097702 0.00070076 0.00048489
0.0016855 0.0099633 0.22336 0.24179 0.0039881 0.00092542 -0.0015679 -0.00064693
-0.00082202 0.00022003 -0.00093217 -0.00049775
-0.0033747 8.7715e-06 0.0040084 0.00090047 0.25894 -0.19693 0.00067633 0.0017201
-0.0019105 -0.00033386 -0.00042328 -0.00078783
0.0031778 -0.0013441 -0.0015776 -0.00063583 0.00070655 0.0017132 0.23872 0.0075809
-0.0058496 0.01174 0.0016802 -0.0022387
-0.002025 -0.00096361 -0.00082058 0.00022076 -0.0019162 -0.00034955 -0.0058307 0.011759
0.20531 0.12267 -0.00069225 0.0098253
0.00069982 0.0004654 -0.00093293 -0.00048812 -0.00041794 -0.00077241 0.001682 -0.0022333
-0.00070233 0.0098246 0.25275 0.1805
1760000000 0.27777 -0.071095 0.0043634 0.0067261 -0.0021913 0.00083709 0.001214 -0.0035239
-0.0016058 0.0004973 0.00048292 -0.00061214
0.0043591 0.0067398 0.24928 0.20155 0.0019087 -0.0010456 -0.0012816 0.00021486
-0.00087164 0.0010362 -0.00054352 0.00040189
-0.0022035 0.00081202 0.0019044 -0.0010499 0.21038 -0.23004 0.0014056 0.0008584
-0.0012398 0.0014031 -0.0012888 -0.00041025
0.0011845 -0.0035436 -0.0012941 0.00021543 0.0014099 0.0008835 0.23155 -0.042248
-0.0011605 0.011438 -6.2504e-05 -0.0027109
-0.0015891 0.00050344 -0.00086927 0.0010517 -0.0012512 0.0014297 -0.0011353 0.011445
0.22045 0.089062 0.0035572 0.0074565
0.00046409 -0.00061166 -0.00054543 0.00040282 -0.0012929 -0.0004271 -5.5773e-05 -0.0027118
0.0035524 0.0074571 0.26633 0.14322
1820000000 0.25291 -0.10846 0.0048342 0.0030495 -6.1111e-05 0.0024369 -0.0011084 -0.0030701
-0.0014499 0.0009673 -8.9943e-05 -0.00017445
0.004835 0.0030688 0.25908 0.17119 -0.00018376 3.0994e-05 -0.0012997 0.0010601
0.00016394 0.0012299 -0.00060308 0.00051019
-2.149e-05 0.0024291 -0.00015633 3.372e-05 0.15965 -0.24521 0.0013885 0.0002388
-0.00034982 0.0023579 -0.0013366 0.00022285
-0.0011281 -0.0030696 -0.0013028 0.0010737 0.0014026 0.00023612 0.20425 -0.089088
0.0016423 0.0094484 -0.001513 -0.0017356
-0.0014376 0.00096724 0.00016895 0.0012314 -0.00035191 0.0023559 0.0016763 0.0094574
0.23855 0.061171 0.0047909 0.0041361
-0.00011356 -0.00018939 -0.00060414 0.0005186 -0.0013405 0.00021025 -0.0015001 -0.0017333
0.0047934 0.0041598 0.27016 0.1079
1880000000 0.21742 -0.14892 0.002821 0.00050714 -0.00038052 0.0020427 -0.0029784 -0.0021412
-0.00033044 0.0019518 0.00018806 -0.00058171
0.0028251 0.00051145 0.26317 0.12445 -0.0021433 0.0016855 -0.00012133 0.0016998
0.0005908 0.0009986 5.7881e-05 0.00095512
-0.00035178 0.0020522 -0.0021378 0.0017114 0.10748 -0.25462 0.0014999 -0.00096501
0.001476 0.0020345 -0.0010716 0.0013932
-0.0029951 -0.0021249 -0.00010612 0.0016954 0.0015011 -0.00094099 0.16616 -0.13022
0.0034435 0.006629 -0.0023736 0.00030007
-0.00029995 0.0019649 0.00059591 0.00099455 0.00148 0.0020177 0.0034675 0.0066147
0.24265 0.0295 0.0052521 0.0019634
0.00019278 -0.0005805 6.0719e-05 0.00096972 -0.0010869 0.0014009 -0.0023608 0.00028836
0.0052767 0.0019728 0.27093 0.073382
1940000000 0.17763 -0.17431 0.00051068 -0.0014602 0.0013183 0.0018876 -0.0036536 0.00063928
0.0014439 0.001298 -0.00080645 -0.00044705
0.00050536 -0.0014577 0.26335 0.092599 -0.0010074 0.0039018 0.0010369 0.0012604
0.0016579 0.00026326 0.00080917 0.0003236
0.0013109 0.0018525 -0.00096018 0.0038942 0.062056 -0.24754 0.00033593 -0.0018548
0.0024434 0.00042775 0.0002698 0.0016865
-0.0036456 0.00065174 0.001051 0.0012586 0.00032612 -0.0018445 0.11529 -0.16294
0.0029791 0.0040779 -0.0015215 0.0013534
0.0014548 0.0012862 0.0016654 0.000261 0.0024409 0.0004287 0.003 0.0040715
0.24585 -0.0092378 0.0042204 -0.0018905
-0.00078306 -0.00044525 0.00081346 0.00032353 0.0002748 0.0017064 -0.0015125 0.0013584
0.0042265 -0.0018855 0.26124 0.03829
2000000000 0.13104 -0.18887 -0.0035636 0.00040415 0.0023382 0.0016163 -0.0023035 0.0033686
0.0013899 0.00012058 -0.00063172 0.00037479
-0.0035468 0.00041142 0.24881 0.057154 -0.0007802 0.005638 0.0015202 0.00037024
0.0010356 -0.0012392 0.00046669 0.00016262
0.0023346 0.0015964 -0.00072621 0.0056484 0.018548 -0.23291 -0.0010675 -0.001106
0.0020067 -0.0011449 0.0015572 0.0012522
-0.0022765 0.0033854 0.0015339 0.00036428 -0.0010917 -0.0010926 0.06182 -0.17519
0.0011566 0.002688 -8.2588e-05 0.0021022
0.0013855 0.00011736 0.0010346 -0.0012525 0.0019956 -0.0011542 0.0011504 0.002687
0.241 -0.043619 0.00089895 -0.0029068
