!Keysight Technologies,M9804A,MY58100912,A.14.10.03
!Date: Thursday, April 27, 2023 10:28:33
!Correction: S11(C  6-Port  ) 
!S12(C  6-Port  ) 
!S13(C  6-Port  ) 
!S14(C  6-Port  ) 
!S15(C  6-Port  ) 
!S16(C  6-Port  ) 
!S21(C  6-Port  ) 
!S22(C  6-Port  ) 
!S23(C  6-Port  ) 
!S24(C  6-Port  ) 
!S25(C  6-Port  ) 
!S26(C  6-Port  ) 
!S31(C  6-Port  ) 
!S32(C  6-Port  ) 
!S33(C  6-Port  ) 
!S34(C  6-Port  ) 
!S35(C  6-Port  ) 
!S36(C  6-Port  ) 
!S41(C  6-Port  ) 
!S42(C  6-Port  ) 
!S43(C  6-Port  ) 
!S44(C  6-Port  ) 
!S45(C  6-Port  ) 
!S46(C  6-Port  ) 
!S51(C  6-Port  ) 
!S52(C  6-Port  ) 
!S53(C  6-Port  ) 
!S54(C  6-Port  ) 
!S55(C  6-Port  ) 
!S56(C  6-Port  ) 
!S61(C  6-Port  ) 
!S62(C  6-Port  ) 
!S63(C  6-Port  ) 
!S64(C  6-Port  ) 
!S65(C  6-Port  ) 
!S66(C  6-Port  ) 
!S6P File: Measurement: :
# Hz S  RI   R 50
500000000 -0.33688 -0.041646 -0.0095439 -0.0023617 -0.0077267 0.012336 -0.0045812 0.012244
0.011848 0.0044689 -0.0051991 0.0091021
-0.0095617 -0.0023341 -0.41855 -0.053252 0.0079805 -0.010623 0.0012025 0.012305
0.0079907 0.0015553 0.0012902 0.013776
-0.0077523 0.012425 0.0080815 -0.010668 -0.26509 0.20829 0.007317 0.0037623
-0.0020841 0.0073976 0.0013383 0.01239
-0.0045208 0.012158 0.001298 0.012419 0.0073121 0.0037703 -0.33421 0.037788
-0.020153 -0.0068279 0.015878 0.026878
0.01178 0.0045681 0.0078818 0.0014605 -0.0020884 0.0073943 -0.020179 -0.006804
-0.21831 -0.20722 -0.02648 0.0050153
-0.0051307 0.0090255 0.0011882 0.013795 0.0013095 0.012369 0.015951 0.026821
-0.026505 0.0050049 -0.25852 -0.15801
560000000 -0.31662 0.12038 -0.023887 -0.063625 0.00020943 0.011814 0.0050329 0.010899
0.010705 0.0047215 0.011467 0.0082039
-0.023849 -0.063582 -0.37647 0.10603 -0.041236 -0.037501 0.014365 0.0039275
-0.012987 -0.0047892 0.0031857 -4.5736e-05
0.0002319 0.011823 -0.041193 -0.037393 -0.1837 0.25631 -0.00027412 -0.0035215
0.019618 0.0058686 0.0065945 -0.0057612
0.005139 0.01099 0.014514 0.0038994 -0.00020961 -0.0036023 -0.3099 0.12959
0.0040778 -0.023785 0.0049192 -0.02223
0.01069 0.0046686 -0.012823 -0.0049082 0.019622 0.0058825 0.0040198 -0.02373
-0.28816 -0.030489 0.0094118 -0.049802
0.011477 0.0081897 0.0031301 -0.00011174 0.0065888 -0.0057807 0.0049094 -0.022173
0.009403 -0.049791 -0.32878 -0.0030588
620000000 -0.27604 0.1044 -0.0232 0.007926 0.0029734 0.0082532 0.0085334 -0.0051103
0.010679 0.00010411 0.0017109 -0.0024102
-0.023183 0.0079323 -0.40253 0.057937 -0.018522 -0.00036879 -0.0011693 -0.0019693
0.011498 -0.0060727 0.0016421 -0.0028914
0.0030999 0.0082316 -0.018571 -0.00037403 -0.1541 0.2648 -0.0010605 -0.0046656
-0.0028883 -0.002955 0.0083931 -0.0029641
0.0084407 -0.0052191 -0.0010806 -0.0020191 -0.00098789 -0.0047075 -0.27028 0.14138
-0.038612 -0.01942 0.01222 0.027785
0.010844 0.0001584 0.011479 -0.0060582 -0.0029438 -0.0029887 -0.038572 -0.019329
-0.20665 -0.068585 -0.043009 0.014635
0.0017501 -0.0022923 0.0016835 -0.0028772 0.0083943 -0.0030211 0.012253 0.027801
-0.04306 0.014533 -0.24765 -0.044612
680000000 -0.23562 0.19046 -0.027235 -0.014694 0.0047672 0.0050207 0.0019314 -0.0071478
-0.0033327 -0.01113 0.0054302 -0.0067967
-0.027231 -0.014696 -0.38819 0.1562 -0.032628 -0.0016449 -0.0014585 -0.00034143
-0.0018762 -0.0086266 -0.0010876 -0.0016815
0.004787 0.0050235 -0.032661 -0.0015538 -0.10282 0.28565 -0.00059801 -0.00037988
-0.0015597 0.00072022 -0.0027416 -0.009367
0.0019338 -0.0072794 -0.0013931 -0.00030104 -0.0005969 -0.00036179 -0.22379 0.19439
-0.024221 -0.0067277 -0.0099679 -0.012492
-0.0033986 -0.011145 -0.0019337 -0.0086454 -0.0015929 0.00075507 -0.024286 -0.0066909
-0.2602 0.031415 -0.0055301 -0.0087172
0.005451 -0.0067331 -0.001146 -0.0016726 -0.0027709 -0.0093671 -0.0099187 -0.012501
-0.005509 -0.0087814 -0.26309 0.067062
740000000 -0.19171 0.1851 -0.038663 0.026769 0.012311 -0.0051484 0.00011714 -0.00444
-0.0036442 -0.0023102 -0.0068248 0.0024761
-0.038654 0.026753 -0.33522 0.17547 -0.035552 0.034862 -0.00067533 -0.0061063
-0.011818 0.0076459 -0.0021629 -0.0070919
0.012295 -0.0051489 -0.035451 0.035064 -0.068965 0.28416 -0.0023237 0.002641
-0.0021797 -0.0047994 -0.0012847 -0.00042399
8.3741e-05 -0.00451 -0.00051292 -0.0062019 -0.0023305 0.0026452 -0.20654 0.20254
-0.044571 -0.0069989 0.023923 0.016237
-0.0036992 -0.0022369 -0.011972 0.0079238 -0.0022056 -0.0048172 -0.044578 -0.0069706
-0.15857 0.05917 -0.044796 -0.00061912
-0.0068304 0.0023739 -0.0022597 -0.0070919 -0.0013212 -0.00036871 0.023976 0.016143
-0.04481 -0.0005647 -0.25352 0.071855
800000000 -0.15899 0.22596 -0.022634 0.016524 0.005189 -0.010624 -0.0044752 -0.0022907
-0.0038103 0.0022085 0.0049359 -0.00029757
-0.02261 0.016488 -0.33866 0.24558 -0.008014 0.033756 -0.0023812 0.0022386
-0.000722 0.0026978 0.0010753 0.0052487
0.0051607 -0.010641 -0.007919 0.033823 -0.028278 0.3072 0.00085905 0.001473
0.00019284 0.0034913 -0.0018239 0.00062153
-0.0044862 -0.0022837 -0.0023756 0.0022474 0.00085534 0.0014847 -0.17735 0.23104
-0.028672 0.014701 0.014925 -0.010798
-0.0038024 0.0022459 -0.0006919 0.0027548 0.00019103 0.0035042 -0.028671 0.01475
-0.20847 0.082365 -0.018261 0.019249
0.0049819 -0.0003106 0.0010946 0.005282 -0.0018319 0.00062247 0.014931 -0.010824
-0.018266 0.019184 -0.25202 0.12334
860000000 -0.12413 0.24652 -0.017562 0.030716 -0.0033666 -0.0097686 -0.0021606 0.00065109
0.004069 0.0046877 -0.0035561 -0.0034733
-0.017561 0.030661 -0.2911 0.28785 0.0076388 0.034 7.6744e-05 0.0019699
0.0041819 0.00021075 0.0029335 0.00052193
-0.0033861 -0.0097324 0.0077203 0.033999 0.019824 0.31517 -0.00061063 -0.00018702
0.0027547 -0.0013966 0.0013593 0.0043291
-0.0022141 0.00052728 0.00012196 0.0019095 -0.00062836 -0.00017537 -0.13957 0.24174
-0.017411 0.018891 -0.0065553 -0.0090412
0.004057 0.0046337 0.0041936 0.00015084 0.002744 -0.0013834 -0.01738 0.018979
-0.15657 0.13516 -0.028074 0.0154
-0.0035355 -0.0034273 0.0029462 0.00053713 0.0013375 0.0043564 -0.006595 -0.0091764
-0.028141 0.015217 -0.19946 0.17321
920000000 -0.099744 0.26991 0.0047887 0.037898 -0.0092677 -0.0043411 -0.0019187 0.0017896
0.0006482 0.001845 0.0025903 -0.0015114
0.0047534 0.03787 -0.26204 0.30906 0.027865 0.02206 0.0014065 0.0010857
0.0070196 -0.00021897 0.0037973 -0.002835
-0.0093075 -0.00433 0.028013 0.021977 0.065966 0.31568 0.0019158 0.00016201
0.0011044 -0.00027751 0.00078919 -0.0012348
-0.0019475 0.0017672 0.001421 0.0010903 0.0019155 0.00016807 -0.11571 0.2588
-0.010647 0.031172 0.0042202 -0.0070753
0.00061799 0.0018194 0.0070239 -0.00031867 0.0011233 -0.00029119 -0.010575 0.031204
-0.1476 0.14189 -0.00295 0.028437
0.0026215 -0.001474 0.0037579 -0.0028544 0.00080171 -0.0012227 0.0043082 -0.007104
-0.0030609 0.028471 -0.21371 0.18756
980000000 -0.052162 0.28964 0.017345 0.030067 -0.0088438 0.0046429 0.001923 0.0035579
0.003887 -0.001148 -0.0033219 -0.0022397
0.017304 0.030047 -0.20902 0.34314 0.032805 0.0050707 0.0020127 7.7207e-06
0.0015789 -0.00576 -0.00027888 -0.0022781
-0.008817 0.0046595 0.032864 0.0050025 0.11206 0.30899 0.00064144 -0.0011655
0.00049319 -0.002032 0.0015195 -0.00019435
0.001955 0.0035736 0.0019806 4.5007e-05 0.00064658 -0.0011697 -0.076438 0.26949
0.0082594 0.030853 -0.0090848 -0.0076577
0.0038882 -0.0011312 0.0014997 -0.0057594 0.00050315 -0.0020416 0.0083092 0.030851
-0.11703 0.1719 0.0045425 0.020276
-0.0033213 -0.0022495 -0.00030049 -0.0022573 0.0015239 -0.00018895 -0.0091171 -0.0076375
0.0045145 0.020282 -0.17136 0.23629
1040000000 -0.0098816 0.29794 0.033131 0.018477 -0.0011338 0.0068991 0.0024318 0.00071391
0.00011085 -0.0035275 -1.3242e-05 -0.0014069
0.033072 0.018479 -0.17355 0.35618 0.029258 -0.014472 0.0015356 -0.0017376
-0.0023122 -0.0024889 -0.0011542 -0.0025851
-0.0011082 0.006914 0.029234 -0.014553 0.15777 0.29527 -0.00045738 -0.0016415
-0.0015647 -0.00099085 -0.00036179 -0.0010964
0.0024555 0.000749 0.0015089 -0.0016987 -0.00046355 -0.0016329 -0.049205 0.27929
0.019933 0.018569 -0.0018646 0.0011612
8.3248e-05 -0.0035336 -0.002363 -0.0024813 -0.0015633 -0.00099314 0.019995 0.018544
-0.084253 0.17935 0.013146 0.019729
-2.1599e-05 -0.0014627 -0.0011869 -0.0025827 -0.00036978 -0.0010813 -0.001884 0.0011943
0.013084 0.019724 -0.15212 0.25796
1100000000 0.035487 0.30583 0.035759 -0.0039286 0.0029524 0.0038187 0.002276 -0.0012354
-0.001896 -0.0031741 -0.003885 -5.2007e-06
0.035721 -0.0039111 -0.1301 0.37314 0.015165 -0.027359 -1.9335e-05 -0.0017601
-0.0032425 -0.00095375 -0.0034592 -0.00055458
0.0029588 0.0038057 0.015093 -0.027467 0.20372 0.2752 -0.001927 0.0001081
-0.0017893 0.00037839 -0.0010682 -0.00047136
0.0022585 -0.0012347 -3.7476e-05 -0.0017579 -0.0019274 0.00010641 -0.008618 0.2839
0.025399 0.005499 -0.0026079 -0.00050223
-0.0018961 -0.0031556 -0.0032466 -0.00095478 -0.0018026 0.00037233 0.025414 0.0054439
-0.066634 0.19368 0.019266 0.0098023
-0.0038975 7.1707e-06 -0.0034909 -0.0005632 -0.0010534 -0.00046945 -0.0025653 -0.00047769
0.01926 0.0098043 -0.10674 0.29182
1160000000 0.086916 0.30071 0.023946 -0.020217 0.0028233 -0.00060211 -0.00040313 -0.0023505
-0.0040144 -0.00089101 -0.00089623 0.0041134
0.023943 -0.020181 -0.086674 0.37696 -0.0033124 -0.028893 -0.0015679 -0.0017194
-0.0027663 0.0022388 -0.0013864 0.0019002
0.0028217 -0.00062395 -0.0034395 -0.028876 0.24657 0.24481 -0.00081282 0.0017007
-0.00074774 0.0019361 -0.00096897 0.00024652
-0.00039662 -0.0023601 -0.0015811 -0.0017093 -0.00082477 0.001709 0.030621 0.28056
0.022227 -0.010493 -0.0034463 0.0051188
-0.0040058 -0.00089313 -0.0027782 0.0022707 -0.00074624 0.0019503 0.02221 -0.010507
-0.032892 0.20296 0.018515 0.0017225
-0.00087473 0.0040895 -0.0014233 0.0019315 -0.00098075 0.00026585 -0.0034359 0.0051358
0.018515 0.0016973 -0.059145 0.2953
1220000000 0.13117 0.28952 0.010793 -0.029626 -0.0015215 -0.00097735 5.4378e-05 -0.00077615
-0.0026687 0.0023398 0.0012256 0.0020023
0.010792 -0.029596 -0.042605 0.38909 -0.016357 -0.021132 -0.0024851 0.00032775
-0.00012138 0.0029286 -0.0008695 0.0018731
-0.0015268 -0.00097881 -0.016469 -0.021068 0.28603 0.20646 0.00067954 0.00172
0.00050934 0.0013331 0.00031096 0.00066706
5.7266e-05 -0.00076304 -0.0024906 0.00034296 0.0006877 0.0017198 0.070286 0.27196
0.011424 -0.017529 0.0019745 0.0012401
-0.0026955 0.0023632 -0.00012223 0.0029086 0.00050236 0.0013441 0.011401 -0.017555
-0.010895 0.21192 0.015191 -0.011992
0.0012523 0.0019707 -0.00083843 0.001878 0.0003235 0.00064602 0.0019672 0.0012545
0.015202 -0.011986 -0.029157 0.31562
1280000000 0.18058 0.26749 -0.0073449 -0.028301 -0.0018922 0.0022672 -0.00075622 -0.0019549
-0.0008514 0.0029636 0.0023853 0.0012631
-0.0073143 -0.028266 0.0029985 0.38018 -0.023292 -0.0088145 -0.0010529 0.0013469
0.0014825 0.0018971 0.000551 0.0021537
-0.0018585 0.0022931 -0.023339 -0.0087094 0.31718 0.16271 0.0016488 0.00019196
0.0010959 0.00035534 0.00038139 0.00028933
-0.00077021 -0.0019387 -0.0010512 0.0013457 0.001651 0.00019617 0.10686 0.25503
0.0021363 -0.020024 -0.00052061 0.00019089
-0.00082748 0.0029803 0.001494 0.0019032 0.0010935 0.00034489 0.0020947 -0.020029
0.025638 0.21594 0.0039588 -0.014499
0.002408 0.0012511 0.00055389 0.0021708 0.00036967 0.00029979 -0.00052394 0.00018909
0.0039731 -0.014497 0.019819 0.32008
1340000000 0.21742 0.23377 -0.017001 -0.019198 0.0007884 0.0043379 -0.0015394 -0.00091212
0.0013793 0.0026977 0.0017668 -0.0012452
-0.016965 -0.019174 0.042181 0.37245 -0.021472 0.0037454 -0.00026695 0.0020253
0.0018573 0.0010249 0.0013601 0.00085684
0.00079655 0.0043124 -0.02147 0.0038361 0.33962 0.11471 0.001276 -0.00086243
0.00081049 -0.00049572 0.00025215 0.00039108
-0.0015172 -0.00090562 -0.00024954 0.0020294 0.0012656 -0.00086047 0.13847 0.23451
-0.0078661 -0.017869 0.00076079 0.00062281
0.0014129 0.002701 0.0018406 0.0010235 0.00081688 -0.00050634 -0.007907 -0.017872
0.054389 0.21127 -0.0022876 -0.013649
0.00174 -0.0012623 0.0013558 0.00085943 0.00024736 0.00038449 0.00077149 0.00063114
-0.002266 -0.013669 0.058297 0.31808
1400000000 0.25021 0.19586 -0.023022 -0.0080152 0.0049399 0.0030652 -0.0021122 0.00040181
0.0022448 0.000925 0.00047445 -0.0013023
-0.022984 -0.0080055 0.079481 0.35968 -0.014973 0.011875 0.0012651 0.0014904
0.0012696 -0.00063592 0.0013094 0.00034254
0.0049539 0.0030433 -0.014925 0.011956 0.35311 0.060791 0.00029105 -0.0017537
2.7663e-05 -0.00044985 0.00040054 0.00024385
-0.002098 0.00041543 0.0012789 0.0014779 0.00030185 -0.0017611 0.16729 0.20567
-0.01429 -0.011507 -0.001124 -0.0004411
0.0022661 0.0008916 0.0012783 -0.00065558 2.4161e-05 -0.00044498 -0.014329 -0.01148
0.086767 0.20769 -0.0088112 -0.0095524
0.00047455 -0.001321 0.0013214 0.00031555 0.00039316 0.00023601 -0.0011235 -0.00042662
-0.0087951 -0.0095701 0.10484 0.30909
1460000000 0.27288 0.1522 -0.020378 0.0040099 0.0054623 -0.001683 -0.0017492 0.00166
0.0020382 -0.00037789 -0.00027237 -0.0010597
-0.020366 0.0039953 0.11389 0.33824 -0.0065794 0.014987 0.0018408 0.00028237
0.0010598 -0.0013324 0.0012059 -0.00064493
0.005437 -0.0017082 -0.006521 0.015037 0.35914 0.0059635 -0.0013123 -0.0015631
0.00014242 -0.00033078 0.00049592 -0.00041804
-0.001729 0.0016653 0.0018488 0.00027161 -0.0013202 -0.0015558 0.19249 0.17697
-0.016566 -0.0048581 -0.00093023 0.0023269
0.0020499 -0.00037529 0.0010606 -0.0013457 0.00015259 -0.00033413 -0.016604 -0.004824
0.11488 0.19357 -0.011137 -0.0036809
-0.00029675 -0.0010529 0.0011821 -0.00065961 0.00053446 -0.00042188 -0.00093632 0.0023166
-0.011137 -0.003685 0.13916 0.28951
1520000000 0.28518 0.11075 -0.015119 0.009723 0.003194 -0.0039661 -1.0312e-06 0.0027103
0.0022079 -0.0014848 -0.0010861 -0.00023997
-0.015116 0.0097052 0.14775 0.32363 0.0010427 0.013105 0.001821 -0.0008007
8.5007e-05 -0.0011952 0.000377 -0.0010255
0.0031796 -0.0039895 0.0011294 0.013114 0.35196 -0.050929 -0.0013128 -0.00046115
0.00058361 -0.00076274 0.00015308 -0.00010008
1.65e-05 0.0027094 0.0018106 -0.00080287 -0.0013113 -0.00044948 0.21491 0.14017
-0.016892 0.0014653 0.0014744 0.0022957
0.0022029 -0.0014971 7.6806e-05 -0.001201 0.0005977 -0.00077474 -0.016886 0.0015108
0.14195 0.18076 -0.01177 0.0003747
-0.0010906 -0.00023041 0.00037807 -0.001028 0.00012427 -8.6001e-05 0.0014832 0.0022967
-0.011775 0.00036976 0.17432 0.27131
1580000000 0.29477 0.064813 -0.0086985 0.013113 -0.00082637 -0.0046853 0.0014087 0.002063
-5.3809e-05 -0.0020414 -0.00043432 0.00041951
-0.0087007 0.013098 0.17537 0.29886 0.0048053 0.0085385 0.00055711 -0.0017339
-0.00068841 -0.0011988 -0.00028332 -0.00079133
-0.00086327 -0.004701 0.0048606 0.0085077 0.33126 -0.10843 -0.0018457 0.00084333
-0.00022914 -0.0011302 8.3944e-05 -0.00050273
0.0014012 0.0020533 0.00055786 -0.0017378 -0.0018438 0.00084358 0.22837 0.10239
-0.013822 0.007504 0.0024099 0.0011182
-8.2599e-05 -0.0020442 -0.000704 -0.0012028 -0.00024972 -0.0011296 -0.013814 0.007551
0.1659 0.16408 -0.009718 0.0065046
-0.00042742 0.0004116 -0.00029161 -0.00080353 8.8079e-05 -0.00050674 0.0024183 0.001099
-0.0097075 0.0065008 0.20856 0.24489
1640000000 0.29715 0.023495 -0.0019729 0.012472 -0.0024723 -0.0024963 0.0028948 0.0010717
-0.00042769 -0.0016995 -0.00030364 0.00054346
-0.0019829 0.012461 0.20524 0.27366 0.0058005 0.0038871 -0.00070447 -0.0018492
-0.0011611 -0.00039306 -0.00043713 -0.00072663
-0.0024704 -0.0024764 0.0058205 0.0038443 0.30259 -0.15735 -0.00062779 0.0016972
-0.00091487 -0.0010797 -0.00013694 -0.00036245
0.0029004 0.0010724 -0.00072316 -0.0018477 -0.00062653 0.0016877 0.2408 0.055391
-0.0094925 0.010061 0.002699 -0.00075928
-0.00043244 -0.0016974 -0.0011706 -0.00038162 -0.00092518 -0.0010714 -0.0094666 0.010093
0.18797 0.14122 -0.0053204 0.0088171
-0.00030755 0.00054644 -0.0004456 -0.00072776 -0.00014193 -0.00033715 0.0026987 -0.00077747
-0.005319 0.0088155 0.23522 0.21438
1700000000 0.29023 -0.022213 0.0016235 0.0099728 -0.0033516 -5.9035e-05 0.0031851 -0.0013159
-0.002039 -0.00097529 0.0006614 0.00044658
0.0016194 0.0099647 0.22346 0.24176 0.0040072 0.00090036 -0.0015596 -0.00063658
-0.0008444 0.00020076 -0.00091279 -0.00050937
-0.0033421 -3.5127e-05 0.0040124 0.00088035 0.25887 -0.19703 0.00067046 0.0017321
-0.0019536 -0.0003511 -0.00037755 -0.00080447
0.0031728 -0.0013308 -0.001568 -0.00063844 0.00068429 0.0017308 0.2388 0.0074873
-0.0058388 0.01175 0.0016742 -0.0022527
-0.002023 -0.00097118 -0.00084841 0.00021217 -0.0019558 -0.000344 -0.0058146 0.011774
0.20552 0.12231 -0.00075583 0.0096251
0.00070081 0.00041954 -0.00090296 -0.00048182 -0.00040022 -0.00081539 0.0016749 -0.0022412
-0.00076151 0.0096241 0.25325 0.17997
1760000000 0.27782 -0.071179 0.0042995 0.0067868 -0.0021892 0.00088449 0.0012363 -0.0035424
-0.0015583 0.00050975 0.00045393 -0.00058074
0.0042985 0.0067848 0.24939 0.20147 0.0018603 -0.0010263 -0.0012876 0.00021283
-0.00090358 0.0010483 -0.00054196 0.00037892
-0.0021819 0.0008983 0.0018615 -0.0010412 0.21024 -0.23006 0.0013478 0.00086058
-0.001235 0.001391 -0.0012542 -0.00044804
0.0012223 -0.0035518 -0.0013007 0.00022412 0.0013442 0.00085967 0.23155 -0.042409
-0.0011318 0.011388 -2.3529e-05 -0.0026244
-0.0015564 0.0005229 -0.00090401 0.0010602 -0.0012295 0.0014074 -0.0011015 0.011393
0.22054 0.088698 0.0033882 0.0073634
0.00042064 -0.00060531 -0.00054459 0.00037371 -0.0012445 -0.00043635 -3.5082e-05 -0.002624
0.0033915 0.0073625 0.26665 0.14258
1820000000 0.25289 -0.10869 0.0048254 0.0031244 -3.4337e-05 0.0024719 -0.0011291 -0.0030552
-0.00147 0.00094161 -7.5745e-05 -0.00021678
0.0048136 0.0031201 0.25916 0.17111 -0.00018993 1.8805e-05 -0.0013314 0.001064
0.00016159 0.0012478 -0.00061005 0.00048921
-3.7728e-05 0.0024503 -0.00018674 2.4041e-05 0.15958 -0.24525 0.0013943 0.00020639
-0.00035629 0.0023473 -0.0014005 0.00022905
-0.0011565 -0.0030597 -0.0013199 0.0010624 0.0013844 0.000204 0.2042 -0.089208
0.0016622 0.0094196 -0.0015192 -0.0017003
-0.0014483 0.00097153 0.00017667 0.0012534 -0.0003499 0.0023664 0.0016822 0.0094191
0.23851 0.060838 0.0045981 0.0040871
-7.063e-05 -0.00019329 -0.00061671 0.00049812 -0.0014052 0.000223 -0.0015223 -0.0016756
0.0046006 0.0040792 0.2703 0.10722
1880000000 0.21738 -0.14902 0.0028311 0.00054359 -0.00034795 0.0020049 -0.0030023 -0.0021589
-0.00029294 0.0019866 0.00022785 -0.00056729
0.0028259 0.00053575 0.26325 0.12434 -0.0021784 0.0016991 -0.00012054 0.0016798
0.00063136 0.0010277 1.681e-05 0.0009284
-0.00034124 0.0020191 -0.0021601 0.001722 0.10753 -0.25473 0.0014839 -0.00096764
0.00144 0.0020631 -0.0011132 0.0013252
-0.0030151 -0.002139 -0.00011121 0.0016774 0.0014915 -0.00097186 0.16614 -0.13031
0.0033939 0.0066394 -0.0023447 0.00029695
-0.00028421 0.0019832 0.0006432 0.0010235 0.0014513 0.0020544 0.0034082 0.0066313
0.2425 0.029259 0.0051028 0.0020485
0.00022433 -0.00059316 5.761e-05 0.00093989 -0.0010731 0.0013061 -0.0023346 0.00030277
0.005088 0.0020499 0.27091 0.072838
1940000000 0.17757 -0.1745 0.00054231 -0.0013946 0.0013179 0.0018654 -0.0036491 0.00061282
0.0014964 0.0012772 -0.0008296 -0.0004918
0.00055163 -0.0013814 0.26337 0.092517 -0.0009417 0.0039037 0.0010465 0.0012559
0.0016915 0.00025714 0.0008061 0.00032129
0.0013627 0.0018442 -0.00092162 0.0039262 0.061821 -0.24756 0.00028655 -0.0018367
0.0025049 0.00041067 0.00021973 0.0016773
-0.0036476 0.00062927 0.0010625 0.0012457 0.0002904 -0.0018383 0.11523 -0.16299
0.0029546 0.004052 -0.0014732 0.001425
0.001506 0.0012716 0.0016851 0.00022769 0.0024712 0.00041529 0.0029553 0.0040485
0.24578 -0.0094636 0.0040607 -0.0017463
-0.0008269 -0.00049861 0.00080306 0.00032085 0.00018844 0.0016889 -0.0014717 0.0014225
0.0040815 -0.0017529 0.26101 0.037789
2000000000 0.13089 -0.18889 -0.0035236 0.00045497 0.0023116 0.0016534 -0.0023109 0.0033582
0.0013674 0.00011346 -0.00064365 0.00033238
-0.0035137 0.00045829 0.24881 0.057046 -0.00075742 0.0057052 0.0015218 0.00035072
0.0010429 -0.0012922 0.00050075 0.00014907
0.0023497 0.0016117 -0.00071844 0.0057023 0.018577 -0.23279 -0.0011168 -0.001062
0.002014 -0.0011369 0.0016135 0.0012691
-0.0023177 0.0033553 0.0015185 0.00032761 -0.0011091 -0.0010474 0.061751 -0.17523
0.0011164 0.0027223 -3.4278e-05 0.0021082
0.0013728 0.00010144 0.0010312 -0.0013099 0.0019999 -0.0011412 0.0011493 0.002701
0.24081 -0.043694 0.00082069 -0.0027316
