!Keysight Technologies,M9804A,MY58100912,A.14.10.03
!Date: Thursday, April 27, 2023 10:28:33
!Correction: S11(C  6-Port  ) 
!S12(C  6-Port  ) 
!S13(C  6-Port  ) 
!S14(C  6-Port  ) 
!S15(C  6-Port  ) 
!S16(C  6-Port  ) 
!S21(C  6-Port  ) 
!S22(C  6-Port  ) 
!S23(C  6-Port  ) 
!S24(C  6-Port  ) 
!S25(C  6-Port  ) 
!S26(C  6-Port  ) 
!S31(C  6-Port  ) 
!S32(C  6-Port  ) 
!S33(C  6-Port  ) 
!S34(C  6-Port  ) 
!S35(C  6-Port  ) 
!S36(C  6-Port  ) 
!S41(C  6-Port  ) 
!S42(C  6-Port  ) 
!S43(C  6-Port  ) 
!S44(C  6-Port  ) 
!S45(C  6-Port  ) 
!S46(C  6-Port  ) 
!S51(C  6-Port  ) 
!S52(C  6-Port  ) 
!S53(C  6-Port  ) 
!S54(C  6-Port  ) 
!S55(C  6-Port  ) 
!S56(C  6-Port  ) 
!S61(C  6-Port  ) 
!S62(C  6-Port  ) 
!S63(C  6-Port  ) 
!S64(C  6-Port  ) 
!S65(C  6-Port  ) 
!S66(C  6-Port  ) 
!S6P File: Measurement: :
# Hz S  RI   R 50
500000000 -0.33683 -0.038345 -0.0096813 -0.0020522 -0.0074089 0.012876 -0.0044607 0.012045
0.012404 0.0045779 -0.0045854 0.0094212
-0.010012 -0.0021093 -0.42022 -0.05146 0.0079807 -0.010693 0.0018022 0.012195
0.007372 0.0028108 0.0018817 0.013465
-0.007877 0.012862 0.0074941 -0.010589 -0.26558 0.20949 0.0079566 0.0034018
-0.0016156 0.0083909 0.0020799 0.0119
-0.0042352 0.011865 0.0019901 0.011554 0.0077115 0.0033227 -0.33053 0.044207
-0.01813 -0.0063771 0.015881 0.026362
0.0125 0.0049402 0.0072339 0.0026539 -0.0018847 0.008041 -0.018182 -0.0066796
-0.22496 -0.1946 -0.02537 0.0046488
-0.0045002 0.0086859 0.0029884 0.013182 0.0016965 0.011912 0.015893 0.026144
-0.025355 0.0047176 -0.26755 -0.13012
560000000 -0.31676 0.12385 -0.024234 -0.063332 0.00037411 0.011802 0.0055394 0.010291
0.0094217 0.0042904 0.011157 0.0075485
-0.023972 -0.063292 -0.37863 0.10671 -0.041047 -0.037372 0.013265 0.0039926
-0.013479 -0.0043659 0.0035335 0.00021515
0.00011422 0.012051 -0.040675 -0.036892 -0.18293 0.25769 -0.00017099 -0.0044946
0.019713 0.0045833 0.0070573 -0.0059599
0.0062619 0.010187 0.013366 0.0038755 -2.9028e-05 -0.0046484 -0.30561 0.13292
0.0042114 -0.02363 0.0042153 -0.021663
0.009845 0.0038258 -0.013128 -0.003031 0.019651 0.0047329 0.0043807 -0.023974
-0.28992 -0.020328 0.0086295 -0.048702
0.011375 0.0081405 0.0029622 -0.00094722 0.0071897 -0.0058739 0.0040294 -0.021689
0.008741 -0.048665 -0.32961 0.018465
620000000 -0.27459 0.1077 -0.023288 0.0081077 0.0032288 0.008443 0.0080836 -0.0050736
0.01129 -0.00021494 0.001833 -0.0027793
-0.023219 0.0079985 -0.40268 0.060288 -0.018471 0.00018516 -0.0012311 -0.0020108
0.011373 -0.0065676 0.0016532 -0.0033455
0.0033756 0.0084865 -0.018592 0.00017384 -0.15362 0.26645 -0.001533 -0.0054098
-0.0029519 -0.0031356 0.0085261 -0.0036498
0.0078871 -0.0051625 -0.00099912 -0.0020391 -0.0013822 -0.0054625 -0.26534 0.14396
-0.037403 -0.019365 0.011832 0.02637
0.011329 -0.00086293 0.010807 -0.0062054 -0.0029648 -0.0025279 -0.037612 -0.018913
-0.20866 -0.058095 -0.04115 0.014152
0.0017054 -0.0022716 0.0014424 -0.0032375 0.0085314 -0.0035562 0.011746 0.025817
-0.041217 0.014079 -0.25037 -0.019111
680000000 -0.23504 0.19282 -0.027248 -0.014435 0.0051817 0.0049625 0.0011974 -0.0073866
-0.0033962 -0.010851 0.0046643 -0.0064834
-0.027294 -0.01432 -0.38731 0.15799 -0.03242 -0.0012835 -0.0016616 -0.00048707
-0.0023441 -0.0087696 -0.0017692 -0.0020923
0.0052889 0.005003 -0.032438 -0.0011877 -0.10205 0.28664 -0.00086185 -9.5785e-05
-0.0018489 0.00057328 -0.0030552 -0.009376
0.0011223 -0.0072192 -0.0015841 -0.00052225 -0.00091507 -9.3807e-05 -0.22035 0.19428
-0.02368 -0.0079405 -0.0096825 -0.010967
-0.0030753 -0.011005 -0.0020776 -0.0088759 -0.0018039 0.00071635 -0.023797 -0.0077695
-0.25858 0.040607 -0.0051014 -0.0083255
0.0043206 -0.0066574 -0.0016508 -0.002267 -0.0029954 -0.0094384 -0.0099749 -0.011179
-0.0050996 -0.0084171 -0.26136 0.08746
740000000 -0.19032 0.18719 -0.038321 0.026874 0.012658 -0.0050252 -0.0002135 -0.0041091
-0.0045835 -0.0025154 -0.0055074 0.0026289
-0.038356 0.02684 -0.33446 0.17695 -0.035189 0.035038 -0.00054148 -0.0062798
-0.01134 0.0080051 -0.0022675 -0.0067109
0.012636 -0.0051458 -0.03526 0.035142 -0.068281 0.28472 -0.001903 0.0032801
-0.0022206 -0.0043434 -0.0015808 1.3875e-05
-0.00017661 -0.0042782 -0.00074386 -0.0061557 -0.0018682 0.0032161 -0.20353 0.2019
-0.043111 -0.0073187 0.022515 0.014842
-0.0048794 -0.0026181 -0.011146 0.0079328 -0.0025471 -0.0044077 -0.043359 -0.0071106
-0.15908 0.066782 -0.043937 0.00052707
-0.0056304 0.0029641 -0.0022753 -0.0065866 -0.0015494 0.00012679 0.022437 0.014853
-0.043873 0.00056735 -0.24847 0.093185
800000000 -0.15714 0.22787 -0.022315 0.016969 0.0053096 -0.010542 -0.0047254 -0.0019297
-0.0042707 0.0022177 0.0045697 0.00082611
-0.022348 0.016714 -0.33769 0.2468 -0.0077514 0.033836 -0.0024163 0.0021777
-0.00056955 0.003158 0.00097198 0.0052688
0.0052774 -0.010593 -0.0076889 0.033894 -0.027716 0.30783 0.0010713 0.0015534
0.00035219 0.0034715 -0.0015451 0.0009529
-0.004611 -0.0019987 -0.0023439 0.0022031 0.0010795 0.0015418 -0.17528 0.22956
-0.028492 0.013661 0.013458 -0.010085
-0.0040928 0.0020718 -0.00046579 0.0031232 0.00043723 0.0034941 -0.028465 0.013663
-0.20708 0.090315 -0.017642 0.018958
0.0046384 0.00094361 0.0008842 0.0055383 -0.0015541 0.00095831 0.013413 -0.01007
-0.017611 0.019002 -0.24368 0.14343
860000000 -0.12248 0.24814 -0.017416 0.030845 -0.0033358 -0.0098941 -0.002516 0.00082533
0.0040354 0.0048736 -0.0030974 -0.0028411
-0.017551 0.03058 -0.29012 0.28887 0.007776 0.034015 -8.4098e-05 0.0018754
0.0043041 0.00014403 0.0033986 0.00098927
-0.0033615 -0.0099617 0.0079624 0.034127 0.020284 0.31569 -0.00059188 -0.00039717
0.0028217 -0.0015158 0.0014583 0.0044148
-0.002345 0.00097315 -0.00022234 0.0021301 -0.00057022 -0.00037927 -0.139 0.24043
-0.018018 0.018472 -0.0058851 -0.0092184
0.0045229 0.005179 0.0040187 0.00040764 0.0028368 -0.0015367 -0.018018 0.018341
-0.15603 0.1412 -0.025812 0.015296
-0.0035127 -0.0028219 0.0034763 0.00070487 0.0014485 0.0043682 -0.0059998 -0.0092767
-0.025845 0.01524 -0.19243 0.18933
920000000 -0.097909 0.27094 0.0052728 0.037754 -0.0093952 -0.0043864 -0.001887 0.001963
0.0010481 0.0019126 0.0027886 -0.0017073
0.0053116 0.037742 -0.26129 0.30981 0.027961 0.021852 0.0014765 0.0011433
0.0070264 -0.00042789 0.0039896 -0.0027428
-0.0093688 -0.0043107 0.02804 0.021759 0.066476 0.3162 0.001881 -0.00013089
0.0011252 -0.00031112 0.00092466 -0.0010772
-0.0018552 0.002038 0.0015555 0.0011722 0.0018484 -0.00017767 -0.1151 0.2577
-0.010875 0.0305 0.0034933 -0.0066006
0.0010752 0.0016954 0.0069192 -0.00060833 0.0011053 -0.00039632 -0.010752 0.030536
-0.14627 0.1479 -0.0029961 0.027439
0.0028238 -0.0017115 0.003825 -0.0026759 0.00097016 -0.0009928 0.0036176 -0.0066598
-0.0030088 0.027448 -0.20039 0.2028
980000000 -0.050549 0.28998 0.017506 0.029878 -0.0089874 0.0046064 0.0021287 0.0035953
0.0039596 -0.0013537 -0.0030523 -0.0021848
0.017541 0.029866 -0.20847 0.34339 0.032871 0.0047325 0.0020916 -2.4303e-05
0.0013592 -0.0058117 -0.00017113 -0.0024579
-0.0089214 0.0046115 0.032907 0.0046437 0.11272 0.30955 0.00045366 -0.0011559
0.0002098 -0.002072 0.0015028 -0.00020848
0.0020969 0.0036156 0.0020774 -0.00010241 0.0004321 -0.001143 -0.07702 0.26906
0.0077893 0.02954 -0.0092897 -0.0072194
0.0038067 -0.0013447 0.0012553 -0.005878 0.00024179 -0.0020855 0.0078916 0.029542
-0.11537 0.17689 0.0046739 0.019284
-0.003259 -0.0024424 -0.00035965 -0.0023697 0.0014192 -0.00029829 -0.0093498 -0.0072604
0.0046154 0.019255 -0.15832 0.24804
1040000000 -0.008423 0.29841 0.033076 0.018045 -0.0012676 0.0068334 0.0025773 0.0006758
-4.7578e-06 -0.0037814 -0.00042521 -0.0013944
0.033098 0.017894 -0.17277 0.35641 0.029159 -0.014815 0.0014532 -0.0017335
-0.0026878 -0.0025485 -0.0013468 -0.0025744
-0.0012556 0.0068584 0.029186 -0.01489 0.15864 0.29578 -0.00049736 -0.0015112
-0.0016957 -0.00089051 -0.00047375 -0.0010784
0.0026085 0.00066673 0.0015048 -0.0016932 -0.00049245 -0.0015238 -0.049659 0.27929
0.019039 0.017942 -0.002325 0.0015557
6.0751e-05 -0.0038312 -0.0026044 -0.0026389 -0.0016267 -0.00082894 0.019091 0.017916
-0.083164 0.18506 0.013189 0.018449
-0.00041327 -0.0014475 -0.0014959 -0.0026476 -0.000525 -0.0011003 -0.0024284 0.0016089
0.013211 0.0185 -0.13668 0.26834
1100000000 0.036858 0.30614 0.035616 -0.0043118 0.0028459 0.0038123 0.0024427 -0.0013522
-0.0020018 -0.0031671 -0.0039078 5.0672e-05
0.035581 -0.0043054 -0.12964 0.37364 0.015007 -0.027697 1.3765e-05 -0.0018763
-0.003285 -0.00075421 -0.0033909 -0.00052265
0.0028873 0.0038057 0.014929 -0.027745 0.20482 0.2755 -0.001827 0.00027191
-0.0017786 0.00057913 -0.0010563 -0.00033052
0.0023941 -0.0013569 -1.7392e-05 -0.0018776 -0.0018372 0.00026693 -0.0093002 0.28434
0.024204 0.0050761 -0.0026122 0.00016263
-0.0020645 -0.0031739 -0.003312 -0.00074803 -0.0017745 0.00062164 0.024204 0.0050138
-0.065493 0.19899 0.018777 0.0087071
-0.0038814 -1.9899e-05 -0.0033748 -0.00046667 -0.0010299 -0.00029179 -0.0026006 0.0001622
0.018786 0.0086926 -0.090916 0.29829
1160000000 0.088215 0.30101 0.02379 -0.020801 0.0026035 -0.0004541 -0.00023097 -0.0024104
-0.004216 -0.00076227 -0.00092598 0.0042473
0.023794 -0.020704 -0.085922 0.37767 -0.0037462 -0.02891 -0.0017243 -0.0016995
-0.002645 0.002577 -0.0013506 0.0018417
0.0026016 -0.00050123 -0.0038703 -0.028872 0.24778 0.24471 -0.00067173 0.0017351
-0.00056049 0.0019034 -0.00082932 0.00022409
-0.00028013 -0.002429 -0.0017425 -0.0016458 -0.00064876 0.0017251 0.03003 0.28177
0.020592 -0.010097 -0.0029262 0.0052638
-0.0042446 -0.0007425 -0.0026889 0.0025107 -0.00055731 0.0019325 0.020617 -0.01009
-0.032049 0.20862 0.017889 0.00069965
-0.00084968 0.0042481 -0.0012405 0.0018661 -0.00076296 0.00029879 -0.0029383 0.0053383
0.017876 0.00066943 -0.044424 0.30125
1220000000 0.13268 0.28966 0.010157 -0.029895 -0.0015922 -0.00077197 -4.2351e-05 -0.00096108
-0.0026183 0.0024943 0.0014308 0.0020714
0.010171 -0.02987 -0.041833 0.38961 -0.016732 -0.020958 -0.0025285 0.00040342
8.4454e-05 0.0029612 -0.00068746 0.0018525
-0.0015795 -0.00074176 -0.016817 -0.020907 0.28688 0.20578 0.0008162 0.001576
0.00064756 0.0011693 0.00035405 0.00064413
-3.7705e-05 -0.00093927 -0.0025352 0.00042621 0.00079875 0.0015951 0.069831 0.27348
0.010165 -0.01664 0.0022564 0.0015018
-0.0026406 0.0025262 3.473e-05 0.0029593 0.00061804 0.0011807 0.010119 -0.016616
-0.0094595 0.21799 0.014164 -0.012457
0.0014816 0.0021055 -0.00079211 0.0018294 0.00030723 0.00066267 0.0022612 0.001515
0.014156 -0.012467 -0.013168 0.31799
1280000000 0.18223 0.26749 -0.0080508 -0.028194 -0.0018256 0.0025202 -0.00092255 -0.0020071
-0.00072829 0.0030906 0.0025344 0.0011118
-0.0080221 -0.028171 0.0040341 0.38063 -0.023514 -0.0084364 -0.00098848 0.0014769
0.0016643 0.0017866 0.0006149 0.0020584
-0.0018073 0.0025236 -0.023573 -0.0083423 0.31743 0.16205 0.0015426 5.0559e-06
0.001109 0.00032399 0.00049133 0.00030632
-0.00090358 -0.0019611 -0.0010006 0.0015113 0.0015402 6.1457e-06 0.10677 0.25732
0.0010454 -0.018484 0.00014301 8.6548e-05
-0.00068482 0.0030894 0.0016986 0.0017693 0.0010857 0.00030289 0.0010373 -0.018498
0.027071 0.22233 0.0033135 -0.01452
0.0024394 0.0011777 0.00061165 0.0020321 0.00051099 0.00031396 0.0001202 7.9136e-05
0.0033359 -0.014531 0.034951 0.32027
1340000000 0.2192 0.23348 -0.017576 -0.018704 0.00091977 0.0044812 -0.001787 -0.00076051
0.0014546 0.0027222 0.0017298 -0.0014014
-0.017556 -0.018663 0.043401 0.37243 -0.021468 0.0041397 -0.00011177 0.0020118
0.0019102 0.00079025 0.0013078 0.00081447
0.00095321 0.0044269 -0.021405 0.0042288 0.3396 0.11397 0.0010604 -0.00088853
0.00068549 -0.00042918 0.00023339 0.00026302
-0.0017965 -0.00079656 -0.00010269 0.0020441 0.0010966 -0.00088436 0.13939 0.23718
-0.0080133 -0.015833 0.0009772 0.00031199
0.001423 0.0027298 0.0018817 0.00077753 0.00073316 -0.00044687 -0.0080377 -0.015813
0.0572 0.21835 -0.0032304 -0.013279
0.0016988 -0.0014106 0.0013135 0.00079442 0.00024359 0.0003457 0.00097916 0.00032992
-0.003235 -0.013282 0.073052 0.31607
1400000000 0.25193 0.19511 -0.0232 -0.0072622 0.0051419 0.0030468 -0.002055 0.00065296
0.0024003 0.00085213 0.0003667 -0.0014068
-0.023155 -0.0072788 0.080602 0.35945 -0.014787 0.012214 0.0013305 0.0013313
0.0011271 -0.00079074 0.0012483 0.00022575
0.0051727 0.0030526 -0.014753 0.012307 0.3528 0.060489 0.00015183 -0.0015871
1.1936e-05 -0.00040331 0.00045085 0.00027927
-0.0020546 0.000655 0.00135 0.001321 0.00015272 -0.0015866 0.16917 0.20864
-0.013599 -0.0094405 -0.00078123 -0.00061271
0.0024346 0.00086025 0.0011281 -0.00078172 1.1003e-05 -0.00039559 -0.013615 -0.0094165
0.090253 0.2145 -0.0095613 -0.0087585
0.00036007 -0.0013978 0.0012521 0.00025249 0.00044495 0.00024816 -0.00078803 -0.00063173
-0.0095627 -0.0087945 0.11829 0.30517
1460000000 0.27433 0.15092 -0.020204 0.0047303 0.0055525 -0.0018476 -0.0015548 0.0017555
0.0020777 -0.00058755 -0.00036939 -0.0010067
-0.020185 0.0047069 0.11483 0.33772 -0.0062402 0.015144 0.0017592 0.00018102
0.00084585 -0.0012358 0.0011771 -0.00062041
0.0055419 -0.0018327 -0.0061741 0.015172 0.35877 0.0058722 -0.0011584 -0.0012537
0.0002369 -0.0002865 0.0005733 -0.00029793
-0.0015732 0.001751 0.0017566 0.00018236 -0.0011419 -0.0012473 0.19572 0.17962
-0.014849 -0.0030764 -0.00098286 0.00184
0.0020805 -0.00056541 0.00087823 -0.0012125 0.00023339 -0.00025806 -0.014862 -0.0030693
0.11966 0.20038 -0.011473 -0.0030446
-0.00038653 -0.0010306 0.0011465 -0.00060122 0.00057107 -0.00027877 -0.00096487 0.001848
-0.011451 -0.0030641 0.15158 0.28472
1520000000 0.28616 0.10917 -0.014558 0.010233 0.0032326 -0.0041608 0.00012801 0.0026045
0.0019861 -0.0017223 -0.0011119 -0.00010728
-0.014567 0.010224 0.14841 0.32285 0.0013737 0.013033 0.0016451 -0.00080715
2.7148e-05 -0.0010234 0.00037288 -0.0010607
0.003168 -0.0041864 0.0014733 0.013032 0.35192 -0.050328 -0.0010679 -0.00036514
0.0006757 -0.00082188 4.0952e-05 -0.00010387
0.00011594 0.0025985 0.0016413 -0.00080911 -0.0010582 -0.00037426 0.21933 0.14186
-0.014397 0.0022784 0.0012522 0.0020505
0.0019841 -0.001734 1.6773e-05 -0.0010215 0.00066862 -0.00085892 -0.014378 0.0023016
0.14781 0.18661 -0.011505 0.0012912
-0.0011471 -0.00011909 0.00037723 -0.001062 1.8731e-05 -0.00010076 0.0012461 0.0020457
-0.011514 0.0012728 0.18511 0.26444
1580000000 0.29521 0.063092 -0.0079954 0.013247 -0.00091456 -0.0048472 0.0013839 0.0018636
-0.00034352 -0.002079 -0.00036283 0.00042748
-0.0079723 0.013239 0.17572 0.29803 0.0050098 0.0083258 0.00043055 -0.0016159
-0.00057274 -0.0010648 -0.00027585 -0.00082255
-0.00090811 -0.0048759 0.0050809 0.0083034 0.33144 -0.10791 -0.0015986 0.00056129
-0.00031336 -0.001139 4.3603e-05 -0.00044002
0.0013993 0.001877 0.00040788 -0.0016157 -0.0016227 0.00056687 0.23373 0.10252
-0.011188 0.007098 0.0021983 0.00091929
-0.00039237 -0.002085 -0.00058283 -0.0010542 -0.00031893 -0.0011644 -0.011173 0.0071503
0.17248 0.16903 -0.009242 0.007113
-0.0003398 0.00045405 -0.00028606 -0.00082739 9.9583e-05 -0.00040716 0.0021981 0.00092562
-0.0092538 0.0070956 0.21772 0.23769
1640000000 0.29703 0.021945 -0.001332 0.012208 -0.0027373 -0.0025143 0.002703 0.00099081
-0.00064875 -0.0014321 -0.0001847 0.00057397
-0.0013824 0.01221 0.20526 0.27292 0.0058511 0.0035975 -0.00069066 -0.0017011
-0.0010174 -0.00042226 -0.00050518 -0.00070771
-0.0027911 -0.0025098 0.0058767 0.0035606 0.30337 -0.15722 -0.00072031 0.0014413
-0.0010995 -0.0010581 -8.8362e-05 -0.00043538
0.0027041 0.0010021 -0.00071276 -0.0016792 -0.00074273 0.0014205 0.24643 0.053465
-0.0070949 0.0084182 0.0024485 -0.00069637
-0.00066638 -0.0014014 -0.0010202 -0.0004493 -0.001059 -0.0010536 -0.007084 0.0084269
0.19539 0.14477 -0.0048161 0.0091334
-0.00016573 0.00055482 -0.00049995 -0.00069566 -9.4068e-05 -0.00044504 0.0024714 -0.00070559
-0.004844 0.0091322 0.24329 0.20665
1700000000 0.28951 -0.023338 0.002033 0.0094067 -0.0033954 0.0001261 0.0030155 -0.0011751
-0.0019478 -0.00069666 0.00066585 0.00039872
0.0020209 0.0093787 0.22336 0.24122 0.003853 0.00076528 -0.0014897 -0.00050798
-0.00081251 7.5876e-05 -0.00093535 -0.00043501
-0.003396 0.00013659 0.0038699 0.00074191 0.2593 -0.1969 0.00041688 0.0017476
-0.0019633 -0.00011987 -0.00050394 -0.00080333
0.0029911 -0.0012101 -0.001486 -0.00051506 0.00038798 0.0017432 0.2435 0.0034204
-0.0044707 0.0091058 0.0015032 -0.0021646
-0.0019471 -0.00068459 -0.00082752 8.4029e-05 -0.0019773 -0.00015827 -0.0044552 0.0091365
0.2129 0.12471 -9.4434e-05 0.0095018
0.00070109 0.0003906 -0.00095631 -0.00041476 -0.00051611 -0.00082797 0.0015159 -0.0021435
-9.2203e-05 0.0095307 0.25981 0.17209
1760000000 0.27713 -0.071624 0.0043222 0.0061502 -0.0021573 0.00094696 0.0013574 -0.0033986
-0.0012276 0.00070822 0.00042859 -0.00063552
0.0043033 0.0061223 0.24924 0.20113 0.0017185 -0.0010197 -0.0011305 0.00021878
-0.00099242 0.00094426 -0.00057256 0.00045309
-0.0021717 0.00095516 0.0017515 -0.0010098 0.21047 -0.22996 0.0012416 0.0011342
-0.0011304 0.0014944 -0.0013081 -0.00044136
0.0013088 -0.0033939 -0.0011446 0.00023111 0.0012519 0.0011459 0.2342 -0.048367
-0.0011494 0.008396 -0.00018716 -0.0025173
-0.0012555 0.0007114 -0.0010016 0.00095979 -0.0011481 0.0015083 -0.0011279 0.0084135
0.22793 0.089622 0.0038659 0.0070038
0.00043404 -0.0006829 -0.00056035 0.00044219 -0.0013646 -0.00041727 -0.00019911 -0.0025165
0.0038772 0.0070012 0.27245 0.13431
1820000000 0.25245 -0.10884 0.004493 0.0026155 -0.00012979 0.0024288 -0.00096914 -0.0030386
-0.0010608 0.00085934 -0.00010122 -0.00011077
0.0044576 0.0026069 0.25901 0.1709 -0.00015942 -7.9216e-05 -0.0012581 0.00093437
-2.4379e-05 0.0013402 -0.00049868 0.00055473
-0.0001323 0.0023266 -0.00014197 -7.0919e-05 0.16055 -0.24579 0.001454 0.00047756
-0.00021274 0.0023111 -0.0012767 0.00041774
-0.0010039 -0.0030296 -0.0012501 0.00095798 0.0014553 0.00047236 0.20402 -0.095574
0.00030641 0.0067404 -0.0015885 -0.0015578
-0.0010524 0.00086797 -1.5225e-05 0.0013368 -0.00022025 0.0022747 0.00031743 0.0067427
0.2452 0.060496 0.0048095 0.0035594
-6.2026e-05 -0.00010113 -0.00046333 0.00059229 -0.0012211 0.00046829 -0.0015751 -0.0015342
0.0048274 0.0035573 0.27488 0.098219
1880000000 0.21722 -0.14905 0.0022944 0.00037882 -0.00041371 0.0020498 -0.0029707 -0.0021337
-0.00028904 0.0016276 0.00023854 -0.00053712
0.0023052 0.00033801 0.26311 0.12416 -0.0022327 0.0016185 -0.00016464 0.001664
0.00062492 0.0011858 0.0001676 0.00086694
-0.00040382 0.0020037 -0.0022963 0.0016232 0.1082 -0.25511 0.0018028 -0.0010369
0.0016208 0.0018888 -0.00086374 0.0012039
-0.0029666 -0.002123 -0.00016475 0.0016523 0.0018296 -0.001056 0.1631 -0.13571
0.00098439 0.0047583 -0.0024328 0.00044835
-0.0002565 0.0016536 0.00063521 0.0011734 0.0016624 0.0019082 0.0010091 0.0047653
0.24816 0.027755 0.0049083 0.0013582
0.0002577 -0.00055634 0.00012853 0.00088654 -0.00092622 0.0011982 -0.0024226 0.0004663
0.0049264 0.0013426 0.27448 0.063977
1940000000 0.17778 -0.17473 9.3527e-05 -0.0013079 0.0013426 0.0019843 -0.0038284 0.00053752
0.0012011 0.00096894 -0.00067145 -0.00046796
0.00011212 -0.0013205 0.26327 0.092358 -0.0011395 0.0038158 0.00098635 0.0012762
0.0018661 0.00041483 0.00080012 0.00026155
0.0013483 0.0019597 -0.0011163 0.0038044 0.062238 -0.24831 0.00039949 -0.0022605
0.0023901 0.00039765 0.00020119 0.0014741
-0.0037807 0.00054552 0.0010047 0.0013045 0.00036834 -0.0022769 0.11074 -0.16565
-2.0526e-05 0.0036109 -0.0014499 0.0015112
0.0012077 0.00097038 0.0018832 0.00036531 0.0024169 0.00035753 -1.737e-05 0.0036421
0.24985 -0.011232 0.0037528 -0.0020311
-0.00068344 -0.00051342 0.00081527 0.00020264 0.00027054 0.001491 -0.0014672 0.001569
0.0037529 -0.002052 0.26355 0.02813
2000000000 0.1312 -0.18918 -0.0037693 0.00065523 0.0024695 0.0016096 -0.0022828 0.0034996
0.0010911 0.00024536 -0.00069307 0.00034728
-0.0037585 0.000709 0.24874 0.056959 -0.0010087 0.0056838 0.0016066 0.00034467
0.0013384 -0.0014422 0.00047844 8.9379e-05
0.0024267 0.0016785 -0.00094478 0.0057065 0.018703 -0.23367 -0.0013965 -0.001317
0.0019849 -0.0011849 0.0015402 0.0012558
-0.0022656 0.0035304 0.0015863 0.00034773 -0.0013797 -0.0012839 0.057304 -0.17535
-0.0016773 0.0035286 -4.8512e-06 0.0022158
0.0011071 0.00015451 0.0013177 -0.0014979 0.0019448 -0.0012431 -0.0016807 0.0035157
0.24367 -0.04525 0.00040268 -0.0027189
