!Keysight Technologies,M9804A,MY58100912,A.14.10.03
!Date: Thursday, April 27, 2023 10:28:33
!Correction: S11(C  6-Port  ) 
!S12(C  6-Port  ) 
!S13(C  6-Port  ) 
!S14(C  6-Port  ) 
!S15(C  6-Port  ) 
!S16(C  6-Port  ) 
!S21(C  6-Port  ) 
!S22(C  6-Port  ) 
!S23(C  6-Port  ) 
!S24(C  6-Port  ) 
!S25(C  6-Port  ) 
!S26(C  6-Port  ) 
!S31(C  6-Port  ) 
!S32(C  6-Port  ) 
!S33(C  6-Port  ) 
!S34(C  6-Port  ) 
!S35(C  6-Port  ) 
!S36(C  6-Port  ) 
!S41(C  6-Port  ) 
!S42(C  6-Port  ) 
!S43(C  6-Port  ) 
!S44(C  6-Port  ) 
!S45(C  6-Port  ) 
!S46(C  6-Port  ) 
!S51(C  6-Port  ) 
!S52(C  6-Port  ) 
!S53(C  6-Port  ) 
!S54(C  6-Port  ) 
!S55(C  6-Port  ) 
!S56(C  6-Port  ) 
!S61(C  6-Port  ) 
!S62(C  6-Port  ) 
!S63(C  6-Port  ) 
!S64(C  6-Port  ) 
!S65(C  6-Port  ) 
!S66(C  6-Port  ) 
!S6P File: Measurement: :
# Hz S  RI   R 50
500000000 -0.33715 -0.038974 -0.0094711 -0.002093 -0.0076365 0.012756 -0.0039367 0.012066
0.012795 0.0045385 -0.0044521 0.0091913
-0.0094378 -0.0020884 -0.41903 -0.051703 0.0081426 -0.0109 0.0014938 0.01204
0.0077582 0.0026066 0.0014069 0.013388
-0.0074042 0.012627 0.0077529 -0.011063 -0.26562 0.20921 0.0077068 0.0035342
-0.0016295 0.008329 0.0017227 0.011932
-0.0039512 0.012408 0.0016813 0.01218 0.0080071 0.0034347 -0.33072 0.04435
-0.018045 -0.0063588 0.015681 0.026106
0.012657 0.0043387 0.007483 0.0028006 -0.0014626 0.0083269 -0.018025 -0.0063561
-0.2249 -0.19507 -0.025205 0.0045999
-0.0045184 0.0097276 0.0020079 0.013613 0.0021628 0.011918 0.01578 0.026142
-0.025278 0.0047572 -0.26772 -0.13065
560000000 -0.31626 0.12342 -0.024022 -0.063685 0.00055907 0.011714 0.0053572 0.010533
0.010126 0.0042823 0.010873 0.0076884
-0.024031 -0.063561 -0.37869 0.10832 -0.040856 -0.037952 0.01406 0.0041604
-0.013277 -0.0042914 0.0037559 0.00038862
0.00058154 0.01159 -0.041341 -0.037801 -0.18259 0.25813 -0.00099425 -0.004553
0.019312 0.0046386 0.0070021 -0.0058967
0.005087 0.010657 0.01364 0.0042032 -0.00072342 -0.0042569 -0.30533 0.13348
0.0042366 -0.023858 0.0041137 -0.021885
0.0099039 0.0044253 -0.013057 -0.0044818 0.019485 0.0045769 0.0041131 -0.023971
-0.2908 -0.019451 0.0091255 -0.048985
0.011343 0.0074845 0.003717 -0.00016873 0.007038 -0.0057692 0.004253 -0.021689
0.0093184 -0.048523 -0.3294 0.017735
620000000 -0.27521 0.10715 -0.023118 0.0080603 0.0029197 0.0085356 0.0082519 -0.005555
0.010859 -0.00040484 0.0022054 -0.0022795
-0.023096 0.0080793 -0.40265 0.060311 -0.018554 0.00033785 -0.0014548 -0.0022504
0.011729 -0.0064392 0.0018213 -0.0029958
0.0033694 0.0089444 -0.018608 0.000236 -0.15311 0.26713 -0.0015447 -0.0052724
-0.0029261 -0.0029118 0.0084673 -0.003682
0.0078389 -0.0052738 -0.0012827 -0.0021274 -0.001596 -0.0052627 -0.26532 0.14418
-0.03771 -0.019344 0.01206 0.025746
0.011367 -0.00036409 0.011435 -0.0065302 -0.0025131 -0.0030906 -0.037975 -0.019404
-0.20784 -0.058066 -0.041101 0.014575
0.0019719 -0.0022474 0.0018264 -0.0031184 0.0086303 -0.0034072 0.011851 0.025767
-0.041217 0.014429 -0.24949 -0.018469
680000000 -0.23439 0.19259 -0.027164 -0.01421 0.0051806 0.0050242 0.00098103 -0.0071093
-0.0034158 -0.010985 0.0049893 -0.0066471
-0.027126 -0.014218 -0.38736 0.15806 -0.032557 -0.0012936 -0.0017092 -0.00049966
-0.0023274 -0.0089529 -0.0016711 -0.0020132
0.0051299 0.0050661 -0.032592 -0.001201 -0.10214 0.28665 -0.00091961 -1.6331e-05
-0.0017617 0.00058743 -0.002834 -0.0092103
0.001046 -0.0070683 -0.0017288 -0.00042237 -0.00090778 5.2573e-05 -0.22031 0.19412
-0.023526 -0.0080271 -0.0098046 -0.010753
-0.0033794 -0.010941 -0.0022907 -0.0089482 -0.001754 0.00057701 -0.023502 -0.0079652
-0.2588 0.040545 -0.0050773 -0.0081786
0.0048182 -0.0065758 -0.0016944 -0.0021408 -0.0029743 -0.0093974 -0.0097875 -0.010865
-0.0053867 -0.0082297 -0.26118 0.087487
740000000 -0.19023 0.18744 -0.038483 0.027002 0.012632 -0.0051544 9.9582e-05 -0.0042171
-0.0047168 -0.0023945 -0.0059329 0.0024622
-0.03842 0.026977 -0.3345 0.17663 -0.035323 0.035013 -0.00077107 -0.006127
-0.011253 0.0077817 -0.0022989 -0.0066642
0.012692 -0.0052055 -0.035243 0.035044 -0.068085 0.28485 -0.0020526 0.0031022
-0.001977 -0.0043499 -0.0014651 -6.2325e-06
-0.00015424 -0.0041458 -0.00077065 -0.0062482 -0.0019321 0.0031526 -0.20368 0.20191
-0.043234 -0.0073915 0.022623 0.014811
-0.0045394 -0.0028955 -0.011228 0.0082593 -0.0022719 -0.0042781 -0.043269 -0.0073043
-0.15879 0.066192 -0.043263 0.0014939
-0.0056859 0.0026234 -0.0024354 -0.0065901 -0.0014215 6.2371e-05 0.022609 0.014855
-0.04346 0.0011906 -0.2487 0.092786
800000000 -0.15714 0.22791 -0.022277 0.016801 0.0053545 -0.010575 -0.0047179 -0.0020431
-0.0042018 0.002321 0.0046012 0.00090003
-0.022267 0.016806 -0.33775 0.24683 -0.0077143 0.033816 -0.0023458 0.0022288
-0.00046372 0.0031746 0.001008 0.0052157
0.0053916 -0.010565 -0.0076389 0.033912 -0.027613 0.30784 0.0011061 0.0014983
0.00036547 0.0035974 -0.0016172 0.00094092
-0.0047956 -0.002087 -0.0023699 0.0021506 0.0010845 0.0015515 -0.17522 0.22959
-0.028495 0.013701 0.013416 -0.010129
-0.0041833 0.0023412 -0.00053803 0.0030494 0.00040157 0.0034497 -0.028493 0.013772
-0.20704 0.090104 -0.017773 0.018919
0.0046498 0.00073049 0.0010037 0.0052135 -0.0015719 0.00093486 0.013396 -0.010126
-0.017599 0.018876 -0.24346 0.14337
860000000 -0.12263 0.24804 -0.017259 0.030646 -0.0034087 -0.0099331 -0.0024411 0.0010469
0.0039894 0.0048999 -0.0031211 -0.0028154
-0.017278 0.030612 -0.29025 0.28873 0.0077677 0.033987 -0.00019188 0.0020072
0.0041168 3.4846e-06 0.0033319 0.00087432
-0.0033918 -0.009941 0.007934 0.033962 0.020357 0.31566 -0.00055033 -0.00036583
0.0027738 -0.001581 0.0014749 0.0045667
-0.0024185 0.00092181 -3.4286e-05 0.0019233 -0.00059276 -0.00031489 -0.13901 0.24068
-0.017992 0.018578 -0.0061545 -0.0092241
0.0040238 0.0048443 0.0042103 7.3224e-05 0.0027422 -0.0014453 -0.017925 0.01851
-0.15586 0.14144 -0.026153 0.015148
-0.0032744 -0.0028816 0.0032679 0.00082888 0.0014676 0.0043363 -0.0060429 -0.0093445
-0.026094 0.015034 -0.1916 0.18951
920000000 -0.097866 0.27094 0.0052092 0.037703 -0.009444 -0.004397 -0.0018163 0.0020229
0.0010198 0.0018585 0.0027152 -0.0015858
0.0051811 0.037673 -0.26096 0.30991 0.028036 0.021857 0.0014873 0.001174
0.007036 -0.00044365 0.0039233 -0.0027971
-0.0094138 -0.0043634 0.028156 0.021829 0.066497 0.31624 0.0018651 -1.9109e-05
0.0011703 -0.00033144 0.00087622 -0.0011519
-0.0018633 0.0020125 0.0014903 0.0011179 0.0018381 -9.361e-05 -0.11495 0.25785
-0.010865 0.030474 0.0034157 -0.0065367
0.00096257 0.0018368 0.007004 -0.00048267 0.0012058 -0.00032225 -0.010787 0.030559
-0.14622 0.14786 -0.0030039 0.027444
0.0028014 -0.0016097 0.0039617 -0.0026775 0.00095009 -0.0010531 0.003464 -0.0066249
-0.0030003 0.027398 -0.20015 0.2032
980000000 -0.050537 0.29012 0.017555 0.02979 -0.0089322 0.0046152 0.0021431 0.0035825
0.0039015 -0.0012729 -0.0031432 -0.0021124
0.017503 0.029796 -0.20833 0.34355 0.032882 0.0048058 0.0020516 -1.1359e-05
0.0013577 -0.0057028 -0.00019083 -0.0024356
-0.0089207 0.0046524 0.032906 0.0046731 0.11271 0.30954 0.00046814 -0.001165
0.00018734 -0.0020421 0.0015008 -0.00028092
0.0021401 0.0035536 0.0021116 -1.4245e-05 0.00043739 -0.0011545 -0.077026 0.26906
0.0077963 0.029614 -0.009286 -0.007209
0.0038952 -0.0013417 0.0013381 -0.0057779 0.00020429 -0.0020559 0.0078631 0.029639
-0.11535 0.17693 0.0047431 0.019215
-0.0030959 -0.0021863 -0.00017773 -0.0024461 0.0015013 -0.00018147 -0.0092895 -0.0071464
0.0046435 0.019309 -0.15835 0.24818
1040000000 -0.0083802 0.29848 0.033076 0.018016 -0.0011961 0.0068433 0.0025809 0.00069545
-5.663e-05 -0.0037401 -0.00038582 -0.0015068
0.033066 0.018032 -0.17269 0.35649 0.029247 -0.014766 0.0014785 -0.0016309
-0.0026221 -0.0024921 -0.0013489 -0.0027757
-0.0011974 0.0068327 0.029191 -0.014876 0.15861 0.29585 -0.00054047 -0.0014949
-0.0016737 -0.00087921 -0.00045075 -0.001145
0.0025447 0.00067922 0.0014416 -0.0016825 -0.00051899 -0.0015199 -0.049682 0.27928
0.019003 0.017899 -0.0023115 0.0015905
-8.7436e-06 -0.0038442 -0.002591 -0.0025536 -0.0016711 -0.00086796 0.019049 0.017862
-0.083266 0.18523 0.013245 0.018526
-0.00041408 -0.0014105 -0.0013956 -0.0026287 -0.00045045 -0.0011196 -0.0023009 0.001554
0.013252 0.018488 -0.13658 0.26869
1100000000 0.036907 0.30615 0.03557 -0.0043274 0.0028633 0.0038218 0.0024077 -0.0013429
-0.0021323 -0.0031725 -0.0039873 -3.0018e-05
0.035545 -0.0042958 -0.12958 0.37359 0.014994 -0.027645 -2.9419e-05 -0.0018624
-0.0033569 -0.00076345 -0.0034412 -0.00061274
0.0028907 0.0038123 0.014891 -0.027744 0.20484 0.27552 -0.0018331 0.00025133
-0.0017753 0.00057298 -0.0010813 -0.0003666
0.002421 -0.0013598 -6.191e-06 -0.0018735 -0.0018405 0.00026444 -0.0093187 0.28429
0.024252 0.0050752 -0.0025239 0.00022622
-0.0020543 -0.0031328 -0.0033256 -0.00073562 -0.0017943 0.00059483 0.024275 0.005035
-0.065344 0.19924 0.018861 0.0087481
-0.0039088 3.8115e-06 -0.0034388 -0.00055132 -0.0010855 -0.00031187 -0.0025279 0.00022054
0.018837 0.008748 -0.0907 0.29843
1160000000 0.088323 0.30097 0.023769 -0.020747 0.0026072 -0.00050275 -0.00023939 -0.0024432
-0.0041765 -0.0007874 -0.00091143 0.0041954
0.023781 -0.020714 -0.085907 0.37763 -0.0037014 -0.028851 -0.0017201 -0.0017077
-0.0026556 0.0024956 -0.0013245 0.0019418
0.0026194 -0.00052099 -0.0038319 -0.028888 0.24779 0.2447 -0.00061962 0.001731
-0.00057278 0.0018897 -0.00087259 0.00027184
-0.00025301 -0.0024056 -0.0017552 -0.0016758 -0.00065921 0.0017119 0.029982 0.28181
0.020596 -0.0101 -0.0029216 0.0052349
-0.0042072 -0.00070931 -0.0026664 0.0025524 -0.0005754 0.0018979 0.020581 -0.010146
-0.032023 0.20874 0.017979 0.00069056
-0.00087598 0.0042708 -0.0012759 0.0019454 -0.00085569 0.00022863 -0.0029582 0.0052168
0.017935 0.00070722 -0.044012 0.30116
1220000000 0.13269 0.28966 0.010143 -0.029866 -0.0015788 -0.00079465 3.6056e-07 -0.00095048
-0.0026735 0.0024872 0.0013976 0.0020546
0.010156 -0.029831 -0.04178 0.3896 -0.016708 -0.020972 -0.0025311 0.0004128
9.4271e-05 0.0028921 -0.00074045 0.0018214
-0.0015792 -0.00076277 -0.016849 -0.020902 0.28694 0.20581 0.00083603 0.0015771
0.00060866 0.0011752 0.00029817 0.00065868
-3.4904e-05 -0.00095981 -0.0025341 0.0004224 0.00082459 0.0015669 0.069809 0.27348
0.010195 -0.016607 0.0022025 0.0015002
-0.002635 0.0024841 9.4906e-05 0.0029221 0.00064064 0.0011528 0.010155 -0.016666
-0.0093099 0.21828 0.014164 -0.012471
0.0014317 0.0020621 -0.00075077 0.0018375 0.0002814 0.00066376 0.0022033 0.0014884
0.014141 -0.012403 -0.01294 0.3182
1280000000 0.18219 0.26742 -0.008036 -0.028198 -0.0018238 0.0025253 -0.00091319 -0.0020083
-0.00075801 0.0030776 0.0025058 0.0011218
-0.0080225 -0.028157 0.004025 0.38061 -0.023508 -0.008445 -0.00097446 0.0014778
0.001672 0.0017679 0.00060076 0.0020486
-0.0018345 0.0025286 -0.02361 -0.008326 0.31745 0.162 0.0015424 -3.4531e-05
0.001056 0.00032319 0.00049894 0.00035241
-0.00090722 -0.0020193 -0.00096844 0.0014779 0.0015575 -1.5775e-05 0.10672 0.25735
0.0010235 -0.018522 0.00014806 8.3339e-05
-0.00071734 0.0030506 0.0016816 0.0017419 0.0010697 0.00030863 0.0009779 -0.018509
0.027245 0.22229 0.0032701 -0.014567
0.0025312 0.0010934 0.00067149 0.0020403 0.00055061 0.00030908 0.00011939 8.2356e-05
0.0032856 -0.014522 0.03524 0.32044
1340000000 0.21916 0.23351 -0.017552 -0.018666 0.00094169 0.004454 -0.0018018 -0.00074572
0.001451 0.0027417 0.0017022 -0.0014529
-0.017527 -0.018665 0.043347 0.37243 -0.021462 0.0041537 -0.00011243 0.0019936
0.0018892 0.00077852 0.0012916 0.00081599
0.00096839 0.0044455 -0.021432 0.0042541 0.33958 0.11404 0.0010587 -0.00087936
0.00069594 -0.00044791 0.00021791 0.00025214
-0.0018112 -0.00074913 -0.00010692 0.0020086 0.0010762 -0.00086921 0.1394 0.23719
-0.008059 -0.015839 0.00095019 0.00035419
0.0014685 0.0027376 0.001904 0.00076822 0.00070884 -0.00045318 -0.0080999 -0.015836
0.057397 0.21831 -0.003268 -0.013203
0.001733 -0.0013874 0.0013178 0.00084203 0.0002216 0.00029251 0.00096883 0.00034155
-0.0032428 -0.013209 0.073285 0.31614
1400000000 0.2519 0.19515 -0.023159 -0.0072616 0.0051304 0.0030643 -0.0020463 0.00070774
0.0024094 0.00089435 0.00031891 -0.0013699
-0.023127 -0.0072699 0.080575 0.35946 -0.014789 0.012206 0.0013174 0.0013207
0.0010994 -0.00076689 0.0012543 0.00024056
0.0051508 0.0030558 -0.014764 0.012313 0.35279 0.060492 0.00013551 -0.0016114
-2.2582e-05 -0.00041911 0.00040219 0.00021866
-0.0020445 0.00069823 0.0013432 0.0013168 0.00013273 -0.0015712 0.16918 0.20865
-0.013663 -0.0094695 -0.00079216 -0.0005753
0.0024444 0.00086227 0.0011048 -0.00078494 3.785e-06 -0.0004296 -0.013679 -0.0094278
0.090385 0.21432 -0.0096347 -0.0087326
0.00032419 -0.0013865 0.0012557 0.00020397 0.00046811 0.00023585 -0.00081433 -0.00058986
-0.009619 -0.0087471 0.1186 0.30522
1460000000 0.27433 0.15097 -0.020144 0.004719 0.0055315 -0.0018311 -0.0015369 0.0017641
0.0020889 -0.00058329 -0.0003605 -0.00096349
-0.020122 0.0047008 0.11478 0.33772 -0.0062424 0.015184 0.0017632 0.00017022
0.00087808 -0.0012399 0.0011503 -0.00060423
0.0055271 -0.0018598 -0.0061796 0.015234 0.35867 0.0059401 -0.0011274 -0.0012375
0.00024231 -0.00025605 0.00056215 -0.0002752
-0.0015336 0.0017459 0.001762 0.00017983 -0.0011136 -0.0012474 0.19574 0.17965
-0.014923 -0.0030533 -0.00099249 0.001852
0.0020881 -0.00062159 0.00087138 -0.0012466 0.00028396 -0.00027646 -0.014934 -0.0030249
0.11968 0.20021 -0.011481 -0.0029827
-0.0003861 -0.00098604 0.0011562 -0.00057598 0.00055014 -0.00028579 -0.000988 0.0018707
-0.011461 -0.0029709 0.15178 0.28468
1520000000 0.28621 0.10921 -0.014529 0.010176 0.0032629 -0.004202 0.00013589 0.0025983
0.0020064 -0.0017296 -0.0010875 -7.6792e-05
-0.014513 0.010141 0.14839 0.32292 0.0014074 0.013064 0.0016487 -0.00079982
4.1256e-05 -0.0010105 0.00036954 -0.0010393
0.0032461 -0.0042173 0.0014796 0.013052 0.35199 -0.050326 -0.0010796 -0.0003567
0.00069682 -0.00080036 3.6823e-05 -0.00011887
0.00013017 0.0025911 0.0016349 -0.00080465 -0.0010667 -0.00034722 0.21935 0.14184
-0.014407 0.0023372 0.0012642 0.0020609
0.0019816 -0.0017353 2.0975e-05 -0.0010047 0.00067794 -0.00080143 -0.014407 0.0023574
0.14783 0.18653 -0.011473 0.0013983
-0.0011239 -7.9141e-05 0.00036611 -0.0010522 4.5991e-05 -0.00010245 0.0012748 0.002045
-0.011471 0.0013665 0.18533 0.26442
1580000000 0.29527 0.063102 -0.0079704 0.013203 -0.00088367 -0.0048501 0.0013809 0.0018246
-0.00035627 -0.0020767 -0.00034388 0.00039905
-0.0079809 0.013174 0.17576 0.29806 0.0050685 0.0083299 0.00044097 -0.0016039
-0.00055043 -0.0010498 -0.00026507 -0.00082906
-0.00094891 -0.004884 0.0051039 0.0083046 0.33141 -0.10794 -0.0016193 0.00058469
-0.00033377 -0.0011477 8.88e-05 -0.0004704
0.0014042 0.0018402 0.00043174 -0.0016079 -0.0015866 0.00057135 0.23376 0.10254
-0.011176 0.0071592 0.0022306 0.00089875
-0.0003513 -0.0020729 -0.00056005 -0.0010422 -0.00035978 -0.0011481 -0.011176 0.0071924
0.17246 0.16898 -0.0091426 0.0071088
-0.00036004 0.0003947 -0.00026507 -0.00082004 4.5389e-05 -0.00044073 0.0022506 0.00090182
-0.0091249 0.0071064 0.21797 0.23754
1640000000 0.2971 0.021939 -0.001382 0.012172 -0.0027466 -0.0025414 0.0026887 0.00098394
-0.00067251 -0.0014502 -0.0001763 0.00054728
-0.001402 0.012161 0.20529 0.27292 0.0058799 0.0035786 -0.00069082 -0.0017079
-0.0009964 -0.0004453 -0.00048005 -0.00070858
-0.0027486 -0.0025247 0.0058956 0.003529 0.30335 -0.15714 -0.00070313 0.0013993
-0.0010864 -0.0010694 -0.00010016 -0.00043811
0.002689 0.00097821 -0.00068851 -0.001711 -0.00071311 0.0014306 0.24648 0.053386
-0.0070235 0.0084459 0.0024853 -0.00071184
-0.00064764 -0.0014401 -0.0010023 -0.00041622 -0.0010956 -0.0010685 -0.0070022 0.0084805
0.1954 0.14474 -0.0046898 0.0090349
-0.00015222 0.00057129 -0.00049347 -0.00069266 -0.00011163 -0.00043303 0.0024816 -0.00072297
-0.0047058 0.0090583 0.24349 0.20642
1700000000 0.28959 -0.023364 0.0019764 0.0093712 -0.0034514 0.000148 0.0030022 -0.0011804
-0.0019773 -0.0006903 0.00063909 0.00039145
0.0019579 0.0093726 0.22339 0.24119 0.0038755 0.00072961 -0.0014852 -0.0005222
-0.0008092 4.5926e-05 -0.0009284 -0.00043914
-0.0034357 0.00016917 0.0039049 0.00071529 0.25945 -0.19703 0.00039787 0.001755
-0.00194 -0.00013489 -0.00051439 -0.00082681
0.0029721 -0.0012011 -0.0015052 -0.00052928 0.00041876 0.0017569 0.24346 0.0033782
-0.0044281 0.0090928 0.0014931 -0.0021919
-0.0019473 -0.00069645 -0.00081869 6.0588e-05 -0.0019304 -0.00016021 -0.0044128 0.0091047
0.21296 0.1247 -6.7133e-05 0.0093844
0.00065542 0.00040635 -0.00094012 -0.00042559 -0.00047535 -0.00083694 0.001485 -0.0021813
-7.3839e-05 0.0094028 0.25987 0.17182
1760000000 0.27719 -0.071669 0.0042496 0.0061555 -0.0021867 0.00093473 0.0013368 -0.0033693
-0.0012559 0.00071588 0.00041977 -0.00065683
0.0042318 0.0061645 0.24923 0.20109 0.0017298 -0.0010291 -0.0011627 0.00020333
-0.001027 0.00090703 -0.00058579 0.00042184
-0.0021953 0.0009591 0.0017259 -0.001081 0.2104 -0.2299 0.0011862 0.0011185
-0.001109 0.001469 -0.0013581 -0.00051242
0.0013334 -0.0033806 -0.0011465 0.00022421 0.0012059 0.001136 0.23419 -0.04844
-0.001119 0.0083729 -0.00021504 -0.002501
-0.0012355 0.00075382 -0.0010205 0.0009348 -0.0011354 0.0015001 -0.001114 0.0083702
0.22802 0.089595 0.0037952 0.0068565
0.0003997 -0.00060339 -0.00060571 0.00043812 -0.0013206 -0.00050376 -0.00022549 -0.0024933
0.003825 0.0068828 0.27251 0.13404
1820000000 0.25248 -0.10892 0.0044274 0.0026549 -7.5132e-05 0.0023562 -0.00095368 -0.0030245
-0.0010582 0.00087537 -4.2025e-05 -0.00014373
0.0044205 0.0026657 0.25895 0.1708 -0.00019424 -0.00012303 -0.001292 0.00094145
-4.2229e-05 0.0013567 -0.00049314 0.00055103
-0.00011161 0.0023937 -0.00020762 -0.00010685 0.16064 -0.24579 0.0014846 0.00044477
-0.00023742 0.0023347 -0.0013238 0.00041319
-0.00097643 -0.0030281 -0.001281 0.00094855 0.0015366 0.00045598 0.20394 -0.095614
0.00028033 0.0066905 -0.0015948 -0.0015497
-0.0010502 0.00090767 -3.277e-05 0.0013448 -0.00024639 0.0022976 0.0002995 0.0066843
0.24526 0.060405 0.0047281 0.0034617
-6.7579e-05 -0.00012742 -0.00048901 0.00056174 -0.0013144 0.00043721 -0.0016244 -0.0015371
0.0047334 0.0034644 0.2749 0.098011
1880000000 0.21725 -0.14913 0.002274 0.00040621 -0.00038573 0.0020979 -0.0029181 -0.0021479
-0.00024648 0.0016458 0.0002518 -0.00048597
0.0022883 0.0004082 0.26305 0.12415 -0.0022846 0.0016529 -0.00015192 0.0016713
0.00061582 0.0012356 0.00011917 0.00088595
-0.0003813 0.0020523 -0.0022729 0.0016397 0.10819 -0.25504 0.0018556 -0.0010177
0.0015744 0.0019163 -0.00087283 0.0012445
-0.0029466 -0.0021146 -0.00015526 0.0016768 0.001878 -0.00097148 0.16312 -0.13568
0.00094615 0.0047608 -0.0024613 0.00051184
-0.00021125 0.0016563 0.00063686 0.0012452 0.0015665 0.0019216 0.00096893 0.0047815
0.24821 0.027712 0.0047811 0.0013038
0.00023414 -0.00050337 0.00015413 0.00088276 -0.00091629 0.0011851 -0.0024601 0.00048474
0.0048073 0.0013312 0.27445 0.063832
1940000000 0.17767 -0.17489 0.00012754 -0.0012857 0.001319 0.0019762 -0.0038117 0.00050363
0.001215 0.00096131 -0.00070694 -0.00053739
0.00011974 -0.0013011 0.26326 0.092368 -0.0011689 0.0038421 0.0010205 0.0012956
0.0018885 0.00043059 0.00081517 0.00025961
0.0013229 0.0018909 -0.0011122 0.0038626 0.062273 -0.24828 0.00032159 -0.0022461
0.0023775 0.00043957 0.00013769 0.0014801
-0.0038027 0.00050063 0.0010255 0.0012898 0.00034921 -0.0021994 0.11069 -0.16569
-4.822e-05 0.0035972 -0.0013921 0.0015575
0.001267 0.00093759 0.0018817 0.00042242 0.0024067 0.00046489 -4.5339e-05 0.0036073
0.24991 -0.011318 0.0036693 -0.0019718
-0.00066612 -0.00051689 0.0008039 0.00026973 0.00018743 0.0015109 -0.0014205 0.001534
0.0036696 -0.0019683 0.26347 0.027952
2000000000 0.13111 -0.18927 -0.0037186 0.00069399 0.0024583 0.0016716 -0.0023141 0.0035122
0.0010685 0.0001538 -0.00068953 0.00038014
-0.0037132 0.00068207 0.24874 0.056998 -0.00098899 0.0057014 0.0016041 0.0003242
0.0013852 -0.0014798 0.00050099 0.0001091
0.0024797 0.0016698 -0.00097349 0.0057169 0.018825 -0.23382 -0.0014209 -0.0013593
0.0019871 -0.0011863 0.0015328 0.0013283
-0.002284 0.0035593 0.0016192 0.00033045 -0.0014316 -0.0013724 0.057255 -0.17528
-0.00166 0.0035547 5.7656e-05 0.0022208
0.0010852 0.00016361 0.0013443 -0.0014651 0.0020296 -0.0012136 -0.0016766 0.0035799
