!Keysight Technologies,M9804A,MY58100912,A.14.10.03
!Date: Thursday, April 27, 2023 10:28:33
!Correction: S11(C  6-Port  ) 
!S12(C  6-Port  ) 
!S13(C  6-Port  ) 
!S14(C  6-Port  ) 
!S15(C  6-Port  ) 
!S16(C  6-Port  ) 
!S21(C  6-Port  ) 
!S22(C  6-Port  ) 
!S23(C  6-Port  ) 
!S24(C  6-Port  ) 
!S25(C  6-Port  ) 
!S26(C  6-Port  ) 
!S31(C  6-Port  ) 
!S32(C  6-Port  ) 
!S33(C  6-Port  ) 
!S34(C  6-Port  ) 
!S35(C  6-Port  ) 
!S36(C  6-Port  ) 
!S41(C  6-Port  ) 
!S42(C  6-Port  ) 
!S43(C  6-Port  ) 
!S44(C  6-Port  ) 
!S45(C  6-Port  ) 
!S46(C  6-Port  ) 
!S51(C  6-Port  ) 
!S52(C  6-Port  ) 
!S53(C  6-Port  ) 
!S54(C  6-Port  ) 
!S55(C  6-Port  ) 
!S56(C  6-Port  ) 
!S61(C  6-Port  ) 
!S62(C  6-Port  ) 
!S63(C  6-Port  ) 
!S64(C  6-Port  ) 
!S65(C  6-Port  ) 
!S66(C  6-Port  ) 
!S6P File: Measurement: :
# Hz S  RI   R 50
500000000 -0.33736 -0.038829 -0.0097665 -0.002347 -0.0074851 0.012796 -0.003989 0.012099
0.012467 0.0043443 -0.0042508 0.0093896
-0.0097534 -0.0023416 -0.41881 -0.051231 0.0081862 -0.010978 0.0017072 0.01224
0.0070698 0.0028089 0.0014788 0.013676
-0.0074784 0.012808 0.0081476 -0.010986 -0.26551 0.20923 0.0079646 0.0033379
-0.0016284 0.0083941 0.0017711 0.011853
-0.0040295 0.012098 0.0017177 0.012303 0.007923 0.0034036 -0.33082 0.044555
-0.018209 -0.0061628 0.015318 0.026403
0.012408 0.0041898 0.0070265 0.0024623 -0.0016442 0.0082659 -0.018099 -0.0060369
-0.2251 -0.19488 -0.025321 0.004354
-0.004459 0.009017 0.0014384 0.013718 0.0018432 0.011888 0.015444 0.026414
-0.025578 0.0044952 -0.26831 -0.13012
560000000 -0.31639 0.12388 -0.023897 -0.063754 0.00037517 0.011861 0.0053003 0.010382
0.010151 0.0043884 0.010983 0.0077298
-0.023845 -0.063706 -0.37839 0.10771 -0.040991 -0.037619 0.013724 0.0040521
-0.013346 -0.004279 0.0039656 0.00066738
0.00044633 0.011889 -0.041116 -0.037551 -0.18244 0.25811 -0.00027781 -0.0044368
0.019229 0.0043621 0.0066486 -0.0060303
0.0053903 0.010371 0.013804 0.004121 -0.00046611 -0.0043369 -0.30514 0.13283
0.0039818 -0.023757 0.0040628 -0.021512
0.010091 0.0043773 -0.013422 -0.0040131 0.019235 0.0044218 0.0043237 -0.023561
-0.29096 -0.019341 0.0086142 -0.048894
0.011059 0.0076861 0.0038613 0.00054055 0.0069374 -0.0056329 0.0039382 -0.022053
0.0087524 -0.048812 -0.33003 0.018029
620000000 -0.27457 0.10682 -0.023216 0.0081258 0.003084 0.0087643 0.0079264 -0.0051378
0.011249 -0.00024901 0.0019196 -0.0025967
-0.023197 0.0081152 -0.40269 0.060291 -0.018736 0.00021803 -0.0014291 -0.0019641
0.011449 -0.0066051 0.001686 -0.0031343
0.003044 0.0087676 -0.018739 0.00027952 -0.15333 0.26689 -0.0014974 -0.0052413
-0.0031395 -0.0032317 0.0084844 -0.0033186
0.0077632 -0.0053165 -0.0014327 -0.0019373 -0.0014653 -0.0052448 -0.26503 0.14428
-0.037468 -0.019296 0.01185 0.025978
0.011442 -0.0005211 0.011457 -0.006704 -0.0029025 -0.0029833 -0.037792 -0.019192
-0.20882 -0.057671 -0.041058 0.014103
0.0021922 -0.0026575 0.00156 -0.0031636 0.0086453 -0.0035161 0.012021 0.026424
-0.041971 0.014479 -0.24993 -0.018898
680000000 -0.2346 0.19273 -0.027073 -0.014321 0.0051939 0.0050348 0.0010963 -0.0072961
-0.0036101 -0.011004 0.0048921 -0.0066994
-0.027045 -0.014325 -0.38733 0.15822 -0.032593 -0.0011683 -0.0016656 -0.0003786
-0.0022252 -0.0089107 -0.0017458 -0.0021429
0.0052101 0.0050191 -0.032619 -0.0010745 -0.10208 0.28669 -0.00076827 -5.0562e-05
-0.0017113 0.00060907 -0.0029522 -0.0093257
0.0011706 -0.0073466 -0.0017621 -0.00029525 -0.00082586 2.0685e-05 -0.22027 0.19398
-0.023646 -0.0081342 -0.009774 -0.010923
-0.003576 -0.011022 -0.002396 -0.0088966 -0.0018165 0.00052112 -0.023765 -0.0080627
-0.25868 0.040898 -0.0049758 -0.0082639
0.0046645 -0.0066257 -0.001634 -0.002261 -0.0029261 -0.0093681 -0.0097779 -0.010868
-0.0052161 -0.0084684 -0.26116 0.087639
740000000 -0.18994 0.18766 -0.038537 0.026693 0.012567 -0.0051399 -0.00019538 -0.0043307
-0.0043876 -0.0025411 -0.0057742 0.0025575
-0.038516 0.02665 -0.33446 0.17681 -0.03521 0.035038 -0.00073855 -0.0062769
-0.011295 0.0078975 -0.0022769 -0.0066747
0.012588 -0.0051033 -0.035176 0.035138 -0.068034 0.28482 -0.0019629 0.0032511
-0.0019759 -0.0043445 -0.0015258 -1.7802e-05
-0.00010613 -0.004261 -0.00078749 -0.0063414 -0.0019194 0.0032041 -0.20385 0.2018
-0.043001 -0.0072569 0.022816 0.014703
-0.0042666 -0.0025968 -0.011337 0.008282 -0.0021411 -0.0043585 -0.043012 -0.0070169
-0.15937 0.066615 -0.043365 0.0013842
-0.0056317 0.0028619 -0.0021176 -0.0065322 -0.0015608 0.00011493 0.022685 0.014801
-0.043646 0.001138 -0.24846 0.093213
800000000 -0.15726 0.2277 -0.022313 0.016793 0.0053983 -0.010585 -0.0046378 -0.0020392
-0.0041956 0.0021098 0.004686 0.00094158
-0.022308 0.016767 -0.33776 0.24679 -0.0077442 0.033779 -0.0022937 0.0021571
-0.0005526 0.0030218 0.0010046 0.0052795
0.0053477 -0.010625 -0.0076496 0.033825 -0.027568 0.30788 0.0011041 0.0015024
0.00035297 0.0034453 -0.0015542 0.00095882
-0.0046422 -0.0019956 -0.0022716 0.002184 0.0010973 0.0015263 -0.17522 0.22974
-0.028471 0.013653 0.013466 -0.010105
-0.0041216 0.0021513 -0.00061978 0.0030921 0.00037123 0.003496 -0.028454 0.013793
-0.20699 0.09035 -0.017658 0.019017
0.0046805 0.00083698 0.00095025 0.00533 -0.0016238 0.00095058 0.013407 -0.010092
-0.017571 0.019011 -0.24354 0.14353
860000000 -0.1227 0.24811 -0.017378 0.030541 -0.0033389 -0.0099225 -0.0025609 0.00088659
0.0040008 0.00485 -0.0031149 -0.0027143
-0.017382 0.030532 -0.29032 0.28876 0.0078571 0.034007 -0.00010117 0.0019464
0.004241 8.0778e-05 0.0032731 0.00086447
-0.003393 -0.0099118 0.0079571 0.034015 0.020366 0.31564 -0.00051712 -0.00039046
0.0029319 -0.0014961 0.0014759 0.0043924
-0.0025403 0.00096264 -0.0001768 0.001943 -0.0004899 -0.00035947 -0.13892 0.24074
-0.018043 0.018616 -0.0060256 -0.0091728
0.0040789 0.0046949 0.0042347 6.2878e-05 0.0028893 -0.0015082 -0.018062 0.018552
-0.15625 0.14159 -0.025695 0.015098
-0.0031016 -0.0027775 0.0034194 0.00076915 0.0013673 0.0043067 -0.0058968 -0.0092529
-0.025891 0.014965 -0.19171 0.18946
920000000 -0.097988 0.27096 0.0052648 0.037723 -0.0093979 -0.0043344 -0.0019026 0.002014
0.001075 0.0017947 0.0027878 -0.0014447
0.0052423 0.037716 -0.26126 0.31008 0.027959 0.021912 0.0015439 0.0011769
0.0071062 -0.00047123 0.0038737 -0.0026268
-0.0094288 -0.004322 0.028065 0.021849 0.066532 0.31628 0.001856 -6.2879e-05
0.001193 -0.00030807 0.00092965 -0.0010948
-0.0019304 0.0019839 0.001533 0.0012109 0.0018475 -6.8304e-05 -0.11498 0.25776
-0.010813 0.030585 0.0035015 -0.0064754
0.0010722 0.0018665 0.0070634 -0.00052927 0.0011993 -0.00031686 -0.010713 0.030534
-0.14638 0.14799 -0.0029362 0.027343
0.0027896 -0.0015666 0.0041175 -0.0027047 0.0010256 -0.0010708 0.0035836 -0.0066104
-0.0030985 0.027251 -0.20012 0.20331
980000000 -0.050475 0.29029 0.017571 0.029802 -0.0089189 0.0046333 0.0021381 0.0035976
0.0038779 -0.0013212 -0.0030913 -0.002129
0.017527 0.029798 -0.20834 0.34368 0.032853 0.0047717 0.0020853 -4.3537e-05
0.0013443 -0.0057499 -0.0001407 -0.0024533
-0.0089047 0.0046453 0.032918 0.0046692 0.11275 0.30956 0.00045227 -0.0011503
0.00020984 -0.002072 0.0015168 -0.00027459
0.0021632 0.0035865 0.0021004 -5.052e-06 0.00045492 -0.0011324 -0.076947 0.26905
0.0078314 0.029581 -0.0093254 -0.007306
0.0039703 -0.0012758 0.0013348 -0.005721 0.00018464 -0.0020482 0.0078838 0.029563
-0.11524 0.17692 0.0047303 0.019228
-0.0030025 -0.0020854 -0.00018553 -0.0023911 0.0014892 -0.00021768 -0.0093146 -0.0072498
0.0047204 0.019174 -0.15821 0.24826
1040000000 -0.0082374 0.29861 0.033074 0.01798 -0.0012043 0.0068547 0.0026144 0.00067262
-6.7834e-05 -0.003747 -0.00040125 -0.0014452
0.033039 0.018003 -0.17274 0.35657 0.029193 -0.014836 0.0014641 -0.0017095
-0.0025807 -0.0024959 -0.0014629 -0.0026081
-0.0011869 0.0068434 0.029176 -0.014934 0.15865 0.29587 -0.00052509 -0.0014856
-0.0016832 -0.00085037 -0.00048018 -0.001132
0.002588 0.00067977 0.001498 -0.0016846 -0.00053829 -0.0014862 -0.049608 0.27934
0.018988 0.017879 -0.0023741 0.0015503
-3.9238e-05 -0.0037874 -0.0026568 -0.0024805 -0.0017135 -0.00084984 0.018995 0.017889
-0.083104 0.18518 0.013249 0.018407
-0.00032084 -0.0015095 -0.0013926 -0.0026025 -0.00043207 -0.001115 -0.002327 0.0016037
0.013195 0.018454 -0.13637 0.26858
1100000000 0.037051 0.3062 0.035597 -0.0043146 0.0028265 0.003793 0.0024169 -0.0013581
-0.0020596 -0.0031783 -0.0039647 -2.8947e-05
0.035561 -0.0042883 -0.12952 0.37368 0.014955 -0.027673 -9.9085e-06 -0.0018402
-0.0033246 -0.00070672 -0.0033982 -0.00058287
0.002854 0.0037747 0.014875 -0.027761 0.2049 0.27553 -0.0018407 0.00027335
-0.0017574 0.00058992 -0.0010652 -0.00032658
0.0023634 -0.0013401 -4.0254e-05 -0.0018451 -0.0018334 0.00027317 -0.0092489 0.28435
0.024221 0.0050442 -0.0025803 0.00019925
-0.0020882 -0.0031558 -0.0033128 -0.00070426 -0.0017803 0.00059257 0.024213 0.0050234
-0.065276 0.1993 0.018875 0.0086888
-0.0038941 1.7585e-05 -0.0033563 -0.0005126 -0.0010676 -0.00032824 -0.0025714 0.00023471
0.018831 0.0086506 -0.090598 0.29846
1160000000 0.08844 0.30106 0.023717 -0.020705 0.0026087 -0.00046463 -0.00025532 -0.002427
-0.0041581 -0.0007754 -0.00090606 0.0042052
0.023705 -0.020666 -0.085938 0.37767 -0.0037336 -0.028886 -0.0017257 -0.0017165
-0.0026448 0.0024811 -0.0013029 0.0019106
0.0026011 -0.00049936 -0.0038499 -0.028874 0.24784 0.2447 -0.00065621 0.001701
-0.00052584 0.0019283 -0.00084995 0.00023877
-0.00026201 -0.0024366 -0.0017454 -0.0017016 -0.00063996 0.0017104 0.030057 0.28177
0.020624 -0.010099 -0.0029325 0.0052477
-0.0042385 -0.00073197 -0.0026862 0.0025113 -0.00049726 0.0019221 0.020657 -0.010081
-0.031935 0.2088 0.017894 0.00065371
-0.00086009 0.0042282 -0.0013144 0.0019248 -0.00086611 0.00023605 -0.0029328 0.0052559
0.017881 0.00069635 -0.044015 0.30113
1220000000 0.13278 0.28963 0.010139 -0.029801 -0.0016029 -0.00076443 -3.1631e-05 -0.00096008
-0.002606 0.0024759 0.0013998 0.0020398
0.010144 -0.029759 -0.041758 0.38963 -0.016759 -0.020988 -0.0025389 0.0004182
7.6668e-05 0.0029419 -0.00076668 0.0018488
-0.0016001 -0.00077972 -0.01686 -0.020928 0.28699 0.20578 0.00080384 0.0015709
0.00065639 0.0011542 0.00030812 0.00066367
-4.8476e-05 -0.00098228 -0.0025341 0.00041695 0.00081851 0.0015637 0.069889 0.27344
0.010256 -0.016647 0.0022217 0.0015454
-0.0025978 0.0024921 0.00010881 0.0029152 0.00063227 0.001158 0.010186 -0.016638
-0.0093115 0.21829 0.014101 -0.012443
0.0014437 0.0020324 -0.00070534 0.0018632 0.00033031 0.00066046 0.0022175 0.0015207
0.014055 -0.012493 -0.012947 0.31817
1280000000 0.18237 0.26734 -0.0079859 -0.028111 -0.0018503 0.0025108 -0.00093433 -0.0020161
-0.00076476 0.0030656 0.0025047 0.0011245
-0.00796 -0.028095 0.0040827 0.3806 -0.023544 -0.0084171 -0.00094642 0.0014905
0.0016711 0.0017576 0.00061288 0.0020559
-0.0018439 0.0025038 -0.023609 -0.0083193 0.31744 0.16195 0.0015336 -6.2112e-05
0.0010611 0.00029882 0.00054237 0.00031445
-0.00093174 -0.002004 -0.00095065 0.0014961 0.0015522 -6.2474e-05 0.10676 0.25732
0.0010259 -0.018511 0.00011657 8.4727e-05
-0.00072596 0.0030868 0.0016969 0.0017698 0.0010677 0.00029729 0.00099937 -0.018525
0.027328 0.22242 0.0032091 -0.014517
0.0025582 0.0010963 0.00065076 0.0020788 0.00053921 0.00035057 0.00011036 8.4783e-05
0.0032289 -0.014522 0.03524 0.32036
1340000000 0.21921 0.23332 -0.017516 -0.018652 0.00094965 0.0044634 -0.0017908 -0.00073855
0.0014707 0.0027202 0.0016853 -0.0014251
-0.017483 -0.018638 0.04339 0.37238 -0.021439 0.0041829 -0.00012388 0.0019941
0.0018812 0.000789 0.0012932 0.00082499
0.00098421 0.0044682 -0.021445 0.0042768 0.3396 0.11395 0.0010671 -0.00091473
0.0006987 -0.00045063 0.00020462 0.00028318
-0.0017987 -0.00072859 -0.00010113 0.0020129 0.0010788 -0.00090334 0.13942 0.23719
-0.0080314 -0.01584 0.00095798 0.00036009
0.001493 0.0026899 0.0018873 0.0007528 0.00070454 -0.00045805 -0.0080868 -0.015827
0.057504 0.2183 -0.0032904 -0.013202
0.0016914 -0.0014083 0.0012726 0.00082048 0.00025913 0.00029317 0.00096676 0.00034057
-0.0032836 -0.013211 0.073418 0.31608
1400000000 0.25193 0.19505 -0.023106 -0.0072949 0.0051575 0.0030466 -0.0020443 0.00068852
0.0024033 0.00085347 0.00033773 -0.0013732
-0.023084 -0.0072994 0.080579 0.35944 -0.014802 0.012233 0.0013203 0.0013133
0.0011086 -0.00078319 0.0012688 0.00023582
0.0051591 0.0030356 -0.014752 0.012316 0.35281 0.060439 0.00016691 -0.001577
-3.9464e-05 -0.00041144 0.00044056 0.00021488
-0.0020551 0.00070621 0.0013399 0.001309 0.00015248 -0.0015835 0.16923 0.20864
-0.013639 -0.0094617 -0.00078272 -0.00057979
0.0024048 0.00085308 0.0011144 -0.00079026 -7.6008e-06 -0.00040473 -0.013688 -0.0094416
0.090543 0.21437 -0.0096326 -0.0086698
0.00031905 -0.0013715 0.0012588 0.00022875 0.00049412 0.00024084 -0.00077457 -0.00060708
-0.0096129 -0.0086991 0.11863 0.30514
1460000000 0.27431 0.1508 -0.020119 0.0046683 0.0055445 -0.001827 -0.0015206 0.0017383
0.0020739 -0.00057013 -0.00036708 -0.0010049
-0.020096 0.0046497 0.11478 0.33772 -0.0062383 0.015198 0.0017502 0.00017435
0.00087856 -0.001229 0.0011435 -0.0005783
0.0055376 -0.0018346 -0.0061682 0.01524 0.35871 0.0058798 -0.0011394 -0.0012381
0.0002285 -0.00030554 0.00055946 -0.00031054
-0.0015212 0.0017485 0.0017736 0.00016273 -0.0011503 -0.0012432 0.19579 0.17965
-0.014918 -0.0030806 -0.00096579 0.0018586
0.0020839 -0.00057322 0.00087342 -0.0012465 0.00020166 -0.00030109 -0.014941 -0.0030295
0.11982 0.20016 -0.011475 -0.0029342
-0.00038084 -0.0010052 0.001153 -0.00059863 0.00057706 -0.00030009 -0.000967 0.001821
-0.011474 -0.0029563 0.15193 0.28472
1520000000 0.28612 0.10917 -0.014532 0.010122 0.0032626 -0.0042007 0.00012721 0.0025731
0.0020045 -0.0017122 -0.0010797 -9.6907e-05
-0.014522 0.010101 0.14843 0.32295 0.0014286 0.013043 0.0016448 -0.00079292
3.9986e-05 -0.00099428 0.00036139 -0.0010362
0.0032272 -0.0042165 0.001498 0.013045 0.352 -0.050381 -0.0010615 -0.00035689
0.00067377 -0.00083371 5.0793e-05 -0.00012734
0.00014657 0.002571 0.0016343 -0.00081096 -0.0010615 -0.00034734 0.21944 0.14183
-0.014404 0.002336 0.0012636 0.0020317
0.0019947 -0.0017274 3.7836e-05 -0.00099913 0.00066615 -0.00083951 -0.014412 0.0023655
0.14796 0.18643 -0.011444 0.0014162
-0.001094 -0.0001059 0.00037654 -0.0010483 2.2306e-05 -0.00012711 0.0012817 0.0020432
-0.011435 0.0014269 0.18543 0.2643
1580000000 0.29525 0.063112 -0.0080376 0.013175 -0.00092952 -0.004877 0.0013805 0.001868
-0.00034428 -0.0020505 -0.00035045 0.00039027
-0.0080425 0.013155 0.17579 0.29808 0.0050819 0.0082904 0.00044089 -0.0015883
-0.00054103 -0.0010508 -0.00026844 -0.00082447
-0.00094543 -0.0048628 0.0051256 0.0082758 0.33139 -0.10791 -0.001588 0.0005771
-0.00030203 -0.001142 7.8586e-05 -0.00045136
0.0013757 0.0018569 0.00043709 -0.0015958 -0.001589 0.00056819 0.23381 0.10246
-0.011167 0.0071442 0.0022096 0.00091098
-0.00036857 -0.0020377 -0.00056673 -0.0010383 -0.00034235 -0.0011435 -0.011168 0.0071698
0.17257 0.16887 -0.009104 0.0071555
-0.00035664 0.00039767 -0.00027173 -0.00081793 0.00010276 -0.0004381 0.0022355 0.00091623
-0.0091336 0.0071347 0.2181 0.2375
1640000000 0.29713 0.02195 -0.001436 0.012173 -0.0027437 -0.0025538 0.0026712 0.00099368
-0.00064119 -0.0014538 -0.00015195 0.00054067
-0.0014467 0.012166 0.20535 0.27291 0.0058753 0.0035579 -0.00067015 -0.0017113
-0.00099786 -0.0004298 -0.00046685 -0.00070161
-0.0027501 -0.0025356 0.0058976 0.0035259 0.30331 -0.15724 -0.00069702 0.0013959
-0.0011236 -0.0010398 -7.7014e-05 -0.00041066
0.0026736 0.0009756 -0.00068547 -0.0016998 -0.00068952 0.0013975 0.2465 0.053308
-0.0070502 0.0084316 0.002457 -0.00070785
-0.00065162 -0.001444 -0.0010111 -0.00041045 -0.0010824 -0.0010513 -0.0070459 0.0084669
0.19545 0.14459 -0.0046685 0.0090535
-0.00016611 0.00055981 -0.00049545 -0.00070556 -0.00010951 -0.00042743 0.0024558 -0.00069769
-0.0046452 0.0090423 0.24361 0.20635
1700000000 0.28964 -0.023393 0.0019437 0.0094008 -0.0034296 0.00013633 0.0029967 -0.001174
-0.0019714 -0.00073798 0.00064459 0.00039867
0.0019391 0.0093975 0.22345 0.24117 0.0038638 0.00072885 -0.001481 -0.00054079
-0.00079335 5.1637e-05 -0.00091124 -0.00043666
-0.0034264 0.00017203 0.0038789 0.00069464 0.25935 -0.19699 0.00039947 0.0017606
-0.0019746 -0.00014411 -0.00051331 -0.00081888
0.0030064 -0.0011981 -0.0014798 -0.00053811 0.00038896 0.0017413 0.24345 0.0032911
-0.0044713 0.0090791 0.0014773 -0.0021844
-0.0019657 -0.00070737 -0.00079352 5.1514e-05 -0.001954 -0.00013818 -0.0044532 0.0091198
0.21296 0.12453 -2.2067e-05 0.0093611
0.0006666 0.00038832 -0.00093074 -0.00043039 -0.00048179 -0.00081048 0.0014952 -0.0021933
-1.1715e-05 0.0093623 0.25997 0.17179
1760000000 0.27724 -0.071806 0.0042436 0.0061971 -0.0022191 0.00096557 0.0013462 -0.0033576
-0.0012807 0.00068894 0.00042027 -0.00064438
0.0042327 0.006194 0.24929 0.20103 0.0017077 -0.0010543 -0.0011611 0.00020333
-0.0010076 0.00090622 -0.00058693 0.00042393
-0.002195 0.00097757 0.0017082 -0.0010572 0.21047 -0.23005 0.0012371 0.0011385
-0.001138 0.0014869 -0.0013765 -0.00047989
0.0013419 -0.0033508 -0.0011698 0.00021354 0.001232 0.0011644 0.23414 -0.048448
-0.001149 0.008376 -0.00022504 -0.0025008
-0.0012668 0.00070511 -0.00099676 0.00091268 -0.0011365 0.0015224 -0.0011312 0.0083908
0.22803 0.089454 0.0038806 0.0068117
0.00041653 -0.00066526 -0.00057542 0.00043053 -0.0013882 -0.00048179 -0.00023809 -0.0024891
0.0038621 0.0068216 0.27262 0.13405
1820000000 0.25248 -0.10902 0.0044518 0.0026812 -8.2155e-05 0.0023093 -0.00094436 -0.0030582
-0.0010517 0.00087561 -6.7114e-05 -0.00012868
0.0044468 0.0026797 0.25898 0.17074 -0.00018387 -8.6887e-05 -0.0012885 0.00093381
-3.4743e-05 0.001337 -0.00050455 0.00055238
-7.7564e-05 0.0023306 -0.00019939 -8.9916e-05 0.1605 -0.24562 0.0014511 0.00047978
-0.00024673 0.0022529 -0.0013369 0.00044227
-0.00096545 -0.0030546 -0.0012845 0.00094894 0.0014695 0.00043788 0.20392 -0.095573
0.00027537 0.0067179 -0.0015869 -0.0015141
-0.0010404 0.00087806 -3.5571e-05 0.0013325 -0.00026317 0.0022372 0.00028324 0.0067172
0.24526 0.060328 0.0047393 0.0034513
-9.8137e-05 -0.0001177 -0.00048699 0.00055016 -0.0012668 0.00046137 -0.0015766 -0.0015177
0.004728 0.0034224 0.27494 0.097992
1880000000 0.2172 -0.14925 0.002316 0.00041106 -0.00041551 0.0020581 -0.0029647 -0.0021561
-0.0002497 0.001656 0.00023343 -0.00050116
0.0023128 0.0004189 0.26306 0.12409 -0.0023099 0.0016392 -0.0001746 0.0017134
0.00062085 0.0012115 0.00013142 0.00088683
-0.00040642 0.0020518 -0.0023054 0.0016428 0.10816 -0.25514 0.0017972 -0.0010133
0.0015406 0.001903 -0.00084642 0.0012224
-0.0029597 -0.0021385 -0.00015795 0.0016857 0.001846 -0.00098359 0.16308 -0.13565
0.00097617 0.0048247 -0.002436 0.00048846
-0.00021697 0.0016508 0.00062889 0.0012201 0.0015539 0.0019281 0.00099281 0.0048232
0.24816 0.027656 0.0047536 0.0012384
0.00022589 -0.00049552 0.00014169 0.00091306 -0.00086527 0.0012381 -0.002446 0.0004899
0.0047671 0.0012531 0.27446 0.063768
1940000000 0.17747 -0.17502 0.00015363 -0.0013098 0.0013283 0.0019521 -0.0038278 0.00049187
0.0012247 0.00095665 -0.00064837 -0.0005126
0.00015388 -0.0013086 0.26323 0.092307 -0.001152 0.0038611 0.0010225 0.0013008
0.0018647 0.00041119 0.00082749 0.00030759
0.0013637 0.0019457 -0.0011307 0.0038674 0.062178 -0.24831 0.00038561 -0.00227
0.0023809 0.00044331 0.0002451 0.0015075
-0.0038328 0.00053445 0.0010194 0.0012883 0.00036954 -0.0022582 0.11077 -0.16566
8.0004e-06 0.0036534 -0.0013964 0.0015593
0.00125 0.00094134 0.001891 0.00040019 0.0024191 0.00041056 1.5824e-05 0.0036698
0.2499 -0.011328 0.0036145 -0.0020247
-0.00067427 -0.00051185 0.00081311 0.00027207 0.0002688 0.0015008 -0.0013705 0.0015669
0.0036238 -0.0020221 0.26353 0.027822
2000000000 0.13102 -0.18931 -0.0037019 0.00068837 0.0024405 0.0016674 -0.0023113 0.0035261
0.001053 0.00016666 -0.00072767 0.0004031
-0.0036986 0.00068927 0.24865 0.056965 -0.00099826 0.0057095 0.0016063 0.00035708
0.0013527 -0.0014478 0.00052478 0.00011117
0.0024623 0.0016629 -0.00096821 0.0057339 0.018794 -0.23369 -0.0013519 -0.0013462
0.0019521 -0.0011494 0.0015767 0.0012942
-0.0022873 0.0035587 0.0016013 0.00035109 -0.0013463 -0.0013491 0.057316 -0.17532
-0.001614 0.0035297 4.3289e-05 0.0022445
0.001075 0.00020208 0.0013308 -0.0014662 0.0019817 -0.0011491 -0.0015971 0.0035333
