!Keysight Technologies,M9804A,MY58100912,A.14.10.03
!Date: Thursday, April 27, 2023 10:28:33
!Correction: S11(C  6-Port  ) 
!S12(C  6-Port  ) 
!S13(C  6-Port  ) 
!S14(C  6-Port  ) 
!S15(C  6-Port  ) 
!S16(C  6-Port  ) 
!S21(C  6-Port  ) 
!S22(C  6-Port  ) 
!S23(C  6-Port  ) 
!S24(C  6-Port  ) 
!S25(C  6-Port  ) 
!S26(C  6-Port  ) 
!S31(C  6-Port  ) 
!S32(C  6-Port  ) 
!S33(C  6-Port  ) 
!S34(C  6-Port  ) 
!S35(C  6-Port  ) 
!S36(C  6-Port  ) 
!S41(C  6-Port  ) 
!S42(C  6-Port  ) 
!S43(C  6-Port  ) 
!S44(C  6-Port  ) 
!S45(C  6-Port  ) 
!S46(C  6-Port  ) 
!S51(C  6-Port  ) 
!S52(C  6-Port  ) 
!S53(C  6-Port  ) 
!S54(C  6-Port  ) 
!S55(C  6-Port  ) 
!S56(C  6-Port  ) 
!S61(C  6-Port  ) 
!S62(C  6-Port  ) 
!S63(C  6-Port  ) 
!S64(C  6-Port  ) 
!S65(C  6-Port  ) 
!S66(C  6-Port  ) 
!S6P File: Measurement: :
# Hz S  RI   R 50
500000000 -0.33741 -0.03882 -0.0097562 -0.0023437 -0.0074896 0.012809 -0.0040263 0.012071
0.012434 0.0042632 -0.004462 0.0090294
-0.0097692 -0.0023521 -0.41882 -0.051285 0.0081552 -0.010966 0.0017022 0.012274
0.0070412 0.0024498 0.001408 0.013707
-0.0074698 0.012815 0.0081279 -0.010991 -0.26552 0.20925 0.0079298 0.0033688
-0.0016492 0.0082716 0.001885 0.011867
-0.004046 0.012077 0.0017252 0.012305 0.0079307 0.003371 -0.33085 0.044572
-0.018107 -0.0062431 0.015421 0.026397
0.012405 0.0041986 0.0070399 0.002444 -0.0016192 0.0082943 -0.018114 -0.0062323
-0.22524 -0.19486 -0.025177 0.0045266
-0.0044624 0.0089784 0.0014628 0.013753 0.0019101 0.011866 0.015423 0.026401
-0.025161 0.0045104 -0.2682 -0.1302
560000000 -0.31642 0.12387 -0.023914 -0.063799 0.00042127 0.01191 0.0053793 0.010373
0.010059 0.0044132 0.011022 0.0077131
-0.023883 -0.063743 -0.37846 0.1077 -0.040962 -0.037616 0.013757 0.004169
-0.013373 -0.0040703 0.0038794 0.00054031
0.00045802 0.011906 -0.041116 -0.037565 -0.18239 0.25816 -0.00055022 -0.0044031
0.019328 0.0044082 0.0069609 -0.0056653
0.0053709 0.010368 0.013797 0.0041357 -0.00054899 -0.0043871 -0.30482 0.13288
0.0039241 -0.023641 0.0040481 -0.021895
0.010099 0.0043803 -0.013421 -0.0040094 0.019302 0.0043997 0.0038896 -0.023627
-0.29114 -0.019655 0.0086323 -0.048925
0.011059 0.0076855 0.0038241 0.0005276 0.0069607 -0.0057122 0.0040356 -0.021866
0.0086591 -0.048947 -0.32958 0.017772
620000000 -0.27463 0.10684 -0.023251 0.0081112 0.0029913 0.0087662 0.0078105 -0.0052911
0.011402 -0.00049522 0.0022162 -0.0026353
-0.023221 0.0081162 -0.40274 0.060329 -0.018682 0.00024426 -0.0014312 -0.0019354
0.011466 -0.006664 0.0015749 -0.0031534
0.0030551 0.0087805 -0.018706 0.00029009 -0.15333 0.26679 -0.0014472 -0.005231
-0.00291 -0.0029804 0.0086215 -0.0034884
0.0077606 -0.0052984 -0.001434 -0.0019329 -0.0014374 -0.0052233 -0.26493 0.14425
-0.037978 -0.019125 0.011984 0.026238
0.011426 -0.00054473 0.011437 -0.0067048 -0.0029292 -0.0029994 -0.038028 -0.01909
-0.20829 -0.058525 -0.041591 0.014155
0.0021562 -0.0026569 0.0015534 -0.003144 0.008633 -0.003483 0.011993 0.026257
-0.041584 0.014132 -0.25037 -0.01855
680000000 -0.2346 0.19276 -0.027079 -0.014308 0.0052127 0.0050385 0.0011886 -0.0073396
-0.0035316 -0.011028 0.0046888 -0.0066288
-0.027048 -0.014313 -0.38737 0.15824 -0.032585 -0.0011689 -0.0017604 -0.00031226
-0.0023742 -0.0088884 -0.00163 -0.0022577
0.0052115 0.0050131 -0.032613 -0.0010737 -0.10209 0.28669 -0.00082058 3.638e-05
-0.0018206 0.00053038 -0.0029548 -0.0093593
0.0011619 -0.007344 -0.0017607 -0.000303 -0.00082259 3.1123e-05 -0.22024 0.19399
-0.023718 -0.0080019 -0.0097464 -0.010971
-0.0035735 -0.011013 -0.0023817 -0.0088978 -0.0018177 0.00053567 -0.02373 -0.0079632
-0.25858 0.04095 -0.0052213 -0.0085048
0.0046883 -0.006607 -0.0016568 -0.002269 -0.0029584 -0.0093705 -0.0097424 -0.011
-0.0052137 -0.0085148 -0.26109 0.087967
740000000 -0.18995 0.1877 -0.038517 0.026689 0.012603 -0.0050778 -6.6107e-05 -0.0042565
-0.0042344 -0.0026272 -0.0056388 0.0028568
-0.038507 0.026684 -0.33447 0.1768 -0.035275 0.035005 -0.00077798 -0.0063476
-0.01136 0.0082199 -0.0020923 -0.0065508
0.012612 -0.0051111 -0.035179 0.035147 -0.068055 0.28476 -0.0019282 0.0031779
-0.0021609 -0.0043792 -0.0015096 0.00012133
-0.00010175 -0.0042604 -0.0007882 -0.0063496 -0.0019323 0.0031839 -0.20377 0.20169
-0.043031 -0.0070802 0.022653 0.014871
-0.0042258 -0.0026174 -0.01135 0.0082647 -0.0021583 -0.004382 -0.043069 -0.0070169
-0.15933 0.066587 -0.043418 0.00071605
-0.005629 0.0028596 -0.0021015 -0.006542 -0.0014992 9.9018e-05 0.022682 0.014854
-0.043443 0.00070206 -0.2483 0.093076
800000000 -0.15722 0.22774 -0.022321 0.016796 0.0053757 -0.010596 -0.00463 -0.0020054
-0.004128 0.0021188 0.004677 0.00086291
-0.022296 0.016764 -0.33776 0.24681 -0.007742 0.033776 -0.0022755 0.0021743
-0.00063072 0.0030689 0.00093228 0.0053244
0.0053492 -0.010618 -0.0076461 0.033827 -0.027564 0.30786 0.0011255 0.0015307
0.00038085 0.003467 -0.0016167 0.0009577
-0.0046424 -0.0019982 -0.0022777 0.0021778 0.0011131 0.0015302 -0.17518 0.22973
-0.028433 0.013665 0.013504 -0.010119
-0.0041384 0.0021441 -0.00061883 0.0030767 0.00037456 0.0034789 -0.02844 0.01372
-0.2069 0.090369 -0.017567 0.019107
0.0046736 0.00084235 0.00094443 0.0053357 -0.0016141 0.00095515 0.013502 -0.010138
-0.017573 0.019102 -0.24358 0.14359
860000000 -0.12263 0.24812 -0.017372 0.030569 -0.0033578 -0.0099184 -0.0025429 0.00096897
0.0040699 0.0047045 -0.0030969 -0.0027659
-0.017371 0.030533 -0.29029 0.28877 0.0078418 0.034008 -0.00018413 0.0019572
0.0042207 7.6938e-05 0.0034153 0.00077485
-0.0033941 -0.0099137 0.0079479 0.034016 0.020359 0.31563 -0.00051401 -0.00036086
0.002885 -0.0015242 0.0013751 0.0043119
-0.0025334 0.000952 -0.00018538 0.0019539 -0.00051196 -0.00036498 -0.13899 0.24071
-0.018095 0.018484 -0.005832 -0.0093049
0.004073 0.004688 0.0042369 4.2006e-05 0.0028827 -0.0015317 -0.018073 0.018528
-0.15631 0.14151 -0.025581 0.015029
-0.0031034 -0.002752 0.0034119 0.0007694 0.0013756 0.0043167 -0.0058307 -0.0093071
-0.025598 0.015002 -0.19235 0.18977
920000000 -0.097945 0.27094 0.0052656 0.037747 -0.0094179 -0.0043421 -0.0019272 0.0019747
0.0010653 0.0018724 0.0027878 -0.0015502
0.0052337 0.037682 -0.26122 0.31007 0.027977 0.021907 0.0015411 0.0011992
0.0070288 -0.00049555 0.0041199 -0.0026818
-0.0094251 -0.0043193 0.028066 0.021847 0.066522 0.31627 0.0018412 -5.6819e-05
0.0012065 -0.000332 0.001021 -0.0011097
-0.0019317 0.0019727 0.0015354 0.0012045 0.0018376 -5.6374e-05 -0.11497 0.25772
-0.010785 0.030589 0.0036673 -0.006529
0.0010804 0.0018775 0.0070481 -0.00051189 0.001203 -0.00032546 -0.010732 0.030625
-0.14627 0.14811 -0.0030588 0.027326
0.0028168 -0.0015746 0.0041026 -0.0026992 0.0010149 -0.0011211 0.0036674 -0.0065435
-0.0030664 0.0273 -0.20033 0.20315
980000000 -0.050436 0.29027 0.017569 0.029803 -0.0089323 0.0046257 0.0021388 0.0035892
0.0039944 -0.0012498 -0.0030077 -0.0020991
0.017547 0.029769 -0.20829 0.34364 0.032891 0.0047783 0.0021231 6.8158e-06
0.001357 -0.0057183 -0.00015756 -0.002371
-0.0089166 0.0046464 0.032912 0.004676 0.11274 0.30955 0.00045701 -0.00112
0.00020935 -0.002048 0.0015175 -0.00021779
0.0021548 0.0035733 0.0021007 1.6303e-06 0.00045304 -0.001131 -0.076936 0.26907
0.0078448 0.029602 -0.0092878 -0.0072302
0.0039903 -0.0012783 0.0013385 -0.0057206 0.00020273 -0.0020542 0.0079208 0.029595
-0.11517 0.17685 0.0046755 0.019045
-0.0029967 -0.0021058 -0.00017418 -0.0023956 0.0015227 -0.00022182 -0.0092719 -0.0072258
0.0046625 0.019048 -0.15812 0.24801
1040000000 -0.0082206 0.29857 0.033075 0.017997 -0.0012224 0.0068456 0.0025567 0.00069559
-1.359e-05 -0.0037636 -0.00033136 -0.0015122
0.03302 0.017981 -0.17274 0.35651 0.029223 -0.014833 0.0015184 -0.0016927
-0.0026667 -0.0024886 -0.0013604 -0.0025969
-0.0011904 0.0068474 0.029171 -0.014936 0.15863 0.29584 -0.00053127 -0.0014952
-0.0017089 -0.00085403 -0.00045067 -0.0011191
0.0025682 0.00068134 0.0015023 -0.0016808 -0.00053401 -0.0014983 -0.049632 0.27929
0.018953 0.017855 -0.0023123 0.0015726
-2.7514e-05 -0.0037871 -0.0026592 -0.0024701 -0.0017217 -0.00084882 0.01901 0.01783
-0.083082 0.18508 0.013252 0.018439
-0.00033862 -0.001513 -0.0014055 -0.0026 -0.00045442 -0.0011261 -0.0023077 0.0015692
0.013259 0.018442 -0.13655 0.26851
1100000000 0.037043 0.30615 0.03561 -0.0043237 0.0028361 0.0037887 0.0023564 -0.001336
-0.002064 -0.003154 -0.0039047 7.1129e-06
0.035579 -0.0043166 -0.12954 0.37365 0.014969 -0.027678 -2.1913e-05 -0.0018528
-0.003312 -0.00072836 -0.0033475 -0.00052366
0.0028542 0.003776 0.014875 -0.02776 0.20485 0.27552 -0.0018329 0.0002708
-0.0017792 0.0005779 -0.0010366 -0.00032515
0.0023578 -0.0013372 -4.0063e-05 -0.0018523 -0.0018331 0.00026799 -0.0092568 0.2843
0.024234 0.0050864 -0.0025696 0.00023239
-0.0020821 -0.0031654 -0.0033225 -0.00070475 -0.0017884 0.00058649 0.024261 0.0050367
-0.065345 0.19932 0.018823 0.0086942
-0.0038974 1.7013e-05 -0.0033631 -0.00051502 -0.0010397 -0.00033857 -0.0025727 0.00023151
0.018818 0.0087083 -0.090632 0.29844
1160000000 0.088389 0.30104 0.023718 -0.020749 0.0025974 -0.00048381 -0.00025884 -0.002433
-0.0042204 -0.00073764 -0.00088535 0.0042153
0.023706 -0.020728 -0.085979 0.37766 -0.0037055 -0.028866 -0.0017237 -0.0017147
-0.0027121 0.0024902 -0.0013041 0.0019222
0.00261 -0.00049709 -0.0038486 -0.02886 0.24783 0.24468 -0.00064446 0.0017091
-0.00050791 0.0019345 -0.00085541 0.00024407
-0.00025959 -0.0024227 -0.0017385 -0.0017003 -0.00065236 0.0017041 0.030034 0.28179
0.020653 -0.010048 -0.0029773 0.0052607
-0.004218 -0.00072311 -0.0027026 0.0025344 -0.00051067 0.0019455 0.02063 -0.010089
-0.031909 0.20888 0.017837 0.00065794
-0.00086251 0.0042138 -0.0012994 0.0019296 -0.00085489 0.00024709 -0.0029562 0.0052737
0.017834 0.00065543 -0.043922 0.30119
1220000000 0.13272 0.28961 0.010124 -0.02984 -0.0016076 -0.00077744 -4.471e-05 -0.00098027
-0.002608 0.0024875 0.0014402 0.0020344
0.010129 -0.029819 -0.0418 0.38966 -0.016744 -0.02097 -0.00253 0.00039844
9.4029e-05 0.0029075 -0.00071384 0.0018598
-0.0015993 -0.00077539 -0.016865 -0.020918 0.28697 0.20577 0.00082594 0.0015615
0.00062727 0.0011632 0.00033737 0.00066703
-4.8148e-05 -0.0009797 -0.002539 0.00040202 0.00082629 0.0015587 0.069903 0.27344
0.010215 -0.016627 0.0022199 0.0015282
-0.0026037 0.0024979 0.00010257 0.0029203 0.0006231 0.0011626 0.010191 -0.016647
-0.0092992 0.21833 0.014059 -0.012466
0.0014502 0.0020276 -0.00069373 0.0018553 0.0003386 0.0006672 0.0022206 0.0015258
0.014066 -0.01246 -0.0129 0.31808
1280000000 0.18227 0.26734 -0.0080246 -0.028151 -0.0018584 0.0025078 -0.00092496 -0.0020144
-0.00074871 0.0030841 0.0025491 0.0011116
-0.0080072 -0.028125 0.004069 0.38066 -0.023541 -0.0084177 -0.00095784 0.0014868
0.00168 0.001774 0.00063634 0.0020787
-0.0018461 0.0025157 -0.023597 -0.0083123 0.31741 0.16195 0.0015589 -6.3817e-05
0.001043 0.00029946 0.00052242 0.00035984
-0.00092829 -0.0020061 -0.00095219 0.0014912 0.0015556 -6.1155e-05 0.10678 0.25735
0.0010295 -0.018502 0.00011676 6.5869e-05
-0.00073086 0.003088 0.0016955 0.0017816 0.0010464 0.00030344 0.00098862 -0.018506
0.027281 0.22242 0.0031922 -0.014526
0.0025572 0.0010884 0.00065621 0.0020831 0.000526 0.00035734 0.00011093 6.4818e-05
0.0031994 -0.014532 0.035265 0.32044
1340000000 0.21912 0.23336 -0.017575 -0.018646 0.00095779 0.0044764 -0.001808 -0.0007435
0.0014584 0.0026986 0.0016941 -0.0013905
-0.017545 -0.018636 0.043395 0.37244 -0.021429 0.0041591 -0.00011158 0.0020006
0.0018818 0.000766 0.001266 0.00083193
0.00097876 0.0044703 -0.02144 0.0042707 0.33959 0.11396 0.0010793 -0.00090958
0.00069261 -0.00047239 0.00024677 0.00029476
-0.0018048 -0.0007372 -0.00010182 0.0020118 0.0010785 -0.00091144 0.13942 0.2372
-0.0080447 -0.015846 0.00097034 0.00032144
0.0014866 0.0027098 0.0018894 0.00075278 0.00067494 -0.00047778 -0.0080862 -0.01584
0.057499 0.21831 -0.0032855 -0.013181
0.0016926 -0.001406 0.001267 0.00082807 0.00025093 0.00029791 0.00096752 0.00032284
-0.0032785 -0.013184 0.073312 0.31607
1400000000 0.25186 0.19513 -0.023174 -0.0072469 0.0051432 0.0030626 -0.002068 0.00068999
0.0024071 0.00086563 0.00032662 -0.0013778
-0.023137 -0.0072538 0.08062 0.35947 -0.01479 0.012223 0.0013256 0.0013134
0.0011186 -0.0007738 0.0012564 0.00024211
0.0051588 0.0030364 -0.014745 0.012307 0.35282 0.060442 0.0001547 -0.0015855
-4.5405e-07 -0.00038801 0.00047809 0.00024724
-0.002069 0.0007059 0.0013405 0.0013148 0.0001579 -0.0015814 0.16924 0.20864
-0.01365 -0.009452 -0.00075643 -0.00060205
0.0024113 0.00084658 0.0011132 -0.00079704 -6.3459e-06 -0.00038711 -0.013688 -0.0094182
0.090498 0.21438 -0.0096112 -0.0086796
0.00032209 -0.0013725 0.0012479 0.00022523 0.00048543 0.00024991 -0.00076051 -0.00059539
-0.0095999 -0.0086836 0.11855 0.30517
1460000000 0.27433 0.15091 -0.020129 0.004743 0.005549 -0.0018202 -0.0015437 0.0017439
0.0020989 -0.0005576 -0.00036793 -0.0010047
-0.02011 0.004727 0.11482 0.33771 -0.0062393 0.015184 0.0017735 0.00016815
0.0008827 -0.0012374 0.001149 -0.00058197
0.0055475 -0.0018343 -0.0061679 0.015225 0.35872 0.0058746 -0.0011526 -0.0012521
0.0001993 -0.00029441 0.00057826 -0.00029442
-0.0015252 0.0017654 0.0017744 0.00016762 -0.001156 -0.0012579 0.19579 0.17964
-0.014915 -0.00308 -0.00098783 0.0018351
0.0020926 -0.00056982 0.00087241 -0.0012425 0.00018767 -0.00029392 -0.014944 -0.0030379
0.11981 0.20018 -0.011465 -0.0029352
-0.00036933 -0.001006 0.0011505 -0.00059195 0.00056592 -0.00029007 -0.00098914 0.0018522
-0.011471 -0.0029503 0.15191 0.28469
1520000000 0.28619 0.10922 -0.014503 0.010189 0.0032578 -0.0042022 0.00013169 0.0025851
0.0020137 -0.0017211 -0.0010968 -0.00010651
-0.014491 0.010166 0.14843 0.32293 0.0014137 0.013049 0.0016355 -0.00080079
3.5836e-05 -0.0010062 0.0003803 -0.0010445
0.0032319 -0.0042208 0.0014873 0.013046 0.352 -0.05039 -0.0010635 -0.00035101
0.00067365 -0.00082463 3.6067e-05 -0.00012287
0.00015388 0.0025768 0.0016359 -0.00081463 -0.0010623 -0.00036023 0.21941 0.14182
-0.014401 0.0023216 0.0012853 0.0020596
0.0019914 -0.0017383 3.5704e-05 -0.0010077 0.00067325 -0.00083306 -0.014411 0.0023607
0.14792 0.18643 -0.011442 0.0013973
-0.0010985 -0.00011059 0.00037653 -0.0010485 3.2445e-05 -0.0001256 0.0012876 0.0020581
-0.01143 0.0013851 0.18544 0.26431
1580000000 0.29531 0.063105 -0.0079739 0.013215 -0.00091737 -0.0048741 0.0013771 0.0018673
-0.00035586 -0.0020433 -0.00035954 0.00039529
-0.0079666 0.013193 0.17579 0.29803 0.0050657 0.0082934 0.00043527 -0.0015914
-0.00055697 -0.0010377 -0.00026072 -0.00082206
-0.0009396 -0.0048694 0.0051158 0.0082781 0.33141 -0.10791 -0.0015892 0.00058451
-0.00033218 -0.0011456 0.00010123 -0.00043694
0.0013933 0.0018574 0.00042489 -0.0016018 -0.0015912 0.00058077 0.2338 0.10247
-0.011172 0.0071424 0.0022081 0.0009312
-0.00037415 -0.0020401 -0.0005639 -0.0010305 -0.00034104 -0.0011426 -0.011152 0.0071883
0.17258 0.16891 -0.0091327 0.0071736
-0.00034985 0.00039559 -0.00027019 -0.00081846 0.00010111 -0.0004369 0.0022166 0.00092193
-0.0091307 0.0071722 0.21803 0.23751
1640000000 0.29718 0.021892 -0.0013662 0.012158 -0.0027379 -0.0025566 0.0026755 0.00098449
-0.00065497 -0.0014478 -0.00017169 0.00056186
-0.0013748 0.012142 0.20532 0.2729 0.0058723 0.0035655 -0.00067904 -0.0017109
-0.0010017 -0.00041996 -0.00049206 -0.00071881
-0.002758 -0.0025406 0.0058988 0.0035294 0.30332 -0.15724 -0.000709 0.0014094
-0.0010884 -0.0010473 -0.00010688 -0.00044517
0.0026814 0.00096715 -0.0006901 -0.0017013 -0.00070553 0.0014146 0.2465 0.053325
-0.0070728 0.0084348 0.0024319 -0.00070253
-0.00066763 -0.0014418 -0.001012 -0.00041018 -0.0010947 -0.0010389 -0.0070433 0.0084627
0.19543 0.1446 -0.0046756 0.0090346
-0.00017112 0.00055731 -0.00050165 -0.00071071 -0.00010698 -0.00045279 0.0024231 -0.00071248
-0.0046715 0.0090296 0.24357 0.20634
1700000000 0.28961 -0.023455 0.001998 0.0093525 -0.0034304 0.00013365 0.0030104 -0.0011926
-0.0019749 -0.00071619 0.00065801 0.00039718
0.0019759 0.0093353 0.22342 0.24118 0.0038799 0.00072859 -0.0014706 -0.00053711
-0.00079413 4.7675e-05 -0.00092298 -0.00043247
-0.0034294 0.00015232 0.003887 0.00070907 0.25932 -0.197 0.00039943 0.0017345
-0.0019511 -0.00013179 -0.0004836 -0.00080345
0.0029983 -0.0012078 -0.0014778 -0.00052886 0.00039323 0.0017314 0.24345 0.0033157
-0.0044804 0.0091005 0.0014974 -0.0021754
-0.0019671 -0.00070341 -0.0007922 5.7283e-05 -0.0019509 -0.00012586 -0.0044463 0.0091238
0.21294 0.12455 -6.3088e-06 0.0093482
0.00066675 0.00038495 -0.00093206 -0.00042897 -0.00048905 -0.00080117 0.0014947 -0.0021783
-4.904e-06 0.0093552 0.25998 0.17173
1760000000 0.27721 -0.071814 0.0042472 0.0061319 -0.0022155 0.00096436 0.0013454 -0.0033447
-0.0012667 0.00070586 0.00042676 -0.00065748
0.0042403 0.0061334 0.24925 0.20106 0.001724 -0.0010487 -0.0011628 0.00020797
-0.00099943 0.00090039 -0.00057733 0.00042671
-0.0022117 0.00097883 0.0017198 -0.0010625 0.2105 -0.23001 0.0012137 0.0011668
-0.0011357 0.0015065 -0.0013841 -0.00047417
0.0013293 -0.0033557 -0.0011586 0.0002241 0.0012082 0.0011624 0.23414 -0.048451
-0.0011451 0.0083788 -0.0002336 -0.0024887
-0.0012581 0.00071188 -0.00099134 0.00091218 -0.0011382 0.0015231 -0.0011223 0.0083836
0.22801 0.089483 0.0038633 0.0068484
0.0004138 -0.00066296 -0.00057579 0.00043114 -0.0013773 -0.00048541 -0.00022555 -0.0024848
0.0038613 0.0068537 0.27261 0.13403
1820000000 0.25243 -0.10901 0.0044265 0.0026369 -8.7742e-05 0.0023431 -0.00095782 -0.0030483
-0.0010429 0.0008712 -9.2312e-05 -0.00012153
0.0044092 0.0026404 0.25897 0.1708 -0.00018948 -0.00010176 -0.0012914 0.00093842
-4.5755e-05 0.0013376 -0.00048987 0.00054617
-7.9323e-05 0.0023265 -0.00018891 -9.9188e-05 0.16046 -0.24564 0.0014743 0.00045876
-0.00025834 0.0022289 -0.0012632 0.00045793
-0.00096697 -0.0030507 -0.001287 0.00094363 0.0014733 0.00045863 0.20393 -0.095602
0.00026957 0.0067354 -0.0015998 -0.0015182
-0.0010319 0.00086513 -3.6532e-05 0.001337 -0.0002566 0.0022306 0.00028996 0.006733
0.24525 0.060345 0.004745 0.0034365
-9.7303e-05 -0.00010772 -0.00049219 0.00055475 -0.0012589 0.00046449 -0.0015958 -0.0015096
0.0047422 0.0034354 0.27494 0.097935
1880000000 0.21717 -0.14921 0.0022729 0.00038632 -0.00042168 0.0020528 -0.0029555 -0.0021392
-0.00024637 0.0016492 0.00023044 -0.00048897
0.0022703 0.00038964 0.26309 0.12413 -0.0023099 0.0016118 -0.0001672 0.0016864
0.00062096 0.0012177 0.00013641 0.00091125
-0.00040383 0.0020626 -0.0023018 0.0016272 0.10818 -0.25508 0.0018528 -0.00097102
0.0015558 0.001918 -0.00086169 0.0012155
-0.0029641 -0.002127 -0.0001591 0.0016845 0.0018507 -0.00097784 0.16311 -0.13565
0.0009991 0.0048421 -0.0024448 0.00047162
-0.00023007 0.0016435 0.00062725 0.001217 0.0015509 0.001926 0.0010161 0.0048351
0.24812 0.027703 0.0047761 0.001273
0.00022406 -0.00050047 0.00014677 0.00090738 -0.00085782 0.001225 -0.0024463 0.00047919
0.0047711 0.0012716 0.27453 0.063754
1940000000 0.17749 -0.17495 0.00010984 -0.001309 0.0013499 0.0019588 -0.0038254 0.00051303
0.0012422 0.00094587 -0.00066091 -0.00051682
0.00011086 -0.0013002 0.26328 0.092351 -0.0011629 0.0038616 0.0010013 0.0013005
0.0018851 0.00042145 0.00080988 0.00028254
0.0013582 0.0019611 -0.0011319 0.0038696 0.062148 -0.24835 0.00036731 -0.0022533
0.0024117 0.00044504 0.00027076 0.0015222
-0.003827 0.00053035 0.0010143 0.0012879 0.00036779 -0.0022518 0.11075 -0.16569
1.1833e-05 0.0036624 -0.0013928 0.0015401
0.0012455 0.00093575 0.001884 0.00041108 0.0024141 0.00043807 1.8844e-05 0.00366
0.24992 -0.011287 0.0036111 -0.0019815
-0.00067461 -0.00051115 0.00081222 0.00027329 0.00027573 0.0015194 -0.0013823 0.0015462
0.0036218 -0.0019842 0.26347 0.027898
2000000000 0.13107 -0.18926 -0.0037369 0.00070133 0.0024589 0.0016735 -0.0022988 0.0035387
0.0010752 0.00022357 -0.00072214 0.00038032
-0.0037278 0.00069837 0.2487 0.056966 -0.0010144 0.0057195 0.0015992 0.00036794
0.0013434 -0.0014478 0.00051378 8.6609e-05
0.0024706 0.0016535 -0.00097411 0.0057395 0.01879 -0.23369 -0.0013656 -0.0013186
0.0019757 -0.0011498 0.0015564 0.0012801
-0.002274 0.0035634 0.0016082 0.00035603 -0.0013635 -0.00132 0.05726 -0.17531
-0.0016196 0.0035308 2.9435e-05 0.0022157
0.0010823 0.00021222 0.001328 -0.0014521 0.0019781 -0.0011528 -0.0016038 0.0035346
0.24372 -0.04529 0.00030096 -0.0026799
