!Keysight Technologies,M9804A,MY58100912,A.14.10.03
!Date: Thursday, April 27, 2023 10:28:33
!Correction: S11(C  6-Port  ) 
!S12(C  6-Port  ) 
!S13(C  6-Port  ) 
!S14(C  6-Port  ) 
!S15(C  6-Port  ) 
!S16(C  6-Port  ) 
!S21(C  6-Port  ) 
!S22(C  6-Port  ) 
!S23(C  6-Port  ) 
!S24(C  6-Port  ) 
!S25(C  6-Port  ) 
!S26(C  6-Port  ) 
!S31(C  6-Port  ) 
!S32(C  6-Port  ) 
!S33(C  6-Port  ) 
!S34(C  6-Port  ) 
!S35(C  6-Port  ) 
!S36(C  6-Port  ) 
!S41(C  6-Port  ) 
!S42(C  6-Port  ) 
!S43(C  6-Port  ) 
!S44(C  6-Port  ) 
!S45(C  6-Port  ) 
!S46(C  6-Port  ) 
!S51(C  6-Port  ) 
!S52(C  6-Port  ) 
!S53(C  6-Port  ) 
!S54(C  6-Port  ) 
!S55(C  6-Port  ) 
!S56(C  6-Port  ) 
!S61(C  6-Port  ) 
!S62(C  6-Port  ) 
!S63(C  6-Port  ) 
!S64(C  6-Port  ) 
!S65(C  6-Port  ) 
!S66(C  6-Port  ) 
!S6P File: Measurement: :
# Hz S  RI   R 50
500000000 -0.33717 -0.038745 -0.0096212 -0.0019821 -0.00733 0.012827 -0.0041142 0.012137
0.012368 0.0042864 -0.0047392 0.0090699
-0.009414 -0.001995 -0.41898 -0.051638 0.0079793 -0.011076 0.0018262 0.012163
0.0071131 0.0026882 0.0016971 0.013825
-0.0072748 0.012741 0.0078531 -0.011042 -0.26566 0.20932 0.0079399 0.0032917
-0.0015907 0.0084011 0.0020453 0.011886
-0.0040569 0.012188 0.0017777 0.012141 0.0079374 0.0033302 -0.33078 0.044485
-0.018009 -0.0061773 0.015612 0.026395
0.012486 0.0043445 0.0071204 0.0027101 -0.0016125 0.0083648 -0.017994 -0.0061888
-0.22502 -0.19497 -0.025206 0.0045524
-0.0048121 0.0093209 0.0017911 0.013741 0.0020442 0.011855 0.015662 0.026351
-0.025168 0.004528 -0.26795 -0.1302
560000000 -0.31654 0.12342 -0.023905 -0.063749 0.00029469 0.011834 0.0053057 0.010623
0.0099997 0.0043755 0.011026 0.0077507
-0.023933 -0.063604 -0.37837 0.10817 -0.041184 -0.037604 0.01369 0.0040657
-0.013267 -0.0039831 0.0041305 0.00029593
0.00050518 0.011842 -0.041333 -0.037577 -0.18226 0.25785 -0.00021561 -0.0045867
0.019068 0.004453 0.0069155 -0.0055502
0.0054334 0.0107 0.013707 0.0040409 -0.00017556 -0.00454 -0.30553 0.13235
0.0042579 -0.023641 0.0041435 -0.021958
0.010201 0.0043725 -0.013232 -0.0041638 0.019099 0.0044628 0.0042486 -0.02367
-0.29109 -0.019483 0.0086466 -0.048738
0.011037 0.0076622 0.0040201 0.00029379 0.0069509 -0.0055413 0.0040918 -0.021905
0.0086457 -0.048698 -0.32974 0.017809
620000000 -0.27502 0.10705 -0.023095 0.0080823 0.0032115 0.0088481 0.0078363 -0.0051808
0.011488 -0.00058943 0.0019289 -0.0023744
-0.023041 0.0080046 -0.40268 0.060275 -0.018731 0.00014609 -0.0013758 -0.0020482
0.011454 -0.0065087 0.0016194 -0.003073
0.0034666 0.0087704 -0.018764 0.00019241 -0.15356 0.26657 -0.0013838 -0.0051153
-0.0032695 -0.0031193 0.0086034 -0.0037286
0.0078759 -0.0051488 -0.0013742 -0.0020793 -0.0013705 -0.0051172 -0.26532 0.14434
-0.037415 -0.019625 0.012277 0.026186
0.011336 -0.00087507 0.011508 -0.0065496 -0.0032518 -0.0031212 -0.037466 -0.019647
-0.20863 -0.057344 -0.041967 0.014663
0.0019425 -0.0022231 0.0016279 -0.0030044 0.0086121 -0.0037158 0.012255 0.026238
-0.041976 0.014574 -0.25057 -0.01823
680000000 -0.23461 0.19274 -0.02721 -0.014349 0.0050767 0.0050065 0.0010362 -0.0072688
-0.0035164 -0.010847 0.0047826 -0.0065465
-0.027184 -0.014286 -0.38733 0.15813 -0.032555 -0.0012149 -0.0016695 -0.00043915
-0.0022283 -0.0089357 -0.001766 -0.0022547
0.0051115 0.0050182 -0.032612 -0.0011502 -0.10209 0.2866 -0.00077786 -6.1071e-05
-0.0017723 0.0006059 -0.00298 -0.0093406
0.0010934 -0.0072154 -0.0017308 -0.00044017 -0.00079161 -6.0476e-05 -0.22029 0.19392
-0.023677 -0.0080635 -0.0098083 -0.010901
-0.0034001 -0.010879 -0.0022562 -0.0089589 -0.0017903 0.00058332 -0.023715 -0.0080575
-0.25875 0.040807 -0.0052129 -0.0083758
0.0047811 -0.0066133 -0.0017389 -0.0021857 -0.0029966 -0.0093265 -0.009815 -0.010953
-0.0052509 -0.0083898 -0.26103 0.087876
740000000 -0.18996 0.18757 -0.038642 0.026612 0.012719 -0.0051147 -0.00021825 -0.0041882
-0.0042109 -0.0028453 -0.0056498 0.0026371
-0.038706 0.026592 -0.33445 0.1768 -0.035345 0.034969 -0.00087948 -0.006202
-0.011349 0.0082322 -0.0020135 -0.0065349
0.012762 -0.005284 -0.035323 0.035167 -0.068134 0.28466 -0.0020067 0.003099
-0.0021636 -0.0045061 -0.0015508 0.00027595
-0.00023719 -0.0041669 -0.00087675 -0.0061955 -0.0019902 0.0031033 -0.20394 0.20182
-0.042914 -0.0072934 0.022785 0.01482
-0.0043804 -0.0028398 -0.011379 0.0082912 -0.0021967 -0.0045342 -0.042954 -0.007263
-0.15922 0.066645 -0.04376 0.0011806
-0.0057236 0.0026969 -0.0020226 -0.0066705 -0.0015018 0.00030496 0.022795 0.014718
-0.043833 0.0011582 -0.24844 0.092869
800000000 -0.1572 0.22781 -0.022357 0.016741 0.0053662 -0.010639 -0.0046349 -0.0020533
-0.0042302 0.0021966 0.0047065 0.00081192
-0.022357 0.016776 -0.33774 0.24684 -0.0077874 0.033782 -0.0022933 0.002113
-0.00055089 0.0030583 0.0010771 0.0053529
0.0053294 -0.010585 -0.0077085 0.033857 -0.027639 0.30783 0.0011185 0.0014672
0.00039195 0.0034668 -0.0015523 0.0009795
-0.0047093 -0.0020207 -0.0023291 0.0021295 0.0011326 0.0014662 -0.17517 0.22967
-0.028459 0.013649 0.013474 -0.010093
-0.004097 0.0023062 -0.00052248 0.0030645 0.0003842 0.0034594 -0.02845 0.013707
-0.20711 0.090334 -0.017594 0.019074
0.0046423 0.0008906 0.0011449 0.0052653 -0.001551 0.00096513 0.013452 -0.010121
-0.017614 0.019 -0.24361 0.14357
860000000 -0.12273 0.24798 -0.017283 0.030641 -0.003368 -0.0098972 -0.0024921 0.00092745
0.0039466 0.0048222 -0.0031789 -0.0028173
-0.017285 0.030576 -0.29029 0.28885 0.0077866 0.033957 -1.5889e-05 0.0020207
0.0043488 5.2724e-06 0.0032791 0.00067072
-0.0033456 -0.0098777 0.0078876 0.033985 0.020273 0.31565 -0.00051555 -0.00036327
0.0028552 -0.0015783 0.0013849 0.004445
-0.0025424 0.00094355 1.0088e-05 0.0019881 -0.00051786 -0.00037759 -0.13892 0.24062
-0.018028 0.018489 -0.0059834 -0.009324
0.0039856 0.004896 0.0043244 -0.00010734 0.0028587 -0.0015933 -0.018006 0.018528
-0.15599 0.14143 -0.025928 0.015057
-0.0031188 -0.0028463 0.0032154 0.00075822 0.0014243 0.0044626 -0.0060479 -0.0092662
-0.026084 0.015082 -0.19189 0.18988
920000000 -0.097978 0.27098 0.0051993 0.037727 -0.0094285 -0.0043271 -0.001838 0.002024
0.0011128 0.0019361 0.0028157 -0.0015536
0.0051767 0.037677 -0.26105 0.30993 0.02805 0.021933 0.0015689 0.0011516
0.0070641 -0.00055418 0.0039921 -0.0028463
-0.0094026 -0.0043209 0.028134 0.021823 0.066539 0.31633 0.0018946 -3.2904e-05
0.0012144 -0.00037126 0.00098613 -0.0011831
-0.0017894 0.0019769 0.0015541 0.0011506 0.0018889 -2.766e-05 -0.11496 0.2578
-0.010823 0.030533 0.0035683 -0.0066099
0.0011222 0.0018287 0.0070949 -0.00056183 0.0012002 -0.00036758 -0.010791 0.030574
-0.14644 0.14792 -0.0030882 0.027406
0.0027921 -0.0016148 0.0039127 -0.0027875 0.00094895 -0.001196 0.0034979 -0.0065515
-0.0031246 0.027482 -0.20029 0.20315
980000000 -0.050432 0.29014 0.017552 0.029793 -0.0089153 0.0046035 0.0021398 0.0035441
0.0039703 -0.0013139 -0.003042 -0.0021158
0.017517 0.029767 -0.20831 0.34352 0.032886 0.0047925 0.0021435 -3.7937e-05
0.0013874 -0.0058409 -0.00014349 -0.0023903
-0.0089253 0.0046129 0.032948 0.0046533 0.11271 0.30953 0.00046684 -0.0011504
0.00018029 -0.0020933 0.0015336 -0.00024806
0.0021362 0.0035244 0.0021221 -6.0038e-05 0.00045639 -0.001155 -0.076951 0.26905
0.007865 0.029557 -0.0092473 -0.0072309
0.0039375 -0.0012931 0.0013552 -0.0057855 0.00019295 -0.0020805 0.0079088 0.029544
-0.11529 0.17674 0.0046052 0.019099
-0.0030853 -0.0021584 -0.00019956 -0.0024141 0.0015172 -0.00027629 -0.009259 -0.0072341
0.0045978 0.01923 -0.1583 0.24803
1040000000 -0.0083786 0.29859 0.033117 0.017976 -0.0012173 0.0068097 0.0025212 0.00066451
2.64e-06 -0.0037858 -0.00039305 -0.0014461
0.033043 0.017943 -0.17277 0.35649 0.029204 -0.014733 0.0014663 -0.0017668
-0.002553 -0.0025617 -0.0013454 -0.0026757
-0.0011846 0.0068614 0.029183 -0.014877 0.15862 0.29586 -0.0005322 -0.0015187
-0.0016538 -0.00086423 -0.00046682 -0.0011402
0.0025694 0.00067697 0.0014416 -0.0017485 -0.00052474 -0.0015168 -0.049644 0.2793
0.01897 0.017945 -0.0023306 0.0015736
-3.8506e-05 -0.0037488 -0.0025844 -0.0025606 -0.0016694 -0.00088165 0.019023 0.01792
-0.083237 0.18512 0.013233 0.018502
-0.00039958 -0.0014122 -0.0013897 -0.0026804 -0.00047388 -0.0011377 -0.0022884 0.0016156
0.013265 0.018492 -0.13672 0.26859
1100000000 0.036966 0.30619 0.035602 -0.0043459 0.0028831 0.0038117 0.0024073 -0.0013587
-0.0020783 -0.003146 -0.0039271 -3.2099e-05
0.035561 -0.0043021 -0.12957 0.37355 0.014996 -0.027618 2.6434e-05 -0.0018463
-0.0033264 -0.00073766 -0.003381 -0.00059609
0.0028924 0.0037937 0.014912 -0.02773 0.20486 0.27554 -0.0018374 0.00025475
-0.0018012 0.00058974 -0.0010217 -0.00036764
0.0024008 -0.0013771 -3.8184e-06 -0.0018487 -0.0018432 0.0002565 -0.009299 0.28429
0.024218 0.0050375 -0.002539 0.00020152
-0.0020906 -0.003107 -0.0033461 -0.00069148 -0.0018048 0.00059179 0.024235 0.0049981
-0.065341 0.19922 0.018839 0.0087225
-0.0039767 3.1061e-05 -0.0034536 -0.00055169 -0.0010516 -0.00039093 -0.0025497 0.00019105
0.01885 0.0087443 -0.090825 0.2984
1160000000 0.088399 0.30104 0.023768 -0.020775 0.0026096 -0.00049858 -0.00025823 -0.0024249
-0.0042205 -0.00075886 -0.00095936 0.0041943
0.023754 -0.020748 -0.085924 0.37766 -0.0037144 -0.028832 -0.0017173 -0.0016962
-0.0026656 0.0025289 -0.0012646 0.0019331
0.002595 -0.00052134 -0.0038529 -0.028872 0.24776 0.24467 -0.00063967 0.0017208
-0.00051034 0.0019611 -0.0008394 0.00020889
-0.00025508 -0.0024052 -0.0017339 -0.0016838 -0.0006377 0.0017191 0.030011 0.28179
0.020631 -0.0101 -0.0029199 0.0052533
-0.0042379 -0.00075676 -0.0026472 0.0025586 -0.0005037 0.0019532 0.020613 -0.010128
-0.031998 0.20872 0.017934 0.00068433
-0.00093858 0.0042262 -0.0012613 0.0018862 -0.00084003 0.00020241 -0.0029005 0.0052157
0.017914 0.00061355 -0.044027 0.30115
1220000000 0.13273 0.28961 0.010168 -0.029868 -0.0015722 -0.00079894 -3.6842e-05 -0.00095657
-0.0026558 0.0024902 0.0013877 0.0020257
0.01017 -0.029864 -0.041771 0.38962 -0.016736 -0.020955 -0.0025433 0.00042226
4.538e-05 0.0029154 -0.00071562 0.0017974
-0.0015865 -0.00079987 -0.016842 -0.020907 0.28693 0.20582 0.00081361 0.0015583
0.00059427 0.001178 0.00030176 0.00067419
-2.6673e-05 -0.00095827 -0.0025443 0.00043973 0.00082187 0.0015583 0.069809 0.27341
0.010188 -0.016617 0.0022104 0.0015065
-0.0026615 0.0025125 7.776e-05 0.0029265 0.00060461 0.0011605 0.010169 -0.016633
-0.0093518 0.21824 0.014127 -0.012445
0.0014425 0.002062 -0.00071475 0.0018179 0.0002958 0.00068131 0.0022169 0.0015083
0.014149 -0.01247 -0.012811 0.31809
1280000000 0.18221 0.2674 -0.0080258 -0.02819 -0.0018713 0.002485 -0.00092625 -0.002015
-0.00076153 0.0030892 0.0025261 0.0011266
-0.0079902 -0.028175 0.0040247 0.38061 -0.023509 -0.0084536 -0.00095238 0.0014935
0.0016825 0.0018029 0.00061693 0.0020793
-0.0018774 0.0024917 -0.023585 -0.0083598 0.31745 0.16196 0.0015533 -6.2275e-05
0.0010884 0.00030943 0.00049464 0.00034078
-0.00093048 -0.0020071 -0.00095494 0.0015065 0.001547 -6.009e-05 0.10672 0.25735
0.00099558 -0.01848 0.00011023 5.0775e-05
-0.00074593 0.003064 0.0016986 0.0017873 0.0010659 0.00029906 0.00096302 -0.018485
0.027211 0.2223 0.0032753 -0.01457
0.0025421 0.0010962 0.00064306 0.0020634 0.00051921 0.00035045 8.6075e-05 6.2696e-05
0.0032347 -0.014576 0.035319 0.32042
1340000000 0.21912 0.23341 -0.017562 -0.018667 0.00094241 0.0044661 -0.0018015 -0.00075086
0.0014946 0.0027464 0.0017263 -0.001396
-0.017538 -0.018657 0.043377 0.37241 -0.021439 0.0041808 -0.00013035 0.0019948
0.0018698 0.00077327 0.001302 0.00086071
0.00097123 0.0044755 -0.02143 0.0042889 0.33957 0.11402 0.0010803 -0.00089775
0.00071502 -0.00044046 0.00023778 0.0002896
-0.0017972 -0.00074781 -0.00010892 0.0020172 0.0010805 -0.00090257 0.13941 0.23721
-0.0080672 -0.015834 0.00097359 0.00033377
0.0015171 0.0027246 0.0019038 0.00078872 0.00071321 -0.00043997 -0.0081065 -0.015817
0.057335 0.2183 -0.0032698 -0.013248
0.0017115 -0.0014246 0.0013276 0.00081313 0.00023297 0.00029014 0.00096532 0.0003483
-0.0032816 -0.013216 0.07326 0.31611
1400000000 0.25185 0.19511 -0.023176 -0.0072542 0.0051269 0.0030494 -0.0020527 0.00070435
0.0024125 0.00087422 0.00033163 -0.0013486
-0.023146 -0.0072717 0.080582 0.35946 -0.014811 0.01222 0.0013299 0.0013278
0.0010949 -0.00077599 0.0012592 0.00022463
0.0051321 0.0030285 -0.014769 0.012304 0.35283 0.06046 0.00015945 -0.0015972
-9.2538e-06 -0.00040283 0.00046816 0.00020865
-0.0020467 0.00070064 0.0013326 0.0013153 0.00016864 -0.0015938 0.1692 0.20865
-0.013657 -0.0094476 -0.00075643 -0.00063055
0.0024219 0.00087636 0.0010957 -0.00077838 -9.6439e-06 -0.00039152 -0.013692 -0.0094211
0.090357 0.21438 -0.0095898 -0.0087889
0.00030233 -0.0013763 0.0012659 0.000213 0.00046091 0.00021315 -0.00077873 -0.00062281
-0.0096016 -0.0087482 0.11853 0.30516
1460000000 0.2743 0.15094 -0.020142 0.0047373 0.0055412 -0.0018148 -0.0015277 0.0017367
0.0020919 -0.00058035 -0.00039206 -0.00097078
-0.020124 0.0047124 0.11478 0.33771 -0.0062454 0.01519 0.0017657 0.00018288
0.00089328 -0.0012333 0.0011547 -0.00058943
0.0055323 -0.0018459 -0.0061737 0.015243 0.35875 0.0059041 -0.0011331 -0.0012469
0.00020351 -0.00029396 0.00055717 -0.00031511
-0.0015332 0.0017447 0.0017727 0.00017642 -0.0011311 -0.0012438 0.19576 0.17964
-0.014913 -0.0030608 -0.00099436 0.0018299
0.0020957 -0.00058781 0.00088368 -0.0012282 0.0002 -0.00029466 -0.014931 -0.003018
0.11969 0.20023 -0.011489 -0.003011
-0.00038149 -0.00095043 0.001156 -0.00060467 0.00054346 -0.00030612 -0.00097595 0.0018589
-0.011458 -0.0029686 0.15183 0.28468
1520000000 0.28621 0.10925 -0.014522 0.010198 0.0032514 -0.0041844 0.00011671 0.0025854
0.0020098 -0.0017325 -0.0011177 -9.7076e-05
-0.014518 0.010179 0.14841 0.32291 0.0014124 0.013045 0.0016387 -0.00080309
4.902e-05 -0.0010034 0.00037163 -0.0010592
0.0032399 -0.0042134 0.0014829 0.013051 0.35199 -0.050311 -0.0010709 -0.00034248
0.00067655 -0.00083169 3.6036e-05 -0.00014712
0.00013657 0.0025841 0.0016312 -0.00081354 -0.0010672 -0.00036463 0.21936 0.14184
-0.014399 0.0023394 0.00125 0.0020544
0.0019927 -0.0017577 4.0336e-05 -0.0010041 0.00066727 -0.00083639 -0.014406 0.0023752
0.14778 0.18653 -0.011497 0.0013692
-0.0010927 -9.4952e-05 0.00034594 -0.0010598 2.1496e-05 -0.00014012 0.0012831 0.0020651
-0.011471 0.0013813 0.18532 0.26432
1580000000 0.29531 0.063144 -0.0079815 0.013206 -0.0009282 -0.004899 0.0013832 0.0018472
-0.00036068 -0.0020726 -0.00036042 0.00038985
-0.0079856 0.013204 0.17578 0.29807 0.0050596 0.0083121 0.00043777 -0.0016093
-0.00054635 -0.0010554 -0.00025857 -0.00082474
-0.00094091 -0.0048863 0.0051206 0.008294 0.33143 -0.10787 -0.0015992 0.00058554
-0.00035966 -0.0011499 9.7956e-05 -0.00043739
0.0013881 0.0018245 0.00043416 -0.0016097 -0.0015962 0.00059118 0.23375 0.10252
-0.011175 0.0071644 0.0022113 0.00092206
-0.00039221 -0.0020668 -0.00055904 -0.00105 -0.00035743 -0.0011507 -0.011161 0.007207
0.17243 0.169 -0.0091923 0.0071434
-0.00035604 0.00040821 -0.00027217 -0.00082531 8.9282e-05 -0.00042901 0.0022368 0.00090843
-0.0091577 0.0071221 0.21797 0.23753
1640000000 0.29714 0.021973 -0.0013757 0.012169 -0.0027336 -0.0025461 0.0026738 0.00097958
-0.00066481 -0.0014366 -0.00017674 0.00054128
-0.0013782 0.012151 0.20531 0.27293 0.0058772 0.0035664 -0.00069 -0.0017133
-0.001015 -0.00042354 -0.00048347 -0.0007035
-0.0027483 -0.0025494 0.0059028 0.0035388 0.30333 -0.15715 -0.00074133 0.0014075
-0.0010912 -0.0010592 -9.4706e-05 -0.00045797
0.0026858 0.00097834 -0.00070188 -0.0017095 -0.00073549 0.0013963 0.2465 0.05336
-0.0070278 0.0084377 0.0024583 -0.00067646
-0.00067281 -0.0014414 -0.0010088 -0.00042173 -0.0010834 -0.0010551 -0.0070065 0.0084623
0.19537 0.14472 -0.0047283 0.0090662
-0.00017093 0.00056215 -0.00047626 -0.00070816 -0.0001036 -0.00046022 0.0024891 -0.00072451
-0.0047077 0.0090587 0.24349 0.20636
1700000000 0.28965 -0.023389 0.0019812 0.009355 -0.0034178 0.00014294 0.0029774 -0.0011829
-0.0019682 -0.00070618 0.00065748 0.00041234
0.0019843 0.0093567 0.22341 0.24119 0.0038864 0.00072707 -0.0014989 -0.00052788
-0.00081552 4.7402e-05 -0.00092111 -0.0004386
-0.0034218 0.00016909 0.0038902 0.00071423 0.25941 -0.19704 0.00037752 0.00174
-0.0019581 -0.00014007 -0.00048532 -0.00082277
0.0029922 -0.001195 -0.001495 -0.00052581 0.0003804 0.0017428 0.24347 0.0033465
-0.0044299 0.0090913 0.0014926 -0.0021738
-0.0019743 -0.0006987 -0.00080636 6.5343e-05 -0.0019637 -0.00013612 -0.0044046 0.0091055
0.21291 0.12469 -5.7286e-05 0.0094066
0.00067734 0.00040942 -0.00092961 -0.00042218 -0.00050447 -0.00084398 0.001502 -0.0021933
-4.7506e-05 0.0093835 0.25991 0.17177
1760000000 0.27725 -0.071764 0.0042409 0.0061585 -0.0022175 0.00092756 0.0013568 -0.0033546
-0.0012672 0.00070063 0.00042182 -0.0006196
0.0042371 0.0061442 0.24923 0.20107 0.001712 -0.0010598 -0.001164 0.0002345
-0.0010247 0.00091265 -0.00059795 0.0004291
-0.0022176 0.0009198 0.0017199 -0.0010621 0.21054 -0.22998 0.00124 0.0011258
-0.0011461 0.0014906 -0.0013965 -0.00044733
0.0013165 -0.0033651 -0.001159 0.00023952 0.0012403 0.0011256 0.23419 -0.048436
-0.0011321 0.0083405 -0.0002199 -0.0024924
-0.0012567 0.00069649 -0.00102 0.00092755 -0.0011423 0.0014932 -0.001106 0.0083543
0.22804 0.08956 0.0038232 0.0068913
0.00042332 -0.00062195 -0.00060206 0.00043973 -0.0013718 -0.00047391 -0.00021522 -0.0025078
0.0038204 0.0068788 0.27254 0.13405
1820000000 0.25248 -0.10897 0.0044295 0.0026701 -0.00011299 0.002373 -0.00094936 -0.0030479
-0.0010381 0.00086707 -6.0769e-05 -0.00013391
0.0044208 0.0026608 0.25896 0.17082 -0.00019184 -0.00011523 -0.0012716 0.00094259
-4.2634e-05 0.0013502 -0.0004869 0.00053608
-0.00010613 0.0023793 -0.00019531 -0.00012734 0.16044 -0.24569 0.0014751 0.00045283
-0.00021647 0.002266 -0.0012391 0.00041451
-0.00096733 -0.003034 -0.0012737 0.00094729 0.0014852 0.00046546 0.20397 -0.095622
0.00026628 0.0066741 -0.0015875 -0.0015191
-0.001048 0.00087311 -3.7203e-05 0.0013426 -0.00021933 0.0022722 0.00028495 0.0066772
0.24527 0.060405 0.0047356 0.0034867
-7.7925e-05 -0.00014048 -0.00047731 0.00054445 -0.001243 0.00044664 -0.0015869 -0.001523
0.0047365 0.0034801 0.27487 0.097965
1880000000 0.21722 -0.14917 0.0022738 0.00040367 -0.00038127 0.0020735 -0.0029253 -0.0021562
-0.00024946 0.0016594 0.00024256 -0.00047541
0.0022789 0.00041884 0.26308 0.12415 -0.0022871 0.001642 -0.00014112 0.0016924
0.00061131 0.0012274 0.00011586 0.00091044
-0.00039231 0.0020582 -0.0022781 0.0016511 0.10815 -0.25506 0.0018735 -0.0010005
0.0015753 0.0019481 -0.00090651 0.0012136
-0.0029519 -0.0021326 -0.00012573 0.0016963 0.0018628 -0.0009964 0.16312 -0.13569
0.00095982 0.0047871 -0.002492 0.00047423
-0.00022695 0.0016556 0.00062578 0.0012284 0.001576 0.0019345 0.00096513 0.0047847
0.2482 0.027715 0.0047852 0.0012866
0.00022392 -0.00049134 0.00015774 0.00089171 -0.00088135 0.0012254 -0.0024781 0.000515
0.0047392 0.0012955 0.27448 0.063748
1940000000 0.17762 -0.17491 0.00013523 -0.0012859 0.0013077 0.0019758 -0.0038325 0.00047312
0.0012267 0.00092978 -0.00068423 -0.00052773
0.00014416 -0.001283 0.26327 0.092362 -0.0011512 0.0038553 0.0010026 0.0012779
0.0018807 0.00041391 0.00080389 0.0002754
0.0013662 0.0019697 -0.0011232 0.0038653 0.062191 -0.24832 0.00035276 -0.002261
0.0024165 0.00039759 0.00022916 0.0014811
-0.003815 0.00050939 0.001015 0.00127 0.00036693 -0.0022719 0.11068 -0.1657
-3.9365e-05 0.0036114 -0.0013999 0.0015516
0.0012322 0.00092006 0.0018896 0.00040109 0.0024396 0.0003727 -2.9138e-05 0.0036161
0.24993 -0.011287 0.0036706 -0.0019788
-0.00068129 -0.00046835 0.00080789 0.00026851 0.0002202 0.0014639 -0.001399 0.0015362
0.003657 -0.0019402 0.26346 0.027917
2000000000 0.13106 -0.18926 -0.0037219 0.00068154 0.0024808 0.0016704 -0.002317 0.0035012
0.0010796 0.00017496 -0.00071058 0.00038054
-0.0037245 0.0006795 0.24873 0.057 -0.00096769 0.0057022 0.0016072 0.00034008
0.0013705 -0.0014524 0.00050409 0.00011679
0.0024663 0.0016536 -0.00092744 0.0057309 0.018854 -0.23375 -0.0013737 -0.0013513
0.0019999 -0.0011892 0.001534 0.0012885
-0.0022834 0.0035168 0.0016195 0.00032272 -0.0013834 -0.001354 0.057232 -0.17528
-0.0016837 0.0035251 3.971e-05 0.0022476
0.0010642 0.00017592 0.0013654 -0.0014662 0.0019822 -0.0012199 -0.001698 0.0035347
