!Keysight Technologies,M9804A,MY58100912,A.14.10.03
!Date: Thursday, April 27, 2023 10:28:33
!Correction: S11(C  6-Port  ) 
!S12(C  6-Port  ) 
!S13(C  6-Port  ) 
!S14(C  6-Port  ) 
!S15(C  6-Port  ) 
!S16(C  6-Port  ) 
!S21(C  6-Port  ) 
!S22(C  6-Port  ) 
!S23(C  6-Port  ) 
!S24(C  6-Port  ) 
!S25(C  6-Port  ) 
!S26(C  6-Port  ) 
!S31(C  6-Port  ) 
!S32(C  6-Port  ) 
!S33(C  6-Port  ) 
!S34(C  6-Port  ) 
!S35(C  6-Port  ) 
!S36(C  6-Port  ) 
!S41(C  6-Port  ) 
!S42(C  6-Port  ) 
!S43(C  6-Port  ) 
!S44(C  6-Port  ) 
!S45(C  6-Port  ) 
!S46(C  6-Port  ) 
!S51(C  6-Port  ) 
!S52(C  6-Port  ) 
!S53(C  6-Port  ) 
!S54(C  6-Port  ) 
!S55(C  6-Port  ) 
!S56(C  6-Port  ) 
!S61(C  6-Port  ) 
!S62(C  6-Port  ) 
!S63(C  6-Port  ) 
!S64(C  6-Port  ) 
!S65(C  6-Port  ) 
!S66(C  6-Port  ) 
!S6P File: Measurement: :
# Hz S  RI   R 50
500000000 -0.33562 -0.059111 -0.011114 -0.0012916 -0.0092689 0.013912 -0.0048678 0.012334
0.0137 0.0051893 -0.0046325 0.0085319
-0.011103 -0.001297 -0.41673 -0.068012 0.0072399 -0.010272 0.0011335 0.012577
0.0074243 0.0031078 0.00078535 0.014477
-0.0092516 0.013938 0.0072272 -0.010292 -0.27032 0.19703 0.0063546 0.0039572
-0.0027613 0.0091682 -0.0003865 0.012298
-0.0048512 0.012299 0.0011685 0.012563 0.006348 0.0039373 -0.33246 0.04202
-0.020416 -0.0050701 0.016765 0.027141
0.013751 0.0051456 0.007447 0.0030832 -0.0027436 0.0091704 -0.020398 -0.0050627
-0.24373 -0.20449 -0.027923 0.00391
-0.0046082 0.0085086 0.00084463 0.014475 -0.00037501 0.012298 0.016769 0.027109
-0.027936 0.0038953 -0.26987 -0.12677
560000000 -0.32079 0.10869 -0.023672 -0.065409 -8.1972e-05 0.013763 0.0050457 0.011542
0.0099237 0.0053099 0.010337 0.0085441
-0.023656 -0.06531 -0.37518 0.097864 -0.042671 -0.037772 0.014301 0.003936
-0.012945 -0.0044754 0.0049201 -0.00075422
-5.2327e-05 0.013744 -0.042801 -0.037713 -0.18705 0.24973 -1.1633e-06 -0.004294
0.018723 0.0059392 0.0074746 -0.005342
0.0051172 0.011568 0.014307 0.003903 1.4006e-05 -0.0042959 -0.3077 0.1355
0.0053649 -0.023776 0.0052002 -0.020856
0.0099261 0.0052773 -0.012978 -0.0044688 0.018731 0.0059345 0.0053459 -0.023765
-0.31319 -0.023489 0.0084766 -0.049231
0.010334 0.0084945 0.0049061 -0.0007413 0.0074612 -0.0053426 0.0051862 -0.02086
0.0084766 -0.049233 -0.33262 0.019068
620000000 -0.27942 0.088783 -0.023477 0.0095353 0.0046309 0.009778 0.0076177 -0.0040468
0.012946 -0.00059025 -0.00022719 -0.0016124
-0.023458 0.0095224 -0.40449 0.045649 -0.017833 0.0015136 -0.0016171 -0.0017754
0.013224 -0.0059941 0.00070491 -0.0030601
0.004656 0.0097434 -0.017845 0.0015563 -0.15588 0.25993 -0.00025514 -0.0048232
-0.0032584 -0.0035598 0.0098317 -0.002319
0.0076252 -0.0040765 -0.0016485 -0.0017812 -0.00026149 -0.004847 -0.26508 0.14519
-0.040379 -0.019729 0.014455 0.0286
0.012942 -0.00060876 0.01323 -0.0060367 -0.0032594 -0.0035457 -0.040367 -0.019717
-0.22883 -0.056204 -0.043769 0.011129
-0.00020203 -0.0016532 0.00069527 -0.0030641 0.0098296 -0.0023074 0.014497 0.028611
-0.043787 0.011121 -0.25136 -0.013025
680000000 -0.24187 0.18187 -0.026133 -0.014259 0.0054167 0.0051716 0.001617 -0.0071534
-0.0008394 -0.011937 0.0059129 -0.0073665
-0.02609 -0.014257 -0.39106 0.14845 -0.031778 -0.0021017 -0.0012848 -0.00050672
-0.0011895 -0.0095198 -0.00047596 -0.0019226
0.0054162 0.0051517 -0.031819 -0.0020186 -0.10389 0.28096 -0.00073673 -0.00068744
-0.001402 -0.00011068 -0.0020629 -0.0089595
0.00158 -0.0071401 -0.0012549 -0.00049273 -0.00072354 -0.00067256 -0.22057 0.1982
-0.023196 -0.0072086 -0.0091914 -0.010454
-0.00087327 -0.011955 -0.0012183 -0.0095349 -0.0013985 -0.00012494 -0.023231 -0.0072036
-0.28362 0.048518 -0.0063001 -0.0068327
0.0058965 -0.0073776 -0.00046096 -0.0019092 -0.0020638 -0.008961 -0.0092109 -0.01051
-0.0062755 -0.0068052 -0.26038 0.091022
740000000 -0.19377 0.17634 -0.039646 0.027591 0.014677 -0.0048573 -7.6151e-05 -0.0040583
-0.0036376 -0.0027913 -0.006704 0.0022064
-0.039625 0.027537 -0.33459 0.16672 -0.036969 0.034915 -6.4041e-06 -0.0066456
-0.012826 0.0078392 -0.0012718 -0.0065512
0.014659 -0.0048905 -0.036937 0.035072 -0.069208 0.27631 -0.0018905 0.003285
-0.002828 -0.0063293 -0.0012636 0.00092248
-0.00010792 -0.0040557 -1.0404e-05 -0.0066479 -0.0019266 0.0032886 -0.20364 0.2042
-0.042339 -0.0079811 0.022816 0.016156
-0.0036405 -0.0028067 -0.012786 0.0078729 -0.0028178 -0.0063235 -0.042358 -0.0079919
-0.18222 0.078793 -0.041642 0.00066132
-0.0066885 0.0022178 -0.0012732 -0.0065446 -0.0012575 0.00092087 0.02288 0.016179
-0.041699 0.00064805 -0.25024 0.099713
800000000 -0.16303 0.22001 -0.021743 0.016489 0.0060364 -0.010709 -0.0043307 -0.0023837
-0.0048974 0.0022352 0.0042692 0.0008759
-0.021751 0.016461 -0.34178 0.23742 -0.0083084 0.033861 -0.0024226 0.00208
-0.0014551 0.0022504 0.00079424 0.005788
0.0060273 -0.010734 -0.0082164 0.033905 -0.031162 0.30038 0.00062681 0.0015997
-0.00012132 0.0034962 -0.0016044 0.00093703
-0.0043196 -0.0023683 -0.0024073 0.0021042 0.00062461 0.0015822 -0.17406 0.23193
-0.02749 0.01344 0.014014 -0.010249
-0.0049199 0.0022508 -0.0014484 0.0022643 -0.00012186 0.0035092 -0.02751 0.013491
-0.22533 0.10565 -0.015725 0.020957
0.0042823 0.00084561 0.0008129 0.0058006 -0.0015929 0.0009319 0.013949 -0.010298
-0.015736 0.020956 -0.24297 0.14771
860000000 -0.12741 0.23961 -0.017111 0.02998 -0.0026237 -0.010432 -0.0016968 0.00027732
0.0035825 0.0053055 -0.0040581 -0.0024957
-0.017101 0.029964 -0.29267 0.27987 0.0073903 0.034381 6.2533e-06 0.0020915
0.0031431 0.0008703 0.0030908 0.00044121
-0.0026462 -0.010427 0.0074994 0.034376 0.015822 0.30873 -0.00062714 9.1027e-05
0.0022203 -0.001672 0.001784 0.0042321
-0.0016992 0.00029534 -3.7644e-06 0.0020875 -0.00063289 0.00010313 -0.13668 0.24218
-0.017589 0.017814 -0.0060639 -0.0090586
0.0036063 0.0052902 0.0031551 0.00085552 0.0022216 -0.0016753 -0.017563 0.017873
-0.1678 0.15794 -0.023607 0.017948
-0.0040685 -0.0024838 0.003098 0.00043722 0.0017865 0.0042315 -0.0059922 -0.0090637
-0.023612 0.017912 -0.19148 0.19163
920000000 -0.10444 0.26175 0.005018 0.037845 -0.0092723 -0.0055594 -0.0021728 0.0014315
0.00083384 0.0021214 0.0028872 -0.0011527
0.0050158 0.037819 -0.26651 0.30069 0.028148 0.022769 0.0012608 0.0014047
0.0079169 0.00028773 0.0046862 -0.0027481
-0.009278 -0.0055329 0.028252 0.0227 0.060416 0.31018 0.0020287 0.00011899
0.0010462 -5.6772e-05 0.0010941 -0.0014555
-0.0021693 0.0014248 0.0012768 0.0014144 0.0020321 0.00012148 -0.11279 0.25829
-0.010797 0.030353 0.0044876 -0.0068846
0.00083279 0.0021147 0.007908 0.00026222 0.0010302 -6.0755e-05 -0.010736 0.030423
-0.15592 0.16264 -0.0014718 0.026863
0.0029049 -0.0011669 0.0046665 -0.0027733 0.0011003 -0.0014569 0.0044614 -0.006868
-0.0014868 0.026844 -0.19751 0.20517
980000000 -0.058463 0.28223 0.016565 0.029458 -0.0097033 0.0038188 0.0016435 0.0035213
0.0040232 -0.0014306 -0.0029942 -0.0022538
0.016532 0.029454 -0.21389 0.33602 0.033395 0.0056113 0.0021831 -0.0001637
0.0022573 -0.0062069 -8.5316e-05 -0.0025783
-0.0096927 0.00386 0.033454 0.0054879 0.10609 0.30542 0.00088381 -0.0011894
0.0007072 -0.0019396 0.0012949 -0.00014411
0.0016581 0.0035142 0.0021713 -0.00016006 0.00089003 -0.0011934 -0.074335 0.26884
0.007663 0.029248 -0.0093101 -0.0073445
0.0040181 -0.0014567 0.0022064 -0.0062325 0.00069643 -0.0019458 0.0077145 0.029238
-0.12202 0.19245 0.0055987 0.019047
-0.0030105 -0.0022456 -0.00011471 -0.0025916 0.0013041 -0.00014479 -0.009318 -0.0073327
0.0055757 0.019029 -0.1576 0.24987
1040000000 -0.017775 0.29115 0.03259 0.018877 -0.0020093 0.0068707 0.00239 0.00092931
0.0001651 -0.0034415 -0.00038355 -0.0016921
0.032566 0.018892 -0.17921 0.34938 0.030221 -0.014541 0.0017818 -0.001812
-0.0021917 -0.0028056 -0.0013388 -0.0030105
-0.0019798 0.0068888 0.030179 -0.014678 0.15208 0.29255 -0.00031644 -0.0017373
-0.0016809 -0.00098961 -0.0007276 -0.0010401
0.0023981 0.00091486 0.0017732 -0.0017979 -0.00031256 -0.0017425 -0.047704 0.27822
0.019087 0.018615 -0.0025494 0.00083957
0.00014789 -0.0034618 -0.002232 -0.0027742 -0.0016856 -0.0010048 0.019126 0.018602
-0.089083 0.19934 0.014344 0.017814
-0.00037629 -0.0016864 -0.0013654 -0.0030006 -0.00072698 -0.0010417 -0.0025527 0.00084101
0.014323 0.017813 -0.13418 0.27015
1100000000 0.02657 0.301 0.036264 -0.0034243 0.0024655 0.0042356 0.0024508 -0.00076538
-0.0019517 -0.0029571 -0.004087 -0.00018765
0.03624 -0.0034027 -0.13691 0.36823 0.016164 -0.028165 0.00020033 -0.001887
-0.0037412 -0.0010695 -0.0035445 -0.00060069
0.0024806 0.0042355 0.01607 -0.028263 0.19825 0.27385 -0.0020402 1.4847e-05
-0.0019461 0.00036489 -0.0013434 -0.00018661
0.0024451 -0.00077496 0.00018668 -0.0018873 -0.0020418 1.2583e-05 -0.0083844 0.28359
0.024736 0.0053019 -0.0028672 -0.0001087
-0.0019659 -0.0029554 -0.0037665 -0.0010502 -0.0019453 0.0003666 0.024753 0.0052684
-0.069622 0.21276 0.02007 0.0085767
-0.0040831 -0.00015359 -0.0035581 -0.00058153 -0.0013486 -0.00018063 -0.0028705 -0.00010728
0.020057 0.0085676 -0.088704 0.29922
1160000000 0.077457 0.29747 0.024368 -0.020696 0.0024524 -0.00027587 0.00016717 -0.0021722
-0.0040734 -0.00091738 -0.0011562 0.0043283
0.024385 -0.020654 -0.093772 0.37347 -0.0033223 -0.029887 -0.0015655 -0.0017741
-0.0031859 0.0027312 -0.00149 0.0020065
0.0024537 -0.00027305 -0.00347 -0.029918 0.24214 0.24383 -0.00097015 0.001775
-0.00059372 0.0022106 -0.00085552 0.00037334
0.00017344 -0.0021794 -0.0015773 -0.0017626 -0.00097388 0.0017663 0.030454 0.28163
0.021262 -0.010371 -0.0035638 0.005053
-0.0040894 -0.00090794 -0.0031964 0.0027602 -0.00059488 0.0022027 0.02125 -0.010403
-0.03492 0.21981 0.019069 -0.00075629
-0.0011343 0.0043516 -0.0014875 0.0020177 -0.00085877 0.000381 -0.0035502 0.0050534
0.019076 -0.00074442 -0.041412 0.30254
1220000000 0.12096 0.28828 0.010888 -0.0303 -0.0017919 -0.0006641 0.00031467 -0.00091553
-0.0028207 0.002093 0.00095883 0.0022202
0.010897 -0.030257 -0.049821 0.38729 -0.017222 -0.022294 -0.0027905 0.0003928
-0.00012168 0.0034184 -0.00089878 0.0020392
-0.0017933 -0.00065494 -0.017339 -0.022248 0.28117 0.20496 0.00069594 0.0019781
0.00066387 0.001408 0.00052363 0.00062509
0.00032244 -0.00092064 -0.0027913 0.00040588 0.00070363 0.0019683 0.070346 0.27375
0.010935 -0.017322 0.0017941 0.0014467
-0.0028072 0.0021047 -0.00011325 0.00342 0.00066381 0.0014043 0.010903 -0.017336
-0.012115 0.22814 0.014108 -0.01376
0.00096167 0.0022188 -0.00088612 0.0020424 0.00053026 0.00062023 0.0017877 0.0014426
0.014101 -0.013754 -0.010077 0.31746
1280000000 0.17151 0.26902 -0.0080507 -0.02889 -0.0020573 0.0029254 -0.00070043 -0.002352
-0.00092509 0.0032665 0.0026888 0.0015101
-0.0080208 -0.028865 -0.0033746 0.3802 -0.024783 -0.0091393 -0.0011373 0.0015324
0.0020035 0.0020567 0.00071872 0.0021415
-0.0020455 0.002935 -0.024871 -0.0090364 0.31178 0.16183 0.0017733 0.00017097
0.0013975 0.00021688 0.00046475 0.00011825
-0.00071262 -0.0023442 -0.0011358 0.0015373 0.0017735 0.0001827 0.10753 0.25858
0.00090325 -0.019788 -0.0002985 0.00053258
-0.00090894 0.0032777 0.0020153 0.0020419 0.0013982 0.00022666 0.00086324 -0.019791
0.023485 0.23226 0.002993 -0.015988
0.0026926 0.0014871 0.00073614 0.0021364 0.00046567 0.00012096 -0.00029077 0.000536
0.0029899 -0.015984 0.037002 0.31989
1340000000 0.20914 0.23643 -0.017971 -0.019017 0.00097527 0.005177 -0.001932 -0.0010994
0.0013694 0.0028989 0.0021184 -0.0013595
-0.017941 -0.019002 0.036985 0.37281 -0.022503 0.0043337 -0.00014577 0.0022251
0.0023162 0.00072746 0.0012891 0.00085003
0.00098677 0.005176 -0.02252 0.0044486 0.334 0.11449 0.0012841 -0.0010817
0.00080913 -0.00077094 -8.095e-06 5.5555e-05
-0.0019327 -0.001082 -0.00013722 0.0022266 0.0012871 -0.001079 0.14135 0.23823
-0.0087857 -0.017082 0.00051978 0.0008404
0.001388 0.0028842 0.0023283 0.00071174 0.00080298 -0.00077025 -0.008815 -0.01706
0.052979 0.22805 -0.0045126 -0.014711
0.0021109 -0.0013793 0.001297 0.00084135 -6.216e-06 5.4628e-05 0.00051964 0.00083946
-0.0044986 -0.014708 0.075063 0.31449
1400000000 0.24357 0.20021 -0.023788 -0.0070922 0.0058278 0.0036511 -0.0024752 0.00061096
0.0024917 0.001192 0.00047453 -0.0017418
-0.023754 -0.0071092 0.07493 0.36085 -0.015647 0.013131 0.0015324 0.0013805
0.0014037 -0.0010436 0.0012936 0.00010001
0.0058437 0.0036273 -0.015605 0.013225 0.34681 0.062086 0.00014116 -0.0018694
9.8055e-05 -0.00044911 0.00034344 0.00019731
-0.0024743 0.00061912 0.001549 0.0013757 0.00014209 -0.0018713 0.1712 0.2095
-0.015152 -0.010082 -0.00084893 0.00024834
0.0024979 0.0011795 0.0014042 -0.0010463 0.00010011 -0.000451 -0.015176 -0.01005
0.085606 0.22461 -0.011234 -0.0091906
0.00046554 -0.0017403 0.0012892 9.3175e-05 0.00034392 0.00019456 -0.00084668 0.00025738
-0.011227 -0.0091979 0.11904 0.30394
1460000000 0.268 0.15694 -0.020366 0.0053928 0.0064446 -0.0018021 -0.0016515 0.0019409
0.0024199 -0.00030036 -0.00030085 -0.001225
-0.020349 0.0053769 0.11045 0.33915 -0.0061037 0.016431 0.0018228 0.00011994
0.00084115 -0.0015443 0.0012512 -0.00058528
0.0064373 -0.0018314 -0.0060274 0.016482 0.354 0.0088192 -0.0013597 -0.0014322
0.00010955 -0.0001877 0.00065922 -0.00034182
-0.0016409 0.00194 0.0018283 0.00012041 -0.001369 -0.0014301 0.19874 0.18005
-0.01637 -0.0028972 -0.00065213 0.0022849
0.0024186 -0.00031088 0.00082745 -0.0015595 0.00011096 -0.00018414 -0.016379 -0.0028584
0.11549 0.21189 -0.013005 -0.0028878
-0.0003088 -0.0012196 0.0012487 -0.00059412 0.00065385 -0.00034662 -0.00064202 0.0022867
-0.012996 -0.0028909 0.15255 0.28375
1520000000 0.2815 0.11503 -0.014383 0.010699 0.0039363 -0.0048036 0.00013973 0.0027574
0.0023627 -0.0020203 -0.0013991 -0.00019912
-0.014386 0.010683 0.1444 0.32439 0.0021632 0.013842 0.0016884 -0.00087416
-0.00012015 -0.0011141 0.00036699 -0.0010597
0.0039091 -0.0048295 0.0022402 0.013846 0.34785 -0.047085 -0.0012231 -0.00032149
0.00076083 -0.00084759 0.00013134 -0.00017204
0.00015228 0.0027643 0.0016932 -0.00089133 -0.00122 -0.00033467 0.22227 0.14119
-0.015506 0.0033537 0.0018499 0.0023608
0.0023537 -0.0020415 -0.00012874 -0.0011121 0.00076105 -0.00085286 -0.0155 0.0033883
0.14388 0.19902 -0.012698 0.002231
-0.0014053 -0.00019189 0.0003559 -0.0010653 0.00012919 -0.00017274 0.0018523 0.0023595
-0.012704 0.0022246 0.18512 0.26318
1580000000 0.29234 0.068954 -0.0074631 0.013675 -0.00087653 -0.0056505 0.0016699 0.0019294
1.3956e-05 -0.0024474 -0.00035514 0.0003642
-0.0074651 0.013656 0.1721 0.29988 0.0060355 0.0084492 0.0004121 -0.0016434
-0.00063017 -0.00093981 -0.00018169 -0.00092763
-0.00090286 -0.0056466 0.0060816 0.0084223 0.32888 -0.10441 -0.001639 0.00073319
-0.00034215 -0.0012642 0.00017956 -0.00062243
0.0016693 0.0019177 0.0003992 -0.0016401 -0.0016405 0.00073485 0.23632 0.10158
-0.011619 0.0085155 0.0026989 0.00070892
-6.7407e-06 -0.002444 -0.0006312 -0.00093564 -0.00034981 -0.0012601 -0.011612 0.0085506
0.16906 0.18249 -0.0098295 0.0082067
-0.00035226 0.00036045 -0.00019025 -0.00093332 0.00017761 -0.00062684 0.0027128 0.00069402
-0.0098299 0.008208 0.21698 0.2375
1640000000 0.29525 0.02683 -0.00071656 0.012052 -0.0031989 -0.0030929 0.0027922 0.00099962
-0.00094554 -0.0018099 -0.00026772 0.00075406
-0.00072803 0.012041 0.20221 0.27474 0.0066633 0.0031584 -0.00066883 -0.0017679
-0.00094627 -0.00034454 -0.0005415 -0.00074381
-0.0032194 -0.0030853 0.0066852 0.0031168 0.30116 -0.15401 -0.00062774 0.0015712
-0.001247 -0.0010486 -0.00023022 -0.00030765
0.0028068 0.00099145 -0.00067934 -0.0017758 -0.0006305 0.0015744 0.24884 0.05195
-0.0068028 0.0097191 0.0027522 -0.001018
-0.00096333 -0.0018012 -0.00094714 -0.00033435 -0.0012543 -0.0010562 -0.0067735 0.0097425
0.19362 0.15872 -0.0045433 0.010466
-0.0002658 0.00075789 -0.00054721 -0.00074084 -0.00023195 -0.00030812 0.0027374 -0.0010331
-0.0045464 0.010446 0.24278 0.20655
1700000000 0.28788 -0.018868 0.0024856 0.0088976 -0.0040941 -0.00018354 0.0032324 -0.0013681
-0.0022104 -0.0007256 0.00060488 0.0004362
0.0024746 0.0088915 0.22022 0.24335 0.0043601 -4.0912e-05 -0.0015257 -0.00059491
-0.00074934 -4.6779e-05 -0.0010101 -0.00050753
-0.0040899 -0.00016078 0.0043659 -7.4307e-05 0.25823 -0.19361 0.0005372 0.0016
-0.0021276 -0.00010295 -0.00061066 -0.0008026
0.0032241 -0.0013845 -0.0015218 -0.00058898 0.00053566 0.0016146 0.24501 0.0016701
-0.0036377 0.0098973 0.0017501 -0.0023775
-0.0022181 -0.00070642 -0.00075268 -3.9252e-05 -0.0021275 -0.00010104 -0.0036115 0.0099015
0.21165 0.13876 0.00031545 0.010539
0.00061123 0.00043017 -0.0010187 -0.00050062 -0.00061754 -0.00080028 0.0017476 -0.0023894
0.00031849 0.010542 0.25922 0.17263
1760000000 0.27639 -0.067468 0.0045062 0.0054599 -0.0028189 0.0010821 0.0013016 -0.003598
-0.0014791 0.0007307 0.00023529 -0.0006788
0.0045033 0.0054583 0.2469 0.20385 0.0016586 -0.002119 -0.0012413 0.00019091
-0.0011346 0.00085506 -0.00070559 0.00035835
-0.0028131 0.0010852 0.0016432 -0.0021286 0.21102 -0.22764 0.0010486 0.0010629
-0.0014091 0.0016581 -0.0013559 -0.00070545
0.001282 -0.0036059 -0.001237 0.00019975 0.0010447 0.0010645 0.23609 -0.049738
-0.00028058 0.0086532 -0.00017408 -0.0028404
-0.0014744 0.00074016 -0.0011197 0.00087279 -0.0013961 0.0016531 -0.00026022 0.008667
0.22787 0.10423 0.0047288 0.0077782
0.00022343 -0.00068351 -0.0007044 0.00036186 -0.001365 -0.00070327 -0.00017402 -0.0028506
0.0047347 0.007759 0.27255 0.13555
1820000000 0.25188 -0.10517 0.0043228 0.0019659 -0.00037544 0.0028255 -0.0011332 -0.0032732
-0.0011369 0.0010609 -0.00017976 -9.4947e-05
0.0043128 0.0019687 0.25717 0.17348 -0.0009997 -0.00062051 -0.0013624 0.00089586
-0.00019116 0.0011733 -0.00071332 0.00063432
-0.00035122 0.0028366 -0.0010088 -0.00061152 0.15909 -0.24413 0.001604 0.0004497
-0.0001525 0.0025625 -0.00156 0.00061528
-0.0011549 -0.0032785 -0.0013735 0.00091175 0.001606 0.00045826 0.20554 -0.097436
0.0013015 0.0068738 -0.0017753 -0.0018549
-0.0011339 0.0010763 -0.00018688 0.0011719 -0.00014854 0.0025729 0.0013279 0.006863
0.24585 0.074826 0.005723 0.0038642
-0.00018163 -8.952e-05 -0.00071143 0.00064735 -0.0015597 0.00062709 -0.0017824 -0.0018562
0.0057195 0.0038728 0.27535 0.099279
1880000000 0.21671 -0.14513 0.0016826 -0.00013919 -0.00076789 0.0026339 -0.0030312 -0.0022275
-0.00014731 0.0018812 0.00014826 -0.00041329
0.0016747 -0.00014364 0.26171 0.12716 -0.0032037 0.0015002 -0.00024213 0.0017479
0.00040247 0.0013574 9.6629e-05 0.0010783
-0.00075334 0.0026458 -0.0031993 0.0015225 0.10675 -0.25286 0.001789 -0.00096225
0.0016215 0.0019287 -0.00096409 0.0015167
-0.0030391 -0.0022086 -0.000228 0.0017446 0.0017912 -0.00096179 0.16474 -0.13701
0.0018434 0.0046408 -0.0023549 -4.0675e-05
-0.00014466 0.0018765 0.00042695 0.0013622 0.0016374 0.0019194 0.0018344 0.0046535
0.25012 0.043213 0.0063254 0.0012201
0.00014272 -0.00041359 0.00010526 0.0010781 -0.00096682 0.0015115 -0.0023535 -2.2598e-05
0.0063268 0.0012068 0.27558 0.065637
1940000000 0.17763 -0.17108 -0.00077432 -0.0015485 0.0015325 0.0022631 -0.003917 0.00059857
0.001287 0.0010302 -0.0006441 -0.00051958
-0.00077104 -0.0015501 0.26292 0.094983 -0.0016296 0.0042935 0.00099508 0.0013317
0.0018719 0.00074334 0.0010575 0.00050009
0.0015346 0.0022538 -0.0015933 0.0043122 0.062441 -0.2457 0.00054144 -0.0023253
0.0025163 0.00040214 0.00064765 0.0018038
-0.0039113 0.00062003 0.0010074 0.001343 0.00053343 -0.0023193 0.11181 -0.16819
0.00059567 0.0030194 -0.0021279 0.0015402
0.0012927 0.0010201 0.0018855 0.0007265 0.0025149 0.00039669 0.000626 0.003017
0.2536 0.0042343 0.0043312 -0.0026319
-0.00064868 -0.00051524 0.0010569 0.00049109 0.00064874 0.0017956 -0.0021312 0.0015407
0.0043317 -0.0026185 0.2655 0.028979
2000000000 0.13137 -0.18552 -0.004534 0.0011453 0.0029129 0.0019512 -0.0023939 0.0037636
0.001144 0.00033198 -0.00049971 0.00056112
-0.0045288 0.0011376 0.24834 0.059514 -0.0010804 0.0063576 0.0016927 0.00051821
0.0014731 -0.00096121 0.00070404 0.00020354
0.0029209 0.0019379 -0.0010418 0.0063734 0.018557 -0.23198 -0.0010833 -0.0014323
0.0020511 -0.0010919 0.0017647 0.0012738
-0.0023603 0.0037848 0.0017046 0.00051145 -0.0010749 -0.0014459 0.057984 -0.17699
-0.0012396 0.0030843 -0.00042546 0.0023099
0.0011411 0.00031723 0.0014635 -0.00097294 0.0020502 -0.0010964 -0.0012637 0.0030926
0.24825 -0.029266 0.0010764 -0.0037488
