!Keysight Technologies,M9804A,MY58100912,A.14.10.03
!Date: Thursday, April 27, 2023 10:28:33
!Correction: S11(C  6-Port  ) 
!S12(C  6-Port  ) 
!S13(C  6-Port  ) 
!S14(C  6-Port  ) 
!S15(C  6-Port  ) 
!S16(C  6-Port  ) 
!S21(C  6-Port  ) 
!S22(C  6-Port  ) 
!S23(C  6-Port  ) 
!S24(C  6-Port  ) 
!S25(C  6-Port  ) 
!S26(C  6-Port  ) 
!S31(C  6-Port  ) 
!S32(C  6-Port  ) 
!S33(C  6-Port  ) 
!S34(C  6-Port  ) 
!S35(C  6-Port  ) 
!S36(C  6-Port  ) 
!S41(C  6-Port  ) 
!S42(C  6-Port  ) 
!S43(C  6-Port  ) 
!S44(C  6-Port  ) 
!S45(C  6-Port  ) 
!S46(C  6-Port  ) 
!S51(C  6-Port  ) 
!S52(C  6-Port  ) 
!S53(C  6-Port  ) 
!S54(C  6-Port  ) 
!S55(C  6-Port  ) 
!S56(C  6-Port  ) 
!S61(C  6-Port  ) 
!S62(C  6-Port  ) 
!S63(C  6-Port  ) 
!S64(C  6-Port  ) 
!S65(C  6-Port  ) 
!S66(C  6-Port  ) 
!S6P File: Measurement: :
# Hz S  RI   R 50
500000000 -0.33552 -0.059108 -0.011121 -0.0012246 -0.009282 0.013855 -0.0048924 0.012381
0.0137 0.0052211 -0.0046838 0.008636
-0.011105 -0.0012174 -0.41671 -0.068057 0.0072389 -0.010292 0.0011045 0.012579
0.0074213 0.0031004 0.0007613 0.014491
-0.0092607 0.013893 0.0072379 -0.01031 -0.27037 0.19693 0.006336 0.0039374
-0.002746 0.0091519 -0.00040156 0.012317
-0.0048723 0.012384 0.0011304 0.012602 0.0063438 0.0039462 -0.33244 0.042045
-0.020495 -0.005079 0.01679 0.027217
0.013711 0.0051839 0.0074359 0.0030889 -0.0027498 0.0091589 -0.020487 -0.0050626
-0.24368 -0.20465 -0.028007 0.0038762
-0.0046578 0.0085977 0.00078976 0.014503 -0.00039535 0.012319 0.016773 0.027199
-0.028009 0.0038621 -0.26985 -0.12689
560000000 -0.32078 0.10866 -0.023672 -0.065467 -6.6132e-05 0.013732 0.0050066 0.011538
0.0099876 0.0054878 0.010268 0.0085328
-0.023614 -0.065368 -0.37518 0.09783 -0.042621 -0.037824 0.014226 0.003958
-0.012942 -0.0044358 0.0049783 -0.00075369
-5.3695e-05 0.013728 -0.042757 -0.037745 -0.18707 0.24975 2.3919e-05 -0.0043522
0.018686 0.0059567 0.0074847 -0.0053295
0.0050585 0.011522 0.014248 0.0039238 1.8208e-05 -0.0043603 -0.30772 0.13554
0.005425 -0.023785 0.0051784 -0.02093
0.010004 0.0054647 -0.012988 -0.0044015 0.018688 0.0059409 0.0054025 -0.023783
-0.31334 -0.023583 0.0084646 -0.049185
0.010292 0.0085428 0.0049688 -0.00078663 0.0074966 -0.005327 0.0051735 -0.020903
0.0085059 -0.049204 -0.33281 0.018891
620000000 -0.27953 0.088816 -0.02347 0.0095778 0.0046458 0.009875 0.0076228 -0.0039873
0.01304 -0.00056158 -8.1645e-05 -0.0015736
-0.023455 0.009588 -0.40453 0.04559 -0.017825 0.0015203 -0.0016336 -0.0017672
0.013224 -0.0059663 0.00070973 -0.0030432
0.0046301 0.0098441 -0.017845 0.0015739 -0.15589 0.25989 -0.00025605 -0.004829
-0.0032361 -0.0035518 0.0098806 -0.0023136
0.0075938 -0.0039874 -0.0016596 -0.0017614 -0.00024538 -0.0048025 -0.26508 0.14513
-0.040352 -0.019723 0.014528 0.028578
0.013063 -0.0005993 0.013226 -0.0060097 -0.0032325 -0.003594 -0.040365 -0.019711
-0.22885 -0.056198 -0.043736 0.011085
-0.00012715 -0.001558 0.00068144 -0.0030436 0.0098935 -0.0023214 0.014492 0.028561
-0.043718 0.011118 -0.25122 -0.013302
680000000 -0.2419 0.18178 -0.026133 -0.014257 0.0053811 0.0052202 0.0016153 -0.0071312
-0.0008539 -0.011925 0.0058726 -0.0073452
-0.026093 -0.014272 -0.39108 0.1484 -0.031795 -0.0021012 -0.0012634 -0.0004915
-0.0011848 -0.0095048 -0.00046631 -0.0018967
0.0054213 0.0051801 -0.031826 -0.0020253 -0.10395 0.28093 -0.00073831 -0.00067916
-0.0014137 -0.00010472 -0.0020766 -0.0089482
0.0016066 -0.0071577 -0.0012573 -0.00050342 -0.00073625 -0.00069764 -0.2206 0.19816
-0.023195 -0.0072253 -0.0092247 -0.010504
-0.00086983 -0.011951 -0.0012196 -0.0095066 -0.0014201 -8.7131e-05 -0.023226 -0.0071971
-0.28362 0.048452 -0.0063125 -0.0068087
0.0058835 -0.0073811 -0.0004799 -0.0019311 -0.0020804 -0.0089553 -0.0091961 -0.010485
-0.0063107 -0.0068655 -0.26047 0.090896
740000000 -0.19385 0.17622 -0.039656 0.027571 0.014694 -0.0048635 -9.3906e-05 -0.0040789
-0.0036843 -0.0027655 -0.0066781 0.0021479
-0.039625 0.027524 -0.33464 0.16663 -0.036978 0.034891 2.8931e-05 -0.0066481
-0.012816 0.0078105 -0.0012093 -0.0065565
0.014674 -0.0049004 -0.036924 0.035065 -0.069234 0.27628 -0.001926 0.0032857
-0.0028111 -0.0063099 -0.0012539 0.00091686
-9.5796e-05 -0.0040615 1.1362e-05 -0.0066596 -0.0019017 0.0032894 -0.20365 0.20414
-0.042331 -0.0079507 0.022885 0.016179
-0.0037009 -0.0027745 -0.0128 0.0078722 -0.0028768 -0.0063122 -0.042383 -0.0079213
-0.18219 0.078638 -0.041745 0.00064946
-0.0067075 0.0022105 -0.0012489 -0.0065462 -0.0012687 0.00093604 0.022839 0.016128
-0.041691 0.00070515 -0.25025 0.099568
800000000 -0.16303 0.22001 -0.021778 0.016477 0.0060701 -0.010696 -0.0043213 -0.0023712
-0.0049127 0.0022233 0.0042597 0.0008681
-0.021745 0.016458 -0.34181 0.23737 -0.0083172 0.03385 -0.0023994 0.0020799
-0.0014501 0.0022387 0.00081391 0.005778
0.0060441 -0.010705 -0.0082308 0.033908 -0.031217 0.30037 0.00062259 0.0015969
-0.00013029 0.0035058 -0.0016077 0.0009774
-0.0043354 -0.0023393 -0.0023883 0.002092 0.00062043 0.0016104 -0.17404 0.23192
-0.02751 0.013391 0.013931 -0.010228
-0.0048933 0.0022304 -0.0014428 0.0022406 -0.00011746 0.0034983 -0.027501 0.013447
-0.22534 0.10557 -0.01575 0.020933
0.0042755 0.00089061 0.0008725 0.0057784 -0.0016255 0.00096611 0.013992 -0.010257
-0.015776 0.020912 -0.24321 0.14762
860000000 -0.12751 0.23951 -0.017127 0.029996 -0.0026209 -0.010421 -0.0016945 0.00031286
0.0036048 0.005271 -0.0040548 -0.0024767
-0.017119 0.029969 -0.29275 0.27982 0.007383 0.034378 8.6997e-06 0.0020823
0.0031321 0.00087426 0.0030988 0.00045159
-0.0026381 -0.010425 0.0074843 0.034384 0.015786 0.30872 -0.00063488 0.00010012
0.0022194 -0.0016863 0.0017847 0.0042155
-0.0016966 0.00031174 1.5464e-05 0.0020881 -0.00062943 8.4571e-05 -0.13675 0.24211
-0.017625 0.017816 -0.0060141 -0.0091052
0.0036292 0.0052641 0.0031578 0.00085518 0.0022241 -0.0016938 -0.017614 0.017849
-0.16791 0.15784 -0.023559 0.017994
-0.004039 -0.0024599 0.0030972 0.00042594 0.0017933 0.0042157 -0.0060716 -0.0090629
-0.023605 0.017964 -0.19143 0.19151
920000000 -0.10453 0.26167 0.0049864 0.037873 -0.0092739 -0.005552 -0.0021731 0.0014184
0.00084024 0.0021355 0.0028814 -0.0011405
0.0049665 0.037838 -0.26657 0.30068 0.028152 0.022785 0.0012617 0.0013975
0.0078838 0.00031327 0.0046429 -0.0027168
-0.0092852 -0.0055311 0.028253 0.022713 0.060348 0.31016 0.0020299 0.00012002
0.001051 -6.1337e-05 0.0010957 -0.0014654
-0.0021713 0.0014194 0.0012734 0.0014067 0.0020266 0.00011171 -0.11277 0.25825
-0.010822 0.030346 0.0044956 -0.0068474
0.00084381 0.0021374 0.0079066 0.00027589 0.0010395 -5.3776e-05 -0.010771 0.030384
-0.15598 0.16259 -0.0014448 0.026863
0.0028587 -0.001138 0.0046577 -0.0027591 0.0010826 -0.0014649 0.0044831 -0.0068868
-0.0014913 0.026848 -0.19759 0.2051
980000000 -0.058517 0.2822 0.016562 0.029482 -0.009711 0.0038201 0.0016599 0.0035456
0.0040451 -0.001446 -0.0029908 -0.0022484
0.016534 0.029473 -0.21395 0.33598 0.033395 0.0056369 0.0021634 -0.00015175
0.0022371 -0.0061938 -0.00010632 -0.002598
-0.0096931 0.0038556 0.033451 0.0055085 0.10604 0.30541 0.00088532 -0.0011883
0.00071061 -0.001943 0.001301 -0.00013769
0.0016711 0.0035331 0.0021642 -0.00013793 0.00088734 -0.0011846 -0.074379 0.26882
0.007656 0.029256 -0.0093195 -0.0073558
0.0040192 -0.0014625 0.0022178 -0.0062156 0.00070109 -0.0019449 0.0077173 0.029262
-0.12209 0.19237 0.0056199 0.019013
-0.0029926 -0.0022482 -0.00011741 -0.0025815 0.0013013 -0.0001402 -0.0093186 -0.0073356
0.0055924 0.019014 -0.15771 0.24983
1040000000 -0.017857 0.2911 0.032598 0.018901 -0.0020176 0.0068725 0.0023937 0.00091766
0.00018368 -0.003452 -0.00040549 -0.0016999
0.032576 0.018912 -0.17929 0.34938 0.030218 -0.014525 0.0017684 -0.0018183
-0.0022326 -0.0027678 -0.0013766 -0.0030315
-0.001992 0.006893 0.030179 -0.014678 0.15202 0.29255 -0.00031422 -0.0017409
-0.0016896 -0.001006 -0.00073325 -0.0010429
0.0024013 0.00090331 0.0017752 -0.0018072 -0.00032055 -0.0017422 -0.047726 0.2782
0.019072 0.018632 -0.0025589 0.00084984
0.00014946 -0.0034515 -0.0022366 -0.0027765 -0.0016924 -0.00099391 0.019116 0.018604
-0.089126 0.19933 0.014353 0.017838
-0.00041637 -0.0016974 -0.001375 -0.0030141 -0.00073778 -0.0010485 -0.0025446 0.0008416
0.014322 0.017829 -0.1343 0.27012
1100000000 0.026524 0.30098 0.036282 -0.0033958 0.0024655 0.0042369 0.0024581 -0.00075112
-0.0019433 -0.0029618 -0.0040536 -0.00016672
0.036258 -0.0033703 -0.13693 0.36821 0.01617 -0.02816 0.00019042 -0.0018875
-0.0037467 -0.0010672 -0.0035356 -0.00058355
0.0024804 0.0042312 0.016075 -0.028262 0.1982 0.27385 -0.0020395 1.5187e-05
-0.0019454 0.00036202 -0.0013383 -0.00018605
0.0024609 -0.00076909 0.00018976 -0.0018872 -0.0020425 1.8498e-05 -0.0084204 0.28359
0.024725 0.005306 -0.0028776 -0.00010886
-0.0019688 -0.0029595 -0.0037553 -0.0010528 -0.0019478 0.00035827 0.024747 0.005269
-0.069633 0.21276 0.02008 0.0085771
-0.0040667 -0.00015307 -0.0035352 -0.00056765 -0.001337 -0.00018886 -0.00287 -0.00010136
0.020062 0.0085851 -0.088818 0.29921
1160000000 0.077351 0.29749 0.024392 -0.020682 0.0024631 -0.00027806 0.00017175 -0.0021752
-0.0040582 -0.0009201 -0.0011498 0.0043611
0.024403 -0.020636 -0.093826 0.37348 -0.0033162 -0.029886 -0.0015759 -0.0017706
-0.0031987 0.002741 -0.00151 0.0020048
0.0024583 -0.00027807 -0.0034589 -0.029918 0.24208 0.24384 -0.00097015 0.0017669
-0.00059294 0.0022081 -0.00084325 0.00036459
0.00016681 -0.0021937 -0.0015807 -0.0017606 -0.00096758 0.0017697 0.030447 0.28162
0.021259 -0.01037 -0.0035489 0.0050631
-0.0040894 -0.00091259 -0.0031782 0.0027563 -0.00059622 0.0022114 0.02126 -0.010397
-0.03496 0.21978 0.019082 -0.0007211
-0.001126 0.0043633 -0.0014895 0.0020347 -0.00084649 0.00036069 -0.0035296 0.0050727
0.019063 -0.00072863 -0.041509 0.30252
1220000000 0.12089 0.28829 0.010907 -0.030301 -0.0017893 -0.00067207 0.00032753 -0.00091649
-0.0028077 0.0020924 0.00097502 0.0022112
0.010925 -0.030254 -0.049852 0.38731 -0.017216 -0.022301 -0.0027833 0.00038468
-0.000138 0.0034101 -0.0008942 0.0020215
-0.0017951 -0.00066935 -0.01733 -0.022262 0.2811 0.20496 0.00069685 0.0019739
0.00066929 0.0014031 0.00051338 0.00062361
0.00032872 -0.00092498 -0.00279 0.00040055 0.00069918 0.0019792 0.070322 0.27374
0.010944 -0.017302 0.0017943 0.0014506
-0.002811 0.0021016 -0.00011116 0.0034197 0.0006723 0.0013992 0.01092 -0.017313
-0.01215 0.22818 0.01412 -0.013747
0.00097973 0.0022064 -0.00088363 0.0020418 0.00051326 0.00062194 0.0017984 0.0014449
0.014116 -0.013745 -0.010223 0.31742
1280000000 0.17145 0.26903 -0.0080363 -0.02891 -0.0020676 0.0029157 -0.00070413 -0.0023488
-0.00093877 0.0032746 0.0026873 0.0015082
-0.008001 -0.028873 -0.0034236 0.38018 -0.024776 -0.0091578 -0.0011418 0.00153
0.0019955 0.002056 0.00071191 0.0021419
-0.0020466 0.0029227 -0.02486 -0.0090503 0.31171 0.16188 0.0017761 0.0001741
0.0014063 0.00022711 0.00046464 0.00011499
-0.00071101 -0.0023448 -0.0011314 0.0015366 0.0017821 0.00018272 0.10749 0.25859
0.00091173 -0.019785 -0.00028523 0.00051286
-0.00091821 0.0032887 0.0020112 0.0020382 0.0014 0.00022893 0.00087728 -0.019789
0.023388 0.23225 0.0029939 -0.015991
0.0026951 0.0014931 0.00073435 0.0021407 0.00046401 0.00011524 -0.00028022 0.0005275
0.0029995 -0.015997 0.036874 0.31988
1340000000 0.20906 0.23646 -0.017965 -0.019037 0.00095807 0.0051729 -0.0019388 -0.0011006
0.0013699 0.0028925 0.0021077 -0.0013582
-0.017929 -0.01903 0.036952 0.37282 -0.022514 0.0043224 -0.00015066 0.0022247
0.0023262 0.00072621 0.0012972 0.00085239
0.00097781 0.0051662 -0.022518 0.0044403 0.33396 0.11451 0.0012925 -0.0010782
0.00080564 -0.00075993 2.3979e-06 4.7217e-05
-0.0019443 -0.0010919 -0.00013893 0.0022253 0.0012887 -0.0010828 0.14133 0.23821
-0.008784 -0.017092 0.00051883 0.00084396
0.001379 0.0028805 0.0023364 0.00071441 0.00080802 -0.0007705 -0.0088162 -0.017076
0.052914 0.22804 -0.0045185 -0.014708
0.002101 -0.001374 0.0013058 0.00084919 2.6281e-06 5.0073e-05 0.00051429 0.00083483
-0.0045032 -0.014709 0.074976 0.31451
1400000000 0.24354 0.20024 -0.023792 -0.0071264 0.0058193 0.0036508 -0.0024774 0.00060844
0.0024896 0.0011958 0.00046748 -0.0017407
-0.023751 -0.0071295 0.074862 0.36084 -0.015655 0.01312 0.0015371 0.0013793
0.0014047 -0.0010304 0.0012932 0.00010917
0.0058485 0.0036238 -0.015611 0.01322 0.34675 0.062121 0.00014035 -0.0018654
9.4272e-05 -0.00044696 0.00033694 0.00020131
-0.0024796 0.00062288 0.001543 0.0013679 0.00014381 -0.0018722 0.17117 0.20951
-0.015148 -0.010083 -0.00083999 0.00023906
0.002502 0.0011708 0.0013987 -0.0010413 9.7496e-05 -0.00044796 -0.015173 -0.010056
0.08558 0.22462 -0.011226 -0.0091891
0.0004647 -0.0017436 0.001294 9.8204e-05 0.00033693 0.0001988 -0.00083982 0.00025229
-0.011201 -0.0091959 0.11892 0.30394
1460000000 0.26794 0.15698 -0.02038 0.0053797 0.00644 -0.0017824 -0.0016497 0.0019341
0.0024162 -0.00030151 -0.00030013 -0.0012285
-0.020362 0.0053579 0.11041 0.33915 -0.0061222 0.016436 0.0018156 0.00012346
0.00083247 -0.001544 0.0012591 -0.00058744
0.0064374 -0.0018198 -0.006039 0.016484 0.35398 0.0088696 -0.00137 -0.001426
0.00011693 -0.0001864 0.0006457 -0.0003434
-0.0016375 0.0019451 0.0018181 0.00011408 -0.0013717 -0.0014262 0.19873 0.18005
-0.016361 -0.0029208 -0.00065992 0.002275
0.0024261 -0.00030767 0.00082616 -0.001553 0.00011417 -0.00018684 -0.016376 -0.002884
0.11542 0.21189 -0.01301 -0.0028879
-0.0003126 -0.0012228 0.0012502 -0.00060714 0.00065794 -0.00036074 -0.00064904 0.0022679
-0.013002 -0.0028989 0.15248 0.28377
1520000000 0.28146 0.11507 -0.014409 0.010693 0.0039237 -0.0048027 0.00014768 0.0027729
0.0023617 -0.0020355 -0.0013903 -0.00020361
-0.0144 0.010674 0.14436 0.32443 0.0021536 0.013847 0.0016898 -0.0008758
-0.00011836 -0.0011178 0.00035502 -0.0010598
0.003907 -0.0048216 0.0022367 0.013854 0.34784 -0.047068 -0.0012243 -0.00033937
0.00074712 -0.00084358 0.00013279 -0.00016996
0.00016072 0.0027779 0.0016918 -0.00089011 -0.0012215 -0.000337 0.22224 0.14121
-0.015498 0.0033573 0.001859 0.0023554
0.0023508 -0.0020531 -0.00012899 -0.0011223 0.00075029 -0.00084598 -0.015495 0.0033996
0.14386 0.19908 -0.012687 0.0022125
-0.0013934 -0.00019716 0.00034624 -0.0010629 0.00013316 -0.00017214 0.0018587 0.0023571
-0.012688 0.0022082 0.18505 0.2632
1580000000 0.29227 0.069008 -0.0074825 0.013677 -0.0008712 -0.0056391 0.00168 0.0019182
2.3242e-05 -0.0024536 -0.00036127 0.0003594
-0.0074805 0.01366 0.17204 0.2999 0.006024 0.0084556 0.00041559 -0.0016409
-0.00063236 -0.00093946 -0.00017472 -0.00094322
-0.0008972 -0.0056397 0.0060776 0.0084324 0.32888 -0.10435 -0.0016369 0.00072943
-0.00035116 -0.0012608 0.00018388 -0.00062383
0.0016786 0.0019186 0.00040669 -0.0016345 -0.001639 0.00072997 0.23631 0.1016
-0.011607 0.0085104 0.0026814 0.00070949
-2.5194e-06 -0.0024531 -0.00063436 -0.00094277 -0.00034941 -0.0012709 -0.011608 0.0085489
0.16902 0.1825 -0.0098268 0.0081954
-0.00035445 0.00036182 -0.0001897 -0.00093444 0.00018256 -0.00062391 0.0026974 0.00068966
-0.0098302 0.0081903 0.2169 0.23755
1640000000 0.29519 0.026893 -0.00072956 0.012057 -0.0031958 -0.0030937 0.002791 0.0010091
-0.00094779 -0.0017927 -0.00025535 0.00076162
-0.00074195 0.012048 0.20217 0.2748 0.006663 0.0031688 -0.00066382 -0.0017858
-0.00095085 -0.00035409 -0.00053567 -0.00074603
-0.0032134 -0.0030814 0.0066853 0.0031322 0.30118 -0.15397 -0.00062326 0.001576
-0.0012497 -0.0010381 -0.00021866 -0.00031213
0.0028009 0.0010069 -0.00067931 -0.001778 -0.00062291 0.0015787 0.24881 0.051966
-0.0068145 0.0097159 0.0027486 -0.001027
-0.00096161 -0.0017903 -0.00095246 -0.00034204 -0.0012656 -0.0010395 -0.0067941 0.0097286
0.19359 0.15875 -0.0045594 0.010425
-0.00025143 0.00076138 -0.00054622 -0.00074112 -0.00022049 -0.00031094 0.0027459 -0.0010328
-0.0045642 0.010423 0.24272 0.2066
1700000000 0.28787 -0.018799 0.0024749 0.0089133 -0.0040911 -0.00017147 0.0032306 -0.001377
-0.0022099 -0.0007313 0.00058985 0.00044294
0.0024765 0.0089052 0.22022 0.2434 0.0043664 -4.0892e-05 -0.0015092 -0.00060344
-0.00074751 -4.4688e-05 -0.0010182 -0.00050142
-0.0040886 -0.00015131 0.0043692 -6.8191e-05 0.25824 -0.19358 0.00053799 0.0015996
-0.002136 -0.00011324 -0.00060675 -0.00079729
0.0032227 -0.0013988 -0.0015133 -0.00059533 0.00053229 0.0016025 0.245 0.0016836
-0.0036351 0.0098999 0.001745 -0.0023766
-0.0022192 -0.00071515 -0.00074537 -4.462e-05 -0.0021397 -0.00011773 -0.0036261 0.0099103
0.21167 0.13876 0.00031384 0.010532
0.00059758 0.00044149 -0.0010149 -0.0004997 -0.00061545 -0.0007987 0.0017401 -0.0023946
0.00031221 0.010528 0.25909 0.17266
1760000000 0.27636 -0.067399 0.0045067 0.0054708 -0.0028195 0.001085 0.0013206 -0.0035841
-0.0014717 0.00073465 0.00023558 -0.00069444
0.0045049 0.0054683 0.24686 0.20387 0.0016595 -0.0021187 -0.0012349 0.00019857
-0.0011342 0.00086371 -0.00069339 0.0003562
-0.002812 0.0011023 0.0016496 -0.0021242 0.21105 -0.2276 0.0010625 0.0010754
-0.0013986 0.0016661 -0.001346 -0.00070315
0.0012966 -0.0035935 -0.0012391 0.00020605 0.0010582 0.0010734 0.23609 -0.049731
-0.00027931 0.0086518 -0.00018944 -0.0028499
-0.0014754 0.00075464 -0.0011246 0.00087478 -0.0014005 0.0016606 -0.00026421 0.0086667
0.22783 0.10426 0.0047212 0.0077506
0.00023716 -0.00069864 -0.0007012 0.00036084 -0.0013457 -0.00070157 -0.00018782 -0.0028435
0.0047276 0.0077542 0.27252 0.13561
1820000000 0.25189 -0.10509 0.0043201 0.0019746 -0.00037818 0.002813 -0.0011559 -0.0032685
-0.0011477 0.0010637 -0.00019619 -7.9159e-05
0.004311 0.0019799 0.25717 0.17354 -0.001001 -0.00063185 -0.0013739 0.00090893
-0.00020682 0.0011773 -0.0007167 0.00064157
-0.0003671 0.0028208 -0.001007 -0.00062606 0.15908 -0.24411 0.001605 0.00046577
-0.00016159 0.0025789 -0.0015469 0.00062996
-0.001181 -0.0032664 -0.0013754 0.00091818 0.0016014 0.00045548 0.20553 -0.097394
0.001302 0.006889 -0.0017612 -0.001831
-0.0011312 0.0010742 -0.00019327 0.0011748 -0.00016604 0.0025692 0.0013142 0.006883
0.24582 0.074861 0.0057071 0.0039028
-0.00019868 -7.8801e-05 -0.00071475 0.00065017 -0.0015486 0.00064053 -0.0017614 -0.0018341
0.0057099 0.0038849 0.27535 0.09926
1880000000 0.21671 -0.14507 0.0016862 -0.00013494 -0.00076743 0.0026278 -0.0030285 -0.0022241
-0.00014648 0.0018735 0.00014431 -0.00039054
0.0016926 -0.00013212 0.2617 0.12719 -0.0031961 0.0014943 -0.00023364 0.0017434
0.00040694 0.0013594 0.000101 0.0010872
-0.00074454 0.0026371 -0.0031945 0.0015164 0.10676 -0.25283 0.0018114 -0.00095899
0.0016426 0.0019321 -0.0009659 0.0015091
-0.0030267 -0.0022133 -0.00021716 0.0017385 0.0018042 -0.00095714 0.16479 -0.13705
0.0018649 0.0046286 -0.0023971 -8.9299e-05
-0.00013585 0.0018759 0.00042827 0.0013605 0.0016492 0.0019281 0.0018684 0.0046387
0.25011 0.043239 0.0063253 0.0011776
0.0001409 -0.00040345 0.00011039 0.0010861 -0.00095359 0.0015032 -0.0023986 -7.5572e-05
0.0063175 0.0011756 0.27552 0.065776
1940000000 0.17766 -0.171 -0.00076676 -0.0015445 0.0015262 0.0022691 -0.0039081 0.00058045
0.0012896 0.0010275 -0.00066903 -0.00051652
-0.00075523 -0.0015459 0.2629 0.095026 -0.0016195 0.0042882 0.0010025 0.0013401
0.0018858 0.00074417 0.001039 0.0004899
0.0015406 0.002262 -0.0015953 0.0043082 0.062456 -0.24567 0.00054516 -0.0023269
0.0025122 0.0004052 0.00062231 0.0018093
-0.0039175 0.00059992 0.0010036 0.0013312 0.00054456 -0.0023366 0.11173 -0.16813
0.00056692 0.0030468 -0.0021035 0.001591
0.0012961 0.0010215 0.0019021 0.00073051 0.0025201 0.00039927 0.00058885 0.0030257
0.25356 0.0042926 0.0043208 -0.0025833
-0.00067005 -0.00050585 0.0010449 0.00047678 0.0006334 0.0018016 -0.0021115 0.001582
0.0043386 -0.0025805 0.26548 0.028998
2000000000 0.13141 -0.18547 -0.0045237 0.0011409 0.0028955 0.0019719 -0.0023863 0.0037639
0.0011436 0.00034462 -0.00049344 0.00055964
-0.0045235 0.0011344 0.24835 0.05954 -0.001086 0.0063533 0.0017058 0.00051725
0.0014674 -0.00095442 0.00070654 0.00018206
0.0029027 0.0019486 -0.0010452 0.0063808 0.018565 -0.23196 -0.0010623 -0.0014706
0.0020571 -0.0011067 0.0017236 0.0012666
-0.0023638 0.003787 0.001704 0.00051092 -0.0010736 -0.0014574 0.058097 -0.17699
-0.0011701 0.0030846 -0.00044829 0.0022256
0.0011487 0.00032668 0.001459 -0.00096872 0.0020517 -0.0011081 -0.0011909 0.0031126
0.24824 -0.02921 0.001099 -0.0038051
