!Keysight Technologies,M9804A,MY58100912,A.14.10.03
!Date: Thursday, April 27, 2023 10:28:33
!Correction: S11(C  6-Port  ) 
!S12(C  6-Port  ) 
!S13(C  6-Port  ) 
!S14(C  6-Port  ) 
!S15(C  6-Port  ) 
!S16(C  6-Port  ) 
!S21(C  6-Port  ) 
!S22(C  6-Port  ) 
!S23(C  6-Port  ) 
!S24(C  6-Port  ) 
!S25(C  6-Port  ) 
!S26(C  6-Port  ) 
!S31(C  6-Port  ) 
!S32(C  6-Port  ) 
!S33(C  6-Port  ) 
!S34(C  6-Port  ) 
!S35(C  6-Port  ) 
!S36(C  6-Port  ) 
!S41(C  6-Port  ) 
!S42(C  6-Port  ) 
!S43(C  6-Port  ) 
!S44(C  6-Port  ) 
!S45(C  6-Port  ) 
!S46(C  6-Port  ) 
!S51(C  6-Port  ) 
!S52(C  6-Port  ) 
!S53(C  6-Port  ) 
!S54(C  6-Port  ) 
!S55(C  6-Port  ) 
!S56(C  6-Port  ) 
!S61(C  6-Port  ) 
!S62(C  6-Port  ) 
!S63(C  6-Port  ) 
!S64(C  6-Port  ) 
!S65(C  6-Port  ) 
!S66(C  6-Port  ) 
!S6P File: Measurement: :
# Hz S  RI   R 50
500000000 -0.33556 -0.059004 -0.011163 -0.0012432 -0.0093152 0.01401 -0.0049667 0.012385
0.013588 0.0051285 -0.0048062 0.0086951
-0.011103 -0.0012921 -0.41679 -0.067957 0.0072014 -0.01024 0.0010746 0.01263
0.0073952 0.0030571 0.00071275 0.014565
-0.0092572 0.013946 0.0071914 -0.010278 -0.27036 0.19703 0.0063116 0.0040116
-0.0027742 0.0091148 -0.000422 0.01237
-0.0048304 0.012312 0.0011825 0.012629 0.0063772 0.0040119 -0.33233 0.042068
-0.020523 -0.0050589 0.016836 0.02725
0.013734 0.0051508 0.0074087 0.0031019 -0.0027819 0.0092213 -0.020516 -0.0050611
-0.24371 -0.20451 -0.028033 0.00389
-0.0046164 0.0085331 0.0008225 0.01454 -0.00039514 0.012381 0.016834 0.027228
-0.02803 0.0038762 -0.26984 -0.12668
560000000 -0.32084 0.10877 -0.023806 -0.065348 -0.00012417 0.013545 0.0050382 0.011484
0.0099472 0.0052917 0.010345 0.0083534
-0.023638 -0.065313 -0.37523 0.09799 -0.042709 -0.037828 0.014192 0.0039227
-0.012907 -0.0044558 0.0049739 -0.00086042
-3.7396e-05 0.013758 -0.042825 -0.037763 -0.18696 0.24971 4.7563e-05 -0.0044131
0.018647 0.0058982 0.0075559 -0.0053397
0.0051308 0.011579 0.014313 0.0039458 -1.4814e-05 -0.0043621 -0.30784 0.13562
0.0054695 -0.023752 0.0051432 -0.020904
0.0099153 0.0053019 -0.013023 -0.0045204 0.018654 0.0059115 0.0054571 -0.023739
-0.31326 -0.023532 0.0085164 -0.049288
0.010293 0.0085395 0.0048773 -0.00070571 0.0074594 -0.0054554 0.0051325 -0.020898
0.0085342 -0.04931 -0.3326 0.019007
620000000 -0.27946 0.088717 -0.02348 0.0095093 0.0045103 0.0097031 0.0076355 -0.0039681
0.012994 -0.00061881 7.1368e-05 -0.0014657
-0.023465 0.0095367 -0.40447 0.045691 -0.017814 0.0015464 -0.0016291 -0.0017328
0.013246 -0.006014 0.0007733 -0.0029719
0.0046226 0.0097421 -0.017838 0.0015741 -0.1559 0.25992 -0.00020303 -0.0047908
-0.0032683 -0.0035953 0.010014 -0.0022434
0.0076241 -0.0041072 -0.0016236 -0.0017866 -0.00023936 -0.0049002 -0.26512 0.14523
-0.040259 -0.019786 0.014542 0.028743
0.012965 -0.00056909 0.013226 -0.006036 -0.0033595 -0.0035135 -0.040287 -0.019735
-0.22901 -0.056096 -0.04364 0.010885
-0.0001898 -0.0016595 0.00072886 -0.0030305 0.0099174 -0.0023519 0.014529 0.028701
-0.043634 0.010904 -0.25101 -0.013013
680000000 -0.24181 0.18189 -0.026151 -0.014262 0.0054539 0.0051273 0.0016327 -0.0071365
-0.00084677 -0.01196 0.0057921 -0.0074503
-0.026098 -0.014263 -0.39104 0.1485 -0.03178 -0.0021053 -0.0013087 -0.00053131
-0.0011802 -0.009454 -0.00052308 -0.001886
0.0054294 0.0051465 -0.031816 -0.0020135 -0.1039 0.28098 -0.00077576 -0.0007402
-0.0014326 -5.3428e-05 -0.0021399 -0.0090023
0.0015914 -0.0071299 -0.0013001 -0.00050893 -0.00077597 -0.00066374 -0.22055 0.19816
-0.02329 -0.0071938 -0.0091931 -0.010641
-0.00083845 -0.011973 -0.0012016 -0.0094933 -0.0013905 -7.1352e-05 -0.023295 -0.0072044
-0.28356 0.048681 -0.0064182 -0.0067264
0.005927 -0.0073921 -0.00048059 -0.0018629 -0.0021798 -0.0089667 -0.0092057 -0.010627
-0.006394 -0.0067413 -0.26058 0.091032
740000000 -0.19375 0.17636 -0.039649 0.027648 0.014682 -0.0048876 -3.4124e-05 -0.0040654
-0.0036915 -0.0027788 -0.0065691 0.0020894
-0.039633 0.027582 -0.33461 0.1668 -0.036956 0.034918 5.9175e-05 -0.0066596
-0.012914 0.0078153 -0.0011416 -0.0065171
0.014654 -0.0049033 -0.03691 0.035027 -0.069195 0.27629 -0.0018674 0.0033163
-0.0028632 -0.0064306 -0.0011878 0.00099603
-0.00010864 -0.0040567 -4.7612e-05 -0.006651 -0.001883 0.0032962 -0.20365 0.20431
-0.042269 -0.0081068 0.022844 0.016318
-0.0036554 -0.0027727 -0.012842 0.0079465 -0.0027929 -0.0064262 -0.042287 -0.0080576
-0.18243 0.078941 -0.041517 0.00042018
-0.0066957 0.0021981 -0.0012835 -0.0065526 -0.0012548 0.00088528 0.022867 0.016298
-0.04156 0.00041069 -0.25027 0.099997
800000000 -0.16302 0.22002 -0.021784 0.016496 0.006066 -0.010709 -0.0042958 -0.0024529
-0.0049704 0.0022317 0.0042343 0.00078518
-0.021736 0.016461 -0.34176 0.23746 -0.0083104 0.033839 -0.0024314 0.0020491
-0.001466 0.0022554 0.00075035 0.0057277
0.0060249 -0.010723 -0.0082242 0.033902 -0.031151 0.30041 0.00060263 0.0016263
-0.00011027 0.0034785 -0.0017415 0.00099614
-0.0043025 -0.0023379 -0.0024176 0.0020827 0.00060895 0.0016081 -0.17404 0.23192
-0.027526 0.013399 0.013876 -0.010388
-0.0049289 0.0022034 -0.0014526 0.0022927 -7.1116e-05 0.0034857 -0.027532 0.013448
-0.22526 0.10573 -0.015705 0.021022
0.0043101 0.00091593 0.00082958 0.0057811 -0.0016649 0.00097218 0.013854 -0.010361
-0.01569 0.020997 -0.24338 0.14734
860000000 -0.12739 0.23961 -0.017065 0.02998 -0.0026063 -0.010442 -0.0016351 0.00029259
0.0035668 0.005305 -0.0040233 -0.0026063
-0.017088 0.02995 -0.29261 0.27989 0.0073768 0.034347 2.157e-05 0.0020965
0.0031523 0.00091074 0.003105 0.00050873
-0.0026439 -0.010428 0.0074933 0.034373 0.015857 0.30874 -0.00060747 8.9119e-05
0.0022295 -0.0016609 0.0018689 0.0041595
-0.0016623 0.00029312 2.714e-05 0.0021178 -0.00062074 8.44e-05 -0.1367 0.24227
-0.017639 0.017864 -0.0058392 -0.0088701
0.0036153 0.0053031 0.0031724 0.00083663 0.0022226 -0.0016571 -0.017616 0.017932
-0.1679 0.1579 -0.023539 0.018029
-0.0040698 -0.0024815 0.003124 0.00047189 0.0018326 0.0041937 -0.0058389 -0.0089489
-0.023555 0.01801 -0.19088 0.19186
920000000 -0.10442 0.26176 0.0050603 0.037855 -0.0092453 -0.0055743 -0.0022196 0.0014383
0.00081086 0.0021165 0.0028857 -0.0011221
0.0050112 0.037802 -0.26649 0.30066 0.028125 0.022735 0.0012636 0.0013938
0.0079077 0.00032287 0.0046069 -0.0027541
-0.0092825 -0.0055414 0.028236 0.022691 0.060436 0.31017 0.0020164 0.00012978
0.0010586 -5.3349e-05 0.0010837 -0.0014614
-0.0021828 0.0014254 0.0012641 0.0013836 0.0020274 0.00011413 -0.11277 0.25826
-0.010849 0.030426 0.0044048 -0.0069306
0.00084655 0.0021329 0.0079233 0.0002977 0.0010534 -7.5499e-05 -0.010808 0.03048
-0.1558 0.16266 -0.0014988 0.026953
0.0028946 -0.001163 0.0046242 -0.0028203 0.0010664 -0.0014574 0.0044066 -0.0069117
-0.0014944 0.026942 -0.19763 0.20518
980000000 -0.05846 0.28224 0.01656 0.029446 -0.0096927 0.0038459 0.0016318 0.0035124
0.0040218 -0.0014416 -0.0029996 -0.0022858
0.016533 0.029413 -0.21386 0.33603 0.033408 0.0055835 0.002202 -0.00015049
0.0022511 -0.0062233 -0.00012773 -0.0026114
-0.0096829 0.0038625 0.033456 0.0054921 0.1061 0.30541 0.00088125 -0.0011868
0.00070263 -0.0019316 0.001306 -0.00013188
0.0016522 0.0035108 0.0021793 -0.00015008 0.00088321 -0.0011836 -0.074307 0.26884
0.0076702 0.029225 -0.0092627 -0.0073481
0.0040235 -0.0014641 0.0022044 -0.0062498 0.00071196 -0.0019467 0.0077361 0.029222
-0.12199 0.19245 0.0056444 0.019013
-0.0030047 -0.0022332 -0.00013729 -0.0025669 0.0013159 -0.00012927 -0.0092703 -0.00734
0.00561 0.019005 -0.15766 0.24985
1040000000 -0.017747 0.29115 0.032586 0.018859 -0.0019979 0.0068859 0.0023771 0.00091005
0.00016487 -0.003464 -0.00035078 -0.0016955
0.032532 0.018851 -0.17921 0.34941 0.030176 -0.014578 0.001799 -0.0018147
-0.0021852 -0.0027889 -0.0013962 -0.0030239
-0.001984 0.0068893 0.030166 -0.014669 0.15209 0.29254 -0.00032456 -0.0017362
-0.0016797 -0.00099494 -0.00074564 -0.0010482
0.0023972 0.00089831 0.001783 -0.0018098 -0.00031317 -0.0017504 -0.047691 0.27821
0.019073 0.018604 -0.0025688 0.0008217
0.00017194 -0.003436 -0.0021871 -0.0027684 -0.0016676 -0.00096757 0.019111 0.018588
-0.089039 0.19942 0.014325 0.017841
-0.0003847 -0.0017021 -0.0014135 -0.0030153 -0.00074189 -0.0010472 -0.0025658 0.00083425
0.014308 0.017846 -0.13422 0.27014
1100000000 0.026584 0.30101 0.036272 -0.0034151 0.002464 0.0042531 0.0024491 -0.00075596
-0.0019577 -0.0029718 -0.0040651 -0.00013203
0.036224 -0.0034126 -0.13689 0.36823 0.016155 -0.028187 0.00019764 -0.0018829
-0.0037464 -0.0010829 -0.0035477 -0.00058447
0.0024844 0.0042363 0.016063 -0.028266 0.19826 0.27383 -0.002048 1.7063e-05
-0.001961 0.00036525 -0.0013235 -0.00016921
0.0024403 -0.0007709 0.00018435 -0.0018781 -0.0020423 1.5817e-05 -0.0083656 0.2836
0.024742 0.0052982 -0.0028588 -0.00010955
-0.0019782 -0.0029733 -0.0037697 -0.0010624 -0.0019516 0.00035163 0.024752 0.0052641
-0.069515 0.21285 0.020083 0.008533
-0.0040708 -0.00012969 -0.0035496 -0.000559 -0.0013347 -0.00017233 -0.0028434 -8.8952e-05
0.02006 0.0085538 -0.088626 0.29926
1160000000 0.077463 0.29748 0.024367 -0.020687 0.0024506 -0.00025118 0.00015042 -0.0021825
-0.0040762 -0.00094859 -0.0011364 0.0043529
0.024344 -0.02067 -0.093744 0.37349 -0.0033417 -0.029909 -0.0015648 -0.0017838
-0.0031825 0.0027264 -0.0015193 0.0020208
0.0024559 -0.00027252 -0.003465 -0.029907 0.24214 0.24382 -0.00098483 0.0017726
-0.00060352 0.0022075 -0.00085801 0.00038728
0.00016078 -0.0021864 -0.0015864 -0.0017818 -0.00097128 0.0017637 0.030482 0.2816
0.021267 -0.01038 -0.0035317 0.0050439
-0.0040614 -0.00090422 -0.0031753 0.0027519 -0.00058755 0.002223 0.021255 -0.010425
-0.034868 0.21984 0.019079 -0.00075093
-0.001141 0.0043472 -0.0015116 0.0020264 -0.00085685 0.00036926 -0.0035348 0.0050432
0.019058 -0.00077663 -0.041409 0.30246
1220000000 0.12099 0.28828 0.010884 -0.030299 -0.001793 -0.00064898 0.00031386 -0.00092856
-0.0028174 0.0020916 0.00096227 0.0022205
0.010884 -0.030271 -0.049806 0.38728 -0.017225 -0.022294 -0.0027872 0.0004001
-0.00012866 0.00342 -0.00089225 0.0020185
-0.0018033 -0.00065455 -0.017339 -0.022242 0.28116 0.20492 0.00069939 0.0019821
0.00065613 0.0013992 0.00052704 0.00062307
0.000316 -0.00092123 -0.0028013 0.00040277 0.00070253 0.001956 0.070346 0.27374
0.010924 -0.01733 0.001779 0.0014746
-0.0028117 0.0021155 -0.00011233 0.0034362 0.00067924 0.0014058 0.010895 -0.017346
-0.012041 0.22816 0.014093 -0.013766
0.00097776 0.0022084 -0.00087751 0.0020432 0.00050762 0.00062267 0.001787 0.001473
0.014095 -0.013755 -0.010101 0.31744
1280000000 0.17152 0.269 -0.008066 -0.028895 -0.0020654 0.0029334 -0.00070006 -0.0023337
-0.00092679 0.0032707 0.0027025 0.0015172
-0.0080379 -0.028864 -0.0033574 0.3802 -0.02479 -0.0091368 -0.0011479 0.0015213
0.0019962 0.0020592 0.00072758 0.0021435
-0.0020449 0.0029388 -0.024865 -0.0090338 0.31176 0.16182 0.0017659 0.00017825
0.0014033 0.00022514 0.00046245 0.00012155
-0.0007186 -0.0023502 -0.0011274 0.0015308 0.00178 0.00018528 0.10753 0.2586
0.00090996 -0.019786 -0.00031259 0.00052365
-0.000899 0.003284 0.0020287 0.0020481 0.001393 0.00022616 0.00087263 -0.019793
0.023496 0.23226 0.0029846 -0.016014
0.0026882 0.0014993 0.00073418 0.002137 0.00047907 0.00012167 -0.00030986 0.00053796
0.0029908 -0.016017 0.036958 0.3199
1340000000 0.20915 0.23642 -0.017974 -0.019012 0.00097376 0.0051822 -0.0019296 -0.0011012
0.0013793 0.0028772 0.0021099 -0.001355
-0.017944 -0.018999 0.037016 0.37282 -0.022501 0.0043372 -0.0001525 0.0022104
0.0023231 0.00072528 0.0012925 0.00084725
0.00099638 0.0051809 -0.022508 0.0044453 0.33401 0.11446 0.0012898 -0.0010872
0.00081012 -0.00076541 -7.7475e-06 4.8913e-05
-0.0019422 -0.0010884 -0.00014786 0.0022295 0.0012892 -0.0010954 0.14135 0.23821
-0.0087823 -0.017082 0.00052497 0.00085157
0.0013877 0.0028876 0.0023315 0.00070342 0.00081659 -0.00077258 -0.0088312 -0.017067
0.053046 0.22801 -0.0045151 -0.014714
0.0021098 -0.0013771 0.0013041 0.00085661 -3.394e-05 5.8904e-05 0.00052524 0.0008464
-0.0045179 -0.014693 0.075126 0.31447
1400000000 0.24358 0.20019 -0.023787 -0.007082 0.0058389 0.0036489 -0.0024728 0.00061226
0.0024769 0.0011873 0.00047546 -0.0017338
-0.023748 -0.0070978 0.074929 0.36083 -0.015639 0.013135 0.0015382 0.0013728
0.0014141 -0.0010203 0.0012819 0.00012061
0.0058464 0.0036255 -0.0156 0.01322 0.34677 0.062057 0.00013963 -0.0018654
0.00010045 -0.00043583 0.0003409 0.00020134
-0.002478 0.00062097 0.0015375 0.001358 0.00014072 -0.0018593 0.1712 0.20948
-0.015146 -0.010068 -0.00085756 0.00024884
0.0024937 0.0011665 0.001409 -0.0010478 9.8516e-05 -0.00044734 -0.015168 -0.010045
0.085626 0.22462 -0.011221 -0.0092093
0.00047129 -0.0017439 0.0012666 0.00010129 0.00033627 0.00020039 -0.00087109 0.00025546
-0.011204 -0.009231 0.11905 0.30393
1460000000 0.26801 0.15694 -0.020365 0.0053931 0.0064532 -0.001801 -0.0016633 0.0019387
0.002415 -0.00030798 -0.00029178 -0.0011964
-0.020357 0.0053826 0.11049 0.33914 -0.0061007 0.016439 0.0018239 0.00010985
0.00084448 -0.001544 0.0012355 -0.00058853
0.0064347 -0.0018248 -0.0060237 0.016485 0.354 0.0088094 -0.001367 -0.0014219
0.0001095 -0.00019015 0.00065234 -0.00031884
-0.0016417 0.0019419 0.0018255 0.00011309 -0.0013717 -0.0014488 0.19877 0.18004
-0.016367 -0.0029042 -0.00064813 0.0022543
0.0024213 -0.00032203 0.00084207 -0.0015476 0.00012736 -0.00020248 -0.016379 -0.0028684
0.11552 0.21185 -0.013014 -0.0029196
-0.00032478 -0.0012227 0.0012426 -0.00058605 0.00062649 -0.00035558 -0.00063962 0.0022721
-0.013017 -0.0028949 0.15253 0.28374
1520000000 0.28149 0.11502 -0.014387 0.010706 0.0039243 -0.0047952 0.000152 0.0027639
0.0023603 -0.0020315 -0.0014006 -0.0001952
-0.014377 0.010684 0.14443 0.32438 0.0021628 0.013828 0.0016825 -0.00088206
-0.00012266 -0.0011225 0.00035557 -0.0010533
0.0039113 -0.0048278 0.0022445 0.013832 0.3478 -0.047142 -0.0012348 -0.0003246
0.00074944 -0.00084323 0.00014527 -0.0001681
0.00015495 0.0027671 0.001679 -0.00089668 -0.0012457 -0.00030973 0.22227 0.14121
-0.015503 0.003384 0.0018655 0.0023609
0.0023549 -0.0020519 -0.00013152 -0.001113 0.0007515 -0.00083777 -0.015496 0.0034229
0.14387 0.19905 -0.012691 0.0022356
-0.0014061 -0.00019479 0.00034834 -0.0010532 0.00015246 -0.00015686 0.001867 0.0023404
-0.012684 0.0022069 0.18509 0.26312
1580000000 0.29233 0.068958 -0.0074559 0.013668 -0.0008856 -0.0056591 0.0016555 0.0019224
1.5338e-05 -0.0024566 -0.00037161 0.00036454
-0.0074607 0.013657 0.1721 0.29988 0.0060329 0.0084556 0.0004267 -0.0016351
-0.00062231 -0.00092844 -0.00017742 -0.00093157
-0.00090726 -0.0056504 0.0060842 0.0084305 0.32886 -0.1044 -0.0016355 0.00072235
-0.00032587 -0.0012685 0.00017374 -0.00062291
0.0016767 0.0019173 0.00041646 -0.0016458 -0.0016282 0.00071157 0.23633 0.10156
-0.011604 0.0085058 0.0027023 0.00068226
-3.3074e-06 -0.0024411 -0.00062383 -0.00093253 -0.00031908 -0.0012641 -0.011587 0.0085238
0.16907 0.18249 -0.0098073 0.0081881
-0.00034472 0.00036228 -0.00018748 -0.00093791 0.00017112 -0.00063576 0.0026901 0.0007056
-0.0098429 0.0081974 0.21695 0.23752
1640000000 0.29525 0.026818 -0.00071708 0.012046 -0.0032035 -0.0031066 0.0028156 0.0010067
-0.00093344 -0.0017974 -0.00025381 0.00075306
-0.00072482 0.012034 0.20223 0.27471 0.0066625 0.0031526 -0.00067125 -0.0017772
-0.00094168 -0.00034064 -0.00054626 -0.00075488
-0.0032172 -0.0030826 0.0066848 0.003117 0.30116 -0.15403 -0.00060283 0.0015911
-0.0012316 -0.0010351 -0.00022158 -0.00031877
0.0028043 0.00098857 -0.00067629 -0.0017788 -0.00061908 0.0015812 0.24884 0.051955
-0.0068153 0.0097193 0.0027329 -0.0010311
-0.0009631 -0.001797 -0.0009449 -0.00034277 -0.0012419 -0.0010405 -0.0067931 0.0097523
0.19363 0.15869 -0.0045844 0.010479
-0.00026413 0.00076255 -0.00054834 -0.00074557 -0.00022744 -0.00031243 0.0027291 -0.0010639
-0.004556 0.010472 0.24278 0.20652
1700000000 0.28789 -0.018869 0.0024861 0.0088909 -0.0040916 -0.00018554 0.0032284 -0.0013766
-0.0022236 -0.00072897 0.00057868 0.0004472
0.0024808 0.0088818 0.22023 0.24332 0.004362 -4.0535e-05 -0.0015144 -0.00059972
-0.00075225 -5.0526e-05 -0.0010066 -0.00049148
-0.0040991 -0.00016763 0.0043695 -7.4615e-05 0.25819 -0.19359 0.00054789 0.0015962
-0.0021164 -0.00011249 -0.00061403 -0.00078402
0.0032238 -0.0013935 -0.0015236 -0.00058868 0.00054728 0.0016257 0.24503 0.0016546
-0.0036067 0.0098931 0.0017277 -0.0023768
-0.0022253 -0.0006997 -0.00074949 -4.9764e-05 -0.0021343 -0.00010717 -0.0035777 0.0099083
0.2117 0.13874 0.0003284 0.010529
0.00061111 0.00043286 -0.0010172 -0.00049066 -0.00057537 -0.00080124 0.0017178 -0.0023952
0.00031273 0.010495 0.25912 0.17261
1760000000 0.27641 -0.067466 0.004498 0.0054567 -0.00282 0.0010845 0.0013433 -0.0035897
-0.0014545 0.00074695 0.00023278 -0.00070846
0.0045004 0.0054531 0.2469 0.20384 0.0016444 -0.0021036 -0.001229 0.00020244
-0.0011313 0.00086353 -0.00071491 0.00035408
-0.0028058 0.0010841 0.001638 -0.0021195 0.21103 -0.22763 0.0010577 0.0010618
-0.001401 0.0016642 -0.0013516 -0.0007061
0.0012932 -0.0036023 -0.0012335 0.0002006 0.0010611 0.0010447 0.23604 -0.049746
-0.00031967 0.0086337 -0.00016594 -0.0028345
-0.0014859 0.00073534 -0.0011115 0.00085937 -0.0013888 0.0016489 -0.00031386 0.0086371
0.22787 0.10418 0.0047168 0.0077766
0.00022986 -0.0006791 -0.00071896 0.00035747 -0.0013853 -0.00071087 -0.00013024 -0.0028017
0.0047459 0.0078092 0.27255 0.13557
1820000000 0.25189 -0.10518 0.0043173 0.0019645 -0.00038255 0.0028311 -0.0011591 -0.0032749
-0.0011499 0.0010636 -0.00020156 -9.2086e-05
0.004308 0.001963 0.25717 0.17344 -0.0010004 -0.00062717 -0.0013588 0.00091191
-0.00019623 0.0011915 -0.000716 0.00063493
-0.00035917 0.0028359 -0.0010118 -0.00061849 0.15906 -0.24412 0.0016252 0.00045986
-0.0001534 0.0025881 -0.0015484 0.00064512
-0.0011452 -0.00328 -0.0013536 0.00092032 0.0016088 0.00048313 0.20559 -0.097433
0.0013631 0.0068967 -0.0017583 -0.0018438
-0.0011231 0.0010664 -0.00017697 0.001187 -0.00016612 0.0025793 0.0013891 0.006901
0.24591 0.074804 0.0057322 0.0038806
-0.00018036 -9.3242e-05 -0.00070247 0.00063636 -0.0015143 0.00063621 -0.0018043 -0.0018524
0.0057231 0.0038517 0.27535 0.099213
1880000000 0.2167 -0.14513 0.0016657 -0.00015507 -0.00076263 0.0026496 -0.0029974 -0.002219
-0.00013785 0.0018842 0.00015419 -0.00041636
0.0016786 -0.0001416 0.26171 0.12716 -0.0031975 0.0015013 -0.00022651 0.0017353
0.00040432 0.0013562 8.9701e-05 0.0010899
-0.00075837 0.0026366 -0.0031905 0.0015261 0.10672 -0.25285 0.0017812 -0.00096521
0.0016432 0.001933 -0.00097149 0.0015024
-0.0030357 -0.0021959 -0.00022893 0.0017325 0.0018159 -0.0010042 0.16476 -0.13712
0.0018176 0.0045936 -0.0024076 -2.9909e-05
-0.000141 0.0018887 0.00041735 0.0013475 0.0016521 0.0019036 0.0018358 0.0045834
0.2501 0.043141 0.0062809 0.0012055
0.00014394 -0.00041275 8.5986e-05 0.0010809 -0.001001 0.0014881 -0.0024422 -2.2759e-05
0.0062856 0.0012153 0.27556 0.065738
1940000000 0.17762 -0.1711 -0.00077289 -0.0015541 0.0015354 0.0022435 -0.0039221 0.00058146
0.0012949 0.0010262 -0.00065318 -0.00048189
-0.00078228 -0.0015468 0.26293 0.094963 -0.0016179 0.0042985 0.00099524 0.0013441
0.0018861 0.00073264 0.0010334 0.00050115
0.0015409 0.0022533 -0.0015901 0.0043056 0.062414 -0.24569 0.00051828 -0.0022923
0.0025018 0.00041385 0.00065674 0.0017911
-0.0039235 0.0006149 0.0010164 0.0013244 0.0005071 -0.0022906 0.11181 -0.16805
0.00061476 0.003077 -0.0021056 0.0015228
0.0012819 0.0010253 0.001889 0.00071399 0.0024749 0.00041408 0.00061273 0.0030888
0.25364 0.0042216 0.0043593 -0.0026434
-0.00063609 -0.0005085 0.0010531 0.00048902 0.00068929 0.0017972 -0.0020549 0.0015229
0.0043755 -0.0026387 0.26543 0.028955
2000000000 0.13136 -0.18552 -0.0045531 0.0011418 0.0029346 0.001957 -0.0023428 0.0037829
0.0011448 0.00033609 -0.00050591 0.0005466
-0.0045419 0.0011441 0.24832 0.059487 -0.0010855 0.0063561 0.0017031 0.00051789
0.0014607 -0.00094502 0.00069248 0.00018347
0.0029232 0.0019386 -0.0010418 0.0063659 0.018539 -0.23198 -0.001079 -0.0014433
0.0020415 -0.0011143 0.0017175 0.0012981
-0.0023629 0.003793 0.0017029 0.00050967 -0.0010812 -0.0014872 0.058071 -0.17713
-0.0012252 0.0030294 -0.00051687 0.0022887
0.0011537 0.00031693 0.0014601 -0.00096711 0.0020748 -0.0011459 -0.0011765 0.0030172
0.24827 -0.029313 0.0010124 -0.0037947
