!Keysight Technologies,M9804A,MY58100912,A.14.10.03
!Date: Thursday, April 27, 2023 10:28:33
!Correction: S11(C  6-Port  ) 
!S12(C  6-Port  ) 
!S13(C  6-Port  ) 
!S14(C  6-Port  ) 
!S15(C  6-Port  ) 
!S16(C  6-Port  ) 
!S21(C  6-Port  ) 
!S22(C  6-Port  ) 
!S23(C  6-Port  ) 
!S24(C  6-Port  ) 
!S25(C  6-Port  ) 
!S26(C  6-Port  ) 
!S31(C  6-Port  ) 
!S32(C  6-Port  ) 
!S33(C  6-Port  ) 
!S34(C  6-Port  ) 
!S35(C  6-Port  ) 
!S36(C  6-Port  ) 
!S41(C  6-Port  ) 
!S42(C  6-Port  ) 
!S43(C  6-Port  ) 
!S44(C  6-Port  ) 
!S45(C  6-Port  ) 
!S46(C  6-Port  ) 
!S51(C  6-Port  ) 
!S52(C  6-Port  ) 
!S53(C  6-Port  ) 
!S54(C  6-Port  ) 
!S55(C  6-Port  ) 
!S56(C  6-Port  ) 
!S61(C  6-Port  ) 
!S62(C  6-Port  ) 
!S63(C  6-Port  ) 
!S64(C  6-Port  ) 
!S65(C  6-Port  ) 
!S66(C  6-Port  ) 
!S6P File: Measurement: :
# Hz S  RI   R 50
500000000 -0.33556 -0.059012 -0.011161 -0.0012153 -0.0093187 0.013902 -0.0048767 0.012431
0.013697 0.0051633 -0.0046546 0.0086178
-0.011121 -0.0012177 -0.41674 -0.068 0.0072076 -0.010282 0.0011154 0.01261
0.0074208 0.0030874 0.00076868 0.014538
-0.0092911 0.013899 0.007201 -0.010305 -0.27038 0.19695 0.006349 0.0039709
-0.0027594 0.0091675 -0.00040253 0.012367
-0.0048708 0.012462 0.0011323 0.012637 0.0063585 0.003979 -0.33236 0.042075
-0.020516 -0.0050832 0.016794 0.027228
0.01372 0.0051574 0.0074376 0.0030766 -0.0027564 0.009171 -0.020514 -0.0050825
-0.24366 -0.20458 -0.027997 0.0038696
-0.0046658 0.0086554 0.00078805 0.01454 -0.00040002 0.012356 0.016817 0.027221
-0.028024 0.0038637 -0.26985 -0.12674
560000000 -0.3209 0.1086 -0.02374 -0.065432 -7.2445e-05 0.013667 0.0049575 0.011561
0.0099758 0.0053781 0.010211 0.0083679
-0.023665 -0.065318 -0.37517 0.097911 -0.042622 -0.037811 0.014207 0.0039958
-0.012935 -0.0044163 0.0048648 -0.00072254
-4.1315e-05 0.013647 -0.042767 -0.037755 -0.18705 0.24978 2.9757e-05 -0.0043947
0.018649 0.0059224 0.0074903 -0.0054116
0.0049968 0.011527 0.014189 0.0039519 3.0035e-05 -0.0043962 -0.3078 0.13557
0.0054101 -0.023746 0.0051431 -0.020889
0.0099926 0.0054259 -0.013023 -0.004373 0.018644 0.0059332 0.0053992 -0.023741
-0.31327 -0.02352 0.0084229 -0.049173
0.01024 0.0084732 0.0048838 -0.00075833 0.0075096 -0.0053862 0.0051069 -0.020882
0.0084824 -0.049203 -0.33274 0.018922
620000000 -0.2796 0.088892 -0.023479 0.0095502 0.0046196 0.0098164 0.0076323 -0.0040826
0.013052 -0.00058666 -3.4523e-05 -0.0016689
-0.023464 0.009569 -0.40449 0.045616 -0.017833 0.0015305 -0.0016161 -0.0017658
0.01322 -0.0060192 0.00072047 -0.0030175
0.0046364 0.0098324 -0.017849 0.0015803 -0.15587 0.25991 -0.0002209 -0.0048575
-0.0032928 -0.00362 0.0099371 -0.002375
0.0075806 -0.004026 -0.0016288 -0.0017653 -0.00021906 -0.0048426 -0.26502 0.14508
-0.040331 -0.019767 0.014607 0.028574
0.013094 -0.00055578 0.013221 -0.006024 -0.0033051 -0.0035758 -0.040431 -0.019676
-0.22893 -0.056182 -0.043864 0.011085
-5.3218e-05 -0.001585 0.00070578 -0.0030384 0.0099237 -0.0023573 0.014593 0.028543
-0.043798 0.010973 -0.25105 -0.013269
680000000 -0.24193 0.18173 -0.026134 -0.014241 0.0054253 0.0052049 0.0016854 -0.0071235
-0.00088937 -0.01192 0.0058404 -0.0073354
-0.026127 -0.014239 -0.39105 0.14844 -0.031796 -0.0020916 -0.0012726 -0.00049909
-0.0011838 -0.0094582 -0.00047191 -0.0018823
0.0054316 0.005194 -0.031825 -0.0020105 -0.10393 0.28096 -0.00076241 -0.00067476
-0.0014327 -6.7941e-05 -0.0021278 -0.0089058
0.0016442 -0.0072037 -0.0012903 -0.00049951 -0.00076942 -0.00069182 -0.22064 0.19823
-0.023275 -0.0072326 -0.0093 -0.010583
-0.00093457 -0.011924 -0.0012052 -0.0094917 -0.0014203 -7.6851e-05 -0.023227 -0.0071964
-0.28357 0.048625 -0.0063545 -0.0067489
0.0057958 -0.0073932 -0.00048021 -0.0018948 -0.0021118 -0.0089375 -0.0092388 -0.010533
-0.0063647 -0.0067396 -0.26067 0.091073
740000000 -0.19378 0.17629 -0.039674 0.02758 0.014681 -0.0048805 -8.4638e-05 -0.0040762
-0.0036724 -0.0028082 -0.006666 0.002145
-0.039656 0.027532 -0.3346 0.16666 -0.036976 0.034891 3.0041e-05 -0.0066835
-0.012882 0.0077978 -0.0012088 -0.0065723
0.014676 -0.0049263 -0.036917 0.035046 -0.069227 0.27629 -0.0018899 0.0032887
-0.0028735 -0.0064007 -0.0011872 0.00089767
-7.1217e-05 -0.0040763 5.2526e-06 -0.0066754 -0.0018816 0.0032892 -0.20361 0.20421
-0.042313 -0.0081103 0.022939 0.016212
-0.0036743 -0.0027944 -0.012847 0.0078652 -0.0028511 -0.0063714 -0.042307 -0.0079856
-0.18231 0.078854 -0.041671 0.00053149
-0.0066785 0.0021652 -0.001232 -0.006585 -0.0012257 0.00092941 0.022888 0.016178
-0.041662 0.00046583 -0.2501 0.099768
800000000 -0.16309 0.22006 -0.021783 0.016494 0.0060686 -0.010704 -0.0043346 -0.0024012
-0.004946 0.0022989 0.0043002 0.00080467
-0.021769 0.01645 -0.34179 0.23739 -0.0083134 0.033851 -0.0024033 0.0020614
-0.001451 0.0022607 0.00079383 0.0057766
0.0060414 -0.010726 -0.0082312 0.033907 -0.031173 0.30039 0.00063096 0.001608
-0.00011553 0.0035018 -0.0016031 0.00099398
-0.0043797 -0.0023832 -0.0024172 0.0020864 0.00061884 0.0016141 -0.17403 0.23191
-0.027534 0.013438 0.013904 -0.010253
-0.0049024 0.0022944 -0.0014372 0.0022767 -9.937e-05 0.0035052 -0.027526 0.01348
-0.22533 0.10563 -0.015771 0.021038
0.0042402 0.00083289 0.00084236 0.0057853 -0.0016291 0.00097849 0.013969 -0.010246
-0.015756 0.02098 -0.24331 0.14769
860000000 -0.12746 0.23957 -0.017119 0.029982 -0.0026187 -0.010424 -0.0016877 0.00029016
0.0035954 0.0052981 -0.0041189 -0.0024951
-0.017097 0.029942 -0.29267 0.27985 0.0073945 0.034369 2.8992e-05 0.0020973
0.0031516 0.00088096 0.0031403 0.00050072
-0.0026467 -0.010414 0.0074912 0.034384 0.015809 0.30873 -0.00062728 9.348e-05
0.0022209 -0.001694 0.0017925 0.0041939
-0.001702 0.00028099 2.3903e-05 0.0021023 -0.00061982 8.0715e-05 -0.13671 0.24218
-0.017606 0.017866 -0.0058833 -0.0090529
0.0036324 0.0052804 0.0031697 0.00085033 0.0022167 -0.001692 -0.017598 0.017873
-0.16786 0.15787 -0.023584 0.017935
-0.0040871 -0.0024784 0.003136 0.00046919 0.0018123 0.0041983 -0.0059781 -0.0090391
-0.023554 0.017953 -0.19114 0.19157
920000000 -0.10448 0.26175 0.0049912 0.037858 -0.0092719 -0.0055581 -0.0021839 0.0014366
0.00082371 0.0021371 0.002901 -0.0011078
0.0049866 0.037805 -0.26654 0.30066 0.028152 0.022774 0.0012558 0.0013847
0.0078853 0.00032477 0.0046137 -0.0027508
-0.0092781 -0.0055279 0.028249 0.022707 0.060396 0.31017 0.0020298 0.00012092
0.0010455 -6.7013e-05 0.0010857 -0.001456
-0.0021755 0.0014296 0.0012484 0.0013928 0.0020264 0.0001224 -0.11278 0.25825
-0.010842 0.030412 0.0044484 -0.0068876
0.00083097 0.0021503 0.0079032 0.00029323 0.001041 -7.203e-05 -0.010779 0.030428
-0.1559 0.1626 -0.0014779 0.026927
0.002876 -0.0011332 0.0046132 -0.0027632 0.0010844 -0.0014622 0.0044644 -0.0068992
-0.0014718 0.026916 -0.1976 0.20513
980000000 -0.058475 0.28223 0.016571 0.029463 -0.0096949 0.0038199 0.0016493 0.0035259
0.0040375 -0.0014255 -0.0030138 -0.0022571
0.01656 0.029436 -0.2139 0.336 0.03341 0.0056316 0.0021861 -0.00013615
0.00226 -0.0062361 -5.257e-05 -0.0025676
-0.0096858 0.0038599 0.033461 0.0055096 0.10608 0.30542 0.00088801 -0.0011795
0.00071145 -0.0019486 0.001317 -0.00013962
0.0016747 0.0035316 0.0021769 -0.00014996 0.00088237 -0.0011795 -0.074346 0.26883
0.007679 0.029246 -0.0093048 -0.0073414
0.004029 -0.0014567 0.0022096 -0.0062389 0.00070734 -0.0019488 0.0077282 0.029253
-0.12208 0.19239 0.0056586 0.018976
-0.0030157 -0.0022409 -0.00010231 -0.0025804 0.0013103 -0.00013797 -0.0093061 -0.0073184
0.0056265 0.018975 -0.15761 0.24995
1040000000 -0.017797 0.29115 0.032586 0.018874 -0.0020227 0.0068624 0.0023903 0.0009188
0.0001567 -0.0034466 -0.00039608 -0.001737
0.03257 0.018853 -0.17922 0.34937 0.030215 -0.014538 0.0017858 -0.0018288
-0.0021832 -0.0028076 -0.0013517 -0.0029982
-0.0019897 0.0068813 0.03017 -0.014671 0.15204 0.29257 -0.00031781 -0.0017511
-0.0016833 -0.00098559 -0.00074552 -0.0010463
0.0024054 0.00090255 0.0017688 -0.0018152 -0.00032467 -0.0017519 -0.047696 0.2782
0.019061 0.018628 -0.0025592 0.00082972
0.0001423 -0.0034365 -0.0022201 -0.0027786 -0.0016894 -0.0009916 0.019108 0.018609
-0.089088 0.19935 0.014302 0.017878
-0.00040679 -0.0017167 -0.0013857 -0.0030043 -0.00075103 -0.0010434 -0.0025537 0.00083992
0.01432 0.017871 -0.13425 0.27014
1100000000 0.026573 0.30101 0.036286 -0.0034085 0.0024615 0.004237 0.0024486 -0.00075094
-0.0019365 -0.0029708 -0.0040417 -0.00014167
0.036259 -0.0033981 -0.1369 0.36822 0.01617 -0.028162 0.00019197 -0.0018835
-0.0037342 -0.0010735 -0.0035371 -0.0005687
0.0024838 0.0042368 0.016079 -0.028265 0.19823 0.27384 -0.0020475 1.7564e-05
-0.001946 0.0003667 -0.0013298 -0.00017506
0.0024617 -0.0007627 0.00018097 -0.001884 -0.0020545 1.314e-05 -0.0083968 0.28359
0.024739 0.0053064 -0.0028778 -0.0001095
-0.0019638 -0.002961 -0.0037586 -0.0010568 -0.0019521 0.00036811 0.024752 0.0052569
-0.069598 0.21275 0.020073 0.0085511
-0.0040554 -0.00012999 -0.0035417 -0.00056263 -0.0013241 -0.00017786 -0.0028685 -0.0001031
0.020054 0.0085457 -0.088701 0.29924
1160000000 0.077409 0.2975 0.024382 -0.020687 0.0024551 -0.00027537 0.00015958 -0.0021783
-0.0040907 -0.00093388 -0.0011568 0.0043199
0.024387 -0.020662 -0.093782 0.37347 -0.0033232 -0.029891 -0.0015584 -0.0017839
-0.0031869 0.002727 -0.0014955 0.0020112
0.0024455 -0.00027218 -0.0034688 -0.02992 0.24211 0.24382 -0.00097125 0.0017666
-0.00059507 0.0022095 -0.00085731 0.0003611
0.00016534 -0.0021802 -0.0015827 -0.0017719 -0.00096517 0.0017639 0.03046 0.28164
0.02125 -0.010377 -0.0035105 0.0050602
-0.0040883 -0.00088816 -0.00319 0.0027567 -0.00059212 0.002207 0.021246 -0.010404
-0.034933 0.21979 0.019068 -0.00072512
-0.0011227 0.0043515 -0.00149 0.0020264 -0.00085475 0.00036355 -0.0035193 0.005076
0.019076 -0.00072702 -0.041465 0.30248
1220000000 0.12093 0.28829 0.010894 -0.030294 -0.0017928 -0.00066951 0.00032134 -0.00092091
-0.0028156 0.0020898 0.00097309 0.0022101
0.010909 -0.030265 -0.049835 0.3873 -0.017222 -0.022296 -0.0027867 0.00038317
-0.00012077 0.0034193 -0.00088834 0.0020281
-0.0017889 -0.0006616 -0.017343 -0.022259 0.28114 0.20496 0.00069343 0.0019669
0.00067021 0.0014044 0.00051854 0.00061887
0.00032442 -0.00092196 -0.0027882 0.00040601 0.0006934 0.0019751 0.07034 0.27376
0.010937 -0.017321 0.0017865 0.0014509
-0.0028106 0.0021041 -0.00011237 0.0034282 0.00067571 0.0013964 0.010909 -0.017337
-0.012132 0.22816 0.014107 -0.013761
0.00099144 0.0022096 -0.0008824 0.0020372 0.00052237 0.00062611 0.0017962 0.00145
0.014104 -0.013749 -0.010152 0.31745
1280000000 0.17149 0.26901 -0.0080464 -0.028899 -0.0020587 0.0029236 -0.00069041 -0.0023445
-0.00093781 0.0032783 0.0026964 0.0014957
-0.0080293 -0.028861 -0.0033813 0.38019 -0.024784 -0.0091417 -0.0011383 0.0015194
0.001995 0.0020522 0.00072167 0.0021414
-0.0020518 0.0029294 -0.024867 -0.0090487 0.31174 0.16184 0.0017851 0.0001804
0.0014092 0.00022571 0.00047303 0.00011317
-0.00070871 -0.0023448 -0.0011326 0.001526 0.001791 0.00017669 0.10749 0.25858
0.00090823 -0.019791 -0.0002938 0.00052272
-0.00091346 0.0032853 0.002012 0.0020345 0.0014054 0.0002273 0.00087741 -0.019799
0.023442 0.23223 0.0029931 -0.016014
0.0026996 0.0014813 0.0007334 0.0021372 0.00046888 0.00010867 -0.0002995 0.00054626
0.0029802 -0.016002 0.036964 0.31988
1340000000 0.20912 0.23644 -0.017973 -0.019024 0.00096537 0.0051728 -0.0019398 -0.0010983
0.0013667 0.0028908 0.0021188 -0.0013648
-0.017943 -0.019021 0.036979 0.37282 -0.022505 0.0043337 -0.00014715 0.0022267
0.0023301 0.00072874 0.0013001 0.00085585
0.00098897 0.005171 -0.022517 0.0044479 0.33398 0.1145 0.0012865 -0.0010809
0.00080773 -0.00076463 -4.5082e-08 5.6137e-05
-0.0019448 -0.0010883 -0.00013593 0.0022287 0.0012782 -0.0010864 0.14136 0.23823
-0.0087937 -0.017083 0.00052232 0.00083005
0.0013809 0.002887 0.002336 0.00071146 0.00080079 -0.0007624 -0.0088292 -0.017071
0.052957 0.22805 -0.0045104 -0.014709
0.0021075 -0.001366 0.0013042 0.00084618 -2.2288e-06 6.5605e-05 0.0005243 0.00082104
-0.0045048 -0.014719 0.075016 0.3145
1400000000 0.24357 0.20022 -0.023784 -0.0071005 0.0058353 0.003642 -0.0024823 0.00061072
0.0024859 0.0011936 0.00047993 -0.0017463
-0.023747 -0.0071137 0.074895 0.36084 -0.015643 0.013126 0.0015347 0.0013746
0.0014122 -0.0010279 0.0012868 0.00010871
0.0058467 0.0036263 -0.015601 0.013223 0.34675 0.062093 0.00014676 -0.0018681
0.00010155 -0.0004385 0.00034164 0.0001938
-0.002484 0.00062065 0.0015402 0.0013708 0.0001407 -0.0018636 0.17117 0.20948
-0.01515 -0.010099 -0.00084203 0.00025282
0.0024919 0.0011772 0.0014056 -0.0010419 0.00010085 -0.00043964 -0.015169 -0.010073
0.085601 0.22462 -0.011248 -0.0091912
0.00046317 -0.0017439 0.0012917 0.00010763 0.00033686 0.00018996 -0.00085202 0.00027147
-0.011244 -0.0092096 0.11902 0.30396
1460000000 0.26798 0.15696 -0.020374 0.0053926 0.006449 -0.0017988 -0.0016522 0.0019331
0.0024211 -0.00031057 -0.0002955 -0.0012255
-0.020352 0.0053725 0.11045 0.33915 -0.0061058 0.016431 0.0018282 0.00012013
0.00084947 -0.0015416 0.0012417 -0.00059364
0.0064412 -0.0018174 -0.0060356 0.016485 0.35399 0.0088435 -0.0013777 -0.0014292
0.00010217 -0.00019476 0.00064438 -0.00033907
-0.0016389 0.0019382 0.0018307 0.00011418 -0.0013759 -0.0014264 0.19873 0.18005
-0.016372 -0.002903 -0.00065976 0.0023052
0.0024239 -0.00031826 0.000832 -0.001546 0.0001016 -0.0001893 -0.01639 -0.0028693
0.11543 0.21189 -0.012988 -0.0028816
-0.00030086 -0.0012338 0.0012521 -0.00058905 0.0006619 -0.00033252 -0.00065827 0.0022741
-0.013006 -0.0028801 0.15252 0.28377
1520000000 0.28148 0.11507 -0.01439 0.010699 0.0039251 -0.0047991 0.00015219 0.0027718
0.0023618 -0.0020221 -0.0014003 -0.00021025
-0.014393 0.010678 0.14438 0.32439 0.0021581 0.013846 0.0016904 -0.00087646
-0.00011491 -0.0011165 0.00035334 -0.0010618
0.0039093 -0.0048232 0.0022341 0.013854 0.34782 -0.04709 -0.001217 -0.0003196
0.00075457 -0.0008407 0.00014563 -0.00016494
0.00015644 0.002773 0.001687 -0.00088998 -0.001219 -0.00032017 0.22226 0.14119
-0.015495 0.0033679 0.0018862 0.0023391
0.0023467 -0.0020513 -0.0001356 -0.0011115 0.00075922 -0.00084282 -0.015495 0.0034006
0.14386 0.19906 -0.01269 0.0022175
-0.0014022 -0.00018471 0.00034959 -0.0010648 0.00014004 -0.00017788 0.0018633 0.0023479
-0.012696 0.0022129 0.18513 0.26313
1580000000 0.29232 0.068967 -0.0074714 0.013676 -0.00087463 -0.0056433 0.0016795 0.00193
1.3758e-05 -0.0024514 -0.0003568 0.0003504
-0.0074738 0.01366 0.17207 0.29989 0.0060288 0.0084573 0.00041425 -0.0016445
-0.0006231 -0.00094327 -0.00016984 -0.00094108
-0.00090131 -0.0056391 0.0060883 0.0084338 0.32887 -0.10438 -0.0016522 0.00071582
-0.00033001 -0.0012866 0.00016593 -0.00061967
0.0016877 0.0019151 0.00041346 -0.0016386 -0.0016437 0.00071609 0.2363 0.10158
-0.011631 0.0085089 0.0026659 0.00071523
6.5191e-06 -0.0024471 -0.00062168 -0.0009406 -0.00033841 -0.0012828 -0.011619 0.0085518
0.16901 0.18246 -0.0098137 0.0082228
-0.0003571 0.00035766 -0.0001835 -0.00093515 0.00017696 -0.00061343 0.002696 0.00068828
-0.0098114 0.0082124 0.21692 0.2375
1640000000 0.29523 0.026852 -0.00072001 0.012052 -0.0031989 -0.0030942 0.0027945 0.0010089
-0.00094319 -0.0018034 -0.00026648 0.0007534
-0.00073579 0.012049 0.20221 0.27476 0.00666 0.0031612 -0.00066723 -0.001779
-0.00094541 -0.00034946 -0.00054065 -0.00074966
-0.0032187 -0.0030807 0.006681 0.0031277 0.30117 -0.154 -0.00062348 0.0015802
-0.0012409 -0.0010439 -0.00022411 -0.00030872
0.0028028 0.00099929 -0.00068225 -0.0017719 -0.00061426 0.0015857 0.24884 0.051968
-0.0068041 0.0097203 0.00278 -0.0010273
-0.00095827 -0.0017951 -0.00095211 -0.00034398 -0.0012482 -0.0010411 -0.0067735 0.0097443
0.19364 0.15873 -0.0045671 0.010429
-0.00025594 0.00076561 -0.00055151 -0.00073929 -0.00022859 -0.00031682 0.0027485 -0.0010386
-0.0045664 0.010414 0.24277 0.20657
1700000000 0.28788 -0.018854 0.0024802 0.0089013 -0.004097 -0.00017691 0.003237 -0.0013767
-0.0022135 -0.00071815 0.0005919 0.0004429
0.0024739 0.0089057 0.22023 0.24336 0.0043689 -4.4699e-05 -0.0015103 -0.00060049
-0.0007399 -5.737e-05 -0.0010089 -0.00050812
-0.004099 -0.00015182 0.0043673 -7.0372e-05 0.25822 -0.19357 0.00053804 0.0016031
-0.0021198 -0.00012414 -0.00061652 -0.00082614
0.0032262 -0.001391 -0.0015177 -0.00059457 0.00054283 0.0015941 0.24502 0.0016565
-0.0036357 0.0098878 0.0017194 -0.0023889
-0.0022159 -0.00070974 -0.00074363 -4.8583e-05 -0.00213 -0.00012984 -0.0036221 0.0099088
0.21165 0.13874 0.000321 0.010528
0.0005993 0.00043641 -0.0010221 -0.00049313 -0.00061334 -0.00080613 0.001734 -0.0023904
0.00031743 0.010533 0.2591 0.17265
1760000000 0.27638 -0.067452 0.0045037 0.0054656 -0.0028248 0.0010805 0.001316 -0.0036035
-0.0014667 0.0007243 0.00023696 -0.0006818
0.004488 0.0054656 0.24689 0.20386 0.0016525 -0.0021159 -0.0012378 0.00020131
-0.0011339 0.00086553 -0.00070515 0.00034871
-0.0028113 0.001097 0.0016463 -0.0021157 0.21102 -0.22762 0.0010538 0.0010752
-0.0014038 0.0016701 -0.0013707 -0.00071695
0.0012891 -0.0036042 -0.0012332 0.00020292 0.0010514 0.0010775 0.2361 -0.049729
-0.00029678 0.0086635 -0.00014925 -0.0028521
-0.0014718 0.00073832 -0.0011267 0.00086699 -0.0013986 0.0016722 -0.00026423 0.0086689
0.22785 0.10423 0.0047286 0.0077742
0.00022598 -0.00069164 -0.00070405 0.00036079 -0.0013484 -0.00070963 -0.00017436 -0.0028516
0.0047322 0.007775 0.27254 0.13554
1820000000 0.25189 -0.10516 0.0043175 0.00197 -0.00038114 0.0028194 -0.001143 -0.0032723
-0.0011392 0.0010703 -0.00018802 -9.2836e-05
0.004314 0.0019714 0.25719 0.17351 -0.00099522 -0.00062386 -0.0013624 0.00090863
-0.00018516 0.0011805 -0.00070634 0.00063616
-0.0003636 0.0028216 -0.00099796 -0.00062714 0.15907 -0.24412 0.0015943 0.000445
-0.00016113 0.0025587 -0.0015429 0.00063081
-0.0011645 -0.0032715 -0.0013606 0.00091065 0.0016006 0.00045665 0.20553 -0.097445
0.0013196 0.0068559 -0.0017828 -0.0018342
-0.0011246 0.0010778 -0.00017821 0.0011777 -0.00016471 0.0025658 0.0013156 0.006849
0.24588 0.074808 0.0057021 0.0039118
-0.00019883 -8.5415e-05 -0.00071051 0.00064171 -0.0015532 0.00064198 -0.0017845 -0.001835
0.0056901 0.0038882 0.27536 0.099236
1880000000 0.21671 -0.14515 0.0016799 -0.0001466 -0.0007607 0.0026523 -0.0030373 -0.0022196
-0.00016167 0.0018725 0.00015633 -0.00043927
0.0016789 -0.00014033 0.2617 0.12718 -0.0031998 0.0015009 -0.00023884 0.0017496
0.00040729 0.0013673 9.7832e-05 0.0010745
-0.00074059 0.0026529 -0.0031947 0.0015189 0.10674 -0.25285 0.0018025 -0.00097842
0.0016426 0.001921 -0.00096825 0.0015338
-0.0030452 -0.0021963 -0.00022742 0.001752 0.0018066 -0.00097184 0.16481 -0.13703
0.0018313 0.0046577 -0.0024157 -9.7239e-05
-0.00014592 0.0018821 0.0004183 0.0013657 0.0016416 0.001924 0.0018632 0.004666
0.25009 0.043238 0.0063359 0.001183
0.00013721 -0.0004076 0.0001069 0.0010926 -0.00097754 0.0015309 -0.0023806 -7.8486e-05
0.006335 0.0012065 0.27555 0.065772
1940000000 0.17765 -0.17106 -0.00076696 -0.0015515 0.0015111 0.0022644 -0.00392 0.00057897
0.0012799 0.0010212 -0.00064704 -0.00048572
-0.00076592 -0.0015472 0.26291 0.094993 -0.0016268 0.0042897 0.00098872 0.0013352
0.0018937 0.00073297 0.0010385 0.00050358
0.0015374 0.0022606 -0.0015941 0.0043054 0.062446 -0.24569 0.00053914 -0.0023168
0.0025132 0.00042009 0.00063949 0.0017876
-0.0039248 0.00060645 0.001007 0.0013277 0.00053906 -0.0023168 0.11176 -0.16815
0.00061148 0.0030165 -0.0020881 0.0015795
0.0013035 0.0010173 0.001899 0.00071753 0.0025148 0.00040495 0.00060359 0.0030116
0.25362 0.0042414 0.0043113 -0.0025926
-0.00065316 -0.00050146 0.0010389 0.00048331 0.00063928 0.0017892 -0.0021158 0.0015573
0.0043034 -0.0026375 0.26549 0.028964
2000000000 0.13137 -0.18551 -0.0045382 0.0011404 0.0029023 0.0019667 -0.0023923 0.0037769
0.0011347 0.0003268 -0.00047442 0.00057691
-0.0045344 0.0011427 0.24835 0.05952 -0.0010884 0.0063593 0.0017037 0.00053285
0.0014693 -0.00093943 0.0007031 0.00016791
0.0029135 0.0019532 -0.001049 0.006376 0.018556 -0.23195 -0.0010993 -0.0014554
0.0020404 -0.0011061 0.0017334 0.0012872
-0.0023683 0.0038034 0.0017121 0.00052308 -0.001096 -0.0014605 0.058055 -0.17697
-0.0012617 0.003098 -0.00043534 0.002187
0.0011293 0.00032881 0.001458 -0.00096226 0.0020318 -0.001109 -0.0012516 0.0031271
0.24822 -0.029243 0.0011299 -0.003804
