!Keysight Technologies,M9804A,MY58100912,A.14.10.03
!Date: Thursday, April 27, 2023 10:28:33
!Correction: S11(C  6-Port  ) 
!S12(C  6-Port  ) 
!S13(C  6-Port  ) 
!S14(C  6-Port  ) 
!S15(C  6-Port  ) 
!S16(C  6-Port  ) 
!S21(C  6-Port  ) 
!S22(C  6-Port  ) 
!S23(C  6-Port  ) 
!S24(C  6-Port  ) 
!S25(C  6-Port  ) 
!S26(C  6-Port  ) 
!S31(C  6-Port  ) 
!S32(C  6-Port  ) 
!S33(C  6-Port  ) 
!S34(C  6-Port  ) 
!S35(C  6-Port  ) 
!S36(C  6-Port  ) 
!S41(C  6-Port  ) 
!S42(C  6-Port  ) 
!S43(C  6-Port  ) 
!S44(C  6-Port  ) 
!S45(C  6-Port  ) 
!S46(C  6-Port  ) 
!S51(C  6-Port  ) 
!S52(C  6-Port  ) 
!S53(C  6-Port  ) 
!S54(C  6-Port  ) 
!S55(C  6-Port  ) 
!S56(C  6-Port  ) 
!S61(C  6-Port  ) 
!S62(C  6-Port  ) 
!S63(C  6-Port  ) 
!S64(C  6-Port  ) 
!S65(C  6-Port  ) 
!S66(C  6-Port  ) 
!S6P File: Measurement: :
# Hz S  RI   R 50
500000000 -0.33547 -0.059478 -0.011133 -0.0014123 -0.0093253 0.013776 -0.0050959 0.012421
0.013885 0.0050084 -0.0049952 0.0084928
-0.011116 -0.0013859 -0.41669 -0.068314 0.0072302 -0.010374 0.0010012 0.012657
0.0074958 0.0030081 0.00066203 0.014495
-0.0092748 0.013806 0.0072338 -0.010405 -0.27046 0.19666 0.0062651 0.0041717
-0.0027585 0.0090954 -0.00055682 0.012438
-0.0050504 0.012431 0.0010328 0.012697 0.0062655 0.0041754 -0.33211 0.041902
-0.0206 -0.005142 0.017068 0.027271
0.01387 0.0050088 0.0075061 0.0029962 -0.0027651 0.0091022 -0.020584 -0.0051458
-0.24349 -0.20478 -0.027973 0.003698
-0.0049269 0.008457 0.00069696 0.014518 -0.00055019 0.012447 0.017047 0.027225
-0.027939 0.0037048 -0.26957 -0.12716
560000000 -0.32055 0.10859 -0.023407 -0.0655 0.00014417 0.01377 0.0050609 0.011351
0.0095565 0.005544 0.010298 0.0083586
-0.02339 -0.065396 -0.37514 0.097782 -0.042664 -0.03784 0.01429 0.0039522
-0.013076 -0.0048588 0.0048498 -0.00072875
0.00017067 0.01376 -0.042801 -0.037787 -0.18691 0.24966 -7.4265e-05 -0.0045611
0.018644 0.0059916 0.0075274 -0.0055249
0.0051098 0.011351 0.014297 0.0039215 -8.2173e-05 -0.0045832 -0.3077 0.13573
0.0055403 -0.023954 0.0053056 -0.020733
0.0096086 0.0054882 -0.01313 -0.0048403 0.01867 0.0060081 0.0055277 -0.023956
-0.3129 -0.02343 0.0085642 -0.04942
0.010339 0.0083658 0.0048511 -0.00078521 0.0075235 -0.0055339 0.0053275 -0.020714
0.0085924 -0.04944 -0.33244 0.018693
620000000 -0.2794 0.088291 -0.023453 0.0096033 0.0045547 0.0099125 0.0075644 -0.0039317
0.013009 -0.00051327 -7.5797e-06 -0.0012215
-0.023445 0.009572 -0.40454 0.045467 -0.017889 0.001601 -0.0017053 -0.0016775
0.013366 -0.0060198 0.00068014 -0.0027752
0.0045773 0.0099004 -0.017907 0.0016557 -0.15597 0.25986 -0.0004324 -0.004795
-0.002949 -0.0035192 0.0099895 -0.0020701
0.0075606 -0.00392 -0.0017213 -0.0016639 -0.00041901 -0.0047739 -0.2654 0.14515
-0.040141 -0.019761 0.014275 0.028763
0.012989 -0.00050056 0.013356 -0.0060499 -0.0029529 -0.0035211 -0.040156 -0.01975
-0.22873 -0.056579 -0.043334 0.011025
-6.9604e-05 -0.0011774 0.00067497 -0.0027902 0.010003 -0.0020826 0.014247 0.02872
-0.043328 0.010991 -0.25057 -0.013478
680000000 -0.24199 0.18165 -0.02623 -0.014398 0.0053005 0.0050464 0.0015786 -0.0071836
-0.0010288 -0.011953 0.0058777 -0.0075835
-0.02617 -0.0144 -0.39115 0.14824 -0.031841 -0.0022107 -0.0012586 -0.00064009
-0.0013385 -0.0094283 -0.00062783 -0.0019746
0.0053399 0.0050369 -0.03189 -0.0021265 -0.10402 0.28073 -0.00073476 -0.00082443
-0.0015989 -3.3229e-05 -0.0021543 -0.0090989
0.0015703 -0.0072011 -0.0012646 -0.00064883 -0.00073837 -0.00082964 -0.2207 0.1981
-0.023182 -0.0072804 -0.0090921 -0.010644
-0.0010616 -0.011989 -0.0013708 -0.0094316 -0.0016053 -3.6032e-05 -0.023186 -0.0072537
-0.28368 0.048429 -0.0066408 -0.0070239
0.005896 -0.0076445 -0.00063916 -0.0019763 -0.0021606 -0.0090975 -0.0090856 -0.0106
-0.0066292 -0.0070151 -0.26064 0.090456
740000000 -0.19398 0.17623 -0.039797 0.027452 0.014804 -0.004885 -8.5315e-05 -0.004052
-0.0037758 -0.0027346 -0.0064234 0.0023093
-0.039763 0.027414 -0.33462 0.16647 -0.036889 0.034954 -2.1252e-05 -0.0065685
-0.012808 0.0075494 -0.0012514 -0.0063506
0.014822 -0.0049006 -0.036862 0.035105 -0.069231 0.27631 -0.0018417 0.0034394
-0.0026162 -0.0065795 -0.0012185 0.0011242
-8.6377e-05 -0.004043 -2.852e-05 -0.0066048 -0.0018184 0.0034339 -0.20386 0.20429
-0.041911 -0.0082195 0.022569 0.016488
-0.0037937 -0.002723 -0.012761 0.0076122 -0.002648 -0.0065657 -0.04196 -0.0081628
-0.1832 0.078757 -0.040855 0.00041287
-0.0064623 0.0023426 -0.001287 -0.0063558 -0.0012348 0.0011099 0.02256 0.016437
-0.040847 0.00039417 -0.25081 0.099639
800000000 -0.16297 0.21975 -0.021779 0.016386 0.0060677 -0.010707 -0.0041935 -0.0023596
-0.0050473 0.0020237 0.0043593 0.00089965
-0.02177 0.01638 -0.34192 0.23724 -0.0083521 0.033828 -0.0024094 0.0020211
-0.0014738 0.002274 0.00078904 0.0056795
0.0060248 -0.010708 -0.0082545 0.033892 -0.031341 0.30036 0.00061015 0.0015878
-7.7765e-05 0.0035053 -0.0017674 0.00092212
-0.0042112 -0.0023532 -0.0024086 0.0020385 0.00060533 0.0016102 -0.17402 0.23181
-0.027528 0.0134 0.013963 -0.010527
-0.0050268 0.0020353 -0.0014765 0.0022747 -8.4343e-05 0.0035069 -0.027529 0.013456
-0.22562 0.10523 -0.015768 0.021202
0.0043151 0.00086682 0.00079383 0.0056816 -0.0017542 0.00092472 0.013992 -0.010527
-0.015788 0.021172 -0.24346 0.14649
860000000 -0.12754 0.23944 -0.017107 0.030016 -0.0026119 -0.010472 -0.0016632 0.00026021
0.0035851 0.0053403 -0.0039955 -0.0026505
-0.017126 0.029997 -0.2928 0.27977 0.0073528 0.034415 -5.1768e-05 0.0020923
0.003177 0.00093948 0.0030301 0.0004716
-0.0026472 -0.010465 0.0074824 0.034419 0.015753 0.30866 -0.00058882 0.00013852
0.0022841 -0.0016785 0.001917 0.0042218
-0.001662 0.00026206 -4.4493e-05 0.0021015 -0.0005869 0.00013197 -0.13683 0.24224
-0.017599 0.017856 -0.0059537 -0.0087728
0.0036295 0.0053254 0.0031895 0.00093863 0.0022871 -0.0016798 -0.017596 0.017902
-0.16788 0.15778 -0.023624 0.018012
-0.0039708 -0.0026401 0.0030409 0.00044978 0.0019199 0.0042235 -0.0059871 -0.0087817
-0.023621 0.018011 -0.19124 0.19196
920000000 -0.10473 0.26163 0.0050129 0.037912 -0.0092307 -0.005561 -0.0022237 0.0014058
0.00078404 0.0021279 0.0029134 -0.0010565
0.0049883 0.037883 -0.26664 0.30054 0.028127 0.022785 0.0012571 0.0013253
0.0078697 0.00037705 0.0046947 -0.0028676
-0.0092565 -0.0055211 0.028246 0.022704 0.060294 0.31012 0.0020097 0.00010311
0.0010792 -5.4729e-05 0.0010774 -0.0014684
-0.0022198 0.0014101 0.0012667 0.0013398 0.0020153 0.0001143 -0.11282 0.25813
-0.010967 0.03042 0.0044737 -0.0070117
0.00080103 0.0021111 0.0079033 0.00034001 0.0010679 -6.4629e-05 -0.010914 0.030451
-0.15592 0.16238 -0.0016974 0.027025
0.002866 -0.0010725 0.0046781 -0.002887 0.0010775 -0.0014693 0.0044654 -0.0070223
-0.0017129 0.027008 -0.19779 0.20459
980000000 -0.058566 0.28214 0.016553 0.029471 -0.0097077 0.0038527 0.0016416 0.0035108
0.0040395 -0.0014309 -0.0030493 -0.0023315
0.016511 0.029463 -0.21407 0.33593 0.033397 0.0056441 0.0021633 -0.00016121
0.002302 -0.0062356 -0.00011951 -0.0025441
-0.0097092 0.003883 0.033475 0.0055342 0.10598 0.30541 0.00088541 -0.0011889
0.00072643 -0.001917 0.0012857 -0.00012218
0.0016443 0.0035007 0.0021663 -0.00015802 0.000878 -0.0011892 -0.07439 0.26881
0.007664 0.029253 -0.0093028 -0.0073232
0.0040566 -0.0014529 0.0022642 -0.006254 0.00072255 -0.0019182 0.0077252 0.029251
-0.12217 0.1922 0.0055927 0.019088
-0.003039 -0.0023194 -0.00014824 -0.0025651 0.0012918 -0.00012258 -0.0093051 -0.0073216
0.0055824 0.019086 -0.15798 0.24969
1040000000 -0.017964 0.29114 0.032619 0.018894 -0.0019759 0.0068874 0.0023958 0.00094544
0.00016065 -0.0034207 -0.00033413 -0.0016826
0.03257 0.018912 -0.17939 0.34939 0.030189 -0.014498 0.0017631 -0.0018364
-0.0021972 -0.0027689 -0.0013734 -0.003041
-0.0019663 0.0069034 0.030194 -0.014669 0.15197 0.29253 -0.00030605 -0.0017529
-0.0016848 -0.00096135 -0.00072309 -0.00107
0.0023921 0.00092949 0.0017791 -0.0018322 -0.00031417 -0.0017512 -0.047785 0.2782
0.01901 0.018592 -0.0025265 0.00083912
0.00014807 -0.0034265 -0.0022201 -0.0027565 -0.0016924 -0.00098105 0.01906 0.018565
-0.089267 0.1992 0.014178 0.017943
-0.00032789 -0.0016679 -0.0014093 -0.0030504 -0.00072594 -0.0010765 -0.0025315 0.00086116
0.014162 0.017938 -0.13445 0.26974
1100000000 0.026422 0.301 0.036304 -0.0033588 0.0024791 0.0042611 0.0024701 -0.00076603
-0.0019004 -0.0029453 -0.0041367 -0.0001559
0.036267 -0.0033391 -0.13702 0.36821 0.016181 -0.028157 0.0001766 -0.0018849
-0.0037046 -0.0010947 -0.0035742 -0.00058816
0.0024855 0.0042573 0.016097 -0.028261 0.19811 0.27385 -0.0020592 6.3144e-06
-0.0019455 0.00033806 -0.0013409 -0.0001666
0.0024725 -0.00078178 0.00017902 -0.0018848 -0.0020517 1.3496e-05 -0.008437 0.28361
0.024744 0.0053926 -0.002859 -0.00012613
-0.001906 -0.0029486 -0.0037138 -0.0010735 -0.0019481 0.00032874 0.024749 0.0053543
-0.069945 0.21266 0.020225 0.0086587
-0.0041406 -0.00014167 -0.003586 -0.00057379 -0.0013421 -0.00016677 -0.0028472 -0.00011788
0.020212 0.0086708 -0.089186 0.2991
1160000000 0.077286 0.29751 0.024452 -0.020648 0.0024825 -0.0002852 0.00014206 -0.0021651
-0.0041162 -0.00093477 -0.0011034 0.0043588
0.024446 -0.020602 -0.093897 0.37349 -0.0033084 -0.02989 -0.001574 -0.001777
-0.0032045 0.0027469 -0.0014724 0.0020045
0.0024759 -0.00029164 -0.0034324 -0.029931 0.24201 0.24387 -0.00097403 0.0017675
-0.00059628 0.0022492 -0.00087574 0.00037524
0.00013795 -0.0021772 -0.001569 -0.0017656 -0.00097123 0.0017634 0.030361 0.28166
0.021253 -0.010412 -0.0035026 0.0051404
-0.004125 -0.00090844 -0.0031966 0.0027797 -0.00059429 0.0022429 0.02126 -0.010442
-0.035086 0.21961 0.018947 -0.00073425
-0.0010829 0.0043808 -0.0014813 0.0020108 -0.0008816 0.00038736 -0.0035045 0.0051521
0.018953 -0.00072741 -0.041639 0.30239
1220000000 0.1208 0.28833 0.010957 -0.030307 -0.0017767 -0.00067554 0.00031421 -0.00093016
-0.0028348 0.0020575 0.00093179 0.0022542
0.01097 -0.030255 -0.049923 0.38724 -0.017205 -0.022318 -0.0027992 0.00039713
-0.00012675 0.0034022 -0.00090598 0.002071
-0.0017857 -0.00066993 -0.017319 -0.022272 0.28103 0.20498 0.00069373 0.0019814
0.00065431 0.0014064 0.00052897 0.00063536
0.00030871 -0.00094308 -0.0027966 0.0004249 0.00069371 0.0019837 0.070287 0.2737
0.010964 -0.017308 0.0017458 0.0013927
-0.0028222 0.0020769 -0.00011324 0.0034136 0.00066411 0.0014111 0.010942 -0.017318
-0.012414 0.22817 0.014195 -0.013791
0.00093352 0.002246 -0.00090272 0.0020686 0.00052786 0.0006302 0.0017562 0.0013834
0.014189 -0.01378 -0.010593 0.3174
1280000000 0.1714 0.26909 -0.0080109 -0.028921 -0.0020655 0.0028966 -0.00070491 -0.0023144
-0.00094554 0.0032635 0.002729 0.0015291
-0.0079793 -0.028891 -0.0034971 0.38015 -0.024784 -0.0091609 -0.0011282 0.0015304
0.0019956 0.0020626 0.00069888 0.0020995
-0.0020625 0.0029054 -0.024859 -0.0090585 0.31165 0.16193 0.00179 0.00018368
0.0013862 0.00023244 0.00046705 0.00012114
-0.00071351 -0.0023199 -0.0011356 0.0015331 0.0017802 0.00018975 0.10743 0.25859
0.00096003 -0.019826 -0.00031694 0.00059611
-0.00092751 0.003282 0.0020185 0.0020466 0.001394 0.00023112 0.0009185 -0.019823
0.023342 0.23228 0.0029307 -0.016042
0.0027465 0.0015102 0.00070915 0.0021083 0.00047318 0.00011761 -0.00032562 0.00059916
0.0029512 -0.016044 0.03688 0.31998
1340000000 0.20904 0.23652 -0.01796 -0.019087 0.00095782 0.0051667 -0.0019551 -0.0010935
0.0013727 0.0028769 0.0020899 -0.0013143
-0.017914 -0.019077 0.036888 0.37278 -0.022516 0.0043002 -0.00014063 0.0022293
0.0023198 0.00072176 0.0012991 0.00084759
0.00097796 0.0051587 -0.022525 0.0044276 0.33394 0.11457 0.0012764 -0.0010831
0.00079865 -0.00075177 3.1764e-06 8.7509e-05
-0.0019555 -0.0010751 -0.00013441 0.0022329 0.0012789 -0.00108 0.14133 0.23822
-0.0087389 -0.017009 0.00055613 0.00075712
0.0013909 0.0028676 0.0023297 0.00070915 0.00080127 -0.0007592 -0.0087814 -0.016988
0.052644 0.22812 -0.0044054 -0.014694
0.0020892 -0.0013294 0.0013007 0.00083903 3.1954e-06 8.8237e-05 0.00056644 0.00076287
-0.0043926 -0.01469 0.074814 0.31448
1400000000 0.24351 0.20028 -0.023788 -0.0071547 0.0058243 0.0036371 -0.0024814 0.00061497
0.0024743 0.0011915 0.00047697 -0.0017434
-0.023752 -0.0071694 0.074766 0.3608 -0.015663 0.013097 0.0015134 0.0013726
0.00142 -0.0010491 0.0012711 0.00012973
0.0058419 0.0036154 -0.015622 0.013201 0.3467 0.06217 0.00013469 -0.0018593
0.0001266 -0.00042468 0.00031476 0.00020129
-0.0024826 0.00062311 0.0015291 0.0013701 0.00012865 -0.0018552 0.17112 0.20951
-0.015111 -0.010129 -0.00086434 0.00028997
0.002494 0.0011732 0.001414 -0.0010523 0.00012261 -0.00042634 -0.015128 -0.010083
0.08546 0.22468 -0.01127 -0.0092924
0.00046174 -0.0017498 0.0012651 0.00012438 0.00031542 0.00020243 -0.0008755 0.00028483
-0.011255 -0.0092955 0.11881 0.3042
1460000000 0.26794 0.15702 -0.020402 0.0053511 0.0064414 -0.001802 -0.0016692 0.0019461
0.0024232 -0.00030411 -0.00029419 -0.0011878
-0.020388 0.0053372 0.11032 0.33917 -0.0061029 0.016445 0.0018452 0.00010854
0.00084933 -0.0015327 0.0012467 -0.00060169
0.0064423 -0.0018331 -0.0060394 0.016501 0.354 0.0089366 -0.001374 -0.0014407
8.4196e-05 -0.00019585 0.00064124 -0.00034802
-0.0016563 0.0019587 0.0018464 0.00010134 -0.0013684 -0.0014462 0.19868 0.1801
-0.016358 -0.0028921 -0.0006563 0.0022723
0.0024257 -0.00033364 0.00083145 -0.0015464 8.5074e-05 -0.0001942 -0.016385 -0.0028426
0.11523 0.21198 -0.012882 -0.0028711
-0.00031323 -0.0011845 0.0012418 -0.00061419 0.00064245 -0.0003504 -0.00062894 0.00229
-0.012876 -0.0028806 0.15224 0.28378
1520000000 0.28142 0.11513 -0.014429 0.010684 0.0039215 -0.0047906 0.00014735 0.002758
0.0023754 -0.0020192 -0.0014227 -0.00020098
-0.014429 0.010659 0.14425 0.32442 0.0021367 0.013844 0.0016781 -0.00087044
-0.00011321 -0.0011068 0.00036077 -0.0010476
0.0039018 -0.0048061 0.0022153 0.013849 0.34778 -0.047029 -0.0012284 -0.00029258
0.00075824 -0.00082781 0.00016929 -0.00015731
0.00015436 0.0027557 0.0016799 -0.00088276 -0.0012311 -0.00029366 0.22222 0.14126
-0.015505 0.0033294 0.0018561 0.0023507
0.0023781 -0.00204 -0.00012746 -0.0011149 0.00075344 -0.00083052 -0.015494 0.0033746
0.14376 0.19913 -0.012697 0.0021476
-0.0014346 -0.00019679 0.00036075 -0.0010544 0.00016891 -0.00015945 0.0018644 0.002339
-0.012696 0.0021402 0.18491 0.26331
1580000000 0.29227 0.069041 -0.0075053 0.01368 -0.00088513 -0.0056193 0.0016759 0.0019355
1.6096e-05 -0.0024319 -0.00033031 0.00034424
-0.0075027 0.013661 0.17195 0.29996 0.006011 0.0084741 0.00044754 -0.0016515
-0.00061158 -0.00093287 -0.00019559 -0.00095003
-0.00091578 -0.0056233 0.006067 0.0084488 0.3289 -0.1043 -0.0016332 0.00069541
-0.00033567 -0.0012975 0.00017132 -0.00060657
0.001687 0.0019202 0.00042892 -0.0016548 -0.001635 0.00070372 0.23627 0.10162
-0.01166 0.0084907 0.0027083 0.00070306
-1.5338e-05 -0.0024497 -0.00061285 -0.0009322 -0.0003366 -0.0012961 -0.011644 0.0085167
0.16888 0.18252 -0.0097842 0.0082661
-0.00032555 0.0003529 -0.00020169 -0.00095288 0.00016701 -0.00060823 0.002713 0.00070283
-0.0097837 0.0082653 0.21673 0.23758
1640000000 0.29517 0.026912 -0.00074414 0.012068 -0.0031984 -0.0030994 0.0027997 0.0010024
-0.00093643 -0.0018068 -0.00026873 0.00074862
-0.00075287 0.012059 0.2021 0.27482 0.0066501 0.0031651 -0.00065915 -0.0017663
-0.00094238 -0.00034524 -0.00053968 -0.00075789
-0.003219 -0.003086 0.0066756 0.0031311 0.30119 -0.15393 -0.00063549 0.0015841
-0.0012019 -0.0010404 -0.00025937 -0.00031837
0.0028087 0.0009837 -0.00066715 -0.0017621 -0.00063498 0.0015798 0.24884 0.051995
-0.0067931 0.0096909 0.002716 -0.00099531
-0.00095297 -0.0017962 -0.00094646 -0.00034192 -0.0012035 -0.0010368 -0.0067656 0.0097257
0.19351 0.15885 -0.0046043 0.010379
-0.00027141 0.00074676 -0.00054967 -0.00075002 -0.00026128 -0.00031908 0.0027142 -0.0010112
-0.0046151 0.010376 0.24267 0.2068
1700000000 0.28784 -0.018764 0.002479 0.008921 -0.0040758 -0.0001731 0.0032294 -0.0013865
-0.0022126 -0.00073589 0.00058481 0.00043906
0.002473 0.0089174 0.22015 0.24344 0.0043638 -4.5237e-05 -0.0015225 -0.00061992
-0.00075174 -6.6331e-05 -0.0010223 -0.00048567
-0.0040863 -0.00015072 0.0043714 -7.3205e-05 0.25821 -0.19352 0.00054845 0.0015773
-0.0021285 -0.00014185 -0.00062985 -0.00081581
0.0032219 -0.0014049 -0.0015329 -0.00061172 0.00052868 0.0015784 0.24501 0.0017231
-0.0036843 0.0098937 0.0017734 -0.0023939
-0.0022212 -0.00071481 -0.00074858 -6.5261e-05 -0.0021309 -0.00012671 -0.0036611 0.0098992
0.21151 0.13879 0.00031418 0.010523
0.00060204 0.00043903 -0.001035 -0.000485 -0.00064288 -0.00081071 0.0017631 -0.0024022
0.00031867 0.010522 0.25893 0.17276
1760000000 0.27634 -0.067348 0.0045028 0.0054883 -0.0028069 0.0010736 0.0013039 -0.0035942
-0.0014863 0.00072027 0.00024555 -0.00066094
0.0045001 0.0054842 0.24682 0.20394 0.0016638 -0.002097 -0.0012295 0.00019925
-0.0011224 0.0008632 -0.00070067 0.00034669
-0.0028132 0.0011061 0.0016576 -0.002113 0.21106 -0.22753 0.0010479 0.0010681
-0.0014043 0.001672 -0.0013403 -0.00071615
0.0012888 -0.0036125 -0.0012352 0.0002109 0.0010484 0.0010683 0.23609 -0.049711
-0.00028828 0.0086337 -0.00018282 -0.0028195
-0.0014669 0.00072382 -0.0011121 0.00088186 -0.0013986 0.0016721 -0.00028408 0.0086366
0.22775 0.10436 0.0047105 0.0077581
0.0002188 -0.00066677 -0.00069657 0.00035352 -0.0013439 -0.0007067 -0.00018208 -0.0028054
0.0047056 0.0077487 0.27245 0.13571
1820000000 0.2519 -0.105 0.0043268 0.0020009 -0.00035391 0.0028142 -0.001101 -0.003272
-0.0011362 0.001074 -0.00017786 -0.00011784
0.0043237 0.001998 0.25713 0.17356 -0.0010008 -0.0006377 -0.0013704 0.00090116
-0.00018735 0.001164 -0.00071553 0.00063848
-0.00034066 0.0028165 -0.0010025 -0.00062354 0.15908 -0.2441 0.001587 0.00043409
-0.00018046 0.0025495 -0.0015557 0.00065435
-0.0011208 -0.003259 -0.0013772 0.00090856 0.0015869 0.00044499 0.20556 -0.097431
0.0012589 0.0068921 -0.0017504 -0.0018458
-0.0011216 0.0010987 -0.00018189 0.0011768 -0.00016027 0.002564 0.0012987 0.0068834
0.24565 0.074959 0.0057155 0.0038855
-0.00017476 -0.00011777 -0.00071877 0.00065278 -0.0015516 0.00066016 -0.0017574 -0.0018558
0.0057237 0.0038866 0.2752 0.099415
1880000000 0.21671 -0.14504 0.0016838 -0.00013417 -0.00076038 0.0026256 -0.0031018 -0.0021938
-0.00020034 0.001877 0.00017069 -0.00036624
0.0016868 -0.00013956 0.26167 0.12725 -0.0031935 0.0014824 -0.00023692 0.0017649
0.00042052 0.0013752 7.6931e-05 0.0010886
-0.00075502 0.0026321 -0.0031886 0.0015176 0.10674 -0.25279 0.0018342 -0.00097897
0.0016503 0.0019197 -0.00098973 0.0014834
-0.0030952 -0.0021822 -0.00021277 0.0017549 0.0018273 -0.00097525 0.16481 -0.13699
0.0018724 0.0046099 -0.0024079 -4.6425e-05
-0.00018536 0.0018726 0.00043763 0.0013683 0.0016593 0.0019223 0.0018608 0.0046099
0.25005 0.043346 0.0062483 0.0012255
0.00014796 -0.00035922 8.8262e-05 0.0010808 -0.00097976 0.0014956 -0.0024012 -8.6691e-06
0.0062386 0.0012287 0.27546 0.065813
1940000000 0.1777 -0.17097 -0.00074761 -0.0015571 0.0015198 0.0022373 -0.0039096 0.0005384
0.0013138 0.0010027 -0.00069564 -0.00051366
-0.00074862 -0.0015575 0.26288 0.095061 -0.0016213 0.004298 0.0009809 0.0013163
0.0018692 0.00071158 0.0010291 0.00053273
0.0015276 0.0022298 -0.0015913 0.0043194 0.062527 -0.24559 0.0004875 -0.0023199
0.0024548 0.00039265 0.00064075 0.0018533
-0.0039046 0.00056028 0.00099411 0.0013201 0.00047739 -0.0023144 0.11175 -0.1681
0.00054851 0.003069 -0.0021274 0.0015314
0.0013245 0.00098954 0.0018857 0.0006985 0.0024604 0.00039469 0.00058037 0.0030673
0.2535 0.0044099 0.0042813 -0.0026385
-0.00070635 -0.00052542 0.0010297 0.00051749 0.00065055 0.0018572 -0.0021449 0.0015116
0.004278 -0.002626 0.26542 0.029222
2000000000 0.13142 -0.18541 -0.0045205 0.0011502 0.0029143 0.0019409 -0.0023752 0.0038535
0.0011413 0.00038983 -0.00044996 0.00059477
-0.0045067 0.0011455 0.2483 0.059586 -0.0010951 0.0063673 0.0016983 0.00054181
0.0014644 -0.00094705 0.000718 0.00017678
0.0029147 0.0019142 -0.0010482 0.0063855 0.018604 -0.23191 -0.0010931 -0.0014072
0.0020847 -0.0010786 0.0017213 0.0012616
-0.0023595 0.0038468 0.0017134 0.00053579 -0.0010935 -0.0014306 0.058007 -0.17697
-0.001194 0.0030651 -0.00039966 0.0022261
0.0011367 0.0003681 0.0014546 -0.00096221 0.0020794 -0.001075 -0.0012349 0.003053
0.24826 -0.029068 0.0010716 -0.0037525
