!Keysight Technologies,M9804A,MY58100912,A.14.10.03
!Date: Thursday, April 27, 2023 10:28:33
!Correction: S11(C  6-Port  ) 
!S12(C  6-Port  ) 
!S13(C  6-Port  ) 
!S14(C  6-Port  ) 
!S15(C  6-Port  ) 
!S16(C  6-Port  ) 
!S21(C  6-Port  ) 
!S22(C  6-Port  ) 
!S23(C  6-Port  ) 
!S24(C  6-Port  ) 
!S25(C  6-Port  ) 
!S26(C  6-Port  ) 
!S31(C  6-Port  ) 
!S32(C  6-Port  ) 
!S33(C  6-Port  ) 
!S34(C  6-Port  ) 
!S35(C  6-Port  ) 
!S36(C  6-Port  ) 
!S41(C  6-Port  ) 
!S42(C  6-Port  ) 
!S43(C  6-Port  ) 
!S44(C  6-Port  ) 
!S45(C  6-Port  ) 
!S46(C  6-Port  ) 
!S51(C  6-Port  ) 
!S52(C  6-Port  ) 
!S53(C  6-Port  ) 
!S54(C  6-Port  ) 
!S55(C  6-Port  ) 
!S56(C  6-Port  ) 
!S61(C  6-Port  ) 
!S62(C  6-Port  ) 
!S63(C  6-Port  ) 
!S64(C  6-Port  ) 
!S65(C  6-Port  ) 
!S66(C  6-Port  ) 
!S6P File: Measurement: :
# Hz S  RI   R 50
500000000 -0.33937 -0.037098 -0.011276 -0.0020113 -0.0083377 0.013448 -0.0037677 0.012237
0.012721 0.0037969 -0.0049233 0.0078914
-0.01118 -0.0019095 -0.41872 -0.050556 0.00739 -0.010481 0.0017262 0.01208
0.0079513 0.0024861 0.0010057 0.013084
-0.0083478 0.01361 0.0075997 -0.010519 -0.26678 0.2104 0.0074684 0.0039125
-0.0013744 0.0084551 0.00076517 0.012127
-0.0034578 0.011463 0.0022087 0.01141 0.0074756 0.0035216 -0.33105 0.044015
-0.018917 -0.0051141 0.015098 0.024981
0.013008 0.0045528 0.0078692 0.0031606 -0.0017765 0.0087928 -0.01939 -0.0055554
-0.22656 -0.19193 -0.025371 0.006252
-0.0031506 0.0080954 0.0025014 0.013019 0.001721 0.012403 0.016264 0.025185
-0.025486 0.0045494 -0.27098 -0.12818
560000000 -0.31728 0.12571 -0.024192 -0.063315 0.0003608 0.013264 0.0057781 0.010782
0.0095584 0.0030519 0.011364 0.0076239
-0.024113 -0.063352 -0.37703 0.10684 -0.041295 -0.036105 0.013961 0.0033328
-0.014496 -0.0038329 0.0033736 0.00044358
0.00013348 0.012998 -0.041675 -0.035973 -0.1837 0.25875 -3.1083e-05 -0.004483
0.020736 0.0054526 0.0062919 -0.0054959
0.0061806 0.010191 0.014425 0.0032571 -0.00032407 -0.004416 -0.30656 0.13483
0.0032257 -0.024083 0.004829 -0.021618
0.0095809 0.0043374 -0.013815 -0.0040285 0.019288 0.0050969 0.0043954 -0.023776
-0.28845 -0.017243 0.0078927 -0.048437
0.0094769 0.006656 0.0030186 0.00044904 0.0060419 -0.0057302 0.0043147 -0.02052
0.0063361 -0.048949 -0.33085 0.021841
620000000 -0.27458 0.10794 -0.023168 0.008451 0.0040241 0.0091279 0.0078351 -0.0038248
0.011391 -0.00065566 -0.00012931 -0.002416
-0.023173 0.008367 -0.4028 0.060413 -0.018419 0.00059991 -0.0015871 -0.0016014
0.011597 -0.0065054 0.0021085 -0.0030482
0.0040504 0.0090673 -0.018445 0.00062787 -0.15277 0.26796 -0.00091385 -0.0044819
-0.0035131 -0.0030694 0.0085718 -0.0025441
0.0088645 -0.0039519 -0.001523 -0.0018253 -0.00061838 -0.0048709 -0.26625 0.14499
-0.038063 -0.01887 0.012222 0.025794
0.012819 -0.00079521 0.011741 -0.0068178 -0.0030943 -0.0034191 -0.036928 -0.019137
-0.20867 -0.052739 -0.040874 0.014518
0.0014082 -0.0019988 0.001599 -0.0030695 0.0092899 -0.0028534 0.011722 0.026689
-0.041036 0.014212 -0.25214 -0.013059
680000000 -0.23349 0.19484 -0.027277 -0.013448 0.0049213 0.0050624 0.0014357 -0.0072472
-0.0027685 -0.011235 0.0050963 -0.006934
-0.027178 -0.013393 -0.38783 0.1588 -0.03253 -0.00095305 -0.0016141 -0.00036187
-0.0019292 -0.0090265 -0.0013662 -0.0020293
0.005185 0.0051532 -0.03245 -0.00078383 -0.10142 0.2876 -0.00090752 -0.00051166
-0.0017141 0.00020101 -0.0029191 -0.0091828
0.00072279 -0.0073106 -0.0019324 -0.00028324 -0.0011305 -0.00027282 -0.22012 0.19511
-0.023849 -0.0071981 -0.0092571 -0.010034
-0.0033797 -0.011508 -0.0018379 -0.0091836 -0.0018105 0.00027535 -0.023992 -0.0065604
-0.25931 0.044901 -0.006237 -0.008034
0.003955 -0.0060124 -0.0015819 -0.0016621 -0.0031555 -0.0092244 -0.0094001 -0.010676
-0.0057519 -0.0081293 -0.2602 0.093554
740000000 -0.18983 0.18825 -0.037985 0.02712 0.013186 -0.0053671 -0.00026605 -0.0036321
-0.0045355 -0.0026248 -0.005932 0.0032449
-0.037941 0.027105 -0.33461 0.17752 -0.035105 0.034815 -0.00072415 -0.006302
-0.011904 0.0082401 -0.0023864 -0.0065445
0.013153 -0.0051843 -0.03515 0.035046 -0.067373 0.28495 -0.0019986 0.0035958
-0.0034968 -0.005068 -0.0016827 0.00051474
-5.1678e-05 -0.0043926 -0.0004823 -0.0063226 -0.0020764 0.0035181 -0.20294 0.20353
-0.044078 -0.0064929 0.023066 0.014915
-0.0051247 -0.0030974 -0.011692 0.0075129 -0.0026299 -0.0049704 -0.042821 -0.0066559
-0.16092 0.072772 -0.042376 0.0012781
-0.0062366 0.0025343 -0.0019351 -0.0063297 -0.0018387 0.00094195 0.023394 0.015253
-0.043893 0.00094967 -0.24869 0.098206
800000000 -0.15707 0.2288 -0.022382 0.016599 0.0052099 -0.010444 -0.0050382 -0.0018289
-0.0042097 0.0023585 0.0043853 0.00059049
-0.022386 0.016622 -0.33765 0.24648 -0.0077412 0.033826 -0.0026591 0.0022632
-0.001222 0.0030322 0.0010531 0.0051943
0.0051227 -0.010387 -0.0077153 0.03389 -0.0272 0.30795 0.0007501 0.0015812
0.00047387 0.003491 -0.0016941 0.00073302
-0.0051123 -0.0018547 -0.0026882 0.0022952 0.00071754 0.001623 -0.17468 0.2305
-0.027666 0.013592 0.013413 -0.010114
-0.0045455 0.0027597 -0.0011297 0.0033822 0.00033762 0.0037482 -0.027885 0.014444
-0.20541 0.095298 -0.016334 0.019037
0.0034551 0.00085059 0.00050591 0.005426 -0.002156 0.0010007 0.013018 -0.010498
-0.016409 0.018468 -0.24186 0.14742
860000000 -0.12184 0.24848 -0.016865 0.030477 -0.0032397 -0.010052 -0.0023254 0.00097587
0.003944 0.0049572 -0.0036666 -0.0024853
-0.016858 0.030465 -0.28974 0.2885 0.0079742 0.033919 0.00011001 0.0021961
0.0044178 0.00021952 0.0033141 0.0010487
-0.0033785 -0.01005 0.0080547 0.033943 0.020587 0.31551 -0.000496 2.874e-06
0.0027537 -0.0013922 0.0015454 0.0043695
-0.002423 0.00078153 8.8768e-05 0.0019414 -0.00047936 -0.00010881 -0.13818 0.24097
-0.017513 0.01861 -0.0061018 -0.0094292
0.0044513 0.0049395 0.0043219 -7.3778e-05 0.002983 -0.0014709 -0.017686 0.018736
-0.15346 0.14633 -0.024625 0.016451
-0.003678 -0.0024559 0.0031291 0.0009663 0.0015239 0.0042832 -0.0061721 -0.0088137
-0.024762 0.014641 -0.18985 0.19078
920000000 -0.096509 0.27054 0.0054712 0.037403 -0.0093451 -0.0046325 -0.0019429 0.001843
0.0012122 0.0018486 0.002787 -0.0014487
0.0054728 0.037384 -0.26107 0.30914 0.028205 0.021633 0.0015794 0.0011165
0.0074249 -0.00065399 0.0040142 -0.0026247
-0.0093564 -0.0046773 0.028278 0.02157 0.066595 0.31637 0.0019503 -0.00013305
0.0013045 -0.00044954 0.00073434 -0.0011408
-0.0018419 0.0018881 0.0014226 0.0011051 0.0018972 -0.00013772 -0.11405 0.25804
-0.010082 0.030194 0.003557 -0.0068867
0.0013105 0.0017408 0.0072544 -0.0003704 0.001317 -0.00039703 -0.010141 0.029811
-0.14238 0.15074 -0.0023055 0.026949
0.0027613 -0.0014284 0.0040325 -0.0027805 0.00072107 -0.0012679 0.0034525 -0.0068324
-0.0018107 0.02702 -0.19756 0.20677
980000000 -0.050156 0.28996 0.01752 0.029475 -0.0091684 0.0044296 0.001822 0.0033571
0.0039777 -0.0015692 -0.0032118 -0.0022113
0.017493 0.029471 -0.20848 0.34305 0.032979 0.0046646 0.0019352 -0.00014409
0.0016645 -0.0062651 -0.00028328 -0.002237
-0.0091305 0.0044689 0.033035 0.0045548 0.11279 0.30985 0.00044074 -0.0012775
0.00020892 -0.0021907 0.0013095 -0.00017665
0.0018726 0.0034617 0.0019494 -8.2888e-05 0.00041592 -0.0012787 -0.076248 0.26879
0.0079859 0.029644 -0.0088924 -0.00703
0.003834 -0.0016348 0.0014847 -0.0061767 0.00022513 -0.002237 0.0082488 0.029625
-0.11226 0.18004 0.0056952 0.019783
-0.0031007 -0.0025462 -0.00048751 -0.0024877 0.0013128 -0.00027146 -0.0089729 -0.0071594
0.0055062 0.019825 -0.15545 0.24975
1040000000 -0.0085212 0.29798 0.033053 0.017599 -0.0013921 0.0067846 0.0023764 0.00081324
-0.00010321 -0.0032552 -0.00051432 -0.0016427
0.033033 0.017637 -0.17305 0.35607 0.029232 -0.015087 0.0014779 -0.001696
-0.0026005 -0.002543 -0.0015247 -0.0029285
-0.0014094 0.0068281 0.029203 -0.015156 0.15903 0.29618 -0.00054756 -0.0014252
-0.0017529 -0.00084586 -0.00063391 -0.0010618
0.0022466 0.00091899 0.0014649 -0.0017203 -0.00050596 -0.0015161 -0.048887 0.27907
0.019167 0.017467 -0.0024569 0.0013176
-0.00015604 -0.0035378 -0.0026074 -0.002613 -0.001766 -0.00087529 0.0191 0.017489
-0.079814 0.18631 0.013435 0.017908
-0.00051619 -0.0013191 -0.0014397 -0.0028328 -0.00063472 -0.0010509 -0.0024768 0.0013802
0.013129 0.018259 -0.13317 0.27116
1100000000 0.037223 0.30557 0.035545 -0.0047822 0.002688 0.0038525 0.0023989 -0.0011402
-0.0019356 -0.0031462 -0.00401 0.00033715
0.0355 -0.004766 -0.12994 0.37322 0.014974 -0.027998 4.8317e-05 -0.0017741
-0.003566 -0.00082298 -0.0035719 -0.00042173
0.002693 0.0038148 0.014861 -0.028085 0.20556 0.2757 -0.0018833 0.00025681
-0.0018015 0.00057538 -0.0010907 -0.0002559
0.0025343 -0.0011625 5.6814e-05 -0.001823 -0.0019071 0.0002314 -0.0088032 0.28402
0.024325 0.0045787 -0.0027564 0.00017979
-0.0020255 -0.0031933 -0.0035526 -0.00075435 -0.0017519 0.00062113 0.024356 0.0045039
-0.061963 0.20009 0.019286 0.0083431
-0.0041291 2.7548e-05 -0.0036755 -0.00042786 -0.0011401 -0.00015026 -0.0027003 0.00013386
0.019023 0.0083681 -0.087761 0.29988
1160000000 0.087977 0.30082 0.023352 -0.020982 0.0024495 -0.00038467 -0.00010709 -0.0022895
-0.0042543 -0.00076626 -0.00094839 0.0040619
0.02339 -0.020923 -0.086459 0.37794 -0.0041136 -0.029148 -0.0017379 -0.0018129
-0.002801 0.0026313 -0.001339 0.0019516
0.0024324 -0.00037033 -0.0042416 -0.029167 0.24856 0.24464 -0.00074185 0.0018314
-0.00057109 0.0020951 -0.00084487 0.00020087
-0.00015866 -0.0022852 -0.001788 -0.0017221 -0.00071852 0.0018367 0.030192 0.2814
0.020544 -0.01089 -0.0031227 0.0050025
-0.0041825 -0.00074317 -0.0026947 0.0025399 -0.00049792 0.0020419 0.02043 -0.010795
-0.028428 0.20871 0.018193 3.5288e-05
-0.0009651 0.0042446 -0.0014653 0.0019414 -0.00078519 0.00031074 -0.0031292 0.0051401
0.018107 -4.5128e-05 -0.04092 0.3025
1220000000 0.13246 0.2897 0.0097016 -0.030029 -0.0016963 -0.00057971 9.465e-05 -0.00095395
-0.0026592 0.0023823 0.0012442 0.0021377
0.0096935 -0.029977 -0.042093 0.38987 -0.017186 -0.021043 -0.0025618 0.00043583
0.00017409 0.0031062 -0.00074536 0.0019725
-0.0016799 -0.00056043 -0.017298 -0.020995 0.28757 0.2051 0.00085512 0.0017032
0.00069855 0.0012158 0.00041041 0.00068494
8.7409e-05 -0.0010183 -0.0025234 0.00043142 0.00086139 0.0016952 0.070021 0.27328
0.0098941 -0.017123 0.0020125 0.0015737
-0.0027061 0.0024769 0.00017546 0.003184 0.00077532 0.0012358 0.009717 -0.017125
-0.0063473 0.21769 0.013863 -0.013093
0.0012039 0.0020875 -0.0008078 0.001893 0.00037593 0.00064888 0.0020349 0.0015763
0.014105 -0.012977 -0.0094241 0.31904
1280000000 0.18217 0.26777 -0.0085914 -0.028127 -0.0018241 0.0028436 -0.00088326 -0.0021223
-0.00076377 0.0030859 0.0026464 0.0011091
-0.0085614 -0.028088 0.0039824 0.38117 -0.024029 -0.0083072 -0.001025 0.0014832
0.001849 0.0018781 0.00059656 0.0020334
-0.0018249 0.0028527 -0.024065 -0.0082188 0.31769 0.16104 0.0015593 -9.4873e-05
0.0011014 0.00019448 0.00038344 0.00019334
-0.00098702 -0.0021256 -0.0010605 0.0015162 0.001582 -5.6375e-05 0.1068 0.25735
0.00033786 -0.018965 -1.2294e-05 0.0002769
-0.00071102 0.0030542 0.001907 0.0018265 0.0011493 0.00014161 0.0003547 -0.018916
0.030132 0.22171 0.0028159 -0.015401
0.0026795 0.0011813 0.00073479 0.0020195 0.000389 0.00017284 -3.1182e-05 0.00036745
0.0026769 -0.01537 0.038143 0.32095
1340000000 0.21922 0.23374 -0.018061 -0.018146 0.001139 0.0046888 -0.0018195 -0.00095786
0.0015301 0.0027332 0.0017239 -0.0014267
-0.018024 -0.01815 0.043562 0.37286 -0.021673 0.004598 -7.4903e-05 0.0020518
0.0020718 0.00069273 0.0013457 0.00085256
0.0011639 0.0047191 -0.021679 0.0047174 0.33917 0.11329 0.0011826 -0.0010532
0.00071824 -0.00046512 0.0001872 0.00028414
-0.0018253 -0.00096104 -7.0839e-05 0.0019971 0.0011976 -0.0010463 0.13982 0.23727
-0.0088008 -0.015919 0.00090441 0.00063799
0.0015828 0.0026417 0.0020091 0.00068615 0.00073658 -0.00046352 -0.008906 -0.015871
0.060158 0.21779 -0.0039887 -0.013847
0.0017227 -0.001461 0.0013156 0.00086824 0.00017331 0.00029743 0.0009729 0.00066934
-0.0041275 -0.013836 0.076451 0.31604
1400000000 0.25235 0.19543 -0.023305 -0.0065914 0.0055105 0.003137 -0.0022531 0.00076024
0.0025214 0.00084706 0.00021441 -0.0015216
-0.02327 -0.0066024 0.080937 0.35968 -0.014761 0.012703 0.0014011 0.0012965
0.0012054 -0.0010414 0.0012813 0.00012549
0.005565 0.0030964 -0.014732 0.012781 0.35209 0.060178 -7.0517e-06 -0.0017931
4.7297e-05 -0.0004628 0.00047447 0.00023181
-0.0022774 0.00070036 0.0013775 0.0013133 -5.469e-05 -0.0017135 0.16951 0.20857
-0.014532 -0.0089807 -0.00065319 -0.00023639
0.0024822 0.00086719 0.0011751 -0.00095967 2.1214e-05 -0.0004699 -0.014549 -0.0090033
0.092787 0.21362 -0.010489 -0.0086733
0.00012026 -0.0014855 0.0012659 0.00016633 0.00049264 0.00030484 -0.00065652 -0.0001375
-0.010549 -0.0085543 0.12124 0.30491
1460000000 0.27492 0.15115 -0.019911 0.0053978 0.0057923 -0.0020294 -0.0016043 0.0018431
0.002179 -0.00063596 -0.00034108 -0.0010283
-0.019898 0.0053838 0.11522 0.3377 -0.0059476 0.015577 0.0017465 0.00013369
0.00066488 -0.0013118 0.0011795 -0.00059438
0.005786 -0.0020404 -0.0058813 0.015614 0.35812 0.0062375 -0.0013542 -0.0012562
0.00018715 -0.00025798 0.00066723 -0.00042291
-0.0015718 0.0018976 0.0017162 0.00013221 -0.0013324 -0.0012381 0.19633 0.17948
-0.015416 -0.0022645 -0.00072041 0.0020229
0.0021403 -0.00062473 0.00072915 -0.0012966 0.00027304 -0.00019757 -0.015361 -0.0022678
0.12219 0.19952 -0.012064 -0.0025763
-0.00034505 -0.001107 0.0011223 -0.00057124 0.0005861 -0.00035209 -0.00061821 0.0020639
-0.012127 -0.0026401 0.15466 0.28362
1520000000 0.28687 0.10902 -0.013959 0.01061 0.0033596 -0.0044277 0.00014778 0.0026771
0.0020137 -0.0017341 -0.0011755 -5.6576e-05
-0.013953 0.010582 0.14871 0.32273 0.0018144 0.013177 0.0016268 -0.00086586
-6.4278e-05 -0.00099851 0.00030505 -0.0010341
0.00333 -0.0044663 0.0018958 0.013178 0.35149 -0.049843 -0.0011744 -0.00026593
0.00057191 -0.0008819 -4.4507e-05 -0.00017453
0.0001937 0.0026969 0.0015963 -0.00086445 -0.0011918 -0.00027095 0.21983 0.14139
-0.014286 0.0032884 0.0015772 0.0020308
0.0019867 -0.0018286 -6.882e-05 -0.00098946 0.00062247 -0.00090001 -0.014264 0.0033678
0.15064 0.18586 -0.011829 0.0020007
-0.0011332 -3.6163e-05 0.00033768 -0.0010019 6.3442e-05 -0.00015473 0.0015074 0.0018807
-0.01188 0.0019481 0.18769 0.26311
1580000000 0.29574 0.062499 -0.0072679 0.013259 -0.00083606 -0.0050399 0.0015921 0.0018818
-0.00026646 -0.0022308 -0.00032253 0.00043047
-0.0072758 0.013236 0.17593 0.29786 0.0054805 0.008255 0.00039844 -0.001584
-0.00053195 -0.00091476 -0.00022234 -0.00093511
-0.00088376 -0.0050191 0.0055251 0.0082262 0.33163 -0.10746 -0.0015198 0.000704
-0.00014456 -0.0011604 0.00021189 -0.00050232
0.0016166 0.0019203 0.00036077 -0.0016335 -0.0014943 0.00078244 0.2339 0.10191
-0.010569 0.0078853 0.0022565 0.00062181
-0.00034216 -0.0021904 -0.00054233 -0.00096517 -0.00028167 -0.0011916 -0.010522 0.0080187
0.17526 0.16807 -0.0092749 0.0077464
-0.0003509 0.00036893 -0.00025845 -0.00092726 0.00025884 -0.00059925 0.0022875 0.00057946
-0.0092365 0.0075393 0.21967 0.23606
1640000000 0.29705 0.021206 -0.00081729 0.011821 -0.0028974 -0.0028048 0.0027903 0.00091169
-0.00085208 -0.0014463 -0.00033505 0.00065767
-0.00082608 0.011824 0.20525 0.27268 0.0060711 0.0033887 -0.00071402 -0.001729
-0.00094935 -0.00036018 -0.00054297 -0.000685
-0.0029209 -0.0028072 0.0060951 0.0033684 0.30328 -0.15653 -0.00059351 0.001512
-0.0012076 -0.00093068 -0.00019274 -0.00039813
0.0027662 0.00086156 -0.00071243 -0.0016783 -0.00063667 0.0014667 0.24629 0.052834
-0.0063143 0.0087306 0.0025407 -0.00089048
-0.00086066 -0.0014667 -0.00091467 -0.00034891 -0.0011851 -0.00089827 -0.0061691 0.0086526
0.1984 0.14335 -0.0044144 0.0096441
-0.00035715 0.00056533 -0.00054876 -0.00072278 -0.00027699 -0.00031474 0.0026453 -0.00085207
-0.0043492 0.0097584 0.24507 0.20497
1700000000 0.28956 -0.023947 0.0023367 0.0088275 -0.0036701 -7.9701e-05 0.0029564 -0.0013889
-0.0019651 -0.00055705 0.00071589 0.00037908
0.0023203 0.0088104 0.22324 0.24104 0.0040589 0.00031147 -0.0014806 -0.0005517
-0.000679 2.119e-06 -0.00091263 -0.00047419
-0.0036874 -6.093e-05 0.0040661 0.00027854 0.26005 -0.19669 0.00048573 0.0014792
-0.0019132 -0.00017726 -0.0005303 -0.00087329
0.0029556 -0.0013868 -0.0014815 -0.00058963 0.0004426 0.0015124 0.24309 0.003003
-0.0034857 0.0087949 0.00154 -0.0023481
-0.0020024 -0.0005783 -0.00064865 -3.0115e-05 -0.0019076 -0.0001572 -0.0036193 0.0088432
0.21605 0.1224 0.00033255 0.0097908
0.00067701 0.00039871 -0.00096407 -0.00048366 -0.00049037 -0.00088251 0.0015052 -0.0024422
0.00034467 0.0097258 0.26131 0.1706
1760000000 0.27689 -0.072201 0.0042855 0.0055689 -0.0025168 0.00092099 0.0010619 -0.003473
-0.0012886 0.00071031 0.00039682 -0.00060059
0.0042706 0.0055748 0.24905 0.20114 0.0017014 -0.0015689 -0.0012091 0.00018522
-0.0010426 0.00075938 -0.00061231 0.00045998
-0.0024666 0.0009622 0.0017076 -0.0015775 0.21169 -0.23015 0.0011701 0.00097083
-0.001143 0.0015448 -0.0013428 -0.00035105
0.0011404 -0.0034692 -0.0011481 0.00022183 0.0012547 0.00096501 0.23384 -0.048453
-0.00076356 0.007814 -0.00031489 -0.0025575
-0.0013198 0.00074203 -0.0010153 0.00080995 -0.0010664 0.0016014 -0.00069602 0.0077945
0.23074 0.086675 0.0043018 0.0071
0.00047289 -0.00062621 -0.00061994 0.00047625 -0.0014126 -0.00034308 -0.00040169 -0.002528
0.0042057 0.0071093 0.27388 0.13277
1820000000 0.25203 -0.10909 0.004172 0.0021662 -0.00028664 0.0026261 -0.0011304 -0.0030427
-0.00096501 0.00087534 -4.8441e-05 -0.00016444
0.0041565 0.0021811 0.25884 0.171 -0.00043802 -0.00029548 -0.0012737 0.00086841
-0.00012761 0.0012479 -0.0005125 0.00052441
-0.00030749 0.0026997 -0.00045027 -0.00029461 0.16118 -0.24564 0.0013428 0.00033238
-0.00019888 0.0023076 -0.0013534 0.00041435
-0.0011343 -0.00298 -0.0012769 0.00096374 0.0013375 0.00044351 0.2036 -0.095661
0.00035085 0.0061896 -0.0016871 -0.0015882
-0.00098158 0.00085638 -0.00017438 0.0012435 -0.00026303 0.0022917 0.00032566 0.0060134
0.24736 0.056997 0.0053309 0.0034721
-3.6183e-05 -0.0001783 -0.00054997 0.00055509 -0.0013674 0.00044987 -0.0016603 -0.0017453
0.0053594 0.0035556 0.27614 0.096571
1880000000 0.21678 -0.14912 0.0018979 0.00011279 -0.00053504 0.0024154 -0.0030053 -0.0020848
-0.00021909 0.001527 0.00015199 -0.00060664
0.0019033 0.00010978 0.26308 0.12446 -0.0026593 0.001452 -0.00018428 0.001705
0.00049651 0.0012895 0.00010167 0.00093077
-0.00051909 0.0024219 -0.0026523 0.0014816 0.10838 -0.25581 0.001745 -0.00081466
0.0014615 0.0019449 -0.00089445 0.0014004
-0.0030601 -0.0020039 -0.00020734 0.0017036 0.001832 -0.00083136 0.1632 -0.13544
0.00076479 0.004256 -0.0024701 0.00035672
-0.0001811 0.0016069 0.00050569 0.0012956 0.0015439 0.0019087 0.0007972 0.0043765
0.24962 0.023842 0.0053232 0.0011922
0.00021025 -0.00061034 0.00018343 0.00094215 -0.00088988 0.0012855 -0.00249 0.00042127
0.0052419 0.0011854 0.27582 0.062317
1940000000 0.17759 -0.1744 -0.00032877 -0.001315 0.0015889 0.0022363 -0.0038106 0.00064314
0.0013071 0.0010302 -0.00059218 -0.00041437
-0.00032859 -0.0013119 0.26343 0.092735 -0.0014711 0.0039854 0.00097276 0.0013287
0.001864 0.00058274 0.00088952 0.00035597
0.0015385 0.0022243 -0.001474 0.003964 0.062383 -0.24897 0.00044204 -0.0021105
0.0024228 0.00038488 0.00041881 0.001526
-0.0038115 0.00052909 0.0010035 0.0012343 0.00037599 -0.0020412 0.11102 -0.16569
-0.00046998 0.0032631 -0.0015752 0.001396
0.0013253 0.000996 0.0018674 0.00058434 0.0024769 0.00034899 -0.00040231 0.0032124
0.25076 -0.015577 0.0040232 -0.0024298
-0.00060861 -0.00040511 0.00092444 0.00039883 0.00053682 0.0015898 -0.0015883 0.0014236
0.0039226 -0.0025826 0.265 0.026487
2000000000 0.13126 -0.18908 -0.0041005 0.00086302 0.0027535 0.0016051 -0.0021531 0.0036023
0.00108 0.0003195 -0.00057131 0.00057977
-0.004115 0.00084969 0.24911 0.057298 -0.0010643 0.0060891 0.001652 0.00035603
0.0014294 -0.0012619 0.00048254 9.3998e-05
0.0027595 0.0015769 -0.00098612 0.0061009 0.018584 -0.23396 -0.0013279 -0.001358
0.0018549 -0.0012059 0.0015913 0.0011802
-0.0021929 0.003719 0.0015965 0.00036708 -0.001287 -0.0011983 0.057116 -0.17539
-0.0019315 0.0036051 -0.00031742 0.0024784
0.0010609 0.00030678 0.0014043 -0.0012154 0.0019598 -0.0010716 -0.0020811 0.003562
0.24372 -0.049179 0.00033476 -0.0033955
