!Keysight Technologies,M9804A,MY58100912,A.14.10.03
!Date: Thursday, April 27, 2023 10:28:33
!Correction: S11(C  6-Port  ) 
!S12(C  6-Port  ) 
!S13(C  6-Port  ) 
!S14(C  6-Port  ) 
!S15(C  6-Port  ) 
!S16(C  6-Port  ) 
!S21(C  6-Port  ) 
!S22(C  6-Port  ) 
!S23(C  6-Port  ) 
!S24(C  6-Port  ) 
!S25(C  6-Port  ) 
!S26(C  6-Port  ) 
!S31(C  6-Port  ) 
!S32(C  6-Port  ) 
!S33(C  6-Port  ) 
!S34(C  6-Port  ) 
!S35(C  6-Port  ) 
!S36(C  6-Port  ) 
!S41(C  6-Port  ) 
!S42(C  6-Port  ) 
!S43(C  6-Port  ) 
!S44(C  6-Port  ) 
!S45(C  6-Port  ) 
!S46(C  6-Port  ) 
!S51(C  6-Port  ) 
!S52(C  6-Port  ) 
!S53(C  6-Port  ) 
!S54(C  6-Port  ) 
!S55(C  6-Port  ) 
!S56(C  6-Port  ) 
!S61(C  6-Port  ) 
!S62(C  6-Port  ) 
!S63(C  6-Port  ) 
!S64(C  6-Port  ) 
!S65(C  6-Port  ) 
!S66(C  6-Port  ) 
!S6P File: Measurement: :
# Hz S  RI   R 50
500000000 -0.33785 -0.038204 -0.010755 -0.0029749 -0.0083166 0.013411 -0.003992 0.011996
0.012572 0.0034449 -0.0042274 0.0085029
-0.010725 -0.0029217 -0.41881 -0.051606 0.0074624 -0.010683 0.0017752 0.011882
0.0078094 0.0024718 0.00234 0.013615
-0.008291 0.013482 0.0074374 -0.010703 -0.2666 0.21033 0.0071339 0.0038565
-0.0016879 0.0080773 0.0013097 0.012495
-0.0040063 0.012022 0.0017835 0.011921 0.007144 0.0038612 -0.33099 0.043756
-0.018724 -0.0052316 0.016142 0.024633
0.012659 0.0032862 0.0078617 0.0024074 -0.0016843 0.0080563 -0.018704 -0.0052223
-0.22761 -0.19167 -0.025882 0.0054037
-0.0042576 0.0085247 0.002328 0.013647 0.0013295 0.01249 0.016147 0.024669
-0.02593 0.0053983 -0.26941 -0.12711
560000000 -0.31739 0.125 -0.024278 -0.062894 0.00024732 0.012245 0.0058159 0.011216
0.0099441 0.0048514 0.010759 0.0072996
-0.024323 -0.062743 -0.37772 0.10841 -0.041671 -0.036761 0.013497 0.0042985
-0.012717 -0.0041453 0.002398 0.0010334
0.00031466 0.012171 -0.041783 -0.036727 -0.18336 0.25878 -0.0001512 -0.0044486
0.019564 0.0052524 0.0070108 -0.0061949
0.0057663 0.011213 0.01348 0.0042977 -0.00014527 -0.0044654 -0.30637 0.13442
0.0035554 -0.023072 0.0039887 -0.021798
0.010043 0.0048333 -0.012805 -0.0041518 0.019598 0.0052573 0.0035709 -0.023097
-0.2924 -0.016081 0.0089534 -0.049104
0.010712 0.0073062 0.0024479 0.0010057 0.0070133 -0.0062247 0.0039927 -0.021767
0.0089606 -0.049077 -0.33059 0.021931
620000000 -0.27517 0.10827 -0.023475 0.0086403 0.0035783 0.0088967 0.0077979 -0.0047529
0.011833 -0.00042788 0.00076644 -0.0021395
-0.023469 0.008607 -0.40299 0.060725 -0.018493 0.00072407 -0.001471 -0.0016596
0.011531 -0.0068445 0.0017206 -0.0026313
0.0035827 0.0088929 -0.018513 0.00077574 -0.15316 0.26829 -0.001448 -0.0049126
-0.0028038 -0.0031475 0.0086066 -0.0025036
0.007759 -0.0047952 -0.0014735 -0.0016514 -0.0014529 -0.0049052 -0.26545 0.14447
-0.037679 -0.018408 0.0118 0.02562
0.011892 -0.00035503 0.01154 -0.0068925 -0.0028254 -0.0031673 -0.03769 -0.018468
-0.20987 -0.054079 -0.04055 0.014147
0.0007135 -0.0022286 0.0017281 -0.0026356 0.0086357 -0.0024851 0.011762 0.025684
-0.040538 0.014101 -0.25274 -0.013204
680000000 -0.2343 0.19439 -0.027024 -0.013449 0.0052642 0.0052682 0.002008 -0.0069037
-0.0026136 -0.011448 0.0048538 -0.006734
-0.02705 -0.013402 -0.38765 0.1588 -0.032432 -0.00096412 -0.0014889 -0.00027215
-0.0015795 -0.009119 -0.0015833 -0.0021749
0.0052623 0.0052569 -0.032475 -0.00087367 -0.1014 0.28751 -0.0009004 -0.0002455
-0.0016651 0.00029096 -0.0029644 -0.0093791
0.0019628 -0.0069118 -0.0014841 -0.0002836 -0.00090573 -0.00024399 -0.2207 0.19571
-0.023624 -0.0068715 -0.0086763 -0.010378
-0.0026132 -0.011465 -0.0016093 -0.0091619 -0.0016593 0.00028461 -0.02368 -0.0068471
-0.25908 0.045101 -0.0062195 -0.0077502
0.0048026 -0.0067615 -0.001597 -0.0021667 -0.0029946 -0.0093657 -0.0086696 -0.0104
-0.0062368 -0.0077692 -0.26003 0.092741
740000000 -0.18973 0.18866 -0.037645 0.026968 0.013094 -0.0051437 -0.00016902 -0.0040066
-0.0042938 -0.0029033 -0.0060102 0.0026984
-0.037645 0.026915 -0.33447 0.17785 -0.03516 0.034681 -0.00073411 -0.0063155
-0.011494 0.0078846 -0.0019467 -0.0063004
0.013047 -0.0051885 -0.035115 0.034808 -0.067357 0.28484 -0.0020481 0.0032408
-0.0029037 -0.0050414 -0.0015513 0.00061947
-0.00017017 -0.0039991 -0.0007552 -0.0063217 -0.002045 0.0032322 -0.20293 0.20316
-0.043082 -0.0065862 0.023614 0.01502
-0.0043636 -0.0029095 -0.011438 0.0078616 -0.002915 -0.0050616 -0.043166 -0.0065622
-0.16027 0.071519 -0.042807 0.00092227
-0.0060598 0.0027347 -0.001949 -0.0063105 -0.0015479 0.00062016 0.02362 0.014983
-0.042846 0.00089643 -0.24808 0.098997
800000000 -0.15656 0.22858 -0.021988 0.016705 0.0052826 -0.010711 -0.0046772 -0.0019003
-0.0042271 0.0027669 0.0042227 0.00060181
-0.021983 0.016704 -0.33741 0.24669 -0.0076576 0.033739 -0.0024668 0.0022738
-0.0011411 0.0033123 0.00088868 0.0052899
0.0052614 -0.010718 -0.0075653 0.033795 -0.027095 0.3078 0.00098741 0.0016023
0.00034387 0.0036121 -0.0018103 0.00079384
-0.0046781 -0.001872 -0.0024728 0.0022742 0.00097871 0.0016041 -0.17443 0.23074
-0.027964 0.0139 0.013693 -0.010089
-0.0042132 0.0027733 -0.001135 0.0033289 0.00035059 0.0036181 -0.027964 0.013972
-0.20508 0.095936 -0.016724 0.018933
0.0041891 0.00059103 0.00092396 0.0052864 -0.0018074 0.00078371 0.0137 -0.010125
-0.016715 0.018912 -0.24147 0.14811
860000000 -0.12151 0.24852 -0.016829 0.030474 -0.0033198 -0.010065 -0.0023083 0.00080792
0.0043535 0.0050335 -0.0036208 -0.0025757
-0.016836 0.030433 -0.28978 0.28842 0.0079885 0.033932 -3.6668e-05 0.0019938
0.0045866 0.00012089 0.0030354 0.00095044
-0.0033476 -0.01006 0.0081039 0.033927 0.020543 0.31553 -0.0004244 -0.00024775
0.0028393 -0.0015107 0.0016258 0.0042741
-0.0023323 0.00082893 -3.7463e-05 0.0019818 -0.00042166 -0.0002479 -0.13791 0.24106
-0.01725 0.018458 -0.005739 -0.0091681
0.0043681 0.0050381 0.0045883 8.8119e-05 0.002838 -0.001517 -0.01724 0.018491
-0.15298 0.14507 -0.02465 0.01567
-0.003642 -0.002565 0.003025 0.00094811 0.0016433 0.0042791 -0.0057392 -0.0091323
-0.024662 0.01565 -0.19004 0.19276
920000000 -0.096836 0.27071 0.0055914 0.037314 -0.0093616 -0.0047463 -0.0018517 0.0018736
0.0010144 0.0016631 0.0026996 -0.0015649
0.0055425 0.03729 -0.26088 0.30938 0.028159 0.021636 0.0014669 0.0011415
0.0074053 -0.00055979 0.0041316 -0.0027136
-0.0094016 -0.0047101 0.028282 0.021567 0.066615 0.31635 0.0018437 -0.00010862
0.0012893 -0.00048484 0.00076633 -0.0012651
-0.0018492 0.0018856 0.0014703 0.0011467 0.0018419 -0.00011468 -0.11422 0.25807
-0.010272 0.030057 0.0033378 -0.0065838
0.001037 0.0016744 0.0074246 -0.00057065 0.0012896 -0.00048968 -0.010244 0.030101
-0.14271 0.15043 -0.0023632 0.026884
0.0027434 -0.0016003 0.0041271 -0.0027356 0.00077099 -0.0012764 0.0033349 -0.0066039
-0.0023917 0.026879 -0.19797 0.20668
980000000 -0.050006 0.28986 0.01754 0.029405 -0.0091574 0.0044283 0.0018303 0.0034857
0.0039641 -0.0015791 -0.0032684 -0.0022985
0.017502 0.029392 -0.20845 0.34302 0.033004 0.004619 0.0019697 -3.4057e-05
0.0015727 -0.0061447 -0.00044307 -0.0022354
-0.0091558 0.0044577 0.033082 0.0045182 0.11283 0.30983 0.00044547 -0.0012384
0.00021389 -0.0021863 0.001269 -0.00018543
0.0018412 0.0034875 0.0019745 -5.3006e-05 0.00045218 -0.001229 -0.076179 0.26885
0.0080779 0.029643 -0.0088644 -0.0071214
0.0039499 -0.001592 0.0015418 -0.0061704 0.00022016 -0.0021808 0.0081382 0.029636
-0.11227 0.17993 0.0055457 0.019692
-0.0032628 -0.0022837 -0.00045859 -0.0022334 0.0012725 -0.00019102 -0.0088843 -0.0071248
0.0055245 0.0197 -0.15448 0.24966
1040000000 -0.0081792 0.298 0.033041 0.017555 -0.0015064 0.0068246 0.0024165 0.00082789
-2.7892e-05 -0.0035776 -0.00039136 -0.0015479
0.032985 0.017557 -0.17309 0.35606 0.02916 -0.01503 0.001413 -0.0016791
-0.0025776 -0.0025741 -0.0014524 -0.0027497
-0.0014982 0.0068337 0.029156 -0.015174 0.15903 0.29622 -0.00055709 -0.0014772
-0.0016767 -0.00084144 -0.00061705 -0.0010647
0.0024309 0.00081806 0.0013906 -0.0017043 -0.00055847 -0.0014789 -0.048892 0.27922
0.019218 0.017511 -0.0024761 0.0013851
-3.3187e-05 -0.0035631 -0.0026066 -0.0025614 -0.0016704 -0.00084434 0.019244 0.017476
-0.079768 0.18648 0.013605 0.018301
-0.00039554 -0.0015718 -0.0014884 -0.0027501 -0.00061392 -0.0010709 -0.0024705 0.0014022
0.013603 0.018308 -0.13326 0.27111
1100000000 0.03704 0.30565 0.035478 -0.0047555 0.0026918 0.0039071 0.0023685 -0.0011884
-0.0019651 -0.0030963 -0.0039843 0.00010077
0.035438 -0.0047343 -0.12994 0.37321 0.014946 -0.027975 2.1619e-05 -0.0018006
-0.0035596 -0.0006949 -0.0035703 -0.00040744
0.0027002 0.0038979 0.014858 -0.028073 0.20555 0.27573 -0.0018608 0.00027909
-0.0018107 0.00066787 -0.0010486 -0.00020067
0.0023613 -0.0011907 1.0397e-05 -0.0018139 -0.0018659 0.00027716 -0.0088326 0.28407
0.024313 0.0046707 -0.0026882 0.00011024
-0.0019929 -0.003079 -0.0035841 -0.00069258 -0.0018163 0.00067222 0.024324 0.0046304
-0.062174 0.20017 0.01933 0.0084601
-0.0040017 0.00011173 -0.0035906 -0.00040519 -0.0010456 -0.00020626 -0.0026903 0.00011287
0.019316 0.008456 -0.087421 0.29993
1160000000 0.088143 0.30072 0.023391 -0.021053 0.0024365 -0.00035431 -0.00014492 -0.0023142
-0.004247 -0.00074285 -0.00093673 0.0043053
0.023387 -0.021031 -0.08645 0.37782 -0.0041184 -0.029157 -0.0017466 -0.0017222
-0.0027387 0.0025775 -0.001433 0.0019652
0.0024323 -0.00036011 -0.0042435 -0.029184 0.24858 0.24459 -0.00070423 0.0018144
-0.00047276 0.0020634 -0.00084519 0.00028038
-0.00015299 -0.0022968 -0.0017576 -0.0017291 -0.00070104 0.0018134 0.030206 0.28151
0.020498 -0.010803 -0.0030963 0.0051596
-0.004266 -0.00071655 -0.0027363 0.0025945 -0.00047319 0.0020661 0.020493 -0.010844
-0.028337 0.20867 0.018178 0.00014801
-0.00090439 0.00432 -0.0014586 0.0019956 -0.00085049 0.00029489 -0.0030817 0.0051578
0.018175 0.00015723 -0.040838 0.30259
1220000000 0.13251 0.28962 0.0096639 -0.030033 -0.0016884 -0.00060235 8.3424e-05 -0.0010002
-0.0026932 0.0024471 0.0013308 0.0021153
0.0096718 -0.02999 -0.042127 0.3899 -0.017209 -0.021052 -0.0025539 0.00050028
0.00013869 0.0031462 -0.00078444 0.0019688
-0.001703 -0.00058879 -0.017318 -0.020993 0.28758 0.20512 0.00086567 0.0017343
0.0007131 0.001226 0.00038395 0.00069759
8.1833e-05 -0.00099667 -0.0025583 0.00050044 0.00086711 0.0017404 0.070089 0.27332
0.0098061 -0.017079 0.0020801 0.0016163
-0.0026749 0.0024647 0.0001572 0.0031496 0.00072088 0.0012186 0.0097933 -0.017108
-0.0059182 0.21793 0.01386 -0.01318
0.001354 0.0021202 -0.00077131 0.0019843 0.00038511 0.00069658 0.0020874 0.0016018
0.013857 -0.013171 -0.0094664 0.31921
1280000000 0.18215 0.2677 -0.008601 -0.028126 -0.0017857 0.0028789 -0.00094519 -0.0021367
-0.00076469 0.0030902 0.0026008 0.0010932
-0.0085839 -0.028107 0.0040149 0.38116 -0.023996 -0.0082796 -0.0010344 0.0015259
0.0018476 0.0018219 0.00061935 0.0020654
-0.0017827 0.0028925 -0.024062 -0.0081683 0.31768 0.16102 0.0015693 -7.7638e-05
0.0011428 0.00015746 0.00041103 0.0002405
-0.00094794 -0.00213 -0.0010348 0.0015359 0.0015675 -7.0803e-05 0.10686 0.2574
0.00034167 -0.018804 3.5017e-05 0.00037007
-0.00073851 0.0030888 0.0018667 0.0018162 0.0011384 0.00015907 0.00030617 -0.018811
0.03029 0.22197 0.002649 -0.015142
0.0026132 0.0010489 0.00064032 0.0020546 0.00040712 0.00024096 3.8099e-05 0.00037176
0.0026669 -0.015142 0.038358 0.32105
1340000000 0.21925 0.23381 -0.018049 -0.018113 0.0011409 0.0046891 -0.0018563 -0.00090635
0.0015506 0.0026505 0.0016551 -0.0014438
-0.018023 -0.018116 0.043611 0.37283 -0.021671 0.0045976 -4.6084e-05 0.0020654
0.0020382 0.00067777 0.0014129 0.0008113
0.0011645 0.0046844 -0.021667 0.0047149 0.33916 0.11325 0.0011871 -0.001009
0.00068901 -0.00047425 0.00016331 0.00030498
-0.001858 -0.00090601 -3.7794e-05 0.0020638 0.0011867 -0.0010073 0.1399 0.23728
-0.0087968 -0.015818 0.0009573 0.00063682
0.0015704 0.0026403 0.0020372 0.0006609 0.00067542 -0.00048047 -0.0088389 -0.015817
0.060182 0.21783 -0.0040825 -0.013623
0.0016548 -0.0014576 0.0014135 0.00080121 0.00015622 0.00030514 0.00096258 0.00062916
-0.0040741 -0.013614 0.076889 0.31582
1400000000 0.25236 0.19543 -0.023302 -0.0065541 0.0055177 0.0031396 -0.0022524 0.00070586
0.0024892 0.00087554 0.00019934 -0.0015334
-0.023264 -0.0065697 0.080948 0.35969 -0.014738 0.012759 0.0013983 0.0012903
0.0011645 -0.00097857 0.0012259 0.00014755
0.0055463 0.0031194 -0.014695 0.012854 0.35211 0.060169 4.6536e-06 -0.0017456
3.0947e-06 -0.00043105 0.00044716 0.00021461
-0.0022422 0.00073151 0.0014151 0.0012889 1.6429e-06 -0.0017476 0.16973 0.20854
-0.014469 -0.0090458 -0.00060391 -0.00021926
0.0025003 0.00086093 0.0011533 -0.00098471 4.0881e-06 -0.0004325 -0.014502 -0.0090095
0.092998 0.21378 -0.010585 -0.008678
0.00019756 -0.0015262 0.0012279 0.00015372 0.00045033 0.00021584 -0.00059942 -0.00021782
-0.010569 -0.0086866 0.12152 0.30494
1460000000 0.27492 0.15112 -0.019908 0.00547 0.0058444 -0.0020131 -0.0016035 0.0018597
0.0021614 -0.00060765 -0.00042015 -0.0010276
-0.019886 0.0054435 0.11524 0.33768 -0.0059281 0.015591 0.0017507 0.00014997
0.00072725 -0.0013379 0.0011716 -0.00058818
0.0058405 -0.0020497 -0.005854 0.015646 0.35812 0.0062584 -0.0012934 -0.0012178
0.0002367 -0.00026301 0.00058192 -0.00041275
-0.0016036 0.0018714 0.001756 0.00014193 -0.0012992 -0.0012182 0.19642 0.17937
-0.01531 -0.0023342 -0.00071195 0.0020271
0.0021565 -0.00060688 0.00072439 -0.0013365 0.00024048 -0.00026646 -0.015333 -0.002302
0.1225 0.19965 -0.012157 -0.0025451
-0.00042138 -0.0010015 0.0011627 -0.00061549 0.00059471 -0.00041016 -0.00072567 0.0020286
-0.012161 -0.0025551 0.15476 0.28371
1520000000 0.28692 0.10899 -0.013936 0.010626 0.0033642 -0.0044395 0.00016973 0.0026803
0.001979 -0.0018135 -0.0011715 -8.4968e-05
-0.013933 0.010592 0.14873 0.3227 0.0018355 0.013179 0.0016017 -0.00086163
-7.5336e-05 -0.0010025 0.00034421 -0.0010194
0.0033494 -0.0044598 0.0019092 0.01318 0.35145 -0.049876 -0.0012054 -0.00029434
0.00063622 -0.00090162 1.2129e-05 -0.00013348
0.00017748 0.0026791 0.0015987 -0.00086814 -0.0012057 -0.00029848 0.21983 0.1413
-0.014259 0.0032418 0.0015621 0.0020346
0.0019648 -0.001831 -8.3771e-05 -0.0010024 0.00064181 -0.00090241 -0.014256 0.0032796
0.15061 0.18578 -0.01179 0.0021024
-0.0011689 -8.4175e-05 0.00033273 -0.0010363 1.7585e-05 -0.00013322 0.0015697 0.0020261
-0.011802 0.0020849 0.18781 0.26319
1580000000 0.29571 0.062542 -0.007257 0.013257 -0.00087512 -0.005067 0.0015564 0.0018949
-0.00033516 -0.00218 -0.00029219 0.0004274
-0.0072649 0.01324 0.17592 0.29781 0.0054991 0.0082453 0.00041553 -0.0015842
-0.00051313 -0.00095545 -0.00025222 -0.00092193
-0.00088801 -0.005049 0.0055493 0.0082274 0.33168 -0.1074 -0.0015236 0.00075549
-0.00020837 -0.0012079 0.00023173 -0.0005412
0.0015601 0.0019002 0.00040905 -0.0015921 -0.0015316 0.00074498 0.23395 0.10176
-0.010554 0.0077938 0.0022507 0.00059195
-0.00035546 -0.0021837 -0.00052598 -0.00095832 -0.0002019 -0.0012028 -0.010548 0.007822
0.17538 0.16772 -0.0091691 0.0076722
-0.00027637 0.00042597 -0.00025404 -0.00092114 0.00023455 -0.00053966 0.0022532 0.00058641
-0.0092007 0.007674 0.21975 0.23607
1640000000 0.29719 0.021209 -0.00078102 0.011809 -0.002886 -0.0028119 0.0028222 0.0008795
-0.00088374 -0.001486 -0.00031814 0.00062816
-0.00079462 0.011807 0.20526 0.27266 0.00608 0.0033645 -0.00071924 -0.0017022
-0.00094163 -0.00036072 -0.00055296 -0.00068793
-0.0028998 -0.0027904 0.0061165 0.003331 0.30322 -0.15649 -0.00063984 0.0014655
-0.0012636 -0.00089622 -0.00021616 -0.00036299
0.0028186 0.00086784 -0.00072873 -0.0017024 -0.00064226 0.0014701 0.24621 0.05266
-0.0063359 0.0086198 0.0025199 -0.00084773
-0.00089092 -0.0014882 -0.00094639 -0.00035121 -0.001258 -0.00089568 -0.0063189 0.0086412
0.19851 0.14302 -0.0043639 0.0096333
-0.00029854 0.00062446 -0.00056104 -0.00068816 -0.00020392 -0.00036116 0.0025332 -0.00085351
-0.0044 0.0096707 0.24517 0.20497
1700000000 0.28958 -0.023986 0.0023546 0.0088059 -0.0036678 -0.00010514 0.002981 -0.0013657
-0.0019862 -0.00061086 0.00066645 0.00033891
0.0023384 0.008808 0.22325 0.24103 0.0040825 0.00030271 -0.0014854 -0.00055627
-0.00064692 -1.1709e-05 -0.00094399 -0.00050617
-0.0036813 -8.6303e-05 0.0040911 0.00028166 0.26017 -0.1967 0.00046845 0.0014779
-0.0018562 -0.00015698 -0.00054515 -0.00083691
0.0029706 -0.0013817 -0.0014917 -0.00056196 0.00046579 0.0014759 0.24297 0.0028283
-0.003688 0.00876 0.0015032 -0.0023712
-0.0019923 -0.00059513 -0.00064649 -8.1822e-06 -0.0018634 -0.00015229 -0.0036624 0.0087683
0.21602 0.12235 0.00040233 0.0097242
0.00067758 0.0003331 -0.00095072 -0.00049265 -0.00054194 -0.00083986 0.0015022 -0.0023755
0.0003838 0.0097751 0.26149 0.17056
1760000000 0.27693 -0.072252 0.0042917 0.0055212 -0.0025701 0.00094446 0.0011665 -0.0034913
-0.0013455 0.0007356 0.00039347 -0.0005849
0.0042847 0.0055269 0.24903 0.20112 0.0016498 -0.0015644 -0.0011673 0.00020167
-0.0010502 0.00077091 -0.00060607 0.0004654
-0.0025762 0.00096247 0.0016435 -0.0015704 0.21167 -0.2302 0.001203 0.00096416
-0.0011296 0.0015668 -0.0013044 -0.00035744
0.0011498 -0.0035011 -0.0011581 0.00021275 0.0011987 0.00095714 0.23365 -0.048516
-0.00080224 0.007813 -0.00032992 -0.0025844
-0.0013314 0.00074353 -0.0010484 0.00077968 -0.0011286 0.0015674 -0.00077585 0.0078238
0.23072 0.086598 0.0043162 0.0070185
0.00038748 -0.000581 -0.00060691 0.0004726 -0.0013088 -0.00036396 -0.00033112 -0.0025951
0.0043459 0.0070694 0.27401 0.13267
1820000000 0.25205 -0.10923 0.0041927 0.0021661 -0.0003094 0.0026849 -0.0011633 -0.0029974
-0.000994 0.00085911 -6.3881e-05 -0.00016042
0.0041852 0.0021654 0.25883 0.17098 -0.00044907 -0.00030133 -0.0012938 0.00093243
-0.00012371 0.0012577 -0.00053131 0.00056683
-0.00030063 0.0026914 -0.000447 -0.00029574 0.16116 -0.24571 0.0014225 0.00040907
-0.00017 0.0022933 -0.0013274 0.00047269
-0.0011722 -0.0030068 -0.0012917 0.0009354 0.0014282 0.00041577 0.20366 -0.095522
0.00034367 0.0061372 -0.0017083 -0.0016283
-0.00098518 0.00087153 -0.00011524 0.0012589 -0.0001694 0.00229 0.00035887 0.0061504
0.24747 0.05687 0.0053041 0.0033634
-6.6574e-05 -0.00016109 -0.00053159 0.00056519 -0.0013349 0.00047194 -0.0017196 -0.0016192
0.0053381 0.0034022 0.27624 0.096528
1880000000 0.21675 -0.14906 0.0018617 9.2846e-05 -0.0005827 0.0024409 -0.0029944 -0.0021206
-0.00019152 0.0015582 0.00012825 -0.00056349
0.0018587 9.7377e-05 0.26304 0.12444 -0.0026935 0.0014713 -0.00016965 0.0016519
0.00047383 0.0013012 0.00012038 0.00095453
-0.00055482 0.0024456 -0.0026791 0.0014968 0.10841 -0.25583 0.001773 -0.00092608
0.0014604 0.001939 -0.00088156 0.0013241
-0.0029986 -0.0021215 -0.00015829 0.0016571 0.0017762 -0.00091853 0.16297 -0.13551
0.00071787 0.0043364 -0.0024972 0.00037717
-0.00016749 0.0015585 0.00049322 0.0013059 0.0014649 0.0019428 0.00072697 0.0043311
0.2496 0.023774 0.005236 0.0011826
0.00011596 -0.00057146 0.00011525 0.00095978 -0.00088145 0.001341 -0.0025046 0.00039084
0.0052913 0.0012141 0.27575 0.062202
1940000000 0.17752 -0.17449 -0.00035367 -0.0013196 0.0016082 0.0022604 -0.0038025 0.00063786
0.0012847 0.0010514 -0.00059119 -0.00044617
-0.00035139 -0.0013212 0.2634 0.092678 -0.0015008 0.00401 0.0009506 0.0013161
0.0018518 0.00059913 0.00091005 0.00032096
0.0016103 0.0022539 -0.0014764 0.0040213 0.062295 -0.24904 0.0004296 -0.002119
0.0024709 0.00035805 0.0004442 0.0014902
-0.0037922 0.00066572 0.00096226 0.0013016 0.00043943 -0.002123 0.1107 -0.16549
-0.00044181 0.0032975 -0.0015498 0.0014808
0.0012953 0.0010442 0.0018593 0.00059009 0.0024739 0.00035778 -0.00042218 0.0033045
0.25069 -0.015536 0.0038502 -0.0024733
-0.00060154 -0.00045789 0.00091127 0.00032174 0.00044714 0.0014945 -0.0015545 0.0014743
0.0039129 -0.0024715 0.26488 0.026347
2000000000 0.13128 -0.18909 -0.0041193 0.00088952 0.0027178 0.0016226 -0.0022011 0.0035901
0.0010819 0.00026673 -0.00056671 0.00045737
-0.0041259 0.00088345 0.24905 0.057313 -0.0010578 0.0060942 0.0016381 0.00036994
0.0014411 -0.0012324 0.00052127 0.00011754
0.0027151 0.0016216 -0.0010121 0.0061101 0.018625 -0.23401 -0.001355 -0.0013304
0.0019646 -0.0011358 0.0016948 0.0012088
-0.002184 0.0036041 0.0016412 0.00036063 -0.0013545 -0.0013371 0.057503 -0.17542
-0.0020016 0.0036249 -0.00027687 0.0024767
0.001084 0.00025894 0.0014358 -0.0012525 0.0019631 -0.0011437 -0.0020047 0.0036466
0.24371 -0.049404 0.00016459 -0.0033789
