!Keysight Technologies,M9804A,MY58100912,A.14.10.03
!Date: Thursday, April 27, 2023 10:28:33
!Correction: S11(C  6-Port  ) 
!S12(C  6-Port  ) 
!S13(C  6-Port  ) 
!S14(C  6-Port  ) 
!S15(C  6-Port  ) 
!S16(C  6-Port  ) 
!S21(C  6-Port  ) 
!S22(C  6-Port  ) 
!S23(C  6-Port  ) 
!S24(C  6-Port  ) 
!S25(C  6-Port  ) 
!S26(C  6-Port  ) 
!S31(C  6-Port  ) 
!S32(C  6-Port  ) 
!S33(C  6-Port  ) 
!S34(C  6-Port  ) 
!S35(C  6-Port  ) 
!S36(C  6-Port  ) 
!S41(C  6-Port  ) 
!S42(C  6-Port  ) 
!S43(C  6-Port  ) 
!S44(C  6-Port  ) 
!S45(C  6-Port  ) 
!S46(C  6-Port  ) 
!S51(C  6-Port  ) 
!S52(C  6-Port  ) 
!S53(C  6-Port  ) 
!S54(C  6-Port  ) 
!S55(C  6-Port  ) 
!S56(C  6-Port  ) 
!S61(C  6-Port  ) 
!S62(C  6-Port  ) 
!S63(C  6-Port  ) 
!S64(C  6-Port  ) 
!S65(C  6-Port  ) 
!S66(C  6-Port  ) 
!S6P File: Measurement: :
# Hz S  RI   R 50
500000000 -0.33832 -0.038396 -0.010515 -0.0028255 -0.0080679 0.013475 -0.0041342 0.012373
0.012748 0.0032741 -0.0046026 0.0093168
-0.010476 -0.0028407 -0.41877 -0.05113 0.007471 -0.010626 0.0015421 0.012007
0.0078175 0.0020285 0.0021153 0.013377
-0.008018 0.013486 0.0074866 -0.010632 -0.26667 0.21037 0.0070771 0.0037514
-0.0017662 0.0079944 0.0011696 0.012104
-0.0040877 0.012389 0.0016044 0.012042 0.0071346 0.0037544 -0.33109 0.04346
-0.018783 -0.0051863 0.01619 0.024278
0.012571 0.0032363 0.0077806 0.0020786 -0.0017153 0.0080246 -0.018802 -0.0050355
-0.22759 -0.19102 -0.02609 0.0053599
-0.0045291 0.009257 0.0021891 0.013302 0.0013197 0.012039 0.016218 0.024247
-0.026043 0.0055481 -0.2692 -0.12754
560000000 -0.31758 0.12499 -0.024474 -0.062996 0.00032268 0.012061 0.0047598 0.011362
0.0098772 0.004301 0.010878 0.0078989
-0.024391 -0.062877 -0.3783 0.10797 -0.041318 -0.036653 0.014035 0.0040048
-0.013411 -0.0037934 0.0027753 0.0012798
0.00029817 0.012008 -0.041456 -0.036594 -0.18335 0.25914 -3.7745e-05 -0.0042793
0.019847 0.0055155 0.0064494 -0.0062157
0.0048137 0.011478 0.014093 0.0038713 -4.0239e-06 -0.0042743 -0.30642 0.13359
0.003802 -0.023268 0.0042212 -0.021362
0.0098528 0.0042146 -0.013453 -0.0038155 0.0199 0.0054828 0.0037292 -0.023135
-0.2913 -0.015673 0.0081641 -0.049107
0.010814 0.0076564 0.0025224 0.001292 0.0065668 -0.0062866 0.0042283 -0.021361
0.0082792 -0.049205 -0.33077 0.022556
620000000 -0.27543 0.10894 -0.02357 0.0088693 0.0032346 0.0090096 0.0080016 -0.0050195
0.011988 -0.00031063 0.0017621 -0.001895
-0.023546 0.0088618 -0.40288 0.060779 -0.018427 0.00052598 -0.0015366 -0.0018152
0.011697 -0.0066175 0.0015451 -0.002832
0.0032764 0.0090116 -0.018448 0.0005806 -0.15285 0.268 -0.0011461 -0.0048691
-0.0030759 -0.0031845 0.0088379 -0.0026606
0.0080003 -0.0050383 -0.0015612 -0.0018459 -0.0011471 -0.0048434 -0.26512 0.14477
-0.037871 -0.018622 0.012212 0.026169
0.01202 -0.00027918 0.011673 -0.0065848 -0.0030939 -0.0031448 -0.037902 -0.018601
-0.20966 -0.054269 -0.040784 0.013719
0.0013472 -0.0022061 0.0015766 -0.002801 0.008786 -0.0026491 0.012148 0.025998
-0.041017 0.013728 -0.25252 -0.011688
680000000 -0.2346 0.1944 -0.02713 -0.013554 0.0052992 0.0050217 0.001747 -0.0070039
-0.0027663 -0.011495 0.0045335 -0.0065507
-0.027083 -0.013566 -0.38756 0.15886 -0.032316 -0.00095862 -0.0015644 -0.00032695
-0.0016559 -0.0091153 -0.0014614 -0.0021469
0.0053168 0.0050203 -0.03235 -0.00088444 -0.10131 0.28754 -0.00092403 -0.00035281
-0.0017199 0.00025135 -0.0027895 -0.0093909
0.0017263 -0.007016 -0.0015544 -0.00029736 -0.00091363 -0.0003436 -0.22055 0.19609
-0.02356 -0.0067868 -0.0089964 -0.010135
-0.0027446 -0.011584 -0.0016726 -0.0091366 -0.0017343 0.00023293 -0.023633 -0.0068389
-0.25882 0.045271 -0.006252 -0.0076332
0.0046687 -0.0067142 -0.0014953 -0.0020359 -0.002865 -0.0093823 -0.0089134 -0.010122
-0.0062154 -0.0077622 -0.25978 0.093127
740000000 -0.1895 0.1886 -0.037701 0.026947 0.013084 -0.0053367 -0.00018998 -0.0039887
-0.0045026 -0.0031634 -0.0065126 0.0027735
-0.037706 0.026841 -0.33425 0.17766 -0.035099 0.034657 -0.00058341 -0.0065213
-0.011615 0.0083023 -0.0018282 -0.0065108
0.013117 -0.0053779 -0.035038 0.034786 -0.067274 0.28494 -0.0019717 0.0031811
-0.0030475 -0.0048464 -0.0015216 0.00074056
-0.00028012 -0.0040617 -0.00062661 -0.0065296 -0.001996 0.0031653 -0.20291 0.20319
-0.042918 -0.0067779 0.023395 0.014968
-0.0044737 -0.0032234 -0.011525 0.0084853 -0.0030771 -0.0048335 -0.043021 -0.0067752
-0.15988 0.071635 -0.042974 0.0013624
-0.0065244 0.0024477 -0.0018833 -0.0066303 -0.0015105 0.00071957 0.023496 0.015076
-0.042719 0.00099338 -0.2478 0.098876
800000000 -0.15659 0.2286 -0.021966 0.01672 0.0053387 -0.010669 -0.0046678 -0.0017896
-0.0044174 0.002599 0.0040476 0.00068172
-0.021942 0.01668 -0.3373 0.24674 -0.0076512 0.033768 -0.0024554 0.0023328
-0.0010157 0.0032199 0.00096234 0.0052837
0.0053202 -0.0107 -0.00756 0.033813 -0.027112 0.30783 0.00099661 0.0016676
0.00029019 0.0036686 -0.0018321 0.00082942
-0.0046646 -0.0017927 -0.0024654 0.0023311 0.0010079 0.0016501 -0.17442 0.23076
-0.027856 0.013792 0.01334 -0.010165
-0.004446 0.0027684 -0.00098473 0.0032997 0.00031203 0.003716 -0.027882 0.013915
-0.20511 0.09566 -0.016242 0.018794
0.0040654 0.0006159 0.00091663 0.0052374 -0.0017989 0.00081618 0.013363 -0.010223
-0.016412 0.018882 -0.24188 0.14775
860000000 -0.12144 0.24859 -0.01674 0.030435 -0.0032494 -0.010043 -0.0024283 0.00087095
0.0041695 0.0049654 -0.0032323 -0.0028097
-0.016727 0.030409 -0.28956 0.28856 0.0080205 0.03399 -7.2393e-05 0.001914
0.0046037 -0.0001204 0.0031913 0.00094545
-0.0032755 -0.010045 0.0081329 0.033999 0.020557 0.31558 -0.00040231 -0.00016347
0.0028852 -0.001583 0.0015815 0.0042062
-0.0024318 0.00088513 -6.0839e-05 0.0019285 -0.00040734 -0.00017995 -0.13811 0.24118
-0.017297 0.018458 -0.0056529 -0.0092403
0.004165 0.005027 0.0045965 -0.00014004 0.0028997 -0.0015542 -0.017354 0.01851
-0.15317 0.14477 -0.024272 0.015478
-0.0032377 -0.0028181 0.0031982 0.001035 0.00157 0.0042786 -0.0056328 -0.0092332
-0.024342 0.015519 -0.1898 0.1928
920000000 -0.096827 0.27061 0.0055788 0.037373 -0.0094242 -0.0047411 -0.0019047 0.001844
0.0011165 0.0017881 0.0028422 -0.0016843
0.0055732 0.037333 -0.26083 0.30938 0.028192 0.021585 0.0014573 0.0011672
0.0074302 -0.00060178 0.0040948 -0.0028345
-0.0094366 -0.0047046 0.028299 0.021508 0.066641 0.31636 0.001863 -9.7017e-05
0.0012462 -0.0004712 0.00075257 -0.001241
-0.0018921 0.001843 0.0014764 0.0011511 0.0018645 -7.546e-05 -0.11421 0.25808
-0.010405 0.030033 0.0033638 -0.0068165
0.0011762 0.0018192 0.0073744 -0.00062406 0.0012701 -0.00050602 -0.010358 0.030038
-0.14265 0.15009 -0.0025791 0.026628
0.0028223 -0.0016967 0.004136 -0.0028443 0.00081687 -0.0012483 0.0033998 -0.0067849
-0.0026307 0.026557 -0.19766 0.20656
980000000 -0.049941 0.28983 0.017516 0.029383 -0.0091158 0.00444 0.0018 0.0034644
0.0039684 -0.0015721 -0.0031412 -0.0023579
0.017509 0.029365 -0.20836 0.34309 0.032977 0.0045983 0.0019448 -7.0596e-05
0.0016349 -0.0060738 -0.00048184 -0.0022638
-0.0091168 0.004462 0.033039 0.004499 0.11287 0.30986 0.00044335 -0.0012537
0.00020626 -0.0022303 0.0012735 -0.00017568
0.0018054 0.0034789 0.0019533 -0.00010521 0.000447 -0.0012531 -0.076134 0.26897
0.0079985 0.029533 -0.0088449 -0.0071572
0.0039313 -0.0016152 0.0016506 -0.0061361 0.0001778 -0.0022401 0.0080746 0.029555
-0.11206 0.18002 0.0055452 0.019611
-0.0032111 -0.002359 -0.00044521 -0.0022747 0.0013142 -0.0002432 -0.0088229 -0.0071145
0.0055855 0.019508 -0.15446 0.24984
1040000000 -0.0080606 0.29802 0.033034 0.017519 -0.0014838 0.0068043 0.0024513 0.00084379
-7.4142e-05 -0.0034558 -0.0005123 -0.0015299
0.033016 0.01749 -0.17307 0.35615 0.029141 -0.015039 0.0015028 -0.0017188
-0.0025709 -0.0025929 -0.0014682 -0.0028186
-0.0014692 0.0068163 0.02914 -0.015181 0.15903 0.29625 -0.00054262 -0.001507
-0.0016663 -0.00087259 -0.0006235 -0.0010687
0.0024709 0.00086095 0.001488 -0.0017438 -0.00055288 -0.0015036 -0.0489 0.27917
0.019072 0.017475 -0.0025215 0.001416
-0.00012929 -0.0034824 -0.0025573 -0.0025671 -0.0016718 -0.00090437 0.019129 0.017396
-0.07997 0.18638 0.013507 0.018191
-0.00048854 -0.001511 -0.0015708 -0.0027843 -0.00060899 -0.001094 -0.0025525 0.0013685
0.013576 0.018126 -0.13324 0.27118
1100000000 0.037103 0.30569 0.035467 -0.0047609 0.0026915 0.0039054 0.0024117 -0.0011767
-0.0020086 -0.0030805 -0.0040943 0.00017482
0.035443 -0.00475 -0.12994 0.37325 0.01494 -0.027963 5.7725e-05 -0.0017989
-0.0035797 -0.0007492 -0.0035918 -0.00043178
0.0027075 0.0038967 0.014861 -0.02806 0.20559 0.27574 -0.0018822 0.000282
-0.0018216 0.00060524 -0.0010936 -0.00023007
0.002414 -0.001185 4.9599e-05 -0.0018149 -0.0018733 0.00028848 -0.0088338 0.28414
0.024262 0.0046172 -0.002701 0.00012077
-0.0020236 -0.0031175 -0.003591 -0.00072177 -0.0018173 0.00061414 0.024287 0.0045705
-0.062166 0.20039 0.019243 0.0085936
-0.0040514 0.00016994 -0.0035728 -0.00044081 -0.0010799 -0.00023209 -0.002704 0.00012624
0.019207 0.008613 -0.08728 0.2999
1160000000 0.08817 0.30065 0.023329 -0.021054 0.002451 -0.00031036 -0.00011134 -0.0023417
-0.0042249 -0.00072506 -0.00083903 0.004302
0.023354 -0.021035 -0.086461 0.37782 -0.0041158 -0.029157 -0.0017743 -0.0017435
-0.0027148 0.0026158 -0.0014359 0.0019401
0.0024339 -0.00032631 -0.0042285 -0.029174 0.24867 0.24461 -0.0007108 0.0018155
-0.00045389 0.0021157 -0.00082903 0.00021458
-0.0001177 -0.0023337 -0.0017902 -0.0017415 -0.00072155 0.0018326 0.030212 0.28153
0.020458 -0.010686 -0.0030748 0.005206
-0.0042448 -0.00070066 -0.0027369 0.0026205 -0.00045382 0.0021097 0.020456 -0.010767
-0.02836 0.20871 0.018136 0.00022941
-0.00079231 0.0043574 -0.0014212 0.0019293 -0.00085699 0.00019761 -0.0031071 0.0052037
0.018128 0.00015104 -0.040639 0.30271
1220000000 0.13253 0.28964 0.0096322 -0.029976 -0.0016613 -0.00055553 0.00014714 -0.0010189
-0.0026146 0.0025167 0.0013845 0.0021299
0.0096606 -0.02994 -0.042107 0.38996 -0.017204 -0.021042 -0.0025607 0.00047401
0.00018872 0.0031569 -0.00069968 0.0019943
-0.0016796 -0.00055248 -0.017316 -0.020984 0.28768 0.20509 0.00083734 0.0017058
0.00071977 0.0011986 0.00038155 0.00066843
0.00013263 -0.0010236 -0.0025612 0.00048154 0.00083668 0.0017088 0.07007 0.27336
0.0097677 -0.017067 0.0020857 0.0016623
-0.002635 0.0025099 0.00021064 0.003132 0.00072947 0.0011694 0.0097354 -0.01711
-0.005904 0.21796 0.013733 -0.013118
0.0013776 0.0021051 -0.00068468 0.00201 0.00038711 0.00066245 0.0020193 0.0016268
0.013757 -0.013176 -0.0093399 0.31903
1280000000 0.18214 0.2676 -0.0086298 -0.028107 -0.0017842 0.0028797 -0.00090665 -0.0021316
-0.00076744 0.0030965 0.0026199 0.0011163
-0.0085921 -0.028097 0.0040229 0.38115 -0.024002 -0.0082443 -0.0010503 0.0015408
0.0018227 0.0018336 0.0006087 0.0020301
-0.0017838 0.0028831 -0.024057 -0.0081417 0.31772 0.16101 0.0015793 -6.4346e-05
0.0010893 0.00011977 0.00041947 0.00030689
-0.00092214 -0.002121 -0.0010528 0.0015453 0.0015905 -6.3801e-05 0.10691 0.25741
0.00035718 -0.018766 6.7538e-05 0.00035945
-0.00076746 0.0031031 0.001828 0.0018076 0.0011096 0.00014198 0.00033223 -0.018776
0.030333 0.22202 0.0026868 -0.015153
0.0025885 0.0011222 0.00063584 0.0020064 0.00038967 0.00024542 4.0459e-05 0.00033881
0.002696 -0.015149 0.038428 0.32103
1340000000 0.21923 0.23377 -0.018049 -0.018128 0.0011651 0.0046831 -0.0018762 -0.00093262
0.0015353 0.0026533 0.0016648 -0.0014797
-0.018016 -0.018111 0.043683 0.37285 -0.02169 0.0046037 -7.1904e-05 0.0020574
0.0020424 0.00066614 0.001358 0.00078788
0.0011912 0.0046699 -0.021686 0.004713 0.33918 0.11322 0.0011905 -0.0010391
0.00072736 -0.00043916 0.00013382 0.00025218
-0.0018849 -0.00092106 -7.2364e-05 0.0020601 0.0011871 -0.0010463 0.13991 0.23731
-0.0087813 -0.015816 0.00094209 0.00065925
0.001564 0.0026476 0.0020199 0.0006755 0.00072394 -0.00044266 -0.008822 -0.015796
0.060311 0.21791 -0.0041142 -0.013519
0.0016757 -0.001487 0.0013641 0.00079681 0.00015853 0.00025561 0.00094659 0.00065512
-0.004098 -0.013538 0.076796 0.31588
1400000000 0.25233 0.19548 -0.023322 -0.0065451 0.0055541 0.0031306 -0.002231 0.00073027
0.0025105 0.00089179 0.00023017 -0.0014674
-0.023287 -0.006546 0.080989 0.3597 -0.014723 0.012751 0.001378 0.001297
0.0011673 -0.00095827 0.0012056 0.00015082
0.0055649 0.003099 -0.014689 0.012844 0.35216 0.060161 -9.0038e-07 -0.0017441
2.1725e-05 -0.00038499 0.00040153 0.00022238
-0.0022335 0.00073594 0.001393 0.0012941 5.0977e-06 -0.0017321 0.16976 0.20855
-0.014377 -0.0090281 -0.00064419 -0.00026383
0.0024965 0.00084278 0.0011452 -0.00097725 -7.8958e-06 -0.000425 -0.014399 -0.009014
0.093138 0.21379 -0.0105 -0.008608
0.00022564 -0.0015049 0.0012447 0.00014453 0.00046901 0.00024064 -0.00062573 -0.00026521
-0.010501 -0.0085995 0.12155 0.30484
1460000000 0.27495 0.15116 -0.019893 0.0055035 0.0058325 -0.0020151 -0.0016154 0.0018598
0.0021649 -0.00063236 -0.0003998 -0.0010367
-0.019872 0.005482 0.11529 0.33768 -0.0058845 0.015546 0.0017542 0.00013191
0.00070407 -0.0013397 0.0011608 -0.00059352
0.005834 -0.0020404 -0.0058096 0.01559 0.35806 0.0062744 -0.0013426 -0.0012518
0.00021103 -0.00028875 0.00059492 -0.00036491
-0.001615 0.0018662 0.0017558 0.00014069 -0.0013301 -0.0012511 0.19641 0.17936
-0.015239 -0.0023328 -0.00070819 0.0020006
0.0021544 -0.00064763 0.00068954 -0.0013333 0.00020898 -0.00026537 -0.015239 -0.002312
0.1227 0.19969 -0.01206 -0.0024945
-0.00041629 -0.0010276 0.0011665 -0.00060025 0.00058036 -0.00039244 -0.00072638 0.0019947
-0.012049 -0.0025223 0.1548 0.28384
1520000000 0.28693 0.10899 -0.013916 0.010627 0.0033867 -0.004443 0.00018153 0.0027122
0.0019919 -0.0017711 -0.0011412 -9.3514e-05
-0.013905 0.010615 0.14874 0.32269 0.0018249 0.013192 0.0016017 -0.00087449
-7.4216e-05 -0.00098836 0.0003315 -0.0010287
0.003359 -0.0044713 0.0018991 0.013186 0.35154 -0.049887 -0.001221 -0.00030637
0.00069372 -0.00089227 4.0147e-05 -0.00011964
0.0001909 0.0027122 0.0016029 -0.00088446 -0.0012208 -0.00030792 0.21982 0.14131
-0.014259 0.0031803 0.0015555 0.0020194
0.0019887 -0.0017793 -7.522e-05 -0.00099709 0.00067245 -0.00090553 -0.014244 0.0032234
0.15085 0.18574 -0.011718 0.0020633
-0.0011767 -8.5438e-05 0.00032548 -0.0010373 1.8659e-05 -0.00013748 0.001568 0.0020264
-0.011711 0.0020466 0.18788 0.26321
1580000000 0.2958 0.062563 -0.0072337 0.013267 -0.00087683 -0.0050659 0.0015571 0.0019114
-0.00032949 -0.002186 -0.00028254 0.00043277
-0.0072325 0.013258 0.17594 0.29778 0.0054948 0.0082543 0.00042051 -0.0015816
-0.00048059 -0.00092448 -0.00024158 -0.00089793
-0.00089879 -0.0050539 0.0055456 0.0082235 0.33168 -0.10743 -0.0015231 0.00070531
-0.00015821 -0.0011755 0.00019687 -0.00050715
0.0015687 0.0019129 0.00041105 -0.0015927 -0.0015242 0.00069079 0.234 0.10174
-0.010523 0.0077199 0.0022425 0.00061942
-0.0003343 -0.0021746 -0.00048601 -0.00090526 -0.00022996 -0.0012187 -0.010538 0.00776
0.17555 0.16764 -0.0091267 0.0076691
-0.00029804 0.00041958 -0.00026125 -0.00090697 0.00020084 -0.00050156 0.0022414 0.00061953
-0.0091162 0.0076678 0.2199 0.23609
1640000000 0.29726 0.021221 -0.00074405 0.01181 -0.0028823 -0.0028021 0.0027912 0.00091316
-0.00089591 -0.0014853 -0.00032133 0.00057499
-0.0007532 0.011807 0.20528 0.27263 0.0061201 0.0033646 -0.00072633 -0.0017165
-0.0009356 -0.00037598 -0.00055707 -0.00069455
-0.0028987 -0.0027859 0.0061488 0.0033274 0.30333 -0.15638 -0.00063541 0.0014167
-0.0011996 -0.00086508 -0.00021452 -0.00035226
0.0027986 0.00090284 -0.00073707 -0.0017059 -0.000641 0.0014225 0.24622 0.052651
-0.0063501 0.0085485 0.0025435 -0.00082965
-0.00090992 -0.0014741 -0.00094671 -0.00037324 -0.0011934 -0.00087963 -0.0063341 0.0085662
0.19864 0.14285 -0.0043854 0.0096176
-0.0003078 0.00059151 -0.00054337 -0.00068827 -0.00019549 -0.00033201 0.0025367 -0.0008602
-0.0043729 0.0096076 0.24539 0.20495
1700000000 0.28968 -0.024041 0.0023777 0.008776 -0.003718 -9.2073e-05 0.0029735 -0.0013707
-0.0019815 -0.00060291 0.00065877 0.00036056
0.0023716 0.0087675 0.22327 0.24101 0.004078 0.00029017 -0.0014853 -0.00055243
-0.0006719 -2.4506e-05 -0.0009659 -0.00049392
-0.0037156 -6.4764e-05 0.0040866 0.00027161 0.26025 -0.19671 0.00044535 0.0015231
-0.0018925 -0.00016313 -0.00058213 -0.00084813
0.0029752 -0.001389 -0.0014889 -0.00054353 0.00043235 0.0015204 0.24299 0.0028241
-0.0037641 0.0087412 0.0015251 -0.0023801
-0.0019875 -0.00058584 -0.00067887 -2.1053e-05 -0.0018848 -0.00014557 -0.0037358 0.0087557
0.21606 0.12216 0.00043395 0.0096852
0.0006635 0.00034561 -0.00095642 -0.00050378 -0.00053936 -0.00086373 0.0015168 -0.0024034
0.00043085 0.0096779 0.26166 0.1705
1760000000 0.27697 -0.072316 0.0042991 0.0055035 -0.0025468 0.00090566 0.0011634 -0.0034884
-0.0013244 0.0007227 0.00037308 -0.00057753
0.0042936 0.0054968 0.24904 0.2011 0.001679 -0.0015613 -0.0011714 0.00020549
-0.0010651 0.00078616 -0.00060606 0.00045185
-0.0025434 0.00091931 0.0016661 -0.0015805 0.21162 -0.23008 0.0011269 0.00099954
-0.0011379 0.001542 -0.0012748 -0.00034734
0.0011479 -0.0034961 -0.0011738 0.00021459 0.001126 0.0010111 0.23361 -0.048577
-0.00087944 0.0078063 -0.00031314 -0.0025603
-0.0013394 0.00072883 -0.0010581 0.00079181 -0.0011007 0.0015711 -0.00086284 0.0078131
0.23072 0.086425 0.0043276 0.00703
0.00038717 -0.0006155 -0.00059654 0.00045661 -0.001327 -0.00031249 -0.00034674 -0.0025419
0.0043289 0.0070181 0.27414 0.13257
1820000000 0.25211 -0.10925 0.0041961 0.0021587 -0.00025246 0.0026523 -0.0011586 -0.0029897
-0.0010019 0.00088644 -7.9271e-05 -0.0001763
0.0041915 0.0021566 0.25883 0.17096 -0.0004385 -0.00031106 -0.0012855 0.00093576
-0.00013264 0.0012707 -0.00055868 0.00057474
-0.00023305 0.0026539 -0.00043829 -0.000307 0.16126 -0.24569 0.0014103 0.00041076
-0.00018767 0.0022864 -0.0013804 0.00045911
-0.0011652 -0.0029731 -0.0012821 0.00094516 0.0014143 0.0004093 0.20361 -0.095517
0.00029488 0.0061595 -0.0016971 -0.0015958
-0.0010149 0.00088933 -0.00011788 0.0012662 -0.00019897 0.0022331 0.00029474 0.0061585
0.24744 0.056742 0.0053006 0.0033349
-9.0161e-05 -0.00018827 -0.00055226 0.00057447 -0.0013582 0.00046647 -0.0016903 -0.0016197
0.0052796 0.0033057 0.27636 0.09638
1880000000 0.21675 -0.14914 0.0018422 7.2747e-05 -0.00058845 0.0023771 -0.0029625 -0.0021355
-0.00016747 0.0015399 0.00011164 -0.00061605
0.0018416 6.8184e-05 0.26306 0.12438 -0.0026902 0.0014685 -0.00015931 0.0016501
0.00050549 0.0012894 0.00013156 0.00092449
-0.00058113 0.0023667 -0.0026845 0.0014826 0.10845 -0.25582 0.0018086 -0.00090065
0.0014426 0.0019154 -0.00083088 0.0012933
-0.0029691 -0.0021343 -0.00014465 0.0016479 0.0018 -0.00089857 0.163 -0.13555
0.00066959 0.0044236 -0.0025403 0.00040039
-0.0001628 0.001547 0.00049156 0.001299 0.0014466 0.0019172 0.00069286 0.0044029
0.24956 0.023655 0.0052265 0.0011192
0.00014655 -0.00057147 0.00012635 0.00094457 -0.00090062 0.001297 -0.0025246 0.00041157
0.0052155 0.0010926 0.27595 0.061936
1940000000 0.17739 -0.17457 -0.00037366 -0.001324 0.0016318 0.0022571 -0.0038017 0.00067252
0.0012751 0.001057 -0.0005988 -0.000422
-0.00037374 -0.0013223 0.26338 0.092653 -0.0014323 0.0040074 0.00098393 0.001331
0.0018682 0.00060744 0.00091295 0.00035154
0.0016427 0.0022367 -0.0014215 0.0040208 0.062466 -0.24903 0.00043696 -0.0021069
0.0024489 0.00038452 0.00038533 0.0014491
-0.0038045 0.0006992 0.00097691 0.0013291 0.00041958 -0.0021127 0.11069 -0.16548
-0.00049151 0.0033645 -0.0015518 0.0014994
0.0012703 0.001059 0.0018563 0.00059746 0.0024969 0.00037718 -0.00044286 0.0033895
0.25063 -0.015678 0.0038322 -0.0024453
-0.00060736 -0.00040274 0.00087628 0.00033454 0.00045422 0.0014737 -0.0015838 0.0015106
0.0038282 -0.0024763 0.26484 0.026176
2000000000 0.13119 -0.18915 -0.0041501 0.00088276 0.0026914 0.0015738 -0.0022189 0.003571
0.0011145 0.00025663 -0.00053002 0.00040621
-0.0041527 0.00087939 0.24906 0.057271 -0.0010283 0.0061042 0.0016484 0.00036343
0.0014723 -0.0012307 0.00050953 0.00012996
0.0026929 0.0015703 -0.00099264 0.0061123 0.018707 -0.23393 -0.0013284 -0.0013327
0.0019574 -0.0011464 0.0016731 0.0012309
-0.002202 0.0035814 0.00165 0.00035454 -0.0013327 -0.0013432 0.057511 -0.17538
-0.0020228 0.003692 -0.00027016 0.0025065
0.0011322 0.00022174 0.0014569 -0.0012501 0.0019905 -0.0011275 -0.0019988 0.0036851
0.24368 -0.049433 0.00012139 -0.0033284
