!Keysight Technologies,M9804A,MY58100912,A.14.10.03
!Date: Thursday, April 27, 2023 10:28:33
!Correction: S11(C  6-Port  ) 
!S12(C  6-Port  ) 
!S13(C  6-Port  ) 
!S14(C  6-Port  ) 
!S15(C  6-Port  ) 
!S16(C  6-Port  ) 
!S21(C  6-Port  ) 
!S22(C  6-Port  ) 
!S23(C  6-Port  ) 
!S24(C  6-Port  ) 
!S25(C  6-Port  ) 
!S26(C  6-Port  ) 
!S31(C  6-Port  ) 
!S32(C  6-Port  ) 
!S33(C  6-Port  ) 
!S34(C  6-Port  ) 
!S35(C  6-Port  ) 
!S36(C  6-Port  ) 
!S41(C  6-Port  ) 
!S42(C  6-Port  ) 
!S43(C  6-Port  ) 
!S44(C  6-Port  ) 
!S45(C  6-Port  ) 
!S46(C  6-Port  ) 
!S51(C  6-Port  ) 
!S52(C  6-Port  ) 
!S53(C  6-Port  ) 
!S54(C  6-Port  ) 
!S55(C  6-Port  ) 
!S56(C  6-Port  ) 
!S61(C  6-Port  ) 
!S62(C  6-Port  ) 
!S63(C  6-Port  ) 
!S64(C  6-Port  ) 
!S65(C  6-Port  ) 
!S66(C  6-Port  ) 
!S6P File: Measurement: :
# Hz S  RI   R 50
500000000 -0.3385 -0.038641 -0.010342 -0.0026246 -0.0078639 0.013394 -0.0040974 0.012503
0.012453 0.0032323 -0.0044181 0.009305
-0.010321 -0.0025994 -0.41895 -0.051047 0.0074052 -0.010479 0.0015556 0.012006
0.0077719 0.0022204 0.0020711 0.013423
-0.0078402 0.013373 0.0073697 -0.01049 -0.26655 0.21064 0.0070051 0.0038126
-0.0014916 0.0080562 0.0011594 0.012121
-0.0040763 0.012471 0.0015718 0.012027 0.0069928 0.0038168 -0.33109 0.043664
-0.01873 -0.0051626 0.016021 0.024382
0.012443 0.0032214 0.0077973 0.0022093 -0.0014906 0.008076 -0.018734 -0.0051729
-0.22781 -0.19153 -0.025946 0.0054214
-0.0044061 0.0092866 0.0021055 0.013408 0.001184 0.012126 0.016031 0.024358
-0.025956 0.0054245 -0.26954 -0.1273
560000000 -0.31718 0.12491 -0.024308 -0.063059 0.0002121 0.012266 0.0050594 0.011417
0.0094279 0.0042214 0.010892 0.007819
-0.024275 -0.062975 -0.37827 0.10808 -0.041571 -0.03684 0.014103 0.0039416
-0.013474 -0.0037154 0.0027746 0.001268
0.0002409 0.012281 -0.041707 -0.036786 -0.18316 0.25906 -8.6135e-05 -0.0043191
0.020005 0.0051949 0.0063397 -0.0061871
0.0051033 0.011444 0.01411 0.0039546 -8.7703e-05 -0.0043287 -0.30664 0.13396
0.0037677 -0.023219 0.0041022 -0.021376
0.0094326 0.0042055 -0.013539 -0.0036893 0.020005 0.0051607 0.0037761 -0.0232
-0.29139 -0.015581 0.0081062 -0.048997
0.010909 0.0078061 0.0027965 0.0011923 0.0063314 -0.0061857 0.0040931 -0.02139
0.0081345 -0.04897 -0.33082 0.022532
620000000 -0.27542 0.10864 -0.023443 0.008797 0.0035243 0.0091107 0.0078177 -0.0050744
0.012252 -0.0006297 0.0019938 -0.0020673
-0.023433 0.0087884 -0.40298 0.060841 -0.018522 0.00061402 -0.0014112 -0.001911
0.011576 -0.0064325 0.0015576 -0.0028533
0.0035761 0.0090893 -0.018556 0.00066774 -0.15329 0.2682 -0.0013189 -0.0050518
-0.0027495 -0.002922 0.0086705 -0.0027486
0.0078024 -0.0050797 -0.0014402 -0.0019235 -0.00133 -0.005055 -0.26551 0.14481
-0.037543 -0.018902 0.012208 0.025902
0.012239 -0.00068429 0.011563 -0.0064594 -0.0027874 -0.0028895 -0.037572 -0.01881
-0.20986 -0.053708 -0.040552 0.013917
0.0019897 -0.0020591 0.0015413 -0.0028847 0.0086924 -0.0027507 0.012232 0.025889
-0.040545 0.013898 -0.25228 -0.011394
680000000 -0.2347 0.19442 -0.027132 -0.013607 0.0052948 0.0049923 0.0018538 -0.0070085
-0.002738 -0.011402 0.0046644 -0.0067082
-0.027096 -0.013602 -0.38751 0.15882 -0.032276 -0.00099145 -0.0015494 -0.00028281
-0.0016378 -0.0091509 -0.0014995 -0.002155
0.0052974 0.0049735 -0.032305 -0.0009099 -0.10129 0.28754 -0.00098469 -0.00023997
-0.0016554 0.00024556 -0.0027856 -0.0094355
0.0018313 -0.0069925 -0.0015672 -0.00027069 -0.00098378 -0.00024029 -0.22055 0.19608
-0.023672 -0.0067225 -0.0089264 -0.010127
-0.0027656 -0.011402 -0.0016662 -0.0091561 -0.0016539 0.00024883 -0.023675 -0.0066879
-0.25896 0.045358 -0.0062526 -0.0076337
0.0046588 -0.0067288 -0.0015055 -0.0021555 -0.0027964 -0.0094492 -0.0089523 -0.010145
-0.0062418 -0.0076186 -0.25979 0.093237
740000000 -0.18921 0.18866 -0.037873 0.026925 0.013034 -0.0053937 -0.00022122 -0.0041459
-0.0045216 -0.0029873 -0.0064278 0.0026747
-0.037868 0.026879 -0.33422 0.17754 -0.035024 0.034784 -0.00050814 -0.0065894
-0.011405 0.0084509 -0.001824 -0.0064439
0.013022 -0.0054157 -0.034957 0.034916 -0.067388 0.28503 -0.0019269 0.0032051
-0.0032255 -0.0049537 -0.001549 0.00073566
-0.00024836 -0.0041355 -0.00053232 -0.0066167 -0.0019281 0.0032088 -0.203 0.20314
-0.042749 -0.0066594 0.023505 0.014931
-0.0045524 -0.0029146 -0.01138 0.008534 -0.0031903 -0.0049802 -0.042825 -0.0065948
-0.1603 0.070979 -0.042786 0.001505
-0.0064592 0.0027054 -0.0018239 -0.006412 -0.0015475 0.00073246 0.023512 0.01492
-0.042814 0.0015463 -0.24795 0.099131
800000000 -0.15658 0.22858 -0.021996 0.01668 0.0053434 -0.010725 -0.0046376 -0.0017989
-0.0044232 0.0026989 0.0040634 0.00073015
-0.021997 0.016659 -0.33727 0.24676 -0.0076381 0.033746 -0.0024275 0.002264
-0.00098999 0.0032356 0.00092589 0.0053054
0.0053042 -0.010733 -0.0075395 0.033796 -0.027023 0.30785 0.0010234 0.0016752
0.00029372 0.0036695 -0.0018491 0.00086299
-0.0046511 -0.0017761 -0.0024254 0.0022735 0.0010245 0.0016744 -0.17444 0.2308
-0.027846 0.013794 0.013299 -0.01017
-0.0044141 0.0027077 -0.00098333 0.0032422 0.00029051 0.0036724 -0.027848 0.013862
-0.20493 0.095596 -0.0163 0.018817
0.0040827 0.00073138 0.00094729 0.0053079 -0.0018612 0.00087459 0.013296 -0.010195
-0.016322 0.018827 -0.24186 0.14783
860000000 -0.12136 0.24843 -0.01665 0.030452 -0.0032551 -0.010045 -0.0023233 0.00085101
0.0042062 0.0050978 -0.003214 -0.0027848
-0.016652 0.030425 -0.28946 0.28854 0.0080691 0.034016 -3.7546e-05 0.0019541
0.0046029 6.6016e-06 0.0030968 0.00098645
-0.0032883 -0.010042 0.0081809 0.034014 0.020588 0.3156 -0.00039042 -0.00019782
0.0029197 -0.0015347 0.0015638 0.0042457
-0.0023092 0.00083176 -6.9836e-06 0.0019578 -0.00039069 -0.00019953 -0.13803 0.24131
-0.017311 0.018574 -0.0056968 -0.0092099
0.0042221 0.005086 0.0046146 -2.3565e-05 0.0029385 -0.0015306 -0.017288 0.018669
-0.15296 0.14492 -0.024473 0.015534
-0.0032291 -0.0027763 0.0030874 0.000976 0.0015566 0.0042409 -0.0057016 -0.0092194
-0.024471 0.015522 -0.18965 0.19294
920000000 -0.096822 0.27061 0.0055669 0.037338 -0.0094273 -0.0047616 -0.0018799 0.0018267
0.0011704 0.0016613 0.0028666 -0.0016504
0.0055522 0.03731 -0.26088 0.3094 0.02816 0.021553 0.0014541 0.0011355
0.0073526 -0.00057385 0.0040669 -0.0027649
-0.0094506 -0.0047318 0.02826 0.021497 0.066652 0.31632 0.0018765 -0.00011343
0.001256 -0.00049645 0.00068524 -0.0012506
-0.0018803 0.0018331 0.001469 0.0011457 0.0018764 -0.000111 -0.11418 0.25807
-0.010463 0.030025 0.0033613 -0.0068008
0.0011888 0.0016573 0.0073477 -0.00061366 0.0012617 -0.000488 -0.010399 0.030069
-0.14258 0.15029 -0.0025807 0.026644
0.0028671 -0.0016755 0.004041 -0.0027906 0.00067086 -0.0012623 0.0033565 -0.0068033
-0.0025916 0.026623 -0.19749 0.2067
980000000 -0.049897 0.28983 0.017538 0.02934 -0.0091415 0.0044378 0.0017818 0.0035322
0.0039033 -0.0016852 -0.0031733 -0.0024311
0.017505 0.029337 -0.2083 0.34303 0.033009 0.0045782 0.0019385 -9.5264e-05
0.0016404 -0.0061805 -0.00046523 -0.0022544
-0.0091362 0.0044496 0.033049 0.004489 0.11288 0.30985 0.00045205 -0.0012423
0.00018679 -0.002226 0.001302 -0.00019091
0.0017889 0.0035166 0.0019479 -8.9383e-05 0.00044983 -0.0012456 -0.076122 0.26902
0.008006 0.029535 -0.0088208 -0.0071311
0.0038965 -0.0017013 0.0015876 -0.0062233 0.00019558 -0.0022251 0.0080779 0.029533
-0.11209 0.18006 0.0055167 0.019608
-0.0031933 -0.0024121 -0.00048325 -0.0022835 0.0012974 -0.00018196 -0.0088149 -0.0071144
0.0054877 0.019606 -0.15447 0.24995
1040000000 -0.0081084 0.29798 0.032958 0.017549 -0.0015041 0.0067984 0.0024492 0.00084308
-5.7491e-05 -0.003494 -0.00051563 -0.0015347
0.032938 0.017564 -0.17309 0.35609 0.029167 -0.015097 0.001449 -0.0017669
-0.0025304 -0.0025429 -0.001461 -0.0027942
-0.0014924 0.0067971 0.029152 -0.0152 0.15908 0.29627 -0.00057041 -0.0014906
-0.0017319 -0.00089944 -0.00062195 -0.0010849
0.0024481 0.0008318 0.0014496 -0.0017581 -0.00056995 -0.0014925 -0.048879 0.27917
0.019079 0.017468 -0.0025089 0.0014329
-7.8931e-05 -0.0034922 -0.0025667 -0.0025266 -0.0017275 -0.00089576 0.019121 0.017442
-0.079764 0.18633 0.013517 0.018177
-0.00049323 -0.0015291 -0.0014902 -0.0027915 -0.00062052 -0.0010897 -0.0025094 0.00144
0.013506 0.018185 -0.13316 0.27111
1100000000 0.037176 0.3057 0.035485 -0.0047505 0.0026833 0.0039245 0.0024133 -0.0011622
-0.0020218 -0.0030822 -0.0040583 0.00020031
0.03546 -0.004737 -0.12992 0.37323 0.014929 -0.027978 4.4871e-05 -0.0018254
-0.0035718 -0.00070861 -0.003559 -0.00040358
0.0027 0.0039163 0.01485 -0.028068 0.20564 0.27573 -0.0018876 0.00027188
-0.0018325 0.00060224 -0.0010958 -0.00023151
0.0024042 -0.0011762 4.9172e-05 -0.0018235 -0.0018835 0.00027171 -0.0087857 0.28414
0.02426 0.0046207 -0.0027132 0.00010514
-0.0020384 -0.0030851 -0.0035828 -0.0007016 -0.001823 0.00060108 0.024276 0.0045904
-0.062109 0.20034 0.019237 0.0085371
-0.0040485 0.00023057 -0.003558 -0.00038472 -0.0010984 -0.0002297 -0.0027144 0.00011112
0.019227 0.0085371 -0.087231 0.29994
1160000000 0.088213 0.30061 0.023369 -0.021061 0.0023893 -0.00032319 -0.00010946 -0.0023223
-0.004242 -0.00073042 -0.00084163 0.0043039
0.023378 -0.02102 -0.086395 0.37784 -0.0041132 -0.029198 -0.0017777 -0.0017695
-0.0027394 0.0025939 -0.0014353 0.0019392
0.0023852 -0.00034223 -0.0042385 -0.029194 0.24864 0.24461 -0.00070567 0.0018374
-0.00047865 0.0020757 -0.00085085 0.0002122
-0.00012074 -0.0023369 -0.0017731 -0.0017604 -0.00070954 0.0018317 0.030249 0.28153
0.020444 -0.010737 -0.0030861 0.0052209
-0.0042566 -0.00070949 -0.0027433 0.0026125 -0.00046631 0.0020746 0.020446 -0.010761
-0.02829 0.20875 0.018191 0.00022449
-0.00081856 0.0043192 -0.001433 0.0019319 -0.00084448 0.00021334 -0.0030806 0.0052279
0.018193 0.00022857 -0.040519 0.30272
1220000000 0.13251 0.28964 0.0095977 -0.030002 -0.0016781 -0.00056084 0.00014081 -0.0010177
-0.0026369 0.0024537 0.0013753 0.0021189
0.009618 -0.029968 -0.042089 0.38993 -0.017181 -0.021064 -0.0025423 0.00046468
0.00018824 0.0031275 -0.0007141 0.0019898
-0.0016804 -0.00055907 -0.017298 -0.021002 0.28766 0.20511 0.00085402 0.0017308
0.0007323 0.0012087 0.00038857 0.00065696
0.00012945 -0.0010246 -0.0025463 0.00047451 0.00084911 0.0017335 0.070117 0.27337
0.0097318 -0.017076 0.0020685 0.0016494
-0.0026251 0.0024652 0.00020317 0.0031251 0.00072916 0.0012104 0.0097094 -0.017094
-0.0058616 0.21798 0.013759 -0.013112
0.0013932 0.0021224 -0.00070741 0.0019878 0.00038742 0.00066072 0.0020649 0.001647
0.013764 -0.013102 -0.0092307 0.31909
1280000000 0.1822 0.26766 -0.008647 -0.028099 -0.0017853 0.0028924 -0.00093042 -0.0021237
-0.00076353 0.0030722 0.0026283 0.0011006
-0.0086213 -0.028066 0.0040315 0.38116 -0.02402 -0.0082491 -0.00105 0.0015383
0.0018217 0.0018164 0.00062248 0.0020302
-0.0017741 0.0029036 -0.024078 -0.0081509 0.31772 0.16098 0.0015892 -7.6523e-05
0.0011187 0.00015287 0.00043812 0.00028794
-0.00092848 -0.0021218 -0.0010498 0.00155 0.0015859 -7.5698e-05 0.10691 0.2574
0.00035375 -0.018766 5.5539e-05 0.00035665
-0.00074268 0.0030732 0.0018354 0.0018075 0.0011149 0.00014593 0.00030489 -0.018774
0.030378 0.22199 0.0026628 -0.015173
0.0026177 0.0010791 0.00062959 0.0020317 0.00043883 0.00028729 6.0947e-05 0.00036305
0.0026704 -0.015172 0.038552 0.32098
1340000000 0.21928 0.23378 -0.01806 -0.018117 0.0011822 0.0046672 -0.0018713 -0.00091584
0.0015521 0.0026508 0.0016639 -0.0014944
-0.018022 -0.018112 0.043718 0.37285 -0.021687 0.004612 -7.2587e-05 0.0020626
0.0020426 0.00066695 0.0013581 0.0007987
0.0012055 0.0046697 -0.021685 0.0047232 0.33916 0.11323 0.0011888 -0.0010317
0.0007047 -0.0004409 0.00013643 0.00026707
-0.001877 -0.00090301 -5.6759e-05 0.002067 0.0011833 -0.0010223 0.13995 0.23728
-0.0087953 -0.015793 0.00093839 0.00065419
0.0015708 0.0026447 0.0020405 0.00065551 0.00070675 -0.00044441 -0.0088316 -0.015778
0.060329 0.21789 -0.0041237 -0.013518
0.0016635 -0.001501 0.0013592 0.00079556 0.0001331 0.0002678 0.00093949 0.00065515
-0.0041204 -0.013525 0.076967 0.31588
1400000000 0.25231 0.19543 -0.023317 -0.0065384 0.0055597 0.0031188 -0.0022405 0.00071955
0.0024963 0.00086973 0.00022417 -0.0014873
-0.023287 -0.0065484 0.080997 0.35965 -0.014737 0.012752 0.0013836 0.0012926
0.001171 -0.00095763 0.0012128 0.00017236
0.0055784 0.0030997 -0.014686 0.012841 0.35217 0.060172 1.428e-06 -0.0017346
4.0113e-06 -0.0003961 0.00041443 0.00022623
-0.0022419 0.0007357 0.0014011 0.0012875 -8.806e-08 -0.0017289 0.16978 0.20854
-0.014383 -0.0090325 -0.00064735 -0.00027102
0.0024998 0.00085555 0.001157 -0.00097113 2.4614e-06 -0.00040461 -0.014413 -0.0090074
0.093156 0.2138 -0.010537 -0.0086249
0.00022435 -0.0014849 0.00122 0.00016249 0.00041936 0.00022504 -0.0006481 -0.00027592
-0.010538 -0.0086299 0.12167 0.30484
1460000000 0.27495 0.15115 -0.019875 0.0054864 0.0058542 -0.0020202 -0.0016181 0.0018529
0.0021671 -0.00063758 -0.00042384 -0.0010325
-0.019859 0.0054669 0.11533 0.33765 -0.0058965 0.015558 0.0017398 0.00013805
0.00069586 -0.0013198 0.0011488 -0.00058498
0.0058525 -0.0020333 -0.0058215 0.0156 0.3581 0.0062647 -0.001347 -0.0012499
0.00024057 -0.00027338 0.0006092 -0.0003967
-0.001615 0.0018575 0.0017593 0.00013761 -0.0013424 -0.001239 0.19644 0.17937
-0.015238 -0.0023309 -0.00071613 0.0019918
0.0021547 -0.00065484 0.00069369 -0.0013312 0.00024026 -0.00026633 -0.015248 -0.0022902
0.12272 0.19963 -0.012077 -0.0025128
-0.00043352 -0.0010156 0.001147 -0.00059771 0.00061647 -0.00040338 -0.00070582 0.0019881
-0.012066 -0.0025146 0.15488 0.28381
1520000000 0.28692 0.10901 -0.013905 0.010635 0.0033907 -0.0044342 0.00018517 0.0027057
0.001995 -0.0017813 -0.0011467 -0.00010574
-0.0139 0.010625 0.14877 0.32268 0.0018239 0.013196 0.0016033 -0.00087227
-7.227e-05 -0.00098142 0.00033049 -0.0010294
0.0033652 -0.0044531 0.0018991 0.013198 0.3515 -0.049909 -0.0012151 -0.00032782
0.00066664 -0.00088332 2.9829e-05 -0.00013092
0.00019009 0.0027033 0.0015978 -0.00087598 -0.0012088 -0.00033438 0.21984 0.14126
-0.014239 0.0031859 0.0015544 0.0020166
0.0019859 -0.001797 -8.0273e-05 -0.00098294 0.00067038 -0.00088984 -0.014235 0.003221
0.15088 0.18571 -0.011716 0.002054
-0.0011497 -0.00010049 0.00032003 -0.0010276 3.2911e-05 -0.00013315 0.0015567 0.0020204
-0.011715 0.0020468 0.18795 0.26317
1580000000 0.29579 0.062572 -0.0072318 0.013266 -0.00088498 -0.0050752 0.0015671 0.0019197
-0.00032142 -0.0021646 -0.00028228 0.00041976
-0.0072316 0.013252 0.17595 0.29777 0.0055044 0.0082532 0.00042078 -0.0015862
-0.0004892 -0.00091763 -0.00024297 -0.00090573
-0.0009092 -0.0050786 0.0055576 0.0082301 0.33171 -0.10747 -0.0015205 0.00070672
-0.0002063 -0.0011864 0.00020773 -0.00052334
0.0015692 0.0019058 0.00041662 -0.0015908 -0.0015184 0.00070257 0.234 0.10173
-0.010527 0.0077283 0.0022347 0.00061707
-0.00033372 -0.0021645 -0.00049372 -0.00091512 -0.00019928 -0.0011829 -0.010504 0.0077563
0.17561 0.16757 -0.0091191 0.0076794
-0.00028067 0.00042772 -0.0002589 -0.00090533 0.00020901 -0.0005297 0.0022481 0.00061652
-0.0091285 0.0076857 0.21994 0.23602
1640000000 0.29728 0.021177 -0.00074972 0.011807 -0.0028555 -0.0028349 0.0027869 0.00088717
-0.00089572 -0.0014914 -0.00032985 0.00059247
-0.0007601 0.01179 0.20531 0.27262 0.0061317 0.0033713 -0.0007224 -0.0017151
-0.00093892 -0.0003716 -0.00053926 -0.00070366
-0.0028706 -0.0028213 0.0061594 0.0033439 0.30334 -0.15645 -0.00064124 0.0014732
-0.0012092 -0.00087818 -0.00018542 -0.0003419
0.0028021 0.00088635 -0.00073683 -0.0017174 -0.00064125 0.0014683 0.24625 0.052611
-0.0063471 0.0085549 0.002553 -0.00084366
-0.00090309 -0.0014776 -0.00094609 -0.00036464 -0.0012222 -0.00087417 -0.0063258 0.0085758
0.19867 0.14282 -0.0043797 0.0096279
-0.00032505 0.00059355 -0.00054519 -0.00069303 -0.00018732 -0.0003369 0.0025483 -0.00085686
-0.0043714 0.0096287 0.24541 0.20494
1700000000 0.28967 -0.024041 0.0023719 0.0087953 -0.0037166 -7.1541e-05 0.0029672 -0.0013833
-0.0019816 -0.00060644 0.00065409 0.00035997
0.0023606 0.0087802 0.22329 0.241 0.0040715 0.00029712 -0.0014874 -0.00054418
-0.00067399 -2.9225e-05 -0.00095935 -0.00048595
-0.0037241 -5.3879e-05 0.004088 0.00026254 0.26023 -0.19666 0.00046045 0.0014981
-0.0018648 -0.00018215 -0.00055775 -0.00086283
0.0029599 -0.0013905 -0.0014952 -0.00053334 0.00045489 0.0014972 0.24305 0.0027895
-0.0037412 0.0087547 0.0015241 -0.0023887
-0.0019882 -0.00058552 -0.00067459 -2.1725e-05 -0.001865 -0.00017472 -0.0037309 0.008769
0.2161 0.12211 0.00042996 0.0096708
0.00066051 0.00034995 -0.00097049 -0.00048997 -0.00056085 -0.00086497 0.0015111 -0.0023939
0.00043914 0.0096627 0.26171 0.17041
1760000000 0.27699 -0.072354 0.0042967 0.0054908 -0.0025409 0.00092538 0.0011946 -0.0034927
-0.0013299 0.00074741 0.00036178 -0.00056471
0.004291 0.0054862 0.24905 0.20107 0.0016667 -0.001564 -0.0011694 0.00021026
-0.0010702 0.00078045 -0.00059944 0.00045379
-0.0025438 0.00094331 0.0016579 -0.0015772 0.21164 -0.23015 0.0011536 0.00099466
-0.0011325 0.0015603 -0.0013159 -0.00035023
0.001173 -0.0035031 -0.0011697 0.00021326 0.0011506 0.00099407 0.23363 -0.04858
-0.00087774 0.0077922 -0.00033033 -0.0025607
-0.0013325 0.000755 -0.0010592 0.00078731 -0.0011405 0.0015515 -0.00085542 0.0078002
0.23079 0.08639 0.0043325 0.0070388
0.00035662 -0.00056765 -0.00059622 0.00046085 -0.0013077 -0.00034241 -0.00033288 -0.0025636
0.0043407 0.0070429 0.27415 0.1325
1820000000 0.25209 -0.1093 0.0041936 0.0021559 -0.00032363 0.0026792 -0.0011536 -0.0029966
-0.001014 0.00087423 -8.013e-05 -0.00015131
0.0041834 0.0021531 0.25884 0.17096 -0.0004661 -0.00030409 -0.0012938 0.00092991
-0.00014764 0.0012589 -0.00055864 0.00057758
-0.00030363 0.0026824 -0.00045978 -0.00030848 0.16119 -0.24564 0.001405 0.0004322
-0.00020977 0.0023078 -0.0013868 0.00044174
-0.0011684 -0.0029888 -0.0012863 0.00093901 0.0013935 0.00042429 0.20361 -0.095563
0.00029048 0.0061709 -0.0017246 -0.0016156
-0.00099859 0.00088763 -0.00013215 0.0012614 -0.00020242 0.002294 0.00029514 0.0061697
0.24745 0.056636 0.0052971 0.0033061
-7.8196e-05 -0.00015517 -0.00055208 0.00057864 -0.0013806 0.00045582 -0.0017101 -0.0016048
0.0053018 0.0032993 0.27643 0.096272
1880000000 0.21673 -0.14916 0.0018455 6.7563e-05 -0.00059793 0.002398 -0.0029948 -0.0021259
-0.0001745 0.0015357 0.00011406 -0.00060124
0.0018349 6.3506e-05 0.26308 0.12437 -0.002695 0.001452 -0.00016703 0.0016383
0.00049821 0.0013006 0.00013468 0.00093474
-0.00057036 0.0024094 -0.0026949 0.0014699 0.10847 -0.25586 0.0017711 -0.00088874
0.0014599 0.0019538 -0.00086555 0.0012999
-0.0029959 -0.0020973 -0.00014835 0.0016439 0.001773 -0.00088363 0.16298 -0.13552
0.00068002 0.0044065 -0.0025733 0.00041822
-0.00016277 0.0015367 0.00050111 0.0012951 0.0014528 0.0019551 0.00068912 0.0043997
0.24956 0.023604 0.0052088 0.0010996
0.00010965 -0.00060789 0.00013687 0.00093154 -0.00085853 0.0013047 -0.0025481 0.00042763
0.005211 0.0011085 0.27595 0.061827
1940000000 0.17733 -0.17459 -0.0003809 -0.0013369 0.0016222 0.0022405 -0.0038094 0.00065403
0.0012562 0.0010307 -0.0005936 -0.0004379
-0.00036679 -0.0013381 0.2634 0.092624 -0.0014465 0.0040124 0.0009862 0.0012986
0.0018875 0.00059972 0.00091661 0.00034638
0.0016261 0.0022384 -0.0014237 0.00403 0.062388 -0.24887 0.00041584 -0.002118
0.0024645 0.00036377 0.0004101 0.0014747
-0.0038105 0.00068523 0.00099691 0.0012919 0.00042234 -0.0021168 0.11067 -0.1655
-0.00046872 0.0033725 -0.0015552 0.001516
0.0012652 0.0010204 0.0018915 0.00058505 0.0024859 0.00034384 -0.0004528 0.0033766
0.25061 -0.015731 0.0038254 -0.002457
-0.00059944 -0.00042986 0.00091793 0.00033553 0.00041109 0.0014653 -0.0015533 0.0015089
0.003824 -0.0024618 0.26483 0.026068
2000000000 0.13117 -0.18919 -0.0041338 0.00089365 0.0027546 0.0016334 -0.0022037 0.0035851
0.0011312 0.00025583 -0.00053261 0.00039593
-0.0041285 0.00089205 0.24905 0.057254 -0.0010295 0.0061323 0.0016343 0.00034977
0.0014708 -0.0012404 0.00051063 0.00011835
0.0027707 0.0016079 -0.00099277 0.0061483 0.01875 -0.23403 -0.0012906 -0.0013188
0.0020003 -0.0011232 0.0016454 0.0012335
-0.0021797 0.0035944 0.0016459 0.00034899 -0.001294 -0.001317 0.057514 -0.17543
-0.0019622 0.0036687 -0.00026707 0.0025284
0.0011345 0.00025208 0.0014582 -0.001253 0.0019999 -0.0011279 -0.0019546 0.0036863
0.24367 -0.049466 0.00013958 -0.0032951
