!Keysight Technologies,M9804A,MY58100912,A.14.10.03
!Date: Thursday, April 27, 2023 10:28:33
!Correction: S11(C  6-Port  ) 
!S12(C  6-Port  ) 
!S13(C  6-Port  ) 
!S14(C  6-Port  ) 
!S15(C  6-Port  ) 
!S16(C  6-Port  ) 
!S21(C  6-Port  ) 
!S22(C  6-Port  ) 
!S23(C  6-Port  ) 
!S24(C  6-Port  ) 
!S25(C  6-Port  ) 
!S26(C  6-Port  ) 
!S31(C  6-Port  ) 
!S32(C  6-Port  ) 
!S33(C  6-Port  ) 
!S34(C  6-Port  ) 
!S35(C  6-Port  ) 
!S36(C  6-Port  ) 
!S41(C  6-Port  ) 
!S42(C  6-Port  ) 
!S43(C  6-Port  ) 
!S44(C  6-Port  ) 
!S45(C  6-Port  ) 
!S46(C  6-Port  ) 
!S51(C  6-Port  ) 
!S52(C  6-Port  ) 
!S53(C  6-Port  ) 
!S54(C  6-Port  ) 
!S55(C  6-Port  ) 
!S56(C  6-Port  ) 
!S61(C  6-Port  ) 
!S62(C  6-Port  ) 
!S63(C  6-Port  ) 
!S64(C  6-Port  ) 
!S65(C  6-Port  ) 
!S66(C  6-Port  ) 
!S6P File: Measurement: :
# Hz S  RI   R 50
500000000 -0.33857 -0.038528 -0.010256 -0.0026533 -0.0078224 0.013285 -0.0041138 0.012423
0.012433 0.003109 -0.0045494 0.0093929
-0.010273 -0.0025961 -0.41898 -0.051028 0.0073889 -0.010454 0.0015902 0.011979
0.0078398 0.0022668 0.0021038 0.013344
-0.0078046 0.013333 0.0073735 -0.010473 -0.26658 0.21064 0.0069978 0.0038233
-0.0013901 0.0080471 0.0011652 0.012085
-0.0040558 0.012428 0.0015918 0.012025 0.0069924 0.0038391 -0.33095 0.04371
-0.018728 -0.0051614 0.016157 0.024375
0.01238 0.0031488 0.0078348 0.0021741 -0.0014387 0.0080189 -0.01871 -0.0051315
-0.228 -0.19166 -0.026028 0.0054329
-0.0044339 0.0092507 0.0021412 0.013402 0.0011635 0.012124 0.016246 0.024514
-0.025939 0.0054219 -0.26928 -0.12714
560000000 -0.31714 0.12492 -0.024274 -0.06293 0.00019556 0.012319 0.0051271 0.011241
0.0095597 0.0042364 0.010857 0.0078256
-0.024232 -0.062862 -0.37805 0.10824 -0.041794 -0.036928 0.014065 0.0040439
-0.013603 -0.0036777 0.0028599 0.0011589
0.00015364 0.012327 -0.041921 -0.036836 -0.18297 0.25902 -0.00019676 -0.004284
0.020046 0.004971 0.0063039 -0.0060498
0.0052444 0.011317 0.014058 0.0039568 -0.00018508 -0.0042793 -0.30628 0.13402
0.0038043 -0.023085 0.0040901 -0.021494
0.009494 0.0041939 -0.013523 -0.003619 0.019975 0.0050368 0.0038461 -0.023089
-0.29151 -0.015433 0.0082095 -0.048916
0.010918 0.007746 0.0027773 0.0010399 0.0063115 -0.0060133 0.0040197 -0.021437
0.0081851 -0.0489 -0.33085 0.02251
620000000 -0.27543 0.10853 -0.023448 0.0087586 0.0036019 0.0091951 0.0078185 -0.0049817
0.012148 -0.00065715 0.0018198 -0.0021619
-0.023406 0.008795 -0.40298 0.060893 -0.018482 0.00053472 -0.0014658 -0.0018757
0.011555 -0.006551 0.0016176 -0.0028284
0.0036542 0.0091828 -0.018535 0.00061047 -0.15325 0.26797 -0.0012811 -0.0050343
-0.0029847 -0.00287 0.0088249 -0.0027708
0.0077827 -0.0049643 -0.0014768 -0.0019062 -0.0013056 -0.0050502 -0.26528 0.14479
-0.037718 -0.018642 0.012134 0.026008
0.012169 -0.00083043 0.011599 -0.006517 -0.0028831 -0.002815 -0.037758 -0.018639
-0.20971 -0.054049 -0.040667 0.013671
0.001963 -0.0020877 0.0016157 -0.0029272 0.0087266 -0.0028487 0.012226 0.025982
-0.040621 0.013814 -0.25218 -0.01147
680000000 -0.23456 0.19446 -0.027122 -0.013591 0.0052755 0.0050423 0.0018526 -0.0070077
-0.0027123 -0.011447 0.0047012 -0.0067084
-0.027116 -0.013588 -0.38756 0.15885 -0.032282 -0.00096886 -0.0015629 -0.00024698
-0.0015659 -0.0091166 -0.0015314 -0.0021415
0.0052815 0.0050427 -0.03231 -0.00088146 -0.1013 0.28758 -0.00095642 -0.00023406
-0.001607 0.00020941 -0.0027924 -0.0094209
0.0018983 -0.006982 -0.001575 -0.00023919 -0.00095926 -0.00023779 -0.22045 0.19605
-0.023718 -0.0067367 -0.0089359 -0.010177
-0.0026965 -0.011446 -0.0015733 -0.0091324 -0.0015941 0.00021106 -0.023759 -0.0067227
-0.2591 0.045432 -0.0062528 -0.0076547
0.0046789 -0.0067607 -0.0015257 -0.0021295 -0.0028023 -0.0094126 -0.0089516 -0.010244
-0.0062575 -0.0077121 -0.25981 0.093181
740000000 -0.18908 0.18852 -0.037923 0.027003 0.012962 -0.0053505 -0.00020952 -0.0041199
-0.0045876 -0.0029526 -0.0064574 0.0026054
-0.037934 0.026958 -0.33422 0.17763 -0.034987 0.034739 -0.0004738 -0.0066088
-0.01138 0.0084559 -0.0018301 -0.0064803
0.012946 -0.0054119 -0.034919 0.03488 -0.067333 0.28506 -0.0019488 0.0032304
-0.0031324 -0.0049611 -0.0015024 0.00069873
-0.00021405 -0.0041257 -0.00052687 -0.0066183 -0.0019537 0.0032309 -0.20292 0.20309
-0.04284 -0.0065318 0.023462 0.014948
-0.0045329 -0.0029688 -0.011376 0.0084835 -0.0031764 -0.0050248 -0.042859 -0.0065106
-0.16025 0.070864 -0.042867 0.0014566
-0.006474 0.0026508 -0.0017304 -0.0064761 -0.0015411 0.00079337 0.023501 0.014917
-0.042881 0.0014586 -0.24787 0.099005
800000000 -0.15654 0.22857 -0.022038 0.016743 0.0053245 -0.010744 -0.0046219 -0.0018175
-0.0043561 0.0027281 0.0041745 0.00078737
-0.022043 0.016725 -0.33729 0.2468 -0.0076192 0.033745 -0.0024204 0.0022834
-0.0010606 0.0032896 0.00086347 0.0053112
0.0052828 -0.010771 -0.0075333 0.033801 -0.027023 0.30784 0.00099564 0.0016532
0.00022697 0.0036289 -0.0018992 0.00082027
-0.0046228 -0.001789 -0.0024137 0.0022801 0.0010032 0.0016456 -0.17449 0.23082
-0.027799 0.013839 0.013324 -0.010164
-0.004312 0.0027834 -0.0010462 0.0033317 0.00024493 0.003655 -0.02779 0.013906
-0.20488 0.095609 -0.016238 0.018894
0.0041908 0.00079575 0.00090435 0.0053659 -0.0019065 0.00083149 0.013308 -0.010192
-0.016274 0.018934 -0.24174 0.14797
860000000 -0.12138 0.24837 -0.016674 0.030434 -0.0033017 -0.010041 -0.0023651 0.00075998
0.0041515 0.0050161 -0.0031745 -0.0027256
-0.016665 0.030407 -0.28949 0.28848 0.0080696 0.033979 -4.2833e-07 0.0020113
0.0045647 -6.5104e-05 0.003052 0.00098622
-0.0033115 -0.010021 0.0081774 0.033979 0.020627 0.31555 -0.00039016 -0.0001748
0.0029814 -0.0014716 0.0015333 0.004169
-0.0023626 0.00078655 2.3929e-05 0.0020021 -0.00039049 -0.00018437 -0.13803 0.24132
-0.017326 0.018623 -0.0057062 -0.0092065
0.004201 0.0050054 0.0046028 -9.4957e-05 0.0030074 -0.0015228 -0.01725 0.018647
-0.15318 0.14508 -0.024433 0.015571
-0.0031868 -0.0027183 0.0030539 0.0010258 0.0015054 0.0042049 -0.0057201 -0.0092128
-0.024401 0.015489 -0.18963 0.19292
920000000 -0.096773 0.27065 0.0055435 0.0373 -0.0094342 -0.0047518 -0.0018763 0.0018112
0.0011939 0.0016784 0.0028716 -0.0016419
0.0055236 0.037269 -0.26086 0.30944 0.028172 0.021593 0.0014602 0.0011818
0.0073998 -0.00058557 0.0040273 -0.0027924
-0.0094323 -0.0047362 0.028268 0.021529 0.066644 0.31637 0.00186 -8.3137e-05
0.0012311 -0.00047907 0.00067201 -0.0012807
-0.0018884 0.0018167 0.0014718 0.0011657 0.0018689 -8.5125e-05 -0.1142 0.25809
-0.010458 0.03003 0.0033387 -0.00678
0.0012114 0.0016547 0.007443 -0.0006158 0.0012683 -0.00047243 -0.010394 0.030063
-0.1426 0.15032 -0.0025349 0.026614
0.0028582 -0.0016407 0.0039596 -0.0027727 0.00062346 -0.001297 0.0033384 -0.0068148
-0.0025231 0.026567 -0.19742 0.20681
980000000 -0.049873 0.28984 0.017507 0.029335 -0.009152 0.0044384 0.0018029 0.0035278
0.0038946 -0.0017378 -0.003204 -0.0024103
0.017483 0.029308 -0.2083 0.34309 0.033012 0.0046107 0.0019191 -6.4021e-05
0.0016822 -0.0062013 -0.0004663 -0.0022907
-0.0091222 0.0044618 0.033043 0.0045012 0.11287 0.30984 0.00042544 -0.0012409
0.00018345 -0.002194 0.0013284 -0.00017694
0.0018031 0.003506 0.0019429 -6.3098e-05 0.00042873 -0.0012373 -0.076124 0.269
0.007996 0.029496 -0.0088069 -0.0070876
0.0038748 -0.0017373 0.0016213 -0.0062466 0.00018303 -0.0021954 0.0080659 0.029477
-0.11213 0.17994 0.0054724 0.019642
-0.0032424 -0.0024159 -0.00047414 -0.002316 0.0013549 -0.00020712 -0.008824 -0.0070587
0.0054924 0.019656 -0.15446 0.25
1040000000 -0.0080687 0.29799 0.032988 0.017533 -0.0015308 0.0068024 0.0024655 0.00082901
-0.00014201 -0.0034596 -0.00052524 -0.0015678
0.032946 0.01754 -0.1731 0.35616 0.029185 -0.015099 0.0014595 -0.001716
-0.0025394 -0.0025445 -0.0015062 -0.0028848
-0.001493 0.0068028 0.029146 -0.0152 0.1591 0.2963 -0.00057663 -0.0014879
-0.0017454 -0.00089245 -0.0006157 -0.001118
0.0024399 0.00083426 0.001454 -0.0017552 -0.00057032 -0.0014942 -0.048865 0.27921
0.019058 0.017443 -0.0025127 0.0014025
-0.00015154 -0.003456 -0.0025671 -0.0025212 -0.0017457 -0.0008572 0.019093 0.017432
-0.079716 0.18634 0.013599 0.018236
-0.00048379 -0.001548 -0.0015309 -0.0028357 -0.00062084 -0.0011382 -0.0025051 0.0014034
0.013597 0.018242 -0.13322 0.27125
1100000000 0.03718 0.30572 0.035491 -0.0047484 0.0026681 0.0039216 0.0024135 -0.0011669
-0.0020278 -0.0030934 -0.0040584 0.0001982
0.035466 -0.0047136 -0.12989 0.37327 0.014919 -0.02797 2.778e-05 -0.0018039
-0.0035976 -0.00071254 -0.0035803 -0.00038216
0.0026961 0.003915 0.014828 -0.028053 0.20562 0.27572 -0.0018786 0.00026063
-0.0018067 0.000623 -0.0011077 -0.00022167
0.002414 -0.001168 3.3102e-05 -0.0018061 -0.0018811 0.00025625 -0.0087582 0.28415
0.024293 0.0046141 -0.0026893 0.00011014
-0.0020336 -0.0030852 -0.0036063 -0.00067808 -0.0018043 0.00062313 0.02431 0.0045753
-0.062015 0.20036 0.019259 0.0085149
-0.0040494 0.0002051 -0.0035822 -0.00036594 -0.0010923 -0.00022193 -0.0026825 0.00011569
0.019247 0.008519 -0.087109 0.29999
1160000000 0.088221 0.30067 0.023366 -0.021075 0.002405 -0.00036577 -8.3991e-05 -0.0023244
-0.0042544 -0.00070219 -0.000901 0.0043381
0.023365 -0.021029 -0.086351 0.37782 -0.0041002 -0.029184 -0.0017749 -0.0017395
-0.0027532 0.0025692 -0.0014556 0.0019156
0.0024073 -0.000363 -0.0042456 -0.029185 0.24864 0.24459 -0.00068489 0.0018224
-0.00046584 0.0020723 -0.00083546 0.00022681
-0.00010463 -0.0023243 -0.0017792 -0.0017439 -0.00068838 0.0018186 0.030245 0.28154
0.020422 -0.010727 -0.003075 0.0052248
-0.0042362 -0.00068867 -0.0027533 0.0026115 -0.00047126 0.0020837 0.020438 -0.01077
-0.028278 0.20875 0.018151 0.00023824
-0.00084342 0.0043421 -0.0014238 0.0019587 -0.00083684 0.00023888 -0.0030831 0.0052425
0.018133 0.00021663 -0.040515 0.30265
1220000000 0.13251 0.28965 0.0095838 -0.029997 -0.001683 -0.00054852 0.00013467 -0.0010176
-0.0026198 0.0024656 0.0013745 0.0021161
0.009593 -0.029956 -0.042079 0.38994 -0.017182 -0.021049 -0.0025644 0.0004566
0.00020014 0.003159 -0.0007107 0.0019731
-0.0016655 -0.00055161 -0.017297 -0.021002 0.28769 0.20509 0.00085918 0.001728
0.00073087 0.0012269 0.00036418 0.00066109
0.00011963 -0.0010186 -0.0025561 0.00047316 0.00085635 0.0017249 0.070119 0.27337
0.0097552 -0.017058 0.0020289 0.0016354
-0.0026082 0.0024972 0.00020753 0.0031576 0.00072272 0.0012143 0.0097355 -0.017083
-0.005816 0.21797 0.013763 -0.013145
0.0013865 0.0020981 -0.00071831 0.0019718 0.00037888 0.00064369 0.0020383 0.0016283
0.01377 -0.013145 -0.0091494 0.31913
1280000000 0.18217 0.26763 -0.0086589 -0.028107 -0.0017788 0.00288 -0.00091153 -0.0021171
-0.00075934 0.0030714 0.0025868 0.0010771
-0.0086241 -0.028087 0.0040799 0.38117 -0.024005 -0.0082677 -0.0010471 0.001532
0.0018415 0.0018381 0.000627 0.0020067
-0.0017748 0.0028916 -0.024072 -0.0081696 0.31771 0.16098 0.0015844 -6.8447e-05
0.0011026 0.00015638 0.00041489 0.00026069
-0.00092433 -0.0021169 -0.0010418 0.0015443 0.001587 -6.4795e-05 0.10692 0.25741
0.00036557 -0.018768 4.2007e-05 0.00037784
-0.00075412 0.0030838 0.0018524 0.0018214 0.0011044 0.00014203 0.00032236 -0.018775
0.030378 0.22197 0.0026775 -0.015167
0.0025944 0.0010798 0.00063396 0.0020116 0.00040384 0.00026115 4.445e-05 0.00037318
0.0026965 -0.015174 0.038548 0.32096
1340000000 0.21927 0.23377 -0.01806 -0.018115 0.0011973 0.0046782 -0.0018697 -0.00092729
0.001553 0.0026351 0.0016709 -0.0014991
-0.018017 -0.018103 0.043712 0.37284 -0.021667 0.0046107 -6.585e-05 0.0020523
0.002014 0.00065295 0.0013496 0.00079572
0.0012172 0.0046605 -0.021675 0.0047263 0.33915 0.11321 0.0011802 -0.0010249
0.00069619 -0.00043836 0.00012133 0.00025327
-0.0018726 -0.00091675 -6.5533e-05 0.0020606 0.0011836 -0.0010252 0.13995 0.23726
-0.0087977 -0.015774 0.0009258 0.00064618
0.0015724 0.0026284 0.0020346 0.00065675 0.00069954 -0.00043581 -0.0088348 -0.015764
0.060367 0.21791 -0.0040874 -0.013535
0.0016858 -0.0015065 0.0013785 0.00080841 0.00011959 0.00027201 0.00092944 0.00066125
-0.0040859 -0.013529 0.076989 0.31586
1400000000 0.25233 0.19544 -0.023309 -0.0065269 0.0055478 0.0031405 -0.0022375 0.00074347
0.0024855 0.00088707 0.0002148 -0.0014883
-0.02328 -0.0065381 0.081012 0.35968 -0.014734 0.012751 0.0013924 0.0012875
0.001132 -0.00097137 0.0012178 0.00015138
0.0055573 0.0031171 -0.014699 0.012837 0.35215 0.060176 -9.5838e-06 -0.0017095
-8.7842e-06 -0.00041197 0.00043105 0.00022751
-0.0022376 0.00075599 0.0013922 0.0012872 -8.2439e-06 -0.001716 0.16981 0.20854
-0.014378 -0.0090284 -0.00065742 -0.00026232
0.002501 0.00085989 0.0011401 -0.00097094 -2.6968e-06 -0.00040116 -0.014404 -0.009003
0.093194 0.21381 -0.010578 -0.0085855
0.00021683 -0.0014938 0.0012279 0.00014481 0.0004271 0.00023424 -0.00065565 -0.00025045
-0.010585 -0.0085935 0.12165 0.3048
1460000000 0.27497 0.15113 -0.019879 0.005491 0.0058334 -0.0020138 -0.0016196 0.0018636
0.0021588 -0.00062676 -0.00043712 -0.0010211
-0.019861 0.0054768 0.11532 0.33763 -0.0058867 0.015567 0.0017507 0.00013824
0.00068253 -0.0013214 0.001157 -0.00058945
0.0058447 -0.0020424 -0.0058204 0.015605 0.35806 0.006219 -0.0013322 -0.0012509
0.00022172 -0.00024982 0.00059871 -0.00039521
-0.0016011 0.0018639 0.0017483 0.00013327 -0.0013222 -0.0012448 0.19647 0.17936
-0.015234 -0.0023288 -0.00073135 0.0019871
0.0021707 -0.00064874 0.00068397 -0.0013251 0.00022604 -0.00024154 -0.015253 -0.0023019
0.1227 0.19962 -0.012091 -0.002497
-0.00043331 -0.0010209 0.0011458 -0.00061154 0.00060303 -0.0004119 -0.00071572 0.0020026
-0.012066 -0.0024979 0.1549 0.28379
1520000000 0.28693 0.10901 -0.013908 0.010644 0.0033903 -0.0044443 0.00018844 0.002703
0.0019998 -0.0017708 -0.0011488 -9.421e-05
-0.013903 0.010634 0.14878 0.32267 0.0018322 0.013182 0.0016127 -0.00086123
-6.7824e-05 -0.00097262 0.00032048 -0.0010231
0.0033598 -0.0044638 0.0018987 0.013191 0.35153 -0.049897 -0.0012068 -0.00032443
0.00065621 -0.00089121 2.3917e-05 -0.00012743
0.00020551 0.0027094 0.0016123 -0.00087388 -0.0012078 -0.00033223 0.21985 0.14126
-0.014237 0.0031968 0.0015569 0.0020153
0.0020078 -0.0018034 -7.9299e-05 -0.00097845 0.00065715 -0.0008926 -0.014241 0.0032258
0.1509 0.18572 -0.011722 0.0020708
-0.001158 -7.5336e-05 0.00031951 -0.0010315 3.3476e-05 -0.00013218 0.0015576 0.0020155
-0.011714 0.0020653 0.18801 0.26315
1580000000 0.2958 0.062547 -0.0072252 0.013264 -0.00088811 -0.0050737 0.0015608 0.0019048
-0.000331 -0.0021782 -0.00027199 0.00043018
-0.0072305 0.013245 0.17597 0.29777 0.0055034 0.0082421 0.00041623 -0.0015865
-0.0004926 -0.00092699 -0.00026203 -0.00090222
-0.00091498 -0.0050701 0.0055509 0.0082345 0.33171 -0.10745 -0.0015236 0.00071897
-0.00018973 -0.0011826 0.00022714 -0.00054298
0.0015663 0.001901 0.00041148 -0.0015912 -0.0015217 0.00071492 0.234 0.10173
-0.010521 0.0077345 0.0022475 0.00061823
-0.00034199 -0.0021747 -0.00049748 -0.00092066 -0.00019797 -0.001201 -0.010503 0.0077705
0.17563 0.16756 -0.0091306 0.0076839
-0.00027623 0.00044321 -0.00026072 -0.00089749 0.0002235 -0.00054133 0.002257 0.0006079
-0.0091412 0.0076745 0.21995 0.23602
1640000000 0.29727 0.021193 -0.00074313 0.011798 -0.0028688 -0.0028116 0.0028075 0.00087057
-0.00088535 -0.0014895 -0.00032392 0.00060689
-0.00075155 0.011786 0.20531 0.27262 0.0061237 0.0033752 -0.00071783 -0.0017116
-0.00093916 -0.00037253 -0.0005482 -0.00070083
-0.002879 -0.0028129 0.0061521 0.0033429 0.30334 -0.1564 -0.00064326 0.0014474
-0.0012121 -0.00088541 -0.00019161 -0.00033415
0.002806 0.00086472 -0.00072648 -0.0017126 -0.00064936 0.0014486 0.24625 0.052601
-0.0063369 0.0085671 0.0025499 -0.00084602
-0.0008967 -0.0014811 -0.00094015 -0.00035843 -0.0012219 -0.00087921 -0.0063218 0.0085924
0.19867 0.14284 -0.0043622 0.0096286
-0.00031146 0.0006119 -0.00054493 -0.00069114 -0.0001737 -0.00033938 0.0025547 -0.00086258
-0.0043643 0.0096201 0.24545 0.20491
1700000000 0.28968 -0.024043 0.0023733 0.0087758 -0.0037277 -0.00010799 0.0029781 -0.0013632
-0.0019625 -0.00060115 0.00065037 0.00035092
0.0023691 0.0087826 0.22328 0.24099 0.0040634 0.00025716 -0.0014893 -0.00055048
-0.00067892 -3.9054e-05 -0.00096677 -0.00050516
-0.0037351 -7.0083e-05 0.0040788 0.00023361 0.26019 -0.19669 0.00047858 0.0014929
-0.001884 -0.00018065 -0.00057217 -0.00087503
0.0029799 -0.0013768 -0.0014901 -0.00053942 0.00047898 0.0014896 0.243 0.0027861
-0.0037494 0.0087548 0.0015312 -0.0023703
-0.0019733 -0.00058308 -0.00067735 -2.2848e-05 -0.0018815 -0.00016806 -0.0037346 0.0087723
0.21617 0.12209 0.00043906 0.0096657
0.00066539 0.00035794 -0.00097333 -0.00048102 -0.00057855 -0.00088038 0.0015381 -0.0023766
0.00044212 0.0096699 0.26171 0.17041
1760000000 0.27699 -0.072359 0.0042976 0.005494 -0.0025379 0.00094091 0.0011803 -0.0034714
-0.001347 0.00074268 0.00036654 -0.00057442
0.0042876 0.0054775 0.24907 0.20107 0.0016527 -0.0015791 -0.0011736 0.00020166
-0.0010817 0.00078068 -0.00060943 0.00046112
-0.0025398 0.00095159 0.0016507 -0.0015858 0.21165 -0.23021 0.001157 0.00099058
-0.0011283 0.0015406 -0.0013348 -0.00033017
0.0011709 -0.0034871 -0.0011721 0.00021395 0.0011567 0.00099026 0.23361 -0.048618
-0.00086835 0.007792 -0.00033802 -0.0025595
-0.0013393 0.00075769 -0.0010717 0.0007965 -0.0011381 0.0015502 -0.00085948 0.0077993
0.23079 0.086384 0.0043202 0.0070403
0.00036882 -0.00055626 -0.00060749 0.00046509 -0.001332 -0.00031331 -0.00033589 -0.0025671
0.004333 0.0070402 0.27415 0.13252
1820000000 0.25209 -0.10926 0.0041728 0.0021583 -0.00032126 0.0026584 -0.0011575 -0.0029864
-0.00099408 0.00089198 -7.8587e-05 -0.00016491
0.0041774 0.002162 0.25882 0.17094 -0.00047028 -0.00032021 -0.0012933 0.00092843
-0.00013934 0.0012741 -0.00056448 0.00057132
-0.00032384 0.0026631 -0.00047189 -0.00032321 0.16114 -0.24568 0.0013785 0.00043871
-0.00019855 0.0022887 -0.0013934 0.00043803
-0.0011567 -0.0029843 -0.0012882 0.00093959 0.0013742 0.00042836 0.20361 -0.095549
0.00028907 0.0061588 -0.0017049 -0.0016252
-0.00098129 0.00090071 -0.00012973 0.0012751 -0.00020139 0.0022827 0.00029872 0.0061637
0.24747 0.056611 0.0053075 0.0033028
-7.2808e-05 -0.00016917 -0.00054874 0.00058123 -0.0013902 0.00045819 -0.0017157 -0.0016166
0.0053048 0.0033065 0.2764 0.096227
1880000000 0.21672 -0.14919 0.0018534 7.3911e-05 -0.00059397 0.0023922 -0.0029978 -0.0021441
-0.00017862 0.0015528 0.00014428 -0.00055405
0.0018437 6.6244e-05 0.2631 0.12437 -0.0026798 0.0014597 -0.0001667 0.0016405
0.00048962 0.0012994 0.00011626 0.00095207
-0.0005968 0.0024057 -0.0026903 0.0014775 0.10839 -0.25584 0.0017366 -0.00090561
0.0014269 0.0019469 -0.00084943 0.0013044
-0.0030009 -0.002117 -0.00015938 0.0016496 0.0017342 -0.00090072 0.16297 -0.13556
0.00067245 0.0044052 -0.0025508 0.00040964
-0.00016908 0.001542 0.00050182 0.0012927 0.001444 0.0019428 0.00069224 0.0044028
0.24958 0.023574 0.0052002 0.0010932
0.00012753 -0.00058216 0.00012623 0.00094587 -0.00085673 0.001296 -0.0025468 0.00041521
0.0052 0.0010915 0.27589 0.061873
1940000000 0.17732 -0.17462 -0.00037863 -0.0013469 0.0016291 0.0022316 -0.0037863 0.00063503
0.001281 0.001054 -0.00060039 -0.00044807
-0.00037842 -0.0013474 0.26341 0.09261 -0.0014587 0.0040187 0.00097145 0.0012862
0.0018874 0.00060157 0.00092847 0.00032645
0.0016396 0.0022313 -0.0014392 0.0040225 0.06245 -0.24895 0.00040157 -0.002112
0.0024667 0.00034791 0.00040073 0.0014843
-0.00379 0.00067973 0.00097463 0.0012912 0.00040035 -0.002108 0.11067 -0.16551
-0.00048492 0.0033718 -0.0015797 0.0014934
0.0012843 0.0010351 0.0018987 0.00057878 0.0024704 0.00035732 -0.00047187 0.0033712
0.25061 -0.015742 0.0038115 -0.0025053
-0.00059312 -0.0004209 0.0009129 0.00031437 0.00039986 0.0014751 -0.0015898 0.0014922
0.0038065 -0.0024849 0.26482 0.025971
2000000000 0.13116 -0.1892 -0.0041558 0.00087892 0.0027387 0.0016233 -0.0022038 0.0036061
0.0011336 0.00024853 -0.00056505 0.00041296
-0.0041467 0.00087526 0.24907 0.057239 -0.0010194 0.0061287 0.0016401 0.00035469
0.0014859 -0.0012369 0.00049297 0.00011931
0.0027382 0.0016065 -0.00098193 0.0061307 0.01879 -0.23407 -0.0013005 -0.0013054
0.0019842 -0.0011388 0.0016057 0.0012348
-0.0021782 0.0036065 0.001649 0.0003428 -0.0012908 -0.0013232 0.057517 -0.1754
-0.0019976 0.0036835 -0.00029965 0.0025333
0.0011386 0.00022226 0.0014744 -0.0012602 0.0019943 -0.0011321 -0.0019789 0.0036921
