!Keysight Technologies,M9804A,MY58100912,A.14.10.03
!Date: Thursday, April 27, 2023 10:28:33
!Correction: S11(C  6-Port  ) 
!S12(C  6-Port  ) 
!S13(C  6-Port  ) 
!S14(C  6-Port  ) 
!S15(C  6-Port  ) 
!S16(C  6-Port  ) 
!S21(C  6-Port  ) 
!S22(C  6-Port  ) 
!S23(C  6-Port  ) 
!S24(C  6-Port  ) 
!S25(C  6-Port  ) 
!S26(C  6-Port  ) 
!S31(C  6-Port  ) 
!S32(C  6-Port  ) 
!S33(C  6-Port  ) 
!S34(C  6-Port  ) 
!S35(C  6-Port  ) 
!S36(C  6-Port  ) 
!S41(C  6-Port  ) 
!S42(C  6-Port  ) 
!S43(C  6-Port  ) 
!S44(C  6-Port  ) 
!S45(C  6-Port  ) 
!S46(C  6-Port  ) 
!S51(C  6-Port  ) 
!S52(C  6-Port  ) 
!S53(C  6-Port  ) 
!S54(C  6-Port  ) 
!S55(C  6-Port  ) 
!S56(C  6-Port  ) 
!S61(C  6-Port  ) 
!S62(C  6-Port  ) 
!S63(C  6-Port  ) 
!S64(C  6-Port  ) 
!S65(C  6-Port  ) 
!S66(C  6-Port  ) 
!S6P File: Measurement: :
# Hz S  RI   R 50
500000000 -0.33857 -0.038417 -0.010319 -0.002746 -0.0079724 0.013392 -0.004003 0.012375
0.0124 0.0032932 -0.0042988 0.0091669
-0.010196 -0.002859 -0.41893 -0.051117 0.0073443 -0.010512 0.0015312 0.012075
0.0077792 0.0021722 0.0021228 0.013254
-0.0078428 0.013273 0.0072523 -0.010631 -0.26675 0.21057 0.0069704 0.0038547
-0.0015362 0.0080577 0.0011066 0.012046
-0.0039088 0.012361 0.0014749 0.012038 0.0069906 0.0038582 -0.33103 0.043624
-0.018661 -0.0050448 0.016303 0.024482
0.012342 0.0032248 0.0079061 0.0024119 -0.0015223 0.0081541 -0.018682 -0.0050592
-0.22798 -0.19167 -0.025852 0.0055817
-0.004035 0.0092772 0.0019265 0.013249 0.0010897 0.012115 0.016156 0.024294
-0.025798 0.0055824 -0.269 -0.12703
560000000 -0.3173 0.12483 -0.024392 -0.062962 0.00024 0.01204 0.0051927 0.011566
0.0093764 0.0042522 0.010928 0.0076594
-0.024336 -0.062908 -0.3785 0.10827 -0.041691 -0.036908 0.014083 0.0039277
-0.013528 -0.0037258 0.0028354 0.00092269
0.00018288 0.012178 -0.0418 -0.036796 -0.18307 0.25907 -0.0001698 -0.0043113
0.02007 0.0051562 0.006476 -0.0059192
0.005018 0.011442 0.01425 0.0038044 -9.5739e-05 -0.0041534 -0.30662 0.13425
0.0037845 -0.023249 0.0039878 -0.02138
0.0096977 0.0044126 -0.013436 -0.0036618 0.019951 0.0052773 0.0037387 -0.023277
-0.29109 -0.015496 0.0083863 -0.048843
0.010927 0.0074787 0.0027067 0.00099971 0.0066047 -0.0061874 0.0041001 -0.021348
0.0083157 -0.048979 -0.33075 0.022635
620000000 -0.2754 0.10863 -0.023452 0.0088287 0.0034889 0.0091726 0.0076767 -0.0050842
0.012267 -0.00075871 0.0019755 -0.0021324
-0.023434 0.0088139 -0.40293 0.060852 -0.018436 0.00059681 -0.0014448 -0.0019118
0.01158 -0.0064429 0.0015846 -0.0029326
0.0035947 0.0090807 -0.018477 0.00060248 -0.15302 0.26806 -0.0013785 -0.0049878
-0.0027031 -0.0029376 0.0086198 -0.0028782
0.0078903 -0.0050888 -0.00144 -0.0019249 -0.0012535 -0.0049864 -0.26539 0.14507
-0.037624 -0.018962 0.0122 0.025944
0.012042 -0.00053909 0.011607 -0.0065033 -0.0028173 -0.0029893 -0.037714 -0.019034
-0.20974 -0.053641 -0.040652 0.013813
0.0018632 -0.0020396 0.0015362 -0.002834 0.0086002 -0.0027031 0.012264 0.025881
-0.040581 0.013959 -0.2519 -0.011321
680000000 -0.23456 0.19437 -0.02714 -0.013621 0.0053001 0.0049823 0.0018244 -0.0069519
-0.0028002 -0.011332 0.0046939 -0.0067524
-0.027101 -0.013658 -0.38757 0.15889 -0.032322 -0.00097803 -0.0015918 -0.00028724
-0.0016324 -0.0091402 -0.0015633 -0.0020831
0.0052633 0.0049426 -0.032347 -0.00090616 -0.10132 0.28756 -0.00096481 -0.00021269
-0.0016154 0.00018581 -0.0028657 -0.0094576
0.0018028 -0.0069844 -0.0015589 -0.00030345 -0.00095729 -0.0002685 -0.22043 0.19612
-0.023717 -0.0068354 -0.00899 -0.010142
-0.0027916 -0.011317 -0.0017546 -0.0091567 -0.0017435 0.00020008 -0.023778 -0.0068165
-0.25884 0.045529 -0.0062911 -0.0078108
0.004771 -0.0067738 -0.0014981 -0.0020183 -0.0028232 -0.0093788 -0.0088993 -0.010069
-0.0063296 -0.0077895 -0.25994 0.093472
740000000 -0.18947 0.18869 -0.037888 0.027001 0.012964 -0.0053423 -0.00028989 -0.0040965
-0.0045653 -0.0030484 -0.006525 0.002583
-0.037887 0.02695 -0.33407 0.17751 -0.035019 0.03479 -0.00052088 -0.0066195
-0.011202 0.0084666 -0.0017028 -0.006345
0.012974 -0.0053756 -0.034918 0.034936 -0.067303 0.28507 -0.0019123 0.0032222
-0.0031957 -0.0049578 -0.0015987 0.00084363
-0.00027084 -0.0040775 -0.00058679 -0.0065326 -0.0019498 0.0032191 -0.203 0.20328
-0.04274 -0.0066582 0.023565 0.01489
-0.0044085 -0.0030921 -0.011166 0.0082729 -0.0030521 -0.0048911 -0.042749 -0.0066901
-0.15997 0.071121 -0.04288 0.0013596
-0.0066166 0.0026334 -0.0018475 -0.0063584 -0.0015494 0.00072857 0.023506 0.014908
-0.042892 0.0012809 -0.24797 0.099396
800000000 -0.1566 0.22861 -0.021945 0.016677 0.005343 -0.010699 -0.0046467 -0.0018269
-0.0044839 0.0027307 0.0042027 0.00081503
-0.021936 0.016628 -0.33722 0.24678 -0.0076219 0.033777 -0.0024454 0.0022533
-0.0010322 0.003254 0.00086657 0.0053525
0.0053252 -0.010715 -0.0075263 0.033836 -0.027056 0.30787 0.0010169 0.0016475
0.00025265 0.0036701 -0.0018615 0.00082522
-0.0046637 -0.0018394 -0.0024233 0.0023057 0.0010214 0.0016624 -0.17441 0.23077
-0.027844 0.013833 0.013318 -0.010185
-0.0044333 0.002808 -0.00091471 0.0032914 0.00034667 0.0037044 -0.027868 0.013871
-0.20491 0.095569 -0.016378 0.018938
0.0040829 0.00064713 0.00093597 0.0052959 -0.0017884 0.00083265 0.013283 -0.010203
-0.016412 0.018871 -0.2418 0.14799
860000000 -0.12134 0.2485 -0.016698 0.030461 -0.0032199 -0.01006 -0.0023104 0.00078829
0.0042032 0.0050582 -0.0032202 -0.0027483
-0.016684 0.030408 -0.28955 0.28864 0.0080801 0.034008 -1.1182e-05 0.002
0.004579 -8.3177e-06 0.0030691 0.00099607
-0.0032779 -0.010065 0.0081752 0.034005 0.020627 0.3156 -0.00042672 -0.000212
0.0029324 -0.0015831 0.0015399 0.0042389
-0.0023024 0.00081082 -4.2069e-05 0.0019747 -0.00039008 -0.00017415 -0.13799 0.24134
-0.017288 0.018593 -0.0057766 -0.0092316
0.0042221 0.005066 0.0045716 -4.0668e-05 0.002888 -0.0015856 -0.017313 0.018595
-0.15284 0.14496 -0.024458 0.01552
-0.0032833 -0.0028143 0.0030814 0.00088952 0.0015496 0.0041929 -0.0057735 -0.0092004
-0.024471 0.015478 -0.18943 0.19275
920000000 -0.096779 0.2706 0.0056328 0.037312 -0.0094032 -0.0047445 -0.0019078 0.0018275
0.0011721 0.0016173 0.0028565 -0.0016576
0.0055916 0.03725 -0.26083 0.3094 0.028165 0.021549 0.001437 0.0012032
0.0073675 -0.00056317 0.0039783 -0.0027291
-0.0094011 -0.0047265 0.028277 0.021508 0.066669 0.31631 0.0018571 -9.9301e-05
0.0012442 -0.00049835 0.00060302 -0.0012548
-0.0018411 0.0018523 0.0014935 0.0011496 0.0018907 -0.00010828 -0.11415 0.25808
-0.01042 0.030085 0.0033594 -0.0068293
0.0012168 0.0016718 0.0073495 -0.00062748 0.0012527 -0.00049082 -0.010376 0.030095
-0.14256 0.15029 -0.0025917 0.026642
0.0028297 -0.0016661 0.0040621 -0.0027837 0.00071437 -0.0012405 0.0033725 -0.0068578
-0.0026289 0.026659 -0.19723 0.20681
980000000 -0.049861 0.28987 0.017535 0.029354 -0.0091464 0.0044382 0.0017822 0.003511
0.0038615 -0.0016947 -0.0032786 -0.0024144
0.017509 0.029304 -0.20827 0.34308 0.033024 0.0045978 0.0019414 -6.8207e-05
0.0015606 -0.0062056 -0.00049366 -0.0023194
-0.0091283 0.0044775 0.033044 0.0045083 0.11289 0.30988 0.00046014 -0.0012426
0.00019459 -0.0022012 0.001372 -0.00020952
0.0017919 0.0034919 0.001941 -9.0568e-05 0.00045585 -0.0012512 -0.076087 0.26898
0.0080024 0.029498 -0.0088168 -0.0071141
0.0038494 -0.0016957 0.0015527 -0.0062308 0.00016821 -0.0022028 0.0080553 0.029512
-0.11208 0.18007 0.0054967 0.019681
-0.0032018 -0.0023839 -0.00053409 -0.0022836 0.0012908 -0.00018975 -0.0088657 -0.0071017
0.0054797 0.019669 -0.15452 0.25019
1040000000 -0.0080313 0.29801 0.033009 0.01751 -0.001523 0.0068 0.0024314 0.00084434
-4.1958e-05 -0.0035249 -0.00049937 -0.0015504
0.032937 0.0175 -0.17305 0.35617 0.029199 -0.01509 0.0014457 -0.001695
-0.0025498 -0.0025297 -0.0015194 -0.0028578
-0.0014831 0.0068221 0.029169 -0.01518 0.15909 0.29626 -0.00057568 -0.0014989
-0.0017158 -0.00087038 -0.00063511 -0.001127
0.0024761 0.00084365 0.0014866 -0.0017262 -0.00056201 -0.0015047 -0.048851 0.27921
0.019097 0.017475 -0.0024989 0.0013739
-0.00011318 -0.0034498 -0.0025928 -0.0025575 -0.0017003 -0.00088908 0.01914 0.017432
-0.079727 0.18638 0.013675 0.018234
-0.00055626 -0.0015025 -0.0015574 -0.0028281 -0.0006099 -0.0010699 -0.0024823 0.0014297
0.013536 0.018227 -0.13321 0.27122
1100000000 0.037162 0.30569 0.035462 -0.0047673 0.0026994 0.0039189 0.0023911 -0.0011684
-0.0020151 -0.0030884 -0.0040589 0.00020264
0.035427 -0.0047474 -0.1299 0.37327 0.014969 -0.027985 3.7043e-05 -0.0018192
-0.0035868 -0.00071502 -0.0035479 -0.00038645
0.0026967 0.0038997 0.01487 -0.028078 0.20562 0.27573 -0.0018746 0.00028459
-0.0018265 0.0005958 -0.0010839 -0.00022521
0.0023904 -0.0011516 4.6356e-05 -0.0018103 -0.0018698 0.00029568 -0.0087698 0.28412
0.024279 0.0046166 -0.0027071 0.000102
-0.0020152 -0.00309 -0.0035832 -0.00073087 -0.0018448 0.00060924 0.024277 0.0045776
-0.062061 0.20037 0.019207 0.0084908
-0.0040594 0.0002315 -0.0036003 -0.00042152 -0.001092 -0.00023785 -0.002716 0.00012703
0.019214 0.0085418 -0.087154 0.29995
1160000000 0.088238 0.30065 0.023346 -0.021076 0.0023736 -0.00032104 -0.00011333 -0.0023432
-0.004237 -0.00073437 -0.00085621 0.0043311
0.02333 -0.021048 -0.086358 0.37783 -0.0040939 -0.029161 -0.0017664 -0.0017579
-0.0027535 0.0026138 -0.0014405 0.0019355
0.0024013 -0.00035955 -0.0042109 -0.029168 0.2487 0.24461 -0.00068521 0.0018392
-0.00048467 0.0020827 -0.00086913 0.00027553
-0.00011775 -0.0023156 -0.001769 -0.0017508 -0.00070194 0.0018258 0.030252 0.28153
0.020447 -0.010755 -0.0030635 0.0052229
-0.0042457 -0.00070289 -0.0027031 0.0026357 -0.00048572 0.0021057 0.020435 -0.01079
-0.028214 0.20874 0.01815 0.00018072
-0.00086052 0.0043191 -0.0014482 0.0019436 -0.00085878 0.00024644 -0.0030768 0.0052323
0.018172 0.00020743 -0.040521 0.30262
1220000000 0.13256 0.28962 0.0096199 -0.029985 -0.0016724 -0.00058519 0.00011714 -0.0010175
-0.0026491 0.0024698 0.0013623 0.0021056
0.0096284 -0.029961 -0.042056 0.38995 -0.017176 -0.021047 -0.0025498 0.00047379
0.00017164 0.0031298 -0.0007267 0.0019595
-0.0016784 -0.00055419 -0.01729 -0.020985 0.28766 0.20507 0.0008633 0.0017472
0.00071319 0.0012074 0.0003963 0.00065203
0.00013178 -0.0010279 -0.002571 0.00047575 0.00084581 0.0017212 0.070127 0.27331
0.0097202 -0.017076 0.0020362 0.0016434
-0.0026119 0.0024983 0.00019576 0.003139 0.00071096 0.0011938 0.0096979 -0.017089
-0.0058242 0.21798 0.013789 -0.013147
0.0013711 0.0020968 -0.00069353 0.0019798 0.00038664 0.00065993 0.0020795 0.0016133
0.013783 -0.013098 -0.0091211 0.31908
1280000000 0.18219 0.26763 -0.0086644 -0.028097 -0.0017778 0.0028684 -0.00092061 -0.0021265
-0.0007621 0.0030602 0.0025866 0.001103
-0.0086475 -0.028055 0.0040578 0.38116 -0.024014 -0.0082458 -0.0010341 0.0015401
0.0018181 0.0018144 0.00060346 0.0020183
-0.0017852 0.0028859 -0.024094 -0.0081765 0.31775 0.16096 0.001576 -7.194e-05
0.0011179 0.00015276 0.00041502 0.00026969
-0.00093069 -0.0021287 -0.0010423 0.0015374 0.0015792 -6.706e-05 0.1069 0.2574
0.00034163 -0.018763 4.3839e-05 0.00035856
-0.00073299 0.0030908 0.0018357 0.0018267 0.001112 0.00015121 0.00031688 -0.018777
0.030442 0.22194 0.0026947 -0.015178
0.0026231 0.0011272 0.00061377 0.0020465 0.00042632 0.00025498 5.4033e-05 0.00032257
0.0026844 -0.015174 0.038614 0.32096
1340000000 0.21927 0.23373 -0.018045 -0.018117 0.0011774 0.0046759 -0.0018745 -0.00092927
0.0015699 0.0026304 0.0016964 -0.001487
-0.018016 -0.018111 0.043722 0.37286 -0.021687 0.0046097 -6.3993e-05 0.0020675
0.002032 0.00066341 0.0013828 0.00082074
0.0011911 0.0046744 -0.021693 0.0047295 0.33918 0.11317 0.0011823 -0.0010234
0.00071815 -0.00044528 0.00014349 0.0002884
-0.0018962 -0.00090565 -5.7467e-05 0.0020703 0.0011848 -0.0010438 0.13998 0.23723
-0.0087913 -0.015775 0.00094078 0.00065279
0.0015606 0.0026446 0.002024 0.00065755 0.00072057 -0.00045964 -0.0088263 -0.015773
0.060345 0.21791 -0.0040856 -0.013542
0.0016859 -0.0014926 0.0013589 0.00080055 0.00014753 0.0002678 0.00093776 0.00064816
-0.0041086 -0.013529 0.07703 0.31579
1400000000 0.25231 0.19542 -0.023313 -0.0065493 0.0055517 0.003109 -0.0022403 0.00073581
0.0024954 0.00088136 0.00022688 -0.0015002
-0.023282 -0.0065591 0.081022 0.35968 -0.014718 0.012731 0.0013849 0.0012881
0.0011586 -0.00097199 0.0012282 0.00013571
0.0055723 0.0030724 -0.014675 0.012841 0.35216 0.060165 -6.9325e-06 -0.00172
-1.4527e-05 -0.0003886 0.00042606 0.0002357
-0.0022435 0.00073278 0.0014118 0.0012983 3.6414e-07 -0.0017278 0.16975 0.20854
-0.014401 -0.0090315 -0.00064342 -0.00024451
0.0025059 0.00088595 0.0011474 -0.00095903 -1.5806e-05 -0.0003864 -0.014434 -0.0089956
0.0932 0.21378 -0.01055 -0.0085658
0.00022023 -0.0014951 0.0012362 0.00014514 0.00042058 0.00023828 -0.00064326 -0.00025566
-0.01056 -0.0086051 0.12166 0.3048
1460000000 0.27495 0.15111 -0.019876 0.0055151 0.0058614 -0.0020113 -0.0016159 0.0018484
0.0021734 -0.00061948 -0.00041966 -0.0010261
-0.019863 0.0054905 0.11534 0.33766 -0.005899 0.015566 0.0017473 0.0001264
0.00069342 -0.0013228 0.0011493 -0.00059823
0.0058585 -0.0020418 -0.0058229 0.015612 0.35808 0.0062568 -0.0013402 -0.0012448
0.00023464 -0.0002863 0.00058571 -0.00040585
-0.0015916 0.0018713 0.0017505 0.00013467 -0.0013318 -0.0012519 0.19645 0.17936
-0.015235 -0.0023414 -0.00072314 0.0019875
0.0021726 -0.0006274 0.00068233 -0.0013431 0.00020085 -0.00029091 -0.015261 -0.0022973
0.12273 0.19958 -0.012071 -0.002505
-0.00043249 -0.0010329 0.0011582 -0.0005964 0.00058695 -0.00036316 -0.00070997 0.0019829
-0.012083 -0.0025163 0.15491 0.28379
1520000000 0.28691 0.10894 -0.013905 0.010624 0.0033626 -0.0044484 0.00018861 0.0026988
0.0020174 -0.0017811 -0.0011678 -8.6228e-05
-0.013898 0.010614 0.14879 0.3227 0.0018374 0.013197 0.0016073 -0.00086877
-7.3732e-05 -0.00097587 0.00033048 -0.0010239
0.0033512 -0.0044716 0.0019134 0.013192 0.35148 -0.049937 -0.0012001 -0.0003253
0.00067562 -0.00089058 3.9472e-05 -0.00012307
0.00018839 0.0027109 0.0015966 -0.0008756 -0.001213 -0.00032127 0.21984 0.14125
-0.014253 0.0031871 0.0015527 0.002032
0.00198 -0.0018034 -8.5479e-05 -0.00097857 0.00066327 -0.00089567 -0.01426 0.003226
0.1509 0.1857 -0.011699 0.0020523
-0.001162 -9.4923e-05 0.00032416 -0.0010332 2.298e-05 -0.00012805 0.001562 0.0020367
-0.011717 0.0020421 0.18797 0.26311
1580000000 0.29577 0.062555 -0.0072281 0.013264 -0.00087415 -0.0050804 0.0015619 0.0019074
-0.00032107 -0.0021435 -0.00028631 0.00043202
-0.0072355 0.013249 0.17599 0.29777 0.0055166 0.0082433 0.00042796 -0.0015918
-0.00048556 -0.00091311 -0.00024807 -0.00090414
-0.00091496 -0.0050833 0.0055658 0.0082153 0.33171 -0.10748 -0.0015229 0.00071383
-0.00020811 -0.0011805 0.00023567 -0.00053206
0.0015745 0.001903 0.00041082 -0.0016025 -0.0015154 0.00069998 0.234 0.10174
-0.01052 0.0077332 0.0022554 0.00060395
-0.0003562 -0.002155 -0.00049841 -0.00091448 -0.00020125 -0.0011864 -0.010504 0.0077568
0.17563 0.16754 -0.0091439 0.007691
-0.00028824 0.00044055 -0.00027172 -0.00091354 0.00020819 -0.00051618 0.0022522 0.00060925
-0.0091207 0.0077047 0.21999 0.23599
1640000000 0.29728 0.021168 -0.00075405 0.011792 -0.0028685 -0.0028287 0.0027892 0.00089413
-0.00088636 -0.0014871 -0.00030263 0.00059722
-0.00075822 0.011788 0.20534 0.27261 0.0061301 0.0033647 -0.00072398 -0.0017092
-0.00093412 -0.00037244 -0.00053964 -0.00070192
-0.0028848 -0.0027803 0.0061504 0.0033297 0.3033 -0.15651 -0.0006152 0.0014413
-0.0012108 -0.00087953 -0.00018672 -0.00035195
0.0027854 0.00088068 -0.00073309 -0.0017053 -0.00066088 0.0014689 0.24624 0.052607
-0.0063422 0.0085699 0.0025488 -0.0008619
-0.00090304 -0.0014809 -0.00094115 -0.00036831 -0.0012224 -0.00088299 -0.00632 0.0085903
0.1987 0.1428 -0.0043603 0.0096224
-0.00032545 0.00060945 -0.00055392 -0.00070842 -0.00018413 -0.00033578 0.0025494 -0.00087045
-0.0043642 0.0096393 0.24547 0.20489
1700000000 0.28965 -0.02405 0.0023713 0.0087832 -0.0037005 -4.9468e-05 0.0029725 -0.0013712
-0.0019775 -0.00058143 0.00064719 0.00036716
0.0023478 0.0087694 0.2233 0.24097 0.0040689 0.00028449 -0.0014771 -0.00055593
-0.00067412 -2.6323e-05 -0.00096907 -0.0004993
-0.0037273 -4.843e-05 0.0040812 0.00027389 0.26021 -0.19673 0.00047045 0.0014888
-0.001876 -0.00016624 -0.00058243 -0.00087627
0.0029739 -0.0013813 -0.0014911 -0.00054619 0.00044382 0.0014844 0.24297 0.0027685
-0.0037415 0.0087444 0.0015374 -0.0023889
-0.0019818 -0.00056895 -0.00067535 -9.2724e-06 -0.0018828 -0.00015342 -0.0037247 0.0087534
0.21615 0.12206 0.0004335 0.0096666
0.0006524 0.00036193 -0.00096015 -0.00048844 -0.00056523 -0.00087757 0.0015113 -0.0024102
0.0004376 0.009659 0.26173 0.17041
1760000000 0.27699 -0.07235 0.0042891 0.005505 -0.0025649 0.00090239 0.0011769 -0.0034982
-0.0013516 0.00075003 0.0003768 -0.00057118
0.0042799 0.0054891 0.24907 0.20106 0.0016723 -0.0015632 -0.001166 0.00020808
-0.0010784 0.00077612 -0.0006115 0.00045892
-0.0025481 0.00095436 0.0016441 -0.0015768 0.21164 -0.23012 0.0011545 0.00097641
-0.0011188 0.0015613 -0.0013223 -0.00031788
0.0011733 -0.0034845 -0.0011685 0.00022405 0.0011314 0.00099787 0.23364 -0.048587
-0.00086841 0.0077886 -0.00032691 -0.0025667
-0.0013367 0.00075361 -0.0010579 0.00078954 -0.0011277 0.0015574 -0.00084551 0.007798
0.23083 0.086346 0.0043552 0.0070353
0.00037259 -0.00059828 -0.00058749 0.00046431 -0.0013169 -0.00033669 -0.00032133 -0.0025676
0.0043379 0.0070324 0.27422 0.13247
1820000000 0.25208 -0.10936 0.0041938 0.0021463 -0.0002836 0.0026812 -0.0011472 -0.0029927
-0.0010059 0.00088509 -7.4331e-05 -0.00016712
0.0041779 0.0021432 0.25885 0.17092 -0.00046673 -0.00029295 -0.0012926 0.00093502
-0.00013414 0.0012745 -0.00055849 0.00057895
-0.00025494 0.0026751 -0.00045634 -0.00029501 0.16125 -0.2457 0.0013839 0.00040257
-0.00020861 0.0022956 -0.0013885 0.00043206
-0.0011453 -0.00299 -0.0012838 0.00095088 0.0014165 0.00039223 0.20359 -0.095572
0.00027673 0.006156 -0.0017086 -0.0016085
-0.0010052 0.00088947 -0.00012318 0.001271 -0.00019689 0.0022635 0.00030569 0.0061471
0.24751 0.056585 0.0053104 0.0032981
-7.455e-05 -0.00016091 -0.00056318 0.00058576 -0.0013656 0.00045333 -0.0016946 -0.0015933
0.0052919 0.0032948 0.27644 0.096238
1880000000 0.21673 -0.14922 0.0018413 7.2071e-05 -0.00057263 0.0024086 -0.0029641 -0.0021268
-0.00019047 0.0015309 0.00013888 -0.00057763
0.0018445 7.9705e-05 0.26309 0.12435 -0.0026984 0.0014706 -0.00015582 0.0016545
0.00048624 0.0012942 0.00010112 0.00094161
-0.00056981 0.0023924 -0.0026708 0.0014807 0.10845 -0.25579 0.0017902 -0.00088249
0.0014671 0.0019576 -0.00086043 0.0012684
-0.0030102 -0.0021114 -0.00014736 0.0016352 0.0018125 -0.00089238 0.16299 -0.13552
0.00065837 0.0043808 -0.0025335 0.00043282
-0.00016578 0.0015343 0.00049515 0.0013023 0.0014578 0.0019515 0.00067729 0.0043985
0.24957 0.023525 0.0052038 0.0011198
0.0001344 -0.00057311 0.00011992 0.00093275 -0.00087665 0.0013125 -0.0025243 0.00044742
0.0051969 0.0010968 0.2759 0.061862
1940000000 0.17734 -0.17464 -0.00037237 -0.0013466 0.0016311 0.00228 -0.0038096 0.00067605
0.0012319 0.0010338 -0.00058341 -0.00043526
-0.00037316 -0.001343 0.2634 0.092619 -0.0014576 0.0040166 0.00095789 0.0012999
0.0018832 0.00057525 0.00091556 0.00033613
0.0016541 0.0022314 -0.0014299 0.0040402 0.062402 -0.2489 0.00043146 -0.0021311
0.002456 0.0003587 0.00044084 0.0014947
-0.0037938 0.00068798 0.00099752 0.0013175 0.00042875 -0.0021021 0.11068 -0.16553
-0.00051249 0.0033819 -0.0015666 0.0015192
0.0012805 0.0010495 0.0018769 0.00058855 0.0024842 0.00032935 -0.00047653 0.0033833
0.25058 -0.015783 0.0037999 -0.0024919
-0.00060432 -0.00040918 0.00092954 0.00033764 0.0004706 0.0014412 -0.0015426 0.0015208
0.0038008 -0.002488 0.26484 0.025992
2000000000 0.13118 -0.18921 -0.0041347 0.00088391 0.0027173 0.0016108 -0.0022101 0.003575
0.0011235 0.00023986 -0.0005298 0.00041958
-0.0041364 0.0008818 0.24907 0.057212 -0.0010272 0.0061175 0.0016312 0.00034618
0.0014814 -0.0012363 0.00049717 0.00012715
0.0026871 0.0015905 -0.0009963 0.0061003 0.018711 -0.23402 -0.0013046 -0.0013213
0.0020081 -0.0011432 0.001577 0.0011958
-0.002217 0.0036004 0.0016409 0.00033518 -0.0012999 -0.0013236 0.057483 -0.1754
-0.0019842 0.0036648 -0.00025953 0.0025238
0.0010853 0.0002343 0.0014659 -0.0012517 0.0020163 -0.001145 -0.0019686 0.0036705
0.24368 -0.049597 0.00014539 -0.0032982
