!Keysight Technologies,M9804A,MY58100912,A.14.10.03
!Date: Thursday, April 27, 2023 10:28:33
!Correction: S11(C  6-Port  ) 
!S12(C  6-Port  ) 
!S13(C  6-Port  ) 
!S14(C  6-Port  ) 
!S15(C  6-Port  ) 
!S16(C  6-Port  ) 
!S21(C  6-Port  ) 
!S22(C  6-Port  ) 
!S23(C  6-Port  ) 
!S24(C  6-Port  ) 
!S25(C  6-Port  ) 
!S26(C  6-Port  ) 
!S31(C  6-Port  ) 
!S32(C  6-Port  ) 
!S33(C  6-Port  ) 
!S34(C  6-Port  ) 
!S35(C  6-Port  ) 
!S36(C  6-Port  ) 
!S41(C  6-Port  ) 
!S42(C  6-Port  ) 
!S43(C  6-Port  ) 
!S44(C  6-Port  ) 
!S45(C  6-Port  ) 
!S46(C  6-Port  ) 
!S51(C  6-Port  ) 
!S52(C  6-Port  ) 
!S53(C  6-Port  ) 
!S54(C  6-Port  ) 
!S55(C  6-Port  ) 
!S56(C  6-Port  ) 
!S61(C  6-Port  ) 
!S62(C  6-Port  ) 
!S63(C  6-Port  ) 
!S64(C  6-Port  ) 
!S65(C  6-Port  ) 
!S66(C  6-Port  ) 
!S6P File: Measurement: :
# Hz S  RI   R 50
500000000 -0.33799 -0.038316 -0.010442 -0.0031692 -0.0082077 0.013348 -0.0042546 0.012331
0.012627 0.0034964 -0.0044525 0.0081804
-0.010484 -0.0029611 -0.41876 -0.051812 0.0073254 -0.010772 0.0016599 0.011987
0.0077065 0.0026397 0.002406 0.013717
-0.008294 0.01337 0.0073221 -0.010768 -0.26658 0.21028 0.007167 0.0037228
-0.0016477 0.0081449 0.0015081 0.012497
-0.0038783 0.01178 0.0015454 0.011812 0.0070973 0.0037365 -0.3309 0.043626
-0.018932 -0.0053531 0.016212 0.024691
0.012706 0.0035145 0.0075884 0.0021421 -0.0016738 0.0078869 -0.018862 -0.0050852
-0.22745 -0.19179 -0.025882 0.0051228
-0.0039807 0.0083669 0.0015653 0.012833 0.0014173 0.012232 0.016403 0.024822
-0.026064 0.005006 -0.26934 -0.12743
560000000 -0.31772 0.12538 -0.024693 -0.062921 0.00017485 0.012294 0.0057608 0.011373
0.010036 0.0046865 0.010592 0.0071846
-0.024142 -0.063039 -0.3776 0.10844 -0.041385 -0.036719 0.013757 0.0040121
-0.013397 -0.0038598 0.0023535 0.00091151
0.0002874 0.012487 -0.041779 -0.036653 -0.18352 0.25888 -0.00012906 -0.004207
0.019746 0.0052841 0.0070325 -0.0062027
0.0055213 0.011203 0.013782 0.0041089 -6.889e-05 -0.0043329 -0.3062 0.13427
0.0037198 -0.023222 0.003978 -0.021791
0.010338 0.0046595 -0.013108 -0.0039984 0.019673 0.0051458 0.003502 -0.023244
-0.29306 -0.01592 0.0089683 -0.048791
0.010404 0.0075888 0.0023169 0.00067621 0.0068528 -0.0058203 0.0045168 -0.021844
0.009341 -0.049245 -0.33124 0.021522
620000000 -0.27531 0.10895 -0.023497 0.0087779 0.003699 0.0089504 0.0079108 -0.0046359
0.011983 -0.0011689 0.00074202 -0.0020782
-0.023424 0.0087306 -0.40287 0.060596 -0.018524 0.00068878 -0.0017371 -0.0016708
0.011552 -0.0067812 0.0016721 -0.0025586
0.0036937 0.0089395 -0.018516 0.00069163 -0.1531 0.26825 -0.0015092 -0.0048908
-0.0027947 -0.0031296 0.00864 -0.0025222
0.0077823 -0.0048357 -0.0017013 -0.001732 -0.001542 -0.0049424 -0.2653 0.14462
-0.037186 -0.018143 0.011908 0.025587
0.011904 -0.00058909 0.011742 -0.0067168 -0.0027637 -0.002932 -0.037967 -0.018451
-0.20997 -0.054568 -0.04061 0.014327
0.00081713 -0.002307 0.0017097 -0.0028693 0.0087449 -0.002756 0.011868 0.0261
-0.040683 0.014727 -0.2526 -0.013137
680000000 -0.23445 0.19441 -0.027111 -0.013443 0.0051541 0.0052192 0.0019198 -0.0067909
-0.0026423 -0.011403 0.0048166 -0.0067992
-0.027236 -0.013535 -0.38759 0.1587 -0.032388 -0.0010546 -0.0016246 -0.00015357
-0.0016149 -0.0090331 -0.0015036 -0.0021916
0.005202 0.0051839 -0.032422 -0.00093572 -0.10134 0.28743 -0.0009574 -0.00026508
-0.0017038 0.00019799 -0.0029941 -0.0094379
0.0018131 -0.0070243 -0.0016359 -0.00020797 -0.00096509 -0.00021423 -0.22059 0.19568
-0.023619 -0.0067858 -0.0086907 -0.010294
-0.0026057 -0.011243 -0.0015814 -0.0091212 -0.0015774 0.00017587 -0.023815 -0.0064868
-0.25919 0.045121 -0.0062418 -0.0078108
0.0048741 -0.0072023 -0.0016353 -0.0022689 -0.002927 -0.0093796 -0.0084522 -0.009986
-0.0062228 -0.0074163 -0.25961 0.092478
740000000 -0.19007 0.18874 -0.037658 0.026783 0.013136 -0.0051575 -0.00018985 -0.0038712
-0.0042166 -0.0030053 -0.0059564 0.0028529
-0.037574 0.026873 -0.33443 0.17767 -0.035067 0.034689 -0.00057366 -0.0064535
-0.011702 0.007713 -0.0019967 -0.0062985
0.013012 -0.0051677 -0.034911 0.034873 -0.06738 0.28491 -0.0019731 0.0033449
-0.0030285 -0.0050859 -0.0015576 0.00065393
-0.00022356 -0.003991 -0.00058632 -0.0064557 -0.0019972 0.0032716 -0.20298 0.20306
-0.042975 -0.0066171 0.023447 0.015149
-0.0043138 -0.0032679 -0.011551 0.007933 -0.003136 -0.0049793 -0.043198 -0.0064442
-0.15926 0.07054 -0.042956 0.00096985
-0.00587 0.0028216 -0.0016938 -0.0063681 -0.0014787 0.00070221 0.023664 0.014682
-0.042816 0.00099665 -0.24843 0.09865
800000000 -0.15644 0.22873 -0.021936 0.016746 0.0053845 -0.010673 -0.0045775 -0.0018959
-0.004138 0.0028633 0.0042098 0.00058853
-0.021912 0.016709 -0.33744 0.24673 -0.0076785 0.033729 -0.0024246 0.0022541
-0.001158 0.0033981 0.0009549 0.0052052
0.005322 -0.010696 -0.0075945 0.033802 -0.027076 0.30778 0.0010264 0.0016063
0.00034084 0.0036916 -0.0018009 0.0007741
-0.0047496 -0.0018698 -0.0024492 0.0022552 0.0010085 0.0016056 -0.17446 0.23089
-0.027813 0.013904 0.013683 -0.010137
-0.0040326 0.0027671 -0.0011062 0.0032613 0.00034562 0.0036019 -0.02778 0.013872
-0.20527 0.095683 -0.016707 0.018771
0.0043934 0.00070225 0.001017 0.0053276 -0.0017663 0.00078464 0.01358 -0.010065
-0.01649 0.019258 -0.2416 0.14792
860000000 -0.12147 0.24834 -0.016802 0.030354 -0.0032693 -0.010024 -0.0023221 0.000798
0.004266 0.0049473 -0.00349 -0.0025823
-0.016825 0.030372 -0.28976 0.28832 0.0080263 0.03395 -5.7697e-05 0.0019071
0.0046545 6.8484e-05 0.0031854 0.00093849
-0.0032815 -0.010049 0.0081565 0.033921 0.020556 0.3156 -0.00042382 -0.00026152
0.0028589 -0.0016184 0.0016437 0.0042206
-0.0024031 0.00065493 -0.0001069 0.0018802 -0.00043588 -0.00021538 -0.13778 0.24119
-0.017185 0.01846 -0.0057369 -0.0091323
0.0041155 0.0049924 0.0043964 -5.3052e-05 0.0028089 -0.0015267 -0.017213 0.018509
-0.15313 0.14498 -0.024623 0.015608
-0.0033977 -0.0026496 0.0033073 0.00099446 0.0016932 0.0042708 -0.0058093 -0.0092392
-0.024569 0.015434 -0.19017 0.19273
920000000 -0.096869 0.27079 0.0055699 0.037229 -0.0093439 -0.0047209 -0.0018628 0.0018603
0.0010849 0.0017694 0.0026764 -0.0015715
0.0055488 0.037247 -0.26088 0.30926 0.028235 0.021579 0.0014198 0.0011911
0.0074702 -0.00051246 0.0040727 -0.0027395
-0.0093905 -0.0047094 0.02831 0.021551 0.066647 0.31635 0.001815 -0.0001158
0.0012725 -0.00047238 0.00075427 -0.001255
-0.0018473 0.0018138 0.0013704 0.0011679 0.001847 -0.00011092 -0.11403 0.25821
-0.010349 0.030052 0.0032602 -0.0066378
0.0011704 0.0016803 0.0074609 -0.00056348 0.0012691 -0.00045603 -0.010292 0.030079
-0.14278 0.15048 -0.0024261 0.026827
0.0027449 -0.001659 0.0040058 -0.002728 0.00075223 -0.0012863 0.0032763 -0.0065146
-0.0026021 0.026928 -0.1981 0.20651
980000000 -0.050057 0.28982 0.017485 0.029402 -0.0091669 0.004437 0.0018089 0.0034594
0.003948 -0.0015899 -0.0031749 -0.0023115
0.017482 0.029393 -0.20854 0.34306 0.033031 0.0046228 0.0019332 -7.5152e-05
0.0016478 -0.0062238 -0.00046156 -0.0022157
-0.0091408 0.0044572 0.033065 0.0045237 0.11283 0.30985 0.00044748 -0.0012469
0.00018423 -0.0021688 0.0012809 -0.00019551
0.001782 0.0034223 0.0019919 -5.5286e-05 0.00046067 -0.001247 -0.076048 0.26897
0.0079909 0.029469 -0.0088957 -0.007083
0.0039422 -0.0015971 0.001647 -0.0061144 0.0002192 -0.0021614 0.0081565 0.029589
-0.11223 0.17988 0.0055871 0.0197
-0.0031289 -0.0023577 -0.00041838 -0.0022298 0.0013151 -0.00022585 -0.0088949 -0.007101
0.0055046 0.019708 -0.15457 0.2498
1040000000 -0.0082247 0.29801 0.033071 0.017569 -0.0015164 0.0068384 0.0024561 0.0008235
-2.0264e-05 -0.0034793 -0.00038747 -0.0015383
0.033053 0.017653 -0.17307 0.35611 0.029177 -0.015081 0.0014524 -0.0016447
-0.0025919 -0.0025935 -0.0015461 -0.0027254
-0.0014719 0.006841 0.029156 -0.015184 0.15904 0.29622 -0.0005648 -0.0014695
-0.0016806 -0.00082225 -0.00063192 -0.0010694
0.0024503 0.00086387 0.0014129 -0.0016692 -0.00056516 -0.0014852 -0.048837 0.27913
0.019171 0.017524 -0.0024852 0.0013729
-8.3044e-05 -0.0034693 -0.0025609 -0.0026103 -0.00168 -0.00085275 0.019191 0.01748
-0.079834 0.18644 0.013562 0.018327
-0.00050682 -0.0015175 -0.0014901 -0.0028339 -0.00066113 -0.0010396 -0.0023953 0.0013577
0.013558 0.018163 -0.1333 0.27108
1100000000 0.037061 0.30568 0.03545 -0.0047678 0.0027024 0.0039215 0.0023877 -0.0011953
-0.0019968 -0.0030812 -0.0039728 0.00013733
0.035452 -0.0047493 -0.12997 0.37321 0.014986 -0.028 5.382e-05 -0.0018052
-0.0036149 -0.00072024 -0.0035906 -0.00040314
0.0027078 0.0038939 0.014871 -0.028074 0.20553 0.27575 -0.0018807 0.00028163
-0.0018208 0.00066034 -0.0010652 -0.00020511
0.0023688 -0.0011767 2.4153e-05 -0.0018148 -0.0018802 0.00026093 -0.0087585 0.28398
0.024328 0.0046539 -0.0026991 0.00010836
-0.0020075 -0.0030927 -0.0035631 -0.00070394 -0.0018016 0.00064165 0.024381 0.0045955
-0.062183 0.20016 0.019305 0.0084226
-0.0040001 0.00020898 -0.0036188 -0.0004573 -0.0010539 -0.00024367 -0.0026869 0.00012082
0.019226 0.0084757 -0.08754 0.29995
1160000000 0.088131 0.30071 0.023413 -0.021073 0.0024459 -0.00036557 -8.6481e-05 -0.0022785
-0.0042417 -0.00074668 -0.00088055 0.0042645
0.023397 -0.021007 -0.086439 0.37784 -0.0040763 -0.029181 -0.0017463 -0.0017371
-0.0027413 0.0026046 -0.0014165 0.001996
0.0024753 -0.00034623 -0.004235 -0.029173 0.24859 0.24461 -0.00068742 0.0018222
-0.00046848 0.0020948 -0.00085077 0.0002531
-0.00013884 -0.0022453 -0.0017572 -0.0017644 -0.0006862 0.0018227 0.0302 0.28143
0.02044 -0.010741 -0.0030846 0.0051751
-0.0042325 -0.00073362 -0.0026815 0.0025145 -0.00044778 0.0020809 0.020465 -0.010799
-0.028292 0.20871 0.018206 0.00012247
-0.00093647 0.0042398 -0.0014202 0.0020323 -0.00079741 0.00022307 -0.0031354 0.0050955
0.018158 0.00017144 -0.040941 0.30265
1220000000 0.13245 0.28969 0.0096573 -0.03003 -0.0017031 -0.00060563 0.00011413 -0.00098593
-0.0027196 0.0024541 0.0013414 0.0021377
0.0096788 -0.029991 -0.042118 0.38991 -0.017187 -0.021057 -0.0025583 0.0004834
0.00015283 0.0031624 -0.00076364 0.001968
-0.0016658 -0.0005883 -0.017287 -0.021001 0.28756 0.2051 0.00086069 0.0017302
0.00071614 0.0012159 0.00037499 0.00068635
0.00010972 -0.000966 -0.0025401 0.00048235 0.00085261 0.0017424 0.070048 0.27322
0.0098177 -0.017073 0.0021115 0.001602
-0.0027147 0.0024915 0.00017925 0.0031701 0.00070431 0.0012156 0.0098025 -0.017165
-0.0059893 0.21792 0.013896 -0.013185
0.0013428 0.0021192 -0.00074027 0.0020082 0.00040667 0.00067833 0.0020517 0.0016224
0.013862 -0.013202 -0.0094942 0.31923
1280000000 0.1822 0.26765 -0.0085615 -0.028111 -0.0017999 0.0028679 -0.00094862 -0.0021818
-0.00075883 0.0030597 0.0026183 0.0011092
-0.0085472 -0.028094 0.0040456 0.38116 -0.023994 -0.0082757 -0.0010142 0.0015036
0.0018279 0.0018259 0.00062203 0.0020814
-0.0017857 0.0028698 -0.024047 -0.008164 0.3177 0.161 0.0016003 -7.8224e-05
0.0011157 0.00015444 0.00041275 0.00026765
-0.00092764 -0.0021291 -0.0010524 0.0015338 0.0016031 -9.5868e-05 0.10674 0.25732
0.00032605 -0.018853 4.0323e-05 0.00034756
-0.00070182 0.003133 0.0018829 0.001861 0.0011306 0.00014559 0.00029118 -0.018861
0.030252 0.22191 0.0027029 -0.015152
0.0026015 0.00099209 0.00064389 0.0020222 0.00040308 0.00027547 2.9847e-05 0.00033987
0.0027312 -0.015182 0.038404 0.32106
1340000000 0.21923 0.23384 -0.01806 -0.018121 0.0011655 0.0047092 -0.0018486 -0.00094218
0.0015531 0.0026799 0.0016805 -0.0014437
-0.018028 -0.018126 0.043595 0.37283 -0.021667 0.0046178 -4.9146e-05 0.0020699
0.0020494 0.00065601 0.0013974 0.0007953
0.0011588 0.0047121 -0.021695 0.0047231 0.33917 0.11328 0.0011821 -0.0010235
0.00071029 -0.00048755 0.00015423 0.00032604
-0.0018456 -0.00093307 -3.171e-05 0.0020672 0.0011908 -0.0010221 0.13981 0.23725
-0.0088402 -0.015843 0.0009496 0.00066552
0.0015669 0.0026944 0.0020421 0.00067825 0.00073323 -0.00045652 -0.0088416 -0.015812
0.060066 0.21775 -0.0040872 -0.013587
0.0016734 -0.001478 0.0014183 0.00080439 0.00014861 0.00024022 0.0009359 0.00064673
-0.0041149 -0.013606 0.076791 0.31586
1400000000 0.25236 0.19546 -0.0233 -0.0065763 0.0055295 0.0031597 -0.0022582 0.00071147
0.0024715 0.00087642 0.00022245 -0.0015196
-0.023268 -0.0065994 0.080944 0.35969 -0.014722 0.012749 0.0013958 0.0012952
0.0011555 -0.00098564 0.0012249 0.00015882
0.0055415 0.0031119 -0.0147 0.012836 0.35212 0.060171 -1.4406e-05 -0.0017453
-1.6461e-05 -0.00043508 0.00045912 0.00021548
-0.0022622 0.00073768 0.0014049 0.001291 -8.3194e-06 -0.0017513 0.16961 0.20855
-0.01449 -0.009044 -0.0005963 -0.00021365
0.0025006 0.00088834 0.0011806 -0.00098479 -1.3517e-05 -0.0004485 -0.014507 -0.0090028
0.092918 0.21375 -0.010558 -0.0086738
0.00020051 -0.0015585 0.0012358 0.00014281 0.00044182 0.00021081 -0.00058573 -0.0002141
-0.010537 -0.008691 0.12149 0.30494
1460000000 0.27489 0.15112 -0.019895 0.0054809 0.0058266 -0.0020209 -0.0016118 0.0018363
0.0021877 -0.00057731 -0.00042366 -0.0010004
-0.019887 0.0054333 0.11522 0.33769 -0.005932 0.015593 0.0017604 0.0001335
0.00071754 -0.0013337 0.0011861 -0.0005953
0.0058092 -0.0020154 -0.0058649 0.015638 0.35811 0.0062632 -0.001333 -0.001243
0.00023481 -0.0002436 0.00060663 -0.00038694
-0.001628 0.0018695 0.0017643 0.00012466 -0.0012988 -0.0012242 0.19632 0.17939
-0.015312 -0.0022928 -0.00071221 0.002005
0.0021959 -0.000597 0.00069229 -0.0013458 0.00026628 -0.00025024 -0.015322 -0.0022984
0.12245 0.1997 -0.012177 -0.0025518
-0.00041475 -0.0010339 0.0011869 -0.00061469 0.00055679 -0.00034159 -0.0006833 0.0020397
-0.012215 -0.0025318 0.15478 0.28375
1520000000 0.2869 0.10899 -0.013954 0.010596 0.0033651 -0.0044425 0.00017166 0.0027036
0.0019732 -0.0017844 -0.0011675 -7.3544e-05
-0.013961 0.010574 0.14871 0.3227 0.0018476 0.013172 0.0016018 -0.0008671
-7.6352e-05 -0.00097676 0.00033131 -0.0010252
0.0033467 -0.0044568 0.0019073 0.013179 0.35148 -0.049889 -0.0012281 -0.00029126
0.00063517 -0.00090719 1.9965e-05 -0.0001434
0.00017309 0.0027029 0.0015994 -0.00087876 -0.0012179 -0.00029843 0.21976 0.1414
-0.01427 0.003261 0.001558 0.0019953
0.0019668 -0.0017934 -7.7641e-05 -0.00099283 0.00064204 -0.00088477 -0.014269 0.003326
0.15059 0.18582 -0.011768 0.002077
-0.0011904 -2.981e-05 0.00033769 -0.0010215 4.3112e-05 -0.00012352 0.0015576 0.0020123
-0.011772 0.0020461 0.18777 0.26322
1580000000 0.29571 0.062516 -0.0072745 0.013265 -0.00089831 -0.0050506 0.0015473 0.0019152
-0.00034174 -0.0022025 -0.00031215 0.00040879
-0.0072737 0.013242 0.17589 0.29784 0.0054783 0.0082582 0.00039995 -0.0015971
-0.00051207 -0.00095215 -0.00025193 -0.00093082
-0.00089817 -0.0050289 0.0055267 0.0082469 0.33164 -0.1075 -0.0015175 0.00072131
-0.00022219 -0.0012016 0.00023905 -0.00054297
0.0015708 0.0019109 0.00040546 -0.001599 -0.00152 0.00073134 0.23394 0.10185
-0.010517 0.0078356 0.0022528 0.00057265
-0.00035374 -0.0021701 -0.00053173 -0.00094104 -0.00020284 -0.001193 -0.010516 0.0078427
0.17539 0.1678 -0.0091933 0.0076792
-0.00030635 0.00042245 -0.0002401 -0.00094637 0.00024169 -0.00057406 0.0022534 0.00055052
-0.0092156 0.007676 0.21975 0.23605
1640000000 0.29712 0.021161 -0.00079237 0.011819 -0.002866 -0.0027998 0.0028096 0.0008891
-0.00089512 -0.0014833 -0.00031956 0.00059711
-0.00079867 0.011802 0.20527 0.27266 0.0060708 0.0033754 -0.00072358 -0.0017083
-0.00093519 -0.00035402 -0.00055368 -0.00070134
-0.0029079 -0.0027971 0.006113 0.0033508 0.3032 -0.1565 -0.00061953 0.0014614
-0.0012101 -0.00091669 -0.00018997 -0.00035503
0.0028446 0.00088909 -0.00075171 -0.0017013 -0.00063646 0.0014496 0.24624 0.052725
-0.0062819 0.0086117 0.0025267 -0.00082916
-0.00088251 -0.0014859 -0.0009509 -0.00035541 -0.0012322 -0.00090177 -0.0062469 0.0086509
0.1985 0.14307 -0.0044105 0.0096515
-0.00033482 0.00062987 -0.0005645 -0.00069653 -0.00022217 -0.0003769 0.0025301 -0.0008917
-0.0043833 0.0096394 0.2451 0.20496
1700000000 0.28958 -0.023974 0.0023384 0.0088376 -0.0036574 -9.6692e-05 0.002992 -0.0013832
-0.0019883 -0.00059983 0.00064985 0.00034925
0.002324 0.0088283 0.22323 0.24104 0.0040706 0.00030169 -0.001479 -0.00056324
-0.00065395 -1.8533e-05 -0.00094081 -0.00050525
-0.003706 -6.9871e-05 0.0040671 0.0002904 0.2602 -0.19667 0.00047026 0.0014934
-0.0018657 -0.00012985 -0.00054984 -0.00087899
0.0029693 -0.0013951 -0.0014947 -0.00054684 0.00047446 0.0015043 0.24299 0.0028859
-0.0036482 0.0087486 0.001493 -0.0023705
-0.0019867 -0.00060233 -0.0006598 -9.134e-06 -0.0018585 -0.00016608 -0.0036484 0.0087422
0.21602 0.12239 0.000406 0.0097366
0.0006659 0.000327 -0.00095188 -0.00050191 -0.00055944 -0.00089838 0.0015354 -0.0023767
0.00036316 0.0097492 0.26144 0.1706
1760000000 0.2769 -0.072178 0.0042967 0.0055354 -0.0025437 0.00094456 0.0011693 -0.0035028
-0.0013298 0.00072542 0.00039196 -0.00058567
0.0042834 0.0055376 0.24905 0.20114 0.0016707 -0.0015475 -0.0011645 0.00019733
-0.001037 0.00078653 -0.00061376 0.00047588
-0.0025508 0.00094289 0.0016472 -0.0015701 0.21168 -0.23023 0.0011644 0.00097334
-0.0011009 0.0015639 -0.0013176 -0.00032418
0.0011407 -0.0035355 -0.0011605 0.00020881 0.0011565 0.00098801 0.23368 -0.048498
-0.00078825 0.0077649 -0.00034705 -0.0025768
-0.0013225 0.00072121 -0.0010403 0.00078706 -0.0011411 0.0015548 -0.00075745 0.0077753
0.23075 0.086612 0.0043287 0.0070612
0.00037363 -0.00057197 -0.0006091 0.00046704 -0.0013604 -0.00036012 -0.00033648 -0.0025761
0.0043283 0.0070777 0.27399 0.13271
1820000000 0.25207 -0.10913 0.0042038 0.0021692 -0.00034908 0.0026573 -0.0011638 -0.0030084
-0.00099787 0.00086028 -7.1632e-05 -0.00014419
0.0041892 0.0021711 0.25882 0.17098 -0.00043315 -0.00033473 -0.0012949 0.00092406
-0.00011498 0.0012492 -0.00054416 0.00055785
-0.00029 0.0026674 -0.00044571 -0.00030861 0.16121 -0.24578 0.0014204 0.00039328
-0.00019407 0.0022979 -0.0013575 0.00047167
-0.0011865 -0.0030328 -0.0012728 0.00094217 0.0014231 0.00044464 0.20368 -0.095523
0.00034852 0.0061147 -0.0017105 -0.0016528
-0.00097316 0.00088937 -0.0001169 0.001251 -0.00021772 0.0022998 0.00036605 0.0061273
0.24745 0.056882 0.0053488 0.0033909
-0.00010025 -0.00017772 -0.00054015 0.00056136 -0.0013634 0.00041262 -0.0016856 -0.0016071
0.0053532 0.0033958 0.27621 0.096615
1880000000 0.21684 -0.14904 0.0019004 9.8518e-05 -0.00057281 0.0024251 -0.0029938 -0.0020965
-0.0001955 0.0015503 0.00011094 -0.00057927
0.0018858 9.8134e-05 0.26304 0.12444 -0.0026908 0.0014492 -0.00017167 0.0016531
0.00048307 0.0012937 0.00010822 0.00093692
-0.00056458 0.0024246 -0.0026674 0.0014903 0.10839 -0.25582 0.0017918 -0.00093419
0.0014351 0.0019253 -0.00092046 0.0013183
-0.0030177 -0.0020706 -0.00017155 0.0016504 0.0017992 -0.00097051 0.16304 -0.13553
0.00069629 0.0043397 -0.0024909 0.00037519
-0.00018142 0.0015332 0.00049647 0.0012678 0.0014599 0.00192 0.00069772 0.0043137
0.24953 0.023828 0.0052777 0.0011892
7.1836e-05 -0.00053407 0.00013949 0.00093687 -0.00083643 0.001328 -0.0025358 0.00038582
0.0052825 0.0011626 0.27573 0.062207
1940000000 0.17744 -0.17443 -0.00035773 -0.0013404 0.0016459 0.002254 -0.0038221 0.00064715
0.0013089 0.001049 -0.00058059 -0.00044665
-0.00036023 -0.0013434 0.26341 0.092656 -0.0014576 0.0040287 0.00095218 0.0013176
0.0018663 0.00058823 0.00091502 0.0003225
0.0016506 0.0022447 -0.0014268 0.0040179 0.062445 -0.24891 0.00042305 -0.0021024
0.0024697 0.00036052 0.00046167 0.0014597
-0.0037671 0.00069421 0.00097622 0.0013237 0.00046687 -0.0020871 0.11072 -0.16555
-0.00044907 0.0032837 -0.0015611 0.0014545
0.001295 0.001066 0.0018522 0.00058372 0.0024757 0.0003823 -0.00042189 0.0032881
0.25064 -0.015488 0.003932 -0.0024753
-0.00065537 -0.00041283 0.00091407 0.00031514 0.00046256 0.0014769 -0.0015408 0.0014851
0.0039261 -0.0024653 0.26488 0.026406
2000000000 0.13133 -0.1891 -0.0041249 0.00089286 0.0027021 0.0016057 -0.0021735 0.0035893
0.0010741 0.00020254 -0.00055477 0.00045849
-0.004101 0.00085903 0.24903 0.057322 -0.0010642 0.0060871 0.0016466 0.00038303
0.0014551 -0.0012459 0.0005083 0.00012167
0.0027248 0.0016195 -0.0010022 0.0061071 0.018626 -0.23404 -0.0013259 -0.0013038
0.0019773 -0.0011785 0.0016781 0.0012009
-0.0021606 0.0036551 0.0016288 0.00036799 -0.0013058 -0.001316 0.057481 -0.17544
-0.0020348 0.0036453 -0.00027889 0.0024694
0.0010424 0.00023078 0.0014289 -0.0012473 0.0019946 -0.0011744 -0.0020416 0.0036231
0.24365 -0.049305 0.0002617 -0.0034199
