!Keysight Technologies,M9804A,MY58100912,A.14.10.03
!Date: Thursday, April 27, 2023 10:28:33
!Correction: S11(C  6-Port  ) 
!S12(C  6-Port  ) 
!S13(C  6-Port  ) 
!S14(C  6-Port  ) 
!S15(C  6-Port  ) 
!S16(C  6-Port  ) 
!S21(C  6-Port  ) 
!S22(C  6-Port  ) 
!S23(C  6-Port  ) 
!S24(C  6-Port  ) 
!S25(C  6-Port  ) 
!S26(C  6-Port  ) 
!S31(C  6-Port  ) 
!S32(C  6-Port  ) 
!S33(C  6-Port  ) 
!S34(C  6-Port  ) 
!S35(C  6-Port  ) 
!S36(C  6-Port  ) 
!S41(C  6-Port  ) 
!S42(C  6-Port  ) 
!S43(C  6-Port  ) 
!S44(C  6-Port  ) 
!S45(C  6-Port  ) 
!S46(C  6-Port  ) 
!S51(C  6-Port  ) 
!S52(C  6-Port  ) 
!S53(C  6-Port  ) 
!S54(C  6-Port  ) 
!S55(C  6-Port  ) 
!S56(C  6-Port  ) 
!S61(C  6-Port  ) 
!S62(C  6-Port  ) 
!S63(C  6-Port  ) 
!S64(C  6-Port  ) 
!S65(C  6-Port  ) 
!S66(C  6-Port  ) 
!S6P File: Measurement: :
# Hz S  RI   R 50
500000000 -0.33801 -0.037993 -0.010831 -0.0029021 -0.0083346 0.013438 -0.0040618 0.011839
0.012157 0.0036942 -0.0049013 0.0083829
-0.010554 -0.0029361 -0.41881 -0.05131 0.0074421 -0.010722 0.0018853 0.011968
0.0076254 0.0023676 0.0020808 0.013237
-0.008221 0.013366 0.0074792 -0.010617 -0.26656 0.21028 0.0071697 0.0038096
-0.0016541 0.0078269 0.0012175 0.012263
-0.0040893 0.011852 0.0018696 0.012016 0.0071604 0.0038418 -0.33085 0.043615
-0.018614 -0.0052544 0.017159 0.024753
0.012547 0.0033663 0.0077705 0.0022618 -0.0017012 0.0079759 -0.018531 -0.0051913
-0.22779 -0.1918 -0.026254 0.0048519
-0.0041343 0.0082565 0.0023717 0.01358 0.001326 0.012335 0.016342 0.024825
-0.026037 0.0052133 -0.26773 -0.12659
560000000 -0.31718 0.12477 -0.024532 -0.062905 0.00023836 0.012273 0.0058321 0.011174
0.010719 0.0047698 0.010975 0.0071146
-0.024669 -0.06289 -0.37784 0.10866 -0.041603 -0.036872 0.013481 0.00418
-0.013871 -0.0037561 0.0028617 0.00089746
0.00037409 0.012177 -0.041772 -0.03677 -0.1834 0.2588 -4.7784e-05 -0.0042947
0.019732 0.0050629 0.0067505 -0.0058694
0.005733 0.01119 0.013604 0.0042987 -0.00010986 -0.0043304 -0.30636 0.13435
0.0034694 -0.023453 0.0036543 -0.021498
0.0095299 0.004732 -0.012724 -0.0041381 0.019673 0.0052472 0.0033657 -0.023156
-0.29247 -0.015719 0.008338 -0.048191
0.011127 0.0071872 0.0022095 0.00097017 0.0069361 -0.0060829 0.0041876 -0.022069
0.0089565 -0.049686 -0.33127 0.021514
620000000 -0.27537 0.10831 -0.023449 0.0086168 0.003595 0.0089526 0.0080712 -0.0047276
0.012079 -0.0012563 0.0015587 -0.0022847
-0.02337 0.0086535 -0.40299 0.060733 -0.018516 0.00070498 -0.0016109 -0.0017799
0.011791 -0.0069428 0.0016769 -0.0028709
0.0035907 0.0089151 -0.018567 0.00076042 -0.15315 0.26825 -0.0014107 -0.0049778
-0.0029394 -0.0031375 0.0092085 -0.0023894
0.0078351 -0.0048328 -0.0015293 -0.0016891 -0.0014363 -0.0049309 -0.2652 0.14477
-0.037965 -0.018426 0.01169 0.025293
0.01175 -0.00062194 0.011612 -0.006799 -0.0029134 -0.0031418 -0.037922 -0.018812
-0.20902 -0.054493 -0.040385 0.014249
0.00086886 -0.0024752 0.0017169 -0.0026574 0.0085856 -0.0025701 0.011802 0.026019
-0.040932 0.01367 -0.25216 -0.01275
680000000 -0.23427 0.19422 -0.027088 -0.013442 0.0052357 0.0052602 0.0019242 -0.0069562
-0.002867 -0.011384 0.0049636 -0.0067472
-0.026952 -0.013422 -0.38761 0.1588 -0.032402 -0.00095595 -0.001509 -0.00031326
-0.0015724 -0.0092162 -0.0015365 -0.0021548
0.0052809 0.005295 -0.03244 -0.0008733 -0.10138 0.28747 -0.00085541 -0.00021764
-0.001671 0.0001447 -0.0029158 -0.0095196
0.0018584 -0.0068825 -0.0014797 -0.00022944 -0.00089351 -0.00025711 -0.22065 0.1959
-0.023831 -0.0065897 -0.0091024 -0.010372
-0.0026587 -0.011409 -0.001674 -0.0091237 -0.0017043 0.00025394 -0.023874 -0.0065564
-0.25899 0.045251 -0.0062493 -0.0075177
0.0047318 -0.0067813 -0.0016092 -0.002063 -0.0029953 -0.0093861 -0.0086535 -0.010125
-0.0064279 -0.0073985 -0.25967 0.093076
740000000 -0.18965 0.18878 -0.037691 0.026991 0.013086 -0.0052153 -0.00013275 -0.003987
-0.0044871 -0.0033954 -0.0063447 0.0024693
-0.037629 0.026901 -0.33443 0.17786 -0.035075 0.034759 -0.00067193 -0.0063236
-0.011663 0.007759 -0.0017334 -0.0060585
0.013082 -0.0051914 -0.035075 0.034838 -0.067339 0.2849 -0.0020533 0.0032797
-0.0031216 -0.0051878 -0.001658 0.00077186
-0.00012423 -0.0039953 -0.00077486 -0.0062913 -0.0020592 0.0032787 -0.2029 0.20306
-0.043094 -0.0065214 0.02392 0.014888
-0.0044601 -0.0030159 -0.011514 0.0078684 -0.0029208 -0.0049153 -0.043072 -0.0066605
-0.15986 0.071351 -0.042957 0.0010901
-0.0059268 0.0027843 -0.0019325 -0.0063866 -0.001665 0.00061331 0.023621 0.014982
-0.042641 0.0013867 -0.24738 0.099036
800000000 -0.15661 0.22854 -0.022012 0.016689 0.0052829 -0.010688 -0.0047035 -0.0018819
-0.0042484 0.0027637 0.0041277 0.0006935
-0.022053 0.016704 -0.33739 0.24667 -0.0076502 0.033756 -0.0025226 0.0022518
-0.0011464 0.0033326 0.00096516 0.0054186
0.0052397 -0.010719 -0.0075632 0.033781 -0.027089 0.30782 0.00096971 0.0015946
0.00034209 0.0036499 -0.0018077 0.00078767
-0.0047373 -0.0019146 -0.0024811 0.0023006 0.00098898 0.0016136 -0.17444 0.23077
-0.027899 0.013775 0.013494 -0.01004
-0.0042792 0.0028948 -0.0010916 0.0032904 0.0003493 0.0036503 -0.027944 0.013912
-0.20526 0.095855 -0.016546 0.0191
0.0041513 0.00053599 0.0008861 0.0052584 -0.0018013 0.00079359 0.013558 -0.010149
-0.016393 0.018979 -0.24188 0.14762
860000000 -0.12149 0.24851 -0.016802 0.030458 -0.0033371 -0.010053 -0.002398 0.00083697
0.00436 0.0049292 -0.0035199 -0.0026874
-0.016802 0.030432 -0.28973 0.28849 0.0079839 0.03395 -8.4254e-05 0.0019891
0.0045664 8.3792e-06 0.0031181 0.00078525
-0.003349 -0.010054 0.008101 0.033939 0.020553 0.31553 -0.00044697 -0.00024242
0.0028691 -0.0015713 0.0015895 0.0043284
-0.0023021 0.0008003 -1.0024e-05 0.0019865 -0.00044148 -0.00022516 -0.138 0.24118
-0.017256 0.018476 -0.0059076 -0.0093883
0.0043395 0.0049943 0.0045461 0.00011488 0.002894 -0.0015074 -0.017228 0.018489
-0.1532 0.14487 -0.024623 0.015573
-0.003555 -0.002473 0.0029364 0.00093895 0.0015912 0.0042554 -0.0058586 -0.0091955
-0.024622 0.015631 -0.18919 0.19255
920000000 -0.096798 0.27087 0.0055417 0.037241 -0.0093554 -0.0047483 -0.0018514 0.0018853
0.0010846 0.001622 0.0027965 -0.0017615
0.0055901 0.037293 -0.26086 0.30937 0.028176 0.021635 0.0014559 0.0011224
0.0074402 -0.0005534 0.0040936 -0.0028659
-0.0093931 -0.0047051 0.028279 0.021562 0.066631 0.31636 0.0018665 -0.00011379
0.001241 -0.00048312 0.00077193 -0.00125
-0.0018412 0.0018775 0.0014796 0.001143 0.0018516 -0.00011049 -0.11426 0.25812
-0.010366 0.030085 0.0033672 -0.0068104
0.0010988 0.0016761 0.00739 -0.00058874 0.0012663 -0.00051745 -0.010297 0.030093
-0.14262 0.15038 -0.0026556 0.02665
0.0026599 -0.0015324 0.0041648 -0.0027091 0.00078003 -0.0012448 0.0033192 -0.0066549
-0.0023901 0.026861 -0.19726 0.20693
980000000 -0.049985 0.28992 0.017554 0.029386 -0.0091486 0.0044413 0.0017958 0.003467
0.0039831 -0.0016915 -0.0032563 -0.0023774
0.017475 0.029398 -0.20841 0.34305 0.033007 0.0046207 0.0019608 -5.4183e-05
0.0016175 -0.0061597 -0.00054617 -0.0022951
-0.0091437 0.0044533 0.033083 0.0045005 0.11285 0.30983 0.00042746 -0.0012178
0.00020161 -0.002182 0.0012628 -0.00022511
0.0018342 0.0034915 0.0019566 -5.0741e-05 0.00044383 -0.0012322 -0.076167 0.2689
0.0080502 0.029547 -0.00882 -0.0072244
0.0039434 -0.0015968 0.0015672 -0.006185 0.00020958 -0.0021976 0.008092 0.029603
-0.11221 0.17989 0.0054022 0.019504
-0.0032063 -0.0023435 -0.00047875 -0.0022627 0.0012493 -0.0002122 -0.0088926 -0.007131
0.0056157 0.019623 -0.15475 0.24996
1040000000 -0.0081696 0.29797 0.033043 0.017528 -0.0015084 0.0068211 0.0024781 0.00087824
-9.7579e-05 -0.0035385 -0.00046669 -0.001506
0.033049 0.017592 -0.17303 0.3561 0.029158 -0.015047 0.0014468 -0.0017099
-0.0026052 -0.002662 -0.0015051 -0.0028956
-0.0014977 0.006844 0.029145 -0.01518 0.15906 0.29622 -0.00054599 -0.0014785
-0.0017059 -0.00086072 -0.00060486 -0.0010583
0.0024669 0.00081154 0.0013975 -0.0017052 -0.0005466 -0.0014759 -0.048905 0.27924
0.019137 0.017519 -0.002501 0.0013421
-3.1721e-05 -0.0035568 -0.0026309 -0.0025919 -0.0016862 -0.00083901 0.019219 0.017486
-0.079869 0.18641 0.013423 0.018052
-0.00039619 -0.0015148 -0.0015086 -0.0027392 -0.00060886 -0.0010645 -0.0024757 0.0013331
0.013565 0.017983 -0.1334 0.27111
1100000000 0.037068 0.30569 0.035448 -0.0047603 0.0026899 0.0038974 0.0023868 -0.0012034
-0.0019677 -0.0030705 -0.0040301 0.00017225
0.035431 -0.0047309 -0.12994 0.37324 0.014945 -0.027994 4.7848e-05 -0.0018298
-0.0036012 -0.00071084 -0.0035666 -0.00040199
0.0027017 0.0039054 0.014862 -0.028078 0.20559 0.27574 -0.0018623 0.00027326
-0.0018115 0.00065891 -0.0010769 -0.00022036
0.0023973 -0.0012189 3.1361e-05 -0.0018257 -0.0018606 0.00027281 -0.008817 0.28407
0.024339 0.0046501 -0.0027833 0.00015301
-0.0019799 -0.0030998 -0.0035833 -0.00068941 -0.0018112 0.00066137 0.024364 0.0046399
-0.062266 0.20023 0.019167 0.0084957
-0.003955 0.00017743 -0.0036056 -0.00040396 -0.0010473 -0.00022931 -0.0026882 0.00013827
0.019201 0.0085444 -0.087353 0.29971
1160000000 0.088133 0.30075 0.023361 -0.021061 0.0024382 -0.0003507 -0.00013391 -0.0023047
-0.0042896 -0.00069194 -0.00094404 0.0042797
0.023373 -0.021025 -0.086419 0.37783 -0.0041227 -0.029152 -0.0017529 -0.0017609
-0.0027069 0.0025427 -0.0014042 0.0019278
0.0024244 -0.00037072 -0.0042467 -0.029174 0.2486 0.24458 -0.00070772 0.0018182
-0.00048643 0.00208 -0.00083775 0.00024154
-0.00014981 -0.0022905 -0.0017757 -0.0017493 -0.00070573 0.0018143 0.030176 0.28152
0.02048 -0.01075 -0.0030505 0.0052401
-0.0042666 -0.00071953 -0.0027516 0.0025968 -0.0004684 0.0020952 0.020486 -0.010825
-0.028398 0.20866 0.01804 0.00023943
-0.00087747 0.0043045 -0.0013872 0.0019889 -0.00084695 0.0002863 -0.003095 0.0051716
0.017931 8.7936e-05 -0.040998 0.30247
1220000000 0.13252 0.28968 0.0096624 -0.030057 -0.0016886 -0.00059346 7.6802e-05 -0.001005
-0.0026665 0.0024686 0.0013163 0.0021365
0.0096489 -0.029986 -0.042108 0.38991 -0.017215 -0.021047 -0.0025343 0.00048222
0.00013983 0.0031552 -0.00071255 0.0019374
-0.001693 -0.00059527 -0.017316 -0.020998 0.28762 0.20514 0.00085331 0.001723
0.00069632 0.0012184 0.00041786 0.00066111
8.8422e-05 -0.0010005 -0.0025535 0.00050441 0.00087192 0.0017329 0.070103 0.27331
0.0098163 -0.017096 0.002044 0.0016346
-0.0026672 0.0024583 0.0001541 0.0031412 0.00072321 0.0012181 0.009776 -0.017109
-0.0059801 0.21803 0.013805 -0.013204
0.0013629 0.0021262 -0.0007664 0.0019678 0.00038626 0.00067314 0.0020931 0.0015805
0.013788 -0.013075 -0.0092533 0.31898
1280000000 0.18217 0.2677 -0.0086025 -0.028132 -0.0017896 0.0028816 -0.0009362 -0.0021235
-0.00076637 0.0030685 0.0025736 0.0011255
-0.0085881 -0.028105 0.0040294 0.38116 -0.023991 -0.0082601 -0.0010367 0.0015316
0.0018441 0.001832 0.00065618 0.0020439
-0.0017998 0.0028885 -0.024057 -0.0081585 0.31771 0.16099 0.001586 -8.2645e-05
0.0011188 0.00016352 0.00038425 0.00024959
-0.00094264 -0.0021385 -0.0010295 0.0015354 0.0015836 -8.6733e-05 0.10685 0.25739
0.00036736 -0.018831 2.3e-05 0.00038509
-0.00073896 0.0030798 0.0018682 0.0018186 0.0011257 0.00015335 0.00033454 -0.018804
0.030269 0.22194 0.0026556 -0.01512
0.0026225 0.0010759 0.00063452 0.0020721 0.00042552 0.00026075 7.0004e-05 0.00031714
0.0026523 -0.015097 0.03842 0.32081
1340000000 0.21925 0.2338 -0.018063 -0.018104 0.0011483 0.0046934 -0.0018375 -0.0009188
0.0015209 0.0026621 0.001687 -0.0015058
-0.018026 -0.018103 0.043631 0.37283 -0.021677 0.004614 -4.5494e-05 0.0020383
0.0020109 0.00067405 0.0013809 0.00081394
0.0011758 0.0046752 -0.021682 0.0047229 0.33915 0.11326 0.0011792 -0.0010101
0.00072291 -0.0004646 0.0001658 0.0002571
-0.0018461 -0.00091438 -4.2563e-05 0.002054 0.0011839 -0.0010149 0.1399 0.23728
-0.0088137 -0.015809 0.00093603 0.00064797
0.0015581 0.002656 0.0020572 0.00066369 0.00069021 -0.00048103 -0.0088483 -0.015804
0.060108 0.21781 -0.0040503 -0.013612
0.0016314 -0.0014508 0.0014164 0.00080295 0.00013582 0.00031413 0.00098188 0.00060903
-0.0040649 -0.01355 0.076788 0.31572
1400000000 0.25238 0.19541 -0.023312 -0.0065403 0.0055189 0.0031521 -0.0022487 0.00073258
0.002502 0.00090512 0.00024396 -0.0014969
-0.023263 -0.0065714 0.080941 0.35967 -0.014724 0.012765 0.0014 0.001301
0.0011678 -0.00096476 0.001225 0.00015609
0.0055528 0.0031277 -0.01469 0.01286 0.35214 0.060167 6.0688e-06 -0.001744
7.3844e-06 -0.00043984 0.00046157 0.00019594
-0.0022524 0.00071902 0.0014041 0.0012896 -2.6388e-07 -0.0017491 0.16972 0.20854
-0.014485 -0.0090365 -0.0006683 -0.00026484
0.0024959 0.0008801 0.0011601 -0.00097104 -1.2248e-05 -0.00043303 -0.014508 -0.0090127
0.09308 0.21385 -0.010517 -0.008645
0.00020304 -0.0014975 0.0012329 0.00015218 0.000442 0.00020644 -0.00063936 -0.00024281
-0.010512 -0.0086062 0.12145 0.30483
1460000000 0.27491 0.15113 -0.019888 0.0054982 0.0058326 -0.0020146 -0.0016001 0.0018608
0.0021785 -0.00061629 -0.00040357 -0.0010504
-0.01988 0.0054677 0.11526 0.33767 -0.0059222 0.015594 0.0017589 0.00016092
0.00071273 -0.0013238 0.0011905 -0.00059702
0.0058356 -0.0020357 -0.0058535 0.015639 0.35809 0.006258 -0.0012969 -0.0012258
0.00022876 -0.0002545 0.00058399 -0.00038404
-0.0015944 0.0018686 0.0017557 0.00013366 -0.0013039 -0.0012208 0.19642 0.17937
-0.0153 -0.0023535 -0.00073383 0.0020284
0.0021734 -0.0006028 0.00072853 -0.0013404 0.00023849 -0.00026744 -0.01533 -0.0022991
0.12252 0.19962 -0.012091 -0.0024924
-0.00041828 -0.00099807 0.0011763 -0.00060018 0.00058179 -0.0004144 -0.00072673 0.0020092
-0.012084 -0.0025222 0.15479 0.28377
1520000000 0.28695 0.10896 -0.013926 0.010621 0.0033627 -0.0044456 0.00017843 0.0026828
0.0020041 -0.0017992 -0.0011498 -6.2974e-05
-0.013927 0.010599 0.14874 0.32269 0.0018332 0.013184 0.0016002 -0.00086755
-7.0663e-05 -0.00098424 0.0003212 -0.0010233
0.0033409 -0.0044614 0.0019098 0.013185 0.35147 -0.049857 -0.001226 -0.00029579
0.00064202 -0.00090771 1.0175e-05 -9.1484e-05
0.000174 0.0026875 0.0015917 -0.00087444 -0.0012077 -0.00029923 0.21981 0.14129
-0.01429 0.0032542 0.0015578 0.0020208
0.0019694 -0.0018247 -7.6548e-05 -0.00099089 0.00064142 -0.00090198 -0.014293 0.0032808
0.15064 0.18575 -0.011697 0.0020517
-0.0011547 -8.1692e-05 0.00033006 -0.0010343 4.793e-06 -0.00014158 0.001563 0.0020137
-0.011726 0.0020822 0.18782 0.26326
1580000000 0.29574 0.062507 -0.0072403 0.01325 -0.00085768 -0.0050515 0.0015603 0.0019006
-0.00034348 -0.0021942 -0.00028412 0.00041118
-0.0072452 0.013242 0.1759 0.2978 0.005503 0.0082484 0.00040444 -0.0015831
-0.000509 -0.00094161 -0.00025565 -0.00091802
-0.00089649 -0.0050465 0.005556 0.0082252 0.33169 -0.10741 -0.0015387 0.00072677
-0.00019406 -0.0012053 0.00022983 -0.00053039
0.0015599 0.0018934 0.00040159 -0.0015887 -0.0015253 0.00074844 0.23397 0.10174
-0.010562 0.0077969 0.0022525 0.0006587
-0.0003441 -0.0021845 -0.00051112 -0.00094898 -0.00019781 -0.0012004 -0.010536 0.0078494
0.17537 0.16768 -0.0091821 0.007662
-0.0002714 0.00041555 -0.00025604 -0.00093648 0.00022324 -0.00055442 0.0022658 0.00060626
-0.0090911 0.007656 0.21977 0.23613
1640000000 0.29715 0.021202 -0.00078626 0.011809 -0.0028934 -0.0027999 0.0028001 0.00088651
-0.00086803 -0.0014964 -0.00030965 0.00060731
-0.00079833 0.011802 0.20526 0.27263 0.0060925 0.0033535 -0.0007266 -0.0017049
-0.00093393 -0.00035506 -0.00056092 -0.00067679
-0.0029016 -0.0027898 0.0061196 0.0033248 0.30323 -0.15652 -0.00062571 0.0014509
-0.0012297 -0.0008961 -0.00019733 -0.00036032
0.0028177 0.00087186 -0.00072105 -0.0016985 -0.00062782 0.0014645 0.24621 0.052644
-0.0063099 0.0086247 0.0025517 -0.00085502
-0.00089143 -0.0015015 -0.00093928 -0.00036414 -0.0012358 -0.00090126 -0.0062793 0.0086604
0.19848 0.14302 -0.0043775 0.0096404
-0.00030701 0.00062202 -0.00055938 -0.00068642 -0.00021492 -0.00035976 0.0025514 -0.00089693
-0.0043711 0.0096053 0.24532 0.20509
1700000000 0.28961 -0.024 0.002361 0.0088058 -0.0036792 -0.00010007 0.0029739 -0.0013711
-0.0019616 -0.00059057 0.00064745 0.00037717
0.0023383 0.0087963 0.22323 0.24101 0.0040711 0.00029724 -0.0014774 -0.00056615
-0.00066556 -2.6015e-05 -0.00095996 -0.00051566
-0.003699 -7.5107e-05 0.0040739 0.00028024 0.26023 -0.19671 0.0004645 0.001494
-0.0018536 -0.00016252 -0.00052661 -0.0008892
0.0029783 -0.0014028 -0.0014858 -0.0005562 0.00046867 0.0014946 0.24297 0.0028153
-0.003689 0.0087656 0.0014998 -0.0023872
-0.0019944 -0.00059108 -0.00065146 -1.8468e-05 -0.0018662 -0.00015987 -0.0036686 0.0087875
0.21602 0.12235 0.00038502 0.009669
0.0006866 0.00034477 -0.00095007 -0.00049864 -0.00052278 -0.00086308 0.0015079 -0.002389
0.00040907 0.0096849 0.26163 0.17048
1760000000 0.27692 -0.072253 0.0042815 0.0055196 -0.0025897 0.00094733 0.0011734 -0.0035085
-0.0013234 0.00071736 0.00036526 -0.00055502
0.0042714 0.005515 0.24903 0.20112 0.0016613 -0.0015696 -0.0011628 0.00020464
-0.0010563 0.00078417 -0.0006183 0.00047584
-0.0025907 0.00095621 0.0016468 -0.0015856 0.21167 -0.23022 0.0011782 0.00097115
-0.0011579 0.0015751 -0.0013632 -0.00033901
0.0011366 -0.0034886 -0.0011674 0.00020917 0.0011854 0.00096437 0.23361 -0.048562
-0.00080465 0.007821 -0.00033442 -0.0025887
-0.0013318 0.00073809 -0.0010532 0.00078144 -0.0011327 0.001552 -0.000786 0.0078082
0.23072 0.086677 0.0042814 0.0070233
0.00037928 -0.00060734 -0.00061111 0.00047065 -0.0013018 -0.00033693 -0.00033686 -0.0025689
0.0043159 0.0070194 0.27409 0.13263
1820000000 0.25205 -0.10922 0.0041919 0.0021643 -0.00031191 0.0026927 -0.0011621 -0.0030272
-0.0010033 0.00087749 -8.5321e-05 -0.0001631
0.0041863 0.0021645 0.25883 0.17098 -0.00044547 -0.00030308 -0.0012853 0.00092401
-0.0001321 0.0012558 -0.00056212 0.00056698
-0.00030655 0.0026659 -0.00043793 -0.00029597 0.16117 -0.24572 0.0014476 0.00039738
-0.00020635 0.0023068 -0.0013626 0.00047261
-0.0011724 -0.0029979 -0.0012864 0.0009405 0.001435 0.00040809 0.20365 -0.095543
0.00031879 0.0061071 -0.0016627 -0.0016009
-0.00098548 0.00087323 -0.00012212 0.0012522 -0.00017174 0.0023026 0.00037309 0.0061282
0.24751 0.056855 0.0053198 0.0033359
-7.901e-05 -0.00016745 -0.00052582 0.00057065 -0.001372 0.00048458 -0.0016977 -0.0016506
0.0053356 0.0033336 0.27632 0.096398
1880000000 0.21676 -0.14907 0.0018555 0.00011299 -0.00057796 0.0024217 -0.0030033 -0.0021285
-0.00014856 0.0015575 9.7569e-05 -0.0005889
0.0018525 0.00011448 0.26303 0.12443 -0.0026876 0.0014559 -0.00017048 0.001662
0.00048921 0.0012993 0.0001149 0.00095351
-0.00054601 0.0024355 -0.0026875 0.0014802 0.10838 -0.25589 0.0017708 -0.00093089
0.0014613 0.0019091 -0.00084382 0.0013191
-0.0030124 -0.0021048 -0.00015851 0.0016611 0.0017913 -0.00092826 0.16298 -0.13553
0.00070415 0.0043497 -0.0025211 0.00039819
-0.00014911 0.0015417 0.00050201 0.0012848 0.0014671 0.0019401 0.00071583 0.0043337
0.24965 0.023748 0.0051837 0.0011208
0.00013358 -0.00058137 0.00012014 0.00096387 -0.00087602 0.0013364 -0.0025167 0.00039856
0.0052347 0.001143 0.27589 0.061964
1940000000 0.17749 -0.17448 -0.00036041 -0.0013211 0.0016161 0.0022387 -0.0037927 0.00064072
0.0012695 0.0010511 -0.00064143 -0.00046061
-0.00037172 -0.0013269 0.2634 0.092668 -0.001486 0.0040102 0.00095858 0.0013245
0.0018624 0.00059029 0.00088903 0.00031177
0.0016542 0.0022493 -0.0014562 0.004022 0.062347 -0.24905 0.00041576 -0.0020922
0.0024833 0.00036071 0.00041099 0.0014787
-0.0038028 0.00068508 0.00095914 0.0013096 0.0003997 -0.0021025 0.11063 -0.16548
-0.00042676 0.0032683 -0.0015822 0.0014753
0.0012943 0.0010358 0.0018627 0.00057154 0.0024648 0.00036152 -0.00045347 0.0033091
0.25075 -0.01559 0.0038206 -0.0024741
-0.00059041 -0.00042676 0.00091355 0.00032647 0.00046106 0.0014907 -0.0015299 0.00146
0.003806 -0.002445 0.26484 0.026108
2000000000 0.13133 -0.18909 -0.0041422 0.00088663 0.0027027 0.0015965 -0.0021573 0.0035625
0.0010602 0.00021277 -0.00057111 0.00046738
-0.0041257 0.00089518 0.24907 0.057278 -0.0010602 0.0061065 0.0016444 0.00037
0.0014659 -0.0012296 0.00047438 9.4183e-05
0.0027155 0.0015876 -0.0010127 0.0061121 0.018635 -0.23398 -0.0013514 -0.001329
0.0019699 -0.00118 0.0015838 0.0012175
-0.0021657 0.0035915 0.001652 0.00037025 -0.0013275 -0.0013144 0.057547 -0.17543
-0.0020026 0.0036371 -0.00032191 0.0025495
0.0010852 0.00022842 0.0014447 -0.0012495 0.0019607 -0.0011443 -0.0019841 0.0036545
0.24373 -0.049442 0.00018259 -0.0033871
