!Keysight Technologies,M9804A,MY58100912,A.14.10.03
!Date: Thursday, April 27, 2023 10:28:33
!Correction: S11(C  6-Port  ) 
!S12(C  6-Port  ) 
!S13(C  6-Port  ) 
!S14(C  6-Port  ) 
!S15(C  6-Port  ) 
!S16(C  6-Port  ) 
!S21(C  6-Port  ) 
!S22(C  6-Port  ) 
!S23(C  6-Port  ) 
!S24(C  6-Port  ) 
!S25(C  6-Port  ) 
!S26(C  6-Port  ) 
!S31(C  6-Port  ) 
!S32(C  6-Port  ) 
!S33(C  6-Port  ) 
!S34(C  6-Port  ) 
!S35(C  6-Port  ) 
!S36(C  6-Port  ) 
!S41(C  6-Port  ) 
!S42(C  6-Port  ) 
!S43(C  6-Port  ) 
!S44(C  6-Port  ) 
!S45(C  6-Port  ) 
!S46(C  6-Port  ) 
!S51(C  6-Port  ) 
!S52(C  6-Port  ) 
!S53(C  6-Port  ) 
!S54(C  6-Port  ) 
!S55(C  6-Port  ) 
!S56(C  6-Port  ) 
!S61(C  6-Port  ) 
!S62(C  6-Port  ) 
!S63(C  6-Port  ) 
!S64(C  6-Port  ) 
!S65(C  6-Port  ) 
!S66(C  6-Port  ) 
!S6P File: Measurement: :
# Hz S  RI   R 50
500000000 -0.33832 -0.038426 -0.010399 -0.0026919 -0.0079051 0.013433 -0.0041425 0.012463
0.012531 0.003316 -0.0044879 0.0093165
-0.010325 -0.0028858 -0.41891 -0.051121 0.0073821 -0.010573 0.0015324 0.012134
0.0078244 0.0022026 0.00203 0.013375
-0.007887 0.013337 0.0073804 -0.010583 -0.26668 0.21044 0.0070799 0.0038378
-0.0016328 0.0080558 0.0012137 0.012101
-0.0039821 0.012375 0.0015142 0.012048 0.0070204 0.0037877 -0.33113 0.043523
-0.018769 -0.0051044 0.016088 0.024267
0.012554 0.003256 0.0077398 0.0022474 -0.0016741 0.0080746 -0.018787 -0.0052048
-0.2278 -0.19135 -0.026046 0.0055765
-0.0042958 0.009301 0.0019957 0.01333 0.0012077 0.01206 0.016053 0.024297
-0.026122 0.0056463 -0.26937 -0.12744
560000000 -0.31739 0.1251 -0.024604 -0.063009 0.00025563 0.01201 0.0048089 0.011484
0.0097454 0.0042734 0.010845 0.0076247
-0.024577 -0.062867 -0.37832 0.108 -0.041328 -0.03657 0.013837 0.0039558
-0.01338 -0.0038811 0.002474 0.0013638
0.00018998 0.011998 -0.041441 -0.036516 -0.1834 0.25889 5.2621e-05 -0.0044252
0.01992 0.0055247 0.0065555 -0.0063218
0.0049377 0.011604 0.013893 0.0038523 0.00013087 -0.0044535 -0.30647 0.13379
0.0038057 -0.023247 0.0043146 -0.021289
0.0096402 0.0042448 -0.013251 -0.0037551 0.019786 0.0054255 0.003854 -0.02323
-0.29138 -0.015665 0.0082095 -0.049235
0.010856 0.0075712 0.0023724 0.0013278 0.0065796 -0.0062901 0.004276 -0.021238
0.0082234 -0.049196 -0.33061 0.022329
620000000 -0.27528 0.10874 -0.023585 0.0088526 0.0033241 0.009045 0.0079851 -0.0051038
0.012073 -0.0002397 0.0013743 -0.0022019
-0.023525 0.0088111 -0.40293 0.060747 -0.018549 0.00055062 -0.0015126 -0.0018718
0.011693 -0.0065121 0.0016282 -0.0028069
0.0034158 0.0090356 -0.018547 0.00059439 -0.15312 0.26806 -0.0012561 -0.0049026
-0.0029423 -0.003153 0.0087686 -0.0026381
0.0079198 -0.0050714 -0.0015172 -0.0018427 -0.0012063 -0.0049185 -0.26513 0.14467
-0.037837 -0.018685 0.012154 0.02588
0.012128 -0.0003224 0.011664 -0.0065798 -0.0030001 -0.003196 -0.037829 -0.018603
-0.20983 -0.054036 -0.04092 0.013868
0.001526 -0.0021945 0.0015996 -0.0028902 0.0087646 -0.0027416 0.012158 0.025868
-0.040905 0.013875 -0.25235 -0.012291
680000000 -0.23463 0.19427 -0.027109 -0.013601 0.0053027 0.0049859 0.0017688 -0.0070093
-0.0027533 -0.011557 0.0046819 -0.0067686
-0.027087 -0.013612 -0.38758 0.15884 -0.032348 -0.001001 -0.0015592 -0.00028251
-0.0016643 -0.0091454 -0.0014299 -0.001994
0.0052791 0.0049844 -0.032383 -0.00090948 -0.10132 0.28751 -0.00091953 -0.00035199
-0.0017407 0.00021526 -0.0027712 -0.0093857
0.0017059 -0.0069477 -0.0015577 -0.00029027 -0.00094542 -0.00037322 -0.22065 0.196
-0.02361 -0.0068424 -0.0089582 -0.0101
-0.0027706 -0.011533 -0.0016738 -0.0091591 -0.0017127 0.00020853 -0.02361 -0.0068495
-0.25882 0.04498 -0.0062312 -0.0077295
0.0046349 -0.0068128 -0.0014465 -0.002038 -0.0027972 -0.0093896 -0.0089758 -0.010123
-0.006235 -0.0076901 -0.26003 0.092758
740000000 -0.18957 0.18869 -0.037737 0.026901 0.013134 -0.0054263 -0.00022524 -0.0039907
-0.0046294 -0.0032225 -0.0065264 0.0025772
-0.03776 0.026792 -0.33426 0.17757 -0.035159 0.034684 -0.00063991 -0.0065395
-0.011438 0.008431 -0.0017983 -0.0066416
0.013112 -0.0054832 -0.035066 0.034789 -0.067318 0.28488 -0.0019743 0.0031778
-0.0030406 -0.0048085 -0.0013812 0.00071962
-0.00029557 -0.0039738 -0.00061642 -0.0065387 -0.0019709 0.0031925 -0.20297 0.20319
-0.042942 -0.0067515 0.023486 0.015018
-0.0046658 -0.0032208 -0.011502 0.0083519 -0.003017 -0.0047998 -0.043001 -0.0067033
-0.15965 0.071166 -0.042716 0.00092285
-0.0065133 0.0026165 -0.0017683 -0.0066472 -0.0014094 0.00076452 0.023504 0.014969
-0.042808 0.00098979 -0.24805 0.099083
800000000 -0.15658 0.22854 -0.021968 0.016708 0.0053444 -0.010693 -0.0046606 -0.0018157
-0.0043752 0.0027658 0.0040749 0.00065784
-0.021982 0.016667 -0.33738 0.24674 -0.0076652 0.033746 -0.0024641 0.0022961
-0.0010044 0.0032281 0.00090073 0.0052287
0.0053016 -0.010719 -0.007579 0.033806 -0.0271 0.30781 0.0009999 0.0016434
0.0003771 0.003661 -0.0017679 0.00079462
-0.0046702 -0.0018246 -0.0024511 0.0023301 0.00099114 0.0016488 -0.17443 0.23072
-0.027863 0.013861 0.013375 -0.01015
-0.004366 0.0027358 -0.00098618 0.0032429 0.000382 0.0036908 -0.027865 0.013946
-0.20515 0.09563 -0.016457 0.018962
0.0040542 0.00064255 0.00090879 0.0052382 -0.0017517 0.00080929 0.013381 -0.01017
-0.016465 0.018949 -0.24195 0.14794
860000000 -0.12144 0.24845 -0.016676 0.030452 -0.0032482 -0.010037 -0.0023299 0.00088454
0.0041372 0.0050665 -0.0032256 -0.0028185
-0.016639 0.030405 -0.28955 0.28858 0.0080151 0.034001 -5.9085e-05 0.0019854
0.0045022 -5.1819e-05 0.0031784 0.0010606
-0.0032767 -0.010057 0.0081153 0.034015 0.020532 0.31557 -0.00039977 -0.00016572
0.0028891 -0.0015398 0.0015543 0.0042522
-0.0023213 0.00087254 -6.2891e-05 0.0019671 -0.00040183 -0.00016809 -0.13805 0.24112
-0.017351 0.018472 -0.0056304 -0.0092377
0.0041688 0.0051237 0.0045298 -6.4763e-05 0.0028805 -0.001538 -0.017366 0.01856
-0.15331 0.14476 -0.024344 0.015609
-0.0032703 -0.0028151 0.0031872 0.0010947 0.0015881 0.0042522 -0.0056356 -0.0092411
-0.02436 0.015555 -0.18993 0.19271
920000000 -0.096817 0.27053 0.0056151 0.037383 -0.009413 -0.0047116 -0.0018996 0.0018591
0.0011692 0.0018322 0.0028379 -0.0016735
0.0056035 0.037344 -0.26079 0.30942 0.028208 0.021576 0.001451 0.0011709
0.0073502 -0.00058893 0.0040944 -0.0028178
-0.00941 -0.004698 0.028297 0.021512 0.06665 0.31634 0.0018759 -7.3689e-05
0.0012484 -0.00051212 0.00074995 -0.0012411
-0.0018834 0.0018431 0.00148 0.0011597 0.0018862 -7.2324e-05 -0.11419 0.25812
-0.010437 0.029989 0.0033716 -0.0067986
0.0011861 0.0018475 0.0074064 -0.00060555 0.0012671 -0.00050859 -0.010393 0.030061
-0.14266 0.15013 -0.002621 0.026643
0.0028338 -0.0017328 0.0040687 -0.0028383 0.00070567 -0.0012475 0.0033541 -0.0068128
-0.0026257 0.02661 -0.19777 0.20654
980000000 -0.049965 0.28989 0.017527 0.029377 -0.0091486 0.0044058 0.001789 0.0034748
0.0039993 -0.0015962 -0.0031914 -0.0023296
0.017495 0.029341 -0.20839 0.34304 0.033031 0.0045904 0.0019563 -9.9218e-05
0.0016734 -0.0061539 -0.00041775 -0.0023109
-0.0091166 0.004435 0.033064 0.0044881 0.11284 0.30985 0.0004394 -0.00125
0.00018758 -0.0022093 0.0013289 -0.00021655
0.0017955 0.0034647 0.0019436 -9.1195e-05 0.00042411 -0.0012655 -0.076121 0.26898
0.0080145 0.029528 -0.0088241 -0.0071549
0.0039841 -0.0016402 0.0016345 -0.0061536 0.00017629 -0.0022189 0.0080849 0.029554
-0.11218 0.17987 0.0055662 0.019474
-0.0031803 -0.0022623 -0.00044835 -0.0023125 0.001323 -0.00023444 -0.0088257 -0.0071418
0.0055398 0.019469 -0.15465 0.24979
1040000000 -0.00808 0.29798 0.033026 0.017524 -0.0015074 0.0067802 0.0024395 0.00084504
-8.3839e-05 -0.003473 -0.00052743 -0.0015531
0.032935 0.017531 -0.17314 0.35614 0.0292 -0.01508 0.0014661 -0.0017706
-0.002548 -0.0026195 -0.0015034 -0.0028258
-0.0014852 0.0067633 0.02916 -0.015189 0.15905 0.29625 -0.00053304 -0.0015001
-0.0016907 -0.00086455 -0.00062704 -0.0010943
0.0024562 0.00081816 0.0014595 -0.0017552 -0.00052067 -0.0014955 -0.048886 0.27916
0.019077 0.01746 -0.0025537 0.0013664
-9.6929e-05 -0.0034745 -0.0025528 -0.0025813 -0.0016949 -0.00084543 0.019147 0.017447
-0.079924 0.18642 0.013545 0.018151
-0.00053676 -0.0015085 -0.00154 -0.0027899 -0.00063615 -0.0010891 -0.0025445 0.0013711
0.013512 0.018145 -0.13326 0.27118
1100000000 0.03706 0.3057 0.035482 -0.0047794 0.0027007 0.0039297 0.0024337 -0.0011547
-0.0020329 -0.0030832 -0.0040835 0.00015153
0.03543 -0.0047575 -0.12996 0.37323 0.014974 -0.027948 7.2956e-05 -0.0018083
-0.0035808 -0.00072348 -0.0035784 -0.00047149
0.0027215 0.0039107 0.014878 -0.028028 0.20558 0.27572 -0.0018702 0.00027816
-0.0018357 0.00059149 -0.0010805 -0.00023009
0.0024431 -0.0011777 5.4062e-05 -0.0018029 -0.0018808 0.00027821 -0.0088406 0.28415
0.024242 0.0046261 -0.0027014 0.00012424
-0.0020262 -0.0030963 -0.0035675 -0.00068641 -0.0018285 0.00060877 0.02429 0.0045826
-0.062188 0.20036 0.019236 0.0085768
-0.0041011 0.00017558 -0.0035736 -0.00044099 -0.0010672 -0.00022026 -0.0027015 0.00012594
0.019236 0.0085763 -0.087302 0.2998
1160000000 0.088155 0.3007 0.023359 -0.021035 0.0023926 -0.00030941 -0.00013489 -0.0023406
-0.0042177 -0.00071597 -0.00083903 0.0043436
0.02335 -0.021028 -0.086483 0.37784 -0.0040968 -0.029167 -0.0017555 -0.001779
-0.0027456 0.0025769 -0.0014574 0.001921
0.0024015 -0.0003323 -0.0042345 -0.029167 0.24865 0.24458 -0.00070906 0.0018143
-0.00047312 0.0021319 -0.00084663 0.00023173
-0.00013274 -0.0023204 -0.0017718 -0.0017433 -0.00070486 0.0018088 0.030219 0.28152
0.020474 -0.010717 -0.0031056 0.0052196
-0.0042059 -0.00070844 -0.0027334 0.0026002 -0.00047726 0.0021322 0.020477 -0.010767
-0.028414 0.20871 0.018084 0.00019866
-0.00082236 0.0043237 -0.0014622 0.001937 -0.00083539 0.00024606 -0.0030936 0.0052154
0.018106 0.00019525 -0.040718 0.30267
1220000000 0.13248 0.28969 0.0096347 -0.029985 -0.0016946 -0.00058251 0.00013595 -0.0010205
-0.0026294 0.0024817 0.0013834 0.0021252
0.0096409 -0.029979 -0.042138 0.38996 -0.017192 -0.02106 -0.0025482 0.0004686
0.0001958 0.0031223 -0.0006995 0.0020027
-0.0017013 -0.00057076 -0.017311 -0.021003 0.28764 0.20509 0.00083914 0.0017246
0.00071157 0.0011916 0.00039922 0.00068269
0.00013626 -0.0010263 -0.0025538 0.00048172 0.00084795 0.0017261 0.070053 0.27332
0.0097468 -0.017088 0.0020693 0.0016378
-0.0026256 0.0025131 0.00021125 0.0031431 0.00070653 0.0011873 0.0097469 -0.017137
-0.0059323 0.21797 0.013716 -0.013145
0.0013951 0.0021244 -0.00068828 0.0020111 0.00039688 0.00067563 0.0020708 0.0016316
0.013723 -0.013153 -0.009341 0.31906
1280000000 0.18216 0.26768 -0.0086171 -0.028107 -0.0017972 0.0028621 -0.00091087 -0.0021448
-0.00075678 0.0030943 0.0026174 0.0011288
-0.0085968 -0.028073 0.0040014 0.38114 -0.024013 -0.0082393 -0.0010591 0.001549
0.001816 0.0018231 0.00059851 0.0020385
-0.0017994 0.0028629 -0.024073 -0.008133 0.31772 0.161 0.0015903 -8.3893e-05
0.0010987 0.00016376 0.00041233 0.00025765
-0.00092248 -0.0021515 -0.0010389 0.0015583 0.0015956 -7.9645e-05 0.10688 0.25738
0.00037629 -0.018756 5.9393e-05 0.00035271
-0.00073623 0.0030975 0.0018474 0.0018182 0.0011098 0.0001505 0.00033092 -0.018805
0.030309 0.22206 0.0026688 -0.015131
0.0026366 0.001106 0.00062488 0.0020158 0.00041712 0.00026817 5.1075e-05 0.00035592
0.0026792 -0.015142 0.03832 0.32103
1340000000 0.21928 0.23379 -0.018038 -0.018131 0.0011852 0.0046753 -0.0018824 -0.00091282
0.0015441 0.0026746 0.0016728 -0.0014697
-0.018017 -0.018133 0.043648 0.37285 -0.021683 0.0045971 -7.9057e-05 0.0020625
0.0020266 0.00068026 0.001368 0.00079538
0.0011955 0.0046726 -0.021682 0.0047162 0.33917 0.11322 0.0011832 -0.0010506
0.00072508 -0.00046543 0.00016108 0.00026898
-0.0018798 -0.00089878 -6.8494e-05 0.0020594 0.0011797 -0.0010532 0.1399 0.23726
-0.0087633 -0.015811 0.00092739 0.00065952
0.0015587 0.0026822 0.0020208 0.00067428 0.00073638 -0.00045381 -0.008841 -0.015837
0.060304 0.21792 -0.0041115 -0.013552
0.0016754 -0.0014817 0.0013789 0.00078853 0.00018253 0.00027223 0.00092856 0.00066151
-0.0041096 -0.013555 0.076837 0.31588
1400000000 0.25235 0.19543 -0.023296 -0.0065573 0.0055631 0.0031322 -0.0022369 0.00073145
0.0024764 0.00088297 0.0002389 -0.0015061
-0.023262 -0.0065818 0.081002 0.35969 -0.014725 0.012745 0.0013807 0.0012932
0.0011541 -0.0009539 0.0012321 0.00015894
0.0055817 0.0030993 -0.014687 0.012836 0.35216 0.060187 5.6401e-06 -0.0017524
1.1853e-06 -0.00040822 0.00043943 0.00022745
-0.0022412 0.00073615 0.0013932 0.0012926 6.2093e-06 -0.0017383 0.16969 0.20853
-0.014349 -0.0090331 -0.00061903 -0.00026787
0.0024723 0.00087848 0.0011356 -0.00096473 -5.6187e-06 -0.00039997 -0.014435 -0.0090227
0.093141 0.21385 -0.010519 -0.008585
0.00021818 -0.0014961 0.001232 0.00014419 0.00044117 0.00024318 -0.00062177 -0.00026373
-0.010504 -0.008614 0.12152 0.30489
1460000000 0.27495 0.15111 -0.019899 0.0054765 0.0058172 -0.0020174 -0.0016289 0.0018565
0.0021455 -0.00062966 -0.00039452 -0.0010445
-0.019888 0.0054553 0.11528 0.33768 -0.0058935 0.015541 0.0017572 0.00013486
0.00069038 -0.0013383 0.0011684 -0.00059799
0.0058315 -0.0020444 -0.0058151 0.015584 0.35807 0.0062921 -0.0013697 -0.0012469
0.00019813 -0.00026463 0.00056704 -0.00041061
-0.0015947 0.0018757 0.0017679 0.00012805 -0.0013491 -0.001252 0.1964 0.17937
-0.015205 -0.0023395 -0.00071504 0.0020069
0.0021576 -0.00062286 0.0006868 -0.0013499 0.00021457 -0.00026432 -0.015285 -0.0023111
0.12268 0.19969 -0.012068 -0.0025028
-0.00040864 -0.001047 0.0011567 -0.0006044 0.00057805 -0.0004051 -0.00071577 0.0020236
-0.012068 -0.0025189 0.15476 0.28379
1520000000 0.28693 0.10894 -0.013914 0.010621 0.0033644 -0.0044369 0.00018053 0.0027201
0.0020008 -0.0017855 -0.0011602 -8.7185e-05
-0.013911 0.010602 0.14874 0.32269 0.0018142 0.013182 0.0016006 -0.00086729
-7.7737e-05 -0.00099237 0.00033115 -0.0010238
0.0033374 -0.004453 0.0018914 0.01319 0.3515 -0.049905 -0.0011813 -0.00031752
0.00067033 -0.00086189 3.2946e-05 -0.00013573
0.00019661 0.0027177 0.0015953 -0.0008762 -0.0011936 -0.00031211 0.21978 0.14131
-0.014236 0.0031703 0.0015443 0.0020244
0.0019893 -0.0017947 -8.4694e-05 -0.0010086 0.00066965 -0.00089846 -0.014284 0.0032453
0.15079 0.18575 -0.01171 0.0020539
-0.0011655 -8.3362e-05 0.00032049 -0.0010252 4.2604e-05 -0.00013445 0.0015536 0.002028
-0.011715 0.0020416 0.18783 0.26325
1580000000 0.29578 0.062515 -0.0072388 0.013258 -0.00088248 -0.0050571 0.0015657 0.001911
-0.00031845 -0.0021925 -0.00030566 0.0004186
-0.0072456 0.013245 0.17594 0.29779 0.0055019 0.0082571 0.00041322 -0.0015901
-0.00047213 -0.00091995 -0.00024861 -0.00091347
-0.000891 -0.0050618 0.0055507 0.008236 0.33169 -0.10741 -0.0015357 0.00070696
-0.00021813 -0.001178 0.00019574 -0.00050964
0.0015735 0.0018832 0.000405 -0.0015801 -0.0015281 0.00070912 0.23398 0.10178
-0.010557 0.0077122 0.0022413 0.0006174
-0.00032199 -0.002197 -0.00050092 -0.00091348 -0.00021616 -0.001187 -0.010562 0.0077996
0.17551 0.16765 -0.0091291 0.0076677
-0.00032379 0.00042251 -0.00025473 -0.00091942 0.00019185 -0.00051299 0.0022522 0.00062258
-0.009136 0.0076744 0.21989 0.23608
1640000000 0.29719 0.02119 -0.00075952 0.0118 -0.002868 -0.0027914 0.0027953 0.00090585
-0.00088421 -0.0014791 -0.00031434 0.00059295
-0.00077778 0.011795 0.20528 0.27264 0.0060977 0.0033628 -0.00072325 -0.0017038
-0.00093212 -0.00037246 -0.00055712 -0.00069317
-0.002883 -0.0027877 0.0061317 0.0033319 0.30325 -0.15649 -0.00063222 0.001451
-0.0011992 -0.00089471 -0.00018933 -0.00035517
0.0027914 0.00089377 -0.00073291 -0.0017045 -0.00063387 0.0014454 0.24624 0.052665
-0.0063612 0.0085406 0.0025354 -0.0008385
-0.00090288 -0.0014852 -0.00094724 -0.00036546 -0.0011958 -0.00088635 -0.0063265 0.008613
0.1986 0.14287 -0.0043709 0.0096045
-0.00030734 0.00060053 -0.00056491 -0.00068842 -0.00019415 -0.00035227 0.0025471 -0.00085789
-0.0043823 0.0096123 0.24537 0.20502
1700000000 0.28959 -0.024026 0.0023729 0.0087795 -0.0037014 -4.8841e-05 0.0029737 -0.0013773
-0.0019743 -0.00059966 0.00066749 0.00034174
0.0023505 0.0087827 0.22325 0.24101 0.0040739 0.00029601 -0.0014895 -0.00055086
-0.0006736 -2.5288e-05 -0.00095803 -0.00050239
-0.0036854 -1.9794e-05 0.0040786 0.00027428 0.26022 -0.19668 0.00044418 0.0015282
-0.0018567 -0.0001719 -0.0005746 -0.00086391
0.0029589 -0.0013894 -0.0014876 -0.00054305 0.00043825 0.0015389 0.24299 0.0028648
-0.0037732 0.0087463 0.0015127 -0.0023713
-0.0019872 -0.0005892 -0.0006744 -2.1285e-05 -0.0018611 -0.00015489 -0.0037159 0.0088067
0.21605 0.12217 0.00042773 0.0096839
0.00067642 0.0003493 -0.00096013 -0.00049625 -0.00058656 -0.00087574 0.0015112 -0.0023926
0.00042799 0.0096736 0.26168 0.17052
1760000000 0.2769 -0.072282 0.0042815 0.0055133 -0.0025569 0.00093715 0.0011761 -0.0034841
-0.001333 0.00072915 0.00039344 -0.00060632
0.0042693 0.0055225 0.24903 0.20111 0.0016594 -0.0015675 -0.0011669 0.00020504
-0.0010555 0.0007814 -0.00059724 0.00045002
-0.0025526 0.00094662 0.0016624 -0.0015675 0.21167 -0.23016 0.0011356 0.001017
-0.001107 0.0015537 -0.0013002 -0.00029041
0.0011567 -0.0034898 -0.0011643 0.00021451 0.0011403 0.0010105 0.23364 -0.048544
-0.00089855 0.0078201 -0.00035024 -0.0025426
-0.0013289 0.00074305 -0.0010542 0.00078611 -0.0011125 0.0015461 -0.00083335 0.0078486
0.23072 0.086438 0.0043183 0.0070294
0.0003923 -0.00059565 -0.00059591 0.00046028 -0.0012984 -0.00028854 -0.00033892 -0.002555
0.0043164 0.0070333 0.27409 0.13258
1820000000 0.25208 -0.10918 0.0041555 0.0021724 -0.00030152 0.0026484 -0.0011489 -0.0029932
-0.0010193 0.00087041 -7.3203e-05 -0.00018065
0.0041658 0.0021773 0.25879 0.17096 -0.0004664 -0.00030845 -0.0012929 0.00092253
-0.00013494 0.0012528 -0.00055798 0.00056534
-0.00028084 0.0026544 -0.00045884 -0.00030073 0.16122 -0.24572 0.0014052 0.00041402
-0.00022002 0.0022561 -0.0013591 0.0004361
-0.0011594 -0.0029866 -0.0012728 0.0009371 0.0014018 0.00041887 0.20362 -0.095531
0.00028939 0.0061569 -0.0016747 -0.00161
-0.001001 0.00086265 -0.00012063 0.0012437 -0.00021537 0.00225 0.00035291 0.0061585
0.2474 0.056772 0.0052869 0.0033326
-7.7716e-05 -0.00018308 -0.0005624 0.00056798 -0.0013691 0.00043265 -0.0016767 -0.0016115
0.005276 0.0033328 0.27633 0.096349
1880000000 0.21678 -0.14905 0.0018476 7.4337e-05 -0.00059662 0.0023802 -0.0029721 -0.0021339
-0.00017122 0.0015441 0.00012616 -0.0005884
0.0018468 8.5762e-05 0.26305 0.12441 -0.002679 0.0014593 -0.00016861 0.0016432
0.00050709 0.0013075 0.00011668 0.00092301
-0.00058899 0.0023719 -0.0026852 0.0014809 0.10846 -0.25583 0.0018054 -0.00088212
0.0014416 0.0019352 -0.00090203 0.0012943
-0.0029745 -0.0021022 -0.00016472 0.0016574 0.0018158 -0.00089329 0.163 -0.13553
0.00067178 0.0044108 -0.0025217 0.00039613
-0.0001542 0.0015363 0.00049996 0.0012908 0.0014333 0.0019332 0.00072948 0.0043883
0.24954 0.023697 0.0052373 0.0011148
0.00011433 -0.00060712 0.00012633 0.00091998 -0.00089471 0.00129 -0.0025174 0.00040392
0.0052297 0.001109 0.27594 0.061956
1940000000 0.17744 -0.17448 -0.00035313 -0.0013005 0.00164 0.002272 -0.0037847 0.00065425
0.0012565 0.0010526 -0.00059019 -0.00042707
-0.00036384 -0.0013172 0.2634 0.092688 -0.0014573 0.0040039 0.00099163 0.0013162
0.0018833 0.00060371 0.00088894 0.00033845
0.0016515 0.002266 -0.0014239 0.004021 0.062357 -0.249 0.00040022 -0.0021206
0.0024772 0.0003347 0.00042861 0.001403
-0.0037774 0.00067085 0.00099108 0.0013216 0.00042226 -0.0021144 0.1107 -0.16551
-0.00045459 0.0033786 -0.0015567 0.0014616
0.0012734 0.0010382 0.0018821 0.00060137 0.0024914 0.000328 -0.00041192 0.0033309
0.25064 -0.015585 0.0038301 -0.0024435
-0.0005983 -0.00042539 0.00090005 0.00032729 0.00044364 0.0014062 -0.0015566 0.0014509
0.0038429 -0.0024434 0.26481 0.026189
2000000000 0.13127 -0.18907 -0.0041353 0.00089402 0.0026714 0.0016098 -0.0022171 0.0035661
0.0011117 0.00024478 -0.00058982 0.0004207
-0.0041507 0.00088697 0.24906 0.057281 -0.0010439 0.0060962 0.0016635 0.00035479
0.0014679 -0.0012243 0.00050237 0.00011209
0.0026962 0.0016221 -0.00098892 0.0061149 0.018693 -0.23402 -0.0013024 -0.0013526
0.0020135 -0.0011376 0.0016371 0.0012707
-0.002204 0.003581 0.0016595 0.00034693 -0.0013248 -0.0013296 0.057507 -0.17536
-0.001991 0.0036882 -0.00028395 0.0024992
0.0010955 0.00021991 0.0014668 -0.0012386 0.002008 -0.0011302 -0.0019761 0.003642
0.24365 -0.049366 0.00015629 -0.0033298
