!Keysight Technologies,M9804A,MY58100912,A.14.10.03
!Date: Thursday, April 27, 2023 10:28:33
!Correction: S11(C  6-Port  ) 
!S12(C  6-Port  ) 
!S13(C  6-Port  ) 
!S14(C  6-Port  ) 
!S15(C  6-Port  ) 
!S16(C  6-Port  ) 
!S21(C  6-Port  ) 
!S22(C  6-Port  ) 
!S23(C  6-Port  ) 
!S24(C  6-Port  ) 
!S25(C  6-Port  ) 
!S26(C  6-Port  ) 
!S31(C  6-Port  ) 
!S32(C  6-Port  ) 
!S33(C  6-Port  ) 
!S34(C  6-Port  ) 
!S35(C  6-Port  ) 
!S36(C  6-Port  ) 
!S41(C  6-Port  ) 
!S42(C  6-Port  ) 
!S43(C  6-Port  ) 
!S44(C  6-Port  ) 
!S45(C  6-Port  ) 
!S46(C  6-Port  ) 
!S51(C  6-Port  ) 
!S52(C  6-Port  ) 
!S53(C  6-Port  ) 
!S54(C  6-Port  ) 
!S55(C  6-Port  ) 
!S56(C  6-Port  ) 
!S61(C  6-Port  ) 
!S62(C  6-Port  ) 
!S63(C  6-Port  ) 
!S64(C  6-Port  ) 
!S65(C  6-Port  ) 
!S66(C  6-Port  ) 
!S6P File: Measurement: :
# Hz S  RI   R 50
500000000 -0.33154 -0.065001 -0.010431 -0.00083495 -0.0090762 0.013759 -0.0047252 0.011822
0.012808 0.004751 -0.0048337 0.0087015
-0.010327 -0.00086786 -0.41221 -0.074387 0.0081269 -0.010269 0.0010786 0.012482
0.0083802 0.0023819 0.0010569 0.014001
-0.0090985 0.013725 0.0079227 -0.010171 -0.26573 0.1914 0.0068987 0.0034887
-0.0024114 0.008945 0.00010099 0.012227
-0.0040041 0.01216 0.00084344 0.012115 0.0068871 0.0036732 -0.32966 0.037611
-0.0204 -0.0043223 0.017569 0.025398
0.013124 0.0046069 0.0082393 0.0027307 -0.002317 0.0090819 -0.020162 -0.0039087
-0.23309 -0.21668 -0.02931 0.0050603
-0.0046112 0.0081707 0.00083631 0.013467 0.00052522 0.012319 0.018273 0.026665
-0.029001 0.0049122 -0.26215 -0.14426
560000000 -0.32067 0.10278 -0.022273 -0.067417 -0.00040819 0.014288 0.0048576 0.011851
0.010771 0.0036407 0.011222 0.0085509
-0.022334 -0.067134 -0.37405 0.093578 -0.041647 -0.039663 0.014127 0.0045199
-0.012665 -0.0039543 0.0035998 -0.0011974
-6.0011e-05 0.013836 -0.04159 -0.039742 -0.18641 0.24479 -4.7754e-05 -0.0053378
0.017872 0.0079742 0.0075636 -0.0069159
0.0048545 0.011788 0.014045 0.0041187 0.00010035 -0.0052492 -0.30761 0.13081
0.0056875 -0.023571 0.0055083 -0.021201
0.010871 0.0047216 -0.011955 -0.0039569 0.017448 0.0078036 0.0056833 -0.023744
-0.30892 -0.031516 0.011551 -0.051647
0.011711 0.0087254 0.0037497 -0.0006161 0.0075861 -0.0070473 0.0044438 -0.020936
0.01108 -0.051296 -0.33179 0.009716
620000000 -0.2783 0.08277 -0.023485 0.0096665 0.0037112 0.0094195 0.0075468 -0.0044364
0.012435 -0.0015038 -3.199e-05 -0.001755
-0.023358 0.0095076 -0.40267 0.03865 -0.018536 0.00068181 -0.001842 -0.0020864
0.013321 -0.0054504 0.00078938 -0.0028456
0.0042319 0.0095303 -0.018505 0.00073936 -0.15791 0.2537 -0.0010916 -0.0052676
-0.0026583 -0.0025903 0.0091092 -0.0034189
0.0078989 -0.0040179 -0.0019077 -0.0020412 -0.0011264 -0.0054916 -0.26529 0.14139
-0.039506 -0.019725 0.012768 0.028673
0.012246 -0.0011222 0.013231 -0.0050663 -0.0024825 -0.0023913 -0.039004 -0.020165
-0.22582 -0.070179 -0.043798 0.013478
0.00044273 -0.0021145 0.0011842 -0.0028084 0.0087659 -0.003209 0.012984 0.029207
-0.043746 0.012513 -0.24813 -0.027393
680000000 -0.2439 0.17734 -0.026286 -0.014535 0.0049053 0.005522 0.0018918 -0.0070954
-0.001503 -0.011741 0.0058025 -0.0070825
-0.026355 -0.0143 -0.39136 0.14142 -0.032217 -0.0025099 -0.0014965 -0.00071087
-0.0011948 -0.0093721 -0.0010179 -0.0019576
0.0048569 0.0057508 -0.032303 -0.0023844 -0.10697 0.27588 -0.00074129 -0.00076478
-0.001334 0.00030385 -0.0027268 -0.0092022
0.0015737 -0.0075247 -0.001428 -0.00063462 -0.00077773 -0.0005627 -0.22123 0.19407
-0.023321 -0.0079308 -0.0089956 -0.011264
-0.0017107 -0.011985 -0.0012932 -0.0094662 -0.0013014 0.00030724 -0.023424 -0.0078018
-0.28313 0.036556 -0.0059923 -0.0069174
0.0058729 -0.007002 -0.00092991 -0.0017655 -0.0026465 -0.0093063 -0.0091575 -0.011809
-0.0060041 -0.0065881 -0.2622 0.078616
740000000 -0.19644 0.17022 -0.040086 0.027414 0.013908 -0.004429 0.00019408 -0.0041125
-0.0046495 -0.0027655 -0.0061056 0.002274
-0.040079 0.027496 -0.33603 0.15982 -0.037344 0.034861 9.6756e-06 -0.0063889
-0.012149 0.0069988 -0.0011136 -0.0067871
0.014187 -0.004602 -0.03729 0.035077 -0.073379 0.27325 -0.0021771 0.0031188
-0.0017221 -0.0056477 -0.001472 0.0008095
0.0003126 -0.0042975 0.00022426 -0.0061209 -0.0024032 0.0031383 -0.20435 0.20108
-0.042709 -0.010134 0.023498 0.016818
-0.0045345 -0.0029583 -0.01195 0.0067908 -0.0018299 -0.005509 -0.042788 -0.010171
-0.18155 0.068298 -0.043133 -0.0017364
-0.0061218 0.001998 -0.00074775 -0.0062074 -0.0015104 0.00053428 0.023377 0.01704
-0.042646 -0.0018454 -0.25327 0.08688
800000000 -0.16466 0.21558 -0.021955 0.016052 0.0061932 -0.010676 -0.0041767 -0.0026364
-0.0045068 0.0016839 0.0041926 0.00025541
-0.022096 0.015879 -0.34418 0.23128 -0.008832 0.034012 -0.0021711 0.0020175
-0.00090326 0.0023967 0.00092949 0.0051855
0.0061351 -0.01061 -0.0087174 0.034057 -0.034712 0.29845 0.00081207 0.001401
0.00010395 0.0034175 -0.0015929 0.00059149
-0.0043937 -0.0026153 -0.0022476 0.0021224 0.00086592 0.0014739 -0.17518 0.22866
-0.028095 0.012791 0.014563 -0.010354
-0.0045473 0.0018787 -0.00073676 0.0022383 5.4916e-05 0.0033526 -0.028041 0.012826
-0.22716 0.093046 -0.017172 0.020599
0.0041792 0.00029895 0.00084956 0.005358 -0.0015307 0.00071955 0.014624 -0.010291
-0.017231 0.020905 -0.24698 0.13566
860000000 -0.13088 0.23553 -0.018149 0.030021 -0.0029083 -0.01057 -0.0020905 -3.9142e-06
0.003632 0.005108 -0.003931 -0.0035384
-0.018143 0.029946 -0.29711 0.27496 0.007072 0.034592 -0.00020534 0.0020255
0.0032544 0.00091437 0.0030749 0.0003768
-0.0028683 -0.010666 0.0071978 0.034592 0.012277 0.30797 -0.00056183 -0.00033585
0.0022581 -0.001603 0.0011921 0.0040526
-0.0019976 0.00021579 -0.00025303 0.0020493 -0.00055798 -0.0004061 -0.13845 0.23903
-0.018084 0.017609 -0.0063506 -0.010043
0.0036233 0.0051098 0.0033792 0.00090029 0.0022234 -0.0016835 -0.018025 0.017399
-0.17169 0.14646 -0.02539 0.017181
-0.0037834 -0.0034296 0.0033665 0.00028034 0.0013823 0.0040694 -0.0063882 -0.0096654
-0.025607 0.016848 -0.19752 0.18077
920000000 -0.10801 0.25866 0.0044955 0.038584 -0.0094528 -0.0054062 -0.0021972 0.0016428
0.00041261 0.0017743 0.0027869 -0.0011871
0.0044152 0.038587 -0.27005 0.29665 0.02806 0.023141 0.0011991 0.00098178
0.0073667 1.9862e-05 0.0040573 -0.0027531
-0.0093364 -0.0053548 0.02816 0.023077 0.057666 0.31017 0.0018881 1.1969e-05
0.00057452 -0.00017053 0.00083489 -0.0016538
-0.0023008 0.0015383 0.0012273 0.00097328 0.0019157 -1.6699e-05 -0.11463 0.25626
-0.011859 0.030529 0.0042772 -0.0065742
0.00032191 0.0019313 0.0073224 -3.0704e-05 0.00052604 -0.00013939 -0.01193 0.03045
-0.16271 0.152 -0.001901 0.027705
0.003011 -0.0012115 0.0040826 -0.0027709 0.00078365 -0.0016254 0.0042813 -0.0067202
-0.0015788 0.027929 -0.20543 0.19594
980000000 -0.062389 0.28027 0.015998 0.030486 -0.0098296 0.0042038 0.0013898 0.0038321
0.0040894 -0.0011681 -0.0032854 -0.0024711
0.015968 0.030405 -0.21811 0.33331 0.033373 0.0058868 0.0018339 7.9231e-05
0.0018638 -0.0058216 -0.00031348 -0.002733
-0.0098681 0.004192 0.033426 0.0057581 0.10382 0.30521 0.00060513 -0.001126
0.00036153 -0.0017677 0.0012537 -0.00022822
0.0014653 0.0038323 0.0019251 9.062e-05 0.00063171 -0.0011297 -0.076724 0.26713
0.0070709 0.029732 -0.0096564 -0.0081895
0.0040257 -0.001288 0.0019626 -0.0058843 0.00043461 -0.0017222 0.0071076 0.029701
-0.12928 0.18531 0.0065958 0.020077
-0.0031879 -0.0025334 -0.00035092 -0.0027086 0.001301 -0.00023714 -0.0094796 -0.0079547
0.0065411 0.020158 -0.16402 0.24229
1040000000 -0.021575 0.28939 0.033 0.0198 -0.0016512 0.0073669 0.0026174 0.00096164
0.00052484 -0.0034008 7.3736e-05 -0.0015781
0.033001 0.019844 -0.18345 0.34749 0.030356 -0.014165 0.0017511 -0.0016706
-0.0021569 -0.0026149 -0.0010895 -0.0029639
-0.0016127 0.0073898 0.030347 -0.014297 0.14996 0.29306 -0.00040675 -0.0016144
-0.001629 -0.00093068 -0.0006963 -0.00095732
0.0024587 0.00087262 0.001717 -0.0015638 -0.00043555 -0.0016173 -0.050088 0.27696
0.018702 0.018947 -0.0022111 0.00072898
0.00062719 -0.0033527 -0.002155 -0.002668 -0.001623 -0.00097709 0.018834 0.018989
-0.097087 0.19216 0.014179 0.019382
-0.00011487 -0.0014815 -0.0011013 -0.0028718 -0.00072168 -0.00097349 -0.0022074 0.00072837
0.014325 0.019203 -0.14207 0.26367
1100000000 0.022648 0.29999 0.036673 -0.0028155 0.0029438 0.0043372 0.0024262 -0.00088577
-0.0021484 -0.0032855 -0.0043749 -0.00032966
0.036671 -0.0026867 -0.14039 0.36683 0.016198 -0.027982 4.1251e-05 -0.0018642
-0.0037118 -0.0011778 -0.0038277 -0.00074753
0.0029599 0.0043422 0.016113 -0.028082 0.19661 0.27415 -0.001926 0.00017981
-0.0017569 0.00063469 -0.0011846 -0.0002801
0.0024467 -0.00086269 8.6816e-06 -0.0018577 -0.0019287 0.00017356 -0.01052 0.28248
0.02468 0.0059725 -0.0027063 -0.0002838
-0.0022012 -0.0031702 -0.0036911 -0.0011198 -0.0017567 0.00067079 0.024633 0.0058598
-0.077225 0.20619 0.019962 0.0093037
-0.0043622 -0.00049326 -0.0037492 -0.00069977 -0.0011612 -0.00024386 -0.0027137 -0.00030257
0.019826 0.0091944 -0.097229 0.2945
1160000000 0.073645 0.29689 0.025139 -0.020127 0.0031223 -0.00037362 -4.2239e-05 -0.0023042
-0.0040674 -0.00096625 -0.0010722 0.0042813
0.025151 -0.020099 -0.09709 0.3726 -0.0031554 -0.029575 -0.001556 -0.0018368
-0.0028393 0.0027552 -0.0015491 0.0019353
0.0031096 -0.00038496 -0.0032921 -0.029602 0.24015 0.24429 -0.00078725 0.0018108
-0.00036512 0.0018863 -0.00082486 0.0004373
-0.0001015 -0.0024037 -0.0016232 -0.0017257 -0.00079806 0.0017928 0.028238 0.2805
0.021256 -0.010196 -0.003919 0.0053226
-0.0041346 -0.0010869 -0.0028243 0.0027043 -0.0004121 0.001872 0.021398 -0.0102
-0.043526 0.21496 0.019157 -0.00023074
-0.0011076 0.004297 -0.0015603 0.0019086 -0.00093051 0.00036398 -0.003865 0.0052193
0.019271 -0.00013163 -0.049897 0.29846
1220000000 0.1171 0.28854 0.01185 -0.030265 -0.0013978 -0.0010489 0.00025087 -0.0010019
-0.0028556 0.0022651 0.0010585 0.0022486
0.011827 -0.030163 -0.052789 0.3872 -0.016984 -0.021875 -0.0026334 0.00043596
-3.5956e-05 0.0032856 -0.00082226 0.0019991
-0.0013588 -0.0010483 -0.017088 -0.021847 0.27982 0.206 0.000808 0.0017341
0.00068962 0.001229 0.00037404 0.00054546
0.00022431 -0.00098465 -0.002644 0.00045812 0.00076944 0.0017504 0.067972 0.27339
0.01089 -0.016812 0.0017554 0.0015878
-0.0028782 0.002249 5.0665e-05 0.0032548 0.00072989 0.001259 0.010886 -0.016871
-0.021035 0.2253 0.014957 -0.013234
0.0011394 0.0022417 -0.00081671 0.0020417 0.00039029 0.00062214 0.0017866 0.0016383
0.014832 -0.013193 -0.019641 0.31607
1280000000 0.16792 0.26919 -0.0071412 -0.029396 -0.0018621 0.0023629 -0.00088496 -0.0022574
-0.001008 0.0032861 0.002704 0.0014755
-0.0071474 -0.029415 -0.0059212 0.37971 -0.024458 -0.0087198 -0.00099773 0.0015113
0.0017907 0.0018843 0.00077752 0.0021639
-0.0018558 0.0023964 -0.024529 -0.0086079 0.31078 0.16262 0.0016402 -1.559e-05
0.0011348 0.000203 0.00041385 0.0001635
-0.00080973 -0.0022518 -0.0010129 0.0015425 0.001667 -5.0079e-06 0.10523 0.25801
0.0011133 -0.019418 -0.00027028 0.00038497
-0.00091627 0.0033398 0.0018116 0.0018924 0.0010899 0.00015922 0.0010951 -0.019357
0.01509 0.22971 0.0035255 -0.015856
0.0027424 0.0014468 0.00071612 0.0021173 0.00041567 0.00014768 -0.00024717 0.00031045
0.0035845 -0.015771 0.028492 0.31921
1340000000 0.20567 0.23775 -0.017395 -0.019753 0.00072423 0.0046098 -0.0019988 -0.0010972
0.0014436 0.0028164 0.0019549 -0.0014788
-0.017344 -0.019723 0.033986 0.37289 -0.021895 0.0045341 -0.000159 0.0021382
0.0021186 0.00073978 0.0012009 0.00083736
0.00074951 0.004607 -0.021901 0.0046609 0.33305 0.11575 0.001057 -0.0010165
0.00062272 -0.00053928 7.7315e-05 0.00018477
-0.0020424 -0.0010447 -0.00019148 0.0021101 0.0010276 -0.0010201 0.13882 0.23858
-0.0085185 -0.016612 0.00094173 0.00074045
0.0014729 0.0028323 0.0021146 0.00070279 0.00062737 -0.00055934 -0.0085436 -0.016698
0.044738 0.22706 -0.0036508 -0.014699
0.0019696 -0.0014586 0.0012723 0.0008275 6.6483e-05 0.00026367 0.0010367 0.00075528
-0.0037766 -0.014699 0.066338 0.31529
1400000000 0.24066 0.20143 -0.023803 -0.0080532 0.0052478 0.0033424 -0.0024494 0.00075506
0.0026727 0.00112 0.00049793 -0.0017082
-0.023764 -0.0080845 0.072703 0.36087 -0.014966 0.012982 0.0014213 0.0013484
0.0012394 -0.00092263 0.001247 0.00014609
0.0052554 0.0033292 -0.014934 0.013074 0.3467 0.062753 -5.472e-05 -0.0016389
5.1077e-05 -0.00035007 0.00046711 0.00023566
-0.0023962 0.00075454 0.0014173 0.0013383 -1.9056e-05 -0.0016262 0.1692 0.21016
-0.014743 -0.0098046 -0.00084236 8.8171e-05
0.0027057 0.0010708 0.0012422 -0.00091685 6.319e-05 -0.00032219 -0.014812 -0.0097285
0.078005 0.22454 -0.010848 -0.0094917
0.00049177 -0.0016698 0.0012163 0.0001172 0.00046063 0.000185 -0.00084288 4.1072e-05
-0.010738 -0.0095061 0.1115 0.30558
1460000000 0.26495 0.15837 -0.020746 0.0046346 0.0057903 -0.0018084 -0.0016592 0.0018947
0.0023619 -0.00036673 -0.00032615 -0.001147
-0.020738 0.0046531 0.10782 0.33908 -0.0055214 0.015989 0.0016576 0.00022088
0.00085104 -0.001369 0.0011642 -0.0005444
0.0057842 -0.0018291 -0.0054657 0.016027 0.35359 0.0089939 -0.0013349 -0.0011366
0.00019391 -9.3735e-05 0.00072037 -0.00033303
-0.0016438 0.0019123 0.0016876 0.00022115 -0.0013415 -0.0011665 0.19658 0.18116
-0.015751 -0.0026859 -0.00072886 0.0021483
0.0023554 -0.00036952 0.00085065 -0.0013996 0.00021524 -0.00012648 -0.015741 -0.0026651
0.10745 0.21235 -0.012547 -0.0030883
-0.00043069 -0.0011119 0.0012548 -0.00057238 0.00076255 -0.0002546 -0.00069876 0.0021417
-0.01256 -0.0031411 0.14471 0.28559
1520000000 0.27908 0.11719 -0.014988 0.010233 0.0035187 -0.0043746 0.00020567 0.0028297
0.0024625 -0.0019497 -0.0012089 -0.00015096
-0.01499 0.010212 0.14196 0.32506 0.0024351 0.013073 0.0016966 -0.0007331
-2.0642e-05 -0.00103 0.00034973 -0.0010029
0.0034945 -0.0044049 0.002499 0.013084 0.34723 -0.046905 -0.0009874 -0.00021564
0.00079763 -0.00092407 6.8412e-05 -0.00012606
0.00023719 0.0028101 0.001677 -0.00072972 -0.00098868 -0.00022323 0.22073 0.14299
-0.014999 0.0030852 0.0016908 0.002311
0.0023902 -0.0019604 -3.0264e-05 -0.0010088 0.0007328 -0.00090902 -0.014992 0.0031591
0.13646 0.20047 -0.012599 0.0019164
-0.0012592 -0.00021961 0.00035825 -0.00097097 4.2633e-05 -0.00014492 0.0017141 0.0023414
-0.0126 0.0020175 0.17818 0.26677
1580000000 0.28982 0.0711 -0.008252 0.01357 -0.0010237 -0.0052263 0.001754 0.0019124
-0.00015297 -0.0024063 -0.00028829 0.00052679
-0.0082318 0.013574 0.16991 0.30017 0.0060533 0.0076131 0.00057027 -0.0015588
-0.00050025 -0.00096292 -0.00018007 -0.00078551
-0.001049 -0.0051782 0.0060989 0.0076051 0.32794 -0.1044 -0.0014604 0.00055
-0.00030635 -0.0012946 0.00027627 -0.00066731
0.0017559 0.001896 0.00056942 -0.0015578 -0.001416 0.00055339 0.2353 0.10314
-0.011086 0.0080804 0.0025373 0.000755
-0.00017138 -0.0023951 -0.00052095 -0.0010002 -0.00029336 -0.0013799 -0.011083 0.008117
0.16199 0.18412 -0.0096664 0.0080663
-0.00028212 0.00049135 -0.00019884 -0.00075155 0.0002392 -0.00062276 0.0025364 0.00071251
-0.0097258 0.0079807 0.21094 0.2407
1640000000 0.29293 0.029772 -0.0012963 0.012278 -0.0030823 -0.0027646 0.0028773 0.00087303
-0.00076477 -0.0017912 -0.00030949 0.00056845
-0.0013045 0.012271 0.19959 0.27579 0.0061684 0.0024237 -0.00047434 -0.0018493
-0.00081516 -0.00044286 -0.00044745 -0.00073593
-0.0031177 -0.0027674 0.0061773 0.0024036 0.29963 -0.15331 -0.00053274 0.0013294
-0.0010105 -0.0010171 -9.8114e-05 -0.00043996
0.0029215 0.0008796 -0.00047459 -0.0018521 -0.00059185 0.0013456 0.24815 0.053969
-0.0066806 0.0090315 0.0026615 -0.00090187
-0.00075778 -0.001811 -0.00080065 -0.00043473 -0.001017 -0.0010567 -0.0066344 0.0091059
0.18613 0.16154 -0.0046638 0.010164
-0.00032453 0.0005736 -0.0004677 -0.00074453 -0.00011833 -0.00051072 0.0026586 -0.00093212
-0.004637 0.010218 0.23738 0.21105
1700000000 0.28681 -0.015684 0.0021152 0.0093399 -0.003869 0.00010922 0.0031467 -0.0013695
-0.0021941 -0.00071822 0.00069685 0.00041194
0.0021068 0.0093291 0.2182 0.24443 0.0034236 -0.00068428 -0.0014755 -0.00074899
-0.00075691 -0.00015341 -0.0009103 -0.00054201
-0.0038843 0.00013596 0.0034501 -0.00069822 0.25704 -0.19338 0.00023223 0.0014771
-0.002174 -0.0002113 -0.00044977 -0.00088653
0.0031244 -0.001424 -0.0015247 -0.00075232 0.00023631 0.0014742 0.24533 0.0036354
-0.0037825 0.0093211 0.0017494 -0.0024081
-0.0021743 -0.00069941 -0.00074018 -0.00015544 -0.0021113 -0.00017928 -0.0037399 0.0093198
0.20514 0.14222 0.0003103 0.010357
0.00069271 0.00038792 -0.0008933 -0.00048263 -0.00046329 -0.0008546 0.0018685 -0.0023528
0.00044964 0.010343 0.25491 0.17732
1760000000 0.27546 -0.064506 0.0043158 0.0059577 -0.0025169 0.0012615 0.0012334 -0.0036389
-0.0014107 0.00066095 0.00026214 -0.00071942
0.0043192 0.0059609 0.24444 0.20498 0.00058017 -0.0022768 -0.0012734 -2.9261e-06
-0.0011223 0.00073368 -0.00064618 0.00029663
-0.0024922 0.0012956 0.00055865 -0.002252 0.20887 -0.22676 0.00097223 0.0011024
-0.0011933 0.0013943 -0.0013899 -0.00058592
0.0011906 -0.0036372 -0.0012639 2.9341e-05 0.00095668 0.001106 0.23639 -0.048398
-0.00053672 0.0081428 -0.00016315 -0.0027378
-0.0014078 0.00062452 -0.0011194 0.0007613 -0.0012096 0.0014515 -0.00056035 0.0082027
0.22125 0.10828 0.0047067 0.0075388
0.0003077 -0.00071997 -0.0007 0.00029746 -0.0013411 -0.00065291 -0.00015471 -0.0026873
0.0046464 0.0076376 0.26879 0.14011
1820000000 0.25186 -0.10187 0.004319 0.0024595 7.6376e-05 0.0026597 -0.0011193 -0.0031168
-0.0012081 0.0010016 -0.00024199 -0.00020495
0.0043337 0.0024448 0.25524 0.17537 -0.001826 -0.00040076 -0.0015628 0.00092277
-0.00025089 0.00119 -0.00069349 0.000518
6.7462e-05 0.0027024 -0.0018188 -0.00040703 0.15825 -0.24212 0.0014976 0.0006439
-0.00030934 0.002418 -0.0016976 0.00027721
-0.0011458 -0.0031267 -0.0015945 0.00090392 0.0015196 0.00062629 0.20645 -0.095941
0.00070587 0.0066615 -0.0018716 -0.001798
-0.0012479 0.001035 -0.0002597 0.0011767 -0.00028366 0.0024728 0.00074964 0.0066839
0.24003 0.080086 0.0056388 0.0036933
-0.00021146 -0.00013111 -0.00066021 0.00053886 -0.001706 0.00038152 -0.001887 -0.0018291
0.0056878 0.0036407 0.27232 0.10447
1880000000 0.21723 -0.14278 0.0019258 0.00028661 -0.00045172 0.0024759 -0.0030164 -0.0021693
-0.00029112 0.0018402 9.3364e-05 -0.00056268
0.0019399 0.0002731 0.25982 0.12896 -0.0039677 0.0022982 -0.00039068 0.0019387
0.0003347 0.0014145 3.3108e-05 0.0010592
-0.00038785 0.0024537 -0.0039509 0.0023461 0.10586 -0.25095 0.0020908 -0.00078125
0.0015921 0.0020677 -0.00099102 0.0017375
-0.003091 -0.0021537 -0.00035519 0.0019369 0.002069 -0.00083478 0.16542 -0.13669
0.0012387 0.0043995 -0.0028704 0.00012417
-0.00027343 0.0017793 0.00036746 0.0014199 0.001584 0.0020306 0.0012229 0.0044157
0.24514 0.048762 0.0058494 0.0011265
5.3369e-05 -0.00061845 4.1121e-05 0.0010756 -0.00098314 0.0016931 -0.0027497 9.7662e-05
0.0058523 0.0011713 0.27301 0.070513
1940000000 0.17829 -0.16867 -0.00029811 -0.001197 0.0016773 0.0022605 -0.0039882 0.00041537
0.0011664 0.0010837 -0.00062128 -0.00025068
-0.00026353 -0.0011942 0.26111 0.097655 -0.0021047 0.0053018 0.0011143 0.0014709
0.0019108 0.000727 0.0010005 0.00045543
0.0016857 0.0022476 -0.002069 0.0053012 0.061401 -0.24358 0.00080089 -0.0023083
0.0024663 0.00049461 0.00050121 0.0016901
-0.0038523 0.00046118 0.0011417 0.0014883 0.00083604 -0.0022912 0.11271 -0.16708
0.00023464 0.0031695 -0.0017713 0.0015056
0.0012923 0.0010884 0.0019831 0.00071451 0.0025232 0.00049596 0.00021882 0.0032154
0.24915 0.010943 0.0045146 -0.0026953
-0.0005177 -0.0002611 0.00093554 0.00043525 0.00036538 0.0017091 -0.0017662 0.0015924
0.0044918 -0.0027293 0.26312 0.034405
2000000000 0.13279 -0.18363 -0.0039409 0.0010037 0.0032147 0.0014774 -0.0023582 0.0037774
0.00109 0.00041202 -0.00050478 0.0005469
-0.0038923 0.001034 0.2476 0.0623 -0.0010137 0.0075109 0.0018169 0.00042229
0.0014461 -0.0010601 0.00052858 0.00013209
0.0032073 0.0014123 -0.00093942 0.0075697 0.018514 -0.22971 -0.0013674 -0.0017062
0.0021212 -0.0011315 0.0017233 0.0013555
-0.0022826 0.0038713 0.0018725 0.00039889 -0.0013654 -0.0017678 0.059168 -0.17686
-0.0015498 0.0033301 -0.00043175 0.002424
0.0011631 0.00040902 0.0014682 -0.0010881 0.0021205 -0.0011746 -0.0015495 0.0032911
0.24539 -0.022246 0.00077619 -0.0038117
