!Keysight Technologies,M9804A,MY58100912,A.14.10.03
!Date: Thursday, April 27, 2023 10:28:33
!Correction: S11(C  6-Port  ) 
!S12(C  6-Port  ) 
!S13(C  6-Port  ) 
!S14(C  6-Port  ) 
!S15(C  6-Port  ) 
!S16(C  6-Port  ) 
!S21(C  6-Port  ) 
!S22(C  6-Port  ) 
!S23(C  6-Port  ) 
!S24(C  6-Port  ) 
!S25(C  6-Port  ) 
!S26(C  6-Port  ) 
!S31(C  6-Port  ) 
!S32(C  6-Port  ) 
!S33(C  6-Port  ) 
!S34(C  6-Port  ) 
!S35(C  6-Port  ) 
!S36(C  6-Port  ) 
!S41(C  6-Port  ) 
!S42(C  6-Port  ) 
!S43(C  6-Port  ) 
!S44(C  6-Port  ) 
!S45(C  6-Port  ) 
!S46(C  6-Port  ) 
!S51(C  6-Port  ) 
!S52(C  6-Port  ) 
!S53(C  6-Port  ) 
!S54(C  6-Port  ) 
!S55(C  6-Port  ) 
!S56(C  6-Port  ) 
!S61(C  6-Port  ) 
!S62(C  6-Port  ) 
!S63(C  6-Port  ) 
!S64(C  6-Port  ) 
!S65(C  6-Port  ) 
!S66(C  6-Port  ) 
!S6P File: Measurement: :
# Hz S  RI   R 50
500000000 -0.33247 -0.065174 -0.010429 -0.00052017 -0.0091017 0.013484 -0.0044528 0.012804
0.013208 0.004351 -0.0049722 0.0086358
-0.010541 -0.0008044 -0.41208 -0.073388 0.0080843 -0.01024 0.0010959 0.012378
0.0085258 0.0026278 0.0015069 0.013362
-0.0090132 0.013638 0.0081171 -0.010249 -0.26582 0.19165 0.0070587 0.0034545
-0.0022349 0.0092415 0.00047979 0.01199
-0.0041972 0.012294 0.00071992 0.012276 0.006833 0.0036026 -0.33106 0.037638
-0.020175 -0.003798 0.016293 0.026292
0.013191 0.0046547 0.0084293 0.0026073 -0.0022513 0.0091153 -0.019907 -0.0035046
-0.23458 -0.21622 -0.028846 0.0054727
-0.0045296 0.0085101 0.00086242 0.013155 0.00020772 0.012077 0.016834 0.026258
-0.028585 0.0054676 -0.26432 -0.14235
560000000 -0.32051 0.10313 -0.0225 -0.067164 0.00032614 0.013974 0.0043123 0.011548
0.010877 0.0051806 0.010792 0.0081512
-0.022503 -0.067494 -0.37479 0.093404 -0.041592 -0.039326 0.013992 0.0036982
-0.012278 -0.0038579 0.0032441 -0.00090352
8.3365e-05 0.013996 -0.041554 -0.039954 -0.18638 0.24499 -0.00016781 -0.0049545
0.017478 0.0076207 0.0078172 -0.0064738
0.0049694 0.011138 0.014242 0.0036507 -3.3175e-05 -0.0049057 -0.30773 0.13074
0.0058015 -0.023519 0.0045771 -0.022004
0.010753 0.0052604 -0.012327 -0.0048767 0.017726 0.008203 0.0056219 -0.023632
-0.31101 -0.034286 0.011205 -0.050928
0.010867 0.0079722 0.0034715 -0.00053562 0.0076236 -0.0064268 0.0042873 -0.022051
0.011149 -0.051108 -0.33492 0.010124
620000000 -0.2791 0.083099 -0.023852 0.0096329 0.00383 0.0096877 0.0086319 -0.0044989
0.011893 -0.0010587 0.0010625 -0.0017608
-0.023636 0.0096952 -0.40285 0.039074 -0.018462 0.00070857 -0.0015665 -0.002192
0.012501 -0.004905 0.0016051 -0.0028975
0.0039893 0.0096683 -0.018472 0.00074789 -0.15776 0.25392 -0.00098542 -0.0052492
-0.002764 -0.0023762 0.009567 -0.003584
0.0083316 -0.0038194 -0.0016772 -0.0024066 -0.00078723 -0.0053617 -0.26563 0.14206
-0.038956 -0.020726 0.012525 0.028735
0.012384 -0.0014875 0.012841 -0.0049446 -0.0028072 -0.0024753 -0.038583 -0.020389
-0.22726 -0.068048 -0.042294 0.013468
0.00093146 -0.0015081 0.0012584 -0.003032 0.0092126 -0.0034988 0.012916 0.02908
-0.042313 0.013001 -0.24785 -0.028828
680000000 -0.24355 0.17768 -0.026372 -0.0146 0.0049182 0.0054701 0.0015457 -0.0072449
-0.0017874 -0.012284 0.0054781 -0.0070432
-0.02638 -0.014632 -0.39128 0.14164 -0.032223 -0.002439 -0.0012555 -0.00073837
-0.0012868 -0.0095357 -0.0014245 -0.0018563
0.0049342 0.0053384 -0.032251 -0.0023943 -0.10701 0.276 -0.00090393 -0.00074105
-0.0012918 0.00037434 -0.0026736 -0.0094022
0.0015958 -0.0075103 -0.0014175 -0.00054319 -0.0010154 -0.00065002 -0.22144 0.19383
-0.022582 -0.0075179 -0.0084908 -0.011514
-0.0015842 -0.012087 -0.0012776 -0.0095817 -0.0012388 0.00034562 -0.022694 -0.0076931
-0.28388 0.036099 -0.006857 -0.0068009
0.0053174 -0.0071408 -0.0013724 -0.0019708 -0.0026785 -0.0095362 -0.0087844 -0.011864
-0.0065033 -0.0069073 -0.26278 0.08152
740000000 -0.19591 0.17 -0.040138 0.027624 0.014083 -0.0044029 0.00029728 -0.0043278
-0.0046348 -0.0035357 -0.0061117 0.0026205
-0.040243 0.027327 -0.33592 0.15961 -0.037356 0.03516 0.00077407 -0.0061247
-0.012233 0.0070929 -0.0011505 -0.0060941
0.01421 -0.0044177 -0.037141 0.03523 -0.073369 0.27335 -0.0022063 0.0034279
-0.0018838 -0.0055599 -0.0016071 0.00087964
0.00048858 -0.0039994 0.00052483 -0.0061043 -0.0022645 0.0033204 -0.20401 0.20096
-0.042713 -0.0093498 0.02325 0.016689
-0.0047629 -0.0029924 -0.011836 0.0071681 -0.0018758 -0.0053862 -0.042564 -0.009242
-0.18125 0.067907 -0.041797 0.00016083
-0.0059612 0.0026681 -0.0010215 -0.0066014 -0.0013668 0.00061225 0.023468 0.016897
-0.042119 0.00027834 -0.25506 0.085378
800000000 -0.16481 0.21597 -0.0219 0.016123 0.0060777 -0.010595 -0.004306 -0.0025044
-0.0045558 0.0016135 0.0039915 6.3594e-05
-0.021948 0.01606 -0.34403 0.23158 -0.0088373 0.034023 -0.0023888 0.0019825
-0.00075348 0.0024853 0.00073757 0.0050661
0.0060587 -0.01068 -0.0087306 0.034103 -0.034736 0.29858 0.00076486 0.0012711
4.3427e-05 0.0035435 -0.0015885 0.00031762
-0.0043497 -0.0026935 -0.00246 0.0020602 0.00073349 0.0013097 -0.17504 0.22838
-0.028278 0.013195 0.014922 -0.01082
-0.0047293 0.0017413 -0.00074704 0.0023931 5.672e-05 0.0034228 -0.028265 0.013178
-0.22686 0.092708 -0.01809 0.020865
0.0040671 -0.00010328 0.0005629 0.0053212 -0.0016792 0.00055153 0.014873 -0.010738
-0.018103 0.020726 -0.246 0.13531
860000000 -0.13072 0.23557 -0.018117 0.029985 -0.0028097 -0.010574 -0.001864 0.00024137
0.003656 0.0049434 -0.0035295 -0.0030405
-0.018092 0.029924 -0.2969 0.27523 0.0070594 0.034514 9.0697e-05 0.0019132
0.0032692 0.0010124 0.0036097 0.0002225
-0.0027785 -0.010539 0.0071783 0.034585 0.012436 0.30793 -0.00053557 -0.00030812
0.0022556 -0.001607 0.0014828 0.0042608
-0.0019434 4.6309e-05 -0.00011647 0.0020225 -0.00049154 -0.00036687 -0.13829 0.23925
-0.018226 0.017254 -0.0064818 -0.0095291
0.0037569 0.0050664 0.0033599 0.00097256 0.0023349 -0.0015426 -0.018035 0.017245
-0.17106 0.14694 -0.025742 0.016985
-0.0036383 -0.0030172 0.0035015 0.00013646 0.0014522 0.0040829 -0.0067471 -0.0095091
-0.025649 0.017043 -0.19668 0.18362
920000000 -0.10774 0.25912 0.0045124 0.038559 -0.0094158 -0.0053097 -0.0022603 0.0013812
0.00026538 0.0016429 0.0028234 -0.0013168
0.0044443 0.038543 -0.26984 0.29689 0.028062 0.023162 0.0011796 0.0011627
0.0073496 -0.00020725 0.0038643 -0.0027689
-0.0094477 -0.0053118 0.028135 0.023105 0.057776 0.31024 0.0018331 -1.9066e-05
0.00046864 -0.00012781 0.00069011 -0.0017217
-0.002102 0.0014558 0.0011416 0.0010831 0.0018929 -8.5806e-06 -0.11455 0.25627
-0.011629 0.029951 0.0043865 -0.0070863
0.00040272 0.0014887 0.0073943 -0.00015164 0.00042235 -0.00012661 -0.011804 0.030144
-0.1626 0.15304 -0.002279 0.027586
0.0028663 -0.001299 0.0038551 -0.0026769 0.00072258 -0.0016404 0.0043446 -0.0071755
-0.0023158 0.027539 -0.20531 0.19606
980000000 -0.062053 0.28041 0.01605 0.030423 -0.0098253 0.0042002 0.0015498 0.0039982
0.0042202 -0.0013251 -0.0036057 -0.0023861
0.016061 0.03038 -0.21792 0.33342 0.033361 0.0058634 0.0019926 6.8148e-06
0.0020174 -0.0058484 -0.00047656 -0.0028442
-0.0097428 0.004212 0.033429 0.0057769 0.1039 0.30526 0.00070365 -0.001134
0.00041832 -0.0017468 0.0012986 -0.00024286
0.0013107 0.0038559 0.0019054 0.00010253 0.00063531 -0.0011515 -0.076801 0.26717
0.0070976 0.029895 -0.0098789 -0.0077939
0.0041336 -0.0012813 0.001948 -0.0059419 0.0004415 -0.0017347 0.0072889 0.029818
-0.12867 0.18549 0.0060757 0.019937
-0.0037386 -0.0023336 -0.00041681 -0.0027647 0.0013008 -0.00023758 -0.0097152 -0.0076908
0.0061445 0.020008 -0.16323 0.24304
1040000000 -0.021634 0.28969 0.033028 0.019823 -0.0016891 0.0074101 0.0024493 0.00084112
0.00058905 -0.0033522 -0.00013228 -0.0019658
0.032942 0.019828 -0.18328 0.34759 0.030323 -0.014185 0.0017059 -0.0016154
-0.0021447 -0.0026627 -0.0010805 -0.002913
-0.0016584 0.0073622 0.030288 -0.014297 0.15005 0.29306 -0.00043214 -0.0016178
-0.0015385 -0.00096562 -0.00064105 -0.00098106
0.0026903 0.00098831 0.0016831 -0.0015563 -0.00043072 -0.0015583 -0.049821 0.27703
0.018693 0.019044 -0.0020466 0.00065846
0.00035165 -0.003349 -0.0021383 -0.0026236 -0.0015748 -0.00095877 0.018638 0.018949
-0.096801 0.19184 0.01465 0.019388
4.9772e-05 -0.0020506 -0.0011494 -0.0029364 -0.00070821 -0.0010063 -0.002143 0.00064188
0.014515 0.019361 -0.14166 0.26337
1100000000 0.022959 0.29971 0.036646 -0.0028252 0.0029286 0.0043763 0.002459 -0.00079502
-0.00214 -0.0031411 -0.0041842 -0.00019693
0.036591 -0.0028542 -0.14026 0.36696 0.016182 -0.027973 8.0657e-05 -0.0019156
-0.0037275 -0.001053 -0.0036236 -0.00070405
0.0029648 0.0043483 0.016093 -0.028055 0.19668 0.27416 -0.0019346 0.00017623
-0.0018607 0.00065494 -0.0011166 -0.00032739
0.0023232 -0.00091093 3.8932e-06 -0.0019141 -0.0019277 0.00016315 -0.010311 0.28266
0.024599 0.0058164 -0.0029098 -9.3517e-05
-0.0022035 -0.0031892 -0.0037169 -0.0010211 -0.0018123 0.00068962 0.024676 0.0058366
-0.07682 0.2064 0.019782 0.0090093
-0.0043769 -0.00015854 -0.0036748 -0.0007307 -0.0011312 -0.00026196 -0.0028689 -5.9179e-05
0.019717 0.0090909 -0.097274 0.29514
1160000000 0.073704 0.29711 0.025166 -0.020047 0.0030931 -0.00043398 3.4804e-05 -0.0023723
-0.0041469 -0.00097606 -0.0011298 0.004205
0.025139 -0.020004 -0.096891 0.37271 -0.0031907 -0.02958 -0.0016241 -0.0017254
-0.0028269 0.0028383 -0.0016488 0.0018714
0.0030823 -0.0004094 -0.0033542 -0.029584 0.24025 0.24429 -0.00082116 0.0017915
-0.00039778 0.0019044 -0.00088931 0.00045986
-2.0376e-05 -0.0022565 -0.001526 -0.0017086 -0.00083547 0.0017658 0.028384 0.28055
0.021327 -0.010102 -0.0036799 0.0051022
-0.0041225 -0.00085209 -0.0028342 0.0027625 -0.00040755 0.0019037 0.021416 -0.010109
-0.04327 0.21533 0.019553 -0.00013742
-0.00095831 0.0042702 -0.0016176 0.0018858 -0.00091304 0.00041227 -0.003676 0.0050657
0.019495 -0.00015554 -0.050156 0.29752
1220000000 0.11746 0.28835 0.011804 -0.030282 -0.0014089 -0.0010286 0.00021713 -0.00095686
-0.0028 0.0021813 0.0010091 0.0022699
0.011835 -0.030273 -0.052624 0.3872 -0.016971 -0.021879 -0.0026037 0.00043767
0.00010647 0.0032275 -0.00079467 0.0020122
-0.0013952 -0.0010036 -0.017096 -0.021821 0.27988 0.20593 0.00078709 0.0017383
0.00064581 0.0012402 0.00037817 0.00059765
0.000297 -0.0011589 -0.0027087 0.00041527 0.00079917 0.0017571 0.068103 0.27336
0.010958 -0.016846 0.0016739 0.0016414
-0.002815 0.0022022 0.00013607 0.00324 0.00065342 0.0012269 0.010857 -0.016846
-0.020864 0.22547 0.01467 -0.013116
0.00088339 0.0021507 -0.00081803 0.0020396 0.00036411 0.00060839 0.0016697 0.0017035
0.014657 -0.013093 -0.019232 0.31648
1280000000 0.16797 0.26936 -0.0071794 -0.029306 -0.0018315 0.0023442 -0.00078784 -0.0023238
-0.00088658 0.0033574 0.0027751 0.0014872
-0.0071603 -0.029247 -0.0057459 0.37976 -0.024458 -0.008709 -0.0010014 0.0014912
0.0018458 0.0018912 0.00071051 0.0021124
-0.001824 0.0023615 -0.024518 -0.0086293 0.31083 0.16264 0.0016739 -3.0166e-05
0.0011902 0.00015299 0.00035234 0.00029746
-0.00087133 -0.0022537 -0.00097455 0.0015936 0.0016725 -7.5184e-05 0.10529 0.25807
0.0010963 -0.019399 -0.00011557 0.00042755
-0.00086431 0.0033355 0.0018526 0.0018692 0.0011747 0.00017011 0.0011217 -0.019384
0.015332 0.22978 0.0035793 -0.015878
0.0027426 0.0015333 0.00077595 0.0020707 0.00040436 0.00023711 -0.0001791 0.00035262
0.0036164 -0.015847 0.028529 0.31908
1340000000 0.2058 0.23764 -0.017421 -0.019762 0.00070165 0.0046142 -0.0020563 -0.0010623
0.0015161 0.0028069 0.0019308 -0.0013538
-0.017356 -0.019757 0.034176 0.37287 -0.021887 0.0045388 -0.00014476 0.0021281
0.0021293 0.00071164 0.0013193 0.00081169
0.00073339 0.0046161 -0.021861 0.0046618 0.33308 0.11564 0.0010315 -0.0010214
0.00059497 -0.00056844 0.00013124 0.00019531
-0.0019431 -0.0011087 -0.00020141 0.0020381 0.0010297 -0.00099806 0.13889 0.23856
-0.0084012 -0.016647 0.00075608 0.00067981
0.0015468 0.0028011 0.0021528 0.00070545 0.00060838 -0.00058743 -0.0084751 -0.016696
0.044799 0.22701 -0.0038175 -0.014722
0.0019295 -0.0014004 0.0012868 0.00079657 6.239e-05 0.00024089 0.00084682 0.0007216
-0.0038364 -0.014691 0.066587 0.31524
1400000000 0.24083 0.20136 -0.023782 -0.0080062 0.0053039 0.003289 -0.0023775 0.00076565
0.0026875 0.0011222 0.00045813 -0.0016613
-0.023764 -0.00803 0.072857 0.36081 -0.014953 0.012962 0.001383 0.0013094
0.0012441 -0.00090221 0.0011511 0.00013641
0.0053258 0.0032708 -0.014925 0.013047 0.34664 0.062757 -3.8365e-05 -0.0016233
9.0681e-05 -0.00028578 0.00035186 0.00023539
-0.0024531 0.00075082 0.0014067 0.0013859 -1.1694e-05 -0.0016222 0.16932 0.21015
-0.014732 -0.0097539 -0.00078099 7.712e-05
0.0026367 0.0011267 0.0012079 -0.00089726 0.00010525 -0.00032095 -0.014724 -0.009719
0.078163 0.22453 -0.010644 -0.0094212
0.00042316 -0.0016505 0.0012428 0.00015027 0.00044866 0.00026319 -0.00074495 1.5745e-05
-0.010628 -0.0094234 0.11184 0.3051
1460000000 0.26511 0.1584 -0.02072 0.004611 0.0057792 -0.0017993 -0.0017033 0.0018233
0.0023983 -0.00034016 -0.00042075 -0.0011434
-0.02068 0.0046133 0.10797 0.33906 -0.0054806 0.015998 0.0017196 0.00021679
0.00086146 -0.0014188 0.0013256 -0.00047924
0.0058015 -0.0018594 -0.0054134 0.016031 0.3536 0.0089111 -0.0013452 -0.0011754
0.00017811 -0.00020514 0.00077586 -0.00024051
-0.0016156 0.001947 0.0016766 0.00016241 -0.0013901 -0.0011785 0.19669 0.18114
-0.015755 -0.0027143 -0.00072609 0.0021117
0.0023415 -0.00037787 0.00085335 -0.0013931 0.00015707 -0.00016577 -0.015747 -0.0027078
0.10765 0.21227 -0.012696 -0.0030265
-0.0003195 -0.0011557 0.0012333 -0.00047935 0.00072594 -0.00024944 -0.00073916 0.0021825
-0.012686 -0.0030494 0.14503 0.28554
1520000000 0.27908 0.11701 -0.014956 0.010264 0.0034929 -0.0043676 0.00027729 0.0028754
0.002392 -0.0019683 -0.0012048 -0.00014177
-0.014956 0.010255 0.14211 0.325 0.0024305 0.013079 0.0016703 -0.00074141
-2.2707e-05 -0.00097985 0.00035957 -0.00099735
0.0034758 -0.004382 0.0025098 0.013078 0.3472 -0.046885 -0.0010139 -0.00021399
0.00076289 -0.0008624 0.00011898 -0.00017291
0.0002191 0.0027644 0.0016661 -0.00074125 -0.00097103 -0.00023035 0.22082 0.14296
-0.014905 0.0030728 0.0016065 0.0022371
0.0023682 -0.0020125 -2.6174e-05 -0.0009905 0.00081043 -0.00087828 -0.01489 0.0031309
0.13677 0.20049 -0.012552 0.0020144
-0.0012701 -9.2379e-05 0.00034777 -0.0010119 7.487e-05 -0.00018669 0.001669 0.0022466
-0.012543 0.0020072 0.17846 0.26654
1580000000 0.28999 0.071063 -0.0082115 0.013546 -0.0010474 -0.0051651 0.0017215 0.001845
-0.00015237 -0.0023296 -0.00027567 0.0005255
-0.0081981 0.013543 0.17004 0.30013 0.0060645 0.007656 0.00059643 -0.0015097
-0.00052874 -0.0009793 -0.0001532 -0.00074635
-0.0010319 -0.0051406 0.006115 0.0076312 0.32796 -0.10433 -0.0014168 0.00054954
-0.00031592 -0.0013713 0.00023963 -0.00053176
0.0017852 0.0019633 0.00060468 -0.0015551 -0.0014456 0.00057197 0.23542 0.10308
-0.011117 0.0080575 0.0026407 0.00081284
-0.00017115 -0.0023098 -0.00053797 -0.00099802 -0.00036075 -0.0013571 -0.011101 0.0081146
0.1621 0.18404 -0.0097 0.0081064
-0.00027009 0.00050444 -0.0001727 -0.00076263 0.00032145 -0.00057057 0.0026058 0.0007396
-0.0097036 0.0080462 0.21138 0.24088
1640000000 0.29303 0.029691 -0.0012601 0.012258 -0.0030633 -0.0027661 0.0029293 0.00094648
-0.0007606 -0.0018307 -0.00035828 0.00052863
-0.0012775 0.012242 0.19971 0.27566 0.0061329 0.0024144 -0.00051186 -0.0018574
-0.00080758 -0.00042018 -0.00045696 -0.00075577
-0.0031428 -0.0027554 0.0061564 0.002381 0.29967 -0.15332 -0.00059472 0.0013309
-0.0010414 -0.0010185 -6.865e-05 -0.00050322
0.0029398 0.00088713 -0.00052482 -0.0018125 -0.00056731 0.0013773 0.24823 0.053875
-0.0066532 0.0089944 0.0026387 -0.00097932
-0.00076255 -0.0018374 -0.00083229 -0.00042512 -0.0010418 -0.0010019 -0.0066519 0.009001
0.18633 0.16137 -0.0046508 0.010211
-0.00032857 0.00063228 -0.00043755 -0.00076231 -0.00012776 -0.00058423 0.0025706 -0.00090219
-0.0046646 0.010295 0.23739 0.21085
1700000000 0.28684 -0.015814 0.0021049 0.0093139 -0.0038741 0.00016336 0.0030873 -0.0014267
-0.0021797 -0.00065613 0.00076612 0.00041728
0.0020648 0.0093134 0.21834 0.24432 0.0034236 -0.00067399 -0.0015005 -0.00070572
-0.00074357 -0.00018121 -0.00088318 -0.00047517
-0.0039141 0.00018212 0.0034405 -0.00068428 0.25709 -0.19328 0.00029165 0.0014166
-0.002107 -0.00023331 -0.00045191 -0.00083177
0.0030888 -0.0013991 -0.0014733 -0.00076005 0.00020634 0.0014013 0.2454 0.0035339
-0.0037585 0.0092785 0.0017789 -0.0023618
-0.0021957 -0.0006264 -0.00073754 -0.00016139 -0.0021167 -0.00020547 -0.0037204 0.0093445
0.20521 0.1421 0.00045919 0.010405
0.00069582 0.00039907 -0.00091677 -0.00048728 -0.00041334 -0.00074645 0.0018453 -0.0023844
0.00047322 0.010411 0.2552 0.17735
1760000000 0.27547 -0.064666 0.0043067 0.0059396 -0.002551 0.0012538 0.0012365 -0.003642
-0.0014082 0.00062351 0.00029553 -0.00063855
0.0043115 0.0059167 0.24452 0.20486 0.00057186 -0.0022688 -0.0013086 -5.3187e-06
-0.0011292 0.00077048 -0.00070143 0.0003263
-0.0025254 0.0012679 0.00057382 -0.0022644 0.20902 -0.22679 0.0010079 0.0011697
-0.0011892 0.0015078 -0.0013256 -0.00048671
0.0012766 -0.0036617 -0.0012702 1.7345e-05 0.0010353 0.0011082 0.23642 -0.048446
-0.00060104 0.0082415 -0.00012688 -0.0026938
-0.0013794 0.00062924 -0.0011248 0.00074866 -0.0011702 0.0014459 -0.00058948 0.0082056
0.2215 0.10826 0.0046214 0.0076002
0.00025387 -0.00060841 -0.00071471 0.00032723 -0.001366 -0.00059461 -0.00015617 -0.0027655
0.0045719 0.00759 0.26872 0.14005
1820000000 0.25187 -0.10201 0.0043 0.0024365 2.5855e-06 0.0026588 -0.0010789 -0.0031828
-0.0012237 0.00094984 -0.00024582 -0.00016351
0.0042848 0.0024342 0.2553 0.17524 -0.0017893 -0.00038351 -0.0015588 0.0009231
-0.00024214 0.0011255 -0.00066702 0.00050423
7.3022e-05 0.002688 -0.0018139 -0.00036796 0.15835 -0.242 0.0014232 0.00053907
-0.00029287 0.0024755 -0.0017314 0.00025546
-0.0011355 -0.0031262 -0.0015445 0.00092178 0.0014 0.00068048 0.20653 -0.096247
0.00077451 0.0065679 -0.0018957 -0.0019373
-0.0012084 0.0010225 -0.00025898 0.0011637 -0.00029292 0.0024565 0.00077006 0.0066284
0.24018 0.079881 0.005783 0.0036393
-0.00028887 -0.00021081 -0.00071268 0.00051004 -0.0017227 0.0003667 -0.0019463 -0.0018017
0.0057681 0.0036883 0.27239 0.1045
1880000000 0.21712 -0.14287 0.0018939 0.00025889 -0.00041482 0.0023674 -0.0030825 -0.0021224
-0.00025535 0.0018147 0.00012923 -0.00060701
0.0019291 0.00026856 0.25989 0.12883 -0.003948 0.0022928 -0.0003925 0.0019508
0.00039493 0.0014235 8.6107e-05 0.0011133
-0.00036558 0.002397 -0.0039484 0.0023035 0.10601 -0.25097 0.0020538 -0.00079398
0.0016149 0.0019161 -0.00084862 0.0017452
-0.003087 -0.0021462 -0.00033616 0.0019085 0.0020112 -0.00086492 0.16545 -0.13656
0.0012738 0.0045667 -0.002664 0.00015729
-0.00028814 0.0017758 0.00040071 0.0014372 0.0016011 0.0020166 0.0013631 0.0045564
0.24524 0.048705 0.0058315 0.0010989
8.6153e-05 -0.00053227 2.7598e-05 0.0011259 -0.00094475 0.0016451 -0.0025823 0.00017954
0.0059395 0.0010842 0.27315 0.070157
1940000000 0.1783 -0.16886 -0.00025232 -0.0011766 0.0016868 0.0022559 -0.0038953 0.00039376
0.0012681 0.0010436 -0.00068873 -0.00014315
-0.00026411 -0.0012005 0.26113 0.097561 -0.0020992 0.0053213 0.0010933 0.0014919
0.001952 0.00074463 0.00093033 0.00041707
0.0017896 0.0022805 -0.0020629 0.0053283 0.061416 -0.24351 0.00086387 -0.0022472
0.002471 0.00054339 0.00037781 0.0015741
-0.0039125 0.00049682 0.00117 0.0015627 0.00092085 -0.0022427 0.11262 -0.16724
0.00019951 0.0031911 -0.0016838 0.0014788
0.0012387 0.0010694 0.0019272 0.00075305 0.0024422 0.00050911 0.0001241 0.0032108
0.24918 0.010686 0.0045471 -0.0027693
-0.00065542 -0.00027009 0.00091627 0.00036781 0.00028951 0.0016741 -0.001865 0.0014899
0.0043867 -0.0028064 0.26288 0.034117
2000000000 0.13271 -0.18366 -0.0039062 0.001077 0.0031246 0.0015169 -0.0023467 0.0038724
0.0010749 0.00047198 -0.00051135 0.00041432
-0.00389 0.0010648 0.24766 0.062218 -0.0010157 0.0075181 0.0018279 0.00042405
0.0014704 -0.0010789 0.00059599 8.6558e-05
0.0031026 0.0014698 -0.00095246 0.0075292 0.018704 -0.22979 -0.0014199 -0.0018686
0.0021602 -0.001221 0.0017795 0.001509
-0.0022915 0.0038728 0.0017885 0.00042499 -0.001351 -0.0018349 0.059059 -0.17681
-0.0015404 0.0031909 -0.00031124 0.0025273
0.0010933 0.00040246 0.0014521 -0.0010843 0.0021748 -0.0012453 -0.0014706 0.0032732
0.24535 -0.022395 0.00090652 -0.0038309
