!Keysight Technologies,M9804A,MY58100912,A.14.10.03
!Date: Thursday, April 27, 2023 10:28:33
!Correction: S11(C  6-Port  ) 
!S12(C  6-Port  ) 
!S13(C  6-Port  ) 
!S14(C  6-Port  ) 
!S15(C  6-Port  ) 
!S16(C  6-Port  ) 
!S21(C  6-Port  ) 
!S22(C  6-Port  ) 
!S23(C  6-Port  ) 
!S24(C  6-Port  ) 
!S25(C  6-Port  ) 
!S26(C  6-Port  ) 
!S31(C  6-Port  ) 
!S32(C  6-Port  ) 
!S33(C  6-Port  ) 
!S34(C  6-Port  ) 
!S35(C  6-Port  ) 
!S36(C  6-Port  ) 
!S41(C  6-Port  ) 
!S42(C  6-Port  ) 
!S43(C  6-Port  ) 
!S44(C  6-Port  ) 
!S45(C  6-Port  ) 
!S46(C  6-Port  ) 
!S51(C  6-Port  ) 
!S52(C  6-Port  ) 
!S53(C  6-Port  ) 
!S54(C  6-Port  ) 
!S55(C  6-Port  ) 
!S56(C  6-Port  ) 
!S61(C  6-Port  ) 
!S62(C  6-Port  ) 
!S63(C  6-Port  ) 
!S64(C  6-Port  ) 
!S65(C  6-Port  ) 
!S66(C  6-Port  ) 
!S6P File: Measurement: :
# Hz S  RI   R 50
500000000 -0.33197 -0.065134 -0.010326 -0.00075184 -0.0087518 0.013484 -0.0037097 0.012307
0.013041 0.0051587 -0.0040378 0.0082814
-0.010594 -0.00075523 -0.41205 -0.074019 0.0082469 -0.01025 0.001269 0.0118
0.0086591 0.0030864 0.001269 0.013317
-0.0086906 0.013595 0.0081059 -0.010353 -0.26592 0.19154 0.0067124 0.0031204
-0.0019499 0.0093677 0.00036244 0.011871
-0.0046184 0.011519 0.0010556 0.011912 0.0067584 0.0033502 -0.33 0.037699
-0.020593 -0.0036829 0.017414 0.02621
0.01305 0.005296 0.0088313 0.0030826 -0.0018983 0.0093495 -0.020536 -0.0033969
-0.23433 -0.21622 -0.029581 0.0054428
-0.0054066 0.0075565 0.0013069 0.013031 0.00033022 0.011527 0.01762 0.026161
-0.029487 0.0054657 -0.26321 -0.14296
560000000 -0.32082 0.10423 -0.022159 -0.066523 -0.00014381 0.013755 0.0048708 0.011866
0.010521 0.0048802 0.011261 0.0099005
-0.022288 -0.06656 -0.37418 0.093326 -0.041117 -0.039569 0.014208 0.004502
-0.012087 -0.0041433 0.0037593 -0.00052524
-0.000157 0.013776 -0.041308 -0.039442 -0.18687 0.24487 -0.0003367 -0.0049454
0.017768 0.0079397 0.0079355 -0.0066099
0.0051828 0.011759 0.014326 0.004472 -0.00022046 -0.0049992 -0.30757 0.13103
0.0058164 -0.023736 0.0055562 -0.020935
0.011321 0.0047947 -0.012139 -0.0039499 0.017216 0.0077931 0.0058616 -0.023478
-0.31017 -0.032838 0.011169 -0.05197
0.011404 0.0096843 0.0037364 -0.00030528 0.0081362 -0.0067821 0.0051494 -0.020908
0.010903 -0.052258 -0.33295 0.01098
620000000 -0.27848 0.082643 -0.02366 0.0094718 0.0040339 0.0092713 0.008068 -0.004641
0.012133 -0.0013504 0.00023178 -0.0022146
-0.023655 0.0093936 -0.40261 0.038937 -0.018309 0.0005659 -0.0015043 -0.0022034
0.013056 -0.0051541 0.0010776 -0.0032855
0.0039321 0.0092982 -0.018363 0.0005872 -0.15757 0.25369 -0.00069803 -0.0051846
-0.0025553 -0.0026453 0.0087131 -0.0036854
0.0077724 -0.0048469 -0.0015406 -0.0021923 -0.00063101 -0.0051989 -0.26529 0.14151
-0.039266 -0.020684 0.01334 0.028814
0.012247 -0.00092679 0.012762 -0.0051641 -0.0027227 -0.0023552 -0.038927 -0.020672
-0.22687 -0.067831 -0.042801 0.012497
-0.00012681 -0.0022617 0.0011424 -0.0033243 0.0091423 -0.0037135 0.0129 0.028774
-0.042722 0.012527 -0.24879 -0.027961
680000000 -0.24382 0.17791 -0.026209 -0.014392 0.0050108 0.0055598 0.0016815 -0.0071306
-0.0015514 -0.011589 0.0063068 -0.0066397
-0.026234 -0.014374 -0.39135 0.14162 -0.032139 -0.0024621 -0.0013729 -0.00059242
-0.0012315 -0.0094716 -0.00070505 -0.0017856
0.0050228 0.0055241 -0.032232 -0.0023665 -0.10689 0.27603 -0.000773 -0.00057937
-0.0013474 0.00035339 -0.0026206 -0.0090675
0.0017813 -0.007188 -0.0014935 -0.0006287 -0.00078851 -0.00056621 -0.22157 0.19396
-0.023326 -0.0077988 -0.0095245 -0.011588
-0.0015671 -0.011904 -0.0013458 -0.0094864 -0.001302 0.0003883 -0.023358 -0.0076537
-0.2829 0.036683 -0.0062683 -0.0063912
0.0062799 -0.0070063 -0.00097137 -0.0019781 -0.0024098 -0.00941 -0.0092086 -0.01135
-0.0063158 -0.0065529 -0.26063 0.080288
740000000 -0.19583 0.17019 -0.040046 0.027259 0.01422 -0.0043523 0.00037603 -0.0044514
-0.0051984 -0.0024764 -0.0059302 0.0021507
-0.040373 0.027184 -0.33617 0.1603 -0.037373 0.03482 0.00027649 -0.0063511
-0.012239 0.0067524 -0.00093517 -0.0059976
0.014132 -0.0044714 -0.037309 0.034929 -0.073193 0.2733 -0.002256 0.0031473
-0.0018269 -0.0053705 -0.0016444 0.0006089
0.00031866 -0.0042668 0.00039215 -0.0062101 -0.0022223 0.0031976 -0.20424 0.2009
-0.042471 -0.010289 0.023092 0.016916
-0.0048234 -0.0027389 -0.012727 0.0074742 -0.0021488 -0.005335 -0.042313 -0.0099737
-0.18141 0.069434 -0.042868 -0.0017922
-0.0059846 0.0023042 -0.00090635 -0.0061779 -0.0014128 0.00063131 0.02326 0.016641
-0.042758 -0.0016695 -0.25416 0.087796
800000000 -0.16476 0.21592 -0.021921 0.016079 0.0061753 -0.010622 -0.0044382 -0.0025685
-0.0043556 0.0019679 0.0037868 0.00019029
-0.021878 0.015983 -0.34408 0.23151 -0.008684 0.034031 -0.002297 0.0020248
-0.00082671 0.0024441 0.00071537 0.0052483
0.0061091 -0.010726 -0.0087215 0.0341 -0.034677 0.29858 0.00070956 0.0013568
0.0001905 0.0033589 -0.0018512 0.00062619
-0.0043836 -0.0025897 -0.0023639 0.0020628 0.00071962 0.0013463 -0.17514 0.22875
-0.028183 0.012916 0.014473 -0.010422
-0.0046878 0.0017389 -0.00087004 0.0021865 0.00011294 0.0032343 -0.028197 0.013072
-0.22722 0.093392 -0.017319 0.020661
0.004225 -3.1636e-05 0.00075777 0.0052276 -0.0017586 0.00039861 0.014728 -0.010417
-0.017377 0.020749 -0.24711 0.13634
860000000 -0.13067 0.23564 -0.018108 0.030092 -0.0028029 -0.010506 -0.0020411 5.5137e-05
0.0035052 0.0049323 -0.0038738 -0.0033643
-0.018124 0.030057 -0.29687 0.27515 0.007028 0.034562 -8.4339e-05 0.0019983
0.003237 0.00088731 0.0034133 0.00018295
-0.0028293 -0.010495 0.0071562 0.034592 0.01243 0.308 -0.00055904 -0.00031114
0.0023932 -0.0016628 0.0014324 0.0041874
-0.0020716 0.00011821 -3.6548e-05 0.0019353 -0.00050886 -0.0003463 -0.13838 0.23883
-0.018019 0.017638 -0.0065769 -0.0092167
0.0035735 0.0050645 0.0031377 0.0011243 0.0022787 -0.0016191 -0.018092 0.017499
-0.17112 0.14675 -0.025292 0.016927
-0.0037285 -0.0030165 0.0036958 0.00014504 0.0015658 0.0043042 -0.0065603 -0.009225
-0.025208 0.016705 -0.19588 0.18148
920000000 -0.10801 0.25909 0.0044483 0.038623 -0.0094057 -0.0052952 -0.0021995 0.0015388
0.00060163 0.0016222 0.0028331 -0.0011174
0.0044319 0.038555 -0.26988 0.2967 0.028031 0.023188 0.0012669 0.0012121
0.0074346 -0.00015366 0.0040664 -0.0026617
-0.0094523 -0.0052853 0.028127 0.023067 0.057751 0.31026 0.0018973 1.8227e-05
0.0005974 -0.00013051 0.00075865 -0.0016046
-0.002392 0.0013889 0.0012841 0.0010917 0.0018633 3.5905e-05 -0.11468 0.2565
-0.011777 0.030334 0.0040731 -0.0067536
0.0006365 0.001977 0.0073825 -3.8334e-05 0.00063619 -0.00020306 -0.011624 0.030236
-0.16276 0.15233 -0.0018344 0.027874
0.0025586 -0.0013626 0.0039655 -0.0027208 0.00065945 -0.0016313 0.0041379 -0.0069631
-0.0019201 0.027873 -0.20514 0.19618
980000000 -0.06216 0.2804 0.015977 0.030399 -0.0098476 0.0041768 0.0015155 0.0039
0.0039162 -0.0010269 -0.0032669 -0.002576
0.015983 0.0304 -0.21789 0.33336 0.03335 0.0059059 0.0019176 5.4701e-05
0.0018463 -0.0057975 -0.00027934 -0.0028413
-0.0098335 0.0041893 0.033429 0.0057636 0.10388 0.30531 0.00066707 -0.0011254
0.00037317 -0.0017334 0.0012631 -0.00025886
0.0014845 0.0038933 0.0019124 5.4212e-05 0.00068319 -0.0011254 -0.076712 0.26715
0.0072239 0.029826 -0.0095469 -0.007867
0.0040066 -0.0011433 0.0017872 -0.0058677 0.00043262 -0.0017116 0.0072837 0.029883
-0.12893 0.18592 0.0064318 0.01991
-0.0034116 -0.0025391 -0.00035005 -0.002776 0.0011926 -0.00034081 -0.0094929 -0.0078701
0.0065576 0.020117 -0.16361 0.24226
1040000000 -0.021499 0.28968 0.032944 0.019853 -0.0016893 0.0072746 0.0025362 0.0010082
0.00059453 -0.0034972 -5.9507e-05 -0.0016099
0.032881 0.019805 -0.18325 0.34761 0.030368 -0.014182 0.0016749 -0.001644
-0.002131 -0.002558 -0.001186 -0.0029802
-0.0016599 0.0073422 0.030326 -0.014298 0.15003 0.2931 -0.00039361 -0.0016142
-0.0015577 -0.00091366 -0.00069493 -0.0010109
0.0025227 0.00094302 0.0016782 -0.0016449 -0.00038947 -0.0016022 -0.049992 0.2771
0.018793 0.018983 -0.0020915 0.00073812
0.00060388 -0.0034133 -0.0019728 -0.0026787 -0.0015606 -0.00090603 0.018856 0.018923
-0.096454 0.19221 0.01415 0.018954
-8.7024e-05 -0.0018496 -0.0012917 -0.0030333 -0.00062229 -0.0010132 -0.0021199 0.00066654
0.014094 0.018896 -0.14197 0.2637
1100000000 0.022926 0.29991 0.036629 -0.002811 0.0029395 0.0043061 0.0024115 -0.00084128
-0.0022248 -0.0030578 -0.0043254 -0.00032361
0.036615 -0.0028199 -0.14027 0.36695 0.016179 -0.027963 3.1809e-05 -0.0018978
-0.0037826 -0.0010575 -0.0037485 -0.00069833
0.0029226 0.0043079 0.016089 -0.028069 0.19669 0.2742 -0.0019224 0.00016802
-0.0017796 0.00071148 -0.0011956 -0.00028878
0.0023919 -0.00083459 -9.8947e-08 -0.00192 -0.0019495 0.00014814 -0.010306 0.28256
0.02468 0.0058027 -0.0027216 -0.00023593
-0.0022707 -0.0031007 -0.0036443 -0.0010826 -0.0018054 0.00066553 0.024711 0.0057663
-0.076972 0.20632 0.019838 0.0091027
-0.0040974 -0.00033439 -0.0037198 -0.00072654 -0.0012301 -0.00029345 -0.0028483 -0.00018968
0.019874 0.0091245 -0.096561 0.29454
1160000000 0.073794 0.29694 0.025167 -0.020104 0.0030712 -0.00037666 2.426e-05 -0.0023887
-0.0040723 -0.0010424 -0.0012075 0.0042209
0.025149 -0.020087 -0.096978 0.37259 -0.0032069 -0.029539 -0.0014905 -0.0017844
-0.0028513 0.0026915 -0.0017368 0.0019128
0.0030769 -0.00037961 -0.0033444 -0.029566 0.24024 0.24431 -0.00079609 0.0018037
-0.00037643 0.001928 -0.00093091 0.00045633
2.5428e-05 -0.0024749 -0.0014605 -0.0017551 -0.0007892 0.001786 0.028243 0.28056
0.021262 -0.01016 -0.0037724 0.0050995
-0.0040794 -0.000997 -0.0028752 0.0028524 -0.00039782 0.0019454 0.02124 -0.010223
-0.043196 0.21521 0.019248 -0.00018149
-0.0013062 0.0043572 -0.0016921 0.0018856 -0.00088277 0.00046117 -0.0037098 0.0051481
0.019263 -0.00019732 -0.05002 0.29858
1220000000 0.11732 0.28848 0.01182 -0.030236 -0.0013751 -0.001015 0.00024411 -0.00099739
-0.0028998 0.0022693 0.0011408 0.0022092
0.01183 -0.030196 -0.052628 0.38712 -0.016983 -0.021873 -0.0026475 0.00043578
1.8668e-05 0.0032306 -0.00078536 0.0020272
-0.0013754 -0.0010081 -0.017109 -0.021829 0.27984 0.20603 0.00080871 0.0017168
0.00069196 0.0012327 0.00031915 0.00058312
0.00027948 -0.00096012 -0.002637 0.00046953 0.00081569 0.0017313 0.068108 0.27342
0.010894 -0.016877 0.0018262 0.0016941
-0.0028541 0.0022231 4.1378e-05 0.003221 0.00068739 0.001234 0.010854 -0.016905
-0.020612 0.22538 0.014751 -0.013146
0.0011412 0.002176 -0.00076111 0.0020233 0.00035574 0.00055587 0.0018387 0.0017748
0.01475 -0.01315 -0.019295 0.31613
1280000000 0.16807 0.2692 -0.0072159 -0.029318 -0.0018398 0.0023827 -0.00083922 -0.0023359
-0.00090031 0.0032451 0.0026727 0.0015202
-0.0071959 -0.029298 -0.0058462 0.37976 -0.02441 -0.0086816 -0.0010232 0.0015165
0.0018906 0.0018004 0.00069478 0.0021408
-0.001863 0.0024057 -0.024485 -0.0085859 0.31079 0.16264 0.0016733 -2.2972e-05
0.001187 0.00017173 0.00037341 0.00020517
-0.00088772 -0.0023196 -0.0010608 0.0014972 0.0016733 -1.936e-05 0.10516 0.25803
0.0011522 -0.019405 -0.00026644 0.00045629
-0.00086896 0.0032587 0.0019142 0.0017712 0.0011441 0.00014308 0.0011356 -0.019401
0.015425 0.22983 0.0035996 -0.015972
0.0026619 0.00152 0.00066565 0.002167 0.00041271 0.00022471 -0.00027843 0.00048024
0.0036014 -0.015996 0.02878 0.31907
1340000000 0.20579 0.23771 -0.017385 -0.019717 0.00073969 0.0045998 -0.0019907 -0.0010729
0.0014975 0.0028345 0.0018916 -0.0014606
-0.017343 -0.019725 0.034152 0.37285 -0.021893 0.0045381 -0.00014947 0.0020853
0.0021615 0.00075172 0.0012557 0.00079369
0.00073977 0.004629 -0.0219 0.004672 0.33309 0.1157 0.0010283 -0.0010208
0.00059212 -0.00053694 0.0001082 0.00014742
-0.0019737 -0.0010718 -0.00014344 0.0020572 0.0010411 -0.0010397 0.13893 0.23866
-0.0084558 -0.016676 0.00098726 0.00071809
0.001517 0.002801 0.0021604 0.00074783 0.00060493 -0.00057373 -0.0085054 -0.016655
0.044818 0.22703 -0.0038199 -0.014634
0.0019234 -0.0014985 0.0012414 0.00076681 0.00011328 0.00018958 0.00098422 0.00065664
-0.0037903 -0.014628 0.066798 0.31529
1400000000 0.24075 0.20136 -0.023754 -0.008046 0.0052727 0.003323 -0.0023913 0.00070689
0.002643 0.0011447 0.00051553 -0.0017287
-0.023725 -0.008022 0.072819 0.36079 -0.014938 0.012969 0.0013639 0.0013405
0.0012541 -0.00087802 0.0011894 0.0001314
0.005287 0.0032917 -0.014912 0.013073 0.3467 0.062743 -3.4595e-06 -0.0016405
5.6468e-05 -0.00032166 0.0004533 0.00025567
-0.0024157 0.00067 0.001372 0.0013288 -5.5922e-06 -0.0016252 0.16931 0.2101
-0.014744 -0.0097523 -0.00078765 4.8789e-05
0.0026746 0.0011124 0.0012318 -0.00095266 0.00011288 -0.00031801 -0.014773 -0.009796
0.078135 0.22446 -0.010724 -0.0094771
0.00045223 -0.0016459 0.0012065 0.00019645 0.0004485 0.00023685 -0.00077131 7.1679e-05
-0.010671 -0.0094908 0.11169 0.30553
1460000000 0.26516 0.15835 -0.020706 0.0046448 0.0057733 -0.001818 -0.0016716 0.0019427
0.0023239 -0.0003435 -0.00033046 -0.001081
-0.020688 0.0046419 0.10792 0.33907 -0.005505 0.015976 0.0016749 0.00020009
0.00083303 -0.0013699 0.001222 -0.00059418
0.0057899 -0.0018424 -0.0054288 0.016049 0.35362 0.0090113 -0.0013295 -0.0011561
0.00018764 -7.5624e-05 0.00076195 -0.00029929
-0.0016445 0.0019654 0.0017033 0.00020527 -0.0013419 -0.0011798 0.19669 0.18119
-0.01574 -0.0027023 -0.00073244 0.0021186
0.002342 -0.0003349 0.00083369 -0.0013938 0.00018934 -0.00011793 -0.01572 -0.0026736
0.10778 0.21222 -0.012716 -0.0030724
-0.0003118 -0.0011657 0.0012128 -0.00055101 0.00075159 -0.00030744 -0.0007814 0.0021226
-0.012742 -0.0030604 0.14498 0.28551
1520000000 0.27912 0.11712 -0.01496 0.010258 0.0034911 -0.0043713 0.00022834 0.0028068
0.0024516 -0.00195 -0.0012145 -0.00015139
-0.014958 0.010228 0.14206 0.32499 0.0024391 0.013056 0.0016672 -0.00073559
-1.7333e-05 -0.0010001 0.00034981 -0.0010214
0.003479 -0.0044225 0.0025044 0.013035 0.3472 -0.046831 -0.00099568 -0.00020661
0.00075222 -0.00088683 8.679e-05 -0.00013314
0.00025075 0.0028084 0.0016739 -0.00072756 -0.00099842 -0.00021803 0.22089 0.14296
-0.014951 0.0031114 0.0016824 0.0022824
0.0023979 -0.0019959 -1.8986e-05 -0.0010095 0.00071473 -0.00086474 -0.014948 0.0031369
0.13672 0.20039 -0.012607 0.0020641
-0.0012239 -0.00010257 0.00037143 -0.0010194 0.00019549 -0.00020566 0.0017075 0.0022455
-0.012618 0.0020338 0.17837 0.26661
1580000000 0.28995 0.070951 -0.0082252 0.013573 -0.0010541 -0.0051847 0.001731 0.0019166
-0.00022134 -0.0023614 -0.00027963 0.000491
-0.0082015 0.013549 0.17004 0.30015 0.006066 0.0076599 0.00060472 -0.0015504
-0.00051677 -0.0009595 -0.0001843 -0.00081154
-0.0010612 -0.005201 0.0061175 0.0076155 0.32798 -0.10422 -0.001446 0.00056847
-0.00032 -0.0013363 0.00027889 -0.00060346
0.0017333 0.0019446 0.00060725 -0.0015452 -0.001429 0.00055722 0.23539 0.10307
-0.011082 0.0080641 0.0025117 0.00077005
-0.00024354 -0.0023366 -0.00050514 -0.00096221 -0.00032727 -0.0013307 -0.011052 0.0080984
0.16211 0.18401 -0.0096573 0.0080855
-0.00025244 0.00048941 -0.0002035 -0.00079945 0.00022694 -0.00055984 0.0025195 0.000728
-0.0096466 0.0080813 0.21126 0.24079
1640000000 0.29308 0.029753 -0.0012615 0.012252 -0.0031166 -0.0027501 0.002944 0.00086531
-0.00075376 -0.0018032 -0.00030698 0.0005548
-0.0012882 0.012239 0.19965 0.27573 0.0061316 0.0024418 -0.00049223 -0.0018253
-0.00080257 -0.00043641 -0.00047955 -0.00073723
-0.0031218 -0.0027648 0.0061547 0.0024128 0.29965 -0.15327 -0.00056747 0.0013213
-0.00099962 -0.0010572 -0.0001612 -0.00044819
0.0029197 0.00088133 -0.0004991 -0.0018169 -0.00059137 0.0013458 0.24815 0.053912
-0.0067131 0.0089902 0.0026518 -0.00086293
-0.00076465 -0.0017765 -0.00084264 -0.0004335 -0.0010894 -0.0010493 -0.0066797 0.0090008
0.18633 0.16135 -0.0046593 0.010302
-0.00032784 0.00063932 -0.00045634 -0.00073786 -0.00010702 -0.0004605 0.0026592 -0.00083051
-0.0046592 0.010311 0.23747 0.21073
1700000000 0.2869 -0.015815 0.0021112 0.0093122 -0.0038817 0.00015176 0.0031362 -0.0014054
-0.0021812 -0.00071404 0.00061216 0.00035211
0.0021244 0.0093038 0.21831 0.24434 0.0034708 -0.00072085 -0.0014944 -0.0007798
-0.00073686 -0.00017937 -0.0009253 -0.00051589
-0.0038919 0.00017957 0.0034605 -0.00068559 0.25725 -0.19331 0.00019505 0.0014021
-0.0021377 -0.00020272 -0.00049043 -0.00077127
0.0031223 -0.0013967 -0.0014769 -0.00073937 0.00020004 0.0014263 0.24543 0.0035058
-0.0037361 0.0092502 0.0017849 -0.0023748
-0.0021953 -0.00066809 -0.00073485 -0.00016699 -0.0021221 -0.00024946 -0.0037349 0.0093293
0.2054 0.14209 0.00043959 0.010379
0.00068304 0.00034935 -0.00089526 -0.00053382 -0.00050084 -0.00072509 0.0018315 -0.0024528
0.00041893 0.010377 0.25509 0.17733
1760000000 0.27549 -0.064594 0.0043 0.0059425 -0.0025061 0.0012754 0.0012329 -0.0036211
-0.0014444 0.00061533 0.0003198 -0.00062149
0.0042953 0.0059469 0.2445 0.20492 0.0005543 -0.0022713 -0.0012721 -4.7445e-06
-0.0011392 0.00072208 -0.00066616 0.00031828
-0.0025242 0.0012443 0.00054935 -0.0022732 0.20896 -0.22675 0.0010065 0.0010631
-0.0011932 0.0013553 -0.001422 -0.00056429
0.0011675 -0.0036738 -0.001277 9.0517e-06 0.0010055 0.0010596 0.23641 -0.04852
-0.00059224 0.0082169 -0.00020276 -0.0027846
-0.0014118 0.00063023 -0.0011415 0.00074187 -0.0011493 0.0013584 -0.0005968 0.0081479
0.22142 0.10827 0.0046606 0.0075448
0.00029627 -0.00060714 -0.00067407 0.00034721 -0.0013467 -0.00057624 -0.00020996 -0.0027155
0.0046613 0.0075376 0.26894 0.13998
1820000000 0.25187 -0.10196 0.0042991 0.0024298 2.2064e-05 0.0026501 -0.0011124 -0.0031122
-0.0011928 0.0010149 -0.00020696 -0.00012369
0.0043131 0.0024346 0.25525 0.17528 -0.0017885 -0.00039212 -0.0015437 0.00091804
-0.00024413 0.0012053 -0.00073724 0.00053867
0.00011403 0.0026709 -0.0018116 -0.00039325 0.15845 -0.24213 0.0014731 0.00055864
-0.00029281 0.0024399 -0.0017001 0.00034926
-0.0011108 -0.0031448 -0.0015683 0.00094836 0.0014721 0.00059278 0.20651 -0.096078
0.00065923 0.0066239 -0.0018022 -0.0018047
-0.0011863 0.0010427 -0.00023959 0.0011701 -0.00023727 0.0024572 0.00074269 0.0066451
0.24018 0.079855 0.0057078 0.0036686
-0.00026785 -0.00010954 -0.00069677 0.00052254 -0.0017296 0.0004273 -0.0018781 -0.0018773
0.0056687 0.0036747 0.27236 0.10432
1880000000 0.21717 -0.14289 0.0019242 0.00028706 -0.00043567 0.0024165 -0.0030831 -0.0021363
-0.00030655 0.0017524 3.3473e-05 -0.00057869
0.0018939 0.00029834 0.25991 0.12889 -0.0039069 0.0023103 -0.00037968 0.0019052
0.00034662 0.0014096 7.955e-05 0.0011133
-0.00037779 0.0025077 -0.0038866 0.0023281 0.1061 -0.25101 0.0020399 -0.00078785
0.0015932 0.0020373 -0.00090482 0.0017675
-0.0030279 -0.0021349 -0.00036031 0.0019082 0.0019859 -0.00075705 0.16524 -0.13682
0.0012011 0.0044561 -0.0027754 0.00014078
-0.00027075 0.0017614 0.00040749 0.0014432 0.0015429 0.0020067 0.0011963 0.0044452
0.24522 0.048639 0.0059562 0.0011126
2.8012e-06 -0.00055578 5.4143e-05 0.0010791 -0.00083088 0.0016372 -0.0026158 0.00015106
0.0059442 0.0010915 0.27313 0.070153
1940000000 0.17827 -0.16892 -0.00028088 -0.0012201 0.0017393 0.0022904 -0.0039497 0.00041824
0.0012426 0.001119 -0.00056961 -0.00021889
-0.0002729 -0.0012295 0.26112 0.097596 -0.0021076 0.0053223 0.0010711 0.0015266
0.0019198 0.00077006 0.00097062 0.00042598
0.0016768 0.0022198 -0.0020986 0.0053293 0.061572 -0.24364 0.00085678 -0.0021797
0.0024773 0.0005512 0.00039961 0.0016491
-0.0039046 0.00046336 0.0010904 0.00159 0.00093108 -0.0022203 0.11264 -0.16704
0.0002183 0.0032314 -0.0017624 0.0014651
0.0012034 0.0011298 0.0018825 0.00075525 0.0024849 0.00053295 0.00016244 0.0032502
0.24922 0.010715 0.0044973 -0.0027427
-0.00064957 -0.00024657 0.00093902 0.00035736 0.00042573 0.0017116 -0.0018568 0.0013624
0.0044445 -0.0027562 0.26328 0.034134
2000000000 0.13283 -0.18369 -0.0039148 0.0011113 0.0031057 0.0015287 -0.0024263 0.0037197
0.0010334 0.00041195 -0.00045989 0.00048535
-0.0038788 0.0010901 0.24762 0.062296 -0.0009888 0.0075177 0.0018869 0.0003953
0.0014428 -0.0010734 0.00054783 0.00017199
0.0031616 0.0015158 -0.00090582 0.0074921 0.018729 -0.22973 -0.00127 -0.0017324
0.0021404 -0.0011914 0.0016874 0.0014248
-0.0023264 0.0038361 0.0018407 0.00033615 -0.0012818 -0.0017141 0.059046 -0.17695
-0.0014586 0.003448 -0.00038016 0.0023479
0.0011022 0.00034848 0.0014448 -0.0011066 0.0021869 -0.0011818 -0.0015652 0.0032704
0.24545 -0.022365 0.00078897 -0.0039246
