!Keysight Technologies,M9804A,MY58100912,A.14.10.03
!Date: Thursday, April 27, 2023 10:28:33
!Correction: S11(C  6-Port  ) 
!S12(C  6-Port  ) 
!S13(C  6-Port  ) 
!S14(C  6-Port  ) 
!S15(C  6-Port  ) 
!S16(C  6-Port  ) 
!S21(C  6-Port  ) 
!S22(C  6-Port  ) 
!S23(C  6-Port  ) 
!S24(C  6-Port  ) 
!S25(C  6-Port  ) 
!S26(C  6-Port  ) 
!S31(C  6-Port  ) 
!S32(C  6-Port  ) 
!S33(C  6-Port  ) 
!S34(C  6-Port  ) 
!S35(C  6-Port  ) 
!S36(C  6-Port  ) 
!S41(C  6-Port  ) 
!S42(C  6-Port  ) 
!S43(C  6-Port  ) 
!S44(C  6-Port  ) 
!S45(C  6-Port  ) 
!S46(C  6-Port  ) 
!S51(C  6-Port  ) 
!S52(C  6-Port  ) 
!S53(C  6-Port  ) 
!S54(C  6-Port  ) 
!S55(C  6-Port  ) 
!S56(C  6-Port  ) 
!S61(C  6-Port  ) 
!S62(C  6-Port  ) 
!S63(C  6-Port  ) 
!S64(C  6-Port  ) 
!S65(C  6-Port  ) 
!S66(C  6-Port  ) 
!S6P File: Measurement: :
# Hz S  RI   R 50
500000000 -0.33177 -0.065256 -0.010045 -0.00091686 -0.0093867 0.013697 -0.0039536 0.011755
0.013581 0.0048264 -0.0044834 0.0081415
-0.010054 -0.0011045 -0.4124 -0.073922 0.0078739 -0.010217 0.0013785 0.012209
0.0081575 0.0025333 0.0014128 0.013482
-0.0089484 0.013459 0.0077781 -0.010564 -0.26579 0.19153 0.0068196 0.0034028
-0.0025477 0.0090061 0.00047386 0.011969
-0.0045459 0.01189 0.0013526 0.012767 0.0070712 0.0036768 -0.33039 0.037841
-0.020708 -0.0034215 0.016394 0.027218
0.013328 0.0052073 0.0082258 0.0025747 -0.0022924 0.0090106 -0.020519 -0.0036968
-0.2343 -0.21738 -0.029565 0.005611
-0.0048411 0.007975 0.0018845 0.014223 0.00067442 0.012406 0.017286 0.026681
-0.030113 0.0058197 -0.26504 -0.14113
560000000 -0.3213 0.10341 -0.022711 -0.067373 -9.9454e-05 0.013756 0.0052779 0.012065
0.010672 0.0047345 0.01118 0.0086623
-0.022681 -0.067338 -0.37343 0.092649 -0.041621 -0.039398 0.013751 0.0039899
-0.011745 -0.0038683 0.0031927 -0.0008078
0.00012101 0.013766 -0.041399 -0.039422 -0.18641 0.24469 0.0002229 -0.0052616
0.017252 0.0081297 0.0075095 -0.0068837
0.0050871 0.011774 0.013942 0.0038536 1.7514e-05 -0.0051037 -0.30781 0.13032
0.0060226 -0.022917 0.0050953 -0.02189
0.010091 0.0056667 -0.012791 -0.0042682 0.017826 0.0077105 0.0056503 -0.022604
-0.31071 -0.032383 0.010044 -0.052463
0.010637 0.008994 0.003841 -0.0012251 0.0075117 -0.0064342 0.0042849 -0.021481
0.010921 -0.051181 -0.3338 0.0095496
620000000 -0.27956 0.083255 -0.023679 0.0094328 0.0039641 0.0095817 0.0082315 -0.004004
0.011754 -0.00088833 0.0003195 -0.0017377
-0.023731 0.0094489 -0.40282 0.038855 -0.018498 0.00081749 -0.0014672 -0.0021744
0.012946 -0.0048916 0.0012087 -0.0030982
0.0038686 0.0093657 -0.0185 0.0006587 -0.15764 0.25402 -0.00075661 -0.0053157
-0.002751 -0.0023827 0.0092447 -0.0035056
0.0085383 -0.0042443 -0.0015725 -0.0023017 -0.00091976 -0.0054965 -0.26449 0.14145
-0.039787 -0.020822 0.01245 0.029262
0.011962 -0.0018883 0.012985 -0.0050552 -0.0028593 -0.0024606 -0.039718 -0.020577
-0.2266 -0.067607 -0.042185 0.012623
0.00026875 -0.0017374 0.0013189 -0.0029082 0.0091405 -0.0032915 0.013375 0.028093
-0.042486 0.013017 -0.24863 -0.028234
680000000 -0.24327 0.17721 -0.02615 -0.014624 0.0051386 0.0057325 0.0018152 -0.0071665
-0.001668 -0.011944 0.0053991 -0.0068678
-0.026108 -0.014595 -0.3914 0.14155 -0.032208 -0.0023775 -0.0017638 -0.00053089
-0.0013955 -0.0095117 -0.0014155 -0.0020557
0.0049448 0.0054801 -0.032423 -0.0022943 -0.10699 0.27603 -0.0012342 -0.00071442
-0.0014465 0.00024522 -0.0029389 -0.0095366
0.0015114 -0.0071999 -0.0018082 -0.00050091 -0.0011631 -0.00070259 -0.22141 0.19412
-0.022807 -0.0078135 -0.0088198 -0.012468
-0.0018578 -0.011521 -0.0013891 -0.0095723 -0.0013278 0.00018299 -0.022966 -0.0079026
-0.28278 0.036364 -0.0059994 -0.0070424
0.0058826 -0.0073149 -0.0012783 -0.0020596 -0.0027477 -0.0091534 -0.0095651 -0.011815
-0.0058592 -0.0063454 -0.2629 0.080443
740000000 -0.1959 0.17036 -0.04017 0.027668 0.014046 -0.0042247 0.00020879 -0.0044323
-0.0044224 -0.0029947 -0.0058875 0.0023573
-0.040091 0.027683 -0.33705 0.15991 -0.037223 0.035202 0.00032033 -0.0061402
-0.012516 0.0071081 -0.0013665 -0.00664
0.013976 -0.0043464 -0.037134 0.034823 -0.073378 0.2733 -0.0023084 0.0032348
-0.0016725 -0.0060201 -0.0012216 0.00059774
0.0003346 -0.0043029 0.00031233 -0.0060816 -0.0025295 0.0033024 -0.20414 0.20107
-0.042822 -0.0095947 0.023312 0.016763
-0.0046499 -0.0037073 -0.012321 0.0075775 -0.0015698 -0.0057263 -0.042786 -0.0094597
-0.18065 0.068223 -0.042296 -0.0010707
-0.0061165 0.0024393 -0.0010593 -0.0067441 -0.001788 0.00081601 0.0235 0.016996
-0.042978 -0.0010665 -0.25432 0.085958
800000000 -0.16473 0.21556 -0.021958 0.015959 0.0062519 -0.010551 -0.0043789 -0.0025123
-0.0046076 0.0016135 0.0040255 0.00030897
-0.02188 0.015882 -0.34415 0.23134 -0.0088142 0.034028 -0.0023076 0.0019877
-0.0007438 0.002281 0.00054222 0.0052983
0.0060121 -0.010625 -0.008821 0.034113 -0.03466 0.29851 0.00076373 0.0013846
7.2511e-05 0.0033764 -0.0017285 0.00072966
-0.0044277 -0.0027257 -0.002376 0.0018829 0.00084698 0.0012989 -0.1752 0.22842
-0.02826 0.012931 0.01442 -0.01062
-0.0045239 0.0016382 -0.00082863 0.0023635 6.3069e-05 0.0034859 -0.028371 0.012984
-0.22687 0.093153 -0.01736 0.020819
0.004253 0.00019397 0.00088009 0.0053127 -0.0014873 0.00051122 0.014293 -0.010641
-0.017419 0.020771 -0.24746 0.13597
860000000 -0.13082 0.23572 -0.018074 0.030024 -0.002868 -0.010533 -0.0019218 0.00014354
0.0036569 0.0050187 -0.0038767 -0.0031011
-0.018004 0.030001 -0.29705 0.27508 0.0070569 0.034617 -0.00016648 0.0019108
0.0033076 0.00086479 0.0034083 0.00029621
-0.0028844 -0.010635 0.0071619 0.034567 0.012378 0.30804 -0.00047367 -0.00028244
0.002242 -0.0017077 0.0015043 0.0040317
-0.0018724 0.00022283 -5.9246e-07 0.0020404 -0.00061292 -0.00028949 -0.13835 0.23935
-0.018114 0.017522 -0.0060468 -0.0094898
0.0039883 0.0047779 0.0033106 0.00082359 0.0023336 -0.0016603 -0.018025 0.017457
-0.17092 0.1471 -0.025668 0.017234
-0.0040152 -0.003115 0.0031228 6.4641e-05 0.0013333 0.0042615 -0.0065067 -0.0095248
-0.025788 0.016717 -0.19595 0.18094
920000000 -0.10789 0.25895 0.0043509 0.038509 -0.0094182 -0.005399 -0.0022344 0.0015023
0.00027692 0.0018303 0.0029228 -0.0011252
0.0043516 0.038521 -0.27016 0.29679 0.027994 0.023133 0.0011902 0.00093112
0.0073474 -5.3303e-05 0.0039498 -0.0027821
-0.009413 -0.0053533 0.028059 0.023052 0.057748 0.31016 0.0018273 -1.4487e-05
0.00064115 -0.00016653 0.00076327 -0.0016121
-0.0023353 0.0013935 0.0011209 0.00095864 0.0018381 -7.1584e-05 -0.11462 0.25591
-0.012042 0.03022 0.0040751 -0.0068066
0.00046613 0.0017948 0.0074735 -0.00013101 0.00059884 -0.00012608 -0.011837 0.030411
-0.16259 0.15257 -0.002302 0.027463
0.0028993 -0.0013185 0.0040499 -0.0029828 0.00071872 -0.0017354 0.0040954 -0.0070821
-0.002222 0.027709 -0.20561 0.19642
980000000 -0.062254 0.28034 0.016057 0.030433 -0.0097859 0.0041878 0.0014742 0.0038506
0.0040363 -0.0013019 -0.0036545 -0.0023909
0.015993 0.03046 -0.21808 0.33332 0.033348 0.0058273 0.0019675 8.2508e-05
0.0019785 -0.0059522 -0.00034288 -0.0026614
-0.0097922 0.0042381 0.03342 0.0057542 0.10388 0.30525 0.00063808 -0.001147
0.00043425 -0.0017423 0.0012403 -0.00031875
0.0014138 0.0038834 0.0019183 0.00011358 0.00060901 -0.00114 -0.076744 0.26715
0.0070258 0.029756 -0.0097184 -0.0080134
0.0040984 -0.0013446 0.0019391 -0.0058981 0.00044716 -0.0017584 0.0070008 0.029839
-0.12829 0.18531 0.0064599 0.020442
-0.0032172 -0.0026104 -0.00030682 -0.0027336 0.0013399 -0.00028292 -0.0095758 -0.0076988
0.0062924 0.019951 -0.16364 0.24238
1040000000 -0.021647 0.28954 0.032917 0.019847 -0.0016396 0.0073753 0.0023468 0.00094349
0.00045945 -0.0032803 3.7784e-05 -0.0018356
0.032922 0.019861 -0.1833 0.34759 0.030332 -0.014185 0.0017043 -0.0016348
-0.0020928 -0.0026822 -0.0011322 -0.0028931
-0.0016538 0.0074182 0.030331 -0.014266 0.15003 0.29307 -0.00044535 -0.0016396
-0.0015675 -0.00096873 -0.00062328 -0.00099666
0.002646 0.00087329 0.001731 -0.0016715 -0.00042634 -0.0016251 -0.049908 0.27708
0.018763 0.018973 -0.0021667 0.00062807
0.0005777 -0.0034407 -0.0021057 -0.0025215 -0.0015523 -0.00094909 0.01879 0.018953
-0.097307 0.19216 0.014536 0.01903
-0.0001129 -0.0016352 -0.0011185 -0.0030191 -0.0006247 -0.00097097 -0.0021448 0.00074669
0.014673 0.019128 -0.14253 0.26367
1100000000 0.022779 0.29978 0.036637 -0.0028562 0.0029597 0.0043533 0.00248 -0.00085349
-0.0021823 -0.0031827 -0.0043911 -0.00031808
0.036612 -0.0028122 -0.14036 0.36689 0.016171 -0.027996 0.000122 -0.0018477
-0.0036356 -0.0011201 -0.0037954 -0.00069171
0.0029467 0.0043693 0.016064 -0.028053 0.19667 0.27413 -0.0019215 0.00016064
-0.001786 0.00065143 -0.001189 -0.00028067
0.0023751 -0.0008043 5.8415e-05 -0.0017899 -0.0019171 0.00015756 -0.010551 0.28254
0.024641 0.0058542 -0.0026586 -0.00023289
-0.0022192 -0.003246 -0.0037643 -0.0011683 -0.0018394 0.00064435 0.02466 0.0058603
-0.07667 0.2063 0.019565 0.0094013
-0.0043467 -0.00023572 -0.0038123 -0.00063133 -0.0011048 -0.00026139 -0.0027892 -0.0002792
0.019698 0.0091595 -0.09657 0.2945
1160000000 0.07365 0.29703 0.025114 -0.020062 0.0031003 -0.00041881 -0.00010438 -0.0023596
-0.0041404 -0.0010323 -0.00097717 0.0042799
0.025108 -0.020034 -0.09693 0.37267 -0.0031862 -0.029605 -0.0016854 -0.0017538
-0.0028817 0.0026977 -0.0016142 0.0018839
0.0030656 -0.00035504 -0.0033162 -0.029614 0.2402 0.24425 -0.00084177 0.0017996
-0.00046112 0.0019152 -0.00093393 0.00037771
-1.8369e-05 -0.0023283 -0.0015714 -0.0018053 -0.00088993 0.0018033 0.02839 0.28043
0.021297 -0.01012 -0.0037008 0.0052177
-0.0041076 -0.00092245 -0.0028342 0.0027166 -0.00047476 0.0019162 0.021351 -0.010166
-0.043381 0.21509 0.019362 -0.00032949
-0.0011809 0.0041679 -0.0017516 0.0019715 -0.00096629 0.00047073 -0.0037982 0.0052846
0.019429 -5.6269e-05 -0.050305 0.29824
1220000000 0.11727 0.28837 0.01181 -0.03031 -0.0013714 -0.00099453 0.00028288 -0.00096618
-0.0028249 0.0021946 0.0010138 0.0021846
0.011809 -0.030284 -0.052718 0.38721 -0.017001 -0.021876 -0.0025949 0.00042873
2.7571e-05 0.0032426 -0.00084115 0.0020521
-0.0013919 -0.0010437 -0.017096 -0.021826 0.27984 0.20593 0.00077247 0.0017115
0.0006943 0.0012102 0.00040066 0.00059321
0.00026773 -0.0010119 -0.0026845 0.00047088 0.00080885 0.0017203 0.068045 0.27342
0.010896 -0.0169 0.0017286 0.0016738
-0.0029146 0.0022801 2.2428e-05 0.0033089 0.00068991 0.0012216 0.010831 -0.016914
-0.020839 0.22544 0.014691 -0.013184
0.0011374 0.0022304 -0.00075412 0.0020125 0.0003072 0.00055286 0.0017318 0.0016888
0.01462 -0.013311 -0.019364 0.31613
1280000000 0.16796 0.26925 -0.0071301 -0.029346 -0.001858 0.0023548 -0.00079557 -0.0022938
-0.00092686 0.0033535 0.0027389 0.0015191
-0.0071195 -0.029317 -0.0058441 0.37973 -0.024434 -0.0086872 -0.0010498 0.0015019
0.0017938 0.0018594 0.00074209 0.0021348
-0.0018275 0.0023703 -0.024537 -0.0086158 0.31081 0.1626 0.0016016 -1.9008e-05
0.001154 0.00022114 0.0003948 0.00021178
-0.00081741 -0.0022374 -0.00092564 0.0015152 0.0015996 -3.5263e-05 0.1052 0.25797
0.0011313 -0.019401 -0.00016254 0.00044255
-0.00092718 0.0034105 0.0018416 0.0018889 0.0011067 0.00019165 0.0011148 -0.019391
0.015242 0.22971 0.0035738 -0.015733
0.0027473 0.0014806 0.00073021 0.0021209 0.00038604 0.00022619 -0.00034147 0.00039334
0.0035979 -0.015801 0.028568 0.31896
1340000000 0.20571 0.23771 -0.017385 -0.019749 0.00068756 0.0045925 -0.002018 -0.0010371
0.0014964 0.0027992 0.0019559 -0.0014606
-0.017374 -0.019754 0.034121 0.37289 -0.021877 0.0045681 -0.00013594 0.0020861
0.0021377 0.00072734 0.0012127 0.00083642
0.00069242 0.004606 -0.021866 0.0046394 0.33305 0.11565 0.0011194 -0.0010441
0.0006184 -0.00055834 6.554e-05 0.00025515
-0.0019985 -0.0011007 -0.00018217 0.0021196 0.0010898 -0.0010056 0.13888 0.23857
-0.0084307 -0.016601 0.00089884 0.00068884
0.0015476 0.0027991 0.0021332 0.00071755 0.00059712 -0.00055018 -0.0084452 -0.01663
0.044801 0.22706 -0.0038176 -0.014736
0.0018869 -0.0015645 0.0012292 0.0008201 5.8111e-05 0.00019638 0.00094493 0.00080429
-0.0038218 -0.01471 0.066767 0.3155
1400000000 0.24076 0.20138 -0.023793 -0.008025 0.0053062 0.0033215 -0.0024229 0.00070408
0.002615 0.0010712 0.0004683 -0.0015911
-0.023764 -0.0080392 0.072788 0.36084 -0.014946 0.012975 0.0013339 0.0013227
0.0012397 -0.0008857 0.0012458 0.00013835
0.0053155 0.0033123 -0.01493 0.013069 0.34665 0.062739 -8.1489e-05 -0.0016403
0.00011806 -0.00028116 0.00040463 0.00015835
-0.0024622 0.0007478 0.0014307 0.0013413 -9.0477e-06 -0.0016647 0.16932 0.2101
-0.014683 -0.0097688 -0.00084896 1.1975e-05
0.0026924 0.0011352 0.0012632 -0.00091387 0.00013114 -0.00029381 -0.014734 -0.0097402
0.078202 0.22441 -0.010703 -0.0094343
0.00052404 -0.0017034 0.0011997 9.2658e-05 0.00040071 0.00021432 -0.0008241 -1.3508e-05
-0.01081 -0.0094624 0.11139 0.30522
1460000000 0.26509 0.15837 -0.020748 0.0046201 0.0057762 -0.0017923 -0.0016666 0.0019151
0.0023187 -0.00034821 -0.00036703 -0.0011448
-0.020743 0.004623 0.10793 0.33908 -0.0055202 0.015984 0.0017396 0.00021457
0.00086873 -0.0013763 0.0012371 -0.00048667
0.0057653 -0.0018466 -0.0054248 0.016048 0.35362 0.0089038 -0.0013366 -0.0011488
0.00017039 -0.00014197 0.0007634 -0.00023048
-0.0015892 0.0019106 0.001686 0.00020271 -0.0013665 -0.0011233 0.19661 0.18119
-0.015782 -0.0026586 -0.0006715 0.0021445
0.0023373 -0.00038958 0.00084673 -0.0013883 0.0001766 -0.00012585 -0.015765 -0.0026936
0.10754 0.21232 -0.012724 -0.0031658
-0.00035808 -0.0010692 0.0012376 -0.00052918 0.00076734 -0.00025153 -0.00068822 0.0021397
-0.012619 -0.0031201 0.1451 0.28558
1520000000 0.27908 0.11709 -0.014993 0.010267 0.0034881 -0.0043606 0.00025133 0.0028229
0.0024105 -0.0019981 -0.0012447 -0.00013414
-0.014974 0.010237 0.14205 0.325 0.0024275 0.013073 0.0016763 -0.00073058
-2.7383e-05 -0.00099717 0.00035557 -0.0010004
0.0034861 -0.0044125 0.0024901 0.013067 0.34716 -0.046924 -0.00099949 -0.00023335
0.00072686 -0.00092504 6.8805e-06 -0.00016046
0.00021215 0.0027952 0.0016849 -0.00076935 -0.00098629 -0.00025056 0.22087 0.14292
-0.014945 0.0030834 0.0016136 0.0022786
0.0024134 -0.0019734 -4.1106e-05 -0.0010007 0.00078065 -0.00091932 -0.014936 0.0031399
0.13657 0.20041 -0.012628 0.0020107
-0.0012213 -0.00016769 0.00034777 -0.00098701 7.0159e-05 -5.1834e-05 0.0017281 0.0022812
-0.01267 0.0020756 0.17829 0.26661
1580000000 0.28989 0.071028 -0.0082355 0.013552 -0.0010338 -0.0051886 0.0017567 0.0019021
-0.00016171 -0.0023833 -0.00029235 0.00051179
-0.0082429 0.013533 0.16999 0.30018 0.0060649 0.0076418 0.00057549 -0.0015406
-0.00051648 -0.00096549 -0.00017435 -0.00076494
-0.0010271 -0.0051909 0.0060957 0.0076158 0.3279 -0.10435 -0.0014789 0.00058703
-0.00025343 -0.0013224 0.0002639 -0.00059004
0.0017658 0.0019271 0.0005858 -0.0015414 -0.0014827 0.0005504 0.23539 0.10307
-0.011132 0.0080497 0.002516 0.00071591
-0.00020895 -0.0024205 -0.00052846 -0.0010138 -0.00030699 -0.0013827 -0.011076 0.0081098
0.16203 0.184 -0.0096989 0.007955
-0.00030087 0.00050802 -0.00023204 -0.00075431 0.0002652 -0.00062456 0.002507 0.00072308
-0.0097329 0.0080131 0.21126 0.24077
1640000000 0.293 0.029681 -0.0012924 0.012278 -0.0031044 -0.0027602 0.0029094 0.0009048
-0.00072877 -0.001794 -0.00031726 0.00059102
-0.0013094 0.012277 0.19963 0.27573 0.0061568 0.002412 -0.00050846 -0.0018521
-0.00082227 -0.00044982 -0.00044636 -0.00071934
-0.0031169 -0.0027471 0.0061719 0.0023803 0.29973 -0.15339 -0.00053062 0.0013041
-0.0010465 -0.0010644 -4.179e-05 -0.00044225
0.0028896 0.00088451 -0.00050318 -0.0018631 -0.00052654 0.0013163 0.24822 0.053898
-0.0066836 0.0090493 0.0026779 -0.00091087
-0.00077557 -0.0017745 -0.00082453 -0.00041865 -0.0010618 -0.00098827 -0.0066532 0.0089815
0.18619 0.16152 -0.0046198 0.010232
-0.00028735 0.00053625 -0.00044433 -0.00073117 -7.8601e-05 -0.00042259 0.0026876 -0.00094308
-0.004574 0.010201 0.23733 0.21089
1700000000 0.28679 -0.015699 0.0021078 0.0093186 -0.0039141 9.8263e-05 0.0030898 -0.001394
-0.0022028 -0.00068172 0.00061708 0.00041248
0.0020901 0.0093177 0.21832 0.24439 0.0034386 -0.00065914 -0.0014863 -0.00074407
-0.00074767 -0.00017016 -0.00095912 -0.00053338
-0.0039322 0.00015044 0.0034428 -0.0006791 0.25709 -0.19328 0.00024309 0.001394
-0.0021329 -0.00021531 -0.00049929 -0.0008308
0.0030886 -0.0014179 -0.0014849 -0.0007334 0.00026739 0.001425 0.24538 0.0035061
-0.0037227 0.0092725 0.0017619 -0.0024138
-0.0021325 -0.0006959 -0.0007238 -0.00016215 -0.0020857 -0.00023762 -0.0037399 0.00936
0.20527 0.14214 0.00038797 0.010304
0.00067378 0.00034019 -0.00095376 -0.00051173 -0.00044521 -0.00087446 0.0017652 -0.0024437
0.00036171 0.010412 0.25513 0.1772
1760000000 0.27547 -0.064654 0.004335 0.0059527 -0.0024926 0.0013348 0.0012606 -0.0036463
-0.0013927 0.00062495 0.00033233 -0.00063229
0.0043213 0.0059585 0.24448 0.20491 0.00054573 -0.0022452 -0.0012942 1.9144e-05
-0.0011158 0.00072438 -0.00067208 0.00031571
-0.0025159 0.0013382 0.00052431 -0.0022765 0.20887 -0.22689 0.00094071 0.001188
-0.0012138 0.0014189 -0.0013794 -0.00060104
0.0012427 -0.0035854 -0.0012867 1.093e-05 0.00093344 0.0010736 0.23633 -0.048469
-0.00062851 0.0081375 -0.00020475 -0.0027306
-0.0013982 0.00067397 -0.0011111 0.00074751 -0.0012643 0.0013781 -0.0006021 0.0081625
0.22139 0.10829 0.0046442 0.0076033
0.00027771 -0.0006866 -0.00068882 0.0003112 -0.0013979 -0.00056658 -0.00016809 -0.0027736
0.0046916 0.0075493 0.26896 0.14006
1820000000 0.2518 -0.10188 0.0042994 0.002442 1.8629e-05 0.0026064 -0.0011743 -0.0031379
-0.0012286 0.00098908 -0.00032714 -0.00015868
0.0042889 0.0024497 0.25526 0.17529 -0.0018029 -0.00043049 -0.0015275 0.00091438
-0.00026634 0.0011925 -0.00072698 0.00050743
5.9305e-05 0.0025882 -0.0018179 -0.00041928 0.15828 -0.24208 0.001577 0.00057395
-0.00025669 0.0025208 -0.0016461 0.00036172
-0.0012052 -0.003135 -0.0015497 0.00092117 0.0015791 0.00064872 0.20661 -0.096206
0.00078739 0.0067109 -0.0017967 -0.0017641
-0.0012557 0.00099464 -0.00022618 0.0011677 -0.00023357 0.0024936 0.00080003 0.0066322
0.24018 0.079966 0.0056857 0.0036695
-0.00019788 -0.00019631 -0.00067395 0.0005171 -0.0017392 0.00032243 -0.0019529 -0.0017725
0.0056835 0.0036686 0.27232 0.10439
1880000000 0.21714 -0.1429 0.001919 0.00026879 -0.0003662 0.0024592 -0.003058 -0.0021654
-0.00026131 0.001767 0.0001232 -0.0005579
0.0019244 0.00027776 0.25991 0.12888 -0.0039112 0.0023405 -0.00039321 0.0019389
0.00036782 0.0014151 -4.126e-06 0.0010859
-0.00036768 0.0025183 -0.0039141 0.002353 0.10604 -0.25104 0.0020795 -0.00080096
0.0016001 0.0020052 -0.0010223 0.0017188
-0.003074 -0.0021471 -0.00036298 0.0018907 0.0020996 -0.00088621 0.1652 -0.13676
0.0013348 0.0043953 -0.0027421 6.9812e-05
-0.00032192 0.0017863 0.00037903 0.0014354 0.0016149 0.0020304 0.0012306 0.0044524
0.24522 0.048669 0.0059094 0.0010362
2.3785e-05 -0.00050727 5.872e-05 0.0011202 -0.00088845 0.0017375 -0.0026082 0.00017745
0.0058783 0.0011274 0.27305 0.070101
1940000000 0.17836 -0.16881 -0.00025891 -0.0011797 0.0016886 0.0022298 -0.0038261 0.00048313
0.0012525 0.0010836 -0.00063335 -0.00027731
-0.0002642 -0.0011998 0.2611 0.097642 -0.0021244 0.0053133 0.0011377 0.0015312
0.0019553 0.00075939 0.00091537 0.00034663
0.0017075 0.0022519 -0.0020802 0.0053488 0.061417 -0.24366 0.00077487 -0.0022227
0.0025298 0.00054828 0.00032703 0.0016559
-0.0039267 0.00047593 0.0011413 0.0015478 0.00076888 -0.0023184 0.1127 -0.16711
0.00010331 0.003273 -0.0017509 0.0016269
0.0011493 0.0010537 0.0019511 0.00072034 0.0024463 0.00049604 0.00020292 0.0032129
0.24919 0.010888 0.0045487 -0.0027119
-0.0006999 -0.00030372 0.00091222 0.00039213 0.00043709 0.0016328 -0.0018629 0.0015017
0.0045462 -0.0027089 0.26306 0.034144
2000000000 0.13269 -0.18375 -0.003876 0.0010524 0.0031185 0.0014937 -0.0023579 0.0038599
0.001116 0.00046371 -0.00053907 0.00044099
-0.003867 0.0010499 0.24765 0.062235 -0.00098224 0.0075346 0.0018446 0.00046644
0.0014895 -0.0010617 0.00058572 0.00011492
0.003123 0.001478 -0.00093239 0.0075038 0.018652 -0.22963 -0.0012662 -0.0017661
0.0020933 -0.0011299 0.0017855 0.0014173
-0.002344 0.0036904 0.0018412 0.00037485 -0.0012184 -0.0017072 0.059027 -0.17699
-0.0014524 0.0033305 -0.00026161 0.0022786
0.0011152 0.00034751 0.0014872 -0.0010891 0.0021856 -0.0011237 -0.0014679 0.0032554
0.24538 -0.022372 0.00082035 -0.0038591
