!Keysight Technologies,M9804A,MY58100912,A.14.10.03
!Date: Thursday, April 27, 2023 10:28:33
!Correction: S11(C  6-Port  ) 
!S12(C  6-Port  ) 
!S13(C  6-Port  ) 
!S14(C  6-Port  ) 
!S15(C  6-Port  ) 
!S16(C  6-Port  ) 
!S21(C  6-Port  ) 
!S22(C  6-Port  ) 
!S23(C  6-Port  ) 
!S24(C  6-Port  ) 
!S25(C  6-Port  ) 
!S26(C  6-Port  ) 
!S31(C  6-Port  ) 
!S32(C  6-Port  ) 
!S33(C  6-Port  ) 
!S34(C  6-Port  ) 
!S35(C  6-Port  ) 
!S36(C  6-Port  ) 
!S41(C  6-Port  ) 
!S42(C  6-Port  ) 
!S43(C  6-Port  ) 
!S44(C  6-Port  ) 
!S45(C  6-Port  ) 
!S46(C  6-Port  ) 
!S51(C  6-Port  ) 
!S52(C  6-Port  ) 
!S53(C  6-Port  ) 
!S54(C  6-Port  ) 
!S55(C  6-Port  ) 
!S56(C  6-Port  ) 
!S61(C  6-Port  ) 
!S62(C  6-Port  ) 
!S63(C  6-Port  ) 
!S64(C  6-Port  ) 
!S65(C  6-Port  ) 
!S66(C  6-Port  ) 
!S6P File: Measurement: :
# Hz S  RI   R 50
500000000 -0.33132 -0.065183 -0.010674 -0.0012434 -0.0090386 0.013458 -0.0050569 0.011964
0.012234 0.0045715 -0.0060408 0.0088365
-0.010368 -0.00099136 -0.41245 -0.074033 0.0080199 -0.010453 0.0013614 0.012528
0.0082892 0.002826 0.00063013 0.014455
-0.0090019 0.013379 0.0080267 -0.010393 -0.26586 0.19137 0.0069595 0.0035482
-0.0024802 0.009071 0.00090119 0.012385
-0.0043687 0.012518 0.0011709 0.012667 0.0071617 0.0032765 -0.3303 0.037069
-0.019618 -0.0041702 0.016731 0.026249
0.013135 0.0056935 0.0078211 0.0029126 -0.0025682 0.0092569 -0.019713 -0.004014
-0.23399 -0.21757 -0.028049 0.0058735
-0.00425 0.0096799 0.0010695 0.013665 0.0010447 0.011953 0.017736 0.026334
-0.027737 0.0056422 -0.26372 -0.14328
560000000 -0.31941 0.10389 -0.022055 -0.067339 -0.00013377 0.014207 0.00506 0.012337
0.010494 0.0045336 0.011122 0.0089919
-0.021735 -0.067034 -0.37394 0.091672 -0.041333 -0.039615 0.013938 0.0042998
-0.012723 -0.0053453 0.0038093 -0.0016096
-0.00019991 0.014197 -0.041094 -0.039293 -0.18657 0.24453 -0.00027218 -0.0050415
0.018357 0.0075025 0.0079563 -0.0064248
0.0054418 0.011795 0.013451 0.0032161 -7.173e-05 -0.0051249 -0.3075 0.13011
0.0053641 -0.023578 0.0053837 -0.021891
0.0096587 0.0046374 -0.013023 -0.0031754 0.017965 0.0066451 0.0050896 -0.023692
-0.31049 -0.032384 0.010117 -0.051604
0.011298 0.0092754 0.0033006 -0.0018661 0.0071618 -0.0065988 0.005262 -0.021299
0.010137 -0.051935 -0.33197 0.0088805
620000000 -0.27889 0.081799 -0.023265 0.0092434 0.0037591 0.0095772 0.0073435 -0.0041798
0.012584 -0.0013078 -0.0006831 -0.0010604
-0.023104 0.0091262 -0.40254 0.038199 -0.018629 0.00071459 -0.0019482 -0.0020376
0.013359 -0.0053343 0.0013656 -0.0030053
0.0038315 0.0097841 -0.018521 0.00087339 -0.15793 0.25367 -0.00082502 -0.0052193
-0.0024639 -0.0027784 0.008753 -0.0028191
0.0075151 -0.003273 -0.0017931 -0.0013324 -0.0004767 -0.0052762 -0.26539 0.1412
-0.039281 -0.020109 0.014129 0.029395
0.013043 -0.0020673 0.01331 -0.0061412 -0.002881 -0.0020867 -0.039536 -0.019875
-0.22672 -0.071837 -0.044557 0.013331
-0.00023434 -0.0016295 0.00040151 -0.0023991 0.0093155 -0.0025339 0.013662 0.029713
-0.044509 0.012765 -0.2468 -0.027893
680000000 -0.24447 0.17744 -0.026383 -0.01493 0.0050426 0.0054516 0.0020989 -0.0066951
-0.0016399 -0.011914 0.0066606 -0.0079695
-0.026634 -0.015041 -0.39163 0.14064 -0.032328 -0.0026333 -0.0014827 -0.00037967
-0.0012425 -0.0093611 -0.00087134 -0.0021748
0.0048641 0.0053305 -0.032484 -0.0026016 -0.10709 0.27562 -0.00056326 -0.00056364
-0.001308 0.0004526 -0.0025446 -0.0094964
0.0021524 -0.0072639 -0.0015824 -0.00015171 -0.00054102 -0.00070969 -0.22129 0.19424
-0.023489 -0.0074342 -0.0091307 -0.011435
-0.0016799 -0.011589 -0.001006 -0.0095215 -0.0014686 0.00048225 -0.023711 -0.0074639
-0.28318 0.035827 -0.0054747 -0.0076807
0.0059133 -0.0072393 -0.00061543 -0.0026262 -0.0022995 -0.0092685 -0.0087291 -0.01104
-0.005703 -0.0073144 -0.2622 0.078997
740000000 -0.19632 0.16996 -0.040284 0.027305 0.014177 -0.0043964 0.00034277 -0.0040735
-0.005162 -0.0030364 -0.0059076 0.0029185
-0.040102 0.027132 -0.33643 0.15998 -0.037943 0.034717 3.213e-05 -0.0062788
-0.01216 0.0065857 -0.00087173 -0.0063474
0.014244 -0.0045187 -0.037753 0.034813 -0.073162 0.2731 -0.0022049 0.0031118
-0.0017995 -0.0056718 -0.001834 0.00083415
0.00022713 -0.0041475 0.00034385 -0.006169 -0.0024083 0.003223 -0.20459 0.20088
-0.042262 -0.009334 0.02315 0.016245
-0.0039757 -0.0030801 -0.012722 0.0070773 -0.0016648 -0.0054672 -0.042549 -0.0093973
-0.18098 0.067249 -0.042637 -0.00072489
-0.0061727 0.0027119 -0.00034968 -0.0064016 -0.0018242 0.00088934 0.023414 0.016763
-0.042686 -0.00091104 -0.25385 0.08481
800000000 -0.16489 0.21484 -0.022088 0.01598 0.0061072 -0.010548 -0.0044702 -0.0025349
-0.004494 0.0013861 0.0039669 -4.9228e-05
-0.021881 0.015941 -0.34441 0.2312 -0.0089015 0.034089 -0.0022383 0.0020775
-0.00091776 0.0022509 0.00093655 0.0054955
0.0061076 -0.010673 -0.0087558 0.034148 -0.034932 0.29847 0.00085441 0.0014211
-2.7017e-05 0.0033354 -0.0016911 0.00046374
-0.0043258 -0.0029435 -0.0023407 0.0018953 0.00087899 0.001363 -0.17534 0.22848
-0.028163 0.012972 0.014834 -0.010553
-0.0040679 0.0018935 -0.00068796 0.002658 0.00013987 0.003331 -0.028019 0.013214
-0.22814 0.092345 -0.017039 0.021455
0.0044365 -0.00066981 0.001052 0.0048733 -0.0016114 0.00064302 0.014842 -0.010732
-0.017549 0.021182 -0.24689 0.13537
860000000 -0.13107 0.23543 -0.018211 0.029909 -0.002813 -0.010487 -0.0020188 -0.00012893
0.0033874 0.0051567 -0.0039167 -0.0029928
-0.018251 0.030071 -0.2972 0.27481 0.0069503 0.034565 -0.00018289 0.0021548
0.0032497 0.0010437 0.003626 0.00010682
-0.0028435 -0.010483 0.0070834 0.034604 0.012169 0.30787 -0.00063304 -0.00035078
0.0021143 -0.0016043 0.0014489 0.0042625
-0.0021544 0.00026555 -0.00010783 0.002123 -0.00064025 -0.0004175 -0.1382 0.23883
-0.018215 0.017135 -0.0068968 -0.0091626
0.0032152 0.0052161 0.0033581 0.00064298 0.0023565 -0.0014891 -0.018229 0.017584
-0.17112 0.14644 -0.026217 0.01725
-0.0033292 -0.0025562 0.0036215 0.00041209 0.0013071 0.0040585 -0.0063798 -0.0096513
-0.026035 0.017054 -0.19564 0.18209
920000000 -0.10844 0.25856 0.0043488 0.038536 -0.0094294 -0.0053805 -0.0021726 0.0016732
0.00050008 0.0019655 0.0027868 -0.0012098
0.0043084 0.038418 -0.27051 0.29661 0.027967 0.02322 0.0010973 0.0010909
0.0074202 -6.9489e-06 0.0040465 -0.0029213
-0.0094653 -0.0054387 0.028022 0.02317 0.057595 0.31017 0.0018861 2.2792e-05
0.00071906 -0.00010539 0.00069699 -0.0016286
-0.0024174 0.0014517 0.0011641 0.00098928 0.0018564 1.078e-05 -0.11483 0.2563
-0.011981 0.030464 0.0042402 -0.0069667
0.00032737 0.0015543 0.0076936 -0.00017938 0.00069339 -7.2951e-05 -0.011612 0.030484
-0.16253 0.152 -0.0022438 0.027712
0.0024858 -0.0011636 0.0037636 -0.0029946 0.00071349 -0.001731 0.0041673 -0.0069546
-0.0019406 0.028059 -0.20583 0.19558
980000000 -0.062548 0.28013 0.016019 0.0306 -0.0098445 0.0042743 0.0014371 0.0037392
0.0040122 -0.0009895 -0.003472 -0.0024537
0.015938 0.030493 -0.21819 0.3333 0.033331 0.0059343 0.0019862 0.00012378
0.0019497 -0.0057802 -0.00017981 -0.0027229
-0.0098736 0.0042324 0.033421 0.005819 0.1037 0.30518 0.00063902 -0.0011046
0.00040279 -0.0017217 0.001472 -0.00024361
0.0014625 0.0039345 0.0018638 2.725e-05 0.00064673 -0.0011147 -0.076573 0.26698
0.0072222 0.02992 -0.0096595 -0.0078366
0.0039095 -0.00082641 0.0019221 -0.0056991 0.00049773 -0.0018138 0.0071829 0.029872
-0.12962 0.1857 0.0065268 0.020279
-0.0032538 -0.002224 -0.00033684 -0.0026542 0.0013387 -0.00021966 -0.0094921 -0.0080253
0.0062071 0.020123 -0.16361 0.24214
1040000000 -0.021866 0.28959 0.032909 0.019891 -0.0016744 0.007413 0.0025533 0.00098384
0.00068967 -0.0032946 3.5264e-05 -0.0017598
0.032899 0.019883 -0.18354 0.34731 0.030358 -0.014167 0.0018074 -0.0015916
-0.0021071 -0.0026786 -0.0012025 -0.0027632
-0.0017143 0.0074081 0.030337 -0.014234 0.14987 0.29306 -0.00041046 -0.0016271
-0.0015779 -0.00096351 -0.00066935 -0.00098589
0.002532 0.00080034 0.0018151 -0.0016565 -0.00040595 -0.0016531 -0.05012 0.27682
0.018854 0.019055 -0.0020436 0.00046678
0.00072672 -0.0034989 -0.0020437 -0.0025158 -0.0015293 -0.00094989 0.018945 0.018965
-0.097354 0.19169 0.0145 0.019508
-0.00011267 -0.0015208 -0.0010096 -0.00297 -0.00073754 -0.0010255 -0.0021096 0.00059778
0.014388 0.019302 -0.14227 0.2632
1100000000 0.022598 0.29996 0.036723 -0.0026361 0.0029487 0.0043869 0.0024478 -0.00090549
-0.002158 -0.0031075 -0.0042565 -0.00032325
0.036768 -0.0026474 -0.14052 0.3669 0.016231 -0.027939 9.5249e-06 -0.0018749
-0.003674 -0.0011724 -0.0038337 -0.00082252
0.0029846 0.004337 0.016127 -0.028055 0.19648 0.27413 -0.00196 0.00018062
-0.0017732 0.00061655 -0.0011583 -0.00032456
0.0024614 -0.00086762 1.7011e-05 -0.0018854 -0.0019655 0.00016473 -0.010421 0.28236
0.024757 0.0058254 -0.0029003 -0.00017896
-0.0019211 -0.0030952 -0.003691 -0.0012233 -0.0017906 0.00059006 0.024756 0.0057965
-0.077379 0.2057 0.019511 0.0089671
-0.00412 -0.00045311 -0.0036943 -0.00072625 -0.001124 -0.00029975 -0.002869 -0.00033409
0.019642 0.0089978 -0.097 0.29501
1160000000 0.073402 0.297 0.025277 -0.020023 0.0031529 -0.0003595 -2.8879e-05 -0.0022868
-0.0041217 -0.0010175 -0.0012162 0.0043388
0.025277 -0.020017 -0.097093 0.37259 -0.0031432 -0.029596 -0.0015275 -0.0017109
-0.0028792 0.0027126 -0.0017606 0.001979
0.0031584 -0.00041156 -0.0032226 -0.029592 0.24004 0.24431 -0.00078988 0.0018008
-0.00048439 0.0019433 -0.00088429 0.00038766
2.1855e-05 -0.0023754 -0.0015611 -0.0017507 -0.00079361 0.001818 0.028156 0.28032
0.021443 -0.010337 -0.0037388 0.0051993
-0.0041075 -0.0012278 -0.002882 0.0026249 -0.00046853 0.0019077 0.021495 -0.01044
-0.043391 0.21493 0.019792 -0.00030927
-0.0014042 0.0041707 -0.0016666 0.0019048 -0.00094121 0.00041194 -0.0038948 0.0052141
0.019434 -0.00023967 -0.050611 0.29807
1220000000 0.11701 0.28865 0.012001 -0.030291 -0.0013624 -0.0010687 0.00033069 -0.0010045
-0.0028895 0.0022699 0.0010275 0.0021691
0.012017 -0.030229 -0.052866 0.38704 -0.01698 -0.021915 -0.0026241 0.00040832
2.9689e-05 0.0032559 -0.00088046 0.0020359
-0.0013668 -0.001108 -0.017088 -0.021874 0.27971 0.20611 0.00083261 0.0017904
0.00071153 0.0012267 0.00037188 0.00064623
0.0002214 -0.00094393 -0.0026554 0.00043864 0.00084834 0.001769 0.067849 0.27319
0.010988 -0.017023 0.0016751 0.0016514
-0.002962 0.0022448 6.4815e-05 0.0032484 0.00066133 0.0012352 0.010883 -0.017094
-0.021134 0.22528 0.014706 -0.013374
0.00099414 0.0022406 -0.00090626 0.0019595 0.00040817 0.00065774 0.0017456 0.0015599
0.014944 -0.013407 -0.019618 0.31632
1280000000 0.16774 0.26937 -0.0071156 -0.029412 -0.0018402 0.0022741 -0.00085701 -0.0023248
-0.00099192 0.00335 0.0027288 0.0014573
-0.0070514 -0.029392 -0.0061116 0.3796 -0.024418 -0.0087331 -0.0010206 0.0015163
0.0018008 0.0018698 0.00067376 0.0020922
-0.0018452 0.00227 -0.024523 -0.0086571 0.31064 0.16273 0.0016854 -5.0363e-05
0.0011572 0.00019459 0.00035165 0.00022059
-0.00081983 -0.0022787 -0.00097598 0.0015208 0.001662 -2.2703e-05 0.10492 0.25798
0.0010199 -0.019541 -0.00017942 0.00047993
-0.00093649 0.0032833 0.0018053 0.0019135 0.0011667 0.00026386 0.0010836 -0.019605
0.015108 0.22937 0.0035468 -0.016085
0.0027358 0.0015968 0.00082297 0.0021402 0.00033615 0.00020209 -0.0003382 0.00032481
0.0036194 -0.016137 0.028191 0.31905
1340000000 0.20558 0.23784 -0.017303 -0.019903 0.00062976 0.0045282 -0.0019661 -0.0010558
0.0014512 0.0028434 0.0019933 -0.0014306
-0.017307 -0.019884 0.033779 0.37283 -0.021938 0.0044811 -0.00012966 0.0020871
0.0021685 0.00081149 0.0012022 0.00080671
0.000659 0.0045573 -0.021942 0.0046118 0.33302 0.11587 0.0010678 -0.0010432
0.00064543 -0.00054593 0.00012404 0.00019302
-0.0020266 -0.0010885 -0.00012112 0.0021282 0.0011055 -0.00099037 0.13866 0.23862
-0.0085966 -0.016862 0.00079252 0.0007882
0.0013907 0.0027687 0.0021142 0.00071788 0.00061411 -0.00053938 -0.008715 -0.016818
0.044547 0.22674 -0.0039576 -0.014993
0.0019842 -0.0015252 0.0011567 0.00086308 7.3207e-05 0.00023236 0.00092131 0.00075246
-0.0039397 -0.014872 0.066287 0.31558
1400000000 0.24069 0.20146 -0.023803 -0.008202 0.0052731 0.0033184 -0.002455 0.00065749
0.0026374 0.0011901 0.00048952 -0.0016118
-0.023735 -0.0082303 0.072474 0.3608 -0.014989 0.012937 0.0013864 0.0013571
0.0012813 -0.0008754 0.0012254 0.00014514
0.0052274 0.0033016 -0.014942 0.013038 0.34672 0.062809 -3.6961e-05 -0.0016495
9.8533e-05 -0.00034396 0.00044922 0.00017956
-0.0024033 0.00071398 0.0014142 0.0013764 -6.0178e-05 -0.0016994 0.16901 0.21017
-0.014992 -0.0098469 -0.00087966 0.00010394
0.0026491 0.0011475 0.0012321 -0.00089531 5.3458e-05 -0.00033105 -0.015007 -0.0098173
0.077773 0.22411 -0.010793 -0.0095219
0.00051511 -0.0016281 0.0012768 0.00017447 0.00046876 0.00028887 -0.00083673 0.00011739
-0.010829 -0.0096581 0.1113 0.30521
1460000000 0.26488 0.15845 -0.020805 0.0045195 0.0056945 -0.0017756 -0.001682 0.0019355
0.002349 -0.00042046 -0.00037181 -0.001163
-0.020842 0.0045233 0.10755 0.33911 -0.0055831 0.015958 0.0017026 0.00017133
0.00089451 -0.0014053 0.0012517 -0.00056611
0.0056757 -0.0017981 -0.0055246 0.015996 0.35355 0.0090124 -0.0012943 -0.001185
0.0001895 -6.1871e-05 0.00073447 -0.00018457
-0.001687 0.0018962 0.0017204 0.00017615 -0.0013271 -0.0011707 0.19641 0.18131
-0.015954 -0.0026333 -0.00067283 0.0022151
0.0023628 -0.00031731 0.00094517 -0.0014363 0.00020859 -0.00014968 -0.015992 -0.0025434
0.10719 0.21206 -0.012815 -0.0030307
-0.00035174 -0.0011389 0.0011561 -0.00053663 0.0007213 -0.00029224 -0.00072718 0.0021806
-0.012831 -0.0030171 0.14473 0.2857
1520000000 0.27894 0.11729 -0.01513 0.010212 0.0034828 -0.0043613 0.00020437 0.0028156
0.002471 -0.0019344 -0.0012483 -0.00018941
-0.015091 0.01018 0.14178 0.32512 0.0024098 0.013106 0.0016904 -0.00073459
-4.8869e-05 -0.0010545 0.00034834 -0.0010087
0.0034634 -0.0043229 0.0024554 0.013095 0.34718 -0.046797 -0.00099452 -0.00019167
0.00076255 -0.00092658 6.4267e-05 -0.0001898
0.00023045 0.002823 0.0016981 -0.00072836 -0.00098063 -0.00018322 0.22064 0.14309
-0.015133 0.0032955 0.0017182 0.0022906
0.002424 -0.0019828 -2.2416e-05 -0.001007 0.00075056 -0.00090194 -0.015142 0.0033339
0.13602 0.20044 -0.012788 0.0019996
-0.0012885 -0.00014139 0.0003338 -0.0010392 4.4365e-05 -0.00020725 0.0017375 0.0022742
-0.01272 0.0020501 0.17807 0.26661
1580000000 0.28967 0.071118 -0.0083252 0.013575 -0.0010533 -0.0051616 0.0017211 0.0019241
-0.00023154 -0.0024198 -0.00031013 0.00049935
-0.0083577 0.013596 0.16976 0.30027 0.0060541 0.0076958 0.00058921 -0.0015474
-0.00054593 -0.00098726 -0.00019051 -0.00078127
-0.0010468 -0.0051182 0.0060913 0.0076604 0.32786 -0.10435 -0.0014514 0.00057585
-0.00028421 -0.0013519 0.0001787 -0.00057797
0.0017292 0.0019085 0.00058755 -0.0015462 -0.0014698 0.00056192 0.2352 0.10326
-0.011072 0.0082875 0.0025523 0.00075646
-0.00018622 -0.0023899 -0.00053828 -0.00099605 -0.00026098 -0.0013425 -0.011044 0.0083144
0.1615 0.18415 -0.0097353 0.0082293
-0.00030992 0.00049079 -0.00022903 -0.00075318 0.00029384 -0.00055729 0.0025558 0.00074244
-0.0098152 0.0081475 0.21078 0.24076
1640000000 0.2928 0.029966 -0.0013663 0.012328 -0.0030917 -0.0027711 0.0029104 0.00090816
-0.00072049 -0.0018512 -0.00032829 0.00052617
-0.0014137 0.012339 0.19951 0.27586 0.006158 0.0024251 -0.00050389 -0.0018647
-0.00083893 -0.00042576 -0.00047061 -0.0007238
-0.0031318 -0.002748 0.0061996 0.0023853 0.29964 -0.15331 -0.00057537 0.0013032
-0.0010544 -0.0010786 -0.0001811 -0.00044186
0.0029415 0.00092162 -0.00051615 -0.0018382 -0.00053849 0.001365 0.2481 0.054191
-0.0066063 0.0092225 0.0026804 -0.00086992
-0.00082278 -0.0017766 -0.00088016 -0.00040044 -0.001103 -0.0010477 -0.0065121 0.0092866
0.18562 0.16171 -0.004668 0.010364
-0.0003506 0.00053412 -0.00045168 -0.00073731 -0.00024314 -0.00045022 0.0027017 -0.00095619
-0.0046256 0.01036 0.23715 0.21113
1700000000 0.28678 -0.015484 0.0021047 0.0094719 -0.0039057 0.0001767 0.0031248 -0.0014106
-0.0022079 -0.00069323 0.00074943 0.00039949
0.0020963 0.0094498 0.21818 0.24451 0.0034884 -0.00062087 -0.0014636 -0.00074295
-0.0007115 -0.00015778 -0.00089282 -0.00049468
-0.0038779 0.0002257 0.0034353 -0.00067859 0.25709 -0.19327 0.00026974 0.0014408
-0.0021741 -0.00024908 -0.00044562 -0.00085099
0.0031953 -0.0014202 -0.0014893 -0.00075492 0.00023187 0.0014254 0.2454 0.0037884
-0.0035736 0.009327 0.0017822 -0.00245
-0.0021377 -0.00066087 -0.00072898 -0.00013434 -0.0021096 -0.0001846 -0.0035883 0.0094072
0.20478 0.14242 0.00035944 0.010512
0.00081133 0.00031717 -0.00090276 -0.00049201 -0.00045425 -0.00083394 0.001828 -0.0023701
0.00031409 0.010522 0.25472 0.17734
1760000000 0.27538 -0.064333 0.0043974 0.0060765 -0.0024478 0.0012692 0.001236 -0.0036195
-0.0013785 0.00062709 0.00030136 -0.0006287
0.0043923 0.0060486 0.24439 0.20506 0.00060508 -0.0022837 -0.0013013 1.3683e-05
-0.001093 0.00076194 -0.0006544 0.0003283
-0.002352 0.0012278 0.00061934 -0.002217 0.20877 -0.22681 0.00094835 0.0011045
-0.0011741 0.0014408 -0.0013034 -0.00053451
0.0012028 -0.0036092 -0.0013095 2.0974e-05 0.00096962 0.0010894 0.23647 -0.048206
-0.00042012 0.0082445 -8.9085e-05 -0.0027024
-0.0015314 0.00064923 -0.0011119 0.00075831 -0.0012476 0.0014117 -0.00037488 0.0081958
0.22099 0.10871 0.0047612 0.0077015
0.00024782 -0.00075881 -0.0006398 0.00032333 -0.001357 -0.00060047 -9.1176e-05 -0.0026895
0.0047257 0.0076223 0.26827 0.14035
1820000000 0.25188 -0.10154 0.0043382 0.002523 8.1809e-05 0.0026557 -0.001107 -0.0030979
-0.0012551 0.0010334 -0.00026178 -0.0001685
0.0043446 0.0025486 0.25516 0.17541 -0.0017705 -0.0003215 -0.0015323 0.00095214
-0.00021128 0.0011701 -0.00072251 0.0004912
-8.1146e-08 0.0026125 -0.0017576 -0.0003719 0.15827 -0.24195 0.0015268 0.00060574
-0.00021577 0.002481 -0.0017195 0.00037784
-0.001132 -0.0030717 -0.0015573 0.00096668 0.0015554 0.00060265 0.20673 -0.09585
0.000887 0.0064842 -0.0017854 -0.0019052
-0.0012247 0.0011119 -0.00022524 0.0011734 -0.0002311 0.0024283 0.00092073 0.0065907
0.23991 0.080374 0.0057586 0.0037127
-0.00029216 -0.00018847 -0.00069967 0.00049385 -0.0017512 0.00038823 -0.0018545 -0.0019718
0.0057769 0.0037958 0.27209 0.10487
1880000000 0.21716 -0.14259 0.0020221 0.00034115 -0.00036114 0.0025257 -0.0030755 -0.0021637
-0.00024286 0.001779 5.582e-05 -0.00058095
0.0019962 0.00032432 0.25975 0.12901 -0.003971 0.0022962 -0.00035298 0.0019355
0.00033869 0.001389 3.2648e-05 0.0010711
-0.00038473 0.0024841 -0.0039244 0.0022464 0.10589 -0.251 0.0020247 -0.00064854
0.001577 0.0019985 -0.001004 0.0015782
-0.003045 -0.0021991 -0.0003861 0.0019121 0.0020211 -0.00080344 0.1656 -0.1368
0.0013311 0.0043762 -0.0026767 0.0001234
-0.00022032 0.0018377 0.00034042 0.0014029 0.0016146 0.0020543 0.0013471 0.0042804
0.24498 0.049241 0.0060732 0.0012229
-5.1346e-05 -0.0003827 6.1313e-05 0.0011357 -0.00097658 0.0016806 -0.002793 0.00013969
0.0061558 0.0010639 0.27304 0.070462
1940000000 0.17849 -0.16846 -0.00018118 -0.0012092 0.0015886 0.0022669 -0.0039244 0.00048695
0.0012045 0.0011531 -0.00067129 -0.00018638
-0.00020872 -0.0012091 0.26107 0.097751 -0.0021348 0.0052109 0.0010921 0.0015357
0.0018771 0.00080005 0.00092365 0.00042976
0.0016006 0.0022047 -0.0021281 0.0052739 0.061562 -0.24361 0.00088557 -0.0022589
0.0024989 0.00058267 0.00043857 0.0015791
-0.0040391 0.0004614 0.0011214 0.0015328 0.00072572 -0.0022807 0.11279 -0.16713
0.00023733 0.0030304 -0.0018994 0.001411
0.0012334 0.0011137 0.0018339 0.00074119 0.0024078 0.00052252 0.00020601 0.0030996
0.24912 0.011246 0.0045953 -0.002782
-0.00060759 -0.0001142 0.00095432 0.00049404 0.00040899 0.0017038 -0.001786 0.0015344
0.0045506 -0.0026604 0.26288 0.034679
2000000000 0.13315 -0.18374 -0.0037078 0.00093761 0.0030501 0.001409 -0.0024153 0.0038291
0.0010786 0.00035022 -0.00045621 0.00052347
-0.0037249 0.00099257 0.24765 0.062451 -0.00097054 0.0074717 0.0018301 0.00041098
0.0014525 -0.0010838 0.00057649 0.00017062
0.0032029 0.0013424 -0.00086968 0.0075088 0.018641 -0.22937 -0.0013449 -0.0017289
0.0021059 -0.0011984 0.0016968 0.0013724
-0.0022174 0.003867 0.0018755 0.00038686 -0.0012666 -0.0018315 0.059205 -0.17706
-0.0016517 0.0031087 -0.0002404 0.0024249
0.0011358 0.00031686 0.0014488 -0.0010706 0.002204 -0.0010999 -0.0014695 0.0031549
0.24542 -0.021881 0.0010613 -0.0038814
