!Keysight Technologies,M9804A,MY58100912,A.14.10.03
!Date: Thursday, April 27, 2023 10:28:33
!Correction: S11(C  6-Port  ) 
!S12(C  6-Port  ) 
!S13(C  6-Port  ) 
!S14(C  6-Port  ) 
!S15(C  6-Port  ) 
!S16(C  6-Port  ) 
!S21(C  6-Port  ) 
!S22(C  6-Port  ) 
!S23(C  6-Port  ) 
!S24(C  6-Port  ) 
!S25(C  6-Port  ) 
!S26(C  6-Port  ) 
!S31(C  6-Port  ) 
!S32(C  6-Port  ) 
!S33(C  6-Port  ) 
!S34(C  6-Port  ) 
!S35(C  6-Port  ) 
!S36(C  6-Port  ) 
!S41(C  6-Port  ) 
!S42(C  6-Port  ) 
!S43(C  6-Port  ) 
!S44(C  6-Port  ) 
!S45(C  6-Port  ) 
!S46(C  6-Port  ) 
!S51(C  6-Port  ) 
!S52(C  6-Port  ) 
!S53(C  6-Port  ) 
!S54(C  6-Port  ) 
!S55(C  6-Port  ) 
!S56(C  6-Port  ) 
!S61(C  6-Port  ) 
!S62(C  6-Port  ) 
!S63(C  6-Port  ) 
!S64(C  6-Port  ) 
!S65(C  6-Port  ) 
!S66(C  6-Port  ) 
!S6P File: Measurement: :
# Hz S  RI   R 50
500000000 -0.33169 -0.065423 -0.010504 -0.00097913 -0.0092209 0.013551 -0.0038425 0.011928
0.012964 0.0043974 -0.0046304 0.0080419
-0.010441 -0.00099011 -0.41242 -0.074321 0.0081632 -0.010304 0.0010354 0.011959
0.0084554 0.0024715 0.00098146 0.013294
-0.0090278 0.013588 0.0081469 -0.010582 -0.26573 0.19128 0.0068648 0.0033911
-0.0024925 0.0090666 0.00067381 0.011783
-0.0044623 0.012329 0.0012719 0.012653 0.0071236 0.0036095 -0.33148 0.03736
-0.019315 -0.0039329 0.016293 0.026814
0.012268 0.0049748 0.0086988 0.0024995 -0.0023074 0.0088949 -0.019349 -0.0037714
-0.23469 -0.21703 -0.028237 0.0056809
-0.0050473 0.0086209 0.0015465 0.014503 0.0010952 0.012336 0.015991 0.026188
-0.028129 0.0055966 -0.26501 -0.14297
560000000 -0.31976 0.10438 -0.022725 -0.06718 -3.9099e-05 0.013622 0.0050913 0.012274
0.010762 0.0047922 0.010987 0.0085196
-0.022043 -0.067749 -0.37364 0.093577 -0.041813 -0.039639 0.013868 0.0038564
-0.012611 -0.0048337 0.0043295 -0.00062957
-2.942e-05 0.014324 -0.041809 -0.039584 -0.18649 0.24431 0.00014416 -0.0052608
0.018097 0.007475 0.00753 -0.0067284
0.0054045 0.011862 0.013825 0.0039623 -0.00012245 -0.0049868 -0.30809 0.13017
0.0055669 -0.02267 0.004674 -0.021819
0.010029 0.0039354 -0.012831 -0.0049067 0.018129 0.0074318 0.0058554 -0.022423
-0.31038 -0.032795 0.010101 -0.050614
0.011193 0.008689 0.0039283 -0.0011686 0.0074888 -0.0067719 0.0051676 -0.021892
0.0099216 -0.050584 -0.33167 0.0097369
620000000 -0.27924 0.081996 -0.023581 0.0095927 0.004231 0.0096239 0.0078342 -0.0036592
0.012301 -0.0013426 -0.0001583 -0.0010002
-0.023545 0.0091962 -0.40277 0.038661 -0.018359 0.00072798 -0.0015434 -0.0021751
0.012945 -0.0054248 0.0010651 -0.0030026
0.0037417 0.0095521 -0.018371 0.00088838 -0.15762 0.25363 -0.00068129 -0.0052255
-0.0023399 -0.0025705 0.0088134 -0.0034163
0.0076922 -0.003758 -0.0017229 -0.0020688 -0.00057865 -0.005188 -0.26485 0.14127
-0.039788 -0.02074 0.013908 0.028347
0.012466 -0.0016267 0.013075 -0.0052305 -0.0027717 -0.0026059 -0.040093 -0.020512
-0.22686 -0.069617 -0.044231 0.013368
-0.00054523 -0.0010574 0.0014237 -0.0031451 0.0093608 -0.0032246 0.013949 0.02821
-0.04426 0.01315 -0.24706 -0.029226
680000000 -0.24421 0.17726 -0.02649 -0.014735 0.004863 0.0055728 0.0016633 -0.0075187
-0.0015448 -0.011685 0.0062423 -0.0074713
-0.026288 -0.01467 -0.39159 0.14105 -0.032399 -0.0024611 -0.0017051 -0.00047979
-0.001286 -0.0096001 -0.00085483 -0.0014816
0.0051389 0.0054793 -0.032458 -0.0025055 -0.1072 0.27586 -0.0009219 -0.00076104
-0.0013808 0.00035399 -0.0024888 -0.0092057
0.0021449 -0.0074268 -0.0015701 -0.00076189 -0.00092981 -0.0008172 -0.2213 0.19428
-0.02354 -0.0077386 -0.0091774 -0.01126
-0.0015505 -0.011834 -0.0011911 -0.0095233 -0.0013123 0.00050664 -0.02355 -0.0074565
-0.28312 0.035867 -0.0060184 -0.0073053
0.0059779 -0.0082591 -0.0011455 -0.0017919 -0.0028886 -0.0092048 -0.0093296 -0.011278
-0.0061847 -0.0073769 -0.26203 0.079259
740000000 -0.19599 0.17056 -0.040147 0.02742 0.014165 -0.004412 0.00035852 -0.0041002
-0.0052349 -0.0023761 -0.0060182 0.0027668
-0.040246 0.027679 -0.33667 0.15949 -0.037281 0.034791 1.4566e-05 -0.0061464
-0.012366 0.006511 -0.0015275 -0.0064982
0.014081 -0.0046004 -0.037377 0.034982 -0.073302 0.27338 -0.0021836 0.0031006
-0.0018661 -0.0055846 -0.0014253 0.00047324
0.00022216 -0.0039286 0.00022078 -0.0062783 -0.0021972 0.0033565 -0.20466 0.20074
-0.042113 -0.0092112 0.023198 0.016282
-0.0043132 -0.0025773 -0.012734 0.006839 -0.0018763 -0.0058731 -0.042421 -0.008929
-0.18031 0.066801 -0.042808 -0.00057271
-0.0058923 0.0028253 -0.0012557 -0.0064069 -0.0013344 0.0011045 0.023197 0.016157
-0.042822 -0.00074587 -0.25288 0.084361
800000000 -0.16484 0.2157 -0.022116 0.015919 0.0061866 -0.010605 -0.0044846 -0.002429
-0.0043254 0.001774 0.0044104 0.00017806
-0.022032 0.016117 -0.34438 0.23112 -0.0089226 0.034042 -0.0023801 0.002055
-0.00077839 0.0024557 0.00073898 0.0053292
0.0062223 -0.010587 -0.0088291 0.034078 -0.03499 0.29844 0.00071309 0.0014177
8.0733e-05 0.0034004 -0.0016996 0.00075515
-0.0044015 -0.0024853 -0.0022411 0.0021305 0.00069164 0.0012851 -0.17518 0.22831
-0.028323 0.013307 0.014406 -0.010679
-0.0044472 0.0017119 -0.00090146 0.0022479 -2.2737e-05 0.003392 -0.028351 0.013284
-0.22768 0.092263 -0.017493 0.02144
0.0044054 0.00015129 0.00075786 0.0053714 -0.0020332 0.0006525 0.014475 -0.010765
-0.017396 0.021489 -0.24742 0.13587
860000000 -0.13116 0.2356 -0.018274 0.029804 -0.0028423 -0.010667 -0.0020571 0.00017564
0.0034788 0.0052801 -0.0038442 -0.0032407
-0.018226 0.03002 -0.29729 0.275 0.0069581 0.034479 -0.00016121 0.0018975
0.0034121 0.0011179 0.0029533 0.00045885
-0.0028612 -0.01048 0.0070856 0.03452 0.012247 0.30785 -0.00050893 -0.00036967
0.0022837 -0.00148 0.0013625 0.0040602
-0.0023659 0.00012257 -2.9233e-05 0.0020382 -0.00054859 -0.00029284 -0.13857 0.23925
-0.018138 0.017442 -0.0061777 -0.0097426
0.0036584 0.005257 0.0030911 0.0011177 0.0021647 -0.001535 -0.0183 0.017456
-0.17078 0.1465 -0.026094 0.016909
-0.0039067 -0.0031915 0.0033435 0.00015841 0.001636 0.0040895 -0.0063493 -0.0096469
-0.026081 0.016799 -0.1968 0.18085
920000000 -0.10832 0.25894 0.0044206 0.038613 -0.0093306 -0.0053781 -0.0021491 0.001524
0.00037401 0.0021176 0.0029708 -0.001288
0.0043332 0.038647 -0.27023 0.29667 0.028021 0.023137 0.0013389 0.00096882
0.00714 3.4963e-05 0.0039137 -0.002989
-0.0094391 -0.0053412 0.028128 0.023095 0.05764 0.31013 0.0018883 1.0232e-05
0.0005966 -9.6784e-05 0.00065632 -0.001591
-0.002056 0.0015397 0.0013419 0.0009751 0.0018368 -1.4499e-05 -0.11465 0.25602
-0.011933 0.030443 0.0039878 -0.0070975
0.00032244 0.0017843 0.0072941 -0.00017757 0.00061212 -0.00017002 -0.011849 0.030246
-0.16257 0.15297 -0.0024178 0.027893
0.0029452 -0.0011228 0.0040398 -0.0029172 0.00068657 -0.0016034 0.0040937 -0.0069378
-0.0023221 0.027969 -0.20588 0.19595
980000000 -0.062258 0.28032 0.016022 0.030598 -0.0098438 0.0042203 0.0014984 0.0039021
0.0040003 -0.0013345 -0.0032412 -0.0026918
0.01598 0.030557 -0.21818 0.3333 0.033357 0.0058838 0.0019874 7.6408e-05
0.0021041 -0.0059952 -0.00029328 -0.002639
-0.009863 0.0043022 0.033394 0.0058159 0.10376 0.3052 0.00067317 -0.0010988
0.00045783 -0.0017161 0.0012875 -0.00025634
0.0014316 0.0038394 0.0020502 2.6799e-05 0.00067641 -0.0011042 -0.076787 0.26707
0.0070532 0.029994 -0.0094395 -0.0079627
0.0040011 -0.0012435 0.0019588 -0.0058207 0.00045514 -0.0017055 0.0071405 0.030063
-0.12923 0.18497 0.0064738 0.020075
-0.0032206 -0.0026305 -0.00028995 -0.0026181 0.0013273 -0.00021116 -0.0095467 -0.0080684
0.0063576 0.020138 -0.16391 0.24229
1040000000 -0.021857 0.28962 0.032875 0.019914 -0.0016841 0.0074101 0.0024526 0.0010501
0.00060996 -0.0033485 -1.1929e-07 -0.001576
0.033021 0.019945 -0.18347 0.34746 0.030386 -0.014164 0.0016931 -0.0015488
-0.0020728 -0.0026237 -0.0011153 -0.0028875
-0.0016625 0.0074218 0.030353 -0.01426 0.14987 0.29304 -0.00044387 -0.0016117
-0.0016278 -0.00094628 -0.00072143 -0.000933
0.002567 0.00098528 0.001725 -0.0016101 -0.00042201 -0.0015894 -0.050082 0.27713
0.018661 0.019054 -0.0021816 0.00074287
0.00064985 -0.0034444 -0.0020622 -0.0026897 -0.0016057 -0.0010371 0.018698 0.018912
-0.097155 0.19162 0.014119 0.019178
-9.8464e-06 -0.0015829 -0.0011917 -0.002904 -0.0006695 -0.00098141 -0.0021653 0.00082755
0.014108 0.01929 -0.14261 0.26371
1100000000 0.022627 0.29994 0.036705 -0.0026688 0.0029312 0.0043576 0.0024636 -0.00088912
-0.0020927 -0.0031397 -0.0043687 -0.00048528
0.03671 -0.0026891 -0.14036 0.36685 0.016223 -0.02799 3.8275e-05 -0.0018972
-0.0036153 -0.001143 -0.0037444 -0.00081804
0.0029831 0.0043514 0.016106 -0.028065 0.19653 0.27413 -0.0019036 0.00017877
-0.0017602 0.00062176 -0.0011565 -0.00027286
0.0024487 -0.00082006 5.9158e-05 -0.001877 -0.0018928 0.00016905 -0.010523 0.2825
0.024696 0.0059672 -0.0028979 -0.00020269
-0.0021394 -0.0031191 -0.0036452 -0.0010962 -0.0018157 0.00067706 0.024679 0.0059155
-0.077084 0.2062 0.019954 0.0091853
-0.0042137 -0.0002667 -0.0037411 -0.00079002 -0.0011268 -0.00026224 -0.002896 -0.0002488
0.01993 0.009061 -0.097187 0.29492
1160000000 0.073457 0.29699 0.025199 -0.020059 0.003122 -0.00038815 -0.00011612 -0.0023166
-0.0040891 -0.0010633 -0.001146 0.0044363
0.02526 -0.020024 -0.09704 0.37259 -0.0030886 -0.029644 -0.0016103 -0.0017811
-0.0028784 0.0027504 -0.0015743 0.0020093
0.003167 -0.00038353 -0.0032209 -0.029634 0.24008 0.24425 -0.00084688 0.0017934
-0.00050848 0.0018665 -0.00093009 0.00041889
-8.1177e-06 -0.0023712 -0.0016336 -0.0017892 -0.00087093 0.001828 0.028204 0.28041
0.021441 -0.010327 -0.0038011 0.0052077
-0.004022 -0.0011159 -0.0027688 0.0028066 -0.00048549 0.0018915 0.021479 -0.010367
-0.043524 0.21505 0.019253 -0.00016773
-0.0012417 0.004133 -0.0016132 0.0020044 -0.00089498 0.00046061 -0.0038638 0.0051232
0.019268 -0.00013908 -0.050485 0.29847
1220000000 0.11714 0.28854 0.011934 -0.030205 -0.0013317 -0.0010561 0.00028156 -0.00097406
-0.0028749 0.0021851 0.0011188 0.0021892
0.011954 -0.030242 -0.052761 0.3871 -0.016986 -0.021921 -0.0026164 0.00040407
2.8887e-05 0.0032558 -0.00088958 0.0019582
-0.0013513 -0.0010542 -0.01709 -0.021883 0.27973 0.20602 0.00081349 0.001725
0.00073583 0.001252 0.00038555 0.00064097
0.00028349 -0.0010074 -0.002603 0.00049036 0.00082451 0.001715 0.068 0.2733
0.010893 -0.016995 0.001755 0.001689
-0.002842 0.0022895 1.582e-05 0.0032379 0.00073158 0.0012455 0.010877 -0.016974
-0.021026 0.22524 0.014795 -0.013178
0.001099 0.0021781 -0.00084869 0.0019927 0.00035062 0.00060175 0.0017751 0.0016761
0.014777 -0.013211 -0.019636 0.31597
1280000000 0.16779 0.26935 -0.0071593 -0.029428 -0.001881 0.0023226 -0.00086918 -0.0023092
-0.00097336 0.0033568 0.0027239 0.0015351
-0.0070996 -0.029368 -0.0060242 0.37963 -0.024499 -0.0087366 -0.0010891 0.0014832
0.0018462 0.0018897 0.0007098 0.0021876
-0.0018247 0.0023185 -0.02453 -0.0086241 0.31069 0.1627 0.0016477 -3.8329e-05
0.0011618 0.00021178 0.00031818 0.00017165
-0.00087913 -0.0022861 -0.0010929 0.0014564 0.0016413 -9.9236e-06 0.10504 0.25797
0.0010928 -0.019545 -0.00034688 0.0005008
-0.00095098 0.003298 0.0018845 0.001797 0.0011513 0.00016126 0.0010996 -0.019527
0.01539 0.22954 0.0034812 -0.016081
0.0026682 0.0014699 0.00074079 0.0021754 0.00038499 0.00020422 -0.00038748 0.00042998
0.0034512 -0.016026 0.028321 0.31921
1340000000 0.20558 0.23775 -0.017319 -0.019827 0.00068882 0.0045822 -0.0019865 -0.0010285
0.0014589 0.0027353 0.0019277 -0.001464
-0.017331 -0.019853 0.033914 0.37279 -0.021915 0.00451 -0.0001458 0.0021072
0.0021125 0.00074548 0.0011673 0.00083561
0.00065842 0.0045921 -0.021934 0.0046163 0.33301 0.11579 0.0010481 -0.0010212
0.00068372 -0.00052454 0.0001127 0.00022878
-0.0019861 -0.0010519 -9.5393e-05 0.0021331 0.0010313 -0.00099484 0.13879 0.23857
-0.0085366 -0.016828 0.0009174 0.0007085
0.0014183 0.0028283 0.0021174 0.00076895 0.00066034 -0.00055131 -0.0085835 -0.016749
0.04446 0.22692 -0.0037711 -0.014763
0.0019685 -0.001509 0.0012201 0.00073983 9.5972e-05 0.00024517 0.00092684 0.00070691
-0.0037502 -0.014857 0.066431 0.31527
1400000000 0.24067 0.20148 -0.023833 -0.0081336 0.005255 0.0033414 -0.0024172 0.00071509
0.0026988 0.0011586 0.00052845 -0.0016329
-0.023756 -0.0081498 0.072608 0.36083 -0.014964 0.012964 0.0013693 0.001334
0.0012818 -0.00084003 0.0012325 0.00020362
0.0052574 0.0032885 -0.014906 0.013064 0.3467 0.062814 -1.0105e-05 -0.0016489
8.7583e-05 -0.00037775 0.00044841 0.00021896
-0.0023927 0.00077796 0.0013724 0.0013194 -1.3655e-05 -0.0016718 0.16908 0.21011
-0.014932 -0.0097836 -0.0008521 1.5857e-07
0.0026868 0.00112 0.0012548 -0.00089585 0.00012006 -0.00035831 -0.014938 -0.0098096
0.077942 0.22423 -0.010735 -0.0095118
0.00051288 -0.0016013 0.0012089 0.00019019 0.00047851 0.00026006 -0.00087118 7.9016e-07
-0.010793 -0.0094702 0.11135 0.30537
1460000000 0.26491 0.15842 -0.020794 0.0046324 0.0057206 -0.0017457 -0.0016254 0.0019244
0.0023938 -0.00039359 -0.00038542 -0.0011399
-0.020817 0.0046286 0.10769 0.33906 -0.0055656 0.015999 0.0017317 0.00019468
0.00083917 -0.0014218 0.0012388 -0.00056181
0.0057836 -0.0017911 -0.0054931 0.016042 0.35355 0.0089688 -0.0012852 -0.0011527
0.00023112 -8.6348e-05 0.0006721 -0.00025083
-0.0016633 0.0018752 0.0017206 0.0002115 -0.0013038 -0.0011234 0.19643 0.1813
-0.015916 -0.0026804 -0.00067438 0.0022213
0.0023102 -0.0003468 0.00086705 -0.0014196 0.00020549 -7.9662e-05 -0.015948 -0.0026264
0.10719 0.21217 -0.012665 -0.0030141
-0.00036502 -0.0010896 0.0012186 -0.0006297 0.00072421 -0.0002591 -0.00066798 0.0022326
-0.012687 -0.0030417 0.14471 0.28544
1520000000 0.27898 0.11727 -0.015056 0.010244 0.0035278 -0.0043819 0.00023112 0.002768
0.0024584 -0.0019367 -0.001291 -0.00019397
-0.015041 0.010202 0.14186 0.32513 0.0024498 0.013103 0.0016613 -0.00074692
-3.4107e-05 -0.0010273 0.00032949 -0.00098245
0.0034926 -0.0043779 0.0025013 0.013106 0.34717 -0.046808 -0.0010387 -0.00019103
0.00074139 -0.0009324 4.2643e-05 -0.00021367
0.00023568 0.0028206 0.0016654 -0.0007426 -0.0010386 -0.00022238 0.22075 0.14304
-0.015034 0.0032408 0.0016462 0.0022406
0.0024418 -0.0019291 -4.8138e-05 -0.0010104 0.00074474 -0.00091829 -0.015053 0.0032725
0.1362 0.20054 -0.012534 0.0020024
-0.0012528 -0.00017622 0.00038354 -0.00097961 3.3647e-05 -0.00021091 0.0016854 0.0022132
-0.012583 0.0019833 0.17807 0.26663
1580000000 0.28976 0.071075 -0.0082756 0.01364 -0.0010675 -0.005119 0.00173 0.0019392
-0.00017434 -0.0024323 -0.00029317 0.00053164
-0.0082951 0.013613 0.16984 0.30021 0.0060708 0.0076572 0.000601 -0.0015302
-0.0005367 -0.0010111 -0.00018819 -0.00078953
-0.0010608 -0.0051183 0.0061018 0.0076298 0.32796 -0.10428 -0.0014679 0.00055096
-0.00031461 -0.0013522 0.00025927 -0.00058326
0.0017726 0.0019161 0.00060115 -0.0015501 -0.0014783 0.00057263 0.23522 0.1031
-0.011092 0.0082045 0.0025298 0.0008224
-0.00022259 -0.0023898 -0.00053047 -0.0009838 -0.00035816 -0.0013406 -0.011037 0.0082233
0.16168 0.18425 -0.0097389 0.0080848
-0.0002985 0.00055514 -0.00018756 -0.00079556 0.00030455 -0.00052415 0.0024597 0.00080185
-0.0096471 0.0080383 0.21111 0.24082
1640000000 0.29282 0.029896 -0.0013119 0.012301 -0.0030957 -0.0027605 0.002938 0.00089673
-0.00076019 -0.0017823 -0.00032454 0.00053787
-0.0013319 0.012292 0.19953 0.27584 0.006186 0.0024317 -0.00048121 -0.0018609
-0.00082182 -0.00043155 -0.00045937 -0.00070565
-0.003142 -0.0027486 0.0061769 0.0024008 0.29972 -0.15336 -0.00056323 0.0013018
-0.0010508 -0.0010828 -0.00017113 -0.0004146
0.0029093 0.0009014 -0.0005228 -0.0018686 -0.00057215 0.0013252 0.24804 0.054058
-0.0065433 0.009118 0.0027675 -0.0010232
-0.00072606 -0.001842 -0.0008558 -0.0004315 -0.0010558 -0.001044 -0.0066079 0.0091167
0.18601 0.1616 -0.0046061 0.010236
-0.00032187 0.0005447 -0.00046822 -0.00071644 -0.00020066 -0.0004464 0.0027825 -0.00094565
-0.0046645 0.010254 0.23706 0.21087
1700000000 0.28678 -0.015559 0.0021151 0.009384 -0.0038998 0.00017223 0.0030762 -0.0014266
-0.0022082 -0.00070491 0.00075655 0.00044546
0.0020859 0.009382 0.21824 0.24447 0.0034555 -0.00066105 -0.001472 -0.00074165
-0.00072999 -0.00017126 -0.00092366 -0.00051852
-0.0038846 0.00019839 0.0034337 -0.00066858 0.25705 -0.19332 0.00024655 0.0014157
-0.0021336 -0.00025012 -0.00051448 -0.00083323
0.0031227 -0.001393 -0.0014692 -0.00073207 0.00024488 0.001368 0.24539 0.0036768
-0.003621 0.009344 0.0016929 -0.0023762
-0.0022333 -0.00067624 -0.00070892 -0.00013975 -0.0021388 -0.00022208 -0.0035517 0.0093682
0.20507 0.1424 0.000323 0.010401
0.0007101 0.0003697 -0.0009349 -0.0005251 -0.00050909 -0.00081297 0.0016725 -0.0024767
0.00038315 0.010413 0.25485 0.1775
1760000000 0.2754 -0.064334 0.0043459 0.006001 -0.0025088 0.0012731 0.0012535 -0.003648
-0.0014113 0.00060589 0.0002321 -0.00070652
0.0043282 0.0060156 0.2444 0.205 0.00061397 -0.0022533 -0.0013062 8.6417e-07
-0.0011 0.0007345 -0.00065112 0.00029407
-0.0024678 0.0012724 0.00059805 -0.0022536 0.20884 -0.22686 0.0010012 0.0011656
-0.0011872 0.001443 -0.0013813 -0.00064194
0.0011937 -0.0036568 -0.0013048 -2.6707e-06 0.0010215 0.0011718 0.23633 -0.048402
-0.00049467 0.0082044 -8.3989e-05 -0.0027385
-0.0014245 0.00066196 -0.0011138 0.00077422 -0.0011675 0.0015034 -0.00048485 0.0081314
0.22128 0.10846 0.0046535 0.0076414
0.00032379 -0.00066054 -0.00063776 0.00035221 -0.0014128 -0.00070911 -9.6701e-05 -0.0026208
0.0046477 0.0076007 0.26842 0.14022
1820000000 0.25186 -0.10175 0.0043922 0.0024666 6.7718e-05 0.0026965 -0.0011266 -0.0031432
-0.0012212 0.0010341 -0.00015858 -0.00014095
0.0043979 0.0024581 0.25521 0.17541 -0.0018451 -0.00038685 -0.001554 0.00091846
-0.0002318 0.0011735 -0.0007083 0.00049836
0.00014235 0.0026429 -0.0018339 -0.00035671 0.15819 -0.24205 0.0015369 0.00056455
-0.00022022 0.0024478 -0.0017876 0.00042355
-0.0011069 -0.0031201 -0.0015769 0.00095796 0.0015093 0.00061291 0.20649 -0.095878
0.00082287 0.0064779 -0.0019468 -0.0019084
-0.0012444 0.0010368 -0.0002477 0.0011737 -0.00021045 0.0024316 0.00087889 0.0065763
0.24004 0.080071 0.0056763 0.0036817
-0.00019499 -0.0002266 -0.0007037 0.0004993 -0.0017038 0.00045662 -0.0018882 -0.0019193
0.0056933 0.0037477 0.27213 0.10475
1880000000 0.21724 -0.14269 0.001955 0.00031819 -0.00037037 0.0024562 -0.0031215 -0.0022101
-0.00031629 0.0017678 7.5645e-05 -0.00052258
0.0019711 0.00030699 0.25979 0.12896 -0.003928 0.0023086 -0.00037041 0.0019481
0.00036004 0.0014255 7.0556e-05 0.0010495
-0.00042674 0.0025204 -0.0039415 0.0023461 0.10598 -0.25097 0.0020289 -0.00075775
0.0015259 0.0019973 -0.00092775 0.0016287
-0.0030695 -0.0021309 -0.00038142 0.0019373 0.0020299 -0.00079869 0.16554 -0.1367
0.0013116 0.0042908 -0.0026579 0.00018062
-0.00018737 0.0018149 0.00035751 0.0014147 0.0015345 0.0020423 0.0013511 0.0042701
0.24513 0.048837 0.0059443 0.0011335
4.5681e-05 -0.00056764 3.6196e-05 0.0010482 -0.00095854 0.0016271 -0.0027234 0.0001721
0.0059118 0.0010899 0.27298 0.070379
1940000000 0.17832 -0.1686 -0.00026278 -0.0012156 0.0016379 0.0021718 -0.0038184 0.00045097
0.0012725 0.0011196 -0.00065828 -0.00024183
-0.00024835 -0.0012428 0.26105 0.097661 -0.002107 0.0053067 0.0011205 0.0015521
0.0018933 0.00074512 0.00091731 0.00043996
0.0016291 0.0021414 -0.0020874 0.005305 0.061426 -0.24345 0.00090556 -0.002251
0.0024903 0.00052647 0.00050231 0.0016952
-0.0039785 0.00053646 0.0010899 0.0015967 0.00095144 -0.0022386 0.11267 -0.16718
0.00020219 0.0032422 -0.0018146 0.0015297
0.0011591 0.001132 0.0019081 0.00078371 0.0025143 0.00053602 0.00021289 0.003159
0.24909 0.011065 0.0044799 -0.0026591
-0.00061152 -0.00024648 0.00099268 0.00035366 0.00051671 0.0016966 -0.0017835 0.0015522
0.0045143 -0.0025774 0.26278 0.034748
2000000000 0.13282 -0.18362 -0.0038616 0.0009805 0.003156 0.0014702 -0.002386 0.0038271
0.0011052 0.00037386 -0.00049129 0.00049515
-0.0038603 0.00099958 0.24765 0.062378 -0.00096787 0.0074832 0.0018498 0.00040342
0.0014839 -0.0010756 0.00054538 0.0001577
0.0030742 0.001439 -0.0009202 0.007499 0.018644 -0.22967 -0.0012901 -0.0017456
0.0021843 -0.0011473 0.0016467 0.0014515
-0.0023671 0.0038059 0.0018278 0.00037341 -0.0014065 -0.0018213 0.059146 -0.17688
-0.0016275 0.0031091 -0.00035941 0.0023482
0.00108 0.00034057 0.0014574 -0.0010868 0.0021428 -0.0011761 -0.0014695 0.0031133
0.24522 -0.022146 0.0010892 -0.0038696
