!Keysight Technologies,M9804A,MY58100912,A.14.10.03
!Date: Thursday, April 27, 2023 10:28:33
!Correction: S11(C  6-Port  ) 
!S12(C  6-Port  ) 
!S13(C  6-Port  ) 
!S14(C  6-Port  ) 
!S15(C  6-Port  ) 
!S16(C  6-Port  ) 
!S21(C  6-Port  ) 
!S22(C  6-Port  ) 
!S23(C  6-Port  ) 
!S24(C  6-Port  ) 
!S25(C  6-Port  ) 
!S26(C  6-Port  ) 
!S31(C  6-Port  ) 
!S32(C  6-Port  ) 
!S33(C  6-Port  ) 
!S34(C  6-Port  ) 
!S35(C  6-Port  ) 
!S36(C  6-Port  ) 
!S41(C  6-Port  ) 
!S42(C  6-Port  ) 
!S43(C  6-Port  ) 
!S44(C  6-Port  ) 
!S45(C  6-Port  ) 
!S46(C  6-Port  ) 
!S51(C  6-Port  ) 
!S52(C  6-Port  ) 
!S53(C  6-Port  ) 
!S54(C  6-Port  ) 
!S55(C  6-Port  ) 
!S56(C  6-Port  ) 
!S61(C  6-Port  ) 
!S62(C  6-Port  ) 
!S63(C  6-Port  ) 
!S64(C  6-Port  ) 
!S65(C  6-Port  ) 
!S66(C  6-Port  ) 
!S6P File: Measurement: :
# Hz S  RI   R 50
500000000 -0.33723 -0.037447 -0.010132 -0.0030971 -0.0079057 0.012342 -0.0035166 0.012206
0.011168 0.0039554 -0.003576 0.008952
-0.0096543 -0.003473 -0.41798 -0.051009 0.0076225 -0.011578 0.0025426 0.012103
0.0075184 0.0023343 0.0024727 0.013282
-0.0081782 0.012206 0.0077094 -0.011628 -0.26542 0.21023 0.0071446 0.0034479
-0.00039011 0.0085453 0.0011191 0.012011
-0.0029227 0.011624 0.002797 0.011826 0.00711 0.0033554 -0.32836 0.045405
-0.019678 -0.005252 0.018466 0.02541
0.012184 0.0037301 0.0078396 0.0023908 -0.00042821 0.0085473 -0.019709 -0.0051188
-0.22841 -0.18714 -0.02748 0.0042552
-0.003665 0.0075861 0.0029599 0.013418 0.0011335 0.012106 0.01867 0.025309
-0.027342 0.0044939 -0.27088 -0.11833
560000000 -0.31736 0.12457 -0.022999 -0.062605 0.00047184 0.012529 0.0065926 0.010295
0.011597 0.0036169 0.0092338 0.0076089
-0.023987 -0.061372 -0.37493 0.1074 -0.041634 -0.036802 0.014028 0.0039816
-0.013484 -0.0046221 0.0043125 -0.00092356
-0.00049134 0.011835 -0.041913 -0.036738 -0.1832 0.2579 -0.00060938 -0.0043178
0.018751 0.0038509 0.0069565 -0.0057274
0.0058851 0.010377 0.014296 0.0040465 -0.00065633 -0.004313 -0.3044 0.13509
0.0037286 -0.024076 0.0053181 -0.020306
0.01089 0.0044856 -0.013908 -0.0043171 0.018561 0.0037062 0.003575 -0.024094
-0.28762 -0.012648 0.0085292 -0.049783
0.010519 0.0086427 0.0047261 -0.0013428 0.0070271 -0.0058679 0.0051732 -0.02016
0.0080653 -0.049891 -0.33031 0.028212
620000000 -0.27474 0.10808 -0.022622 0.0077782 0.0036818 0.0091832 0.0061728 -0.0044079
0.012847 -0.00023395 6.3711e-05 -0.0022199
-0.022759 0.0073023 -0.40255 0.061115 -0.018486 -0.00022115 -0.0012205 -0.0016377
0.010847 -0.0072311 0.0012354 -0.0029569
0.0037337 0.0079484 -0.018571 -0.00012292 -0.15283 0.26747 -0.0013974 -0.0048381
-0.0039017 -0.003434 0.008577 -0.0036549
0.0074184 -0.0060004 -0.0012147 -0.0017058 -0.0010076 -0.0046768 -0.26422 0.14574
-0.038529 -0.019014 0.01368 0.024334
0.011503 -0.00030255 0.010568 -0.0072558 -0.0040316 -0.0037472 -0.038472 -0.01896
-0.20686 -0.050664 -0.04103 0.01477
-6.8587e-05 -0.0025526 0.0011729 -0.0029674 0.0088295 -0.0033382 0.013272 0.024816
-0.040425 0.014653 -0.25046 -0.0088113
680000000 -0.23432 0.19411 -0.027617 -0.013954 0.0045457 0.0045979 0.0020916 -0.0078566
-0.002669 -0.010879 0.0043782 -0.0073257
-0.027569 -0.013842 -0.38791 0.15869 -0.032886 -0.0015309 -0.0014278 -0.00056122
-0.0023349 -0.0086665 -0.0013635 -0.0020365
0.0046419 0.0053145 -0.032755 -0.0014048 -0.1024 0.2873 -0.00084623 -0.00022094
-0.0018627 0.00092396 -0.0031972 -0.009571
0.001112 -0.0075664 -0.0015791 -0.00050821 -0.0010275 -0.00028572 -0.21962 0.19629
-0.024232 -0.0081035 -0.0089431 -0.010453
-0.0033691 -0.010914 -0.0024604 -0.0086435 -0.001975 0.00086017 -0.024191 -0.0080554
-0.25487 0.048285 -0.0063075 -0.0091785
0.0044045 -0.0060347 -0.0015259 -0.0018215 -0.0035851 -0.0097306 -0.0087364 -0.010782
-0.0062549 -0.0091782 -0.25846 0.095224
740000000 -0.18972 0.18885 -0.038357 0.026122 0.013076 -0.0051515 -0.00094442 -0.0041694
-0.0046348 -0.0029381 -0.0058803 0.0028229
-0.0383 0.025946 -0.33497 0.17756 -0.035002 0.034704 -0.00056083 -0.0060598
-0.011849 0.0073309 -0.0025025 -0.0057302
0.012661 -0.0049983 -0.03487 0.034907 -0.067861 0.28584 -0.0020056 0.0033273
-0.0023256 -0.0043078 -0.0016433 9.1303e-05
-0.00044072 -0.0045531 -0.00051431 -0.0058528 -0.0019098 0.0034052 -0.20346 0.20364
-0.042568 -0.0083844 0.021728 0.014126
-0.0045867 -0.0030632 -0.011679 0.0074523 -0.0023424 -0.0042318 -0.042695 -0.0084879
-0.16009 0.073997 -0.041017 0.00072038
-0.0064228 0.00272 -0.0026109 -0.0057156 -0.0015675 0.00022079 0.0217 0.01401
-0.04132 0.0005278 -0.24848 0.10136
800000000 -0.15681 0.22832 -0.022442 0.016696 0.0049162 -0.010263 -0.0047099 -0.0021669
-0.004142 0.0023387 0.0035579 0.0011069
-0.022604 0.016589 -0.3377 0.24791 -0.0079951 0.033859 -0.0021971 0.0020971
-0.00095716 0.0029788 0.00083174 0.005405
0.0050194 -0.010325 -0.0078796 0.033964 -0.027426 0.30883 0.00095698 0.0012834
0.00048158 0.0036763 -0.0023691 0.00085439
-0.005264 -0.0020099 -0.0024182 0.0021299 0.00077859 0.0013063 -0.17466 0.23114
-0.028209 0.013014 0.013061 -0.010389
-0.0044689 0.0023349 -0.00096835 0.003164 0.00043656 0.0037305 -0.028199 0.013048
-0.20299 0.096879 -0.017426 0.018299
0.0037368 0.0015679 0.00072469 0.0055175 -0.0025684 0.00084096 0.01333 -0.010315
-0.017316 0.018231 -0.24027 0.15256
860000000 -0.12234 0.24886 -0.017363 0.030844 -0.0033475 -0.0097 -0.0026877 0.0012396
0.0037571 0.0044777 -0.0030437 -0.0023873
-0.017355 0.030848 -0.28967 0.29 0.0079088 0.033862 0.00018445 0.0022238
0.0038686 0.00058362 0.0032907 7.0073e-05
-0.003554 -0.0096512 0.0080123 0.033873 0.021269 0.31649 -0.00055793 -8.8119e-05
0.0026223 -0.0013538 0.0016901 0.0044884
-0.0020744 0.001221 0.00027144 0.0020994 -0.00046168 -6.4172e-05 -0.13856 0.24232
-0.017972 0.018629 -0.006724 -0.0083731
0.0042889 0.004702 0.0039749 0.00044945 0.002653 -0.0012605 -0.018097 0.018631
-0.15185 0.14558 -0.024725 0.015418
-0.0034422 -0.0031905 0.0031516 4.3929e-05 0.0017262 0.0044777 -0.0068575 -0.0085633
-0.025065 0.015121 -0.18827 0.1951
920000000 -0.096962 0.27124 0.004989 0.037577 -0.0091937 -0.0041314 -0.0017184 0.0019262
0.0013258 0.0016714 0.0023184 -0.001415
0.0049642 0.037583 -0.26073 0.31053 0.027849 0.021625 0.0015706 0.00095988
0.0067494 -0.00028654 0.0037953 -0.003013
-0.0091827 -0.0042612 0.027952 0.021584 0.067323 0.31673 0.0018368 -0.00012317
0.0012576 -0.00025741 0.00078457 -0.00098042
-0.0019071 0.0022428 0.0015635 0.00098691 0.001844 -7.2825e-05 -0.11403 0.25874
-0.010672 0.030662 0.003183 -0.00667
0.00098876 0.0015419 0.0068767 -0.00039703 0.0012534 -0.0002573 -0.010562 0.030728
-0.14086 0.15171 -0.0028062 0.027586
0.0028165 -0.0013023 0.0037846 -0.0028628 0.00077201 -0.00096614 0.0032364 -0.0065258
-0.002746 0.027775 -0.1953 0.20984
980000000 -0.049979 0.29098 0.017394 0.029751 -0.0087244 0.0045969 0.0021918 0.0037708
0.0038553 -0.0015586 -0.003059 -0.0021062
0.01748 0.029752 -0.20775 0.34427 0.032603 0.0046943 0.0019672 3.9559e-05
0.0014091 -0.0061608 -0.0007448 -0.002091
-0.0087294 0.0047177 0.032674 0.0046061 0.11348 0.30987 0.00055623 -0.0012293
0.00024841 -0.0021668 0.0013518 3.7089e-05
0.0022609 0.0036674 0.0018954 -1.2957e-05 0.00051445 -0.0012748 -0.075881 0.27024
0.0071981 0.02927 -0.009292 -0.0068345
0.0040825 -0.00164 0.001325 -0.0061389 0.00021676 -0.0021255 0.0071965 0.029221
-0.1096 0.17935 0.0046349 0.01915
-0.0030961 -0.0021841 -0.00080181 -0.0020469 0.0013045 4.8254e-06 -0.0091425 -0.0066504
0.0045366 0.01902 -0.15303 0.2547
1040000000 -0.0072263 0.29871 0.033138 0.017959 -0.0010108 0.0068569 0.0026475 0.00061783
2.5487e-05 -0.0037057 -0.00049235 -0.0013935
0.033132 0.018043 -0.17203 0.35707 0.028947 -0.014606 0.0014876 -0.0016584
-0.0024052 -0.0024552 -0.001284 -0.0026027
-0.00096204 0.0068093 0.028896 -0.014706 0.15941 0.29583 -0.00046487 -0.0014797
-0.0015284 -0.00082081 -0.00035746 -0.001146
0.0025364 0.00069205 0.0013888 -0.0016877 -0.00041856 -0.0014793 -0.048237 0.27998
0.018419 0.017407 -0.0025603 0.0017395
-1.0805e-06 -0.0038886 -0.0025202 -0.0024025 -0.0015356 -0.00086392 0.018541 0.017353
-0.077794 0.1874 0.013146 0.017837
-0.00040861 -0.0014174 -0.0013276 -0.0026205 -0.00035371 -0.0011576 -0.0026323 0.0017804
0.013042 0.017905 -0.13026 0.27377
1100000000 0.03817 0.30664 0.035526 -0.004161 0.0029406 0.0036702 0.0024896 -0.0011903
-0.0021329 -0.0031864 -0.0037585 -6.6182e-05
0.035566 -0.0040814 -0.12868 0.37397 0.014894 -0.027272 4.4483e-05 -0.001742
-0.0031573 -0.00072986 -0.0033819 -0.00063791
0.0029635 0.0037147 0.014798 -0.027352 0.20519 0.27552 -0.0018059 0.00014108
-0.0016628 0.00052572 -0.00090735 -0.00040032
0.0026535 -0.0012633 4.4443e-05 -0.0017943 -0.0018322 0.00010753 -0.0078319 0.285
0.023249 0.005196 -0.0024087 0.00066774
-0.0019794 -0.0030888 -0.0032347 -0.0008366 -0.001695 0.00052565 0.023229 0.0051283
-0.059013 0.20059 0.018559 0.0083294
-0.0038865 -0.00026527 -0.0034193 -0.00064323 -0.00097611 -0.00039976 -0.0024282 0.0005874
0.018658 0.0083895 -0.083903 0.30279
1160000000 0.089454 0.30093 0.023672 -0.020432 0.0027512 -0.00055027 -0.00014811 -0.0024909
-0.0039975 -0.00059738 -0.00090641 0.0037778
0.023645 -0.02037 -0.085037 0.3778 -0.0035002 -0.02858 -0.0017482 -0.0017804
-0.002536 0.0025238 -0.0012817 0.0016768
0.0027554 -0.00055513 -0.0036702 -0.028566 0.24807 0.24499 -0.00073544 0.0016668
-0.00048523 0.0018172 -0.00096515 4.016e-05
-0.00019703 -0.0024343 -0.0018093 -0.001595 -0.00070512 0.001687 0.03156 0.28186
0.019935 -0.0097593 -0.0028058 0.0052972
-0.0039315 -0.00067636 -0.0024881 0.0025689 -0.00046691 0.0018129 0.019909 -0.0098156
-0.025789 0.20928 0.017297 0.0006078
-0.00075553 0.0037933 -0.0012152 0.0017515 -0.0009187 4.0938e-05 -0.0028005 0.0053304
0.01714 0.00053845 -0.03716 0.30488
1220000000 0.13375 0.28958 0.010399 -0.02955 -0.0015581 -0.00094327 -0.00016146 -0.00090077
-0.0027491 0.0024148 0.0011805 0.0019372
0.010444 -0.029523 -0.041073 0.38946 -0.016438 -0.020842 -0.0024257 0.00042813
8.0145e-05 0.002895 -0.00074142 0.0017354
-0.001546 -0.00096836 -0.016541 -0.02079 0.28725 0.20618 0.00075981 0.0015978
0.0005861 0.0012286 0.00019048 0.00063525
-0.00010394 -0.00088367 -0.002427 0.00036819 0.00073283 0.0016017 0.071035 0.27332
0.0099889 -0.015821 0.0024378 0.0016695
-0.002736 0.0024731 0.00013755 0.0028899 0.00056114 0.0012069 0.0099547 -0.01586
-0.0024592 0.21791 0.013681 -0.012039
0.001143 0.0019551 -0.00078778 0.0017477 0.00017031 0.0006383 0.0024389 0.001676
0.013595 -0.011916 -0.0050156 0.32031
1280000000 0.18316 0.26707 -0.0076236 -0.028132 -0.0018072 0.0024 -0.00084158 -0.0019985
-0.00062217 0.0029525 0.002465 0.0010893
-0.0075875 -0.028114 0.0043945 0.38054 -0.023112 -0.0085752 -0.001041 0.0013076
0.0016186 0.0016896 0.00054426 0.00196
-0.001834 0.0024272 -0.023182 -0.0084579 0.3182 0.16249 0.0014186 -4.1751e-05
0.00099084 7.0195e-05 0.00015794 0.00028839
-0.00094347 -0.0019731 -0.0010533 0.0013688 0.0014236 -6.2103e-05 0.10769 0.25703
0.0012379 -0.017754 0.00010137 0.00018944
-0.00061184 0.0029044 0.0016218 0.0016981 0.00101 0.00010369 0.0012098 -0.017763
0.033904 0.22136 0.0029398 -0.014167
0.0024665 0.0011805 0.0006194 0.0019478 0.0001714 0.00027795 4.73e-05 0.00010656
0.0028912 -0.014208 0.042147 0.32119
1340000000 0.21996 0.23302 -0.017238 -0.018911 0.00080199 0.0042645 -0.0018701 -0.0007783
0.0013884 0.0026364 0.0016434 -0.0014948
-0.01719 -0.018932 0.043777 0.37242 -0.021274 0.0038619 -9.5377e-05 0.0019998
0.0017379 0.0007932 0.0012062 0.0008302
0.00083673 0.0042748 -0.021265 0.0039637 0.34067 0.11438 0.0010776 -0.00088751
0.00061375 -0.00034008 0.00018293 0.00030315
-0.0018322 -0.000827 -8.6945e-05 0.0019695 0.0010679 -0.00085521 0.1403 0.23685
-0.0074627 -0.015332 0.0012372 0.00027128
0.0014364 0.0026813 0.0017688 0.00073052 0.00060877 -0.00036115 -0.0074845 -0.015309
0.063755 0.21645 -0.0030711 -0.012935
0.0016555 -0.0014537 0.0012417 0.0008284 0.00017856 0.00029612 0.0012586 0.00026245
-0.0029941 -0.012795 0.080787 0.31588
1400000000 0.25236 0.19455 -0.022975 -0.0076618 0.0050048 0.0030021 -0.0019654 0.00064116
0.0024163 0.00080852 0.00024865 -0.0013544
-0.022956 -0.0076496 0.080749 0.35959 -0.014774 0.011802 0.0012543 0.0013039
0.0010906 -0.00072902 0.0012091 0.00031941
0.0049761 0.0029934 -0.014712 0.011905 0.35406 0.060351 9.7544e-05 -0.0014538
1.7237e-05 -0.00034717 0.000285 0.00023323
-0.0020001 0.00064403 0.0012905 0.0013523 0.00010396 -0.0014646 0.16979 0.20834
-0.012982 -0.0094526 -0.00065652 -0.00060735
0.0024622 0.00074984 0.0010801 -0.00075871 9.6124e-06 -0.00031031 -0.012995 -0.0094348
0.096374 0.21185 -0.0093431 -0.0085181
0.00020606 -0.0013745 0.0012174 0.00026015 0.00029849 0.00027115 -0.00064053 -0.00061749
-0.0093521 -0.0085474 0.12474 0.30466
1460000000 0.27486 0.15057 -0.020253 0.004266 0.0053637 -0.0017371 -0.0016823 0.0017275
0.0019297 -0.00051542 -0.00028328 -0.00095507
-0.020257 0.0042605 0.11528 0.33802 -0.0064962 0.014883 0.0017531 0.00025019
0.00090526 -0.0011816 0.0011379 -0.00062747
0.0053902 -0.0017504 -0.0064345 0.014945 0.36002 0.0054235 -0.001105 -0.0012955
0.00018949 -0.00010679 0.00067215 -0.00037098
-0.001627 0.0017123 0.0017649 0.00020354 -0.0011288 -0.0012829 0.19647 0.17935
-0.014141 -0.0035466 -0.00097817 0.0015755
0.0019018 -0.00051958 0.0008932 -0.0011841 0.00019622 -0.00011684 -0.014177 -0.0034909
0.12571 0.19723 -0.01116 -0.0031804
-0.00039323 -0.0009607 0.0011275 -0.00066073 0.00062823 -0.00037638 -0.0010189 0.0015853
-0.011174 -0.0032116 0.15803 0.28312
1520000000 0.28669 0.10878 -0.014839 0.0098977 0.0031076 -0.0040561 0.00013636 0.0025991
0.0018987 -0.0016425 -0.0011451 -0.00018596
-0.014833 0.0098923 0.14895 0.32313 0.0010905 0.013028 0.0016434 -0.00078394
5.2551e-05 -0.00099853 0.00032285 -0.00099971
0.0030403 -0.0040683 0.0011654 0.013032 0.35263 -0.051349 -0.0010719 -0.00039495
0.00055568 -0.0008491 4.5912e-05 -7.1287e-05
0.00010006 0.0026313 0.0016492 -0.00077553 -0.0010954 -0.00041388 0.22006 0.14147
-0.014109 0.0016888 0.0011282 0.0018508
0.001875 -0.0016297 5.6888e-05 -0.0010036 0.00055316 -0.00083863 -0.014073 0.0017104
0.15322 0.1829 -0.011211 0.0011041
-0.0011942 -0.00015751 0.00034217 -0.0010063 3.6409e-05 -7.287e-05 0.0011793 0.0018274
-0.011169 0.0011092 0.1909 0.26192
1580000000 0.29568 0.06277 -0.008373 0.013112 -0.00087611 -0.0045421 0.0013857 0.0018626
-0.00031935 -0.0020828 -0.00039122 0.00038817
-0.0083891 0.01309 0.17643 0.29834 0.0048191 0.00846 0.00052809 -0.001586
-0.00044772 -0.0010764 -0.00024417 -0.00089089
-0.00090136 -0.0045491 0.0048604 0.0084455 0.3319 -0.10882 -0.0015434 0.00060748
-0.00014654 -0.0011151 0.00018297 -0.00055679
0.0014441 0.001928 0.00052647 -0.0016084 -0.001555 0.00058849 0.23449 0.10202
-0.011234 0.0064559 0.001941 0.00068456
-0.00035277 -0.0020901 -0.00048217 -0.0010422 -0.00016989 -0.0011255 -0.011221 0.0064906
0.17756 0.16487 -0.0091888 0.006583
-0.00037712 0.00039357 -0.00020683 -0.00086882 0.0001655 -0.00059305 0.0018621 0.00062751
-0.0091705 0.0065558 0.22274 0.23483
1640000000 0.29747 0.021438 -0.0018085 0.012292 -0.002568 -0.0025202 0.0026543 0.0010298
-0.00069252 -0.0014167 -0.00035072 0.00067567
-0.0018141 0.012288 0.2062 0.27287 0.0056405 0.0038595 -0.00069449 -0.0017008
-0.0010288 -0.00044218 -0.00048948 -0.0006505
-0.0025881 -0.0025077 0.0056675 0.0038282 0.30312 -0.15785 -0.00072324 0.0013975
-0.0010025 -0.00094648 -0.00014328 -0.00019963
0.0026341 0.00099682 -0.00068631 -0.0016946 -0.00076265 0.0014147 0.2471 0.052542
-0.0074997 0.0080442 0.0022352 -0.00070671
-0.00068613 -0.0013744 -0.0010359 -0.0004518 -0.00098587 -0.00095922 -0.007479 0.0080792
0.20056 0.14 -0.0049301 0.008741
-0.00033492 0.00071299 -0.00049774 -0.000626 -0.00014105 -0.00016365 0.0021992 -0.00069365
-0.004881 0.0087794 0.24808 0.20302
1700000000 0.29009 -0.023941 0.0017454 0.0097822 -0.0033781 0.00014112 0.0029651 -0.0012433
-0.0019425 -0.0005991 0.00063613 0.00045876
0.0017138 0.0097756 0.2242 0.24091 0.0039289 0.00090519 -0.0013416 -0.0006102
-0.00077678 6.1633e-05 -0.00097338 -0.00045427
-0.0033648 0.00015863 0.0039369 0.00089063 0.25943 -0.19745 0.00051092 0.0015758
-0.001783 -0.00029069 -0.00057702 -0.00088891
0.0029731 -0.0011761 -0.001367 -0.00061106 0.00045707 0.0015693 0.24374 0.0022167
-0.0048638 0.0089684 0.0013944 -0.0020522
-0.0019607 -0.00059819 -0.00080198 7.1312e-05 -0.0018021 -0.00028869 -0.0048485 0.0089755
0.21786 0.11917 -0.00044299 0.0092805
0.00068167 0.00042454 -0.00097542 -0.00044254 -0.00059111 -0.00083948 0.0013865 -0.0020668
-0.000409 0.0092122 0.26359 0.16815
1760000000 0.2776 -0.072527 0.0042828 0.0065894 -0.0021837 0.00081142 0.0012001 -0.0033721
-0.0013376 0.00053705 0.00048749 -0.00046378
0.00427 0.006573 0.25006 0.20059 0.0018753 -0.0010748 -0.0012081 0.0001458
-0.0010366 0.00088165 -0.00055691 0.00053462
-0.0021771 0.00075901 0.0018655 -0.0010702 0.21082 -0.23058 0.0012699 0.0011083
-0.0010623 0.0013958 -0.0013347 -0.00033773
0.0012148 -0.0033785 -0.0011949 0.00016691 0.0012451 0.0010767 0.23443 -0.049675
-0.0015625 0.0083399 -0.00041007 -0.002219
-0.0012879 0.00055829 -0.0010134 0.00087827 -0.0010439 0.001354 -0.0015295 0.0083276
0.23275 0.083404 0.0033291 0.0068656
0.00038585 -0.00048652 -0.00058154 0.00054873 -0.0013381 -0.00033333 -0.00042481 -0.0022981
0.0033084 0.0069322 0.27602 0.13038
1820000000 0.25265 -0.10983 0.0047047 0.0029847 8.9878e-08 0.0024201 -0.00096519 -0.0031058
-0.0010201 0.00078785 1.4269e-05 -0.00026308
0.0046793 0.0030008 0.25953 0.16999 -0.00013983 1.6692e-05 -0.0014036 0.00090471
-4.8042e-05 0.0012769 -0.00056691 0.00057586
3.3754e-05 0.002447 -0.00016387 1.1043e-05 0.16012 -0.24581 0.0014013 0.00024528
-0.0003941 0.0022271 -0.0014796 0.00065573
-0.0010036 -0.0030317 -0.0014375 0.00091846 0.0014065 0.00031313 0.20344 -0.096909
9.5694e-07 0.0069047 -0.0015173 -0.0012278
-0.00095573 0.00075394 -5.0797e-05 0.0012917 -0.00041415 0.0022716 -1.5482e-06 0.0069109
0.24942 0.053085 0.0044065 0.0037574
-1.0627e-05 -0.00026033 -0.00052423 0.00056901 -0.0014184 0.00056548 -0.0015277 -0.0011795
0.0044313 0.0037307 0.27755 0.093761
1880000000 0.21702 -0.15002 0.0026743 0.00053257 -0.00038589 0.0020665 -0.0028615 -0.0022727
-0.00019971 0.0016515 0.00016639 -0.00057197
0.0026622 0.00054324 0.26333 0.12342 -0.0021649 0.0016544 -0.00023392 0.0016657
0.0006018 0.001255 0.00018988 0.00099994
-0.00037211 0.0020443 -0.0021679 0.0016718 0.10764 -0.25502 0.0017803 -0.00090915
0.0014115 0.0020541 -0.00081991 0.0013471
-0.0028196 -0.0022302 -0.00023803 0.001693 0.0017949 -0.00091897 0.16241 -0.13648
0.00081202 0.0050422 -0.0020418 0.00054123
-0.00021592 0.0016933 0.00061371 0.0012162 0.0014298 0.0020394 0.00083806 0.0050377
0.25168 0.019343 0.0043573 0.00175
0.00013697 -0.00059275 0.00018892 0.00098729 -0.0008057 0.0013578 -0.002082 0.00059341
0.0043651 0.001765 0.27651 0.059962
1940000000 0.17746 -0.1755 0.00042287 -0.0013373 0.0013102 0.0018692 -0.0036761 0.00069262
0.0012059 0.0012786 -0.0007057 -0.00057761
0.00042771 -0.0013459 0.26342 0.091561 -0.0010262 0.0039051 0.0010286 0.0014366
0.0018268 0.00048783 0.00078149 0.0002605
0.0013486 0.0018598 -0.00098678 0.0039248 0.062294 -0.24832 0.00044125 -0.0020611
0.0023861 0.00049276 0.00040604 0.0016958
-0.0037001 0.00074073 0.0010242 0.0013851 0.00041254 -0.0020452 0.11006 -0.16672
-9.096e-05 0.0036685 -0.0012893 0.001617
0.0012216 0.0012571 0.0018346 0.00047418 0.0023666 0.00052214 -6.6744e-05 0.0036172
0.25255 -0.021054 0.0034648 -0.0015351
-0.00067581 -0.0005708 0.00084512 0.00029247 0.00046412 0.0016706 -0.0013851 0.0016482
0.0034579 -0.001543 0.26501 0.023567
2000000000 0.1306 -0.18979 -0.0036117 0.00054655 0.0024004 0.0014264 -0.0023324 0.0035755
0.0011001 0.00028411 -0.0006303 0.00047029
-0.0036106 0.00051789 0.24857 0.056181 -0.00067823 0.0056704 0.0016206 0.00042605
0.0012957 -0.0013155 0.00048708 8.1423e-05
0.002391 0.0013855 -0.0006447 0.005705 0.018777 -0.23365 -0.0014472 -0.0012143
0.0019692 -0.0011397 0.0016443 0.0011122
-0.0023403 0.0036177 0.0016143 0.0004653 -0.0013062 -0.0012295 0.055826 -0.17557
-0.0018109 0.0038575 0.00028183 0.0021588
0.0010284 0.00029815 0.0012726 -0.0013361 0.0020108 -0.0011825 -0.0017831 0.0039317
0.24438 -0.055793 0.00061126 -0.0023916
