!Keysight Technologies,M9804A,MY58100912,A.14.10.03
!Date: Thursday, April 27, 2023 10:28:33
!Correction: S11(C  6-Port  ) 
!S12(C  6-Port  ) 
!S13(C  6-Port  ) 
!S14(C  6-Port  ) 
!S15(C  6-Port  ) 
!S16(C  6-Port  ) 
!S21(C  6-Port  ) 
!S22(C  6-Port  ) 
!S23(C  6-Port  ) 
!S24(C  6-Port  ) 
!S25(C  6-Port  ) 
!S26(C  6-Port  ) 
!S31(C  6-Port  ) 
!S32(C  6-Port  ) 
!S33(C  6-Port  ) 
!S34(C  6-Port  ) 
!S35(C  6-Port  ) 
!S36(C  6-Port  ) 
!S41(C  6-Port  ) 
!S42(C  6-Port  ) 
!S43(C  6-Port  ) 
!S44(C  6-Port  ) 
!S45(C  6-Port  ) 
!S46(C  6-Port  ) 
!S51(C  6-Port  ) 
!S52(C  6-Port  ) 
!S53(C  6-Port  ) 
!S54(C  6-Port  ) 
!S55(C  6-Port  ) 
!S56(C  6-Port  ) 
!S61(C  6-Port  ) 
!S62(C  6-Port  ) 
!S63(C  6-Port  ) 
!S64(C  6-Port  ) 
!S65(C  6-Port  ) 
!S66(C  6-Port  ) 
!S6P File: Measurement: :
# Hz S  RI   R 50
500000000 -0.33807 -0.037378 -0.0099783 -0.0032218 -0.0075973 0.011956 -0.0042461 0.011759
0.011965 0.0040788 -0.004299 0.0080063
-0.010208 -0.0034225 -0.41841 -0.050414 0.0080035 -0.0113 0.0017078 0.011505
0.0078625 0.0020906 0.001744 0.013034
-0.0075394 0.012079 0.0079466 -0.011219 -0.26515 0.21043 0.0069169 0.0032168
-0.00056979 0.0084911 0.00084684 0.012024
-0.004328 0.011728 0.0018207 0.011922 0.0069604 0.0033238 -0.32858 0.045094
-0.020434 -0.0053245 0.018667 0.025132
0.011939 0.0039964 0.0078228 0.0021433 -0.00064978 0.0084092 -0.020588 -0.0052995
-0.22606 -0.18728 -0.027958 0.004034
-0.0044072 0.007537 0.0017434 0.013304 0.00084642 0.011997 0.018337 0.024947
-0.027903 0.0038874 -0.27061 -0.11864
560000000 -0.31683 0.12413 -0.023707 -0.062721 -0.00024838 0.01171 0.0065264 0.010253
0.010112 0.0040376 0.010195 0.0080569
-0.023766 -0.06251 -0.37596 0.10784 -0.041867 -0.036865 0.014151 0.0038708
-0.01302 -0.0041708 0.0044215 -0.00051483
-0.00012966 0.01189 -0.042187 -0.036627 -0.18286 0.25828 -0.00071148 -0.0040457
0.018663 0.0047505 0.0066217 -0.0061868
0.0065917 0.010686 0.013825 0.003643 -0.0008051 -0.0044428 -0.30364 0.1352
0.0038645 -0.024578 0.0050599 -0.019699
0.010671 0.0038794 -0.013613 -0.0037653 0.018839 0.004683 0.0038472 -0.024466
-0.28717 -0.01173 0.0080074 -0.0502
0.010478 0.0084478 0.0045079 -0.0012383 0.0065965 -0.006156 0.0051112 -0.019491
0.0081331 -0.050236 -0.33049 0.02882
620000000 -0.27454 0.10842 -0.022835 0.0076017 0.0035526 0.0083092 0.0069436 -0.0051133
0.012215 -0.00022315 0.00047262 -0.0022132
-0.022814 0.007458 -0.40264 0.061145 -0.018725 -0.00018258 -0.0011811 -0.0018737
0.010467 -0.0072535 0.0012917 -0.0028573
0.0034919 0.0083245 -0.018788 -0.00015625 -0.1532 0.26724 -0.0012089 -0.005001
-0.0036513 -0.0031793 0.0081593 -0.0035933
0.0068427 -0.0053049 -0.0013058 -0.0017955 -0.0013282 -0.0049134 -0.26356 0.14634
-0.038521 -0.019071 0.013572 0.02507
0.011754 -0.00021038 0.010449 -0.0072425 -0.0036071 -0.0032756 -0.038678 -0.018949
-0.20678 -0.051642 -0.040091 0.014393
-0.00024643 -0.002376 0.0010609 -0.0027311 0.0081954 -0.0034745 0.013857 0.024884
-0.040003 0.014427 -0.25058 -0.0076544
680000000 -0.23375 0.19406 -0.027394 -0.014081 0.0047864 0.004866 0.0015075 -0.0074123
-0.0026889 -0.011273 0.0045735 -0.0069974
-0.027295 -0.014031 -0.38764 0.15865 -0.032609 -0.00142 -0.0016729 -0.00031938
-0.0023306 -0.0087145 -0.0010876 -0.001978
0.0048239 0.0049929 -0.032639 -0.0013662 -0.1021 0.28741 -0.00089633 4.2616e-05
-0.0018674 0.00076334 -0.0029881 -0.0094988
0.0014318 -0.0074479 -0.0015411 -0.00036754 -0.00089151 8.7509e-05 -0.22064 0.19623
-0.024043 -0.0077284 -0.0092564 -0.010862
-0.0026974 -0.010998 -0.0023951 -0.0087254 -0.0019336 0.00082829 -0.023919 -0.0076748
-0.2559 0.047895 -0.0059461 -0.0086911
0.0048109 -0.0072814 -0.0010229 -0.0020452 -0.0029605 -0.0095155 -0.0094577 -0.010708
-0.0060816 -0.0087734 -0.2594 0.09497
740000000 -0.18974 0.18846 -0.038313 0.026406 0.012563 -0.0049912 -0.00066363 -0.004092
-0.0040406 -0.0032814 -0.0064148 0.0033326
-0.038208 0.026465 -0.33531 0.17774 -0.03488 0.0347 -0.00058968 -0.0064185
-0.011706 0.0077916 -0.0023832 -0.006001
0.012451 -0.0050658 -0.034844 0.034649 -0.068054 0.28597 -0.0017121 0.0031305
-0.0025745 -0.0041964 -0.001289 0.00019318
-0.00062733 -0.0040111 -0.0007527 -0.0062486 -0.0017808 0.0031539 -0.20322 0.20345
-0.042769 -0.0084135 0.022084 0.013753
-0.0041747 -0.0032227 -0.011501 0.007852 -0.0027184 -0.0041235 -0.042728 -0.0082285
-0.15963 0.074581 -0.041151 8.396e-05
-0.0063804 0.0035209 -0.0028036 -0.0060405 -0.001279 8.1232e-05 0.022103 0.013825
-0.041472 -0.00018712 -0.2478 0.101
800000000 -0.15692 0.22845 -0.022458 0.016625 0.0051279 -0.01044 -0.0046499 -0.0019976
-0.0041686 0.0022464 0.0044884 0.0011782
-0.022382 0.016648 -0.33771 0.24778 -0.0078272 0.033823 -0.0022107 0.0022447
-0.00087351 0.0031154 0.0011046 0.0052629
0.0050797 -0.010444 -0.0077762 0.033871 -0.027229 0.30878 0.0010629 0.0015105
0.00051379 0.0035335 -0.0019032 0.00098663
-0.0046103 -0.0020145 -0.0021991 0.0022417 0.001083 0.0015362 -0.1747 0.2312
-0.028199 0.012977 0.013238 -0.0096987
-0.0039628 0.0023831 -0.00084902 0.0030768 0.00061548 0.0035019 -0.028127 0.013044
-0.20317 0.097364 -0.017111 0.017795
0.004486 0.0009185 0.0010713 0.0052146 -0.0018535 0.0010913 0.013292 -0.0098318
-0.017138 0.017743 -0.24002 0.15316
860000000 -0.122 0.24887 -0.017464 0.030897 -0.0034031 -0.0096468 -0.0022637 0.0013346
0.003707 0.0047439 -0.00322 -0.002855
-0.017401 0.030842 -0.2897 0.28995 0.0079331 0.033949 0.00016559 0.0022497
0.0038464 0.00036566 0.0032584 0.00034802
-0.0034226 -0.0096164 0.0080734 0.033922 0.021121 0.31646 -0.00045198 -0.00014591
0.0026698 -0.0013725 0.0014471 0.0043573
-0.0021654 0.001341 4.6301e-05 0.0022639 -0.00049086 -0.00016012 -0.13831 0.24249
-0.017875 0.018876 -0.0065061 -0.0088953
0.0040775 0.0049948 0.0039337 0.00047896 0.0027332 -0.0013441 -0.017817 0.019081
-0.15242 0.14603 -0.024545 0.014755
-0.0035151 -0.0025321 0.0032117 0.0004575 0.0013724 0.0043417 -0.0066586 -0.0089034
-0.024572 0.014754 -0.18931 0.19453
920000000 -0.097041 0.27163 0.0050926 0.037506 -0.0092237 -0.0042404 -0.0017627 0.002109
0.0012315 0.0016648 0.0025353 -0.0014218
0.0050582 0.037456 -0.2607 0.31046 0.027847 0.02161 0.0015935 0.0010848
0.0068098 -0.00061473 0.0038675 -0.0027755
-0.0092321 -0.0042242 0.027949 0.021548 0.067248 0.31668 0.0018605 -9.1901e-05
0.001193 -0.00031407 0.00083034 -0.00099936
-0.0017435 0.0021825 0.0015898 0.0011469 0.0018655 -0.0001118 -0.11421 0.25864
-0.010398 0.03052 0.003254 -0.0063932
0.0011189 0.0016215 0.0068223 -0.00061518 0.0012174 -0.00029924 -0.010425 0.030628
-0.14154 0.15177 -0.0024108 0.027485
0.0027147 -0.0012933 0.0038154 -0.0027933 0.00084507 -0.0010184 0.003231 -0.0064159
-0.002421 0.027477 -0.19502 0.21013
980000000 -0.049859 0.29095 0.017405 0.02975 -0.0087534 0.0046278 0.002205 0.0037755
0.0040342 -0.0016323 -0.0032687 -0.0021454
0.017327 0.029716 -0.20779 0.34425 0.032601 0.0046928 0.0019289 8.3624e-05
0.0014689 -0.0062051 -0.00078635 -0.0022499
-0.0087379 0.0046545 0.032652 0.0045751 0.11344 0.30984 0.00051033 -0.0011739
0.0002249 -0.0021495 0.0013707 -5.7115e-05
0.0022153 0.0037488 0.0018901 3.8436e-05 0.00050924 -0.0011792 -0.075939 0.27032
0.0074173 0.029258 -0.0090791 -0.0064951
0.0039402 -0.001642 0.0013697 -0.0062084 0.00019629 -0.002131 0.007489 0.029268
-0.10972 0.17942 0.0045446 0.018957
-0.003175 -0.0020366 -0.00084719 -0.0021819 0.0013972 -5.9027e-06 -0.0090944 -0.0064258
0.0044791 0.018967 -0.15282 0.25462
1040000000 -0.0072738 0.29896 0.03306 0.017968 -0.0011163 0.0068134 0.0026734 0.00075331
0.0001411 -0.0036644 -0.00040383 -0.0015847
0.03298 0.017969 -0.17211 0.35715 0.028877 -0.014597 0.0015067 -0.0017052
-0.0024284 -0.0024455 -0.0013102 -0.0027457
-0.0010668 0.0068402 0.028853 -0.014697 0.15933 0.29583 -0.00045669 -0.0014546
-0.0014407 -0.00087757 -0.00035907 -0.0011277
0.0026848 0.00076944 0.0014856 -0.0016979 -0.00044543 -0.0014795 -0.048305 0.28003
0.018707 0.017638 -0.002637 0.0016046
0.00010205 -0.003639 -0.0023997 -0.0023913 -0.0014512 -0.00087469 0.01883 0.017608
-0.077453 0.18771 0.013364 0.017864
-0.00039021 -0.0015932 -0.0013508 -0.0027478 -0.00039116 -0.0011818 -0.0026148 0.0018002
0.013314 0.017849 -0.13049 0.2736
1100000000 0.037998 0.30636 0.035487 -0.0042057 0.0029282 0.0037367 0.0024459 -0.0013391
-0.0020608 -0.0030788 -0.0038335 3.3372e-05
0.035434 -0.0041831 -0.12872 0.37394 0.014939 -0.027277 -1.0783e-05 -0.0018339
-0.00322 -0.00068575 -0.0033645 -0.00054564
0.0029561 0.0037318 0.014826 -0.027355 0.20512 0.27553 -0.0017758 0.00014089
-0.0017388 0.00053589 -0.00092738 -0.00035858
0.002491 -0.0013267 -1.8046e-05 -0.001819 -0.0017891 0.00015649 -0.0078841 0.28496
0.023354 0.0051933 -0.0023096 0.00052131
-0.002113 -0.00315 -0.0032566 -0.00065807 -0.0017621 0.00052772 0.023366 0.0051365
-0.05895 0.20086 0.018537 0.0085937
-0.0038583 0.00012212 -0.0034329 -0.00062812 -0.00094849 -0.00037831 -0.0022379 0.00061929
0.018525 0.0085743 -0.083852 0.30239
1160000000 0.089381 0.30109 0.023703 -0.020398 0.0027465 -0.00052132 -0.0002013 -0.0024899
-0.0040202 -0.00059344 -0.00072087 0.0038116
0.023674 -0.020351 -0.085069 0.37776 -0.0035063 -0.028555 -0.0017026 -0.00164
-0.0026091 0.0024385 -0.0012002 0.0016952
0.002763 -0.00053206 -0.003653 -0.028564 0.24801 0.24497 -0.00070342 0.0016739
-0.00052809 0.0017739 -0.00094656 3.0175e-05
-0.00018618 -0.0024692 -0.0017255 -0.0016169 -0.00069359 0.0016871 0.031442 0.28188
0.020031 -0.0096809 -0.0027343 0.005405
-0.0040373 -0.00057626 -0.0025685 0.0024125 -0.00052473 0.0017705 0.019983 -0.0097604
-0.025379 0.20959 0.017146 0.00057211
-0.00064876 0.0037694 -0.0011595 0.0017539 -0.00093914 9.8284e-05 -0.0026649 0.0053506
0.017141 0.00057011 -0.037058 0.30496
1220000000 0.13359 0.28946 0.010326 -0.029534 -0.0015401 -0.00090495 -2.7084e-05 -0.00099924
-0.0026213 0.0024396 0.0012211 0.0018758
0.010334 -0.02951 -0.041153 0.38941 -0.016427 -0.020854 -0.0024367 0.00040367
0.00012617 0.0028375 -0.00074368 0.001721
-0.0015371 -0.00090501 -0.01656 -0.020808 0.28717 0.2062 0.00076011 0.0016418
0.00057804 0.0012079 0.00020197 0.00061307
-4.0213e-05 -0.0009705 -0.0024668 0.00041198 0.00075167 0.0016513 0.070998 0.27327
0.010121 -0.015884 0.0024416 0.0015096
-0.0026196 0.0024496 0.00012007 0.0028414 0.00054458 0.0011978 0.010118 -0.015897
-0.0023778 0.21794 0.013664 -0.011963
0.001213 0.0018571 -0.0007485 0.001781 0.00019296 0.00060211 0.002437 0.0015111
0.013669 -0.011965 -0.0053711 0.32021
1280000000 0.18299 0.26713 -0.0075624 -0.028028 -0.0018009 0.0024251 -0.00098546 -0.0019691
-0.00073414 0.0030277 0.0024679 0.0011198
-0.007538 -0.027992 0.0043448 0.38046 -0.023119 -0.0085548 -0.00106 0.0014117
0.0015935 0.0017375 0.00053871 0.0019626
-0.0017854 0.0024437 -0.023191 -0.0084414 0.31815 0.16257 0.0013882 -7.743e-05
0.0010383 0.00010781 0.00021144 0.00031588
-0.00096722 -0.0019721 -0.0010271 0.0013959 0.001389 -0.00010621 0.10749 0.25717
0.0012197 -0.017931 0.0001659 0.00015092
-0.00071653 0.0029994 0.0015896 0.0017051 0.0010352 0.00012713 0.0012133 -0.017954
0.034123 0.22143 0.0028993 -0.014034
0.0024354 0.0011094 0.00051511 0.0020043 0.0001879 0.00028493 0.0001516 0.00013527
0.0029289 -0.014004 0.042148 0.32103
1340000000 0.21983 0.23312 -0.017159 -0.018836 0.00081717 0.0042896 -0.0018136 -0.00080475
0.0013985 0.002631 0.0016799 -0.001438
-0.01712 -0.018826 0.043675 0.37241 -0.021252 0.0038478 -0.00016157 0.001977
0.0017665 0.00079091 0.0012711 0.00086019
0.00083285 0.0042718 -0.021256 0.0039807 0.34061 0.11445 0.0010432 -0.00081088
0.00061855 -0.00037812 0.00015029 0.00031781
-0.0018166 -0.00078427 -0.0001599 0.0019616 0.0010447 -0.00082618 0.14026 0.23683
-0.0074161 -0.015446 0.0011255 0.00017216
0.001407 0.0026265 0.0017671 0.00074561 0.00063308 -0.00036368 -0.0074691 -0.015444
0.063951 0.2165 -0.0028677 -0.012892
0.0015688 -0.0013837 0.0012513 0.00082689 0.0001559 0.00029427 0.0011279 0.0001378
-0.0028696 -0.012865 0.08054 0.31584
1400000000 0.25232 0.19468 -0.022901 -0.0076739 0.0049726 0.0030011 -0.0020296 0.00063248
0.0024076 0.00078426 0.00023594 -0.0013904
-0.02287 -0.0076675 0.080647 0.35956 -0.014748 0.011869 0.0013083 0.0013486
0.001093 -0.00071918 0.0012397 0.00024788
0.0049978 0.0029789 -0.01471 0.011962 0.35399 0.060441 0.00015708 -0.0014729
7.8449e-06 -0.00033584 0.00034743 0.00020372
-0.0020293 0.00065643 0.0013069 0.0013519 0.00016087 -0.001468 0.16971 0.20837
-0.013047 -0.0095241 -0.00067199 -0.00061309
0.0024241 0.00077475 0.0010792 -0.0007589 9.7191e-06 -0.00033045 -0.01309 -0.0095107
0.096462 0.21159 -0.0092536 -0.0085374
0.00021624 -0.0013876 0.0012335 0.00022655 0.00035381 0.0002023 -0.00071703 -0.00062237
-0.0092262 -0.0085397 0.1248 0.30463
1460000000 0.27482 0.15067 -0.020196 0.0042288 0.0053896 -0.0017058 -0.0015966 0.0017267
0.001963 -0.00056688 -0.00033225 -0.00085638
-0.020179 0.0041989 0.11512 0.33803 -0.0064542 0.014896 0.0017048 0.00022537
0.00092432 -0.0012177 0.0011953 -0.0006202
0.0053815 -0.0017261 -0.0064045 0.014955 0.35997 0.0055665 -0.0011447 -0.0013007
0.00019315 -0.00015159 0.00067198 -0.00034993
-0.0015862 0.0017301 0.001711 0.00021043 -0.0011497 -0.0012874 0.19646 0.1794
-0.014258 -0.0036033 -0.0011112 0.0016439
0.0019643 -0.00055436 0.00092003 -0.0012342 0.00019324 -0.0001437 -0.014266 -0.0035836
0.12574 0.19709 -0.01101 -0.0032883
-0.00031071 -0.00093436 0.0011733 -0.00062611 0.00064955 -0.00037383 -0.001115 0.0016454
-0.011003 -0.0032892 0.15811 0.28318
1520000000 0.28666 0.10892 -0.014816 0.0098195 0.0030582 -0.0040776 5.1142e-05 0.0025885
0.0019257 -0.0015706 -0.0011113 -0.00020328
-0.014812 0.0098031 0.14882 0.32318 0.001075 0.01302 0.0016319 -0.00075119
6.7858e-05 -0.00099526 0.0003194 -0.0010138
0.0030381 -0.0040918 0.0011512 0.01302 0.35257 -0.051162 -0.0010832 -0.00042644
0.00052932 -0.000833 -2.5501e-05 -5.1802e-05
7.6906e-05 0.0025921 0.0016272 -0.00076482 -0.0010887 -0.00040841 0.22002 0.1414
-0.014161 0.0016678 0.0011013 0.0019434
0.0019013 -0.0016153 7.9206e-05 -0.0010025 0.00053123 -0.0008152 -0.014177 0.0017119
0.15334 0.18266 -0.011168 0.00090657
-0.0011365 -0.00017541 0.00030493 -0.001047 -2.3769e-05 -5.7985e-05 0.0011343 0.0018798
-0.011178 0.00091193 0.19117 0.26208
1580000000 0.29561 0.062842 -0.0084194 0.013017 -0.00090366 -0.004584 0.0014045 0.0019058
-0.00029994 -0.0020755 -0.00038807 0.00038941
-0.0084128 0.012997 0.17635 0.2984 0.0048115 0.0084342 0.00053076 -0.0015642
-0.00047972 -0.0010807 -0.00022743 -0.00085718
-0.00091315 -0.0045673 0.0048592 0.0084201 0.33195 -0.10873 -0.0015968 0.00056306
-0.00021009 -0.0011341 0.0001758 -0.00049293
0.0013785 0.0018907 0.00051322 -0.0015712 -0.0015997 0.00058063 0.23443 0.10199
-0.01137 0.0064249 0.0019875 0.00077784
-0.00031224 -0.0020786 -0.00047652 -0.0010704 -0.00019923 -0.0011174 -0.01135 0.00648
0.17768 0.16467 -0.0092409 0.0063774
-0.000426 0.00040915 -0.00023202 -0.0008189 0.00018716 -0.00050573 0.0019655 0.00074595
-0.0092338 0.0063923 0.22281 0.23484
1640000000 0.29751 0.021498 -0.0018852 0.012226 -0.0026111 -0.002537 0.0026343 0.0010214
-0.00067742 -0.0013966 -0.00032739 0.00068545
-0.0018845 0.012222 0.20612 0.27295 0.0056393 0.0038112 -0.00066 -0.0017062
-0.0010176 -0.00043695 -0.00049719 -0.00064545
-0.0026095 -0.0025085 0.0056682 0.0037851 0.3031 -0.15771 -0.00072001 0.0014355
-0.00099012 -0.00094821 -8.1797e-05 -0.00027216
0.0026595 0.0010101 -0.00066614 -0.0016889 -0.00072184 0.0014502 0.24708 0.052602
-0.0075918 0.0080798 0.0023132 -0.00067098
-0.00067773 -0.0013545 -0.0010396 -0.00041615 -0.00099749 -0.0009375 -0.0075826 0.0081118
0.20044 0.13983 -0.0049243 0.0085625
-0.00029348 0.00069471 -0.00050707 -0.00062825 -8.7827e-05 -0.00024284 0.0023248 -0.00068242
-0.0049541 0.008578 0.24809 0.203
1700000000 0.29011 -0.023819 0.001654 0.0097784 -0.0033924 0.00011268 0.0029978 -0.0011808
-0.0019327 -0.00066402 0.00064187 0.00045629
0.0016483 0.0097711 0.22418 0.24098 0.0039222 0.00087524 -0.0013892 -0.00060391
-0.0008042 7.7628e-05 -0.00092186 -0.00043381
-0.0034186 0.00013064 0.0039344 0.00087083 0.25953 -0.19735 0.00050274 0.0016125
-0.0017955 -0.00028415 -0.00051199 -0.00090237
0.0029951 -0.0011977 -0.0013835 -0.00059068 0.00047569 0.0016007 0.2438 0.002146
-0.0049388 0.008974 0.0013494 -0.0020645
-0.0019413 -0.0006646 -0.00079113 8.6663e-05 -0.0018007 -0.00026141 -0.0049193 0.0090036
0.21773 0.11887 -0.00064254 0.0091655
0.00066202 0.00044068 -0.00092138 -0.00044069 -0.0005322 -0.00088541 0.0013654 -0.0020685
-0.00065127 0.0091729 0.26387 0.16817
1760000000 0.27772 -0.072411 0.0042138 0.0066227 -0.0021964 0.00076466 0.0012367 -0.0033698
-0.0013303 0.00056518 0.00042834 -0.00046965
0.0042193 0.006629 0.24997 0.20062 0.0018647 -0.001065 -0.0011726 0.00014394
-0.0010349 0.00090241 -0.00060313 0.00051775
-0.0022051 0.00080266 0.0018541 -0.0010798 0.21096 -0.23048 0.0011536 0.0010669
-0.0011822 0.0013701 -0.0013256 -0.0003152
0.0011879 -0.0034178 -0.00118 0.00014338 0.0011738 0.0010823 0.23418 -0.049572
-0.0015647 0.0085641 -0.00031553 -0.0022747
-0.0013106 0.00055316 -0.0010356 0.000906 -0.0011924 0.0013512 -0.0015588 0.0085325
0.23255 0.083213 0.0031813 0.006888
0.00042734 -0.00051239 -0.00058676 0.00052638 -0.001326 -0.00031127 -0.00028375 -0.0022308
0.0031913 0.0069093 0.27586 0.13007
1820000000 0.25261 -0.10977 0.0046729 0.0030215 2.3781e-05 0.0023897 -0.0009665 -0.0030575
-0.0010093 0.00084049 1.6634e-05 -0.00018338
0.0046695 0.0030219 0.25946 0.17006 -0.00016957 1.3322e-05 -0.001401 0.00086655
1.9802e-06 0.001273 -0.00053176 0.00057351
2.8493e-05 0.0023806 -0.00017459 4.7197e-06 0.16026 -0.24574 0.0014993 0.00033511
-0.0003281 0.0021922 -0.0015187 0.00049466
-0.00098779 -0.0030687 -0.0013818 0.00087051 0.0015301 0.00031233 0.20357 -0.096797
9.2109e-05 0.0070478 -0.0015066 -0.0013623
-0.0010273 0.0008344 8.0992e-06 0.0012663 -0.00029023 0.0022006 8.6698e-05 0.0070592
0.24897 0.052998 0.0043191 0.0038188
-2.3578e-05 -0.0001918 -0.00053085 0.00057059 -0.0015029 0.00050636 -0.0015542 -0.0012968
0.0043229 0.0038043 0.27744 0.093609
1880000000 0.21711 -0.14992 0.0026532 0.00057152 -0.00043257 0.0020382 -0.0029272 -0.0022545
-0.00027419 0.0017287 0.00024921 -0.00056073
0.0026483 0.00056412 0.26329 0.12345 -0.0021882 0.00165 -0.00022466 0.0016765
0.00060708 0.0012517 0.0001876 0.00099194
-0.00041186 0.0020475 -0.0021758 0.0016773 0.10779 -0.25496 0.0018048 -0.00095703
0.0014013 0.001988 -0.00088813 0.0013592
-0.0028964 -0.0022235 -0.00020484 0.0016824 0.00179 -0.00096136 0.1624 -0.13653
0.00082806 0.0051702 -0.0021034 0.00059639
-0.00026733 0.0017147 0.00061405 0.001237 0.0013961 0.0020199 0.00084385 0.0051671
0.2511 0.019488 0.0042928 0.0019851
0.00026418 -0.00056893 0.00017818 0.00097928 -0.00087005 0.0013897 -0.0021118 0.00058833
0.0042747 0.002013 0.27637 0.059715
1940000000 0.17738 -0.17546 0.00044531 -0.0013194 0.0014031 0.0018695 -0.0037596 0.00065792
0.0012646 0.0012358 -0.00069134 -0.00051542
0.000462 -0.0013408 0.26333 0.091592 -0.0010017 0.0039554 0.00093622 0.0013892
0.0018031 0.00046801 0.00084538 0.00034606
0.0014174 0.0018555 -0.0009662 0.0039441 0.06244 -0.24826 0.00040646 -0.0020805
0.0024111 0.00049616 0.00037403 0.0016694
-0.003742 0.00064993 0.00095139 0.0013894 0.00040354 -0.0020785 0.10979 -0.16642
-9.9444e-05 0.0038546 -0.0013486 0.001504
0.0012405 0.0011868 0.0018075 0.00044711 0.0024098 0.00051421 -0.00011055 0.0038902
0.25194 -0.020733 0.0034084 -0.0013903
-0.00072423 -0.00048967 0.00086274 0.00033494 0.00039971 0.0016843 -0.0013086 0.0015572
0.0033924 -0.001394 0.26489 0.023755
2000000000 0.13058 -0.18977 -0.0036409 0.00055875 0.0023766 0.0013934 -0.0023645 0.0036489
0.0011553 0.00026864 -0.00066505 0.00044717
-0.0036049 0.00051989 0.2485 0.056293 -0.00066437 0.0056799 0.0016476 0.0005279
0.0012575 -0.0012933 0.00047952 8.7731e-05
0.0024022 0.0013166 -0.00062317 0.0056794 0.018883 -0.23364 -0.0013152 -0.0013139
0.0020151 -0.0011416 0.0016171 0.0011628
-0.0023363 0.0036268 0.0016566 0.00050018 -0.0013587 -0.0013319 0.056252 -0.17553
-0.0015257 0.0038793 0.00013481 0.0021791
0.001129 0.00021534 0.0012328 -0.0013108 0.0019949 -0.0011493 -0.0014977 0.0038784
0.24409 -0.055419 0.00060863 -0.0022433
