!Keysight Technologies,M9804A,MY58100912,A.14.10.03
!Date: Thursday, April 27, 2023 10:28:33
!Correction: S11(C  6-Port  ) 
!S12(C  6-Port  ) 
!S13(C  6-Port  ) 
!S14(C  6-Port  ) 
!S15(C  6-Port  ) 
!S16(C  6-Port  ) 
!S21(C  6-Port  ) 
!S22(C  6-Port  ) 
!S23(C  6-Port  ) 
!S24(C  6-Port  ) 
!S25(C  6-Port  ) 
!S26(C  6-Port  ) 
!S31(C  6-Port  ) 
!S32(C  6-Port  ) 
!S33(C  6-Port  ) 
!S34(C  6-Port  ) 
!S35(C  6-Port  ) 
!S36(C  6-Port  ) 
!S41(C  6-Port  ) 
!S42(C  6-Port  ) 
!S43(C  6-Port  ) 
!S44(C  6-Port  ) 
!S45(C  6-Port  ) 
!S46(C  6-Port  ) 
!S51(C  6-Port  ) 
!S52(C  6-Port  ) 
!S53(C  6-Port  ) 
!S54(C  6-Port  ) 
!S55(C  6-Port  ) 
!S56(C  6-Port  ) 
!S61(C  6-Port  ) 
!S62(C  6-Port  ) 
!S63(C  6-Port  ) 
!S64(C  6-Port  ) 
!S65(C  6-Port  ) 
!S66(C  6-Port  ) 
!S6P File: Measurement: :
# Hz S  RI   R 50
500000000 -0.33792 -0.0373 -0.01026 -0.0033834 -0.0076047 0.012092 -0.0047425 0.011163
0.01233 0.0041583 -0.0047506 0.0078632
-0.010167 -0.003338 -0.41864 -0.050953 0.0078694 -0.01109 0.0022801 0.011399
0.0080052 0.0024099 0.0015713 0.012486
-0.0075983 0.012095 0.0078104 -0.011251 -0.2653 0.21057 0.00714 0.0032635
-0.00051976 0.0086701 0.00078594 0.011721
-0.0041583 0.011806 0.0014584 0.011694 0.0068609 0.0033883 -0.32894 0.044773
-0.020128 -0.0053016 0.017358 0.025785
0.011959 0.0037121 0.0079511 0.0019888 -0.00056076 0.0086016 -0.019542 -0.0053384
-0.22601 -0.1873 -0.027811 0.0036716
-0.004381 0.0078645 0.0013531 0.012713 0.00074322 0.012138 0.018741 0.02412
-0.027332 0.0041104 -0.27212 -0.11857
560000000 -0.31597 0.12332 -0.023719 -0.062871 0.00014693 0.012329 0.0064517 0.010411
0.011408 0.0033392 0.010354 0.0087926
-0.023669 -0.062794 -0.37608 0.10718 -0.041587 -0.036856 0.013708 0.0036133
-0.013669 -0.0045832 0.004694 -0.0011038
0.00022141 0.01241 -0.041978 -0.036779 -0.18327 0.25863 -0.00026796 -0.0039539
0.018537 0.0052202 0.0070445 -0.0058649
0.0066053 0.010082 0.013987 0.0038333 -0.00050274 -0.004279 -0.30384 0.13505
0.0029192 -0.025338 0.0053161 -0.020049
0.010994 0.0037287 -0.013635 -0.0042366 0.019372 0.0044912 0.004449 -0.024881
-0.28734 -0.011084 0.0075564 -0.051811
0.011008 0.0079936 0.0045062 -0.001238 0.0070697 -0.0054496 0.005346 -0.019119
0.007083 -0.0515 -0.32897 0.029127
620000000 -0.27472 0.10859 -0.02267 0.0076598 0.0035482 0.0085033 0.007038 -0.0052002
0.010888 -0.00053442 0.00077592 -0.0027223
-0.022607 0.0076754 -0.40263 0.061028 -0.01872 -0.00020518 -0.0012507 -0.0017986
0.010531 -0.0070676 0.00099944 -0.0030984
0.0033358 0.0083473 -0.018731 -0.0001188 -0.15322 0.26726 -0.0015783 -0.0051465
-0.0033649 -0.0030689 0.0081228 -0.0034483
0.006791 -0.005391 -0.0013819 -0.0017693 -0.0012313 -0.0050787 -0.26399 0.14621
-0.039115 -0.018573 0.014946 0.025592
0.0117 -0.00015529 0.010728 -0.007126 -0.0039271 -0.0031509 -0.03846 -0.018023
-0.20715 -0.051493 -0.040224 0.013264
-0.00022525 -0.0026981 0.00098178 -0.0027923 0.0082194 -0.0035124 0.013496 0.024976
-0.040728 0.014318 -0.24856 -0.0057414
680000000 -0.23404 0.19394 -0.027414 -0.014102 0.0048867 0.0049434 0.001438 -0.0077026
-0.0025377 -0.010873 0.0050667 -0.0074672
-0.027348 -0.014007 -0.38767 0.1585 -0.032593 -0.0014397 -0.0012841 -0.00026496
-0.0024363 -0.0086786 -0.000536 -0.0023146
0.0048355 0.00491 -0.032617 -0.0013704 -0.10207 0.28727 -0.00089314 0.00020192
-0.0019045 0.00070926 -0.0026757 -0.0092919
0.0015085 -0.0073331 -0.0014793 -0.0002114 -0.00074758 0.00013723 -0.22015 0.19504
-0.024157 -0.0079176 -0.0099618 -0.010496
-0.0028041 -0.011355 -0.0025085 -0.0088186 -0.0020481 0.00066796 -0.024547 -0.0081435
-0.2558 0.048195 -0.0054967 -0.0090069
0.0048933 -0.0069538 -0.001056 -0.0019991 -0.0026764 -0.0093065 -0.0091451 -0.010732
-0.0057986 -0.0092757 -0.26004 0.094137
740000000 -0.18971 0.1884 -0.038552 0.026207 0.01242 -0.0050289 -0.00081262 -0.0040735
-0.0039035 -0.0029907 -0.0064072 0.0031224
-0.038528 0.026176 -0.33506 0.17761 -0.034972 0.034595 -0.00069557 -0.0058864
-0.012183 0.0078374 -0.0021717 -0.0057949
0.012385 -0.005149 -0.034834 0.034782 -0.068103 0.28589 -0.0021674 0.0030553
-0.0028393 -0.0043066 -0.0013909 0.00076129
-0.00069748 -0.0040682 -0.00066707 -0.006183 -0.0017126 0.0030541 -0.20344 0.20404
-0.042653 -0.0079014 0.022791 0.013852
-0.0039618 -0.0031046 -0.011379 0.0074516 -0.0028022 -0.0044337 -0.042732 -0.0085416
-0.16039 0.074283 -0.042109 0.00065699
-0.006568 0.0033391 -0.0026702 -0.0057813 -0.0012251 0.00020457 0.021265 0.014619
-0.041729 -6.2025e-06 -0.24589 0.10279
800000000 -0.1572 0.22827 -0.022291 0.016548 0.0050792 -0.010442 -0.0046749 -0.002101
-0.0039644 0.002411 0.0042586 0.0007643
-0.022329 0.016549 -0.33767 0.24764 -0.0078289 0.033824 -0.0021415 0.0022882
-0.00080838 0.0031652 0.0011282 0.0051532
0.0050666 -0.01052 -0.0077416 0.033876 -0.027265 0.3087 0.0011134 0.0014417
0.00049311 0.0036537 -0.0019225 0.00093992
-0.0045937 -0.0019745 -0.0021712 0.0023252 0.0010153 0.0015427 -0.17471 0.23099
-0.028073 0.013031 0.013088 -0.0096785
-0.0040542 0.0022239 -0.00070809 0.0030143 0.00060896 0.0035847 -0.027994 0.013002
-0.20347 0.097678 -0.016998 0.017793
0.0044598 0.00096251 0.0011035 0.0053147 -0.001934 0.0010135 0.01339 -0.0099291
-0.017163 0.017811 -0.24038 0.15272
860000000 -0.12222 0.24891 -0.017403 0.030905 -0.0034237 -0.0096518 -0.0021033 0.0014282
0.0039474 0.0049737 -0.0030213 -0.0025912
-0.017371 0.030885 -0.28983 0.28983 0.0079505 0.033932 9.4871e-05 0.0023214
0.0038979 0.00038996 0.0035158 0.00037013
-0.0034496 -0.0096415 0.0080557 0.033933 0.021025 0.31638 -0.00052526 -0.00015698
0.0026959 -0.00127 0.0014951 0.0042856
-0.0023248 0.0012969 5.6621e-05 0.002221 -0.0005207 -0.00016459 -0.13825 0.24242
-0.017601 0.019033 -0.0064027 -0.0086343
0.0038072 0.0048213 0.0038759 0.00046655 0.0026862 -0.0013734 -0.017466 0.019074
-0.15211 0.14653 -0.02468 0.01502
-0.0033795 -0.0026184 0.003154 0.00042305 0.0013896 0.0043345 -0.0068284 -0.008565
-0.024691 0.014985 -0.18866 0.19466
920000000 -0.097213 0.27166 0.0051233 0.037488 -0.0092195 -0.0042658 -0.0018171 0.002142
0.001197 0.0015859 0.0022635 -0.001267
0.0050715 0.037415 -0.26068 0.31031 0.027815 0.021633 0.0016756 0.0010905
0.0067791 -0.00067602 0.0037502 -0.0027888
-0.0092536 -0.0042113 0.027951 0.021586 0.067177 0.31668 0.0018645 -0.00012401
0.0012204 -0.00031231 0.0008575 -0.0010907
-0.0018368 0.0021469 0.0015779 0.0011396 0.0018706 -0.00012846 -0.11417 0.25849
-0.010485 0.030453 0.0030969 -0.0062335
0.0012779 0.0015301 0.0069276 -0.0006962 0.0012129 -0.00031135 -0.010522 0.030583
-0.1417 0.15222 -0.0024892 0.027138
0.0024751 -0.0014276 0.0037917 -0.0027404 0.00084702 -0.0010588 0.0035115 -0.0064862
-0.0024408 0.0272 -0.19531 0.2104
980000000 -0.049848 0.29095 0.017448 0.029718 -0.008733 0.0046201 0.0021237 0.0037275
0.0040181 -0.0016006 -0.0030548 -0.0019485
0.017402 0.029685 -0.20785 0.34406 0.032602 0.0046991 0.0019594 8.2846e-05
0.0014107 -0.0060932 -0.00063711 -0.002082
-0.0087205 0.0046632 0.032663 0.0045935 0.11335 0.30983 0.00048141 -0.0011857
0.00017331 -0.0020368 0.0015109 7.3106e-05
0.0022346 0.0037406 0.001939 5.9185e-05 0.00051861 -0.0011686 -0.076159 0.27012
0.007493 0.029061 -0.0089922 -0.0065635
0.0040141 -0.0016756 0.001391 -0.0062434 0.00022824 -0.0021116 0.0074176 0.029106
-0.10958 0.18001 0.0049914 0.018547
-0.0031674 -0.0020702 -0.00074736 -0.0020903 0.0014296 -8.1876e-06 -0.0092586 -0.0064833
0.0049932 0.018798 -0.15281 0.25457
1040000000 -0.0075071 0.29899 0.032995 0.017964 -0.0011341 0.0068143 0.0027577 0.00068948
0.00011543 -0.0036668 -0.00035325 -0.0014813
0.032931 0.017937 -0.17233 0.35703 0.028876 -0.014579 0.0014862 -0.00164
-0.0024774 -0.0023486 -0.0013781 -0.0026831
-0.0010922 0.0068219 0.02884 -0.014671 0.15923 0.29588 -0.00046777 -0.0014814
-0.0014407 -0.00093462 -0.00042996 -0.0010615
0.0026637 0.00076147 0.0014895 -0.0016523 -0.00044216 -0.001454 -0.048417 0.28007
0.018678 0.017689 -0.0025943 0.0018737
0.0001135 -0.003649 -0.0024344 -0.0024052 -0.0014493 -0.00087574 0.018644 0.017606
-0.077506 0.18787 0.01346 0.018034
-0.00047207 -0.0015359 -0.0013771 -0.002643 -0.00038338 -0.0011104 -0.0025185 0.0019308
0.013401 0.018085 -0.13068 0.27407
1100000000 0.037909 0.30635 0.035461 -0.0042271 0.002918 0.0037416 0.0024783 -0.0013025
-0.0021008 -0.0030912 -0.0038456 0.00020948
0.035428 -0.0042012 -0.12885 0.37385 0.014928 -0.027286 -3.232e-06 -0.001834
-0.0032227 -0.00063238 -0.0031898 -0.00060475
0.0029238 0.0037294 0.014823 -0.027367 0.20509 0.27556 -0.0017712 0.00018477
-0.0017669 0.00052083 -0.00093848 -0.00035946
0.0024723 -0.0013219 -1.2265e-05 -0.001789 -0.0017755 0.00016443 -0.0081024 0.28502
0.023375 0.0052127 -0.002259 0.00068661
-0.002157 -0.0031157 -0.0032669 -0.00065096 -0.0017686 0.0005195 0.023433 0.0051629
-0.058871 0.20126 0.018726 0.0084602
-0.0038412 0.00015952 -0.0033684 -0.00052633 -0.00091393 -0.00031448 -0.0024669 0.00065285
0.018637 0.0085898 -0.083712 0.30275
1160000000 0.089211 0.30105 0.023662 -0.020364 0.0027103 -0.00051337 -0.00019124 -0.0025118
-0.0040371 -0.00055198 -0.00077078 0.0036665
0.023642 -0.020338 -0.085256 0.37766 -0.0035007 -0.028578 -0.001667 -0.001642
-0.0025945 0.0024729 -0.0011601 0.0016888
0.0027289 -0.00052863 -0.0036403 -0.02859 0.24793 0.24499 -0.00070902 0.0016777
-0.00050918 0.0017742 -0.00092642 7.3809e-05
-0.00017174 -0.0024968 -0.0017154 -0.0016244 -0.00071646 0.0016907 0.031236 0.28191
0.020038 -0.0097162 -0.0027206 0.0053162
-0.0040745 -0.00053617 -0.0025766 0.0024724 -0.00055863 0.0017876 0.020029 -0.0097238
-0.025298 0.20966 0.017553 0.00070598
-0.0006695 0.0036999 -0.0011636 0.0016609 -0.00092096 3.0337e-05 -0.002542 0.0053744
0.017179 0.00064615 -0.037213 0.30433
1220000000 0.13339 0.28944 0.010327 -0.029494 -0.0015436 -0.00087924 -8.1926e-05 -0.00099049
-0.0026175 0.0024186 0.0012323 0.0018687
0.010332 -0.029478 -0.04136 0.38941 -0.016437 -0.020864 -0.0024624 0.00040331
0.00012039 0.0028183 -0.00077302 0.0017652
-0.0015383 -0.00087573 -0.016556 -0.0208 0.28709 0.20629 0.00073798 0.0016371
0.00053871 0.0012417 0.00018612 0.00066591
-2.2832e-05 -0.00098249 -0.0024527 0.00041906 0.0007597 0.0016427 0.070924 0.27345
0.010164 -0.015912 0.0024256 0.0014274
-0.0026278 0.0024354 0.00012773 0.0028159 0.00052803 0.001205 0.010129 -0.015905
-0.0022573 0.21816 0.013618 -0.011901
0.0012561 0.0018871 -0.00077934 0.0017497 0.00018841 0.00062784 0.0023744 0.0014944
0.013714 -0.011983 -0.0051526 0.32016
1280000000 0.18275 0.26706 -0.0075634 -0.028004 -0.0017868 0.0024427 -0.001022 -0.0019985
-0.00075122 0.0029886 0.0024281 0.0010998
-0.0075412 -0.027987 0.0041493 0.38044 -0.023138 -0.0085434 -0.0010465 0.0013913
0.0015729 0.0017444 0.00047343 0.0019353
-0.0017766 0.0024626 -0.023199 -0.0084396 0.31809 0.16259 0.0013668 -0.0001125
0.0009836 0.00015562 0.00028716 0.00025804
-0.00096928 -0.0019563 -0.0010486 0.0014002 0.0013768 -0.000124 0.10749 0.2573
0.0012306 -0.018004 0.00015792 0.00017419
-0.00074151 0.0030122 0.0015811 0.0017056 0.0010412 0.00010444 0.0012082 -0.017949
0.034522 0.22155 0.0031607 -0.014205
0.002446 0.0010488 0.00047826 0.0019196 0.00020645 0.0002757 0.00020751 0.00012007
0.003185 -0.01421 0.041945 0.32088
1340000000 0.21947 0.23317 -0.017134 -0.018823 0.00083642 0.0043126 -0.0018086 -0.000839
0.0013267 0.0026264 0.0016824 -0.0013627
-0.017114 -0.01883 0.043454 0.3724 -0.021251 0.0038733 -0.0001472 0.0019598
0.0017515 0.00079411 0.001254 0.00081538
0.00085918 0.0042734 -0.021254 0.0039712 0.34049 0.11455 0.0010714 -0.00084526
0.00061562 -0.0003454 0.00017926 0.00027238
-0.0018033 -0.00081628 -0.00016581 0.0019588 0.0010362 -0.00084182 0.14034 0.23698
-0.0073611 -0.015548 0.0011489 3.0673e-05
0.0014277 0.002604 0.0017752 0.00078095 0.00061061 -0.00035388 -0.007417 -0.015539
0.064463 0.21639 -0.0029338 -0.013037
0.001647 -0.0014168 0.001286 0.00081092 0.00014814 0.0002451 0.0011257 9.3362e-05
-0.0029086 -0.013057 0.080657 0.31591
1400000000 0.25199 0.19485 -0.022874 -0.0076497 0.0049894 0.0029922 -0.0020318 0.00064428
0.0023588 0.00074887 0.00021081 -0.0013408
-0.02284 -0.0076696 0.080495 0.35957 -0.014757 0.011876 0.001279 0.0013679
0.0011277 -0.00075571 0.0011826 0.00020872
0.0050093 0.0029828 -0.014707 0.011967 0.3539 0.060593 0.00014872 -0.0014498
5.344e-05 -0.00034808 0.00031934 0.00020415
-0.0020326 0.00063519 0.0013105 0.0013506 0.0001418 -0.0014751 0.16981 0.20839
-0.01309 -0.0096118 -0.00071949 -0.00056826
0.0024298 0.00079274 0.0011095 -0.00072954 3.2034e-05 -0.000344 -0.013034 -0.0095788
0.096865 0.21144 -0.0092269 -0.008698
0.00019645 -0.0014114 0.0012299 0.0002342 0.00034595 0.00018962 -0.0007357 -0.00069635
-0.0091662 -0.0086411 0.12469 0.30459
1460000000 0.27445 0.15095 -0.020166 0.0042328 0.0054114 -0.00171 -0.0015789 0.0017245
0.0019229 -0.00054783 -0.00035751 -0.00089086
-0.020145 0.0042082 0.11491 0.33807 -0.00646 0.014897 0.0016856 0.00020696
0.00095174 -0.0012188 0.0011987 -0.00066267
0.0054113 -0.0017441 -0.0063775 0.014951 0.35985 0.0056779 -0.0011799 -0.0012729
0.00022045 -0.00018689 0.00060533 -0.00035482
-0.0015741 0.0017338 0.0017107 0.00020615 -0.0011515 -0.0012639 0.19655 0.17936
-0.014321 -0.0036901 -0.0011172 0.0016827
0.0019666 -0.00055709 0.00091504 -0.0012664 0.00023856 -0.00016917 -0.014355 -0.003632
0.12591 0.1967 -0.01103 -0.003346
-0.00032767 -0.00086419 0.001177 -0.0005824 0.00062216 -0.00036934 -0.0010813 0.0016999
-0.011022 -0.0034026 0.15812 0.28323
1520000000 0.28644 0.10942 -0.014785 0.0098175 0.0030575 -0.0040995 6.3916e-05 0.0025858
0.0018741 -0.0015488 -0.001089 -0.0001161
-0.01478 0.0097988 0.14866 0.32327 0.0010815 0.013007 0.0016137 -0.00076164
6.9697e-05 -0.0010259 0.0003049 -0.0009875
0.0030439 -0.0041012 0.0011574 0.013029 0.35255 -0.050987 -0.0010709 -0.00037309
0.00055442 -0.00084349 -6.7633e-05 -2.4631e-05
6.333e-05 0.0025781 0.0016286 -0.0007715 -0.0010644 -0.00040291 0.22005 0.14133
-0.014232 0.00162 0.0010968 0.0018717
0.001924 -0.0015725 5.8182e-05 -0.0010055 0.0005544 -0.0008583 -0.01424 0.0016994
0.15344 0.18213 -0.011302 0.00082864
-0.0011302 -0.00020186 0.00029143 -0.0010191 -1.3977e-05 -2.803e-05 0.0011746 0.0018385
-0.011303 0.00084008 0.19123 0.26195
1580000000 0.29554 0.06329 -0.008384 0.01302 -0.00090214 -0.0045867 0.001386 0.0018801
-0.00025103 -0.0020486 -0.00038505 0.00040702
-0.0083963 0.012989 0.17621 0.29848 0.004815 0.008441 0.00053392 -0.001572
-0.00045311 -0.0010847 -0.00021017 -0.0008872
-0.00090822 -0.0045563 0.0048761 0.0084275 0.33194 -0.10863 -0.0015884 0.00057312
-0.00019167 -0.0011502 0.00017423 -0.00050187
0.0013902 0.0018925 0.00051193 -0.0015738 -0.0015946 0.00057551 0.23438 0.10192
-0.011513 0.0064666 0.0019872 0.00082099
-0.0002978 -0.0020549 -0.00050746 -0.0010644 -0.00018574 -0.0011669 -0.01148 0.0064845
0.17746 0.16402 -0.0093977 0.0065123
-0.00038718 0.00039387 -0.0002046 -0.00084623 0.00013236 -0.0004663 0.0019139 0.00081549
-0.0094686 0.0063859 0.22277 0.23484
1640000000 0.29759 0.021899 -0.0018667 0.012213 -0.0026047 -0.0025414 0.0026503 0.0010391
-0.0006692 -0.0013839 -0.0003186 0.00070062
-0.0018702 0.012193 0.20593 0.27307 0.0056398 0.0037997 -0.00066431 -0.0016789
-0.0010378 -0.00042939 -0.00051061 -0.00063416
-0.0026055 -0.0025236 0.0056624 0.0037827 0.30311 -0.15756 -0.00075649 0.0014848
-0.0009953 -0.00095953 -6.9205e-05 -0.0002671
0.0026363 0.0010227 -0.0006682 -0.0017017 -0.00072314 0.0014699 0.24697 0.052598
-0.0076605 0.008125 0.0022345 -0.00064884
-0.00065422 -0.0014268 -0.0010365 -0.00042912 -0.001009 -0.00096137 -0.0076615 0.0081595
0.20008 0.13939 -0.00513 0.008558
-0.00032707 0.00066761 -0.00048347 -0.00065611 -8.4525e-05 -0.0002186 0.0023002 -0.00070008
-0.0050672 0.0085799 0.24802 0.20293
1700000000 0.29033 -0.023528 0.0016545 0.0097569 -0.0034483 0.00012916 0.0030329 -0.0011942
-0.0019275 -0.00069433 0.00064443 0.00043207
0.0016374 0.009744 0.22403 0.24108 0.003912 0.00086514 -0.0013869 -0.00059147
-0.00077389 9.5112e-05 -0.00093268 -0.0004618
-0.0034316 0.00013987 0.0039208 0.000863 0.25965 -0.19719 0.00048547 0.0016197
-0.0017975 -0.00023812 -0.00051235 -0.0009013
0.0029975 -0.0011822 -0.0013835 -0.00057976 0.00048557 0.0016171 0.2437 0.0022009
-0.0049898 0.00912 0.0013473 -0.0020156
-0.0019748 -0.00070187 -0.00080303 8.8426e-05 -0.0018214 -0.00029859 -0.0049748 0.0091394
0.21709 0.11864 -0.00068864 0.0092794
0.00064478 0.00044353 -0.00091909 -0.00043624 -0.0005314 -0.00085616 0.001376 -0.0020276
-0.00071158 0.0092663 0.26384 0.16817
1760000000 0.27786 -0.072272 0.0042198 0.006588 -0.0021987 0.00079537 0.0012253 -0.003422
-0.0013654 0.00053776 0.00045011 -0.00052456
0.0042027 0.0065887 0.24983 0.20073 0.0018548 -0.0010597 -0.001188 0.0001263
-0.001052 0.00091036 -0.00062245 0.00049338
-0.0021924 0.00079435 0.0018484 -0.0010609 0.211 -0.23038 0.0011652 0.001104
-0.0012395 0.0014135 -0.0013017 -0.00034367
0.00123 -0.0033919 -0.0011727 0.00013178 0.0012008 0.0011045 0.23407 -0.049512
-0.0016239 0.0086652 -0.00035131 -0.0022734
-0.0013383 0.0005808 -0.0010098 0.00092361 -0.0011755 0.0013948 -0.0016163 0.0086825
0.23166 0.083113 0.0031342 0.0070608
0.00042327 -0.00053326 -0.00060454 0.00049546 -0.0013121 -0.00032739 -0.00030755 -0.00221
0.0031187 0.0071196 0.27592 0.13003
1820000000 0.25274 -0.10969 0.0046516 0.0029916 1.0845e-05 0.002408 -0.00097786 -0.0030512
-0.0010652 0.00085409 -2.724e-06 -0.00023771
0.0046393 0.0030076 0.25932 0.1702 -0.00017884 1.99e-06 -0.0013759 0.00084927
2.7075e-06 0.0012588 -0.00051379 0.00054353
2.9439e-05 0.0024117 -0.00015439 4.4185e-06 0.16037 -0.24563 0.001603 0.00031367
-0.0002989 0.0022434 -0.0014703 0.00055053
-0.00097138 -0.0030858 -0.0013762 0.00086424 0.0015416 0.00031637 0.20345 -0.096622
2.0931e-05 0.0071908 -0.001522 -0.0012099
-0.0010044 0.00083408 4.1591e-05 0.0012712 -0.00028099 0.002227 3.5855e-05 0.0072108
0.24822 0.05312 0.0042433 0.0039764
-1.5118e-05 -0.000201 -0.0005163 0.00056625 -0.0014976 0.00048058 -0.0015876 -0.0012343
0.0042243 0.0039189 0.27731 0.09367
1880000000 0.21717 -0.14988 0.0026322 0.00054256 -0.00042226 0.0020813 -0.0029456 -0.0022777
-0.00022629 0.0016633 0.00027092 -0.000588
0.0026274 0.0005508 0.26319 0.1236 -0.0021893 0.0016646 -0.00020267 0.0016896
0.00062572 0.0012051 0.00020248 0.00098776
-0.00040124 0.0020241 -0.002159 0.0016788 0.10795 -0.25494 0.0018321 -0.00095187
0.0013896 0.0019818 -0.00084477 0.0013771
-0.0029673 -0.0022236 -0.00019889 0.0016929 0.0018255 -0.001039 0.16235 -0.13641
0.00089858 0.0052339 -0.0021377 0.00049961
-0.00024922 0.0017189 0.00062967 0.0012355 0.0014398 0.0019714 0.00092935 0.005225
0.25051 0.019921 0.0043618 0.0019727
0.00020641 -0.00060101 0.00017581 0.00099424 -0.00089094 0.0013568 -0.0021827 0.00051792
0.0044032 0.0020218 0.27646 0.059754
1940000000 0.17736 -0.17526 0.00045076 -0.0013113 0.0013936 0.0019125 -0.0037606 0.00062382
0.0013052 0.0012577 -0.0006905 -0.00053462
0.00044323 -0.0013043 0.26326 0.091765 -0.0010006 0.0039456 0.00091708 0.0014204
0.0017798 0.00042692 0.00087121 0.00031699
0.0014108 0.001858 -0.00097281 0.003945 0.062488 -0.24824 0.00041754 -0.0020634
0.0024157 0.00048225 0.00037298 0.0017496
-0.0037536 0.00066598 0.00090675 0.0014002 0.00036804 -0.0021049 0.10968 -0.16644
8.9791e-05 0.0038262 -0.0012772 0.0015346
0.0013114 0.0012495 0.0017819 0.00039896 0.0023786 0.00048017 7.6157e-05 0.0038227
0.25161 -0.020068 0.0035304 -0.0013166
-0.00067908 -0.00055131 0.00083066 0.00033331 0.00036078 0.0017202 -0.0012941 0.001427
0.0035034 -0.0013654 0.26478 0.023582
2000000000 0.13072 -0.18954 -0.0036033 0.00055899 0.002356 0.0013984 -0.0023675 0.0035197
0.0011621 0.00016587 -0.00062805 0.00045437
-0.0036093 0.00057499 0.24845 0.056472 -0.00067345 0.0056993 0.0016143 0.00045377
0.0012217 -0.0013046 0.00047846 0.0001107
0.0023588 0.0013941 -0.00062158 0.0057001 0.019026 -0.23364 -0.0013615 -0.0012752
0.0019576 -0.0011349 0.0015696 0.0012085
-0.0023372 0.0036158 0.0016359 0.00051606 -0.0013641 -0.0013412 0.056364 -0.17552
-0.0013675 0.0039075 0.00014299 0.0019663
0.001175 0.00021425 0.0011907 -0.0012839 0.0020197 -0.0011546 -0.0013349 0.0038878
0.24395 -0.054629 0.00072507 -0.0022616
