!Keysight Technologies,M9804A,MY58100912,A.14.10.03
!Date: Thursday, April 27, 2023 10:28:33
!Correction: S11(C  6-Port  ) 
!S12(C  6-Port  ) 
!S13(C  6-Port  ) 
!S14(C  6-Port  ) 
!S15(C  6-Port  ) 
!S16(C  6-Port  ) 
!S21(C  6-Port  ) 
!S22(C  6-Port  ) 
!S23(C  6-Port  ) 
!S24(C  6-Port  ) 
!S25(C  6-Port  ) 
!S26(C  6-Port  ) 
!S31(C  6-Port  ) 
!S32(C  6-Port  ) 
!S33(C  6-Port  ) 
!S34(C  6-Port  ) 
!S35(C  6-Port  ) 
!S36(C  6-Port  ) 
!S41(C  6-Port  ) 
!S42(C  6-Port  ) 
!S43(C  6-Port  ) 
!S44(C  6-Port  ) 
!S45(C  6-Port  ) 
!S46(C  6-Port  ) 
!S51(C  6-Port  ) 
!S52(C  6-Port  ) 
!S53(C  6-Port  ) 
!S54(C  6-Port  ) 
!S55(C  6-Port  ) 
!S56(C  6-Port  ) 
!S61(C  6-Port  ) 
!S62(C  6-Port  ) 
!S63(C  6-Port  ) 
!S64(C  6-Port  ) 
!S65(C  6-Port  ) 
!S66(C  6-Port  ) 
!S6P File: Measurement: :
# Hz S  RI   R 50
500000000 -0.33856 -0.036858 -0.010738 -0.0027139 -0.0077619 0.012645 -0.0037293 0.01239
0.011437 0.0041493 -0.0043793 0.0095452
-0.01058 -0.0027498 -0.41851 -0.050595 0.0076834 -0.011572 0.0024765 0.012155
0.0079148 0.0024685 0.0017614 0.013887
-0.0076152 0.012569 0.0076157 -0.011493 -0.26547 0.2104 0.0072319 0.0033242
-0.00021671 0.0083552 0.00085976 0.012681
-0.0035449 0.01219 0.0024034 0.011745 0.0071117 0.0031316 -0.3287 0.045308
-0.019295 -0.0051588 0.018611 0.025151
0.01126 0.0043976 0.0076576 0.0026276 -0.00041169 0.0084882 -0.019513 -0.0051109
-0.22784 -0.18737 -0.027772 0.0044168
-0.0039453 0.0089523 0.0023362 0.013277 0.0010993 0.011878 0.018365 0.025374
-0.026649 0.0043563 -0.27056 -0.11812
560000000 -0.31681 0.12506 -0.023338 -0.063054 0.00015616 0.012399 0.0071182 0.010274
0.011277 0.0035005 0.0098497 0.0070161
-0.023431 -0.06264 -0.37606 0.10695 -0.041658 -0.036862 0.014051 0.0037188
-0.013243 -0.0040072 0.0045894 -0.0018967
0.0003191 0.01251 -0.041741 -0.036832 -0.18319 0.25797 -0.00055086 -0.004237
0.018655 0.0039218 0.0066542 -0.0057627
0.0061757 0.0097392 0.013815 0.0038062 -0.00042797 -0.0042221 -0.30441 0.13495
0.0032457 -0.023729 0.0053717 -0.019784
0.01115 0.0035117 -0.01363 -0.0039947 0.018713 0.003644 0.0033022 -0.023863
-0.28731 -0.011544 0.0086996 -0.04976
0.0095209 0.0077153 0.0039918 -0.0019174 0.0070675 -0.0062125 0.0050035 -0.020329
0.008094 -0.049237 -0.32881 0.028329
620000000 -0.27557 0.10884 -0.022504 0.0076145 0.003473 0.0087578 0.0067725 -0.0048244
0.012781 0.00065194 2.8351e-05 -0.0017823
-0.0226 0.0076599 -0.40253 0.061111 -0.01857 -0.00022395 -0.001201 -0.0018236
0.010607 -0.0072336 0.0012104 -0.0028156
0.0035538 0.0088456 -0.018548 -0.00016038 -0.15302 0.26732 -0.0010313 -0.0052121
-0.0039074 -0.0034704 0.0084402 -0.0034768
0.0067213 -0.004518 -0.0012448 -0.0017806 -0.0010306 -0.0049931 -0.26326 0.14551
-0.038954 -0.01914 0.013248 0.024712
0.012798 -0.0003456 0.010835 -0.0071926 -0.0042158 -0.0034517 -0.039295 -0.018862
-0.20732 -0.050373 -0.040961 0.014469
8.6748e-05 -0.0018882 0.0012312 -0.0029664 0.0086409 -0.0036518 0.014047 0.024277
-0.040621 0.014805 -0.25077 -0.0078042
680000000 -0.23371 0.194 -0.027505 -0.014114 0.0047494 0.0047915 0.0020514 -0.008295
-0.0032499 -0.011053 0.0047913 -0.0074972
-0.027561 -0.014216 -0.38777 0.15857 -0.032714 -0.0015255 -0.0014985 -0.00049012
-0.0024529 -0.0086419 -0.0011963 -0.0022327
0.0045496 0.0046484 -0.032785 -0.0014663 -0.10225 0.28733 -0.0010581 -0.0001098
-0.0019172 0.0010598 -0.0031548 -0.0097005
0.0016929 -0.0078455 -0.001526 -0.00037657 -0.0010925 -0.00021226 -0.22004 0.19689
-0.024104 -0.0076998 -0.0084001 -0.010841
-0.002886 -0.01113 -0.00254 -0.0086753 -0.0019553 0.0010082 -0.02397 -0.0077788
-0.25508 0.048168 -0.0060414 -0.0094576
0.004557 -0.0074934 -0.0013949 -0.0019758 -0.0034047 -0.0094559 -0.0084259 -0.010586
-0.0063563 -0.0092556 -0.25848 0.093841
740000000 -0.18942 0.18858 -0.038416 0.026014 0.012878 -0.0050635 -0.0005703 -0.0041946
-0.0045379 -0.0030435 -0.0061624 0.0029271
-0.038457 0.026068 -0.33498 0.17772 -0.034911 0.034708 -0.00042917 -0.0059431
-0.011394 0.0075868 -0.0024744 -0.0056188
0.012901 -0.0050378 -0.034862 0.034801 -0.067931 0.28579 -0.0018971 0.0032765
-0.0023676 -0.0042277 -0.0018306 0.00029792
-0.00086176 -0.0042111 -0.00053648 -0.0059347 -0.0018651 0.003298 -0.20333 0.20368
-0.042887 -0.0084076 0.021628 0.014048
-0.0043466 -0.0028084 -0.011711 0.0073343 -0.0023786 -0.0042842 -0.04298 -0.0081652
-0.16005 0.074888 -0.041263 0.00043599
-0.0059589 0.0029031 -0.0024443 -0.0056966 -0.0015926 0.00012423 0.021908 0.014105
-0.041257 0.00081486 -0.24866 0.10173
800000000 -0.15678 0.22864 -0.022441 0.016637 0.0049388 -0.010317 -0.0049647 -0.0023748
-0.004365 0.0023601 0.0039099 0.0012051
-0.022482 0.016617 -0.33769 0.24789 -0.0079522 0.033877 -0.00233 0.0021208
-0.0010394 0.0031469 0.00097268 0.0052904
0.0048371 -0.010403 -0.0078891 0.033869 -0.027414 0.30878 0.00081599 0.0013015
0.00041047 0.0037088 -0.0021774 0.00060708
-0.0048837 -0.0020068 -0.0023011 0.0022085 0.00078172 0.0013465 -0.17475 0.23104
-0.028235 0.012947 0.01331 -0.010412
-0.0042371 0.0022985 -0.00091527 0.0031067 0.00045094 0.0036904 -0.028224 0.013021
-0.20299 0.097133 -0.017265 0.018355
0.0037205 0.0011475 0.00091865 0.0054272 -0.0024373 0.00089031 0.013041 -0.010263
-0.017553 0.018184 -0.23971 0.15186
860000000 -0.12207 0.24854 -0.017404 0.030848 -0.0033496 -0.0096973 -0.0023457 0.0012832
0.003958 0.0047552 -0.0031289 -0.0022408
-0.017461 0.030801 -0.28987 0.29004 0.0079243 0.033844 0.00028487 0.002148
0.0038909 0.00045597 0.0033393 0.00022399
-0.0033551 -0.0096461 0.0080182 0.033859 0.021251 0.31648 -0.00043682 -0.00015167
0.002705 -0.0012716 0.0015557 0.0046493
-0.0025732 0.0012683 0.00021031 0.0021799 -0.00049869 -0.00013738 -0.13822 0.2424
-0.01803 0.018808 -0.0071233 -0.0086596
0.0038543 0.0047478 0.0039574 0.00063257 0.0026807 -0.0013053 -0.017967 0.018756
-0.15179 0.14595 -0.024585 0.014948
-0.0031285 -0.0022829 0.003364 0.00010639 0.0016789 0.0044835 -0.006703 -0.0088833
-0.025002 0.015118 -0.18853 0.19525
920000000 -0.096973 0.27184 0.0049616 0.037519 -0.0091852 -0.0041087 -0.0019489 0.0019688
0.0011431 0.0015496 0.0023272 -0.0015159
0.0048712 0.037515 -0.26072 0.31055 0.027858 0.021624 0.0015253 0.0010691
0.0068414 -0.00039869 0.0037069 -0.0028604
-0.0091919 -0.0041109 0.027943 0.021549 0.067317 0.3167 0.0018566 -0.00011079
0.0012026 -0.00029084 0.00073288 -0.0010421
-0.0018395 0.0020211 0.0015737 0.00088482 0.0018767 -8.4956e-05 -0.11403 0.25883
-0.010576 0.030711 0.003338 -0.0065459
0.0011152 0.0017068 0.0068166 -0.00030443 0.0012238 -0.00026683 -0.01051 0.030729
-0.141 0.15168 -0.0028949 0.027712
0.0024021 -0.0014549 0.0037586 -0.003004 0.00077936 -0.00099824 0.0032782 -0.0066211
-0.0026974 0.027743 -0.19503 0.20972
980000000 -0.049844 0.29073 0.017387 0.029773 -0.0087048 0.0046079 0.0023233 0.0038032
0.003946 -0.0015273 -0.0030726 -0.0021084
0.017397 0.029696 -0.20777 0.34426 0.032573 0.0047196 0.0019272 -5.2169e-05
0.001397 -0.006159 -0.0006542 -0.0021735
-0.0086775 0.0046944 0.032661 0.0045802 0.11346 0.30987 0.0005474 -0.0012043
0.00022984 -0.0021373 0.0014003 -4.6437e-05
0.002237 0.0036181 0.0019683 6.9798e-05 0.00052352 -0.0012594 -0.075881 0.27029
0.0073183 0.029326 -0.0092847 -0.0065581
0.0039349 -0.0016151 0.0013484 -0.0062023 0.00019979 -0.0021271 0.0074504 0.029329
-0.1095 0.17958 0.0048454 0.018556
-0.003204 -0.0020123 -0.0007032 -0.0021098 0.001309 -2.4823e-05 -0.0091409 -0.0064591
0.0044772 0.018972 -0.15272 0.25481
1040000000 -0.007095 0.2991 0.033048 0.017935 -0.00096957 0.0068493 0.0025485 0.00074352
1.4093e-05 -0.0036173 -0.00065259 -0.0014756
0.033063 0.017898 -0.17203 0.35721 0.028909 -0.014557 0.0014271 -0.001664
-0.0024587 -0.0024739 -0.0013851 -0.0026824
-0.0010297 0.0068114 0.028884 -0.014714 0.1594 0.29581 -0.00047078 -0.0015037
-0.0015593 -0.00084572 -0.00035781 -0.0010765
0.0026955 0.00072838 0.0014889 -0.0016243 -0.00043251 -0.0014708 -0.048259 0.27996
0.018406 0.017443 -0.0026309 0.0018088
5.6549e-05 -0.0035904 -0.0023523 -0.0024658 -0.0015285 -0.00084802 0.018445 0.017456
-0.077659 0.18754 0.013085 0.01814
-0.00035631 -0.0014759 -0.0013242 -0.0025918 -0.00038747 -0.0011593 -0.0025764 0.0017284
0.013075 0.018045 -0.13014 0.27361
1100000000 0.038061 0.30647 0.035553 -0.0041397 0.0029375 0.0036859 0.0025521 -0.0012188
-0.0021517 -0.0031733 -0.003789 7.1723e-05
0.035514 -0.0041086 -0.12863 0.374 0.014889 -0.027259 4.9743e-05 -0.0017989
-0.0032286 -0.0007796 -0.0033239 -0.00054055
0.0029641 0.0036733 0.014807 -0.027357 0.20515 0.27551 -0.001819 0.00012218
-0.0017324 0.00050807 -0.000922 -0.00038631
0.0025427 -0.0012347 1.3928e-05 -0.0017819 -0.0018249 0.00010227 -0.0077966 0.28499
0.023317 0.0052531 -0.0023628 0.00057801
-0.0020835 -0.0031395 -0.0031809 -0.00077586 -0.0017361 0.00055546 0.023371 0.005188
-0.058864 0.20083 0.018943 0.0082282
-0.00379 -5.0272e-05 -0.0034095 -0.00061198 -0.00098188 -0.00040579 -0.002436 0.00057326
0.018551 0.0084761 -0.08431 0.30273
1160000000 0.089509 0.30111 0.0236 -0.020473 0.002742 -0.00055804 -0.00021214 -0.0025267
-0.0039626 -0.00055385 -0.00094096 0.0037581
0.023632 -0.020459 -0.085151 0.37781 -0.0035667 -0.028551 -0.0018078 -0.0016242
-0.0024923 0.0025097 -0.0012427 0.0016605
0.0027228 -0.00054544 -0.0036663 -0.028571 0.24807 0.24497 -0.00070268 0.0016611
-0.00048084 0.0017862 -0.00090316 6.4183e-05
-0.0001816 -0.0024717 -0.0017635 -0.00169 -0.00073935 0.0016724 0.031395 0.28184
0.019963 -0.0099031 -0.0027353 0.0054278
-0.0039944 -0.00057485 -0.0024878 0.0024608 -0.00043694 0.0017991 0.020005 -0.0098041
-0.025689 0.20937 0.017073 0.00072684
-0.00090873 0.0037375 -0.0013105 0.0016703 -0.00091842 5.6062e-05 -0.0027334 0.0053641
0.017049 0.00068309 -0.036687 0.30462
1220000000 0.13369 0.28956 0.0104 -0.029523 -0.0015306 -0.00092382 -2.5585e-05 -0.00084231
-0.0027337 0.0024606 0.0011972 0.0018908
0.010417 -0.029498 -0.041085 0.38951 -0.016442 -0.020857 -0.0024262 0.00037446
9.5219e-05 0.0029128 -0.00071879 0.0017182
-0.0015361 -0.00094612 -0.016541 -0.020801 0.28721 0.20618 0.0007328 0.0016014
0.00057098 0.0012397 0.0002028 0.00057302
-9.2268e-05 -0.0009121 -0.0024709 0.00039911 0.00076154 0.001592 0.071086 0.27326
0.010027 -0.015807 0.0024696 0.0015921
-0.002724 0.0024677 0.00011281 0.0028923 0.000548 0.001239 0.01005 -0.015851
-0.0023057 0.21781 0.013692 -0.011871
0.0012219 0.0019208 -0.00073774 0.0017742 0.00020503 0.00062226 0.0023631 0.0015714
0.01367 -0.012013 -0.0050603 0.32037
1280000000 0.18313 0.26711 -0.0075973 -0.028103 -0.001844 0.0024011 -0.00089102 -0.0020225
-0.00061723 0.0029395 0.0025012 0.0010918
-0.0075939 -0.028059 0.0044399 0.38056 -0.023116 -0.0085579 -0.0010671 0.0013688
0.0015835 0.0016775 0.00049059 0.0020139
-0.001801 0.0024106 -0.023186 -0.0084885 0.31816 0.16251 0.0014135 -6.7235e-05
0.0010192 4.126e-05 0.00014836 0.00037922
-0.0009142 -0.0019898 -0.0010252 0.0013844 0.0014051 -6.8241e-05 0.10763 0.25712
0.0012203 -0.017868 0.00019802 0.00017969
-0.00066195 0.0029512 0.0016254 0.0017131 0.0010432 7.9527e-05 0.0012242 -0.017861
0.034096 0.22142 0.0028122 -0.0143
0.0024624 0.0010691 0.00050835 0.0019489 0.00017491 0.00033643 9.7184e-05 0.00011742
0.0028372 -0.014193 0.042145 0.3212
1340000000 0.21992 0.23303 -0.017218 -0.018904 0.00081417 0.0042822 -0.0017957 -0.00077827
0.001402 0.0026496 0.0016565 -0.0014108
-0.01718 -0.018885 0.043686 0.37242 -0.021255 0.0038594 -0.00010354 0.0019444
0.0017767 0.00077183 0.0013051 0.00087422
0.00083151 0.00427 -0.021259 0.003959 0.34063 0.1144 0.0010489 -0.00087215
0.00060978 -0.00035383 0.00023711 0.00029644
-0.0018061 -0.00077687 -0.00014419 0.001955 0.0010671 -0.00084319 0.14026 0.23688
-0.0074778 -0.015323 0.0011599 0.00014552
0.001401 0.0026371 0.0017616 0.00074011 0.00061204 -0.0003685 -0.0075126 -0.015364
0.06391 0.21643 -0.0029832 -0.01275
0.0016359 -0.0014783 0.0012267 0.00083195 0.00016253 0.00030638 0.0012079 0.00026079
-0.0030082 -0.012902 0.080472 0.31578
1400000000 0.25239 0.19456 -0.022965 -0.0076394 0.0050015 0.0029841 -0.0019967 0.00060964
0.0024488 0.00080053 0.00024938 -0.001397
-0.022955 -0.0076573 0.080775 0.35957 -0.01476 0.011818 0.001276 0.0013609
0.001076 -0.00073281 0.001176 0.0002281
0.005013 0.0029628 -0.014715 0.011923 0.35398 0.060387 0.00012515 -0.0014527
3.0562e-05 -0.00033537 0.00022914 0.00015553
-0.0020261 0.00064685 0.0012787 0.0013275 0.00010169 -0.0014597 0.16982 0.20834
-0.013035 -0.0095699 -0.00070741 -0.0005491
0.0024175 0.000795 0.0011199 -0.00072939 4.6549e-05 -0.00034786 -0.013085 -0.0095196
0.09643 0.21175 -0.0091803 -0.0086734
0.00024355 -0.0013608 0.0011805 0.00030893 0.00032646 0.00026744 -0.00067111 -0.00068581
-0.0093745 -0.0085582 0.1246 0.30486
1460000000 0.27482 0.15063 -0.020218 0.0042281 0.0053907 -0.001779 -0.0016738 0.0017919
0.001908 -0.00049426 -0.00026407 -0.00097859
-0.020185 0.0042166 0.11522 0.33802 -0.0064985 0.014887 0.0017374 0.0002213
0.00093029 -0.0011849 0.0011725 -0.00061919
0.0053741 -0.0018092 -0.0064349 0.014961 0.35999 0.0054708 -0.0011517 -0.0012985
0.00020624 -9.9839e-05 0.00069407 -0.00035487
-0.0016713 0.0017783 0.0017294 0.00021019 -0.0011202 -0.0012815 0.19643 0.17938
-0.014274 -0.0035372 -0.0010723 0.0015285
0.0018996 -0.00051313 0.00089588 -0.0012034 0.00017745 -0.00011169 -0.014267 -0.0035684
0.12585 0.19707 -0.0111 -0.0031844
-0.00031803 -0.00092915 0.0011607 -0.00064668 0.00057842 -0.00035416 -0.00099584 0.0016072
-0.011136 -0.0031591 0.15792 0.28315
1520000000 0.28666 0.10876 -0.014825 0.0098675 0.0031166 -0.0040637 0.00010338 0.0025528
0.0019123 -0.0016461 -0.0011293 -0.00018548
-0.014839 0.009849 0.14889 0.32315 0.0011094 0.013013 0.0016487 -0.00078124
4.9704e-05 -0.0010011 0.0003204 -0.0010192
0.0030839 -0.0040643 0.0011648 0.013015 0.3526 -0.051317 -0.0011215 -0.0003769
0.00053653 -0.00084405 7.0611e-05 -6.3198e-05
0.00012197 0.0025625 0.0016329 -0.00077981 -0.0010967 -0.00036709 0.2201 0.1415
-0.01411 0.0016587 0.0010627 0.0018597
0.0018687 -0.0016713 4.254e-05 -0.0010126 0.00055803 -0.00085204 -0.014137 0.0017249
0.15323 0.1828 -0.01126 0.00099658
-0.0011619 -0.00020133 0.00030013 -0.0010009 6.7261e-05 -0.00010078 0.0011532 0.0017994
-0.01123 0.0010616 0.19097 0.26198
1580000000 0.29559 0.062794 -0.0084118 0.013067 -0.00089195 -0.0045443 0.0013776 0.0019249
-0.00033073 -0.0020791 -0.00040256 0.00037939
-0.0083824 0.013055 0.17641 0.29837 0.0048129 0.0084681 0.00052047 -0.0015758
-0.00044547 -0.0010497 -0.00022305 -0.00086055
-0.00086214 -0.0045298 0.0048743 0.0084429 0.33189 -0.10878 -0.0016028 0.00057496
-0.00020386 -0.0011241 0.00016499 -0.00051135
0.0014344 0.001885 0.00051549 -0.0016245 -0.0016013 0.00057708 0.23452 0.10202
-0.011308 0.0064482 0.0020281 0.0008002
-0.00034492 -0.0020763 -0.00046633 -0.001065 -0.00018343 -0.0011392 -0.011277 0.00648
0.17759 0.16468 -0.0092281 0.0064996
-0.00044405 0.00036 -0.00023342 -0.0009001 0.00013721 -0.00055375 0.001927 0.00069106
-0.0091731 0.0066544 0.22296 0.23492
1640000000 0.29747 0.021385 -0.0018375 0.012251 -0.0025672 -0.002514 0.0026585 0.0010065
-0.00068171 -0.00142 -0.00037359 0.00067633
-0.0018431 0.012258 0.20615 0.27295 0.0056324 0.0038405 -0.00069109 -0.0016938
-0.0010321 -0.00045279 -0.00051369 -0.00065558
-0.0026047 -0.0025075 0.0056635 0.0038241 0.30311 -0.15781 -0.00074514 0.0014395
-0.0010337 -0.00099853 -0.00012241 -0.00022594
0.0026496 0.0010046 -0.00068191 -0.0016919 -0.00075722 0.0014225 0.24711 0.052584
-0.0075268 0.0080735 0.0022832 -0.00076933
-0.0007095 -0.001407 -0.00102 -0.0004514 -0.0010144 -0.00098808 -0.0075265 0.0081075
0.20049 0.13988 -0.0049465 0.0086483
-0.00035258 0.00068345 -0.0005084 -0.0006464 -0.00010706 -0.00018257 0.0022743 -0.00075767
-0.0048761 0.008719 0.2479 0.20298
1700000000 0.29011 -0.023843 0.0016824 0.0097732 -0.003407 0.00013804 0.0029421 -0.0012165
-0.001952 -0.00064984 0.00064278 0.00044437
0.0016836 0.0097738 0.22421 0.24095 0.0039284 0.00089733 -0.0013525 -0.00061265
-0.0007729 6.7676e-05 -0.0009145 -0.00044676
-0.0034067 0.00015706 0.00394 0.00087369 0.25944 -0.1974 0.00051623 0.0015875
-0.00176 -0.00028759 -0.00055024 -0.00092711
0.0029608 -0.0012021 -0.0013589 -0.00059653 0.00049765 0.0015485 0.24392 0.0021215
-0.0048177 0.0089436 0.0013008 -0.0020211
-0.0019099 -0.00057081 -0.00076022 8.5462e-05 -0.0017687 -0.00030502 -0.0047939 0.0089592
0.21778 0.11902 -0.00064557 0.009303
0.000639 0.00045808 -0.0009586 -0.0004679 -0.00054832 -0.00088093 0.0012881 -0.0020412
-0.00051552 0.0092789 0.26398 0.16806
1760000000 0.27772 -0.072484 0.0042647 0.0065691 -0.0022213 0.00078185 0.0012684 -0.0033555
-0.0013249 0.00057541 0.00040687 -0.0004444
0.0042418 0.0065963 0.25003 0.20062 0.0018836 -0.0010626 -0.0012056 0.00015973
-0.0010391 0.00088761 -0.00064005 0.00052773
-0.0022077 0.00080993 0.0018571 -0.0010658 0.21091 -0.2305 0.0011948 0.0011156
-0.0011198 0.0013677 -0.0013216 -0.00026998
0.0011771 -0.0034218 -0.0011996 0.0001764 0.001203 0.0010908 0.23427 -0.049657
-0.0016392 0.0084358 -0.00020415 -0.0022425
-0.0013539 0.00055449 -0.0010364 0.00087755 -0.0011091 0.0013924 -0.001602 0.0084574
0.23252 0.083369 0.0033616 0.0069176
0.00047129 -0.00043504 -0.00055699 0.00055077 -0.001318 -0.0003435 -0.0003405 -0.0022253
0.0033825 0.0069356 0.27572 0.13024
1820000000 0.25259 -0.10983 0.0046745 0.0030076 4.4738e-07 0.0024164 -0.0010177 -0.0030873
-0.0010237 0.00081903 2.0573e-05 -0.00016188
0.004654 0.0030017 0.25949 0.17004 -0.00015451 2.9865e-05 -0.0014234 0.00092098
-4.3879e-05 0.0012587 -0.00050369 0.0005918
3.3165e-06 0.0024217 -0.00015966 3.5111e-05 0.16013 -0.24573 0.0014679 0.00038543
-0.00036663 0.0022815 -0.0014724 0.00045664
-0.0010001 -0.0030581 -0.0013963 0.00088825 0.0014578 0.00026244 0.20359 -0.096813
9.2414e-05 0.00703 -0.0016261 -0.0013234
-0.0010282 0.00081161 -3.4654e-05 0.0012711 -0.00034417 0.0022313 3.0892e-05 0.0069776
0.24925 0.053012 0.0042362 0.0038484
6.7513e-07 -0.00023617 -0.00055753 0.00055997 -0.0014668 0.00058589 -0.0015709 -0.0012304
0.0043743 0.0037805 0.27763 0.093699
1880000000 0.21706 -0.14997 0.0026779 0.00054838 -0.00038161 0.0020645 -0.0027943 -0.0022499
-0.00025279 0.0016288 0.00025647 -0.00062142
0.0026355 0.00059132 0.26334 0.12343 -0.0021515 0.0016544 -0.00021699 0.0016941
0.00063129 0.0012295 0.00015079 0.00093687
-0.00038715 0.0020647 -0.0021557 0.001664 0.10766 -0.25498 0.0018043 -0.00097776
0.0014684 0.0019786 -0.00084658 0.0013679
-0.002891 -0.0022983 -0.00020342 0.0016585 0.0018129 -0.000951 0.16256 -0.13663
0.00081963 0.0050479 -0.0021379 0.00063492
-0.00022796 0.0016444 0.00064943 0.0012179 0.0014433 0.0020228 0.00087683 0.0050715
0.25142 0.019492 0.0043549 0.0018983
0.00015458 -0.00058334 0.00017122 0.00097081 -0.00086319 0.0013587 -0.0021615 0.000613
0.004423 0.001845 0.27633 0.059901
1940000000 0.17737 -0.17541 0.0004345 -0.0013174 0.001329 0.0018851 -0.0036776 0.00068038
0.0012687 0.0012951 -0.00072441 -0.00053533
0.00042115 -0.0013399 0.26341 0.091551 -0.0010216 0.0039038 0.001007 0.0014337
0.0018218 0.00048025 0.00088445 0.00033855
0.001397 0.0018871 -0.00099118 0.0039219 0.062348 -0.24833 0.00039759 -0.002072
0.0023793 0.00049271 0.00051317 0.0016541
-0.0036827 0.00080612 0.0010014 0.0014152 0.00032377 -0.0020216 0.10984 -0.16644
-4.9711e-05 0.0038048 -0.0013048 0.0016187
0.0012842 0.0013073 0.0018104 0.00050143 0.00238 0.00047364 -4.463e-05 0.0038011
0.25234 -0.020836 0.003469 -0.0014564
-0.00066354 -0.00053223 0.00081481 0.00026638 0.00052177 0.0017219 -0.0011568 0.0017071
0.0034827 -0.0016099 0.26508 0.023774
2000000000 0.13055 -0.18979 -0.0036153 0.00054444 0.0024324 0.0014443 -0.0023512 0.0035982
0.0011157 0.00032059 -0.00066726 0.00053305
-0.0036082 0.00053451 0.24857 0.056232 -0.00064653 0.005661 0.0015976 0.0004678
0.0012705 -0.001319 0.00045108 4.1821e-05
0.0024171 0.0013684 -0.00059568 0.0056913 0.018747 -0.23364 -0.0013935 -0.0012562
0.0019983 -0.0012065 0.0015331 0.0011617
-0.0022546 0.0035475 0.0016778 0.00045961 -0.0014108 -0.0013091 0.056115 -0.17546
-0.0016306 0.003882 0.00022865 0.0018855
0.0010998 0.00027155 0.0012938 -0.0013197 0.001973 -0.0011673 -0.0017673 0.0040107
0.24433 -0.05562 0.00052449 -0.0023544
