!Keysight Technologies,M9804A,MY58100912,A.14.10.03
!Date: Thursday, April 27, 2023 10:28:33
!Correction: S11(C  6-Port  ) 
!S12(C  6-Port  ) 
!S13(C  6-Port  ) 
!S14(C  6-Port  ) 
!S15(C  6-Port  ) 
!S16(C  6-Port  ) 
!S21(C  6-Port  ) 
!S22(C  6-Port  ) 
!S23(C  6-Port  ) 
!S24(C  6-Port  ) 
!S25(C  6-Port  ) 
!S26(C  6-Port  ) 
!S31(C  6-Port  ) 
!S32(C  6-Port  ) 
!S33(C  6-Port  ) 
!S34(C  6-Port  ) 
!S35(C  6-Port  ) 
!S36(C  6-Port  ) 
!S41(C  6-Port  ) 
!S42(C  6-Port  ) 
!S43(C  6-Port  ) 
!S44(C  6-Port  ) 
!S45(C  6-Port  ) 
!S46(C  6-Port  ) 
!S51(C  6-Port  ) 
!S52(C  6-Port  ) 
!S53(C  6-Port  ) 
!S54(C  6-Port  ) 
!S55(C  6-Port  ) 
!S56(C  6-Port  ) 
!S61(C  6-Port  ) 
!S62(C  6-Port  ) 
!S63(C  6-Port  ) 
!S64(C  6-Port  ) 
!S65(C  6-Port  ) 
!S66(C  6-Port  ) 
!S6P File: Measurement: :
# Hz S  RI   R 50
500000000 -0.33796 -0.03708 -0.010125 -0.0033039 -0.0078051 0.012129 -0.0040407 0.011633
0.011933 0.0042326 -0.0042514 0.0080947
-0.010122 -0.003299 -0.41845 -0.050651 0.0078486 -0.011219 0.0018015 0.011666
0.0078561 0.0023192 0.0018006 0.013073
-0.0077941 0.012143 0.007837 -0.01124 -0.26526 0.21045 0.0069411 0.0033482
-0.00049137 0.0084717 0.00079328 0.012043
-0.0040239 0.011639 0.0018109 0.011678 0.0069336 0.0033449 -0.32823 0.045123
-0.020437 -0.0051827 0.018758 0.025167
0.011948 0.0041882 0.0078588 0.0022949 -0.00050488 0.0084819 -0.020434 -0.0052166
-0.22606 -0.18732 -0.0279 0.0040394
-0.0042158 0.0080854 0.0018515 0.013066 0.00079944 0.012039 0.018771 0.025161
-0.027914 0.0040395 -0.27047 -0.11857
560000000 -0.31688 0.12388 -0.02378 -0.062549 -6.0068e-05 0.0121 0.0064365 0.010416
0.010236 0.0040949 0.010376 0.0082154
-0.023743 -0.062476 -0.37626 0.1075 -0.041853 -0.036775 0.013938 0.003995
-0.013291 -0.0043355 0.0043087 -0.00082253
-7.1788e-05 0.01208 -0.04199 -0.036711 -0.18319 0.25826 -0.00075822 -0.0042476
0.018752 0.0045378 0.0067916 -0.0061094
0.0064743 0.010411 0.013948 0.0039338 -0.00075874 -0.0042359 -0.30379 0.13521
0.0037695 -0.024222 0.0050154 -0.01981
0.010265 0.0040724 -0.013342 -0.0043119 0.018748 0.0045346 0.003745 -0.024227
-0.28764 -0.011914 0.0081701 -0.05022
0.010366 0.0081712 0.0043012 -0.00080682 0.0067683 -0.006134 0.0050064 -0.019831
0.0082147 -0.050173 -0.33048 0.028979
620000000 -0.27462 0.10882 -0.022861 0.0075964 0.0036141 0.0083806 0.0070149 -0.0052723
0.011936 -0.00039774 0.00035797 -0.0020945
-0.022853 0.0075937 -0.40273 0.061152 -0.018709 -0.00019646 -0.0011447 -0.0018749
0.01037 -0.0071426 0.0013392 -0.0027737
0.0036118 0.0083646 -0.018737 -0.00015485 -0.15328 0.26722 -0.0012998 -0.0050504
-0.0037366 -0.0032475 0.0080486 -0.0036147
0.007007 -0.0052779 -0.0011497 -0.0018777 -0.0013 -0.0050497 -0.26374 0.14647
-0.038422 -0.019109 0.013419 0.024997
0.011956 -0.00044958 0.010365 -0.0071637 -0.0037294 -0.0032299 -0.038411 -0.019043
-0.20689 -0.051627 -0.039945 0.014461
0.00033696 -0.0020938 0.0013217 -0.0027918 0.008049 -0.0036516 0.013422 0.024987
-0.039942 0.014443 -0.25058 -0.0075456
680000000 -0.23405 0.19395 -0.02745 -0.014039 0.0047344 0.0048874 0.0014573 -0.0072928
-0.002723 -0.011156 0.004517 -0.0069338
-0.027421 -0.014049 -0.38771 0.15858 -0.032614 -0.0014243 -0.0016019 -0.00022883
-0.0023857 -0.0086776 -0.0011115 -0.0019354
0.0047417 0.0048655 -0.032651 -0.0013375 -0.10209 0.28735 -0.00088161 9.0763e-05
-0.0018885 0.0007823 -0.0030204 -0.0094477
0.0014578 -0.007301 -0.0016063 -0.0002078 -0.00088313 9.3987e-05 -0.22043 0.19582
-0.023945 -0.0077539 -0.0092256 -0.010846
-0.0027813 -0.011151 -0.002424 -0.0086859 -0.0018853 0.00078696 -0.023972 -0.0077451
-0.25598 0.047791 -0.0059825 -0.0087122
0.0045166 -0.0069577 -0.0011173 -0.0019325 -0.0030243 -0.0094524 -0.0092296 -0.010829
-0.0059616 -0.0087238 -0.25932 0.095052
740000000 -0.18966 0.1886 -0.038334 0.026488 0.012476 -0.0050859 -0.00068277 -0.0040563
-0.0041437 -0.0032288 -0.0063982 0.003459
-0.038315 0.026439 -0.33493 0.17744 -0.034913 0.034751 -0.00046812 -0.0063081
-0.011714 0.0077477 -0.0023485 -0.0060563
0.012471 -0.0051215 -0.034846 0.034907 -0.06804 0.2859 -0.0017789 0.0031362
-0.0025941 -0.004161 -0.0013167 0.0001889
-0.0007191 -0.0040791 -0.00049537 -0.0063013 -0.0017865 0.0031284 -0.20319 0.20344
-0.042625 -0.0083521 0.022014 0.013764
-0.0041651 -0.0032269 -0.011703 0.0078182 -0.0026034 -0.0041827 -0.042691 -0.0082728
-0.15994 0.074581 -0.041165 0.00014538
-0.0063602 0.0034553 -0.0023814 -0.0060456 -0.0013174 0.00018765 0.022044 0.013775
-0.041181 0.00012633 -0.24797 0.10091
800000000 -0.157 0.22842 -0.022388 0.016644 0.005076 -0.010484 -0.00461 -0.0019023
-0.0040438 0.0021118 0.0044522 0.0011056
-0.022387 0.016624 -0.33766 0.24775 -0.0078484 0.033815 -0.0022024 0.0022587
-0.00077441 0.0030593 0.0011298 0.0052607
0.0050655 -0.010501 -0.0077507 0.03388 -0.027261 0.30871 0.0010387 0.0015306
0.00058409 0.0035157 -0.0019279 0.0009657
-0.0046171 -0.0019004 -0.0021938 0.0022642 0.0010378 0.0015277 -0.17476 0.2312
-0.028117 0.012953 0.013195 -0.0097127
-0.004043 0.0021282 -0.00076697 0.0030622 0.00057901 0.003522 -0.028132 0.013037
-0.20335 0.097023 -0.017073 0.017761
0.0044589 0.0010961 0.001153 0.0052655 -0.001919 0.00098294 0.013195 -0.0097307
-0.017057 0.01774 -0.23994 0.15298
860000000 -0.12225 0.24866 -0.017414 0.030817 -0.0034067 -0.0096749 -0.0023675 0.0011952
0.003713 0.0048275 -0.0032299 -0.0028145
-0.017402 0.03079 -0.28977 0.28986 0.0079542 0.033938 0.0001015 0.0022129
0.0039193 0.00042462 0.0032598 0.00039407
-0.0034337 -0.0096586 0.0080594 0.033944 0.021071 0.31641 -0.00046845 -0.00019252
0.002688 -0.0013943 0.0014385 0.0043437
-0.0023567 0.0012146 0.00010429 0.0022167 -0.00046438 -0.00019603 -0.13837 0.24242
-0.017881 0.018887 -0.0065343 -0.0088654
0.0037433 0.004802 0.0039299 0.00041342 0.0026931 -0.0014021 -0.017865 0.018941
-0.15265 0.14607 -0.02458 0.014758
-0.003243 -0.002791 0.0032648 0.00037183 0.0014442 0.0043489 -0.0065221 -0.0088471
-0.024555 0.014719 -0.18922 0.19461
920000000 -0.097083 0.27158 0.0051032 0.037523 -0.0092288 -0.0042565 -0.0017834 0.0020946
0.0011691 0.0016367 0.0025488 -0.0014603
0.0050925 0.037494 -0.2607 0.31039 0.027846 0.021634 0.0016182 0.0010984
0.0068268 -0.00059567 0.0038626 -0.0027991
-0.0092407 -0.0042298 0.027948 0.021552 0.067185 0.31668 0.0018696 -0.00011098
0.0011832 -0.00030224 0.00082142 -0.0010268
-0.0017557 0.002097 0.0016097 0.001089 0.0018733 -0.00011068 -0.11426 0.25861
-0.010462 0.030532 0.0032669 -0.0064549
0.0011546 0.0016123 0.0068376 -0.00060911 0.0011751 -0.00030805 -0.010406 0.030588
-0.14165 0.15194 -0.0025966 0.027569
0.0025615 -0.0014636 0.0038453 -0.002828 0.00081944 -0.0010178 0.0032701 -0.0064603
-0.0026057 0.027558 -0.19489 0.21
980000000 -0.049921 0.29092 0.017389 0.029751 -0.0087472 0.0046316 0.0022032 0.0037187
0.0040089 -0.0016425 -0.0032073 -0.0021421
0.017361 0.029751 -0.2078 0.34423 0.032605 0.0047376 0.001892 5.1364e-05
0.0014891 -0.0061651 -0.00076477 -0.0022331
-0.0087347 0.0046653 0.032655 0.0046189 0.11336 0.30983 0.00050119 -0.0011888
0.00020886 -0.0021171 0.0013733 -4.6875e-05
0.0022184 0.0037253 0.0018972 3.4104e-05 0.00050239 -0.0011784 -0.075963 0.27025
0.0074272 0.029218 -0.0090927 -0.0064412
0.0040062 -0.00166 0.0014436 -0.0061694 0.0002108 -0.0021157 0.0074914 0.029237
-0.10985 0.17952 0.0045514 0.018974
-0.003223 -0.0021082 -0.0007594 -0.0022296 0.0013757 -4.7345e-05 -0.0090879 -0.0064254
0.0045315 0.018972 -0.15285 0.25464
1040000000 -0.0075083 0.29903 0.033012 0.017972 -0.0011317 0.0067958 0.0026651 0.00072406
0.00017677 -0.0036598 -0.00040448 -0.0015664
0.032991 0.017986 -0.17216 0.35707 0.028898 -0.01455 0.0015122 -0.0016845
-0.0023798 -0.0024447 -0.0013138 -0.002712
-0.0011042 0.0068134 0.028854 -0.014691 0.15925 0.29586 -0.00045558 -0.0014607
-0.0014392 -0.0008659 -0.00038181 -0.001136
0.0026754 0.00072467 0.0014864 -0.0017009 -0.00045177 -0.0014564 -0.048441 0.27995
0.018687 0.017643 -0.0026169 0.0016484
0.00014618 -0.0036622 -0.0024128 -0.0024061 -0.0014544 -0.00087173 0.01875 0.017629
-0.077652 0.1879 0.013384 0.017944
-0.00041557 -0.0015575 -0.0013207 -0.0027299 -0.00037935 -0.0011359 -0.0026075 0.0016363
0.013364 0.017947 -0.1304 0.27358
1100000000 0.037926 0.30635 0.035488 -0.0042299 0.0029296 0.0037356 0.0024692 -0.001344
-0.0020744 -0.0030871 -0.0038432 3.2922e-05
0.035464 -0.004209 -0.12875 0.37386 0.014946 -0.027275 5.5508e-06 -0.0017915
-0.0031958 -0.00068148 -0.0033569 -0.00054268
0.0029497 0.0037235 0.014855 -0.027366 0.20508 0.27556 -0.0017889 0.00015705
-0.0017488 0.00054698 -0.00092768 -0.00037585
0.0024589 -0.0013463 -1.1535e-05 -0.001795 -0.0017936 0.00015209 -0.0080093 0.28493
0.023362 0.0052301 -0.0022835 0.00052979
-0.0020774 -0.0030774 -0.003216 -0.00065777 -0.0017464 0.00054813 0.02341 0.005184
-0.058982 0.2011 0.018573 0.0086357
-0.0038414 4.9671e-05 -0.0033573 -0.00053591 -0.00092524 -0.00037485 -0.0022912 0.00053084
0.018545 0.0086492 -0.083763 0.30235
1160000000 0.089222 0.30109 0.023656 -0.020404 0.0027353 -0.00052257 -0.00018685 -0.0024713
-0.0040353 -0.00057468 -0.00072381 0.0037998
0.023669 -0.020358 -0.085161 0.37771 -0.0035106 -0.028563 -0.0017021 -0.0016219
-0.0025681 0.0024369 -0.0011819 0.0017001
0.0027458 -0.00052742 -0.0036482 -0.028581 0.24795 0.245 -0.00071038 0.0016763
-0.00052815 0.001788 -0.00093784 4.9363e-05
-0.00020588 -0.0024525 -0.0017181 -0.0016263 -0.00071634 0.0016731 0.031332 0.28195
0.020038 -0.009669 -0.0027197 0.0053736
-0.0040318 -0.00056452 -0.0025762 0.0024688 -0.00052323 0.001777 0.020064 -0.0097316
-0.025302 0.20981 0.017257 0.00063153
-0.0007163 0.0038089 -0.0011624 0.0016921 -0.0009416 4.85e-05 -0.0027241 0.0053768
0.017249 0.00063762 -0.037122 0.30482
1220000000 0.13349 0.28952 0.010318 -0.029517 -0.001534 -0.00089156 -3.1868e-05 -0.00099057
-0.0026289 0.0024363 0.0012187 0.0018603
0.010331 -0.029471 -0.041268 0.38942 -0.016425 -0.02085 -0.0024519 0.00039432
0.00012825 0.0028297 -0.00074724 0.0017202
-0.0015364 -0.00088626 -0.016539 -0.020803 0.28711 0.20623 0.00074958 0.0016388
0.00055631 0.0011984 0.00020874 0.00063358
-3.4593e-05 -0.00098579 -0.0024554 0.00040072 0.00075117 0.0016393 0.070945 0.27335
0.010124 -0.015846 0.0024453 0.0014888
-0.0026156 0.0024449 0.0001261 0.0028294 0.00056311 0.0011989 0.010117 -0.015906
-0.0021808 0.2182 0.013761 -0.012003
0.0012185 0.0018533 -0.00073358 0.0017251 0.00020633 0.00063228 0.0024321 0.0014921
0.013744 -0.011998 -0.0053863 0.32022
1280000000 0.18287 0.26713 -0.0075628 -0.028002 -0.001793 0.0024403 -0.00097816 -0.0019675
-0.00072987 0.0030151 0.0024548 0.0010854
-0.0075449 -0.027977 0.0042632 0.38046 -0.023137 -0.0085497 -0.0010279 0.0013895
0.0015586 0.0017208 0.00051732 0.0019556
-0.0017923 0.0024468 -0.023219 -0.0084479 0.31809 0.16261 0.0014051 -9.2823e-05
0.0010167 0.0001105 0.00021035 0.0003049
-0.00098074 -0.0019645 -0.0010348 0.0013975 0.001399 -8.5871e-05 0.10747 0.25728
0.0012639 -0.017918 0.00019573 0.00015868
-0.00071683 0.003022 0.0015749 0.0017109 0.0010175 0.00011008 0.0012072 -0.017963
0.034433 0.22157 0.003012 -0.014134
0.0024495 0.0010714 0.00053268 0.0019553 0.00021203 0.00030952 0.00019471 0.00015887
0.0030153 -0.014112 0.042183 0.32103
1340000000 0.21964 0.23319 -0.01715 -0.018822 0.0008333 0.0042731 -0.0018054 -0.00082997
0.001413 0.0026317 0.0016787 -0.0014219
-0.017118 -0.018829 0.043549 0.37243 -0.021259 0.0038721 -0.00015827 0.0019764
0.0017558 0.00078772 0.001272 0.00085989
0.00085633 0.0042796 -0.021259 0.0039827 0.34052 0.11452 0.0010414 -0.00082714
0.00062307 -0.00036118 0.00014804 0.00030962
-0.0018086 -0.00081748 -0.00014577 0.001983 0.001053 -0.00083047 0.1403 0.23695
-0.0073661 -0.015464 0.0011319 0.00015365
0.0014173 0.0026311 0.0017682 0.00077906 0.00062654 -0.00036514 -0.0074337 -0.015477
0.064342 0.2165 -0.0028152 -0.013008
0.0016616 -0.0014243 0.0012843 0.00085926 0.00014867 0.00031206 0.0011221 0.00015133
-0.0028054 -0.013005 0.080531 0.31587
1400000000 0.25218 0.19478 -0.02288 -0.0076644 0.0049853 0.0029867 -0.0020251 0.00062842
0.0024018 0.00076949 0.00023301 -0.0013852
-0.022851 -0.0076756 0.080578 0.35959 -0.01475 0.011866 0.0013062 0.0013516
0.0010957 -0.00071362 0.0012346 0.00025118
0.0050013 0.0029605 -0.014709 0.011962 0.35393 0.060542 0.00015965 -0.0014691
1.5175e-05 -0.00032462 0.00033974 0.00020423
-0.0020335 0.00063557 0.001317 0.0013455 0.00016027 -0.0014728 0.16981 0.20842
-0.013008 -0.0095701 -0.00070898 -0.00062712
0.0024118 0.00075927 0.0010916 -0.00072578 2.172e-05 -0.00032712 -0.013072 -0.0095461
0.09682 0.21142 -0.0092773 -0.0086682
0.00022071 -0.0013794 0.0012288 0.00024181 0.00034465 0.0002034 -0.00070443 -0.00062698
-0.0092712 -0.0086699 0.12476 0.30463
1460000000 0.27464 0.15078 -0.020169 0.0042139 0.0053843 -0.0017049 -0.0015842 0.0017307
0.0019418 -0.00055346 -0.00034795 -0.00086189
-0.02015 0.0042006 0.11502 0.33806 -0.0064567 0.014899 0.001707 0.00022822
0.00094111 -0.0012215 0.0011967 -0.0006239
0.0053715 -0.001729 -0.0063783 0.014955 0.35988 0.0056415 -0.0011329 -0.0012882
0.00019877 -0.00012925 0.00066326 -0.00034203
-0.0015888 0.0017302 0.001714 0.00021427 -0.0011389 -0.0012857 0.19653 0.1794
-0.014214 -0.0036847 -0.0011283 0.0016226
0.0019469 -0.00056043 0.00093281 -0.0012308 0.00020467 -0.00013084 -0.014273 -0.003643
0.12597 0.19674 -0.011088 -0.0033946
-0.00035091 -0.00086003 0.0011756 -0.00063186 0.00065845 -0.0003517 -0.0011295 0.0016326
-0.011087 -0.0033903 0.15806 0.2832
1520000000 0.28654 0.10916 -0.014801 0.0098139 0.0030627 -0.0040722 5.2766e-05 0.0025843
0.0019054 -0.0015713 -0.0011145 -0.00017037
-0.014798 0.0097925 0.14874 0.32322 0.0010905 0.013008 0.00164 -0.00076521
8.0434e-05 -0.00099417 0.00031642 -0.0010194
0.0030445 -0.0040847 0.001169 0.013019 0.35258 -0.051035 -0.0010848 -0.00041804
0.00054813 -0.00082707 -1.527e-05 -6.2943e-05
6.7723e-05 0.0025894 0.0016434 -0.00077238 -0.0010847 -0.00042046 0.22007 0.14137
-0.014177 0.0015781 0.0010868 0.0019456
0.0018961 -0.0015915 7.1641e-05 -0.0010033 0.00054731 -0.00082918 -0.014193 0.0016551
0.15342 0.18224 -0.011281 0.00086144
-0.00112 -0.00018539 0.00031642 -0.0010277 -1.3899e-05 -6.1401e-05 0.0010899 0.0019448
-0.011278 0.00085108 0.19112 0.26214
1580000000 0.29557 0.063014 -0.0084059 0.012992 -0.00089666 -0.0045619 0.0013886 0.0018947
-0.00027935 -0.0020635 -0.00039349 0.00038006
-0.0084119 0.012986 0.17629 0.29844 0.0048181 0.008444 0.0005157 -0.0015702
-0.00048688 -0.0010812 -0.0002374 -0.00084914
-0.00091153 -0.0045511 0.0048715 0.0084238 0.33195 -0.10863 -0.0015933 0.00056015
-0.00020476 -0.0011361 0.00018554 -0.00047869
0.0013955 0.0018941 0.00050444 -0.001581 -0.0015998 0.00056041 0.23442 0.10193
-0.011443 0.0063608 0.0019687 0.00080292
-0.0002885 -0.0020736 -0.00049717 -0.0010875 -0.00020695 -0.0011401 -0.011434 0.0064362
0.17756 0.16423 -0.0093669 0.0063747
-0.00039026 0.00038265 -0.00024079 -0.00085175 0.00018478 -0.00048015 0.0019801 0.00079402
-0.0093724 0.0063789 0.22288 0.23485
1640000000 0.29747 0.021719 -0.0018792 0.012213 -0.0026141 -0.0025506 0.0026462 0.0010275
-0.00065692 -0.0014017 -0.00032734 0.00066771
-0.0018851 0.0122 0.20601 0.27301 0.0056346 0.0038123 -0.00066166 -0.0016977
-0.0010442 -0.0004212 -0.00049451 -0.00063615
-0.002622 -0.0025355 0.0056601 0.0037818 0.30311 -0.15757 -0.00073928 0.0014488
-0.00099672 -0.0009637 -7.5383e-05 -0.00025925
0.0026447 0.0010164 -0.00068451 -0.0016971 -0.00073154 0.001447 0.24701 0.052535
-0.0076884 0.0080477 0.0023224 -0.00066022
-0.00068009 -0.0014014 -0.0010431 -0.00042329 -0.0010025 -0.00095435 -0.007646 0.0081058
0.2001 0.13948 -0.0050105 0.0086148
-0.00032761 0.000676 -0.00049776 -0.00063477 -7.655e-05 -0.00025912 0.0023273 -0.00067698
-0.0050121 0.0086146 0.24816 0.20299
1700000000 0.29021 -0.023629 0.0016595 0.0097716 -0.003386 0.00012522 0.0030005 -0.0011754
-0.0019456 -0.00068448 0.00062847 0.00045159
0.0016445 0.009764 0.22412 0.24104 0.0039265 0.00089538 -0.0013815 -0.00059452
-0.00080695 8.9019e-05 -0.00091357 -0.00043975
-0.0033911 0.00014262 0.0039361 0.00086363 0.25963 -0.19722 0.00048839 0.0015994
-0.0018029 -0.00026994 -0.00051658 -0.00089262
0.002996 -0.0011897 -0.001391 -0.00058856 0.00048811 0.0016029 0.2437 0.0021498
-0.0050361 0.00901 0.0013471 -0.002045
-0.0019597 -0.00066484 -0.00079896 9.6044e-05 -0.0018006 -0.00026645 -0.00498 0.0090466
0.21729 0.1187 -0.0007007 0.0092486
0.00063468 0.00044444 -0.00092219 -0.00043306 -0.00052393 -0.00089187 0.0013525 -0.0020616
-0.00070266 0.0092447 0.26391 0.16817
1760000000 0.27773 -0.072247 0.0042231 0.0066131 -0.0021981 0.00076591 0.0012402 -0.0033812
-0.0013304 0.00055223 0.00044651 -0.00047713
0.0042174 0.0066112 0.2499 0.20066 0.0018663 -0.0010707 -0.0011746 0.00013701
-0.0010377 0.00090733 -0.00060384 0.00051599
-0.0021913 0.00077716 0.0018576 -0.0010917 0.211 -0.23041 0.001168 0.0010798
-0.0011863 0.0013616 -0.0013247 -0.00031899
0.0012221 -0.0033879 -0.0011786 0.00014126 0.0011742 0.0010743 0.2341 -0.049555
-0.0016391 0.0085945 -0.00029396 -0.0022349
-0.0013299 0.00056483 -0.0010353 0.0009096 -0.0011905 0.0013695 -0.0015783 0.0085999
0.23205 0.083179 0.0031661 0.0069866
0.00044189 -0.00047978 -0.00060046 0.00052367 -0.001328 -0.00030988 -0.00029897 -0.0022408
0.0031774 0.0069869 0.27585 0.13011
1820000000 0.25271 -0.10958 0.0046636 0.0030246 -5.0448e-06 0.0024085 -0.00095985 -0.0030872
-0.001056 0.0008238 1.9872e-05 -0.00019044
0.004653 0.0030254 0.25939 0.17014 -0.00017571 9.5763e-06 -0.0013946 0.00085568
8.5953e-06 0.0012666 -0.00053869 0.00056255
1.3291e-05 0.0024038 -0.0001755 5.5267e-06 0.16034 -0.24562 0.0015138 0.00030229
-0.00030658 0.002215 -0.0015258 0.00049897
-0.00098251 -0.00308 -0.0013903 0.00087657 0.0015119 0.00030764 0.20353 -0.096749
3.889e-05 0.0071445 -0.0014938 -0.0013275
-0.0010367 0.00083292 2.0052e-05 0.0012664 -0.00031176 0.002212 0.00010321 0.0071288
0.24852 0.05315 0.0043204 0.003899
1.8795e-05 -0.00019372 -0.00053191 0.00057064 -0.0015196 0.0005043 -0.0015036 -0.0013382
0.0043221 0.0039009 0.27743 0.093599
1880000000 0.21723 -0.1498 0.0026339 0.00057032 -0.00043627 0.0020484 -0.0029064 -0.0022376
-0.00026103 0.001737 0.00026968 -0.00057381
0.002635 0.00057129 0.26323 0.12351 -0.002182 0.0016519 -0.00021275 0.0016858
0.00061047 0.0012352 0.00017664 0.00099292
-0.00042716 0.0020535 -0.002177 0.0016653 0.1079 -0.25496 0.0017939 -0.00095889
0.0014125 0.0020079 -0.00088374 0.0013776
-0.0029214 -0.0022162 -0.00021021 0.001679 0.0017974 -0.00096197 0.1624 -0.13646
0.0008647 0.0052678 -0.0020955 0.00059597
-0.00024869 0.0017409 0.0006175 0.001231 0.0014151 0.0020087 0.00090202 0.0052261
0.25077 0.019839 0.0043244 0.0020581
0.00026245 -0.00057464 0.00018808 0.0009959 -0.00088975 0.0013874 -0.0021036 0.00059934
0.0043189 0.002057 0.27635 0.059689
1940000000 0.17744 -0.1753 0.00042691 -0.0013181 0.0013803 0.0018651 -0.0037295 0.00067506
0.0012724 0.001229 -0.00069252 -0.00052509
0.00042636 -0.0013213 0.26327 0.091711 -0.00099691 0.0039347 0.00095149 0.0013972
0.0017889 0.0004386 0.00085009 0.0003356
0.0013931 0.0018598 -0.000976 0.0039496 0.062561 -0.24829 0.00041084 -0.0020786
0.002412 0.00048731 0.00037781 0.0016646
-0.0037207 0.00069455 0.00096538 0.0013856 0.00042129 -0.0020709 0.10973 -0.16642
-1.9751e-05 0.0039189 -0.0013122 0.0014773
0.0012837 0.0012235 0.0017892 0.00042946 0.00241 0.00047884 -1.2232e-05 0.003878
0.25174 -0.02028 0.0034789 -0.0013435
-0.00069809 -0.00051818 0.00085462 0.00032784 0.00037999 0.0016635 -0.0013174 0.0014844
0.0034809 -0.0013477 0.26488 0.023654
2000000000 0.13081 -0.18965 -0.0036133 0.00055831 0.0023883 0.0013706 -0.0023617 0.003626
0.0011585 0.00024066 -0.00064437 0.00041868
-0.0036032 0.00055259 0.24849 0.056396 -0.00066988 0.0056836 0.0016418 0.00049133
0.0012372 -0.0012854 0.0004968 9.4045e-05
0.0024007 0.0013637 -0.00063052 0.0056993 0.018972 -0.23364 -0.0013453 -0.0013261
0.002004 -0.0011315 0.0016051 0.0011767
-0.0023323 0.0036304 0.001649 0.00047831 -0.0013535 -0.0013238 0.056227 -0.17551
-0.0014221 0.0039033 0.00017053 0.0020489
0.0011568 0.0002246 0.0012287 -0.001303 0.0020052 -0.0011397 -0.001424 0.0038718
0.2441 -0.054937 0.00068223 -0.0022379
