!Keysight Technologies,M9804A,MY58100912,A.14.10.03
!Date: Thursday, April 27, 2023 10:28:33
!Correction: S11(C  6-Port  ) 
!S12(C  6-Port  ) 
!S13(C  6-Port  ) 
!S14(C  6-Port  ) 
!S15(C  6-Port  ) 
!S16(C  6-Port  ) 
!S21(C  6-Port  ) 
!S22(C  6-Port  ) 
!S23(C  6-Port  ) 
!S24(C  6-Port  ) 
!S25(C  6-Port  ) 
!S26(C  6-Port  ) 
!S31(C  6-Port  ) 
!S32(C  6-Port  ) 
!S33(C  6-Port  ) 
!S34(C  6-Port  ) 
!S35(C  6-Port  ) 
!S36(C  6-Port  ) 
!S41(C  6-Port  ) 
!S42(C  6-Port  ) 
!S43(C  6-Port  ) 
!S44(C  6-Port  ) 
!S45(C  6-Port  ) 
!S46(C  6-Port  ) 
!S51(C  6-Port  ) 
!S52(C  6-Port  ) 
!S53(C  6-Port  ) 
!S54(C  6-Port  ) 
!S55(C  6-Port  ) 
!S56(C  6-Port  ) 
!S61(C  6-Port  ) 
!S62(C  6-Port  ) 
!S63(C  6-Port  ) 
!S64(C  6-Port  ) 
!S65(C  6-Port  ) 
!S66(C  6-Port  ) 
!S6P File: Measurement: :
# Hz S  RI   R 50
500000000 -0.33835 -0.037684 -0.010062 -0.0032451 -0.0077213 0.012086 -0.004294 0.011823
0.011772 0.0041173 -0.0043074 0.0076422
-0.010218 -0.0034104 -0.41857 -0.050636 0.0079837 -0.011252 0.001896 0.011474
0.0078531 0.0021205 0.0016854 0.012662
-0.0076827 0.012229 0.0078301 -0.01136 -0.26507 0.21057 0.0068873 0.003208
-0.00042235 0.0083369 0.00090568 0.011979
-0.0045623 0.011473 0.0016554 0.011778 0.0069514 0.003191 -0.32836 0.045018
-0.020498 -0.0053486 0.018318 0.02534
0.012235 0.0040898 0.0077963 0.0021381 -0.00053911 0.0084457 -0.020573 -0.0052658
-0.22605 -0.18686 -0.027831 0.0038146
-0.0047476 0.0075683 0.0016071 0.013048 0.00090578 0.011781 0.018856 0.024903
-0.02824 0.003933 -0.27079 -0.11894
560000000 -0.31701 0.1241 -0.023973 -0.062862 3.7591e-05 0.012066 0.0062283 0.010641
0.010561 0.0044658 0.010104 0.0080004
-0.023622 -0.062639 -0.37579 0.10744 -0.041918 -0.036779 0.01384 0.0039291
-0.013003 -0.0042592 0.0045718 -0.0010176
0.00012463 0.012208 -0.041966 -0.036649 -0.18308 0.25817 -0.00077767 -0.0041697
0.019074 0.0042723 0.0066635 -0.0057662
0.006347 0.010126 0.013849 0.0035705 -0.00079275 -0.0042788 -0.30367 0.13492
0.0038938 -0.024355 0.0052324 -0.020085
0.01044 0.0039284 -0.013655 -0.004391 0.018794 0.0044259 0.0038656 -0.024103
-0.28733 -0.013436 0.0087121 -0.049128
0.010184 0.0083858 0.0044619 -0.00092589 0.006773 -0.0060434 0.0050976 -0.020057
0.0086123 -0.050019 -0.33048 0.02846
620000000 -0.27433 0.10847 -0.022779 0.0075312 0.0034988 0.0083292 0.0069916 -0.0052716
0.012411 -0.00058788 9.139e-05 -0.0024567
-0.02271 0.0075107 -0.40264 0.061143 -0.018739 -0.00017206 -0.0011246 -0.0019166
0.010557 -0.0072167 0.001002 -0.0032878
0.0035229 0.0083999 -0.018745 -0.00016181 -0.15319 0.26726 -0.001248 -0.0051473
-0.0039249 -0.0032418 0.0083494 -0.0034142
0.0069964 -0.0050739 -0.0012947 -0.0018575 -0.0012359 -0.0051255 -0.26387 0.14622
-0.039057 -0.019104 0.013296 0.025004
0.011909 -0.00043714 0.010483 -0.0071705 -0.003938 -0.0032324 -0.038651 -0.018703
-0.20584 -0.051 -0.039395 0.014549
-1.43e-05 -0.0021889 0.001159 -0.0027372 0.0081986 -0.003668 0.013435 0.02443
-0.040944 0.013968 -0.2505 -0.0074727
680000000 -0.234 0.19387 -0.027304 -0.014062 0.004633 0.0049545 0.0016824 -0.0073719
-0.0030099 -0.011277 0.0053204 -0.0069975
-0.027457 -0.014053 -0.38763 0.15868 -0.032606 -0.0014423 -0.0016678 -0.00013838
-0.0023025 -0.0087333 -0.00065692 -0.0019742
0.0047644 0.0050513 -0.032646 -0.0013266 -0.10209 0.28731 -0.00098234 0.00012175
-0.0017636 0.00085449 -0.0028736 -0.009586
0.0013591 -0.0074799 -0.0016379 -0.00020445 -0.00098738 6.4059e-05 -0.21978 0.19578
-0.024057 -0.0080088 -0.0092092 -0.010807
-0.0029992 -0.010922 -0.0023915 -0.0086835 -0.0018777 0.00084118 -0.024216 -0.0081097
-0.25579 0.04819 -0.005884 -0.0087259
0.0042491 -0.0069795 -0.00094441 -0.00205 -0.0030584 -0.0094523 -0.0091448 -0.010296
-0.0062713 -0.0090744 -0.2589 0.094451
740000000 -0.18981 0.18877 -0.038314 0.026576 0.012533 -0.0051119 -0.00089955 -0.004132
-0.0042259 -0.0033063 -0.0060682 0.0033519
-0.038447 0.026132 -0.33523 0.17758 -0.034983 0.03484 -0.00036623 -0.0062758
-0.011696 0.0075871 -0.0025881 -0.0057635
0.012586 -0.0051149 -0.034952 0.034703 -0.068094 0.28587 -0.0018755 0.0031493
-0.0026007 -0.0040578 -0.0014141 0.00017787
-0.00067942 -0.0040638 -0.00071272 -0.0061094 -0.0018555 0.0031308 -0.20315 0.20356
-0.042528 -0.0085207 0.022162 0.013913
-0.0044703 -0.0036915 -0.011861 0.0076407 -0.0026173 -0.004226 -0.042698 -0.0084653
-0.16007 0.0745 -0.041503 -0.00040026
-0.006274 0.0033898 -0.0027478 -0.0058863 -0.0014989 0.00020082 0.022088 0.014136
-0.041385 -2.0426e-05 -0.24747 0.1014
800000000 -0.15702 0.22844 -0.022427 0.016778 0.005114 -0.010461 -0.0046729 -0.0019468
-0.0040571 0.0021433 0.0045887 0.0010184
-0.022426 0.016671 -0.33768 0.24787 -0.0078119 0.033814 -0.0021887 0.0022292
-0.00072425 0.0031036 0.0010626 0.005328
0.0050463 -0.010432 -0.0077483 0.03392 -0.0272 0.30875 0.001033 0.0015126
0.00053652 0.0035631 -0.0019443 0.0010388
-0.0045876 -0.0019111 -0.0022077 0.0023056 0.001017 0.0015344 -0.17482 0.23122
-0.028158 0.01295 0.01335 -0.0094295
-0.0041005 0.0022409 -0.00078444 0.0030651 0.00061019 0.0035445 -0.028246 0.012974
-0.20331 0.097288 -0.017092 0.017779
0.0045287 0.0011731 0.00115 0.0052693 -0.0018704 0.00096721 0.013426 -0.0098018
-0.017114 0.017797 -0.2401 0.15346
860000000 -0.12224 0.24903 -0.017342 0.030852 -0.0034229 -0.00969 -0.0023414 0.0011279
0.0039211 0.0046417 -0.0033102 -0.0028423
-0.017531 0.030819 -0.28961 0.28998 0.0079485 0.033907 0.000126 0.0021887
0.004043 0.0003122 0.0032891 0.00041854
-0.0035161 -0.0096536 0.0080798 0.033945 0.021131 0.31645 -0.00048063 -0.00023096
0.0027772 -0.0013925 0.0014527 0.0043553
-0.0025116 0.0012771 8.4877e-05 0.0022228 -0.0004767 -0.00023895 -0.13832 0.2425
-0.017708 0.018766 -0.0066848 -0.0090122
0.003627 0.0050362 0.0041429 0.00049463 0.0026649 -0.0014078 -0.017886 0.018807
-0.15218 0.14557 -0.02467 0.014778
-0.0034344 -0.0029795 0.0031959 0.00042101 0.0014952 0.0044641 -0.0064392 -0.0088209
-0.024464 0.015314 -0.18946 0.19441
920000000 -0.096973 0.27161 0.0051051 0.037527 -0.0092172 -0.0042277 -0.0018398 0.0021436
0.0012224 0.001636 0.0026474 -0.0013379
0.0051189 0.037525 -0.26065 0.31046 0.027844 0.021612 0.001628 0.0011226
0.0068692 -0.00060158 0.0038182 -0.0028031
-0.0092102 -0.0042072 0.027953 0.021554 0.067291 0.31668 0.0018621 -8.6646e-05
0.0012031 -0.00028758 0.00093431 -0.0010269
-0.0018023 0.0021467 0.0016466 0.0010881 0.0018524 -8.882e-05 -0.11422 0.25872
-0.010428 0.030512 0.0033444 -0.0065003
0.0012705 0.0016474 0.0068199 -0.00059492 0.0011842 -0.0002674 -0.01041 0.030549
-0.14133 0.15193 -0.0024721 0.027308
0.0025767 -0.0013772 0.0039289 -0.002746 0.00085344 -0.00097218 0.0031322 -0.0064133
-0.0024325 0.027563 -0.19479 0.21015
980000000 -0.049815 0.29101 0.017384 0.029762 -0.0087593 0.0046449 0.0022034 0.0037217
0.0039527 -0.0016687 -0.0032517 -0.002018
0.01734 0.029781 -0.20774 0.3443 0.032612 0.0047183 0.0019154 9.8413e-05
0.0015108 -0.0061888 -0.00084215 -0.0020733
-0.0087173 0.0046422 0.032654 0.0045904 0.11344 0.30986 0.00051564 -0.0011864
0.00022024 -0.0021589 0.0013869 2.8237e-05
0.0021793 0.0037807 0.0019544 3.928e-05 0.00050878 -0.0011955 -0.075921 0.27028
0.0073752 0.029207 -0.0091978 -0.0065258
0.0038441 -0.001625 0.0013877 -0.0061928 0.0002394 -0.0021136 0.0074513 0.029306
-0.10972 0.17941 0.0046206 0.019214
-0.0033422 -0.001946 -0.00071114 -0.0020808 0.0014249 -2.2086e-05 -0.0090651 -0.0065208
0.0045131 0.019065 -0.15303 0.25432
1040000000 -0.0072885 0.29898 0.033014 0.017942 -0.0010999 0.0068407 0.0026742 0.00071322
0.00021584 -0.0036046 -0.00046457 -0.0016276
0.032997 0.017947 -0.1721 0.35712 0.02889 -0.014587 0.001486 -0.0016388
-0.0023767 -0.0024008 -0.0013014 -0.0026976
-0.0010709 0.0068174 0.028846 -0.014698 0.15937 0.29583 -0.00044213 -0.0014646
-0.0014259 -0.00086755 -0.00038238 -0.0011357
0.0026653 0.00073199 0.001487 -0.0016925 -0.00044512 -0.0014881 -0.048332 0.28001
0.018704 0.017629 -0.0025688 0.0017309
0.00013103 -0.0037077 -0.0025043 -0.0024461 -0.0014468 -0.00087156 0.018688 0.017584
-0.077395 0.18753 0.013304 0.018081
-0.00038131 -0.0016524 -0.0013456 -0.0027018 -0.00036412 -0.0011619 -0.0025981 0.001665
0.0133 0.017797 -0.13032 0.27383
1100000000 0.038035 0.30638 0.035493 -0.0041975 0.0029331 0.0037362 0.0024594 -0.0013441
-0.0020903 -0.0031034 -0.0038585 9.0602e-05
0.035463 -0.0042198 -0.12866 0.37392 0.014943 -0.02729 -5.8905e-06 -0.0017932
-0.0031754 -0.00067479 -0.0033735 -0.00065391
0.0029602 0.0037306 0.014849 -0.027354 0.20514 0.27552 -0.0017943 0.00014762
-0.0017612 0.00057138 -0.00090932 -0.00038189
0.0025547 -0.0013063 7.1538e-06 -0.0017897 -0.0018072 0.00015825 -0.0079148 0.28497
0.023334 0.0051457 -0.0022877 0.00067195
-0.0020927 -0.0031073 -0.0032286 -0.00069596 -0.0017496 0.00056183 0.023367 0.0051433
-0.058856 0.20082 0.018532 0.0085782
-0.0038126 0.00020824 -0.0034034 -0.00059312 -0.00090735 -0.0004122 -0.0023257 0.00051764
0.018657 0.0084426 -0.083713 0.30245
1160000000 0.089469 0.30112 0.023639 -0.020421 0.0027505 -0.00052084 -0.00020129 -0.0024516
-0.0040313 -0.00061512 -0.00069653 0.0037227
0.023698 -0.02036 -0.085029 0.37774 -0.0035118 -0.028564 -0.0016887 -0.0016537
-0.0025419 0.0024669 -0.0011541 0.0017831
0.0027405 -0.00052235 -0.0036466 -0.028588 0.24803 0.24496 -0.00070335 0.0016816
-0.00050826 0.001779 -0.00093757 2.4392e-05
-0.00020167 -0.0024281 -0.0017261 -0.0016544 -0.00071595 0.0016847 0.031436 0.28193
0.020049 -0.0096803 -0.0026489 0.0052927
-0.0040597 -0.00052473 -0.0025882 0.0024599 -0.0005316 0.0017887 0.020059 -0.0097365
-0.0254 0.20954 0.017033 0.00049052
-0.00079621 0.0037016 -0.0011494 0.0017157 -0.00093665 4.1155e-05 -0.0027741 0.0053023
0.01725 0.0006223 -0.036897 0.30501
1220000000 0.13365 0.28944 0.01032 -0.029556 -0.0015279 -0.00092768 -4.6802e-05 -0.0010049
-0.0026217 0.0024469 0.0011729 0.0018955
0.010383 -0.029526 -0.041146 0.38942 -0.01642 -0.020849 -0.0024517 0.00040804
0.00013721 0.0028596 -0.00077725 0.0017308
-0.0015137 -0.00091886 -0.016532 -0.020805 0.28719 0.20619 0.00076877 0.0016354
0.00055351 0.0012069 0.00022001 0.00065157
-4.2475e-05 -0.00098062 -0.0024492 0.00041317 0.00076632 0.0016388 0.071095 0.27328
0.010134 -0.015819 0.0024334 0.0015168
-0.0026484 0.0024001 0.00014475 0.0028378 0.00054998 0.0012047 0.010072 -0.015879
-0.0023554 0.21798 0.013611 -0.011936
0.0012101 0.0018958 -0.00075931 0.001753 0.00023488 0.00063169 0.0024521 0.0015486
0.01358 -0.012005 -0.0052745 0.32015
1280000000 0.18306 0.26707 -0.0075941 -0.028033 -0.0017918 0.002436 -0.00097811 -0.0019543
-0.0007733 0.0030109 0.0024394 0.0011338
-0.0075223 -0.028003 0.0043704 0.38054 -0.023128 -0.0085325 -0.0010399 0.0013951
0.0015677 0.0017167 0.00051437 0.0019788
-0.0017928 0.0024234 -0.023186 -0.0084414 0.31818 0.16258 0.0014045 -7.5902e-05
0.001002 0.00010205 0.00017424 0.0002552
-0.00098078 -0.0019705 -0.0010234 0.0013754 0.0013989 -6.8294e-05 0.10754 0.25718
0.0012297 -0.017983 0.00023108 0.00023497
-0.00071645 0.0029635 0.0015621 0.0017128 0.0010291 9.1698e-05 0.0011471 -0.017947
0.034105 0.22145 0.0029207 -0.014006
0.0024284 0.0011661 0.000543 0.0020052 0.00019623 0.00029149 0.00018442 0.00017393
0.0029875 -0.014029 0.042082 0.32098
1340000000 0.21985 0.23308 -0.01719 -0.018842 0.00080689 0.0042894 -0.0017842 -0.00083166
0.0013841 0.0026088 0.0016033 -0.0013779
-0.017143 -0.018835 0.043722 0.37243 -0.021245 0.0038619 -0.00015722 0.0019822
0.0017839 0.00078509 0.0012044 0.00077352
0.00081972 0.0042865 -0.021253 0.0039623 0.34064 0.11442 0.0010396 -0.00082611
0.00061923 -0.00034866 0.00012119 0.00025695
-0.0018311 -0.00084317 -0.00013588 0.0019667 0.0010347 -0.00081733 0.1403 0.23681
-0.0074267 -0.015463 0.0011567 0.00011079
0.0013686 0.0026331 0.0017831 0.00076064 0.00062129 -0.00037137 -0.0074757 -0.015406
0.063996 0.21652 -0.0028801 -0.012975
0.0016725 -0.0014459 0.001266 0.00083309 0.00014721 0.00030199 0.0011414 0.00018948
-0.0028609 -0.012891 0.080456 0.31571
1400000000 0.25231 0.19462 -0.022923 -0.007661 0.0049537 0.0030012 -0.0020361 0.00059784
0.0024006 0.00079705 0.00021096 -0.0014094
-0.022889 -0.0076596 0.080685 0.35957 -0.01474 0.011852 0.0012923 0.0013549
0.0010879 -0.00070868 0.0012555 0.00021725
0.0049893 0.0029819 -0.014709 0.011962 0.35401 0.06042 0.00015726 -0.0014619
2.0248e-05 -0.00035064 0.00034679 0.00016471
-0.0020223 0.0006196 0.0013068 0.0013435 0.00015781 -0.001467 0.16974 0.20835
-0.013038 -0.00954 -0.00070381 -0.00058979
0.0024241 0.00075167 0.0010824 -0.00072795 2.7946e-05 -0.00034651 -0.013061 -0.0095095
0.096421 0.21155 -0.0092176 -0.0084502
0.00022606 -0.0013968 0.0012517 0.00020893 0.00033227 0.00021324 -0.00066422 -0.00064013
-0.0092882 -0.0084901 0.12463 0.30473
1460000000 0.27485 0.15061 -0.020205 0.0042231 0.0053742 -0.0017054 -0.0015748 0.0016945
0.0019385 -0.00055038 -0.00033363 -0.00092549
-0.02017 0.0041998 0.11516 0.33806 -0.0064775 0.014896 0.001717 0.00022153
0.0009146 -0.0012052 0.0012183 -0.00059387
0.0053691 -0.001744 -0.0064041 0.014937 0.35999 0.005535 -0.0011206 -0.0012835
0.00019832 -0.00014681 0.00064555 -0.0003641
-0.0016243 0.0017362 0.0017086 0.0002098 -0.001138 -0.0012809 0.19649 0.17939
-0.01424 -0.0035951 -0.0010766 0.0016849
0.0019605 -0.00056752 0.00089396 -0.0012369 0.000204 -0.00015022 -0.014252 -0.0035339
0.12573 0.19712 -0.010977 -0.0032251
-0.00039268 -0.00089507 0.0011952 -0.00063539 0.00067178 -0.00036777 -0.0010927 0.0016454
-0.010989 -0.0032583 0.15798 0.28316
1520000000 0.28667 0.10889 -0.014823 0.0098292 0.0030492 -0.0040711 6.5438e-05 0.002587
0.0019089 -0.0016101 -0.0011374 -0.00021934
-0.014805 0.009815 0.14886 0.32315 0.0010749 0.013009 0.0016307 -0.00077089
8.5432e-05 -0.0010069 0.00032185 -0.0010449
0.0030144 -0.004088 0.0011569 0.013017 0.35258 -0.051246 -0.0010831 -0.00041597
0.00053196 -0.00083444 -3.0151e-05 -8.0136e-05
4.7445e-05 0.0025636 0.0016364 -0.00076694 -0.0010802 -0.000413 0.22001 0.14141
-0.014134 0.0016427 0.0010763 0.0018799
0.0019226 -0.0016167 6.0503e-05 -0.0010069 0.000538 -0.00083092 -0.014135 0.0016703
0.15333 0.18272 -0.011199 0.00095909
-0.0011401 -0.00023104 0.00031266 -0.0010312 -2.3518e-05 -8.2909e-05 0.0011056 0.0018865
-0.011096 0.000947 0.19113 0.26205
1580000000 0.2956 0.062821 -0.0084052 0.013023 -0.00089329 -0.0045517 0.0013899 0.0018792
-0.00028386 -0.0020551 -0.00038861 0.00045681
-0.0084031 0.01302 0.17637 0.29839 0.0048099 0.0084505 0.00051794 -0.0015659
-0.00046302 -0.0010708 -0.0002064 -0.00082899
-0.00092583 -0.004591 0.0048641 0.0084237 0.33189 -0.10872 -0.0016121 0.00054732
-0.00019654 -0.0011142 0.00021255 -0.00040997
0.0014251 0.0018896 0.00051627 -0.0015775 -0.0016086 0.00057024 0.23444 0.10199
-0.011348 0.0064041 0.0019462 0.0007855
-0.00033275 -0.0020265 -0.00048692 -0.0010625 -0.0001984 -0.0011002 -0.011363 0.0064235
0.17763 0.16472 -0.0091905 0.0064346
-0.00033426 0.0004751 -0.0002153 -0.00084985 0.00019348 -0.00048534 0.0019783 0.00082174
-0.0092215 0.0064376 0.22273 0.23473
1640000000 0.29753 0.021466 -0.0018603 0.012239 -0.0026149 -0.0025543 0.002651 0.0010229
-0.00066788 -0.0013866 -0.00033209 0.00071204
-0.0018681 0.012234 0.20614 0.27294 0.0056456 0.0038305 -0.00065373 -0.001706
-0.0010182 -0.00042724 -0.00051403 -0.00065288
-0.0026245 -0.0025313 0.0056635 0.0037973 0.30311 -0.15777 -0.00072012 0.0014497
-0.00099958 -0.00095863 -0.00013778 -0.00025212
0.0026631 0.0010233 -0.00067107 -0.0017006 -0.00072145 0.0014439 0.24707 0.052589
-0.0075885 0.0080641 0.0022937 -0.00066806
-0.00070984 -0.0013323 -0.0010321 -0.00041156 -0.00099004 -0.00092847 -0.0075745 0.0080752
0.20049 0.13991 -0.0049554 0.0085834
-0.00032123 0.00070593 -0.000508 -0.00065068 -9.1752e-05 -0.00025315 0.0023139 -0.00071757
-0.0048907 0.0085373 0.2482 0.20306
1700000000 0.29014 -0.023816 0.0016823 0.0097746 -0.0033951 0.00012764 0.0030176 -0.0011773
-0.0019437 -0.00066251 0.00067985 0.00042283
0.0016591 0.0097736 0.22418 0.24097 0.0039332 0.00090244 -0.0013838 -0.0005898
-0.00079391 7.4202e-05 -0.00090616 -0.00044704
-0.0034111 0.00015526 0.0039448 0.00086529 0.25951 -0.19736 0.00049035 0.0016306
-0.0017734 -0.00027506 -0.00052619 -0.00091229
0.0030077 -0.0012012 -0.0013884 -0.00059203 0.00049513 0.0016341 0.24378 0.0021641
-0.0049331 0.0089647 0.0013369 -0.0020367
-0.0019318 -0.00065437 -0.00077708 9.585e-05 -0.0017851 -0.00024467 -0.0049455 0.0089853
0.21779 0.11897 -0.00058943 0.0090981
0.00067352 0.00039079 -0.00091364 -0.00043873 -0.00050401 -0.00088777 0.0013151 -0.0020523
-0.00062941 0.0091204 0.26373 0.1682
1760000000 0.27775 -0.07242 0.0042335 0.0066025 -0.0022036 0.00077164 0.0012359 -0.0033865
-0.0013097 0.00055375 0.000427 -0.00048016
0.0042277 0.0066366 0.25 0.20062 0.0018567 -0.0010811 -0.0011869 0.00013937
-0.0010431 0.00089312 -0.00062113 0.00051315
-0.0021906 0.00081429 0.0018637 -0.0010793 0.2109 -0.23055 0.0011648 0.0010878
-0.0011903 0.0013479 -0.0013816 -0.00030952
0.0012184 -0.0033963 -0.0011874 0.00013097 0.0011584 0.0010616 0.23416 -0.049543
-0.0015981 0.0085163 -0.00033191 -0.0022505
-0.0013089 0.00060698 -0.0010431 0.00090089 -0.0011805 0.0013726 -0.001586 0.0085341
0.23266 0.083245 0.0032062 0.006854
0.00046987 -0.00046963 -0.00058009 0.00052928 -0.00132 -0.0003454 -0.00031858 -0.0022847
0.0032011 0.006845 0.27572 0.13014
1820000000 0.25263 -0.10983 0.004668 0.0030188 -7.7239e-06 0.0023991 -0.00095959 -0.0030908
-0.0010177 0.00081309 -1.9969e-05 -0.00023146
0.0046699 0.0030159 0.2595 0.17005 -0.00016914 4.4702e-06 -0.0013864 0.00086223
-1.2955e-05 0.0012727 -0.00052049 0.00056268
4.0938e-05 0.002407 -0.00017409 1.0987e-05 0.1602 -0.24573 0.0015363 0.00030311
-0.00031325 0.0022287 -0.0014799 0.00052977
-0.0009925 -0.0030249 -0.0014003 0.00086601 0.001524 0.00028258 0.20361 -0.096829
0.00010337 0.0070178 -0.0016034 -0.0013743
-0.0010131 0.00086987 3.2557e-06 0.0012611 -0.00030336 0.0021981 0.0001201 0.0070521
0.24917 0.05294 0.004268 0.0038008
2.2067e-05 -0.00021256 -0.00052475 0.00058283 -0.0014924 0.00052833 -0.0015206 -0.0013267
0.0042517 0.003782 0.27735 0.093546
1880000000 0.21708 -0.14994 0.0026574 0.00058072 -0.0004364 0.0020542 -0.0029193 -0.0022485
-0.00026197 0.0017172 0.00025164 -0.00057091
0.0026504 0.00058233 0.26331 0.12346 -0.0021688 0.001644 -0.00021597 0.0016988
0.00061214 0.0012546 0.00015227 0.00098167
-0.00040842 0.0020687 -0.0021723 0.0016637 0.10776 -0.25494 0.0018324 -0.0009201
0.0014283 0.001998 -0.00088645 0.0014077
-0.0028903 -0.0022805 -0.00021269 0.0016948 0.001852 -0.00092938 0.16247 -0.13654
0.00085902 0.0051434 -0.0020525 0.0006744
-0.00020503 0.0017147 0.00061615 0.0012334 0.0013994 0.0020301 0.00086373 0.0051474
0.25129 0.019432 0.0041984 0.0020112
0.00029157 -0.00061352 0.00019544 0.00098468 -0.00086748 0.0014081 -0.0021116 0.00060436
0.0042792 0.0019942 0.2765 0.059976
1940000000 0.17733 -0.17542 0.00044789 -0.001328 0.0014188 0.0018868 -0.0036828 0.00062512
0.0012743 0.0012573 -0.00067867 -0.00051176
0.00041273 -0.0013064 0.26341 0.091585 -0.0010147 0.0039374 0.0009579 0.0013939
0.0017836 0.00046452 0.00084793 0.000329
0.0013845 0.0018424 -0.00096988 0.0039395 0.062453 -0.24832 0.00043449 -0.0020716
0.0023928 0.0004964 0.00036427 0.0017063
-0.0036988 0.00064536 0.00096631 0.0013937 0.0004343 -0.0020578 0.10973 -0.16655
-0.00012751 0.0038177 -0.0013709 0.0014836
0.0012653 0.0012576 0.001799 0.00045614 0.0023909 0.00049927 -7.7887e-05 0.0038117
0.2521 -0.020906 0.0034347 -0.0014129
-0.00065963 -0.00045746 0.00085224 0.00033322 0.00036484 0.0016573 -0.0012907 0.0015023
0.0034425 -0.0014002 0.26502 0.023665
2000000000 0.1306 -0.18974 -0.0035974 0.00056198 0.0023603 0.0013528 -0.0023713 0.0036176
0.0011568 0.00027292 -0.000519 0.00047557
-0.003625 0.00056682 0.24856 0.056251 -0.00067521 0.0056752 0.0016286 0.00050637
0.0012681 -0.0012977 0.00048383 0.00012867
0.002375 0.0013697 -0.00062305 0.0056905 0.018856 -0.23366 -0.0013494 -0.0013403
0.0020423 -0.0011501 0.0015423 0.0012034
-0.0022954 0.0036772 0.0016584 0.00049291 -0.0013226 -0.0013354 0.056208 -0.17575
-0.00155 0.0038641 0.00025821 0.0020735
0.0010663 0.00028396 0.0012445 -0.0013128 0.0020071 -0.0011292 -0.0014993 0.0038269
0.24414 -0.055651 0.00062421 -0.0022252
