!Keysight Technologies,M9804A,MY58100912,A.14.10.03
!Date: Thursday, April 27, 2023 10:28:33
!Correction: S11(C  6-Port  ) 
!S12(C  6-Port  ) 
!S13(C  6-Port  ) 
!S14(C  6-Port  ) 
!S15(C  6-Port  ) 
!S16(C  6-Port  ) 
!S21(C  6-Port  ) 
!S22(C  6-Port  ) 
!S23(C  6-Port  ) 
!S24(C  6-Port  ) 
!S25(C  6-Port  ) 
!S26(C  6-Port  ) 
!S31(C  6-Port  ) 
!S32(C  6-Port  ) 
!S33(C  6-Port  ) 
!S34(C  6-Port  ) 
!S35(C  6-Port  ) 
!S36(C  6-Port  ) 
!S41(C  6-Port  ) 
!S42(C  6-Port  ) 
!S43(C  6-Port  ) 
!S44(C  6-Port  ) 
!S45(C  6-Port  ) 
!S46(C  6-Port  ) 
!S51(C  6-Port  ) 
!S52(C  6-Port  ) 
!S53(C  6-Port  ) 
!S54(C  6-Port  ) 
!S55(C  6-Port  ) 
!S56(C  6-Port  ) 
!S61(C  6-Port  ) 
!S62(C  6-Port  ) 
!S63(C  6-Port  ) 
!S64(C  6-Port  ) 
!S65(C  6-Port  ) 
!S66(C  6-Port  ) 
!S6P File: Measurement: :
# Hz S  RI   R 50
500000000 -0.33394 -0.052236 -0.0099342 -0.0015636 -0.0079698 0.012962 -0.005018 0.011952
0.012611 0.0051487 -0.0052255 0.0077458
-0.010047 -0.0016233 -0.41657 -0.06298 0.0081728 -0.010536 0.0014228 0.011551
0.0078831 0.0021631 0.0013306 0.013611
-0.0079068 0.013041 0.0082881 -0.010644 -0.2666 0.19978 0.0066362 0.0036148
-0.0018921 0.0082012 0.00032357 0.012376
-0.0044518 0.01154 0.0015853 0.011296 0.0068527 0.0036443 -0.33209 0.043814
-0.018386 -0.00458 0.016477 0.025877
0.012135 0.004965 0.0082703 0.0025486 -0.0019075 0.0080369 -0.018238 -0.0043339
-0.24806 -0.19377 -0.025837 0.0048822
-0.004118 0.0072311 0.0020359 0.012693 0.00045754 0.012484 0.016422 0.025402
-0.025719 0.0049822 -0.27242 -0.11921
560000000 -0.31814 0.11402 -0.022149 -0.065157 0.0001435 0.012734 0.0052763 0.010821
0.010906 0.0042057 0.010677 0.0089174
-0.021874 -0.065084 -0.3758 0.1005 -0.041319 -0.037735 0.013274 0.0036922
-0.013419 -0.0033109 0.0031034 -0.0016427
0.00014986 0.013123 -0.041684 -0.03778 -0.18579 0.25137 -0.00045954 -0.0053213
0.018309 0.0045774 0.0084806 -0.0062567
0.004952 0.011018 0.01363 0.0036474 -0.00044209 -0.0052984 -0.30602 0.13581
0.0052295 -0.024059 0.0048661 -0.020664
0.010789 0.0051465 -0.013237 -0.0043596 0.018529 0.004781 0.0053025 -0.02431
-0.30783 -0.013746 0.0085616 -0.04694
0.010206 0.0084906 0.0039532 -0.0010911 0.0083839 -0.0060748 0.0046882 -0.02095
0.0084967 -0.046748 -0.33147 0.026647
620000000 -0.27703 0.094256 -0.022809 0.0085048 0.0037899 0.009426 0.008733 -0.0038315
0.011264 -0.0021516 0.0016605 -0.0023969
-0.022769 0.0085568 -0.40326 0.049817 -0.018406 0.000561 -0.0011659 -0.0019219
0.011698 -0.0061847 0.0011738 -0.003357
0.0037792 0.0093867 -0.018363 0.00057707 -0.1554 0.26027 -0.00023706 -0.0051082
-0.0036715 -0.0029276 0.0093985 -0.0026958
0.0079513 -0.004271 -0.0013272 -0.0019348 -6.0498e-05 -0.0050043 -0.2658 0.14636
-0.038005 -0.01942 0.012656 0.026179
0.012846 -0.0019342 0.012064 -0.0061452 -0.003876 -0.0028633 -0.038158 -0.019693
-0.23261 -0.046967 -0.039872 0.013764
0.00043334 -0.002771 0.0011964 -0.0035884 0.0096251 -0.0027085 0.013031 0.026534
-0.040063 0.014159 -0.25107 -0.0054736
680000000 -0.23849 0.18425 -0.02635 -0.014381 0.0050694 0.0054645 0.0015594 -0.0073754
-0.0018277 -0.012084 0.005253 -0.0073652
-0.026369 -0.01438 -0.38966 0.15072 -0.032221 -0.0019152 -0.0012055 -0.00066532
-0.0016187 -0.0092606 -0.0010996 -0.0018634
0.0050425 0.0053064 -0.032238 -0.0018414 -0.1037 0.28093 -0.00091309 -0.00069962
-0.0017933 0.00039101 -0.0028791 -0.0089891
0.0016997 -0.0074503 -0.0012145 -0.00059848 -0.00061443 -0.00063857 -0.21994 0.19751
-0.023626 -0.0080146 -0.0088813 -0.010877
-0.0019282 -0.011923 -0.0015784 -0.0092994 -0.0018847 0.00044363 -0.023684 -0.0080417
-0.2795 0.055357 -0.0077632 -0.0079233
0.0056605 -0.0072294 -0.001041 -0.0018822 -0.0029757 -0.0087956 -0.0087666 -0.011139
-0.0079808 -0.0076992 -0.25993 0.097714
740000000 -0.19288 0.17779 -0.039988 0.026735 0.013578 -0.0049259 -0.00049401 -0.0044214
-0.0044343 -0.0033452 -0.0067454 0.0028171
-0.039894 0.026697 -0.33501 0.16917 -0.036552 0.034696 -0.00036739 -0.00599
-0.012252 0.0071331 -0.0011244 -0.0061488
0.013551 -0.0047692 -0.036407 0.03482 -0.06955 0.27829 -0.0021751 0.0033422
-0.0030835 -0.0058668 -0.001023 0.0016125
-0.00079996 -0.0043542 -0.00010764 -0.0061893 -0.0022023 0.0034108 -0.20335 0.2045
-0.042903 -0.0079044 0.022934 0.0147
-0.0039114 -0.0032055 -0.012003 0.0075425 -0.0030401 -0.0059528 -0.042995 -0.0078669
-0.18058 0.084426 -0.041791 7.632e-05
-0.0070219 0.0025788 -0.0011021 -0.0061111 -0.0012322 0.0016347 0.022512 0.014988
-0.041307 -0.00012086 -0.2473 0.10284
800000000 -0.16172 0.22102 -0.022664 0.016231 0.0056562 -0.010417 -0.0043204 -0.0021575
-0.0046047 0.002363 0.0044306 0.00038135
-0.022653 0.01625 -0.34101 0.23966 -0.0086085 0.034028 -0.0024043 0.0021671
-0.0014046 0.0030067 0.00083556 0.0052678
0.005595 -0.010455 -0.0085456 0.034088 -0.030925 0.30243 0.00098258 0.0015754
-7.8803e-05 0.0036374 -0.0017578 0.0011027
-0.0042412 -0.0018894 -0.0024395 0.0023262 0.0010075 0.0015639 -0.17399 0.23244
-0.028561 0.012939 0.013961 -0.0095109
-0.0048312 0.0024149 -0.0014301 0.0028029 -0.00012817 0.0036755 -0.028576 0.013087
-0.22087 0.11218 -0.017347 0.018895
0.0044278 0.0006397 0.00054572 0.0054912 -0.0016026 0.001155 0.013808 -0.010033
-0.016711 0.019279 -0.24016 0.15288
860000000 -0.12705 0.2414 -0.017747 0.030468 -0.0029363 -0.010183 -0.0018088 0.00087133
0.0042229 0.0050687 -0.0035519 -0.0030235
-0.017829 0.030517 -0.29245 0.28252 0.0074197 0.034367 0.00017665 0.0020909
0.003902 0.00058813 0.0029669 0.00020011
-0.002971 -0.010253 0.0075465 0.034343 0.016683 0.31068 -0.00060235 -9.8422e-05
0.0024556 -0.0013933 0.0015371 0.0041044
-0.0016542 0.00065747 0.00021878 0.0020488 -0.00059441 -5.7646e-05 -0.1371 0.2433
-0.017956 0.017967 -0.0063223 -0.0087644
0.0041934 0.0051799 0.003906 0.00096385 0.0024006 -0.0013814 -0.018023 0.018019
-0.16359 0.1617 -0.024096 0.017035
-0.0036995 -0.0032723 0.0029241 0.00012993 0.001511 0.0041764 -0.0063653 -0.0089333
-0.024465 0.017143 -0.18953 0.19487
920000000 -0.10339 0.26471 0.0045651 0.038314 -0.0091473 -0.0049518 -0.0018979 0.0017796
0.0015699 0.0016383 0.0027274 -0.0015066
0.0045486 0.038324 -0.26521 0.30387 0.027956 0.022718 0.0014828 0.001287
0.008001 -0.00027133 0.0039408 -0.0028944
-0.0092135 -0.0048958 0.028103 0.022706 0.062029 0.31186 0.0020332 5.5894e-05
0.0011946 -0.00046133 0.00093927 -0.0012012
-0.0018703 0.0019606 0.0015269 0.0013688 0.0020302 8.0366e-05 -0.11288 0.25947
-0.010984 0.030492 0.0031803 -0.0065325
0.001654 0.0014209 0.0078792 -0.00035703 0.001175 -0.00050608 -0.010933 0.030537
-0.15276 0.16706 -0.0021913 0.026236
0.0025613 -0.0013778 0.0040066 -0.0028111 0.00098651 -0.0011715 0.0033916 -0.0065567
-0.0020865 0.02635 -0.19627 0.21
980000000 -0.05694 0.28471 0.016734 0.03005 -0.0093791 0.0041683 0.0017968 0.0035345
0.0037644 -0.0017995 -0.003115 -0.0021427
0.0167 0.030008 -0.21215 0.33844 0.033237 0.0054233 0.0020796 -0.00013248
0.0017461 -0.0062069 -0.00021997 -0.0024176
-0.0093573 0.0041352 0.033304 0.0053082 0.10777 0.30629 0.00071355 -0.0011169
0.00060051 -0.0020104 0.0015978 -0.00011105
0.0017682 0.0034677 0.0020402 -0.0001368 0.00069481 -0.0011342 -0.074773 0.27075
0.0071508 0.029907 -0.0088609 -0.0065326
0.0039337 -0.0017072 0.0017911 -0.006154 0.00061574 -0.0020397 0.0072439 0.029942
-0.11853 0.19805 0.0062252 0.019098
-0.0030355 -0.0021281 -0.00025699 -0.0023089 0.0015281 -0.00016535 -0.0089175 -0.0066404
0.0064011 0.018876 -0.15305 0.25323
1040000000 -0.015315 0.29383 0.032813 0.019114 -0.0015835 0.0070352 0.0026871 0.00084057
0.00027651 -0.003598 -0.00013679 -0.0016835
0.032783 0.019119 -0.17712 0.35193 0.029872 -0.014391 0.0016506 -0.0015933
-0.0020189 -0.0027417 -0.00095211 -0.0030077
-0.0015672 0.0070163 0.029894 -0.01453 0.15356 0.29331 -0.00040451 -0.0016225
-0.0015274 -0.0010065 -0.000462 -0.0011353
0.0027388 0.00084193 0.0016172 -0.0016502 -0.00041349 -0.0016006 -0.047163 0.28034
0.019494 0.018826 -0.0025731 0.001152
0.00032566 -0.0036511 -0.0020511 -0.0027413 -0.0015519 -0.0010278 0.019499 0.01881
-0.086011 0.20421 0.014452 0.017297
-0.00024656 -0.0017107 -0.00092996 -0.0029016 -0.00045734 -0.0010879 -0.0025357 0.0012419
0.014325 0.017701 -0.13022 0.27342
1100000000 0.029735 0.30269 0.036349 -0.0034344 0.0028334 0.0041865 0.0024462 -0.0011219
-0.0021188 -0.0031195 -0.0040568 -0.00010413
0.036318 -0.003408 -0.13407 0.37004 0.015933 -0.027789 7.4235e-05 -0.0018245
-0.0036391 -0.0010556 -0.0036694 -0.00054688
0.0028471 0.0041834 0.015858 -0.02787 0.19956 0.27408 -0.0019267 7.656e-05
-0.0017933 0.00041938 -0.0011247 -0.00047054
0.0024426 -0.0011069 5.4978e-05 -0.0018498 -0.0019029 7.9074e-05 -0.0069561 0.28538
0.025119 0.0056876 -0.0023115 4.2594e-05
-0.0022114 -0.0030625 -0.0036741 -0.0010291 -0.0017909 0.00043905 0.025099 0.0056118
-0.065193 0.21661 0.019803 0.0081816
-0.0039321 -5.5738e-05 -0.003661 -0.00061316 -0.0011709 -0.00046577 -0.0022904 8.1326e-05
0.019682 0.0082645 -0.084244 0.30181
1160000000 0.080727 0.29872 0.0245 -0.020431 0.0027834 -0.00036391 -0.00010421 -0.002492
-0.0040226 -0.0007412 -0.00090016 0.0041277
0.024494 -0.020386 -0.090629 0.37448 -0.0031789 -0.029484 -0.0016221 -0.0017481
-0.0028321 0.0025301 -0.0016297 0.0018901
0.0027783 -0.000423 -0.0033296 -0.029502 0.24287 0.24408 -0.00087859 0.0017957
-0.00073014 0.0019765 -0.0008528 0.00024276
-0.00011641 -0.0024696 -0.0016466 -0.0017046 -0.00085995 0.0017958 0.032511 0.28266
0.021498 -0.010181 -0.0030573 0.0051013
-0.0040107 -0.00076905 -0.0028644 0.0025096 -0.00068748 0.0020212 0.021519 -0.010214
-0.030707 0.2239 0.01831 -0.00064755
-0.00091711 0.0041476 -0.0016097 0.0019931 -0.00085427 0.0002399 -0.0031646 0.0051115
0.018155 -0.00079023 -0.037169 0.3042
1220000000 0.12473 0.28881 0.011166 -0.030058 -0.001552 -0.00098287 1.4617e-05 -0.00093037
-0.0027435 0.0022045 0.0010752 0.0020073
0.011166 -0.030027 -0.046709 0.38755 -0.016784 -0.021962 -0.0026668 0.00048507
-9.6588e-05 0.0031425 -0.0008907 0.0018709
-0.0015728 -0.00098909 -0.016897 -0.021892 0.28211 0.20583 0.00071916 0.0017956
0.00059359 0.0012679 0.00023601 0.00057408
3.0014e-05 -0.00092491 -0.0026648 0.00046959 0.00073489 0.0018074 0.072426 0.27409
0.011086 -0.017327 0.0019739 0.0014446
-0.0027319 0.0022187 -6.3651e-05 0.0031015 0.00059226 0.0012849 0.011074 -0.017304
-0.0067785 0.23224 0.013419 -0.013316
0.0010341 0.0020308 -0.00088519 0.0018917 0.00029084 0.00055173 0.0020802 0.0013959
0.013544 -0.013166 -0.0055935 0.31898
1280000000 0.17498 0.26825 -0.0075007 -0.028812 -0.0020387 0.0024683 -0.00083472 -0.0020755
-0.00071632 0.0032486 0.0025059 0.0013134
-0.0074679 -0.028763 -0.00078167 0.37941 -0.024066 -0.0091 -0.0010472 0.00153
0.0016916 0.0018173 0.0005343 0.0020573
-0.0020034 0.0024685 -0.024143 -0.0089801 0.31316 0.16245 0.0015911 4.6284e-05
0.0012763 0.00034701 0.00036832 0.00020698
-0.0008549 -0.0020849 -0.0010053 0.0015053 0.0015657 4.6391e-05 0.1095 0.25801
0.0013681 -0.019675 -0.00011983 0.00025218
-0.00076143 0.0032695 0.0016854 0.00181 0.001255 0.00029865 0.0012926 -0.019704
0.02982 0.23501 0.0029396 -0.015356
0.0025918 0.0013987 0.00059463 0.0021119 0.0003101 0.00021883 -0.00016752 0.00022485
0.0029247 -0.015396 0.041451 0.32054
1340000000 0.21239 0.23528 -0.017468 -0.019368 0.00075838 0.0047205 -0.0017669 -0.0008269
0.001414 0.0026 0.0018115 -0.0013565
-0.01741 -0.019368 0.038758 0.37187 -0.022024 0.0040062 -9.4398e-05 0.0020997
0.0020023 0.00078741 0.001264 0.0008063
0.00078058 0.0047145 -0.022015 0.0040641 0.33547 0.11533 0.0011618 -0.00092912
0.00065482 -0.00064905 0.00010017 0.00030863
-0.0017984 -0.00077228 -0.00010688 0.0021166 0.0011788 -0.00092813 0.14262 0.23715
-0.0083399 -0.017104 0.00076872 0.0003825
0.0014291 0.0026014 0.0019984 0.00079946 0.00065515 -0.0006397 -0.0083605 -0.017088
0.059983 0.22989 -0.0040744 -0.013862
0.0017304 -0.0013581 0.0012642 0.0007848 5.6728e-05 0.00027156 0.00076785 0.00045093
-0.0040454 -0.013767 0.079726 0.31509
1400000000 0.24612 0.19806 -0.023481 -0.0078485 0.005367 0.0034006 -0.0022178 0.00058552
0.0025075 0.00098604 0.00033645 -0.0015809
-0.02345 -0.0078366 0.076301 0.35962 -0.015408 0.012447 0.0013827 0.0013322
0.001343 -0.00078941 0.0012392 0.00016781
0.0053741 0.0033452 -0.015361 0.012545 0.34903 0.062144 0.00011715 -0.0016558
9.9589e-05 -0.00043311 0.00037624 0.00021679
-0.0022098 0.0005581 0.0013756 0.0013506 0.00010369 -0.0016666 0.17232 0.20826
-0.014637 -0.010263 -0.00073362 -0.00022049
0.0025128 0.0009172 0.0013219 -0.00082442 9.4614e-05 -0.00043568 -0.014668 -0.010233
0.092936 0.22513 -0.010229 -0.0086106
0.00027904 -0.001669 0.0012032 0.00015572 0.00037508 0.00018411 -0.00078258 -0.00022428
-0.010223 -0.0086448 0.1235 0.30377
1460000000 0.26959 0.1546 -0.020546 0.0045203 0.0059297 -0.0017588 -0.0015719 0.0017297
0.0021526 -0.00048453 -0.00035412 -0.00097748
-0.020541 0.0045014 0.11107 0.33819 -0.0064137 0.01575 0.0017443 0.00016298
0.00095709 -0.0013929 0.0012216 -0.00062973
0.0059527 -0.001814 -0.0063033 0.015777 0.35573 0.0081358 -0.0012101 -0.0013132
0.00016717 -0.00023346 0.00069331 -0.0002592
-0.0016002 0.0017361 0.0017561 0.00013118 -0.0011909 -0.0013216 0.19893 0.17868
-0.016146 -0.0036142 -0.00085289 0.0020267
0.0021602 -0.00051192 0.00093602 -0.0013954 0.00016072 -0.00025474 -0.016158 -0.0035879
0.12225 0.21045 -0.012049 -0.0027685
-0.00039083 -0.001094 0.0012032 -0.00062757 0.00073973 -0.00025928 -0.00077783 0.002018
-0.011996 -0.0027197 0.15663 0.28301
1520000000 0.28237 0.11313 -0.014999 0.010167 0.003408 -0.0043196 0.0001161 0.0025471
0.0020738 -0.0019886 -0.0012115 -0.00017686
-0.014996 0.010142 0.14498 0.32388 0.001513 0.013519 0.0016756 -0.00079058
3.4503e-05 -0.0011695 0.00031578 -0.001085
0.0034045 -0.0043397 0.0015665 0.013553 0.34936 -0.047995 -0.0010937 -0.00041043
0.00062412 -0.00089354 8.3474e-06 -0.00018739
0.00010288 0.0025593 0.0016707 -0.00080797 -0.0010838 -0.00040959 0.22204 0.14016
-0.015603 0.0025185 0.0014922 0.0020853
0.0020766 -0.0019747 1.5449e-05 -0.0011683 0.00064772 -0.00089551 -0.015598 0.0025578
0.15025 0.19684 -0.011869 0.001774
-0.0011956 -0.00013729 0.00029613 -0.0010631 3.8974e-06 -0.00018538 0.0014761 0.0021066
-0.01185 0.0017946 0.18941 0.26213
1580000000 0.29264 0.067223 -0.0082464 0.01348 -0.00092578 -0.0050201 0.0014678 0.0019567
-0.00022977 -0.0022404 -0.00028262 0.00037284
-0.0082512 0.013462 0.1727 0.29935 0.0054249 0.0085435 0.00053652 -0.0016029
-0.00058376 -0.0010787 -0.00018018 -0.00088532
-0.00098714 -0.0050915 0.0054822 0.008519 0.32993 -0.1055 -0.0016763 0.0005794
-0.0003563 -0.0012588 0.00026238 -0.00052835
0.0014791 0.0019151 0.00050903 -0.0015886 -0.0016851 0.00055778 0.23581 0.10059
-0.012213 0.0077348 0.0021381 0.00078196
-0.00023694 -0.0022156 -0.00060927 -0.0010736 -0.00032559 -0.0012409 -0.012187 0.0077559
0.1745 0.17904 -0.0093017 0.0073015
-0.00023124 0.00030723 -0.00020279 -0.00088148 0.00026897 -0.00052552 0.0021354 0.00081394
-0.0092812 0.0072581 0.2209 0.23535
1640000000 0.29524 0.025938 -0.0014654 0.012398 -0.0029129 -0.0026678 0.0027172 0.0010846
-0.0007614 -0.0016039 -0.00029816 0.0006007
-0.0014845 0.012387 0.20276 0.27444 0.0062116 0.0035465 -0.00063961 -0.0018202
-0.0010737 -0.0004353 -0.00062429 -0.00067294
-0.0029052 -0.0026365 0.0062247 0.0035031 0.30172 -0.15503 -0.00071635 0.0014974
-0.0010892 -0.00096045 -0.00022535 -0.00031178
0.0027544 0.0011031 -0.00065127 -0.0017969 -0.00074729 0.0015315 0.24815 0.051526
-0.0077272 0.0094667 0.0025008 -0.00076274
-0.00077826 -0.0015796 -0.0010827 -0.00041751 -0.0011404 -0.00097706 -0.0076817 0.0094932
0.19773 0.15512 -0.0045271 0.0092269
-0.00030611 0.00061965 -0.00060568 -0.00068276 -0.00015837 -0.00031387 0.002502 -0.00079345
-0.004495 0.0092258 0.24644 0.2041
1700000000 0.28844 -0.019506 0.0020296 0.009578 -0.003626 -3.9835e-05 0.0031767 -0.0012052
-0.0020065 -0.00062786 0.0006078 0.00049738
0.002011 0.0095683 0.2211 0.24295 0.0040781 0.00046798 -0.0015156 -0.0006123
-0.00086529 8.3814e-05 -0.00089337 -0.00046979
-0.0036411 2.9197e-06 0.0040994 0.00045888 0.25838 -0.19492 0.00045609 0.0017105
-0.0019743 -7.3238e-05 -0.00024536 -0.00089733
0.0031599 -0.0012588 -0.0014949 -0.00063281 0.00046178 0.0017019 0.24468 0.0014773
-0.004559 0.010153 0.0016824 -0.0022473
-0.0020063 -0.00065007 -0.00086025 8.429e-05 -0.0020135 -4.7633e-05 -0.0045271 0.01018
0.21504 0.13477 1.2271e-05 0.0096517
0.00062529 0.00050449 -0.0009036 -0.00042136 -0.00040077 -0.00092276 0.001712 -0.0022638
2.2685e-05 0.00964 0.26226 0.1698
1760000000 0.27689 -0.068373 0.0044184 0.0062836 -0.0023409 0.00095636 0.0013656 -0.0033827
-0.0014156 0.0007127 0.00044296 -0.00047505
0.0044099 0.0063003 0.24747 0.20307 0.0017816 -0.0015142 -0.0012526 0.00019007
-0.0010885 0.00097921 -0.00064388 0.0004186
-0.0023479 0.0009682 0.0017859 -0.0014961 0.21041 -0.22835 0.0012032 0.0010053
-0.0012697 0.0014581 -0.0012998 -0.00062189
0.0013449 -0.0033988 -0.001223 0.00019876 0.0011994 0.0010151 0.23547 -0.049934
-0.00097319 0.009212 -0.00017064 -0.0025602
-0.0014351 0.00074712 -0.0010743 0.0010104 -0.0012289 0.0014856 -0.00092613 0.0092298
0.23032 0.10003 0.0037647 0.0070788
0.00045507 -0.00044258 -0.00061316 0.00041864 -0.0011973 -0.0006078 -0.00013442 -0.0025453
0.0037933 0.0071273 0.27478 0.13208
1820000000 0.25237 -0.10602 0.0045278 0.0026817 -0.00036685 0.0025395 -0.00090878 -0.0031462
-0.0011051 0.0010495 0.00010554 -0.00018996
0.0045709 0.0026566 0.25763 0.17275 -0.00063999 -0.00033668 -0.0013516 0.00099632
-4.8721e-05 0.0013279 -0.00054057 0.00055319
-0.00029058 0.0025745 -0.00063916 -0.00035168 0.15947 -0.2439 0.0015826 0.00040272
-0.00019763 0.0023986 -0.0013809 0.00036114
-0.00096112 -0.0031556 -0.0013731 0.0010272 0.0016266 0.00045669 0.20512 -0.097182
0.00085308 0.007727 -0.001595 -0.0016068
-0.0011166 0.0010326 -5.997e-05 0.0013263 -0.00023807 0.0024698 0.00084614 0.0076797
0.24755 0.07119 0.0047347 0.0036623
8.4811e-05 -0.00012291 -0.00053515 0.00058905 -0.0014111 0.00034304 -0.001615 -0.0015488
0.0046625 0.0037075 0.27669 0.095714
1880000000 0.2171 -0.14664 0.0023992 0.00025922 -0.00053535 0.0022892 -0.0029223 -0.0022469
-0.0001993 0.0018858 6.8908e-05 -0.00064863
0.0024004 0.00026594 0.26218 0.1262 -0.0026282 0.0016398 -0.00020379 0.0017662
0.00062466 0.0013742 0.00012186 0.00091191
-0.00048995 0.002189 -0.0026119 0.0016559 0.10756 -0.25321 0.0018002 -0.0010085
0.0015917 0.0019433 -0.0010498 0.0012625
-0.0029127 -0.0022409 -0.00017912 0.0017668 0.001761 -0.00092192 0.16424 -0.137
0.0016533 0.0054327 -0.0023528 0.00026373
-0.00023058 0.0018331 0.00064287 0.0013415 0.0015544 0.001972 0.0016583 0.0054463
0.2514 0.039427 0.0048986 0.001499
-3.3739e-05 -0.00061768 0.00010038 0.00094388 -0.0010674 0.0012017 -0.002413 0.00026382
0.004811 0.0014552 0.2766 0.062288
1940000000 0.17766 -0.17234 -0.00011772 -0.0013916 0.001333 0.0021197 -0.0037902 0.00042331
0.0014697 0.0010655 -0.00054076 -0.00049848
-9.255e-05 -0.0013879 0.26278 0.094225 -0.0014459 0.0040935 0.0011163 0.001327
0.0020306 0.00048259 0.001077 0.00038656
0.0014312 0.002132 -0.001399 0.0041211 0.062123 -0.24592 0.00050037 -0.002131
0.0024726 0.00036792 0.00059745 0.0016371
-0.003666 0.00046091 0.0010973 0.0013512 0.00046435 -0.0021768 0.11202 -0.16747
0.0010959 0.0039587 -0.0015894 0.0015569
0.001466 0.0011338 0.0019743 0.00045273 0.0024636 0.00034337 0.001132 0.0039965
0.25463 0.0010292 0.0035577 -0.0017672
-0.00058404 -0.00054838 0.0010978 0.00031866 0.00064529 0.0016772 -0.0014815 0.0015115
0.0036158 -0.0018487 0.26565 0.026054
2000000000 0.13159 -0.1869 -0.0037694 0.00072582 0.0026578 0.0015527 -0.0023706 0.0037381
0.0012585 0.000391 -0.00072575 0.00058847
-0.0037887 0.00072711 0.24851 0.05875 -0.00086349 0.0059223 0.0016768 0.00043567
0.0013716 -0.0011867 0.00040505 0.00018158
0.0026966 0.0015803 -0.00077976 0.0059736 0.019158 -0.23226 -0.0011864 -0.0013881
0.0020364 -0.001262 0.0015992 0.0016643
-0.0023636 0.003797 0.0016899 0.00042943 -0.0012139 -0.0013897 0.058504 -0.17703
-0.00030969 0.0038317 -4.4996e-05 0.0024185
0.0012798 0.00032538 0.0013585 -0.0011909 0.0020033 -0.0012372 -0.00037003 0.003731
0.24949 -0.032229 0.00067986 -0.002781
