!Keysight Technologies,M9804A,MY58100912,A.14.10.03
!Date: Thursday, April 27, 2023 10:28:33
!Correction: S11(C  6-Port  ) 
!S12(C  6-Port  ) 
!S13(C  6-Port  ) 
!S14(C  6-Port  ) 
!S15(C  6-Port  ) 
!S16(C  6-Port  ) 
!S21(C  6-Port  ) 
!S22(C  6-Port  ) 
!S23(C  6-Port  ) 
!S24(C  6-Port  ) 
!S25(C  6-Port  ) 
!S26(C  6-Port  ) 
!S31(C  6-Port  ) 
!S32(C  6-Port  ) 
!S33(C  6-Port  ) 
!S34(C  6-Port  ) 
!S35(C  6-Port  ) 
!S36(C  6-Port  ) 
!S41(C  6-Port  ) 
!S42(C  6-Port  ) 
!S43(C  6-Port  ) 
!S44(C  6-Port  ) 
!S45(C  6-Port  ) 
!S46(C  6-Port  ) 
!S51(C  6-Port  ) 
!S52(C  6-Port  ) 
!S53(C  6-Port  ) 
!S54(C  6-Port  ) 
!S55(C  6-Port  ) 
!S56(C  6-Port  ) 
!S61(C  6-Port  ) 
!S62(C  6-Port  ) 
!S63(C  6-Port  ) 
!S64(C  6-Port  ) 
!S65(C  6-Port  ) 
!S66(C  6-Port  ) 
!S6P File: Measurement: :
# Hz S  RI   R 50
500000000 -0.33365 -0.052901 -0.0095213 -0.0017618 -0.008062 0.012651 -0.0050247 0.011302
0.01274 0.0055356 -0.0050695 0.0068377
-0.0095214 -0.001768 -0.41672 -0.06283 0.0083234 -0.010422 0.0012696 0.011844
0.0079709 0.0022183 0.0013733 0.013396
-0.008032 0.012642 0.0083221 -0.010453 -0.26658 0.19969 0.0066049 0.0035594
-0.0016998 0.0083521 2.3576e-05 0.012214
-0.0050037 0.011314 0.0013067 0.01187 0.0066119 0.0035631 -0.33204 0.044075
-0.018003 -0.0046404 0.016547 0.025591
0.012765 0.0054909 0.0079619 0.0021674 -0.0017034 0.0083717 -0.017996 -0.0046294
-0.24863 -0.19294 -0.024886 0.0053655
-0.0050555 0.006909 0.0013122 0.013408 8.7644e-05 0.012226 0.016511 0.025645
-0.025111 0.0052856 -0.27196 -0.11888
560000000 -0.31792 0.11358 -0.022644 -0.065384 -9.4391e-05 0.012972 0.0054176 0.011144
0.010325 0.0039511 0.010893 0.0079504
-0.022597 -0.065283 -0.37534 0.099874 -0.041996 -0.037604 0.013454 0.0033967
-0.01306 -0.0042367 0.0035275 -0.0013093
-4.5592e-05 0.012969 -0.042127 -0.037567 -0.1855 0.25085 -0.00027564 -0.0050158
0.01836 0.0048816 0.0085876 -0.0056454
0.0054139 0.011191 0.013534 0.0034295 -0.00028562 -0.0050197 -0.30614 0.13592
0.0055974 -0.02398 0.0047614 -0.020626
0.01039 0.0039696 -0.013051 -0.0042272 0.018357 0.0048909 0.0055592 -0.023987
-0.30948 -0.013156 0.0078567 -0.047617
0.010915 0.0080174 0.0035146 -0.0013823 0.0086358 -0.0056718 0.0046393 -0.020624
0.0079694 -0.047493 -0.33096 0.0259
620000000 -0.27793 0.094544 -0.022977 0.0086408 0.0036061 0.0092863 0.0091504 -0.0041362
0.011145 -0.0017689 0.0015669 -0.0025474
-0.022961 0.0086345 -0.40332 0.049961 -0.018461 0.00061985 -0.0012541 -0.0020265
0.011835 -0.005999 0.0012429 -0.0034802
0.0036372 0.0092746 -0.018479 0.00065297 -0.15543 0.26042 -0.00031782 -0.0049726
-0.0035036 -0.0030513 0.0092109 -0.0025836
0.0091326 -0.0041618 -0.0012599 -0.0020336 -0.00031617 -0.0049741 -0.26535 0.14603
-0.038094 -0.019315 0.013024 0.026491
0.011194 -0.0017862 0.011827 -0.0060242 -0.0035048 -0.0030523 -0.038118 -0.019312
-0.23222 -0.047084 -0.040005 0.013101
0.0015377 -0.0025216 0.0012784 -0.003419 0.0092391 -0.0025877 0.013078 0.026351
-0.040095 0.013363 -0.2515 -0.0046624
680000000 -0.23851 0.18415 -0.026413 -0.014442 0.005192 0.0053531 0.0015049 -0.0075437
-0.0018242 -0.011616 0.00533 -0.0076534
-0.026417 -0.014439 -0.38957 0.15085 -0.032156 -0.0019207 -0.0013459 -0.00071959
-0.0016649 -0.0090718 -0.00085475 -0.0020891
0.0052066 0.0053414 -0.032191 -0.0018339 -0.1036 0.28099 -0.0007521 -0.000512
-0.0018413 0.00044266 -0.002795 -0.0090725
0.0015459 -0.0075011 -0.0013508 -0.00070779 -0.00075865 -0.00052261 -0.22028 0.19809
-0.023822 -0.0081934 -0.0091913 -0.011158
-0.0019266 -0.01161 -0.0016691 -0.0090633 -0.0018373 0.00044195 -0.023838 -0.008175
-0.27912 0.055569 -0.0078227 -0.0078032
0.0052135 -0.0075575 -0.00090035 -0.0021082 -0.0028243 -0.0090208 -0.0091011 -0.011019
-0.0078345 -0.0079231 -0.25948 0.096905
740000000 -0.19298 0.17743 -0.039681 0.02698 0.013471 -0.0049459 -0.00030233 -0.0044049
-0.0048084 -0.0034383 -0.0066172 0.0031644
-0.039684 0.026952 -0.33511 0.16936 -0.036528 0.034726 -5.8852e-05 -0.005933
-0.012495 0.0078099 -0.00077762 -0.0060399
0.013452 -0.0049794 -0.03646 0.03488 -0.069463 0.27832 -0.002102 0.0035177
-0.0033786 -0.0058219 -0.0012289 0.0017268
-0.00035864 -0.0043974 -7.1987e-05 -0.0059002 -0.002114 0.0035116 -0.20272 0.20458
-0.043147 -0.0075002 0.023343 0.015
-0.0048569 -0.0033759 -0.012495 0.0078784 -0.0033877 -0.0058064 -0.043162 -0.0074473
-0.18029 0.083587 -0.041918 0.00053833
-0.0066381 0.0031089 -0.00088177 -0.0060336 -0.0012772 0.0017046 0.023327 0.01489
-0.041901 0.0004652 -0.24669 0.1033
800000000 -0.16196 0.22094 -0.022685 0.016101 0.0056357 -0.010451 -0.0044362 -0.0019659
-0.0046535 0.0021171 0.0042118 0.00029057
-0.022661 0.016081 -0.3411 0.23973 -0.0086713 0.034005 -0.0024607 0.002116
-0.001404 0.0029514 0.00086813 0.0051612
0.0056155 -0.010464 -0.0085822 0.034067 -0.030969 0.30247 0.00096255 0.0015687
-5.9301e-06 0.003551 -0.0017636 0.0010035
-0.0044442 -0.0019605 -0.002466 0.0021255 0.00095646 0.0015686 -0.17391 0.23274
-0.028888 0.012674 0.013777 -0.0094329
-0.0046093 0.0021168 -0.0014072 0.002974 1.3265e-05 0.0035427 -0.028877 0.012713
-0.22026 0.11214 -0.017442 0.018378
0.0042271 0.00031344 0.00088954 0.0051622 -0.0017632 0.0010007 0.013799 -0.0094514
-0.017479 0.018387 -0.24026 0.15311
860000000 -0.12698 0.24144 -0.017763 0.030379 -0.0029383 -0.010174 -0.0017169 0.00078802
0.0041924 0.0049717 -0.0034935 -0.0030732
-0.017739 0.030357 -0.29241 0.28266 0.0074624 0.034362 0.00036927 0.0020605
0.003905 0.00069425 0.0033763 0.00016144
-0.0029369 -0.010172 0.0075621 0.034378 0.016691 0.31073 -0.0006233 -1.4485e-05
0.0023864 -0.0012751 0.0016572 0.0041268
-0.0017263 0.00078656 0.00036103 0.0020607 -0.00062558 -1.3186e-05 -0.13718 0.24337
-0.018054 0.017913 -0.0061014 -0.0089747
0.0042557 0.0049309 0.0039017 0.00065649 0.0023789 -0.0012783 -0.018044 0.017947
-0.16374 0.16239 -0.0239 0.016688
-0.0034871 -0.0030543 0.0033886 0.00012609 0.0016495 0.0041266 -0.0061013 -0.0089697
-0.023959 0.01664 -0.18921 0.19495
920000000 -0.10325 0.26448 0.0046448 0.038244 -0.0091849 -0.0049356 -0.001877 0.0018982
0.0015844 0.001426 0.0026567 -0.0013157
0.0046368 0.03822 -0.26518 0.30383 0.027992 0.022743 0.0015135 0.0013425
0.0078553 -0.00029617 0.0040399 -0.0028562
-0.0092007 -0.0049102 0.028085 0.022686 0.062027 0.3119 0.0019636 3.4742e-05
0.0011308 -0.00036037 0.00099033 -0.001195
-0.0018602 0.0019095 0.0015096 0.0013477 0.0019668 3.3816e-05 -0.11308 0.25956
-0.011087 0.030458 0.0030916 -0.0065497
0.0015589 0.0014334 0.0078422 -0.0003315 0.0011344 -0.00035458 -0.011031 0.030482
-0.15287 0.16758 -0.0020582 0.026344
0.0026303 -0.0012963 0.0040568 -0.0028442 0.00099248 -0.0011999 0.0030815 -0.0065332
-0.0020609 0.026322 -0.19605 0.21009
980000000 -0.057029 0.28469 0.016774 0.030079 -0.0093855 0.0041224 0.0018092 0.0034939
0.0036793 -0.0018646 -0.0031203 -0.0020928
0.016741 0.030083 -0.21216 0.33856 0.03326 0.0054177 0.0020851 -0.00016417
0.0017111 -0.0061166 -0.0001892 -0.002381
-0.0093728 0.0041442 0.033294 0.0053154 0.1078 0.30631 0.00073618 -0.0011717
0.0005574 -0.0019635 0.0016356 -0.00016137
0.0018184 0.0034934 0.0020707 -0.00017313 0.00074787 -0.0011748 -0.074758 0.2708
0.0070533 0.02993 -0.0088653 -0.0066533
0.003704 -0.0018879 0.0016823 -0.0061448 0.00054813 -0.0019611 0.0071158 0.029924
-0.11891 0.19784 0.0059381 0.019272
-0.0031513 -0.0021009 -0.00023853 -0.0023612 0.001616 -0.00016229 -0.008861 -0.0066768
0.0059658 0.019258 -0.15251 0.25341
1040000000 -0.015232 0.29379 0.032859 0.019171 -0.00161 0.0070122 0.0027201 0.00081962
0.00037682 -0.0036937 -0.00015939 -0.0016154
0.032841 0.019177 -0.17703 0.35209 0.029924 -0.014405 0.00164 -0.0016375
-0.0019711 -0.002829 -0.0010511 -0.0029787
-0.0015817 0.0070063 0.029889 -0.014503 0.15363 0.29332 -0.00041983 -0.001632
-0.0014942 -0.0010179 -0.0004803 -0.0011109
0.0027342 0.00079523 0.0016208 -0.0016261 -0.00041678 -0.0016347 -0.047139 0.2804
0.019374 0.018674 -0.002601 0.0012259
0.00036093 -0.0036881 -0.002007 -0.002827 -0.0014861 -0.0010093 0.019423 0.018645
-0.085478 0.20467 0.0141 0.017449
-0.00013672 -0.0016168 -0.0010567 -0.0029528 -0.0004778 -0.0011193 -0.0026089 0.0012352
0.014094 0.017423 -0.12997 0.27395
1100000000 0.029721 0.30271 0.036365 -0.0034572 0.0028189 0.0041823 0.0024556 -0.0010802
-0.0021803 -0.0031812 -0.0040766 -5.8223e-05
0.036333 -0.0034176 -0.13405 0.37005 0.015913 -0.027805 8.9476e-05 -0.0018245
-0.0036861 -0.00099933 -0.0036767 -0.00062048
0.0028461 0.0041735 0.015822 -0.027893 0.19957 0.27404 -0.0018945 8.1776e-05
-0.0018296 0.00040858 -0.0011036 -0.00046577
0.0024609 -0.0010762 8.6109e-05 -0.0018238 -0.0018908 8.7858e-05 -0.0070074 0.28539
0.025104 0.0055914 -0.002362 0.00015657
-0.0022068 -0.0031583 -0.0037023 -0.00098856 -0.0018335 0.00041024 0.025124 0.0055613
-0.065022 0.2172 0.019739 0.0080544
-0.0040769 -3.9414e-05 -0.0036759 -0.00057499 -0.0010992 -0.00046473 -0.0023579 0.00011958
0.019753 0.0080409 -0.084572 0.30189
1160000000 0.080783 0.2988 0.02453 -0.020463 0.002761 -0.00039409 -0.00011091 -0.0024773
-0.0040037 -0.00076616 -0.0009542 0.00409
0.024543 -0.020416 -0.090557 0.37458 -0.0031829 -0.029512 -0.0015736 -0.0017759
-0.002791 0.0025357 -0.0015929 0.0018807
0.0027721 -0.00040642 -0.0033176 -0.029527 0.24293 0.24407 -0.0008559 0.0018018
-0.00067854 0.001925 -0.00090346 0.00029557
-0.00010852 -0.0024802 -0.001602 -0.0017577 -0.00085702 0.0017957 0.032512 0.28263
0.021485 -0.010048 -0.0030837 0.0050602
-0.0039926 -0.00075365 -0.002813 0.0025551 -0.0006835 0.0019404 0.021475 -0.01008
-0.030662 0.22425 0.018357 -0.00047976
-0.00092374 0.0040819 -0.0015648 0.0019074 -0.00089612 0.00030626 -0.0030838 0.0050489
0.018344 -0.00048484 -0.036719 0.30408
1220000000 0.12479 0.28879 0.01116 -0.030068 -0.0015532 -0.00099158 4.9139e-05 -0.00092561
-0.0027332 0.0021869 0.0010805 0.0019953
0.011174 -0.030029 -0.046641 0.38756 -0.01678 -0.021944 -0.0026599 0.00045555
-7.8595e-05 0.0030806 -0.00088414 0.0018665
-0.0015576 -0.00098783 -0.016889 -0.021893 0.28215 0.20577 0.00069917 0.0017981
0.00057922 0.001254 0.00029719 0.00052263
4.8382e-05 -0.00092097 -0.0026669 0.00046699 0.00069682 0.0017956 0.072432 0.2741
0.011078 -0.017255 0.0020285 0.0014583
-0.0027295 0.0021937 -5.8232e-05 0.0030814 0.00057751 0.0012494 0.011046 -0.017282
-0.0064417 0.23235 0.013503 -0.013303
0.0010798 0.0019923 -0.00089317 0.0018857 0.00029013 0.00052608 0.0020381 0.0014731
0.013496 -0.013293 -0.0053869 0.31917
1280000000 0.1751 0.26823 -0.0075029 -0.028844 -0.0020656 0.0024858 -0.00083355 -0.002042
-0.0007033 0.0032533 0.0025091 0.0013428
-0.0074757 -0.02882 -0.00071197 0.37944 -0.02409 -0.0090748 -0.0010363 0.0015136
0.0016771 0.0018452 0.00053118 0.0020447
-0.0020594 0.0025036 -0.024161 -0.0089797 0.31316 0.16242 0.0016039 2.6855e-05
0.0012558 0.00035462 0.00039733 0.00023322
-0.00084318 -0.0020417 -0.0010256 0.0015114 0.001603 3.2061e-05 0.10942 0.25804
0.0014425 -0.019606 -8.6065e-05 0.00016862
-0.00067939 0.0032527 0.0016949 0.0018492 0.0012612 0.00035612 0.0014054 -0.019612
0.030214 0.2351 0.0028736 -0.01529
0.002522 0.0013217 0.00055424 0.0020417 0.00039559 0.00023183 -9.2687e-05 0.00016108
0.0028853 -0.015284 0.04159 0.32045
1340000000 0.21247 0.23527 -0.01747 -0.019327 0.0007314 0.0047178 -0.0017959 -0.00078451
0.0014168 0.0026655 0.0018219 -0.0013786
-0.017443 -0.019315 0.038802 0.37189 -0.022029 0.003988 -0.00010977 0.0020839
0.0019922 0.0007805 0.0012637 0.00077509
0.00074727 0.0047204 -0.022038 0.004095 0.33544 0.11525 0.0011835 -0.00092259
0.000668 -0.00064116 0.00011531 0.00030602
-0.0017933 -0.00077721 -0.00010203 0.0020834 0.0011843 -0.0009233 0.14265 0.23716
-0.0082183 -0.017002 0.00081648 0.00041787
0.0014369 0.0026484 0.0019984 0.0007652 0.00066593 -0.00064277 -0.0082575 -0.016984
0.060331 0.22992 -0.004043 -0.013894
0.0018028 -0.0013715 0.001284 0.00076446 0.00011313 0.00030111 0.0008125 0.00042477
-0.004027 -0.013894 0.079502 0.31498
1400000000 0.24609 0.19798 -0.02349 -0.0078422 0.0053504 0.003378 -0.0022341 0.0005846
0.0024545 0.0009757 0.00032251 -0.0015787
-0.023456 -0.0078449 0.076386 0.35965 -0.015405 0.012483 0.0013814 0.0013557
0.0013253 -0.00076473 0.0012518 0.00014625
0.0053744 0.0033502 -0.015365 0.012573 0.34902 0.062167 0.00012446 -0.0016367
7.6614e-05 -0.00044297 0.00037907 0.00019724
-0.0022349 0.0005924 0.0013902 0.0013487 0.00012061 -0.0016375 0.17237 0.20828
-0.014558 -0.010237 -0.00074576 -0.00027248
0.0024636 0.00095798 0.0013309 -0.00078461 7.5502e-05 -0.00044015 -0.014587 -0.010208
0.093069 0.22489 -0.010194 -0.0085271
0.00031734 -0.0015673 0.0012492 0.00013777 0.000389 0.0001931 -0.00074582 -0.00027143
-0.010195 -0.0085243 0.12369 0.30361
1460000000 0.26961 0.15453 -0.020549 0.0045117 0.0059296 -0.0017395 -0.001564 0.0017153
0.0021452 -0.00051837 -0.00036112 -0.00096154
-0.020529 0.0044937 0.11112 0.33818 -0.0063836 0.015747 0.0017341 0.000168
0.0009553 -0.0013577 0.0012418 -0.00065275
0.0059341 -0.001763 -0.0063237 0.015792 0.35576 0.008119 -0.0012237 -0.0013376
0.00014151 -0.00024947 0.00069056 -0.00028016
-0.0015488 0.0017195 0.0017342 0.00015789 -0.0012195 -0.0013404 0.19899 0.17872
-0.015971 -0.0037084 -0.00084488 0.002064
0.00215 -0.00052251 0.00095139 -0.0013653 0.00013851 -0.00025334 -0.015987 -0.0036761
0.1225 0.21031 -0.012044 -0.0028419
-0.00038088 -0.00096898 0.001227 -0.00065316 0.00069112 -0.00027504 -0.00085385 0.0020538
-0.012039 -0.0028541 0.15665 0.28317
1520000000 0.28232 0.11306 -0.015001 0.010143 0.0034343 -0.0043344 6.9452e-05 0.0025535
0.0020956 -0.0019872 -0.0012269 -0.00014256
-0.014988 0.010116 0.14503 0.32387 0.0015348 0.013548 0.0016705 -0.00080589
5.5188e-05 -0.0011601 0.00032207 -0.0010747
0.0034212 -0.0043556 0.0016075 0.013564 0.34929 -0.04795 -0.0010299 -0.00042674
0.00062984 -0.00086928 6.1222e-05 -0.00019109
7.7724e-05 0.0025546 0.0016715 -0.00082428 -0.0010257 -0.00043502 0.22218 0.14013
-0.015504 0.0024236 0.0014963 0.0020476
0.0020739 -0.0019996 4.9937e-05 -0.0011691 0.0006319 -0.00087624 -0.015509 0.0024564
0.15036 0.19672 -0.011778 0.0017397
-0.0012317 -0.0001418 0.00030808 -0.0010753 5.0715e-05 -0.00018353 0.0015013 0.0020504
-0.011782 0.0017279 0.18949 0.26193
1580000000 0.29261 0.067143 -0.0082376 0.013463 -0.00094769 -0.0050613 0.0014471 0.0019094
-0.00022444 -0.0021943 -0.00025862 0.00030771
-0.0082419 0.01344 0.17278 0.29935 0.0054304 0.0085183 0.00051983 -0.001607
-0.00057714 -0.0010909 -0.00018081 -0.00092242
-0.00097507 -0.0050573 0.0054836 0.0084979 0.32988 -0.10547 -0.001729 0.00055347
-0.00032436 -0.0012606 0.00020547 -0.00055349
0.0014657 0.0019099 0.00051383 -0.0016078 -0.0017274 0.0005483 0.23584 0.10059
-0.012237 0.0075592 0.002094 0.00086977
-0.00024752 -0.0022026 -0.00059209 -0.0010725 -0.00032219 -0.0012624 -0.012223 0.0076041
0.17452 0.17878 -0.009401 0.0072149
-0.00025525 0.00031605 -0.000183 -0.00092001 0.0002212 -0.00055655 0.0020888 0.00086459
-0.0093984 0.0072185 0.2209 0.23546
1640000000 0.29526 0.025871 -0.0014765 0.012399 -0.0028624 -0.0026328 0.0027264 0.0011038
-0.0007317 -0.0015909 -0.00031086 0.00066453
-0.0014924 0.012388 0.20279 0.27442 0.0062219 0.0035605 -0.00062772 -0.0018272
-0.0010618 -0.00044184 -0.00059541 -0.00065928
-0.0028805 -0.0026218 0.006248 0.0035197 0.30177 -0.15496 -0.00071777 0.0015263
-0.0010847 -0.00099894 -0.00020381 -0.0003411
0.0027331 0.0011012 -0.00063902 -0.0018133 -0.0007188 0.0015302 0.24818 0.051432
-0.0078066 0.0093319 0.0024544 -0.00082971
-0.00073132 -0.0015913 -0.0010658 -0.00043812 -0.001082 -0.00099264 -0.0077822 0.0093609
0.19775 0.15501 -0.0045256 0.0091461
-0.00031012 0.00066711 -0.00060206 -0.00065916 -0.00020202 -0.00034625 0.0024597 -0.00084335
-0.0045242 0.0091385 0.24639 0.20402
1700000000 0.28845 -0.019535 0.0020088 0.0095959 -0.0036233 2.8999e-06 0.0031579 -0.0012185
-0.0019953 -0.00065821 0.00061443 0.00049426
0.0019998 0.0095812 0.22115 0.24294 0.0040991 0.00047556 -0.001506 -0.00062895
-0.00084999 6.7407e-05 -0.00089125 -0.00045149
-0.0036152 2.5853e-05 0.0041154 0.00045128 0.25838 -0.1949 0.00051049 0.0016543
-0.0019201 -7.3801e-05 -0.00032261 -0.00088952
0.0031576 -0.0012385 -0.0015065 -0.00062169 0.00051624 0.001667 0.24467 0.0014331
-0.0046934 0.010097 0.0017112 -0.0021606
-0.001995 -0.00064335 -0.00085046 6.9047e-05 -0.0019258 -6.7605e-05 -0.0046643 0.01011
0.21507 0.13461 -0.00014309 0.0096668
0.0006213 0.0004827 -0.00089792 -0.0004494 -0.0003257 -0.00089804 0.0017011 -0.0021652
-0.0001453 0.0096615 0.26235 0.16988
1760000000 0.27685 -0.068457 0.0044053 0.0062976 -0.0023665 0.00096924 0.0014177 -0.0033862
-0.0014132 0.0007427 0.00044126 -0.00045804
0.0043882 0.0062898 0.24751 0.20304 0.0017904 -0.0015035 -0.0012401 0.00022164
-0.0011047 0.00097203 -0.00062445 0.00043871
-0.0023606 0.00097441 0.0017731 -0.0015136 0.21034 -0.22823 0.0011983 0.0010684
-0.0012429 0.0014752 -0.0011762 -0.00061139
0.0013934 -0.0033928 -0.0012341 0.00023215 0.0011979 0.0010628 0.23534 -0.049998
-0.0010819 0.0092534 -0.00012324 -0.0025674
-0.0014197 0.00074977 -0.0010964 0.00098705 -0.001236 0.0014825 -0.0010627 0.0092776
0.23037 0.099986 0.0037874 0.0070466
0.00044165 -0.00045615 -0.00061896 0.0004412 -0.0011842 -0.0006228 -0.00011554 -0.0025704
0.0037889 0.0070478 0.27485 0.13205
1820000000 0.25237 -0.10602 0.0045592 0.0026975 -0.00037861 0.0025518 -0.00097946 -0.0031607
-0.0011245 0.0010128 7.3817e-05 -0.00017791
0.0045448 0.0026914 0.25765 0.17271 -0.0006319 -0.00035811 -0.0013381 0.00096815
-4.7012e-05 0.0013485 -0.00057437 0.00055971
-0.00035968 0.0025427 -0.00062994 -0.0003548 0.15949 -0.24396 0.0016794 0.00039472
-0.00017986 0.0024524 -0.0014219 0.0003231
-0.00099926 -0.0031628 -0.0013319 0.00098605 0.0016835 0.00040309 0.20505 -0.097223
0.000726 0.0077681 -0.0016777 -0.0014865
-0.0011161 0.0010193 -3.2479e-05 0.0013496 -0.00018348 0.0024595 0.00074993 0.0077593
0.24758 0.071097 0.0046614 0.0037286
5.3739e-05 -0.00018354 -0.00057139 0.00055503 -0.0014095 0.00032507 -0.001694 -0.0014878
0.004658 0.0037117 0.27683 0.095679
1880000000 0.21706 -0.14673 0.0023913 0.00026338 -0.00051693 0.0022428 -0.0028624 -0.0022734
-0.00016588 0.0018865 0.00011725 -0.00059265
0.0023855 0.00026041 0.26223 0.12614 -0.0026168 0.0016478 -0.00016152 0.0017659
0.00066276 0.0013967 0.00012825 0.0009419
-0.00050756 0.0022335 -0.0026081 0.0016681 0.10738 -0.25316 0.0018168 -0.00091753
0.0015826 0.0020404 -0.0011511 0.0012554
-0.002881 -0.0022514 -0.00015217 0.0017733 0.0018166 -0.00091332 0.16421 -0.13709
0.0017301 0.0055562 -0.0023484 0.00024331
-0.00016658 0.0018908 0.00067189 0.001398 0.0015866 0.0020492 0.0017462 0.0055557
0.25149 0.039492 0.0048323 0.0015263
0.00011079 -0.00060865 0.00014232 0.00095299 -0.0011249 0.0012649 -0.0023236 0.00026339
0.0048104 0.0015241 0.27633 0.06228
1940000000 0.17759 -0.17234 -8.8653e-05 -0.0014072 0.0013672 0.0021267 -0.0037004 0.00037134
0.001462 0.0011202 -0.0005197 -0.00050821
-8.945e-05 -0.0013978 0.26281 0.094163 -0.0014118 0.0040795 0.0011285 0.0012981
0.0020027 0.00046833 0.0010351 0.00041776
0.0013791 0.0021264 -0.0013925 0.0040921 0.062158 -0.24609 0.00040541 -0.0021828
0.0024586 0.00030422 0.00060711 0.0016069
-0.0037067 0.00039948 0.0011468 0.001293 0.00041063 -0.0021899 0.11187 -0.16737
0.0010064 0.0041347 -0.0016086 0.0015563
0.0014774 0.001103 0.002018 0.00045297 0.0024584 0.00030445 0.0010225 0.0041243
0.25459 0.00098514 0.0036508 -0.0017578
-0.00054213 -0.0004865 0.0010433 0.00039684 0.00059405 0.0015885 -0.0016052 0.0015665
0.0036495 -0.0017575 0.26579 0.026002
2000000000 0.13158 -0.18695 -0.0037718 0.00072274 0.0026359 0.0016048 -0.0023394 0.0038345
0.001207 0.00041907 -0.00073314 0.00048494
-0.0037816 0.00072466 0.24856 0.058673 -0.00083798 0.0058864 0.0016924 0.00039211
0.0014298 -0.0011943 0.00045923 0.0001226
0.00266 0.0015806 -0.00080128 0.0058959 0.019299 -0.23237 -0.0011181 -0.0015361
0.0021432 -0.0012843 0.0015504 0.001627
-0.0023409 0.0038579 0.0017061 0.00037877 -0.0011188 -0.0015421 0.058547 -0.1771
-0.0002317 0.0037887 -4.0111e-05 0.0023884
0.0012094 0.00040217 0.0014151 -0.0012026 0.0021396 -0.0012894 -0.00022703 0.0037884
0.24965 -0.032326 0.00076188 -0.0027802
