!Keysight Technologies,M9804A,MY58100912,A.14.10.03
!Date: Thursday, April 27, 2023 10:28:33
!Correction: S11(C  6-Port  ) 
!S12(C  6-Port  ) 
!S13(C  6-Port  ) 
!S14(C  6-Port  ) 
!S15(C  6-Port  ) 
!S16(C  6-Port  ) 
!S21(C  6-Port  ) 
!S22(C  6-Port  ) 
!S23(C  6-Port  ) 
!S24(C  6-Port  ) 
!S25(C  6-Port  ) 
!S26(C  6-Port  ) 
!S31(C  6-Port  ) 
!S32(C  6-Port  ) 
!S33(C  6-Port  ) 
!S34(C  6-Port  ) 
!S35(C  6-Port  ) 
!S36(C  6-Port  ) 
!S41(C  6-Port  ) 
!S42(C  6-Port  ) 
!S43(C  6-Port  ) 
!S44(C  6-Port  ) 
!S45(C  6-Port  ) 
!S46(C  6-Port  ) 
!S51(C  6-Port  ) 
!S52(C  6-Port  ) 
!S53(C  6-Port  ) 
!S54(C  6-Port  ) 
!S55(C  6-Port  ) 
!S56(C  6-Port  ) 
!S61(C  6-Port  ) 
!S62(C  6-Port  ) 
!S63(C  6-Port  ) 
!S64(C  6-Port  ) 
!S65(C  6-Port  ) 
!S66(C  6-Port  ) 
!S6P File: Measurement: :
# Hz S  RI   R 50
500000000 -0.33442 -0.052546 -0.010916 -0.0014863 -0.0085083 0.013533 -0.0046128 0.012468
0.012926 0.0048775 -0.0053261 0.0089878
-0.01065 -0.0016922 -0.41673 -0.062814 0.0082254 -0.010556 0.00183 0.011939
0.0082471 0.0024666 0.0020821 0.013708
-0.0090368 0.013495 0.0081623 -0.01055 -0.26675 0.19962 0.0071933 0.0032384
-0.001813 0.0084746 0.0013546 0.01214
-0.0035509 0.011861 0.0020692 0.011526 0.0070292 0.0030124 -0.33189 0.043818
-0.018483 -0.0047747 0.01641 0.024585
0.012145 0.0048527 0.0078128 0.0026289 -0.0019111 0.0086901 -0.01845 -0.0046381
-0.24997 -0.19277 -0.026833 0.0047212
-0.0039242 0.0083031 0.0024569 0.013512 0.0010976 0.011895 0.016354 0.024913
-0.026473 0.0049878 -0.27215 -0.12201
560000000 -0.31918 0.11254 -0.021671 -0.064678 -0.0004208 0.013645 0.0059398 0.011219
0.011961 0.0055081 0.010759 0.0075426
-0.021489 -0.064312 -0.37452 0.098649 -0.041569 -0.037819 0.013643 0.0036437
-0.013771 -0.0041305 0.0041411 -0.0015816
-0.00036223 0.013185 -0.041885 -0.038109 -0.1852 0.2514 -0.00068243 -0.0052954
0.018445 0.0051062 0.0078502 -0.0058595
0.0051098 0.011949 0.013217 0.0034583 -0.00064477 -0.0054169 -0.30631 0.13608
0.0050821 -0.025131 0.0045947 -0.020995
0.012206 0.0056792 -0.014879 -0.0031466 0.018097 0.0051012 0.0051456 -0.025002
-0.3122 -0.014035 0.0093643 -0.046983
0.011512 0.0089677 0.0035155 -0.0026333 0.0077306 -0.0061338 0.0047998 -0.020913
0.0095084 -0.047132 -0.33023 0.025804
620000000 -0.27682 0.094388 -0.022584 0.008815 0.0037823 0.0095125 0.0072111 -0.0046286
0.012873 -0.00075455 -0.00044515 -0.003232
-0.022478 0.0088485 -0.40334 0.049779 -0.018333 0.00045117 -0.0014336 -0.0019709
0.012059 -0.0060458 0.00080865 -0.0035461
0.0040133 0.0094995 -0.01833 0.00048717 -0.15545 0.26019 -0.00094186 -0.0048105
-0.0033622 -0.0026386 0.0082321 -0.0030299
0.0078377 -0.0046522 -0.0014478 -0.0019975 -0.00081314 -0.0047369 -0.26617 0.14763
-0.038145 -0.020895 0.01213 0.028327
0.012793 -0.0015469 0.011947 -0.0058155 -0.0035078 -0.0027233 -0.038125 -0.020917
-0.23075 -0.047031 -0.040733 0.01223
0.00037514 -0.0026931 0.0007821 -0.0033646 0.0085317 -0.0025367 0.012384 0.028757
-0.040632 0.011815 -0.25117 -0.0031319
680000000 -0.2388 0.18432 -0.026742 -0.014681 0.0051782 0.0051462 0.002059 -0.0079058
-0.0020198 -0.011746 0.0059952 -0.0075469
-0.026717 -0.01476 -0.38981 0.15052 -0.032229 -0.0021941 -0.0010352 -0.00064532
-0.0013806 -0.009343 -0.0011122 -0.0017921
0.004965 0.0052174 -0.032289 -0.0020895 -0.10369 0.2809 -0.0007656 -0.00045272
-0.001857 0.00055544 -0.0025635 -0.0089513
0.0016801 -0.0079643 -0.0010151 -0.00051419 -0.00080097 -0.00040066 -0.22098 0.19769
-0.023282 -0.0080769 -0.0093019 -0.010306
-0.0020614 -0.011374 -0.0014271 -0.0093449 -0.0018618 0.00052162 -0.023245 -0.0080382
-0.27842 0.056402 -0.0080414 -0.0076949
0.0055397 -0.0074528 -0.001271 -0.0018151 -0.0028597 -0.0088985 -0.0090573 -0.010662
-0.0079236 -0.0078343 -0.25953 0.095885
740000000 -0.19294 0.17775 -0.039724 0.026664 0.013607 -0.0044118 -0.0005022 -0.0040499
-0.0052757 -0.0032506 -0.0060162 0.0033922
-0.039807 0.026596 -0.33526 0.16915 -0.036484 0.034592 -3.9312e-05 -0.0059294
-0.012832 0.0074624 -0.0014205 -0.0061022
0.013605 -0.0042679 -0.03649 0.034771 -0.069709 0.27845 -0.0022182 0.0033517
-0.003018 -0.0057013 -0.0014461 0.001276
-0.00044771 -0.0039529 -0.00038075 -0.0056446 -0.0023116 0.003206 -0.20358 0.20488
-0.043009 -0.0076902 0.022836 0.015381
-0.0057021 -0.0037098 -0.012257 0.00733 -0.003027 -0.0054813 -0.04299 -0.0076678
-0.17885 0.084818 -0.041908 0.00081524
-0.0061264 0.0036525 -0.0016611 -0.0054771 -0.0014216 0.0010956 0.0228 0.015321
-0.041873 0.00074071 -0.24709 0.10255
800000000 -0.16231 0.22117 -0.0231 0.016101 0.005618 -0.010438 -0.004628 -0.0017886
-0.0048205 0.002272 0.0042185 0.0008277
-0.023037 0.016182 -0.34119 0.23965 -0.0087141 0.033931 -0.0023919 0.0021976
-0.0016962 0.0027727 0.00086732 0.0053737
0.005371 -0.010301 -0.0086857 0.03409 -0.031053 0.30225 0.00088153 0.0015462
-0.00014617 0.0035227 -0.0018095 0.0010145
-0.0047817 -0.0021642 -0.0025551 0.0020495 0.00092482 0.0015673 -0.17402 0.23237
-0.028781 0.013422 0.013798 -0.010263
-0.0048744 0.0025008 -0.001748 0.0029264 -0.00023806 0.0035744 -0.028789 0.013558
-0.22066 0.11141 -0.017743 0.020146
0.0036694 0.00033801 0.00047545 0.0050251 -0.0017243 0.00073749 0.013879 -0.010341
-0.017694 0.020094 -0.23978 0.1512
860000000 -0.127 0.24116 -0.017898 0.030442 -0.0028408 -0.01004 -0.0020467 0.00054618
0.0040761 0.0050377 -0.0038043 -0.0027737
-0.017882 0.030439 -0.29258 0.28265 0.0074837 0.03438 0.00025385 0.0019795
0.0039225 0.00084793 0.0030077 0.00057131
-0.0029337 -0.01018 0.0075734 0.034402 0.016677 0.31074 -0.00067567 -9.9945e-05
0.0024898 -0.0012415 0.0014971 0.0042285
-0.0020498 0.00063176 0.0003252 0.0019218 -0.00069414 -0.00014129 -0.13732 0.24276
-0.018315 0.017532 -0.0061909 -0.008779
0.0042299 0.0047581 0.0037585 0.00067273 0.002526 -0.0012422 -0.0183 0.017547
-0.1633 0.1621 -0.024 0.016416
-0.003278 -0.0027074 0.0029811 0.00055016 0.0014222 0.0044098 -0.0063802 -0.0088011
-0.024187 0.016396 -0.19079 0.19692
920000000 -0.10344 0.26441 0.0045182 0.038341 -0.0092745 -0.0049137 -0.0017407 0.0019218
0.0016255 0.0017175 0.0027403 -0.0012463
0.0044242 0.038237 -0.26536 0.30379 0.028016 0.022671 0.0014711 0.0014361
0.0078449 -0.00014205 0.0042614 -0.0025935
-0.0092579 -0.0049808 0.028124 0.022666 0.061943 0.3119 0.0019944 4.4262e-05
0.0012049 -0.00030073 0.00095086 -0.0013032
-0.0017679 0.0018587 0.0014364 0.001475 0.0020382 6.3815e-06 -0.11295 0.25955
-0.011121 0.030533 0.003482 -0.0064997
0.0016405 0.0017978 0.0079026 -0.00027211 0.0011248 -0.0003487 -0.011067 0.030575
-0.15267 0.16732 -0.001779 0.026774
0.0028167 -0.0014903 0.0040616 -0.0026647 0.00086475 -0.0013887 0.0035595 -0.0066034
-0.0018485 0.026642 -0.19597 0.2097
980000000 -0.056539 0.28463 0.016876 0.030062 -0.0094226 0.0041513 0.0018025 0.0034858
0.0039353 -0.0016049 -0.0029812 -0.0025474
0.016877 0.030094 -0.21213 0.33851 0.033239 0.0054688 0.0021597 -0.00013182
0.0018612 -0.005893 -0.00025696 -0.0022989
-0.0093204 0.0042733 0.033295 0.0053788 0.1077 0.3063 0.00070476 -0.001195
0.00056925 -0.0019487 0.0015113 -0.00016792
0.0017371 0.003368 0.0020554 -0.00012685 0.00068586 -0.0011527 -0.074973 0.27058
0.0071813 0.030095 -0.0091491 -0.0069263
0.003989 -0.0019773 0.0017188 -0.0060103 0.00063841 -0.0019691 0.0072487 0.030143
-0.11911 0.19813 0.0060411 0.019484
-0.0029358 -0.0021697 -0.00022405 -0.0022706 0.0015652 -7.063e-05 -0.0090982 -0.0069029
0.0059822 0.019422 -0.15307 0.2541
1040000000 -0.015669 0.29392 0.032885 0.019053 -0.0015006 0.0070459 0.0026936 0.0008376
0.0002471 -0.0034829 -7.7153e-05 -0.0016781
0.032783 0.019043 -0.17705 0.352 0.029988 -0.014408 0.0016488 -0.0017166
-0.0021472 -0.0028008 -0.0010068 -0.0029359
-0.0015653 0.0070635 0.029964 -0.014511 0.15352 0.2933 -0.00043987 -0.0016488
-0.0014998 -0.0010606 -0.00058418 -0.0010448
0.0027646 0.00084426 0.0015856 -0.0017173 -0.00047678 -0.0016955 -0.047209 0.2803
0.019284 0.01864 -0.0023495 0.0011724
0.00018414 -0.0033961 -0.0021178 -0.0029046 -0.0015012 -0.0010275 0.019302 0.018598
-0.085645 0.20405 0.013761 0.017945
0.00011055 -0.0017789 -0.00079786 -0.002817 -0.00057688 -0.001016 -0.0024383 0.0011613
0.01388 0.018053 -0.12987 0.27382
1100000000 0.029845 0.30257 0.036464 -0.0034474 0.0027537 0.0041711 0.0025416 -0.0011087
-0.0023023 -0.0029876 -0.003898 -0.00044901
0.036429 -0.0033944 -0.13403 0.36999 0.015943 -0.02775 0.00015748 -0.0018423
-0.0037227 -0.0010433 -0.0035294 -0.00075728
0.002833 0.0040828 0.015866 -0.027876 0.1995 0.27404 -0.0019623 6.7675e-05
-0.0017965 0.00039861 -0.0011638 -0.00040697
0.0025236 -0.0011967 0.00013138 -0.0019059 -0.0019612 8.3805e-05 -0.0068961 0.28545
0.025139 0.0055696 -0.0024518 -2.4284e-05
-0.0022803 -0.0030919 -0.0037421 -0.00096894 -0.0017622 0.00044833 0.025139 0.0055401
-0.065134 0.21645 0.019764 0.0081089
-0.0040475 -0.00029326 -0.0037103 -0.00065776 -0.0011375 -0.00038402 -0.0024596 4.9918e-05
0.019829 0.0079487 -0.084551 0.30186
1160000000 0.080466 0.2989 0.024578 -0.020377 0.0028295 -0.00046934 -0.00012612 -0.0024544
-0.003982 -0.00083638 -0.0010742 0.0041718
0.024545 -0.020329 -0.09075 0.37441 -0.0031159 -0.029511 -0.0016742 -0.0016472
-0.0027902 0.002592 -0.0015988 0.0019826
0.0027914 -0.00046812 -0.0032777 -0.029503 0.24279 0.24413 -0.00091708 0.0018025
-0.00064656 0.0019993 -0.00088202 0.00039732
-7.164e-05 -0.0023579 -0.0016082 -0.0016293 -0.00090179 0.0017671 0.032533 0.28271
0.021568 -0.010327 -0.0032639 0.0050655
-0.0040449 -0.00078458 -0.002848 0.0025691 -0.00068423 0.0020165 0.021569 -0.010357
-0.030414 0.22378 0.018233 -0.00079741
-0.00084094 0.0040807 -0.0015824 0.0019486 -0.00089867 0.00039116 -0.0032169 0.0051278
0.018153 -0.00077612 -0.037183 0.30456
1220000000 0.12464 0.28883 0.011188 -0.030127 -0.0015273 -0.00095539 -8.4619e-06 -0.00087229
-0.0027524 0.0022815 0.0010472 0.0019318
0.011212 -0.030105 -0.046733 0.38759 -0.016763 -0.021932 -0.002666 0.00043321
-2.9304e-05 0.0031733 -0.00088061 0.0018591
-0.0015458 -0.00097503 -0.016902 -0.021886 0.28212 0.20587 0.00068945 0.0017797
0.0005922 0.0012903 0.00024735 0.00054101
1.2517e-05 -0.00094186 -0.0026843 0.00046917 0.0006864 0.0017721 0.072392 0.27403
0.011035 -0.01718 0.0021199 0.001525
-0.0026984 0.0022971 -5.2865e-05 0.0031338 0.00058556 0.0012628 0.010994 -0.0172
-0.0068 0.23173 0.01384 -0.013074
0.00096814 0.0019437 -0.00082416 0.0018861 0.00028738 0.00056062 0.0020479 0.0015095
0.013887 -0.01313 -0.0055664 0.31914
1280000000 0.17489 0.26843 -0.0074829 -0.028916 -0.0020486 0.0024727 -0.00087274 -0.0020718
-0.00068022 0.0031561 0.0025884 0.0013582
-0.0074768 -0.028883 -0.00077767 0.37938 -0.024053 -0.0090929 -0.0010003 0.0014568
0.0017217 0.0018071 0.00065513 0.0020685
-0.0020699 0.0025032 -0.024143 -0.0089732 0.31311 0.1625 0.0015789 5.2343e-05
0.0012078 0.00031802 0.00034581 0.00029659
-0.00090524 -0.0020092 -0.0010199 0.0014848 0.001597 9.3191e-07 0.10945 0.25807
0.0013041 -0.019711 -0.00036219 0.00017019
-0.00064273 0.0031843 0.0017492 0.001777 0.0012576 0.00034432 0.001281 -0.019706
0.030001 0.23459 0.0028348 -0.015515
0.0026532 0.0014849 0.000751 0.0020769 0.00029247 0.00025902 -0.00027759 0.0002351
0.0027941 -0.015518 0.041496 0.32057
1340000000 0.21237 0.23538 -0.017505 -0.01939 0.00075532 0.0047156 -0.0017754 -0.00083594
0.0013933 0.0026184 0.0017762 -0.0014281
-0.017496 -0.01939 0.038718 0.3719 -0.022013 0.0039657 -0.00014015 0.0020555
0.0020116 0.00086608 0.0011937 0.00074011
0.00079205 0.00474 -0.02205 0.0040663 0.33544 0.1154 0.0011527 -0.00091254
0.00071143 -0.00057345 5.425e-05 0.00022812
-0.0017817 -0.00088759 -0.00012447 0.0020611 0.0011627 -0.00093621 0.14271 0.23714
-0.0083757 -0.017103 0.00077647 0.00059196
0.0014581 0.0026285 0.0020186 0.00078757 0.00069796 -0.00059494 -0.0083992 -0.017086
0.059681 0.22966 -0.0039568 -0.0139
0.0016939 -0.001529 0.0012011 0.00078482 3.4822e-06 0.00019578 0.00077319 0.0005721
-0.003946 -0.013942 0.079257 0.31516
1400000000 0.24606 0.19807 -0.023604 -0.0078652 0.0053235 0.003406 -0.0021829 0.00060934
0.0024855 0.0010369 0.00034082 -0.0016402
-0.023568 -0.0078848 0.076268 0.35961 -0.015421 0.012415 0.001372 0.0013272
0.0013364 -0.00071995 0.0012149 0.00021674
0.0053334 0.003378 -0.015386 0.012516 0.34899 0.062212 0.00014157 -0.0017072
0.00010155 -0.00046319 0.00037557 0.00029756
-0.0022198 0.00060719 0.0014144 0.0013569 0.00018616 -0.0016973 0.17223 0.20827
-0.014698 -0.01031 -0.00085256 -0.00022818
0.0025118 0.0010009 0.0013148 -0.00075453 9.9533e-05 -0.00040205 -0.014721 -0.010295
0.092788 0.22497 -0.010439 -0.0088806
0.00039019 -0.0015881 0.0012235 0.00016622 0.00038567 0.00021371 -0.00089578 -0.00020828
-0.010476 -0.0088909 0.12333 0.30391
1460000000 0.26953 0.15464 -0.020634 0.0045766 0.0059364 -0.0017839 -0.0016425 0.0017168
0.0021515 -0.00055096 -0.00035864 -0.0011078
-0.020603 0.0045498 0.11097 0.3382 -0.0064547 0.015715 0.0017398 0.00016899
0.00094768 -0.0013927 0.0012347 -0.00064823
0.0059302 -0.0018246 -0.0063839 0.015781 0.35582 0.0080941 -0.0011978 -0.0013531
0.00010067 -0.00021297 0.00068432 -0.00030555
-0.001635 0.0017223 0.0017373 0.00015057 -0.0012224 -0.0013696 0.19892 0.1787
-0.016084 -0.0035828 -0.00086669 0.0021197
0.0021373 -0.00050782 0.0009146 -0.0014014 0.00010294 -0.00023328 -0.016108 -0.0035469
0.12206 0.21054 -0.012087 -0.0028112
-0.00031275 -0.0011457 0.0012367 -0.00063788 0.00069927 -0.00026181 -0.00083995 0.0021341
-0.01212 -0.002852 0.15639 0.28302
1520000000 0.28232 0.11318 -0.015017 0.010259 0.0034933 -0.0043005 8.9179e-05 0.0025702
0.0021757 -0.001919 -0.0011942 -0.00017526
-0.015009 0.010237 0.1449 0.32385 0.0015357 0.01354 0.0016866 -0.0008195
6.8625e-05 -0.0011635 0.00033452 -0.0010635
0.003468 -0.0043316 0.0016309 0.013549 0.3493 -0.047929 -0.0010904 -0.00040948
0.00067182 -0.00090137 1.3303e-05 -0.00027777
9.9775e-05 0.0025636 0.0016995 -0.00084531 -0.001108 -0.00039464 0.22206 0.14022
-0.0157 0.0025437 0.0015317 0.0021377
0.0021415 -0.0019741 6.6823e-05 -0.0011937 0.00066126 -0.00090036 -0.015677 0.0025692
0.14998 0.19692 -0.011987 0.0018239
-0.0012327 -0.00010196 0.00035078 -0.0010579 2.7708e-05 -0.00023574 0.0015253 0.0021121
-0.011982 0.001831 0.18912 0.26229
1580000000 0.29264 0.067118 -0.0082016 0.013552 -0.0009261 -0.0051013 0.0014474 0.0019501
-0.00021008 -0.0022192 -0.00034671 0.00040452
-0.0082161 0.013548 0.17263 0.29941 0.0053821 0.0085636 0.00049254 -0.0016298
-0.00060703 -0.0010739 -0.00022354 -0.00091642
-0.00097446 -0.0050945 0.0054398 0.0085413 0.32991 -0.10549 -0.0017837 0.00059522
-0.00035512 -0.0012407 0.00035569 -0.000573
0.0015043 0.0019766 0.00048839 -0.0016546 -0.001745 0.00062431 0.23582 0.10076
-0.012184 0.007893 0.0023138 0.00066131
-0.00019978 -0.0021996 -0.00059582 -0.0010955 -0.00036406 -0.0012713 -0.012195 0.0079088
0.17429 0.17917 -0.0093037 0.007534
-0.00036832 0.00041436 -0.0002533 -0.00090596 0.00032622 -0.00061306 0.0022603 0.00067794
-0.0092468 0.0074799 0.22103 0.23529
1640000000 0.29512 0.02579 -0.0014228 0.012457 -0.0029111 -0.0026268 0.0027278 0.0010933
-0.00075909 -0.0016499 -0.00039889 0.00062167
-0.0014493 0.012446 0.20264 0.27457 0.0061579 0.0035781 -0.00065594 -0.0018
-0.0010748 -0.00044086 -0.00064346 -0.00069511
-0.0029416 -0.0026297 0.0062169 0.0035687 0.30168 -0.15503 -0.0007071 0.0015294
-0.0011465 -0.00096175 -0.00028422 -0.0002904
0.0027279 0.0011012 -0.00065985 -0.0017814 -0.00077136 0.0014986 0.24822 0.051614
-0.007739 0.0094616 0.0024867 -0.00068347
-0.00075862 -0.0016319 -0.0010797 -0.00042332 -0.0011166 -0.00094439 -0.0077054 0.0095058
0.19763 0.15512 -0.0046379 0.0093875
-0.00044253 0.00059258 -0.00060183 -0.00072191 -0.00025252 -0.00024291 0.0025329 -0.00070165
-0.0046874 0.0094187 0.24623 0.20418
1700000000 0.28833 -0.019522 0.0021014 0.0095713 -0.0035527 -1.3735e-05 0.0031107 -0.0012461
-0.0020208 -0.00064125 0.00058524 0.00062422
0.0020904 0.009556 0.22103 0.24304 0.0041206 0.00046112 -0.0014775 -0.00060913
-0.00083567 9.0882e-05 -0.00096272 -0.00047573
-0.0035933 -1.4164e-05 0.0041074 0.00047525 0.25839 -0.19487 0.00049494 0.0016964
-0.002008 -3.6695e-05 -0.00041497 -0.00086008
0.0031086 -0.0012566 -0.0014908 -0.00059677 0.00042368 0.0017543 0.24469 0.0014557
-0.0045268 0.010152 0.0016132 -0.002148
-0.0019904 -0.00060698 -0.00084129 9.835e-05 -0.0020145 -5.0348e-06 -0.0044918 0.010145
0.215 0.13484 -0.00013024 0.0097248
0.0005807 0.00061902 -0.00098724 -0.0004378 -0.00036191 -0.00082105 0.0016362 -0.0021626
-5.41e-05 0.0097622 0.26206 0.1698
1760000000 0.27674 -0.068378 0.0044691 0.0062465 -0.0023064 0.00094101 0.0013387 -0.0034092
-0.0014535 0.00069634 0.00039076 -0.00053284
0.0044718 0.0062502 0.24745 0.20317 0.0018176 -0.0015192 -0.0012388 0.00019032
-0.0010812 0.00096021 -0.00060936 0.00048469
-0.0023249 0.00097249 0.0018306 -0.0015259 0.21037 -0.22811 0.0012158 0.0010104
-0.0011848 0.0015414 -0.0011597 -0.00062711
0.0012887 -0.0034184 -0.0012448 0.0001885 0.0012163 0.00099754 0.23551 -0.049844
-0.0008346 0.0092426 -0.00021534 -0.0025573
-0.0014816 0.00070152 -0.0010629 0.00098939 -0.0011585 0.0015205 -0.00083517 0.0092753
0.23039 0.10025 0.0038091 0.0070889
0.00041365 -0.00050886 -0.00057802 0.00044169 -0.001182 -0.00060328 -0.00021612 -0.0025834
0.0037283 0.0070922 0.27466 0.13245
1820000000 0.2523 -0.10588 0.0045306 0.0025897 -0.00033478 0.0025395 -0.00092591 -0.0031495
-0.0010467 0.0010737 3.2042e-05 -0.0001618
0.0045339 0.0025908 0.25766 0.1729 -0.00058848 -0.00032675 -0.0013499 0.0010544
-5.8157e-05 0.0013587 -0.00058294 0.00052697
-0.00034747 0.0025298 -0.00060428 -0.00029758 0.15953 -0.24393 0.0016729 0.00031245
-0.00013607 0.0024639 -0.0015256 0.00041739
-0.00090725 -0.0031108 -0.0013448 0.0010641 0.0016189 0.00031794 0.20518 -0.097183
0.00082825 0.0075796 -0.0019102 -0.0015338
-0.0010496 0.0010818 -7.9681e-05 0.0013699 -0.00013419 0.0024814 0.00086641 0.007591
0.24753 0.071069 0.0047199 0.0037764
1.0746e-05 -0.00015187 -0.00059044 0.00055017 -0.0014329 0.00043782 -0.0019001 -0.0015233
0.0047678 0.0037791 0.27669 0.095889
1880000000 0.21713 -0.14655 0.0024044 0.00024173 -0.00051889 0.0022732 -0.0028594 -0.0022635
-0.00013715 0.0019 5.529e-05 -0.00071167
0.0024196 0.00024593 0.26221 0.12629 -0.0026038 0.0016368 -0.00015424 0.0017927
0.00063058 0.0013491 9.4763e-05 0.00090586
-0.00048298 0.0022833 -0.0025961 0.0016461 0.1075 -0.25316 0.0017589 -0.000926
0.0015579 0.0019857 -0.0010351 0.0012234
-0.0028481 -0.0022385 -0.00015103 0.0017973 0.0017573 -0.00087753 0.16434 -0.1372
0.0018321 0.0053885 -0.002392 0.00028527
-0.00011858 0.0018955 0.00066942 0.0013422 0.0015827 0.0019535 0.0018272 0.0053941
0.25151 0.039627 0.0049767 0.0014329
7.9085e-05 -0.00072141 0.00012297 0.00093393 -0.0010391 0.0012741 -0.0023842 0.00028293
0.0049346 0.001445 0.27639 0.062424
1940000000 0.17784 -0.17197 -0.00015523 -0.0013364 0.001215 0.0022391 -0.0037128 0.00039833
0.0013848 0.0011448 -0.00072901 -0.00062586
-0.00015755 -0.0013367 0.26279 0.094322 -0.0015071 0.0040792 0.0011482 0.001346
0.0019783 0.00049096 0.0010806 0.00028916
0.0012618 0.0022083 -0.0014747 0.0040991 0.06223 -0.24594 0.00045483 -0.0022624
0.0025572 0.00024032 0.00061723 0.0015148
-0.0037279 0.00044283 0.0011692 0.0013393 0.00043075 -0.0022897 0.1119 -0.16743
0.0010252 0.0038566 -0.0013634 0.0017329
0.0014004 0.0011307 0.0019835 0.00045739 0.0025429 0.00024035 0.001035 0.0038452
0.2546 0.0010204 0.0038998 -0.0015926
-0.00073357 -0.0005359 0.0010316 0.00027119 0.00058629 0.0015024 -0.0014027 0.0016924
0.0038916 -0.0016585 0.2659 0.026058
2000000000 0.13169 -0.18685 -0.0038042 0.0006289 0.002691 0.0015422 -0.0023079 0.0037751
0.0012802 0.00030914 -0.00069575 0.00062722
-0.0038087 0.00061956 0.2486 0.058726 -0.00088963 0.0059007 0.0017127 0.00035421
0.0014389 -0.0011953 0.00040293 6.2604e-05
0.0026413 0.001563 -0.00088253 0.0059072 0.018984 -0.23218 -0.0012903 -0.0013264
0.002025 -0.0011815 0.0015126 0.0014438
-0.0022732 0.0038243 0.0017125 0.00033916 -0.0012682 -0.0012654 0.058199 -0.17703
-0.00042352 0.0036351 -0.00017455 0.0020637
0.0013104 0.00030802 0.0014721 -0.0012186 0.0020264 -0.0011661 -0.0004377 0.0036633
0.24959 -0.032185 0.00085092 -0.0030535
