!Keysight Technologies,M9804A,MY58100912,A.14.10.03
!Date: Thursday, April 27, 2023 10:28:33
!Correction: S11(C  6-Port  ) 
!S12(C  6-Port  ) 
!S13(C  6-Port  ) 
!S14(C  6-Port  ) 
!S15(C  6-Port  ) 
!S16(C  6-Port  ) 
!S21(C  6-Port  ) 
!S22(C  6-Port  ) 
!S23(C  6-Port  ) 
!S24(C  6-Port  ) 
!S25(C  6-Port  ) 
!S26(C  6-Port  ) 
!S31(C  6-Port  ) 
!S32(C  6-Port  ) 
!S33(C  6-Port  ) 
!S34(C  6-Port  ) 
!S35(C  6-Port  ) 
!S36(C  6-Port  ) 
!S41(C  6-Port  ) 
!S42(C  6-Port  ) 
!S43(C  6-Port  ) 
!S44(C  6-Port  ) 
!S45(C  6-Port  ) 
!S46(C  6-Port  ) 
!S51(C  6-Port  ) 
!S52(C  6-Port  ) 
!S53(C  6-Port  ) 
!S54(C  6-Port  ) 
!S55(C  6-Port  ) 
!S56(C  6-Port  ) 
!S61(C  6-Port  ) 
!S62(C  6-Port  ) 
!S63(C  6-Port  ) 
!S64(C  6-Port  ) 
!S65(C  6-Port  ) 
!S66(C  6-Port  ) 
!S6P File: Measurement: :
# Hz S  RI   R 50
500000000 -0.33471 -0.052639 -0.010023 -0.0018778 -0.0083557 0.013068 -0.0045042 0.011954
0.012402 0.0054146 -0.0046209 0.0076753
-0.010271 -0.0020696 -0.41655 -0.062892 0.0081426 -0.010455 0.0016418 0.0113
0.0083897 0.0024954 0.0017792 0.01316
-0.0084934 0.013011 0.008287 -0.010649 -0.26664 0.19967 0.0066319 0.0032337
-0.001957 0.0079911 0.00093638 0.012504
-0.0042994 0.011662 0.0013866 0.011417 0.0064876 0.0033055 -0.33238 0.043879
-0.018068 -0.0055895 0.015387 0.026216
0.012953 0.0055913 0.008562 0.0024724 -0.0014737 0.0082652 -0.017874 -0.0053418
-0.24858 -0.19093 -0.025747 0.0037163
-0.0042294 0.0080263 0.0018478 0.012854 0.00042404 0.011649 0.016115 0.025068
-0.025888 0.0039822 -0.27379 -0.12005
560000000 -0.31913 0.11388 -0.0222 -0.06517 3.6006e-05 0.012975 0.0051151 0.01081
0.010998 0.005447 0.010309 0.0087205
-0.022483 -0.065035 -0.37557 0.10004 -0.041773 -0.037792 0.013656 0.0032244
-0.01348 -0.0039511 0.0040283 -0.0015726
0.00013734 0.012995 -0.041803 -0.037686 -0.18546 0.25144 -0.00011295 -0.0047918
0.017897 0.0049049 0.0088075 -0.0061331
0.0053543 0.010534 0.013639 0.0033662 -0.00023166 -0.0048307 -0.30654 0.13548
0.0053039 -0.024175 0.0048183 -0.021379
0.01048 0.0056344 -0.014072 -0.0035229 0.018224 0.0045085 0.0051914 -0.023797
-0.31124 -0.014305 0.0089536 -0.047074
0.010182 0.0077361 0.0042457 -0.0014531 0.0081189 -0.0052732 0.0051626 -0.021737
0.0089138 -0.04728 -0.33033 0.025784
620000000 -0.27773 0.093655 -0.022888 0.0083941 0.0036484 0.0092822 0.0086342 -0.0041838
0.01252 -0.0020964 0.00048044 -0.0023095
-0.023049 0.0084672 -0.4034 0.049766 -0.018282 0.0005457 -0.0012977 -0.0018426
0.011947 -0.0060559 0.0011945 -0.003208
0.0037685 0.0092127 -0.01828 0.00056984 -0.15547 0.26021 -0.0005073 -0.0050245
-0.0034404 -0.0028853 0.0095568 -0.0027519
0.0084889 -0.0042644 -0.0011645 -0.0019549 -0.00049988 -0.0050819 -0.26528 0.14614
-0.03862 -0.019711 0.013061 0.027248
0.012241 -0.0021735 0.011667 -0.0062119 -0.0033315 -0.002711 -0.039551 -0.019706
-0.2302 -0.046687 -0.041166 0.012691
0.00020518 -0.0023127 0.0013523 -0.0033621 0.0093327 -0.0030607 0.013725 0.027255
-0.041455 0.01283 -0.25027 -0.0034019
680000000 -0.23829 0.18439 -0.026389 -0.014323 0.0050342 0.0052943 0.0015698 -0.0076385
-0.0016058 -0.011893 0.0059192 -0.0071621
-0.026312 -0.014291 -0.38976 0.15081 -0.032195 -0.0019498 -0.0011347 -0.00064878
-0.0013975 -0.0092197 -0.0011325 -0.0017096
0.0051241 0.0053356 -0.032204 -0.0018695 -0.10365 0.2809 -0.00061653 -0.00037493
-0.0018713 0.00033611 -0.0030897 -0.0089358
0.0015684 -0.007558 -0.0010774 -0.00078707 -0.00056921 -0.00037639 -0.22059 0.19786
-0.023593 -0.0086427 -0.0092745 -0.010784
-0.0015735 -0.01205 -0.0015343 -0.0093246 -0.0019009 0.00028116 -0.023371 -0.0085024
-0.27898 0.05634 -0.0080598 -0.0079718
0.005803 -0.007189 -0.0011565 -0.0017621 -0.0029094 -0.0088486 -0.010079 -0.010471
-0.0080661 -0.0081689 -0.2594 0.097066
740000000 -0.19285 0.17749 -0.039952 0.026908 0.013479 -0.0047894 -0.00067522 -0.0041735
-0.0040994 -0.0031242 -0.0070642 0.0028108
-0.03984 0.026748 -0.33523 0.16901 -0.036463 0.034689 -0.00026173 -0.0060981
-0.011974 0.0074391 -0.0010777 -0.0061192
0.013482 -0.0045156 -0.036257 0.034693 -0.069585 0.27854 -0.0021577 0.0033459
-0.002947 -0.0057382 -0.0013197 0.0013811
-0.0006555 -0.0043548 -0.00031523 -0.0061677 -0.0021686 0.0033768 -0.20351 0.20429
-0.042438 -0.0078271 0.02263 0.014851
-0.0042938 -0.0032284 -0.0122 0.0076138 -0.0028722 -0.0059489 -0.042694 -0.0072176
-0.18032 0.084731 -0.041438 0.00017492
-0.0068496 0.0030252 -0.0012656 -0.0062472 -0.0013914 0.0016067 0.022835 0.014492
-0.041457 0.00038408 -0.24685 0.10292
800000000 -0.16166 0.22093 -0.022598 0.016119 0.0056166 -0.010484 -0.0044782 -0.0020051
-0.0049159 0.0023823 0.0045152 0.00045609
-0.022673 0.016079 -0.34102 0.23966 -0.008612 0.034037 -0.0024457 0.0021604
-0.0016317 0.0027627 0.00071974 0.0053447
0.0055674 -0.010538 -0.008499 0.034098 -0.031015 0.30245 0.00091897 0.0015742
-0.00019809 0.0034806 -0.0017286 0.0011707
-0.0043593 -0.0019566 -0.0023819 0.0022825 0.00092593 0.0015529 -0.1741 0.23243
-0.028815 0.013385 0.013919 -0.01012
-0.004795 0.0022269 -0.0016388 0.0028383 -8.2798e-05 0.0035497 -0.028802 0.013356
-0.22048 0.11127 -0.017844 0.019871
0.0043195 0.00039803 0.00092852 0.0054234 -0.0018111 0.0010923 0.013699 -0.010083
-0.017917 0.019535 -0.23972 0.15145
860000000 -0.12704 0.24148 -0.01779 0.03046 -0.0029286 -0.01018 -0.0016937 0.00065879
0.0041523 0.0049144 -0.0035099 -0.0031465
-0.017736 0.030502 -0.2925 0.28257 0.0074195 0.034428 0.00022537 0.001925
0.0037239 0.00072744 0.0028352 0.00022865
-0.0029044 -0.010201 0.0075397 0.034369 0.016638 0.31069 -0.00056728 -7.1936e-05
0.0023344 -0.0013386 0.001524 0.0041546
-0.0017062 0.00075301 0.00020911 0.0020578 -0.00055243 -4.0887e-05 -0.13704 0.2432
-0.018033 0.018052 -0.006039 -0.0089758
0.0043112 0.0050456 0.0038826 0.00069311 0.0022832 -0.0012496 -0.018167 0.018236
-0.16356 0.16232 -0.024501 0.016212
-0.003386 -0.0029986 0.0029946 0.00054264 0.0015378 0.004251 -0.0056998 -0.0090067
-0.024191 0.016401 -0.1902 0.19577
920000000 -0.10335 0.26481 0.0045524 0.038362 -0.0091871 -0.0049597 -0.0018096 0.0018607
0.001655 0.0014242 0.002712 -0.0013604
0.0044402 0.038353 -0.26529 0.30387 0.027983 0.022779 0.0015257 0.001253
0.007888 -0.00034635 0.0040212 -0.0027531
-0.0092296 -0.0048889 0.028097 0.022681 0.061961 0.31191 0.0020255 6.4386e-05
0.001208 -0.00047986 0.00096968 -0.0011425
-0.0017988 0.001857 0.0015124 0.0013226 0.0020527 7.9957e-06 -0.113 0.25953
-0.011271 0.0304 0.0033558 -0.0064524
0.0015481 0.0019048 0.0079426 -0.00024466 0.001179 -0.00038875 -0.011028 0.030399
-0.15276 0.1673 -0.0024077 0.02658
0.0028367 -0.0016192 0.004003 -0.0028819 0.0010234 -0.001266 0.0032795 -0.0065378
-0.0024 0.026362 -0.19619 0.20987
980000000 -0.056953 0.28473 0.016757 0.030184 -0.0094223 0.0041734 0.0017691 0.0034626
0.0039117 -0.0017389 -0.0030093 -0.0021396
0.016707 0.030175 -0.21229 0.33853 0.033185 0.0054783 0.0020698 -0.0001439
0.0018284 -0.0060551 -0.00019486 -0.0023434
-0.0094012 0.0042123 0.033285 0.0053682 0.1077 0.30628 0.00069957 -0.0011627
0.00062385 -0.0020215 0.0015555 -0.00020031
0.001834 0.003446 0.0020844 -0.00013166 0.00072776 -0.0011504 -0.074872 0.27069
0.0073042 0.030261 -0.0086714 -0.0066952
0.0036903 -0.0018144 0.0017052 -0.0061152 0.00062903 -0.0020415 0.0072728 0.03027
-0.11899 0.19789 0.0061029 0.019328
-0.0029442 -0.0020656 -8.8126e-05 -0.0022101 0.0016308 -0.00012612 -0.0086934 -0.0067431
0.0060966 0.019393 -0.15242 0.25352
1040000000 -0.015352 0.29367 0.032874 0.019192 -0.0015961 0.0070785 0.0027502 0.00076219
0.00040809 -0.0037248 -0.00012963 -0.0016654
0.032861 0.01919 -0.17716 0.35205 0.029891 -0.014334 0.0016483 -0.0016565
-0.0020509 -0.0028586 -0.00095157 -0.0028878
-0.0016014 0.0070326 0.029895 -0.014524 0.15355 0.29331 -0.00038896 -0.0016223
-0.0015359 -0.0010703 -0.00050761 -0.0010814
0.0027411 0.00079055 0.0016255 -0.0016512 -0.00042717 -0.0016149 -0.047166 0.28045
0.019429 0.018737 -0.0025778 0.0013411
0.00025442 -0.0036782 -0.0020827 -0.0027719 -0.0015614 -0.0010252 0.019545 0.018746
-0.084938 0.20414 0.014134 0.017609
-0.00018276 -0.0017477 -0.00092155 -0.0028615 -0.00050075 -0.001104 -0.0024355 0.0012817
0.014175 0.017573 -0.1298 0.27382
1100000000 0.029647 0.30264 0.036396 -0.0034316 0.0028345 0.004194 0.0024303 -0.0010627
-0.0021929 -0.0030541 -0.0039336 -7.1968e-05
0.036376 -0.0034016 -0.13405 0.37001 0.015928 -0.027763 3.8769e-05 -0.0018139
-0.0037112 -0.00097627 -0.0036318 -0.00058268
0.0028366 0.0041859 0.015876 -0.027874 0.19949 0.27404 -0.0019111 3.2145e-05
-0.0018055 0.00040762 -0.0011791 -0.00049532
0.002458 -0.0011059 8.224e-05 -0.0018253 -0.0019035 5.1988e-05 -0.0069452 0.28543
0.02504 0.0055274 -0.0023223 0.00021227
-0.00218 -0.0030155 -0.0037617 -0.0010458 -0.0018149 0.00038248 0.025041 0.0055602
-0.064837 0.21689 0.019963 0.0081796
-0.0039526 -9.6895e-05 -0.0036982 -0.00055669 -0.0012313 -0.00047614 -0.0023081 0.00021995
0.019922 0.0082629 -0.084344 0.30174
1160000000 0.08058 0.29869 0.024582 -0.02046 0.0027791 -0.00040236 -9.4851e-05 -0.0024606
-0.0039873 -0.0008096 -0.0010445 0.0041963
0.024595 -0.020438 -0.090652 0.37445 -0.0031681 -0.029466 -0.0016172 -0.0016633
-0.0029041 0.0025647 -0.001568 0.0019294
0.0028004 -0.00041582 -0.0032888 -0.029464 0.24283 0.24414 -0.00087416 0.0018136
-0.00069143 0.001998 -0.00084369 0.00032448
-0.00011512 -0.0024405 -0.0016581 -0.0016306 -0.00090821 0.0018263 0.032499 0.28265
0.021659 -0.010209 -0.0032955 0.0050017
-0.0040173 -0.00081258 -0.0028936 0.0025255 -0.00067212 0.0019846 0.0216 -0.010274
-0.03036 0.22401 0.018393 -0.00092533
-0.0010212 0.0042168 -0.0015954 0.0020255 -0.00096453 0.00026761 -0.0032221 0.0050716
0.018355 -0.0009499 -0.037807 0.30451
1220000000 0.12467 0.28881 0.011238 -0.030108 -0.0015177 -0.00099766 -4.1296e-06 -0.00093112
-0.0027411 0.0022183 0.00098227 0.0020132
0.011236 -0.030066 -0.046727 0.38754 -0.016772 -0.021944 -0.0026801 0.00045925
-7.6896e-05 0.0030966 -0.00089885 0.0018772
-0.0015483 -0.00097615 -0.016891 -0.021903 0.28208 0.20587 0.00070549 0.0018054
0.00054276 0.0013058 0.00031535 0.00061824
1.862e-06 -0.00092562 -0.0026901 0.00045649 0.000715 0.0018004 0.072416 0.27412
0.011049 -0.017297 0.0021127 0.0014022
-0.0027222 0.0022451 -5.9294e-05 0.0031177 0.00053487 0.0013199 0.011044 -0.017318
-0.0067245 0.23204 0.013648 -0.013302
0.00096615 0.0020091 -0.00087997 0.0019094 0.00035623 0.00057549 0.0020331 0.001372
0.013651 -0.013327 -0.0055424 0.31894
1280000000 0.17484 0.26829 -0.0075017 -0.028888 -0.0020283 0.0024551 -0.00083655 -0.0020476
-0.00072567 0.0032828 0.0025718 0.0013243
-0.007483 -0.02886 -0.00082299 0.3794 -0.024069 -0.0090984 -0.0010227 0.0014818
0.0016966 0.0018723 0.00062751 0.0020707
-0.0020248 0.002461 -0.024132 -0.0089987 0.31308 0.1625 0.001581 5.0805e-05
0.0012661 0.00030242 0.0003858 0.00024175
-0.00085094 -0.0020775 -0.0010202 0.0014855 0.0015935 2.6841e-05 0.1094 0.25809
0.0012788 -0.019686 -0.00028019 0.00026618
-0.00066823 0.0032744 0.0017083 0.0018425 0.0012324 0.00029137 0.0012623 -0.01971
0.029871 0.23479 0.0029125 -0.015422
0.0025818 0.0012909 0.00063575 0.0020279 0.00039733 0.00030775 -0.00021958 0.00026153
0.0028806 -0.015403 0.041236 0.32046
1340000000 0.21235 0.23534 -0.017482 -0.019411 0.00074283 0.0046951 -0.0017936 -0.00082386
0.0014073 0.0025973 0.0017693 -0.0013284
-0.017456 -0.019401 0.038717 0.37185 -0.022044 0.0039195 -9.7093e-05 0.0020868
0.0019731 0.00084182 0.0012214 0.00081092
0.00077857 0.0046992 -0.022034 0.0040524 0.33547 0.11529 0.0011471 -0.00089799
0.00066829 -0.00059531 7.346e-05 0.00020805
-0.0017999 -0.00079002 -8.7737e-05 0.0021106 0.001159 -0.00089639 0.14259 0.23713
-0.008345 -0.017139 0.00083423 0.00042837
0.0014467 0.0026319 0.0019965 0.00081143 0.00063216 -0.00065123 -0.0083902 -0.017136
0.059945 0.22978 -0.0040825 -0.013954
0.0017729 -0.0013962 0.0012657 0.00077596 2.9237e-05 0.00024328 0.00075444 0.00051438
-0.0040845 -0.014031 0.079699 0.31508
1400000000 0.24607 0.19814 -0.023537 -0.0078745 0.0053298 0.0033961 -0.0021929 0.00059572
0.0024966 0.00094954 0.00030642 -0.0016276
-0.023522 -0.0078783 0.076246 0.3596 -0.015401 0.012436 0.0013641 0.0013499
0.0013238 -0.00079032 0.0012022 0.00018445
0.0053514 0.0033913 -0.015355 0.012548 0.34904 0.06225 9.1942e-05 -0.0017136
0.00012131 -0.00042162 0.00035126 0.00017858
-0.0021634 0.00060882 0.0013597 0.0013702 5.507e-05 -0.0016494 0.17221 0.20822
-0.014669 -0.010225 -0.00084859 -0.00014808
0.0024595 0.0009397 0.0012854 -0.0007656 0.00011733 -0.00044048 -0.014699 -0.010213
0.09278 0.22497 -0.010388 -0.0087916
0.00036056 -0.0016073 0.0012451 0.00014923 0.00032062 0.00018637 -0.00079054 -0.00022042
-0.010339 -0.0087442 0.1232 0.30378
1460000000 0.26966 0.15472 -0.020611 0.0045439 0.0059561 -0.0017765 -0.0015949 0.0017304
0.0021432 -0.00053172 -0.00036968 -0.0010754
-0.02061 0.0045453 0.111 0.3382 -0.0063756 0.0157 0.0017528 0.00016438
0.00096292 -0.0014183 0.0012172 -0.00064571
0.0059025 -0.001769 -0.0063278 0.015778 0.35578 0.0082004 -0.0012404 -0.0013504
0.00015768 -0.00024777 0.00072605 -0.00027895
-0.0015868 0.0017134 0.001762 0.00015598 -0.0012423 -0.0013715 0.19885 0.17875
-0.016118 -0.0036055 -0.00078189 0.0021271
0.0021776 -0.00052036 0.00091164 -0.0014253 0.0002039 -0.00027937 -0.016145 -0.0035537
0.1222 0.21041 -0.01219 -0.0026709
-0.00029366 -0.0010683 0.0012323 -0.00064251 0.00075506 -0.0002723 -0.00085667 0.0021466
-0.012253 -0.0027134 0.15666 0.28295
1520000000 0.28245 0.11319 -0.014996 0.010194 0.0034544 -0.0043492 5.5262e-05 0.0025763
0.0020815 -0.0019756 -0.0012028 -0.00013387
-0.015004 0.010194 0.14491 0.32388 0.0014969 0.013537 0.0016811 -0.00078366
1.5109e-05 -0.001169 0.00031325 -0.0010579
0.0034498 -0.0043253 0.0015669 0.013556 0.34927 -0.047943 -0.001086 -0.00044935
0.00064688 -0.00086596 7.5635e-05 -0.00023026
6.2401e-05 0.0025616 0.001669 -0.00081305 -0.0011167 -0.00042456 0.22203 0.14023
-0.015598 0.0025972 0.0015008 0.0021123
0.0020847 -0.0019451 1.1655e-05 -0.0011653 0.00062841 -0.00086213 -0.015627 0.0026147
0.15016 0.19693 -0.011939 0.0018232
-0.0012019 -0.00015197 0.00031045 -0.0010579 1.8331e-05 -0.00024882 0.0015811 0.0021513
-0.011901 0.0018319 0.18936 0.26218
1580000000 0.29269 0.067194 -0.0082292 0.013533 -0.00090447 -0.0050463 0.0014436 0.0019567
-0.00021766 -0.0022644 -0.00027785 0.0003068
-0.0082243 0.013528 0.17266 0.2994 0.0054145 0.0085601 0.00052429 -0.001599
-0.00060329 -0.0010904 -0.00019103 -0.00086005
-0.00097399 -0.0050424 0.0054627 0.0085306 0.32989 -0.10547 -0.0016581 0.00056742
-0.00036326 -0.0012529 0.00022528 -0.00049975
0.0014253 0.0019221 0.00051801 -0.0016119 -0.0016956 0.00056319 0.23577 0.1007
-0.012225 0.0077626 0.0021889 0.0008079
-0.00020686 -0.0022244 -0.00062856 -0.0010691 -0.00034935 -0.0011949 -0.012162 0.0078329
0.17447 0.17903 -0.0094141 0.0073393
-0.00026878 0.00028657 -0.00019738 -0.0008629 0.00020023 -0.00046812 0.0022438 0.00075249
-0.0094251 0.0073424 0.22078 0.23536
1640000000 0.29523 0.025842 -0.0014546 0.012432 -0.0028665 -0.0026916 0.0027138 0.0010992
-0.00076618 -0.0015794 -0.00029634 0.00061592
-0.0014639 0.012403 0.2027 0.27451 0.0062227 0.0035544 -0.00062957 -0.0018268
-0.001066 -0.00042633 -0.00060173 -0.00068297
-0.0029166 -0.0026561 0.006196 0.0035199 0.30173 -0.15502 -0.00071171 0.0015037
-0.001084 -0.00093624 -0.00014221 -0.00035207
0.0027447 0.0010888 -0.00065167 -0.001799 -0.00075779 0.0014741 0.24818 0.05168
-0.0076747 0.0095474 0.0026269 -0.00077632
-0.00077068 -0.0016328 -0.0010516 -0.00040517 -0.0010669 -0.00098568 -0.0077177 0.0095398
0.19778 0.15525 -0.0045342 0.00932
-0.00032583 0.00061528 -0.00060653 -0.0006675 -0.00019978 -0.00032465 0.0025813 -0.00077261
-0.0045278 0.0093091 0.24633 0.20413
1700000000 0.28843 -0.019572 0.0020576 0.0095859 -0.0036415 2.0534e-05 0.0031669 -0.001239
-0.0020242 -0.00064427 0.00059634 0.00050346
0.0020515 0.009571 0.22107 0.24302 0.0041032 0.00048521 -0.0015164 -0.00061694
-0.00089429 7.9889e-05 -0.00092493 -0.0004278
-0.0036187 9.4834e-07 0.0041122 0.00045012 0.25841 -0.1949 0.00044353 0.0017679
-0.0020151 -5.8661e-05 -0.00037374 -0.00086581
0.003152 -0.001242 -0.0015136 -0.00061658 0.00044931 0.001759 0.24472 0.0015573
-0.0045384 0.01014 0.0016657 -0.0022153
-0.0019956 -0.00061252 -0.00086746 9.0747e-05 -0.002047 -4.4036e-05 -0.004477 0.010186
0.21508 0.13465 -7.5292e-05 0.0097048
0.00061695 0.00051352 -0.00091646 -0.0004423 -0.00036676 -0.00093493 0.0017258 -0.0022044
-5.877e-05 0.0097683 0.26229 0.16973
1760000000 0.27676 -0.068334 0.0044284 0.0062931 -0.0023588 0.00095505 0.001382 -0.0033841
-0.001441 0.00074069 0.00049011 -0.00043513
0.0044312 0.0062756 0.24744 0.20314 0.0018076 -0.0014863 -0.0012187 0.0001987
-0.0011 0.0010073 -0.00058098 0.00043055
-0.0023572 0.00086967 0.0018042 -0.001515 0.21036 -0.22819 0.0012305 0.0010804
-0.0012974 0.0015446 -0.0012257 -0.00062609
0.0012856 -0.0034209 -0.0012296 0.00020809 0.0012662 0.0011333 0.23554 -0.04995
-0.00083392 0.0092137 -0.00021055 -0.0026039
-0.0014642 0.00072052 -0.0010857 0.0010022 -0.0012334 0.0016073 -0.00078713 0.0092302
0.23053 0.10013 0.0038056 0.0071466
0.00041059 -0.00044044 -0.00058798 0.0004387 -0.0012358 -0.00065808 -0.00015103 -0.0026298
0.0037586 0.0071154 0.27471 0.13205
1820000000 0.25227 -0.10595 0.0045668 0.0026566 -0.00033924 0.0025265 -0.00093936 -0.0031243
-0.0010769 0.0010582 4.8153e-05 -0.00018179
0.0045592 0.0026341 0.25764 0.17281 -0.00060075 -0.00034845 -0.0013649 0.0010256
-4.2813e-05 0.0013446 -0.00054061 0.00058767
-0.00027396 0.0025383 -0.00062293 -0.00033212 0.15963 -0.24396 0.0016215 0.00034446
-0.00015651 0.0024298 -0.0013189 0.00036677
-0.0008953 -0.0031124 -0.001351 0.0010274 0.0016128 0.00027489 0.20519 -0.097122
0.00091893 0.0077323 -0.0016525 -0.0015993
-0.0010435 0.0011004 -5.618e-05 0.0013495 -0.00010053 0.0024041 0.0008594 0.0076747
0.24757 0.071192 0.0047189 0.0037673
2.4263e-05 -0.00012466 -0.00055181 0.00056033 -0.0013752 0.00029321 -0.0017119 -0.0015689
0.0047393 0.0037451 0.27663 0.096061
1880000000 0.21701 -0.1465 0.0024188 0.00025682 -0.00051788 0.002193 -0.0028873 -0.0022739
-0.00022387 0.0018118 -4.444e-05 -0.0006066
0.0024048 0.00026832 0.26219 0.12625 -0.0025957 0.0016071 -0.00018227 0.0017974
0.00062534 0.0013361 9.6162e-05 0.00094067
-0.00047966 0.0022622 -0.0025792 0.0016478 0.10742 -0.25311 0.0018598 -0.00089056
0.0016167 0.0019927 -0.0011033 0.001282
-0.0028901 -0.0022537 -0.00014956 0.0017933 0.0017517 -0.00091149 0.16419 -0.13709
0.0017541 0.0052793 -0.0023848 0.0001298
-0.00020651 0.0018365 0.00062529 0.0013748 0.001547 0.0020594 0.0017433 0.0053172
0.2516 0.039362 0.0050318 0.0014918
5.5153e-05 -0.00069883 0.00012492 0.00091992 -0.0010028 0.0012913 -0.0024387 0.00022637
0.0050173 0.0015211 0.27646 0.062167
1940000000 0.17769 -0.17208 -7.7753e-05 -0.0013605 0.0013946 0.0021379 -0.0036992 0.00041252
0.0014574 0.0011373 -0.00057051 -0.00055847
-9.1883e-05 -0.0013556 0.2628 0.09426 -0.0013942 0.0040709 0.0011128 0.0013145
0.0020192 0.00048801 0.0010477 0.00035754
0.0014406 0.0021946 -0.0013827 0.0040854 0.062205 -0.24591 0.00050282 -0.0022049
0.0024955 0.00028337 0.00056884 0.0016626
-0.003715 0.00044557 0.0011036 0.0013295 0.00047308 -0.0023112 0.11192 -0.1675
0.00095933 0.0039578 -0.0016389 0.0016218
0.0014083 0.0011166 0.0019818 0.00044241 0.0025495 0.00024666 0.0010337 0.003932
0.25456 0.00095707 0.003653 -0.0017056
-0.00066207 -0.00049084 0.0011057 0.00031326 0.00065025 0.0016314 -0.0016064 0.0015967
0.0036989 -0.0018057 0.26567 0.026174
2000000000 0.13159 -0.18682 -0.003747 0.00070369 0.002753 0.0015068 -0.0022629 0.0037938
0.0012288 0.00028959 -0.00071057 0.00056563
-0.0037959 0.00070117 0.24858 0.058758 -0.00085909 0.0059158 0.0017039 0.00039942
0.0014181 -0.0012078 0.00045176 6.4631e-05
0.0027541 0.0015363 -0.00079604 0.0059255 0.019093 -0.23224 -0.001267 -0.0014439
0.0020886 -0.0012865 0.0015209 0.0014796
-0.0023255 0.0038449 0.0017286 0.000384 -0.0011896 -0.0014533 0.058419 -0.17693
-0.0003808 0.0036141 -7.5651e-05 0.0022512
0.0012284 0.00033843 0.0014346 -0.0011821 0.0020803 -0.0012539 -0.00045484 0.0036059
0.24957 -0.032339 0.00081001 -0.0028067
