!Keysight Technologies,M9804A,MY58100912,A.14.10.03
!Date: Thursday, April 27, 2023 10:28:33
!Correction: S11(C  6-Port  ) 
!S12(C  6-Port  ) 
!S13(C  6-Port  ) 
!S14(C  6-Port  ) 
!S15(C  6-Port  ) 
!S16(C  6-Port  ) 
!S21(C  6-Port  ) 
!S22(C  6-Port  ) 
!S23(C  6-Port  ) 
!S24(C  6-Port  ) 
!S25(C  6-Port  ) 
!S26(C  6-Port  ) 
!S31(C  6-Port  ) 
!S32(C  6-Port  ) 
!S33(C  6-Port  ) 
!S34(C  6-Port  ) 
!S35(C  6-Port  ) 
!S36(C  6-Port  ) 
!S41(C  6-Port  ) 
!S42(C  6-Port  ) 
!S43(C  6-Port  ) 
!S44(C  6-Port  ) 
!S45(C  6-Port  ) 
!S46(C  6-Port  ) 
!S51(C  6-Port  ) 
!S52(C  6-Port  ) 
!S53(C  6-Port  ) 
!S54(C  6-Port  ) 
!S55(C  6-Port  ) 
!S56(C  6-Port  ) 
!S61(C  6-Port  ) 
!S62(C  6-Port  ) 
!S63(C  6-Port  ) 
!S64(C  6-Port  ) 
!S65(C  6-Port  ) 
!S66(C  6-Port  ) 
!S6P File: Measurement: :
# Hz S  RI   R 50
500000000 -0.33399 -0.05213 -0.0098804 -0.0015857 -0.0079884 0.012878 -0.0042162 0.01226
0.013226 0.0050687 -0.004232 0.0085119
-0.0097941 -0.0017022 -0.41609 -0.062707 0.0083203 -0.010774 0.0013812 0.011627
0.008791 0.0027766 0.0015438 0.012901
-0.0080258 0.012868 0.008325 -0.010787 -0.26709 0.19988 0.0061448 0.0032623
-0.00048325 0.0087564 -0.00017602 0.011945
-0.0042135 0.012079 0.0014556 0.011619 0.0061544 0.0032368 -0.3321 0.04379
-0.018088 -0.0039517 0.015658 0.02518
0.0133 0.0051732 0.0086939 0.0027515 -0.0004994 0.0087774 -0.018087 -0.0039187
-0.25032 -0.1936 -0.025293 0.0052041
-0.0040002 0.008252 0.0018151 0.012867 -0.00015713 0.011953 0.015653 0.02504
-0.025269 0.0051921 -0.27372 -0.12072
560000000 -0.31792 0.11394 -0.022773 -0.064728 7.7118e-05 0.01289 0.005368 0.010739
0.010325 0.0044919 0.010517 0.008731
-0.022872 -0.064672 -0.37576 0.099723 -0.041823 -0.038133 0.013447 0.0036653
-0.012797 -0.0040167 0.004089 -0.0015755
0.0001258 0.01282 -0.041927 -0.038067 -0.18515 0.25164 -0.000665 -0.0050817
0.017903 0.0053902 0.0081143 -0.005332
0.0055365 0.010513 0.013482 0.003698 -0.00070777 -0.0050928 -0.30594 0.13546
0.0056263 -0.024008 0.005372 -0.021643
0.010537 0.0046573 -0.012859 -0.0040598 0.017952 0.005383 0.0057113 -0.024067
-0.31004 -0.014331 0.0080467 -0.04667
0.010524 0.0086063 0.0040507 -0.0015086 0.0080626 -0.0053395 0.0053557 -0.02147
0.0081588 -0.04658 -0.33288 0.026717
620000000 -0.27731 0.09415 -0.022788 0.008371 0.0038168 0.0089891 0.0084131 -0.0043738
0.011822 -0.0017631 0.00088221 -0.0033201
-0.022829 0.0083055 -0.40323 0.050011 -0.018432 0.00053257 -0.0014204 -0.0020162
0.012114 -0.0064781 0.0010857 -0.0034279
0.0038421 0.0089272 -0.018446 0.00059125 -0.15538 0.26029 -0.0006053 -0.0051985
-0.0032878 -0.0026748 0.0094203 -0.0033047
0.0084774 -0.0044283 -0.0013839 -0.0020218 -0.00060709 -0.0052214 -0.26537 0.14599
-0.039147 -0.019567 0.012833 0.025568
0.011707 -0.00167 0.012076 -0.0064953 -0.0033054 -0.0026546 -0.039056 -0.019621
-0.23064 -0.04598 -0.039793 0.012907
0.0011857 -0.0034631 0.0012585 -0.0034179 0.0095067 -0.0031871 0.012464 0.025492
-0.039545 0.013077 -0.25132 -0.0079329
680000000 -0.23843 0.18489 -0.026632 -0.014276 0.00502 0.0053154 0.0019668 -0.0072815
-0.0019886 -0.011712 0.0054942 -0.0067457
-0.026537 -0.014149 -0.38978 0.15072 -0.032255 -0.0020463 -0.0013618 -0.00037855
-0.0013693 -0.0091485 -0.0013548 -0.0018506
0.0051087 0.005319 -0.032283 -0.0019631 -0.10365 0.28102 -0.00078179 -0.00026514
-0.0016521 0.00036961 -0.0033102 -0.0092774
0.0020806 -0.00748 -0.0013598 -0.00036428 -0.00077754 -0.00027194 -0.2204 0.19745
-0.023382 -0.0078231 -0.0084314 -0.011085
-0.0018053 -0.011665 -0.0014456 -0.0091318 -0.0016667 0.00037985 -0.023323 -0.0077573
-0.2789 0.056099 -0.0080167 -0.0072431
0.0055356 -0.0065625 -0.0013175 -0.0017533 -0.0032443 -0.0092638 -0.0082563 -0.011088
-0.0079992 -0.0071935 -0.25841 0.098445
740000000 -0.19306 0.17754 -0.039587 0.027072 0.013391 -0.0048568 -0.00038911 -0.0042118
-0.0045721 -0.0031957 -0.0067572 0.0032294
-0.039546 0.027028 -0.3357 0.16989 -0.037005 0.034274 -0.00052374 -0.0055518
-0.011922 0.0069407 -0.0020156 -0.0055749
0.013349 -0.0049038 -0.036953 0.034422 -0.069305 0.2784 -0.0021098 0.0030025
-0.003349 -0.005386 -0.0012329 0.00078045
-0.00039537 -0.004191 -0.00053191 -0.0055767 -0.0021255 0.0029992 -0.20363 0.2049
-0.041734 -0.0077288 0.022006 0.01508
-0.004635 -0.0030488 -0.011848 0.0071053 -0.003411 -0.0053489 -0.041791 -0.0076235
-0.18245 0.085252 -0.039857 0.00059319
-0.0066775 0.0032917 -0.0020497 -0.0056253 -0.0012407 0.00081581 0.021984 0.015085
-0.039942 0.00054595 -0.2484 0.10354
800000000 -0.16182 0.22138 -0.022756 0.016273 0.0056553 -0.010414 -0.0043079 -0.001779
-0.0046982 0.0022493 0.0044774 0.0008755
-0.022719 0.016275 -0.34091 0.23975 -0.0086774 0.033992 -0.0023476 0.00228
-0.0014752 0.0028997 0.00086246 0.0053576
0.0056423 -0.010413 -0.0085743 0.034049 -0.030998 0.3025 0.00098097 0.0016591
-6.9242e-05 0.0036273 -0.0017504 0.0010101
-0.0042563 -0.001712 -0.0023646 0.0022797 0.00097227 0.0016644 -0.17397 0.23274
-0.028361 0.012771 0.013829 -0.00967
-0.0047036 0.0022448 -0.0014577 0.0029219 -7.6765e-05 0.0036371 -0.028353 0.012822
-0.22081 0.11209 -0.017049 0.019222
0.0044225 0.0010552 0.00085072 0.0052933 -0.0017656 0.0010009 0.013814 -0.0096376
-0.017016 0.019212 -0.24029 0.15278
860000000 -0.12685 0.24178 -0.017777 0.030616 -0.0028371 -0.010099 -0.0017306 0.00086819
0.0044782 0.0054801 -0.0035857 -0.0031088
-0.017837 0.030573 -0.29226 0.28267 0.0073976 0.034414 0.00017353 0.0021869
0.0039709 0.00094126 0.0033256 4.3984e-05
-0.0028825 -0.010124 0.0075144 0.034426 0.016692 0.31079 -0.0006092 1.947e-06
0.0024322 -0.0010816 0.0015462 0.0041157
-0.0017609 0.00087442 0.00018827 0.0021812 -0.00060692 -5.8817e-06 -0.13711 0.24349
-0.018337 0.018128 -0.0063607 -0.009176
0.0045108 0.0054686 0.0040041 0.0009396 0.0024239 -0.0010622 -0.018244 0.018156
-0.1632 0.16243 -0.02387 0.016167
-0.0037172 -0.0031321 0.0032596 1.2992e-05 0.0015258 0.0041281 -0.0065195 -0.0091929
-0.023879 0.016208 -0.18918 0.19576
920000000 -0.10325 0.26472 0.0044498 0.03849 -0.0092156 -0.0048905 -0.0018036 0.0018929
0.0015607 0.0019624 0.0027473 -0.0013969
0.00444 0.038366 -0.26527 0.30416 0.027933 0.022763 0.0015872 0.0013863
0.0077265 -3.3273e-05 0.0043317 -0.0025862
-0.0092055 -0.0048916 0.028029 0.02269 0.062041 0.31195 0.0020074 6.9812e-05
0.001087 -0.00036811 0.00090055 -0.0011642
-0.0017996 0.0018978 0.0016008 0.0013861 0.001998 7.4785e-05 -0.11308 0.25963
-0.011259 0.030113 0.0032765 -0.0066428
0.0016035 0.0018594 0.0076844 -6.7958e-05 0.0010759 -0.00035426 -0.011218 0.030115
-0.15282 0.16871 -0.0017617 0.025752
0.0026577 -0.0013798 0.0043286 -0.0026309 0.0008755 -0.0011503 0.0033699 -0.0066262
-0.0018101 0.025697 -0.19541 0.21049
980000000 -0.05685 0.28483 0.016763 0.030119 -0.009373 0.0041076 0.0017501 0.0036318
0.0038041 -0.0016209 -0.0030265 -0.0022714
0.016752 0.030135 -0.21217 0.33867 0.03321 0.0054305 0.0019127 -7.7218e-05
0.0016331 -0.0059695 -0.00029814 -0.0024389
-0.009384 0.004151 0.033254 0.005303 0.10779 0.30633 0.00066089 -0.0011759
0.00053413 -0.0019374 0.0014877 -0.00026753
0.0017928 0.0035873 0.0019263 -8.0966e-05 0.00066499 -0.0011807 -0.074715 0.27075
0.0071143 0.030024 -0.0089158 -0.0064708
0.0037748 -0.0016302 0.001573 -0.0060072 0.000517 -0.0019439 0.0071855 0.030047
-0.1193 0.19806 0.0060335 0.019728
-0.0030845 -0.0021777 -0.00025975 -0.0023711 0.0015129 -0.00027549 -0.0090002 -0.0064901
0.006075 0.019724 -0.1532 0.2535
1040000000 -0.015116 0.2938 0.032866 0.019146 -0.0015905 0.0069922 0.0027363 0.0007754
0.00014876 -0.0035832 -0.00021307 -0.001778
0.032791 0.019131 -0.17713 0.35202 0.029936 -0.014396 0.0015833 -0.0016638
-0.0021627 -0.0026789 -0.00090328 -0.003019
-0.0015629 0.0070065 0.029903 -0.014538 0.15365 0.29332 -0.00041948 -0.0016575
-0.0015522 -0.00098222 -0.00047641 -0.0011148
0.0027181 0.00077336 0.0015903 -0.0016623 -0.0004113 -0.0016499 -0.047124 0.28047
0.019226 0.018903 -0.002531 0.0013215
0.00014112 -0.0036305 -0.0022073 -0.0026778 -0.001556 -0.00098192 0.019271 0.018876
-0.085555 0.20404 0.01401 0.017644
-0.00028661 -0.0017712 -0.0009729 -0.0029559 -0.00048553 -0.0011044 -0.0024648 0.001328
0.013946 0.017653 -0.12966 0.27401
1100000000 0.029823 0.30281 0.036331 -0.003439 0.0028009 0.0041613 0.0024851 -0.0010552
-0.0022877 -0.0030036 -0.0038987 -2.6001e-05
0.036312 -0.0034393 -0.13399 0.36999 0.015955 -0.027787 3.7244e-05 -0.0019012
-0.0036982 -0.00089372 -0.0035035 -0.00060346
0.0028152 0.0041621 0.015855 -0.02788 0.19961 0.27407 -0.0019016 6.6652e-05
-0.0018614 0.00042627 -0.0011271 -0.00054934
0.0024823 -0.0010507 3.1548e-05 -0.0019036 -0.0018978 7.0457e-05 -0.0068873 0.28556
0.024899 0.005685 -0.0025047 0.00024648
-0.0022786 -0.0029902 -0.0037373 -0.00087966 -0.0018657 0.00041985 0.024902 0.0056458
-0.064861 0.21707 0.019483 0.008035
-0.0039155 -1.2947e-05 -0.0035133 -0.00061749 -0.001133 -0.0005348 -0.0025242 0.00027869
0.01943 0.0080153 -0.084251 0.30187
1160000000 0.080864 0.29883 0.024505 -0.020384 0.0028083 -0.00041044 -0.00011642 -0.0024492
-0.0040232 -0.00098521 -0.0011181 0.004099
0.02452 -0.020399 -0.090639 0.37452 -0.0031447 -0.029477 -0.0016138 -0.0017225
-0.0027595 0.002522 -0.0016279 0.0018718
0.002806 -0.00041327 -0.0032955 -0.029502 0.24296 0.24409 -0.00084561 0.0018112
-0.00061378 0.0019155 -0.00090085 0.000273
-0.00017254 -0.0024698 -0.0016074 -0.0017178 -0.00085132 0.0018088 0.032404 0.28263
0.021591 -0.010347 -0.0032713 0.0050439
-0.0039789 -0.00091551 -0.0027769 0.0025276 -0.00062451 0.0019179 0.021583 -0.010357
-0.030265 0.22422 0.018282 -0.00076021
-0.0010996 0.0041087 -0.0015824 0.0018637 -0.00090941 0.0002573 -0.0032442 0.0050455
0.018293 -0.00080751 -0.03693 0.30473
1220000000 0.12484 0.28879 0.011178 -0.030077 -0.0015424 -0.0010059 -5.5334e-05 -0.00093425
-0.0027369 0.0021583 0.001014 0.0019625
0.011168 -0.030053 -0.046644 0.38754 -0.016772 -0.021921 -0.0026785 0.00044775
-7.6084e-05 0.0031 -0.0008698 0.0019407
-0.001539 -0.00099568 -0.016894 -0.021882 0.28218 0.20579 0.00072818 0.0018038
0.00052271 0.0012982 0.00029912 0.00052711
-6.5563e-05 -0.00094528 -0.0026835 0.00046452 0.00073167 0.0017947 0.072511 0.27407
0.011117 -0.017092 0.0021301 0.0013477
-0.0027462 0.0021776 -6.9909e-05 0.0030922 0.00052611 0.0012953 0.011093 -0.01712
-0.0066371 0.23248 0.013596 -0.01315
0.0010429 0.0019049 -0.00087374 0.0019583 0.0003247 0.0005597 0.0021432 0.0013673
0.013593 -0.013139 -0.0052914 0.31905
1280000000 0.17504 0.26822 -0.0075568 -0.028815 -0.0020328 0.0024556 -0.00085591 -0.0020379
-0.00082186 0.0031921 0.002526 0.0013445
-0.0075282 -0.028782 -0.00076083 0.37944 -0.024082 -0.0090374 -0.0010114 0.0014975
0.0016408 0.0017857 0.00054637 0.0020244
-0.0020072 0.0024621 -0.024161 -0.008937 0.31314 0.16244 0.0015616 8.0266e-05
0.0012188 0.00031957 0.00034578 0.0002556
-0.00086413 -0.0020426 -0.0010069 0.0014939 0.0015588 8.507e-05 0.10949 0.25812
0.0013628 -0.019546 6.3594e-05 0.00024408
-0.0007798 0.0031985 0.0016431 0.0017782 0.0012083 0.00031048 0.0013295 -0.019543
0.030154 0.23513 0.0028461 -0.01532
0.0025666 0.0013676 0.00055926 0.0020128 0.00033075 0.00024556 6.9493e-05 0.00024469
0.0028363 -0.015354 0.041541 0.32087
1340000000 0.21244 0.23528 -0.017449 -0.019308 0.00073843 0.0047604 -0.0017843 -0.00079036
0.0013473 0.0026459 0.0018956 -0.001335
-0.017419 -0.0193 0.0388 0.37191 -0.02204 0.0040241 -0.00012826 0.0020932
0.0020393 0.00080594 0.0011694 0.00080951
0.00076129 0.0047675 -0.022053 0.0041383 0.33552 0.11523 0.0011331 -0.00092099
0.00065438 -0.0006181 5.2605e-05 0.00017721
-0.0018037 -0.00080416 -0.00012309 0.002098 0.0011277 -0.0009193 0.14269 0.23717
-0.008289 -0.017064 0.00080499 0.00050299
0.0013624 0.0026645 0.0020426 0.00079974 0.00067223 -0.00061432 -0.008316 -0.017056
0.060113 0.22986 -0.0040223 -0.013835
0.0019083 -0.0013257 0.0011602 0.00076878 3.7018e-05 0.00015289 0.00077418 0.00049877
-0.0040053 -0.013834 0.079359 0.31506
1400000000 0.24612 0.19802 -0.023452 -0.0078309 0.0053697 0.0033605 -0.0021876 0.00057883
0.0024604 0.00099921 0.00033042 -0.0016315
-0.023422 -0.0078421 0.076357 0.35962 -0.015373 0.012476 0.0013718 0.0013438
0.0012952 -0.00078588 0.0012121 9.3708e-05
0.0053752 0.0033387 -0.015325 0.012572 0.34906 0.062117 8.6494e-05 -0.0016253
6.7448e-05 -0.00044288 0.00030705 0.00021558
-0.0021832 0.00056871 0.001385 0.0013422 8.2995e-05 -0.0016248 0.17232 0.20813
-0.014432 -0.010245 -0.00072436 -0.00041051
0.002456 0.00096527 0.0012985 -0.0008087 7.5134e-05 -0.00044498 -0.014461 -0.0102
0.093197 0.22502 -0.010137 -0.0086036
0.00032441 -0.0015948 0.0011992 9.8517e-05 0.00029923 0.00021031 -0.00071394 -0.00040028
-0.010128 -0.0086328 0.12371 0.30364
1460000000 0.26966 0.15454 -0.020543 0.004531 0.0059067 -0.0017682 -0.0015826 0.0017
0.0021258 -0.00052795 -0.00036141 -0.0010218
-0.02053 0.0045189 0.11108 0.33819 -0.0064185 0.015753 0.0017338 0.00016529
0.00087909 -0.0013665 0.0012668 -0.00056693
0.0058992 -0.0017835 -0.0063429 0.015801 0.35576 0.0081201 -0.0011896 -0.00136
0.00019779 -0.00018352 0.000702 -0.00017943
-0.0015703 0.0017106 0.0017374 0.00016382 -0.0011889 -0.0013602 0.19908 0.17874
-0.015926 -0.0037139 -0.00093871 0.0020176
0.0021152 -0.00053307 0.00087345 -0.0013806 0.00019925 -0.00017448 -0.015957 -0.0036879
0.12254 0.21023 -0.012132 -0.002769
-0.00036749 -0.0010477 0.0012624 -0.00060982 0.0006884 -0.00018981 -0.00091108 0.0020186
-0.012097 -0.0027753 0.15684 0.28307
1520000000 0.28236 0.11308 -0.014979 0.010139 0.0034693 -0.0043736 9.0597e-05 0.0025786
0.0021047 -0.0019725 -0.0012062 -0.00011607
-0.014977 0.010131 0.14501 0.32384 0.0015606 0.013497 0.0016898 -0.00079971
7.4855e-05 -0.0011559 0.00036679 -0.0010712
0.0034438 -0.004382 0.0016269 0.013515 0.34941 -0.047954 -0.0011292 -0.00040107
0.00064366 -0.0008727 6.6383e-05 -0.00024557
9.9073e-05 0.0025799 0.0016874 -0.00081573 -0.001126 -0.00040451 0.22215 0.14011
-0.015498 0.0024028 0.0014772 0.0020636
0.0020936 -0.0019852 7.2435e-05 -0.0011599 0.00064429 -0.0008783 -0.015507 0.0024414
0.1504 0.19678 -0.011752 0.00173
-0.0012076 -7.2596e-05 0.00035047 -0.0010742 6.5679e-05 -0.00025863 0.0014661 0.002061
-0.011738 0.0017101 0.18967 0.2622
1580000000 0.29259 0.067122 -0.0082372 0.013442 -0.00094261 -0.0050786 0.0014509 0.0019607
-0.00015727 -0.0021907 -0.00027599 0.00037682
-0.0082324 0.013424 0.17274 0.29934 0.0054491 0.0085171 0.00051782 -0.0016078
-0.00057266 -0.0010969 -0.00016776 -0.00086994
-0.00095669 -0.0050626 0.005496 0.0084867 0.32983 -0.10549 -0.0017403 0.00053519
-0.00034274 -0.0012031 0.00027685 -0.00047098
0.0014621 0.0019592 0.00050067 -0.001616 -0.0017388 0.00053183 0.23592 0.10052
-0.012207 0.0075128 0.0021113 0.00081988
-0.0001775 -0.002193 -0.00058249 -0.0010881 -0.00034054 -0.0012024 -0.012188 0.0075448
0.17456 0.1788 -0.0093424 0.0072269
-0.00023702 0.00036338 -0.00016586 -0.00086952 0.00028904 -0.00046852 0.0021297 0.00082991
-0.0093498 0.0072436 0.22082 0.23531
1640000000 0.29529 0.025822 -0.0014885 0.012364 -0.0029042 -0.0026456 0.0027286 0.0011311
-0.00076816 -0.00154 -0.00034042 0.00069634
-0.0015026 0.012358 0.20278 0.27441 0.0061842 0.003535 -0.00062517 -0.0018039
-0.0010822 -0.00043649 -0.00062398 -0.00065187
-0.0029214 -0.0026373 0.0061988 0.003498 0.30174 -0.15512 -0.00069474 0.0015219
-0.0010813 -0.00095365 -0.00029665 -0.00032788
0.0027348 0.0011148 -0.00063774 -0.0017933 -0.00069133 0.0015336 0.24825 0.051471
-0.0078471 0.0093228 0.0024806 -0.00068183
-0.00078289 -0.0015472 -0.0010899 -0.0004283 -0.0010765 -0.00096143 -0.0078363 0.0093459
0.19775 0.15492 -0.0046134 0.0093075
-0.00033199 0.00072166 -0.00064882 -0.00064807 -0.00028581 -0.00033491 0.0024681 -0.00071686
-0.0046073 0.0092869 0.24653 0.20381
1700000000 0.2885 -0.019523 0.0020089 0.0095738 -0.0036006 -6.9462e-06 0.00316 -0.0012656
-0.0020097 -0.00065574 0.00058994 0.00057491
0.0020024 0.0095643 0.22111 0.24293 0.0041224 0.00042283 -0.001482 -0.00064305
-0.0008566 7.5583e-05 -0.00088883 -0.00041716
-0.0035917 1.4529e-05 0.0041205 0.00039432 0.25849 -0.19505 0.00043599 0.0017007
-0.0020002 -4.6463e-05 -0.00035944 -0.00087194
0.0031655 -0.0012725 -0.001483 -0.00063201 0.00044138 0.0017 0.24461 0.0014268
-0.0047129 0.0099673 0.0015414 -0.0022148
-0.0020002 -0.00064216 -0.00085563 8.0486e-05 -0.0020044 -4.6487e-05 -0.0046941 0.0099768
0.21519 0.13449 -0.00016794 0.0095343
0.00060212 0.00056092 -0.00089174 -0.00039402 -0.00037256 -0.00086726 0.0015347 -0.0021993
-0.00017607 0.0095428 0.26232 0.16963
1760000000 0.27687 -0.068378 0.0043768 0.0062971 -0.002322 0.00095961 0.0013313 -0.0034152
-0.0014629 0.00064171 0.00031254 -0.00041568
0.0043761 0.0062877 0.24748 0.20305 0.0017678 -0.0015028 -0.0012678 0.00018146
-0.001121 0.00093241 -0.00067399 0.00039524
-0.00232 0.00097509 0.0017696 -0.0015214 0.21045 -0.22823 0.0011828 0.0010302
-0.0012418 0.0014309 -0.0012586 -0.00063444
0.0013111 -0.0034353 -0.001278 0.00018927 0.0011897 0.0010275 0.23537 -0.05
-0.0010716 0.0092654 -0.00010467 -0.002565
-0.0014586 0.00066859 -0.0011071 0.0009527 -0.0012219 0.0014551 -0.0010562 0.0092756
0.23041 0.09995 0.0037318 0.007051
0.00033144 -0.000398 -0.00066139 0.0004069 -0.0012571 -0.00061546 -0.00010177 -0.0025586
0.0037342 0.007045 0.27476 0.132
1820000000 0.25236 -0.10614 0.004549 0.0026677 -0.00035841 0.0025054 -0.00094803 -0.0031081
-0.0011229 0.001075 0.00012883 -0.00011276
0.0045343 0.0026556 0.25763 0.17272 -0.00062786 -0.00036233 -0.0013137 0.0010071
-2.3288e-05 0.0013539 -0.00054315 0.00055768
-0.00036202 0.0024782 -0.00063404 -0.00036032 0.15945 -0.24413 0.001657 0.00045078
-0.00018715 0.0024382 -0.0014062 0.00038266
-0.00096779 -0.0031027 -0.0013115 0.0010183 0.0016488 0.00045717 0.20504 -0.097142
0.00062692 0.0077851 -0.0017334 -0.0014925
-0.0011262 0.00106 -2.4558e-05 0.0013547 -0.00019324 0.0024348 0.0006593 0.0077878
0.24757 0.071031 0.0046579 0.0037886
9.7942e-05 -0.00012811 -0.0005538 0.00057458 -0.0014266 0.00040224 -0.0017351 -0.0015099
0.0046716 0.0037823 0.27685 0.095545
1880000000 0.21716 -0.14669 0.0024323 0.00025532 -0.00051496 0.0021789 -0.0029016 -0.0022432
-0.00016263 0.0018616 9.6341e-07 -0.00067882
0.0024266 0.00027034 0.26219 0.12619 -0.0025736 0.0016236 -0.00023116 0.0017893
0.0006409 0.0013438 5.8679e-05 0.00089394
-0.00048237 0.0021791 -0.0025762 0.0016395 0.1076 -0.25311 0.0016781 -0.00095022
0.0014934 0.0019451 -0.0011669 0.0012747
-0.0029263 -0.0022201 -0.00021806 0.001796 0.0016795 -0.00094864 0.16419 -0.13716
0.0016514 0.0054621 -0.0022672 0.00025929
-0.00014868 0.0018496 0.00063809 0.0013442 0.0014968 0.0019437 0.0016613 0.0054706
0.25157 0.039416 0.0048505 0.0015138
5.9904e-06 -0.00068284 7.0807e-05 0.00089935 -0.0011586 0.001269 -0.0022775 0.00025293
0.0048483 0.0014976 0.27652 0.062132
1940000000 0.17758 -0.17235 -0.00011502 -0.0013661 0.0013315 0.0021143 -0.0036911 0.00041403
0.0014609 0.001185 -0.00053381 -0.00050838
-0.00012028 -0.0013854 0.2628 0.094184 -0.0014438 0.0040976 0.0011265 0.001298
0.0019942 0.00048095 0.0010111 0.00041577
0.0013449 0.0021056 -0.0014134 0.0041025 0.062076 -0.246 0.00047146 -0.0022565
0.0024802 0.00030656 0.00049074 0.0016175
-0.0036984 0.00044122 0.0011283 0.0012997 0.0004656 -0.0022639 0.11185 -0.16746
0.0010007 0.0040502 -0.0015537 0.0015649
0.0014776 0.0011819 0.0020086 0.00046 0.0024778 0.00029136 0.00099007 0.0040576
0.25459 0.00082951 0.0036543 -0.001836
-0.0005565 -0.00052755 0.0010262 0.0003882 0.00048308 0.0016242 -0.0015482 0.0015644
0.003647 -0.0018502 0.2658 0.025736
2000000000 0.13131 -0.18709 -0.0038175 0.00061824 0.0026284 0.0014596 -0.0022964 0.0038203
0.0012505 0.00041302 -0.00067927 0.000592
-0.0037807 0.00061793 0.24852 0.058657 -0.00086092 0.0058559 0.0017178 0.00041363
0.0013882 -0.0011833 0.00049637 9.9437e-05
0.0026435 0.0014694 -0.00083411 0.0058699 0.019107 -0.23237 -0.0011624 -0.0013877
0.0019745 -0.0012521 0.0015656 0.0015463
-0.002275 0.003796 0.0017201 0.00039875 -0.0011689 -0.0013969 0.058506 -0.17705
-0.00033638 0.0038612 -4.2804e-05 0.0023319
0.0012711 0.00038598 0.0013779 -0.0011876 0.0019783 -0.0012486 -0.00030607 0.0038501
0.24956 -0.032296 0.00070843 -0.0027126
