!Keysight Technologies,M9804A,MY58100912,A.14.10.03
!Date: Thursday, April 27, 2023 10:28:33
!Correction: S11(C  6-Port  ) 
!S12(C  6-Port  ) 
!S13(C  6-Port  ) 
!S14(C  6-Port  ) 
!S15(C  6-Port  ) 
!S16(C  6-Port  ) 
!S21(C  6-Port  ) 
!S22(C  6-Port  ) 
!S23(C  6-Port  ) 
!S24(C  6-Port  ) 
!S25(C  6-Port  ) 
!S26(C  6-Port  ) 
!S31(C  6-Port  ) 
!S32(C  6-Port  ) 
!S33(C  6-Port  ) 
!S34(C  6-Port  ) 
!S35(C  6-Port  ) 
!S36(C  6-Port  ) 
!S41(C  6-Port  ) 
!S42(C  6-Port  ) 
!S43(C  6-Port  ) 
!S44(C  6-Port  ) 
!S45(C  6-Port  ) 
!S46(C  6-Port  ) 
!S51(C  6-Port  ) 
!S52(C  6-Port  ) 
!S53(C  6-Port  ) 
!S54(C  6-Port  ) 
!S55(C  6-Port  ) 
!S56(C  6-Port  ) 
!S61(C  6-Port  ) 
!S62(C  6-Port  ) 
!S63(C  6-Port  ) 
!S64(C  6-Port  ) 
!S65(C  6-Port  ) 
!S66(C  6-Port  ) 
!S6P File: Measurement: :
# Hz S  RI   R 50
500000000 -0.33802 -0.04174 -0.0097814 -0.0030777 -0.0075225 0.012369 -0.0045813 0.012129
0.013019 0.0037763 -0.0042875 0.0081904
-0.0095954 -0.0031026 -0.41822 -0.051874 0.0082974 -0.010137 0.0008327 0.012626
0.0072737 0.0024709 0.00072455 0.013349
-0.0075069 0.012457 0.0082908 -0.010277 -0.26511 0.20876 0.0068394 0.0037717
-0.0018392 0.0084573 0.00057355 0.011997
-0.0043284 0.012176 0.0010973 0.012787 0.0068654 0.0037589 -0.33123 0.039705
-0.019913 -0.0050392 0.017517 0.026218
0.013033 0.0036557 0.0071329 0.0025697 -0.0017854 0.0084998 -0.019917 -0.0051162
-0.21712 -0.20643 -0.027483 0.0063832
-0.004323 0.0083106 0.00070021 0.01362 0.00058912 0.012019 0.017313 0.02658
-0.027089 0.0063231 -0.26035 -0.14781
560000000 -0.31588 0.12081 -0.023977 -0.062829 -0.00072785 0.01141 0.0049397 0.010742
0.0098086 0.0040341 0.011917 0.0073916
-0.023849 -0.062617 -0.37839 0.10599 -0.03944 -0.037288 0.013346 0.0033091
-0.012803 -0.0035446 0.0035208 0.00053504
-0.00079069 0.011414 -0.039713 -0.037285 -0.18494 0.25755 0.00046209 -0.0044604
0.018846 0.0054966 0.0067651 -0.0066122
0.0051563 0.011178 0.013199 0.0030902 0.00040548 -0.0044228 -0.30737 0.13022
0.005219 -0.024549 0.0048398 -0.020905
0.009825 0.0039451 -0.012556 -0.003894 0.018946 0.0056018 0.0052296 -0.024623
-0.28749 -0.030158 0.0093006 -0.051134
0.011956 0.0081197 0.0035142 -4.5084e-05 0.006731 -0.0066593 0.0048351 -0.021472
0.0088287 -0.050972 -0.32896 0.0052889
620000000 -0.27562 0.10521 -0.022945 0.0074817 0.0028258 0.00878 0.0082826 -0.0048608
0.010371 -0.00027116 0.0021788 -0.0029005
-0.022931 0.0075155 -0.40254 0.05856 -0.018386 -3.2669e-05 -0.0014742 -0.0018774
0.01168 -0.006029 0.00075687 -0.0029498
0.0026272 0.0087007 -0.018489 6.1673e-05 -0.15406 0.26574 -0.0014928 -0.0052862
-0.0026036 -0.0026799 0.0086568 -0.0032127
0.0081642 -0.0050607 -0.0015393 -0.0019194 -0.0013902 -0.0053465 -0.26599 0.14131
-0.03908 -0.01931 0.011976 0.027177
0.010536 3.0978e-05 0.011668 -0.0061171 -0.0027361 -0.002582 -0.039141 -0.019204
-0.2058 -0.067545 -0.040961 0.013821
0.0020917 -0.0028653 0.0008434 -0.0027471 0.0087731 -0.002958 0.012127 0.02697
-0.041113 0.013985 -0.24736 -0.036415
680000000 -0.2356 0.19154 -0.027185 -0.01441 0.0050473 0.0048567 0.0021982 -0.0078055
-0.0030208 -0.011087 0.006104 -0.0076679
-0.027135 -0.014373 -0.38792 0.15699 -0.032631 -0.0013733 -0.0017228 -0.00044309
-0.0018386 -0.0088229 -0.00088443 -0.0020411
0.0050191 0.0049239 -0.03265 -0.0012624 -0.10259 0.28599 -0.00082136 -0.00010594
-0.0015439 0.00067592 -0.0030734 -0.009715
0.0019773 -0.0078954 -0.001691 -0.00037011 -0.00071658 -7.0739e-05 -0.22171 0.19329
-0.023842 -0.0074678 -0.010243 -0.012485
-0.0030372 -0.011214 -0.0018194 -0.0087675 -0.0015364 0.00074579 -0.023972 -0.0074969
-0.2598 0.033448 -0.0058183 -0.0085077
0.0062202 -0.0076442 -0.0010432 -0.0021488 -0.002906 -0.0097177 -0.010168 -0.012265
-0.005554 -0.0084045 -0.26158 0.074405
740000000 -0.19135 0.18607 -0.038674 0.026754 0.012575 -0.0049449 9.2107e-05 -0.0043713
-0.0045669 -0.0017578 -0.0061679 0.002537
-0.038582 0.026769 -0.33544 0.17616 -0.035566 0.034653 -0.00095552 -0.0061124
-0.011063 0.0076846 -0.0025415 -0.0059468
0.012564 -0.0050213 -0.035398 0.034915 -0.068271 0.28402 -0.00209 0.0030102
-0.0026438 -0.004526 -0.0011546 -0.00044054
-2.6474e-06 -0.0043587 -0.00093714 -0.0060969 -0.0020642 0.0030246 -0.20499 0.20083
-0.044352 -0.0074614 0.023712 0.015633
-0.0044092 -0.0018738 -0.011147 0.0078242 -0.0025384 -0.0045575 -0.044358 -0.0074195
-0.15938 0.06186 -0.044438 -0.0017519
-0.0062463 0.0027936 -0.0023999 -0.0063224 -0.0011802 -0.00017893 0.0236 0.01545
-0.04448 -0.0015195 -0.253 0.081431
800000000 -0.15879 0.22692 -0.022677 0.016982 0.0051065 -0.010375 -0.0046685 -0.0025484
-0.0042037 0.002495 0.0047641 0.0003766
-0.022671 0.016883 -0.3385 0.24614 -0.0079443 0.033925 -0.0021945 0.0021224
-0.00081333 0.0030142 0.00068814 0.0054685
0.0050605 -0.010453 -0.0078526 0.03396 -0.028196 0.30746 0.0010508 0.0013011
0.00014752 0.0032781 -0.0016731 0.00071359
-0.0047424 -0.0025126 -0.0022391 0.0020935 0.0010178 0.0012853 -0.17637 0.22943
-0.028832 0.013315 0.014308 -0.010471
-0.004129 0.0026415 -0.00079559 0.0030118 0.00011887 0.0032861 -0.028757 0.013408
-0.2083 0.084199 -0.018101 0.018318
0.004651 0.00037656 0.00067729 0.0053318 -0.0016498 0.00066574 0.014477 -0.010444
-0.018074 0.018453 -0.24804 0.13147
860000000 -0.12353 0.24698 -0.017579 0.030438 -0.0033415 -0.009879 -0.0018959 0.00093139
0.0045644 0.0047372 -0.0038871 -0.0028983
-0.017455 0.030449 -0.29051 0.28819 0.0076991 0.033861 -0.00021943 0.0020966
0.0041181 0.00019191 0.003445 0.00045328
-0.003301 -0.009853 0.0077848 0.033866 0.019956 0.3152 -0.00062334 -0.00021605
0.0028831 -0.0014118 0.0013953 0.004282
-0.0018887 0.00093278 -0.00017129 0.0020927 -0.00063636 -0.0002081 -0.14 0.24017
-0.017583 0.019126 -0.0065064 -0.0090175
0.0044339 0.0046279 0.0041817 -1.5638e-05 0.0028605 -0.0014016 -0.017624 0.019232
-0.15593 0.13676 -0.027552 0.016402
-0.0039909 -0.0028506 0.0034117 0.00043496 0.0013916 0.0041921 -0.0065291 -0.0089659
-0.027206 0.016544 -0.19698 0.17682
920000000 -0.098984 0.27026 0.0051092 0.037829 -0.009247 -0.0043712 -0.0018079 0.0019092
0.0007089 0.0019706 0.0025726 -0.0015056
0.0050995 0.03782 -0.26187 0.3095 0.027834 0.021953 0.0015015 0.0011911
0.0072816 -9.7121e-05 0.0038851 -0.0026826
-0.009281 -0.0043028 0.027954 0.021893 0.066062 0.31572 0.0018078 9.4518e-06
0.0012091 -7.3533e-05 0.00094727 -0.001142
-0.0018275 0.0018963 0.0014913 0.001225 0.0018288 -6.6291e-06 -0.11599 0.25738
-0.011253 0.03119 0.0043317 -0.0065896
0.00081183 0.0020034 0.007257 -8.002e-05 0.0012456 -7.6486e-05 -0.011186 0.031192
-0.1474 0.14304 -0.0027103 0.027935
0.0026619 -0.0015302 0.0039714 -0.0027849 0.00098516 -0.0010994 0.004244 -0.0065594
-0.0027463 0.028034 -0.20921 0.19212
980000000 -0.051604 0.28961 0.017356 0.029985 -0.008874 0.004624 0.0021422 0.0035102
0.0035027 -0.0013809 -0.0033317 -0.0020485
0.0173 0.029936 -0.20889 0.34325 0.032698 0.0049464 0.002279 -5.9023e-06
0.0015118 -0.0058604 -0.00065567 -0.0021996
-0.0088904 0.0046425 0.032764 0.004872 0.11223 0.30918 0.00060178 -0.0011753
0.00029797 -0.0020591 0.001508 -6.0787e-05
0.0021786 0.0034614 0.0022716 -5.7339e-05 0.0005928 -0.0011699 -0.07758 0.26884
0.0075901 0.030503 -0.0095612 -0.0074917
0.0034999 -0.0013535 0.0014355 -0.0059264 0.00028583 -0.0020616 0.0076816 0.030517
-0.11588 0.17242 0.0039887 0.019773
-0.0034515 -0.001848 -0.00071215 -0.0021031 0.0015156 -8.7086e-05 -0.0094256 -0.0075393
0.0042025 0.019797 -0.16673 0.24135
1040000000 -0.0097692 0.29816 0.033018 0.018195 -0.0012707 0.0068735 0.002587 0.0007352
0.00012836 -0.0037703 -0.0003662 -0.0012432
0.032973 0.018199 -0.17338 0.35614 0.029184 -0.01464 0.0014076 -0.0016706
-0.002493 -0.0025774 -0.0014675 -0.0027745
-0.0012131 0.0068943 0.029169 -0.014747 0.15797 0.29546 -0.00045724 -0.0015284
-0.0014906 -0.0010426 -0.00056444 -0.0010511
0.0025482 0.00067688 0.0014255 -0.0016532 -0.00045884 -0.0015305 -0.050328 0.27882
0.019415 0.018628 -0.0021011 0.0015536
4.4092e-05 -0.0038147 -0.0024775 -0.0026046 -0.0014722 -0.0010226 0.019453 0.018612
-0.083621 0.18117 0.013262 0.019262
-0.00029257 -0.0013213 -0.0015537 -0.002757 -0.0005858 -0.0010608 -0.0020845 0.0015574
0.013343 0.019268 -0.14734 0.26137
1100000000 0.035773 0.30605 0.035574 -0.0039825 0.0028919 0.0038819 0.0023243 -0.0013102
-0.0019637 -0.0031917 -0.0038665 6.8758e-05
0.035531 -0.0039838 -0.13003 0.37335 0.015127 -0.027485 -2.154e-05 -0.0017637
-0.0032461 -0.0009179 -0.0034089 -0.00035863
0.0029082 0.00386 0.015034 -0.027541 0.20406 0.27541 -0.0018475 0.00015697
-0.0017321 0.00039951 -0.00092661 -0.00035548
0.002327 -0.0013059 1.6296e-06 -0.0017756 -0.0018501 0.00015932 -0.010077 0.28391
0.024927 0.0057488 -0.0025584 -0.00020245
-0.0019747 -0.0031799 -0.0032182 -0.00092803 -0.0016992 0.00040648 0.024926 0.0057283
-0.065744 0.19418 0.019341 0.0094969
-0.0039229 8.2809e-05 -0.0033069 -0.00036221 -0.00093891 -0.00037615 -0.0026163 -0.0002004
0.019329 0.0094509 -0.10144 0.29334
1160000000 0.087367 0.30083 0.023882 -0.020369 0.002772 -0.00056401 -0.00036495 -0.0023856
-0.0042776 -0.00078545 -0.00076737 0.00406
0.023843 -0.02035 -0.086485 0.37716 -0.0035278 -0.028935 -0.0016597 -0.0017104
-0.0029873 0.0023856 -0.0012997 0.0017255
0.0027589 -0.00056732 -0.0036489 -0.02894 0.24709 0.24487 -0.0007559 0.0016198
-0.00067117 0.0018811 -0.0010837 0.00016711
-0.00034515 -0.0023797 -0.0016647 -0.0016854 -0.00079022 0.0016229 0.029239 0.28119
0.021644 -0.010145 -0.0031324 0.0051962
-0.0042539 -0.00078215 -0.0029623 0.0024134 -0.00065828 0.0019122 0.021648 -0.010167
-0.031626 0.20324 0.018186 0.0014803
-0.00083483 0.0040738 -0.0014312 0.0017806 -0.0010799 0.00016607 -0.0030288 0.0052727
0.018125 0.0016234 -0.053842 0.29739
1220000000 0.13154 0.2896 0.010599 -0.029687 -0.0015449 -0.00084629 -2.0959e-05 -0.00079702
-0.0026693 0.002408 0.0011694 0.0020784
0.010596 -0.029647 -0.042242 0.38924 -0.016537 -0.021094 -0.0025123 0.0004414
-5.5618e-05 0.0028559 -0.00084025 0.0017672
-0.0015416 -0.00084681 -0.016619 -0.021029 0.28631 0.20618 0.00075557 0.0016882
0.00054504 0.0011956 0.00031434 0.00069439
-3.3695e-05 -0.00079874 -0.0024958 0.0004628 0.00078225 0.001674 0.069047 0.27293
0.011206 -0.016971 0.0023133 0.0015166
-0.0026692 0.0024054 -3.5462e-05 0.0028708 0.00053469 0.0012161 0.011174 -0.016977
-0.0096654 0.21243 0.015081 -0.012177
0.0012345 0.0020361 -0.00088173 0.0018116 0.00034345 0.00068037 0.0022853 0.0015148
0.01512 -0.012179 -0.024063 0.31618
1280000000 0.1811 0.26747 -0.007555 -0.028196 -0.0018462 0.0023794 -0.00082184 -0.0019329
-0.00077892 0.0030325 0.0023338 0.0012525
-0.0075412 -0.02818 0.0033351 0.38051 -0.023333 -0.0086351 -0.0009956 0.0013969
0.0015503 0.0018145 0.00051823 0.0020506
-0.0018174 0.0023627 -0.023402 -0.008542 0.31704 0.16235 0.0015458 0.00010583
0.0011243 0.0003825 0.00040183 0.00037086
-0.00083308 -0.0019328 -0.00099456 0.0014189 0.0015447 9.3101e-05 0.10576 0.25667
0.0018986 -0.019427 -0.00010174 -0.0001147
-0.00078358 0.0030524 0.0015323 0.0018123 0.0011189 0.00039906 0.0018965 -0.019469
0.026631 0.21624 0.003796 -0.014638
0.0023169 0.0012613 0.00054716 0.0020272 0.00032442 0.00034313 -9.1205e-05 -0.00012155
0.0037892 -0.014618 0.025142 0.31967
1340000000 0.21803 0.23371 -0.017132 -0.018927 0.00087501 0.0044238 -0.0016705 -0.00086499
0.0013364 0.002692 0.0018303 -0.0013061
-0.017103 -0.018919 0.042614 0.37244 -0.021464 0.0039278 -0.00022617 0.0019756
0.0018434 0.00092284 0.0012218 0.0008094
0.00090501 0.0044038 -0.021464 0.0040319 0.33965 0.11453 0.0011156 -0.00088564
0.00072723 -0.00038377 0.00017833 0.00021271
-0.0016667 -0.00084645 -0.00020824 0.0019877 0.0011065 -0.00087467 0.13833 0.23658
-0.0076683 -0.016961 0.00075681 0.00028013
0.0013469 0.002696 0.0018275 0.00090755 0.00072255 -0.00040459 -0.0077145 -0.016943
0.055856 0.21181 -0.002595 -0.013695
0.0018049 -0.0012892 0.0012143 0.00079827 0.00017592 0.00023189 0.00081223 0.00022999
-0.0025651 -0.013642 0.06288 0.31734
1400000000 0.25072 0.19568 -0.022979 -0.0077562 0.0050593 0.0030372 -0.0019706 0.0005684
0.0024057 0.00083349 0.00033512 -0.001365
-0.022939 -0.0077655 0.079891 0.35963 -0.014911 0.012051 0.0012385 0.0013819
0.0012272 -0.00071842 0.001206 0.00020125
0.0050759 0.0030452 -0.014858 0.012144 0.35299 0.060693 0.00015844 -0.0016585
8.1672e-05 -0.00041344 0.00033621 0.00021019
-0.0019739 0.00055046 0.0012476 0.0013873 0.00016744 -0.0016592 0.16779 0.20804
-0.013874 -0.010654 -0.00093978 -0.00058222
0.0024166 0.00081476 0.0012364 -0.00071718 8.1663e-05 -0.00042379 -0.013907 -0.010614
0.088087 0.20796 -0.0092685 -0.0092973
0.00031933 -0.0013615 0.0011748 0.00017687 0.00034163 0.00016894 -0.00095693 -0.0005979
-0.0093095 -0.0093056 0.10932 0.30757
1460000000 0.27346 0.15186 -0.020271 0.004226 0.0054774 -0.0017691 -0.0016723 0.0016537
0.0020729 -0.00042246 -0.00031224 -0.0011505
-0.020247 0.0042053 0.11425 0.33813 -0.0063955 0.01505 0.0017402 0.0002482
0.00097734 -0.0012758 0.0011744 -0.00069993
0.0054689 -0.0017833 -0.0063362 0.015091 0.35883 0.0058633 -0.001199 -0.0013001
0.00021252 -0.00035722 0.00046668 -0.00041732
-0.0016673 0.0016511 0.0017649 0.00024085 -0.0011689 -0.0013082 0.19415 0.17917
-0.015645 -0.0043222 -0.0011639 0.0021434
0.0020323 -0.00043671 0.00095376 -0.0012864 0.00022945 -0.0003539 -0.015656 -0.0042944
0.11667 0.19359 -0.011582 -0.0036256
-0.00031723 -0.0011028 0.0011975 -0.00070376 0.0004699 -0.00041795 -0.0011124 0.0021194
-0.011601 -0.0035751 0.14374 0.28799
1520000000 0.28556 0.1103 -0.014888 0.0098211 0.0032219 -0.0040205 -4.238e-05 0.0025893
0.002108 -0.0015276 -0.0011097 -0.00018154
-0.014889 0.009795 0.14804 0.32336 0.001223 0.013114 0.0016811 -0.00081007
0.00012615 -0.0011323 0.00029311 -0.00098654
0.0031826 -0.0040632 0.0012882 0.013092 0.35196 -0.050563 -0.0011645 -0.00040804
0.00065902 -0.00075841 -9.642e-05 -0.0001939
-7.7481e-06 0.0026071 0.0016756 -0.00080536 -0.0011836 -0.00041208 0.21741 0.14187
-0.01577 0.0016029 0.0013305 0.0021268
0.0021531 -0.0015295 0.00011629 -0.0011405 0.00065948 -0.00075673 -0.015775 0.0016432
0.14362 0.18059 -0.011806 0.00058694
-0.0011573 -0.00018832 0.00028649 -0.00098435 -8.5162e-05 -0.00021616 0.0013358 0.0021294
-0.011842 0.00060975 0.17805 0.26904
1580000000 0.295 0.064317 -0.0085139 0.013113 -0.00092261 -0.0048348 0.0013839 0.0019643
-0.00017756 -0.0021678 -0.00041691 0.00058367
-0.0085138 0.013099 0.17555 0.29859 0.0049379 0.0083981 0.00053077 -0.0015895
-0.00061352 -0.0011451 -0.00020541 -0.0007998
-0.00094072 -0.0048282 0.0049718 0.0083878 0.33143 -0.1079 -0.0017577 0.0006875
-0.00028 -0.0011667 0.0001605 -0.00043002
0.0013892 0.0019321 0.00052918 -0.0016117 -0.0017505 0.00070221 0.23153 0.10298
-0.012683 0.0071433 0.0022287 0.00096329
-0.0001866 -0.0021711 -0.0006136 -0.0011329 -0.00026296 -0.0011502 -0.012696 0.0071907
0.16747 0.16363 -0.0095398 0.0067932
-0.00036507 0.00061339 -0.00018672 -0.00078999 0.00019096 -0.00043944 0.0022618 0.00095672
-0.0095092 0.0067707 0.21182 0.24204
1640000000 0.29721 0.022921 -0.0018224 0.012367 -0.0026506 -0.0024756 0.0027724 0.0011185
-0.0005091 -0.0015145 -0.00027273 0.00060569
-0.0018267 0.012357 0.20538 0.27338 0.0058713 0.0037497 -0.00067306 -0.0017491
-0.0011371 -0.00042058 -0.00049452 -0.00069274
-0.0026615 -0.0024387 0.0058948 0.0037156 0.30317 -0.15747 -0.00060504 0.0015402
-0.00098681 -0.0010513 -0.00015807 -0.00044076
0.0027674 0.001101 -0.0006885 -0.0017464 -0.00059623 0.0015246 0.24438 0.054715
-0.0086006 0.0091165 0.0025866 -0.00056913
-0.00052344 -0.0015079 -0.0011525 -0.00041291 -0.00099394 -0.0010554 -0.008586 0.0091584
0.18972 0.14018 -0.0053706 0.0089947
-0.00029092 0.00059921 -0.00050187 -0.00070132 -0.00020039 -0.00045094 0.0026112 -0.00056635
-0.0053291 0.009009 0.23803 0.21178
1700000000 0.28994 -0.022616 0.0017084 0.0097386 -0.0033191 4.2092e-05 0.0031078 -0.0011999
-0.0019604 -0.00093053 0.00073505 0.00049859
0.0016979 0.0097313 0.22353 0.24152 0.0039442 0.00091185 -0.0014612 -0.00061592
-0.00080226 0.00011003 -0.00092613 -0.00044312
-0.0033063 6.1342e-05 0.0039681 0.00087659 0.25887 -0.19715 0.00061876 0.0017251
-0.001982 -0.00028635 -0.0003802 -0.00079438
0.0031146 -0.0012067 -0.001465 -0.00060282 0.00062576 0.0017171 0.24192 0.005388
-0.0055594 0.010415 0.0016617 -0.0021107
-0.0019669 -0.0009134 -0.00080349 0.00011214 -0.0019725 -0.00026887 -0.0055409 0.010414
0.20673 0.12096 -0.00054202 0.0096772
0.00078703 0.000524 -0.00092562 -0.00041426 -0.00040839 -0.00083001 0.0016579 -0.0021101
-0.00061259 0.0096591 0.25545 0.17725
1760000000 0.27771 -0.071429 0.0042655 0.0066318 -0.0022597 0.00094183 0.001317 -0.0033944
-0.0014522 0.00061186 0.000451 -0.00059675
0.004257 0.0066242 0.24943 0.20137 0.0017471 -0.0010068 -0.0012065 0.00019099
-0.00095741 0.001047 -0.0005331 0.00036559
-0.0022783 0.00093256 0.0017525 -0.0010103 0.21026 -0.23001 0.0012811 0.00090524
-0.0012719 0.0014271 -0.0014271 -0.00058305
0.001317 -0.0034427 -0.0011867 0.00017374 0.0012662 0.00089368 0.23353 -0.045894
-0.0014412 0.009998 -0.00015859 -0.002462
-0.0014582 0.00060934 -0.00093803 0.0010531 -0.0012919 0.0014335 -0.0014002 0.010019
0.22162 0.087207 0.003482 0.0072862
0.00043695 -0.00062573 -0.00053558 0.00038535 -0.0013269 -0.00054367 -0.00016384 -0.0024701
0.0034787 0.0072908 0.26852 0.13949
1820000000 0.25265 -0.10887 0.0046215 0.0029479 -8.3856e-05 0.0023063 -0.0010534 -0.0030985
-0.0013126 0.00090617 -0.00010641 -0.00014368
0.0046177 0.0029382 0.25916 0.17087 -0.00010563 -9.9982e-05 -0.0013212 0.00094831
9.0591e-05 0.0012952 -0.0005624 0.00048519
-6.387e-05 0.0023013 -0.00010749 -8.7443e-05 0.16041 -0.24562 0.0014932 0.00033337
-0.0001784 0.0023592 -0.0011857 0.00038372
-0.0010896 -0.0030728 -0.0013275 0.00094373 0.0014884 0.00032574 0.20431 -0.093397
0.00076751 0.0082893 -0.0016839 -0.0015201
-0.0013445 0.00090494 0.00010197 0.0012841 -0.0002138 0.0023577 0.00079856 0.0083055
0.23912 0.059048 0.0045382 0.003962
-0.00010499 -0.00013697 -0.00055604 0.00049846 -0.0012017 0.00038089 -0.0016354 -0.0015139
0.0045356 0.0039621 0.27165 0.10406
1880000000 0.21724 -0.14927 0.0026667 0.00048212 -0.00038318 0.001993 -0.0029497 -0.0022585
-0.00023363 0.0018708 0.00017217 -0.00062406
0.0026676 0.00048324 0.26323 0.12423 -0.0021797 0.0016522 -0.00021345 0.0017013
0.00059539 0.0011287 7.7389e-05 0.00089713
-0.00035593 0.0020399 -0.0021848 0.0016642 0.10788 -0.25479 0.0016125 -0.00081507
0.0013736 0.0020668 -0.00086691 0.0014034
-0.0029382 -0.0022203 -0.0002043 0.0017163 0.0016464 -0.00081317 0.16434 -0.13387
0.002121 0.0060858 -0.0022552 0.00028217
-0.00021767 0.0018754 0.00059974 0.0011013 0.0014095 0.0020538 0.0021312 0.0060855
0.24254 0.02752 0.0050739 0.0018556
0.00020177 -0.00062732 9.0687e-05 0.00093539 -0.00091637 0.0013752 -0.0022468 0.00030841
0.0050878 0.0018379 0.27196 0.069357
1940000000 0.17753 -0.17462 0.000448 -0.0012984 0.0013238 0.0019868 -0.0037523 0.00056288
0.0013697 0.0012696 -0.00083072 -0.00052868
0.0004431 -0.0012934 0.2634 0.092389 -0.0011077 0.0038324 0.00091037 0.001376
0.0016758 0.00036428 0.00074928 0.00024391
0.0013147 0.0019469 -0.0011075 0.0038027 0.061954 -0.24793 0.00028415 -0.0021139
0.002417 0.00047612 1.3016e-05 0.0016425
-0.0037746 0.00051296 0.00092381 0.0013638 0.0002804 -0.0021123 0.11213 -0.16503
0.0014822 0.0041274 -0.00142 0.0014778
0.0014157 0.0012383 0.001685 0.00035988 0.002423 0.0004653 0.0014914 0.0041241
0.2454 -0.011073 0.0040662 -0.0017274
-0.00083197 -0.0004984 0.00076033 0.00023756 5.5496e-05 0.0016923 -0.0013991 0.0014782
0.0040775 -0.0017085 0.26195 0.034243
2000000000 0.13071 -0.18915 -0.0035704 0.0005385 0.0022823 0.0016478 -0.0024872 0.0034232
0.0012072 2.7054e-05 -0.00053109 0.00040029
-0.0035834 0.00053281 0.24869 0.056944 -0.0010086 0.0056033 0.0015383 0.00031029
0.0011512 -0.001466 0.00054056 0.00024771
0.0023202 0.0016245 -0.00094348 0.0056407 0.018519 -0.23325 -0.0012742 -0.0012979
0.0019993 -0.0012719 0.0016977 0.0014602
-0.0024516 0.0035519 0.0015406 0.00031965 -0.0012403 -0.0012936 0.058406 -0.17525
-0.00016025 0.003377 -1.6223e-05 0.0022887
0.0011175 3.8838e-05 0.0011288 -0.0014757 0.0019758 -0.001275 -0.00016858 0.003384
0.24011 -0.045028 0.00078166 -0.002615
