!Keysight Technologies,M9804A,MY58100912,A.14.10.03
!Date: Thursday, April 27, 2023 10:28:33
!Correction: S11(C  6-Port  ) 
!S12(C  6-Port  ) 
!S13(C  6-Port  ) 
!S14(C  6-Port  ) 
!S15(C  6-Port  ) 
!S16(C  6-Port  ) 
!S21(C  6-Port  ) 
!S22(C  6-Port  ) 
!S23(C  6-Port  ) 
!S24(C  6-Port  ) 
!S25(C  6-Port  ) 
!S26(C  6-Port  ) 
!S31(C  6-Port  ) 
!S32(C  6-Port  ) 
!S33(C  6-Port  ) 
!S34(C  6-Port  ) 
!S35(C  6-Port  ) 
!S36(C  6-Port  ) 
!S41(C  6-Port  ) 
!S42(C  6-Port  ) 
!S43(C  6-Port  ) 
!S44(C  6-Port  ) 
!S45(C  6-Port  ) 
!S46(C  6-Port  ) 
!S51(C  6-Port  ) 
!S52(C  6-Port  ) 
!S53(C  6-Port  ) 
!S54(C  6-Port  ) 
!S55(C  6-Port  ) 
!S56(C  6-Port  ) 
!S61(C  6-Port  ) 
!S62(C  6-Port  ) 
!S63(C  6-Port  ) 
!S64(C  6-Port  ) 
!S65(C  6-Port  ) 
!S66(C  6-Port  ) 
!S6P File: Measurement: :
# Hz S  RI   R 50
500000000 -0.33727 -0.040041 -0.010023 -0.0028171 -0.0083426 0.012095 -0.0042974 0.011549
0.012532 0.0042125 -0.004704 0.0081844
-0.0098476 -0.0025218 -0.41897 -0.053505 0.0084888 -0.010922 0.0010636 0.012583
0.0071101 0.002602 -1.6944e-05 0.013435
-0.0082284 0.012239 0.0085376 -0.010965 -0.26453 0.20796 0.0067357 0.0037085
-0.0022866 0.0082915 -5.7091e-06 0.011526
-0.0044033 0.011925 0.00092916 0.012718 0.0067305 0.0037231 -0.33081 0.038583
-0.019474 -0.0034735 0.017287 0.026199
0.012416 0.0039981 0.0070725 0.0023305 -0.0022244 0.0082036 -0.019675 -0.0034679
-0.21692 -0.20705 -0.027342 0.0087618
-0.0048704 0.0083031 -0.0001028 0.013392 2.5149e-05 0.011472 0.01743 0.026067
-0.027291 0.0087253 -0.26193 -0.1479
560000000 -0.3171 0.11979 -0.023586 -0.063542 -0.00036655 0.011841 0.0056573 0.011849
0.0096429 0.0046925 0.010311 0.0066394
-0.023654 -0.063335 -0.3775 0.10745 -0.040747 -0.037525 0.014594 0.0032897
-0.012475 -0.0036376 0.0044476 -0.00068909
-9.9552e-05 0.011931 -0.040721 -0.037492 -0.18318 0.25672 -0.0005531 -0.0040611
0.018939 0.0043731 0.0069087 -0.0050838
0.0054174 0.011921 0.014408 0.0029985 -0.00050032 -0.0039872 -0.30636 0.13104
0.0043136 -0.023737 0.0055599 -0.020894
0.0099206 0.0046379 -0.012471 -0.0036781 0.018845 0.0046764 0.0042772 -0.023693
-0.29271 -0.029768 0.01072 -0.05318
0.01025 0.0069336 0.0044334 -0.0004739 0.0067906 -0.0052452 0.0054979 -0.020814
0.010623 -0.053424 -0.32998 0.0070404
620000000 -0.2759 0.10435 -0.023203 0.0074244 0.0032 0.008514 0.0082237 -0.0044346
0.010448 -0.0011615 0.002406 -0.0016147
-0.023178 0.0074276 -0.40261 0.058658 -0.018737 -9.3305e-05 -0.001322 -0.0027956
0.01132 -0.004729 0.0015403 -0.0034592
0.0031972 0.008567 -0.018727 -6.6141e-05 -0.1538 0.26601 -0.0013641 -0.0051794
-0.0035974 -0.0028298 0.0084645 -0.004047
0.0082988 -0.0044462 -0.0013414 -0.0028033 -0.0013597 -0.0052085 -0.26723 0.14195
-0.038091 -0.020365 0.010979 0.027592
0.010555 -0.0013353 0.011073 -0.0048678 -0.003487 -0.0027673 -0.038108 -0.020354
-0.20685 -0.066259 -0.039545 0.014714
0.002481 -0.0016511 0.0014893 -0.0035282 0.0084842 -0.0040828 0.0112 0.027376
-0.039568 0.01448 -0.24778 -0.038174
680000000 -0.23498 0.19104 -0.027144 -0.014304 0.0044569 0.0050219 0.0014801 -0.0079721
-0.0034321 -0.011996 0.0059557 -0.0074506
-0.027146 -0.014221 -0.38801 0.15685 -0.032708 -0.0014338 -0.0015025 -0.00059425
-0.0022404 -0.0090027 -0.00065544 -0.0017494
0.0044987 0.0050815 -0.032714 -0.0013341 -0.10265 0.28571 -0.00074426 -0.00048972
-0.0012951 0.000424 -0.0027645 -0.0092592
0.0014754 -0.0079115 -0.0014723 -0.0005715 -0.00077424 -0.00051535 -0.22165 0.1926
-0.023651 -0.0077958 -0.0095603 -0.011425
-0.0035434 -0.011861 -0.0022032 -0.0090893 -0.0013303 0.00050367 -0.023682 -0.0077106
-0.25987 0.0343 -0.0058305 -0.0082853
0.0060235 -0.0073681 -0.00053958 -0.0017481 -0.0028229 -0.0092574 -0.0095003 -0.011344
-0.0057431 -0.0081554 -0.26281 0.075572
740000000 -0.19141 0.18555 -0.038781 0.02665 0.012539 -0.0054981 -0.0002228 -0.0043167
-0.0032417 -0.0018508 -0.0062647 0.0028053
-0.038856 0.026617 -0.3356 0.17558 -0.035202 0.035165 -0.0009695 -0.0061918
-0.011589 0.0066268 -0.0027048 -0.0060994
0.01252 -0.0054815 -0.035102 0.035238 -0.069016 0.28422 -0.0017123 0.0028356
-0.0021241 -0.0047587 -0.0012516 -0.00060097
-0.00022247 -0.0043157 -0.00098326 -0.0063899 -0.0016969 0.0028466 -0.20461 0.2007
-0.043835 -0.0073522 0.023678 0.015787
-0.0036151 -0.0019585 -0.011633 0.0067873 -0.0020358 -0.0047827 -0.043885 -0.0073545
-0.16078 0.059793 -0.043389 -0.0012835
-0.0062735 0.0028621 -0.0025512 -0.0062655 -0.0012472 -0.00056118 0.023807 0.015887
-0.043457 -0.0015058 -0.25366 0.079644
800000000 -0.15882 0.22634 -0.022393 0.016722 0.0052141 -0.010711 -0.004463 -0.0021223
-0.003806 0.002388 0.0048803 0.00028078
-0.022263 0.01664 -0.33846 0.24631 -0.007719 0.03389 -0.0022322 0.0021475
-0.00083773 0.0031078 0.0014821 0.0058411
0.0051996 -0.010735 -0.0076394 0.033972 -0.028139 0.30731 0.00099809 0.0015123
0.00023226 0.0036848 -0.0018843 0.00058291
-0.0044731 -0.002067 -0.0022414 0.0022685 0.00098707 0.0014948 -0.17626 0.22946
-0.0289 0.013842 0.014366 -0.010164
-0.0036903 0.0023128 -0.00090215 0.0030522 0.00023059 0.0036496 -0.028969 0.013851
-0.20849 0.083503 -0.017602 0.020503
0.0046812 0.00031557 0.0012873 0.0061354 -0.0018758 0.00056182 0.014264 -0.010197
-0.017518 0.020513 -0.2479 0.13013
860000000 -0.12385 0.24696 -0.017399 0.030582 -0.0031964 -0.0098271 -0.0023074 0.00085714
0.0036992 0.0043724 -0.003125 -0.0030241
-0.017424 0.03065 -0.29063 0.28802 0.0078327 0.033965 -3.1704e-05 0.0019705
0.004209 -0.00015611 0.0031966 0.00069665
-0.0032456 -0.0097823 0.007961 0.03396 0.019922 0.31523 -0.0005189 -0.00017336
0.0027929 -0.001856 0.001267 0.0043503
-0.0023855 0.00087407 -2.5193e-05 0.0019109 -0.00053157 -0.00019872 -0.13982 0.24059
-0.017711 0.018584 -0.0063734 -0.0081721
0.004019 0.0046963 0.004116 -0.00021683 0.0028233 -0.0018273 -0.017502 0.018753
-0.15573 0.13675 -0.028005 0.014918
-0.003165 -0.0029848 0.0032535 0.00062947 0.0012396 0.0043793 -0.0064306 -0.0081206
-0.028026 0.014778 -0.19819 0.17847
920000000 -0.09931 0.27021 0.0051318 0.037762 -0.0092771 -0.0043455 -0.0019161 0.0018355
0.0011229 0.0018384 0.0029127 -0.0015493
0.0050681 0.037688 -0.26174 0.30939 0.027875 0.021939 0.0015812 0.0010607
0.0074892 -0.00024184 0.0041116 -0.003126
-0.0093324 -0.0043389 0.028011 0.021902 0.066046 0.31578 0.0017987 -3.4029e-05
0.0013571 -0.00016666 0.0011483 -0.0012421
-0.0019656 0.0017881 0.0015801 0.0011113 0.0018123 -1.4464e-05 -0.11636 0.25725
-0.01067 0.031287 0.0037462 -0.0069664
0.0010562 0.0020182 0.0074877 -0.00034392 0.0013655 -0.00018533 -0.010667 0.031283
-0.14668 0.14299 -0.0018747 0.0281
0.002896 -0.0016363 0.0042237 -0.0029445 0.0011758 -0.0012385 0.003806 -0.0069772
-0.0019281 0.028092 -0.20865 0.19188
980000000 -0.051947 0.28956 0.017287 0.029905 -0.0089731 0.0045666 0.0020415 0.0033786
0.0038972 -0.0011771 -0.0034114 -0.0020552
0.017273 0.029907 -0.20894 0.34332 0.03284 0.0049573 0.0020884 -1.6611e-05
0.0015362 -0.005637 -0.00071623 -0.002084
-0.0089452 0.0045789 0.032853 0.0048422 0.1122 0.30919 0.00055369 -0.0011501
0.00030241 -0.001989 0.0014732 -0.00011543
0.0020901 0.0034054 0.0021011 -5.9161e-05 0.0005476 -0.001151 -0.077698 0.26865
0.0076863 0.030588 -0.0092836 -0.0078856
0.0038305 -0.0012225 0.001542 -0.005641 0.00029001 -0.0020014 0.0077025 0.03056
-0.11615 0.17232 0.0043472 0.020268
-0.0034303 -0.0020239 -0.00079223 -0.0021372 0.0014698 -0.00015712 -0.0093706 -0.0079061
0.0044308 0.020294 -0.16572 0.2409
1040000000 -0.0096236 0.29816 0.033003 0.018432 -0.0012133 0.0068951 0.0025418 0.00069229
-0.00012835 -0.0036485 -0.00028354 -0.001506
0.03299 0.018416 -0.17352 0.35609 0.029189 -0.01462 0.0015545 -0.0015927
-0.0024016 -0.0025639 -0.0015325 -0.0027114
-0.0011852 0.0069014 0.029125 -0.01473 0.158 0.29543 -0.00042749 -0.0015159
-0.0015088 -0.00095734 -0.00057787 -0.0010575
0.0025755 0.00065201 0.0015482 -0.0016358 -0.00042962 -0.0015119 -0.050333 0.27886
0.019307 0.018501 -0.0019247 0.0014383
-0.00015449 -0.0036904 -0.0024898 -0.002559 -0.0014734 -0.00092436 0.0194 0.018482
-0.083567 0.18029 0.012805 0.019173
-0.00013521 -0.001588 -0.0015552 -0.002707 -0.00056965 -0.001047 -0.0018945 0.0014316
0.012757 0.019175 -0.14723 0.26144
1100000000 0.035784 0.30604 0.035584 -0.0039921 0.002908 0.003863 0.0023516 -0.0013487
-0.0018745 -0.0033493 -0.0039096 -4.3146e-05
0.03559 -0.0039586 -0.13006 0.37324 0.015129 -0.027499 1.2101e-05 -0.0017933
-0.0032547 -0.0011025 -0.0032689 -0.00056591
0.0029326 0.0038585 0.015042 -0.027597 0.20407 0.27538 -0.0018601 0.00012913
-0.001669 0.00039596 -0.0010878 -0.00055274
0.002342 -0.0013595 -1.2474e-05 -0.0017656 -0.0018603 0.00013063 -0.010044 0.28399
0.025067 0.005651 -0.0026259 2.2986e-05
-0.0018835 -0.0033304 -0.0032734 -0.0011268 -0.0017136 0.00039444 0.025024 0.0056005
-0.065826 0.19399 0.019221 0.0096118
-0.0039034 -1.7842e-05 -0.0033261 -0.00055325 -0.0010918 -0.00057696 -0.0026153 2.8726e-05
0.019217 0.0096484 -0.10164 0.29367
1160000000 0.087275 0.30083 0.023932 -0.020392 0.0027428 -0.00053235 -0.00028775 -0.0023585
-0.0041128 -0.00095886 -0.00081118 0.0041939
0.023922 -0.020362 -0.086473 0.37721 -0.0034988 -0.028888 -0.0016262 -0.0016002
-0.0027697 0.0023996 -0.0013795 0.0017683
0.0027551 -0.00051972 -0.0036411 -0.028906 0.24703 0.24487 -0.00071252 0.0017135
-0.00074846 0.0018231 -0.00086806 0.00025181
-0.00030717 -0.0023228 -0.0016626 -0.001632 -0.00072086 0.0017072 0.029153 0.281
0.021878 -0.010413 -0.0030136 0.0053244
-0.0040808 -0.00085181 -0.0027866 0.0023946 -0.00074239 0.0018311 0.021824 -0.010418
-0.031938 0.20324 0.018605 0.0013128
-0.00090664 0.0041259 -0.0014167 0.0018271 -0.00085761 0.00025635 -0.0030003 0.0053368
0.018614 0.0013485 -0.054097 0.29776
1220000000 0.13157 0.28947 0.010624 -0.029645 -0.0015082 -0.00087859 -2.047e-05 -0.00081736
-0.0026551 0.0023976 0.0012972 0.0019202
0.010654 -0.029621 -0.042258 0.3893 -0.016479 -0.021081 -0.0024324 0.00044829
-2.6018e-05 0.0029629 -0.00087497 0.0019284
-0.0015186 -0.00086669 -0.016602 -0.021035 0.28629 0.20618 0.00073223 0.00163
0.00052943 0.0012645 0.00031429 0.00066464
-2.6748e-05 -0.00082433 -0.0024252 0.00046055 0.00073264 0.0016354 0.068925 0.27296
0.011134 -0.017049 0.0021711 0.0013756
-0.0026842 0.0023663 -6.8481e-06 0.0029318 0.00053103 0.001257 0.011105 -0.017112
-0.0098738 0.21244 0.014864 -0.012267
0.0013822 0.0018792 -0.00084438 0.0019877 0.00031501 0.00065724 0.0022345 0.0014045
0.014809 -0.012307 -0.023884 0.31571
1280000000 0.18107 0.26752 -0.007507 -0.028236 -0.001776 0.0023836 -0.00084843 -0.001891
-0.00070929 0.0030251 0.0022621 0.001216
-0.0074982 -0.028202 0.0033525 0.38048 -0.023368 -0.0086372 -0.0010025 0.0013929
0.001512 0.0018126 0.00049914 0.0020407
-0.0017624 0.0023658 -0.023437 -0.0085302 0.31707 0.16247 0.0015261 6.0007e-05
0.001105 0.00038265 0.00044146 0.0003258
-0.00085102 -0.0018823 -0.001002 0.0014169 0.0015299 6.5133e-05 0.10573 0.25666
0.0018174 -0.019376 -0.00015026 -8.1692e-05
-0.0007282 0.0030265 0.0015082 0.0018102 0.0011011 0.00037591 0.0017873 -0.019395
0.026623 0.21609 0.0037424 -0.014747
0.0022395 0.0012319 0.00050999 0.0020559 0.00046254 0.00034605 -0.0001337 -7.1712e-05
0.0037367 -0.014713 0.025174 0.31987
1340000000 0.218 0.23369 -0.017142 -0.019006 0.00075874 0.0043765 -0.0016764 -0.00080147
0.0013538 0.0027058 0.0016564 -0.001323
-0.01712 -0.019024 0.042672 0.37243 -0.021425 0.0039277 -0.00017623 0.0019831
0.0018718 0.00096869 0.001289 0.0007567
0.00078638 0.0043637 -0.021444 0.0040428 0.33954 0.11448 0.0012125 -0.00086556
0.00066066 -0.00038194 0.00024939 0.00032564
-0.001669 -0.00077476 -0.00016645 0.0019829 0.0011999 -0.00087244 0.1383 0.23652
-0.007835 -0.017058 0.00083128 0.00026606
0.0014227 0.0027237 0.0018858 0.0009491 0.00064592 -0.00037979 -0.0078642 -0.01702
0.055925 0.21165 -0.0027739 -0.013727
0.0016085 -0.0013142 0.0012765 0.0007475 0.00023698 0.00029028 0.0008467 0.00030968
-0.0027863 -0.013744 0.062787 0.31726
1400000000 0.25074 0.19565 -0.022987 -0.0077725 0.0050505 0.0030594 -0.0020447 0.00053403
0.0023836 0.00088753 0.00038788 -0.0014097
-0.022958 -0.0077697 0.079877 0.35966 -0.014929 0.012032 0.0012791 0.0013712
0.001312 -0.00071811 0.0011813 0.00019167
0.0050762 0.0030462 -0.014886 0.012123 0.35293 0.06072 0.00016765 -0.0016764
6.1454e-05 -0.0003928 0.00024632 0.00013321
-0.0020657 0.00054296 0.0013041 0.0013557 0.00016304 -0.0016719 0.16777 0.20814
-0.014007 -0.010614 -0.0008789 -0.00064824
0.0023954 0.00088026 0.001327 -0.00070516 5.9725e-05 -0.00040603 -0.014044 -0.010601
0.087709 0.20807 -0.0092703 -0.0093256
0.00037968 -0.001459 0.0011964 0.00014621 0.00026358 0.0001805 -0.00091656 -0.00060611
-0.0092073 -0.0093662 0.10976 0.30761
1460000000 0.27341 0.15194 -0.02032 0.0042204 0.0054781 -0.0017572 -0.0016496 0.0016428
0.0020148 -0.00039984 -0.00031051 -0.0010303
-0.020302 0.0042003 0.11428 0.33811 -0.0063976 0.015064 0.0017242 0.00021163
0.0010013 -0.0012703 0.0012278 -0.00063189
0.005451 -0.0017783 -0.0063355 0.015115 0.35894 0.0058537 -0.0012433 -0.0013361
0.00018669 -0.00037734 0.00060116 -0.0003487
-0.0016497 0.0016494 0.0017375 0.00020387 -0.0012351 -0.0013365 0.19415 0.17925
-0.015773 -0.0042133 -0.0010916 0.0021318
0.0019728 -0.00044037 0.00096589 -0.0013047 0.00017591 -0.00036254 -0.015775 -0.0041602
0.11617 0.19367 -0.011401 -0.0036058
-0.00029717 -0.0010511 0.001237 -0.00062784 0.00061506 -0.0003665 -0.0010444 0.002088
-0.011436 -0.0036186 0.14328 0.28763
1520000000 0.28552 0.11026 -0.014941 0.00983 0.0031971 -0.0040119 5.0201e-05 0.0026104
0.0021413 -0.0014974 -0.0010869 -0.00017984
-0.014938 0.0098139 0.14802 0.32336 0.0012217 0.013087 0.0017072 -0.00079005
7.9443e-05 -0.0010923 0.00039478 -0.0010462
0.003187 -0.0040237 0.0012888 0.013095 0.35205 -0.050579 -0.0012271 -0.00037384
0.00052645 -0.00077346 0.00012307 -0.00016176
6.0261e-05 0.0026029 0.0017062 -0.00079162 -0.0012202 -0.00038561 0.21737 0.1418
-0.015702 0.001747 0.0013215 0.0021892
0.0021657 -0.0015554 8.7798e-05 -0.0010898 0.00052796 -0.00080579 -0.015723 0.0017802
0.14344 0.18073 -0.01178 0.00066208
-0.0011137 -0.00012506 0.00038135 -0.0010481 0.00012533 -0.00013232 0.0013303 0.0021544
-0.011804 0.00070188 0.17797 0.26893
1580000000 0.29486 0.064421 -0.008521 0.013147 -0.0009511 -0.0047945 0.0013811 0.0019442
-0.00010461 -0.0021241 -0.00036369 0.00045687
-0.0085136 0.013138 0.17551 0.29858 0.0049126 0.0083857 0.00053008 -0.0016024
-0.00059486 -0.0011344 -0.00024634 -0.00076403
-0.00098661 -0.0047789 0.0049575 0.0083767 0.33139 -0.10796 -0.0017699 0.00063259
-0.00020469 -0.0012416 3.1903e-05 -0.00055928
0.0014055 0.0019281 0.00052152 -0.001614 -0.0017664 0.00065295 0.23153 0.10307
-0.012655 0.0072007 0.0022874 0.0010597
-0.00013879 -0.0021404 -0.00061051 -0.0011469 -0.00020112 -0.0012336 -0.012633 0.0072389
0.16722 0.16385 -0.0095793 0.0068356
-0.0003216 0.00048449 -0.00023948 -0.00077185 1.1187e-05 -0.00053153 0.002286 0.0010822
-0.0094868 0.0068147 0.21188 0.24242
1640000000 0.29722 0.023 -0.0017984 0.012407 -0.0025769 -0.0024393 0.002812 0.00108
-0.0004898 -0.0015782 -0.0002346 0.0006565
-0.0018179 0.012402 0.20536 0.27341 0.005835 0.0037704 -0.0006405 -0.0017734
-0.0010897 -0.00041247 -0.00049092 -0.00072649
-0.0025947 -0.0024139 0.0058658 0.0037366 0.30309 -0.15741 -0.00061694 0.0015485
-0.00095862 -0.001037 -7.296e-05 -0.00041257
0.002814 0.0010904 -0.0006516 -0.0017757 -0.00062409 0.001554 0.24438 0.054744
-0.0084217 0.0091798 0.0025537 -0.00057149
-0.00053945 -0.001565 -0.001097 -0.00042141 -0.00095849 -0.0010345 -0.0084242 0.0091663
0.18967 0.14059 -0.0052459 0.0089958
-0.00026085 0.00067985 -0.00051121 -0.00071485 -6.657e-05 -0.00046752 0.0025794 -0.00064814
-0.0053121 0.0090225 0.23765 0.21193
1700000000 0.28993 -0.022571 0.0017316 0.0097826 -0.0033084 8.0765e-05 0.0031117 -0.0012149
-0.0019417 -0.00083665 0.00079831 0.00042832
0.0017251 0.0097703 0.2235 0.24156 0.0039117 0.00089634 -0.0014568 -0.00061031
-0.00079797 0.0001414 -0.00084369 -0.00045411
-0.00331 9.1127e-05 0.0039292 0.00087882 0.25906 -0.19695 0.00055407 0.0016909
-0.0020649 -0.00028753 -0.00040734 -0.00076126
0.0031161 -0.0012059 -0.0014579 -0.00059914 0.00055143 0.0016837 0.2419 0.005396
-0.005444 0.010329 0.0017667 -0.0021316
-0.0019527 -0.00083632 -0.00081645 0.00015391 -0.002068 -0.00030912 -0.0054097 0.010337
0.20698 0.12108 -0.00051594 0.0095868
0.00078665 0.00042103 -0.00085961 -0.00043511 -0.00042859 -0.00073917 0.0017497 -0.0021058
-0.00052989 0.0096795 0.25538 0.17751
1760000000 0.27776 -0.071359 0.0042835 0.006614 -0.0022491 0.00089872 0.0013141 -0.0034051
-0.0014693 0.00060462 0.00042467 -0.00045228
0.0042936 0.0066309 0.24944 0.20137 0.0017572 -0.00094543 -0.0012298 0.00015977
-0.00096533 0.00098868 -0.00059924 0.00045263
-0.0022095 0.00088476 0.001748 -0.00097779 0.21002 -0.22992 0.0012434 0.00095803
-0.0012654 0.0014012 -0.0012698 -0.00045307
0.0013032 -0.0034381 -0.0012278 0.00015999 0.0012687 0.00095925 0.23346 -0.045968
-0.0013714 0.0098829 -0.00017099 -0.0024984
-0.0014359 0.00059456 -0.00094586 0.00096725 -0.0012774 0.001384 -0.001358 0.0098781
0.22182 0.087382 0.0033743 0.0072739
0.00038674 -0.00050371 -0.00060627 0.0004308 -0.0012974 -0.00051168 -0.00013707 -0.0025015
0.0034549 0.0072243 0.26847 0.13972
1820000000 0.25272 -0.10879 0.0046895 0.0029931 -2.5292e-05 0.0024113 -0.0010583 -0.0031181
-0.0012891 0.00090254 -4.1414e-05 -0.00019713
0.0046664 0.0029802 0.25916 0.17099 -0.00012794 2.2315e-05 -0.0013065 0.00097679
0.00012354 0.0012925 -0.00051059 0.00050611
-2.4808e-05 0.0023927 -0.00012457 1.0316e-05 0.16018 -0.24546 0.0014619 0.00052421
-0.00031902 0.0024086 -0.0012394 0.00036417
-0.0010481 -0.0031017 -0.0013 0.00097584 0.0014714 0.00053871 0.2045 -0.093358
0.00085131 0.0082937 -0.001546 -0.001776
-0.0012819 0.00094028 0.00011533 0.0013055 -0.0003067 0.002412 0.00085985 0.0083298
0.23953 0.059323 0.0047972 0.0038951
-4.2021e-05 -0.00023477 -0.00053937 0.00053518 -0.0011717 0.0003903 -0.0015472 -0.0017639
0.0046965 0.0038467 0.27149 0.1039
1880000000 0.21731 -0.14921 0.0026988 0.00049799 -0.00039143 0.0020046 -0.003014 -0.0022674
-0.00024599 0.0018774 0.00018736 -0.00065138
0.0026885 0.00049753 0.26327 0.12428 -0.002116 0.0016106 -0.00020935 0.0016252
0.00058943 0.001106 7.3622e-05 0.00091453
-0.000421 0.0019857 -0.0021155 0.0016245 0.10806 -0.25499 0.0015952 -0.0010348
0.0014044 0.0019485 -0.0010395 0.0012213
-0.0030379 -0.0022636 -0.00020262 0.0016224 0.0015811 -0.00099615 0.16435 -0.13395
0.0019602 0.0059284 -0.0024372 0.00041549
-0.00022939 0.0018412 0.00063332 0.0010769 0.0014244 0.0019396 0.002062 0.0058655
0.24267 0.027161 0.0047841 0.0019026
0.00017262 -0.00058935 6.0845e-05 0.00090711 -0.0010141 0.0013178 -0.0024385 0.0004134
0.0048162 0.0020593 0.27192 0.069831
1940000000 0.1775 -0.1746 0.00041908 -0.001309 0.0012853 0.0020516 -0.0038056 0.00036764
0.0013711 0.0010929 -0.00084697 -0.00047734
0.00042159 -0.001301 0.26339 0.092396 -0.0010936 0.0038159 0.00093468 0.0013223
0.0016864 0.0003999 0.00073693 0.00028937
0.0012641 0.0019706 -0.0010647 0.003806 0.061982 -0.24798 0.00034401 -0.0020398
0.0023975 0.0005034 0.00011687 0.0017175
-0.0038248 0.00036934 0.00092333 0.0013085 0.00035508 -0.0020772 0.11211 -0.16514
0.0015112 0.0040353 -0.0013437 0.0015489
0.0014446 0.0010558 0.0016879 0.00033608 0.0024203 0.00050578 0.0014382 0.0040316
0.24552 -0.011282 0.0040372 -0.0015964
-0.00090799 -0.00055428 0.00075945 0.00024313 7.2536e-05 0.0016617 -0.0013681 0.0015075
0.0041287 -0.0016667 0.2617 0.034378
2000000000 0.13076 -0.18908 -0.0035587 0.00044083 0.0024297 0.0016211 -0.0023826 0.0035649
0.0012551 8.5666e-05 -0.00046112 0.00025069
-0.0035966 0.00045958 0.24878 0.056881 -0.00092143 0.0056107 0.0016109 0.00031853
0.0012702 -0.0013828 0.00065764 0.00017601
0.0024654 0.0016325 -0.00087226 0.0056504 0.018601 -0.23337 -0.0012422 -0.0012774
0.0020659 -0.0011811 0.0017366 0.0014218
-0.0023574 0.0035944 0.0016387 0.00033011 -0.0012554 -0.0012605 0.058627 -0.17558
-3.2302e-05 0.0033394 -1.8916e-05 0.0020929
0.0012207 0.00016006 0.0012587 -0.0013257 0.0020509 -0.001197 1.2163e-05 0.0033464
0.24025 -0.04521 0.001025 -0.0026654
