!Keysight Technologies,M9804A,MY58100912,A.14.10.03
!Date: Thursday, April 27, 2023 10:28:33
!Correction: S11(C  6-Port  ) 
!S12(C  6-Port  ) 
!S13(C  6-Port  ) 
!S14(C  6-Port  ) 
!S15(C  6-Port  ) 
!S16(C  6-Port  ) 
!S21(C  6-Port  ) 
!S22(C  6-Port  ) 
!S23(C  6-Port  ) 
!S24(C  6-Port  ) 
!S25(C  6-Port  ) 
!S26(C  6-Port  ) 
!S31(C  6-Port  ) 
!S32(C  6-Port  ) 
!S33(C  6-Port  ) 
!S34(C  6-Port  ) 
!S35(C  6-Port  ) 
!S36(C  6-Port  ) 
!S41(C  6-Port  ) 
!S42(C  6-Port  ) 
!S43(C  6-Port  ) 
!S44(C  6-Port  ) 
!S45(C  6-Port  ) 
!S46(C  6-Port  ) 
!S51(C  6-Port  ) 
!S52(C  6-Port  ) 
!S53(C  6-Port  ) 
!S54(C  6-Port  ) 
!S55(C  6-Port  ) 
!S56(C  6-Port  ) 
!S61(C  6-Port  ) 
!S62(C  6-Port  ) 
!S63(C  6-Port  ) 
!S64(C  6-Port  ) 
!S65(C  6-Port  ) 
!S66(C  6-Port  ) 
!S6P File: Measurement: :
# Hz S  RI   R 50
500000000 -0.3381 -0.041294 -0.0099964 -0.0034541 -0.0079266 0.012358 -0.0043132 0.011665
0.012853 0.0040634 -0.0045747 0.0078396
-0.0099657 -0.0034745 -0.41781 -0.052279 0.0083021 -0.010432 0.0012282 0.01261
0.0073744 0.0025946 0.00089104 0.013409
-0.0079112 0.012132 0.0086231 -0.010458 -0.26505 0.20847 0.0068763 0.0038694
-0.0018995 0.008623 0.0003973 0.012024
-0.0042108 0.011479 0.0016011 0.012596 0.0067624 0.0039228 -0.3316 0.039525
-0.019348 -0.0047824 0.017282 0.026271
0.012827 0.00461 0.0071672 0.0025834 -0.001817 0.008522 -0.019428 -0.0048317
-0.21746 -0.2066 -0.026599 0.0063392
-0.0044224 0.0078153 0.0010752 0.013402 0.00014872 0.012051 0.017192 0.026153
-0.026445 0.0066077 -0.26009 -0.14779
560000000 -0.3161 0.12052 -0.02337 -0.062382 -0.0011339 0.011567 0.0054723 0.011386
0.0098465 0.0040288 0.011432 0.0081654
-0.023563 -0.062362 -0.3784 0.10624 -0.03952 -0.037632 0.013058 0.0030613
-0.012488 -0.0040017 0.0037639 -0.0004043
-0.0010375 0.011489 -0.039744 -0.037315 -0.18481 0.2574 0.00052212 -0.0046125
0.018479 0.0057723 0.0068169 -0.0064542
0.005403 0.01136 0.013211 0.002984 0.0003909 -0.0046927 -0.3077 0.12968
0.0047083 -0.024483 0.0054802 -0.021695
0.0094368 0.0040205 -0.012672 -0.0034767 0.018364 0.0055566 0.0047005 -0.02454
-0.28756 -0.028754 0.0080103 -0.051351
0.011926 0.0075819 0.0037632 -0.00059759 0.0073821 -0.0064487 0.0054701 -0.021554
0.0080224 -0.051828 -0.32878 0.0051604
620000000 -0.27567 0.10495 -0.023038 0.0075896 0.0027845 0.0087057 0.0079616 -0.0052168
0.010944 0.00015775 0.0021531 -0.0028012
-0.02301 0.0075737 -0.40253 0.058537 -0.018692 -7.4462e-05 -0.0015807 -0.0020231
0.01172 -0.0059711 0.00086843 -0.0027424
0.0028056 0.0086758 -0.018678 -8.9555e-05 -0.1542 0.26592 -0.0014669 -0.0052771
-0.0033917 -0.0026489 0.0086902 -0.0034112
0.0080948 -0.0051949 -0.001565 -0.0020933 -0.001433 -0.0051775 -0.26596 0.14122
-0.038742 -0.019433 0.013027 0.027773
0.010554 0.00013667 0.01162 -0.0058938 -0.0034443 -0.0028016 -0.038928 -0.019426
-0.20677 -0.067378 -0.042948 0.01317
0.0021128 -0.0028163 0.00071314 -0.0028999 0.0086042 -0.0033283 0.012691 0.027786
-0.042406 0.013241 -0.24883 -0.03512
680000000 -0.23532 0.19141 -0.027365 -0.014356 0.0049129 0.0049351 0.0020121 -0.0079096
-0.0032087 -0.011323 0.0060717 -0.0077476
-0.027185 -0.014274 -0.388 0.1569 -0.032639 -0.0014667 -0.0016949 -0.00046257
-0.0017863 -0.0089257 -0.0010833 -0.0021379
0.004893 0.0049689 -0.032682 -0.001352 -0.10252 0.28595 -0.00065569 -6.8523e-05
-0.0013681 0.00054277 -0.0032225 -0.0096051
0.0021495 -0.0080034 -0.0016519 -0.00049528 -0.00063481 -0.00013075 -0.22152 0.19321
-0.023751 -0.0075002 -0.01012 -0.011982
-0.0031328 -0.011339 -0.0018775 -0.0088382 -0.0013352 0.0005676 -0.023744 -0.0075025
-0.25914 0.03323 -0.0050413 -0.0082398
0.0065734 -0.0071814 -0.0010174 -0.0020602 -0.003277 -0.0097547 -0.010207 -0.012061
-0.0051142 -0.0083229 -0.26096 0.073857
740000000 -0.19145 0.18583 -0.038545 0.026747 0.01252 -0.004771 -5.8708e-05 -0.0042584
-0.0042814 -0.0016295 -0.0062321 0.0025548
-0.038593 0.026846 -0.3355 0.17633 -0.03569 0.034713 -0.00097222 -0.006117
-0.011384 0.0073116 -0.0022013 -0.0060393
0.012486 -0.004821 -0.035522 0.034918 -0.068371 0.28386 -0.0019622 0.0029969
-0.0025564 -0.0046095 -0.0010778 -0.00047014
-5.3809e-05 -0.0041957 -0.0007972 -0.0061711 -0.0019801 0.0029944 -0.20502 0.20094
-0.044497 -0.0073693 0.023229 0.015271
-0.0041642 -0.0018082 -0.011388 0.0072104 -0.002443 -0.0044645 -0.044536 -0.0072978
-0.15975 0.062186 -0.044542 -0.0019225
-0.0065247 0.0029924 -0.0019766 -0.0059969 -0.0012478 -0.00057225 0.023345 0.015297
-0.044994 -0.0023185 -0.25181 0.080816
800000000 -0.15859 0.22685 -0.022546 0.016932 0.0053027 -0.010451 -0.0048383 -0.0024182
-0.0039886 0.0027026 0.0049585 0.00048542
-0.02256 0.016915 -0.33849 0.24611 -0.0079167 0.033946 -0.0023217 0.0020024
-0.00099136 0.0030235 0.00058853 0.005538
0.0052189 -0.010403 -0.0078337 0.034002 -0.028124 0.30753 0.00097309 0.0013241
8.8e-05 0.0034377 -0.0017355 0.00077774
-0.0047997 -0.0024128 -0.0022733 0.0020075 0.00096003 0.0013326 -0.17622 0.22929
-0.028965 0.013264 0.014318 -0.010261
-0.0040337 0.0027218 -0.00088574 0.0030331 9.0339e-05 0.0035069 -0.029006 0.013305
-0.2089 0.084054 -0.018486 0.018473
0.0049439 0.00049478 0.00070075 0.0054172 -0.001671 0.00071362 0.014416 -0.010277
-0.018276 0.018409 -0.24815 0.13135
860000000 -0.12386 0.24723 -0.017732 0.030458 -0.0033979 -0.0098825 -0.0020717 0.00083093
0.0041302 0.0049291 -0.0039184 -0.0027957
-0.017712 0.030392 -0.29027 0.28808 0.0077119 0.033974 3.6102e-05 0.0022148
0.0039501 -9.8223e-05 0.0033321 0.00044853
-0.0034358 -0.0099393 0.0078309 0.033974 0.019856 0.31524 -0.00068222 -0.0001884
0.0027267 -0.0015553 0.0013862 0.0042775
-0.0020542 0.00064651 5.6945e-05 0.0022571 -0.00072343 -0.0001827 -0.14011 0.24035
-0.017774 0.018764 -0.0065353 -0.0091841
0.0040169 0.004657 0.0041135 -0.0001024 0.0027436 -0.001597 -0.01767 0.018787
-0.15607 0.13675 -0.026831 0.016652
-0.0039038 -0.0027601 0.0031114 0.00062038 0.0012753 0.0042884 -0.0065114 -0.0092183
-0.027083 0.016589 -0.19706 0.1768
920000000 -0.099015 0.27014 0.0051074 0.037783 -0.0092601 -0.0043944 -0.0018394 0.0018906
0.000811 0.0020582 0.0026269 -0.0017005
0.0051369 0.037777 -0.26184 0.30948 0.027855 0.021973 0.0014948 0.0012451
0.0073208 -6.3278e-05 0.0039339 -0.0027408
-0.0092859 -0.0043512 0.027978 0.021908 0.066039 0.3157 0.0018532 -2.5398e-05
0.001263 -0.00019896 0.00079681 -0.0011882
-0.0017896 0.001867 0.0014606 0.0012202 0.0018879 -3.338e-05 -0.11599 0.25745
-0.011094 0.031142 0.0042203 -0.0067558
0.00086154 0.0020284 0.0072692 -0.00010953 0.0013052 -0.00015893 -0.011046 0.031259
-0.14727 0.14297 -0.0029656 0.027965
0.0026572 -0.0015812 0.0037912 -0.0028344 0.00082975 -0.0012239 0.0041926 -0.0066436
-0.0028526 0.027908 -0.20937 0.193
980000000 -0.051636 0.28958 0.017344 0.030037 -0.0089598 0.0046266 0.0020743 0.0034162
0.0036668 -0.0012138 -0.0030385 -0.0017646
0.017325 0.030033 -0.20897 0.34332 0.032745 0.0050367 0.0021781 -0.00012149
0.0014562 -0.0057618 -0.0003789 -0.0019341
-0.0088946 0.0046526 0.032787 0.0049182 0.11218 0.30923 0.00056864 -0.0011793
0.00030534 -0.0020193 0.0015456 -1.0634e-05
0.0020584 0.0035057 0.0021773 -0.00013157 0.00055227 -0.0011754 -0.077521 0.26864
0.0075884 0.030473 -0.0093134 -0.0071185
0.0036524 -0.0012007 0.0014286 -0.0057798 0.00028519 -0.0020295 0.0076504 0.03047
-0.11614 0.17211 0.004285 0.01978
-0.0033227 -0.001998 -0.00044604 -0.0020274 0.0015102 -4.8565e-05 -0.0094606 -0.0071768
0.0043984 0.019673 -0.16627 0.2405
1040000000 -0.009722 0.29831 0.032963 0.018287 -0.0012106 0.0068662 0.0025273 0.00066723
8.7644e-05 -0.0037016 -0.00025887 -0.0014429
0.032964 0.018273 -0.17332 0.35615 0.029225 -0.014587 0.0014921 -0.0016452
-0.0023171 -0.0026325 -0.0014188 -0.0026753
-0.0012129 0.0069081 0.029163 -0.014734 0.158 0.2955 -0.00044086 -0.0015368
-0.0015065 -0.001018 -0.00046113 -0.001167
0.0025781 0.000645 0.0014714 -0.0016242 -0.00044587 -0.0015332 -0.050405 0.27884
0.019387 0.018706 -0.0020993 0.0015078
0.00022344 -0.0036968 -0.0024356 -0.0025142 -0.0015548 -0.0010241 0.019413 0.018661
-0.083636 0.18083 0.013147 0.019376
-0.00017657 -0.0013573 -0.0015775 -0.0025962 -0.00047268 -0.0011283 -0.0020513 0.0014996
0.013184 0.01941 -0.14734 0.26119
1100000000 0.035737 0.30606 0.035559 -0.0039853 0.0029082 0.0038533 0.0023218 -0.0013334
-0.0019271 -0.003272 -0.0038843 4.1377e-05
0.035525 -0.0039797 -0.13004 0.37335 0.015142 -0.027458 1.8514e-05 -0.0018248
-0.0031544 -0.00096036 -0.00325 -0.00048382
0.002898 0.0038574 0.015052 -0.027544 0.20409 0.27536 -0.0018459 0.00013555
-0.0017278 0.0004046 -0.00095876 -0.00047201
0.0023183 -0.001324 8.2701e-07 -0.001842 -0.0018419 0.00012613 -0.009994 0.2839
0.024926 0.0057409 -0.0026671 -0.00018715
-0.0019431 -0.0032674 -0.0031916 -0.00095039 -0.0017221 0.00037164 0.024956 0.005701
-0.065855 0.19423 0.019304 0.0095116
-0.0039685 0.00011758 -0.0032244 -0.00046575 -0.00095147 -0.00047533 -0.0025606 -0.00012535
0.019189 0.0095512 -0.10161 0.29364
1160000000 0.087319 0.30077 0.023929 -0.020403 0.0027481 -0.00053977 -0.00034832 -0.0023419
-0.0041294 -0.00081058 -0.00082483 0.0040586
0.023927 -0.020369 -0.086438 0.37726 -0.0035 -0.028914 -0.0016835 -0.0016779
-0.0029479 0.0024474 -0.0012814 0.0018089
0.0027471 -0.00056418 -0.0036376 -0.028938 0.24704 0.24483 -0.00076734 0.0016857
-0.00060975 0.0019079 -0.0010725 0.00018589
-0.0003861 -0.0022797 -0.0017079 -0.0016666 -0.00073511 0.001713 0.02918 0.28115
0.021675 -0.010181 -0.0029294 0.0053128
-0.0041542 -0.00065267 -0.0029464 0.0025129 -0.00060406 0.0018694 0.021658 -0.010211
-0.031834 0.2032 0.018232 0.0017019
-0.0010178 0.0038051 -0.0012286 0.0017993 -0.0010836 0.00016824 -0.0029414 0.0053765
0.01815 0.0015872 -0.054018 0.2973
1220000000 0.13159 0.28963 0.010571 -0.029634 -0.0015128 -0.0008258 -2.2078e-05 -0.00080531
-0.0026502 0.0024441 0.0012141 0.0020649
0.010565 -0.029613 -0.042267 0.38924 -0.016521 -0.021086 -0.002506 0.00046613
-5.3153e-05 0.0028801 -0.00089177 0.0018087
-0.0015329 -0.0008064 -0.016634 -0.021029 0.28632 0.20621 0.00078789 0.0016767
0.00049655 0.0012145 0.00032582 0.00070783
-4.1248e-05 -0.00083866 -0.0024892 0.00046654 0.00078184 0.0016819 0.069026 0.273
0.011186 -0.016907 0.0023088 0.0014344
-0.0026071 0.0024506 -1.9936e-05 0.0029247 0.00049381 0.0012161 0.011158 -0.016924
-0.0096667 0.21244 0.01507 -0.01219
0.0013463 0.0020503 -0.00093819 0.001897 0.00036629 0.0007133 0.0022786 0.00149
0.015039 -0.012095 -0.023918 0.31625
1280000000 0.18108 0.26748 -0.0075512 -0.028191 -0.0018273 0.0023311 -0.00085331 -0.0019352
-0.00084002 0.0030046 0.0023661 0.0012644
-0.0075515 -0.028185 0.0033356 0.38046 -0.023339 -0.0086567 -0.00098889 0.001375
0.0015092 0.0018115 0.00050068 0.0020366
-0.0018237 0.002334 -0.023411 -0.0085803 0.31709 0.16242 0.0014797 8.7196e-05
0.0010602 0.0003648 0.00036185 0.00027895
-0.00085053 -0.0019565 -0.00097998 0.0013849 0.0014797 9.0522e-05 0.10582 0.25668
0.0019296 -0.019368 -0.00020944 -7.2173e-05
-0.00082496 0.0029903 0.001477 0.001767 0.0010367 0.00035602 0.0018395 -0.01937
0.026572 0.21644 0.0037925 -0.014595
0.0023358 0.0012604 0.00058289 0.0020501 0.00037018 0.00031755 -0.00014989 -0.0001086
0.0038258 -0.014772 0.025125 0.3195
1340000000 0.21797 0.23369 -0.017113 -0.018966 0.00079405 0.0043785 -0.0016787 -0.00084908
0.0013365 0.0027236 0.0017974 -0.0013003
-0.017089 -0.018958 0.04264 0.37244 -0.021448 0.0039168 -0.00024163 0.0020134
0.0018051 0.00089554 0.0012163 0.00080407
0.00086355 0.004397 -0.02144 0.0040212 0.33954 0.1144 0.001126 -0.00080045
0.00067819 -0.00040756 0.00017778 0.00025639
-0.0016635 -0.00087059 -0.00025146 0.0020105 0.0011269 -0.0007855 0.13834 0.23651
-0.0076254 -0.016968 0.0008169 0.0002969
0.0013587 0.0026671 0.0018395 0.00087867 0.00068275 -0.00044093 -0.0076705 -0.016985
0.055842 0.21179 -0.0025003 -0.013659
0.0017309 -0.00137 0.0012353 0.00074245 0.00011427 0.00034138 0.00085633 0.00023667
-0.0025084 -0.013503 0.062804 0.31748
1400000000 0.25072 0.19565 -0.022971 -0.0077582 0.0050595 0.0030838 -0.0020044 0.00053842
0.0023917 0.00080231 0.00034816 -0.0013761
-0.02296 -0.007758 0.079883 0.35962 -0.014917 0.012045 0.0012824 0.0013649
0.0012497 -0.00069605 0.0011658 0.00022819
0.0050647 0.0030572 -0.014873 0.012135 0.35296 0.060695 0.00021247 -0.0017184
0.00012635 -0.00041568 0.00032779 0.00023605
-0.0020056 0.00053703 0.0013042 0.0013688 0.00020767 -0.0017236 0.16771 0.20808
-0.01395 -0.010618 -0.00096128 -0.00068578
0.0024336 0.00081968 0.001233 -0.00068712 0.00010122 -0.00044686 -0.013969 -0.010612
0.088007 0.20801 -0.0092353 -0.0093297
0.00034973 -0.0014145 0.0011965 0.00022551 0.00041234 0.00020463 -0.0009433 -0.00061853
-0.0093468 -0.009336 0.10948 0.30752
1460000000 0.2734 0.15186 -0.020264 0.0042253 0.0055123 -0.0017593 -0.0016905 0.0016506
0.0020276 -0.00040404 -0.00029881 -0.0010308
-0.020254 0.0042333 0.11426 0.33814 -0.0064407 0.015067 0.0017625 0.00023504
0.00098768 -0.0012432 0.0011816 -0.00067083
0.0054926 -0.0017874 -0.0063684 0.015097 0.35886 0.0060096 -0.0012454 -0.0013699
0.00022222 -0.00037082 0.00055316 -0.00043145
-0.0016441 0.0016318 0.0017647 0.00021927 -0.0012649 -0.0013814 0.19423 0.17923
-0.015671 -0.0043272 -0.0011411 0.0021799
0.0020348 -0.00045761 0.00098068 -0.0012591 0.00020981 -0.00033532 -0.015697 -0.0043036
0.11659 0.19363 -0.011477 -0.0035625
-0.00042318 -0.0010925 0.00112 -0.00067314 0.00050496 -0.00047887 -0.0010869 0.0021796
-0.011487 -0.0035979 0.14358 0.2881
1520000000 0.2855 0.11026 -0.014925 0.009794 0.0031472 -0.0040334 3.083e-05 0.0025883
0.0021694 -0.0015146 -0.0011744 -0.00017952
-0.014905 0.009784 0.14807 0.32337 0.0012306 0.013081 0.001683 -0.00079055
9.7698e-05 -0.001108 0.00029958 -0.00099067
0.0031445 -0.0040747 0.0013061 0.013081 0.35203 -0.050524 -0.0011771 -0.00036031
0.00058491 -0.00078145 -8.9014e-05 -0.00019817
5.5538e-05 0.0026195 0.0016908 -0.00077262 -0.0011705 -0.00036675 0.21735 0.14182
-0.015719 0.001629 0.0013156 0.0021586
0.0021341 -0.0014997 8.8966e-05 -0.0011339 0.00057928 -0.00080441 -0.015729 0.0016562
0.14368 0.18065 -0.01188 0.00058012
-0.0011609 -0.00020309 0.00036821 -0.0010131 -0.00010125 -0.00020183 0.001256 0.0021298
-0.01184 0.00060123 0.17803 0.26899
1580000000 0.29497 0.064337 -0.0085211 0.013117 -0.00091793 -0.0048091 0.0013525 0.0019547
-0.00016857 -0.0021408 -0.00030672 0.00059076
-0.0085001 0.013107 0.17555 0.29859 0.0049094 0.0084007 0.00051979 -0.0016039
-0.00060926 -0.0011503 -0.00022013 -0.00077542
-0.00094545 -0.0048107 0.004966 0.0083891 0.33128 -0.10807 -0.0017354 0.00071153
-0.00020526 -0.001157 0.00015389 -0.00042967
0.0013514 0.0019065 0.00051699 -0.0016173 -0.0017388 0.0006888 0.23151 0.10306
-0.012727 0.0070907 0.0021759 0.00094879
-0.00016067 -0.0021118 -0.00062688 -0.0011222 -0.00021365 -0.0011655 -0.012694 0.0071217
0.16741 0.16362 -0.0095498 0.0067419
-0.0003872 0.00051656 -0.00022103 -0.00080305 0.00014975 -0.00046856 0.0022519 0.00096513
-0.0095605 0.0068302 0.2118 0.24203
1640000000 0.29723 0.022962 -0.0018164 0.012388 -0.0025694 -0.0024575 0.002758 0.0011233
-0.00050776 -0.0015406 -0.00030331 0.00059351
-0.0018097 0.01239 0.20536 0.27343 0.0058841 0.0037803 -0.00067212 -0.0017597
-0.0011312 -0.00042593 -0.00047989 -0.00070641
-0.0025955 -0.0024116 0.0058847 0.0037493 0.30313 -0.15737 -0.00060821 0.0014996
-0.00095268 -0.0010698 -0.0001686 -0.00044981
0.0027785 0.0011094 -0.00068177 -0.0017503 -0.00061984 0.0014801 0.2444 0.054746
-0.0086037 0.0091526 0.0025835 -0.00055594
-0.00053004 -0.0015581 -0.0011283 -0.00042765 -0.00093639 -0.0011085 -0.0085736 0.0091763
0.18962 0.14026 -0.0052985 0.0090696
-0.0002832 0.00065911 -0.00054099 -0.0006868 -0.00013615 -0.00046941 0.0026053 -0.00060659
-0.0053092 0.0090292 0.23813 0.21171
1700000000 0.28993 -0.022606 0.0017131 0.0097618 -0.0033108 -4.9374e-05 0.0031292 -0.0012006
-0.001906 -0.00090435 0.00074924 0.00050614
0.0017133 0.0097551 0.22354 0.24156 0.0039686 0.00085436 -0.0014295 -0.0006118
-0.0008086 0.00016912 -0.00091088 -0.00041089
-0.0032943 4.6553e-06 0.0039795 0.00084299 0.25895 -0.19714 0.00061474 0.0017273
-0.0019791 -0.00031733 -0.00035403 -0.00082034
0.0031036 -0.0012161 -0.0014496 -0.00061043 0.00060243 0.001741 0.24188 0.0053889
-0.0055127 0.010363 0.001652 -0.0021341
-0.0019434 -0.00084465 -0.00080698 0.00015948 -0.0019927 -0.00029229 -0.0054932 0.010406
0.20673 0.12105 -0.00056508 0.009655
0.00076952 0.00045483 -0.00087328 -0.0004171 -0.00039817 -0.00080275 0.0016346 -0.0021445
-0.00059975 0.0095743 0.25546 0.17728
1760000000 0.27771 -0.071437 0.0042812 0.006611 -0.0023041 0.00097216 0.0013031 -0.0034445
-0.0014769 0.00056852 0.00048043 -0.00062798
0.0042769 0.0065913 0.24943 0.20135 0.0017627 -0.00095634 -0.0012135 0.00019483
-0.00099042 0.0010305 -0.00053237 0.0003977
-0.0022997 0.00092466 0.0017521 -0.0010021 0.21021 -0.23005 0.0012645 0.0010056
-0.0013303 0.0015068 -0.0013735 -0.00044996
0.0013188 -0.0034712 -0.0012475 0.00019538 0.0012508 0.00099909 0.23351 -0.04593
-0.0014332 0.0099756 -0.00018317 -0.0024189
-0.0014141 0.00056834 -0.00096659 0.0010332 -0.0013468 0.0014624 -0.0014015 0.0099886
0.22161 0.087245 0.0034975 0.007359
0.00042577 -0.00058899 -0.00057965 0.00045252 -0.0013489 -0.00033347 -9.552e-05 -0.002431
0.0034965 0.0074315 0.26835 0.13932
1820000000 0.25268 -0.10879 0.0046176 0.0029668 -8.025e-05 0.002285 -0.0010308 -0.0030271
-0.0013955 0.00098482 -2.8897e-05 -0.00011947
0.0046102 0.0029338 0.25917 0.17091 -9.2705e-05 -5.914e-05 -0.0013591 0.00094056
9.9933e-05 0.0012806 -0.0005482 0.00053278
-4.7034e-05 0.0023132 -0.00010745 -6.1848e-05 0.1603 -0.24555 0.0015134 0.00033706
-0.00020025 0.0023767 -0.0011915 0.00035262
-0.001062 -0.003006 -0.0013382 0.00096084 0.0014977 0.00034488 0.20436 -0.0933
0.00072557 0.0083788 -0.0015982 -0.0014861
-0.0013911 0.00094263 8.5974e-05 0.0012856 -0.00024165 0.0023622 0.0007089 0.0083655
0.23907 0.059092 0.0045082 0.0040682
-7.4358e-05 -8.8718e-05 -0.00053662 0.00052115 -0.0012171 0.00038624 -0.0016085 -0.0015138
0.0045757 0.0039716 0.27181 0.10424
1880000000 0.21725 -0.14924 0.0026747 0.00052642 -0.00032832 0.0020008 -0.002948 -0.0023059
-0.0002217 0.0017912 0.00022221 -0.00056163
0.0026589 0.00051398 0.26326 0.12424 -0.0021333 0.0016423 -0.00021126 0.001697
0.00060181 0.0011187 8.7939e-05 0.00094361
-0.00038376 0.0020903 -0.0021326 0.0016644 0.10793 -0.25476 0.0016168 -0.00092485
0.00146 0.0020637 -0.00079851 0.0013146
-0.0029429 -0.002236 -0.00017429 0.0016899 0.0016419 -0.0009475 0.16435 -0.13399
0.0020195 0.0060946 -0.0022854 0.00020877
-0.00021805 0.0018384 0.00063203 0.0011216 0.001464 0.0020707 0.0020934 0.0061067
0.24242 0.027495 0.0050517 0.0017851
0.00012419 -0.00062493 6.0764e-05 0.00091936 -0.00089278 0.0012927 -0.0022432 0.00027972
0.0049744 0.001935 0.27203 0.069411
1940000000 0.17755 -0.17467 0.00045136 -0.0013172 0.0013635 0.0019682 -0.0038332 0.00053817
0.0013819 0.0011621 -0.00080477 -0.00063731
0.0004426 -0.001325 0.26338 0.092399 -0.0011429 0.003783 0.00093525 0.0013542
0.0016828 0.00039182 0.00073922 0.00022814
0.0013389 0.0019361 -0.0011164 0.0037823 0.061812 -0.24804 0.00031246 -0.0020696
0.002319 0.0005495 1.9788e-05 0.0016595
-0.0037946 0.0004645 0.00096769 0.001355 0.0002975 -0.0020669 0.11212 -0.16503
0.0014908 0.0040694 -0.0013847 0.0015348
0.0014552 0.0011267 0.0016925 0.00036407 0.0023292 0.00050151 0.0014922 0.0040757
0.2454 -0.01103 0.0040842 -0.0016974
-0.00085567 -0.00047715 0.00074502 0.0002961 -5.1147e-07 0.0017515 -0.0013516 0.001496
0.0041162 -0.0015782 0.26173 0.034305
2000000000 0.13078 -0.18907 -0.0035875 0.00051614 0.0022895 0.0016141 -0.002419 0.0035065
0.0011722 9.8042e-05 -0.00054216 0.00025864
-0.0035727 0.00051803 0.24877 0.056922 -0.00093671 0.0056171 0.001528 0.00034353
0.001196 -0.0015068 0.00058003 0.00021574
0.0023669 0.0016047 -0.00089636 0.0056467 0.018628 -0.23325 -0.0012815 -0.0013072
0.0020249 -0.0012064 0.0017942 0.0015023
-0.0023657 0.0035736 0.0015226 0.00032497 -0.0012762 -0.0012981 0.05847 -0.17546
-7.8481e-05 0.0033377 8.0138e-05 0.0021575
0.0011342 8.5126e-05 0.0011732 -0.0014936 0.0020385 -0.0012288 -0.00011787 0.0033551
0.24018 -0.045004 0.00076044 -0.0024848
