!Keysight Technologies,M9804A,MY58100912,A.14.10.03
!Date: Thursday, April 27, 2023 10:28:33
!Correction: S11(C  6-Port  ) 
!S12(C  6-Port  ) 
!S13(C  6-Port  ) 
!S14(C  6-Port  ) 
!S15(C  6-Port  ) 
!S16(C  6-Port  ) 
!S21(C  6-Port  ) 
!S22(C  6-Port  ) 
!S23(C  6-Port  ) 
!S24(C  6-Port  ) 
!S25(C  6-Port  ) 
!S26(C  6-Port  ) 
!S31(C  6-Port  ) 
!S32(C  6-Port  ) 
!S33(C  6-Port  ) 
!S34(C  6-Port  ) 
!S35(C  6-Port  ) 
!S36(C  6-Port  ) 
!S41(C  6-Port  ) 
!S42(C  6-Port  ) 
!S43(C  6-Port  ) 
!S44(C  6-Port  ) 
!S45(C  6-Port  ) 
!S46(C  6-Port  ) 
!S51(C  6-Port  ) 
!S52(C  6-Port  ) 
!S53(C  6-Port  ) 
!S54(C  6-Port  ) 
!S55(C  6-Port  ) 
!S56(C  6-Port  ) 
!S61(C  6-Port  ) 
!S62(C  6-Port  ) 
!S63(C  6-Port  ) 
!S64(C  6-Port  ) 
!S65(C  6-Port  ) 
!S66(C  6-Port  ) 
!S6P File: Measurement: :
# Hz S  RI   R 50
500000000 -0.33818 -0.039749 -0.010119 -0.001979 -0.0080917 0.012196 -0.0044588 0.012032
0.012959 0.0043399 -0.0050048 0.007996
-0.010667 -0.0021154 -0.41883 -0.053333 0.0084067 -0.010689 0.0010878 0.012665
0.0076495 0.0025112 -0.00014843 0.013432
-0.0083431 0.012623 0.0081205 -0.010732 -0.26486 0.20813 0.0067585 0.003742
-0.0017794 0.0085556 -0.00024012 0.011639
-0.0039648 0.011565 0.001562 0.012827 0.0067794 0.0036195 -0.33034 0.03832
-0.019293 -0.003718 0.017675 0.026055
0.011766 0.0047597 0.0073538 0.002214 -0.0022532 0.0080132 -0.019567 -0.003978
-0.21701 -0.2082 -0.027157 0.0087713
-0.0041001 0.0087165 0.00090124 0.014051 0.00018159 0.011612 0.018367 0.025956
-0.026386 0.0085973 -0.26122 -0.14746
560000000 -0.31667 0.12129 -0.023509 -0.063824 0.00034217 0.012198 0.0055141 0.012175
0.010095 0.0051902 0.009683 0.0067459
-0.023121 -0.062188 -0.37698 0.10741 -0.040489 -0.037659 0.014346 0.0034566
-0.012069 -0.0033913 0.0036769 -0.00091379
-4.0606e-05 0.012242 -0.040821 -0.037703 -0.1838 0.25755 -0.00079884 -0.004417
0.018527 0.0052436 0.0075487 -0.0059332
0.0057714 0.012236 0.013552 0.0035338 0.0002709 -0.0047305 -0.30614 0.13103
0.0037162 -0.023493 0.0056685 -0.020825
0.010662 0.0038367 -0.011437 -0.0050489 0.019035 0.0054256 0.003644 -0.023418
-0.29077 -0.026434 0.0088579 -0.053744
0.011155 0.0070736 0.0031777 -0.00080624 0.0072045 -0.0059282 0.0055205 -0.020751
0.0076632 -0.053954 -0.32833 0.0069534
620000000 -0.27603 0.10364 -0.022715 0.0077145 0.0029858 0.0084239 0.0082227 -0.0042631
0.010549 -0.0010855 0.0028161 -0.0019184
-0.02291 0.0073968 -0.40257 0.058602 -0.018622 -0.00011124 -0.0015192 -0.0029111
0.011901 -0.0049343 0.0011239 -0.0034277
0.0030337 0.0087318 -0.018438 9.0893e-05 -0.15379 0.26612 -0.0012559 -0.0050396
-0.0039664 -0.0023111 0.008585 -0.003985
0.0073864 -0.0046187 -0.0012322 -0.0018587 -0.0010314 -0.0050428 -0.26666 0.1425
-0.039451 -0.021181 0.012047 0.027864
0.011385 0.00010964 0.011573 -0.0061355 -0.0036971 -0.0027671 -0.038603 -0.021101
-0.20487 -0.065079 -0.041044 0.013735
0.0014729 -0.0020433 0.0016676 -0.0027783 0.0083525 -0.0037001 0.011662 0.028478
-0.042077 0.012474 -0.2471 -0.037331
680000000 -0.23542 0.19251 -0.027303 -0.014258 0.0044356 0.005343 0.0014319 -0.007832
-0.0039265 -0.011412 0.0058803 -0.0075077
-0.027376 -0.014028 -0.3881 0.15687 -0.032767 -0.0013798 -0.0016311 -0.00068864
-0.0022245 -0.0089717 -0.00051647 -0.0018682
0.0048447 0.0051252 -0.032924 -0.0013924 -0.10279 0.28591 -0.00085772 -0.00045115
-0.0014565 0.00024953 -0.0027528 -0.0093979
0.0022222 -0.0081255 -0.0016271 -0.00047008 -0.0010765 -0.00026005 -0.22187 0.19274
-0.023816 -0.0079982 -0.0096906 -0.011586
-0.0029945 -0.011783 -0.0021958 -0.0091874 -0.0011509 0.00035119 -0.023729 -0.007902
-0.25892 0.033829 -0.0053738 -0.0079426
0.0062505 -0.00729 -0.00072591 -0.0019624 -0.0030929 -0.0092557 -0.0096434 -0.012114
-0.0049442 -0.007902 -0.26228 0.075352
740000000 -0.19071 0.18576 -0.038914 0.026816 0.012371 -0.005338 -0.00018642 -0.0043493
-0.0038796 -0.002211 -0.0060658 0.0025493
-0.038956 0.02673 -0.33547 0.17561 -0.034977 0.03507 -0.00095221 -0.0061812
-0.011585 0.0066591 -0.0027239 -0.006056
0.012574 -0.0054189 -0.035058 0.035123 -0.068936 0.28441 -0.0017913 0.0028334
-0.0017059 -0.0049746 -0.0012023 -0.00051583
-0.00015924 -0.0039938 -0.00094712 -0.0061508 -0.0018077 0.0028063 -0.20464 0.20061
-0.04393 -0.0074254 0.023822 0.016017
-0.0045434 -0.0019864 -0.012607 0.0070874 -0.002088 -0.0051656 -0.043905 -0.0072724
-0.16068 0.060526 -0.043665 -0.0021007
-0.0060285 0.0028941 -0.0018899 -0.0062449 -0.001261 -9.825e-05 0.023664 0.015707
-0.043865 -0.0018995 -0.25315 0.080784
800000000 -0.15848 0.22647 -0.022391 0.01671 0.0051619 -0.010622 -0.0043387 -0.0020168
-0.0038026 0.0023278 0.0046627 0.00030151
-0.022125 0.01672 -0.3383 0.24621 -0.0077794 0.033875 -0.0022163 0.0021791
-0.00080913 0.0031132 0.0013382 0.0055803
0.0053503 -0.010692 -0.007641 0.033901 -0.028066 0.30738 0.0010576 0.0015521
0.00026194 0.0035422 -0.0019367 0.00062685
-0.004815 -0.0022364 -0.0025039 0.0021674 0.0010435 0.0015639 -0.17613 0.22938
-0.029056 0.014044 0.014315 -0.009838
-0.0037655 0.0027194 -0.00054889 0.0032567 0.00034729 0.0034919 -0.029101 0.013812
-0.20867 0.083513 -0.017152 0.019884
0.0045254 0.00014746 0.0010445 0.0056659 -0.0019851 0.0008155 0.014514 -0.0097752
-0.01751 0.019964 -0.24872 0.12996
860000000 -0.12381 0.24708 -0.017384 0.030549 -0.0032125 -0.0098057 -0.0022958 0.00092238
0.0038499 0.0046897 -0.0030819 -0.0031538
-0.017318 0.030614 -0.29054 0.28806 0.0079243 0.034022 -6.6341e-05 0.0018806
0.004184 -0.00027055 0.0032477 0.0010071
-0.0032592 -0.0097717 0.0079462 0.033977 0.019924 0.31524 -0.00045099 -0.00013966
0.0027639 -0.0017188 0.0012221 0.0043718
-0.0027307 0.00062475 0.00021984 0.0018863 -0.00046943 -0.00019249 -0.13976 0.24085
-0.017802 0.018483 -0.0063239 -0.0085324
0.003864 0.0045714 0.0041641 -6.9192e-05 0.0026909 -0.0017588 -0.017466 0.018661
-0.15499 0.13637 -0.027551 0.015111
-0.003163 -0.0028652 0.0035624 0.00067256 0.0015043 0.0043683 -0.0068285 -0.0083715
-0.027789 0.01541 -0.19796 0.17875
920000000 -0.099406 0.27056 0.0051515 0.037767 -0.009252 -0.0043101 -0.001849 0.0018036
0.001171 0.0018078 0.0027831 -0.0014167
0.0051975 0.037784 -0.26192 0.30939 0.027887 0.021977 0.0014762 0.0010608
0.0075862 -0.00028903 0.0039172 -0.003047
-0.009305 -0.004246 0.027981 0.021875 0.066029 0.31579 0.0017758 -4.5957e-05
0.0014199 -0.00030324 0.001166 -0.0012265
-0.0017885 0.0018935 0.0015506 0.0011071 0.0018828 -2.6163e-05 -0.11636 0.25724
-0.010647 0.031193 0.003835 -0.0069872
0.0012241 0.0017464 0.0073187 6.3432e-05 0.0013049 -0.00015111 -0.010585 0.031292
-0.14669 0.14264 -0.0020616 0.027734
0.0022948 -0.0017809 0.0038007 -0.003067 0.0010748 -0.001192 0.0039653 -0.007122
-0.0020247 0.027443 -0.20837 0.19154
980000000 -0.051785 0.28941 0.01739 0.029864 -0.0089514 0.0045677 0.0020384 0.0033598
0.0039381 -0.0011568 -0.0032744 -0.0019961
0.017321 0.029931 -0.20889 0.34314 0.032832 0.0049664 0.0021218 -0.00011734
0.0015259 -0.0055763 -0.0006454 -0.0020089
-0.0089194 0.0046505 0.03285 0.0048489 0.11219 0.30921 0.0005887 -0.0011436
0.00031513 -0.0019424 0.0014296 -0.0002124
0.0021639 0.0034291 0.002133 -0.00012735 0.00058557 -0.0011791 -0.077736 0.26861
0.0076581 0.030663 -0.0091505 -0.0076486
0.0040776 -0.0012487 0.0015997 -0.0056845 0.00031887 -0.0020203 0.0076526 0.030593
-0.11612 0.17257 0.0043842 0.020308
-0.0034571 -0.0020416 -0.00060809 -0.0022495 0.0014692 -0.00021143 -0.0095056 -0.0078119
0.0044833 0.02042 -0.16597 0.24031
1040000000 -0.0093656 0.29819 0.033025 0.018358 -0.0012156 0.0069174 0.0025778 0.00070238
7.5836e-06 -0.0035868 -0.00035117 -0.0016521
0.033014 0.018391 -0.17349 0.35612 0.029156 -0.014564 0.0015487 -0.001684
-0.0024724 -0.0026127 -0.0013818 -0.0025657
-0.0011022 0.0069156 0.029095 -0.014705 0.15798 0.29543 -0.00042987 -0.001539
-0.0014409 -0.00095296 -0.00044372 -0.0010988
0.0024933 0.00055931 0.0016345 -0.0016951 -0.00041264 -0.0015392 -0.050332 0.27891
0.019451 0.018531 -0.0019411 0.001398
4.6037e-05 -0.0036825 -0.0023921 -0.0025955 -0.0014996 -0.00099822 0.01939 0.018571
-0.083435 0.17982 0.012952 0.019071
-0.00012434 -0.0016449 -0.0013907 -0.0026452 -0.00045932 -0.0010293 -0.0019252 0.0014492
0.012784 0.019442 -0.14688 0.26131
1100000000 0.035747 0.30603 0.035634 -0.0039258 0.0029141 0.0038765 0.0023652 -0.0013591
-0.001914 -0.0032895 -0.0039173 -2.3581e-05
0.035602 -0.0039249 -0.1301 0.37335 0.015117 -0.027462 2.8202e-05 -0.0018499
-0.0033635 -0.0010186 -0.0033547 -0.00060803
0.0029256 0.0038005 0.015046 -0.027583 0.20405 0.27539 -0.0018584 9.3022e-05
-0.0017385 0.00038266 -0.0010485 -0.00051654
0.0023575 -0.0012982 7.7661e-06 -0.0017965 -0.0018846 0.00012478 -0.010117 0.28401
0.024944 0.0056024 -0.0026288 3.072e-05
-0.001992 -0.0032122 -0.0032695 -0.00099466 -0.0017208 0.00034442 0.02497 0.0055553
-0.066009 0.19431 0.019193 0.0095448
-0.0039621 -8.1567e-05 -0.003483 -0.00042377 -0.0010318 -0.00054309 -0.0027364 -0.00011463
0.019156 0.0094188 -0.10172 0.29362
1160000000 0.087316 0.30076 0.023903 -0.020352 0.0027415 -0.00053051 -0.00025498 -0.0023654
-0.0041769 -0.0009477 -0.00082814 0.0040297
0.023838 -0.020417 -0.086501 0.3772 -0.0034908 -0.028871 -0.0016659 -0.0016383
-0.002745 0.002289 -0.0014427 0.0018189
0.0027092 -0.00054212 -0.0036381 -0.028837 0.24701 0.24487 -0.00070483 0.0017218
-0.00075634 0.0018379 -0.00090664 0.00019516
-0.00020921 -0.0023873 -0.0016307 -0.0016401 -0.00071473 0.0017429 0.029191 0.28113
0.021686 -0.010265 -0.0031187 0.0052803
-0.0040516 -0.00074466 -0.0028067 0.0023612 -0.00071287 0.0017911 0.021791 -0.010351
-0.032129 0.20322 0.018547 0.0013935
-0.0010506 0.0040695 -0.0012814 0.0018097 -0.00097811 0.00019155 -0.0031237 0.0053685
0.018498 0.0013654 -0.054235 0.29754
1220000000 0.13147 0.28963 0.010618 -0.029687 -0.0015676 -0.00086169 -6.1024e-06 -0.00080739
-0.0026441 0.0024558 0.0012554 0.0018679
0.010644 -0.02957 -0.042277 0.38924 -0.016514 -0.02107 -0.0024345 0.00041408
-4.9409e-05 0.0029279 -0.00076284 0.0019182
-0.0015621 -0.00089332 -0.016628 -0.021006 0.28628 0.20621 0.00077539 0.0016619
0.00051157 0.0012612 0.00026372 0.00067761
-7.9857e-05 -0.00079014 -0.0024424 0.00041248 0.0007632 0.0016245 0.068978 0.27297
0.011115 -0.017044 0.0021992 0.0014102
-0.0027594 0.0024844 -7.4074e-05 0.0029701 0.00055821 0.0013146 0.011112 -0.017055
-0.0099013 0.2123 0.014843 -0.012235
0.0013454 0.001872 -0.00086622 0.0019659 0.00025643 0.00078321 0.0022459 0.0013379
0.014857 -0.012153 -0.024207 0.31586
1280000000 0.18117 0.26748 -0.0075532 -0.028239 -0.0017833 0.0023309 -0.00084259 -0.0019108
-0.00074242 0.0030485 0.0022477 0.0012756
-0.0074807 -0.028245 0.0032975 0.38048 -0.02334 -0.0086289 -0.00098905 0.0013976
0.001477 0.0018621 0.00042946 0.0021018
-0.0018193 0.0023465 -0.023436 -0.0085684 0.31711 0.16251 0.0015332 3.9523e-05
0.0011008 0.00032551 0.00047094 0.00038795
-0.00077358 -0.0018578 -0.00097441 0.0013671 0.0015349 3.2127e-05 0.10568 0.25671
0.0017695 -0.019383 -7.2044e-05 -0.00017811
-0.00075372 0.0030085 0.0015112 0.0017766 0.001091 0.00041254 0.0017586 -0.019413
0.026316 0.21619 0.0037354 -0.0149
0.002418 0.0011708 0.00064251 0.0020787 0.00044215 0.00031829 -0.00016564 -0.00021673
0.0037958 -0.014893 0.025194 0.31986
1340000000 0.21797 0.23374 -0.017155 -0.019042 0.00075604 0.0043824 -0.0016654 -0.0008501
0.0013725 0.0026873 0.0015661 -0.0012407
-0.017113 -0.019019 0.042674 0.37239 -0.021447 0.0038526 -0.0001755 0.002016
0.0018645 0.00094159 0.0012966 0.00073856
0.00080623 0.0043465 -0.021446 0.0039788 0.33951 0.11446 0.0012018 -0.00084645
0.00070299 -0.000331 0.0002375 0.00022589
-0.001677 -0.00079532 -0.00020493 0.0019891 0.0012203 -0.00082638 0.13834 0.2365
-0.0077571 -0.01711 0.00077387 0.00032681
0.0014051 0.0027244 0.0018904 0.00091383 0.00072496 -0.0003259 -0.0077468 -0.016998
0.055865 0.21172 -0.0028551 -0.013821
0.0015955 -0.0014325 0.0013294 0.00071508 0.00025431 0.00033542 0.00080114 0.00034878
-0.0027361 -0.013762 0.0626 0.31722
1400000000 0.25067 0.19566 -0.022977 -0.0077915 0.0050642 0.0030461 -0.0020403 0.00055519
0.0023557 0.00088282 0.00035339 -0.0014719
-0.022989 -0.0078011 0.07989 0.35965 -0.014931 0.012015 0.0012759 0.001364
0.0013168 -0.00075792 0.0011901 0.00027354
0.0050796 0.0030192 -0.014876 0.012119 0.35299 0.060712 0.00017604 -0.0016717
6.977e-05 -0.00043965 0.00030464 0.00022286
-0.0020064 0.00051849 0.0013123 0.0013789 0.00018661 -0.001674 0.16781 0.20814
-0.014022 -0.010616 -0.00096784 -0.00067287
0.0023371 0.00086853 0.0013001 -0.00071709 2.7655e-05 -0.00043334 -0.014091 -0.01054
0.087806 0.20815 -0.0093191 -0.0093137
0.00044117 -0.001323 0.0012627 0.00029864 0.0004145 0.00027605 -0.00087985 -0.00062504
-0.0092869 -0.0093683 0.10965 0.3076
1460000000 0.27326 0.15196 -0.020312 0.0041911 0.0054044 -0.0017303 -0.0016797 0.0016223
0.0020046 -0.00033035 -0.00024903 -0.0010996
-0.02025 0.0041655 0.11426 0.33811 -0.0064046 0.015068 0.0017383 0.00021382
0.0010052 -0.0012473 0.0012516 -0.00065697
0.0054843 -0.0018397 -0.0063323 0.015126 0.35889 0.0058765 -0.0012302 -0.0013324
0.00018055 -0.00038699 0.00065156 -0.00043487
-0.0017083 0.0016799 0.0017453 0.00019829 -0.0012211 -0.0013734 0.19417 0.17921
-0.015735 -0.0041723 -0.0010744 0.0022864
0.0020043 -0.00037186 0.0010133 -0.001316 0.00017542 -0.00038187 -0.015723 -0.0041889
0.11614 0.19388 -0.011417 -0.003781
-0.00034039 -0.0010379 0.0011817 -0.0006514 0.00054448 -0.00044119 -0.0010921 0.0022271
-0.011414 -0.0036175 0.14306 0.28809
1520000000 0.28546 0.11028 -0.014966 0.0098382 0.0032338 -0.0040638 9.9128e-05 0.0025853
0.0021367 -0.0015449 -0.00113 -0.00019684
-0.014992 0.0098193 0.14801 0.32336 0.0011964 0.013104 0.0017131 -0.00077291
0.00014756 -0.0011137 0.00036103 -0.001024
0.0032254 -0.0040104 0.001277 0.013109 0.35205 -0.050604 -0.0011603 -0.00035512
0.00059856 -0.00079366 0.0001681 -0.00014519
0.00012084 0.002593 0.0017191 -0.0007629 -0.0011778 -0.00030759 0.21735 0.14184
-0.015685 0.0016749 0.0014044 0.0020993
0.0021662 -0.0015945 5.2965e-05 -0.0010992 0.00051459 -0.00075632 -0.01569 0.0017339
0.14339 0.18073 -0.011877 0.00071938
-0.001191 -0.00026173 0.00037488 -0.0010458 0.00020663 -0.00019788 0.0013141 0.0021039
-0.011852 0.00064722 0.178 0.26886
1580000000 0.29491 0.064365 -0.0085377 0.013147 -0.0009025 -0.0047527 0.0013823 0.0019763
-0.00013652 -0.0021116 -0.00042399 0.00054499
-0.008556 0.013113 0.17551 0.29861 0.0048705 0.008415 0.00053929 -0.0016029
-0.00061507 -0.0011212 -0.00021189 -0.00078463
-0.00092247 -0.0047998 0.0049408 0.0083983 0.33136 -0.10803 -0.0017646 0.00064491
-0.00028908 -0.0012095 -8.5282e-06 -0.00045294
0.0014043 0.001969 0.0005048 -0.0016328 -0.0017164 0.00064412 0.23153 0.10303
-0.012688 0.0071891 0.0022837 0.00093411
-0.00016762 -0.0020433 -0.00062817 -0.0011798 -0.00023643 -0.0012256 -0.012647 0.0072303
0.16734 0.16399 -0.0096108 0.0068085
-0.00041648 0.00039863 -0.00027134 -0.00080712 1.9359e-05 -0.00040981 0.0023018 0.0010827
-0.0096792 0.0068434 0.21175 0.24228
1640000000 0.29722 0.022963 -0.0018429 0.012379 -0.0026164 -0.0024335 0.0027746 0.0010878
-0.0004707 -0.0015259 -0.00016755 0.00062608
-0.0018532 0.012421 0.20533 0.27339 0.0058242 0.003795 -0.0006508 -0.0017713
-0.0011386 -0.00041804 -0.00051315 -0.00074912
-0.0025972 -0.0024083 0.0058716 0.0037475 0.3031 -0.15731 -0.00057517 0.0015519
-0.00099026 -0.0010653 -7.4561e-05 -0.0005188
0.0027849 0.0010896 -0.00064027 -0.0017535 -0.00058146 0.0015613 0.24437 0.054717
-0.0084366 0.0091644 0.0025612 -0.00047695
-0.00048479 -0.0016653 -0.0011133 -0.00043208 -0.00098392 -0.0011368 -0.0084255 0.0091608
0.18961 0.14061 -0.005263 0.0090413
-0.00026468 0.0005593 -0.00048102 -0.00072841 -0.00014227 -0.00046998 0.002668 -0.00063724
-0.0052273 0.0090421 0.23745 0.21208
1700000000 0.28995 -0.022538 0.0017082 0.0097965 -0.0033264 -1.7405e-06 0.0031382 -0.0012136
-0.0019507 -0.0009057 0.00073281 0.00041441
0.0017035 0.0097623 0.22348 0.24157 0.0039089 0.00087989 -0.0014384 -0.00058038
-0.00076017 0.00015244 -0.00089929 -0.00047355
-0.0033732 2.0103e-05 0.0039191 0.00086766 0.25894 -0.19698 0.00059479 0.001756
-0.0020303 -0.00027737 -0.00042901 -0.00079822
0.0030188 -0.0012541 -0.0014841 -0.00064073 0.00048687 0.0017042 0.24191 0.0054606
-0.0054076 0.010356 0.0018223 -0.0021284
-0.0020171 -0.00087008 -0.00084149 0.00010599 -0.0020541 -0.00029899 -0.0053598 0.010357
0.20701 0.12113 -0.00056938 0.0096867
0.00072367 0.00058208 -0.00092965 -0.00039733 -0.00043634 -0.00079203 0.0016024 -0.0022701
-0.00054635 0.0097227 0.25544 0.17757
1760000000 0.27769 -0.071366 0.004264 0.0066356 -0.0022416 0.00089976 0.0013153 -0.003436
-0.0014704 0.00062569 0.0004538 -0.00042094
0.0042713 0.0066295 0.24943 0.20141 0.0017823 -0.00095745 -0.0012542 0.00015663
-0.0009948 0.00099013 -0.00055256 0.00049698
-0.0021349 0.00087981 0.0017747 -0.00095966 0.21006 -0.22987 0.0012574 0.0009906
-0.001271 0.00144 -0.0012647 -0.00059927
0.0013017 -0.0035002 -0.0012422 0.0001708 0.0013047 0.00090162 0.23342 -0.045928
-0.0014334 0.0099472 -0.00014019 -0.0025394
-0.0014642 0.00062558 -0.00097428 0.00099764 -0.0012234 0.0014191 -0.0013869 0.0099093
0.22188 0.087371 0.0035363 0.0073096
0.00050187 -0.00058413 -0.0005693 0.0004475 -0.0012882 -0.0005535 -0.0002149 -0.0024453
0.003517 0.0073959 0.26844 0.13978
1820000000 0.2527 -0.10873 0.0046977 0.0029721 -1.8365e-05 0.0022877 -0.0010476 -0.0030823
-0.0012666 0.00091921 -3.028e-05 -0.00022386
0.0046441 0.0029898 0.25918 0.17098 -0.00010992 2.5495e-06 -0.0013024 0.00095818
0.00011284 0.0013184 -0.0005527 0.00050588
-3.4436e-05 0.0024416 -7.8601e-05 -2.1497e-05 0.1602 -0.2454 0.0014664 0.0004399
-0.00025557 0.0024289 -0.0011139 0.00043107
-0.0011249 -0.0030852 -0.0013104 0.00092853 0.0014501 0.00043839 0.20444 -0.093348
0.00085851 0.0082666 -0.0016105 -0.001663
-0.0012715 0.00089647 0.00010936 0.0012757 -0.00024391 0.0023572 0.00085618 0.0083103
0.23945 0.059225 0.0046454 0.0038242
2.6494e-05 -0.0001384 -0.00056058 0.00052034 -0.0011602 0.00037905 -0.0015281 -0.0017191
0.0047044 0.0038373 0.27142 0.10412
1880000000 0.21725 -0.14921 0.002716 0.00052193 -0.00043922 0.0019802 -0.0029574 -0.0023099
-0.00025001 0.0018476 0.00016839 -0.0006718
0.0026624 0.00052864 0.26326 0.12429 -0.0021336 0.0016193 -0.00024377 0.0016805
0.00059099 0.0010741 9.3848e-05 0.00090649
-0.00034432 0.0020056 -0.002159 0.0016295 0.10781 -0.25491 0.001602 -0.00096128
0.0014905 0.0019336 -0.00091999 0.0012963
-0.0029486 -0.0022228 -0.00019568 0.001723 0.0015775 -0.00092917 0.16435 -0.13396
0.0019883 0.0059347 -0.0023258 0.00047101
-0.00026238 0.0018512 0.00061235 0.0010851 0.001458 0.0020226 0.0020488 0.0058632
0.24264 0.02709 0.0049081 0.0021216
0.00027378 -0.00061006 0.00014987 0.00089208 -0.00090919 0.0011304 -0.0024236 0.0004422
0.0049945 0.0020051 0.27209 0.07002
1940000000 0.17743 -0.17467 0.00042854 -0.0013528 0.0012851 0.0019964 -0.0038841 0.00043339
0.001352 0.0011124 -0.00085098 -0.00047958
0.00040119 -0.0014035 0.26344 0.0924 -0.0010935 0.0038205 0.00092858 0.0013296
0.0016851 0.00039436 0.00073671 0.00026646
0.0012481 0.0019291 -0.00098819 0.0037804 0.061989 -0.24796 0.00032868 -0.0020438
0.0023875 0.00051929 4.1308e-05 0.0017505
-0.0038154 0.0006328 0.0010158 0.0013847 0.00036838 -0.0021205 0.11215 -0.16516
0.0015643 0.0040742 -0.0013178 0.0014498
0.0013568 0.0011959 0.0017243 0.00041595 0.0024679 0.00046971 0.0013992 0.0040676
0.2455 -0.011283 0.004128 -0.0016982
-0.00076955 -0.00067573 0.00077398 0.00023544 1.0321e-05 0.0017371 -0.0015139 0.0015922
0.0041893 -0.0017345 0.2616 0.034345
2000000000 0.13087 -0.18919 -0.0035526 0.00046937 0.0024301 0.001579 -0.0023018 0.0034741
0.0012611 3.949e-05 -0.00058642 0.00021889
-0.0035141 0.00044815 0.24881 0.05694 -0.00089065 0.0056217 0.0016115 0.0003469
0.0013082 -0.0013782 0.00054495 0.00014237
0.0024409 0.0017668 -0.00085337 0.005624 0.018682 -0.23335 -0.0011233 -0.0012872
0.0021605 -0.0011778 0.0016061 0.0013877
-0.0024437 0.0035227 0.0015914 0.00029351 -0.0011235 -0.0011978 0.058664 -0.17555
6.3321e-05 0.0033326 -0.00017321 0.0019791
0.0011726 0.00016114 0.0012427 -0.0013779 0.002012 -0.001162 0.00010829 0.0033403
