!Keysight Technologies,M9804A,MY58100912,A.14.10.03
!Date: Thursday, April 27, 2023 10:28:33
!Correction: S11(C  6-Port  ) 
!S12(C  6-Port  ) 
!S13(C  6-Port  ) 
!S14(C  6-Port  ) 
!S15(C  6-Port  ) 
!S16(C  6-Port  ) 
!S21(C  6-Port  ) 
!S22(C  6-Port  ) 
!S23(C  6-Port  ) 
!S24(C  6-Port  ) 
!S25(C  6-Port  ) 
!S26(C  6-Port  ) 
!S31(C  6-Port  ) 
!S32(C  6-Port  ) 
!S33(C  6-Port  ) 
!S34(C  6-Port  ) 
!S35(C  6-Port  ) 
!S36(C  6-Port  ) 
!S41(C  6-Port  ) 
!S42(C  6-Port  ) 
!S43(C  6-Port  ) 
!S44(C  6-Port  ) 
!S45(C  6-Port  ) 
!S46(C  6-Port  ) 
!S51(C  6-Port  ) 
!S52(C  6-Port  ) 
!S53(C  6-Port  ) 
!S54(C  6-Port  ) 
!S55(C  6-Port  ) 
!S56(C  6-Port  ) 
!S61(C  6-Port  ) 
!S62(C  6-Port  ) 
!S63(C  6-Port  ) 
!S64(C  6-Port  ) 
!S65(C  6-Port  ) 
!S66(C  6-Port  ) 
!S6P File: Measurement: :
# Hz S  RI   R 50
500000000 -0.33735 -0.040589 -0.0098525 -0.0026021 -0.0079056 0.012332 -0.004477 0.012055
0.013006 0.0045231 -0.0045104 0.0080825
-0.0097818 -0.0025653 -0.41953 -0.052392 0.0082303 -0.010344 0.00074288 0.012444
0.0064608 0.0026734 0.00087261 0.012852
-0.008345 0.012385 0.0081709 -0.010672 -0.26468 0.20838 0.0067843 0.0034294
-0.0026895 0.0083442 0.00024116 0.011523
-0.0041661 0.012249 0.0018221 0.012133 0.0065927 0.0032631 -0.33115 0.039592
-0.019618 -0.0039771 0.017156 0.02618
0.012305 0.0050727 0.0066865 0.0020557 -0.0026084 0.0082017 -0.019858 -0.005084
-0.21741 -0.20621 -0.027046 0.0069774
-0.0047295 0.0093022 0.0022 0.013507 0.00053967 0.010699 0.017213 0.026868
-0.027132 0.0077941 -0.26096 -0.14766
560000000 -0.31602 0.12031 -0.024355 -0.0632 -0.00080825 0.011119 0.0046504 0.011163
0.0098504 0.0041373 0.011633 0.0073026
-0.024188 -0.062697 -0.37726 0.10548 -0.040337 -0.037124 0.014028 0.0028692
-0.013253 -0.0037546 0.0041731 -0.00054135
-0.00043721 0.011263 -0.040359 -0.036961 -0.18344 0.25673 0.00045105 -0.0043357
0.019132 0.004391 0.0067275 -0.0058605
0.0054339 0.010705 0.014034 0.0036866 -0.00097172 -0.0041506 -0.30723 0.13087
0.0052385 -0.0246 0.0051212 -0.021194
0.0091816 0.0044033 -0.01357 -0.0027386 0.019342 0.0039714 0.0057982 -0.024838
-0.28893 -0.031343 0.0093813 -0.051748
0.01255 0.0071979 0.0029293 -0.0012828 0.0070856 -0.0055711 0.0039947 -0.020689
0.010267 -0.051744 -0.32877 0.0045019
620000000 -0.27637 0.10475 -0.023403 0.0072212 0.0027963 0.0083741 0.0084912 -0.0049396
0.010275 -7.4079e-05 0.0022067 -0.0019909
-0.023324 0.0072899 -0.40276 0.058534 -0.018716 -7.9642e-05 -0.0016238 -0.0022669
0.011372 -0.0052871 0.00087675 -0.0031184
0.0032607 0.008443 -0.018824 -4.2493e-05 -0.15364 0.2658 -0.001219 -0.0052415
-0.0034427 -0.0031336 0.0088312 -0.0038309
0.0087083 -0.0044008 -0.0011912 -0.0019206 -0.0014321 -0.0051311 -0.26637 0.14143
-0.039007 -0.019219 0.010993 0.026545
0.010062 -0.0012046 0.010793 -0.0061438 -0.0026747 -0.0032406 -0.038746 -0.01934
-0.20645 -0.067576 -0.040573 0.014773
0.0026029 -0.00074186 0.00092962 -0.0026393 0.0091075 -0.002833 0.011619 0.026578
-0.040322 0.015184 -0.24914 -0.038802
680000000 -0.23455 0.19111 -0.027173 -0.014136 0.004934 0.0048667 0.0019214 -0.0078611
-0.0035527 -0.011707 0.00617 -0.0066483
-0.027246 -0.01408 -0.388 0.157 -0.032663 -0.0013463 -0.0015898 -0.00052231
-0.0020937 -0.0090686 -0.00077113 -0.001894
0.0046653 0.005109 -0.032751 -0.0013679 -0.10269 0.2859 -0.0008211 -0.00023964
-0.0014602 0.00046182 -0.0027358 -0.0096335
0.0019293 -0.0077485 -0.0016751 -0.00055348 -0.00095371 -0.00033181 -0.22178 0.1929
-0.023538 -0.0074631 -0.0099311 -0.012091
-0.003126 -0.01147 -0.001655 -0.0089187 -0.0016871 0.00070436 -0.023879 -0.0073217
-0.25988 0.033662 -0.0055912 -0.0079633
0.0057611 -0.0073746 -0.00041583 -0.0022048 -0.0023744 -0.0097718 -0.010226 -0.011622
-0.0061437 -0.0078834 -0.26063 0.075839
740000000 -0.19112 0.18512 -0.039037 0.026845 0.012398 -0.0051062 2.1426e-05 -0.0042734
-0.0043128 -0.0015996 -0.006194 0.002526
-0.038975 0.026782 -0.33513 0.17596 -0.035129 0.034902 -0.00087151 -0.0060736
-0.010865 0.0068983 -0.0018185 -0.0060249
0.012586 -0.0052585 -0.035074 0.035273 -0.068384 0.28445 -0.0019051 0.0029244
-0.0020851 -0.0046427 -0.0013965 -0.00018029
-0.00024223 -0.0041874 -0.00093845 -0.0060849 -0.0021095 0.0032108 -0.20487 0.20073
-0.044219 -0.0078904 0.023745 0.015435
-0.004206 -0.0021619 -0.011185 0.0075766 -0.0027311 -0.0047721 -0.044883 -0.0082831
-0.16157 0.060574 -0.04432 -0.003277
-0.0063498 0.0029445 -0.0022948 -0.0060521 -0.0014019 2.0803e-05 0.023981 0.015547
-0.042555 -0.0030987 -0.25259 0.081458
800000000 -0.15871 0.22641 -0.022497 0.016637 0.0050878 -0.010486 -0.0047071 -0.0024119
-0.004038 0.0029823 0.0051272 0.00038203
-0.022473 0.016687 -0.33841 0.24607 -0.0078523 0.033839 -0.0022354 0.0020427
-0.00093807 0.002937 0.00094726 0.0054305
0.0052287 -0.01062 -0.0077491 0.033893 -0.028229 0.30738 0.0009406 0.0014243
0.00015603 0.0035003 -0.0018222 0.00057927
-0.0044207 -0.0022097 -0.002358 0.0023746 0.0010339 0.0013799 -0.17637 0.22983
-0.028636 0.013502 0.01417 -0.0099783
-0.0040955 0.002053 -0.00034582 0.0028643 0.00034933 0.003333 -0.028453 0.013395
-0.20861 0.08397 -0.017593 0.019081
0.0047426 0.00066272 0.00063833 0.005712 -0.0017491 0.00076714 0.013694 -0.0098955
-0.01669 0.019919 -0.24855 0.13073
860000000 -0.12383 0.24693 -0.017663 0.030529 -0.0032079 -0.00999 -0.0021082 0.00064428
0.0039353 0.0044277 -0.0036297 -0.0030563
-0.01762 0.030537 -0.29083 0.28813 0.0077429 0.033959 -0.00018558 0.0022391
0.0039993 -0.00014072 0.0028934 0.00043017
-0.0033143 -0.0099477 0.0077377 0.033961 0.019927 0.3152 -0.00065843 -0.00024385
0.0028636 -0.0017061 0.0011547 0.0041045
-0.0020952 0.00096619 -0.00025088 0.0019644 -0.00066262 -0.0002971 -0.13996 0.24012
-0.017681 0.018486 -0.0063272 -0.0090035
0.0040514 0.0041465 0.0041654 5.6205e-05 0.0028487 -0.0015271 -0.017676 0.018787
-0.15622 0.13717 -0.027733 0.015442
-0.0037084 -0.0031196 0.0029012 0.00063101 0.0013264 0.0041817 -0.0059705 -0.0090105
-0.027801 0.015746 -0.1966 0.1781
920000000 -0.099115 0.27018 0.0050417 0.037743 -0.0092046 -0.0042868 -0.001836 0.0019372
0.0010124 0.0018781 0.0027604 -0.0015987
0.0051242 0.037673 -0.26181 0.30943 0.027873 0.02196 0.0014135 0.0012104
0.0072175 -9.8299e-05 0.0039003 -0.0027562
-0.0093004 -0.0043283 0.027993 0.021894 0.066114 0.3158 0.0018598 -2.7369e-05
0.0012975 -0.00012604 0.00091646 -0.0012316
-0.001832 0.0018446 0.0015765 0.0010653 0.0017716 -1.4663e-05 -0.11615 0.25749
-0.011032 0.031318 0.0039866 -0.0065459
0.00098778 0.0018701 0.0074716 -0.00029656 0.0013436 -0.00010795 -0.010968 0.031403
-0.14678 0.14291 -0.002472 0.027732
0.0028447 -0.0015047 0.0040595 -0.0031875 0.0011877 -0.0012356 0.0036911 -0.0065307
-0.003237 0.027815 -0.21019 0.1919
980000000 -0.051914 0.28962 0.017313 0.03 -0.0089752 0.0046408 0.0021657 0.0035255
0.0038167 -0.0011839 -0.0034753 -0.002203
0.017319 0.029956 -0.20882 0.34332 0.032817 0.0049876 0.0021883 1.3356e-05
0.0017439 -0.0058658 -0.00042141 -0.0020922
-0.0089439 0.0046841 0.032837 0.0048641 0.11217 0.30918 0.00053236 -0.0011689
0.00037055 -0.0019876 0.0015518 -0.00018798
0.0021001 0.0033738 0.0020859 1.0858e-05 0.00057188 -0.0011584 -0.077566 0.26879
0.0077188 0.030527 -0.0094733 -0.0077417
0.0038422 -0.0012629 0.0015931 -0.0057946 0.00041861 -0.0019859 0.0079467 0.030457
-0.11552 0.17233 0.0045025 0.020059
-0.0034089 -0.0020069 -0.000633 -0.0021342 0.0015409 -0.00020128 -0.0093769 -0.0075705
0.0042461 0.019837 -0.16592 0.24036
1040000000 -0.0096118 0.29818 0.032937 0.018315 -0.0012126 0.0069068 0.0025521 0.00072679
0.00023744 -0.0037905 -0.00019597 -0.0014328
0.032973 0.018297 -0.17345 0.35601 0.029218 -0.014619 0.0014423 -0.0016344
-0.0023922 -0.0023659 -0.0015804 -0.0024243
-0.0011861 0.0069048 0.029178 -0.014762 0.15795 0.29545 -0.00044162 -0.0015357
-0.0014617 -0.00093284 -0.00051241 -0.0010781
0.0025637 0.0006527 0.0014246 -0.0016993 -0.00042241 -0.0015221 -0.050349 0.27876
0.01947 0.018549 -0.0021023 0.0015131
9.5392e-05 -0.0037169 -0.0025196 -0.0024983 -0.0014502 -0.00088129 0.019511 0.018539
-0.083262 0.18073 0.013077 0.019874
-0.00023345 -0.001677 -0.0013432 -0.0026914 -0.00052404 -0.0010806 -0.0020897 0.0013302
0.012902 0.019668 -0.1473 0.26146
1100000000 0.035732 0.30603 0.035574 -0.0039803 0.0029337 0.0038891 0.0023386 -0.0013153
-0.0018649 -0.0032552 -0.0038865 -0.00011232
0.035538 -0.0039708 -0.13006 0.37323 0.015112 -0.027496 -3.5338e-05 -0.0018276
-0.00326 -0.00092859 -0.003182 -0.00058763
0.0029327 0.003826 0.015075 -0.027571 0.20408 0.27538 -0.0018728 0.00014785
-0.001786 0.00038503 -0.00095271 -0.00048378
0.0023544 -0.0013902 -1.5717e-05 -0.0017585 -0.0019092 0.00013924 -0.0099736 0.28398
0.024942 0.0056949 -0.0025283 2.9018e-05
-0.001943 -0.0032133 -0.0033761 -0.0010189 -0.0017874 0.00029943 0.024959 0.0056816
-0.066116 0.19425 0.019127 0.0095338
-0.0039656 -0.00012941 -0.0035269 -0.00060978 -0.00097249 -0.00041477 -0.0026769 0.00014541
0.019002 0.0095546 -0.10125 0.29377
1160000000 0.087333 0.30085 0.023855 -0.020401 0.0027347 -0.00053342 -0.0003086 -0.0023567
-0.0041878 -0.00078789 -0.00095551 0.0038184
0.023841 -0.020364 -0.086401 0.3772 -0.0035161 -0.028949 -0.0016573 -0.001668
-0.0029308 0.0023159 -0.0013726 0.001848
0.0027309 -0.00052929 -0.003652 -0.028917 0.24705 0.24484 -0.00074696 0.0017112
-0.00068201 0.0019281 -0.00095948 0.00010822
-0.00025478 -0.0023427 -0.0016827 -0.0016952 -0.00073213 0.0017149 0.029227 0.28104
0.021798 -0.01029 -0.0030596 0.0051707
-0.0042503 -0.00086508 -0.0028268 0.0023444 -0.00072974 0.001857 0.02171 -0.010412
-0.031848 0.20335 0.01858 0.0013421
-0.00075501 0.0042925 -0.0013206 0.0017577 -0.0010006 0.00014095 -0.0029313 0.0052839
0.01843 0.0015735 -0.054327 0.29692
1220000000 0.13161 0.28953 0.010638 -0.029648 -0.0015354 -0.0008883 -3.6144e-05 -0.00078371
-0.0027251 0.0024131 0.0013613 0.0020112
0.010648 -0.029633 -0.04225 0.38931 -0.016479 -0.021093 -0.0024898 0.00040745
-0.00010049 0.0029078 -0.00086526 0.0018422
-0.0014962 -0.00086355 -0.016631 -0.02102 0.28624 0.20619 0.00070825 0.0016743
0.00051465 0.0012257 0.00028736 0.00075864
-2.1943e-05 -0.00082443 -0.0024495 0.00050613 0.0007686 0.0016452 0.068908 0.27289
0.011122 -0.017099 0.0021471 0.0014972
-0.0026714 0.0024014 -2.811e-05 0.0029726 0.00055456 0.001288 0.011046 -0.017132
-0.0097492 0.21246 0.014968 -0.012147
0.0013375 0.002038 -0.00085883 0.0019669 0.00021467 0.00065698 0.0021008 0.001386
0.015075 -0.012302 -0.023866 0.31639
1280000000 0.18109 0.2675 -0.0075033 -0.028246 -0.0017948 0.0023585 -0.00085589 -0.0019234
-0.00083512 0.0030528 0.002212 0.0013342
-0.0074859 -0.02821 0.0033114 0.38044 -0.023364 -0.0086654 -0.00096222 0.0014428
0.0015143 0.0018591 0.00050824 0.0020706
-0.001747 0.0023687 -0.02343 -0.0085281 0.31708 0.16247 0.001531 8.1946e-05
0.0010464 0.00038878 0.00040017 0.00027989
-0.00087614 -0.0019127 -0.00097787 0.0013909 0.0015355 9.5669e-05 0.10577 0.25659
0.0017499 -0.019434 -6.8531e-05 -8.3392e-05
-0.00076456 0.0029956 0.0015773 0.0018092 0.0010907 0.00032728 0.0017649 -0.019488
0.026603 0.21624 0.0040339 -0.014861
0.0023469 0.001158 0.00055946 0.0020059 0.00047324 0.00042579 -0.00014743 5.3997e-06
0.0039147 -0.014652 0.024879 0.31971
1340000000 0.21799 0.23374 -0.017143 -0.018996 0.00084105 0.0043933 -0.0016711 -0.00085954
0.0014018 0.0027644 0.0017869 -0.0012938
-0.01712 -0.018997 0.042657 0.37243 -0.021425 0.0038881 -0.00020297 0.0019861
0.0018895 0.00093389 0.001188 0.00077961
0.00079879 0.0043897 -0.021434 0.0040036 0.33957 0.11441 0.0011303 -0.0008481
0.00070938 -0.00037076 7.6705e-05 0.00025569
-0.0016779 -0.0008208 -0.00018721 0.0019813 0.0011195 -0.00084707 0.13841 0.23656
-0.007852 -0.016967 0.00087689 0.00026815
0.0014018 0.0026932 0.0018858 0.0009261 0.00062865 -0.00043841 -0.0078761 -0.017007
0.055769 0.21173 -0.0027533 -0.013625
0.0016909 -0.0013727 0.0011927 0.00072847 0.00016923 0.0002096 0.0010242 0.00032811
-0.0027125 -0.013488 0.062955 0.31705
1400000000 0.25072 0.19561 -0.022996 -0.0077799 0.0050304 0.0030611 -0.0020329 0.00052958
0.0023431 0.00090185 0.00031795 -0.0014804
-0.022962 -0.0077777 0.079909 0.35965 -0.014882 0.012025 0.0012972 0.0013958
0.0012628 -0.00074134 0.0012763 0.00017528
0.0050811 0.0030625 -0.014818 0.012144 0.35295 0.060673 0.00020056 -0.0016817
0.00012603 -0.00041208 0.00048808 0.00015865
-0.002017 0.0005602 0.0012796 0.0013528 0.0001992 -0.0016792 0.1677 0.20817
-0.014095 -0.010643 -0.0010063 -0.00048701
0.0024053 0.00085912 0.0012856 -0.00071222 9.2362e-05 -0.00036622 -0.014132 -0.010657
0.087691 0.20815 -0.00917 -0.0094497
0.00036506 -0.001438 0.0012315 0.00012157 0.00033947 0.0001507 -0.0011366 -0.00057692
-0.0091186 -0.0093926 0.109 0.30786
1460000000 0.27348 0.15192 -0.020314 0.0042387 0.0054825 -0.0017536 -0.0016441 0.0016193
0.0020402 -0.00040439 -0.00033552 -0.0010985
-0.020281 0.0042206 0.1143 0.33814 -0.0063996 0.01505 0.00174 0.00018642
0.00097894 -0.0012659 0.0011654 -0.00067673
0.0054364 -0.0017711 -0.0063161 0.015139 0.35884 0.0059869 -0.0011968 -0.0013812
9.1478e-05 -0.0003794 0.00055599 -0.00041456
-0.0016762 0.0016536 0.001736 0.0001884 -0.001195 -0.0013385 0.1941 0.17928
-0.015725 -0.0041954 -0.0011428 0.0022127
0.002009 -0.00041306 0.00097077 -0.0012923 0.00017186 -0.00044863 -0.015719 -0.0041397
0.11632 0.19377 -0.011426 -0.0035958
-0.00032613 -0.00098073 0.0012673 -0.00062927 0.00061282 -0.00034308 -0.001215 0.002236
-0.011427 -0.0037033 0.1436 0.28784
1520000000 0.28548 0.11022 -0.014931 0.0098077 0.0031576 -0.0040275 4.3273e-05 0.0026245
0.0021443 -0.0015301 -0.0010885 -0.0001666
-0.014932 0.0097896 0.14805 0.32337 0.0012471 0.013108 0.0016956 -0.00074237
0.00010658 -0.0011373 0.00037254 -0.00097036
0.0031681 -0.0040824 0.0013088 0.013113 0.35205 -0.050523 -0.0011947 -0.00037845
0.00058418 -0.00087347 -5.5608e-05 -0.0001173
7.6945e-05 0.0026031 0.0016954 -0.00078731 -0.0012121 -0.00037553 0.21745 0.14174
-0.015709 0.0017712 0.0012739 0.0021797
0.002103 -0.0014885 9.1555e-05 -0.0011324 0.00059203 -0.00080427 -0.015726 0.0018258
0.14336 0.18075 -0.011817 0.00078919
-0.0010379 -0.00014443 0.00031856 -0.001042 -3.0847e-05 -7.912e-05 0.0014412 0.0020952
-0.011813 0.00082384 0.17799 0.26883
1580000000 0.29494 0.064395 -0.0085042 0.013155 -0.00092875 -0.0047858 0.0013604 0.0019201
-0.00014526 -0.0021515 -0.00041413 0.00045162
-0.0084796 0.013149 0.17553 0.29858 0.0049038 0.0084107 0.00052091 -0.0016034
-0.0006397 -0.0011342 -0.0002343 -0.0008162
-0.00098604 -0.004725 0.0049442 0.0084088 0.33138 -0.10804 -0.0017568 0.00061172
-0.0002198 -0.0011161 0.00020151 -0.00056354
0.0013571 0.001935 0.00050078 -0.0016041 -0.0017293 0.00062702 0.23149 0.10303
-0.012667 0.0072043 0.0022255 0.0010032
-5.135e-05 -0.0021173 -0.00062485 -0.0011227 -0.00020687 -0.0011547 -0.012653 0.0072476
0.16737 0.16385 -0.0095544 0.0068117
-0.00037102 0.00042564 -0.00021911 -0.00077008 0.00012666 -0.0005333 0.0022592 0.0010158
-0.0094967 0.0067416 0.21157 0.24242
1640000000 0.29724 0.022978 -0.0018078 0.012414 -0.0025463 -0.0024202 0.0027961 0.0010745
-0.00050133 -0.0015492 -0.00031822 0.00068463
-0.0018112 0.012399 0.20535 0.27341 0.00586 0.0037725 -0.00064191 -0.0017609
-0.001089 -0.00039954 -0.00052356 -0.00069471
-0.0025478 -0.0024366 0.0058752 0.0037434 0.30312 -0.15741 -0.00060895 0.0015593
-0.00093957 -0.0010722 -0.00014924 -0.00033926
0.0027937 0.0010659 -0.00066008 -0.0017791 -0.00065677 0.001548 0.24441 0.054811
-0.0084379 0.0091727 0.0026039 -0.0005663
-0.0005274 -0.0015567 -0.0011006 -0.00038722 -0.0010409 -0.0010627 -0.0084333 0.0092172
0.18953 0.14055 -0.0052467 0.0090434
-0.00029091 0.00067437 -0.00049455 -0.00070699 -0.000101 -0.0004057 0.0025633 -0.00047588
-0.0052115 0.0089717 0.23807 0.21154
1700000000 0.28996 -0.022611 0.0017337 0.0097741 -0.0033218 5.2171e-05 0.0031183 -0.0011682
-0.0019972 -0.00084534 0.00074983 0.00047312
0.001718 0.0097671 0.22353 0.24156 0.0039581 0.00088777 -0.0014692 -0.0005826
-0.00081962 0.0001477 -0.00088176 -0.00046116
-0.0033129 7.3666e-05 0.0039451 0.0008563 0.25901 -0.19705 0.00056854 0.0017451
-0.0020374 -0.00032035 -0.00040389 -0.00093166
0.0031415 -0.0012253 -0.001431 -0.00060449 0.00059031 0.0017411 0.24191 0.0053482
-0.0053629 0.010415 0.0017528 -0.0021922
-0.0019502 -0.00087887 -0.00078414 0.00017082 -0.0020153 -0.00033628 -0.0053551 0.010403
0.2068 0.12137 -0.00057642 0.0096969
0.00071791 0.00048076 -0.00088078 -0.00043566 -0.00038597 -0.00080337 0.0017362 -0.0021872
-0.00051723 0.0096626 0.25544 0.17734
1760000000 0.27769 -0.071358 0.0042791 0.006597 -0.0022585 0.00089737 0.0013341 -0.00346
-0.0014339 0.00058668 0.00042459 -0.00056658
0.0042827 0.0065857 0.24942 0.20137 0.0017407 -0.0009273 -0.001183 0.0001591
-0.00094053 0.0010043 -0.00058731 0.00043471
-0.0022528 0.00088822 0.0017248 -0.00097766 0.21018 -0.22993 0.0012229 0.00093477
-0.0012393 0.0014383 -0.0012632 -0.00045131
0.0012538 -0.0034067 -0.0012465 0.00016582 0.0012725 0.00095813 0.23347 -0.04591
-0.0013483 0.0099293 -0.00022641 -0.0024796
-0.0015486 0.00055703 -0.00094933 0.00094653 -0.0012491 0.001482 -0.001327 0.0098841
0.22189 0.087327 0.0034771 0.0072051
0.00037444 -0.00054895 -0.00058995 0.00037763 -0.0012306 -0.00057664 -0.00015225 -0.0024361
0.0034824 0.0072608 0.26827 0.13962
1820000000 0.25262 -0.1088 0.0046575 0.0029435 -2.2262e-05 0.0022792 -0.0011097 -0.0030364
-0.001319 0.00089456 -9.8718e-05 -0.00022491
0.0046557 0.002944 0.25917 0.17097 -0.00011057 -2.7648e-05 -0.0013306 0.00094371
9.807e-05 0.0012352 -0.0005019 0.00050022
-9.6973e-06 0.002296 -6.8769e-05 -4.8686e-05 0.16028 -0.2454 0.0014937 0.00024467
-0.00024365 0.0023671 -0.0011767 0.00039689
-0.0010648 -0.0030599 -0.0013249 0.00096421 0.001532 0.00034529 0.20438 -0.093218
0.0007822 0.0082547 -0.0015904 -0.0016434
-0.001299 0.0010356 7.9575e-05 0.0013061 -0.00021135 0.0024287 0.00083074 0.0083121
0.23943 0.059128 0.0046551 0.00394
-0.00011036 -0.00016117 -0.00049622 0.00058061 -0.0011071 0.00042724 -0.0015183 -0.0014833
0.004672 0.003902 0.27182 0.10399
1880000000 0.21728 -0.14917 0.0026734 0.00050569 -0.00030721 0.0020078 -0.0029661 -0.002249
-0.00018949 0.0017876 0.00020783 -0.00060248
0.0026799 0.00050983 0.26325 0.12429 -0.0021669 0.0016293 -0.00018191 0.0017056
0.00058398 0.0011329 2.1318e-05 0.00090357
-0.00036929 0.0020653 -0.0021402 0.0016966 0.10789 -0.25485 0.0017141 -0.00086902
0.0013859 0.0020964 -0.00099009 0.0011391
-0.0029546 -0.0023137 -0.00017678 0.0016306 0.0016203 -0.00087418 0.16442 -0.13423
0.0022417 0.005957 -0.0022755 0.00035813
-0.00021084 0.0018656 0.00060486 0.0010998 0.0013695 0.0019816 0.0022028 0.0058732
0.24273 0.027434 0.004945 0.0018703
0.00018257 -0.00053129 3.0057e-05 0.00096256 -0.0010522 0.0013712 -0.0023179 0.00021068
0.0049996 0.0019617 0.27195 0.069607
1940000000 0.17761 -0.1747 0.00040795 -0.0013493 0.0013208 0.0019125 -0.0037916 0.00038685
0.0013999 0.00112 -0.00084473 -0.00054219
0.00045969 -0.0013607 0.26337 0.092363 -0.0010774 0.0037857 0.00093217 0.0013259
0.0017316 0.00036177 0.00071811 0.00026456
0.0013146 0.0019408 -0.0010968 0.0037406 0.061984 -0.24794 0.00022962 -0.0020904
0.0024517 0.00041724 2.7353e-05 0.0016992
-0.0038153 0.00040855 0.00098151 0.001343 0.00026357 -0.0020404 0.11228 -0.16502
0.0014841 0.0040088 -0.0014968 0.0015225
0.0014503 0.0010809 0.0016494 0.00038966 0.0023697 0.00047601 0.0014942 0.0040532
0.24563 -0.011342 0.0039714 -0.0017215
-0.00078614 -0.00057767 0.00073278 0.00031896 0.00010564 0.0016804 -0.0015213 0.0015455
0.0039215 -0.0016771 0.26168 0.03424
2000000000 0.13091 -0.18919 -0.0034912 0.0004991 0.0023851 0.0016343 -0.0024053 0.0035193
0.0011409 -7.9308e-06 -0.00051961 0.00031383
-0.0035056 0.00050761 0.24875 0.056907 -0.00093855 0.0056168 0.0015824 0.00035132
0.0011765 -0.0014693 0.0006485 0.00018174
0.0023996 0.0016072 -0.0009211 0.005628 0.018604 -0.23324 -0.0012144 -0.0013686
0.0020566 -0.0012791 0.0017399 0.0014226
-0.0023087 0.0034366 0.0016381 0.0003177 -0.0012486 -0.0014681 0.058469 -0.17541
-0.00024497 0.0032686 -1.3535e-05 0.0021417
0.001224 0.00010784 0.0012816 -0.0013529 0.0021398 -0.0013411 -0.00012247 0.0032565
0.24009 -0.045464 0.00098529 -0.0025151
