!Keysight Technologies,M9804A,MY58100912,A.14.10.03
!Date: Thursday, April 27, 2023 10:28:33
!Correction: S11(C  6-Port  ) 
!S12(C  6-Port  ) 
!S13(C  6-Port  ) 
!S14(C  6-Port  ) 
!S15(C  6-Port  ) 
!S16(C  6-Port  ) 
!S21(C  6-Port  ) 
!S22(C  6-Port  ) 
!S23(C  6-Port  ) 
!S24(C  6-Port  ) 
!S25(C  6-Port  ) 
!S26(C  6-Port  ) 
!S31(C  6-Port  ) 
!S32(C  6-Port  ) 
!S33(C  6-Port  ) 
!S34(C  6-Port  ) 
!S35(C  6-Port  ) 
!S36(C  6-Port  ) 
!S41(C  6-Port  ) 
!S42(C  6-Port  ) 
!S43(C  6-Port  ) 
!S44(C  6-Port  ) 
!S45(C  6-Port  ) 
!S46(C  6-Port  ) 
!S51(C  6-Port  ) 
!S52(C  6-Port  ) 
!S53(C  6-Port  ) 
!S54(C  6-Port  ) 
!S55(C  6-Port  ) 
!S56(C  6-Port  ) 
!S61(C  6-Port  ) 
!S62(C  6-Port  ) 
!S63(C  6-Port  ) 
!S64(C  6-Port  ) 
!S65(C  6-Port  ) 
!S66(C  6-Port  ) 
!S6P File: Measurement: :
# Hz S  RI   R 50
500000000 -0.33914 -0.023385 -0.010321 -0.0031008 -0.0078766 0.012353 -0.0035018 0.012137
0.012153 0.0039586 -0.0030796 0.008428
-0.010293 -0.0031015 -0.41956 -0.041397 0.0067503 -0.011652 0.0017394 0.012261
0.0075218 0.0020062 0.0021396 0.013299
-0.0078613 0.012345 0.0067355 -0.011672 -0.26349 0.21906 0.0070517 0.0035977
-0.00094823 0.0075954 0.0019808 0.01171
-0.0034964 0.012136 0.0017768 0.012285 0.0070554 0.0035994 -0.33269 0.05686
-0.019083 -0.0065925 0.014724 0.023899
0.012162 0.0039492 0.0075236 0.0019967 -0.00095545 0.0076007 -0.019077 -0.00658
-0.23243 -0.17149 -0.024237 0.0051282
-0.0030706 0.0084527 0.0021816 0.013322 0.0019778 0.011693 0.014727 0.023875
-0.024242 0.0051225 -0.28189 -0.094813
560000000 -0.31344 0.13404 -0.025592 -0.061709 0.00071544 0.011534 0.0046761 0.0098874
0.0094569 0.0040347 0.009683 0.0067564
-0.025533 -0.061665 -0.37352 0.11497 -0.04195 -0.034756 0.013459 0.0038335
-0.012633 -0.0032591 0.0026835 -0.0010727
0.00074332 0.011519 -0.042091 -0.034698 -0.18121 0.26418 -0.00061918 -0.0043859
0.018051 0.0035305 0.0065313 -0.0068626
0.004718 0.0098797 0.013465 0.003796 -0.00063201 -0.0043899 -0.30551 0.14507
0.0011658 -0.024188 0.0032046 -0.019288
0.0094485 0.0040303 -0.012723 -0.0032154 0.018065 0.0034971 0.0011725 -0.024175
-0.28728 0.0002285 0.005748 -0.047923
0.0096882 0.0067349 0.0026634 -0.0010436 0.006536 -0.0068671 0.0032106 -0.019289
0.0057842 -0.047934 -0.32978 0.046303
620000000 -0.27133 0.11831 -0.023362 0.007055 0.0034719 0.0078326 0.0076413 -0.0051854
0.010574 -0.0015285 0.00079391 -0.0022701
-0.023333 0.0070414 -0.40136 0.06828 -0.019195 0.00018271 -0.0014037 -0.0015704
0.010446 -0.0071997 0.00099663 -0.0027506
0.0034931 0.0078105 -0.019214 0.00022673 -0.15051 0.27357 -0.001288 -0.0044856
-0.003429 -0.0029746 0.0076035 -0.0032432
0.0076604 -0.0052354 -0.0014186 -0.0015656 -0.001308 -0.0044811 -0.26364 0.15581
-0.040471 -0.016348 0.012409 0.024497
0.0106 -0.0015095 0.010446 -0.0072471 -0.0034257 -0.0029672 -0.040483 -0.016323
-0.209 -0.040786 -0.039753 0.014426
0.00078584 -0.0022522 0.0010179 -0.0027404 0.0075644 -0.0032496 0.012387 0.024474
-0.039768 0.014414 -0.25531 0.016293
680000000 -0.22856 0.20156 -0.027513 -0.013212 0.0051947 0.0046004 0.0010826 -0.0069713
-0.0030876 -0.010665 0.0040792 -0.0062836
-0.027484 -0.013222 -0.38548 0.16395 -0.03227 -0.00014077 -0.0015777 -0.00046147
-0.0023748 -0.0088487 -0.0017788 -0.0021645
0.0052031 0.0045919 -0.032302 -6.2354e-05 -0.099742 0.29288 -0.00098904 -0.00026691
-0.0018029 0.00030932 -0.0034872 -0.0086459
0.001076 -0.0069621 -0.0015789 -0.00046469 -0.00098317 -0.00026592 -0.218 0.20621
-0.026012 -0.0053686 -0.0088326 -0.0090211
-0.0031116 -0.010657 -0.0024069 -0.0088463 -0.0017935 0.00030601 -0.026039 -0.0053256
-0.25206 0.060343 -0.0068617 -0.0077088
0.0040615 -0.0062972 -0.0017784 -0.002149 -0.003477 -0.0086564 -0.0088322 -0.0090143
-0.0068507 -0.0077108 -0.25547 0.1155
740000000 -0.1854 0.19577 -0.037401 0.026155 0.011925 -0.0056021 -0.00076478 -0.0043536
-0.0044716 -0.002953 -0.00589 0.003286
-0.037395 0.026134 -0.33344 0.1833 -0.033415 0.034831 -0.00070736 -0.0062144
-0.011282 0.0079179 -0.0017655 -0.0055192
0.011921 -0.0056221 -0.033347 0.034937 -0.065653 0.29193 -0.0017746 0.0031601
-0.0029126 -0.0042888 -0.0017656 0.00097384
-0.00077513 -0.004361 -0.00072797 -0.0062284 -0.0017817 0.0031612 -0.20028 0.21388
-0.042614 -0.0040335 0.022254 0.013248
-0.0044618 -0.0029435 -0.01127 0.0080048 -0.0029155 -0.0042897 -0.042637 -0.0039733
-0.15788 0.081153 -0.039899 0.0032693
-0.0058899 0.0033216 -0.0017797 -0.0055279 -0.0017681 0.00097233 0.022252 0.013216
-0.039908 0.0032429 -0.24449 0.12353
800000000 -0.15305 0.23446 -0.022107 0.017347 0.0044515 -0.010264 -0.004643 -0.0017831
-0.0036013 0.0025411 0.0035755 0.00063799
-0.022115 0.017318 -0.3355 0.25251 -0.0070539 0.03361 -0.0024518 0.0022633
-0.00036617 0.0029984 0.0009924 0.0050106
0.0044291 -0.010277 -0.0069702 0.033655 -0.023955 0.31436 0.00082489 0.0015799
0.00031681 0.0035129 -0.0018552 0.0010053
-0.0046596 -0.001784 -0.0024573 0.0022824 0.0008231 0.001585 -0.17077 0.24065
-0.027201 0.016152 0.01256 -0.0098471
-0.0035858 0.0025524 -0.00035648 0.002998 0.00032981 0.0035228 -0.027192 0.016216
-0.19778 0.10851 -0.016555 0.01835
0.003578 0.00063602 0.0010237 0.0050128 -0.0018495 0.0010142 0.012559 -0.009867
-0.016566 0.018329 -0.23441 0.17046
860000000 -0.11763 0.25491 -0.016489 0.031193 -0.0038789 -0.009217 -0.0023387 0.0010024
0.0039571 0.0043013 -0.0029047 -0.0027226
-0.016516 0.03116 -0.28738 0.29464 0.0087553 0.033267 0.00019988 0.0021327
0.0040379 -1.5691e-05 0.0030025 0.00049287
-0.0039135 -0.0092136 0.0088745 0.033273 0.025501 0.32161 -0.00043927 -0.00020007
0.0025173 -0.0012936 0.0014367 0.0042848
-0.0023309 0.0010308 0.0002113 0.0021438 -0.0004384 -0.00019728 -0.13287 0.25122
-0.015183 0.020272 -0.0060291 -0.0090679
0.0039884 0.0042926 0.0040379 -1.9032e-05 0.002531 -0.0012923 -0.015162 0.020295
-0.1457 0.15582 -0.022556 0.015935
-0.0029316 -0.0027293 0.003013 0.00048151 0.0014463 0.0042883 -0.0060415 -0.0090637
-0.022571 0.015902 -0.18363 0.21173
920000000 -0.091319 0.27661 0.0059647 0.037415 -0.0092583 -0.0035796 -0.0015449 0.0018982
0.0013775 0.0015824 0.0026096 -0.001852
0.0059085 0.037395 -0.25758 0.31454 0.027959 0.020641 0.0018585 0.00091945
0.0066825 -0.00051546 0.0035783 -0.0029121
-0.0092774 -0.0035514 0.028065 0.020583 0.07231 0.32087 0.0019627 -0.0001231
0.0015052 -0.00047353 0.00084099 -0.0010278
-0.0015511 0.0019034 0.0018748 0.0009193 0.0019602 -0.00011649 -0.10757 0.26647
-0.0077047 0.030991 0.0026162 -0.006433
0.001413 0.0015874 0.0066798 -0.00055086 0.0015118 -0.00047805 -0.0076517 0.031014
-0.13316 0.161 -0.00084013 0.026315
0.0025921 -0.0018726 0.0035653 -0.0029049 0.00083015 -0.0010386 0.0026113 -0.0064253
-0.00086192 0.026296 -0.1861 0.22617
980000000 -0.043824 0.29531 0.018428 0.029068 -0.0081908 0.0048689 0.002155 0.0032524
0.0039909 -0.0015392 -0.0031627 -0.0020425
0.018358 0.029039 -0.20496 0.34809 0.032291 0.003636 0.0020573 -0.00027278
0.0014545 -0.0059508 -0.00048905 -0.0022875
-0.0081852 0.0048841 0.032339 0.0035545 0.11889 0.31349 0.00053843 -0.0013094
0.00015605 -0.0022376 0.0015004 -0.00019099
0.0021637 0.0032456 0.0020667 -0.00026902 0.0005333 -0.0013105 -0.068566 0.27694
0.010182 0.028476 -0.0086668 -0.0063719
0.0040172 -0.0015587 0.0014139 -0.0059897 0.0001701 -0.002239 0.010241 0.028459
-0.10072 0.18688 0.0059104 0.0184
-0.0031447 -0.0020357 -0.00051785 -0.0022842 0.0014962 -0.00018494 -0.0086724 -0.006364
0.0058951 0.018395 -0.14161 0.26708
1040000000 -0.00042281 0.30201 0.033098 0.016349 -0.00077163 0.0066213 0.0024899 0.00057088
0.00016475 -0.0032298 -0.00061101 -0.0011143
0.033024 0.016363 -0.1686 0.36046 0.027884 -0.015255 0.0014802 -0.0018197
-0.0021667 -0.0022974 -0.0014257 -0.0025083
-0.00075851 0.0066053 0.027878 -0.015357 0.16553 0.29822 -0.00055393 -0.0015002
-0.0016308 -0.0009049 -0.00033563 -0.0010481
0.0024876 0.00055825 0.001507 -0.0018152 -0.00055187 -0.0014933 -0.03964 0.28539
0.020625 0.015999 -0.0024181 0.0013875
0.00015416 -0.003243 -0.0021995 -0.0022829 -0.0016377 -0.00090046 0.02067 0.01597
-0.068124 0.19307 0.013502 0.016506
-0.00060472 -0.001123 -0.0014563 -0.0024923 -0.00034065 -0.0010429 -0.0024144 0.001385
0.013485 0.016496 -0.11704 0.28638
1100000000 0.044591 0.30847 0.034705 -0.0053647 0.0029419 0.0034831 0.0022018 -0.0011816
-0.0018613 -0.0029638 -0.0036094 0.00025882
0.034657 -0.005332 -0.1255 0.37704 0.01384 -0.027163 -0.000116 -0.0017895
-0.0031093 -0.00071623 -0.0032474 -0.0003502
0.0029499 0.0034791 0.013763 -0.02725 0.21115 0.27666 -0.00183 0.00021629
-0.0017798 0.00051681 -0.00096619 -0.00027763
0.0022023 -0.0011895 -0.00012118 -0.0017926 -0.0018259 0.000216 0.0010704 0.28859
0.024747 0.0029272 -0.002374 6.46e-05
-0.0018866 -0.002956 -0.0031178 -0.00070637 -0.0017857 0.00051552 0.024755 0.0028917
-0.049864 0.20554 0.018233 0.006674
-0.0036046 0.00026826 -0.0032592 -0.00033467 -0.00097313 -0.00027645 -0.002383 6.28e-05
0.018223 0.0066801 -0.071166 0.31174
1160000000 0.096292 0.3024 0.022494 -0.021046 0.0024638 -0.00060166 -0.00018535 -0.0021512
-0.003845 -0.0006236 -0.00075322 0.0037504
0.022478 -0.020996 -0.080739 0.38067 -0.0042864 -0.027904 -0.001656 -0.0015426
-0.0024955 0.0024528 -0.0014027 0.0015886
0.0024701 -0.00062187 -0.0043952 -0.027904 0.25423 0.24496 -0.0007447 0.0017238
-0.00050537 0.0018168 -0.00088927 0.00010409
-0.00018113 -0.0021606 -0.0016657 -0.0015217 -0.00075245 0.0017215 0.041032 0.28364
0.020131 -0.012062 -0.0029871 0.0046013
-0.0038535 -0.00059991 -0.0024953 0.0024594 -0.00049281 0.0018295 0.020125 -0.012092
-0.015936 0.21292 0.016572 -0.0007873
-0.00074856 0.0037522 -0.0014063 0.0016002 -0.00089083 9.7653e-05 -0.0029771 0.0046012
0.016574 -0.00078912 -0.023318 0.31312
1220000000 0.14054 0.28915 0.009043 -0.029314 -0.0015505 -0.00062058 3.5194e-05 -0.00089262
-0.0023432 0.0023407 0.0012548 0.0017715
0.0090438 -0.029276 -0.036973 0.39118 -0.016596 -0.01989 -0.002402 0.00041624
2.8293e-05 0.0028126 -0.00062052 0.001902
-0.0015551 -0.00061994 -0.016698 -0.019835 0.29259 0.20477 0.00072921 0.0016853
0.00060669 0.0011815 0.00028131 0.00061239
3.6175e-05 -0.000895 -0.0024017 0.00042476 0.00073557 0.0016802 0.080539 0.27271
0.0095185 -0.018104 0.0016906 0.0013285
-0.0023171 0.0023759 4.0366e-05 0.002814 0.00061172 0.0011763 0.0094925 -0.018113
0.0077335 0.21938 0.011986 -0.012764
0.0012584 0.0017623 -0.00062422 0.001914 0.00027871 0.00061181 0.001684 0.0013294
0.011986 -0.012758 0.0089506 0.32583
1280000000 0.18925 0.26616 -0.0085047 -0.027181 -0.0016214 0.0025757 -0.00095873 -0.0019525
-0.0006134 0.0028661 0.0023179 0.000898
-0.0084657 -0.027162 0.0086897 0.38196 -0.022795 -0.0078402 -0.00097327 0.001376
0.0015021 0.001713 0.00059212 0.0017629
-0.0016131 0.0025888 -0.022859 -0.0077464 0.32269 0.1608 0.0015117 5.9701e-05
0.0010497 0.0002275 0.0002962 0.00022808
-0.00095783 -0.0019404 -0.00096722 0.0013866 0.0015191 5.7943e-05 0.11651 0.25479
-3.2144e-05 -0.019611 -0.00039677 0.00039939
-0.00058262 0.0028672 0.0015045 0.0017084 0.001058 0.00022851 -6.3149e-05 -0.019621
0.043968 0.22169 0.0019158 -0.014294
0.0023171 0.00089247 0.00060595 0.0017631 0.0002924 0.00022775 -0.00039686 0.00039974
0.0019217 -0.014285 0.055234 0.3251
1340000000 0.22591 0.23083 -0.017457 -0.017729 0.0011075 0.0041142 -0.0016222 -0.00082534
0.0013625 0.0025385 0.0013513 -0.0013593
-0.017405 -0.017731 0.048009 0.37275 -0.020598 0.0042764 -0.00021406 0.0020038
0.0018594 0.00084919 0.0013037 0.00073136
0.0011241 0.0041174 -0.020593 0.0043728 0.34476 0.11185 0.0012006 -0.00087196
0.00064341 -0.00046031 0.00013163 0.00021857
-0.001626 -0.00081801 -0.00020143 0.0020066 0.0011999 -0.00086761 0.1481 0.23248
-0.009161 -0.016585 0.00068089 0.00084028
0.0013847 0.0025228 0.0018641 0.00083916 0.00064455 -0.00046361 -0.0091965 -0.016572
0.073755 0.21486 -0.0042844 -0.012623
0.0013543 -0.0013643 0.0013062 0.00072274 0.00013517 0.00021493 0.00068263 0.00083753
-0.0042768 -0.012626 0.094301 0.31749
1400000000 0.25729 0.19186 -0.022497 -0.0066468 0.0050482 0.0026754 -0.0020305 0.00049977
0.0022121 0.00075331 0.0001937 -0.0013015
-0.022461 -0.0066723 0.084414 0.3595 -0.014055 0.011847 0.0012738 0.0014185
0.0012091 -0.00065483 0.0011521 0.00010555
0.0050605 0.0026603 -0.014015 0.01194 0.35696 0.057735 0.00022123 -0.0018127
3.8953e-05 -0.00038038 0.00024386 0.00023236
-0.0020366 0.00050536 0.0012822 0.0014101 0.00022452 -0.0018106 0.17563 0.20257
-0.014964 -0.010059 -0.00057699 0.00016786
0.0021986 0.00073829 0.0012001 -0.00066823 4.0686e-05 -0.00038219 -0.014992 -0.010031
0.1051 0.20877 -0.0099894 -0.0077925
0.00018709 -0.0013077 0.0011549 9.906e-05 0.00024392 0.00023125 -0.00057648 0.00016647
-0.0099865 -0.0078129 0.13721 0.30429
1460000000 0.27945 0.14764 -0.019477 0.0047451 0.0052401 -0.0019794 -0.0016153 0.0015732
0.0018485 -0.00050236 -0.00028878 -0.00083252
-0.01945 0.0047182 0.11877 0.33763 -0.0060164 0.014492 0.0017842 0.00020065
0.00092773 -0.0012477 0.0011097 -0.00051049
0.0052355 -0.001999 -0.0059468 0.014545 0.3624 0.0029231 -0.0013931 -0.0013429
0.00019343 -0.00016128 0.00057005 -0.00031245
-0.0016131 0.0015795 0.0017798 0.00020218 -0.0013977 -0.0013495 0.20046 0.17291
-0.016387 -0.0033562 -0.00052789 0.0021796
0.0018389 -0.00051459 0.00092017 -0.0012598 0.0001927 -0.00016235 -0.016404 -0.0033101
0.13358 0.19319 -0.011181 -0.0024037
-0.00029699 -0.00084045 0.0011176 -0.00050767 0.00057601 -0.00031167 -0.00052446 0.0021782
-0.011189 -0.0024043 0.17002 0.28204
1520000000 0.29052 0.10498 -0.013913 0.0099305 0.0028827 -0.0039455 6.4329e-05 0.0025288
0.0019899 -0.0015208 -0.0010608 -0.00018655
-0.013915 0.0099046 0.15203 0.32215 0.0011626 0.012587 0.0017336 -0.00084911
7.3689e-05 -0.0012209 0.00028277 -0.00095337
0.002864 -0.0039605 0.0012347 0.012589 0.35441 -0.054441 -0.0014042 -0.00035158
0.0005155 -0.00086608 8.327e-06 -4.5927e-05
6.9425e-05 0.0025269 0.0017265 -0.00086041 -0.0013989 -0.00036205 0.22149 0.13465
-0.015894 0.0025762 0.0017147 0.0019682
0.0019701 -0.0015231 5.9671e-05 -0.0012303 0.00051908 -0.00086747 -0.015889 0.00261
0.16012 0.17745 -0.011076 0.0018077
-0.0010738 -0.00018275 0.00028074 -0.00095522 8.4476e-06 -4.2267e-05 0.0017239 0.0019637
-0.011081 0.001802 0.20226 0.25913
1580000000 0.29882 0.059055 -0.0077852 0.012717 -0.0010384 -0.0044671 0.0014462 0.0019567
-0.00010813 -0.002021 -0.00035586 0.00035519
-0.0077976 0.012691 0.17916 0.29743 0.004727 0.0081204 0.00050938 -0.0017034
-0.00058784 -0.0011257 -0.00024103 -0.00078387
-0.0010618 -0.0044675 0.0047573 0.0080972 0.3333 -0.11132 -0.0017244 0.00095424
-0.00022907 -0.0011221 0.00013124 -0.00055677
0.0014523 0.0019499 0.00049199 -0.0017111 -0.0017267 0.00095257 0.23378 0.096291
-0.012716 0.0079531 0.0023432 0.00051385
-0.0001163 -0.0020286 -0.0006082 -0.0011249 -0.00023321 -0.0011322 -0.012708 0.0079857
0.18299 0.159 -0.0089272 0.007011
-0.00035755 0.00036607 -0.00024088 -0.00078441 0.00013464 -0.00056108 0.0023447 0.0005033
-0.0089352 0.0070176 0.23264 0.23153
1640000000 0.30031 0.017086 -0.0015084 0.011702 -0.0026406 -0.0023641 0.0026799 0.00097721
-0.00057438 -0.0016001 -0.00026701 0.00067569
-0.0015332 0.011697 0.20888 0.27153 0.0054984 0.0037454 -0.00083364 -0.0017442
-0.0011572 -0.00034584 -0.00050957 -0.00055315
-0.0026615 -0.0023525 0.0055252 0.0037142 0.30427 -0.16049 -0.00053583 0.0016727
-0.0010852 -0.00083421 -0.00013397 -0.00015514
0.002691 0.00096485 -0.00084713 -0.0017383 -0.00053902 0.0016699 0.24501 0.048133
-0.0084196 0.010012 0.0025115 -0.0010185
-0.00057491 -0.0015986 -0.0011766 -0.00033047 -0.0010972 -0.00083284 -0.0084082 0.010039
0.20454 0.13365 -0.0045361 0.0088181
-0.0002651 0.00068694 -0.00050593 -0.00054808 -0.00013276 -0.0001571 0.0025072 -0.0010223
-0.0045414 0.008822 0.2576 0.1986
1700000000 0.29155 -0.028598 0.0017384 0.0091891 -0.003279 0.00028162 0.0029875 -0.0012606
-0.0019774 -0.00078809 0.00070089 0.00035826
0.0017232 0.0091935 0.22624 0.23961 0.0038423 0.00094865 -0.0015087 -0.00051712
-0.00082919 0.00029148 -0.00085891 -0.00039684
-0.0032691 0.00030295 0.0038587 0.00092563 0.26018 -0.19994 0.00077444 0.001595
-0.0018514 -0.00017563 -0.00057393 -0.00084124
0.0029836 -0.0012691 -0.0015096 -0.00051207 0.00076917 0.0015969 0.24073 -3.2548e-05
-0.0049075 0.011122 0.0014474 -0.0021656
-0.0019808 -0.00080379 -0.00083445 0.00029633 -0.0018517 -0.00017769 -0.0048845 0.011138
0.22 0.11307 -0.00017141 0.0092949
0.00071316 0.00036267 -0.00085933 -0.00039217 -0.00058157 -0.00084079 0.0014442 -0.002177
-0.00016994 0.0092902 0.27181 0.16312
1760000000 0.27858 -0.077086 0.0039945 0.0061312 -0.0020834 0.0009293 0.0011203 -0.0034125
-0.0015088 0.0005859 0.00048805 -0.00038007
0.0039803 0.0061318 0.2521 0.19921 0.0018094 -0.0010849 -0.0012406 0.00027183
-0.00091262 0.0010088 -0.00060821 0.00048144
-0.0020684 0.00093628 0.0018036 -0.0010987 0.21149 -0.2331 0.0012963 0.00072932
-0.0011286 0.0014575 -0.0012308 -0.00030244
0.0011102 -0.0034125 -0.0012328 0.000274 0.0013039 0.000729 0.23214 -0.049661
-0.00077556 0.010587 -0.00029079 -0.0024392
-0.0015014 0.00059281 -0.00090424 0.0010152 -0.0011292 0.0014563 -0.00075139 0.010595
0.23397 0.078007 0.0035255 0.0069074
0.00048637 -0.00039204 -0.0005995 0.00048628 -0.0012333 -0.00030321 -0.0002932 -0.002448
0.0035301 0.006901 0.28344 0.12521
1820000000 0.25233 -0.11446 0.0042865 0.0027035 0.0002577 0.0023765 -0.001098 -0.0029517
-0.0012102 0.0010868 -9.8159e-06 -8.4969e-05
0.0042806 0.0027 0.26109 0.16839 -0.00011157 5.237e-05 -0.0011677 0.0010734
0.00017854 0.0012741 -0.00046382 0.00051537
0.00026621 0.0023663 -0.00011 5.3143e-05 0.16012 -0.24864 0.0013216 0.00012444
-0.00012906 0.0022106 -0.0013095 0.00042704
-0.0011267 -0.002941 -0.0011645 0.0010802 0.0013255 0.00013642 0.20253 -0.095967
0.0015637 0.0087052 -0.0015597 -0.0014264
-0.001212 0.0011029 0.00019377 0.001273 -0.00013047 0.0022199 0.0015898 0.008703
0.24952 0.048363 0.0044855 0.00365
-1.3569e-05 -9.2526e-05 -0.00045706 0.00052206 -0.0013112 0.00042915 -0.0015703 -0.0014226
0.0044796 0.0036486 0.28411 0.087564
1880000000 0.2158 -0.15357 0.0021184 0.00048739 -0.00033098 0.0018641 -0.0029795 -0.0019671
-0.00019881 0.0018448 0.000305 -0.00055965
0.0021149 0.00049241 0.26472 0.12213 -0.0022511 0.0017121 -5.3948e-05 0.0016611
0.00069866 0.00097964 0.00016193 0.00092123
-0.0003151 0.001882 -0.0022346 0.0017242 0.10686 -0.25711 0.0014274 -0.001048
0.0016365 0.0017653 -0.00073738 0.0012277
-0.0029935 -0.0019526 -5.767e-05 0.0016589 0.00143 -0.0010462 0.16345 -0.13541
0.0030772 0.006116 -0.0020954 0.00029391
-0.00018485 0.0018571 0.00070051 0.00097385 0.0016379 0.0017617 0.0031026 0.0061132
0.25152 0.016189 0.0045366 0.0017954
0.00029062 -0.00056855 0.00017309 0.00092082 -0.00073541 0.0012411 -0.0020997 0.00029831
0.0045279 0.0017959 0.28232 0.054162
1940000000 0.17596 -0.17906 -1.3719e-05 -0.001128 0.0013918 0.0017206 -0.0035997 0.00060743
0.0016063 0.0010781 -0.00060779 -0.00069999
-1.0292e-05 -0.0011301 0.26476 0.090056 -0.00086242 0.003916 0.0010364 0.0011213
0.0016422 0.00027377 0.00082128 0.00034804
0.0013898 0.0017353 -0.00083415 0.0039243 0.062072 -0.24981 8.7557e-05 -0.0017814
0.0021613 0.00028641 0.00029847 0.0016291
-0.0036049 0.00063059 0.0010413 0.0011161 9.3769e-05 -0.0017746 0.11212 -0.16669
0.0025781 0.0039047 -0.0011715 0.0012189
0.0016206 0.001061 0.0016432 0.00025579 0.0021643 0.00028248 0.002599 0.0039009
0.25291 -0.023548 0.0036012 -0.001312
-0.00062053 -0.0006891 0.00082155 0.00034363 0.00029342 0.0016271 -0.0011617 0.0012278
0.003595 -0.0013065 0.27067 0.01702
2000000000 0.12845 -0.19265 -0.0037654 0.00083078 0.0024047 0.0014401 -0.0022407 0.0033062
0.0012647 8.7602e-05 -0.00064782 0.00029478
-0.0037601 0.00082676 0.24957 0.054682 -0.00064694 0.0054786 0.0014811 0.00022008
0.0010591 -0.0012854 0.00049946 9.6046e-05
0.0024245 0.0014237 -0.00060476 0.0054898 0.018191 -0.2351 -0.0011003 -0.00094349
0.0016725 -0.001132 0.001547 0.00108
-0.0022266 0.0033203 0.0014845 0.00020289 -0.0011088 -0.00094362 0.05823 -0.17739
0.00073558 0.0025694 -1.8292e-06 0.0019123
0.0012726 7.115e-05 0.0010507 -0.0013026 0.0016786 -0.0011414 0.00074269 0.00258
0.24563 -0.05794 0.00054974 -0.0024146
