!Keysight Technologies,M9804A,MY58100912,A.14.10.03
!Date: Thursday, April 27, 2023 10:28:33
!Correction: S11(C  6-Port  ) 
!S12(C  6-Port  ) 
!S13(C  6-Port  ) 
!S14(C  6-Port  ) 
!S15(C  6-Port  ) 
!S16(C  6-Port  ) 
!S21(C  6-Port  ) 
!S22(C  6-Port  ) 
!S23(C  6-Port  ) 
!S24(C  6-Port  ) 
!S25(C  6-Port  ) 
!S26(C  6-Port  ) 
!S31(C  6-Port  ) 
!S32(C  6-Port  ) 
!S33(C  6-Port  ) 
!S34(C  6-Port  ) 
!S35(C  6-Port  ) 
!S36(C  6-Port  ) 
!S41(C  6-Port  ) 
!S42(C  6-Port  ) 
!S43(C  6-Port  ) 
!S44(C  6-Port  ) 
!S45(C  6-Port  ) 
!S46(C  6-Port  ) 
!S51(C  6-Port  ) 
!S52(C  6-Port  ) 
!S53(C  6-Port  ) 
!S54(C  6-Port  ) 
!S55(C  6-Port  ) 
!S56(C  6-Port  ) 
!S61(C  6-Port  ) 
!S62(C  6-Port  ) 
!S63(C  6-Port  ) 
!S64(C  6-Port  ) 
!S65(C  6-Port  ) 
!S66(C  6-Port  ) 
!S6P File: Measurement: :
# Hz S  RI   R 50
500000000 -0.33925 -0.023091 -0.010572 -0.0035896 -0.0078051 0.011909 -0.0038084 0.011555
0.011871 0.0038958 -0.0033333 0.007839
-0.010517 -0.0034923 -0.41917 -0.041383 0.0071288 -0.011711 0.0016977 0.012431
0.0074201 0.0020682 0.0021858 0.013624
-0.0079314 0.012229 0.0069698 -0.011891 -0.2633 0.21953 0.0072445 0.0036626
-0.0010677 0.0073757 0.0023417 0.01178
-0.0037164 0.01192 0.0011593 0.012532 0.0073972 0.0035631 -0.33256 0.057598
-0.019557 -0.0067226 0.014972 0.02453
0.012143 0.0039457 0.0075716 0.0019417 -0.00081044 0.0070978 -0.019486 -0.0070272
-0.23271 -0.17102 -0.025017 0.0047797
-0.0037035 0.0077556 0.0013334 0.013209 0.0027941 0.011494 0.014922 0.024381
-0.025182 0.0050386 -0.28103 -0.093313
560000000 -0.31281 0.13372 -0.025808 -0.061055 0.00077199 0.011428 0.0050487 0.0096907
0.0097772 0.0037864 0.0099405 0.0063193
-0.025424 -0.061541 -0.3747 0.1143 -0.041597 -0.035072 0.013575 0.003271
-0.012287 -0.0041502 0.0034312 -0.0015287
0.00094177 0.011362 -0.041474 -0.035652 -0.18123 0.26436 -0.00046732 -0.0042082
0.01821 0.0041361 0.0070378 -0.0063984
0.0053192 0.0095532 0.012912 0.0036913 -5.1853e-05 -0.0042916 -0.30583 0.1448
0.00059825 -0.024259 0.0038812 -0.019651
0.010041 0.0034782 -0.012687 -0.0033083 0.017312 0.0037758 0.00078578 -0.023785
-0.286 0.00080922 0.0054993 -0.047719
0.0097257 0.0071299 0.0033726 -0.0014528 0.0070637 -0.0068999 0.0035752 -0.019737
0.005323 -0.047784 -0.32923 0.047203
620000000 -0.27167 0.11889 -0.02315 0.0070697 0.003719 0.0078289 0.0074833 -0.0052214
0.010054 -0.0011852 0.0005862 -0.0029074
-0.022865 0.0070745 -0.40125 0.06843 -0.019169 0.00025416 -0.0016876 -0.0015565
0.010646 -0.0070653 0.00081321 -0.0023308
0.0037965 0.0078875 -0.019259 0.00028247 -0.15056 0.27351 -0.00098803 -0.004629
-0.0040181 -0.0029284 0.0081232 -0.0027632
0.0075344 -0.0050662 -0.0015721 -0.0016383 -0.0010295 -0.0044575 -0.26335 0.15608
-0.040703 -0.01751 0.012938 0.024514
0.010081 -0.0015978 0.010492 -0.0070792 -0.0036956 -0.0030246 -0.040754 -0.017222
-0.20882 -0.038455 -0.040077 0.014136
0.00093832 -0.002452 0.00077052 -0.002359 0.007935 -0.0026232 0.012939 0.024672
-0.039927 0.01398 -0.25408 0.018133
680000000 -0.22867 0.20159 -0.027485 -0.01314 0.0052336 0.0045287 0.00086332 -0.0069753
-0.0032118 -0.010726 0.0038524 -0.0064928
-0.027143 -0.013008 -0.3853 0.16426 -0.032294 -4.8501e-05 -0.0016085 -0.00042128
-0.0027284 -0.0089747 -0.0019848 -0.0019766
0.0053163 0.0047191 -0.032281 1.7959e-05 -0.099739 0.29294 -0.00089341 -0.0001511
-0.0018074 0.00032688 -0.0036056 -0.0086419
0.0011167 -0.007284 -0.0015373 -0.00054115 -0.001002 -0.00015988 -0.21769 0.20651
-0.025554 -0.0053956 -0.0092214 -0.0085297
-0.0028162 -0.010098 -0.0026889 -0.0089374 -0.0018092 0.00038332 -0.025621 -0.0055103
-0.25183 0.060383 -0.0067412 -0.0073116
0.0041327 -0.0067607 -0.0018476 -0.0020966 -0.0035582 -0.0087941 -0.0092828 -0.0085635
-0.0068863 -0.00718 -0.25563 0.11589
740000000 -0.18544 0.19559 -0.037649 0.026416 0.012126 -0.0056514 -0.00073704 -0.0044109
-0.004495 -0.002401 -0.0060991 0.0023749
-0.03723 0.026248 -0.33332 0.18365 -0.033622 0.034823 -0.00080649 -0.0059455
-0.011225 0.0076572 -0.001965 -0.0051799
0.011862 -0.0055968 -0.033703 0.034829 -0.065769 0.2918 -0.0018293 0.0031355
-0.002814 -0.0041412 -0.0018951 0.00082682
-0.00060072 -0.004228 -0.0010134 -0.005762 -0.0018042 0.0031309 -0.20001 0.21377
-0.042767 -0.0042013 0.022356 0.013296
-0.0053938 -0.0022401 -0.01121 0.0077665 -0.0028554 -0.0042668 -0.042868 -0.0041251
-0.15776 0.082658 -0.039861 0.002312
-0.00596 0.0025977 -0.0025443 -0.0050315 -0.0019088 0.0009014 0.0223 0.013195
-0.039785 0.0024895 -0.24431 0.12417
800000000 -0.15268 0.23445 -0.021948 0.017287 0.0045289 -0.010279 -0.0047595 -0.0018632
-0.0033046 0.0026536 0.0034276 0.00030109
-0.021898 0.017287 -0.33542 0.25274 -0.0070445 0.033617 -0.0024597 0.002296
-0.00034821 0.0031311 0.000864 0.0050004
0.0045627 -0.0103 -0.0069686 0.033722 -0.023845 0.31446 0.00086519 0.0016526
0.00041186 0.0035608 -0.0018891 0.0010198
-0.004521 -0.0018319 -0.0024121 0.0023405 0.00081086 0.0015968 -0.17061 0.24071
-0.027154 0.016275 0.012644 -0.0098976
-0.0032985 0.0025734 -0.0004487 0.0032016 0.00044269 0.0034828 -0.027145 0.016302
-0.19728 0.10901 -0.016411 0.01847
0.0040434 0.00046688 0.0010003 0.0052001 -0.0018283 0.0010208 0.012699 -0.0098001
-0.016327 0.018284 -0.23424 0.17071
860000000 -0.11752 0.25492 -0.016587 0.031011 -0.0039437 -0.0092703 -0.002238 0.0011838
0.0039815 0.0044012 -0.0029279 -0.0025949
-0.016541 0.031087 -0.28733 0.29452 0.0087878 0.033207 9.0043e-05 0.0022658
0.0038781 5.2301e-05 0.0030366 0.00045147
-0.0039227 -0.0092665 0.0088308 0.033237 0.025541 0.32162 -0.00047358 -0.00016012
0.002503 -0.0012302 0.0014614 0.0042017
-0.0021454 0.0012489 7.1403e-05 0.002187 -0.00044337 -0.00015361 -0.13271 0.25143
-0.015266 0.020376 -0.0059084 -0.0089271
0.0044978 0.0041758 0.003799 0.00014419 0.0025467 -0.0012195 -0.015279 0.020452
-0.14565 0.15609 -0.022284 0.015733
-0.0031431 -0.0026702 0.0029135 0.00027753 0.0014965 0.004254 -0.0058193 -0.0089126
-0.022196 0.015626 -0.18417 0.21236
920000000 -0.091236 0.27689 0.0059599 0.037327 -0.009184 -0.0035504 -0.0014542 0.0019163
0.001352 0.0013917 0.0024861 -0.0015759
0.0059248 0.037328 -0.25739 0.31464 0.027971 0.020556 0.0017247 0.00089849
0.0066859 -0.0006756 0.0034383 -0.0028417
-0.0091698 -0.0035135 0.02804 0.020535 0.072391 0.32085 0.0019373 -0.00017025
0.0014509 -0.00055264 0.00086196 -0.00093781
-0.001509 0.0019684 0.0016743 0.00083792 0.0019295 -0.00016298 -0.10752 0.26653
-0.0077988 0.030866 0.0026401 -0.0061631
0.0015758 0.0014768 0.00666 -0.00069953 0.0014756 -0.00052113 -0.007741 0.030934
-0.13278 0.16133 -0.00073197 0.026086
0.0023702 -0.0014665 0.0032644 -0.0030705 0.00088829 -0.00094443 0.0026777 -0.0061621
-0.00073799 0.025959 -0.18588 0.22686
980000000 -0.043926 0.29513 0.018206 0.028965 -0.0082166 0.004889 0.0020752 0.0033244
0.0039001 -0.0015908 -0.0032107 -0.001955
0.018226 0.028857 -0.20504 0.34796 0.032282 0.0036353 0.0019609 -0.00019871
0.0013777 -0.0059071 -0.00069983 -0.0022213
-0.0081639 0.0048697 0.032268 0.0035609 0.11897 0.31349 0.00052355 -0.0012718
0.00014239 -0.0022353 0.0014798 -0.00019612
0.0021017 0.0031636 0.0019794 -0.00031014 0.00050988 -0.0012964 -0.068561 0.27699
0.01019 0.028516 -0.0086955 -0.0062728
0.0037493 -0.0016205 0.0012463 -0.0060707 0.00017198 -0.0022557 0.010292 0.028501
-0.10037 0.18671 0.0057477 0.018162
-0.0031989 -0.0018837 -0.00069643 -0.0022539 0.001436 -0.00022615 -0.0086268 -0.0062341
0.0057765 0.018209 -0.14147 0.26732
1040000000 -0.00034968 0.30206 0.03305 0.016419 -0.00080806 0.0066414 0.0024889 0.00059038
0.00010803 -0.0031367 -0.00059704 -0.0011476
0.033022 0.016404 -0.16865 0.36056 0.027891 -0.015211 0.0015132 -0.001738
-0.0022154 -0.0022739 -0.0013424 -0.0024378
-0.00077155 0.0066198 0.027822 -0.015262 0.16555 0.29823 -0.00052378 -0.0014828
-0.0015699 -0.00083826 -0.00036041 -0.0010759
0.0025064 0.00052973 0.0014898 -0.0017167 -0.00053794 -0.001475 -0.039605 0.28539
0.020706 0.015909 -0.0023485 0.001492
3.175e-05 -0.0032674 -0.00242 -0.002199 -0.0015595 -0.00087754 0.020761 0.015888
-0.06796 0.19332 0.013492 0.016448
-0.00070873 -0.00094807 -0.0014545 -0.0025036 -0.00032586 -0.0010621 -0.0023492 0.0014793
0.013407 0.0165 -0.11672 0.28692
1100000000 0.044682 0.30858 0.034576 -0.0053363 0.0028851 0.0035068 0.0022211 -0.001197
-0.0018929 -0.0030037 -0.0035207 0.00024311
0.034599 -0.0053129 -0.12554 0.37709 0.013798 -0.027153 -0.00013333 -0.0018476
-0.0031095 -0.00069871 -0.0032246 -0.00046489
0.002912 0.0034965 0.013706 -0.027248 0.21127 0.27671 -0.0017924 0.00015662
-0.00179 0.00052617 -0.0009469 -0.00034399
0.0022516 -0.0011528 -9.9618e-05 -0.00185 -0.0017836 0.00018755 0.001201 0.28863
0.024641 0.0029182 -0.0023009 0.00018185
-0.0018757 -0.0029842 -0.0031731 -0.00061865 -0.0017832 0.00051392 0.024666 0.0028713
-0.049797 0.20568 0.018164 0.006572
-0.0035591 0.00041274 -0.0031371 -0.00034897 -0.00091074 -0.0002913 -0.0022885 0.00016389
0.018126 0.0065643 -0.070814 0.31197
1160000000 0.096345 0.30243 0.022444 -0.02102 0.0024768 -0.00062311 -0.00014257 -0.0021541
-0.0038815 -0.00055182 -0.0007142 0.0036806
0.022489 -0.021014 -0.080701 0.3806 -0.0043259 -0.027862 -0.0016264 -0.0015425
-0.0024384 0.0023516 -0.0012774 0.0016317
0.0024575 -0.00065639 -0.0044473 -0.02787 0.25429 0.24492 -0.00071991 0.0017107
-0.0005033 0.0017898 -0.00093675 4.2604e-06
-0.00019246 -0.002177 -0.0016289 -0.0015163 -0.00071616 0.0017108 0.04109 0.28363
0.020098 -0.012091 -0.0029159 0.0044754
-0.0038923 -0.00051711 -0.002455 0.0024159 -0.00053698 0.0017513 0.02008 -0.012115
-0.015865 0.21295 0.016506 -0.00081083
-0.00059929 0.0036276 -0.0012567 0.0015856 -0.00088196 2.9978e-05 -0.0028812 0.0045024
0.016398 -0.00081859 -0.02278 0.3131
1220000000 0.14058 0.2891 0.0090424 -0.029292 -0.0015778 -0.00060291 1.7216e-05 -0.00085606
-0.0023942 0.0022877 0.0012479 0.0018083
0.0090794 -0.029237 -0.036944 0.39126 -0.016612 -0.019874 -0.0024019 0.00045435
-1.3448e-05 0.0027621 -0.00060433 0.0018642
-0.0015636 -0.00061986 -0.016728 -0.019815 0.29268 0.2048 0.00075179 0.0017468
0.00063695 0.0012349 0.00029092 0.00056414
1.0913e-06 -0.00089722 -0.0023694 0.00049397 0.00076396 0.0017443 0.080599 0.2728
0.0094897 -0.018009 0.0016987 0.0013096
-0.0023928 0.0022927 2.9129e-05 0.0027708 0.00064543 0.0012154 0.0094755 -0.018034
0.0077238 0.21956 0.011997 -0.012694
0.0012608 0.0018051 -0.00062277 0.0018655 0.0002931 0.00057957 0.0016557 0.0013351
0.011954 -0.012639 0.0090924 0.32558
1280000000 0.18943 0.26611 -0.0084402 -0.027123 -0.0016214 0.002622 -0.00094387 -0.0019428
-0.00057618 0.0028287 0.0023055 0.00090843
-0.0084236 -0.027076 0.0087268 0.38198 -0.022829 -0.0078093 -0.0010013 0.0013532
0.0015145 0.0017068 0.00060188 0.0017566
-0.0015774 0.0026094 -0.022864 -0.0077267 0.32276 0.16073 0.0015155 4.3728e-05
0.00099549 0.00026025 0.00026209 0.0002492
-0.00094177 -0.0019272 -0.00097921 0.0013618 0.0015065 3.5172e-05 0.11657 0.25481
-5.5377e-05 -0.019579 -0.00042676 0.00038625
-0.00060819 0.0028216 0.0015503 0.0017213 0.0010005 0.00028434 -9.2156e-05 -0.019602
0.044028 0.22164 0.0018163 -0.01425
0.0023035 0.00094829 0.00064636 0.0017606 0.00025612 0.00022097 -0.00041803 0.00037556
0.0017837 -0.014166 0.055523 0.32487
1340000000 0.22596 0.23079 -0.017384 -0.017684 0.0011142 0.0041236 -0.0016392 -0.00079742
0.0013541 0.0025408 0.0013522 -0.0013398
-0.017365 -0.017676 0.048017 0.37281 -0.020548 0.0042817 -0.00022526 0.0020048
0.0018429 0.00084403 0.0012477 0.00068399
0.0011235 0.0041163 -0.020545 0.0043662 0.34473 0.11189 0.0011893 -0.00087201
0.00061847 -0.00048523 5.1516e-05 0.00025506
-0.0016331 -0.00080727 -0.00018599 0.0019947 0.0011916 -0.00088088 0.14814 0.2325
-0.0092069 -0.016532 0.0006722 0.00081477
0.001325 0.0024877 0.0018505 0.00082083 0.00063364 -0.00048338 -0.0092402 -0.016538
0.073814 0.21494 -0.0042024 -0.012544
0.0013084 -0.0012843 0.0012539 0.00071212 7.0922e-05 0.00019572 0.00069872 0.00082076
-0.0042003 -0.012542 0.094311 0.31739
1400000000 0.25736 0.19184 -0.022438 -0.0066511 0.00502 0.0026738 -0.0020175 0.00046762
0.0022384 0.00075754 0.00017564 -0.0013121
-0.022396 -0.0066784 0.084487 0.35954 -0.014048 0.011863 0.0012931 0.0013911
0.0012321 -0.00066491 0.0011149 8.1608e-05
0.0050288 0.0026608 -0.014004 0.011964 0.35698 0.05762 0.00021593 -0.0017905
4.3225e-05 -0.00036362 0.00027044 0.00017387
-0.0020097 0.00046791 0.0012936 0.0014002 0.00019314 -0.0017978 0.1758 0.20253
-0.01494 -0.01001 -0.00055648 0.00014881
0.0022219 0.00072474 0.0012041 -0.00068743 2.2626e-05 -0.00034308 -0.014975 -0.0099821
0.10528 0.2089 -0.0098811 -0.0077822
0.00017867 -0.001285 0.0010882 0.00011141 0.00025716 0.00016858 -0.0005428 0.00015837
-0.0098793 -0.0077398 0.1373 0.30412
1460000000 0.2795 0.14756 -0.019429 0.0047377 0.0052541 -0.0019673 -0.0016375 0.0015733
0.0018054 -0.00049864 -0.00029222 -0.0008253
-0.019405 0.0047118 0.11884 0.33771 -0.0059598 0.0145 0.001746 0.00018578
0.0008983 -0.0012653 0.0011015 -0.00055233
0.0052293 -0.0020067 -0.005882 0.014541 0.36243 0.0028184 -0.0014373 -0.001389
0.0001745 -0.00013721 0.00052073 -0.00036323
-0.0016286 0.0016007 0.0017521 0.00016359 -0.0014167 -0.0013845 0.2006 0.17284
-0.016358 -0.0033507 -0.00053206 0.0021814
0.0017731 -0.00049434 0.00088638 -0.0012824 0.00018243 -0.00013097 -0.016385 -0.0033032
0.13378 0.19321 -0.01115 -0.0023912
-0.00033845 -0.00078252 0.0010946 -0.00060141 0.00053061 -0.00033234 -0.00050484 0.0021663
-0.011099 -0.0024318 0.17026 0.28192
1520000000 0.29062 0.10493 -0.013917 0.0098437 0.0028573 -0.0039536 3.4529e-05 0.002527
0.0019779 -0.0015167 -0.0010851 -0.00017457
-0.013901 0.009831 0.15209 0.32216 0.0012043 0.012579 0.0017251 -0.00084645
6.6821e-05 -0.001199 0.00024635 -0.000935
0.0028356 -0.003955 0.001249 0.012588 0.35442 -0.054369 -0.0013893 -0.00037167
0.00046251 -0.00087992 -1.5729e-05 -3.4313e-05
2.6273e-05 0.0025522 0.0017401 -0.00085977 -0.0013878 -0.00037312 0.22158 0.13457
-0.015846 0.0025848 0.0017312 0.0019061
0.0019614 -0.0014943 6.266e-05 -0.0012094 0.00045339 -0.00088488 -0.015835 0.0026362
0.16037 0.17751 -0.01102 0.0017192
-0.0010804 -0.00014828 0.00029946 -0.00093959 -2.7193e-05 -1.6572e-05 0.0017122 0.0019131
-0.011031 0.0017189 0.2025 0.25894
1580000000 0.29892 0.058983 -0.0078021 0.012638 -0.0010445 -0.0044561 0.0014305 0.0019312
-0.00012009 -0.0019918 -0.0003057 0.00032658
-0.0077747 0.012621 0.17922 0.29739 0.0046913 0.0080659 0.00050737 -0.0017109
-0.00057937 -0.0011349 -0.00019025 -0.00076114
-0.0010575 -0.0044937 0.0047524 0.0080529 0.33323 -0.11144 -0.0017145 0.00094166
-0.00021034 -0.0011127 9.9392e-05 -0.00058879
0.0014488 0.0019802 0.0005112 -0.001714 -0.0017214 0.00095942 0.23383 0.096199
-0.01269 0.0079304 0.0023006 0.00052423
-0.00012401 -0.0020176 -0.00059261 -0.0011298 -0.00018753 -0.0011143 -0.012672 0.0079892
0.18324 0.159 -0.009013 0.0069721
-0.00039607 0.00038368 -0.00018353 -0.00075374 0.00012001 -0.00056639 0.0022527 0.00054649
-0.0089932 0.0069541 0.23276 0.23145
1640000000 0.30034 0.016977 -0.0015677 0.011656 -0.0026159 -0.0023554 0.0027073 0.00096384
-0.00057598 -0.0015666 -0.00027394 0.0006683
-0.0015814 0.01164 0.2089 0.27153 0.0054617 0.0037442 -0.00083066 -0.0017186
-0.0011584 -0.00034236 -0.00049888 -0.0005779
-0.0026685 -0.0023554 0.0055083 0.0037042 0.30415 -0.16049 -0.00056388 0.0016355
-0.0011252 -0.00085613 -0.00014102 -0.00014744
0.0026979 0.00098995 -0.00082977 -0.0017252 -0.00055149 0.0016675 0.24503 0.048079
-0.008411 0.0099787 0.0024761 -0.00097349
-0.00058383 -0.0015043 -0.0011519 -0.00033643 -0.0011266 -0.0008566 -0.0083956 0.010015
0.2048 0.13361 -0.0045767 0.0087976
-0.00032461 0.00068046 -0.0005324 -0.00055817 -9.8233e-05 -0.00014521 0.0024346 -0.00096128
-0.0045661 0.0087788 0.25776 0.19858
1700000000 0.29161 -0.028645 0.0016777 0.009191 -0.0033198 0.00030249 0.0030145 -0.0012434
-0.0019352 -0.00081915 0.00066629 0.00032727
0.0016662 0.0091886 0.22627 0.2396 0.0037989 0.00091814 -0.0015115 -0.0005205
-0.00082392 0.0002747 -0.00084535 -0.00042704
-0.0032965 0.00029429 0.0038275 0.00092997 0.26009 -0.19999 0.00076881 0.0015729
-0.0018372 -0.00018532 -0.0005584 -0.00081583
0.0030278 -0.0012537 -0.0014965 -0.00053089 0.00076208 0.0015567 0.24075 -0.00015475
-0.004871 0.011072 0.0014199 -0.0021691
-0.0019488 -0.00081742 -0.00080835 0.00028397 -0.0018501 -0.00019184 -0.0048541 0.011092
0.22028 0.11287 -0.00023557 0.0092373
0.00070832 0.00043262 -0.00083723 -0.00038599 -0.00047495 -0.0007645 0.0014497 -0.0021877
-0.00017877 0.0092476 0.27193 0.16303
1760000000 0.27858 -0.077191 0.0039474 0.0061908 -0.0020645 0.00091788 0.0011455 -0.0034339
-0.0015401 0.00059614 0.00047657 -0.00041249
0.0039195 0.0061535 0.2521 0.19919 0.0017712 -0.0010859 -0.0012012 0.00028012
-0.00092481 0.0010001 -0.00058294 0.00046881
-0.0021244 0.0009258 0.0017622 -0.0010922 0.21147 -0.2333 0.0013471 0.00069701
-0.001151 0.0015046 -0.0012253 -0.00038404
0.0010712 -0.0034707 -0.0012076 0.00028483 0.0013308 0.00073549 0.23211 -0.049772
-0.00081926 0.010596 -0.0002927 -0.0024321
-0.0015158 0.00056941 -0.00092866 0.001047 -0.0011211 0.0015119 -0.00078304 0.010565
0.23404 0.077823 0.0034716 0.0069533
0.000454 -0.00040935 -0.00060008 0.00049908 -0.001219 -0.00037074 -0.00027723 -0.002469
0.0034737 0.0069529 0.28363 0.12497
1820000000 0.25228 -0.11465 0.0042555 0.0027225 0.00017601 0.0023737 -0.0010948 -0.0029457
-0.0012049 0.0010753 -4.1662e-05 -0.00012223
0.0042482 0.0027323 0.26113 0.16841 -0.00010228 6.6024e-05 -0.0011798 0.0010868
0.00018 0.0012792 -0.00045226 0.00053203
0.00021911 0.0023755 -0.00010974 8.2616e-05 0.16013 -0.24855 0.0013521 0.00015786
-0.00011505 0.0022612 -0.0012775 0.00046121
-0.0011592 -0.0029808 -0.001178 0.0010851 0.0013661 0.00012942 0.20253 -0.096021
0.0015306 0.0087157 -0.0016189 -0.0014314
-0.0012292 0.0010542 0.0001887 0.0012705 -8.9356e-05 0.0022724 0.0015417 0.0087247
0.24957 0.048136 0.0044567 0.0036324
-9.6521e-06 -0.00014184 -0.00047374 0.00052204 -0.001286 0.00042241 -0.0015641 -0.0013969
0.0044441 0.0036912 0.28431 0.087237
1880000000 0.21568 -0.15366 0.0021145 0.00051482 -0.00031776 0.001874 -0.0029967 -0.0019735
-0.00018932 0.0018498 0.00027029 -0.00055899
0.0020945 0.00051963 0.2648 0.12208 -0.0022209 0.0017504 -8.4713e-05 0.0016436
0.00072575 0.00096242 0.00015916 0.00092112
-0.00036573 0.0018939 -0.0022198 0.0017811 0.10691 -0.25705 0.0014207 -0.00099421
0.0016624 0.0017622 -0.00087732 0.0012619
-0.0030025 -0.0020494 -8.4593e-05 0.0015915 0.0014338 -0.0010138 0.16334 -0.1355
0.0030136 0.0061315 -0.0021433 0.00026969
-0.00016012 0.0018269 0.00071768 0.000938 0.0016504 0.0017437 0.003086 0.0061461
0.25152 0.015945 0.0044723 0.0017532
0.00022357 -0.00059671 0.00015339 0.0008798 -0.00085636 0.0013098 -0.0020711 0.0002714
0.0043862 0.0017789 0.28251 0.053824
1940000000 0.17587 -0.17908 2.5342e-05 -0.001064 0.001327 0.0016862 -0.0036536 0.00070537
0.0015624 0.0010412 -0.00058206 -0.00067668
1.3846e-06 -0.0010703 0.26474 0.090057 -0.00084333 0.0039222 0.00099012 0.001175
0.001626 0.00026281 0.00078352 0.00034978
0.0014154 0.001642 -0.00080881 0.0039431 0.062115 -0.25 6.8284e-05 -0.001742
0.0021553 0.00029987 0.00021378 0.0016301
-0.0036168 0.00062074 0.0010368 0.0010675 0.00010581 -0.001731 0.1121 -0.16667
0.0025467 0.0039749 -0.0011527 0.001244
0.0016058 0.0010132 0.001676 0.00026528 0.0021707 0.00031157 0.0025992 0.0039864
0.25277 -0.02367 0.0035428 -0.0013135
-0.00063057 -0.00066425 0.00084289 0.0003287 0.00021469 0.0016035 -0.0011349 0.0012768
0.0035209 -0.001281 0.27058 0.016622
2000000000 0.12833 -0.19264 -0.0037274 0.00086845 0.0023719 0.0014374 -0.0022147 0.0033789
0.0012828 5.9902e-05 -0.0006308 0.00029526
-0.0037009 0.00086647 0.2496 0.054663 -0.00059562 0.0054933 0.0014569 0.0002644
0.0010402 -0.0013261 0.00050013 8.9243e-05
0.0023841 0.0014384 -0.00055001 0.0055058 0.018202 -0.23519 -0.0010952 -0.0008874
0.0016996 -0.0011333 0.0015121 0.0010957
-0.0021592 0.0033715 0.001494 0.0002097 -0.001069 -0.00086991 0.058296 -0.17734
0.00075087 0.0026115 4.1599e-05 0.0019523
0.0013016 6.6358e-05 0.0010451 -0.0012918 0.0016601 -0.0011336 0.00075472 0.0026901
0.2455 -0.058022 0.00054408 -0.002303
