!Keysight Technologies,M9804A,MY58100912,A.14.10.03
!Date: Thursday, April 27, 2023 10:28:33
!Correction: S11(C  6-Port  ) 
!S12(C  6-Port  ) 
!S13(C  6-Port  ) 
!S14(C  6-Port  ) 
!S15(C  6-Port  ) 
!S16(C  6-Port  ) 
!S21(C  6-Port  ) 
!S22(C  6-Port  ) 
!S23(C  6-Port  ) 
!S24(C  6-Port  ) 
!S25(C  6-Port  ) 
!S26(C  6-Port  ) 
!S31(C  6-Port  ) 
!S32(C  6-Port  ) 
!S33(C  6-Port  ) 
!S34(C  6-Port  ) 
!S35(C  6-Port  ) 
!S36(C  6-Port  ) 
!S41(C  6-Port  ) 
!S42(C  6-Port  ) 
!S43(C  6-Port  ) 
!S44(C  6-Port  ) 
!S45(C  6-Port  ) 
!S46(C  6-Port  ) 
!S51(C  6-Port  ) 
!S52(C  6-Port  ) 
!S53(C  6-Port  ) 
!S54(C  6-Port  ) 
!S55(C  6-Port  ) 
!S56(C  6-Port  ) 
!S61(C  6-Port  ) 
!S62(C  6-Port  ) 
!S63(C  6-Port  ) 
!S64(C  6-Port  ) 
!S65(C  6-Port  ) 
!S66(C  6-Port  ) 
!S6P File: Measurement: :
# Hz S  RI   R 50
500000000 -0.33914 -0.023267 -0.010362 -0.0031145 -0.0079209 0.012427 -0.0035793 0.012079
0.012225 0.0040225 -0.003146 0.0083356
-0.01035 -0.0031178 -0.4195 -0.041386 0.0067045 -0.01168 0.0018316 0.012253
0.0075266 0.0019925 0.0022461 0.013319
-0.0078595 0.012406 0.0067046 -0.011664 -0.26349 0.21913 0.0070843 0.0035712
-0.0010089 0.0075713 0.0020489 0.011621
-0.0035076 0.012061 0.0018382 0.012269 0.0070786 0.0035945 -0.33262 0.056997
-0.01913 -0.0066565 0.014729 0.023956
0.012206 0.0039517 0.0075178 0.0020496 -0.00099687 0.0076375 -0.019135 -0.0066375
-0.23244 -0.17121 -0.024319 0.0050489
-0.003072 0.0084101 0.0022348 0.01333 0.0020399 0.011619 0.014732 0.023943
-0.024314 0.0050483 -0.28201 -0.094513
560000000 -0.31344 0.13406 -0.025583 -0.061717 0.00064502 0.011617 0.0047884 0.0098474
0.0094157 0.0041338 0.0096632 0.0067665
-0.02551 -0.061659 -0.37386 0.11516 -0.04197 -0.034889 0.013458 0.0039545
-0.01265 -0.0033507 0.0027924 -0.0010743
0.00068346 0.011611 -0.042004 -0.034873 -0.18119 0.26426 -0.00069383 -0.0044714
0.018157 0.0035472 0.0064907 -0.006824
0.0048198 0.0098271 0.013519 0.0038635 -0.00065206 -0.0043927 -0.30567 0.14525
0.0011163 -0.024184 0.0032374 -0.019403
0.0094392 0.0040658 -0.012635 -0.0034905 0.018121 0.0036898 0.0010896 -0.024208
-0.28721 0.00025234 0.0057145 -0.047871
0.00972 0.0067334 0.0027023 -0.0010597 0.0065234 -0.0068237 0.0032394 -0.019402
0.0057278 -0.04787 -0.32971 0.046425
620000000 -0.27144 0.11842 -0.023298 0.0070337 0.0035381 0.0077936 0.0076543 -0.0051806
0.01067 -0.0015578 0.00069927 -0.0023488
-0.02329 0.0070291 -0.40133 0.068384 -0.01924 0.00021761 -0.001447 -0.0016029
0.01051 -0.0071826 0.0010689 -0.0027925
0.0035444 0.0077765 -0.019246 0.00025527 -0.15053 0.2738 -0.0014567 -0.0044986
-0.0033908 -0.0029832 0.007633 -0.0034022
0.0075578 -0.0051632 -0.001466 -0.0015941 -0.0014043 -0.0045314 -0.2636 0.15584
-0.04056 -0.016467 0.012479 0.024407
0.010707 -0.0016051 0.010483 -0.0072115 -0.0033363 -0.0029477 -0.040552 -0.016439
-0.20871 -0.040377 -0.039737 0.014655
0.00080541 -0.0024086 0.0010768 -0.0027875 0.0076386 -0.0034267 0.01251 0.024415
-0.039753 0.01465 -0.25538 0.016669
680000000 -0.22856 0.20158 -0.027514 -0.013202 0.0052047 0.0045766 0.0010528 -0.0069579
-0.003138 -0.010641 0.0040834 -0.0062745
-0.027494 -0.013206 -0.38545 0.16406 -0.03224 -0.00014202 -0.0016087 -0.00049973
-0.0023782 -0.0088656 -0.0017545 -0.0021069
0.0052178 0.0045744 -0.032273 -6.3358e-05 -0.099709 0.2929 -0.00098535 -0.00032385
-0.0017397 0.00027267 -0.0034594 -0.0086154
0.0010311 -0.00697 -0.0016064 -0.00046286 -0.00098969 -0.00029178 -0.21803 0.20619
-0.026089 -0.005465 -0.0087011 -0.0089332
-0.0031363 -0.010613 -0.0023894 -0.0088417 -0.0017323 0.00029092 -0.026104 -0.0054603
-0.2521 0.060366 -0.0068223 -0.007654
0.0040577 -0.0062793 -0.0017805 -0.0021164 -0.003441 -0.0086199 -0.0087166 -0.0089216
-0.0068231 -0.0076579 -0.25562 0.11567
740000000 -0.18543 0.19577 -0.037262 0.026187 0.012 -0.0055924 -0.00072658 -0.004353
-0.0043902 -0.0028715 -0.0059347 0.0032585
-0.037253 0.026165 -0.33343 0.18337 -0.0334 0.034813 -0.00073751 -0.0062131
-0.011275 0.0078605 -0.0016061 -0.0054494
0.011976 -0.0056157 -0.0333 0.034943 -0.065664 0.29197 -0.0018036 0.0031675
-0.0029207 -0.0043082 -0.0018169 0.0010545
-0.000764 -0.0043653 -0.00069932 -0.0062499 -0.0017691 0.0031675 -0.20021 0.21389
-0.042591 -0.003983 0.022267 0.013291
-0.0043277 -0.0028708 -0.011274 0.007993 -0.0029923 -0.0042816 -0.04262 -0.0039022
-0.1577 0.081245 -0.04009 0.0032935
-0.0059138 0.0032966 -0.001737 -0.0054902 -0.0017939 0.0010408 0.022295 0.013277
-0.040047 0.0032587 -0.24457 0.12362
800000000 -0.15299 0.23448 -0.022091 0.017277 0.0044592 -0.010297 -0.0046064 -0.0017937
-0.0035364 0.0024593 0.0035366 0.00060092
-0.022091 0.01726 -0.3354 0.25255 -0.0070256 0.03359 -0.0024273 0.0022772
-0.00029118 0.0029668 0.0010381 0.0050176
0.004439 -0.010311 -0.0069484 0.033632 -0.023892 0.31437 0.00084712 0.0016031
0.00037529 0.0034801 -0.0018744 0.00099722
-0.0046298 -0.0017876 -0.0024242 0.0022828 0.00084021 0.0016007 -0.17073 0.24069
-0.02715 0.016185 0.012574 -0.0098788
-0.0035439 0.0025016 -0.00029307 0.0029425 0.00034589 0.0035101 -0.027144 0.016231
-0.19766 0.10858 -0.016527 0.018302
0.0035569 0.00058166 0.0010774 0.0050401 -0.001873 0.0009937 0.012565 -0.0098868
-0.016539 0.018281 -0.23433 0.17059
860000000 -0.11756 0.25491 -0.016486 0.031207 -0.0038998 -0.0091949 -0.0022643 0.0010588
0.0040793 0.0042491 -0.0029783 -0.0027594
-0.016494 0.031162 -0.28739 0.29467 0.0087563 0.033254 0.00014885 0.0021886
0.0040646 7.1197e-05 0.0030156 0.00042975
-0.0039236 -0.0091919 0.0088643 0.033265 0.025538 0.32161 -0.00041678 -0.00019573
0.002533 -0.0012633 0.0014081 0.0042711
-0.0022819 0.0010521 0.00014813 0.0021853 -0.00042819 -0.00017818 -0.13281 0.25133
-0.015117 0.020365 -0.006014 -0.0091601
0.0040711 0.0042185 0.0040657 3.8859e-05 0.0025538 -0.0012384 -0.015098 0.02042
-0.14562 0.15588 -0.022508 0.015882
-0.0029671 -0.0027356 0.0030289 0.00037405 0.0014071 0.0042455 -0.0060156 -0.0091697
-0.022518 0.015859 -0.18362 0.21198
920000000 -0.091263 0.27665 0.0059133 0.037362 -0.0092492 -0.00358 -0.0015398 0.0018976
0.0013921 0.0015638 0.0025849 -0.0018518
0.0058815 0.037332 -0.2575 0.31452 0.027961 0.020633 0.0018845 0.0009033
0.0066661 -0.00055521 0.0035636 -0.002894
-0.009277 -0.0035851 0.028074 0.020568 0.072334 0.3209 0.001947 -0.00012568
0.0015099 -0.00045236 0.00086875 -0.0010218
-0.0015364 0.0018792 0.001899 0.00088416 0.0019364 -0.0001092 -0.10753 0.26645
-0.0077152 0.03101 0.0026075 -0.0064169
0.0013755 0.0015396 0.0066849 -0.00056406 0.0015172 -0.000451 -0.0076723 0.031041
-0.13303 0.16107 -0.00080918 0.026219
0.0025842 -0.0018352 0.0035618 -0.0029183 0.0008825 -0.0010327 0.0026019 -0.0064144
-0.00082034 0.026212 -0.18602 0.22628
980000000 -0.043789 0.29535 0.018391 0.029032 -0.0081559 0.0048674 0.0021225 0.0032831
0.003962 -0.0015173 -0.0031098 -0.0020423
0.018342 0.029011 -0.20492 0.34806 0.032314 0.00362 0.0020796 -0.00023206
0.0014147 -0.0059596 -0.00053004 -0.0023123
-0.0081588 0.0048687 0.032356 0.0035289 0.11896 0.31348 0.00053491 -0.0013026
0.00015109 -0.0022282 0.0014728 -0.00017337
0.0021526 0.0032599 0.00207 -0.00026086 0.00055834 -0.0013024 -0.068555 0.27698
0.010218 0.028435 -0.0086392 -0.0064121
0.003974 -0.0015398 0.0013811 -0.0059581 0.00015887 -0.0022096 0.010272 0.028429
-0.10068 0.18691 0.0058951 0.018364
-0.0031271 -0.0020145 -0.00053349 -0.0022627 0.0014526 -0.00017003 -0.0086471 -0.0063993
0.0058727 0.018366 -0.14147 0.26725
1040000000 -0.0003881 0.30206 0.033051 0.016328 -0.00079799 0.0066093 0.002457 0.00056935
0.00016135 -0.0032307 -0.00059721 -0.001081
0.033008 0.016339 -0.16859 0.36044 0.027881 -0.015248 0.0015243 -0.0018016
-0.0022324 -0.0023026 -0.0014941 -0.0025424
-0.00078445 0.0066004 0.027869 -0.01536 0.16552 0.29825 -0.00056558 -0.0014956
-0.0016532 -0.00093374 -0.00033073 -0.0010294
0.0024759 0.00055978 0.0015088 -0.0018002 -0.00056654 -0.0014968 -0.039612 0.28539
0.020642 0.015956 -0.0024285 0.0013876
0.00014702 -0.0032311 -0.0022369 -0.0022719 -0.0016465 -0.00094712 0.020693 0.015921
-0.067997 0.19313 0.013452 0.016482
-0.00060262 -0.0011036 -0.0014667 -0.0025292 -0.00031956 -0.0010333 -0.0024281 0.0014018
0.013427 0.016486 -0.11679 0.2865
1100000000 0.044593 0.30851 0.034637 -0.0053544 0.0029242 0.0034676 0.0021899 -0.0011838
-0.0018556 -0.002949 -0.0036007 0.00027418
0.034606 -0.0053288 -0.12552 0.37701 0.013819 -0.027167 -9.7046e-05 -0.0017867
-0.0030941 -0.00070773 -0.0032848 -0.00034723
0.0029467 0.0034656 0.013734 -0.027236 0.21124 0.27669 -0.0018163 0.00021548
-0.001783 0.00053039 -0.00097807 -0.00030749
0.0021983 -0.0011884 -0.00011031 -0.0017869 -0.001819 0.00021051 0.0011144 0.28863
0.024742 0.0029369 -0.002391 5.0119e-05
-0.0018623 -0.0029407 -0.0031095 -0.00068849 -0.0017932 0.00053011 0.02475 0.0029111
-0.049803 0.20556 0.018229 0.0065881
-0.0035935 0.00027175 -0.0032638 -0.00033452 -0.00098758 -0.00031073 -0.002397 5.0524e-05
0.018217 0.0066008 -0.070955 0.31186
1160000000 0.096343 0.30243 0.022446 -0.02104 0.0024562 -0.00059998 -0.00017763 -0.0021673
-0.0038409 -0.00058782 -0.00075775 0.0037828
0.022443 -0.02099 -0.080779 0.38065 -0.0043052 -0.027891 -0.0016431 -0.0015486
-0.0025035 0.0023994 -0.0014249 0.0015798
0.0024634 -0.00062798 -0.0044205 -0.027891 0.25426 0.24491 -0.0007418 0.001702
-0.00049519 0.0018465 -0.00091005 0.00010695
-0.00018347 -0.0021554 -0.0016688 -0.0015338 -0.00074562 0.0016978 0.041096 0.28363
0.020116 -0.012097 -0.0030355 0.0046059
-0.0038312 -0.00058347 -0.0024961 0.0024384 -0.00048108 0.0018462 0.020112 -0.012121
-0.015905 0.21294 0.016567 -0.00077329
-0.00073085 0.0037642 -0.0013795 0.0016039 -0.00090807 0.00011522 -0.0030223 0.0046183
0.016565 -0.00077656 -0.023096 0.31314
1220000000 0.14059 0.2892 0.0090242 -0.029285 -0.0015435 -0.0006005 5.8836e-05 -0.0008965
-0.0023557 0.0023531 0.0012436 0.0017559
0.0090349 -0.029245 -0.036996 0.39121 -0.016597 -0.019864 -0.0023811 0.00042136
2.4245e-05 0.0028181 -0.00064991 0.0019012
-0.0015383 -0.00060606 -0.016698 -0.019817 0.29268 0.20481 0.00076199 0.0016859
0.00063813 0.0011843 0.00025725 0.00061476
4.8398e-05 -0.00089748 -0.0023861 0.0004209 0.00077865 0.001688 0.080611 0.27275
0.0095169 -0.018094 0.0016721 0.0013235
-0.0023423 0.0023717 2.6885e-05 0.0028251 0.00063149 0.0012126 0.0094827 -0.018107
0.0077474 0.2194 0.012001 -0.012772
0.001245 0.0017454 -0.00064684 0.001899 0.00025478 0.00059563 0.0016727 0.0013194
0.011997 -0.012773 0.0091511 0.32582
1280000000 0.18935 0.26614 -0.0084645 -0.027149 -0.0016016 0.0025975 -0.00093685 -0.001939
-0.00060956 0.0028403 0.0023066 0.00089102
-0.0084498 -0.027121 0.0086932 0.382 -0.022777 -0.0078113 -0.00098517 0.0013788
0.0014908 0.001709 0.00062615 0.0017433
-0.0015915 0.002594 -0.022854 -0.0077277 0.32273 0.16074 0.0015159 6.6456e-05
0.001064 0.00022546 0.00029808 0.00021057
-0.00094004 -0.0019383 -0.00096701 0.00139 0.001511 6.624e-05 0.11655 0.2548
-5.8301e-05 -0.019617 -0.00039839 0.00040988
-0.0005888 0.0028538 0.0015005 0.0017132 0.0010659 0.00022198 -8.8944e-05 -0.019625
0.044048 0.22172 0.0018883 -0.014277
0.002318 0.00088204 0.00063574 0.001743 0.00028808 0.00021874 -0.0004005 0.00041221
0.0018852 -0.014271 0.055382 0.32494
1340000000 0.22594 0.23081 -0.017402 -0.017681 0.0011256 0.0041049 -0.0016241 -0.00082934
0.0013591 0.0025214 0.0013501 -0.0013649
-0.017374 -0.017687 0.04804 0.3728 -0.020569 0.0042773 -0.00021824 0.0019988
0.0018416 0.00084253 0.0013059 0.00071618
0.0011455 0.0041032 -0.020577 0.0043893 0.34477 0.11186 0.0011895 -0.00087298
0.0006233 -0.00045682 0.00012883 0.00022884
-0.0016323 -0.00083163 -0.00020837 0.0020018 0.0011992 -0.00086915 0.14814 0.23251
-0.009179 -0.016577 0.00068969 0.00086522
0.0013729 0.002519 0.0018511 0.00083251 0.00061442 -0.00045865 -0.0092208 -0.016567
0.073809 0.21488 -0.0042576 -0.012612
0.0013396 -0.0013783 0.0013025 0.00071335 0.0001243 0.00022386 0.00069147 0.00086837
-0.004246 -0.012613 0.09439 0.31742
1400000000 0.25738 0.19187 -0.02245 -0.0066396 0.0050558 0.0026824 -0.0020472 0.00048569
0.0021969 0.00076116 0.0001748 -0.0012999
-0.022424 -0.006659 0.084469 0.35956 -0.014047 0.011875 0.0012802 0.0013959
0.0011863 -0.00068771 0.001153 0.00013727
0.005064 0.0026607 -0.014006 0.011946 0.35695 0.057688 0.00022842 -0.0018047
6.0873e-05 -0.00040062 0.00023939 0.00023956
-0.0020417 0.00048937 0.0012871 0.0013974 0.00022535 -0.0017975 0.17572 0.20255
-0.014972 -0.010055 -0.00055821 0.00017886
0.0022092 0.00073677 0.0011971 -0.00069239 5.2334e-05 -0.00040293 -0.01501 -0.010017
0.10524 0.20879 -0.0099994 -0.0077967
0.00017753 -0.0012829 0.0011503 0.00013194 0.00023787 0.00023455 -0.00056123 0.00018172
-0.0099882 -0.0077945 0.13733 0.30421
1460000000 0.27951 0.14756 -0.019426 0.0047105 0.0052548 -0.0019752 -0.0016077 0.0015621
0.0018404 -0.00049261 -0.00029091 -0.00084046
-0.019414 0.0046909 0.11885 0.33763 -0.0060005 0.014485 0.001784 0.00019892
0.000917 -0.0012484 0.001101 -0.00050908
0.0052446 -0.001997 -0.0059394 0.014531 0.36235 0.0028941 -0.0014223 -0.0013724
0.00019299 -0.00014373 0.00057652 -0.00031036
-0.0016163 0.001585 0.001791 0.00019016 -0.0014304 -0.001352 0.20054 0.17289
-0.016394 -0.0033312 -0.00052347 0.0021729
0.001833 -0.00049577 0.00092034 -0.0012475 0.00019972 -0.00014263 -0.016415 -0.0032998
0.13368 0.19319 -0.011161 -0.0023782
-0.00030695 -0.0008469 0.0010948 -0.00050728 0.00058634 -0.00031049 -0.00051723 0.0021769
-0.011162 -0.0023676 0.17005 0.28197
1520000000 0.29053 0.10496 -0.013898 0.0098865 0.0028673 -0.0039353 6.7754e-05 0.0025415
0.0019818 -0.0015123 -0.0010568 -0.00018617
-0.013897 0.0098678 0.15211 0.32214 0.0011846 0.012573 0.0017289 -0.00085196
7.503e-05 -0.0012206 0.00028433 -0.00094014
0.002859 -0.0039589 0.0012587 0.012582 0.35448 -0.05441 -0.0013797 -0.00037091
0.00052199 -0.00083452 2.7681e-05 -4.5295e-05
7.5311e-05 0.0025393 0.0017277 -0.00085478 -0.0013864 -0.00036972 0.22154 0.13458
-0.015873 0.0025897 0.001717 0.0019823
0.0019752 -0.0015373 6.4568e-05 -0.0012225 0.00051076 -0.00083492 -0.01588 0.0026302
0.16023 0.17749 -0.011057 0.0017917
-0.0010606 -0.00017758 0.00027393 -0.00095533 2.1444e-05 -5.8294e-05 0.0017224 0.0019779
-0.011063 0.0018028 0.20235 0.25909
1580000000 0.29885 0.058984 -0.0077874 0.012664 -0.0010381 -0.0044694 0.0014346 0.0019659
-9.8621e-05 -0.0020282 -0.00034586 0.00034548
-0.007801 0.012653 0.17921 0.29738 0.0047252 0.0081045 0.00048952 -0.0017005
-0.00059319 -0.0011298 -0.00022627 -0.00078765
-0.0010668 -0.0044695 0.0047702 0.0080886 0.33327 -0.11136 -0.0017365 0.00095669
-0.00022834 -0.0011257 0.00012922 -0.00055184
0.0014475 0.0019591 0.000496 -0.0017032 -0.0017116 0.00095722 0.23382 0.096224
-0.012699 0.0079547 0.0023522 0.00051474
-0.00010822 -0.0020216 -0.00060266 -0.0011225 -0.00021938 -0.0011398 -0.012684 0.0079874
0.18314 0.15893 -0.0089189 0.0070041
-0.00034034 0.00035835 -0.00023456 -0.00077913 0.00013245 -0.00055188 0.0023564 0.00050467
-0.008925 0.0070286 0.23273 0.23148
1640000000 0.30031 0.017043 -0.0015452 0.011667 -0.0026405 -0.0023964 0.002694 0.00097617
-0.00056802 -0.0015822 -0.00027344 0.00068417
-0.0015527 0.011671 0.20891 0.27148 0.0055087 0.0037379 -0.00083331 -0.0017499
-0.0011529 -0.00035082 -0.00051235 -0.00054634
-0.0026594 -0.0023826 0.0055334 0.0037103 0.30417 -0.16036 -0.0005544 0.0016753
-0.0010925 -0.00084833 -0.00011644 -0.00015722
0.0026987 0.00096667 -0.00084907 -0.0017379 -0.00055032 0.0016715 0.24502 0.048047
-0.0083962 0.010006 0.0025079 -0.0010155
-0.00057927 -0.0015826 -0.0011544 -0.00034307 -0.0010916 -0.00084914 -0.0083721 0.010022
0.20467 0.13361 -0.0045415 0.0088008
-0.00026371 0.00067617 -0.00051634 -0.00054512 -0.00012107 -0.00015344 0.0024991 -0.0010226
-0.0045245 0.0088211 0.25775 0.1986
1700000000 0.29161 -0.028624 0.0017005 0.0091829 -0.0032746 0.00028274 0.003004 -0.0012458
-0.0019763 -0.00081289 0.00068328 0.00037592
0.0016839 0.0091872 0.22624 0.23956 0.0038275 0.00094174 -0.0015177 -0.00051364
-0.00082993 0.00028023 -0.00085756 -0.00040271
-0.0033006 0.00032424 0.0038264 0.00090661 0.26017 -0.19995 0.00075069 0.0016011
-0.0018586 -0.00018703 -0.00057252 -0.00083374
0.0029976 -0.0012668 -0.0015151 -0.00050558 0.00074912 0.0015948 0.2407 -9.0709e-05
-0.0048846 0.011105 0.0014317 -0.0021616
-0.001985 -0.00080069 -0.0008304 0.00027734 -0.0018759 -0.00019113 -0.0048629 0.011127
0.22015 0.11299 -0.0001954 0.0092682
0.00069381 0.00036974 -0.00085974 -0.00039272 -0.00057385 -0.00082688 0.0014209 -0.0021663
-0.00016525 0.0092835 0.272 0.16307
1760000000 0.27858 -0.077164 0.0039608 0.006147 -0.0020644 0.00091154 0.0011235 -0.0034295
-0.0014901 0.00059304 0.00048143 -0.00038178
0.0039499 0.006142 0.25209 0.19916 0.0018011 -0.0010949 -0.0012316 0.00026192
-0.00091832 0.0010168 -0.00059441 0.00047004
-0.0020524 0.00092153 0.0018002 -0.0011071 0.21151 -0.23315 0.0012963 0.0007556
-0.0011249 0.0014564 -0.0012353 -0.00032286
0.0011105 -0.0034221 -0.0012278 0.00027603 0.0013047 0.00074682 0.23211 -0.049728
-0.0007695 0.010573 -0.00030526 -0.0024449
-0.0014883 0.00059853 -0.00090806 0.0010206 -0.001123 0.0014641 -0.00075162 0.010583
0.23407 0.077885 0.003522 0.0068802
0.00047056 -0.00040621 -0.00059683 0.00047489 -0.0012232 -0.00031982 -0.00030656 -0.0024465
0.0035524 0.0068792 0.28355 0.12512
1820000000 0.25235 -0.11447 0.0042674 0.0027413 0.00023669 0.0023892 -0.001113 -0.0029351
-0.001215 0.0011154 -2.3438e-05 -8.258e-05
0.004256 0.0027428 0.2611 0.16837 -0.00011366 5.4763e-05 -0.0011747 0.0010673
0.00017813 0.001286 -0.00047575 0.0005192
0.00025339 0.0023837 -0.00012172 4.8301e-05 0.16016 -0.24859 0.0013322 0.00010407
-0.0001265 0.0022528 -0.0012851 0.00042022
-0.00112 -0.002934 -0.001169 0.0010753 0.0013322 0.00012047 0.20252 -0.095998
0.0015678 0.0087089 -0.0015673 -0.0014172
-0.0012089 0.0011145 0.0001912 0.0012841 -0.00013577 0.002222 0.0015927 0.0087157
0.24959 0.048247 0.0044775 0.0036546
-2.6476e-05 -8.5578e-05 -0.00046826 0.00052085 -0.0012841 0.00040275 -0.0015711 -0.0014153
0.0045011 0.0036368 0.28428 0.087378
1880000000 0.21582 -0.15366 0.0021032 0.00050687 -0.0003211 0.0018855 -0.0029842 -0.0019681
-0.00020478 0.0018468 0.00030599 -0.00055346
0.002103 0.00051306 0.26473 0.12208 -0.0022417 0.0017231 -5.0533e-05 0.0016405
0.0006911 0.00097563 0.00016034 0.00092592
-0.00030978 0.0018811 -0.0022362 0.0017468 0.10693 -0.25714 0.0014421 -0.0010231
0.0016001 0.0017806 -0.00076439 0.001309
-0.0029891 -0.0019527 -4.5656e-05 0.0016391 0.0014486 -0.0010286 0.16342 -0.13542
0.0030679 0.0061136 -0.0020846 0.00027615
-0.00019642 0.0018597 0.0007019 0.0009679 0.0016317 0.0017698 0.0030875 0.0061043
0.25154 0.016042 0.0044869 0.0017994
0.0003007 -0.00055803 0.00016699 0.00092606 -0.00075757 0.0012914 -0.0020852 0.00028788
0.0044993 0.0017825 0.28242 0.053962
1940000000 0.17588 -0.17909 -1.453e-05 -0.0011167 0.001368 0.0017347 -0.0036127 0.00063195
0.0015959 0.0010728 -0.00060278 -0.00069158
-7.9179e-06 -0.0011149 0.26472 0.090032 -0.00086404 0.0039315 0.0010219 0.001123
0.0016494 0.00027671 0.00081586 0.00035449
0.0013703 0.0017171 -0.00084617 0.0039203 0.062028 -0.24995 9.3736e-05 -0.001755
0.0021763 0.00027025 0.00026946 0.0015968
-0.0036122 0.00063897 0.0010338 0.0011184 9.3099e-05 -0.001771 0.1121 -0.16666
0.0025853 0.0039002 -0.0011653 0.0012143
0.0016176 0.0010665 0.0016594 0.00026204 0.002159 0.00026633 0.0025921 0.003895
0.25285 -0.023652 0.0035587 -0.0012788
-0.00060555 -0.00067539 0.00081661 0.00035159 0.00026186 0.0016102 -0.0011612 0.0012209
0.0035628 -0.0013112 0.27066 0.016808
2000000000 0.12845 -0.19266 -0.0037347 0.00086585 0.0023884 0.0014948 -0.0022426 0.0032794
0.0012909 7.7243e-05 -0.00066473 0.00028149
-0.0037333 0.00087029 0.24954 0.054658 -0.00063093 0.0054946 0.0015009 0.00021933
0.0010552 -0.0012885 0.00050001 8.8969e-05
0.0024222 0.0014843 -0.00058746 0.0055092 0.018168 -0.23502 -0.0010917 -0.00094814
0.0016987 -0.0011356 0.0015549 0.0010632
-0.0022273 0.003297 0.0014954 0.00020249 -0.0010896 -0.0009424 0.058256 -0.17738
0.0007492 0.0025819 -9.1147e-06 0.0019318
0.0012884 5.6432e-05 0.0010538 -0.0012997 0.0016912 -0.0011374 0.00076478 0.0025779
0.24559 -0.057992 0.00053316 -0.0023673
