!Keysight Technologies,M9804A,MY58100912,A.14.10.03
!Date: Thursday, April 27, 2023 10:28:33
!Correction: S11(C  6-Port  ) 
!S12(C  6-Port  ) 
!S13(C  6-Port  ) 
!S14(C  6-Port  ) 
!S15(C  6-Port  ) 
!S16(C  6-Port  ) 
!S21(C  6-Port  ) 
!S22(C  6-Port  ) 
!S23(C  6-Port  ) 
!S24(C  6-Port  ) 
!S25(C  6-Port  ) 
!S26(C  6-Port  ) 
!S31(C  6-Port  ) 
!S32(C  6-Port  ) 
!S33(C  6-Port  ) 
!S34(C  6-Port  ) 
!S35(C  6-Port  ) 
!S36(C  6-Port  ) 
!S41(C  6-Port  ) 
!S42(C  6-Port  ) 
!S43(C  6-Port  ) 
!S44(C  6-Port  ) 
!S45(C  6-Port  ) 
!S46(C  6-Port  ) 
!S51(C  6-Port  ) 
!S52(C  6-Port  ) 
!S53(C  6-Port  ) 
!S54(C  6-Port  ) 
!S55(C  6-Port  ) 
!S56(C  6-Port  ) 
!S61(C  6-Port  ) 
!S62(C  6-Port  ) 
!S63(C  6-Port  ) 
!S64(C  6-Port  ) 
!S65(C  6-Port  ) 
!S66(C  6-Port  ) 
!S6P File: Measurement: :
# Hz S  RI   R 50
500000000 -0.33908 -0.023162 -0.01045 -0.0031082 -0.0079573 0.012362 -0.003578 0.01207
0.012232 0.004037 -0.0031577 0.0083442
-0.010434 -0.0031153 -0.41954 -0.041396 0.0067139 -0.011647 0.001836 0.012261
0.0075223 0.0019937 0.0022391 0.01332
-0.007934 0.012367 0.0066971 -0.011667 -0.26343 0.21914 0.0070934 0.0035694
-0.0010284 0.0075725 0.0020461 0.011617
-0.0035693 0.012073 0.0018644 0.012276 0.007092 0.0035794 -0.33262 0.057033
-0.019141 -0.0066577 0.014716 0.023953
0.012231 0.0040013 0.0075342 0.0019733 -0.0010143 0.0075682 -0.01914 -0.0066431
-0.23242 -0.17118 -0.024306 0.0050587
-0.0031392 0.0083253 0.0022845 0.013333 0.0020604 0.01161 0.01472 0.023945
-0.024328 0.0050611 -0.28202 -0.094422
560000000 -0.31343 0.1341 -0.025444 -0.061748 0.00065186 0.011682 0.004797 0.0098569
0.0094102 0.0041174 0.0096828 0.0067312
-0.025401 -0.061686 -0.37379 0.11517 -0.041972 -0.034936 0.013468 0.0039065
-0.012648 -0.0033661 0.0027821 -0.0010453
0.00068593 0.011671 -0.042096 -0.034887 -0.18104 0.26432 -0.00069655 -0.0044603
0.018155 0.0035378 0.0064834 -0.0068336
0.0048312 0.0098277 0.013466 0.003902 -0.00068981 -0.0044487 -0.30568 0.14527
0.0011233 -0.024196 0.0032353 -0.0194
0.0094301 0.0041225 -0.012703 -0.0033355 0.018171 0.0035336 0.0010876 -0.024195
-0.28721 0.00027911 0.0057149 -0.047856
0.009701 0.0067368 0.0027943 -0.0010738 0.0064783 -0.0068247 0.0032507 -0.019401
0.0057191 -0.047868 -0.32971 0.046492
620000000 -0.2714 0.11845 -0.02332 0.0070302 0.0034866 0.0077837 0.0076406 -0.0051702
0.01068 -0.0015222 0.00070305 -0.0023506
-0.023318 0.0070258 -0.40134 0.068358 -0.019221 0.00020613 -0.0014489 -0.0016162
0.010515 -0.0071808 0.0010665 -0.0027917
0.0035179 0.0077699 -0.019246 0.00024108 -0.15049 0.27377 -0.0014568 -0.0045032
-0.0033843 -0.0029819 0.0076269 -0.0034004
0.0076289 -0.0051731 -0.0014609 -0.0016119 -0.0014588 -0.0045067 -0.26359 0.15583
-0.040559 -0.016469 0.012476 0.024404
0.010677 -0.0015799 0.010492 -0.0072176 -0.0033796 -0.0029797 -0.040576 -0.016459
-0.20872 -0.040312 -0.039732 0.014645
0.0007069 -0.0023598 0.0010691 -0.0028091 0.0076351 -0.0034123 0.012505 0.024388
-0.039738 0.014645 -0.25532 0.016675
680000000 -0.2285 0.2016 -0.02751 -0.013211 0.0051909 0.0045986 0.0010419 -0.0069622
-0.0031582 -0.010637 0.0040792 -0.0062592
-0.027475 -0.013207 -0.38545 0.16406 -0.032257 -0.00015257 -0.0016043 -0.00050258
-0.0023931 -0.008862 -0.0017509 -0.0021154
0.0051971 0.0045797 -0.032283 -6.5729e-05 -0.099698 0.2929 -0.00097816 -0.00031382
-0.0017375 0.00025798 -0.0034538 -0.0086159
0.0010464 -0.0069564 -0.0016151 -0.00049683 -0.00098642 -0.00031943 -0.21804 0.2062
-0.026098 -0.0054647 -0.008701 -0.0089279
-0.0031714 -0.01063 -0.0024115 -0.0088674 -0.0017358 0.00027253 -0.026115 -0.0054521
-0.25208 0.060373 -0.0068054 -0.007664
0.0040668 -0.0062762 -0.0017659 -0.0021022 -0.003458 -0.0086142 -0.0087167 -0.0089232
-0.0067985 -0.0076612 -0.25561 0.11567
740000000 -0.18541 0.19591 -0.037339 0.026141 0.011993 -0.0055976 -0.00073778 -0.0043454
-0.0043571 -0.0028377 -0.00595 0.003289
-0.037325 0.026114 -0.33348 0.18343 -0.033403 0.034798 -0.00072682 -0.0061974
-0.011265 0.0078996 -0.0016187 -0.0054533
0.011958 -0.0056271 -0.033333 0.034925 -0.065674 0.29198 -0.0018056 0.0031671
-0.0029313 -0.0042997 -0.0018229 0.0010605
-0.0007492 -0.0043448 -0.00074027 -0.0062054 -0.001806 0.003164 -0.20022 0.2139
-0.042592 -0.0039582 0.022271 0.013282
-0.0043967 -0.0028197 -0.011256 0.0079257 -0.0029257 -0.0043091 -0.04263 -0.0039153
-0.15775 0.081243 -0.040068 0.0032454
-0.0059451 0.003279 -0.0016342 -0.0054414 -0.0018297 0.0010714 0.022275 0.013275
-0.040043 0.0032055 -0.24453 0.1237
800000000 -0.15297 0.23447 -0.022078 0.017293 0.0044636 -0.01029 -0.0046113 -0.0017819
-0.0035201 0.0024477 0.0035317 0.00059481
-0.022085 0.01727 -0.33538 0.25256 -0.0070224 0.033578 -0.0024448 0.0022696
-0.00027676 0.0029695 0.0010471 0.0050199
0.0044309 -0.010313 -0.0069358 0.03363 -0.023874 0.31437 0.00083799 0.0015944
0.00039019 0.0034766 -0.0018767 0.00099926
-0.0046176 -0.0017788 -0.0024368 0.0022809 0.00083523 0.0016048 -0.17072 0.24069
-0.027153 0.016178 0.012573 -0.0098723
-0.0035099 0.0024662 -0.00027022 0.0029897 0.00038308 0.0034763 -0.027131 0.016247
-0.19765 0.10861 -0.016538 0.018283
0.0035372 0.00058998 0.0010728 0.0050221 -0.0018844 0.0010047 0.012568 -0.0098994
-0.016541 0.018263 -0.23429 0.17064
860000000 -0.11752 0.25492 -0.016482 0.031202 -0.0039043 -0.0091949 -0.0022569 0.0010603
0.0040872 0.0042553 -0.0029847 -0.0027691
-0.016481 0.031174 -0.28741 0.29462 0.0087601 0.033257 0.0001483 0.0021753
0.0040672 7.672e-05 0.0030211 0.00043283
-0.0039303 -0.0091865 0.0088636 0.033261 0.025527 0.32162 -0.00041864 -0.0002021
0.0025376 -0.0012598 0.0014015 0.0042705
-0.0022637 0.001052 0.00015657 0.0021832 -0.00041841 -0.00020586 -0.13281 0.25135
-0.015101 0.020389 -0.0060237 -0.0091627
0.0041011 0.0042318 0.004072 5.8835e-05 0.0025303 -0.0012656 -0.01509 0.020421
-0.14563 0.15589 -0.022511 0.015872
-0.0029995 -0.0027538 0.0030284 0.00041384 0.0013987 0.0042718 -0.0060271 -0.0091722
-0.022518 0.015846 -0.1836 0.21202
920000000 -0.091224 0.27663 0.0059473 0.037336 -0.0092495 -0.0035978 -0.0015318 0.0018945
0.0014002 0.0015645 0.0025773 -0.0018677
0.0059213 0.037321 -0.25747 0.3145 0.027983 0.020616 0.0018618 0.00090172
0.0066761 -0.00054617 0.0035739 -0.0028811
-0.0092632 -0.0035776 0.028066 0.020561 0.072345 0.3209 0.0019451 -0.00012937
0.0015113 -0.00044207 0.00087073 -0.0010267
-0.0015397 0.0019013 0.0018758 0.00089027 0.0019397 -0.00013057 -0.10752 0.26647
-0.0077067 0.030994 0.0025968 -0.0064029
0.0013971 0.001554 0.0066741 -0.00057473 0.0015092 -0.00044214 -0.0076543 0.03104
-0.13302 0.16112 -0.00082686 0.026212
0.0025767 -0.0018599 0.0035613 -0.0029075 0.00087407 -0.0010227 0.0026082 -0.0064113
-0.00084786 0.026194 -0.18598 0.22628
980000000 -0.043777 0.29537 0.018397 0.029035 -0.0081674 0.0048654 0.0021255 0.0032874
0.0039679 -0.001516 -0.0031094 -0.0020603
0.018346 0.029037 -0.20496 0.34806 0.032341 0.0036317 0.002063 -0.0002446
0.0013962 -0.005961 -0.00054458 -0.0022784
-0.0081474 0.0048836 0.032371 0.003527 0.11894 0.31349 0.00054453 -0.0013037
0.00015184 -0.0022476 0.0014606 -0.00018062
0.002136 0.0032771 0.0020585 -0.00023353 0.00054351 -0.0013071 -0.068534 0.27698
0.010225 0.028437 -0.0086414 -0.0064142
0.0039582 -0.0015427 0.0013693 -0.0059708 0.00014667 -0.0022371 0.010281 0.028425
-0.10067 0.18697 0.0058815 0.018365
-0.003124 -0.0020387 -0.00053591 -0.0023008 0.0014666 -0.0001856 -0.0086488 -0.0064025
0.0058634 0.018361 -0.14141 0.26728
1040000000 -0.00038114 0.30201 0.0331 0.016307 -0.00080734 0.006612 0.0024712 0.00058218
0.00016466 -0.0032272 -0.00059617 -0.0010968
0.033049 0.016326 -0.16859 0.36049 0.027921 -0.015252 0.0014947 -0.0017957
-0.0022379 -0.0023013 -0.0014751 -0.0025137
-0.00077797 0.0066081 0.027878 -0.015347 0.16553 0.29826 -0.00056115 -0.0014977
-0.0016525 -0.00093024 -0.00033134 -0.0010362
0.0024753 0.00056823 0.0015048 -0.0017895 -0.00055842 -0.0014997 -0.039602 0.28539
0.020653 0.015942 -0.0024289 0.0014001
0.00015076 -0.0032481 -0.0022594 -0.0022781 -0.0016515 -0.00092752 0.020705 0.015911
-0.06794 0.19319 0.013416 0.016474
-0.0006162 -0.0010811 -0.0014857 -0.0025414 -0.00034097 -0.0010301 -0.0024206 0.001405
0.013393 0.016488 -0.11673 0.28655
1100000000 0.044606 0.30849 0.034655 -0.0053606 0.0029296 0.0034699 0.0022016 -0.0011835
-0.0018553 -0.0029461 -0.0035993 0.00027121
0.034624 -0.0053233 -0.12552 0.37705 0.013831 -0.027166 -0.00010261 -0.001786
-0.0030941 -0.00070693 -0.0032826 -0.00033706
0.0029421 0.0034612 0.013746 -0.027237 0.21126 0.27668 -0.0018167 0.00020556
-0.0017821 0.00052637 -0.0009804 -0.00031041
0.0021902 -0.0011958 -0.00011466 -0.0017802 -0.0018215 0.00020896 0.0011275 0.2886
0.024732 0.0029358 -0.0023949 4.5415e-05
-0.0018659 -0.0029387 -0.0031124 -0.00069357 -0.0017896 0.00052863 0.024758 0.0029003
-0.049755 0.20557 0.018213 0.0065875
-0.0036067 0.00028811 -0.0032817 -0.00032101 -0.00097014 -0.00030401 -0.0023917 5.2857e-05
0.018199 0.0065963 -0.070905 0.31188
1160000000 0.096363 0.30242 0.022448 -0.021015 0.0024524 -0.00061871 -0.00016686 -0.002152
-0.00384 -0.00059111 -0.00074416 0.003773
0.022443 -0.02097 -0.080799 0.38069 -0.0042909 -0.027878 -0.0016598 -0.0015488
-0.0025065 0.002398 -0.0014219 0.0016048
0.002463 -0.0006315 -0.0044156 -0.027875 0.25428 0.2449 -0.00073784 0.0016941
-0.00049201 0.0018495 -0.00091012 0.00011717
-0.00017594 -0.0021583 -0.0016577 -0.0015249 -0.0007416 0.0016965 0.041107 0.28363
0.020116 -0.012109 -0.0030316 0.004615
-0.0038419 -0.00057396 -0.00251 0.0024172 -0.00049868 0.0018532 0.020122 -0.012132
-0.01584 0.21295 0.01655 -0.00077269
-0.00074025 0.0037864 -0.0014151 0.0016017 -0.00090647 0.00010854 -0.003032 0.0046149
0.016541 -0.00075924 -0.023083 0.31314
1220000000 0.14059 0.28915 0.0090117 -0.029285 -0.0015451 -0.00060342 6.2423e-05 -0.00089133
-0.0023659 0.0023668 0.0012517 0.0017482
0.0090257 -0.029238 -0.036986 0.39123 -0.016591 -0.019867 -0.0023757 0.00041254
2.5173e-05 0.0028223 -0.00065195 0.0018993
-0.0015474 -0.00059282 -0.016703 -0.019823 0.29266 0.20476 0.00076328 0.0016894
0.00064106 0.0011949 0.00025429 0.00061096
5.4324e-05 -0.00089243 -0.0023825 0.00042649 0.00075643 0.0016839 0.080607 0.27274
0.0095052 -0.018109 0.0016794 0.0013228
-0.0023436 0.0023618 3.6169e-05 0.0028262 0.00064484 0.0011871 0.0094697 -0.018102
0.0077908 0.21938 0.011996 -0.012751
0.0012575 0.0017571 -0.00064216 0.0019086 0.00025794 0.0006176 0.0016823 0.0013218
0.011994 -0.012746 0.0091696 0.32583
1280000000 0.18934 0.26614 -0.0084672 -0.027138 -0.0015939 0.0025958 -0.00094528 -0.0019442
-0.0006096 0.0028402 0.0023124 0.00088119
-0.0084384 -0.027121 0.0087112 0.38199 -0.022775 -0.0078078 -0.00097803 0.001387
0.001489 0.0017057 0.00063056 0.0017507
-0.0015914 0.0025935 -0.022835 -0.0077104 0.32272 0.16074 0.001512 6.068e-05
0.0010692 0.00022654 0.00029666 0.00021059
-0.00094913 -0.0019399 -0.00097919 0.0013888 0.0015064 6.7224e-05 0.11655 0.25478
-6.8496e-05 -0.019608 -0.00039036 0.00040806
-0.00059816 0.0028472 0.0015112 0.0016994 0.00107 0.00021939 -0.00010322 -0.019622
0.044052 0.22167 0.0018909 -0.014243
0.0023185 0.00087188 0.00063901 0.0017438 0.00030064 0.00020897 -0.00039172 0.00040893
0.0018894 -0.014245 0.055436 0.32493
1340000000 0.22597 0.23079 -0.017397 -0.017676 0.0011352 0.0041132 -0.0016134 -0.00082697
0.0013616 0.0025212 0.0013569 -0.00137
-0.017367 -0.017671 0.048046 0.37279 -0.020572 0.0042688 -0.00021762 0.002005
0.001848 0.00084629 0.0012902 0.00071495
0.001157 0.0041134 -0.020578 0.0043797 0.34479 0.11186 0.0011936 -0.00087647
0.00062714 -0.00045872 0.00012987 0.00022791
-0.0016229 -0.00082468 -0.00020546 0.0019953 0.0011886 -0.00087822 0.14814 0.23251
-0.0091946 -0.016573 0.00069533 0.00085852
0.0013675 0.0025105 0.0018553 0.00084024 0.00062133 -0.00045442 -0.0092292 -0.016559
0.073803 0.21486 -0.0042183 -0.012583
0.0013497 -0.0013752 0.0013013 0.00070607 0.00012981 0.00023059 0.0006945 0.00086134
-0.0042144 -0.012587 0.094406 0.31741
1400000000 0.25738 0.19184 -0.022438 -0.0066353 0.0050438 0.0026862 -0.0020413 0.00048512
0.0022007 0.00075504 0.00017497 -0.0012853
-0.022407 -0.0066494 0.084474 0.35955 -0.014046 0.011874 0.0012763 0.0014032
0.001187 -0.0006951 0.0011418 0.00013629
0.005061 0.0026581 -0.014009 0.011951 0.35693 0.057678 0.00023484 -0.0017997
6.4636e-05 -0.00039989 0.00023584 0.0002387
-0.0020477 0.00048421 0.0012847 0.0013941 0.00023727 -0.0018061 0.17572 0.20256
-0.014976 -0.010045 -0.00056336 0.00016866
0.0022109 0.00073445 0.0011832 -0.00069963 5.9697e-05 -0.00039978 -0.014999 -0.010014
0.10523 0.2088 -0.009955 -0.0077828
0.00017247 -0.0012982 0.0011486 0.00013192 0.00023582 0.00023983 -0.00056254 0.00016999
-0.0099504 -0.0077874 0.13734 0.30423
1460000000 0.27951 0.14757 -0.019424 0.0047128 0.0052522 -0.0019803 -0.0015972 0.0015683
0.0018405 -0.00049338 -0.00029579 -0.00082884
-0.019403 0.0046998 0.11885 0.33764 -0.005984 0.014476 0.0017785 0.00020545
0.00092069 -0.0012412 0.0010989 -0.00051131
0.0052475 -0.0020049 -0.0059162 0.014522 0.36233 0.00288 -0.0014246 -0.0013739
0.00019661 -0.00014509 0.00057549 -0.00031109
-0.0016001 0.0015697 0.0017858 0.00020509 -0.0014173 -0.0013728 0.20055 0.17288
-0.016385 -0.0033211 -0.00052681 0.0021685
0.0018409 -0.00050603 0.00091851 -0.0012402 0.00019013 -0.00014166 -0.016401 -0.0032871
0.13365 0.19323 -0.011135 -0.0023901
-0.0003074 -0.00082927 0.0010982 -0.00051633 0.00057508 -0.00031298 -0.0005257 0.0021656
-0.011128 -0.0023998 0.17008 0.28199
1520000000 0.29055 0.10492 -0.013886 0.0098807 0.0028621 -0.003939 7.5004e-05 0.0025383
0.0019791 -0.0015247 -0.0010541 -0.00018725
-0.013881 0.0098641 0.1521 0.32213 0.0011895 0.012579 0.0017359 -0.00085146
7.5244e-05 -0.0012113 0.00028393 -0.00094849
0.0028463 -0.0039425 0.0012476 0.012578 0.35449 -0.054446 -0.0013812 -0.00036327
0.00051848 -0.0008295 2.7561e-05 -4.916e-05
8.3108e-05 0.002542 0.0017279 -0.00086022 -0.0013901 -0.00036578 0.22157 0.13461
-0.01587 0.0025859 0.0017125 0.0019826
0.0019712 -0.0015429 6.9762e-05 -0.0012193 0.00051887 -0.00083483 -0.015871 0.0026335
0.16021 0.17753 -0.011046 0.0017711
-0.0010582 -0.00018008 0.00027204 -0.00095213 2.6927e-05 -4.5207e-05 0.001713 0.0019844
-0.011043 0.0017695 0.20241 0.25911
1580000000 0.29885 0.058989 -0.0077873 0.012643 -0.0010406 -0.0044764 0.0014349 0.0019608
-0.00010175 -0.0020322 -0.00034698 0.00034467
-0.0077988 0.012632 0.17922 0.29737 0.004722 0.0081092 0.00049361 -0.001701
-0.00058632 -0.0011287 -0.00022369 -0.00077612
-0.0010633 -0.0044713 0.0047624 0.0080933 0.33325 -0.11134 -0.0017363 0.00095715
-0.00023366 -0.0011304 0.00013089 -0.00054799
0.0014471 0.001955 0.00048222 -0.0017004 -0.0017331 0.00095635 0.23383 0.096213
-0.012695 0.0079453 0.0023579 0.00051337
-0.00011903 -0.0020297 -0.00059533 -0.0011287 -0.00023272 -0.0011293 -0.012683 0.0079876
0.18318 0.15897 -0.0089225 0.0069859
-0.00034399 0.00034705 -0.00022489 -0.0007775 0.00012748 -0.00055225 0.002355 0.00051851
-0.008923 0.0069904 0.23279 0.23145
1640000000 0.30033 0.017019 -0.0015415 0.011661 -0.0026454 -0.00241 0.0026923 0.00097964
-0.00056737 -0.0015846 -0.00027459 0.00068023
-0.0015545 0.011655 0.20889 0.2715 0.0054997 0.0037388 -0.00082745 -0.0017431
-0.0011529 -0.00034766 -0.00051168 -0.00054253
-0.0026498 -0.0023833 0.0055297 0.0036978 0.30417 -0.16037 -0.00054722 0.0016712
-0.0010941 -0.00085232 -0.00011427 -0.00015503
0.002692 0.00096753 -0.000837 -0.0017427 -0.00055004 0.0016735 0.24504 0.048033
-0.008401 0.009998 0.0025019 -0.0010108
-0.00058063 -0.001576 -0.001152 -0.00034248 -0.0010931 -0.00085158 -0.0083776 0.010015
0.20474 0.13363 -0.0045362 0.0087868
-0.00026788 0.00068705 -0.00052026 -0.00054095 -0.00011513 -0.00015601 0.0025051 -0.0010176
-0.0045386 0.0087924 0.25776 0.19856
1700000000 0.29159 -0.028651 0.0016954 0.0091701 -0.0032894 0.00029897 0.0029991 -0.0012475
-0.0019701 -0.00081383 0.00068284 0.00037765
0.0016859 0.009169 0.22626 0.23958 0.0038238 0.00093837 -0.0015162 -0.00051108
-0.00083363 0.00027984 -0.00086031 -0.00040023
-0.0032875 0.00031785 0.0038352 0.00091607 0.26011 -0.19993 0.00073633 0.0016052
-0.0018539 -0.00018807 -0.00057476 -0.00082687
0.0030032 -0.0012591 -0.0015256 -0.00051081 0.00074402 0.0016067 0.24071 -0.00010317
-0.0048884 0.011109 0.0014307 -0.002151
-0.0019827 -0.00080004 -0.00082879 0.00028362 -0.0018503 -0.00018669 -0.0048656 0.01112
0.22023 0.11298 -0.00019942 0.0092705
0.00068806 0.00037043 -0.0008638 -0.0003985 -0.00057905 -0.0008327 0.0014242 -0.0021543
-0.00019013 0.0092687 0.272 0.16303
1760000000 0.27856 -0.077166 0.0039424 0.0061333 -0.0020592 0.00089715 0.0011178 -0.0034235
-0.0014895 0.00059536 0.00048002 -0.00038405
0.0039448 0.0061294 0.2521 0.19917 0.0018075 -0.0011095 -0.0012229 0.00026199
-0.00091597 0.0010084 -0.0005966 0.00046513
-0.0020604 0.00091278 0.0018055 -0.0011136 0.21148 -0.23313 0.0013106 0.00075427
-0.0011193 0.0014662 -0.0012445 -0.00031569
0.0011069 -0.00343 -0.0012246 0.00027129 0.0012957 0.00075405 0.23212 -0.04975
-0.00077803 0.010577 -0.00030207 -0.0024442
-0.001485 0.00060908 -0.00090452 0.0010176 -0.001122 0.0014669 -0.00075354 0.010582
0.23415 0.077839 0.0035169 0.0068741
0.0004799 -0.00038692 -0.00059255 0.00047483 -0.0012271 -0.00031543 -0.00030267 -0.0024458
0.0035207 0.0068745 0.28359 0.12508
1820000000 0.25233 -0.11451 0.0042515 0.0027379 0.00023024 0.0023919 -0.0011113 -0.0029326
-0.0012208 0.0011134 -2.1333e-05 -8.3067e-05
0.0042387 0.0027451 0.26109 0.16837 -0.00012428 4.5503e-05 -0.0011788 0.0010672
0.00017448 0.0012919 -0.00047573 0.00051733
0.00024965 0.0023954 -0.00012588 4.8186e-05 0.16013 -0.24862 0.0013284 0.00010652
-0.00013164 0.0022502 -0.001291 0.00040544
-0.0011314 -0.0029285 -0.001169 0.0010691 0.0013327 0.0001034 0.20251 -0.096034
0.0015758 0.0087071 -0.001561 -0.0014241
-0.0012112 0.001125 0.00017977 0.001284 -0.00013282 0.0022488 0.0015917 0.0087104
0.24964 0.048163 0.004467 0.0036485
-2.0373e-05 -8.4866e-05 -0.00047301 0.00052035 -0.0012874 0.00041893 -0.0015676 -0.0014094
0.0044627 0.0036472 0.28429 0.087342
1880000000 0.21578 -0.15364 0.0021038 0.00050681 -0.0003398 0.0018815 -0.0029796 -0.0019755
-0.00020831 0.0018514 0.00030979 -0.00055172
0.0021098 0.00050923 0.26474 0.12209 -0.0022359 0.0017128 -4.9009e-05 0.001641
0.00069168 0.00097477 0.00015687 0.00092487
-0.00032722 0.0018803 -0.0022181 0.0017314 0.1069 -0.2571 0.0014511 -0.001029
0.0016042 0.0017741 -0.00076363 0.0013107
-0.0029968 -0.0019616 -4.3739e-05 0.0016474 0.0014455 -0.0010316 0.1634 -0.13543
0.0030711 0.0061042 -0.0020877 0.00027942
-0.00019662 0.0018485 0.00069998 0.00097587 0.0015994 0.0017708 0.0030869 0.0060975
0.25156 0.015953 0.004482 0.0017987
0.00030167 -0.00055672 0.00016572 0.00092457 -0.0007653 0.0013111 -0.0020765 0.00028528
0.004482 0.0017983 0.28242 0.053935
1940000000 0.1759 -0.17912 -2.0797e-07 -0.0010974 0.0013735 0.0017555 -0.0036173 0.00064276
0.0015949 0.0010746 -0.00060209 -0.00069141
9.0628e-08 -0.0010916 0.26472 0.090045 -0.00087853 0.0039338 0.0010231 0.0011224
0.0016459 0.00026682 0.00081605 0.00035228
0.0013832 0.0017477 -0.00085092 0.0039465 0.062031 -0.25002 9.9718e-05 -0.001753
0.0021736 0.00027304 0.00027357 0.0016032
-0.0036122 0.00065269 0.0010282 0.0011196 9.6783e-05 -0.0017547 0.11208 -0.16671
0.0025858 0.003894 -0.0011648 0.0012126
0.0016027 0.0010602 0.0016518 0.00026481 0.0021815 0.00027145 0.0026002 0.0038933
0.25282 -0.02372 0.0035488 -0.0012759
-0.00061347 -0.00068837 0.00081655 0.00034579 0.00028324 0.0015914 -0.0011612 0.0012261
0.0035527 -0.0012837 0.27066 0.016808
2000000000 0.12842 -0.19266 -0.003743 0.00087848 0.0023731 0.001491 -0.0022415 0.0032808
0.0012887 7.7898e-05 -0.00066735 0.00028204
-0.0037409 0.00086238 0.24955 0.054661 -0.00063806 0.0055013 0.0014942 0.00020854
0.0010638 -0.0012894 0.00050183 9.0575e-05
0.0023768 0.0014799 -0.00060584 0.00551 0.018102 -0.23503 -0.001078 -0.00094618
0.0016969 -0.001134 0.0015564 0.0010623
-0.0022204 0.0032941 0.0015072 0.00020392 -0.0010744 -0.00094269 0.058225 -0.17738
0.00074918 0.0025773 -1.0168e-05 0.0019367
0.0013021 6.7588e-05 0.0010469 -0.0013022 0.001699 -0.0011375 0.00076422 0.0025805
