!Keysight Technologies,M9804A,MY58100912,A.14.10.03
!Date: Thursday, April 27, 2023 10:28:33
!Correction: S11(C  6-Port  ) 
!S12(C  6-Port  ) 
!S13(C  6-Port  ) 
!S14(C  6-Port  ) 
!S15(C  6-Port  ) 
!S16(C  6-Port  ) 
!S21(C  6-Port  ) 
!S22(C  6-Port  ) 
!S23(C  6-Port  ) 
!S24(C  6-Port  ) 
!S25(C  6-Port  ) 
!S26(C  6-Port  ) 
!S31(C  6-Port  ) 
!S32(C  6-Port  ) 
!S33(C  6-Port  ) 
!S34(C  6-Port  ) 
!S35(C  6-Port  ) 
!S36(C  6-Port  ) 
!S41(C  6-Port  ) 
!S42(C  6-Port  ) 
!S43(C  6-Port  ) 
!S44(C  6-Port  ) 
!S45(C  6-Port  ) 
!S46(C  6-Port  ) 
!S51(C  6-Port  ) 
!S52(C  6-Port  ) 
!S53(C  6-Port  ) 
!S54(C  6-Port  ) 
!S55(C  6-Port  ) 
!S56(C  6-Port  ) 
!S61(C  6-Port  ) 
!S62(C  6-Port  ) 
!S63(C  6-Port  ) 
!S64(C  6-Port  ) 
!S65(C  6-Port  ) 
!S66(C  6-Port  ) 
!S6P File: Measurement: :
# Hz S  RI   R 50
500000000 -0.33915 -0.023386 -0.010325 -0.0031135 -0.0078593 0.012416 -0.0035245 0.012061
0.012165 0.0039631 -0.003076 0.0083991
-0.01031 -0.003105 -0.41953 -0.041399 0.0067339 -0.011673 0.0018088 0.012246
0.0074977 0.0020788 0.0022077 0.013314
-0.0078027 0.01239 0.0067207 -0.011688 -0.26354 0.21913 0.0070781 0.003593
-0.00094977 0.0075929 0.0020103 0.011654
-0.0034917 0.012087 0.0017966 0.012259 0.0070762 0.0035975 -0.33263 0.056946
-0.019111 -0.0066728 0.014726 0.023933
0.012144 0.0039178 0.0075259 0.0020755 -0.00094268 0.0076176 -0.019117 -0.0066496
-0.2325 -0.17129 -0.024296 0.0051089
-0.0030506 0.0084056 0.0022124 0.013325 0.0020216 0.011668 0.014737 0.023923
-0.024287 0.0050887 -0.28191 -0.094732
560000000 -0.31343 0.13406 -0.025595 -0.061688 0.00065204 0.011564 0.0047702 0.0098245
0.0094206 0.0040756 0.0097055 0.0067618
-0.025558 -0.061614 -0.37379 0.11502 -0.041911 -0.034841 0.013489 0.0039172
-0.012618 -0.0034305 0.0027207 -0.001061
0.00069873 0.01153 -0.042047 -0.034778 -0.18126 0.26424 -0.00064043 -0.0043844
0.018088 0.0036885 0.0065362 -0.006811
0.0047502 0.0098255 0.013491 0.0038823 -0.00060686 -0.0043632 -0.30555 0.14518
0.0012031 -0.024223 0.0032473 -0.019376
0.0094602 0.0040238 -0.012656 -0.0033911 0.018094 0.0037021 0.0011874 -0.024218
-0.28716 0.00039373 0.0057624 -0.047891
0.0097408 0.0067462 0.0026813 -0.0010797 0.0065486 -0.0068247 0.0032389 -0.019378
0.0057947 -0.047892 -0.32973 0.046301
620000000 -0.2715 0.11823 -0.023332 0.0070486 0.0035216 0.0077733 0.0075592 -0.0051359
0.01065 -0.0016148 0.00082317 -0.002396
-0.023318 0.0070445 -0.40133 0.068344 -0.01919 0.00021793 -0.0014629 -0.0015742
0.010499 -0.0071991 0.0010618 -0.002771
0.0035627 0.0077894 -0.019196 0.00026229 -0.15048 0.27378 -0.0013696 -0.0045311
-0.003294 -0.0029164 0.0075551 -0.003353
0.0075402 -0.0050919 -0.0014569 -0.0015523 -0.0013525 -0.0045053 -0.26353 0.15588
-0.040683 -0.016381 0.0124 0.024447
0.010577 -0.0016602 0.010467 -0.0072533 -0.0033164 -0.002953 -0.040694 -0.016364
-0.20871 -0.040752 -0.039702 0.014561
0.00083253 -0.0024658 0.0010149 -0.0027679 0.0075518 -0.003328 0.012404 0.024456
-0.039694 0.014536 -0.25538 0.016558
680000000 -0.22855 0.20161 -0.0275 -0.013203 0.0052236 0.0045931 0.0010331 -0.006955
-0.0030932 -0.010618 0.0040779 -0.0062848
-0.027475 -0.01322 -0.38546 0.16399 -0.032259 -0.00014072 -0.0016002 -0.00048075
-0.0023699 -0.008854 -0.0017759 -0.0021312
0.0052255 0.0045852 -0.032297 -6.4751e-05 -0.099728 0.29289 -0.00099273 -0.00028851
-0.0017502 0.00028259 -0.0034399 -0.008632
0.0010495 -0.0069585 -0.0016063 -0.00045565 -0.00099848 -0.00028451 -0.21798 0.20621
-0.026014 -0.0054036 -0.008813 -0.0089646
-0.0031238 -0.010628 -0.0024079 -0.0088609 -0.0017644 0.00028862 -0.026028 -0.005377
-0.25202 0.060389 -0.0068371 -0.0076902
0.0040524 -0.0062789 -0.001785 -0.002139 -0.0034567 -0.0086423 -0.008801 -0.0089703
-0.0068259 -0.0076845 -0.25562 0.11557
740000000 -0.18535 0.19577 -0.037309 0.026205 0.011978 -0.0055911 -0.00075432 -0.0043548
-0.0043209 -0.0029042 -0.0059137 0.0032622
-0.037315 0.02616 -0.3334 0.18329 -0.033385 0.0348 -0.00067568 -0.0062631
-0.011289 0.0079056 -0.001731 -0.0054704
0.011946 -0.0056151 -0.033305 0.034932 -0.06567 0.29197 -0.0017651 0.0031542
-0.0029576 -0.0042753 -0.0017859 0.0010349
-0.00077933 -0.0043388 -0.00070613 -0.0062595 -0.00177 0.0031525 -0.20027 0.21389
-0.042559 -0.0040556 0.022275 0.013287
-0.0043894 -0.0029529 -0.011297 0.0079556 -0.0029522 -0.0042663 -0.042596 -0.004001
-0.1577 0.081342 -0.039997 0.003396
-0.0058966 0.0032914 -0.0017742 -0.0055093 -0.0017911 0.0010388 0.022299 0.013274
-0.040025 0.0033927 -0.24456 0.12364
800000000 -0.15299 0.23452 -0.022119 0.017302 0.0044526 -0.01029 -0.0046371 -0.0017999
-0.003554 0.0024961 0.0035596 0.00060775
-0.022117 0.017292 -0.33546 0.25252 -0.0070505 0.033584 -0.0024221 0.0022767
-0.00032472 0.0029353 0.0010436 0.0050349
0.0044228 -0.010294 -0.0069695 0.033646 -0.023924 0.31435 0.00084774 0.0015999
0.00035446 0.0034921 -0.0018601 0.0010181
-0.0046502 -0.0017891 -0.0024344 0.0022848 0.00084008 0.0015974 -0.17072 0.24067
-0.027162 0.01616 0.012565 -0.0098656
-0.0035603 0.0025357 -0.00033539 0.0029449 0.00034412 0.003502 -0.027162 0.01622
-0.19771 0.10846 -0.016562 0.018289
0.0035782 0.00060292 0.0010577 0.0050351 -0.001858 0.0010183 0.012578 -0.0098789
-0.01656 0.018275 -0.23438 0.17057
860000000 -0.1176 0.2549 -0.016492 0.031176 -0.0038929 -0.0092018 -0.0023086 0.0010281
0.004029 0.0042337 -0.0029682 -0.0027091
-0.016483 0.031129 -0.28736 0.29466 0.008767 0.033272 0.00016284 0.0021731
0.0040743 2.8837e-05 0.0029995 0.0003978
-0.0039217 -0.0092021 0.0088722 0.03328 0.02549 0.32162 -0.00042395 -0.0002
0.00255 -0.0012578 0.0014124 0.0042669
-0.0023323 0.0010086 0.00018537 0.0021553 -0.00042529 -0.00020466 -0.13283 0.25127
-0.015141 0.020345 -0.0060298 -0.0091492
0.0040108 0.0042337 0.0040754 4.3221e-06 0.0025569 -0.0012716 -0.015125 0.020377
-0.14571 0.15582 -0.022486 0.015891
-0.0029401 -0.0026872 0.0029933 0.00041384 0.0014204 0.0042689 -0.0060495 -0.0091494
-0.022482 0.015873 -0.18358 0.2119
920000000 -0.091295 0.27664 0.0059029 0.037406 -0.0092669 -0.0035946 -0.0015465 0.0018711
0.001365 0.0015625 0.0025992 -0.0018115
0.0058924 0.037368 -0.25755 0.31454 0.027973 0.020626 0.0018914 0.00090384
0.0066842 -0.00055305 0.0035851 -0.0029083
-0.0092976 -0.0035675 0.028061 0.020586 0.072324 0.32092 0.0019492 -0.00011908
0.0015278 -0.00045759 0.00086911 -0.0010295
-0.001548 0.0018658 0.0018868 0.00089332 0.0019614 -0.00011852 -0.10756 0.2665
-0.0077078 0.030976 0.0026216 -0.006431
0.0013757 0.0015624 0.0066868 -0.00055539 0.0015266 -0.00046224 -0.0076502 0.031017
-0.13307 0.16102 -0.00081286 0.026258
0.0026225 -0.0018341 0.0035901 -0.0029211 0.00086364 -0.0010322 0.002627 -0.0064362
-0.00083226 0.02625 -0.18614 0.22623
980000000 -0.043816 0.29528 0.018395 0.029032 -0.008192 0.0048525 0.0021477 0.0032432
0.0039801 -0.001514 -0.0031394 -0.0020285
0.018388 0.029017 -0.20493 0.34808 0.032329 0.0036271 0.0020653 -0.00023658
0.0014114 -0.0059641 -0.00051052 -0.0022761
-0.0081772 0.0048737 0.032353 0.0035407 0.11893 0.31349 0.00054612 -0.0013057
0.00015976 -0.0022298 0.0014772 -0.00016846
0.0021607 0.0032337 0.0020658 -0.00026981 0.00054774 -0.001305 -0.068549 0.27699
0.010169 0.028462 -0.0086515 -0.0064157
0.0039963 -0.001534 0.0013882 -0.0059615 0.00016067 -0.0022284 0.010223 0.028453
-0.10076 0.18691 0.0059135 0.018388
-0.0031589 -0.0020139 -0.00053468 -0.0022602 0.0014805 -0.00017418 -0.008657 -0.0063972
0.0059083 0.018388 -0.14155 0.26716
1040000000 -0.00041146 0.30201 0.033046 0.016361 -0.00081535 0.0066086 0.0024596 0.00055193
0.00016828 -0.0032035 -0.00061127 -0.0011098
0.033024 0.016354 -0.1686 0.36046 0.027918 -0.015258 0.0015358 -0.0017755
-0.0022091 -0.0023047 -0.0014426 -0.0025568
-0.00077569 0.0065998 0.027867 -0.015357 0.16551 0.29826 -0.00057333 -0.0014881
-0.0016454 -0.00093303 -0.00032231 -0.0010396
0.0024752 0.00054728 0.0015054 -0.0018099 -0.00056535 -0.0014902 -0.039643 0.28541
0.020638 0.015969 -0.0024126 0.001393
0.00017177 -0.0032204 -0.0022167 -0.0022823 -0.0016569 -0.00092127 0.020664 0.015936
-0.068024 0.1931 0.013455 0.016517
-0.00061333 -0.0011111 -0.0014503 -0.0025108 -0.00032055 -0.0010481 -0.002408 0.0013993
0.013442 0.016508 -0.11696 0.28642
1100000000 0.04456 0.30849 0.03467 -0.0053403 0.0029352 0.0034807 0.0022022 -0.0011891
-0.0018513 -0.0029386 -0.0036007 0.00026381
0.03464 -0.0053273 -0.1255 0.37705 0.013838 -0.027164 -0.00010665 -0.0017828
-0.0030964 -0.00071484 -0.0032531 -0.00035846
0.0029557 0.0034747 0.013748 -0.027238 0.21123 0.27669 -0.0018168 0.00021898
-0.0017871 0.00051556 -0.00098151 -0.00030234
0.0021956 -0.0011891 -0.00012295 -0.001794 -0.0018229 0.00020751 0.0011176 0.28861
0.024734 0.0029322 -0.002396 5.0266e-05
-0.0018709 -0.0029429 -0.0031126 -0.00069487 -0.0017917 0.00051873 0.024746 0.0028933
-0.049878 0.20555 0.018209 0.0066231
-0.0035963 0.00027298 -0.0032621 -0.00033526 -0.00098557 -0.0002969 -0.002394 5.1333e-05
0.018192 0.0066256 -0.071037 0.31182
1160000000 0.096265 0.30242 0.02248 -0.021038 0.0024451 -0.00061323 -0.00017874 -0.0021653
-0.0038456 -0.0005943 -0.00075032 0.0037631
0.022489 -0.021018 -0.080762 0.38068 -0.0042777 -0.027893 -0.0016512 -0.0015317
-0.002489 0.0024111 -0.0013844 0.0015815
0.0024654 -0.00061031 -0.0044056 -0.027897 0.25424 0.24493 -0.00075486 0.0016956
-0.00049991 0.001828 -0.00090554 0.00010514
-0.00018263 -0.002156 -0.0016599 -0.0015347 -0.0007471 0.0017094 0.041064 0.28363
0.020113 -0.012075 -0.0030158 0.0046016
-0.0038492 -0.00057389 -0.0024892 0.0024462 -0.00050581 0.0018185 0.020104 -0.012108
-0.015932 0.21296 0.016567 -0.00077959
-0.00072197 0.0037572 -0.0013813 0.0016079 -0.000901 0.00010414 -0.003008 0.0046186
0.016567 -0.00078971 -0.02323 0.31315
1220000000 0.1405 0.2892 0.0090416 -0.029308 -0.0015588 -0.0006231 4.692e-05 -0.00089221
-0.0023639 0.002349 0.001237 0.0017629
0.0090646 -0.029269 -0.036956 0.39124 -0.016592 -0.019877 -0.0024004 0.00041817
2.1248e-05 0.0028169 -0.00064307 0.0018962
-0.0015581 -0.00060978 -0.016699 -0.019827 0.29263 0.2048 0.00075317 0.0016825
0.00063303 0.0011899 0.00024579 0.0006118
3.8131e-05 -0.00088131 -0.0024034 0.00042677 0.0007488 0.0016804 0.080587 0.27272
0.0095356 -0.018107 0.0016786 0.001318
-0.0023518 0.0023563 3.117e-05 0.0028103 0.00062187 0.001185 0.0095085 -0.018119
0.007722 0.21938 0.012001 -0.012778
0.0012524 0.0017726 -0.0006302 0.001915 0.00025284 0.00061883 0.0016762 0.0013242
0.011996 -0.012764 0.0090837 0.32582
1280000000 0.18928 0.26619 -0.0084803 -0.027167 -0.0015979 0.0025793 -0.00094265 -0.0019481
-0.00060155 0.0028435 0.0023178 0.00089237
-0.0084563 -0.027139 0.0087029 0.38197 -0.022793 -0.0078347 -0.0009741 0.0013815
0.0014863 0.0017165 0.00061505 0.0017535
-0.0015961 0.0025762 -0.022858 -0.0077497 0.32271 0.16076 0.0015145 6.3121e-05
0.0010574 0.0002295 0.00028765 0.00022143
-0.00094659 -0.0019405 -0.00097362 0.0013758 0.0015118 6.3704e-05 0.11654 0.25479
-3.5329e-05 -0.019615 -0.00039772 0.00041285
-0.00059314 0.0028537 0.0015121 0.0017083 0.0010541 0.00023163 -7.4363e-05 -0.01962
0.043993 0.22173 0.0019097 -0.014271
0.0023114 0.00089482 0.00062066 0.0017431 0.00028824 0.00022433 -0.00039754 0.00041368
0.0018995 -0.01427 0.055321 0.32501
1340000000 0.22595 0.23088 -0.017413 -0.017713 0.001117 0.0041082 -0.0016227 -0.00082899
0.0013552 0.0025241 0.0013543 -0.0013712
-0.017387 -0.017717 0.048028 0.37279 -0.020592 0.0042701 -0.0002149 0.0020019
0.0018436 0.00084355 0.0012873 0.0007192
0.0011344 0.0040982 -0.020597 0.004375 0.34476 0.11187 0.0012023 -0.00087131
0.00062589 -0.00047068 0.00012144 0.0002236
-0.0016247 -0.00082254 -0.00021253 0.0020039 0.0012007 -0.00086993 0.14811 0.23248
-0.0091622 -0.016589 0.00069823 0.00084037
0.0013702 0.0025262 0.0018591 0.00083632 0.00062838 -0.00046701 -0.0092023 -0.016572
0.073787 0.21488 -0.0042496 -0.012621
0.0013539 -0.0013678 0.0013065 0.00072005 0.00012566 0.00022453 0.00069937 0.00085119
-0.0042534 -0.012625 0.094342 0.31744
1400000000 0.25739 0.1919 -0.022469 -0.0066511 0.0050424 0.0026781 -0.0020391 0.00048141
0.0022065 0.00074856 0.00018831 -0.0012851
-0.022443 -0.0066672 0.084467 0.35953 -0.014052 0.011871 0.0012713 0.0014098
0.0011877 -0.00067697 0.0011585 0.00012975
0.0050553 0.0026566 -0.014019 0.011951 0.35697 0.057725 0.00022772 -0.0018075
5.3607e-05 -0.00039644 0.00024329 0.0002429
-0.0020368 0.00049412 0.0012835 0.001403 0.00022305 -0.001809 0.1757 0.20255
-0.014971 -0.010058 -0.00057206 0.00016933
0.0022081 0.00074481 0.0011887 -0.00066903 4.9949e-05 -0.00039659 -0.014994 -0.010032
0.10518 0.20881 -0.010002 -0.0077966
0.00019202 -0.00129 0.0011667 0.00011478 0.00024585 0.00024204 -0.00057174 0.00017012
-0.0099904 -0.0078026 0.1373 0.30423
1460000000 0.27955 0.14761 -0.019447 0.0047179 0.0052317 -0.0019842 -0.0016254 0.0015848
0.001834 -0.00047502 -0.00030004 -0.00083582
-0.019425 0.0046967 0.11881 0.33763 -0.0060077 0.014502 0.0017817 0.00020773
0.00092773 -0.0012402 0.0011079 -0.00050763
0.005232 -0.0020024 -0.0059495 0.014546 0.36237 0.0029004 -0.001414 -0.0013484
0.000189 -0.00015497 0.00057992 -0.00031289
-0.001626 0.0015768 0.0017806 0.00019502 -0.0014086 -0.0013557 0.20051 0.17287
-0.016398 -0.0033469 -0.00051777 0.0021716
0.0018327 -0.00049479 0.00092366 -0.0012546 0.00019144 -0.00016098 -0.016416 -0.0032941
0.13361 0.1932 -0.011172 -0.0023904
-0.00029506 -0.00084718 0.0011048 -0.00051321 0.00058749 -0.00032111 -0.00049668 0.0021717
-0.011159 -0.0023978 0.17 0.28201
1520000000 0.29056 0.10493 -0.013911 0.0098999 0.0028789 -0.0039363 6.4555e-05 0.0025357
0.0019848 -0.0015176 -0.0010552 -0.00018142
-0.013906 0.0098805 0.15208 0.32216 0.001189 0.012583 0.0017297 -0.00084437
7.2178e-05 -0.0012201 0.00028717 -0.00096175
0.0028622 -0.0039607 0.0012496 0.012592 0.35444 -0.054426 -0.0013973 -0.00035568
0.0005134 -0.00085324 2.2378e-05 -5.7572e-05
6.414e-05 0.0025351 0.0017346 -0.00085267 -0.0013984 -0.00035541 0.22153 0.13461
-0.015892 0.0025753 0.0017261 0.0019723
0.0019767 -0.0015345 5.8416e-05 -0.0012185 0.00051366 -0.00086287 -0.015882 0.0026207
0.16016 0.17747 -0.011072 0.0017976
-0.0010604 -0.00017682 0.00027396 -0.0009567 2.1361e-05 -5.8124e-05 0.0017246 0.0019703
-0.011072 0.0017911 0.20226 0.25913
1580000000 0.29885 0.058968 -0.0077907 0.012684 -0.0010455 -0.0044567 0.0014418 0.0019612
-8.9609e-05 -0.002022 -0.00034023 0.00035391
-0.0078039 0.01267 0.17918 0.2974 0.004733 0.0080984 0.00050141 -0.0017001
-0.00058923 -0.0011234 -0.00023196 -0.00078182
-0.0010516 -0.0044507 0.0047799 0.0080937 0.33331 -0.11134 -0.0017261 0.0009529
-0.00022479 -0.0011451 0.00013007 -0.00056791
0.0014529 0.0019545 0.00048853 -0.0017067 -0.0017264 0.00095152 0.2338 0.096227
-0.012711 0.0079631 0.0023489 0.0005144
-0.00010121 -0.0020307 -0.00059744 -0.0011219 -0.00023471 -0.0011371 -0.012698 0.0079976
0.18307 0.15898 -0.0089349 0.0070259
-0.00034412 0.00035429 -0.00023972 -0.0007832 0.0001274 -0.00056896 0.002352 0.0005084
-0.0089331 0.0070253 0.23264 0.23153
1640000000 0.3003 0.016996 -0.0015322 0.011689 -0.0026523 -0.0023877 0.0026877 0.00097195
-0.00057068 -0.001591 -0.000267 0.00067157
-0.0015467 0.01168 0.20888 0.27153 0.0055039 0.0037374 -0.00083852 -0.0017416
-0.0011622 -0.00034605 -0.00050654 -0.00054768
-0.0026691 -0.0023521 0.0055387 0.0037111 0.30421 -0.16044 -0.00053428 0.0016684
-0.0010975 -0.00083265 -0.00013844 -0.00016157
0.0027058 0.00097027 -0.00083884 -0.0017372 -0.00054273 0.001667 0.245 0.048091
-0.0084106 0.010012 0.0025021 -0.0010173
-0.00058463 -0.0015892 -0.0011622 -0.00033454 -0.0010954 -0.00083621 -0.0083958 0.010039
0.20461 0.13364 -0.004531 0.0088251
-0.00026172 0.00067652 -0.00051314 -0.00054664 -0.00013697 -0.0001611 0.0024987 -0.0010248
-0.0045396 0.0088227 0.25763 0.19864
1700000000 0.29152 -0.028649 0.0017121 0.0091917 -0.0032885 0.00030575 0.0030031 -0.0012598
-0.0019808 -0.00081048 0.00068933 0.00037364
0.0016932 0.0091866 0.22627 0.23962 0.003827 0.00093063 -0.0015092 -0.00051367
-0.00083187 0.00027791 -0.0008524 -0.00039776
-0.0032815 0.00031529 0.003851 0.00091268 0.26021 -0.19992 0.00075293 0.0015984
-0.0018493 -0.00016768 -0.00056258 -0.00081378
0.0029933 -0.001275 -0.001515 -0.00051229 0.00075436 0.0015979 0.24074 -7.3411e-05
-0.0048925 0.011118 0.001424 -0.0021482
-0.0019803 -0.00078885 -0.000833 0.00028961 -0.0018496 -0.00016637 -0.0048712 0.011134
0.22011 0.11303 -0.00017991 0.0092863
0.00069616 0.0003667 -0.00085568 -0.0003922 -0.00056551 -0.00081865 0.0014262 -0.0021636
-0.00017742 0.009294 0.27191 0.16312
1760000000 0.27853 -0.077114 0.0039693 0.0061441 -0.0020675 0.00090997 0.0011249 -0.0034208
-0.0014971 0.00059161 0.00047397 -0.00039522
0.0039568 0.0061421 0.25211 0.1992 0.0018046 -0.001113 -0.0012327 0.00025954
-0.00091513 0.0010111 -0.00059804 0.00047278
-0.002076 0.0009264 0.0017983 -0.0011229 0.2115 -0.23313 0.0012939 0.00074596
-0.0011296 0.0014724 -0.0012318 -0.00030691
0.0011115 -0.0034203 -0.0012329 0.00027472 0.0012893 0.0007369 0.2321 -0.049706
-0.00076592 0.01058 -0.00029866 -0.0024446
-0.0014946 0.00060316 -0.00090369 0.0010248 -0.0011232 0.001479 -0.00073516 0.010586
0.23405 0.077946 0.0035338 0.0068923
0.00047799 -0.0003976 -0.00059936 0.00048144 -0.0012313 -0.00031051 -0.00030511 -0.0024404
0.0035342 0.006891 0.28349 0.12519
1820000000 0.25229 -0.11444 0.0042796 0.0027231 0.00024217 0.0023814 -0.0011133 -0.0029394
-0.0012131 0.0010972 -2.2e-05 -8.2381e-05
0.0042681 0.0027203 0.26113 0.16841 -0.00011794 4.4497e-05 -0.0011754 0.0010721
0.0001807 0.0012777 -0.00046645 0.00051202
0.0002534 0.0023711 -0.00011548 4.9344e-05 0.16016 -0.2486 0.0013295 0.00011654
-0.00012145 0.0022286 -0.001286 0.00041284
-0.0011315 -0.0029462 -0.001172 0.0010752 0.0013302 0.00013606 0.20255 -0.095981
0.0015787 0.0087032 -0.0015613 -0.0014096
-0.0012102 0.0010999 0.00018416 0.0012705 -0.00012989 0.0022354 0.001598 0.0087002
0.24956 0.048274 0.004492 0.0036367
-2.2655e-05 -8.2908e-05 -0.00046075 0.00051303 -0.0012959 0.00041795 -0.0015638 -0.0014038
0.0044863 0.0036411 0.28422 0.087446
1880000000 0.21579 -0.15355 0.0021228 0.00051494 -0.00031861 0.001877 -0.0029772 -0.0019603
-0.00021168 0.0018537 0.0003054 -0.00055092
0.0021219 0.00051165 0.26476 0.1221 -0.0022506 0.001721 -5.8849e-05 0.0016471
0.00068839 0.00097113 0.00014933 0.00092034
-0.00031321 0.0018859 -0.0022413 0.0017348 0.10691 -0.25714 0.0014586 -0.0010339
0.0016352 0.0017781 -0.00073711 0.0012535
-0.0029922 -0.001949 -4.9797e-05 0.0016557 0.0014491 -0.00104 0.16345 -0.13545
0.0030852 0.0061094 -0.0020842 0.00027704
-0.00019113 0.0018547 0.00070229 0.00096804 0.0016374 0.0017773 0.0030981 0.0061021
0.25153 0.016104 0.0045222 0.0017937
0.00030828 -0.00055991 0.00016057 0.00092636 -0.00073965 0.0012464 -0.0020833 0.00028748
0.0045217 0.0017906 0.28239 0.054042
1940000000 0.17594 -0.17901 -1.4404e-05 -0.0011166 0.0013667 0.0017339 -0.0036061 0.00062125
0.0016053 0.0010782 -0.0005934 -0.00069294
-1.1546e-05 -0.0011142 0.26475 0.09003 -0.00088389 0.003906 0.0010309 0.0011377
0.0016515 0.00027658 0.00081701 0.00035362
0.0013733 0.0017125 -0.00085996 0.0039245 0.062029 -0.24987 0.00011731 -0.0017784
0.0021654 0.00026964 0.00027233 0.0015933
-0.0036065 0.00063574 0.0010388 0.0011234 0.00011262 -0.0017828 0.11213 -0.16668
0.0025842 0.0038868 -0.0011648 0.0012148
0.001619 0.0010614 0.0016594 0.0002577 0.0021697 0.00027094 0.0025908 0.0038782
0.25286 -0.023585 0.003584 -0.0012962
-0.0006114 -0.00069023 0.000821 0.00034203 0.00027641 0.0015911 -0.0011652 0.0012211
0.0035851 -0.0012958 0.27068 0.016894
2000000000 0.1285 -0.19265 -0.0037338 0.00085865 0.0024211 0.0014674 -0.002235 0.0032888
0.0012909 7.6077e-05 -0.00065378 0.00029794
-0.0037308 0.00085462 0.24958 0.054653 -0.00063506 0.0054932 0.0014932 0.00021209
0.0010562 -0.0012871 0.00049877 0.00010138
0.0024207 0.0014437 -0.00059394 0.0055041 0.018202 -0.23508 -0.0010732 -0.00093961
0.0016893 -0.0011307 0.0015633 0.0010718
-0.0022074 0.003304 0.001498 0.00020529 -0.0010789 -0.00093331 0.058282 -0.17743
0.0007449 0.0025861 -8.8191e-06 0.0019258
0.001283 6.682e-05 0.0010533 -0.001288 0.0016973 -0.001134 0.00074852 0.0025823
0.24558 -0.057942 0.00053862 -0.0023934
