!Keysight Technologies,M9804A,MY58100912,A.14.10.03
!Date: Thursday, April 27, 2023 10:28:33
!Correction: S11(C  6-Port  ) 
!S12(C  6-Port  ) 
!S13(C  6-Port  ) 
!S14(C  6-Port  ) 
!S15(C  6-Port  ) 
!S16(C  6-Port  ) 
!S21(C  6-Port  ) 
!S22(C  6-Port  ) 
!S23(C  6-Port  ) 
!S24(C  6-Port  ) 
!S25(C  6-Port  ) 
!S26(C  6-Port  ) 
!S31(C  6-Port  ) 
!S32(C  6-Port  ) 
!S33(C  6-Port  ) 
!S34(C  6-Port  ) 
!S35(C  6-Port  ) 
!S36(C  6-Port  ) 
!S41(C  6-Port  ) 
!S42(C  6-Port  ) 
!S43(C  6-Port  ) 
!S44(C  6-Port  ) 
!S45(C  6-Port  ) 
!S46(C  6-Port  ) 
!S51(C  6-Port  ) 
!S52(C  6-Port  ) 
!S53(C  6-Port  ) 
!S54(C  6-Port  ) 
!S55(C  6-Port  ) 
!S56(C  6-Port  ) 
!S61(C  6-Port  ) 
!S62(C  6-Port  ) 
!S63(C  6-Port  ) 
!S64(C  6-Port  ) 
!S65(C  6-Port  ) 
!S66(C  6-Port  ) 
!S6P File: Measurement: :
# Hz S  RI   R 50
500000000 -0.33871 -0.023075 -0.010293 -0.0033817 -0.0085199 0.012515 -0.0041691 0.011554
0.011994 0.0038312 -0.002787 0.0082454
-0.010293 -0.0033934 -0.41941 -0.041445 0.0066547 -0.011742 0.0015778 0.012293
0.0074982 0.0021672 0.0020049 0.013885
-0.0086079 0.012412 0.0065992 -0.011782 -0.26326 0.21915 0.0064048 0.0037217
-0.0013098 0.0079768 0.0020289 0.011598
-0.0010266 0.010875 0.0028767 0.012171 0.0071508 0.0032245 -0.33349 0.057661
-0.02021 -0.0064807 0.014272 0.024178
0.012507 0.0048987 0.0072628 0.0025459 -0.0010631 0.0078929 -0.018397 -0.00616
-0.23175 -0.17204 -0.02515 0.0049247
-0.0011797 0.0061108 0.0030496 0.013389 0.0023194 0.01147 0.01389 0.024979
-0.026691 0.0044344 -0.28312 -0.095271
560000000 -0.31411 0.13343 -0.025641 -0.060844 5.5093e-05 0.010691 0.00706 0.0097097
0.0096779 0.0038292 0.0096316 0.0073984
-0.025628 -0.060851 -0.37453 0.11503 -0.042451 -0.036094 0.014637 0.0020716
-0.011786 -0.0039651 0.0029465 -0.0010844
0.00028033 0.010596 -0.042326 -0.036048 -0.18085 0.26439 0.00027063 -0.0040544
0.018172 0.0039242 0.0061304 -0.0066135
0.0055976 0.010412 0.013582 0.0036607 1.1013e-05 -0.0042714 -0.30512 0.14532
0.0013495 -0.023902 0.0037427 -0.019754
0.0080771 0.0039666 -0.012816 -0.0019931 0.017562 0.003463 0.00086961 -0.025188
-0.2865 -0.0012974 0.0048583 -0.047365
0.010386 0.0066564 0.0030265 -0.0010507 0.0063834 -0.0078581 0.0050458 -0.018636
0.0055213 -0.046435 -0.32978 0.046599
620000000 -0.27104 0.11824 -0.022678 0.0069548 0.0044091 0.0075433 0.0079018 -0.00445
0.010065 -0.0011799 0.0012255 -0.0029464
-0.022681 0.0069679 -0.401 0.068267 -0.018869 0.00019374 -0.0016392 -0.0021055
0.0097008 -0.0073437 0.0012014 -0.0024382
0.0045628 0.0077944 -0.018814 0.00027369 -0.15018 0.27302 -0.0013086 -0.0042532
-0.0038857 -0.0032091 0.0074709 -0.0032261
0.0085585 -0.0051031 -0.0011425 -0.0020031 -0.00023054 -0.0049895 -0.2653 0.15645
-0.040874 -0.016685 0.012622 0.023667
0.010166 -0.0022966 0.010443 -0.0069807 -0.004322 -0.0030901 -0.038777 -0.017898
-0.20742 -0.038451 -0.039505 0.01555
0.0016149 -0.0031795 0.0013162 -0.0029634 0.0087792 -0.0037049 0.0107 0.025209
-0.041616 0.017829 -0.25375 0.015934
680000000 -0.22852 0.20121 -0.027881 -0.01302 0.0049453 0.0049892 0.001045 -0.0066513
-0.0024722 -0.010666 0.0040612 -0.0062408
-0.027875 -0.013027 -0.38574 0.16445 -0.032456 0.00019962 -0.0015236 -0.00021281
-0.0023595 -0.0090098 -0.0018935 -0.0019332
0.0048891 0.0049433 -0.032513 0.00025789 -0.099902 0.29298 -0.0010492 -0.00029648
-0.0017227 0.00035628 -0.0036183 -0.0085682
0.00059547 -0.00668 -0.0018277 -0.00040193 -0.0010286 -0.00067382 -0.21886 0.20602
-0.025904 -0.0063636 -0.0086656 -0.0087743
-0.0037191 -0.010924 -0.0026525 -0.0088133 -0.0019678 0.00057902 -0.025747 -0.005043
-0.25033 0.059147 -0.0071113 -0.0077394
0.0034824 -0.0059003 -0.0019633 -0.0016722 -0.0037328 -0.0086049 -0.0095347 -0.0083089
-0.0061635 -0.0076249 -0.25606 0.11512
740000000 -0.18578 0.19499 -0.037596 0.025882 0.012347 -0.0054335 -0.00054726 -0.0044878
-0.0051799 -0.0030627 -0.0061313 0.0031993
-0.037586 0.025836 -0.33415 0.18254 -0.03341 0.034562 -0.00088538 -0.0058304
-0.011771 0.0089307 -0.0016107 -0.0053045
0.012466 -0.0054461 -0.033125 0.034842 -0.065499 0.29195 -0.0019073 0.0031772
-0.0035927 -0.004965 -0.0019014 0.0010437
-0.00014456 -0.0042037 -0.00050014 -0.0064145 -0.0016252 0.0034835 -0.2001 0.21385
-0.042245 -0.003875 0.022136 0.013327
-0.0051666 -0.003312 -0.012639 0.0080526 -0.002604 -0.0045636 -0.042013 -0.0045661
-0.15887 0.085673 -0.040481 0.0017535
-0.0054417 0.0027143 -0.0018893 -0.0055869 -0.0016912 0.0012917 0.022005 0.013158
-0.040745 0.0023962 -0.24419 0.12341
800000000 -0.15254 0.23435 -0.022215 0.017035 0.0044952 -0.0099424 -0.0049008 -0.0016017
-0.0034376 0.0025267 0.0036575 0.00055211
-0.02219 0.017012 -0.33568 0.25252 -0.0072167 0.033707 -0.0025731 0.0023964
-0.00034429 0.0032348 0.0010922 0.0052782
0.0042949 -0.010053 -0.0072038 0.033708 -0.024098 0.3145 0.00059282 0.0018039
0.00052119 0.0035607 -0.0018379 0.0010093
-0.005108 -0.0017004 -0.0026399 0.0022062 0.00059572 0.0015075 -0.1712 0.24035
-0.027345 0.015989 0.012583 -0.0098873
-0.0035487 0.0027792 -0.00037658 0.0030884 0.00036287 0.0038447 -0.027071 0.016793
-0.19772 0.10818 -0.016398 0.01845
0.0026824 0.0008793 0.00041438 0.005159 -0.0021565 0.0010978 0.011861 -0.010112
-0.016139 0.01869 -0.23432 0.17012
860000000 -0.11803 0.25474 -0.016752 0.031018 -0.0039301 -0.009415 -0.0021935 0.0014253
0.0044952 0.004939 -0.0028055 -0.0028808
-0.016734 0.030982 -0.2874 0.2944 0.0087587 0.033197 7.8009e-06 0.0024861
0.0040536 0.00010625 0.0029854 0.00057854
-0.0038635 -0.0094086 0.0088921 0.03318 0.025527 0.32163 -0.00046945 6.39e-05
0.002368 -0.0013211 0.0014915 0.004183
-0.0020264 0.0013489 0.00047689 0.0020922 -0.00050737 -0.00015996 -0.13322 0.25133
-0.015343 0.020693 -0.0058399 -0.0090539
0.0042592 0.0045077 0.003669 9.0102e-05 0.002523 -0.0012828 -0.015383 0.020887
-0.1448 0.15577 -0.022319 0.016022
-0.0023653 -0.0031219 0.0032801 5.7032e-06 0.0014554 0.0043319 -0.0062653 -0.0088936
-0.024057 0.015645 -0.18413 0.21145
920000000 -0.090989 0.27657 0.0061062 0.037324 -0.0091542 -0.003554 -0.0013691 0.0020545
0.0013608 0.0017653 0.0025118 -0.0017441
0.0060907 0.037286 -0.25759 0.31451 0.028037 0.020619 0.0018843 0.00080797
0.0064517 -0.000508 0.0034263 -0.0028974
-0.0091557 -0.003485 0.028115 0.020553 0.072275 0.32085 0.0020645 -0.00018699
0.001362 -0.00046735 0.00085648 -0.00096605
-0.0015156 0.0019724 0.0017453 0.0010871 0.0019362 -0.00018113 -0.10729 0.26643
-0.0078636 0.030876 0.0026708 -0.0062742
0.0016337 0.0016267 0.0068684 -0.00068929 0.0015344 -0.00046512 -0.0077746 0.030472
-0.13299 0.16086 -0.00090043 0.026158
0.0024136 -0.0017032 0.0034048 -0.0027908 0.00084917 -0.0011375 0.0030991 -0.0060473
6.8042e-06 0.025792 -0.18623 0.22609
980000000 -0.043931 0.29507 0.01837 0.02905 -0.0081867 0.0048977 0.0022119 0.0032063
0.0037952 -0.001576 -0.0030391 -0.0021013
0.018361 0.029007 -0.20507 0.34809 0.032306 0.003654 0.0019616 -0.00017149
0.0013095 -0.0061413 -0.00049852 -0.0022316
-0.0081378 0.0049113 0.032336 0.0035663 0.1189 0.3135 0.0004508 -0.0013255
9.5234e-05 -0.002226 0.0014711 -0.00025872
0.0020816 0.0032242 0.0019489 -0.00026141 0.00055091 -0.0014066 -0.068611 0.27673
0.010273 0.028569 -0.0085609 -0.0062562
0.0040004 -0.00182 0.0012297 -0.0059531 9.9666e-05 -0.0022172 0.010526 0.028348
-0.10075 0.18669 0.0057831 0.018371
-0.0030594 -0.0019268 -0.00057961 -0.002274 0.0013917 -0.00024706 -0.0089218 -0.0066248
0.0054285 0.01842 -0.14199 0.2671
1040000000 -0.00035478 0.30216 0.033195 0.016391 -0.00083487 0.0066484 0.0025538 0.0006277
0.00034396 -0.0034669 -0.00062342 -0.001176
0.033164 0.016375 -0.16858 0.36057 0.027901 -0.015162 0.0013624 -0.0017687
-0.0023622 -0.0021795 -0.0013347 -0.0026171
-0.00079861 0.0066624 0.027843 -0.015258 0.1655 0.29826 -0.00061332 -0.0014832
-0.0015635 -0.00090541 -0.00032922 -0.0010996
0.0027254 0.00046919 0.0014717 -0.0018144 -0.00058778 -0.0014793 -0.039755 0.28544
0.020607 0.015999 -0.0023284 0.001323
-9.4217e-05 -0.0031318 -0.0022502 -0.0024348 -0.0015959 -0.00084066 0.020247 0.015941
-0.067818 0.193 0.013494 0.016474
-0.00063537 -0.0013903 -0.0015331 -0.0025141 -0.00042237 -0.00097758 -0.002308 0.0015845
0.01409 0.016166 -0.11723 0.28627
1100000000 0.0445 0.30838 0.034714 -0.0054062 0.0029336 0.0034991 0.0021828 -0.001249
-0.0018195 -0.0029359 -0.0035362 0.00025625
0.034678 -0.0054071 -0.1255 0.37705 0.013826 -0.027161 -0.00015787 -0.001857
-0.0030601 -0.00079309 -0.0032913 -0.00042191
0.0029514 0.0034931 0.013739 -0.027231 0.21117 0.2767 -0.0017722 0.00017092
-0.0017491 0.00055959 -0.00096922 -0.00032087
0.0022704 -0.0011654 -8.9429e-05 -0.0017671 -0.0017819 0.00016465 0.00116 0.28852
0.024652 0.0030299 -0.0023957 3.7133e-05
-0.0018296 -0.0030352 -0.0030688 -0.00069193 -0.0018197 0.00044034 0.024948 0.002837
-0.049945 0.20544 0.01833 0.0067255
-0.0034542 0.00031115 -0.0032692 -0.00037189 -0.00087338 -0.00029548 -0.002362 4.0501e-05
0.018273 0.006634 -0.071375 0.31181
1160000000 0.09631 0.30244 0.022603 -0.021117 0.0024163 -0.00069631 -6.9219e-05 -0.0021056
-0.0039441 -0.00061693 -0.00079078 0.0036933
0.022579 -0.021108 -0.080726 0.38069 -0.0043577 -0.027874 -0.001573 -0.0014798
-0.0024793 0.0022331 -0.0012576 0.0015306
0.0024381 -0.00068826 -0.0044952 -0.027863 0.25416 0.24502 -0.00068284 0.0016938
-0.00047205 0.0017691 -0.00087596 7.206e-05
-0.00011376 -0.0020562 -0.0015732 -0.0015117 -0.0008103 0.0016829 0.041082 0.28361
0.01997 -0.012064 -0.0029405 0.0045542
-0.0039367 -0.00046665 -0.0024597 0.0024707 -0.00051552 0.0019046 0.020074 -0.012229
-0.016392 0.21281 0.016688 -0.00081691
-0.00077679 0.0037271 -0.0012985 0.001594 -0.00092157 2.3218e-05 -0.0027627 0.0046833
0.01699 -0.0011208 -0.023589 0.313
1220000000 0.14047 0.28913 0.0090041 -0.029387 -0.0015396 -0.00064455 1.0964e-05 -0.00083845
-0.0023622 0.0023379 0.0012666 0.00176
0.0089919 -0.029373 -0.03692 0.39124 -0.016582 -0.019916 -0.0024338 0.0004492
1.3914e-05 0.0028956 -0.00057669 0.0018751
-0.0015547 -0.00059317 -0.016685 -0.019842 0.29258 0.20484 0.00074421 0.0017475
0.00054481 0.0011885 0.00031664 0.00054646
-2.5499e-05 -0.00092901 -0.0024498 0.00046628 0.00076541 0.001716 0.080549 0.27273
0.0095652 -0.017972 0.0016913 0.0012429
-0.0023417 0.0023609 8.1294e-06 0.0028053 0.00067586 0.0012199 0.0095678 -0.017996
0.0074504 0.21929 0.012072 -0.012832
0.0011774 0.0017701 -0.00065902 0.0018989 0.00027273 0.00050318 0.0016806 0.0011358
0.011729 -0.012733 0.0088096 0.32572
1280000000 0.18942 0.2662 -0.0085513 -0.027241 -0.0016274 0.002631 -0.0010043 -0.0018145
-0.00064104 0.0028914 0.0023279 0.00091547
-0.0085481 -0.027212 0.0086726 0.3819 -0.022787 -0.0078058 -0.001013 0.0014346
0.0014078 0.0016315 0.00062646 0.0017576
-0.0016386 0.0026303 -0.022887 -0.0077052 0.32274 0.16081 0.001519 8.3661e-05
0.00099271 0.00011672 0.0002481 0.00025396
-0.0010236 -0.0019004 -0.00094097 0.0014389 0.0015108 -6.0726e-07 0.11642 0.25464
-9.2268e-05 -0.01948 -0.00040193 0.00044266
-0.00059984 0.0027746 0.0015817 0.0016911 0.00094104 0.00020605 -7.8456e-06 -0.019693
0.043694 0.22188 0.00193 -0.014446
0.0023674 0.00094162 0.00073611 0.0017389 0.00028329 0.00020994 -0.00052764 0.00035083
0.0018382 -0.014444 0.055136 0.3252
1340000000 0.22591 0.23078 -0.017593 -0.017705 0.0010821 0.0041071 -0.0015815 -0.00081578
0.0014268 0.0025365 0.0013907 -0.0013323
-0.01759 -0.017687 0.048059 0.37273 -0.02058 0.0042578 -0.00017207 0.0019444
0.0018413 0.00090986 0.0012792 0.00071763
0.0011038 0.0040967 -0.020592 0.0043543 0.34474 0.11199 0.0012928 -0.00084858
0.00062213 -0.00041412 7.6376e-05 0.0002037
-0.0016248 -0.0007954 -0.00023261 0.0019877 0.001173 -0.00088824 0.14807 0.23238
-0.0089954 -0.016629 0.00067709 0.00087874
0.0013613 0.0025366 0.0017995 0.0007975 0.00062436 -0.00045797 -0.0091354 -0.016521
0.073635 0.21498 -0.0042745 -0.01274
0.0013721 -0.0013813 0.0012542 0.00075586 9.222e-05 0.00021226 0.00065971 0.00087782
-0.0043725 -0.012595 0.094178 0.31747
1400000000 0.25719 0.19181 -0.022602 -0.0066095 0.0050318 0.002689 -0.0020123 0.00052562
0.0022816 0.0007297 0.00021432 -0.0013367
-0.022591 -0.0065838 0.084351 0.35948 -0.01409 0.01185 0.0013117 0.0014385
0.0012488 -0.00066087 0.0011042 9.9626e-05
0.0050489 0.0026792 -0.01406 0.01193 0.35692 0.057638 0.00025635 -0.0017909
-1.584e-06 -0.00039156 0.00026049 0.00019672
-0.0020037 0.00050387 0.001361 0.001408 0.00021363 -0.0017914 0.17545 0.20252
-0.014908 -0.010073 -0.00056578 0.00018252
0.002265 0.00074063 0.00123 -0.00068936 0.00010424 -0.00041841 -0.015028 -0.0099866
0.10506 0.20899 -0.010061 -0.0079193
0.00012321 -0.001385 0.0010844 8.4485e-05 0.00022158 0.00019941 -0.00051618 0.00027214
-0.0099298 -0.007913 0.13707 0.30419
1460000000 0.27934 0.14765 -0.019503 0.0049421 0.0052599 -0.0019807 -0.0016241 0.0016533
0.0018485 -0.00048654 -0.00029735 -0.00087874
-0.019498 0.0049494 0.11881 0.33768 -0.0060257 0.014476 0.0017664 0.00016217
0.00090759 -0.0013222 0.0010934 -0.00051589
0.0052573 -0.0020105 -0.0059395 0.014521 0.36242 0.0028331 -0.0014089 -0.0014471
0.00014328 -0.00018214 0.00059097 -0.00033947
-0.0016364 0.0016276 0.0017504 0.00019178 -0.0013899 -0.0014353 0.20035 0.17298
-0.016401 -0.0033778 -0.00046975 0.0022126
0.0017746 -0.0004507 0.00092196 -0.0013214 0.00013346 -0.00021011 -0.016301 -0.0032501
0.13338 0.19329 -0.011318 -0.0023748
-0.00021116 -0.00082928 0.0011106 -0.00052092 0.00053481 -0.00029228 -0.00050707 0.0021641
-0.011329 -0.0023149 0.16989 0.28199
1520000000 0.29047 0.10508 -0.0139 0.010016 0.0029041 -0.0039743 3.0024e-05 0.0024893
0.0019494 -0.0014516 -0.0010737 -0.00015379
-0.013867 0.010018 0.15199 0.32218 0.0012167 0.012622 0.0017071 -0.00081364
9.441e-06 -0.0011983 0.00030564 -0.00094688
0.0028896 -0.0040067 0.0012864 0.012631 0.35438 -0.054363 -0.0013237 -0.00026778
0.00045174 -0.00077545 1.9335e-05 -2.2827e-05
7.3075e-05 0.0025225 0.0017392 -0.00087822 -0.0014299 -0.00029505 0.22159 0.13468
-0.015917 0.0025463 0.0017358 0.0019734
0.001945 -0.0015394 2.686e-05 -0.0011667 0.00051279 -0.00086947 -0.015934 0.0025611
0.1602 0.17759 -0.011198 0.0018472
-0.0011591 -0.00016745 0.0002761 -0.00091779 5.5666e-05 -8.488e-05 0.0017786 0.0018749
-0.011132 0.0017699 0.20209 0.25907
1580000000 0.29867 0.059179 -0.007667 0.012778 -0.0010375 -0.0044808 0.0014517 0.0019669
-6.8059e-05 -0.0019947 -0.00035778 0.00036198
-0.007632 0.012772 0.17911 0.2975 0.0046909 0.0081181 0.00053524 -0.001748
-0.00060699 -0.0011098 -0.00022579 -0.00077866
-0.0010346 -0.0044673 0.0047361 0.0081208 0.33316 -0.11131 -0.0016984 0.00085841
-0.00021633 -0.0011569 0.000113 -0.00051953
0.0015381 0.0020031 0.00047413 -0.001728 -0.0016429 0.00094929 0.23371 0.096311
-0.012783 0.0079015 0.0023616 0.00051241
-9.1339e-05 -0.0020585 -0.00057862 -0.0011571 -0.00024231 -0.0011264 -0.012728 0.0078416
0.18304 0.15911 -0.0090124 0.0071156
-0.00035138 0.00033014 -0.000184 -0.00080251 8.9711e-05 -0.00065521 0.0023943 0.0005161
-0.0091161 0.0071355 0.23249 0.23151
1640000000 0.30027 0.017159 -0.0014192 0.011695 -0.0026081 -0.0024402 0.0027095 0.0010331
-0.00050696 -0.0016016 -0.0002629 0.0006832
-0.0013934 0.011674 0.20888 0.27158 0.0054902 0.0037665 -0.00081612 -0.001709
-0.0011338 -0.00029779 -0.00050969 -0.00054968
-0.0026637 -0.0024155 0.0055068 0.0037708 0.30419 -0.1605 -0.00048328 0.0016598
-0.0010692 -0.00076759 -0.00013349 -0.00020979
0.0026909 0.00098393 -0.00081654 -0.0016932 -0.00053769 0.0016269 0.24505 0.048196
-0.0084784 0.010059 0.0025095 -0.00099944
-0.00053444 -0.0015421 -0.0011783 -0.00031675 -0.0011475 -0.00088024 -0.0084474 0.010201
0.20459 0.13366 -0.0045284 0.0089888
-0.00034444 0.0007043 -0.0005152 -0.00058597 -0.00016878 -0.00016113 0.0025348 -0.0010694
-0.0045523 0.0089092 0.25732 0.19864
1700000000 0.29156 -0.028499 0.001846 0.0091498 -0.0033111 0.00028907 0.0029652 -0.0013226
-0.0019957 -0.00084423 0.00072002 0.00040184
0.0018533 0.0091286 0.22624 0.2397 0.0038201 0.00095303 -0.0015026 -0.00057062
-0.00079995 0.00026559 -0.00086952 -0.00039057
-0.0033336 0.0003137 0.0038246 0.00094937 0.26009 -0.19993 0.00079397 0.0015211
-0.0017649 -0.00029161 -0.00055 -0.00080009
0.002963 -0.0012342 -0.0015611 -0.00051518 0.00068598 0.0016328 0.24059 0.0001371
-0.0049062 0.011159 0.0014349 -0.0021979
-0.001968 -0.0008002 -0.00081672 0.00025555 -0.0018748 -0.00020208 -0.0049858 0.0112
0.22005 0.11307 -0.00015268 0.0094011
0.00068338 0.00035059 -0.00084625 -0.00036419 -0.00053427 -0.00080808 0.0012753 -0.0021898
-0.00015148 0.0094936 0.27166 0.16329
1760000000 0.27872 -0.077054 0.0040447 0.0060506 -0.0021493 0.00087682 0.0011449 -0.0033991
-0.0015125 0.00063474 0.00047617 -0.00039952
0.0040317 0.0060191 0.25213 0.19928 0.0018018 -0.0011205 -0.0012417 0.00029319
-0.00094153 0.0010034 -0.00059435 0.00047325
-0.0021241 0.00094852 0.0018007 -0.0011238 0.21148 -0.23333 0.0011857 0.00087094
-0.0011426 0.0015607 -0.0012575 -0.00030905
0.0010805 -0.0034667 -0.0012048 0.00029882 0.0014027 0.00069795 0.23228 -0.049536
-0.00077173 0.010589 -0.00028467 -0.0024557
-0.0015319 0.00059255 -0.00094968 0.0010063 -0.001068 0.0015424 -0.00059655 0.01073
0.23398 0.077992 0.0035786 0.0070501
0.00052435 -0.00041123 -0.00055709 0.00050233 -0.0013668 -0.00038634 -0.00034601 -0.0023256
0.0034679 0.0070576 0.28322 0.12538
1820000000 0.25241 -0.11443 0.0042928 0.0026141 0.00020452 0.002397 -0.0012206 -0.0029942
-0.0012396 0.0011209 -3.015e-05 -8.3438e-05
0.0042679 0.0026025 0.26116 0.16847 -0.00010321 6.2694e-05 -0.0011317 0.0010632
0.00017482 0.0012861 -0.00046585 0.00051888
0.00018749 0.0024128 -0.00010084 8.7428e-05 0.16007 -0.24847 0.0014368 8.3262e-05
-0.00019357 0.0022981 -0.0012891 0.00042906
-0.0011036 -0.0029455 -0.0011894 0.0010638 0.0012601 6.0165e-05 0.20267 -0.095925
0.0015317 0.0087939 -0.001588 -0.0014264
-0.0011802 0.0010794 0.00022378 0.0012372 -0.0002205 0.0022052 0.0015774 0.0087571
0.2494 0.04835 0.0046031 0.0037191
-7.2843e-05 -0.0001387 -0.00048325 0.00053107 -0.001264 0.00051834 -0.0015684 -0.001425
0.0046704 0.00375 0.28402 0.087787
1880000000 0.21591 -0.1536 0.0021019 0.00039763 -0.00032419 0.0019134 -0.002868 -0.0019204
-0.00021524 0.0018285 0.0003055 -0.00054541
0.0020963 0.0003987 0.2648 0.12216 -0.0021894 0.0017255 -7.1555e-05 0.0016469
0.00070889 0.0010086 0.00013457 0.00094529
-0.0002914 0.0018325 -0.0022099 0.0017306 0.1069 -0.25696 0.0014325 -0.0010209
0.0017322 0.0018204 -0.00077314 0.0012402
-0.0028772 -0.0020247 2.3689e-05 0.0016935 0.0014971 -0.0010341 0.16341 -0.13567
0.0032157 0.0060685 -0.0020977 0.00033396
-0.00018669 0.0018421 0.00069565 0.00099092 0.001683 0.001778 0.0031138 0.0059424
0.25141 0.016207 0.0046531 0.0018004
0.00023465 -0.00054489 0.00018988 0.00094386 -0.00078148 0.0012398 -0.0021089 0.00017507
0.0046413 0.0017656 0.28231 0.054387
1940000000 0.17599 -0.17901 -6.3053e-05 -0.001152 0.0012958 0.0015964 -0.0035768 0.00050423
0.0015934 0.0010841 -0.00058106 -0.00065271
-6.9128e-05 -0.0011401 0.26485 0.090065 -0.00086537 0.0038971 0.0010203 0.0010884
0.0015884 0.00024262 0.00081133 0.00034221
0.0013945 0.0016476 -0.00086506 0.003875 0.062205 -0.24988 0.00012571 -0.0017836
0.002172 0.00020149 0.00021459 0.0015338
-0.0035825 0.00067187 0.0010115 0.0010908 9.8659e-05 -0.0017041 0.11209 -0.16655
0.0026576 0.0039032 -0.0011692 0.0012527
0.0016688 0.0010811 0.0016373 0.00027433 0.0021657 0.00032809 0.0025426 0.0039463
0.25279 -0.023383 0.0037305 -0.0013761
-0.00052604 -0.00077851 0.00082786 0.00032845 0.00038989 0.0015673 -0.0011668 0.0012771
0.0036826 -0.0014435 0.27071 0.017187
2000000000 0.12844 -0.19255 -0.0038117 0.0008896 0.0024442 0.0014587 -0.0022927 0.0032441
0.00132 -1.8789e-05 -0.00061984 0.0003189
-0.0038114 0.00089063 0.24962 0.054641 -0.00059016 0.0054599 0.0015047 0.00020868
0.00109 -0.0012976 0.00050471 5.1434e-05
0.002389 0.0014386 -0.00056431 0.0054899 0.018142 -0.23526 -0.0012038 -0.00079295
0.0016889 -0.0011647 0.0015869 0.0010299
-0.0021564 0.0034115 0.0015323 0.00025956 -0.0011801 -0.0010338 0.058625 -0.17721
0.00074669 0.0025973 -1.147e-05 0.0019077
0.0012143 0.00011367 0.0010795 -0.0012764 0.0016623 -0.0011452 0.00087441 0.0026806
0.24538 -0.057799 0.00062242 -0.0025232
