!Keysight Technologies,M9804A,MY58100912,A.14.10.03
!Date: Thursday, April 27, 2023 10:28:33
!Correction: S11(C  6-Port  ) 
!S12(C  6-Port  ) 
!S13(C  6-Port  ) 
!S14(C  6-Port  ) 
!S15(C  6-Port  ) 
!S16(C  6-Port  ) 
!S21(C  6-Port  ) 
!S22(C  6-Port  ) 
!S23(C  6-Port  ) 
!S24(C  6-Port  ) 
!S25(C  6-Port  ) 
!S26(C  6-Port  ) 
!S31(C  6-Port  ) 
!S32(C  6-Port  ) 
!S33(C  6-Port  ) 
!S34(C  6-Port  ) 
!S35(C  6-Port  ) 
!S36(C  6-Port  ) 
!S41(C  6-Port  ) 
!S42(C  6-Port  ) 
!S43(C  6-Port  ) 
!S44(C  6-Port  ) 
!S45(C  6-Port  ) 
!S46(C  6-Port  ) 
!S51(C  6-Port  ) 
!S52(C  6-Port  ) 
!S53(C  6-Port  ) 
!S54(C  6-Port  ) 
!S55(C  6-Port  ) 
!S56(C  6-Port  ) 
!S61(C  6-Port  ) 
!S62(C  6-Port  ) 
!S63(C  6-Port  ) 
!S64(C  6-Port  ) 
!S65(C  6-Port  ) 
!S66(C  6-Port  ) 
!S6P File: Measurement: :
# Hz S  RI   R 50
500000000 -0.33913 -0.023309 -0.010368 -0.0031164 -0.0078791 0.012412 -0.0035223 0.012057
0.012211 0.0039788 -0.0030772 0.0084091
-0.010343 -0.0030988 -0.4195 -0.041399 0.0067211 -0.01166 0.0018146 0.012248
0.0075061 0.0020696 0.0022036 0.013316
-0.0078498 0.012421 0.0067143 -0.01169 -0.26353 0.21914 0.0070827 0.0035973
-0.00097267 0.0076113 0.0020175 0.011657
-0.0035038 0.012064 0.0018322 0.01226 0.0070865 0.0035991 -0.33263 0.056981
-0.019125 -0.0066693 0.014716 0.023943
0.012204 0.0039253 0.0075074 0.0020566 -0.00096027 0.0076168 -0.019121 -0.0066575
-0.23244 -0.17129 -0.024282 0.0050953
-0.0030624 0.0084059 0.0022468 0.013328 0.0020217 0.011647 0.014721 0.023936
-0.024292 0.0050938 -0.28196 -0.094591
560000000 -0.31346 0.13406 -0.025569 -0.061691 0.00064713 0.011604 0.0047861 0.0098229
0.0094191 0.0040951 0.0097091 0.0067661
-0.025509 -0.061622 -0.37376 0.11511 -0.041924 -0.0349 0.013483 0.0038791
-0.012624 -0.0034809 0.002715 -0.0010807
0.00067262 0.011584 -0.042065 -0.03484 -0.18123 0.26426 -0.00063652 -0.0043651
0.018124 0.0037397 0.006541 -0.0068162
0.0048153 0.009824 0.013491 0.0038663 -0.00062724 -0.0043672 -0.30556 0.14521
0.001205 -0.024204 0.0032428 -0.019374
0.009436 0.0040637 -0.01266 -0.0034177 0.018112 0.0037085 0.0011845 -0.024211
-0.28711 0.00043102 0.0057556 -0.047894
0.0097313 0.0067424 0.0027137 -0.001064 0.0065336 -0.006811 0.0032351 -0.019394
0.0057591 -0.047881 -0.32975 0.046398
620000000 -0.27146 0.11834 -0.023316 0.0070313 0.003526 0.0077775 0.0075654 -0.005142
0.010664 -0.0015889 0.00081545 -0.0023928
-0.023285 0.0070218 -0.40132 0.068375 -0.019209 0.00021619 -0.0014654 -0.0015879
0.010519 -0.0071831 0.0010987 -0.0027643
0.003553 0.0077792 -0.019229 0.00026292 -0.15052 0.27381 -0.0013888 -0.0045081
-0.0032884 -0.0029455 0.0075536 -0.0033972
0.0075503 -0.005158 -0.0014759 -0.0015831 -0.0013877 -0.0045227 -0.26356 0.15588
-0.040662 -0.016401 0.012447 0.024424
0.010699 -0.0016272 0.010501 -0.0072295 -0.0032978 -0.0029387 -0.040672 -0.016392
-0.20869 -0.040666 -0.039717 0.014661
0.00081567 -0.0023966 0.0010649 -0.0027819 0.0075686 -0.0033763 0.012443 0.024422
-0.03972 0.014605 -0.25538 0.016646
680000000 -0.22855 0.20162 -0.027513 -0.013209 0.0052053 0.004577 0.0010544 -0.006957
-0.0030962 -0.010626 0.0040811 -0.0062632
-0.027491 -0.013217 -0.38546 0.16401 -0.032243 -0.00013926 -0.0016029 -0.00046383
-0.0023675 -0.0088376 -0.0017762 -0.0021263
0.0052175 0.0045772 -0.032286 -6.6823e-05 -0.099714 0.29287 -0.00099026 -0.00028985
-0.0017405 0.00029537 -0.0034419 -0.0086258
0.0010319 -0.0069617 -0.0016085 -0.0004691 -0.00098987 -0.00028968 -0.21801 0.20626
-0.026022 -0.0053761 -0.0087766 -0.008976
-0.0031439 -0.010613 -0.0024027 -0.0088459 -0.0017416 0.00028154 -0.02603 -0.0053602
-0.25202 0.060403 -0.0068374 -0.0076911
0.004071 -0.0062727 -0.0017748 -0.0021247 -0.0034513 -0.0086259 -0.008794 -0.0089762
-0.0068411 -0.0076958 -0.25564 0.11565
740000000 -0.18541 0.19578 -0.037266 0.026186 0.011983 -0.0055904 -0.0007693 -0.0043704
-0.0043146 -0.0029032 -0.0059135 0.0032746
-0.037276 0.026137 -0.33341 0.18332 -0.033364 0.034818 -0.00069393 -0.0062479
-0.011292 0.0079267 -0.0017172 -0.0054647
0.011981 -0.005618 -0.033303 0.034941 -0.065677 0.29198 -0.0017663 0.0031503
-0.0029622 -0.0042489 -0.0018021 0.0010261
-0.00076286 -0.0043618 -0.00069852 -0.0062695 -0.0017645 0.0031522 -0.20027 0.21389
-0.042513 -0.0040313 0.022282 0.013306
-0.0043423 -0.0028778 -0.011294 0.0079737 -0.0029687 -0.0042575 -0.042554 -0.003995
-0.15772 0.081445 -0.040099 0.0033741
-0.0059102 0.0032939 -0.0017433 -0.00548 -0.0018002 0.0010436 0.022306 0.013295
-0.040082 0.0033443 -0.24454 0.12363
800000000 -0.153 0.2345 -0.022106 0.017281 0.0044693 -0.010296 -0.0046156 -0.0017992
-0.0035393 0.0024964 0.0035679 0.00059984
-0.022102 0.017245 -0.3354 0.25254 -0.0070428 0.033587 -0.0024343 0.0022734
-0.00031076 0.0029469 0.0010318 0.005035
0.0044381 -0.010314 -0.0069429 0.03364 -0.023904 0.31437 0.00085027 0.0015956
0.00035081 0.0035015 -0.0018748 0.0010035
-0.004628 -0.001787 -0.0024309 0.0022796 0.00084606 0.0016074 -0.17073 0.24069
-0.027163 0.016173 0.012576 -0.0098612
-0.0035449 0.0024992 -0.00030137 0.0029425 0.00035774 0.0035016 -0.027161 0.016225
-0.19767 0.10848 -0.016537 0.018288
0.0035706 0.00059458 0.0010621 0.0050405 -0.0018886 0.0010125 0.012562 -0.0098729
-0.016552 0.018271 -0.23435 0.17062
860000000 -0.11755 0.25491 -0.016483 0.031188 -0.0038965 -0.0091968 -0.0022849 0.0010317
0.0040349 0.0042308 -0.0029522 -0.002742
-0.016493 0.031151 -0.28739 0.29466 0.008751 0.033261 0.00015862 0.0021715
0.0040679 3.8198e-05 0.0030201 0.00038666
-0.0039252 -0.0091944 0.008864 0.033271 0.025505 0.32161 -0.00042093 -0.00019585
0.0025582 -0.0012569 0.0014078 0.0042686
-0.0022896 0.0010339 0.00016555 0.0021728 -0.00042224 -0.00019816 -0.13282 0.25131
-0.015142 0.020359 -0.0060264 -0.0091655
0.0040514 0.0042106 0.0040776 2.9632e-05 0.0025615 -0.0012555 -0.015119 0.020402
-0.14573 0.15584 -0.022469 0.015868
-0.0029709 -0.0027192 0.0030164 0.00038062 0.0014134 0.0042584 -0.0060339 -0.0091628
-0.022449 0.015852 -0.18354 0.21204
920000000 -0.091262 0.27664 0.0059026 0.037374 -0.009265 -0.0036001 -0.0015354 0.0018741
0.0013543 0.0015441 0.0025808 -0.001825
0.0058788 0.037327 -0.2575 0.31451 0.027968 0.02063 0.0018789 0.00090171
0.0066813 -0.00055269 0.0035687 -0.0029066
-0.0092802 -0.0035866 0.028074 0.020577 0.072327 0.32093 0.0019473 -0.0001205
0.0015207 -0.00044988 0.00087108 -0.0010366
-0.0015405 0.0018712 0.001889 0.00089045 0.0019519 -0.00012034 -0.10757 0.26649
-0.0076993 0.030983 0.0026305 -0.006461
0.0013808 0.0015484 0.0066848 -0.00056392 0.0015323 -0.00045649 -0.0076429 0.031007
-0.13304 0.16108 -0.00080685 0.026254
0.0025772 -0.0018259 0.0035753 -0.0029137 0.00087199 -0.0010293 0.0026293 -0.0064534
-0.00082713 0.026241 -0.1861 0.22631
980000000 -0.04379 0.29534 0.018392 0.029039 -0.0081735 0.0048611 0.0021449 0.0032615
0.0039812 -0.0015204 -0.0031223 -0.00203
0.018371 0.029004 -0.20492 0.34807 0.032315 0.0036104 0.0020601 -0.00026593
0.0014208 -0.0059582 -0.00053372 -0.0022907
-0.0081638 0.0048781 0.032358 0.0035329 0.11895 0.31348 0.0005558 -0.0012993
0.00016173 -0.0022187 0.0014758 -0.00017106
0.0021484 0.0032456 0.0020652 -0.00026444 0.00054948 -0.0013079 -0.068551 0.277
0.010188 0.028457 -0.008649 -0.0064166
0.0039887 -0.0015334 0.0013737 -0.005976 0.0001591 -0.0022293 0.010241 0.028452
-0.10074 0.1869 0.0059195 0.018371
-0.0031409 -0.0020221 -0.00054182 -0.0022711 0.001472 -0.00017563 -0.0086504 -0.0064017
0.0058985 0.018379 -0.14151 0.26721
1040000000 -0.00039627 0.30206 0.033055 0.016346 -0.00079979 0.0066104 0.0024717 0.00057674
0.00015294 -0.0032186 -0.00058923 -0.0011046
0.033001 0.016327 -0.16859 0.36045 0.027883 -0.015259 0.0014953 -0.0018038
-0.0021971 -0.002308 -0.0014679 -0.0025361
-0.0007774 0.0066075 0.027873 -0.015354 0.1655 0.29825 -0.00056639 -0.0014852
-0.0016519 -0.00093098 -0.00031502 -0.0010393
0.0024643 0.00056049 0.0015097 -0.0017999 -0.00057141 -0.0014937 -0.039636 0.28541
0.020643 0.015965 -0.0024188 0.0013935
0.00015961 -0.0032179 -0.0022329 -0.0022777 -0.0016382 -0.00093013 0.020684 0.015927
-0.068038 0.19314 0.013466 0.016498
-0.00060569 -0.0011046 -0.0014629 -0.0025255 -0.00031816 -0.0010402 -0.0024091 0.0014052
0.013436 0.016505 -0.11689 0.28649
1100000000 0.04456 0.30849 0.034655 -0.0053458 0.0029402 0.00348 0.0022029 -0.0011737
-0.0018438 -0.0029442 -0.003583 0.00025029
0.034625 -0.0053305 -0.1255 0.37703 0.013827 -0.02717 -0.00011168 -0.0017904
-0.0031 -0.00070912 -0.0032648 -0.0003576
0.002952 0.0034746 0.013739 -0.027235 0.21124 0.27669 -0.0018211 0.00020863
-0.0017893 0.00051297 -0.00098591 -0.00030593
0.0021944 -0.0011924 -0.00011783 -0.0017889 -0.0018199 0.00021128 0.0011001 0.28861
0.024732 0.002931 -0.002398 5.6907e-05
-0.0018539 -0.0029395 -0.0031075 -0.00068759 -0.0017842 0.00051834 0.024754 0.0028976
-0.049845 0.20555 0.018212 0.0066192
-0.0035979 0.00027653 -0.0032696 -0.00033556 -0.00098186 -0.00030262 -0.0023926 5.8287e-05
0.018201 0.0066242 -0.070959 0.31186
1160000000 0.096301 0.30243 0.022464 -0.021035 0.0024577 -0.00060306 -0.00017783 -0.0021561
-0.003834 -0.00059572 -0.00074363 0.0037722
0.022456 -0.021012 -0.080787 0.38067 -0.0043193 -0.027887 -0.0016689 -0.0015504
-0.0024941 0.0024192 -0.0014052 0.0015894
0.002457 -0.00061685 -0.0044178 -0.027894 0.25425 0.24492 -0.00074446 0.0016996
-0.00049148 0.0018197 -0.00091012 0.00011116
-0.00018105 -0.0021527 -0.0016766 -0.0015279 -0.00074686 0.0016952 0.04106 0.28364
0.020111 -0.012083 -0.0030275 0.004606
-0.0038246 -0.00057549 -0.0024961 0.0024469 -0.00048208 0.001828 0.020105 -0.012105
-0.015935 0.21295 0.016572 -0.00078894
-0.00071813 0.0037597 -0.00138 0.0016023 -0.00090909 9.9433e-05 -0.003014 0.004598
0.016566 -0.0007906 -0.023161 0.31316
1220000000 0.14054 0.28919 0.0090354 -0.029296 -0.0015482 -0.00060226 4.6879e-05 -0.00089248
-0.0023662 0.0023556 0.0012393 0.0017673
0.0090454 -0.029269 -0.036973 0.39125 -0.0166 -0.019866 -0.0023858 0.00040999
1.9925e-05 0.0028186 -0.00065177 0.0018966
-0.0015487 -0.00061153 -0.016705 -0.019822 0.29263 0.20479 0.00075609 0.0016767
0.00062672 0.0011874 0.00024623 0.00060714
4.6327e-05 -0.00088926 -0.0023888 0.0004194 0.00075492 0.001683 0.080591 0.27271
0.009528 -0.018095 0.0016627 0.0013224
-0.0023463 0.0023695 2.4483e-05 0.0028171 0.00063264 0.0011942 0.0095008 -0.018111
0.0077573 0.21942 0.011996 -0.012774
0.0012456 0.0017541 -0.00063714 0.0019012 0.00024888 0.00061057 0.001675 0.0013128
0.011994 -0.012776 0.009126 0.32584
1280000000 0.18929 0.26618 -0.0084704 -0.027154 -0.0016032 0.0025851 -0.00093497 -0.0019523
-0.00060848 0.0028492 0.00231 0.00089959
-0.0084477 -0.027141 0.0087157 0.38199 -0.022787 -0.0078208 -0.00096381 0.0013867
0.001484 0.0017198 0.00062228 0.0017415
-0.0015964 0.0025898 -0.022853 -0.0077292 0.32272 0.16075 0.0015127 5.8305e-05
0.0010609 0.00023248 0.00028671 0.00022495
-0.00093932 -0.0019427 -0.00096896 0.0013906 0.0015134 6.0789e-05 0.11654 0.25479
-4.652e-05 -0.019616 -0.0004006 0.00041224
-0.00059897 0.0028491 0.0015055 0.0017102 0.0010583 0.00022115 -8.1805e-05 -0.019621
0.044026 0.22171 0.0018897 -0.014267
0.0023203 0.00088224 0.00063144 0.0017498 0.00029046 0.0002222 -0.00040001 0.0004134
0.0018934 -0.014264 0.055355 0.325
1340000000 0.22595 0.23086 -0.017409 -0.017701 0.001123 0.0041066 -0.0016273 -0.00083452
0.0013505 0.0025165 0.001343 -0.0013683
-0.017384 -0.017695 0.04803 0.37281 -0.020581 0.0042923 -0.00021515 0.0020037
0.0018365 0.00084545 0.0013005 0.0007225
0.0011381 0.0041094 -0.02059 0.0043783 0.34475 0.11187 0.0011979 -0.00087322
0.00062103 -0.00047072 0.00012486 0.00021973
-0.0016251 -0.00082463 -0.00020769 0.0020014 0.001199 -0.00086571 0.14813 0.23249
-0.00917 -0.016573 0.00070244 0.00085183
0.001361 0.002519 0.0018515 0.00083726 0.00062546 -0.00047114 -0.0092022 -0.016567
0.073806 0.2149 -0.0042547 -0.01261
0.0013493 -0.0013727 0.0013071 0.00071966 0.00012704 0.0002226 0.00069535 0.00086037
-0.0042519 -0.012606 0.094391 0.31743
1400000000 0.25737 0.1919 -0.022464 -0.0066433 0.0050559 0.0026742 -0.0020384 0.000483
0.0022106 0.00075436 0.00018597 -0.0012894
-0.022432 -0.0066521 0.084499 0.35956 -0.014055 0.011875 0.0012804 0.0014082
0.0011961 -0.0006828 0.0011587 0.00013861
0.0050568 0.0026683 -0.014014 0.011952 0.35696 0.057718 0.00022967 -0.0018053
6.2218e-05 -0.00039238 0.00023457 0.00024301
-0.0020442 0.00049544 0.0012854 0.0013978 0.00022379 -0.0018054 0.1757 0.20255
-0.014971 -0.010054 -0.00056753 0.00017241
0.0022159 0.00073936 0.0011908 -0.00068974 6.4066e-05 -0.00039766 -0.014995 -0.010026
0.10524 0.20881 -0.010009 -0.0078065
0.0001867 -0.0012919 0.0011585 0.00013255 0.0002404 0.00023942 -0.0005682 0.00017089
-0.009996 -0.007802 0.13733 0.30421
1460000000 0.27954 0.14761 -0.019435 0.0047197 0.0052469 -0.0019759 -0.0016234 0.0015728
0.0018322 -0.00048437 -0.00030514 -0.00085004
-0.019419 0.0047067 0.11884 0.33762 -0.006008 0.014496 0.0017793 0.00019589
0.00092819 -0.0012475 0.0011035 -0.0005055
0.0052364 -0.0020003 -0.0059428 0.014534 0.36237 0.0028968 -0.0014276 -0.0013603
0.0001993 -0.00016039 0.00058505 -0.00030933
-0.0016183 0.0015853 0.0017819 0.00019279 -0.0014153 -0.0013558 0.20051 0.17287
-0.0164 -0.0033346 -0.00052025 0.0021785
0.0018303 -0.00049678 0.00092093 -0.0012464 0.00019619 -0.00015934 -0.016421 -0.0033045
0.13362 0.19318 -0.011168 -0.0023733
-0.00029941 -0.0008397 0.0010995 -0.00052079 0.00058732 -0.00031926 -0.00051243 0.0021806
-0.011168 -0.0023866 0.17003 0.28199
1520000000 0.29059 0.10494 -0.013901 0.0098951 0.0028821 -0.0039348 6.6746e-05 0.0025337
0.0019828 -0.0015286 -0.0010567 -0.0001872
-0.013891 0.0098747 0.15208 0.32214 0.0011817 0.012581 0.0017287 -0.00085462
7.3642e-05 -0.0012218 0.00028116 -0.00095703
0.0028602 -0.0039449 0.0012497 0.01259 0.35445 -0.054423 -0.001397 -0.00035984
0.00051412 -0.00084828 2.1346e-05 -5.4958e-05
6.9443e-05 0.0025438 0.0017276 -0.00086185 -0.0013985 -0.00035802 0.22152 0.1346
-0.015891 0.0025785 0.0017239 0.0019728
0.0019796 -0.0015371 6.0763e-05 -0.0012213 0.00051679 -0.00085108 -0.015884 0.0026223
0.16018 0.17749 -0.011068 0.0018022
-0.0010592 -0.00017936 0.00028027 -0.00095697 2.3443e-05 -5.7478e-05 0.0017232 0.0019656
-0.011066 0.001794 0.20233 0.25911
1580000000 0.29886 0.058989 -0.0077935 0.012669 -0.0010453 -0.0044634 0.0014421 0.0019635
-8.8235e-05 -0.0020243 -0.00034216 0.00035838
-0.0077878 0.012654 0.1792 0.29737 0.0047355 0.0080968 0.00050038 -0.0017032
-0.0005943 -0.0011233 -0.00022721 -0.00079037
-0.001071 -0.0044572 0.0047807 0.0080824 0.33329 -0.11133 -0.0017259 0.00094954
-0.00022024 -0.0011416 0.00013383 -0.00056639
0.0014466 0.0019566 0.00048961 -0.0017017 -0.0017262 0.00095382 0.23379 0.09624
-0.012713 0.0079654 0.0023482 0.00050963
-0.00010165 -0.0020274 -0.00060018 -0.0011222 -0.00023366 -0.0011489 -0.012697 0.0079952
0.18311 0.15896 -0.0089301 0.0070374
-0.00033883 0.00035961 -0.00023877 -0.00078263 0.0001296 -0.00056794 0.002346 0.00049851
-0.0089324 0.0070239 0.23269 0.23148
1640000000 0.30033 0.017003 -0.0015328 0.011677 -0.0026506 -0.0023997 0.0026906 0.00096846
-0.00056876 -0.0015871 -0.00026868 0.00067741
-0.0015372 0.011657 0.20887 0.27151 0.0055093 0.0037369 -0.00083599 -0.0017409
-0.0011599 -0.0003433 -0.00051098 -0.00054972
-0.0026568 -0.0023817 0.0055352 0.0037007 0.30419 -0.16043 -0.00053172 0.0016772
-0.0010997 -0.00084389 -0.00012789 -0.00016301
0.0027045 0.00096538 -0.00084023 -0.0017338 -0.00053897 0.0016808 0.245 0.048087
-0.0084081 0.010006 0.0025 -0.0010168
-0.00058408 -0.0015862 -0.0011585 -0.0003399 -0.0010975 -0.00084356 -0.0083882 0.010024
0.20463 0.13362 -0.0045325 0.0088222
-0.00026229 0.00067902 -0.00051743 -0.00054578 -0.00013314 -0.00016317 0.0024998 -0.0010264
-0.0045326 0.0088224 0.25769 0.19859
1700000000 0.29156 -0.028666 0.0017003 0.0091881 -0.0032882 0.0003036 0.0030008 -0.0012605
-0.0019747 -0.00081067 0.00069012 0.00037481
0.0016974 0.009166 0.22626 0.23958 0.0038275 0.00093065 -0.0015112 -0.00050839
-0.00083183 0.00027713 -0.00085055 -0.00039847
-0.0032868 0.00032283 0.0038425 0.00091121 0.26016 -0.1999 0.00074741 0.0015964
-0.001856 -0.00016965 -0.00056386 -0.00081244
0.0029942 -0.0012722 -0.0015201 -0.00050774 0.0007508 0.0015963 0.24072 -5.5137e-05
-0.0048845 0.011119 0.0014234 -0.0021477
-0.0019835 -0.00079402 -0.00082709 0.00028613 -0.0018581 -0.0001708 -0.0048648 0.011128
0.22013 0.11302 -0.00017699 0.0092895
0.0006964 0.00037023 -0.00085811 -0.00039264 -0.00057066 -0.00081482 0.0014229 -0.002159
-0.00017186 0.0092914 0.27196 0.16309
1760000000 0.27855 -0.077135 0.0039601 0.0061425 -0.0020721 0.0009103 0.0011203 -0.0034163
-0.0014965 0.00058304 0.00047149 -0.00040021
0.0039514 0.006128 0.2521 0.19917 0.0018098 -0.0010958 -0.00123 0.00026267
-0.00091441 0.0010069 -0.00059637 0.00046562
-0.0020606 0.00092528 0.0018025 -0.0011147 0.2115 -0.23313 0.0012972 0.00074218
-0.0011337 0.0014711 -0.0012293 -0.00030825
0.0011049 -0.0034242 -0.0012225 0.00027839 0.0012967 0.00074901 0.23212 -0.049669
-0.00076435 0.010584 -0.00030129 -0.002443
-0.0014995 0.00060629 -0.00091149 0.001016 -0.0011302 0.0014631 -0.00074164 0.010592
0.23405 0.077913 0.0035397 0.0068936
0.0004728 -0.00040276 -0.00059771 0.00047648 -0.0012352 -0.0003012 -0.00031103 -0.0024441
0.0035412 0.0068897 0.28352 0.12517
1820000000 0.2523 -0.11448 0.0042696 0.0027357 0.00023408 0.0023846 -0.0011117 -0.002936
-0.0012148 0.0011122 -2.3491e-05 -8.4775e-05
0.0042546 0.0027333 0.2611 0.16838 -0.00012305 4.6037e-05 -0.0011664 0.0010727
0.00017684 0.0012769 -0.00047049 0.00051275
0.00024616 0.002387 -0.00012362 4.5887e-05 0.16016 -0.24859 0.001334 0.00013393
-0.0001289 0.0022207 -0.0012836 0.00040012
-0.0011353 -0.0029351 -0.0011748 0.0010797 0.0013364 0.00013059 0.20251 -0.095958
0.0015815 0.008697 -0.0015652 -0.0014124
-0.0012093 0.0011132 0.00018586 0.0012799 -0.00013294 0.0022266 0.0016007 0.0087018
0.24958 0.048248 0.0044916 0.0036382
-2.3827e-05 -8.3331e-05 -0.00046459 0.00051823 -0.001295 0.00042182 -0.0015567 -0.0014099
0.0045003 0.0036346 0.28425 0.087414
1880000000 0.21578 -0.15357 0.0021172 0.00052083 -0.00033199 0.0018858 -0.0029844 -0.0019661
-0.00021372 0.0018554 0.00030146 -0.00055631
0.0020979 0.00052441 0.26474 0.12208 -0.002248 0.001719 -5.486e-05 0.0016412
0.00068862 0.00096501 0.00016132 0.00092709
-0.00030795 0.0018821 -0.0022457 0.001733 0.1069 -0.25711 0.0014546 -0.0010336
0.0016275 0.00178 -0.00073473 0.0012567
-0.0029879 -0.0019473 -4.143e-05 0.0016465 0.0014443 -0.0010332 0.16344 -0.13538
0.0030807 0.006103 -0.0020764 0.0002738
-0.00020197 0.001855 0.00070639 0.00096579 0.001628 0.0017741 0.0030949 0.0061029
0.25155 0.016056 0.0045168 0.0017868
0.00029729 -0.00055469 0.00015978 0.00092275 -0.00073995 0.0012639 -0.0020782 0.00028556
0.0045189 0.0017836 0.2824 0.054025
1940000000 0.17591 -0.17903 -1.2955e-05 -0.0011124 0.0013592 0.0017459 -0.0036129 0.00062782
0.0015979 0.0010789 -0.00059264 -0.00068287
-1.7437e-05 -0.0011041 0.26473 0.090039 -0.00088572 0.0039068 0.0010267 0.0011257
0.0016494 0.00027505 0.00081385 0.00036096
0.0013718 0.0017244 -0.00085067 0.0039198 0.062013 -0.24989 0.00011243 -0.0017742
0.0021693 0.00027885 0.00028817 0.0015905
-0.0036086 0.00064229 0.0010373 0.0011234 0.00011645 -0.0017775 0.11214 -0.16667
0.0025788 0.0038893 -0.0011558 0.0012176
0.001616 0.0010636 0.0016602 0.00026476 0.0021675 0.00026682 0.0025973 0.0038792
0.25284 -0.023626 0.0035781 -0.0013052
-0.00060233 -0.00068571 0.00081883 0.00034852 0.00028118 0.0015835 -0.0011599 0.0012193
0.0035785 -0.0013071 0.27066 0.016862
2000000000 0.12847 -0.19262 -0.0037368 0.00086885 0.0024121 0.0014865 -0.0022403 0.0032844
0.0012863 7.5764e-05 -0.000658 0.00030014
-0.0037265 0.00087121 0.24957 0.054662 -0.0006315 0.0054909 0.001492 0.00021655
0.0010598 -0.0012834 0.00050152 9.8639e-05
0.0024211 0.0014606 -0.00059951 0.0055117 0.018183 -0.23505 -0.0010739 -0.00094528
0.001704 -0.0011376 0.0015593 0.0010782
-0.0022214 0.0033017 0.0014963 0.00020291 -0.0010755 -0.00094463 0.058279 -0.17739
0.00074034 0.0025718 -5.7603e-06 0.0019288
0.0012846 6.6612e-05 0.0010496 -0.0012925 0.0016964 -0.0011378 0.00074303 0.0025839
0.24557 -0.057965 0.00054311 -0.0023851
