!Keysight Technologies,M9804A,MY58100912,A.14.10.03
!Date: Thursday, April 27, 2023 10:28:33
!Correction: S11(C  6-Port  ) 
!S12(C  6-Port  ) 
!S13(C  6-Port  ) 
!S14(C  6-Port  ) 
!S15(C  6-Port  ) 
!S16(C  6-Port  ) 
!S21(C  6-Port  ) 
!S22(C  6-Port  ) 
!S23(C  6-Port  ) 
!S24(C  6-Port  ) 
!S25(C  6-Port  ) 
!S26(C  6-Port  ) 
!S31(C  6-Port  ) 
!S32(C  6-Port  ) 
!S33(C  6-Port  ) 
!S34(C  6-Port  ) 
!S35(C  6-Port  ) 
!S36(C  6-Port  ) 
!S41(C  6-Port  ) 
!S42(C  6-Port  ) 
!S43(C  6-Port  ) 
!S44(C  6-Port  ) 
!S45(C  6-Port  ) 
!S46(C  6-Port  ) 
!S51(C  6-Port  ) 
!S52(C  6-Port  ) 
!S53(C  6-Port  ) 
!S54(C  6-Port  ) 
!S55(C  6-Port  ) 
!S56(C  6-Port  ) 
!S61(C  6-Port  ) 
!S62(C  6-Port  ) 
!S63(C  6-Port  ) 
!S64(C  6-Port  ) 
!S65(C  6-Port  ) 
!S66(C  6-Port  ) 
!S6P File: Measurement: :
# Hz S  RI   R 50
500000000 -0.334 -0.058797 -0.010289 -0.0012854 -0.0077788 0.01314 -0.0050794 0.01255
0.013484 0.0050479 -0.0051434 0.008028
-0.010372 -0.0013411 -0.41623 -0.06713 0.008677 -0.010433 0.00072073 0.012085
0.0079574 0.0022772 0.00035233 0.013053
-0.0078403 0.013107 0.0086315 -0.01046 -0.26769 0.19674 0.0066044 0.0030252
-0.0019681 0.009134 0.00028615 0.011088
-0.0050517 0.012486 0.00080893 0.012079 0.0066129 0.0030561 -0.3315 0.042177
-0.02045 -0.0049306 0.0169 0.025534
0.013437 0.005025 0.0079169 0.0023251 -0.0019928 0.0091731 -0.020501 -0.0050171
-0.24245 -0.20347 -0.028597 0.0048894
-0.005157 0.0077763 0.00038599 0.013071 0.00027249 0.011185 0.016843 0.025581
-0.028582 0.0048599 -0.26702 -0.12995
560000000 -0.31989 0.10858 -0.022642 -0.065903 -0.00028151 0.013073 0.005448 0.011575
0.0097054 0.0039404 0.010265 0.009779
-0.022583 -0.06582 -0.37484 0.097978 -0.042069 -0.038562 0.014304 0.0040128
-0.013311 -0.0037726 0.0042957 -0.0012752
-0.00039246 0.01315 -0.04222 -0.038533 -0.18598 0.24945 -0.00087111 -0.0042288
0.019026 0.0050642 0.0075272 -0.0051249
0.0054388 0.011581 0.014487 0.0039403 -0.00090104 -0.0042025 -0.30669 0.13377
0.0048332 -0.023087 0.006009 -0.021227
0.0095943 0.0041942 -0.013498 -0.0036946 0.019162 0.0049916 0.004808 -0.023145
-0.30779 -0.025589 0.0082707 -0.04902
0.010032 0.0095549 0.0043917 -0.0013333 0.0074478 -0.0050388 0.0060788 -0.021163
0.0082869 -0.049088 -0.33215 0.021308
620000000 -0.27973 0.090101 -0.023655 0.0089455 0.003763 0.0094078 0.0091088 -0.0037184
0.010002 -0.0019474 0.00075243 -0.00085836
-0.023654 0.0089318 -0.40367 0.045446 -0.018434 0.00086794 -0.0016033 -0.0022298
0.012288 -0.0058021 0.00132 -0.0035411
0.0037854 0.0093926 -0.018448 0.00092174 -0.1563 0.2585 -0.00062879 -0.0048443
-0.0034516 -0.0033133 0.0096946 -0.0023307
0.0091215 -0.0038345 -0.0016766 -0.0021615 -0.00059355 -0.0048233 -0.26592 0.14513
-0.038213 -0.0198 0.011872 0.027566
0.0098863 -0.0018472 0.012414 -0.0058391 -0.0034642 -0.0032668 -0.038118 -0.019823
-0.22957 -0.057306 -0.040521 0.01157
0.00082087 -0.00077132 0.0011322 -0.0035267 0.009681 -0.0023549 0.011803 0.027442
-0.040526 0.011571 -0.25129 -0.016245
680000000 -0.24155 0.18136 -0.026204 -0.014711 0.0051991 0.0053115 0.0015122 -0.0072788
-0.0014334 -0.011128 0.0054125 -0.0076333
-0.026181 -0.014706 -0.39079 0.14759 -0.032093 -0.0020936 -0.0018665 -0.00041621
-0.0011378 -0.0089659 -0.00080605 -0.0021508
0.0052207 0.0053153 -0.032128 -0.0020142 -0.10451 0.28 -0.0011299 -0.00025613
-0.0011303 0.00012585 -0.0027648 -0.0094007
0.0014233 -0.0073305 -0.001862 -0.000393 -0.0011346 -0.00025301 -0.22063 0.19716
-0.023546 -0.0080232 -0.009372 -0.011623
-0.0014464 -0.011127 -0.0011738 -0.0089219 -0.001108 0.00010817 -0.023545 -0.0080517
-0.28026 0.047179 -0.0065014 -0.0083945
0.0051918 -0.0077337 -0.00083562 -0.0021744 -0.0027395 -0.0094059 -0.00935 -0.011636
-0.0065135 -0.0084035 -0.261 0.089571
740000000 -0.19418 0.17455 -0.040101 0.026693 0.014187 -0.005065 6.8131e-05 -0.0042824
-0.0045431 -0.0033614 -0.0059472 0.0023622
-0.040107 0.026693 -0.33591 0.16605 -0.037033 0.03439 -6.2942e-05 -0.0063254
-0.012144 0.0073547 -0.0013021 -0.0063346
0.014137 -0.0051724 -0.036992 0.034509 -0.07002 0.27646 -0.0016114 0.003089
-0.0032812 -0.0058197 -0.0011148 0.00072442
0.00010463 -0.0042951 -7.773e-05 -0.0062981 -0.0016276 0.0030967 -0.20344 0.20339
-0.042398 -0.0076957 0.023292 0.015458
-0.0047028 -0.0034514 -0.012172 0.0075291 -0.0032303 -0.0058593 -0.04244 -0.0076663
-0.18239 0.073212 -0.042777 0.0014162
-0.0058829 0.00236 -0.0014118 -0.0064492 -0.0011418 0.00071097 0.023348 0.015443
-0.042772 0.001417 -0.24914 0.09464
800000000 -0.16346 0.21881 -0.022284 0.016001 0.0058856 -0.010811 -0.0042717 -0.0023082
-0.0046359 0.0016925 0.0044115 0.00026308
-0.022284 0.015954 -0.34216 0.23676 -0.0085376 0.033844 -0.0022511 0.0021002
-0.0012935 0.0022888 0.00079039 0.0053901
0.0058446 -0.010841 -0.0084381 0.033878 -0.031876 0.3008 0.00099463 0.0014837
-2.6534e-05 0.0033626 -0.0016319 0.00080754
-0.0042966 -0.0023326 -0.0022401 0.0021045 0.00098932 0.0014868 -0.17406 0.23146
-0.02825 0.013058 0.01435 -0.0098865
-0.0045915 0.001785 -0.0012576 0.0023082 3.8901e-06 0.0033942 -0.02827 0.013126
-0.22463 0.10258 -0.017431 0.019911
0.004432 0.00022641 0.00084788 0.0053888 -0.0016363 0.00082452 0.014376 -0.0098608
-0.017433 0.019886 -0.24309 0.14528
860000000 -0.12862 0.2395 -0.018003 0.03019 -0.0028926 -0.010476 -0.0018898 0.0006208
0.0039896 0.0052698 -0.0038507 -0.0030709
-0.018001 0.030159 -0.29391 0.28052 0.0069973 0.034416 0.0003172 0.0021659
0.0033847 0.001323 0.0027878 0.00058384
-0.0029149 -0.010471 0.0071257 0.034422 0.015564 0.30921 -0.00054638 -5.6623e-05
0.0022555 -0.0011603 0.0013447 0.0040431
-0.0018812 0.00058452 0.00031983 0.0021755 -0.00055118 -5.6433e-05 -0.13729 0.24185
-0.017667 0.017982 -0.0057213 -0.009323
0.0039678 0.0052758 0.0034104 0.0013244 0.0022593 -0.001153 -0.017649 0.018028
-0.16743 0.1576 -0.025583 0.016564
-0.0038534 -0.0030239 0.0028085 0.00053865 0.0013564 0.0040623 -0.0057425 -0.0093203
-0.025562 0.016541 -0.19161 0.18978
920000000 -0.10562 0.2626 0.0045453 0.038407 -0.0091512 -0.0049718 -0.0018972 0.0017835
0.0013217 0.0025099 0.0033015 -0.0011654
0.0044934 0.03837 -0.26687 0.30129 0.02802 0.02307 0.0014345 0.0013956
0.0079921 0.00031822 0.0044233 -0.0026728
-0.0091456 -0.0049689 0.028119 0.022992 0.060602 0.31068 0.0019587 0.0001513
0.0012366 -9.8025e-05 0.001103 -0.0012933
-0.0018822 0.0017892 0.0014107 0.0013996 0.001959 0.0001439 -0.11332 0.25856
-0.011213 0.030319 0.0036763 -0.0067635
0.0013192 0.0024846 0.0080277 0.00021535 0.0012531 -0.0001194 -0.011175 0.030348
-0.15485 0.16117 -0.001531 0.025659
0.003248 -0.0011798 0.0044101 -0.0026461 0.0010935 -0.0012848 0.0036461 -0.006777
-0.001551 0.025666 -0.20015 0.20349
980000000 -0.05908 0.28308 0.016644 0.030052 -0.0094767 0.0040721 0.0018171 0.0035953
0.0041196 -0.0016068 -0.0030583 -0.0025579
0.016614 0.030021 -0.21422 0.33658 0.033249 0.0057349 0.0021034 -0.00013575
0.0018329 -0.0061425 -0.00032194 -0.0024198
-0.0094631 0.0041113 0.033295 0.0056041 0.1062 0.30547 0.00073678 -0.0012011
0.00042545 -0.002 0.0014297 -0.0001438
0.0018006 0.0036045 0.0021135 -0.00016989 0.00074808 -0.001191 -0.074867 0.26935
0.0070042 0.029708 -0.0092071 -0.0072565
0.0041095 -0.0015709 0.001758 -0.006161 0.00041697 -0.0019938 0.0070574 0.029705
-0.12438 0.1922 0.0059215 0.019512
-0.0031306 -0.0025553 -0.00034513 -0.0024069 0.0014228 -0.00015226 -0.0091948 -0.0072446
0.0059094 0.019506 -0.15766 0.24799
1040000000 -0.017854 0.29209 0.032748 0.019316 -0.0017417 0.0069755 0.0026083 0.00081577
0.00035885 -0.0033579 -0.00018229 -0.001831
0.032685 0.019313 -0.17917 0.34992 0.030163 -0.014205 0.0016956 -0.001729
-0.0018871 -0.0027784 -0.00094909 -0.0033308
-0.001713 0.0069962 0.03012 -0.014361 0.15207 0.29259 -0.00037856 -0.0016287
-0.0015738 -0.001052 -0.00064998 -0.0011205
0.0026257 0.00084126 0.0016866 -0.0017531 -0.00036937 -0.0016236 -0.048011 0.27912
0.018785 0.018937 -0.0027215 0.0009324
0.00035266 -0.0033317 -0.0019504 -0.0028101 -0.0015972 -0.001049 0.018808 0.018916
-0.090505 0.19901 0.014047 0.018375
-0.00023908 -0.0018475 -0.00098819 -0.0032899 -0.00065327 -0.001127 -0.0027202 0.0009287
0.014021 0.018379 -0.13562 0.26765
1100000000 0.026731 0.30185 0.03637 -0.0030839 0.0027858 0.0042159 0.0025348 -0.00097187
-0.0022213 -0.0030641 -0.0039649 -7.5119e-05
0.036325 -0.0030535 -0.13644 0.3686 0.016273 -0.027768 4.9099e-05 -0.0018141
-0.0037136 -0.00096509 -0.0035465 -0.00058503
0.0027989 0.0042184 0.016185 -0.027872 0.19792 0.27375 -0.0018745 -3.6017e-06
-0.0017815 0.0004859 -0.0010923 -0.00045233
0.0025457 -0.00097821 3.1086e-05 -0.0018198 -0.0018789 -7.1203e-06 -0.0080169 0.28437
0.024424 0.0059442 -0.002459 0.00015566
-0.0022449 -0.0030452 -0.0037342 -0.00094428 -0.0017741 0.00049618 0.024434 0.0058976
-0.07105 0.21249 0.019219 0.0088437
-0.0039344 -2.3282e-05 -0.0035563 -0.00054528 -0.0010826 -0.00045747 -0.0024586 0.00017456
0.019206 0.0088394 -0.090124 0.29864
1160000000 0.077904 0.29824 0.024787 -0.020218 0.0027768 -0.00043373 -3.3867e-05 -0.0023803
-0.0040451 -0.00091472 -0.0012531 0.0042737
0.024765 -0.0202 -0.093183 0.37341 -0.0029534 -0.029563 -0.0016543 -0.0017165
-0.0029758 0.0024147 -0.0015816 0.0019656
0.0027993 -0.00043891 -0.003097 -0.029584 0.24151 0.24404 -0.00086182 0.0017402
-0.00073225 0.0019931 -0.00091952 0.00035058
-5.3839e-05 -0.0023538 -0.0016881 -0.0017461 -0.00086206 0.0017506 0.030936 0.28209
0.021358 -0.009691 -0.0033107 0.0049688
-0.004036 -0.00088062 -0.0029754 0.0024287 -0.00074614 0.0019849 0.021332 -0.0097317
-0.0358 0.22077 0.018731 -0.00032082
-0.0011787 0.0042114 -0.0015728 0.0019506 -0.00090911 0.00034444 -0.0032908 0.0049661
0.018722 -0.00034188 -0.043104 0.30089
1220000000 0.12174 0.28873 0.01143 -0.030097 -0.0015908 -0.00095214 0.00017075 -0.00094237
-0.0027382 0.0020982 0.0010398 0.0021473
0.01144 -0.030058 -0.049365 0.38694 -0.016774 -0.022169 -0.0026599 0.00046527
-0.00010812 0.0032193 -0.00082255 0.0020322
-0.0016004 -0.0009414 -0.016898 -0.022128 0.2808 0.20572 0.00066983 0.0018777
0.0005099 0.0012413 0.00034788 0.00062375
0.00016235 -0.00093493 -0.0026478 0.00047234 0.00066768 0.0018764 0.071059 0.27404
0.011151 -0.016674 0.0021267 0.0016047
-0.0027383 0.0021245 -9.5175e-05 0.003221 0.00051371 0.001245 0.011124 -0.016702
-0.013041 0.22947 0.014143 -0.012856
0.0010676 0.0021718 -0.00081196 0.0020366 0.00035781 0.00065019 0.0021243 0.0016091
0.014155 -0.012855 -0.012003 0.31717
1280000000 0.17222 0.26889 -0.0073505 -0.028929 -0.0020088 0.0025325 -0.00085351 -0.0021544
-0.0008361 0.0031866 0.0024716 0.0013974
-0.0073286 -0.028905 -0.0032112 0.37935 -0.024216 -0.0092646 -0.0010642 0.0014923
0.0017202 0.0018472 0.0005429 0.0019957
-0.0020043 0.0025311 -0.0243 -0.0091702 0.31172 0.16278 0.001644 0.0001127
0.0012598 0.00033705 0.00038124 0.00023389
-0.00086738 -0.0021536 -0.0010652 0.0014928 0.0016536 0.00010496 0.10799 0.25834
0.0015589 -0.019182 0.00011453 0.00024417
-0.00082005 0.0031789 0.0017491 0.0018541 0.0012612 0.00032895 0.0015208 -0.019194
0.023437 0.23309 0.003225 -0.015022
0.0024605 0.0013751 0.00051894 0.0019874 0.00037561 0.00022923 0.00011453 0.0002523
0.0032288 -0.015015 0.035564 0.31971
1340000000 0.20979 0.23619 -0.017326 -0.019505 0.00073218 0.0048407 -0.0019076 -0.00086465
0.0013356 0.0028032 0.0019264 -0.0012893
-0.017301 -0.019503 0.036565 0.37225 -0.022196 0.0039203 -0.00014188 0.0020768
0.001998 0.00079991 0.0011787 0.00083666
0.00074895 0.0048353 -0.022202 0.0040314 0.33442 0.1156 0.0011472 -0.00096796
0.0006404 -0.00058203 0.00013353 0.00022831
-0.0019072 -0.00085373 -0.00013637 0.0020864 0.0011462 -0.00096802 0.14156 0.23793
-0.0079765 -0.016833 0.00078215 0.0004425
0.0013414 0.0028288 0.0019875 0.0007934 0.00063779 -0.00058607 -0.0080138 -0.016816
0.05341 0.22878 -0.0039208 -0.014131
0.0019138 -0.0012847 0.0011988 0.00084441 0.00012132 0.00023321 0.00078522 0.00043204
-0.0039139 -0.01414 0.072996 0.3151
1400000000 0.24406 0.19959 -0.023483 -0.0079546 0.0054297 0.0034835 -0.0022553 0.00060487
0.0024777 0.0010399 0.00040193 -0.0016342
-0.023455 -0.0079639 0.074342 0.36034 -0.015607 0.012554 0.0013837 0.0013416
0.0013478 -0.00081101 0.0012078 0.00012236
0.0054436 0.0034722 -0.015566 0.012648 0.3478 0.062601 0.0001846 -0.0016986
0.00013693 -0.00036814 0.00031721 0.00016844
-0.0022693 0.00061608 0.0013988 0.0013404 0.00018839 -0.0016974 0.17151 0.2092
-0.014289 -0.010278 -0.00080416 -5.4629e-05
0.0024845 0.00102 0.0013377 -0.000818 0.00014431 -0.00037991 -0.014309 -0.010246
0.086127 0.22493 -0.010207 -0.0089617
0.00039845 -0.0016437 0.0012233 0.00012059 0.00031602 0.00017747 -0.0008136 -5.0787e-05
-0.010192 -0.0089761 0.11749 0.30464
1460000000 0.26789 0.15621 -0.020585 0.0044534 0.0060266 -0.0017238 -0.0015734 0.0018815
0.0022201 -0.00036919 -0.00035969 -0.0010544
-0.020572 0.0044431 0.10951 0.33903 -0.0064434 0.015896 0.0017406 0.00018883
0.00089984 -0.0014262 0.0013164 -0.00054616
0.0060151 -0.0017473 -0.0063745 0.015952 0.35499 0.0087796 -0.0012431 -0.0012894
0.00021984 -0.00025251 0.00062955 -0.00022849
-0.0015489 0.0018885 0.0017617 0.00018456 -0.0012379 -0.0012931 0.1986 0.17981
-0.015628 -0.0037081 -0.00088998 0.0019792
0.0022278 -0.00037865 0.00089561 -0.0014351 0.00022447 -0.0002603 -0.015646 -0.00367
0.1162 0.21175 -0.011886 -0.0031042
-0.00037555 -0.00105 0.0013004 -0.00056445 0.00063563 -0.00024611 -0.00087725 0.001968
-0.011882 -0.0031092 0.15075 0.28434
1520000000 0.28111 0.11472 -0.015014 0.010051 0.0036651 -0.0044886 0.00016075 0.0026446
0.0022454 -0.0018389 -0.0012455 -0.00017892
-0.015011 0.010025 0.14365 0.32475 0.0016494 0.01363 0.001657 -0.00078197
4.2894e-05 -0.0011167 0.00033213 -0.0010718
0.0036433 -0.0045046 0.0017213 0.013637 0.34859 -0.047398 -0.0011296 -0.00044347
0.00077124 -0.00081356 0.00011314 -0.00014884
0.0001708 0.0026474 0.0016618 -0.00078856 -0.0011253 -0.00044683 0.22214 0.14108
-0.015343 0.0022658 0.0016173 0.0022394
0.002241 -0.0018645 3.9233e-05 -0.0011224 0.00076474 -0.00081885 -0.015344 0.0023028
0.14438 0.19854 -0.012037 0.0014925
-0.0012588 -0.00017105 0.00032329 -0.0010737 0.00011355 -0.00014504 0.0016132 0.0022356
-0.012038 0.0014809 0.18417 0.26431
1580000000 0.29169 0.068974 -0.0083376 0.013496 -0.00098346 -0.0052434 0.0015228 0.0018946
-0.00011015 -0.0022409 -0.00025256 0.00036663
-0.0083397 0.013479 0.17163 0.30037 0.0055451 0.0085707 0.00051753 -0.0016066
-0.00054389 -0.0010682 -0.00015432 -0.00093349
-0.0010085 -0.0052575 0.0055971 0.0085576 0.32915 -0.10484 -0.0016804 0.00062281
-0.00027484 -0.0013043 0.00019058 -0.00053027
0.0015455 0.0018916 0.00051048 -0.0016123 -0.0016786 0.00062026 0.23613 0.10155
-0.011975 0.0074704 0.0023502 0.00068008
-0.00011203 -0.0022366 -0.00055025 -0.0010681 -0.00027571 -0.0012991 -0.011968 0.0074978
0.16932 0.18155 -0.0094153 0.0073614
-0.00024661 0.00038578 -0.00016941 -0.00093779 0.00017907 -0.00054684 0.0023465 0.00067761
-0.0094243 0.0073616 0.21646 0.23812
1640000000 0.2946 0.027343 -0.0015612 0.012366 -0.0030289 -0.0027885 0.0027086 0.0010759
-0.00079226 -0.0016812 -0.00042483 0.00069596
-0.0015639 0.012355 0.20186 0.27544 0.0062487 0.0034697 -0.00060489 -0.0017742
-0.0010255 -0.00042818 -0.00058296 -0.00069898
-0.0030403 -0.0027764 0.0062683 0.0034338 0.30128 -0.15458 -0.00067558 0.0015454
-0.0010911 -0.0010565 -0.00021219 -0.00032761
0.0027076 0.0010685 -0.00062365 -0.0017787 -0.00067635 0.0015409 0.24875 0.05209
-0.0077307 0.0090987 0.0025674 -0.00072217
-0.00081703 -0.001676 -0.0010384 -0.00042228 -0.0010979 -0.0010527 -0.0077062 0.0091153
0.1933 0.15787 -0.0048425 0.0094123
-0.00041519 0.00071909 -0.00058436 -0.00069873 -0.00020959 -0.000319 0.0025654 -0.00074476
-0.0048434 0.0094141 0.24217 0.20738
1700000000 0.28794 -0.018194 0.0019728 0.0096089 -0.0038493 6.8294e-05 0.0032513 -0.0012531
-0.0020027 -0.00074541 0.0004681 0.00050589
0.0019609 0.0096007 0.22033 0.24396 0.004138 0.00037687 -0.0014727 -0.00062326
-0.00079223 6.9283e-06 -0.001013 -0.00053822
-0.0038522 8.2581e-05 0.0041486 0.00035056 0.25802 -0.19418 0.00046332 0.0016549
-0.0019642 -0.00014503 -0.00061124 -0.00088796
0.0032518 -0.0012543 -0.0014797 -0.00060856 0.00045071 0.0016623 0.24517 0.0017963
-0.0047597 0.0099104 0.00173 -0.0021372
-0.0020139 -0.00073991 -0.0008094 2.2227e-05 -0.00198 -0.00013441 -0.0047492 0.009919
0.21093 0.13798 -9.5764e-05 0.0098957
0.00048538 0.00048407 -0.00099827 -0.00053261 -0.00059592 -0.00090166 0.0017258 -0.0021415
-9.3438e-05 0.0099033 0.25902 0.17358
1760000000 0.27649 -0.06696 0.0044632 0.0062705 -0.0023577 0.0010087 0.0013063 -0.003436
-0.001429 0.00062186 0.00035829 -0.00060342
0.0044537 0.0062665 0.24699 0.20418 0.0017646 -0.0016294 -0.0012194 0.00011418
-0.001065 0.00094659 -0.00062249 0.0003345
-0.0023537 0.0010213 0.0017474 -0.0016487 0.21013 -0.22752 0.0011241 0.0010938
-0.001335 0.0015889 -0.001183 -0.00072969
0.0012575 -0.0034609 -0.0012236 0.00010283 0.0011328 0.0011053 0.23597 -0.04989
-0.0010679 0.0090819 -0.00022527 -0.0027165
-0.0014395 0.00062277 -0.0010734 0.00094534 -0.0013375 0.0016015 -0.0010492 0.0090948
0.22694 0.10388 0.0039835 0.0071645
0.00034182 -0.00061927 -0.00062141 0.00034165 -0.0011952 -0.00072368 -0.00022683 -0.0027107
0.0039853 0.0071712 0.27198 0.13588
1820000000 0.2522 -0.10471 0.0046105 0.0026471 -0.00010563 0.0025671 -0.00098434 -0.0031693
-0.0012719 0.0009868 -2.0814e-07 -0.00011903
0.0046037 0.0026316 0.25734 0.17374 -0.00070543 -0.0003161 -0.0013965 0.00093088
-8.0861e-05 0.0012618 -0.00065727 0.00060591
-8.8603e-05 0.002555 -0.00070298 -0.00031472 0.15889 -0.24354 0.0015581 0.00046157
-0.00027123 0.0024518 -0.0015613 0.00047823
-0.00099237 -0.0031602 -0.0013863 0.00094091 0.0015586 0.00046014 0.20536 -0.097414
0.00055883 0.0075259 -0.0016564 -0.0014992
-0.0012703 0.0010145 -8.1515e-05 0.0012763 -0.0002675 0.0024598 0.00058835 0.0075219
0.24464 0.07475 0.0048575 0.0039265
-1.3273e-05 -0.0001327 -0.00064228 0.00059912 -0.0015569 0.00046129 -0.0016653 -0.001492
0.0048577 0.0039268 0.27474 0.10016
1880000000 0.21708 -0.14525 0.0022626 0.00020783 -0.00064524 0.0023111 -0.0029381 -0.0023199
-0.0001476 0.0018796 0.00015717 -0.00066573
0.0022794 0.00020475 0.2618 0.12718 -0.0028087 0.0015768 -0.00021738 0.0017759
0.00056803 0.0013668 7.033e-05 0.0010722
-0.00062695 0.0022996 -0.0028013 0.0016026 0.10689 -0.25255 0.0018021 -0.00092725
0.0015324 0.0020095 -0.0010208 0.0014944
-0.0029416 -0.0023105 -0.00020171 0.00178 0.0017964 -0.00092015 0.16457 -0.1372
0.0017658 0.0054244 -0.0022912 9.2874e-05
-0.00013639 0.0018864 0.00057966 0.0013527 0.0015352 0.0020101 0.0017783 0.0054191
0.24915 0.04383 0.0053775 0.0014632
0.00017956 -0.0006705 8.7544e-05 0.0010794 -0.0010249 0.0014983 -0.0022649 0.0001138
0.0053765 0.0014731 0.27501 0.066026
1940000000 0.17778 -0.17125 -0.00013724 -0.0015093 0.0014253 0.0020626 -0.003897 0.00038563
0.0012821 0.0011472 -0.00067395 -0.00048184
-0.00014377 -0.0014978 0.26279 0.095084 -0.0013784 0.0040896 0.00094892 0.0014029
0.0018443 0.00055979 0.00094292 0.00039205
0.0014254 0.002069 -0.0013486 0.0041011 0.062124 -0.24556 0.00045944 -0.0021885
0.0023964 0.0004627 0.00040585 0.0016341
-0.0039002 0.00041066 0.00096158 0.0013959 0.00046642 -0.0021878 0.11196 -0.1674
0.00079078 0.0038397 -0.0017627 0.0014737
0.0012901 0.0011289 0.0018462 0.00054941 0.0024021 0.00045354 0.00081222 0.003835
0.25289 0.0050333 0.0039453 -0.0021617
-0.00067005 -0.000486 0.00095212 0.000391 0.00040505 0.0016458 -0.0017627 0.0014658
0.0039391 -0.0021734 0.26483 0.029978
2000000000 0.1316 -0.18562 -0.0040492 0.00089363 0.0026242 0.0017583 -0.0023726 0.0036847
0.0013322 0.00035079 -0.00038504 0.00049304
-0.0040445 0.00089323 0.24821 0.059594 -0.0010584 0.0060842 0.0017377 0.00044631
0.0014121 -0.0011029 0.00072061 0.00019159
0.0026465 0.0017362 -0.0010093 0.0060937 0.018624 -0.23142 -0.0012608 -0.0014804
0.0021012 -0.001105 0.0016797 0.0014395
-0.0023306 0.0037198 0.0017479 0.0004254 -0.0012769 -0.0014876 0.05836 -0.17702
-0.0005722 0.0036654 0.00015663 0.002311
0.0013524 0.00035021 0.0014137 -0.0011175 0.0021014 -0.0011211 -0.00057249 0.0036679
0.24795 -0.028152 0.0007322 -0.0028038
