!Keysight Technologies,M9804A,MY58100912,A.14.10.03
!Date: Thursday, April 27, 2023 10:28:33
!Correction: S11(C  6-Port  ) 
!S12(C  6-Port  ) 
!S13(C  6-Port  ) 
!S14(C  6-Port  ) 
!S15(C  6-Port  ) 
!S16(C  6-Port  ) 
!S21(C  6-Port  ) 
!S22(C  6-Port  ) 
!S23(C  6-Port  ) 
!S24(C  6-Port  ) 
!S25(C  6-Port  ) 
!S26(C  6-Port  ) 
!S31(C  6-Port  ) 
!S32(C  6-Port  ) 
!S33(C  6-Port  ) 
!S34(C  6-Port  ) 
!S35(C  6-Port  ) 
!S36(C  6-Port  ) 
!S41(C  6-Port  ) 
!S42(C  6-Port  ) 
!S43(C  6-Port  ) 
!S44(C  6-Port  ) 
!S45(C  6-Port  ) 
!S46(C  6-Port  ) 
!S51(C  6-Port  ) 
!S52(C  6-Port  ) 
!S53(C  6-Port  ) 
!S54(C  6-Port  ) 
!S55(C  6-Port  ) 
!S56(C  6-Port  ) 
!S61(C  6-Port  ) 
!S62(C  6-Port  ) 
!S63(C  6-Port  ) 
!S64(C  6-Port  ) 
!S65(C  6-Port  ) 
!S66(C  6-Port  ) 
!S6P File: Measurement: :
# Hz S  RI   R 50
500000000 -0.33485 -0.058634 -0.010358 -0.0014437 -0.0077554 0.013133 -0.0052356 0.012689
0.013371 0.0046142 -0.0055287 0.0078336
-0.010575 -0.0013948 -0.41604 -0.06704 0.0084065 -0.010291 0.00069783 0.012192
0.008079 0.0016619 0.00020134 0.013072
-0.0079615 0.013164 0.008361 -0.010357 -0.26787 0.19687 0.0065596 0.0032799
-0.0020971 0.0089387 -0.00025829 0.011405
-0.0052914 0.012806 0.00075104 0.012259 0.0065142 0.0032823 -0.33128 0.042212
-0.021016 -0.0050691 0.016917 0.026318
0.013485 0.0047257 0.0079999 0.0019047 -0.0019737 0.0090583 -0.020948 -0.004872
-0.24168 -0.20385 -0.028994 0.004522
-0.0057571 0.007621 0.00034843 0.013077 0.00011832 0.011528 0.016925 0.025654
-0.029161 0.0045216 -0.26753 -0.12896
560000000 -0.32044 0.10861 -0.022535 -0.065409 -9.199e-05 0.013065 0.0056425 0.011168
0.009914 0.0039941 0.0099055 0.00856
-0.022663 -0.065352 -0.37495 0.097231 -0.042257 -0.038498 0.014467 0.0034222
-0.014625 -0.0034105 0.0045468 -0.0017726
-0.00032068 0.013009 -0.042237 -0.038386 -0.18577 0.24962 -0.0005926 -0.0039316
0.019584 0.0043149 0.0076746 -0.0055646
0.0056835 0.011476 0.014395 0.0036004 -0.00068114 -0.0042543 -0.30662 0.13389
0.0048338 -0.022443 0.0060612 -0.020981
0.0099582 0.0044808 -0.014495 -0.0035798 0.01934 0.0046907 0.0051091 -0.022505
-0.30685 -0.0251 0.0067251 -0.049534
0.010177 0.0091973 0.0051048 -0.0015404 0.0076036 -0.0048976 0.0058749 -0.021321
0.0078907 -0.048938 -0.33092 0.019778
620000000 -0.27946 0.089677 -0.023601 0.0088147 0.0036063 0.0092493 0.0089613 -0.0035734
0.010414 -0.0017166 0.0003752 -0.0013107
-0.023603 0.0088754 -0.40363 0.045348 -0.018527 0.00076734 -0.001615 -0.0019376
0.012427 -0.0057783 0.00056166 -0.0030917
0.0036631 0.0092859 -0.018557 0.00085009 -0.15632 0.25863 -0.0006231 -0.0047182
-0.0034295 -0.003428 0.0095572 -0.0022111
0.0087444 -0.0034664 -0.0015485 -0.0018987 -0.00059902 -0.0047296 -0.26596 0.14493
-0.038529 -0.020045 0.013229 0.027218
0.010446 -0.0020734 0.012266 -0.0059784 -0.0034088 -0.0033884 -0.038156 -0.019993
-0.22924 -0.055641 -0.04173 0.011179
0.00013897 -0.00054733 0.00095372 -0.0030707 0.0094666 -0.0021872 0.012468 0.027152
-0.041342 0.011419 -0.25035 -0.014869
680000000 -0.24126 0.18143 -0.026118 -0.014601 0.0052211 0.0053404 0.0014399 -0.0072113
-0.0014416 -0.011196 0.0059968 -0.007304
-0.026125 -0.014639 -0.39088 0.1477 -0.032127 -0.0021255 -0.001728 -0.00042256
-0.0011637 -0.008959 -0.00063639 -0.0021984
0.005091 0.0053559 -0.032199 -0.002056 -0.10446 0.27997 -0.0010283 -0.00021489
-0.0011004 3.6934e-05 -0.0027498 -0.0092852
0.0012533 -0.0070697 -0.0018293 -0.00041724 -0.0010216 -0.00025169 -0.22111 0.19746
-0.023238 -0.0078721 -0.0093731 -0.011608
-0.0015368 -0.01102 -0.0012049 -0.0089448 -0.0010873 2.5668e-05 -0.023418 -0.0077905
-0.28042 0.047428 -0.0063404 -0.0078598
0.0051478 -0.0075852 -0.00099003 -0.0021291 -0.002694 -0.0095019 -0.0092518 -0.0119
-0.0063883 -0.0079282 -0.26063 0.089979
740000000 -0.19427 0.17432 -0.04021 0.026684 0.014092 -0.0051207 0.00018977 -0.0043695
-0.0049773 -0.0033382 -0.0060166 0.002655
-0.040019 0.026711 -0.3354 0.16628 -0.037012 0.034425 7.1706e-05 -0.0061614
-0.012024 0.0080643 -0.00073865 -0.0063238
0.014105 -0.0050815 -0.036953 0.034623 -0.069908 0.27654 -0.0019562 0.0031163
-0.0035665 -0.0058856 -0.00086113 0.00062544
0.00018069 -0.0043837 0.00011162 -0.0062888 -0.0018313 0.0031372 -0.20314 0.2037
-0.043006 -0.007498 0.023115 0.015167
-0.0051515 -0.0034156 -0.011814 0.0075745 -0.0033064 -0.0058229 -0.043062 -0.0076073
-0.18295 0.073326 -0.042896 0.0026594
-0.0060648 0.0025513 -0.001033 -0.0063134 -0.00088653 0.00087048 0.023058 0.015655
-0.043082 0.0021179 -0.24802 0.094076
800000000 -0.16345 0.2187 -0.022345 0.015984 0.0058383 -0.010819 -0.0043304 -0.0023768
-0.0044943 0.0018625 0.0042969 0.00044535
-0.022311 0.015983 -0.34217 0.23683 -0.008592 0.033815 -0.0022661 0.0020444
-0.0013321 0.0021969 0.00095023 0.0055705
0.0058433 -0.010826 -0.0084807 0.033853 -0.031886 0.30077 0.00095959 0.0014144
-2.0333e-05 0.0033919 -0.0016602 0.00078096
-0.0043993 -0.0023523 -0.0022609 0.0020234 0.00095774 0.0014184 -0.17435 0.23154
-0.028218 0.012862 0.014185 -0.010059
-0.0044083 0.0018278 -0.001231 0.0022326 -8.1008e-06 0.0034487 -0.028181 0.013049
-0.22456 0.10302 -0.017326 0.019996
0.0044869 0.00024407 0.00094478 0.0055277 -0.0015926 0.00072552 0.014067 -0.010054
-0.017325 0.019422 -0.2426 0.14574
860000000 -0.12891 0.23946 -0.018051 0.030278 -0.0029257 -0.010457 -0.001939 0.00066781
0.0034565 0.0053707 -0.0037296 -0.0028041
-0.01807 0.030255 -0.29398 0.28052 0.0069501 0.034405 0.00026918 0.0023473
0.0032868 0.0014019 0.0025956 0.00071976
-0.0029623 -0.010442 0.0070699 0.03442 0.01558 0.30923 -0.00055746 3.5426e-05
0.0021234 -0.0010746 0.0014014 0.0042136
-0.0018904 0.00061303 0.0002046 0.0023291 -0.00056365 6.6984e-06 -0.13716 0.242
-0.017865 0.018135 -0.0057872 -0.0090974
0.0035313 0.0053247 0.0032691 0.0013887 0.0021661 -0.0011231 -0.01773 0.018139
-0.16792 0.15846 -0.025248 0.017051
-0.0036791 -0.0030086 0.0026329 0.00060251 0.001421 0.0042043 -0.0057245 -0.0090702
-0.025377 0.01679 -0.19168 0.18971
920000000 -0.10546 0.26257 0.0046351 0.038379 -0.009108 -0.0049657 -0.0018737 0.0017576
0.0013848 0.0022827 0.0033235 -0.001238
0.0046584 0.038325 -0.26679 0.30134 0.027997 0.023015 0.0013911 0.0013995
0.0082269 0.00022088 0.0043577 -0.003012
-0.0091268 -0.0049513 0.028097 0.022956 0.060659 0.31069 0.0019173 0.00014482
0.0013047 -8.2989e-05 0.0010298 -0.0013691
-0.0019128 0.001755 0.001375 0.0014144 0.0019299 0.00013109 -0.11349 0.25858
-0.011028 0.030471 0.0036172 -0.0068325
0.001477 0.0023641 0.0081776 0.00015875 0.0012415 -7.6906e-05 -0.011105 0.030619
-0.1545 0.1612 -0.0016939 0.025935
0.0032126 -0.0011455 0.0043159 -0.0028362 0.0011188 -0.0012996 0.0035249 -0.0067467
-0.0014422 0.025813 -0.20025 0.20357
980000000 -0.058998 0.28321 0.016698 0.030053 -0.0094607 0.0040942 0.0018418 0.0036623
0.0039789 -0.0016346 -0.0033307 -0.0026368
0.01666 0.030073 -0.21412 0.33658 0.033204 0.0056809 0.002129 -6.1118e-05
0.0016955 -0.0062296 -0.00050362 -0.0024107
-0.0094597 0.0041233 0.033256 0.0055763 0.10627 0.30546 0.00073373 -0.0011393
0.00039771 -0.0020818 0.0012632 -0.00016341
0.0018648 0.0036611 0.0021218 -8.36e-05 0.00074079 -0.0011306 -0.074766 0.26952
0.0069625 0.029701 -0.0092461 -0.007062
0.0040317 -0.0016313 0.0016834 -0.0062413 0.00039796 -0.0020898 0.0070049 0.029671
-0.12453 0.19239 0.0059122 0.019707
-0.0031697 -0.0024233 -0.00028424 -0.0022728 0.0013453 -0.0001217 -0.0091899 -0.0069988
0.0058933 0.019734 -0.15759 0.24813
1040000000 -0.017932 0.29207 0.032731 0.019304 -0.0017432 0.006971 0.0025793 0.00090168
0.00021253 -0.0033817 -0.00013838 -0.0019389
0.032706 0.019311 -0.17915 0.34993 0.030127 -0.014257 0.0016655 -0.0016961
-0.0019005 -0.0027269 -0.00094125 -0.0033684
-0.0017075 0.0069662 0.030095 -0.014371 0.15213 0.2926 -0.00033918 -0.001622
-0.0014839 -0.00098588 -0.00054611 -0.0011958
0.0025838 0.00086723 0.0016415 -0.0016605 -0.00034166 -0.0016333 -0.047938 0.27907
0.01893 0.018737 -0.0026725 0.00090537
0.00033685 -0.0033295 -0.0019495 -0.0027275 -0.0015511 -0.00099724 0.018943 0.018767
-0.090114 0.19919 0.014227 0.018052
-0.00017861 -0.0019166 -0.0010534 -0.0032396 -0.00057618 -0.0011414 -0.0027109 0.00094312
0.014064 0.018037 -0.13586 0.26794
1100000000 0.026702 0.30191 0.036272 -0.0030539 0.0027912 0.0042416 0.0025031 -0.00099211
-0.0022 -0.0031124 -0.0043009 -0.00011299
0.036243 -0.0030166 -0.13645 0.36869 0.01625 -0.027814 5.9678e-05 -0.0018769
-0.0036448 -0.00091898 -0.0036182 -0.00064867
0.0028045 0.0042416 0.016145 -0.027882 0.198 0.27376 -0.001867 9.4296e-06
-0.0018242 0.00048229 -0.0011527 -0.00044454
0.0025102 -0.00098075 7.2076e-05 -0.0018456 -0.0018689 3.4474e-05 -0.0080869 0.28429
0.024483 0.0059269 -0.0026597 -4.9151e-05
-0.0021973 -0.0031124 -0.003649 -0.00090012 -0.0017963 0.00046758 0.024515 0.0058699
-0.070958 0.21264 0.019491 0.008699
-0.004081 -4.6595e-06 -0.0035821 -0.00060025 -0.0011669 -0.0004059 -0.0024515 8.3631e-05
0.019312 0.0087447 -0.090768 0.29836
1160000000 0.077963 0.29828 0.024763 -0.020239 0.0027778 -0.00039443 -3.9577e-05 -0.0024
-0.0039931 -0.00082693 -0.00099889 0.0040101
0.024788 -0.020191 -0.093092 0.37344 -0.0029762 -0.029584 -0.0016649 -0.0017062
-0.0030046 0.0024083 -0.0015111 0.0019666
0.00278 -0.00042041 -0.0030802 -0.029604 0.24157 0.24403 -0.00088365 0.0017768
-0.00074055 0.0019644 -0.00095066 0.00041934
-3.0569e-05 -0.0023785 -0.0016536 -0.0016993 -0.0008665 0.0017443 0.031017 0.28206
0.021255 -0.0097523 -0.0032386 0.0051737
-0.0040224 -0.0008057 -0.0029485 0.0023652 -0.00074856 0.0019664 0.021226 -0.0097721
-0.035933 0.22066 0.018617 2.5212e-05
-0.0010318 0.0041072 -0.0015852 0.0019845 -0.00094918 0.00038467 -0.0032787 0.0050973
0.01874 -0.00015718 -0.042639 0.3013
1220000000 0.12179 0.28867 0.0114 -0.030097 -0.0016251 -0.00096818 0.00018138 -0.00095806
-0.0026994 0.0020986 0.0010666 0.0021661
0.011409 -0.030052 -0.049323 0.38699 -0.016783 -0.022178 -0.0026148 0.00042551
-8.0896e-05 0.0031894 -0.00082884 0.0019503
-0.0016192 -0.00095513 -0.016895 -0.02214 0.28086 0.20571 0.00066242 0.0018572
0.00055008 0.001197 0.00019812 0.00060672
0.00018198 -0.00092876 -0.0026323 0.0004468 0.00067009 0.0018654 0.071011 0.27402
0.011151 -0.016821 0.0019921 0.001547
-0.0027292 0.0020985 -9.1298e-05 0.0031821 0.00052006 0.0012167 0.011086 -0.016791
-0.012751 0.22942 0.014187 -0.013036
0.0011042 0.0021892 -0.00083381 0.0019699 0.00025019 0.00063839 0.0020366 0.0016165
0.014156 -0.013065 -0.011978 0.31715
1280000000 0.17231 0.26889 -0.0073524 -0.028942 -0.0020397 0.0025397 -0.00088027 -0.0021696
-0.0008434 0.0031857 0.002517 0.0014364
-0.0073265 -0.028914 -0.0031581 0.3794 -0.024249 -0.0092607 -0.0010741 0.0014907
0.0017159 0.0018193 0.00063933 0.0021199
-0.002017 0.0025613 -0.02433 -0.009162 0.3118 0.16269 0.0016498 6.299e-05
0.0012387 0.00028602 0.00045421 0.0003197
-0.00088187 -0.0021311 -0.0010544 0.0014972 0.0016613 8.1451e-05 0.10798 0.25826
0.0015901 -0.019276 -0.0001144 0.00028611
-0.00081075 0.0031837 0.0017354 0.0018271 0.0012411 0.000282 0.0015796 -0.019273
0.023567 0.23297 0.0032331 -0.015042
0.0024693 0.001413 0.00058993 0.0020366 0.00041603 0.00027074 -2.3779e-05 0.00018209
0.0032072 -0.015039 0.035398 0.31978
1340000000 0.20988 0.23615 -0.017332 -0.019507 0.00074397 0.0048199 -0.0018744 -0.00085729
0.0013572 0.0028135 0.0019617 -0.0012257
-0.017293 -0.019492 0.036614 0.37227 -0.022199 0.0039479 -0.00011821 0.0020459
0.0020319 0.00081177 0.0012161 0.00085898
0.00076646 0.0048348 -0.022197 0.0040538 0.33443 0.11556 0.0011365 -0.00094289
0.00067626 -0.00063822 4.7092e-05 0.00017018
-0.0019108 -0.00087331 -0.00011101 0.0020461 0.0011244 -0.00094731 0.14155 0.23792
-0.0080229 -0.016794 0.00087086 0.00046625
0.0013451 0.0028001 0.0020367 0.00080234 0.00068054 -0.00060439 -0.0080673 -0.016808
0.053476 0.22871 -0.0037867 -0.014175
0.0019231 -0.0012567 0.0012257 0.00083982 8.5154e-05 0.00014387 0.0007911 0.00051504
-0.0038043 -0.014137 0.073145 0.31503
1400000000 0.24406 0.19947 -0.023467 -0.0079402 0.0054285 0.0035164 -0.0022789 0.00059826
0.0024644 0.0010001 0.00034231 -0.0016027
-0.023456 -0.0079536 0.074422 0.36036 -0.015587 0.012563 0.0013721 0.0013459
0.0013168 -0.00082311 0.0012552 0.00019732
0.0054329 0.003488 -0.015549 0.012655 0.34785 0.062568 0.00013919 -0.0016908
4.4496e-05 -0.00042111 0.00039586 0.00022381
-0.0022746 0.00061887 0.0013807 0.0013322 0.00017324 -0.0016902 0.17154 0.20921
-0.01429 -0.010307 -0.00087412 -0.00012153
0.0024484 0.00095208 0.0013457 -0.00085599 6.3427e-05 -0.00040831 -0.014333 -0.010233
0.086425 0.22495 -0.010199 -0.0088489
0.00035092 -0.0015805 0.0011882 0.00015564 0.00032986 0.00023562 -0.00082836 -0.00012037
-0.010134 -0.0089735 0.11768 0.30453
1460000000 0.26795 0.15615 -0.020588 0.0044815 0.006024 -0.0017381 -0.0015434 0.0019015
0.0022021 -0.00028583 -0.00028746 -0.0010866
-0.020576 0.0044537 0.10957 0.33903 -0.0064293 0.015909 0.0017628 0.00018851
0.00094053 -0.0014456 0.0012946 -0.00054577
0.0060156 -0.0017666 -0.0063445 0.015937 0.35499 0.0087282 -0.0012485 -0.001346
0.00020421 -0.00012446 0.00071975 -0.0003684
-0.0015414 0.0018989 0.0017775 0.00017774 -0.0012655 -0.0013311 0.19858 0.17978
-0.015718 -0.0036953 -0.00080612 0.0020914
0.0022073 -0.00032978 0.00088458 -0.0014208 0.00020197 -0.00015396 -0.015719 -0.0036882
0.11629 0.21155 -0.012008 -0.0031
-0.00029784 -0.0010869 0.0013509 -0.00053814 0.00074097 -0.00028603 -0.00089075 0.0020038
-0.012061 -0.0031266 0.15129 0.28454
1520000000 0.28116 0.11461 -0.015002 0.010035 0.0036336 -0.0045217 0.00016181 0.0026479
0.0021785 -0.0018543 -0.0012461 -0.00012048
-0.015001 0.010009 0.1437 0.32473 0.0016471 0.013605 0.001659 -0.00077528
2.0454e-05 -0.0011425 0.00033879 -0.0010288
0.0036126 -0.0045436 0.0017232 0.013635 0.34864 -0.047464 -0.0011148 -0.00038637
0.00069627 -0.0008401 8.7143e-05 -6.4939e-05
0.00017563 0.0026504 0.001653 -0.00078519 -0.0011142 -0.00038874 0.22217 0.14106
-0.015302 0.0023128 0.0015718 0.0020913
0.0022205 -0.0018682 2.905e-05 -0.0011377 0.00070758 -0.00085416 -0.015351 0.0023627
0.14451 0.19845 -0.012011 0.00156
-0.001173 -0.0001125 0.00032999 -0.0010515 8.6834e-05 -3.2476e-05 0.0016409 0.0022045
-0.012009 0.0015317 0.18426 0.26413
1580000000 0.2917 0.068886 -0.0083236 0.013488 -0.00096006 -0.0052663 0.0015289 0.0019063
-7.926e-05 -0.002272 -0.00030786 0.00024076
-0.0083322 0.013469 0.17168 0.30034 0.0055574 0.0085577 0.00052854 -0.0015856
-0.00055214 -0.0010211 -0.00010959 -0.00091908
-0.00098116 -0.0052494 0.0055989 0.0085521 0.3292 -0.10498 -0.0016419 0.00060667
-0.00023153 -0.0012145 0.00018026 -0.00066046
0.0015178 0.0019134 0.00052488 -0.0015832 -0.0016488 0.0006133 0.23616 0.10148
-0.012007 0.0074307 0.0023826 0.00083514
-0.0001309 -0.0022573 -0.00058058 -0.0010306 -0.00027937 -0.0012688 -0.011936 0.0075042
0.1693 0.18141 -0.0094377 0.0073464
-0.00031285 0.00038283 -9.4883e-05 -0.00093317 0.0002282 -0.00056674 0.002295 0.0007619
-0.009524 0.0073705 0.21624 0.23841
1640000000 0.29463 0.027248 -0.001552 0.012341 -0.0030526 -0.0027836 0.0027004 0.0010618
-0.00075569 -0.001644 -0.00039715 0.00064005
-0.0015642 0.012342 0.20192 0.27538 0.006261 0.0034649 -0.00060268 -0.0017692
-0.0010591 -0.00041851 -0.00057896 -0.00073823
-0.0030724 -0.00279 0.0062821 0.0034139 0.30124 -0.1546 -0.00068349 0.0015421
-0.0011499 -0.0010718 -0.00014307 -0.00042205
0.0027002 0.0010517 -0.00060714 -0.0017735 -0.00067292 0.0015333 0.2488 0.052079
-0.0077256 0.0091978 0.0026179 -0.00074226
-0.00080066 -0.0016407 -0.0010446 -0.00041356 -0.001109 -0.0010647 -0.0077295 0.0091597
0.19313 0.15789 -0.0047466 0.0095911
-0.0004118 0.00066639 -0.00058423 -0.00071542 -0.00017779 -0.00038318 0.0025804 -0.0007142
-0.0047631 0.0095412 0.2424 0.20726
1700000000 0.28791 -0.018204 0.0019447 0.0096025 -0.0038135 3.5867e-05 0.0032305 -0.0012712
-0.0020664 -0.00073715 0.0005516 0.00050742
0.0019461 0.0095844 0.22037 0.24393 0.0041448 0.00036698 -0.0014548 -0.00062172
-0.00081628 2.2696e-05 -0.00093401 -0.00051698
-0.0038149 6.6298e-05 0.0041568 0.00034922 0.25792 -0.19425 0.0004673 0.0016986
-0.0020386 -1.6003e-05 -0.00044217 -0.00085304
0.0032304 -0.0012972 -0.0014529 -0.00061364 0.00046665 0.0016974 0.24516 0.0017266
-0.0047178 0.0098782 0.0015521 -0.0021753
-0.0020656 -0.00078697 -0.00080702 2.7958e-05 -0.0020539 -3.2093e-05 -0.0046996 0.0099099
0.21106 0.13784 -0.00019305 0.0097047
0.00048366 0.00052182 -0.00095239 -0.00051275 -0.00050303 -0.00086598 0.0016638 -0.0021989
-0.00012279 0.00966 0.25864 0.17363
1760000000 0.27651 -0.066994 0.0044271 0.0062912 -0.0023717 0.00101 0.001358 -0.0034062
-0.0014002 0.00068791 0.0002328 -0.00053896
0.0044275 0.0062815 0.24703 0.20414 0.0017636 -0.0016337 -0.0012432 0.00014049
-0.0010634 0.00091618 -0.00070995 0.00031366
-0.002372 0.0010381 0.0017572 -0.0016338 0.21018 -0.22757 0.0010825 0.0010334
-0.0013359 0.001463 -0.0012388 -0.000614
0.0013606 -0.0033975 -0.0012368 0.00013191 0.0010728 0.0010115 0.23593 -0.04981
-0.0012185 0.009138 -0.00014056 -0.0025754
-0.0014092 0.00068557 -0.0010636 0.00094067 -0.0013034 0.0014427 -0.0011398 0.0091013
0.22667 0.1038 0.0039842 0.0073133
0.00026252 -0.00055651 -0.00067762 0.00032393 -0.0012527 -0.00067029 -0.00021205 -0.0025521
0.0039283 0.0073685 0.27202 0.13604
1820000000 0.25214 -0.10473 0.0046179 0.0026408 -0.00011031 0.0025341 -0.0010257 -0.0032255
-0.0012254 0.00092593 -7.2993e-06 -0.0001063
0.0046132 0.0026411 0.25737 0.17371 -0.00069714 -0.00034205 -0.0013984 0.00090493
-9.2213e-05 0.0012349 -0.00064477 0.00054577
-9.866e-05 0.0025395 -0.00069255 -0.00031784 0.1589 -0.24357 0.0015478 0.00047099
-0.00029812 0.0024656 -0.0015475 0.00047069
-0.0010718 -0.0032113 -0.0013981 0.00091443 0.001566 0.00049574 0.20536 -0.097428
0.00070883 0.0076034 -0.0017055 -0.0017306
-0.0012449 0.00093897 -8.4133e-05 0.0012334 -0.00026456 0.0024881 0.00065622 0.0076019
0.24474 0.07486 0.0049694 0.0036886
3.5012e-05 -0.00013413 -0.00066159 0.00061725 -0.0015965 0.00048485 -0.0016455 -0.0016281
0.0050418 0.0037471 0.2746 0.099794
1880000000 0.21704 -0.14522 0.0022964 0.00019481 -0.00067192 0.0022458 -0.0029426 -0.0023495
-0.00018847 0.0018566 7.1781e-05 -0.00062741
0.0022839 0.00018 0.26188 0.12713 -0.002797 0.0015794 -0.0002301 0.0017786
0.0005702 0.0013616 9.5668e-05 0.0010533
-0.00065777 0.0022505 -0.0027846 0.0016109 0.10688 -0.25258 0.001842 -0.00093342
0.0015345 0.0020901 -0.00096694 0.001548
-0.0029654 -0.0023583 -0.00021392 0.0017892 0.0018142 -0.00092496 0.16457 -0.13729
0.0016952 0.0053305 -0.0022665 0.00030149
-0.00019888 0.0018417 0.00056985 0.0013846 0.0015955 0.0020868 0.0018513 0.0053199
0.24912 0.043679 0.0053033 0.001605
0.0001021 -0.0005512 7.0462e-05 0.001077 -0.0010105 0.0015098 -0.0023263 0.00013371
0.0052614 0.0015382 0.275 0.066128
1940000000 0.17761 -0.17131 -0.00019914 -0.0015229 0.0013525 0.0020301 -0.0038675 0.00037154
0.0013389 0.0011737 -0.00067073 -0.00054303
-0.00018998 -0.0015277 0.26276 0.095011 -0.0014489 0.004036 0.00099988 0.0013909
0.0018242 0.0005878 0.00093668 0.00040068
0.001362 0.0020214 -0.0014222 0.0040424 0.061969 -0.24564 0.00040935 -0.0022294
0.0023097 0.0003955 0.00047838 0.0016756
-0.003851 0.00039622 0.0010327 0.0014174 0.00040459 -0.0022219 0.11199 -0.16733
0.00088235 0.0039671 -0.0017539 0.0014989
0.0013619 0.0011533 0.0018418 0.00058362 0.0023399 0.00037121 0.00078687 0.0039454
0.25282 0.0051089 0.0039478 -0.0021149
-0.00066657 -0.00054247 0.00093605 0.00036977 0.00048151 0.0016567 -0.0016407 0.0014649
0.0040372 -0.0021521 0.26502 0.029855
2000000000 0.1315 -0.18562 -0.0040452 0.00084136 0.0026142 0.0017348 -0.0024103 0.0037831
0.0012659 0.00035158 -0.00048234 0.00044984
-0.0040603 0.0008575 0.24827 0.059523 -0.0010584 0.0061022 0.0017041 0.00042213
0.0014751 -0.001147 0.00057295 0.00011214
0.0026202 0.0017691 -0.0010402 0.006127 0.018553 -0.23155 -0.00118 -0.0015787
0.0021408 -0.0011548 0.0015586 0.0015041
-0.0023548 0.003766 0.001678 0.00042869 -0.0011902 -0.0015475 0.058355 -0.17716
-0.00054381 0.0034961 -9.681e-05 0.0023218
0.0012909 0.0003422 0.0014519 -0.0011357 0.0021684 -0.0010932 -0.00043491 0.003567
0.24827 -0.028206 0.00068563 -0.0030527
