!Keysight Technologies,M9804A,MY58100912,A.14.10.03
!Date: Thursday, April 27, 2023 10:28:33
!Correction: S11(C  6-Port  ) 
!S12(C  6-Port  ) 
!S13(C  6-Port  ) 
!S14(C  6-Port  ) 
!S15(C  6-Port  ) 
!S16(C  6-Port  ) 
!S21(C  6-Port  ) 
!S22(C  6-Port  ) 
!S23(C  6-Port  ) 
!S24(C  6-Port  ) 
!S25(C  6-Port  ) 
!S26(C  6-Port  ) 
!S31(C  6-Port  ) 
!S32(C  6-Port  ) 
!S33(C  6-Port  ) 
!S34(C  6-Port  ) 
!S35(C  6-Port  ) 
!S36(C  6-Port  ) 
!S41(C  6-Port  ) 
!S42(C  6-Port  ) 
!S43(C  6-Port  ) 
!S44(C  6-Port  ) 
!S45(C  6-Port  ) 
!S46(C  6-Port  ) 
!S51(C  6-Port  ) 
!S52(C  6-Port  ) 
!S53(C  6-Port  ) 
!S54(C  6-Port  ) 
!S55(C  6-Port  ) 
!S56(C  6-Port  ) 
!S61(C  6-Port  ) 
!S62(C  6-Port  ) 
!S63(C  6-Port  ) 
!S64(C  6-Port  ) 
!S65(C  6-Port  ) 
!S66(C  6-Port  ) 
!S6P File: Measurement: :
# Hz S  RI   R 50
500000000 -0.33395 -0.058902 -0.010292 -0.0013437 -0.007766 0.013153 -0.0051053 0.012501
0.013539 0.0050623 -0.005057 0.0076363
-0.010292 -0.001335 -0.41621 -0.067065 0.00866 -0.010421 0.00079586 0.012095
0.0079403 0.0022466 0.0008312 0.012806
-0.007749 0.013146 0.0086476 -0.01047 -0.26765 0.19678 0.0065791 0.0030398
-0.0020077 0.0091827 0.00050071 0.011175
-0.0050555 0.012511 0.00078975 0.012105 0.00659 0.0030413 -0.33149 0.042185
-0.020507 -0.0050877 0.016654 0.025522
0.013515 0.0050508 0.0079208 0.0022699 -0.002016 0.0091954 -0.020535 -0.0050571
-0.24252 -0.20343 -0.028826 0.0049147
-0.0051251 0.00793 0.0003577 0.013072 0.00022745 0.011148 0.016879 0.025546
-0.028629 0.004616 -0.26733 -0.13039
560000000 -0.31989 0.10888 -0.022646 -0.065872 -0.00027264 0.013128 0.0053956 0.01147
0.0094991 0.0041064 0.0099065 0.0094596
-0.022556 -0.065808 -0.37493 0.097776 -0.041968 -0.038594 0.014351 0.0040906
-0.013345 -0.0038907 0.0047964 -0.00099947
-0.00028033 0.013132 -0.042125 -0.038527 -0.18598 0.24957 -0.00086485 -0.0042155
0.019131 0.0051683 0.0070522 -0.0046103
0.0054407 0.011482 0.01438 0.0040121 -0.00085076 -0.0042066 -0.30675 0.13386
0.0048364 -0.023052 0.0057471 -0.021231
0.0095366 0.0041377 -0.013406 -0.0037648 0.019066 0.0051163 0.0048471 -0.023067
-0.3076 -0.0259 0.0078426 -0.049297
0.01024 0.0094827 0.0043804 -0.0012337 0.0074199 -0.0051301 0.0059978 -0.021243
0.0083184 -0.048923 -0.33131 0.020876
620000000 -0.27975 0.09015 -0.023621 0.0089243 0.0037572 0.0094332 0.0090444 -0.0037432
0.010015 -0.0019967 0.00065653 -0.0007557
-0.023621 0.0089281 -0.4037 0.045496 -0.018431 0.00085618 -0.0016212 -0.0020997
0.012392 -0.0060387 0.00121 -0.0031794
0.0037898 0.009411 -0.018448 0.00091169 -0.15627 0.25856 -0.00056823 -0.0048001
-0.0035248 -0.0033505 0.0096121 -0.0020909
0.0090515 -0.0037592 -0.0016438 -0.0021414 -0.00057932 -0.004806 -0.26594 0.1449
-0.038082 -0.019626 0.012342 0.026657
0.0099905 -0.0019527 0.01234 -0.0059464 -0.0034821 -0.0032867 -0.038124 -0.019689
-0.22973 -0.05748 -0.041178 0.012696
0.00073326 -0.00078626 0.0012178 -0.0035292 0.0096731 -0.0023175 0.012103 0.027271
-0.040844 0.011753 -0.24964 -0.016925
680000000 -0.24157 0.18143 -0.026196 -0.014737 0.0052178 0.0052837 0.0015311 -0.0072473
-0.0014082 -0.011092 0.0052805 -0.0075681
-0.026184 -0.014707 -0.3908 0.14764 -0.032103 -0.0020926 -0.0018352 -0.00033365
-0.0011593 -0.0088422 -0.0010408 -0.0020819
0.0052266 0.0052729 -0.032145 -0.0020168 -0.10449 0.28001 -0.0011074 -0.00024735
-0.0010836 0.00014811 -0.0026909 -0.0094334
0.0015226 -0.0072697 -0.0018479 -0.0003592 -0.0011174 -0.00023839 -0.22063 0.19714
-0.023522 -0.0080229 -0.0092099 -0.012015
-0.001463 -0.011111 -0.0011886 -0.0088881 -0.0010844 0.00012959 -0.023537 -0.0080494
-0.28046 0.047482 -0.0065857 -0.0077656
0.0052307 -0.0076243 -0.00085063 -0.0021383 -0.0026857 -0.0094293 -0.0092677 -0.011505
-0.0066239 -0.0081383 -0.26127 0.090526
740000000 -0.19419 0.1746 -0.040062 0.02664 0.014172 -0.0050784 4.4198e-05 -0.0042644
-0.0046369 -0.0035401 -0.0060397 0.0025317
-0.040051 0.026628 -0.33582 0.16614 -0.037064 0.03442 -2.0961e-05 -0.0063435
-0.012086 0.0074961 -0.0011654 -0.0063243
0.014166 -0.0051317 -0.037025 0.034544 -0.069984 0.27649 -0.0015762 0.0030899
-0.0032824 -0.0058344 -0.0010735 0.00058667
3.9054e-05 -0.0042704 -3.0363e-05 -0.006332 -0.0015882 0.003121 -0.20347 0.20339
-0.042413 -0.0076056 0.023403 0.015407
-0.0046142 -0.0034702 -0.012082 0.0075003 -0.0032909 -0.0058943 -0.042468 -0.0075259
-0.18236 0.073304 -0.042886 0.0018368
-0.0059322 0.0023609 -0.0013173 -0.0063665 -0.0010358 0.00072524 0.023314 0.015394
-0.042845 0.0017425 -0.24859 0.094692
800000000 -0.16344 0.21886 -0.022312 0.016015 0.0058374 -0.010823 -0.0042579 -0.002295
-0.0045969 0.0017953 0.004261 9.2411e-05
-0.022291 0.015995 -0.34216 0.23685 -0.0085422 0.033822 -0.0022346 0.0021265
-0.001201 0.0022616 0.00072951 0.0054661
0.0058185 -0.010851 -0.0084551 0.033881 -0.031862 0.3008 0.00099967 0.0015016
-9.5417e-06 0.0033507 -0.0016928 0.00087006
-0.0042792 -0.0023069 -0.0022392 0.0021186 0.00098744 0.0014985 -0.1741 0.23152
-0.02823 0.013161 0.014229 -0.0097536
-0.0045827 0.0017922 -0.0012185 0.0023064 -8.9947e-06 0.0033623 -0.02826 0.013189
-0.2246 0.10277 -0.0173 0.019886
0.0044048 0.00021061 0.00080277 0.0053949 -0.0016802 0.00084377 0.014373 -0.0098644
-0.017459 0.019994 -0.24317 0.14553
860000000 -0.1286 0.23958 -0.018013 0.030184 -0.0028931 -0.010485 -0.001928 0.0005733
0.0039045 0.0051865 -0.0038458 -0.00326
-0.018021 0.03017 -0.29391 0.28057 0.0070083 0.034393 0.00027689 0.002173
0.0033512 0.0013747 0.0027962 0.00057102
-0.0029334 -0.010475 0.0071282 0.034412 0.01559 0.30922 -0.00056846 -5.125e-05
0.0022352 -0.0011614 0.0013021 0.0040595
-0.0019108 0.00057688 0.0002969 0.0021741 -0.00056177 -5.4762e-05 -0.13733 0.24183
-0.017732 0.018024 -0.0056508 -0.0093709
0.0039592 0.0052103 0.0033564 0.0013503 0.0022293 -0.0011697 -0.017713 0.018069
-0.16737 0.15789 -0.025471 0.016502
-0.0038379 -0.0030587 0.0028047 0.00052519 0.001376 0.0040356 -0.0056084 -0.0093453
-0.025468 0.016469 -0.19168 0.19023
920000000 -0.10561 0.26262 0.0045234 0.038408 -0.0091397 -0.0049564 -0.0018883 0.0017828
0.0012608 0.0024083 0.0032152 -0.0011248
0.0044895 0.03839 -0.26682 0.30133 0.028011 0.023045 0.0014021 0.0013739
0.0080605 0.00025538 0.0044059 -0.0026345
-0.0091617 -0.0049429 0.028115 0.022983 0.060632 0.31068 0.0019585 0.00015652
0.0012105 -0.00011065 0.0010886 -0.0013038
-0.0018941 0.0017763 0.0014076 0.0013764 0.0019523 0.00014907 -0.11325 0.25852
-0.011199 0.030239 0.0036771 -0.0067227
0.0013188 0.0024455 0.0080349 0.00022755 0.0012455 -0.00013107 -0.011134 0.030288
-0.15464 0.16138 -0.0013742 0.025631
0.0032948 -0.0011691 0.0044227 -0.0026815 0.0010941 -0.0012919 0.0036541 -0.0067545
-0.0014318 0.025679 -0.20029 0.20359
980000000 -0.059045 0.28307 0.016669 0.030023 -0.0094718 0.0040872 0.0017926 0.0036216
0.0040648 -0.0016048 -0.0030288 -0.002596
0.016597 0.030003 -0.21415 0.3366 0.033242 0.0056968 0.0021001 -0.00017574
0.0017923 -0.0061579 -0.00024816 -0.0023934
-0.0094653 0.0041003 0.033305 0.0055998 0.10625 0.30547 0.00073635 -0.0011926
0.00040556 -0.0019856 0.0014581 -0.00016284
0.0018066 0.0036002 0.0021036 -0.00015555 0.00073457 -0.0011897 -0.074844 0.26936
0.0070264 0.029671 -0.0091689 -0.0072356
0.0040958 -0.0016105 0.0017662 -0.0061684 0.00040931 -0.0019842 0.0070893 0.029691
-0.12422 0.19225 0.0059502 0.019602
-0.0030578 -0.0025364 -0.00038146 -0.0023959 0.0014247 -0.00013233 -0.0091916 -0.007239
0.0058937 0.019548 -0.15773 0.24796
1040000000 -0.017822 0.29204 0.032767 0.019302 -0.0017199 0.0070011 0.0026043 0.00084353
0.00033253 -0.0033112 -0.00019649 -0.001949
0.032683 0.019322 -0.17913 0.34994 0.030121 -0.014252 0.0016687 -0.0017467
-0.0018807 -0.0027453 -0.00099699 -0.0032701
-0.0017049 0.0069942 0.030116 -0.014364 0.15211 0.29262 -0.0003661 -0.0016145
-0.0015713 -0.0010499 -0.00063873 -0.0011184
0.0026066 0.00082945 0.0016776 -0.0017372 -0.00037063 -0.0016112 -0.047996 0.27906
0.018807 0.018939 -0.0026638 0.00083005
0.00035015 -0.0033349 -0.0019309 -0.0027599 -0.0015722 -0.0010508 0.018847 0.018912
-0.09042 0.1991 0.014094 0.018374
-0.00021034 -0.0018607 -0.00099121 -0.0033229 -0.00066257 -0.0011361 -0.0027122 0.00090187
0.013956 0.018381 -0.13568 0.26772
1100000000 0.026762 0.30185 0.036367 -0.0031113 0.0027828 0.004218 0.0025539 -0.00095292
-0.002227 -0.0030205 -0.0039801 -5.5173e-06
0.036317 -0.0030691 -0.1364 0.3686 0.016253 -0.02779 3.9783e-05 -0.0018168
-0.0037093 -0.00093978 -0.0036005 -0.00057603
0.0027885 0.0041959 0.016174 -0.027875 0.19797 0.27376 -0.0018758 1.8521e-06
-0.0017697 0.00049043 -0.0011348 -0.00042394
0.0025418 -0.00096696 4.0954e-05 -0.001812 -0.0018788 -8.5656e-06 -0.0080075 0.28437
0.024434 0.0059255 -0.0024335 0.00023928
-0.0022301 -0.0030124 -0.0037321 -0.0009187 -0.0017679 0.00050107 0.024425 0.0058836
-0.070872 0.21259 0.019174 0.0088066
-0.0039547 -5.1385e-05 -0.0035579 -0.00056346 -0.0010926 -0.00046545 -0.0024658 0.00023186
0.019177 0.0087821 -0.090268 0.29876
1160000000 0.077931 0.29824 0.024774 -0.020227 0.0027718 -0.0004179 -4.6547e-05 -0.0023595
-0.0040314 -0.0008999 -0.0012057 0.0042668
0.024752 -0.020165 -0.093131 0.37344 -0.0029773 -0.029569 -0.0016808 -0.0017499
-0.0029708 0.0024195 -0.0015515 0.0019279
0.0027687 -0.0004351 -0.0030996 -0.029577 0.24155 0.24404 -0.00086737 0.0017355
-0.00072345 0.0020043 -0.00088804 0.00034256
-3.2631e-05 -0.0023702 -0.0016785 -0.0017341 -0.00086462 0.0017389 0.030981 0.28207
0.021374 -0.0097168 -0.003254 0.0050027
-0.0040352 -0.00089018 -0.0029632 0.0024105 -0.00072543 0.0020052 0.021373 -0.0097266
-0.035692 0.22078 0.01883 -0.00029264
-0.001216 0.0042702 -0.0015819 0.0019813 -0.00089765 0.00034336 -0.0032905 0.0049734
0.018726 -0.00026592 -0.043174 0.3009
1220000000 0.12173 0.2887 0.011397 -0.030095 -0.0016088 -0.00093768 0.00017192 -0.00094544
-0.002725 0.0020977 0.0010368 0.0021827
0.011405 -0.030056 -0.049347 0.38695 -0.016784 -0.022176 -0.0026552 0.00045594
-0.00012679 0.0032321 -0.00085769 0.0020384
-0.0016114 -0.00093658 -0.016896 -0.022123 0.28083 0.2057 0.00067608 0.0018819
0.00051031 0.0012474 0.00035462 0.00070142
0.00017173 -0.00093352 -0.0026637 0.00046959 0.00067214 0.0018823 0.071052 0.27399
0.011179 -0.016719 0.0020938 0.001582
-0.0027091 0.0021248 -8.8318e-05 0.0032289 0.00050857 0.0012533 0.011142 -0.016729
-0.012763 0.2295 0.014182 -0.012875
0.0010593 0.0021566 -0.00082971 0.0020281 0.00034548 0.00065385 0.0021163 0.0016181
0.014158 -0.012854 -0.012089 0.31704
1280000000 0.17226 0.26889 -0.0073508 -0.02892 -0.0019895 0.002536 -0.00085039 -0.0021708
-0.00084007 0.0031709 0.0024396 0.0013928
-0.0073261 -0.028892 -0.0031862 0.37938 -0.024233 -0.0092665 -0.0010391 0.0014887
0.0017542 0.0018471 0.00058479 0.0020029
-0.001984 0.002546 -0.024311 -0.0091645 0.31176 0.16276 0.0016503 0.0001005
0.0012754 0.00033516 0.00039021 0.00023258
-0.00085633 -0.0021665 -0.0010406 0.0014991 0.0016559 9.8962e-05 0.10798 0.25833
0.0015554 -0.019212 0.00011124 0.00022731
-0.0008187 0.0031825 0.0017673 0.0018462 0.0012548 0.00033379 0.0015272 -0.019211
0.023618 0.23303 0.0032472 -0.015097
0.0024483 0.001399 0.00055242 0.0019816 0.00038608 0.00022644 0.00014536 0.00024578
0.0032495 -0.015041 0.035612 0.31974
1340000000 0.20982 0.23617 -0.017323 -0.01949 0.00074613 0.0048436 -0.0019221 -0.00087412
0.0013345 0.0027913 0.0018587 -0.0012607
-0.017291 -0.019486 0.036613 0.37225 -0.022199 0.0039324 -0.00014087 0.0020863
0.0019897 0.00081208 0.0011656 0.00084506
0.00076906 0.0048432 -0.022199 0.004038 0.33443 0.11557 0.001133 -0.00096629
0.00062671 -0.00057513 0.0001005 0.00020704
-0.0019186 -0.00086005 -0.00013836 0.0020841 0.0011387 -0.0009709 0.14156 0.23791
-0.0080112 -0.016866 0.00079208 0.00043827
0.0013461 0.0027965 0.0019899 0.0007942 0.00062738 -0.00058462 -0.0080358 -0.016845
0.053593 0.22875 -0.0038999 -0.014106
0.0019062 -0.0013068 0.0011779 0.00083484 0.00013605 0.00020848 0.00076963 0.00043223
-0.003908 -0.014151 0.072973 0.31499
1400000000 0.24408 0.19955 -0.023488 -0.0079449 0.0054287 0.0034871 -0.0022562 0.00062421
0.002454 0.0010312 0.00041475 -0.0016092
-0.023448 -0.0079514 0.074382 0.36034 -0.015595 0.012562 0.0013816 0.0013419
0.0013452 -0.00080708 0.0012167 0.00011874
0.0054468 0.0034696 -0.01555 0.01265 0.34783 0.06257 0.00018561 -0.0017099
0.00013948 -0.00037699 0.00034522 0.00015258
-0.0022617 0.00061584 0.0013877 0.0013366 0.00018521 -0.0017041 0.17153 0.2092
-0.014319 -0.010283 -0.00078536 -1.6073e-05
0.0024653 0.0010265 0.0013407 -0.00082083 0.00014018 -0.0003724 -0.014349 -0.010247
0.086301 0.22483 -0.010221 -0.0089688
0.00039045 -0.0016367 0.0012185 0.00011178 0.00033714 0.00016985 -0.00080348 -4.7682e-05
-0.010244 -0.0089716 0.11753 0.30471
1460000000 0.2679 0.1562 -0.020577 0.0044591 0.0060241 -0.0017368 -0.0015764 0.0018775
0.0022153 -0.00035952 -0.0003578 -0.001054
-0.020555 0.0044433 0.10956 0.33904 -0.0064373 0.015899 0.001752 0.00019401
0.00089346 -0.0014307 0.0012819 -0.00053831
0.0060204 -0.0017677 -0.0063601 0.015953 0.355 0.0087489 -0.0012415 -0.0012921
0.00021465 -0.00024125 0.00059978 -0.00022709
-0.0015713 0.0018835 0.0017477 0.00019185 -0.0012428 -0.0012908 0.19864 0.17983
-0.015632 -0.0037032 -0.0008953 0.0019544
0.0022165 -0.00036251 0.00088861 -0.0014355 0.00022401 -0.00024661 -0.015645 -0.0036697
0.11631 0.21161 -0.011913 -0.003033
-0.00035842 -0.0010712 0.0013023 -0.00055942 0.00062809 -0.0002373 -0.00088394 0.0019611
-0.011916 -0.0031061 0.15096 0.28436
1520000000 0.28113 0.1147 -0.015 0.010049 0.0036583 -0.0045037 0.00016522 0.0026603
0.0022562 -0.0018332 -0.0012154 -0.00019566
-0.014997 0.010029 0.14368 0.32475 0.0016456 0.013628 0.0016545 -0.00078114
3.9804e-05 -0.0011166 0.00033457 -0.0010669
0.0036347 -0.0045211 0.0017281 0.013633 0.3486 -0.047438 -0.0011191 -0.00043606
0.00077369 -0.00080162 0.0001337 -0.00014605
0.00016582 0.002652 0.0016526 -0.00078582 -0.0011206 -0.00044037 0.22216 0.14105
-0.015357 0.0022767 0.0016035 0.0022457
0.0022526 -0.0018577 3.2495e-05 -0.0011194 0.00076618 -0.00080012 -0.015363 0.0023085
0.14455 0.19838 -0.01206 0.0014663
-0.0012236 -0.00018215 0.00031922 -0.0010795 0.00010913 -0.00013779 0.0016143 0.0022477
-0.012097 0.0014877 0.18415 0.26438
1580000000 0.2917 0.068957 -0.0083374 0.013486 -0.00098645 -0.0052493 0.0015272 0.0018955
-0.0001099 -0.0022486 -0.00027927 0.00038237
-0.008339 0.013483 0.17165 0.30035 0.0055607 0.008579 0.00051599 -0.0016082
-0.0005393 -0.0010623 -0.0001577 -0.00094622
-0.0010107 -0.0052561 0.0056042 0.0085564 0.32914 -0.10487 -0.0016673 0.00061799
-0.00027864 -0.00132 0.0001563 -0.00054692
0.0015411 0.0018887 0.00050597 -0.0016031 -0.0016708 0.00061941 0.23615 0.10155
-0.011971 0.0074779 0.0023512 0.00072364
-0.00011501 -0.0022473 -0.00055278 -0.0010578 -0.00026578 -0.0013096 -0.011966 0.0075221
0.16934 0.18142 -0.0094576 0.0073969
-0.00025895 0.00037982 -0.00015963 -0.00094601 0.0001725 -0.00054246 0.0023454 0.00069103
-0.0094451 0.0074003 0.21638 0.2382
1640000000 0.29463 0.027295 -0.0015582 0.01236 -0.0030355 -0.0027883 0.0027056 0.0010638
-0.00079193 -0.0016839 -0.00045066 0.00069904
-0.0015665 0.012353 0.2019 0.2754 0.0062485 0.0034612 -0.00059531 -0.0017708
-0.0010235 -0.0004283 -0.00057613 -0.00071002
-0.0030512 -0.0027761 0.0062724 0.0034261 0.30128 -0.15464 -0.0006557 0.0015317
-0.0011119 -0.0010642 -0.00018494 -0.00031862
0.0027271 0.0010494 -0.00060932 -0.0017711 -0.00065524 0.0015304 0.24875 0.052037
-0.0077318 0.0091108 0.0025579 -0.00073634
-0.00079891 -0.0016891 -0.0010203 -0.00041309 -0.0010959 -0.0010606 -0.0077218 0.0091295
0.19328 0.15779 -0.0047972 0.0094675
-0.00041159 0.00069965 -0.00058189 -0.00069845 -0.00022027 -0.00034829 0.002565 -0.00072505
-0.0048208 0.0094496 0.24212 0.20744
1700000000 0.28793 -0.018235 0.0019631 0.0096031 -0.0038471 6.6359e-05 0.0032531 -0.0012582
-0.0019976 -0.00076046 0.00048643 0.00048613
0.001961 0.0095983 0.22034 0.24394 0.0041477 0.0003883 -0.0014624 -0.00061848
-0.00078768 1.6049e-05 -0.00097659 -0.00055781
-0.0038481 8.7035e-05 0.004155 0.00035851 0.25795 -0.19417 0.00046182 0.0016558
-0.0019767 -0.00016731 -0.0005605 -0.00096313
0.0032487 -0.0012739 -0.0014696 -0.00061402 0.00046304 0.0016477 0.24513 0.0017576
-0.0047696 0.0099127 0.0017189 -0.0021038
-0.0020039 -0.00074319 -0.00078518 1.7825e-05 -0.0019582 -0.00015125 -0.0047494 0.0099319
0.21091 0.13788 -0.00013406 0.0099012
0.00048042 0.00050089 -0.00099937 -0.00053715 -0.00059206 -0.00089695 0.0017435 -0.0021391
-9.4821e-05 0.0099256 0.25896 0.17359
1760000000 0.2765 -0.066959 0.0044582 0.0062815 -0.0023642 0.0010138 0.0013155 -0.0034505
-0.0014436 0.00061837 0.00036783 -0.00061316
0.0044565 0.0062744 0.24703 0.20415 0.0017611 -0.0016313 -0.0012194 0.00010155
-0.0010657 0.00093593 -0.00061495 0.00032838
-0.002354 0.001027 0.0017474 -0.001645 0.21015 -0.22753 0.001132 0.0010869
-0.0013354 0.0015813 -0.0011775 -0.0007329
0.0012858 -0.0034618 -0.0012224 0.00010067 0.0011242 0.0010895 0.23595 -0.049898
-0.0010836 0.0091099 -0.00014922 -0.002734
-0.0014376 0.0006192 -0.0010616 0.00094595 -0.0013454 0.0015922 -0.0010668 0.0091003
0.22687 0.10385 0.0040198 0.0072542
0.00036173 -0.00059775 -0.00061674 0.00033977 -0.0011794 -0.0007179 -0.00019293 -0.0027363
0.0040384 0.0071984 0.27203 0.13596
1820000000 0.2522 -0.10477 0.0046116 0.0026487 -0.00010264 0.0025459 -0.00098924 -0.0031641
-0.0012728 0.00099281 -1.0608e-05 -0.00010544
0.0045983 0.002644 0.25735 0.17371 -0.00070206 -0.00032116 -0.0014095 0.00092054
-9.4208e-05 0.0012569 -0.00064402 0.00059116
-9.0001e-05 0.0025442 -0.00070406 -0.00031657 0.15887 -0.24355 0.0015444 0.0004485
-0.00027424 0.0024597 -0.0015677 0.00047114
-0.0010047 -0.0031727 -0.0013985 0.00092858 0.0015386 0.00045382 0.20532 -0.097386
0.00056659 0.0075832 -0.0017187 -0.0015164
-0.0012663 0.0010053 -8.5326e-05 0.0012482 -0.00028773 0.0024613 0.00057914 0.0075781
0.24459 0.074787 0.0048555 0.0039287
-4.1145e-06 -0.00011526 -0.00065664 0.00060548 -0.0015866 0.0005114 -0.0016715 -0.0015061
0.0048869 0.0039219 0.27472 0.10017
1880000000 0.21701 -0.14525 0.0022655 0.00020999 -0.00065156 0.0023021 -0.0029467 -0.0023207
-0.00015335 0.0018804 0.00018859 -0.00070084
0.0022624 0.00021372 0.26179 0.12716 -0.0028236 0.0015679 -0.00023755 0.0017788
0.00054683 0.0013542 7.6864e-05 0.0010757
-0.00062698 0.0023006 -0.002815 0.0015866 0.10684 -0.25256 0.0017921 -0.000891
0.0015141 0.0020184 -0.0010642 0.0015167
-0.0029555 -0.0022985 -0.00022366 0.0017751 0.0017924 -0.0009001 0.16457 -0.13716
0.0017857 0.0054582 -0.0022683 0.00012444
-0.00014654 0.0018851 0.0005536 0.0013512 0.0015084 0.002007 0.0018057 0.0054568
0.24913 0.043854 0.0053699 0.0015068
0.00016008 -0.00065689 7.6592e-05 0.0010833 -0.0010323 0.0015069 -0.0022759 8.3903e-05
0.0054093 0.0014754 0.2751 0.066064
1940000000 0.17774 -0.1713 -0.00013566 -0.0015083 0.0013963 0.0020673 -0.0039034 0.00039567
0.0012769 0.0011558 -0.00068339 -0.00048985
-0.00014166 -0.0015074 0.26278 0.095033 -0.0013947 0.0040774 0.00095154 0.0014099
0.0018319 0.00058046 0.00095281 0.00039853
0.0014205 0.0020611 -0.0013705 0.0040968 0.062093 -0.24563 0.00049223 -0.002168
0.0023923 0.000479 0.00041927 0.001612
-0.0038874 0.00040752 0.00096253 0.0014116 0.00048771 -0.0021553 0.112 -0.1674
0.00086201 0.0038443 -0.0017966 0.0013709
0.0012933 0.0011445 0.0018285 0.00055142 0.0023966 0.00046929 0.00086306 0.0038367
0.25297 0.0050953 0.0040092 -0.0022047
-0.00067102 -0.00046402 0.00094949 0.00039501 0.00040162 0.0016405 -0.0017769 0.0014567
0.0039932 -0.0021884 0.26486 0.029924
2000000000 0.13155 -0.18568 -0.0040383 0.0008792 0.0026426 0.0017644 -0.0023553 0.0036964
0.0013352 0.00035445 -0.00040338 0.00052107
-0.0040431 0.00087699 0.2482 0.059575 -0.0010632 0.0060957 0.0017394 0.00046731
0.001417 -0.0010792 0.00069672 0.00021586
0.0026521 0.0017586 -0.0010239 0.0061195 0.018578 -0.2314 -0.0012569 -0.0014532
0.0021196 -0.0011004 0.0016686 0.0014587
-0.0023301 0.0037114 0.0017442 0.00044702 -0.0012604 -0.0014672 0.058385 -0.17705
-0.00054249 0.0036342 0.00014759 0.0023292
0.0013501 0.00034699 0.0013993 -0.0010971 0.0021069 -0.0011092 -0.00051063 0.0036435
0.24806 -0.028156 0.00068032 -0.0028377
