!Keysight Technologies,M9804A,MY58100912,A.14.10.03
!Date: Thursday, April 27, 2023 10:28:33
!Correction: S11(C  6-Port  ) 
!S12(C  6-Port  ) 
!S13(C  6-Port  ) 
!S14(C  6-Port  ) 
!S15(C  6-Port  ) 
!S16(C  6-Port  ) 
!S21(C  6-Port  ) 
!S22(C  6-Port  ) 
!S23(C  6-Port  ) 
!S24(C  6-Port  ) 
!S25(C  6-Port  ) 
!S26(C  6-Port  ) 
!S31(C  6-Port  ) 
!S32(C  6-Port  ) 
!S33(C  6-Port  ) 
!S34(C  6-Port  ) 
!S35(C  6-Port  ) 
!S36(C  6-Port  ) 
!S41(C  6-Port  ) 
!S42(C  6-Port  ) 
!S43(C  6-Port  ) 
!S44(C  6-Port  ) 
!S45(C  6-Port  ) 
!S46(C  6-Port  ) 
!S51(C  6-Port  ) 
!S52(C  6-Port  ) 
!S53(C  6-Port  ) 
!S54(C  6-Port  ) 
!S55(C  6-Port  ) 
!S56(C  6-Port  ) 
!S61(C  6-Port  ) 
!S62(C  6-Port  ) 
!S63(C  6-Port  ) 
!S64(C  6-Port  ) 
!S65(C  6-Port  ) 
!S66(C  6-Port  ) 
!S6P File: Measurement: :
# Hz S  RI   R 50
500000000 -0.33263 -0.058421 -0.0099935 -0.001199 -0.0087462 0.013431 -0.0048748 0.012621
0.014212 0.0048429 -0.0057954 0.0090466
-0.010655 -0.0013613 -0.41632 -0.06721 0.0074582 -0.010506 0.001098 0.011953
0.0078667 0.0030208 0.0010068 0.01254
-0.0089645 0.013456 0.0072752 -0.010469 -0.26851 0.19675 0.0064847 0.0030625
-0.0021023 0.0096169 -0.00014462 0.010902
-0.0045897 0.013009 0.0011584 0.01226 0.0066951 0.0032976 -0.33272 0.042259
-0.019665 -0.006231 0.013733 0.026202
0.01341 0.0050691 0.00776 0.0028301 -0.002405 0.0093571 -0.01903 -0.0057797
-0.24208 -0.20197 -0.02725 0.0015436
-0.0048496 0.0094812 0.00088171 0.014195 -0.00010724 0.011343 0.014411 0.026968
-0.027328 0.0018464 -0.27318 -0.1309
560000000 -0.32029 0.10812 -0.023605 -0.065738 0.00017493 0.013416 0.0046884 0.010921
0.0095936 0.0043308 0.01023 0.0096931
-0.023773 -0.06582 -0.37412 0.096759 -0.042616 -0.038754 0.014115 0.0044186
-0.013623 -0.0035473 0.0051561 -0.00093043
0.00042377 0.01304 -0.043206 -0.03798 -0.18529 0.24901 -0.00079616 -0.0047775
0.019146 0.0055604 0.0065462 -0.0038895
0.0055204 0.010802 0.013652 0.0035041 -0.00051236 -0.0044044 -0.30596 0.134
0.0066153 -0.022341 0.0049875 -0.022333
0.0099778 0.0043165 -0.013816 -0.0038404 0.020396 0.0056377 0.0057625 -0.023397
-0.30959 -0.024329 0.0061602 -0.047012
0.010026 0.0092949 0.0059153 -0.0011445 0.0054145 -0.0039971 0.0058665 -0.02185
0.0061891 -0.047354 -0.33063 0.019824
620000000 -0.27907 0.089232 -0.023675 0.0089153 0.0036866 0.0094555 0.008825 -0.0042096
0.010643 -0.0016573 0.00106 -0.00097292
-0.023557 0.0089479 -0.40404 0.044957 -0.018796 0.00083001 -0.0012663 -0.0019015
0.012128 -0.0064456 0.0010159 -0.0026359
0.0040666 0.0093525 -0.018819 0.00090371 -0.15647 0.25905 -0.0011249 -0.0050072
-0.0027039 -0.0029338 0.0093583 -0.0025404
0.0087055 -0.0043513 -0.0012961 -0.0021359 -0.0010405 -0.0049506 -0.26549 0.14397
-0.038676 -0.018731 0.014597 0.028375
0.01114 -0.0015411 0.011781 -0.0059958 -0.002614 -0.0031265 -0.038375 -0.018843
-0.23096 -0.058514 -0.045007 0.012298
0.0013123 -0.0017652 0.0019096 -0.0029437 0.0088915 -0.003858 0.013953 0.025672
-0.044356 0.012276 -0.25019 -0.013761
680000000 -0.24141 0.18144 -0.026178 -0.014557 0.005216 0.0052054 0.0012989 -0.0071252
-0.0018314 -0.011692 0.0060142 -0.0076529
-0.026245 -0.014729 -0.39103 0.14734 -0.032233 -0.0021304 -0.0020225 -0.00083783
-0.0011925 -0.0095956 -0.00088387 -0.002097
0.0051809 0.0050508 -0.032241 -0.0021091 -0.10448 0.27998 -0.0010714 -0.00052441
-0.0014521 -6.1086e-05 -0.0028104 -0.0096093
0.0014544 -0.0071744 -0.0017716 -0.0006305 -0.0009488 -0.00033172 -0.21982 0.19657
-0.023541 -0.0068856 -0.0081983 -0.013495
-0.0014076 -0.011383 -0.0010752 -0.0092534 -0.0012521 0.00037484 -0.02386 -0.0068805
-0.28086 0.04712 -0.0053396 -0.0067279
0.0056384 -0.0074052 -0.00070579 -0.0022088 -0.0023974 -0.0096626 -0.0089935 -0.012154
-0.0054741 -0.0069345 -0.26177 0.085832
740000000 -0.19468 0.1745 -0.039787 0.027135 0.013712 -0.0048281 -0.00011759 -0.0038229
-0.004604 -0.0042105 -0.0066854 0.0030814
-0.039455 0.026763 -0.33459 0.16541 -0.036584 0.03405 -6.4361e-06 -0.0063409
-0.011317 0.0074025 -0.0015108 -0.0066714
0.013928 -0.0050089 -0.036144 0.03452 -0.069301 0.27704 -0.0018065 0.0027178
-0.0033026 -0.0048684 -0.00121 0.00076144
-0.00014867 -0.0037916 0.00010405 -0.0065397 -0.0017934 0.0029626 -0.20388 0.20442
-0.042168 -0.0089266 0.022157 0.016251
-0.0042238 -0.0039237 -0.011802 0.0078653 -0.0035138 -0.0051781 -0.042023 -0.0086251
-0.18236 0.075299 -0.041931 0.00091876
-0.0064541 0.003003 -0.00093657 -0.0067356 -0.0012472 0.001096 0.022225 0.016599
-0.042261 0.00066946 -0.25092 0.095562
800000000 -0.16378 0.21835 -0.022349 0.015995 0.0056679 -0.01068 -0.0042066 -0.0023817
-0.0047918 0.0022535 0.0048625 0.00032469
-0.022342 0.016084 -0.34214 0.23679 -0.0085759 0.033722 -0.0025157 0.0018322
-0.0012705 0.0024341 0.0012999 0.005601
0.005854 -0.010816 -0.0085561 0.033916 -0.032084 0.30061 0.0006675 0.0014583
-0.00021188 0.0034862 -0.0015545 0.00075426
-0.004321 -0.0022887 -0.0023501 0.0017338 0.00079577 0.0013603 -0.17415 0.23104
-0.028075 0.013095 0.013671 -0.010613
-0.0048838 0.0024754 -0.0015049 0.0025874 3.6987e-06 0.003391 -0.028404 0.01309
-0.22537 0.10294 -0.016918 0.020781
0.0045236 0.00021792 0.0010833 0.0051591 -0.0018146 0.0005496 0.014059 -0.0099213
-0.016843 0.020569 -0.24285 0.14475
860000000 -0.12896 0.23951 -0.018352 0.0303 -0.0030333 -0.010354 -0.0018161 0.00069567
0.0034208 0.0051424 -0.0039085 -0.0027067
-0.018091 0.030288 -0.29419 0.27967 0.006905 0.034418 0.00017283 0.00211
0.0036688 0.0011251 0.0025565 0.0011462
-0.0030152 -0.01026 0.007017 0.034374 0.015434 0.30928 -0.00055386 -1.7984e-05
0.002035 -0.0012894 0.0012117 0.0041831
-0.0017764 0.00073481 0.00050705 0.0022067 -0.00059403 4.9889e-05 -0.13731 0.24187
-0.01783 0.017665 -0.0057656 -0.0071785
0.0036206 0.0052191 0.0040898 0.0012514 0.002005 -0.0010838 -0.01744 0.017763
-0.16876 0.15655 -0.025201 0.016716
-0.003909 -0.0029349 0.0024518 0.001321 0.0012073 0.0043775 -0.005906 -0.0089142
-0.025397 0.016805 -0.19308 0.18838
920000000 -0.10591 0.26219 0.0044229 0.038446 -0.0091264 -0.0050959 -0.0019898 0.0019271
0.001007 0.0024778 0.0034491 -0.0011167
0.0043681 0.038546 -0.26696 0.30124 0.027929 0.023008 0.001577 0.0012423
0.0082188 0.00033739 0.0043102 -0.0029623
-0.0093084 -0.0050578 0.028045 0.023082 0.060521 0.31053 0.0020234 0.00015831
0.0014014 -0.00014025 0.0011372 -0.0015149
-0.0021273 0.0018347 0.0014822 0.0012715 0.001962 0.00013071 -0.11318 0.25848
-0.011445 0.030925 0.0042019 -0.0069324
0.00083863 0.0024623 0.0082011 0.00065149 0.0013871 -0.00019203 -0.011381 0.030839
-0.15517 0.16011 -0.001535 0.026512
0.0029709 -0.00081937 0.0048262 -0.0027109 0.0013615 -0.0014906 0.0042494 -0.006609
-0.0017049 0.026655 -0.1982 0.20331
980000000 -0.059003 0.28322 0.016586 0.0302 -0.009554 0.0040659 0.0017156 0.0037449
0.0037704 -0.0017798 -0.0030903 -0.0021591
0.016565 0.03018 -0.2144 0.33652 0.033238 0.0056441 0.0021096 -2.4139e-05
0.0016116 -0.0062723 -0.00019004 -0.0023357
-0.0094093 0.0041743 0.033341 0.0055588 0.10618 0.30548 0.00090439 -0.0011946
0.0006058 -0.001967 0.0014523 -0.00019668
0.001832 0.0037248 0.0021823 -9.0089e-05 0.00081401 -0.0011433 -0.075232 0.26941
0.0070648 0.0294 -0.0093177 -0.0069805
0.0038616 -0.0016814 0.001631 -0.0063717 0.00053247 -0.0019228 0.0071305 0.029469
-0.12326 0.19233 0.0061353 0.018941
-0.0030634 -0.002359 -0.0002509 -0.0023792 0.0014249 -0.00011573 -0.0090917 -0.0074451
0.0064491 0.019126 -0.15851 0.24675
1040000000 -0.018203 0.29195 0.032624 0.019277 -0.0017348 0.0070457 0.0027105 0.00085628
0.00048039 -0.0036313 -0.00021487 -0.0017568
0.03261 0.019339 -0.17923 0.34964 0.030074 -0.014296 0.0015689 -0.0017394
-0.0021954 -0.002621 -0.001208 -0.0031987
-0.0017053 0.0070417 0.030102 -0.014391 0.15201 0.29255 -0.00038558 -0.0016582
-0.0015756 -0.00098327 -0.00051118 -0.0010587
0.0026456 0.00082292 0.0016571 -0.0016731 -0.000384 -0.0016819 -0.048102 0.27901
0.018756 0.018811 -0.0028033 0.00087634
0.00039423 -0.0034062 -0.0021562 -0.0027934 -0.0016283 -0.0010662 0.018829 0.018843
-0.09042 0.19881 0.014149 0.018435
-0.00017986 -0.0016698 -0.0014953 -0.0034924 -0.00059488 -0.0011684 -0.0026452 0.0010273
0.014025 0.018478 -0.13539 0.2677
1100000000 0.026528 0.3018 0.036407 -0.0029005 0.0026938 0.0042168 0.0024324 -0.00096559
-0.0022886 -0.0030722 -0.0040986 -0.00016614
0.036363 -0.0029152 -0.13653 0.36871 0.016199 -0.027807 5.2244e-05 -0.0017293
-0.0039291 -0.001017 -0.0037963 -0.00059123
0.00277 0.0042714 0.016037 -0.027912 0.19783 0.27372 -0.0019098 -7.8882e-07
-0.0017727 0.00040755 -0.001124 -0.00048461
0.0024517 -0.00095879 3.6263e-05 -0.0018425 -0.0019102 3.4813e-06 -0.0083207 0.28448
0.024405 0.0059824 -0.0026324 0.00024234
-0.002338 -0.0029772 -0.0040049 -0.0010655 -0.0017075 0.00040772 0.024564 0.0060307
-0.071245 0.21229 0.019413 0.008704
-0.004002 -0.00013021 -0.003802 -0.00042549 -0.0011546 -0.00040824 -0.0025066 -9.0497e-05
0.019332 0.0087121 -0.090493 0.29793
1160000000 0.077813 0.29829 0.024776 -0.020155 0.0027694 -0.00034523 -2.4564e-05 -0.0023861
-0.0040391 -0.00092321 -0.0011863 0.004164
0.024806 -0.020111 -0.0934 0.37328 -0.0029092 -0.029455 -0.0016282 -0.001752
-0.002858 0.0023892 -0.0014719 0.0021029
0.002771 -0.00043298 -0.0030024 -0.029513 0.2414 0.24391 -0.00094661 0.0017464
-0.00072431 0.001896 -0.00086559 0.00032144
-6.3931e-05 -0.0023748 -0.0015911 -0.0016637 -0.00092912 0.0016968 0.031065 0.28211
0.02133 -0.0097513 -0.0032351 0.0048156
-0.0040477 -0.00094924 -0.0029054 0.0025643 -0.00066422 0.0019339 0.021346 -0.0099327
-0.03591 0.22016 0.018493 -0.00041564
-0.0010375 0.0043086 -0.001732 0.0019958 -0.00086239 0.00035833 -0.0034897 0.0051957
0.018597 -0.00068875 -0.043385 0.30232
1220000000 0.12149 0.28879 0.011452 -0.030153 -0.0015668 -0.00079727 0.00017518 -0.00087886
-0.0028169 0.0023722 0.0011701 0.0021256
0.011495 -0.03008 -0.049457 0.38693 -0.016684 -0.022118 -0.0026245 0.0004479
-8.6972e-05 0.0033074 -0.00088443 0.0019904
-0.001666 -0.00086796 -0.016833 -0.022096 0.28051 0.20567 0.00062812 0.0018726
0.00053185 0.0011978 0.00014935 0.00059683
0.00018993 -0.00088851 -0.0026303 0.00046938 0.00065518 0.0018631 0.070848 0.27389
0.011242 -0.016737 0.0020264 0.0015037
-0.0026861 0.0022714 5.6916e-06 0.0032477 0.00060807 0.0011479 0.011154 -0.016744
-0.01336 0.22906 0.014177 -0.013045
0.0010847 0.0020289 -0.00082509 0.0020955 0.00018964 0.00068756 0.0021965 0.0014909
0.014123 -0.012984 -0.012177 0.31688
1280000000 0.17188 0.26899 -0.0072833 -0.029008 -0.0018929 0.00252 -0.00083884 -0.0022243
-0.00089965 0.0032054 0.0025867 0.0014799
-0.0072558 -0.028951 -0.0033361 0.37929 -0.02417 -0.0092044 -0.0010742 0.0014741
0.0017128 0.0018473 0.00065171 0.002222
-0.0019812 0.0025439 -0.024242 -0.0090689 0.31148 0.16292 0.0016575 0.00015549
0.0012084 0.00036103 0.00021672 0.0003419
-0.000849 -0.0022341 -0.0010097 0.0014495 0.0016306 8.595e-05 0.10794 0.2584
0.001602 -0.019288 6.5445e-05 0.00024925
-0.00080636 0.0032145 0.0017741 0.0018169 0.0011753 0.00033304 0.0014939 -0.019293
0.023282 0.23295 0.0030263 -0.015428
0.0027014 0.0014433 0.00058703 0.0021359 0.00032767 0.00027152 -9.5727e-05 0.00025056
0.0030999 -0.015446 0.034893 0.32024
1340000000 0.20963 0.23638 -0.017355 -0.01959 0.00081447 0.0047956 -0.0018482 -0.00085129
0.0014637 0.0026489 0.0018276 -0.0012345
-0.017311 -0.019576 0.036457 0.37217 -0.02225 0.0038279 -0.00014847 0.0020619
0.0020221 0.00088871 0.0011201 0.000798
0.00078494 0.0048155 -0.022183 0.0039195 0.33434 0.11573 0.0011328 -0.00091253
0.00069867 -0.00050279 -9.945e-05 0.00025773
-0.0018912 -0.00085572 -0.00013521 0.0021417 0.0011653 -0.00084644 0.1415 0.23792
-0.0079748 -0.016864 0.0007308 0.00062201
0.0014499 0.0026987 0.0020809 0.00090031 0.00069483 -0.00059995 -0.0079856 -0.01678
0.053108 0.22877 -0.0037158 -0.014281
0.0017712 -0.0012799 0.0011999 0.00080809 -0.00012237 0.00026363 0.00080439 0.00038297
-0.0038051 -0.014179 0.073196 0.31478
1400000000 0.24377 0.19965 -0.023533 -0.0080144 0.0053878 0.0033581 -0.0022404 0.0005968
0.0025708 0.0010557 0.00054704 -0.0015534
-0.023467 -0.0080161 0.0742 0.36032 -0.015515 0.012525 0.0013876 0.0013728
0.0013525 -0.00079789 0.0012519 0.0002279
0.0054462 0.0034787 -0.01552 0.012607 0.34786 0.06277 0.00014802 -0.0016923
0.00015186 -0.00043697 0.00027776 0.00024041
-0.0022426 0.00061905 0.0014406 0.0013745 0.00014351 -0.0016873 0.17134 0.20917
-0.014257 -0.010255 -0.00081195 -0.00017186
0.0025124 0.0010252 0.0013413 -0.00082381 8.1343e-05 -0.00038417 -0.014239 -0.010238
0.085998 0.22509 -0.010214 -0.009135
0.00048265 -0.0015912 0.0012688 0.00022561 0.00026905 0.00013087 -0.00094706 -0.00018722
-0.010174 -0.0092055 0.11711 0.30452
1460000000 0.26774 0.15651 -0.020605 0.0044714 0.0058422 -0.0017517 -0.0015885 0.0017505
0.0021539 -0.00038866 -0.00032952 -0.0011038
-0.020589 0.0043825 0.10945 0.3391 -0.0065681 0.015819 0.0017372 0.00019826
0.00091908 -0.0014097 0.0013013 -0.00053141
0.0059212 -0.0018151 -0.006417 0.015873 0.35495 0.0089759 -0.0011289 -0.0013873
0.00024726 -0.00019835 0.00082299 -0.00019276
-0.0016029 0.0017831 0.001719 0.00017957 -0.0011014 -0.0013199 0.19863 0.17986
-0.015649 -0.0036529 -0.00090648 0.0020045
0.002226 -0.00042197 0.00089548 -0.0014452 0.00017739 -0.00017514 -0.015707 -0.0035771
0.11595 0.21172 -0.012241 -0.0030369
-0.00029252 -0.0011413 0.0012884 -0.00053954 0.00071657 -7.9094e-05 -0.00081084 0.0020845
-0.012344 -0.0030844 0.15111 0.2843
1520000000 0.28108 0.11498 -0.015045 0.010048 0.0035167 -0.0043158 8.2275e-05 0.0027137
0.0021418 -0.0018543 -0.0011838 -0.00018669
-0.015071 0.010026 0.14352 0.32476 0.0015842 0.01361 0.0016538 -0.00076787
3.8747e-05 -0.0011441 0.00038852 -0.0010276
0.0035379 -0.004471 0.001635 0.013644 0.34882 -0.047282 -0.0011478 -0.00041145
0.00071117 -0.00090519 6.7967e-05 -0.00010049
0.00015759 0.0026328 0.0016458 -0.00078047 -0.0011292 -0.00041245 0.22201 0.14117
-0.015419 0.0022323 0.0015822 0.0022356
0.00224 -0.0018202 -2.2165e-05 -0.0011167 0.00068373 -0.00088331 -0.015426 0.0022631
0.14427 0.19876 -0.012242 0.0015804
-0.0012463 -0.00017638 0.00036807 -0.0010238 8.6704e-05 -0.00010469 0.0014673 0.0023029
-0.012139 0.0015724 0.18357 0.26431
1580000000 0.29153 0.069094 -0.0083937 0.013501 -0.0009632 -0.00524 0.0015704 0.0019237
-0.00014497 -0.0022338 -0.00031643 0.00041612
-0.0084162 0.013476 0.1715 0.30045 0.0055179 0.0085395 0.00050894 -0.0015522
-0.00057548 -0.0010465 -0.00016558 -0.00092795
-0.0010285 -0.0052193 0.0055961 0.0085542 0.32945 -0.10495 -0.0016906 0.00049166
-0.00023873 -0.0012043 0.00038952 -0.00052988
0.001548 0.001901 0.00047704 -0.0015282 -0.0016727 0.00050351 0.23613 0.10155
-0.011939 0.0074536 0.0024773 0.00076538
-0.00012074 -0.0022527 -0.00057917 -0.0010306 -0.00018633 -0.0011979 -0.011975 0.0075112
0.16915 0.18165 -0.0095136 0.0076591
-0.00027539 0.00042325 -0.0001675 -0.00093214 0.00034906 -0.00039347 0.002546 0.00085938
-0.0095539 0.0076055 0.2161 0.23843
1640000000 0.2946 0.027414 -0.0015242 0.012317 -0.0029162 -0.0027376 0.0027896 0.0010413
-0.0007095 -0.0017733 -0.00041874 0.00054369
-0.0015084 0.012322 0.20183 0.27543 0.0062356 0.0034539 -0.00060571 -0.0017854
-0.0010611 -0.00041619 -0.00058197 -0.00078414
-0.0029431 -0.0028428 0.0063517 0.0034248 0.30098 -0.15486 -0.00074811 0.0015513
-0.0011265 -0.0011627 -0.00020069 -0.00043861
0.0027462 0.00099864 -0.00060597 -0.0018248 -0.00077313 0.0015157 0.24868 0.052079
-0.007779 0.0090119 0.0025645 -0.00079184
-0.00073336 -0.0017808 -0.0010372 -0.00042114 -0.0011379 -0.001174 -0.0077506 0.0090464
0.19291 0.15795 -0.0048226 0.009582
-0.00035542 0.00057332 -0.00059504 -0.00075614 -0.00019734 -0.0005185 0.0025749 -0.00081436
-0.0047396 0.0096583 0.24169 0.20749
1700000000 0.2878 -0.017896 0.0019247 0.0095989 -0.0037173 -7.4721e-05 0.0032401 -0.0012908
-0.0020474 -0.0007178 0.00056401 0.0005318
0.0019162 0.0095812 0.2202 0.244 0.0040965 0.00046578 -0.0014393 -0.00063054
-0.00081321 -2.2023e-05 -0.00099899 -0.00052266
-0.0037145 -7.6822e-05 0.004151 0.00031488 0.25742 -0.19423 0.00043588 0.0016805
-0.0020368 -0.0001315 -0.00051619 -0.00097796
0.0032093 -0.0012219 -0.001473 -0.00059165 0.0003671 0.0017433 0.24511 0.0018244
-0.0046641 0.0098957 0.0017487 -0.0023123
-0.0021436 -0.00073731 -0.00085087 -2.1314e-06 -0.0020346 -0.00023605 -0.0046545 0.0099067
0.21086 0.13819 8.837e-05 0.0099573
0.00065774 0.00048191 -0.00098191 -0.00051408 -0.00044184 -0.0010307 0.0017756 -0.0023197
7.4581e-05 0.0098822 0.25835 0.17381
1760000000 0.2765 -0.066698 0.004414 0.0063387 -0.0023667 0.00086587 0.0013663 -0.0035272
-0.0014075 0.00057875 0.00028039 -0.00038657
0.0044217 0.0062965 0.24689 0.20428 0.001898 -0.00141 -0.0012466 0.00012827
-0.0010947 0.00093472 -0.00075292 0.00033842
-0.0024926 0.0010456 0.0016294 -0.0016774 0.20969 -0.22659 0.0010587 0.0011066
-0.0014107 0.0014217 -0.0013181 -0.00083093
0.0013911 -0.0035058 -0.0012342 0.00013179 0.0010547 0.0013157 0.23589 -0.049693
-0.0012235 0.0091265 -0.00016023 -0.0025277
-0.0014107 0.00062386 -0.001063 0.00095657 -0.001504 0.001513 -0.0011866 0.0091445
0.22661 0.10395 0.0041699 0.0074039
0.0002031 -0.00063288 -0.00075285 0.00037003 -0.0015403 -0.00074341 -0.00019785 -0.0025811
0.004136 0.007417 0.27203 0.13661
1820000000 0.25244 -0.10444 0.0046992 0.0026418 -0.00027189 0.0026364 -0.00097987 -0.0030865
-0.0012619 0.001023 9.8982e-05 -6.3637e-05
0.0046466 0.0027268 0.25729 0.17382 -0.0006042 -0.00047884 -0.0014357 0.00091057
-8.6891e-05 0.0012567 -0.00066088 0.00069169
-0.00013872 0.0026622 -0.0007073 -0.00021628 0.15925 -0.24356 0.0015069 0.00058784
-0.00041529 0.0024285 -0.0017444 0.00037467
-0.00093945 -0.0031531 -0.0013839 0.00094907 0.0016184 0.00044516 0.20536 -0.097362
0.00055687 0.0076259 -0.0018744 -0.0017797
-0.0012196 0.0010158 -6.6211e-05 0.001234 -0.00038121 0.0025856 0.0006061 0.0075742
0.24437 0.075043 0.0052061 0.0036865
-0.00017404 -0.00014371 -0.0006732 0.00057845 -0.0017217 0.00065015 -0.0018755 -0.0017077
0.0050779 0.0036525 0.27495 0.10035
1880000000 0.21707 -0.145 0.002259 0.00021892 -0.00075615 0.0021635 -0.0028855 -0.0023262
-0.00019729 0.0019146 0.00033705 -0.00068526
0.0023262 0.00024659 0.26177 0.12728 -0.0027303 0.0014561 -0.00020496 0.001761
0.00054936 0.0013776 0.00011396 0.0011394
-0.00056696 0.0021645 -0.0026822 0.0016509 0.10731 -0.25243 0.0019792 -0.00094648
0.0017181 0.0021602 -0.00095893 0.0017133
-0.0028848 -0.0023343 -0.00022528 0.0017079 0.0019266 -0.0010547 0.16441 -0.13693
0.0016304 0.0055492 -0.0025473 0.0003632
-0.00017764 0.0019089 0.00054666 0.0013386 0.0018418 0.0021034 0.0016146 0.0054952
0.24878 0.044065 0.0053171 0.0012784
0.00025878 -0.00049363 9.4948e-05 0.0010622 -0.00091304 0.0018467 -0.0024974 0.0003231
0.0052553 0.0015613 0.275 0.066347
1940000000 0.17771 -0.17098 -0.0002037 -0.0015325 0.0014212 0.0021821 -0.0037144 0.00051977
0.0013502 0.0011517 -0.00071376 -0.0009183
-0.0001468 -0.0015483 0.26278 0.095103 -0.001505 0.0040684 0.0010269 0.0013411
0.0019859 0.0005388 0.0010245 0.00042386
0.0014578 0.0020705 -0.0011876 0.0041208 0.061979 -0.24576 0.00061982 -0.0024446
0.0026617 0.00049245 0.00036555 0.0019319
-0.003889 0.00040443 0.0010817 0.0013722 0.00050748 -0.0023427 0.11218 -0.16767
0.0010035 0.0039219 -0.0015592 0.0015633
0.0014412 0.0011085 0.001901 0.00060085 0.002622 0.00037362 0.0009655 0.0040108
0.25276 0.0055214 0.0039873 -0.0021403
-0.00075611 -0.00053702 0.00088327 0.00036931 0.00052464 0.0017573 -0.0015528 0.0016048
0.0041569 -0.0019686 0.26467 0.03012
2000000000 0.13167 -0.1856 -0.0040259 0.00088805 0.0028616 0.0017739 -0.0023348 0.0036899
0.001318 0.00034488 -0.00065401 0.00028557
-0.0040429 0.0007571 0.24819 0.059638 -0.0012032 0.0061031 0.0016345 0.00046097
0.0013418 -0.001291 0.00084142 6.5555e-05
0.0027834 0.0016865 -0.00098429 0.0058725 0.018493 -0.2315 -0.0014204 -0.0015481
0.0023405 -0.0015173 0.0020823 0.0012804
-0.0022797 0.0037249 0.0016879 0.00033651 -0.0014433 -0.0014301 0.058361 -0.17713
-0.00043979 0.0034245 2.7732e-07 0.0023404
0.001326 0.00026596 0.0014615 -0.0011705 0.0020343 -0.0014551 -0.00037763 0.0034831
0.24832 -0.027714 0.0008903 -0.0029203
