!Keysight Technologies,M9804A,MY58100912,A.14.10.03
!Date: Thursday, April 27, 2023 10:28:33
!Correction: S11(C  6-Port  ) 
!S12(C  6-Port  ) 
!S13(C  6-Port  ) 
!S14(C  6-Port  ) 
!S15(C  6-Port  ) 
!S16(C  6-Port  ) 
!S21(C  6-Port  ) 
!S22(C  6-Port  ) 
!S23(C  6-Port  ) 
!S24(C  6-Port  ) 
!S25(C  6-Port  ) 
!S26(C  6-Port  ) 
!S31(C  6-Port  ) 
!S32(C  6-Port  ) 
!S33(C  6-Port  ) 
!S34(C  6-Port  ) 
!S35(C  6-Port  ) 
!S36(C  6-Port  ) 
!S41(C  6-Port  ) 
!S42(C  6-Port  ) 
!S43(C  6-Port  ) 
!S44(C  6-Port  ) 
!S45(C  6-Port  ) 
!S46(C  6-Port  ) 
!S51(C  6-Port  ) 
!S52(C  6-Port  ) 
!S53(C  6-Port  ) 
!S54(C  6-Port  ) 
!S55(C  6-Port  ) 
!S56(C  6-Port  ) 
!S61(C  6-Port  ) 
!S62(C  6-Port  ) 
!S63(C  6-Port  ) 
!S64(C  6-Port  ) 
!S65(C  6-Port  ) 
!S66(C  6-Port  ) 
!S6P File: Measurement: :
# Hz S  RI   R 50
500000000 -0.33734 -0.035144 -0.010067 -0.0036438 -0.0079935 0.012217 -0.0036099 0.011693
0.012325 0.00476 -0.0035607 0.008298
-0.010018 -0.0036218 -0.41965 -0.049917 0.0069949 -0.011343 0.001338 0.011689
0.0072831 0.0027214 0.0011016 0.012668
-0.0079756 0.012215 0.0070032 -0.011338 -0.26605 0.21146 0.0067182 0.0031958
-0.00052513 0.0088857 0.00062932 0.011739
-0.0035904 0.011703 0.0013828 0.01171 0.0067215 0.0031917 -0.32807 0.047242
-0.020547 -0.0040331 0.017266 0.025313
0.012231 0.004683 0.0073083 0.0027569 -0.00052935 0.0088974 -0.020529 -0.0040401
-0.22765 -0.18468 -0.028149 0.0053688
-0.0035538 0.0083397 0.0011447 0.012705 0.00062908 0.011749 0.017253 0.0253
-0.028114 0.0054202 -0.27372 -0.11179
560000000 -0.31629 0.12461 -0.02445 -0.062817 7.5687e-05 0.012486 0.0059146 0.0099653
0.010402 0.0041654 0.0097921 0.0073495
-0.024397 -0.062762 -0.37655 0.10969 -0.042558 -0.036844 0.013787 0.0039417
-0.013603 -0.0044065 0.0040652 -0.00063992
0.00011265 0.012512 -0.042728 -0.036709 -0.18303 0.25985 -0.00027141 -0.0048504
0.019214 0.0045301 0.0072403 -0.0054949
0.0060171 0.0099519 0.013841 0.0039672 -0.00027731 -0.0048528 -0.30289 0.13609
0.0031053 -0.024317 0.0044507 -0.019486
0.010387 0.0041224 -0.013564 -0.0042992 0.019238 0.0044969 0.0030925 -0.024309
-0.2877 -0.0089522 0.0069525 -0.04959
0.0098369 0.0073884 0.0040588 -0.00065474 0.0072054 -0.0054926 0.0044686 -0.019473
0.0069672 -0.04959 -0.33127 0.034439
620000000 -0.2737 0.10991 -0.023385 0.0075137 0.0039438 0.0087652 0.0068428 -0.0054013
0.011648 -0.00081447 0.00070372 -0.0018337
-0.023367 0.0074975 -0.40267 0.062569 -0.018877 0.00010524 -0.0012819 -0.0019964
0.010592 -0.0072838 0.0012447 -0.0028204
0.004001 0.0086762 -0.018903 0.00016453 -0.15295 0.26843 -0.0012965 -0.005241
-0.0036331 -0.0033593 0.008346 -0.0036983
0.006875 -0.0053914 -0.0013063 -0.0020092 -0.0012914 -0.005263 -0.26223 0.14645
-0.038971 -0.017994 0.014731 0.024219
0.011603 -0.00084558 0.010587 -0.0073024 -0.0036513 -0.0033655 -0.038959 -0.017999
-0.20662 -0.049406 -0.040819 0.014963
0.00071139 -0.0018544 0.0012429 -0.0028912 0.0083365 -0.0036788 0.014694 0.024197
-0.040761 0.014907 -0.25065 -0.001024
680000000 -0.23315 0.19409 -0.028092 -0.013274 0.0049198 0.0050477 0.001413 -0.0075862
-0.0029458 -0.011206 0.0045616 -0.0069981
-0.028079 -0.013274 -0.38714 0.15966 -0.032769 -0.0011987 -0.0016849 -0.00026379
-0.0023266 -0.0091322 -0.00094033 -0.0019928
0.0049272 0.0050186 -0.032804 -0.0011129 -0.10143 0.28784 -0.00084203 2.6355e-05
-0.0020581 0.00071834 -0.0030136 -0.0094477
0.0014085 -0.0075922 -0.0016894 -0.00025613 -0.00084488 1.6785e-05 -0.2193 0.19591
-0.023722 -0.0072886 -0.0088034 -0.010028
-0.0029727 -0.01123 -0.0023236 -0.0090813 -0.0020406 0.00071991 -0.023755 -0.0072793
-0.25374 0.050173 -0.0064827 -0.0088765
0.0045511 -0.0069701 -0.00091615 -0.0020029 -0.003015 -0.0094355 -0.0088142 -0.010015
-0.0064626 -0.0088689 -0.25891 0.10072
740000000 -0.18943 0.18898 -0.037847 0.027017 0.01288 -0.0052739 -0.00064795 -0.0039548
-0.0042445 -0.0030976 -0.0063634 0.0035287
-0.037848 0.026968 -0.33488 0.17828 -0.034876 0.035317 -0.00086976 -0.0063303
-0.011832 0.0086062 -0.0029351 -0.0066609
0.012879 -0.0053552 -0.034818 0.035475 -0.068174 0.28587 -0.0017405 0.003255
-0.0029717 -0.0042194 -0.0012039 0.00024163
-0.00070213 -0.003985 -0.00089323 -0.0063048 -0.0017391 0.003259 -0.20213 0.20332
-0.042703 -0.0071046 0.022202 0.01319
-0.0043126 -0.0030969 -0.011754 0.0086222 -0.0029716 -0.0042193 -0.042734 -0.0070505
-0.15642 0.075018 -0.041697 0.00082658
-0.0062785 0.00356 -0.002912 -0.0065882 -0.0012293 0.00024925 0.022248 0.013184
-0.041722 0.00074589 -0.24619 0.10672
800000000 -0.15656 0.2287 -0.021962 0.017373 0.0054537 -0.010703 -0.0046405 -0.0018197
-0.0040227 0.0023683 0.0042404 0.00078387
-0.021966 0.01736 -0.33712 0.24819 -0.007625 0.034264 -0.0021473 0.0022733
-0.00082496 0.003376 0.0011407 0.0052336
0.0054244 -0.010694 -0.0075407 0.034317 -0.027313 0.30895 0.0011472 0.0015873
0.00063931 0.0035313 -0.0017659 0.0011866
-0.0046353 -0.0018032 -0.0021434 0.0023009 0.0011471 0.0015941 -0.17408 0.23087
-0.02812 0.013228 0.013409 -0.0097863
-0.0040436 0.0023688 -0.00082036 0.0033997 0.00064728 0.003529 -0.028124 0.013293
-0.20053 0.098184 -0.017049 0.017706
0.0042373 0.0007752 0.0011566 0.0052493 -0.0017768 0.0011957 0.013414 -0.0097991
-0.017043 0.017687 -0.2372 0.15783
860000000 -0.12208 0.24927 -0.016785 0.030974 -0.0033191 -0.010217 -0.0022926 0.0011845
0.0040392 0.0050245 -0.0030945 -0.0027288
-0.016797 0.030934 -0.28945 0.28988 0.0084021 0.034354 8.0885e-05 0.0021627
0.0043309 0.00037151 0.0034124 0.0002069
-0.0033278 -0.010195 0.0085367 0.034373 0.020742 0.317 -0.0003934 -0.00017342
0.0027734 -0.0015918 0.0017636 0.0040779
-0.0023098 0.0012144 6.6783e-05 0.0021663 -0.00039249 -0.00017392 -0.13853 0.24237
-0.017553 0.01909 -0.0057001 -0.009042
0.0040661 0.0050518 0.0043308 0.00040866 0.0027665 -0.0015903 -0.01754 0.019129
-0.15018 0.14614 -0.023593 0.015272
-0.0030787 -0.002766 0.0034782 0.00017966 0.001763 0.0040836 -0.0057101 -0.0090469
-0.023607 0.015249 -0.18696 0.19952
920000000 -0.096891 0.27214 0.0055553 0.037533 -0.009626 -0.0046303 -0.0018242 0.0021109
0.0013512 0.0016426 0.0026287 -0.0016317
0.0055163 0.037488 -0.26057 0.31067 0.028432 0.021638 0.0016005 0.00099311
0.0070579 -0.00073351 0.0040517 -0.0030216
-0.0096508 -0.0046089 0.028543 0.021567 0.067052 0.31771 0.0018035 -0.00022067
0.0012862 -0.00052125 0.00072023 -0.001242
-0.0018305 0.0021076 0.0016026 0.00099741 0.0017965 -0.00021258 -0.11419 0.25894
-0.0096951 0.030358 0.0027715 -0.0069287
0.0013508 0.0016515 0.0070857 -0.00076151 0.0012904 -0.00052442 -0.0096331 0.030406
-0.14003 0.15192 -0.0017198 0.027262
0.0026255 -0.0016287 0.0040687 -0.0030592 0.0007097 -0.0012438 0.0027753 -0.0069458
-0.0017378 0.027245 -0.19208 0.21348
980000000 -0.04962 0.29169 0.018046 0.029652 -0.0091063 0.0045257 0.0022996 0.0036794
0.0039929 -0.00171 -0.0029817 -0.0021108
0.018 0.029608 -0.208 0.34417 0.033383 0.0043823 0.0020562 -8.5937e-05
0.0011624 -0.0063703 -0.00058167 -0.0022583
-0.0090893 0.0045642 0.033459 0.0042664 0.11355 0.31117 0.0004278 -0.0012225
-4.9604e-05 -0.0023016 0.0013988 -8.2291e-05
0.0023225 0.0036587 0.0020503 -6.9799e-05 0.00042398 -0.0012199 -0.075991 0.27042
0.0082635 0.0288 -0.0090797 -0.0069432
0.0039973 -0.0017393 0.0010979 -0.0063958 -4.4054e-05 -0.0023097 0.0083277 0.028793
-0.10787 0.17889 0.0051315 0.018759
-0.0029894 -0.0021155 -0.00061683 -0.00226 0.0014005 -8.8671e-05 -0.0090979 -0.0069328
0.0051096 0.018755 -0.14921 0.25734
1040000000 -0.0070166 0.29981 0.033552 0.017474 -0.001361 0.0069408 0.0026777 0.00077086
-2.0855e-05 -0.0036796 -0.00063405 -0.0015353
0.03348 0.017465 -0.17267 0.35756 0.029338 -0.015414 0.0014726 -0.001782
-0.0026442 -0.0026781 -0.0015676 -0.002698
-0.0013418 0.0069558 0.029331 -0.015564 0.1602 0.29743 -0.00058625 -0.0014609
-0.0016674 -0.00076933 -0.00052108 -0.0011234
0.0026913 0.00074342 0.0014748 -0.0017655 -0.00058655 -0.0014589 -0.048337 0.28037
0.019392 0.016785 -0.0032726 0.0016784
-6.0278e-06 -0.0036692 -0.0026701 -0.0026663 -0.0016617 -0.00077189 0.01944 0.016754
-0.077185 0.18674 0.01399 0.017385
-0.00064914 -0.0015514 -0.0015895 -0.0026876 -0.00052735 -0.0011234 -0.0032656 0.0016884
0.013972 0.017372 -0.12708 0.27641
1100000000 0.038385 0.30703 0.035843 -0.0050759 0.0028415 0.0038546 0.002533 -0.0013215
-0.0020881 -0.0030863 -0.0039527 0.00019224
0.035802 -0.005047 -0.12923 0.37472 0.014813 -0.028429 -4.5691e-05 -0.0018414
-0.003481 -0.00045121 -0.0034604 -0.00044765
0.0028495 0.0038542 0.014723 -0.028519 0.20707 0.27662 -0.001833 0.00033176
-0.0018066 0.00078935 -0.00094867 -0.00025792
0.0025379 -0.0013251 -5.9077e-05 -0.001836 -0.0018393 0.00033996 -0.0077206 0.28535
0.023706 0.0039251 -0.0027342 0.00078338
-0.0021063 -0.003103 -0.0034968 -0.00042218 -0.0018093 0.00079264 0.02373 0.0038873
-0.059421 0.19958 0.018935 0.0080379
-0.0039506 0.00018217 -0.0034746 -0.00042787 -0.00094561 -0.00025641 -0.0027401 0.0007832
0.018911 0.0080444 -0.080546 0.30399
1160000000 0.089856 0.302 0.023528 -0.021494 0.002595 -0.00036869 -0.00012651 -0.0024317
-0.0041038 -0.00060985 -0.00097274 0.0038439
0.023501 -0.021469 -0.085288 0.37935 -0.0045147 -0.029356 -0.0018365 -0.0016799
-0.0024806 0.0028575 -0.0012107 0.001663
0.0025699 -0.00039008 -0.0046335 -0.029378 0.25046 0.24487 -0.00060613 0.0018554
-0.00026188 0.0019693 -0.0009597 0.00012448
-0.00012666 -0.0024203 -0.0018335 -0.0016758 -0.00059467 0.0018526 0.031685 0.2824
0.019554 -0.011238 -0.0029027 0.0055181
-0.0040957 -0.00058118 -0.0024737 0.0028818 -0.00025313 0.0019753 0.019551 -0.011265
-0.026956 0.20879 0.017699 -6.6666e-05
-0.00094585 0.0038256 -0.0012236 0.0016857 -0.00096108 0.00013118 -0.0028917 0.0055208
0.017695 -7.6673e-05 -0.033373 0.30638
1220000000 0.13436 0.29041 0.009578 -0.030475 -0.0016444 -0.00071699 1.0681e-05 -0.0011689
-0.0026401 0.0025394 0.0013627 0.0019403
0.0095802 -0.030455 -0.040413 0.39108 -0.017612 -0.020977 -0.00254 0.00053347
0.00039477 0.0031208 -0.00065781 0.0018823
-0.0016586 -0.00069765 -0.017733 -0.020916 0.28921 0.20471 0.0010136 0.0016881
0.0007051 0.0012045 0.00026374 0.00065845
-8.8476e-06 -0.001179 -0.0025403 0.00054555 0.0010101 0.0016888 0.071617 0.27384
0.0087163 -0.017018 0.0023425 0.0018436
-0.0026324 0.0025591 0.0004 0.0031244 0.0007118 0.0012068 0.0087011 -0.01703
-0.0040532 0.21853 0.013364 -0.013062
0.001379 0.001923 -0.00064333 0.0018997 0.00025996 0.00066401 0.0023438 0.0018454
0.013355 -0.013036 -0.0010687 0.32148
1280000000 0.18414 0.26791 -0.0089272 -0.028469 -0.0017866 0.0028267 -0.0010706 -0.00208
-0.00068789 0.0032029 0.0025286 0.00099632
-0.0089035 -0.028442 0.0059866 0.38177 -0.024254 -0.0079625 -0.00092423 0.0016137
0.0019095 0.0016306 0.00064819 0.0019254
-0.001785 0.0028315 -0.024322 -0.0078593 0.31887 0.16025 0.0015163 -0.00029104
0.0010891 -4.6433e-05 0.00027861 0.00032426
-0.0010757 -0.002076 -0.00092193 0.0016309 0.0015147 -0.00029835 0.10813 0.25742
-0.00095294 -0.018332 0.00028557 0.00032764
-0.00068936 0.0032014 0.0019261 0.0016208 0.0010911 -4.4048e-05 -0.00098757 -0.018335
0.03267 0.22282 0.0024394 -0.015034
0.0025313 0.00097394 0.0006497 0.0019213 0.00027945 0.00032488 0.00028471 0.00032992
0.0024478 -0.015022 0.046188 0.32138
1340000000 0.2213 0.23358 -0.018555 -0.018357 0.0010528 0.0045938 -0.002039 -0.00085662
0.0015586 0.0027377 0.0016936 -0.001554
-0.018524 -0.018362 0.045804 0.37258 -0.021661 0.0049464 7.2781e-05 0.001982
0.001902 0.00041508 0.0013855 0.00083233
0.0010704 0.004595 -0.021664 0.0050633 0.33974 0.11227 0.00094854 -0.001028
0.00053905 -0.00046972 9.9159e-05 0.00034913
-0.0020432 -0.00084489 8.2206e-05 0.0019813 0.0009542 -0.0010276 0.14089 0.23713
-0.0096887 -0.014424 0.0011466 0.00045223
0.0015707 0.0027427 0.0019162 0.00040777 0.00053893 -0.00046678 -0.0097155 -0.014421
0.063371 0.21888 -0.0043209 -0.013414
0.0016878 -0.0015608 0.001394 0.00082862 0.00010076 0.00034958 0.0011447 0.00045372
-0.0043154 -0.013424 0.084924 0.31556
1400000000 0.25405 0.19463 -0.023817 -0.0065024 0.0053741 0.0031499 -0.0021277 0.00082217
0.002686 0.00080738 0.00013111 -0.0013921
-0.023783 -0.0065095 0.082782 0.35873 -0.014515 0.012982 0.0014509 0.0011643
0.00095486 -0.0010705 0.0011461 0.00013479
0.0053791 0.0031205 -0.014473 0.01308 0.35211 0.059396 -3.5443e-05 -0.0015568
3.5753e-05 -0.00040108 0.0003158 0.00022788
-0.0021281 0.00083384 0.0014675 0.0011533 -3.8738e-05 -0.0015644 0.17051 0.2085
-0.014616 -0.0072877 -0.00043066 -0.00038604
0.0026937 0.00079539 0.00095777 -0.0010829 3.394e-05 -0.00039917 -0.014635 -0.0072601
0.096741 0.21433 -0.010738 -0.0082361
0.00011115 -0.0013883 0.0011461 0.00013184 0.00032022 0.00022841 -0.00043198 -0.0003845
-0.010733 -0.0082395 0.12874 0.30349
1460000000 0.27646 0.14993 -0.020264 0.0057532 0.0057824 -0.0019181 -0.0015144 0.0019016
0.002156 -0.00086515 -0.00044381 -0.0008484
-0.020248 0.0057374 0.11646 0.33615 -0.0055074 0.015574 0.0016511 5.6521e-05
0.00061772 -0.0012197 0.0011207 -0.00065462
0.0057732 -0.0019515 -0.0054371 0.015617 0.358 0.0057108 -0.0012962 -0.0010925
0.00022652 -0.00010126 0.00071675 -0.00039914
-0.001495 0.0019106 0.0016525 5.061e-05 -0.0012985 -0.0011002 0.19719 0.17941
-0.014419 -0.00056518 -0.00069854 0.0017261
0.0021544 -0.00087438 0.0006179 -0.0012258 0.00022826 -0.00010253 -0.014441 -0.00052499
0.12714 0.19978 -0.012178 -0.0021696
-0.00045287 -0.00085055 0.0011183 -0.00066521 0.00071816 -0.00039898 -0.00070283 0.0017358
-0.012176 -0.002186 0.16161 0.2813
1520000000 0.28795 0.10773 -0.014101 0.01115 0.0032176 -0.0043929 0.00031304 0.0026794
0.0017633 -0.0019113 -0.0011502 -4.9915e-05
-0.014101 0.011134 0.14921 0.32106 0.0020731 0.013029 0.0015102 -0.00084627
-9.3763e-05 -0.00076427 0.00028569 -0.0010111
0.0031998 -0.0044014 0.0021374 0.013032 0.35129 -0.049849 -0.00096271 -0.00022989
0.00053364 -0.00086803 2.6325e-05 -0.00011539
0.00032809 0.00267 0.0015152 -0.00085424 -0.00096415 -0.0002307 0.22074 0.1412
-0.012417 0.0044389 0.0014104 0.0017479
0.001773 -0.001931 -9.7115e-05 -0.00076535 0.00053204 -0.0008737 -0.012417 0.0044721
0.15598 0.18497 -0.011733 0.0024762
-0.0011468 -4.6748e-05 0.00027073 -0.0010148 1.9438e-05 -0.0001155 0.00142 0.0017419
-0.011734 0.0024788 0.19373 0.25989
1580000000 0.29632 0.061092 -0.0071116 0.013759 -0.00099995 -0.0050061 0.0015485 0.0017806
-0.00063229 -0.002206 -0.0002819 0.00041567
-0.0071215 0.013747 0.17574 0.2962 0.0055723 0.0079779 0.00037935 -0.0015277
-0.00040796 -0.00079353 -0.0003038 -0.00083258
-0.0010203 -0.0049914 0.0056251 0.0079585 0.33155 -0.10727 -0.0013689 0.00052512
-0.00035034 -0.0011951 0.00020658 -0.00057947
0.0015516 0.0017725 0.00037017 -0.0015422 -0.0013701 0.00051922 0.23504 0.10148
-0.0083056 0.0078717 0.0021251 0.00042896
-0.00064993 -0.0022098 -0.00040994 -0.00078586 -0.00036014 -0.0011933 -0.0082893 0.007904
0.18098 0.16611 -0.0088071 0.0078892
-0.00028021 0.00041467 -0.00030742 -0.00082983 0.0002016 -0.00058236 0.0021139 0.00041975
-0.0088143 0.0078732 0.22464 0.23258
1640000000 0.29733 0.019732 -0.00043545 0.012085 -0.0029589 -0.0027622 0.0026109 0.00084011
-0.0010659 -0.0011084 -0.00025295 0.00058044
-0.00044889 0.012071 0.20446 0.27139 0.0059401 0.0031102 -0.00075317 -0.0015941
-0.00075158 -0.00037972 -0.00054821 -0.0006159
-0.0029747 -0.0027425 0.0059586 0.0030795 0.30348 -0.15606 -0.00073723 0.0012621
-0.0011047 -0.00083085 -9.5583e-05 -0.0003703
0.0026284 0.0008267 -0.00076452 -0.0015944 -0.00074208 0.0012696 0.24734 0.052211
-0.0041155 0.0075332 0.0023176 -0.00093047
-0.0010615 -0.0011076 -0.00076051 -0.00037212 -0.0011131 -0.00082454 -0.0040959 0.0075584
0.20439 0.14016 -0.0038646 0.0098804
-0.00024419 0.00058529 -0.00054601 -0.00061125 -0.0001072 -0.00036882 0.0023076 -0.00094063
-0.0038669 0.0098725 0.24976 0.20094
1700000000 0.28921 -0.025315 0.0027864 0.008852 -0.0036755 0.00013902 0.0028614 -0.0012703
-0.001942 -0.00025229 0.00058193 0.00037035
0.0027786 0.0088472 0.22207 0.24029 0.0038402 0.00024509 -0.0013518 -0.00050635
-0.00064127 -0.00013345 -0.0009357 -0.00039825
-0.0036718 0.00014725 0.0038476 0.00023427 0.2605 -0.1961 0.00034262 0.0014996
-0.0018196 -0.00016284 -0.00057893 -0.00099494
0.0028559 -0.0012993 -0.001364 -0.00051633 0.00034252 0.0014988 0.24395 0.0019947
-0.0023474 0.0066918 0.0012894 -0.002255
-0.0019487 -0.00024557 -0.00064108 -0.00012707 -0.001821 -0.0001541 -0.0023306 0.0067062
0.22183 0.11803 0.00083485 0.0097502
0.00058356 0.00036791 -0.00093851 -0.0003905 -0.00059931 -0.0010078 0.0012817 -0.0022638
0.00084278 0.009751 0.26548 0.16641
1760000000 0.27614 -0.07318 0.0045326 0.0053352 -0.0024453 0.0008992 0.0011728 -0.003321
-0.00099449 0.00082334 0.00035646 -0.00050094
0.0045252 0.005332 0.24775 0.20094 0.0014492 -0.0014846 -0.0010943 0.00022245
-0.0011226 0.00065135 -0.00059814 0.00053361
-0.0024269 0.00090129 0.0014454 -0.0014995 0.21196 -0.23008 0.00094677 0.001219
-0.0010285 0.0013437 -0.0014954 -0.00043617
0.001164 -0.0033327 -0.0010961 0.00022957 0.00094021 0.0012174 0.23435 -0.049702
-0.0007189 0.0053829 -0.00044112 -0.0024649
-0.00098609 0.00083228 -0.0011202 0.00066007 -0.0010236 0.0013477 -0.00069 0.0053798
0.23619 0.081027 0.0048081 0.0067347
0.00034342 -0.00050892 -0.00059176 0.00053777 -0.0014902 -0.000418 -0.00045135 -0.0024568
0.0048027 0.0067187 0.27745 0.12826
1820000000 0.25111 -0.10959 0.0042885 0.0019628 -0.00010047 0.002567 -0.0010728 -0.0030123
-0.0006336 0.00066887 -3.6789e-05 -9.7343e-05
0.004276 0.0019625 0.25772 0.17137 -0.00050832 -3.1241e-05 -0.0013037 0.00084222
-0.00032166 0.0012486 -0.00052728 0.00056129
-7.2109e-05 0.0025817 -0.00050825 -2.0875e-05 0.16175 -0.24539 0.0015139 0.00046672
-0.00036434 0.0022184 -0.0016014 0.00059416
-0.0010886 -0.0030172 -0.0012937 0.0008491 0.0015011 0.00047451 0.20392 -0.096834
-0.00065908 0.0039451 -0.0017353 -0.0015752
-0.00063721 0.00068321 -0.00030896 0.0012465 -0.00035618 0.0022172 -0.00064682 0.0039418
0.25194 0.04956 0.0055327 0.0028773
-3.6183e-05 -9.7838e-05 -0.00052366 0.00055799 -0.0016068 0.00059515 -0.0017308 -0.0015655
0.0055268 0.0028714 0.27903 0.09174
1880000000 0.21592 -0.14891 0.0018576 1.7636e-05 -0.00033868 0.0023506 -0.0028583 -0.0020995
-0.00010961 0.0012576 0.00040481 -0.00047433
0.0018497 2.1862e-05 0.26236 0.12523 -0.0024401 0.0016801 -0.00017643 0.0016331
0.0004492 0.0014327 0.00025834 0.0010431
-0.00031089 0.0023695 -0.0024506 0.0016996 0.10926 -0.2556 0.002033 -0.0008927
0.0014422 0.0020064 -0.00084868 0.0016388
-0.002861 -0.0020942 -0.00017567 0.0016313 0.0020311 -0.00089156 0.16301 -0.13653
-0.0011448 0.003079 -0.0025845 0.00057089
-9.2366e-05 0.0012751 0.00046241 0.0014293 0.0014426 0.0020026 -0.0011304 0.0030777
0.25297 0.015143 0.0048959 0.00052733
0.00039554 -0.00047912 0.00026459 0.0010442 -0.00084318 0.0016369 -0.0025948 0.00057998
0.0049004 0.00050749 0.27786 0.05731
1940000000 0.17691 -0.17421 -0.00035589 -0.0013932 0.0014811 0.0019944 -0.0037067 0.0006436
0.0010136 0.00099607 -0.00053163 -0.0006706
-0.00035674 -0.0014002 0.2631 0.093561 -0.0013125 0.0039612 0.0009338 0.0013307
0.0019252 0.00080432 0.00096582 0.00032038
0.0014994 0.0019917 -0.0012815 0.0039707 0.063188 -0.24944 0.0005263 -0.002391
0.0025527 0.0005436 0.00064145 0.001811
-0.0036994 0.00066316 0.00094519 0.00132 0.00052916 -0.0023933 0.11032 -0.16657
-0.0027344 0.0030113 -0.0016347 0.0017889
0.0010173 0.00098759 0.0019403 0.00079632 0.0025563 0.00052676 -0.0027328 0.003011
0.25183 -0.025323 0.0033041 -0.0027938
-0.00055054 -0.00066651 0.00096352 0.00030484 0.00063848 0.0018025 -0.0016342 0.0017971
0.003312 -0.0027953 0.2659 0.021034
2000000000 0.13092 -0.18837 -0.0040388 0.0007628 0.0025818 0.0014928 -0.0022064 0.0036102
0.00089155 0.00037317 -0.00069792 0.00037374
-0.0040331 0.00076146 0.24921 0.058059 -0.00092437 0.0057811 0.0016757 0.00040898
0.0016427 -0.0011967 0.0005147 -5.4929e-06
0.0025825 0.0014741 -0.00090942 0.0058062 0.019313 -0.23496 -0.0014595 -0.0015536
0.0020893 -0.0012056 0.0017467 0.0012134
-0.0021847 0.0036152 0.0016779 0.00039983 -0.0014588 -0.0015641 0.057276 -0.17577
-0.0040535 0.0043515 -6.6112e-05 0.0024469
0.00089679 0.00035715 0.0016321 -0.0012163 0.0020923 -0.001218 -0.0040384 0.0043576
