!Keysight Technologies,M9804A,MY58100912,A.14.10.03
!Date: Thursday, April 27, 2023 10:28:33
!Correction: S11(C  6-Port  ) 
!S12(C  6-Port  ) 
!S13(C  6-Port  ) 
!S14(C  6-Port  ) 
!S15(C  6-Port  ) 
!S16(C  6-Port  ) 
!S21(C  6-Port  ) 
!S22(C  6-Port  ) 
!S23(C  6-Port  ) 
!S24(C  6-Port  ) 
!S25(C  6-Port  ) 
!S26(C  6-Port  ) 
!S31(C  6-Port  ) 
!S32(C  6-Port  ) 
!S33(C  6-Port  ) 
!S34(C  6-Port  ) 
!S35(C  6-Port  ) 
!S36(C  6-Port  ) 
!S41(C  6-Port  ) 
!S42(C  6-Port  ) 
!S43(C  6-Port  ) 
!S44(C  6-Port  ) 
!S45(C  6-Port  ) 
!S46(C  6-Port  ) 
!S51(C  6-Port  ) 
!S52(C  6-Port  ) 
!S53(C  6-Port  ) 
!S54(C  6-Port  ) 
!S55(C  6-Port  ) 
!S56(C  6-Port  ) 
!S61(C  6-Port  ) 
!S62(C  6-Port  ) 
!S63(C  6-Port  ) 
!S64(C  6-Port  ) 
!S65(C  6-Port  ) 
!S66(C  6-Port  ) 
!S6P File: Measurement: :
# Hz S  RI   R 50
500000000 -0.33641 -0.035595 -0.010319 -0.0037627 -0.00832 0.011991 -0.0036165 0.011639
0.01209 0.0047947 -0.0035141 0.0083267
-0.0097973 -0.0037516 -0.41967 -0.049845 0.0070256 -0.011451 0.0013032 0.011806
0.0072775 0.0023233 0.0010395 0.012688
-0.0084125 0.012405 0.0070369 -0.011397 -0.26611 0.21134 0.0066387 0.0032586
-0.00059419 0.0088079 0.00058592 0.011756
-0.0023476 0.011502 0.00059771 0.011793 0.0065726 0.0033478 -0.32815 0.047344
-0.020514 -0.0041657 0.01717 0.025353
0.012894 0.0044514 0.0078164 0.0025554 -0.00048837 0.0083615 -0.020401 -0.0041723
-0.22726 -0.18519 -0.028184 0.0053865
-0.0026585 0.0065329 0.00017552 0.012605 0.00052565 0.011802 0.017162 0.025278
-0.027904 0.0051442 -0.27387 -0.11175
560000000 -0.31604 0.12462 -0.024026 -0.062938 1.8719e-05 0.012412 0.0061739 0.0098756
0.010641 0.0044928 0.0097448 0.007358
-0.025321 -0.062131 -0.37646 0.10907 -0.041202 -0.036101 0.013824 0.0038961
-0.01361 -0.0045394 0.0041072 -0.0005867
-0.00010928 0.012482 -0.042568 -0.036785 -0.18415 0.26019 -0.0002647 -0.0046584
0.019189 0.0046349 0.0071872 -0.0054774
0.0057892 0.0090189 0.013616 0.0029825 0.00017396 -0.0049105 -0.30291 0.13632
0.0028755 -0.024391 0.0045187 -0.019489
0.010422 0.0045091 -0.015215 -0.0038291 0.01868 0.0049221 0.0031584 -0.024196
-0.28711 -0.0089625 0.0069353 -0.049571
0.0084629 0.0080539 0.0049071 -0.00028355 0.0073886 -0.0058566 0.0043321 -0.019185
0.0070063 -0.04964 -0.33123 0.034533
620000000 -0.27294 0.10949 -0.023368 0.0076684 0.0039844 0.0087943 0.0067808 -0.0052981
0.011452 -0.00079812 0.00081416 -0.0019102
-0.023315 0.0074996 -0.40264 0.062658 -0.018678 -0.00019799 -0.0012819 -0.0020702
0.010632 -0.0072571 0.0011761 -0.0028212
0.0043054 0.008586 -0.018779 9.3654e-05 -0.15296 0.26809 -0.0011145 -0.0053973
-0.0035728 -0.0032687 0.0082357 -0.0036333
0.0078084 -0.0053601 -0.0014866 -0.0016798 -0.0012195 -0.0054528 -0.26182 0.14648
-0.039425 -0.017884 0.014569 0.024156
0.011057 -0.00033535 0.010806 -0.007574 -0.0033947 -0.0033591 -0.039503 -0.017809
-0.20647 -0.049752 -0.040582 0.014937
0.00079205 -0.0027991 0.00089011 -0.0024639 0.0083883 -0.0033423 0.014599 0.024324
-0.040737 0.01462 -0.25056 -0.0011189
680000000 -0.23334 0.19445 -0.027787 -0.013185 0.0051571 0.005091 0.0013883 -0.007627
-0.002877 -0.011231 0.0045585 -0.0069981
-0.028139 -0.013084 -0.38694 0.15986 -0.032749 -0.0010459 -0.0016646 -0.00034108
-0.0023914 -0.0092735 -0.00093823 -0.0019711
0.0049529 0.005368 -0.032817 -0.0010429 -0.10147 0.28798 -0.00082586 -3.8583e-05
-0.0020581 0.00066345 -0.0030135 -0.0094231
0.0010346 -0.0080628 -0.0015526 -0.0006802 -0.00087311 -5.0357e-05 -0.2193 0.1959
-0.023653 -0.0072435 -0.0087597 -0.0099782
-0.0036937 -0.011406 -0.0026074 -0.0087099 -0.0019717 0.00089412 -0.023763 -0.0071199
-0.25395 0.050114 -0.0065123 -0.008923
0.0036862 -0.0058549 -0.00017222 -0.0024163 -0.0029341 -0.0097498 -0.0086877 -0.0099881
-0.0064347 -0.0088224 -0.25899 0.10053
740000000 -0.18929 0.1889 -0.038028 0.02695 0.01267 -0.0052042 -0.00069714 -0.0038582
-0.0043569 -0.0032717 -0.0063211 0.0035476
-0.037614 0.026861 -0.33496 0.17894 -0.034653 0.035311 -0.00086228 -0.0064018
-0.011834 0.0085388 -0.0029259 -0.0066153
0.01311 -0.0052769 -0.035068 0.035611 -0.068082 0.28595 -0.0017395 0.0032852
-0.0030434 -0.0042141 -0.0011951 0.0002604
-0.00034952 -0.0038926 -0.00075085 -0.0060799 -0.0015651 0.0032403 -0.20214 0.20327
-0.042536 -0.0069885 0.022184 0.013237
-0.0037043 -0.0032493 -0.011747 0.0078167 -0.0028724 -0.0041154 -0.042685 -0.0072231
-0.15636 0.075238 -0.041723 0.00088189
-0.0065754 0.0030762 -0.003178 -0.0052079 -0.0011568 0.00016406 0.022189 0.013213
-0.041886 0.00091004 -0.24626 0.10649
800000000 -0.15593 0.22883 -0.022009 0.017391 0.0055166 -0.010623 -0.0046451 -0.0017871
-0.0040999 0.0023414 0.004187 0.00078932
-0.022145 0.017228 -0.33696 0.24823 -0.007671 0.034217 -0.0021493 0.0022955
-0.0009253 0.0034163 0.0011086 0.0052187
0.0054634 -0.010581 -0.0075627 0.034298 -0.027299 0.30895 0.0011365 0.001599
0.00062659 0.0035456 -0.0017978 0.0011786
-0.0052085 -0.001853 -0.0022508 0.0023474 0.001131 0.0015192 -0.17408 0.2308
-0.028079 0.013293 0.013423 -0.0097655
-0.0040572 0.0024853 -0.00045172 0.0036374 0.0006023 0.0035866 -0.028061 0.01339
-0.20074 0.098483 -0.017045 0.017776
0.00349 0.0011829 0.0013618 0.0051791 -0.0016085 0.0012225 0.013473 -0.0098383
-0.017 0.017764 -0.2372 0.15776
860000000 -0.12227 0.24911 -0.016837 0.031058 -0.0033365 -0.010131 -0.0023425 0.0012118
0.004006 0.0049418 -0.0031242 -0.0027525
-0.016689 0.030968 -0.28932 0.29002 0.0083121 0.034346 5.9169e-05 0.0021637
0.0043031 0.0004765 0.0034445 0.00021038
-0.0034537 -0.010204 0.0084975 0.034387 0.0207 0.31702 -0.00039707 -0.00015296
0.0027013 -0.0015919 0.0017452 0.0041068
-0.0020656 0.0011218 -5.7116e-05 0.0023067 -0.00045936 -0.00013377 -0.13856 0.24239
-0.017525 0.018974 -0.0057184 -0.0090378
0.0040722 0.0052353 0.0045509 0.00022501 0.0026841 -0.001793 -0.017622 0.019202
-0.15032 0.14633 -0.023657 0.015335
-0.0032834 -0.0030368 0.0031088 0.00031059 0.0016175 0.0040968 -0.0056328 -0.0090632
-0.023624 0.015311 -0.18696 0.19938
920000000 -0.096585 0.27213 0.0057158 0.037569 -0.0096499 -0.0046013 -0.0018312 0.0021059
0.0013517 0.0016908 0.0026204 -0.0016334
0.0056778 0.037512 -0.26051 0.31074 0.028448 0.021564 0.0015836 0.00099817
0.0070885 -0.00067925 0.0040941 -0.0030287
-0.0095505 -0.004569 0.028596 0.02147 0.067075 0.31766 0.0017785 -0.000236
0.0012938 -0.0004787 0.00072718 -0.0012413
-0.0016726 0.0023378 0.0017034 0.00097219 0.0018294 -0.00021688 -0.11423 0.25893
-0.0096431 0.03039 0.0027813 -0.0069366
0.0014436 0.0016387 0.0070506 -0.00084602 0.0013468 -0.00050243 -0.0095737 0.030436
-0.14008 0.15219 -0.0017166 0.027303
0.0026371 -0.0014799 0.0041313 -0.0031979 0.00061877 -0.0013413 0.0027518 -0.0069786
-0.0016991 0.027325 -0.19222 0.21344
980000000 -0.049745 0.29156 0.017895 0.029768 -0.0091646 0.004507 0.0023122 0.0037032
0.0040351 -0.001683 -0.0029695 -0.0021071
0.01793 0.029745 -0.20804 0.34439 0.033437 0.0043538 0.0020609 -8.062e-05
0.0012184 -0.0063288 -0.00056894 -0.0022297
-0.0091254 0.0045216 0.033408 0.004263 0.11357 0.31117 0.00042701 -0.0012315
-3.1759e-05 -0.0022583 0.0013986 -8.4129e-05
0.0022077 0.0036545 0.001975 -1.5606e-05 0.00044332 -0.0012674 -0.076002 0.27042
0.0083017 0.028794 -0.0090548 -0.0069468
0.0039111 -0.0016097 0.0012361 -0.0061821 -8.1092e-05 -0.0022833 0.0083616 0.028784
-0.10779 0.17904 0.0051641 0.018815
-0.0029996 -0.0020699 -0.00083456 -0.0023657 0.0013702 -0.00010353 -0.0090451 -0.0069401
0.0051425 0.018805 -0.14927 0.25732
1040000000 -0.0069074 0.29974 0.033522 0.01753 -0.0013711 0.0069789 0.0026887 0.00075446
-5.0068e-05 -0.0037026 -0.00062143 -0.0015651
0.033471 0.017473 -0.1727 0.35755 0.02932 -0.015448 0.001456 -0.0017783
-0.0026724 -0.0026654 -0.0015387 -0.002672
-0.0012942 0.0069514 0.02925 -0.015543 0.16023 0.29747 -0.00058532 -0.0014632
-0.0016439 -0.00080421 -0.00052633 -0.0011239
0.0026929 0.00074694 0.001382 -0.0017528 -0.00057749 -0.0014521 -0.048295 0.28039
0.019448 0.016792 -0.0032496 0.001674
3.5413e-05 -0.0037442 -0.0025606 -0.0027227 -0.0016571 -0.00076778 0.019505 0.016754
-0.076939 0.1869 0.014024 0.017417
-0.00058129 -0.0017097 -0.0016058 -0.0028115 -0.00046803 -0.001184 -0.0032601 0.0016696
0.013975 0.017383 -0.12712 0.27636
1100000000 0.038392 0.30715 0.03578 -0.0049689 0.0028336 0.0038794 0.0025349 -0.001318
-0.0020791 -0.0031229 -0.0039669 0.00017006
0.035787 -0.0049546 -0.12919 0.37492 0.014843 -0.028423 -4.9717e-05 -0.0018442
-0.0034661 -0.00047872 -0.003456 -0.00044312
0.0028094 0.0038663 0.014689 -0.028537 0.2071 0.27659 -0.001848 0.0003234
-0.001822 0.00079901 -0.00096056 -0.00026422
0.0025404 -0.0012697 -0.00012436 -0.0018626 -0.0018598 0.00032152 -0.0077636 0.28535
0.023756 0.0038874 -0.0027378 0.00076643
-0.0020887 -0.0032448 -0.0035709 -0.00034766 -0.0018167 0.00080311 0.023753 0.0038457
-0.059235 0.19965 0.019007 0.0080256
-0.0040349 0.00013598 -0.0034073 -0.00042012 -0.00094795 -0.00024059 -0.0027185 0.00075578
0.019002 0.0080291 -0.080575 0.30397
1160000000 0.089922 0.302 0.023552 -0.02154 0.0025576 -0.00038433 -0.00011924 -0.002441
-0.0040982 -0.00058778 -0.00099069 0.0038289
0.023517 -0.021404 -0.085264 0.37944 -0.0044723 -0.029407 -0.0018315 -0.0016719
-0.0025286 0.0029154 -0.0012259 0.0016831
0.0025517 -0.00044483 -0.0046343 -0.029387 0.25046 0.24486 -0.00059301 0.0018547
-0.000282 0.0019462 -0.0009443 0.00011841
-0.00011394 -0.0023906 -0.0018122 -0.0016117 -0.00066342 0.0018888 0.031694 0.28244
0.019517 -0.011317 -0.0029299 0.0055074
-0.0040898 -0.0005175 -0.002612 0.0027016 -0.00031597 0.0020052 0.019552 -0.011339
-0.026722 0.20867 0.017777 -8.5711e-05
-0.00091418 0.0038085 -0.0013423 0.0019961 -0.00088593 8.8381e-05 -0.0029013 0.0054755
0.017774 -7.9739e-05 -0.033417 0.30637
1220000000 0.13438 0.29042 0.0095863 -0.030499 -0.0016361 -0.0007321 4.4294e-06 -0.0011639
-0.0026773 0.0025387 0.0013656 0.0019326
0.0095885 -0.030402 -0.040356 0.39109 -0.017591 -0.020963 -0.0025467 0.00054578
0.00036126 0.0031457 -0.00065187 0.0018929
-0.0016362 -0.00074399 -0.017721 -0.020911 0.28924 0.20467 0.0010251 0.0016876
0.00072352 0.001193 0.00024552 0.00066943
-8.5424e-05 -0.0011766 -0.0025264 0.00061143 0.0010275 0.0016873 0.071651 0.27387
0.0086958 -0.01707 0.0023367 0.001839
-0.0027166 0.0025353 0.00041808 0.0031037 0.00074278 0.0012152 0.0086623 -0.017081
-0.0038628 0.21838 0.013422 -0.013082
0.0012405 0.0019507 -0.00069998 0.0020238 0.00027769 0.00067954 0.0023304 0.0018223
0.0134 -0.013081 -0.0010977 0.32148
1280000000 0.18429 0.26793 -0.0089179 -0.028475 -0.0017828 0.00279 -0.0010699 -0.0020684
-0.00069864 0.003212 0.0025328 0.001012
-0.0088945 -0.028462 0.0061494 0.3818 -0.024275 -0.0079492 -0.00093284 0.0016202
0.001921 0.0016209 0.00064734 0.0019133
-0.0018231 0.0028162 -0.024343 -0.0078766 0.31893 0.16016 0.0015203 -0.00029589
0.0011012 -5.4172e-06 0.00027305 0.00032525
-0.0010854 -0.0020253 -0.00092404 0.0015906 0.0014997 -0.00028409 0.10815 0.25746
-0.0010286 -0.018377 0.00025661 0.00031795
-0.00064532 0.0032252 0.0018599 0.0015961 0.0011099 -3.433e-05 -0.0010467 -0.018377
0.03276 0.22264 0.0024682 -0.01511
0.0026438 0.0010422 0.00076013 0.0019974 0.00019012 0.00033307 0.00026775 0.000309
0.0024859 -0.015091 0.046152 0.32142
1340000000 0.22149 0.23346 -0.018531 -0.018381 0.0010251 0.0045698 -0.0020356 -0.00084193
0.0015539 0.0027303 0.0016991 -0.0015501
-0.018532 -0.01838 0.045883 0.3726 -0.02165 0.0049606 7.2105e-05 0.0019872
0.0019172 0.00042531 0.0014008 0.00083663
0.0010977 0.0045937 -0.021676 0.0051013 0.33981 0.11226 0.00094034 -0.0010289
0.00054112 -0.00047097 9.7321e-05 0.00034904
-0.0019855 -0.00084446 8.9119e-05 0.0019715 0.0009906 -0.0010159 0.14096 0.23713
-0.0097783 -0.014434 0.0011192 0.00045875
0.0015892 0.0027734 0.001903 0.00038104 0.00053119 -0.00043376 -0.0097835 -0.014429
0.063369 0.21865 -0.0043229 -0.013495
0.0016748 -0.0015787 0.0014006 0.00076137 9.7858e-05 0.00033965 0.0011211 0.00045015
-0.0043334 -0.013522 0.084897 0.31557
1400000000 0.25421 0.19452 -0.023792 -0.006512 0.0053645 0.003137 -0.0021309 0.00082195
0.0027158 0.00079331 0.0001233 -0.0014074
-0.023777 -0.0065297 0.082889 0.35873 -0.014509 0.012977 0.0014523 0.0011598
0.00096835 -0.0010815 0.0011563 0.00013551
0.0053793 0.0030987 -0.014482 0.013107 0.3522 0.059383 -4.2288e-05 -0.0015607
5.5237e-05 -0.00040949 0.00031811 0.00022593
-0.0021331 0.00089666 0.0014056 0.0011357 -3.9697e-05 -0.0015602 0.17058 0.20849
-0.014695 -0.0072657 -0.00044331 -0.00036877
0.002705 0.00082191 0.0009715 -0.0010636 5.4907e-05 -0.00037666 -0.014714 -0.0072446
0.096701 0.21412 -0.01078 -0.0083241
0.00019917 -0.0014505 0.0011491 7.6987e-06 0.00032776 0.00023874 -0.00044307 -0.00038495
-0.010775 -0.0083173 0.12867 0.30348
1460000000 0.27654 0.14989 -0.020334 0.0057574 0.0058001 -0.0019315 -0.0015013 0.0019177
0.0021678 -0.00086289 -0.00044873 -0.00086353
-0.020247 0.0057366 0.11657 0.33612 -0.0054648 0.015549 0.0016601 5.7269e-05
0.00062065 -0.0012473 0.0011276 -0.00064971
0.0057838 -0.0019221 -0.0054122 0.015618 0.35803 0.0057155 -0.0013083 -0.0010986
0.00021339 -6.6507e-05 0.00072471 -0.00039743
-0.0015103 0.0018809 0.0016204 2.0444e-05 -0.0012902 -0.0010717 0.19724 0.17938
-0.01447 -0.00051258 -0.00070956 0.0017558
0.002122 -0.00082246 0.0005817 -0.0012319 0.00022953 -0.00013885 -0.014456 -0.00047912
0.12703 0.19959 -0.012229 -0.0022393
-0.00038972 -0.00086245 0.0011434 -0.00071474 0.00074424 -0.00036803 -0.00070081 0.0017487
-0.012248 -0.0022473 0.16158 0.28133
1520000000 0.28798 0.10755 -0.014123 0.011119 0.0032242 -0.0043568 0.00031816 0.0026692
0.0017683 -0.00193 -0.0011638 -6.3203e-05
-0.014134 0.011131 0.14934 0.321 0.0020747 0.013023 0.001521 -0.00085166
-0.00010221 -0.00077653 0.0002784 -0.0010158
0.0032469 -0.0043938 0.0021381 0.01303 0.35125 -0.049924 -0.00096598 -0.00022857
0.00055582 -0.00086797 2.7663e-05 -0.00011259
0.00034703 0.0025927 0.0014731 -0.00085405 -0.00093662 -0.00020798 0.22078 0.14113
-0.012431 0.0044984 0.0014145 0.0017777
0.0017674 -0.0019685 -0.00011433 -0.00080704 0.00054493 -0.00084452 -0.012418 0.0045334
0.15582 0.18484 -0.011809 0.0024558
-0.0012019 -5.5887e-05 0.0002262 -0.0010213 1.0947e-05 -0.00012743 0.001428 0.0017666
-0.011819 0.0024535 0.19367 0.25987
1580000000 0.29635 0.060984 -0.0071158 0.013807 -0.0010379 -0.0049768 0.0015443 0.00178
-0.00064051 -0.0022192 -0.0002843 0.00041593
-0.007119 0.013756 0.17579 0.29616 0.0055645 0.007982 0.00037858 -0.0015377
-0.00041193 -0.00079027 -0.00029904 -0.00082588
-0.00098763 -0.0049603 0.0056196 0.0079423 0.33152 -0.10728 -0.0013741 0.00052813
-0.00035995 -0.0011843 0.00019896 -0.0005694
0.0016122 0.001731 0.00036676 -0.0015232 -0.0014059 0.00050664 0.23505 0.10144
-0.0082805 0.0079496 0.0021357 0.00045815
-0.00060651 -0.002227 -0.00043589 -0.00079517 -0.00034438 -0.0012002 -0.0082646 0.0079651
0.18076 0.16606 -0.0088838 0.0079058
-0.00033721 0.00037188 -0.0002907 -0.00083662 0.00022162 -0.0006099 0.00215 0.00045166
-0.0089062 0.0079066 0.22458 0.23263
1640000000 0.29729 0.019578 -0.00044484 0.012113 -0.002945 -0.0027321 0.0026012 0.00083718
-0.0010779 -0.0011298 -0.0002489 0.00059769
-0.00046475 0.012107 0.20453 0.27134 0.0059477 0.0031431 -0.00074614 -0.0016052
-0.00074813 -0.00036967 -0.00054351 -0.00060864
-0.0029491 -0.0027213 0.00595 0.0030914 0.3034 -0.15621 -0.00073945 0.0012787
-0.001114 -0.00080137 -0.00010868 -0.00036603
0.0025598 0.0008064 -0.0007672 -0.0015807 -0.00074557 0.0012854 0.24734 0.052165
-0.0040598 0.0075939 0.0023502 -0.00093148
-0.0011282 -0.0010996 -0.00079394 -0.00035678 -0.0011081 -0.00079636 -0.0040481 0.0076005
0.2042 0.14016 -0.0039287 0.009921
-0.00021774 0.00069627 -0.00058523 -0.00054322 -7.583e-05 -0.00036396 0.0023443 -0.0009255
-0.0039343 0.0099144 0.24976 0.20097
1700000000 0.28919 -0.025413 0.0027804 0.0088407 -0.0036647 0.00013493 0.0028595 -0.0012955
-0.001964 -0.00025102 0.00058157 0.00038102
0.0027706 0.0088531 0.22215 0.24022 0.0038265 0.00026882 -0.0013652 -0.00051654
-0.00062733 -0.00012511 -0.00092889 -0.00039676
-0.0036907 0.00015887 0.0038147 0.00022031 0.2604 -0.19629 0.00034951 0.0015011
-0.0018413 -0.0001404 -0.00058942 -0.0010023
0.0028917 -0.0013197 -0.0013779 -0.00054114 0.0003337 0.0014988 0.24391 0.0019452
-0.0022878 0.0067179 0.0013134 -0.0022658
-0.0018931 -0.00022061 -0.00061432 -0.00015499 -0.0018012 -0.00019012 -0.0022783 0.0067284
0.2216 0.11812 0.00079312 0.0098173
0.00052274 0.00044696 -0.00094233 -0.0003893 -0.00059974 -0.0010217 0.0013042 -0.0022838
0.00080275 0.009811 0.26543 0.16644
1760000000 0.2761 -0.073294 0.0045702 0.0053798 -0.0024612 0.00089313 0.0011631 -0.0033177
-0.00097287 0.00084458 0.00035897 -0.00049518
0.0045639 0.0053655 0.24783 0.20093 0.0014381 -0.0014748 -0.0011135 0.00022187
-0.0011105 0.00064557 -0.00059557 0.00053323
-0.0024356 0.0009483 0.0014488 -0.0014566 0.212 -0.23007 0.00094607 0.001226
-0.0010265 0.0013664 -0.0014927 -0.00042939
0.0011501 -0.003286 -0.0010918 0.00021261 0.00097893 0.0012606 0.23435 -0.049712
-0.00066136 0.0053499 -0.00042365 -0.002485
-0.00089521 0.000916 -0.001097 0.00066422 -0.0010094 0.0013752 -0.0006351 0.005365
0.23604 0.081187 0.0047987 0.0068117
0.00034722 -0.00052379 -0.00053906 0.00056297 -0.001488 -0.00042725 -0.00043532 -0.0024851
0.0047923 0.0067927 0.27744 0.12833
1820000000 0.25098 -0.10963 0.0042922 0.0019496 -8.2994e-05 0.0025727 -0.0010581 -0.0030096
-0.00063004 0.0006983 -2.9627e-05 -0.00010274
0.0042719 0.0019633 0.2578 0.17133 -0.00048965 -3.0333e-05 -0.0013042 0.00085952
-0.00032794 0.0012415 -0.00051824 0.00055515
-7.9905e-05 0.002605 -0.0005531 -1.749e-07 0.16176 -0.24551 0.0015238 0.00047888
-0.00034771 0.002221 -0.0016039 0.00058326
-0.0011084 -0.002936 -0.0012968 0.00081737 0.001527 0.00045921 0.20392 -0.096874
-0.00061278 0.0039031 -0.0017191 -0.0016077
-0.00065947 0.00074559 -0.00030432 0.0012396 -0.00039045 0.002244 -0.00059587 0.0039099
0.25186 0.049718 0.0055546 0.0029411
-3.8637e-05 -8.0642e-05 -0.00045669 0.00058424 -0.0015828 0.00061877 -0.0017383 -0.0015868
0.0055479 0.0029507 0.27901 0.091762
1880000000 0.21592 -0.14907 0.0018845 -3.6374e-05 -0.00030618 0.0023488 -0.0028501 -0.0021107
-7.5174e-05 0.001256 0.00040361 -0.00048824
0.0019069 1.0382e-05 0.26244 0.12511 -0.0024891 0.0016456 -0.00018756 0.0016411
0.00044944 0.0014264 0.00026349 0.0010451
-0.00036157 0.0023779 -0.0024778 0.001662 0.10917 -0.25574 0.0020288 -0.000916
0.001447 0.0020076 -0.00084491 0.0016343
-0.0029149 -0.0020052 -0.00019713 0.0016223 0.0020306 -0.00097008 0.163 -0.13657
-0.001123 0.0030174 -0.0026098 0.0005436
-0.00012699 0.0013364 0.00049302 0.0014467 0.0014941 0.0020206 -0.0011078 0.0030291
0.25293 0.01534 0.0049465 0.00055574
0.00042456 -0.00056573 0.00027257 0.00091605 -0.0007745 0.0016556 -0.0026264 0.00052834
0.0049499 0.00054339 0.27781 0.057383
1940000000 0.1769 -0.17417 -0.00041609 -0.0014198 0.0015182 0.0019701 -0.003693 0.00066028
0.0010094 0.00099539 -0.00054485 -0.00067682
-0.00035385 -0.0013941 0.26313 0.093472 -0.0012929 0.003966 0.00093667 0.0013516
0.0019007 0.00081582 0.00095951 0.0003215
0.0015179 0.0019068 -0.0012693 0.0039619 0.063115 -0.24931 0.00050269 -0.0023962
0.0025168 0.0005352 0.00063723 0.0018029
-0.0035979 0.00064332 0.00094458 0.0014131 0.00046484 -0.0023652 0.11029 -0.16657
-0.0027584 0.0029499 -0.0016523 0.0017728
0.001114 0.00094807 0.0018706 0.00079488 0.0025098 0.00049042 -0.0027548 0.0029495
0.25191 -0.025182 0.0033867 -0.0027623
-0.00058849 -0.00068801 0.00087101 0.00033386 0.00060625 0.0017965 -0.0016753 0.0017614
0.0033703 -0.002772 0.26594 0.021087
2000000000 0.13094 -0.18842 -0.0040675 0.00074987 0.0026359 0.0015788 -0.0022075 0.0036147
0.00088569 0.00035596 -0.00069771 0.00037841
-0.003996 0.00074536 0.24918 0.057953 -0.00094588 0.0057988 0.0016962 0.00041885
0.0016543 -0.0011926 0.00051452 -1.0199e-05
0.0025756 0.0015764 -0.0010045 0.0057721 0.019242 -0.23493 -0.0014792 -0.0015676
0.002064 -0.0012043 0.0017504 0.0012035
-0.00226 0.0037316 0.0016634 0.00035347 -0.0014096 -0.001509 0.057218 -0.17575
-0.0040844 0.00429 -0.00010279 0.0024354
0.00076536 0.00037088 0.0017076 -0.001302 0.0020872 -0.0012079 -0.0041038 0.0042983
