!Keysight Technologies,M9804A,MY58100912,A.14.10.03
!Date: Thursday, April 27, 2023 10:28:33
!Correction: S11(C  6-Port  ) 
!S12(C  6-Port  ) 
!S13(C  6-Port  ) 
!S14(C  6-Port  ) 
!S15(C  6-Port  ) 
!S16(C  6-Port  ) 
!S21(C  6-Port  ) 
!S22(C  6-Port  ) 
!S23(C  6-Port  ) 
!S24(C  6-Port  ) 
!S25(C  6-Port  ) 
!S26(C  6-Port  ) 
!S31(C  6-Port  ) 
!S32(C  6-Port  ) 
!S33(C  6-Port  ) 
!S34(C  6-Port  ) 
!S35(C  6-Port  ) 
!S36(C  6-Port  ) 
!S41(C  6-Port  ) 
!S42(C  6-Port  ) 
!S43(C  6-Port  ) 
!S44(C  6-Port  ) 
!S45(C  6-Port  ) 
!S46(C  6-Port  ) 
!S51(C  6-Port  ) 
!S52(C  6-Port  ) 
!S53(C  6-Port  ) 
!S54(C  6-Port  ) 
!S55(C  6-Port  ) 
!S56(C  6-Port  ) 
!S61(C  6-Port  ) 
!S62(C  6-Port  ) 
!S63(C  6-Port  ) 
!S64(C  6-Port  ) 
!S65(C  6-Port  ) 
!S66(C  6-Port  ) 
!S6P File: Measurement: :
# Hz S  RI   R 50
500000000 -0.33708 -0.035256 -0.0097883 -0.0034547 -0.0078913 0.011865 -0.0033774 0.011635
0.011951 0.0044681 -0.0033125 0.0081176
-0.0097585 -0.0034378 -0.41905 -0.050084 0.007467 -0.0115 0.0015754 0.011864
0.0074194 0.0027622 0.00097819 0.013158
-0.0078733 0.01187 0.0074374 -0.01153 -0.26494 0.21106 0.0069116 0.0030087
-0.00023662 0.0088012 0.00061752 0.011893
-0.0033752 0.011647 0.0015964 0.011872 0.0069094 0.0030091 -0.32702 0.046912
-0.019881 -0.0041087 0.017807 0.025246
0.011951 0.0044271 0.0074249 0.0027532 -0.00024007 0.0087939 -0.019853 -0.0040863
-0.22453 -0.18648 -0.027543 0.0052602
-0.0033028 0.0081204 0.00099049 0.013172 0.00062439 0.011907 0.017838 0.025197
-0.027557 0.0052563 -0.27186 -0.11535
560000000 -0.31602 0.12449 -0.023982 -0.062856 0.00028996 0.012077 0.0064314 0.0099072
0.010525 0.0041548 0.009901 0.0073192
-0.023929 -0.062763 -0.37608 0.10852 -0.042346 -0.036482 0.013682 0.0036987
-0.013674 -0.0047412 0.0041529 -0.00038153
0.00031399 0.012049 -0.042473 -0.036413 -0.18256 0.259 -0.00066824 -0.0048992
0.019437 0.004486 0.0070275 -0.0059444
0.0064243 0.0099 0.013721 0.003666 -0.0006688 -0.0049148 -0.30262 0.13609
0.0037747 -0.024778 0.0044343 -0.019644
0.010512 0.0041037 -0.013692 -0.0047055 0.019437 0.0044862 0.0037512 -0.024747
-0.28517 -0.010092 0.007641 -0.049861
0.0099465 0.0072687 0.0041387 -0.00038831 0.0070458 -0.0059534 0.0044542 -0.01966
0.007696 -0.049844 -0.33076 0.031274
620000000 -0.27304 0.10925 -0.023228 0.007416 0.0034564 0.0084947 0.0066712 -0.0055947
0.011618 -0.00054752 0.00049933 -0.0024203
-0.023209 0.0074175 -0.40268 0.06224 -0.018891 0.00013075 -0.0011436 -0.0019903
0.010426 -0.007124 0.0013263 -0.0026114
0.0034687 0.0084961 -0.01892 0.00017509 -0.15285 0.26807 -0.0015756 -0.005226
-0.0036602 -0.0033336 0.0082178 -0.0035667
0.0066617 -0.0056227 -0.0011487 -0.0019877 -0.0015766 -0.005227 -0.26161 0.1459
-0.03884 -0.018708 0.014235 0.024045
0.011626 -0.00060077 0.010432 -0.0071681 -0.0036652 -0.0033302 -0.038874 -0.018667
-0.20377 -0.05109 -0.040253 0.014406
0.00049705 -0.0024114 0.0013203 -0.0026196 0.008228 -0.0035698 0.014258 0.024001
-0.040273 0.01438 -0.24922 -0.0055192
680000000 -0.2329 0.19341 -0.027958 -0.01378 0.0048068 0.0049878 0.0010243 -0.007617
-0.0031732 -0.011071 0.004269 -0.0066493
-0.027937 -0.01379 -0.38712 0.15925 -0.032746 -0.001212 -0.0017483 -0.0003389
-0.0027237 -0.0090401 -0.0010475 -0.0019895
0.004815 0.0049868 -0.032782 -0.0011358 -0.10187 0.28742 -0.00075615 6.0304e-05
-0.0022337 0.00067883 -0.0029166 -0.0095385
0.0010084 -0.0076109 -0.0017418 -0.0003413 -0.00075241 5.5923e-05 -0.21909 0.19508
-0.02359 -0.0081643 -0.0085661 -0.010303
-0.0032144 -0.011072 -0.002769 -0.0090514 -0.0022484 0.00068109 -0.023603 -0.0081391
-0.25232 0.046957 -0.0058217 -0.0092883
0.0042738 -0.0066549 -0.0010702 -0.0019944 -0.0029379 -0.0095464 -0.008591 -0.01033
-0.0058067 -0.0092901 -0.25895 0.097435
740000000 -0.18977 0.18821 -0.038481 0.026651 0.01261 -0.0052932 -0.00082298 -0.0039536
-0.0046626 -0.0025974 -0.0062319 0.0033256
-0.038476 0.026613 -0.33475 0.17765 -0.034808 0.035302 -0.00078977 -0.0064719
-0.012005 0.0078254 -0.0023513 -0.0061742
0.012604 -0.0053235 -0.034734 0.035429 -0.068389 0.28603 -0.001461 0.0034189
-0.0025136 -0.0039837 -0.001275 0.0004412
-0.00085424 -0.0039556 -0.00080857 -0.0064647 -0.0014625 0.0034293 -0.20224 0.20253
-0.042936 -0.0082978 0.022193 0.013268
-0.004653 -0.002572 -0.011998 0.0078564 -0.0025095 -0.0039822 -0.042958 -0.0082574
-0.1566 0.072683 -0.041742 4.075e-05
-0.0062349 0.0033298 -0.0023739 -0.0061376 -0.0012966 0.00044795 0.022202 0.013263
-0.041699 4.4658e-05 -0.24678 0.10324
800000000 -0.15735 0.22818 -0.022344 0.017214 0.0053091 -0.010589 -0.0047965 -0.0018995
-0.0039077 0.0025955 0.0044487 0.0010051
-0.022338 0.017191 -0.33758 0.24811 -0.0077364 0.034186 -0.0021748 0.0022531
-0.00062138 0.0034356 0.0010806 0.0053662
0.0052804 -0.010597 -0.0076491 0.034234 -0.02732 0.30908 0.0011445 0.0015668
0.00069908 0.0036107 -0.0017453 0.00097841
-0.0048142 -0.0019007 -0.0021779 0.0022731 0.0011342 0.0015624 -0.17445 0.23031
-0.02836 0.01258 0.012996 -0.0097207
-0.0039124 0.0026155 -0.00060408 0.0034484 0.00070452 0.0036159 -0.028348 0.012619
-0.20114 0.095253 -0.017324 0.017274
0.0044485 0.00099771 0.0010909 0.005382 -0.0017487 0.00097598 0.012974 -0.0097461
-0.017364 0.01727 -0.23826 0.15482
860000000 -0.12258 0.24922 -0.01706 0.031136 -0.0033523 -0.0099348 -0.0023638 0.0012683
0.0041795 0.0050667 -0.0029799 -0.002649
-0.017059 0.031099 -0.28961 0.29012 0.0083029 0.034225 0.00021514 0.0021065
0.0043776 0.00038507 0.0034179 0.00044736
-0.003384 -0.0099205 0.0084183 0.034225 0.021029 0.31698 -0.00041143 -0.00026781
0.0029347 -0.0015946 0.0017261 0.0043128
-0.0023619 0.0012638 0.0002144 0.00211 -0.00041174 -0.00026884 -0.13878 0.24207
-0.018012 0.018742 -0.0060227 -0.0088418
0.0041904 0.0050559 0.0043899 0.00036967 0.0029283 -0.0015946 -0.017982 0.018788
-0.15155 0.14374 -0.02425 0.015305
-0.0029878 -0.00264 0.0034116 0.00043612 0.0017248 0.0042997 -0.0060166 -0.0088349
-0.024271 0.01529 -0.18864 0.19674
920000000 -0.097285 0.27221 0.0054189 0.037693 -0.0094064 -0.0043892 -0.0017964 0.0022471
0.0015084 0.0016611 0.0025393 -0.0014351
0.0054078 0.037646 -0.26054 0.31084 0.028207 0.02163 0.0016494 0.0010389
0.0070173 -0.00075533 0.0039307 -0.0031988
-0.0094244 -0.0043572 0.028313 0.021554 0.067449 0.31735 0.0017709 -0.00018126
0.0012972 -0.00052275 0.00083289 -0.0012272
-0.0017822 0.0022381 0.0016457 0.0010432 0.0017666 -0.00018607 -0.11465 0.2586
-0.010356 0.030273 0.0026952 -0.0066351
0.0014979 0.0016648 0.0070351 -0.0007744 0.0012965 -0.00053047 -0.0103 0.030312
-0.14174 0.14926 -0.0023131 0.027139
0.0025349 -0.0014712 0.0039323 -0.0032188 0.00082903 -0.0012303 0.0026888 -0.0066385
-0.0023302 0.027139 -0.19409 0.21093
980000000 -0.049736 0.29185 0.018059 0.029908 -0.0088841 0.0046641 0.0024463 0.0037286
0.003988 -0.0018271 -0.0029791 -0.0020826
0.018049 0.029885 -0.20769 0.3447 0.033016 0.0044431 0.002047 -4.1242e-05
0.0011732 -0.0063364 -0.00058494 -0.0022055
-0.0088822 0.004694 0.033084 0.0043414 0.11385 0.31062 0.00043986 -0.0011882
7.3398e-05 -0.0021873 0.0014511 -6.8356e-05
0.0024662 0.0037248 0.0020269 -4.0105e-05 0.00043615 -0.0011884 -0.076398 0.27047
0.0075139 0.028935 -0.0091059 -0.0067291
0.0039673 -0.0018519 0.0011464 -0.0063368 6.5873e-05 -0.0021909 0.0075701 0.02893
-0.11015 0.17721 0.0048674 0.018794
-0.0029797 -0.002077 -0.00061278 -0.0022031 0.001455 -7.1626e-05 -0.0091153 -0.0067095
0.0048727 0.018793 -0.15114 0.25583
1040000000 -0.0069704 0.29999 0.033379 0.017662 -0.0011158 0.0068766 0.0027647 0.00067658
-3.2926e-05 -0.0037725 -0.0006504 -0.0015901
0.033362 0.017643 -0.17219 0.35768 0.029124 -0.015064 0.0014813 -0.0017419
-0.0026281 -0.0025092 -0.0015045 -0.002789
-0.0011035 0.006888 0.029112 -0.015202 0.16014 0.29666 -0.00055312 -0.0014168
-0.001608 -0.00079509 -0.00047056 -0.0011637
0.0027758 0.00066557 0.0014706 -0.0017309 -0.00054612 -0.00142 -0.048666 0.28044
0.018644 0.017216 -0.0030942 0.0019624
-6.3439e-05 -0.0037807 -0.0026181 -0.0024839 -0.0016101 -0.00080871 0.018688 0.017191
-0.079569 0.18595 0.013501 0.017767
-0.00065334 -0.0015925 -0.001523 -0.002759 -0.00047386 -0.0011552 -0.0030915 0.0019761
0.013479 0.01776 -0.12921 0.27489
1100000000 0.038544 0.30715 0.035754 -0.0048088 0.0029233 0.0037496 0.0025153 -0.001445
-0.002245 -0.0030548 -0.0039388 0.00013531
0.03573 -0.0047868 -0.12864 0.3747 0.014774 -0.027936 -1.1046e-05 -0.0018144
-0.0032951 -0.00041369 -0.0033729 -0.00050827
0.0029398 0.0037292 0.014687 -0.028027 0.20654 0.27595 -0.001772 0.00027828
-0.0017708 0.00068548 -0.000951 -0.00030838
0.0025159 -0.0014581 -2.6209e-05 -0.0018102 -0.0017708 0.00027837 -0.0079674 0.28549
0.023058 0.0047936 -0.0024166 0.00091238
-0.0022709 -0.0030492 -0.0032935 -0.00039486 -0.0017703 0.00068641 0.023076 0.004759
-0.061499 0.19944 0.018654 0.0084596
-0.0039391 0.00015653 -0.0033863 -0.00049138 -0.00095701 -0.00031182 -0.00242 0.00091442
0.018641 0.0084607 -0.082411 0.30288
1160000000 0.09016 0.30185 0.023611 -0.02113 0.0026447 -0.00048459 -0.00021806 -0.0025339
-0.0040653 -0.00037681 -0.00095753 0.003868
0.023623 -0.021113 -0.084653 0.37883 -0.004152 -0.028957 -0.0017583 -0.0016509
-0.002469 0.0027265 -0.0012332 0.0015554
0.0026308 -0.0005023 -0.0042635 -0.028973 0.24957 0.24468 -0.00058579 0.0017377
-0.00031734 0.001851 -0.00098808 0.00010638
-0.00021321 -0.0025275 -0.0017702 -0.0016362 -0.00057962 0.0017437 0.031646 0.2825
0.019426 -0.010061 -0.0027461 0.0056632
-0.0040757 -0.00036317 -0.0024526 0.0027573 -0.00030761 0.0018442 0.019413 -0.01009
-0.028413 0.20918 0.017299 0.00041399
-0.00093281 0.0038783 -0.0012221 0.0015803 -0.00099161 9.9173e-05 -0.0027216 0.0056756
0.017297 0.00040739 -0.035348 0.30545
1220000000 0.13464 0.29015 0.0098708 -0.030095 -0.0015813 -0.00077393 -0.00016214 -0.001109
-0.0025637 0.0025919 0.0013509 0.0018786
0.0098881 -0.030061 -0.040316 0.39043 -0.017101 -0.020844 -0.0024986 0.00050012
0.00029375 0.0029092 -0.00063667 0.0017867
-0.0015895 -0.00077339 -0.017194 -0.020792 0.28841 0.20519 0.00092507 0.0015884
0.00060739 0.0011178 0.00019564 0.00075014
-0.00016402 -0.0011118 -0.0024994 0.00050696 0.0009239 0.0015958 0.071477 0.27386
0.0092071 -0.015809 0.0026717 0.0017895
-0.00256 0.0026025 0.00030971 0.0029213 0.00060494 0.0011252 0.0091848 -0.015817
-0.0051817 0.21893 0.013319 -0.012305
0.0013662 0.0018744 -0.00063656 0.0017991 0.00019859 0.00074807 0.0026736 0.0017965
0.013322 -0.012298 -0.0034194 0.32084
1280000000 0.18426 0.26754 -0.0083511 -0.028237 -0.0018264 0.0025904 -0.0010959 -0.0019643
-0.00056787 0.0030711 0.0025229 0.0010018
-0.0083136 -0.028205 0.005729 0.38115 -0.023694 -0.0081286 -0.00095947 0.0015181
0.0016953 0.0015386 0.00055416 0.0019312
-0.0018219 0.0025939 -0.023759 -0.008029 0.31853 0.16114 0.001416 -0.00019854
0.0010511 5.8816e-05 0.00028393 0.00041402
-0.001105 -0.0019608 -0.00093938 0.0015172 0.0014166 -0.0001938 0.10799 0.25752
0.00022903 -0.017406 0.00049885 0.00014351
-0.00055137 0.0030683 0.0016976 0.001526 0.0010656 6.0141e-05 0.00019929 -0.017413
0.032075 0.22322 0.0026362 -0.014305
0.0025284 0.0009838 0.00057036 0.0019389 0.00028499 0.00040891 0.00049361 0.00014147
0.0026388 -0.014311 0.044045 0.32121
1340000000 0.22119 0.23311 -0.017918 -0.0186 0.00092319 0.0044294 -0.0019185 -0.00072123
0.0015421 0.0026257 0.0016976 -0.0015344
-0.01789 -0.018587 0.045193 0.37238 -0.021379 0.0044608 1.3991e-05 0.00196
0.0017568 0.00056902 0.0013329 0.00089243
0.0009386 0.0044192 -0.021378 0.0045721 0.34033 0.11307 0.00092603 -0.00088614
0.00063305 -0.00038503 0.00016661 0.00028461
-0.0019145 -0.00072148 2.0127e-05 0.0019646 0.00092432 -0.00088855 0.1408 0.23728
-0.0080908 -0.014309 0.0012908 0.00015702
0.0015601 0.0026122 0.0017605 0.00056048 0.0006299 -0.00038362 -0.0081282 -0.014296
0.062938 0.21884 -0.003641 -0.012908
0.0016919 -0.0015384 0.0013521 0.00087648 0.00016446 0.00029008 0.0012956 0.00015676
-0.0036252 -0.012901 0.082597 0.31554
1400000000 0.25378 0.19433 -0.023393 -0.0070914 0.0051386 0.003044 -0.0019702 0.0007599
0.0025987 0.00068917 0.00016412 -0.0013807
-0.023374 -0.0071001 0.082115 0.35894 -0.014552 0.012431 0.001374 0.0012429
0.00097161 -0.00083438 0.0011697 0.00018243
0.0051507 0.0030221 -0.014522 0.012513 0.35312 0.059596 1.8903e-05 -0.0014164
2.2951e-05 -0.00036149 0.00035262 0.00017147
-0.0019624 0.00076776 0.0013824 0.0012439 1.7855e-05 -0.0014245 0.17046 0.20874
-0.013025 -0.0079867 -0.00047889 -0.00075976
0.0026081 0.00067323 0.00096262 -0.00084798 1.7478e-05 -0.0003621 -0.013055 -0.007952
0.09629 0.2141 -0.0098273 -0.0081324
0.00015633 -0.0013818 0.0011746 0.00018261 0.00035308 0.00018112 -0.00047583 -0.00075638
-0.0098235 -0.0081492 0.12663 0.3039
1460000000 0.27613 0.14989 -0.020295 0.0049896 0.0055577 -0.0017988 -0.0014661 0.0017926
0.0019975 -0.00080163 -0.00040208 -0.00083657
-0.020288 0.0049714 0.11606 0.33682 -0.0059108 0.015164 0.0017083 0.000148
0.00082299 -0.001111 0.0011737 -0.00067308
0.0055437 -0.0018065 -0.0058519 0.015212 0.35885 0.0051556 -0.0011249 -0.0011408
0.0002144 -9.434e-05 0.00072456 -0.00040192
-0.0014568 0.0017857 0.0017075 0.00013644 -0.0011232 -0.0011414 0.19731 0.17971
-0.013412 -0.0021489 -0.00096877 0.0014608
0.0019927 -0.00081262 0.00081947 -0.0011174 0.00021406 -9.9259e-05 -0.013432 -0.002123
0.12659 0.19922 -0.011346 -0.0025639
-0.00041137 -0.00082909 0.0011842 -0.00067886 0.00071939 -0.00040243 -0.00098958 0.0014537
-0.011349 -0.0025726 0.15968 0.28207
1520000000 0.28772 0.10787 -0.014501 0.010518 0.0031105 -0.0041998 0.00018064 0.00256
0.0017055 -0.0017685 -0.0011617 -6.3396e-05
-0.014503 0.0105 0.14925 0.3219 0.0015599 0.012948 0.0015996 -0.00081583
7.5515e-05 -0.00083533 0.0003005 -0.0010266
0.003093 -0.0042039 0.0016257 0.012947 0.35191 -0.050778 -0.00091447 -0.00032439
0.00054899 -0.00081215 1.831e-05 -5.9417e-05
0.00018996 0.0025561 0.0015926 -0.00082255 -0.00091689 -0.00032304 0.22101 0.14149
-0.012508 0.0025441 0.001077 0.0016585
0.0016949 -0.0017821 7.5331e-05 -0.00083823 0.00054935 -0.00081668 -0.012515 0.0025744
0.15486 0.18435 -0.011142 0.0017618
-0.0011615 -5.7065e-05 0.00029858 -0.0010309 1.2289e-05 -5.7933e-05 0.0010777 0.0016571
-0.011136 0.001755 0.19211 0.2609
1580000000 0.29641 0.061356 -0.0077861 0.01345 -0.00093487 -0.0047939 0.0013817 0.0017694
-0.00058088 -0.0021045 -0.00033754 0.00038349
-0.0077874 0.013433 0.17619 0.29705 0.0051861 0.0081739 0.00041131 -0.001591
-0.00037696 -0.00099699 -0.00028945 -0.00086372
-0.00094932 -0.0047869 0.0052236 0.0081546 0.33166 -0.10812 -0.001501 0.00039873
-0.00030111 -0.0011435 0.00017134 -0.0005593
0.0013854 0.0017615 0.00040803 -0.0015938 -0.0014944 0.00039633 0.23554 0.10174
-0.0093862 0.0063495 0.0018188 0.00058161
-0.00059458 -0.0020976 -0.00038366 -0.00099103 -0.00030612 -0.0011432 -0.0093688 0.0063824
0.17954 0.16566 -0.0086856 0.0071244
-0.00033374 0.00039284 -0.00029277 -0.0008598 0.00017473 -0.00056845 0.0018245 0.00057033
-0.0086894 0.0071233 0.2234 0.23358
1640000000 0.29769 0.019846 -0.0011803 0.012231 -0.0027922 -0.0025177 0.0025496 0.00095315
-0.00088789 -0.0010896 -0.00025761 0.00063307
-0.0011915 0.012223 0.20537 0.27195 0.0057388 0.0034143 -0.0007603 -0.0016366
-0.000916 -0.0004874 -0.00056393 -0.00062901
-0.002806 -0.0024989 0.0057615 0.0033818 0.30354 -0.15745 -0.00083594 0.0013143
-0.0011017 -0.000887 -8.6378e-05 -0.00034761
0.0025461 0.00094113 -0.0007706 -0.0016322 -0.00084179 0.0013124 0.24812 0.05209
-0.0058056 0.0069065 0.0021287 -0.00068811
-0.00089983 -0.001085 -0.00092407 -0.00048044 -0.0011076 -0.00087738 -0.0057946 0.0069174
0.2027 0.14013 -0.0041476 0.0090996
-0.00025505 0.00063762 -0.00057318 -0.00062699 -9.4425e-05 -0.00035351 0.0021277 -0.00070251
-0.004159 0.0091024 0.2487 0.20198
1700000000 0.28964 -0.025281 0.0021935 0.0093413 -0.0034099 9.0421e-05 0.0028617 -0.0011324
-0.0018834 -0.00037945 0.00065119 0.00041351
0.002189 0.009338 0.22321 0.24051 0.0037991 0.00065185 -0.0014177 -0.00053248
-0.00078912 -9.393e-05 -0.00095066 -0.00036253
-0.0033999 0.00010358 0.003804 0.00063532 0.25962 -0.19734 0.00031223 0.0016162
-0.0017556 -0.00018701 -0.00061478 -0.00098553
0.0028577 -0.0011456 -0.0014201 -0.00053038 0.00030797 0.0016192 0.24465 0.001396
-0.0039878 0.007094 0.0012209 -0.0020554
-0.0018975 -0.00037078 -0.00080044 -8.7498e-05 -0.0017597 -0.00018568 -0.0039737 0.0071003
0.22008 0.11856 0.00031845 0.0091859
0.0006521 0.00041031 -0.00096044 -0.00035651 -0.00061623 -0.00098955 0.0012173 -0.0020628
0.0003147 0.0091809 0.26435 0.16752
1760000000 0.27676 -0.073517 0.0043981 0.0060717 -0.0022751 0.00084638 0.001292 -0.0032585
-0.00097866 0.00072072 0.00042687 -0.0005244
0.0043856 0.0060737 0.24899 0.20069 0.0016486 -0.0010307 -0.0011159 0.00023822
-0.0011839 0.00083885 -0.00053613 0.00055577
-0.0022719 0.00083829 0.0016456 -0.0010396 0.21061 -0.23007 0.0011222 0.0013132
-0.0011179 0.0013885 -0.0013729 -0.00035411
0.0012772 -0.0032634 -0.0011126 0.00024618 0.0011251 0.0013065 0.23475 -0.050638
-0.0017496 0.0064724 -0.00040558 -0.0022008
-0.00097822 0.00072818 -0.0011752 0.00085168 -0.0011082 0.0014021 -0.0017376 0.0064775
0.2346 0.08196 0.00413 0.006531
0.0004218 -0.0005232 -0.00053605 0.00057014 -0.0013798 -0.00035322 -0.00040281 -0.0022069
0.0041362 0.0065244 0.27646 0.12945
1820000000 0.25144 -0.11042 0.0045344 0.0025525 -9.2818e-05 0.0024066 -0.00088802 -0.0030766
-0.00070844 0.00064858 -1.8493e-05 -0.00020184
0.0045269 0.0025539 0.2587 0.17066 -0.00025936 -2.5518e-05 -0.001316 0.00090021
-0.00021764 0.0013837 -0.00044808 0.00054397
-7.7482e-05 0.0024004 -0.00025987 -2.0961e-05 0.16086 -0.24593 0.0015679 0.00046179
-0.00035477 0.0021104 -0.0014612 0.00052362
-0.00090661 -0.003071 -0.0013134 0.00091139 0.0015596 0.00045629 0.20374 -0.097982
-0.00098038 0.0052003 -0.0016118 -0.001387
-0.00069983 0.00065357 -0.00020033 0.0013911 -0.00035063 0.0021173 -0.00096473 0.0052091
0.25081 0.050809 0.0048459 0.0030366
-1.7312e-05 -0.00020369 -0.00044301 0.00055164 -0.0014527 0.00052305 -0.0016138 -0.0013678
0.0048448 0.0030345 0.27809 0.092999
1880000000 0.21592 -0.14987 0.0023709 0.00034662 -0.00038626 0.0021763 -0.0027901 -0.0022464
-0.00015452 0.0013584 0.00030574 -0.00049915
0.0023694 0.00034994 0.26302 0.1243 -0.0021961 0.0016186 -9.3192e-05 0.0016863
0.00064142 0.0014607 0.00026765 0.00092592
-0.00037599 0.0021741 -0.0021859 0.0016291 0.10859 -0.25552 0.0020674 -0.00102
0.0014957 0.0020381 -0.00085333 0.0014551
-0.0028047 -0.0022341 -8.422e-05 0.0016956 0.0020635 -0.0010201 0.16219 -0.13747
-0.00084877 0.0041669 -0.0023637 0.00063533
-0.00014242 0.0013735 0.00065565 0.0014514 0.0015052 0.0020405 -0.00084315 0.0041705
0.25224 0.016699 0.0044287 0.00083206
0.00030162 -0.00050303 0.00027784 0.00093047 -0.00085025 0.0014551 -0.0023643 0.00064299
0.0044308 0.00083085 0.27709 0.058712
1940000000 0.17631 -0.17511 0.00013355 -0.0014233 0.0014099 0.0019575 -0.0037408 0.00048486
0.0010618 0.00094952 -0.00060339 -0.0006052
0.00014264 -0.0014203 0.26342 0.092484 -0.0011938 0.0038227 0.00099058 0.0012892
0.0020494 0.00064296 0.00088047 0.00021885
0.0014244 0.0019429 -0.0011727 0.0038391 0.062138 -0.24923 0.00040929 -0.0023716
0.0024253 0.00055077 0.00046823 0.0016168
-0.0037344 0.00050544 0.00099906 0.0012791 0.00041473 -0.0023816 0.10921 -0.16699
-0.0020499 0.0037114 -0.0013421 0.0017908
0.0010663 0.00094306 0.0020552 0.00062253 0.00243 0.0005461 -0.0020342 0.003721
0.25166 -0.023824 0.0030852 -0.0022082
-0.00060786 -0.0005993 0.00088295 0.00021179 0.00048177 0.0016152 -0.0013397 0.0018038
0.0030784 -0.0022065 0.26542 0.022477
2000000000 0.13012 -0.18885 -0.0037476 0.00057819 0.002446 0.0014498 -0.0023273 0.0036184
0.00091857 0.00031499 -0.00059551 0.00033237
-0.003754 0.00056803 0.2491 0.057057 -0.00088897 0.0056237 0.001672 0.00028112
0.0016214 -0.0014454 0.00047239 0.00014296
0.0024486 0.0014407 -0.00085346 0.0056366 0.018738 -0.23446 -0.0015734 -0.0015191
0.001992 -0.001271 0.0016214 0.0012882
-0.002305 0.0036347 0.0016766 0.00027643 -0.0015723 -0.0015228 0.056086 -0.17554
-0.0033173 0.0046297 0.00023687 0.0023237
0.00092852 0.00031449 0.0016046 -0.001472 0.0019988 -0.0012838 -0.0033033 0.0046402
