!Keysight Technologies,M9804A,MY58100912,A.14.10.03
!Date: Thursday, April 27, 2023 10:28:33
!Correction: S11(C  6-Port  ) 
!S12(C  6-Port  ) 
!S13(C  6-Port  ) 
!S14(C  6-Port  ) 
!S15(C  6-Port  ) 
!S16(C  6-Port  ) 
!S21(C  6-Port  ) 
!S22(C  6-Port  ) 
!S23(C  6-Port  ) 
!S24(C  6-Port  ) 
!S25(C  6-Port  ) 
!S26(C  6-Port  ) 
!S31(C  6-Port  ) 
!S32(C  6-Port  ) 
!S33(C  6-Port  ) 
!S34(C  6-Port  ) 
!S35(C  6-Port  ) 
!S36(C  6-Port  ) 
!S41(C  6-Port  ) 
!S42(C  6-Port  ) 
!S43(C  6-Port  ) 
!S44(C  6-Port  ) 
!S45(C  6-Port  ) 
!S46(C  6-Port  ) 
!S51(C  6-Port  ) 
!S52(C  6-Port  ) 
!S53(C  6-Port  ) 
!S54(C  6-Port  ) 
!S55(C  6-Port  ) 
!S56(C  6-Port  ) 
!S61(C  6-Port  ) 
!S62(C  6-Port  ) 
!S63(C  6-Port  ) 
!S64(C  6-Port  ) 
!S65(C  6-Port  ) 
!S66(C  6-Port  ) 
!S6P File: Measurement: :
# Hz S  RI   R 50
500000000 -0.33681 -0.0351 -0.0092404 -0.0037475 -0.0076985 0.011269 -0.0032638 0.011736
0.01217 0.0042505 -0.0030029 0.0083081
-0.0097544 -0.0033473 -0.4181 -0.049975 0.0077563 -0.01198 0.0015386 0.011656
0.0073532 0.002622 0.0012324 0.012646
-0.0077112 0.01173 0.0081534 -0.011732 -0.26407 0.21047 0.006946 0.0027026
-9.1744e-05 0.0085341 0.00084544 0.011518
-0.0031519 0.010933 0.0015436 0.011162 0.0070826 0.0027981 -0.3266 0.046928
-0.019287 -0.0040349 0.017707 0.024862
0.012598 0.0040782 0.0075382 0.0025341 -4.1535e-05 0.0085339 -0.019226 -0.004046
-0.22525 -0.18483 -0.026948 0.005358
-0.0031397 0.0066388 0.0015534 0.011991 0.0013419 0.011507 0.017983 0.024501
-0.02713 0.0054059 -0.27264 -0.1128
560000000 -0.31441 0.12477 -0.023509 -0.062881 0.00038189 0.012079 0.0065761 0.0098943
0.010503 0.0040579 0.0097559 0.0070321
-0.023458 -0.062321 -0.37673 0.10817 -0.041777 -0.036388 0.01364 0.0033513
-0.013288 -0.004978 0.0040785 -0.00028211
0.00034258 0.012138 -0.042103 -0.037078 -0.18284 0.25802 -0.00087722 -0.0049969
0.018808 0.0045109 0.007098 -0.0061455
0.0068985 0.0090812 0.012844 0.003732 -0.00073088 -0.0052268 -0.30203 0.13621
0.0040633 -0.025273 0.0045602 -0.019494
0.011109 0.0038745 -0.013852 -0.0032653 0.018503 0.0043609 0.0044027 -0.025102
-0.28477 -0.0092671 0.0082633 -0.050108
0.0090717 0.0073056 0.0030602 -0.00033082 0.0075914 -0.0062924 0.0042547 -0.019399
0.0082385 -0.050109 -0.33055 0.033165
620000000 -0.27366 0.10883 -0.022938 0.0072901 0.0036723 0.00828 0.0067377 -0.0059553
0.011248 -0.0011136 0.00043912 -0.0021399
-0.022927 0.0071245 -0.40233 0.062239 -0.018924 -0.00041976 -0.0012751 -0.0020051
0.010037 -0.0072032 0.0010104 -0.002643
0.0031619 0.008167 -0.018921 -0.00022732 -0.15289 0.26706 -0.0017229 -0.0051769
-0.0040581 -0.0032221 0.0081604 -0.0036033
0.00715 -0.0056755 -0.00093819 -0.0017076 -0.0017434 -0.0052903 -0.26092 0.14576
-0.038373 -0.019101 0.014422 0.023669
0.011145 -0.00080979 0.0098166 -0.0076668 -0.0035754 -0.0025735 -0.038863 -0.018723
-0.20367 -0.050043 -0.039437 0.014251
-0.0004338 -0.0027475 0.0013651 -0.0022824 0.0081275 -0.0034534 0.014196 0.023981
-0.039369 0.014194 -0.24916 -0.0018806
680000000 -0.23267 0.19259 -0.027819 -0.014248 0.004798 0.0050881 0.0011088 -0.0076651
-0.0036089 -0.010927 0.0043148 -0.0063781
-0.027969 -0.014052 -0.38695 0.15884 -0.033023 -0.0012094 -0.0017703 -0.00019097
-0.0027467 -0.0088235 -0.0012687 -0.0018855
0.0047448 0.0050736 -0.033029 -0.0012482 -0.10245 0.28694 -0.00079111 0.00037876
-0.0021738 0.00093954 -0.002991 -0.0094164
0.0010561 -0.0075418 -0.0021896 -6.7884e-05 -0.00085549 0.00030611 -0.21962 0.19494
-0.023567 -0.0087361 -0.0088149 -0.010525
-0.0038717 -0.010791 -0.0026942 -0.0087536 -0.0022904 0.0011594 -0.023741 -0.0087069
-0.25158 0.04729 -0.0058278 -0.009367
0.0039919 -0.0058279 -0.00085925 -0.0027585 -0.0025817 -0.0094832 -0.0086499 -0.010655
-0.0057375 -0.0095301 -0.2583 0.098929
740000000 -0.18956 0.18762 -0.038823 0.026288 0.012444 -0.0051842 -0.00076433 -0.0039056
-0.0046174 -0.0027787 -0.0061448 0.0037482
-0.038445 0.026006 -0.33509 0.17823 -0.035061 0.0352 -0.00054637 -0.0063592
-0.011577 0.0080878 -0.0024732 -0.0061015
0.012504 -0.0053614 -0.035184 0.035307 -0.068928 0.28626 -0.0013866 0.0033832
-0.002558 -0.0038225 -0.001188 0.00040754
-0.00038327 -0.0039027 -0.00067027 -0.006512 -0.001261 0.0034697 -0.20243 0.2024
-0.043091 -0.0084151 0.021685 0.012884
-0.0042915 -0.0029281 -0.010637 0.0084546 -0.0024176 -0.0039091 -0.042888 -0.008527
-0.15701 0.072767 -0.041828 -0.00025092
-0.0064253 0.0031491 -0.0025547 -0.0054375 -0.0011758 0.00042941 0.021519 0.012887
-0.04199 -0.0004124 -0.24623 0.10428
800000000 -0.15757 0.22837 -0.022744 0.017174 0.0052055 -0.010532 -0.0048279 -0.0019241
-0.0039033 0.0027667 0.0043928 0.00108
-0.022795 0.01733 -0.33787 0.24818 -0.0077163 0.034101 -0.0020592 0.0022726
-0.00050407 0.0034242 0.0011579 0.0052854
0.0051986 -0.010235 -0.0078272 0.034235 -0.027415 0.30933 0.0011801 0.0014801
0.00066133 0.0035348 -0.0018345 0.0011257
-0.0052982 -0.0019322 -0.0021864 0.0024153 0.0012518 0.0014658 -0.17465 0.23036
-0.028622 0.012392 0.012684 -0.0097947
-0.0040663 0.0032702 -0.00012587 0.0031835 0.00082154 0.0034209 -0.028616 0.012422
-0.20133 0.095293 -0.01755 0.016961
0.0036094 0.00181 0.00096517 0.0051733 -0.0017586 0.0010894 0.012668 -0.0096894
-0.017583 0.016933 -0.238 0.15623
860000000 -0.12313 0.24937 -0.017272 0.031314 -0.0035804 -0.0097159 -0.0024861 0.0013597
0.0042459 0.0050465 -0.0030465 -0.0027153
-0.017294 0.031231 -0.28965 0.29032 0.0081659 0.034099 0.00028496 0.0020301
0.0044211 9.7273e-05 0.0032355 0.00040188
-0.003583 -0.0096998 0.0083411 0.034145 0.021159 0.31734 -0.00039722 -0.00028578
0.0028623 -0.0015305 0.0015036 0.0044527
-0.0024428 0.001495 0.00017993 0.002149 -0.0005053 -0.00038135 -0.13899 0.24245
-0.018206 0.019129 -0.0060477 -0.008826
0.0045737 0.0052243 0.0048156 -2.1099e-05 0.0027599 -0.0014886 -0.018322 0.019006
-0.15232 0.14464 -0.024654 0.014899
-0.0030093 -0.0027026 0.003111 0.00055453 0.0014875 0.0042758 -0.0060164 -0.008856
-0.024638 0.01486 -0.18817 0.19814
920000000 -0.09741 0.27286 0.0050984 0.037918 -0.0093507 -0.0041772 -0.0018908 0.0024504
0.0013511 0.0014835 0.0024368 -0.0014698
0.0051329 0.037979 -0.26065 0.31124 0.028002 0.021622 0.0015706 0.0011039
0.0066752 -0.00077392 0.0039128 -0.0029664
-0.0093437 -0.004043 0.028211 0.021547 0.067649 0.31742 0.0017428 -9.6806e-05
0.0011954 -0.00042362 0.00092509 -0.00096827
-0.0018312 0.0024972 0.0014052 0.0010968 0.0017177 -0.00018139 -0.11458 0.25903
-0.010574 0.030155 0.0025181 -0.006296
0.0012882 0.0017474 0.0068782 -0.00083724 0.001222 -0.00030902 -0.010538 0.030148
-0.14186 0.15036 -0.0026469 0.027181
0.0024617 -0.0013958 0.0034748 -0.0033551 0.0010881 -0.0010447 0.0025583 -0.0062777
-0.0026294 0.02719 -0.19287 0.21253
980000000 -0.049769 0.29224 0.018014 0.030014 -0.0086009 0.0047637 0.002528 0.0038126
0.0039721 -0.0018518 -0.0029818 -0.0020686
0.017928 0.029958 -0.20736 0.34508 0.032848 0.0045095 0.0019746 -5.9772e-05
0.0011102 -0.0062424 -0.00074106 -0.002159
-0.0086184 0.0047622 0.032921 0.0043583 0.11405 0.31043 0.00043534 -0.0011453
5.6336e-05 -0.0020686 0.0015644 -2.114e-05
0.0026479 0.0038156 0.0019505 6.3813e-05 0.00046487 -0.0011644 -0.076188 0.27072
0.0074006 0.028903 -0.0091689 -0.0066027
0.0038147 -0.0020635 0.00137 -0.0059024 4.5971e-05 -0.0021342 0.0074198 0.028881
-0.11038 0.17841 0.004603 0.018691
-0.0028025 -0.0021502 -0.00060328 -0.0020016 0.0015577 -8.1627e-05 -0.009177 -0.0065653
0.004576 0.018703 -0.15021 0.25701
1040000000 -0.006526 0.30028 0.033399 0.017785 -0.00089646 0.0068609 0.0028323 0.00053596
-0.00010063 -0.0037561 -0.000614 -0.0014458
0.033421 0.017694 -0.17178 0.35797 0.02895 -0.014827 0.0014704 -0.0017363
-0.0026241 -0.0022911 -0.0014355 -0.0026016
-0.00082464 0.0068484 0.02895 -0.01495 0.16005 0.29638 -0.00050933 -0.0014287
-0.0015808 -0.00082878 -0.00038824 -0.001241
0.0028652 0.00052981 0.0014148 -0.0017227 -0.00048722 -0.001404 -0.048368 0.28057
0.018261 0.017388 -0.002979 0.0022789
0.00011829 -0.003801 -0.002601 -0.0022053 -0.0015541 -0.00083181 0.018348 0.017333
-0.079454 0.18734 0.013298 0.017904
-0.0006069 -0.0015861 -0.0014288 -0.0026187 -0.00038167 -0.001196 -0.0029469 0.0023188
0.013238 0.017872 -0.12793 0.27595
1100000000 0.039103 0.30751 0.035667 -0.0045517 0.0030806 0.0036242 0.0025389 -0.0014929
-0.002162 -0.0029439 -0.0037936 0.00010161
0.035655 -0.0044289 -0.1281 0.37478 0.014769 -0.02752 -2.4138e-05 -0.0017736
-0.0030519 -0.00039039 -0.0032972 -0.00050209
0.0030613 0.003636 0.014671 -0.027622 0.20611 0.27578 -0.0017191 0.00024888
-0.0016366 0.0006714 -0.00088113 -0.00043722
0.0025266 -0.001471 1.3236e-05 -0.001772 -0.0017506 0.00023651 -0.0075574 0.28551
0.022697 0.0052094 -0.0021366 0.0010966
-0.0021199 -0.0029804 -0.0032409 -0.00028545 -0.0016638 0.00062003 0.022708 0.0051788
-0.060769 0.20088 0.018377 0.0086424
-0.0038607 0.00012577 -0.0032085 -0.000578 -0.00083063 -0.00037587 -0.0021516 0.0011106
0.018394 0.0086431 -0.080869 0.30365
1160000000 0.090701 0.30181 0.023706 -0.0208 0.0027631 -0.00062566 -0.00027676 -0.0025786
-0.0039556 -0.00036874 -0.00083694 0.0037761
0.023713 -0.020786 -0.084238 0.37841 -0.0038295 -0.028624 -0.0017491 -0.001608
-0.0023794 0.0025477 -0.0011799 0.001583
0.0027166 -0.00071353 -0.0039827 -0.028641 0.2489 0.24483 -0.00057208 0.0016413
-0.00036194 0.0016984 -0.0010049 -1.3144e-06
-0.00022136 -0.0025329 -0.0017397 -0.0015775 -0.00058914 0.0016339 0.031973 0.2822
0.019364 -0.0094376 -0.0024698 0.0055923
-0.0040193 -0.0003589 -0.0024413 0.0024321 -0.0003702 0.0016907 0.019381 -0.0095032
-0.027237 0.21045 0.016973 0.00075622
-0.00072544 0.0037435 -0.0011461 0.0017047 -0.0009958 -1.5174e-05 -0.0024535 0.005586
0.016961 0.00076304 -0.034013 0.30584
1220000000 0.13498 0.28978 0.010193 -0.029836 -0.0015449 -0.00095551 -0.00017878 -0.0010851
-0.0024355 0.0025611 0.0013271 0.0017745
0.01021 -0.029753 -0.040072 0.38989 -0.016632 -0.020684 -0.0024366 0.00044973
0.00026955 0.0027066 -0.00069577 0.0017182
-0.0015656 -0.0009769 -0.016723 -0.020625 0.2879 0.20584 0.00085528 0.0014936
0.000515 0.0011032 0.00013672 0.00071362
-0.00024781 -0.0011153 -0.0024018 0.00048175 0.00084686 0.0015119 0.071509 0.27354
0.0094557 -0.015177 0.0029251 0.0015708
-0.0024989 0.0025695 0.00028502 0.0027214 0.00055776 0.0011237 0.0094475 -0.015213
-0.0034251 0.21963 0.013437 -0.011743
0.001352 0.0018866 -0.00077595 0.0017687 0.00015641 0.00069434 0.0029317 0.0015982
0.013405 -0.011731 -0.0019586 0.32105
1280000000 0.18434 0.26703 -0.0078236 -0.028165 -0.0018523 0.0023297 -0.0011074 -0.0019044
-0.0005111 0.0029547 0.0024124 0.0009308
-0.0077757 -0.028146 0.0056508 0.38049 -0.023188 -0.0082989 -0.00095574 0.0014261
0.0015119 0.0015262 0.00049105 0.0019007
-0.0018907 0.0023273 -0.023256 -0.0082251 0.31865 0.16202 0.00131 -0.00018089
0.00096725 8.4215e-05 0.00025492 0.0004296
-0.0011369 -0.0018263 -0.00093822 0.0013938 0.0013067 -0.00016834 0.10783 0.25733
0.00093266 -0.016929 0.00055807 -0.00010964
-0.00046663 0.0029453 0.0015357 0.0014698 0.00098235 8.4262e-05 0.00090376 -0.016955
0.03382 0.22316 0.0029238 -0.013749
0.0024327 0.00097392 0.00058255 0.0019997 0.0002729 0.00037814 0.0005976 -0.00010509
0.0029454 -0.013729 0.045324 0.32117
1340000000 0.2209 0.23262 -0.017443 -0.018844 0.00075471 0.0042725 -0.0018291 -0.00071474
0.0014554 0.002539 0.00156 -0.0014471
-0.017417 -0.018879 0.044674 0.37203 -0.021127 0.0039946 -7.5283e-05 0.0019125
0.0016059 0.00067565 0.0012701 0.00088617
0.0007313 0.0042692 -0.021166 0.0040912 0.3409 0.11397 0.00089918 -0.00079505
0.00064752 -0.00035202 0.00016817 0.00031799
-0.0017994 -0.00063769 -6.2283e-05 0.0019129 0.0008989 -0.00076442 0.14056 0.23726
-0.0071716 -0.014336 0.0012987 -0.0001376
0.0014783 0.0025195 0.0015841 0.00065697 0.00066099 -0.00033353 -0.0072265 -0.014321
0.064362 0.21824 -0.002888 -0.012574
0.0016118 -0.0014935 0.0012676 0.00074238 0.00011752 0.00029382 0.0012915 -0.00014514
-0.0028919 -0.012577 0.083725 0.31554
1400000000 0.25326 0.19419 -0.023113 -0.0075921 0.004842 0.0030305 -0.0019393 0.00068231
0.0024524 0.00064631 0.00013261 -0.0012933
-0.023098 -0.0076166 0.081547 0.35885 -0.014607 0.011929 0.0013019 0.001288
0.00099459 -0.00070033 0.0011614 0.00023088
0.0048474 0.0029883 -0.01458 0.012048 0.35416 0.059966 0.00010285 -0.001332
6.0117e-05 -0.00036659 0.0003402 0.00016658
-0.0019499 0.00070695 0.0012904 0.0012868 9.4132e-05 -0.0013195 0.17034 0.20894
-0.012152 -0.0085433 -0.00065425 -0.00097815
0.0024545 0.00068688 0.00098442 -0.00073209 4.6564e-05 -0.00035929 -0.012164 -0.0085013
0.097306 0.21326 -0.0090133 -0.0081807
0.00014013 -0.0012842 0.0012133 0.00016074 0.00036152 0.0001708 -0.00065189 -0.00099275
-0.0090181 -0.0081903 0.12775 0.30382
1460000000 0.27559 0.15013 -0.020335 0.0043878 0.0052729 -0.0016216 -0.0015062 0.0017539
0.0018652 -0.00067104 -0.00033688 -0.00078504
-0.020311 0.0044195 0.11551 0.33714 -0.0062858 0.01478 0.0016682 0.00022017
0.00089927 -0.001042 0.0011604 -0.00061549
0.0053078 -0.0016277 -0.006234 0.014835 0.35989 0.0049208 -0.00098568 -0.0011686
0.00023082 -0.00010404 0.00064748 -0.00039049
-0.0015314 0.0017602 0.0016895 0.00019613 -0.00093653 -0.0011494 0.19727 0.18001
-0.012997 -0.003208 -0.0012546 0.0013738
0.0018142 -0.00062409 0.00090608 -0.00099845 0.00024671 -0.00017142 -0.013012 -0.0031499
0.12706 0.19819 -0.010724 -0.0030145
-0.00039943 -0.00081187 0.0011559 -0.00058053 0.00065618 -0.00032197 -0.0012297 0.001381
-0.010717 -0.0030236 0.16092 0.28193
1520000000 0.28733 0.10849 -0.014862 0.010053 0.0030667 -0.0038911 0.00014318 0.0025364
0.0016977 -0.0016202 -0.0010698 -9.8162e-05
-0.014851 0.010042 0.14897 0.32239 0.0011251 0.01288 0.0015901 -0.00077816
0.00015809 -0.00089683 0.00030929 -0.00099037
0.0030806 -0.0039491 0.0011705 0.012905 0.3525 -0.051483 -0.00092561 -0.000421
0.00050118 -0.00077503 -2.8961e-05 -3.8681e-05
0.00014699 0.0025033 0.0015459 -0.00077668 -0.00090188 -0.00044689 0.2212 0.14191
-0.012769 0.0014454 0.00080628 0.0017206
0.0016943 -0.0016442 0.00013705 -0.00093587 0.00051285 -0.00076139 -0.01277 0.0014933
0.15495 0.18362 -0.010839 0.00096807
-0.0011186 -0.00011008 0.0002888 -0.000986 -3.6488e-05 -3.146e-05 0.00079095 0.0017228
-0.01084 0.00094871 0.19359 0.26061
1580000000 0.29642 0.06219 -0.0083513 0.013213 -0.00084972 -0.0046008 0.0013263 0.001807
-0.00048316 -0.0019856 -0.00033415 0.00036379
-0.0083569 0.013238 0.1762 0.29759 0.0048031 0.0083421 0.00045911 -0.0015539
-0.00038892 -0.0010798 -0.00027431 -0.00083274
-0.00082575 -0.0044935 0.0048438 0.0083035 0.33173 -0.10892 -0.0015079 0.00036405
-0.00023702 -0.0010517 0.00015394 -0.00054729
0.0013556 0.0017755 0.00045653 -0.0015324 -0.0015225 0.00040273 0.23604 0.102
-0.010272 0.0055699 0.0016594 0.00076606
-0.00047688 -0.0019894 -0.00036861 -0.0010494 -0.00024396 -0.0010972 -0.010247 0.0056097
0.17942 0.16521 -0.0088176 0.0062882
-0.00033402 0.00036262 -0.00027402 -0.00082596 0.00015693 -0.00050866 0.0016531 0.00074799
-0.008819 0.0062824 0.22487 0.23291
1640000000 0.29818 0.020522 -0.0017541 0.012353 -0.0025657 -0.0025149 0.0025047 0.0010113
-0.00078095 -0.0011321 -0.00028253 0.00063886
-0.001773 0.012347 0.20564 0.27243 0.005614 0.0037249 -0.00068966 -0.001639
-0.00098629 -0.00050727 -0.00054171 -0.00060514
-0.0025836 -0.0024834 0.0055971 0.0036822 0.30316 -0.15802 -0.00089219 0.001278
-0.00099499 -0.00088582 -6.0361e-05 -0.00034172
0.0025136 0.0010084 -0.00071624 -0.0016217 -0.00090127 0.0012725 0.24868 0.052033
-0.0069693 0.0067836 0.0021104 -0.00051472
-0.00077242 -0.0010698 -0.0010125 -0.00046077 -0.000935 -0.00088052 -0.0069557 0.0067959
0.20255 0.14009 -0.0046511 0.0083978
-0.00036551 0.00066204 -0.00058801 -0.00060289 -1.1555e-05 -0.00029048 0.002109 -0.00050309
-0.004666 0.008393 0.24993 0.20102
1700000000 0.2905 -0.025075 0.0017795 0.0097625 -0.003304 0.00011721 0.0028932 -0.0010577
-0.0018159 -0.00048353 0.00061021 0.00043996
0.0017925 0.0097906 0.2237 0.24068 0.0037807 0.00089896 -0.001357 -0.00055943
-0.00083015 -6.5845e-06 -0.00089884 -0.00037164
-0.003359 0.00010418 0.0037759 0.00085695 0.25921 -0.19783 0.00031479 0.0016311
-0.0017223 -0.00026336 -0.00057395 -0.00095954
0.0028984 -0.0010779 -0.0013687 -0.0005569 0.00033323 0.0016596 0.24526 0.0010032
-0.004968 0.0076017 0.0012558 -0.0018977
-0.0017593 -0.00045545 -0.00080303 3.1401e-06 -0.0017138 -0.00026985 -0.0049454 0.0076169
0.22015 0.11874 -0.00040841 0.00887
0.00057302 0.00047315 -0.00091417 -0.00033388 -0.00060494 -0.00094669 0.0012653 -0.0019122
-0.00040893 0.0088569 0.26537 0.1662
1760000000 0.27748 -0.073896 0.0043368 0.0066286 -0.0021373 0.00078442 0.0013731 -0.0032292
-0.001037 0.0006119 0.00041375 -0.00044856
0.0043537 0.0065967 0.24946 0.2006 0.0017321 -0.00085249 -0.0011002 0.00019969
-0.0011363 0.00091295 -0.00056489 0.00053649
-0.0021567 0.00084697 0.0017015 -0.00084312 0.21006 -0.23035 0.0010832 0.0012878
-0.0011461 0.0013495 -0.0013023 -0.00037002
0.0013182 -0.0032015 -0.001109 0.00018862 0.001088 0.0013263 0.23498 -0.05134
-0.0022615 0.0073495 -0.00029561 -0.0020429
-0.0010756 0.0006718 -0.0011271 0.00092106 -0.001144 0.0013803 -0.002237 0.0073582
0.23497 0.082087 0.0033 0.0065935
0.00046861 -0.00038476 -0.00058515 0.000593 -0.0013063 -0.00036196 -0.00029582 -0.0020376
0.0033002 0.0065851 0.27699 0.1281
1820000000 0.25186 -0.11093 0.0047298 0.0029875 1.2258e-05 0.0023793 -0.0008423 -0.0030902
-0.00082553 0.00060112 4.4691e-05 -0.00017903
0.0047475 0.0029834 0.2591 0.17034 -0.00017051 0.00014116 -0.0013446 0.00084218
-0.00010811 0.0013912 -0.00045001 0.00050508
5.572e-05 0.0023983 -0.00014625 0.00013909 0.16023 -0.24581 0.0015538 0.0004313
-0.00045637 0.0020848 -0.0014174 0.00053234
-0.00082988 -0.0030217 -0.0013396 0.00086877 0.0015731 0.00047403 0.20363 -0.098627
-0.00094693 0.0061175 -0.0014695 -0.0012804
-0.00081338 0.00063248 -9.6646e-05 0.0014109 -0.00048999 0.0021216 -0.00093984 0.006117
0.25148 0.05096 0.0041942 0.0033752
1.8579e-06 -0.00018362 -0.00045471 0.00052505 -0.0013476 0.00055886 -0.0014822 -0.001281
0.0041756 0.0033959 0.2783 0.091746
1880000000 0.21589 -0.15057 0.0027396 0.00048398 -0.00035016 0.0019668 -0.0028369 -0.0022716
-0.00023466 0.0014421 0.00039058 -0.00056508
0.0027196 0.00057196 0.26325 0.12372 -0.0020048 0.0017059 -0.00018228 0.0016803
0.00069641 0.001365 0.00022905 0.00094968
-0.00032439 0.002006 -0.0020372 0.0016882 0.10812 -0.25507 0.0019996 -0.0010677
0.0013665 0.0020306 -0.00086299 0.0013572
-0.0028869 -0.0022371 -0.00013863 0.0016605 0.0020059 -0.0010396 0.16176 -0.13802
-0.00044359 0.0048972 -0.0021861 0.00068852
-0.00028213 0.0014353 0.00075665 0.0013372 0.0013864 0.0021004 -0.00042289 0.0049047
0.25298 0.016469 0.0039901 0.0014941
0.00038929 -0.00047085 0.00026235 0.0008647 -0.00078963 0.0013434 -0.0021903 0.00070376
0.0039745 0.0014745 0.27705 0.057453
1940000000 0.17602 -0.17562 0.00048619 -0.0014382 0.0013301 0.0018631 -0.0037405 0.00050527
0.0010571 0.001092 -0.00062773 -0.00072964
0.00046772 -0.001399 0.26336 0.091944 -0.00094739 0.0038866 0.00096837 0.0013647
0.0019931 0.00053755 0.00084703 0.00020848
0.0013226 0.001828 -0.00095135 0.0038875 0.062168 -0.24841 0.00042252 -0.0023532
0.0024368 0.00062245 0.00035992 0.0015775
-0.003743 0.00053019 0.0009435 0.0013793 0.0003976 -0.0023857 0.10861 -0.1672
-0.0013594 0.0041109 -0.001157 0.0016754
0.0011062 0.0010759 0.0019585 0.00049753 0.0024634 0.00061373 -0.0013741 0.0040955
0.25243 -0.024272 0.0029856 -0.0014414
-0.00071351 -0.000792 0.00073917 0.00016297 0.00036792 0.0016727 -0.0011035 0.0016918
0.0029567 -0.0014151 0.26512 0.021508
2000000000 0.12966 -0.18906 -0.0035114 0.00043192 0.0024267 0.0014574 -0.0023229 0.003537
0.0010246 0.00036486 -0.00066779 0.00031841
-0.003491 0.00046494 0.2488 0.056431 -0.00075005 0.0054851 0.0016585 0.00034754
0.0014561 -0.0014652 0.00053525 0.0001403
0.0024612 0.0015089 -0.00070481 0.005524 0.018992 -0.23396 -0.0015381 -0.0014476
0.0020902 -0.0011903 0.0015908 0.0013375
-0.0022735 0.0037215 0.0016362 0.00033212 -0.0014895 -0.001454 0.055599 -0.17547
-0.0026594 0.0046882 0.00029154 0.00209
0.00096395 0.00045422 0.0014647 -0.0015522 0.0020823 -0.0012484 -0.002648 0.0046602
