!Keysight Technologies,M9804A,MY58100912,A.14.10.03
!Date: Thursday, April 27, 2023 10:28:33
!Correction: S11(C  6-Port  ) 
!S12(C  6-Port  ) 
!S13(C  6-Port  ) 
!S14(C  6-Port  ) 
!S15(C  6-Port  ) 
!S16(C  6-Port  ) 
!S21(C  6-Port  ) 
!S22(C  6-Port  ) 
!S23(C  6-Port  ) 
!S24(C  6-Port  ) 
!S25(C  6-Port  ) 
!S26(C  6-Port  ) 
!S31(C  6-Port  ) 
!S32(C  6-Port  ) 
!S33(C  6-Port  ) 
!S34(C  6-Port  ) 
!S35(C  6-Port  ) 
!S36(C  6-Port  ) 
!S41(C  6-Port  ) 
!S42(C  6-Port  ) 
!S43(C  6-Port  ) 
!S44(C  6-Port  ) 
!S45(C  6-Port  ) 
!S46(C  6-Port  ) 
!S51(C  6-Port  ) 
!S52(C  6-Port  ) 
!S53(C  6-Port  ) 
!S54(C  6-Port  ) 
!S55(C  6-Port  ) 
!S56(C  6-Port  ) 
!S61(C  6-Port  ) 
!S62(C  6-Port  ) 
!S63(C  6-Port  ) 
!S64(C  6-Port  ) 
!S65(C  6-Port  ) 
!S66(C  6-Port  ) 
!S6P File: Measurement: :
# Hz S  RI   R 50
500000000 -0.33741 -0.035235 -0.010062 -0.0036173 -0.0080339 0.012183 -0.0035576 0.011747
0.012363 0.0046774 -0.0035017 0.008331
-0.010074 -0.0036337 -0.41965 -0.050049 0.0069618 -0.011327 0.0012423 0.011698
0.0073084 0.0026878 0.00097721 0.012676
-0.0080114 0.012206 0.0069481 -0.011342 -0.26604 0.21144 0.0066569 0.0032061
-0.00049912 0.0088522 0.00053905 0.011751
-0.0035544 0.011751 0.0012771 0.011715 0.0066549 0.0032165 -0.32818 0.047287
-0.020556 -0.0040352 0.017085 0.025342
0.012328 0.0046132 0.0073383 0.0027212 -0.00049241 0.0088597 -0.020561 -0.0040267
-0.22758 -0.18457 -0.028092 0.0053966
-0.0034591 0.0083364 0.0010087 0.012641 0.00050708 0.01176 0.01707 0.025334
-0.028095 0.0053862 -0.27408 -0.11178
560000000 -0.3162 0.12459 -0.024495 -0.062831 9.5417e-05 0.012447 0.0058948 0.01003
0.01035 0.0041764 0.0097586 0.0073825
-0.024456 -0.06282 -0.37648 0.10977 -0.04262 -0.036681 0.013887 0.0039535
-0.013543 -0.0043471 0.0041091 -0.00057496
0.00013434 0.012476 -0.042751 -0.036627 -0.18311 0.25976 -0.00026735 -0.0048242
0.019121 0.0044918 0.0072295 -0.0055379
0.0059731 0.0099985 0.013932 0.0039378 -0.0002863 -0.0048149 -0.30293 0.13612
0.0029447 -0.02435 0.00447 -0.019507
0.010371 0.0041521 -0.013583 -0.0043561 0.01913 0.0044695 0.0029165 -0.024326
-0.28758 -0.0089623 0.0070123 -0.049636
0.0097905 0.0073474 0.0040773 -0.00061015 0.0072372 -0.005498 0.004531 -0.019536
0.0070033 -0.049663 -0.33129 0.034492
620000000 -0.27368 0.10966 -0.023401 0.0075476 0.003983 0.0087956 0.0067418 -0.0053958
0.011718 -0.00092915 0.00079087 -0.0019588
-0.023377 0.0075324 -0.40265 0.062518 -0.018834 0.00014788 -0.001294 -0.0019362
0.010567 -0.0073526 0.0011608 -0.0028614
0.004025 0.0087741 -0.018869 0.00019748 -0.15286 0.26848 -0.0012888 -0.0052169
-0.00368 -0.0033953 0.008246 -0.0036317
0.0067394 -0.0054126 -0.0012921 -0.0019286 -0.0012535 -0.0052028 -0.26216 0.14647
-0.039037 -0.018062 0.014557 0.024123
0.011747 -0.00092186 0.010564 -0.0073837 -0.0037397 -0.0033871 -0.039037 -0.018036
-0.20647 -0.049353 -0.04054 0.014917
0.00077462 -0.0019617 0.0011494 -0.0028206 0.0082329 -0.0035558 0.014546 0.024087
-0.040487 0.014911 -0.25068 -0.0011107
680000000 -0.23309 0.19403 -0.028089 -0.013224 0.0049285 0.0050706 0.0013608 -0.0075911
-0.0030022 -0.011233 0.0045722 -0.0070047
-0.028064 -0.013242 -0.38716 0.15965 -0.032765 -0.0011984 -0.0016888 -0.0002422
-0.0023079 -0.0091437 -0.00094101 -0.0020115
0.0049351 0.0050517 -0.032799 -0.001105 -0.10144 0.28783 -0.00083852 1.6317e-05
-0.0020427 0.00070951 -0.0030036 -0.0094175
0.0013391 -0.0075782 -0.0016851 -0.00024944 -0.00084578 1.4752e-05 -0.21929 0.19593
-0.023748 -0.007322 -0.0087702 -0.0099552
-0.0030213 -0.01125 -0.0023463 -0.0091345 -0.0020502 0.00071583 -0.02377 -0.0073057
-0.25371 0.050134 -0.0065285 -0.0088262
0.0045544 -0.0070511 -0.00095834 -0.0019698 -0.0030015 -0.0093971 -0.0087519 -0.010004
-0.0065299 -0.0088366 -0.25898 0.10071
740000000 -0.18941 0.18894 -0.037859 0.027045 0.012924 -0.0052919 -0.00071226 -0.0039471
-0.0043401 -0.0031755 -0.006268 0.0035269
-0.037833 0.026971 -0.33481 0.17823 -0.034861 0.035357 -0.0008842 -0.006336
-0.011719 0.0086927 -0.0028812 -0.006513
0.0129 -0.0053369 -0.034809 0.035493 -0.068198 0.28586 -0.0017072 0.0032844
-0.0029909 -0.0041973 -0.0012738 0.00029151
-0.00072503 -0.0040029 -0.0009086 -0.0063322 -0.001723 0.0032826 -0.20213 0.20323
-0.042728 -0.0070849 0.02225 0.013222
-0.0044096 -0.0031571 -0.011732 0.0087722 -0.0030311 -0.0042231 -0.042754 -0.0070213
-0.1563 0.074961 -0.041606 0.00088712
-0.0063212 0.0036103 -0.002871 -0.0065892 -0.001264 0.00028943 0.022247 0.013164
-0.04168 0.00077977 -0.24641 0.10667
800000000 -0.15659 0.22865 -0.021961 0.01734 0.005464 -0.010708 -0.0046205 -0.0018013
-0.0040531 0.0024051 0.0041961 0.0008172
-0.021942 0.017335 -0.33713 0.24811 -0.0076194 0.034234 -0.0021254 0.002269
-0.00083104 0.0034288 0.0011285 0.0052282
0.0054602 -0.010707 -0.0075194 0.034287 -0.027303 0.30892 0.001151 0.001582
0.00064415 0.0035366 -0.0017785 0.0011716
-0.0046329 -0.001797 -0.002125 0.0022784 0.001157 0.0015852 -0.17409 0.23082
-0.028138 0.013242 0.013426 -0.0097932
-0.0040443 0.0024161 -0.00082835 0.0034342 0.00064736 0.0035365 -0.028132 0.013304
-0.20053 0.09814 -0.017017 0.017711
0.0041965 0.00079788 0.0011645 0.0052456 -0.0017836 0.0011881 0.013416 -0.0098287
-0.017029 0.017698 -0.23714 0.15791
860000000 -0.12211 0.24925 -0.016761 0.03098 -0.0033061 -0.010199 -0.0022737 0.0011671
0.0040604 0.0050082 -0.003109 -0.0027057
-0.016754 0.030949 -0.28947 0.28986 0.0083961 0.034394 5.7889e-05 0.0021716
0.0043491 0.00042526 0.0034385 0.00020812
-0.0033245 -0.010185 0.0085049 0.034387 0.020723 0.31697 -0.00039641 -0.0001857
0.0027498 -0.0016028 0.001761 0.0041149
-0.0022775 0.0011526 8.5244e-05 0.0021724 -0.00039834 -0.0001808 -0.13848 0.2423
-0.017509 0.019105 -0.0057206 -0.009002
0.0040657 0.0049953 0.0043229 0.00037564 0.0027559 -0.0016055 -0.017502 0.019146
-0.15016 0.14605 -0.023657 0.015365
-0.0031424 -0.002686 0.0034186 0.00021541 0.0017542 0.0040947 -0.0057326 -0.0089788
-0.023649 0.01534 -0.18683 0.19943
920000000 -0.09697 0.27211 0.0055493 0.037537 -0.0096334 -0.0046373 -0.0018188 0.0021244
0.0013455 0.001637 0.0026325 -0.0016473
0.0055243 0.037503 -0.26061 0.31053 0.028447 0.021599 0.0015733 0.00096425
0.0070574 -0.00073134 0.0040505 -0.0030424
-0.0096405 -0.0046012 0.028538 0.021528 0.067049 0.31767 0.0018013 -0.00024984
0.0012671 -0.00053714 0.00069922 -0.0012227
-0.0018113 0.002124 0.0015999 0.00097645 0.0018062 -0.00024575 -0.11423 0.25889
-0.0097169 0.030376 0.002764 -0.0069124
0.0013557 0.001627 0.0070589 -0.00076127 0.0012639 -0.00053267 -0.0096552 0.030418
-0.14006 0.15192 -0.0017134 0.027261
0.002628 -0.0016868 0.0040322 -0.003015 0.00069258 -0.0011914 0.0027516 -0.0069213
-0.0017207 0.027231 -0.19205 0.21344
980000000 -0.049685 0.29165 0.01803 0.02965 -0.0091269 0.0045221 0.0022831 0.0036542
0.0040047 -0.0017224 -0.0029447 -0.0021117
0.017997 0.029621 -0.20804 0.34416 0.033395 0.0043854 0.0020457 -9.1341e-05
0.0011664 -0.0063273 -0.00058825 -0.0022551
-0.009105 0.0045557 0.033448 0.0042574 0.11355 0.31115 0.00042117 -0.0012102
-7.5962e-05 -0.0022816 0.0013709 -9.26e-05
0.0023043 0.0036492 0.0020514 -8.958e-05 0.00041926 -0.0012085 -0.076042 0.27041
0.0082546 0.02882 -0.0090945 -0.006941
0.004002 -0.0017283 0.0011197 -0.0063691 -8.0552e-05 -0.0022892 0.0083241 0.028824
-0.10793 0.17878 0.0051214 0.018727
-0.0029429 -0.002109 -0.00061038 -0.002246 0.0013829 -0.00010009 -0.0090858 -0.006925
0.0051069 0.018705 -0.1491 0.25736
1040000000 -0.0070667 0.29978 0.033553 0.017479 -0.0013731 0.0069301 0.0026764 0.00077169
-4.1625e-05 -0.0036732 -0.00062318 -0.001541
0.033482 0.01748 -0.17268 0.35751 0.029363 -0.015423 0.0014573 -0.0017834
-0.002686 -0.0026535 -0.0015662 -0.0026824
-0.0013401 0.006952 0.029325 -0.015563 0.16018 0.29741 -0.00059386 -0.0014645
-0.0016459 -0.00077295 -0.00053398 -0.0011064
0.0026739 0.00074874 0.001477 -0.0017733 -0.00059581 -0.0014624 -0.048403 0.28039
0.019394 0.016782 -0.003234 0.0017056
-3.5169e-05 -0.0036741 -0.0027221 -0.0026698 -0.001654 -0.00076664 0.019442 0.01676
-0.077259 0.18675 0.013959 0.017375
-0.0006229 -0.0015444 -0.0015678 -0.0026637 -0.0005237 -0.0011119 -0.003237 0.0017196
0.013951 0.017352 -0.12707 0.27637
1100000000 0.038278 0.30701 0.035827 -0.0050884 0.0028206 0.0038301 0.0025054 -0.0013025
-0.0020856 -0.0030906 -0.0039591 0.00019484
0.03579 -0.0050603 -0.12929 0.37467 0.014819 -0.028439 -6.8447e-05 -0.0018337
-0.0034732 -0.0004198 -0.0034664 -0.00042938
0.002845 0.0038349 0.014713 -0.028528 0.20709 0.27661 -0.001816 0.00032659
-0.0018318 0.00080973 -0.00095605 -0.00024522
0.0025134 -0.0013172 -6.0631e-05 -0.0018309 -0.0018169 0.00032968 -0.0077751 0.28536
0.023718 0.0039426 -0.0027197 0.00080008
-0.002084 -0.0030839 -0.0034917 -0.00041291 -0.0018272 0.00081831 0.023743 0.0039036
-0.059503 0.19962 0.018921 0.0080261
-0.0039468 0.00021029 -0.0034741 -0.00039957 -0.00096445 -0.00024931 -0.002711 0.00080803
0.018903 0.0080393 -0.080445 0.30399
1160000000 0.089792 0.30202 0.023525 -0.02153 0.0025532 -0.00040834 -0.00011942 -0.0024337
-0.0040759 -0.00061876 -0.00096568 0.0038432
0.023498 -0.021495 -0.085327 0.37929 -0.0044994 -0.029335 -0.0018412 -0.0016786
-0.0024776 0.002866 -0.0012294 0.001648
0.0025532 -0.00040229 -0.0046377 -0.029358 0.2504 0.24488 -0.0006019 0.0018463
-0.0002647 0.0019587 -0.00093381 0.0001259
-0.00012402 -0.0024335 -0.0018368 -0.0016623 -0.00059716 0.0018456 0.031673 0.28245
0.019543 -0.011239 -0.0029163 0.0055213
-0.0040716 -0.00058628 -0.0024866 0.0028741 -0.00026809 0.00195 0.019547 -0.011268
-0.027004 0.20882 0.017657 -6.3467e-05
-0.00094541 0.003842 -0.00124 0.0016817 -0.00092922 0.00013169 -0.0029051 0.0055257
0.017656 -7.764e-05 -0.033387 0.30636
1220000000 0.13426 0.29042 0.0095627 -0.030477 -0.0016618 -0.00073642 2.5037e-06 -0.0011713
-0.0026562 0.0025097 0.0013567 0.0019214
0.0095726 -0.030441 -0.040503 0.39108 -0.017619 -0.020956 -0.0025401 0.00053392
0.00039798 0.003088 -0.00063128 0.0018791
-0.0016609 -0.00071266 -0.01773 -0.020919 0.28917 0.20468 0.0010064 0.0016861
0.00069616 0.0011944 0.00024928 0.00066442
-1.6835e-06 -0.0011726 -0.0025409 0.00054639 0.0010085 0.0016847 0.071623 0.27388
0.008733 -0.017015 0.0023673 0.0018633
-0.0026382 0.0025321 0.00040977 0.0030808 0.00069534 0.0011875 0.0087118 -0.017033
-0.0040376 0.21865 0.013335 -0.012991
0.0013695 0.0019268 -0.00064766 0.0019013 0.00025662 0.0006748 0.0023753 0.0018555
0.013335 -0.012996 -0.0010414 0.32152
1280000000 0.18403 0.26795 -0.0089457 -0.028447 -0.0017952 0.0028172 -0.0010711 -0.0020883
-0.00069037 0.003197 0.0025392 0.00099479
-0.0089204 -0.028419 0.0059184 0.38177 -0.024243 -0.0079537 -0.00093821 0.001609
0.0019114 0.0016077 0.00064276 0.001919
-0.0017821 0.0028363 -0.024315 -0.0078556 0.31886 0.16025 0.0015223 -0.00029569
0.0010801 -4.1953e-05 0.00027171 0.00031605
-0.0010849 -0.0020796 -0.00092751 0.0016195 0.001529 -0.00029483 0.10813 0.25744
-0.00093992 -0.018328 0.00028218 0.00031962
-0.00067069 0.0032056 0.0019233 0.0016043 0.0010825 -4.2618e-05 -0.00098086 -0.018329
0.032712 0.22289 0.002409 -0.015027
0.0025416 0.00098936 0.00064866 0.0019164 0.00027854 0.00032195 0.00028264 0.00032132
0.0024267 -0.015017 0.0462 0.32141
1340000000 0.2212 0.23363 -0.018565 -0.018324 0.0010601 0.0045922 -0.0020496 -0.00084954
0.0015365 0.0027373 0.0016855 -0.0015425
-0.01853 -0.018335 0.045706 0.37257 -0.021672 0.0049604 6.318e-05 0.0019959
0.0019029 0.00042303 0.0013765 0.00081999
0.0010734 0.0045945 -0.021665 0.0050692 0.33972 0.1123 0.00095144 -0.0010283
0.000537 -0.00046489 0.00010467 0.00034844
-0.0020495 -0.00083985 8.003e-05 0.0019837 0.00095938 -0.0010278 0.14093 0.23714
-0.0096743 -0.01446 0.001154 0.00043201
0.0015555 0.0027315 0.0018963 0.00041373 0.00053545 -0.00046719 -0.0097038 -0.014444
0.063415 0.21896 -0.0043251 -0.013389
0.0016785 -0.0015537 0.0013861 0.00081396 0.00010314 0.0003474 0.0011489 0.00043996
-0.0043201 -0.013383 0.084984 0.31557
1400000000 0.25393 0.19472 -0.023813 -0.0064793 0.0053801 0.0031502 -0.0021298 0.0008368
0.0026884 0.00080411 0.00012558 -0.0013888
-0.023785 -0.0064925 0.082722 0.35872 -0.014524 0.012988 0.0014605 0.001159
0.00095633 -0.0010603 0.0011467 0.00014516
0.0053826 0.0031288 -0.014486 0.013077 0.35211 0.05941 -3.7953e-05 -0.0015403
5.5038e-05 -0.0003912 0.00031894 0.00022037
-0.0021289 0.00084349 0.0014685 0.0011548 -3.6041e-05 -0.0015329 0.17054 0.20848
-0.014612 -0.0073171 -0.00042776 -0.00039115
0.0027005 0.00079251 0.00094808 -0.0010713 5.4152e-05 -0.000392 -0.014628 -0.0072835
0.096815 0.21437 -0.010731 -0.0082156
0.00011553 -0.0013928 0.0011514 0.00013994 0.00031861 0.00021904 -0.00042696 -0.00039261
-0.010731 -0.0082207 0.1288 0.30349
1460000000 0.27636 0.15003 -0.020265 0.0057736 0.0058108 -0.0019203 -0.0015104 0.0019134
0.002146 -0.0008533 -0.00043225 -0.00083656
-0.02024 0.0057409 0.11639 0.33615 -0.0055177 0.015581 0.0016601 5.2289e-05
0.00063611 -0.0012065 0.0011263 -0.00063984
0.0057998 -0.0019449 -0.0054409 0.015621 0.35799 0.0057395 -0.0012917 -0.0010941
0.0002072 -9.1993e-05 0.00072639 -0.00038788
-0.0015053 0.001912 0.0016628 4.4984e-05 -0.0012837 -0.0010892 0.19721 0.17939
-0.014419 -0.00058685 -0.00070584 0.00172
0.0021443 -0.00086995 0.00062229 -0.0012116 0.00020746 -9.2055e-05 -0.014428 -0.00054991
0.12723 0.19978 -0.012142 -0.0021534
-0.00044569 -0.00084675 0.0011272 -0.00063218 0.00072585 -0.00039685 -0.00070731 0.0017147
-0.012151 -0.0021662 0.16168 0.2813
1520000000 0.28786 0.10788 -0.014075 0.011154 0.0032388 -0.004389 0.00032821 0.0026732
0.001782 -0.0018952 -0.0011645 -5.871e-05
-0.014077 0.01113 0.14915 0.32107 0.0020809 0.013018 0.0015155 -0.00084774
-9.6424e-05 -0.00075783 0.0002831 -0.0010193
0.0032075 -0.0044044 0.0021576 0.013016 0.35127 -0.049842 -0.00096043 -0.00022289
0.00053939 -0.00086783 3.4701e-05 -0.00010377
0.00033224 0.0026716 0.0015153 -0.00086773 -0.00095959 -0.00022967 0.22075 0.14116
-0.01244 0.0044046 0.0014087 0.0017423
0.0017496 -0.0019103 -0.00010053 -0.00076368 0.00053895 -0.00087063 -0.012434 0.0044436
0.15606 0.18495 -0.011703 0.0024876
-0.0011691 -4.7581e-05 0.00027633 -0.0010189 2.9627e-05 -0.00010718 0.0014064 0.0017454
-0.011704 0.0024874 0.19384 0.25981
1580000000 0.2963 0.061235 -0.0070844 0.01375 -0.00099697 -0.005002 0.0015463 0.0017792
-0.0006329 -0.0022162 -0.00027608 0.0003967
-0.0070981 0.013734 0.17567 0.2962 0.0055708 0.0079769 0.00036269 -0.0015338
-0.00040326 -0.00079789 -0.00029048 -0.00084347
-0.0010223 -0.0050027 0.0056226 0.0079547 0.33156 -0.10728 -0.0013757 0.00052082
-0.00035363 -0.0011873 0.00019572 -0.00059149
0.0015589 0.0017706 0.00035488 -0.0015398 -0.0013712 0.00052342 0.23503 0.10147
-0.0083443 0.007871 0.0021054 0.00043085
-0.00064938 -0.002206 -0.0004075 -0.00079485 -0.00035973 -0.0011933 -0.0083295 0.0078927
0.18101 0.16606 -0.0087753 0.0078637
-0.00026988 0.00040992 -0.00030145 -0.00083598 0.000184 -0.00058978 0.0021043 0.0004369
-0.0087832 0.0078585 0.22466 0.23254
1640000000 0.29735 0.019873 -0.00043198 0.012059 -0.0029703 -0.0027656 0.0026157 0.0008294
-0.0010597 -0.0011165 -0.00024143 0.00058975
-0.00044565 0.012051 0.20439 0.27142 0.0059448 0.0031129 -0.00075127 -0.0015952
-0.00075261 -0.00038418 -0.00055405 -0.00061123
-0.0029821 -0.0027501 0.005971 0.0030821 0.3035 -0.15604 -0.00073969 0.0012715
-0.0011125 -0.00081713 -7.9892e-05 -0.00037169
0.0026206 0.00082035 -0.00075698 -0.0015967 -0.00074411 0.00127 0.24733 0.052183
-0.0041593 0.0075435 0.0023005 -0.00092989
-0.0010718 -0.001107 -0.00075552 -0.00038143 -0.0011141 -0.00081696 -0.0041466 0.0075587
0.2044 0.14011 -0.0038385 0.0098326
-0.00023736 0.00059218 -0.0005533 -0.00061024 -8.9577e-05 -0.00036086 0.0023032 -0.0009344
-0.0038396 0.0098225 0.24981 0.20089
1700000000 0.28924 -0.025227 0.0027835 0.0088391 -0.0036846 0.00014451 0.0028621 -0.0012837
-0.0019406 -0.00024517 0.00057601 0.00036134
0.0027733 0.0088284 0.22201 0.24033 0.0038395 0.00025615 -0.0013508 -0.00050827
-0.0006344 -0.00012849 -0.00093318 -0.00041268
-0.0036804 0.00016999 0.0038468 0.00023686 0.26051 -0.19613 0.00035151 0.0015013
-0.0018094 -0.00015115 -0.00058979 -0.0010311
0.002863 -0.0013033 -0.0013516 -0.00050802 0.00034851 0.0014965 0.24393 0.001959
-0.0023671 0.0067228 0.0012905 -0.0022535
-0.0019437 -0.00023063 -0.0006373 -0.00012675 -0.0018042 -0.00014573 -0.0023547 0.0067337
0.2218 0.118 0.00084786 0.0097151
0.00057696 0.00035762 -0.00093926 -0.00039942 -0.00060033 -0.0010056 0.0012915 -0.0022577
0.00084314 0.0097088 0.26545 0.16636
1760000000 0.27615 -0.073103 0.0045167 0.0053146 -0.0024225 0.00088758 0.0011821 -0.0033189
-0.00099299 0.00083632 0.00032776 -0.00049066
0.0045137 0.0053109 0.24767 0.20098 0.0014347 -0.0014884 -0.0010938 0.00022811
-0.0011266 0.00065891 -0.00060521 0.00052737
-0.0024233 0.0008988 0.0014282 -0.0014955 0.212 -0.23006 0.00093903 0.0012326
-0.0010271 0.0013449 -0.0014887 -0.00042963
0.0011632 -0.003327 -0.0010942 0.00022699 0.00093697 0.0012189 0.23433 -0.049733
-0.00072402 0.0054162 -0.00044605 -0.0024433
-0.00098613 0.00083665 -0.0011216 0.00066237 -0.0010346 0.0013471 -0.00070411 0.0054187
0.23616 0.080987 0.0047906 0.0066947
0.0003247 -0.00050273 -0.0005977 0.00053514 -0.0014781 -0.00041666 -0.00045259 -0.0024512
0.0047955 0.0066971 0.27747 0.12826
1820000000 0.25115 -0.10952 0.0042703 0.0019558 -9.8565e-05 0.0026006 -0.0010604 -0.0030264
-0.00064284 0.00067294 -4.1291e-05 -9.6892e-05
0.0042567 0.0019557 0.25767 0.17145 -0.00052702 -2.5269e-05 -0.0012969 0.00084624
-0.00031589 0.0012423 -0.00052369 0.0005633
-9.2025e-05 0.0025921 -0.00052307 -2.4095e-05 0.16164 -0.24538 0.0015353 0.00048498
-0.00035058 0.0022315 -0.0016223 0.00060548
-0.001077 -0.0030183 -0.0012935 0.00084935 0.0015376 0.00047923 0.20387 -0.09685
-0.00065215 0.0039895 -0.0017333 -0.0015643
-0.00063377 0.00068199 -0.000314 0.0012542 -0.00035371 0.0022296 -0.00064312 0.0039871
0.25187 0.049558 0.005511 0.0028457
-4.2325e-05 -9.6997e-05 -0.00051653 0.00056687 -0.001607 0.00061615 -0.0017399 -0.001551
0.0055094 0.0028403 0.27903 0.091678
1880000000 0.21595 -0.14887 0.001829 1.7175e-05 -0.00035444 0.0023607 -0.0028424 -0.0021135
-0.00010573 0.001262 0.00041504 -0.0004772
0.001829 2.0053e-05 0.26231 0.12529 -0.0024536 0.0016791 -0.000179 0.0016336
0.00045443 0.0014342 0.00025695 0.0010461
-0.0003383 0.0023551 -0.0024445 0.0016966 0.10926 -0.25562 0.0020349 -0.00091871
0.0014175 0.0020055 -0.00081987 0.0016125
-0.0028434 -0.0020931 -0.00017365 0.0016337 0.0020283 -0.00091763 0.16294 -0.13654
-0.0011227 0.0031067 -0.0025898 0.00057614
-9.3306e-05 0.0012629 0.00046717 0.0014405 0.0014191 0.0019985 -0.0011141 0.0031115
0.2529 0.015154 0.0048733 0.00051746
0.0004068 -0.00048115 0.00026944 0.0010444 -0.00082776 0.0016131 -0.0025907 0.00058313
0.0048671 0.00051592 0.27784 0.057269
1940000000 0.17693 -0.17413 -0.00038274 -0.001392 0.0014738 0.0019855 -0.0036976 0.00064625
0.0010278 0.00099454 -0.0005421 -0.00067094
-0.00038478 -0.0013941 0.26304 0.093615 -0.0013095 0.0039694 0.00093535 0.0013402
0.0019294 0.00080375 0.00096083 0.0003028
0.0014959 0.0019761 -0.0012829 0.0039824 0.063067 -0.24941 0.00054208 -0.0024042
0.0025515 0.00052238 0.00064486 0.0018319
-0.0037012 0.00066183 0.00094363 0.0013299 0.00052392 -0.0023922 0.11023 -0.16655
-0.0027042 0.0030118 -0.0016254 0.0018036
0.0010309 0.00098685 0.0019416 0.00079514 0.0025481 0.00050815 -0.0026886 0.0030157
0.25179 -0.025296 0.0032902 -0.0027838
-0.00054549 -0.00067465 0.0009665 0.00029743 0.00067508 0.0018069 -0.0016287 0.0018023
0.0032759 -0.0027834 0.26592 0.021018
2000000000 0.13091 -0.1883 -0.0040622 0.00074995 0.002558 0.0014858 -0.0021926 0.0036035
0.00089775 0.00038475 -0.00069078 0.00037666
-0.0040426 0.00074953 0.24921 0.058115 -0.00093444 0.0057685 0.0016686 0.00041327
0.0016382 -0.0012032 0.00051644 -1.1267e-05
0.0025796 0.0014818 -0.00089579 0.0057898 0.019258 -0.23499 -0.0014771 -0.001551
0.0020844 -0.0012153 0.0017686 0.0011957
-0.0021867 0.0036259 0.001682 0.00040034 -0.0014767 -0.0015749 0.057208 -0.17572
-0.0040244 0.0043332 -3.9959e-05 0.0024119
0.00088984 0.00037189 0.0016392 -0.0012193 0.0020788 -0.0012248 -0.0040135 0.0043443
