!Keysight Technologies,M9804A,MY58100912,A.14.10.03
!Date: Thursday, April 27, 2023 10:28:33
!Correction: S11(C  6-Port  ) 
!S12(C  6-Port  ) 
!S13(C  6-Port  ) 
!S14(C  6-Port  ) 
!S15(C  6-Port  ) 
!S16(C  6-Port  ) 
!S21(C  6-Port  ) 
!S22(C  6-Port  ) 
!S23(C  6-Port  ) 
!S24(C  6-Port  ) 
!S25(C  6-Port  ) 
!S26(C  6-Port  ) 
!S31(C  6-Port  ) 
!S32(C  6-Port  ) 
!S33(C  6-Port  ) 
!S34(C  6-Port  ) 
!S35(C  6-Port  ) 
!S36(C  6-Port  ) 
!S41(C  6-Port  ) 
!S42(C  6-Port  ) 
!S43(C  6-Port  ) 
!S44(C  6-Port  ) 
!S45(C  6-Port  ) 
!S46(C  6-Port  ) 
!S51(C  6-Port  ) 
!S52(C  6-Port  ) 
!S53(C  6-Port  ) 
!S54(C  6-Port  ) 
!S55(C  6-Port  ) 
!S56(C  6-Port  ) 
!S61(C  6-Port  ) 
!S62(C  6-Port  ) 
!S63(C  6-Port  ) 
!S64(C  6-Port  ) 
!S65(C  6-Port  ) 
!S66(C  6-Port  ) 
!S6P File: Measurement: :
# Hz S  RI   R 50
500000000 -0.33689 -0.034481 -0.0097297 -0.0036276 -0.007855 0.011774 -0.0035039 0.011656
0.012452 0.0047739 -0.0035025 0.0082511
-0.0096763 -0.003564 -0.41938 -0.049442 0.0073469 -0.011415 0.0015557 0.011654
0.0073218 0.0025441 0.0012772 0.012667
-0.0078049 0.011767 0.0073324 -0.011455 -0.26489 0.21147 0.006931 0.0029605
-0.00033344 0.0086883 0.00092971 0.011551
-0.0034685 0.011643 0.0015711 0.011667 0.0069306 0.0029515 -0.32708 0.047564
-0.019875 -0.0042351 0.017809 0.025112
0.012416 0.0047944 0.0073213 0.0025461 -0.00032591 0.0086863 -0.019877 -0.0042235
-0.22683 -0.18423 -0.027556 0.0051261
-0.0034658 0.0082951 0.0012967 0.01269 0.00094705 0.01156 0.017822 0.02511
-0.027562 0.0051168 -0.27259 -0.11168
560000000 -0.3157 0.12501 -0.02388 -0.062854 0.00015093 0.012209 0.0060797 0.0096924
0.010354 0.00381 0.00979 0.0071075
-0.023808 -0.062712 -0.37693 0.10966 -0.041982 -0.03685 0.01361 0.0037787
-0.013192 -0.0045681 0.0040134 -0.00071138
7.7246e-05 0.012135 -0.042122 -0.036778 -0.18261 0.25951 -0.00061467 -0.0050321
0.018989 0.0042944 0.0071896 -0.0058001
0.0060836 0.0096578 0.013592 0.0037694 -0.0006101 -0.0050396 -0.30222 0.13603
0.0037229 -0.0246 0.0046944 -0.019403
0.010403 0.0037818 -0.013246 -0.0045577 0.018992 0.0042867 0.0036944 -0.024593
-0.28607 -0.0092986 0.00765 -0.049411
0.0098366 0.0070976 0.0040052 -0.00075014 0.0071948 -0.0058027 0.0046874 -0.019403
0.007674 -0.049411 -0.33045 0.033996
620000000 -0.27297 0.11015 -0.023115 0.0074053 0.0037946 0.0084861 0.0068416 -0.0058082
0.011493 -0.00074437 0.00066938 -0.0020381
-0.023087 0.0073951 -0.40247 0.062777 -0.018867 -0.00016149 -0.0012948 -0.0019229
0.010329 -0.0071761 0.0010217 -0.0028446
0.0038049 0.0084679 -0.018875 -0.0001062 -0.15273 0.26815 -0.0014702 -0.0051202
-0.0038605 -0.0033064 0.0078727 -0.0037813
0.0068927 -0.0058004 -0.0013096 -0.0019218 -0.0014705 -0.0051298 -0.26163 0.14607
-0.038335 -0.018369 0.01475 0.023614
0.011416 -0.0007536 0.010326 -0.0072191 -0.0038552 -0.0033095 -0.038342 -0.018337
-0.20539 -0.049229 -0.040286 0.014523
0.00056315 -0.0019914 0.0010297 -0.0028464 0.0078949 -0.0037882 0.014769 0.023618
-0.040318 0.014483 -0.24963 -0.001467
680000000 -0.23256 0.1936 -0.027977 -0.013667 0.0047967 0.0049764 0.0012121 -0.0075095
-0.003167 -0.011058 0.0043074 -0.0068133
-0.027931 -0.01366 -0.38711 0.15987 -0.032727 -0.0012687 -0.0017079 -0.00023301
-0.0025544 -0.0089634 -0.0010422 -0.0020159
0.0047983 0.0049623 -0.032756 -0.0011734 -0.1017 0.28766 -0.00084946 0.00016187
-0.0020935 0.00061402 -0.0029007 -0.0093664
0.0012119 -0.0075128 -0.0017008 -0.00023081 -0.00084318 0.00016111 -0.21918 0.19582
-0.023427 -0.0080796 -0.0087382 -0.010527
-0.0031706 -0.011081 -0.0025852 -0.0089719 -0.0020909 0.00061519 -0.02344 -0.0080681
-0.25232 0.04873 -0.0059971 -0.0091518
0.0042895 -0.0068383 -0.0010563 -0.0019985 -0.0029085 -0.0093689 -0.0087203 -0.010551
-0.0059836 -0.0091582 -0.25887 0.10039
740000000 -0.18937 0.18839 -0.038217 0.026696 0.012425 -0.0052695 -0.00057062 -0.0038978
-0.004364 -0.0031155 -0.0064354 0.0037271
-0.03824 0.02667 -0.33472 0.17844 -0.034875 0.035025 -0.0008649 -0.0063063
-0.011643 0.0082273 -0.0028074 -0.0061238
0.012406 -0.0052883 -0.034805 0.035165 -0.067919 0.28631 -0.0015913 0.0033106
-0.0029027 -0.0040898 -0.0012931 0.00018673
-0.00055582 -0.0038648 -0.00087202 -0.0063104 -0.0015993 0.0033025 -0.20198 0.2031
-0.042579 -0.0078195 0.021763 0.013118
-0.0043331 -0.00311 -0.01163 0.0083087 -0.0028985 -0.0040814 -0.042582 -0.0077535
-0.15646 0.073458 -0.041972 0.00016022
-0.0064598 0.0037437 -0.0028573 -0.0061337 -0.0012937 0.00018456 0.021758 0.013098
-0.041956 0.00012896 -0.24617 0.10598
800000000 -0.15707 0.22882 -0.02238 0.017218 0.0051497 -0.010491 -0.004768 -0.0019843
-0.0039007 0.0025017 0.004226 0.00098813
-0.022392 0.017202 -0.33708 0.24857 -0.0076623 0.033915 -0.0020999 0.0022561
-0.00059069 0.0033306 0.0011209 0.0052484
0.0051313 -0.010519 -0.007571 0.033982 -0.026833 0.30928 0.0011493 0.0015364
0.00069266 0.0035856 -0.001778 0.001121
-0.0047666 -0.0019788 -0.0020965 0.0022579 0.0011478 0.0015386 -0.17402 0.23069
-0.028218 0.012644 0.01296 -0.0097491
-0.0038686 0.0025419 -0.00057671 0.003338 0.00070638 0.0035868 -0.02822 0.012699
-0.20059 0.096993 -0.017352 0.0171
0.0042466 0.0010074 0.0011471 0.0052523 -0.0017804 0.0011256 0.012963 -0.0097707
-0.017359 0.017084 -0.23757 0.15752
860000000 -0.12223 0.24967 -0.016972 0.031109 -0.0034798 -0.0097588 -0.0024947 0.0012362
0.0041862 0.0049937 -0.003016 -0.0026
-0.016999 0.031084 -0.28916 0.29055 0.0082029 0.033949 0.00011279 0.0021218
0.0044603 0.00026392 0.0033626 0.00056193
-0.0035 -0.0097676 0.0083167 0.033956 0.0216 0.31688 -0.00039291 -0.00022594
0.0028982 -0.0015225 0.0015294 0.00437
-0.0024817 0.0012628 0.00012227 0.0021375 -0.00039556 -0.00022694 -0.13823 0.24239
-0.017751 0.018685 -0.0060297 -0.0087577
0.0042393 0.0049826 0.0044732 0.00023819 0.0028956 -0.0015315 -0.01773 0.018724
-0.15088 0.14555 -0.024205 0.014931
-0.003048 -0.002598 0.0033657 0.0005579 0.0015422 0.0043732 -0.0060371 -0.0087507
-0.024211 0.014914 -0.18747 0.19928
920000000 -0.096925 0.27278 0.0053668 0.037697 -0.0093143 -0.0041873 -0.00186 0.0023472
0.0012456 0.001458 0.0025737 -0.0015995
0.0053429 0.037658 -0.26022 0.3113 0.027966 0.021487 0.0015583 0.0010783
0.0068091 -0.00074919 0.0038936 -0.0030421
-0.009331 -0.0041747 0.028056 0.021426 0.067817 0.31713 0.0017682 -0.00015903
0.0012126 -0.00053019 0.00081133 -0.0010451
-0.0018693 0.0023436 0.0015787 0.0010765 0.0017677 -0.0001587 -0.11401 0.25873
-0.010284 0.029881 0.0025678 -0.0064898
0.0012502 0.0014655 0.0067948 -0.00078636 0.0012109 -0.0005166 -0.010237 0.029929
-0.14061 0.15118 -0.0021865 0.027128
0.002572 -0.0016052 0.0038849 -0.0030409 0.00080914 -0.0010472 0.0025654 -0.0064922
-0.0022101 0.027117 -0.19219 0.21308
980000000 -0.0492 0.29208 0.017977 0.029608 -0.0087287 0.0046111 0.0024224 0.0037702
0.0039262 -0.0017688 -0.0029868 -0.0020816
0.017931 0.029618 -0.20722 0.34487 0.032718 0.0044573 0.0019932 -4.1055e-05
0.0010605 -0.0061663 -0.00061723 -0.0021044
-0.0087063 0.0046288 0.032746 0.0043408 0.11403 0.31018 0.00043142 -0.001193
2.4339e-05 -0.0021488 0.0014699 -3.8056e-05
0.0024259 0.003772 0.001989 -2.9714e-05 0.00042175 -0.0011958 -0.075935 0.2702
0.0073835 0.028446 -0.0091052 -0.0066584
0.0039236 -0.0017837 0.0010167 -0.0062009 2.0572e-05 -0.0021446 0.0074508 0.028449
-0.10884 0.17852 0.0046611 0.018507
-0.0030024 -0.0020746 -0.00064281 -0.0020972 0.0014689 -3.9518e-05 -0.0091086 -0.0066427
0.0046537 0.018504 -0.14899 0.25734
1040000000 -0.0064569 0.30004 0.033245 0.017511 -0.0010887 0.0067479 0.0028215 0.00067989
-3.9561e-05 -0.0037707 -0.00057352 -0.0014711
0.033215 0.017524 -0.17154 0.35785 0.028852 -0.014907 0.0014875 -0.0017032
-0.0025415 -0.0024046 -0.0014194 -0.0026121
-0.0010589 0.0067408 0.028803 -0.015013 0.16001 0.2962 -0.00051586 -0.0014007
-0.0015964 -0.00078705 -0.0004382 -0.0011377
0.002821 0.00066573 0.0015072 -0.0016932 -0.00051517 -0.0013989 -0.048302 0.28025
0.01816 0.016999 -0.00302 0.002067
-7.0429e-05 -0.0037541 -0.0025855 -0.0023936 -0.0016018 -0.00078135 0.018214 0.016975
-0.078247 0.18713 0.013198 0.01753
-0.0005721 -0.0014625 -0.0014399 -0.0025909 -0.000443 -0.0011414 -0.0030142 0.0020741
0.013182 0.017533 -0.12717 0.27623
1100000000 0.039159 0.30713 0.03547 -0.0048017 0.0028527 0.003665 0.002602 -0.0014075
-0.0021392 -0.003031 -0.003918 0.00012993
0.035436 -0.0047739 -0.12805 0.37448 0.014727 -0.027512 3.0664e-05 -0.0018045
-0.0031463 -0.00045131 -0.0033258 -0.00049309
0.0028748 0.0036545 0.014626 -0.027593 0.20607 0.27562 -0.0017583 0.00027467
-0.0017079 0.00071338 -0.00091706 -0.0003052
0.0026018 -0.0014299 2.9616e-05 -0.0017961 -0.0017552 0.000272 -0.0077952 0.28516
0.022539 0.0049024 -0.0023556 0.00093749
-0.0021562 -0.0030206 -0.0031593 -0.00044679 -0.0017084 0.00071758 0.022563 0.0048737
-0.059845 0.20023 0.018317 0.0083091
-0.0039122 0.00016218 -0.0033325 -0.00046953 -0.00091232 -0.00031146 -0.0023526 0.0009423
0.018301 0.0083101 -0.080402 0.30368
1160000000 0.09067 0.30166 0.023417 -0.020889 0.0025666 -0.00048412 -0.00015961 -0.002551
-0.0039913 -0.00050832 -0.00094945 0.0038201
0.023419 -0.020829 -0.084339 0.37841 -0.0039093 -0.028626 -0.0017724 -0.0016365
-0.0024006 0.0026462 -0.0011624 0.0016142
0.0025797 -0.0004849 -0.00405 -0.028628 0.24893 0.2447 -0.00062848 0.0017069
-0.00032422 0.0018477 -0.00088289 9.4861e-05
-0.00016812 -0.0025665 -0.0017759 -0.0016275 -0.00063494 0.001698 0.031552 0.28218
0.019104 -0.0096064 -0.0026202 0.0055744
-0.0039973 -0.00047553 -0.0023928 0.0026508 -0.00033499 0.0018501 0.0191 -0.0096385
-0.026616 0.20947 0.016903 0.00067525
-0.00090256 0.0038351 -0.0011602 0.0016344 -0.00088569 9.9312e-05 -0.0026092 0.0055836
0.016902 0.00067429 -0.033217 0.30574
1220000000 0.13509 0.28984 0.0098482 -0.029779 -0.001572 -0.00071984 -0.00012419 -0.0011643
-0.0024862 0.0025192 0.0013422 0.0018536
0.0098564 -0.029737 -0.040147 0.38992 -0.016687 -0.020661 -0.0024804 0.00043741
0.00025434 0.0028677 -0.00066989 0.0017558
-0.0015794 -0.00072747 -0.016804 -0.020612 0.2879 0.20576 0.00087656 0.0015435
0.00059163 0.0011211 0.00024695 0.00066968
-0.00011543 -0.0011648 -0.0024844 0.00045393 0.00088076 0.0015453 0.071231 0.27379
0.0091436 -0.015245 0.0027084 0.0017132
-0.0024696 0.0025413 0.00027124 0.00286 0.00058888 0.0011152 0.0091265 -0.015261
-0.0033684 0.21882 0.01321 -0.011871
0.0013468 0.0018574 -0.00066705 0.0017623 0.00024789 0.00067204 0.0027099 0.0017081
0.013214 -0.011866 -0.0012566 0.32099
1280000000 0.18439 0.26705 -0.0081556 -0.027939 -0.0017322 0.0025939 -0.0011384 -0.0020005
-0.00060669 0.0030051 0.0024569 0.00096198
-0.0081369 -0.027914 0.005491 0.38067 -0.023278 -0.0082695 -0.0010073 0.0014666
0.0016272 0.0015712 0.00049299 0.0018885
-0.0017295 0.0025995 -0.023342 -0.0081659 0.31852 0.16191 0.0013637 -0.00017572
0.0009735 -3.099e-06 0.00027468 0.00029586
-0.0011345 -0.0019902 -0.0010037 0.0014827 0.0013682 -0.00017785 0.10772 0.25772
0.00053231 -0.016888 0.00053335 9.7189e-05
-0.00058518 0.0029985 0.0016434 0.0015695 0.00098414 -4.205e-06 0.00049085 -0.016899
0.033453 0.22254 0.0028649 -0.013827
0.0024558 0.00094984 0.00050852 0.0018859 0.00027495 0.0002944 0.00053311 9.6522e-05
0.0028762 -0.013815 0.045844 0.32084
1340000000 0.22111 0.23291 -0.01761 -0.018487 0.00095014 0.0043611 -0.0019267 -0.00075288
0.0015118 0.0025702 0.0016618 -0.0014647
-0.017579 -0.018483 0.044806 0.37222 -0.021201 0.0041249 -5.7377e-05 0.0019538
0.0017306 0.00059927 0.0013048 0.00088495
0.00097673 0.0043613 -0.021203 0.004239 0.3407 0.11385 0.0009478 -0.00085052
0.00057705 -0.00040076 0.0001291 0.00025008
-0.0019358 -0.00073971 -5.5318e-05 0.0019551 0.00094763 -0.00084986 0.14074 0.23769
-0.0075494 -0.014056 0.0013297 5.5405e-05
0.0015188 0.0025642 0.0017316 0.00059554 0.00057485 -0.00040046 -0.0075761 -0.014043
0.063814 0.2181 -0.0031253 -0.012524
0.0016466 -0.0014793 0.0013137 0.00086907 0.00013113 0.00025039 0.0013333 4.5632e-05
-0.0031226 -0.012523 0.084224 0.31525
1400000000 0.25362 0.19429 -0.023071 -0.0071612 0.0050762 0.002989 -0.0019872 0.00075708
0.0024863 0.0006948 0.00015947 -0.0013122
-0.023043 -0.0071718 0.081661 0.35912 -0.014599 0.012092 0.0013499 0.0012831
0.0010025 -0.00081895 0.0011614 0.00024096
0.0050951 0.0029636 -0.01456 0.012186 0.35389 0.060012 7.3481e-05 -0.0014064
1.5103e-05 -0.00037614 0.0002614 0.00015513
-0.0019817 0.000769 0.0013583 0.0012693 6.992e-05 -0.0014043 0.17067 0.20919
-0.012393 -0.0081316 -0.0005196 -0.00087458
0.0024987 0.00068426 0.0009917 -0.00082352 8.8954e-06 -0.0003783 -0.012418 -0.0080995
0.09689 0.21344 -0.0092325 -0.0081119
0.00015722 -0.0013094 0.001164 0.00024589 0.00026106 0.00015538 -0.00052083 -0.00087201
-0.0092288 -0.0081272 0.12799 0.3035
1460000000 0.2761 0.1501 -0.020039 0.0047215 0.0054144 -0.0017889 -0.0015092 0.0017823
0.0019038 -0.00073695 -0.00040301 -0.00085035
-0.020018 0.0046963 0.1158 0.33731 -0.0061799 0.014927 0.0016834 0.00016788
0.00080268 -0.0011144 0.0011675 -0.00060605
0.0054144 -0.0018063 -0.0061159 0.014976 0.35976 0.005226 -0.0010579 -0.0011528
0.00025645 -4.7675e-05 0.00064795 -0.00043545
-0.0015031 0.0017948 0.0016847 0.00015401 -0.001059 -0.0011573 0.19766 0.18007
-0.012994 -0.0026452 -0.0010547 0.0014181
0.0018948 -0.00074117 0.00079321 -0.0011225 0.00025581 -5.0527e-05 -0.013009 -0.0026147
0.12686 0.19878 -0.010838 -0.0028186
-0.00040435 -0.00085126 0.0011599 -0.00059923 0.00064949 -0.00043217 -0.0010604 0.0014197
-0.010828 -0.0028183 0.16108 0.28166
1520000000 0.28796 0.10821 -0.014448 0.010189 0.0030592 -0.0041024 0.00019527 0.0025658
0.0017349 -0.0016767 -0.0011306 -0.00012983
-0.014437 0.010173 0.14925 0.32246 0.001302 0.012923 0.0015855 -0.00080899
7.9596e-05 -0.00087123 0.00033202 -0.0010065
0.0030396 -0.0041171 0.0013695 0.012922 0.35256 -0.051149 -0.00093159 -0.00038919
0.00054807 -0.00078077 -4.1859e-05 -5.9861e-05
0.00019752 0.0025721 0.0015789 -0.0008264 -0.00092408 -0.0003933 0.22159 0.14174
-0.012473 0.0018664 0.00094209 0.0017137
0.0017213 -0.0016861 7.4647e-05 -0.00087231 0.0005453 -0.00078776 -0.012473 0.0019012
0.15515 0.18423 -0.010925 0.0011926
-0.0011256 -0.00012278 0.00032741 -0.0010092 -4.1668e-05 -5.665e-05 0.00094051 0.0017125
-0.010924 0.0011775 0.1937 0.26028
1580000000 0.2969 0.061563 -0.0079674 0.013125 -0.00090994 -0.0047283 0.0013791 0.0018176
-0.00051576 -0.0020518 -0.0003492 0.0003925
-0.0079672 0.013111 0.17654 0.29764 0.0049614 0.0082742 0.00043176 -0.001553
-0.00038622 -0.00099857 -0.00023793 -0.00086298
-0.00091966 -0.0047144 0.0050112 0.0082576 0.33195 -0.10871 -0.0014796 0.00040261
-0.00021341 -0.0011268 0.00016448 -0.00053453
0.0013899 0.0018169 0.00041735 -0.0015554 -0.001477 0.00040032 0.23627 0.10175
-0.0098126 0.0058276 0.0017701 0.00064503
-0.00052052 -0.0020523 -0.00039442 -0.00099622 -0.00021508 -0.0011279 -0.009802 0.00586
0.17989 0.16583 -0.0087477 0.0064803
-0.00035088 0.00039196 -0.00023953 -0.00086641 0.00016078 -0.00053848 0.0017733 0.00064167
-0.0087479 0.0064746 0.22488 0.23281
1640000000 0.2984 0.019823 -0.0014826 0.012076 -0.0027186 -0.0025684 0.0025596 0.00097789
-0.00080782 -0.0010861 -0.0003111 0.00065392
-0.001492 0.012076 0.206 0.27234 0.0056754 0.0036215 -0.00071711 -0.0016269
-0.00091423 -0.00049812 -0.00053562 -0.00064675
-0.0027338 -0.0025497 0.0057013 0.0035894 0.30344 -0.15784 -0.00085509 0.0013101
-0.0010448 -0.00087938 -7.4216e-05 -0.00028867
0.0025682 0.00096247 -0.00072718 -0.001631 -0.00085698 0.0013144 0.24887 0.051802
-0.0064794 0.0067649 0.0021389 -0.00063304
-0.00081375 -0.0010896 -0.0009247 -0.00049113 -0.0010445 -0.00087443 -0.0064623 0.0067892
0.20317 0.14039 -0.0045386 0.0086032
-0.00031003 0.00065854 -0.00053586 -0.00064897 -7.6474e-05 -0.00028974 0.0021344 -0.00063791
-0.0045483 0.0086087 0.25007 0.20083
1700000000 0.29041 -0.025797 0.0018958 0.0094439 -0.0034601 0.0001298 0.002916 -0.0011053
-0.0018299 -0.00041624 0.00063123 0.0004085
0.0018854 0.0094334 0.22401 0.24062 0.0038269 0.00077651 -0.0013781 -0.00054905
-0.00080728 -4.7541e-05 -0.00092336 -0.0004402
-0.0034647 0.00014197 0.0038379 0.00075586 0.25951 -0.19776 0.00033219 0.0016064
-0.0017576 -0.00026927 -0.0005397 -0.00093301
0.0029117 -0.0011164 -0.0013817 -0.00054742 0.00033185 0.0015998 0.24528 0.00078561
-0.0045641 0.007341 0.0012777 -0.0019927
-0.0018322 -0.00040795 -0.00080939 -4.2374e-05 -0.0017513 -0.000264 -0.0045519 0.0073543
0.22091 0.1188 -0.00023221 0.0089916
0.00063629 0.00040714 -0.00092303 -0.0004307 -0.00054723 -0.00093464 0.0012748 -0.0019886
-0.0002273 0.0090016 0.26552 0.16603
1760000000 0.27716 -0.074386 0.0042596 0.0062687 -0.0022403 0.00086618 0.0013306 -0.00329
-0.0010174 0.00063539 0.00039729 -0.00051923
0.0042422 0.0062694 0.24982 0.20045 0.0017384 -0.00095756 -0.0010976 0.00020065
-0.0011644 0.00085537 -0.00063705 0.00051969
-0.0022453 0.00089443 0.0017376 -0.00097232 0.21032 -0.23048 0.0010536 0.0012762
-0.0011369 0.0013206 -0.0012721 -0.00044997
0.0013195 -0.0032996 -0.0011001 0.00021306 0.0010567 0.0012777 0.23502 -0.051564
-0.0020022 0.006951 -0.00036894 -0.0021548
-0.0010175 0.0006414 -0.0011629 0.00086175 -0.001137 0.001325 -0.0019866 0.0069628
0.23573 0.082096 0.0034984 0.0065966
0.00039287 -0.00052659 -0.00063491 0.00052022 -0.0012767 -0.0004435 -0.00037521 -0.0021597
0.0034973 0.0066007 0.27731 0.12794
1820000000 0.25158 -0.11127 0.0045335 0.0027573 -3.9409e-05 0.0024076 -0.00092131 -0.0030736
-0.00080588 0.00060514 3.3053e-05 -0.00014427
0.0045204 0.0027634 0.2594 0.17009 -0.00017224 1.011e-05 -0.0013418 0.00086025
-0.00014775 0.0013866 -0.00051424 0.00056849
-3.1194e-05 0.0024119 -0.00017299 9.1729e-06 0.16049 -0.24585 0.0015312 0.00043265
-0.00041321 0.0021663 -0.0014457 0.00052596
-0.00093899 -0.0030603 -0.0013333 0.00086752 0.0015291 0.00042872 0.20357 -0.098881
-0.00092016 0.0057045 -0.0015759 -0.0013457
-0.0007967 0.00060969 -0.00013704 0.0013901 -0.00040326 0.0021795 -0.00090079 0.0057131
0.25211 0.050718 0.0044306 0.00332
3.2018e-05 -0.00014802 -0.0005085 0.00057381 -0.0014466 0.0005402 -0.001581 -0.00134
0.0044388 0.0033168 0.2786 0.091451
1880000000 0.21556 -0.15081 0.0024289 0.00044281 -0.00039841 0.0021044 -0.002836 -0.002258
-0.00026825 0.0013412 0.00033774 -0.00053447
0.0024236 0.00044871 0.26346 0.12344 -0.0021119 0.0015989 -0.00016922 0.0016863
0.00065413 0.001394 0.00024553 0.0010246
-0.0003919 0.0021034 -0.0021026 0.0016155 0.10846 -0.25529 0.0020103 -0.00094954
0.001404 0.0020722 -0.00080804 0.0014018
-0.0028413 -0.0022336 -0.00015896 0.0016923 0.0020075 -0.00094975 0.16162 -0.13818
-0.00061011 0.0045022 -0.0022545 0.00071336
-0.00024721 0.0013476 0.00067054 0.001394 0.0014052 0.0020741 -0.00060002 0.0045045
0.25364 0.016119 0.0041196 0.0014221
0.00032935 -0.00053935 0.00025626 0.0010164 -0.00080517 0.0014061 -0.0022492 0.00071673
0.0041124 0.0014155 0.27729 0.057382
1940000000 0.17573 -0.17565 0.00019569 -0.0013636 0.0013253 0.0019856 -0.0037706 0.00052214
0.0010593 0.001119 -0.00059346 -0.00062689
0.00018276 -0.0013626 0.26347 0.091521 -0.0011394 0.0037793 0.00093895 0.0013398
0.0020301 0.0006047 0.00089963 0.00026256
0.0013449 0.0019874 -0.0011188 0.003786 0.062179 -0.24892 0.0003977 -0.0023651
0.0024796 0.00058796 0.00045858 0.0016663
-0.0037667 0.00054474 0.00096278 0.0013319 0.00039839 -0.0023533 0.10843 -0.16729
-0.0017552 0.0038353 -0.0012218 0.0017156
0.0010655 0.0011067 0.0020329 0.00059265 0.0024816 0.00058474 -0.0017469 0.0038442
0.253 -0.024791 0.00304 -0.0016246
-0.0006022 -0.00062137 0.00090489 0.00024546 0.00046001 0.0016674 -0.0012114 0.0017178
0.0030344 -0.0016175 0.26529 0.021298
2000000000 0.12947 -0.18912 -0.0037032 0.00058579 0.002459 0.0015555 -0.002297 0.0036169
0.00097215 0.00042735 -0.00072319 0.00040287
-0.0037033 0.00058808 0.24881 0.05617 -0.00094436 0.0056246 0.0016738 0.00033066
0.0015136 -0.0014332 0.00052467 5.5335e-05
0.0024549 0.001548 -0.00090916 0.0056458 0.018619 -0.2343 -0.0014512 -0.0014694
0.0020778 -0.0011875 0.0016232 0.0012193
-0.0022833 0.003627 0.0016817 0.00031921 -0.0014561 -0.0014641 0.055332 -0.17555
-0.0030749 0.0045659 0.00014256 0.0021716
0.00098298 0.0004144 0.0015061 -0.0014535 0.0020879 -0.0011957 -0.0030672 0.0045769
