!Keysight Technologies,M9804A,MY58100912,A.14.10.03
!Date: Thursday, April 27, 2023 10:28:33
!Correction: S11(C  6-Port  ) 
!S12(C  6-Port  ) 
!S13(C  6-Port  ) 
!S14(C  6-Port  ) 
!S15(C  6-Port  ) 
!S16(C  6-Port  ) 
!S21(C  6-Port  ) 
!S22(C  6-Port  ) 
!S23(C  6-Port  ) 
!S24(C  6-Port  ) 
!S25(C  6-Port  ) 
!S26(C  6-Port  ) 
!S31(C  6-Port  ) 
!S32(C  6-Port  ) 
!S33(C  6-Port  ) 
!S34(C  6-Port  ) 
!S35(C  6-Port  ) 
!S36(C  6-Port  ) 
!S41(C  6-Port  ) 
!S42(C  6-Port  ) 
!S43(C  6-Port  ) 
!S44(C  6-Port  ) 
!S45(C  6-Port  ) 
!S46(C  6-Port  ) 
!S51(C  6-Port  ) 
!S52(C  6-Port  ) 
!S53(C  6-Port  ) 
!S54(C  6-Port  ) 
!S55(C  6-Port  ) 
!S56(C  6-Port  ) 
!S61(C  6-Port  ) 
!S62(C  6-Port  ) 
!S63(C  6-Port  ) 
!S64(C  6-Port  ) 
!S65(C  6-Port  ) 
!S66(C  6-Port  ) 
!S6P File: Measurement: :
# Hz S  RI   R 50
500000000 -0.33742 -0.035219 -0.0101 -0.0036382 -0.0080499 0.012174 -0.0035747 0.011723
0.012316 0.0046453 -0.0036939 0.0083018
-0.010086 -0.0036449 -0.41962 -0.050054 0.0069871 -0.011303 0.0012548 0.011706
0.0073484 0.00272 0.001044 0.012661
-0.0080187 0.012191 0.0069737 -0.011348 -0.26603 0.21143 0.0066701 0.00322
-0.00049323 0.0088641 0.00061017 0.0118
-0.003546 0.011726 0.001304 0.011728 0.0066731 0.0032232 -0.32814 0.047255
-0.020517 -0.0040425 0.017179 0.025317
0.012284 0.0045879 0.0073721 0.0027122 -0.00046103 0.0088212 -0.020539 -0.0040361
-0.22754 -0.18456 -0.028089 0.0049377
-0.0034484 0.0082975 0.0010382 0.012681 0.00054076 0.011754 0.017099 0.025347
-0.02805 0.0054043 -0.27387 -0.11188
560000000 -0.31624 0.12453 -0.02455 -0.062839 9.8874e-05 0.012485 0.0059116 0.010021
0.010365 0.0041869 0.009717 0.007414
-0.024496 -0.062804 -0.37654 0.10973 -0.042582 -0.036658 0.01391 0.0039435
-0.013552 -0.0043938 0.0042526 -0.00063392
0.00014802 0.012482 -0.042731 -0.036607 -0.18315 0.25969 -0.00028441 -0.0048058
0.019132 0.0044654 0.0071862 -0.0055652
0.0059819 0.010005 0.01403 0.0039701 -0.00038096 -0.0048288 -0.3029 0.1361
0.0029315 -0.024319 0.0043429 -0.019276
0.010372 0.0041528 -0.013609 -0.00437 0.019169 0.0045278 0.0029243 -0.024315
-0.28761 -0.0090247 0.0069155 -0.049658
0.0097983 0.0073643 0.0040676 -0.00057554 0.0072353 -0.0055213 0.0045088 -0.019507
0.0069778 -0.049643 -0.33139 0.034377
620000000 -0.27368 0.10963 -0.023418 0.0075524 0.0039801 0.0087339 0.0067372 -0.0053994
0.011758 -0.00097156 0.00041456 -0.0022627
-0.023389 0.0075459 -0.40265 0.062479 -0.018831 0.00014464 -0.0012935 -0.0019453
0.010563 -0.0073347 0.0012412 -0.0027476
0.0040142 0.0087722 -0.018878 0.0001911 -0.15289 0.26852 -0.0012749 -0.0052147
-0.0037355 -0.0033781 0.0083418 -0.0034517
0.0067368 -0.005413 -0.0013033 -0.0019394 -0.0012982 -0.0051985 -0.26216 0.14648
-0.039028 -0.018092 0.014673 0.024482
0.011748 -0.00095676 0.010578 -0.0073855 -0.0036765 -0.0034064 -0.03903 -0.018028
-0.20648 -0.049339 -0.040998 0.014617
0.00081669 -0.0019642 0.0011516 -0.0028605 0.0082503 -0.0036245 0.014533 0.0241
-0.040465 0.014908 -0.25097 -0.0013297
680000000 -0.23311 0.194 -0.028095 -0.013228 0.0049225 0.0050593 0.0013702 -0.0075848
-0.0030037 -0.011237 0.0046321 -0.0069408
-0.028067 -0.013219 -0.38716 0.15965 -0.032749 -0.0011957 -0.0016883 -0.00024529
-0.002314 -0.0091486 -0.00093351 -0.0019778
0.0049341 0.0050607 -0.032786 -0.0011109 -0.10142 0.28781 -0.00084462 1.509e-05
-0.0020529 0.00070687 -0.0029939 -0.009366
0.0013452 -0.0075766 -0.0016828 -0.00024867 -0.00084829 1.9801e-05 -0.21928 0.19589
-0.02375 -0.0073121 -0.0088248 -0.010052
-0.0030181 -0.01126 -0.0023562 -0.0091286 -0.0020495 0.00073119 -0.023775 -0.0072991
-0.25372 0.050118 -0.0064762 -0.0088378
0.0045412 -0.0070327 -0.00094106 -0.0019951 -0.0030003 -0.0094229 -0.0087825 -0.0099939
-0.0065314 -0.0088265 -0.25908 0.10082
740000000 -0.18945 0.18895 -0.03786 0.027004 0.012921 -0.0052962 -0.00069394 -0.0039674
-0.0043099 -0.0032019 -0.0065266 0.0034109
-0.037851 0.026971 -0.33478 0.17825 -0.034888 0.035335 -0.00087125 -0.0063148
-0.011773 0.0087246 -0.0027671 -0.0066277
0.012903 -0.0053316 -0.034823 0.035475 -0.068203 0.28585 -0.0017057 0.0032777
-0.0030124 -0.0042136 -0.0012624 0.00033445
-0.00073906 -0.0039945 -0.00086731 -0.0063118 -0.001729 0.0033035 -0.20212 0.20321
-0.042736 -0.0070562 0.022335 0.013297
-0.0043937 -0.0031349 -0.011729 0.0087401 -0.0030047 -0.0042423 -0.042779 -0.0070059
-0.15633 0.074968 -0.041522 0.00075218
-0.0062975 0.0035856 -0.0029107 -0.0065554 -0.0012796 0.00029075 0.022247 0.013194
-0.041702 0.00079015 -0.24661 0.10743
800000000 -0.15659 0.22864 -0.021932 0.017351 0.0054755 -0.010675 -0.0046234 -0.0018032
-0.004037 0.0024123 0.0042691 0.00079743
-0.021928 0.017329 -0.33713 0.24808 -0.0076176 0.034253 -0.0021348 0.0022668
-0.00083067 0.0034258 0.00123 0.0052411
0.0054671 -0.010712 -0.0075121 0.034288 -0.027294 0.30894 0.0011515 0.0015767
0.00064438 0.003549 -0.001759 0.0011872
-0.0046319 -0.0017918 -0.0021248 0.0022737 0.0011618 0.0015775 -0.17408 0.23082
-0.028139 0.013253 0.01344 -0.0098098
-0.0040531 0.0024228 -0.00082817 0.0034205 0.00064119 0.0035305 -0.028143 0.01331
-0.20052 0.098189 -0.017034 0.017697
0.0041815 0.00081027 0.0011443 0.00524 -0.0017607 0.0011745 0.013419 -0.0098119
-0.01703 0.017697 -0.23708 0.15791
860000000 -0.12213 0.24922 -0.016733 0.030978 -0.0033016 -0.010205 -0.0022724 0.0011596
0.0040623 0.0050151 -0.003144 -0.0027064
-0.016745 0.030939 -0.28947 0.28982 0.0084057 0.034378 6.4553e-05 0.0021668
0.0043262 0.00040747 0.0033799 0.00017532
-0.0033335 -0.01019 0.0085093 0.03437 0.020713 0.31696 -0.00039917 -0.00018695
0.0027499 -0.0016066 0.0017111 0.0040901
-0.002276 0.0011518 9.1826e-05 0.0021745 -0.00039782 -0.00018017 -0.1385 0.24229
-0.017527 0.019105 -0.0057 -0.0090293
0.0040811 0.0049929 0.0043721 0.00037109 0.002763 -0.0016033 -0.01749 0.019144
-0.15015 0.14604 -0.023652 0.015317
-0.0031351 -0.0026849 0.0034106 0.00019164 0.0017633 0.0041054 -0.0057313 -0.0089848
-0.023642 0.015337 -0.18694 0.19955
920000000 -0.096988 0.2721 0.0055666 0.037531 -0.0096404 -0.0046372 -0.0018101 0.0021238
0.0013533 0.0016464 0.0026511 -0.0016149
0.0055333 0.0375 -0.26064 0.31049 0.028461 0.021595 0.001582 0.0009752
0.0070427 -0.00073925 0.0039943 -0.00307
-0.0096479 -0.0046071 0.028542 0.021543 0.067061 0.31768 0.0018075 -0.00024108
0.0012694 -0.00053947 0.00067693 -0.0012604
-0.0018103 0.0021237 0.0016034 0.00099205 0.0017976 -0.00024361 -0.11422 0.25889
-0.0097239 0.030398 0.0027173 -0.0069761
0.0013605 0.0016307 0.0070681 -0.00076141 0.0012828 -0.00053156 -0.0096546 0.030421
-0.14005 0.15193 -0.0016867 0.02733
0.0026246 -0.0016847 0.0040467 -0.0030582 0.00070039 -0.0012304 0.0027446 -0.0069207
-0.0017017 0.027202 -0.19182 0.21355
980000000 -0.049711 0.29164 0.018036 0.029646 -0.0091294 0.0045243 0.0022888 0.0036658
0.0040111 -0.0017096 -0.0029736 -0.0021
0.017999 0.029613 -0.20808 0.34408 0.033425 0.0043795 0.0020522 -9.1941e-05
0.0011805 -0.0063602 -0.0005412 -0.0022167
-0.0091036 0.0045509 0.033453 0.0042553 0.11354 0.31114 0.00042948 -0.0012017
-6.6324e-05 -0.0022764 0.0013764 -5.6481e-05
0.0023009 0.0036426 0.0020597 -7.7075e-05 0.00041678 -0.0012167 -0.076035 0.2704
0.0082513 0.028809 -0.009078 -0.0069733
0.0040103 -0.0017338 0.0011225 -0.0063641 -8.1935e-05 -0.0022944 0.0083249 0.028809
-0.10794 0.17881 0.0051253 0.018674
-0.0029469 -0.0021114 -0.00061218 -0.0022513 0.0013806 -9.4996e-05 -0.009093 -0.0069276
0.0051052 0.018705 -0.14909 0.25739
1040000000 -0.0071024 0.29977 0.033558 0.017475 -0.0013868 0.0069397 0.0026759 0.00077667
-3.8795e-05 -0.0036598 -0.00064268 -0.0015197
0.033487 0.017471 -0.17273 0.35745 0.029363 -0.015461 0.0014664 -0.0017875
-0.0026978 -0.0026756 -0.0015184 -0.002688
-0.0013366 0.0069407 0.029323 -0.015578 0.16016 0.29742 -0.00059777 -0.0014696
-0.0016431 -0.00076893 -0.00052874 -0.0010739
0.0026699 0.00075115 0.0014814 -0.0017596 -0.00059054 -0.0014687 -0.048395 0.28037
0.019385 0.016787 -0.0032756 0.0017053
-3.6614e-05 -0.0036748 -0.0027261 -0.0026791 -0.0016549 -0.00076613 0.019443 0.016764
-0.077254 0.18672 0.013911 0.017365
-0.00062208 -0.0015506 -0.001575 -0.0026708 -0.00053803 -0.0011116 -0.003235 0.0017193
0.013943 0.017352 -0.1271 0.27649
1100000000 0.038247 0.30702 0.035826 -0.0050813 0.0028185 0.0038397 0.002509 -0.0012999
-0.0020829 -0.0030892 -0.0040021 0.00018905
0.035788 -0.0050633 -0.12936 0.37464 0.014802 -0.028445 -6.5e-05 -0.0018344
-0.0034708 -0.00042787 -0.0034277 -0.00042182
0.0028373 0.0038265 0.014713 -0.028515 0.20708 0.2766 -0.0018163 0.00033065
-0.0018258 0.00081183 -0.00097768 -0.00026611
0.0025019 -0.0013144 -6.077e-05 -0.0018321 -0.0018223 0.00032948 -0.0077611 0.28534
0.023726 0.0039335 -0.0027464 0.00077727
-0.0020963 -0.0030914 -0.0034846 -0.00041258 -0.0018335 0.00081307 0.023738 0.0038985
-0.059485 0.19964 0.018903 0.0080027
-0.0039536 0.00020884 -0.0034748 -0.00040843 -0.00095536 -0.0002596 -0.0027112 0.00080106
0.018917 0.0080275 -0.08056 0.30387
1160000000 0.08973 0.30201 0.023523 -0.021514 0.0025493 -0.00040138 -0.0001255 -0.0024319
-0.0040813 -0.00061306 -0.00097749 0.003853
0.023497 -0.021495 -0.085411 0.37928 -0.0044982 -0.029361 -0.0018394 -0.0016786
-0.0024782 0.0028517 -0.001186 0.0016949
0.0025459 -0.00040138 -0.0046462 -0.029351 0.25038 0.24487 -0.00059536 0.001843
-0.00025895 0.0019526 -0.00092105 0.00012753
-0.00012478 -0.0024372 -0.0018337 -0.0016567 -0.00060297 0.0018433 0.031681 0.28244
0.019547 -0.01125 -0.0029176 0.0055038
-0.0040817 -0.00058262 -0.002461 0.0028688 -0.00025955 0.0019608 0.019548 -0.011272
-0.026996 0.20883 0.017673 -8.4851e-05
-0.00095099 0.0038484 -0.0012362 0.0016698 -0.00093104 0.00013537 -0.002905 0.0055242
0.017681 -8.3044e-05 -0.033401 0.30638
1220000000 0.1342 0.29043 0.0095637 -0.030482 -0.0016623 -0.00070814 3.1661e-06 -0.0011715
-0.0026535 0.0025118 0.0013846 0.0019426
0.0095693 -0.030447 -0.040573 0.39107 -0.017617 -0.020957 -0.0025408 0.00053291
0.00039503 0.0030815 -0.00062995 0.0018967
-0.0016579 -0.00071288 -0.017726 -0.020906 0.28917 0.2047 0.0010056 0.0016903
0.00069501 0.001189 0.00025941 0.00063046
-8.0622e-06 -0.0011798 -0.0025424 0.00053938 0.00099895 0.001678 0.071622 0.27385
0.0087231 -0.017023 0.0023369 0.0018519
-0.0026313 0.0025361 0.00042264 0.0030956 0.00069446 0.00118 0.0087048 -0.017038
-0.0040787 0.21862 0.01332 -0.013061
0.0013697 0.0019318 -0.0006349 0.0018912 0.00026006 0.00066543 0.0023758 0.001854
0.013338 -0.013003 -0.0010699 0.32146
1280000000 0.184 0.26795 -0.0089525 -0.02845 -0.0017991 0.0028258 -0.0010662 -0.002095
-0.00068775 0.0031875 0.0025375 0.00096853
-0.0089289 -0.028425 0.005863 0.38176 -0.024251 -0.0079604 -0.00093504 0.0016176
0.001915 0.0016117 0.00065865 0.0019183
-0.0017859 0.0028413 -0.02431 -0.0078584 0.31886 0.16024 0.0015302 -0.00029831
0.0010863 -3.6945e-05 0.00027916 0.00032225
-0.001084 -0.0020785 -0.00093471 0.0016242 0.0015129 -0.00029466 0.10814 0.25744
-0.00094827 -0.018335 0.00027524 0.00031657
-0.0006697 0.0032063 0.0019211 0.0016025 0.001072 -4.7832e-05 -0.00097936 -0.018337
0.032718 0.22287 0.0024276 -0.014997
0.0025404 0.00099456 0.00065737 0.0019163 0.00027538 0.00031781 0.00028142 0.00032422
0.0024248 -0.015041 0.046182 0.32141
1340000000 0.22111 0.23369 -0.018577 -0.018337 0.001058 0.0046057 -0.0020474 -0.00085447
0.0015516 0.002734 0.0017048 -0.0015573
-0.018541 -0.018336 0.045663 0.37258 -0.021658 0.0049558 6.8429e-05 0.0019909
0.0018881 0.00042351 0.0013818 0.00081808
0.0010721 0.0045954 -0.021657 0.0050633 0.33969 0.11232 0.00095953 -0.0010279
0.00053837 -0.00046603 9.9438e-05 0.00034407
-0.0020621 -0.00083589 7.9657e-05 0.0019845 0.00095636 -0.0010249 0.14093 0.23712
-0.00968 -0.014452 0.0011405 0.00044621
0.0015649 0.002725 0.0019007 0.00039914 0.00053705 -0.0004666 -0.0097158 -0.014445
0.063399 0.21895 -0.0043536 -0.013361
0.0016727 -0.0015644 0.0013923 0.00081117 0.00010629 0.00034975 0.0011458 0.00044357
-0.0043229 -0.013396 0.08491 0.31555
1400000000 0.2539 0.19479 -0.023818 -0.0064844 0.0053852 0.0031601 -0.0021371 0.00083473
0.0027035 0.00080451 0.00012389 -0.0013945
-0.02379 -0.0064907 0.082665 0.35874 -0.014518 0.01298 0.0014578 0.0011629
0.00095735 -0.0010692 0.0011451 0.00014001
0.0053974 0.0031347 -0.014478 0.013066 0.35213 0.059397 -3.4853e-05 -0.0015415
5.0294e-05 -0.00039029 0.00032567 0.00022694
-0.0021213 0.00084242 0.0014679 0.0011551 -4.1151e-05 -0.0015431 0.17054 0.20849
-0.014612 -0.0073088 -0.00044408 -0.00039421
0.0027016 0.00079308 0.00095213 -0.0010798 4.8608e-05 -0.00038586 -0.014628 -0.0072779
0.096808 0.21437 -0.010753 -0.0082015
0.00012174 -0.0013929 0.001147 0.00013998 0.00031987 0.0002233 -0.00042884 -0.00038755
-0.010729 -0.0082212 0.12879 0.30345
1460000000 0.27631 0.15009 -0.020258 0.0057757 0.0058076 -0.0019139 -0.0015098 0.0019063
0.0021481 -0.0008577 -0.00043501 -0.00084483
-0.020239 0.0057561 0.11634 0.33616 -0.0055014 0.015581 0.0016631 4.8931e-05
0.0006386 -0.0012178 0.0011053 -0.00063775
0.0058045 -0.001932 -0.005428 0.015624 0.35797 0.0057328 -0.0012847 -0.0010986
0.00021194 -9.0598e-05 0.00074547 -0.00041892
-0.0015098 0.0019167 0.001668 3.8644e-05 -0.0012862 -0.0010962 0.19721 0.17937
-0.014427 -0.000586 -0.00071274 0.0017124
0.0021499 -0.00087495 0.00063544 -0.0012121 0.00021012 -9.1839e-05 -0.014429 -0.00054936
0.12724 0.19979 -0.012167 -0.002156
-0.00044084 -0.00085497 0.0011112 -0.00064456 0.00072928 -0.00038408 -0.00071032 0.0017209
-0.012144 -0.0021658 0.16173 0.28132
1520000000 0.28782 0.10794 -0.014078 0.011155 0.0032384 -0.004398 0.00032661 0.0026786
0.0017716 -0.0018889 -0.0011748 -5.5916e-05
-0.014074 0.011135 0.14912 0.3211 0.0020738 0.013026 0.0015099 -0.00084799
-9.647e-05 -0.00076406 0.00028228 -0.0010032
0.003215 -0.0044145 0.0021502 0.013025 0.35128 -0.049846 -0.00097594 -0.00022987
0.00053472 -0.00086728 3.839e-05 -0.00012435
0.000326 0.002672 0.0015093 -0.00086444 -0.00097162 -0.00021964 0.22075 0.14117
-0.012433 0.0044125 0.0014007 0.0017486
0.001749 -0.0019109 -9.9294e-05 -0.00076443 0.00053337 -0.00086659 -0.012428 0.004442
0.15603 0.18496 -0.011707 0.0024948
-0.0011614 -5.098e-05 0.00027612 -0.0010209 3.0114e-05 -0.00010243 0.0014141 0.0017439
-0.011711 0.0024921 0.19384 0.25975
1580000000 0.29629 0.0613 -0.0070847 0.01376 -0.00098087 -0.0050073 0.0015487 0.0017772
-0.00063461 -0.0022118 -0.0002741 0.00040184
-0.0070907 0.013745 0.17564 0.29623 0.0055648 0.0079749 0.00036525 -0.0015348
-0.0004049 -0.00079492 -0.00029277 -0.00082719
-0.0010131 -0.0050075 0.0056115 0.007946 0.33154 -0.10727 -0.0013692 0.00052931
-0.000346 -0.0011889 0.00017633 -0.00057213
0.0015565 0.0017724 0.00035019 -0.0015433 -0.0013817 0.00052202 0.23504 0.10146
-0.0083392 0.0078752 0.0021136 0.00042348
-0.00064618 -0.0022113 -0.00041006 -0.00079467 -0.00035546 -0.001186 -0.0083236 0.0079035
0.181 0.16607 -0.0087826 0.0078866
-0.00027044 0.00040913 -0.00029913 -0.00083549 0.00020072 -0.00059156 0.0021078 0.00043014
-0.0087944 0.0078638 0.22469 0.23254
1640000000 0.29732 0.019936 -0.0004255 0.01206 -0.0029605 -0.0027756 0.0026167 0.00082653
-0.0010573 -0.0011117 -0.00024933 0.00058657
-0.00043514 0.012053 0.20436 0.27143 0.0059365 0.0031132 -0.0007472 -0.0015916
-0.00075591 -0.0003816 -0.00054936 -0.00060908
-0.0029774 -0.0027616 0.0059667 0.0030754 0.30348 -0.15605 -0.00073867 0.0012704
-0.0011135 -0.00081267 -8.0784e-05 -0.00037048
0.0026231 0.00081687 -0.0007609 -0.0015982 -0.00074427 0.0012793 0.24732 0.052172
-0.0041557 0.007545 0.0023176 -0.00092814
-0.0010624 -0.0011048 -0.00075904 -0.00038071 -0.0011063 -0.00081417 -0.0041348 0.0075597
0.2044 0.14011 -0.0038236 0.0098311
-0.00023791 0.00059059 -0.00055118 -0.00061072 -8.2184e-05 -0.00037002 0.002306 -0.00093465
-0.0038469 0.0098392 0.24981 0.20087
1700000000 0.28926 -0.025149 0.0027948 0.0088396 -0.0036805 0.0001357 0.0028632 -0.0012804
-0.0019324 -0.00024679 0.00056949 0.00037779
0.0027792 0.008838 0.22199 0.24034 0.0038402 0.00025602 -0.0013512 -0.00051475
-0.00063817 -0.00013346 -0.00093988 -0.00040752
-0.0036867 0.0001645 0.0038376 0.0002408 0.26052 -0.19611 0.0003492 0.0014974
-0.0018098 -0.00015267 -0.00058535 -0.0010073
0.0028635 -0.0012984 -0.0013592 -0.00050627 0.00035266 0.0014961 0.24393 0.0019612
-0.0023669 0.0067261 0.0012708 -0.0022711
-0.0019398 -0.00023524 -0.00064086 -0.00013012 -0.0018169 -0.00014896 -0.0023518 0.00673
0.22176 0.11802 0.00084228 0.0096927
0.00057694 0.00035639 -0.00093753 -0.00039865 -0.00058351 -0.0010205 0.0012824 -0.0022626
0.00083535 0.0097212 0.26547 0.16634
1760000000 0.27617 -0.073045 0.0045349 0.0053101 -0.0024388 0.00088386 0.0011778 -0.0033192
-0.00098743 0.000842 0.00035247 -0.00050443
0.004517 0.0053151 0.24764 0.201 0.0014397 -0.0014971 -0.0010917 0.00022627
-0.0011288 0.00064939 -0.00060662 0.0005354
-0.0024371 0.00090255 0.0014265 -0.0015024 0.21198 -0.23008 0.00092935 0.0012212
-0.0010255 0.0013434 -0.0014752 -0.00043276
0.0011582 -0.0033282 -0.0010942 0.00022663 0.00093854 0.0012199 0.23432 -0.049739
-0.00071941 0.0054173 -0.00044274 -0.0024563
-0.00097854 0.00084148 -0.0011188 0.00066018 -0.0010288 0.0013471 -0.00071074 0.0054215
0.23614 0.081003 0.0047898 0.0067092
0.00032641 -0.00050299 -0.0005983 0.00053824 -0.0014885 -0.00042286 -0.00045158 -0.0024477
0.0048009 0.0066948 0.27746 0.12826
1820000000 0.25119 -0.10946 0.0042693 0.0019454 -0.00010979 0.0025966 -0.001065 -0.0030235
-0.00064359 0.00067254 -6.6067e-05 -9.9707e-05
0.0042661 0.0019499 0.25762 0.17145 -0.00052827 -3.424e-05 -0.0012952 0.00084403
-0.00032025 0.0012524 -0.00053291 0.00055889
-9.7154e-05 0.0025974 -0.00052484 -2.9296e-05 0.16168 -0.24537 0.0015339 0.00047956
-0.0003487 0.0022244 -0.0016083 0.00060634
-0.0010735 -0.0030088 -0.00129 0.00084664 0.0015383 0.00047456 0.20387 -0.096843
-0.00064952 0.00398 -0.0017456 -0.0015579
-0.00063697 0.00067859 -0.00031107 0.0012525 -0.00034534 0.0022309 -0.00064146 0.0039848
0.25185 0.049586 0.0054827 0.0028627
-4.1889e-05 -9.6519e-05 -0.00051745 0.00056653 -0.0016172 0.00061187 -0.0017368 -0.0015557
0.0055037 0.0028477 0.27898 0.091693
1880000000 0.216 -0.14887 0.0018435 5.5722e-06 -0.0003649 0.0023623 -0.0028428 -0.0021074
-0.00011062 0.001259 0.00040057 -0.000478
0.0018352 1.2703e-05 0.26229 0.12529 -0.0024466 0.0016677 -0.00017738 0.0016326
0.00044716 0.001432 0.00026301 0.0010092
-0.00033669 0.0023616 -0.0024436 0.0016895 0.10926 -0.25563 0.0020335 -0.00090751
0.0014083 0.0020046 -0.00085337 0.0015714
-0.0028444 -0.0020884 -0.00016623 0.0016344 0.0020345 -0.00090874 0.16294 -0.13654
-0.0011253 0.0031039 -0.0025982 0.00056214
-9.7683e-05 0.001262 0.00045732 0.001438 0.0014205 0.002007 -0.0011183 0.003097
0.25289 0.015198 0.0048565 0.00050704
0.00040834 -0.00047969 0.00027122 0.0010491 -0.00081869 0.0016175 -0.0025952 0.00058596
0.0048681 0.00051559 0.27779 0.057306
1940000000 0.17694 -0.17409 -0.00038386 -0.001407 0.0014742 0.0019854 -0.0037018 0.00064111
0.0010191 0.00098698 -0.00055981 -0.00068562
-0.00038971 -0.0014067 0.263 0.093666 -0.0013135 0.003972 0.00092726 0.0013345
0.0019305 0.00080307 0.00095484 0.00031663
0.0014946 0.0019838 -0.0012908 0.0039779 0.063089 -0.24942 0.00052643 -0.0023948
0.0025454 0.00051677 0.00062648 0.0018217
-0.0036942 0.00065839 0.00093864 0.0013265 0.00053927 -0.0023966 0.11023 -0.16655
-0.0027004 0.0030064 -0.0016406 0.0018161
0.0010298 0.00098755 0.0019436 0.00078712 0.0025456 0.00051952 -0.0026896 0.0030167
0.25179 -0.025264 0.0032815 -0.0027766
-0.0005428 -0.00067422 0.00096864 0.00030591 0.00064734 0.0018119 -0.0016217 0.0018124
0.0032869 -0.0027841 0.26593 0.021013
2000000000 0.131 -0.18828 -0.0040544 0.00074523 0.0025709 0.0014955 -0.0022032 0.0036053
0.00089501 0.00038466 -0.00068645 0.00033975
-0.0040508 0.00074595 0.24917 0.05817 -0.00092339 0.0057842 0.0016739 0.00041686
0.0016413 -0.0012041 0.00051028 -1.6588e-05
0.0025815 0.0014846 -0.00089458 0.0057938 0.019277 -0.23496 -0.0014664 -0.0015663
0.0020769 -0.0012217 0.0017551 0.0011569
-0.0021858 0.0036253 0.0016704 0.00040606 -0.0014691 -0.0015559 0.057226 -0.17575
-0.004019 0.0043254 -5.4336e-05 0.0023902
0.00089979 0.00037817 0.0016353 -0.0012164 0.0020739 -0.0012138 -0.0040079 0.0043458
