!Keysight Technologies,M9804A,MY58100912,A.14.10.03
!Date: Thursday, April 27, 2023 10:28:33
!Correction: S11(C  6-Port  ) 
!S12(C  6-Port  ) 
!S13(C  6-Port  ) 
!S14(C  6-Port  ) 
!S15(C  6-Port  ) 
!S16(C  6-Port  ) 
!S21(C  6-Port  ) 
!S22(C  6-Port  ) 
!S23(C  6-Port  ) 
!S24(C  6-Port  ) 
!S25(C  6-Port  ) 
!S26(C  6-Port  ) 
!S31(C  6-Port  ) 
!S32(C  6-Port  ) 
!S33(C  6-Port  ) 
!S34(C  6-Port  ) 
!S35(C  6-Port  ) 
!S36(C  6-Port  ) 
!S41(C  6-Port  ) 
!S42(C  6-Port  ) 
!S43(C  6-Port  ) 
!S44(C  6-Port  ) 
!S45(C  6-Port  ) 
!S46(C  6-Port  ) 
!S51(C  6-Port  ) 
!S52(C  6-Port  ) 
!S53(C  6-Port  ) 
!S54(C  6-Port  ) 
!S55(C  6-Port  ) 
!S56(C  6-Port  ) 
!S61(C  6-Port  ) 
!S62(C  6-Port  ) 
!S63(C  6-Port  ) 
!S64(C  6-Port  ) 
!S65(C  6-Port  ) 
!S66(C  6-Port  ) 
!S6P File: Measurement: :
# Hz S  RI   R 50
500000000 -0.33717 -0.035256 -0.0098006 -0.0033445 -0.007836 0.01184 -0.0033968 0.011658
0.011741 0.0045079 -0.0041339 0.0083457
-0.0098406 -0.0034199 -0.41904 -0.050127 0.0073461 -0.011527 0.0015582 0.011849
0.0073582 0.0026903 0.00073938 0.013187
-0.0079141 0.011915 0.0073883 -0.011539 -0.26509 0.21106 0.0068481 0.0029578
-0.00030402 0.0086506 0.00053755 0.01198
-0.0034253 0.011682 0.0016176 0.011902 0.0068169 0.0030339 -0.32715 0.046953
-0.020052 -0.0041504 0.01738 0.025222
0.011975 0.0044637 0.0075122 0.0027603 -0.00019977 0.0087989 -0.01996 -0.0041431
-0.22452 -0.18665 -0.027622 0.0047222
-0.0034188 0.0082239 0.0010514 0.013253 0.00046471 0.01184 0.017663 0.025162
-0.027731 0.0052161 -0.27253 -0.11517
560000000 -0.31596 0.12449 -0.024 -0.062934 0.00032204 0.012119 0.0065797 0.0098857
0.010714 0.0043835 0.010175 0.006709
-0.024022 -0.062764 -0.37612 0.10842 -0.042257 -0.036545 0.013346 0.0035161
-0.013855 -0.0049244 0.0040569 -0.00063344
0.00034272 0.012027 -0.042339 -0.036503 -0.18246 0.25905 -0.00059488 -0.0049046
0.0194 0.0046661 0.0073436 -0.0058509
0.0064812 0.0099353 0.013587 0.0034905 -0.00059532 -0.0048991 -0.30289 0.13592
0.0037317 -0.025176 0.0046999 -0.019741
0.010572 0.0041197 -0.01366 -0.004709 0.019457 0.0044761 0.003786 -0.024955
-0.28502 -0.010369 0.0079223 -0.050685
0.009861 0.0073324 0.0041214 -0.00041 0.0070279 -0.0057673 0.0044327 -0.019691
0.0078561 -0.049913 -0.33002 0.031613
620000000 -0.27311 0.10938 -0.023142 0.0074581 0.0034019 0.0085072 0.0065424 -0.0056787
0.011648 -0.0010159 0.00028689 -0.0028734
-0.023175 0.0074078 -0.40268 0.062274 -0.018859 0.00016395 -0.0011872 -0.0020823
0.010475 -0.0072052 0.0011682 -0.0028257
0.0034807 0.0085411 -0.018916 0.00021161 -0.15277 0.26795 -0.0015325 -0.0053486
-0.0035342 -0.0031292 0.0082455 -0.0038144
0.0066736 -0.0056049 -0.0012013 -0.002026 -0.0015349 -0.005308 -0.26144 0.14582
-0.039392 -0.0185 0.014177 0.024086
0.011499 -0.0006771 0.010497 -0.0071413 -0.0036746 -0.0032375 -0.03924 -0.018462
-0.20326 -0.051755 -0.040335 0.01442
0.00061086 -0.0024133 0.001344 -0.0026667 0.0081977 -0.0036112 0.014256 0.023777
-0.040207 0.014614 -0.24971 -0.0055323
680000000 -0.23289 0.19345 -0.027937 -0.013756 0.0048021 0.0049459 0.00095615 -0.0076386
-0.0031383 -0.011215 0.0042319 -0.006664
-0.027938 -0.013755 -0.38715 0.15917 -0.03279 -0.0012336 -0.001735 -0.00030156
-0.0025743 -0.0091062 -0.0011187 -0.0019798
0.0048088 0.0049706 -0.032794 -0.0011705 -0.10186 0.28739 -0.00076835 0.00010506
-0.0021715 0.00068938 -0.0029165 -0.0094583
0.00099295 -0.0076686 -0.0016875 -0.00030375 -0.00073884 8.6936e-05 -0.21918 0.19505
-0.023476 -0.0081651 -0.0084323 -0.010414
-0.0031991 -0.011078 -0.0027138 -0.0090571 -0.0021994 0.00065585 -0.023609 -0.0081186
-0.25247 0.046936 -0.0055682 -0.0093875
0.0043054 -0.0066587 -0.0010465 -0.0020411 -0.0029644 -0.0095773 -0.0086825 -0.010295
-0.0057934 -0.0092649 -0.25897 0.097715
740000000 -0.18981 0.18812 -0.038335 0.026586 0.012634 -0.0052026 -0.00082364 -0.0040001
-0.0046059 -0.0026653 -0.0063699 0.0033644
-0.03839 0.026577 -0.33482 0.17768 -0.034795 0.035309 -0.0007692 -0.0065022
-0.011924 0.0078279 -0.0027146 -0.0061952
0.012614 -0.0053037 -0.034677 0.035399 -0.068418 0.28606 -0.0014232 0.0034008
-0.0024671 -0.0040145 -0.0012087 0.00045673
-0.0008343 -0.0040262 -0.00077285 -0.006483 -0.001447 0.0034258 -0.20228 0.20251
-0.042986 -0.0081738 0.022074 0.013166
-0.0047394 -0.002579 -0.011921 0.0078638 -0.0025732 -0.0038789 -0.04294 -0.0082185
-0.15638 0.072291 -0.042345 0.00020143
-0.0061612 0.0033409 -0.0024612 -0.0060886 -0.0013229 0.0004397 0.022269 0.013224
-0.042286 -0.00029723 -0.24643 0.10261
800000000 -0.15734 0.2282 -0.022402 0.017251 0.0052868 -0.010539 -0.0047988 -0.0018869
-0.0041087 0.0026491 0.0042971 0.0011313
-0.022358 0.017219 -0.33758 0.24817 -0.0077649 0.03419 -0.0021462 0.0022869
-0.00065625 0.0034087 0.0010825 0.0053784
0.0052901 -0.010576 -0.0076583 0.03424 -0.027353 0.30905 0.0011799 0.0015898
0.00070298 0.0035423 -0.0017118 0.0010975
-0.0048294 -0.0018998 -0.0021705 0.0022737 0.0011688 0.0015768 -0.17443 0.23035
-0.02844 0.012577 0.012956 -0.009671
-0.0039199 0.0026177 -0.00062536 0.003457 0.00071712 0.0035723 -0.028363 0.012722
-0.20136 0.095345 -0.017166 0.01745
0.0044304 0.00093456 0.0011891 0.0053436 -0.0016953 0.00097221 0.012938 -0.0097063
-0.017368 0.017288 -0.2386 0.15487
860000000 -0.12258 0.24921 -0.017036 0.031152 -0.0033447 -0.0099147 -0.0024069 0.0012355
0.0040637 0.0050318 -0.0028032 -0.0027797
-0.017069 0.031109 -0.28964 0.29016 0.008273 0.034202 0.00023101 0.002108
0.0043004 0.00034328 0.0035876 0.00023744
-0.0033833 -0.0099138 0.0083947 0.034214 0.021013 0.31696 -0.00039629 -0.00028924
0.0029277 -0.0016007 0.0017706 0.004303
-0.0023859 0.0012494 0.00026085 0.0021255 -0.00041363 -0.00027494 -0.13883 0.24205
-0.018072 0.018744 -0.0059614 -0.0087705
0.0042059 0.005065 0.0043661 0.00038316 0.0029025 -0.0015772 -0.017908 0.01874
-0.15177 0.14358 -0.02414 0.015083
-0.0029864 -0.0026791 0.0034436 0.00041054 0.0017182 0.0043335 -0.0059565 -0.0089009
-0.02428 0.015406 -0.18878 0.19654
920000000 -0.097288 0.27225 0.0053761 0.037663 -0.0094177 -0.0044048 -0.0017562 0.0022366
0.0014837 0.0017868 0.0025709 -0.0013508
0.0053612 0.037662 -0.26052 0.31092 0.028192 0.021647 0.001639 0.001038
0.0069745 -0.00071495 0.0040448 -0.0031322
-0.0094558 -0.0043538 0.0283 0.021568 0.067432 0.31737 0.0017698 -0.00018622
0.0012852 -0.00052148 0.00087768 -0.0012079
-0.0017916 0.0022416 0.0016515 0.0010123 0.0017752 -0.00018546 -0.11463 0.25863
-0.010405 0.030241 0.002607 -0.0066205
0.0015448 0.0016418 0.0069526 -0.00077605 0.0012769 -0.00052709 -0.010323 0.030244
-0.1418 0.14919 -0.0022303 0.027161
0.0025415 -0.0014474 0.003897 -0.0031755 0.00080546 -0.0012284 0.0026107 -0.0065935
-0.0021799 0.027196 -0.19423 0.21094
980000000 -0.049712 0.29185 0.01806 0.029891 -0.0088871 0.0046523 0.0024809 0.0037239
0.004012 -0.0018463 -0.0030502 -0.0020846
0.018014 0.02989 -0.20772 0.34472 0.033054 0.0044273 0.0020197 -4.9649e-05
0.0012077 -0.0062542 -0.0006659 -0.0021427
-0.0088791 0.0046788 0.033098 0.0043328 0.11385 0.31062 0.00043497 -0.0011854
1.4874e-05 -0.0021851 0.0014631 -3.1145e-05
0.0024717 0.00372 0.0020262 -1.7893e-05 0.00042941 -0.0011922 -0.076377 0.27047
0.0075163 0.028896 -0.0091316 -0.0067272
0.003989 -0.0018768 0.0011431 -0.0062712 3.6019e-05 -0.0021727 0.0076163 0.028865
-0.11025 0.17721 0.0048137 0.018841
-0.0029801 -0.0020915 -0.00059755 -0.0021727 0.0014394 -6.4636e-05 -0.0091032 -0.0067299
0.0048462 0.018722 -0.15123 0.2559
1040000000 -0.0069192 0.3 0.033408 0.017649 -0.0011238 0.0068994 0.0027645 0.00069173
-7.4455e-05 -0.0038169 -0.00069973 -0.0016329
0.033345 0.017674 -0.17218 0.3577 0.029138 -0.015118 0.0014463 -0.0017647
-0.0025878 -0.0024925 -0.0014676 -0.0027595
-0.0011025 0.0068957 0.029111 -0.015216 0.16014 0.29666 -0.00055683 -0.0014135
-0.0016354 -0.0007914 -0.0004637 -0.0011321
0.0027678 0.00066152 0.0014671 -0.001757 -0.00055972 -0.0014189 -0.048713 0.28046
0.018637 0.017191 -0.0030056 0.0020617
-8.4395e-05 -0.0038016 -0.0026461 -0.0024853 -0.0016184 -0.0007861 0.01866 0.017197
-0.079565 0.18584 0.013544 0.017874
-0.00065123 -0.0016239 -0.0015044 -0.0027347 -0.00047257 -0.001117 -0.0030954 0.0019569
0.013498 0.017749 -0.12924 0.27508
1100000000 0.038569 0.30715 0.035738 -0.0048061 0.0029005 0.0037529 0.0025301 -0.0014172
-0.0022348 -0.0030367 -0.0039042 9.107e-05
0.03569 -0.0047723 -0.12865 0.37467 0.014777 -0.027938 -2.3062e-05 -0.0018144
-0.0032553 -0.00043505 -0.003388 -0.00059735
0.0029249 0.0037189 0.014688 -0.028008 0.20655 0.27597 -0.0017632 0.00028821
-0.0017302 0.0007077 -0.00092028 -0.00035401
0.002517 -0.0014438 -1.3031e-05 -0.0018095 -0.0017612 0.00027025 -0.0079681 0.28549
0.023038 0.0047936 -0.0023043 0.00095792
-0.0022674 -0.0030476 -0.0032859 -0.00041137 -0.0017428 0.00069255 0.023078 0.0047348
-0.061451 0.19942 0.018631 0.0084715
-0.0039379 0.0001459 -0.0033926 -0.00045275 -0.00096369 -0.00033477 -0.0024402 0.00093265
0.018621 0.0084966 -0.082485 0.30301
1160000000 0.090187 0.30183 0.023617 -0.021167 0.0026125 -0.00048289 -0.00019164 -0.0025229
-0.0041072 -0.0003966 -0.00093569 0.0038525
0.023599 -0.021095 -0.084667 0.37886 -0.0041339 -0.028966 -0.0017783 -0.0016571
-0.0024755 0.0027476 -0.0012221 0.0016278
0.0026265 -0.00049269 -0.0042591 -0.028976 0.24956 0.24468 -0.00059566 0.0017494
-0.00030336 0.0018325 -0.000936 7.7817e-05
-0.00020373 -0.0025134 -0.0017803 -0.0016345 -0.00060255 0.0017376 0.031648 0.2825
0.019442 -0.010043 -0.0027279 0.0056182
-0.0040606 -0.00036876 -0.0024694 0.0027746 -0.00032026 0.0018762 0.01943 -0.010082
-0.028501 0.20918 0.017257 0.00031557
-0.00091656 0.0038843 -0.001214 0.0016281 -0.00098655 8.1717e-05 -0.0027355 0.0056612
0.017326 0.0004384 -0.035342 0.3054
1220000000 0.13467 0.29011 0.0098477 -0.030117 -0.0015968 -0.00077141 -0.00013128 -0.0011
-0.0025631 0.002583 0.0012915 0.0019389
0.0098656 -0.030054 -0.040309 0.39044 -0.017086 -0.020845 -0.0024832 0.00048635
0.00029948 0.0029244 -0.00065421 0.0018051
-0.001586 -0.00075885 -0.017186 -0.020797 0.28837 0.20518 0.00090428 0.0015999
0.00058851 0.0011084 0.00024479 0.00072982
-0.00015743 -0.0011165 -0.0024937 0.00050166 0.00090162 0.0015943 0.071456 0.27386
0.0091976 -0.015818 0.0026593 0.001796
-0.0025408 0.0026038 0.0003139 0.0029269 0.00058221 0.0011227 0.0091539 -0.015825
-0.0051651 0.21887 0.013321 -0.012307
0.0013701 0.0018734 -0.00064079 0.0017935 0.00024969 0.00073515 0.002678 0.0017669
0.013326 -0.0123 -0.0034101 0.32095
1280000000 0.18425 0.26753 -0.0083494 -0.028231 -0.0018206 0.0026062 -0.0010991 -0.0019731
-0.00057954 0.0030905 0.0025131 0.0010134
-0.0083308 -0.028205 0.0057274 0.38116 -0.023703 -0.0081203 -0.0009604 0.0015241
0.0016998 0.0015493 0.00057761 0.0019842
-0.0018069 0.0026074 -0.023749 -0.0080412 0.31856 0.16115 0.0014268 -0.00020316
0.0010692 3.7208e-05 0.00026532 0.00042633
-0.0011023 -0.0019625 -0.00096144 0.0015189 0.0014209 -0.00020658 0.10799 0.25752
0.00021983 -0.017393 0.00049076 0.00013572
-0.00054987 0.0030739 0.0017113 0.0015153 0.0010849 4.1887e-05 0.0001925 -0.017406
0.031956 0.22319 0.0026858 -0.014245
0.0025225 0.00097992 0.00058775 0.0019549 0.0002953 0.00044177 0.00046764 0.00013259
0.0026528 -0.014252 0.044035 0.32106
1340000000 0.22119 0.2331 -0.017919 -0.018588 0.00091411 0.0044219 -0.0019111 -0.00074073
0.0015455 0.002611 0.0017201 -0.0015135
-0.01789 -0.018575 0.045198 0.37237 -0.021377 0.0044726 2.5995e-06 0.0019628
0.0017511 0.00057002 0.0013067 0.00087117
0.00095348 0.0044134 -0.02138 0.0045918 0.34033 0.11305 0.00093547 -0.00090349
0.00061648 -0.0003984 0.00022361 0.0003055
-0.0019192 -0.00072948 1.3622e-05 0.0019614 0.00092867 -0.0008982 0.14078 0.2373
-0.0080756 -0.014295 0.0012443 0.00011626
0.0015603 0.0026115 0.0017531 0.00056596 0.00062889 -0.00039643 -0.0081318 -0.014294
0.062771 0.21884 -0.0036317 -0.012877
0.0016969 -0.0015474 0.0013474 0.0008824 0.00017921 0.00029262 0.0012899 0.00016579
-0.0036016 -0.012884 0.082411 0.31559
1400000000 0.25379 0.19432 -0.023408 -0.0070832 0.005133 0.0030207 -0.0019625 0.00076947
0.0026025 0.00069971 0.00013794 -0.0014048
-0.023367 -0.0070842 0.082114 0.35892 -0.014563 0.012409 0.0013663 0.0012515
0.00097926 -0.00083998 0.0011462 0.00015962
0.0051485 0.0030113 -0.014516 0.012504 0.35312 0.059571 3.31e-07 -0.0014388
1.9237e-05 -0.00037123 0.00030812 0.00012418
-0.0019602 0.0007701 0.001382 0.0012369 5.7636e-06 -0.0014198 0.17048 0.20876
-0.013025 -0.0079691 -0.0004805 -0.00073245
0.0026085 0.00067472 0.00095842 -0.0008436 1.9901e-05 -0.00034134 -0.013032 -0.007952
0.096213 0.21418 -0.0097579 -0.008133
0.00015143 -0.0013919 0.0011802 0.0001909 0.00038069 0.00017474 -0.00046997 -0.00073111
-0.0098147 -0.008152 0.12645 0.30395
1460000000 0.27613 0.14986 -0.020284 0.0050001 0.0055747 -0.0017827 -0.0014451 0.0017978
0.0019833 -0.00079355 -0.00042303 -0.00086387
-0.020272 0.0049792 0.11606 0.33681 -0.0059146 0.015167 0.0017047 0.00012663
0.00082332 -0.0011317 0.0011617 -0.00067735
0.0055699 -0.0018259 -0.0058458 0.015212 0.35884 0.0051943 -0.0011363 -0.0011547
0.0002294 -0.00012873 0.00069388 -0.00038751
-0.0014543 0.0017967 0.0017114 0.00012439 -0.0011297 -0.0011302 0.19733 0.1797
-0.013418 -0.0021479 -0.00096528 0.0014518
0.0019786 -0.00081723 0.00081175 -0.0011191 0.00023357 -9.1991e-05 -0.013411 -0.0021121
0.12656 0.19924 -0.011366 -0.0025528
-0.0004106 -0.00083614 0.0011733 -0.00066989 0.00072901 -0.00041229 -0.00096401 0.0014787
-0.011335 -0.0025528 0.15972 0.28211
1520000000 0.2877 0.10787 -0.014502 0.010513 0.0031128 -0.0041914 0.00017934 0.0025625
0.0016923 -0.0017433 -0.0011542 -3.4945e-05
-0.014492 0.010497 0.14924 0.32189 0.0015572 0.012957 0.0015926 -0.00080727
7.4386e-05 -0.00084794 0.00027593 -0.0010143
0.0030843 -0.0042154 0.001627 0.012961 0.3519 -0.050794 -0.00092824 -0.00032734
0.00053668 -0.00083528 1.4326e-05 -4.8357e-05
0.00019881 0.0025575 0.0015913 -0.00081902 -0.0009207 -0.00031385 0.22099 0.1415
-0.012502 0.0025455 0.001119 0.0016247
0.0016885 -0.0017972 6.6366e-05 -0.0008337 0.00054945 -0.0008117 -0.0125 0.0025854
0.15486 0.18439 -0.011183 0.0017529
-0.00116 -6.0494e-05 0.00030237 -0.0010214 -9.4888e-06 -4.7738e-05 0.0010893 0.0016389
-0.011156 0.001765 0.19221 0.26077
1580000000 0.29641 0.061327 -0.0077804 0.013446 -0.00090967 -0.0047961 0.0013839 0.0017752
-0.000583 -0.0020929 -0.00031579 0.00042224
-0.0077748 0.01343 0.17618 0.29705 0.0051957 0.0081668 0.00041433 -0.0015906
-0.00038256 -0.0010063 -0.00024771 -0.00082521
-0.00094869 -0.0047916 0.0052396 0.0081489 0.33168 -0.10813 -0.001472 0.00038846
-0.00033297 -0.0011259 0.00014561 -0.00061253
0.0013839 0.001765 0.00040248 -0.0015973 -0.001477 0.00039542 0.23555 0.10173
-0.0093623 0.0063353 0.001814 0.00052408
-0.00060333 -0.0020897 -0.00038506 -0.00099613 -0.00031741 -0.0011371 -0.0093858 0.0063625
0.17958 0.16569 -0.0086878 0.0071406
-0.00033945 0.00038149 -0.00029178 -0.00087144 0.00017004 -0.00063141 0.001825 0.00056706
-0.0086999 0.0071462 0.22339 0.23355
1640000000 0.29769 0.019842 -0.0011701 0.012222 -0.0027962 -0.0024985 0.002545 0.00094891
-0.00088949 -0.001103 -0.00027936 0.00063243
-0.00118 0.012221 0.20536 0.27197 0.0057215 0.003408 -0.00076062 -0.0016427
-0.00090758 -0.00050296 -0.00057274 -0.00064476
-0.0028179 -0.0024906 0.0057588 0.0033716 0.30356 -0.1575 -0.00085203 0.0013059
-0.0011175 -0.00087893 -0.00010709 -0.00036998
0.0025471 0.00094834 -0.00076739 -0.0016337 -0.00084239 0.001299 0.24812 0.052082
-0.0057875 0.0068988 0.002121 -0.00072011
-0.00089369 -0.0010897 -0.00091923 -0.00047754 -0.0011084 -0.00086536 -0.005778 0.0068977
0.20271 0.14012 -0.0041291 0.009079
-0.00025354 0.00063824 -0.00056894 -0.00062101 -9.488e-05 -0.00035812 0.0021179 -0.00069012
-0.0041521 0.0091237 0.2487 0.20193
1700000000 0.28964 -0.025264 0.0021971 0.0093418 -0.0034396 8.3127e-05 0.002861 -0.0011385
-0.001877 -0.00037797 0.00067701 0.00045702
0.0021863 0.0093354 0.2232 0.24052 0.0037993 0.00065736 -0.0014058 -0.00054168
-0.00077737 -8.715e-05 -0.00094554 -0.00032538
-0.003426 8.9377e-05 0.0038086 0.00061912 0.2596 -0.1973 0.00031387 0.0015965
-0.001776 -0.00019144 -0.00052858 -0.00095092
0.0028558 -0.001145 -0.001415 -0.00053043 0.00030396 0.0015992 0.24466 0.0014251
-0.0039943 0.0070884 0.0012411 -0.0020756
-0.0018995 -0.00036815 -0.00079397 -8.5042e-05 -0.0017706 -0.0001808 -0.0039755 0.0070904
0.22009 0.11855 0.00031449 0.0091443
0.00065516 0.0004089 -0.00095155 -0.00035879 -0.00061307 -0.000959 0.0012186 -0.0020549
0.00030491 0.0091931 0.26437 0.16753
1760000000 0.27675 -0.073531 0.0043842 0.0060651 -0.0022872 0.00084348 0.0012996 -0.0032535
-0.00098474 0.00072339 0.00044931 -0.00051905
0.0043915 0.0060663 0.24898 0.20071 0.0016475 -0.0010313 -0.0011022 0.00025477
-0.0011855 0.00084371 -0.00052296 0.00058256
-0.0022751 0.00085744 0.0016489 -0.0010459 0.21059 -0.23011 0.0011396 0.0013068
-0.0011205 0.0014442 -0.0013461 -0.00037122
0.0012792 -0.0032619 -0.00111 0.00025853 0.0011364 0.001321 0.23475 -0.050663
-0.001757 0.0064922 -0.00039789 -0.0021911
-0.00097782 0.00072824 -0.0011682 0.00085276 -0.0011234 0.0014067 -0.001721 0.0064805
0.23462 0.081936 0.004165 0.0065498
0.00042022 -0.00052665 -0.00053985 0.00057043 -0.0013954 -0.00035729 -0.00041807 -0.0022186
0.0041498 0.006528 0.27661 0.12937
1820000000 0.25144 -0.11042 0.0045245 0.0025449 -0.00010865 0.0024021 -0.00087903 -0.0030779
-0.00068521 0.00062639 -4.9644e-05 -0.00019129
0.004517 0.0025456 0.25868 0.17065 -0.0002599 -4.1055e-05 -0.0012801 0.0009064
-0.00020416 0.0013774 -0.00045318 0.00055058
-7.4261e-05 0.0024054 -0.00026895 -2.5662e-05 0.16086 -0.24591 0.001603 0.00046809
-0.00039225 0.0021038 -0.0014184 0.00057471
-0.00090667 -0.0030665 -0.0012919 0.00091765 0.0015773 0.00048997 0.20372 -0.097987
-0.00097609 0.0051744 -0.0017248 -0.0013566
-0.0006976 0.00065501 -0.000195 0.0013905 -0.00036927 0.0021006 -0.0009818 0.005198
0.25078 0.050852 0.0048318 0.0030062
-2.0392e-05 -0.00019275 -0.00044514 0.00055108 -0.0014683 0.0005186 -0.0016366 -0.0014141
0.0048708 0.0029717 0.27798 0.093095
1880000000 0.21591 -0.14991 0.0023728 0.00032959 -0.00038169 0.0021743 -0.0028276 -0.0022324
-0.0001565 0.0013618 0.00028498 -0.00051524
0.0023586 0.00034882 0.26302 0.1243 -0.0021959 0.0016161 -0.0001 0.0016897
0.00064567 0.0014605 0.0002423 0.00089684
-0.00038343 0.0021726 -0.0021906 0.0016217 0.1086 -0.25554 0.0020823 -0.0010483
0.0015066 0.0020245 -0.0008626 0.0014092
-0.0028021 -0.0022326 -8.638e-05 0.0016909 0.0020793 -0.0010239 0.16223 -0.13743
-0.00090483 0.0041444 -0.0024109 0.00066947
-0.00013926 0.0013638 0.00065382 0.0014505 0.001498 0.0020322 -0.0008599 0.0041728
0.2522 0.016706 0.0043781 0.00083357
0.00030311 -0.00048833 0.00027731 0.00093323 -0.00085636 0.0014432 -0.0023527 0.00064199
0.0044022 0.00082854 0.27707 0.058874
1940000000 0.17631 -0.1751 0.00011627 -0.0014261 0.0014097 0.0019785 -0.0037281 0.00048356
0.0010653 0.00098418 -0.00058944 -0.00063027
0.0001382 -0.0014235 0.26341 0.092479 -0.0011802 0.0038382 0.00099781 0.0012904
0.0020598 0.00065855 0.00084889 0.00019536
0.0014433 0.0019525 -0.001152 0.0038589 0.062185 -0.24925 0.00042593 -0.0023777
0.0024454 0.0005445 0.00045314 0.00158
-0.0037176 0.00050128 0.0010088 0.0012912 0.00042707 -0.0023881 0.10921 -0.16699
-0.0020434 0.0037193 -0.0013627 0.0018929
0.0010772 0.00095325 0.0020655 0.00062509 0.002455 0.00055356 -0.0020317 0.0037147
0.25159 -0.02375 0.0030072 -0.0022143
-0.00060111 -0.00060108 0.00088213 0.00020664 0.0004698 0.0016169 -0.0013623 0.0017651
0.0030584 -0.0021987 0.2653 0.022485
2000000000 0.13014 -0.18886 -0.0037515 0.00057441 0.0024283 0.001457 -0.0023509 0.0036143
0.0009516 0.00030386 -0.00065223 0.0003554
-0.0037593 0.00058238 0.24912 0.057082 -0.00089137 0.0056224 0.0016579 0.0002826
0.0016172 -0.0014563 0.00043737 0.0001191
0.002462 0.001439 -0.00086146 0.0056466 0.018769 -0.2345 -0.0015604 -0.0015118
0.0019928 -0.0012979 0.0015918 0.0012674
-0.0023177 0.0036307 0.0016714 0.00025744 -0.0015567 -0.0015053 0.056077 -0.17545
-0.0033211 0.004648 0.00018144 0.002325
0.0009299 0.00030647 0.0016257 -0.0014764 0.0020065 -0.0012792 -0.0033102 0.0046525
