!Keysight Technologies,M9804A,MY58100912,A.14.10.03
!Date: Thursday, April 27, 2023 10:28:33
!Correction: S11(C  6-Port  ) 
!S12(C  6-Port  ) 
!S13(C  6-Port  ) 
!S14(C  6-Port  ) 
!S15(C  6-Port  ) 
!S16(C  6-Port  ) 
!S21(C  6-Port  ) 
!S22(C  6-Port  ) 
!S23(C  6-Port  ) 
!S24(C  6-Port  ) 
!S25(C  6-Port  ) 
!S26(C  6-Port  ) 
!S31(C  6-Port  ) 
!S32(C  6-Port  ) 
!S33(C  6-Port  ) 
!S34(C  6-Port  ) 
!S35(C  6-Port  ) 
!S36(C  6-Port  ) 
!S41(C  6-Port  ) 
!S42(C  6-Port  ) 
!S43(C  6-Port  ) 
!S44(C  6-Port  ) 
!S45(C  6-Port  ) 
!S46(C  6-Port  ) 
!S51(C  6-Port  ) 
!S52(C  6-Port  ) 
!S53(C  6-Port  ) 
!S54(C  6-Port  ) 
!S55(C  6-Port  ) 
!S56(C  6-Port  ) 
!S61(C  6-Port  ) 
!S62(C  6-Port  ) 
!S63(C  6-Port  ) 
!S64(C  6-Port  ) 
!S65(C  6-Port  ) 
!S66(C  6-Port  ) 
!S6P File: Measurement: :
# Hz S  RI   R 50
500000000 -0.33593 -0.034838 -0.0090812 -0.0029842 -0.0075262 0.011773 -0.0028649 0.011346
0.01216 0.0044059 -0.0030724 0.0078906
-0.0090674 -0.0029605 -0.41835 -0.049774 0.0077479 -0.011845 0.0018666 0.011292
0.0076414 0.0025976 0.0016562 0.012653
-0.0075298 0.011829 0.0077399 -0.011844 -0.26406 0.21059 0.0069677 0.0024768
-0.00024046 0.0085528 0.00097751 0.011479
-0.0028297 0.011334 0.0018885 0.011313 0.006977 0.0024885 -0.32663 0.047412
-0.019007 -0.0043092 0.017854 0.025233
0.012241 0.0043805 0.0076511 0.0025707 -0.00024082 0.0085478 -0.018987 -0.0043039
-0.22505 -0.18513 -0.026625 0.0050965
-0.0030248 0.007834 0.0016803 0.012631 0.00096143 0.011486 0.017853 0.025215
-0.026635 0.005092 -0.27257 -0.11232
560000000 -0.31527 0.12569 -0.022819 -0.062979 -0.00014718 0.012563 0.0068159 0.0096268
0.010679 0.0038462 0.010426 0.0078166
-0.022837 -0.062902 -0.37453 0.10834 -0.042021 -0.036893 0.01328 0.0035545
-0.013477 -0.004916 0.0044026 -0.00033869
-0.00014824 0.012519 -0.042202 -0.036815 -0.18228 0.25838 -0.00054552 -0.0051441
0.018926 0.0041933 0.007053 -0.006107
0.0068115 0.0096017 0.013277 0.0035608 -0.00054033 -0.0051677 -0.30194 0.13559
0.0045117 -0.02553 0.0042437 -0.020222
0.010668 0.0039021 -0.013531 -0.0048678 0.018937 0.0041774 0.0045127 -0.025518
-0.28509 -0.010381 0.0082735 -0.050089
0.010407 0.0078728 0.0044105 -0.00029744 0.0070257 -0.0060957 0.0042432 -0.020214
0.008291 -0.050103 -0.33 0.034055
620000000 -0.27257 0.1087 -0.023097 0.007188 0.0032532 0.0084835 0.0067645 -0.0057519
0.011084 -0.00026958 -0.00010842 -0.0020289
-0.023067 0.0071856 -0.40236 0.062166 -0.018882 -0.00047818 -0.0012336 -0.0020295
0.010148 -0.0071453 0.00092789 -0.0026693
0.0033267 0.0084307 -0.0189 -0.00042981 -0.15293 0.26703 -0.0014365 -0.0051353
-0.0043585 -0.003247 0.0083967 -0.0036232
0.0068011 -0.0058087 -0.0012532 -0.0020273 -0.0014415 -0.0051292 -0.2614 0.14554
-0.038298 -0.019126 0.014421 0.023567
0.011025 -0.00036467 0.010125 -0.0071795 -0.0043507 -0.0032526 -0.038311 -0.019081
-0.20387 -0.050021 -0.039406 0.014036
-9.8454e-05 -0.0021026 0.00091441 -0.0026833 0.0084187 -0.003648 0.014447 0.023564
-0.039459 0.014025 -0.24902 -0.0028558
680000000 -0.23264 0.19317 -0.027784 -0.014064 0.0049017 0.0050364 0.0010487 -0.0073445
-0.0036008 -0.011181 0.0042157 -0.0062828
-0.027765 -0.014061 -0.38718 0.15898 -0.03299 -0.0013213 -0.0017231 -0.00023549
-0.0027837 -0.0088444 -0.0011105 -0.0019303
0.0048741 0.0050835 -0.033021 -0.0012092 -0.10245 0.28686 -0.00084983 0.00040757
-0.002204 0.00094982 -0.0029082 -0.0094784
0.0010094 -0.007328 -0.0017253 -0.00021191 -0.00083593 0.00041069 -0.2197 0.19508
-0.023691 -0.0087964 -0.0087425 -0.010201
-0.0036026 -0.011163 -0.0028109 -0.0088516 -0.002194 0.0009651 -0.02371 -0.0087725
-0.25153 0.047234 -0.0056882 -0.0094848
0.0042208 -0.0062977 -0.0010912 -0.0019412 -0.0029059 -0.0094889 -0.0087608 -0.010199
-0.0056948 -0.0094789 -0.25811 0.098941
740000000 -0.19012 0.18767 -0.038598 0.025947 0.012577 -0.0049425 -0.00086504 -0.0039392
-0.004599 -0.0025694 -0.0061648 0.0036387
-0.038604 0.025882 -0.33477 0.17749 -0.034985 0.035221 -0.00038527 -0.0062139
-0.01234 0.0072712 -0.0021313 -0.0056359
0.012538 -0.0049785 -0.034929 0.035345 -0.069023 0.28639 -0.0014535 0.0036019
-0.0020979 -0.0038694 -0.001557 0.00067844
-0.00091529 -0.0039614 -0.00039574 -0.0062182 -0.0014435 0.0036172 -0.20265 0.20254
-0.042801 -0.0084612 0.021308 0.013414
-0.004732 -0.0025348 -0.012344 0.0072821 -0.0021087 -0.0038929 -0.042849 -0.0084245
-0.1576 0.07268 -0.041365 -0.00040833
-0.0061451 0.0035833 -0.0021536 -0.0056326 -0.0015584 0.00069208 0.021338 0.013412
-0.041383 -0.00042412 -0.24665 0.10501
800000000 -0.15792 0.22834 -0.022835 0.017226 0.0050965 -0.010207 -0.0049383 -0.0019745
-0.003849 0.0027132 0.0042247 0.0011912
-0.022823 0.017202 -0.33789 0.24829 -0.0079141 0.034266 -0.0021498 0.0021984
-0.0004508 0.0033553 0.00098519 0.005242
0.0050533 -0.010242 -0.0078291 0.034322 -0.027617 0.30948 0.001067 0.0014239
0.00068367 0.0036243 -0.0020138 0.0011408
-0.0049498 -0.0019619 -0.0021463 0.0021996 0.0010719 0.0014427 -0.17477 0.23019
-0.028659 0.01224 0.012474 -0.0099295
-0.0038285 0.0027037 -0.00043994 0.0033592 0.00068139 0.0036348 -0.028647 0.012299
-0.20153 0.09552 -0.017684 0.01717
0.0042276 0.0011911 0.0010001 0.0052425 -0.002019 0.0011782 0.012468 -0.009952
-0.017696 0.017171 -0.23866 0.15611
860000000 -0.12298 0.24942 -0.01737 0.031227 -0.0034973 -0.0097257 -0.0025022 0.001282
0.0044114 0.0051521 -0.0030397 -0.0026765
-0.017375 0.031196 -0.28983 0.29043 0.0082014 0.034153 0.00023342 0.0021414
0.0044342 0.00014974 0.0033114 0.00041671
-0.0035321 -0.0097107 0.0083241 0.034152 0.021175 0.31737 -0.00044508 -0.00029862
0.0028662 -0.0014048 0.0016141 0.0044915
-0.0025141 0.0012931 0.0002378 0.0021415 -0.00044457 -0.00029466 -0.13911 0.24211
-0.018274 0.019166 -0.0064071 -0.0086596
0.0044143 0.005207 0.0044398 0.0001161 0.0028715 -0.0014167 -0.018238 0.019212
-0.15209 0.1445 -0.024512 0.015297
-0.0030515 -0.0026558 0.0033257 0.00042282 0.00162 0.0044767 -0.0064195 -0.0086456
-0.024507 0.015289 -0.18814 0.19798
920000000 -0.097594 0.27279 0.0050595 0.037954 -0.0093919 -0.0040575 -0.0017766 0.002449
0.0013004 0.0014027 0.0021755 -0.0015382
0.0050497 0.037925 -0.26068 0.31126 0.028036 0.021671 0.0014923 0.0010941
0.0066735 -0.00070284 0.0037661 -0.003031
-0.0094049 -0.0040363 0.028143 0.021609 0.067641 0.31748 0.0016943 -9.7139e-05
0.0011882 -0.00032142 0.00084839 -0.0010194
-0.0017612 0.0024603 0.0015197 0.0010913 0.0016962 -9.4179e-05 -0.1145 0.25906
-0.010603 0.030201 0.0025328 -0.0062091
0.0013129 0.0013925 0.0066871 -0.0007566 0.0011988 -0.00030923 -0.01055 0.030229
-0.14172 0.15051 -0.0025848 0.027401
0.0021886 -0.0015558 0.0037671 -0.0030158 0.00084312 -0.0010307 0.0025484 -0.0062156
-0.0026058 0.027379 -0.19279 0.21247
980000000 -0.049705 0.29233 0.018014 0.030061 -0.0086362 0.0047797 0.0025529 0.0038718
0.0039655 -0.0018924 -0.002928 -0.0020025
0.017999 0.030043 -0.20746 0.34509 0.032839 0.0045212 0.0020187 -4.464e-05
0.001138 -0.0062359 -0.00065839 -0.0021507
-0.0086244 0.0048126 0.032883 0.0044298 0.11401 0.31045 0.00044102 -0.0011583
7.057e-05 -0.00207 0.0015789 -2.1856e-05
0.0025469 0.0038517 0.0020274 -3.1386e-05 0.0004428 -0.0011523 -0.076208 0.27069
0.0073632 0.029035 -0.0093372 -0.0065462
0.0039706 -0.0019019 0.0011342 -0.0062645 6.549e-05 -0.0020678 0.0074222 0.029026
-0.11022 0.17843 0.0047384 0.018698
-0.0029345 -0.0019784 -0.00068139 -0.0021435 0.001579 -2.4333e-05 -0.0093373 -0.0065253
0.0047237 0.018672 -0.15019 0.25706
1040000000 -0.0068312 0.30044 0.033447 0.017816 -0.00079893 0.0068696 0.0028009 0.00061432
-0.00013935 -0.0037912 -0.00044834 -0.0013533
0.033418 0.0178 -0.17174 0.35793 0.028973 -0.014886 0.0015055 -0.0017413
-0.0025209 -0.0022042 -0.0013716 -0.0026729
-0.00079427 0.0068635 0.028967 -0.014997 0.16004 0.29635 -0.00050431 -0.0014117
-0.0016321 -0.00076324 -0.00042164 -0.0012601
0.0028249 0.00059117 0.0015185 -0.0017277 -0.00051198 -0.0014145 -0.048293 0.28053
0.01827 0.017306 -0.0029448 0.0022056
-0.00019052 -0.0038099 -0.0025344 -0.0022046 -0.0016161 -0.00075296 0.018337 0.017263
-0.079791 0.18733 0.013335 0.018041
-0.00044641 -0.0013742 -0.0013815 -0.0026403 -0.00041695 -0.0012623 -0.002939 0.0022074
0.013321 0.018036 -0.128 0.27574
1100000000 0.039092 0.30746 0.035708 -0.0044858 0.0030886 0.003607 0.0026002 -0.0015191
-0.0022096 -0.0030142 -0.0037713 -2.5023e-05
0.035683 -0.0044662 -0.12812 0.37472 0.014782 -0.027511 2.1401e-05 -0.0017908
-0.0030678 -0.00039312 -0.003276 -0.00055803
0.0030969 0.0035838 0.014686 -0.027586 0.20609 0.27575 -0.0017328 0.00022196
-0.001635 0.00062228 -0.00087152 -0.0003981
0.0025872 -0.0015177 1.4791e-05 -0.0017934 -0.0017292 0.00022301 -0.0075522 0.28557
0.022659 0.0052881 -0.0020728 0.0011036
-0.0022303 -0.0029874 -0.0030808 -0.00037162 -0.0016295 0.0006276 0.022667 0.0052499
-0.060681 0.20064 0.018475 0.0088445
-0.003769 3.7753e-06 -0.0032814 -0.00053625 -0.00086162 -0.0004032 -0.0020782 0.0011002
0.018476 0.0088348 -0.080668 0.30358
1160000000 0.090623 0.30181 0.023672 -0.020803 0.0027888 -0.00065218 -0.00025235 -0.0026164
-0.0039143 -0.00043844 -0.00098111 0.0037572
0.023689 -0.020778 -0.084213 0.37837 -0.0038712 -0.028621 -0.0017554 -0.0015974
-0.0023657 0.0024882 -0.0012578 0.0015478
0.0027868 -0.0006674 -0.0039871 -0.028625 0.24888 0.24486 -0.0006117 0.0016401
-0.00039784 0.0017159 -0.0010441 1.8973e-05
-0.00024934 -0.0026202 -0.001753 -0.0015819 -0.0006134 0.0016379 0.031972 0.28213
0.019347 -0.0095959 -0.0025021 0.0055706
-0.0039174 -0.00038987 -0.0023472 0.0025057 -0.00038685 0.0017221 0.019341 -0.0096152
-0.027326 0.21023 0.017006 0.00081091
-0.00096973 0.0037477 -0.0012623 0.0015672 -0.0010365 1.902e-05 -0.0025072 0.0055724
0.017013 0.00081169 -0.033993 0.30593
1220000000 0.135 0.28989 0.010217 -0.029784 -0.0015681 -0.0010131 -0.00022967 -0.0010483
-0.0025296 0.0025916 0.0012706 0.0018106
0.010244 -0.02975 -0.040076 0.3899 -0.016634 -0.020705 -0.0024398 0.00046195
0.00021285 0.0027835 -0.00067147 0.0017509
-0.0015727 -0.0010117 -0.016739 -0.020653 0.28788 0.20583 0.00082892 0.00151
0.00058664 0.0011199 0.00018263 0.00066157
-0.00023363 -0.0010551 -0.0024442 0.0004758 0.00083143 0.0015046 0.071454 0.27364
0.0093449 -0.015195 0.0029304 0.0016301
-0.002517 0.0026024 0.00023312 0.002787 0.00058091 0.0011303 0.0093127 -0.015197
-0.0033492 0.21935 0.01352 -0.011747
0.0012795 0.001819 -0.00067141 0.001764 0.00018086 0.00066093 0.0029292 0.0016284
0.01352 -0.011759 -0.0020464 0.32099
1280000000 0.18428 0.267 -0.0078327 -0.028179 -0.0018992 0.0023413 -0.0011041 -0.0019392
-0.00050589 0.0029276 0.0024459 0.00093991
-0.0078024 -0.028148 0.0055643 0.38047 -0.023154 -0.0083177 -0.00093577 0.001392
0.0014884 0.0015037 0.0004728 0.0019155
-0.0018902 0.0023527 -0.023228 -0.0082188 0.31858 0.16203 0.0012541 -0.00019539
0.00096972 8.8867e-05 0.00026214 0.00043891
-0.0011069 -0.0019361 -0.0009242 0.001392 0.0012471 -0.00019389 0.10788 0.25735
0.00093949 -0.016979 0.00052199 -0.00010047
-0.00049873 0.0029097 0.0015004 0.0014831 0.00097563 8.8411e-05 0.00091577 -0.016975
0.033597 0.22312 0.0029297 -0.013912
0.0024527 0.00092225 0.00048494 0.0019119 0.00026385 0.00043795 0.00050995 -9.7184e-05
0.0029249 -0.013901 0.045195 0.32122
1340000000 0.22088 0.23272 -0.017418 -0.018938 0.00073228 0.0042659 -0.0018066 -0.00070206
0.0014611 0.0026003 0.0015622 -0.0014761
-0.017391 -0.018926 0.044652 0.37203 -0.021148 0.0040156 -4.2479e-05 0.0018763
0.0016501 0.0006945 0.0012442 0.00086255
0.00074489 0.0042708 -0.021148 0.0041104 0.3409 0.11398 0.0008912 -0.00078889
0.00063466 -0.00037789 0.0001609 0.00031663
-0.0018143 -0.00068857 -3.8062e-05 0.0018742 0.00088928 -0.00079701 0.14059 0.23736
-0.0072172 -0.014223 0.0012739 -0.00014773
0.0014634 0.0025685 0.0016555 0.00068938 0.00063116 -0.00038241 -0.0072415 -0.014218
0.064073 0.21806 -0.0028638 -0.012609
0.00156 -0.001491 0.0012564 0.00086189 0.00015706 0.00031457 0.001266 -0.00014364
-0.0028684 -0.012612 0.0835 0.31556
1400000000 0.25319 0.19421 -0.023139 -0.0075984 0.0048418 0.0030071 -0.001946 0.00068081
0.0024487 0.00062238 0.00014359 -0.0012589
-0.023111 -0.0076042 0.081559 0.35891 -0.014623 0.011897 0.0012797 0.0012851
0.00096313 -0.00068132 0.0011438 0.0002191
0.0048594 0.0029864 -0.014569 0.011979 0.35408 0.059963 6.4309e-05 -0.0013044
2.2118e-05 -0.00034288 0.00033349 0.00016648
-0.0019452 0.00069068 0.0012869 0.0012789 7.2662e-05 -0.0012959 0.1703 0.20896
-0.01211 -0.0085075 -0.00067814 -0.0009347
0.0024439 0.0006001 0.00097329 -0.00069426 2.6189e-05 -0.00034879 -0.012119 -0.0084878
0.097142 0.21327 -0.0091131 -0.0082339
0.00013035 -0.0012781 0.001144 0.00020988 0.00033535 0.00016419 -0.00066866 -0.00092178
-0.0091205 -0.0082429 0.12772 0.30392
1460000000 0.27555 0.15024 -0.020334 0.0043499 0.0052664 -0.0016427 -0.0015182 0.0017969
0.0018094 -0.0006213 -0.00033598 -0.00083281
-0.020321 0.0043306 0.11546 0.33715 -0.006332 0.014793 0.0016767 0.0002031
0.00089061 -0.0010392 0.0011436 -0.00057914
0.0052643 -0.0016628 -0.0062552 0.014833 0.35991 0.0049222 -0.00096944 -0.001148
0.00023254 -0.0001297 0.00066214 -0.00043284
-0.0015183 0.0017966 0.00168 0.00020453 -0.00097224 -0.0011519 0.19728 0.17998
-0.012999 -0.0031486 -0.0012432 0.00138
0.0018054 -0.00063541 0.00088224 -0.0010464 0.000236 -0.00013213 -0.013009 -0.0031382
0.1269 0.1982 -0.010736 -0.0030488
-0.00034754 -0.00084325 0.0011367 -0.00058282 0.00066553 -0.00043642 -0.0012317 0.0013982
-0.010738 -0.003038 0.16079 0.28206
1520000000 0.28732 0.10852 -0.014872 0.010054 0.0031105 -0.0039307 0.0001716 0.0024862
0.0017197 -0.0015945 -0.0011343 -0.00014288
-0.014872 0.010035 0.14894 0.32244 0.0011225 0.012903 0.0015934 -0.00078331
0.00015423 -0.00090982 0.000286 -0.00097283
0.0030945 -0.003942 0.0011946 0.012912 0.35253 -0.0514 -0.00093834 -0.00038389
0.000507 -0.000796 7.6123e-05 6.5161e-06
0.00018459 0.0024797 0.0015937 -0.00079402 -0.00092605 -0.00038687 0.22126 0.14193
-0.012709 0.0014367 0.00085229 0.0016633
0.0017163 -0.0016049 0.00014578 -0.00091216 0.00050596 -0.0007997 -0.012706 0.0014687
0.15486 0.18378 -0.010948 0.00097465
-0.0011523 -0.00013726 0.00027218 -0.00097516 8.156e-05 7.5525e-06 0.00086917 0.0016533
-0.010947 0.00099484 0.1935 0.26052
1580000000 0.29638 0.062142 -0.0083841 0.013234 -0.00081736 -0.0045412 0.0013965 0.0018554
-0.00044175 -0.0019509 -0.00038629 0.00028674
-0.0083813 0.01321 0.1762 0.2976 0.0048175 0.0083333 0.00047403 -0.0015732
-0.00037767 -0.001098 -0.00025629 -0.0008597
-0.00083871 -0.0045376 0.004858 0.0083215 0.3318 -0.10902 -0.0015115 0.00034374
-0.00023529 -0.0011067 0.00015215 -0.00060255
0.0014001 0.0018472 0.00046957 -0.0015836 -0.001525 0.00035963 0.23597 0.102
-0.010235 0.0056255 0.0016001 0.00078541
-0.00045124 -0.0019488 -0.00038138 -0.0010929 -0.00024002 -0.0011017 -0.010242 0.0056476
0.17933 0.16531 -0.0088656 0.0063261
-0.00037926 0.00030168 -0.00026021 -0.0008596 0.00015894 -0.00060485 0.0016084 0.00076754
-0.0088628 0.0063332 0.2248 0.23316
1640000000 0.29811 0.020583 -0.0017644 0.012375 -0.0025889 -0.0025469 0.0024752 0.00098601
-0.00078107 -0.0011063 -0.00032439 0.00068635
-0.0017734 0.012352 0.20562 0.27246 0.0055901 0.0037191 -0.00068156 -0.0016082
-0.0009794 -0.00050792 -0.00053132 -0.00061972
-0.002601 -0.0025375 0.0056096 0.0036939 0.3032 -0.15796 -0.00085147 0.001287
-0.00097511 -0.00091947 -2.7094e-05 -0.00029895
0.0024931 0.00097101 -0.00069629 -0.0016073 -0.0008548 0.0012745 0.24868 0.052086
-0.0069882 0.0067784 0.00216 -0.00059205
-0.00079642 -0.0011141 -0.00098618 -0.00050151 -0.00099168 -0.00091998 -0.0069901 0.0068017
0.20252 0.14023 -0.0047071 0.0084395
-0.00032414 0.00069588 -0.00053458 -0.00061702 -2.9104e-05 -0.00030718 0.0021614 -0.00060647
-0.0047174 0.0084539 0.24973 0.20099
1700000000 0.29047 -0.025012 0.0017979 0.0098293 -0.003316 0.00011383 0.0028692 -0.0010542
-0.0018317 -0.00046116 0.0006039 0.00051138
0.0017915 0.0098122 0.22371 0.24075 0.0037695 0.00088828 -0.0013795 -0.00056156
-0.00084864 -2.3586e-05 -0.00089959 -0.00035654
-0.0033125 0.00013117 0.0037848 0.00087291 0.25925 -0.19778 0.00032078 0.0016077
-0.0017171 -0.00027488 -0.00058603 -0.00095205
0.0028667 -0.0010581 -0.0013803 -0.00055703 0.00032962 0.0016111 0.24523 0.00098546
-0.0049699 0.0075334 0.001228 -0.001863
-0.0018401 -0.0004564 -0.00084817 -1.224e-05 -0.0017128 -0.00026911 -0.0049626 0.0075591
0.22011 0.11882 -0.00040276 0.0089738
0.00061349 0.00050069 -0.00090106 -0.00034388 -0.00059086 -0.00095374 0.0012193 -0.0018704
-0.00039127 0.0089853 0.26528 0.16623
1760000000 0.27745 -0.073803 0.0043752 0.0066168 -0.0021737 0.00079964 0.0013332 -0.0032223
-0.0010296 0.00061582 0.00043942 -0.000441
0.0043596 0.0066143 0.24946 0.20063 0.0017378 -0.00083449 -0.0011023 0.00018789
-0.0011349 0.00090011 -0.00056308 0.00058994
-0.0021691 0.00080689 0.0017283 -0.00085579 0.21006 -0.23036 0.0011454 0.0012823
-0.001081 0.0013659 -0.0013186 -0.00034215
0.0013188 -0.0032282 -0.0011119 0.00018699 0.0011391 0.0012823 0.23494 -0.051257
-0.002318 0.0073275 -0.00027295 -0.0020754
-0.0010385 0.0006345 -0.0011271 0.00090768 -0.0010773 0.001365 -0.0022978 0.0073397
0.23491 0.082198 0.0033331 0.0067389
0.00042987 -0.00044404 -0.00055795 0.00059706 -0.0013118 -0.00033863 -0.00027807 -0.0020784
0.0033551 0.0067479 0.2769 0.12817
1820000000 0.25187 -0.11086 0.0047631 0.0029735 1.1843e-06 0.0023396 -0.00084605 -0.003109
-0.00080209 0.00061944 1.9116e-05 -0.0001971
0.004758 0.0029795 0.2591 0.17039 -0.00016095 0.00014959 -0.0013714 0.00084377
-0.00013268 0.0013884 -0.00046077 0.00053705
2.4698e-05 0.0023481 -0.00016646 0.0001492 0.16013 -0.24552 0.0015375 0.00042262
-0.00044919 0.0021511 -0.0013871 0.0005837
-0.00085481 -0.0030997 -0.0013659 0.00085209 0.0015245 0.00042753 0.20368 -0.098726
-0.00090763 0.0060531 -0.0015927 -0.0012245
-0.00080995 0.00062849 -0.00012301 0.001388 -0.00044723 0.0021612 -0.00088684 0.0060679
0.25156 0.051075 0.0042101 0.0034641
1.4954e-05 -0.00020236 -0.00045219 0.00053757 -0.0013833 0.00059469 -0.0016045 -0.0012144
0.0042259 0.0034745 0.27841 0.091904
1880000000 0.216 -0.15057 0.0027477 0.00057049 -0.00032489 0.0020405 -0.0028695 -0.0022355
-0.00022541 0.0014476 0.00041606 -0.00060441
0.0027403 0.00056638 0.26324 0.12379 -0.0020048 0.0017481 -0.00019068 0.0016848
0.00069303 0.0013544 0.00022355 0.0009677
-0.00032332 0.0020433 -0.0019962 0.0017581 0.10821 -0.25484 0.0019774 -0.0010075
0.0013547 0.0020496 -0.00081216 0.0013912
-0.0028794 -0.002213 -0.00017599 0.0016863 0.0019737 -0.00099549 0.16175 -0.13785
-0.00043238 0.0049272 -0.0020816 0.00063483
-0.00020836 0.0014592 0.00070781 0.0013595 0.0013533 0.0020465 -0.00041916 0.0049194
0.25303 0.016661 0.0041326 0.0014407
0.00041028 -0.00059106 0.00022929 0.00096495 -0.00080668 0.0013878 -0.0020816 0.00064842
0.0041443 0.0014172 0.27698 0.057657
1940000000 0.17606 -0.17562 0.00052656 -0.0014186 0.0012938 0.0018376 -0.0037083 0.00050442
0.0010419 0.00108 -0.00067757 -0.00075528
0.00053008 -0.0014144 0.26335 0.091979 -0.0009663 0.0038524 0.00094726 0.0013492
0.0019948 0.00053024 0.00084879 0.00020939
0.0013013 0.0018344 -0.00093706 0.0038543 0.062149 -0.24843 0.00041361 -0.0024206
0.0024056 0.00057869 0.00030797 0.0016155
-0.0037002 0.00052094 0.0009646 0.0013346 0.00039487 -0.0024328 0.10875 -0.16732
-0.0013575 0.0039957 -0.0011775 0.0018313
0.0010505 0.0010558 0.0019961 0.00051216 0.0024126 0.00056552 -0.0013307 0.0040054
0.25257 -0.02422 0.0030837 -0.0013808
-0.00069575 -0.00075273 0.00084669 0.0002051 0.00032277 0.0016152 -0.0011705 0.0018411
0.0031197 -0.0014063 0.26509 0.021709
2000000000 0.12977 -0.18917 -0.0034444 0.00042294 0.0024329 0.0015207 -0.00226 0.003619
0.0010171 0.00037229 -0.00073323 0.00029666
-0.0034329 0.00041517 0.24884 0.056513 -0.00071704 0.0055321 0.0016547 0.00031466
0.0014721 -0.0015 0.00047783 0.00012611
0.0024557 0.0015048 -0.00067616 0.0055551 0.018958 -0.23383 -0.0015432 -0.0013383
0.0020631 -0.0012041 0.0015431 0.0012807
-0.0022432 0.0036207 0.0016665 0.00030315 -0.0015388 -0.0013454 0.055543 -0.17537
-0.0026357 0.00474 0.0004496 0.0021503
0.0010259 0.00035981 0.0014683 -0.001516 0.0020527 -0.0012263 -0.0026434 0.0047442
