!Keysight Technologies,M9804A,MY58100912,A.14.10.03
!Date: Thursday, April 27, 2023 10:28:33
!Correction: S11(C  6-Port  ) 
!S12(C  6-Port  ) 
!S13(C  6-Port  ) 
!S14(C  6-Port  ) 
!S15(C  6-Port  ) 
!S16(C  6-Port  ) 
!S21(C  6-Port  ) 
!S22(C  6-Port  ) 
!S23(C  6-Port  ) 
!S24(C  6-Port  ) 
!S25(C  6-Port  ) 
!S26(C  6-Port  ) 
!S31(C  6-Port  ) 
!S32(C  6-Port  ) 
!S33(C  6-Port  ) 
!S34(C  6-Port  ) 
!S35(C  6-Port  ) 
!S36(C  6-Port  ) 
!S41(C  6-Port  ) 
!S42(C  6-Port  ) 
!S43(C  6-Port  ) 
!S44(C  6-Port  ) 
!S45(C  6-Port  ) 
!S46(C  6-Port  ) 
!S51(C  6-Port  ) 
!S52(C  6-Port  ) 
!S53(C  6-Port  ) 
!S54(C  6-Port  ) 
!S55(C  6-Port  ) 
!S56(C  6-Port  ) 
!S61(C  6-Port  ) 
!S62(C  6-Port  ) 
!S63(C  6-Port  ) 
!S64(C  6-Port  ) 
!S65(C  6-Port  ) 
!S66(C  6-Port  ) 
!S6P File: Measurement: :
# Hz S  RI   R 50
500000000 -0.33685 -0.035358 -0.0095509 -0.0036322 -0.0079968 0.011641 -0.0033733 0.011513
0.012185 0.0048532 -0.0034989 0.0077661
-0.0095606 -0.0036602 -0.41912 -0.049758 0.0075287 -0.011251 0.0018462 0.01196
0.0075676 0.0026372 0.0012596 0.013269
-0.0079463 0.011658 0.0075294 -0.011389 -0.2645 0.21098 0.007071 0.0031252
-0.00017073 0.008473 0.0007762 0.012032
-0.0032977 0.011586 0.0018394 0.01189 0.0070807 0.0031288 -0.32683 0.04706
-0.019833 -0.004354 0.01785 0.025253
0.011982 0.0047499 0.0075201 0.0023299 -0.00015564 0.0084633 -0.019829 -0.0043349
-0.22571 -0.18539 -0.027392 0.0047277
-0.0035054 0.0078251 0.0013996 0.013155 0.00077229 0.012048 0.01787 0.025229
-0.027429 0.0047196 -0.27221 -0.114
560000000 -0.31607 0.12407 -0.023923 -0.062662 8.8324e-05 0.011811 0.0064407 0.0099183
0.010534 0.0039164 0.0098669 0.007579
-0.023846 -0.062616 -0.3758 0.10849 -0.042168 -0.036913 0.013511 0.0037204
-0.013832 -0.0044677 0.0043767 -0.00067711
0.00013204 0.011801 -0.04235 -0.036649 -0.18248 0.25843 -0.00063235 -0.0048579
0.019712 0.0040076 0.0070077 -0.005958
0.0064967 0.0099497 0.013631 0.0036343 -0.00062503 -0.0048488 -0.30199 0.13557
0.0038265 -0.024559 0.004431 -0.019286
0.010545 0.0039117 -0.014041 -0.0044794 0.019706 0.004009 0.0038202 -0.024568
-0.2847 -0.010262 0.0073835 -0.050052
0.009886 0.0076125 0.0045098 -0.00064226 0.0070277 -0.0059352 0.0044308 -0.019361
0.0073872 -0.050079 -0.33073 0.031851
620000000 -0.2732 0.10955 -0.02318 0.0073945 0.003457 0.0086142 0.0067428 -0.0057032
0.011395 -0.00046378 9.4589e-05 -0.0024279
-0.023156 0.0074143 -0.40235 0.062263 -0.018879 -0.00015879 -0.0012653 -0.0020726
0.010262 -0.0072474 0.0011515 -0.0026548
0.0035797 0.0085699 -0.018908 -0.00017927 -0.1525 0.26756 -0.0016391 -0.0052244
-0.004014 -0.0034698 0.0081782 -0.003476
0.0066868 -0.0057192 -0.0012422 -0.0020174 -0.0016341 -0.0052091 -0.26135 0.14558
-0.038679 -0.018289 0.014184 0.024234
0.01149 -0.00054555 0.010181 -0.0072964 -0.0040182 -0.0034712 -0.038695 -0.018261
-0.20432 -0.050287 -0.040552 0.013974
0.00017143 -0.0023847 0.001116 -0.0026746 0.0081658 -0.003538 0.014219 0.024223
-0.040579 0.013996 -0.24961 -0.0041361
680000000 -0.23322 0.19296 -0.027894 -0.013977 0.0048309 0.0050946 0.0010501 -0.0077479
-0.0034215 -0.011013 0.0041262 -0.0063619
-0.027869 -0.013982 -0.38709 0.159 -0.03304 -0.0012698 -0.0017665 -0.00032905
-0.0028142 -0.0089285 -0.0010951 -0.0019451
0.0048469 0.0050757 -0.033082 -0.0011851 -0.10223 0.28715 -0.00078681 0.00014955
-0.0023895 0.00086813 -0.0028735 -0.009457
0.0010419 -0.007733 -0.0018082 -0.00034614 -0.00078186 0.00015112 -0.21914 0.19486
-0.023663 -0.0083453 -0.0085682 -0.010455
-0.00348 -0.010975 -0.0028545 -0.0089448 -0.0023809 0.00086206 -0.023683 -0.0083368
-0.25178 0.047767 -0.0058461 -0.0093031
0.0041341 -0.0064097 -0.0010842 -0.00194 -0.0028848 -0.0094292 -0.0085489 -0.010481
-0.0058164 -0.0093468 -0.2588 0.098705
740000000 -0.18964 0.18826 -0.038671 0.026433 0.012682 -0.0052232 -0.00084369 -0.0040005
-0.0047321 -0.0024616 -0.0063592 0.0031273
-0.038654 0.026448 -0.33498 0.17743 -0.034895 0.035359 -0.00072651 -0.0062737
-0.011902 0.0077306 -0.0024964 -0.0057885
0.012684 -0.0051975 -0.03487 0.035456 -0.068807 0.28604 -0.0015077 0.0033823
-0.0025713 -0.0041457 -0.0015067 0.00036367
-0.00084285 -0.0040255 -0.00072122 -0.0062663 -0.0014957 0.0033782 -0.20243 0.20243
-0.043016 -0.0083786 0.022051 0.013299
-0.0047568 -0.0024141 -0.011892 0.0077834 -0.0025938 -0.0041447 -0.043053 -0.0083325
-0.15686 0.071873 -0.041787 -4.5532e-06
-0.0062787 0.0031234 -0.0025185 -0.0057913 -0.0014614 0.000284 0.022038 0.013271
-0.041771 -0.00011196 -0.24655 0.10395
800000000 -0.15744 0.22812 -0.022527 0.017301 0.0053067 -0.010537 -0.0048632 -0.0019259
-0.0040751 0.0027642 0.0043732 0.00099332
-0.022512 0.017275 -0.33777 0.24814 -0.0078242 0.034362 -0.0021136 0.0022486
-0.00055824 0.0034784 0.0012121 0.0054096
0.0052799 -0.010551 -0.0077296 0.034406 -0.027609 0.30928 0.0011611 0.0015119
0.00072413 0.0035277 -0.0018008 0.0010821
-0.0048662 -0.0019273 -0.002115 0.0022507 0.0011454 0.0015067 -0.17481 0.22999
-0.028541 0.012471 0.012915 -0.0098814
-0.0040689 0.0027782 -0.0005658 0.0034734 0.00074086 0.0035292 -0.02854 0.01253
-0.20094 0.09529 -0.01755 0.017211
0.0043652 0.000987 0.0012329 0.0054103 -0.0018081 0.0010675 0.012918 -0.0099093
-0.017547 0.0172 -0.23806 0.1552
860000000 -0.12288 0.24927 -0.017212 0.031215 -0.0033407 -0.009952 -0.0023996 0.0014041
0.0041496 0.0051546 -0.0029177 -0.0029024
-0.017233 0.031166 -0.28976 0.29034 0.0083905 0.034477 0.00024797 0.0021595
0.0044574 0.00020461 0.003473 0.0002782
-0.0033793 -0.0099226 0.0084941 0.034493 0.020831 0.31736 -0.000433 -0.0002777
0.0028675 -0.0015119 0.001768 0.0043002
-0.0024006 0.0014124 0.00025306 0.0021699 -0.00043258 -0.00027901 -0.13939 0.24209
-0.018442 0.018963 -0.0058871 -0.008934
0.0041765 0.0051438 0.0044702 0.00019479 0.0028676 -0.0015122 -0.018442 0.019003
-0.15216 0.14403 -0.024115 0.015138
-0.0029186 -0.0028304 0.0034581 0.00029862 0.0017689 0.0043017 -0.0058794 -0.0089177
-0.024107 0.015089 -0.18879 0.19712
920000000 -0.097477 0.27245 0.0053137 0.037898 -0.0095016 -0.0043415 -0.0018008 0.0022802
0.0015359 0.001584 0.0024577 -0.0015803
0.0052799 0.037859 -0.26074 0.31113 0.028277 0.021753 0.0016937 0.001107
0.0068358 -0.00078393 0.0039425 -0.0029691
-0.0095188 -0.0043219 0.028392 0.021698 0.067349 0.31773 0.0017521 -0.00012673
0.0012288 -0.0005293 0.00083117 -0.0010431
-0.0017826 0.0022953 0.0017092 0.0010924 0.0017604 -0.00012313 -0.11499 0.25896
-0.010487 0.030426 0.0025952 -0.0066167
0.0015287 0.0015972 0.0068354 -0.0008269 0.0012255 -0.00053542 -0.010437 0.030462
-0.14184 0.14981 -0.0024258 0.027346
0.002486 -0.0015971 0.0038782 -0.0029751 0.00083998 -0.0010387 0.0026117 -0.0066122
-0.0024419 0.027348 -0.19365 0.21128
980000000 -0.049871 0.292 0.018089 0.030011 -0.0089068 0.0047392 0.0024983 0.003707
0.0039579 -0.0018845 -0.0029625 -0.0020569
0.018053 0.030005 -0.20778 0.34496 0.033207 0.0044458 0.0020222 -0.00012498
0.0011017 -0.0063557 -0.00056876 -0.0021305
-0.0088917 0.0047337 0.03326 0.0043613 0.11386 0.31096 0.00043595 -0.0011741
3.3027e-05 -0.0022152 0.0015071 -0.00010016
0.0024989 0.0036952 0.0020249 -0.00011588 0.00043043 -0.0011757 -0.076601 0.2707
0.0077212 0.029095 -0.0091852 -0.0067346
0.0039562 -0.0018764 0.0010478 -0.0063541 3.6299e-05 -0.0022216 0.0077851 0.029093
-0.11036 0.17774 0.0046631 0.018855
-0.0029952 -0.0020235 -0.0006106 -0.0021513 0.0015107 -9.7151e-05 -0.0091905 -0.0067144
0.0046571 0.018855 -0.15084 0.25626
1040000000 -0.0069999 0.30022 0.033496 0.01776 -0.0011066 0.0069882 0.0028106 0.00060996
-0.00011821 -0.0038122 -0.00063963 -0.0016048
0.033474 0.017776 -0.17222 0.35798 0.029212 -0.015234 0.0014335 -0.0018055
-0.0026345 -0.0024243 -0.0014963 -0.0027442
-0.0010908 0.0069839 0.029202 -0.01535 0.16024 0.29696 -0.0005506 -0.0014712
-0.0016198 -0.00083607 -0.00040943 -0.001165
0.0028222 0.00059804 0.001452 -0.0018024 -0.00055031 -0.0014732 -0.048755 0.28089
0.018773 0.017447 -0.0031153 0.0021206
-0.0001504 -0.0038075 -0.0026736 -0.0024085 -0.0016214 -0.00083099 0.018823 0.017421
-0.079921 0.18654 0.01348 0.018131
-0.00065223 -0.0015805 -0.0015109 -0.0027444 -0.00041204 -0.0011759 -0.0031079 0.0021288
0.013469 0.018117 -0.12893 0.27543
1100000000 0.038679 0.30735 0.03594 -0.0047497 0.0030082 0.003767 0.0025231 -0.0014952
-0.0022083 -0.0029466 -0.0039234 0.00016368
0.035921 -0.0047266 -0.12848 0.37506 0.014793 -0.02804 -3.2024e-05 -0.0018047
-0.0032081 -0.00031514 -0.003359 -0.00047334
0.0030234 0.0037546 0.014708 -0.028137 0.20673 0.27621 -0.0017648 0.00029088
-0.0017594 0.00069642 -0.00096803 -0.00043156
0.0024996 -0.0015004 -3.7216e-05 -0.0017995 -0.0017695 0.00029337 -0.007802 0.28598
0.023246 0.0048373 -0.0023653 0.0010579
-0.0022342 -0.0029404 -0.0032169 -0.00027793 -0.0017595 0.00070202 0.023267 0.0048021
-0.061448 0.20005 0.018799 0.0086055
-0.0039284 0.00020714 -0.0033931 -0.00046289 -0.00095563 -0.0004332 -0.0023604 0.0010613
0.018788 0.0086169 -0.08207 0.3031
1160000000 0.090284 0.30203 0.023737 -0.021163 0.0027404 -0.00053345 -0.00024835 -0.0025573
-0.0040536 -0.00040619 -0.00094085 0.0038145
0.023753 -0.021124 -0.084494 0.37916 -0.0041813 -0.029066 -0.0017693 -0.0016198
-0.0023166 0.0027134 -0.0012127 0.0016555
0.0027552 -0.00055511 -0.0043062 -0.02906 0.24981 0.24479 -0.00057739 0.0017617
-0.0003363 0.0018751 -0.0010781 5.2245e-05
-0.00024463 -0.0025751 -0.0017587 -0.0015955 -0.00057527 0.001755 0.032038 0.2828
0.019587 -0.010179 -0.0026071 0.0055722
-0.0040468 -0.00040089 -0.0023169 0.0027356 -0.00032611 0.0018896 0.019585 -0.010206
-0.028437 0.20991 0.017446 0.00048632
-0.00091879 0.0038553 -0.0012111 0.0016551 -0.0010717 5.7538e-05 -0.0026016 0.005587
0.017455 0.00048862 -0.034841 0.30575
1220000000 0.13486 0.29026 0.0099823 -0.03023 -0.0015211 -0.00089717 -0.00018229 -0.0010818
-0.0025452 0.0026323 0.0013488 0.0018614
0.010005 -0.030193 -0.039905 0.39069 -0.017145 -0.020897 -0.002478 0.00050025
0.00033909 0.0028262 -0.00067454 0.0018104
-0.0015198 -0.00089203 -0.017266 -0.020831 0.28867 0.20519 0.00090487 0.001552
0.00056614 0.0011351 0.00017089 0.00071118
-0.00018934 -0.0010853 -0.0024785 0.00053216 0.00090265 0.0015508 0.071958 0.27397
0.0092582 -0.015966 0.0027672 0.0017151
-0.002533 0.0026384 0.00033462 0.0028388 0.00056012 0.001132 0.0092317 -0.015982
-0.0047982 0.21989 0.013545 -0.012323
0.0013545 0.0018506 -0.00068515 0.0017898 0.00017578 0.00071497 0.0027674 0.0017133
0.013538 -0.01229 -0.0029657 0.32103
1280000000 0.18446 0.2675 -0.0082921 -0.028408 -0.0018424 0.0024845 -0.0011119 -0.0019116
-0.00054703 0.0030994 0.0024692 0.00094361
-0.0082686 -0.02839 0.0062295 0.38121 -0.023724 -0.0081276 -0.00092476 0.001508
0.0016261 0.0015154 0.00056033 0.0019479
-0.0018211 0.0024823 -0.023795 -0.0080303 0.31874 0.16109 0.0014026 -0.00024532
0.00101 5.6037e-05 0.00023732 0.00040152
-0.0011178 -0.0018992 -0.0009295 0.0015117 0.0014009 -0.00024544 0.10849 0.25731
0.00017277 -0.017542 0.00050932 4.6671e-05
-0.00052752 0.0031014 0.0016328 0.0015077 0.0010103 4.4732e-05 0.00012943 -0.017551
0.032699 0.22402 0.00281 -0.014353
0.0024854 0.00093308 0.00058155 0.0019427 0.00023079 0.00041405 0.00051071 5.785e-05
0.0028118 -0.014352 0.044588 0.32145
1340000000 0.22136 0.23304 -0.017979 -0.018745 0.00083352 0.0043293 -0.0018834 -0.00071202
0.0015397 0.0026023 0.0016773 -0.0015233
-0.017946 -0.018744 0.04563 0.37222 -0.021376 0.0044781 3.5316e-06 0.0019289
0.0016682 0.000543 0.0013359 0.00088539
0.00085678 0.0043278 -0.021375 0.0045938 0.34038 0.11299 0.000912 -0.00090466
0.00065317 -0.00036182 0.00017251 0.00028875
-0.0018835 -0.0007179 1.2836e-05 0.0019253 0.00091058 -0.00090214 0.14102 0.23687
-0.0081786 -0.014373 0.001292 2.8214e-05
0.0015488 0.0025918 0.0016679 0.00053285 0.00065426 -0.00036402 -0.0082082 -0.014368
0.06391 0.21955 -0.0034553 -0.013049
0.0016673 -0.0015358 0.0013411 0.00087037 0.00017803 0.00028432 0.0012912 3.0687e-05
-0.0034471 -0.013037 0.083137 0.31571
1400000000 0.25388 0.19414 -0.023537 -0.0072038 0.0050339 0.0030321 -0.0019451 0.00074916
0.0025586 0.00068817 0.00011217 -0.0013847
-0.023511 -0.0072132 0.082471 0.35854 -0.014513 0.012454 0.0013438 0.0012144
0.0009281 -0.00081927 0.0011843 0.00019447
0.0050372 0.0030144 -0.014466 0.012551 0.35311 0.05952 5.3357e-05 -0.0013751
7.3389e-05 -0.00033157 0.00035786 0.00017686
-0.0019457 0.00075866 0.0013489 0.0012044 4.8709e-05 -0.0013763 0.17045 0.20829
-0.013119 -0.007943 -0.00049876 -0.0007813
0.0025604 0.00067242 0.00092587 -0.00081994 7.9294e-05 -0.00033303 -0.01314 -0.0079212
0.097533 0.21455 -0.0097236 -0.0082762
9.8867e-05 -0.0013782 0.0011753 0.00018955 0.00035841 0.000183 -0.00049773 -0.00078644
-0.0097184 -0.00828 0.1272 0.30387
1460000000 0.2761 0.14961 -0.020398 0.0049833 0.0054745 -0.0017247 -0.0014431 0.0017596
0.0019998 -0.00080112 -0.0004094 -0.00080743
-0.020386 0.0049633 0.11614 0.3363 -0.0058923 0.015121 0.0016798 0.00013612
0.00080135 -0.0010801 0.0011684 -0.00069593
0.0054601 -0.0017435 -0.0058086 0.01517 0.35894 0.0052124 -0.0010852 -0.0011724
0.00024526 -0.00017993 0.00076491 -0.00036222
-0.001435 0.0017635 0.0016752 0.00013323 -0.0010791 -0.0011735 0.19702 0.17928
-0.013505 -0.0020838 -0.0010563 0.0014326
0.0020024 -0.00080542 0.00080066 -0.0010776 0.00024402 -0.00017422 -0.013525 -0.0020641
0.12785 0.19924 -0.011381 -0.0027332
-0.0004209 -0.00081316 0.0011738 -0.0007041 0.000767 -0.0003772 -0.0010612 0.0014292
-0.011379 -0.0027265 0.16039 0.28195
1520000000 0.28753 0.1077 -0.014619 0.010597 0.0030993 -0.0041211 0.00017109 0.002542
0.0016615 -0.0017496 -0.0011404 -3.5338e-05
-0.014618 0.010571 0.14914 0.32141 0.001574 0.012886 0.0015746 -0.00079831
9.9228e-05 -0.00083571 0.00026007 -0.0010505
0.0030811 -0.0041457 0.0016536 0.012901 0.35193 -0.050868 -0.00093949 -0.00033578
0.00052217 -0.00084649 -3.9587e-05 -0.00010513
0.00017313 0.0025424 0.0015712 -0.00080595 -0.0009365 -0.00033414 0.22058 0.14129
-0.012508 0.0026482 0.0010125 0.0016643
0.0016516 -0.0017627 9.7256e-05 -0.00083647 0.00052237 -0.00084915 -0.012504 0.0026912
0.15612 0.184 -0.011266 0.0015954
-0.0011431 -2.3635e-05 0.0002551 -0.0010531 -4.1203e-05 -0.00010824 0.0010144 0.001654
-0.011256 0.0016007 0.19275 0.26064
1580000000 0.29612 0.061303 -0.0078721 0.013581 -0.00097263 -0.0047307 0.0013844 0.0017618
-0.00058493 -0.0020702 -0.00031289 0.00041019
-0.0078651 0.013563 0.17587 0.29662 0.0051038 0.0081109 0.00043822 -0.0015636
-0.00036193 -0.0010072 -0.00032147 -0.00084439
-0.00099061 -0.0047255 0.0051595 0.0080951 0.33146 -0.10815 -0.0014661 0.00042179
-0.00028774 -0.0010918 0.00014807 -0.00054691
0.0013893 0.0017572 0.0004307 -0.0015618 -0.0014709 0.00042705 0.23502 0.10174
-0.0093464 0.0064473 0.0017492 0.00057218
-0.00059042 -0.0020772 -0.00036559 -0.0010047 -0.00029304 -0.001097 -0.0093431 0.0064668
0.1806 0.16499 -0.0088455 0.0070162
-0.00030609 0.00041431 -0.00033112 -0.00083975 0.00014188 -0.00055681 0.0017465 0.00056563
-0.0088473 0.0070109 0.22401 0.23323
1640000000 0.29743 0.019982 -0.0011527 0.012347 -0.0027409 -0.0025073 0.0025316 0.00097458
-0.00088391 -0.0010762 -0.00025521 0.00063183
-0.0011667 0.012333 0.20492 0.27174 0.0057042 0.0034028 -0.00073446 -0.0016266
-0.00092721 -0.00047559 -0.00057139 -0.00058152
-0.0027539 -0.0024906 0.0057318 0.0033628 0.30339 -0.15717 -0.00082831 0.0012825
-0.0010706 -0.00085033 -0.00011722 -0.00034412
0.0025322 0.00096225 -0.00074754 -0.0016257 -0.0008325 0.0012776 0.24757 0.052321
-0.0057509 0.0069248 0.0020913 -0.00064229
-0.00089434 -0.0010709 -0.0009316 -0.00046438 -0.0010707 -0.00085376 -0.0057341 0.006955
0.2033 0.13924 -0.0043584 0.0091248
-0.0002529 0.00063388 -0.00057683 -0.00057375 -0.00011617 -0.00034774 0.0020972 -0.00065036
-0.0043668 0.0091119 0.24912 0.20151
1700000000 0.2895 -0.025107 0.0022637 0.0094282 -0.0034099 0.00013933 0.002871 -0.0011303
-0.0018898 -0.0003635 0.00063026 0.00040086
0.0022512 0.0094211 0.22275 0.24044 0.0037584 0.00064146 -0.001389 -0.00051909
-0.00080281 -7.6363e-05 -0.00091676 -0.00032435
-0.0034208 0.00015703 0.003757 0.00061109 0.25981 -0.19722 0.00030631 0.0015764
-0.0017269 -0.00019469 -0.00059934 -0.00092509
0.0028695 -0.0011391 -0.0013935 -0.00052047 0.00030861 0.0015707 0.24437 0.0018476
-0.0039165 0.0070901 0.0011924 -0.0020182
-0.0018965 -0.00035942 -0.00080384 -6.9659e-05 -0.0017315 -0.00020309 -0.0039 0.0071025
0.22043 0.11768 0.00014894 0.0092261
0.00063692 0.00039076 -0.00091597 -0.00031954 -0.00061616 -0.00092207 0.001187 -0.0020211
0.00015336 0.0092267 0.2648 0.16693
1760000000 0.27662 -0.073313 0.0044438 0.0060933 -0.0022004 0.00085407 0.001303 -0.0032338
-0.00098446 0.00072304 0.00040444 -0.00049262
0.0044372 0.0060916 0.24848 0.20082 0.0015934 -0.00099647 -0.0011074 0.00022862
-0.0011689 0.00084546 -0.00051924 0.00058501
-0.0021911 0.00088872 0.0015911 -0.0010145 0.21085 -0.23005 0.0010897 0.0012597
-0.0011038 0.0013547 -0.0013024 -0.0003524
0.0012868 -0.0032368 -0.0010966 0.00023525 0.0010894 0.001263 0.23465 -0.050158
-0.0017198 0.0064263 -0.00037137 -0.0021185
-0.00098353 0.00073435 -0.0011697 0.00084986 -0.001094 0.0013528 -0.0016995 0.0064296
0.23465 0.08112 0.0040084 0.0066647
0.00039899 -0.00050672 -0.00052226 0.00059439 -0.0013153 -0.00033812 -0.00037658 -0.002124
0.0040148 0.0066599 0.2767 0.12879
1820000000 0.25151 -0.1101 0.0045602 0.0025758 -2.3959e-05 0.0024089 -0.00088167 -0.0030669
-0.00070438 0.00066242 4.7944e-06 -0.00015351
0.0045511 0.0025742 0.2583 0.17093 -0.0003243 0.00010078 -0.0012692 0.00085914
-0.00016896 0.00137 -0.00040999 0.00050596
-1.4825e-05 0.0024093 -0.00032706 9.7671e-05 0.16059 -0.24569 0.0016114 0.00042297
-0.0003651 0.0020838 -0.0014049 0.00050312
-0.00090397 -0.0030552 -0.0012689 0.00086248 0.0016215 0.00042003 0.20388 -0.097486
-0.00097554 0.0051114 -0.0015511 -0.0013436
-0.00070307 0.00066166 -0.00015555 0.001376 -0.00035847 0.0020901 -0.00096228 0.0051263
0.25071 0.050177 0.0048217 0.003139
6.9762e-06 -0.00015532 -0.00040362 0.00051115 -0.0014182 0.00050849 -0.0015486 -0.001338
0.0048298 0.0031285 0.27817 0.09237
1880000000 0.21616 -0.14965 0.0024184 0.00040197 -0.00030176 0.00213 -0.0027463 -0.0022519
-0.00013279 0.0013651 0.00034874 -0.00053701
0.0024109 0.00039688 0.26275 0.12471 -0.0021182 0.0017497 -0.0001164 0.0016637
0.00064542 0.0014105 0.00026455 0.00088723
-0.00029232 0.0021278 -0.0021009 0.0017629 0.10885 -0.25531 0.0020403 -0.0010489
0.0014836 0.0020308 -0.00084377 0.001419
-0.0027599 -0.0022298 -0.00010686 0.0016622 0.0020412 -0.0010457 0.16253 -0.13716
-0.00093283 0.0041205 -0.0023328 0.00064478
-0.00012049 0.0013681 0.00066397 0.0014108 0.0014841 0.002021 -0.0009197 0.0041235
0.252 0.016085 0.0044157 0.00094715
0.00034462 -0.00053242 0.00026502 0.00088151 -0.00084044 0.0014086 -0.0023342 0.00066033
0.0044151 0.00094658 0.27702 0.058093
1940000000 0.17656 -0.17497 0.00021191 -0.0013876 0.0013811 0.0018521 -0.0037022 0.00043393
0.0011163 0.00094681 -0.00063574 -0.00061654
0.00021344 -0.0013908 0.26336 0.092931 -0.0010049 0.0038759 0.00097724 0.0013264
0.0020255 0.0006255 0.00080959 0.00019565
0.0014078 0.0018294 -0.00096987 0.0038887 0.062523 -0.24903 0.00035075 -0.0023451
0.0024131 0.00051882 0.00039788 0.0016964
-0.0037025 0.00046799 0.00097817 0.001311 0.00035107 -0.0023366 0.10954 -0.16678
-0.0021178 0.0037299 -0.0012839 0.0018016
0.001125 0.00094428 0.0020293 0.00060865 0.0024171 0.00051309 -0.0021182 0.0037338
0.2513 -0.024174 0.0030727 -0.0021367
-0.00063965 -0.00062374 0.00081507 0.00018512 0.00039575 0.0017042 -0.001272 0.0018058
0.0030724 -0.0021267 0.26516 0.021932
2000000000 0.13044 -0.18887 -0.0035951 0.00054959 0.0023555 0.0014855 -0.0023316 0.0035634
0.00097563 0.00028494 -0.00063117 0.0003253
-0.003594 0.00054207 0.24926 0.057475 -0.00080782 0.0055635 0.0016636 0.00031094
0.0015762 -0.0014477 0.00042968 0.00011764
0.0023976 0.0014613 -0.0007756 0.0055826 0.018973 -0.23456 -0.001538 -0.0014996
0.0020406 -0.001263 0.0016347 0.0013356
-0.0023022 0.0035866 0.0016774 0.00030762 -0.0015335 -0.001505 0.056495 -0.17555
-0.0033961 0.0047493 0.00024777 0.0023327
0.00098225 0.00027816 0.0015643 -0.001464 0.002046 -0.0012653 -0.0033747 0.0047581
