!Keysight Technologies,M9804A,MY58100912,A.14.10.03
!Date: Thursday, April 27, 2023 10:28:33
!Correction: S11(C  6-Port  ) 
!S12(C  6-Port  ) 
!S13(C  6-Port  ) 
!S14(C  6-Port  ) 
!S15(C  6-Port  ) 
!S16(C  6-Port  ) 
!S21(C  6-Port  ) 
!S22(C  6-Port  ) 
!S23(C  6-Port  ) 
!S24(C  6-Port  ) 
!S25(C  6-Port  ) 
!S26(C  6-Port  ) 
!S31(C  6-Port  ) 
!S32(C  6-Port  ) 
!S33(C  6-Port  ) 
!S34(C  6-Port  ) 
!S35(C  6-Port  ) 
!S36(C  6-Port  ) 
!S41(C  6-Port  ) 
!S42(C  6-Port  ) 
!S43(C  6-Port  ) 
!S44(C  6-Port  ) 
!S45(C  6-Port  ) 
!S46(C  6-Port  ) 
!S51(C  6-Port  ) 
!S52(C  6-Port  ) 
!S53(C  6-Port  ) 
!S54(C  6-Port  ) 
!S55(C  6-Port  ) 
!S56(C  6-Port  ) 
!S61(C  6-Port  ) 
!S62(C  6-Port  ) 
!S63(C  6-Port  ) 
!S64(C  6-Port  ) 
!S65(C  6-Port  ) 
!S66(C  6-Port  ) 
!S6P File: Measurement: :
# Hz S  RI   R 50
500000000 -0.33746 -0.035014 -0.0096248 -0.0032879 -0.0076949 0.011827 -0.0033318 0.01182
0.012036 0.0043779 -0.0034946 0.0083782
-0.0095842 -0.003254 -0.41944 -0.050118 0.0070035 -0.011499 0.0014554 0.01182
0.0071926 0.0026792 0.0010974 0.01268
-0.0076414 0.011843 0.0069663 -0.011503 -0.26522 0.2113 0.0066753 0.0029609
-0.00026851 0.0087621 0.00053072 0.011427
-0.0033173 0.011825 0.0014967 0.011794 0.0066529 0.0029499 -0.32719 0.046856
-0.01992 -0.0041995 0.017922 0.024984
0.012072 0.0044171 0.0072187 0.0026829 -0.00023763 0.0087496 -0.019915 -0.0041848
-0.22535 -0.18654 -0.027658 0.0049353
-0.0035024 0.0084153 0.0011446 0.012657 0.00052308 0.011377 0.01793 0.024932
-0.02768 0.0049386 -0.27079 -0.11477
560000000 -0.31537 0.12434 -0.023934 -0.062949 0.00025831 0.012067 0.0059335 0.0099033
0.01039 0.0042237 0.010158 0.0072591
-0.023904 -0.062856 -0.37645 0.10824 -0.042239 -0.036403 0.013635 0.0035438
-0.013637 -0.0046362 0.0041927 -0.00076732
0.00024027 0.012027 -0.042393 -0.036331 -0.18247 0.25901 -0.00055494 -0.0049525
0.019696 0.004362 0.0071481 -0.0058975
0.005968 0.010057 0.013643 0.0034529 -0.00048803 -0.0049816 -0.30256 0.13627
0.0037474 -0.024923 0.0040619 -0.019336
0.010456 0.0041891 -0.013612 -0.0045778 0.019709 0.0043467 0.003728 -0.024926
-0.28504 -0.010415 0.0076192 -0.049969
0.010124 0.0071577 0.004179 -0.00081297 0.0071686 -0.0058633 0.0040688 -0.019325
0.007647 -0.049969 -0.33066 0.031048
620000000 -0.27326 0.10936 -0.023268 0.007347 0.0033005 0.0088726 0.0067394 -0.0057684
0.011473 -0.00084462 0.00074958 -0.0026936
-0.023264 0.0073437 -0.40265 0.062384 -0.018842 0.00024716 -0.0013041 -0.0019507
0.010565 -0.0071576 0.0012575 -0.0026488
0.0034201 0.0088739 -0.018856 0.00028961 -0.15261 0.26815 -0.0016853 -0.0051056
-0.0035751 -0.0033101 0.007946 -0.0034843
0.0067787 -0.0057726 -0.001333 -0.0019634 -0.0017071 -0.0051125 -0.2615 0.14559
-0.03903 -0.018241 0.013961 0.024031
0.011531 -0.00079203 0.010567 -0.0072017 -0.0035569 -0.0033114 -0.039037 -0.018218
-0.20355 -0.051633 -0.040321 0.014595
0.00078075 -0.0025569 0.00124 -0.0026497 0.0079488 -0.0034724 0.013972 0.024061
-0.040313 0.014566 -0.24917 -0.0051743
680000000 -0.23292 0.19321 -0.02779 -0.013817 0.0050016 0.0049279 0.0010317 -0.0077061
-0.0034222 -0.011092 0.0042021 -0.0064066
-0.027757 -0.013803 -0.38719 0.15923 -0.032833 -0.0011979 -0.0016066 -0.00029732
-0.0025654 -0.0091046 -0.0011984 -0.0021278
0.0050162 0.0049476 -0.032863 -0.0011278 -0.10192 0.28743 -0.00069963 2.9785e-05
-0.0022232 0.00058887 -0.0030323 -0.0096116
0.0010565 -0.0077256 -0.0016117 -0.00030211 -0.00070105 4.1028e-05 -0.21886 0.1951
-0.023675 -0.0082504 -0.0085589 -0.010381
-0.0034742 -0.011105 -0.0026262 -0.0091418 -0.0022216 0.00058943 -0.023716 -0.0082352
-0.25229 0.047178 -0.005614 -0.0092308
0.0041789 -0.0064194 -0.0011992 -0.0020933 -0.0030502 -0.0096143 -0.0085623 -0.010382
-0.0056296 -0.0092354 -0.25855 0.097817
740000000 -0.18962 0.18827 -0.038492 0.02647 0.012571 -0.0052078 -0.00083215 -0.0038409
-0.0046944 -0.0026869 -0.0061917 0.0036022
-0.038481 0.026401 -0.3347 0.17777 -0.034777 0.035285 -0.00070292 -0.0065533
-0.011724 0.0075635 -0.002432 -0.0060875
0.012603 -0.0052326 -0.034712 0.035406 -0.068392 0.28603 -0.0013623 0.0033874
-0.0023867 -0.0041025 -0.0013477 0.0004098
-0.00083537 -0.0038388 -0.00072659 -0.0065752 -0.0013442 0.0033847 -0.20222 0.20251
-0.04284 -0.0084204 0.022146 0.013474
-0.0047079 -0.0026754 -0.011745 0.0076548 -0.0024306 -0.0040946 -0.04291 -0.0083566
-0.15625 0.072766 -0.041978 -7.9063e-05
-0.0061866 0.0036138 -0.0024106 -0.0060516 -0.0013112 0.00039977 0.022156 0.013474
-0.041967 -0.0001088 -0.24656 0.10346
800000000 -0.15729 0.22843 -0.022453 0.017163 0.0052611 -0.01058 -0.0048459 -0.0019791
-0.0042127 0.0025616 0.0042073 0.00087436
-0.022454 0.017169 -0.33753 0.24822 -0.007694 0.034127 -0.0021068 0.0022021
-0.00060994 0.0033752 0.0011966 0.0053673
0.0052261 -0.01058 -0.0076114 0.034181 -0.027256 0.30906 0.0011929 0.001541
0.00066833 0.0035563 -0.001746 0.00089474
-0.0048557 -0.001965 -0.0021044 0.0021984 0.001194 0.0015559 -0.17432 0.23031
-0.028369 0.012599 0.013061 -0.0098185
-0.0042363 0.0026878 -0.0006125 0.0034007 0.00066148 0.0035773 -0.028386 0.012664
-0.20108 0.095405 -0.017286 0.017329
0.0042228 0.0009035 0.0012206 0.0053583 -0.0017334 0.00089635 0.013059 -0.0098259
-0.017283 0.01731 -0.23782 0.15495
860000000 -0.12245 0.2492 -0.01711 0.031124 -0.0034287 -0.0099011 -0.0024374 0.0012127
0.0041239 0.0049314 -0.0030005 -0.0026847
-0.017088 0.031122 -0.28969 0.2902 0.0082161 0.034123 0.0001984 0.0021979
0.0047195 0.0002617 0.003283 0.00036182
-0.0034433 -0.009878 0.0083296 0.034149 0.021059 0.31693 -0.00043196 -0.00028758
0.0029195 -0.0015863 0.0016797 0.0042429
-0.0024029 0.0012349 0.00021988 0.0022046 -0.00042946 -0.00028811 -0.13872 0.24205
-0.017903 0.018708 -0.0060689 -0.0087878
0.0041537 0.0049564 0.0047085 0.00022382 0.0029098 -0.0015955 -0.017898 0.018755
-0.1514 0.14368 -0.024381 0.015515
-0.002992 -0.0026419 0.0032735 0.00034551 0.001702 0.0042344 -0.0060805 -0.0087346
-0.024365 0.015522 -0.18833 0.1967
920000000 -0.09716 0.27219 0.0053836 0.037687 -0.0094671 -0.0043949 -0.0018097 0.0022008
0.0014453 0.0017389 0.0026831 -0.0014935
0.005361 0.037681 -0.26056 0.31089 0.028183 0.02159 0.0016623 0.00098149
0.0069689 -0.00081035 0.0037832 -0.0031497
-0.009483 -0.0043614 0.028274 0.021532 0.067455 0.31739 0.0017784 -0.00018906
0.001332 -0.00052064 0.00075592 -0.0012956
-0.0018112 0.0021947 0.0016737 0.00097687 0.0017804 -0.00018583 -0.11458 0.25868
-0.010192 0.030236 0.0025707 -0.0067052
0.0015003 0.001701 0.0069659 -0.00084558 0.0013392 -0.00051531 -0.010138 0.030282
-0.14165 0.14933 -0.0024684 0.02738
0.0027049 -0.0015645 0.0037469 -0.0031674 0.0007613 -0.0013201 0.0025766 -0.006714
-0.0025224 0.027369 -0.19354 0.2113
980000000 -0.049694 0.2919 0.018057 0.029919 -0.0088886 0.0046692 0.0024386 0.0036988
0.0039666 -0.0018885 -0.0029283 -0.0020106
0.018019 0.029917 -0.20767 0.34486 0.033069 0.0044239 0.0020849 -3.114e-05
0.0012452 -0.0063891 -0.0005702 -0.0021516
-0.0088744 0.0047042 0.033114 0.0043336 0.11388 0.31065 0.00042031 -0.0011608
2.8064e-05 -0.0021867 0.0014382 -0.00013086
0.0024643 0.0037041 0.0020734 -2.7882e-05 0.00042689 -0.0011712 -0.076379 0.27048
0.0075657 0.028812 -0.0090042 -0.0067311
0.0039284 -0.001909 0.0011723 -0.0064152 3.812e-05 -0.0021918 0.0076227 0.028821
-0.11025 0.17717 0.0046984 0.018902
-0.0029473 -0.0020298 -0.00061618 -0.0022043 0.001442 -0.00014506 -0.0090281 -0.0067035
0.0046812 0.018949 -0.15105 0.25601
1040000000 -0.0069256 0.2999 0.033385 0.01769 -0.0011825 0.0068928 0.0026842 0.00067041
-2.5627e-05 -0.0038701 -0.00067595 -0.0015807
0.03336 0.017724 -0.17216 0.35782 0.029112 -0.01511 0.0014395 -0.0017912
-0.002557 -0.0025572 -0.0014085 -0.0027301
-0.0011454 0.0068783 0.029104 -0.015211 0.16014 0.2967 -0.00058449 -0.0014433
-0.0016302 -0.00080062 -0.00043125 -0.0010926
0.0027085 0.00066057 0.0014238 -0.0017802 -0.00057811 -0.0014568 -0.048609 0.28045
0.018682 0.01719 -0.0030692 0.0019977
-6.6063e-05 -0.0038699 -0.0025941 -0.0025274 -0.0016149 -0.00079312 0.018727 0.017168
-0.079467 0.18599 0.013448 0.017798
-0.00068224 -0.0016109 -0.0014522 -0.0027383 -0.00043732 -0.0010944 -0.0030595 0.0020123
0.013443 0.017789 -0.12896 0.27486
1100000000 0.038588 0.30716 0.035716 -0.0048064 0.0029136 0.0037239 0.0025055 -0.0014207
-0.0022705 -0.0030082 -0.0039319 0.00018023
0.035696 -0.0047671 -0.12856 0.37479 0.014781 -0.027951 -2.2955e-05 -0.0018002
-0.003298 -0.00040794 -0.0033706 -0.00048819
0.0029278 0.0037109 0.014697 -0.028022 0.20662 0.27597 -0.0017544 0.00027398
-0.0017797 0.00071688 -0.00096423 -0.00037212
0.0025124 -0.0014291 -2.5588e-05 -0.0018031 -0.0017476 0.00027775 -0.0079427 0.28546
0.023043 0.0047155 -0.0024688 0.0009024
-0.0022601 -0.0029899 -0.0032961 -0.0003917 -0.0017662 0.00072791 0.02307 0.0046886
-0.061314 0.19928 0.018571 0.0084823
-0.0039397 0.00019363 -0.0033917 -0.00046348 -0.00096753 -0.00037305 -0.00245 0.00092757
0.018572 0.0084898 -0.082325 0.30298
1160000000 0.09019 0.30188 0.023594 -0.021147 0.0026109 -0.00048569 -0.00020434 -0.0025284
-0.00409 -0.00044238 -0.00099419 0.003919
0.023586 -0.021088 -0.084517 0.37886 -0.0041283 -0.029013 -0.001754 -0.0016464
-0.0024245 0.0027434 -0.0012914 0.0016587
0.0026144 -0.00050212 -0.0042506 -0.029024 0.24955 0.24464 -0.00060298 0.0017514
-0.0002903 0.001887 -0.00096581 0.00010821
-0.00018851 -0.0025445 -0.0017841 -0.0016278 -0.00059847 0.0017493 0.031657 0.28252
0.0194 -0.010107 -0.002682 0.0056502
-0.0040659 -0.00043113 -0.0024285 0.0027434 -0.00027479 0.0018957 0.019385 -0.010142
-0.028361 0.20896 0.017354 0.00040247
-0.00098443 0.0039571 -0.0013025 0.0016678 -0.00094968 0.00011389 -0.0026571 0.0056471
0.017354 0.00041668 -0.035197 0.30553
1220000000 0.13465 0.29013 0.009893 -0.030055 -0.0015721 -0.00078022 -0.00015817 -0.0011152
-0.0025234 0.0025902 0.001363 0.0018661
0.0098956 -0.030012 -0.040256 0.39045 -0.017058 -0.020858 -0.0024883 0.00049082
0.00032051 0.0029092 -0.00062843 0.0017965
-0.0015819 -0.00077314 -0.017172 -0.0208 0.28846 0.20519 0.00091467 0.0015677
0.00058836 0.0011384 0.00022556 0.00073188
-0.0001432 -0.0011208 -0.0025013 0.0005082 0.00090633 0.0015645 0.07148 0.27389
0.0091214 -0.015825 0.0026925 0.0018195
-0.0025162 0.0025692 0.00033324 0.0029002 0.00058796 0.0011407 0.009107 -0.015849
-0.0052211 0.21878 0.013434 -0.012301
0.00137 0.001857 -0.00062092 0.0017844 0.00023593 0.00072679 0.0027077 0.0018156
0.013421 -0.012286 -0.0032064 0.3208
1280000000 0.1843 0.26755 -0.0083136 -0.02819 -0.0018048 0.0025643 -0.001082 -0.0019734
-0.00058756 0.0030488 0.0025187 0.00095489
-0.0082994 -0.02818 0.0057731 0.38108 -0.023668 -0.0081333 -0.00094248 0.0015081
0.0016803 0.0015163 0.00058122 0.0019081
-0.0018028 0.0025761 -0.023736 -0.0080421 0.31858 0.16115 0.0013948 -0.00020391
0.0011121 3.1468e-05 0.00028776 0.00043933
-0.0010999 -0.0019734 -0.00093943 0.0015192 0.0013872 -0.00021472 0.10801 0.25756
0.0001754 -0.017356 0.00050994 0.00013313
-0.00057593 0.0030625 0.0016917 0.0015107 0.0011122 2.5734e-05 0.00013887 -0.017373
0.031984 0.22315 0.0027697 -0.014313
0.0025388 0.0009539 0.00057761 0.0019032 0.00029696 0.00044064 0.00051329 0.00013501
0.0027738 -0.01431 0.044241 0.32125
1340000000 0.22122 0.23316 -0.017878 -0.018574 0.00089501 0.0043826 -0.001914 -0.00074188
0.0015621 0.0026226 0.0016741 -0.0015006
-0.017843 -0.018576 0.045194 0.37235 -0.02139 0.0044832 1.4641e-05 0.0019665
0.0017511 0.00057897 0.0013229 0.00091093
0.00090181 0.0044035 -0.021396 0.0045907 0.34036 0.11299 0.00094912 -0.00088048
0.00064428 -0.00036755 0.0001859 0.00029361
-0.0019146 -0.00071602 2.0141e-05 0.001975 0.00094717 -0.00088791 0.14087 0.23733
-0.0081144 -0.014242 0.0012605 0.00011182
0.0015559 0.0026306 0.0017658 0.00056555 0.00064692 -0.00037315 -0.0081607 -0.014238
0.062848 0.21889 -0.0035816 -0.012985
0.0016887 -0.0015224 0.0013454 0.0008994 0.00019159 0.0002883 0.0012639 0.00010944
-0.0035653 -0.012973 0.082737 0.31557
1400000000 0.25386 0.19436 -0.023365 -0.0071089 0.0051515 0.0030116 -0.0019859 0.00077246
0.0025856 0.00068147 0.00014755 -0.0013834
-0.023335 -0.007118 0.082121 0.35891 -0.014557 0.012424 0.0013719 0.0012339
0.00095816 -0.00084899 0.0011754 0.00020387
0.0051355 0.0029925 -0.014509 0.012513 0.35311 0.059614 3.8098e-06 -0.0014289
3.4522e-05 -0.00037579 0.00032625 0.00018462
-0.0019735 0.00078494 0.0013813 0.0012283 1.4885e-06 -0.001416 0.17055 0.20875
-0.013018 -0.0079322 -0.00050528 -0.00073531
0.0025982 0.00067165 0.00095978 -0.00084794 4.0826e-05 -0.00037691 -0.01306 -0.0078925
0.09636 0.21425 -0.0098675 -0.0082105
0.00015628 -0.0013896 0.0011752 0.00019676 0.00032972 0.00018662 -0.00051186 -0.00073616
-0.0098444 -0.0082024 0.12675 0.30387
1460000000 0.27627 0.14983 -0.020252 0.0049464 0.0055421 -0.001818 -0.0014434 0.0017776
0.0019682 -0.00079965 -0.00041337 -0.00085562
-0.020231 0.00492 0.11603 0.3368 -0.0059146 0.015176 0.0016861 0.00012936
0.00079255 -0.0011014 0.0011612 -0.00065079
0.0055324 -0.0018353 -0.0058291 0.015222 0.35884 0.0051497 -0.0010987 -0.0011243
0.00025266 -9.2368e-05 0.00073053 -0.0004009
-0.0014357 0.0017838 0.0016798 0.0001224 -0.0011023 -0.00112 0.19739 0.17969
-0.013377 -0.0020811 -0.00096822 0.0014374
0.0019691 -0.00082256 0.00079095 -0.0010848 0.00025075 -0.00010026 -0.013394 -0.002055
0.1267 0.19943 -0.011401 -0.002644
-0.00042424 -0.00086994 0.0011641 -0.00066641 0.00072562 -0.00039962 -0.00098488 0.001423
-0.01139 -0.0026514 0.15986 0.28215
1520000000 0.2878 0.10779 -0.014495 0.010463 0.0031064 -0.0041684 0.00017216 0.0025533
0.0016895 -0.0017541 -0.0011464 -4.4988e-05
-0.014494 0.010441 0.14924 0.32193 0.0015653 0.012965 0.0015967 -0.00081981
7.9585e-05 -0.00084879 0.00029336 -0.0010096
0.0030885 -0.0041875 0.0016318 0.012968 0.35194 -0.050803 -0.00090076 -0.00031316
0.0005705 -0.00082969 -2.5024e-05 -5.5934e-05
0.00017322 0.0025567 0.0015932 -0.00082564 -0.00090209 -0.00031852 0.22106 0.14145
-0.012477 0.002561 0.0010797 0.0016853
0.0016875 -0.0017596 7.2103e-05 -0.00084489 0.00057488 -0.00083016 -0.012479 0.0026028
0.15506 0.18447 -0.011232 0.0017039
-0.0011532 -3.1633e-05 0.0002851 -0.0010163 -2.1328e-05 -5.7025e-05 0.0010673 0.0016849
-0.011225 0.0016907 0.19232 0.26084
1580000000 0.29647 0.06122 -0.0078155 0.013409 -0.00092418 -0.0047862 0.0013914 0.0017762
-0.00058885 -0.0020845 -0.00032616 0.00036906
-0.0078241 0.013401 0.17619 0.29707 0.0051742 0.0081619 0.00042086 -0.0015764
-0.00039236 -0.00097675 -0.00028423 -0.00085482
-0.00095272 -0.0047798 0.0052245 0.0081422 0.33165 -0.10819 -0.0014835 0.00039016
-0.00032947 -0.001142 0.0001103 -0.00061091
0.0014005 0.0017681 0.00041322 -0.0015925 -0.0014771 0.00039132 0.23559 0.10168
-0.009373 0.006338 0.0018144 0.00061132
-0.00060393 -0.002093 -0.00040205 -0.00098092 -0.00033217 -0.0011388 -0.0093595 0.0063773
0.1798 0.16567 -0.0087758 0.0071528
-0.0003222 0.00037751 -0.00028232 -0.00084939 0.00010992 -0.00060152 0.0018108 0.00060862
-0.0087731 0.0071439 0.22363 0.23363
1640000000 0.29772 0.019745 -0.0012186 0.012214 -0.0027782 -0.0025107 0.0025407 0.00095888
-0.00089757 -0.0010879 -0.0002837 0.00063171
-0.0012365 0.012211 0.20538 0.272 0.0057767 0.0033947 -0.00075162 -0.0016367
-0.0009181 -0.00048265 -0.00057145 -0.0006252
-0.0027873 -0.0024855 0.0058023 0.0033589 0.30358 -0.15753 -0.00089348 0.0012823
-0.001111 -0.00087687 -4.8966e-05 -0.00037339
0.0025556 0.0009483 -0.00075485 -0.0016314 -0.00089116 0.001277 0.24815 0.051998
-0.0057771 0.0068589 0.0021462 -0.00068241
-0.00090117 -0.0010818 -0.00091978 -0.00046528 -0.0011247 -0.00087648 -0.0057561 0.0068854
0.20294 0.14002 -0.0042214 0.0091895
-0.00027188 0.00063423 -0.00057476 -0.00062112 -5.723e-05 -0.00038248 0.0021482 -0.00069147
-0.0042276 0.0091852 0.24889 0.20187
1700000000 0.28963 -0.025398 0.0021708 0.009376 -0.0034265 0.00010481 0.002882 -0.0011462
-0.0018672 -0.00037294 0.00067584 0.00044555
0.0021579 0.0093604 0.22328 0.24053 0.0037641 0.00063534 -0.0014138 -0.00054401
-0.00079661 -0.00011004 -0.00094427 -0.00034469
-0.0034156 0.00012771 0.003784 0.00060753 0.25949 -0.19738 0.00032091 0.0015896
-0.0017529 -0.00018684 -0.00058062 -0.00095011
0.0028598 -0.0011612 -0.001418 -0.00052683 0.00031382 0.0015952 0.24464 0.0013563
-0.0040102 0.00707 0.0012092 -0.0020611
-0.0018778 -0.00035599 -0.00079402 -0.00010758 -0.0017489 -0.00018659 -0.0039832 0.007091
0.22027 0.11834 0.00027202 0.0092273
0.00067867 0.00042282 -0.00094896 -0.00034237 -0.00059268 -0.00095156 0.0011949 -0.0020541
0.00027319 0.00923 0.26467 0.16736
1760000000 0.2767 -0.073623 0.0043548 0.0060905 -0.0022857 0.00083792 0.0012977 -0.0032744
-0.00098 0.00072465 0.00041469 -0.00051131
0.0043419 0.006094 0.24903 0.20068 0.0016242 -0.0010484 -0.0011193 0.00022215
-0.0011869 0.00083639 -0.00054354 0.0005627
-0.002281 0.00086086 0.001623 -0.001057 0.21052 -0.23015 0.0011421 0.0013113
-0.0011348 0.0014152 -0.0013237 -0.00038713
0.001275 -0.003276 -0.0011163 0.00023374 0.0011422 0.0013186 0.23477 -0.05068
-0.0017591 0.0064524 -0.00039084 -0.0022007
-0.00098597 0.00075947 -0.0011844 0.00085185 -0.001133 0.0014077 -0.0017497 0.0064451
0.23473 0.081737 0.0041224 0.0066212
0.00040806 -0.00050996 -0.0005416 0.00056349 -0.0013343 -0.00039436 -0.00038486 -0.0021968
0.0041346 0.0066214 0.27669 0.12919
1820000000 0.2514 -0.11045 0.004523 0.0025796 -7.7613e-05 0.0024412 -0.00089309 -0.0030713
-0.00072594 0.00061598 -2.4289e-05 -0.00019457
0.0045204 0.0025845 0.25873 0.17061 -0.00026533 -5.9657e-05 -0.0012967 0.00090815
-0.00021343 0.0013756 -0.00044426 0.00053515
-7.868e-05 0.0024593 -0.00026857 -6.4061e-05 0.16086 -0.24597 0.0016064 0.00049702
-0.00038034 0.0020833 -0.0014406 0.0004931
-0.00090317 -0.0030639 -0.0012884 0.0009088 0.0015985 0.00049799 0.20372 -0.097993
-0.00099801 0.0052 -0.0016318 -0.0013676
-0.00070823 0.00061654 -0.00020076 0.0013718 -0.00037897 0.0020897 -0.00098674 0.0051885
0.25082 0.050596 0.0048856 0.0030461
-4.1458e-05 -0.00019081 -0.00044415 0.00054858 -0.0014437 0.00051164 -0.0016466 -0.0013807
0.0048821 0.0030479 0.27822 0.092621
1880000000 0.21588 -0.14996 0.0023598 0.00038544 -0.00035632 0.0021313 -0.00278 -0.0022685
-0.00015326 0.0013443 0.00029074 -0.00052105
0.0023729 0.00037944 0.26303 0.12421 -0.0021993 0.0016162 -9.2068e-05 0.0016998
0.00063608 0.0014423 0.00024576 0.00092155
-0.00036427 0.0021449 -0.0021928 0.0016276 0.10871 -0.25568 0.0020656 -0.00099948
0.0014753 0.0020175 -0.00081014 0.0013915
-0.0027897 -0.0022522 -8.6043e-05 0.0017086 0.0020726 -0.00098834 0.16219 -0.13748
-0.00086402 0.0041701 -0.00238 0.00065287
-0.00014725 0.0013485 0.00064043 0.0014446 0.0014736 0.002013 -0.00085475 0.0041654
0.25219 0.016457 0.0044504 0.00083399
0.0002943 -0.00052247 0.00025088 0.00091607 -0.00081334 0.0013752 -0.0023732 0.00064797
0.0044522 0.00083431 0.27711 0.058403
1940000000 0.17629 -0.17512 0.00014014 -0.0013764 0.0014475 0.0019526 -0.0037597 0.00047475
0.0010784 0.00093647 -0.0006053 -0.00060759
0.00013251 -0.0013791 0.26338 0.092428 -0.0011711 0.0038639 0.00099637 0.0013097
0.0020541 0.00064153 0.00087676 0.00020624
0.0014631 0.0019395 -0.0011513 0.0038772 0.062159 -0.2491 0.00040052 -0.0023659
0.0024585 0.00050702 0.00044071 0.0016508
-0.0037565 0.00048059 0.0010013 0.0012992 0.00039727 -0.0023747 0.10918 -0.16699
-0.002067 0.0037169 -0.0013526 0.0018241
0.0010789 0.00093653 0.0020574 0.00062607 0.002443 0.00051915 -0.0020702 0.0037236
0.25151 -0.023913 0.0030947 -0.0022122
-0.00062537 -0.00058032 0.00087459 0.0001984 0.00046247 0.0016606 -0.001346 0.0018288
0.0030997 -0.0022 0.26535 0.022165
2000000000 0.13012 -0.18891 -0.0036888 0.00058518 0.0025232 0.0014985 -0.002356 0.0036528
0.00089837 0.00027582 -0.00057856 0.00028531
-0.0036799 0.00056527 0.24908 0.057017 -0.00091364 0.0056233 0.0016565 0.00026732
0.0016451 -0.0014677 0.00046794 0.00011454
0.0025442 0.0014525 -0.00087011 0.0056427 0.018735 -0.23446 -0.0015048 -0.0014924
0.0020322 -0.0012873 0.0015646 0.0012501
-0.0023421 0.0036349 0.0016594 0.0002528 -0.0015049 -0.0014924 0.056119 -0.17551
-0.0033122 0.0046456 0.00025203 0.0023168
0.00090798 0.00030654 0.0016161 -0.0014895 0.0020198 -0.0012977 -0.0033104 0.0046603
