!Keysight Technologies,M9804A,MY58100912,A.14.10.03
!Date: Thursday, April 27, 2023 10:28:33
!Correction: S11(C  6-Port  ) 
!S12(C  6-Port  ) 
!S13(C  6-Port  ) 
!S14(C  6-Port  ) 
!S15(C  6-Port  ) 
!S16(C  6-Port  ) 
!S21(C  6-Port  ) 
!S22(C  6-Port  ) 
!S23(C  6-Port  ) 
!S24(C  6-Port  ) 
!S25(C  6-Port  ) 
!S26(C  6-Port  ) 
!S31(C  6-Port  ) 
!S32(C  6-Port  ) 
!S33(C  6-Port  ) 
!S34(C  6-Port  ) 
!S35(C  6-Port  ) 
!S36(C  6-Port  ) 
!S41(C  6-Port  ) 
!S42(C  6-Port  ) 
!S43(C  6-Port  ) 
!S44(C  6-Port  ) 
!S45(C  6-Port  ) 
!S46(C  6-Port  ) 
!S51(C  6-Port  ) 
!S52(C  6-Port  ) 
!S53(C  6-Port  ) 
!S54(C  6-Port  ) 
!S55(C  6-Port  ) 
!S56(C  6-Port  ) 
!S61(C  6-Port  ) 
!S62(C  6-Port  ) 
!S63(C  6-Port  ) 
!S64(C  6-Port  ) 
!S65(C  6-Port  ) 
!S66(C  6-Port  ) 
!S6P File: Measurement: :
# Hz S  RI   R 50
500000000 -0.33732 -0.035176 -0.010065 -0.0036182 -0.0079853 0.012236 -0.0036103 0.011689
0.012289 0.0047032 -0.0035526 0.0083055
-0.010048 -0.0035991 -0.41961 -0.049902 0.0070133 -0.011317 0.0013541 0.011701
0.0073149 0.0027269 0.0011272 0.012701
-0.0079683 0.012248 0.0069931 -0.011347 -0.26607 0.21146 0.0067221 0.0032079
-0.00050246 0.0088807 0.00061567 0.011763
-0.0035908 0.011702 0.0013784 0.011727 0.0067151 0.0032101 -0.32809 0.04724
-0.020517 -0.004022 0.017236 0.025344
0.012318 0.0046761 0.007339 0.0026912 -0.00049248 0.0088679 -0.020528 -0.0040125
-0.22753 -0.18485 -0.02808 0.0054103
-0.0035528 0.0083221 0.0011673 0.01271 0.00062664 0.011743 0.017261 0.02534
-0.028069 0.0053971 -0.2738 -0.11173
560000000 -0.31627 0.1246 -0.02446 -0.062896 0.00011451 0.012539 0.0059433 0.0099932
0.010387 0.0041657 0.0098074 0.0073833
-0.024412 -0.062821 -0.37659 0.10966 -0.042519 -0.036803 0.013892 0.004025
-0.013597 -0.0044212 0.0040325 -0.00062145
0.00015615 0.012535 -0.042661 -0.03674 -0.18311 0.25986 -0.00032829 -0.0048487
0.019259 0.0045871 0.0072022 -0.0055084
0.0059629 0.0099835 0.013921 0.0040169 -0.00033313 -0.0048459 -0.30295 0.13617
0.0030583 -0.024291 0.004471 -0.019489
0.010435 0.0041362 -0.01363 -0.0043604 0.019269 0.0046066 0.0030614 -0.024289
-0.28783 -0.0090055 0.0069207 -0.049593
0.0098389 0.0073592 0.0039979 -0.00065918 0.0072112 -0.0055177 0.0044679 -0.019482
0.0069404 -0.049595 -0.33125 0.034461
620000000 -0.27367 0.10997 -0.023386 0.0074863 0.0039313 0.0086813 0.0068926 -0.0053746
0.011623 -0.00081343 0.00073178 -0.0018643
-0.023367 0.0074816 -0.40267 0.062593 -0.018893 0.00010845 -0.0012992 -0.0020064
0.010606 -0.0072809 0.0012435 -0.0028567
0.0039727 0.0086603 -0.018919 0.00015619 -0.153 0.26845 -0.0013059 -0.0052847
-0.003601 -0.0033273 0.0083692 -0.0036716
0.0068974 -0.0053711 -0.0013086 -0.0020118 -0.0013073 -0.0052838 -0.26216 0.14649
-0.039018 -0.017949 0.014612 0.024285
0.011611 -0.00081533 0.010602 -0.0073131 -0.0035867 -0.0033219 -0.039038 -0.017951
-0.20661 -0.049504 -0.040731 0.01485
0.00070885 -0.0018658 0.0012526 -0.0028721 0.0083592 -0.0036664 0.01462 0.024283
-0.040705 0.014842 -0.25074 -0.0012209
680000000 -0.23313 0.19413 -0.028113 -0.013274 0.0049173 0.0050192 0.0014315 -0.0075899
-0.0029157 -0.011215 0.0045761 -0.0069693
-0.028082 -0.013288 -0.38707 0.15966 -0.032765 -0.0011921 -0.0017011 -0.00027904
-0.0023157 -0.0091089 -0.00093731 -0.0019786
0.0049256 0.0050096 -0.032802 -0.0011128 -0.10143 0.28784 -0.00083792 7.8574e-06
-0.0020411 0.00072562 -0.0030071 -0.0094459
0.0014285 -0.0075972 -0.0016997 -0.00027661 -0.00084132 9.527e-06 -0.21929 0.19593
-0.023732 -0.0072824 -0.0088083 -0.010023
-0.0029513 -0.011214 -0.0023467 -0.0091113 -0.0020463 0.00072884 -0.023756 -0.0072707
-0.25378 0.050221 -0.0064185 -0.0088712
0.0045631 -0.0069826 -0.00093642 -0.001979 -0.0030059 -0.0094447 -0.0088413 -0.010009
-0.0064111 -0.0088758 -0.25891 0.10058
740000000 -0.18945 0.18901 -0.037808 0.027021 0.012874 -0.0053394 -0.00067475 -0.0039967
-0.004316 -0.0031143 -0.0063098 0.0035709
-0.037808 0.02697 -0.33487 0.17829 -0.034888 0.035349 -0.00088636 -0.0062887
-0.011776 0.0085571 -0.0028589 -0.0066234
0.012866 -0.0053554 -0.034817 0.035478 -0.068224 0.28584 -0.0017506 0.0032874
-0.0030009 -0.0042511 -0.0012121 0.00027798
-0.0006756 -0.0039942 -0.00089483 -0.0062964 -0.0017478 0.0032799 -0.20209 0.20336
-0.042684 -0.0071252 0.022226 0.013192
-0.0043424 -0.0031456 -0.011776 0.0086396 -0.0030051 -0.0042654 -0.042706 -0.007076
-0.1565 0.074911 -0.041726 0.00088544
-0.006305 0.0035585 -0.0028785 -0.0066087 -0.001212 0.00028995 0.022254 0.013156
-0.041727 0.00083638 -0.2463 0.10662
800000000 -0.15656 0.2287 -0.021963 0.017381 0.0054526 -0.010678 -0.0046229 -0.0018138
-0.0040385 0.0023449 0.0042384 0.00077858
-0.021959 0.017349 -0.3371 0.2482 -0.0076359 0.034258 -0.0021482 0.0022894
-0.00082535 0.0033903 0.0011311 0.0052368
0.0054143 -0.010699 -0.0075412 0.034317 -0.027314 0.30898 0.0011472 0.001604
0.00062748 0.0035242 -0.001788 0.0011833
-0.0046437 -0.0018145 -0.0021461 0.002298 0.0011404 0.0015975 -0.17406 0.23087
-0.028126 0.013246 0.0134 -0.0097949
-0.0040184 0.0023746 -0.00080539 0.0034024 0.0006321 0.0035411 -0.028128 0.013297
-0.20054 0.098188 -0.017027 0.017728
0.0042622 0.00075452 0.0011347 0.0052572 -0.0017925 0.0011761 0.013399 -0.0098198
-0.017029 0.017712 -0.23722 0.15781
860000000 -0.12211 0.24922 -0.016777 0.030957 -0.0032874 -0.010203 -0.0023159 0.0011943
0.004052 0.0050536 -0.0030786 -0.0027679
-0.016782 0.030923 -0.28938 0.28991 0.0084192 0.034369 6.7193e-05 0.0021495
0.0043164 0.00043497 0.0034733 0.00020661
-0.0033186 -0.010193 0.0085463 0.034383 0.020731 0.31699 -0.00038535 -0.00016233
0.0027775 -0.0015905 0.0017609 0.0040855
-0.0023324 0.0011932 7.8052e-05 0.0021471 -0.00038478 -0.00016402 -0.13856 0.24235
-0.017575 0.019105 -0.0056626 -0.0090538
0.0040631 0.0050691 0.0043244 0.0004249 0.0027766 -0.0015918 -0.017564 0.019154
-0.15019 0.14623 -0.023622 0.015246
-0.0030554 -0.0027705 0.0034892 0.00017939 0.0017538 0.0040946 -0.0056715 -0.0090528
-0.023638 0.015219 -0.18695 0.19953
920000000 -0.096887 0.27214 0.0055439 0.037546 -0.009623 -0.0046303 -0.001828 0.0020997
0.0013388 0.0016465 0.0026291 -0.0016196
0.005526 0.037516 -0.26057 0.31066 0.028423 0.02163 0.001586 0.0010033
0.0070596 -0.0006889 0.0041032 -0.0030125
-0.009653 -0.0046118 0.028529 0.021563 0.067063 0.31771 0.0017786 -0.00021295
0.001297 -0.00051126 0.00074586 -0.0012412
-0.0018373 0.0021032 0.0015931 0.001006 0.0017851 -0.00021183 -0.11419 0.25892
-0.0096754 0.030372 0.0028039 -0.0069277
0.0013365 0.0016466 0.0070573 -0.00072938 0.0012929 -0.00051048 -0.0096174 0.030411
-0.14008 0.15193 -0.0017278 0.02724
0.0026302 -0.0016301 0.0040959 -0.0030288 0.00075248 -0.0012434 0.0028027 -0.0069416
-0.0017499 0.027233 -0.19213 0.21349
980000000 -0.049613 0.29168 0.018033 0.029654 -0.0091083 0.0045434 0.0023065 0.0036685
0.0040035 -0.00173 -0.0029873 -0.0021299
0.017998 0.029645 -0.20795 0.34418 0.03341 0.0043656 0.0020493 -8.5747e-05
0.0011163 -0.0063589 -0.0005914 -0.0022429
-0.0090981 0.0045581 0.033463 0.0042651 0.11358 0.31116 0.00042835 -0.0012257
-4.0003e-05 -0.0022999 0.0013978 -8.6135e-05
0.0023139 0.0036649 0.0020531 -7.3225e-05 0.00042087 -0.0012241 -0.076009 0.2704
0.0082561 0.02881 -0.0090779 -0.0069325
0.0039843 -0.0017407 0.0010924 -0.0063932 -3.9692e-05 -0.0022929 0.0083307 0.028818
-0.10789 0.17895 0.0051225 0.018793
-0.0030005 -0.0021177 -0.00061692 -0.002251 0.0013964 -8.8026e-05 -0.0091022 -0.0069204
0.0051135 0.018782 -0.14921 0.25738
1040000000 -0.0070211 0.2998 0.033538 0.017499 -0.0013544 0.0069608 0.0026843 0.0007642
5.9087e-06 -0.0036931 -0.00063956 -0.0015682
0.033516 0.017508 -0.17261 0.35756 0.029347 -0.01545 0.0014671 -0.0017709
-0.0026655 -0.0026507 -0.0015389 -0.0027006
-0.0013432 0.006959 0.029331 -0.015565 0.16021 0.29744 -0.00058479 -0.0014543
-0.0016655 -0.0007819 -0.0005177 -0.0011367
0.0026921 0.00075698 0.0014757 -0.0017568 -0.00058067 -0.001464 -0.048347 0.28037
0.019387 0.016778 -0.003249 0.0016628
-2.5014e-05 -0.003689 -0.0026768 -0.0026586 -0.001662 -0.00077922 0.019442 0.016757
-0.077213 0.18673 0.013992 0.017389
-0.00065029 -0.0015583 -0.0015811 -0.0026977 -0.00052479 -0.0011391 -0.0032526 0.0016753
0.013985 0.017396 -0.12716 0.27646
1100000000 0.038409 0.30701 0.035834 -0.0050603 0.0028389 0.0038762 0.0025435 -0.0013061
-0.0020836 -0.0031157 -0.0039567 0.00014948
0.03581 -0.0050313 -0.12921 0.37474 0.014808 -0.028419 -4.4045e-05 -0.0018406
-0.0034909 -0.000439 -0.0034492 -0.00044458
0.0028549 0.0038632 0.014717 -0.028506 0.20708 0.27662 -0.0018385 0.00033178
-0.0018204 0.0007917 -0.00095359 -0.0002595
0.0025395 -0.001318 -4.5669e-05 -0.0018322 -0.0018393 0.00034091 -0.0077625 0.28535
0.023711 0.00393 -0.0027319 0.00077647
-0.002105 -0.0031056 -0.0034985 -0.00041998 -0.001818 0.00079852 0.023733 0.0039021
-0.059425 0.19957 0.018945 0.0080376
-0.0039458 0.00016553 -0.0034695 -0.00042628 -0.00094916 -0.00026205 -0.0027363 0.00078943
0.01893 0.0080374 -0.080553 0.30399
1160000000 0.089893 0.30198 0.023505 -0.021474 0.0025622 -0.00035878 -0.00011664 -0.0024121
-0.0040816 -0.00061144 -0.00097119 0.0038204
0.023529 -0.02143 -0.085251 0.37935 -0.004524 -0.029387 -0.0018212 -0.0016894
-0.002489 0.0028788 -0.0012182 0.0016769
0.0025631 -0.00038667 -0.0046498 -0.029385 0.25046 0.24485 -0.00060539 0.0018346
-0.00025731 0.0019805 -0.00094258 0.00012637
-0.00012245 -0.002428 -0.0018179 -0.0016836 -0.00061053 0.0018339 0.031672 0.28242
0.019557 -0.011237 -0.0029154 0.005517
-0.0041039 -0.00060132 -0.002487 0.0028868 -0.00024829 0.0019756 0.019553 -0.011253
-0.026947 0.20874 0.017705 -6.8473e-05
-0.00095304 0.0038383 -0.0012301 0.0016815 -0.00093313 0.00012646 -0.0029028 0.0055269
0.017697 -6.1133e-05 -0.033442 0.30635
1220000000 0.13439 0.29041 0.0095715 -0.030481 -0.0016545 -0.00070996 2.5073e-06 -0.0011663
-0.0026447 0.0025499 0.0013732 0.0019329
0.009584 -0.030439 -0.040387 0.39108 -0.017617 -0.020986 -0.002539 0.00053592
0.00036666 0.00313 -0.00065379 0.00189
-0.0016604 -0.000705 -0.017731 -0.020924 0.28921 0.2047 0.0010062 0.001686
0.00069366 0.0012053 0.00025495 0.0006686
4.7343e-07 -0.001175 -0.0025423 0.000545 0.0010035 0.0016863 0.071607 0.27386
0.0087172 -0.017022 0.0023459 0.0018478
-0.0026353 0.0025541 0.00038971 0.0031272 0.00069175 0.0012013 0.0087045 -0.017027
-0.0040078 0.21854 0.013393 -0.013039
0.0013805 0.0019207 -0.00064058 0.0018909 0.00025815 0.00066843 0.0023522 0.0018535
0.013373 -0.013031 -0.0011174 0.32149
1280000000 0.18418 0.2679 -0.0089235 -0.028481 -0.0017911 0.0028248 -0.00106 -0.0020842
-0.00070465 0.0032076 0.002529 0.00099529
-0.0088925 -0.028442 0.0060231 0.38178 -0.024248 -0.007947 -0.00092973 0.001625
0.0019109 0.00163 0.00064688 0.0019155
-0.001779 0.0028425 -0.024323 -0.0078444 0.31885 0.16026 0.0015181 -0.00029722
0.0010896 -3.9129e-05 0.0002759 0.00033369
-0.0010714 -0.0020769 -0.00092365 0.001632 0.0015199 -0.0002946 0.10811 0.25744
-0.00096072 -0.018336 0.00027718 0.00033232
-0.00068461 0.0032116 0.0019281 0.0016201 0.0010791 -3.7161e-05 -0.00099558 -0.018347
0.032699 0.22282 0.0024481 -0.01504
0.0025278 0.00097358 0.00065095 0.0019179 0.00027896 0.00033461 0.00028636 0.00033101
0.0024487 -0.015027 0.04615 0.32139
1340000000 0.22133 0.23359 -0.018549 -0.018364 0.0010482 0.0045947 -0.0020317 -0.00086618
0.0015619 0.00274 0.0016898 -0.0015578
-0.018524 -0.018362 0.045834 0.37258 -0.021654 0.0049545 7.3384e-05 0.001989
0.0019069 0.00041135 0.0013924 0.00083841
0.0010574 0.0045906 -0.021652 0.0050643 0.33976 0.11228 0.0009631 -0.0010334
0.0005402 -0.0004654 9.5383e-05 0.00035347
-0.0020442 -0.00084778 8.5173e-05 0.001983 0.00095698 -0.0010344 0.14091 0.23716
-0.0096977 -0.014438 0.00114 0.00044616
0.0015725 0.0027384 0.001917 0.00040769 0.00053888 -0.0004689 -0.0097304 -0.014428
0.063384 0.21889 -0.0043126 -0.013436
0.0016875 -0.0015595 0.0014006 0.00083345 9.5265e-05 0.0003558 0.001139 0.00043811
-0.004305 -0.013427 0.084891 0.31556
1400000000 0.25408 0.19461 -0.023818 -0.0065082 0.0053733 0.0031488 -0.002125 0.00082066
0.0026935 0.00081005 0.00012385 -0.0013955
-0.023786 -0.0065196 0.082808 0.35873 -0.014508 0.012989 0.0014569 0.0011673
0.00095706 -0.0010712 0.001157 0.00014238
0.0053744 0.0031238 -0.014466 0.013075 0.35216 0.059393 -3.55e-05 -0.0015669
3.356e-05 -0.00040404 0.00032019 0.00023372
-0.0021286 0.00083902 0.0014707 0.0011535 -4.0235e-05 -0.0015601 0.17054 0.20852
-0.014625 -0.0072892 -0.0004356 -0.00038951
0.0026918 0.00078574 0.00096108 -0.0010726 3.6888e-05 -0.00040722 -0.014647 -0.0072583
0.096786 0.21434 -0.010743 -0.0082565
0.00011465 -0.001391 0.0011512 0.00012356 0.00032228 0.00023529 -0.00043894 -0.00039794
-0.010726 -0.0082591 0.12871 0.3035
1460000000 0.27648 0.14989 -0.020266 0.0057518 0.0057913 -0.0019244 -0.00151 0.0019034
0.00216 -0.00086333 -0.00044368 -0.00085854
-0.020251 0.0057359 0.11649 0.33614 -0.0055156 0.015576 0.0016572 5.1274e-05
0.00062268 -0.0012263 0.001123 -0.0006533
0.0057738 -0.0019565 -0.0054324 0.015623 0.35801 0.0056916 -0.0012966 -0.001094
0.00022409 -9.3238e-05 0.00072694 -0.00040314
-0.0014951 0.0019064 0.0016619 4.3484e-05 -0.00129 -0.0010871 0.19719 0.17942
-0.01442 -0.00056676 -0.00070634 0.0017295
0.0021564 -0.00088029 0.0006136 -0.0012292 0.00022901 -8.7487e-05 -0.014432 -0.00053571
0.12715 0.19973 -0.01218 -0.0022083
-0.00045935 -0.00085124 0.0011177 -0.00066251 0.00072847 -0.00041956 -0.00071466 0.0017221
-0.012168 -0.002207 0.1616 0.2813
1520000000 0.28797 0.10768 -0.014112 0.011153 0.0032206 -0.0043909 0.00031621 0.0026772
0.0017773 -0.0019139 -0.0011619 -5.1005e-05
-0.014108 0.011129 0.14924 0.32105 0.0020559 0.013021 0.0015176 -0.00084686
-9.3014e-05 -0.00076434 0.00027319 -0.0010077
0.0031988 -0.0044068 0.0021294 0.013025 0.35131 -0.049834 -0.00096337 -0.00022839
0.00053962 -0.00086656 2.7894e-05 -0.00011023
0.0003242 0.002677 0.0015261 -0.00086004 -0.00096215 -0.00022839 0.22076 0.14121
-0.012422 0.0044411 0.0014121 0.0017463
0.0017649 -0.0019253 -9.7201e-05 -0.00076621 0.00054358 -0.00086699 -0.01241 0.0044644
0.15601 0.18494 -0.01175 0.0024712
-0.0011529 -4.1972e-05 0.00027346 -0.0010185 3.086e-05 -0.00011005 0.0014058 0.0017398
-0.011749 0.0024542 0.19376 0.25986
1580000000 0.29632 0.061061 -0.0071161 0.013766 -0.00099288 -0.0050009 0.0015441 0.0017757
-0.00063195 -0.0022095 -0.00028127 0.00042052
-0.0071259 0.013752 0.17578 0.29619 0.0055786 0.0079743 0.00036949 -0.0015286
-0.00040133 -0.00079105 -0.00029577 -0.00083203
-0.0010191 -0.0049895 0.0056163 0.007948 0.33155 -0.10729 -0.0013672 0.00052567
-0.00036145 -0.0012025 0.00019739 -0.00057576
0.0015564 0.0017711 0.00036302 -0.0015341 -0.0013653 0.00052054 0.23506 0.10148
-0.0083084 0.0078913 0.0021143 0.00042367
-0.00065101 -0.0022113 -0.00041591 -0.00079408 -0.00036208 -0.0011976 -0.0083002 0.0079118
0.18098 0.16607 -0.008831 0.0078803
-0.00027959 0.00042201 -0.0003002 -0.00083206 0.00019278 -0.00058445 0.0021151 0.00042507
-0.0088272 0.0078733 0.22463 0.23259
1640000000 0.29733 0.019698 -0.00044302 0.012087 -0.0029623 -0.0027552 0.0026196 0.00083488
-0.0010611 -0.0011116 -0.00024268 0.00058449
-0.00045294 0.01208 0.20447 0.2714 0.0059467 0.003111 -0.00075631 -0.00159
-0.00075136 -0.00036984 -0.0005406 -0.00061733
-0.0029768 -0.0027454 0.005963 0.0030767 0.30352 -0.15605 -0.00073634 0.0012825
-0.0011119 -0.00082921 -0.0001019 -0.0003732
0.0026258 0.00082617 -0.00076694 -0.0015991 -0.00073457 0.0012803 0.24735 0.052228
-0.0041164 0.0075407 0.0023117 -0.00093304
-0.0010689 -0.0010967 -0.00076332 -0.00037247 -0.0011114 -0.0008317 -0.004097 0.0075591
0.20436 0.14012 -0.0038781 0.0098774
-0.00023664 0.00058417 -0.00054235 -0.00061312 -0.00010174 -0.00037556 0.0023128 -0.00093989
-0.0038904 0.0098729 0.24974 0.20095
1700000000 0.28921 -0.025363 0.002787 0.0088617 -0.0036846 0.00013663 0.0028606 -0.0012838
-0.0019371 -0.00025851 0.00057413 0.0003707
0.0027796 0.008857 0.22213 0.24029 0.0038433 0.00026171 -0.0013578 -0.00050843
-0.00064195 -0.00013046 -0.00093036 -0.00040202
-0.0036811 0.00015883 0.0038513 0.00023378 0.26049 -0.19612 0.00033682 0.0014888
-0.0018219 -0.00017541 -0.00058958 -0.0010105
0.0028554 -0.0012947 -0.0013648 -0.00050593 0.00034312 0.0014868 0.24397 0.0019697
-0.0023457 0.0067008 0.0012868 -0.0022638
-0.0019426 -0.00024885 -0.00064277 -0.00012499 -0.0018237 -0.00017557 -0.0023378 0.0067068
0.22177 0.11802 0.00082083 0.009755
0.00057741 0.00036355 -0.00093488 -0.00039623 -0.00059343 -0.0010064 0.0012872 -0.0022592
0.00082005 0.0097597 0.26545 0.16645
1760000000 0.27612 -0.073206 0.0045325 0.0053341 -0.0024342 0.00087772 0.0011764 -0.0033254
-0.00099788 0.00082838 0.00034873 -0.00050151
0.0045182 0.0053327 0.24777 0.20092 0.0014518 -0.0014856 -0.0010912 0.00022344
-0.0011238 0.00064782 -0.000598 0.00053144
-0.0024209 0.00089821 0.0014489 -0.0015045 0.21202 -0.23012 0.00095735 0.0012145
-0.001018 0.0013392 -0.0014852 -0.00042807
0.0011527 -0.0033274 -0.0010892 0.00022924 0.00095891 0.001206 0.23436 -0.049726
-0.00070975 0.0053722 -0.00044451 -0.0024624
-0.0009854 0.0008308 -0.0011203 0.00066029 -0.0010107 0.0013387 -0.00070263 0.0053716
0.23614 0.08103 0.004783 0.0067501
0.00034383 -0.00051038 -0.00059509 0.00053651 -0.0014893 -0.00042621 -0.00044214 -0.0024607
0.0047831 0.0067408 0.27744 0.12831
1820000000 0.25112 -0.1096 0.0042905 0.001964 -9.1155e-05 0.0025639 -0.0010753 -0.0030301
-0.00063446 0.00067574 -3.3922e-05 -9.98e-05
0.0042821 0.0019596 0.25774 0.17136 -0.00051804 -2.2991e-05 -0.0012983 0.00084321
-0.00032035 0.0012431 -0.00052296 0.00055445
-6.5836e-05 0.0025739 -0.00051807 -2.243e-05 0.16164 -0.24538 0.001512 0.00045617
-0.00035173 0.0022117 -0.0016028 0.00060102
-0.0010865 -0.003015 -0.0012955 0.00084806 0.0015249 0.00046458 0.20395 -0.096863
-0.00064369 0.0039416 -0.0017256 -0.0015689
-0.00063081 0.00068471 -0.00030912 0.0012531 -0.00034514 0.0022164 -0.00064184 0.0039569
0.25189 0.049587 0.0055233 0.0028967
-3.5067e-05 -0.00010485 -0.00051628 0.00055467 -0.0015979 0.00060644 -0.0017296 -0.0015645
0.0055143 0.0028993 0.27903 0.091764
1880000000 0.21592 -0.14893 0.0018585 1.9697e-05 -0.00031493 0.0023697 -0.0028482 -0.002109
-0.00010284 0.0012664 0.00039758 -0.00046783
0.0018541 1.6962e-05 0.26239 0.1252 -0.0024712 0.001689 -0.0001793 0.0016286
0.00044874 0.0014331 0.00025636 0.0010449
-0.00030093 0.0023803 -0.0024647 0.0016963 0.10926 -0.25566 0.0020394 -0.00092115
0.0014494 0.0020077 -0.00086473 0.0016242
-0.0028642 -0.0020895 -0.00016871 0.0016381 0.0020393 -0.00091719 0.163 -0.13658
-0.0011477 0.0030729 -0.0025898 0.00057404
-9.4838e-05 0.001271 0.0004629 0.0014299 0.0014538 0.0020009 -0.0011292 0.0030843
0.25294 0.015167 0.0048998 0.00052505
0.00039446 -0.00047593 0.00026047 0.001035 -0.00086202 0.0016221 -0.0025945 0.00057525
0.0048926 0.00054238 0.27784 0.057357
1940000000 0.17691 -0.17424 -0.00035029 -0.0013948 0.0014946 0.0019845 -0.0036892 0.00063962
0.0010189 0.00099483 -0.00054495 -0.00067479
-0.00035106 -0.0013943 0.26311 0.093544 -0.0013058 0.0039647 0.00094249 0.001334
0.0019187 0.00080531 0.00096184 0.00031408
0.0015096 0.0019897 -0.001287 0.0039798 0.063165 -0.24936 0.00054269 -0.0023876
0.002547 0.00053972 0.00063307 0.00181
-0.0036902 0.00066036 0.00095114 0.0013305 0.0005345 -0.0023823 0.11028 -0.16658
-0.0027301 0.0029969 -0.0016397 0.0018106
0.0010207 0.00098605 0.0019286 0.00078379 0.0025463 0.00052728 -0.0027179 0.0030118
0.25182 -0.02527 0.0033178 -0.0027677
-0.00055493 -0.00068161 0.00096476 0.0002963 0.0006324 0.0018003 -0.0016339 0.0018068
0.003314 -0.002764 0.26591 0.021079
2000000000 0.13093 -0.18838 -0.0040299 0.00076645 0.0025593 0.0015073 -0.0022042 0.0035965
0.00089347 0.00037268 -0.00069132 0.0003696
-0.0040267 0.00076445 0.24926 0.058047 -0.00095512 0.0057932 0.0016777 0.00040606
0.0016444 -0.0011955 0.0005162 -9.642e-06
0.0025825 0.0014915 -0.00091191 0.0058103 0.019242 -0.23493 -0.0014731 -0.0015737
0.0020983 -0.0012044 0.0017569 0.001184
-0.0021739 0.0036101 0.0016869 0.00039427 -0.0014593 -0.0015699 0.05723 -0.17577
-0.0040693 0.0043411 -6.2734e-05 0.0024313
0.00089592 0.00034991 0.0016336 -0.0012214 0.0020963 -0.0012053 -0.0040498 0.004367
