!Keysight Technologies,M9804A,MY58100912,A.14.10.03
!Date: Thursday, April 27, 2023 10:28:33
!Correction: S11(C  6-Port  ) 
!S12(C  6-Port  ) 
!S13(C  6-Port  ) 
!S14(C  6-Port  ) 
!S15(C  6-Port  ) 
!S16(C  6-Port  ) 
!S21(C  6-Port  ) 
!S22(C  6-Port  ) 
!S23(C  6-Port  ) 
!S24(C  6-Port  ) 
!S25(C  6-Port  ) 
!S26(C  6-Port  ) 
!S31(C  6-Port  ) 
!S32(C  6-Port  ) 
!S33(C  6-Port  ) 
!S34(C  6-Port  ) 
!S35(C  6-Port  ) 
!S36(C  6-Port  ) 
!S41(C  6-Port  ) 
!S42(C  6-Port  ) 
!S43(C  6-Port  ) 
!S44(C  6-Port  ) 
!S45(C  6-Port  ) 
!S46(C  6-Port  ) 
!S51(C  6-Port  ) 
!S52(C  6-Port  ) 
!S53(C  6-Port  ) 
!S54(C  6-Port  ) 
!S55(C  6-Port  ) 
!S56(C  6-Port  ) 
!S61(C  6-Port  ) 
!S62(C  6-Port  ) 
!S63(C  6-Port  ) 
!S64(C  6-Port  ) 
!S65(C  6-Port  ) 
!S66(C  6-Port  ) 
!S6P File: Measurement: :
# Hz S  RI   R 50
500000000 -0.33738 -0.035191 -0.010027 -0.0036063 -0.0079902 0.012206 -0.0035887 0.011706
0.012326 0.0047167 -0.0035621 0.0083013
-0.0099919 -0.0035939 -0.41961 -0.050089 0.006993 -0.011339 0.001306 0.011666
0.007299 0.0027481 0.0010926 0.01266
-0.0079641 0.012215 0.0069648 -0.01137 -0.26604 0.21147 0.0066935 0.0031995
-0.00052244 0.0088945 0.00061578 0.011743
-0.0035643 0.011715 0.0013377 0.011696 0.0066989 0.0032031 -0.3281 0.047219
-0.020549 -0.0040448 0.017266 0.025309
0.012366 0.0047297 0.0072578 0.0026967 -0.00053393 0.0089204 -0.020551 -0.0040408
-0.22755 -0.18478 -0.028121 0.0053558
-0.0034981 0.0083359 0.0011217 0.012644 0.00060806 0.011737 0.017238 0.025288
-0.028121 0.0053535 -0.27371 -0.11185
560000000 -0.31633 0.12455 -0.024488 -0.062801 8.1049e-05 0.012437 0.0059238 0.0099751
0.010387 0.004125 0.0097829 0.0074037
-0.024415 -0.062719 -0.37661 0.10978 -0.042542 -0.036843 0.013685 0.0038842
-0.013625 -0.0044523 0.0040237 -0.00062827
0.0001141 0.01243 -0.042691 -0.036787 -0.18309 0.25986 -0.00018639 -0.0048501
0.019299 0.0045295 0.0072663 -0.0055099
0.0059467 0.009954 0.013726 0.0038922 -0.0001952 -0.0048567 -0.3029 0.13611
0.0030903 -0.024305 0.0044864 -0.019472
0.01039 0.0041105 -0.013657 -0.0043901 0.019221 0.0044799 0.0030561 -0.024286
-0.2878 -0.0091048 0.0069306 -0.049587
0.0097761 0.0073275 0.0040471 -0.00062778 0.0072257 -0.0055051 0.0044829 -0.019486
0.0069498 -0.049599 -0.33132 0.034502
620000000 -0.27372 0.10987 -0.023402 0.0075161 0.0039771 0.008743 0.0068693 -0.0053843
0.011626 -0.00080969 0.0007303 -0.0018344
-0.023365 0.0075169 -0.40265 0.062565 -0.018869 0.00012896 -0.0012767 -0.0019967
0.010589 -0.007288 0.0012227 -0.0028665
0.0040174 0.0087246 -0.018893 0.00017957 -0.15297 0.26846 -0.0013032 -0.0052735
-0.0036503 -0.003368 0.0083262 -0.0037066
0.006879 -0.005394 -0.001296 -0.0019827 -0.001294 -0.005279 -0.26222 0.14642
-0.038973 -0.018015 0.014752 0.024237
0.011651 -0.00082523 0.010574 -0.0073335 -0.003647 -0.0033584 -0.038968 -0.017986
-0.20661 -0.049345 -0.040822 0.014911
0.00066938 -0.001825 0.0012148 -0.0028381 0.0083371 -0.0036818 0.014767 0.024202
-0.040828 0.014885 -0.25073 -0.0010325
680000000 -0.23314 0.19398 -0.028105 -0.013226 0.004942 0.0050709 0.0014115 -0.0075895
-0.0029512 -0.011191 0.0045639 -0.0069949
-0.028084 -0.01323 -0.38714 0.15961 -0.032787 -0.0011999 -0.0016905 -0.00026087
-0.0023068 -0.0091174 -0.00093627 -0.0019864
0.004954 0.0050498 -0.032818 -0.0011061 -0.10144 0.28783 -0.00084699 1.5795e-05
-0.0020475 0.00072972 -0.0030136 -0.0094449
0.0014052 -0.0075939 -0.0016901 -0.00026154 -0.0008496 2.0392e-05 -0.21931 0.19592
-0.023727 -0.00731 -0.008803 -0.010027
-0.0029925 -0.011194 -0.0023429 -0.0091506 -0.0020523 0.00071718 -0.023744 -0.0072848
-0.25377 0.05013 -0.0064714 -0.008872
0.0045639 -0.0070127 -0.00094849 -0.0019786 -0.0030045 -0.0094383 -0.0088064 -0.010036
-0.0064688 -0.0088673 -0.25895 0.10077
740000000 -0.18936 0.18889 -0.03781 0.027065 0.012906 -0.005294 -0.00065952 -0.0039192
-0.0042786 -0.0031114 -0.0063069 0.0035572
-0.03782 0.027036 -0.33486 0.17828 -0.03488 0.035325 -0.00083539 -0.0063448
-0.011785 0.0085731 -0.0029171 -0.006649
0.012896 -0.0053289 -0.034802 0.035466 -0.068173 0.28589 -0.0017303 0.0032608
-0.0029611 -0.0042485 -0.0011804 0.00025917
-0.00066617 -0.0039352 -0.00087809 -0.0063452 -0.0017324 0.0032586 -0.20214 0.20331
-0.042723 -0.0071608 0.022239 0.013218
-0.004226 -0.0031108 -0.011804 0.0086503 -0.0029296 -0.0042259 -0.042774 -0.0070804
-0.15647 0.074995 -0.041669 0.00091183
-0.0063858 0.0035517 -0.0028998 -0.0066624 -0.001203 0.00024382 0.02227 0.013153
-0.041674 0.00086586 -0.2463 0.10674
800000000 -0.15659 0.22867 -0.021946 0.017357 0.0054687 -0.010684 -0.0046386 -0.0018127
-0.004019 0.0023803 0.0042111 0.0007748
-0.021939 0.017328 -0.33711 0.24817 -0.0076217 0.03427 -0.0021519 0.0022907
-0.00082514 0.0033809 0.0011321 0.0052009
0.0054408 -0.010706 -0.0075242 0.034318 -0.027305 0.30895 0.0011442 0.0015904
0.00063445 0.0035254 -0.0017675 0.0011778
-0.0046546 -0.0017944 -0.0021346 0.0022971 0.0011495 0.001589 -0.17408 0.23086
-0.02812 0.013248 0.01341 -0.0097912
-0.0040043 0.0024069 -0.00080076 0.0034092 0.00065188 0.0035431 -0.028114 0.013303
-0.20054 0.098234 -0.017068 0.017713
0.0042306 0.00077632 0.0011499 0.005248 -0.0017686 0.0011983 0.013417 -0.0098015
-0.017075 0.017685 -0.23717 0.15791
860000000 -0.12211 0.24927 -0.016779 0.030984 -0.0033189 -0.010206 -0.0022836 0.0011839
0.0040465 0.0050266 -0.0031092 -0.0027462
-0.016789 0.030954 -0.28946 0.28986 0.0084057 0.034357 6.5676e-05 0.0021688
0.0043385 0.00036277 0.0034177 0.00021932
-0.0033355 -0.010202 0.0085245 0.03437 0.020727 0.31699 -0.00039828 -0.00017615
0.0027667 -0.0015905 0.0017545 0.0040669
-0.0022826 0.0012065 7.2448e-05 0.0021642 -0.00039974 -0.00017652 -0.13849 0.24235
-0.017555 0.019098 -0.0057145 -0.0090483
0.0040593 0.0050261 0.0043378 0.0003584 0.0027475 -0.0015904 -0.017522 0.019129
-0.1502 0.14623 -0.023585 0.015281
-0.0031217 -0.0027169 0.0034205 0.00020365 0.0017668 0.0040674 -0.0057139 -0.0090417
-0.023589 0.015254 -0.18693 0.19957
920000000 -0.096941 0.27212 0.0055556 0.037547 -0.0096355 -0.0046169 -0.0018272 0.0020944
0.00134 0.0016322 0.0026373 -0.0016653
0.0055164 0.037503 -0.26058 0.31061 0.028448 0.021621 0.001599 0.00099667
0.0070399 -0.00070937 0.0040667 -0.003007
-0.0096475 -0.0045993 0.028545 0.021554 0.067062 0.3177 0.0017998 -0.00022248
0.0012817 -0.0005225 0.0007037 -0.0012425
-0.0018213 0.0021054 0.0016132 0.00098788 0.0018029 -0.00021924 -0.11419 0.25891
-0.0096806 0.030366 0.00276 -0.0069423
0.001355 0.0016285 0.00707 -0.0007469 0.0012879 -0.00052414 -0.0096203 0.030399
-0.14003 0.15195 -0.001691 0.02726
0.002628 -0.0016663 0.0040321 -0.0030318 0.00070188 -0.0012393 0.0027672 -0.0069284
-0.0017142 0.027247 -0.192 0.2135
980000000 -0.04964 0.29168 0.018037 0.029669 -0.0091172 0.0045276 0.002305 0.0036489
0.0040123 -0.0017263 -0.0029789 -0.0021364
0.018006 0.029617 -0.208 0.34415 0.033418 0.0043789 0.0020315 -7.0493e-05
0.0011368 -0.0063857 -0.00058262 -0.0022395
-0.0090924 0.004558 0.033462 0.004272 0.11355 0.31117 0.00041616 -0.0012168
-3.8247e-05 -0.0023074 0.0013867 -8.067e-05
0.0023062 0.0036486 0.0020579 -7.7285e-05 0.00041694 -0.0012143 -0.075994 0.27041
0.0082832 0.028792 -0.0090931 -0.0069401
0.0040196 -0.0017532 0.0011325 -0.0063823 -4.9179e-05 -0.0022981 0.0083313 0.028784
-0.10787 0.1789 0.005117 0.018744
-0.0029834 -0.0021017 -0.00060649 -0.0022609 0.0013947 -8.477e-05 -0.009092 -0.0069256
0.0051098 0.018746 -0.14918 0.25735
1040000000 -0.0070397 0.29981 0.033559 0.017494 -0.0013783 0.0069472 0.0026787 0.00074663
-2.2604e-06 -0.003677 -0.00061892 -0.001555
0.033493 0.017466 -0.17271 0.3575 0.029353 -0.01546 0.0014766 -0.0017505
-0.0026784 -0.0026768 -0.001548 -0.0026772
-0.0013493 0.0069428 0.029311 -0.015569 0.1602 0.29744 -0.00058813 -0.0014593
-0.0016638 -0.00076719 -0.00053043 -0.0011233
0.002676 0.0007471 0.0014847 -0.0017841 -0.00059268 -0.0014575 -0.048329 0.28035
0.019402 0.016766 -0.0032649 0.0016885
-2.9678e-05 -0.0036802 -0.0026682 -0.0026592 -0.0016637 -0.00076309 0.019444 0.016739
-0.077171 0.18678 0.013979 0.017386
-0.00062848 -0.0015351 -0.0015774 -0.0026759 -0.00052525 -0.0011248 -0.0032619 0.0016919
0.013966 0.017385 -0.12706 0.27641
1100000000 0.038342 0.30703 0.035833 -0.0050714 0.0028379 0.0038458 0.0025287 -0.0013168
-0.0020846 -0.0030999 -0.0039514 0.00017974
0.035789 -0.0050576 -0.12927 0.3747 0.014822 -0.028439 -5.9838e-05 -0.0018371
-0.0034952 -0.00044827 -0.0034477 -0.00043484
0.0028553 0.0038293 0.014724 -0.02852 0.20707 0.27661 -0.0018295 0.00034281
-0.0018157 0.00079232 -0.00094547 -0.00026242
0.0025284 -0.0013247 -6.4519e-05 -0.0018371 -0.0018343 0.00033991 -0.0077469 0.28533
0.023721 0.0039058 -0.002732 0.00078482
-0.0021071 -0.0030813 -0.0034959 -0.00042126 -0.0018187 0.00080237 0.023744 0.0038647
-0.059383 0.19958 0.018938 0.0080352
-0.0039498 0.00021001 -0.0034643 -0.00042145 -0.0009487 -0.00026087 -0.0027271 0.00079161
0.01892 0.0080359 -0.080515 0.30398
1160000000 0.089814 0.30201 0.023513 -0.021483 0.002564 -0.00038587 -0.00011722 -0.0024266
-0.0041003 -0.00060432 -0.00096437 0.003822
0.023495 -0.021468 -0.085326 0.37929 -0.0044855 -0.029373 -0.0018312 -0.0016647
-0.0024951 0.0028642 -0.0012154 0.0016642
0.0025697 -0.00038547 -0.0046252 -0.029372 0.25043 0.24485 -0.00059181 0.0018446
-0.00026278 0.0019792 -0.00094198 0.00011876
-0.00013433 -0.0024344 -0.0018256 -0.0016696 -0.00060043 0.0018406 0.031662 0.28239
0.019546 -0.011244 -0.0029106 0.0055105
-0.0040922 -0.00058799 -0.0024654 0.0028937 -0.0002702 0.0019847 0.019537 -0.011289
-0.026949 0.20876 0.017693 -7.346e-05
-0.00096077 0.0038481 -0.0012232 0.0016722 -0.00094913 0.00013326 -0.0029081 0.0055161
0.017689 -7.0993e-05 -0.033379 0.3064
1220000000 0.13433 0.29042 0.009571 -0.030469 -0.0016537 -0.00071964 1.5638e-05 -0.0011572
-0.0026429 0.0025381 0.0013785 0.0019341
0.0095731 -0.03044 -0.040442 0.39107 -0.017599 -0.020972 -0.0025505 0.00054175
0.00039251 0.0031144 -0.00065054 0.0018886
-0.0016588 -0.00071554 -0.017717 -0.020916 0.28919 0.20468 0.0010108 0.0016937
0.00070265 0.0012034 0.00025979 0.00066083
3.8641e-06 -0.0011645 -0.0025392 0.00055105 0.0010061 0.0016933 0.071614 0.27383
0.008719 -0.017016 0.0023461 0.0018432
-0.0026374 0.002549 0.00041683 0.0031204 0.0007058 0.0012018 0.0086993 -0.017033
-0.0040267 0.21853 0.013369 -0.013065
0.0013752 0.0019399 -0.00065077 0.0018866 0.00025785 0.00066928 0.0023443 0.0018302
0.013369 -0.013058 -0.0010617 0.3215
1280000000 0.1841 0.26791 -0.0089346 -0.028456 -0.0017901 0.002831 -0.0010533 -0.002081
-0.00068628 0.0032106 0.0025306 0.001007
-0.0089086 -0.028432 0.0059477 0.38176 -0.024258 -0.0079564 -0.00093572 0.0016069
0.0019094 0.0016213 0.00064542 0.001921
-0.0017828 0.0028354 -0.024323 -0.0078546 0.31886 0.16025 0.0015131 -0.00029859
0.0010802 -5.0792e-05 0.00027435 0.00032023
-0.001069 -0.0020749 -0.0009314 0.0016163 0.0015158 -0.00029503 0.10811 0.25742
-0.00096098 -0.018336 0.00027908 0.00032584
-0.00066938 0.0032031 0.0019275 0.0016172 0.0010871 -5.2506e-05 -0.0009943 -0.018329
0.03266 0.2228 0.0024452 -0.015043
0.0025418 0.00098155 0.00066249 0.0019234 0.00027889 0.00031732 0.00028093 0.00032207
0.0024587 -0.015041 0.046208 0.32138
1340000000 0.22125 0.23361 -0.018554 -0.018344 0.0010445 0.0046028 -0.0020427 -0.0008523
0.0015491 0.0027237 0.0016831 -0.0015535
-0.018521 -0.018346 0.045745 0.37255 -0.021657 0.0049487 7.1084e-05 0.0019777
0.00192 0.00041185 0.0013979 0.00083382
0.0010653 0.0045952 -0.021661 0.005068 0.33972 0.11228 0.00095107 -0.0010325
0.00054111 -0.00046431 0.00010085 0.00033861
-0.0020466 -0.00084407 7.9224e-05 0.0019827 0.00095394 -0.0010364 0.14089 0.23713
-0.0096881 -0.014423 0.0011413 0.00045232
0.0015723 0.0027252 0.0019046 0.00040149 0.00054208 -0.00046507 -0.0097281 -0.014414
0.063359 0.21888 -0.0043288 -0.013426
0.0016819 -0.0015648 0.0013917 0.00082713 0.00010308 0.00034827 0.0011403 0.00045364
-0.0043149 -0.013425 0.084961 0.31557
1400000000 0.25403 0.19466 -0.02381 -0.0064963 0.005368 0.0031526 -0.0021362 0.00081959
0.0026883 0.00079646 0.00013198 -0.0014036
-0.023782 -0.0065082 0.082744 0.35871 -0.014521 0.012976 0.0014624 0.0011618
0.00095747 -0.0010612 0.0011529 0.00013986
0.0053917 0.0031264 -0.014473 0.013071 0.35216 0.059411 -3.629e-05 -0.0015683
3.6731e-05 -0.00040695 0.00031628 0.00021628
-0.0021231 0.0008286 0.0014653 0.0011542 -4.1961e-05 -0.0015697 0.17052 0.20851
-0.01462 -0.0072901 -0.00043074 -0.00038125
0.0026986 0.00079012 0.00094605 -0.0010678 2.8606e-05 -0.00039938 -0.014643 -0.007258
0.096758 0.2143 -0.010748 -0.0082456
0.00012475 -0.0013966 0.0011544 0.00013875 0.00031542 0.00022249 -0.00043554 -0.00037907
-0.010748 -0.0082445 0.12877 0.30346
1460000000 0.27639 0.14997 -0.02026 0.0057542 0.0057859 -0.0019195 -0.0015165 0.0019015
0.0021608 -0.00086628 -0.00044315 -0.00086513
-0.020242 0.0057328 0.11642 0.33614 -0.0055131 0.01557 0.0016587 5.5825e-05
0.00061435 -0.0012091 0.0011178 -0.00064533
0.0057848 -0.0019475 -0.0054421 0.01561 0.35799 0.0057052 -0.00129 -0.001089
0.00022598 -0.00010701 0.00072453 -0.00040552
-0.0015073 0.0019008 0.0016572 5.1996e-05 -0.00129 -0.0010821 0.19716 0.17941
-0.014423 -0.00054736 -0.00070524 0.0017401
0.002154 -0.00087598 0.00060535 -0.0012172 0.00021956 -0.00010836 -0.014434 -0.0005188
0.12711 0.19976 -0.01218 -0.0021805
-0.000446 -0.00085454 0.0011102 -0.00065272 0.00072132 -0.00040115 -0.00070598 0.0017427
-0.012186 -0.0021802 0.16163 0.28129
1520000000 0.28793 0.10778 -0.014094 0.011149 0.0032222 -0.0044019 0.00030997 0.0026796
0.0017673 -0.0019143 -0.0011581 -5.6875e-05
-0.014094 0.011128 0.14918 0.32108 0.0020728 0.01303 0.0015217 -0.00084765
-9.4148e-05 -0.00075917 0.0002734 -0.0010067
0.0032056 -0.0044138 0.0021416 0.01303 0.35128 -0.049828 -0.00096014 -0.0002226
0.00053093 -0.0008716 2.1519e-05 -0.0001073
0.00032137 0.0026814 0.0015094 -0.00085956 -0.00096404 -0.00022736 0.22074 0.14121
-0.012419 0.0044535 0.001414 0.0017552
0.0017523 -0.001928 -0.00010436 -0.000761 0.00052933 -0.00087547 -0.012416 0.0044793
0.15599 0.18497 -0.011739 0.0024805
-0.0011531 -4.3013e-05 0.00027526 -0.0010159 2.6758e-05 -0.00011632 0.0014114 0.0017509
-0.011742 0.0024783 0.19376 0.25984
1580000000 0.29628 0.06116 -0.0071032 0.013748 -0.0010001 -0.0050048 0.0015464 0.0017857
-0.00063153 -0.0022018 -0.00028571 0.0004114
-0.0071121 0.013734 0.17571 0.29621 0.0055666 0.0079773 0.00037312 -0.0015273
-0.0004082 -0.00079502 -0.00030243 -0.00083539
-0.0010175 -0.0049936 0.0056194 0.0079593 0.33154 -0.10727 -0.0013809 0.00052799
-0.00035491 -0.0012029 0.00020493 -0.00057152
0.0015541 0.0017822 0.00036541 -0.0015358 -0.0013787 0.00052166 0.23504 0.10151
-0.0083006 0.0078834 0.0021128 0.00043043
-0.00064301 -0.0022101 -0.00041069 -0.00079296 -0.00035784 -0.001199 -0.0082814 0.0079138
0.18097 0.16611 -0.008808 0.007899
-0.00028065 0.00041785 -0.00030652 -0.00083212 0.00020221 -0.00058103 0.0021228 0.00041634
-0.0088166 0.0078998 0.22467 0.23257
1640000000 0.29731 0.019793 -0.0004316 0.012065 -0.0029516 -0.0027583 0.0026256 0.00083788
-0.0010626 -0.0011074 -0.00025472 0.00058473
-0.00044673 0.01207 0.20441 0.27142 0.0059367 0.0031144 -0.00076008 -0.001599
-0.00074917 -0.00038221 -0.00054124 -0.00061445
-0.0029718 -0.002746 0.0059663 0.0030819 0.30347 -0.15608 -0.00073417 0.0012769
-0.0011058 -0.00082564 -0.00010377 -0.00037034
0.0026263 0.00083287 -0.00075931 -0.001593 -0.00074021 0.0012675 0.24734 0.052224
-0.0041061 0.0075473 0.0023199 -0.00093025
-0.0010775 -0.0011056 -0.0007485 -0.00038021 -0.0011072 -0.00082155 -0.0040822 0.0075689
0.20437 0.14017 -0.0038696 0.0098805
-0.00024858 0.00058578 -0.00054764 -0.00061449 -0.00010213 -0.00037037 0.002327 -0.00094468
-0.003875 0.0098857 0.24979 0.20089
1700000000 0.28922 -0.025273 0.0027865 0.0088407 -0.0036893 0.00013308 0.0028683 -0.0012743
-0.0019418 -0.00024944 0.00057512 0.0003709
0.0027702 0.0088354 0.22206 0.24032 0.0038497 0.00025602 -0.001362 -0.00051187
-0.00063709 -0.00013571 -0.00093286 -0.00039967
-0.0036809 0.00015963 0.0038502 0.00023726 0.2605 -0.1961 0.00033655 0.0014985
-0.0018182 -0.00016393 -0.00058836 -0.00099982
0.0028586 -0.0012892 -0.0013591 -0.00050522 0.00033893 0.0014895 0.24397 0.0019798
-0.0023381 0.0066952 0.0012856 -0.0022502
-0.0019436 -0.00023686 -0.00063829 -0.00012922 -0.0018265 -0.00015541 -0.0023189 0.0067107
0.22179 0.11806 0.00082437 0.0097447
0.00057986 0.00036198 -0.00093935 -0.0003969 -0.00059375 -0.00099702 0.0012888 -0.0022626
0.00083663 0.0097503 0.26546 0.16637
1760000000 0.27615 -0.073138 0.0045329 0.0053292 -0.0024544 0.00090024 0.0011777 -0.0033279
-0.0009881 0.00083369 0.00035767 -0.00049373
0.0045222 0.0053277 0.24771 0.20095 0.0014406 -0.0014931 -0.0010889 0.00022615
-0.0011228 0.00065197 -0.00059879 0.0005376
-0.0024429 0.00090962 0.0014288 -0.0014946 0.21197 -0.23009 0.00093254 0.0012271
-0.001015 0.0013336 -0.0014923 -0.00043501
0.0011527 -0.003333 -0.0010937 0.00023474 0.00093987 0.0012234 0.23438 -0.049725
-0.00070777 0.0053721 -0.00044087 -0.0024688
-0.00098242 0.00083577 -0.0011196 0.00065117 -0.0010245 0.0013343 -0.00069777 0.0053804
0.23615 0.081065 0.0048044 0.0067357
0.00035183 -0.00050403 -0.00060232 0.00053934 -0.0015015 -0.00042227 -0.00044679 -0.0024664
0.0048056 0.0067238 0.27745 0.12825
1820000000 0.25112 -0.10953 0.0042763 0.0019574 -0.00010195 0.0025761 -0.001067 -0.0030215
-0.00063882 0.00067575 -3.9627e-05 -9.6256e-05
0.0042655 0.0019577 0.25771 0.17143 -0.00051233 -3.2665e-05 -0.001304 0.00084168
-0.0003201 0.001246 -0.00052961 0.00056085
-8.9765e-05 0.0025794 -0.00050933 -3.534e-05 0.16174 -0.24538 0.0015076 0.00047012
-0.00035351 0.0022052 -0.0016092 0.00059798
-0.0010841 -0.0030101 -0.0012909 0.00084993 0.0015092 0.0004638 0.20392 -0.096878
-0.00065217 0.0039332 -0.0017321 -0.0015707
-0.0006327 0.00067485 -0.00031102 0.0012517 -0.00035067 0.002219 -0.00064065 0.0039417
0.25193 0.049617 0.0055327 0.0028808
-3.879e-05 -9.9167e-05 -0.00052306 0.00056545 -0.001604 0.00061179 -0.001742 -0.0015697
0.0055293 0.002871 0.279 0.091673
1880000000 0.21596 -0.14889 0.0018489 1.0229e-05 -0.0003454 0.0023465 -0.0028531 -0.0021072
-0.00010494 0.0012588 0.00040278 -0.00047151
0.0018481 1.5437e-05 0.26236 0.12524 -0.0024483 0.0016732 -0.00017259 0.0016299
0.0004503 0.0014338 0.00026699 0.0010468
-0.00033251 0.0023505 -0.0024375 0.0016948 0.10926 -0.25563 0.0020343 -0.0008959
0.0014395 0.0020077 -0.00084419 0.001641
-0.0028674 -0.0020959 -0.00015781 0.0016421 0.0020399 -0.00089573 0.16297 -0.1366
-0.0011445 0.003074 -0.0025944 0.00057142
-9.3613e-05 0.0012603 0.00046835 0.0014365 0.0014371 0.0020054 -0.0011461 0.0030763
0.25296 0.015179 0.0048929 0.00052263
0.00040241 -0.00048294 0.00027281 0.0010397 -0.0008402 0.0016391 -0.0025908 0.00058681
0.004888 0.00053168 0.27781 0.057286
1940000000 0.17693 -0.17418 -0.00035326 -0.0013969 0.001471 0.0019873 -0.0037074 0.00064096
0.0010147 0.00099231 -0.00052574 -0.00067007
-0.00035921 -0.0014047 0.26306 0.093592 -0.0013084 0.0039586 0.00093663 0.0013292
0.0019216 0.0008133 0.00096783 0.00032517
0.0014829 0.0019852 -0.0012839 0.0039683 0.063174 -0.24943 0.00051934 -0.0023882
0.0025514 0.00053587 0.00064744 0.0018167
-0.0037063 0.0006627 0.00094059 0.0013249 0.00053202 -0.0023979 0.11025 -0.16658
-0.0027454 0.0030023 -0.0016379 0.001785
0.0010186 0.00097792 0.0019334 0.00079359 0.0025609 0.00054258 -0.002738 0.0030181
0.25183 -0.025271 0.0033199 -0.0027851
-0.00053905 -0.00066862 0.00096079 0.00031319 0.00065161 0.0018045 -0.0016331 0.0017872
0.0033185 -0.0027866 0.26589 0.020999
2000000000 0.13093 -0.18833 -0.0040339 0.00075101 0.0026035 0.0014892 -0.0022012 0.0036075
0.00088479 0.00037338 -0.00070071 0.00036448
-0.0040387 0.00075299 0.24923 0.05809 -0.0009187 0.0057889 0.0016807 0.00041671
0.0016377 -0.0012015 0.00051734 -8.1245e-06
0.0026084 0.0014718 -0.00087375 0.0058013 0.019302 -0.23496 -0.0014536 -0.0015672
0.0020969 -0.0012 0.0017494 0.0012125
-0.0021875 0.0036252 0.0016816 0.0004049 -0.0014515 -0.0015595 0.057212 -0.17575
-0.0040605 0.0043567 -6.8323e-05 0.0024478
0.00088262 0.00037871 0.0016252 -0.0012137 0.0020903 -0.0012048 -0.0040419 0.0043621
