!Keysight Technologies,M9804A,MY58100912,A.14.10.03
!Date: Thursday, April 27, 2023 10:28:33
!Correction: S11(C  6-Port  ) 
!S12(C  6-Port  ) 
!S13(C  6-Port  ) 
!S14(C  6-Port  ) 
!S15(C  6-Port  ) 
!S16(C  6-Port  ) 
!S21(C  6-Port  ) 
!S22(C  6-Port  ) 
!S23(C  6-Port  ) 
!S24(C  6-Port  ) 
!S25(C  6-Port  ) 
!S26(C  6-Port  ) 
!S31(C  6-Port  ) 
!S32(C  6-Port  ) 
!S33(C  6-Port  ) 
!S34(C  6-Port  ) 
!S35(C  6-Port  ) 
!S36(C  6-Port  ) 
!S41(C  6-Port  ) 
!S42(C  6-Port  ) 
!S43(C  6-Port  ) 
!S44(C  6-Port  ) 
!S45(C  6-Port  ) 
!S46(C  6-Port  ) 
!S51(C  6-Port  ) 
!S52(C  6-Port  ) 
!S53(C  6-Port  ) 
!S54(C  6-Port  ) 
!S55(C  6-Port  ) 
!S56(C  6-Port  ) 
!S61(C  6-Port  ) 
!S62(C  6-Port  ) 
!S63(C  6-Port  ) 
!S64(C  6-Port  ) 
!S65(C  6-Port  ) 
!S66(C  6-Port  ) 
!S6P File: Measurement: :
# Hz S  RI   R 50
500000000 -0.33667 -0.035154 -0.0096215 -0.0037728 -0.007934 0.011641 -0.0034312 0.011515
0.012188 0.0046141 -0.0033191 0.0077987
-0.009603 -0.0038097 -0.41922 -0.049695 0.0074803 -0.011326 0.0018255 0.011763
0.0074771 0.0024736 0.0012752 0.013077
-0.0079575 0.011601 0.0074754 -0.011341 -0.26466 0.21102 0.0070065 0.0031525
-0.00013536 0.0084807 0.00065348 0.012066
-0.0034222 0.01152 0.0018309 0.011775 0.0069984 0.0031401 -0.32685 0.046931
-0.019817 -0.004338 0.017809 0.025297
0.012277 0.0045212 0.0075417 0.0024556 -0.00018357 0.0085071 -0.01977 -0.004295
-0.22587 -0.18565 -0.027301 0.0045494
-0.0034987 0.0079701 0.0014164 0.012844 0.00058017 0.01183 0.017869 0.025006
-0.027444 0.0047744 -0.27223 -0.11425
560000000 -0.31596 0.12418 -0.023913 -0.062692 0.00010394 0.011841 0.0064382 0.0099488
0.010446 0.0039695 0.0097292 0.0075902
-0.023845 -0.062649 -0.37582 0.10847 -0.042312 -0.036762 0.013656 0.0038998
-0.01386 -0.0043205 0.0045006 -0.0006265
0.00014622 0.011881 -0.042425 -0.036599 -0.1825 0.25838 -0.00078575 -0.004714
0.019681 0.0038767 0.0067805 -0.0059854
0.0064975 0.010001 0.013709 0.003958 -0.00077423 -0.0047067 -0.3019 0.13554
0.0039329 -0.024727 0.0044205 -0.019242
0.01039 0.0039223 -0.013825 -0.0042202 0.019622 0.0037815 0.0038905 -0.024833
-0.28498 -0.0097697 0.0072803 -0.050221
0.0098817 0.0075243 0.0043032 -0.00081503 0.006853 -0.0059374 0.0046154 -0.019338
0.0075383 -0.049986 -0.33067 0.031601
620000000 -0.27294 0.10943 -0.023246 0.0072423 0.0034156 0.0083432 0.0067681 -0.0058424
0.011338 -0.00031695 0.00013789 -0.0024992
-0.023238 0.0072432 -0.40249 0.062273 -0.018962 -0.00019456 -0.0012788 -0.0020732
0.01028 -0.0072955 0.0010481 -0.0026252
0.0034359 0.0083222 -0.01897 -0.00013253 -0.15273 0.26757 -0.0016519 -0.005213
-0.0039421 -0.0034166 0.0079996 -0.0034323
0.0067228 -0.0058226 -0.0012902 -0.0020561 -0.0016451 -0.0052066 -0.26151 0.14569
-0.038521 -0.018443 0.014131 0.02414
0.01153 -0.00041824 0.010294 -0.0074346 -0.0038931 -0.0034938 -0.038569 -0.01855
-0.20423 -0.050045 -0.040348 0.013838
0.00038054 -0.0021688 0.0011332 -0.0028891 0.007972 -0.0036908 0.014413 0.023993
-0.040732 0.014217 -0.24951 -0.0044022
680000000 -0.23313 0.19311 -0.027941 -0.013968 0.0048283 0.0050741 0.00105 -0.0076654
-0.0033066 -0.011012 0.0040147 -0.0064509
-0.027925 -0.013962 -0.38713 0.15901 -0.033047 -0.0013031 -0.0017982 -0.0002969
-0.0027673 -0.0088835 -0.0010707 -0.001943
0.0048334 0.0050492 -0.033085 -0.0012115 -0.1022 0.28716 -0.00080033 0.00013525
-0.0023744 0.00088045 -0.0028665 -0.0094097
0.0010439 -0.0076891 -0.0017963 -0.00027504 -0.00079918 0.00014163 -0.21903 0.1949
-0.02362 -0.0084256 -0.0086068 -0.010431
-0.0033929 -0.011002 -0.0027471 -0.0088691 -0.0023514 0.00087844 -0.023659 -0.0083692
-0.25183 0.047662 -0.0057407 -0.009312
0.0041472 -0.0064665 -0.0011179 -0.0019207 -0.0029271 -0.0093499 -0.008618 -0.010448
-0.0057771 -0.0092658 -0.2589 0.098429
740000000 -0.18965 0.18817 -0.038801 0.026456 0.012716 -0.0052475 -0.00083133 -0.0040851
-0.0048545 -0.0024659 -0.0062006 0.003109
-0.038759 0.026479 -0.33492 0.17756 -0.035003 0.035393 -0.00071341 -0.006234
-0.011841 0.0076679 -0.0025072 -0.005745
0.012709 -0.0052634 -0.03492 0.035551 -0.068904 0.28599 -0.001493 0.0034087
-0.0026125 -0.0042093 -0.0015138 0.0003527
-0.00088105 -0.0040987 -0.00072331 -0.006244 -0.0014922 0.0034176 -0.20236 0.20249
-0.043001 -0.0084752 0.021975 0.013394
-0.0048429 -0.0025119 -0.011896 0.007777 -0.0026654 -0.0042167 -0.043027 -0.008397
-0.15657 0.072251 -0.041655 -1.9271e-05
-0.0062062 0.0032232 -0.0026951 -0.0058163 -0.0015725 0.00029794 0.022028 0.013284
-0.041805 -0.00025156 -0.2468 0.10377
800000000 -0.1574 0.22817 -0.02249 0.017313 0.005306 -0.010505 -0.0048286 -0.0019662
-0.0040939 0.0026161 0.0044227 0.00098575
-0.022487 0.01729 -0.33768 0.24822 -0.0078042 0.034375 -0.0021026 0.0022507
-0.00057987 0.0034079 0.0012132 0.0054113
0.0052794 -0.010519 -0.0077006 0.034424 -0.027587 0.30931 0.0011612 0.0015129
0.00065974 0.0035116 -0.001805 0.0010782
-0.0048377 -0.0019615 -0.0020944 0.0022609 0.0011608 0.0015175 -0.17483 0.22999
-0.028571 0.012431 0.012904 -0.0098638
-0.0041715 0.0026648 -0.00061807 0.0034186 0.00066168 0.0034948 -0.028595 0.012512
-0.20083 0.095065 -0.017503 0.017148
0.0043719 0.00098216 0.0012067 0.0054486 -0.0017876 0.0010864 0.012849 -0.0099004
-0.017502 0.017127 -0.23816 0.15509
860000000 -0.12283 0.24918 -0.017175 0.031181 -0.0033454 -0.0099679 -0.0024154 0.001401
0.0042318 0.0051824 -0.0028252 -0.0028851
-0.017182 0.031162 -0.28971 0.29039 0.0084249 0.034458 0.00026014 0.0021585
0.0045235 0.00025021 0.0035021 0.00030184
-0.0033547 -0.0099494 0.0085323 0.034469 0.020836 0.31736 -0.00039333 -0.00028365
0.0028919 -0.0015312 0.0017639 0.004284
-0.0024104 0.0014043 0.00023766 0.0021771 -0.00038779 -0.00028613 -0.13947 0.24217
-0.018468 0.019006 -0.005886 -0.0089573
0.0042484 0.0051396 0.0044747 0.00021512 0.0028769 -0.0015641 -0.018464 0.019093
-0.15206 0.14398 -0.024257 0.01509
-0.0030276 -0.0029313 0.0034643 0.00014209 0.0017802 0.0043355 -0.0059412 -0.0090154
-0.024199 0.015077 -0.18873 0.19717
920000000 -0.097486 0.27249 0.0053001 0.037914 -0.0095127 -0.0043338 -0.0018277 0.0023075
0.001528 0.0015672 0.0024801 -0.0016354
0.0052733 0.037872 -0.26059 0.31129 0.028351 0.021835 0.0017154 0.001069
0.006847 -0.00081611 0.0038734 -0.0029532
-0.0095204 -0.0043203 0.028438 0.021757 0.06737 0.31781 0.0017323 -9.9882e-05
0.0012508 -0.0005285 0.00079202 -0.001069
-0.0018119 0.0023068 0.0017105 0.0010685 0.0017352 -0.00010583 -0.11503 0.25894
-0.010532 0.030413 0.0025638 -0.0066284
0.0015168 0.0015999 0.0068231 -0.00082734 0.0012408 -0.00055144 -0.010495 0.030449
-0.14191 0.14972 -0.002537 0.027393
0.0024981 -0.0015296 0.0040426 -0.0030516 0.00088943 -0.0011099 0.002631 -0.0066091
-0.0025044 0.027386 -0.19353 0.2113
980000000 -0.049844 0.29209 0.018082 0.030034 -0.0089051 0.0047061 0.002501 0.0037217
0.0039749 -0.0018486 -0.0029522 -0.0020383
0.01805 0.030035 -0.20778 0.34497 0.033199 0.0044749 0.0020495 -9.4105e-05
0.0010803 -0.0063314 -0.00062425 -0.0021777
-0.0088983 0.0047438 0.03326 0.0043505 0.1139 0.31094 0.00044204 -0.0011717
4.4178e-05 -0.0021897 0.0014835 -0.00011874
0.0025239 0.0037098 0.0020348 -9.4248e-05 0.00044361 -0.0011737 -0.076586 0.27074
0.0077027 0.029096 -0.0092061 -0.0067508
0.0040019 -0.00187 0.0010489 -0.0063263 4.3109e-05 -0.0021874 0.0077543 0.029101
-0.11031 0.17777 0.0046342 0.018854
-0.002997 -0.0020017 -0.00064315 -0.0021638 0.0015007 -0.00011639 -0.009222 -0.0066807
0.0046563 0.018893 -0.15088 0.25618
1040000000 -0.0069996 0.30028 0.033544 0.017759 -0.0010861 0.006987 0.0028319 0.0005975
-9.905e-05 -0.0038081 -0.00063732 -0.0015802
0.0335 0.017754 -0.1722 0.35804 0.029266 -0.015194 0.0014906 -0.0017896
-0.0026623 -0.0024428 -0.0015489 -0.0027491
-0.001059 0.0070082 0.029229 -0.015326 0.16027 0.29695 -0.00055376 -0.0014445
-0.0016201 -0.00086471 -0.00039758 -0.0011795
0.0028351 0.00058132 0.0014672 -0.0017958 -0.00054357 -0.0014555 -0.048737 0.28094
0.018756 0.017466 -0.0031211 0.0021129
-7.6638e-05 -0.0038114 -0.0026662 -0.0024181 -0.0016554 -0.00084711 0.018798 0.017448
-0.079966 0.18653 0.01347 0.018159
-0.00068926 -0.0015562 -0.0015566 -0.0027096 -0.00039759 -0.0011836 -0.0031173 0.0021113
0.013491 0.018167 -0.12906 0.27536
1100000000 0.038744 0.30733 0.035974 -0.0047577 0.0030294 0.0037951 0.002542 -0.001477
-0.0021794 -0.002927 -0.0038972 0.00017906
0.035945 -0.0047351 -0.12842 0.37508 0.014802 -0.028018 -2.5878e-05 -0.0017851
-0.0031904 -0.00031772 -0.00339 -0.00048019
0.0030541 0.0037839 0.014714 -0.028115 0.20678 0.2762 -0.0018047 0.00029461
-0.0017347 0.00071061 -0.00094309 -0.0004377
0.0025456 -0.0014949 -4.1198e-05 -0.001796 -0.0018031 0.00030366 -0.0077703 0.28602
0.023249 0.0048349 -0.0023404 0.0010669
-0.0021705 -0.0029379 -0.0032125 -0.00029392 -0.0017373 0.00069247 0.023265 0.0048
-0.061501 0.20002 0.018794 0.0086752
-0.0038924 0.00018602 -0.0033763 -0.00047294 -0.00093111 -0.00040237 -0.0023062 0.0010828
0.018761 0.0086396 -0.08225 0.303
1160000000 0.090318 0.30203 0.023775 -0.021183 0.0027336 -0.00052736 -0.00025334 -0.0025622
-0.004061 -0.00041765 -0.00093101 0.0038472
0.023775 -0.021159 -0.084449 0.3792 -0.004176 -0.029043 -0.0017318 -0.0016184
-0.0023366 0.0027028 -0.0012559 0.0016611
0.0027496 -0.00054343 -0.0043144 -0.029062 0.24987 0.24477 -0.00056481 0.0017508
-0.00033968 0.0018703 -0.0010828 5.8862e-05
-0.00024867 -0.0025593 -0.0017576 -0.0016069 -0.00057274 0.0017477 0.032089 0.28283
0.019576 -0.010168 -0.002587 0.0055978
-0.0040438 -0.00038133 -0.0023244 0.0027374 -0.00033304 0.0018655 0.019581 -0.010171
-0.028489 0.20989 0.017479 0.00052984
-0.0008674 0.0037946 -0.0012059 0.0016348 -0.001081 5.1568e-05 -0.0025942 0.0056177
0.017487 0.00052142 -0.035002 0.30566
1220000000 0.13493 0.29018 0.010006 -0.030276 -0.0015372 -0.00090331 -0.00019467 -0.0010879
-0.0025531 0.0026289 0.0013495 0.001887
0.010017 -0.030241 -0.039851 0.39069 -0.017161 -0.020863 -0.0024792 0.00052625
0.00031887 0.0028437 -0.00069761 0.0017894
-0.0015433 -0.00089948 -0.017273 -0.020822 0.2887 0.20521 0.00090093 0.0015472
0.00056088 0.0011206 0.00020466 0.00071051
-0.0001913 -0.0010875 -0.0024861 0.00053169 0.0008998 0.0015534 0.072016 0.27396
0.0092899 -0.015984 0.0027854 0.0016943
-0.002542 0.0026506 0.00033385 0.0028727 0.00055433 0.0011241 0.0092509 -0.015998
-0.0047738 0.21987 0.013606 -0.012305
0.0013708 0.0018543 -0.00065266 0.0018125 0.00021166 0.0007481 0.0028003 0.0017059
0.013552 -0.01227 -0.0030885 0.32107
1280000000 0.18447 0.26746 -0.0083121 -0.02846 -0.0018407 0.0024892 -0.0010948 -0.0019001
-0.00054899 0.0030876 0.0024921 0.00093489
-0.0082771 -0.028439 0.0062685 0.38123 -0.023739 -0.0081143 -0.00094973 0.0015206
0.0016346 0.0015279 0.00059204 0.0019592
-0.0018219 0.0024809 -0.023804 -0.0080116 0.31877 0.16106 0.0014205 -0.00024118
0.0010071 6.2439e-05 0.0002504 0.00041335
-0.0011095 -0.0018946 -0.00092068 0.0015209 0.0014168 -0.00023172 0.10852 0.2573
0.00020167 -0.01753 0.00052996 2.3254e-05
-0.00054834 0.0030799 0.0016516 0.0015187 0.0010095 4.3699e-05 0.00017117 -0.017541
0.032678 0.22407 0.0028235 -0.014348
0.0025001 0.00092901 0.00058867 0.0019143 0.00027336 0.00044754 0.00054693 5.6447e-05
0.0028249 -0.014347 0.044444 0.32151
1340000000 0.22139 0.23301 -0.018005 -0.018769 0.00081952 0.0043339 -0.0018792 -0.00071367
0.0015277 0.0026235 0.001665 -0.0015176
-0.017973 -0.018757 0.045737 0.37226 -0.021366 0.0044817 1.1866e-05 0.0019202
0.0016733 0.00055483 0.0013379 0.00087481
0.0008474 0.0043326 -0.02138 0.0045847 0.34043 0.11293 0.00091945 -0.0009028
0.0006473 -0.000358 0.00017736 0.00026836
-0.0018773 -0.00069867 1.7941e-05 0.0019273 0.00091828 -0.00091609 0.14105 0.23683
-0.0081714 -0.014405 0.0012959 1.289e-05
0.0015501 0.0026186 0.0016816 0.00053924 0.00066696 -0.00037086 -0.008208 -0.014387
0.063899 0.21955 -0.0034329 -0.01305
0.0016494 -0.0015336 0.0013472 0.00087848 0.0001628 0.00029514 0.0012838 -8.5664e-07
-0.0034344 -0.013063 0.083049 0.31581
1400000000 0.2539 0.19407 -0.023585 -0.0072057 0.0050335 0.0030437 -0.0019498 0.00076196
0.002571 0.00068015 0.00010603 -0.0013788
-0.02356 -0.0072192 0.082558 0.35857 -0.014511 0.012443 0.0013623 0.0012137
0.00093367 -0.00081604 0.0011696 0.00019562
0.0050351 0.0030319 -0.014472 0.012525 0.3531 0.05947 5.6561e-05 -0.0013744
9.1944e-05 -0.00031872 0.00035596 0.00018328
-0.0019344 0.00076683 0.0013582 0.0012052 6.5843e-05 -0.0013754 0.17049 0.20826
-0.013118 -0.0079828 -0.00050388 -0.00078851
0.0025858 0.00066432 0.00094604 -0.00082385 9.0431e-05 -0.00033627 -0.013147 -0.0079511
0.097534 0.21457 -0.0097396 -0.008294
9.6644e-05 -0.0013825 0.0011703 0.00016822 0.00035749 0.00021215 -0.00050754 -0.00079405
-0.0096949 -0.0082768 0.12718 0.30398
1460000000 0.2761 0.14959 -0.020447 0.0050092 0.0054754 -0.0017309 -0.0014668 0.001756
0.0019933 -0.00079854 -0.00042295 -0.00081114
-0.020443 0.0049866 0.11627 0.33633 -0.0058907 0.015117 0.0016861 0.00014308
0.00081167 -0.001084 0.0011715 -0.00068155
0.0054798 -0.0017558 -0.0058194 0.015157 0.35896 0.0051428 -0.0010845 -0.0011691
0.00021756 -0.0001624 0.00076092 -0.00035965
-0.0014401 0.0017533 0.0016821 0.00012644 -0.0010831 -0.0011756 0.19704 0.17926
-0.013513 -0.0021075 -0.0010626 0.0014238
0.0019938 -0.0008205 0.00081703 -0.0010896 0.00023056 -0.00015232 -0.013513 -0.0020729
0.12786 0.19924 -0.011361 -0.0027484
-0.00042113 -0.00080959 0.0011575 -0.00070134 0.00075236 -0.00039363 -0.0010685 0.001422
-0.011365 -0.0027486 0.16046 0.28204
1520000000 0.28756 0.10761 -0.014646 0.01063 0.0031001 -0.004109 0.00015843 0.0025363
0.0016519 -0.0017488 -0.0011479 -4.9395e-05
-0.01465 0.010607 0.14927 0.3214 0.0015802 0.01288 0.0015759 -0.00079627
9.5437e-05 -0.00083264 0.00026951 -0.0010543
0.0030808 -0.0041215 0.0016468 0.012893 0.35192 -0.050972 -0.0009301 -0.00034857
0.00052601 -0.00083975 -3.5015e-05 -0.00010096
0.00017118 0.0025345 0.0015724 -0.00080658 -0.00093031 -0.00034999 0.22061 0.14128
-0.012517 0.0026308 0.0010158 0.0016681
0.0016447 -0.0017636 9.1199e-05 -0.00084145 0.00052596 -0.00084878 -0.012518 0.0026506
0.15614 0.18398 -0.011245 0.0015927
-0.0011241 -3.3545e-05 0.00027065 -0.0010516 -3.4381e-05 -0.00010017 0.0010194 0.0016451
-0.011256 0.0015791 0.1928 0.26069
1580000000 0.29615 0.061236 -0.0078761 0.013621 -0.00095959 -0.0047232 0.0013854 0.0017669
-0.00059194 -0.0020882 -0.00030852 0.00041217
-0.0078746 0.013601 0.17598 0.2966 0.0051075 0.0081121 0.00043352 -0.0015552
-0.00036851 -0.00099998 -0.00031368 -0.00085007
-0.00097708 -0.0047207 0.0051489 0.0080903 0.33148 -0.10823 -0.0014565 0.00043268
-0.00029304 -0.0010939 0.00015942 -0.00054372
0.0013834 0.0017576 0.00042505 -0.0015622 -0.0014538 0.0004312 0.23505 0.10168
-0.0093835 0.0064341 0.001737 0.00057138
-0.00060998 -0.0020826 -0.00038303 -0.0010029 -0.00029553 -0.0011084 -0.0093641 0.0064538
0.18058 0.16497 -0.0088168 0.0070008
-0.00029574 0.00040864 -0.00032365 -0.00084135 0.00015496 -0.00055326 0.0017396 0.00057692
-0.008829 0.0070057 0.22405 0.23325
1640000000 0.29746 0.019909 -0.0011324 0.012377 -0.0027399 -0.0025045 0.0025257 0.00095673
-0.00088921 -0.001086 -0.00024521 0.000635
-0.0011496 0.012365 0.20503 0.27168 0.0057046 0.0033915 -0.00074023 -0.001634
-0.00092378 -0.00048421 -0.0005786 -0.00058747
-0.0027543 -0.0025009 0.0057238 0.0033592 0.30337 -0.15723 -0.00082657 0.0012741
-0.0010789 -0.00086813 -0.00011678 -0.00034031
0.0025357 0.00094689 -0.00075324 -0.0016321 -0.00082136 0.0012665 0.24762 0.052295
-0.0057756 0.0069362 0.0020898 -0.00063728
-0.00090101 -0.00108 -0.00093402 -0.00047542 -0.0010627 -0.0008668 -0.0057542 0.0069653
0.20332 0.13919 -0.0043656 0.0091001
-0.00023348 0.00064354 -0.00058232 -0.00057761 -0.00013141 -0.00035117 0.0020919 -0.00066051
-0.0043596 0.0090923 0.24914 0.2015
1700000000 0.28952 -0.025166 0.0022941 0.00945 -0.0034042 0.00013593 0.0028689 -0.0011305
-0.0018871 -0.00036989 0.00064101 0.00039587
0.0022872 0.009444 0.22286 0.24037 0.0037564 0.00064864 -0.0013879 -0.00052564
-0.00080554 -7.226e-05 -0.00092237 -0.00032063
-0.0034139 0.00016376 0.0037591 0.00062192 0.25978 -0.19724 0.00032167 0.0015846
-0.0017189 -0.00020429 -0.00060332 -0.00093228
0.002858 -0.0011374 -0.0013959 -0.00052362 0.00032453 0.0015826 0.24439 0.0018135
-0.0039324 0.007119 0.0011911 -0.0019967
-0.0018892 -0.00035882 -0.0007997 -6.9121e-05 -0.0017203 -0.00021376 -0.0039135 0.0071181
0.2204 0.11763 0.00014676 0.0092096
0.00063971 0.0003867 -0.00092331 -0.00031077 -0.0006108 -0.00094175 0.0011967 -0.0019942
0.00014283 0.0092238 0.2648 0.16692
1760000000 0.27664 -0.073334 0.0044691 0.0060962 -0.0021912 0.00085233 0.0012984 -0.003243
-0.00098399 0.00073144 0.00039144 -0.0004967
0.0044685 0.0061006 0.24855 0.20072 0.0016035 -0.0009827 -0.0011156 0.00022435
-0.0011725 0.00084962 -0.00052076 0.00059166
-0.0021857 0.00085602 0.0015987 -0.0010054 0.21077 -0.23012 0.0010881 0.0012787
-0.0010974 0.0013416 -0.0013119 -0.00034066
0.0012824 -0.003245 -0.0011016 0.00024561 0.0010951 0.0012737 0.23465 -0.050197
-0.0017144 0.0064367 -0.0003659 -0.002116
-0.00099429 0.0007415 -0.001171 0.00086453 -0.0011099 0.0013541 -0.0016844 0.0064455
0.23463 0.081087 0.0039894 0.0066544
0.00038596 -0.0005029 -0.00051582 0.00059213 -0.0013118 -0.00039251 -0.00036834 -0.0021085
0.0039856 0.0066392 0.27664 0.12877
1820000000 0.25153 -0.11018 0.0046053 0.0025602 -4.8035e-05 0.0023886 -0.00088526 -0.0030501
-0.00069874 0.00064631 4.9311e-06 -0.00015528
0.0045954 0.0025533 0.25837 0.17088 -0.00030007 9.4154e-05 -0.001273 0.00086352
-0.0001567 0.0013754 -0.00039888 0.0005111
-2.0999e-05 0.0023859 -0.00029296 0.00010115 0.16055 -0.24577 0.0015986 0.00041947
-0.00036773 0.0020954 -0.0013772 0.00049359
-0.00089429 -0.003054 -0.0012679 0.0008717 0.0015927 0.00041901 0.20384 -0.097549
-0.00097437 0.0051273 -0.0015545 -0.0013428
-0.00070822 0.000658 -0.00015184 0.0013753 -0.00037078 0.0021096 -0.00095443 0.005141
0.25069 0.050158 0.0047906 0.0031504
1.5003e-05 -0.00016919 -0.00039367 0.00051614 -0.0014076 0.00050147 -0.0015519 -0.0013256
0.0047988 0.0031458 0.27811 0.092421
1880000000 0.21615 -0.14973 0.0024303 0.00037248 -0.00031488 0.0021273 -0.0027676 -0.0022416
-0.00013413 0.001355 0.00033212 -0.00053326
0.0024365 0.0003742 0.26283 0.12461 -0.0021118 0.001746 -0.00012474 0.0016591
0.00064884 0.0014022 0.00026855 0.00087331
-0.00030083 0.0021094 -0.0021119 0.0017712 0.10876 -0.25534 0.0020278 -0.0010246
0.0014831 0.0020063 -0.0008463 0.0014181
-0.0027734 -0.0022243 -0.00010946 0.0016672 0.0020227 -0.0010078 0.16249 -0.13718
-0.00092728 0.0041103 -0.0023385 0.00064666
-0.00013362 0.0013646 0.00066644 0.0014119 0.0014904 0.0020154 -0.0009337 0.0041257
0.25198 0.016076 0.0043993 0.00096069
0.00033571 -0.0005189 0.00027412 0.00088296 -0.00085088 0.0013982 -0.0023385 0.00063679
0.0044381 0.00094991 0.27698 0.058168
1940000000 0.17659 -0.17504 0.00021921 -0.0014003 0.0013511 0.0018399 -0.0037017 0.00044126
0.0011011 0.00095289 -0.00064475 -0.00064721
0.00021751 -0.0014066 0.26339 0.092885 -0.00101 0.0038566 0.00097163 0.0013128
0.0020279 0.00061616 0.00082536 0.00017509
0.0013779 0.0018335 -0.00098557 0.003861 0.062537 -0.24901 0.00037259 -0.0023361
0.0024288 0.00054265 0.00037864 0.0016841
-0.0037098 0.00045417 0.00098465 0.0013077 0.00038124 -0.0023538 0.1095 -0.16681
-0.002101 0.0037183 -0.0012717 0.0017921
0.0011082 0.00093956 0.0020369 0.00058879 0.0024611 0.00053143 -0.0021067 0.0037269
0.2513 -0.024206 0.0030796 -0.0021148
-0.00066022 -0.00064193 0.00083674 0.00015749 0.00042304 0.0016796 -0.0012455 0.0017882
0.0030772 -0.0021038 0.26518 0.021988
2000000000 0.13039 -0.18891 -0.0036257 0.00052741 0.0023658 0.0015123 -0.0023033 0.0035691
0.00098955 0.00027644 -0.0006424 0.00032936
-0.0036102 0.00052145 0.2493 0.057375 -0.00081017 0.0055538 0.0016719 0.00031336
0.0015743 -0.0014304 0.00041783 9.869e-05
0.0023741 0.0014817 -0.00078281 0.0055584 0.018891 -0.23461 -0.0015011 -0.0015003
0.0020326 -0.0012517 0.001629 0.0013261
-0.0022989 0.0035796 0.0016761 0.00030363 -0.0014997 -0.0014972 0.056438 -0.17562
-0.0033704 0.0047457 0.00023972 0.0023255
0.00099762 0.00027144 0.0015593 -0.0014581 0.0020365 -0.0012675 -0.003328 0.004748
