!Keysight Technologies,M9804A,MY58100912,A.14.10.03
!Date: Thursday, April 27, 2023 10:28:33
!Correction: S11(C  6-Port  ) 
!S12(C  6-Port  ) 
!S13(C  6-Port  ) 
!S14(C  6-Port  ) 
!S15(C  6-Port  ) 
!S16(C  6-Port  ) 
!S21(C  6-Port  ) 
!S22(C  6-Port  ) 
!S23(C  6-Port  ) 
!S24(C  6-Port  ) 
!S25(C  6-Port  ) 
!S26(C  6-Port  ) 
!S31(C  6-Port  ) 
!S32(C  6-Port  ) 
!S33(C  6-Port  ) 
!S34(C  6-Port  ) 
!S35(C  6-Port  ) 
!S36(C  6-Port  ) 
!S41(C  6-Port  ) 
!S42(C  6-Port  ) 
!S43(C  6-Port  ) 
!S44(C  6-Port  ) 
!S45(C  6-Port  ) 
!S46(C  6-Port  ) 
!S51(C  6-Port  ) 
!S52(C  6-Port  ) 
!S53(C  6-Port  ) 
!S54(C  6-Port  ) 
!S55(C  6-Port  ) 
!S56(C  6-Port  ) 
!S61(C  6-Port  ) 
!S62(C  6-Port  ) 
!S63(C  6-Port  ) 
!S64(C  6-Port  ) 
!S65(C  6-Port  ) 
!S66(C  6-Port  ) 
!S6P File: Measurement: :
# Hz S  RI   R 50
500000000 -0.33696 -0.034743 -0.0097696 -0.0035536 -0.0078399 0.011858 -0.003487 0.011746
0.012461 0.0047308 -0.0034997 0.0082422
-0.0097612 -0.003552 -0.41943 -0.049322 0.0073829 -0.011398 0.0015346 0.011749
0.0072897 0.0026308 0.0012766 0.012646
-0.0078129 0.011856 0.0073584 -0.011422 -0.26493 0.21143 0.0068871 0.0029561
-0.00031739 0.0087514 0.00091795 0.011507
-0.0034859 0.011752 0.0015667 0.01176 0.0068865 0.0029556 -0.32711 0.047455
-0.019773 -0.0041424 0.01776 0.025095
0.012489 0.0046239 0.0072562 0.0024359 -0.00029641 0.0087456 -0.019787 -0.0041479
-0.22696 -0.18414 -0.0276 0.005182
-0.0035088 0.0083405 0.0011838 0.012829 0.0009083 0.011586 0.017786 0.02511
-0.027503 0.0053497 -0.27261 -0.11188
560000000 -0.31562 0.12495 -0.023854 -0.063058 0.00019882 0.012234 0.0061645 0.0096161
0.010489 0.0037497 0.0098104 0.007208
-0.023803 -0.062985 -0.37712 0.10968 -0.041959 -0.037062 0.013618 0.0039493
-0.013396 -0.0047849 0.004037 -0.00077286
0.00023499 0.012229 -0.042095 -0.037012 -0.18261 0.25956 -0.00072906 -0.0050218
0.019088 0.0043802 0.0072218 -0.0057393
0.0061757 0.0096149 0.013651 0.0039072 -0.00073068 -0.005012 -0.3024 0.13603
0.0037815 -0.02458 0.0047607 -0.019489
0.010452 0.0039386 -0.013174 -0.0048032 0.018992 0.0045225 0.0036853 -0.024606
-0.28581 -0.009417 0.00775 -0.049428
0.0096864 0.0071489 0.0041168 -0.00066817 0.0071377 -0.0058512 0.0047346 -0.01952
0.0077794 -0.049485 -0.33052 0.033903
620000000 -0.27298 0.11023 -0.023114 0.0073804 0.0036611 0.0084544 0.0067133 -0.0057555
0.011551 -0.00087298 0.00066847 -0.00198
-0.023094 0.0073801 -0.40245 0.062704 -0.018863 -0.00019265 -0.0012448 -0.0019141
0.010307 -0.007226 0.0010542 -0.0028665
0.0036918 0.0084403 -0.018884 -0.00014159 -0.1527 0.268 -0.0013119 -0.0050552
-0.0038684 -0.0033413 0.0079383 -0.0037999
0.0067106 -0.0057766 -0.0012493 -0.0019165 -0.0013065 -0.0050598 -0.26163 0.14619
-0.038242 -0.018413 0.014725 0.023658
0.011684 -0.00077703 0.01028 -0.0072045 -0.0040042 -0.0032616 -0.038453 -0.018646
-0.20535 -0.049512 -0.040259 0.01457
0.00052672 -0.0022813 0.0010725 -0.0027933 0.0079281 -0.0036023 0.014456 0.023653
-0.040143 0.014527 -0.24966 -0.0015764
680000000 -0.23274 0.19374 -0.027984 -0.013728 0.0047238 0.0049787 0.0011208 -0.0074775
-0.0031831 -0.010955 0.0043183 -0.0068288
-0.02796 -0.013728 -0.38715 0.15974 -0.032738 -0.0012933 -0.0017162 -0.00021439
-0.00256 -0.0089592 -0.0010558 -0.0019589
0.0047296 0.0049669 -0.032776 -0.0012009 -0.10174 0.28763 -0.00083819 0.00016192
-0.0021285 0.00061277 -0.0029044 -0.0093252
0.0011209 -0.0074743 -0.0017167 -0.00021316 -0.00082525 0.00016396 -0.21926 0.19566
-0.023508 -0.0080782 -0.0087044 -0.010577
-0.003193 -0.011053 -0.0025906 -0.0089802 -0.0021134 0.00056766 -0.023501 -0.0080444
-0.25239 0.048728 -0.0059759 -0.0091639
0.004385 -0.0067305 -0.0011252 -0.0019922 -0.0029475 -0.0093526 -0.0087352 -0.010504
-0.0059591 -0.0092126 -0.25887 0.10024
740000000 -0.1892 0.18832 -0.03837 0.026657 0.01241 -0.0053079 -0.00054176 -0.0038631
-0.0042089 -0.003129 -0.0064755 0.0037022
-0.038352 0.026636 -0.33473 0.17837 -0.034854 0.035037 -0.0008721 -0.0062856
-0.01171 0.0083532 -0.002844 -0.0061305
0.012396 -0.0053297 -0.034765 0.035177 -0.067937 0.28636 -0.0016193 0.0032828
-0.0029485 -0.004006 -0.0012325 0.00017688
-0.00054356 -0.003873 -0.00087305 -0.0062925 -0.0016254 0.0032788 -0.20197 0.20312
-0.04251 -0.0078191 0.021728 0.013073
-0.0043086 -0.0031646 -0.011587 0.0084788 -0.0028813 -0.0040031 -0.042576 -0.0077172
-0.15681 0.073175 -0.041932 0.00017164
-0.0064584 0.0038359 -0.0027701 -0.0063457 -0.0012162 0.00021822 0.0217 0.013061
-0.041943 0.0002498 -0.24607 0.10568
800000000 -0.15705 0.22882 -0.022419 0.017296 0.0051444 -0.010506 -0.0047532 -0.0020081
-0.0039215 0.002537 0.0042264 0.00098199
-0.022419 0.017271 -0.33729 0.24851 -0.007678 0.033945 -0.0021336 0.0022883
-0.00058879 0.0033683 0.0011346 0.0052467
0.0051151 -0.010523 -0.0075937 0.034001 -0.026874 0.30926 0.0011441 0.0015473
0.000689 0.0035286 -0.0017685 0.0010952
-0.0047623 -0.002011 -0.0021231 0.0022976 0.001146 0.0015446 -0.17404 0.23072
-0.028265 0.012549 0.012965 -0.0097631
-0.0039038 0.0025766 -0.00060182 0.0034217 0.00070452 0.003561 -0.028239 0.012695
-0.20065 0.0971 -0.017437 0.017048
0.0043051 0.00094535 0.0011522 0.005263 -0.0017333 0.0010864 0.012937 -0.0097927
-0.017433 0.01705 -0.23755 0.15739
860000000 -0.12228 0.24958 -0.016981 0.031086 -0.0034302 -0.0097601 -0.0025363 0.0012155
0.0041954 0.0049615 -0.003009 -0.0025881
-0.016992 0.03105 -0.2893 0.29055 0.0082157 0.033961 0.00011869 0.0020976
0.0044965 0.00023716 0.003384 0.00055218
-0.0034472 -0.009758 0.008324 0.033975 0.021575 0.31689 -0.00038723 -0.0002322
0.0029165 -0.0015194 0.0015232 0.0043653
-0.0025365 0.0012309 0.00013078 0.0020982 -0.00039285 -0.00023302 -0.13831 0.24241
-0.017779 0.018666 -0.0060595 -0.0087683
0.00423 0.0050161 0.0044955 0.00025832 0.0029116 -0.0015233 -0.017785 0.018793
-0.15086 0.14552 -0.024278 0.01488
-0.0029681 -0.0025821 0.0033378 0.00057927 0.0015505 0.0043633 -0.0059869 -0.0087055
-0.024218 0.014865 -0.18739 0.19924
920000000 -0.096886 0.2727 0.0054013 0.037725 -0.0093048 -0.0041862 -0.0018289 0.0023313
0.0012174 0.0015004 0.002607 -0.0016164
0.0053727 0.037695 -0.26032 0.31127 0.027972 0.021492 0.0015442 0.0010786
0.0067755 -0.00073729 0.0038558 -0.0030439
-0.0093216 -0.0041686 0.02806 0.02143 0.067811 0.31713 0.0017504 -0.00014742
0.0011933 -0.00054 0.00080122 -0.0010664
-0.0018309 0.0023362 0.0015581 0.001079 0.0017553 -0.00014761 -0.11404 0.25876
-0.010264 0.029876 0.002562 -0.0065067
0.0011927 0.0014771 0.0067952 -0.00074868 0.0011783 -0.00049872 -0.010233 0.029936
-0.14068 0.15102 -0.0022531 0.027112
0.002446 -0.0016286 0.0039091 -0.0030325 0.00081552 -0.0010872 0.002615 -0.0065606
-0.0022718 0.027081 -0.19226 0.21297
980000000 -0.049199 0.29205 0.018006 0.029662 -0.0087366 0.004631 0.0023981 0.0037829
0.0039647 -0.0017528 -0.0029938 -0.0020733
0.017969 0.029651 -0.2073 0.34491 0.03271 0.0044494 0.0019799 -3.7481e-05
0.0010918 -0.0061779 -0.00060716 -0.0021283
-0.0087188 0.0046519 0.032745 0.0043372 0.11399 0.31017 0.00043576 -0.0011964
4.2597e-05 -0.0021574 0.0014873 -3.8103e-05
0.0024098 0.0037743 0.0019815 -2.4537e-05 0.00043646 -0.0011968 -0.075924 0.27022
0.0074038 0.028408 -0.0091173 -0.0066609
0.0039303 -0.0017739 0.0010696 -0.0062081 5.3157e-05 -0.0021305 0.007452 0.028439
-0.10893 0.17847 0.0045991 0.018553
-0.0030015 -0.0020926 -0.00057842 -0.0021151 0.0014922 -3.3282e-05 -0.0091222 -0.0065952
0.0045887 0.018559 -0.14914 0.25726
1040000000 -0.0064647 0.29996 0.033304 0.017506 -0.0010931 0.0067535 0.0027998 0.00069153
-4.5034e-05 -0.0037713 -0.00055557 -0.0014568
0.033267 0.017514 -0.17162 0.35779 0.028873 -0.014917 0.0014648 -0.0016984
-0.0025418 -0.0023968 -0.0014204 -0.0025963
-0.0010562 0.006744 0.028824 -0.01502 0.16 0.29617 -0.00050377 -0.0013978
-0.0015994 -0.00076719 -0.000444 -0.0011254
0.0028005 0.00067384 0.0014817 -0.0016878 -0.00050943 -0.0013982 -0.048309 0.28023
0.018162 0.016989 -0.0030244 0.0020925
-7.6731e-05 -0.0037764 -0.0026655 -0.0024004 -0.0016093 -0.00076746 0.01822 0.01697
-0.078302 0.18705 0.013187 0.017587
-0.00054851 -0.0014955 -0.0014555 -0.0025924 -0.00045683 -0.0011402 -0.0030395 0.0020697
0.013173 0.017601 -0.12732 0.27612
1100000000 0.039065 0.30702 0.035477 -0.0048136 0.0028588 0.0036592 0.0026024 -0.0014152
-0.0021485 -0.003026 -0.0038992 0.0001654
0.035447 -0.0047821 -0.1281 0.37452 0.014711 -0.027524 2.2571e-05 -0.0017903
-0.0031562 -0.00043913 -0.0033291 -0.00049247
0.0028769 0.0036476 0.014612 -0.027611 0.20606 0.2756 -0.0017571 0.00024423
-0.0017007 0.00071125 -0.00090606 -0.00028737
0.0025932 -0.0014286 1.8487e-05 -0.0017931 -0.0017573 0.0002407 -0.0077703 0.28511
0.022542 0.0048721 -0.0023445 0.00093134
-0.002146 -0.0030112 -0.0031523 -0.00040714 -0.0017197 0.00071817 0.022557 0.0048567
-0.059907 0.20012 0.018341 0.0083604
-0.0038894 0.00015463 -0.0033079 -0.0004398 -0.00091622 -0.00029466 -0.0023665 0.0009483
0.01834 0.0083613 -0.080581 0.30367
1160000000 0.09058 0.30164 0.023444 -0.020872 0.0025729 -0.00050317 -0.00015784 -0.0025316
-0.003992 -0.00049918 -0.00092605 0.0037987
0.023448 -0.020838 -0.084294 0.37847 -0.0038889 -0.028637 -0.0017811 -0.0016505
-0.0023685 0.0026674 -0.0011641 0.0015777
0.0025892 -0.00050917 -0.0040265 -0.028638 0.24889 0.2447 -0.00062972 0.0017038
-0.00032529 0.0018429 -0.0008972 0.00010927
-0.00016336 -0.0025372 -0.0017708 -0.0016343 -0.00061773 0.0017045 0.031586 0.28214
0.019099 -0.0096423 -0.002606 0.0055683
-0.0040271 -0.00047397 -0.0024029 0.002676 -0.00034478 0.0018565 0.019087 -0.0096608
-0.026682 0.20942 0.016948 0.00070789
-0.00091804 0.0038261 -0.0011774 0.0015637 -0.00089303 9.5878e-05 -0.0025998 0.0055855
0.016945 0.00068565 -0.033399 0.30578
1220000000 0.13496 0.28982 0.0098382 -0.0298 -0.0015659 -0.00074954 -0.00010875 -0.0011639
-0.0024874 0.0025247 0.0013524 0.001847
0.0098512 -0.029756 -0.040097 0.38996 -0.016685 -0.020663 -0.0024785 0.00043136
0.00026825 0.0028776 -0.00067797 0.0017472
-0.0015608 -0.00073337 -0.016806 -0.02061 0.28786 0.20577 0.00087133 0.001548
0.00060341 0.0011218 0.00024362 0.00067206
-0.00011316 -0.0011683 -0.0024739 0.0004433 0.00086504 0.001553 0.071214 0.27371
0.0091346 -0.015262 0.0026958 0.0017038
-0.0024826 0.0025461 0.00026399 0.0028668 0.00057805 0.0011123 0.0091082 -0.015253
-0.0034971 0.21874 0.013267 -0.011889
0.0013672 0.001854 -0.00064211 0.0017534 0.00025008 0.00064781 0.0026951 0.0017256
0.013255 -0.011904 -0.0014275 0.32105
1280000000 0.18428 0.26714 -0.0081903 -0.027957 -0.0017514 0.0025832 -0.0011194 -0.0020054
-0.00060261 0.0029969 0.0024466 0.00095565
-0.008161 -0.027926 0.0055673 0.38065 -0.023273 -0.0082905 -0.00098964 0.0014744
0.0016343 0.0015813 0.00049072 0.0018809
-0.0017393 0.0025913 -0.023336 -0.0081876 0.31846 0.16193 0.0013726 -0.00016153
0.00097969 1.8835e-05 0.00027783 0.00028107
-0.0011278 -0.0020005 -0.00099467 0.0014772 0.0013635 -0.00015938 0.1077 0.25765
0.00051048 -0.016885 0.00052749 8.824e-05
-0.00058339 0.0029822 0.0016438 0.0015642 0.00097456 -1.5618e-06 0.00047815 -0.016878
0.033341 0.22257 0.0028921 -0.013873
0.0024691 0.00094771 0.00049604 0.0018733 0.00030578 0.00030012 0.00052828 9.2511e-05
0.0028879 -0.013873 0.045729 0.32093
1340000000 0.22106 0.23294 -0.017651 -0.018474 0.00094927 0.0043593 -0.0019175 -0.00076875
0.0014961 0.0025754 0.0016478 -0.0014671
-0.017613 -0.018469 0.044813 0.37217 -0.021213 0.0041177 -5.2064e-05 0.0019542
0.0017237 0.00061158 0.0012904 0.00088594
0.00096578 0.0043583 -0.02121 0.0042342 0.34076 0.1139 0.00095002 -0.00086152
0.00057047 -0.00038768 0.00012529 0.00024628
-0.0019207 -0.00075581 -5.1749e-05 0.0019585 0.00094719 -0.00086154 0.1407 0.2376
-0.0075537 -0.014036 0.001317 4.8613e-05
0.0015126 0.0025765 0.0017346 0.0006134 0.00057597 -0.00040537 -0.0075925 -0.01403
0.063732 0.21813 -0.0031226 -0.01257
0.001649 -0.0014548 0.0013129 0.000895 0.00014046 0.00023886 0.0013133 4.5134e-05
-0.0031233 -0.012562 0.084188 0.31533
1400000000 0.25351 0.19437 -0.023091 -0.0071354 0.0050487 0.0029711 -0.002002 0.0007519
0.0025103 0.00070524 0.00016643 -0.0013149
-0.023052 -0.007152 0.08167 0.35902 -0.014618 0.012086 0.0013463 0.0012794
0.00099677 -0.00079502 0.0011496 0.00024766
0.0050652 0.0029418 -0.014579 0.012183 0.35387 0.060096 7.5998e-05 -0.0014163
2.4938e-05 -0.00035429 0.00025993 0.00015889
-0.0019961 0.0007648 0.0013571 0.0012786 7.5615e-05 -0.0014123 0.17059 0.20913
-0.012399 -0.008099 -0.00053301 -0.0008637
0.0024962 0.00069177 0.00097674 -0.00081853 1.6377e-05 -0.00037734 -0.012416 -0.0080829
0.096757 0.21347 -0.0092259 -0.0081446
0.00015962 -0.00131 0.0011475 0.00024786 0.00025642 0.00015049 -0.0005226 -0.00087226
-0.0092295 -0.0081582 0.12803 0.30357
1460000000 0.2761 0.15015 -0.020041 0.0047643 0.0054246 -0.0017621 -0.0015109 0.0017815
0.0019047 -0.00072861 -0.00040082 -0.00085565
-0.020023 0.0047452 0.11573 0.33723 -0.0062092 0.014936 0.0016806 0.00016712
0.00080346 -0.0011058 0.0011774 -0.00059876
0.0054117 -0.0017993 -0.0061418 0.014977 0.35976 0.0051793 -0.0010657 -0.0011612
0.00025156 -4.7064e-05 0.0006321 -0.00042578
-0.0015136 0.0017892 0.0016845 0.00015788 -0.0010675 -0.0011646 0.19757 0.18006
-0.01297 -0.0026172 -0.0010486 0.0014336
0.0018993 -0.00074906 0.0007977 -0.0011223 0.00023664 -5.1955e-05 -0.012985 -0.0025865
0.12683 0.19888 -0.010861 -0.002843
-0.00038731 -0.00085791 0.0011727 -0.00059335 0.00066638 -0.00040849 -0.0010459 0.0014078
-0.010854 -0.0028498 0.16116 0.28166
1520000000 0.28795 0.10828 -0.01443 0.010224 0.0030561 -0.004096 0.00019572 0.0025718
0.0017371 -0.0016714 -0.0011256 -0.00013307
-0.014432 0.010196 0.14917 0.32245 0.0012735 0.012931 0.001599 -0.00080844
7.9866e-05 -0.00086455 0.00033108 -0.0010034
0.003038 -0.004115 0.0013396 0.012931 0.35258 -0.051172 -0.000922 -0.00038876
0.00055987 -0.00077119 -4.6276e-05 -5.239e-05
0.00020746 0.0025702 0.0015926 -0.00081504 -0.00092189 -0.00039242 0.22145 0.14176
-0.012435 0.0018883 0.00093688 0.0017058
0.0017197 -0.0016977 7.0653e-05 -0.00087142 0.00054896 -0.00079692 -0.012441 0.0019166
0.15512 0.18429 -0.010952 0.0011712
-0.0011478 -0.00011957 0.00032853 -0.0010069 -3.5168e-05 -5.5655e-05 0.00094974 0.0017069
-0.010958 0.0011568 0.19371 0.26023
1580000000 0.29687 0.061637 -0.0079353 0.013122 -0.00088957 -0.0047221 0.0013769 0.0018019
-0.00050271 -0.0020483 -0.00036155 0.00039014
-0.0079449 0.013107 0.17643 0.29762 0.004959 0.0082897 0.0004292 -0.0015502
-0.00039283 -0.00099061 -0.00023747 -0.00086499
-0.00091144 -0.0047158 0.0050085 0.0082684 0.33198 -0.10877 -0.0014992 0.00040694
-0.00022466 -0.0011258 0.00015544 -0.00052623
0.0013887 0.0018031 0.00041681 -0.0015583 -0.0014903 0.00041398 0.23616 0.10184
-0.0097678 0.005823 0.0017701 0.00063652
-0.00053723 -0.0020572 -0.00039413 -0.00099787 -0.00023787 -0.0011124 -0.0097656 0.0058606
0.17988 0.16589 -0.0087788 0.0064602
-0.00035537 0.00040248 -0.00025797 -0.00086348 0.00014097 -0.00054603 0.0017776 0.00063805
-0.008783 0.0064455 0.22485 0.23276
1640000000 0.29839 0.019863 -0.0014612 0.012066 -0.002722 -0.0025484 0.0025601 0.00097695
-0.00081067 -0.001102 -0.00031165 0.00065396
-0.0014655 0.012052 0.20585 0.27242 0.0056715 0.0036303 -0.0007135 -0.0016397
-0.00091813 -0.00048877 -0.000541 -0.0006528
-0.0027411 -0.0025314 0.0057066 0.0036053 0.30352 -0.15777 -0.00086281 0.0013035
-0.0010547 -0.00089527 -6.7025e-05 -0.0003093
0.0025667 0.0009556 -0.00072808 -0.0016365 -0.00086377 0.0013031 0.2488 0.051916
-0.0064539 0.0067312 0.0021424 -0.00062984
-0.00081768 -0.0011024 -0.00092418 -0.00048289 -0.0010656 -0.00089119 -0.006437 0.0067605
0.2032 0.14041 -0.0045858 0.0086223
-0.000309 0.00066091 -0.00055754 -0.00065772 -9.026e-05 -0.00030529 0.0021428 -0.00062824
-0.0045891 0.008627 0.25001 0.20077
1700000000 0.29037 -0.025703 0.0019038 0.0094053 -0.0034251 0.00011974 0.002912 -0.0011098
-0.0018198 -0.00041131 0.00063098 0.00041596
0.0019028 0.0093942 0.22393 0.24071 0.003842 0.00079914 -0.0013728 -0.00055606
-0.00080131 -5.3558e-05 -0.00092446 -0.00042289
-0.0034253 0.00014096 0.003847 0.00077828 0.25946 -0.19776 0.00032618 0.0016041
-0.0017619 -0.00027141 -0.00054054 -0.00093659
0.0029138 -0.0011278 -0.0013813 -0.00054326 0.00032624 0.0016006 0.24528 0.00093737
-0.0045592 0.0073179 0.0012794 -0.0019899
-0.0018185 -0.00040388 -0.00079989 -4.5137e-05 -0.0017559 -0.00026819 -0.0045497 0.0073219
0.22089 0.11882 -0.00026756 0.0090348
0.00063273 0.00039415 -0.00092457 -0.00043135 -0.00054819 -0.00093863 0.0012725 -0.0019925
-0.00025545 0.009037 0.26538 0.16606
1760000000 0.27719 -0.074303 0.0042556 0.0062468 -0.0022344 0.00087279 0.001323 -0.0032931
-0.0010314 0.00062381 0.00040502 -0.00052177
0.0042413 0.0062346 0.24972 0.20057 0.0017344 -0.00095078 -0.0011004 0.00019627
-0.0011623 0.00085317 -0.00062337 0.00052515
-0.0022267 0.00088589 0.0017347 -0.00095773 0.21032 -0.23051 0.0010779 0.0012872
-0.0011428 0.0013355 -0.0012599 -0.00042237
0.0013118 -0.0033009 -0.0011061 0.00020323 0.0010758 0.0012913 0.23508 -0.051439
-0.0020309 0.0069303 -0.00037549 -0.0021595
-0.0010164 0.00064518 -0.0011651 0.00086001 -0.0011528 0.0013269 -0.002011 0.0069445
0.23569 0.082095 0.0034736 0.0066606
0.00039774 -0.00052927 -0.00062305 0.00053467 -0.0013009 -0.00047143 -0.00038238 -0.0021562
0.003478 0.0066558 0.27712 0.12801
1820000000 0.25159 -0.11122 0.0045012 0.0027501 -3.9054e-05 0.0024122 -0.00092256 -0.0030772
-0.00079945 0.00060025 2.8868e-05 -0.00014972
0.0044859 0.002749 0.25936 0.17025 -0.00015688 8.5901e-06 -0.0013402 0.00085809
-0.00014622 0.0013848 -0.00050882 0.00057903
-2.1283e-05 0.0024055 -0.00015675 8.7479e-06 0.16046 -0.24587 0.0015294 0.00044952
-0.00042804 0.002181 -0.0014445 0.00054355
-0.00094033 -0.0030788 -0.0013441 0.00086502 0.0015349 0.00044697 0.2037 -0.098801
-0.00093332 0.0056964 -0.0015871 -0.0013322
-0.00079674 0.00060973 -0.00014449 0.0013834 -0.00040699 0.0021741 -0.00091183 0.0057015
0.25207 0.050739 0.0044538 0.0033814
2.8615e-05 -0.00016353 -0.00050788 0.00057821 -0.0014516 0.00051627 -0.0016035 -0.0013357
0.0044511 0.0033715 0.27851 0.091614
1880000000 0.21561 -0.15075 0.0024172 0.00044872 -0.0003868 0.0020838 -0.0028372 -0.0022594
-0.00025469 0.0013404 0.0003477 -0.00054246
0.0024032 0.00044838 0.26347 0.12358 -0.0021111 0.0015623 -0.00017742 0.0016857
0.00065902 0.0014127 0.00025814 0.0010204
-0.00037669 0.0020881 -0.0020978 0.0015813 0.10845 -0.25532 0.0019918 -0.00092118
0.0013789 0.0020903 -0.00083206 0.0014032
-0.0028498 -0.0022313 -0.00016235 0.00169 0.0020019 -0.00092519 0.16177 -0.13813
-0.00063169 0.0045086 -0.0022705 0.00071832
-0.00024024 0.0013397 0.00067117 0.001405 0.0014033 0.0020773 -0.00061507 0.0045178
0.25358 0.016118 0.0041759 0.0014493
0.00035057 -0.00054366 0.0002724 0.001019 -0.0008271 0.001408 -0.0022831 0.00071655
0.0041688 0.0014589 0.27724 0.057521
1940000000 0.17577 -0.17565 0.00018616 -0.00135 0.0013566 0.0019386 -0.0037487 0.00051715
0.0010641 0.0011134 -0.00057339 -0.00063135
0.00018608 -0.0013382 0.26353 0.091659 -0.0011142 0.0037641 0.00095931 0.0013461
0.0020335 0.00062042 0.0009042 0.00026268
0.0013701 0.0019404 -0.0010846 0.0037724 0.062187 -0.2489 0.00038405 -0.0023607
0.0024894 0.00057032 0.0004657 0.0016388
-0.0037493 0.00054795 0.00096568 0.0013483 0.00038714 -0.0023485 0.10854 -0.16733
-0.001767 0.0038297 -0.0012195 0.0017091
0.001081 0.0011182 0.0020274 0.00058895 0.0024628 0.00054752 -0.0017482 0.0038347
0.25296 -0.02478 0.0031046 -0.0016341
-0.00059754 -0.00062838 0.00090723 0.00023435 0.00048822 0.001627 -0.0012227 0.0017074
0.0031151 -0.0016301 0.26533 0.021472
2000000000 0.12946 -0.18909 -0.0037107 0.00059991 0.0024611 0.0015571 -0.0022967 0.003618
0.0009771 0.0004195 -0.00072049 0.00040721
-0.0037036 0.00060454 0.24892 0.056256 -0.00095515 0.0056231 0.0016949 0.00032824
0.0015316 -0.0014235 0.00052413 4.8359e-05
0.0024657 0.0015382 -0.00092418 0.0056266 0.018658 -0.23425 -0.0014595 -0.0014976
0.0020791 -0.0011984 0.0016154 0.0012047
-0.0022632 0.0036288 0.0017041 0.00031728 -0.0014684 -0.0014938 0.055387 -0.17557
-0.0030826 0.0045753 0.00015783 0.002155
0.0009629 0.00041588 0.0015136 -0.0014406 0.0020848 -0.0012123 -0.0030888 0.0045774
