!Keysight Technologies,M9804A,MY58100912,A.14.10.03
!Date: Thursday, April 27, 2023 10:28:33
!Correction: S11(C  6-Port  ) 
!S12(C  6-Port  ) 
!S13(C  6-Port  ) 
!S14(C  6-Port  ) 
!S15(C  6-Port  ) 
!S16(C  6-Port  ) 
!S21(C  6-Port  ) 
!S22(C  6-Port  ) 
!S23(C  6-Port  ) 
!S24(C  6-Port  ) 
!S25(C  6-Port  ) 
!S26(C  6-Port  ) 
!S31(C  6-Port  ) 
!S32(C  6-Port  ) 
!S33(C  6-Port  ) 
!S34(C  6-Port  ) 
!S35(C  6-Port  ) 
!S36(C  6-Port  ) 
!S41(C  6-Port  ) 
!S42(C  6-Port  ) 
!S43(C  6-Port  ) 
!S44(C  6-Port  ) 
!S45(C  6-Port  ) 
!S46(C  6-Port  ) 
!S51(C  6-Port  ) 
!S52(C  6-Port  ) 
!S53(C  6-Port  ) 
!S54(C  6-Port  ) 
!S55(C  6-Port  ) 
!S56(C  6-Port  ) 
!S61(C  6-Port  ) 
!S62(C  6-Port  ) 
!S63(C  6-Port  ) 
!S64(C  6-Port  ) 
!S65(C  6-Port  ) 
!S66(C  6-Port  ) 
!S6P File: Measurement: :
# Hz S  RI   R 50
500000000 -0.3368 -0.035162 -0.0099538 -0.003599 -0.0080744 0.011614 -0.0031052 0.012058
0.011699 0.0040595 -0.003206 0.0086566
-0.0099176 -0.0036068 -0.41898 -0.049982 0.0074977 -0.011754 0.0017865 0.011937
0.0072489 0.0022893 0.0014484 0.013541
-0.0080609 0.011593 0.0074634 -0.01178 -0.26413 0.21073 0.0073394 0.0025059
-0.00037053 0.0085856 0.0012818 0.011534
-0.0031188 0.012008 0.0017659 0.01194 0.0073222 0.0025228 -0.32631 0.047346
-0.019459 -0.0044923 0.018161 0.025315
0.011677 0.0040403 0.0072409 0.0023011 -0.00034923 0.0085829 -0.019392 -0.0044701
-0.22514 -0.18523 -0.027526 0.005164
-0.0031504 0.0086445 0.001541 0.013547 0.0012987 0.011473 0.018193 0.025307
-0.027508 0.0051761 -0.27218 -0.11207
560000000 -0.31534 0.12493 -0.02383 -0.063189 0.00016606 0.012373 0.0067835 0.0093535
0.010822 0.0035789 0.0098743 0.006831
-0.023787 -0.063178 -0.37514 0.10876 -0.042334 -0.036881 0.013491 0.0038968
-0.013221 -0.0056925 0.0031307 -0.00034105
0.00018409 0.012355 -0.042486 -0.036803 -0.18247 0.25835 -0.00079016 -0.0049959
0.018387 0.004494 0.006795 -0.0059346
0.0068339 0.0093506 0.013569 0.0039034 -0.00079752 -0.004996 -0.30204 0.13592
0.0044157 -0.025469 0.0043282 -0.019802
0.010874 0.0035344 -0.013221 -0.0056805 0.018379 0.0044102 0.0044236 -0.025445
-0.28537 -0.0098989 0.0081962 -0.050354
0.009923 0.006775 0.0032065 -0.00027808 0.0067636 -0.0059295 0.004326 -0.019803
0.0082077 -0.050332 -0.33081 0.033086
620000000 -0.27276 0.10906 -0.022969 0.0072612 0.0033627 0.0085166 0.0071013 -0.0055918
0.011581 -0.00084127 0.00058987 -0.0023651
-0.022935 0.007234 -0.40219 0.062268 -0.018794 -0.00045656 -0.0011202 -0.0019478
0.010107 -0.007254 0.00093224 -0.0027582
0.0033891 0.0085162 -0.018816 -0.00041362 -0.15285 0.26694 -0.0013553 -0.0051151
-0.0042286 -0.0032319 0.0083189 -0.0036236
0.0070579 -0.0055371 -0.001119 -0.0019121 -0.001352 -0.0051017 -0.26147 0.14636
-0.038052 -0.01979 0.014688 0.024516
0.011623 -0.00083545 0.010111 -0.0073264 -0.0042004 -0.0032316 -0.038029 -0.019741
-0.2043 -0.049675 -0.039453 0.01301
0.00057604 -0.0023685 0.00092585 -0.0027613 0.0083075 -0.0036104 0.01463 0.024492
-0.039463 0.012992 -0.24881 -0.0016627
680000000 -0.23308 0.19295 -0.0281 -0.014258 0.004757 0.0049874 0.0012267 -0.0078668
-0.003463 -0.010801 0.0039023 -0.0063379
-0.02808 -0.014253 -0.38735 0.15882 -0.033162 -0.001296 -0.0017884 -0.00039355
-0.0028136 -0.0087929 -0.0013949 -0.0016959
0.0047616 0.0049758 -0.03319 -0.0012118 -0.10255 0.28689 -0.0009623 0.00014825
-0.0022339 0.0011123 -0.0032026 -0.0092003
0.0012413 -0.007902 -0.0017772 -0.00041464 -0.00096671 0.00014078 -0.21992 0.19476
-0.023708 -0.0086272 -0.0092557 -0.010406
-0.003504 -0.010828 -0.0028838 -0.0087944 -0.0022471 0.0011076 -0.023754 -0.0086292
-0.25185 0.047092 -0.0059969 -0.0089798
0.0039226 -0.0063291 -0.0014301 -0.0016905 -0.0032104 -0.0092034 -0.0092592 -0.010379
-0.0060045 -0.0090114 -0.2587 0.1
740000000 -0.18998 0.18793 -0.038727 0.026208 0.01258 -0.0051442 -0.00055512 -0.003878
-0.0049025 -0.0031683 -0.0057367 0.0034242
-0.038739 0.026193 -0.3356 0.17752 -0.035218 0.034951 -0.00071696 -0.0063313
-0.012127 0.008109 -0.0026107 -0.0060996
0.012567 -0.0051608 -0.035144 0.035094 -0.06895 0.28617 -0.0011608 0.0033537
-0.0024988 -0.003942 -0.0011515 0.00020031
-0.00052009 -0.0038526 -0.00069814 -0.0063173 -0.0011713 0.0033473 -0.20287 0.20223
-0.04341 -0.0080022 0.02174 0.012863
-0.0048712 -0.0032254 -0.012073 0.0081303 -0.0025086 -0.0039412 -0.043423 -0.0079737
-0.15554 0.072039 -0.042439 7.9156e-05
-0.0057627 0.0034801 -0.0026424 -0.0060819 -0.0011524 0.00017951 0.021752 0.012827
-0.042408 7.9715e-05 -0.246 0.10396
800000000 -0.15767 0.22816 -0.022617 0.017066 0.0051268 -0.010465 -0.0049763 -0.0020201
-0.00373 0.0027156 0.0042649 0.00097769
-0.022617 0.01704 -0.33774 0.24813 -0.0078644 0.034157 -0.0021258 0.0023415
-0.00035924 0.0032724 0.0011623 0.0052555
0.0051142 -0.010498 -0.0077652 0.034212 -0.027608 0.30939 0.0011123 0.0013909
0.0006757 0.0035182 -0.0018899 0.0010891
-0.0049964 -0.0020257 -0.0021315 0.002341 0.0011117 0.001405 -0.17489 0.23007
-0.028592 0.012507 0.012592 -0.0099612
-0.003694 0.0027514 -0.0003402 0.003278 0.00068296 0.0035138 -0.028584 0.012574
-0.20107 0.095476 -0.017555 0.017496
0.004235 0.00096867 0.0011661 0.0052567 -0.0018884 0.0010725 0.01261 -0.0099993
-0.017558 0.017472 -0.23804 0.15586
860000000 -0.12292 0.24954 -0.017246 0.031281 -0.0034132 -0.0097198 -0.0025747 0.0012966
0.0043951 0.0050958 -0.0032512 -0.0027589
-0.017255 0.031251 -0.28987 0.29039 0.0082207 0.034216 0.00020434 0.0020093
0.0045508 0.00017981 0.003164 0.00045464
-0.0034327 -0.0097149 0.0083356 0.034221 0.021084 0.31738 -0.00046786 -0.0003958
0.0028884 -0.001444 0.0014974 0.0044934
-0.0025472 0.0013003 0.00019852 0.0019951 -0.00047442 -0.00039709 -0.13888 0.24243
-0.018331 0.018896 -0.0060459 -0.0090967
0.0044405 0.0050899 0.0045653 0.0001792 0.0028879 -0.001442 -0.018311 0.01895
-0.15208 0.1444 -0.024654 0.015413
-0.003294 -0.0027354 0.0031801 0.00044267 0.0014896 0.004501 -0.0060321 -0.0090682
-0.024634 0.015377 -0.1887 0.19775
920000000 -0.09761 0.27287 0.0051181 0.037929 -0.0093292 -0.0040925 -0.0017258 0.0024273
0.0011607 0.001214 0.0023341 -0.0014342
0.0050809 0.037893 -0.26081 0.31127 0.028048 0.021662 0.0016095 0.001063
0.0066135 -0.00076305 0.0036991 -0.0029867
-0.009337 -0.0040808 0.028132 0.021599 0.0676 0.31747 0.0017636 -0.00015101
0.0011671 -0.00040302 0.00085383 -0.0010306
-0.0017333 0.0024543 0.0016144 0.0010634 0.0017659 -0.00014305 -0.11455 0.25918
-0.010654 0.030122 0.0026347 -0.0061742
0.0012022 0.0011848 0.0066178 -0.00081463 0.001168 -0.00040015 -0.010597 0.030147
-0.14183 0.15031 -0.0024761 0.027312
0.0023483 -0.001452 0.0037216 -0.0030204 0.0008479 -0.001035 0.0026245 -0.0061966
-0.0024973 0.027318 -0.19295 0.21224
980000000 -0.049799 0.29233 0.017917 0.030068 -0.0086444 0.004785 0.0024424 0.0039579
0.0039979 -0.001996 -0.0028422 -0.0019403
0.017866 0.030027 -0.20762 0.34505 0.032853 0.0045547 0.0018946 0.00012781
0.0011602 -0.0062244 -0.00055692 -0.0021205
-0.008625 0.0048194 0.032888 0.0044431 0.11398 0.31045 0.00043092 -0.0011559
7.4664e-05 -0.0020882 0.0015884 6.8393e-05
0.0024517 0.0039363 0.0019151 0.00010101 0.00042848 -0.00115 -0.076036 0.27068
0.0072611 0.028929 -0.0092872 -0.006811
0.0040281 -0.0019886 0.0011342 -0.0062672 7.6613e-05 -0.0020793 0.0073363 0.028918
-0.11036 0.1783 0.0046163 0.018803
-0.0028594 -0.0019173 -0.0005535 -0.0021079 0.0015961 6.1861e-05 -0.0092977 -0.0067734
0.0046007 0.018807 -0.15042 0.25701
1040000000 -0.0068298 0.30016 0.033372 0.017758 -0.00086946 0.0068437 0.0028557 0.00058525
-9.8325e-05 -0.0037777 -0.00041853 -0.00148
0.033294 0.017745 -0.17185 0.35791 0.029012 -0.014869 0.0013519 -0.0016256
-0.002628 -0.0022673 -0.001381 -0.0025466
-0.00083615 0.006835 0.028964 -0.014983 0.16001 0.29633 -0.00054759 -0.0014036
-0.0015864 -0.00078534 -0.00038515 -0.0011999
0.0028445 0.00059489 0.0013652 -0.0016545 -0.00053809 -0.0014007 -0.048395 0.28075
0.018295 0.017462 -0.002832 0.0022967
-0.00011557 -0.0037768 -0.002651 -0.0022579 -0.0015837 -0.00077777 0.018326 0.01742
-0.079417 0.18729 0.0134 0.017965
-0.00044651 -0.0014768 -0.0013836 -0.0025496 -0.00038856 -0.001199 -0.0028466 0.0023
0.01337 0.017973 -0.12809 0.2758
1100000000 0.038973 0.30747 0.035689 -0.0045208 0.0030691 0.0036466 0.0025704 -0.0014917
-0.0022082 -0.0029583 -0.0037709 3.7746e-05
0.035653 -0.0044908 -0.12818 0.3747 0.014781 -0.027502 1.8111e-05 -0.0018118
-0.0031243 -0.00040364 -0.0032958 -0.00055969
0.0030835 0.0036355 0.014685 -0.027581 0.20605 0.27575 -0.0016967 0.00024257
-0.0016637 0.00065112 -0.00084705 -0.00045006
0.0025567 -0.0014999 1.2192e-05 -0.0018072 -0.0016965 0.00024381 -0.0075731 0.28556
0.022715 0.0052482 -0.0022353 0.0010788
-0.0022024 -0.0029497 -0.0031355 -0.00039497 -0.001658 0.00064245 0.022739 0.0052109
-0.060887 0.20076 0.018546 0.008699
-0.0037612 5.4629e-05 -0.0032819 -0.00053596 -0.0008414 -0.00044538 -0.0022385 0.0010901
0.018546 0.008698 -0.08098 0.30376
1160000000 0.090509 0.30174 0.023747 -0.020703 0.00276 -0.000639 -0.00024447 -0.0025884
-0.0038444 -0.00032647 -0.00098125 0.0037419
0.023726 -0.020683 -0.084238 0.3784 -0.003794 -0.028644 -0.0017152 -0.0015225
-0.0023018 0.0025693 -0.0012339 0.0015317
0.0027739 -0.00065062 -0.0039297 -0.028642 0.24883 0.24483 -0.00060096 0.0016285
-0.00035157 0.0017099 -0.00099523 4.592e-05
-0.00025372 -0.0025747 -0.0017115 -0.0015417 -0.0006124 0.0016348 0.031913 0.28231
0.019386 -0.0095677 -0.0024688 0.0054931
-0.0038733 -0.0002834 -0.0023013 0.0025732 -0.00035302 0.0017174 0.019377 -0.0095976
-0.027316 0.2103 0.017117 0.00057516
-0.00098039 0.0037204 -0.0012221 0.0015672 -0.0010049 4.8365e-05 -0.0024655 0.0054815
0.017091 0.00057275 -0.03412 0.30589
1220000000 0.13491 0.28986 0.010233 -0.029831 -0.001591 -0.0010329 -0.00017732 -0.0010738
-0.0025346 0.0025668 0.0012341 0.0018062
0.010242 -0.029807 -0.040129 0.3899 -0.016637 -0.020708 -0.0024207 0.00044415
0.00021311 0.0027479 -0.00073538 0.0017141
-0.0015948 -0.0010351 -0.016755 -0.020651 0.28783 0.20582 0.00079997 0.0015372
0.00054545 0.0011161 0.00021427 0.00066493
-0.00019908 -0.0010743 -0.002412 0.00046966 0.00080721 0.0015288 0.071466 0.27359
0.0094395 -0.015158 0.0028466 0.0016218
-0.0025023 0.0025896 0.0002287 0.002742 0.00054029 0.0011114 0.0094285 -0.015179
-0.0035328 0.21953 0.013447 -0.01182
0.0012554 0.0017798 -0.00073523 0.0017231 0.00021432 0.00065523 0.0028649 0.0016277
0.013452 -0.011823 -0.0018403 0.32107
1280000000 0.18427 0.26708 -0.0078128 -0.028177 -0.0018802 0.002355 -0.0011017 -0.0019116
-0.00047649 0.0029522 0.0024799 0.00098448
-0.0077881 -0.028155 0.0055549 0.38047 -0.023165 -0.0083109 -0.00093428 0.0014308
0.0015058 0.001527 0.00054856 0.001904
-0.0018756 0.0023633 -0.02322 -0.0082157 0.31853 0.16208 0.0012675 -0.00018035
0.00095402 6.8329e-05 0.00029671 0.000447
-0.0011035 -0.0019107 -0.00093183 0.0014367 0.001275 -0.00019046 0.10784 0.25741
0.00096811 -0.016808 0.00053912 -0.00016492
-0.0004598 0.0029659 0.0015071 0.0015188 0.00096137 7.0342e-05 0.00094463 -0.016812
0.033561 0.22315 0.0029683 -0.013943
0.0024791 0.00098506 0.00056989 0.0019086 0.00028488 0.00045726 0.00053292 -0.00016179
0.0029777 -0.013943 0.045036 0.32112
1340000000 0.22078 0.23276 -0.017407 -0.018921 0.00069975 0.0042919 -0.0017998 -0.00069131
0.0014898 0.0025148 0.0015241 -0.0014682
-0.017385 -0.018908 0.044611 0.37205 -0.021119 0.0039978 -3.9834e-05 0.0019005
0.0016495 0.00065919 0.0012535 0.000858
0.00071836 0.0042829 -0.021127 0.0041091 0.34087 0.11403 0.00087159 -0.00077809
0.00060329 -0.00034862 0.00019594 0.00030268
-0.0018195 -0.00068315 -3.0271e-05 0.0019092 0.00086614 -0.00078622 0.14059 0.23733
-0.0072019 -0.014279 0.0012627 -0.00013582
0.0015026 0.0025016 0.0016593 0.00064802 0.00060445 -0.00034952 -0.0072356 -0.01427
0.064104 0.21822 -0.0030459 -0.012639
0.0015214 -0.0014847 0.0012551 0.00085865 0.00018829 0.00029633 0.001261 -0.00014796
-0.00303 -0.012643 0.083588 0.31547
1400000000 0.25316 0.19422 -0.023158 -0.0076548 0.0048303 0.0030124 -0.001953 0.00069224
0.0025038 0.00061704 8.9809e-05 -0.0012814
-0.023127 -0.0076593 0.081463 0.3589 -0.014633 0.011915 0.0013098 0.0012743
0.00096287 -0.00072045 0.0011406 0.0002365
0.0048418 0.0029932 -0.014589 0.012009 0.35407 0.06001 7.047e-05 -0.0013372
1.5135e-05 -0.00033265 0.00035657 0.00019445
-0.0019571 0.00069429 0.0013171 0.0012742 7.4863e-05 -0.001331 0.17038 0.209
-0.01213 -0.008539 -0.00065802 -0.00097854
0.0025087 0.0006095 0.00096649 -0.00073841 9.1262e-06 -0.00032444 -0.012159 -0.0085173
0.097242 0.21333 -0.0091995 -0.0081503
8.6191e-05 -0.0012637 0.0011418 0.0002196 0.00034669 0.00020205 -0.00065959 -0.00095803
-0.0091995 -0.0081452 0.12758 0.30385
1460000000 0.27557 0.15022 -0.020371 0.0043546 0.0052883 -0.0016191 -0.0015265 0.0017587
0.0017955 -0.00060231 -0.00034598 -0.00083304
-0.020356 0.0043243 0.11544 0.33715 -0.006346 0.01477 0.0016757 0.00020914
0.00089844 -0.0010638 0.0011554 -0.00063403
0.0052818 -0.0016416 -0.0062842 0.014825 0.35993 0.0049695 -0.00099416 -0.0011997
0.00024031 -0.00011417 0.00065212 -0.0003924
-0.0015173 0.0017721 0.0016803 0.00019601 -0.00098537 -0.0011938 0.1973 0.18002
-0.013017 -0.0032201 -0.0011877 0.0013698
0.0017764 -0.00061769 0.00091003 -0.0010697 0.00024082 -0.00012123 -0.013041 -0.0031931
0.12703 0.19821 -0.010911 -0.002886
-0.00037046 -0.00082818 0.0011701 -0.0006528 0.00064894 -0.00039282 -0.0011733 0.0013751
-0.010906 -0.0028821 0.16072 0.28176
1520000000 0.28731 0.10859 -0.014883 0.01005 0.0030881 -0.0038999 0.00014335 0.0025276
0.0017416 -0.0016218 -0.0011243 -0.0001004
-0.014875 0.010034 0.14892 0.32241 0.0011162 0.012903 0.0016085 -0.00076362
0.00013184 -0.00089003 0.00028861 -0.00097171
0.0030716 -0.003922 0.0011789 0.012912 0.35249 -0.051381 -0.00093717 -0.00041382
0.00049988 -0.000803 6.8086e-05 -3.9811e-05
0.00015854 0.0025249 0.0016058 -0.00078193 -0.00094028 -0.00042025 0.22129 0.14194
-0.012742 0.0014059 0.00083212 0.0016782
0.0017253 -0.0016424 0.00011727 -0.00089515 0.00050036 -0.00080678 -0.012751 0.0014424
0.15488 0.18363 -0.010927 0.0011475
-0.0011239 -9.5673e-05 0.00028245 -0.00097036 6.9377e-05 -4.8593e-05 0.00084035 0.0016816
-0.010931 0.0011494 0.19332 0.26048
1580000000 0.29634 0.062184 -0.0084036 0.01325 -0.00081287 -0.0045434 0.0013382 0.0018054
-0.00043482 -0.0019811 -0.00037988 0.00038414
-0.0084084 0.013234 0.17617 0.29759 0.0047758 0.0083433 0.0004568 -0.001546
-0.00037487 -0.0010941 -0.00024124 -0.00082624
-0.00083299 -0.0045391 0.0048335 0.0083219 0.33176 -0.10893 -0.0015225 0.00038198
-0.00024189 -0.0010827 0.00018501 -0.0005569
0.0013476 0.0017918 0.000458 -0.0015515 -0.0015199 0.00037648 0.236 0.10195
-0.010305 0.0055909 0.0016335 0.00070237
-0.00045146 -0.0019815 -0.00038441 -0.0010959 -0.00025161 -0.001078 -0.010294 0.0056267
0.17931 0.1653 -0.0088276 0.0064563
-0.00037991 0.00039166 -0.00024203 -0.00082153 0.00019545 -0.00056247 0.0016355 0.00069018
-0.0088235 0.0064604 0.22463 0.23304
1640000000 0.29815 0.020589 -0.001769 0.012381 -0.0025927 -0.0025464 0.0025059 0.0010229
-0.00079894 -0.0011049 -0.0003061 0.00063089
-0.0017806 0.012373 0.20559 0.27248 0.0055787 0.0037054 -0.00069792 -0.0016336
-0.00098003 -0.0004928 -0.00055316 -0.00060781
-0.0025982 -0.0025334 0.0056092 0.0036808 0.30316 -0.15786 -0.00086588 0.001289
-0.00097506 -0.00083979 -6.2008e-05 -0.00032932
0.002521 0.0010151 -0.00071071 -0.0016319 -0.00086 0.0012891 0.2487 0.052039
-0.0069687 0.0067917 0.0020818 -0.00056493
-0.00080668 -0.0011121 -0.00098922 -0.00048227 -0.00096816 -0.00083775 -0.0069484 0.0068111
0.2025 0.14021 -0.0046439 0.0085708
-0.00029503 0.00063493 -0.0005562 -0.00059985 -7.2051e-05 -0.00032083 0.0020881 -0.00055681
-0.0046259 0.0085924 0.24956 0.20098
1700000000 0.29044 -0.02499 0.001814 0.009841 -0.0032827 0.00010889 0.0028791 -0.0010774
-0.0017997 -0.00044317 0.00064354 0.00048674
0.0018086 0.0098278 0.22368 0.24077 0.0037842 0.00089574 -0.0013241 -0.00056159
-0.0008157 -1.3941e-06 -0.00091785 -0.0003786
-0.0032811 0.00012872 0.0037967 0.00087849 0.25927 -0.19771 0.00034577 0.0016689
-0.0017118 -0.00025045 -0.00059747 -0.0009872
0.0028717 -0.0010899 -0.0013323 -0.00055407 0.00034791 0.0016692 0.24519 0.0010178
-0.0050049 0.0075917 0.0012494 -0.0018847
-0.0018021 -0.00042547 -0.00082884 1.1268e-05 -0.0017165 -0.00023553 -0.0049857 0.0076154
0.22004 0.11881 -0.00029948 0.0089524
0.0006413 0.00049022 -0.00092392 -0.00036612 -0.00060862 -0.00099562 0.0012354 -0.0018946
-0.00030425 0.0089544 0.26512 0.16647
1760000000 0.27738 -0.073782 0.0043613 0.0066263 -0.0021531 0.0008188 0.0013923 -0.0032493
-0.0010145 0.00063321 0.00038795 -0.00048461
0.0043542 0.0066236 0.24944 0.20065 0.0017668 -0.00084796 -0.0011016 0.0001742
-0.0011308 0.00090014 -0.00054683 0.0005749
-0.0021546 0.00083188 0.001766 -0.00085204 0.21007 -0.23033 0.0011197 0.0013649
-0.0010842 0.0013925 -0.0013368 -0.00038644
0.0013695 -0.0032503 -0.0011072 0.00017959 0.0011307 0.0013646 0.23496 -0.051296
-0.002299 0.0073459 -0.00036928 -0.0020708
-0.0010224 0.00064219 -0.0011424 0.00091263 -0.0010929 0.0013999 -0.0022753 0.0073582
0.23483 0.082205 0.0034289 0.0066956
0.00039173 -0.00049854 -0.00054072 0.00057661 -0.0013039 -0.00037726 -0.00035041 -0.0020487
0.0034493 0.0066899 0.27673 0.12837
1820000000 0.25192 -0.11081 0.0047755 0.0029761 5.4428e-05 0.0023191 -0.00080135 -0.003074
-0.00078935 0.00060108 4.186e-05 -0.00022868
0.0047719 0.0029727 0.25907 0.17043 -0.00014077 0.00014691 -0.0013377 0.00087116
-0.00011716 0.0013763 -0.00045981 0.00048009
7.2164e-05 0.0023318 -0.00013654 0.00015135 0.16017 -0.24558 0.0015502 0.00042847
-0.00047207 0.0021461 -0.0014242 0.00055699
-0.00081357 -0.0030759 -0.0013252 0.00087669 0.0015415 0.00042958 0.20351 -0.098505
-0.0010207 0.0061988 -0.0014948 -0.0012194
-0.00078364 0.00059969 -9.8168e-05 0.0013858 -0.0004606 0.0021367 -0.0010012 0.0061983
0.25141 0.051131 0.0043363 0.0033725
4.6442e-05 -0.00022077 -0.00046084 0.00048814 -0.0014071 0.00056284 -0.0015222 -0.0012365
0.0043249 0.0033883 0.27826 0.091958
1880000000 0.21603 -0.1505 0.0027546 0.00055983 -0.00033402 0.0020125 -0.0028366 -0.0022318
-0.00021045 0.0014419 0.00040297 -0.00056645
0.0027548 0.00056022 0.26321 0.12381 -0.0019948 0.0017354 -0.0001992 0.0016969
0.00070721 0.0013662 0.00023904 0.00093783
-0.00033588 0.0020203 -0.0019872 0.0017542 0.10822 -0.25486 0.0020528 -0.0010839
0.0013958 0.0020209 -0.00083564 0.0013892
-0.0028394 -0.0022046 -0.00017782 0.0016998 0.0020476 -0.0010827 0.16182 -0.13792
-0.00035974 0.0049442 -0.0022441 0.00079446
-0.00018943 0.0014543 0.00070892 0.0013705 0.0014025 0.0020181 -0.00035703 0.0049421
0.25301 0.016625 0.0041205 0.0014966
0.00039073 -0.00057057 0.0002409 0.00093545 -0.00080616 0.0013661 -0.0021901 0.00079926
0.0041326 0.0015018 0.27704 0.057845
1940000000 0.17617 -0.17555 0.00051941 -0.0014294 0.0012593 0.0018638 -0.0037768 0.00043781
0.0010291 0.0010366 -0.00061103 -0.00070863
0.00052164 -0.0014264 0.26332 0.092019 -0.00094124 0.0038338 0.00094847 0.0013205
0.0019765 0.00053017 0.00086173 0.00022583
0.0012607 0.001851 -0.00092335 0.0038451 0.062216 -0.24841 0.00035758 -0.0023746
0.0024364 0.00059355 0.00042871 0.0015936
-0.003803 0.00045122 0.00094746 0.0013148 0.0003507 -0.0023907 0.10882 -0.16703
-0.0012504 0.0041509 -0.0011152 0.0017638
0.0010348 0.0010219 0.0019832 0.00051776 0.0024372 0.00058705 -0.0012357 0.0041592
0.25256 -0.024005 0.0031142 -0.0015121
-0.00059854 -0.00071434 0.00086928 0.0002103 0.00042983 0.0015939 -0.0011263 0.0017371
0.0031054 -0.0015006 0.26526 0.021792
2000000000 0.12976 -0.18912 -0.0034268 0.00040099 0.0023997 0.0014362 -0.0023089 0.0036162
0.0010128 0.00032729 -0.00071025 0.00035058
-0.0034198 0.00039055 0.24884 0.056557 -0.00069382 0.0054917 0.0016437 0.00032694
0.0014291 -0.001508 0.00053209 0.00014962
0.0023997 0.0014317 -0.00066112 0.0054932 0.018983 -0.23391 -0.0016146 -0.0014412
0.0020166 -0.0011619 0.0015817 0.0012831
-0.002271 0.0036298 0.0016529 0.00031679 -0.0016102 -0.0014518 0.055651 -0.1754
-0.0026074 0.0046229 0.00033734 0.0021382
0.0010357 0.00032684 0.0014349 -0.001524 0.0020205 -0.0011556 -0.0026089 0.0046495
