!Keysight Technologies,M9804A,MY58100912,A.14.10.03
!Date: Thursday, April 27, 2023 10:28:33
!Correction: S11(C  6-Port  ) 
!S12(C  6-Port  ) 
!S13(C  6-Port  ) 
!S14(C  6-Port  ) 
!S15(C  6-Port  ) 
!S16(C  6-Port  ) 
!S21(C  6-Port  ) 
!S22(C  6-Port  ) 
!S23(C  6-Port  ) 
!S24(C  6-Port  ) 
!S25(C  6-Port  ) 
!S26(C  6-Port  ) 
!S31(C  6-Port  ) 
!S32(C  6-Port  ) 
!S33(C  6-Port  ) 
!S34(C  6-Port  ) 
!S35(C  6-Port  ) 
!S36(C  6-Port  ) 
!S41(C  6-Port  ) 
!S42(C  6-Port  ) 
!S43(C  6-Port  ) 
!S44(C  6-Port  ) 
!S45(C  6-Port  ) 
!S46(C  6-Port  ) 
!S51(C  6-Port  ) 
!S52(C  6-Port  ) 
!S53(C  6-Port  ) 
!S54(C  6-Port  ) 
!S55(C  6-Port  ) 
!S56(C  6-Port  ) 
!S61(C  6-Port  ) 
!S62(C  6-Port  ) 
!S63(C  6-Port  ) 
!S64(C  6-Port  ) 
!S65(C  6-Port  ) 
!S66(C  6-Port  ) 
!S6P File: Measurement: :
# Hz S  RI   R 50
500000000 -0.33604 -0.034858 -0.0091531 -0.0029794 -0.0075199 0.011821 -0.0027203 0.011331
0.01206 0.0044108 -0.0025683 0.0083319
-0.0091394 -0.0029501 -0.41832 -0.049733 0.0077483 -0.011836 0.0019911 0.011314
0.0077087 0.0025982 0.0019857 0.012811
-0.0075133 0.011848 0.0077361 -0.011852 -0.26404 0.21059 0.0069469 0.002497
-0.00023135 0.0084653 0.001195 0.011362
-0.0027258 0.01135 0.0019969 0.011339 0.006946 0.0025242 -0.3267 0.047226
-0.018878 -0.0041456 0.017379 0.025163
0.012172 0.0044738 0.0076943 0.0026289 -0.00021677 0.0085268 -0.018907 -0.0042433
-0.22511 -0.18486 -0.026395 0.0055016
-0.0028641 0.007898 0.0018467 0.012657 0.00098117 0.011518 0.017816 0.025074
-0.026416 0.0054026 -0.27316 -0.11207
560000000 -0.31515 0.12567 -0.022686 -0.062966 -0.00010262 0.012557 0.0066894 0.0095045
0.010134 0.0037122 0.0098142 0.0079099
-0.022666 -0.062876 -0.37458 0.10845 -0.042107 -0.036872 0.013288 0.0035993
-0.01373 -0.0048084 0.0041027 1.218e-05
-0.00011124 0.01252 -0.042242 -0.036801 -0.18232 0.25838 -0.0005929 -0.0050654
0.018863 0.0043674 0.0071646 -0.0061332
0.006816 0.0095692 0.013438 0.0035113 -0.0005279 -0.0051144 -0.30191 0.13579
0.0046443 -0.025226 0.0044339 -0.020121
0.01044 0.0038947 -0.013609 -0.0048963 0.01893 0.0042045 0.0045432 -0.025305
-0.28434 -0.010591 0.0084691 -0.05017
0.010399 0.0078947 0.0045755 -0.00026984 0.0071102 -0.0060538 0.0043234 -0.020002
0.008591 -0.050139 -0.33026 0.033992
620000000 -0.27241 0.10878 -0.023085 0.0071715 0.003381 0.0084743 0.0070665 -0.0057123
0.010874 -0.00070082 0.00023542 -0.0023492
-0.023062 0.0071587 -0.40235 0.062211 -0.018859 -0.00048776 -0.0011696 -0.0021108
0.0099205 -0.0071593 0.00097943 -0.0027669
0.0034277 0.0084422 -0.018876 -0.00043622 -0.15289 0.26707 -0.0013818 -0.0051778
-0.004583 -0.0034217 0.0083922 -0.003753
0.0069732 -0.0057479 -0.0012043 -0.0020939 -0.0014126 -0.005149 -0.26135 0.14573
-0.038342 -0.019365 0.014381 0.023538
0.010889 -0.00048521 0.010031 -0.0071878 -0.0044117 -0.0033068 -0.038403 -0.019305
-0.20412 -0.049557 -0.039384 0.013906
-9.1181e-05 -0.0021968 0.00094339 -0.0027555 0.0084068 -0.0036234 0.014528 0.023502
-0.039559 0.013914 -0.24891 -0.0027661
680000000 -0.23263 0.19317 -0.027826 -0.014016 0.0048235 0.0050945 0.00088403 -0.0072791
-0.0035327 -0.010994 0.0040696 -0.0061119
-0.027797 -0.014019 -0.3872 0.15907 -0.03299 -0.0012858 -0.0017216 -0.00021195
-0.0027443 -0.0088029 -0.0011455 -0.0019085
0.0048299 0.0050893 -0.033032 -0.0012038 -0.10243 0.2869 -0.00084651 0.00041523
-0.0021505 0.0010232 -0.0029172 -0.0093713
0.00087032 -0.0073678 -0.0017538 -0.00021315 -0.00087448 0.00041501 -0.21973 0.1951
-0.023706 -0.0087055 -0.0088086 -0.010024
-0.0035661 -0.01115 -0.0028374 -0.0088435 -0.002203 0.00096428 -0.023728 -0.0087717
-0.25146 0.047191 -0.005763 -0.0094544
0.0041807 -0.0061829 -0.0011106 -0.0018396 -0.0029093 -0.0093921 -0.0088414 -0.010116
-0.0056798 -0.0094406 -0.25786 0.099224
740000000 -0.19009 0.18766 -0.038519 0.025975 0.012537 -0.0049785 -0.00090775 -0.0040432
-0.0049144 -0.0026571 -0.0060139 0.0033782
-0.038505 0.02595 -0.33482 0.17769 -0.035044 0.035198 -0.00048319 -0.0062137
-0.012059 0.0069459 -0.0022249 -0.0056339
0.01253 -0.0050256 -0.034968 0.035315 -0.069017 0.28634 -0.0014916 0.0035405
-0.0021676 -0.0036584 -0.0014901 0.00056343
-0.0008898 -0.0040044 -0.00044298 -0.0062084 -0.0014774 0.0035725 -0.20269 0.20252
-0.043059 -0.0084995 0.021504 0.013395
-0.0048392 -0.0025452 -0.01215 0.0070833 -0.0020623 -0.0037547 -0.042819 -0.0082988
-0.15795 0.073411 -0.041397 -0.00076474
-0.0061508 0.003496 -0.0023566 -0.0055091 -0.0016694 0.00049236 0.021246 0.013214
-0.041521 -0.00061442 -0.24633 0.10496
800000000 -0.15793 0.22834 -0.022839 0.017225 0.0050718 -0.010244 -0.0049526 -0.0019255
-0.0037769 0.0028786 0.0038678 0.0013065
-0.022842 0.017205 -0.3379 0.24835 -0.0079088 0.034271 -0.002159 0.0022421
-0.00043719 0.0034186 0.00089292 0.005328
0.0050269 -0.01025 -0.0078115 0.034324 -0.027577 0.30948 0.0010773 0.0014267
0.00076027 0.0036706 -0.002154 0.0012168
-0.0049942 -0.0019472 -0.0021515 0.002238 0.0010702 0.0014539 -0.17481 0.23025
-0.02863 0.012328 0.012325 -0.0099443
-0.003838 0.0027811 -0.00043232 0.0034011 0.0007018 0.0036398 -0.028565 0.012361
-0.20145 0.0956 -0.017556 0.017311
0.0041909 0.0012854 0.0010744 0.005296 -0.0019656 0.0011717 0.012424 -0.0098915
-0.01756 0.01715 -0.23873 0.15614
860000000 -0.12291 0.24946 -0.017393 0.031233 -0.0035181 -0.0097151 -0.0025317 0.0012389
0.0043394 0.005146 -0.0029434 -0.0029931
-0.017395 0.0312 -0.28981 0.29045 0.0082026 0.034163 0.00023525 0.0021164
0.0044875 0.00013474 0.0031148 0.00041892
-0.0035366 -0.0097053 0.0083238 0.034167 0.021205 0.31738 -0.00047039 -0.00031101
0.0028375 -0.0013968 0.0016013 0.0044951
-0.0024776 0.0012458 0.00023624 0.0021098 -0.00046053 -0.00030695 -0.13908 0.24208
-0.018382 0.019108 -0.0063054 -0.0088029
0.0044366 0.0051692 0.0044219 0.00011263 0.0028648 -0.0013972 -0.01837 0.019179
-0.15234 0.14441 -0.024536 0.015337
-0.0030835 -0.0027126 0.0033776 0.00050493 0.0016258 0.0045391 -0.0065146 -0.0086615
-0.024568 0.015377 -0.18846 0.19809
920000000 -0.097562 0.27279 0.0050621 0.037954 -0.0093817 -0.0040861 -0.0017555 0.0024681
0.0012931 0.0015131 0.002397 -0.0013609
0.0050412 0.037929 -0.2607 0.31128 0.028037 0.021696 0.00151 0.0011014
0.0067362 -0.00061235 0.0037095 -0.0030306
-0.0093947 -0.0040552 0.02814 0.021614 0.067674 0.31748 0.0017113 -0.00010336
0.0012051 -0.00036319 0.00090044 -0.0010053
-0.0017598 0.0025082 0.0015176 0.0010988 0.0017006 -9.4214e-05 -0.11445 0.25916
-0.010485 0.030305 0.0024713 -0.0061775
0.0013045 0.0014481 0.0067086 -0.00070563 0.0012026 -0.00032197 -0.010457 0.030184
-0.14152 0.15031 -0.0025548 0.027336
0.0022765 -0.0015461 0.0037646 -0.0030093 0.00085806 -0.0010334 0.0025696 -0.0061285
-0.0025062 0.027278 -0.19278 0.2126
980000000 -0.049674 0.29234 0.018019 0.030064 -0.0086185 0.0047784 0.0024934 0.0038648
0.0039806 -0.0018342 -0.0029485 -0.0022193
0.017989 0.030064 -0.20742 0.34509 0.032827 0.0045321 0.0020119 -1.9037e-05
0.00113 -0.006226 -0.00073289 -0.0021259
-0.0086118 0.0048112 0.032887 0.0044319 0.11404 0.31044 0.00041781 -0.00115
9.3077e-06 -0.0020732 0.0015441 1.2225e-05
0.0025268 0.0038436 0.0020161 -6.1611e-06 0.00042803 -0.0011542 -0.076187 0.27062
0.0074307 0.029002 -0.0092082 -0.0066632
0.0039576 -0.0018849 0.0011327 -0.006234 5.0017e-05 -0.0020781 0.0074354 0.029051
-0.11043 0.17844 0.0048576 0.018476
-0.002988 -0.001972 -0.00070097 -0.0021246 0.001576 -5.3581e-06 -0.0093939 -0.006604
0.0046984 0.018511 -0.1502 0.25689
1040000000 -0.0068073 0.30039 0.033428 0.017812 -0.0008162 0.006851 0.0028433 0.00060123
-0.00011425 -0.0038106 -0.00037653 -0.0012221
0.033408 0.017824 -0.17175 0.35792 0.028964 -0.014865 0.0015044 -0.0017046
-0.0025405 -0.0021945 -0.0014084 -0.0025206
-0.00081528 0.0068611 0.028954 -0.015007 0.16006 0.29634 -0.0005128 -0.0014016
-0.0016283 -0.00078404 -0.00038735 -0.0012429
0.0028548 0.00060406 0.0015248 -0.0017113 -0.00051071 -0.001397 -0.04824 0.28061
0.018372 0.017453 -0.0029471 0.0022715
-0.00013167 -0.0038453 -0.0025613 -0.0021849 -0.0016339 -0.00077262 0.018403 0.017311
-0.079736 0.1874 0.013339 0.018129
-0.00044102 -0.0013829 -0.0013699 -0.0026271 -0.00039686 -0.0012667 -0.0028916 0.0022675
0.013399 0.018059 -0.12801 0.27572
1100000000 0.0391 0.30743 0.03569 -0.0044966 0.003085 0.0035888 0.0025671 -0.0015088
-0.0021825 -0.0030065 -0.0038852 -4.6086e-05
0.035676 -0.0044698 -0.1281 0.37473 0.014766 -0.027501 1.1095e-05 -0.0018043
-0.0030653 -0.00039172 -0.0033557 -0.00059033
0.0030944 0.0035801 0.014684 -0.027592 0.20613 0.27574 -0.00173 0.00023612
-0.0016296 0.00063102 -0.00085866 -0.0003517
0.0025728 -0.001547 8.9685e-06 -0.0018042 -0.0017325 0.00022685 -0.0075426 0.28554
0.022677 0.0052147 -0.0020374 0.0010686
-0.0022317 -0.0029852 -0.003079 -0.00037189 -0.0016233 0.0006342 0.022662 0.0052099
-0.060779 0.20076 0.018386 0.0087109
-0.0037986 1.4426e-05 -0.0032977 -0.0005311 -0.00086324 -0.00040584 -0.0021055 0.0011105
0.018314 0.0087664 -0.080613 0.30359
1160000000 0.090624 0.30185 0.023667 -0.020783 0.0027927 -0.00064306 -0.00024262 -0.0025696
-0.0038774 -0.00039782 -0.00085575 0.0037396
0.02368 -0.020747 -0.084168 0.37836 -0.0038931 -0.028622 -0.0017414 -0.0015722
-0.0022828 0.0025083 -0.0011963 0.0014685
0.0027821 -0.00065954 -0.0040127 -0.028634 0.2489 0.24484 -0.00059111 0.001655
-0.00035105 0.0017124 -0.0010131 -6.0423e-05
-0.00023715 -0.0025785 -0.0017317 -0.0015885 -0.00059541 0.0016482 0.031983 0.28216
0.019327 -0.0095032 -0.0025143 0.0055967
-0.003894 -0.00040886 -0.0023201 0.0024953 -0.0003797 0.0017094 0.019384 -0.0095211
-0.027325 0.21042 0.01706 0.00071956
-0.00092911 0.0037057 -0.0012885 0.00154 -0.001031 -1.3572e-05 -0.00249 0.005586
0.016967 0.00075953 -0.033967 0.30615
1220000000 0.13501 0.28984 0.010185 -0.029779 -0.001567 -0.00099959 -0.00024718 -0.0010689
-0.0025394 0.0025756 0.0012329 0.0018482
0.010192 -0.029743 -0.040062 0.38991 -0.016637 -0.020702 -0.0024606 0.00046125
0.00022526 0.0027494 -0.00070814 0.0017791
-0.0015751 -0.0010001 -0.016744 -0.020642 0.28791 0.20581 0.00082195 0.0015002
0.00057597 0.0011262 0.00018538 0.00067861
-0.00025117 -0.0010792 -0.0024528 0.0004754 0.00082347 0.0014987 0.071441 0.27362
0.0094011 -0.01526 0.0029766 0.0016533
-0.0025181 0.0025834 0.00021275 0.002765 0.00057155 0.0011308 0.0093533 -0.015244
-0.0033928 0.21956 0.013358 -0.011751
0.001275 0.0018296 -0.00066427 0.0017639 0.00018624 0.00068145 0.0029344 0.0016825
0.013377 -0.011737 -0.0018489 0.32099
1280000000 0.18435 0.26702 -0.0078264 -0.028175 -0.0019009 0.0023495 -0.0010681 -0.0019172
-0.00053394 0.0029448 0.0024679 0.00091808
-0.0077896 -0.028153 0.0055904 0.38047 -0.023182 -0.0082965 -0.00091289 0.0013817
0.0015087 0.0015407 0.00047111 0.0018616
-0.0018869 0.0023553 -0.023238 -0.0082004 0.3186 0.16201 0.0012617 -0.00020764
0.00095717 0.00010699 0.00026796 0.0003948
-0.0010713 -0.0019051 -0.00091975 0.001372 0.0012559 -0.00019661 0.1079 0.25734
0.00097305 -0.016907 0.00051874 -0.00011229
-0.00051955 0.0029335 0.0015107 0.0015122 0.00095608 9.7317e-05 0.00094992 -0.016924
0.033766 0.22313 0.00303 -0.013828
0.0024898 0.00087197 0.00047845 0.001892 0.00025877 0.00044297 0.00053187 -0.00012527
0.0029647 -0.013833 0.045164 0.32116
1340000000 0.2209 0.23271 -0.017419 -0.018892 0.00075111 0.0042832 -0.0018345 -0.00068958
0.0014382 0.0025758 0.0015667 -0.00144
-0.017394 -0.018897 0.044677 0.37201 -0.021142 0.0039981 -4.4248e-05 0.0019058
0.0016376 0.00068574 0.0012724 0.00084957
0.00077805 0.0042805 -0.021145 0.0041013 0.34089 0.11392 0.0008952 -0.00078774
0.00063061 -0.00039981 0.00016459 0.00030894
-0.0018486 -0.0006822 -3.1819e-05 0.0019049 0.00089128 -0.00079322 0.14053 0.23732
-0.0071929 -0.014322 0.0013235 -0.00014278
0.0014565 0.002568 0.0016383 0.00067438 0.00062134 -0.00038726 -0.00728 -0.014321
0.064261 0.21815 -0.0029555 -0.012521
0.0015735 -0.0014707 0.0012721 0.00086752 0.00016507 0.00031093 0.0012893 -0.00015811
-0.002913 -0.012533 0.083658 0.31549
1400000000 0.25322 0.19419 -0.023131 -0.0075881 0.0048405 0.0030138 -0.0019331 0.0006989
0.0024623 0.00061704 0.00013719 -0.0012808
-0.023101 -0.007604 0.081566 0.3589 -0.014584 0.011902 0.00128 0.0012683
0.0009615 -0.00068922 0.0011551 0.00018428
0.0048549 0.0029921 -0.014548 0.011996 0.35409 0.059916 5.6409e-05 -0.0013144
9.1631e-06 -0.00034216 0.00031943 0.00014503
-0.0019229 0.00069972 0.0012879 0.0012627 6.1248e-05 -0.0013088 0.1703 0.20898
-0.012121 -0.0085107 -0.00070801 -0.00096064
0.0024561 0.00060121 0.00096463 -0.00069298 4.6096e-06 -0.00034678 -0.012148 -0.0084814
0.097361 0.21327 -0.0089242 -0.0081357
0.00012461 -0.0012878 0.0011406 0.00022343 0.00031837 0.00017684 -0.00067173 -0.00096138
-0.0089674 -0.008208 0.12763 0.30398
1460000000 0.27555 0.15023 -0.020294 0.0043881 0.0052816 -0.0016668 -0.0015482 0.0017676
0.001821 -0.00063164 -0.00034888 -0.00081229
-0.020289 0.0043611 0.11548 0.33714 -0.0063338 0.014796 0.0016641 0.00021922
0.00089044 -0.0010179 0.0011519 -0.00057065
0.0052756 -0.0016837 -0.0062646 0.014847 0.3599 0.0048776 -0.00098219 -0.001151
0.00022336 -9.827e-05 0.00069181 -0.00042602
-0.0015392 0.0017912 0.0016858 0.00020463 -0.00098679 -0.001159 0.19729 0.17998
-0.013029 -0.0031706 -0.001254 0.0013078
0.0018235 -0.0006469 0.00088887 -0.0010365 0.00022089 -0.00011925 -0.013056 -0.0031629
0.12707 0.19818 -0.010733 -0.0030279
-0.0003413 -0.00080573 0.0011459 -0.00059772 0.0006845 -0.00042688 -0.0012582 0.0013408
-0.010678 -0.0030296 0.16081 0.28208
1520000000 0.28736 0.10846 -0.014858 0.010059 0.0031141 -0.0039235 0.00019774 0.0025121
0.00174 -0.0015874 -0.0011266 -0.00013415
-0.014855 0.010044 0.14895 0.32242 0.0011327 0.0129 0.001595 -0.00078563
0.00014969 -0.0009022 0.00029942 -0.0010063
0.0031004 -0.0039389 0.0011982 0.012901 0.3525 -0.051413 -0.00094332 -0.00040237
0.00050797 -0.00078515 4.4362e-05 9.909e-06
0.00020837 0.0025014 0.0015891 -0.00079022 -0.00094159 -0.00038551 0.22128 0.14201
-0.012716 0.0014828 0.00079195 0.0016931
0.0017197 -0.0015871 0.00013706 -0.00089596 0.00051483 -0.0007905 -0.012706 0.0015262
0.15495 0.18369 -0.010807 0.00096518
-0.0011297 -0.00016309 0.00027824 -0.00098657 7.064e-05 1.3821e-05 0.00084225 0.0016857
-0.010833 0.00094486 0.19352 0.26057
1580000000 0.29639 0.062141 -0.0083606 0.013226 -0.000819 -0.004564 0.0013404 0.0018355
-0.00045028 -0.0019417 -0.00035896 0.00030844
-0.0083643 0.013201 0.17621 0.29758 0.0048152 0.0083347 0.00048423 -0.0015619
-0.00037076 -0.0011074 -0.00026884 -0.00085487
-0.00083784 -0.0045667 0.0048584 0.0083193 0.33177 -0.10902 -0.0014969 0.00037057
-0.00023226 -0.0011173 0.00021549 -0.00058985
0.0013548 0.0018357 0.00047381 -0.0015673 -0.0015144 0.00035719 0.23605 0.10198
-0.010244 0.0056423 0.0016468 0.00072681
-0.00047421 -0.0019506 -0.00038054 -0.0011048 -0.00023351 -0.0011033 -0.010267 0.0056712
0.17945 0.16522 -0.008817 0.0062551
-0.00035555 0.00032626 -0.00026282 -0.0008749 0.00015934 -0.0006105 0.0016126 0.0007372
-0.0087716 0.0062889 0.22479 0.23309
1640000000 0.2981 0.02052 -0.0017457 0.012366 -0.0025724 -0.0025351 0.002524 0.00099786
-0.00078164 -0.0011204 -0.00030264 0.00067222
-0.001765 0.012367 0.20564 0.27245 0.0055763 0.0037098 -0.00068435 -0.0016076
-0.00097581 -0.00052406 -0.00054237 -0.00063367
-0.0025878 -0.0025166 0.0055986 0.0036875 0.30317 -0.15795 -0.00085917 0.0012909
-0.00096815 -0.00093468 -2.966e-05 -0.00028778
0.0025277 0.00097349 -0.00070354 -0.0016067 -0.0008567 0.0012908 0.24865 0.052059
-0.0069951 0.006747 0.0021052 -0.00049202
-0.00077813 -0.0011278 -0.00098561 -0.00049706 -0.00095961 -0.00092718 -0.0069836 0.0067825
0.20252 0.1401 -0.0046599 0.0083866
-0.0003465 0.00068629 -0.00053658 -0.00060758 -3.5152e-05 -0.0002885 0.0021682 -0.00052032
-0.0046607 0.0083737 0.24984 0.20103
1700000000 0.29047 -0.025038 0.0017873 0.0098089 -0.003329 0.00013324 0.0028546 -0.001073
-0.0018377 -0.00047539 0.00060476 0.0004854
0.0017799 0.0097974 0.2237 0.24073 0.003766 0.00088272 -0.0013603 -0.00058122
-0.00081995 -3.2785e-05 -0.00090336 -0.00035143
-0.0033283 0.00015026 0.0037792 0.00085708 0.25927 -0.19778 0.00033714 0.0016167
-0.0016885 -0.00029147 -0.00053319 -0.00097864
0.0028453 -0.0010762 -0.001361 -0.00057721 0.00032591 0.0015898 0.24536 0.0010056
-0.0049094 0.0075513 0.001255 -0.0019057
-0.0018353 -0.00044812 -0.00083825 -2.03e-05 -0.0017054 -0.00027902 -0.0049067 0.0075606
0.22017 0.11869 -0.00039089 0.0088516
0.00060547 0.00052248 -0.00092915 -0.00034077 -0.00061724 -0.00094887 0.001173 -0.0019246
-0.00041552 0.0088628 0.26528 0.1662
1760000000 0.27743 -0.073834 0.0043723 0.0066057 -0.0021621 0.00080524 0.0013405 -0.0032165
-0.0010606 0.00062816 0.00046844 -0.00044007
0.004366 0.0066035 0.24947 0.20062 0.0017347 -0.00084282 -0.0011099 0.00017947
-0.0011395 0.00090992 -0.00056876 0.00056617
-0.0021509 0.00081114 0.0017281 -0.00085748 0.21009 -0.23038 0.001144 0.0012745
-0.0010755 0.0013609 -0.0013462 -0.00035802
0.0013372 -0.0032256 -0.0011116 0.00020103 0.0011506 0.0012935 0.23492 -0.051421
-0.0022836 0.007269 -0.00042493 -0.0020619
-0.0010449 0.00063221 -0.0011338 0.00092746 -0.0010671 0.0013706 -0.0022789 0.0072465
0.23491 0.082072 0.003166 0.0066431
0.00041108 -0.00048882 -0.00054766 0.00057982 -0.0013017 -0.00035575 -0.00031359 -0.0019573
0.0032613 0.0066289 0.27706 0.12821
1820000000 0.25191 -0.11087 0.0047602 0.0029771 2.7605e-05 0.0023411 -0.00087543 -0.0031281
-0.00079406 0.00062195 2.2532e-05 -0.00014534
0.0047494 0.0029857 0.2591 0.17036 -0.00015683 0.00014464 -0.0013573 0.00082539
-0.00013748 0.0013856 -0.00048229 0.00054719
4.4805e-05 0.0023423 -0.0001546 0.00014552 0.16014 -0.24559 0.0015244 0.00046814
-0.00047733 0.0021604 -0.0012904 0.00057876
-0.00089901 -0.0031236 -0.001365 0.00082312 0.0015094 0.0004485 0.2037 -0.098607
-0.00091406 0.0060869 -0.0014176 -0.0012238
-0.00081947 0.00062074 -0.00012798 0.0013765 -0.00048483 0.0021492 -0.00089636 0.0061414
0.25154 0.051009 0.0042066 0.0033629
4.2226e-05 -0.0001742 -0.00046079 0.00055569 -0.0013539 0.00057553 -0.0015688 -0.0013342
0.0041656 0.003377 0.27838 0.091725
1880000000 0.21596 -0.15059 0.0027189 0.00056916 -0.00030917 0.0020415 -0.0028623 -0.0022392
-0.00025597 0.0014629 0.00040083 -0.00054313
0.0027087 0.00057308 0.26322 0.12377 -0.0020029 0.0017341 -0.00018438 0.0017031
0.00069669 0.0013767 0.00021431 0.00092562
-0.00030326 0.0020472 -0.0020017 0.0017567 0.10822 -0.25489 0.0019817 -0.0010332
0.0013709 0.0020613 -0.000837 0.0013806
-0.0028727 -0.002231 -0.00016924 0.001694 0.0019612 -0.0010286 0.16167 -0.13811
-0.00040674 0.0048638 -0.0021514 0.00069723
-0.00024498 0.0014357 0.00071488 0.0013553 0.0013536 0.0020411 -0.0004058 0.0047991
0.25295 0.016491 0.004015 0.0015184
0.00043834 -0.00057999 0.0002177 0.00095251 -0.00083054 0.0013781 -0.0020741 0.00080647
0.0040341 0.001434 0.27711 0.057568
1940000000 0.17608 -0.17565 0.00052495 -0.0014099 0.0012894 0.001854 -0.0037221 0.00054089
0.0010474 0.0010597 -0.00063218 -0.00081244
0.00051773 -0.0014088 0.26334 0.091953 -0.00098139 0.0038445 0.00095218 0.001333
0.0020022 0.00052352 0.00085631 0.00024373
0.0013059 0.0018521 -0.00095448 0.0038641 0.062104 -0.24849 0.00042465 -0.0023538
0.0024106 0.00061447 0.0003308 0.0015937
-0.0037072 0.00053544 0.00096891 0.0013131 0.00040931 -0.0023748 0.10883 -0.16704
-0.0013552 0.0040973 -0.0011862 0.0018005
0.001067 0.0010663 0.0019984 0.00050113 0.0024168 0.00061293 -0.00129 0.0041667
0.25248 -0.02419 0.002925 -0.0014277
-0.00066802 -0.00072352 0.00086098 0.00023514 0.000314 0.0015891 -0.0011922 0.0015811
0.0029794 -0.0013531 0.26521 0.021533
2000000000 0.12977 -0.18921 -0.0034497 0.00043456 0.0024371 0.0015059 -0.0022778 0.0036041
0.0010391 0.00040377 -0.00072896 0.00036484
-0.0034399 0.00042339 0.24881 0.056499 -0.0007325 0.0055349 0.0016786 0.00035446
0.0014683 -0.0014761 0.00046432 0.00012916
0.0024571 0.0014854 -0.00069176 0.0055443 0.018898 -0.23391 -0.0015058 -0.0013687
0.002089 -0.0012044 0.0014774 0.001284
-0.0022473 0.0036282 0.0016732 0.00034064 -0.0015005 -0.0013538 0.055567 -0.17557
-0.0026474 0.0047211 0.00042939 0.0020368
0.0010228 0.00037819 0.0014681 -0.0014733 0.0021034 -0.0012089 -0.0026088 0.0046632
