!Keysight Technologies,M9804A,MY58100912,A.14.10.03
!Date: Thursday, April 27, 2023 10:28:33
!Correction: S11(C  6-Port  ) 
!S12(C  6-Port  ) 
!S13(C  6-Port  ) 
!S14(C  6-Port  ) 
!S15(C  6-Port  ) 
!S16(C  6-Port  ) 
!S21(C  6-Port  ) 
!S22(C  6-Port  ) 
!S23(C  6-Port  ) 
!S24(C  6-Port  ) 
!S25(C  6-Port  ) 
!S26(C  6-Port  ) 
!S31(C  6-Port  ) 
!S32(C  6-Port  ) 
!S33(C  6-Port  ) 
!S34(C  6-Port  ) 
!S35(C  6-Port  ) 
!S36(C  6-Port  ) 
!S41(C  6-Port  ) 
!S42(C  6-Port  ) 
!S43(C  6-Port  ) 
!S44(C  6-Port  ) 
!S45(C  6-Port  ) 
!S46(C  6-Port  ) 
!S51(C  6-Port  ) 
!S52(C  6-Port  ) 
!S53(C  6-Port  ) 
!S54(C  6-Port  ) 
!S55(C  6-Port  ) 
!S56(C  6-Port  ) 
!S61(C  6-Port  ) 
!S62(C  6-Port  ) 
!S63(C  6-Port  ) 
!S64(C  6-Port  ) 
!S65(C  6-Port  ) 
!S66(C  6-Port  ) 
!S6P File: Measurement: :
# Hz S  RI   R 50
500000000 -0.33765 -0.035044 -0.0096087 -0.00328 -0.0076873 0.011779 -0.0033272 0.01182
0.012001 0.0044688 -0.0035084 0.0083328
-0.0096067 -0.0032714 -0.41931 -0.050137 0.0070975 -0.011561 0.0014825 0.011751
0.0072197 0.0026616 0.0011809 0.012591
-0.0076331 0.011782 0.0070766 -0.01158 -0.26523 0.21124 0.0066551 0.002938
-0.00020841 0.0087103 0.00053838 0.011433
-0.0032708 0.011839 0.0015267 0.011761 0.0066717 0.0029311 -0.32712 0.046817
-0.019895 -0.004135 0.018003 0.025054
0.01204 0.0044951 0.0072059 0.0026611 -0.00023043 0.0087171 -0.019898 -0.004114
-0.22544 -0.18666 -0.027641 0.0049718
-0.0034861 0.0083947 0.0012157 0.012619 0.00054648 0.011435 0.018017 0.02503
-0.027658 0.0049581 -0.27073 -0.11454
560000000 -0.3153 0.12445 -0.023884 -0.062881 0.00021374 0.012072 0.0059844 0.0098883
0.010374 0.0041905 0.010128 0.0073759
-0.023849 -0.062766 -0.37637 0.10813 -0.042228 -0.036444 0.013642 0.0033631
-0.013806 -0.0045626 0.0042773 -0.00077485
0.00025614 0.012034 -0.042369 -0.036386 -0.18248 0.25906 -0.00045395 -0.0049622
0.019832 0.0043933 0.0071524 -0.0058355
0.0060301 0.0099429 0.013648 0.003295 -0.00046923 -0.0049553 -0.30263 0.13626
0.003936 -0.024843 0.0041329 -0.019495
0.010424 0.0042184 -0.013842 -0.0045253 0.019816 0.0043778 0.0039062 -0.02486
-0.28499 -0.010439 0.0075605 -0.049863
0.010146 0.007308 0.0042692 -0.00080061 0.0071438 -0.0058694 0.004102 -0.019463
0.0075946 -0.049882 -0.33068 0.031035
620000000 -0.27321 0.10957 -0.023237 0.0073198 0.0032469 0.008717 0.006861 -0.0057019
0.011402 -0.0008891 0.00087299 -0.0026332
-0.023236 0.007301 -0.40264 0.062335 -0.018885 0.00028878 -0.0013424 -0.0020016
0.010594 -0.0071016 0.0013214 -0.0026581
0.0032582 0.0086571 -0.018913 0.00033177 -0.15252 0.26821 -0.0017559 -0.0051317
-0.0034983 -0.0033105 0.0078891 -0.0035292
0.0068815 -0.0057221 -0.0013315 -0.0019881 -0.0017603 -0.0051411 -0.26137 0.14559
-0.039094 -0.018297 0.013987 0.023905
0.0114 -0.00084141 0.01057 -0.0071536 -0.0035166 -0.0033192 -0.039103 -0.01827
-0.20349 -0.051605 -0.040196 0.014827
0.00080654 -0.0025937 0.0012933 -0.0026645 0.0078996 -0.0035213 0.013973 0.023934
-0.040223 0.01477 -0.24885 -0.004854
680000000 -0.23296 0.19329 -0.027795 -0.013804 0.0049998 0.0049701 0.0010823 -0.0076994
-0.0034151 -0.011169 0.0041906 -0.0064893
-0.027752 -0.013817 -0.38716 0.1592 -0.032831 -0.0012275 -0.0016509 -0.00028213
-0.0026065 -0.0090709 -0.0011308 -0.0021077
0.005026 0.004961 -0.032861 -0.0011533 -0.10194 0.28741 -0.00070595 6.9254e-05
-0.0021841 0.00060606 -0.0029953 -0.0095882
0.0011018 -0.0077001 -0.0016575 -0.00030254 -0.00072024 7.4886e-05 -0.21888 0.19518
-0.02365 -0.0081961 -0.0085116 -0.010351
-0.0034478 -0.011167 -0.0026428 -0.0090966 -0.0021917 0.00060843 -0.023664 -0.0081756
-0.25217 0.047282 -0.0055659 -0.0090783
0.0041632 -0.0064731 -0.0011661 -0.0021148 -0.0029931 -0.0096057 -0.0085359 -0.010348
-0.0055564 -0.0090937 -0.25871 0.097887
740000000 -0.18955 0.18825 -0.038472 0.026535 0.012506 -0.0051829 -0.00089853 -0.0038511
-0.0047255 -0.0027589 -0.0063039 0.0035935
-0.038419 0.026491 -0.3347 0.17774 -0.034757 0.035237 -0.0006886 -0.0065394
-0.011553 0.0076966 -0.0024432 -0.0061759
0.012496 -0.0051677 -0.034688 0.035367 -0.068298 0.28601 -0.0013305 0.0034035
-0.002459 -0.0040229 -0.00124 0.00037158
-0.00088023 -0.0038672 -0.00068653 -0.006556 -0.0013306 0.003418 -0.20217 0.2025
-0.042666 -0.008338 0.022066 0.013394
-0.0047531 -0.0027511 -0.011601 0.0077625 -0.0024503 -0.0040358 -0.042727 -0.008285
-0.15627 0.072812 -0.042031 -0.00021715
-0.0062285 0.0036216 -0.0024649 -0.0061474 -0.0012808 0.00037427 0.022098 0.013412
-0.042006 -0.00018879 -0.24648 0.10362
800000000 -0.15741 0.22832 -0.02239 0.017142 0.0052751 -0.010582 -0.004811 -0.0019521
-0.0040854 0.0025327 0.0043217 0.00081878
-0.022382 0.017129 -0.33757 0.24821 -0.0076851 0.034116 -0.0020857 0.0022225
-0.0006452 0.003468 0.0011751 0.0054055
0.0052382 -0.010596 -0.007594 0.034169 -0.027264 0.30904 0.0011816 0.0015888
0.00069714 0.0035656 -0.0017095 0.00089789
-0.004833 -0.0019515 -0.0020836 0.0022128 0.0011747 0.0015855 -0.17437 0.2303
-0.028352 0.012588 0.013087 -0.0098244
-0.004098 0.0025476 -0.00063188 0.0034702 0.00070288 0.0035638 -0.028366 0.012646
-0.20105 0.095457 -0.017216 0.01746
0.0042804 0.00079599 0.0012153 0.0053903 -0.0017319 0.00088433 0.013084 -0.0098525
-0.017211 0.017444 -0.23795 0.15506
860000000 -0.12253 0.24927 -0.017177 0.031123 -0.003422 -0.0099277 -0.0024604 0.0012842
0.0041995 0.0049866 -0.0029783 -0.0027326
-0.017176 0.031109 -0.28973 0.29012 0.0082509 0.034102 9.625e-05 0.0021703
0.0046783 0.00036498 0.0033472 0.00036375
-0.0034568 -0.0099293 0.0083669 0.034113 0.021075 0.31692 -0.00042364 -0.00029397
0.0029693 -0.0015804 0.0016811 0.0042147
-0.0024612 0.0013048 0.00011446 0.0021892 -0.00042245 -0.00029426 -0.13879 0.24207
-0.018007 0.018783 -0.0059831 -0.0087877
0.004229 0.0049667 0.0046834 0.00034181 0.0029636 -0.0015883 -0.017972 0.018828
-0.15159 0.14386 -0.02416 0.015444
-0.0029999 -0.0027241 0.0033298 0.00033689 0.0016847 0.0042199 -0.0060058 -0.0088074
-0.024187 0.015428 -0.18845 0.19677
920000000 -0.09716 0.27227 0.005357 0.037672 -0.0094593 -0.0044194 -0.0017743 0.0021778
0.0013909 0.001658 0.0025843 -0.0014473
0.0053433 0.037668 -0.26049 0.31091 0.028193 0.021614 0.001667 0.00098371
0.006984 -0.00083461 0.0037968 -0.0031928
-0.0094776 -0.0043923 0.0283 0.021559 0.067452 0.31734 0.0017898 -0.00018569
0.0013436 -0.00049111 0.00083608 -0.0012948
-0.0017706 0.0021713 0.0016847 0.00096045 0.0017821 -0.00018425 -0.1146 0.25869
-0.010248 0.030267 0.0026484 -0.0067499
0.0013883 0.0016411 0.006955 -0.00086288 0.0013423 -0.00050345 -0.01019 0.030301
-0.14151 0.14922 -0.0022991 0.027139
0.0026243 -0.0014149 0.0037753 -0.0031735 0.00080193 -0.0013071 0.0026091 -0.0067521
-0.002352 0.027154 -0.19374 0.21133
980000000 -0.049681 0.2919 0.018019 0.029958 -0.008885 0.0046678 0.0024528 0.0037174
0.0040627 -0.0017852 -0.002902 -0.0019809
0.017982 0.02997 -0.20777 0.34484 0.033076 0.0044423 0.002033 -9.3496e-06
0.0012384 -0.0062756 -0.00052204 -0.0020824
-0.0088779 0.0046811 0.033129 0.0043534 0.11385 0.31064 0.00043172 -0.0011853
7.9852e-05 -0.0022023 0.0014935 -9.6913e-05
0.0024749 0.0037081 0.0020367 7.6244e-06 0.00042938 -0.0011843 -0.076391 0.27045
0.0075612 0.028879 -0.0090116 -0.0066592
0.0040693 -0.0018205 0.0011832 -0.0062915 7.3269e-05 -0.0022131 0.0076278 0.028876
-0.11023 0.17726 0.0048583 0.018805
-0.0028661 -0.0020096 -0.00054428 -0.0020892 0.0014842 -0.00011642 -0.0090051 -0.0066584
0.0048233 0.0188 -0.15109 0.25582
1040000000 -0.0069435 0.29989 0.033367 0.017713 -0.0011455 0.0068673 0.0027152 0.0006455
1.4223e-05 -0.0038097 -0.00073264 -0.0016101
0.033345 0.017737 -0.17217 0.35776 0.029103 -0.015098 0.0014089 -0.0018016
-0.0025446 -0.0025105 -0.0014285 -0.0027312
-0.0011199 0.0068582 0.029093 -0.015211 0.16013 0.29666 -0.00056183 -0.0014592
-0.0016084 -0.00077963 -0.00047038 -0.0011151
0.0027153 0.00063129 0.0014194 -0.0017923 -0.00057478 -0.0014667 -0.048621 0.28045
0.018676 0.017216 -0.0030871 0.0019562
-1.201e-05 -0.003833 -0.0025815 -0.0024719 -0.0016044 -0.00078148 0.018721 0.01719
-0.079606 0.18602 0.013466 0.017728
-0.00071565 -0.0015914 -0.0014335 -0.0027051 -0.00046965 -0.0010952 -0.0030823 0.0019713
0.013451 0.01772 -0.12896 0.27497
1100000000 0.038539 0.30718 0.035744 -0.0047933 0.0029213 0.0037123 0.0025047 -0.001454
-0.0022973 -0.003064 -0.0040289 0.00016247
0.035716 -0.0047533 -0.12861 0.37476 0.014798 -0.02794 -3.8807e-05 -0.0017839
-0.0033001 -0.00040384 -0.0033799 -0.00049643
0.0029246 0.0037093 0.014711 -0.028015 0.20657 0.27599 -0.001747 0.00028596
-0.0017589 0.00070724 -0.00092814 -0.00037219
0.0025055 -0.0014578 -2.5268e-05 -0.00179 -0.001752 0.00028491 -0.0079371 0.28548
0.023056 0.0047735 -0.0024205 0.00086649
-0.0023111 -0.0030597 -0.0032997 -0.00039289 -0.0017603 0.00072039 0.023076 0.0047322
-0.061373 0.19934 0.018588 0.008367
-0.0040098 0.00018571 -0.003379 -0.00048387 -0.00093833 -0.00038664 -0.0024288 0.00086743
0.018584 0.0083786 -0.082385 0.30289
1160000000 0.090194 0.30187 0.02362 -0.021134 0.002628 -0.00051148 -0.00018513 -0.0025283
-0.004053 -0.00042365 -0.00098778 0.003895
0.023622 -0.021079 -0.084601 0.3789 -0.0041041 -0.028964 -0.0017917 -0.0016481
-0.0024355 0.002757 -0.0012815 0.0016408
0.002622 -0.0005232 -0.0042174 -0.02896 0.24958 0.24463 -0.00059822 0.0017268
-0.00028232 0.0019329 -0.00097906 0.00010653
-0.00019062 -0.0025383 -0.0017894 -0.0016396 -0.00060519 0.0017264 0.031631 0.28248
0.019417 -0.010042 -0.0027549 0.0056726
-0.0040587 -0.00042238 -0.0024337 0.0027767 -0.0002739 0.0019283 0.019418 -0.01008
-0.0283 0.2091 0.017337 0.00037176
-0.00096945 0.0039229 -0.0012796 0.0016614 -0.00097493 0.00010397 -0.0027277 0.0056761
0.017334 0.00035434 -0.035176 0.3056
1220000000 0.13464 0.29015 0.0098959 -0.030042 -0.001562 -0.00076462 -0.00015508 -0.0011329
-0.0025214 0.0026255 0.0013599 0.0018729
0.0099127 -0.030006 -0.040275 0.3904 -0.017066 -0.020844 -0.0024965 0.00048684
0.00030511 0.0029187 -0.00063363 0.0018047
-0.0015593 -0.00077257 -0.017169 -0.020788 0.28843 0.20521 0.00092319 0.0015783
0.00057451 0.0011157 0.00022311 0.00072822
-0.00015151 -0.0011304 -0.0024879 0.00049679 0.00091717 0.0015696 0.071482 0.27389
0.0091541 -0.015796 0.002635 0.001811
-0.0025088 0.0026284 0.00031749 0.0029155 0.00056979 0.0011207 0.009136 -0.015815
-0.0051518 0.21887 0.013357 -0.012281
0.0013657 0.0018549 -0.00062822 0.0018043 0.00022928 0.00073228 0.0026399 0.0018155
0.013361 -0.012291 -0.0031923 0.32088
1280000000 0.18427 0.26757 -0.0083124 -0.028203 -0.0017924 0.0025605 -0.0011011 -0.0019736
-0.00059665 0.0030282 0.0025287 0.00095197
-0.0082996 -0.028188 0.0057728 0.38105 -0.023682 -0.0081295 -0.00094966 0.0015185
0.0016762 0.0015278 0.00059113 0.0019163
-0.0017811 0.0025647 -0.023733 -0.0080273 0.31855 0.1611 0.0014089 -0.00021563
0.0010898 4.1141e-05 0.0002565 0.00041991
-0.0011053 -0.0019631 -0.00094751 0.0015208 0.0014112 -0.00020935 0.108 0.25757
0.00018339 -0.017385 0.00050395 0.00016383
-0.00058042 0.0030459 0.0016748 0.0015122 0.0010895 3.8092e-05 0.00014944 -0.01739
0.032118 0.2232 0.0026525 -0.014257
0.0025195 0.00094087 0.00059181 0.0019118 0.00026127 0.00043448 0.00050327 0.00016124
0.0026692 -0.014258 0.044283 0.32122
1340000000 0.22122 0.23317 -0.017864 -0.018568 0.00091726 0.0043705 -0.0018908 -0.00074414
0.0015429 0.0026394 0.001681 -0.0015154
-0.017834 -0.018576 0.045208 0.37232 -0.021391 0.004486 4.7199e-07 0.0019609
0.0017481 0.00056344 0.0013286 0.00088616
0.00094419 0.0043613 -0.021395 0.0045821 0.34038 0.11304 0.00093921 -0.00089012
0.00062067 -0.00036471 0.00016679 0.00027299
-0.0018941 -0.00073098 5.6555e-06 0.0019548 0.00093506 -0.00088445 0.14084 0.23735
-0.008113 -0.014287 0.0012757 0.00013614
0.0015505 0.0026361 0.0017484 0.0005552 0.00062468 -0.00036919 -0.0081405 -0.014277
0.062983 0.21883 -0.0036552 -0.012909
0.0016742 -0.0015114 0.0013309 0.00088026 0.00017167 0.00027931 0.0012797 0.00013301
-0.0036516 -0.012915 0.082776 0.31554
1400000000 0.25385 0.19436 -0.023357 -0.0071145 0.0051611 0.0030348 -0.0019635 0.00075756
0.0025899 0.00068043 0.00015193 -0.0013721
-0.023334 -0.0071357 0.082073 0.35886 -0.014571 0.012432 0.0013691 0.0012475
0.00098109 -0.00083987 0.0011618 0.00019048
0.0051708 0.0030226 -0.014526 0.012507 0.35309 0.059594 6.4678e-06 -0.0014296
4.7493e-05 -0.00034783 0.00034827 0.00017174
-0.001966 0.00077559 0.0013735 0.0012403 1.3358e-05 -0.0014324 0.17054 0.20877
-0.013043 -0.0079537 -0.0004823 -0.0007315
0.0025864 0.0006579 0.0009612 -0.0008364 5.2586e-05 -0.0003552 -0.013069 -0.0079341
0.096341 0.21412 -0.0098722 -0.0081312
0.00014492 -0.0013785 0.001165 0.00018851 0.00034343 0.00016149 -0.00048613 -0.00073332
-0.0098717 -0.0081504 0.1268 0.30379
1460000000 0.27628 0.14983 -0.020248 0.0049409 0.005553 -0.0018146 -0.0014565 0.0017882
0.0019643 -0.00079181 -0.00042952 -0.00084312
-0.020237 0.0049192 0.11602 0.33681 -0.0059125 0.015173 0.001679 0.0001359
0.00080254 -0.0010989 0.0011374 -0.00067153
0.0055465 -0.0018387 -0.0058555 0.015208 0.35885 0.0051967 -0.001133 -0.0011435
0.00023718 -0.00010285 0.0007473 -0.00038489
-0.0014577 0.0017951 0.0016843 0.00012884 -0.0011349 -0.0011466 0.19736 0.1797
-0.013405 -0.002089 -0.00095403 0.0014547
0.0019533 -0.00080936 0.00078942 -0.0011053 0.00024121 -0.00010324 -0.013413 -0.0020577
0.1267 0.19931 -0.011348 -0.0025406
-0.00041957 -0.00083407 0.0011572 -0.00066433 0.0007474 -0.00039935 -0.00094591 0.0014497
-0.011336 -0.0025433 0.15982 0.28204
1520000000 0.28779 0.10782 -0.014497 0.010459 0.0030904 -0.0041533 0.00016819 0.0025478
0.0016808 -0.0017775 -0.0011619 -5.3091e-05
-0.01449 0.010438 0.1492 0.32189 0.0015688 0.012971 0.0015941 -0.0008131
8.5727e-05 -0.00083535 0.00029659 -0.001009
0.0030747 -0.0041666 0.0016432 0.012981 0.35193 -0.050793 -0.00090591 -0.0003172
0.00058948 -0.0008083 -8.3971e-06 -7.7811e-05
0.00016897 0.0025462 0.0015892 -0.00082384 -0.0008959 -0.00032164 0.22103 0.14148
-0.012479 0.0025655 0.0010785 0.001661
0.001664 -0.0017741 8.0366e-05 -0.00084302 0.00058783 -0.00081422 -0.012475 0.0025964
0.15492 0.18437 -0.011166 0.0017434
-0.0011637 -3.9854e-05 0.00029075 -0.0010141 -1.8204e-05 -7.769e-05 0.001081 0.0016587
-0.01116 0.0017413 0.19226 0.2607
1580000000 0.2965 0.061237 -0.0078154 0.013421 -0.00094512 -0.0047604 0.0013759 0.0017754
-0.00060173 -0.0021122 -0.00032339 0.00040175
-0.0078252 0.013407 0.17616 0.29708 0.0051687 0.0081681 0.00042541 -0.0015839
-0.00038114 -0.00098479 -0.00028521 -0.00085708
-0.00095869 -0.0047609 0.0052222 0.00815 0.3317 -0.10815 -0.001484 0.00039112
-0.00032606 -0.0011135 0.00016878 -0.0006101
0.0013875 0.0017694 0.00041182 -0.0015766 -0.0014853 0.00039391 0.2356 0.1017
-0.0093553 0.0063644 0.0018036 0.00058488
-0.00061414 -0.0021012 -0.00038475 -0.00099173 -0.00032446 -0.0011201 -0.0093435 0.006384
0.17964 0.16565 -0.0086675 0.0071532
-0.00031805 0.000396 -0.00029061 -0.00086073 0.00015891 -0.00062279 0.0018017 0.00057822
-0.0086809 0.0071466 0.22349 0.23352
1640000000 0.29773 0.019761 -0.0012236 0.012216 -0.0027736 -0.0024795 0.0025456 0.00095627
-0.00089534 -0.0010864 -0.00027338 0.00063497
-0.0012356 0.012211 0.20538 0.27198 0.0057655 0.0033989 -0.00075401 -0.0016309
-0.00092445 -0.00047403 -0.00057654 -0.00064562
-0.0027923 -0.0024609 0.0057827 0.003366 0.3036 -0.15754 -0.00087186 0.0012734
-0.001085 -0.00086166 -5.4203e-05 -0.00036677
0.002544 0.00094015 -0.00076354 -0.0016315 -0.0008687 0.0012687 0.24815 0.052039
-0.0057585 0.006886 0.0021312 -0.00071619
-0.00090107 -0.0010718 -0.00092353 -0.00046978 -0.0010967 -0.00086031 -0.0057451 0.0068977
0.2028 0.14004 -0.0041549 0.0091501
-0.00026641 0.00063717 -0.00058453 -0.00064203 -5.8381e-05 -0.00037817 0.0021121 -0.00071986
-0.0041581 0.0091471 0.24873 0.20183
1700000000 0.28966 -0.025362 0.0021605 0.0093861 -0.003433 0.00010444 0.0028826 -0.0011435
-0.0018721 -0.00036156 0.00066305 0.00042805
0.002154 0.0093762 0.22321 0.24052 0.003785 0.00062746 -0.0014174 -0.00053821
-0.00079313 -0.00010539 -0.00095325 -0.00036255
-0.0034542 0.00013492 0.0037871 0.00060885 0.25958 -0.19734 0.00032592 0.0015944
-0.0017728 -0.00017087 -0.00056512 -0.00092621
0.0028775 -0.0011496 -0.001428 -0.00053422 0.00032645 0.0015956 0.24463 0.0013708
-0.0039881 0.0070538 0.001186 -0.0020448
-0.0018841 -0.00035976 -0.00078774 -9.111e-05 -0.0017565 -0.00016452 -0.0039786 0.0070625
0.22012 0.11849 0.00032002 0.0091569
0.00067646 0.00042834 -0.0009591 -0.00035788 -0.0005794 -0.00093727 0.0011837 -0.0020527
0.00031408 0.009156 0.26448 0.16741
1760000000 0.27669 -0.073592 0.0043511 0.006096 -0.0022617 0.00082036 0.0013026 -0.0032706
-0.00098831 0.00074926 0.00043642 -0.00053056
0.0043424 0.0061052 0.24902 0.20069 0.0016411 -0.0010413 -0.001107 0.00023201
-0.0011946 0.00082954 -0.00053298 0.00055049
-0.0022663 0.00083585 0.0016359 -0.0010458 0.21046 -0.23007 0.0011375 0.0013086
-0.0011292 0.0014058 -0.0013778 -0.00036626
0.0012872 -0.0032691 -0.0011099 0.00024623 0.001138 0.0013126 0.23478 -0.050659
-0.0017623 0.0064725 -0.00041996 -0.0021842
-0.00098168 0.00076269 -0.001183 0.00084587 -0.0011283 0.0014095 -0.001744 0.006468
0.23466 0.081892 0.0041159 0.0065379
0.00042667 -0.00053539 -0.00053399 0.00055614 -0.001362 -0.00035879 -0.00042 -0.0021833
0.0041041 0.0065358 0.27653 0.12932
1820000000 0.25144 -0.11046 0.0045241 0.0026026 -0.00011273 0.0024381 -0.00088483 -0.0030569
-0.00071739 0.00061887 -2.8792e-05 -0.00019391
0.0045034 0.0026039 0.25871 0.17062 -0.00028896 -3.8189e-05 -0.0013142 0.00091156
-0.00021566 0.0013788 -0.00044531 0.00054282
-9.5322e-05 0.0024535 -0.00028981 -3.595e-05 0.16086 -0.246 0.0015603 0.0004663
-0.00040368 0.0020587 -0.0014438 0.00047482
-0.00091907 -0.0030587 -0.0013094 0.00092213 0.0015675 0.00047255 0.20372 -0.097984
-0.0010018 0.005194 -0.0016382 -0.0013761
-0.0007109 0.00061249 -0.00019553 0.0013756 -0.00040307 0.0020586 -0.00099292 0.0051925
0.25082 0.050747 0.0048402 0.0029923
-3.1899e-05 -0.0002028 -0.00043814 0.00054721 -0.0014569 0.00049318 -0.0016408 -0.0013714
0.0048405 0.0029922 0.27817 0.09285
1880000000 0.21585 -0.14989 0.002361 0.00037443 -0.00037163 0.0021731 -0.0027961 -0.0022823
-0.00013805 0.0013419 0.00031414 -0.0005301
0.0023622 0.00037965 0.26298 0.12424 -0.0022157 0.0016129 -9.2107e-05 0.001696
0.0006364 0.0014682 0.00025592 0.00092073
-0.00033542 0.0021603 -0.002211 0.0016287 0.10873 -0.25555 0.0020641 -0.0010267
0.0015087 0.0020209 -0.00084605 0.0014117
-0.0027974 -0.0022638 -7.9391e-05 0.0016925 0.0020631 -0.0010194 0.16219 -0.13745
-0.00085869 0.0041728 -0.0024021 0.00063299
-0.00012726 0.0013475 0.00065506 0.001462 0.0015121 0.0019976 -0.000851 0.0041664
0.25222 0.016611 0.0044503 0.00082002
0.00029718 -0.00053028 0.00025879 0.00090851 -0.00084505 0.0014177 -0.002404 0.00064786
0.0044431 0.00080093 0.27717 0.058566
1940000000 0.17627 -0.17508 0.00012537 -0.0013944 0.0014573 0.0020037 -0.0037551 0.0004481
0.0010614 0.00093122 -0.00059434 -0.0006135
0.00012382 -0.0013926 0.26338 0.092415 -0.0011989 0.0038574 0.0010128 0.0013104
0.002052 0.0006511 0.00088794 0.000205
0.0014783 0.0020168 -0.0011799 0.0038698 0.062141 -0.24915 0.00037758 -0.0023884
0.0024407 0.00054971 0.00043311 0.0016158
-0.003748 0.00048535 0.0010175 0.0012995 0.00038185 -0.0023828 0.10915 -0.16696
-0.0020908 0.0037087 -0.001344 0.0018084
0.0010623 0.00093614 0.0020535 0.00062669 0.0024522 0.00054085 -0.0020836 0.0037139
0.25163 -0.023874 0.0030957 -0.0022106
-0.00061396 -0.00059615 0.0008843 0.00019296 0.00042849 0.0016123 -0.0013339 0.001814
0.0030928 -0.0022148 0.26552 0.022332
2000000000 0.13009 -0.18884 -0.0037395 0.00057847 0.0024012 0.0015221 -0.0023794 0.003622
0.0009555 0.00026142 -0.00057239 0.00032152
-0.0037349 0.00057105 0.24904 0.057043 -0.00092656 0.0056093 0.0016537 0.00026387
0.0016449 -0.0014625 0.00046781 0.00012037
0.0023999 0.0015009 -0.00089481 0.0056264 0.018708 -0.23448 -0.0015635 -0.0014942
0.00204 -0.0012695 0.0016135 0.0012547
-0.0023528 0.0036407 0.001658 0.00025103 -0.0015588 -0.0014913 0.056117 -0.17551
-0.0033185 0.0046534 0.00029092 0.0023451
0.00095764 0.00026453 0.0016307 -0.0014759 0.0020386 -0.0012798 -0.0033038 0.0046616
