!Keysight Technologies,M9804A,MY58100912,A.14.10.03
!Date: Thursday, April 27, 2023 10:28:33
!Correction: S11(C  6-Port  ) 
!S12(C  6-Port  ) 
!S13(C  6-Port  ) 
!S14(C  6-Port  ) 
!S15(C  6-Port  ) 
!S16(C  6-Port  ) 
!S21(C  6-Port  ) 
!S22(C  6-Port  ) 
!S23(C  6-Port  ) 
!S24(C  6-Port  ) 
!S25(C  6-Port  ) 
!S26(C  6-Port  ) 
!S31(C  6-Port  ) 
!S32(C  6-Port  ) 
!S33(C  6-Port  ) 
!S34(C  6-Port  ) 
!S35(C  6-Port  ) 
!S36(C  6-Port  ) 
!S41(C  6-Port  ) 
!S42(C  6-Port  ) 
!S43(C  6-Port  ) 
!S44(C  6-Port  ) 
!S45(C  6-Port  ) 
!S46(C  6-Port  ) 
!S51(C  6-Port  ) 
!S52(C  6-Port  ) 
!S53(C  6-Port  ) 
!S54(C  6-Port  ) 
!S55(C  6-Port  ) 
!S56(C  6-Port  ) 
!S61(C  6-Port  ) 
!S62(C  6-Port  ) 
!S63(C  6-Port  ) 
!S64(C  6-Port  ) 
!S65(C  6-Port  ) 
!S66(C  6-Port  ) 
!S6P File: Measurement: :
# Hz S  RI   R 50
500000000 -0.33579 -0.034962 -0.0095161 -0.0027053 -0.007628 0.011788 -0.0026765 0.012198
0.011929 0.0049692 -0.0024612 0.0088961
-0.009455 -0.0027182 -0.41845 -0.049737 0.0076969 -0.011834 0.0022896 0.011739
0.0076034 0.0027835 0.0022524 0.01314
-0.0076545 0.011746 0.0076682 -0.011872 -0.26417 0.21055 0.0073356 0.0024895
-8.966e-05 0.0086377 0.0013614 0.011356
-0.0026714 0.012197 0.0023445 0.011733 0.0072987 0.0024704 -0.32697 0.046855
-0.018825 -0.0040345 0.017451 0.024758
0.011891 0.0049335 0.0076088 0.0027501 -9.1301e-05 0.0086235 -0.018842 -0.0040104
-0.22567 -0.18515 -0.026306 0.0057128
-0.0024915 0.0090237 0.0023386 0.013193 0.0013664 0.01137 0.017459 0.024659
-0.02628 0.00569 -0.27267 -0.11344
560000000 -0.31573 0.12557 -0.023072 -0.062482 0.00017952 0.01223 0.0069703 0.0091358
0.0098958 0.003384 0.0088521 0.0071845
-0.022968 -0.062402 -0.37504 0.10901 -0.042058 -0.037157 0.013338 0.0034532
-0.013693 -0.004973 0.0033547 0.00014733
0.00025424 0.01221 -0.042192 -0.037108 -0.18234 0.2582 -0.00073646 -0.0048792
0.018593 0.0043848 0.0071737 -0.0058745
0.0070416 0.0091405 0.013355 0.0034897 -0.00069837 -0.0048789 -0.30215 0.13588
0.0042257 -0.025219 0.0046766 -0.020244
0.0098675 0.0032808 -0.013768 -0.0049731 0.018587 0.00436 0.0041911 -0.025242
-0.284 -0.0099275 0.008151 -0.050616
0.0088416 0.0071481 0.0033782 0.00024682 0.0071816 -0.0058862 0.0046969 -0.020217
0.0081768 -0.050573 -0.33096 0.032252
620000000 -0.27287 0.11002 -0.022961 0.0073149 0.0035204 0.008684 0.0073208 -0.0051203
0.011738 -0.0012283 0.00037986 -0.002423
-0.022946 0.0073136 -0.40226 0.062071 -0.018744 -0.00043199 -0.0010209 -0.001919
0.010133 -0.0073279 0.001005 -0.0026697
0.0035323 0.0087124 -0.018766 -0.00038652 -0.15278 0.26692 -0.001201 -0.0051992
-0.0041818 -0.0034065 0.0085179 -0.0038455
0.0072751 -0.005117 -0.0010162 -0.0019216 -0.0012319 -0.0052262 -0.26121 0.14583
-0.03818 -0.019419 0.014482 0.023762
0.011838 -0.0011456 0.010121 -0.0073663 -0.0041486 -0.0033974 -0.038172 -0.019389
-0.20424 -0.049518 -0.039441 0.013769
0.00041128 -0.0024576 0.001 -0.0026983 0.0084773 -0.0038248 0.014504 0.023769
-0.03943 0.013702 -0.24873 -0.0029758
680000000 -0.23292 0.19257 -0.028019 -0.014129 0.004747 0.0050043 0.00096323 -0.0079181
-0.0036412 -0.010999 0.0040264 -0.0061317
-0.027989 -0.014166 -0.38734 0.15884 -0.033052 -0.0013349 -0.0018627 -0.00037796
-0.0028304 -0.0088489 -0.0013094 -0.00174
0.0047599 0.0049834 -0.033093 -0.0012439 -0.10245 0.2868 -0.00098732 0.00025598
-0.002306 0.0010664 -0.0029397 -0.0092941
0.00090108 -0.0079954 -0.0018617 -0.00034783 -0.00098088 0.00028283 -0.21993 0.19469
-0.02341 -0.0086883 -0.0092114 -0.010297
-0.0037253 -0.011014 -0.0028877 -0.0088621 -0.0022948 0.0010671 -0.023429 -0.008685
-0.25177 0.047154 -0.0058149 -0.0093372
0.0039989 -0.0060877 -0.0013009 -0.001744 -0.0029278 -0.0093425 -0.0092436 -0.010347
-0.005791 -0.0093159 -0.25821 0.09892
740000000 -0.1899 0.18754 -0.038762 0.026141 0.01266 -0.0052007 -0.00066784 -0.0042412
-0.0045697 -0.0030466 -0.005892 0.0032894
-0.038763 0.026089 -0.33516 0.17748 -0.035068 0.035139 -0.00057899 -0.006269
-0.011644 0.0074619 -0.002558 -0.0059805
0.012657 -0.0052323 -0.034995 0.035263 -0.069034 0.2861 -0.0013858 0.0034637
-0.0023466 -0.0037586 -0.0013443 0.00033264
-0.00072042 -0.0042714 -0.00061736 -0.0062785 -0.0014288 0.0034735 -0.20259 0.20219
-0.042983 -0.0084169 0.021696 0.012942
-0.0045078 -0.0030674 -0.011584 0.0076197 -0.0023621 -0.0037567 -0.043025 -0.0083801
-0.15753 0.072477 -0.041646 -0.00014486
-0.0059418 0.0032966 -0.0025792 -0.0060113 -0.0013648 0.00035026 0.021733 0.012932
-0.041644 -0.00014134 -0.24609 0.10377
800000000 -0.15772 0.22819 -0.022736 0.01712 0.0050084 -0.010327 -0.0051317 -0.0020649
-0.0040369 0.0030359 0.0037274 0.0012553
-0.022759 0.017115 -0.33787 0.24811 -0.0079945 0.034187 -0.0021706 0.0021896
-0.0005819 0.003407 0.00089238 0.0053523
0.004995 -0.010348 -0.0078901 0.034232 -0.027784 0.30943 0.001029 0.0013956
0.00060217 0.0037042 -0.0021255 0.0012194
-0.0051459 -0.002032 -0.0021783 0.0022071 0.001032 0.0013899 -0.17497 0.23003
-0.028674 0.012366 0.012231 -0.009951
-0.004053 0.0030692 -0.00056794 0.0034245 0.00059333 0.0036975 -0.028685 0.012409
-0.2017 0.095463 -0.017745 0.01736
0.003784 0.0012503 0.0009256 0.0053475 -0.002113 0.0011988 0.012215 -0.0099903
-0.017741 0.017354 -0.23891 0.15624
860000000 -0.1232 0.24924 -0.01734 0.031193 -0.0034556 -0.0097307 -0.0024458 0.0013785
0.0042533 0.0050051 -0.0029418 -0.0027145
-0.01736 0.031159 -0.28997 0.29035 0.0081781 0.034131 0.00039076 0.0020857
0.0044887 0.00014413 0.0031215 0.00046635
-0.0034811 -0.0097247 0.0082955 0.034139 0.021106 0.31729 -0.00038223 -0.00030472
0.0028042 -0.0014789 0.0016032 0.0044691
-0.002401 0.0014043 0.00038442 0.0020865 -0.00038593 -0.0003128 -0.13917 0.24231
-0.018359 0.01898 -0.0061261 -0.0087946
0.0043071 0.005007 0.0045094 0.00014281 0.0028122 -0.0014722 -0.01835 0.019025
-0.15195 0.14432 -0.024497 0.015568
-0.0029329 -0.0027249 0.0031214 0.00043969 0.0016094 0.0044699 -0.0061013 -0.0087325
-0.024488 0.015531 -0.18912 0.19731
920000000 -0.09759 0.27272 0.0051186 0.037966 -0.0093019 -0.0040061 -0.0018581 0.0024158
0.0013989 0.001555 0.0023172 -0.0012765
0.005078 0.037924 -0.26077 0.31116 0.028039 0.02166 0.0015488 0.0010264
0.0066323 -0.00059791 0.0037357 -0.0030104
-0.0093257 -0.0039868 0.028151 0.021595 0.067579 0.31747 0.0017184 -8.6141e-05
0.0012463 -0.00034727 0.00087095 -0.0009515
-0.0018681 0.0024101 0.0015429 0.0010249 0.0017315 -8.7985e-05 -0.11473 0.25908
-0.010641 0.030321 0.0024732 -0.0060549
0.0013786 0.0015597 0.0066201 -0.0006385 0.00126 -0.00036113 -0.010613 0.030355
-0.14126 0.1503 -0.002354 0.027372
0.0023174 -0.0013294 0.0037164 -0.0030307 0.00087268 -0.00095069 0.0024625 -0.0060498
-0.0023678 0.02735 -0.19313 0.21256
980000000 -0.049781 0.29229 0.01796 0.030087 -0.0086798 0.0047759 0.0025654 0.0038026
0.0039124 -0.0019087 -0.0029398 -0.0020125
0.017918 0.030035 -0.20754 0.34506 0.032848 0.004548 0.0019677 -4.662e-06
0.0011278 -0.0062487 -0.00068778 -0.0021171
-0.0086453 0.0047997 0.032896 0.0044522 0.11392 0.31044 0.00045197 -0.0012156
0.00014247 -0.0021054 0.0014861 -2.5043e-05
0.0025908 0.0038159 0.0019657 -1.0981e-05 0.00044017 -0.0012116 -0.076265 0.27082
0.0073455 0.029151 -0.0090801 -0.0066509
0.0039356 -0.0019358 0.0010965 -0.0063084 0.00014856 -0.0021013 0.0073798 0.029162
-0.11022 0.1781 0.004859 0.018857
-0.0029367 -0.0019886 -0.0007077 -0.0021199 0.0014829 -1.7418e-05 -0.0090775 -0.0065908
0.0048406 0.018828 -0.15028 0.25642
1040000000 -0.0067022 0.30038 0.033422 0.017694 -0.00079491 0.0068507 0.0028265 0.00060748
-7.6635e-05 -0.0037013 -0.00051819 -0.0014267
0.033344 0.017689 -0.17189 0.35788 0.028995 -0.01484 0.0014693 -0.0017717
-0.0025842 -0.0022805 -0.0014331 -0.0026083
-0.00078338 0.0068372 0.028984 -0.014953 0.16 0.29635 -0.00052034 -0.0014285
-0.0016527 -0.00080316 -0.00043756 -0.0011987
0.0028285 0.00059609 0.0014323 -0.00178 -0.00052204 -0.0014303 -0.048382 0.28048
0.0183 0.017338 -0.0029745 0.0022421
-0.00010423 -0.0037044 -0.0026172 -0.0022943 -0.0016453 -0.0008011 0.018348 0.017291
-0.079668 0.18742 0.013135 0.017926
-0.00055191 -0.001467 -0.0014447 -0.0025705 -0.00043124 -0.0011972 -0.0029742 0.0022377
0.01312 0.017951 -0.12809 0.27576
1100000000 0.038892 0.30749 0.035683 -0.004473 0.0030831 0.0036075 0.0025962 -0.0015008
-0.0022741 -0.0029586 -0.0038515 -5.1295e-05
0.03564 -0.0044455 -0.1282 0.37469 0.014763 -0.027505 4.1225e-05 -0.0017818
-0.0030893 -0.00043823 -0.0032706 -0.00060376
0.0030934 0.003581 0.014679 -0.027596 0.20604 0.27576 -0.001756 0.0002118
-0.0016703 0.00059966 -0.00089139 -0.00035641
0.0025905 -0.0014949 3.8379e-05 -0.0017928 -0.0017576 0.00021852 -0.007584 0.2856
0.022784 0.0053219 -0.0020407 0.0010639
-0.0022801 -0.0029479 -0.0030977 -0.0004325 -0.0016569 0.00060905 0.022778 0.0052987
-0.060663 0.20063 0.018661 0.0086141
-0.0038326 -3.212e-05 -0.0032764 -0.00058843 -0.00089869 -0.00035152 -0.0020437 0.0010914
0.018646 0.0086029 -0.081095 0.30337
1160000000 0.090554 0.30181 0.023719 -0.020779 0.002785 -0.00066925 -0.00023495 -0.0026278
-0.0039049 -0.00034964 -0.0010089 0.0037521
0.023694 -0.020759 -0.084353 0.37844 -0.00383 -0.028636 -0.0017613 -0.001582
-0.002316 0.002614 -0.0012788 0.0015578
0.0027842 -0.00068243 -0.0039425 -0.028628 0.24882 0.24488 -0.00061107 0.0016229
-0.0003847 0.001735 -0.0010195 4.9328e-05
-0.00024761 -0.0026421 -0.0017796 -0.0015776 -0.00061786 0.0016202 0.031932 0.28218
0.019407 -0.0096306 -0.0026054 0.0055792
-0.0039078 -0.00032337 -0.0023223 0.0026287 -0.00037988 0.0017481 0.019435 -0.0096528
-0.027441 0.21025 0.017087 0.00050394
-0.00099257 0.0037263 -0.0012816 0.0015838 -0.0010126 4.0863e-05 -0.0026032 0.0055683
0.017071 0.0005129 -0.034397 0.30605
1220000000 0.13495 0.28987 0.010297 -0.029808 -0.0015602 -0.0010246 -0.00019142 -0.0010211
-0.0025707 0.0025758 0.0012748 0.0018069
0.010303 -0.029786 -0.040129 0.38985 -0.016626 -0.020711 -0.0024335 0.00049474
0.00021356 0.0027608 -0.00067928 0.0017211
-0.0015739 -0.0010221 -0.016736 -0.020655 0.2878 0.20586 0.00081809 0.0015151
0.00054295 0.0011335 0.00016749 0.00068177
-0.00019229 -0.0010077 -0.0024353 0.0005027 0.000823 0.0015223 0.071439 0.27365
0.0094155 -0.015136 0.0028999 0.0015602
-0.0025524 0.0025841 0.00022133 0.0027636 0.00054345 0.0011417 0.0093691 -0.015165
-0.0035106 0.21923 0.013493 -0.011863
0.0012919 0.0018149 -0.00067576 0.0017272 0.0001697 0.00068873 0.0029113 0.001564
0.013483 -0.011873 -0.0023379 0.32096
1280000000 0.18419 0.26703 -0.0078022 -0.028202 -0.001928 0.002343 -0.0010856 -0.0019405
-0.00046538 0.0029075 0.002473 0.00094075
-0.007784 -0.028173 0.005478 0.3805 -0.023155 -0.008339 -0.0009472 0.0013784
0.0014803 0.0015224 0.00053057 0.0019039
-0.0019108 0.0023497 -0.023225 -0.0082423 0.3185 0.16208 0.0012568 -0.00016523
0.00096666 7.6059e-05 0.00026658 0.00048219
-0.0011175 -0.0019388 -0.00094697 0.0013804 0.0012607 -0.00016295 0.10787 0.25738
0.0010009 -0.016957 0.0004387 -7.4681e-05
-0.00045784 0.0029212 0.0014956 0.0015185 0.00095998 7.5912e-05 0.0009771 -0.016946
0.033607 0.22311 0.0027786 -0.01405
0.00246 0.00094233 0.00054732 0.0018925 0.00026532 0.00048356 0.00044212 -8.6775e-05
0.0027829 -0.014034 0.045027 0.32115
1340000000 0.22082 0.2328 -0.017385 -0.018951 0.00070049 0.0042535 -0.0018274 -0.00068292
0.0014656 0.0025752 0.0016126 -0.0014651
-0.017358 -0.018958 0.044616 0.372 -0.021144 0.0039913 -6.2938e-05 0.0018837
0.0016637 0.00067589 0.0012625 0.00085561
0.0007168 0.0042549 -0.021147 0.0040947 0.34087 0.11406 0.00086982 -0.00077665
0.00065981 -0.00038048 0.00019574 0.00031204
-0.0018262 -0.00067305 -4.967e-05 0.0018784 0.00087645 -0.00077299 0.14057 0.23736
-0.0071754 -0.014259 0.0013079 -7.88e-05
0.001486 0.0025774 0.0016623 0.00066869 0.00065743 -0.00038844 -0.0072257 -0.014261
0.063942 0.218 -0.003024 -0.012605
0.0016105 -0.0014705 0.0012677 0.00085099 0.00019482 0.00030979 0.0013073 -7.703e-05
-0.0030161 -0.012623 0.083467 0.31556
1400000000 0.25308 0.19422 -0.023182 -0.0076366 0.0048385 0.0030292 -0.0019182 0.00067492
0.0024805 0.00061332 0.00012815 -0.0013108
-0.023157 -0.0076356 0.081463 0.3589 -0.014623 0.011874 0.0012945 0.0012753
0.0010024 -0.00069404 0.0011608 0.00021596
0.004856 0.0030102 -0.014577 0.011967 0.35405 0.060035 7.7056e-05 -0.0013308
3.9296e-05 -0.00037111 0.00033035 0.00016138
-0.001921 0.00067746 0.0012945 0.001273 7.2063e-05 -0.0013172 0.17029 0.20899
-0.012126 -0.0085917 -0.00066004 -0.00090828
0.0024824 0.00060405 0.00099376 -0.00071689 4.3628e-05 -0.00037871 -0.01215 -0.0085554
0.096966 0.21329 -0.00926 -0.0081582
0.0001038 -0.0013194 0.001174 0.0002105 0.00033534 0.00016338 -0.00065666 -0.00091163
-0.0092681 -0.0081659 0.12751 0.30397
1460000000 0.27546 0.15029 -0.020351 0.0043411 0.0052965 -0.0016474 -0.0015415 0.0017872
0.001803 -0.00063272 -0.0003226 -0.0008643
-0.020339 0.0043214 0.1154 0.33713 -0.0063694 0.014782 0.0016826 0.00021416
0.00090993 -0.0010115 0.0011424 -0.00062581
0.0052783 -0.001681 -0.0062947 0.014832 0.35989 0.0049957 -0.00097087 -0.0011529
0.00023076 -9.6144e-05 0.00064282 -0.00041704
-0.0015355 0.0018074 0.00169 0.00020501 -0.00097779 -0.0011733 0.19721 0.18003
-0.013046 -0.0031915 -0.0011779 0.0013907
0.0017953 -0.00064636 0.00090044 -0.0010166 0.0002293 -9.1528e-05 -0.013065 -0.003172
0.12669 0.1982 -0.010807 -0.0027879
-0.00032098 -0.0008557 0.0011365 -0.00064649 0.00063559 -0.00043046 -0.0011786 0.001392
-0.01081 -0.0028031 0.1605 0.28195
1520000000 0.28728 0.10854 -0.014914 0.010067 0.0031173 -0.0038785 0.00021173 0.0024898
0.0017216 -0.0015973 -0.0011678 -0.00013031
-0.014912 0.01005 0.14885 0.32241 0.0011044 0.012907 0.001608 -0.00079042
0.00015717 -0.00090063 0.00029327 -0.0010089
0.0030998 -0.0038884 0.0011742 0.012919 0.35245 -0.051337 -0.00093991 -0.00039931
0.00050793 -0.00081209 7.7833e-05 -1.7359e-05
0.00020695 0.0024763 0.0016015 -0.00078901 -0.00094154 -0.00038623 0.22124 0.14201
-0.012787 0.0014321 0.00091724 0.0016268
0.0017095 -0.0016144 0.0001503 -0.00090585 0.00051081 -0.00081671 -0.012781 0.0014737
0.15464 0.18383 -0.010937 0.0011424
-0.0011765 -0.00012285 0.00028951 -0.001014 8.0145e-05 -1.4391e-05 0.00092203 0.0016342
-0.010939 0.0011404 0.19318 0.2605
1580000000 0.29634 0.062261 -0.0084027 0.013227 -0.0008108 -0.0045446 0.0013232 0.0018127
-0.00047374 -0.0019747 -0.00034842 0.00036859
-0.0084063 0.013212 0.17613 0.29764 0.0048026 0.0083557 0.00047131 -0.0015757
-0.00036748 -0.0010939 -0.00026719 -0.00086836
-0.00083439 -0.0045453 0.0048482 0.0083361 0.33173 -0.10894 -0.0015041 0.00035647
-0.000236 -0.0011136 0.0001415 -0.00060913
0.0013422 0.001816 0.00046511 -0.0015903 -0.001516 0.00034343 0.23599 0.10202
-0.010306 0.0056255 0.0016079 0.00071553
-0.00049134 -0.00197 -0.00037409 -0.0010913 -0.00024373 -0.0011148 -0.010303 0.0056535
0.17909 0.16545 -0.0087548 0.0065046
-0.00034337 0.00037781 -0.00027313 -0.00087548 0.00012729 -0.00060409 0.001614 0.00068925
-0.0087558 0.0064969 0.22445 0.23313
1640000000 0.29804 0.020601 -0.0017709 0.012406 -0.0025698 -0.0025252 0.0025078 0.0010218
-0.0007856 -0.0011125 -0.00032602 0.00065537
-0.0017818 0.012396 0.20557 0.27248 0.0055812 0.0037315 -0.00069785 -0.0016204
-0.00099838 -0.00051949 -0.00055286 -0.00062342
-0.0025824 -0.0025131 0.0056044 0.0036959 0.30322 -0.15787 -0.00087975 0.0012631
-0.00099788 -0.00095595 -1.7197e-05 -0.00027426
0.0025186 0.001009 -0.00070722 -0.0016126 -0.00088912 0.0012645 0.24869 0.052109
-0.0069962 0.0067919 0.0021447 -0.00056855
-0.00080077 -0.0011104 -0.0010086 -0.00051031 -0.00098799 -0.00096155 -0.0069661 0.0068055
0.20237 0.1404 -0.0045848 0.0085581
-0.00031572 0.00065344 -0.00054697 -0.00062314 -2.5437e-05 -0.00027093 0.0021522 -0.00056642
-0.0045893 0.0085673 0.24945 0.20113
1700000000 0.29045 -0.024918 0.0018031 0.0098364 -0.0033335 0.00011481 0.0028328 -0.001069
-0.0018335 -0.00048273 0.00060347 0.00052996
0.0017907 0.0098298 0.22364 0.24078 0.003774 0.00088621 -0.0013708 -0.00057919
-0.00084732 -1.7671e-05 -0.00089852 -0.00034817
-0.0033235 0.00013272 0.0037856 0.00086861 0.25926 -0.19768 0.00032873 0.0016609
-0.0016989 -0.00025783 -0.00056981 -0.00098351
0.0028466 -0.0010758 -0.0013705 -0.00057777 0.00033437 0.0016451 0.24525 0.0011059
-0.0049076 0.0076292 0.0011723 -0.0019836
-0.0018356 -0.00046443 -0.00084866 -1.2424e-05 -0.0017031 -0.00026189 -0.0049091 0.007653
0.22015 0.11899 -0.00030492 0.0089483
0.00060555 0.00052349 -0.0009024 -0.00033601 -0.00058748 -0.00097812 0.0011831 -0.0019935
-0.00030639 0.0089488 0.26501 0.16664
1760000000 0.2774 -0.073694 0.0043888 0.0066221 -0.0021705 0.00081265 0.0013713 -0.0031946
-0.0010225 0.00064923 0.00043984 -0.00050309
0.0043733 0.006629 0.24943 0.20068 0.0017493 -0.0008522 -0.0011199 0.00020742
-0.0011503 0.00092014 -0.00054953 0.00057087
-0.0021579 0.00083157 0.0017503 -0.00086552 0.21013 -0.23027 0.0011363 0.0013212
-0.0010788 0.0013988 -0.0013082 -0.00035527
0.0013671 -0.0032106 -0.0011101 0.00021602 0.0011389 0.001328 0.23491 -0.051362
-0.0022432 0.0073088 -0.0002916 -0.0019704
-0.0010208 0.00066367 -0.0011478 0.00093336 -0.0010675 0.0014038 -0.0021991 0.0073216
0.23506 0.082364 0.0034435 0.0066767
0.00044257 -0.00050157 -0.0005332 0.00057594 -0.0013099 -0.00036383 -0.00032356 -0.0019545
0.0034505 0.0066664 0.27666 0.1286
1820000000 0.25194 -0.11075 0.0047525 0.0030118 -2.094e-06 0.0023495 -0.00088232 -0.0031113
-0.00078109 0.0006251 5.7555e-05 -0.00017445
0.0047465 0.0030085 0.25905 0.17044 -0.00014476 0.00015857 -0.0013176 0.0008516
-0.00011653 0.0013913 -0.00045193 0.00055636
6.3075e-06 0.0023495 -0.00014388 0.00015525 0.16021 -0.24555 0.0016009 0.00041754
-0.00045984 0.0021572 -0.0013697 0.00057646
-0.00090075 -0.0030863 -0.0013185 0.00085811 0.0015912 0.00040061 0.20365 -0.098515
-0.00090859 0.0061909 -0.0015669 -0.0013613
-0.00077028 0.00062344 -0.00010274 0.0014002 -0.00046298 0.0021504 -0.00093369 0.0061737
0.25162 0.051231 0.0043384 0.0032596
5.5961e-05 -0.00018898 -0.00044835 0.00055875 -0.0013902 0.00058686 -0.0015244 -0.0013424
0.0043268 0.0032666 0.27815 0.092473
1880000000 0.21604 -0.15046 0.0027627 0.00056437 -0.00031031 0.0020428 -0.0028274 -0.0022363
-0.00022493 0.0014197 0.0003993 -0.00058263
0.002751 0.00055905 0.26317 0.12387 -0.0020137 0.0017523 -0.00016045 0.0017136
0.0007219 0.0014002 0.00021213 0.00093052
-0.00029492 0.0020416 -0.0019976 0.0017661 0.1082 -0.25479 0.0020099 -0.0010571
0.0014197 0.0020532 -0.00082683 0.0013683
-0.0028277 -0.0022384 -0.00014652 0.0017111 0.0020029 -0.0010521 0.16176 -0.13806
-0.00037042 0.0047624 -0.0021486 0.00081526
-0.00019997 0.0014105 0.00072633 0.0013925 0.0014192 0.0020405 -0.00029714 0.004786
0.25315 0.016446 0.0040606 0.0014786
0.0003985 -0.00058477 0.00022068 0.00093026 -0.00082488 0.0013767 -0.0021827 0.00081986
0.0040714 0.0014749 0.27705 0.057879
1940000000 0.17626 -0.17555 0.00057204 -0.0014328 0.0012961 0.0018555 -0.0037502 0.00049647
0.0010776 0.0010727 -0.00064075 -0.00074439
0.00056383 -0.0014335 0.26334 0.09205 -0.00095258 0.0038494 0.00098323 0.0013301
0.002033 0.00051073 0.00083072 0.00020125
0.0013057 0.0018504 -0.00093155 0.0038568 0.062229 -0.24839 0.00040121 -0.0023565
0.0024382 0.00058115 0.0003854 0.0015666
-0.0037582 0.00053305 0.001007 0.0013178 0.00042229 -0.002364 0.10873 -0.16714
-0.0013378 0.0040894 -0.0011124 0.0016569
0.001089 0.0010632 0.0020435 0.00048671 0.0024442 0.00058045 -0.0013639 0.0040774
0.25258 -0.024193 0.0030766 -0.0015897
-0.00065526 -0.00073603 0.00083034 0.00018928 0.00037553 0.0015644 -0.0010783 0.0016761
0.0030692 -0.0015882 0.26518 0.022007
2000000000 0.12988 -0.18925 -0.0034118 0.00038987 0.0024706 0.0014417 -0.0022996 0.0036525
0.0010111 0.00034093 -0.00066465 0.00035752
-0.0034083 0.0003898 0.24884 0.056616 -0.00070009 0.0055193 0.0016533 0.00032432
0.0014868 -0.0015285 0.000478 0.00013449
0.0024809 0.0014508 -0.00067153 0.0055265 0.019024 -0.23382 -0.0015396 -0.0013863
0.0021307 -0.0011987 0.0015455 0.0013106
-0.0022727 0.0036653 0.0016734 0.00033157 -0.0015603 -0.0013854 0.055685 -0.17549
-0.0026333 0.0045589 0.00024614 0.0021953
0.0010177 0.00032629 0.0014734 -0.0015514 0.0021312 -0.001188 -0.0025767 0.0046467
