!Keysight Technologies,M9804A,MY58100912,A.14.10.03
!Date: Thursday, April 27, 2023 10:28:33
!Correction: S11(C  6-Port  ) 
!S12(C  6-Port  ) 
!S13(C  6-Port  ) 
!S14(C  6-Port  ) 
!S15(C  6-Port  ) 
!S16(C  6-Port  ) 
!S21(C  6-Port  ) 
!S22(C  6-Port  ) 
!S23(C  6-Port  ) 
!S24(C  6-Port  ) 
!S25(C  6-Port  ) 
!S26(C  6-Port  ) 
!S31(C  6-Port  ) 
!S32(C  6-Port  ) 
!S33(C  6-Port  ) 
!S34(C  6-Port  ) 
!S35(C  6-Port  ) 
!S36(C  6-Port  ) 
!S41(C  6-Port  ) 
!S42(C  6-Port  ) 
!S43(C  6-Port  ) 
!S44(C  6-Port  ) 
!S45(C  6-Port  ) 
!S46(C  6-Port  ) 
!S51(C  6-Port  ) 
!S52(C  6-Port  ) 
!S53(C  6-Port  ) 
!S54(C  6-Port  ) 
!S55(C  6-Port  ) 
!S56(C  6-Port  ) 
!S61(C  6-Port  ) 
!S62(C  6-Port  ) 
!S63(C  6-Port  ) 
!S64(C  6-Port  ) 
!S65(C  6-Port  ) 
!S66(C  6-Port  ) 
!S6P File: Measurement: :
# Hz S  RI   R 50
500000000 -0.33641 -0.035226 -0.0093355 -0.0028016 -0.0076366 0.011707 -0.0028037 0.012242
0.011851 0.0049386 -0.0025171 0.0090315
-0.0094929 -0.0033754 -0.41835 -0.050112 0.0077037 -0.011901 0.002299 0.01174
0.0075828 0.0027618 0.0022475 0.013195
-0.0076501 0.011782 0.0076605 -0.011999 -0.2642 0.2105 0.0073467 0.0024692
-8.9533e-05 0.0086198 0.0013928 0.01137
-0.0029723 0.011473 0.0024517 0.011395 0.0073248 0.0024375 -0.32701 0.046875
-0.018792 -0.0040082 0.017397 0.02472
0.012007 0.0041738 0.0077894 0.0024779 -7.4514e-05 0.0085214 -0.018793 -0.0040045
-0.22565 -0.18521 -0.02628 0.0056853
-0.0030814 0.007822 0.0023047 0.012608 0.001369 0.011313 0.017378 0.024649
-0.026307 0.0057253 -0.27289 -0.11326
560000000 -0.31612 0.12503 -0.02339 -0.063369 0.00030745 0.012206 0.0071569 0.0091405
0.009929 0.0032378 0.0088566 0.0071345
-0.022918 -0.062564 -0.37554 0.10831 -0.042038 -0.037229 0.013474 0.0034109
-0.013798 -0.0051034 0.0033734 0.00016605
-5.1507e-05 0.012638 -0.04197 -0.036909 -0.18232 0.25824 -0.0007311 -0.0049157
0.018593 0.0043423 0.00719 -0.0059004
0.0074975 0.0098087 0.013731 0.0035634 -0.00072172 -0.0048858 -0.3022 0.13576
0.0041598 -0.025252 0.0045951 -0.020219
0.010968 0.0031611 -0.013392 -0.0047005 0.018676 0.004463 0.0041359 -0.025248
-0.28397 -0.0098329 0.0081469 -0.050654
0.010255 0.0064225 0.0037647 -0.0002722 0.0072493 -0.005848 0.0046324 -0.020187
0.0082045 -0.050671 -0.33101 0.032547
620000000 -0.2736 0.10878 -0.022957 0.0071327 0.0035191 0.0085877 0.007172 -0.0050466
0.011908 -0.0010796 0.000464 -0.0024398
-0.023184 0.0071636 -0.40231 0.062022 -0.018763 -0.00048886 -0.0010177 -0.001873
0.010161 -0.0073264 0.0010086 -0.0026806
0.0029742 0.0085351 -0.018825 -0.00050669 -0.15279 0.2668 -0.0012327 -0.0051897
-0.0041272 -0.0033666 0.008514 -0.0038128
0.0065218 -0.0056957 -0.001166 -0.0021039 -0.0012676 -0.0053259 -0.26131 0.14579
-0.038122 -0.019366 0.014492 0.023769
0.011357 -1.9402e-05 0.010162 -0.0070493 -0.0042619 -0.003327 -0.038115 -0.019281
-0.2042 -0.049598 -0.039403 0.01371
0.00036041 -0.0020561 0.00087331 -0.0027086 0.0084371 -0.0038731 0.014492 0.023764
-0.039414 0.013716 -0.24877 -0.0028322
680000000 -0.233 0.19344 -0.0279 -0.014005 0.0047781 0.0049948 0.0010625 -0.0080294
-0.003707 -0.011034 0.0039929 -0.0060883
-0.027863 -0.014199 -0.38718 0.15889 -0.033034 -0.0013406 -0.0018198 -0.00041522
-0.0028497 -0.0088571 -0.0013024 -0.0017567
0.0049584 0.0051436 -0.033033 -0.0011845 -0.10246 0.28683 -0.00092967 0.00024743
-0.0023259 0.0010534 -0.0029426 -0.0093212
0.0011262 -0.0078416 -0.0018559 -0.00022216 -0.00093124 0.00033947 -0.21985 0.19463
-0.023444 -0.0087036 -0.0092619 -0.010244
-0.0040528 -0.010832 -0.002969 -0.0089255 -0.0022927 0.0010532 -0.023457 -0.0087052
-0.25177 0.047115 -0.0058006 -0.0093243
0.0042125 -0.0058726 -0.0011768 -0.001697 -0.0028928 -0.009316 -0.0092755 -0.010308
-0.0058083 -0.0093317 -0.25811 0.099045
740000000 -0.18991 0.18845 -0.038754 0.026145 0.012594 -0.0051426 -0.00067956 -0.0042247
-0.0044373 -0.0030806 -0.0059713 0.0032486
-0.038765 0.025983 -0.33508 0.17756 -0.035058 0.035171 -0.00062428 -0.0062831
-0.011588 0.007532 -0.0025909 -0.0059694
0.012694 -0.0047892 -0.035062 0.035367 -0.069114 0.28609 -0.0013812 0.0034916
-0.0023447 -0.0037539 -0.0013774 0.00029127
-0.00098682 -0.0039975 -0.00069192 -0.0062847 -0.0014212 0.0034515 -0.20261 0.20219
-0.042997 -0.0083992 0.021688 0.01291
-0.0049038 -0.0028142 -0.01181 0.0077833 -0.0023567 -0.0037451 -0.043031 -0.0083389
-0.1576 0.072415 -0.041663 -7.9759e-05
-0.0063174 0.0038652 -0.0025299 -0.0058317 -0.001496 0.00029974 0.021688 0.012918
-0.041645 -0.00010213 -0.2461 0.10375
800000000 -0.15789 0.2282 -0.022867 0.017118 0.005008 -0.01027 -0.0051404 -0.0021027
-0.0040809 0.0030264 0.0038007 0.0012171
-0.022783 0.017142 -0.33793 0.2481 -0.0079689 0.03421 -0.0021784 0.0021689
-0.00059712 0.0034039 0.00089969 0.0053245
0.0050458 -0.010458 -0.0078396 0.034257 -0.027769 0.30946 0.0010401 0.0013919
0.00060626 0.0037051 -0.0020914 0.001184
-0.0050173 -0.0019033 -0.0021835 0.0022959 0.0010321 0.0014306 -0.17497 0.23001
-0.028694 0.012345 0.012248 -0.0099347
-0.0038599 0.0027765 -0.00048444 0.0034106 0.00062638 0.0036868 -0.028711 0.01237
-0.20177 0.095444 -0.017756 0.017378
0.0040944 0.00098215 0.0010158 0.0053057 -0.0020267 0.0012295 0.012239 -0.0099951
-0.017784 0.017333 -0.23884 0.15617
860000000 -0.12327 0.2493 -0.01737 0.031218 -0.0034715 -0.0097363 -0.0024302 0.0014538
0.0042953 0.0050437 -0.0029148 -0.0027163
-0.017475 0.031267 -0.28989 0.29031 0.0081728 0.034143 0.00039117 0.0021063
0.0045173 0.00017395 0.003125 0.00045552
-0.0035243 -0.0096242 0.0083375 0.03418 0.021077 0.31731 -0.00038295 -0.00029807
0.0028308 -0.0014594 0.0015862 0.0044827
-0.0023827 0.0012812 0.00023818 0.0021648 -0.00040738 -0.0003285 -0.13919 0.24234
-0.01837 0.019002 -0.0061226 -0.0087825
0.0045364 0.004842 0.0044681 8.4685e-05 0.0028242 -0.0014531 -0.018348 0.019064
-0.15189 0.14431 -0.024533 0.015567
-0.0031983 -0.002901 0.003234 0.00065156 0.0015557 0.00453 -0.006127 -0.0087372
-0.024529 0.01556 -0.18913 0.19726
920000000 -0.097691 0.27275 0.005114 0.037959 -0.0092915 -0.0040379 -0.0018665 0.0023856
0.0013481 0.0015614 0.0023182 -0.0013316
0.0050689 0.037927 -0.26072 0.31112 0.028058 0.021654 0.0015571 0.0010029
0.0066173 -0.00060974 0.0037285 -0.003012
-0.0094228 -0.0040433 0.028183 0.021599 0.067574 0.31747 0.0017272 -8.3599e-05
0.0012571 -0.00035733 0.00087217 -0.0009693
-0.0017264 0.002628 0.0015307 0.0010592 0.0017419 -7.7986e-05 -0.1147 0.25907
-0.010656 0.03029 0.0025012 -0.0060623
0.0013968 0.001525 0.0066409 -0.00073985 0.0012517 -0.00036722 -0.010631 0.030325
-0.14128 0.15026 -0.002368 0.027348
0.0025611 -0.0014508 0.0037493 -0.0030288 0.00090133 -0.00098419 0.0024902 -0.0060635
-0.0023889 0.027342 -0.19312 0.21245
980000000 -0.04971 0.2923 0.017937 0.030102 -0.0086619 0.0047831 0.0025639 0.0038568
0.0039302 -0.0019284 -0.0029262 -0.001978
0.017916 0.03 -0.20754 0.34507 0.032844 0.0045459 0.0019862 -1.1398e-05
0.0011384 -0.0062587 -0.00070838 -0.0021401
-0.008617 0.0047863 0.032899 0.0044393 0.11392 0.31045 0.00044966 -0.0012095
0.00014525 -0.0020985 0.001469 -1.9889e-05
0.0025911 0.0037255 0.0019787 8.562e-06 0.00042441 -0.0012261 -0.076299 0.27082
0.007309 0.029177 -0.0090746 -0.0066646
0.0040859 -0.0020541 0.0010833 -0.006275 0.00013968 -0.0021046 0.0073455 0.029185
-0.1102 0.17807 0.004868 0.018884
-0.0031234 -0.002008 -0.00068605 -0.0020872 0.0014589 1.4887e-05 -0.0090898 -0.0066062
0.0048625 0.018915 -0.15036 0.25639
1040000000 -0.0069698 0.30038 0.03343 0.01778 -0.00081532 0.0068324 0.0028122 0.00060128
-0.00011126 -0.0037153 -0.00055223 -0.0014713
0.033284 0.017736 -0.17187 0.35779 0.028989 -0.014842 0.0014901 -0.00181
-0.0025832 -0.0022991 -0.0014627 -0.0026001
-0.00081201 0.0068963 0.028959 -0.014973 0.16 0.29635 -0.00052232 -0.0014231
-0.0016507 -0.00082588 -0.00042067 -0.0012156
0.0028634 0.00075756 0.0015013 -0.0017606 -0.00053347 -0.0014183 -0.048387 0.28048
0.018294 0.017328 -0.0029814 0.002252
-5.9311e-06 -0.0036462 -0.002636 -0.0022061 -0.0016259 -0.00080189 0.018342 0.017295
-0.079788 0.18736 0.013142 0.017915
-0.00053468 -0.0014961 -0.0014409 -0.0026385 -0.00041442 -0.0012116 -0.0029719 0.0022268
0.013114 0.017901 -0.12801 0.27578
1100000000 0.039051 0.30744 0.035701 -0.0044594 0.0030878 0.0036093 0.0025835 -0.0014795
-0.0022671 -0.0029679 -0.0038219 -4.1494e-05
0.035688 -0.0044156 -0.12822 0.37471 0.014774 -0.027502 4.3566e-05 -0.0017766
-0.0030976 -0.00043746 -0.0032645 -0.00061124
0.0030908 0.0035749 0.014694 -0.027597 0.20603 0.27576 -0.0017497 0.00021253
-0.0016647 0.00058951 -0.00090816 -0.0003645
0.0026759 -0.0015671 2.0697e-05 -0.0017819 -0.0017703 0.00021893 -0.0076041 0.28563
0.022754 0.0053429 -0.0020229 0.0010696
-0.0023934 -0.0030523 -0.0030907 -0.00043577 -0.001676 0.00061413 0.022762 0.005322
-0.06069 0.20066 0.018642 0.0086504
-0.00375 -0.00015072 -0.0032545 -0.00053592 -0.00089706 -0.00034796 -0.0020415 0.0011056
0.018632 0.0086624 -0.081052 0.30338
1160000000 0.090388 0.30186 0.023725 -0.020787 0.0027851 -0.00066282 -0.00023467 -0.0026495
-0.0039079 -0.00036749 -0.0010234 0.0037413
0.023686 -0.020716 -0.084303 0.37841 -0.0038173 -0.028633 -0.0017596 -0.0016119
-0.0023289 0.0026217 -0.0012978 0.0015656
0.002799 -0.00066376 -0.0039285 -0.02861 0.24882 0.24488 -0.00062904 0.0016365
-0.00037269 0.0017237 -0.0010089 3.2282e-05
-0.00029958 -0.0025798 -0.0017377 -0.0016362 -0.00062383 0.0016444 0.031942 0.28218
0.019422 -0.0096042 -0.0026321 0.005589
-0.0039072 -0.0002626 -0.0024036 0.0026063 -0.00035576 0.001739 0.019431 -0.0096205
-0.027502 0.21017 0.017117 0.00049049
-0.00084639 0.0037516 -0.0013377 0.0015666 -0.00097364 4.2196e-05 -0.0026176 0.0055674
0.017114 0.00047139 -0.034315 0.30607
1220000000 0.13481 0.2898 0.010293 -0.029798 -0.001566 -0.0010253 -0.00022177 -0.0010096
-0.0025603 0.0025724 0.0012853 0.00183
0.010279 -0.029791 -0.04012 0.38987 -0.016628 -0.020714 -0.0024319 0.00048853
0.0001972 0.0027717 -0.00067711 0.0017218
-0.0015988 -0.0010312 -0.01674 -0.020658 0.2878 0.20586 0.00081852 0.0015063
0.00054039 0.0011434 0.00016201 0.0006836
-0.00021815 -0.0010552 -0.0024004 0.00051904 0.00082218 0.0015121 0.071443 0.27365
0.0094044 -0.015142 0.0029134 0.0015646
-0.0025844 0.0025349 0.00026896 0.0027275 0.00055733 0.0011409 0.0093812 -0.015164
-0.0034998 0.21926 0.013491 -0.011874
0.0012777 0.0018037 -0.00065648 0.0017059 0.00014554 0.00068988 0.002928 0.0015702
0.013485 -0.011866 -0.0022468 0.32095
1280000000 0.18425 0.26711 -0.007768 -0.028188 -0.0019133 0.0023411 -0.0010927 -0.0019389
-0.00048405 0.0029201 0.002452 0.00095529
-0.0077103 -0.028192 0.0054675 0.3805 -0.023147 -0.0083491 -0.00096293 0.0013762
0.0014933 0.001511 0.00053746 0.001905
-0.0018831 0.002332 -0.023211 -0.0082498 0.31848 0.16209 0.001241 -0.00016073
0.00096163 7.4679e-05 0.00026774 0.0004704
-0.001112 -0.0019122 -0.00094718 0.0013549 0.0012557 -0.00014617 0.10789 0.25737
0.0010171 -0.016945 0.00041695 -7.792e-05
-0.00047115 0.003005 0.0014766 0.0015216 0.00097493 7.6771e-05 0.00098984 -0.01695
0.033601 0.22314 0.002786 -0.014041
0.0025025 0.00097561 0.00050322 0.001892 0.00028859 0.00046948 0.00040948 -9.5678e-05
0.002794 -0.01404 0.045099 0.32121
1340000000 0.22073 0.23276 -0.017439 -0.018963 0.00068576 0.0042579 -0.001845 -0.00068152
0.0014603 0.0025796 0.001618 -0.0014621
-0.017418 -0.018934 0.044624 0.37203 -0.021131 0.0039866 -5.8866e-05 0.0018655
0.0016591 0.00068563 0.0012649 0.00084998
0.00071618 0.0042788 -0.021138 0.0040872 0.34087 0.11407 0.00088575 -0.00078204
0.00065546 -0.00037912 0.00018993 0.00031013
-0.0018376 -0.00065745 -2.2427e-05 0.0019112 0.00089116 -0.00078982 0.14057 0.23735
-0.0071831 -0.014281 0.0013176 -8.1225e-05
0.0014922 0.0024485 0.0016731 0.00062451 0.00063979 -0.00038176 -0.0072223 -0.014275
0.063938 0.21802 -0.0030376 -0.012618
0.0016408 -0.0015317 0.0012861 0.00083197 0.0001788 0.00028777 0.0013012 -7.565e-05
-0.0030453 -0.012606 0.083475 0.31551
1400000000 0.2532 0.19427 -0.023161 -0.0076584 0.0048433 0.0030188 -0.0019106 0.00067966
0.0024776 0.00061604 0.00010927 -0.0013244
-0.023124 -0.0077091 0.081431 0.35887 -0.014631 0.011884 0.0012992 0.0012726
0.0010037 -0.00070588 0.0011771 0.00022149
0.004855 0.0030401 -0.014584 0.011973 0.35403 0.060035 7.2e-05 -0.0013183
3.7865e-05 -0.00037593 0.00033842 0.00015431
-0.0019032 0.0007218 0.0012871 0.0012704 8.2498e-05 -0.001311 0.17028 0.20899
-0.012115 -0.0085857 -0.00066604 -0.00090185
0.0024531 0.00064105 0.00097862 -0.00068686 4.3974e-05 -0.00037183 -0.012148 -0.0085589
0.096989 0.21331 -0.0092599 -0.0081581
6.8965e-05 -0.0013092 0.0011776 0.00022886 0.00034959 0.00015421 -0.00067445 -0.00089268
-0.0092473 -0.0081592 0.12741 0.30395
1460000000 0.27548 0.1502 -0.020402 0.0043912 0.0052929 -0.0016356 -0.001547 0.0017749
0.0018059 -0.00063303 -0.00030845 -0.00087161
-0.020353 0.0043645 0.11544 0.33714 -0.0063534 0.014769 0.0016851 0.00022344
0.00090996 -0.0010122 0.0011345 -0.00062424
0.0053062 -0.0016541 -0.0063 0.014827 0.35989 0.0050088 -0.00097596 -0.0011676
0.00023019 -8.7733e-05 0.00063493 -0.00042432
-0.0015409 0.0017365 0.0016821 0.00020147 -0.00098542 -0.0011849 0.1972 0.18001
-0.013045 -0.0032149 -0.0011902 0.0014025
0.0018471 -0.00066784 0.00088991 -0.0010497 0.00024373 -9.636e-05 -0.01307 -0.0031943
0.12672 0.1982 -0.010832 -0.0028016
-0.00035109 -0.00086186 0.0011681 -0.00065139 0.00062991 -0.00041038 -0.0012084 0.0013922
-0.010842 -0.0027975 0.16045 0.28198
1520000000 0.28738 0.10862 -0.014929 0.010056 0.0031199 -0.003885 0.00021577 0.0025031
0.0017173 -0.0016038 -0.0011783 -0.00013502
-0.014943 0.010056 0.14884 0.32243 0.0011049 0.012901 0.0016041 -0.00077867
0.00015502 -0.0008987 0.00030136 -0.0010029
0.0030836 -0.0038984 0.0011812 0.012917 0.35248 -0.051347 -0.00095539 -0.00040118
0.00051267 -0.00081226 8.203e-05 -1.5044e-05
0.00019115 0.0025339 0.0015881 -0.00080496 -0.00093763 -0.00038712 0.22121 0.142
-0.012788 0.0014338 0.00092471 0.001619
0.0017352 -0.001624 0.00015002 -0.00090173 0.0005054 -0.00081219 -0.012792 0.001462
0.15464 0.18388 -0.010946 0.0011565
-0.0011532 -9.8231e-05 0.00028828 -0.00098188 8.0848e-05 -3.0909e-05 0.00093378 0.0016431
-0.01093 0.0011475 0.19314 0.26046
1580000000 0.29627 0.062189 -0.0084053 0.013257 -0.00082284 -0.0045321 0.0013278 0.0018104
-0.00047791 -0.00198 -0.00034354 0.00037686
-0.0083968 0.013256 0.17611 0.29764 0.0048128 0.0083583 0.00047865 -0.0015769
-0.00037152 -0.0010934 -0.00026622 -0.00087346
-0.00082792 -0.004547 0.0048535 0.008337 0.33175 -0.10892 -0.0014992 0.00037089
-0.00024273 -0.0011088 0.00013918 -0.00061009
0.0013412 0.0017591 0.00045319 -0.0015792 -0.0015194 0.00034379 0.236 0.10203
-0.010314 0.0056463 0.0016174 0.00070395
-0.00044814 -0.0020092 -0.00037337 -0.0010935 -0.00025231 -0.001126 -0.010302 0.0056773
0.17911 0.16544 -0.0087376 0.0064974
-0.00035073 0.00045458 -0.00026438 -0.00088669 0.00013588 -0.00059924 0.0016384 0.00067541
-0.0087318 0.0065053 0.22442 0.23312
1640000000 0.29812 0.020585 -0.0017731 0.012397 -0.0025813 -0.002542 0.0025107 0.0010322
-0.00079659 -0.0011098 -0.00031878 0.00065011
-0.0018039 0.012407 0.20555 0.2725 0.0055912 0.0037431 -0.00070684 -0.0016143
-0.00099613 -0.0005235 -0.00054527 -0.00063097
-0.002582 -0.0024978 0.0056199 0.0037118 0.30322 -0.15785 -0.00088993 0.001263
-0.00098114 -0.00095575 -2.6479e-05 -0.00027359
0.0025325 0.0010516 -0.00070718 -0.0016175 -0.00089356 0.0012711 0.24864 0.052084
-0.0069933 0.0067939 0.0021369 -0.00055772
-0.00080939 -0.0011057 -0.00099731 -0.00051948 -0.00099631 -0.00094221 -0.0069682 0.0068294
0.20234 0.14042 -0.0045885 0.0085861
-0.00028746 0.00057334 -0.00053042 -0.00062314 -2.7911e-05 -0.0002845 0.0021166 -0.00054478
-0.0045799 0.008577 0.24947 0.20109
1700000000 0.29033 -0.024912 0.0018207 0.0098372 -0.003323 0.00012209 0.0028433 -0.0010742
-0.0018397 -0.00047329 0.00059992 0.00052906
0.0018094 0.0098386 0.2236 0.2408 0.0037785 0.00088544 -0.0013559 -0.00058517
-0.00084175 -2.2615e-05 -0.00089643 -0.00034565
-0.0033075 9.4746e-05 0.0037824 0.00087697 0.25926 -0.19769 0.00031088 0.0016704
-0.0017079 -0.00026648 -0.0005644 -0.00097725
0.0028451 -0.0011882 -0.0013813 -0.00056033 0.00032208 0.0016562 0.24524 0.0011266
-0.0049262 0.0076407 0.0011818 -0.0019805
-0.0018116 -0.00045089 -0.00086838 -1.178e-05 -0.0017189 -0.00025177 -0.0049226 0.0076575
0.22014 0.119 -0.0002983 0.0089524
0.00063026 0.00052594 -0.00090572 -0.00036579 -0.00056926 -0.00096425 0.0012304 -0.0019894
-0.00028274 0.0089606 0.26504 0.16654
1760000000 0.27739 -0.073736 0.0043748 0.0066445 -0.0021648 0.00082424 0.0013609 -0.0031717
-0.0010306 0.00066604 0.00044729 -0.00049492
0.0043896 0.0066448 0.24942 0.2007 0.0017604 -0.00084467 -0.001128 0.00020652
-0.001157 0.00092587 -0.00053964 0.00057204
-0.0021406 0.00084034 0.0017512 -0.00085065 0.21013 -0.23027 0.0011601 0.0013166
-0.0010638 0.0014019 -0.0013183 -0.00033302
0.0013549 -0.0031535 -0.0011191 0.00020473 0.0011512 0.0013348 0.23496 -0.051413
-0.002203 0.0073156 -0.00030718 -0.0019658
-0.0010447 0.00070816 -0.0011471 0.00092002 -0.0010616 0.0013988 -0.0021937 0.0073398
0.23505 0.082391 0.0034325 0.0066678
0.00045704 -0.00056809 -0.00054621 0.00060027 -0.0013134 -0.00032108 -0.00039273 -0.0019527
0.0034258 0.0066665 0.27675 0.12837
1820000000 0.2519 -0.11069 0.0047648 0.0029973 -6.458e-07 0.0023516 -0.00087201 -0.0031226
-0.00077496 0.00062172 5.7385e-05 -0.00018597
0.0047581 0.0029836 0.25904 0.17045 -0.00014533 0.00014625 -0.0013209 0.00085407
-0.00010866 0.0013979 -0.00044751 0.00055403
1.8332e-05 0.0023628 -0.00014701 0.00014644 0.16023 -0.24554 0.0015703 0.00045634
-0.00046524 0.0021551 -0.0013602 0.00056815
-0.0008652 -0.0031134 -0.001331 0.00088685 0.0016107 0.00044755 0.20362 -0.09844
-0.00094879 0.0061807 -0.0015199 -0.0013459
-0.00079055 0.00061791 -0.00010637 0.0013988 -0.00044945 0.0021665 -0.00094173 0.0061771
0.25157 0.051239 0.0043694 0.0032653
4.0263e-05 -0.00014729 -0.00044498 0.00052175 -0.0013504 0.0005434 -0.001448 -0.0013322
0.0043749 0.0032643 0.27819 0.092205
1880000000 0.21599 -0.15049 0.0027544 0.0005664 -0.00031456 0.0020323 -0.0028261 -0.0022636
-0.00021464 0.0014037 0.0004009 -0.00058012
0.0027633 0.00055779 0.26316 0.12389 -0.0020162 0.0017481 -0.00017238 0.0017098
0.00072021 0.0013914 0.0002088 0.00092641
-0.000356 0.002071 -0.002013 0.0017723 0.10821 -0.25478 0.0020041 -0.0010447
0.0014075 0.002057 -0.00083271 0.0013734
-0.0028563 -0.0022392 -0.00017695 0.0016744 0.0020018 -0.001042 0.16183 -0.13802
-0.00031361 0.0048115 -0.0021593 0.00079911
-0.00020502 0.0014319 0.00074664 0.001367 0.0014222 0.0020545 -0.00030375 0.0048365
0.25318 0.016471 0.0040562 0.0014295
0.00036422 -0.00056296 0.00023824 0.00095522 -0.000828 0.001381 -0.0021909 0.00078641
0.0040463 0.0014231 0.27703 0.057834
1940000000 0.17616 -0.17549 0.00055181 -0.0014212 0.0013043 0.0018556 -0.0037361 0.0004918
0.0010772 0.0010721 -0.00064611 -0.00073561
0.00054305 -0.0014177 0.26335 0.092067 -0.00094965 0.0038585 0.00099113 0.001339
0.00204 0.00051474 0.00083172 0.00020215
0.0013038 0.0018402 -0.00092597 0.0038794 0.062234 -0.2484 0.0004086 -0.0023639
0.0024421 0.00057998 0.00036765 0.0015693
-0.0037214 0.00048281 0.001001 0.0013099 0.00040928 -0.0024074 0.10866 -0.16713
-0.0013597 0.0040632 -0.0010955 0.001671
0.0010662 0.0010079 0.0020441 0.00049139 0.002454 0.0005629 -0.001337 0.0040591
0.25255 -0.024179 0.0030809 -0.0015397
-0.00062779 -0.00069666 0.00083489 0.00019272 0.00036079 0.0015747 -0.0010398 0.0017604
0.0030877 -0.0015309 0.26518 0.022037
2000000000 0.12989 -0.18914 -0.0033797 0.00039441 0.0024742 0.0014519 -0.0023096 0.0036472
0.0010108 0.00033322 -0.00066242 0.00035795
-0.0033688 0.0003851 0.24884 0.056641 -0.00069698 0.0055259 0.0016542 0.00033737
0.0014812 -0.0015378 0.00048016 0.00012291
0.0024528 0.0014768 -0.00065246 0.0055339 0.019053 -0.23383 -0.0015252 -0.0013876
0.0021271 -0.0011657 0.0015396 0.0012909
-0.0022608 0.0035971 0.0016754 0.00029007 -0.0015447 -0.0014251 0.055744 -0.17544
-0.0025976 0.0046566 0.00022832 0.0021633
0.00098638 0.0003283 0.0014924 -0.001551 0.0021409 -0.0012184 -0.0025891 0.0046831
