!Keysight Technologies,M9804A,MY58100912,A.14.10.03
!Date: Thursday, April 27, 2023 10:28:33
!Correction: S11(C  6-Port  ) 
!S12(C  6-Port  ) 
!S13(C  6-Port  ) 
!S14(C  6-Port  ) 
!S15(C  6-Port  ) 
!S16(C  6-Port  ) 
!S21(C  6-Port  ) 
!S22(C  6-Port  ) 
!S23(C  6-Port  ) 
!S24(C  6-Port  ) 
!S25(C  6-Port  ) 
!S26(C  6-Port  ) 
!S31(C  6-Port  ) 
!S32(C  6-Port  ) 
!S33(C  6-Port  ) 
!S34(C  6-Port  ) 
!S35(C  6-Port  ) 
!S36(C  6-Port  ) 
!S41(C  6-Port  ) 
!S42(C  6-Port  ) 
!S43(C  6-Port  ) 
!S44(C  6-Port  ) 
!S45(C  6-Port  ) 
!S46(C  6-Port  ) 
!S51(C  6-Port  ) 
!S52(C  6-Port  ) 
!S53(C  6-Port  ) 
!S54(C  6-Port  ) 
!S55(C  6-Port  ) 
!S56(C  6-Port  ) 
!S61(C  6-Port  ) 
!S62(C  6-Port  ) 
!S63(C  6-Port  ) 
!S64(C  6-Port  ) 
!S65(C  6-Port  ) 
!S66(C  6-Port  ) 
!S6P File: Measurement: :
# Hz S  RI   R 50
500000000 -0.33699 -0.034778 -0.0097749 -0.0035561 -0.0078365 0.011837 -0.003516 0.011733
0.012474 0.0046591 -0.0035454 0.0083379
-0.0097599 -0.0035554 -0.41941 -0.04937 0.0073708 -0.011388 0.0015336 0.011742
0.007244 0.0024527 0.0011467 0.012826
-0.0078115 0.011862 0.0073556 -0.01141 -0.26493 0.21141 0.0068769 0.0029684
-0.00029978 0.0087322 0.00090433 0.011592
-0.0034957 0.01174 0.0015518 0.011763 0.0068832 0.0029673 -0.32713 0.047438
-0.019799 -0.004156 0.017815 0.025128
0.012495 0.0046306 0.0072574 0.0024446 -0.00029617 0.008731 -0.01979 -0.0041465
-0.22672 -0.18448 -0.02738 0.0051948
-0.003518 0.0083332 0.0011782 0.012828 0.00090577 0.01158 0.017816 0.025111
-0.027378 0.0051954 -0.27251 -0.11199
560000000 -0.31566 0.12496 -0.023865 -0.063054 0.00019148 0.012222 0.0061404 0.0096202
0.010431 0.0039854 0.009663 0.0071758
-0.023804 -0.062988 -0.37713 0.10962 -0.041949 -0.037051 0.013623 0.0039612
-0.013117 -0.0048468 0.0041279 -0.00063551
0.00022455 0.012235 -0.042091 -0.036995 -0.1826 0.25954 -0.00073603 -0.0050222
0.018986 0.0045271 0.0071291 -0.0058622
0.0061675 0.0096262 0.013649 0.0039221 -0.00072051 -0.0050259 -0.3024 0.13606
0.003707 -0.02458 0.0047371 -0.019513
0.010448 0.0039597 -0.013144 -0.0048156 0.018993 0.0045246 0.0036877 -0.024571
-0.2857 -0.0095962 0.0077196 -0.04949
0.009684 0.0071735 0.0041278 -0.00067817 0.007136 -0.0058384 0.0047297 -0.019509
0.0077493 -0.04951 -0.33039 0.033755
620000000 -0.27301 0.11025 -0.023126 0.0074053 0.003673 0.0084396 0.0067233 -0.0057597
0.011684 -0.00074721 0.00051673 -0.0022673
-0.023097 0.0074009 -0.40247 0.062671 -0.018867 -0.00017798 -0.0012499 -0.0019144
0.010295 -0.0071611 0.0010896 -0.002788
0.0037103 0.0084303 -0.01889 -0.00012723 -0.15271 0.268 -0.001327 -0.005067
-0.0040025 -0.0032734 0.0079381 -0.0036088
0.0067376 -0.0057824 -0.0012463 -0.0019207 -0.0013273 -0.0050742 -0.26165 0.14618
-0.038416 -0.018671 0.014465 0.023672
0.011682 -0.00075204 0.010288 -0.0071931 -0.0039856 -0.0032653 -0.038423 -0.018653
-0.20517 -0.049349 -0.040031 0.014455
0.00051941 -0.0022733 0.0010698 -0.0027961 0.0079185 -0.0036173 0.014472 0.023659
-0.040052 0.014435 -0.24965 -0.001975
680000000 -0.23273 0.19378 -0.028005 -0.013726 0.0047178 0.0049782 0.0011362 -0.0074686
-0.0031555 -0.011063 0.0044051 -0.0067174
-0.027974 -0.013723 -0.38716 0.15975 -0.032743 -0.0012843 -0.0017078 -0.0002205
-0.002541 -0.0089765 -0.0011019 -0.0019975
0.0047298 0.0049632 -0.032769 -0.0012003 -0.10173 0.28762 -0.00083497 0.00016091
-0.0021126 0.0005606 -0.0029467 -0.0093381
0.0011273 -0.0074939 -0.0017123 -0.00021743 -0.00082843 0.00015261 -0.21927 0.19565
-0.023474 -0.0080726 -0.0087265 -0.010508
-0.0031851 -0.011048 -0.0025844 -0.008988 -0.0021155 0.00056242 -0.023495 -0.008056
-0.25241 0.048642 -0.0058808 -0.0091212
0.004389 -0.0067351 -0.0011189 -0.0019972 -0.0029433 -0.0093458 -0.0087389 -0.010502
-0.0058776 -0.0091218 -0.25862 0.10003
740000000 -0.18919 0.18837 -0.038384 0.026686 0.012423 -0.0053091 -0.00053645 -0.0038681
-0.0043266 -0.0031872 -0.0064658 0.003822
-0.03837 0.026631 -0.33471 0.17839 -0.034835 0.035046 -0.00086518 -0.0063006
-0.011601 0.0084089 -0.0027583 -0.0063724
0.012414 -0.0053247 -0.034766 0.035186 -0.067932 0.28635 -0.001626 0.0032826
-0.0029116 -0.0040044 -0.0012191 0.00023803
-0.00055735 -0.0038956 -0.0008797 -0.0063043 -0.0016249 0.0032867 -0.20198 0.2031
-0.042538 -0.0077791 0.02171 0.013101
-0.0043124 -0.0031557 -0.011586 0.0084681 -0.0028976 -0.0039917 -0.042577 -0.0077386
-0.15663 0.073258 -0.042004 0.00047067
-0.0064758 0.0038344 -0.002778 -0.0063655 -0.0012126 0.00023578 0.021721 0.013073
-0.041989 0.00043556 -0.24608 0.10567
800000000 -0.15704 0.22883 -0.022418 0.017302 0.005149 -0.010502 -0.0047665 -0.0020181
-0.0039249 0.0025515 0.0042814 0.0009628
-0.022415 0.017271 -0.33728 0.24852 -0.007675 0.033944 -0.0021375 0.0022887
-0.0006293 0.0034117 0.0011358 0.0052681
0.0051265 -0.010514 -0.0075831 0.034004 -0.026877 0.30924 0.001141 0.0015387
0.00070151 0.0035612 -0.0017357 0.0010884
-0.0047638 -0.0020178 -0.0021332 0.0022925 0.0011397 0.0015548 -0.17408 0.23071
-0.028234 0.012623 0.012945 -0.0097666
-0.0039138 0.0025633 -0.00060537 0.0034289 0.00070695 0.0035635 -0.028229 0.012684
-0.20054 0.096869 -0.017331 0.01714
0.0042914 0.00096402 0.0011538 0.0052605 -0.0017343 0.0010873 0.012947 -0.0097905
-0.017338 0.017117 -0.23768 0.15728
860000000 -0.12225 0.24958 -0.016972 0.031076 -0.0034213 -0.009772 -0.0025634 0.0012214
0.0042022 0.0050352 -0.002962 -0.0025753
-0.016965 0.031049 -0.28927 0.29054 0.0082342 0.033967 0.00012206 0.0021056
0.0044848 0.00028549 0.00334 0.00059785
-0.0034429 -0.0097629 0.0083412 0.033974 0.021576 0.31688 -0.00039121 -0.00023048
0.0029117 -0.0015149 0.0015393 0.0043721
-0.0025602 0.0012265 0.00012901 0.0021031 -0.00038985 -0.00023195 -0.13834 0.2424
-0.017796 0.018734 -0.0059758 -0.008702
0.0042136 0.00503 0.0044937 0.00026598 0.0029214 -0.0015215 -0.017784 0.01878
-0.15096 0.14555 -0.024186 0.014957
-0.0029621 -0.002575 0.0033428 0.00058025 0.0015441 0.004371 -0.0059923 -0.0086977
-0.024189 0.014941 -0.18757 0.1989
920000000 -0.096894 0.27265 0.0054033 0.037716 -0.009307 -0.0041989 -0.0018503 0.0023334
0.0012024 0.00149 0.0024619 -0.0016214
0.0053821 0.03768 -0.26031 0.31127 0.027978 0.021482 0.0015584 0.0010966
0.0067767 -0.00071224 0.0039411 -0.0030158
-0.0093172 -0.004175 0.028069 0.021419 0.067807 0.31712 0.0017521 -0.00014565
0.001185 -0.00050984 0.00082886 -0.0010773
-0.0018379 0.0023453 0.0015533 0.00108 0.0017555 -0.00014515 -0.11409 0.25877
-0.010294 0.029901 0.002632 -0.0065546
0.0012004 0.0014798 0.0068 -0.00074543 0.001179 -0.00049518 -0.010249 0.029929
-0.14058 0.15109 -0.0022179 0.027105
0.0024651 -0.0016303 0.0039329 -0.0030367 0.00082379 -0.0010799 0.0026228 -0.0065653
-0.002233 0.027088 -0.19238 0.21311
980000000 -0.049238 0.29202 0.018025 0.02966 -0.00874 0.0046182 0.0024031 0.0037671
0.0039455 -0.0017456 -0.0029978 -0.0021178
0.017998 0.029639 -0.20729 0.34488 0.032705 0.0044339 0.0019891 1.0235e-05
0.0010859 -0.0062192 -0.00055975 -0.0021074
-0.0087201 0.004656 0.032736 0.0043294 0.11399 0.31016 0.00043809 -0.0011962
6.2504e-05 -0.0021366 0.0014936 -3.5208e-05
0.0024164 0.0037794 0.0019881 -2.0017e-05 0.00044341 -0.0011944 -0.075954 0.27025
0.0073833 0.02844 -0.0091158 -0.0066216
0.0039294 -0.001768 0.0010804 -0.0062168 5.2532e-05 -0.0021228 0.0074397 0.028433
-0.10902 0.17833 0.0045712 0.018547
-0.0030081 -0.0021024 -0.00058716 -0.0021201 0.0014931 -2.7864e-05 -0.0091265 -0.0066094
0.0045613 0.018543 -0.14924 0.25719
1040000000 -0.0064712 0.29996 0.03332 0.017489 -0.0011016 0.0067474 0.002792 0.00067351
-3.603e-05 -0.0037634 -0.00055289 -0.0015118
0.033287 0.017485 -0.17162 0.3578 0.028865 -0.014929 0.001508 -0.0016702
-0.0026767 -0.0024244 -0.0014255 -0.0025937
-0.0010603 0.0067474 0.028825 -0.01503 0.16 0.29617 -0.00051685 -0.0013949
-0.001599 -0.00077601 -0.00044973 -0.0011359
0.0028039 0.00067733 0.0014854 -0.0016862 -0.0005149 -0.0013958 -0.048316 0.28026
0.018176 0.016988 -0.0030427 0.0020634
-5.7764e-05 -0.0037612 -0.002663 -0.0024068 -0.0016145 -0.00076776 0.018212 0.016963
-0.078305 0.1871 0.013123 0.01758
-0.0005451 -0.0014942 -0.0014568 -0.0025946 -0.00044907 -0.0011403 -0.003037 0.0020685
0.013102 0.017582 -0.12732 0.27613
1100000000 0.039022 0.30699 0.035498 -0.0048297 0.0028514 0.003664 0.0025995 -0.0014223
-0.0021282 -0.0030139 -0.0038929 0.00011767
0.035467 -0.0048011 -0.12812 0.3745 0.014698 -0.02754 3.4965e-05 -0.0017853
-0.0031602 -0.00042399 -0.0032959 -0.00045399
0.0028772 0.0036521 0.014604 -0.027609 0.20604 0.27561 -0.001765 0.00024001
-0.0017299 0.00070584 -0.00091448 -0.00030005
0.0025997 -0.0014272 2.5779e-05 -0.0017965 -0.0017598 0.00023803 -0.0077774 0.28516
0.022536 0.0048888 -0.0023732 0.00094404
-0.0021479 -0.0030115 -0.0031598 -0.00040073 -0.0017305 0.00071738 0.022553 0.0048403
-0.060005 0.20016 0.018355 0.008334
-0.0039005 0.00014802 -0.003317 -0.00044443 -0.00091386 -0.0002982 -0.0023672 0.00094991
0.018349 0.0083358 -0.080599 0.30359
1160000000 0.090557 0.30164 0.023464 -0.020914 0.0025828 -0.00048671 -0.00015157 -0.0025578
-0.0040238 -0.00049159 -0.00093984 0.0038119
0.023457 -0.020883 -0.084319 0.37848 -0.0038945 -0.028635 -0.0017608 -0.0016274
-0.002441 0.0026457 -0.0011709 0.0015763
0.0025964 -0.00050589 -0.0040263 -0.028629 0.2489 0.24472 -0.00061675 0.0017113
-0.00033936 0.0018525 -0.00089515 8.9959e-05
-0.00016721 -0.0025456 -0.0017788 -0.0016394 -0.0006283 0.0017116 0.031597 0.28216
0.019077 -0.0096543 -0.00262 0.0055758
-0.0040347 -0.00047668 -0.00241 0.0026657 -0.00034185 0.0018524 0.019066 -0.0096886
-0.026705 0.20941 0.016964 0.00072109
-0.00092127 0.0038247 -0.0011828 0.0015801 -0.0008996 9.6081e-05 -0.0026117 0.0055892
0.016965 0.00072211 -0.033404 0.30577
1220000000 0.13492 0.28983 0.0098286 -0.029832 -0.0015599 -0.00074413 -0.00010922 -0.0011712
-0.0024983 0.002533 0.0013646 0.0018644
0.0098384 -0.029804 -0.040132 0.38998 -0.016696 -0.020661 -0.0024844 0.00043337
0.00025456 0.0028517 -0.00065674 0.0017516
-0.0015592 -0.00074086 -0.016808 -0.020607 0.28789 0.20579 0.00086556 0.0015495
0.00058102 0.0011119 0.00025345 0.00064866
-0.00011221 -0.0011714 -0.0024795 0.00044349 0.00086189 0.0015493 0.071239 0.27374
0.0091052 -0.01525 0.002699 0.0017183
-0.0024934 0.0025418 0.00026697 0.002864 0.00057701 0.0011063 0.0090928 -0.015275
-0.0034959 0.21881 0.013271 -0.011866
0.0013671 0.0018636 -0.00065124 0.001758 0.00025043 0.0006541 0.0026961 0.0017172
0.013266 -0.011865 -0.0015049 0.32105
1280000000 0.18423 0.26717 -0.0082179 -0.027978 -0.0017469 0.0025824 -0.0011264 -0.0020088
-0.00061151 0.002987 0.0024593 0.00096435
-0.0081822 -0.027956 0.0055538 0.38067 -0.023279 -0.0082927 -0.00099371 0.0014701
0.0016405 0.0015713 0.00048672 0.0018706
-0.0017483 0.0025778 -0.023335 -0.0081859 0.31847 0.16193 0.0013643 -0.00016134
0.00097103 -3.2485e-06 0.00030077 0.00030122
-0.0011326 -0.0019994 -0.0009897 0.0014724 0.0013678 -0.00015553 0.10772 0.25764
0.0004861 -0.016871 0.00052586 9.873e-05
-0.00059725 0.0029953 0.0016479 0.0015675 0.00097392 -8.0075e-07 0.00045078 -0.016873
0.033311 0.22256 0.0029027 -0.013809
0.0024763 0.00095731 0.0004992 0.0018807 0.00030456 0.00030347 0.000527 9.6994e-05
0.0029096 -0.013811 0.045674 0.32096
1340000000 0.22105 0.23294 -0.017686 -0.018473 0.00094526 0.0043612 -0.0019153 -0.0007655
0.0014937 0.0025903 0.0016528 -0.0014506
-0.017653 -0.018466 0.044837 0.37221 -0.021206 0.0041329 -5.1779e-05 0.0019573
0.0017385 0.00062295 0.0012984 0.00089917
0.00096048 0.0043501 -0.021206 0.0042397 0.34077 0.11388 0.00094395 -0.00086091
0.00057743 -0.00040181 0.00014035 0.00023925
-0.001913 -0.00075642 -4.457e-05 0.0019564 0.00095131 -0.00086136 0.14072 0.23757
-0.0075904 -0.014015 0.0013197 4.454e-05
0.0015176 0.002587 0.0017457 0.00060543 0.00057151 -0.00040876 -0.0076182 -0.01401
0.063703 0.21816 -0.0031147 -0.012612
0.0016462 -0.0014614 0.0013068 0.00088999 0.00013999 0.00024177 0.0013115 4.2355e-05
-0.0031017 -0.012605 0.08408 0.31533
1400000000 0.25353 0.1944 -0.023121 -0.0071156 0.0050404 0.0029721 -0.002 0.00075352
0.0025042 0.0007051 0.00016216 -0.0013099
-0.02309 -0.0071236 0.08169 0.35904 -0.014612 0.0121 0.0013457 0.001281
0.00098884 -0.00081157 0.0011364 0.0002508
0.005062 0.0029504 -0.014577 0.01218 0.35386 0.06007 7.676e-05 -0.0014176
2.1321e-05 -0.00037632 0.00025958 0.00014954
-0.0020026 0.00076712 0.0013592 0.0012789 7.7759e-05 -0.0014207 0.17057 0.2091
-0.012393 -0.008069 -0.00052303 -0.00087529
0.0025045 0.00068748 0.00098423 -0.00082662 1.3494e-05 -0.00037657 -0.012414 -0.0080403
0.096766 0.21348 -0.009219 -0.0081641
0.00016351 -0.0013115 0.0011414 0.00022834 0.00025806 0.0001532 -0.00052068 -0.00087782
-0.0092079 -0.0081685 0.12796 0.3036
1460000000 0.27609 0.15017 -0.020053 0.004803 0.0054129 -0.0017706 -0.0015083 0.0017799
0.0019132 -0.00074068 -0.00037996 -0.00086781
-0.020054 0.0047856 0.11576 0.33724 -0.0062078 0.014934 0.0016744 0.00016202
0.00080288 -0.0011108 0.0011834 -0.00057252
0.0054066 -0.0017773 -0.0061499 0.014977 0.35977 0.0051592 -0.0010728 -0.0011649
0.00024161 -5.2049e-05 0.00065634 -0.00040016
-0.0015086 0.0017933 0.0016805 0.0001551 -0.0010708 -0.0011635 0.19755 0.18004
-0.012957 -0.0025811 -0.001045 0.0014063
0.0019094 -0.00074768 0.00079369 -0.0011277 0.00023949 -5.8397e-05 -0.012962 -0.0025554
0.12679 0.19888 -0.010846 -0.0028862
-0.00038453 -0.00086201 0.001184 -0.00059211 0.00065795 -0.00040022 -0.0010505 0.0014092
-0.010849 -0.0028945 0.1611 0.28169
1520000000 0.28796 0.10827 -0.014422 0.010253 0.0030548 -0.0040859 0.00019558 0.0025633
0.0017287 -0.0016939 -0.0011388 -0.00013084
-0.01442 0.01024 0.14919 0.3224 0.0012759 0.012923 0.0015966 -0.00080373
7.4782e-05 -0.00086687 0.00033619 -0.0010078
0.0030428 -0.0040979 0.0013423 0.012928 0.35257 -0.051203 -0.00092639 -0.00038931
0.00055703 -0.00079019 -3.324e-05 -5.3487e-05
0.0002083 0.0025702 0.0015929 -0.00080935 -0.00092319 -0.00039125 0.22143 0.14175
-0.012403 0.0018874 0.00094285 0.0017101
0.0017261 -0.0017048 7.3685e-05 -0.00086873 0.00055179 -0.00079619 -0.012399 0.0019311
0.1551 0.18433 -0.01096 0.0011477
-0.0011385 -0.00012258 0.00033198 -0.0010103 -3.3922e-05 -5.5218e-05 0.00095288 0.0017119
-0.010962 0.0011473 0.19367 0.26031
1580000000 0.29687 0.061647 -0.0079033 0.013149 -0.00087744 -0.0047196 0.0013801 0.0018059
-0.00051837 -0.0020594 -0.00035721 0.00040021
-0.0079103 0.013137 0.17643 0.29759 0.0049524 0.0082919 0.0004254 -0.0015587
-0.00038641 -0.00099709 -0.00024503 -0.00086805
-0.0008972 -0.0047156 0.0050052 0.0082744 0.33196 -0.10878 -0.0014882 0.00041475
-0.00023586 -0.0011232 0.00014135 -0.00055008
0.0013837 0.0017949 0.00041926 -0.0015631 -0.0014895 0.00040761 0.23613 0.10185
-0.0097279 0.0058179 0.0017753 0.00064271
-0.00054616 -0.0020588 -0.00039561 -0.00098956 -0.00023501 -0.0011257 -0.0097219 0.0058566
0.17983 0.16593 -0.0087976 0.006456
-0.0003557 0.00040516 -0.00025537 -0.00086877 0.00014098 -0.00054695 0.0017735 0.00064009
-0.0087894 0.0064608 0.2248 0.23283
1640000000 0.2984 0.019862 -0.001415 0.012067 -0.0027135 -0.0025483 0.0025612 0.0009707
-0.00081434 -0.001101 -0.00031266 0.00065964
-0.0014215 0.012069 0.20585 0.27235 0.0056689 0.0036326 -0.00071569 -0.001644
-0.00091591 -0.00048888 -0.00054298 -0.00065896
-0.0027168 -0.0025442 0.0056985 0.0036045 0.3035 -0.15779 -0.00085933 0.0013034
-0.0010609 -0.00089156 -8.7611e-05 -0.00030471
0.0025642 0.00095642 -0.00072881 -0.0016425 -0.00086032 0.0013086 0.24874 0.051936
-0.0064191 0.0067048 0.0021416 -0.00062399
-0.00082436 -0.0011037 -0.00092245 -0.00047976 -0.001064 -0.00089285 -0.0064066 0.0067207
0.20318 0.14048 -0.0046134 0.0086199
-0.0003059 0.00066157 -0.00055093 -0.00065269 -9.0434e-05 -0.00030127 0.0021431 -0.00062586
-0.0046032 0.008622 0.24993 0.20088
1700000000 0.29037 -0.025727 0.001942 0.0093925 -0.0034165 0.00011204 0.0029154 -0.0011127
-0.0018163 -0.00041752 0.0006269 0.00040235
0.0019365 0.0093846 0.22389 0.24067 0.0038456 0.00081126 -0.0013848 -0.00055024
-0.00079896 -5.3225e-05 -0.00092021 -0.00043832
-0.0034183 0.00012705 0.003853 0.00078289 0.25945 -0.19778 0.00032616 0.0015947
-0.0017609 -0.0002767 -0.00054231 -0.0009388
0.0029097 -0.0011269 -0.0013847 -0.00055459 0.0003219 0.0015929 0.24524 0.0009694
-0.0045572 0.007253 0.001277 -0.0019806
-0.0018226 -0.00040653 -0.00080221 -5.0193e-05 -0.0017599 -0.00027347 -0.0045465 0.0072711
0.22091 0.11885 -0.00028818 0.0090367
0.00063385 0.00039612 -0.00092255 -0.00043369 -0.00054673 -0.00093896 0.0012737 -0.001989
-0.00028734 0.0090396 0.26539 0.16609
1760000000 0.27717 -0.074285 0.0042671 0.0062199 -0.0022276 0.00086248 0.0013297 -0.0032879
-0.0010248 0.00063284 0.00040035 -0.00052332
0.0042537 0.006211 0.24968 0.20054 0.0017368 -0.00094991 -0.001105 0.00020215
-0.0011727 0.00084361 -0.00062635 0.00052879
-0.002231 0.00087428 0.0017318 -0.0009614 0.21029 -0.23052 0.0010748 0.0012882
-0.00116 0.0013229 -0.0012928 -0.00046624
0.0013109 -0.0032922 -0.0011053 0.00020921 0.0010698 0.0012831 0.23507 -0.051377
-0.0020457 0.0068895 -0.00037621 -0.0021548
-0.0010245 0.00064362 -0.0011654 0.00085521 -0.0011597 0.0013226 -0.002031 0.006904
0.2357 0.082147 0.0034667 0.0066658
0.00039614 -0.00053087 -0.00061945 0.00053383 -0.0013001 -0.00047154 -0.0003802 -0.0021499
0.0034706 0.0066689 0.27713 0.12807
1820000000 0.25158 -0.11123 0.0044936 0.0027252 -4.0541e-05 0.0024083 -0.00092542 -0.0030796
-0.00080963 0.00061246 2.8426e-05 -0.00015839
0.0044978 0.0027164 0.25933 0.17025 -0.00015128 7.8754e-06 -0.0013471 0.00086288
-0.0001616 0.0013894 -0.00050759 0.00056696
-3.2115e-05 0.0023977 -0.00015189 4.0458e-06 0.16042 -0.24591 0.0015285 0.0004455
-0.00041114 0.0021632 -0.0014478 0.00051941
-0.00094294 -0.0030707 -0.0013373 0.00086801 0.0015251 0.00044394 0.20371 -0.09877
-0.00096787 0.0056809 -0.0015964 -0.0013386
-0.00081037 0.0006138 -0.00014796 0.0013855 -0.00040769 0.0021729 -0.00095048 0.0056866
0.25209 0.050731 0.0044449 0.0033689
2.8029e-05 -0.00015838 -0.00050683 0.00057725 -0.0014503 0.00052494 -0.0015967 -0.0013293
0.0044385 0.0033696 0.27853 0.091662
1880000000 0.21559 -0.15076 0.0024036 0.0004294 -0.00039751 0.0020812 -0.002832 -0.0022589
-0.00025906 0.001338 0.00035454 -0.00053754
0.0024075 0.00042386 0.26345 0.1236 -0.0021032 0.0015587 -0.00016418 0.0016848
0.00065521 0.0014093 0.00027016 0.0010213
-0.00038487 0.0020877 -0.0021031 0.0015744 0.10841 -0.25534 0.0020031 -0.00092351
0.0013997 0.0020844 -0.00083798 0.0014011
-0.0028336 -0.0022396 -0.00016679 0.0016866 0.0020087 -0.00092305 0.16181 -0.1381
-0.0006523 0.0045264 -0.0022713 0.00071639
-0.00025071 0.0013496 0.00065984 0.0014 0.0014008 0.0020721 -0.00064404 0.0045267
0.25359 0.016137 0.0041525 0.001466
0.00035012 -0.00053785 0.00027127 0.00102 -0.00082602 0.0014045 -0.0022707 0.00071829
0.0041494 0.0014666 0.27721 0.057554
1940000000 0.17577 -0.1756 0.00016767 -0.0013572 0.0013393 0.0019488 -0.003754 0.00052283
0.0010741 0.001135 -0.00059133 -0.00063154
0.00016754 -0.0013529 0.26352 0.091689 -0.0011153 0.0037552 0.0009593 0.0013546
0.0020127 0.00061149 0.00090531 0.00023736
0.0013533 0.0019473 -0.0010956 0.0037734 0.062126 -0.24891 0.00038737 -0.0023532
0.0024669 0.00054852 0.00048892 0.0016351
-0.0037493 0.00054518 0.00096409 0.0013434 0.00038279 -0.0023563 0.10859 -0.16729
-0.0017879 0.0038583 -0.0012179 0.0017032
0.0010881 0.0011259 0.0020206 0.00059021 0.0024739 0.00055177 -0.0017662 0.0038613
0.25296 -0.024753 0.0030919 -0.0016181
-0.00059702 -0.00062743 0.00090836 0.00023398 0.00047945 0.0016297 -0.0012271 0.0017101
0.0030867 -0.0016166 0.26533 0.021504
2000000000 0.12946 -0.18907 -0.0037266 0.00060607 0.0024512 0.001566 -0.0022959 0.0036213
0.00096164 0.00042607 -0.0007301 0.00040192
-0.0037339 0.00060587 0.24893 0.05628 -0.00096029 0.0056133 0.0017002 0.00033039
0.0015246 -0.0014239 0.00051497 4.047e-05
0.0024459 0.0015537 -0.00092837 0.0056266 0.018603 -0.23424 -0.0014628 -0.0015008
0.0020886 -0.0012117 0.0016336 0.0012126
-0.0022695 0.0036398 0.0017106 0.00032444 -0.0014617 -0.0014963 0.055449 -0.1756
-0.0030898 0.0045969 0.00015588 0.002137
0.00097317 0.00040938 0.001518 -0.0014366 0.0020879 -0.0012173 -0.0030796 0.0046088
