!Keysight Technologies,M9804A,MY58100912,A.14.10.03
!Date: Thursday, April 27, 2023 10:28:33
!Correction: S11(C  6-Port  ) 
!S12(C  6-Port  ) 
!S13(C  6-Port  ) 
!S14(C  6-Port  ) 
!S15(C  6-Port  ) 
!S16(C  6-Port  ) 
!S21(C  6-Port  ) 
!S22(C  6-Port  ) 
!S23(C  6-Port  ) 
!S24(C  6-Port  ) 
!S25(C  6-Port  ) 
!S26(C  6-Port  ) 
!S31(C  6-Port  ) 
!S32(C  6-Port  ) 
!S33(C  6-Port  ) 
!S34(C  6-Port  ) 
!S35(C  6-Port  ) 
!S36(C  6-Port  ) 
!S41(C  6-Port  ) 
!S42(C  6-Port  ) 
!S43(C  6-Port  ) 
!S44(C  6-Port  ) 
!S45(C  6-Port  ) 
!S46(C  6-Port  ) 
!S51(C  6-Port  ) 
!S52(C  6-Port  ) 
!S53(C  6-Port  ) 
!S54(C  6-Port  ) 
!S55(C  6-Port  ) 
!S56(C  6-Port  ) 
!S61(C  6-Port  ) 
!S62(C  6-Port  ) 
!S63(C  6-Port  ) 
!S64(C  6-Port  ) 
!S65(C  6-Port  ) 
!S66(C  6-Port  ) 
!S6P File: Measurement: :
# Hz S  RI   R 50
500000000 -0.33673 -0.034866 -0.0094274 -0.0033197 -0.0075821 0.011559 -0.0032627 0.011681
0.012241 0.0042995 -0.0032676 0.0083845
-0.009432 -0.0033054 -0.41871 -0.049764 0.0076769 -0.011797 0.0016225 0.011786
0.007282 0.0024857 0.0011743 0.013053
-0.0075731 0.011573 0.0076626 -0.011812 -0.26404 0.21075 0.00699 0.0028257
-0.0001098 0.0086348 0.00083225 0.011594
-0.0032427 0.011678 0.0016415 0.011798 0.0070053 0.0028309 -0.32648 0.047215
-0.019216 -0.004178 0.017888 0.024931
0.012253 0.0042895 0.0072982 0.0024763 -0.00010396 0.0086224 -0.019212 -0.004166
-0.22485 -0.18472 -0.026854 0.0054343
-0.0032503 0.0083919 0.0012088 0.01304 0.00083847 0.011595 0.01787 0.024929
-0.026888 0.0054277 -0.27272 -0.11265
560000000 -0.31521 0.12447 -0.023773 -0.063323 0.00030544 0.012067 0.0065058 0.0095917
0.010691 0.0039235 0.0098338 0.0069085
-0.023744 -0.063287 -0.3761 0.10879 -0.042047 -0.037116 0.013642 0.003627
-0.013556 -0.0050513 0.0039271 -0.00035304
0.00034452 0.012054 -0.042169 -0.037052 -0.18229 0.25846 -0.00077676 -0.0050171
0.018941 0.0043439 0.0071225 -0.006115
0.0065312 0.0095934 0.013657 0.0035798 -0.00077173 -0.0050016 -0.3022 0.13556
0.0041398 -0.025249 0.004628 -0.019453
0.010716 0.0039023 -0.013585 -0.0050162 0.018933 0.0043333 0.0041222 -0.025242
-0.28448 -0.0093713 0.0081974 -0.049822
0.0098544 0.0069044 0.0039371 -0.00036483 0.0071305 -0.0061087 0.0046114 -0.01947
0.0081975 -0.049813 -0.33059 0.033283
620000000 -0.27275 0.10948 -0.023203 0.0070993 0.0032315 0.0084515 0.0067076 -0.0056663
0.01124 -0.00079997 0.00066801 -0.0023554
-0.023192 0.007095 -0.40239 0.062227 -0.019013 -0.00035241 -0.0012742 -0.0019213
0.010064 -0.0072658 0.0010674 -0.0027193
0.0032695 0.0084303 -0.019035 -0.00030327 -0.15292 0.26706 -0.0015624 -0.0051157
-0.0040818 -0.0031449 0.0080545 -0.0035825
0.0067129 -0.005671 -0.0012824 -0.0019293 -0.0015665 -0.0051185 -0.26132 0.14575
-0.038497 -0.018886 0.014299 0.023578
0.011242 -0.00083108 0.010045 -0.0072987 -0.0040922 -0.0031471 -0.038509 -0.01887
-0.20364 -0.050146 -0.039373 0.014115
0.00065395 -0.0023614 0.0010611 -0.0027213 0.0080671 -0.0035742 0.014311 0.023591
-0.039406 0.014124 -0.24904 -0.0026328
680000000 -0.23264 0.19308 -0.028045 -0.014118 0.0046281 0.0049735 0.0010182 -0.007641
-0.0035002 -0.010831 0.0042254 -0.0062754
-0.028018 -0.014125 -0.38719 0.15901 -0.032979 -0.0012669 -0.0017596 -0.00016917
-0.0028432 -0.0089037 -0.0012588 -0.0019298
0.0046342 0.0049702 -0.033 -0.0011775 -0.10237 0.28694 -0.00078279 0.00033099
-0.0022575 0.00091036 -0.0030416 -0.0094401
0.0010052 -0.0076533 -0.0017614 -0.00016419 -0.00078589 0.00033062 -0.21969 0.19495
-0.023599 -0.0087503 -0.0087501 -0.010506
-0.0035446 -0.010832 -0.0028763 -0.0089168 -0.0022526 0.00091596 -0.02363 -0.008729
-0.25145 0.047232 -0.0057147 -0.0094737
0.0042148 -0.0062909 -0.0012684 -0.0019351 -0.0030381 -0.0094498 -0.0087574 -0.01051
-0.0057149 -0.0094468 -0.25832 0.098973
740000000 -0.19009 0.18787 -0.038668 0.026376 0.012366 -0.0051585 -0.00077209 -0.0038984
-0.0044329 -0.0025821 -0.006167 0.0036374
-0.038653 0.026328 -0.33518 0.17777 -0.035052 0.035146 -0.00074985 -0.0063857
-0.011548 0.0078684 -0.0025711 -0.0060224
0.012365 -0.0051855 -0.034978 0.035276 -0.068873 0.28631 -0.0013591 0.0033708
-0.0025298 -0.0036862 -0.0011582 0.00034484
-0.00078513 -0.0038978 -0.00077253 -0.0063743 -0.0013677 0.0033716 -0.20246 0.2024
-0.042945 -0.0083456 0.021723 0.012917
-0.0044392 -0.0025521 -0.011545 0.0079402 -0.0025226 -0.0036907 -0.042982 -0.0082887
-0.15654 0.072813 -0.042205 -5.0275e-05
-0.0061674 0.003646 -0.0025785 -0.0060401 -0.0011572 0.00033874 0.021748 0.012914
-0.042171 -5.2318e-05 -0.2459 0.10428
800000000 -0.15772 0.2281 -0.022668 0.017218 0.0052138 -0.01043 -0.0048304 -0.0019926
-0.0038576 0.0026997 0.0043784 0.00094984
-0.022667 0.017185 -0.33778 0.2484 -0.0078201 0.034248 -0.0020716 0.0022477
-0.00048348 0.0034088 0.0012049 0.0053107
0.0051863 -0.010443 -0.0077205 0.034297 -0.027491 0.30943 0.00118 0.0014378
0.00070552 0.0034996 -0.0018453 0.0011067
-0.0048312 -0.0019797 -0.0020763 0.0022567 0.0011838 0.0014398 -0.17465 0.23031
-0.028589 0.012382 0.012706 -0.0097463
-0.0038548 0.0027154 -0.00046615 0.0034099 0.0007087 0.0035028 -0.028594 0.012442
-0.20148 0.095572 -0.017586 0.016924
0.0043883 0.00092967 0.0012308 0.0052997 -0.001844 0.0011165 0.012712 -0.0097682
-0.017558 0.016912 -0.23794 0.15638
860000000 -0.12301 0.24945 -0.017283 0.031226 -0.0034678 -0.0097007 -0.0024663 0.0013407
0.0042296 0.0049774 -0.0029122 -0.0027647
-0.017289 0.031198 -0.28976 0.29043 0.0082333 0.034146 0.00031622 0.0020918
0.0044079 0.00018501 0.0032745 0.00045959
-0.0034963 -0.009695 0.0083414 0.03415 0.021161 0.31731 -0.00039449 -0.00032118
0.0028551 -0.0014724 0.0015235 0.0044759
-0.0024614 0.0013521 0.00031542 0.0020829 -0.00039452 -0.00032074 -0.13903 0.24242
-0.018276 0.01901 -0.0061066 -0.0087899
0.0042445 0.004977 0.0044149 0.00016079 0.002861 -0.0014739 -0.018256 0.019038
-0.15234 0.14453 -0.024627 0.014897
-0.0029268 -0.0027564 0.0032854 0.00044152 0.0015238 0.0044777 -0.0061089 -0.0087853
-0.024606 0.014878 -0.18818 0.19818
920000000 -0.097488 0.27277 0.0051907 0.037906 -0.0093292 -0.0041034 -0.0018384 0.0023829
0.0014216 0.0014751 0.0023911 -0.0015158
0.0051673 0.037871 -0.26063 0.31137 0.028045 0.021652 0.0015849 0.0011307
0.006709 -0.00082014 0.0038204 -0.003034
-0.009348 -0.0040789 0.028147 0.021599 0.0677 0.3175 0.0017303 -0.00010712
0.001209 -0.00045498 0.000894 -0.0010346
-0.0018264 0.0023908 0.0015908 0.0011169 0.0017315 -0.00010729 -0.11458 0.25908
-0.010567 0.030191 0.0025109 -0.0062467
0.0014285 0.0014804 0.0067216 -0.00085991 0.0012105 -0.00045536 -0.010524 0.030225
-0.1418 0.1504 -0.0027057 0.027175
0.0023796 -0.0015103 0.0038171 -0.0030558 0.00089208 -0.0010327 0.0025202 -0.0062596
-0.0026933 0.027155 -0.19293 0.21265
980000000 -0.049637 0.29237 0.018022 0.030006 -0.0086429 0.0047736 0.0025234 0.0037816
0.0039848 -0.0018443 -0.0030203 -0.0020796
0.017994 0.029972 -0.20746 0.34514 0.032839 0.0044973 0.0019455 -2.167e-05
0.001081 -0.0062278 -0.00067576 -0.0021378
-0.0086262 0.0047909 0.03288 0.0044099 0.11405 0.31042 0.00041294 -0.0011764
8.0671e-05 -0.0020753 0.0015776 6.7031e-06
0.0025461 0.0037801 0.0019446 -3.5459e-05 0.00042256 -0.0011741 -0.076149 0.27074
0.0073712 0.028905 -0.0091731 -0.0065402
0.0039774 -0.0018642 0.0010499 -0.0062235 7.2289e-05 -0.0020704 0.0074278 0.028904
-0.11029 0.17852 0.0046414 0.018707
-0.0030462 -0.002052 -0.00066702 -0.0021547 0.0015815 1.7313e-06 -0.0091788 -0.0065319
0.0046439 0.018683 -0.15014 0.25702
1040000000 -0.0066449 0.30043 0.033339 0.017792 -0.00087147 0.0068875 0.0028259 0.00056919
-8.1567e-05 -0.0037724 -0.00057554 -0.0014695
0.03328 0.01779 -0.17182 0.35803 0.028967 -0.014847 0.0014889 -0.0016844
-0.0026003 -0.0022993 -0.0014564 -0.002644
-0.00084888 0.0068911 0.028957 -0.014945 0.16007 0.29636 -0.00050917 -0.0013988
-0.0015706 -0.00082689 -0.00037774 -0.0012105
0.0028428 0.00056465 0.0014767 -0.0017055 -0.00050623 -0.0014054 -0.048339 0.28062
0.018333 0.017388 -0.0030107 0.0023061
-9.9994e-05 -0.0037784 -0.002599 -0.0022847 -0.0015631 -0.00081971 0.018369 0.017359
-0.079397 0.1875 0.013168 0.017931
-0.00057818 -0.0014639 -0.0014657 -0.0026631 -0.00036996 -0.0012124 -0.0029976 0.0023021
0.013166 0.017905 -0.12778 0.27601
1100000000 0.03905 0.30741 0.035661 -0.0045794 0.003072 0.0036507 0.0025538 -0.0015086
-0.0021682 -0.0029482 -0.0037881 6.7794e-05
0.035626 -0.0045483 -0.12807 0.37476 0.014755 -0.027533 -1.8636e-05 -0.0017762
-0.0030682 -0.00040424 -0.0032505 -0.00050415
0.0030753 0.0036305 0.014679 -0.027613 0.20617 0.27574 -0.001696 0.0002324
-0.0016574 0.00064271 -0.00090702 -0.00042264
0.0025518 -0.0015116 -2.4711e-05 -0.0017872 -0.0016944 0.00023596 -0.007565 0.28548
0.022706 0.0051918 -0.002125 0.0011039
-0.0021871 -0.0029408 -0.0030752 -0.00038417 -0.0016516 0.00065085 0.022728 0.0051566
-0.060639 0.20091 0.018447 0.0087064
-0.0037854 8.6549e-05 -0.0032543 -0.00049236 -0.00090939 -0.00041825 -0.0021308 0.0010945
0.018428 0.008668 -0.080861 0.30361
1160000000 0.090716 0.30183 0.023699 -0.020809 0.0027552 -0.00062805 -0.00025002 -0.0025881
-0.0039364 -0.00037277 -0.00088697 0.0037958
0.023684 -0.020785 -0.084156 0.37842 -0.0038291 -0.028628 -0.0017469 -0.0015642
-0.0023704 0.0025528 -0.001193 0.0015818
0.0027541 -0.00064726 -0.0039394 -0.028627 0.24894 0.24482 -0.00057473 0.0016721
-0.00037573 0.0017446 -0.0010015 9.7169e-06
-0.0002686 -0.0025866 -0.0017547 -0.00158 -0.00058713 0.001678 0.03198 0.2822
0.01938 -0.0094808 -0.0024391 0.0055937
-0.0039297 -0.00036377 -0.002358 0.0025672 -0.00036191 0.0017414 0.019375 -0.0095169
-0.027135 0.21042 0.017046 0.00079019
-0.0008671 0.0037992 -0.0011719 0.0015828 -0.0010002 5.1128e-06 -0.0024461 0.0055924
0.017 0.00075289 -0.033897 0.30581
1220000000 0.13509 0.28981 0.010173 -0.029823 -0.001575 -0.00097867 -0.00020355 -0.0010755
-0.0024406 0.0025703 0.0013349 0.0017836
0.010179 -0.029793 -0.040081 0.38993 -0.01664 -0.020691 -0.0024275 0.00047833
0.00025824 0.0027309 -0.00067453 0.0017029
-0.0015792 -0.00097689 -0.016747 -0.020626 0.28794 0.20581 0.00083581 0.001515
0.00053615 0.0011117 0.00017479 0.00070799
-0.0002022 -0.001065 -0.0024277 0.00048187 0.00083116 0.0015167 0.071501 0.27354
0.0094638 -0.015218 0.0029498 0.0015682
-0.0024289 0.0025837 0.00027546 0.0027274 0.00053339 0.0011098 0.0094465 -0.015241
-0.0033536 0.21954 0.013432 -0.011729
0.0013326 0.0017826 -0.00065758 0.0017083 0.00017152 0.0007092 0.0029323 0.0015624
0.013365 -0.011742 -0.0018702 0.32102
1280000000 0.18434 0.267 -0.0078486 -0.028135 -0.0018889 0.0023764 -0.0011035 -0.0019308
-0.00052176 0.0029247 0.0024359 0.00092544
-0.0078254 -0.028111 0.0056248 0.38051 -0.023207 -0.0083012 -0.00095703 0.0014411
0.0015163 0.0015027 0.00047297 0.0019218
-0.0018749 0.0023852 -0.023274 -0.0082069 0.3186 0.16198 0.0012994 -0.00018808
0.00099173 9.3003e-05 0.00028455 0.00044077
-0.0010993 -0.0019203 -0.0009494 0.001441 0.0012924 -0.00018228 0.10785 0.25732
0.00093058 -0.016949 0.00057451 -0.00010613
-0.00050276 0.0029279 0.0015252 0.0014943 0.00099616 9.171e-05 0.00089603 -0.016955
0.033842 0.22313 0.0029663 -0.013767
0.0024441 0.00092086 0.00048177 0.0019182 0.00028504 0.00043747 0.0005543 -0.00010116
0.0029156 -0.013737 0.045411 0.32112
1340000000 0.22095 0.23266 -0.017416 -0.018864 0.00071132 0.0042923 -0.0018322 -0.00072868
0.0014652 0.0025114 0.0015758 -0.0014535
-0.017391 -0.018871 0.044682 0.37203 -0.021144 0.0040139 -5.966e-05 0.00192
0.0016304 0.00068243 0.0012688 0.00089467
0.00072917 0.0042884 -0.021137 0.0041242 0.34093 0.11392 0.00088908 -0.00079115
0.00063892 -0.00036148 0.00018686 0.00030481
-0.0018362 -0.00071199 -4.995e-05 0.0019103 0.0008869 -0.0007859 0.14055 0.2373
-0.0071904 -0.014352 0.0013111 -0.00015192
0.001484 0.0025156 0.0016298 0.00067448 0.00063394 -0.00036324 -0.007217 -0.014342
0.064288 0.21815 -0.0029099 -0.012628
0.0015657 -0.0014628 0.0012849 0.00088762 0.00018872 0.00030684 0.0012884 -0.00014424
-0.0029382 -0.012586 0.083742 0.31553
1400000000 0.25323 0.19417 -0.02313 -0.0075905 0.0048353 0.0030085 -0.0019299 0.00069801
0.0024514 0.00064183 0.00014828 -0.0012743
-0.0231 -0.0076001 0.08155 0.35888 -0.014598 0.011925 0.0013027 0.0012819
0.00097711 -0.00069648 0.0011523 0.00022932
0.0048481 0.0029896 -0.014552 0.012013 0.35408 0.059916 9.9753e-05 -0.0013408
1.06e-05 -0.00036427 0.00035326 0.00015237
-0.0019343 0.00070386 0.0013089 0.0012829 9.8197e-05 -0.0013387 0.17034 0.20896
-0.012178 -0.0085593 -0.00065315 -0.0010079
0.002457 0.00062876 0.00096644 -0.00070805 1.3464e-05 -0.00036176 -0.012207 -0.0085362
0.097289 0.21318 -0.0090423 -0.0082343
0.00014231 -0.0012748 0.0011597 0.00023804 0.00035629 0.00014958 -0.0006597 -0.00098476
-0.0090441 -0.0081855 0.12768 0.30379
1460000000 0.27557 0.15007 -0.020309 0.0043917 0.0053151 -0.0016173 -0.0015104 0.0017462
0.001843 -0.00066551 -0.00034997 -0.00079239
-0.020293 0.0043782 0.11553 0.33712 -0.0063197 0.014799 0.0016689 0.00019763
0.0009043 -0.0010363 0.0011788 -0.00061757
0.0053064 -0.0016428 -0.0062417 0.014844 0.35985 0.0048735 -0.00099075 -0.001154
0.00022551 -0.00010875 0.00069305 -0.00040258
-0.0015079 0.0017497 0.0016713 0.00018941 -0.00098487 -0.0011599 0.19729 0.18001
-0.013019 -0.0032122 -0.0012684 0.0013606
0.0018397 -0.00067456 0.00090224 -0.001046 0.00022836 -0.00010614 -0.013037 -0.0031744
0.12695 0.19816 -0.010754 -0.0030611
-0.00035261 -0.00079389 0.0011663 -0.00062684 0.00069552 -0.00040228 -0.0012509 0.0013736
-0.010728 -0.0030127 0.16094 0.28194
1520000000 0.2874 0.1085 -0.014844 0.010066 0.0030492 -0.0039378 0.00012495 0.0025355
0.0016993 -0.0016261 -0.0010805 -0.00010267
-0.01484 0.010044 0.14898 0.32242 0.0011214 0.012894 0.0015917 -0.00076852
0.00014833 -0.00090916 0.00030587 -0.0010055
0.0030294 -0.0039488 0.0011987 0.012897 0.35251 -0.051478 -0.00092767 -0.00043128
0.00049924 -0.0007673 -3.6115e-06 -2.0766e-05
0.00013951 0.0025312 0.0015919 -0.00077939 -0.00092611 -0.00042902 0.22123 0.14194
-0.012799 0.0014619 0.00077027 0.0017152
0.001679 -0.0016345 0.00014709 -0.00090537 0.00050093 -0.00077046 -0.012793 0.0014903
0.15484 0.18368 -0.010901 0.00093185
-0.001085 -0.00010183 0.00029457 -0.0010029 -1.2579e-06 -1.9741e-05 0.00079671 0.0017284
-0.010854 0.00094792 0.19361 0.26057
1580000000 0.29645 0.062084 -0.0083528 0.013231 -0.00083219 -0.0045695 0.0013236 0.0017932
-0.00047853 -0.0019884 -0.00033874 0.00035594
-0.0083575 0.013214 0.17624 0.29759 0.0048149 0.0083439 0.00046158 -0.0015425
-0.00038595 -0.0010781 -0.00027627 -0.0008519
-0.00084871 -0.0045525 0.0048587 0.0083252 0.33171 -0.10904 -0.0015041 0.00038224
-0.00021239 -0.0010466 0.00016377 -0.00055281
0.001334 0.0017947 0.0004507 -0.0015538 -0.001509 0.0003821 0.23606 0.10197
-0.010302 0.0056087 0.0016289 0.00077639
-0.00049054 -0.0019889 -0.000391 -0.0010755 -0.00021099 -0.0010521 -0.010296 0.0056374
0.17937 0.1653 -0.0088749 0.0063172
-0.00033762 0.00035997 -0.00028123 -0.00085124 0.00016284 -0.00055329 0.0016638 0.00076612
-0.0088337 0.0063227 0.22485 0.23288
1640000000 0.29818 0.020476 -0.0017645 0.012345 -0.0026209 -0.0025124 0.0024958 0.0010166
-0.00076061 -0.0011178 -0.00030551 0.00062188
-0.0017749 0.012346 0.20566 0.27244 0.0055752 0.0036899 -0.00069765 -0.0016288
-0.00097195 -0.00049932 -0.00054876 -0.00061402
-0.0026337 -0.0024943 0.005597 0.0036542 0.30319 -0.158 -0.00087879 0.001294
-0.00098905 -0.00085383 -5.2429e-05 -0.00032326
0.0025048 0.0010083 -0.00070749 -0.0016267 -0.00088632 0.001294 0.2487 0.052029
-0.0069649 0.0068272 0.0020879 -0.00049083
-0.00076884 -0.0011141 -0.00097994 -0.00049027 -0.00098675 -0.00085562 -0.0069574 0.0068471
0.20251 0.14024 -0.0046886 0.0084227
-0.00030338 0.00062767 -0.00055142 -0.00061389 -5.4222e-05 -0.00032569 0.0021124 -0.00051218
-0.0046543 0.0084043 0.24998 0.20101
1700000000 0.29051 -0.025105 0.001802 0.0097986 -0.0033115 0.00011042 0.0028822 -0.0010496
-0.0018257 -0.00048607 0.00060559 0.0004461
0.0017914 0.009789 0.22373 0.24073 0.0037702 0.00092315 -0.0013656 -0.00057073
-0.00082467 -6.766e-06 -0.00090692 -0.00037087
-0.0033157 0.00013036 0.0037823 0.00089483 0.25927 -0.19774 0.00031638 0.0016495
-0.0017126 -0.00026322 -0.00060815 -0.00094712
0.0028645 -0.0010719 -0.0013699 -0.00056535 0.00031857 0.0016471 0.24529 0.00099854
-0.004928 0.0076348 0.0012661 -0.0018765
-0.0018275 -0.00047963 -0.00082725 -3.5008e-06 -0.0017141 -0.00026692 -0.0049185 0.0076524
0.22023 0.11888 -0.00041401 0.0088772
0.00061172 0.00044414 -0.00090554 -0.00036326 -0.00061541 -0.00094273 0.0012703 -0.0019031
-0.00038388 0.0088563 0.26541 0.16613
1760000000 0.27744 -0.073892 0.0043519 0.0065962 -0.0021313 0.00081853 0.0013749 -0.0032436
-0.0010314 0.00060401 0.00041988 -0.00045726
0.0043385 0.00659 0.2495 0.20059 0.0017202 -0.00084456 -0.0010939 0.00019917
-0.0011368 0.00091703 -0.00055909 0.00052692
-0.0021174 0.00082228 0.0017225 -0.00085948 0.21012 -0.23043 0.0011231 0.0013068
-0.0011342 0.0013435 -0.0013063 -0.00038229
0.0013591 -0.0032519 -0.001101 0.00020197 0.0011247 0.001315 0.23499 -0.051361
-0.0022272 0.0073597 -0.00027857 -0.0020278
-0.0010265 0.00060984 -0.0011364 0.00093012 -0.0011372 0.0013485 -0.0022081 0.0073705
0.23507 0.08216 0.0033014 0.0066217
0.00041942 -0.00046491 -0.00055519 0.00053407 -0.0013082 -0.00037662 -0.00029179 -0.0020548
0.0033065 0.0065754 0.27711 0.12798
1820000000 0.2519 -0.11096 0.0047341 0.0029898 1.7289e-05 0.0023407 -0.00085463 -0.0031055
-0.00081767 0.0006119 6.9996e-05 -0.0001391
0.0047245 0.0029889 0.25911 0.17036 -0.00013586 0.0001398 -0.0013479 0.00086016
-0.00010693 0.001388 -0.00046041 0.00052533
2.3468e-05 0.0023392 -0.00013767 0.00013908 0.16016 -0.24566 0.0015464 0.00045434
-0.00046347 0.0020947 -0.0014133 0.00050935
-0.00087401 -0.0030987 -0.0013498 0.00086273 0.0015501 0.00045271 0.20365 -0.098621
-0.00091128 0.0061224 -0.0014767 -0.0012811
-0.0008184 0.00061646 -0.00010157 0.0013959 -0.00045668 0.0020958 -0.00089378 0.0061409
0.25163 0.051005 0.0042148 0.0034096
7.013e-05 -0.00014625 -0.00045863 0.00053282 -0.0014132 0.00051972 -0.001501 -0.0012879
0.0041974 0.003382 0.27833 0.091685
1880000000 0.21596 -0.1506 0.0027252 0.00056635 -0.0003283 0.0020427 -0.0028423 -0.0022608
-0.00022619 0.001433 0.00039989 -0.00055936
0.0027165 0.00057488 0.26326 0.12375 -0.0020203 0.0017356 -0.00018644 0.0016773
0.00069785 0.001356 0.00022452 0.00093655
-0.00032035 0.0020399 -0.0020097 0.0017495 0.10817 -0.25498 0.0019878 -0.0010797
0.0013779 0.0020397 -0.00085837 0.0013859
-0.0028574 -0.0022405 -0.00017351 0.0016784 0.0019885 -0.0010827 0.16176 -0.13805
-0.00039446 0.0048623 -0.0021508 0.00068192
-0.00021523 0.0014313 0.00071668 0.0013527 0.0013929 0.0020339 -0.00038366 0.0048666
0.25315 0.016388 0.0040141 0.0015054
0.00039103 -0.00056738 0.00023493 0.00093542 -0.00085861 0.001387 -0.0021727 0.00068955
0.0039795 0.0014887 0.27702 0.057415
1940000000 0.17605 -0.17564 0.00051133 -0.0014105 0.0012756 0.001818 -0.0037302 0.00051428
0.0010759 0.0010828 -0.00063807 -0.00074366
0.00051578 -0.0014101 0.26335 0.091926 -0.00097697 0.0038341 0.00093689 0.0013608
0.0019931 0.00054157 0.00086053 0.00022092
0.0012864 0.0018187 -0.00094734 0.0038432 0.062124 -0.24856 0.00040454 -0.0023681
0.0024276 0.00062115 0.00035402 0.001601
-0.0037279 0.00053834 0.0009517 0.0013484 0.00040248 -0.0023706 0.10858 -0.16721
-0.0013595 0.0040705 -0.0011242 0.0016685
0.0010832 0.0010742 0.0020008 0.0005179 0.0024333 0.00061299 -0.0013467 0.0040754
0.25252 -0.024396 0.0030217 -0.0014198
-0.00064927 -0.00073763 0.00086437 0.00021212 0.00035739 0.0015933 -0.001138 0.0016784
0.0029937 -0.0014176 0.26513 0.021478
2000000000 0.12972 -0.18917 -0.0034438 0.00042515 0.0023878 0.001444 -0.0022965 0.0035573
0.0010282 0.00034169 -0.00071675 0.00030944
-0.0034373 0.00042946 0.24885 0.0565 -0.00073151 0.0054999 0.0016752 0.00035079
0.0014673 -0.0014789 0.00053205 0.00014493
0.002393 0.0014427 -0.00070029 0.0055165 0.018961 -0.23401 -0.0015256 -0.0014382
0.0021025 -0.0011806 0.0015735 0.0013313
-0.0022781 0.0035824 0.0016775 0.00033649 -0.0015204 -0.0014398 0.055569 -0.17546
-0.0026468 0.00464 0.00028762 0.0021134
