!Keysight Technologies,M9804A,MY58100912,A.14.10.03
!Date: Thursday, April 27, 2023 10:28:33
!Correction: S11(C  6-Port  ) 
!S12(C  6-Port  ) 
!S13(C  6-Port  ) 
!S14(C  6-Port  ) 
!S15(C  6-Port  ) 
!S16(C  6-Port  ) 
!S21(C  6-Port  ) 
!S22(C  6-Port  ) 
!S23(C  6-Port  ) 
!S24(C  6-Port  ) 
!S25(C  6-Port  ) 
!S26(C  6-Port  ) 
!S31(C  6-Port  ) 
!S32(C  6-Port  ) 
!S33(C  6-Port  ) 
!S34(C  6-Port  ) 
!S35(C  6-Port  ) 
!S36(C  6-Port  ) 
!S41(C  6-Port  ) 
!S42(C  6-Port  ) 
!S43(C  6-Port  ) 
!S44(C  6-Port  ) 
!S45(C  6-Port  ) 
!S46(C  6-Port  ) 
!S51(C  6-Port  ) 
!S52(C  6-Port  ) 
!S53(C  6-Port  ) 
!S54(C  6-Port  ) 
!S55(C  6-Port  ) 
!S56(C  6-Port  ) 
!S61(C  6-Port  ) 
!S62(C  6-Port  ) 
!S63(C  6-Port  ) 
!S64(C  6-Port  ) 
!S65(C  6-Port  ) 
!S66(C  6-Port  ) 
!S6P File: Measurement: :
# Hz S  RI   R 50
500000000 -0.33703 -0.03536 -0.0096157 -0.0040255 -0.0080127 0.011575 -0.0033019 0.011735
0.012264 0.0045663 -0.0034936 0.0079794
-0.009713 -0.0036353 -0.41914 -0.04961 0.0076343 -0.011599 0.0016431 0.011697
0.0075418 0.0025178 0.0013705 0.012844
-0.007936 0.012073 0.0077007 -0.011388 -0.26462 0.21061 0.0069166 0.0030246
-0.00021897 0.0085107 0.00054128 0.011838
-0.0028733 0.011496 0.00089322 0.01173 0.0069296 0.0030114 -0.32691 0.046811
-0.019793 -0.0042579 0.017876 0.025015
0.011556 0.0044597 0.0078969 0.0027284 -0.00014172 0.0085156 -0.019603 -0.0040103
-0.22563 -0.18546 -0.027409 0.004954
-0.0037246 0.0075363 0.00045164 0.012524 0.00066097 0.011904 0.017983 0.024979
-0.027464 0.0049105 -0.27206 -0.11468
560000000 -0.31627 0.12457 -0.023524 -0.062585 -0.00013604 0.011715 0.0065048 0.010271
0.010359 0.0039359 0.0098482 0.0075426
-0.023534 -0.061415 -0.37567 0.10766 -0.04149 -0.036052 0.013659 0.0035047
-0.013781 -0.0042246 0.0042991 -0.00074826
-0.00045942 0.012378 -0.042132 -0.03641 -0.18319 0.25848 -0.00077091 -0.0047346
0.019592 0.0037659 0.0068584 -0.0059923
0.0064585 0.010474 0.013504 0.0025278 -0.00034016 -0.0047455 -0.30187 0.13616
0.0037595 -0.024868 0.0045942 -0.019383
0.011257 0.0032314 -0.014764 -0.0034672 0.019152 0.0040294 0.0037 -0.024988
-0.28478 -0.0096627 0.0076965 -0.050036
0.010319 0.0078814 0.0052705 -0.00076299 0.007122 -0.0060331 0.0043137 -0.019398
0.0077264 -0.050084 -0.33057 0.031783
620000000 -0.27313 0.10849 -0.023258 0.0074246 0.003377 0.008346 0.0066353 -0.0058108
0.011545 -0.00042412 0.00039482 -0.0021766
-0.023257 0.007297 -0.40254 0.062238 -0.018842 -0.00024318 -0.001333 -0.0020156
0.010277 -0.007401 0.0011265 -0.0028646
0.0033078 0.0084331 -0.018803 -0.00013347 -0.15265 0.26759 -0.0019105 -0.00507
-0.0038732 -0.0035115 0.0079232 -0.0036242
0.0062064 -0.0059114 -0.0016436 -0.0017072 -0.0018741 -0.0052829 -0.26118 0.1457
-0.038596 -0.01855 0.014343 0.023967
0.011743 0.00065853 0.010641 -0.0079138 -0.003379 -0.003628 -0.039093 -0.018412
-0.20388 -0.050227 -0.040323 0.014306
-1.5174e-05 -0.0022414 0.00050594 -0.0024444 0.0082772 -0.0033048 0.014196 0.024425
-0.04042 0.014337 -0.24969 -0.0046769
680000000 -0.23354 0.19351 -0.02767 -0.013785 0.0050623 0.0051601 0.0011621 -0.0076775
-0.0033602 -0.010978 0.0041903 -0.0064563
-0.027947 -0.013772 -0.38686 0.15919 -0.032959 -0.0011788 -0.0018283 -0.00026721
-0.0027233 -0.008884 -0.0011168 -0.0019345
0.0049135 0.0053895 -0.033046 -0.0011633 -0.10213 0.28722 -0.00082394 0.00019109
-0.0023609 0.00085818 -0.0029059 -0.0093515
0.0011546 -0.0073057 -0.0016753 -0.00052764 -0.00097733 0.00020722 -0.21908 0.19485
-0.023644 -0.008392 -0.0085857 -0.010399
-0.0035467 -0.010955 -0.003113 -0.0085614 -0.0022 0.00090221 -0.023765 -0.0085047
-0.2518 0.047491 -0.0059173 -0.0093142
0.004476 -0.0063621 -0.000536 -0.0020421 -0.0026971 -0.0096749 -0.0086239 -0.010544
-0.0059109 -0.0093616 -0.25868 0.098445
740000000 -0.18985 0.18813 -0.038987 0.026438 0.012475 -0.0053067 -0.0008821 -0.0040577
-0.0048331 -0.0024937 -0.0062091 0.0031757
-0.038789 0.026248 -0.33523 0.17825 -0.034912 0.035409 -0.00070918 -0.0062665
-0.011933 0.0077099 -0.0026385 -0.0057894
0.012838 -0.0052035 -0.035267 0.035432 -0.06878 0.28609 -0.0014786 0.0033613
-0.0026632 -0.0041992 -0.0015991 0.00025809
-0.0012394 -0.0042579 -0.00061926 -0.0058271 -0.0014327 0.0033675 -0.20247 0.20245
-0.043027 -0.008422 0.022022 0.01339
-0.0043234 -0.0024588 -0.0123 0.007441 -0.0025491 -0.0038254 -0.04287 -0.0084315
-0.15667 0.072019 -0.041886 -0.00022277
-0.0065869 0.0030042 -0.0033019 -0.0047627 -0.0013898 0.00037602 0.021993 0.013187
-0.041767 -0.00022289 -0.24642 0.10347
800000000 -0.15714 0.22828 -0.022539 0.017342 0.0052947 -0.010489 -0.0048772 -0.0019048
-0.0041794 0.0026329 0.0043606 0.0010141
-0.022538 0.01731 -0.3375 0.24837 -0.0078249 0.034319 -0.0020833 0.0022454
-0.0006414 0.0034031 0.0011787 0.0054697
0.0054057 -0.010489 -0.0076522 0.034406 -0.027621 0.30928 0.0011876 0.0015027
0.00065851 0.0034992 -0.0017939 0.0011038
-0.0050139 -0.0016915 -0.0021022 0.0023221 0.0012305 0.0014564 -0.17486 0.23
-0.028589 0.012465 0.012856 -0.0098687
-0.0041966 0.002735 -0.00028557 0.0037252 0.00065618 0.0034785 -0.028535 0.012505
-0.20085 0.095043 -0.017493 0.01717
0.0041372 0.0013347 0.0016279 0.0055648 -0.0016756 0.0010919 0.012854 -0.0098382
-0.017496 0.017183 -0.23826 0.15498
860000000 -0.12301 0.24931 -0.017259 0.031195 -0.0033913 -0.0099984 -0.0025135 0.0014176
0.0042238 0.0051281 -0.0030273 -0.0029188
-0.017302 0.031248 -0.28972 0.29038 0.0083159 0.034367 0.00020545 0.0021535
0.0044609 0.00023887 0.0034555 0.00012563
-0.0033861 -0.0097569 0.0085049 0.034476 0.020816 0.31736 -0.00040689 -0.00026551
0.0028747 -0.0015479 0.0017632 0.0043575
-0.0026567 0.0011949 4.6044e-05 0.0021982 -0.00049033 -0.00029254 -0.1395 0.24229
-0.018439 0.019062 -0.0059639 -0.0090323
0.0044005 0.0050725 0.0047646 -4.6038e-05 0.002853 -0.0015423 -0.018492 0.019014
-0.15186 0.144 -0.024282 0.015002
-0.0033929 -0.0024769 0.0030854 1.5343e-05 0.0016975 0.0042828 -0.0058671 -0.0090662
-0.024237 0.014973 -0.18858 0.19729
920000000 -0.097705 0.27247 0.0054749 0.038001 -0.0095098 -0.0043567 -0.0017869 0.0023564
0.0014959 0.0015941 0.0025046 -0.0015043
0.0052782 0.037816 -0.2607 0.31122 0.028304 0.02178 0.0016872 0.0010794
0.006809 -0.00077419 0.0040575 -0.0030328
-0.0095251 -0.004337 0.028496 0.021629 0.067374 0.31773 0.0017565 -0.00011014
0.0012355 -0.00055095 0.00089939 -0.0010856
-0.0015375 0.0024188 0.0017768 0.001142 0.0017481 -0.00017727 -0.11503 0.25899
-0.010551 0.030395 0.0026133 -0.0065839
0.0015457 0.0017689 0.0070124 -0.00074893 0.0013394 -0.00045136 -0.010435 0.030411
-0.14195 0.14951 -0.002482 0.027381
0.002494 -0.0017179 0.0042015 -0.0030341 0.00097679 -0.0012248 0.0025438 -0.0066853
-0.0025077 0.027354 -0.19377 0.21104
980000000 -0.049827 0.29207 0.017951 0.03006 -0.0088921 0.004713 0.002488 0.0037538
0.0040064 -0.0018512 -0.0029887 -0.0020111
0.018021 0.029974 -0.20793 0.34504 0.033175 0.0044498 0.0020434 -8.2847e-05
0.001072 -0.0063003 -0.00061806 -0.0021633
-0.0089477 0.0047895 0.033212 0.0043495 0.11392 0.31095 0.00045868 -0.0011877
5.0717e-05 -0.0022049 0.0014827 -0.00013578
0.0024872 0.003684 0.0019177 -5.7296e-05 0.00047215 -0.0012022 -0.0766 0.27074
0.0077114 0.029082 -0.0092143 -0.0066926
0.0039839 -0.0017702 0.00096213 -0.0061815 1.8984e-05 -0.0022003 0.0077683 0.02908
-0.1103 0.17769 0.0047236 0.018914
-0.0031064 -0.0019098 -0.00094397 -0.0022646 0.0014272 -0.00011014 -0.0091644 -0.0067146
0.0046898 0.018915 -0.15106 0.2561
1040000000 -0.0072695 0.30029 0.033549 0.017776 -0.0010765 0.0070094 0.0027909 0.00057716
-5.1903e-05 -0.0038244 -0.00068888 -0.0015468
0.033488 0.017783 -0.17227 0.35798 0.029244 -0.015172 0.001444 -0.0018347
-0.002663 -0.0024038 -0.001529 -0.0027293
-0.0010248 0.0069527 0.029192 -0.015311 0.1603 0.29697 -0.00056244 -0.0014527
-0.0016193 -0.00086219 -0.00040721 -0.0011789
0.0027951 0.00068205 0.0014714 -0.0018106 -0.000534 -0.0014592 -0.048734 0.28091
0.018781 0.017445 -0.003099 0.0021277
-6.4624e-05 -0.003838 -0.0024282 -0.0022806 -0.0016081 -0.00090508 0.01884 0.017415
-0.079981 0.18646 0.013514 0.018166
-0.00049169 -0.0016342 -0.0013395 -0.0029433 -0.00034301 -0.0011957 -0.0030742 0.002135
0.013498 0.018162 -0.12917 0.27528
1100000000 0.038937 0.30745 0.035901 -0.0046971 0.0030263 0.003798 0.0025542 -0.0014791
-0.0021387 -0.0029467 -0.0039047 0.00017354
0.035976 -0.0046696 -0.12848 0.37518 0.014805 -0.028036 -2.0124e-05 -0.001777
-0.0032104 -0.00029839 -0.0033863 -0.00049382
0.0030026 0.0037766 0.014683 -0.028167 0.20676 0.2762 -0.0018143 0.00028955
-0.0017439 0.00068386 -0.0009312 -0.0004268
0.0025986 -0.0014604 -7.6463e-05 -0.0018664 -0.0018103 0.00028865 -0.0078249 0.28603
0.023249 0.0048109 -0.0023152 0.0010786
-0.0022172 -0.0029455 -0.0033559 -0.00030035 -0.0017613 0.0006622 0.023274 0.0048095
-0.061544 0.19997 0.018814 0.0086429
-0.0039443 0.00016426 -0.0032628 -0.00046545 -0.00090037 -0.00042314 -0.0023021 0.0010942
0.018801 0.0086534 -0.082156 0.30304
1160000000 0.09018 0.30208 0.02383 -0.021235 0.0027647 -0.00054279 -0.00025003 -0.0025779
-0.0040422 -0.00041961 -0.00090805 0.0038018
0.023739 -0.021054 -0.084456 0.3792 -0.0041529 -0.029023 -0.0017764 -0.0016249
-0.0023489 0.0027378 -0.0011979 0.0016049
0.0027729 -0.00056382 -0.0042857 -0.029064 0.24984 0.24481 -0.00059169 0.0017691
-0.00031905 0.0018644 -0.0010594 4.7479e-05
-0.00029705 -0.002588 -0.0017764 -0.0016033 -0.00060283 0.0017632 0.032079 0.28285
0.019603 -0.010165 -0.0026031 0.0056096
-0.0039683 -0.00040016 -0.0024051 0.0024689 -0.00033671 0.0019072 0.019595 -0.010195
-0.028572 0.20991 0.01744 0.00051993
-0.00086213 0.0037424 -0.0013986 0.0019051 -0.0010192 7.2101e-05 -0.002555 0.0056293
0.017434 0.00052682 -0.035123 0.30568
1220000000 0.135 0.29026 0.01001 -0.030274 -0.0015248 -0.00088648 -0.00018186 -0.0011033
-0.0025489 0.0026355 0.0013512 0.0018558
0.010047 -0.030253 -0.039894 0.39072 -0.017159 -0.020863 -0.0024692 0.00051722
0.00031316 0.0028706 -0.00064345 0.0018109
-0.0015693 -0.00090662 -0.017256 -0.020793 0.28866 0.20515 0.00089097 0.0015483
0.00056013 0.0011214 0.00021387 0.00074481
-0.00016929 -0.0010611 -0.0024756 0.00059971 0.00091017 0.0016136 0.07198 0.27394
0.0092661 -0.015991 0.0027898 0.001717
-0.0026623 0.0026081 0.00036843 0.0028504 0.00053434 0.0011343 0.0092235 -0.016049
-0.0048231 0.21988 0.013556 -0.012254
0.0012281 0.0019092 -0.00079594 0.0018786 0.00022728 0.00075323 0.0028002 0.0016862
0.013564 -0.012253 -0.0031507 0.32107
1280000000 0.18446 0.26755 -0.0083191 -0.028457 -0.0018119 0.0024421 -0.0011118 -0.0019121
-0.00055864 0.0030877 0.0024882 0.00093185
-0.0083 -0.028422 0.0063596 0.38125 -0.023726 -0.0081234 -0.00093045 0.0015156
0.0016454 0.0015394 0.00058011 0.0019405
-0.0018134 0.0024938 -0.023783 -0.0080611 0.31879 0.161 0.0014004 -0.00024552
0.0010183 5.4224e-05 0.00025383 0.00043717
-0.0011533 -0.0018733 -0.00094351 0.0015048 0.001419 -0.00024338 0.10851 0.25731
0.00017933 -0.017548 0.00053784 6.1864e-05
-0.0005173 0.0030772 0.0016142 0.0014861 0.0010139 0.00010473 0.00012772 -0.017565
0.032637 0.2241 0.0028226 -0.014337
0.0026283 0.00095365 0.00058269 0.0021186 0.00017719 0.00042109 0.00055815 2.5524e-05
0.0028333 -0.014346 0.044313 0.32154
1340000000 0.22147 0.23293 -0.017982 -0.018766 0.00083486 0.0043364 -0.0018811 -0.00072428
0.0015294 0.0026338 0.0016652 -0.0015222
-0.018013 -0.018815 0.04572 0.37226 -0.021355 0.0044768 -1.1039e-05 0.0019194
0.001671 0.00055515 0.0013368 0.00087956
0.00083777 0.0043217 -0.021399 0.0045987 0.34052 0.11292 0.00090329 -0.00091306
0.00066106 -0.00036832 0.00016102 0.00029676
-0.0018501 -0.00065278 1.3169e-05 0.0019255 0.00094468 -0.00087293 0.14111 0.2368
-0.0081915 -0.014398 0.0012807 4.0841e-06
0.0016235 0.0025541 0.0017013 0.00047804 0.00067004 -0.0003969 -0.0082212 -0.014383
0.063925 0.21959 -0.0034196 -0.013062
0.0016639 -0.0015653 0.001308 0.00088721 0.00015805 0.00028094 0.0012844 1.0186e-05
-0.0034214 -0.013068 0.083035 0.31583
1400000000 0.2539 0.19404 -0.02356 -0.007187 0.0050375 0.003056 -0.0019586 0.00075349
0.0025779 0.00068783 0.000106 -0.0013744
-0.023546 -0.0071863 0.082558 0.35861 -0.014528 0.01246 0.0013415 0.0012166
0.00094498 -0.00081426 0.0011738 0.00018583
0.0050902 0.0029968 -0.014501 0.012558 0.35315 0.05947 4.876e-05 -0.001377
9.9295e-05 -0.00031665 0.00035345 0.00021721
-0.0019837 0.00077485 0.0013214 0.0011892 5.2686e-05 -0.0013804 0.17045 0.20823
-0.013146 -0.0079773 -0.0005108 -0.00078794
0.0025412 0.00069595 0.00090371 -0.00079317 8.4721e-05 -0.0003488 -0.013173 -0.007926
0.097509 0.2146 -0.0097026 -0.0082966
0.00011406 -0.0013856 0.001266 4.1304e-05 0.00036472 0.00020664 -0.00052547 -0.00077742
-0.0096802 -0.0082941 0.12709 0.30403
1460000000 0.27614 0.14972 -0.020503 0.0050179 0.0054918 -0.0017508 -0.0014499 0.0017611
0.001994 -0.00080008 -0.00040634 -0.00080732
-0.02045 0.0049889 0.1163 0.33634 -0.0058405 0.015085 0.0016777 0.00014266
0.00082816 -0.0010856 0.0011558 -0.00069305
0.0054398 -0.0017981 -0.0057928 0.015181 0.35889 0.0052044 -0.0010923 -0.0011725
0.00023751 -0.00014993 0.00074978 -0.00037122
-0.0014754 0.001796 0.001664 7.6025e-05 -0.0010691 -0.0011771 0.19703 0.17924
-0.013535 -0.0020852 -0.0010624 0.0014272
0.0019989 -0.00074091 0.00079117 -0.0010415 0.00025277 -0.00016295 -0.013541 -0.0020444
0.12788 0.19927 -0.011347 -0.0027672
-0.00035253 -0.00082662 0.0012103 -0.0007488 0.00075118 -0.00029527 -0.0010499 0.0014322
-0.011346 -0.002777 0.1603 0.28205
1520000000 0.28755 0.10759 -0.014634 0.010615 0.0031305 -0.0040974 0.00017393 0.0025214
0.0016555 -0.0017515 -0.0011253 -4.4868e-05
-0.014646 0.010619 0.14929 0.32139 0.0015897 0.012883 0.0015671 -0.00080098
8.4148e-05 -0.00083141 0.00027515 -0.0010518
0.0031242 -0.0041204 0.0016529 0.012913 0.35191 -0.050996 -0.00094664 -0.00032669
0.0005273 -0.00084157 -2.601e-05 -8.7631e-05
0.00022302 0.0024882 0.0015502 -0.00080978 -0.000933 -0.00035792 0.22058 0.14123
-0.012522 0.0026546 0.0010176 0.0016559
0.0016908 -0.0018083 0.00010636 -0.00086532 0.00052934 -0.00084868 -0.012518 0.0027106
0.15617 0.18398 -0.011263 0.0015895
-0.0011784 -9.471e-05 0.00023348 -0.0010736 -2.1266e-05 -6.586e-05 0.0010269 0.0016648
-0.011263 0.0015754 0.19268 0.26074
1580000000 0.29619 0.061245 -0.007871 0.013653 -0.00098358 -0.0047264 0.0013865 0.0017672
-0.00058647 -0.0020785 -0.00030239 0.0004063
-0.0078589 0.013616 0.17596 0.29658 0.0050904 0.0081272 0.00043263 -0.0015635
-0.00037058 -0.0010002 -0.00031772 -0.00084064
-0.00097749 -0.0047004 0.0051462 0.0081079 0.33142 -0.10825 -0.0014713 0.00043493
-0.00030321 -0.0010946 0.00015177 -0.00057131
0.0013997 0.0017647 0.00041723 -0.001565 -0.0014466 0.00042269 0.23499 0.10172
-0.0093606 0.0064632 0.0017501 0.00058858
-0.00059494 -0.0020488 -0.0003806 -0.0010413 -0.00026615 -0.001097 -0.0093546 0.0064876
0.1806 0.16494 -0.0088439 0.0069821
-0.00029235 0.00038913 -0.00032162 -0.00085567 0.000182 -0.00051136 0.0017365 0.00058753
-0.0088419 0.0069734 0.22397 0.23332
1640000000 0.29744 0.019863 -0.0011401 0.012392 -0.0027007 -0.0025054 0.0025145 0.00096624
-0.00089889 -0.001094 -0.00023454 0.00063595
-0.0011483 0.0124 0.20504 0.27167 0.0057121 0.0034045 -0.00074349 -0.0016371
-0.00091832 -0.00047971 -0.00057829 -0.00057823
-0.0027533 -0.0024986 0.0057142 0.0033678 0.30329 -0.1573 -0.00084269 0.0012615
-0.0010594 -0.00085864 -0.00013074 -0.000356
0.0025559 0.000938 -0.00075385 -0.0016155 -0.00084737 0.0012628 0.24759 0.052301
-0.0057321 0.0069599 0.0020929 -0.00065485
-0.00090375 -0.0010646 -0.00094014 -0.00046879 -0.0010641 -0.00088388 -0.0057265 0.0069682
0.20334 0.13915 -0.0043602 0.0090762
-0.00025477 0.00063663 -0.00064444 -0.00050408 -0.00013052 -0.00033743 0.0020824 -0.00065167
-0.0043614 0.0090826 0.24916 0.20155
1700000000 0.28956 -0.025173 0.0022906 0.0094461 -0.0034079 0.00015623 0.002868 -0.0011297
-0.0018983 -0.00037404 0.00063363 0.00038947
0.0022707 0.0094451 0.22282 0.24034 0.0037318 0.00065114 -0.0013951 -0.00051854
-0.00079948 -7.7163e-05 -0.00092344 -0.0003282
-0.0034451 0.00016333 0.0037373 0.00064004 0.25968 -0.19733 0.00030073 0.0015844
-0.0017213 -0.00021189 -0.00061329 -0.0009455
0.0028037 -0.0011442 -0.0013984 -0.00051844 0.00032207 0.0016046 0.24435 0.0018487
-0.0038842 0.0070943 0.0011844 -0.0019851
-0.0019298 -0.00036832 -0.00077125 -9.618e-05 -0.0017168 -0.0002035 -0.0038761 0.0071239
0.22039 0.11759 0.00013712 0.0092163
0.00067533 0.00046484 -0.00094974 -0.0003136 -0.00062092 -0.0008964 0.0011686 -0.0020053
0.00014172 0.0092134 0.2648 0.16693
1760000000 0.27663 -0.073372 0.0045021 0.0060883 -0.0021937 0.00088188 0.0012998 -0.0032393
-0.0010022 0.00072588 0.00039219 -0.00049644
0.0044739 0.0060869 0.24856 0.20077 0.0015906 -0.00097383 -0.0011066 0.00023471
-0.0011741 0.00084547 -0.00052285 0.00058903
-0.0022404 0.00087298 0.0016148 -0.00096581 0.2107 -0.23004 0.0010862 0.0012652
-0.0011135 0.0013551 -0.0013124 -0.00038501
0.0012756 -0.0032314 -0.0010862 0.00019905 0.001105 0.0013046 0.23468 -0.050145
-0.001673 0.0064063 -0.00036328 -0.0021056
-0.00098449 0.00075446 -0.0011299 0.0008853 -0.0010801 0.0014248 -0.0016632 0.0064203
0.23461 0.081099 0.0039651 0.0066355
0.00032645 -0.00046631 -0.00044883 0.00058342 -0.0013589 -0.00033611 -0.0003689 -0.0021152
0.0039766 0.0066308 0.27664 0.12876
1820000000 0.25147 -0.11017 0.0045853 0.0025476 -6.8935e-05 0.0024313 -0.00088474 -0.003051
-0.00070252 0.00064557 1.2985e-05 -0.00016814
0.0045828 0.00254 0.25837 0.17087 -0.00031108 9.6961e-05 -0.0012773 0.00086609
-0.00017063 0.0013671 -0.00039249 0.00051456
-4.6916e-05 0.0023854 -0.00036505 0.00013142 0.16061 -0.24594 0.0016058 0.00040792
-0.00039337 0.0021038 -0.001411 0.00048974
-0.00088519 -0.0030387 -0.0012525 0.00085837 0.0015959 0.00042395 0.20388 -0.097513
-0.00096014 0.0051016 -0.0015544 -0.0013323
-0.00068667 0.00063315 -0.00016357 0.0013851 -0.00039366 0.0021061 -0.0009438 0.0051036
0.25067 0.050136 0.0047931 0.0031488
1.8455e-05 -0.00010389 -0.00035846 0.00053166 -0.0013923 0.00050281 -0.0015644 -0.0013354
0.0047926 0.0031463 0.27811 0.092455
1880000000 0.21617 -0.14972 0.002478 0.00033398 -0.00030598 0.0021073 -0.0027648 -0.0022493
-0.00013423 0.0013561 0.00034441 -0.00051594
0.0024655 0.00039558 0.26287 0.12459 -0.002102 0.0017274 -0.00012268 0.0016503
0.00064879 0.0014136 0.0002647 0.00088104
-0.00030584 0.0020827 -0.0021099 0.0017212 0.10868 -0.25541 0.002013 -0.0010425
0.0014884 0.0020256 -0.0008403 0.0014039
-0.0027602 -0.0021763 -0.00017844 0.0015636 0.0020766 -0.0010774 0.16253 -0.13716
-0.00094175 0.0040855 -0.002342 0.00063134
-0.00012191 0.0014005 0.00067668 0.0013732 0.0015301 0.0019898 -0.00093184 0.0040911
0.25196 0.01612 0.004419 0.00097607
0.00032159 -0.00061941 0.00024779 0.00072378 -0.00076043 0.0014138 -0.0023642 0.00064245
0.0044176 0.0009661 0.27703 0.058157
1940000000 0.17656 -0.17502 0.00011574 -0.0013872 0.0013624 0.0018053 -0.0037211 0.00044666
0.0011119 0.00094788 -0.00065646 -0.00064606
0.00020751 -0.0014168 0.26334 0.092849 -0.0010045 0.0038476 0.00097573 0.0013134
0.0020247 0.00060749 0.0008321 0.00015656
0.0014269 0.0018466 -0.0010395 0.0038005 0.062589 -0.24906 0.00036054 -0.0023245
0.0024507 0.00053514 0.00042115 0.0016849
-0.0037553 0.00041214 0.00095006 0.0013869 0.00037394 -0.0023766 0.10954 -0.16685
-0.0021381 0.0036959 -0.001248 0.0017882
0.001133 0.00090184 0.001958 0.00058233 0.0024462 0.00048379 -0.0021318 0.003704
0.2513 -0.024203 0.0030976 -0.0020948
-0.000652 -0.00064061 0.00064446 0.00017926 0.00041365 0.00161 -0.0012504 0.0017788
0.0030927 -0.0020901 0.26513 0.022098
2000000000 0.13048 -0.18905 -0.0036178 0.00054619 0.0023777 0.0015263 -0.0023238 0.0035608
0.001003 0.00027988 -0.00062547 0.00034941
-0.0035657 0.00055082 0.24923 0.057337 -0.00083115 0.0055982 0.0016675 0.000325
0.0015793 -0.0014336 0.00041929 0.00011503
0.0024087 0.0015373 -0.00079892 0.0055458 0.018881 -0.23438 -0.0015002 -0.0014568
0.0020343 -0.0012666 0.0016401 0.0013044
-0.0023329 0.0036732 0.0015921 0.00023864 -0.0015417 -0.001449 0.056476 -0.17561
-0.0033801 0.0047305 0.00027441 0.0023518
0.00092365 0.00027508 0.0016536 -0.0015513 0.0020183 -0.0012551 -0.0033662 0.0047554
