!Keysight Technologies,M9804A,MY58100912,A.14.10.03
!Date: Thursday, April 27, 2023 10:28:33
!Correction: S11(C  6-Port  ) 
!S12(C  6-Port  ) 
!S13(C  6-Port  ) 
!S14(C  6-Port  ) 
!S15(C  6-Port  ) 
!S16(C  6-Port  ) 
!S21(C  6-Port  ) 
!S22(C  6-Port  ) 
!S23(C  6-Port  ) 
!S24(C  6-Port  ) 
!S25(C  6-Port  ) 
!S26(C  6-Port  ) 
!S31(C  6-Port  ) 
!S32(C  6-Port  ) 
!S33(C  6-Port  ) 
!S34(C  6-Port  ) 
!S35(C  6-Port  ) 
!S36(C  6-Port  ) 
!S41(C  6-Port  ) 
!S42(C  6-Port  ) 
!S43(C  6-Port  ) 
!S44(C  6-Port  ) 
!S45(C  6-Port  ) 
!S46(C  6-Port  ) 
!S51(C  6-Port  ) 
!S52(C  6-Port  ) 
!S53(C  6-Port  ) 
!S54(C  6-Port  ) 
!S55(C  6-Port  ) 
!S56(C  6-Port  ) 
!S61(C  6-Port  ) 
!S62(C  6-Port  ) 
!S63(C  6-Port  ) 
!S64(C  6-Port  ) 
!S65(C  6-Port  ) 
!S66(C  6-Port  ) 
!S6P File: Measurement: :
# Hz S  RI   R 50
500000000 -0.33697 -0.035492 -0.0099347 -0.0039681 -0.0080864 0.011985 -0.0034374 0.011577
0.012456 0.0046739 -0.0035358 0.0083371
-0.01041 -0.0039951 -0.41941 -0.04954 0.007332 -0.011639 0.0014195 0.011763
0.0072382 0.0024702 0.0011418 0.012836
-0.0081225 0.01233 0.0073704 -0.011548 -0.26501 0.21135 0.0068233 0.003045
-0.00031907 0.0087228 0.00090424 0.011588
-0.0027856 0.011127 0.00064791 0.011735 0.0068024 0.0029251 -0.32734 0.047582
-0.019803 -0.0041579 0.01783 0.025147
0.01139 0.0043645 0.0079235 0.0024206 -0.00017793 0.0084067 -0.019665 -0.0042982
-0.22669 -0.18445 -0.027373 0.0052036
-0.0040205 0.0074393 0.00012832 0.012684 0.0008611 0.011459 0.017603 0.025244
-0.027428 0.0051985 -0.2725 -0.11204
560000000 -0.31627 0.12559 -0.023487 -0.063166 3.0457e-05 0.012358 0.0063189 0.0096478
0.010475 0.0039287 0.0096682 0.0072072
-0.023781 -0.061912 -0.37662 0.10904 -0.041269 -0.037173 0.013504 0.0037466
-0.013219 -0.0048795 0.0041265 -0.00068931
-9.477e-05 0.012722 -0.042079 -0.036959 -0.18286 0.2599 -0.00047073 -0.0048914
0.019088 0.0045447 0.0071387 -0.0058273
0.0061369 0.0099552 0.013608 0.0027849 -0.00031087 -0.0051838 -0.3025 0.1356
0.0037007 -0.024609 0.0047477 -0.019489
0.011645 0.00359 -0.01476 -0.0041033 0.019078 0.0048767 0.0038171 -0.024291
-0.28567 -0.0095268 0.0077147 -0.049482
0.010125 0.0078728 0.0049307 -6.1474e-05 0.0071469 -0.0061439 0.0046575 -0.019437
0.0076604 -0.049464 -0.3304 0.033709
620000000 -0.27402 0.10894 -0.023135 0.0076154 0.0036522 0.0086991 0.0068045 -0.0053523
0.011636 -0.00071559 0.00053865 -0.0022435
-0.023079 0.0075303 -0.40251 0.062689 -0.018802 -0.00030408 -0.0011794 -0.001916
0.010352 -0.0071682 0.0010922 -0.0027931
0.0033494 0.0086515 -0.018698 -0.00016535 -0.15283 0.2678 -0.0012273 -0.005237
-0.0039057 -0.0033063 0.0079423 -0.0036289
0.0062135 -0.0059408 -0.0015099 -0.0017074 -0.0013629 -0.0052266 -0.26131 0.14606
-0.038398 -0.018624 0.014486 0.023672
0.01136 0.00023614 0.010555 -0.0075138 -0.0039294 -0.0032126 -0.038848 -0.018222
-0.20517 -0.049401 -0.040033 0.014471
-4.6031e-05 -0.0023028 0.00083424 -0.0026168 0.0082618 -0.0033789 0.014722 0.023864
-0.04007 0.014487 -0.24964 -0.0020416
680000000 -0.23284 0.19478 -0.027728 -0.013565 0.0048963 0.004834 0.0011695 -0.0076083
-0.0031265 -0.011029 0.0043915 -0.0067107
-0.027922 -0.013451 -0.38701 0.15983 -0.032643 -0.0011981 -0.0016254 -0.00028028
-0.0025747 -0.0089795 -0.0011001 -0.0019944
0.0050872 0.0052025 -0.032776 -0.0011862 -0.10161 0.28769 -0.0008038 0.00015636
-0.0021185 0.00055331 -0.0029436 -0.0093389
0.0010642 -0.0073572 -0.0015618 -0.00057698 -0.00080599 -2.6512e-05 -0.2192 0.19576
-0.023475 -0.0080751 -0.0087206 -0.010522
-0.0035892 -0.010956 -0.0028478 -0.008587 -0.0020476 0.00068648 -0.023554 -0.0080319
-0.25236 0.048605 -0.0058739 -0.0090976
0.0046521 -0.0063084 -0.00040485 -0.0023435 -0.0029652 -0.009335 -0.0086412 -0.010496
-0.005875 -0.0091271 -0.25864 0.099914
740000000 -0.18914 0.18926 -0.038384 0.026674 0.012442 -0.0049677 -0.00048757 -0.0038959
-0.0042874 -0.0031658 -0.0064886 0.0038053
-0.038358 0.026245 -0.335 0.17891 -0.034723 0.034912 -0.0008417 -0.0063556
-0.011638 0.0083952 -0.0027075 -0.0063811
0.012974 -0.0050257 -0.035057 0.035274 -0.0679 0.28651 -0.0016014 0.0032526
-0.0029005 -0.0040036 -0.0012232 0.0002279
-0.00075917 -0.004358 -0.00069428 -0.0060423 -0.0016287 0.0032424 -0.20205 0.20308
-0.042536 -0.0077897 0.021709 0.013077
-0.0048131 -0.0032921 -0.011812 0.0078427 -0.0028499 -0.0038274 -0.042626 -0.0078512
-0.15663 0.073221 -0.04204 0.00042064
-0.0065888 0.0035516 -0.0033512 -0.0051048 -0.0012489 0.00027397 0.021771 0.013024
-0.042092 0.00035453 -0.24607 0.10561
800000000 -0.15691 0.22879 -0.02242 0.017233 0.0052573 -0.010503 -0.0047458 -0.0019958
-0.0039353 0.002556 0.0042787 0.0009569
-0.022462 0.01727 -0.33701 0.24853 -0.0076345 0.034001 -0.0021335 0.0022772
-0.00063785 0.0034032 0.0011174 0.0052725
0.0051823 -0.01044 -0.0075678 0.033989 -0.026779 0.30922 0.0011516 0.0015468
0.0006975 0.0035824 -0.0017373 0.0010973
-0.0050068 -0.0016241 -0.0022237 0.0023486 0.0011007 0.0015196 -0.17405 0.23069
-0.028229 0.012627 0.012956 -0.0097623
-0.0041056 0.0024636 -0.00024559 0.0035606 0.00079468 0.0036988 -0.028257 0.012693
-0.20058 0.096854 -0.017335 0.017129
0.0038781 0.0014605 0.0013487 0.0053365 -0.00158 0.0010452 0.013022 -0.0097794
-0.017325 0.017115 -0.23771 0.15722
860000000 -0.12244 0.24978 -0.017055 0.031193 -0.003424 -0.0097584 -0.002551 0.0011974
0.0041818 0.0050494 -0.0029459 -0.0025755
-0.017111 0.031314 -0.28925 0.29053 0.0082126 0.033944 0.00015817 0.0020615
0.0044501 0.0002978 0.0033331 0.00060196
-0.0034678 -0.0095866 0.0083317 0.033995 0.021571 0.31689 -0.00038103 -0.00023108
0.0029054 -0.001516 0.0015402 0.0043821
-0.0024949 0.00096139 3.7279e-06 0.0022159 -0.00039456 -0.00023416 -0.13833 0.24233
-0.017798 0.018722 -0.005992 -0.0087025
0.0046744 0.004826 0.0045996 1.7647e-05 0.0027026 -0.0015929 -0.017805 0.018746
-0.15097 0.14552 -0.024218 0.014956
-0.003387 -0.0026396 0.0030081 0.00053104 0.0014989 0.0043675 -0.0059799 -0.0087817
-0.024246 0.014933 -0.18756 0.19887
920000000 -0.097059 0.27283 0.0055638 0.037683 -0.0092706 -0.0042135 -0.0018952 0.002287
0.0012002 0.0014677 0.0024711 -0.0016255
0.0054246 0.037684 -0.26033 0.31121 0.027973 0.021447 0.001595 0.001092
0.006797 -0.00073607 0.0039516 -0.0029914
-0.0093796 -0.0041281 0.028158 0.021268 0.067774 0.31707 0.0017716 -0.00015381
0.0011894 -0.00050364 0.00082842 -0.0010706
-0.0017376 0.0024274 0.0016827 0.0011089 0.0018454 -0.00020422 -0.11405 0.25875
-0.010295 0.029882 0.0026266 -0.0065523
0.0012998 0.0016812 0.006935 -0.00087491 0.0011666 -0.00048227 -0.010245 0.029927
-0.14057 0.15112 -0.0022087 0.027096
0.0025647 -0.001553 0.0040956 -0.0030581 0.00080061 -0.00096194 0.0025984 -0.0064777
-0.002238 0.027115 -0.19242 0.21301
980000000 -0.049109 0.29205 0.017854 0.029744 -0.0087091 0.0046248 0.0024024 0.0038014
0.0039381 -0.0017471 -0.0029952 -0.0021185
0.018013 0.029676 -0.20742 0.34493 0.032713 0.0044087 0.0020253 -6.7849e-06
0.0011083 -0.006199 -0.00058461 -0.0021109
-0.0087239 0.004689 0.032719 0.0043282 0.11401 0.31016 0.00042402 -0.0011811
4.8966e-05 -0.0021171 0.001495 -2.6166e-05
0.0024979 0.0037794 0.0018743 3.7466e-05 0.00045306 -0.001183 -0.075988 0.27028
0.007377 0.028436 -0.0091258 -0.0066291
0.0040833 -0.0017263 0.0010147 -0.0060547 -1.6347e-05 -0.0021718 0.0074509 0.028426
-0.10902 0.1783 0.004565 0.018534
-0.003129 -0.0021324 -0.00097986 -0.0022933 0.001391 -0.00010543 -0.0090838 -0.0066591
0.0045763 0.018527 -0.14929 0.25714
1040000000 -0.0066935 0.30002 0.033281 0.017532 -0.0011182 0.0067543 0.0028036 0.00071315
-4.0684e-05 -0.0037653 -0.00052677 -0.0015079
0.033266 0.017452 -0.17176 0.35773 0.028808 -0.014876 0.0015127 -0.0017059
-0.0026288 -0.0024422 -0.0014473 -0.0025792
-0.0010698 0.0067097 0.028766 -0.014996 0.15997 0.29615 -0.00053273 -0.0014243
-0.0016065 -0.00079164 -0.000433 -0.0011471
0.0027248 0.00069532 0.0014795 -0.0017281 -0.00048793 -0.0014188 -0.048349 0.28025
0.018167 0.016995 -0.0030385 0.0020636
-0.00012861 -0.0038209 -0.0023666 -0.0023557 -0.0015179 -0.00077153 0.018194 0.016959
-0.078378 0.18704 0.013104 0.017578
-0.00050669 -0.0015238 -0.0014472 -0.0027813 -0.00049322 -0.0011142 -0.0029837 0.0020589
0.013108 0.017587 -0.12738 0.27611
1100000000 0.03917 0.3071 0.035456 -0.0047365 0.0028441 0.0036901 0.0026005 -0.0014095
-0.002117 -0.0030236 -0.0038934 0.00012024
0.035533 -0.0047512 -0.12813 0.37464 0.014693 -0.027496 4.6668e-05 -0.001815
-0.0031575 -0.00042604 -0.0033103 -0.00044562
0.0028572 0.0036592 0.014586 -0.027615 0.20601 0.27563 -0.0017578 0.00022676
-0.0017244 0.00071528 -0.00091222 -0.00030627
0.0026586 -0.0013421 -3.3477e-05 -0.001854 -0.0017653 0.00023795 -0.0078195 0.28519
0.022548 0.0048804 -0.0023681 0.00095527
-0.0020451 -0.0030571 -0.0032859 -0.00039097 -0.0016818 0.00064729 0.022562 0.0048676
-0.060033 0.20014 0.018351 0.0083366
-0.0038776 0.00015236 -0.0032235 -0.00047443 -0.00082714 -0.00026988 -0.0023883 0.00094399
0.018334 0.0083368 -0.080639 0.30358
1160000000 0.09042 0.30167 0.023449 -0.020987 0.0025802 -0.0005242 -0.0001678 -0.0025761
-0.0040255 -0.00050707 -0.00093764 0.0038203
0.023462 -0.020841 -0.084421 0.37848 -0.0039032 -0.028677 -0.001759 -0.0016424
-0.0024384 0.0026452 -0.001197 0.0015851
0.0026024 -0.00054014 -0.0040285 -0.028634 0.24886 0.2447 -0.00061643 0.0017192
-0.00033594 0.0018547 -0.00089011 9.485e-05
-0.00012021 -0.002562 -0.0017503 -0.0016225 -0.0006154 0.0017034 0.031585 0.28219
0.019077 -0.0096476 -0.0026072 0.0055857
-0.0040309 -0.00051609 -0.002447 0.0024172 -0.0003188 0.0018475 0.019056 -0.0096612
-0.026787 0.20939 0.01697 0.00073803
-0.00091137 0.0036367 -0.001302 0.0018698 -0.00095921 0.00011277 -0.0026164 0.0055579
0.016949 0.00074311 -0.033474 0.30573
1220000000 0.13497 0.28986 0.0098425 -0.029885 -0.0015465 -0.00074446 -0.00010356 -0.001171
-0.0025108 0.0025294 0.0013612 0.0018696
0.0098826 -0.029827 -0.040139 0.38993 -0.016687 -0.020686 -0.0024801 0.00044835
0.00026255 0.002854 -0.00066394 0.0017623
-0.001605 -0.00076592 -0.016811 -0.02061 0.28782 0.20576 0.00087621 0.0015518
0.00059037 0.0011062 0.00025151 0.0006523
-0.00013258 -0.0011082 -0.0024722 0.00053916 0.00088188 0.001598 0.071277 0.27376
0.0090889 -0.015269 0.0026968 0.0017169
-0.0026665 0.0025486 0.00029518 0.0028604 0.00062726 0.0011144 0.0091101 -0.015303
-0.0035684 0.21881 0.013274 -0.011847
0.0013011 0.0019035 -0.00078773 0.0018434 0.00023274 0.00067497 0.0026759 0.0017079
0.013249 -0.011823 -0.0015924 0.321
1280000000 0.18427 0.26727 -0.0082193 -0.027992 -0.0017566 0.0025488 -0.0011382 -0.0020128
-0.00060773 0.0029877 0.0024754 0.00096615
-0.008182 -0.027965 0.005586 0.38067 -0.02328 -0.0082772 -0.0010149 0.0014743
0.0016336 0.0015811 0.00048109 0.0018798
-0.0017449 0.0025657 -0.023347 -0.0082123 0.31849 0.16191 0.0013812 -0.00017385
0.00099012 -1.9539e-06 0.00030162 0.00030915
-0.0011473 -0.0019836 -0.0009962 0.0014687 0.001394 -0.00015643 0.10776 0.25764
0.00048044 -0.016883 0.00052734 9.4348e-05
-0.00050305 0.0029979 0.0016003 0.0015619 0.00099498 -2.5436e-06 0.00045709 -0.016903
0.033313 0.2226 0.0029114 -0.0138
0.0025782 0.00097567 0.00061303 0.0020212 0.00028714 0.00031107 0.0005131 0.0001063
0.0029084 -0.0138 0.045577 0.32096
1340000000 0.22106 0.23291 -0.017672 -0.018461 0.00092953 0.0043775 -0.0019444 -0.000754
0.0015007 0.0026033 0.0016546 -0.0014486
-0.017722 -0.018513 0.044821 0.37219 -0.021173 0.0041239 -4.9799e-05 0.0019583
0.0017302 0.00062593 0.0013002 0.00090243
0.00095842 0.0043544 -0.021226 0.0042417 0.34072 0.11395 0.00093789 -0.00083993
0.00057318 -0.00040278 0.00014041 0.00024515
-0.0018878 -0.00069862 -3.6476e-05 0.0019478 0.00095663 -0.00087241 0.14072 0.23759
-0.0075915 -0.014017 0.0013132 4.1614e-05
0.0015736 0.0025681 0.0017592 0.00056857 0.00059078 -0.00038956 -0.0076165 -0.014029
0.063671 0.21815 -0.0030847 -0.012603
0.001606 -0.0015363 0.0012888 0.00085646 0.00012479 0.00030337 0.0013157 6.8658e-05
-0.0030716 -0.012596 0.084021 0.31534
1400000000 0.2535 0.19439 -0.023096 -0.0070888 0.0050645 0.002952 -0.002001 0.00074924
0.0025051 0.0007105 0.00016684 -0.001309
-0.0231 -0.0070918 0.081689 0.35904 -0.014618 0.01208 0.0013618 0.0012926
0.00099209 -0.00082879 0.0011383 0.0002395
0.0050874 0.0029595 -0.014589 0.012199 0.35391 0.060072 8.3953e-05 -0.0014152
2.0518e-05 -0.00038228 0.00026086 0.00015045
-0.0020276 0.00078155 0.0013233 0.0012673 6.2566e-05 -0.0014114 0.17056 0.20909
-0.012415 -0.0080661 -0.00052651 -0.00087285
0.00251 0.00071918 0.00094909 -0.00081996 3.167e-05 -0.00037355 -0.012465 -0.0080656
0.09676 0.21351 -0.0092019 -0.0081655
0.00015531 -0.0013342 0.001165 0.00013364 0.000291 0.00019049 -0.00051322 -0.00083376
-0.0091962 -0.0081677 0.12792 0.30363
1460000000 0.27613 0.15028 -0.0201 0.004833 0.0054264 -0.0017521 -0.0015327 0.0017741
0.0019172 -0.00073898 -0.00037933 -0.00085989
-0.02008 0.0047992 0.11579 0.33724 -0.0062139 0.014912 0.0016921 0.00016094
0.00080229 -0.0011175 0.0011813 -0.00058004
0.005404 -0.0018062 -0.0061219 0.014999 0.3597 0.005195 -0.0010631 -0.0011631
0.0002404 -5.8044e-05 0.00065183 -0.00040073
-0.0015218 0.0018534 0.0016575 0.00010413 -0.0010352 -0.0011452 0.19756 0.17998
-0.012967 -0.00257 -0.001058 0.0014104
0.0019403 -0.00067476 0.00076883 -0.0011077 0.00026551 -5.5946e-05 -0.012983 -0.0025487
0.1268 0.1989 -0.010849 -0.0028968
-0.00033875 -0.0009298 0.0012298 -0.0006437 0.00060357 -0.00034991 -0.0010414 0.0014244
-0.010828 -0.0029044 0.16106 0.28174
1520000000 0.28792 0.10829 -0.014405 0.010263 0.0030591 -0.0040628 0.00018777 0.0025831
0.0017397 -0.0016918 -0.0011443 -0.0001278
-0.014411 0.010258 0.14921 0.32237 0.0012768 0.012945 0.0016034 -0.00080727
7.5269e-05 -0.0008618 0.0003415 -0.0010083
0.0030897 -0.0040702 0.0013193 0.012966 0.35257 -0.051149 -0.00091874 -0.00038039
0.0005585 -0.0007907 -3.3343e-05 -5.8406e-05
0.00022446 0.0025258 0.0015465 -0.00081899 -0.00091132 -0.00038504 0.22139 0.14172
-0.012405 0.0019168 0.00095016 0.001701
0.001766 -0.0017075 7.7797e-05 -0.00089268 0.00055508 -0.00076514 -0.012432 0.0019462
0.15508 0.18431 -0.010958 0.0011424
-0.0011988 -0.00015469 0.00027743 -0.0010117 -1.0587e-05 -2.6422e-05 0.00095981 0.001687
-0.010956 0.0011332 0.19363 0.26034
1580000000 0.29686 0.061631 -0.0079096 0.01318 -0.00089237 -0.004736 0.0013736 0.0018052
-0.00051757 -0.0020673 -0.00035959 0.00040029
-0.0078995 0.013151 0.1764 0.29757 0.0049388 0.0083176 0.00042406 -0.0015626
-0.00039138 -0.00098709 -0.00025227 -0.00086521
-0.00091586 -0.0046758 0.0049982 0.0082921 0.33199 -0.10876 -0.0014877 0.00041349
-0.00023826 -0.0011276 0.00014091 -0.00054775
0.0014349 0.0018499 0.00040927 -0.0015503 -0.0015078 0.00041668 0.23608 0.10184
-0.0097221 0.0058457 0.0017654 0.00064429
-0.00052381 -0.0020443 -0.0003947 -0.0010214 -0.00022839 -0.001124 -0.0097194 0.0058656
0.17988 0.16593 -0.0087977 0.0064515
-0.00035237 0.00038632 -0.00023398 -0.00087052 0.00015655 -0.00052927 0.0017629 0.00061674
-0.0088035 0.0064372 0.22482 0.23286
1640000000 0.29836 0.019849 -0.0014052 0.012072 -0.00267 -0.0025535 0.0025696 0.00097368
-0.0008129 -0.0011038 -0.00031279 0.000657
-0.0014248 0.012082 0.20583 0.27235 0.0056848 0.003634 -0.00071749 -0.0016414
-0.00091102 -0.00048236 -0.00054926 -0.00065677
-0.0026887 -0.0025496 0.0056902 0.0036265 0.30342 -0.15802 -0.00086401 0.0013127
-0.0010568 -0.00088917 -8.6588e-05 -0.00030065
0.002587 0.00097802 -0.0007196 -0.0016167 -0.00086204 0.0013054 0.2487 0.051962
-0.0064004 0.0067198 0.0021361 -0.00062351
-0.00080301 -0.0010436 -0.00093879 -0.00048417 -0.0010033 -0.0009127 -0.0063925 0.006744
0.20317 0.14047 -0.0046109 0.008619
-0.00032546 0.00066533 -0.00060337 -0.0005767 -7.7681e-05 -0.00030803 0.0021151 -0.00064021
-0.0046121 0.0086187 0.24995 0.2009
1700000000 0.29037 -0.025719 0.0019522 0.0093825 -0.0034336 6.3732e-05 0.0029127 -0.0011014
-0.0018232 -0.00041011 0.00063068 0.00040093
0.0019397 0.0093598 0.22384 0.24066 0.0038539 0.00080289 -0.0013785 -0.00055799
-0.00079663 -5.1765e-05 -0.0009138 -0.00043922
-0.0034608 0.00011584 0.0038555 0.00077274 0.25944 -0.19779 0.00033267 0.0016163
-0.001757 -0.00026998 -0.00054361 -0.00093669
0.0028727 -0.0010954 -0.0013972 -0.00056747 0.00031676 0.0016325 0.24523 0.0010089
-0.0045419 0.0072555 0.0012763 -0.0019773
-0.0018457 -0.0003946 -0.00078822 -6.6112e-05 -0.0017601 -0.00029223 -0.0045109 0.0072609
0.22089 0.11885 -0.00029767 0.0090348
0.00068158 0.00045296 -0.00093608 -0.00042288 -0.00057098 -0.00097507 0.0012534 -0.0019919
-0.00029175 0.0090346 0.26539 0.16611
1760000000 0.2772 -0.074379 0.0042786 0.0062333 -0.0022635 0.00083452 0.0013411 -0.0032778
-0.0010372 0.00062542 0.00040048 -0.00052934
0.004271 0.0061938 0.24968 0.20062 0.0017519 -0.00095913 -0.0011116 0.00019466
-0.0011668 0.0008388 -0.00062494 0.00052649
-0.0022547 0.0008593 0.001752 -0.00094587 0.21024 -0.23058 0.0010577 0.0012773
-0.0011622 0.0013194 -0.0013001 -0.00047008
0.0013254 -0.0032705 -0.0010991 0.00019282 0.0010852 0.0013153 0.23507 -0.051334
-0.0020261 0.0068781 -0.00037293 -0.0021415
-0.00098097 0.00065075 -0.0011547 0.00088172 -0.0011628 0.001354 -0.0020138 0.0068822
0.23571 0.082123 0.0034663 0.0066653
0.00044026 -0.00053471 -0.00057866 0.00058439 -0.0013183 -0.00042059 -0.00037697 -0.0021489
0.0034692 0.0066555 0.27712 0.1281
1820000000 0.25153 -0.11117 0.004481 0.0026876 -8.1689e-05 0.0024063 -0.00092843 -0.0030679
-0.0008123 0.00060813 3.4145e-05 -0.00016232
0.0045029 0.0026955 0.2593 0.17024 -0.00012961 -7.9349e-06 -0.0013456 0.00084918
-0.00016113 0.0013774 -0.00051216 0.00057095
-5.4429e-05 0.0023661 -0.00017135 1.2459e-05 0.16046 -0.24601 0.0015421 0.00047457
-0.00040938 0.0021691 -0.0014608 0.00051322
-0.00093871 -0.0031015 -0.0013206 0.00080368 0.0015287 0.00043759 0.20373 -0.098731
-0.00096106 0.0056661 -0.0015908 -0.0013375
-0.00079224 0.00061407 -0.00015239 0.0013662 -0.00041755 0.0021636 -0.00096577 0.0056617
0.25206 0.050752 0.0044328 0.0033663
3.1446e-05 -0.00012386 -0.00045862 0.00061746 -0.0013662 0.00050834 -0.0015888 -0.0013132
0.0044417 0.0033612 0.27852 0.091693
1880000000 0.21551 -0.1507 0.0024213 0.00036453 -0.0004185 0.0020758 -0.0028362 -0.0022361
-0.00025104 0.0013375 0.00035279 -0.0005347
0.0024083 0.00043522 0.26344 0.12361 -0.0021032 0.0015585 -0.0001891 0.0016808
0.00064704 0.0014084 0.00025674 0.0010185
-0.00039996 0.0020536 -0.0021009 0.0015514 0.10826 -0.25543 0.0019814 -0.00091224
0.0014077 0.0020766 -0.00083373 0.0013997
-0.0028511 -0.0021848 -0.00019195 0.0016899 0.0020029 -0.00096592 0.1618 -0.13807
-0.0006578 0.0045057 -0.0022643 0.00071447
-0.00025125 0.0013667 0.00070316 0.0014436 0.0014395 0.0021234 -0.00066411 0.0045101
0.25358 0.016162 0.0041464 0.0014745
0.00031444 -0.00053972 0.00026982 0.00090516 -0.00074779 0.0014507 -0.0022617 0.00074796
0.0041447 0.0014677 0.27723 0.057547
1940000000 0.17582 -0.17551 0.00011294 -0.00134 0.0013323 0.0019406 -0.0037635 0.00054354
0.0010719 0.0011469 -0.00059107 -0.0006311
0.00014441 -0.0013504 0.26355 0.091714 -0.0011292 0.0037311 0.00095814 0.0013379
0.0020221 0.00060353 0.0009087 0.00023938
0.0013531 0.0019373 -0.0011125 0.003702 0.06209 -0.24887 0.00041894 -0.0023334
0.0024834 0.00055423 0.00047784 0.001645
-0.0037157 0.00057005 0.000962 0.0013954 0.00038908 -0.0023864 0.10864 -0.16734
-0.001796 0.0038444 -0.0012308 0.0017042
0.001116 0.0011425 0.0019852 0.0005934 0.0024542 0.00057156 -0.0017688 0.0038549
0.25296 -0.024739 0.0030851 -0.0016106
-0.00067903 -0.0006917 0.00083502 0.00027398 0.00039782 0.0016688 -0.0012146 0.0017195
0.0030825 -0.0016034 0.2653 0.021522
2000000000 0.12953 -0.18902 -0.0037764 0.00061807 0.0024497 0.0015974 -0.0023167 0.0036001
0.00097691 0.00042119 -0.00072637 0.000402
-0.0036823 0.00067215 0.24883 0.05625 -0.00094707 0.0056285 0.001689 0.00033912
0.0015317 -0.0014194 0.00051828 4.7988e-05
0.0025247 0.0015657 -0.0010055 0.0056118 0.018568 -0.23414 -0.0014457 -0.001483
0.0020962 -0.0011977 0.001632 0.0012238
-0.002403 0.0035927 0.0016991 0.00029924 -0.0014147 -0.0014663 0.05549 -0.1756
-0.0031055 0.004592 0.00016231 0.0021363
0.00089266 0.0003597 0.0015986 -0.0014867 0.0020601 -0.0012315 -0.0030952 0.0045929
