!Keysight Technologies,M9804A,MY58100912,A.14.10.03
!Date: Thursday, April 27, 2023 10:28:33
!Correction: S11(C  6-Port  ) 
!S12(C  6-Port  ) 
!S13(C  6-Port  ) 
!S14(C  6-Port  ) 
!S15(C  6-Port  ) 
!S16(C  6-Port  ) 
!S21(C  6-Port  ) 
!S22(C  6-Port  ) 
!S23(C  6-Port  ) 
!S24(C  6-Port  ) 
!S25(C  6-Port  ) 
!S26(C  6-Port  ) 
!S31(C  6-Port  ) 
!S32(C  6-Port  ) 
!S33(C  6-Port  ) 
!S34(C  6-Port  ) 
!S35(C  6-Port  ) 
!S36(C  6-Port  ) 
!S41(C  6-Port  ) 
!S42(C  6-Port  ) 
!S43(C  6-Port  ) 
!S44(C  6-Port  ) 
!S45(C  6-Port  ) 
!S46(C  6-Port  ) 
!S51(C  6-Port  ) 
!S52(C  6-Port  ) 
!S53(C  6-Port  ) 
!S54(C  6-Port  ) 
!S55(C  6-Port  ) 
!S56(C  6-Port  ) 
!S61(C  6-Port  ) 
!S62(C  6-Port  ) 
!S63(C  6-Port  ) 
!S64(C  6-Port  ) 
!S65(C  6-Port  ) 
!S66(C  6-Port  ) 
!S6P File: Measurement: :
# Hz S  RI   R 50
500000000 -0.3368 -0.035466 -0.0095029 -0.0035279 -0.0079342 0.01171 -0.0033133 0.01161
0.012176 0.0048428 -0.0035202 0.0078809
-0.0094791 -0.0035991 -0.41929 -0.049745 0.0074555 -0.011329 0.0017644 0.011847
0.0074217 0.002605 0.0012804 0.013099
-0.0079316 0.011677 0.0074339 -0.011356 -0.26453 0.21094 0.0070297 0.0031059
-0.00022906 0.008465 0.00074171 0.011966
-0.0032704 0.011644 0.0017884 0.011857 0.0070297 0.0031039 -0.32691 0.047023
-0.019865 -0.0044004 0.017825 0.025177
0.012125 0.0047494 0.0074476 0.0025773 -0.00023028 0.0084679 -0.019874 -0.0043887
-0.226 -0.18527 -0.027562 0.0045993
-0.0034552 0.0079315 0.0013067 0.013105 0.0007417 0.011978 0.017824 0.025179
-0.027549 0.004594 -0.27222 -0.11407
560000000 -0.31604 0.12411 -0.023853 -0.062607 1.3098e-06 0.011762 0.006461 0.0099753
0.010526 0.0039137 0.0099002 0.0076393
-0.023901 -0.0626 -0.37602 0.10859 -0.04217 -0.03681 0.013582 0.0035913
-0.01382 -0.0044313 0.004454 -0.00073259
0.00010297 0.011772 -0.042299 -0.036746 -0.1825 0.25833 -0.00059963 -0.0046745
0.019686 0.0039454 0.0069272 -0.0058726
0.0065624 0.0099849 0.013617 0.0035706 -0.00059805 -0.0046684 -0.30177 0.13556
0.0036609 -0.024529 0.0044744 -0.019285
0.010524 0.0039379 -0.013849 -0.0044123 0.019692 0.0039359 0.0036477 -0.024531
-0.28479 -0.010341 0.0073917 -0.050041
0.0098626 0.0075823 0.0044358 -0.00070876 0.0069238 -0.0058793 0.0044707 -0.019284
0.0074023 -0.05005 -0.33074 0.031883
620000000 -0.27327 0.10956 -0.023171 0.0074043 0.0036081 0.0086002 0.0067436 -0.0055902
0.011394 -0.0006213 0.00012259 -0.0024271
-0.023215 0.0074168 -0.40234 0.062239 -0.018912 -0.00019635 -0.0012485 -0.0020602
0.010214 -0.0072372 0.0011491 -0.002656
0.0035468 0.0085949 -0.018933 -0.00014809 -0.15265 0.26747 -0.0015421 -0.0052541
-0.0041222 -0.0033779 0.0081603 -0.0034834
0.0066919 -0.0056129 -0.0012465 -0.0020497 -0.0015344 -0.0052487 -0.26141 0.14561
-0.038685 -0.01841 0.014243 0.024189
0.011466 -0.00072895 0.010193 -0.007272 -0.0041182 -0.0033767 -0.038686 -0.018368
-0.20426 -0.050168 -0.040606 0.013974
0.00020226 -0.0025267 0.0011274 -0.002655 0.008157 -0.0034788 0.014255 0.024194
-0.040608 0.013946 -0.24978 -0.0041392
680000000 -0.23326 0.19287 -0.027926 -0.013971 0.0048529 0.005112 0.0010502 -0.0077113
-0.0034541 -0.010973 0.0041199 -0.0063624
-0.027871 -0.013983 -0.38709 0.15896 -0.033055 -0.0012879 -0.0017827 -0.00034031
-0.0028168 -0.0089492 -0.0011089 -0.001919
0.0048674 0.0050914 -0.033093 -0.0011986 -0.10224 0.28717 -0.00080473 0.00013075
-0.0024195 0.000846 -0.0028588 -0.0094144
0.0010699 -0.0077052 -0.0017783 -0.00033047 -0.00080349 0.00012728 -0.2191 0.19482
-0.0237 -0.0083682 -0.0085699 -0.010435
-0.0034779 -0.011005 -0.002841 -0.0089584 -0.0024297 0.00086036 -0.023711 -0.0083544
-0.25181 0.047716 -0.0058697 -0.0093068
0.0040556 -0.0063646 -0.00113 -0.0019239 -0.002862 -0.0094088 -0.0085725 -0.010441
-0.0058517 -0.0093042 -0.25876 0.09874
740000000 -0.18955 0.18823 -0.038731 0.026538 0.01271 -0.0052293 -0.00084371 -0.0039871
-0.0047173 -0.0024145 -0.0064028 0.0031331
-0.038728 0.026476 -0.33487 0.17726 -0.034916 0.035349 -0.00071859 -0.006333
-0.012022 0.0077475 -0.0024564 -0.005803
0.012696 -0.0052462 -0.03485 0.035483 -0.068827 0.28605 -0.0014839 0.0033866
-0.0025807 -0.0041277 -0.001486 0.00033754
-0.00089086 -0.0040025 -0.00073115 -0.0063504 -0.0014728 0.003391 -0.20248 0.20242
-0.043006 -0.0083654 0.02208 0.013315
-0.0047151 -0.0024457 -0.011983 0.0077948 -0.0026043 -0.0041215 -0.043033 -0.0083267
-0.15684 0.071951 -0.041805 -0.00010948
-0.0063376 0.0031765 -0.0025033 -0.0057525 -0.0014866 0.00034284 0.022092 0.013301
-0.041764 -0.00014176 -0.24647 0.10396
800000000 -0.15746 0.22815 -0.02253 0.017272 0.0052997 -0.01055 -0.0048598 -0.0019352
-0.0040606 0.0027795 0.0043786 0.0010054
-0.022545 0.01727 -0.33777 0.24811 -0.0078244 0.034337 -0.0021045 0.0022338
-0.00055788 0.0034771 0.0012236 0.0054063
0.0052756 -0.010564 -0.0077301 0.034395 -0.027609 0.30926 0.0011553 0.0014909
0.00068661 0.0035357 -0.001814 0.0010953
-0.0048743 -0.001941 -0.0021019 0.0022516 0.0011558 0.0014924 -0.17485 0.22996
-0.028552 0.012481 0.012898 -0.0098847
-0.0041251 0.0028317 -0.00053592 0.0034912 0.00069252 0.0035409 -0.028554 0.012534
-0.20091 0.095236 -0.017552 0.01718
0.004398 0.00099088 0.0012291 0.0054098 -0.0018085 0.0010973 0.012904 -0.0099188
-0.017564 0.017165 -0.23809 0.15514
860000000 -0.1229 0.24928 -0.017226 0.031185 -0.0033483 -0.0099263 -0.0024017 0.0014063
0.004134 0.0051814 -0.0028859 -0.0028684
-0.017227 0.031145 -0.28977 0.29031 0.008375 0.034484 0.00022708 0.0021489
0.0044621 0.00017884 0.003439 0.00032799
-0.0033556 -0.0099215 0.0084808 0.03449 0.020819 0.31735 -0.00042555 -0.00027666
0.0028611 -0.0015229 0.0017533 0.0043206
-0.0024328 0.0014188 0.00024828 0.0021603 -0.00042833 -0.00027746 -0.13936 0.24215
-0.018432 0.01898 -0.0058764 -0.0089581
0.0041392 0.0051624 0.0044707 0.00015437 0.0028595 -0.0015245 -0.018419 0.019036
-0.15219 0.14398 -0.024157 0.015139
-0.0028712 -0.0028724 0.0034317 0.00031685 0.0017634 0.0043152 -0.0058824 -0.0089562
-0.024162 0.015115 -0.18878 0.19723
920000000 -0.097485 0.27243 0.0053104 0.037882 -0.0094927 -0.0043397 -0.0017792 0.0022837
0.0015221 0.0016153 0.0024964 -0.0015881
0.0052978 0.03786 -0.26072 0.31113 0.028316 0.021767 0.0016992 0.0010921
0.0068581 -0.00081657 0.0038661 -0.002959
-0.0095059 -0.004311 0.028415 0.0217 0.067359 0.31776 0.0017668 -0.00013628
0.0012405 -0.00053848 0.00080756 -0.0010642
-0.0017711 0.0023254 0.0017167 0.0010982 0.001757 -0.00013567 -0.11496 0.25898
-0.010506 0.030415 0.0025884 -0.0065975
0.0015379 0.0015896 0.0068521 -0.00084927 0.0012376 -0.00054169 -0.010447 0.030447
-0.14185 0.14971 -0.0024699 0.027384
0.0024609 -0.0016387 0.0038517 -0.0030101 0.00080628 -0.0010721 0.0025744 -0.0066113
-0.0024831 0.02738 -0.19355 0.21136
980000000 -0.049855 0.29204 0.018118 0.030008 -0.0089064 0.0047288 0.0025019 0.0036965
0.0039469 -0.0018869 -0.0029661 -0.0020549
0.018052 0.029995 -0.20778 0.34497 0.033231 0.0044656 0.002027 -0.00011365
0.0010968 -0.0063691 -0.00061054 -0.0021702
-0.0088912 0.0047563 0.033261 0.0043633 0.11385 0.31096 0.00043307 -0.0011736
1.121e-05 -0.002209 0.0015062 -0.00010594
0.0025123 0.0036782 0.0020354 -0.00010778 0.00042571 -0.0011758 -0.0766 0.27067
0.0077166 0.029061 -0.0091978 -0.0067412
0.0039565 -0.0019337 0.0010587 -0.0063749 9.6142e-06 -0.00221 0.0077798 0.029062
-0.11037 0.17768 0.0046358 0.018868
-0.0029708 -0.0020273 -0.00059977 -0.0021789 0.0015041 -0.00010564 -0.0092036 -0.0067217
0.004625 0.018867 -0.15087 0.25626
1040000000 -0.0069558 0.30022 0.033517 0.017729 -0.0011144 0.0069836 0.0028185 0.00061439
-0.0001286 -0.0038022 -0.0006377 -0.0015957
0.033484 0.017757 -0.17223 0.35797 0.029248 -0.015234 0.0014487 -0.0018071
-0.0026526 -0.0024364 -0.0015108 -0.0027347
-0.00108 0.0069784 0.029198 -0.015343 0.16023 0.29696 -0.00054618 -0.0014847
-0.0016082 -0.0008284 -0.00040647 -0.0011666
0.002807 0.00058901 0.0014611 -0.0018005 -0.00054723 -0.0014769 -0.048748 0.28089
0.018768 0.017443 -0.0031157 0.0021269
-0.00015714 -0.0038275 -0.0026903 -0.0024048 -0.0016098 -0.00082528 0.01882 0.017413
-0.079913 0.18656 0.013484 0.018132
-0.0006492 -0.0015962 -0.0015276 -0.0027635 -0.00041422 -0.001168 -0.0031114 0.0021226
0.013474 0.018135 -0.12896 0.27543
1100000000 0.038661 0.30733 0.035929 -0.0047663 0.0029978 0.0037409 0.002524 -0.0014843
-0.0022263 -0.0029441 -0.003905 0.00017202
0.035898 -0.0047317 -0.12851 0.37505 0.014812 -0.028046 -3.5863e-05 -0.0018063
-0.0032151 -0.00031236 -0.0033875 -0.00047667
0.0030348 0.0037327 0.014711 -0.028125 0.20675 0.27622 -0.0017737 0.00029643
-0.0017441 0.0007002 -0.00095351 -0.0004391
0.0025257 -0.0015027 -3.5967e-05 -0.0018003 -0.0017766 0.00029529 -0.0077827 0.28598
0.023248 0.0048408 -0.002356 0.0010623
-0.0022298 -0.0029412 -0.0032182 -0.00029168 -0.0017453 0.00070172 0.023271 0.004806
-0.061503 0.2 0.018801 0.0086119
-0.0039165 0.00017479 -0.0033865 -0.00047076 -0.00094985 -0.00043586 -0.0023506 0.0010593
0.018783 0.0086242 -0.082049 0.30315
1160000000 0.09028 0.30204 0.023742 -0.021166 0.0027409 -0.00053605 -0.00023943 -0.0025615
-0.004043 -0.00041381 -0.00092428 0.0038477
0.023723 -0.021113 -0.084508 0.37914 -0.0041508 -0.029059 -0.0017715 -0.001614
-0.0023167 0.0027042 -0.0012439 0.0016802
0.0027422 -0.00054618 -0.0042949 -0.029057 0.2498 0.24478 -0.00057725 0.0017625
-0.00034169 0.0018771 -0.0010823 6.3184e-05
-0.00023757 -0.002562 -0.0017726 -0.0016056 -0.00057777 0.0017669 0.032009 0.28281
0.019585 -0.010192 -0.002609 0.0055882
-0.004031 -0.00039982 -0.0023233 0.0027301 -0.00033978 0.0018839 0.019592 -0.01021
-0.028444 0.20993 0.017468 0.00050209
-0.00094054 0.003837 -0.0012327 0.0016722 -0.001087 6.4275e-05 -0.0025979 0.0055812
0.017453 0.00051276 -0.034783 0.30575
1220000000 0.13484 0.29025 0.0099862 -0.03024 -0.0015215 -0.00089447 -0.00018073 -0.0010807
-0.0025446 0.0026358 0.0013515 0.0018721
0.0099962 -0.030207 -0.039934 0.39068 -0.017137 -0.020883 -0.0024728 0.00051105
0.00032659 0.0028394 -0.0006838 0.0018031
-0.0015249 -0.00088823 -0.017262 -0.020829 0.28866 0.2052 0.00090892 0.0015544
0.00055694 0.0011255 0.00018191 0.00071303
-0.00018465 -0.0010838 -0.0024722 0.00052728 0.00090317 0.001546 0.071963 0.27397
0.0092605 -0.015971 0.0027637 0.0017255
-0.0025169 0.0026431 0.00034872 0.0028373 0.00055644 0.0011291 0.0092441 -0.015983
-0.0048019 0.21987 0.013549 -0.012302
0.0013624 0.0018639 -0.00066971 0.0018082 0.00018733 0.0007156 0.0027707 0.0017242
0.013537 -0.012296 -0.0029412 0.32106
1280000000 0.18447 0.26751 -0.0082922 -0.028402 -0.0018345 0.002499 -0.0011215 -0.0019052
-0.00055088 0.0030975 0.0024677 0.00094027
-0.0082657 -0.028383 0.0062002 0.3812 -0.023733 -0.0081281 -0.00092863 0.0015144
0.0016273 0.0015204 0.00056148 0.0019386
-0.0018301 0.0025086 -0.023798 -0.0080199 0.31873 0.1611 0.001398 -0.00024318
0.0010074 4.9314e-05 0.0002289 0.00041167
-0.001115 -0.0019066 -0.00092389 0.0015149 0.0013966 -0.00023967 0.10847 0.2573
0.00015601 -0.017555 0.00051962 5.5288e-05
-0.00054279 0.0031139 0.0016399 0.0015016 0.0010031 5.0829e-05 0.00012736 -0.017558
0.032686 0.22401 0.0028088 -0.014357
0.0024669 0.00092704 0.00058602 0.0019424 0.00023117 0.00040896 0.00051885 5.2358e-05
0.0028061 -0.014356 0.044614 0.32144
1340000000 0.22135 0.23304 -0.017973 -0.018731 0.00083794 0.0043369 -0.0018842 -0.00071222
0.0015376 0.0026224 0.0016819 -0.0015192
-0.017945 -0.018738 0.045604 0.37221 -0.021385 0.0044782 3.5445e-06 0.0019347
0.0016718 0.00055338 0.0013359 0.00088914
0.00084639 0.0043348 -0.021384 0.004591 0.34038 0.113 0.00090444 -0.00089751
0.00065129 -0.00035739 0.0001722 0.00028348
-0.0018881 -0.00069758 1.4641e-05 0.0019347 0.00090399 -0.00090206 0.14101 0.23687
-0.0081831 -0.014387 0.0012933 2.9344e-05
0.0015521 0.0026026 0.0016806 0.00054349 0.00065502 -0.00035363 -0.0082138 -0.014371
0.063924 0.21958 -0.0034501 -0.013051
0.0016623 -0.0015241 0.0013519 0.00087636 0.00017496 0.0002826 0.0012902 2.9423e-05
-0.0034481 -0.013053 0.083145 0.31572
1400000000 0.25389 0.19415 -0.023534 -0.0071979 0.005024 0.0030391 -0.0019433 0.00075254
0.0025621 0.00069126 0.000113 -0.0013791
-0.023508 -0.0072033 0.082459 0.35854 -0.014505 0.01245 0.0013476 0.0012164
0.00092035 -0.0008153 0.0011774 0.00019009
0.005051 0.0030164 -0.014463 0.01255 0.35313 0.059549 5.2042e-05 -0.0013813
6.2694e-05 -0.00033031 0.00034522 0.00018616
-0.0019425 0.00075899 0.0013513 0.0012081 5.1417e-05 -0.0013808 0.17044 0.20829
-0.013125 -0.0079492 -0.00049126 -0.00077578
0.002571 0.00066501 0.00091824 -0.0008223 6.0225e-05 -0.00033002 -0.013137 -0.0079137
0.097502 0.21454 -0.0097343 -0.0082681
0.00011639 -0.0013843 0.0011795 0.00018547 0.00034674 0.00018648 -0.00049144 -0.00078734
-0.009729 -0.0082767 0.12723 0.30388
1460000000 0.2761 0.14963 -0.020394 0.0049978 0.0054716 -0.0017131 -0.0014359 0.0017529
0.0019935 -0.0008015 -0.00041695 -0.00080675
-0.020389 0.0049854 0.11612 0.3363 -0.0058822 0.015123 0.00167 0.00013532
0.00080599 -0.0010806 0.0011753 -0.0006931
0.0054671 -0.0017466 -0.0058126 0.015169 0.35893 0.0052265 -0.0010819 -0.0011795
0.00024125 -0.00018176 0.00075859 -0.00036482
-0.0014396 0.0017687 0.0016756 0.00013066 -0.0010813 -0.0011794 0.197 0.17928
-0.013513 -0.0020758 -0.0010542 0.0014385
0.0019958 -0.00081578 0.00079893 -0.0010828 0.00024654 -0.0001799 -0.013518 -0.0020552
0.12786 0.19925 -0.011375 -0.0027377
-0.00042329 -0.00081421 0.001176 -0.00070232 0.00076331 -0.00036977 -0.0010549 0.0014299
-0.011375 -0.0027356 0.16036 0.28196
1520000000 0.28753 0.10774 -0.01462 0.010599 0.003099 -0.0041245 0.00017738 0.0025419
0.0016603 -0.0017441 -0.0011426 -3.6698e-05
-0.014616 0.010583 0.14914 0.32142 0.0015829 0.012896 0.0015582 -0.00080376
0.00010208 -0.0008338 0.00025683 -0.0010579
0.0030839 -0.0041348 0.0016545 0.012894 0.35197 -0.050861 -0.00094311 -0.00033479
0.00051813 -0.0008461 -4.055e-05 -0.0001051
0.00018246 0.0025402 0.0015646 -0.0008076 -0.00094766 -0.00033773 0.22056 0.14128
-0.012506 0.0026544 0.0010157 0.0016577
0.0016541 -0.0017539 8.9835e-05 -0.00084321 0.00051618 -0.00084974 -0.0125 0.0026839
0.15611 0.18403 -0.01126 0.0016031
-0.0011478 -3.9156e-05 0.00024739 -0.0010577 -4.2014e-05 -0.00010622 0.0010183 0.0016565
-0.011263 0.0015948 0.19269 0.26068
1580000000 0.29613 0.061297 -0.0078613 0.013572 -0.00095766 -0.0047303 0.0013777 0.0017593
-0.00057785 -0.0020804 -0.00031928 0.00040531
-0.0078648 0.013552 0.17584 0.29663 0.0051022 0.0081079 0.00043409 -0.0015609
-0.00035909 -0.00099659 -0.00031678 -0.00083986
-0.00099109 -0.0047215 0.0051572 0.0080997 0.33148 -0.10817 -0.0014616 0.00041796
-0.0003036 -0.0011036 0.0001499 -0.00055263
0.0013836 0.001756 0.00043008 -0.0015608 -0.001467 0.00042195 0.23501 0.10174
-0.0093523 0.0064329 0.0017425 0.00057597
-0.00059725 -0.0020749 -0.0003615 -0.0010018 -0.00030709 -0.0010989 -0.0093398 0.0064618
0.18052 0.16501 -0.0088351 0.0070229
-0.00030736 0.00041019 -0.00032441 -0.00084734 0.00014536 -0.00055667 0.0017442 0.00057265
-0.0088465 0.0070265 0.22398 0.23324
1640000000 0.29741 0.020023 -0.0011524 0.012337 -0.0027355 -0.0024995 0.0025244 0.00097018
-0.00088883 -0.001073 -0.00025922 0.000628
-0.0011652 0.012321 0.20488 0.27177 0.0056959 0.0033916 -0.00074044 -0.0016294
-0.00093426 -0.00047224 -0.00058061 -0.00057976
-0.0027668 -0.0024839 0.0057277 0.0033593 0.30341 -0.15712 -0.00084173 0.0012842
-0.0010734 -0.00084963 -0.00011998 -0.00034857
0.0025204 0.00095067 -0.00074702 -0.0016285 -0.00084472 0.0012863 0.24757 0.05232
-0.005754 0.0069243 0.0020992 -0.00064257
-0.00090426 -0.0010652 -0.00093353 -0.00046963 -0.0010785 -0.00085383 -0.0057399 0.0069473
0.2033 0.13924 -0.0043535 0.0091145
-0.0002494 0.0006363 -0.00058086 -0.00057569 -0.00012064 -0.00034952 0.0020947 -0.00064714
-0.0043569 0.0091149 0.24916 0.20151
1700000000 0.28951 -0.025085 0.0022617 0.0094288 -0.0034262 0.00014199 0.0028619 -0.0011271
-0.0018856 -0.00036928 0.00063315 0.00040097
0.0022613 0.0094211 0.22273 0.24045 0.0037469 0.00063419 -0.0013913 -0.0005243
-0.00079534 -7.6438e-05 -0.00091655 -0.00031833
-0.0034222 0.00015935 0.0037581 0.00062 0.2598 -0.19718 0.00030787 0.0015761
-0.0017218 -0.00019355 -0.00060401 -0.00092055
0.0028585 -0.0011471 -0.0013949 -0.00051349 0.00030979 0.0015715 0.24435 0.0018679
-0.0039186 0.0070896 0.0011813 -0.0020139
-0.001892 -0.00036417 -0.00079704 -6.5194e-05 -0.0017201 -0.00018884 -0.0039059 0.0071044
0.22038 0.11771 0.00015693 0.0092352
0.00063919 0.00039134 -0.00091927 -0.00031621 -0.00061175 -0.00092244 0.0011851 -0.0020201
0.00015626 0.0092252 0.26481 0.16691
1760000000 0.27663 -0.073287 0.0044413 0.0060888 -0.0021946 0.00087178 0.0013044 -0.0032352
-0.0009907 0.00073181 0.00040357 -0.00049648
0.004431 0.0060855 0.24844 0.20084 0.0015954 -0.00099688 -0.0011045 0.00022599
-0.0011736 0.000848 -0.00052099 0.00058597
-0.0021874 0.00088071 0.0015895 -0.00099481 0.21087 -0.23006 0.0010943 0.0012635
-0.001101 0.0013461 -0.0012942 -0.00035754
0.0012869 -0.0032473 -0.0011038 0.00023248 0.0010846 0.0012653 0.23464 -0.050152
-0.0017097 0.0064208 -0.00037341 -0.0021164
-0.00099707 0.00074145 -0.0011644 0.00085243 -0.0011011 0.0013535 -0.0016956 0.0064236
0.23462 0.081157 0.0040118 0.0066686
0.00039628 -0.00049727 -0.00051486 0.00059072 -0.0012949 -0.00035656 -0.0003717 -0.0021234
0.0040127 0.0066624 0.27668 0.12878
1820000000 0.25152 -0.11009 0.0045625 0.0025675 -2.2912e-05 0.002408 -0.00087233 -0.0030729
-0.00070977 0.00065653 5.1239e-06 -0.0001515
0.0045595 0.0025615 0.2583 0.17095 -0.00032599 9.4065e-05 -0.0012737 0.00086481
-0.00016688 0.0013801 -0.00040971 0.0005049
-1.2625e-05 0.0023931 -0.00032694 9.2147e-05 0.16064 -0.24565 0.0016109 0.00042745
-0.0003578 0.0020982 -0.0013915 0.00049577
-0.00089587 -0.0030699 -0.0012697 0.00086756 0.0016161 0.0004339 0.20387 -0.097478
-0.00097412 0.0051177 -0.0015413 -0.0013465
-0.00070788 0.0006637 -0.00015388 0.001377 -0.00035521 0.0020963 -0.0009641 0.0051189
0.25073 0.050186 0.0048313 0.003135
7.6146e-06 -0.00015712 -0.0004017 0.00051097 -0.0013915 0.00050177 -0.0015527 -0.0013385
0.0048306 0.0031276 0.27816 0.092367
1880000000 0.21619 -0.14964 0.0024166 0.00040272 -0.00029843 0.002132 -0.0027516 -0.0022464
-0.00014196 0.001362 0.00034807 -0.00052696
0.0024138 0.0003997 0.26275 0.12472 -0.0021074 0.0017405 -0.00011832 0.0016509
0.00065303 0.0014081 0.00025657 0.0008832
-0.00028823 0.0021305 -0.0020949 0.0017614 0.10888 -0.25533 0.0020406 -0.0010281
0.0014833 0.0020318 -0.00084802 0.0014129
-0.0027652 -0.0022289 -0.00010589 0.0016595 0.0020411 -0.0010365 0.16253 -0.13715
-0.00094 0.0041068 -0.0023406 0.000636
-0.0001333 0.001358 0.00066815 0.001408 0.0014755 0.0020306 -0.00092764 0.0041061
0.25198 0.016109 0.0044232 0.00095464
0.00031495 -0.000536 0.00026587 0.00087814 -0.00084234 0.0014178 -0.0023371 0.00064703
0.0044232 0.00094771 0.27704 0.058046
1940000000 0.17658 -0.17495 0.00020659 -0.0013915 0.0013947 0.0018299 -0.0037098 0.00043425
0.0011111 0.00094476 -0.00063524 -0.00063872
0.000211 -0.0013845 0.26334 0.092953 -0.00099522 0.0038747 0.00097184 0.0013189
0.0020213 0.00062042 0.0008145 0.00019374
0.0013918 0.0018307 -0.0009696 0.0038951 0.062555 -0.24904 0.00035247 -0.0023682
0.0024215 0.00051555 0.00038905 0.0016921
-0.0036994 0.00045876 0.0009816 0.0013118 0.0003478 -0.002359 0.10955 -0.16677
-0.0021181 0.003735 -0.0012763 0.0018026
0.0011213 0.0009404 0.0020282 0.00060925 0.0024182 0.00051176 -0.0021061 0.0037429
0.2513 -0.024163 0.0030793 -0.0021167
-0.00065264 -0.00062232 0.00081329 0.0001848 0.00038944 0.0016892 -0.0012647 0.001802
0.0030723 -0.0021256 0.26515 0.021951
2000000000 0.13046 -0.18888 -0.0035973 0.00054939 0.0023758 0.0014797 -0.0023194 0.003578
0.00097289 0.00028644 -0.00063072 0.00032057
-0.0035973 0.0005464 0.24926 0.057489 -0.00080867 0.0055695 0.0016695 0.00031033
0.0015736 -0.001444 0.00042736 0.00012233
0.0023925 0.0014552 -0.00077713 0.0055755 0.018999 -0.23457 -0.0015176 -0.0014916
0.0020515 -0.0012496 0.0016337 0.0013302
-0.0022949 0.0035803 0.0016688 0.00030227 -0.0015101 -0.0014897 0.056489 -0.17552
-0.0033905 0.0047396 0.00024964 0.0023395
0.00099444 0.00027398 0.0015613 -0.0014561 0.0020446 -0.0012519 -0.0033903 0.0047548
