!Keysight Technologies,M9804A,MY58100912,A.14.10.03
!Date: Thursday, April 27, 2023 10:28:33
!Correction: S11(C  6-Port  ) 
!S12(C  6-Port  ) 
!S13(C  6-Port  ) 
!S14(C  6-Port  ) 
!S15(C  6-Port  ) 
!S16(C  6-Port  ) 
!S21(C  6-Port  ) 
!S22(C  6-Port  ) 
!S23(C  6-Port  ) 
!S24(C  6-Port  ) 
!S25(C  6-Port  ) 
!S26(C  6-Port  ) 
!S31(C  6-Port  ) 
!S32(C  6-Port  ) 
!S33(C  6-Port  ) 
!S34(C  6-Port  ) 
!S35(C  6-Port  ) 
!S36(C  6-Port  ) 
!S41(C  6-Port  ) 
!S42(C  6-Port  ) 
!S43(C  6-Port  ) 
!S44(C  6-Port  ) 
!S45(C  6-Port  ) 
!S46(C  6-Port  ) 
!S51(C  6-Port  ) 
!S52(C  6-Port  ) 
!S53(C  6-Port  ) 
!S54(C  6-Port  ) 
!S55(C  6-Port  ) 
!S56(C  6-Port  ) 
!S61(C  6-Port  ) 
!S62(C  6-Port  ) 
!S63(C  6-Port  ) 
!S64(C  6-Port  ) 
!S65(C  6-Port  ) 
!S66(C  6-Port  ) 
!S6P File: Measurement: :
# Hz S  RI   R 50
500000000 -0.33698 -0.034751 -0.0097793 -0.0035653 -0.007834 0.011853 -0.0035149 0.011738
0.012465 0.0046491 -0.003533 0.0083381
-0.0097634 -0.0035635 -0.41942 -0.049326 0.007373 -0.011396 0.0015425 0.011733
0.0072411 0.0024558 0.001157 0.012813
-0.0078224 0.011858 0.0073538 -0.011424 -0.26493 0.21142 0.0068874 0.0029634
-0.00030688 0.0087367 0.00090289 0.011592
-0.0034967 0.011735 0.0015596 0.011758 0.0068967 0.002965 -0.32711 0.047434
-0.019798 -0.0041619 0.017805 0.025124
0.01249 0.0046285 0.00725 0.0024358 -0.00029881 0.0087405 -0.019793 -0.0041481
-0.22676 -0.18446 -0.027363 0.005196
-0.0035164 0.0083243 0.0011799 0.01283 0.0009132 0.011591 0.017809 0.025109
-0.027366 0.0051895 -0.27254 -0.11193
560000000 -0.31564 0.12496 -0.023858 -0.063061 0.0001934 0.012234 0.0061324 0.0096336
0.010426 0.003957 0.0096623 0.0071678
-0.023804 -0.062977 -0.37712 0.10965 -0.041943 -0.03707 0.013633 0.0039378
-0.013121 -0.0048293 0.0041303 -0.0006685
0.00022968 0.012235 -0.0421 -0.037011 -0.1826 0.25955 -0.00073931 -0.0050103
0.018992 0.0045345 0.0071312 -0.0058416
0.0061617 0.0096132 0.013647 0.003915 -0.00072142 -0.0050175 -0.30239 0.13603
0.003696 -0.024594 0.0047367 -0.019516
0.010456 0.0039444 -0.013173 -0.0048162 0.019004 0.0045221 0.0036955 -0.024588
-0.28569 -0.0095607 0.0077084 -0.049488
0.0096885 0.0071545 0.0041176 -0.00066873 0.0071404 -0.0058403 0.0047228 -0.019509
0.0077354 -0.049494 -0.33039 0.033809
620000000 -0.273 0.11024 -0.023112 0.0073968 0.0036745 0.008446 0.0067151 -0.0057545
0.011677 -0.00075604 0.00052129 -0.0022815
-0.023089 0.0073962 -0.40246 0.062672 -0.018858 -0.00018414 -0.0012399 -0.0019215
0.010291 -0.0071527 0.0010856 -0.0027868
0.0037089 0.008442 -0.018889 -0.00014381 -0.1527 0.26799 -0.0013214 -0.0050566
-0.0039939 -0.0032693 0.0079311 -0.0036106
0.0067172 -0.0057758 -0.001251 -0.0019153 -0.0013172 -0.0050659 -0.26164 0.14617
-0.038434 -0.018672 0.014455 0.023682
0.011676 -0.00077526 0.010282 -0.0071923 -0.0039954 -0.0032659 -0.038446 -0.018648
-0.20519 -0.049339 -0.040033 0.014436
0.00051389 -0.0022708 0.0010742 -0.0027981 0.0079288 -0.0036087 0.014465 0.023674
-0.040036 0.014415 -0.24965 -0.0019289
680000000 -0.23272 0.19375 -0.027996 -0.013715 0.0047179 0.0049753 0.0011316 -0.0074816
-0.0031548 -0.011042 0.0044145 -0.0067223
-0.027971 -0.013725 -0.38714 0.15973 -0.032736 -0.0012968 -0.0017163 -0.00021144
-0.0025578 -0.0089788 -0.0011133 -0.0019893
0.0047289 0.0049624 -0.032769 -0.0012051 -0.10173 0.28761 -0.00082966 0.0001538
-0.0021069 0.00056076 -0.0029509 -0.0093408
0.0011239 -0.0074727 -0.0017166 -0.00021403 -0.00083055 0.00015947 -0.21927 0.19567
-0.023479 -0.0080586 -0.0087243 -0.010503
-0.0031897 -0.011054 -0.0025859 -0.0089904 -0.0021168 0.00055815 -0.0235 -0.0080469
-0.25241 0.048664 -0.0058893 -0.0091109
0.0043909 -0.0067357 -0.0011113 -0.0019887 -0.0029558 -0.0093402 -0.0087357 -0.010513
-0.0058945 -0.0091182 -0.2586 0.10006
740000000 -0.18918 0.18834 -0.038353 0.026687 0.012413 -0.0052992 -0.0005363 -0.0038854
-0.0042911 -0.0031654 -0.0064634 0.0037993
-0.038354 0.026634 -0.33473 0.17837 -0.034843 0.035038 -0.00086617 -0.0062973
-0.011598 0.0084027 -0.0027598 -0.0063571
0.012401 -0.0053262 -0.034762 0.035185 -0.067934 0.28635 -0.001632 0.0032725
-0.0029035 -0.0039966 -0.0012083 0.00023011
-0.00054692 -0.0038858 -0.00087629 -0.006297 -0.0016317 0.0032847 -0.20197 0.20308
-0.042542 -0.0077583 0.021705 0.01309
-0.0043151 -0.0031639 -0.011597 0.0084703 -0.0029103 -0.0039937 -0.042573 -0.0077058
-0.15663 0.073255 -0.041991 0.00047637
-0.0064791 0.003832 -0.0027779 -0.00635 -0.001219 0.00022296 0.021734 0.013089
-0.041991 0.00045084 -0.24604 0.10574
800000000 -0.15705 0.22884 -0.02243 0.017304 0.0051392 -0.010501 -0.0047535 -0.002024
-0.0039217 0.002555 0.004284 0.00096298
-0.022411 0.017272 -0.33727 0.24852 -0.0076819 0.033942 -0.0021349 0.0022815
-0.00062062 0.0034119 0.0011213 0.0052619
0.0051201 -0.010516 -0.0075929 0.034 -0.026887 0.30926 0.0011468 0.0015452
0.00069029 0.003563 -0.001737 0.0010841
-0.0047656 -0.0020176 -0.0021224 0.0022931 0.0011412 0.0015411 -0.17407 0.23072
-0.028218 0.012649 0.012945 -0.0097636
-0.0039135 0.0025737 -0.00060961 0.0034159 0.00071316 0.0035668 -0.028228 0.012695
-0.20053 0.096887 -0.017331 0.017141
0.0042874 0.00094078 0.0011573 0.0052737 -0.0017374 0.0010882 0.012953 -0.0097921
-0.017341 0.01713 -0.23765 0.15735
860000000 -0.12226 0.24959 -0.016985 0.031086 -0.003422 -0.0097663 -0.0025453 0.0012184
0.004197 0.0050275 -0.0029526 -0.0025711
-0.016972 0.031052 -0.28927 0.29054 0.0082195 0.033965 0.00012097 0.0020847
0.0044917 0.0002801 0.0033355 0.00058958
-0.0034537 -0.0097644 0.0083241 0.033979 0.021576 0.31689 -0.00038974 -0.00023214
0.0029127 -0.0015181 0.0015457 0.0043701
-0.0025487 0.0012221 0.00013114 0.0020988 -0.00039142 -0.00023112 -0.13832 0.2424
-0.017788 0.01875 -0.0059839 -0.0087067
0.0042243 0.0050175 0.0044947 0.00025891 0.0029093 -0.0015201 -0.017769 0.018782
-0.15095 0.14555 -0.02418 0.014968
-0.0029725 -0.0025759 0.0033342 0.00057782 0.0015473 0.0043664 -0.0059919 -0.0087003
-0.024179 0.014937 -0.18755 0.19893
920000000 -0.096883 0.27271 0.0053949 0.037725 -0.009307 -0.0041914 -0.0018377 0.0023311
0.001185 0.0014888 0.0024628 -0.0016165
0.0053787 0.037684 -0.26029 0.31126 0.027967 0.02148 0.0015417 0.0010753
0.0067921 -0.00070691 0.0039308 -0.0030205
-0.0093198 -0.0041703 0.028072 0.021427 0.067815 0.31714 0.0017523 -0.00015019
0.0011766 -0.00050279 0.00082385 -0.0010888
-0.0018323 0.0023456 0.0015523 0.0010825 0.0017531 -0.00014283 -0.11409 0.25876
-0.010284 0.029893 0.002623 -0.0065563
0.0011934 0.0014815 0.0067887 -0.00074364 0.001171 -0.00051159 -0.010229 0.029932
-0.14056 0.1511 -0.0022079 0.027102
0.0024645 -0.0016357 0.0039223 -0.003029 0.00081972 -0.0010772 0.0026215 -0.0065631
-0.0022302 0.027079 -0.19234 0.21313
980000000 -0.049218 0.29204 0.018005 0.029654 -0.0087382 0.0046246 0.0024042 0.0037883
0.0039256 -0.0017566 -0.002997 -0.0021042
0.018002 0.02964 -0.20727 0.3449 0.032704 0.0044464 0.0019843 -3.505e-05
0.0011047 -0.0061758 -0.00055861 -0.0021269
-0.0087171 0.0046524 0.03274 0.0043389 0.114 0.31016 0.00043391 -0.0011948
5.1954e-05 -0.0021291 0.00149 -1.9619e-05
0.0024117 0.0037733 0.0019992 -1.8338e-05 0.00043291 -0.0011976 -0.075933 0.27026
0.0074031 0.028434 -0.0091178 -0.0066191
0.0039264 -0.0017674 0.0010698 -0.0062065 5.048e-05 -0.0021259 0.0074656 0.028427
-0.109 0.17838 0.004584 0.018542
-0.0030086 -0.0020945 -0.00057921 -0.0021151 0.0014871 -3.0371e-05 -0.0091212 -0.0066102
0.0045559 0.018533 -0.14921 0.25722
1040000000 -0.0064677 0.29997 0.033298 0.017497 -0.0010958 0.006748 0.0028063 0.00068917
-5.6068e-05 -0.0037816 -0.00054872 -0.001485
0.033278 0.017481 -0.1716 0.3578 0.028865 -0.014913 0.0014706 -0.0016972
-0.002631 -0.002402 -0.0014365 -0.0026233
-0.0010595 0.006751 0.028826 -0.015018 0.16 0.29616 -0.00050694 -0.0013945
-0.0016028 -0.0007776 -0.00044981 -0.0011382
0.0028029 0.00067029 0.0014872 -0.0016896 -0.00051533 -0.0013979 -0.048322 0.28026
0.018187 0.016986 -0.0030463 0.0020605
-5.9131e-05 -0.0037712 -0.002667 -0.0023974 -0.001608 -0.00076409 0.018227 0.016957
-0.078284 0.1871 0.013129 0.017585
-0.00054455 -0.0014995 -0.0014501 -0.0025996 -0.00045854 -0.0011418 -0.0030329 0.0020717
0.01311 0.017579 -0.12725 0.27616
1100000000 0.039048 0.30701 0.035486 -0.0048175 0.0028556 0.0036668 0.0025947 -0.0014098
-0.002125 -0.0030225 -0.0038947 0.00013431
0.035455 -0.0047988 -0.1281 0.37451 0.014711 -0.027525 2.4891e-05 -0.0017949
-0.0031437 -0.00040999 -0.003298 -0.00046562
0.0028757 0.0036522 0.014605 -0.027612 0.20604 0.27559 -0.0017584 0.00024341
-0.0017296 0.00071716 -0.00091875 -0.00029759
0.0025986 -0.0014235 2.0754e-05 -0.001795 -0.0017572 0.00024322 -0.0077846 0.28516
0.022542 0.0048693 -0.0023697 0.00095586
-0.0021458 -0.003012 -0.0031635 -0.00039245 -0.0017276 0.0007174 0.022561 0.004845
-0.059995 0.20018 0.018368 0.0083297
-0.0038873 0.0001441 -0.0033054 -0.0004403 -0.00091145 -0.00029649 -0.0023663 0.00094877
0.018341 0.0083319 -0.080571 0.30359
1160000000 0.09057 0.30163 0.023446 -0.020897 0.0025852 -0.00049548 -0.00016012 -0.0025288
-0.0040085 -0.0005081 -0.00094526 0.0038169
0.023449 -0.020878 -0.084285 0.37847 -0.0038865 -0.028626 -0.0017742 -0.0016521
-0.0024132 0.0026656 -0.0011718 0.0015522
0.0025955 -0.00050234 -0.0040279 -0.028632 0.24888 0.24471 -0.00062539 0.0017018
-0.0003424 0.00185 -0.00090188 9.4984e-05
-0.00015012 -0.0025437 -0.0017776 -0.0016323 -0.00061895 0.0016998 0.031611 0.28217
0.019081 -0.0096694 -0.0026074 0.0055779
-0.0040223 -0.00047174 -0.0024194 0.0026791 -0.00035296 0.0018548 0.019075 -0.0096853
-0.026695 0.20941 0.016968 0.00072034
-0.00091593 0.0038217 -0.001177 0.001576 -0.00089849 9.5215e-05 -0.0026017 0.0055898
0.016955 0.00072456 -0.033365 0.30577
1220000000 0.13496 0.28982 0.0098247 -0.029819 -0.0015529 -0.00074294 -0.00010952 -0.0011652
-0.0025012 0.0025256 0.0013609 0.0018639
0.0098397 -0.02978 -0.040092 0.38996 -0.016687 -0.020662 -0.0024804 0.00043247
0.00024981 0.0028585 -0.00065077 0.0017459
-0.0015632 -0.00073725 -0.016806 -0.02061 0.28785 0.20576 0.00086445 0.0015433
0.00058063 0.0011045 0.0002516 0.00064919
-0.00011344 -0.0011638 -0.0024776 0.00044498 0.00086553 0.0015434 0.071227 0.27371
0.0090968 -0.015263 0.0026894 0.0017214
-0.0024917 0.0025461 0.00025825 0.0028595 0.00057847 0.0011084 0.0090813 -0.015271
-0.0035037 0.21879 0.013264 -0.011868
0.0013678 0.0018544 -0.00064844 0.0017554 0.00025496 0.0006523 0.002692 0.0017221
0.013254 -0.011862 -0.0014669 0.32104
1280000000 0.18426 0.26713 -0.0082068 -0.027966 -0.0017511 0.0025746 -0.0011151 -0.0020112
-0.00060764 0.0029879 0.0024671 0.00096264
-0.0081767 -0.027941 0.0055605 0.38066 -0.023261 -0.0082969 -0.00099321 0.0014648
0.001635 0.0015716 0.00048675 0.0018756
-0.001743 0.0025792 -0.023334 -0.0081887 0.31847 0.16193 0.0013675 -0.00016237
0.0009672 1.506e-06 0.00030421 0.00030161
-0.0011282 -0.0020039 -0.00099777 0.0014751 0.0013657 -0.00015763 0.10773 0.25764
0.00046733 -0.016876 0.000526 9.5407e-05
-0.00059486 0.0029914 0.0016459 0.0015701 0.00097276 -5.4573e-06 0.00043905 -0.016875
0.033348 0.22259 0.0029011 -0.013823
0.0024698 0.00094454 0.00049753 0.0018759 0.00030362 0.00030196 0.00052559 9.7993e-05
0.0029059 -0.013813 0.045704 0.32097
1340000000 0.22104 0.23292 -0.01767 -0.018475 0.00094967 0.0043627 -0.0019177 -0.00076684
0.0014894 0.0025924 0.001659 -0.0014498
-0.017644 -0.018458 0.044845 0.37219 -0.021198 0.0041185 -5.6506e-05 0.0019585
0.0017358 0.00062627 0.0012962 0.00090371
0.00096226 0.0043476 -0.021208 0.0042307 0.34077 0.11392 0.00094893 -0.00085801
0.00057252 -0.00040559 0.00013933 0.00023994
-0.0019156 -0.00075925 -4.2501e-05 0.0019533 0.00095117 -0.00085268 0.14072 0.23756
-0.0075995 -0.014017 0.0013126 4.7629e-05
0.0015192 0.0025797 0.0017421 0.00060654 0.00057153 -0.00040793 -0.0076244 -0.014
0.063716 0.21814 -0.003115 -0.012604
0.0016504 -0.0014585 0.0013033 0.00088806 0.00014157 0.00023976 0.0013089 4.5597e-05
-0.0031129 -0.01261 0.084137 0.31532
1400000000 0.25353 0.19437 -0.0231 -0.0071264 0.0050507 0.0029644 -0.0020041 0.0007557
0.002496 0.00071111 0.00016056 -0.0013045
-0.023078 -0.007129 0.081684 0.35902 -0.01462 0.012084 0.0013488 0.0012806
0.00099235 -0.00080857 0.0011393 0.00024326
0.0050656 0.002943 -0.01458 0.012176 0.35389 0.060085 7.4021e-05 -0.001417
2.1978e-05 -0.00037455 0.00025606 0.00014942
-0.0020047 0.00076448 0.0013578 0.0012783 7.9445e-05 -0.0014173 0.17056 0.20909
-0.012399 -0.0080604 -0.00051528 -0.0008646
0.0025127 0.00068481 0.00097589 -0.00082535 1.4914e-05 -0.00037598 -0.012426 -0.0080406
0.096754 0.21346 -0.0092228 -0.0081566
0.00015185 -0.0013154 0.0011459 0.00023522 0.00025901 0.00014981 -0.0005188 -0.00086754
-0.0092292 -0.0081602 0.12797 0.30358
1460000000 0.27606 0.15016 -0.020047 0.0047835 0.0054186 -0.0017714 -0.0015084 0.0017867
0.0019092 -0.00073545 -0.00037301 -0.00085541
-0.020039 0.004769 0.11574 0.33722 -0.0062103 0.014926 0.0016719 0.00016826
0.00080428 -0.0011085 0.0011808 -0.0005817
0.0054061 -0.0017902 -0.0061539 0.014975 0.35978 0.0051615 -0.0010676 -0.0011541
0.00023912 -5.6921e-05 0.00065297 -0.0003988
-0.0015046 0.0017889 0.0016951 0.00015963 -0.0010709 -0.0011626 0.19755 0.18001
-0.012949 -0.0025702 -0.0010491 0.0014027
0.0019046 -0.00075335 0.00080234 -0.001123 0.00023781 -5.7062e-05 -0.012963 -0.0025428
0.12682 0.19887 -0.010864 -0.0028698
-0.00038134 -0.00085528 0.0011685 -0.00059554 0.00066119 -0.00040283 -0.0010427 0.0014009
-0.010856 -0.002882 0.16111 0.28169
1520000000 0.28792 0.1083 -0.014416 0.010235 0.0030548 -0.0040917 0.00019885 0.0025729
0.0017316 -0.0016926 -0.0011434 -0.00013216
-0.01442 0.010234 0.14918 0.32243 0.0012598 0.012923 0.0015975 -0.00080625
7.9925e-05 -0.00087155 0.00033352 -0.0010109
0.0030395 -0.0040982 0.0013352 0.012933 0.3526 -0.051194 -0.00092674 -0.00038933
0.00055325 -0.00079074 -3.3598e-05 -5.7232e-05
0.00020861 0.0025709 0.0015964 -0.00080969 -0.00092237 -0.00039801 0.2214 0.14172
-0.012399 0.0019049 0.00095138 0.0017051
0.0017226 -0.0017012 7.3092e-05 -0.00086764 0.000552 -0.00079741 -0.012394 0.0019397
0.15508 0.18429 -0.010964 0.0011601
-0.0011428 -0.00012495 0.00033376 -0.0010109 -3.5786e-05 -5.7843e-05 0.00095632 0.0017058
-0.010967 0.0011701 0.19367 0.26029
1580000000 0.29688 0.061651 -0.0079145 0.013135 -0.00088345 -0.0047155 0.0013806 0.0018065
-0.00052856 -0.0020607 -0.00035653 0.00039822
-0.0079138 0.013129 0.17642 0.29758 0.0049507 0.0082896 0.0004297 -0.0015623
-0.00038802 -0.00099993 -0.00024783 -0.00086664
-0.00090997 -0.0047192 0.0049989 0.0082741 0.33196 -0.10878 -0.0014893 0.00041151
-0.00023577 -0.0011229 0.00014285 -0.000544
0.0013878 0.0017944 0.00040787 -0.0015619 -0.0014955 0.00041295 0.2361 0.10186
-0.0097229 0.0058277 0.0017749 0.00064528
-0.00054031 -0.002057 -0.00039847 -0.00099219 -0.00023444 -0.0011233 -0.0097158 0.0058503
0.17986 0.16592 -0.008791 0.0064676
-0.00035475 0.00040527 -0.00025633 -0.00086562 0.00013926 -0.00054867 0.0017795 0.00063789
-0.0087998 0.0064718 0.22481 0.2328
1640000000 0.29839 0.019893 -0.0014286 0.01207 -0.0027137 -0.0025497 0.0025635 0.00097027
-0.00081379 -0.0010936 -0.00031225 0.00065668
-0.0014272 0.012055 0.20585 0.27238 0.0056637 0.0036355 -0.00071761 -0.0016406
-0.00091515 -0.00048627 -0.00055028 -0.00065413
-0.0027247 -0.0025334 0.0056976 0.0036097 0.3035 -0.15778 -0.00086086 0.0013048
-0.0010647 -0.00089658 -8.5678e-05 -0.0003036
0.0025711 0.00095537 -0.00073063 -0.0016365 -0.00086567 0.0013106 0.24872 0.051938
-0.0064063 0.0067049 0.0021432 -0.00061927
-0.00082426 -0.0010973 -0.00091946 -0.0004804 -0.0010724 -0.00089053 -0.0064044 0.0067285
0.20319 0.14047 -0.0046011 0.0086281
-0.00030665 0.00066353 -0.00055025 -0.0006524 -8.7586e-05 -0.00030521 0.0021472 -0.00062795
-0.0046046 0.0086312 0.24994 0.20086
1700000000 0.29039 -0.025696 0.0019293 0.0093992 -0.0034225 0.0001254 0.0029135 -0.0011152
-0.0018149 -0.00042043 0.00062841 0.00040052
0.001925 0.0093822 0.22389 0.24068 0.0038453 0.00081091 -0.0013786 -0.00055473
-0.00080064 -4.8861e-05 -0.00092167 -0.00044162
-0.0034224 0.00012949 0.0038523 0.00078456 0.25945 -0.19777 0.00031966 0.0015995
-0.0017618 -0.0002793 -0.00054251 -0.00093628
0.0029077 -0.0011282 -0.0013922 -0.00054716 0.00032408 0.0015967 0.24522 0.00099923
-0.0045523 0.0072491 0.0012746 -0.0019866
-0.0018192 -0.00040747 -0.00079925 -5.0687e-05 -0.0017638 -0.00027542 -0.004544 0.0072651
0.2209 0.11886 -0.00027661 0.0090488
0.00063295 0.00039649 -0.00092316 -0.00043233 -0.00054033 -0.00093607 0.0012667 -0.001987
-0.0002805 0.0090475 0.2654 0.16607
1760000000 0.27721 -0.074304 0.0042542 0.0062295 -0.002231 0.00086506 0.0013222 -0.00329
-0.0010228 0.000643 0.00040242 -0.00052421
0.0042542 0.0062165 0.24969 0.20055 0.0017355 -0.00094225 -0.0011029 0.00020328
-0.0011698 0.00085111 -0.00062322 0.00052611
-0.0022301 0.00087445 0.0017382 -0.00096423 0.21029 -0.23051 0.001071 0.00128
-0.0011549 0.0013211 -0.0013055 -0.0004729
0.0013096 -0.0032898 -0.0011088 0.00021063 0.0010737 0.001288 0.23507 -0.051352
-0.0020431 0.0068854 -0.00037349 -0.0021514
-0.0010203 0.00063885 -0.0011654 0.00086396 -0.0011564 0.0013269 -0.0020273 0.0069019
0.23573 0.082121 0.0034776 0.0066696
0.00039588 -0.00052933 -0.00062279 0.00053685 -0.0013008 -0.00046972 -0.00037787 -0.0021481
0.0034785 0.0066696 0.27715 0.12805
1820000000 0.25161 -0.11123 0.004504 0.0027385 -3.7857e-05 0.0024042 -0.00092699 -0.0030738
-0.0008005 0.00060434 2.9893e-05 -0.00015996
0.0044963 0.0027248 0.25934 0.17026 -0.00015174 7.0413e-06 -0.0013415 0.00085984
-0.00016026 0.0013853 -0.00050789 0.00056991
-3.1088e-05 0.0024138 -0.00014823 5.2565e-06 0.16043 -0.24587 0.0015251 0.00045096
-0.00042482 0.0021663 -0.0014504 0.00052015
-0.00093733 -0.0030748 -0.0013363 0.00086853 0.0015359 0.00044427 0.20371 -0.098742
-0.0009602 0.0056802 -0.0015938 -0.0013403
-0.00080795 0.00061206 -0.00014211 0.001389 -0.00040429 0.0021695 -0.00094417 0.0056849
0.25208 0.050724 0.0044491 0.0033645
3.0402e-05 -0.0001609 -0.0005056 0.00057753 -0.0014522 0.0005246 -0.0016002 -0.0013347
0.0044503 0.0033679 0.27853 0.091634
1880000000 0.21561 -0.15077 0.0024095 0.00044065 -0.00039442 0.0020809 -0.0028296 -0.0022528
-0.00025567 0.0013285 0.00035496 -0.00053822
0.0023966 0.00043473 0.26346 0.12361 -0.0021106 0.0015583 -0.00016936 0.001684
0.00065626 0.0014073 0.00025798 0.0010155
-0.00038916 0.0020759 -0.0020985 0.0015706 0.10843 -0.25531 0.0020104 -0.00092376
0.0013977 0.002074 -0.00083438 0.0014032
-0.0028386 -0.0022399 -0.00016187 0.0016859 0.0020079 -0.00092437 0.16184 -0.13808
-0.00065665 0.0045193 -0.0022734 0.00071376
-0.00025166 0.0013359 0.00066176 0.001408 0.0014029 0.0020777 -0.00064438 0.0045243
0.25357 0.016147 0.0041586 0.0014613
0.00035054 -0.00054 0.00027106 0.0010171 -0.00083268 0.0014086 -0.0022714 0.00071064
0.0041564 0.0014633 0.27724 0.05753
1940000000 0.17577 -0.17565 0.00017628 -0.0013488 0.0013541 0.0019532 -0.0037497 0.00052853
0.0010697 0.0011311 -0.00059076 -0.00063273
0.00016626 -0.0013441 0.26353 0.091697 -0.0011161 0.0037552 0.00095937 0.0013477
0.0020198 0.00061328 0.00090391 0.00023807
0.0013686 0.001938 -0.0010909 0.0037664 0.062171 -0.24891 0.00039249 -0.0023457
0.0024724 0.00054792 0.00048663 0.0016372
-0.0037557 0.00054301 0.00097081 0.0013484 0.0003837 -0.0023531 0.10861 -0.16728
-0.0017796 0.0038539 -0.0012289 0.0016994
0.0010796 0.0011278 0.0020275 0.00058859 0.0024728 0.00054902 -0.0017737 0.0038559
0.25297 -0.024784 0.0030858 -0.0016252
-0.00060012 -0.00062713 0.0009069 0.00024057 0.00048197 0.0016345 -0.0012211 0.0017054
0.0030881 -0.0016153 0.26533 0.021487
2000000000 0.12947 -0.1891 -0.0037277 0.00060619 0.0024574 0.0015545 -0.0022915 0.0036193
0.00095641 0.00042245 -0.00072881 0.00040454
-0.0037275 0.00059795 0.24896 0.056283 -0.00095774 0.0056134 0.0016943 0.00033111
0.001523 -0.0014247 0.00051749 4.4419e-05
0.0024628 0.0015411 -0.00092442 0.0056184 0.018617 -0.23423 -0.0014624 -0.0015012
0.0020948 -0.0012086 0.0016344 0.0012156
-0.0022737 0.0036327 0.001699 0.0003182 -0.001468 -0.0014974 0.055447 -0.17559
-0.0030883 0.0045954 0.000154 0.0021359
0.00097309 0.00041868 0.0015249 -0.0014442 0.0020869 -0.0012198 -0.0030698 0.0046039
