!Keysight Technologies,M9804A,MY58100912,A.14.10.03
!Date: Thursday, April 27, 2023 10:28:33
!Correction: S11(C  6-Port  ) 
!S12(C  6-Port  ) 
!S13(C  6-Port  ) 
!S14(C  6-Port  ) 
!S15(C  6-Port  ) 
!S16(C  6-Port  ) 
!S21(C  6-Port  ) 
!S22(C  6-Port  ) 
!S23(C  6-Port  ) 
!S24(C  6-Port  ) 
!S25(C  6-Port  ) 
!S26(C  6-Port  ) 
!S31(C  6-Port  ) 
!S32(C  6-Port  ) 
!S33(C  6-Port  ) 
!S34(C  6-Port  ) 
!S35(C  6-Port  ) 
!S36(C  6-Port  ) 
!S41(C  6-Port  ) 
!S42(C  6-Port  ) 
!S43(C  6-Port  ) 
!S44(C  6-Port  ) 
!S45(C  6-Port  ) 
!S46(C  6-Port  ) 
!S51(C  6-Port  ) 
!S52(C  6-Port  ) 
!S53(C  6-Port  ) 
!S54(C  6-Port  ) 
!S55(C  6-Port  ) 
!S56(C  6-Port  ) 
!S61(C  6-Port  ) 
!S62(C  6-Port  ) 
!S63(C  6-Port  ) 
!S64(C  6-Port  ) 
!S65(C  6-Port  ) 
!S66(C  6-Port  ) 
!S6P File: Measurement: :
# Hz S  RI   R 50
500000000 -0.33674 -0.035289 -0.0095273 -0.0037003 -0.0079671 0.011707 -0.0033475 0.011569
0.012165 0.0048639 -0.0035223 0.0078492
-0.0095539 -0.0036997 -0.41927 -0.049591 0.0074757 -0.011365 0.0018147 0.011857
0.0073522 0.0026673 0.0013739 0.013146
-0.0079791 0.011698 0.0075051 -0.011356 -0.26456 0.21091 0.0070453 0.0030748
-0.00025412 0.0084641 0.00078533 0.01195
-0.0033849 0.011563 0.0018409 0.011904 0.0070492 0.0030827 -0.32686 0.047015
-0.019879 -0.0043894 0.017825 0.02519
0.012199 0.0047386 0.0075042 0.0027769 -0.00026002 0.0084757 -0.019892 -0.0043738
-0.22604 -0.18513 -0.027435 0.0045573
-0.003589 0.0078475 0.0013189 0.01317 0.00076724 0.011953 0.01786 0.025171
-0.027621 0.0046488 -0.27222 -0.11402
560000000 -0.31614 0.12412 -0.023742 -0.062546 -2.7535e-05 0.011746 0.0064495 0.0099756
0.010581 0.0038395 0.0099028 0.0076462
-0.023707 -0.06251 -0.37584 0.10872 -0.042217 -0.036809 0.013526 0.0035979
-0.013867 -0.0043366 0.0044471 -0.000694
2.1203e-05 0.011764 -0.042472 -0.03683 -0.1825 0.25831 -0.00058505 -0.004717
0.019661 0.0038988 0.0069336 -0.005908
0.0065219 0.0098859 0.013525 0.0037047 -0.00057427 -0.0047199 -0.30193 0.13554
0.003739 -0.024514 0.0044854 -0.0193
0.010498 0.0038417 -0.013789 -0.0043546 0.019662 0.0039054 0.0037435 -0.024509
-0.28469 -0.010224 0.0074056 -0.050068
0.0099372 0.0076533 0.0043816 -0.00075954 0.006969 -0.0058721 0.0044878 -0.019367
0.0073729 -0.050055 -0.33074 0.031901
620000000 -0.2731 0.1095 -0.023138 0.0073975 0.0035859 0.008581 0.0067208 -0.0056686
0.011396 -0.00053899 0.00018305 -0.0023181
-0.023101 0.0073807 -0.40236 0.062211 -0.018937 -0.00021561 -0.0012344 -0.0020707
0.010229 -0.0072278 0.0011268 -0.0026636
0.0036098 0.0085486 -0.018946 -0.0001643 -0.15272 0.26742 -0.001556 -0.0052753
-0.0040818 -0.0033353 0.0081816 -0.0035852
0.0066803 -0.0057311 -0.001261 -0.0020792 -0.0015527 -0.0052812 -0.26147 0.14558
-0.038622 -0.018394 0.01426 0.024164
0.011448 -0.00047239 0.010224 -0.0072806 -0.0040924 -0.0033264 -0.03865 -0.01838
-0.20428 -0.050149 -0.040582 0.014037
0.00014496 -0.0023873 0.0011735 -0.0026887 0.0081919 -0.0035004 0.014279 0.024143
-0.040601 0.01398 -0.24969 -0.0040783
680000000 -0.2332 0.193 -0.027931 -0.013993 0.00483 0.0050942 0.0010375 -0.0077024
-0.0034475 -0.010995 0.0040852 -0.0063799
-0.027948 -0.01399 -0.38712 0.15895 -0.033048 -0.0012977 -0.0017804 -0.00033075
-0.0028199 -0.0089172 -0.0010866 -0.0019231
0.0048282 0.0050846 -0.03308 -0.0012057 -0.10225 0.28713 -0.00078424 0.00013924
-0.0023963 0.00086981 -0.002871 -0.0094205
0.0010236 -0.0076927 -0.0017717 -0.00033557 -0.00079323 0.00014091 -0.2191 0.19483
-0.023662 -0.0083643 -0.0085616 -0.010441
-0.003471 -0.010989 -0.0028265 -0.0089052 -0.0023953 0.00088204 -0.023685 -0.0083494
-0.25176 0.047738 -0.0058399 -0.0093447
0.0041645 -0.0064221 -0.001126 -0.0019192 -0.0028948 -0.0094158 -0.0085793 -0.010447
-0.005919 -0.0093168 -0.25883 0.098714
740000000 -0.18954 0.18816 -0.038718 0.026565 0.012704 -0.0052351 -0.00082832 -0.0039471
-0.0047232 -0.0024587 -0.0063207 0.0031197
-0.038715 0.026528 -0.33502 0.17724 -0.034918 0.035342 -0.00076319 -0.0063349
-0.011977 0.0077086 -0.0024721 -0.0057982
0.012677 -0.0052779 -0.034847 0.035451 -0.068823 0.28604 -0.0014595 0.0033623
-0.002598 -0.0041083 -0.0015095 0.00032623
-0.00081459 -0.0039673 -0.00077703 -0.0062969 -0.0014635 0.0033663 -0.20247 0.20243
-0.043003 -0.008377 0.022085 0.013279
-0.0047353 -0.0023739 -0.011942 0.0077888 -0.0026072 -0.0041189 -0.043044 -0.0082815
-0.15679 0.071989 -0.041781 -2.9871e-05
-0.0063394 0.0031781 -0.0025685 -0.0058879 -0.0014568 0.00032987 0.022046 0.013236
-0.041682 -0.00013129 -0.24648 0.104
800000000 -0.15745 0.22808 -0.022527 0.01731 0.0053018 -0.010537 -0.0048482 -0.001935
-0.0040529 0.0027633 0.0043559 0.00099939
-0.02249 0.017282 -0.3378 0.24812 -0.0078069 0.034363 -0.0020987 0.002245
-0.00054354 0.0034907 0.0012265 0.0054186
0.005268 -0.010558 -0.0077135 0.034412 -0.027605 0.30927 0.0011633 0.0014958
0.00070841 0.0035332 -0.0017911 0.0011036
-0.0048609 -0.0019176 -0.0020986 0.0022586 0.001162 0.0014855 -0.17484 0.22996
-0.028536 0.012476 0.012911 -0.0098981
-0.0040175 0.0027346 -0.00051779 0.0034806 0.00070876 0.0035303 -0.028537 0.012547
-0.2009 0.095248 -0.017567 0.017193
0.0043784 0.00095274 0.0012432 0.0054314 -0.0017842 0.001092 0.012903 -0.0099155
-0.017543 0.017186 -0.23815 0.15524
860000000 -0.12288 0.24925 -0.017196 0.031176 -0.0033437 -0.0099491 -0.0023961 0.0014129
0.0041469 0.0051817 -0.0028826 -0.0028655
-0.017192 0.03113 -0.28973 0.29028 0.0083927 0.034486 0.0002257 0.0021514
0.0044567 0.00019828 0.0034463 0.00034507
-0.0033697 -0.0099441 0.008504 0.034475 0.020803 0.31734 -0.00043299 -0.00027895
0.0028575 -0.0015299 0.0017682 0.004323
-0.0024011 0.001418 0.00024227 0.0021618 -0.00043504 -0.00027708 -0.13937 0.24211
-0.018445 0.018988 -0.0058782 -0.0089227
0.0041609 0.0051576 0.0044646 0.00018656 0.0028648 -0.0015403 -0.018418 0.019025
-0.15218 0.14399 -0.024183 0.015138
-0.0029373 -0.0028585 0.0034542 0.00028834 0.0017445 0.0043112 -0.0058512 -0.0089434
-0.024128 0.015086 -0.18877 0.19728
920000000 -0.097487 0.27242 0.0053183 0.03788 -0.0095012 -0.0043427 -0.0017998 0.0022578
0.0015117 0.001599 0.0025031 -0.0015907
0.0052665 0.037844 -0.26076 0.31111 0.02832 0.02176 0.0017004 0.001099
0.0068559 -0.00078536 0.0038819 -0.0029438
-0.0095098 -0.0043273 0.028408 0.021703 0.067344 0.31775 0.0017534 -0.00013635
0.0012256 -0.00053565 0.0008125 -0.0010444
-0.0017935 0.0022621 0.0017197 0.0010988 0.0017534 -0.00013635 -0.11496 0.25893
-0.010494 0.030421 0.0026112 -0.006588
0.0015462 0.0015904 0.0068602 -0.00081819 0.0012298 -0.00053 -0.010443 0.030467
-0.14186 0.14977 -0.0024165 0.027389
0.0025029 -0.0015498 0.003906 -0.0029819 0.00083604 -0.0010427 0.0025964 -0.0065784
-0.0024237 0.027356 -0.19352 0.21122
980000000 -0.049911 0.29202 0.018098 0.030026 -0.0089168 0.0047334 0.0024891 0.0037124
0.0039532 -0.001891 -0.0029642 -0.0020399
0.01806 0.029977 -0.20781 0.34492 0.033226 0.0044681 0.0020235 -0.00011313
0.0010986 -0.0063423 -0.00060926 -0.0021586
-0.0088922 0.0047554 0.033256 0.0043573 0.11384 0.31096 0.00043142 -0.0011646
2.5508e-05 -0.0022142 0.0014945 -0.0001207
0.0024994 0.0036997 0.0020286 -0.0001001 0.0004336 -0.0011701 -0.0766 0.2707
0.0077251 0.029079 -0.0092046 -0.0067246
0.0039576 -0.0018904 0.0010529 -0.0063596 2.2023e-05 -0.0022032 0.0077878 0.029086
-0.11035 0.17774 0.0046791 0.018868
-0.0029802 -0.0020448 -0.00059497 -0.0021602 0.0015082 -9.9779e-05 -0.0091898 -0.0067123
0.0046338 0.018863 -0.15084 0.25629
1040000000 -0.0070065 0.30022 0.033515 0.017757 -0.0011219 0.0069876 0.0028283 0.00060912
-0.00011735 -0.0038101 -0.00062526 -0.0016128
0.033432 0.017748 -0.17233 0.35792 0.02925 -0.015236 0.0014431 -0.0017895
-0.0026276 -0.0023803 -0.0015143 -0.0027191
-0.0010843 0.0069921 0.029202 -0.015345 0.1602 0.29696 -0.00055608 -0.0014767
-0.0016147 -0.0008286 -0.0003886 -0.001167
0.0028191 0.0005916 0.0014505 -0.001799 -0.00055717 -0.0014753 -0.04875 0.2809
0.018762 0.017438 -0.0031096 0.0021281
-0.00011244 -0.0038051 -0.0026454 -0.0023787 -0.0016174 -0.00081757 0.018811 0.01741
-0.079923 0.18655 0.013509 0.018122
-0.00065425 -0.0015931 -0.0015227 -0.0027544 -0.00039973 -0.0011681 -0.0030936 0.0021233
0.013466 0.018129 -0.12893 0.2754
1100000000 0.038613 0.30734 0.035944 -0.0047506 0.0029988 0.0037587 0.0025261 -0.0014706
-0.0022078 -0.0029397 -0.0038951 0.00017977
0.035901 -0.0047287 -0.12851 0.37506 0.014799 -0.028054 -4.2488e-05 -0.0018027
-0.0032 -0.00030406 -0.003378 -0.00047174
0.0030084 0.0037595 0.014702 -0.028131 0.20674 0.27621 -0.0017751 0.00029757
-0.0017466 0.00070227 -0.00096412 -0.00043363
0.0025214 -0.0014881 -4.1568e-05 -0.0018042 -0.001776 0.00029482 -0.0078017 0.28598
0.023247 0.0048332 -0.0023608 0.0010701
-0.0022073 -0.0029279 -0.0032113 -0.00029017 -0.0017555 0.00070547 0.023273 0.0047972
-0.061458 0.20004 0.018802 0.0086086
-0.0039 0.00018903 -0.0033781 -0.00046467 -0.0009588 -0.00042969 -0.0023665 0.0010741
0.018785 0.0086153 -0.082052 0.30312
1160000000 0.090271 0.30208 0.023747 -0.021151 0.002732 -0.00053185 -0.00024532 -0.0025537
-0.0040358 -0.00041991 -0.00092719 0.0038437
0.023728 -0.02114 -0.084575 0.37913 -0.0041677 -0.029052 -0.0017625 -0.0016098
-0.0023146 0.0027354 -0.0012344 0.0016449
0.0027418 -0.00054877 -0.0043043 -0.029045 0.24978 0.2448 -0.00056837 0.0017739
-0.00032713 0.0018796 -0.0010818 5.7682e-05
-0.00025621 -0.0025672 -0.0017653 -0.0015942 -0.00057124 0.0017702 0.032012 0.28281
0.019589 -0.010193 -0.0026102 0.0055785
-0.0040407 -0.00038342 -0.0023072 0.0027592 -0.00032993 0.0018855 0.019581 -0.010216
-0.028446 0.20991 0.017468 0.00051338
-0.00091739 0.0038311 -0.0012046 0.0016416 -0.0010736 5.8048e-05 -0.00261 0.0055649
0.017454 0.00049205 -0.034814 0.30573
1220000000 0.13482 0.29026 0.0099865 -0.030235 -0.001525 -0.00088802 -0.00017133 -0.0010814
-0.0025356 0.0026321 0.0013432 0.0018636
0.0099903 -0.030213 -0.039962 0.39069 -0.017146 -0.020885 -0.0024823 0.00050991
0.00032269 0.0028392 -0.00067711 0.0017962
-0.001524 -0.00088662 -0.017264 -0.020827 0.28865 0.20522 0.00091612 0.0015501
0.00056654 0.0011352 0.00018013 0.00071312
-0.00018038 -0.0010777 -0.0024813 0.00052935 0.00091027 0.0015569 0.071948 0.27397
0.0092562 -0.015975 0.0027696 0.0017364
-0.0025282 0.0026628 0.00033946 0.002841 0.00056531 0.0011299 0.0092364 -0.015979
-0.0047883 0.21988 0.013556 -0.012286
0.0013415 0.0018555 -0.00066294 0.0018143 0.00017758 0.00072258 0.0027587 0.0017178
0.013528 -0.012305 -0.0029816 0.32104
1280000000 0.18444 0.26753 -0.0082974 -0.028397 -0.0018355 0.0024911 -0.0011091 -0.0019113
-0.00054266 0.0030959 0.0024776 0.00095235
-0.0082852 -0.02838 0.0061753 0.38118 -0.023736 -0.0081299 -0.00092445 0.001508
0.001634 0.0015043 0.00057046 0.0019496
-0.0018249 0.0024958 -0.023795 -0.0080231 0.31871 0.16112 0.0014032 -0.00024552
0.0010058 4.4998e-05 0.00023579 0.00042303
-0.0011201 -0.0018986 -0.00092928 0.0015125 0.0014063 -0.00024047 0.10845 0.25731
0.00015496 -0.017549 0.00051558 6.0867e-05
-0.00052302 0.0030978 0.0016445 0.0014961 0.001013 4.5623e-05 0.00012244 -0.017557
0.032664 0.224 0.0028141 -0.014361
0.0024818 0.00093876 0.00057193 0.0019329 0.00023983 0.00041156 0.00051979 5.5607e-05
0.0028093 -0.014351 0.04459 0.32144
1340000000 0.22132 0.23306 -0.01798 -0.018737 0.00084186 0.0043391 -0.0018829 -0.00071524
0.0015291 0.002605 0.0016731 -0.0015271
-0.017949 -0.018742 0.045572 0.37221 -0.021379 0.0044799 6.176e-06 0.001937
0.001675 0.00054597 0.0013281 0.0008818
0.00085634 0.0043235 -0.021379 0.0045976 0.34036 0.11301 0.00090574 -0.00089622
0.00065195 -0.00035514 0.00017637 0.00028489
-0.0018862 -0.00070912 1.132e-05 0.0019303 0.00090695 -0.00089793 0.141 0.23687
-0.0081791 -0.014384 0.0012925 4.0456e-05
0.0015529 0.0025998 0.0016716 0.00054199 0.00065094 -0.00035853 -0.0082213 -0.014371
0.063912 0.21958 -0.0034506 -0.013038
0.0016643 -0.0015298 0.0013453 0.00087083 0.00017746 0.00028815 0.0012933 2.9009e-05
-0.0034408 -0.013047 0.083128 0.3157
1400000000 0.25385 0.19418 -0.023543 -0.0071891 0.0050266 0.0030437 -0.0019456 0.00075893
0.0025573 0.00068288 0.00011472 -0.0013786
-0.023514 -0.0072066 0.082441 0.35855 -0.014508 0.01246 0.0013474 0.0012154
0.00093692 -0.00081836 0.0011795 0.00018559
0.0050549 0.0030185 -0.014463 0.012542 0.35308 0.059557 4.852e-05 -0.001379
7.6739e-05 -0.0003279 0.00035341 0.00018605
-0.0019475 0.00075745 0.0013607 0.0012056 5.585e-05 -0.0013848 0.17043 0.2083
-0.013118 -0.0079554 -0.00049685 -0.00078002
0.002574 0.00066968 0.00092156 -0.00082569 7.2426e-05 -0.00032747 -0.013139 -0.0079215
0.097495 0.21455 -0.0097373 -0.0082778
0.00010417 -0.0013798 0.0011927 0.00018903 0.00036166 0.00018256 -0.00049626 -0.00078069
-0.0097217 -0.00828 0.12721 0.30388
1460000000 0.27608 0.14965 -0.0204 0.0049956 0.0054733 -0.0017172 -0.0014432 0.0017527
0.0020017 -0.0007975 -0.0004135 -0.00081038
-0.020374 0.0049679 0.11609 0.3363 -0.0058882 0.015116 0.0016717 0.00013825
0.00079809 -0.0010655 0.0011661 -0.00069506
0.0054765 -0.0017489 -0.0058181 0.015175 0.35892 0.0052379 -0.0010871 -0.0011796
0.00024704 -0.00017637 0.00076468 -0.00036575
-0.0014429 0.0017556 0.0016763 0.00012173 -0.0010832 -0.0011754 0.197 0.17929
-0.013505 -0.0020804 -0.0010548 0.0014361
0.0019985 -0.00080388 0.00079498 -0.001072 0.00024449 -0.00017701 -0.013529 -0.0020513
0.12783 0.19924 -0.011386 -0.0027346
-0.0004069 -0.00081072 0.0011657 -0.00071908 0.00076336 -0.00037234 -0.0010518 0.0014381
-0.011378 -0.002742 0.16038 0.28196
1520000000 0.28753 0.10775 -0.014616 0.010598 0.0031018 -0.0041329 0.00017615 0.0025394
0.0016584 -0.0017571 -0.0011389 -4.1757e-05
-0.014605 0.010578 0.1491 0.32143 0.0015814 0.012892 0.001571 -0.00079857
9.5639e-05 -0.00083531 0.00025565 -0.0010586
0.0030771 -0.00414 0.0016546 0.012899 0.35194 -0.050863 -0.00094309 -0.00033222
0.00051976 -0.00084846 -4.647e-05 -0.00011038
0.0001844 0.0025459 0.0015668 -0.00079988 -0.00093736 -0.00033747 0.22057 0.1413
-0.0125 0.002654 0.0010188 0.0016607
0.0016422 -0.0017631 8.6335e-05 -0.00082675 0.00051734 -0.00085526 -0.012504 0.0026877
0.15612 0.18403 -0.011274 0.0016087
-0.001133 -2.8871e-05 0.00025189 -0.0010459 -4.4419e-05 -0.00010738 0.0010148 0.0016579
-0.01127 0.0015991 0.19274 0.26065
1580000000 0.29612 0.061352 -0.0078595 0.013569 -0.00096404 -0.0047327 0.0013785 0.0017629
-0.00057557 -0.0020795 -0.00031627 0.00040378
-0.0078647 0.013555 0.17581 0.29664 0.0051077 0.0081064 0.00043849 -0.001553
-0.00036002 -0.0010102 -0.00031924 -0.00083913
-0.00098603 -0.0047237 0.0051534 0.0080929 0.33147 -0.10812 -0.0014542 0.00042672
-0.00029273 -0.001101 0.00014815 -0.00056077
0.0013857 0.0017618 0.00042621 -0.0015586 -0.0014641 0.00041914 0.23502 0.10175
-0.0093461 0.0064418 0.0017429 0.00057439
-0.00058837 -0.0020726 -0.00036267 -0.0010048 -0.00029426 -0.0010951 -0.0093384 0.0064674
0.18053 0.16501 -0.0088442 0.0070254
-0.00031345 0.00041415 -0.00032807 -0.00084682 0.0001445 -0.00056423 0.0017456 0.00056597
-0.0088417 0.0070168 0.224 0.23324
1640000000 0.29741 0.020026 -0.0011474 0.012331 -0.0027322 -0.0025014 0.0025273 0.00096541
-0.00088947 -0.0010683 -0.00026242 0.00062708
-0.0011627 0.012332 0.20485 0.27177 0.0056975 0.0033927 -0.00073633 -0.0016256
-0.00092261 -0.00047818 -0.00057812 -0.0005859
-0.0027553 -0.0024849 0.0057282 0.0033583 0.3034 -0.15712 -0.00084371 0.0012801
-0.0010762 -0.00085528 -0.00012787 -0.00034975
0.0025431 0.00095606 -0.00074848 -0.0016275 -0.00083503 0.0012776 0.24757 0.052341
-0.005753 0.0069194 0.0021014 -0.00064817
-0.00089036 -0.0010703 -0.00091744 -0.00047298 -0.0010752 -0.00084926 -0.0057346 0.0069427
0.20331 0.13925 -0.0043513 0.0091192
-0.00025683 0.00063393 -0.0005832 -0.00057703 -0.00012329 -0.00034783 0.0021034 -0.00065766
-0.0043519 0.0091246 0.24915 0.20153
1700000000 0.28949 -0.025062 0.0022636 0.0094194 -0.0034221 0.00014242 0.002864 -0.0011223
-0.0018878 -0.00037016 0.00062858 0.00039816
0.0022485 0.0094095 0.2227 0.24046 0.0037537 0.00063842 -0.0013963 -0.00052714
-0.00079785 -7.3933e-05 -0.00091326 -0.00032691
-0.0034252 0.00016227 0.0037576 0.00061319 0.2598 -0.19718 0.00031044 0.0015821
-0.0017237 -0.00020298 -0.00060006 -0.00091945
0.0028539 -0.001137 -0.0013946 -0.00051717 0.00031483 0.0015825 0.24434 0.0018735
-0.0039135 0.0070903 0.0011906 -0.0020135
-0.0018896 -0.00035113 -0.00080015 -6.9294e-05 -0.0017305 -0.0001982 -0.0039008 0.007101
0.2204 0.1177 0.00016098 0.0092301
0.00063905 0.00039864 -0.00092188 -0.00031554 -0.00059145 -0.00092195 0.0011837 -0.0020172
0.00015806 0.0092306 0.2648 0.16695
1760000000 0.27663 -0.073232 0.0044391 0.0060834 -0.0021949 0.00086151 0.0012976 -0.0032319
-0.00099283 0.00072323 0.00040473 -0.00049738
0.0044294 0.0060825 0.24843 0.20086 0.001584 -0.00099531 -0.0010907 0.00023014
-0.0011716 0.00084999 -0.00051819 0.00058047
-0.0021867 0.00088925 0.0015905 -0.0010131 0.21087 -0.23005 0.0010915 0.0012503
-0.0010951 0.001342 -0.0012893 -0.00035308
0.0012843 -0.0032405 -0.0010998 0.00023412 0.0010871 0.0012571 0.23465 -0.050142
-0.0017132 0.0064113 -0.00037648 -0.002119
-0.00097977 0.00074212 -0.0011692 0.00085471 -0.0010993 0.0013407 -0.0016972 0.0064179
0.23461 0.08116 0.0040092 0.0066662
0.00039611 -0.00050342 -0.00051855 0.00059393 -0.0013039 -0.00034753 -0.00038105 -0.0021159
0.0040133 0.0066618 0.27669 0.1288
1820000000 0.25152 -0.11007 0.0045577 0.002564 -2.2403e-05 0.0024162 -0.00088032 -0.0030658
-0.00070474 0.00065143 3.437e-06 -0.00015136
0.004553 0.0025726 0.25829 0.171 -0.00032467 0.00010924 -0.0012731 0.00085888
-0.00016525 0.0013753 -0.00041127 0.00050482
-2.3783e-05 0.0024011 -0.00032332 0.00011051 0.16059 -0.24566 0.00161 0.00042692
-0.00036481 0.0020848 -0.0013946 0.00049993
-0.00090024 -0.0030589 -0.0012708 0.00086478 0.0016026 0.00043137 0.20388 -0.097477
-0.00098121 0.0051151 -0.001551 -0.0013452
-0.00069638 0.00066219 -0.00015489 0.0013728 -0.00036325 0.0020905 -0.00096881 0.0051233
0.25072 0.050211 0.0048301 0.003136
3.4248e-06 -0.00014975 -0.00040985 0.00051152 -0.0014014 0.00050929 -0.0015405 -0.0013435
0.0048234 0.0031368 0.27815 0.092354
1880000000 0.21618 -0.14961 0.002414 0.00038464 -0.00028847 0.0021384 -0.0027495 -0.0022522
-0.00013422 0.0013638 0.00035242 -0.00053055
0.0024138 0.00038544 0.26275 0.12475 -0.0021228 0.0017494 -0.0001276 0.0016691
0.00065603 0.0014093 0.00025643 0.00089132
-0.00028186 0.0021269 -0.0021104 0.0017645 0.10888 -0.25533 0.0020251 -0.0010368
0.0014751 0.0020194 -0.00084966 0.0014131
-0.0027718 -0.0022369 -0.00011693 0.001661 0.0020306 -0.0010331 0.16252 -0.13714
-0.0009355 0.0041099 -0.0023385 0.00063737
-0.00012688 0.0013685 0.00066705 0.0014045 0.0014809 0.0020271 -0.00093028 0.0041133
0.25199 0.016107 0.0044229 0.00094779
0.00034485 -0.00055035 0.00027052 0.0008823 -0.00085095 0.0014168 -0.002343 0.00064838
0.0044188 0.00095202 0.27701 0.058069
1940000000 0.17661 -0.17494 0.00021407 -0.0013897 0.0013869 0.0018231 -0.0037107 0.00043585
0.0011137 0.00094459 -0.00063551 -0.00062815
0.00021472 -0.0013822 0.26333 0.092993 -0.00098717 0.0038745 0.00097666 0.0013185
0.0020205 0.0006231 0.00081045 0.00019377
0.0013828 0.0018169 -0.00096471 0.0038739 0.06254 -0.24904 0.00034154 -0.0023627
0.0024205 0.00052539 0.00037917 0.0016876
-0.0037168 0.00045888 0.00098696 0.0013059 0.00034421 -0.0023635 0.10956 -0.16677
-0.0021129 0.0037294 -0.0012818 0.001795
0.0011214 0.00093155 0.0020332 0.00060404 0.0024221 0.00052027 -0.0021096 0.0037356
0.2513 -0.024149 0.0030805 -0.0021292
-0.000633 -0.0006311 0.00082257 0.00019385 0.00042213 0.0016798 -0.0012738 0.0018058
0.0030741 -0.0021187 0.26513 0.021935
2000000000 0.13045 -0.18883 -0.0036155 0.00055388 0.0023864 0.0014941 -0.0023179 0.0035649
0.00097888 0.000292 -0.00063778 0.00032486
-0.0036129 0.00054895 0.24927 0.057516 -0.00081568 0.0055634 0.0016652 0.00031225
0.0015699 -0.0014453 0.00042714 0.00012268
0.0023846 0.001486 -0.00077723 0.0055773 0.019014 -0.23457 -0.0015225 -0.0015028
0.0020517 -0.0012601 0.0016254 0.0013327
-0.0023065 0.0035803 0.0016691 0.00030703 -0.0015246 -0.0015045 0.056506 -0.17554
-0.0033895 0.004742 0.00023489 0.0023385
0.00098456 0.00029051 0.0015494 -0.001464 0.0020507 -0.0012635 -0.003382 0.0047604
