!Keysight Technologies,M9804A,MY58100912,A.14.10.03
!Date: Thursday, April 27, 2023 10:28:33
!Correction: S11(C  6-Port  ) 
!S12(C  6-Port  ) 
!S13(C  6-Port  ) 
!S14(C  6-Port  ) 
!S15(C  6-Port  ) 
!S16(C  6-Port  ) 
!S21(C  6-Port  ) 
!S22(C  6-Port  ) 
!S23(C  6-Port  ) 
!S24(C  6-Port  ) 
!S25(C  6-Port  ) 
!S26(C  6-Port  ) 
!S31(C  6-Port  ) 
!S32(C  6-Port  ) 
!S33(C  6-Port  ) 
!S34(C  6-Port  ) 
!S35(C  6-Port  ) 
!S36(C  6-Port  ) 
!S41(C  6-Port  ) 
!S42(C  6-Port  ) 
!S43(C  6-Port  ) 
!S44(C  6-Port  ) 
!S45(C  6-Port  ) 
!S46(C  6-Port  ) 
!S51(C  6-Port  ) 
!S52(C  6-Port  ) 
!S53(C  6-Port  ) 
!S54(C  6-Port  ) 
!S55(C  6-Port  ) 
!S56(C  6-Port  ) 
!S61(C  6-Port  ) 
!S62(C  6-Port  ) 
!S63(C  6-Port  ) 
!S64(C  6-Port  ) 
!S65(C  6-Port  ) 
!S66(C  6-Port  ) 
!S6P File: Measurement: :
# Hz S  RI   R 50
500000000 -0.33775 -0.044926 -0.010697 -0.0021863 -0.0086619 0.01325 -0.005085 0.012787
0.012579 0.0042982 -0.0054694 0.0088499
-0.0106 -0.002212 -0.41889 -0.055658 0.0077336 -0.010811 0.0017476 0.012922
0.0067993 0.0023509 0.0011039 0.014065
-0.0084744 0.013468 0.0077979 -0.010687 -0.26757 0.20703 0.0069217 0.0040298
-0.0027086 0.0085862 0.00063402 0.012315
-0.0053273 0.012524 0.0016148 0.012864 0.0069483 0.0039418 -0.33428 0.034363
-0.021901 -0.0054076 0.017041 0.026668
0.012762 0.0042022 0.0067838 0.0024638 -0.0026573 0.0085004 -0.021876 -0.0054306
-0.21455 -0.21384 -0.028152 0.0055547
-0.0050986 0.0086769 0.0012643 0.014088 0.00062368 0.012477 0.017429 0.026449
-0.02802 0.0056652 -0.26236 -0.13834
560000000 -0.31855 0.12054 -0.023774 -0.063628 -0.00023606 0.012376 0.0054747 0.011245
0.010236 0.0049101 0.010426 0.0081135
-0.02363 -0.06339 -0.37722 0.10475 -0.041821 -0.036857 0.013681 0.0040882
-0.014134 -0.004653 0.0029855 -7.6608e-05
-0.00015636 0.012285 -0.042134 -0.036733 -0.1846 0.25742 3.0764e-05 -0.0041995
0.019499 0.005925 0.0073395 -0.0067084
0.0055251 0.011272 0.01368 0.0037761 2.7312e-05 -0.0040792 -0.31233 0.1294
0.0035559 -0.023063 0.0043074 -0.022084
0.010374 0.0047208 -0.014121 -0.0046154 0.019671 0.0061767 0.0033628 -0.023434
-0.28829 -0.0351 0.0080216 -0.050119
0.010465 0.0083547 0.00276 -5.0716e-05 0.0072816 -0.0063456 0.0042391 -0.022133
0.0082674 -0.049249 -0.32688 0.01213
620000000 -0.27676 0.10277 -0.023127 0.0087532 0.0038193 0.008946 0.0083084 -0.0045943
0.011445 -0.00042335 0.00098043 -0.0023178
-0.023074 0.0087817 -0.40368 0.056775 -0.018196 0.00064424 -0.0011464 -0.001888
0.011903 -0.0057941 0.001337 -0.0032656
0.0038111 0.0089848 -0.018268 0.00066009 -0.15437 0.26649 -0.00050828 -0.0053703
-0.0024169 -0.002456 0.0090192 -0.0036798
0.0082818 -0.0045213 -0.0012385 -0.0019078 -0.00050045 -0.0053602 -0.27112 0.14002
-0.039922 -0.018993 0.012844 0.026431
0.011494 -0.00030396 0.011848 -0.0055754 -0.0023927 -0.0024601 -0.04011 -0.018568
-0.20511 -0.074849 -0.044389 0.016347
0.0009169 -0.0022239 0.0012836 -0.0032273 0.0091038 -0.0035504 0.012485 0.026879
-0.043559 0.016034 -0.24871 -0.02706
680000000 -0.23688 0.19021 -0.026671 -0.013716 0.0052121 0.0050053 0.0020028 -0.0070196
-0.0025636 -0.011156 0.0054301 -0.0076445
-0.026643 -0.013787 -0.38901 0.15603 -0.032256 -0.0014725 -0.0012412 -0.00054378
-0.0016407 -0.0093164 -0.0011109 -0.0020279
0.0052243 0.0049896 -0.032294 -0.0013973 -0.10224 0.28611 -0.00071836 -0.00083385
-0.0014169 5.8322e-05 -0.0029118 -0.0095416
0.0020782 -0.0069121 -0.0013281 -0.00040121 -0.0007274 -0.00081782 -0.22389 0.19335
-0.024392 -0.0060199 -0.010359 -0.012322
-0.0025989 -0.010971 -0.0016057 -0.0092455 -0.001385 0.00011313 -0.024369 -0.0059463
-0.26373 0.027217 -0.0058469 -0.0063443
0.0050178 -0.007584 -0.0011291 -0.0020283 -0.0027952 -0.0094439 -0.010364 -0.012015
-0.0057885 -0.0066297 -0.26074 0.080043
740000000 -0.19283 0.18521 -0.039369 0.027436 0.013188 -0.005323 -2.8171e-05 -0.0045651
-0.0041342 -0.0025599 -0.0064687 0.002179
-0.039291 0.027316 -0.33434 0.17469 -0.035204 0.035041 -0.00042259 -0.0065368
-0.011611 0.0068562 -0.0021647 -0.0068025
0.013191 -0.0052737 -0.03514 0.035292 -0.068344 0.28372 -0.0022263 0.0030638
-0.002399 -0.0050728 -0.0016066 0.00015271
3.3644e-05 -0.0044936 -0.00041524 -0.006498 -0.0022106 0.0030183 -0.20711 0.20174
-0.044501 -0.0063104 0.024361 0.016339
-0.004219 -0.0025831 -0.01165 0.0068388 -0.0024579 -0.0050098 -0.044375 -0.0061922
-0.15895 0.055061 -0.044252 0.00051385
-0.0060956 0.0029206 -0.0019784 -0.0067186 -0.0014837 0.00021112 0.024517 0.016305
-0.044348 0.00065161 -0.25011 0.086081
800000000 -0.15903 0.2267 -0.021866 0.016879 0.0054067 -0.010473 -0.004586 -0.0021186
-0.0039091 0.0018989 0.0043057 0.00035226
-0.021805 0.016815 -0.33876 0.24494 -0.0078414 0.033809 -0.0025268 0.0021331
-0.0009069 0.0026158 0.00083313 0.0051458
0.0053859 -0.010573 -0.0077312 0.033832 -0.02796 0.30645 0.00055239 0.001676
-9.9009e-06 0.0034521 -0.0017314 0.00080744
-0.0045892 -0.0022082 -0.0024896 0.0021282 0.00057118 0.0016878 -0.17768 0.23073
-0.028253 0.01479 0.014451 -0.010499
-0.0039242 0.0019633 -0.0010059 0.002779 -1.1147e-05 0.0034911 -0.028297 0.014765
-0.20947 0.080566 -0.016936 0.019252
0.0043717 0.0004026 0.00086046 0.0052992 -0.0018208 0.00090203 0.014491 -0.01044
-0.016909 0.019487 -0.24546 0.13647
860000000 -0.12432 0.24633 -0.01729 0.030511 -0.0031509 -0.0098782 -0.0018561 0.00059479
0.0035733 0.0051992 -0.0034004 -0.0032431
-0.017259 0.030458 -0.29075 0.28635 0.007678 0.03396 -0.00015839 0.0021123
0.0037438 0.00048197 0.0033814 0.00085483
-0.0031694 -0.0098858 0.0077801 0.03397 0.01938 0.31411 -0.00065997 3.2491e-05
0.0028094 -0.001596 0.0016151 0.0041691
-0.0019287 0.00060683 -0.00019273 0.0021673 -0.00067685 3.4163e-05 -0.13976 0.2408
-0.017056 0.018292 -0.0059393 -0.0087193
0.0037757 0.0052322 0.0038132 0.00040936 0.0028105 -0.001602 -0.01693 0.018401
-0.15676 0.13442 -0.026071 0.015658
-0.003552 -0.0031774 0.0033439 0.00079969 0.0016616 0.0041639 -0.0059802 -0.0087066
-0.026219 0.015694 -0.19514 0.1828
920000000 -0.099882 0.26861 0.0051782 0.037549 -0.0093049 -0.004685 -0.0018597 0.0014855
0.00071594 0.0019356 0.0027987 -0.0015173
0.0051331 0.037511 -0.26256 0.30764 0.027754 0.021998 0.001409 0.0011234
0.0071419 0.00022347 0.0040363 -0.0028096
-0.0093252 -0.0046635 0.027873 0.021942 0.065138 0.31503 0.0020356 0.00011899
0.0012162 -0.00027288 0.00079395 -0.00124
-0.0018519 0.001531 0.001416 0.0011383 0.0020457 0.00013885 -0.1159 0.25758
-0.010813 0.031021 0.0044946 -0.0066877
0.00074228 0.0018943 0.0071415 0.00019307 0.0012083 -0.00023291 -0.01078 0.031231
-0.14793 0.13983 -0.0023081 0.027223
0.0026701 -0.0014075 0.0040361 -0.0028527 0.00079322 -0.0012307 0.0044687 -0.0068422
-0.0022885 0.02713 -0.2042 0.19724
980000000 -0.052732 0.2882 0.017172 0.029697 -0.0091969 0.0043261 0.0017906 0.0032552
0.0038108 -0.0011426 -0.0031091 -0.0023324
0.017162 0.02968 -0.21004 0.34184 0.03283 0.0050099 0.0022057 7.1141e-05
0.0018791 -0.0057001 -9.5867e-05 -0.0024181
-0.0091859 0.004328 0.032866 0.0049245 0.11125 0.30867 0.0006759 -0.0012676
0.00045413 -0.0020813 0.0013275 -0.0001811
0.0017951 0.0032086 0.0021767 4.1733e-05 0.00066643 -0.0012733 -0.077194 0.26824
0.0085539 0.031014 -0.0092822 -0.007635
0.0037878 -0.0012039 0.0018305 -0.0057611 0.00047467 -0.0020906 0.0086624 0.031031
-0.11782 0.16889 0.0050127 0.019723
-0.003162 -0.0024228 -6.2279e-05 -0.0024582 0.0013475 -0.00020626 -0.0093801 -0.007595
0.0050227 0.019675 -0.16236 0.24252
1040000000 -0.011295 0.2967 0.032838 0.018102 -0.001529 0.0068179 0.0022529 0.00081778
0.00011834 -0.0034307 -0.00018571 -0.0012953
0.032798 0.018135 -0.1748 0.35486 0.02931 -0.014576 0.001588 -0.0017423
-0.0020443 -0.0028078 -0.0014453 -0.0027087
-0.0015068 0.0068097 0.029312 -0.014673 0.15709 0.29534 -0.00046876 -0.0017194
-0.001466 -0.00098127 -0.00057711 -0.00098315
0.0022636 0.00078326 0.0016026 -0.0017391 -0.00044587 -0.0017402 -0.050397 0.27822
0.020237 0.018539 -0.0020664 0.00077422
9.5345e-05 -0.003459 -0.0020943 -0.0027716 -0.0014646 -0.0009598 0.02025 0.018609
-0.085841 0.17615 0.013482 0.019269
-0.00023971 -0.0013608 -0.0013543 -0.0027099 -0.00056789 -0.0010055 -0.0020567 0.0008065
0.01338 0.019177 -0.14173 0.26369
1100000000 0.033742 0.3049 0.035476 -0.0040922 0.0026011 0.0039457 0.0021796 -0.001022
-0.0018091 -0.0031924 -0.0040909 -8.6042e-05
0.035451 -0.0040424 -0.13166 0.37215 0.015241 -0.027708 2.5052e-05 -0.0018562
-0.0034083 -0.0011349 -0.0036376 -0.00065171
0.0026152 0.0039348 0.01516 -0.027798 0.20349 0.27531 -0.0020178 2.8328e-05
-0.0019127 0.00033842 -0.0011884 -0.00021372
0.002174 -0.0010214 3.0664e-05 -0.0018247 -0.0020178 3.134e-05 -0.010182 0.28317
0.025775 0.0052884 -0.0029283 -0.00055234
-0.0018426 -0.0031732 -0.0034053 -0.0011201 -0.0019159 0.00032228 0.025805 0.0052867
-0.069453 0.19023 0.019235 0.0087744
-0.0041348 -0.00012344 -0.0036506 -0.00066317 -0.0011499 -0.00021377 -0.0028498 -0.00052952
0.01931 0.0087969 -0.096331 0.29566
1160000000 0.084794 0.30024 0.023654 -0.020657 0.0025105 -0.00033171 -0.00028316 -0.002084
-0.0041718 -0.00096034 -0.0010504 0.0041985
0.023663 -0.020616 -0.088406 0.37657 -0.0035699 -0.029157 -0.0016208 -0.0017955
-0.0030608 0.0023263 -0.0015179 0.0019163
0.0025147 -0.00035275 -0.003684 -0.029172 0.2465 0.24471 -0.00094292 0.0018362
-0.000699 0.0020556 -0.00092499 0.00016295
-0.00028493 -0.0020839 -0.001637 -0.0017828 -0.00094313 0.001842 0.0289 0.28032
0.022473 -0.011154 -0.0038746 0.0050111
-0.0041818 -0.00094368 -0.0030543 0.0023916 -0.00069972 0.0020918 0.022452 -0.011168
-0.035947 0.19948 0.01835 0.00082763
-0.00098675 0.0041202 -0.0015101 0.001897 -0.00087855 0.000184 -0.0038161 0.00504
0.018372 0.00078106 -0.049062 0.29812
1220000000 0.12911 0.28967 0.010349 -0.029839 -0.001653 -0.00061387 0.00024831 -0.00073593
-0.00274 0.0022465 0.0011551 0.0020979
0.010364 -0.029805 -0.044129 0.38918 -0.016807 -0.021315 -0.0026019 0.00033571
-0.00020499 0.0032188 -0.00093813 0.0018887
-0.0016514 -0.00062039 -0.016914 -0.021264 0.28574 0.20591 0.00069991 0.0019423
0.00069234 0.001467 0.00046923 0.00056915
0.00026632 -0.00075705 -0.0026064 0.00034923 0.00070182 0.0019285 0.068587 0.27216
0.011496 -0.018283 0.0013882 0.0013321
-0.002688 0.0022471 -0.00015673 0.0032125 0.00069893 0.00145 0.01149 -0.018284
-0.014681 0.20942 0.014433 -0.012788
0.0011818 0.0020404 -0.00091188 0.0019297 0.00049237 0.00057603 0.0013423 0.0013417
0.014399 -0.012832 -0.018851 0.31635
1280000000 0.17892 0.2682 -0.0079137 -0.02821 -0.0018087 0.0027079 -0.00078273 -0.0020936
-0.00098284 0.0030516 0.0024328 0.0014012
-0.0078905 -0.028186 0.0016211 0.38072 -0.02383 -0.0087215 -0.0011881 0.0014204
0.0018348 0.0021474 0.000579 0.002146
-0.0018019 0.0027233 -0.023903 -0.0086141 0.31624 0.16217 0.0017415 0.00017802
0.0012812 0.00033214 0.00041654 0.00019684
-0.00080156 -0.0020935 -0.0011645 0.0014299 0.0017573 0.00017219 0.10552 0.25555
0.00158 -0.020797 -0.0007345 0.0005432
-0.0009759 0.0030447 0.0018433 0.0021299 0.0012788 0.00033361 0.0015478 -0.020819
0.02119 0.21424 0.003125 -0.015139
0.0024466 0.0013612 0.00062731 0.0022055 0.00044519 0.00021173 -0.00074907 0.00050966
0.0031701 -0.015146 0.029494 0.31928
1340000000 0.216 0.23495 -0.017563 -0.018707 0.0010556 0.0046755 -0.0016778 -0.00098799
0.0013785 0.0027387 0.0020015 -0.0012818
-0.017531 -0.018703 0.04132 0.37304 -0.021777 0.0041608 -0.00026359 0.0021293
0.0022005 0.00091693 0.0013552 0.00084896
0.0010764 0.0046854 -0.021779 0.0042753 0.33847 0.11434 0.0014548 -0.0010129
0.00090591 -0.00066798 9.3191e-05 0.00024248
-0.001682 -0.00098763 -0.00026302 0.0021284 0.0014464 -0.0010066 0.13768 0.23527
-0.0089 -0.018286 0.0005623 0.0010934
0.0013946 0.0027416 0.0022159 0.00089794 0.00092844 -0.00066992 -0.0089318 -0.018277
0.049516 0.21075 -0.0034169 -0.013911
0.0019395 -0.0013551 0.0013471 0.00084949 2.8128e-05 0.00026168 0.00059958 0.0011446
-0.0034767 -0.013876 0.067326 0.31613
1400000000 0.24946 0.19725 -0.023185 -0.0072381 0.0054065 0.003114 -0.0021994 0.00048044
0.0023553 0.0011096 0.00045997 -0.0014918
-0.023147 -0.0072459 0.078907 0.36035 -0.015062 0.012521 0.0014264 0.0014868
0.001384 -0.00086954 0.0013667 0.00014635
0.0054026 0.0031018 -0.015008 0.012608 0.35157 0.060905 0.00022398 -0.001953
1.9008e-05 -0.00048922 0.00034089 0.00018324
-0.0021967 0.00047045 0.0014509 0.0014729 0.00022302 -0.0019636 0.16668 0.20633
-0.015561 -0.011376 -0.00088217 0.00020937
0.0023536 0.0010834 0.0013878 -0.00088616 2.298e-05 -0.00047066 -0.015564 -0.011332
0.082145 0.20823 -0.0099342 -0.0090919
0.00044133 -0.0014848 0.00132 0.00016749 0.00034374 0.00015618 -0.00090118 0.00018429
-0.00997 -0.0090697 0.11265 0.30613
1460000000 0.27248 0.1533 -0.020137 0.0048548 0.0058303 -0.001866 -0.0016898 0.0018068
0.0021766 -0.00029146 -0.00030781 -0.0011942
-0.020118 0.0048389 0.11348 0.33861 -0.0062176 0.015534 0.0019091 0.00025513
0.00093997 -0.0014651 0.0012162 -0.00066306
0.0058065 -0.0019002 -0.0061403 0.015582 0.35767 0.0066652 -0.0014492 -0.0015413
8.6188e-05 -0.00031726 0.00052067 -0.00036746
-0.0016768 0.0018182 0.0019268 0.00025738 -0.0014353 -0.0015401 0.19208 0.17731
-0.017513 -0.004021 -0.00056858 0.0026547
0.0021936 -0.00028669 0.00095107 -0.0014893 6.9934e-05 -0.00033256 -0.017516 -0.0040037
0.11044 0.19525 -0.011777 -0.0028157
-0.00034199 -0.0011518 0.0012227 -0.00065488 0.00049652 -0.00033766 -0.00057806 0.0026672
-0.011782 -0.0027649 0.14625 0.28564
1520000000 0.2851 0.11171 -0.014461 0.010257 0.0034919 -0.004327 1.777e-05 0.0027129
0.002351 -0.0016376 -0.0011507 -0.00025997
-0.014452 0.010241 0.1474 0.32397 0.001596 0.013319 0.0018596 -0.00083885
-2.5922e-05 -0.0011649 0.00037056 -0.00097141
0.0034899 -0.0043365 0.0016681 0.013329 0.3512 -0.049278 -0.0014088 -0.00039408
0.00068134 -0.00075899 9.6499e-05 -0.00010282
2.6344e-05 0.0027203 0.0018616 -0.00084201 -0.0014164 -0.00038968 0.21443 0.14036
-0.017049 0.0028066 0.001912 0.0022542
0.0023371 -0.0016506 -3.1131e-05 -0.0011652 0.00068948 -0.00075836 -0.017055 0.002855
0.13837 0.18306 -0.011925 0.0014382
-0.0011842 -0.00024931 0.00033248 -0.00098994 8.2238e-05 -0.00013384 0.0019141 0.002295
-0.011916 0.001511 0.18015 0.26656
1580000000 0.29471 0.065182 -0.0078402 0.013273 -0.00089588 -0.0051383 0.00154 0.0020615
3.4588e-06 -0.0022504 -0.00041847 0.00048807
-0.0078568 0.013256 0.17497 0.29898 0.005342 0.0084312 0.00050431 -0.0017897
-0.00064409 -0.0010716 -0.00022371 -0.00081308
-0.00093014 -0.0051369 0.0053988 0.0084027 0.33111 -0.10699 -0.0018253 0.0009679
-0.00031529 -0.0011803 0.00014592 -0.00048408
0.0015502 0.0020725 0.00049084 -0.0017926 -0.0018325 0.00094785 0.22761 0.10252
-0.013229 0.0086729 0.0027339 0.00076853
-3.0545e-06 -0.0022522 -0.00065799 -0.0010803 -0.00031045 -0.0011726 -0.013208 0.0087049
0.16313 0.16686 -0.0093387 0.0075333
-0.00037403 0.00047248 -0.00023671 -0.00082087 0.00012199 -0.00050766 0.0027246 0.00080375
-0.0093655 0.0075159 0.21338 0.2402
1640000000 0.29687 0.023764 -0.0012003 0.012124 -0.0027884 -0.0026956 0.0029052 0.0010211
-0.00049305 -0.0018008 -0.00036289 0.0006243
-0.0012161 0.012113 0.2047 0.27396 0.0061769 0.0035029 -0.0007646 -0.001933
-0.0010374 -0.00038667 -0.00044258 -0.00080504
-0.0028125 -0.0026914 0.0062029 0.0034695 0.30325 -0.15638 -0.00052518 0.0017499
-0.00108 -0.0011884 -4.5408e-05 -0.00043643
0.0028967 0.0010093 -0.00077516 -0.0019317 -0.00052363 0.0017482 0.23993 0.055777
-0.0083225 0.0106 0.002989 -0.00097255
-0.00051331 -0.0018014 -0.0010513 -0.00036991 -0.0010878 -0.0011721 -0.0082878 0.010635
0.18605 0.1439 -0.0046334 0.0096347
-0.00033452 0.00062084 -0.00043971 -0.00081106 -3.0119e-05 -0.00046554 0.0030075 -0.0009895
-0.0046266 0.0096229 0.23915 0.21012
1700000000 0.28962 -0.02177 0.0021253 0.0092225 -0.0036421 4.0358e-05 0.0031466 -0.0014436
-0.0021306 -0.00098236 0.00066154 0.00045833
0.002119 0.0092237 0.22304 0.24214 0.0041063 0.00056343 -0.0016425 -0.00064299
-0.00076575 0.00012295 -0.00096233 -0.00052029
-0.0036273 6.6664e-05 0.0041234 0.00053578 0.25968 -0.19622 0.00077365 0.0016236
-0.0021267 -0.00023633 -0.00042496 -0.00088632
0.0031361 -0.0014811 -0.0016498 -0.00064135 0.00078426 0.0016359 0.2379 0.0081347
-0.0046201 0.011614 0.0017799 -0.002519
-0.0021529 -0.00096815 -0.00076581 0.00011755 -0.0021523 -0.00026707 -0.0045774 0.011636
0.20405 0.12495 0.00011677 0.010017
0.00068627 0.00046099 -0.00097891 -0.00049504 -0.00042666 -0.00084843 0.0017789 -0.0025473
0.00015382 0.009975 0.2567 0.17576
1760000000 0.27716 -0.07039 0.0042842 0.0059331 -0.0024687 0.0010263 0.0011902 -0.0036243
-0.0015362 0.0005998 0.00046273 -0.00065671
0.0042748 0.0059445 0.24888 0.20198 0.0016994 -0.0013588 -0.0013396 0.00026218
-0.0009566 0.00094121 -0.00064116 0.00033641
-0.0024763 0.0010314 0.0016898 -0.0013742 0.2105 -0.2297 0.0013261 0.00084071
-0.0013241 0.0014766 -0.001342 -0.00065136
0.0011611 -0.0036226 -0.001337 0.00027831 0.0013391 0.00083694 0.23089 -0.041406
-0.00030549 0.010567 -0.00015993 -0.0029871
-0.0015503 0.00061331 -0.00096559 0.00094918 -0.0013057 0.0014786 -0.00027414 0.010589
0.21942 0.090976 0.0044109 0.007281
0.00046089 -0.00064454 -0.00066382 0.00036354 -0.0013425 -0.00061331 -0.00012146 -0.0029465
0.0044093 0.0073177 0.26969 0.13835
1820000000 0.25246 -0.10758 0.0043662 0.0023735 -0.0001333 0.0025187 -0.0012275 -0.0031317
-0.0013636 0.00098612 -2.5546e-05 -9.2829e-05
0.0043707 0.0023825 0.2589 0.17167 -0.00043615 -0.00029743 -0.0013315 0.0010922
4.7844e-05 0.0012434 -0.00060008 0.00060167
-0.00012192 0.0025152 -0.00043297 -0.00029739 0.16034 -0.24549 0.0013717 0.000118
-0.00015267 0.0025058 -0.0013664 0.00031071
-0.0012478 -0.0031329 -0.0013291 0.0011059 0.0013935 9.8395e-05 0.20382 -0.088009
0.0019554 0.0085138 -0.001778 -0.0019055
-0.001345 0.0010224 4.8428e-05 0.0012354 -0.00015389 0.0024674 0.002001 0.0085188
0.23748 0.063034 0.0053284 0.0035787
-3.3707e-05 -6.7694e-05 -0.00063101 0.00060913 -0.0013619 0.00029829 -0.0017775 -0.0018683
0.005259 0.0035162 0.27294 0.10275
1880000000 0.21726 -0.1478 0.0020482 0.00019582 -0.00049304 0.0021918 -0.00311 -0.0021515
-0.00023607 0.0020028 0.00015356 -0.00056565
0.0020552 0.00021343 0.26297 0.12479 -0.0025118 0.0016028 -6.6095e-05 0.0016823
0.00052777 0.0011131 0.00010884 0.0010283
-0.00045639 0.0021831 -0.0025085 0.0016085 0.10811 -0.25453 0.0015253 -0.00074819
0.001585 0.0020494 -0.0010085 0.0014366
-0.0031198 -0.0021172 -4.9307e-05 0.0016881 0.0015355 -0.00075772 0.16615 -0.12931
0.0032036 0.0056918 -0.0027028 0.00016294
-0.0002225 0.0019915 0.00051956 0.0010897 0.0015605 0.0020316 0.0032159 0.0057213
0.24127 0.031212 0.0056232 0.0013611
0.00011099 -0.0006043 0.00010171 0.0010235 -0.0010433 0.0014031 -0.002693 0.00019438
0.0055599 0.0012695 0.27335 0.06842
1940000000 0.17794 -0.17345 -0.0002462 -0.0013323 0.0013152 0.0021111 -0.0036456 0.00068086
0.0014973 0.0012528 -0.00074122 -0.00045789
-0.00023765 -0.0013321 0.26316 0.093009 -0.0012558 0.0038974 0.0010227 0.0012511
0.0016957 0.00050831 0.00088621 0.0004164
0.00133 0.0021119 -0.0012282 0.0039112 0.062306 -0.24782 0.00030189 -0.0018054
0.0024157 0.00048861 0.00049107 0.0017263
-0.0036657 0.0007411 0.0010493 0.001262 0.00029051 -0.0018008 0.11543 -0.16199
0.002446 0.0033861 -0.0017923 0.0015004
0.0015128 0.0012312 0.0016808 0.00051225 0.0024139 0.0005034 0.0024604 0.0034178
0.24464 -0.0070355 0.0041512 -0.0023242
-0.00073139 -0.00048541 0.00091461 0.00034815 0.00047808 0.0016983 -0.001846 0.0015753
0.004108 -0.0023688 0.2628 0.032879
2000000000 0.13155 -0.18805 -0.0040628 0.00092368 0.0026288 0.0018062 -0.0023184 0.003505
0.0012386 0.000126 -0.00064347 0.00054162
-0.0040548 0.00091624 0.24857 0.057659 -0.0010879 0.0057917 0.0015224 0.00038528
0.0012341 -0.0011906 0.00049829 0.0002102
0.002629 0.001792 -0.0010577 0.0058129 0.019062 -0.23345 -0.0010656 -0.001332
0.0020863 -0.0012383 0.0017343 0.0013898
-0.0022931 0.0035415 0.0015488 0.00038253 -0.0010273 -0.0013459 0.061939 -0.17451
0.0005109 0.0024006 -0.0001744 0.0022487
0.0012143 0.00014413 0.0011842 -0.0011786 0.002074 -0.0012133 0.00052725 0.0023762
0.23996 -0.041027 0.00082855 -0.0033307
