!Keysight Technologies,M9804A,MY58100912,A.14.10.03
!Date: Thursday, April 27, 2023 10:28:33
!Correction: S11(C  6-Port  ) 
!S12(C  6-Port  ) 
!S13(C  6-Port  ) 
!S14(C  6-Port  ) 
!S15(C  6-Port  ) 
!S16(C  6-Port  ) 
!S21(C  6-Port  ) 
!S22(C  6-Port  ) 
!S23(C  6-Port  ) 
!S24(C  6-Port  ) 
!S25(C  6-Port  ) 
!S26(C  6-Port  ) 
!S31(C  6-Port  ) 
!S32(C  6-Port  ) 
!S33(C  6-Port  ) 
!S34(C  6-Port  ) 
!S35(C  6-Port  ) 
!S36(C  6-Port  ) 
!S41(C  6-Port  ) 
!S42(C  6-Port  ) 
!S43(C  6-Port  ) 
!S44(C  6-Port  ) 
!S45(C  6-Port  ) 
!S46(C  6-Port  ) 
!S51(C  6-Port  ) 
!S52(C  6-Port  ) 
!S53(C  6-Port  ) 
!S54(C  6-Port  ) 
!S55(C  6-Port  ) 
!S56(C  6-Port  ) 
!S61(C  6-Port  ) 
!S62(C  6-Port  ) 
!S63(C  6-Port  ) 
!S64(C  6-Port  ) 
!S65(C  6-Port  ) 
!S66(C  6-Port  ) 
!S6P File: Measurement: :
# Hz S  RI   R 50
500000000 -0.33741 -0.044492 -0.010463 -0.0023616 -0.0088124 0.013401 -0.0052846 0.012655
0.012706 0.0044963 -0.0050992 0.0094513
-0.010754 -0.0022171 -0.41899 -0.055536 0.0076558 -0.010739 0.0016529 0.012667
0.0070743 0.0022201 0.0015131 0.013962
-0.0086956 0.013362 0.0075929 -0.010629 -0.26744 0.20718 0.0068503 0.0038451
-0.0027124 0.0084342 0.00045824 0.012212
-0.0051203 0.01249 0.0019514 0.01299 0.0068489 0.0038104 -0.33407 0.034068
-0.021517 -0.0052885 0.017644 0.026339
0.01258 0.0045025 0.0067703 0.0024305 -0.0025888 0.0083038 -0.021771 -0.0052111
-0.21566 -0.21388 -0.028717 0.00573
-0.0049327 0.0087049 0.0015477 0.014554 0.00068704 0.012314 0.017967 0.026092
-0.028312 0.0054575 -0.26176 -0.13857
560000000 -0.31827 0.12021 -0.023438 -0.064114 1.1987e-05 0.0122 0.0051732 0.01131
0.010021 0.0047409 0.010312 0.0083656
-0.023347 -0.064038 -0.37763 0.105 -0.041841 -0.03691 0.013633 0.0046097
-0.01353 -0.0049347 0.0040628 0.00010893
-0.00019631 0.012623 -0.041909 -0.037003 -0.18448 0.25748 -2.104e-05 -0.0042135
0.019745 0.0065224 0.0068157 -0.0057566
0.0057192 0.010983 0.01352 0.0043256 -0.00010578 -0.0040765 -0.31232 0.12931
0.0032982 -0.023284 0.0041195 -0.02212
0.010605 0.0047681 -0.01362 -0.005105 0.020048 0.0062067 0.0035256 -0.023165
-0.28871 -0.034573 0.0078957 -0.049438
0.010577 0.0084537 0.003431 0.00026963 0.0069821 -0.0061589 0.003604 -0.022376
0.0082336 -0.049834 -0.32813 0.012511
620000000 -0.27654 0.10243 -0.023096 0.0086698 0.0037517 0.0088571 0.0083482 -0.0046375
0.011345 -0.00033554 0.0012592 -0.0022225
-0.023031 0.008716 -0.4035 0.056752 -0.018351 0.00060332 -0.0011476 -0.0017501
0.011977 -0.0056883 0.0013124 -0.0029946
0.0037664 0.0088562 -0.018255 0.00059233 -0.15441 0.26648 -0.00049662 -0.0054869
-0.0025906 -0.0023852 0.0091617 -0.0038303
0.007885 -0.0049006 -0.001224 -0.0020128 -0.00049104 -0.0054017 -0.27074 0.14009
-0.040527 -0.019097 0.012809 0.026712
0.011664 0.0002562 0.011817 -0.0055353 -0.0027907 -0.0023096 -0.040208 -0.01863
-0.20446 -0.073857 -0.044198 0.016469
0.0008259 -0.0028212 0.0012306 -0.0033749 0.0091338 -0.0036979 0.013007 0.026607
-0.044386 0.016185 -0.2486 -0.026345
680000000 -0.23669 0.19018 -0.026807 -0.013606 0.0051254 0.0051575 0.0019523 -0.0070674
-0.0025255 -0.01135 0.0051782 -0.007258
-0.026688 -0.013789 -0.38907 0.15616 -0.032369 -0.0014885 -0.0013191 -0.00049399
-0.0016644 -0.0092957 -0.0011635 -0.0020922
0.0052208 0.0051469 -0.032434 -0.001349 -0.10228 0.28608 -0.00086926 -0.00082757
-0.001355 0.00018172 -0.0028487 -0.0095001
0.0020178 -0.0070869 -0.0013132 -0.00057505 -0.00060317 -0.00074858 -0.22391 0.19311
-0.024139 -0.0060169 -0.010326 -0.012078
-0.0027122 -0.011193 -0.0016307 -0.0091318 -0.0014774 0.00010334 -0.024269 -0.0060267
-0.26354 0.027347 -0.0057086 -0.0066291
0.0053037 -0.0077006 -0.0010281 -0.0019815 -0.0029845 -0.0092609 -0.010273 -0.012347
-0.0059073 -0.0065996 -0.26045 0.081004
740000000 -0.19265 0.18532 -0.039224 0.027428 0.01322 -0.0052886 7.2224e-07 -0.0046226
-0.0042852 -0.002602 -0.0063384 0.0025592
-0.039372 0.027488 -0.33457 0.17488 -0.035208 0.035157 -0.00047964 -0.006523
-0.011549 0.0069156 -0.0022459 -0.0068161
0.013179 -0.0053508 -0.035175 0.035203 -0.068355 0.28372 -0.0022523 0.0029633
-0.0023836 -0.0050627 -0.0014334 0.00025983
-0.00024204 -0.0046151 -0.00036854 -0.0065892 -0.0022083 0.0030727 -0.20714 0.20168
-0.044417 -0.0061162 0.024481 0.015929
-0.0039403 -0.0021494 -0.011775 0.0065183 -0.0024373 -0.0050984 -0.044563 -0.0062596
-0.15921 0.055303 -0.04426 0.0011078
-0.0062651 0.0023247 -0.0020863 -0.0064404 -0.0016519 0.00033367 0.024599 0.016044
-0.04419 0.0010902 -0.24941 0.085651
800000000 -0.15891 0.22671 -0.021713 0.016862 0.0054534 -0.010463 -0.004627 -0.0021619
-0.0039485 0.0019439 0.0042416 0.0002968
-0.021722 0.016796 -0.33867 0.24497 -0.0077947 0.033748 -0.0024571 0.0020395
-0.0010429 0.002596 0.00081567 0.0052201
0.0054913 -0.010495 -0.0076819 0.033838 -0.027955 0.30641 0.00054407 0.0016571
1.4041e-05 0.0034568 -0.0018019 0.00080606
-0.0044577 -0.0022851 -0.0024271 0.002125 0.00057417 0.0017018 -0.17765 0.23077
-0.028208 0.014627 0.014419 -0.010464
-0.0039584 0.0020047 -0.00089312 0.0026897 5.7489e-05 0.0034751 -0.0282 0.014727
-0.20981 0.080311 -0.017049 0.019403
0.0045773 0.00027338 0.00096122 0.0053265 -0.0018563 0.00084625 0.014385 -0.010413
-0.01695 0.019363 -0.2453 0.1362
860000000 -0.12423 0.24628 -0.017161 0.030433 -0.0031647 -0.0098759 -0.0018276 0.00058377
0.0036527 0.005324 -0.003518 -0.003347
-0.017259 0.030427 -0.29072 0.28632 0.0076499 0.033936 -0.00015551 0.0021032
0.0038403 0.00053311 0.0033708 0.00079184
-0.0031883 -0.0098875 0.0077502 0.033978 0.019408 0.31409 -0.00062187 6.7009e-06
0.0027391 -0.0015742 0.0016257 0.0041742
-0.0019106 0.00061149 -0.00017972 0.0021488 -0.00066612 1.8725e-05 -0.1397 0.24091
-0.017245 0.018302 -0.0060297 -0.0086987
0.0035969 0.0051996 0.0040145 0.00031218 0.0028827 -0.0016535 -0.016961 0.018228
-0.15665 0.13384 -0.026403 0.015647
-0.0035444 -0.003064 0.0034365 0.00088519 0.0016127 0.0042151 -0.0061196 -0.0086893
-0.026258 0.015794 -0.19447 0.18305
920000000 -0.099843 0.26863 0.0051635 0.037466 -0.0092766 -0.0046803 -0.0017915 0.001438
0.00074442 0.0020098 0.0027016 -0.0015872
0.0051346 0.037472 -0.26257 0.30763 0.027796 0.021966 0.0014024 0.0011527
0.0072084 0.00029319 0.003976 -0.0028235
-0.0092736 -0.004675 0.027896 0.021869 0.06514 0.31503 0.0020264 9.228e-05
0.0011799 -0.00023526 0.00075375 -0.0012777
-0.0017415 0.0015014 0.001374 0.0011732 0.0020197 9.9553e-05 -0.11578 0.25768
-0.010688 0.031052 0.004421 -0.0067331
0.00069921 0.0019986 0.0072077 0.00027902 0.0012234 -0.00021226 -0.010687 0.031056
-0.14789 0.13971 -0.002285 0.027319
0.0028756 -0.0013943 0.0039381 -0.0027344 0.00075293 -0.0012147 0.0043717 -0.0067396
-0.0023677 0.02722 -0.20424 0.19723
980000000 -0.052672 0.28824 0.017185 0.02967 -0.0092004 0.0043149 0.0017567 0.0032041
0.0038515 -0.0012699 -0.0030865 -0.0023928
0.017194 0.029685 -0.21006 0.34182 0.032864 0.0050124 0.0022109 5.4445e-05
0.001955 -0.0057892 -6.4953e-05 -0.0024447
-0.0091762 0.0043527 0.03287 0.0049021 0.11128 0.30868 0.00067618 -0.0012559
0.00047981 -0.0020974 0.0013305 -0.00016924
0.0018382 0.003241 0.0021477 3.286e-05 0.0006764 -0.0012484 -0.077189 0.26817
0.0085552 0.030863 -0.0092479 -0.0076455
0.0037796 -0.0013206 0.0018777 -0.0057152 0.00046146 -0.0020629 0.0086034 0.03088
-0.11792 0.16899 0.0049672 0.019429
-0.0031201 -0.0022244 -8.8212e-05 -0.002454 0.0013702 -0.00018701 -0.0093238 -0.0076523
0.0049798 0.019432 -0.16246 0.24297
1040000000 -0.011342 0.29683 0.032807 0.018086 -0.0015417 0.0068185 0.0022735 0.00078474
0.00010947 -0.0034941 -0.00019187 -0.0013472
0.032753 0.018105 -0.17483 0.35486 0.02933 -0.014588 0.0015924 -0.0017397
-0.0020516 -0.0028214 -0.0014192 -0.0027604
-0.0015366 0.0068029 0.029293 -0.014703 0.15711 0.29535 -0.00046533 -0.001711
-0.0015376 -0.00098007 -0.00056929 -0.0010046
0.0022817 0.00079954 0.0015507 -0.0017313 -0.00045647 -0.0017265 -0.050428 0.27814
0.020198 0.018627 -0.0020272 0.00070344
1.0906e-05 -0.0034429 -0.0021026 -0.0027979 -0.0015227 -0.00098006 0.020205 0.01865
-0.085895 0.17643 0.013305 0.019149
-0.00023753 -0.0013448 -0.0014291 -0.002729 -0.00056592 -0.00098474 -0.0020492 0.00066635
0.013295 0.019143 -0.14148 0.26386
1100000000 0.033758 0.30491 0.035482 -0.0040879 0.0026095 0.0039275 0.0021639 -0.00099442
-0.0018335 -0.0031663 -0.0040939 -0.00014168
0.03545 -0.0040837 -0.13161 0.37219 0.015257 -0.027703 3.2153e-05 -0.0018147
-0.003447 -0.0011103 -0.0036818 -0.00060945
0.0026105 0.0038995 0.015173 -0.027799 0.20352 0.27534 -0.0020062 5.8922e-05
-0.0019447 0.00033353 -0.0011942 -0.00022372
0.00221 -0.0010235 4.8631e-05 -0.0017876 -0.0020105 7.3072e-05 -0.010179 0.28317
0.025767 0.0053286 -0.0029024 -0.00055179
-0.0018268 -0.0032043 -0.0034232 -0.0011338 -0.0019216 0.00035878 0.025753 0.0053495
-0.069392 0.19045 0.019189 0.0088769
-0.0040268 -6.804e-05 -0.0036701 -0.00063622 -0.0012109 -0.00019173 -0.0029489 -0.00049462
0.019192 0.0088768 -0.096028 0.29584
1160000000 0.084888 0.30022 0.023669 -0.020693 0.0025023 -0.00034966 -0.00024926 -0.0020879
-0.0041381 -0.00091941 -0.0010309 0.0041387
0.023645 -0.020641 -0.088411 0.37663 -0.0035738 -0.029164 -0.0015951 -0.0018212
-0.0030539 0.0023691 -0.0014986 0.0018877
0.0024939 -0.00036445 -0.0036893 -0.029164 0.24654 0.24471 -0.00094517 0.0018242
-0.00069582 0.0020858 -0.00083239 0.00020896
-0.00025201 -0.0020716 -0.0015897 -0.0018188 -0.00094577 0.0018372 0.028919 0.28033
0.022461 -0.011063 -0.0038259 0.0050805
-0.0041564 -0.00086522 -0.0030473 0.0023882 -0.00069944 0.0021047 0.02245 -0.011078
-0.035868 0.19969 0.018272 0.00087156
-0.0009737 0.004077 -0.0015122 0.0019467 -0.0008337 0.0002185 -0.0037998 0.0050942
0.018257 0.00092106 -0.049353 0.29845
1220000000 0.12914 0.28969 0.010351 -0.029846 -0.0016689 -0.00062109 0.00026028 -0.00072552
-0.0026772 0.0022905 0.0012105 0.0020581
0.010351 -0.029807 -0.044126 0.3892 -0.016809 -0.021302 -0.0026061 0.00032301
-0.00015861 0.0032254 -0.00092382 0.0019009
-0.001664 -0.00061439 -0.016924 -0.021268 0.28578 0.2059 0.00069886 0.0019301
0.00069227 0.0014574 0.00047491 0.00061284
0.00024476 -0.00074508 -0.0026229 0.00035434 0.00071943 0.0019202 0.068635 0.27219
0.011525 -0.018152 0.0014117 0.0013837
-0.0027123 0.0022813 -0.00014801 0.0032363 0.00067154 0.0014538 0.011495 -0.018152
-0.01468 0.20952 0.014453 -0.012845
0.0011761 0.0020515 -0.00094047 0.0018998 0.00049551 0.00060184 0.0013805 0.001371
0.014469 -0.012807 -0.018701 0.31644
1280000000 0.17897 0.26813 -0.007908 -0.028208 -0.0018052 0.0027073 -0.000757 -0.0020868
-0.00096573 0.0030378 0.0024228 0.0013856
-0.0079004 -0.028185 0.0016748 0.38075 -0.02381 -0.008685 -0.0011566 0.0014227
0.0018159 0.0021134 0.00063577 0.0021259
-0.0017846 0.0027166 -0.023898 -0.0086164 0.31629 0.16215 0.001764 0.00018336
0.0012795 0.00031721 0.00043608 0.00022028
-0.00077184 -0.0020978 -0.0011477 0.0014541 0.0017824 0.00018765 0.10552 0.25564
0.001602 -0.020701 -0.0007243 0.00063873
-0.00093282 0.0030336 0.0017977 0.0021275 0.0013034 0.00033848 0.0015511 -0.020701
0.021262 0.21429 0.0031689 -0.015121
0.002433 0.0013291 0.00067903 0.0021411 0.00044505 0.00022878 -0.00073565 0.00059787
0.0031797 -0.01513 0.02948 0.31936
1340000000 0.21607 0.23493 -0.017574 -0.018696 0.0010683 0.0046936 -0.001668 -0.0010139
0.0014489 0.0027287 0.001967 -0.0013156
-0.017525 -0.01868 0.041329 0.37307 -0.021789 0.0041627 -0.00025723 0.0021454
0.0022036 0.0009125 0.0013575 0.00085914
0.0010834 0.0046784 -0.021798 0.0042811 0.33849 0.11428 0.0014354 -0.0010016
0.00092136 -0.00064256 2.86e-05 0.00026899
-0.001662 -0.00099086 -0.0002725 0.0021281 0.0014363 -0.00099495 0.13772 0.23528
-0.0088846 -0.018212 0.00064501 0.0011368
0.0014341 0.0027178 0.0021875 0.00086559 0.00093246 -0.00066029 -0.0089115 -0.018188
0.049631 0.21081 -0.0034678 -0.014004
0.0019564 -0.0012888 0.0013133 0.00082716 5.9969e-06 0.00024524 0.00066482 0.0011064
-0.0034601 -0.013989 0.067668 0.3161
1400000000 0.24945 0.19719 -0.023149 -0.0072152 0.0054136 0.0031225 -0.0021986 0.00047606
0.0023662 0.0010702 0.00045471 -0.0014491
-0.023136 -0.0072338 0.078971 0.36034 -0.015063 0.012514 0.0014289 0.0014837
0.0013831 -0.00086842 0.0013225 0.00019759
0.0054265 0.0031086 -0.015004 0.01261 0.3516 0.060858 0.0002158 -0.0019506
1.8433e-05 -0.000494 0.00034115 0.00018522
-0.0021914 0.00048851 0.0014407 0.0015026 0.00022527 -0.0019421 0.16671 0.20633
-0.015418 -0.011321 -0.00088145 0.00012828
0.00239 0.0010832 0.001369 -0.00088708 1.3085e-05 -0.00048597 -0.015435 -0.011275
0.082273 0.20826 -0.0099662 -0.0090554
0.00045218 -0.0014687 0.0013242 0.0001504 0.00033199 0.00017798 -0.00086491 0.00014642
-0.0099376 -0.0090543 0.11283 0.30602
1460000000 0.2725 0.15331 -0.020144 0.0048555 0.005821 -0.0018831 -0.0016742 0.0017833
0.002198 -0.00027929 -0.00030235 -0.0011881
-0.020111 0.0048688 0.11356 0.33861 -0.0062221 0.015536 0.0019161 0.00027201
0.00093986 -0.0014753 0.0012271 -0.00067418
0.005837 -0.0019052 -0.0061473 0.015588 0.35766 0.0066188 -0.0014073 -0.0015397
8.8579e-05 -0.00033697 0.00052028 -0.00031983
-0.0016877 0.0017794 0.0019364 0.00025679 -0.0014284 -0.0015478 0.19216 0.1773
-0.017361 -0.0040721 -0.00058365 0.0026199
0.0021892 -0.00031983 0.00093081 -0.0014603 9.6116e-05 -0.00032726 -0.017378 -0.004048
0.11055 0.1952 -0.011789 -0.002776
-0.00036399 -0.0011937 0.0012261 -0.00064897 0.00049306 -0.00035168 -0.00056703 0.0026365
-0.011768 -0.002789 0.1463 0.28566
1520000000 0.28515 0.11167 -0.014443 0.010249 0.0034878 -0.0043414 4.1459e-05 0.0027134
0.0023136 -0.0016335 -0.0011602 -0.00026567
-0.014431 0.010236 0.14743 0.32397 0.0016086 0.013321 0.0018691 -0.00084821
-1.9365e-05 -0.0011623 0.00038622 -0.0010009
0.0034894 -0.0043368 0.0016861 0.013323 0.35118 -0.049281 -0.0013914 -0.00039167
0.00067941 -0.00076227 8.7438e-05 -0.00015066
4.133e-05 0.0027243 0.0018549 -0.00085394 -0.0014052 -0.00038287 0.21445 0.14036
-0.016954 0.0027164 0.001876 0.0023225
0.0023282 -0.0016678 -2.3449e-05 -0.0011567 0.00067692 -0.00077136 -0.016948 0.0027453
0.1385 0.18308 -0.011947 0.0014885
-0.0011802 -0.0002542 0.00037228 -0.0010045 7.6857e-05 -0.00014312 0.0018709 0.0022964
-0.011937 0.00148 0.18006 0.26661
1580000000 0.29471 0.065199 -0.0078303 0.013255 -0.00090514 -0.0051337 0.0015299 0.002076
-6.0617e-07 -0.0022356 -0.00040581 0.00041924
-0.0078372 0.013263 0.17504 0.29897 0.0053517 0.0084115 0.00049326 -0.0017982
-0.00062921 -0.0010795 -0.00025466 -0.00083841
-0.00093275 -0.0051428 0.0053948 0.0083943 0.33113 -0.10697 -0.0018331 0.00094766
-0.00032519 -0.0011701 9.3105e-05 -0.00048204
0.0015358 0.0020729 0.0004702 -0.0018154 -0.0018374 0.00093542 0.22769 0.10249
-0.013212 0.0085602 0.0027732 0.00083011
-3.6406e-05 -0.0022482 -0.00063786 -0.001076 -0.00033011 -0.0011811 -0.013174 0.0085657
0.1632 0.16681 -0.0093409 0.0075051
-0.00040391 0.00050142 -0.00023735 -0.00086834 0.00011228 -0.00051711 0.0027729 0.00084573
-0.0093551 0.007509 0.21329 0.24032
1640000000 0.29687 0.023749 -0.0012006 0.012108 -0.0027979 -0.0027286 0.0028882 0.0010098
-0.00047756 -0.0018022 -0.00033451 0.00061706
-0.0012136 0.012101 0.20472 0.27395 0.006182 0.0034854 -0.00076978 -0.0019379
-0.0010533 -0.00038567 -0.00046553 -0.00078274
-0.0028297 -0.0026916 0.0062007 0.0034605 0.3033 -0.15639 -0.00052661 0.0017504
-0.0010893 -0.0011718 -8.0312e-05 -0.00043965
0.002907 0.0010092 -0.00079275 -0.0019309 -0.00054012 0.0017626 0.23994 0.055738
-0.0083552 0.010454 0.0029891 -0.00096583
-0.00049428 -0.0017625 -0.0010615 -0.00038163 -0.0010765 -0.0011702 -0.0083369 0.010486
0.18614 0.14382 -0.0046285 0.0096211
-0.00032241 0.00063265 -0.00046521 -0.00078178 -6.9607e-05 -0.00044283 0.0029846 -0.001002
-0.0046569 0.0096179 0.23916 0.21004
1700000000 0.28963 -0.021804 0.0021133 0.0092077 -0.0036415 4.5606e-05 0.0031473 -0.0014254
-0.0021262 -0.00096784 0.00069536 0.00047629
0.0020963 0.0092153 0.22308 0.24211 0.0041005 0.00054102 -0.0016593 -0.00063427
-0.00078031 0.00010463 -0.00096427 -0.00050792
-0.0036635 6.7345e-05 0.0041235 0.00053781 0.25967 -0.19628 0.00077824 0.0016301
-0.0021045 -0.00029645 -0.000436 -0.0008542
0.0031397 -0.0014661 -0.0016613 -0.00063318 0.00076903 0.0016117 0.23789 0.0081263
-0.0047075 0.011546 0.0017246 -0.0025436
-0.0021481 -0.00095349 -0.00079275 0.00010692 -0.0020815 -0.00026956 -0.0047067 0.011563
0.20409 0.12487 0.00012592 0.0099809
0.00070963 0.00047407 -0.00097244 -0.00051248 -0.00039863 -0.00082151 0.0017249 -0.0025562
0.0001402 0.0099868 0.2567 0.17561
1760000000 0.27722 -0.070432 0.0042718 0.0059217 -0.0024918 0.0010133 0.0011861 -0.0036388
-0.0015383 0.00058862 0.00043492 -0.00062182
0.0042712 0.0059207 0.24893 0.20196 0.0016852 -0.0013669 -0.001336 0.00026275
-0.00098228 0.00094827 -0.00066248 0.00036659
-0.0024784 0.0010599 0.0016887 -0.0013691 0.21043 -0.2297 0.0013233 0.00086326
-0.0013321 0.0014379 -0.0013926 -0.00058083
0.0011394 -0.0036356 -0.0013525 0.00028291 0.0013033 0.00083632 0.23087 -0.041456
-0.00038986 0.010564 -0.0001484 -0.0029291
-0.0015691 0.00058937 -0.00095541 0.00095423 -0.001322 0.0014855 -0.00037299 0.010565
0.21947 0.090847 0.0043885 0.0073359
0.00038389 -0.00062735 -0.00067151 0.00037484 -0.0013453 -0.00059208 -0.0001816 -0.0029375
0.0043939 0.0073274 0.26976 0.13837
1820000000 0.25246 -0.10769 0.004349 0.0023605 -0.00011656 0.0025079 -0.0012178 -0.0031438
-0.0013664 0.00097878 -4.4879e-06 -6.2478e-05
0.0043596 0.0023577 0.25891 0.17164 -0.00043699 -0.00028854 -0.0013217 0.0010958
4.4291e-05 0.0012463 -0.0006262 0.00061843
-0.00011305 0.002496 -0.0004356 -0.00029818 0.16027 -0.24551 0.0013762 0.00011496
-0.00017331 0.0024652 -0.0013757 0.00034094
-0.0012857 -0.0031703 -0.0013171 0.0010872 0.0014099 9.1833e-05 0.2038 -0.088096
0.0018711 0.0085393 -0.0017617 -0.0018734
-0.0013739 0.00095102 4.6317e-05 0.0012492 -0.00017635 0.0024574 0.0018815 0.008553
0.23751 0.062973 0.0053153 0.0036074
-8.6339e-05 -8.4022e-05 -0.00062072 0.0006122 -0.0013832 0.00033842 -0.0017855 -0.001876
0.0053396 0.0035777 0.27294 0.10269
1880000000 0.21723 -0.14791 0.0020515 0.00020593 -0.00047416 0.0021756 -0.0030823 -0.0021404
-0.00027373 0.0019938 0.00018435 -0.00056597
0.0020323 0.00020391 0.26298 0.12477 -0.0025277 0.0015974 -5.3424e-05 0.0016983
0.00050973 0.0011 9.7317e-05 0.0010465
-0.00047284 0.0022022 -0.0025218 0.0016006 0.10806 -0.25458 0.0015206 -0.00072718
0.0016042 0.0020375 -0.001064 0.0013999
-0.0031099 -0.0021022 -5.5499e-05 0.0016976 0.0015194 -0.00073787 0.16616 -0.12933
0.003138 0.0058239 -0.0026721 0.00021026
-0.0002381 0.0019575 0.00053602 0.0010866 0.0015847 0.0020441 0.0031518 0.0058156
0.24127 0.031199 0.0055676 0.0013391
0.0001282 -0.00054241 0.0001083 0.0010183 -0.0010145 0.0014175 -0.0026656 0.00019764
0.0055859 0.0013295 0.27334 0.068269
1940000000 0.17785 -0.17349 -0.0002499 -0.0013203 0.0013666 0.0020792 -0.0036818 0.00071337
0.001493 0.0012561 -0.0007319 -0.0005055
-0.00025428 -0.001339 0.26318 0.092964 -0.0012335 0.0038927 0.0010308 0.0012467
0.0017004 0.00051075 0.00091602 0.00038049
0.0013233 0.0020993 -0.0012252 0.003908 0.062314 -0.24783 0.00029229 -0.0018201
0.002428 0.00047074 0.00049138 0.0016953
-0.0036895 0.00075034 0.0010583 0.0012537 0.00031365 -0.001851 0.11538 -0.16211
0.0024445 0.0034625 -0.0018431 0.0014872
0.0015166 0.0012222 0.001706 0.00051679 0.0024607 0.0004787 0.002476 0.003475
0.24461 -0.0070501 0.0041779 -0.0023463
-0.00073599 -0.00052162 0.00089592 0.00037923 0.0005246 0.0016603 -0.0018175 0.0015377
0.0041566 -0.0023573 0.26275 0.032776
2000000000 0.13146 -0.18803 -0.0040756 0.00091961 0.0025669 0.0018167 -0.00233 0.0034943
0.0012334 0.00014065 -0.0005614 0.00048469
-0.0041014 0.00088739 0.2486 0.05762 -0.0010976 0.0057877 0.0015238 0.00037651
0.0012148 -0.0011899 0.00053755 0.00016114
0.0026283 0.0017737 -0.0010407 0.0058032 0.019106 -0.23344 -0.001081 -0.0013376
0.0020572 -0.0012035 0.001691 0.0013925
-0.0023268 0.0035432 0.0015195 0.00039409 -0.0010784 -0.001358 0.06195 -0.17447
0.00053006 0.002461 -0.00016043 0.0021432
0.0012129 0.00012229 0.0011955 -0.0011746 0.0020675 -0.0012038 0.00056446 0.0024585
0.23995 -0.041037 0.00089627 -0.0033557
