!Keysight Technologies,M9804A,MY58100912,A.14.10.03
!Date: Thursday, April 27, 2023 10:28:33
!Correction: S11(C  6-Port  ) 
!S12(C  6-Port  ) 
!S13(C  6-Port  ) 
!S14(C  6-Port  ) 
!S15(C  6-Port  ) 
!S16(C  6-Port  ) 
!S21(C  6-Port  ) 
!S22(C  6-Port  ) 
!S23(C  6-Port  ) 
!S24(C  6-Port  ) 
!S25(C  6-Port  ) 
!S26(C  6-Port  ) 
!S31(C  6-Port  ) 
!S32(C  6-Port  ) 
!S33(C  6-Port  ) 
!S34(C  6-Port  ) 
!S35(C  6-Port  ) 
!S36(C  6-Port  ) 
!S41(C  6-Port  ) 
!S42(C  6-Port  ) 
!S43(C  6-Port  ) 
!S44(C  6-Port  ) 
!S45(C  6-Port  ) 
!S46(C  6-Port  ) 
!S51(C  6-Port  ) 
!S52(C  6-Port  ) 
!S53(C  6-Port  ) 
!S54(C  6-Port  ) 
!S55(C  6-Port  ) 
!S56(C  6-Port  ) 
!S61(C  6-Port  ) 
!S62(C  6-Port  ) 
!S63(C  6-Port  ) 
!S64(C  6-Port  ) 
!S65(C  6-Port  ) 
!S66(C  6-Port  ) 
!S6P File: Measurement: :
# Hz S  RI   R 50
500000000 -0.33707 -0.044893 -0.010237 -0.0023 -0.0084241 0.013309 -0.0054148 0.012489
0.012458 0.0042124 -0.0054414 0.0083419
-0.010478 -0.0022953 -0.41911 -0.055568 0.0076284 -0.010557 0.0015511 0.012833
0.006824 0.0024072 0.0012834 0.013905
-0.0087627 0.013483 0.0075632 -0.010543 -0.26746 0.20742 0.0068847 0.0039954
-0.0030128 0.0083621 0.00054759 0.012517
-0.0050587 0.012662 0.0018287 0.012904 0.0069146 0.004012 -0.33429 0.034765
-0.021809 -0.0053036 0.017223 0.026698
0.012725 0.0041286 0.006997 0.0023223 -0.0029926 0.0083696 -0.021816 -0.0052773
-0.21482 -0.21316 -0.028417 0.0057708
-0.0049496 0.0090036 0.0015725 0.014195 0.0005845 0.012568 0.017241 0.026688
-0.028422 0.0057632 -0.26227 -0.13761
560000000 -0.31841 0.12034 -0.023678 -0.064226 3.0967e-05 0.01207 0.005342 0.011317
0.01007 0.0044385 0.010782 0.0083818
-0.023876 -0.063971 -0.37768 0.10435 -0.042051 -0.03696 0.01381 0.0038592
-0.014137 -0.0046893 0.0033042 -0.00019791
0.00024329 0.012189 -0.041988 -0.036744 -0.18455 0.25734 0.00021351 -0.0040009
0.019375 0.0060767 0.0075401 -0.0064686
0.0052175 0.011291 0.013792 0.0036053 0.00020675 -0.0039903 -0.31239 0.12903
0.0035402 -0.023395 0.0044088 -0.022153
0.010109 0.0043593 -0.014078 -0.0047822 0.019402 0.0060496 0.0035202 -0.023405
-0.28857 -0.034616 0.0084643 -0.050166
0.011069 0.0085635 0.0033104 -0.00013072 0.0076259 -0.0064307 0.004414 -0.022131
0.0084919 -0.050182 -0.32675 0.012682
620000000 -0.27647 0.10254 -0.023035 0.0087245 0.0036717 0.0090076 0.0079518 -0.004621
0.011827 0.00016357 0.00039844 -0.0023686
-0.023152 0.008811 -0.40366 0.056847 -0.018276 0.00067065 -0.0011896 -0.001847
0.011906 -0.005587 0.0013039 -0.0031399
0.0036884 0.0089427 -0.018311 0.00068769 -0.15445 0.26654 -0.00059943 -0.0054948
-0.0025889 -0.002295 0.0089617 -0.0036961
0.0082415 -0.0046331 -0.0012263 -0.0018143 -0.00060592 -0.005504 -0.27091 0.13995
-0.040184 -0.019043 0.012732 0.02649
0.011522 9.6362e-05 0.011888 -0.0056678 -0.0025682 -0.0022669 -0.04021 -0.019016
-0.20507 -0.074045 -0.044129 0.016065
0.00088163 -0.0021101 0.0011802 -0.0029924 0.0089343 -0.0037151 0.012785 0.026458
-0.044147 0.016046 -0.24808 -0.02692
680000000 -0.23686 0.19076 -0.026818 -0.013719 0.0052862 0.0051358 0.0020257 -0.0068849
-0.0024938 -0.011208 0.0051227 -0.007039
-0.026731 -0.013662 -0.38896 0.15624 -0.032187 -0.0013814 -0.0012507 -0.00053825
-0.0016646 -0.0092439 -0.0012986 -0.0019275
0.0053254 0.0049837 -0.032198 -0.0013504 -0.10216 0.28617 -0.0007715 -0.00078613
-0.0015268 0.00018449 -0.0026938 -0.0093731
0.0017641 -0.0071675 -0.0012118 -0.000558 -0.00076684 -0.00077856 -0.22368 0.19337
-0.024417 -0.0059913 -0.010257 -0.012399
-0.0029001 -0.011042 -0.0016941 -0.0092252 -0.0015119 0.00017824 -0.024431 -0.0059794
-0.26323 0.027634 -0.006027 -0.0067222
0.0052762 -0.0073134 -0.0011546 -0.0018347 -0.0026897 -0.0093486 -0.010266 -0.012389
-0.0060168 -0.0067346 -0.26016 0.081655
740000000 -0.19262 0.1853 -0.039412 0.02735 0.013281 -0.0052601 -0.00010073 -0.0046458
-0.0040884 -0.0025001 -0.0062028 0.0022147
-0.039198 0.027214 -0.33463 0.17497 -0.03509 0.035034 -0.00070176 -0.0065921
-0.011502 0.0066402 -0.0021706 -0.0067162
0.013272 -0.0053922 -0.035092 0.035115 -0.06825 0.28387 -0.0021561 0.0029686
-0.0022488 -0.0050822 -0.0014795 0.00010071
-7.0181e-05 -0.004634 -0.00069325 -0.0065082 -0.0021401 0.0029649 -0.20726 0.20154
-0.044589 -0.0064156 0.024293 0.016165
-0.0040723 -0.0024414 -0.011817 0.0068869 -0.0022519 -0.0050644 -0.044613 -0.0063546
-0.1596 0.05497 -0.043956 0.00048701
-0.006126 0.0021571 -0.0021067 -0.0066446 -0.0014754 0.0001141 0.024308 0.016143
-0.043962 0.00047109 -0.24977 0.086083
800000000 -0.15894 0.22685 -0.021816 0.016772 0.0054332 -0.010482 -0.0046093 -0.0021156
-0.0041251 0.0019122 0.0041585 0.00037648
-0.021803 0.016823 -0.33861 0.24498 -0.0078201 0.033778 -0.002496 0.0021377
-0.0011145 0.0026104 0.0007582 0.0052162
0.005385 -0.010488 -0.007725 0.033806 -0.027897 0.30647 0.00054421 0.0016405
4.0094e-06 0.0034524 -0.001803 0.00082273
-0.0046009 -0.0022105 -0.0024561 0.0020409 0.00054575 0.0016533 -0.17769 0.23062
-0.028343 0.014699 0.014465 -0.010648
-0.0040611 0.0020278 -0.0010164 0.0026887 3.7202e-05 0.0034569 -0.028331 0.014745
-0.20956 0.08086 -0.016901 0.019281
0.0042706 0.0002591 0.00092173 0.0051485 -0.0017816 0.00081365 0.014484 -0.010681
-0.016919 0.019262 -0.24517 0.13626
860000000 -0.12416 0.24633 -0.017131 0.030384 -0.0031498 -0.0098872 -0.0018898 0.0006166
0.003609 0.0051115 -0.0034898 -0.00318
-0.017162 0.030304 -0.29072 0.28643 0.0076345 0.033953 -0.00011842 0.0021275
0.003706 0.00042853 0.003495 0.00072019
-0.0031664 -0.0099095 0.0077666 0.033972 0.01943 0.3141 -0.00068361 4.9088e-05
0.0028246 -0.0015236 0.0016739 0.0041196
-0.0018585 0.00051603 -0.00014573 0.0021471 -0.00068349 4.8434e-05 -0.1398 0.24085
-0.01717 0.018489 -0.0061427 -0.0088973
0.0036239 0.0052639 0.0037921 0.00048462 0.0028169 -0.0015256 -0.017147 0.018509
-0.15662 0.13395 -0.026332 0.01582
-0.0035083 -0.0031002 0.0034192 0.00075296 0.0016817 0.0041077 -0.0061449 -0.0088782
-0.026345 0.015798 -0.19438 0.18248
920000000 -0.099728 0.26874 0.0052 0.0375 -0.009221 -0.0047077 -0.0017696 0.0014631
0.00076035 0.0019243 0.0029002 -0.0015223
0.0051811 0.037514 -0.2625 0.30778 0.027759 0.021964 0.0014484 0.0011008
0.0071739 0.00021216 0.0039575 -0.0029097
-0.0092952 -0.0046695 0.027866 0.021927 0.065222 0.31501 0.002058 0.00011298
0.0011694 -0.0002664 0.00076584 -0.0012586
-0.0018262 0.0014769 0.0014819 0.0011124 0.0020639 0.00011264 -0.11601 0.25767
-0.010755 0.0311 0.0042511 -0.0066964
0.00076176 0.0019479 0.0071773 0.0002227 0.0011742 -0.00027261 -0.01071 0.031138
-0.14813 0.13973 -0.0022706 0.027239
0.0027223 -0.0015468 0.0040222 -0.0028882 0.00077701 -0.0012573 0.004249 -0.006708
-0.0023009 0.027239 -0.2044 0.1972
980000000 -0.052611 0.28822 0.017214 0.029706 -0.0091876 0.0043532 0.0018359 0.0032894
0.0038582 -0.0012343 -0.0031421 -0.0022314
0.017162 0.029666 -0.20993 0.34187 0.032826 0.0049993 0.0021908 4.548e-05
0.0018498 -0.0058001 -9.5971e-05 -0.0024597
-0.0091905 0.0043626 0.032884 0.0049098 0.11133 0.30869 0.00064064 -0.0012374
0.00047513 -0.0021031 0.0012754 -0.00013827
0.0018478 0.0032179 0.0021881 3.7192e-05 0.00064004 -0.0012322 -0.077168 0.26826
0.008522 0.030979 -0.0093156 -0.0075683
0.0037491 -0.0012006 0.001784 -0.0058458 0.00047187 -0.0021005 0.0085779 0.030954
-0.1179 0.1689 0.0050937 0.019545
-0.0030168 -0.0022728 -0.00012659 -0.0025051 0.0012805 -0.00015303 -0.0093292 -0.0075689
0.005076 0.019541 -0.16225 0.24269
1040000000 -0.011267 0.29678 0.032785 0.018123 -0.0015342 0.0068272 0.0022933 0.0008246
4.6888e-05 -0.0033877 -0.00017545 -0.0013173
0.032716 0.018146 -0.17471 0.35492 0.029309 -0.01456 0.0016486 -0.0017447
-0.0019882 -0.0028052 -0.0013201 -0.0027313
-0.0015424 0.0068147 0.029305 -0.014695 0.15717 0.29537 -0.0004292 -0.0017251
-0.0014402 -0.00095479 -0.00058378 -0.0010085
0.0022809 0.00082632 0.0016215 -0.0017507 -0.00042395 -0.0017199 -0.050361 0.27821
0.020143 0.018612 -0.001996 0.00083227
7.3201e-05 -0.0033369 -0.0021199 -0.0027599 -0.0014174 -0.0009456 0.020178 0.018574
-0.085871 0.1761 0.013124 0.019351
-0.00020993 -0.0013629 -0.0012615 -0.0027239 -0.00058731 -0.0010112 -0.0019932 0.00084275
0.013111 0.019344 -0.14114 0.26375
1100000000 0.033849 0.30499 0.035437 -0.0040922 0.0025939 0.0039244 0.00218 -0.0010265
-0.0017953 -0.0032179 -0.0041295 -0.00012401
0.035408 -0.0040544 -0.1316 0.37226 0.015225 -0.027718 2.3607e-05 -0.0018413
-0.0033854 -0.0011252 -0.0036282 -0.00069027
0.0025866 0.0039151 0.015133 -0.027811 0.20362 0.27533 -0.0020005 3.9602e-05
-0.00191 0.00032718 -0.0011623 -0.00018177
0.0022021 -0.0010131 5.4242e-05 -0.0018621 -0.0019883 3.2569e-05 -0.010213 0.2832
0.025709 0.0053353 -0.0028616 -0.00055443
-0.0018466 -0.0032127 -0.0034526 -0.0010864 -0.0019064 0.00032707 0.025724 0.0053013
-0.069311 0.19039 0.019078 0.0088417
-0.0040919 -0.0001172 -0.0035407 -0.00067436 -0.0011743 -0.00018692 -0.0028662 -0.00055442
0.019076 0.0088335 -0.096043 0.29551
1160000000 0.084943 0.30022 0.02363 -0.020678 0.0024856 -0.00033593 -0.00024582 -0.002112
-0.0041722 -0.00091773 -0.0010228 0.0040932
0.023634 -0.020639 -0.088355 0.37663 -0.0035917 -0.029166 -0.0016338 -0.0017692
-0.0030256 0.0023344 -0.0015069 0.0018606
0.0024925 -0.00036114 -0.0037287 -0.029168 0.2466 0.24469 -0.00094836 0.0018612
-0.00070712 0.0020856 -0.00090136 0.0001911
-0.00025017 -0.0021179 -0.0016209 -0.001794 -0.00094469 0.0018567 0.028991 0.28034
0.022395 -0.011019 -0.0038094 0.0049511
-0.0041675 -0.00088555 -0.0030454 0.0023781 -0.00069386 0.0021028 0.022378 -0.011058
-0.036036 0.19967 0.018243 0.00091778
-0.00097232 0.0041068 -0.0015132 0.0018822 -0.00089544 0.0001799 -0.0037941 0.0049517
0.018238 0.00091801 -0.048881 0.29832
1220000000 0.12923 0.28968 0.01031 -0.029836 -0.001674 -0.00062449 0.00023761 -0.00076196
-0.0027325 0.0022573 0.0011143 0.0021235
0.010316 -0.029807 -0.044027 0.38924 -0.016838 -0.021316 -0.0026015 0.00033476
-0.0001491 0.003225 -0.00091139 0.0019208
-0.0016652 -0.0006165 -0.016947 -0.021255 0.28583 0.20585 0.00071944 0.0019404
0.00068995 0.0014687 0.00048671 0.00060556
0.00024594 -0.00074445 -0.0026108 0.00036413 0.00072048 0.0019375 0.068699 0.27221
0.011477 -0.018135 0.0014068 0.0013674
-0.002688 0.002273 -0.00014127 0.0032166 0.00068781 0.0014712 0.011459 -0.018162
-0.014697 0.20965 0.01435 -0.012728
0.0011856 0.0020554 -0.00088236 0.0019145 0.00049085 0.00060612 0.0014019 0.0013697
0.014347 -0.012732 -0.018735 0.31635
1280000000 0.17908 0.26815 -0.0079406 -0.028207 -0.0017957 0.0027319 -0.0007858 -0.0021114
-0.00095932 0.0030074 0.0024539 0.0013594
-0.0079188 -0.028173 0.001739 0.38075 -0.023828 -0.0087042 -0.0011575 0.0014183
0.0018494 0.0020804 0.00061548 0.0021696
-0.0018016 0.0027369 -0.023891 -0.0086004 0.31635 0.16206 0.0017398 0.00018596
0.0012705 0.00031954 0.00044278 0.00023212
-0.00079341 -0.002083 -0.001159 0.0014233 0.0017458 0.00017996 0.10562 0.25561
0.0016125 -0.02063 -0.00069044 0.00049759
-0.00096803 0.0030213 0.0018571 0.0021093 0.0012701 0.00031493 0.0015702 -0.020635
0.0213 0.21438 0.0030652 -0.015008
0.0024502 0.0013494 0.00064898 0.0021013 0.00043735 0.00023027 -0.00069114 0.00049866
0.0030645 -0.015009 0.029586 0.3192
1340000000 0.21608 0.23492 -0.017564 -0.018639 0.0010696 0.0046877 -0.0017024 -0.00099085
0.0013865 0.0027253 0.0019474 -0.0012756
-0.017532 -0.018656 0.041465 0.37305 -0.02178 0.0041942 -0.00027535 0.0021246
0.0021818 0.00087984 0.0013329 0.0008482
0.0010914 0.0046789 -0.021782 0.004306 0.33847 0.11423 0.0014267 -0.00098694
0.00089022 -0.0006728 6.0819e-05 0.00027006
-0.0016806 -0.00098259 -0.00026678 0.0021352 0.0014192 -0.00099053 0.13779 0.23518
-0.0087282 -0.018133 0.00060911 0.0010017
0.0014177 0.0027188 0.0022132 0.00087276 0.00089346 -0.00068078 -0.0087748 -0.018127
0.049684 0.21102 -0.0034456 -0.013753
0.0019735 -0.0013343 0.0013276 0.00082568 5.7697e-05 0.00027023 0.00062007 0.0010035
-0.0034436 -0.013758 0.067417 0.31586
1400000000 0.24954 0.19715 -0.023168 -0.0071808 0.0054196 0.0031468 -0.0022014 0.00049381
0.0023479 0.0010761 0.00044093 -0.0014583
-0.023133 -0.0071957 0.079035 0.36034 -0.015025 0.012542 0.001427 0.0014928
0.0013834 -0.00083057 0.0012923 0.00019273
0.0054571 0.0031067 -0.014981 0.012634 0.3516 0.060803 0.00023005 -0.001952
3.3622e-05 -0.00044959 0.00034061 0.00017977
-0.0021722 0.00051488 0.0014379 0.0014832 0.00022558 -0.0019505 0.16674 0.20626
-0.015326 -0.011332 -0.00088892 6.3926e-05
0.0023992 0.0010576 0.0013512 -0.00087497 3.3613e-05 -0.00045094 -0.015356 -0.011306
0.082428 0.20836 -0.0098545 -0.0089212
0.00046317 -0.0014903 0.001307 0.00019443 0.00035 0.00017282 -0.00088483 7.0571e-05
-0.0098521 -0.0089261 0.11283 0.30598
1460000000 0.27255 0.15325 -0.020108 0.0048984 0.0058344 -0.0018721 -0.0016864 0.0017992
0.0021882 -0.00030791 -0.00031809 -0.0011482
-0.020106 0.0048903 0.11362 0.33862 -0.0061951 0.015544 0.0019246 0.00025883
0.00092743 -0.0014643 0.0012018 -0.00066406
0.005825 -0.0019129 -0.0061112 0.015586 0.35763 0.0065924 -0.0014172 -0.0015631
6.1021e-05 -0.00030977 0.00051239 -0.00036602
-0.0016942 0.0018014 0.0019199 0.00022529 -0.0014146 -0.0015649 0.19215 0.17728
-0.017276 -0.0041526 -0.00060015 0.0026422
0.0021999 -0.0003335 0.00090529 -0.0014656 5.9336e-05 -0.00030571 -0.017292 -0.004116
0.11087 0.19529 -0.011619 -0.0028117
-0.00035459 -0.0011597 0.0011913 -0.00073403 0.0005219 -0.0003681 -0.00060876 0.0026428
-0.011618 -0.0028166 0.14628 0.28572
1520000000 0.28516 0.11162 -0.014412 0.010269 0.0034798 -0.0043413 4.7516e-05 0.0027403
0.0023587 -0.0016436 -0.0011288 -0.00023445
-0.014415 0.010247 0.14753 0.32394 0.0016189 0.013321 0.0018601 -0.00083275
-2.1412e-05 -0.0011537 0.00036994 -0.00097494
0.003486 -0.0043407 0.0016916 0.01333 0.3512 -0.049342 -0.0013909 -0.00035933
0.00067125 -0.00076572 7.6403e-05 -0.00010275
6.4563e-05 0.0027277 0.0018612 -0.00085214 -0.0013854 -0.00035664 0.21446 0.14031
-0.016948 0.0025974 0.0018545 0.0022819
0.0023326 -0.0016766 -2.4206e-05 -0.0011589 0.00067567 -0.00076595 -0.016946 0.0026441
0.13875 0.18296 -0.011801 0.0014374
-0.0011671 -0.00025075 0.00035999 -0.00098677 8.0412e-05 -0.00010312 0.0018584 0.0022568
-0.011795 0.0014281 0.18015 0.26661
1580000000 0.29479 0.065139 -0.0078043 0.01327 -0.00092194 -0.0051328 0.0015368 0.0020674
7.1898e-06 -0.0022044 -0.00037672 0.00048107
-0.0078031 0.01325 0.1751 0.29893 0.0053677 0.0084197 0.0005107 -0.0017837
-0.00061455 -0.0010748 -0.00022082 -0.00081408
-0.00093904 -0.005129 0.0054229 0.0083867 0.33113 -0.10702 -0.0018171 0.00096484
-0.00032643 -0.0011619 0.00011083 -0.00045795
0.0015637 0.002053 0.00049653 -0.0017842 -0.0018185 0.00096161 0.22765 0.10248
-0.01326 0.0084415 0.0026864 0.00078509
-2.6889e-05 -0.0022043 -0.00063058 -0.001061 -0.00032677 -0.0011554 -0.013251 0.008478
0.1635 0.16659 -0.0093403 0.007453
-0.00038019 0.0004756 -0.00022131 -0.00080107 0.00010432 -0.00045639 0.002702 0.00077167
-0.0093379 0.0074508 0.21358 0.24017
1640000000 0.29688 0.023703 -0.0011672 0.012104 -0.0028254 -0.0026838 0.0028915 0.00099285
-0.00046656 -0.0017602 -0.00035509 0.00058313
-0.0011835 0.012091 0.20481 0.27389 0.0061829 0.003484 -0.00077937 -0.0019179
-0.0010426 -0.00037956 -0.00046788 -0.00079885
-0.0028236 -0.0026704 0.0062089 0.0034431 0.30324 -0.15645 -0.00054735 0.0017678
-0.0010661 -0.0011744 -8.6285e-05 -0.00041906
0.0028977 0.00098907 -0.00078718 -0.0019194 -0.00055717 0.0017635 0.24 0.055749
-0.0084474 0.010411 0.0029697 -0.00092502
-0.0004871 -0.001783 -0.0010597 -0.0003771 -0.00108 -0.0011823 -0.0084242 0.01044
0.18627 0.14356 -0.0045925 0.0095375
-0.00035359 0.00060221 -0.00047248 -0.00080129 -9.098e-05 -0.00042096 0.0029668 -0.00092457
-0.0046056 0.0095348 0.23933 0.21005
1700000000 0.28962 -0.02186 0.0021217 0.0091891 -0.0036604 5.275e-05 0.0031664 -0.0014413
-0.0021137 -0.00095029 0.00069728 0.00043748
0.0021311 0.0091866 0.22311 0.24206 0.0041057 0.00053463 -0.0016455 -0.00062226
-0.00078198 0.00010459 -0.00097079 -0.00054324
-0.0036456 8.7205e-05 0.0041158 0.0005053 0.25967 -0.19631 0.00079631 0.0016424
-0.0021301 -0.00025615 -0.00038415 -0.0009011
0.0031518 -0.0014635 -0.0016395 -0.00061083 0.00079339 0.001641 0.2379 0.0080994
-0.0048386 0.011567 0.0017758 -0.0024781
-0.0021358 -0.000949 -0.00078515 0.00011606 -0.0021397 -0.00025725 -0.0048083 0.011575
0.20408 0.12454 0.00010932 0.0099041
0.00070351 0.0004499 -0.00094357 -0.0005042 -0.00038063 -0.00089546 0.0017638 -0.0024918
0.00011013 0.0099061 0.25687 0.17566
1760000000 0.27719 -0.070532 0.0042737 0.0058909 -0.0024619 0.0010093 0.0011824 -0.0035838
-0.0015478 0.00062697 0.00044663 -0.00059923
0.0042777 0.0058976 0.24898 0.2019 0.0016919 -0.0013728 -0.0013198 0.00028503
-0.00099751 0.00096564 -0.00065422 0.00035744
-0.0024481 0.001021 0.0016854 -0.0013806 0.21049 -0.22978 0.0013433 0.00085002
-0.0013197 0.0014631 -0.0013487 -0.0006258
0.0011834 -0.0036482 -0.0013217 0.00029751 0.0013528 0.00085297 0.23091 -0.041548
-0.00046922 0.010573 -0.00014247 -0.0029158
-0.0015196 0.0006205 -0.0010058 0.00096643 -0.0013221 0.0014765 -0.00043371 0.010575
0.21937 0.090562 0.0043213 0.0073242
0.00045487 -0.00065141 -0.00065697 0.00038313 -0.0013316 -0.00061262 -0.00014739 -0.0029172
0.0043274 0.0073281 0.26997 0.1382
1820000000 0.25243 -0.10773 0.0043574 0.0023664 -0.00012867 0.0025302 -0.0012313 -0.0031236
-0.0013619 0.0010143 -3.9034e-05 -4.8913e-05
0.0043403 0.0023567 0.25898 0.17158 -0.00043126 -0.00029192 -0.0013177 0.0010932
2.581e-05 0.0012614 -0.00062091 0.00061269
-0.00013742 0.0025229 -0.00043641 -0.00029382 0.16033 -0.24553 0.0013804 8.4495e-05
-0.00019449 0.00245 -0.0013424 0.00024048
-0.0012536 -0.0031313 -0.0013221 0.0011019 0.001385 7.0853e-05 0.20373 -0.088163
0.0018409 0.0086467 -0.0017369 -0.0017978
-0.0013449 0.00099875 4.0191e-05 0.0012514 -0.00019021 0.0024547 0.0018674 0.0086493
0.2373 0.062788 0.0052161 0.0035317
-4.8166e-05 -7.1854e-05 -0.00061441 0.00061884 -0.0013314 0.00024924 -0.0017661 -0.0017787
0.0052068 0.0035324 0.27312 0.10276
1880000000 0.21719 -0.14792 0.0020093 0.00020409 -0.00048134 0.0021537 -0.003088 -0.0021658
-0.0002454 0.0019799 9.8118e-05 -0.00057209
0.0020143 0.00019624 0.26304 0.12473 -0.0025058 0.0016143 -7.0334e-05 0.0016721
0.00052642 0.0011283 8.2476e-05 0.001013
-0.00048529 0.0021831 -0.002516 0.001626 0.10809 -0.2546 0.0015148 -0.00077434
0.0015832 0.0020415 -0.0010336 0.0013798
-0.0031142 -0.0021178 -4.3054e-05 0.001689 0.0015247 -0.00077381 0.16598 -0.12939
0.0031241 0.005856 -0.0027121 0.00019968
-0.00025251 0.0019792 0.00053811 0.0011337 0.0015888 0.0020428 0.0031469 0.005845
0.24111 0.031115 0.0054481 0.0012955
0.00012941 -0.00054765 0.00012633 0.001026 -0.001034 0.0013682 -0.002723 0.00018737
0.0054485 0.001288 0.27341 0.068244
1940000000 0.17776 -0.17356 -0.00030033 -0.0013355 0.0013106 0.00215 -0.003659 0.00073338
0.001508 0.0012771 -0.00072328 -0.00048088
-0.00029932 -0.0013351 0.26323 0.092911 -0.0012604 0.0039225 0.0010356 0.0012607
0.0017114 0.00053875 0.00091063 0.00036445
0.001325 0.0021336 -0.0012143 0.0039229 0.062324 -0.24789 0.00029056 -0.0018559
0.0023883 0.00052663 0.00048672 0.0017225
-0.0036487 0.00073609 0.0010253 0.0012816 0.00029775 -0.0018525 0.11533 -0.16208
0.0024947 0.003527 -0.001848 0.001542
0.001504 0.0012425 0.001683 0.00048532 0.0023813 0.0005141 0.0025127 0.0035147
0.24448 -0.0070114 0.0040665 -0.0023992
-0.00074736 -0.00050644 0.00088158 0.0003577 0.00048815 0.0017216 -0.0018194 0.0015359
0.0040628 -0.0023937 0.26272 0.032628
2000000000 0.13144 -0.18807 -0.0041359 0.0009138 0.0025689 0.0018091 -0.0023269 0.0035476
0.0012172 0.00016256 -0.00061513 0.00053063
-0.0041094 0.00091774 0.24859 0.05755 -0.0010886 0.0058215 0.0015259 0.00043652
0.0012213 -0.001194 0.00054676 0.0002046
0.0026095 0.0017804 -0.0010468 0.0058128 0.019106 -0.23354 -0.0009936 -0.001297
0.0020908 -0.0012148 0.0017726 0.001331
-0.0023196 0.0035696 0.0015317 0.00043379 -0.0010014 -0.0013097 0.061914 -0.1744
0.00061368 0.0025158 -0.00011754 0.0022863
0.0012195 0.00012 0.0011749 -0.0011816 0.0020876 -0.0012247 0.00062096 0.0025167
0.23992 -0.04093 0.00076149 -0.0032944
