!Keysight Technologies,M9804A,MY58100912,A.14.10.03
!Date: Thursday, April 27, 2023 10:28:33
!Correction: S11(C  6-Port  ) 
!S12(C  6-Port  ) 
!S13(C  6-Port  ) 
!S14(C  6-Port  ) 
!S15(C  6-Port  ) 
!S16(C  6-Port  ) 
!S21(C  6-Port  ) 
!S22(C  6-Port  ) 
!S23(C  6-Port  ) 
!S24(C  6-Port  ) 
!S25(C  6-Port  ) 
!S26(C  6-Port  ) 
!S31(C  6-Port  ) 
!S32(C  6-Port  ) 
!S33(C  6-Port  ) 
!S34(C  6-Port  ) 
!S35(C  6-Port  ) 
!S36(C  6-Port  ) 
!S41(C  6-Port  ) 
!S42(C  6-Port  ) 
!S43(C  6-Port  ) 
!S44(C  6-Port  ) 
!S45(C  6-Port  ) 
!S46(C  6-Port  ) 
!S51(C  6-Port  ) 
!S52(C  6-Port  ) 
!S53(C  6-Port  ) 
!S54(C  6-Port  ) 
!S55(C  6-Port  ) 
!S56(C  6-Port  ) 
!S61(C  6-Port  ) 
!S62(C  6-Port  ) 
!S63(C  6-Port  ) 
!S64(C  6-Port  ) 
!S65(C  6-Port  ) 
!S66(C  6-Port  ) 
!S6P File: Measurement: :
# Hz S  RI   R 50
500000000 -0.3378 -0.044987 -0.010623 -0.0023699 -0.0085521 0.013322 -0.0053841 0.012494
0.012757 0.0041889 -0.0051196 0.0086558
-0.010608 -0.0023496 -0.41894 -0.055793 0.0077552 -0.010798 0.0016272 0.012839
0.0068321 0.002385 0.0013724 0.013998
-0.0085118 0.013367 0.0077464 -0.010818 -0.26744 0.20698 0.0068767 0.0039371
-0.0027231 0.0084067 0.00060854 0.012516
-0.0054322 0.012581 0.0016274 0.012876 0.0068161 0.0040074 -0.3344 0.034216
-0.021773 -0.0053841 0.017355 0.026156
0.012836 0.004053 0.0068726 0.0022871 -0.0027629 0.0082296 -0.021783 -0.005366
-0.21488 -0.2137 -0.027889 0.0057547
-0.0052743 0.0086292 0.0013112 0.013938 0.00041195 0.012498 0.017315 0.026161
-0.027888 0.0057346 -0.26173 -0.13875
560000000 -0.31844 0.12044 -0.023354 -0.063552 -0.00027012 0.012395 0.0055278 0.011273
0.010337 0.0047235 0.01049 0.008387
-0.02336 -0.063475 -0.37729 0.10471 -0.041744 -0.036879 0.013651 0.0040686
-0.013713 -0.0046388 0.0028848 0.00025417
-0.0002553 0.01236 -0.041917 -0.036837 -0.18479 0.25765 6.1914e-05 -0.0042958
0.019492 0.0063262 0.0072062 -0.006383
0.0055976 0.011265 0.013788 0.0039943 6.6588e-05 -0.0042315 -0.31237 0.12929
0.0034778 -0.023457 0.0041812 -0.022127
0.010384 0.004692 -0.01365 -0.0046659 0.019499 0.0062595 0.0034687 -0.023455
-0.28864 -0.034622 0.0082533 -0.049393
0.010567 0.0084089 0.0030871 0.00022877 0.0071085 -0.0062618 0.0041698 -0.022107
0.0082728 -0.049414 -0.32789 0.011819
620000000 -0.27661 0.10264 -0.023038 0.0087643 0.0038038 0.0089766 0.0082914 -0.0045001
0.01142 -0.00027787 0.00096987 -0.0021832
-0.023038 0.0087451 -0.40361 0.056737 -0.018199 0.00062515 -0.0012205 -0.0018257
0.011878 -0.005643 0.0012959 -0.0030945
0.0038154 0.0089666 -0.018232 0.00067845 -0.15439 0.26646 -0.00046852 -0.0054249
-0.0024344 -0.0024557 0.0090704 -0.0035738
0.0083015 -0.0045431 -0.0011824 -0.0018184 -0.00044323 -0.0054146 -0.27101 0.13997
-0.040131 -0.018741 0.012592 0.026869
0.011292 -0.00024812 0.011783 -0.0057173 -0.0024618 -0.0025024 -0.040109 -0.018758
-0.20468 -0.074813 -0.043888 0.016282
0.00093632 -0.0021473 0.0013466 -0.0030604 0.0091581 -0.0035518 0.012638 0.026922
-0.043929 0.01627 -0.2493 -0.026633
680000000 -0.23705 0.19025 -0.026689 -0.013769 0.0052108 0.0050235 0.0020944 -0.0069875
-0.0025109 -0.010957 0.0050185 -0.0075414
-0.026666 -0.013782 -0.38903 0.15599 -0.032266 -0.001497 -0.0012626 -0.00046168
-0.001601 -0.0092538 -0.001059 -0.002013
0.005226 0.0050184 -0.032298 -0.0014132 -0.10228 0.28606 -0.00070269 -0.000825
-0.0013746 9.3619e-05 -0.0027231 -0.0094879
0.0019904 -0.0070653 -0.0012535 -0.00049527 -0.00071849 -0.00085414 -0.22389 0.19342
-0.024385 -0.0060016 -0.010214 -0.012068
-0.0024559 -0.010975 -0.0016655 -0.0092587 -0.001407 0.00012183 -0.024416 -0.0059912
-0.26375 0.027158 -0.0055514 -0.0065519
0.0050332 -0.0074862 -0.0010378 -0.0020446 -0.0027732 -0.0095934 -0.010194 -0.012122
-0.0055558 -0.006559 -0.26061 0.081368
740000000 -0.19282 0.18521 -0.039349 0.027269 0.013259 -0.0052783 7.8452e-05 -0.0045178
-0.0042649 -0.0025974 -0.0060615 0.002863
-0.039322 0.027238 -0.33453 0.17459 -0.035202 0.035091 -0.00047002 -0.0065999
-0.01147 0.0069136 -0.0019965 -0.0068326
0.013232 -0.0052756 -0.035113 0.035204 -0.068329 0.28365 -0.0021695 0.0030401
-0.0024392 -0.0050637 -0.0013763 0.00025802
6.3282e-05 -0.0045426 -0.00054107 -0.0066069 -0.0021793 0.0030331 -0.20705 0.20154
-0.044591 -0.0062951 0.024815 0.016159
-0.0043653 -0.0025257 -0.011422 0.0069651 -0.002401 -0.0050732 -0.044618 -0.0062457
-0.15843 0.055325 -0.044435 0.00059271
-0.0060263 0.0027684 -0.0021422 -0.0069139 -0.0013834 0.00021067 0.024808 0.01615
-0.044433 0.00057792 -0.24916 0.085958
800000000 -0.15902 0.22679 -0.021836 0.016821 0.0053699 -0.010532 -0.0046278 -0.0021912
-0.003937 0.0019336 0.0043641 0.00038159
-0.021843 0.0168 -0.33878 0.24482 -0.0078586 0.033761 -0.0024944 0.0020964
-0.00089269 0.0027081 0.00088163 0.005183
0.0053437 -0.01055 -0.0077634 0.033825 -0.028016 0.30642 0.00055029 0.0016531
-2.9843e-05 0.0034559 -0.0018225 0.00081668
-0.0046126 -0.0021371 -0.0025227 0.0021175 0.00053614 0.0016689 -0.1777 0.23066
-0.028272 0.014715 0.014574 -0.010546
-0.0039492 0.0019478 -0.00090871 0.0026719 -2.9777e-05 0.0034632 -0.02826 0.01477
-0.20945 0.080729 -0.016824 0.019368
0.0043279 0.00038525 0.00078843 0.0051681 -0.0018383 0.00083281 0.014563 -0.010557
-0.016835 0.019358 -0.2451 0.13629
860000000 -0.12426 0.24631 -0.017291 0.030503 -0.0031596 -0.0099049 -0.001936 0.00058327
0.003719 0.0051774 -0.0035336 -0.0031781
-0.017301 0.030469 -0.29078 0.28645 0.0076404 0.033976 -0.00020207 0.0021183
0.0037559 0.00029924 0.0033498 0.00089955
-0.0031846 -0.0099096 0.007763 0.033993 0.019365 0.31409 -0.00067558 1.5607e-05
0.002825 -0.0016504 0.0016575 0.004179
-0.0019325 0.00058728 -0.00019558 0.0021532 -0.00068406 1.8223e-05 -0.13977 0.24075
-0.016968 0.018303 -0.0060274 -0.0086821
0.0036568 0.0052315 0.0037551 0.00033201 0.0027849 -0.0016558 -0.016944 0.018348
-0.15662 0.1341 -0.026114 0.015739
-0.0035235 -0.0031554 0.003457 0.00095514 0.0016906 0.0041818 -0.0060339 -0.0086649
-0.026117 0.015713 -0.1952 0.18267
920000000 -0.099889 0.26858 0.0051594 0.037564 -0.0093077 -0.0046851 -0.0018511 0.0015068
0.00072373 0.0019217 0.0027042 -0.0014101
0.0051302 0.037534 -0.26263 0.30759 0.027771 0.021999 0.0014107 0.001116
0.0071585 0.0002539 0.003965 -0.0028183
-0.0093276 -0.0046634 0.027884 0.021946 0.065122 0.31499 0.002051 0.00011502
0.0011797 -0.00024771 0.00077901 -0.0012172
-0.0018283 0.0014995 0.0014025 0.0011354 0.0020569 0.00011045 -0.11588 0.25762
-0.010803 0.031114 0.0044753 -0.0066563
0.00073972 0.0019363 0.0071971 0.00016792 0.0011759 -0.00024808 -0.010774 0.031156
-0.14784 0.13974 -0.0023183 0.027258
0.002707 -0.0014494 0.0040129 -0.0027655 0.00079132 -0.0012383 0.0044605 -0.0066856
-0.0023349 0.027258 -0.20443 0.1972
980000000 -0.052769 0.2882 0.017175 0.029716 -0.0092021 0.0043377 0.0017612 0.0031987
0.0037967 -0.0011517 -0.0031669 -0.0024439
0.017121 0.029701 -0.21006 0.34178 0.032823 0.0050158 0.0021841 7.0596e-05
0.0018827 -0.0057681 -3.131e-05 -0.0024432
-0.0092003 0.0043507 0.032879 0.004922 0.11123 0.30868 0.00066772 -0.0012761
0.00046836 -0.0020741 0.0013359 -0.00020893
0.0017794 0.0032313 0.0021842 4.6762e-05 0.00065547 -0.0012725 -0.077224 0.26818
0.0085467 0.030998 -0.0093423 -0.0076714
0.0038189 -0.0011674 0.0018488 -0.0057642 0.00048376 -0.0020697 0.0086028 0.030992
-0.11798 0.16894 0.0050214 0.019682
-0.0032507 -0.0023794 -3.0714e-05 -0.0024474 0.0013122 -0.00020798 -0.0093561 -0.0076533
0.0050024 0.019697 -0.16256 0.2423
1040000000 -0.011369 0.29661 0.032866 0.018154 -0.0015153 0.0068307 0.0022419 0.00080435
0.00010989 -0.0034246 -0.00024141 -0.0013295
0.032829 0.018156 -0.17486 0.35486 0.029322 -0.014548 0.0016061 -0.0017291
-0.0020643 -0.0028214 -0.0013293 -0.0027216
-0.0014999 0.0068319 0.029319 -0.014664 0.15707 0.29534 -0.00046287 -0.0017309
-0.0014695 -0.0009636 -0.00056432 -0.00099594
0.0022804 0.00082976 0.0015867 -0.0017378 -0.0004599 -0.0017208 -0.050429 0.27816
0.020186 0.018604 -0.0020345 0.00075616
0.00010686 -0.0034026 -0.0020729 -0.0027773 -0.001482 -0.00095666 0.020215 0.01858
-0.085752 0.17631 0.013344 0.019163
-0.00022079 -0.0012911 -0.00132 -0.0027327 -0.00056196 -0.00099432 -0.002023 0.00075551
0.013326 0.019177 -0.1417 0.26364
1100000000 0.033649 0.30488 0.035504 -0.0040517 0.0026245 0.0039572 0.0021771 -0.0010189
-0.0018203 -0.0031677 -0.0041369 -0.0001297
0.035475 -0.0040307 -0.13165 0.37215 0.015264 -0.027712 -6.4977e-06 -0.0018127
-0.0034087 -0.0011878 -0.0037163 -0.00068572
0.002639 0.0039405 0.015183 -0.027798 0.20346 0.2753 -0.0020152 4.4255e-05
-0.0019091 0.00031303 -0.0011792 -0.00020125
0.0021904 -0.0010255 2.1372e-05 -0.001822 -0.0020169 4.8786e-05 -0.010228 0.28315
0.025798 0.0053033 -0.0028716 -0.00055603
-0.0018362 -0.0031716 -0.0034303 -0.001161 -0.0019101 0.00030296 0.025813 0.0052587
-0.069519 0.19022 0.019341 0.008762
-0.0041113 -0.00010915 -0.0036513 -0.00065052 -0.0011695 -0.00019014 -0.0028746 -0.00057063
0.019339 0.0087704 -0.09629 0.29576
1160000000 0.084708 0.30027 0.023705 -0.020624 0.0025308 -0.0003265 -0.00027337 -0.0020874
-0.0041907 -0.00096064 -0.0010044 0.0041291
0.023702 -0.020596 -0.08846 0.37654 -0.003559 -0.029163 -0.0016085 -0.0017744
-0.0030442 0.0023524 -0.0015484 0.0019035
0.0025317 -0.00034239 -0.0036776 -0.029166 0.24647 0.24473 -0.00094122 0.0018437
-0.00070846 0.0020731 -0.00089328 0.00019895
-0.00028857 -0.002076 -0.0016222 -0.0017962 -0.00094173 0.0018546 0.028878 0.28032
0.022457 -0.011132 -0.0037901 0.0049757
-0.00418 -0.00092974 -0.0030398 0.0023758 -0.00069933 0.0020922 0.022441 -0.011173
-0.035974 0.19954 0.018384 0.00084718
-0.0010045 0.0041212 -0.001533 0.0019303 -0.00090144 0.00019957 -0.0037896 0.0049869
0.018381 0.00083656 -0.049312 0.2984
1220000000 0.12903 0.28973 0.010393 -0.029853 -0.0016315 -0.00062775 0.00027843 -0.0007421
-0.002702 0.0022332 0.0011654 0.0020483
0.01041 -0.029809 -0.044148 0.38914 -0.016801 -0.02133 -0.0026153 0.0003409
-0.00016534 0.0032126 -0.00093612 0.0018962
-0.0016425 -0.00062671 -0.016911 -0.021272 0.2857 0.20593 0.00070656 0.0019337
0.00069598 0.0014586 0.00047689 0.00055608
0.00028476 -0.00073636 -0.0026196 0.00033651 0.00069576 0.0019303 0.068551 0.2722
0.011501 -0.018253 0.0013641 0.0013542
-0.0026895 0.0022298 -0.00015237 0.0032188 0.00069225 0.0014589 0.01148 -0.018282
-0.014733 0.20947 0.014452 -0.012793
0.0011646 0.0020818 -0.00092647 0.0019243 0.00047104 0.0005733 0.0013692 0.0013491
0.014457 -0.012806 -0.0189 0.31646
1280000000 0.17887 0.26832 -0.0078926 -0.028245 -0.0018121 0.0027086 -0.00078874 -0.0020869
-0.0009841 0.0030321 0.002427 0.0013914
-0.0078783 -0.028224 0.0015726 0.38067 -0.02382 -0.0087152 -0.0011545 0.0014265
0.0018095 0.0021527 0.00060646 0.0021871
-0.0018064 0.0027163 -0.0239 -0.0086159 0.31622 0.16221 0.0017422 0.00017262
0.001294 0.00034375 0.00044063 0.00022225
-0.00078393 -0.0020773 -0.0011631 0.0014336 0.0017455 0.00017453 0.10549 0.25558
0.0015862 -0.02081 -0.00072199 0.00050753
-0.00098718 0.0030382 0.0018288 0.0021454 0.0012902 0.00035389 0.0015358 -0.020821
0.021185 0.21427 0.0031247 -0.015204
0.0024506 0.0013854 0.00062357 0.0021923 0.00045826 0.00022454 -0.00073161 0.00050333
0.0031413 -0.015214 0.029454 0.31924
1340000000 0.21599 0.23505 -0.017566 -0.018718 0.0010505 0.0046711 -0.0016719 -0.000996
0.0013913 0.002754 0.0019325 -0.0013384
-0.017533 -0.018724 0.041277 0.37301 -0.021778 0.0041569 -0.0002688 0.0021301
0.0021995 0.00089909 0.001342 0.0008489
0.0010653 0.004669 -0.021787 0.0042621 0.33846 0.11436 0.0014308 -0.0010027
0.00092622 -0.00065958 1.9404e-05 0.00022082
-0.0016633 -0.00098423 -0.00025887 0.0021268 0.0014359 -0.00099736 0.1377 0.23524
-0.0089108 -0.018296 0.00064109 0.0011156
0.0014075 0.002746 0.002213 0.00090686 0.00093661 -0.00067883 -0.0089485 -0.018296
0.049571 0.21081 -0.0035183 -0.013918
0.0019361 -0.0013531 0.0013483 0.00083888 1.6897e-05 0.00026554 0.00062852 0.0011147
-0.0035139 -0.013941 0.067506 0.31615
1400000000 0.24949 0.19731 -0.023206 -0.0072543 0.0053932 0.0031095 -0.0021966 0.00046075
0.0023568 0.0010997 0.00044619 -0.0014832
-0.023169 -0.0072649 0.078844 0.36031 -0.015066 0.012509 0.0014299 0.0014807
0.0013954 -0.00087763 0.0013309 0.00019936
0.0054011 0.0030841 -0.015025 0.012608 0.35155 0.060926 0.00023613 -0.0019554
2.5831e-05 -0.00048461 0.00035405 0.00020464
-0.0021956 0.00047229 0.0014433 0.0014812 0.00022636 -0.0019504 0.16664 0.20635
-0.015516 -0.011368 -0.00089443 0.00016391
0.0023634 0.0011016 0.0013799 -0.00086668 1.3268e-05 -0.00047975 -0.015552 -0.011334
0.082136 0.20817 -0.0099833 -0.0089957
0.00044056 -0.0014834 0.001341 0.00016232 0.00034875 0.00018231 -0.00090318 0.00017188
-0.0099806 -0.0090203 0.11263 0.30611
1460000000 0.27255 0.15335 -0.020155 0.0048616 0.0058125 -0.0018714 -0.0016916 0.0017942
0.0021996 -0.00027676 -0.00033675 -0.0011634
-0.020142 0.0048393 0.11342 0.33862 -0.0062293 0.015543 0.0019132 0.00025995
0.00094584 -0.0014729 0.0012149 -0.00064489
0.0058138 -0.0018961 -0.0061445 0.015588 0.35766 0.0067053 -0.0014379 -0.0015625
7.2605e-05 -0.00033292 0.00049539 -0.00036914
-0.0016963 0.0017976 0.0019192 0.00024868 -0.0014459 -0.0015582 0.19204 0.17734
-0.017524 -0.0040549 -0.00058213 0.0026396
0.0022109 -0.00030296 0.00094467 -0.0014823 8.881e-05 -0.00032262 -0.017544 -0.0040181
0.11039 0.19522 -0.011794 -0.0027229
-0.00032199 -0.0011524 0.0012188 -0.00066158 0.00047827 -0.00035569 -0.00058189 0.002642
-0.011801 -0.0027354 0.14619 0.28568
1520000000 0.28519 0.11165 -0.014458 0.01026 0.0034983 -0.0043272 1.648e-05 0.0027256
0.0023493 -0.0016406 -0.0011793 -0.00024984
-0.014459 0.010242 0.14734 0.32402 0.0015926 0.013329 0.001852 -0.00083778
-2.3987e-05 -0.0011691 0.0003437 -0.00099308
0.0034897 -0.0043482 0.0016709 0.013327 0.35122 -0.049248 -0.0014161 -0.0003943
0.00068045 -0.00075523 0.00010356 -0.00013308
2.1219e-05 0.0027314 0.0018574 -0.00084325 -0.0014125 -0.00038421 0.21442 0.1404
-0.017071 0.0028021 0.0019258 0.0023425
0.0023349 -0.0016566 -4.1592e-05 -0.0011681 0.00068493 -0.00076485 -0.017077 0.0028584
0.13835 0.183 -0.011935 0.0015135
-0.0011734 -0.00026022 0.00033996 -0.00099147 8.9818e-05 -0.00013121 0.0019345 0.002342
-0.011952 0.0014926 0.18002 0.26668
1580000000 0.29474 0.065116 -0.0078351 0.013279 -0.00089429 -0.0051269 0.0015312 0.0020687
1.4373e-05 -0.0022415 -0.00036163 0.00045887
-0.0078426 0.013276 0.17493 0.29903 0.0053558 0.0084385 0.00051285 -0.0017954
-0.00065177 -0.00108 -0.00021559 -0.00082032
-0.00091903 -0.0051232 0.0054099 0.0084092 0.33113 -0.10694 -0.0018191 0.0009439
-0.00031669 -0.0011512 0.00014138 -0.00047817
0.0015286 0.0020606 0.00049965 -0.0017946 -0.0018336 0.00093761 0.2276 0.10257
-0.013221 0.0086813 0.0027341 0.00081454
3.4141e-06 -0.0022454 -0.00067021 -0.0010735 -0.00032049 -0.0011561 -0.013217 0.0087142
0.16302 0.1668 -0.0093398 0.0075377
-0.0003793 0.000441 -0.00023535 -0.00082984 0.00014131 -0.00049945 0.0027388 0.00081094
-0.0093511 0.0075326 0.21322 0.24029
1640000000 0.29684 0.023654 -0.0011918 0.012121 -0.0028026 -0.0026964 0.0029005 0.0010181
-0.00048574 -0.0018091 -0.00033903 0.00062201
-0.001207 0.012119 0.20465 0.27404 0.0061868 0.003506 -0.00076087 -0.0019329
-0.0010504 -0.00038063 -0.00044221 -0.00080307
-0.0028263 -0.002688 0.0061999 0.0034666 0.30326 -0.15636 -0.00052782 0.0017522
-0.0010832 -0.0011818 -2.3617e-05 -0.000456
0.0029199 0.001 -0.00077611 -0.001929 -0.00052316 0.0017474 0.23989 0.055813
-0.0083214 0.010599 0.0029744 -0.00096872
-0.00051849 -0.001828 -0.001058 -0.00036766 -0.0011026 -0.0011797 -0.0083093 0.010634
0.18597 0.14388 -0.0046227 0.0096162
-0.00032103 0.00062161 -0.00045139 -0.0008082 -3.9633e-05 -0.00047966 0.0029766 -0.00096895
-0.0046459 0.0096205 0.23914 0.21014
1700000000 0.28951 -0.021819 0.0021298 0.0092251 -0.003621 5.3981e-05 0.0031546 -0.0014747
-0.0021506 -0.0009756 0.00068509 0.0004735
0.0021192 0.0092155 0.223 0.2422 0.0041045 0.00055231 -0.0016428 -0.00064
-0.00077362 0.0001097 -0.00096864 -0.0005067
-0.0036202 7.1251e-05 0.0041176 0.00053229 0.25967 -0.19622 0.00079259 0.001621
-0.0021212 -0.00027906 -0.00044678 -0.00086091
0.0031464 -0.0014823 -0.0016494 -0.00063423 0.0007879 0.0016188 0.23786 0.008186
-0.0046055 0.011616 0.001732 -0.002526
-0.0021446 -0.00095338 -0.00076747 0.00012438 -0.0021547 -0.00027405 -0.0045764 0.01163
0.20397 0.12494 0.00015953 0.0099939
0.00068148 0.00046031 -0.00097342 -0.0004934 -0.00044238 -0.00084001 0.0017389 -0.0025281
0.00014755 0.01 0.25658 0.17577
1760000000 0.27704 -0.07038 0.0042841 0.0059307 -0.0024713 0.0010101 0.0011791 -0.0036281
-0.0015506 0.00060834 0.00045724 -0.00065916
0.0042799 0.0059282 0.24887 0.20205 0.0017137 -0.0013658 -0.0013301 0.00026478
-0.00095894 0.00094286 -0.00065743 0.00035428
-0.002468 0.0010311 0.0017089 -0.0013793 0.2105 -0.22968 0.0013313 0.00084984
-0.001319 0.0014675 -0.0013535 -0.00062277
0.001147 -0.0036346 -0.0013381 0.00026967 0.0013447 0.00082938 0.23093 -0.041385
-0.0002709 0.010583 -0.00014197 -0.0029595
-0.0015363 0.0006314 -0.00094591 0.0009542 -0.0013005 0.0014841 -0.00024272 0.010589
0.21925 0.09105 0.0044541 0.0073583
0.00042203 -0.00065716 -0.00066287 0.00035935 -0.0013609 -0.00061901 -0.00014877 -0.0029586
0.0044534 0.0073743 0.26967 0.13833
1820000000 0.25233 -0.10751 0.0043708 0.0023743 -0.00012708 0.0025222 -0.0012443 -0.0031604
-0.001351 0.0010085 -4.0293e-05 -8.1104e-05
0.0043672 0.002379 0.25892 0.17172 -0.00043786 -0.00030377 -0.0013333 0.0010965
2.9855e-05 0.0012327 -0.00062985 0.0005938
-0.00011418 0.0025153 -0.00043925 -0.00030253 0.16033 -0.24548 0.0013817 0.00012531
-0.00017498 0.0024829 -0.0013699 0.0003182
-0.001265 -0.0031256 -0.0013214 0.0011104 0.0013935 0.00010537 0.20378 -0.088045
0.001981 0.0085057 -0.0018021 -0.0018963
-0.0013469 0.0010316 5.1198e-05 0.0012431 -0.00014515 0.0024807 0.001998 0.0085083
0.23742 0.06314 0.005323 0.0035401
-4.1309e-05 -5.6142e-05 -0.00061771 0.00060649 -0.0013675 0.0003178 -0.001804 -0.0018882
0.0053287 0.0035481 0.2728 0.1028
1880000000 0.21722 -0.14763 0.0020521 0.00020629 -0.00048909 0.0021735 -0.0031296 -0.0021312
-0.00023113 0.002 0.00010231 -0.00060563
0.0020518 0.00020677 0.26297 0.12483 -0.002503 0.0015934 -6.957e-05 0.0016829
0.00050218 0.0011007 9.238e-05 0.0010076
-0.00047812 0.0021758 -0.0025017 0.0016112 0.10812 -0.25452 0.0015213 -0.00076551
0.001564 0.0020446 -0.0010355 0.0013851
-0.0031212 -0.0021039 -5.5246e-05 0.001697 0.0015384 -0.00076602 0.16618 -0.12931
0.0032292 0.0057183 -0.0026699 0.00014037
-0.00020489 0.0019932 0.00052735 0.0010941 0.0015829 0.0020255 0.0032425 0.0057102
0.24127 0.031379 0.005596 0.0013006
0.00010942 -0.00059173 9.7124e-05 0.0010116 -0.0010091 0.0014027 -0.0026807 0.00015571
0.0055997 0.0013098 0.27332 0.068438
1940000000 0.17797 -0.17329 -0.00023618 -0.0013368 0.0013262 0.0021089 -0.0036789 0.00071977
0.0014994 0.0012359 -0.00071996 -0.00049311
-0.00023361 -0.0013383 0.26319 0.092999 -0.0012452 0.0039033 0.0010159 0.0012493
0.0016864 0.0004975 0.00090252 0.00035128
0.001348 0.0021185 -0.0012195 0.003921 0.062335 -0.24781 0.00028643 -0.0018074
0.0024157 0.00048737 0.0004628 0.0016822
-0.0036599 0.00073229 0.0010393 0.0012345 0.00029403 -0.0018502 0.11544 -0.16203
0.0024467 0.0033915 -0.0018623 0.0015247
0.0015161 0.0012351 0.0016944 0.00050101 0.0024059 0.00049946 0.0024488 0.0033811
0.24468 -0.0069234 0.0041508 -0.0024531
-0.00072145 -0.0004961 0.00090739 0.00035224 0.00048284 0.0016674 -0.0019018 0.0015245
0.0041468 -0.0024527 0.26265 0.032867
2000000000 0.13167 -0.18794 -0.0040592 0.0008972 0.0026082 0.0017715 -0.0022682 0.0035125
0.0012189 0.00016883 -0.00053802 0.00051624
-0.004044 0.00088878 0.24858 0.057635 -0.0010782 0.005798 0.0015415 0.00040453
0.001194 -0.0011727 0.00053105 0.0001939
0.0026306 0.0017626 -0.0010305 0.0058049 0.019164 -0.23343 -0.0010347 -0.0013375
0.002067 -0.0012204 0.0017236 0.0013792
-0.0022881 0.0035055 0.0015343 0.00036185 -0.0010281 -0.0013727 0.062007 -0.1744
0.00049963 0.0024627 -0.00020895 0.0022793
0.0012394 0.00012853 0.0011931 -0.0011853 0.0021001 -0.0012063 0.00050489 0.0024458
0.24001 -0.041043 0.00077086 -0.0033538
