!Keysight Technologies,M9804A,MY58100912,A.14.10.03
!Date: Thursday, April 27, 2023 10:28:33
!Correction: S11(C  6-Port  ) 
!S12(C  6-Port  ) 
!S13(C  6-Port  ) 
!S14(C  6-Port  ) 
!S15(C  6-Port  ) 
!S16(C  6-Port  ) 
!S21(C  6-Port  ) 
!S22(C  6-Port  ) 
!S23(C  6-Port  ) 
!S24(C  6-Port  ) 
!S25(C  6-Port  ) 
!S26(C  6-Port  ) 
!S31(C  6-Port  ) 
!S32(C  6-Port  ) 
!S33(C  6-Port  ) 
!S34(C  6-Port  ) 
!S35(C  6-Port  ) 
!S36(C  6-Port  ) 
!S41(C  6-Port  ) 
!S42(C  6-Port  ) 
!S43(C  6-Port  ) 
!S44(C  6-Port  ) 
!S45(C  6-Port  ) 
!S46(C  6-Port  ) 
!S51(C  6-Port  ) 
!S52(C  6-Port  ) 
!S53(C  6-Port  ) 
!S54(C  6-Port  ) 
!S55(C  6-Port  ) 
!S56(C  6-Port  ) 
!S61(C  6-Port  ) 
!S62(C  6-Port  ) 
!S63(C  6-Port  ) 
!S64(C  6-Port  ) 
!S65(C  6-Port  ) 
!S66(C  6-Port  ) 
!S6P File: Measurement: :
# Hz S  RI   R 50
500000000 -0.3378 -0.044793 -0.010747 -0.0022873 -0.0086807 0.013108 -0.0051574 0.012485
0.012306 0.0047292 -0.0055338 0.0090652
-0.010507 -0.002551 -0.41927 -0.0558 0.0077978 -0.010746 0.0017617 0.012477
0.0066761 0.0025235 0.0013068 0.013706
-0.0086576 0.013454 0.0074282 -0.010714 -0.26717 0.20736 0.0066872 0.0036995
-0.0028355 0.0085189 0.00029952 0.012144
-0.0054971 0.012497 0.0014179 0.01244 0.0067132 0.0037262 -0.33396 0.034686
-0.022081 -0.0053549 0.017665 0.026714
0.012823 0.0041338 0.0068224 0.0023874 -0.0029206 0.0084281 -0.022024 -0.0053541
-0.21453 -0.21312 -0.028583 0.0056441
-0.0052879 0.0087255 0.0011736 0.013654 0.00032626 0.01215 0.017772 0.026738
-0.028578 0.0056998 -0.26168 -0.13712
560000000 -0.31838 0.12074 -0.023572 -0.063794 -0.00020537 0.012264 0.0055798 0.010855
0.010267 0.0047572 0.010488 0.0083497
-0.023853 -0.063484 -0.37776 0.10509 -0.04198 -0.036633 0.013736 0.0036448
-0.013968 -0.0049704 0.0029128 -0.00029254
-0.00020059 0.01237 -0.041618 -0.036974 -0.1849 0.25672 0.00042077 -0.0037935
0.019317 0.0064076 0.0073342 -0.0068158
0.0051847 0.011258 0.013562 0.0039881 0.0004159 -0.0038326 -0.3122 0.12887
0.0035676 -0.024009 0.0044793 -0.022036
0.010207 0.0047991 -0.014524 -0.005485 0.019281 0.0063706 0.0036141 -0.024028
-0.2881 -0.033854 0.0073559 -0.049911
0.010418 0.0086806 0.0034002 0.00019418 0.0074046 -0.0068155 0.0045082 -0.021931
0.0074639 -0.049823 -0.32671 0.012264
620000000 -0.27649 0.10271 -0.023194 0.0088075 0.003619 0.0089498 0.0080741 -0.005018
0.011484 0.0004441 0.0010959 -0.0027712
-0.023213 0.0088671 -0.40365 0.056977 -0.018224 0.00068861 -0.0011802 -0.0017536
0.011822 -0.0055934 0.0011718 -0.0030333
0.0037111 0.0088215 -0.018304 0.00070735 -0.15436 0.26658 -0.00052261 -0.0056292
-0.0025834 -0.0020739 0.0090774 -0.0038055
0.0081713 -0.0046063 -0.0012281 -0.0018896 -0.00044823 -0.0056662 -0.27072 0.14028
-0.039982 -0.019592 0.012883 0.027048
0.011802 -0.00023217 0.011725 -0.0055105 -0.0026591 -0.0021429 -0.039956 -0.019539
-0.20539 -0.073119 -0.043685 0.015426
0.00082882 -0.0020862 0.001136 -0.0031599 0.0091875 -0.0039239 0.012846 0.026921
-0.043638 0.015357 -0.24842 -0.025927
680000000 -0.23666 0.19076 -0.026667 -0.013795 0.0052008 0.0050893 0.0020704 -0.0069593
-0.0026376 -0.011194 0.0050073 -0.0074949
-0.026792 -0.013637 -0.38887 0.15632 -0.032212 -0.0013936 -0.0012114 -0.00053412
-0.0016519 -0.0090836 -0.0013866 -0.0020492
0.0053776 0.0049584 -0.03219 -0.0013844 -0.10214 0.28619 -0.00080578 -0.00084747
-0.0015224 0.00017622 -0.0027909 -0.0094219
0.0019239 -0.0070553 -0.0011447 -0.00053862 -0.00080081 -0.00087481 -0.22385 0.19334
-0.024323 -0.0062392 -0.010144 -0.01234
-0.0026641 -0.01124 -0.0017039 -0.0091577 -0.0015335 0.00016611 -0.024325 -0.0062242
-0.26344 0.027731 -0.0053896 -0.0068252
0.0055042 -0.0071735 -0.0010731 -0.0020041 -0.0027688 -0.0094596 -0.01017 -0.012302
-0.0054477 -0.0068618 -0.26116 0.081781
740000000 -0.19264 0.1854 -0.039269 0.02731 0.013281 -0.005304 -0.00015166 -0.0047284
-0.0043102 -0.0023634 -0.0062381 0.0021347
-0.039249 0.027239 -0.33443 0.17505 -0.035067 0.035101 -0.00055038 -0.0065701
-0.011298 0.0063763 -0.0021376 -0.0065386
0.01333 -0.00531 -0.035058 0.035155 -0.068178 0.28392 -0.0021258 0.0031144
-0.0020883 -0.0051006 -0.0014406 0.0002053
-3.1346e-05 -0.0047019 -0.00051069 -0.0065952 -0.0021198 0.0030902 -0.20709 0.20161
-0.044256 -0.006471 0.024246 0.016182
-0.004099 -0.002269 -0.011642 0.0068283 -0.0020955 -0.0050244 -0.044279 -0.006418
-0.15902 0.054743 -0.043566 0.00032048
-0.0059624 0.002327 -0.0021194 -0.0066975 -0.0014706 0.00023154 0.024272 0.016163
-0.043529 0.00031963 -0.24999 0.086421
800000000 -0.159 0.22683 -0.021839 0.016784 0.005479 -0.01049 -0.0044803 -0.0021439
-0.0040564 0.0019313 0.0045017 0.00047204
-0.021834 0.016775 -0.33868 0.2451 -0.0077676 0.033785 -0.0024473 0.0020961
-0.0010358 0.0027299 0.00095821 0.0052535
0.0053916 -0.010502 -0.0076959 0.0338 -0.027828 0.30649 0.00058669 0.00163
7.525e-05 0.0035659 -0.0016823 0.00076144
-0.0045839 -0.0021385 -0.0025388 0.0021666 0.00058837 0.0016357 -0.17769 0.23062
-0.028176 0.01465 0.014482 -0.010672
-0.0040184 0.0019495 -0.0010541 0.0026418 7.3246e-05 0.0035704 -0.028197 0.014723
-0.2095 0.081049 -0.016549 0.019499
0.0042296 0.00049534 0.00061058 0.0053001 -0.0016725 0.00077302 0.014576 -0.0107
-0.016587 0.019492 -0.24475 0.13624
860000000 -0.12415 0.24648 -0.017255 0.030439 -0.0031505 -0.009886 -0.0019727 0.00060019
0.0037034 0.0052641 -0.0035357 -0.0031407
-0.017197 0.030484 -0.29065 0.28655 0.0076941 0.033901 -0.00012712 0.002172
0.0039217 0.0002829 0.0035156 0.00086806
-0.0032125 -0.0098713 0.0078008 0.033956 0.019481 0.31411 -0.00071206 2.3603e-05
0.0028186 -0.0015832 0.0016499 0.0041182
-0.001893 0.00060377 -0.00016171 0.0020585 -0.00070873 1.6312e-05 -0.13962 0.24081
-0.017243 0.018438 -0.0058656 -0.0090215
0.0035217 0.0053748 0.0037529 0.00034461 0.0028217 -0.0015918 -0.017185 0.018466
-0.15644 0.13432 -0.026449 0.01532
-0.0035637 -0.0032157 0.0035232 0.00061474 0.0016449 0.0041124 -0.0058916 -0.009
-0.026482 0.015311 -0.19399 0.18324
920000000 -0.099674 0.26871 0.0051665 0.037453 -0.0092841 -0.004671 -0.0018981 0.0014107
0.00060309 0.0019272 0.0027931 -0.0016272
0.0052066 0.037473 -0.26249 0.30781 0.027748 0.021944 0.001405 0.0011335
0.0072014 0.00017241 0.0040425 -0.0028468
-0.0093036 -0.0046596 0.027849 0.021895 0.065253 0.31503 0.0020177 7.7818e-05
0.0011441 -0.00022199 0.00073048 -0.0013193
-0.0018721 0.0014601 0.0014215 0.0010725 0.0020186 7.091e-05 -0.11588 0.25762
-0.010868 0.030934 0.0043435 -0.0068478
0.00077398 0.0019394 0.0071815 0.00014978 0.0011504 -0.00020806 -0.010818 0.030987
-0.14788 0.13953 -0.0025811 0.0272
0.0027045 -0.0015588 0.003985 -0.0029725 0.00073978 -0.0013424 0.0043282 -0.0068428
-0.002555 0.027212 -0.20413 0.19722
980000000 -0.052542 0.28825 0.017253 0.029653 -0.0092207 0.0043543 0.0017978 0.00321
0.0038049 -0.001306 -0.0032361 -0.0022028
0.01717 0.029674 -0.20984 0.3419 0.032793 0.0049997 0.0021228 4.1892e-05
0.0018842 -0.0058603 -0.00016781 -0.002428
-0.0091939 0.0043675 0.032888 0.004888 0.11136 0.30872 0.00063736 -0.0012539
0.00044285 -0.0021395 0.0012599 -0.0001157
0.0018732 0.0032175 0.0021521 3.5207e-05 0.00064756 -0.0012735 -0.077089 0.26834
0.0085121 0.030926 -0.0092532 -0.0075544
0.0038288 -0.0013099 0.0018233 -0.0059037 0.00044794 -0.0021184 0.0085652 0.030922
-0.1177 0.16896 0.0050378 0.019369
-0.0031717 -0.0023084 -8.2315e-05 -0.0023892 0.0012526 -0.00013596 -0.0092178 -0.007513
0.0050234 0.019364 -0.16197 0.24309
1040000000 -0.0112 0.29677 0.032751 0.018057 -0.0015451 0.0068074 0.0022626 0.00081631
5.5237e-05 -0.0033902 -0.00028789 -0.0013568
0.032785 0.018056 -0.17469 0.35495 0.029266 -0.014595 0.0015989 -0.0017158
-0.0021234 -0.0027325 -0.0013854 -0.0027548
-0.0015208 0.0068019 0.029271 -0.014686 0.15721 0.29536 -0.00044885 -0.0017232
-0.0014894 -0.00089172 -0.00059963 -0.0010263
0.0022889 0.00082072 0.001588 -0.0017515 -0.00045626 -0.0017325 -0.050377 0.27826
0.020081 0.018543 -0.0020089 0.00080243
6.0873e-05 -0.0034186 -0.0020326 -0.0026945 -0.0014922 -0.00090381 0.020145 0.018514
-0.085653 0.1763 0.013266 0.019093
-0.00015951 -0.0012868 -0.0013925 -0.0027329 -0.00059045 -0.0010389 -0.0019864 0.00084977
0.013259 0.019105 -0.1413 0.26389
1100000000 0.033919 0.30494 0.035422 -0.0041069 0.0025812 0.0039176 0.0022035 -0.0010363
-0.0018061 -0.0032077 -0.0041273 -3.1512e-05
0.035443 -0.0040849 -0.1315 0.37229 0.015192 -0.027729 3.2032e-05 -0.0018222
-0.0034167 -0.0011252 -0.0036576 -0.00061979
0.0026065 0.0039256 0.015138 -0.02781 0.20363 0.27532 -0.0019969 3.0818e-05
-0.0019035 0.00034678 -0.0011617 -0.00019732
0.0022159 -0.0010255 1.6751e-05 -0.0018077 -0.0020066 3.2453e-05 -0.010178 0.28324
0.025669 0.0053247 -0.0028244 -0.00059293
-0.0018432 -0.0031855 -0.0033903 -0.00116 -0.0019011 0.00035158 0.02569 0.0052716
-0.069278 0.19046 0.019138 0.0088015
-0.0040823 -9.88e-05 -0.0036907 -0.0005686 -0.0011538 -0.00018844 -0.0028063 -0.00054489
0.019124 0.0088175 -0.095852 0.29563
1160000000 0.085027 0.30021 0.023581 -0.020699 0.0024887 -0.00032413 -0.00021696 -0.0020909
-0.0041607 -0.00086502 -0.00091407 0.0041474
0.023622 -0.020662 -0.088262 0.37665 -0.0035995 -0.02917 -0.0015857 -0.0017831
-0.003074 0.0023719 -0.0014979 0.0019154
0.0024785 -0.00036039 -0.0037443 -0.029185 0.24668 0.24468 -0.00094554 0.0018477
-0.00074017 0.0020912 -0.00085823 0.00020167
-0.00023261 -0.0021138 -0.0015929 -0.0017779 -0.00095531 0.0018388 0.029018 0.28044
0.022402 -0.011037 -0.0038222 0.0049761
-0.0041584 -0.00087424 -0.0030889 0.0024449 -0.00073049 0.0021018 0.022376 -0.011069
-0.035903 0.19972 0.01821 0.00077804
-0.00095525 0.0041501 -0.0014607 0.0019082 -0.00086754 0.00018823 -0.0037809 0.0050012
0.018206 0.00076463 -0.048844 0.29861
1220000000 0.12929 0.28963 0.010281 -0.029811 -0.0016864 -0.00059988 0.00026239 -0.00076505
-0.0027394 0.0022798 0.0011756 0.0020639
0.010314 -0.029809 -0.043972 0.38927 -0.016845 -0.021303 -0.0026121 0.00036717
-0.00015132 0.0032357 -0.0009231 0.0019212
-0.0016794 -0.0006084 -0.016949 -0.021247 0.28592 0.20583 0.00071446 0.0019306
0.00067919 0.0014736 0.00049423 0.000587
0.00023753 -0.00074906 -0.0025913 0.00035029 0.00071525 0.0019356 0.068734 0.27225
0.011453 -0.018104 0.0014008 0.0013659
-0.0027071 0.0022467 -0.00012687 0.003221 0.00068601 0.001485 0.01142 -0.01812
-0.014664 0.20981 0.014388 -0.012721
0.0012297 0.0021053 -0.00087836 0.0019245 0.00051246 0.00058933 0.0013986 0.0013639
0.014392 -0.012726 -0.018636 0.31627
1280000000 0.17913 0.2681 -0.0079775 -0.028178 -0.0018035 0.0027433 -0.00078074 -0.0021
-0.00096304 0.0030095 0.0024472 0.0013497
-0.0079504 -0.028155 0.0018192 0.38081 -0.023827 -0.0086819 -0.0011573 0.0014366
0.0018377 0.0021272 0.0005661 0.002126
-0.0017975 0.00275 -0.023899 -0.0085854 0.31639 0.16206 0.001726 0.00016258
0.0012754 0.0003211 0.00043951 0.00019779
-0.00079696 -0.0021179 -0.0011617 0.0013946 0.0017359 0.00016019 0.10567 0.25563
0.0016493 -0.020622 -0.00073547 0.00053961
-0.00095432 0.0030184 0.0018558 0.0021097 0.001272 0.00032078 0.001599 -0.020629
0.021313 0.21442 0.0030559 -0.014981
0.0024753 0.0013418 0.00060136 0.0021137 0.00045336 0.00020883 -0.00070872 0.00054347
0.0030392 -0.014964 0.02969 0.31912
1340000000 0.21615 0.23482 -0.017571 -0.018632 0.0010903 0.0046924 -0.0016867 -0.00098487
0.0014269 0.002746 0.0019698 -0.0012972
-0.017544 -0.018619 0.041554 0.37307 -0.021778 0.0041977 -0.00026752 0.0021145
0.002231 0.00090214 0.0013024 0.00081155
0.0010924 0.0046752 -0.021771 0.0043086 0.33855 0.11416 0.0014374 -0.00099253
0.00091517 -0.00065131 7.3463e-05 0.00023423
-0.0016874 -0.00098156 -0.00026064 0.0021225 0.0014267 -0.00099871 0.13783 0.23519
-0.0087696 -0.01811 0.00061682 0.0010635
0.0014145 0.0027203 0.0021912 0.00088141 0.0009041 -0.00064197 -0.0088095 -0.018107
0.049762 0.21097 -0.0034355 -0.013714
0.0019642 -0.0013625 0.0013762 0.00079409 7.8265e-05 0.00022355 0.00061741 0.0010421
-0.0034316 -0.013696 0.067616 0.31591
1400000000 0.24955 0.19709 -0.023178 -0.0071596 0.0054065 0.0031093 -0.0021601 0.0004859
0.0023837 0.0010473 0.00042767 -0.0014666
-0.023148 -0.0071715 0.079154 0.36038 -0.015036 0.012548 0.0014388 0.0014957
0.0013473 -0.00086395 0.0013094 0.00019332
0.0054439 0.0031021 -0.014993 0.012636 0.35164 0.060742 0.0002277 -0.0019371
1.5047e-05 -0.0004601 0.00032546 0.00015612
-0.0021864 0.00051233 0.0014579 0.001489 0.00023257 -0.0019288 0.16677 0.20625
-0.015332 -0.011315 -0.00087892 0.00015044
0.0023773 0.0010395 0.0013559 -0.00087594 1.4737e-05 -0.00045871 -0.01536 -0.011286
0.082517 0.20846 -0.0098723 -0.0090092
0.00041425 -0.0014711 0.0013308 0.00024764 0.00034619 0.00017466 -0.00088789 0.00011107
-0.0098684 -0.0090142 0.1128 0.30609
1460000000 0.27261 0.15318 -0.020094 0.0049251 0.0058579 -0.0019147 -0.001692 0.0017938
0.0021759 -0.0003163 -0.00029972 -0.0011197
-0.020089 0.0048915 0.11374 0.3386 -0.0061708 0.015532 0.0018927 0.00024911
0.0009326 -0.0014728 0.0011702 -0.0006645
0.0058353 -0.0019136 -0.0061177 0.015586 0.35766 0.0065213 -0.0014149 -0.0015441
6.637e-05 -0.00033813 0.00054656 -0.00033506
-0.0016863 0.0018052 0.0019138 0.00024659 -0.0014087 -0.0015414 0.19222 0.17724
-0.017236 -0.0041666 -0.00059832 0.0026434
0.0022112 -0.00035231 0.0009251 -0.0014833 7.1537e-05 -0.00033287 -0.017258 -0.0041236
0.111 0.19526 -0.011684 -0.0027572
-0.00036047 -0.001138 0.0011927 -0.00067056 0.00053357 -0.00032752 -0.00058411 0.0026297
-0.011672 -0.002738 0.14638 0.28563
1520000000 0.2852 0.1115 -0.014398 0.01028 0.0034957 -0.0043436 6.7344e-06 0.0027239
0.0023252 -0.0016203 -0.0011769 -0.00025288
-0.014387 0.01026 0.14763 0.32392 0.0016319 0.013321 0.001825 -0.0008526
-1.8458e-05 -0.0011511 0.00032599 -0.00098509
0.0034779 -0.0043599 0.0017006 0.013323 0.35123 -0.049418 -0.0014194 -0.00039602
0.00068567 -0.00077173 5.1542e-05 -0.00014205
3.5939e-05 0.0027235 0.0018575 -0.00085726 -0.0014041 -0.00038832 0.21453 0.14032
-0.016903 0.0025886 0.0018901 0.0022925
0.0023139 -0.0016784 -2.5856e-05 -0.0011669 0.00068156 -0.00076328 -0.016886 0.002627
0.13887 0.18302 -0.011792 0.0014275
-0.0011985 -0.00025032 0.00036417 -0.0010053 6.1076e-05 -0.00014505 0.0018828 0.0023082
-0.01182 0.0014244 0.18035 0.26658
1580000000 0.29481 0.065063 -0.0077811 0.013259 -0.00092508 -0.005159 0.0015312 0.0020596
-2.9792e-05 -0.0022081 -0.00034436 0.00047176
-0.0077941 0.013253 0.17519 0.29891 0.0053782 0.0084124 0.00051005 -0.0017692
-0.00062075 -0.0010654 -0.00020172 -0.00083797
-0.00094962 -0.0051252 0.0054267 0.0083972 0.33115 -0.10704 -0.0017938 0.00093496
-0.00030376 -0.0011836 0.00012636 -0.00050937
0.0015365 0.0020464 0.0004959 -0.0017869 -0.0017984 0.00094566 0.22768 0.10243
-0.013214 0.0084031 0.0026678 0.00077343
-2.6471e-05 -0.002214 -0.00063755 -0.0010647 -0.00031285 -0.0012001 -0.013217 0.0084469
0.16361 0.16665 -0.0093045 0.0074608
-0.00037407 0.00045382 -0.00023816 -0.00081016 0.00013217 -0.00049402 0.0026556 0.00074544
-0.0093145 0.0074643 0.2135 0.24021
1640000000 0.29697 0.023607 -0.0011663 0.012091 -0.0027988 -0.0027026 0.0028949 0.001011
-0.00050647 -0.0017419 -0.00027828 0.00062798
-0.0011593 0.012079 0.2049 0.27382 0.0061854 0.0034736 -0.00079656 -0.0019154
-0.0010557 -0.00039223 -0.00046669 -0.00078909
-0.0028111 -0.0026942 0.0062105 0.0034438 0.30324 -0.15651 -0.00054288 0.0017513
-0.0010702 -0.0011969 -6.4868e-05 -0.0004151
0.0028964 0.00099597 -0.00081451 -0.0019162 -0.00053637 0.0017374 0.24001 0.055702
-0.008396 0.010432 0.0029781 -0.00094976
-0.00050652 -0.0017598 -0.0010468 -0.00038447 -0.0010721 -0.0011949 -0.0083862 0.010465
0.18643 0.1435 -0.0044995 0.0095571
-0.00030306 0.00062388 -0.00049394 -0.00079084 -8.9634e-05 -0.00043544 0.0030112 -0.00096973
-0.0045143 0.0095421 0.23935 0.21002
1700000000 0.28965 -0.021935 0.0021299 0.009184 -0.003646 3.6748e-05 0.0031356 -0.0014256
-0.0021155 -0.00095138 0.0006778 0.00045145
0.0021283 0.0091904 0.22319 0.242 0.0040942 0.00052099 -0.0016549 -0.00064195
-0.00078444 8.0654e-05 -0.00098727 -0.00050887
-0.003629 7.472e-05 0.0041116 0.00049581 0.25965 -0.19637 0.00080639 0.001618
-0.0021298 -0.00025612 -0.00038795 -0.00087455
0.0031553 -0.0014577 -0.0016566 -0.00061608 0.0008167 0.0016342 0.23789 0.0080345
-0.0048379 0.011512 0.0017627 -0.0024898
-0.0021001 -0.00093249 -0.0007842 9.1636e-05 -0.002143 -0.00025582 -0.0048315 0.011524
0.20421 0.12451 0.00012755 0.0098353
0.00069188 0.00044722 -0.00097282 -0.00050834 -0.00038465 -0.00088779 0.0017399 -0.0024917
0.00015619 0.0098312 0.25695 0.17566
1760000000 0.2772 -0.070638 0.0042699 0.0059033 -0.0024877 0.0010273 0.0011738 -0.0035774
-0.0015418 0.00062526 0.00045456 -0.0006273
0.0042669 0.0058788 0.24905 0.20184 0.0016897 -0.0013767 -0.0013091 0.00029744
-0.00098811 0.00095949 -0.00063688 0.00037837
-0.0024861 0.0010313 0.0016823 -0.0013818 0.21049 -0.22982 0.0013807 0.00085863
-0.001316 0.0014911 -0.0013369 -0.00060083
0.0011607 -0.0036115 -0.00131 0.00028122 0.0013664 0.00086268 0.23095 -0.041608
-0.00043597 0.010597 -0.00014843 -0.0029165
-0.0015434 0.00062448 -0.00096141 0.00096742 -0.0013208 0.0014769 -0.00041771 0.010588
0.21957 0.09055 0.0043495 0.0072534
0.00043477 -0.00060589 -0.00064445 0.00035848 -0.0013263 -0.0005762 -0.00017521 -0.0029315
0.0043657 0.0072632 0.26993 0.13825
1820000000 0.25242 -0.10784 0.0043629 0.0023475 -0.00013126 0.0025489 -0.0012819 -0.00314
-0.0013742 0.00094823 -7.6225e-05 -8.2631e-05
0.0043455 0.0023544 0.25901 0.1715 -0.00044685 -0.00029037 -0.001333 0.0010919
2.2092e-05 0.0012478 -0.00061904 0.0006146
-0.00012592 0.0025455 -0.00045701 -0.00027945 0.16023 -0.24555 0.0013848 7.8017e-05
-0.00018307 0.0024541 -0.0013478 0.00024655
-0.0012653 -0.0031525 -0.0013063 0.0010821 0.0013855 0.00010871 0.20374 -0.088192
0.0018219 0.0085864 -0.0018141 -0.0018225
-0.0013539 0.00097678 3.4766e-05 0.0012653 -0.00019865 0.0024681 0.0018454 0.0085946
0.23735 0.062663 0.005227 0.0034951
-8.9973e-05 -9.1224e-05 -0.00062819 0.00058284 -0.0013547 0.00026691 -0.0018021 -0.0018321
0.0052201 0.0035024 0.27305 0.1026
1880000000 0.21713 -0.14798 0.0020392 0.00019376 -0.00044167 0.002183 -0.0030942 -0.0021574
-0.00026253 0.0019802 0.00012766 -0.00056194
0.0020256 0.0002039 0.26311 0.12464 -0.0024973 0.0016165 -5.1738e-05 0.0016567
0.00051838 0.0011282 7.9889e-05 0.00099619
-0.00046025 0.0021768 -0.0024919 0.0016184 0.10807 -0.25468 0.0015449 -0.00080024
0.0015864 0.002069 -0.0010071 0.0013725
-0.0031225 -0.0021307 -3.4659e-05 0.0016656 0.0015557 -0.00075911 0.16596 -0.12943
0.0031357 0.0058461 -0.0027323 0.0001503
-0.0002495 0.001941 0.00055839 0.0011243 0.0015591 0.0020661 0.0031654 0.0058681
0.24113 0.030952 0.0055218 0.0012737
0.0001121 -0.00053242 9.6236e-05 0.0010042 -0.00098498 0.0014009 -0.0026971 0.00012841
0.0054876 0.0012893 0.27334 0.068012
1940000000 0.17777 -0.17365 -0.00028262 -0.0013381 0.0013294 0.0021064 -0.0036576 0.00068608
0.0014718 0.001268 -0.00070689 -0.00046456
-0.00029933 -0.0013312 0.26327 0.092811 -0.0012551 0.0039131 0.0010026 0.0012539
0.0016978 0.00051588 0.00091078 0.0003777
0.0013315 0.0020899 -0.0012109 0.0039142 0.062275 -0.24791 0.00032749 -0.0017938
0.0024013 0.00050384 0.00052642 0.0017776
-0.0036739 0.00074819 0.0010145 0.0012716 0.00030043 -0.0017972 0.1154 -0.16201
0.0024491 0.0036136 -0.0017777 0.0014751
0.0015073 0.0012257 0.0017172 0.00049519 0.0024219 0.00048192 0.0024538 0.0036444
0.24439 -0.0072373 0.0040112 -0.002323
-0.00075517 -0.00045804 0.00091407 0.00039565 0.00047983 0.00178 -0.0017361 0.0015161
0.0039939 -0.0023097 0.26277 0.032445
2000000000 0.13126 -0.18816 -0.0041396 0.00091974 0.0025927 0.0017628 -0.0023369 0.0034597
0.001207 0.00014481 -0.00066481 0.00048499
-0.0041515 0.00090863 0.24863 0.057463 -0.0011022 0.0058071 0.0014931 0.00036298
0.0012643 -0.0012363 0.00045756 0.00015205
0.0025833 0.0017592 -0.0010539 0.0058285 0.019067 -0.23348 -0.0010581 -0.0012821
0.0020892 -0.0012332 0.0017278 0.0014082
-0.0022705 0.0035233 0.0015306 0.00037637 -0.0010601 -0.0013091 0.061842 -0.17445
0.00052789 0.002421 -0.00021664 0.0023368
0.0012765 0.00010222 0.0012243 -0.0012107 0.0021056 -0.0012334 0.00055295 0.0024296
0.2399 -0.041174 0.00067601 -0.0034067
