!Keysight Technologies,M9804A,MY58100912,A.14.10.03
!Date: Thursday, April 27, 2023 10:28:33
!Correction: S11(C  6-Port  ) 
!S12(C  6-Port  ) 
!S13(C  6-Port  ) 
!S14(C  6-Port  ) 
!S15(C  6-Port  ) 
!S16(C  6-Port  ) 
!S21(C  6-Port  ) 
!S22(C  6-Port  ) 
!S23(C  6-Port  ) 
!S24(C  6-Port  ) 
!S25(C  6-Port  ) 
!S26(C  6-Port  ) 
!S31(C  6-Port  ) 
!S32(C  6-Port  ) 
!S33(C  6-Port  ) 
!S34(C  6-Port  ) 
!S35(C  6-Port  ) 
!S36(C  6-Port  ) 
!S41(C  6-Port  ) 
!S42(C  6-Port  ) 
!S43(C  6-Port  ) 
!S44(C  6-Port  ) 
!S45(C  6-Port  ) 
!S46(C  6-Port  ) 
!S51(C  6-Port  ) 
!S52(C  6-Port  ) 
!S53(C  6-Port  ) 
!S54(C  6-Port  ) 
!S55(C  6-Port  ) 
!S56(C  6-Port  ) 
!S61(C  6-Port  ) 
!S62(C  6-Port  ) 
!S63(C  6-Port  ) 
!S64(C  6-Port  ) 
!S65(C  6-Port  ) 
!S66(C  6-Port  ) 
!S6P File: Measurement: :
# Hz S  RI   R 50
500000000 -0.33799 -0.045261 -0.010495 -0.0019505 -0.0084994 0.013749 -0.0054212 0.012708
0.012687 0.0039893 -0.0053091 0.0086848
-0.010467 -0.0022913 -0.41943 -0.055416 0.0075537 -0.0106 0.0017935 0.012891
0.0067602 0.0025021 0.0014913 0.014121
-0.00846 0.013321 0.0074865 -0.010524 -0.26761 0.20743 0.0069272 0.0039897
-0.0029405 0.0083926 0.00072851 0.012655
-0.005409 0.012506 0.0013628 0.01282 0.00691 0.0039857 -0.33422 0.034359
-0.021623 -0.0050618 0.017407 0.026183
0.01249 0.004195 0.0069552 0.002423 -0.0029631 0.0084525 -0.021614 -0.0050447
-0.21504 -0.21345 -0.028074 0.0059122
-0.0054392 0.0083928 0.00090935 0.013906 0.00053926 0.012599 0.017419 0.0262
-0.028069 0.0059252 -0.26177 -0.13815
560000000 -0.31842 0.12065 -0.023234 -0.06408 -0.00011086 0.01267 0.0054496 0.011005
0.010551 0.004688 0.010558 0.0085072
-0.02376 -0.063816 -0.37754 0.10472 -0.041924 -0.036884 0.013643 0.0038459
-0.014031 -0.0052306 0.003417 -3.9351e-05
9.7119e-06 0.012005 -0.042167 -0.036958 -0.18465 0.25744 0.00033065 -0.0042507
0.01927 0.0063938 0.0074581 -0.0063858
0.0053428 0.011283 0.014215 0.0039252 7.0109e-05 -0.0040833 -0.31232 0.12937
0.0038088 -0.023708 0.0042653 -0.022057
0.01008 0.0044628 -0.014301 -0.0050338 0.019288 0.006179 0.0038158 -0.02369
-0.28879 -0.03417 0.0085092 -0.049836
0.010778 0.0083419 0.0036001 -0.00031083 0.0073564 -0.0062439 0.0042644 -0.022092
0.0084649 -0.049857 -0.32779 0.012561
620000000 -0.27623 0.10274 -0.023045 0.0088776 0.003695 0.0089934 0.0082124 -0.0044488
0.011846 -0.00015883 0.00086207 -0.0022159
-0.023057 0.0087633 -0.40363 0.056875 -0.018258 0.00063414 -0.001223 -0.0018902
0.011854 -0.005541 0.0012248 -0.0031604
0.0037398 0.0089951 -0.01826 0.00077282 -0.15427 0.2666 -0.00042273 -0.0054116
-0.0024704 -0.0025896 0.0092235 -0.0037135
0.0079841 -0.0046097 -0.0012654 -0.0017749 -0.00043156 -0.0053865 -0.27056 0.14005
-0.040363 -0.01905 0.013145 0.026654
0.011841 9.6082e-05 0.011995 -0.0055341 -0.0024957 -0.0025325 -0.040361 -0.019001
-0.20446 -0.074063 -0.044284 0.015996
0.00042669 -0.0023431 0.001144 -0.0030962 0.0092211 -0.0035672 0.013155 0.026654
-0.044268 0.015977 -0.24801 -0.026531
680000000 -0.23649 0.19069 -0.02673 -0.013746 0.0052166 0.0049668 0.001945 -0.0070449
-0.002803 -0.011087 0.0050841 -0.0074633
-0.026745 -0.013709 -0.38892 0.15631 -0.032225 -0.0014541 -0.0012074 -0.00055133
-0.0017472 -0.0093075 -0.0011594 -0.0020726
0.0053273 0.0051289 -0.032203 -0.0013346 -0.10217 0.28627 -0.00075273 -0.00085288
-0.0014673 0.00017313 -0.0028128 -0.0095337
0.0020485 -0.0069343 -0.0012289 -0.00054581 -0.00067626 -0.00083608 -0.22406 0.19318
-0.024347 -0.0060275 -0.010345 -0.012477
-0.0025448 -0.011222 -0.0016288 -0.0092573 -0.001448 0.00013236 -0.024361 -0.0059919
-0.26349 0.027475 -0.0058811 -0.0065086
0.0051049 -0.0070185 -0.0011942 -0.0019296 -0.0027499 -0.0094426 -0.010415 -0.012456
-0.0058839 -0.0064944 -0.26055 0.08127
740000000 -0.19257 0.18493 -0.039288 0.027238 0.013229 -0.0053279 -0.00010744 -0.0045474
-0.0043383 -0.0022029 -0.0063286 0.0022853
-0.039215 0.027354 -0.33431 0.17485 -0.03514 0.03514 -0.00060061 -0.0065395
-0.011779 0.0066368 -0.0021507 -0.006701
0.013271 -0.0052866 -0.035023 0.035204 -0.068239 0.28383 -0.0021831 0.0030184
-0.002214 -0.00502 -0.0014965 0.00018849
-9.6496e-05 -0.0046375 -0.00070546 -0.0065992 -0.0022283 0.0030913 -0.20708 0.20155
-0.04467 -0.0064066 0.024573 0.016031
-0.0041239 -0.0024768 -0.011292 0.0066275 -0.0021911 -0.0049862 -0.044678 -0.0063402
-0.15939 0.055498 -0.044204 0.00063636
-0.0061911 0.0022621 -0.0022498 -0.0067699 -0.0016457 0.00022179 0.024579 0.015991
-0.044179 0.00057544 -0.24924 0.086409
800000000 -0.15893 0.22685 -0.021725 0.016771 0.005452 -0.010495 -0.004676 -0.002274
-0.0040143 0.0018749 0.0042706 0.00027291
-0.021818 0.016803 -0.33855 0.24502 -0.0077604 0.03374 -0.0025317 0.0020535
-0.000921 0.0026384 0.00085993 0.0050784
0.005386 -0.010482 -0.0076829 0.033781 -0.027837 0.3065 0.00053477 0.0016229
1.2697e-05 0.0034232 -0.0018153 0.00082947
-0.0045948 -0.0020837 -0.0024625 0.0020675 0.00053555 0.0016743 -0.17759 0.23054
-0.02841 0.014646 0.014531 -0.01057
-0.0041207 0.0019579 -0.00095296 0.0026348 6.432e-05 0.0034384 -0.028394 0.014697
-0.20945 0.080686 -0.016872 0.019194
0.0041633 0.00038364 0.00093894 0.0051358 -0.0018585 0.00084002 0.014572 -0.010645
-0.016909 0.019144 -0.24511 0.1367
860000000 -0.12395 0.24649 -0.017071 0.030433 -0.0031684 -0.0098754 -0.0019779 0.00052617
0.0036951 0.005186 -0.0033924 -0.0030835
-0.01714 0.030381 -0.29057 0.28641 0.0076485 0.033968 -0.00018812 0.0021424
0.0038839 0.00040137 0.003335 0.00085808
-0.003192 -0.0098863 0.0077754 0.033952 0.019451 0.31414 -0.00072125 1.7468e-05
0.0028364 -0.0016212 0.0016523 0.0041763
-0.0018774 0.00061439 -0.00010224 0.0021463 -0.00070386 2.1461e-06 -0.13979 0.24067
-0.017164 0.018307 -0.0060218 -0.0088186
0.0036122 0.0051001 0.0038371 0.00038482 0.0028061 -0.0016379 -0.01715 0.018348
-0.15637 0.13396 -0.026264 0.01578
-0.0035115 -0.0031775 0.003374 0.00079462 0.0016241 0.004165 -0.006038 -0.0088331
-0.026245 0.015774 -0.19457 0.18281
920000000 -0.099661 0.26861 0.0052166 0.037504 -0.0092953 -0.0047077 -0.0018983 0.0014779
0.00077724 0.001934 0.0026608 -0.001452
0.0051139 0.03744 -0.26249 0.30782 0.027776 0.021954 0.0014073 0.001134
0.0071875 0.00020228 0.0039476 -0.0028515
-0.0092618 -0.0046867 0.027867 0.021913 0.065225 0.31502 0.0020043 0.00012649
0.0012116 -0.00024543 0.0007239 -0.0012116
-0.001738 0.0014495 0.0014383 0.0011044 0.0020079 0.00010373 -0.11598 0.25764
-0.010787 0.031019 0.004329 -0.006764
0.0007644 0.0019151 0.0071887 0.00024318 0.0011975 -0.00026601 -0.010722 0.031054
-0.14791 0.13988 -0.0024419 0.027197
0.0029007 -0.0015623 0.0039748 -0.0028987 0.00074515 -0.0012639 0.0043206 -0.0067385
-0.0024558 0.027198 -0.20417 0.1974
980000000 -0.052491 0.28826 0.017209 0.029683 -0.0091991 0.0043401 0.0018098 0.0032386
0.0037845 -0.0011848 -0.0031252 -0.0022896
0.017185 0.02968 -0.20993 0.34191 0.032822 0.0050104 0.0021632 5.3962e-05
0.0018285 -0.0056956 3.5739e-05 -0.0024559
-0.0091804 0.0043687 0.032867 0.0048968 0.11137 0.30871 0.00067683 -0.0012465
0.00046855 -0.0020891 0.0013261 -0.00014901
0.0018521 0.0032962 0.0021792 6.3345e-05 0.00066375 -0.0012498 -0.07718 0.26827
0.0084939 0.030948 -0.0093369 -0.0075448
0.0038517 -0.0012517 0.0018157 -0.0058386 0.00045205 -0.0020937 0.0085595 0.030936
-0.11792 0.16912 0.0050481 0.01953
-0.0031416 -0.0022272 -7.5766e-05 -0.0024548 0.0012984 -0.00015329 -0.0093288 -0.0075235
0.0050416 0.019514 -0.16222 0.24283
1040000000 -0.011111 0.29676 0.032795 0.01811 -0.001536 0.0068089 0.0022917 0.00083028
7.7964e-05 -0.0034342 -0.00021639 -0.0013409
0.032804 0.01814 -0.17462 0.35497 0.029297 -0.014564 0.001589 -0.0016936
-0.0020833 -0.0027652 -0.0014143 -0.0027266
-0.0015211 0.0068213 0.029307 -0.01469 0.15719 0.29537 -0.00045728 -0.0017154
-0.0015084 -0.0009629 -0.00058145 -0.00098413
0.0023093 0.00082866 0.0016141 -0.0017532 -0.00044269 -0.0017213 -0.050381 0.27828
0.020123 0.018611 -0.0020618 0.00080018
3.5347e-05 -0.0033802 -0.002037 -0.0027558 -0.0014886 -0.00097791 0.020155 0.018591
-0.085844 0.17641 0.013288 0.019187
-0.00017289 -0.001329 -0.001304 -0.0026936 -0.00057097 -0.00099515 -0.0020765 0.00082031
0.013247 0.019195 -0.14127 0.26368
1100000000 0.033884 0.30495 0.03543 -0.0040957 0.0025938 0.0039362 0.0022192 -0.0010232
-0.0018038 -0.0031817 -0.0040785 -9.3612e-05
0.035433 -0.0040506 -0.13156 0.37231 0.015217 -0.027713 3.5402e-05 -0.0018048
-0.0033929 -0.0011144 -0.0036659 -0.00065822
0.002598 0.0039057 0.015127 -0.027822 0.20365 0.27534 -0.0020134 5.9663e-05
-0.0019114 0.00033422 -0.0012053 -0.00023243
0.0021889 -0.0010265 4.3685e-05 -0.0018651 -0.0020102 3.5345e-05 -0.010188 0.28326
0.025629 0.0053884 -0.0028965 -0.00055249
-0.0018085 -0.0032049 -0.0034449 -0.0010814 -0.0019009 0.00034483 0.025658 0.0053434
-0.069366 0.19038 0.019138 0.0087937
-0.0041267 -0.00010619 -0.0036068 -0.00066256 -0.0011823 -0.00022204 -0.0029294 -0.00054306
0.019131 0.008804 -0.095952 0.29571
1160000000 0.085017 0.30021 0.023625 -0.020678 0.0024986 -0.00033369 -0.00024168 -0.0020995
-0.0041353 -0.00093319 -0.0010192 0.004171
0.023631 -0.02062 -0.088285 0.37666 -0.0036244 -0.029139 -0.001624 -0.0017899
-0.0030155 0.0023512 -0.0014933 0.001912
0.0024867 -0.00035238 -0.0037302 -0.029164 0.24665 0.24468 -0.00094249 0.0018331
-0.00067727 0.0020746 -0.00087879 0.00015725
-0.00025076 -0.0020964 -0.0016404 -0.0017769 -0.00092924 0.0018171 0.028974 0.28041
0.022395 -0.011025 -0.003805 0.00496
-0.0041712 -0.00089136 -0.0030379 0.0023697 -0.00066138 0.0021034 0.022382 -0.011071
-0.035839 0.19972 0.018192 0.00085775
-0.00099544 0.0041136 -0.0015164 0.0018614 -0.00088115 0.00015458 -0.0038031 0.0049766
0.018186 0.00080229 -0.048673 0.29828
1220000000 0.12927 0.28961 0.010282 -0.029833 -0.001662 -0.00060802 0.00027296 -0.00074068
-0.0027171 0.0022235 0.0011643 0.0020819
0.010312 -0.029794 -0.043976 0.38924 -0.016836 -0.021301 -0.0026085 0.00034595
-0.00015511 0.0031949 -0.00092279 0.0019123
-0.0016732 -0.00062217 -0.016945 -0.021243 0.28588 0.20585 0.00071211 0.0019279
0.00069206 0.0014484 0.00049286 0.00056748
0.000233 -0.00075723 -0.0026092 0.00036342 0.0007167 0.0019372 0.068731 0.27224
0.011461 -0.018133 0.0014289 0.00138
-0.002716 0.0022745 -0.00014072 0.0032296 0.00068194 0.0014463 0.011431 -0.018162
-0.014619 0.20965 0.014311 -0.012761
0.0011326 0.00213 -0.0008982 0.0019475 0.00050268 0.00056735 0.0014191 0.0013699
0.014294 -0.012765 -0.018596 0.31635
1280000000 0.17911 0.26812 -0.0079696 -0.028185 -0.0018144 0.0027423 -0.00080168 -0.0020966
-0.0010034 0.0030658 0.0024835 0.0013818
-0.0079347 -0.028159 0.0017967 0.38079 -0.023853 -0.0086766 -0.0011492 0.0014298
0.0018479 0.0021058 0.00058295 0.0021607
-0.0017843 0.002747 -0.023904 -0.0085868 0.31637 0.16205 0.0017551 0.00015611
0.0012706 0.00030071 0.00044647 0.00019041
-0.00079432 -0.0021019 -0.0011618 0.0014191 0.0017479 0.00015737 0.10563 0.2556
0.0016127 -0.020654 -0.00071148 0.00049759
-0.00093804 0.0030164 0.0018197 0.0021465 0.0012815 0.00030303 0.0015673 -0.020657
0.021285 0.2144 0.0031155 -0.015015
0.002458 0.0013476 0.00064601 0.0021048 0.00043991 0.00019187 -0.00070369 0.00049938
0.0031235 -0.015022 0.029681 0.31921
1340000000 0.21617 0.23487 -0.017567 -0.018629 0.0010695 0.0046799 -0.0016503 -0.00099276
0.0013985 0.0027303 0.0019909 -0.0013435
-0.017532 -0.018628 0.041536 0.37306 -0.021784 0.0041907 -0.00026703 0.0021212
0.0022017 0.00090043 0.0013288 0.00081925
0.0010931 0.0046797 -0.021787 0.0043164 0.33852 0.11419 0.0014204 -0.0010186
0.00094563 -0.00066524 5.9612e-05 0.00021442
-0.001698 -0.00098271 -0.00026472 0.0021268 0.0014316 -0.0010152 0.13781 0.23522
-0.0087674 -0.018142 0.00066855 0.0010918
0.0013993 0.0027163 0.002222 0.00087054 0.00091717 -0.00065389 -0.0088153 -0.01813
0.04976 0.21102 -0.0034941 -0.013759
0.0019397 -0.0012829 0.0013313 0.00078017 7.1446e-05 0.00022095 0.00065717 0.0010795
-0.0035046 -0.013768 0.067661 0.31604
1400000000 0.24958 0.1971 -0.023172 -0.0071628 0.0054456 0.0031361 -0.002187 0.0004937
0.0023399 0.0010739 0.00045318 -0.0014491
-0.023122 -0.0071768 0.079102 0.36037 -0.015021 0.012533 0.0014497 0.0014766
0.001352 -0.0008628 0.0013515 0.00019721
0.0054495 0.0031201 -0.01498 0.012637 0.35163 0.060766 0.0002252 -0.0019308
2.6343e-05 -0.00047126 0.00034642 0.00022953
-0.0021945 0.0005163 0.0014429 0.0014806 0.00021361 -0.0019492 0.16675 0.20629
-0.01531 -0.011317 -0.00091352 9.1494e-05
0.0023534 0.001063 0.0013484 -0.00087227 1.4961e-05 -0.0004611 -0.015336 -0.01129
0.082512 0.20836 -0.0099014 -0.0089688
0.00044196 -0.0014575 0.0013253 0.00017011 0.00031943 0.00019038 -0.00091932 0.0001085
-0.009897 -0.0089656 0.11284 0.30601
1460000000 0.27259 0.15324 -0.020098 0.0049069 0.0058396 -0.0018982 -0.0016724 0.0018354
0.0022068 -0.00029375 -0.00033741 -0.0011339
-0.020093 0.0048859 0.1137 0.33861 -0.006197 0.015571 0.001923 0.00025262
0.00094147 -0.0014671 0.001223 -0.00065469
0.0058334 -0.0019133 -0.0061152 0.015598 0.35766 0.0065566 -0.0014112 -0.0015356
8.5817e-05 -0.00033839 0.00048349 -0.0003586
-0.0016839 0.0017973 0.0019081 0.00023678 -0.0014201 -0.0015407 0.19218 0.17726
-0.017298 -0.0041536 -0.00060423 0.0026153
0.0021867 -0.00032093 0.00090629 -0.0014604 8.6577e-05 -0.00033366 -0.017318 -0.0041249
0.11088 0.19527 -0.0117 -0.0027905
-0.00033265 -0.0011557 0.0011949 -0.00070764 0.00048333 -0.00038151 -0.00060339 0.0026022
-0.011695 -0.0027921 0.14643 0.28564
1520000000 0.2852 0.11153 -0.014402 0.010271 0.0035058 -0.0043224 3.8559e-05 0.002716
0.0023438 -0.0016487 -0.0011836 -0.00026763
-0.014389 0.01025 0.14762 0.32389 0.0016242 0.01333 0.0018519 -0.00084423
-6.2916e-06 -0.0011576 0.00035143 -0.00099555
0.0034647 -0.0043613 0.0016937 0.013332 0.3512 -0.04939 -0.0014011 -0.00038692
0.00067476 -0.00076875 9.4977e-05 -0.00011365
5.4066e-05 0.0027275 0.001855 -0.00086247 -0.0013871 -0.00039762 0.21451 0.14031
-0.01692 0.0025974 0.0018746 0.0023015
0.0023445 -0.0016602 -1.9607e-05 -0.0011577 0.0006955 -0.00076646 -0.01692 0.0026581
0.13878 0.18297 -0.011815 0.001427
-0.0011354 -0.00023535 0.00035761 -0.00098904 8.1822e-05 -0.00013513 0.001895 0.002271
-0.011826 0.0014176 0.18031 0.26667
1580000000 0.29478 0.065123 -0.0077875 0.013259 -0.00090092 -0.0051345 0.0015321 0.0020652
2.8276e-06 -0.0021964 -0.00038984 0.00045247
-0.0077998 0.01326 0.17517 0.29893 0.0053803 0.0083883 0.00050264 -0.0017778
-0.00061248 -0.0010696 -0.0002493 -0.00081382
-0.00094808 -0.0051257 0.0054267 0.0083877 0.33116 -0.10702 -0.0018187 0.00095375
-0.00034119 -0.0011494 0.00010251 -0.0004795
0.0015527 0.0020574 0.00049146 -0.0017896 -0.0018068 0.00096353 0.2277 0.10244
-0.01325 0.0084113 0.0027258 0.00081651
-8.5767e-06 -0.0022104 -0.00063344 -0.0010563 -0.00035785 -0.0011523 -0.013227 0.0084546
0.16357 0.16656 -0.0093269 0.0074646
-0.0003721 0.00048978 -0.00021644 -0.00082229 0.00012547 -0.0004847 0.002712 0.00078851
-0.0093248 0.0074739 0.21353 0.24015
1640000000 0.29695 0.023633 -0.0011632 0.012093 -0.0028185 -0.0026992 0.0028939 0.0010144
-0.00046173 -0.0017947 -0.00034707 0.00061853
-0.0011815 0.012097 0.20487 0.27385 0.0061773 0.0034743 -0.0007682 -0.0019192
-0.0010302 -0.00038565 -0.00046878 -0.00080135
-0.0028327 -0.0026702 0.0062036 0.0034322 0.30325 -0.15646 -0.00055094 0.0017408
-0.0010668 -0.0011867 -2.7265e-05 -0.00043118
0.0028888 0.00098724 -0.00079319 -0.0019048 -0.00055086 0.0017481 0.23998 0.055681
-0.0084688 0.01041 0.002958 -0.00096826
-0.00047565 -0.0017653 -0.0010654 -0.0003751 -0.0010962 -0.0011837 -0.0084298 0.010437
0.18632 0.14353 -0.0046123 0.009519
-0.00035354 0.00059565 -0.00046667 -0.00079858 -1.2036e-05 -0.00042857 0.0029416 -0.00096945
-0.0046122 0.0095302 0.23932 0.21003
1700000000 0.28965 -0.021921 0.0021289 0.0091881 -0.0036315 4.0975e-05 0.0031449 -0.0014549
-0.0021174 -0.00096208 0.00067436 0.0004431
0.0021187 0.0091854 0.22317 0.24202 0.0040954 0.00052586 -0.001649 -0.00062263
-0.00078271 0.00010486 -0.00094961 -0.00052178
-0.0036666 7.6327e-05 0.0041026 0.00050851 0.25966 -0.19633 0.00077462 0.0016494
-0.00215 -0.00026906 -0.00040916 -0.00086034
0.0031494 -0.0014641 -0.0016453 -0.00061576 0.00076019 0.001641 0.2379 0.0080036
-0.0048347 0.01154 0.0017684 -0.0025136
-0.0021128 -0.00093949 -0.00078475 9.7004e-05 -0.0021487 -0.00026945 -0.0048008 0.011549
0.20418 0.12451 0.00016343 0.0099171
0.00069547 0.00042728 -0.00097429 -0.00051319 -0.00041976 -0.00084991 0.0017455 -0.0025234
0.000163 0.0099193 0.2569 0.17561
1760000000 0.2772 -0.070596 0.0042843 0.005888 -0.0024921 0.0010184 0.0011705 -0.0036028
-0.0015477 0.00059551 0.00044999 -0.00063532
0.0042676 0.0058721 0.24904 0.20186 0.0016918 -0.0013738 -0.0013263 0.00027218
-0.00098043 0.00093298 -0.00066009 0.00035222
-0.0024626 0.0010229 0.0016808 -0.00138 0.21047 -0.22978 0.0013004 0.00086115
-0.0013237 0.0014411 -0.0013694 -0.000617
0.0011742 -0.0035973 -0.0013205 0.00028676 0.0013399 0.00083865 0.23091 -0.041555
-0.00050474 0.01059 -0.00015779 -0.0029434
-0.001539 0.00064388 -0.00099257 0.00095162 -0.0012946 0.0014698 -0.00047592 0.010601
0.21936 0.090557 0.0043806 0.0072415
0.00044136 -0.00061102 -0.00064748 0.00036801 -0.0013419 -0.00061618 -0.00016659 -0.0029316
0.0043854 0.0072418 0.26988 0.13813
1820000000 0.25243 -0.10781 0.0043605 0.0023431 -0.00012633 0.0025206 -0.0012358 -0.0031428
-0.001369 0.00098919 -2.2707e-05 -8.0738e-05
0.004343 0.0023478 0.259 0.17151 -0.00044407 -0.00029929 -0.0013186 0.0010896
1.1392e-05 0.0012581 -0.00060697 0.00060769
-0.00011956 0.0025284 -0.00045837 -0.00029076 0.16031 -0.24555 0.0014035 0.00013699
-0.00021276 0.0025031 -0.0013437 0.00033592
-0.0012389 -0.0031093 -0.0013163 0.0011009 0.0013663 0.0001181 0.20369 -0.088209
0.0018507 0.0086125 -0.0017743 -0.0018807
-0.0013456 0.0010211 3.2372e-05 0.0012554 -0.00019989 0.0024871 0.0018766 0.0086002
0.2373 0.062825 0.0052772 0.0035304
-3.304e-05 -4.4876e-05 -0.0006088 0.0006138 -0.0013636 0.00031878 -0.001805 -0.0018697
0.0052851 0.0035221 0.27309 0.10252
1880000000 0.21715 -0.14796 0.0020272 0.00020027 -0.00047672 0.002176 -0.0031102 -0.0021179
-0.0002814 0.0019821 0.0001239 -0.00055341
0.0020154 0.00019432 0.26309 0.12468 -0.0025249 0.0015972 -6.2336e-05 0.0016813
0.00051775 0.0011221 7.6701e-05 0.0010223
-0.00047084 0.0021638 -0.0025186 0.00163 0.10803 -0.25463 0.0015365 -0.00077464
0.0015729 0.002036 -0.0010603 0.0014163
-0.0031085 -0.0021516 -5.3976e-05 0.0016803 0.0015314 -0.0007889 0.16604 -0.1294
0.0031689 0.005884 -0.0026391 0.00019625
-0.00022592 0.0019726 0.00052753 0.0011279 0.001604 0.0020537 0.0031776 0.0058683
0.24111 0.031074 0.0054926 0.0013395
9.6999e-05 -0.00057101 0.00010339 0.001022 -0.0010376 0.0013405 -0.0026489 0.00017065
0.005501 0.0013476 0.27351 0.068119
1940000000 0.17778 -0.17363 -0.00029949 -0.0013454 0.0013193 0.0021018 -0.0036571 0.00073673
0.0014976 0.0012502 -0.00075376 -0.00046092
-0.00029212 -0.0013289 0.26325 0.092834 -0.0012367 0.0039109 0.0010343 0.0012625
0.0017152 0.00050962 0.00088191 0.0003724
0.0013328 0.0021426 -0.001228 0.0039365 0.062269 -0.2479 0.00027246 -0.0018089
0.0024011 0.00047747 0.0004327 0.0016931
-0.0036493 0.00072833 0.0010179 0.0012737 0.00026966 -0.0018391 0.11532 -0.16205
0.0024585 0.0035523 -0.0018202 0.00158
0.0015297 0.0012658 0.0016935 0.00050104 0.002432 0.00048213 0.0024709 0.0035418
0.24445 -0.0070506 0.0040278 -0.002336
-0.00072848 -0.00048171 0.00089203 0.00035055 0.00046161 0.0016753 -0.0018091 0.0015699
0.0040479 -0.0023271 0.26278 0.032593
2000000000 0.13129 -0.18816 -0.0041388 0.00090403 0.0026127 0.0018145 -0.0023539 0.0035229
0.0012054 0.00011711 -0.00065031 0.00052169
-0.0041549 0.0008957 0.24861 0.057486 -0.0010832 0.0058276 0.001482 0.00040987
0.0012076 -0.0012276 0.00049999 0.00021002
0.0025875 0.0017897 -0.0010472 0.0058253 0.019103 -0.23351 -0.0010906 -0.0012963
0.002068 -0.0012351 0.0017025 0.0013998
-0.0022809 0.0035552 0.0015288 0.00039223 -0.0010957 -0.0012938 0.061891 -0.17436
0.00054647 0.0025073 -0.00015893 0.0022627
0.0012215 0.00016055 0.0012206 -0.0011848 0.0020724 -0.0012131 0.00053759 0.0025241
0.23991 -0.040964 0.00078324 -0.0033524
