!Keysight Technologies,M9804A,MY58100912,A.14.10.03
!Date: Thursday, April 27, 2023 10:28:33
!Correction: S11(C  6-Port  ) 
!S12(C  6-Port  ) 
!S13(C  6-Port  ) 
!S14(C  6-Port  ) 
!S15(C  6-Port  ) 
!S16(C  6-Port  ) 
!S21(C  6-Port  ) 
!S22(C  6-Port  ) 
!S23(C  6-Port  ) 
!S24(C  6-Port  ) 
!S25(C  6-Port  ) 
!S26(C  6-Port  ) 
!S31(C  6-Port  ) 
!S32(C  6-Port  ) 
!S33(C  6-Port  ) 
!S34(C  6-Port  ) 
!S35(C  6-Port  ) 
!S36(C  6-Port  ) 
!S41(C  6-Port  ) 
!S42(C  6-Port  ) 
!S43(C  6-Port  ) 
!S44(C  6-Port  ) 
!S45(C  6-Port  ) 
!S46(C  6-Port  ) 
!S51(C  6-Port  ) 
!S52(C  6-Port  ) 
!S53(C  6-Port  ) 
!S54(C  6-Port  ) 
!S55(C  6-Port  ) 
!S56(C  6-Port  ) 
!S61(C  6-Port  ) 
!S62(C  6-Port  ) 
!S63(C  6-Port  ) 
!S64(C  6-Port  ) 
!S65(C  6-Port  ) 
!S66(C  6-Port  ) 
!S6P File: Measurement: :
# Hz S  RI   R 50
500000000 -0.33811 -0.044632 -0.01037 -0.0024022 -0.0085868 0.013178 -0.005257 0.012577
0.012308 0.0046782 -0.0055435 0.0090318
-0.010362 -0.0024077 -0.41887 -0.055446 0.0077758 -0.010687 0.0016863 0.012461
0.006646 0.0024966 0.0012796 0.013714
-0.0085723 0.0132 0.0077689 -0.010712 -0.26724 0.20746 0.0066904 0.0036539
-0.0028025 0.0085666 0.00039555 0.012164
-0.0052073 0.012588 0.0017368 0.012486 0.0066911 0.0036601 -0.33409 0.034722
-0.022146 -0.0054151 0.017607 0.026589
0.01227 0.0046616 0.0066629 0.002464 -0.0028017 0.008527 -0.022134 -0.0053841
-0.21449 -0.21318 -0.02865 0.0054735
-0.0055299 0.0090437 0.0013643 0.013714 0.00032102 0.012137 0.017659 0.026637
-0.028632 0.0055751 -0.26168 -0.13731
560000000 -0.31828 0.12041 -0.023286 -0.063883 -0.00021907 0.012367 0.0055513 0.010854
0.010141 0.0046438 0.010537 0.0081763
-0.02325 -0.063828 -0.3777 0.10483 -0.041933 -0.036657 0.01378 0.0037356
-0.013886 -0.0050516 0.0030152 -0.0004446
-0.00021041 0.012363 -0.042047 -0.036619 -0.18488 0.2568 0.00037224 -0.0038377
0.01941 0.0064699 0.007332 -0.0066932
0.0055982 0.010862 0.013825 0.0036862 0.00038256 -0.0038155 -0.31223 0.12895
0.003581 -0.024042 0.0044168 -0.02211
0.01018 0.0046482 -0.013921 -0.0049707 0.019352 0.0064236 0.0035541 -0.024045
-0.28813 -0.033861 0.0073192 -0.049948
0.010582 0.0082715 0.0029204 -0.0003831 0.0073847 -0.0067997 0.0044475 -0.022072
0.0073093 -0.049964 -0.32667 0.012342
620000000 -0.2769 0.10261 -0.023129 0.008994 0.0036732 0.0090039 0.008183 -0.0050779
0.01149 0.00030624 0.0011266 -0.0027496
-0.023119 0.0089801 -0.40361 0.05696 -0.018243 0.00068466 -0.0011667 -0.0017386
0.011793 -0.005624 0.0012017 -0.0029918
0.0036853 0.0089934 -0.018254 0.00073672 -0.15434 0.26665 -0.00051445 -0.0055767
-0.0025528 -0.0021532 0.0090748 -0.0037722
0.0081522 -0.0050901 -0.0011785 -0.0017365 -0.00051134 -0.0055822 -0.27059 0.14036
-0.0401 -0.019644 0.013024 0.026955
0.011505 0.00034148 0.011809 -0.0056469 -0.0025731 -0.0021421 -0.04009 -0.019619
-0.20521 -0.072961 -0.043958 0.015587
0.0011421 -0.0027231 0.0011704 -0.0030302 0.0090912 -0.0037748 0.012941 0.027038
-0.043832 0.01545 -0.24823 -0.025965
680000000 -0.23652 0.19016 -0.026646 -0.013772 0.0052549 0.0050807 0.0021428 -0.0068877
-0.0026428 -0.011151 0.0052668 -0.0074051
-0.026624 -0.01377 -0.38894 0.15636 -0.032202 -0.0013762 -0.0012018 -0.00051708
-0.0016488 -0.0090472 -0.0013112 -0.0020543
0.0052647 0.0050948 -0.032237 -0.0013005 -0.10211 0.28621 -0.00079652 -0.00081903
-0.0015092 0.00016134 -0.0027421 -0.0094273
0.0021295 -0.0069018 -0.001217 -0.00051574 -0.00079585 -0.00082253 -0.22385 0.19345
-0.024266 -0.0062579 -0.01004 -0.012314
-0.0026865 -0.011146 -0.0016937 -0.0090448 -0.0015009 0.00016797 -0.024287 -0.0062392
-0.26352 0.027808 -0.0053383 -0.0068775
0.0050577 -0.0074927 -0.0013911 -0.002062 -0.0027867 -0.0094146 -0.010119 -0.012329
-0.0053712 -0.0068563 -0.26082 0.081823
740000000 -0.19228 0.18522 -0.039336 0.02732 0.013204 -0.0053115 -0.00012162 -0.0046493
-0.0042533 -0.0024319 -0.0062934 0.002207
-0.039332 0.027288 -0.33444 0.17499 -0.035069 0.035112 -0.00053318 -0.0065171
-0.01141 0.0063602 -0.0021083 -0.0064929
0.0132 -0.0053274 -0.034991 0.035233 -0.068184 0.28394 -0.0021174 0.0030888
-0.0021671 -0.005092 -0.0014102 0.00018419
-0.00012882 -0.0046881 -0.00055092 -0.006514 -0.0021159 0.0030828 -0.20706 0.2017
-0.044313 -0.006486 0.024231 0.016254
-0.0042946 -0.0024281 -0.011332 0.0064395 -0.0021353 -0.005095 -0.044343 -0.0064276
-0.15917 0.055316 -0.043612 0.00031145
-0.0062575 0.0021548 -0.002152 -0.0065139 -0.0014478 0.00020865 0.024266 0.016215
-0.043607 0.00028846 -0.24991 0.086528
800000000 -0.15872 0.2269 -0.021757 0.016869 0.0054588 -0.010494 -0.0044993 -0.0021184
-0.0040061 0.0018945 0.0044216 0.00045897
-0.021758 0.016857 -0.33858 0.24513 -0.0077631 0.033778 -0.0024914 0.0020951
-0.00099614 0.0027129 0.00091156 0.0052013
0.0054364 -0.010504 -0.0076626 0.033826 -0.027815 0.30651 0.0005677 0.0016246
5.5326e-05 0.0035595 -0.0017143 0.00073334
-0.0044974 -0.0021176 -0.0024794 0.0021015 0.00057484 0.0016227 -0.1777 0.23067
-0.028169 0.014653 0.014401 -0.010605
-0.0040046 0.0019409 -0.0010024 0.0027262 5.5191e-05 0.0035692 -0.028162 0.014713
-0.20941 0.081003 -0.016528 0.019434
0.0044806 0.00044186 0.00098482 0.005252 -0.0016924 0.00075329 0.014454 -0.010677
-0.016566 0.019474 -0.24495 0.13628
860000000 -0.12405 0.24641 -0.017184 0.030451 -0.0031607 -0.009883 -0.0019844 0.00057963
0.0036821 0.005281 -0.0035231 -0.0031189
-0.017197 0.030415 -0.29048 0.28659 0.0076947 0.033915 -0.00010359 0.0021345
0.0039512 0.00030479 0.0035435 0.00082433
-0.0031956 -0.0098881 0.007809 0.033915 0.019494 0.31412 -0.00071323 3.9518e-06
0.0028251 -0.0015964 0.0016377 0.0040925
-0.0019731 0.00057418 -0.00012217 0.0021428 -0.0007145 9.5912e-06 -0.13963 0.24084
-0.017212 0.018383 -0.0058264 -0.0089686
0.003719 0.0052757 0.0039535 0.00030545 0.0028204 -0.0015996 -0.017199 0.018415
-0.15633 0.13439 -0.026377 0.015323
-0.003567 -0.0031274 0.0035268 0.00086113 0.0016545 0.0041065 -0.0058532 -0.0090044
-0.026434 0.015315 -0.194 0.1832
920000000 -0.099675 0.26873 0.0052211 0.037485 -0.0092821 -0.0046802 -0.0018646 0.0014126
0.00059372 0.0019133 0.0028149 -0.0016035
0.0051909 0.037464 -0.26251 0.30779 0.027756 0.021934 0.0014359 0.0011368
0.0071994 0.00015528 0.0040751 -0.0028295
-0.0093022 -0.0046591 0.027857 0.021876 0.065284 0.31503 0.0020247 7.4338e-05
0.0011489 -0.00021129 0.0007438 -0.0013224
-0.0018527 0.0014116 0.0014367 0.0011215 0.0020282 7.8749e-05 -0.11589 0.2576
-0.010871 0.030953 0.0043414 -0.0068611
0.00060199 0.001897 0.0072036 0.00012043 0.0011533 -0.00022513 -0.010824 0.03098
-0.14781 0.13966 -0.0026099 0.027213
0.0028011 -0.0016532 0.0040433 -0.0028524 0.00073786 -0.0013093 0.00433 -0.0068612
-0.0026123 0.027208 -0.20404 0.1972
980000000 -0.052538 0.28824 0.017225 0.029669 -0.0092107 0.0043498 0.0018104 0.0031754
0.0038043 -0.0013247 -0.0031775 -0.0022477
0.017191 0.029655 -0.20984 0.34198 0.032795 0.0050049 0.0021438 3.1441e-05
0.00193 -0.0058545 -0.00011681 -0.0023797
-0.0091985 0.0043736 0.032853 0.0049209 0.1114 0.30873 0.00064884 -0.0012665
0.00045382 -0.0021242 0.0012784 -0.00011501
0.0018143 0.0031877 0.0021527 2.733e-06 0.00065299 -0.0012677 -0.077077 0.26828
0.0085181 0.030875 -0.0092525 -0.0076563
0.0038002 -0.0013165 0.0018822 -0.005878 0.00044774 -0.0021252 0.0085804 0.030872
-0.11766 0.16888 0.0049732 0.019302
-0.0032313 -0.002195 -0.00017773 -0.0024272 0.00127 -0.00012087 -0.0092703 -0.0075726
0.0049856 0.019323 -0.16194 0.24303
1040000000 -0.011018 0.29667 0.032829 0.018078 -0.0015406 0.0068 0.0022559 0.00083181
8.6795e-05 -0.0034134 -0.0003138 -0.0013692
0.032792 0.01808 -0.17469 0.35498 0.029264 -0.014578 0.0015917 -0.00174
-0.0020861 -0.0027442 -0.0013675 -0.0027419
-0.0015232 0.0068063 0.02925 -0.014686 0.15724 0.29539 -0.00045342 -0.0017326
-0.0014794 -0.00090278 -0.00060323 -0.0010406
0.0022634 0.0008265 0.0015773 -0.0017585 -0.00044963 -0.0017248 -0.050378 0.27824
0.020064 0.018529 -0.002021 0.00077417
5.2705e-05 -0.0034099 -0.0021211 -0.002746 -0.0014748 -0.00090349 0.020096 0.018489
-0.085629 0.17627 0.013238 0.019065
-0.00029416 -0.0013673 -0.0013857 -0.0027224 -0.00059838 -0.0010321 -0.0020063 0.00080576
0.013239 0.019084 -0.14116 0.26386
1100000000 0.033859 0.30489 0.035421 -0.0041227 0.0025909 0.0039136 0.0021797 -0.0010339
-0.0018016 -0.0032166 -0.0041494 -2.8219e-05
0.035394 -0.0041064 -0.13153 0.3723 0.015192 -0.027729 1.0692e-05 -0.0018267
-0.0034105 -0.0011376 -0.0036938 -0.00059789
0.0026075 0.003909 0.015101 -0.027808 0.20368 0.27533 -0.0020086 3.2712e-05
-0.0019011 0.00034006 -0.0011947 -0.00019174
0.0021773 -0.0010344 -4.0108e-06 -0.0018326 -0.002006 2.8761e-05 -0.010171 0.28321
0.025659 0.0053244 -0.0028742 -0.00062329
-0.0018183 -0.0032001 -0.0034213 -0.0011224 -0.0019063 0.00034344 0.025671 0.0052805
-0.06923 0.19049 0.019131 0.0087994
-0.0041246 -2.115e-05 -0.003675 -0.00058244 -0.0011679 -0.000186 -0.0028476 -0.00060498
0.019122 0.0088076 -0.095841 0.29548
1160000000 0.085048 0.30019 0.023604 -0.020689 0.0024864 -0.00032746 -0.00020788 -0.002108
-0.0041537 -0.00087736 -0.00088244 0.0041028
0.023608 -0.020664 -0.088248 0.37667 -0.0036078 -0.029164 -0.0015857 -0.0017814
-0.003069 0.0023467 -0.0014716 0.0019363
0.0024805 -0.00035066 -0.0037242 -0.029162 0.24671 0.24468 -0.00094629 0.0018417
-0.00073169 0.0020927 -0.00087612 0.00021214
-0.00021771 -0.0020992 -0.0015989 -0.001782 -0.00095144 0.0018457 0.029024 0.28045
0.022397 -0.011046 -0.0038285 0.0049966
-0.0041755 -0.00083905 -0.0030706 0.0023666 -0.00072454 0.0021018 0.022379 -0.011088
-0.035912 0.19971 0.018194 0.00075641
-0.00088279 0.0041494 -0.0014948 0.0019208 -0.00085464 0.00019478 -0.0038111 0.0050019
0.018186 0.00076823 -0.048584 0.29857
1220000000 0.12926 0.2896 0.01026 -0.029835 -0.0016857 -0.0005947 0.00025319 -0.00076755
-0.0027298 0.0022832 0.0011886 0.0020727
0.010268 -0.029801 -0.043949 0.38921 -0.016838 -0.021306 -0.0026114 0.00035745
-0.00014458 0.0032385 -0.00092838 0.0019285
-0.0016872 -0.00059551 -0.01695 -0.021241 0.28595 0.20582 0.00071186 0.0019327
0.0006862 0.0014838 0.00050312 0.00058844
0.00025047 -0.00076067 -0.0026154 0.00036483 0.00070716 0.0019267 0.068761 0.27224
0.011452 -0.018107 0.0014006 0.0013708
-0.0027225 0.0022943 -0.00013922 0.0032413 0.00068005 0.0014822 0.011436 -0.018132
-0.014589 0.20983 0.014336 -0.012758
0.0011993 0.0020592 -0.00091206 0.0019271 0.00050129 0.00058875 0.0013943 0.0013668
0.014359 -0.012726 -0.018526 0.3163
1280000000 0.17913 0.2681 -0.0079577 -0.028175 -0.001797 0.0027484 -0.00077145 -0.0020943
-0.00096747 0.0030132 0.0024326 0.0013621
-0.0079502 -0.028156 0.001836 0.3808 -0.023823 -0.0086845 -0.0011533 0.0014413
0.0018424 0.0021359 0.00056576 0.0021271
-0.0017774 0.0027626 -0.023891 -0.0085832 0.31645 0.16203 0.0017376 0.00016657
0.0012634 0.00032937 0.00044819 0.00019821
-0.00078158 -0.0020881 -0.001154 0.0014388 0.0017367 0.00017202 0.10569 0.25564
0.0016242 -0.020622 -0.0007424 0.00052643
-0.00094467 0.0030069 0.0018467 0.0021292 0.0012705 0.00032321 0.0015893 -0.020633
0.021328 0.21441 0.0030784 -0.015019
0.002444 0.0013369 0.00056655 0.0021276 0.000442 0.00020098 -0.00074013 0.00053947
0.0030744 -0.014985 0.029599 0.31919
1340000000 0.21618 0.2348 -0.017574 -0.018617 0.0010931 0.004685 -0.0016838 -0.00098198
0.0014226 0.0027321 0.0019979 -0.0013093
-0.017547 -0.018624 0.041573 0.37305 -0.021773 0.0042005 -0.00027684 0.0021254
0.0022085 0.00091116 0.0013155 0.00082757
0.0011096 0.0046942 -0.02178 0.0043089 0.33857 0.11417 0.0014263 -0.00099847
0.00091703 -0.000644 7.8835e-05 0.00026168
-0.0016876 -0.0009749 -0.0002694 0.0021264 0.0014289 -0.00099911 0.13784 0.2352
-0.0087482 -0.018114 0.00060034 0.0010915
0.0014411 0.0027446 0.0022142 0.00089799 0.00090479 -0.00064832 -0.0087882 -0.018107
0.049853 0.21096 -0.0034332 -0.013732
0.0019707 -0.0013081 0.0013115 0.00079576 7.5546e-05 0.00024099 0.00060608 0.0010789
-0.0034212 -0.013708 0.067622 0.31593
1400000000 0.24953 0.19708 -0.023173 -0.0071475 0.0054001 0.0031146 -0.0021678 0.00048249
0.0023792 0.0010511 0.00040983 -0.0014681
-0.023148 -0.0071601 0.079144 0.36037 -0.015032 0.012561 0.0014412 0.0014844
0.0013505 -0.00086335 0.0013002 0.00019386
0.0054119 0.0030908 -0.014986 0.012645 0.35167 0.060725 0.00022418 -0.0019343
1.2641e-05 -0.00045366 0.00029679 0.00017072
-0.0021633 0.00049634 0.001459 0.0014782 0.00022184 -0.001932 0.16677 0.20626
-0.015312 -0.011322 -0.00087911 0.0001764
0.0023937 0.0010437 0.0013395 -0.0008708 1.607e-05 -0.00045426 -0.015348 -0.011289
0.082578 0.20843 -0.0098738 -0.0090359
0.00041875 -0.0014668 0.001318 0.00020024 0.00032485 0.00016285 -0.00086988 0.00016724
-0.0098757 -0.0090286 0.11278 0.30611
1460000000 0.27267 0.15317 -0.020089 0.0049279 0.0058433 -0.0019162 -0.0016767 0.0018134
0.0021847 -0.00030985 -0.00028109 -0.0011021
-0.020072 0.0049078 0.11377 0.33858 -0.0061636 0.015532 0.0019022 0.00025509
0.0009473 -0.00147 0.0011857 -0.00067263
0.0058381 -0.0019372 -0.0060929 0.015589 0.35765 0.0064858 -0.0014102 -0.0015591
5.3726e-05 -0.00035291 0.00057783 -0.00034874
-0.0016812 0.0018109 0.0019026 0.0002341 -0.0014118 -0.0015546 0.19224 0.17723
-0.017236 -0.0041728 -0.00060784 0.0026536
0.0021771 -0.00031824 0.00094255 -0.0014782 5.6276e-05 -0.00034362 -0.017248 -0.0041304
0.11102 0.1952 -0.011642 -0.0027679
-0.00030915 -0.0011081 0.0011694 -0.00066949 0.00054583 -0.00033523 -0.00059549 0.0026475
-0.011673 -0.0027632 0.14634 0.28564
1520000000 0.28521 0.11148 -0.014387 0.010291 0.0034935 -0.0043448 1.9287e-05 0.0027361
0.0023298 -0.0016064 -0.0011717 -0.00024736
-0.014384 0.010261 0.14768 0.3239 0.0016295 0.013328 0.0018312 -0.00083885
-1.1195e-05 -0.0011537 0.00032946 -0.0009658
0.0034655 -0.004356 0.0017056 0.013335 0.35124 -0.049436 -0.0013948 -0.00038708
0.00068828 -0.00077325 6.9367e-05 -0.00012558
2.5759e-05 0.0027287 0.0018253 -0.00085109 -0.0014017 -0.00038852 0.21454 0.14028
-0.016897 0.0026021 0.0018883 0.0022701
0.002303 -0.0016271 -2.8356e-05 -0.0011532 0.00068653 -0.00077468 -0.016901 0.0026496
0.13895 0.18297 -0.011778 0.0014675
-0.0011906 -0.00025472 0.00032459 -0.0009967 5.3596e-05 -0.00013747 0.001903 0.0022814
-0.0118 0.0014353 0.18035 0.26652
1580000000 0.29482 0.065053 -0.0077902 0.013259 -0.00092739 -0.0051563 0.0015352 0.0020754
-3.0035e-05 -0.002193 -0.00036959 0.00049998
-0.0077958 0.01325 0.17519 0.2989 0.005389 0.0084045 0.00049682 -0.0017848
-0.00062361 -0.0010597 -0.00021456 -0.00085719
-0.00094089 -0.0051577 0.0054307 0.0083925 0.33116 -0.10711 -0.0017977 0.0009443
-0.0003089 -0.0011712 9.3646e-05 -0.00050921
0.0015391 0.0020626 0.00049204 -0.0017822 -0.0017956 0.00094244 0.22771 0.10243
-0.013202 0.0083893 0.0026827 0.00077226
-4.8894e-05 -0.00221 -0.00063217 -0.0010638 -0.000308 -0.0011795 -0.013187 0.0084329
0.16365 0.16659 -0.0093114 0.0074551
-0.00034452 0.0004911 -0.00020874 -0.00083846 0.00012199 -0.00050577 0.0026857 0.00077129
-0.0093146 0.0074497 0.2136 0.2402
1640000000 0.29698 0.023551 -0.0011658 0.01209 -0.0027988 -0.0027104 0.002908 0.0010192
-0.00051999 -0.0017637 -0.00028236 0.00063816
-0.0011755 0.012086 0.20493 0.2738 0.006185 0.0034738 -0.00078052 -0.0019176
-0.0010613 -0.00039021 -0.00045359 -0.00081265
-0.0028208 -0.0026962 0.0062132 0.0034429 0.30324 -0.15653 -0.00053443 0.001753
-0.0010977 -0.0012005 -3.2625e-05 -0.00042041
0.0029063 0.0010097 -0.00079336 -0.0019114 -0.00053831 0.0017486 0.24 0.055677
-0.0083947 0.01044 0.0029449 -0.00094532
-0.0005181 -0.0017665 -0.0010631 -0.00038469 -0.0010861 -0.001201 -0.0083685 0.010472
0.18645 0.14348 -0.0045293 0.0095637
-0.00028308 0.00064275 -0.00047946 -0.00079072 -6.5071e-05 -0.00041322 0.0029612 -0.00095434
-0.0045182 0.0095668 0.23941 0.20995
1700000000 0.28965 -0.021976 0.002139 0.0091759 -0.0036556 4.4177e-05 0.0031394 -0.0014289
-0.0020962 -0.00095556 0.00065337 0.00044172
0.002127 0.0091798 0.2232 0.24197 0.0041029 0.00051896 -0.0016552 -0.00064685
-0.00078612 8.7117e-05 -0.00097613 -0.00051196
-0.0036519 6.1811e-05 0.0041063 0.00048893 0.25968 -0.19641 0.00080738 0.0016267
-0.0021353 -0.00026759 -0.00037104 -0.00086012
0.0031402 -0.0014441 -0.0016507 -0.00063273 0.0008056 0.0016275 0.2379 0.0080133
-0.0048605 0.011521 0.0017473 -0.0024662
-0.002108 -0.00093547 -0.0007841 8.8062e-05 -0.0021336 -0.00026439 -0.0048386 0.011538
0.20425 0.12445 9.9828e-05 0.0098744
0.00068115 0.00044584 -0.00098281 -0.00050374 -0.0003914 -0.00087119 0.0017465 -0.0024935
0.00012515 0.0098504 0.25705 0.17559
1760000000 0.27724 -0.070655 0.0042695 0.0058776 -0.0024868 0.0010296 0.0011823 -0.0035806
-0.0015504 0.00063226 0.00046711 -0.00062791
0.0042521 0.0058733 0.24905 0.20183 0.0016829 -0.0013717 -0.0012973 0.00029123
-0.00099238 0.00095239 -0.00063503 0.00035847
-0.0024778 0.0010482 0.0016781 -0.0013779 0.21046 -0.22985 0.0013589 0.00085095
-0.0013104 0.0014669 -0.0013584 -0.00061319
0.0011643 -0.0036012 -0.001309 0.00029816 0.0013594 0.00084699 0.23095 -0.041641
-0.00044269 0.010548 -0.00018555 -0.0029333
-0.0015412 0.00064161 -0.00098688 0.00096026 -0.0013108 0.0014876 -0.00042135 0.010562
0.21961 0.090491 0.0043241 0.0071912
0.00045163 -0.00063212 -0.00063623 0.00038194 -0.001339 -0.00059858 -0.00017289 -0.002929
0.0043419 0.0072252 0.26992 0.13821
1820000000 0.25239 -0.10787 0.0043449 0.0023464 -0.00013424 0.0025421 -0.0012609 -0.0031502
-0.0013722 0.00095049 -5.6812e-05 -6.0966e-05
0.0043412 0.0023445 0.25902 0.17146 -0.00044706 -0.00029176 -0.0013275 0.0010957
1.5284e-05 0.0012557 -0.00059981 0.00063577
-0.00012733 0.0025455 -0.00044514 -0.00028945 0.16024 -0.24555 0.0013932 0.00012088
-0.00021062 0.0024603 -0.001319 0.0002788
-0.0012811 -0.003149 -0.0013223 0.0011011 0.0013919 0.00010808 0.20372 -0.088239
0.0018383 0.0085814 -0.0017911 -0.0018946
-0.0013605 0.00095995 2.9937e-05 0.0012493 -0.00020222 0.0024629 0.0018478 0.0085881
0.2374 0.062638 0.0052822 0.0034706
-7.9341e-05 -7.1031e-05 -0.00061511 0.000624 -0.001345 0.0002506 -0.0018093 -0.0018476
0.0052627 0.003495 0.27304 0.10242
1880000000 0.21711 -0.14801 0.0020195 0.00018575 -0.00044354 0.0021907 -0.0031216 -0.0021336
-0.00026971 0.0019809 0.00012914 -0.00051578
0.0020245 0.0001955 0.26311 0.12464 -0.0024999 0.0016155 -5.6108e-05 0.0016643
0.00052911 0.0011376 8.8066e-05 0.0010198
-0.00041922 0.0021904 -0.0024899 0.0016295 0.10805 -0.25469 0.0015407 -0.00079662
0.0015853 0.0020554 -0.0010083 0.0013845
-0.0031311 -0.002127 -4.4784e-05 0.0016708 0.0015442 -0.00079073 0.16599 -0.12945
0.0031639 0.0058709 -0.0027145 0.00019893
-0.0002413 0.0019857 0.00053335 0.0011339 0.0015928 0.0020547 0.0031746 0.0058603
0.24116 0.030952 0.0055215 0.0012611
0.00012112 -0.00056071 9.3843e-05 0.0010003 -0.0010108 0.0013761 -0.0027366 0.00017276
0.0055149 0.0012628 0.27336 0.068119
1940000000 0.17775 -0.17368 -0.00028312 -0.0013283 0.0013191 0.0021128 -0.0036472 0.00073958
0.001485 0.0012687 -0.00068265 -0.00045102
-0.00028228 -0.0013237 0.26328 0.092805 -0.0012471 0.0039147 0.0010278 0.0012508
0.0017215 0.00052339 0.00091438 0.00034551
0.0013475 0.0021078 -0.0012184 0.0039377 0.062266 -0.24793 0.00031962 -0.0018262
0.0024234 0.00049349 0.00049446 0.0017266
-0.0036661 0.0007443 0.0010333 0.0012539 0.00032619 -0.0018177 0.11539 -0.16208
0.0024706 0.00363 -0.0017991 0.001383
0.0014936 0.0012588 0.0017235 0.00049798 0.0024126 0.00049653 0.0024726 0.0036252
0.24438 -0.0072035 0.0040491 -0.0023531
-0.00071426 -0.00046229 0.00090678 0.00036391 0.00053032 0.0017557 -0.0017715 0.001434
0.0040299 -0.0023407 0.2627 0.032309
2000000000 0.13128 -0.18822 -0.0041148 0.00088867 0.0025866 0.001783 -0.0023342 0.0035447
0.0012009 0.00013725 -0.00064549 0.00052757
-0.0041077 0.00088154 0.24865 0.057424 -0.0010987 0.005816 0.0015039 0.00039199
0.001248 -0.0012426 0.00047021 0.0002085
0.0025993 0.0017686 -0.0010591 0.0058287 0.019057 -0.2335 -0.00098902 -0.0012892
0.0021189 -0.0012226 0.0017532 0.0013663
-0.0023025 0.0035404 0.0015094 0.00036193 -0.001001 -0.0012834 0.061892 -0.17439
0.00050965 0.0025035 -8.8047e-05 0.0023934
0.0012196 0.00013346 0.0012522 -0.0012421 0.0021009 -0.0012165 0.0005237 0.0024923
0.23986 -0.041241 0.00067039 -0.00333
