!Keysight Technologies,M9804A,MY58100912,A.14.10.03
!Date: Thursday, April 27, 2023 10:28:33
!Correction: S11(C  6-Port  ) 
!S12(C  6-Port  ) 
!S13(C  6-Port  ) 
!S14(C  6-Port  ) 
!S15(C  6-Port  ) 
!S16(C  6-Port  ) 
!S21(C  6-Port  ) 
!S22(C  6-Port  ) 
!S23(C  6-Port  ) 
!S24(C  6-Port  ) 
!S25(C  6-Port  ) 
!S26(C  6-Port  ) 
!S31(C  6-Port  ) 
!S32(C  6-Port  ) 
!S33(C  6-Port  ) 
!S34(C  6-Port  ) 
!S35(C  6-Port  ) 
!S36(C  6-Port  ) 
!S41(C  6-Port  ) 
!S42(C  6-Port  ) 
!S43(C  6-Port  ) 
!S44(C  6-Port  ) 
!S45(C  6-Port  ) 
!S46(C  6-Port  ) 
!S51(C  6-Port  ) 
!S52(C  6-Port  ) 
!S53(C  6-Port  ) 
!S54(C  6-Port  ) 
!S55(C  6-Port  ) 
!S56(C  6-Port  ) 
!S61(C  6-Port  ) 
!S62(C  6-Port  ) 
!S63(C  6-Port  ) 
!S64(C  6-Port  ) 
!S65(C  6-Port  ) 
!S66(C  6-Port  ) 
!S6P File: Measurement: :
# Hz S  RI   R 50
500000000 -0.33782 -0.045062 -0.010737 -0.0022788 -0.0087208 0.013567 -0.0051036 0.012442
0.012268 0.0038971 -0.00526 0.0089494
-0.010921 -0.002302 -0.41915 -0.055676 0.0076698 -0.01068 0.0019449 0.012843
0.0067701 0.0021855 0.0015211 0.014168
-0.0086528 0.013494 0.0076139 -0.010786 -0.26739 0.20722 0.007048 0.0036787
-0.0030131 0.0083709 0.0007673 0.012473
-0.0051583 0.012744 0.0015715 0.012777 0.0068948 0.0037406 -0.33435 0.03442
-0.021754 -0.00494 0.0174 0.026746
0.012716 0.0041109 0.0068845 0.0024365 -0.0028319 0.008436 -0.02169 -0.0051633
-0.21483 -0.21384 -0.027793 0.0054842
-0.0047505 0.009082 0.001237 0.014189 0.00062682 0.012108 0.017052 0.02635
-0.028299 0.0059531 -0.26183 -0.13757
560000000 -0.31882 0.11982 -0.023481 -0.063655 0.0002114 0.012136 0.0054049 0.011295
0.010692 0.0049877 0.011107 0.0086231
-0.023359 -0.06378 -0.37783 0.10534 -0.041881 -0.037134 0.013755 0.0041568
-0.01371 -0.0050697 0.0034154 -7.9912e-05
-2.9972e-05 0.012405 -0.04206 -0.037263 -0.18465 0.25777 -0.00016758 -0.0041648
0.019927 0.0069221 0.0074846 -0.0059232
0.0051081 0.011344 0.013667 0.0043673 -0.00014133 -0.0044274 -0.31221 0.1292
0.0035153 -0.023763 0.0043283 -0.022187
0.010231 0.0049351 -0.013489 -0.0050883 0.019952 0.0064547 0.0032508 -0.023643
-0.28816 -0.034607 0.0086005 -0.050078
0.010681 0.0083621 0.0032032 0.00065355 0.0068904 -0.0062089 0.0042174 -0.022304
0.0087633 -0.049798 -0.32731 0.012815
620000000 -0.2769 0.10262 -0.023215 0.0086709 0.0037657 0.0087333 0.0083061 -0.0046572
0.011693 1.9044e-06 0.00076812 -0.0020108
-0.02313 0.0086398 -0.40369 0.056846 -0.018267 0.00053794 -0.0012174 -0.0019857
0.011898 -0.0054988 0.001155 -0.0030237
0.0037444 0.008865 -0.018308 0.00060134 -0.15437 0.2664 -0.00049658 -0.0053274
-0.0024837 -0.0024844 0.009015 -0.0037136
0.0082831 -0.0045755 -0.0011938 -0.0017578 -0.00060643 -0.0053912 -0.27111 0.14006
-0.039847 -0.019399 0.013065 0.026886
0.011236 -0.00021195 0.011968 -0.005518 -0.0026019 -0.0023809 -0.039866 -0.018813
-0.20563 -0.074201 -0.0441 0.015624
0.001098 -0.0020135 0.001209 -0.0029423 0.0087791 -0.003846 0.012511 0.026812
-0.043081 0.015604 -0.24779 -0.026861
680000000 -0.2369 0.1902 -0.026809 -0.01366 0.0051657 0.0050481 0.0019891 -0.0071415
-0.002618 -0.011237 0.0052684 -0.007154
-0.026823 -0.013897 -0.38903 0.15623 -0.032324 -0.0014273 -0.0013394 -0.00063771
-0.0015688 -0.0092831 -0.0011258 -0.0020113
0.0053216 0.0049451 -0.0324 -0.0013577 -0.10223 0.28612 -0.00076678 -0.00078968
-0.0014646 0.00012263 -0.0027861 -0.0095141
0.0019975 -0.0070445 -0.0012632 -0.00049124 -0.00063531 -0.00077118 -0.22381 0.19332
-0.024049 -0.0062067 -0.010309 -0.012486
-0.0025006 -0.011163 -0.0016752 -0.0093708 -0.0015162 0.0001322 -0.024126 -0.0061578
-0.26336 0.027189 -0.0057991 -0.0065965
0.0054546 -0.0073821 -0.0013205 -0.0019739 -0.0027664 -0.0092972 -0.010696 -0.01203
-0.0055709 -0.0066792 -0.26011 0.081063
740000000 -0.19242 0.1852 -0.039425 0.027469 0.013184 -0.0053086 -7.0723e-05 -0.0047713
-0.0042943 -0.0022995 -0.0062186 0.0022115
-0.03931 0.027236 -0.33434 0.17475 -0.035188 0.03525 -0.00050819 -0.0065892
-0.011631 0.0067322 -0.0021237 -0.0068082
0.013175 -0.0052874 -0.035068 0.035325 -0.068296 0.28372 -0.0022112 0.0029982
-0.0024988 -0.005059 -0.0015555 -2.8604e-05
-5.7059e-05 -0.0046332 -0.00051568 -0.0064693 -0.002298 0.0030766 -0.20716 0.20147
-0.044391 -0.0062107 0.024355 0.016005
-0.0040896 -0.0023652 -0.011324 0.006786 -0.002193 -0.0050335 -0.044459 -0.0061773
-0.15917 0.055613 -0.043935 0.0004983
-0.0063231 0.0024832 -0.0023859 -0.0066151 -0.0017394 0.00019288 0.024319 0.015886
-0.044049 0.00035414 -0.24943 0.085537
800000000 -0.15892 0.22677 -0.021821 0.016758 0.005443 -0.010475 -0.004459 -0.0020745
-0.0037879 0.0019082 0.004176 0.00029206
-0.021836 0.016756 -0.33868 0.24488 -0.0077946 0.033747 -0.0024293 0.0021443
-0.0010502 0.0027369 0.00088141 0.0051601
0.0053996 -0.010569 -0.0077108 0.033793 -0.027935 0.30643 0.00059676 0.001664
4.1349e-05 0.0034968 -0.001825 0.00084317
-0.0045951 -0.0021547 -0.0024797 0.0020687 0.00053706 0.0017092 -0.17759 0.23058
-0.028176 0.014536 0.014399 -0.010559
-0.0039496 0.0019987 -0.0010368 0.0027341 6.1601e-05 0.0034612 -0.02842 0.014776
-0.20949 0.080853 -0.016837 0.019266
0.0043014 0.00031051 0.00088525 0.0051442 -0.0018951 0.00088465 0.014826 -0.010516
-0.016714 0.019205 -0.24548 0.13637
860000000 -0.1241 0.24631 -0.017275 0.030434 -0.0031538 -0.0098664 -0.0020047 0.0005183
0.0035799 0.0053312 -0.0035189 -0.0031761
-0.017168 0.030393 -0.29078 0.28637 0.0076398 0.033977 -0.00017271 0.0020847
0.0038953 0.00054643 0.0034296 0.00076393
-0.0031881 -0.0098864 0.0077516 0.033979 0.019431 0.3141 -0.00065824 1.5346e-05
0.0028302 -0.0015634 0.0016489 0.0041331
-0.001889 0.00056866 -0.00028094 0.0021221 -0.00064302 -1.736e-05 -0.13982 0.24083
-0.017334 0.018459 -0.0060219 -0.0088616
0.0037966 0.0053232 0.0039377 0.0003307 0.0028466 -0.0016172 -0.01697 0.018311
-0.15659 0.13456 -0.026261 0.015874
-0.0036495 -0.0032803 0.003434 0.00069088 0.0016181 0.0042374 -0.0063388 -0.0087935
-0.026431 0.015411 -0.1949 0.18253
920000000 -0.099742 0.26866 0.0051614 0.03752 -0.0093045 -0.0046707 -0.0017871 0.0014337
0.00075172 0.0019237 0.0028023 -0.0016041
0.0051378 0.037508 -0.26258 0.30764 0.027772 0.021966 0.0014653 0.0010868
0.0071718 0.00022735 0.0039846 -0.002829
-0.0092848 -0.0046739 0.02786 0.021911 0.065182 0.31501 0.0020219 0.00017048
0.0012052 -0.00027914 0.00073124 -0.0012852
-0.0018409 0.0015358 0.001348 0.0011629 0.0020135 0.0001422 -0.11592 0.2576
-0.01085 0.030934 0.0044407 -0.0066664
0.00070594 0.0018861 0.0072458 8.1398e-05 0.0011919 -0.00023654 -0.010706 0.030996
-0.14795 0.13987 -0.0023028 0.027311
0.0027596 -0.0016605 0.0040355 -0.0028965 0.00069207 -0.0012473 0.0046502 -0.0068811
-0.0021066 0.027078 -0.20419 0.19738
980000000 -0.052628 0.28818 0.017194 0.029709 -0.0092169 0.0043177 0.0018591 0.0032423
0.0036794 -0.0012653 -0.0030563 -0.0023498
0.017157 0.029633 -0.21 0.34188 0.032825 0.0049846 0.002224 2.8513e-05
0.0018336 -0.0057895 -9.0728e-06 -0.0024433
-0.0091687 0.0043593 0.032875 0.0049215 0.11127 0.30867 0.00069024 -0.0012644
0.00042456 -0.0021587 0.0013121 -0.00014906
0.0018426 0.0031848 0.0022251 8.0081e-06 0.00068742 -0.0012556 -0.077222 0.2683
0.0085748 0.030901 -0.0092344 -0.0075964
0.0037998 -0.0012113 0.0018689 -0.0057372 0.00043983 -0.002078 0.008572 0.030927
-0.11789 0.1691 0.0049966 0.019629
-0.0031816 -0.0023449 2.1077e-05 -0.002377 0.0013331 -0.00013805 -0.0092746 -0.0073528
0.0051718 0.019421 -0.16219 0.24277
1040000000 -0.011288 0.29669 0.032763 0.018054 -0.0015463 0.006834 0.0022792 0.00080125
-9.8683e-05 -0.003439 -0.0001678 -0.0013699
0.032761 0.018097 -0.17471 0.35485 0.02933 -0.01461 0.0015654 -0.0017431
-0.0021899 -0.002834 -0.001254 -0.0027656
-0.0015143 0.0067982 0.029287 -0.014696 0.15714 0.29536 -0.00046556 -0.0017352
-0.0014913 -0.00092665 -0.00054689 -0.0010385
0.0022578 0.00074186 0.0015026 -0.0017411 -0.00044404 -0.0017288 -0.050433 0.2783
0.020055 0.018628 -0.0019734 0.00080702
4.5799e-05 -0.0034594 -0.0021458 -0.0027711 -0.0015149 -0.00096666 0.020085 0.018601
-0.085594 0.17631 0.01315 0.01943
-0.00023937 -0.0014559 -0.0013864 -0.0027826 -0.00064046 -0.00095314 -0.0019893 0.00087453
0.012801 0.019036 -0.14124 0.26363
1100000000 0.033807 0.30488 0.035478 -0.0041012 0.002605 0.0039314 0.0022426 -0.00097512
-0.0018635 -0.0031796 -0.0040947 -0.00015696
0.035442 -0.0040991 -0.13157 0.3722 0.015253 -0.027712 4.759e-05 -0.0017819
-0.0034992 -0.0011029 -0.0036493 -0.00069632
0.0026332 0.0039196 0.015159 -0.027788 0.20356 0.27533 -0.0020174 7.5884e-05
-0.0019348 0.00034679 -0.0012026 -0.00019443
0.0021848 -0.0010083 5.6563e-05 -0.0017882 -0.0020031 5.3741e-05 -0.01016 0.2833
0.025744 0.0053264 -0.0029173 -0.00053573
-0.0018479 -0.0032033 -0.0034743 -0.0011247 -0.0019131 0.00036261 0.025814 0.0053318
-0.06948 0.19029 0.01912 0.0088008
-0.0041149 -7.449e-05 -0.0037408 -0.00058544 -0.0011921 -0.00021874 -0.0029318 -0.00049277
0.01909 0.0087888 -0.096123 0.29562
1160000000 0.084964 0.30023 0.023627 -0.020663 0.0024813 -0.00034387 -0.00025296 -0.0020722
-0.0041736 -0.00090079 -0.0009636 0.004099
0.023623 -0.02061 -0.088355 0.3766 -0.0035754 -0.029167 -0.0016171 -0.0018023
-0.0030898 0.0023307 -0.001543 0.0019253
0.0025268 -0.00033456 -0.0037106 -0.029162 0.24657 0.24469 -0.00094339 0.0018389
-0.00070012 0.0020831 -0.00086435 0.00019637
-0.0002504 -0.0020989 -0.001628 -0.0017888 -0.0009298 0.0018256 0.028963 0.28044
0.022457 -0.011109 -0.0038171 0.0049342
-0.0041195 -0.00086904 -0.0030314 0.0023865 -0.00070964 0.0020832 0.022439 -0.011049
-0.035941 0.19962 0.018247 0.00088046
-0.00097241 0.00418 -0.0015219 0.0018968 -0.00082074 0.00022278 -0.0037321 0.0050154
0.018308 0.00090387 -0.048951 0.29834
1220000000 0.1292 0.28968 0.010324 -0.02984 -0.0016739 -0.0006226 0.00022389 -0.00071785
-0.0027522 0.0022722 0.0011433 0.0020525
0.010328 -0.029806 -0.044081 0.38922 -0.016825 -0.021317 -0.0026476 0.00032392
-0.00018058 0.0032318 -0.00089256 0.0018926
-0.0016761 -0.00059207 -0.01693 -0.021247 0.28578 0.20587 0.00069895 0.0019281
0.00067384 0.0014724 0.00048237 0.00059911
0.00027995 -0.00072643 -0.0026043 0.00032324 0.00072301 0.00193 0.068708 0.27228
0.011539 -0.018141 0.0014097 0.0013953
-0.0026586 0.0022865 -0.00013753 0.0032121 0.00069391 0.0014502 0.011485 -0.018158
-0.014916 0.20967 0.014458 -0.012784
0.0012155 0.0020542 -0.00090355 0.0019622 0.00047795 0.00061313 0.0014417 0.001373
0.014547 -0.012697 -0.018657 0.31642
1280000000 0.17901 0.26812 -0.0079262 -0.028185 -0.0018 0.0027117 -0.00078333 -0.0021277
-0.00095995 0.003029 0.0024628 0.0013743
-0.0078959 -0.028185 0.001698 0.3808 -0.023843 -0.0086849 -0.0011678 0.0014197
0.0017844 0.0021277 0.00059365 0.0021312
-0.0017925 0.0027319 -0.023887 -0.008575 0.31633 0.16215 0.0017754 0.00019015
0.0012639 0.00032602 0.00046481 0.00019504
-0.00077117 -0.0020965 -0.0011181 0.0014006 0.0017714 0.0002041 0.10567 0.25565
0.0016266 -0.020641 -0.0006753 0.00052578
-0.00095207 0.0030232 0.0018746 0.0021274 0.0012733 0.00033036 0.0015872 -0.020684
0.021142 0.21443 0.0031256 -0.015073
0.0024709 0.0013879 0.00064668 0.0021946 0.00043366 0.00023526 -0.00062245 0.00054291
0.0031599 -0.015109 0.029639 0.31928
1340000000 0.21605 0.23491 -0.017573 -0.018652 0.0010498 0.0047214 -0.0017056 -0.00098458
0.0014279 0.0027471 0.0019657 -0.0013157
-0.017535 -0.018681 0.041382 0.37306 -0.021789 0.004168 -0.00027175 0.0021237
0.0021836 0.00088232 0.0013555 0.00082303
0.0011018 0.0046763 -0.021791 0.0042911 0.33849 0.11427 0.001435 -0.00099902
0.00090362 -0.00067265 9.3343e-05 0.00023525
-0.0016639 -0.00098742 -0.0002385 0.0021324 0.00142 -0.0010175 0.13783 0.23519
-0.0088134 -0.018188 0.00061392 0.0010788
0.0014419 0.0027332 0.0021955 0.00088338 0.00090383 -0.00066918 -0.0089084 -0.018226
0.049545 0.211 -0.0035131 -0.013907
0.0019344 -0.00136 0.0013247 0.00080704 -2.4779e-05 0.00022779 0.00068594 0.0011171
-0.0034893 -0.01384 0.067486 0.31607
1400000000 0.24948 0.19717 -0.023177 -0.007198 0.005395 0.0031152 -0.0022202 0.00048301
0.0023539 0.0010904 0.00046687 -0.0014783
-0.023146 -0.0072212 0.078993 0.36036 -0.01505 0.012527 0.0014258 0.0014835
0.0013425 -0.00085158 0.0013306 0.00018552
0.0054349 0.003095 -0.015011 0.012609 0.35158 0.060836 0.00025403 -0.0019293
-5.6951e-06 -0.00047546 0.00034422 0.00015751
-0.0021983 0.00050219 0.0014407 0.0014923 0.00024258 -0.0019508 0.16681 0.20624
-0.015405 -0.01135 -0.00084392 6.8549e-05
0.0023515 0.0010483 0.0013575 -0.00089508 1.372e-05 -0.00051294 -0.015444 -0.011378
0.082241 0.2084 -0.0099081 -0.009058
0.00041436 -0.0014834 0.0013227 0.00015104 0.00033306 0.00019221 -0.00089754 0.00011789
-0.0098349 -0.0090461 0.11288 0.30598
1460000000 0.2725 0.15327 -0.020129 0.0048827 0.0058037 -0.0018864 -0.0016644 0.0017683
0.0021682 -0.00032388 -0.00032785 -0.0011768
-0.020107 0.004863 0.11357 0.33861 -0.0062154 0.015546 0.0019087 0.00025429
0.00090572 -0.0014613 0.0011963 -0.00072132
0.0058107 -0.0019151 -0.0061395 0.015589 0.35766 0.0066093 -0.0014152 -0.0015379
0.00010917 -0.00029374 0.00047759 -0.00039282
-0.0016672 0.0017752 0.0019098 0.00024392 -0.0014057 -0.0015646 0.19219 0.17721
-0.017343 -0.0041586 -0.00058961 0.0026079
0.0021919 -0.00031317 0.00094665 -0.0014678 9.1034e-05 -0.00034956 -0.017354 -0.0041136
0.11076 0.1953 -0.011775 -0.0028617
-0.00032316 -0.0011521 0.0012333 -0.00066314 0.00052176 -0.00029638 -0.00061446 0.0026537
-0.011701 -0.002749 0.14639 0.28572
1520000000 0.28512 0.11164 -0.014433 0.010261 0.0034817 -0.0043332 3.5746e-05 0.0027209
0.0023344 -0.0016263 -0.0011604 -0.00025829
-0.014431 0.010246 0.14748 0.32397 0.001608 0.013333 0.0018627 -0.00084105
-1.4094e-06 -0.0011528 0.0003577 -0.00098188
0.0034538 -0.0043257 0.0016933 0.013328 0.35122 -0.049331 -0.001407 -0.0003862
0.0006882 -0.00073885 7.7239e-05 -0.00011356
5.7826e-05 0.0027096 0.0018743 -0.00085459 -0.0014012 -0.0004064 0.21441 0.14026
-0.017022 0.0026532 0.0018621 0.0022949
0.0023136 -0.0016398 -3.6445e-05 -0.0011603 0.00068845 -0.00076986 -0.017003 0.0026797
0.13875 0.18307 -0.01192 0.0014704
-0.0011428 -0.00025306 0.0003633 -0.001008 6.4193e-05 -0.00016919 0.0018555 0.0022969
-0.011892 0.0014245 0.18016 0.2666
1580000000 0.29476 0.065159 -0.0078137 0.013263 -0.00091102 -0.0051318 0.001554 0.0020586
-1.1001e-05 -0.0022376 -0.00037884 0.00045269
-0.0078127 0.013247 0.17505 0.29895 0.0053495 0.0084108 0.00048841 -0.0018031
-0.000616 -0.0010783 -0.00022884 -0.00083546
-0.00089454 -0.0051398 0.0054099 0.0083741 0.33108 -0.10698 -0.0018108 0.00095904
-0.00028598 -0.0011466 0.00012812 -0.00049273
0.0015371 0.002051 0.00046639 -0.0018029 -0.0018287 0.00095363 0.22765 0.10248
-0.013312 0.0085348 0.0026904 0.00078323
-2.8145e-05 -0.002245 -0.00063914 -0.0010873 -0.00032817 -0.0011466 -0.013239 0.0085476
0.16348 0.16676 -0.0093712 0.007493
-0.00040916 0.00043924 -0.00026873 -0.00083853 0.0001448 -0.00046588 0.0027264 0.00083087
-0.0093784 0.0074257 0.21339 0.24018
1640000000 0.29694 0.023748 -0.0011751 0.012113 -0.0028153 -0.0027122 0.0028928 0.0010043
-0.00049499 -0.0017646 -0.00036399 0.00059826
-0.0011974 0.012111 0.20476 0.27392 0.0061687 0.0034875 -0.00078616 -0.0019339
-0.0010451 -0.00039966 -0.00046368 -0.00080377
-0.0028541 -0.0026934 0.0062088 0.0034357 0.30327 -0.15638 -0.00055159 0.0017771
-0.0010547 -0.0011677 -5.131e-05 -0.00044406
0.0028957 0.0010138 -0.00078927 -0.0019185 -0.00053373 0.0017752 0.23992 0.055743
-0.0084198 0.010521 0.0029744 -0.00095283
-0.00048698 -0.001799 -0.0010472 -0.00037283 -0.0010909 -0.0011617 -0.0083856 0.01053
0.18633 0.14359 -0.0046247 0.0095996
-0.00032221 0.00062804 -0.0004673 -0.00079022 -7.0956e-05 -0.00043008 0.002981 -0.0010124
-0.0046259 0.0096181 0.23928 0.21008
1700000000 0.28962 -0.021843 0.0021194 0.0091976 -0.0036241 3.1574e-05 0.0031561 -0.0014979
-0.0021331 -0.00097842 0.00066117 0.00047297
0.0021276 0.0092065 0.22309 0.24208 0.0040976 0.00052479 -0.0016308 -0.0006333
-0.00077716 9.5643e-05 -0.00095822 -0.00051716
-0.0036441 7.9551e-05 0.0041079 0.00050992 0.25966 -0.19631 0.00075562 0.001617
-0.0021298 -0.00030267 -0.00042209 -0.00085621
0.0031454 -0.0014524 -0.0016571 -0.00062437 0.0007557 0.0016324 0.23782 0.0081319
-0.0047712 0.011612 0.0018236 -0.0025071
-0.0021413 -0.00094878 -0.00078351 0.00010907 -0.0021182 -0.00029688 -0.0047477 0.01165
0.20411 0.12457 0.00015289 0.010031
0.00068915 0.00047058 -0.00095081 -0.00050775 -0.00042166 -0.00087432 0.0017267 -0.0025871
0.00011998 0.0099448 0.25679 0.17567
1760000000 0.2772 -0.070471 0.0042902 0.0059074 -0.0024834 0.0010174 0.001176 -0.0036515
-0.001562 0.00059667 0.00044179 -0.00063974
0.0042758 0.0059011 0.24896 0.20194 0.0016708 -0.0013746 -0.0013348 0.00026088
-0.00099289 0.00095776 -0.0006505 0.00034843
-0.0024734 0.0010339 0.0016638 -0.0013871 0.2105 -0.22977 0.001273 0.00085016
-0.0013397 0.0014515 -0.0013483 -0.00061768
0.0011599 -0.0036482 -0.0013286 0.00027311 0.0013247 0.00082811 0.23089 -0.041441
-0.00039044 0.010622 -0.00015201 -0.0029013
-0.001522 0.00060052 -0.00097502 0.00093816 -0.0012859 0.0014662 -0.00035455 0.010653
0.21938 0.090679 0.0043396 0.0073635
0.00044494 -0.00061962 -0.00064463 0.00035693 -0.0013586 -0.00062069 -0.00013588 -0.0029319
0.0044102 0.0073144 0.26981 0.13839
1820000000 0.25248 -0.10771 0.0043562 0.0023553 -0.00017756 0.0025302 -0.0012221 -0.0031619
-0.0013922 0.00099786 -3.4911e-05 -8.969e-05
0.0043586 0.0023696 0.25893 0.1716 -0.00044869 -0.00030988 -0.0013172 0.0010743
2.5182e-05 0.0012577 -0.00061159 0.00059045
-0.00011359 0.0025355 -0.00045646 -0.00029799 0.16027 -0.24557 0.0014015 0.00010687
-0.00018363 0.0024924 -0.0013504 0.00028023
-0.001236 -0.0031233 -0.0013179 0.0010911 0.0014107 8.9317e-05 0.20376 -0.088077
0.0019009 0.0085731 -0.0018063 -0.0018495
-0.0013567 0.0010103 4.3935e-05 0.0012507 -0.00019253 0.0024815 0.001963 0.0085963
0.23729 0.062814 0.0053019 0.0036035
-5.5652e-05 -7.117e-05 -0.00062104 0.00059035 -0.0013671 0.00029962 -0.0018107 -0.0018339
0.0052694 0.0035963 0.27299 0.10275
1880000000 0.21722 -0.1479 0.0020431 0.0002126 -0.00047314 0.0021891 -0.0030904 -0.0021145
-0.00025098 0.0019726 0.00014428 -0.00058064
0.0020416 0.00022307 0.26301 0.12475 -0.0025186 0.0015854 -6.2304e-05 0.001696
0.0005201 0.0010973 9.8647e-05 0.001008
-0.00043823 0.0021586 -0.002522 0.0016094 0.10803 -0.25462 0.0015139 -0.00077029
0.0015721 0.0020227 -0.001015 0.0014012
-0.0030635 -0.0021038 -5.6302e-05 0.0016938 0.0014872 -0.00077819 0.16611 -0.12941
0.0032249 0.0058196 -0.0026892 0.0002219
-0.00025937 0.0020013 0.00049945 0.0011124 0.0015738 0.0020091 0.0032356 0.0058002
0.24102 0.031199 0.0055096 0.0013483
0.0001614 -0.00058399 0.00011659 0.001035 -0.0010011 0.0014416 -0.0026029 0.00013513
0.0055398 0.0013785 0.27341 0.068302
1940000000 0.17782 -0.1735 -0.00024538 -0.0013299 0.0013343 0.0021134 -0.0035837 0.00070042
0.0015269 0.0012292 -0.00074007 -0.00048411
-0.0002559 -0.0013243 0.26322 0.092942 -0.0012651 0.003885 0.0010575 0.0012469
0.0017084 0.00049147 0.00091109 0.00038454
0.0013596 0.0021143 -0.0012238 0.0039188 0.062293 -0.24789 0.00030877 -0.001857
0.0024118 0.00050231 0.00049064 0.0016998
-0.0036559 0.00071253 0.0010399 0.0012614 0.00033061 -0.0018624 0.11539 -0.16209
0.0025017 0.0034634 -0.0018168 0.0015367
0.0014947 0.0012254 0.0017063 0.00048268 0.0024769 0.00050468 0.0025309 0.0034358
0.24444 -0.0069707 0.0041152 -0.0023749
-0.00072647 -0.00048665 0.00091547 0.00036022 0.00049851 0.0017238 -0.0018213 0.0014347
0.0041387 -0.0022925 0.26281 0.032654
2000000000 0.13146 -0.18812 -0.0040737 0.00093114 0.0026452 0.0018265 -0.0023156 0.0034723
0.0012037 0.00019006 -0.00059527 0.0004965
-0.0040756 0.0009019 0.24862 0.057614 -0.0010858 0.0057958 0.0015004 0.00038922
0.0012193 -0.0011747 0.00052562 0.00019305
0.0025943 0.0018152 -0.0010682 0.0058172 0.019111 -0.23347 -0.0011003 -0.0013167
0.0020648 -0.0012119 0.0017457 0.0014024
-0.0022919 0.0035155 0.0015154 0.00036088 -0.0010397 -0.0013889 0.061989 -0.17446
0.00064898 0.0025054 -0.0001297 0.0022364
0.001236 0.00011932 0.0012201 -0.001222 0.0021577 -0.0011963 0.00062268 0.002417
0.23983 -0.040859 0.00083106 -0.0033507
