!Keysight Technologies,M9804A,MY58100912,A.14.10.03
!Date: Thursday, April 27, 2023 10:28:33
!Correction: S11(C  6-Port  ) 
!S12(C  6-Port  ) 
!S13(C  6-Port  ) 
!S14(C  6-Port  ) 
!S15(C  6-Port  ) 
!S16(C  6-Port  ) 
!S21(C  6-Port  ) 
!S22(C  6-Port  ) 
!S23(C  6-Port  ) 
!S24(C  6-Port  ) 
!S25(C  6-Port  ) 
!S26(C  6-Port  ) 
!S31(C  6-Port  ) 
!S32(C  6-Port  ) 
!S33(C  6-Port  ) 
!S34(C  6-Port  ) 
!S35(C  6-Port  ) 
!S36(C  6-Port  ) 
!S41(C  6-Port  ) 
!S42(C  6-Port  ) 
!S43(C  6-Port  ) 
!S44(C  6-Port  ) 
!S45(C  6-Port  ) 
!S46(C  6-Port  ) 
!S51(C  6-Port  ) 
!S52(C  6-Port  ) 
!S53(C  6-Port  ) 
!S54(C  6-Port  ) 
!S55(C  6-Port  ) 
!S56(C  6-Port  ) 
!S61(C  6-Port  ) 
!S62(C  6-Port  ) 
!S63(C  6-Port  ) 
!S64(C  6-Port  ) 
!S65(C  6-Port  ) 
!S66(C  6-Port  ) 
!S6P File: Measurement: :
# Hz S  RI   R 50
500000000 -0.33763 -0.037554 -0.0099123 -0.0015039 -0.0081502 0.013 -0.003756 0.011813
0.012984 0.005424 -0.0041948 0.0090461
-0.0099036 -0.0015092 -0.41883 -0.051355 0.0074848 -0.010561 0.0013166 0.011978
0.0077581 0.0025966 0.0012205 0.013483
-0.0081007 0.013098 0.0074939 -0.010533 -0.26606 0.21009 0.0078956 0.0034177
-0.0020054 0.0083625 0.0017872 0.012229
-0.0039046 0.011757 0.0012568 0.011988 0.0078703 0.0034204 -0.33134 0.043492
-0.018928 -0.0062123 0.015155 0.02551
0.01348 0.005286 0.0079252 0.0025363 -0.001963 0.008352 -0.018971 -0.0061556
-0.22685 -0.19337 -0.026012 0.005196
-0.0042523 0.0088311 0.0012221 0.013436 0.0017731 0.01218 0.015203 0.025537
-0.026009 0.005128 -0.26866 -0.12848
560000000 -0.31704 0.12363 -0.024367 -0.063815 0.00067926 0.012506 0.0054316 0.010137
0.0091972 0.0050699 0.010272 0.0071328
-0.024282 -0.063685 -0.37759 0.10831 -0.042064 -0.037661 0.01411 0.0043027
-0.01405 -0.0049636 0.0040842 0.00067513
0.00058898 0.01247 -0.042335 -0.037559 -0.18316 0.25784 -0.0010207 -0.004381
0.019185 0.0042021 0.0068378 -0.0061947
0.0055903 0.010191 0.014159 0.0042906 -0.00098723 -0.0044064 -0.30569 0.13419
0.0045789 -0.023109 0.004495 -0.0216
0.0094692 0.0053046 -0.013769 -0.0048133 0.019251 0.0041432 0.0046361 -0.023167
-0.29036 -0.019964 0.008192 -0.049921
0.010213 0.0070698 0.0038304 0.0006779 0.0067759 -0.0062051 0.0044837 -0.021552
0.0082899 -0.050009 -0.32961 0.019504
620000000 -0.27511 0.10801 -0.023446 0.0077526 0.0038463 0.0087964 0.0087166 -0.0042394
0.011139 -0.0014852 0.0013495 -0.0020641
-0.023425 0.0077601 -0.40289 0.059906 -0.018665 0.00026041 -0.0013048 -0.0019785
0.011394 -0.007025 0.0017945 -0.0029854
0.0038252 0.0087047 -0.018706 0.00032999 -0.15334 0.26705 -0.001102 -0.004934
-0.0032931 -0.0032467 0.0091081 -0.0026757
0.0089304 -0.0043851 -0.001364 -0.0019667 -0.0010515 -0.0049547 -0.2658 0.14469
-0.037665 -0.019474 0.011304 0.02678
0.010825 -0.0010292 0.011403 -0.0070281 -0.0033294 -0.0032141 -0.037718 -0.019533
-0.20869 -0.05523 -0.040601 0.013706
0.0014741 -0.0022034 0.001802 -0.0029896 0.0091335 -0.0026936 0.011191 0.026744
-0.040681 0.013688 -0.2526 -0.015289
680000000 -0.23459 0.19364 -0.027305 -0.013505 0.0049878 0.0055057 0.0011392 -0.0070647
-0.0028443 -0.011379 0.0039829 -0.0064715
-0.027246 -0.01348 -0.3879 0.15826 -0.032574 -0.00082985 -0.0018273 -0.00034252
-0.0019715 -0.0088927 -0.0019693 -0.0020866
0.005102 0.0055401 -0.032559 -0.00073703 -0.10186 0.28723 -0.00096344 -0.00012711
-0.0019394 0.00047936 -0.0032664 -0.0094287
0.0011082 -0.0070954 -0.0018402 -0.00033293 -0.00097502 -0.0001272 -0.22062 0.19358
-0.024103 -0.0068673 -0.0095833 -0.011033
-0.0029479 -0.011344 -0.0020297 -0.0088688 -0.0019581 0.00050693 -0.024083 -0.006828
-0.25879 0.041383 -0.0057355 -0.0082377
0.0040241 -0.0063734 -0.0019336 -0.0020041 -0.0032607 -0.0094313 -0.0095431 -0.011049
-0.0056898 -0.0082292 -0.26054 0.088859
740000000 -0.18994 0.18752 -0.037994 0.027071 0.012995 -0.0052578 -0.00039036 -0.004252
-0.0039712 -0.0029406 -0.0060438 0.0023433
-0.037946 0.027017 -0.33524 0.17723 -0.035278 0.034958 -0.00064339 -0.0064931
-0.012251 0.0081227 -0.0018654 -0.0068758
0.01289 -0.0052421 -0.03521 0.0351 -0.068213 0.28478 -0.0019701 0.0036294
-0.0025465 -0.0051938 -0.0015677 0.0010464
-0.00032795 -0.0041462 -0.00062365 -0.0065585 -0.0019598 0.0036507 -0.20344 0.20226
-0.043911 -0.0066914 0.023241 0.014612
-0.0040355 -0.0031041 -0.012201 0.0081282 -0.0025496 -0.0051674 -0.044005 -0.0066743
-0.15899 0.069703 -0.044076 0.0003463
-0.0061376 0.0024039 -0.0018699 -0.0068622 -0.0015994 0.0010379 0.023201 0.014591
-0.044 0.00034005 -0.24861 0.094756
800000000 -0.15664 0.22858 -0.022361 0.016798 0.0053333 -0.010427 -0.0051088 -0.001848
-0.0045161 0.0029997 0.0036481 0.00087568
-0.02236 0.016768 -0.33817 0.24663 -0.0078567 0.034006 -0.0024459 0.0022372
-0.00098861 0.0032868 0.0010093 0.0053147
0.0053113 -0.010499 -0.0077758 0.034058 -0.027523 0.30815 0.00083462 0.0015332
0.0003939 0.0036222 -0.0021772 0.0010464
-0.0051407 -0.0018439 -0.0024039 0.0022719 0.00082554 0.0015398 -0.17518 0.22996
-0.028173 0.013866 0.013265 -0.010131
-0.0044446 0.0029837 -0.00098657 0.0032609 0.00039825 0.0036069 -0.028161 0.013927
-0.2068 0.093001 -0.017013 0.019108
0.0036879 0.00085004 0.0010527 0.0053128 -0.0021979 0.0010309 0.01326 -0.010199
-0.017015 0.019146 -0.24362 0.14536
860000000 -0.12257 0.24828 -0.017088 0.03056 -0.0033874 -0.010011 -0.0024691 0.00084017
0.004155 0.0046921 -0.0036584 -0.0028677
-0.017092 0.030521 -0.2903 0.28858 0.0079533 0.034124 3.8069e-05 0.0020257
0.0041986 1.9169e-05 0.0034402 0.00038064
-0.0034108 -0.0099909 0.0080584 0.034123 0.020246 0.3157 -0.0005357 -0.00016594
0.0028645 -0.0016612 0.0016768 0.003953
-0.0025165 0.00086697 1.2622e-05 0.002031 -0.00054101 -0.00016729 -0.13899 0.24074
-0.017652 0.018575 -0.005794 -0.0095292
0.0041579 0.0047842 0.0041664 -5.8588e-05 0.0028547 -0.0016721 -0.017683 0.018623
-0.1556 0.14289 -0.02421 0.016062
-0.0036139 -0.0028425 0.0034671 0.00037858 0.001717 0.0039554 -0.0057538 -0.0095097
-0.024199 0.016027 -0.19082 0.18959
920000000 -0.097671 0.27083 0.0054692 0.037642 -0.0094311 -0.0045427 -0.0018744 0.0020568
0.0013389 0.0021837 0.0027147 -0.0015925
0.0054519 0.037621 -0.26143 0.30957 0.028253 0.021735 0.001402 0.0011111
0.007223 -0.00035126 0.0040567 -0.0028214
-0.0094304 -0.0045149 0.028347 0.021675 0.066521 0.31649 0.0019012 -0.00012656
0.0012707 -0.00036577 0.00093558 -0.0012709
-0.0018828 0.0020462 0.0014282 0.0011127 0.0018887 -0.00013905 -0.11501 0.25811
-0.010178 0.030482 0.0035908 -0.0065212
0.0013216 0.0020818 0.0072596 -0.00044611 0.0012374 -0.0003654 -0.01012 0.030492
-0.14397 0.14795 -0.0024343 0.027236
0.0027487 -0.0015774 0.0040765 -0.0028213 0.00093056 -0.0012638 0.0035318 -0.0065103
-0.0023792 0.027333 -0.19863 0.20493
980000000 -0.05042 0.28977 0.01763 0.029595 -0.0090371 0.0044961 0.0019296 0.0033539
0.0039113 -0.0017528 -0.0033934 -0.002308
0.017577 0.029587 -0.20855 0.34315 0.033071 0.004622 0.0020025 -0.00020083
0.0015058 -0.006112 -0.00072621 -0.0022832
-0.0090142 0.0045306 0.033096 0.0045346 0.11272 0.30986 0.00046425 -0.0012302
0.00015256 -0.0022051 0.0012731 -0.00010335
0.0019572 0.0033391 0.0019419 -0.00025407 0.00047291 -0.0012232 -0.07658 0.26886
0.008015 0.029725 -0.0089782 -0.007176
0.003991 -0.0017495 0.0015053 -0.0061113 0.00016395 -0.0021886 0.0080811 0.029742
-0.11442 0.17836 0.0054234 0.019626
-0.0033993 -0.0022591 -0.00077148 -0.0022834 0.0012891 -0.00012224 -0.0089529 -0.0071679
0.0053863 0.019638 -0.15645 0.24845
1040000000 -0.0085603 0.29824 0.033354 0.017625 -0.0013365 0.0068386 0.0025167 0.00083203
5.7246e-05 -0.0035361 -0.00029244 -0.0013856
0.033314 0.017634 -0.17307 0.35632 0.029306 -0.015087 0.0015221 -0.0017452
-0.0025631 -0.0025203 -0.0015163 -0.0026609
-0.0013065 0.0068245 0.029257 -0.015213 0.15895 0.2962 -0.00052112 -0.0014619
-0.0016101 -0.00084984 -0.00052711 -0.0010606
0.0025433 0.00082929 0.0015211 -0.0017523 -0.00052166 -0.0014709 -0.049304 0.27918
0.019314 0.017552 -0.002607 0.0015363
5.8301e-05 -0.0035097 -0.0025923 -0.0024902 -0.0016291 -0.00085339 0.019355 0.017524
-0.082077 0.18525 0.013893 0.018158
-0.00027702 -0.0013727 -0.0015368 -0.0026412 -0.00052901 -0.0010629 -0.0026319 0.0015356
0.01385 0.018183 -0.13551 0.26977
1100000000 0.036912 0.30579 0.035647 -0.0046723 0.0027861 0.0038493 0.0024104 -0.0012244
-0.0020625 -0.0031226 -0.0040214 0.00016198
0.035603 -0.0046519 -0.12991 0.37354 0.014953 -0.028035 -2.2104e-07 -0.0018501
-0.0034455 -0.00072384 -0.0035721 -0.00042863
0.0028062 0.0038544 0.014862 -0.028123 0.20548 0.2757 -0.0018874 0.00024432
-0.0017757 0.00051972 -0.0011763 -0.00023327
0.002415 -0.0012596 -6.8511e-06 -0.0018633 -0.0018875 0.00024127 -0.0089698 0.28419
0.024428 0.0046049 -0.0025528 7.0343e-05
-0.002058 -0.0030949 -0.0034552 -0.00070295 -0.0017893 0.00053203 0.024441 0.0045776
-0.064765 0.19947 0.019232 0.0084043
-0.0040168 0.00018188 -0.003588 -0.00040991 -0.0011784 -0.00023238 -0.0025327 0.00010599
0.019248 0.0083937 -0.089312 0.29849
1160000000 0.088037 0.30101 0.02354 -0.021008 0.0025286 -0.00044975 -0.00013245 -0.0023874
-0.0041673 -0.00060383 -0.00098865 0.0040366
0.023521 -0.020958 -0.08634 0.37779 -0.0040395 -0.029057 -0.0016469 -0.0017164
-0.0026175 0.0026107 -0.0013721 0.001896
0.0025305 -0.00045561 -0.0041819 -0.029054 0.24839 0.24459 -0.00076453 0.001793
-0.00052132 0.0020203 -0.00081313 0.00031935
-0.00011468 -0.0023899 -0.0016388 -0.0017088 -0.00075953 0.0017986 0.030086 0.28145
0.020418 -0.010789 -0.0031169 0.0052111
-0.0041636 -0.00057599 -0.0025876 0.0026253 -0.00051255 0.0020247 0.020413 -0.010832
-0.031352 0.20877 0.017971 0.00028169
-0.00098606 0.0040126 -0.0013753 0.0018909 -0.00081879 0.0003231 -0.0031403 0.0052046
0.017986 0.00024831 -0.042804 0.30211
1220000000 0.13245 0.28983 0.0098441 -0.030004 -0.0016215 -0.00069813 -2.4503e-05 -0.00096498
-0.002778 0.0024809 0.0013253 0.0021457
0.0098594 -0.029963 -0.041929 0.38985 -0.017145 -0.021076 -0.0025685 0.00048864
0.00011141 0.003112 -0.00070754 0.0019589
-0.0016144 -0.00070299 -0.017254 -0.021013 0.28739 0.20517 0.00086821 0.0016775
0.00064753 0.0011386 0.00033802 0.00064727
-1.0436e-05 -0.00096141 -0.0025664 0.00050806 0.00087313 0.0016752 0.069935 0.2733
0.0098463 -0.016979 0.0021778 0.0015164
-0.0027418 0.0025061 9.325e-05 0.0031128 0.00063304 0.0011463 0.0098275 -0.016996
-0.0083802 0.21839 0.014084 -0.012871
0.0013551 0.0021368 -0.00070678 0.001985 0.0003472 0.00064769 0.0021693 0.0015094
0.014085 -0.012829 -0.010922 0.31862
1280000000 0.18227 0.26763 -0.008416 -0.028184 -0.001914 0.0027239 -0.00088328 -0.0020064
-0.00067597 0.0031399 0.0027405 0.0011532
-0.008387 -0.028154 0.0041369 0.3808 -0.02388 -0.0082858 -0.00098099 0.0013892
0.0017584 0.0018406 0.00062675 0.0019997
-0.0019043 0.0027218 -0.023947 -0.0081709 0.31755 0.16127 0.001553 -0.00010371
0.0011762 0.00023304 0.00036777 0.00023711
-0.00089056 -0.0020189 -0.00098336 0.0014096 0.0015466 -9.1882e-05 0.10671 0.25725
0.00045912 -0.018815 0.00010434 0.0003293
-0.00065639 0.0031634 0.0018054 0.0018093 0.0011762 0.00024321 0.00041921 -0.018822
0.02792 0.2226 0.0028735 -0.015031
0.0027185 0.0011361 0.00063918 0.002021 0.00036948 0.00023279 9.9847e-05 0.00035783
0.0028714 -0.015066 0.03649 0.32026
1340000000 0.21917 0.23367 -0.017858 -0.018401 0.00098338 0.0045897 -0.0017952 -0.00085781
0.0015319 0.0026613 0.0016737 -0.0014581
-0.017828 -0.018406 0.043492 0.3725 -0.021613 0.0044413 -3.3661e-05 0.0020112
0.001956 0.00069246 0.0012952 0.00082115
0.00098882 0.0045749 -0.021617 0.0045579 0.3391 0.11353 0.0011808 -0.00093956
0.00077363 -0.00040514 0.00023516 0.0003064
-0.0017862 -0.00082906 -2.2323e-05 0.0020021 0.0011858 -0.0009581 0.13946 0.23712
-0.0087395 -0.015759 0.0009322 0.00052838
0.001541 0.0026555 0.0019763 0.00069154 0.00077078 -0.00041682 -0.0087826 -0.015758
0.058122 0.2186 -0.0037364 -0.013457
0.0016671 -0.0014642 0.0013098 0.00081412 0.00023697 0.00029781 0.00093303 0.00050223
-0.0037327 -0.013443 0.074806 0.31564
1400000000 0.25203 0.19514 -0.023297 -0.0068556 0.0053416 0.0030883 -0.0021092 0.00069479
0.002468 0.0008722 0.00029156 -0.0014224
-0.023276 -0.0068745 0.080773 0.35933 -0.014795 0.012528 0.0013502 0.0012489
0.0011331 -0.00087952 0.0011867 0.00014002
0.0053708 0.0030693 -0.014738 0.012616 0.3522 0.060348 4.2892e-05 -0.0016576
-3.1743e-05 -0.00040056 0.00044239 0.00020452
-0.0021055 0.00067253 0.0013301 0.0012511 3.3891e-05 -0.0016549 0.16916 0.20863
-0.014241 -0.0090107 -0.00075542 -0.00027147
0.00243 0.0008456 0.0011398 -0.00088732 -2.3385e-05 -0.00037857 -0.014263 -0.0089914
0.091409 0.21451 -0.01022 -0.0086726
0.00026973 -0.0014308 0.001188 0.00012978 0.00044682 0.00021496 -0.00075822 -0.00027052
-0.01024 -0.0086747 0.1198 0.30484
1460000000 0.27438 0.15098 -0.020032 0.0051365 0.0056773 -0.0019315 -0.0015794 0.0017407
0.0021587 -0.00059857 -0.00038604 -0.00097702
-0.020016 0.0051209 0.1148 0.33739 -0.0060617 0.015448 0.0017831 0.00014347
0.00084512 -0.0013094 0.0011446 -0.00062214
0.0056548 -0.0019757 -0.0059936 0.0155 0.35822 0.0063042 -0.0012586 -0.0011804
0.00028409 -0.00019326 0.00060739 -0.00035263
-0.0015542 0.0017616 0.0017831 0.00012781 -0.0012531 -0.0011741 0.1959 0.17958
-0.015176 -0.002321 -0.00072642 0.0017806
0.0021398 -0.00063744 0.00082476 -0.0013061 0.00026086 -0.00019513 -0.015204 -0.0022901
0.12071 0.20051 -0.011959 -0.0025584
-0.00039721 -0.00097291 0.0011332 -0.00061832 0.00060528 -0.00035624 -0.0007119 0.0017749
-0.011984 -0.0025998 0.15284 0.28386
1520000000 0.28627 0.10918 -0.014257 0.01046 0.0032928 -0.0042823 9.9021e-05 0.0025525
0.0019304 -0.001848 -0.0012054 -7.5931e-05
-0.01426 0.010435 0.14827 0.32261 0.0016758 0.013093 0.0016024 -0.00085817
-2.4681e-05 -0.00098491 0.00032208 -0.0010195
0.0032882 -0.0043058 0.0017454 0.013104 0.35162 -0.049781 -0.0011379 -0.00028563
0.00065737 -0.00084662 -1.1995e-05 -0.00011775
9.8451e-05 0.0025672 0.0016079 -0.00086599 -0.0011465 -0.00027763 0.21944 0.14167
-0.014122 0.0031856 0.0014472 0.0020371
0.0019354 -0.0018472 -2.7189e-05 -0.00099814 0.00066333 -0.0008522 -0.014125 0.003223
0.14901 0.18651 -0.01163 0.0020144
-0.0011965 -7.9932e-05 0.00030469 -0.0010217 -1.8013e-05 -0.00011506 0.0014378 0.0020232
-0.01162 0.0020267 0.18618 0.26372
1580000000 0.2953 0.062985 -0.007598 0.013369 -0.00086635 -0.0048882 0.0015543 0.0019286
-0.00027733 -0.0020711 -0.00038 0.00024376
-0.0076004 0.013354 0.17545 0.29778 0.0052771 0.0082652 0.00042475 -0.0016372
-0.00049214 -0.0009883 -0.00023026 -0.00092537
-0.00090101 -0.0048782 0.0053315 0.0082446 0.33154 -0.10765 -0.0015675 0.0005788
-0.0002972 -0.0011372 0.00015673 -0.00048989
0.0015539 0.0019182 0.0004186 -0.0016435 -0.0015764 0.00056371 0.2336 0.10226
-0.010501 0.0076063 0.0022923 0.00071482
-0.00030205 -0.0020686 -0.00051039 -0.00098124 -0.00030979 -0.0011482 -0.010484 0.0076372
0.17379 0.16869 -0.0091288 0.0076226
-0.00037711 0.00026177 -0.00023589 -0.00093903 0.00015187 -0.00050787 0.0022728 0.00072182
-0.0091335 0.007607 0.21842 0.2367
1640000000 0.29691 0.021797 -0.0010595 0.012019 -0.00292 -0.0026815 0.0026991 0.00098074
-0.00082116 -0.0013985 -0.0003224 0.00058555
-0.0010778 0.012008 0.20479 0.27281 0.0059354 0.0035022 -0.00074293 -0.0016766
-0.00099582 -0.00037205 -0.00049331 -0.00061267
-0.0029283 -0.0026577 0.0059598 0.0034685 0.30328 -0.15657 -0.00069412 0.0015339
-0.0012562 -0.00089945 -0.00019031 -0.00021145
0.0027153 0.00098084 -0.00073765 -0.001664 -0.00067662 0.00152 0.2461 0.053352
-0.0062498 0.0084437 0.0023818 -0.00090857
-0.00083064 -0.0013882 -0.0010052 -0.0003612 -0.0012461 -0.00089151 -0.0062267 0.0084714
0.19688 0.14429 -0.0043501 0.0094781
-0.00030916 0.0005709 -0.00050558 -0.0006129 -0.00019659 -0.00020949 0.0024237 -0.0009196
-0.0043633 0.0094868 0.24381 0.20571
1700000000 0.28955 -0.023383 0.0022316 0.0091036 -0.0035117 0.00010773 0.0030027 -0.0012794
-0.0019708 -0.00054401 0.00063284 0.00043114
0.0022205 0.0090888 0.22292 0.24128 0.0040025 0.00055708 -0.0014802 -0.00054793
-0.00075433 -1.0395e-07 -0.00093359 -0.0005064
-0.0035205 0.00012926 0.0040061 0.00053216 0.26001 -0.1964 0.00041201 0.0015251
-0.0019185 -0.00018726 -0.000452 -0.00078626
0.0029849 -0.0013 -0.0014631 -0.00054128 0.0004206 0.0015447 0.24308 0.0035937
-0.0038214 0.0087179 0.0014504 -0.0023526
-0.0019743 -0.00053381 -0.00074722 3.0949e-06 -0.0019151 -0.00018865 -0.0037921 0.0087538
0.21432 0.12389 0.00043764 0.0096142
0.00061525 0.00044103 -0.0009286 -0.00051454 -0.00044461 -0.00079279 0.0014229 -0.0023828
0.00045315 0.0096176 0.2605 0.17144
1760000000 0.27705 -0.071662 0.0042883 0.0058166 -0.0022987 0.00087309 0.0012199 -0.0034259
-0.0013088 0.00074735 0.00046799 -0.00053396
0.0042725 0.0058156 0.24872 0.20141 0.0017467 -0.0013198 -0.0011895 0.00021192
-0.0010572 0.00081936 -0.00057912 0.00050299
-0.0023168 0.00088956 0.0017382 -0.0013332 0.21162 -0.23034 0.001163 0.0010721
-0.0010264 0.0014671 -0.0011532 -0.00042518
0.0012086 -0.0034048 -0.0012072 0.00023724 0.0011559 0.0010719 0.23412 -0.047939
-0.00088561 0.0076624 -0.00020154 -0.0025103
-0.0012893 0.00075829 -0.0010606 0.00084248 -0.0010323 0.0014942 -0.00087897 0.0076837
0.2291 0.088437 0.0044118 0.007038
0.00048712 -0.00055338 -0.0005518 0.00052009 -0.0011461 -0.00042142 -0.00019862 -0.0024739
0.0043876 0.0070353 0.27314 0.13354
1820000000 0.25234 -0.10872 0.0043438 0.0023803 -0.00014399 0.0024159 -0.0010548 -0.0031101
-0.00098531 0.0008619 -6.041e-05 -0.00013957
0.0043392 0.002382 0.25866 0.1714 -0.00027413 -0.00011329 -0.0012403 0.00091383
-0.00011187 0.0012904 -0.00059784 0.00049123
-0.00011675 0.0024159 -0.00028149 -0.00010888 0.16095 -0.24581 0.0013917 0.0003652
-0.00029511 0.0022264 -0.0016298 0.00030497
-0.0010825 -0.0031033 -0.0012155 0.00091471 0.0013899 0.0003643 0.20417 -0.09515
0.00026578 0.006212 -0.0018171 -0.0016149
-0.00097319 0.00085983 -9.3944e-05 0.0013008 -0.00028941 0.0022228 0.00029953 0.0062343
0.24613 0.059191 0.0052332 0.0030837
-6.2032e-05 -0.00013364 -0.0005907 0.00050221 -0.0016192 0.00029546 -0.0018186 -0.0016767
0.005265 0.0030991 0.27578 0.097504
1880000000 0.21714 -0.14892 0.0021571 0.00024144 -0.00045277 0.0022471 -0.002985 -0.00209
-0.00018594 0.001537 0.00023839 -0.00057771
0.0021628 0.00024301 0.26307 0.12471 -0.0023541 0.0015478 -0.00012922 0.0016257
0.00057323 0.0013049 7.3104e-05 0.0010136
-0.0004008 0.0022697 -0.0023477 0.0015666 0.10824 -0.2554 0.0018398 -0.0008681
0.0014518 0.0019244 -0.001054 0.0013958
-0.0029924 -0.0020651 -0.00014993 0.0016588 0.0018504 -0.00087038 0.16356 -0.13548
0.0007638 0.0042766 -0.0024402 0.00046978
-0.00015988 0.0015473 0.00058544 0.0012937 0.0014461 0.0019264 0.00077007 0.0042804
0.2487 0.026112 0.0050433 0.0010361
0.00026746 -0.00056296 0.0001083 0.00099887 -0.0010598 0.001397 -0.0024704 0.00048576
0.0050296 0.00099766 0.27512 0.063039
1940000000 0.17778 -0.17453 -8.2941e-05 -0.0013755 0.0014661 0.001962 -0.0038858 0.00063238
0.0012179 0.0010581 -0.00051104 -0.00055001
-5.9184e-05 -0.0013785 0.26343 0.092894 -0.0011927 0.0037172 0.00095049 0.0012776
0.0018932 0.00054421 0.0009146 0.00041139
0.0014892 0.0019425 -0.0011704 0.0037317 0.062446 -0.24877 0.00038988 -0.0020716
0.0024455 0.00042347 0.00044501 0.0017982
-0.0038658 0.00064274 0.00095924 0.0012572 0.00037787 -0.0020812 0.11125 -0.16564
-0.00048546 0.0034133 -0.001473 0.0013786
0.0012353 0.0010218 0.001896 0.00052415 0.0024256 0.00042595 -0.00047102 0.0034242
0.24999 -0.012749 0.0038345 -0.0025589
-0.00054871 -0.00055176 0.00092297 0.00042102 0.00045632 0.0017988 -0.0014076 0.001379
0.0038447 -0.0025139 0.26375 0.026979
2000000000 0.13126 -0.18912 -0.0039518 0.00069426 0.0025271 0.001758 -0.0022499 0.0035738
0.0010632 0.00031587 -0.000621 0.00046066
-0.0039465 0.00068399 0.24914 0.057425 -0.0011073 0.0057981 0.0015712 0.00032407
0.0014011 -0.0013453 0.00048603 0.00011737
0.0025456 0.001751 -0.0010577 0.0057974 0.018515 -0.23392 -0.0013861 -0.0012449
0.0019519 -0.0010919 0.0017729 0.0012818
-0.0022299 0.0035993 0.0016001 0.00033824 -0.0013425 -0.0012162 0.057755 -0.17556
-0.0021116 0.0036302 -0.00015259 0.0025069
0.0010413 0.00031968 0.0013801 -0.0013602 0.001956 -0.0010863 -0.0020849 0.0036333
