!Keysight Technologies,M9804A,MY58100912,A.14.10.03
!Date: Thursday, April 27, 2023 10:28:33
!Correction: S11(C  6-Port  ) 
!S12(C  6-Port  ) 
!S13(C  6-Port  ) 
!S14(C  6-Port  ) 
!S15(C  6-Port  ) 
!S16(C  6-Port  ) 
!S21(C  6-Port  ) 
!S22(C  6-Port  ) 
!S23(C  6-Port  ) 
!S24(C  6-Port  ) 
!S25(C  6-Port  ) 
!S26(C  6-Port  ) 
!S31(C  6-Port  ) 
!S32(C  6-Port  ) 
!S33(C  6-Port  ) 
!S34(C  6-Port  ) 
!S35(C  6-Port  ) 
!S36(C  6-Port  ) 
!S41(C  6-Port  ) 
!S42(C  6-Port  ) 
!S43(C  6-Port  ) 
!S44(C  6-Port  ) 
!S45(C  6-Port  ) 
!S46(C  6-Port  ) 
!S51(C  6-Port  ) 
!S52(C  6-Port  ) 
!S53(C  6-Port  ) 
!S54(C  6-Port  ) 
!S55(C  6-Port  ) 
!S56(C  6-Port  ) 
!S61(C  6-Port  ) 
!S62(C  6-Port  ) 
!S63(C  6-Port  ) 
!S64(C  6-Port  ) 
!S65(C  6-Port  ) 
!S66(C  6-Port  ) 
!S6P File: Measurement: :
# Hz S  RI   R 50
500000000 -0.33623 -0.038959 -0.0098212 -0.0025319 -0.0078111 0.012402 -0.0042028 0.012154
0.012812 0.0052044 -0.0047539 0.0090573
-0.0098021 -0.0025162 -0.41891 -0.051119 0.0085927 -0.010936 0.0017776 0.012083
0.0073657 0.0025033 0.0021217 0.013511
-0.007796 0.012398 0.008567 -0.010934 -0.26426 0.20845 0.0079054 0.0032736
-0.0019063 0.0076881 0.001845 0.011846
-0.0041698 0.01216 0.0017837 0.012103 0.0079161 0.0032762 -0.33 0.044036
-0.017808 -0.0065704 0.016027 0.026549
0.012863 0.005206 0.0073487 0.0024437 -0.0019299 0.0076791 -0.017817 -0.0065759
-0.22394 -0.19493 -0.025399 0.0043359
-0.0048201 0.0088587 0.0016489 0.013488 0.0017414 0.011868 0.015831 0.025938
-0.024976 0.0048434 -0.26677 -0.13161
560000000 -0.31615 0.12353 -0.023297 -0.06437 0.00015028 0.011763 0.0055144 0.010167
0.0098494 0.0042399 0.011189 0.0075574
-0.023229 -0.064304 -0.37881 0.1075 -0.040665 -0.038434 0.013076 0.0041263
-0.012237 -0.0048649 0.0033748 0.00021409
0.00016471 0.011775 -0.040785 -0.038372 -0.18249 0.25684 -0.00052795 -0.0051263
0.01964 0.0046921 0.0067594 -0.0061757
0.0055472 0.010171 0.013072 0.0040618 -0.00053594 -0.0051205 -0.30488 0.13291
0.0051839 -0.024359 0.0041273 -0.021373
0.0098663 0.004223 -0.012222 -0.0048618 0.019709 0.0047107 0.0052361 -0.024374
-0.28906 -0.021777 0.008699 -0.048703
0.010864 0.0076387 0.0032118 2.141e-05 0.006809 -0.006367 0.0043136 -0.021731
0.0086375 -0.048454 -0.32897 0.016594
620000000 -0.2746 0.1065 -0.023083 0.0076925 0.002799 0.0083741 0.0080386 -0.005237
0.011021 -0.000366 0.0016992 -0.0029068
-0.023058 0.0076833 -0.40219 0.059159 -0.018798 -0.00029721 -0.0014883 -0.0020342
0.01122 -0.0067234 0.0014486 -0.0033542
0.002839 0.0083768 -0.018826 -0.00025624 -0.15398 0.26563 -0.0017281 -0.0051518
-0.003322 -0.0027739 0.0083406 -0.0035716
0.0079971 -0.0052174 -0.0014955 -0.0020419 -0.0017335 -0.0051482 -0.26491 0.14323
-0.037703 -0.019309 0.011309 0.025785
0.010971 -0.0003498 0.011214 -0.0067426 -0.0032449 -0.0028002 -0.037724 -0.019273
-0.20741 -0.059692 -0.040547 0.014065
0.0017147 -0.0027788 0.0013807 -0.0033891 0.0082829 -0.0036574 0.011511 0.025687
-0.040778 0.014109 -0.24983 -0.022003
680000000 -0.23444 0.19178 -0.027374 -0.014675 0.004842 0.0053032 0.00096185 -0.007153
-0.0036986 -0.011209 0.00466 -0.0066208
-0.027343 -0.01468 -0.38769 0.15677 -0.033082 -0.0014768 -0.0019507 -0.00053106
-0.0021497 -0.008623 -0.0013828 -0.0018066
0.0048575 0.0052788 -0.033117 -0.0013915 -0.10313 0.28579 -0.00085165 -4.5501e-05
-0.0019494 0.00089649 -0.0029413 -0.0090157
0.00094485 -0.0071711 -0.0019578 -0.00055184 -0.00084941 -4.0934e-05 -0.2208 0.19293
-0.024055 -0.0083931 -0.0097542 -0.010642
-0.0037299 -0.011193 -0.002184 -0.0086011 -0.0019605 0.00092049 -0.024025 -0.0084037
-0.25868 0.038855 -0.0049897 -0.0081271
0.0046889 -0.0066552 -0.0013932 -0.0017962 -0.0029458 -0.0089932 -0.0097544 -0.010668
-0.0049562 -0.0082466 -0.26132 0.085481
740000000 -0.19066 0.18635 -0.038843 0.02646 0.012704 -0.004896 -0.00029821 -0.004184
-0.0043723 -0.0023372 -0.0058629 0.0026442
-0.038834 0.026422 -0.33499 0.17559 -0.035509 0.035204 -0.00046038 -0.0060968
-0.011867 0.00809 -0.0017865 -0.0062442
0.012706 -0.0049357 -0.035439 0.035358 -0.069563 0.28455 -0.0018307 0.0034261
-0.002063 -0.00483 -0.0019557 0.0001647
-0.0002799 -0.0041944 -0.00049723 -0.0060973 -0.0018296 0.0034198 -0.20403 0.20098
-0.043507 -0.0073909 0.022667 0.014846
-0.0044635 -0.0023726 -0.01182 0.0081592 -0.0020487 -0.0048375 -0.043618 -0.007354
-0.15947 0.064115 -0.044046 0.00016756
-0.0058054 0.0026725 -0.0018139 -0.0062488 -0.0018677 0.00019643 0.02266 0.014893
-0.04399 -8.3365e-05 -0.24955 0.09124
800000000 -0.15818 0.22714 -0.022879 0.016628 0.0053445 -0.010532 -0.0049076 -0.0019469
-0.0039575 0.0022136 0.0047592 0.00061083
-0.022877 0.016613 -0.3386 0.24605 -0.0079888 0.034057 -0.0024102 0.0022489
-0.00020546 0.0031647 0.0010737 0.00529
0.0053231 -0.010559 -0.0078905 0.034129 -0.028502 0.30806 0.001113 0.0014
0.00048601 0.0033424 -0.0016209 0.00097882
-0.0049195 -0.0019274 -0.0024056 0.0022629 0.0011114 0.001393 -0.17601 0.22914
-0.028779 0.013562 0.013446 -0.0098855
-0.0039772 0.0022386 -0.00018815 0.0031542 0.00050668 0.0033535 -0.028821 0.013575
-0.20772 0.087802 -0.017966 0.018686
0.0046771 0.00061378 0.0010466 0.0052891 -0.0016159 0.00091195 0.013353 -0.0099314
-0.017732 0.01871 -0.24445 0.14129
860000000 -0.12357 0.24771 -0.017736 0.030883 -0.0034009 -0.0097711 -0.0025929 0.0010253
0.0041327 0.0047312 -0.0032538 -0.0028615
-0.017744 0.030843 -0.29101 0.28831 0.0078658 0.034407 -4.3951e-05 0.0019686
0.0044704 6.769e-05 0.0031972 0.00072875
-0.0034293 -0.0097701 0.007989 0.03441 0.019675 0.31621 -0.00061246 -0.00044806
0.0027634 -0.0016676 0.0014094 0.0045545
-0.002601 0.0010499 -1.7774e-05 0.0019837 -0.00061381 -0.00044886 -0.13978 0.24066
-0.018224 0.018756 -0.0060041 -0.0094923
0.0041714 0.0047265 0.0044867 6.8141e-05 0.002762 -0.0016771 -0.018214 0.018797
-0.15739 0.13929 -0.026506 0.015055
-0.0033095 -0.0029194 0.0032423 0.00062516 0.0014499 0.0045483 -0.0060012 -0.0095351
-0.026395 0.015162 -0.19307 0.18802
920000000 -0.098622 0.27092 0.005059 0.038208 -0.0094768 -0.004295 -0.0017875 0.0020981
0.00098787 0.0019208 0.0027288 -0.0015697
0.005023 0.03817 -0.26183 0.31006 0.028178 0.02216 0.0014158 0.0010857
0.006785 -0.0005807 0.0039944 -0.0025865
-0.0094784 -0.0042551 0.028274 0.02208 0.066188 0.31674 0.0017355 -0.00011014
0.0011477 -0.00033527 0.0010334 -0.00092669
-0.0017729 0.0021176 0.0014309 0.0010759 0.0017271 -0.00010671 -0.11601 0.25801
-0.011007 0.030789 0.003526 -0.0064209
0.00099911 0.001897 0.0067968 -0.00063308 0.0011519 -0.00034169 -0.010971 0.030821
-0.14772 0.14669 -0.0032524 0.027564
0.0026627 -0.0015633 0.0039801 -0.0025905 0.0010342 -0.00093052 0.0035385 -0.0064189
-0.0032366 0.027568 -0.20214 0.20142
980000000 -0.051103 0.29035 0.017572 0.030322 -0.0089396 0.0047634 0.002207 0.0035774
0.0040278 -0.0014081 -0.0029739 -0.0022413
0.017526 0.030297 -0.20902 0.34387 0.033146 0.0048549 0.0020472 -8.9709e-05
0.0013639 -0.0057787 -0.00016972 -0.0024838
-0.0089232 0.0048028 0.033198 0.0047239 0.11259 0.30995 0.00050435 -0.001136
0.00026522 -0.0020256 0.0015806 -0.00025961
0.0021996 0.0035718 0.0020693 -0.00010712 0.00050501 -0.0011364 -0.077482 0.26977
0.0077958 0.030092 -0.0092444 -0.0072774
0.0040234 -0.0014284 0.0013243 -0.0058047 0.00025416 -0.0020355 0.0078537 0.030079
-0.11736 0.176 0.0045267 0.01944
-0.0029724 -0.0022279 -0.00021209 -0.0024366 0.0015722 -0.00025571 -0.0092261 -0.0072633
0.0045057 0.019425 -0.16013 0.24683
1040000000 -0.0088069 0.29876 0.03326 0.018347 -0.0010813 0.0070107 0.0026888 0.00062098
-3.099e-05 -0.0038037 -0.00020944 -0.0013141
0.033206 0.018352 -0.17317 0.35683 0.029471 -0.014831 0.0014331 -0.0017106
-0.0026264 -0.0024227 -0.0013767 -0.0025359
-0.001062 0.0070213 0.029421 -0.014981 0.15859 0.29617 -0.00048248 -0.0015172
-0.0016446 -0.00088746 -0.00034334 -0.0010919
0.002685 0.00062137 0.0014358 -0.0017326 -0.000483 -0.0015125 -0.049791 0.27995
0.019298 0.018188 -0.0023204 0.0017949
-2.372e-05 -0.0038016 -0.0026869 -0.0024197 -0.0016414 -0.00089074 0.019343 0.01817
-0.084966 0.18491 0.013182 0.018713
-0.00020678 -0.0012723 -0.0013969 -0.0025195 -0.00034832 -0.0010788 -0.0023179 0.0017883
0.013235 0.018675 -0.13824 0.26741
1100000000 0.036698 0.30633 0.036004 -0.0041104 0.0030801 0.0038709 0.0023819 -0.0014714
-0.0020785 -0.0030723 -0.003849 4.0485e-06
0.035969 -0.004082 -0.1297 0.37408 0.015105 -0.027748 -6.3533e-05 -0.0017936
-0.0031617 -0.00056514 -0.0033849 -0.00049939
0.0030988 0.0038617 0.015004 -0.027842 0.20488 0.27575 -0.0018084 0.00028152
-0.0016999 0.00052697 -0.0010711 -0.00053957
0.0023782 -0.0014766 -6.7707e-05 -0.001801 -0.0018075 0.00027114 -0.00914 0.28494
0.024403 0.0050884 -0.0024409 0.00025434
-0.0020757 -0.0030768 -0.0031764 -0.00054299 -0.0017134 0.00052144 0.024427 0.0050479
-0.067081 0.19917 0.018861 0.0089019
-0.0038443 3.4164e-05 -0.0033906 -0.00046669 -0.0010747 -0.00055093 -0.0024403 0.00023511
0.018863 0.0089036 -0.092593 0.29787
1160000000 0.088119 0.30122 0.024103 -0.020691 0.0028783 -0.0006394 -0.00033408 -0.0025213
-0.0041986 -0.00066505 -0.00087331 0.004137
0.024091 -0.020655 -0.085854 0.378 -0.0036949 -0.02899 -0.0017278 -0.0016533
-0.002555 0.0024639 -0.0012443 0.001811
0.0028814 -0.00064857 -0.0038328 -0.029026 0.24786 0.24496 -0.00061807 0.0017236
-0.00058293 0.0018581 -0.00093559 0.00021178
-0.00035143 -0.0025308 -0.0017282 -0.0016573 -0.00061984 0.0017232 0.030539 0.28216
0.020863 -0.010215 -0.0029037 0.0052783
-0.0041845 -0.00064501 -0.0025418 0.0024746 -0.0005839 0.0018575 0.020881 -0.010241
-0.033316 0.20941 0.017995 0.00077863
-0.00082683 0.0041429 -0.0012238 0.0018579 -0.00094706 0.00021858 -0.0028944 0.0052772
0.017997 0.00078169 -0.045997 0.3009
1220000000 0.13239 0.2898 0.010573 -0.030029 -0.001486 -0.001032 -0.00013102 -0.00086554
-0.0026013 0.002562 0.0013887 0.0020167
0.010582 -0.029986 -0.041505 0.38978 -0.016784 -0.021049 -0.0024741 0.00044884
7.0905e-05 0.0028642 -0.00071555 0.0018622
-0.001494 -0.0010183 -0.016898 -0.02101 0.28704 0.20604 0.00079687 0.0015004
0.0005617 0.0011233 0.00027261 0.00067853
-0.00013774 -0.00086975 -0.0024743 0.0004603 0.00080325 0.0015086 0.07035 0.27344
0.010245 -0.016773 0.0024378 0.0014691
-0.0025953 0.002588 6.2442e-05 0.0028678 0.00055702 0.0011185 0.010226 -0.01679
-0.010242 0.21884 0.014418 -0.012509
0.0013876 0.0020093 -0.00072105 0.0018613 0.00027913 0.00065965 0.0024597 0.0014843
0.014407 -0.012481 -0.014771 0.31802
1280000000 0.18205 0.26761 -0.0077165 -0.028524 -0.001915 0.0022583 -0.00091702 -0.0019012
-0.00073332 0.0030582 0.0024735 0.0011154
-0.0076856 -0.028492 0.0043943 0.38051 -0.023518 -0.0084248 -0.00091568 0.0014019
0.001546 0.0016504 0.00062063 0.0020992
-0.001906 0.0022576 -0.023597 -0.0083166 0.31759 0.16215 0.0014859 -7.669e-05
0.0010365 0.00030382 0.00048682 0.00043535
-0.0009294 -0.0018961 -0.00090313 0.0014142 0.0014844 -7.6784e-05 0.10718 0.25699
0.001019 -0.018534 0.00016895 -1.6237e-05
-0.00071371 0.0030651 0.0015686 0.001647 0.001041 0.00030594 0.00097105 -0.018537
0.026707 0.22312 0.0034269 -0.014567
0.0024777 0.0011065 0.00063055 0.0020979 0.00049622 0.00044299 0.00016962 -1.4155e-05
0.003419 -0.014558 0.033819 0.32062
1340000000 0.21898 0.23354 -0.017442 -0.019162 0.0007628 0.0042913 -0.0016578 -0.00072171
0.0014787 0.0026646 0.001717 -0.0013905
-0.017414 -0.019141 0.043579 0.37201 -0.021386 0.0040724 -0.00011347 0.0019127
0.001768 0.00078621 0.0013205 0.00081066
0.00078873 0.0042976 -0.021386 0.0041854 0.33975 0.11408 0.001016 -0.000823
0.00071899 -0.00039037 0.00023549 0.00033638
-0.0016663 -0.00071957 -9.9271e-05 0.0019155 0.0010178 -0.00083132 0.13944 0.23668
-0.0081285 -0.015801 0.0009838 0.00024383
0.0014867 0.0026606 0.0017701 0.00077728 0.00071099 -0.00040025 -0.0081598 -0.015794
0.057121 0.21873 -0.003137 -0.013249
0.0017147 -0.0014079 0.0013171 0.00081693 0.00023708 0.00034276 0.00099059 0.00024122
-0.0031151 -0.013255 0.071866 0.31646
1400000000 0.25156 0.19517 -0.023334 -0.0077434 0.0049181 0.0030536 -0.001961 0.00058146
0.0023764 0.00077858 0.0003293 -0.0013531
-0.023296 -0.0077485 0.080583 0.35883 -0.014798 0.012141 0.0012486 0.0012891
0.0010753 -0.00071152 0.0012101 0.00024119
0.0049169 0.0030392 -0.014756 0.012221 0.35297 0.060355 0.00017206 -0.0014846
1.1607e-05 -0.00037368 0.00042136 0.00025076
-0.0019559 0.0005855 0.0012605 0.0012835 0.00016923 -0.0014755 0.16891 0.2082
-0.013643 -0.0093838 -0.00082487 -0.00074937
0.0023892 0.00075939 0.0010764 -0.00073782 1.3138e-05 -0.0003731 -0.013674 -0.0093598
0.090224 0.21459 -0.0094521 -0.0088668
0.00032783 -0.0013524 0.0012243 0.00023357 0.00043669 0.00022709 -0.00081769 -0.00074484
-0.0094432 -0.0088856 0.11731 0.30569
1460000000 0.27388 0.15112 -0.020567 0.0043886 0.0053545 -0.0017644 -0.0015848 0.0016346
0.0020584 -0.00059781 -0.00040088 -0.0009752
-0.020566 0.0043701 0.11442 0.33701 -0.00624 0.015016 0.0016917 0.00023544
0.00090532 -0.0011951 0.0011785 -0.00062926
0.0053533 -0.0017909 -0.0061739 0.015062 0.35882 0.0058711 -0.0011432 -0.001211
0.00021495 -0.0003166 0.00058612 -0.00030583
-0.0015738 0.0016522 0.0016917 0.00022247 -0.0011412 -0.0012221 0.19527 0.17931
-0.0148 -0.0030231 -0.0010296 0.001787
0.0020438 -0.00060451 0.00089416 -0.0012164 0.0002211 -0.00031339 -0.014824 -0.0029917
0.1195 0.20001 -0.011498 -0.0031145
-0.00039876 -0.00098542 0.001173 -0.00062836 0.00057395 -0.00030394 -0.0010252 0.0017828
-0.011486 -0.0031229 0.15043 0.28521
1520000000 0.28564 0.10952 -0.015036 0.010136 0.0031817 -0.0039648 3.5228e-05 0.002555
0.0019537 -0.0017325 -0.0011079 -8.7306e-05
-0.01503 0.010123 0.14775 0.32238 0.0012506 0.012946 0.0016549 -0.00072672
8.6286e-05 -0.0010167 0.00033314 -0.0010512
0.0031621 -0.0039788 0.0013344 0.012952 0.35179 -0.05065 -0.00097756 -0.00038822
0.00062725 -0.00081664 -1.1512e-05 -0.00013634
3.8961e-05 0.0025644 0.0016512 -0.00073783 -0.00097755 -0.00039127 0.2188 0.14174
-0.014301 0.0023218 0.0011854 0.0019933
0.0019647 -0.0017489 7.9923e-05 -0.0010226 0.00062087 -0.00082466 -0.014305 0.0023566
0.14726 0.18624 -0.011493 0.0012182
-0.0011111 -6.65e-05 0.00031924 -0.0010542 -6.016e-06 -0.00014585 0.0011914 0.0019789
-0.011496 0.0012035 0.18408 0.26504
1580000000 0.29476 0.063701 -0.0084114 0.013426 -0.00088107 -0.0046585 0.0013047 0.0019144
-0.00037875 -0.0020055 -0.00036485 0.00040944
-0.0084137 0.013413 0.17489 0.29775 0.0048654 0.0083252 0.00049265 -0.0015674
-0.0005547 -0.0010694 -0.00029503 -0.00078455
-0.00091066 -0.0046659 0.0049111 0.0083059 0.33122 -0.10789 -0.0015922 0.0005388
-0.00032577 -0.0010601 9.6077e-05 -0.00046658
0.0013117 0.0019001 0.00048512 -0.0015686 -0.0015901 0.00054277 0.23313 0.10262
-0.011058 0.0070306 0.002103 0.00094596
-0.0004123 -0.0020029 -0.00057462 -0.0010637 -0.00032068 -0.001067 -0.011033 0.0070701
0.17172 0.16866 -0.0092526 0.007083
-0.00036942 0.00042009 -0.00030705 -0.00078556 8.0372e-05 -0.0004833 0.0021068 0.00093716
-0.009247 0.0070731 0.21688 0.2383
1640000000 0.29679 0.022571 -0.0016052 0.012519 -0.0025448 -0.0024268 0.0026911 0.001043
-0.00062491 -0.00141 -0.00017984 0.0005762
-0.0016144 0.01251 0.20432 0.27288 0.0057478 0.0036797 -0.00063857 -0.0017232
-0.0010244 -0.00040958 -0.00049708 -0.00065142
-0.0025468 -0.0024238 0.0057741 0.0036521 0.30275 -0.15701 -0.00069898 0.0013904
-0.00097075 -0.00098164 -7.447e-05 -0.00046759
0.0027009 0.0010391 -0.00064557 -0.001717 -0.00070099 0.001389 0.24585 0.053826
-0.0070486 0.0082278 0.0023624 -0.00066273
-0.00063735 -0.0014043 -0.0010364 -0.00040074 -0.00097135 -0.00097132 -0.0070259 0.0082649
0.1943 0.14466 -0.0047701 0.0090323
-0.00017904 0.00058175 -0.00049816 -0.00065547 -8.2224e-05 -0.0004813 0.0023676 -0.00067624
-0.0047768 0.0090349 0.24247 0.20736
1700000000 0.28949 -0.022546 0.0019281 0.0097589 -0.0032628 0.00010791 0.0030286 -0.0010942
-0.0019647 -0.00060173 0.00067666 0.00042098
0.0019188 0.0097536 0.22241 0.24145 0.0038609 0.0009239 -0.0014888 -0.00057696
-0.00082239 8.894e-05 -0.00090796 -0.00039267
-0.0032598 0.00012185 0.0038615 0.00090191 0.25933 -0.19661 0.00036221 0.0016681
-0.0018894 -0.00022376 -0.00049194 -0.00084058
0.0030167 -0.0011018 -0.0014924 -0.00056775 0.00036263 0.0016637 0.24304 0.0040554
-0.0045557 0.0088918 0.0014242 -0.0020794
-0.0019706 -0.00059851 -0.00083121 9.0582e-05 -0.0018893 -0.00021896 -0.0045435 0.0089174
0.21175 0.12483 -0.00010435 0.0093575
0.00065427 0.00041137 -0.00089849 -0.00038982 -0.00048213 -0.00083316 0.0014063 -0.0020761
-0.00011111 0.0093675 0.25904 0.17289
1760000000 0.27738 -0.071047 0.0044195 0.006536 -0.0021749 0.00090488 0.0013928 -0.0033571
-0.0011955 0.00067781 0.00043553 -0.00062579
0.0044108 0.0065302 0.24832 0.20164 0.0017429 -0.00093404 -0.0011931 0.0002005
-0.00097042 0.00093294 -0.00052523 0.00042585
-0.0021577 0.00090712 0.0017376 -0.00094755 0.21065 -0.22944 0.0011909 0.0011689
-0.0011671 0.0014145 -0.0013223 -0.00053519
0.0013775 -0.0033667 -0.0011798 0.00020004 0.0011966 0.0011716 0.23408 -0.047483
-0.0013683 0.0082598 -0.00020417 -0.0023984
-0.0011893 0.00070853 -0.00096977 0.00094532 -0.0011556 0.0014232 -0.0013512 0.0082659
0.2268 0.090018 0.003806 0.006935
0.00042663 -0.00065196 -0.00051069 0.00043569 -0.0013394 -0.00048958 -0.00021061 -0.0024299
0.0038242 0.0069357 0.27191 0.13521
1820000000 0.2527 -0.10835 0.0047425 0.002917 2.358e-05 0.0023328 -0.00089661 -0.0030397
-0.001052 0.0008646 -8.9631e-05 -0.00015444
0.0047278 0.0029081 0.25827 0.17164 -0.00013442 5.6086e-05 -0.0012857 0.00093779
-2.8172e-06 0.0013162 -0.00046209 0.0005256
4.4217e-05 0.002334 -0.00012795 5.9122e-05 0.16054 -0.24553 0.0015687 0.00041693
-0.0002653 0.0022125 -0.0012512 0.00037219
-0.00090904 -0.0030269 -0.0012852 0.00094424 0.0015681 0.0004253 0.20428 -0.094749
4.6529e-05 0.0067408 -0.0015538 -0.001461
-0.0010357 0.00086459 1.8861e-05 0.0013225 -0.00027368 0.0022289 6.4518e-05 0.0067422
0.2441 0.061231 0.0047219 0.0035289
-0.00010482 -0.00014214 -0.00046795 0.0005138 -0.001256 0.0003356 -0.0015382 -0.0014391
0.0047166 0.0035235 0.27448 0.099279
1880000000 0.21755 -0.14856 0.002616 0.00049961 -0.00041704 0.0018861 -0.0029031 -0.0021987
-0.00018697 0.00159 0.00025488 -0.0005072
0.0026178 0.00049567 0.26264 0.12511 -0.0021179 0.001715 -0.00015661 0.0016911
0.00063661 0.0011605 0.0001066 0.00084576
-0.0004047 0.0018863 -0.0021262 0.0017249 0.10828 -0.25479 0.0018068 -0.0010388
0.0015815 0.0019464 -0.00095728 0.0012561
-0.0029177 -0.0021871 -0.00015375 0.0016863 0.0018099 -0.0010383 0.16382 -0.13499
0.00077888 0.0049424 -0.0023399 0.00047336
-0.00018378 0.0015995 0.00065166 0.0011438 0.0015971 0.001933 0.00080918 0.0049521
0.24718 0.028806 0.0048186 0.001366
0.00025833 -0.00052684 0.00012831 0.00084895 -0.00094717 0.0012922 -0.0023437 0.00048775
0.0048121 0.001351 0.27413 0.065008
1940000000 0.17809 -0.17436 0.00047726 -0.0013298 0.001218 0.0018254 -0.0038644 0.00047264
0.0012655 0.00090339 -0.00063853 -0.00054965
0.00048389 -0.0013331 0.26317 0.093352 -0.00095281 0.0037849 0.0010356 0.0013038
0.0018532 0.0003882 0.00082771 0.00019519
0.0012344 0.0018154 -0.00092071 0.0038068 0.062523 -0.24784 0.00034724 -0.0022449
0.0024076 0.00043662 0.00026225 0.0015811
-0.0038613 0.00049453 0.0010542 0.0012928 0.00034867 -0.0022481 0.11162 -0.1654
-4.3821e-05 0.0038893 -0.0013456 0.0015121
0.0012718 0.0008749 0.001855 0.00036617 0.0024094 0.00042393 -3.7461e-05 0.0038814
0.24912 -0.0099898 0.0036726 -0.0020232
-0.0006258 -0.0005378 0.0008193 0.0002106 0.00026205 0.0016003 -0.0013633 0.0014842
0.0036784 -0.0020414 0.26336 0.029038
2000000000 0.1316 -0.18898 -0.0034089 0.00045049 0.0023904 0.0016169 -0.0023401 0.003497
0.0011284 0.00017673 -0.00073301 0.00036269
-0.0033995 0.0004504 0.24893 0.057896 -0.0008754 0.0055865 0.0016509 0.00035277
0.0012685 -0.0014037 0.00042219 0.00011929
0.0023873 0.0016021 -0.00083685 0.0056033 0.019054 -0.23337 -0.0013004 -0.0012656
0.0019861 -0.0011043 0.0015409 0.0012429
-0.0023174 0.0035163 0.0016511 0.00034572 -0.0012937 -0.0012747 0.058209 -0.17545
-0.0015276 0.0037702 7.4759e-06 0.0022164
0.0011005 0.00016099 0.0012545 -0.0014309 0.0019577 -0.0011301 -0.0015367 0.003756
0.24315 -0.043889 0.00026691 -0.0026765
