!Keysight Technologies,M9804A,MY58100912,A.14.10.03
!Date: Thursday, April 27, 2023 10:28:33
!Correction: S11(C  6-Port  ) 
!S12(C  6-Port  ) 
!S13(C  6-Port  ) 
!S14(C  6-Port  ) 
!S15(C  6-Port  ) 
!S16(C  6-Port  ) 
!S21(C  6-Port  ) 
!S22(C  6-Port  ) 
!S23(C  6-Port  ) 
!S24(C  6-Port  ) 
!S25(C  6-Port  ) 
!S26(C  6-Port  ) 
!S31(C  6-Port  ) 
!S32(C  6-Port  ) 
!S33(C  6-Port  ) 
!S34(C  6-Port  ) 
!S35(C  6-Port  ) 
!S36(C  6-Port  ) 
!S41(C  6-Port  ) 
!S42(C  6-Port  ) 
!S43(C  6-Port  ) 
!S44(C  6-Port  ) 
!S45(C  6-Port  ) 
!S46(C  6-Port  ) 
!S51(C  6-Port  ) 
!S52(C  6-Port  ) 
!S53(C  6-Port  ) 
!S54(C  6-Port  ) 
!S55(C  6-Port  ) 
!S56(C  6-Port  ) 
!S61(C  6-Port  ) 
!S62(C  6-Port  ) 
!S63(C  6-Port  ) 
!S64(C  6-Port  ) 
!S65(C  6-Port  ) 
!S66(C  6-Port  ) 
!S6P File: Measurement: :
# Hz S  RI   R 50
500000000 -0.33683 -0.038959 -0.0094472 -0.0023203 -0.0076259 0.012323 -0.0040952 0.012216
0.012629 0.0045948 -0.0044797 0.0086316
-0.0094608 -0.002332 -0.41905 -0.051639 0.0080274 -0.011039 0.0016361 0.011917
0.0074719 0.0025614 0.0017045 0.013479
-0.0076189 0.01233 0.0080272 -0.01104 -0.26489 0.20886 0.0078689 0.0032881
-0.0016559 0.0077367 0.0020643 0.011934
-0.0040374 0.012189 0.0016408 0.01195 0.0078367 0.0033195 -0.33047 0.043752
-0.017868 -0.0065909 0.015512 0.02525
0.01261 0.004534 0.0074942 0.0025938 -0.0016319 0.0077719 -0.017869 -0.0065346
-0.22395 -0.19405 -0.024638 0.0046473
-0.0044728 0.0087003 0.0017368 0.013428 0.0019526 0.011948 0.015591 0.025266
-0.024614 0.0046923 -0.26738 -0.13211
560000000 -0.31631 0.1234 -0.023692 -0.064168 0.00066131 0.011973 0.0052346 0.010296
0.01008 0.004277 0.010694 0.007361
-0.023666 -0.064123 -0.3778 0.10729 -0.041298 -0.03773 0.013306 0.0036771
-0.012484 -0.0043361 0.0030817 -0.00028387
0.0006942 0.011918 -0.041417 -0.037682 -0.18304 0.25678 -0.00032645 -0.0043551
0.019005 0.0050068 0.0069181 -0.0063449
0.0053033 0.010319 0.013329 0.0036604 -0.00032788 -0.0043668 -0.30521 0.13221
0.0052543 -0.023542 0.003885 -0.021672
0.010104 0.00423 -0.012484 -0.0042433 0.018908 0.0048916 0.0052936 -0.023509
-0.28918 -0.020257 0.0086062 -0.048675
0.010705 0.0073283 0.0031055 -0.0002808 0.0069565 -0.0063011 0.0038967 -0.021754
0.0086183 -0.048744 -0.32893 0.017502
620000000 -0.27487 0.10687 -0.023147 0.00768 0.0029512 0.0084844 0.0079019 -0.0054612
0.011075 -0.00066311 0.0018837 -0.0028313
-0.023136 0.0076558 -0.40218 0.05957 -0.01864 -0.00012143 -0.0014878 -0.0020526
0.011595 -0.0067996 0.0013097 -0.0034252
0.0029872 0.0084744 -0.018655 -0.00010414 -0.15368 0.26582 -0.0017699 -0.0051461
-0.0027657 -0.0026502 0.0081832 -0.0034775
0.007923 -0.0054771 -0.0014711 -0.002047 -0.0017736 -0.0051577 -0.26523 0.14356
-0.037921 -0.019314 0.011835 0.026166
0.011096 -0.00058964 0.011589 -0.0067881 -0.0028054 -0.0026959 -0.037931 -0.019346
-0.20725 -0.05878 -0.0409 0.013244
0.0018462 -0.0026776 0.0013549 -0.0034569 0.0082329 -0.0036022 0.011793 0.026229
-0.040886 0.013111 -0.24998 -0.019524
680000000 -0.2344 0.19189 -0.027379 -0.014532 0.0050082 0.0053321 0.0012583 -0.0070822
-0.0032184 -0.011187 0.0044795 -0.0066827
-0.027352 -0.014544 -0.38755 0.15702 -0.033085 -0.0013868 -0.0018265 -0.0005136
-0.0021828 -0.0086102 -0.0016368 -0.0019198
0.005054 0.0053184 -0.033131 -0.001295 -0.10283 0.28587 -0.00078946 1.5366e-05
-0.0017268 0.0009845 -0.0029925 -0.0092879
0.0012525 -0.0071341 -0.0018209 -0.00052157 -0.00076669 1.3564e-05 -0.22054 0.1935
-0.02392 -0.0080375 -0.0099941 -0.010912
-0.0032902 -0.011228 -0.0021731 -0.0086282 -0.0016878 0.00097652 -0.024 -0.0080078
-0.25838 0.040332 -0.0052911 -0.0089261
0.0045204 -0.0067466 -0.0016724 -0.0019129 -0.0030343 -0.0092477 -0.0099951 -0.010913
-0.0053206 -0.0089001 -0.26133 0.087537
740000000 -0.19026 0.18701 -0.038704 0.026491 0.01284 -0.0050171 -0.00024029 -0.00421
-0.0042558 -0.0027284 -0.0059948 0.0026741
-0.038676 0.026474 -0.33512 0.17623 -0.035582 0.035399 -0.00062689 -0.0061254
-0.011652 0.0079836 -0.0019067 -0.0063825
0.012823 -0.0050421 -0.035531 0.03553 -0.069354 0.2845 -0.0018785 0.0032212
-0.0020677 -0.004469 -0.0015331 -9.5414e-05
-0.00020901 -0.0042133 -0.00063697 -0.0061075 -0.001903 0.0032395 -0.20409 0.20118
-0.043745 -0.0074149 0.022764 0.014638
-0.0042764 -0.0026339 -0.011673 0.0079543 -0.0020607 -0.0045368 -0.043733 -0.0073941
-0.1602 0.065722 -0.043311 0.00037843
-0.0059354 0.0026345 -0.0020044 -0.0063959 -0.0015758 -7.1103e-05 0.022828 0.014651
-0.04331 0.00040601 -0.24959 0.092982
800000000 -0.15774 0.22717 -0.022706 0.016706 0.0054226 -0.010759 -0.0048496 -0.0018869
-0.0041377 0.0024363 0.0045621 0.00066405
-0.022701 0.016706 -0.33835 0.2462 -0.0078853 0.034175 -0.0023124 0.0022135
-0.00029821 0.0030194 0.0010768 0.0051555
0.0054027 -0.01076 -0.0077921 0.03423 -0.028473 0.30798 0.0011279 0.0014045
0.00042184 0.003305 -0.0015967 0.00084779
-0.0048502 -0.0018808 -0.0023208 0.0022208 0.001124 0.0014048 -0.17593 0.22928
-0.028835 0.013685 0.013437 -0.010003
-0.0041267 0.0024716 -0.00031805 0.0030397 0.00045808 0.0032866 -0.028837 0.013751
-0.2075 0.089287 -0.017576 0.018655
0.0045807 0.00066854 0.0011172 0.0051772 -0.0016096 0.0008661 0.013435 -0.010022
-0.017586 0.018645 -0.24351 0.14253
860000000 -0.12324 0.24781 -0.017638 0.030778 -0.0034049 -0.010056 -0.0024687 0.0009368
0.0043136 0.0048975 -0.0032026 -0.0028311
-0.017622 0.03074 -0.29099 0.28856 0.007939 0.034484 2.402e-06 0.0019803
0.004417 -9.8479e-05 0.0032232 0.00095802
-0.0034264 -0.010041 0.0080702 0.034487 0.019684 0.31622 -0.00060457 -0.00041585
0.0028541 -0.0017076 0.0013331 0.0044668
-0.0024604 0.00090427 2.7193e-05 0.0019797 -0.00061138 -0.0004089 -0.13978 0.24063
-0.018132 0.01877 -0.0059489 -0.0094592
0.004345 0.0048874 0.0044718 -0.00011434 0.0028909 -0.0017283 -0.018118 0.018898
-0.15643 0.14114 -0.026611 0.015439
-0.0032258 -0.0027804 0.0032248 0.00089073 0.0014077 0.0044946 -0.0059633 -0.0093811
-0.026738 0.015463 -0.19239 0.1891
920000000 -0.098429 0.271 0.0050775 0.038181 -0.0095609 -0.0044411 -0.0018074 0.0021516
0.00092985 0.0019916 0.002624 -0.0015093
0.0050388 0.038157 -0.26185 0.31007 0.028334 0.022111 0.0014549 0.0011401
0.0068715 -0.0006793 0.00401 -0.0028075
-0.0095819 -0.0044162 0.028446 0.022036 0.066263 0.31686 0.0017179 -5.9353e-05
0.0011633 -0.00039971 0.00098615 -0.0010344
-0.0017914 0.0021605 0.0014643 0.0011455 0.0017148 -6.3701e-05 -0.11596 0.2581
-0.010869 0.03083 0.0035258 -0.0066687
0.0009142 0.0019665 0.0068356 -0.00071238 0.0011534 -0.0003903 -0.010814 0.030874
-0.14689 0.14779 -0.0030465 0.027471
0.0026794 -0.0015487 0.003996 -0.0028323 0.00096064 -0.001025 0.0034354 -0.0066238
-0.0030662 0.027505 -0.20099 0.20266
980000000 -0.050871 0.29039 0.017654 0.03034 -0.0090919 0.0047948 0.0021623 0.0035918
0.0038973 -0.0014228 -0.0031404 -0.0021279
0.017623 0.030335 -0.20913 0.34392 0.033299 0.0047447 0.0020656 -0.00012056
0.0012624 -0.0057739 -0.00030099 -0.0023798
-0.0090899 0.0048169 0.033369 0.0046341 0.11272 0.31018 0.00046316 -0.0011279
0.00016475 -0.0020602 0.0014657 -0.00016933
0.0021774 0.0035891 0.0020641 -0.000108 0.00046478 -0.0011364 -0.077482 0.26989
0.0079713 0.030237 -0.0092502 -0.0072202
0.0039351 -0.001401 0.0012118 -0.0057422 0.00014645 -0.0020733 0.008018 0.030241
-0.116 0.17702 0.005097 0.019603
-0.0031114 -0.0021323 -0.00028018 -0.0023644 0.0014635 -0.00019007 -0.0092479 -0.0072067
0.005077 0.019612 -0.1589 0.24777
1040000000 -0.0086023 0.29874 0.033356 0.018253 -0.0011548 0.0070583 0.0026756 0.00062154
-1.0442e-05 -0.0038127 -0.00032098 -0.0012252
0.033321 0.018263 -0.17325 0.35701 0.029518 -0.015031 0.0014078 -0.0017871
-0.0026304 -0.0024929 -0.0015532 -0.0025796
-0.0011394 0.0070781 0.029503 -0.015183 0.15888 0.29643 -0.00052264 -0.001529
-0.0016361 -0.00086727 -0.00035865 -0.0011404
0.0026626 0.00061673 0.0014257 -0.0017767 -0.00052531 -0.0015287 -0.049719 0.2801
0.019673 0.018112 -0.0024374 0.0017017
-3.6779e-05 -0.0038276 -0.0026554 -0.0024835 -0.0016183 -0.00089199 0.019728 0.018084
-0.084052 0.18555 0.013325 0.018646
-0.00025866 -0.00123 -0.0015205 -0.0025405 -0.00035777 -0.0011147 -0.0024281 0.0017196
0.013324 0.018645 -0.13706 0.26823
1100000000 0.036955 0.30649 0.036071 -0.0041929 0.0030863 0.0038772 0.002366 -0.0014819
-0.0020902 -0.0031431 -0.0039097 5.0181e-05
0.03604 -0.004168 -0.12976 0.37438 0.015045 -0.02805 -9.7654e-05 -0.0018598
-0.003295 -0.00057849 -0.00338 -0.00048744
0.0030906 0.0038611 0.014959 -0.028148 0.20542 0.27588 -0.0017859 0.00033147
-0.0017218 0.00059882 -0.00099686 -0.0005247
0.0023666 -0.0015011 -0.00011006 -0.0018437 -0.0017834 0.00033474 -0.0090463 0.2852
0.024798 0.0048473 -0.0024674 0.00026344
-0.0021209 -0.0031444 -0.0033067 -0.0005598 -0.0017319 0.00058631 0.024815 0.0048076
-0.066247 0.19969 0.019043 0.008796
-0.0038909 0.00010041 -0.0033932 -0.0004794 -0.0010099 -0.00050743 -0.0025015 0.00027381
0.019051 0.0087971 -0.091684 0.29846
1160000000 0.088358 0.3012 0.024148 -0.020949 0.0028676 -0.00059542 -0.00033134 -0.0024694
-0.0042341 -0.00070452 -0.00085008 0.0041484
0.024157 -0.020924 -0.085667 0.37846 -0.0039471 -0.029197 -0.0017334 -0.0016493
-0.0025059 0.0024742 -0.0012483 0.0018824
0.0028623 -0.00060166 -0.0040684 -0.029218 0.2485 0.24474 -0.00060306 0.0017269
-0.0005623 0.0019013 -0.00096541 0.00024423
-0.00034158 -0.0024859 -0.0017343 -0.0016293 -0.00059851 0.0017177 0.030809 0.28239
0.021053 -0.01064 -0.0028982 0.0052921
-0.0042362 -0.00067351 -0.0024754 0.0025212 -0.0005356 0.0018898 0.021049 -0.010664
-0.032601 0.20973 0.018227 0.00047441
-0.0009138 0.0041205 -0.0012113 0.0018943 -0.00096674 0.00020983 -0.002898 0.0052994
0.01821 0.00050605 -0.044652 0.3015
1220000000 0.13269 0.2898 0.010415 -0.030245 -0.0014804 -0.00098254 -0.00014411 -0.00089789
-0.0026518 0.0025373 0.001401 0.0020647
0.010414 -0.030213 -0.041162 0.39028 -0.017055 -0.021122 -0.0024974 0.00049687
0.00012123 0.0029019 -0.00075681 0.0018584
-0.0014932 -0.0009884 -0.017165 -0.021069 0.28759 0.20551 0.00086132 0.0015249
0.00064599 0.0010798 0.00028869 0.00071764
-0.00015276 -0.00090252 -0.0025053 0.00050896 0.00086186 0.0015245 0.070799 0.27358
0.010163 -0.017358 0.0023342 0.0014871
-0.0026548 0.0025726 0.00011743 0.002922 0.00065181 0.0011105 0.010155 -0.017333
-0.009499 0.21944 0.014274 -0.012806
0.0014232 0.0020545 -0.00073366 0.0018838 0.00029737 0.00070255 0.0023142 0.0014648
0.014265 -0.012808 -0.013302 0.31848
1280000000 0.18244 0.26758 -0.0080271 -0.028613 -0.0019263 0.0022948 -0.00094344 -0.0018976
-0.00075034 0.0030659 0.0024402 0.0010898
-0.0080166 -0.028593 0.0050655 0.38089 -0.023862 -0.0082743 -0.00085425 0.001431
0.0016363 0.0016746 0.00064998 0.0020692
-0.0019203 0.0023062 -0.023933 -0.0081742 0.31776 0.16136 0.0015456 -0.00011928
0.0010735 0.00027709 0.0004184 0.00038277
-0.00094937 -0.0018841 -0.00084625 0.0014441 0.0015429 -0.00011853 0.10765 0.2569
0.00062795 -0.019062 0.00011231 2.9581e-05
-0.00072416 0.0030751 0.0016446 0.0016666 0.0011181 0.00028277 0.00059451 -0.019077
0.027601 0.22357 0.0032492 -0.014868
0.0024379 0.0010861 0.00066468 0.0020562 0.00045434 0.00037615 0.00011376 1.3259e-05
0.003255 -0.01486 0.035087 0.32084
1340000000 0.2194 0.23338 -0.017771 -0.019022 0.00079391 0.0044075 -0.0017238 -0.00073894
0.0015299 0.0026876 0.0017268 -0.0014316
-0.017733 -0.019025 0.044358 0.3721 -0.021477 0.0043912 -7.6143e-05 0.0019121
0.0018537 0.00075986 0.0013386 0.00076715
0.00082596 0.004414 -0.021483 0.0045053 0.33947 0.11332 0.0010176 -0.00089719
0.00068827 -0.00039609 0.0001987 0.0003474
-0.0017239 -0.00072187 -7.1585e-05 0.0019101 0.0010148 -0.00089663 0.13984 0.23641
-0.0087321 -0.015978 0.0009785 0.00033113
0.0015349 0.0026838 0.0018459 0.00074878 0.00067659 -0.0004087 -0.0087759 -0.015952
0.058222 0.21927 -0.0034822 -0.01342
0.0017147 -0.0014432 0.0013598 0.00076393 0.0002143 0.00033309 0.00097292 0.00034945
-0.0035015 -0.013433 0.073345 0.31653
1400000000 0.25205 0.19483 -0.023532 -0.0074594 0.0050208 0.0030508 -0.0019613 0.00064507
0.0024268 0.00086399 0.00028808 -0.0012773
-0.023501 -0.0074732 0.081379 0.3586 -0.014672 0.01243 0.0012646 0.0012362
0.0010377 -0.00080022 0.0012203 0.00019798
0.0050214 0.0030253 -0.014633 0.012524 0.35241 0.06009 6.5988e-05 -0.0015221
-3.0814e-05 -0.00043275 0.0005101 0.00028432
-0.0019638 0.00065827 0.0012632 0.0012262 6.0486e-05 -0.0015255 0.16918 0.20777
-0.014344 -0.0091615 -0.00074718 -0.00058755
0.0024405 0.00084563 0.0010314 -0.00079938 -2.7646e-05 -0.00044651 -0.014375 -0.0091343
0.091483 0.21487 -0.0099117 -0.008813
0.00031017 -0.0013101 0.0012259 0.00019721 0.00050803 0.00028977 -0.00075461 -0.00060065
-0.0099275 -0.0088352 0.11883 0.30535
1460000000 0.27418 0.15056 -0.02056 0.0047382 0.0054425 -0.0017972 -0.0015416 0.0016652
0.0020885 -0.000636 -0.00036808 -0.00097827
-0.020545 0.0047074 0.11503 0.33648 -0.0059902 0.015181 0.0016423 0.00019593
0.00085012 -0.0011961 0.0011323 -0.0006414
0.0054331 -0.0018089 -0.0059267 0.015221 0.35831 0.0057349 -0.001195 -0.0011614
0.00014161 -0.00033205 0.00060583 -0.00030024
-0.0015492 0.001674 0.0016509 0.00019244 -0.0012112 -0.00117 0.1954 0.17884
-0.015245 -0.0024343 -0.00091663 0.0018835
0.0021025 -0.00064139 0.00083712 -0.0012137 0.00016927 -0.00030753 -0.015254 -0.0023973
0.12089 0.2002 -0.011779 -0.0028025
-0.00037239 -0.00095743 0.0011399 -0.00066181 0.00060499 -0.00027819 -0.00092029 0.0018563
-0.011791 -0.0028128 0.15187 0.28468
1520000000 0.28575 0.10893 -0.014869 0.010412 0.0031844 -0.0040917 0.00010971 0.0025705
0.0019591 -0.0017505 -0.0011056 -4.273e-05
-0.014859 0.01039 0.14813 0.32177 0.0015072 0.012928 0.0016014 -0.00070044
1.4924e-05 -0.00099459 0.00032056 -0.00105
0.0031544 -0.0041078 0.0015787 0.012935 0.35155 -0.050468 -0.0010209 -0.00029706
0.00060943 -0.00083099 1.4842e-05 -0.0001438
0.00012009 0.0025652 0.0016019 -0.00071266 -0.0010145 -0.0003042 0.21867 0.14125
-0.014291 0.0030725 0.0013311 0.0020014
0.0019554 -0.0017573 9.6746e-06 -0.00099261 0.00060566 -0.00083029 -0.014281 0.0031125
0.14878 0.1861 -0.011571 0.0016171
-0.0011062 -3.4964e-05 0.00030974 -0.0010528 1.3941e-05 -0.00013586 0.0013247 0.0020035
-0.011592 0.001617 0.18537 0.26429
1580000000 0.29465 0.063153 -0.0081304 0.013565 -0.00095013 -0.0047727 0.0013588 0.0018626
-0.0003782 -0.0020683 -0.00033077 0.00039906
-0.0081471 0.013561 0.17498 0.29709 0.005046 0.0081913 0.00048876 -0.0015238
-0.00055523 -0.00098625 -0.00026732 -0.00076616
-0.00097838 -0.0047705 0.0051024 0.0081736 0.33105 -0.10765 -0.0015193 0.00059853
-0.00036826 -0.0010657 0.00012102 -0.00053004
0.0013768 0.0018455 0.00048589 -0.0015251 -0.001516 0.00060376 0.2328 0.10222
-0.010629 0.0076336 0.0021908 0.00086173
-0.00039247 -0.0020678 -0.0005585 -0.0009768 -0.00037337 -0.0010446 -0.010614 0.0076684
0.17324 0.1681 -0.0091512 0.0074203
-0.00032612 0.00039899 -0.00027269 -0.00077071 0.00012503 -0.0005213 0.002181 0.0008638
-0.0091514 0.0074237 0.21794 0.23745
1640000000 0.29654 0.022141 -0.0012674 0.012493 -0.0026449 -0.0024087 0.0026731 0.00099359
-0.00069856 -0.001408 -0.0001739 0.0005256
-0.0012789 0.012484 0.20418 0.27236 0.0057621 0.0035075 -0.00062295 -0.0017154
-0.00095162 -0.00038418 -0.00048136 -0.00064703
-0.0026531 -0.002387 0.0057959 0.003471 0.30298 -0.15691 -0.00068297 0.0013696
-0.0010362 -0.00099623 -4.9482e-05 -0.00049595
0.0026839 0.0009801 -0.00063508 -0.0017077 -0.0006814 0.00137 0.24538 0.053597
-0.0063605 0.0084583 0.0023804 -0.00074091
-0.00070372 -0.0013947 -0.00096075 -0.00038038 -0.0010556 -0.00098551 -0.0063478 0.0084802
0.19568 0.14378 -0.0045169 0.0092766
-0.00017932 0.00052092 -0.0004929 -0.00064335 -4.6829e-05 -0.00051611 0.0023793 -0.00073873
-0.004526 0.0092711 0.24329 0.20652
1700000000 0.2892 -0.022894 0.0021813 0.0095576 -0.0033144 0.00014146 0.0029938 -0.0011321
-0.0019919 -0.0006166 0.00066589 0.00042074
0.0021621 0.0095459 0.22212 0.24111 0.0037541 0.00075199 -0.0014515 -0.0005601
-0.00073389 6.5917e-05 -0.00091216 -0.00039318
-0.003304 0.00017008 0.0037696 0.00073395 0.25931 -0.19663 0.00035629 0.0016744
-0.0018681 -0.00017089 -0.0005003 -0.00083868
0.0030019 -0.0011596 -0.0014534 -0.00055636 0.00035608 0.0016657 0.24255 0.0041469
-0.0039562 0.0087129 0.0014176 -0.0021374
-0.0020025 -0.00060142 -0.00073182 6.3246e-05 -0.0018681 -0.0001852 -0.003933 0.0087249
0.21288 0.12363 0.00021182 0.0094346
0.00068581 0.00039002 -0.00091214 -0.00038353 -0.00051828 -0.00086937 0.001424 -0.002135
0.00021747 0.0094306 0.25973 0.17188
1760000000 0.277 -0.071202 0.0044553 0.0062111 -0.0021156 0.00091128 0.0013145 -0.003353
-0.0012161 0.00072904 0.00042797 -0.00063834
0.0044474 0.0062121 0.248 0.20148 0.0016235 -0.00093992 -0.0011874 0.00016092
-0.00095778 0.00084647 -0.0005324 0.00041339
-0.002117 0.00092919 0.0016186 -0.00094655 0.21038 -0.22955 0.0011857 0.0011348
-0.0011132 0.0014112 -0.0013885 -0.00049582
0.0012987 -0.0033482 -0.0011894 0.00017235 0.0011881 0.0011295 0.23372 -0.047173
-0.00104 0.0078221 -0.00021642 -0.0024527
-0.0012202 0.00073534 -0.00094738 0.00085733 -0.0011065 0.0014028 -0.0010187 0.0078202
0.2275 0.08861 0.0040564 0.0068862
0.00043905 -0.00064059 -0.0005247 0.00041554 -0.0013933 -0.00050076 -0.00022201 -0.0024502
0.0040684 0.006879 0.27243 0.13422
1820000000 0.2525 -0.1083 0.0045801 0.0026677 -3.6303e-05 0.0023547 -0.00094677 -0.0029834
-0.0010324 0.00089066 -9.2775e-05 -0.00012533
0.0045654 0.0026726 0.25797 0.17164 -0.00019276 1.966e-05 -0.0013227 0.00092364
-5.4576e-05 0.0012371 -0.00049994 0.00049852
-2.239e-05 0.0023524 -0.00019635 2.3601e-05 0.16088 -0.24556 0.0014699 0.00040897
-0.00026447 0.0022018 -0.001294 0.0004088
-0.0009641 -0.0029819 -0.0013205 0.00092796 0.0014551 0.0004222 0.20419 -0.094242
6.6835e-05 0.0062969 -0.0015555 -0.0015109
-0.001012 0.00089933 -3.9056e-05 0.0012309 -0.00024322 0.0021891 8.0546e-05 0.0063138
0.24444 0.059852 0.0049215 0.0033161
-0.00011569 -0.00012935 -0.0004995 0.00050408 -0.0012626 0.00039699 -0.0015632 -0.0015093
0.0049084 0.0033068 0.27494 0.09823
1880000000 0.21746 -0.14856 0.0024546 0.0004272 -0.00042072 0.0019311 -0.0028781 -0.0021378
-0.00016104 0.0016155 0.00022584 -0.00044965
0.002434 0.0004188 0.26251 0.12531 -0.0021594 0.0016972 -0.00020822 0.0017124
0.0005502 0.0011414 9.5005e-05 0.00083419
-0.00039297 0.0019438 -0.0021451 0.0017115 0.10845 -0.25522 0.0017664 -0.00098479
0.0015393 0.0019321 -0.00089483 0.0012241
-0.0028876 -0.0021277 -0.00020523 0.0017122 0.0017709 -0.00097668 0.16398 -0.13463
0.00063767 0.0045892 -0.0024516 0.00046797
-0.00015736 0.0016394 0.00056266 0.0011358 0.0015264 0.0019387 0.00065553 0.0045873
0.24719 0.027463 0.00486 0.0011289
0.00021674 -0.00045381 0.00012827 0.00084327 -0.00095645 0.0012274 -0.002445 0.0004773
0.0048653 0.0011121 0.27449 0.06386
1940000000 0.17805 -0.17448 0.00034125 -0.001298 0.0013269 0.0019313 -0.0037921 0.00050619
0.0012663 0.00095704 -0.00062758 -0.00049405
0.00034239 -0.001297 0.26323 0.093615 -0.00098917 0.003828 0.00099601 0.0013682
0.0017678 0.0004748 0.00082303 0.00027123
0.0013223 0.0019364 -0.00096276 0.0038276 0.062446 -0.24841 0.00042693 -0.0022059
0.0024057 0.00050674 0.00021623 0.0016472
-0.0038006 0.0005258 0.0010055 0.0013551 0.00044263 -0.0021975 0.11202 -0.16521
-0.00031801 0.0037119 -0.0014352 0.0015511
0.0012774 0.0009412 0.0017756 0.00046043 0.0024155 0.00052997 -0.00030182 0.0037211
0.24887 -0.011084 0.0036116 -0.0022644
-0.00062012 -0.00045459 0.00081326 0.00025822 0.00023967 0.0016447 -0.0014595 0.0015427
0.0036166 -0.0022721 0.26359 0.027849
2000000000 0.13171 -0.18903 -0.0034825 0.00052154 0.0024629 0.0015328 -0.0022933 0.0035137
0.0010285 0.00011974 -0.00065423 0.00030397
-0.0034873 0.00051789 0.24921 0.058098 -0.00092677 0.0055724 0.0016599 0.00038782
0.001304 -0.0013401 0.00041364 0.0001021
0.0024156 0.0014964 -0.00087731 0.0055866 0.01864 -0.2338 -0.0013576 -0.0013014
0.0019966 -0.0011665 0.0016332 0.0012798
-0.0022796 0.00354 0.0016646 0.00037511 -0.0013652 -0.0013033 0.058594 -0.17558
-0.0018057 0.0037184 -4.3169e-05 0.0022852
0.0010393 0.00012237 0.0012883 -0.001347 0.0020087 -0.0011637 -0.0017979 0.0037136
0.24287 -0.044794 0.0001186 -0.0029044
