!Keysight Technologies,M9804A,MY58100912,A.14.10.03
!Date: Thursday, April 27, 2023 10:28:33
!Correction: S11(C  6-Port  ) 
!S12(C  6-Port  ) 
!S13(C  6-Port  ) 
!S14(C  6-Port  ) 
!S15(C  6-Port  ) 
!S16(C  6-Port  ) 
!S21(C  6-Port  ) 
!S22(C  6-Port  ) 
!S23(C  6-Port  ) 
!S24(C  6-Port  ) 
!S25(C  6-Port  ) 
!S26(C  6-Port  ) 
!S31(C  6-Port  ) 
!S32(C  6-Port  ) 
!S33(C  6-Port  ) 
!S34(C  6-Port  ) 
!S35(C  6-Port  ) 
!S36(C  6-Port  ) 
!S41(C  6-Port  ) 
!S42(C  6-Port  ) 
!S43(C  6-Port  ) 
!S44(C  6-Port  ) 
!S45(C  6-Port  ) 
!S46(C  6-Port  ) 
!S51(C  6-Port  ) 
!S52(C  6-Port  ) 
!S53(C  6-Port  ) 
!S54(C  6-Port  ) 
!S55(C  6-Port  ) 
!S56(C  6-Port  ) 
!S61(C  6-Port  ) 
!S62(C  6-Port  ) 
!S63(C  6-Port  ) 
!S64(C  6-Port  ) 
!S65(C  6-Port  ) 
!S66(C  6-Port  ) 
!S6P File: Measurement: :
# Hz S  RI   R 50
500000000 -0.3375 -0.038192 -0.0099467 -0.0018136 -0.0081677 0.012889 -0.0039002 0.011762
0.013609 0.0056758 -0.0038236 0.0077081
-0.0098901 -0.0017868 -0.41889 -0.051455 0.0074427 -0.010629 0.0012668 0.01195
0.0080376 0.0026548 0.0011922 0.012848
-0.0080791 0.012986 0.0074321 -0.010626 -0.26611 0.2101 0.0079294 0.0034367
-0.0017359 0.0085299 0.0015872 0.011755
-0.0036993 0.011869 0.0013567 0.012069 0.0079808 0.0034426 -0.33144 0.043993
-0.018815 -0.0063725 0.014898 0.026705
0.01315 0.0050729 0.0078267 0.0025203 -0.0019597 0.0082687 -0.018791 -0.0064096
-0.22682 -0.19345 -0.02613 0.0043545
-0.0042765 0.0089665 0.0013053 0.013577 0.0018239 0.01215 0.014939 0.02589
-0.025917 0.0047517 -0.26935 -0.12731
560000000 -0.31683 0.12355 -0.02388 -0.063743 0.00048395 0.012371 0.0053215 0.010095
0.0093734 0.0058568 0.01009 0.0080814
-0.02397 -0.063695 -0.37695 0.10792 -0.041994 -0.037495 0.014193 0.0042818
-0.013449 -0.0049525 0.0041581 0.00081669
0.00064816 0.012446 -0.042152 -0.037494 -0.18315 0.25789 -0.00098614 -0.004408
0.019092 0.0044069 0.0068733 -0.0059509
0.00537 0.010368 0.014184 0.0043072 -0.001012 -0.00439 -0.30569 0.13425
0.0045386 -0.023035 0.0046998 -0.021986
0.0093858 0.0050904 -0.014086 -0.0050694 0.019232 0.0041058 0.0046617 -0.02299
-0.28997 -0.019225 0.0088285 -0.049506
0.01046 0.0072289 0.0043817 0.00066778 0.0068162 -0.0060983 0.0046878 -0.02159
0.0086049 -0.049486 -0.3297 0.02074
620000000 -0.27547 0.10807 -0.023382 0.0077818 0.0036834 0.0087115 0.0088719 -0.0049415
0.010858 -0.00086185 0.0012757 -0.0025882
-0.023351 0.0077357 -0.40291 0.05998 -0.018633 0.00028006 -0.0014341 -0.0020411
0.011289 -0.0070175 0.0017029 -0.0029105
0.0036902 0.0087484 -0.018695 0.00033643 -0.1534 0.26704 -0.0011406 -0.0053523
-0.003397 -0.0031047 0.0087957 -0.00309
0.0087263 -0.0044406 -0.0013608 -0.0020228 -0.0011371 -0.004975 -0.26512 0.14414
-0.037941 -0.019727 0.010542 0.025694
0.010964 -0.0014288 0.011375 -0.0070043 -0.0032135 -0.0033958 -0.038178 -0.019576
-0.20885 -0.054717 -0.040069 0.014011
0.0011897 -0.0021626 0.0018216 -0.0030006 0.0089805 -0.0026095 0.011496 0.025847
-0.040485 0.013938 -0.2531 -0.015924
680000000 -0.23456 0.19361 -0.02733 -0.013521 0.0051187 0.0054931 0.0012287 -0.0066932
-0.0029951 -0.011328 0.0044336 -0.0064545
-0.027269 -0.013512 -0.38788 0.15826 -0.032534 -0.00086492 -0.0017603 -0.00013714
-0.002021 -0.0088458 -0.001728 -0.0023003
0.0051024 0.005508 -0.032576 -0.0007729 -0.10182 0.2872 -0.0010341 8.9716e-05
-0.0019805 0.00057482 -0.0028873 -0.0093419
0.0011043 -0.0070022 -0.0018285 -0.00029542 -0.0010074 -9.7274e-05 -0.22075 0.19393
-0.024069 -0.0069074 -0.0092462 -0.010415
-0.0028126 -0.011376 -0.0020169 -0.0088225 -0.0018776 0.00052687 -0.02395 -0.0069804
-0.25883 0.041437 -0.0060132 -0.0082998
0.0041754 -0.0063734 -0.0019254 -0.0020902 -0.0032218 -0.0094802 -0.0095573 -0.010691
-0.0055087 -0.0082564 -0.26034 0.089363
740000000 -0.18963 0.18767 -0.037983 0.027045 0.013055 -0.0051759 -0.00034259 -0.0042693
-0.0040727 -0.0028831 -0.0061838 0.002433
-0.037929 0.027003 -0.33524 0.17728 -0.03526 0.034964 -0.0006997 -0.0064864
-0.012107 0.008011 -0.0020165 -0.0065465
0.01303 -0.0052848 -0.03518 0.035076 -0.068112 0.28479 -0.0018752 0.003479
-0.0025634 -0.0050277 -0.0018907 0.00066258
-0.00040783 -0.0043169 -0.00062514 -0.0065248 -0.0019496 0.0035826 -0.20326 0.20203
-0.043629 -0.0066451 0.022801 0.014181
-0.0041256 -0.0028686 -0.012243 0.008205 -0.0026526 -0.0050961 -0.043801 -0.0066396
-0.15977 0.069433 -0.043209 0.0015742
-0.0060297 0.0023742 -0.0018774 -0.0068847 -0.0014705 0.001032 0.023412 0.014398
-0.043677 0.0003481 -0.24914 0.093583
800000000 -0.15678 0.2287 -0.022279 0.016865 0.0053548 -0.010469 -0.0049946 -0.001781
-0.0043647 0.0028882 0.004076 0.00083611
-0.022339 0.016827 -0.33814 0.24663 -0.007818 0.03402 -0.0023715 0.002279
-0.0010264 0.0032769 0.00099711 0.0052621
0.0053201 -0.010457 -0.0077405 0.03406 -0.027426 0.30814 0.0009767 0.0015994
0.00047922 0.0036813 -0.0020731 0.0007877
-0.0050599 -0.0017836 -0.0024222 0.0022515 0.00086951 0.0015527 -0.17519 0.22981
-0.028406 0.013831 0.013347 -0.010355
-0.0044355 0.0029801 -0.00099732 0.0032908 0.00039228 0.003616 -0.028374 0.013871
-0.20716 0.092877 -0.017311 0.019437
0.0037477 0.00095093 0.00099041 0.0053432 -0.002183 0.0011144 0.013226 -0.010111
-0.017305 0.019136 -0.24301 0.14399
860000000 -0.12253 0.24822 -0.017079 0.030559 -0.0034059 -0.01001 -0.0025966 0.00096337
0.0041748 0.0047342 -0.0035796 -0.0024682
-0.017093 0.030553 -0.2903 0.28857 0.0079586 0.034105 2.0239e-06 0.0021597
0.0042406 -1.4685e-06 0.0033236 0.00046214
-0.0034241 -0.0099878 0.0080662 0.034115 0.020243 0.3157 -0.00065971 -0.00017382
0.0028644 -0.0016565 0.0016643 0.0042902
-0.00253 0.00082921 2.0105e-05 0.0020345 -0.00058042 -0.00019521 -0.139 0.24059
-0.017636 0.018454 -0.0061475 -0.0093288
0.0040712 0.0046979 0.0042158 -3.6149e-05 0.0027782 -0.0016744 -0.017672 0.018544
-0.1554 0.14276 -0.024542 0.015768
-0.0037188 -0.0028497 0.0034378 0.0003538 0.0016636 0.003928 -0.0060168 -0.0095299
-0.02416 0.015822 -0.19077 0.19088
920000000 -0.097499 0.27091 0.0054805 0.037656 -0.0093879 -0.0045321 -0.001805 0.0020986
0.0012039 0.002026 0.0025809 -0.0018496
0.0054526 0.037653 -0.26142 0.30959 0.028254 0.021719 0.0013746 0.0010718
0.0070888 -0.00053454 0.0039911 -0.0027337
-0.0094288 -0.0045136 0.028355 0.021665 0.066543 0.31648 0.0018795 -0.00018416
0.0012032 -0.00035956 0.00064615 -0.0012994
-0.0018071 0.0020875 0.0014116 0.0011118 0.0018876 -0.00013911 -0.11503 0.25805
-0.010466 0.03047 0.0035675 -0.0069341
0.0014389 0.002045 0.0072253 -0.00040646 0.0012637 -0.00038596 -0.010356 0.030479
-0.14437 0.14848 -0.0025372 0.02716
0.0027482 -0.0016339 0.0040582 -0.002849 0.00091762 -0.0012662 0.0036162 -0.0065737
-0.0027253 0.02733 -0.19945 0.20412
980000000 -0.050486 0.28976 0.017575 0.029597 -0.0090782 0.0044904 0.001998 0.0033256
0.0039923 -0.0017204 -0.003269 -0.0022303
0.017556 0.029589 -0.2085 0.34313 0.033067 0.0045881 0.0019541 -0.00020619
0.0015858 -0.006178 -0.00040666 -0.0022628
-0.0090591 0.0045101 0.033094 0.0044998 0.11274 0.30984 0.00045928 -0.0011913
0.00020471 -0.0022516 0.0012682 -9.7582e-05
0.0019493 0.0033355 0.0019549 -0.00019233 0.00047285 -0.0012221 -0.076726 0.26887
0.0080397 0.029755 -0.0091213 -0.0072608
0.0038845 -0.0017447 0.001466 -0.0060808 0.00014369 -0.0021897 0.0081116 0.029715
-0.11468 0.17808 0.0053833 0.019738
-0.0034152 -0.0023382 -0.00073675 -0.0022963 0.0012955 -0.000122 -0.0090355 -0.0070606
0.0052376 0.019499 -0.15661 0.24841
1040000000 -0.0084939 0.29823 0.033368 0.017605 -0.0013176 0.0068331 0.0025131 0.00088646
0.00010106 -0.0035922 -0.00028483 -0.001464
0.033325 0.01761 -0.173 0.35632 0.02931 -0.015083 0.0014298 -0.001768
-0.0024834 -0.0024624 -0.0012665 -0.0026497
-0.0012894 0.0068325 0.029259 -0.015204 0.15897 0.29624 -0.00053161 -0.0015085
-0.0016592 -0.00081507 -0.00061181 -0.0010504
0.0025595 0.00082271 0.001491 -0.0017526 -0.00052514 -0.0014624 -0.049373 0.27922
0.019295 0.017506 -0.0025754 0.0013631
4.9989e-05 -0.0035687 -0.00259 -0.0024453 -0.0016502 -0.00079108 0.019301 0.017552
-0.082173 0.18527 0.013606 0.018233
-0.00029431 -0.0014079 -0.0015805 -0.0026469 -0.00053936 -0.0010561 -0.0025525 0.0015185
0.013626 0.018192 -0.13568 0.26954
1100000000 0.036931 0.30586 0.035628 -0.0046663 0.0028015 0.0038606 0.0024305 -0.001294
-0.00199 -0.0030104 -0.0040389 9.4404e-05
0.035583 -0.0046325 -0.12989 0.37353 0.014944 -0.028043 3.6115e-06 -0.0019026
-0.003423 -0.00065364 -0.0036361 -0.00040785
0.0027975 0.0038504 0.014843 -0.02813 0.20553 0.27571 -0.001898 0.00027702
-0.0017496 0.00053214 -0.0011686 -0.00013404
0.0024033 -0.0012279 -1.1555e-05 -0.001859 -0.0018792 0.00026465 -0.0090542 0.28424
0.024429 0.0046514 -0.0024924 0.00013672
-0.0020921 -0.0030842 -0.0034809 -0.00067847 -0.0017636 0.00053041 0.024448 0.0045611
-0.065017 0.19964 0.018887 0.0086141
-0.0040232 0.00019929 -0.0035815 -0.00040881 -0.0011483 -0.00020424 -0.0025472 0.00015593
0.019225 0.0084676 -0.088992 0.29864
1160000000 0.088061 0.30097 0.023511 -0.020988 0.0025181 -0.00046046 -0.00013517 -0.0023011
-0.0042467 -0.00062684 -0.00087598 0.0039758
0.023505 -0.020959 -0.0863 0.37781 -0.0040835 -0.029054 -0.0015959 -0.0017123
-0.0026764 0.0026626 -0.0014333 0.0019189
0.002551 -0.00044775 -0.0042045 -0.029058 0.24841 0.2446 -0.00072504 0.0016891
-0.00050127 0.0020145 -0.00089322 0.00030125
-0.00012363 -0.0024267 -0.0016869 -0.0017109 -0.00075448 0.0017664 0.030122 0.28174
0.020367 -0.010744 -0.0029903 0.005116
-0.0041253 -0.00060936 -0.0026078 0.0026546 -0.00050835 0.0020312 0.020367 -0.01081
-0.031458 0.20896 0.017994 0.00043272
-0.00097962 0.0040835 -0.0013688 0.0019314 -0.00083389 0.0003216 -0.002988 0.0051754
0.017966 0.0003181 -0.042762 0.30215
1220000000 0.1325 0.28983 0.0098303 -0.029999 -0.0016255 -0.00068867 -6.0371e-05 -0.0010176
-0.0027371 0.0024679 0.0012353 0.002191
0.0098427 -0.029941 -0.041883 0.38984 -0.017146 -0.021065 -0.0025754 0.00048396
8.1657e-05 0.0031062 -0.00072652 0.0019644
-0.0016109 -0.00070621 -0.017271 -0.02101 0.28742 0.20517 0.00085552 0.0016857
0.00067979 0.001162 0.00039827 0.00071719
-2.1438e-05 -0.00095683 -0.0025761 0.00050029 0.00086008 0.0016675 0.070014 0.27343
0.0098059 -0.016952 0.0022167 0.0016089
-0.0027454 0.0025324 0.00011835 0.0030911 0.00064479 0.0011511 0.0098284 -0.016987
-0.0084109 0.2187 0.013957 -0.012581
0.0013417 0.0021121 -0.00069684 0.0019543 0.00035545 0.00064008 0.0022634 0.0015201
0.013935 -0.012626 -0.01086 0.31846
1280000000 0.18229 0.2676 -0.0084283 -0.028178 -0.0019141 0.0027351 -0.00086754 -0.0019884
-0.00068797 0.0031924 0.002663 0.0010393
-0.0084149 -0.028147 0.0041598 0.3808 -0.0239 -0.008277 -0.00094025 0.0014064
0.0017674 0.0017541 0.00064187 0.0019728
-0.0019021 0.0027433 -0.023953 -0.0081651 0.31758 0.16121 0.001573 -0.00011591
0.0011601 0.00019512 0.00039937 0.00025013
-0.0008825 -0.0020129 -0.00096434 0.0014019 0.0015558 -7.889e-05 0.10679 0.25736
0.0004929 -0.018674 -4.9639e-05 0.00022987
-0.00066837 0.003145 0.0018051 0.0017973 0.0011846 0.00019715 0.00041202 -0.018639
0.02819 0.22289 0.0030864 -0.014791
0.0027444 0.0011065 0.0006513 0.0020033 0.00040097 0.00023625 8.6445e-05 0.00031326
0.0030386 -0.014912 0.036523 0.32039
1340000000 0.21918 0.23362 -0.017878 -0.018397 0.0010011 0.0045967 -0.0017644 -0.0008396
0.0015005 0.0025993 0.0017853 -0.0014077
-0.017847 -0.018397 0.043516 0.37248 -0.02162 0.0044451 -8.2176e-05 0.0020449
0.0019429 0.00069296 0.0013515 0.00080292
0.00099923 0.0045623 -0.021614 0.0045699 0.33913 0.11351 0.0011466 -0.00092745
0.00072675 -0.00038281 0.00020513 0.00028941
-0.0017866 -0.00082045 -2.2785e-05 0.0020065 0.0011423 -0.00095962 0.13975 0.2372
-0.0086391 -0.015685 0.0009899 0.00041706
0.0015602 0.0026524 0.0019477 0.00067973 0.00072712 -0.0003896 -0.0086992 -0.01564
0.058349 0.21867 -0.0035443 -0.013251
0.0016432 -0.0014873 0.0013054 0.00080192 0.00019847 0.00030926 0.0010381 0.00043453
-0.0035971 -0.013305 0.074779 0.31573
1400000000 0.25202 0.19511 -0.023299 -0.0068428 0.0053377 0.0030861 -0.0021047 0.00070587
0.0024946 0.00085871 0.00021027 -0.0014215
-0.023263 -0.006866 0.080781 0.3593 -0.01476 0.012559 0.0013493 0.001233
0.0011257 -0.00091162 0.001208 0.00018473
0.0053695 0.0030621 -0.014728 0.012636 0.35218 0.060375 4.4121e-05 -0.0016728
-3.0135e-06 -0.00042339 0.00046586 0.00030542
-0.0021003 0.00068311 0.0013333 0.0012414 4.8251e-05 -0.001635 0.16933 0.2086
-0.014162 -0.0089933 -0.0007189 -0.00045319
0.0024612 0.00085142 0.0011262 -0.0008721 -1.6399e-05 -0.00041115 -0.01421 -0.0089607
0.091658 0.21465 -0.010136 -0.0086187
0.00029099 -0.001428 0.0011944 0.0001268 0.00050503 0.00019838 -0.00076786 -0.00034712
-0.010043 -0.0086785 0.11975 0.30489
1460000000 0.27435 0.151 -0.020029 0.0051592 0.0056727 -0.0019687 -0.0015498 0.0017096
0.0021145 -0.00060382 -0.00036432 -0.00096656
-0.019996 0.0051303 0.11485 0.33738 -0.0060467 0.015478 0.0017776 0.00015606
0.00087831 -0.0012738 0.0011426 -0.00056002
0.0056806 -0.0019779 -0.0059649 0.015499 0.35824 0.0063164 -0.0012284 -0.00118
0.00028799 -0.00014489 0.00055464 -0.00035393
-0.001573 0.0017475 0.0017768 0.00015049 -0.0012343 -0.0012051 0.19606 0.17949
-0.015023 -0.0023665 -0.00080921 0.0019289
0.0021498 -0.00066278 0.00082509 -0.0013047 0.00028444 -0.00017932 -0.015047 -0.0022616
0.12098 0.20037 -0.011763 -0.0026167
-0.00039483 -0.00095632 0.0011449 -0.00061843 0.00060929 -0.00036681 -0.00076645 0.0017805
-0.011742 -0.0026939 0.15297 0.28398
1520000000 0.28629 0.10917 -0.014241 0.010465 0.003294 -0.0042966 0.00011755 0.0025931
0.0019631 -0.0018549 -0.001208 -8.9885e-05
-0.014239 0.010441 0.14829 0.32259 0.0016891 0.013085 0.0016141 -0.00085706
1.0651e-06 -0.00098604 0.00030996 -0.0010328
0.003271 -0.004315 0.001762 0.013079 0.35164 -0.049787 -0.0011155 -0.00030682
0.00064836 -0.00084533 4.0244e-06 -9.4377e-05
9.8057e-05 0.0025729 0.0016 -0.00086337 -0.0011406 -0.00028284 0.21951 0.14151
-0.014057 0.0030816 0.001457 0.0019183
0.0019174 -0.0018294 -1.4305e-05 -0.00098961 0.00066658 -0.00082577 -0.014061 0.0031053
0.14924 0.18634 -0.011538 0.0018953
-0.0011847 -6.4785e-05 0.00030954 -0.0010152 -2.5761e-05 -9.6872e-05 0.0014424 0.0019885
-0.011491 0.0018922 0.18626 0.26384
1580000000 0.29531 0.062996 -0.0075687 0.013364 -0.00090321 -0.0048871 0.0015118 0.0019145
-0.00028557 -0.0020782 -0.00031366 0.00026504
-0.0075778 0.013349 0.17547 0.29777 0.0052868 0.0082504 0.00044521 -0.0016265
-0.00045081 -0.00098285 -0.00022603 -0.00088535
-0.00089536 -0.0048914 0.0053431 0.0082231 0.33158 -0.10766 -0.0015484 0.00059371
-0.00030099 -0.0011195 0.00010481 -0.0005485
0.0015584 0.0019074 0.00042441 -0.0016343 -0.0015532 0.00053682 0.23366 0.10211
-0.0105 0.0074364 0.0020721 0.00065646
-0.00029617 -0.0020636 -0.00048431 -0.00098795 -0.00031736 -0.001149 -0.010496 0.0075128
0.17392 0.16844 -0.0091308 0.0073765
-0.00038687 0.00023582 -0.00022918 -0.00093365 0.00013447 -0.00055019 0.0021936 0.00072957
-0.0090952 0.0073957 0.21858 0.23703
1640000000 0.29694 0.02179 -0.0010315 0.012006 -0.0029159 -0.0026892 0.0027066 0.001002
-0.00079505 -0.0013996 -0.00029977 0.00058995
-0.001054 0.011996 0.20479 0.27278 0.0059355 0.0034921 -0.00075885 -0.0016665
-0.000993 -0.0003783 -0.00048209 -0.00063302
-0.0029487 -0.002658 0.005953 0.0034635 0.30325 -0.15661 -0.00069678 0.0014932
-0.0012359 -0.00088773 -0.00013081 -0.00021466
0.0027003 0.00097962 -0.00074385 -0.0016597 -0.00069382 0.0015327 0.246 0.053141
-0.0063108 0.0083156 0.0025137 -0.00079453
-0.00081444 -0.0013735 -0.0010035 -0.00037341 -0.0012414 -0.00090702 -0.0062997 0.0083733
0.1969 0.14391 -0.0043525 0.0094044
-0.00031026 0.00058053 -0.00049447 -0.00061941 -0.00017702 -0.00022298 0.0024434 -0.0009013
-0.0043972 0.0092997 0.24411 0.20558
1700000000 0.28956 -0.02341 0.0022514 0.0090715 -0.0035332 9.5918e-05 0.0029614 -0.0012778
-0.0019398 -0.00052045 0.00057564 0.00055399
0.0022335 0.0090791 0.22291 0.24127 0.0039858 0.00054143 -0.0014554 -0.0005646
-0.00072963 -1.0955e-07 -0.00093055 -0.00046737
-0.0035054 0.00010838 0.0040057 0.00052681 0.26002 -0.19643 0.00046341 0.0014947
-0.0018657 -0.00017804 -0.00048562 -0.00081491
0.003003 -0.0013112 -0.0014794 -0.00053795 0.00041447 0.0015304 0.24299 0.0034685
-0.0039059 0.0085577 0.0013871 -0.0023271
-0.0019449 -0.00053791 -0.0007583 -5.2685e-06 -0.0019228 -0.00021279 -0.0038968 0.0086115
0.21421 0.12362 0.00025844 0.0095154
0.00062299 0.00042515 -0.00094153 -0.00048652 -0.00045252 -0.0007831 0.0013968 -0.0022565
0.0003326 0.0095435 0.26065 0.17133
1760000000 0.2771 -0.0717 0.004289 0.0057982 -0.0023147 0.00087447 0.0012308 -0.003411
-0.0012775 0.00074692 0.00041578 -0.00061412
0.004283 0.0058114 0.24873 0.20137 0.0017254 -0.0013197 -0.0011856 0.00024291
-0.0010502 0.00084254 -0.00057522 0.00046731
-0.0022972 0.00089597 0.0017143 -0.0013222 0.2116 -0.23034 0.0011455 0.0010616
-0.00106 0.0014702 -0.0011339 -0.00043204
0.0011776 -0.0034265 -0.0012092 0.00023627 0.0011788 0.0010757 0.23392 -0.047961
-0.0010536 0.007771 -0.00013759 -0.0024629
-0.0013017 0.00075822 -0.001064 0.00084562 -0.0010256 0.0014733 -0.00097765 0.0077544
0.22893 0.088336 0.0043178 0.006961
0.00046907 -0.00051822 -0.00055652 0.0005043 -0.0011587 -0.00046511 -0.0001818 -0.0025758
0.0042823 0.0069449 0.27327 0.13347
1820000000 0.25236 -0.10881 0.0043328 0.0023668 -0.0001596 0.0024025 -0.0011152 -0.0030966
-0.00096255 0.00084409 5.3032e-06 -0.0002078
0.0043336 0.0023736 0.25866 0.17137 -0.0002915 -0.00010542 -0.0012326 0.0008911
-8.9706e-05 0.0013089 -0.0005604 0.00049425
-0.00011044 0.0024115 -0.00029112 -9.9469e-05 0.16096 -0.24577 0.0014076 0.00038335
-0.00032047 0.0022196 -0.0016457 0.00030221
-0.0010864 -0.0030958 -0.0012197 0.00092072 0.001459 0.00036193 0.20401 -0.095114
0.00016467 0.0062244 -0.0018618 -0.0016639
-0.00098867 0.00085965 -8.1338e-05 0.0013071 -0.00028672 0.0022132 0.00023226 0.0061846
0.24591 0.059101 0.0050642 0.0031484
-4.8854e-05 -0.00013997 -0.00057868 0.00050748 -0.0015765 0.00029075 -0.0018302 -0.001544
0.0050515 0.0031043 0.27574 0.097264
1880000000 0.21714 -0.14899 0.0021492 0.00026137 -0.00044678 0.0022509 -0.0029366 -0.0021256
-0.00023737 0.0015871 0.00022861 -0.00057084
0.0021598 0.00026138 0.26306 0.12469 -0.0023713 0.0015545 -0.000122 0.001625
0.00059359 0.0013034 9.7778e-05 0.00094947
-0.00042668 0.0022886 -0.0023688 0.0015838 0.10827 -0.25543 0.0018231 -0.00089685
0.0014373 0.0019496 -0.00099091 0.0013867
-0.0029864 -0.0021204 -0.00014858 0.0016478 0.0018494 -0.00087162 0.16343 -0.13529
0.00065382 0.0044379 -0.0022983 0.00057347
-0.00018588 0.0015446 0.00060725 0.0013158 0.001475 0.0019481 0.0006037 0.0044876
0.24856 0.026272 0.0050548 0.0010454
0.00022856 -0.00053962 0.00010658 0.00099748 -0.0010087 0.0013881 -0.0022819 0.00040501
0.0049011 0.0010369 0.27509 0.062847
1940000000 0.17767 -0.17458 -0.00010373 -0.0013769 0.001464 0.0019471 -0.0038817 0.00067943
0.0012135 0.0010182 -0.00045291 -0.00058142
-8.2792e-05 -0.0013788 0.26341 0.09286 -0.0012058 0.0037506 0.00094741 0.0012384
0.0018999 0.00054189 0.00092726 0.00039292
0.0014882 0.0019283 -0.0011844 0.0037482 0.06247 -0.24876 0.00041143 -0.0021413
0.0024734 0.00045998 0.00042252 0.0017755
-0.00384 0.00071822 0.00097919 0.00128 0.00039626 -0.0021367 0.11131 -0.16562
-0.00042351 0.0034019 -0.0015613 0.0015347
0.0012598 0.0010568 0.0019144 0.00051229 0.0024559 0.00042166 -0.00032657 0.003351
0.24979 -0.012778 0.0036299 -0.0023655
-0.00047039 -0.00060542 0.00091894 0.00037962 0.00039765 0.0018328 -0.0016032 0.0014016
0.0037147 -0.002495 0.26384 0.027046
2000000000 0.13119 -0.1891 -0.003962 0.00071174 0.0025434 0.0017637 -0.0022568 0.003491
0.0010968 0.00034116 -0.0006618 0.00043048
-0.003951 0.00070964 0.24914 0.057408 -0.0010865 0.0058076 0.0016111 0.0003469
0.0014327 -0.001373 0.00044688 0.0001113
0.0025461 0.0017353 -0.0010505 0.0058102 0.01852 -0.23396 -0.0013709 -0.0012141
0.0019972 -0.0011028 0.0017376 0.0013083
-0.002234 0.0035694 0.0015843 0.00032769 -0.0013487 -0.0012542 0.057572 -0.17524
-0.0019966 0.0038844 -9.2729e-05 0.0023699
0.0010618 0.00031484 0.0013775 -0.0013779 0.0019816 -0.0011016 -0.0021105 0.0039218
0.24346 -0.046363 0.00021043 -0.0030434
