!Keysight Technologies,M9804A,MY58100912,A.14.10.03
!Date: Thursday, April 27, 2023 10:28:33
!Correction: S11(C  6-Port  ) 
!S12(C  6-Port  ) 
!S13(C  6-Port  ) 
!S14(C  6-Port  ) 
!S15(C  6-Port  ) 
!S16(C  6-Port  ) 
!S21(C  6-Port  ) 
!S22(C  6-Port  ) 
!S23(C  6-Port  ) 
!S24(C  6-Port  ) 
!S25(C  6-Port  ) 
!S26(C  6-Port  ) 
!S31(C  6-Port  ) 
!S32(C  6-Port  ) 
!S33(C  6-Port  ) 
!S34(C  6-Port  ) 
!S35(C  6-Port  ) 
!S36(C  6-Port  ) 
!S41(C  6-Port  ) 
!S42(C  6-Port  ) 
!S43(C  6-Port  ) 
!S44(C  6-Port  ) 
!S45(C  6-Port  ) 
!S46(C  6-Port  ) 
!S51(C  6-Port  ) 
!S52(C  6-Port  ) 
!S53(C  6-Port  ) 
!S54(C  6-Port  ) 
!S55(C  6-Port  ) 
!S56(C  6-Port  ) 
!S61(C  6-Port  ) 
!S62(C  6-Port  ) 
!S63(C  6-Port  ) 
!S64(C  6-Port  ) 
!S65(C  6-Port  ) 
!S66(C  6-Port  ) 
!S6P File: Measurement: :
# Hz S  RI   R 50
500000000 -0.33674 -0.03899 -0.0095333 -0.0024885 -0.0076345 0.012237 -0.0040082 0.012171
0.012955 0.0040865 -0.003588 0.0086209
-0.0096257 -0.002482 -0.41907 -0.051547 0.0081305 -0.010975 0.0016264 0.012002
0.0073657 0.002661 0.0016798 0.013379
-0.0075899 0.012385 0.0081067 -0.011143 -0.26468 0.20894 0.0078406 0.0032617
-0.0016778 0.0079122 0.00134 0.011701
-0.0040056 0.012151 0.0016131 0.012021 0.0077931 0.0033171 -0.33066 0.044114
-0.01838 -0.0066866 0.016695 0.026299
0.012575 0.0047202 0.0076919 0.002457 -0.0015819 0.0075411 -0.017698 -0.0067099
-0.22292 -0.19424 -0.025499 0.0055432
-0.0045732 0.0089002 0.0016847 0.0135 0.0019071 0.011837 0.015184 0.025774
-0.025359 0.0046882 -0.2668 -0.12851
560000000 -0.31641 0.12365 -0.023726 -0.06435 0.00082733 0.011946 0.0051998 0.010234
0.00987 0.0039904 0.011543 0.0065882
-0.023584 -0.064283 -0.37777 0.10786 -0.040963 -0.037781 0.013518 0.0037283
-0.012447 -0.0043409 0.0035126 0.00069353
0.00081827 0.011948 -0.041512 -0.037775 -0.18323 0.25698 -0.00033814 -0.0045283
0.019419 0.0044574 0.0072564 -0.0070128
0.0052296 0.010164 0.013605 0.0036702 -0.00025019 -0.0043819 -0.30555 0.13237
0.0049192 -0.024387 0.0039741 -0.020246
0.010174 0.0044081 -0.012504 -0.0042724 0.018931 0.0050595 0.0052219 -0.024033
-0.28911 -0.019943 0.01042 -0.051195
0.010824 0.0074346 0.0033924 -9.4488e-05 0.0069889 -0.0063132 0.0040011 -0.021703
0.0094599 -0.048951 -0.32922 0.019703
620000000 -0.27487 0.10681 -0.023055 0.0076405 0.0029988 0.0085801 0.0080831 -0.0054558
0.010959 7.5441e-05 0.0016659 -0.0030072
-0.023008 0.00761 -0.40226 0.059647 -0.018699 -0.00015344 -0.0014312 -0.0021279
0.011167 -0.006414 0.0013437 -0.0033349
0.0030049 0.0085653 -0.018755 -0.00015074 -0.15391 0.26574 -0.0016907 -0.0051637
-0.0031772 -0.0027765 0.0087158 -0.0033254
0.008019 -0.0055294 -0.0014451 -0.0021788 -0.0016841 -0.0051127 -0.26526 0.1438
-0.037367 -0.019068 0.011486 0.025875
0.011005 -0.00048148 0.011434 -0.0067153 -0.0030824 -0.0028476 -0.03757 -0.019521
-0.20877 -0.058378 -0.039806 0.013801
0.0018999 -0.0027296 0.0013494 -0.0032308 0.0085932 -0.003483 0.012071 0.026242
-0.041103 0.013866 -0.2504 -0.019856
680000000 -0.23431 0.19218 -0.027421 -0.014554 0.0050821 0.0052464 0.0010854 -0.0071603
-0.0035078 -0.011198 0.0053317 -0.0069399
-0.027379 -0.014551 -0.38757 0.15714 -0.033122 -0.0013895 -0.0018564 -0.00055009
-0.0021403 -0.0086256 -0.0012357 -0.0019819
0.0051003 0.0052539 -0.03315 -0.0013182 -0.10281 0.2859 -0.00072266 1.3895e-05
-0.0017531 0.00092331 -0.0024731 -0.0094426
0.0010646 -0.007163 -0.0018681 -0.00053339 -0.0007409 1.163e-05 -0.22036 0.19352
-0.023911 -0.008054 -0.0090077 -0.010198
-0.0034861 -0.011244 -0.0022057 -0.0085989 -0.0016191 0.00087281 -0.023772 -0.008243
-0.25794 0.040676 -0.0056731 -0.0078548
0.0043967 -0.0066233 -0.001641 -0.0019125 -0.0030824 -0.0092257 -0.010203 -0.010687
-0.0052728 -0.008247 -0.26224 0.088476
740000000 -0.19005 0.18708 -0.038799 0.026678 0.012728 -0.0050318 -0.00014821 -0.0042372
-0.0046824 -0.0023514 -0.0056872 0.0029739
-0.038863 0.026635 -0.33486 0.17625 -0.035579 0.035472 -0.00050194 -0.0060884
-0.011551 0.0078712 -0.002578 -0.0059275
0.012779 -0.0050901 -0.035574 0.035577 -0.069364 0.28465 -0.0019159 0.0033699
-0.001748 -0.0043593 -0.001597 0.00058386
-0.0001592 -0.0042263 -0.00050407 -0.006046 -0.0019455 0.0033472 -0.20389 0.20125
-0.043853 -0.0069251 0.022693 0.014999
-0.0045447 -0.0025036 -0.011733 0.0081922 -0.0021926 -0.0044796 -0.04406 -0.0071915
-0.15966 0.066433 -0.042975 -0.00056413
-0.0060596 0.0028426 -0.0021616 -0.0063352 -0.0015679 -6.9848e-05 0.02252 0.014796
-0.043803 -0.00041567 -0.25015 0.093517
800000000 -0.15771 0.22723 -0.022634 0.016726 0.005378 -0.010742 -0.0047817 -0.0019081
-0.0039679 0.0025456 0.0047862 0.00047104
-0.022649 0.016689 -0.33834 0.24626 -0.0078329 0.034206 -0.0023308 0.002233
-0.00023698 0.0032665 0.0012869 0.0054321
0.0053639 -0.01074 -0.0077634 0.03423 -0.028451 0.30809 0.0011221 0.0014262
0.00052904 0.0034273 -0.001594 0.00082511
-0.0047783 -0.001914 -0.0023335 0.0022414 0.0011057 0.0013838 -0.17586 0.22933
-0.028899 0.013886 0.013354 -0.0099893
-0.0040758 0.0024442 -0.00030362 0.0031501 0.00043335 0.0033539 -0.02886 0.013856
-0.20735 0.08998 -0.01734 0.01888
0.0047288 0.0006511 0.0011543 0.0052157 -0.0016443 0.00087824 0.013498 -0.010041
-0.017737 0.018809 -0.24311 0.14272
860000000 -0.12321 0.24773 -0.017489 0.030779 -0.0034167 -0.010019 -0.0025548 0.00082133
0.0041326 0.004791 -0.0031221 -0.0027835
-0.017507 0.030772 -0.29089 0.28869 0.0079668 0.034425 7.9131e-06 0.0019053
0.0043814 -5.1847e-06 0.003118 0.00067282
-0.0034358 -0.010022 0.0081139 0.034447 0.019753 0.31626 -0.00062524 -0.00041864
0.0028234 -0.0017188 0.0013615 0.0043292
-0.0025137 0.00085893 2.2759e-05 0.001925 -0.00063679 -0.0004429 -0.13966 0.24057
-0.018283 0.018791 -0.0057712 -0.0090699
0.004312 0.0048531 0.0046198 -0.00015209 0.0028496 -0.0016712 -0.01813 0.018783
-0.15674 0.14113 -0.026047 0.015715
-0.0031585 -0.0029148 0.003269 0.00091925 0.001446 0.0045097 -0.0059656 -0.0091484
-0.026167 0.015954 -0.19273 0.18852
920000000 -0.098343 0.2711 0.0050806 0.038122 -0.0096087 -0.004401 -0.0017539 0.0021647
0.00099629 0.001967 0.0027083 -0.0016045
0.0050664 0.038117 -0.26184 0.31029 0.028306 0.02212 0.0015362 0.0011942
0.0068562 -0.00072223 0.0040072 -0.0026087
-0.009621 -0.0043671 0.028415 0.022035 0.066343 0.31693 0.001775 -9.341e-06
0.0011758 -0.00046034 0.0011604 -0.00095988
-0.0017601 0.0021872 0.0015379 0.0011806 0.0017661 -1.0257e-06 -0.11581 0.25825
-0.01092 0.030928 0.0033358 -0.0063977
0.00091103 0.0020085 0.0067981 -0.00077913 0.0011863 -0.00045913 -0.010844 0.030905
-0.14701 0.14806 -0.0029794 0.02761
0.002587 -0.0016419 0.0037583 -0.0027371 0.00088131 -0.0011041 0.0033247 -0.006643
-0.0031563 0.027603 -0.20037 0.20204
980000000 -0.050818 0.29044 0.017709 0.030252 -0.0090902 0.0048013 0.0022215 0.0035616
0.0040137 -0.0014106 -0.0032594 -0.0023179
0.01766 0.030224 -0.20895 0.34404 0.03327 0.0047685 0.0020706 -9.8246e-05
0.0012598 -0.0058681 -0.00030342 -0.0025226
-0.0090736 0.0048411 0.033344 0.0046517 0.11276 0.31018 0.00046251 -0.0011254
0.00023609 -0.002131 0.0016402 -0.00035049
0.0022229 0.0035632 0.0020576 -0.00010424 0.00047218 -0.0011441 -0.077379 0.26986
0.0081882 0.030292 -0.0091189 -0.0073854
0.0039341 -0.0013795 0.0012608 -0.005797 0.00022408 -0.002082 0.008149 0.030254
-0.11625 0.17723 0.0047624 0.019291
-0.0032193 -0.0021364 -0.00027998 -0.0024029 0.0015322 -0.00019765 -0.0092148 -0.0072113
0.0047764 0.01956 -0.1594 0.24793
1040000000 -0.0085162 0.29883 0.033375 0.018216 -0.0011229 0.0070418 0.0026845 0.00063324
1.5494e-05 -0.0037535 -0.00023143 -0.0014395
0.03335 0.018202 -0.17314 0.35711 0.029545 -0.015027 0.0014723 -0.0017151
-0.0027458 -0.0024283 -0.0015102 -0.0025926
-0.001113 0.0070455 0.029518 -0.015189 0.15895 0.29643 -0.00052882 -0.0014663
-0.0016457 -0.00083567 -0.00042483 -0.0011749
0.0026872 0.00064016 0.001439 -0.0017341 -0.00053267 -0.0014731 -0.049661 0.28014
0.019674 0.018075 -0.0023792 0.0017875
-1.9735e-05 -0.0037367 -0.0027157 -0.0024531 -0.0016849 -0.000853 0.019705 0.01799
-0.083859 0.18557 0.013651 0.018884
-0.0002956 -0.0013345 -0.0015298 -0.0025109 -0.00034723 -0.0011496 -0.0024241 0.001757
0.013345 0.018733 -0.13715 0.26831
1100000000 0.037065 0.30647 0.036087 -0.0042727 0.0030575 0.0039013 0.0023494 -0.0014976
-0.0020759 -0.0031229 -0.00384 5.6368e-06
0.036059 -0.0042656 -0.12965 0.37442 0.015047 -0.028042 -6.146e-05 -0.0018252
-0.0032577 -0.00059871 -0.003465 -0.00055526
0.0030869 0.003874 0.014954 -0.028136 0.20547 0.27588 -0.0017956 0.00029124
-0.0017488 0.0005673 -0.0010963 -0.00052694
0.0023507 -0.0015233 -8.4067e-05 -0.0018472 -0.0017979 0.0002798 -0.0088886 0.28514
0.024859 0.0048205 -0.0025216 0.00028465
-0.0020614 -0.0031221 -0.0032975 -0.00054126 -0.0017358 0.00058812 0.024877 0.0047664
-0.065943 0.19984 0.019063 0.0087433
-0.0038496 9.9092e-05 -0.0033768 -0.00048087 -0.0010933 -0.00055955 -0.0025015 0.00027922
0.018948 0.0088239 -0.091477 0.29902
1160000000 0.088431 0.3012 0.024076 -0.02095 0.0028253 -0.00056871 -0.00035557 -0.0024897
-0.00425 -0.00067215 -0.00082031 0.0041757
0.024059 -0.020942 -0.08559 0.37853 -0.0039295 -0.029166 -0.0017271 -0.0016494
-0.0026057 0.0025274 -0.0011672 0.0018707
0.0028283 -0.00060371 -0.0040623 -0.029195 0.24857 0.24472 -0.00060848 0.0017119
-0.00057468 0.0019099 -0.00094915 0.00018682
-0.0003589 -0.0024939 -0.0017347 -0.0016498 -0.00061423 0.0017259 0.030797 0.28233
0.021062 -0.010738 -0.0029775 0.00529
-0.0042091 -0.00067318 -0.0025537 0.0025119 -0.00056778 0.0019165 0.021042 -0.010721
-0.032176 0.20987 0.018283 0.0006564
-0.00079748 0.0041911 -0.0012816 0.0018611 -0.0010115 0.00019711 -0.0028717 0.0053084
0.018104 0.00073031 -0.044295 0.30125
1220000000 0.13283 0.28979 0.010377 -0.03025 -0.0014976 -0.0010116 -0.00012923 -0.00091532
-0.0026118 0.0025013 0.0013488 0.0019651
0.010377 -0.030229 -0.041124 0.39028 -0.017088 -0.02112 -0.0024874 0.00049316
0.0001424 0.0028919 -0.00070672 0.0018437
-0.0015061 -0.00099221 -0.017193 -0.021053 0.28762 0.20546 0.00088652 0.0014911
0.0006511 0.0011941 0.00034815 0.0006951
-0.00013093 -0.00091186 -0.0024977 0.00049502 0.00087851 0.0015084 0.070824 0.27356
0.010144 -0.017378 0.002398 0.0015
-0.0026453 0.0025259 0.00015745 0.0028898 0.00063216 0.0011126 0.01007 -0.017407
-0.0091774 0.21925 0.014284 -0.012524
0.0014033 0.0020092 -0.00071517 0.0018745 0.00027666 0.00072622 0.0023592 0.001468
0.01442 -0.012664 -0.013109 0.31848
1280000000 0.18254 0.26754 -0.0080479 -0.028596 -0.0019326 0.0023628 -0.00093836 -0.0018747
-0.00074453 0.0030806 0.0023465 0.0010612
-0.0080238 -0.028565 0.0051584 0.38085 -0.023829 -0.0082701 -0.00086671 0.0014608
0.0016275 0.0015958 0.00066331 0.0019564
-0.0019101 0.0023421 -0.0239 -0.0081597 0.31777 0.16135 0.0014918 -0.0001125
0.0010984 0.00028908 0.00033246 0.00038184
-0.0009512 -0.0018644 -0.00087411 0.0014622 0.0014811 -0.00011285 0.10764 0.25687
0.0005601 -0.019089 0.00017646 -3.0747e-05
-0.00073635 0.0030787 0.00164 0.0016402 0.0010946 0.00028866 0.00052223 -0.019078
0.027821 0.22345 0.0032268 -0.014645
0.0024304 0.0010293 0.00063379 0.0020103 0.00046454 0.00035926 0.00014629 -3.6572e-05
0.0032701 -0.014756 0.035195 0.32087
1340000000 0.21947 0.23325 -0.017766 -0.018994 0.00085586 0.0043906 -0.0017114 -0.00071438
0.0015116 0.002637 0.0015889 -0.0014279
-0.017732 -0.018987 0.044403 0.37208 -0.021459 0.0044065 -9.2751e-05 0.0019281
0.0018326 0.00072318 0.0013731 0.00077532
0.00086815 0.0043864 -0.021453 0.0045057 0.33955 0.11334 0.00099309 -0.00089723
0.00067978 -0.000456 0.00017849 0.00033903
-0.0017032 -0.00071215 -8.0524e-05 0.00191 0.0010009 -0.00089183 0.13989 0.23639
-0.0087872 -0.015961 0.00094979 0.00029956
0.0015607 0.0026884 0.0018536 0.00070757 0.00065961 -0.00046213 -0.0088236 -0.015977
0.058314 0.21905 -0.0033683 -0.013207
0.0016989 -0.001419 0.0013431 0.0007773 0.00021682 0.00037453 0.00094655 0.00028819
-0.0033729 -0.013254 0.073637 0.31662
1400000000 0.25213 0.19476 -0.02352 -0.0074311 0.0050034 0.0030588 -0.0019658 0.00063242
0.0024407 0.00081769 0.00029975 -0.0012911
-0.023493 -0.007429 0.08141 0.35862 -0.014694 0.012411 0.0012566 0.00124
0.0010313 -0.00077889 0.0011538 0.00016894
0.0050016 0.0030527 -0.014634 0.012513 0.35249 0.060028 7.4808e-05 -0.001526
8.7511e-06 -0.00036818 0.00048225 0.00025807
-0.0019644 0.00063468 0.0012675 0.0012273 6.543e-05 -0.001526 0.16928 0.20776
-0.014384 -0.0091099 -0.00082275 -0.00063453
0.0024469 0.00083212 0.0010386 -0.00081618 -1.0429e-05 -0.00041342 -0.014396 -0.0090872
0.09147 0.21465 -0.0096497 -0.0088391
0.00030196 -0.00133 0.0012201 0.00019262 0.00046565 0.00026827 -0.00081766 -0.00063683
-0.0097329 -0.008794 0.1189 0.30555
1460000000 0.27421 0.15053 -0.02054 0.0047552 0.0054548 -0.0018011 -0.0015492 0.0016743
0.0021028 -0.00066742 -0.00031704 -0.00099393
-0.020525 0.0047358 0.11505 0.33647 -0.0059648 0.015174 0.0016386 0.00020202
0.00083364 -0.0011718 0.0011587 -0.00065329
0.0054546 -0.0018252 -0.0059001 0.015223 0.35832 0.0056046 -0.0012184 -0.0011803
0.00017565 -0.00025369 0.00060989 -0.00030846
-0.0015434 0.0016839 0.0016381 0.00018737 -0.0012279 -0.0011789 0.19541 0.1788
-0.015246 -0.0023889 -0.0010062 0.0018904
0.0021058 -0.00068126 0.00083472 -0.0012163 0.00015242 -0.00026976 -0.015277 -0.0023338
0.12097 0.20004 -0.011717 -0.0029035
-0.00033935 -0.00096861 0.0011603 -0.00065277 0.00058603 -0.00029839 -0.0009923 0.0018574
-0.011613 -0.0029353 0.1523 0.28484
1520000000 0.28577 0.10886 -0.01483 0.010414 0.0031963 -0.004077 8.9173e-05 0.0025818
0.0019903 -0.0017386 -0.0010962 -1.9088e-05
-0.014816 0.010394 0.1482 0.32176 0.001515 0.012932 0.0016173 -0.00070703
2.8908e-06 -0.00095146 0.00028426 -0.0010212
0.0031795 -0.0040696 0.0015892 0.012937 0.35158 -0.050452 -0.0010091 -0.00030297
0.00057948 -0.00082562 3.7622e-05 -0.00016332
0.00011086 0.0025889 0.0016134 -0.00071419 -0.0010184 -0.00030135 0.21873 0.14123
-0.014256 0.0030872 0.0012705 0.0019529
0.0019466 -0.0017407 5.1343e-06 -0.0009579 0.00058137 -0.00081293 -0.01427 0.0031614
0.14877 0.186 -0.011535 0.0014037
-0.0010582 -4.8606e-05 0.00030321 -0.0010533 6.3809e-05 -0.00013834 0.0012714 0.0019929
-0.011504 0.0014431 0.18576 0.26449
1580000000 0.29468 0.063098 -0.008125 0.013569 -0.00098422 -0.0047782 0.0013623 0.0018682
-0.0004185 -0.0020846 -0.00029925 0.00034905
-0.0081202 0.013544 0.17503 0.29708 0.0050238 0.0081602 0.00050405 -0.0015324
-0.00051668 -0.00099005 -0.00028332 -0.00078217
-0.0010029 -0.0047614 0.0050666 0.0081249 0.33116 -0.10784 -0.0015013 0.00057153
-0.00028868 -0.0010166 0.00022402 -0.00047288
0.0013739 0.0018633 0.00048976 -0.0015416 -0.0014926 0.00057609 0.23285 0.10216
-0.010625 0.0076651 0.0021992 0.00084917
-0.00040206 -0.0020746 -0.00052902 -0.00098226 -0.00033819 -0.0010261 -0.010563 0.0076728
0.17322 0.16813 -0.0091578 0.0071668
-0.00032959 0.00036957 -0.00028467 -0.00075871 0.00010409 -0.00045737 0.002154 0.00090604
-0.0091243 0.0072249 0.2183 0.23756
1640000000 0.2966 0.022142 -0.0012587 0.012476 -0.0026433 -0.0024413 0.0027221 0.0010051
-0.00064646 -0.0013895 -0.00018903 0.00055651
-0.0012617 0.012456 0.20429 0.27234 0.0057846 0.0034843 -0.00061726 -0.0016995
-0.00096884 -0.00039101 -0.0005324 -0.000637
-0.0026347 -0.0024266 0.0057995 0.0034602 0.30306 -0.15696 -0.00065022 0.0013488
-0.0010084 -0.0010611 -0.00015663 -0.00041305
0.0027171 0.00097763 -0.00062125 -0.0017021 -0.00066375 0.0013735 0.24542 0.053547
-0.0063538 0.0084283 0.002414 -0.00062291
-0.00064405 -0.0013817 -0.00096298 -0.0003714 -0.0010149 -0.0010283 -0.0063151 0.008436
0.19581 0.14373 -0.0046577 0.0091085
-0.00021263 0.00052507 -0.00046907 -0.00064331 -5.0967e-05 -0.00052443 0.0023801 -0.00068205
-0.004662 0.0091464 0.24356 0.20626
1700000000 0.28928 -0.022929 0.0021677 0.0095335 -0.003289 0.00017405 0.0029754 -0.001172
-0.002 -0.00062582 0.00067493 0.00039303
0.0021599 0.0095158 0.22219 0.24107 0.0037534 0.00073846 -0.0014493 -0.00058884
-0.00074821 3.7272e-05 -0.00086845 -0.00038535
-0.0032808 0.00019175 0.0037709 0.00071795 0.25937 -0.19683 0.00034968 0.0016387
-0.0018746 -0.00017309 -0.00048029 -0.00084671
0.0029706 -0.0011927 -0.0014457 -0.00057271 0.00037373 0.0016363 0.24262 0.0040959
-0.0039252 0.0086853 0.0015116 -0.0021409
-0.0019754 -0.00060254 -0.00074637 6.806e-05 -0.0018413 -0.00013693 -0.003908 0.0086952
0.21306 0.12361 9.0482e-05 0.0094333
0.00066661 0.00039161 -0.00090734 -0.00038277 -0.00051483 -0.0008509 0.0014516 -0.0021198
8.5005e-05 0.0093934 0.26006 0.17161
1760000000 0.27702 -0.071233 0.0044277 0.0062164 -0.0021459 0.00091462 0.0013321 -0.0033531
-0.0012212 0.00072509 0.00045575 -0.00060752
0.0044101 0.006207 0.24807 0.20144 0.0016039 -0.00092066 -0.0011768 0.00017005
-0.00093935 0.00085281 -0.00055112 0.00039684
-0.0021362 0.00091918 0.00161 -0.00093403 0.21034 -0.22945 0.0011907 0.0011239
-0.0010678 0.0013786 -0.0013856 -0.00057527
0.0013163 -0.0033703 -0.0011638 0.0001699 0.0011627 0.0011215 0.23379 -0.047293
-0.0010223 0.0078321 -0.00023545 -0.002465
-0.0012184 0.00073202 -0.00094327 0.00085944 -0.0011171 0.0014366 -0.00099894 0.0078197
0.22771 0.0886 0.003869 0.0068188
0.00041679 -0.00063925 -0.00049968 0.00042406 -0.0013494 -0.00046732 -0.00022744 -0.0024503
0.0039129 0.0068449 0.27267 0.13377
1820000000 0.25254 -0.10843 0.0045749 0.0026775 2.1817e-05 0.0023087 -0.00094106 -0.0030176
-0.0010185 0.00088287 -0.00012563 1.6451e-06
0.0045623 0.0026699 0.25803 0.17157 -0.00016898 5.3786e-05 -0.0013246 0.00092825
-3.988e-05 0.0012606 -0.0004752 0.00051177
1.8009e-05 0.0023318 -0.0001709 4.9539e-05 0.16094 -0.24551 0.0014151 0.00041296
-0.00028806 0.0021861 -0.0012343 0.00025257
-0.00096104 -0.0030058 -0.001327 0.00092859 0.0014597 0.0003987 0.20421 -0.094358
4.7474e-05 0.006267 -0.0015912 -0.0014917
-0.0010182 0.00089105 -4.721e-05 0.0012508 -0.00028464 0.0021436 7.351e-05 0.0062732
0.24464 0.059671 0.0047387 0.0033701
-9.9599e-05 -0.00011585 -0.00046233 0.00051697 -0.0012748 0.00037644 -0.0015413 -0.0015178
0.0048002 0.0034478 0.275 0.097765
1880000000 0.21751 -0.14866 0.0024201 0.00041265 -0.00039541 0.0019159 -0.0029162 -0.0021518
-0.00019827 0.0016063 0.00030159 -0.00046729
0.0024133 0.00041484 0.26256 0.12524 -0.0021541 0.0016659 -0.00019394 0.0016999
0.0005639 0.0011409 0.00011965 0.00085968
-0.00040043 0.0019339 -0.002151 0.0016916 0.10851 -0.25537 0.0018009 -0.00093817
0.0015131 0.0019479 -0.00096135 0.0014101
-0.0029087 -0.0021382 -0.00017268 0.0016999 0.0018149 -0.00097578 0.164 -0.13474
0.00060369 0.004629 -0.0023852 0.00048428
-0.00014784 0.0016124 0.00055714 0.0011535 0.0015123 0.0019496 0.00060496 0.0045954
0.24736 0.027274 0.004794 0.0012116
0.00028604 -0.00048241 0.00012289 0.00082298 -0.00090624 0.0012 -0.0024092 0.00045695
0.0047747 0.0012006 0.27434 0.063611
1940000000 0.178 -0.1746 0.00032888 -0.0013003 0.001305 0.0018999 -0.0037856 0.00050926
0.0012782 0.00092636 -0.00063698 -0.00050064
0.00032288 -0.0013196 0.26325 0.093533 -0.00096243 0.003815 0.00098811 0.0013552
0.0017825 0.0004746 0.00080321 0.00024307
0.0013571 0.001919 -0.00096087 0.0038375 0.062344 -0.24837 0.00041333 -0.0022442
0.0024246 0.00050438 0.00020667 0.0016677
-0.0038046 0.00055191 0.00099489 0.0013505 0.00041671 -0.0021965 0.11192 -0.1653
-0.00031274 0.0036963 -0.0015049 0.0015344
0.0012619 0.0009264 0.0017987 0.00044205 0.0024068 0.00048193 -0.00030183 0.0037514
0.249 -0.011334 0.0035282 -0.0020971
-0.00062276 -0.00051351 0.00082318 0.00024195 0.00022649 0.0016699 -0.0014328 0.0015735
0.0035606 -0.0020809 0.26355 0.027477
2000000000 0.13158 -0.1891 -0.0034716 0.00055852 0.0024553 0.0015825 -0.002277 0.003503
0.0010766 0.00016049 -0.00065814 0.00027898
-0.0034866 0.00054443 0.24922 0.05804 -0.00090982 0.0055601 0.0016682 0.00042132
0.0013023 -0.0012982 0.00042048 0.00011505
0.0024522 0.0015496 -0.00088029 0.0055856 0.018594 -0.23376 -0.0012931 -0.0013155
0.0020062 -0.0011211 0.0016414 0.001251
-0.0022931 0.0035247 0.001663 0.0003848 -0.0012731 -0.001336 0.05856 -0.17568
-0.0017638 0.0037044 -7.2317e-07 0.0022764
0.001107 0.0001321 0.0012881 -0.0013515 0.0020453 -0.0011616 -0.0017735 0.0036949
0.24285 -0.045042 0.00025197 -0.0027796
