!Keysight Technologies,M9804A,MY58100912,A.14.10.03
!Date: Thursday, April 27, 2023 10:28:33
!Correction: S11(C  6-Port  ) 
!S12(C  6-Port  ) 
!S13(C  6-Port  ) 
!S14(C  6-Port  ) 
!S15(C  6-Port  ) 
!S16(C  6-Port  ) 
!S21(C  6-Port  ) 
!S22(C  6-Port  ) 
!S23(C  6-Port  ) 
!S24(C  6-Port  ) 
!S25(C  6-Port  ) 
!S26(C  6-Port  ) 
!S31(C  6-Port  ) 
!S32(C  6-Port  ) 
!S33(C  6-Port  ) 
!S34(C  6-Port  ) 
!S35(C  6-Port  ) 
!S36(C  6-Port  ) 
!S41(C  6-Port  ) 
!S42(C  6-Port  ) 
!S43(C  6-Port  ) 
!S44(C  6-Port  ) 
!S45(C  6-Port  ) 
!S46(C  6-Port  ) 
!S51(C  6-Port  ) 
!S52(C  6-Port  ) 
!S53(C  6-Port  ) 
!S54(C  6-Port  ) 
!S55(C  6-Port  ) 
!S56(C  6-Port  ) 
!S61(C  6-Port  ) 
!S62(C  6-Port  ) 
!S63(C  6-Port  ) 
!S64(C  6-Port  ) 
!S65(C  6-Port  ) 
!S66(C  6-Port  ) 
!S6P File: Measurement: :
# Hz S  RI   R 50
500000000 -0.33689 -0.038087 -0.0098146 -0.0017715 -0.0073603 0.013102 -0.0040842 0.011441
0.011775 0.004581 -0.003843 0.009882
-0.0097061 -0.0018447 -0.41918 -0.050919 0.0081654 -0.010927 0.0014511 0.011629
0.0075777 0.0027851 0.0026382 0.013017
-0.0073179 0.013112 0.0080494 -0.010811 -0.26551 0.20944 0.0075764 0.0035689
-0.0018565 0.008244 0.0022094 0.011762
-0.0039241 0.011942 0.0018647 0.012992 0.0078201 0.0035478 -0.33136 0.0438
-0.01845 -0.0057905 0.016913 0.024831
0.012394 0.004708 0.0075767 0.0025928 -0.0010135 0.0080504 -0.018021 -0.0060675
-0.22553 -0.19567 -0.025578 0.005387
-0.0044986 0.008057 0.002075 0.014431 0.0024157 0.011334 0.015315 0.025667
-0.025603 0.0053862 -0.26685 -0.13062
560000000 -0.31726 0.12325 -0.023513 -0.06362 0.00038797 0.011965 0.0068608 0.0097719
0.010957 0.0034352 0.010632 0.0060522
-0.023726 -0.063845 -0.37826 0.10787 -0.041413 -0.03759 0.014405 0.0037116
-0.013485 -0.0041752 0.0027683 -0.0012288
0.00015091 0.012035 -0.041058 -0.037595 -0.1839 0.25741 -0.0002462 -0.0041724
0.018323 0.003912 0.0067058 -0.006132
0.0054767 0.011105 0.012933 0.0038083 -0.00040606 -0.0046729 -0.30544 0.1337
0.0046809 -0.023019 0.0042877 -0.021726
0.010141 0.0040877 -0.01317 -0.0036451 0.019408 0.0052665 0.0047826 -0.023969
-0.29025 -0.019626 0.009696 -0.049311
0.010829 0.0078354 0.0032307 -0.00071554 0.0067295 -0.006319 0.0044919 -0.020913
0.0088194 -0.050284 -0.32918 0.017545
620000000 -0.27565 0.10711 -0.023212 0.0077408 0.0033828 0.0088645 0.0081175 -0.0042775
0.011487 0.00041841 0.0013363 -0.0012781
-0.023206 0.007826 -0.40261 0.059853 -0.018692 -0.00020558 -0.0010959 -0.0021164
0.011579 -0.0067091 0.0019046 -0.0031716
0.0033529 0.0087799 -0.018696 -9.5606e-05 -0.15376 0.26685 -0.0013667 -0.0048371
-0.0027735 -0.0028117 0.0088223 -0.0038088
0.0083728 -0.0039465 -0.0015209 -0.0019954 -0.0016488 -0.0049204 -0.26599 0.14308
-0.037436 -0.019197 0.011636 0.026258
0.010699 -0.001567 0.011598 -0.0069118 -0.0025809 -0.0028605 -0.036126 -0.018127
-0.20956 -0.057029 -0.040756 0.014628
0.0012527 -0.0011031 0.0014564 -0.0033447 0.0079998 -0.0033086 0.011328 0.025325
-0.040695 0.014441 -0.25125 -0.017808
680000000 -0.23485 0.19185 -0.027035 -0.014217 0.0051917 0.0054534 0.0017539 -0.0072995
-0.0038825 -0.011693 0.0039564 -0.0066663
-0.026974 -0.01425 -0.3878 0.15767 -0.032741 -0.0011467 -0.0016452 -0.00027331
-0.0023153 -0.008902 -0.0019144 -0.0021126
0.0052682 0.0052657 -0.032796 -0.0010903 -0.10226 0.28639 -0.00087559 7.7526e-05
-0.0021091 0.00080915 -0.002938 -0.0091287
0.0016024 -0.0074336 -0.0015619 -1.6215e-05 -0.00094602 0.00034989 -0.22032 0.19414
-0.023583 -0.0078279 -0.0092956 -0.011875
-0.0036219 -0.011688 -0.0018455 -0.0091114 -0.0014076 0.00027331 -0.023368 -0.0078781
-0.25891 0.040808 -0.0055394 -0.0086229
0.0049579 -0.0080245 -0.0018661 -0.0023481 -0.0031531 -0.0092084 -0.0094105 -0.01106
-0.0060751 -0.0091535 -0.26126 0.087445
740000000 -0.19024 0.18729 -0.038371 0.026873 0.012612 -0.0049254 -0.00039017 -0.0045224
-0.0044945 -0.0019055 -0.005125 0.0027701
-0.038351 0.026735 -0.3347 0.1774 -0.035664 0.03543 -0.00053443 -0.0057908
-0.011363 0.0072503 -0.0022067 -0.0058454
0.012607 -0.0050138 -0.035588 0.035469 -0.06879 0.28478 -0.0023841 0.0033347
-0.0021066 -0.0044778 -0.0020234 0.00026626
-4.5901e-06 -0.0041506 -0.00070117 -0.0057254 -0.0021181 0.0031449 -0.2037 0.20151
-0.04317 -0.006367 0.023047 0.014846
-0.0037922 -0.0029369 -0.010932 0.0084071 -0.0029434 -0.0041844 -0.044243 -0.0062301
-0.15848 0.066652 -0.043554 0.00023004
-0.0056221 0.0031602 -0.0024651 -0.006763 -0.001517 -3.9673e-05 0.022803 0.01441
-0.043176 0.00027877 -0.24892 0.09457
800000000 -0.15728 0.22723 -0.022375 0.016707 0.0054489 -0.010764 -0.0046101 -0.0017596
-0.0039485 0.0022173 0.0039272 0.0007588
-0.022332 0.016705 -0.33793 0.2467 -0.0077405 0.033875 -0.0025177 0.0022789
-0.00051331 0.0031591 0.00079541 0.005304
0.0053172 -0.010775 -0.0076986 0.033998 -0.02776 0.30774 0.0011427 0.0016388
0.00021433 0.0035799 -0.0019938 0.00066147
-0.0045595 -0.0022542 -0.0020807 0.0023035 0.0011005 0.0013997 -0.17525 0.23014
-0.028706 0.013662 0.013553 -0.01061
-0.0040324 0.0020002 -0.00064885 0.0030904 0.00057791 0.0033652 -0.02811 0.013324
-0.20619 0.091209 -0.017617 0.019272
0.0050348 0.00091998 0.0011419 0.0058072 -0.0017525 0.0010465 0.012998 -0.0093758
-0.017858 0.019303 -0.24344 0.14236
860000000 -0.12286 0.24794 -0.017453 0.030784 -0.0034102 -0.0099953 -0.0023494 0.00073862
0.0038447 0.0050455 -0.0032861 -0.0027074
-0.017401 0.030667 -0.29042 0.28845 0.0079032 0.033933 -3.3653e-05 0.002059
0.0041591 0.00011495 0.0039771 0.00030298
-0.003391 -0.0099438 0.0079448 0.033992 0.020118 0.31563 -0.00067589 -0.00029645
0.0029723 -0.0015511 0.0017298 0.004507
-0.0024625 0.0010762 -0.00020423 0.0019785 -0.00062609 -0.00029235 -0.13891 0.24036
-0.018224 0.018566 -0.0065251 -0.0090478
0.0041656 0.0051671 0.0044989 0.00012131 0.0028106 -0.0015244 -0.017982 0.018433
-0.15597 0.14271 -0.025662 0.015798
-0.0035491 -0.0030142 0.003481 0.00070727 0.0014935 0.0042297 -0.0062353 -0.0094594
-0.025518 0.015583 -0.19151 0.19059
920000000 -0.098063 0.27091 0.005174 0.037607 -0.009412 -0.0044511 -0.001831 0.0021052
0.00099031 0.0015819 0.0026531 -0.0018127
0.0051287 0.037637 -0.26152 0.30955 0.02804 0.021698 0.0012343 0.00073684
0.0067166 -0.00047162 0.0040478 -0.0026419
-0.0094357 -0.0043885 0.028103 0.021674 0.066352 0.31624 0.0018551 -0.00013226
0.0011513 -0.00028719 0.00067736 -0.0012134
-0.0017494 0.0020935 0.0014509 0.0011745 0.0017714 -0.00013954 -0.11527 0.25771
-0.010694 0.030191 0.0040245 -0.0067807
0.0009818 0.001814 0.0068837 -0.00071469 0.0011895 -0.00042385 -0.010418 0.030023
-0.14577 0.14825 -0.0028665 0.027479
0.002867 -0.0012518 0.0039003 -0.002315 0.00081625 -0.000982 0.0032026 -0.006485
-0.0025369 0.027225 -0.20001 0.20329
980000000 -0.050879 0.29 0.01742 0.029928 -0.0089608 0.0046685 0.0021421 0.0037863
0.0039878 -0.0013857 -0.0028026 -0.0019773
0.017386 0.02992 -0.20887 0.34345 0.03278 0.0047942 0.0019935 0.00011288
0.0013518 -0.0058563 -0.0002489 -0.0024671
-0.0089667 0.0046539 0.032819 0.0046704 0.11247 0.30963 0.00045047 -0.0011667
0.00023591 -0.0021726 0.0015059 -0.00016419
0.0022172 0.0036982 0.0020287 -3.9079e-05 0.00051077 -0.0011391 -0.076978 0.26894
0.0077553 0.029755 -0.0094495 -0.0073603
0.0038119 -0.0014039 0.0013377 -0.0058642 0.00034118 -0.0020392 0.0080614 0.030152
-0.11507 0.17765 0.0049059 0.019364
-0.0029408 -0.002033 -0.00032181 -0.0025454 0.0015058 -0.00018574 -0.0093204 -0.0073862
0.0048178 0.019569 -0.15776 0.24858
1040000000 -0.0090072 0.29847 0.033129 0.018051 -0.0012223 0.0068815 0.0025878 0.00076612
0.00013261 -0.0036562 -0.00057041 -0.001294
0.033088 0.018025 -0.17322 0.35644 0.029204 -0.014743 0.0014082 -0.0018012
-0.0025855 -0.002322 -0.0013417 -0.0023982
-0.0011898 0.0069065 0.02916 -0.014886 0.1585 0.29595 -0.00043595 -0.0014862
-0.001679 -0.00086111 -0.00054707 -0.00098062
0.0025314 0.00065298 0.0014727 -0.0016065 -0.0004808 -0.001523 -0.049579 0.2791
0.018951 0.017765 -0.0022057 0.001605
-0.00010944 -0.0035576 -0.0026767 -0.0023779 -0.0016935 -0.00075465 0.019086 0.01728
-0.083188 0.18568 0.013423 0.018548
-0.00018063 -0.0015197 -0.0013204 -0.0025446 -0.0004107 -0.0011444 -0.0023197 0.0019335
0.013224 0.01849 -0.13609 0.26846
1100000000 0.036478 0.30608 0.035653 -0.0042329 0.0029265 0.0038764 0.0024227 -0.0013383
-0.002011 -0.0030516 -0.0037751 -7.6879e-06
0.035606 -0.0042135 -0.12984 0.37355 0.015042 -0.027596 1.8334e-06 -0.0018937
-0.0034104 -0.00065945 -0.0034428 -0.0005328
0.0029401 0.0038656 0.014972 -0.027728 0.20475 0.27567 -0.0018417 0.0002254
-0.0016518 0.00051063 -0.0010726 -0.00029143
0.002443 -0.001333 -7.6684e-05 -0.0019145 -0.0018486 0.00021222 -0.0092866 0.28409
0.024225 0.0050406 -0.0025262 6.1443e-05
-0.0019787 -0.0031627 -0.0033382 -0.0007862 -0.0017147 0.00043702 0.024384 0.0050616
-0.065144 0.19928 0.019126 0.0087883
-0.0038487 0.000154 -0.0034284 -0.00065659 -0.0011456 -0.0004573 -0.0023561 0.00021327
0.019061 0.0087734 -0.09066 0.29879
1160000000 0.087743 0.30114 0.023766 -0.020751 0.0027106 -0.00053762 -0.0002192 -0.0023562
-0.0042039 -0.00077709 -0.00093749 0.0039465
0.023783 -0.020721 -0.086266 0.37761 -0.0036999 -0.028906 -0.0017151 -0.0016565
-0.0026039 0.0025022 -0.0014146 0.0018426
0.002674 -0.0005706 -0.0038003 -0.028932 0.24769 0.24488 -0.00067121 0.0017551
-0.00058624 0.0019827 -0.0008692 0.00025935
-0.00023263 -0.002421 -0.0016938 -0.0017101 -0.00059127 0.0017767 0.029897 0.2815
0.020614 -0.010293 -0.0027616 0.0052448
-0.0042541 -0.00081195 -0.0025564 0.0024816 -0.0005739 0.0019914 0.020702 -0.010262
-0.031446 0.20893 0.018111 0.00061052
-0.00072944 0.0040727 -0.0011699 0.0019021 -0.00075179 0.00024033 -0.0027577 0.0051406
0.018015 0.00034175 -0.043912 0.30101
1220000000 0.1321 0.28994 0.010232 -0.02992 -0.0015323 -0.00081851 4.7445e-06 -0.00093307
-0.0028188 0.0024953 0.0013055 0.0020896
0.01024 -0.029875 -0.041966 0.38957 -0.016727 -0.020983 -0.0024672 0.00050348
3.5725e-05 0.0029592 -0.00074366 0.00186
-0.001549 -0.00081888 -0.016838 -0.020905 0.28677 0.2059 0.00085706 0.001658
0.00062121 0.0011672 0.00029166 0.0006523
-4.6724e-05 -0.00098168 -0.0025167 0.00045775 0.00084331 0.0015991 0.069494 0.27346
0.010022 -0.016677 0.0021701 0.0016083
-0.0027023 0.0024557 0.00013016 0.0029464 0.00060397 0.0011622 0.0099602 -0.016642
-0.0088278 0.21826 0.014204 -0.012557
0.0012888 0.0020938 -0.00082954 0.001958 0.00031209 0.00054308 0.0022829 0.0014818
0.01423 -0.012559 -0.012216 0.31851
1280000000 0.18177 0.26785 -0.0079866 -0.028239 -0.0017878 0.0025246 -0.00091663 -0.0019627
-0.00068592 0.002977 0.0025627 0.0010558
-0.0079563 -0.028223 0.0038047 0.38047 -0.02352 -0.0084665 -0.00092798 0.0014108
0.0017201 0.0017973 0.0005424 0.0020816
-0.0017804 0.0025147 -0.0236 -0.0083849 0.31735 0.16205 0.0015254 -0.00014967
0.0010144 0.00023196 0.00043465 0.00034264
-0.00088716 -0.0019839 -0.0009736 0.0014463 0.0014892 -5.19e-05 0.10649 0.25721
0.0010145 -0.018582 9.5761e-05 -2.8171e-05
-0.00065432 0.0030371 0.0016539 0.0016967 0.0010227 0.00022223 0.00093369 -0.018589
0.027396 0.22233 0.0030931 -0.014806
0.0022533 0.0010914 0.00056215 0.0020849 0.0003079 0.00027236 -0.00020061 0.0002435
0.0031812 -0.014852 0.035516 0.32045
1340000000 0.2189 0.234 -0.017597 -0.018686 0.00086469 0.0044133 -0.0017488 -0.00076904
0.0014899 0.0026577 0.0017299 -0.0013282
-0.017566 -0.01867 0.043002 0.37231 -0.021438 0.0041226 -6.5662e-05 0.0019241
0.0018671 0.00072697 0.0013101 0.00073283
0.00084806 0.0044509 -0.021455 0.0042241 0.33941 0.1143 0.0010456 -0.00093773
0.00071692 -0.00048037 0.00020882 0.00031877
-0.0017895 -0.00079016 -0.00010086 0.0019332 0.001045 -0.00094475 0.13917 0.23741
-0.0083108 -0.015793 0.00085173 0.00047557
0.0013947 0.0027297 0.0018499 0.0007312 0.00068831 -0.00034511 -0.0082679 -0.015763
0.057511 0.21826 -0.0033657 -0.013368
0.0017469 -0.0013397 0.0012503 0.000706 0.00029591 0.00026308 0.0011383 0.00073228
-0.0034018 -0.013234 0.073656 0.31629
1400000000 0.25173 0.19555 -0.023177 -0.0073053 0.0051252 0.0030495 -0.0021315 0.00069258
0.0023872 0.00085591 0.00026678 -0.0013789
-0.023147 -0.0072967 0.080217 0.35931 -0.014837 0.01221 0.0012823 0.0012836
0.0011038 -0.0008123 0.0011037 0.00024541
0.0051136 0.0030249 -0.014806 0.012313 0.3527 0.060762 6.1896e-06 -0.0016208
-1.1076e-05 -0.00041768 0.00040332 0.00028154
-0.0020486 0.00065161 0.0013058 0.0012447 9.3254e-05 -0.0015779 0.16911 0.2089
-0.013777 -0.0094422 -0.00075066 -0.00052829
0.002406 0.00080162 0.0010692 -0.00079035 5.3417e-05 -0.00044471 -0.013732 -0.0093529
0.090618 0.21447 -0.0099104 -0.0086819
0.0003228 -0.0013464 0.0012947 0.00020484 0.00044455 0.00016826 -0.00064957 -0.00055915
-0.0098277 -0.008749 0.11903 0.30518
1460000000 0.27434 0.15141 -0.020202 0.0047762 0.005429 -0.0018457 -0.0015987 0.0018126
0.0020493 -0.00052596 -0.00037194 -0.00105
-0.020187 0.0047562 0.11427 0.33766 -0.0062962 0.015138 0.0017487 0.00023724
0.0008117 -0.0012579 0.0011515 -0.00063249
0.0054132 -0.0018648 -0.006228 0.015185 0.3587 0.0062207 -0.0011564 -0.0010646
0.00023809 -0.0001743 0.00050341 -0.00036694
-0.0016084 0.0017813 0.001712 0.00016827 -0.0012084 -0.0011508 0.19568 0.17969
-0.015049 -0.002882 -0.00093904 0.0018854
0.0020954 -0.00060456 0.00087149 -0.0012634 0.00018011 -0.00022046 -0.01515 -0.003007
0.12004 0.20038 -0.011542 -0.0028687
-0.00048314 -0.0010021 0.001211 -0.00071861 0.00046874 -0.00033586 -0.00096293 0.0016907
-0.011489 -0.0028116 0.15198 0.28465
1520000000 0.28612 0.10949 -0.014538 0.010199 0.0031846 -0.0041072 0.00015783 0.0026119
0.0020894 -0.0017031 -0.0011117 -9.6729e-05
-0.014533 0.010188 0.14788 0.32301 0.0013882 0.013085 0.0016116 -0.00076772
5.237e-05 -0.00098338 0.00037842 -0.00099389
0.0031553 -0.0041075 0.0014694 0.013096 0.35187 -0.05001 -0.0010219 -0.00030267
0.00065393 -0.00078847 5.5466e-06 -0.0001265
0.00015695 0.0026103 0.001606 -0.00073844 -0.0010045 -0.00032938 0.21933 0.14195
-0.014311 0.0025804 0.001388 0.001993
0.0020503 -0.0016948 1.8096e-05 -0.00093652 0.0006382 -0.00069132 -0.014334 0.0025359
0.14799 0.18669 -0.01159 0.0015988
-0.0010353 -1.3102e-05 0.00031146 -0.00093701 1.4867e-06 -2.1874e-05 0.001241 0.0020082
-0.011612 0.0015361 0.18557 0.2642
1580000000 0.29501 0.063362 -0.0079525 0.013191 -0.00088952 -0.0048485 0.0014282 0.0018326
-0.00034002 -0.0020738 -0.00044424 0.00039968
-0.007953 0.013163 0.17525 0.2982 0.005028 0.0083193 0.00046249 -0.0015327
-0.00050337 -0.0010177 -0.00022022 -0.00082782
-0.00088779 -0.0048588 0.0050916 0.0082994 0.33149 -0.10755 -0.001604 0.00051891
-0.00032036 -0.0012136 0.00013409 -0.00049146
0.0014981 0.0018803 0.00050008 -0.0015963 -0.001521 0.00058516 0.23369 0.1026
-0.011078 0.0072714 0.0022551 0.00079035
-0.00030976 -0.0021415 -0.00049218 -0.0010159 -0.00024941 -0.0011424 -0.011042 0.0073601
0.17286 0.16907 -0.0091075 0.0072345
-0.00032414 0.00052166 -0.00012732 -0.00080669 0.0001989 -0.00042725 0.0022872 0.0010238
-0.0091335 0.0072412 0.218 0.23746
1640000000 0.29675 0.022269 -0.0013671 0.012143 -0.002616 -0.0025746 0.0027093 0.00096822
-0.00060133 -0.0014249 -0.00027483 0.00053455
-0.001377 0.012135 0.20478 0.27322 0.0058875 0.0035664 -0.00065173 -0.0017214
-0.0009477 -0.00038003 -0.00045712 -0.00072542
-0.00263 -0.002557 0.0059022 0.0035288 0.30336 -0.15682 -0.00066099 0.0014518
-0.0010591 -0.001075 -7.2305e-05 -0.00039363
0.0027351 0.0010142 -0.0007005 -0.0016777 -0.00074722 0.0013769 0.24645 0.053654
-0.0068742 0.0084291 0.0024347 -0.0007815
-0.00065979 -0.0014049 -0.00098925 -0.00040097 -0.0010287 -0.0010617 -0.0068935 0.0085363
0.19589 0.14468 -0.0047235 0.0091798
-0.00028665 0.00055741 -0.00052702 -0.00069648 -0.00028029 -0.00054772 0.0027419 -0.00089895
-0.0046778 0.0091249 0.24346 0.20645
1700000000 0.28926 -0.022941 0.0019504 0.0093383 -0.003518 8.9034e-05 0.0029547 -0.0012156
-0.0020051 -0.00069421 0.00063562 0.00042879
0.0019437 0.0093331 0.22299 0.24153 0.0038885 0.00072197 -0.0014392 -0.00055781
-0.00076315 1.0553e-05 -0.00091675 -0.00047488
-0.00349 9.5743e-05 0.0038999 0.00068088 0.2598 -0.19674 0.00037351 0.001655
-0.001911 -0.00021269 -0.00045915 -0.00080441
0.0029946 -0.0012075 -0.0014403 -0.00056478 0.00046043 0.0016425 0.24339 0.0034156
-0.0043705 0.008935 0.0014394 -0.0021813
-0.0019459 -0.00062015 -0.00072547 7.7594e-05 -0.0019178 -0.00020306 -0.0042701 0.0089148
0.21344 0.12457 9.7777e-05 0.0095334
0.00069926 0.00047034 -0.00090341 -0.00041062 -0.00045387 -0.00072058 0.0014085 -0.0023469
4.3407e-05 0.0094679 0.25997 0.1717
1760000000 0.2769 -0.071121 0.0042283 0.0061859 -0.0022543 0.0010071 0.0012412 -0.0033407
-0.0013306 0.0006465 0.00046416 -0.00063392
0.0042168 0.0061813 0.24884 0.2015 0.0016129 -0.0010134 -0.0011065 0.00012272
-0.00095926 0.00084176 -0.00058584 0.00046512
-0.0022659 0.0010086 0.0016279 -0.0010425 0.21056 -0.22987 0.001171 0.0010899
-0.0010878 0.0015114 -0.001247 -0.00056115
0.0012068 -0.0035034 -0.0011424 0.0001269 0.0011302 0.0010654 0.23395 -0.048191
-0.0011136 0.0082152 -0.00019568 -0.0024617
-0.0012039 0.00062354 -0.00094762 0.00084374 -0.0011209 0.001385 -0.0011119 0.0082491
0.22839 0.089252 0.00401 0.0069026
0.00042701 -0.0007291 -0.00053931 0.00038973 -0.0012469 -0.00060484 -0.00050071 -0.0025691
0.0039966 0.0069431 0.27274 0.13412
1820000000 0.25233 -0.10825 0.0044046 0.0026788 -2.0707e-05 0.0023987 -0.0010592 -0.0030752
-0.001076 0.00091229 -4.5889e-05 -0.0001392
0.0044098 0.0026634 0.25871 0.17129 -0.00020099 -2.1731e-05 -0.001358 0.00084379
-7.4987e-05 0.001273 -0.00058647 0.0005478
3.5663e-05 0.002387 -0.00018579 1.2517e-05 0.16064 -0.24539 0.0014547 0.00045073
-0.00032614 0.0023373 -0.0015273 0.00038357
-0.001094 -0.0030196 -0.0013619 0.00086797 0.0015206 0.00039157 0.20401 -0.095309
0.00031559 0.0066821 -0.001788 -0.0014624
-0.0011138 0.00090685 -3.1496e-05 0.0012868 -0.00023797 0.0022997 0.00038923 0.0066539
0.24551 0.060198 0.0047597 0.0034381
-4.7661e-05 -0.0001305 -0.00049497 0.00052882 -0.0012938 0.00034617 -0.0015856 -0.0014278
0.0048093 0.0033883 0.27495 0.098063
1880000000 0.21725 -0.14834 0.0023042 0.00041605 -0.00047915 0.0020149 -0.0031443 -0.0020734
-0.00022077 0.0015846 0.00024891 -0.00051267
0.0023061 0.00041789 0.2629 0.12454 -0.0022631 0.0016377 -0.00021697 0.0017457
0.00056208 0.0011884 0.000125 0.0009712
-0.00036275 0.0019851 -0.0022208 0.0016785 0.10861 -0.25477 0.0018048 -0.00087477
0.0015884 0.0019626 -0.00085712 0.0013568
-0.0029715 -0.0021039 -0.00022107 0.001771 0.001776 -0.00082689 0.16342 -0.13538
0.00096428 0.0048432 -0.0024255 0.00047772
-0.00022075 0.0017093 0.00056639 0.0012488 0.0014448 0.0020036 0.0010946 0.0047313
0.24834 0.027513 0.0049278 0.0012643
0.00011025 -0.00042665 9.0694e-06 0.00098026 -0.0010566 0.0013844 -0.0023737 0.00046736
0.0048318 0.0013186 0.27454 0.063841
1940000000 0.17814 -0.17378 0.00022302 -0.0011604 0.0012055 0.0019163 -0.0037243 0.00045055
0.0012102 0.0010601 -0.0006061 -0.00053505
0.00022871 -0.0011468 0.26314 0.092808 -0.0011402 0.0037927 0.00091422 0.0013114
0.0018093 0.00045763 0.00089874 0.0003011
0.0012857 0.0018863 -0.0010915 0.0037998 0.062529 -0.24845 0.00037108 -0.0021619
0.0024489 0.0004491 0.00046866 0.0016825
-0.0037454 0.00045253 0.0009572 0.0012668 0.00038037 -0.0021115 0.11099 -0.16557
-6.4985e-05 0.0034403 -0.0013165 0.0016696
0.0013309 0.0010502 0.0018551 0.00051507 0.0023925 0.00052849 -9.3625e-05 0.0036713
0.25 -0.011607 0.0037214 -0.0020319
-0.00059473 -0.0005146 0.00087462 0.00032084 0.00033127 0.0016381 -0.0013764 0.0014714
0.0037515 -0.0020761 0.26364 0.027646
2000000000 0.13149 -0.18849 -0.0037067 0.00060925 0.0024497 0.0016712 -0.0022362 0.0035441
0.0011215 0.00024692 -0.00057381 0.00049079
-0.0037094 0.00061122 0.24868 0.057358 -0.0010452 0.0056495 0.0017213 0.00044051
0.0013006 -0.0013788 0.00047235 0.00014528
0.0024244 0.0016813 -0.00099227 0.0056881 0.018821 -0.23369 -0.0012699 -0.001344
0.0019746 -0.0012167 0.0017318 0.0012945
-0.0022343 0.0037102 0.001593 0.00036199 -0.0014694 -0.0014602 0.057727 -0.17534
-0.0016305 0.0036241 -0.00011039 0.0021169
0.00099127 0.00017713 0.0013181 -0.0014192 0.0020172 -0.0013037 -0.0015651 0.0035556
0.24393 -0.045285 0.00040419 -0.002922
