!Keysight Technologies,M9804A,MY58100912,A.14.10.03
!Date: Thursday, April 27, 2023 10:28:33
!Correction: S11(C  6-Port  ) 
!S12(C  6-Port  ) 
!S13(C  6-Port  ) 
!S14(C  6-Port  ) 
!S15(C  6-Port  ) 
!S16(C  6-Port  ) 
!S21(C  6-Port  ) 
!S22(C  6-Port  ) 
!S23(C  6-Port  ) 
!S24(C  6-Port  ) 
!S25(C  6-Port  ) 
!S26(C  6-Port  ) 
!S31(C  6-Port  ) 
!S32(C  6-Port  ) 
!S33(C  6-Port  ) 
!S34(C  6-Port  ) 
!S35(C  6-Port  ) 
!S36(C  6-Port  ) 
!S41(C  6-Port  ) 
!S42(C  6-Port  ) 
!S43(C  6-Port  ) 
!S44(C  6-Port  ) 
!S45(C  6-Port  ) 
!S46(C  6-Port  ) 
!S51(C  6-Port  ) 
!S52(C  6-Port  ) 
!S53(C  6-Port  ) 
!S54(C  6-Port  ) 
!S55(C  6-Port  ) 
!S56(C  6-Port  ) 
!S61(C  6-Port  ) 
!S62(C  6-Port  ) 
!S63(C  6-Port  ) 
!S64(C  6-Port  ) 
!S65(C  6-Port  ) 
!S66(C  6-Port  ) 
!S6P File: Measurement: :
# Hz S  RI   R 50
500000000 -0.33706 -0.038974 -0.0098767 -0.0025202 -0.0078082 0.01255 -0.004223 0.012342
0.012575 0.0045928 -0.0046155 0.0092481
-0.0099856 -0.0025458 -0.41898 -0.051436 0.0078677 -0.011161 0.0014624 0.012193
0.0075261 0.0026819 0.0015895 0.013471
-0.0077617 0.012632 0.0078531 -0.01118 -0.26557 0.20934 0.0079935 0.0033496
-0.0016824 0.008063 0.0022042 0.011613
-0.004265 0.012362 0.0014494 0.012197 0.0080086 0.0033543 -0.33125 0.044684
-0.018412 -0.0061952 0.014966 0.026282
0.0126 0.0044601 0.0075284 0.0026358 -0.0016746 0.0080666 -0.018389 -0.0062088
-0.22507 -0.19399 -0.025191 0.0053404
-0.0046318 0.0093509 0.001608 0.01352 0.0022189 0.011636 0.015022 0.026341
-0.025183 0.005414 -0.26856 -0.1293
560000000 -0.3161 0.12399 -0.024398 -0.063754 0.00072372 0.012221 0.0054307 0.010885
0.010584 0.0047088 0.01108 0.0074188
-0.024395 -0.063732 -0.37764 0.10856 -0.041778 -0.038233 0.013945 0.0040747
-0.013209 -0.0041039 0.0030832 0.00069774
0.00062902 0.012227 -0.041928 -0.038168 -0.18201 0.25808 -0.00086079 -0.0044193
0.01915 0.0050662 0.0071272 -0.0066115
0.005502 0.010812 0.013969 0.0040434 -0.00086823 -0.0043863 -0.30451 0.13264
0.004487 -0.024036 0.0045393 -0.021274
0.01057 0.0046319 -0.013211 -0.004101 0.019181 0.0050334 0.0044545 -0.024028
-0.2908 -0.018121 0.0086864 -0.049225
0.011026 0.007388 0.0030479 0.00067683 0.0071137 -0.0066086 0.0045646 -0.021287
0.0087021 -0.049317 -0.3289 0.019008
620000000 -0.27457 0.10753 -0.023346 0.0079644 0.0029147 0.0090815 0.0082511 -0.0055214
0.011338 -0.00021449 0.0017289 -0.0027826
-0.023347 0.0079463 -0.4026 0.060084 -0.018934 7.6711e-05 -0.0014633 -0.0020879
0.011638 -0.0065989 0.0016273 -0.003351
0.0029693 0.0090968 -0.018955 0.00011398 -0.15379 0.26697 -0.0014478 -0.0050481
-0.0028116 -0.0032301 0.0087639 -0.0036562
0.0082684 -0.0054591 -0.0014474 -0.0020883 -0.0014504 -0.0050603 -0.26523 0.14452
-0.037452 -0.019911 0.012552 0.026701
0.01136 -0.00027633 0.011599 -0.0066694 -0.0028189 -0.0032312 -0.037477 -0.019893
-0.20951 -0.057372 -0.041936 0.014029
0.0016764 -0.0027145 0.0016595 -0.0033827 0.0088157 -0.003667 0.012562 0.026757
-0.041931 0.013998 -0.2506 -0.017078
680000000 -0.23439 0.19293 -0.027304 -0.013995 0.0050991 0.0054246 0.0011604 -0.0071078
-0.0032785 -0.010977 0.0047975 -0.0065323
-0.027269 -0.014013 -0.38736 0.15779 -0.03298 -0.001326 -0.0018361 -0.00047836
-0.0023274 -0.008833 -0.0015847 -0.0019695
0.0050833 0.005349 -0.032999 -0.0012245 -0.1023 0.28639 -0.00077202 -0.00015063
-0.0018073 0.0007213 -0.0030106 -0.0093771
0.0011516 -0.0071265 -0.0018379 -0.00050432 -0.00077825 -0.00014463 -0.2201 0.19384
-0.023978 -0.0079882 -0.0098649 -0.010544
-0.0033801 -0.010914 -0.0023563 -0.0088563 -0.0018211 0.00070911 -0.023998 -0.0079794
-0.25863 0.041325 -0.0050837 -0.0085405
0.0046129 -0.0065787 -0.0016235 -0.0019454 -0.0029994 -0.0093739 -0.009907 -0.010558
-0.0049763 -0.0085379 -0.26121 0.088262
740000000 -0.19038 0.18807 -0.038691 0.026998 0.012697 -0.0049752 -0.0001674 -0.0041323
-0.0047727 -0.0028185 -0.005634 0.0028682
-0.038667 0.026919 -0.33469 0.17648 -0.035457 0.03547 -0.00054044 -0.0062909
-0.011495 0.0081673 -0.0024554 -0.0065482
0.012688 -0.0049907 -0.035394 0.035613 -0.068815 0.28486 -0.0018797 0.0034381
-0.0022902 -0.0045043 -0.0016398 0.00012997
-0.00018062 -0.004127 -0.00056608 -0.0062796 -0.0018937 0.0034428 -0.20362 0.20147
-0.043606 -0.0069074 0.023135 0.014948
-0.0048657 -0.0028451 -0.011469 0.0082582 -0.0022987 -0.0045426 -0.043623 -0.0068757
-0.15887 0.067189 -0.04433 0.00032913
-0.0056534 0.002935 -0.0024768 -0.0064944 -0.0016638 0.0001194 0.023183 0.014953
-0.044358 0.0003091 -0.24824 0.094586
800000000 -0.15721 0.22778 -0.022191 0.016947 0.005509 -0.010759 -0.004846 -0.0018333
-0.0041489 0.0023926 0.0043521 0.00089333
-0.022213 0.016931 -0.33793 0.24678 -0.0077713 0.034203 -0.0023214 0.0022487
-0.00056209 0.0030438 0.0010391 0.0054663
0.0055057 -0.010766 -0.0076781 0.034266 -0.0282 0.30806 0.001096 0.0015144
0.00030756 0.0033775 -0.0016657 0.0011167
-0.00482 -0.0018512 -0.0023295 0.0022582 0.0010955 0.0015087 -0.17565 0.22954
-0.028768 0.014019 0.013588 -0.01003
-0.0041896 0.0024685 -0.00056583 0.0030213 0.00031982 0.0033591 -0.028755 0.014063
-0.20711 0.090844 -0.017794 0.019288
0.0043626 0.00095385 0.00104 0.005473 -0.0016577 0.0011312 0.01358 -0.010034
-0.017853 0.019291 -0.24338 0.14407
860000000 -0.1226 0.24804 -0.017254 0.030759 -0.0032211 -0.010154 -0.0022206 0.00096402
0.0043128 0.00487 -0.0032815 -0.002834
-0.017231 0.030756 -0.29044 0.28868 0.0081707 0.034461 2.0898e-05 0.0017394
0.0044823 0.0003004 0.0033841 0.00083742
-0.0032424 -0.010155 0.008289 0.034475 0.019819 0.31618 -0.00046594 -0.00036237
0.0027618 -0.0014296 0.0015618 0.0044015
-0.0022295 0.001008 2.9516e-06 0.0017721 -0.00046696 -0.0003639 -0.13936 0.24068
-0.018106 0.018873 -0.0056025 -0.0092945
0.0043893 0.0049284 0.0044588 0.00028223 0.0027573 -0.001431 -0.018061 0.018905
-0.15625 0.14183 -0.025686 0.015402
-0.0033294 -0.0027936 0.0034137 0.00079287 0.0015717 0.0044068 -0.0056197 -0.0092615
-0.025658 0.015399 -0.19224 0.18942
920000000 -0.097754 0.27097 0.0053658 0.038006 -0.0096643 -0.0045386 -0.0018375 0.0020696
0.00099364 0.0019966 0.0027915 -0.0017203
0.0053661 0.037975 -0.26162 0.31012 0.028405 0.022025 0.0014443 0.0011267
0.0070584 -0.00065726 0.0042124 -0.0027017
-0.009671 -0.004506 0.028501 0.021962 0.066218 0.31694 0.001844 -0.00012989
0.0012535 -0.00035625 0.0010125 -0.0010466
-0.0018259 0.0020759 0.0014384 0.001131 0.0018446 -0.00013046 -0.11551 0.25819
-0.010639 0.031065 0.0035804 -0.0067788
0.0010049 0.0019797 0.0070554 -0.00067954 0.0012404 -0.00035058 -0.010589 0.031105
-0.14614 0.14843 -0.0028124 0.027692
0.0027854 -0.0017038 0.0042083 -0.0027283 0.0010165 -0.0010401 0.0035815 -0.0067584
-0.0027817 0.027656 -0.20042 0.20329
980000000 -0.050588 0.29028 0.017734 0.030061 -0.0092417 0.0046549 0.0020948 0.0035104
0.0039891 -0.001362 -0.0031123 -0.0021696
0.017697 0.030036 -0.20884 0.3438 0.033431 0.0046653 0.0021098 -6.6211e-05
0.0013569 -0.0058608 -0.00017515 -0.0024652
-0.0092138 0.0046699 0.033465 0.0045489 0.11269 0.31049 0.00048115 -0.0011638
0.00018336 -0.0021516 0.001555 -0.00029283
0.0021181 0.0035083 0.0021023 -7.066e-05 0.00047335 -0.0011623 -0.077269 0.26955
0.0082661 0.030021 -0.0094053 -0.0074594
0.0039859 -0.0013725 0.0013182 -0.0058903 0.00017298 -0.0021401 0.0083314 0.030021
-0.11518 0.17749 0.0049478 0.019537
-0.0030755 -0.0021544 -0.00019324 -0.0024979 0.0015713 -0.00029245 -0.0094062 -0.0074112
0.0049176 0.019526 -0.15824 0.2483
1040000000 -0.0084783 0.29855 0.033411 0.017925 -0.0013191 0.0070287 0.0025639 0.00058614
-3.4518e-06 -0.0038366 -0.00042514 -0.0014031
0.033397 0.017926 -0.17313 0.35704 0.029645 -0.015252 0.001454 -0.0017958
-0.0026406 -0.0026262 -0.0014267 -0.0025717
-0.0012808 0.0070168 0.029602 -0.015367 0.15906 0.29678 -0.00056757 -0.0015733
-0.0017093 -0.00087139 -0.00046564 -0.0010601
0.002588 0.00057367 0.0014358 -0.0017937 -0.00056712 -0.0015786 -0.049587 0.27999
0.019912 0.018143 -0.0025004 0.001566
-4.1342e-05 -0.0038293 -0.0027012 -0.0026431 -0.0017133 -0.00087432 0.019958 0.018115
-0.083165 0.1857 0.013674 0.018442
-0.0004303 -0.0014142 -0.0014775 -0.0025794 -0.00046783 -0.0010514 -0.002495 0.0015699
0.013661 0.018461 -0.13659 0.26879
1100000000 0.036958 0.30631 0.03605 -0.0045417 0.0029129 0.0039797 0.0023565 -0.0014208
-0.002007 -0.003216 -0.0039863 -8.4369e-07
0.036019 -0.0045099 -0.12984 0.37435 0.014993 -0.028298 -6.2045e-05 -0.001883
-0.0034025 -0.00070659 -0.0035227 -0.00058329
0.0029421 0.0039592 0.014886 -0.028385 0.2058 0.27617 -0.0018797 0.00033587
-0.0018701 0.00059495 -0.0010843 -0.00041078
0.0023666 -0.0014306 -8.6443e-05 -0.0018822 -0.0018813 0.00032927 -0.0090067 0.28514
0.025111 0.0046078 -0.0026643 0.00026106
-0.0020169 -0.0032095 -0.0034339 -0.00067215 -0.0018881 0.00059786 0.025125 0.0045785
-0.065422 0.19966 0.019399 0.008594
-0.0039847 2.7698e-05 -0.0035246 -0.00058334 -0.0010822 -0.00041941 -0.0026536 0.00026135
0.019395 0.008605 -0.09079 0.29892
1160000000 0.088345 0.3013 0.024014 -0.021272 0.0027528 -0.00044586 -0.0003365 -0.002402
-0.0042991 -0.00075528 -0.00093662 0.0042007
0.024031 -0.021212 -0.085787 0.37879 -0.0041716 -0.029502 -0.0017829 -0.0016409
-0.0026722 0.0027015 -0.0013321 0.0020305
0.0027621 -0.00045111 -0.0043202 -0.029507 0.24908 0.2448 -0.00061108 0.0018319
-0.0005453 0.00199 -0.0010479 0.00025563
-0.00034236 -0.0023977 -0.0017994 -0.0016226 -0.00060829 0.0018377 0.030692 0.28243
0.02106 -0.011064 -0.0030087 0.0051542
-0.0043105 -0.00073798 -0.0026731 0.0027013 -0.00056519 0.0019963 0.021045 -0.011092
-0.032324 0.20939 0.01833 0.00017639
-0.00095099 0.0042238 -0.0013367 0.0020348 -0.0010402 0.00026216 -0.0029937 0.0051786
0.018328 0.00019271 -0.043845 0.30195
1220000000 0.13292 0.28999 0.010109 -0.030474 -0.0015742 -0.00080773 -3.822e-05 -0.00094163
-0.002671 0.0025158 0.0014594 0.0021304
0.010118 -0.030431 -0.041076 0.39069 -0.017387 -0.021113 -0.0025594 0.00049499
0.00014735 0.0030045 -0.00069553 0.0019418
-0.0015612 -0.00080888 -0.017509 -0.02106 0.28806 0.20506 0.00093446 0.0015774
0.00067245 0.0011821 0.00024346 0.00069644
-3.3435e-05 -0.00094305 -0.0025603 0.00051429 0.00094219 0.0015693 0.070796 0.27378
0.010021 -0.017792 0.0021297 0.0015191
-0.0026719 0.0025274 0.00016564 0.0029974 0.00066769 0.0011793 0.0099878 -0.017818
-0.0092859 0.21903 0.014297 -0.01315
0.0014646 0.0021341 -0.00069798 0.001947 0.00023745 0.00069267 0.0021429 0.0015261
0.014292 -0.01314 -0.012495 0.31852
1280000000 0.18263 0.26785 -0.0085108 -0.028717 -0.0018569 0.002541 -0.00093343 -0.0019733
-0.00073383 0.0031646 0.0025582 0.0011174
-0.0084829 -0.028685 0.0052939 0.38139 -0.02414 -0.0080935 -0.00091573 0.0015265
0.0017271 0.0017802 0.0006849 0.0021129
-0.0018442 0.0025424 -0.024207 -0.0079871 0.31794 0.16074 0.0016339 -0.00013686
0.0010744 0.00034378 0.0003903 0.00046155
-0.00094035 -0.0019755 -0.00090453 0.0015342 0.0016226 -0.00013564 0.1078 0.25713
0.00015766 -0.019497 -3.9231e-05 8.7445e-05
-0.00071544 0.0031784 0.0017339 0.0017776 0.0010788 0.00034845 0.00012355 -0.019513
0.027612 0.22348 0.0030077 -0.015254
0.0025707 0.0011088 0.00070936 0.002119 0.00039961 0.000461 -4.6252e-05 8.0968e-05
0.0030185 -0.015247 0.035587 0.32096
1340000000 0.21983 0.23343 -0.018282 -0.018763 0.00095187 0.0045013 -0.0017409 -0.00076723
0.0015142 0.002795 0.0017718 -0.0014668
-0.018246 -0.018769 0.044904 0.37238 -0.021673 0.0047627 -4.6342e-05 0.0019505
0.0019643 0.00071515 0.0013778 0.00077285
0.00097225 0.0044956 -0.021678 0.0048755 0.3394 0.1128 0.0010563 -0.00097938
0.00077846 -0.00046118 0.00027799 0.00036023
-0.0017424 -0.00076156 -3.8848e-05 0.0019592 0.0010589 -0.00098275 0.14026 0.23648
-0.0093656 -0.016141 0.00090983 0.00054184
0.0015295 0.002783 0.0019561 0.00070868 0.00077297 -0.00045736 -0.0094112 -0.01613
0.058297 0.21938 -0.0039248 -0.013725
0.0017807 -0.0015003 0.001384 0.00077178 0.00028349 0.00036594 0.0008978 0.00054738
-0.003892 -0.013696 0.074167 0.31645
1400000000 0.25255 0.19482 -0.02384 -0.006954 0.0051692 0.0030739 -0.0020281 0.00068421
0.0025171 0.00087224 0.00025605 -0.0014185
-0.023794 -0.0069672 0.081961 0.35871 -0.014666 0.012784 0.0013538 0.0012427
0.0010898 -0.00091215 0.0012911 0.00019337
0.0051909 0.0030552 -0.014625 0.012878 0.35198 0.059772 6.8029e-05 -0.0016264
7.3403e-05 -0.00042557 0.000525 0.0002969
-0.0020222 0.00069193 0.0013539 0.0012284 7.8862e-05 -0.0016319 0.16959 0.2077
-0.015023 -0.008965 -0.00070244 -0.0003156
0.0025296 0.00088545 0.0010823 -0.00092608 7.1553e-05 -0.00042367 -0.015058 -0.0089345
0.091755 0.21515 -0.01048 -0.0087603
0.0002531 -0.0014233 0.0012913 0.00018528 0.00052333 0.00030133 -0.00074018 -0.00031577
-0.010467 -0.0087696 0.11933 0.3053
1460000000 0.27476 0.15026 -0.020505 0.005421 0.0055324 -0.0019366 -0.0015166 0.0017558
0.0022267 -0.00066147 -0.00047216 -0.00094251
-0.020484 0.005407 0.11566 0.33633 -0.0057925 0.015423 0.0017124 0.00013298
0.0007733 -0.0012377 0.0011283 -0.00063825
0.0055304 -0.0019593 -0.005725 0.015477 0.35798 0.0058364 -0.001264 -0.0011865
0.00021498 -0.00034939 0.00065341 -0.00036415
-0.0015112 0.0017618 0.0017127 0.00012904 -0.0012691 -0.0012016 0.19575 0.17859
-0.015739 -0.0018567 -0.00081703 0.0019919
0.0022239 -0.00069141 0.00075872 -0.0012494 0.00021185 -0.00035226 -0.015752 -0.0018346
0.1212 0.20052 -0.012278 -0.0025901
-0.00046797 -0.00094249 0.0011198 -0.00064552 0.00066841 -0.00037494 -0.00082699 0.0019985
-0.012288 -0.0025952 0.15245 0.28442
1520000000 0.2862 0.10835 -0.01448 0.010918 0.0032589 -0.0041931 0.00017365 0.0025914
0.002001 -0.0018656 -0.0011381 -5.7356e-05
-0.014474 0.0109 0.14857 0.32134 0.0018404 0.012982 0.0016133 -0.00077207
-2.582e-05 -0.00095077 0.00030053 -0.0010638
0.0032282 -0.0042098 0.0019171 0.012998 0.35118 -0.050121 -0.001054 -0.0003095
0.00066136 -0.00088511 5.2787e-05 -0.00012972
0.00018072 0.0026055 0.0016037 -0.00078632 -0.0010549 -0.00031757 0.21885 0.14082
-0.014333 0.003812 0.0015274 0.0020315
0.002002 -0.0018823 -2.4844e-05 -0.00094907 0.00066199 -0.00088951 -0.014338 0.0038491
0.14939 0.18635 -0.011844 0.0020771
-0.0011347 -2.8289e-05 0.00029436 -0.0010647 5.1224e-05 -0.00013293 0.0015076 0.0020175
-0.011828 0.002071 0.18568 0.26401
1580000000 0.29469 0.062317 -0.0075283 0.013759 -0.00088825 -0.0049116 0.0014216 0.0018166
-0.00049298 -0.0021778 -0.00029897 0.00045653
-0.0075404 0.013751 0.17522 0.2966 0.0053514 0.008066 0.00044959 -0.0016044
-0.00053712 -0.00095784 -0.00031269 -0.00078001
-0.00091508 -0.004904 0.0053968 0.0080484 0.33092 -0.1073 -0.0015489 0.00060952
-0.00034085 -0.0010804 0.00014128 -0.00053811
0.0014326 0.001819 0.00043826 -0.0016041 -0.0015463 0.00061221 0.23267 0.10182
-0.010262 0.0082809 0.0022797 0.00075762
-0.00049499 -0.0021862 -0.00054512 -0.00095174 -0.00033862 -0.0010871 -0.010242 0.008319
0.17404 0.1683 -0.0091921 0.0078891
-0.00027374 0.00047672 -0.00031825 -0.00077948 0.00013836 -0.00054525 0.00228 0.00074004
-0.0091636 0.0078652 0.21802 0.23719
1640000000 0.29622 0.021556 -0.00069095 0.012349 -0.0027317 -0.0026114 0.0027125 0.00095995
-0.00082306 -0.0013986 -0.00012764 0.00050011
-0.00070529 0.012354 0.20419 0.27188 0.0059341 0.0032963 -0.00071575 -0.0017196
-0.00095378 -0.00035876 -0.0005062 -0.00067354
-0.0027471 -0.0025944 0.0059614 0.0032708 0.30293 -0.15624 -0.00065902 0.0013575
-0.0011848 -0.0010127 -4.1375e-05 -0.00048185
0.0027124 0.00094298 -0.00072221 -0.0017138 -0.00065149 0.0013549 0.24503 0.053359
-0.0057121 0.0087769 0.0024557 -0.00079632
-0.00082137 -0.0013847 -0.00095676 -0.00036812 -0.0011888 -0.0010116 -0.0056881 0.008809
0.19659 0.14354 -0.0043239 0.0098055
-0.00012306 0.00050549 -0.0005122 -0.00067508 -3.7506e-05 -0.00047854 0.0024435 -0.00082114
-0.0043317 0.0097944 0.24368 0.20629
1700000000 0.28869 -0.023158 0.0025837 0.0091628 -0.0034991 0.00015004 0.0029479 -0.0012102
-0.0020661 -0.00056158 0.00069443 0.00034446
0.0025725 0.0091652 0.22193 0.24076 0.0038428 0.00046443 -0.0014933 -0.00052077
-0.00070782 3.8531e-05 -0.0009248 -0.00033573
-0.0034984 0.00017169 0.0038531 0.00044515 0.25997 -0.19617 0.00042077 0.0016647
-0.0019647 -3.4913e-05 -0.00056877 -0.00081643
0.0029494 -0.0012144 -0.0015008 -0.00051913 0.00041826 0.0016773 0.24209 0.0041535
-0.0032214 0.0086271 0.0014847 -0.0022455
-0.002054 -0.00055597 -0.00071915 4.6946e-05 -0.0019688 -2.4678e-05 -0.0032071 0.008638
0.21371 0.12325 0.00065411 0.0097779
0.00071177 0.00036055 -0.0009326 -0.00032804 -0.00057212 -0.00082628 0.0014682 -0.002272
0.00065977 0.0097641 0.26005 0.17184
1760000000 0.27648 -0.071134 0.0045904 0.0056742 -0.0023372 0.001082 0.0013055 -0.0033785
-0.0011934 0.00085852 0.00035568 -0.00065122
0.004586 0.0056775 0.24776 0.20136 0.0014748 -0.0012099 -0.0011449 0.00026162
-0.00097043 0.00085543 -0.00053617 0.00045525
-0.0023202 0.0010994 0.0014717 -0.0012213 0.21108 -0.22976 0.0012036 0.0011187
-0.00106 0.0015816 -0.0013979 -0.00046375
0.0012955 -0.0033875 -0.0011539 0.00026829 0.0012046 0.0011228 0.23342 -0.046886
-0.00058079 0.0073981 -0.00018543 -0.0025478
-0.001195 0.00087041 -0.00096426 0.00085301 -0.0010513 0.0015978 -0.00056092 0.0074032
0.22814 0.088015 0.0045674 0.0069563
0.00038401 -0.00067134 -0.00053397 0.00045645 -0.0013983 -0.00045358 -0.00020939 -0.0025446
0.0045578 0.0069536 0.27289 0.13406
1820000000 0.25222 -0.10797 0.0044248 0.0021842 2.7857e-05 0.0025204 -0.001017 -0.0029866
-0.00091181 0.00095489 -0.00013528 -9.3475e-05
0.0044256 0.0021882 0.2578 0.1717 -0.00036872 -4.8774e-05 -0.0012532 0.0009303
-6.5757e-05 0.0012587 -0.0004303 0.0005006
2.926e-05 0.0025344 -0.00036977 -4.3257e-05 0.1612 -0.24557 0.0015252 0.00040776
-5.8505e-05 0.0022428 -0.0013141 0.00048618
-0.0010345 -0.0029956 -0.0012477 0.00093829 0.0015185 0.00039953 0.20419 -0.093871
0.00026949 0.0058015 -0.0016542 -0.0015992
-0.00090039 0.00095365 -5.503e-05 0.0012613 -5.9863e-05 0.0022431 0.00028097 0.0058065
0.24483 0.059028 0.005351 0.0031443
-0.00010812 -0.00011136 -0.00042866 0.00050411 -0.0013101 0.00050026 -0.001662 -0.0016043
0.0053449 0.0031312 0.27534 0.097858
1880000000 0.21754 -0.14819 0.0021069 9.2077e-05 -0.00035029 0.0020343 -0.0029628 -0.0021364
-6.2087e-05 0.0015344 0.00020436 -0.00051273
0.0021075 9.8383e-05 0.26247 0.12548 -0.0023623 0.0017176 -0.00010999 0.0016395
0.00055314 0.0012398 0.000134 0.00081327
-0.00033863 0.0020497 -0.0023604 0.0017304 0.1089 -0.25515 0.0018143 -0.0010196
0.0015881 0.001883 -0.00094175 0.0012402
-0.0029762 -0.0021233 -0.00011318 0.0016519 0.0018141 -0.0010218 0.1643 -0.1343
0.0005278 0.0041471 -0.0025449 0.00035769
-3.8234e-05 0.0015261 0.00057523 0.0012237 0.001581 0.0018844 0.00054685 0.0041448
0.24736 0.0266 0.0051228 0.00074245
0.00021951 -0.00055771 0.00013906 0.00079791 -0.00092936 0.0012479 -0.0025663 0.00035181
0.0051158 0.0007398 0.27506 0.063417
1940000000 0.17854 -0.17421 -8.3257e-05 -0.0013378 0.0012722 0.0020142 -0.0038205 0.00049063
0.0012345 0.00078448 -0.00063224 -0.00050302
-8.6432e-05 -0.0013422 0.26324 0.093749 -0.0011662 0.0038443 0.00098955 0.0012547
0.0018384 0.00049508 0.00075364 0.00018778
0.0012725 0.002003 -0.0011513 0.0038509 0.062879 -0.24882 0.0003603 -0.002199
0.002374 0.00037326 0.00017381 0.001506
-0.003824 0.00052511 0.00098952 0.0012434 0.00035198 -0.0021983 0.11244 -0.1649
-0.00066861 0.003347 -0.0016144 0.0016924
0.0012412 0.00076419 0.0018414 0.00048589 0.0023626 0.00037012 -0.00066252 0.0033543
0.24876 -0.011969 0.0036784 -0.0026975
-0.00062955 -0.00050645 0.00075769 0.00017946 0.00018167 0.0014886 -0.0015974 0.0016655
0.0036976 -0.002678 0.26382 0.027321
2000000000 0.1321 -0.18914 -0.0038234 0.00062771 0.0025369 0.0016338 -0.0022425 0.0035161
0.00099019 0.00010046 -0.00066027 0.00031766
-0.0038076 0.00062235 0.24936 0.058238 -0.0010933 0.005656 0.0016002 0.00036731
0.0014023 -0.0013863 0.000422 0.00014337
0.0025432 0.0016104 -0.0010484 0.0056655 0.018618 -0.23451 -0.0014218 -0.0013143
0.0018871 -0.0012036 0.0015448 0.0013672
-0.0022367 0.0035302 0.0015988 0.00036308 -0.0014028 -0.0013105 0.059111 -0.17549
-0.0022124 0.0035549 -8.5959e-05 0.0024501
0.00099053 8.9359e-05 0.0013886 -0.0013881 0.0018956 -0.0012033 -0.002196 0.0035789
0.24259 -0.045534 1.8875e-05 -0.0031755
