!Keysight Technologies,M9804A,MY58100912,A.14.10.03
!Date: Thursday, April 27, 2023 10:28:33
!Correction: S11(C  6-Port  ) 
!S12(C  6-Port  ) 
!S13(C  6-Port  ) 
!S14(C  6-Port  ) 
!S15(C  6-Port  ) 
!S16(C  6-Port  ) 
!S21(C  6-Port  ) 
!S22(C  6-Port  ) 
!S23(C  6-Port  ) 
!S24(C  6-Port  ) 
!S25(C  6-Port  ) 
!S26(C  6-Port  ) 
!S31(C  6-Port  ) 
!S32(C  6-Port  ) 
!S33(C  6-Port  ) 
!S34(C  6-Port  ) 
!S35(C  6-Port  ) 
!S36(C  6-Port  ) 
!S41(C  6-Port  ) 
!S42(C  6-Port  ) 
!S43(C  6-Port  ) 
!S44(C  6-Port  ) 
!S45(C  6-Port  ) 
!S46(C  6-Port  ) 
!S51(C  6-Port  ) 
!S52(C  6-Port  ) 
!S53(C  6-Port  ) 
!S54(C  6-Port  ) 
!S55(C  6-Port  ) 
!S56(C  6-Port  ) 
!S61(C  6-Port  ) 
!S62(C  6-Port  ) 
!S63(C  6-Port  ) 
!S64(C  6-Port  ) 
!S65(C  6-Port  ) 
!S66(C  6-Port  ) 
!S6P File: Measurement: :
# Hz S  RI   R 50
500000000 -0.3369 -0.039159 -0.0097195 -0.0027691 -0.0077365 0.012705 -0.0043186 0.012513
0.012676 0.0044837 -0.0046018 0.0093745
-0.0098044 -0.0027946 -0.41875 -0.051725 0.0078197 -0.011149 0.0014353 0.012213
0.0075815 0.0027065 0.0016012 0.013554
-0.0075826 0.012583 0.007862 -0.011322 -0.26574 0.20947 0.0079558 0.0033547
-0.0017295 0.008036 0.0022145 0.011598
-0.0043557 0.012064 0.001344 0.012107 0.008029 0.0033035 -0.33112 0.044708
-0.018376 -0.0061177 0.015116 0.026262
0.012601 0.0044793 0.0076609 0.0027085 -0.0017352 0.0080745 -0.018421 -0.0061251
-0.22498 -0.19389 -0.025246 0.0054635
-0.0045563 0.0085516 0.0014421 0.013392 0.0022246 0.011571 0.015159 0.026386
-0.025239 0.0055647 -0.26839 -0.12928
560000000 -0.31676 0.12325 -0.024056 -0.06402 0.00048061 0.012032 0.0054487 0.010835
0.010479 0.0045011 0.01118 0.0073927
-0.024151 -0.064055 -0.37768 0.10856 -0.041845 -0.038303 0.013912 0.0039379
-0.013403 -0.0040813 0.0031186 0.00068757
0.00079237 0.011823 -0.042157 -0.038099 -0.18187 0.25782 -0.00070075 -0.0043466
0.019055 0.0049234 0.0071479 -0.006593
0.005088 0.01048 0.01392 0.0038947 -0.00072656 -0.0042418 -0.30457 0.1327
0.0046407 -0.024138 0.0046173 -0.021302
0.010502 0.0051052 -0.013245 -0.0040189 0.019077 0.0048527 0.0047121 -0.024036
-0.29111 -0.018407 0.0087165 -0.049335
0.01065 0.0074372 0.0032972 -0.00012851 0.0071563 -0.0065332 0.0045422 -0.021284
0.0088447 -0.049416 -0.3288 0.018983
620000000 -0.2745 0.10691 -0.023344 0.0077998 0.0029378 0.0090752 0.0081871 -0.0054864
0.011445 -0.00022536 0.0017562 -0.0027056
-0.023284 0.0078377 -0.40254 0.059978 -0.01895 1.3827e-05 -0.0014281 -0.0021442
0.01157 -0.0065346 0.0016565 -0.0034195
0.0029592 0.0088896 -0.018946 7.8202e-05 -0.15379 0.26693 -0.0014344 -0.0050633
-0.0028359 -0.0031498 0.0087936 -0.0036503
0.0081671 -0.0050226 -0.0013461 -0.0022211 -0.0015018 -0.005145 -0.26529 0.14451
-0.037422 -0.019741 0.012456 0.026779
0.011473 -0.00058777 0.011519 -0.006618 -0.0028542 -0.0030294 -0.037456 -0.019742
-0.20941 -0.057587 -0.04186 0.014
0.0013836 -0.0020964 0.0016454 -0.0035848 0.0088133 -0.0038236 0.012362 0.026673
-0.041923 0.014104 -0.25081 -0.017012
680000000 -0.23392 0.19332 -0.027302 -0.013853 0.0051072 0.0053728 0.0011036 -0.0071974
-0.0032995 -0.010895 0.004625 -0.0064826
-0.027254 -0.013803 -0.38728 0.15788 -0.032963 -0.0013327 -0.0019044 -0.00048508
-0.0023428 -0.0088858 -0.0016401 -0.001951
0.0049748 0.0053038 -0.03294 -0.0012526 -0.10229 0.28639 -0.00077246 -0.00011713
-0.0018524 0.00076114 -0.0029975 -0.0093286
0.0012687 -0.007336 -0.0017872 -0.00061577 -0.00081893 -8.8062e-05 -0.22015 0.1937
-0.023941 -0.0079926 -0.010016 -0.010552
-0.0034012 -0.011164 -0.0022739 -0.0090026 -0.0018363 0.00074933 -0.023995 -0.0079608
-0.2587 0.041355 -0.0050748 -0.0083646
0.0057244 -0.0062126 -0.0013829 -0.001815 -0.0029917 -0.0092784 -0.010069 -0.010665
-0.0050173 -0.0083809 -0.26127 0.088379
740000000 -0.19035 0.18802 -0.038588 0.026909 0.012655 -0.0050253 -0.0002639 -0.0041149
-0.004819 -0.0027737 -0.0056209 0.0028524
-0.038637 0.027013 -0.33454 0.17662 -0.035546 0.035471 -0.00052681 -0.006231
-0.011526 0.008225 -0.0024445 -0.0065685
0.012717 -0.0050612 -0.03545 0.035671 -0.068827 0.28485 -0.0018994 0.0034578
-0.0023603 -0.0044886 -0.0016346 0.00010342
-0.00027495 -0.0042821 -0.00065198 -0.0062067 -0.0019408 0.0034102 -0.20355 0.20143
-0.043643 -0.0068763 0.023148 0.014964
-0.0046062 -0.0026029 -0.011488 0.0079945 -0.0023012 -0.0046046 -0.043685 -0.0068447
-0.15892 0.067528 -0.044477 0.00024621
-0.0056523 0.0028392 -0.0025299 -0.0064137 -0.0017705 7.1716e-05 0.023172 0.015026
-0.04451 0.0002158 -0.24829 0.094528
800000000 -0.15718 0.22793 -0.022188 0.016841 0.0055006 -0.010767 -0.0047933 -0.0018595
-0.0041932 0.0024345 0.0043533 0.0009364
-0.022279 0.016842 -0.33796 0.24667 -0.007802 0.034189 -0.0023198 0.0022517
-0.00061431 0.0031097 0.0010345 0.0054705
0.0055208 -0.010736 -0.0076507 0.034237 -0.028199 0.30807 0.0011024 0.0015185
0.00031243 0.0033774 -0.0016622 0.0011305
-0.0047499 -0.0018756 -0.002287 0.0021572 0.0011135 0.0015014 -0.17561 0.22952
-0.028772 0.014017 0.013554 -0.010009
-0.0042487 0.002128 -0.00063529 0.0029774 0.00032191 0.0033858 -0.028736 0.014077
-0.20711 0.090902 -0.017784 0.019286
0.0045359 0.0010631 0.0011688 0.005276 -0.0016578 0.0011538 0.013563 -0.010036
-0.017882 0.019288 -0.24344 0.14406
860000000 -0.12267 0.24823 -0.017265 0.030784 -0.0032409 -0.010189 -0.0022635 0.0010035
0.0043683 0.0049895 -0.0033112 -0.0027856
-0.017335 0.030705 -0.29038 0.28857 0.0081674 0.034467 1.3451e-05 0.0017932
0.0044899 0.00034715 0.0034194 0.00085798
-0.0032981 -0.010149 0.0082871 0.034482 0.019806 0.31619 -0.00046078 -0.00031992
0.0027801 -0.0014021 0.0015773 0.0044146
-0.0023368 0.00093215 5.3353e-05 0.0018304 -0.00047064 -0.00034191 -0.13937 0.24074
-0.018007 0.018952 -0.0056142 -0.0092869
0.0042975 0.0048266 0.0044234 0.00026603 0.0027531 -0.0013993 -0.017993 0.019028
-0.15606 0.14196 -0.025671 0.015376
-0.0033605 -0.0028111 0.0033992 0.00087109 0.0014921 0.0044215 -0.0057087 -0.009259
-0.025717 0.015396 -0.19224 0.18944
920000000 -0.09777 0.27096 0.005334 0.037949 -0.0096656 -0.0045275 -0.001877 0.0020357
0.001004 0.0020153 0.0027842 -0.0017123
0.0053337 0.03791 -0.26166 0.31015 0.028407 0.022035 0.0014313 0.001136
0.0070664 -0.0006607 0.0042072 -0.002732
-0.0096329 -0.0045535 0.028487 0.021961 0.066233 0.31696 0.0018358 -0.00010712
0.001262 -0.00036796 0.0010262 -0.001073
-0.0018041 0.0020305 0.0014668 0.0011171 0.0018567 -0.00012242 -0.11548 0.25819
-0.010615 0.031017 0.0035429 -0.0067915
0.0010783 0.0019211 0.0070835 -0.00068397 0.0012277 -0.00036137 -0.010569 0.031048
-0.14615 0.14835 -0.0028207 0.027717
0.00286 -0.0015691 0.0041261 -0.002804 0.001033 -0.0011063 0.00353 -0.0068015
-0.0027738 0.027678 -0.20038 0.20329
980000000 -0.05061 0.29022 0.017705 0.030069 -0.0092416 0.0046444 0.0021086 0.0035396
0.0040057 -0.001369 -0.0030771 -0.0021576
0.017671 0.030066 -0.20889 0.34379 0.03344 0.004664 0.0020938 -7.4776e-05
0.0013742 -0.0058617 -0.00017556 -0.002477
-0.0091961 0.0046305 0.033459 0.0045434 0.11268 0.31048 0.00048551 -0.001152
0.00017278 -0.0021495 0.0015556 -0.00029999
0.0020929 0.0035123 0.0020765 -8.7254e-05 0.00046291 -0.0011629 -0.077312 0.26955
0.0082622 0.030003 -0.0093855 -0.0074476
0.0039549 -0.0013514 0.0012863 -0.0059043 0.00016634 -0.0021408 0.0083369 0.029999
-0.11519 0.17745 0.0049072 0.01951
-0.0032441 -0.0021861 -0.00028128 -0.0025138 0.0015751 -0.00031011 -0.0094506 -0.0074025
0.0048959 0.019478 -0.15822 0.2483
1040000000 -0.0085625 0.29852 0.033416 0.017944 -0.0013192 0.0070259 0.0025838 0.00062518
-5.2447e-05 -0.003811 -0.00042239 -0.0014139
0.033347 0.017896 -0.17317 0.35697 0.029629 -0.015261 0.0014342 -0.0017788
-0.0026564 -0.0025995 -0.0014284 -0.0025979
-0.0012624 0.0070019 0.029589 -0.015379 0.15906 0.29679 -0.00055375 -0.0015683
-0.0017251 -0.00087525 -0.00046705 -0.0010617
0.0025912 0.00057435 0.0014513 -0.0017627 -0.00055957 -0.0015748 -0.049606 0.27997
0.019898 0.018127 -0.0025146 0.0015816
-9.8932e-05 -0.0037452 -0.0026971 -0.0025791 -0.0017209 -0.00087444 0.019937 0.018102
-0.083166 0.18564 0.013692 0.018419
-0.00031238 -0.0015604 -0.0015391 -0.0025808 -0.00048933 -0.001068 -0.0024961 0.0016037
0.013683 0.018446 -0.13659 0.26882
1100000000 0.036978 0.30631 0.036063 -0.0045258 0.0029229 0.0039769 0.0023788 -0.0014144
-0.0020094 -0.0032254 -0.0039833 1.3585e-05
0.036013 -0.0044843 -0.12982 0.37436 0.014988 -0.028291 -6.4415e-05 -0.0018738
-0.0033778 -0.00070278 -0.0035148 -0.00058147
0.0029566 0.0039664 0.0149 -0.028385 0.20581 0.27619 -0.001884 0.00033878
-0.0018676 0.00060418 -0.0010718 -0.00042335
0.0024259 -0.0014304 -7.3764e-05 -0.0018662 -0.0018779 0.0003407 -0.0090115 0.28516
0.025126 0.004639 -0.0026608 0.00025632
-0.0020616 -0.0031924 -0.003407 -0.00066171 -0.0018708 0.0006077 0.025133 0.0045972
-0.06539 0.19964 0.019385 0.0085962
-0.0039463 0.00016513 -0.0035573 -0.00053859 -0.001075 -0.0004056 -0.0026394 0.00024772
0.019381 0.0086476 -0.090729 0.29891
1160000000 0.088385 0.30126 0.024026 -0.021247 0.0027437 -0.00044853 -0.00034144 -0.0023838
-0.0042968 -0.00075478 -0.00095575 0.0042
0.024045 -0.021244 -0.0858 0.37879 -0.0041712 -0.029496 -0.0017885 -0.0016569
-0.002683 0.0026943 -0.0013315 0.0020276
0.0027549 -0.00043419 -0.0043223 -0.029502 0.24909 0.24481 -0.00060528 0.0018263
-0.00056237 0.0019859 -0.0010514 0.00024018
-0.00031306 -0.0024087 -0.0017739 -0.0016488 -0.00059586 0.0018307 0.030698 0.28243
0.021085 -0.011068 -0.002996 0.0051604
-0.0042552 -0.00074606 -0.0026894 0.0026968 -0.00056569 0.0020034 0.021075 -0.011093
-0.032265 0.20939 0.01836 0.00015553
-0.00099508 0.0042357 -0.0013254 0.0020379 -0.0010401 0.00023247 -0.003016 0.0051914
0.018371 0.00018697 -0.043864 0.30197
1220000000 0.13286 0.28998 0.010125 -0.030467 -0.0015644 -0.00079543 -3.0725e-05 -0.00094554
-0.0026714 0.0025066 0.0014771 0.0021224
0.010123 -0.030456 -0.04106 0.39067 -0.017388 -0.021099 -0.0025637 0.00048697
0.00013115 0.0029947 -0.00070772 0.0019346
-0.0015641 -0.00081415 -0.017506 -0.021057 0.28807 0.20508 0.0009448 0.0015686
0.00066768 0.0011796 0.0002434 0.00068742
-6.6917e-05 -0.00094248 -0.002574 0.00050794 0.0009436 0.0015709 0.070816 0.27376
0.010016 -0.017784 0.0021538 0.0015288
-0.0026905 0.0025225 0.00015921 0.0030054 0.00067086 0.0011873 0.0099958 -0.017795
-0.0092594 0.21904 0.014307 -0.01315
0.0014319 0.002101 -0.00072495 0.001935 0.00023871 0.00069353 0.0021501 0.0015204
0.01427 -0.013157 -0.012532 0.31856
1280000000 0.18262 0.26782 -0.0085077 -0.02873 -0.0018446 0.0025437 -0.00092026 -0.0019769
-0.00074611 0.003185 0.0025723 0.0011023
-0.0084926 -0.028708 0.0052954 0.38141 -0.024135 -0.0080893 -0.00091602 0.0015289
0.0017336 0.0017735 0.00068414 0.0021269
-0.001843 0.002538 -0.024208 -0.0079868 0.31798 0.16071 0.0016282 -0.0001424
0.0010777 0.00035403 0.00041203 0.00047364
-0.00091067 -0.001974 -0.00091494 0.0015247 0.0016315 -0.00013778 0.10782 0.25713
0.00014165 -0.019497 -4.1244e-05 8.1437e-05
-0.00074651 0.0031552 0.0017023 0.0017806 0.0010641 0.000343 0.00010025 -0.019508
0.027596 0.22345 0.0030025 -0.015234
0.0026359 0.0010972 0.00071163 0.0020222 0.00039977 0.00046835 -3.1883e-05 7.6696e-05
0.0030064 -0.015245 0.035588 0.32092
1340000000 0.21988 0.23345 -0.018262 -0.018781 0.00095345 0.0045026 -0.0017264 -0.0007643
0.0015112 0.0027875 0.0017701 -0.0014832
-0.01823 -0.01875 0.044943 0.37237 -0.021664 0.0047682 -4.3922e-05 0.0019651
0.0019647 0.00072634 0.0013628 0.00077268
0.00099052 0.0044872 -0.021659 0.004872 0.3394 0.11279 0.0010512 -0.00098306
0.00077584 -0.00044652 0.00028152 0.00036681
-0.0017556 -0.00073614 -4.4101e-05 0.0019636 0.0010403 -0.0009999 0.14026 0.23647
-0.0093614 -0.016158 0.00090373 0.00054749
0.0014928 0.0028194 0.0019416 0.00067525 0.00077112 -0.00045676 -0.0093948 -0.016142
0.058309 0.21938 -0.0039113 -0.013727
0.0017462 -0.0013668 0.0013445 0.00080895 0.00026535 0.00034554 0.00088302 0.00056299
-0.0039271 -0.013705 0.074109 0.31641
1400000000 0.2525 0.19477 -0.023828 -0.0069541 0.0051769 0.0030589 -0.0020224 0.00068942
0.0025267 0.00090511 0.00025203 -0.0014364
-0.023814 -0.0069653 0.081978 0.3587 -0.014662 0.012773 0.001335 0.0012473
0.001092 -0.00088886 0.0012887 0.00020826
0.0051774 0.0030649 -0.014602 0.012876 0.35201 0.059783 7.7342e-05 -0.0016219
6.3759e-05 -0.00042434 0.00050733 0.00029446
-0.0020348 0.00068098 0.0013403 0.0012318 7.8392e-05 -0.0016187 0.16961 0.20767
-0.015022 -0.008963 -0.00072833 -0.00031491
0.0025317 0.00086655 0.0010798 -0.00090999 6.6882e-05 -0.00041524 -0.015047 -0.0089315
0.09169 0.21515 -0.010459 -0.0087672
0.00021566 -0.0014491 0.0012727 0.00013869 0.00048519 0.00031641 -0.0007271 -0.00035964
-0.010479 -0.0087666 0.11933 0.3053
1460000000 0.27482 0.15026 -0.020511 0.0054209 0.0055305 -0.0019337 -0.0015113 0.0017604
0.0022189 -0.00067113 -0.00044974 -0.00094119
-0.020507 0.0053879 0.11567 0.33632 -0.0057996 0.015426 0.0017074 0.00013024
0.0007653 -0.0012375 0.0011238 -0.00063746
0.0055376 -0.0019579 -0.0057236 0.015468 0.35796 0.0058283 -0.0012713 -0.0011956
0.00019863 -0.00035357 0.00067111 -0.00035116
-0.0014951 0.0017565 0.0017107 0.00013541 -0.0012655 -0.001204 0.19575 0.17857
-0.015727 -0.0018393 -0.00083494 0.001989
0.0022051 -0.00071068 0.00076007 -0.0012513 0.00020538 -0.00036599 -0.015758 -0.0018091
0.12121 0.20053 -0.012274 -0.0026072
-0.00044713 -0.00095312 0.0011399 -0.00065761 0.00065973 -0.00034701 -0.00082289 0.0019966
-0.012263 -0.0026034 0.15242 0.28438
1520000000 0.28616 0.10829 -0.014465 0.010922 0.0032451 -0.0042038 0.00017347 0.0025937
0.0020072 -0.0018627 -0.001137 -6.0737e-05
-0.014492 0.010902 0.14859 0.32133 0.0018387 0.012988 0.0016041 -0.00076767
-1.5339e-05 -0.00094903 0.00030908 -0.001065
0.0032376 -0.0042224 0.0019031 0.013011 0.35121 -0.050116 -0.0010626 -0.00030232
0.00066228 -0.00088108 5.2287e-05 -0.00012957
0.00019094 0.0025922 0.00161 -0.00078405 -0.0010448 -0.00028602 0.21885 0.14079
-0.014328 0.0038072 0.0015102 0.0020228
0.0019631 -0.001876 -3.3136e-05 -0.00095967 0.00066024 -0.00087521 -0.014324 0.0038621
0.14939 0.18635 -0.011827 0.0020865
-0.0010881 -3.6891e-05 0.00029699 -0.0010458 4.9171e-05 -0.00012769 0.0015166 0.0020159
-0.01183 0.0020978 0.18571 0.26399
1580000000 0.2947 0.06228 -0.0075202 0.013766 -0.00090021 -0.0049182 0.0014149 0.0018259
-0.00048778 -0.0021801 -0.00029378 0.00047272
-0.0075299 0.013761 0.17523 0.2966 0.0053431 0.008064 0.00045305 -0.0015903
-0.0005376 -0.00096185 -0.00030664 -0.00078431
-0.00091833 -0.0049003 0.0053888 0.0080605 0.33095 -0.10735 -0.0015382 0.00060936
-0.0003306 -0.0010864 0.00014851 -0.00054581
0.0014404 0.0018199 0.00043772 -0.0015943 -0.0015376 0.00061793 0.23266 0.10181
-0.010252 0.0082997 0.0022783 0.00076671
-0.00051779 -0.0021715 -0.00054986 -0.00095217 -0.0003472 -0.0010836 -0.010235 0.0083277
0.17401 0.1683 -0.0091773 0.0078795
-0.00030314 0.00054038 -0.00033308 -0.00076938 0.00012947 -0.0005214 0.002265 0.00075581
-0.0091491 0.007889 0.21808 0.23716
1640000000 0.29619 0.02152 -0.00069101 0.01236 -0.0027205 -0.0026081 0.0027047 0.00096427
-0.00081945 -0.0013812 -0.00012764 0.00050588
-0.00069682 0.012339 0.20421 0.27185 0.0059436 0.0033054 -0.00071198 -0.0017125
-0.00094491 -0.00036541 -0.0004965 -0.00067764
-0.0027159 -0.0025938 0.0059644 0.0032596 0.30295 -0.15627 -0.00065281 0.0013588
-0.0011716 -0.0010207 -4.0307e-05 -0.00048312
0.0027106 0.00097875 -0.00073692 -0.0017024 -0.00065524 0.0013712 0.24505 0.053359
-0.0057014 0.008783 0.0024389 -0.00079896
-0.00082753 -0.0013688 -0.00096562 -0.00035322 -0.0011798 -0.0010168 -0.0056953 0.0088113
0.19658 0.14353 -0.0043266 0.0098065
-0.0001815 0.00057253 -0.00050755 -0.00064656 -1.5966e-05 -0.00046444 0.0024518 -0.00081197
-0.0043162 0.009793 0.24364 0.20628
1700000000 0.28868 -0.023126 0.002585 0.0091649 -0.0034956 0.00015054 0.0029466 -0.0012068
-0.0020606 -0.00056076 0.00069299 0.00035246
0.0025698 0.0091648 0.22195 0.24073 0.0038516 0.00046164 -0.0015043 -0.00052032
-0.00072083 4.083e-05 -0.00092904 -0.0003438
-0.0035214 0.00015226 0.003858 0.00044952 0.26001 -0.19622 0.00040275 0.0016799
-0.0019651 -3.443e-05 -0.0005521 -0.00083679
0.0029584 -0.0012222 -0.0015078 -0.00049372 0.00040128 0.0016944 0.24208 0.0041612
-0.0032275 0.0086234 0.0014802 -0.0022454
-0.0020439 -0.00054191 -0.00073395 4.3978e-05 -0.001969 -1.9956e-05 -0.0032061 0.0086428
0.21368 0.12324 0.00066425 0.0097823
0.00075122 0.00036867 -0.00094616 -0.00032547 -0.00059992 -0.00084112 0.0014811 -0.0022667
0.00068514 0.0097601 0.26009 0.17181
1760000000 0.27646 -0.071154 0.0046106 0.005676 -0.0023245 0.0010814 0.0013046 -0.003373
-0.0011977 0.00084718 0.00038139 -0.00066853
0.0045832 0.005687 0.24778 0.20135 0.0014836 -0.0012167 -0.0011503 0.00026654
-0.00096887 0.00085191 -0.00053464 0.00044972
-0.0023163 0.0011065 0.0014766 -0.0012142 0.2111 -0.22979 0.0012182 0.0011237
-0.0010492 0.0015856 -0.0014158 -0.00046341
0.0012888 -0.0033953 -0.0011567 0.00027738 0.0012356 0.0011117 0.23343 -0.046899
-0.00058781 0.0074026 -0.00022744 -0.0025456
-0.0011708 0.00088294 -0.00097168 0.00085396 -0.0010332 0.0016062 -0.00056919 0.0074129
0.22812 0.088027 0.0045699 0.0069433
0.0003895 -0.0006682 -0.00053194 0.00043819 -0.0013852 -0.00049119 -0.0002144 -0.0025408
0.0045653 0.0069538 0.27285 0.13407
1820000000 0.25218 -0.10797 0.0044271 0.0021897 2.1638e-05 0.0025214 -0.0010215 -0.0030142
-0.00090848 0.00094012 -0.0001201 -0.00011908
0.0044253 0.002184 0.2578 0.17168 -0.00036394 -4.3253e-05 -0.0012425 0.00092435
-6.0951e-05 0.0012629 -0.00043037 0.00049602
8.4361e-06 0.0024836 -0.00035725 -4.9616e-05 0.16121 -0.24555 0.0015271 0.00040528
-7.2113e-05 0.0022365 -0.0013018 0.00048162
-0.001014 -0.0029906 -0.0012529 0.00094993 0.0015278 0.00040643 0.20418 -0.093897
0.00026411 0.0057838 -0.0016658 -0.0015917
-0.00089182 0.00098361 -5.8532e-05 0.0012645 -6.7026e-05 0.0022459 0.00027445 0.0057734
0.24484 0.058989 0.0053395 0.0031341
-9.8782e-05 -8.0213e-05 -0.00044255 0.00050491 -0.001315 0.00049746 -0.0016605 -0.0015923
0.0053174 0.0031175 0.27537 0.097874
1880000000 0.21754 -0.14816 0.0021073 9.7163e-05 -0.00035068 0.0020313 -0.0029715 -0.0020942
-6.501e-05 0.0015352 0.00019337 -0.00051751
0.0021197 8.6961e-05 0.26248 0.12547 -0.0023661 0.0017052 -0.00011096 0.0016596
0.00055568 0.0012403 0.00013774 0.00080039
-0.00033395 0.0020462 -0.0023396 0.0017186 0.1089 -0.2552 0.0018209 -0.001026
0.0015931 0.0018796 -0.00094775 0.0012383
-0.0029949 -0.0021212 -0.00012 0.0016395 0.0018276 -0.0010138 0.16432 -0.13427
0.00054481 0.0041701 -0.0025774 0.00033429
-7.1381e-05 0.0014848 0.0005509 0.0012037 0.0015754 0.0018759 0.00054586 0.0041643
0.24735 0.026618 0.005126 0.00071499
0.00027005 -0.00051123 0.00015597 0.00079698 -0.00091224 0.0012618 -0.0025553 0.00035157
0.0051395 0.00074825 0.27498 0.063388
1940000000 0.17847 -0.17417 -0.00011341 -0.0013527 0.001274 0.0020268 -0.0038271 0.00050556
0.0012323 0.00078085 -0.00062928 -0.00051124
-8.3325e-05 -0.0013187 0.26324 0.093737 -0.0011815 0.0038433 0.00099775 0.0012634
0.0018467 0.00050514 0.00075936 0.000178
0.0012884 0.0020549 -0.00114 0.0038407 0.062802 -0.2488 0.00036246 -0.002174
0.0023647 0.00037927 0.00017839 0.0014796
-0.003812 0.0005095 0.0010089 0.0012778 0.00037322 -0.0021816 0.11243 -0.16493
-0.00067618 0.0033598 -0.0016191 0.0016739
0.0012339 0.00077351 0.0018291 0.00049647 0.0023681 0.00036736 -0.00066478 0.0033679
0.24876 -0.011978 0.0036941 -0.0026952
-0.00059648 -0.00050309 0.00076514 0.00020222 0.00023225 0.0014642 -0.0015747 0.0016704
0.0036811 -0.0026731 0.26382 0.027331
2000000000 0.13208 -0.18907 -0.0038571 0.0006042 0.0025371 0.0016251 -0.0022375 0.0035319
0.00098907 8.6374e-05 -0.00065728 0.00031809
-0.0038015 0.00062771 0.24937 0.058195 -0.001075 0.0056517 0.0016101 0.00038099
0.0014099 -0.0013744 0.00043315 0.00013095
0.0025483 0.0016196 -0.0010452 0.005644 0.018671 -0.23456 -0.0013936 -0.0013048
0.0018957 -0.0012106 0.0015658 0.001341
-0.0022173 0.0035406 0.0015938 0.00034099 -0.001351 -0.00133 0.059144 -0.17556
-0.0022231 0.0035887 -0.00010109 0.0023971
0.00097489 0.00014045 0.0014232 -0.0013929 0.0019414 -0.0012067 -0.0021863 0.0035899
