!Keysight Technologies,M9804A,MY58100912,A.14.10.03
!Date: Thursday, April 27, 2023 10:28:33
!Correction: S11(C  6-Port  ) 
!S12(C  6-Port  ) 
!S13(C  6-Port  ) 
!S14(C  6-Port  ) 
!S15(C  6-Port  ) 
!S16(C  6-Port  ) 
!S21(C  6-Port  ) 
!S22(C  6-Port  ) 
!S23(C  6-Port  ) 
!S24(C  6-Port  ) 
!S25(C  6-Port  ) 
!S26(C  6-Port  ) 
!S31(C  6-Port  ) 
!S32(C  6-Port  ) 
!S33(C  6-Port  ) 
!S34(C  6-Port  ) 
!S35(C  6-Port  ) 
!S36(C  6-Port  ) 
!S41(C  6-Port  ) 
!S42(C  6-Port  ) 
!S43(C  6-Port  ) 
!S44(C  6-Port  ) 
!S45(C  6-Port  ) 
!S46(C  6-Port  ) 
!S51(C  6-Port  ) 
!S52(C  6-Port  ) 
!S53(C  6-Port  ) 
!S54(C  6-Port  ) 
!S55(C  6-Port  ) 
!S56(C  6-Port  ) 
!S61(C  6-Port  ) 
!S62(C  6-Port  ) 
!S63(C  6-Port  ) 
!S64(C  6-Port  ) 
!S65(C  6-Port  ) 
!S66(C  6-Port  ) 
!S6P File: Measurement: :
# Hz S  RI   R 50
500000000 -0.33723 -0.038976 -0.0099602 -0.0018663 -0.007722 0.012409 -0.0042475 0.012227
0.013099 0.0042949 -0.0048117 0.0081566
-0.010065 -0.0025664 -0.419 -0.051687 0.0076414 -0.011147 0.0016661 0.01161
0.0071745 0.0024133 0.0015147 0.013384
-0.0078096 0.013172 0.0077727 -0.011001 -0.26565 0.20941 0.0074152 0.003251
-0.0018004 0.0078328 0.0018874 0.01181
-0.0042393 0.011609 0.0025422 0.012385 0.0074621 0.0032825 -0.33041 0.04358
-0.018927 -0.005737 0.017687 0.02453
0.012336 0.0039072 0.0071332 0.0027933 -0.0019399 0.00795 -0.019036 -0.0056802
-0.2243 -0.19479 -0.025384 0.0041706
-0.0049318 0.008551 0.002863 0.014025 0.0016061 0.011479 0.016257 0.025478
-0.026201 0.0062868 -0.26338 -0.12962
560000000 -0.31742 0.12357 -0.023264 -0.063059 0.00083681 0.012698 0.0054419 0.010322
0.010296 0.003483 0.010661 0.0073399
-0.023012 -0.063103 -0.37625 0.10744 -0.042026 -0.037998 0.013702 0.0044524
-0.01155 -0.0039989 0.0036974 0.00011375
-0.00031725 0.012508 -0.041401 -0.037224 -0.1823 0.25751 -0.00023267 -0.0042803
0.018443 0.0061396 0.007547 -0.0063649
0.0063826 0.011276 0.014626 0.0048374 -5.6403e-05 -0.0039311 -0.30492 0.13242
0.0053769 -0.024046 0.0047795 -0.020572
0.010583 0.0043887 -0.013543 -0.0042803 0.019383 0.0043501 0.004717 -0.023001
-0.29108 -0.020149 0.0068009 -0.052211
0.011698 0.0066029 0.0043433 -0.00045914 0.0074591 -0.0065236 0.0043085 -0.02143
0.0087072 -0.049158 -0.32747 0.019021
620000000 -0.27525 0.10694 -0.023173 0.0078742 0.0033232 0.0089518 0.0086785 -0.0043217
0.010092 -0.00088523 0.001845 -0.0016141
-0.023432 0.0077809 -0.40254 0.060043 -0.018467 0.00020247 -0.0016259 -0.002311
0.011382 -0.0063404 0.0023526 -0.0030574
0.0026771 0.0086095 -0.018395 0.00032568 -0.15344 0.26679 -0.0010973 -0.0046074
-0.0021953 -0.0025305 0.0079986 -0.004283
0.0076513 -0.0054281 -0.0014339 -0.0018323 -0.0011966 -0.0049139 -0.26559 0.14386
-0.038027 -0.018524 0.0099533 0.027417
0.011111 0.00016563 0.011463 -0.0069066 -0.0033484 -0.0030702 -0.037642 -0.018898
-0.20764 -0.057886 -0.037625 0.013553
0.0012056 -0.0026619 0.0019634 -0.0035302 0.0082606 -0.0031946 0.010575 0.025529
-0.040292 0.01664 -0.25211 -0.020576
680000000 -0.23513 0.19297 -0.027126 -0.013967 0.0050874 0.0051997 0.0015204 -0.0075006
-0.0025597 -0.011117 0.0053419 -0.0065904
-0.026992 -0.014113 -0.3876 0.15773 -0.032527 -0.0012408 -0.0014648 -0.00038471
-0.0018541 -0.0086864 -0.0011481 -0.0024494
0.005291 0.005567 -0.032769 -0.0012568 -0.10214 0.28671 -0.00080778 -0.00013424
-0.0016396 0.0005492 -0.0028199 -0.0095842
0.0019375 -0.0068182 -0.001759 -0.00059513 -0.00095445 7.872e-05 -0.22063 0.19402
-0.024284 -0.0074862 -0.0080893 -0.010638
-0.0034668 -0.011206 -0.0021924 -0.0086795 -0.0015269 0.00065893 -0.024381 -0.0073166
-0.25937 0.041412 -0.0079018 -0.0079726
0.0042423 -0.0066905 -0.0019259 -0.0023631 -0.0032551 -0.0092756 -0.0095004 -0.01151
-0.0051855 -0.0083954 -0.26296 0.09123
740000000 -0.19016 0.18781 -0.038685 0.026362 0.012779 -0.0051343 -0.00012932 -0.0043377
-0.0043652 -0.0026663 -0.0049331 0.0032592
-0.038569 0.026529 -0.33505 0.17649 -0.035026 0.03489 -0.00061362 -0.0059987
-0.011195 0.0078073 -0.0032224 -0.0058092
0.012582 -0.0049744 -0.035208 0.035028 -0.068402 0.28486 -0.0020074 0.003191
-0.0026687 -0.0040406 -0.0017234 -0.00042695
-0.00033283 -0.0044014 -0.00086725 -0.0060528 -0.0018273 0.0032063 -0.20321 0.20203
-0.044168 -0.007768 0.022392 0.014133
-0.0045567 -0.0025069 -0.011797 0.008165 -0.0020162 -0.0046898 -0.043647 -0.0075389
-0.15911 0.068865 -0.042821 0.00068148
-0.005727 0.0025205 -0.0020627 -0.0063532 -0.0013856 0.0001486 0.02267 0.014817
-0.04432 -0.0010072 -0.25086 0.090711
800000000 -0.15725 0.2277 -0.0224 0.016561 0.0054714 -0.010643 -0.0046125 -0.0020772
-0.004051 0.0018646 0.0049333 0.00097205
-0.022339 0.016608 -0.33783 0.24646 -0.0077924 0.033859 -0.0021769 0.0023419
-0.00039993 0.0031317 0.0011115 0.0057891
0.005288 -0.010626 -0.0077669 0.033842 -0.027716 0.30785 0.0011319 0.0013847
0.00036639 0.0033584 -0.0017784 0.0010005
-0.0050938 -0.0019217 -0.0023882 0.0020646 0.0011057 0.0016424 -0.17474 0.22988
-0.028365 0.013787 0.014096 -0.010267
-0.0040309 0.0023644 -0.00071951 0.0028045 0.00058424 0.0034159 -0.028578 0.013511
-0.20656 0.091006 -0.01846 0.019895
0.0042225 0.00072324 0.00090157 0.0050763 -0.0017554 0.0011279 0.014183 -0.0098048
-0.017848 0.019018 -0.24251 0.14642
860000000 -0.1228 0.24793 -0.017428 0.030501 -0.0033909 -0.010072 -0.0022886 0.00079355
0.0043604 0.0052226 -0.0042963 -0.0024773
-0.017364 0.030593 -0.29053 0.28835 0.0079423 0.033945 -0.00010738 0.0021114
0.0041384 0.00034371 0.0029775 0.00020167
-0.0035037 -0.0098678 0.0079812 0.033823 0.020142 0.31563 -0.00055344 -0.00028873
0.0026905 -0.0013426 0.0015766 0.0040875
-0.0025935 0.00055488 0.00021345 0.0019669 -0.00046255 -0.00027573 -0.13886 0.24108
-0.017997 0.018586 -0.0072142 -0.0082313
0.0042403 0.0047405 0.0045454 1.5337e-05 0.0029133 -0.0013883 -0.017612 0.018457
-0.15538 0.14209 -0.0251 0.015927
-0.0039379 -0.002915 0.0035566 0.00050137 0.0015704 0.0042908 -0.0065328 -0.0091981
-0.02637 0.01501 -0.19025 0.18551
920000000 -0.098496 0.27092 0.0050823 0.03769 -0.0094144 -0.0043583 -0.0018973 0.0019779
0.0010688 0.0016853 0.002838 -0.0016154
0.0050972 0.03782 -0.26162 0.30952 0.028051 0.021852 0.0014493 0.00098344
0.0068936 -0.00046185 0.0037978 -0.0023765
-0.0094882 -0.0043643 0.028081 0.021681 0.066265 0.31626 0.0017815 -8.975e-05
0.0010579 -0.0004897 0.0008987 -0.00088727
-0.001852 0.0021912 0.0014946 0.0010296 0.001826 -0.00015079 -0.11504 0.25765
-0.010846 0.03034 0.0037877 -0.0062478
0.00091208 0.0021127 0.0069078 -0.00044097 0.0010254 -0.00015509 -0.010438 0.030411
-0.14619 0.14851 -0.0028876 0.0271
0.0028063 -0.0018889 0.004044 -0.0028746 0.0010768 -0.00099318 0.0035776 -0.0065002
-0.002995 0.027199 -0.19992 0.20474
980000000 -0.050783 0.28995 0.017484 0.029911 -0.0089703 0.0046762 0.0020835 0.0037049
0.0040245 -0.0015771 -0.003043 -0.0021097
0.017323 0.029872 -0.20864 0.34347 0.032802 0.0048447 0.0020638 4.8996e-05
0.0015071 -0.0056582 -0.00015694 -0.0024962
-0.0089315 0.0046887 0.032871 0.0047109 0.11253 0.30966 0.00050658 -0.0011935
0.00025527 -0.0021067 0.0015679 -0.00028748
0.0020928 0.003593 0.0019906 -6.3022e-05 0.00045766 -0.0012346 -0.077001 0.269
0.0080149 0.029816 -0.0092115 -0.0067356
0.0037995 -0.0014925 0.0013988 -0.0058106 0.00020887 -0.0021108 0.0076063 0.029884
-0.11531 0.17711 0.0051905 0.018458
-0.0031284 -0.0021839 -0.00038071 -0.002303 0.0012816 -0.00020008 -0.0092222 -0.0071203
0.0044512 0.019275 -0.15834 0.24752
1040000000 -0.0092041 0.29862 0.033243 0.018131 -0.0012042 0.0069448 0.0026541 0.00069958
6.3196e-05 -0.0036034 -0.00028037 -0.0012292
0.033066 0.017942 -0.17298 0.35645 0.029141 -0.014739 0.001476 -0.0016512
-0.0026477 -0.0024211 -0.0014422 -0.0022372
-0.0011069 0.0069187 0.029246 -0.014863 0.15846 0.29599 -0.00051052 -0.0014553
-0.0016824 -0.00084364 -0.00044875 -0.00098283
0.0026397 0.00090016 0.001448 -0.0017014 -0.00049908 -0.0014752 -0.049531 0.27917
0.018948 0.017722 -0.002258 0.0012398
0.00010713 -0.0035276 -0.002521 -0.0025294 -0.0015859 -0.00087113 0.019004 0.017692
-0.082706 0.18572 0.01336 0.018804
-2.2708e-05 -0.0014467 -0.0014535 -0.0024788 -0.00048153 -0.0010447 -0.0021965 0.0017328
0.013334 0.018448 -0.13527 0.26893
1100000000 0.036673 0.30596 0.035668 -0.0041978 0.0029275 0.0038605 0.0024347 -0.0013008
-0.0020699 -0.0032719 -0.0039638 -5.9911e-05
0.035708 -0.004308 -0.12979 0.37356 0.015048 -0.027604 6.8468e-05 -0.0018573
-0.0033146 -0.0008329 -0.0033721 -0.00085717
0.0028867 0.0038493 0.01492 -0.02768 0.20479 0.27566 -0.0018468 0.00023579
-0.0017065 0.00048166 -0.001161 -0.00033675
0.0024314 -0.0013111 -7.358e-06 -0.0017913 -0.0018493 0.00029087 -0.0094121 0.28424
0.024018 0.0049699 -0.0028986 0.00034678
-0.0021811 -0.0032193 -0.003296 -0.00070433 -0.0016605 0.00042945 0.024176 0.0049342
-0.065085 0.19932 0.019288 0.0083937
-0.003916 7.4807e-05 -0.0034058 -0.00050051 -0.0011304 -0.00036553 -0.0026184 0.00024285
0.018961 0.0083359 -0.091321 0.29834
1160000000 0.0876 0.30123 0.023822 -0.020738 0.002687 -0.00047764 -0.00020675 -0.0024432
-0.0040938 -0.0008027 -0.00095099 0.0041447
0.023781 -0.020573 -0.086194 0.37757 -0.0036915 -0.028906 -0.0017411 -0.001665
-0.0026847 0.0025785 -0.0013341 0.0020224
0.0027122 -0.00052132 -0.0038774 -0.028874 0.24767 0.24495 -0.00065894 0.0017183
-0.00051643 0.0019046 -0.00076803 0.00022792
-0.00020944 -0.0024027 -0.0017041 -0.0017865 -0.00069092 0.0017142 0.029809 0.28153
0.020696 -0.010362 -0.0029675 0.0051387
-0.0041156 -0.00073246 -0.0026547 0.0025332 -0.00053648 0.0019235 0.020652 -0.010171
-0.031507 0.20891 0.017803 0.00084117
-0.00087216 0.0039498 -0.0014853 0.0019173 -0.00093025 0.00020039 -0.0029316 0.0052174
0.018243 0.00036755 -0.043256 0.30266
1220000000 0.13215 0.28998 0.010261 -0.029853 -0.0015492 -0.0008081 -9.0915e-08 -0.00098066
-0.0027505 0.0024175 0.0013447 0.0021399
0.010306 -0.029915 -0.041894 0.3896 -0.016699 -0.020964 -0.0024966 0.00043321
3.6576e-05 0.0029381 -0.00088493 0.0017234
-0.0015928 -0.00081519 -0.016835 -0.02094 0.28686 0.20588 0.0008772 0.0015933
0.00058947 0.0011461 0.00023656 0.00060183
-3.0549e-05 -0.0010451 -0.0025385 0.00046001 0.00086604 0.0016178 0.069576 0.27338
0.010222 -0.01665 0.0022601 0.0015814
-0.0026525 0.0024731 4.4275e-05 0.0029336 0.00061409 0.0012207 0.010098 -0.016763
-0.0091051 0.21827 0.014473 -0.012743
0.0013043 0.0020117 -0.00072381 0.00188 0.00029672 0.00069044 0.0022852 0.00141
0.013978 -0.012567 -0.012775 0.31769
1280000000 0.18181 0.26794 -0.0079583 -0.028321 -0.0017999 0.0025091 -0.00095856 -0.0020263
-0.0007954 0.0030142 0.0025282 0.001061
-0.0079483 -0.028237 0.0037202 0.38043 -0.023491 -0.0084521 -0.0009994 0.0015029
0.0016826 0.0017277 0.00065876 0.002198
-0.0018158 0.0024839 -0.023547 -0.0083576 0.3174 0.16209 0.0015221 -8.7377e-05
0.0011195 0.00025952 0.0004248 0.00021651
-0.00096723 -0.0019951 -0.00094966 0.0013938 0.0015339 -0.00012085 0.10654 0.25726
0.00090229 -0.018537 0.00016883 -0.00018659
-0.0006985 0.0030989 0.0016855 0.0017934 0.0010248 0.00025152 0.00091619 -0.018595
0.02743 0.22256 0.0028896 -0.014534
0.0025796 0.0011555 0.0005202 0.0020352 0.00048193 0.00035708 0.00013773 -5.631e-05
0.0032483 -0.014873 0.036144 0.32162
1340000000 0.21885 0.23401 -0.017596 -0.018749 0.00088454 0.0043731 -0.0017776 -0.00080848
0.0013784 0.0027214 0.0017992 -0.0014205
-0.017599 -0.018723 0.043035 0.37228 -0.021455 0.0040994 -0.00014675 0.0019708
0.0018437 0.00080508 0.0013062 0.00076082
0.00090823 0.0044241 -0.021465 0.0041903 0.33942 0.11433 0.00098461 -0.00091545
0.00058911 -0.00037456 0.00013586 0.00035448
-0.0017377 -0.00081137 -6.5322e-05 0.0020178 0.0010305 -0.00094814 0.13917 0.23728
-0.0081171 -0.015829 0.0010042 0.00045216
0.0014969 0.0026812 0.0018746 0.00071179 0.00068951 -0.00042585 -0.0082205 -0.015822
0.05761 0.21839 -0.0033103 -0.01361
0.001683 -0.001375 0.0012878 0.00072253 0.00014416 0.00035271 0.0010004 0.00039954
-0.0033809 -0.01334 0.073228 0.31562
1400000000 0.25175 0.19559 -0.023227 -0.0073502 0.0051211 0.0030472 -0.0020829 0.00064342
0.0023634 0.00083511 0.0003225 -0.0013289
-0.023189 -0.0073373 0.08022 0.3593 -0.014785 0.012193 0.0012747 0.0012784
0.0011112 -0.00082107 0.0013235 0.00017695
0.0051709 0.0030052 -0.014725 0.012266 0.35273 0.060837 6.3476e-05 -0.0016144
6.7765e-06 -0.00046099 0.00047058 0.00023787
-0.0021086 0.00067968 0.0012686 0.0012411 8.5531e-05 -0.0015718 0.1691 0.20887
-0.013838 -0.0093571 -0.00078925 -0.00062196
0.0024068 0.00089405 0.0011203 -0.00079769 1.1889e-05 -0.00041672 -0.013911 -0.0093664
0.09053 0.21442 -0.0098835 -0.008614
0.00025565 -0.0013716 0.0011248 0.00024085 0.00046941 0.00024418 -0.00077359 -0.00046692
-0.0097868 -0.0087498 0.11901 0.30557
1460000000 0.27428 0.15141 -0.020175 0.0047494 0.0054301 -0.0018535 -0.0015571 0.0017811
0.0020732 -0.0005769 -0.00035111 -0.00088703
-0.02018 0.0047091 0.11425 0.33761 -0.0062655 0.015147 0.0017029 0.00017767
0.00081567 -0.0012045 0.0010387 -0.00062985
0.0054373 -0.0018742 -0.0062501 0.015181 0.3587 0.0062785 -0.0011732 -0.0011778
0.00031052 -0.00017713 0.00056844 -0.00034746
-0.0015861 0.0018003 0.0017738 0.00021261 -0.0011676 -0.0011856 0.19563 0.17986
-0.014983 -0.0029701 -0.0011364 0.0020869
0.0020488 -0.00059807 0.00083736 -0.0012514 0.00020554 -0.00018926 -0.015012 -0.0028977
0.11981 0.20025 -0.011717 -0.0030147
-0.00031446 -0.00099184 0.0011451 -0.0006579 0.00054364 -0.0003698 -0.00097349 0.0018715
-0.011545 -0.0027397 0.15184 0.28416
1520000000 0.28618 0.10956 -0.014555 0.010219 0.0032292 -0.0040947 0.0001189 0.0026317
0.0021045 -0.0017022 -0.0011384 -0.00010641
-0.014556 0.010214 0.14784 0.32297 0.0013583 0.013062 0.0016076 -0.00076269
-4.0351e-05 -0.00095552 0.00033833 -0.0010021
0.0032144 -0.0041205 0.0014718 0.013075 0.35194 -0.04995 -0.0010495 -0.00033143
0.00062397 -0.00073522 -5.8534e-05 -0.000177
0.0001238 0.002601 0.0016113 -0.00079043 -0.0010189 -0.00031018 0.2194 0.14198
-0.014341 0.0024908 0.0014621 0.0020833
0.0020476 -0.0017479 6.5814e-06 -0.00097249 0.00070322 -0.00074581 -0.014353 0.0025228
0.14808 0.18676 -0.011792 0.0016471
-0.0011378 -3.8764e-05 0.00035162 -0.0010036 8.244e-05 -0.00010826 0.0012874 0.0020109
-0.011631 0.0014496 0.18553 0.26436
1580000000 0.29506 0.063278 -0.0079802 0.013198 -0.00085435 -0.0048191 0.0014545 0.001889
-0.00031306 -0.0020828 -0.00021927 0.00052565
-0.0079819 0.013183 0.17525 0.29822 0.0050534 0.0083528 0.00046038 -0.0015443
-0.00053565 -0.0010139 -0.00013942 -0.00081241
-0.0008842 -0.0047965 0.0050986 0.0083239 0.33151 -0.10759 -0.0015974 0.00055816
-0.00020376 -0.0011474 0.00019 -0.00033575
0.001515 0.0019103 0.0004582 -0.0015735 -0.001585 0.00053509 0.23372 0.10252
-0.011046 0.0072243 0.0022345 0.0010172
-0.00030669 -0.0020834 -0.00050548 -0.0010272 -0.00035106 -0.0012011 -0.011066 0.007326
0.1728 0.16905 -0.0089083 0.0074367
-0.00042144 0.00044133 -0.00022813 -0.00084957 0.0001223 -0.00047307 0.0022304 0.00081483
-0.0091723 0.0072119 0.21777 0.23703
1640000000 0.29671 0.022149 -0.0013882 0.01218 -0.0025851 -0.0025639 0.0027903 0.00095922
-0.00060778 -0.0014428 -0.00030419 0.00049167
-0.0013785 0.012159 0.20478 0.27322 0.0058599 0.0036217 -0.0006328 -0.0016874
-0.00093569 -0.00036817 -0.00041326 -0.00073546
-0.0026806 -0.0025719 0.0058876 0.0035748 0.3033 -0.15674 -0.00065233 0.0013992
-0.00094004 -0.0010111 -9.2438e-05 -0.00053739
0.0027308 0.00094258 -0.00067542 -0.0017007 -0.00066609 0.0013742 0.24635 0.053529
-0.0069184 0.0083845 0.0025342 -0.00095476
-0.00063883 -0.0014124 -0.00097477 -0.00037754 -0.0010675 -0.0010656 -0.0069783 0.0084131
0.19592 0.14472 -0.0045411 0.0091084
-0.0002342 0.00050916 -0.00046268 -0.0007041 -6.4873e-05 -0.00040143 0.0024819 -0.00078494
-0.0045933 0.0092347 0.24351 0.20668
1700000000 0.28926 -0.022911 0.0019225 0.0093686 -0.0034973 0.00014174 0.0029979 -0.0012024
-0.0019835 -0.00067338 0.00069061 0.00044889
0.0019359 0.0093521 0.22297 0.24152 0.0038519 0.00067478 -0.0014446 -0.00056287
-0.00076819 5.4214e-05 -0.00096929 -0.00040721
-0.0035141 0.00016226 0.0038858 0.00064283 0.25976 -0.19682 0.00044057 0.0015863
-0.0019482 -0.00025568 -0.00051866 -0.00070057
0.0029994 -0.0012656 -0.001427 -0.00059947 0.00038227 0.0016704 0.24348 0.0036052
-0.0043658 0.0089902 0.0013411 -0.0021554
-0.0019494 -0.0006799 -0.00075233 2.1497e-05 -0.0018951 -0.00022426 -0.0044049 0.0090673
0.21345 0.12453 0.00023818 0.0093882
0.0006133 0.00043798 -0.00093236 -0.00047112 -0.00046035 -0.00079392 0.0015333 -0.0021181
2.0909e-05 0.0095232 0.25996 0.17159
1760000000 0.27684 -0.071222 0.0042265 0.0061722 -0.0022351 0.00094711 0.0012449 -0.0034523
-0.0012284 0.00062425 0.00052668 -0.00070143
0.0042212 0.0061587 0.24885 0.2015 0.0016649 -0.001048 -0.0011648 0.00013251
-0.00096779 0.00084483 -0.00058831 0.00035199
-0.0022162 0.00097925 0.0016736 -0.0010674 0.21056 -0.22968 0.0011153 0.0011599
-0.0011753 0.001413 -0.0013573 -0.00050828
0.0011995 -0.0034271 -0.0011672 0.00017297 0.0011573 0.0011332 0.23398 -0.048114
-0.0011643 0.0082572 -0.00032275 -0.0025854
-0.0013359 0.00068973 -0.0009704 0.00086348 -0.0011734 0.0014709 -0.0012166 0.0082629
0.22828 0.089421 0.0037395 0.0068027
0.00047551 -0.0006524 -0.00056279 0.00041903 -0.0013317 -0.00060086 -0.00035227 -0.0024595
0.003936 0.0069178 0.27278 0.13397
1820000000 0.25235 -0.10809 0.0044045 0.0026875 -4.2835e-05 0.002358 -0.0010506 -0.0030288
-0.0010966 0.00097347 7.3724e-06 -0.00010806
0.0043874 0.0026952 0.25869 0.17129 -0.00019889 -6.9461e-05 -0.0012995 0.00088013
-8.4155e-05 0.0012963 -0.00054527 0.00055598
-1.4517e-05 0.0024102 -0.00020313 -2.8283e-06 0.16091 -0.24522 0.0014393 0.00051033
-0.00030187 0.0022802 -0.0012486 0.00034732
-0.0010859 -0.0030322 -0.0013725 0.00090011 0.0014701 0.00043215 0.20403 -0.095375
0.00024867 0.0067317 -0.0017832 -0.0013501
-0.0010331 0.00085842 -7.8593e-05 0.0013023 -0.00028887 0.0021975 0.00028907 0.0066078
0.24537 0.06026 0.00477 0.0035389
-7.0105e-05 -0.00010897 -0.00059895 0.00056982 -0.0013688 0.00039898 -0.0018569 -0.0014244
0.0047644 0.0034208 0.27471 0.09787
1880000000 0.21724 -0.14835 0.0023177 0.00039916 -0.00033563 0.0019797 -0.0029662 -0.0021368
-0.00024368 0.001636 0.00014462 -0.00056417
0.0023025 0.00043143 0.26289 0.12457 -0.002205 0.0016817 -0.00025346 0.0017331
0.00055142 0.0011656 0.00011345 0.00091932
-0.00038536 0.0019514 -0.0022437 0.00168 0.10844 -0.25483 0.001854 -0.00092284
0.0015811 0.0019567 -0.00077508 0.0011716
-0.0029474 -0.0021657 -0.00022581 0.001714 0.0018533 -0.00094191 0.16341 -0.13561
0.0010494 0.0047788 -0.002503 0.00049613
-0.00021944 0.0016137 0.00053546 0.0011884 0.001535 0.0020116 0.0010341 0.0048113
0.24832 0.027594 0.0045855 0.0013165
0.00026431 -0.00054736 0.00017374 0.00090127 -0.00090009 0.0012564 -0.0022985 0.00038737
0.004897 0.001282 0.27418 0.063726
1940000000 0.17799 -0.17387 0.00022453 -0.0012497 0.0013278 0.0019515 -0.0037246 0.00050473
0.0013284 0.00095862 -0.00072937 -0.00029658
0.00017848 -0.0012278 0.26313 0.092805 -0.0011224 0.0038307 0.00093472 0.0013631
0.0018204 0.00050336 0.00068422 0.00033237
0.0012807 0.0019176 -0.00105 0.0037344 0.062578 -0.24828 0.00037809 -0.0022432
0.0024071 0.00049356 0.00010283 0.0014352
-0.0037827 0.00059213 0.00097217 0.0013234 0.0003627 -0.0021912 0.11079 -0.16572
-3.3728e-05 0.0035837 -0.0013557 0.0014452
0.0012983 0.0010615 0.0018091 0.0004602 0.0024822 0.00049943 -0.0001327 0.003429
0.25005 -0.011451 0.0038847 -0.0018702
-0.00063279 -0.00052366 0.00081986 0.00033263 0.00039618 0.0017296 -0.0014332 0.0015655
0.0037842 -0.0019234 0.26346 0.027895
2000000000 0.13163 -0.18853 -0.0036221 0.00063968 0.002521 0.001715 -0.0022413 0.0035678
0.0010509 0.00032286 -0.00060941 0.00041631
-0.0036177 0.00065982 0.24869 0.057374 -0.00099991 0.0056949 0.0016242 0.00045085
0.001284 -0.0013618 0.00043344 0.0001999
0.0024958 0.0016786 -0.00094061 0.0056133 0.018811 -0.23371 -0.0015125 -0.0012736
0.0020291 -0.0012351 0.0016187 0.0015584
-0.0021212 0.0035177 0.0017041 0.00042767 -0.0013779 -0.0013087 0.057884 -0.17543
-0.0016851 0.0034342 3.6233e-06 0.0020147
0.0011213 0.00021923 0.0013243 -0.0013314 0.0019919 -0.0013219 -0.0015318 0.0035217
