!Keysight Technologies,M9804A,MY58100912,A.14.10.03
!Date: Thursday, April 27, 2023 10:28:33
!Correction: S11(C  6-Port  ) 
!S12(C  6-Port  ) 
!S13(C  6-Port  ) 
!S14(C  6-Port  ) 
!S15(C  6-Port  ) 
!S16(C  6-Port  ) 
!S21(C  6-Port  ) 
!S22(C  6-Port  ) 
!S23(C  6-Port  ) 
!S24(C  6-Port  ) 
!S25(C  6-Port  ) 
!S26(C  6-Port  ) 
!S31(C  6-Port  ) 
!S32(C  6-Port  ) 
!S33(C  6-Port  ) 
!S34(C  6-Port  ) 
!S35(C  6-Port  ) 
!S36(C  6-Port  ) 
!S41(C  6-Port  ) 
!S42(C  6-Port  ) 
!S43(C  6-Port  ) 
!S44(C  6-Port  ) 
!S45(C  6-Port  ) 
!S46(C  6-Port  ) 
!S51(C  6-Port  ) 
!S52(C  6-Port  ) 
!S53(C  6-Port  ) 
!S54(C  6-Port  ) 
!S55(C  6-Port  ) 
!S56(C  6-Port  ) 
!S61(C  6-Port  ) 
!S62(C  6-Port  ) 
!S63(C  6-Port  ) 
!S64(C  6-Port  ) 
!S65(C  6-Port  ) 
!S66(C  6-Port  ) 
!S6P File: Measurement: :
# Hz S  RI   R 50
500000000 -0.33752 -0.039483 -0.0099811 -0.0029809 -0.007526 0.012469 -0.0040094 0.01266
0.011988 0.0045684 -0.0044403 0.009265
-0.0099024 -0.0028993 -0.4193 -0.051482 0.0077632 -0.010852 0.0012546 0.01248
0.0075292 0.0022964 0.0010746 0.013902
-0.0074481 0.012493 0.0077471 -0.010895 -0.26589 0.20953 0.0078216 0.0039382
-0.0015892 0.0076296 0.0018603 0.012236
-0.0042341 0.012652 0.0012577 0.012526 0.0077345 0.0039555 -0.33125 0.044628
-0.018306 -0.0064666 0.015101 0.026635
0.012218 0.0044692 0.0074997 0.0022382 -0.0015952 0.0075807 -0.018083 -0.0065377
-0.22553 -0.19366 -0.025039 0.0047084
-0.0046451 0.009518 0.0010344 0.013726 0.0014671 0.012314 0.01496 0.026572
-0.025051 0.0046657 -0.2686 -0.12852
560000000 -0.31542 0.12425 -0.023721 -0.064079 0.00042593 0.01269 0.0060886 0.010622
0.010381 0.004361 0.011161 0.0074879
-0.023752 -0.063964 -0.37804 0.10826 -0.041155 -0.037548 0.014209 0.0039777
-0.012686 -0.0041736 0.0032523 0.000429
0.00050376 0.012676 -0.04135 -0.037527 -0.18358 0.25809 -0.00044405 -0.0049124
0.018591 0.0051567 0.0071186 -0.0066959
0.0059284 0.010989 0.01403 0.0041956 -0.00050291 -0.0051078 -0.30508 0.13295
0.0041172 -0.024276 0.0044962 -0.021135
0.0104 0.0044876 -0.012621 -0.0037095 0.01869 0.0050401 0.0044595 -0.024659
-0.29148 -0.018179 0.0088198 -0.049715
0.011466 0.0078682 0.0033282 0.0002339 0.007348 -0.006118 0.0044464 -0.021157
0.0089295 -0.049674 -0.32891 0.019721
620000000 -0.275 0.1074 -0.023355 0.0081077 0.0027017 0.0084679 0.0082274 -0.0059034
0.01102 0.00031999 0.0018539 -0.0021425
-0.023339 0.0080905 -0.40272 0.059833 -0.018996 -6.7751e-05 -0.0013102 -0.0022368
0.011475 -0.0065223 0.0015489 -0.0029866
0.0026905 0.0086094 -0.019026 -3.65e-06 -0.15461 0.26653 -0.0014695 -0.0054808
-0.0027633 -0.0029606 0.0088516 -0.0039826
0.0080606 -0.0058533 -0.0013352 -0.0021997 -0.0013912 -0.005474 -0.26508 0.14401
-0.037779 -0.01955 0.01237 0.02663
0.011464 0.00031809 0.011627 -0.0063604 -0.002869 -0.0027707 -0.037986 -0.019235
-0.20894 -0.058037 -0.041349 0.014093
0.0017279 -0.0025702 0.0013482 -0.0030641 0.0089647 -0.0041189 0.012523 0.025991
-0.041425 0.014099 -0.25187 -0.01539
680000000 -0.2344 0.19287 -0.027297 -0.014114 0.0051138 0.0053039 0.00091429 -0.007555
-0.0035183 -0.010907 0.0049763 -0.0067244
-0.027278 -0.01409 -0.38736 0.15765 -0.033051 -0.0013199 -0.0018519 -0.00070315
-0.0022165 -0.0086817 -0.0015546 -0.0019986
0.0051136 0.0052736 -0.033085 -0.0012294 -0.10241 0.28647 -0.00085922 -0.0001467
-0.0016422 0.00081751 -0.0030655 -0.0093738
0.00089203 -0.0073065 -0.0019031 -0.0005955 -0.00086448 -0.00012095 -0.22027 0.1936
-0.024265 -0.0077501 -0.0099398 -0.01053
-0.0035286 -0.011029 -0.0021124 -0.0087729 -0.0015135 0.00069661 -0.024219 -0.0077287
-0.25866 0.04091 -0.0057111 -0.0081452
0.0049068 -0.0070519 -0.0016732 -0.0019763 -0.0030186 -0.0092893 -0.010249 -0.010511
-0.0057465 -0.0082498 -0.26095 0.087741
740000000 -0.19046 0.1876 -0.038702 0.026779 0.012781 -0.0051212 -0.00033214 -0.0045997
-0.0044282 -0.00243 -0.0061457 0.0026977
-0.038677 0.026712 -0.33474 0.1764 -0.035486 0.035349 -0.00084442 -0.0061068
-0.011655 0.0081474 -0.0025545 -0.0064139
0.012766 -0.0051845 -0.035404 0.035504 -0.069014 0.28492 -0.0019831 0.0032301
-0.0026692 -0.0044563 -0.0017335 -2.4612e-05
-0.00047385 -0.0046273 -0.00093848 -0.0062823 -0.001928 0.0032332 -0.20372 0.20153
-0.043802 -0.0070106 0.023303 0.014976
-0.0043484 -0.0023108 -0.011242 0.0079638 -0.0024436 -0.0045199 -0.043653 -0.0066968
-0.15913 0.067256 -0.044574 0.00046263
-0.0060236 0.0026182 -0.0026109 -0.0062598 -0.0019267 9.293e-05 0.023182 0.015094
-0.044473 0.0003626 -0.24762 0.093629
800000000 -0.15718 0.22775 -0.022279 0.016866 0.0054409 -0.010756 -0.0047697 -0.0019284
-0.0043187 0.0023397 0.0044892 0.0007362
-0.022271 0.016847 -0.33814 0.24656 -0.0078114 0.034161 -0.0023111 0.002333
-0.00062044 0.0031543 0.00098071 0.0053247
0.005399 -0.010758 -0.0077217 0.034223 -0.028285 0.30797 0.0010239 0.0015287
0.00030351 0.0034628 -0.0017481 0.001024
-0.0047553 -0.0019615 -0.0022962 0.002316 0.0010814 0.0015539 -0.1756 0.22959
-0.028789 0.014091 0.013628 -0.010254
-0.004084 0.0023434 -0.00055654 0.0031996 0.0004017 0.0033807 -0.02877 0.014152
-0.2073 0.090968 -0.017634 0.019358
0.0046429 0.00066234 0.0010252 0.0053366 -0.0017052 0.0011594 0.013673 -0.010215
-0.017632 0.019392 -0.24318 0.1436
860000000 -0.12262 0.24811 -0.017241 0.030797 -0.0032522 -0.01006 -0.0025172 0.00099765
0.0039819 0.0047948 -0.0032405 -0.0028518
-0.017224 0.0308 -0.29061 0.28855 0.0080196 0.034529 -0.00010405 0.0017795
0.0042433 4.0076e-05 0.0033441 0.00087243
-0.0032837 -0.010027 0.0081265 0.034548 0.019752 0.31615 -0.00053258 -0.00028739
0.0027743 -0.0014777 0.0015892 0.0042579
-0.0023207 0.00099773 -9.5609e-05 0.0017273 -0.00051535 -0.00030295 -0.13962 0.24079
-0.01829 0.018855 -0.0054021 -0.0091468
0.0042279 0.0048012 0.004279 -3.4789e-05 0.0028473 -0.0014617 -0.018292 0.019123
-0.1565 0.14171 -0.025259 0.01515
-0.0034141 -0.0028179 0.0033972 0.00090728 0.0015353 0.0042342 -0.0055244 -0.0092682
-0.02517 0.015109 -0.19203 0.18944
920000000 -0.097904 0.27095 0.0051921 0.03779 -0.0095724 -0.004589 -0.0017959 0.0020606
0.00093816 0.0020255 0.0027635 -0.0016735
0.0051703 0.037782 -0.2617 0.30979 0.02856 0.021968 0.00162 0.0011513
0.0070164 -0.00059937 0.0038711 -0.0027603
-0.0095671 -0.0045727 0.028669 0.021906 0.066189 0.31698 0.0019011 -6.9817e-05
0.0012776 -0.00032836 0.00086761 -0.0011571
-0.0018243 0.0020325 0.0015806 0.0011487 0.0018859 -8.7154e-05 -0.11546 0.2582
-0.010588 0.031115 0.0035899 -0.0065406
0.00097233 0.0018903 0.0070332 -0.00060309 0.0012558 -0.00033911 -0.010602 0.030983
-0.14583 0.14831 -0.0026878 0.027633
0.002792 -0.0015249 0.0037482 -0.0028777 0.0008361 -0.0011601 0.0036177 -0.0066108
-0.0026451 0.027536 -0.20037 0.20384
980000000 -0.050692 0.29004 0.017722 0.03008 -0.0092655 0.0046466 0.0022036 0.0035168
0.0039481 -0.0013507 -0.003013 -0.0021801
0.017675 0.030068 -0.20897 0.34382 0.033445 0.0047017 0.0020964 -5.7639e-05
0.0013322 -0.0057892 -0.0001541 -0.0024607
-0.009241 0.0046593 0.033479 0.0045884 0.11259 0.31043 0.0004461 -0.0011393
0.00021729 -0.0021545 0.0015178 -0.0003379
0.0021348 0.0035125 0.0020408 -4.4265e-05 0.00041794 -0.0011569 -0.077313 0.26947
0.0083796 0.030024 -0.0091962 -0.0075419
0.0039475 -0.0014034 0.0013563 -0.0058143 0.00024556 -0.0021833 0.0084196 0.030016
-0.11512 0.17733 0.004823 0.019487
-0.0031028 -0.0021632 -0.00028006 -0.0026287 0.0014967 -0.00034798 -0.0093006 -0.0075692
0.0047676 0.019486 -0.15775 0.24891
1040000000 -0.0086624 0.2985 0.033479 0.017987 -0.0013152 0.0070262 0.0026671 0.00060492
6.1914e-05 -0.0037844 -0.00046274 -0.0013712
0.033451 0.017999 -0.17327 0.35697 0.029663 -0.015188 0.0014588 -0.0017453
-0.0027372 -0.0027501 -0.0015472 -0.0027192
-0.0012796 0.0070242 0.02961 -0.015305 0.15896 0.29686 -0.00057906 -0.0015599
-0.0016728 -0.00088813 -0.0005414 -0.0011372
0.002654 0.00055901 0.0014848 -0.0017442 -0.00057572 -0.0015577 -0.049649 0.27994
0.019988 0.018027 -0.0026007 0.0014829
-8.7154e-05 -0.0037763 -0.0028041 -0.0025717 -0.00166 -0.00085867 0.020027 0.018016
-0.083054 0.18588 0.013575 0.01843
-0.00040931 -0.0013795 -0.0015817 -0.0027922 -0.0005314 -0.0011456 -0.0026221 0.0015072
0.013607 0.018479 -0.13611 0.26922
1100000000 0.036821 0.30627 0.036008 -0.0044578 0.002933 0.0039714 0.0023543 -0.0013489
-0.0019953 -0.0032264 -0.003977 -3.9459e-05
0.035989 -0.0044221 -0.12998 0.37443 0.015002 -0.02827 -0.00012702 -0.0018573
-0.003376 -0.00069784 -0.0034869 -0.00056749
0.0029569 0.0039543 0.014909 -0.028363 0.20573 0.27627 -0.0019344 0.00031277
-0.0018357 0.00059942 -0.0011159 -0.00043054
0.0023611 -0.0013636 -0.00012408 -0.0018527 -0.001922 0.00031748 -0.0090317 0.28504
0.025112 0.0046179 -0.0026509 0.00027413
-0.0020441 -0.0031963 -0.0034625 -0.00064421 -0.0018729 0.00058462 0.025108 0.0045624
-0.065535 0.19961 0.019282 0.0087223
-0.0039824 3.4989e-05 -0.0034907 -0.0006066 -0.0011017 -0.0004546 -0.0026007 0.00025625
0.019276 0.0087196 -0.090645 0.29888
1160000000 0.088102 0.30128 0.023987 -0.021173 0.0027555 -0.00042655 -0.00036812 -0.0024027
-0.0042685 -0.00065263 -0.00087471 0.0042503
0.023988 -0.021122 -0.085925 0.37878 -0.0041618 -0.029411 -0.0017793 -0.0016658
-0.0026201 0.002628 -0.0013265 0.0019882
0.002755 -0.0004476 -0.0043169 -0.029428 0.24905 0.24486 -0.00056758 0.0018369
-0.00055489 0.0019624 -0.0010613 0.00028666
-0.00036483 -0.0024206 -0.0017824 -0.0016493 -0.00058182 0.0018349 0.03064 0.28234
0.021053 -0.011162 -0.003062 0.0052304
-0.0042501 -0.0006923 -0.0026145 0.0026347 -0.00056363 0.0019705 0.021068 -0.011188
-0.032302 0.20929 0.018404 0.00022488
-0.00093612 0.004247 -0.0013553 0.0019674 -0.0010457 0.00026192 -0.0030096 0.0051675
0.018385 0.00023195 -0.043783 0.30177
1220000000 0.13262 0.29005 0.010102 -0.030419 -0.0016099 -0.00081252 -3.2703e-05 -0.00093134
-0.002733 0.0025449 0.0014102 0.0021954
0.010117 -0.030375 -0.04121 0.39068 -0.017375 -0.021096 -0.0025415 0.00051721
0.0001254 0.0029451 -0.00065523 0.0019296
-0.0016027 -0.00081016 -0.017507 -0.02104 0.28795 0.20522 0.00099668 0.0016008
0.00064627 0.0011712 0.0002712 0.00070361
-5.3905e-05 -0.00092861 -0.0025594 0.00053152 0.00099665 0.001595 0.070749 0.2737
0.0099982 -0.017844 0.0020905 0.0015655
-0.0026907 0.0025698 0.00013578 0.0029657 0.00063726 0.0011547 0.0099938 -0.017839
-0.0093649 0.21919 0.014154 -0.013169
0.0013953 0.0021904 -0.00068012 0.0019553 0.00027038 0.00073549 0.0020699 0.0015861
0.014151 -0.013154 -0.012388 0.31868
1280000000 0.18245 0.26792 -0.0084731 -0.028642 -0.0017893 0.0025594 -0.00092295 -0.001976
-0.00074918 0.0032051 0.0025983 0.0011459
-0.0084605 -0.02862 0.0052187 0.38134 -0.024113 -0.0081344 -0.00091613 0.0015316
0.0017235 0.0017649 0.00068076 0.0020941
-0.0017805 0.0025701 -0.024184 -0.008033 0.31798 0.16093 0.0016073 -0.00011963
0.0010283 0.00030355 0.00039952 0.00034868
-0.0009207 -0.0019485 -0.00092345 0.0015381 0.0015924 -0.00012929 0.10774 0.25714
0.0001244 -0.019504 -4.6637e-05 0.00013178
-0.00070814 0.0031687 0.0017439 0.0017433 0.0010366 0.00030142 9.1784e-05 -0.019523
0.027569 0.22353 0.003032 -0.01528
0.0026042 0.001142 0.00066467 0.002113 0.0003827 0.00032991 -7.2726e-05 0.00012138
0.0030304 -0.015261 0.035802 0.32093
1340000000 0.21962 0.23371 -0.01817 -0.018702 0.00096133 0.0045047 -0.0017258 -0.00078283
0.0015311 0.0026955 0.0018197 -0.0014795
-0.018137 -0.018697 0.044757 0.37233 -0.021666 0.0047457 -2.9383e-05 0.0019553
0.0019115 0.00065536 0.0013788 0.00076065
0.00099403 0.0044808 -0.021667 0.0048614 0.33936 0.11289 0.001041 -0.00095975
0.00076172 -0.00050952 0.00023506 0.00035414
-0.0017414 -0.00076407 -3.5768e-05 0.00195 0.0010391 -0.00097822 0.14013 0.23655
-0.0093754 -0.016087 0.00085823 0.00053112
0.0015581 0.0027058 0.0019249 0.00064623 0.00074078 -0.00051472 -0.0094337 -0.016097
0.058295 0.21947 -0.004 -0.013682
0.0018011 -0.0014865 0.0013754 0.0007658 0.00019476 0.0003272 0.00086096 0.00046634
-0.0039981 -0.013683 0.074007 0.31626
1400000000 0.25235 0.19509 -0.02375 -0.0069524 0.005186 0.0030933 -0.0020136 0.000667
0.0025345 0.00088772 0.00029416 -0.0014219
-0.023715 -0.006968 0.08185 0.35866 -0.014629 0.01281 0.0013641 0.0012264
0.0010933 -0.00088333 0.0012976 0.00011191
0.0051923 0.0030689 -0.014593 0.012905 0.35192 0.059977 6.8987e-05 -0.0015829
3.6439e-05 -0.00042805 0.0005387 0.00031049
-0.0020082 0.00067783 0.0013714 0.0012058 5.6722e-05 -0.0016114 0.1695 0.2077
-0.015052 -0.0089584 -0.00077188 -0.00035455
0.0025432 0.00083255 0.0010755 -0.00090985 1.7336e-05 -0.00040003 -0.015069 -0.0089098
0.091723 0.21518 -0.01049 -0.0087265
0.00032161 -0.0014064 0.0012702 0.00011273 0.00054822 0.00028129 -0.00075944 -0.00036652
-0.010508 -0.0087306 0.11933 0.30507
1460000000 0.27468 0.15047 -0.020423 0.0053155 0.0055095 -0.0019598 -0.0015298 0.0017384
0.0022442 -0.0006441 -0.00042883 -0.00096922
-0.020401 0.0052947 0.11543 0.33632 -0.0058152 0.015383 0.0016851 0.00014643
0.00077274 -0.0012137 0.0010855 -0.00067788
0.0055056 -0.0019607 -0.0057421 0.015444 0.35791 0.0060088 -0.0012568 -0.0012177
0.00020653 -0.00031823 0.00057312 -0.00035378
-0.001521 0.0017384 0.0016884 0.0001386 -0.001271 -0.001192 0.19564 0.17858
-0.015794 -0.0018603 -0.00077644 0.0020239
0.0022476 -0.00069014 0.00076892 -0.0012446 0.00021727 -0.00032909 -0.015803 -0.0018295
0.12124 0.20059 -0.012272 -0.0026412
-0.00041406 -0.0009557 0.0010816 -0.0006944 0.00058093 -0.00034086 -0.00082318 0.001996
-0.012244 -0.0026651 0.15255 0.28438
1520000000 0.28615 0.10856 -0.014461 0.010826 0.0032265 -0.0041814 0.00014766 0.002589
0.0020134 -0.0018805 -0.0011699 -1.5971e-05
-0.014454 0.010798 0.14837 0.32139 0.0018107 0.013017 0.0015944 -0.00077657
-1.5702e-05 -0.00096836 0.00028118 -0.0010236
0.0032122 -0.0042045 0.0018848 0.013019 0.3512 -0.049851 -0.0010757 -0.00026734
0.00066884 -0.0008597 3.1641e-05 -0.00013144
0.00016538 0.0025947 0.0015901 -0.00076964 -0.0010796 -0.00026354 0.2188 0.14086
-0.014354 0.0038697 0.0015616 0.0019875
0.0020142 -0.0018489 -1.6501e-05 -0.00095499 0.00065005 -0.00088044 -0.014367 0.0039076
0.14954 0.18644 -0.011887 0.0021286
-0.0011706 -3.5606e-07 0.00026386 -0.0010282 1.2286e-05 -0.00012952 0.0015598 0.0019776
-0.011903 0.0021129 0.1859 0.26391
1580000000 0.29464 0.062545 -0.0075786 0.013657 -0.00088964 -0.0048641 0.0013986 0.0018487
-0.00046424 -0.0021719 -0.00031806 0.00045598
-0.0075864 0.013649 0.17499 0.29664 0.0053013 0.0080698 0.00044097 -0.0015776
-0.00052287 -0.00095536 -0.0003255 -0.00077789
-0.00092296 -0.0048654 0.0053437 0.0080479 0.33096 -0.10733 -0.0015438 0.00061131
-0.00037717 -0.0011225 0.00015815 -0.00054036
0.0014136 0.0018255 0.00043552 -0.0015848 -0.0015308 0.0006123 0.23264 0.10185
-0.010188 0.0083272 0.0023172 0.00074369
-0.0005042 -0.0021905 -0.00051801 -0.0009446 -0.00039413 -0.0011024 -0.010192 0.0083761
0.17398 0.16827 -0.0091316 0.0079559
-0.00032058 0.00049042 -0.00032413 -0.00077727 0.00012594 -0.00051766 0.0023253 0.00072359
-0.0091415 0.0079661 0.21812 0.23714
1640000000 0.29623 0.021743 -0.00077468 0.012322 -0.0027857 -0.0025721 0.00271 0.00096944
-0.00080326 -0.00139 -0.0001536 0.00053534
-0.00078789 0.01232 0.20397 0.27201 0.00593 0.0032952 -0.00070513 -0.001694
-0.00094953 -0.00037223 -0.00051674 -0.00064095
-0.0027895 -0.0025519 0.0059648 0.0032714 0.30316 -0.15603 -0.00067533 0.0013908
-0.0012122 -0.00099934 -6.384e-05 -0.00050594
0.0027387 0.00096103 -0.00070895 -0.0016855 -0.00068099 0.0013833 0.245 0.053428
-0.0056559 0.0087499 0.0024558 -0.00079376
-0.00079937 -0.0013915 -0.00094821 -0.00037706 -0.0012106 -0.00099292 -0.0056358 0.0087833
0.19668 0.1435 -0.0042598 0.0097532
-0.00012098 0.00053383 -0.0005279 -0.00062385 -6.0871e-05 -0.00054396 0.0024758 -0.0008227
-0.004251 0.0097677 0.24352 0.20634
1700000000 0.28864 -0.022965 0.0024976 0.0091535 -0.0035348 0.0001854 0.0029736 -0.0012045
-0.0020616 -0.00053678 0.00067302 0.00033038
0.0024804 0.0091468 0.22179 0.24088 0.0038471 0.00047889 -0.0014829 -0.00050168
-0.00073569 4.5183e-05 -0.0009031 -0.00037938
-0.0035409 0.00019202 0.0038518 0.0004615 0.26011 -0.19607 0.00040186 0.0017117
-0.0019831 -2.1287e-05 -0.00051504 -0.00090282
0.0029843 -0.0012193 -0.001478 -0.00049867 0.00041438 0.0017112 0.24214 0.0042312
-0.0032245 0.0085621 0.0014718 -0.0022535
-0.002087 -0.0005106 -0.00073884 4.9648e-05 -0.0019719 -2.3395e-05 -0.0032163 0.008575
0.21374 0.12317 0.00064516 0.0097433
0.00067969 0.00036555 -0.00090439 -0.00035302 -0.00049423 -0.00086997 0.0015192 -0.0022768
0.00062982 0.0097634 0.26004 0.17178
1760000000 0.2765 -0.070953 0.0045089 0.0057005 -0.0022781 0.0010411 0.0013241 -0.0033766
-0.0011983 0.00082338 0.00034656 -0.00067413
0.0045036 0.0057002 0.24763 0.2015 0.0014779 -0.0011789 -0.0011475 0.00026105
-0.00096492 0.00083662 -0.00052558 0.00041825
-0.0022767 0.0010513 0.001476 -0.0011772 0.21112 -0.2295 0.0011866 0.0011163
-0.0010699 0.0015483 -0.0013761 -0.00043007
0.0013021 -0.0033955 -0.001154 0.00026487 0.0012222 0.0011026 0.23342 -0.04684
-0.00058326 0.0073466 -0.00023576 -0.0025396
-0.0012308 0.00084474 -0.00097143 0.00084636 -0.0010515 0.0015468 -0.00055502 0.0073662
0.22804 0.087959 0.0046057 0.0069109
0.00031884 -0.00065605 -0.00053076 0.00045212 -0.0013485 -0.00039866 -0.00020716 -0.0025011
0.0045989 0.0069383 0.27285 0.13404
1820000000 0.25219 -0.1078 0.0044046 0.0022503 5.0773e-05 0.0024473 -0.0010341 -0.0029935
-0.00091058 0.00092257 -9.3617e-05 -9.7049e-05
0.0043957 0.0022477 0.2577 0.17184 -0.00035692 -5.5072e-05 -0.0012579 0.00095839
-7.0957e-05 0.0012765 -0.00041792 0.00053505
8.3686e-05 0.0024463 -0.00035087 -5.5125e-05 0.16123 -0.24559 0.0015091 0.0004164
-8.5047e-05 0.0022189 -0.0012531 0.0005343
-0.0010512 -0.0029965 -0.0012483 0.00094878 0.0015145 0.00040968 0.20421 -0.093781
0.00027546 0.0057137 -0.0017458 -0.0016375
-0.00092435 0.00091465 -6.3298e-05 0.0012723 -5.7429e-05 0.0022764 0.00030759 0.0057841
0.24482 0.05899 0.0053699 0.003062
-0.00011396 -7.0954e-05 -0.00040067 0.00054665 -0.0012622 0.000482 -0.001707 -0.0016277
0.0053536 0.0030816 0.27537 0.097801
1880000000 0.21756 -0.14788 0.0020649 0.00019211 -0.00037593 0.0020718 -0.0029749 -0.0021516
-6.1961e-05 0.001535 0.00025878 -0.00049359
0.0020615 0.00019074 0.26235 0.1256 -0.0023643 0.0016896 -0.00011411 0.0016441
0.00053128 0.0012287 0.00014596 0.00081669
-0.00034806 0.0020438 -0.002334 0.0017105 0.1091 -0.25517 0.0018982 -0.00099904
0.0015551 0.0018414 -0.00089442 0.0012579
-0.0029782 -0.0021341 -8.8308e-05 0.001642 0.0018822 -0.0010016 0.16427 -0.13424
0.00049822 0.0041274 -0.0026087 0.00034822
-5.4038e-05 0.0015364 0.00055562 0.0012304 0.0015513 0.0018731 0.00053145 0.0041294
0.24727 0.026619 0.0051555 0.00074436
0.00029105 -0.00046944 0.00017666 0.00081984 -0.00086918 0.0012026 -0.002608 0.00035896
0.0051523 0.0007033 0.27497 0.063319
1940000000 0.17848 -0.1739 -0.00010075 -0.0012953 0.0013254 0.0019945 -0.0038382 0.00053243
0.001245 0.00082489 -0.0006625 -0.00049234
-9.7482e-05 -0.0012874 0.26314 0.093877 -0.0011369 0.0038527 0.00098988 0.0012901
0.0018306 0.00052011 0.00077014 0.00022509
0.0012827 0.0020025 -0.0011351 0.0038664 0.06296 -0.24871 0.00036395 -0.0022112
0.0023534 0.00036707 0.00019126 0.0016205
-0.003806 0.00056875 0.0010096 0.0012844 0.00034693 -0.0022582 0.11248 -0.16491
-0.00069565 0.0033392 -0.0015076 0.0016959
0.0012502 0.00081688 0.0017929 0.00050681 0.0023906 0.00037994 -0.00065425 0.0033499
0.24868 -0.011884 0.0036553 -0.0026295
-0.00061984 -0.00046986 0.00078829 0.00024957 0.00025441 0.0015433 -0.0014829 0.0016644
0.0036805 -0.00263 0.26396 0.027199
2000000000 0.13213 -0.1889 -0.0037755 0.00065933 0.0025825 0.0016091 -0.0023148 0.0035626
0.0010083 0.00012306 -0.00060944 0.00037688
-0.0037744 0.00065998 0.24925 0.058378 -0.0010613 0.0056414 0.0015635 0.00033489
0.0013888 -0.0013965 0.00041231 0.00017616
0.0025667 0.0015771 -0.0010338 0.005651 0.018902 -0.23444 -0.0014751 -0.001369
0.0018795 -0.001235 0.0015776 0.0013193
-0.0022468 0.0035425 0.0016033 0.00029824 -0.0014633 -0.0014332 0.059079 -0.17558
-0.0021964 0.0035572 -0.00013092 0.0023896
0.00096471 9.3342e-05 0.0013963 -0.0013952 0.0019091 -0.0012233 -0.0022287 0.0035132
0.24254 -0.045398 -5.5002e-05 -0.0032307
