!Keysight Technologies,M9804A,MY58100912,A.14.10.03
!Date: Thursday, April 27, 2023 10:28:33
!Correction: S11(C  6-Port  ) 
!S12(C  6-Port  ) 
!S13(C  6-Port  ) 
!S14(C  6-Port  ) 
!S15(C  6-Port  ) 
!S16(C  6-Port  ) 
!S21(C  6-Port  ) 
!S22(C  6-Port  ) 
!S23(C  6-Port  ) 
!S24(C  6-Port  ) 
!S25(C  6-Port  ) 
!S26(C  6-Port  ) 
!S31(C  6-Port  ) 
!S32(C  6-Port  ) 
!S33(C  6-Port  ) 
!S34(C  6-Port  ) 
!S35(C  6-Port  ) 
!S36(C  6-Port  ) 
!S41(C  6-Port  ) 
!S42(C  6-Port  ) 
!S43(C  6-Port  ) 
!S44(C  6-Port  ) 
!S45(C  6-Port  ) 
!S46(C  6-Port  ) 
!S51(C  6-Port  ) 
!S52(C  6-Port  ) 
!S53(C  6-Port  ) 
!S54(C  6-Port  ) 
!S55(C  6-Port  ) 
!S56(C  6-Port  ) 
!S61(C  6-Port  ) 
!S62(C  6-Port  ) 
!S63(C  6-Port  ) 
!S64(C  6-Port  ) 
!S65(C  6-Port  ) 
!S66(C  6-Port  ) 
!S6P File: Measurement: :
# Hz S  RI   R 50
500000000 -0.33652 -0.039048 -0.0096472 -0.0021077 -0.0076768 0.012574 -0.0042801 0.012121
0.012982 0.0046443 -0.0046028 0.0088842
-0.00959 -0.0021081 -0.41917 -0.051415 0.0083172 -0.011017 0.001648 0.012073
0.0074318 0.002603 0.0015652 0.013441
-0.0075977 0.012557 0.0082544 -0.011011 -0.26468 0.20872 0.0079357 0.0032577
-0.0018393 0.0079264 0.0016347 0.011788
-0.0042358 0.012265 0.0016641 0.011997 0.0078544 0.0031878 -0.33046 0.044428
-0.017859 -0.0068491 0.015235 0.026087
0.013083 0.0044653 0.0073545 0.0025749 -0.0018508 0.0079865 -0.017915 -0.0068122
-0.22368 -0.19336 -0.024601 0.0047201
-0.0047766 0.0090958 0.0017084 0.013294 0.0016576 0.0116 0.015194 0.026065
-0.024631 0.0045778 -0.2686 -0.13076
560000000 -0.31585 0.12355 -0.023789 -0.064392 0.00042806 0.01185 0.0055055 0.010366
0.0099327 0.0041973 0.010828 0.0076082
-0.023786 -0.064384 -0.37812 0.10756 -0.040998 -0.038005 0.013088 0.0037901
-0.011917 -0.0045786 0.0031171 -0.00011598
0.0004904 0.01186 -0.041092 -0.03787 -0.18285 0.25701 -0.00039874 -0.0049878
0.01915 0.0051005 0.0069212 -0.0065489
0.005515 0.01041 0.012942 0.0038514 -0.00033149 -0.0049614 -0.30565 0.13273
0.0052599 -0.024207 0.0037416 -0.021977
0.010086 0.0041721 -0.011782 -0.0043995 0.019013 0.0049233 0.0052631 -0.024199
-0.28997 -0.019543 0.0089017 -0.048589
0.011013 0.0076989 0.0031011 -0.00019592 0.0068296 -0.0064413 0.0037039 -0.022026
0.0089574 -0.048616 -0.32852 0.017308
620000000 -0.27457 0.10709 -0.02311 0.0077595 0.0028908 0.0083975 0.0081172 -0.0053935
0.011031 -0.00039867 0.001795 -0.0025118
-0.023091 0.0077399 -0.40238 0.059594 -0.018855 -8.8751e-05 -0.0014474 -0.0021554
0.011288 -0.0066116 0.0012552 -0.0032687
0.0029621 0.0083976 -0.018878 -7.0838e-05 -0.15398 0.26614 -0.0018465 -0.005206
-0.0030144 -0.0025687 0.008229 -0.0036807
0.008094 -0.0054219 -0.001399 -0.0021812 -0.0018626 -0.0052026 -0.26483 0.14338
-0.03815 -0.01944 0.012315 0.025794
0.011018 -0.00023979 0.011246 -0.0066126 -0.0029816 -0.0026233 -0.038026 -0.01934
-0.20777 -0.058171 -0.04179 0.014028
0.0018145 -0.002234 0.0013305 -0.0032401 0.0084037 -0.0039121 0.012397 0.025872
-0.041782 0.013942 -0.25055 -0.019512
680000000 -0.23432 0.19191 -0.02749 -0.014473 0.0049931 0.0052849 0.00098089 -0.0070301
-0.0035081 -0.011121 0.0046877 -0.0065832
-0.027454 -0.014463 -0.38759 0.1571 -0.033163 -0.0014321 -0.0019435 -0.00056289
-0.0023195 -0.0085657 -0.0015019 -0.0018312
0.0049995 0.0052792 -0.033192 -0.0013574 -0.10288 0.28586 -0.00082028 1.0657e-05
-0.001983 0.00088652 -0.0030079 -0.009055
0.00090578 -0.0070182 -0.0019066 -0.00057915 -0.00077063 4.2503e-05 -0.2205 0.19301
-0.024065 -0.0080785 -0.0095965 -0.010552
-0.0034669 -0.010956 -0.0023182 -0.0086 -0.0020097 0.00092425 -0.024082 -0.0080785
-0.25889 0.040512 -0.0051187 -0.0085253
0.0048467 -0.0066881 -0.0015645 -0.0018579 -0.003106 -0.0091146 -0.0095787 -0.010537
-0.0051201 -0.0085244 -0.2611 0.087019
740000000 -0.19049 0.18686 -0.03883 0.02661 0.012816 -0.0049978 -0.00025126 -0.0041832
-0.0046827 -0.0023797 -0.0057449 0.0025018
-0.038798 0.026565 -0.33485 0.17614 -0.035513 0.035442 -0.00058439 -0.0061419
-0.011646 0.0080909 -0.0018464 -0.00652
0.012808 -0.0050046 -0.035466 0.035599 -0.069332 0.28465 -0.0019512 0.0034022
-0.002073 -0.0046379 -0.0017939 4.373e-05
-0.0002586 -0.0041873 -0.00063239 -0.0061644 -0.0019239 0.0034025 -0.20393 0.20123
-0.043718 -0.007228 0.02264 0.014781
-0.0046197 -0.0024281 -0.011676 0.0080101 -0.0019593 -0.0046828 -0.043855 -0.0072389
-0.15921 0.065803 -0.044141 0.00015964
-0.0057009 0.0024787 -0.0018966 -0.0063104 -0.0018464 7.7178e-06 0.022671 0.014856
-0.044133 0.00013384 -0.2491 0.093111
800000000 -0.15768 0.22727 -0.022653 0.016714 0.0054472 -0.010648 -0.0048073 -0.0019665
-0.0040763 0.0024031 0.0047876 0.00069054
-0.022667 0.016701 -0.33832 0.24639 -0.0078969 0.034215 -0.002264 0.0022976
-0.00017954 0.0030841 0.0010553 0.0053231
0.0054155 -0.010691 -0.0078013 0.034274 -0.028475 0.3081 0.0011387 0.0014232
0.00056451 0.0033323 -0.0016696 0.000931
-0.0048128 -0.0019785 -0.0022857 0.0022828 0.0011407 0.0014049 -0.17581 0.22933
-0.028966 0.013706 0.013506 -0.0098978
-0.0040388 0.0024865 -0.0001384 0.0031239 0.00056279 0.0033568 -0.028999 0.013705
-0.20688 0.089888 -0.017904 0.018775
0.0048201 0.00067969 0.0010996 0.0053365 -0.0016349 0.00092183 0.013484 -0.0099242
-0.017917 0.018733 -0.24367 0.143
860000000 -0.12333 0.24787 -0.017591 0.03079 -0.0034231 -0.01004 -0.002503 0.00097315
0.0042752 0.0046891 -0.0031641 -0.0029046
-0.017598 0.030742 -0.29094 0.2887 0.0079358 0.034431 1.4424e-05 0.0019651
0.0047067 -0.0001494 0.0032869 0.00085192
-0.0034606 -0.010023 0.0080557 0.034431 0.019669 0.31621 -0.00062342 -0.00043669
0.0029236 -0.0016277 0.001452 0.0044472
-0.0025123 0.00094418 2.4516e-05 0.0019883 -0.0006148 -0.00044177 -0.13969 0.24059
-0.018169 0.018858 -0.0058121 -0.0092758
0.0043207 0.0047652 0.004683 -0.00010806 0.0029269 -0.0017231 -0.018081 0.01888
-0.15671 0.14105 -0.02618 0.015585
-0.0032607 -0.0028525 0.0032466 0.00081064 0.0014814 0.0045231 -0.0057496 -0.0092546
-0.02617 0.015589 -0.1925 0.18871
920000000 -0.098328 0.27109 0.0050878 0.038183 -0.0095913 -0.0043657 -0.0018028 0.0021435
0.00093953 0.0019388 0.0026791 -0.001573
0.0050772 0.038176 -0.26173 0.31022 0.028325 0.022171 0.0014745 0.0011553
0.0068778 -0.00065507 0.0039704 -0.0026817
-0.0096035 -0.0043417 0.028435 0.022085 0.066257 0.31694 0.0017185 -7.316e-05
0.0011823 -0.0003746 0.00099719 -0.0010315
-0.0018044 0.0021533 0.0014903 0.0011094 0.0017259 -4.5424e-05 -0.11588 0.25807
-0.010927 0.030875 0.0035615 -0.0065341
0.00086217 0.00194 0.0068288 -0.00070593 0.0011742 -0.00034007 -0.010895 0.030921
-0.14693 0.14801 -0.0029926 0.02759
0.0027229 -0.0015451 0.0039802 -0.0027216 0.00096808 -0.0010652 0.0035511 -0.0065409
-0.0030171 0.027574 -0.20095 0.2025
980000000 -0.050863 0.29042 0.017639 0.030278 -0.0091138 0.0047779 0.0021928 0.0035357
0.0039881 -0.0014289 -0.0031277 -0.0021398
0.017604 0.030295 -0.20902 0.34399 0.033349 0.0047464 0.0020989 -0.00010194
0.0013187 -0.005834 -0.00033709 -0.0023478
-0.0090995 0.004815 0.033379 0.0046372 0.11274 0.31019 0.00046394 -0.0011342
0.00015965 -0.0020568 0.0014691 -0.00018105
0.0021925 0.0035441 0.0021185 -0.00011392 0.00047291 -0.0011237 -0.077423 0.26989
0.0080594 0.030187 -0.0092299 -0.0072519
0.003969 -0.0014619 0.0012572 -0.0057771 0.0001955 -0.0020563 0.0081348 0.030189
-0.11605 0.17723 0.0050916 0.019619
-0.0031199 -0.0021494 -0.00033976 -0.0023346 0.0014968 -0.00023007 -0.0092425 -0.0072595
0.0050765 0.019638 -0.15879 0.24785
1040000000 -0.0085461 0.29883 0.033373 0.018203 -0.0011701 0.0071061 0.0026638 0.00058997
1.2408e-05 -0.0038375 -0.00030465 -0.0012715
0.033355 0.018238 -0.17311 0.35705 0.029559 -0.015041 0.0014349 -0.0017296
-0.0026911 -0.0024915 -0.0014519 -0.0025161
-0.0011361 0.0071038 0.029505 -0.015143 0.1589 0.29644 -0.00051522 -0.0014873
-0.0016129 -0.0008651 -0.00034308 -0.0011247
0.0026538 0.00059446 0.0013958 -0.0017646 -0.00050659 -0.0015077 -0.049703 0.28011
0.019684 0.018133 -0.0024053 0.001684
-1.2369e-05 -0.0038587 -0.0027487 -0.0024615 -0.0016229 -0.00083623 0.019702 0.0181
-0.083885 0.18563 0.01332 0.018667
-0.00026564 -0.0012876 -0.0014526 -0.002499 -0.00034425 -0.0011214 -0.0024236 0.0017047
0.013297 0.018646 -0.13697 0.26836
1100000000 0.037021 0.30653 0.036019 -0.004241 0.0030954 0.0039036 0.0023607 -0.0015031
-0.0020731 -0.0031457 -0.0038143 1.4695e-05
0.036013 -0.004188 -0.12973 0.37439 0.01508 -0.028034 -7.1611e-05 -0.0018422
-0.0032496 -0.00055259 -0.0033137 -0.00047842
0.003084 0.0038879 0.01498 -0.02813 0.20542 0.27591 -0.0018149 0.00031111
-0.0017263 0.00056968 -0.0010271 -0.00052401
0.0023287 -0.0015174 -6.94e-05 -0.0018595 -0.0018082 0.0003173 -0.0089575 0.28515
0.024782 0.00481 -0.0025305 0.00024225
-0.0021121 -0.0031504 -0.0032843 -0.00052768 -0.0017301 0.00057544 0.024812 0.0047884
-0.06612 0.19971 0.019055 0.0087506
-0.0038402 6.7614e-05 -0.003398 -0.00046052 -0.0010373 -0.00055975 -0.0025107 0.00024829
0.019043 0.0087659 -0.091532 0.29858
1160000000 0.088403 0.3012 0.024128 -0.020974 0.0028158 -0.00059449 -0.0003486 -0.0025136
-0.0042188 -0.00069349 -0.00089325 0.0041503
0.024139 -0.020934 -0.085585 0.37848 -0.0039632 -0.029224 -0.0017339 -0.0016159
-0.0025478 0.0025616 -0.001254 0.0018742
0.0028193 -0.00063423 -0.0040924 -0.02924 0.2485 0.24473 -0.0006044 0.0017487
-0.00053231 0.0018972 -0.00095888 0.00022897
-0.00034257 -0.0025017 -0.0017511 -0.0016345 -0.00062298 0.0017488 0.03083 0.28239
0.021054 -0.01066 -0.0028859 0.0052785
-0.0042232 -0.00066644 -0.0025675 0.0025478 -0.0005539 0.0019169 0.021051 -0.010678
-0.032458 0.20978 0.018196 0.00055044
-0.00089727 0.004168 -0.0012669 0.0018982 -0.00094315 0.00024614 -0.00288 0.0053036
0.018188 0.00054462 -0.044526 0.30171
1220000000 0.13276 0.28981 0.010392 -0.030243 -0.0015033 -0.00098142 -0.00012452 -0.00090233
-0.0026555 0.0025493 0.0013974 0.0020056
0.010404 -0.030191 -0.041088 0.39026 -0.01704 -0.021098 -0.0024906 0.00049611
0.00012448 0.002922 -0.00069938 0.0018532
-0.0015013 -0.00097751 -0.017146 -0.02105 0.28758 0.20554 0.00088668 0.0015098
0.00060878 0.001129 0.00030049 0.00071902
-0.00013605 -0.00089071 -0.0024848 0.0004956 0.00087684 0.0014984 0.070832 0.27359
0.010146 -0.017344 0.0023983 0.0014672
-0.0026276 0.0025798 0.00013634 0.0029007 0.00061873 0.0011012 0.010108 -0.017383
-0.0093492 0.21932 0.014404 -0.012805
0.0014144 0.0020079 -0.00071043 0.0018418 0.00032415 0.00068138 0.0023843 0.0014632
0.014415 -0.012787 -0.013127 0.31855
1280000000 0.18248 0.26756 -0.0080495 -0.028576 -0.0019207 0.002294 -0.0009308 -0.0018864
-0.00075249 0.0030593 0.0024508 0.001066
-0.0080361 -0.028548 0.0050619 0.38087 -0.023832 -0.0082796 -0.0008449 0.0014478
0.0016602 0.0016262 0.00064747 0.0020631
-0.0019165 0.0023063 -0.023896 -0.0081736 0.31776 0.16135 0.0015324 -0.00011506
0.001064 0.00029768 0.00043071 0.00040735
-0.00093284 -0.0018877 -0.00084357 0.0014356 0.0015197 -0.00011115 0.10766 0.25688
0.00057062 -0.019007 0.00010475 -1.5423e-05
-0.00072697 0.0030708 0.0017045 0.0016189 0.0010993 0.00030083 0.00051766 -0.019019
0.027606 0.22358 0.0032374 -0.014864
0.0024788 0.0010802 0.00067201 0.0020769 0.00048223 0.0004345 8.9982e-05 -1.6685e-05
0.0032532 -0.014865 0.035316 0.32101
1340000000 0.2194 0.23334 -0.017766 -0.019015 0.00082131 0.0043594 -0.0016944 -0.00073066
0.0014978 0.0026947 0.0017064 -0.0014235
-0.017731 -0.019015 0.044368 0.37207 -0.021472 0.0043794 -6.6187e-05 0.0019139
0.0018309 0.00073728 0.0013285 0.00081219
0.00083872 0.0043446 -0.021464 0.0045081 0.33956 0.11334 0.0010164 -0.00087779
0.00063751 -0.00043681 0.00023263 0.00038153
-0.0017119 -0.00072822 -4.7907e-05 0.0019119 0.0010223 -0.00087401 0.13987 0.23643
-0.0087593 -0.015976 0.00092401 0.00033873
0.0015038 0.0026945 0.0018358 0.00072795 0.00063076 -0.0004219 -0.0087842 -0.015964
0.058222 0.21929 -0.0034785 -0.013412
0.0016941 -0.0014418 0.0013487 0.00078435 0.00024375 0.00037483 0.00092799 0.00032883
-0.0034821 -0.013423 0.073497 0.31653
1400000000 0.2521 0.19475 -0.02352 -0.0074499 0.0050008 0.0030986 -0.0019822 0.00064451
0.0023956 0.00082954 0.00027687 -0.0013271
-0.023483 -0.0074749 0.081413 0.35858 -0.014705 0.012406 0.0012533 0.0012395
0.0010538 -0.00078624 0.001201 0.0002224
0.0050188 0.0030603 -0.014662 0.0125 0.35253 0.059988 0.00010541 -0.0015415
1.2665e-05 -0.00042979 0.00046796 0.00026496
-0.0019904 0.00066597 0.0012571 0.0012368 0.00010588 -0.0015339 0.16927 0.20777
-0.014333 -0.0091267 -0.0008068 -0.00062452
0.0024166 0.00081914 0.0010516 -0.00078224 7.8472e-06 -0.00043683 -0.01435 -0.0091023
0.091491 0.21492 -0.0098581 -0.0088205
0.00027678 -0.0013182 0.0011964 0.00019418 0.00045843 0.00028949 -0.00079997 -0.000614
-0.0098563 -0.0088148 0.11897 0.30546
1460000000 0.27414 0.15054 -0.020548 0.004728 0.0054771 -0.0018356 -0.0015308 0.0016632
0.0020839 -0.00064073 -0.00036927 -0.00099012
-0.020539 0.0047068 0.11505 0.33647 -0.0060099 0.015152 0.0016444 0.00019783
0.00084377 -0.0012212 0.0011503 -0.00064269
0.0054792 -0.0018637 -0.0059486 0.015206 0.35831 0.0057056 -0.0012341 -0.0011634
0.00014676 -0.00027167 0.00060321 -0.00028071
-0.0015405 0.0016696 0.0016475 0.00019605 -0.001228 -0.001173 0.19542 0.17881
-0.01523 -0.0024134 -0.00094831 0.0018767
0.0020879 -0.00063684 0.00081442 -0.0012228 0.00017076 -0.0002667 -0.015235 -0.0023868
0.12098 0.20021 -0.011759 -0.0028532
-0.00038699 -0.00098687 0.0011431 -0.00063229 0.00062042 -0.00028141 -0.00095945 0.0018707
-0.011775 -0.0028627 0.15204 0.28463
1520000000 0.28577 0.10896 -0.014857 0.010423 0.0031928 -0.004055 0.00010353 0.0025636
0.001992 -0.0017573 -0.0010944 -7.8802e-05
-0.014843 0.010407 0.14815 0.32174 0.0015147 0.012926 0.0016166 -0.00071172
2.6458e-05 -0.00096208 0.00031853 -0.0010294
0.003196 -0.004059 0.0015817 0.012923 0.35156 -0.050425 -0.00097102 -0.00028786
0.00059326 -0.00081126 4.7589e-05 -0.00014099
0.00010829 0.0025742 0.001615 -0.00071162 -0.00097999 -0.00029425 0.21871 0.14122
-0.014289 0.0030369 0.0012951 0.0020138
0.0019823 -0.0017739 4.8441e-06 -0.00096989 0.00059812 -0.00081789 -0.014288 0.0030726
0.14888 0.18612 -0.011594 0.0015784
-0.0010958 -6.8479e-05 0.00031165 -0.0010373 4.2467e-05 -0.00016413 0.0012921 0.0020129
-0.011598 0.001583 0.18556 0.26427
1580000000 0.29468 0.063091 -0.0081111 0.013561 -0.00094813 -0.0047103 0.0013458 0.0018651
-0.00041347 -0.0020691 -0.00031897 0.00039548
-0.0081179 0.013548 0.175 0.29709 0.0050148 0.0081824 0.00048468 -0.0015321
-0.00052657 -0.00099693 -0.00027952 -0.00076845
-0.00097572 -0.0047195 0.005068 0.0081569 0.33112 -0.10781 -0.0015209 0.00052472
-0.00033242 -0.0010626 0.00015404 -0.00047982
0.0013509 0.0018757 0.00048182 -0.0015349 -0.0015251 0.00053643 0.23285 0.10217
-0.010608 0.0076429 0.0021807 0.00089949
-0.00042341 -0.0020533 -0.00054633 -0.00098525 -0.00032465 -0.001074 -0.0106 0.00767
0.17337 0.16813 -0.0091829 0.0073985
-0.00032783 0.0003958 -0.0002861 -0.00076596 0.00013985 -0.00049674 0.002176 0.00088729
-0.0091815 0.0073938 0.21807 0.23739
1640000000 0.29658 0.022174 -0.0012798 0.012466 -0.0026661 -0.0024913 0.002706 0.00098308
-0.00063671 -0.0014089 -0.00018222 0.00052368
-0.0012937 0.012457 0.20423 0.27233 0.0057916 0.0034685 -0.00061292 -0.0017028
-0.00095016 -0.00037372 -0.00047238 -0.00065733
-0.0026877 -0.0024611 0.005826 0.0034484 0.30292 -0.15687 -0.00067675 0.0013812
-0.001042 -0.0010072 -8.4156e-05 -0.00051335
0.0026984 0.0009733 -0.00062815 -0.0016952 -0.00067812 0.0013964 0.24537 0.053547
-0.0063962 0.0084248 0.0024088 -0.00068551
-0.00065237 -0.0014085 -0.00096912 -0.00034924 -0.0010693 -0.00099986 -0.0063835 0.0084418
0.19583 0.14365 -0.0045801 0.0092618
-0.00017801 0.00053207 -0.00048832 -0.00064886 -0.00010195 -0.0005421 0.0024046 -0.0007047
-0.0045676 0.0092621 0.24341 0.20636
1700000000 0.28924 -0.02291 0.0021644 0.0095334 -0.0032784 0.00015742 0.0029702 -0.0011651
-0.001979 -0.00065335 0.00067187 0.00039141
0.0021588 0.0095195 0.22216 0.24107 0.0037456 0.00074561 -0.0014301 -0.00058552
-0.00072359 5.5578e-05 -0.00087436 -0.00039321
-0.0032831 0.00015982 0.0037561 0.00073209 0.25944 -0.19674 0.00039329 0.0016588
-0.0018541 -0.0001699 -0.00045605 -0.00088118
0.0029758 -0.0011781 -0.0014442 -0.00057363 0.00039464 0.0016495 0.24256 0.004069
-0.0039644 0.0086927 0.0014084 -0.0021417
-0.0019873 -0.00063184 -0.00072418 5.7598e-05 -0.0018383 -0.00013845 -0.0039573 0.0087134
0.21299 0.12349 0.000161 0.0094527
0.00068606 0.0003797 -0.00088226 -0.00037856 -0.00045186 -0.00082421 0.0014101 -0.0021514
0.00016994 0.0094529 0.25994 0.17173
1760000000 0.27707 -0.071198 0.0044472 0.0062295 -0.0021214 0.00087233 0.0013259 -0.0033605
-0.0012242 0.00073228 0.00041087 -0.00062401
0.0044408 0.0062351 0.24803 0.20143 0.0016551 -0.00093545 -0.0011706 0.0001704
-0.00093296 0.00084159 -0.00053293 0.00040529
-0.0021074 0.00089321 0.0016593 -0.00094056 0.21043 -0.22947 0.0012077 0.0011194
-0.0010425 0.0014026 -0.0013773 -0.00053592
0.0013018 -0.0033711 -0.0011652 0.00017123 0.0012171 0.0011276 0.23372 -0.047226
-0.001033 0.0078197 -0.0002077 -0.0024526
-0.0012064 0.00072273 -0.0009289 0.00085326 -0.0010678 0.0013986 -0.0010076 0.0078241
0.22761 0.088497 0.0040262 0.0068991
0.00040264 -0.00065898 -0.00053599 0.00041029 -0.0014004 -0.000549 -0.00022834 -0.0024566
0.0040313 0.0068845 0.27256 0.13405
1820000000 0.25249 -0.10834 0.0045756 0.0026835 -4.5034e-05 0.0023591 -0.00097251 -0.0030111
-0.0010374 0.00087982 -8.3796e-05 -0.00010971
0.0045794 0.002683 0.25803 0.17163 -0.00020069 3.8871e-05 -0.0013081 0.00093689
-6.1283e-05 0.0012363 -0.0004695 0.00049659
-2.0131e-05 0.0023679 -0.0002053 4.5471e-05 0.16092 -0.24552 0.0014606 0.00048156
-0.00029261 0.002214 -0.001321 0.00038694
-0.00097832 -0.0029975 -0.0013057 0.00094224 0.0014635 0.00045584 0.20415 -0.09431
6.2951e-05 0.0063053 -0.0015665 -0.0015263
-0.0010202 0.00089102 -3.7902e-05 0.0012497 -0.00026814 0.0022211 7.5618e-05 0.0063179
0.24443 0.059676 0.0049262 0.0033885
-7.9929e-05 -0.00011183 -0.0004592 0.00049527 -0.0012881 0.00039612 -0.0015734 -0.0015193
0.0049418 0.0033858 0.275 0.098039
1880000000 0.2175 -0.14862 0.0024393 0.00044453 -0.00043771 0.0019561 -0.0028759 -0.0021436
-0.00018427 0.0016237 0.00022989 -0.0004661
0.0024369 0.00043849 0.26254 0.12525 -0.0021633 0.0016836 -0.00020135 0.0017039
0.00056294 0.0011459 0.00012103 0.00082609
-0.00040819 0.0019508 -0.0021452 0.0017042 0.10842 -0.25525 0.001786 -0.00097951
0.0014879 0.0018929 -0.00091896 0.0012079
-0.0028913 -0.0021292 -0.00018621 0.0017063 0.0017793 -0.00097035 0.16397 -0.13466
0.00062741 0.004588 -0.002423 0.00044793
-0.00017359 0.001625 0.00056648 0.0011343 0.0014695 0.0019208 0.00063239 0.0045843
0.24716 0.027324 0.004894 0.0011406
0.00021171 -0.00047694 0.00012972 0.0008243 -0.00094869 0.0012056 -0.0024092 0.00045384
0.0048891 0.0011482 0.27451 0.063618
1940000000 0.17799 -0.17457 0.00032705 -0.0013305 0.0013398 0.0019874 -0.0038161 0.00050543
0.0012723 0.00093485 -0.00060969 -0.00046599
0.00032966 -0.0013214 0.26321 0.09354 -0.00098687 0.0038484 0.0010126 0.0013667
0.0017692 0.00045509 0.00078617 0.00022708
0.0013856 0.0019874 -0.00096839 0.0038626 0.062493 -0.24845 0.00041101 -0.0022172
0.0023958 0.00049783 0.00018116 0.0015799
-0.0037985 0.00053393 0.0010171 0.0013615 0.00043412 -0.0022268 0.11193 -0.16525
-0.00031271 0.0037005 -0.0014214 0.0015068
0.0012523 0.00092514 0.0017679 0.00043792 0.0024013 0.00049202 -0.00031467 0.0036959
0.24888 -0.011172 0.0036727 -0.0022124
-0.00058889 -0.00044555 0.00077916 0.00024454 0.00017144 0.001556 -0.0014575 0.0015057
0.003675 -0.0022128 0.26355 0.027712
2000000000 0.13172 -0.18904 -0.003474 0.00054194 0.0024283 0.0015582 -0.0023019 0.0035119
0.001115 0.00012831 -0.00066729 0.00031801
-0.0034852 0.00054689 0.24921 0.058049 -0.00090097 0.0055783 0.0016839 0.00037895
0.0013204 -0.0013258 0.00041389 0.00013779
0.0024238 0.0015729 -0.00088018 0.0055851 0.018748 -0.23379 -0.001356 -0.0012673
0.0020055 -0.0011684 0.0016241 0.0012222
-0.0022826 0.0035571 0.0016948 0.00037729 -0.0013355 -0.0012886 0.058609 -0.17556
-0.0017888 0.0037012 -4.7102e-05 0.0022208
0.0010967 0.00010966 0.0013147 -0.0013332 0.0020359 -0.0011253 -0.0017812 0.0037197
