!Keysight Technologies,M9804A,MY58100912,A.14.10.03
!Date: Thursday, April 27, 2023 10:28:33
!Correction: S11(C  6-Port  ) 
!S12(C  6-Port  ) 
!S13(C  6-Port  ) 
!S14(C  6-Port  ) 
!S15(C  6-Port  ) 
!S16(C  6-Port  ) 
!S21(C  6-Port  ) 
!S22(C  6-Port  ) 
!S23(C  6-Port  ) 
!S24(C  6-Port  ) 
!S25(C  6-Port  ) 
!S26(C  6-Port  ) 
!S31(C  6-Port  ) 
!S32(C  6-Port  ) 
!S33(C  6-Port  ) 
!S34(C  6-Port  ) 
!S35(C  6-Port  ) 
!S36(C  6-Port  ) 
!S41(C  6-Port  ) 
!S42(C  6-Port  ) 
!S43(C  6-Port  ) 
!S44(C  6-Port  ) 
!S45(C  6-Port  ) 
!S46(C  6-Port  ) 
!S51(C  6-Port  ) 
!S52(C  6-Port  ) 
!S53(C  6-Port  ) 
!S54(C  6-Port  ) 
!S55(C  6-Port  ) 
!S56(C  6-Port  ) 
!S61(C  6-Port  ) 
!S62(C  6-Port  ) 
!S63(C  6-Port  ) 
!S64(C  6-Port  ) 
!S65(C  6-Port  ) 
!S66(C  6-Port  ) 
!S6P File: Measurement: :
# Hz S  RI   R 50
500000000 -0.33681 -0.0391 -0.0093463 -0.0022455 -0.0075177 0.012406 -0.0040234 0.012266
0.012796 0.004484 -0.004392 0.0088885
-0.0093079 -0.0022818 -0.41918 -0.051593 0.0080102 -0.010968 0.0016091 0.011903
0.0074574 0.002685 0.0016943 0.013349
-0.0075833 0.012338 0.007974 -0.01099 -0.26487 0.20892 0.0077833 0.003246
-0.0016206 0.0077794 0.0019102 0.0118
-0.0040068 0.012262 0.0016223 0.011895 0.0077832 0.0032308 -0.33047 0.043813
-0.01789 -0.0064914 0.015399 0.02528
0.012723 0.004541 0.0074859 0.0026782 -0.0015921 0.0077663 -0.017886 -0.0064612
-0.22388 -0.19386 -0.024692 0.0048914
-0.00439 0.0088385 0.0017767 0.013459 0.0019766 0.011763 0.015508 0.025259
-0.024853 0.0048728 -0.26776 -0.13214
560000000 -0.31613 0.12342 -0.023816 -0.064128 0.0006333 0.011736 0.0051314 0.01031
0.010058 0.0040655 0.010723 0.007361
-0.023796 -0.064096 -0.37763 0.10747 -0.041427 -0.037607 0.013348 0.0034956
-0.012549 -0.0041911 0.0030134 -0.0002921
0.00072745 0.011757 -0.041537 -0.037554 -0.18291 0.25672 -9.5653e-05 -0.0043405
0.018997 0.004868 0.0070724 -0.0063098
0.0051448 0.010285 0.013404 0.0035033 -0.00011942 -0.0043148 -0.30524 0.13218
0.0055123 -0.023477 0.003867 -0.021678
0.010122 0.0040721 -0.012673 -0.0040495 0.019019 0.0047585 0.0055332 -0.023518
-0.28927 -0.020164 0.0086588 -0.048761
0.010741 0.0073471 0.0030763 -0.00032197 0.0070061 -0.0062446 0.0037828 -0.021787
0.0086468 -0.04867 -0.32889 0.017624
620000000 -0.27494 0.10699 -0.023195 0.0076898 0.0029068 0.0085923 0.0080587 -0.0054329
0.010762 -0.00057073 0.0016529 -0.0025853
-0.023216 0.0076818 -0.40224 0.059599 -0.018684 -0.00020363 -0.0014277 -0.0020516
0.01157 -0.0067727 0.0013651 -0.0034635
0.0028731 0.0085232 -0.018703 -0.00014492 -0.15397 0.26563 -0.0016788 -0.0052387
-0.0027948 -0.0027583 0.0084432 -0.0036125
0.0080487 -0.0054504 -0.0014661 -0.0020463 -0.0016857 -0.0052453 -0.26524 0.14345
-0.037808 -0.019127 0.011817 0.026436
0.010772 -0.00066253 0.011593 -0.0068167 -0.0027894 -0.0027815 -0.037763 -0.019064
-0.20733 -0.058995 -0.041038 0.013
0.0016511 -0.0027081 0.0014048 -0.003487 0.008511 -0.0035199 0.011714 0.026463
-0.040896 0.012966 -0.25023 -0.01957
680000000 -0.23433 0.19185 -0.027359 -0.014518 0.0050492 0.0053341 0.0012778 -0.0071135
-0.0032445 -0.011161 0.0044928 -0.0067867
-0.027345 -0.014513 -0.38756 0.15707 -0.033101 -0.0013562 -0.0018282 -0.00048288
-0.0021366 -0.0086266 -0.0016457 -0.0019442
0.0050609 0.0053284 -0.03314 -0.001276 -0.10285 0.28587 -0.00080589 4.5175e-05
-0.0016994 0.00095076 -0.0030248 -0.0093137
0.0012944 -0.0070918 -0.0018411 -0.00048555 -0.00080411 2.3669e-05 -0.22051 0.1935
-0.024007 -0.008046 -0.010111 -0.010934
-0.0032894 -0.01116 -0.002184 -0.008611 -0.0017052 0.0009535 -0.02402 -0.008027
-0.25857 0.040345 -0.0052972 -0.0088155
0.0044797 -0.0068252 -0.0016631 -0.0019446 -0.0030636 -0.0093148 -0.010098 -0.010913
-0.0052433 -0.0087922 -0.26104 0.087458
740000000 -0.19032 0.18691 -0.038677 0.026521 0.012764 -0.0049706 -0.00025062 -0.0042052
-0.0043534 -0.0025999 -0.0057968 0.0026334
-0.038641 0.026515 -0.33511 0.17626 -0.035552 0.035354 -0.00062106 -0.0061338
-0.011627 0.0078546 -0.0019075 -0.0062097
0.01278 -0.0049859 -0.035497 0.03552 -0.069307 0.28454 -0.0018849 0.0032306
-0.0020648 -0.0045195 -0.0015933 -9.2912e-05
-0.00025637 -0.0042048 -0.00061466 -0.0061432 -0.0018788 0.0032381 -0.20411 0.20116
-0.043716 -0.0074072 0.022762 0.014539
-0.0043137 -0.002651 -0.011603 0.007902 -0.0020116 -0.0045312 -0.043732 -0.007363
-0.16019 0.065649 -0.043299 0.0003454
-0.0058441 0.0026941 -0.0019055 -0.0062891 -0.0015501 -3.5556e-05 0.022732 0.01456
-0.043311 0.00035808 -0.24938 0.093233
800000000 -0.15764 0.22726 -0.02268 0.016734 0.0054375 -0.010724 -0.0048602 -0.0018931
-0.0041927 0.0025522 0.0045767 0.00069472
-0.022704 0.016715 -0.33831 0.24628 -0.0079026 0.034198 -0.0022923 0.0021778
-0.00034619 0.0030918 0.0011 0.0052172
0.0053927 -0.01075 -0.0077911 0.034259 -0.028514 0.30801 0.0011245 0.0013899
0.00040804 0.0033109 -0.0015809 0.00085614
-0.0048639 -0.0018733 -0.0022803 0.002202 0.0011293 0.0013881 -0.17593 0.22925
-0.028838 0.013709 0.013448 -0.0099498
-0.0041743 0.002562 -0.00033063 0.003071 0.00042354 0.003322 -0.028847 0.013767
-0.2075 0.089414 -0.017623 0.018637
0.0045681 0.0006519 0.0011251 0.0052338 -0.0015784 0.00085734 0.013437 -0.0099801
-0.017582 0.018644 -0.24366 0.14258
860000000 -0.12325 0.24782 -0.017649 0.030758 -0.0033992 -0.010071 -0.0024726 0.00088402
0.0042812 0.0049045 -0.0031915 -0.0027364
-0.017685 0.030736 -0.29102 0.2886 0.0079845 0.034477 -3.2967e-05 0.0019928
0.0043484 -7.7678e-05 0.0032403 0.00091804
-0.0034476 -0.010051 0.0080917 0.034496 0.019708 0.31623 -0.00060912 -0.00040998
0.0028373 -0.0017591 0.0013969 0.0044824
-0.0024619 0.00089733 -3.1738e-05 0.0020086 -0.00061611 -0.00040897 -0.13977 0.24064
-0.018151 0.018813 -0.0059638 -0.0093713
0.0043473 0.0049078 0.0043655 -0.00010343 0.0028462 -0.0017621 -0.018144 0.018867
-0.15654 0.14124 -0.026678 0.015551
-0.0032277 -0.0027374 0.0032374 0.00085959 0.0013964 0.0045166 -0.0059331 -0.009411
-0.026604 0.01551 -0.19217 0.18903
920000000 -0.09841 0.27102 0.0050743 0.038191 -0.0095807 -0.0044207 -0.001777 0.002124
0.00093552 0.0019729 0.0027117 -0.0015425
0.0050787 0.03816 -0.26186 0.31013 0.02834 0.022102 0.0014859 0.0011737
0.006833 -0.0006906 0.0039627 -0.0028076
-0.0095894 -0.004402 0.028447 0.022027 0.06629 0.31688 0.0017387 -5.3566e-05
0.0011602 -0.00041936 0.00089166 -0.00098843
-0.0017697 0.0021379 0.0014853 0.001171 0.0017386 -5.7391e-05 -0.11595 0.25811
-0.010862 0.030839 0.0034509 -0.0066394
0.00094656 0.0019884 0.0068274 -0.00073789 0.0011635 -0.00041802 -0.010807 0.030885
-0.14687 0.14789 -0.0029682 0.027541
0.0026604 -0.0015666 0.0039443 -0.0028055 0.00088433 -0.0010091 0.0033918 -0.0066543
-0.0029928 0.027518 -0.20069 0.20246
980000000 -0.050855 0.29041 0.017669 0.030328 -0.0090912 0.0048055 0.0021773 0.0036018
0.0039494 -0.0014098 -0.003103 -0.0021322
0.017669 0.030312 -0.2091 0.34396 0.033321 0.0047363 0.0020639 -9.7932e-05
0.0012349 -0.0057552 -0.00024139 -0.0024018
-0.0090885 0.0048352 0.033375 0.0046412 0.11273 0.31021 0.00046123 -0.0011219
0.00018415 -0.0020968 0.0014749 -0.00021671
0.0021846 0.0035786 0.0020585 -9.8509e-05 0.00046204 -0.0011236 -0.077486 0.26988
0.0079779 0.030258 -0.009217 -0.0072224
0.0039309 -0.0014348 0.0012178 -0.005786 0.00017948 -0.0020938 0.0080616 0.030248
-0.11605 0.17707 0.0051128 0.019614
-0.0030972 -0.0021199 -0.00025786 -0.0024069 0.0014853 -0.00022432 -0.0091924 -0.0072094
0.0050829 0.019608 -0.15887 0.24764
1040000000 -0.0086465 0.29879 0.033342 0.018198 -0.0011429 0.0070642 0.0026629 0.0006174
-3.4994e-05 -0.0037979 -0.00025596 -0.0012826
0.033319 0.018194 -0.1732 0.35701 0.029517 -0.015087 0.0014336 -0.0017933
-0.0026655 -0.0024637 -0.0014732 -0.002539
-0.0011439 0.0070689 0.029511 -0.015199 0.15891 0.29645 -0.00050842 -0.0014985
-0.0016539 -0.00083636 -0.00036479 -0.0011801
0.0026563 0.00059792 0.0014411 -0.0017827 -0.00051199 -0.0015056 -0.049712 0.28011
0.019642 0.018091 -0.0024066 0.0017179
-6.459e-05 -0.0038097 -0.0026555 -0.0024936 -0.0016419 -0.0008379 0.019703 0.018066
-0.084056 0.18543 0.013454 0.018689
-0.00025504 -0.0012495 -0.001541 -0.0024842 -0.00038942 -0.0011635 -0.0024314 0.001701
0.013459 0.018672 -0.13721 0.26831
1100000000 0.036998 0.30647 0.03606 -0.0041993 0.0030832 0.0038766 0.0023652 -0.0014968
-0.0020739 -0.0031601 -0.0038692 3.0699e-05
0.03605 -0.0041759 -0.12974 0.37439 0.015066 -0.028059 -8.4664e-05 -0.0018468
-0.0032951 -0.00058381 -0.0033926 -0.00053706
0.0030868 0.003869 0.014968 -0.028149 0.20543 0.27587 -0.0017863 0.00030086
-0.0017131 0.000579 -0.0010368 -0.00048616
0.0023547 -0.0014866 -9.085e-05 -0.0018468 -0.0017918 0.00029294 -0.0090219 0.28518
0.024789 0.0048411 -0.0025427 0.00027271
-0.0020998 -0.0031301 -0.0033028 -0.00058133 -0.0017134 0.00059046 0.024816 0.0048085
-0.0662 0.19972 0.019045 0.008782
-0.0038659 6.2468e-05 -0.0034044 -0.00051135 -0.0010559 -0.00048991 -0.0025401 0.00028052
0.019011 0.0087804 -0.091587 0.29855
1160000000 0.08835 0.3012 0.024141 -0.020984 0.0028503 -0.00057845 -0.00032303 -0.0024652
-0.004205 -0.00072212 -0.00096022 0.0041398
0.02415 -0.020961 -0.085672 0.37851 -0.0039368 -0.029202 -0.0017578 -0.0016345
-0.0025091 0.0024843 -0.0012101 0.0018366
0.002847 -0.00061893 -0.0040658 -0.029196 0.24849 0.24477 -0.0006185 0.0017424
-0.00055061 0.0018707 -0.00094412 0.00019161
-0.0003349 -0.0024789 -0.0017489 -0.0016159 -0.00060963 0.0017383 0.030805 0.28239
0.021044 -0.010643 -0.0028766 0.0053036
-0.0042149 -0.00069097 -0.002486 0.0024977 -0.00054972 0.0018858 0.021034 -0.010664
-0.032577 0.20981 0.018196 0.00044695
-0.00093394 0.0041419 -0.0011941 0.0018645 -0.00095019 0.00020165 -0.0028736 0.0052873
0.018174 0.00043423 -0.044652 0.30159
1220000000 0.13275 0.2898 0.010404 -0.030245 -0.0014978 -0.00099413 -0.00014517 -0.00089648
-0.0026282 0.002561 0.001398 0.0020574
0.010406 -0.030215 -0.041158 0.39029 -0.017066 -0.021134 -0.0024957 0.00047063
0.00011518 0.0029264 -0.00070457 0.0018792
-0.0014872 -0.00097913 -0.017177 -0.021069 0.28757 0.2055 0.00087038 0.0015308
0.00062908 0.0011344 0.00028108 0.00071307
-0.00013303 -0.00090687 -0.0025007 0.00049815 0.00086866 0.0015276 0.070809 0.27359
0.010149 -0.01734 0.0023175 0.0014805
-0.0026235 0.0025798 0.0001322 0.0029237 0.0006251 0.0011272 0.010126 -0.017362
-0.0094769 0.21936 0.014285 -0.012826
0.0014037 0.0020554 -0.00071044 0.0019 0.00028516 0.00072883 0.0023217 0.0014612
0.014296 -0.012827 -0.013308 0.31849
1280000000 0.18245 0.26758 -0.008037 -0.028615 -0.0019471 0.0023186 -0.00093462 -0.0018835
-0.00072865 0.003059 0.0024249 0.0010748
-0.0080064 -0.028589 0.005091 0.38089 -0.02386 -0.0082687 -0.00085639 0.0014462
0.0016238 0.0016735 0.00065741 0.0020699
-0.0019308 0.0023076 -0.023926 -0.0081657 0.31773 0.16137 0.0015309 -0.0001249
0.0010836 0.00030024 0.00043777 0.00036466
-0.00094784 -0.001881 -0.00084993 0.0014477 0.0015339 -0.00012365 0.10763 0.25689
0.00062933 -0.01906 0.00011621 1.7052e-05
-0.00071645 0.0030677 0.0016439 0.0016574 0.0010858 0.00031184 0.00058837 -0.01907
0.027641 0.22359 0.0032637 -0.014875
0.0024317 0.0010758 0.0006596 0.0020646 0.0004482 0.00038255 0.00012647 2.3497e-05
0.0032626 -0.014848 0.035097 0.32088
1340000000 0.21943 0.23337 -0.01777 -0.019032 0.00077492 0.004397 -0.0017155 -0.00073827
0.0015178 0.0026997 0.0017102 -0.00141
-0.017749 -0.019005 0.044341 0.37211 -0.021479 0.0044027 -6.7216e-05 0.0019076
0.0018386 0.00074287 0.0013312 0.00079791
0.00079633 0.0044053 -0.021483 0.0045046 0.33949 0.11334 0.0010131 -0.00089692
0.00066766 -0.0004098 0.00025134 0.00036891
-0.0017171 -0.00072578 -5.5007e-05 0.0019115 0.0010086 -0.00089812 0.13984 0.23641
-0.0087254 -0.015985 0.00096085 0.00034018
0.001543 0.0026805 0.0018428 0.00072869 0.00067484 -0.00041294 -0.0087635 -0.015974
0.058268 0.2192 -0.0035189 -0.013411
0.0017062 -0.0014347 0.0013361 0.00078054 0.00025189 0.0003774 0.0009608 0.00033739
-0.0035063 -0.013407 0.073463 0.31661
1400000000 0.25205 0.1948 -0.023537 -0.0074684 0.0050259 0.0030443 -0.0019546 0.00064893
0.0024253 0.00085531 0.00031082 -0.0013017
-0.023507 -0.0074695 0.081388 0.35862 -0.014687 0.012423 0.0012574 0.0012352
0.0010447 -0.0007973 0.0012024 0.00020077
0.0050381 0.003032 -0.014641 0.012508 0.35243 0.060114 6.2527e-05 -0.0015444
-2.1678e-05 -0.00043902 0.00049332 0.00026656
-0.0019555 0.00066441 0.0012698 0.0012275 7.0606e-05 -0.0015308 0.1692 0.20777
-0.014361 -0.0091635 -0.00076714 -0.00061794
0.0024389 0.00083449 0.0010406 -0.0008031 -1.2606e-05 -0.00043379 -0.014387 -0.0091463
0.09147 0.21484 -0.0099166 -0.0088052
0.00029992 -0.0013041 0.0012038 0.00019499 0.00047277 0.00024975 -0.00076573 -0.00061363
-0.0099096 -0.0088043 0.11884 0.30534
1460000000 0.27418 0.15056 -0.020548 0.0047494 0.0054388 -0.0017881 -0.0015444 0.0016549
0.0021 -0.00062159 -0.00036026 -0.00096389
-0.020546 0.0047365 0.11504 0.33648 -0.0060243 0.015167 0.0016459 0.00019146
0.00084929 -0.0012042 0.001136 -0.00063062
0.0054297 -0.0018234 -0.005941 0.015226 0.35833 0.0057295 -0.0012061 -0.0011756
0.00018798 -0.0003163 0.00061851 -0.00028448
-0.0015329 0.0016694 0.0016449 0.00018674 -0.0012089 -0.0011753 0.19539 0.17884
-0.01524 -0.002423 -0.00092551 0.0018568
0.0020946 -0.00063548 0.00084233 -0.0012107 0.00019608 -0.00032075 -0.01525 -0.002389
0.12094 0.20016 -0.011768 -0.0028186
-0.00037681 -0.00097711 0.0011233 -0.00063629 0.00059547 -0.00029022 -0.00091162 0.0018516
-0.011766 -0.0028122 0.15195 0.28463
1520000000 0.28578 0.10894 -0.014856 0.010407 0.0031726 -0.0040746 0.00010005 0.0025688
0.0019653 -0.0017305 -0.0010978 -3.9408e-05
-0.014863 0.010397 0.14814 0.32179 0.0015027 0.012925 0.0016006 -0.00071169
1.0863e-05 -0.00099082 0.00030384 -0.0010542
0.0031736 -0.0041021 0.0015766 0.012931 0.35153 -0.050419 -0.0010021 -0.00031942
0.00059796 -0.00082501 3.6496e-05 -0.00013395
0.00011565 0.0025693 0.001599 -0.00071652 -0.0010018 -0.00031729 0.21868 0.14124
-0.014295 0.0030736 0.0013178 0.0019884
0.0019544 -0.0017572 1.0483e-05 -0.00099082 0.00059878 -0.00083079 -0.014293 0.0031107
0.14879 0.18606 -0.011597 0.0016349
-0.0011049 -3.2932e-05 0.00030781 -0.0010566 4.0628e-05 -0.00012923 0.0013347 0.0019904
-0.011592 0.0016246 0.18537 0.26427
1580000000 0.29465 0.063154 -0.0081363 0.013557 -0.00094816 -0.0047679 0.0013744 0.0018542
-0.00038211 -0.0020506 -0.00033354 0.00040738
-0.0081378 0.013549 0.17502 0.29709 0.0050516 0.0081834 0.0004977 -0.0015238
-0.00055448 -0.00097702 -0.0002819 -0.0007672
-0.00096432 -0.0047676 0.0050981 0.0081673 0.3311 -0.10771 -0.0015244 0.00058115
-0.0003787 -0.0010644 0.00012376 -0.00049863
0.0013768 0.0018475 0.00048389 -0.0015198 -0.0015211 0.00059218 0.2328 0.10222
-0.010631 0.0076292 0.0021828 0.00086998
-0.00039393 -0.0020511 -0.0005577 -0.0009754 -0.00039645 -0.0010691 -0.01062 0.0076676
0.17326 0.16811 -0.0091119 0.0074396
-0.00032775 0.0004099 -0.00028878 -0.0007716 0.00010527 -0.00052345 0.0021893 0.00086051
-0.0091192 0.0074394 0.21794 0.23746
1640000000 0.29655 0.022138 -0.0012591 0.01249 -0.0026714 -0.0024128 0.0026903 0.00099004
-0.00068932 -0.0014052 -0.00018266 0.00053205
-0.0012735 0.012472 0.20421 0.27238 0.0057672 0.0034985 -0.00062777 -0.0017057
-0.00097271 -0.00038572 -0.000474 -0.00063964
-0.0026817 -0.00239 0.0057878 0.0034587 0.30293 -0.15689 -0.00067677 0.0013577
-0.0010169 -0.00097814 -5.4517e-05 -0.00050252
0.002695 0.000974 -0.0006349 -0.0017065 -0.00068107 0.0013483 0.24537 0.053592
-0.0063746 0.0084461 0.002379 -0.00074245
-0.00070517 -0.0014106 -0.00097315 -0.00037239 -0.0010036 -0.00099168 -0.0063525 0.008481
0.19572 0.14373 -0.0045003 0.009273
-0.0001787 0.00054051 -0.00047605 -0.00063655 -4.8202e-05 -0.00048328 0.0023737 -0.00074317
-0.0045118 0.0092792 0.24329 0.20648
1700000000 0.28921 -0.022895 0.0021654 0.0095437 -0.0033199 0.00014162 0.0029779 -0.0011402
-0.0019908 -0.00062978 0.0006739 0.00038985
0.0021576 0.009548 0.22215 0.24111 0.0037476 0.00074343 -0.0014415 -0.00056645
-0.00074277 6.0592e-05 -0.00091264 -0.00039306
-0.0033196 0.00014422 0.0037553 0.00071441 0.25934 -0.1967 0.00037394 0.0016851
-0.0018807 -0.00016824 -0.00051023 -0.00087613
0.002978 -0.0011534 -0.0014513 -0.00055681 0.00037609 0.0016823 0.24258 0.0041315
-0.0039702 0.0087066 0.0014324 -0.002129
-0.0020018 -0.00060758 -0.00074043 6.5348e-05 -0.0018818 -0.00016257 -0.0039485 0.0087203
0.21286 0.12361 0.00022491 0.0094312
0.00069124 0.00038186 -0.0009101 -0.00038509 -0.00051415 -0.00085494 0.0014279 -0.0021472
0.00023561 0.0094251 0.25973 0.17189
1760000000 0.277 -0.071193 0.0044482 0.0062167 -0.0020939 0.00090153 0.001304 -0.0033519
-0.0012353 0.00072815 0.00043269 -0.00065806
0.0044507 0.0062052 0.24802 0.20147 0.0016325 -0.00093501 -0.0011932 0.00015482
-0.00094688 0.0008439 -0.00051988 0.00040992
-0.0021138 0.00089922 0.0016285 -0.00095546 0.21042 -0.22941 0.0011776 0.0011397
-0.0010955 0.0014201 -0.0014029 -0.00048485
0.0012946 -0.0033514 -0.0011858 0.00016517 0.0011667 0.0011447 0.2337 -0.047181
-0.0010426 0.0078196 -0.00021811 -0.0024527
-0.0012219 0.00073245 -0.00094382 0.00085127 -0.0011025 0.0014263 -0.0010262 0.0078228
0.22754 0.08861 0.0040827 0.0068757
0.00042776 -0.00065786 -0.00052996 0.0004179 -0.0014058 -0.00052202 -0.00022143 -0.0024539
0.0040874 0.006879 0.27244 0.13428
1820000000 0.25249 -0.10834 0.0045819 0.00267 -8.9484e-06 0.0023621 -0.00095096 -0.002975
-0.001036 0.00088883 -0.0001019 -0.00012353
0.0045838 0.00268 0.258 0.17165 -0.0001938 2.0987e-05 -0.0013242 0.00092248
-5.4143e-05 0.0012364 -0.00049125 0.00049245
1.239e-05 0.0023461 -0.00018917 2.828e-05 0.16089 -0.24566 0.001443 0.0004011
-0.00026112 0.0021997 -0.0012521 0.00038035
-0.00097651 -0.0029847 -0.0013175 0.00093387 0.0014692 0.00040607 0.20418 -0.094242
6.2199e-05 0.006315 -0.001555 -0.0015147
-0.0010296 0.00090116 -4.9612e-05 0.0012378 -0.00025197 0.0022111 7.7037e-05 0.0063212
0.24441 0.059818 0.0049215 0.0033274
-9.7964e-05 -0.00011966 -0.00047993 0.00049658 -0.0013187 0.00038301 -0.0015632 -0.0015144
0.0049163 0.0033242 0.27497 0.09817
1880000000 0.21746 -0.14855 0.002447 0.00043009 -0.00042865 0.0019284 -0.0028767 -0.0021398
-0.000161 0.0016281 0.00022804 -0.00047991
0.0024407 0.00042733 0.26253 0.12526 -0.002149 0.0016765 -0.0002041 0.0016999
0.00054124 0.0011533 0.00012755 0.00083628
-0.00041307 0.0019175 -0.002148 0.0016861 0.10843 -0.25513 0.001758 -0.00098572
0.0014957 0.0019306 -0.00095438 0.0012171
-0.002908 -0.0021217 -0.00019373 0.0017075 0.0017582 -0.0009883 0.16399 -0.13462
0.00062336 0.0045986 -0.0024576 0.00048117
-0.00015521 0.0016151 0.00055669 0.0011424 0.001501 0.0019214 0.00064184 0.0045863
0.24719 0.027461 0.0048612 0.0011178
0.00021879 -0.00048321 0.00013644 0.00084176 -0.00094344 0.0012176 -0.0024709 0.0004753
0.004872 0.001123 0.27449 0.063832
1940000000 0.17804 -0.17451 0.00033732 -0.0013354 0.001306 0.0019424 -0.003788 0.0005228
0.0012844 0.00092888 -0.00062164 -0.0004671
0.00033323 -0.001331 0.26325 0.09358 -0.00099128 0.0038237 0.0010039 0.00136
0.001789 0.00047054 0.00081595 0.00026125
0.0013595 0.0018995 -0.00095279 0.0038373 0.062468 -0.24842 0.00041355 -0.0022185
0.0024311 0.00050741 0.00022911 0.0016697
-0.0037756 0.00053697 0.0010168 0.0013523 0.00041709 -0.0021987 0.11202 -0.1652
-0.00030021 0.0037132 -0.0014585 0.0015475
0.0012874 0.00093442 0.0017921 0.00045664 0.0024261 0.00049794 -0.00030085 0.0037116
0.2489 -0.011101 0.0036352 -0.0022591
-0.00061621 -0.00048227 0.00082139 0.00026134 0.0002035 0.0016701 -0.0014467 0.0015527
0.0036241 -0.0022559 0.26367 0.027831
2000000000 0.13162 -0.18906 -0.0034711 0.00052603 0.0024231 0.0015615 -0.0022874 0.0035153
0.0010364 9.4826e-05 -0.00065092 0.00028247
-0.0034827 0.00052344 0.24925 0.058078 -0.00091872 0.0055667 0.0016712 0.00039084
0.0013039 -0.0013346 0.00041279 0.00010453
0.0024581 0.001537 -0.0008911 0.0055651 0.018667 -0.23376 -0.0013292 -0.0012892
0.0020183 -0.0011619 0.0016299 0.0012774
-0.002278 0.0035162 0.0016814 0.00038584 -0.0013219 -0.0012844 0.05862 -0.17555
-0.001807 0.0037127 -3.6871e-05 0.0022905
0.0010381 9.5206e-05 0.0012969 -0.001346 0.0020119 -0.001164 -0.0017927 0.0037097
0.24282 -0.044769 0.00012409 -0.0028807
