!Keysight Technologies,M9804A,MY58100912,A.14.10.03
!Date: Thursday, April 27, 2023 10:28:33
!Correction: S11(C  6-Port  ) 
!S12(C  6-Port  ) 
!S13(C  6-Port  ) 
!S14(C  6-Port  ) 
!S15(C  6-Port  ) 
!S16(C  6-Port  ) 
!S21(C  6-Port  ) 
!S22(C  6-Port  ) 
!S23(C  6-Port  ) 
!S24(C  6-Port  ) 
!S25(C  6-Port  ) 
!S26(C  6-Port  ) 
!S31(C  6-Port  ) 
!S32(C  6-Port  ) 
!S33(C  6-Port  ) 
!S34(C  6-Port  ) 
!S35(C  6-Port  ) 
!S36(C  6-Port  ) 
!S41(C  6-Port  ) 
!S42(C  6-Port  ) 
!S43(C  6-Port  ) 
!S44(C  6-Port  ) 
!S45(C  6-Port  ) 
!S46(C  6-Port  ) 
!S51(C  6-Port  ) 
!S52(C  6-Port  ) 
!S53(C  6-Port  ) 
!S54(C  6-Port  ) 
!S55(C  6-Port  ) 
!S56(C  6-Port  ) 
!S61(C  6-Port  ) 
!S62(C  6-Port  ) 
!S63(C  6-Port  ) 
!S64(C  6-Port  ) 
!S65(C  6-Port  ) 
!S66(C  6-Port  ) 
!S6P File: Measurement: :
# Hz S  RI   R 50
500000000 -0.33618 -0.038888 -0.0095032 -0.0025289 -0.0078247 0.01226 -0.0041795 0.012162
0.012931 0.0050658 -0.0045477 0.0091554
-0.0095761 -0.0025439 -0.41894 -0.051221 0.008612 -0.010823 0.0020699 0.011964
0.0073097 0.0024747 0.0022362 0.013374
-0.0078291 0.012272 0.0084998 -0.01081 -0.26413 0.20838 0.0080514 0.0032309
-0.0020106 0.0077094 0.0018017 0.011837
-0.0041378 0.012255 0.001967 0.011967 0.0079817 0.0032708 -0.32967 0.044375
-0.018113 -0.0067355 0.016205 0.02668
0.012972 0.0050411 0.0073304 0.0023969 -0.0020599 0.007632 -0.018117 -0.006722
-0.22286 -0.19494 -0.025275 0.0045842
-0.0046954 0.0092232 0.0022829 0.013216 0.001822 0.011717 0.016277 0.026733
-0.025362 0.0046252 -0.26658 -0.13099
560000000 -0.31622 0.12322 -0.023364 -0.064222 0.000127 0.011709 0.0054911 0.010108
0.0098652 0.0044198 0.011238 0.0073091
-0.023452 -0.064254 -0.37805 0.10694 -0.040557 -0.038127 0.013141 0.0040802
-0.012383 -0.0049489 0.0033068 0.00010693
0.00017302 0.011641 -0.040721 -0.037908 -0.18278 0.2568 -0.00064514 -0.0051832
0.019401 0.0047822 0.0069639 -0.0062525
0.0053259 0.010106 0.013213 0.0039853 -0.00059741 -0.0052008 -0.30473 0.1332
0.0050651 -0.024498 0.0039567 -0.021409
0.0098244 0.0042586 -0.012417 -0.0047245 0.01936 0.0048293 0.0050062 -0.024512
-0.28882 -0.021383 0.0089817 -0.048789
0.011109 0.0073729 0.003413 0.00012869 0.0068121 -0.0062736 0.0039479 -0.021464
0.0089695 -0.048764 -0.32886 0.016631
620000000 -0.27444 0.10665 -0.023081 0.0075352 0.0025901 0.0082766 0.0081668 -0.0053502
0.010971 2.3252e-06 0.0016336 -0.0028695
-0.023059 0.0075829 -0.40224 0.059108 -0.01877 -0.0002707 -0.0016066 -0.0020599
0.011382 -0.0068921 0.0015202 -0.0035574
0.002601 0.0082351 -0.018796 -0.00018028 -0.15387 0.26577 -0.0019715 -0.005066
-0.0028532 -0.002879 0.0084085 -0.0037337
0.0081844 -0.0054527 -0.0016208 -0.002067 -0.0018768 -0.0050281 -0.26486 0.1431
-0.03767 -0.019291 0.011382 0.026002
0.01092 -2.0369e-05 0.011392 -0.0068736 -0.0029133 -0.002945 -0.037707 -0.019234
-0.20749 -0.0597 -0.04043 0.01363
0.0015801 -0.0027597 0.0015486 -0.0035374 0.0084263 -0.0037147 0.011389 0.026003
-0.040432 0.013659 -0.24993 -0.021883
680000000 -0.23459 0.19174 -0.027358 -0.01461 0.0049121 0.0052258 0.00092469 -0.0070518
-0.003533 -0.011132 0.0045178 -0.0064602
-0.027318 -0.014649 -0.38772 0.15663 -0.033041 -0.001494 -0.0019686 -0.00057351
-0.0021907 -0.0085022 -0.0013726 -0.0018027
0.0049297 0.0052105 -0.033089 -0.0014176 -0.10305 0.28571 -0.00084628 -1.5433e-05
-0.0019495 0.0010356 -0.0029349 -0.0090176
0.00087363 -0.0070545 -0.0019805 -0.00053718 -0.00082069 -1.629e-05 -0.22093 0.19303
-0.024059 -0.0083312 -0.0096667 -0.010719
-0.0036331 -0.01108 -0.0022206 -0.0084618 -0.0019594 0.00098609 -0.024077 -0.0082666
-0.25869 0.038803 -0.0048962 -0.0082721
0.0046245 -0.0064697 -0.001381 -0.0017783 -0.003006 -0.0089931 -0.0096057 -0.010732
-0.004884 -0.0082562 -0.26114 0.085652
740000000 -0.19071 0.18633 -0.038865 0.026408 0.012686 -0.0050547 -0.0002094 -0.0042122
-0.0045323 -0.0024223 -0.0058164 0.0026771
-0.038786 0.026453 -0.33495 0.17568 -0.035572 0.03521 -0.00047407 -0.006129
-0.011846 0.0083527 -0.0018225 -0.006328
0.012689 -0.0050449 -0.035524 0.035368 -0.069581 0.28447 -0.0018521 0.0033237
-0.0021964 -0.0048455 -0.0017814 9.0029e-05
-0.00024989 -0.0041726 -0.00051959 -0.0060966 -0.0018419 0.003319 -0.20398 0.20103
-0.043543 -0.0072331 0.022605 0.014771
-0.0045002 -0.0024743 -0.011822 0.0084051 -0.0021293 -0.0049093 -0.043657 -0.0072223
-0.15984 0.063336 -0.043957 0.00021369
-0.0058179 0.0026755 -0.0018868 -0.0063181 -0.0017306 0.00011021 0.022527 0.01482
-0.043791 0.00016029 -0.24946 0.091624
800000000 -0.15813 0.22713 -0.022847 0.016689 0.0053671 -0.010521 -0.004904 -0.0019689
-0.0040778 0.002265 0.0048002 0.00059485
-0.022807 0.016656 -0.33859 0.24605 -0.0080273 0.034121 -0.0023073 0.0022759
-0.0002106 0.003046 0.0011014 0.0052612
0.0053539 -0.010536 -0.0079088 0.034176 -0.028593 0.30803 0.0011107 0.0014374
0.0004839 0.0033217 -0.0016301 0.00094644
-0.0048877 -0.001919 -0.0023331 0.0022871 0.0011116 0.001444 -0.17589 0.22914
-0.028889 0.013511 0.013442 -0.0098836
-0.0040593 0.0022882 -0.00021445 0.0030333 0.00048646 0.0033317 -0.028851 0.013551
-0.2079 0.08773 -0.018003 0.018696
0.0047689 0.0005508 0.0011187 0.0052371 -0.0016341 0.00095987 0.013409 -0.0098616
-0.017997 0.018683 -0.24439 0.14142
860000000 -0.12364 0.24767 -0.017736 0.030836 -0.003454 -0.0097768 -0.0025276 0.0009935
0.0041495 0.0047776 -0.0032019 -0.0028332
-0.017718 0.030815 -0.29104 0.28829 0.0077819 0.034407 -3.0846e-05 0.0019212
0.004377 1.2831e-05 0.0032095 0.00078531
-0.0034895 -0.0097804 0.0079398 0.034413 0.019577 0.31615 -0.00062409 -0.0004202
0.0027844 -0.0016233 0.0013683 0.0045144
-0.0025717 0.00099846 1.0066e-05 0.0019815 -0.00063637 -0.0004213 -0.13983 0.24066
-0.018162 0.018706 -0.0059434 -0.009521
0.0042174 0.0047481 0.0043628 -1.4302e-05 0.0027515 -0.0016306 -0.018099 0.018696
-0.1573 0.13892 -0.026592 0.015168
-0.0032402 -0.0027903 0.0031899 0.00075603 0.0014029 0.0044927 -0.0059458 -0.0094704
-0.026624 0.015151 -0.19315 0.18818
920000000 -0.098695 0.27097 0.0050817 0.038167 -0.0094682 -0.004283 -0.0018327 0.0021332
0.00093726 0.0020104 0.0027199 -0.001665
0.0050731 0.038186 -0.26199 0.30989 0.028199 0.022137 0.001431 0.0011454
0.0068284 -0.00052635 0.0040431 -0.0025494
-0.0094872 -0.0042369 0.028269 0.022063 0.066157 0.31676 0.0017009 -6.6133e-05
0.0012074 -0.00029276 0.0010903 -0.00094517
-0.0018331 0.0021364 0.0014431 0.0011604 0.0017156 -5.968e-05 -0.11603 0.25794
-0.01096 0.030748 0.003573 -0.0064485
0.00094224 0.0020119 0.0067976 -0.00060645 0.00119 -0.00034584 -0.010883 0.030773
-0.14782 0.14648 -0.0033172 0.027544
0.0027014 -0.0016586 0.0039977 -0.0025637 0.0010328 -0.00094795 0.0036106 -0.0064684
-0.003328 0.027547 -0.20223 0.20141
980000000 -0.051149 0.29035 0.017615 0.03031 -0.0089453 0.0047765 0.0022295 0.0035785
0.0039515 -0.0014047 -0.0030406 -0.0022884
0.017569 0.030307 -0.20907 0.34386 0.033105 0.0048285 0.0020396 -8.2695e-05
0.0012889 -0.0057821 -0.00019686 -0.0024682
-0.0089392 0.0048147 0.033172 0.0047272 0.11252 0.30994 0.00051674 -0.0011236
0.00027235 -0.0019828 0.0016168 -0.00024094
0.0022149 0.0035731 0.002054 -7.9814e-05 0.00050593 -0.0011222 -0.077492 0.26972
0.0077707 0.030102 -0.0092267 -0.0072101
0.003993 -0.0014507 0.0013117 -0.0057807 0.00029822 -0.0019661 0.0078322 0.030124
-0.1174 0.176 0.0046413 0.019436
-0.0029964 -0.0022937 -0.00016803 -0.0024851 0.001651 -0.00024379 -0.0092474 -0.0071911
0.0045958 0.019479 -0.16021 0.24692
1040000000 -0.0089011 0.29879 0.033249 0.018402 -0.0010621 0.007044 0.0027131 0.00062782
3.1588e-05 -0.0037965 -0.00022766 -0.0013774
0.03319 0.018369 -0.17333 0.35679 0.029398 -0.014807 0.0014589 -0.0017226
-0.0026434 -0.0023652 -0.0013665 -0.0025182
-0.0010664 0.0070474 0.029395 -0.014959 0.15852 0.29624 -0.00049844 -0.0015045
-0.001641 -0.00087123 -0.00030936 -0.0011008
0.0027141 0.00062138 0.001449 -0.001763 -0.00049385 -0.0015067 -0.049806 0.27993
0.019268 0.018205 -0.0022943 0.0018042
4.4137e-05 -0.0037678 -0.0026581 -0.0023889 -0.0016533 -0.00089801 0.019307 0.018153
-0.085112 0.18486 0.013218 0.018673
-0.0002343 -0.0013768 -0.0013969 -0.0025631 -0.00028532 -0.0011563 -0.0023073 0.0017806
0.013248 0.018653 -0.13824 0.26745
1100000000 0.036615 0.30636 0.035994 -0.0040958 0.00306 0.0038562 0.0023882 -0.0014643
-0.0020514 -0.0030718 -0.0038108 3.6266e-05
0.035962 -0.0040511 -0.12977 0.37408 0.015077 -0.027758 -5.6087e-05 -0.0018187
-0.0031622 -0.00057138 -0.003359 -0.00050698
0.0030818 0.0038634 0.014993 -0.027828 0.20483 0.2758 -0.0017971 0.00026055
-0.0017145 0.00049747 -0.0010652 -0.00052748
0.0023657 -0.0014772 -6.3821e-05 -0.0018115 -0.0017908 0.00026201 -0.0091713 0.28493
0.024401 0.0051075 -0.0024184 0.00024631
-0.0020738 -0.003097 -0.0031843 -0.00056584 -0.0017008 0.00052232 0.024445 0.0050883
-0.067181 0.19927 0.018853 0.0089255
-0.0038206 5.9895e-05 -0.0033654 -0.00048919 -0.0010825 -0.00052955 -0.0024402 0.0002791
0.01883 0.0089264 -0.092669 0.29796
1160000000 0.087989 0.3012 0.024111 -0.020731 0.0028758 -0.00064692 -0.00035291 -0.0024836
-0.004131 -0.00064061 -0.00087413 0.0041273
0.024122 -0.020684 -0.085958 0.37794 -0.0037109 -0.029003 -0.0017328 -0.0016643
-0.002554 0.0024844 -0.0012878 0.0018537
0.0028574 -0.00067056 -0.0038346 -0.029022 0.24783 0.24503 -0.00062625 0.0017131
-0.00056362 0.0018679 -0.00092707 0.00020929
-0.00035505 -0.0025001 -0.0017438 -0.0016577 -0.00062398 0.0017138 0.030525 0.28212
0.02088 -0.010201 -0.0028513 0.0052815
-0.0042007 -0.00058355 -0.002543 0.0024728 -0.00056602 0.0018305 0.02089 -0.010232
-0.033273 0.20954 0.018031 0.00072477
-0.00085512 0.0041313 -0.0012413 0.0018534 -0.00096236 0.00022078 -0.0028492 0.0052925
0.018012 0.00075484 -0.045914 0.30104
1220000000 0.13226 0.28986 0.010569 -0.030014 -0.0014796 -0.0010376 -0.00013519 -0.00086908
-0.002613 0.0025456 0.0014227 0.0019922
0.010579 -0.029964 -0.041633 0.38978 -0.016791 -0.021065 -0.0024734 0.00045126
5.4255e-05 0.0028397 -0.00072294 0.0018484
-0.0014837 -0.001039 -0.016889 -0.021012 0.28696 0.2061 0.00080977 0.0014849
0.00056457 0.0010788 0.00027716 0.00066235
-0.00013373 -0.00088091 -0.0024671 0.00046921 0.00080016 0.0014823 0.070326 0.27342
0.010255 -0.016793 0.0024341 0.001472
-0.0026029 0.0025744 7.0606e-05 0.0028508 0.00057569 0.0010935 0.010221 -0.016805
-0.010159 0.21898 0.014369 -0.012511
0.0014763 0.0019834 -0.0007041 0.0018509 0.0002688 0.00065852 0.0024341 0.001467
0.014351 -0.012507 -0.014631 0.31811
1280000000 0.18194 0.26767 -0.0077093 -0.028506 -0.0019323 0.0022762 -0.00091646 -0.0019107
-0.00070823 0.0030482 0.0024768 0.0011381
-0.0077054 -0.028491 0.0042477 0.38049 -0.023516 -0.0084371 -0.00089522 0.001409
0.001552 0.0016694 0.00059383 0.00212
-0.0019276 0.002276 -0.023571 -0.0083373 0.31752 0.16223 0.0014809 -6.5027e-05
0.001042 0.00031143 0.0004782 0.00043679
-0.00092347 -0.0019147 -0.00088482 0.0014071 0.0014835 -6.2247e-05 0.10716 0.25699
0.0010224 -0.018556 0.00015385 -4.6238e-06
-0.00067008 0.0030675 0.0015745 0.001645 0.0010351 0.00031887 0.00099309 -0.018559
0.02684 0.22314 0.0033709 -0.014578
0.0024694 0.0011124 0.00060353 0.0021045 0.00050309 0.00042333 0.00017036 4.8383e-06
0.0033743 -0.014566 0.033912 0.3208
1340000000 0.21883 0.23361 -0.017451 -0.019146 0.00074287 0.004294 -0.0016713 -0.00072721
0.0014828 0.0026857 0.0017086 -0.0013881
-0.017417 -0.01913 0.043447 0.37201 -0.021413 0.0040476 -0.00011663 0.001929
0.0017868 0.00079708 0.0013026 0.00081258
0.00077688 0.0042972 -0.02142 0.0041738 0.33975 0.1142 0.0010488 -0.00081889
0.00074416 -0.00039788 0.00024419 0.00035752
-0.0016618 -0.0007107 -0.00010285 0.00192 0.0010356 -0.00081832 0.13943 0.23669
-0.0081312 -0.01587 0.00099693 0.00023455
0.0014908 0.0026582 0.0018006 0.00078191 0.00073409 -0.00037874 -0.0081675 -0.015853
0.057249 0.21868 -0.0031418 -0.013227
0.0016933 -0.0013861 0.0013196 0.00080812 0.00023221 0.0003511 0.0010061 0.00023691
-0.0031297 -0.013222 0.071982 0.31655
1400000000 0.25143 0.19523 -0.023333 -0.0077471 0.004928 0.0030653 -0.0019627 0.00057448
0.0023807 0.00078662 0.00031095 -0.001333
-0.023309 -0.0077553 0.080504 0.35884 -0.014788 0.01213 0.0012513 0.001287
0.0010766 -0.00071719 0.0012127 0.00024523
0.0049395 0.0030408 -0.014753 0.012219 0.35295 0.060403 0.00017921 -0.0014452
3.3861e-07 -0.00037224 0.0004496 0.0002237
-0.0019559 0.00058953 0.0012613 0.0012761 0.00017234 -0.0014383 0.16889 0.20821
-0.013668 -0.0094011 -0.00081004 -0.00073316
0.0024129 0.00074697 0.0010736 -0.00072462 4.7566e-06 -0.00037751 -0.013699 -0.0093762
0.090324 0.21455 -0.0094533 -0.008786
0.00031055 -0.0013373 0.0012231 0.00025012 0.0004529 0.00026805 -0.00081729 -0.00072687
-0.0094311 -0.0088058 0.11755 0.30576
1460000000 0.27378 0.15121 -0.020567 0.0043998 0.0053755 -0.0017484 -0.0015816 0.0016141
0.0020279 -0.00058098 -0.00035708 -0.0009793
-0.020551 0.0043819 0.11429 0.33703 -0.006241 0.01499 0.0016906 0.00024309
0.00090532 -0.0011899 0.0011409 -0.00061989
0.0053599 -0.0017721 -0.0061912 0.015041 0.35879 0.0059267 -0.0011351 -0.0012322
0.00020699 -0.00031377 0.00057358 -0.00030329
-0.0015656 0.0016341 0.0016888 0.00024563 -0.0011351 -0.0012231 0.19526 0.17935
-0.014839 -0.0030103 -0.001031 0.0017835
0.0020242 -0.00061622 0.00089553 -0.0011893 0.00021328 -0.00032015 -0.014865 -0.0029635
0.11953 0.1999 -0.011428 -0.0030483
-0.00035092 -0.00099725 0.0011495 -0.00062899 0.00059303 -0.00031161 -0.001059 0.0017842
-0.011426 -0.0030276 0.15066 0.28518
1520000000 0.28554 0.10964 -0.015029 0.010129 0.003175 -0.0039678 2.3725e-05 0.0025526
0.0019532 -0.0017354 -0.0010962 -8.7808e-05
-0.015017 0.010113 0.14766 0.3224 0.0012395 0.012958 0.0016476 -0.00073405
7.5531e-05 -0.001027 0.00032047 -0.0010509
0.0031621 -0.0039919 0.0013212 0.012951 0.35184 -0.050538 -0.00097534 -0.00040465
0.00064343 -0.00079918 2.7765e-06 -0.00012974
4.3308e-05 0.0025574 0.0016479 -0.00074646 -0.00096594 -0.00039722 0.21876 0.14176
-0.014315 0.0023565 0.0011768 0.0019841
0.0019353 -0.0017477 6.8698e-05 -0.0010337 0.00062651 -0.00081735 -0.014307 0.0023945
0.14724 0.18616 -0.011416 0.0012259
-0.0010922 -9.085e-05 0.00032018 -0.0010597 3.3977e-06 -0.00012021 0.0011857 0.0019834
-0.011409 0.0012209 0.18433 0.265
1580000000 0.29471 0.063858 -0.0084141 0.013423 -0.00087991 -0.0046609 0.0013236 0.001892
-0.00037695 -0.0020365 -0.00035862 0.00040402
-0.0084128 0.013406 0.17479 0.29779 0.0048598 0.0083075 0.00050051 -0.001566
-0.00055258 -0.0010551 -0.00029733 -0.00078561
-0.00092124 -0.0046492 0.0049012 0.0082959 0.33127 -0.10794 -0.0015839 0.00053766
-0.00035071 -0.0010753 6.0943e-05 -0.00048615
0.0013251 0.0018987 0.00048541 -0.0015741 -0.0015843 0.00054697 0.23311 0.10265
-0.011035 0.0070649 0.0020956 0.00094916
-0.00039615 -0.0020251 -0.00056478 -0.0010531 -0.0003495 -0.0010728 -0.011036 0.0070923
0.17171 0.16858 -0.0091477 0.0070479
-0.00035056 0.00041014 -0.00030838 -0.00077588 6.8942e-05 -0.00049357 0.0020999 0.0009446
-0.0091681 0.0070557 0.21705 0.23815
1640000000 0.29677 0.022765 -0.0016013 0.012511 -0.0025205 -0.0024615 0.0026904 0.0010586
-0.00061842 -0.0014199 -0.00017384 0.00056007
-0.0016159 0.012494 0.20421 0.27298 0.0057423 0.0036769 -0.00064192 -0.0017312
-0.0010276 -0.00041368 -0.00049091 -0.0006514
-0.002528 -0.0024596 0.005781 0.0036492 0.30274 -0.15694 -0.00071376 0.0013673
-0.00099149 -0.00098735 -7.4921e-05 -0.00045214
0.0026948 0.001048 -0.00065455 -0.0017248 -0.00070515 0.0013713 0.24585 0.053827
-0.0070193 0.0082431 0.0023593 -0.00065114
-0.00063368 -0.0014153 -0.0010248 -0.00040861 -0.00099712 -0.00096451 -0.007002 0.0082679
0.19423 0.14463 -0.0047154 0.0089333
-0.00017852 0.00056353 -0.00048281 -0.00065508 -7.2906e-05 -0.0004655 0.0023623 -0.00065986
-0.0047191 0.0089392 0.24257 0.20719
1700000000 0.28951 -0.022377 0.001941 0.0097488 -0.0032504 0.00011917 0.0030312 -0.0010857
-0.0019689 -0.0006108 0.00065886 0.00041794
0.0019104 0.0097552 0.22235 0.24152 0.0038566 0.00090026 -0.0014761 -0.00056692
-0.00082086 8.6515e-05 -0.00090505 -0.00038887
-0.003244 0.00013778 0.0038654 0.00088159 0.25941 -0.19656 0.00037814 0.0016729
-0.0018962 -0.00020207 -0.00049383 -0.00081855
0.0030204 -0.0010994 -0.001484 -0.00056573 0.00037645 0.0016703 0.24302 0.0040751
-0.004547 0.008874 0.0014118 -0.0020804
-0.0019779 -0.00060059 -0.00081572 9.1244e-05 -0.0018896 -0.00020146 -0.0045234 0.0088909
0.21172 0.12485 -7.9994e-05 0.0092553
0.0006763 0.00041498 -0.00090076 -0.0003844 -0.00050339 -0.00083474 0.0014158 -0.002083
-8.8482e-05 0.0092479 0.25914 0.17267
1760000000 0.27737 -0.070913 0.0044 0.00654 -0.0021735 0.000923 0.0013997 -0.0033354
-0.0012138 0.00069511 0.0004404 -0.00061985
0.0043922 0.0065353 0.24823 0.20173 0.0017285 -0.00093509 -0.0011781 0.00021518
-0.00098246 0.00094549 -0.00052938 0.0004276
-0.0021571 0.00093797 0.0017583 -0.00094484 0.21067 -0.22948 0.0011789 0.0011767
-0.0011886 0.0014132 -0.0013113 -0.00054587
0.0013856 -0.0033414 -0.0011845 0.00022696 0.0011936 0.0011639 0.2341 -0.047469
-0.0013441 0.008251 -0.00018424 -0.002403
-0.0012228 0.0007065 -0.00097818 0.00094052 -0.0011736 0.0014249 -0.0013148 0.0082535
0.2267 0.090065 0.0037801 0.0068243
0.00043609 -0.00063514 -0.00052326 0.0004315 -0.0013103 -0.00054602 -0.00018916 -0.0024101
0.0037624 0.0068187 0.27186 0.135
1820000000 0.25273 -0.10819 0.0047228 0.0029168 3.1681e-05 0.0023361 -0.00088371 -0.0030391
-0.0010528 0.00087116 -0.00010289 -0.00017334
0.0047064 0.0029013 0.25821 0.17173 -0.0001389 9.6679e-05 -0.0012854 0.00093639
-6.7109e-06 0.0013076 -0.00046601 0.00050615
4.764e-05 0.0023278 -0.00012541 8.9938e-05 0.16051 -0.24532 0.0015499 0.00040306
-0.00024816 0.0022196 -0.001249 0.00035101
-0.00089719 -0.0030472 -0.0012698 0.0009469 0.0015412 0.00041973 0.2043 -0.094734
5.539e-05 0.0067401 -0.0015635 -0.0014586
-0.0010494 0.00088023 5.5824e-06 0.0013084 -0.00024822 0.0022186 8.0945e-05 0.0067417
0.24404 0.061319 0.0046234 0.0034558
-0.00012052 -0.00016634 -0.00045896 0.00050498 -0.0012232 0.00036993 -0.0015544 -0.0014574
0.0046222 0.0034588 0.27436 0.099085
1880000000 0.21765 -0.14846 0.0026275 0.00052268 -0.00037395 0.0019127 -0.0028862 -0.0021813
-0.00020985 0.0015788 0.00027732 -0.00051232
0.0026301 0.00052639 0.26257 0.12521 -0.0021102 0.0017165 -0.00013864 0.0016844
0.00063793 0.001151 0.00011862 0.00086168
-0.00036689 0.0019075 -0.0020942 0.0017311 0.10841 -0.25479 0.0018319 -0.0010376
0.0015433 0.0019348 -0.00094166 0.0012594
-0.002897 -0.0021821 -0.00014312 0.0016882 0.0018268 -0.0010095 0.16386 -0.135
0.00080449 0.0049471 -0.002344 0.00048913
-0.00020854 0.001577 0.00065423 0.0011342 0.0015422 0.0019303 0.00081851 0.0049379
0.24721 0.0289 0.0046967 0.0013667
0.00027283 -0.00051572 0.00012514 0.00086165 -0.00097221 0.0012628 -0.0023506 0.00049177
0.0047056 0.0013769 0.27397 0.064837
1940000000 0.17815 -0.17424 0.00044937 -0.0013447 0.0012017 0.0017959 -0.0038491 0.00045139
0.0012593 0.00090759 -0.00067546 -0.0005434
0.00045229 -0.0013413 0.26315 0.093426 -0.00096419 0.0038029 0.001043 0.0012972
0.0018467 0.00036894 0.00080454 0.00018693
0.0012234 0.0017703 -0.00093924 0.0038048 0.062569 -0.24773 0.00036575 -0.0022708
0.0024064 0.00041955 0.00026783 0.0015607
-0.0038326 0.00047019 0.0010619 0.0012948 0.00036772 -0.0022811 0.1116 -0.16539
-5.6213e-05 0.0038502 -0.0013532 0.0014892
0.0012751 0.00091371 0.0018446 0.00036455 0.0024233 0.00039981 -4.5057e-05 0.003856
0.24916 -0.0099039 0.0035722 -0.0019897
-0.00069429 -0.00053873 0.00079702 0.00018331 0.00026414 0.0015748 -0.0013521 0.0015089
0.0035497 -0.0019846 0.26319 0.028966
2000000000 0.13168 -0.18889 -0.0034284 0.00044093 0.0023886 0.00159 -0.0023297 0.0034913
0.0011083 0.00019257 -0.00077017 0.00037763
-0.0034274 0.00044717 0.24888 0.057986 -0.0008776 0.0055606 0.0016502 0.00035146
0.0012654 -0.0014105 0.00041242 0.00010355
0.0023928 0.0015496 -0.00085547 0.005586 0.019107 -0.23339 -0.001289 -0.0012947
0.0019737 -0.001116 0.0015057 0.0012569
-0.0022905 0.0034987 0.0016402 0.00032928 -0.0013157 -0.0013036 0.05823 -0.17542
-0.0015542 0.0037869 3.1454e-05 0.0022508
0.0011209 0.0001848 0.0012605 -0.001416 0.0019538 -0.0011282 -0.0015521 0.0037973
0.24322 -0.043831 0.00024321 -0.0026163
