!Keysight Technologies,M9804A,MY58100912,A.14.10.03
!Date: Thursday, April 27, 2023 10:28:33
!Correction: S11(C  6-Port  ) 
!S12(C  6-Port  ) 
!S13(C  6-Port  ) 
!S14(C  6-Port  ) 
!S15(C  6-Port  ) 
!S16(C  6-Port  ) 
!S21(C  6-Port  ) 
!S22(C  6-Port  ) 
!S23(C  6-Port  ) 
!S24(C  6-Port  ) 
!S25(C  6-Port  ) 
!S26(C  6-Port  ) 
!S31(C  6-Port  ) 
!S32(C  6-Port  ) 
!S33(C  6-Port  ) 
!S34(C  6-Port  ) 
!S35(C  6-Port  ) 
!S36(C  6-Port  ) 
!S41(C  6-Port  ) 
!S42(C  6-Port  ) 
!S43(C  6-Port  ) 
!S44(C  6-Port  ) 
!S45(C  6-Port  ) 
!S46(C  6-Port  ) 
!S51(C  6-Port  ) 
!S52(C  6-Port  ) 
!S53(C  6-Port  ) 
!S54(C  6-Port  ) 
!S55(C  6-Port  ) 
!S56(C  6-Port  ) 
!S61(C  6-Port  ) 
!S62(C  6-Port  ) 
!S63(C  6-Port  ) 
!S64(C  6-Port  ) 
!S65(C  6-Port  ) 
!S66(C  6-Port  ) 
!S6P File: Measurement: :
# Hz S  RI   R 50
500000000 -0.33633 -0.039437 -0.0096675 -0.0021722 -0.0076087 0.012536 -0.0043415 0.012446
0.013034 0.0044477 -0.0048496 0.0090116
-0.0097211 -0.0022757 -0.41889 -0.051646 0.0082232 -0.011052 0.0017442 0.01184
0.0075245 0.0026979 0.0016082 0.013306
-0.0077569 0.012499 0.0083023 -0.011108 -0.26436 0.20853 0.007919 0.0031858
-0.0016867 0.0078291 0.0019223 0.011916
-0.0044168 0.012382 0.0017342 0.011817 0.007907 0.0031892 -0.32993 0.044007
-0.017949 -0.0064361 0.015716 0.025959
0.012947 0.0044976 0.0075794 0.0026678 -0.0016241 0.007873 -0.017963 -0.0063897
-0.22347 -0.19571 -0.024924 0.0049436
-0.0049517 0.0089124 0.0016093 0.013227 0.0019256 0.01193 0.015733 0.025965
-0.024929 0.0048061 -0.26718 -0.13274
560000000 -0.31581 0.12335 -0.023778 -0.064516 0.00045758 0.011895 0.005511 0.010305
0.010104 0.0040975 0.011183 0.0074884
-0.023714 -0.06441 -0.37806 0.10718 -0.041124 -0.037744 0.013176 0.0039919
-0.012726 -0.0043176 0.0027972 -0.00038368
0.00044176 0.011815 -0.041311 -0.037912 -0.18261 0.25611 -0.00070295 -0.0047386
0.019737 0.0038513 0.0070361 -0.0061524
0.0054717 0.010221 0.013406 0.0040508 -0.00070586 -0.0047303 -0.30492 0.13239
0.0049065 -0.023873 0.0042908 -0.021508
0.0099705 0.0042524 -0.012897 -0.0042851 0.019561 0.0037021 0.0048492 -0.023788
-0.288 -0.022142 0.0089996 -0.048559
0.011245 0.0075096 0.0029135 -0.00031267 0.0069955 -0.0061295 0.0042151 -0.021533
0.009023 -0.048457 -0.32871 0.015938
620000000 -0.2746 0.1063 -0.023123 0.0077155 0.0027644 0.0084156 0.0079077 -0.0053258
0.011112 -0.0004553 0.0017915 -0.0026441
-0.023117 0.0077143 -0.40234 0.059079 -0.018641 -0.000288 -0.0013455 -0.002141
0.011062 -0.0066053 0.0014228 -0.0033601
0.0027382 0.0085482 -0.01866 -0.00025657 -0.1542 0.26532 -0.0015137 -0.0051012
-0.0032587 -0.0029261 0.0085423 -0.0037968
0.0079006 -0.0054549 -0.0012992 -0.002145 -0.0015126 -0.0051346 -0.2653 0.14336
-0.037243 -0.019473 0.011866 0.02554
0.011179 -0.00029706 0.011066 -0.0066308 -0.0033138 -0.0029478 -0.037285 -0.019504
-0.20765 -0.059059 -0.040895 0.014172
0.0018583 -0.0026717 0.0013889 -0.0033628 0.0085595 -0.0037477 0.011732 0.025566
-0.040871 0.014198 -0.24973 -0.021172
680000000 -0.23457 0.19177 -0.027403 -0.014671 0.0049017 0.0052372 0.0010206 -0.0071
-0.0034587 -0.011124 0.0046294 -0.0067093
-0.027279 -0.014707 -0.3877 0.1566 -0.033098 -0.0014646 -0.0019075 -0.00054739
-0.0022871 -0.0085052 -0.0012902 -0.0018623
0.0049543 0.0051457 -0.033149 -0.0013616 -0.10314 0.28578 -0.0007849 9.1513e-05
-0.001995 0.0011114 -0.0031347 -0.0090725
0.0010403 -0.0071456 -0.0019037 -0.00051123 -0.00077083 7.4071e-05 -0.22062 0.19305
-0.023625 -0.0084937 -0.0099511 -0.010967
-0.0035682 -0.011063 -0.0022903 -0.0085089 -0.001951 0.001083 -0.023643 -0.0085007
-0.25799 0.038609 -0.0051988 -0.0086533
0.0047059 -0.0064642 -0.0012991 -0.0018063 -0.0031151 -0.0090894 -0.0098678 -0.011016
-0.0052147 -0.0086938 -0.26121 0.08576
740000000 -0.19074 0.18635 -0.038877 0.026301 0.012723 -0.0048497 -0.00017069 -0.0040731
-0.0044148 -0.0025979 -0.006036 0.0028944
-0.038749 0.026247 -0.33509 0.17585 -0.035636 0.035101 -0.00055523 -0.0061443
-0.011556 0.0082493 -0.0019953 -0.0063421
0.012733 -0.0048972 -0.035653 0.035263 -0.069414 0.28453 -0.0019002 0.0033798
-0.0019749 -0.0046516 -0.0017714 0.00010251
-0.00010763 -0.004146 -0.00060568 -0.0061384 -0.0018902 0.0033653 -0.20406 0.20102
-0.043732 -0.0073124 0.022485 0.014904
-0.0045202 -0.0024997 -0.0116 0.0082974 -0.0019437 -0.0046353 -0.043781 -0.007218
-0.15969 0.063733 -0.043505 -0.00026085
-0.0059859 0.0029571 -0.0020701 -0.0062656 -0.0017512 0.00010626 0.022485 0.014866
-0.043507 -0.00025909 -0.24949 0.091398
800000000 -0.15812 0.22688 -0.022827 0.016662 0.0053854 -0.010533 -0.0049522 -0.0019444
-0.0040955 0.0026374 0.0046906 0.00060392
-0.02276 0.016618 -0.33864 0.24598 -0.0080359 0.034149 -0.0023703 0.0021947
-0.0003658 0.0031082 0.0011023 0.0053016
0.0053676 -0.010571 -0.0079253 0.034177 -0.028586 0.30804 0.0010405 0.0013719
0.00038923 0.0035047 -0.0015997 0.00090972
-0.0049459 -0.0019529 -0.0023616 0.0021965 0.001037 0.0013811 -0.17596 0.22911
-0.028917 0.01347 0.013404 -0.0099729
-0.0040358 0.0025795 -0.00035249 0.0031298 0.00042638 0.0035306 -0.028943 0.013543
-0.20788 0.087651 -0.018107 0.018656
0.0046669 0.00062307 0.0010906 0.005318 -0.0016112 0.00092123 0.013377 -0.010002
-0.018116 0.01857 -0.24439 0.14105
860000000 -0.12363 0.24779 -0.01777 0.030968 -0.0033553 -0.0098034 -0.0026702 0.0010378
0.0039273 0.0049304 -0.0031931 -0.0030471
-0.017737 0.03093 -0.29111 0.28843 0.0078799 0.034478 -0.00010054 0.0020495
0.0042587 -4.978e-05 0.0032345 0.00069675
-0.003413 -0.0097587 0.0079483 0.034465 0.019616 0.31618 -0.00067972 -0.00040384
0.0027436 -0.0016177 0.0014698 0.0044152
-0.0026135 0.00097874 -5.2441e-05 0.0021048 -0.00066904 -0.00039915 -0.13995 0.24059
-0.018268 0.018683 -0.0060277 -0.0093296
0.0039651 0.0048367 0.0042215 -7.1757e-05 0.0027145 -0.0016281 -0.018266 0.018706
-0.15801 0.13932 -0.026218 0.015721
-0.0032753 -0.0029686 0.003143 0.00068046 0.0014633 0.0044145 -0.006074 -0.009313
-0.026337 0.015751 -0.19289 0.18753
920000000 -0.098662 0.271 0.0050286 0.038241 -0.0094038 -0.0041986 -0.0017136 0.0021576
0.0010137 0.0018842 0.0025126 -0.0016765
0.0050142 0.038178 -0.26194 0.30985 0.028224 0.022149 0.0015216 0.0011171
0.0067724 -0.00067025 0.0038971 -0.0025519
-0.009433 -0.0041767 0.028318 0.022064 0.066148 0.31669 0.0017824 -9.4722e-05
0.0011102 -0.00040953 0.00091858 -0.00087557
-0.0017102 0.0021454 0.0015437 0.0011088 0.0017796 -9.9833e-05 -0.11594 0.25794
-0.011128 0.030739 0.0033911 -0.0063322
0.001021 0.0019234 0.0067784 -0.00076181 0.0011115 -0.00039571 -0.011071 0.030756
-0.1478 0.14691 -0.0030937 0.027518
0.0026033 -0.0016334 0.0037984 -0.0025714 0.00090869 -0.00091451 0.0034088 -0.0063541
-0.0030462 0.027555 -0.20148 0.20136
980000000 -0.051299 0.2903 0.01758 0.03028 -0.0089087 0.0047639 0.0021902 0.0035402
0.0039727 -0.001356 -0.0031561 -0.0021878
0.017536 0.030292 -0.20915 0.34375 0.033163 0.0048492 0.0020796 -9.5079e-05
0.0013062 -0.005741 -0.00026098 -0.0023978
-0.0089133 0.0048073 0.033217 0.0047028 0.11249 0.30992 0.00052239 -0.001121
0.00024662 -0.0020378 0.0015298 -0.00016612
0.0022099 0.0035553 0.0020885 -0.00012463 0.00052751 -0.0011191 -0.077441 0.26971
0.0077335 0.030164 -0.0092851 -0.0071212
0.0039665 -0.001354 0.0013157 -0.005743 0.00025684 -0.0020388 0.007793 0.030177
-0.1175 0.17605 0.0044858 0.019408
-0.0031644 -0.0021036 -0.00024698 -0.0023737 0.0015343 -0.00018122 -0.0092854 -0.0070955
0.0045507 0.019484 -0.16005 0.24699
1040000000 -0.0089998 0.2987 0.03325 0.018293 -0.0010962 0.0069831 0.0026671 0.00061847
3.4231e-05 -0.0037824 -0.0003564 -0.0012779
0.033249 0.018325 -0.17332 0.35679 0.029448 -0.014835 0.0014418 -0.0016939
-0.0026253 -0.0023965 -0.0013822 -0.0026184
-0.0010543 0.0069998 0.029411 -0.014967 0.15847 0.29618 -0.00047609 -0.0014843
-0.001576 -0.00094126 -0.00034259 -0.0011594
0.0026643 0.00060805 0.001423 -0.001723 -0.00047485 -0.0014885 -0.049861 0.27992
0.019253 0.018211 -0.0022342 0.0018017
-1.7856e-05 -0.0037856 -0.0026595 -0.0024052 -0.0015996 -0.000946 0.019291 0.018184
-0.085255 0.18502 0.013109 0.018904
-0.00037219 -0.0012604 -0.0014327 -0.0026231 -0.00036065 -0.001161 -0.0022365 0.0018145
0.01307 0.018828 -0.13831 0.26736
1100000000 0.036503 0.3063 0.035969 -0.0040941 0.0030944 0.0038646 0.002368 -0.0014563
-0.0020396 -0.0030953 -0.0038101 -4.0935e-05
0.035936 -0.004067 -0.12982 0.37403 0.015111 -0.027774 -4.7346e-05 -0.0018292
-0.0031504 -0.00064223 -0.0033709 -0.00052382
0.0031098 0.0038504 0.015024 -0.027868 0.2048 0.27583 -0.0018146 0.0002627
-0.0017256 0.00051582 -0.0010261 -0.00056803
0.0023441 -0.0014921 -7.3823e-05 -0.0018412 -0.0018138 0.00025567 -0.0091759 0.28494
0.024355 0.0050998 -0.0024389 0.00032083
-0.0020874 -0.0031081 -0.0031914 -0.00063309 -0.001729 0.00051942 0.024372 0.005074
-0.067325 0.1993 0.018737 0.0090135
-0.0038283 2.0531e-05 -0.0033971 -0.00051385 -0.0010052 -0.00058095 -0.0024482 0.00033774
0.018719 0.0090417 -0.092519 0.29786
1160000000 0.087876 0.30118 0.024102 -0.020728 0.0028697 -0.00065436 -0.00033482 -0.0024905
-0.0042548 -0.00063111 -0.00087993 0.0041533
0.024093 -0.02066 -0.085981 0.37795 -0.0036802 -0.029012 -0.0017127 -0.0016389
-0.0024959 0.0024227 -0.0012346 0.0018401
0.0028544 -0.00065896 -0.0038252 -0.029058 0.24777 0.24499 -0.00058026 0.0016971
-0.00058607 0.001838 -0.0010055 0.0002125
-0.00032742 -0.0024659 -0.0017358 -0.0016386 -0.00058046 0.0016896 0.030486 0.28213
0.02085 -0.01019 -0.0028314 0.0053274
-0.0042211 -0.0006072 -0.0025297 0.0024356 -0.00057523 0.0018294 0.020841 -0.010227
-0.033282 0.20943 0.017979 0.00097295
-0.00079124 0.0041434 -0.0012459 0.0017911 -0.0010044 0.00019569 -0.0028196 0.0053584
0.017983 0.00098267 -0.045853 0.30073
1220000000 0.13223 0.28989 0.010556 -0.030036 -0.0015073 -0.0010328 -0.00012947 -0.00084695
-0.0026234 0.0025397 0.0014253 0.0019974
0.010571 -0.029988 -0.041703 0.38976 -0.016781 -0.021062 -0.0024799 0.00046772
4.714e-05 0.0028437 -0.00070827 0.0018455
-0.0014965 -0.001033 -0.016887 -0.021006 0.28693 0.20606 0.00081378 0.0015002
0.00053506 0.0011475 0.00023705 0.00074279
-0.00015001 -0.00085785 -0.0024851 0.00046906 0.00081954 0.0015016 0.07034 0.27345
0.010248 -0.016748 0.0025073 0.001446
-0.0025852 0.0025269 8.2218e-05 0.0028266 0.00054152 0.0011565 0.01025 -0.016768
-0.010195 0.21909 0.014434 -0.012321
0.0014237 0.001989 -0.00070069 0.001847 0.00024208 0.0007374 0.0025137 0.0014264
0.014426 -0.012291 -0.014648 0.31811
1280000000 0.18187 0.26768 -0.007731 -0.028525 -0.0019079 0.0022558 -0.00089923 -0.0019154
-0.00068924 0.0030689 0.0024836 0.0010567
-0.0077101 -0.028489 0.00421 0.38048 -0.023531 -0.0084632 -0.0009099 0.001433
0.0015805 0.0016408 0.00062164 0.0020665
-0.0019022 0.0022982 -0.023606 -0.0083419 0.31749 0.1622 0.0014805 -5.0557e-05
0.0010032 0.00031174 0.00044487 0.00042032
-0.00088326 -0.0018956 -0.00091168 0.0014303 0.0014804 -5.5256e-05 0.10715 0.25698
0.0010621 -0.018548 0.00020532 -6.6891e-05
-0.00070377 0.0030657 0.0015874 0.0016381 0.0010167 0.00032448 0.001029 -0.018553
0.026847 0.22317 0.003471 -0.014428
0.0024851 0.0010914 0.00063317 0.0020641 0.00043504 0.00043095 0.00021767 -7.6515e-05
0.0034789 -0.014425 0.033836 0.32059
1340000000 0.21879 0.23365 -0.017446 -0.019123 0.00074097 0.0042713 -0.0016644 -0.00073071
0.0014749 0.002651 0.0017081 -0.0014232
-0.017422 -0.019121 0.04337 0.37203 -0.021422 0.0040837 -0.00011521 0.0019466
0.0017472 0.00080911 0.0012914 0.00084919
0.00077923 0.0042865 -0.021416 0.0041841 0.33971 0.11416 0.0010216 -0.00082031
0.00072543 -0.00041113 0.00022709 0.00032003
-0.0016729 -0.00070376 -0.00010527 0.0019269 0.0010241 -0.00081662 0.13944 0.23669
-0.0081076 -0.015806 0.0010236 0.00016474
0.0014936 0.002663 0.0017626 0.00079826 0.00071335 -0.00042338 -0.0081282 -0.015794
0.057221 0.21881 -0.0029406 -0.013109
0.0017072 -0.0013893 0.0012848 0.00083168 0.00024147 0.00030398 0.0010299 0.00015155
-0.0029461 -0.013139 0.071952 0.31661
1400000000 0.25142 0.19534 -0.023321 -0.0077346 0.0049238 0.0030647 -0.0019589 0.00057142
0.0023772 0.00081731 0.00029767 -0.0013344
-0.023295 -0.0077422 0.080398 0.35884 -0.014815 0.012151 0.0012419 0.0012867
0.0010596 -0.00070176 0.0012157 0.00025275
0.0049067 0.00304 -0.01476 0.012235 0.3529 0.060472 0.00016878 -0.0014623
-1.6748e-05 -0.0003471 0.00048947 0.00021847
-0.0019567 0.00058097 0.0012451 0.0012794 0.00016195 -0.0014678 0.16891 0.20817
-0.013645 -0.0093911 -0.00080713 -0.0007697
0.0023877 0.00079488 0.0010565 -0.00070293 -1.9549e-05 -0.00035767 -0.013661 -0.0093614
0.090407 0.21462 -0.0092535 -0.0088749
0.0002943 -0.0013562 0.0012123 0.00023409 0.00049533 0.00020645 -0.00081415 -0.00076553
-0.0092355 -0.0088903 0.1175 0.30583
1460000000 0.2737 0.15127 -0.020545 0.0044352 0.0053742 -0.0017592 -0.0015792 0.0016245
0.002063 -0.00061353 -0.00035271 -0.00096424
-0.020528 0.0044067 0.11425 0.33702 -0.0062221 0.015009 0.001701 0.00023589
0.00092235 -0.0011694 0.0011593 -0.00060169
0.0053842 -0.0017849 -0.006163 0.015041 0.35883 0.0059863 -0.001159 -0.0012363
0.00020004 -0.00032001 0.00058772 -0.00029104
-0.0015864 0.0016289 0.0017057 0.00020923 -0.0011489 -0.0012246 0.19525 0.17928
-0.014767 -0.0030505 -0.0010997 0.0017718
0.0020596 -0.00063088 0.00091504 -0.0011664 0.00020015 -0.00031499 -0.014784 -0.0030273
0.1196 0.20004 -0.011239 -0.0032008
-0.00035575 -0.00099853 0.0011421 -0.00059674 0.00057519 -0.00031202 -0.001123 0.0017736
-0.011272 -0.0031978 0.15078 0.28533
1520000000 0.2855 0.10976 -0.015011 0.010124 0.0031708 -0.0039767 4.3573e-05 0.0025575
0.0019664 -0.0017091 -0.0010724 -7.2092e-05
-0.015 0.010108 0.1476 0.32244 0.0012608 0.012961 0.0016497 -0.00072822
0.00010061 -0.0010096 0.00033102 -0.0010323
0.0031522 -0.0040031 0.0013268 0.01296 0.35184 -0.050492 -0.00096771 -0.00037075
0.00064144 -0.00080662 -4.1223e-06 -0.00011635
5.2985e-05 0.0025556 0.0016428 -0.0007371 -0.00096629 -0.00038124 0.21873 0.14175
-0.014281 0.0022749 0.0011394 0.0019942
0.0019509 -0.0017141 7.4445e-05 -0.0010152 0.00064288 -0.00082147 -0.014264 0.0022993
0.14739 0.18621 -0.011368 0.00099764
-0.0010993 -7.0823e-05 0.00032046 -0.0010337 4.8149e-06 -0.00012771 0.0011372 0.0019789
-0.011373 0.00099074 0.18453 0.26515
1580000000 0.29464 0.063892 -0.0083966 0.013406 -0.00086026 -0.0046825 0.00131 0.0019177
-0.00038412 -0.0019941 -0.00037502 0.00041854
-0.0083931 0.013385 0.17472 0.29781 0.0048752 0.0083323 0.00048859 -0.0015842
-0.00055023 -0.0010854 -0.00031888 -0.00077995
-0.00088541 -0.0046442 0.004915 0.0083085 0.33119 -0.10779 -0.0016015 0.00048751
-0.00030731 -0.0010561 6.384e-05 -0.00048562
0.0013202 0.0018985 0.00048452 -0.0015864 -0.0016089 0.0005038 0.23308 0.1026
-0.011042 0.006986 0.0020939 0.00098271
-0.00039905 -0.0020093 -0.00055361 -0.0010846 -0.00031603 -0.0010558 -0.011027 0.0070121
0.17188 0.16861 -0.0092278 0.0068575
-0.00037521 0.00040468 -0.00032371 -0.00077435 6.0255e-05 -0.00049074 0.0020998 0.00097644
-0.0092417 0.0068525 0.21724 0.23826
1640000000 0.29673 0.022842 -0.0016105 0.012487 -0.0025162 -0.0024267 0.002697 0.0010505
-0.00063335 -0.0013965 -0.0002052 0.00054422
-0.0016096 0.012492 0.20414 0.27303 0.0057818 0.0036678 -0.00063879 -0.0017175
-0.0010291 -0.00043065 -0.00049794 -0.00064938
-0.0025292 -0.0024357 0.0058003 0.0036395 0.30291 -0.15696 -0.00072697 0.0014001
-0.0009823 -0.001008 -7.4621e-05 -0.00048849
0.0027174 0.0010332 -0.00065245 -0.001714 -0.00072708 0.0013978 0.24581 0.053828
-0.0070484 0.0082026 0.0023578 -0.00062521
-0.00062754 -0.0013999 -0.0010409 -0.00042261 -0.00098046 -0.0010162 -0.0070526 0.0082193
0.19432 0.14455 -0.0048861 0.0088294
-0.00018904 0.00058036 -0.00050417 -0.00064802 -7.6625e-05 -0.00048755 0.002361 -0.00063994
-0.0048872 0.008835 0.24284 0.2072
1700000000 0.2895 -0.022334 0.0019197 0.0097386 -0.0032312 0.00010138 0.0030123 -0.0011028
-0.0019477 -0.00062298 0.00064593 0.00044757
0.0019135 0.0097119 0.22229 0.24158 0.003872 0.00090206 -0.0014903 -0.00056239
-0.00084915 7.8205e-05 -0.00089104 -0.00039123
-0.0032524 0.0001219 0.0038664 0.00087885 0.25937 -0.19656 0.00036135 0.001678
-0.0019253 -0.00023309 -0.00043645 -0.00082036
0.0030066 -0.0011135 -0.0014739 -0.00055651 0.00036936 0.0016697 0.24302 0.0041403
-0.0046149 0.0088601 0.0014518 -0.0020777
-0.0019424 -0.00062321 -0.00084633 9.4301e-05 -0.0019172 -0.00022327 -0.0046094 0.0088651
0.21184 0.12468 -0.00023948 0.0092469
0.00065348 0.00044632 -0.00089876 -0.00038622 -0.00045952 -0.00081348 0.0014523 -0.0020555
-0.00024483 0.0092605 0.25942 0.17255
1760000000 0.27739 -0.070795 0.0043971 0.0065169 -0.0021728 0.00093393 0.0014039 -0.0033429
-0.001226 0.00071517 0.00043696 -0.00062301
0.0043806 0.0065158 0.24817 0.20176 0.0016974 -0.00095113 -0.0011626 0.00021455
-0.00098399 0.00096188 -0.00052701 0.0004221
-0.0021461 0.00092653 0.0017112 -0.00095245 0.21062 -0.22962 0.0012118 0.0011891
-0.001143 0.0014371 -0.0013042 -0.00053264
0.0013979 -0.0033529 -0.0011681 0.00022386 0.0012205 0.0011975 0.23406 -0.047471
-0.0013966 0.0082465 -0.00019741 -0.0023932
-0.0012281 0.00072415 -0.00097648 0.00097071 -0.0011371 0.0014271 -0.0013923 0.0082623
0.22675 0.089904 0.0035626 0.0068614
0.0004426 -0.00063774 -0.00052381 0.00043038 -0.0013366 -0.0005274 -0.00022102 -0.0023929
0.0035647 0.0068688 0.27198 0.13473
1820000000 0.25278 -0.10813 0.0047082 0.0028872 3.0612e-05 0.0023364 -0.00091765 -0.0030721
-0.0010346 0.00082322 -6.0465e-05 -0.0001267
0.0047052 0.0028961 0.25818 0.17179 -0.00014884 9.1897e-05 -0.0012716 0.00093247
1.4666e-05 0.0013297 -0.00045645 0.00051208
6.676e-06 0.0023812 -0.00016014 9.9253e-05 0.16042 -0.24542 0.0015527 0.0003995
-0.0003081 0.002221 -0.0012822 0.00033712
-0.00094953 -0.0030736 -0.0012826 0.00094036 0.0015495 0.00041177 0.20429 -0.094658
-6.53e-06 0.0067442 -0.0015151 -0.0014427
-0.0010324 0.00083643 2.8015e-05 0.0013369 -0.00028808 0.0022325 2.2244e-06 0.0067534
0.24395 0.061132 0.0045258 0.0035597
-4.794e-05 -0.00014242 -0.00045045 0.00051597 -0.0012722 0.0003409 -0.0014998 -0.0014576
0.0045181 0.0035592 0.2744 0.098833
1880000000 0.21768 -0.1484 0.002603 0.00046998 -0.00042665 0.0018835 -0.0028851 -0.0021851
-0.00023989 0.0016175 0.00023983 -0.00056884
0.002592 0.00048181 0.26255 0.12526 -0.0021249 0.0016867 -0.00014996 0.0016722
0.00064669 0.0011479 0.00012457 0.00084365
-0.00040316 0.0018268 -0.0021263 0.0017035 0.1084 -0.25475 0.0018175 -0.0010299
0.0015359 0.0019804 -0.0009593 0.0012248
-0.0029187 -0.0021707 -0.00015089 0.0016716 0.0018286 -0.0010415 0.16385 -0.13498
0.00078458 0.0049886 -0.0022968 0.00050092
-0.00022032 0.0016067 0.00065162 0.001147 0.0015419 0.0019772 0.00080894 0.0049964
0.24703 0.028706 0.0046303 0.0014642
0.00024669 -0.00057357 0.00012791 0.00083259 -0.00095052 0.0012304 -0.0022835 0.00051332
0.0046363 0.0014604 0.27398 0.064601
1940000000 0.17821 -0.17417 0.00044117 -0.0013442 0.0012181 0.0018037 -0.0038423 0.00046577
0.001235 0.00091764 -0.00069692 -0.00052582
0.00044076 -0.0013207 0.26309 0.093527 -0.00095596 0.0038036 0.0010109 0.0013016
0.0018492 0.00034779 0.00080772 0.00021045
0.0012115 0.0018102 -0.00092954 0.0038203 0.062522 -0.24779 0.00033039 -0.0022967
0.0024324 0.00041812 0.00020345 0.0016135
-0.0038193 0.00044863 0.0010312 0.0013016 0.00031732 -0.0022659 0.11165 -0.16531
-7.0909e-05 0.0039474 -0.0013204 0.0014813
0.0012801 0.00091887 0.0018517 0.0003399 0.0024312 0.00042225 -5.1356e-05 0.0039612
0.24889 -0.0099262 0.0035846 -0.0018034
-0.00068491 -0.00050107 0.00079774 0.00021316 0.00021903 0.0016004 -0.0013475 0.001501
0.0035893 -0.0018033 0.2631 0.028759
2000000000 0.13176 -0.18883 -0.0034223 0.00048446 0.002385 0.0016185 -0.0023624 0.0034931
0.0010899 0.00016538 -0.00075048 0.0003836
-0.0034201 0.00047079 0.24887 0.058039 -0.00087612 0.0055857 0.0016394 0.00036994
0.0012359 -0.0014275 0.00038144 9.0655e-05
0.0023851 0.0015562 -0.00082507 0.0056236 0.019166 -0.23328 -0.0013601 -0.0012755
0.0019129 -0.0011362 0.0014763 0.0012649
-0.0023187 0.0035211 0.0016493 0.00036071 -0.0013749 -0.001269 0.058222 -0.17544
-0.0015633 0.0037866 3.9402e-05 0.0021361
0.0010629 0.00017287 0.0012261 -0.0014327 0.0019278 -0.0011251 -0.001543 0.0037983
