!Keysight Technologies,M9804A,MY58100912,A.14.10.03
!Date: Thursday, April 27, 2023 10:28:33
!Correction: S11(C  6-Port  ) 
!S12(C  6-Port  ) 
!S13(C  6-Port  ) 
!S14(C  6-Port  ) 
!S15(C  6-Port  ) 
!S16(C  6-Port  ) 
!S21(C  6-Port  ) 
!S22(C  6-Port  ) 
!S23(C  6-Port  ) 
!S24(C  6-Port  ) 
!S25(C  6-Port  ) 
!S26(C  6-Port  ) 
!S31(C  6-Port  ) 
!S32(C  6-Port  ) 
!S33(C  6-Port  ) 
!S34(C  6-Port  ) 
!S35(C  6-Port  ) 
!S36(C  6-Port  ) 
!S41(C  6-Port  ) 
!S42(C  6-Port  ) 
!S43(C  6-Port  ) 
!S44(C  6-Port  ) 
!S45(C  6-Port  ) 
!S46(C  6-Port  ) 
!S51(C  6-Port  ) 
!S52(C  6-Port  ) 
!S53(C  6-Port  ) 
!S54(C  6-Port  ) 
!S55(C  6-Port  ) 
!S56(C  6-Port  ) 
!S61(C  6-Port  ) 
!S62(C  6-Port  ) 
!S63(C  6-Port  ) 
!S64(C  6-Port  ) 
!S65(C  6-Port  ) 
!S66(C  6-Port  ) 
!S6P File: Measurement: :
# Hz S  RI   R 50
500000000 -0.33839 -0.03943 -0.010757 -0.0023447 -0.0076531 0.012897 -0.0040806 0.0118
0.011586 0.0042637 -0.0051086 0.0097277
-0.010814 -0.0023069 -0.41928 -0.051542 0.007824 -0.011052 0.002268 0.011932
0.0071002 0.0025039 0.002366 0.013624
-0.0076476 0.012949 0.0077898 -0.011114 -0.26572 0.20916 0.0080045 0.0032298
-0.0019266 0.0083884 0.0020493 0.012164
-0.0039397 0.011791 0.0023111 0.011859 0.0079875 0.0032152 -0.32908 0.044153
-0.018572 -0.0058493 0.017728 0.025439
0.011529 0.0043274 0.0071515 0.0024907 -0.001731 0.0083622 -0.018508 -0.0058944
-0.22583 -0.19555 -0.025754 0.0056401
-0.004777 0.0095783 0.0024044 0.013523 0.0019993 0.012214 0.017729 0.025749
-0.025659 0.0055512 -0.26538 -0.13022
560000000 -0.31801 0.12508 -0.022827 -0.063238 0.00017633 0.013063 0.0067527 0.010799
0.011148 0.0043722 0.011289 0.0054804
-0.022649 -0.063247 -0.37618 0.10709 -0.041149 -0.037809 0.013661 0.0043424
-0.013274 -0.00422 0.0039816 -0.00089074
0.00023079 0.01293 -0.041318 -0.037588 -0.18302 0.25759 -0.00060941 -0.0050446
0.018861 0.0041389 0.0065115 -0.0064393
0.0067611 0.010865 0.013744 0.0043047 -0.00058993 -0.0050497 -0.30671 0.13324
0.0033907 -0.023423 0.0038224 -0.021637
0.011282 0.0040359 -0.013378 -0.0042766 0.018858 0.0039842 0.0034342 -0.023538
-0.29187 -0.019796 0.0094965 -0.048869
0.011422 0.0055068 0.0038929 -0.0010323 0.0065599 -0.0063449 0.0040508 -0.021588
0.0091546 -0.048502 -0.32876 0.017524
620000000 -0.27534 0.10645 -0.02295 0.0081422 0.002997 0.0089795 0.0069189 -0.0044934
0.011565 0.00098718 -3.8778e-05 -0.0022035
-0.022894 0.0080926 -0.40254 0.060065 -0.018431 3.4328e-05 -0.0014787 -0.0020854
0.011389 -0.0063876 0.0018862 -0.0031102
0.0030104 0.0089814 -0.018465 9.4497e-05 -0.15377 0.26672 -0.0014817 -0.0052833
-0.0028868 -0.0027308 0.0086777 -0.0037359
0.0068773 -0.0042633 -0.0014797 -0.0020401 -0.0015021 -0.0052486 -0.26496 0.14379
-0.037556 -0.019858 0.01139 0.026492
0.011617 0.00090607 0.011411 -0.0063936 -0.0028802 -0.0027589 -0.037741 -0.019812
-0.21051 -0.056853 -0.040613 0.014225
0.00026264 -0.001822 0.0018624 -0.0032107 0.0086044 -0.0036857 0.011703 0.026793
-0.040788 0.014028 -0.25129 -0.017401
680000000 -0.23393 0.19439 -0.026867 -0.013929 0.0057496 0.005323 0.0014704 -0.0073277
-0.0033547 -0.011116 0.0049319 -0.0066544
-0.026804 -0.013889 -0.3875 0.1578 -0.032505 -0.0012518 -0.0016143 -0.00040124
-0.0021562 -0.0088763 -0.0016978 -0.0021985
0.0057185 0.005317 -0.032606 -0.0011922 -0.10209 0.28638 -0.00095628 -0.00013605
-0.0017773 0.00058811 -0.0027406 -0.0094828
0.0015994 -0.0075151 -0.0015495 -0.00037721 -0.00097314 -0.00013811 -0.22081 0.19409
-0.023354 -0.0072742 -0.0091119 -0.011285
-0.0034308 -0.011283 -0.0021959 -0.0088915 -0.0017605 0.0006396 -0.023486 -0.0074
-0.25909 0.041187 -0.0058291 -0.0084916
0.0049052 -0.0067236 -0.0018564 -0.0021442 -0.0026933 -0.009444 -0.009176 -0.011215
-0.005854 -0.0083915 -0.26019 0.08864
740000000 -0.18988 0.18761 -0.038669 0.026592 0.013228 -0.0046958 -0.0004484 -0.0044073
-0.0051873 -0.0031474 -0.0054761 0.0030234
-0.038663 0.02643 -0.33511 0.17645 -0.035475 0.03518 -0.00078563 -0.0060374
-0.012015 0.0077786 -0.0026533 -0.0058951
0.013231 -0.004711 -0.035351 0.035347 -0.068358 0.28491 -0.0021661 0.0032263
-0.0022139 -0.0042968 -0.0020683 -6.0965e-05
-0.00028095 -0.0043731 -0.00075309 -0.0059929 -0.0021314 0.0032328 -0.20376 0.20171
-0.043793 -0.0067564 0.022665 0.014612
-0.0052641 -0.0029401 -0.011636 0.0080499 -0.0021864 -0.0042811 -0.043572 -0.0067554
-0.16004 0.068039 -0.04395 0.00075997
-0.0053208 0.0029529 -0.0025886 -0.0057823 -0.0020201 -1.8554e-05 0.022803 0.014418
-0.043816 0.00062698 -0.24959 0.093364
800000000 -0.1573 0.22769 -0.022382 0.016671 0.0053028 -0.010686 -0.0047276 -0.0018329
-0.0038341 0.0022656 0.0042434 0.00083852
-0.02237 0.016624 -0.33795 0.2465 -0.0078648 0.033791 -0.0024117 0.0022052
-0.00054035 0.0029365 0.00093016 0.0053798
0.0052495 -0.010659 -0.0077497 0.033853 -0.027791 0.3076 0.0011874 0.001452
0.00038819 0.003556 -0.0015712 0.00079359
-0.0047579 -0.0018266 -0.0023214 0.0022388 0.0011994 0.0014401 -0.17511 0.22967
-0.028599 0.013598 0.013725 -0.010201
-0.0038819 0.0022318 -0.00062981 0.0028811 0.00028143 0.0035716 -0.02856 0.013635
-0.20727 0.091079 -0.017529 0.018937
0.0040262 0.00063698 0.0010119 0.005413 -0.0016173 0.00073194 0.013693 -0.010253
-0.017511 0.018917 -0.24269 0.14336
860000000 -0.12289 0.24791 -0.017444 0.030702 -0.0032943 -0.0098161 -0.0027533 0.00071552
0.0042435 0.0045644 -0.0034908 -0.0023998
-0.017388 0.030684 -0.29045 0.28838 0.0079512 0.033902 0.0001234 0.0021378
0.0042633 8.4811e-05 0.0041016 0.00087046
-0.0033065 -0.0098098 0.0080672 0.03393 0.020163 0.31567 -0.00065703 -0.00036065
0.0028316 -0.0014552 0.0014708 0.0045593
-0.0027986 0.00073928 0.00012832 0.0020697 -0.00066855 -0.00035463 -0.13891 0.24017
-0.018463 0.018318 -0.0063325 -0.0095272
0.0042252 0.0046052 0.0042485 0.0001077 0.002872 -0.0014568 -0.018456 0.018391
-0.15588 0.14207 -0.025586 0.016019
-0.0035981 -0.0022548 0.0040736 0.00066869 0.0013412 0.0045286 -0.006539 -0.0096824
-0.025703 0.016036 -0.19291 0.1905
920000000 -0.098152 0.27117 0.0051704 0.037605 -0.0094267 -0.0043451 -0.0016284 0.0020718
0.0012442 0.0020679 0.0028024 -0.0017799
0.0051129 0.037565 -0.26164 0.30955 0.02801 0.021736 0.0014375 0.0010748
0.0068033 -0.00056062 0.0039366 -0.0026003
-0.0094449 -0.004313 0.028123 0.021658 0.066268 0.31629 0.0018871 -0.00020234
0.0012091 -0.00027197 0.00079984 -0.0012717
-0.0016592 0.0020558 0.0014581 0.001084 0.001875 -0.00021765 -0.11476 0.25798
-0.010505 0.030441 0.004042 -0.0063601
0.0012418 0.0019813 0.0067417 -0.00059373 0.0011469 -0.00025529 -0.010431 0.03044
-0.14502 0.14805 -0.002544 0.027252
0.0027388 -0.0017404 0.0039475 -0.002622 0.00082565 -0.0012215 0.0040578 -0.0064453
-0.0025139 0.027385 -0.19966 0.20353
980000000 -0.050631 0.28972 0.017435 0.029989 -0.0089632 0.0046394 0.0021713 0.0035142
0.0039654 -0.0014289 -0.0031245 -0.0018826
0.017411 0.029962 -0.20875 0.34349 0.032809 0.0047786 0.0020325 4.3838e-05
0.0014367 -0.0058725 -0.00022592 -0.0023391
-0.0089609 0.0046591 0.032858 0.0046973 0.11247 0.30964 0.00048309 -0.0012466
0.00026263 -0.0021258 0.0014856 -0.0001448
0.0021496 0.0035682 0.0020432 1.6363e-05 0.00047913 -0.0012382 -0.076779 0.26858
0.0077012 0.029608 -0.0093001 -0.007492
0.0039827 -0.0014749 0.0013894 -0.0058652 0.0002477 -0.0021474 0.0077406 0.02954
-0.11534 0.17761 0.0048393 0.019409
-0.0030724 -0.0019383 -0.00024724 -0.002312 0.0014708 -0.00015441 -0.0092511 -0.0075548
0.004876 0.019336 -0.15776 0.24835
1040000000 -0.008743 0.29861 0.033117 0.017965 -0.0011213 0.0069128 0.002727 0.00070607
0.0002126 -0.003612 -0.00034268 -0.0015496
0.033091 0.018002 -0.17311 0.35634 0.029214 -0.014721 0.0013818 -0.0017279
-0.002601 -0.0025443 -0.0014797 -0.0024404
-0.0010816 0.0068997 0.029229 -0.014853 0.15851 0.29598 -0.00050231 -0.0014788
-0.0016582 -0.00078238 -0.00058344 -0.00099546
0.0026965 0.00066227 0.0013876 -0.0016938 -0.00050222 -0.0014756 -0.049577 0.27907
0.018996 0.017776 -0.0022669 0.0015772
0.00020871 -0.0036696 -0.0026366 -0.0024866 -0.0016442 -0.00079364 0.019014 0.017767
-0.083119 0.18568 0.013346 0.018607
-0.00035719 -0.0015075 -0.0014908 -0.0024511 -0.00057177 -0.0010027 -0.0022791 0.001611
0.013233 0.018634 -0.13586 0.26889
1100000000 0.036438 0.30615 0.035614 -0.0042592 0.0029162 0.0038401 0.0023927 -0.0012817
-0.0021007 -0.0031594 -0.0039206 0.00010394
0.035604 -0.0042394 -0.12979 0.37352 0.015045 -0.027641 1.4786e-05 -0.0018108
-0.0033596 -0.00072304 -0.0034503 -0.00046656
0.0029396 0.0038241 0.014951 -0.027715 0.20479 0.27566 -0.0018898 0.00025729
-0.0017279 0.00052959 -0.0010689 -0.00029494
0.0023963 -0.0012554 -6.1311e-06 -0.0018094 -0.0018851 0.0002576 -0.0093396 0.2841
0.024368 0.0049655 -0.0025126 9.376e-05
-0.0021122 -0.0031383 -0.0033824 -0.00069691 -0.0017243 0.00055192 0.024324 0.0049155
-0.065232 0.19903 0.019069 0.008735
-0.0038407 0.00011812 -0.0034567 -0.00048302 -0.0010748 -0.00028556 -0.0025011 3.7291e-05
0.019085 0.0088113 -0.090589 0.29842
1160000000 0.087731 0.30127 0.023845 -0.02069 0.0026516 -0.0005432 -0.00013243 -0.0023546
-0.0042579 -0.00072487 -0.00082204 0.0039989
0.023867 -0.020674 -0.086254 0.37756 -0.0037721 -0.028878 -0.0016177 -0.001745
-0.0025517 0.0024713 -0.0014833 0.0017317
0.0026649 -0.00056263 -0.0039073 -0.028878 0.2477 0.24489 -0.00071251 0.0016752
-0.00047781 0.0019953 -0.00090675 0.000316
-0.00012158 -0.0024067 -0.001617 -0.0017407 -0.00072704 0.001688 0.029859 0.28161
0.020528 -0.010432 -0.0028769 0.0052455
-0.0042476 -0.00072414 -0.0025399 0.0025163 -0.00047675 0.0019822 0.020536 -0.010459
-0.031606 0.20906 0.017978 0.000665
-0.000831 0.0040052 -0.0015243 0.0017688 -0.0009024 0.00030949 -0.0028437 0.0052841
0.018042 0.00062214 -0.043425 0.30137
1220000000 0.13204 0.28991 0.010196 -0.029938 -0.0015446 -0.00080971 -0.00010257 -0.0010611
-0.0027849 0.0024509 0.0012514 0.0020787
0.0102 -0.029895 -0.041955 0.38955 -0.016748 -0.02099 -0.0025588 0.00044894
7.9218e-05 0.002986 -0.00071754 0.001875
-0.0015533 -0.00080464 -0.016862 -0.020934 0.28681 0.20585 0.00087434 0.001634
0.000617 0.0011988 0.00034786 0.00061164
-0.00012411 -0.0010485 -0.0025452 0.00047905 0.00086682 0.0016244 0.069547 0.27336
0.010145 -0.01664 0.0021171 0.0015764
-0.0027638 0.0024517 7.4448e-05 0.0029758 0.00060121 0.0012086 0.010136 -0.016629
-0.0088503 0.21827 0.014373 -0.012648
0.0012945 0.0021244 -0.00073266 0.0018747 0.00035421 0.00060911 0.0021134 0.0015689
0.014383 -0.012599 -0.012222 0.31858
1280000000 0.18191 0.26796 -0.0079432 -0.02827 -0.0018344 0.002539 -0.0009268 -0.0019368
-0.00068754 0.0030303 0.0026177 0.0010625
-0.0079212 -0.028236 0.0038418 0.38043 -0.023502 -0.0084407 -0.00095245 0.0013615
0.0016641 0.0017979 0.00056852 0.0020129
-0.0018154 0.0025483 -0.023576 -0.0083472 0.31741 0.16204 0.0015549 -0.00018932
0.0010733 0.00026828 0.0003885 0.00036105
-0.00091252 -0.0019386 -0.00095004 0.0013702 0.0015453 -0.00018601 0.10655 0.25741
0.00092573 -0.018717 0.0001049 1.3001e-05
-0.00068989 0.0030416 0.0016951 0.0018037 0.0010801 0.00025941 0.00088791 -0.018707
0.027399 0.22238 0.0029837 -0.014789
0.0025699 0.0010263 0.00059118 0.0020008 0.00041384 0.00033558 9.2362e-05 -3.7629e-05
0.0030146 -0.01476 0.035471 0.32048
1340000000 0.21889 0.23396 -0.017615 -0.018655 0.00087027 0.0044292 -0.001814 -0.00082877
0.0014982 0.0026693 0.0016548 -0.0013154
-0.017577 -0.018666 0.04306 0.37227 -0.02144 0.0040903 -0.00011022 0.0019701
0.0018745 0.00067271 0.0013083 0.00078768
0.0008834 0.0044298 -0.021442 0.0041941 0.33942 0.11425 0.0010126 -0.00091791
0.00067604 -0.00043952 0.00018355 0.00036622
-0.001802 -0.00081699 -9.1999e-05 0.0019713 0.0010203 -0.00091573 0.13924 0.23727
-0.0082222 -0.015692 0.00086103 0.00039739
0.0014958 0.0026304 0.0018846 0.00066582 0.00065978 -0.00044595 -0.0082635 -0.015692
0.057553 0.2184 -0.0032952 -0.013332
0.0016345 -0.0013145 0.0013042 0.00078157 0.0002057 0.00036287 0.00083699 0.00040839
-0.0032917 -0.013342 0.073628 0.31619
1400000000 0.25178 0.19559 -0.023208 -0.0072921 0.0051511 0.0030347 -0.0020804 0.00069559
0.002431 0.00087299 0.00029877 -0.0013946
-0.023178 -0.0073096 0.080212 0.35929 -0.01482 0.012198 0.001328 0.0012646
0.0011378 -0.00080785 0.0010793 0.00020694
0.0051647 0.0030252 -0.014778 0.012294 0.35266 0.060704 9.0437e-05 -0.0015918
4.8282e-06 -0.00044802 0.00038557 0.00027402
-0.0020762 0.00070219 0.0013231 0.0012605 9.9057e-05 -0.0015882 0.16904 0.20877
-0.013798 -0.0094077 -0.00081433 -0.0004808
0.0024355 0.00086034 0.001147 -0.00081802 1.0518e-05 -0.00044347 -0.013822 -0.0093886
0.090574 0.2145 -0.0097978 -0.0088408
0.00030192 -0.001392 0.0010819 0.00022428 0.00036607 0.00027727 -0.00079078 -0.00046908
-0.0097762 -0.0088626 0.119 0.30524
1460000000 0.27425 0.15137 -0.0202 0.0047897 0.0054251 -0.0018655 -0.0015532 0.0018039
0.0020673 -0.00051084 -0.00034994 -0.0010985
-0.020168 0.0047638 0.11431 0.33761 -0.0063561 0.015134 0.0017418 0.00019591
0.00088693 -0.0012822 0.0011198 -0.00061404
0.0054331 -0.0018928 -0.0062852 0.015174 0.35872 0.0061897 -0.0012066 -0.0011652
0.00022676 -0.00013176 0.00048252 -0.00034073
-0.001557 0.001796 0.0017386 0.00018156 -0.0012105 -0.0011515 0.19567 0.17985
-0.015119 -0.002869 -0.00094475 0.0018882
0.002073 -0.00053186 0.00085094 -0.0012881 0.00022162 -0.00015263 -0.015138 -0.0028272
0.1199 0.20043 -0.011544 -0.0027061
-0.00034759 -0.0010488 0.0011169 -0.00062232 0.00045632 -0.00036902 -0.00095558 0.0018773
-0.01152 -0.0027713 0.15195 0.28444
1520000000 0.28618 0.10953 -0.01455 0.010224 0.0031926 -0.0041175 0.00010918 0.0026097
0.0020916 -0.0017204 -0.0011243 -5.8143e-05
-0.014542 0.010199 0.14791 0.32301 0.0014211 0.013068 0.0016282 -0.00078078
2.4957e-05 -0.00096191 0.00037292 -0.00098527
0.003177 -0.0041352 0.0014891 0.013071 0.35187 -0.049965 -0.0010145 -0.0002782
0.00063232 -0.00077678 1.9664e-05 -0.00010845
0.00012824 0.002607 0.001621 -0.00078907 -0.0010138 -0.00028206 0.21944 0.14197
-0.014249 0.0025082 0.0013565 0.0019848
0.0020527 -0.0017358 7.3638e-06 -0.00097245 0.00060464 -0.0007703 -0.014251 0.0025585
0.14823 0.18674 -0.011647 0.0014111
-0.0010902 -5.3517e-05 0.00035682 -0.00098532 3.322e-05 -0.00013058 0.0013526 0.001991
-0.011632 0.0014127 0.18563 0.26427
1580000000 0.29508 0.063281 -0.007934 0.013161 -0.00085107 -0.0047828 0.0014946 0.0019005
-0.00029508 -0.0020424 -0.00042442 0.0004163
-0.0079348 0.013157 0.17527 0.29819 0.0050573 0.0083396 0.00044479 -0.0015429
-0.000485 -0.0010023 -0.00020813 -0.00084949
-0.0008675 -0.0047908 0.0051199 0.0083307 0.33154 -0.1076 -0.0015506 0.00055263
-0.00028533 -0.0012058 0.00011477 -0.00051982
0.0014856 0.0019044 0.00046032 -0.001554 -0.0015551 0.00055624 0.23374 0.10248
-0.011086 0.0072614 0.002304 0.00087974
-0.00031683 -0.0020318 -0.00048752 -0.0010022 -0.00029187 -0.0012402 -0.011073 0.0072852
0.17277 0.16909 -0.0091227 0.0072501
-0.0004168 0.00043105 -0.00022854 -0.00085048 0.00010321 -0.00051406 0.0023146 0.00086376
-0.0091412 0.0072335 0.21812 0.23727
1640000000 0.29677 0.022149 -0.0013753 0.012156 -0.0026639 -0.0025682 0.0027537 0.00096955
-0.00059742 -0.0014457 -0.00028431 0.00049055
-0.001389 0.012153 0.20479 0.27317 0.0058776 0.0035871 -0.00064053 -0.0017009
-0.00095505 -0.00037648 -0.00049 -0.00072671
-0.0026775 -0.0025663 0.0058902 0.0035522 0.30341 -0.15678 -0.0006654 0.001359
-0.0010466 -0.0011237 -4.0617e-05 -0.00038176
0.0027466 0.00093723 -0.00065127 -0.0016964 -0.00065598 0.0013494 0.24636 0.053482
-0.0068601 0.0084073 0.0024525 -0.00076853
-0.00062246 -0.0014389 -0.00095008 -0.00037884 -0.0010488 -0.0011088 -0.0068434 0.0084418
0.19598 0.14471 -0.0046247 0.0091496
-0.0003127 0.00050979 -0.00049127 -0.00072142 -4.4506e-05 -0.00038837 0.0024639 -0.00079312
-0.0046246 0.0091438 0.24334 0.20627
1700000000 0.28924 -0.022939 0.0019737 0.0093407 -0.0034577 0.00011597 0.00296 -0.0012368
-0.0020093 -0.00067693 0.00067031 0.00047598
0.0019563 0.0093233 0.22299 0.2415 0.0039006 0.00070331 -0.0014373 -0.00058143
-0.00074896 3.9445e-07 -0.00088825 -0.00042832
-0.0034714 0.00012915 0.0039096 0.00065971 0.2597 -0.19682 0.0003474 0.0016454
-0.0018859 -0.00020295 -0.00037381 -0.00076036
0.0029519 -0.0012317 -0.0014423 -0.00057436 0.00034189 0.0016397 0.24325 0.0034043
-0.0043406 0.0089563 0.0013844 -0.0022302
-0.0020182 -0.0006512 -0.0007416 5.7984e-06 -0.0019121 -0.00018475 -0.0043341 0.0089742
0.21354 0.12444 -3.2532e-06 0.0095324
0.0006866 0.00045076 -0.00089785 -0.00043941 -0.0003857 -0.00074606 0.0013863 -0.0022254
-2.3602e-05 0.0095356 0.2601 0.17177
1760000000 0.27689 -0.071215 0.0042001 0.0061555 -0.0022609 0.0010131 0.0013082 -0.0034146
-0.0013036 0.0006707 0.00040585 -0.00067357
0.0041941 0.0061553 0.24887 0.20145 0.0016533 -0.0010508 -0.0011159 0.00015632
-0.000942 0.00085687 -0.0006427 0.00042484
-0.0022546 0.0010249 0.0016386 -0.0010708 0.21059 -0.22996 0.001205 0.0010832
-0.001065 0.0014341 -0.0013387 -0.00044153
0.0012782 -0.0034341 -0.0011219 0.00014872 0.0011973 0.0011061 0.23401 -0.048338
-0.0011596 0.0081893 -0.00012843 -0.0024092
-0.001298 0.00067563 -0.00093681 0.00085886 -0.0010768 0.0014548 -0.0011467 0.0081826
0.22836 0.089259 0.0040981 0.0069865
0.00038188 -0.00065022 -0.00063543 0.00044852 -0.001375 -0.00046863 -0.0001663 -0.0024328
0.0040849 0.0069863 0.27252 0.13391
1820000000 0.25231 -0.10819 0.004412 0.0026484 -2.5005e-05 0.0024415 -0.001097 -0.0030211
-0.0010725 0.00087856 1.0945e-05 -0.000111
0.0044114 0.00265 0.25873 0.17127 -0.00014458 2.0156e-06 -0.0013564 0.00088953
-7.7761e-05 0.0012782 -0.00052631 0.00055516
1.0268e-05 0.0024628 -0.00016525 -2.8062e-06 0.16081 -0.24533 0.0015028 0.00049293
-0.00034133 0.0023937 -0.0013683 0.00028637
-0.0011014 -0.0030306 -0.0013562 0.00090459 0.0015043 0.00048181 0.20406 -0.095308
0.00032471 0.0066677 -0.0017455 -0.0015214
-0.0010608 0.00090197 -8.5135e-05 0.0012811 -0.00034249 0.0024211 0.00033849 0.0066868
0.24555 0.06018 0.0048005 0.0033617
-1.7584e-05 -0.00012391 -0.00052076 0.00054207 -0.0014121 0.00032154 -0.0017634 -0.0015169
0.0047751 0.003362 0.27514 0.098022
1880000000 0.21726 -0.14846 0.0023144 0.00043183 -0.00037136 0.0020563 -0.0030432 -0.0021914
-0.00025161 0.0016077 0.00025308 -0.00052333
0.0023189 0.00043554 0.2629 0.12452 -0.00226 0.0016842 -0.00023821 0.0017097
0.0005851 0.0011804 8.7787e-05 0.00095389
-0.00035539 0.0020575 -0.0022445 0.0016985 0.10852 -0.25491 0.0018985 -0.00095583
0.0015485 0.0019467 -0.00090088 0.0013732
-0.0030666 -0.0021438 -0.00023174 0.0017288 0.0018942 -0.00095316 0.16341 -0.13552
0.0010369 0.0047921 -0.0024313 0.00049034
-0.00023121 0.0016105 0.00059665 0.0011883 0.0015771 0.0019519 0.0010482 0.0047809
0.24831 0.02748 0.0049363 0.0013928
0.00028945 -0.00054899 0.00010165 0.00095608 -0.000933 0.0013628 -0.002431 0.00050038
0.0049345 0.0014099 0.27445 0.063743
1940000000 0.17802 -0.17401 0.00021288 -0.0012398 0.0013194 0.0019233 -0.0037022 0.00052053
0.0012925 0.0010399 -0.00062623 -0.00057188
0.0002184 -0.0012369 0.26314 0.092789 -0.0011158 0.0037758 0.00099868 0.0013251
0.0018525 0.00046902 0.00084178 0.00031178
0.0013485 0.0019071 -0.0010981 0.0037886 0.062424 -0.24839 0.00035938 -0.0022115
0.0024728 0.0004197 0.00045048 0.0016868
-0.0037029 0.00052602 0.00098063 0.0013097 0.00035673 -0.0022164 0.11083 -0.16553
-4.0285e-05 0.0035671 -0.0012248 0.0018175
0.0012894 0.0010151 0.0018457 0.0004388 0.0024715 0.00041748 -3.2356e-05 0.0035706
0.24998 -0.011502 0.0037454 -0.0020091
-0.00062644 -0.00057274 0.00085267 0.0002957 0.00043639 0.0016698 -0.0012046 0.0018106
0.0037489 -0.002022 0.26358 0.02767
2000000000 0.13159 -0.18855 -0.0035769 0.00065725 0.0025273 0.001717 -0.002308 0.0034576
0.0011652 0.0001657 -0.00057708 0.00054037
-0.0035893 0.00065328 0.24871 0.057373 -0.0010213 0.0056837 0.0016048 0.0003757
0.0013044 -0.0013454 0.00050597 0.00014703
0.002509 0.0016975 -0.00096493 0.0056938 0.018706 -0.23368 -0.0014261 -0.0014013
0.0019696 -0.0012246 0.001578 0.0012299
-0.0023065 0.0034534 0.0016177 0.00038501 -0.0014141 -0.0013968 0.057785 -0.17491
-0.0015694 0.003677 -3.4939e-05 0.0019376
0.0011606 0.00016243 0.001293 -0.0013556 0.0019828 -0.0012248 -0.0015861 0.0037029
0.24387 -0.045416 0.00037624 -0.0029522
