!Keysight Technologies,M9804A,MY58100912,A.14.10.03
!Date: Thursday, April 27, 2023 10:28:33
!Correction: S11(C  6-Port  ) 
!S12(C  6-Port  ) 
!S13(C  6-Port  ) 
!S14(C  6-Port  ) 
!S15(C  6-Port  ) 
!S16(C  6-Port  ) 
!S21(C  6-Port  ) 
!S22(C  6-Port  ) 
!S23(C  6-Port  ) 
!S24(C  6-Port  ) 
!S25(C  6-Port  ) 
!S26(C  6-Port  ) 
!S31(C  6-Port  ) 
!S32(C  6-Port  ) 
!S33(C  6-Port  ) 
!S34(C  6-Port  ) 
!S35(C  6-Port  ) 
!S36(C  6-Port  ) 
!S41(C  6-Port  ) 
!S42(C  6-Port  ) 
!S43(C  6-Port  ) 
!S44(C  6-Port  ) 
!S45(C  6-Port  ) 
!S46(C  6-Port  ) 
!S51(C  6-Port  ) 
!S52(C  6-Port  ) 
!S53(C  6-Port  ) 
!S54(C  6-Port  ) 
!S55(C  6-Port  ) 
!S56(C  6-Port  ) 
!S61(C  6-Port  ) 
!S62(C  6-Port  ) 
!S63(C  6-Port  ) 
!S64(C  6-Port  ) 
!S65(C  6-Port  ) 
!S66(C  6-Port  ) 
!S6P File: Measurement: :
# Hz S  RI   R 50
500000000 -0.33642 -0.039077 -0.0096128 -0.0024652 -0.0076956 0.012503 -0.0042947 0.012088
0.013024 0.0049712 -0.0048406 0.0085722
-0.0097845 -0.0026071 -0.4187 -0.051335 0.0083736 -0.010976 0.0017584 0.011894
0.0076122 0.0023324 0.0018045 0.013425
-0.0080493 0.012164 0.0084114 -0.010987 -0.26434 0.20847 0.0078896 0.0031881
-0.0017909 0.0074589 0.0019951 0.011873
-0.0041951 0.011909 0.0017723 0.011879 0.0079468 0.0031923 -0.33016 0.043973
-0.017647 -0.0067832 0.015553 0.02564
0.012951 0.0050983 0.0078383 0.0026614 -0.0017774 0.0078101 -0.017681 -0.0067531
-0.22342 -0.19476 -0.024765 0.0043431
-0.0045971 0.0084447 0.0016786 0.013148 0.0018143 0.011768 0.015576 0.025733
-0.024667 0.0044607 -0.26728 -0.13346
560000000 -0.31593 0.12321 -0.023466 -0.064176 0.00013759 0.011787 0.0055268 0.010363
0.0096767 0.0041108 0.010965 0.0073744
-0.023468 -0.064253 -0.37767 0.10695 -0.041024 -0.038112 0.012952 0.0039012
-0.012097 -0.0044829 0.0029432 -0.00028499
0.00025357 0.011845 -0.041164 -0.03783 -0.18255 0.2564 -0.00016901 -0.0049439
0.019429 0.0046225 0.0069341 -0.0063798
0.005528 0.010391 0.013226 0.0039434 -0.00074796 -0.004833 -0.30548 0.13271
0.0057566 -0.023825 0.0040174 -0.021852
0.0097692 0.004328 -0.012993 -0.0044543 0.019693 0.0044383 0.005751 -0.023978
-0.28882 -0.021778 0.0084901 -0.048155
0.011108 0.0075302 0.0026878 -0.00024687 0.0069099 -0.0064788 0.003892 -0.021803
0.0085586 -0.048146 -0.32807 0.015718
620000000 -0.27485 0.10652 -0.023163 0.0076518 0.0029508 0.008504 0.0081219 -0.0051087
0.010686 -0.0002355 0.0016158 -0.0028155
-0.023088 0.0076897 -0.40231 0.059071 -0.018767 -0.00017049 -0.0015172 -0.001994
0.011249 -0.0068543 0.0010714 -0.0032614
0.0029214 0.0084305 -0.018694 -0.00015768 -0.1537 0.26542 -0.0017821 -0.0052404
-0.0031489 -0.0028431 0.0083958 -0.0033326
0.0078339 -0.0053387 -0.0014376 -0.0020554 -0.0016406 -0.0051671 -0.26496 0.14333
-0.037572 -0.019495 0.011734 0.025815
0.010858 -0.0004579 0.011171 -0.0068458 -0.0032221 -0.0027523 -0.037586 -0.019521
-0.20774 -0.059425 -0.04113 0.013823
0.0019464 -0.0028635 0.0016023 -0.0035308 0.0084038 -0.0036902 0.011797 0.025884
-0.041209 0.013842 -0.24962 -0.021799
680000000 -0.23453 0.1915 -0.027305 -0.014622 0.0049409 0.005213 0.00099997 -0.0071934
-0.003729 -0.011197 0.004567 -0.0064104
-0.027179 -0.01459 -0.38775 0.15667 -0.0331 -0.0014316 -0.0019017 -0.00051495
-0.0021913 -0.0085905 -0.0015937 -0.001819
0.0050578 0.005253 -0.033129 -0.0013884 -0.10316 0.28574 -0.00081876 -1.2879e-05
-0.0018645 0.00083704 -0.0031254 -0.0090462
0.0010696 -0.0072262 -0.0019293 -0.00060797 -0.00084141 7.1705e-05 -0.22074 0.19304
-0.023795 -0.0085613 -0.0099291 -0.010739
-0.0036608 -0.011236 -0.002299 -0.0086052 -0.001945 0.0010703 -0.023863 -0.008514
-0.25852 0.0382 -0.0053261 -0.0083687
0.0045868 -0.006406 -0.0013673 -0.00174 -0.0029868 -0.0090135 -0.0099064 -0.010691
-0.0053675 -0.0083139 -0.26147 0.085624
740000000 -0.19066 0.1864 -0.038848 0.026228 0.012645 -0.0049301 -0.00013135 -0.0041816
-0.0048599 -0.0024703 -0.0056918 0.0027428
-0.038821 0.02633 -0.33516 0.17594 -0.035521 0.035156 -0.00052642 -0.0060316
-0.011558 0.0079879 -0.0018225 -0.0060797
0.012625 -0.0049308 -0.035514 0.035259 -0.069543 0.28461 -0.0019396 0.003368
-0.0019648 -0.0045316 -0.0020071 -7.7025e-05
-0.00010987 -0.0040999 -0.00059786 -0.0061207 -0.0018736 0.0033647 -0.20397 0.20105
-0.043772 -0.007436 0.022533 0.014868
-0.0046807 -0.0025928 -0.011366 0.008417 -0.0020882 -0.004705 -0.043787 -0.0073687
-0.15934 0.064883 -0.043882 -0.00063526
-0.0057292 0.0030164 -0.0019779 -0.0065027 -0.001649 0.00019113 0.022498 0.014908
-0.043961 -0.00065049 -0.24955 0.091368
800000000 -0.15815 0.22709 -0.022823 0.016694 0.0053413 -0.010546 -0.004929 -0.0018934
-0.0039888 0.0023358 0.0046271 0.00070477
-0.022797 0.016575 -0.3386 0.24598 -0.0079972 0.03409 -0.0024106 0.0022099
-0.00022811 0.0031729 0.0010394 0.005221
0.0054012 -0.01054 -0.0078777 0.034184 -0.028581 0.308 0.0010762 0.0014146
0.00052316 0.0034132 -0.0016158 0.00088733
-0.0049354 -0.0019653 -0.0023564 0.0021866 0.0011199 0.0013502 -0.17599 0.22913
-0.028947 0.013507 0.013355 -0.0098755
-0.0039834 0.0024404 -0.00023659 0.0031096 0.00038003 0.0033958 -0.028926 0.013574
-0.20755 0.088057 -0.017816 0.018544
0.0046389 0.00060081 0.0011074 0.0052838 -0.0016296 0.00096322 0.013345 -0.0098911
-0.017832 0.018564 -0.24459 0.14112
860000000 -0.12372 0.24772 -0.017641 0.031028 -0.0033941 -0.0097891 -0.0025657 0.00098413
0.0042086 0.0049097 -0.0031245 -0.0029376
-0.017689 0.030765 -0.29117 0.28854 0.0078145 0.034395 -8.3597e-05 0.0020763
0.0041603 0.00030819 0.0032625 0.00078344
-0.0034224 -0.0098339 0.0079547 0.034501 0.019596 0.31613 -0.00066323 -0.00038276
0.0027398 -0.0014979 0.0015036 0.0045184
-0.002575 0.00088826 -9.6713e-05 0.0019923 -0.00065782 -0.00043233 -0.13986 0.24061
-0.018474 0.018693 -0.0060303 -0.0092949
0.0042963 0.0049058 0.0041343 6.9245e-05 0.0028704 -0.0015635 -0.018407 0.018781
-0.1578 0.13976 -0.026229 0.015541
-0.0031214 -0.0030023 0.0031713 0.00062833 0.0014279 0.0044813 -0.0060498 -0.0093329
-0.026198 0.015539 -0.19282 0.1875
920000000 -0.098649 0.27101 0.0050513 0.038154 -0.0094749 -0.0042141 -0.0017341 0.0021561
0.0010377 0.0018518 0.002543 -0.0015208
0.005035 0.038187 -0.26196 0.30991 0.028155 0.02216 0.001461 0.0010755
0.0068024 -0.00055762 0.0038542 -0.0027044
-0.0094599 -0.004237 0.028285 0.022074 0.066121 0.31673 0.0017728 -0.00011952
0.0011312 -0.00041346 0.00090985 -0.00089294
-0.0017566 0.0021292 0.0015399 0.0011056 0.0017307 -7.1215e-05 -0.11592 0.25799
-0.011034 0.030718 0.0034126 -0.006397
0.0010292 0.0019463 0.0069954 -0.00070401 0.001194 -0.00041959 -0.010988 0.030747
-0.14776 0.14667 -0.0031851 0.027769
0.0025917 -0.0016218 0.0039198 -0.0026779 0.00093137 -0.0010579 0.0034161 -0.006364
-0.0031905 0.027705 -0.20139 0.20124
980000000 -0.051325 0.29031 0.01759 0.030286 -0.00893 0.004788 0.00219 0.0035534
0.0039725 -0.0013161 -0.0030188 -0.0020469
0.017508 0.030248 -0.20911 0.34378 0.033155 0.004831 0.0020716 -0.00011252
0.0012951 -0.0057696 -0.00024378 -0.0023928
-0.0089113 0.0048116 0.033199 0.0047378 0.11251 0.30995 0.00049972 -0.0011117
0.00025795 -0.0020472 0.0015625 -0.00023475
0.0022218 0.0035551 0.0020693 -5.0815e-05 0.0004666 -0.0011166 -0.077494 0.26972
0.0078267 0.030173 -0.0091768 -0.0071749
0.0039824 -0.001391 0.0014045 -0.0057072 0.00025337 -0.0019953 0.0078929 0.030108
-0.11733 0.17615 0.004524 0.019496
-0.0031871 -0.0020312 -0.0002528 -0.0025012 0.0016021 -0.00021086 -0.0091724 -0.0071924
0.0045179 0.019495 -0.15999 0.24708
1040000000 -0.0089335 0.29878 0.033284 0.018358 -0.0010614 0.0070338 0.0027076 0.00061913
2.7592e-05 -0.0037409 -0.00032579 -0.0012808
0.033199 0.018392 -0.17335 0.35678 0.02944 -0.014872 0.0014266 -0.0017503
-0.0026783 -0.0024154 -0.001412 -0.0025151
-0.0010327 0.0070059 0.029385 -0.014953 0.15852 0.29619 -0.00045925 -0.0015008
-0.0016197 -0.00086058 -0.00042142 -0.0011481
0.0026918 0.00062391 0.0014564 -0.0017174 -0.00048424 -0.0014921 -0.049783 0.27991
0.019293 0.018177 -0.0022667 0.0017945
9.1802e-05 -0.0037614 -0.0026367 -0.0023869 -0.0016599 -0.00089818 0.019348 0.018147
-0.085079 0.18492 0.013337 0.01858
-0.00037533 -0.0013312 -0.0014407 -0.0025596 -0.00032966 -0.0011104 -0.0022976 0.0017678
0.013341 0.018545 -0.13843 0.26764
1100000000 0.036565 0.3063 0.035985 -0.004078 0.0030926 0.0039015 0.0023891 -0.0014842
-0.0019892 -0.0031263 -0.0038169 -8.1754e-06
0.035981 -0.0040599 -0.12978 0.37408 0.015115 -0.027774 -4.4658e-05 -0.0018569
-0.0031588 -0.00060119 -0.0034167 -0.00055772
0.0030927 0.0038406 0.015016 -0.027856 0.20481 0.27582 -0.0018222 0.00025261
-0.0016818 0.00053023 -0.00099053 -0.00054034
0.0023984 -0.0014823 -6.8727e-05 -0.0018378 -0.0018311 0.00025619 -0.0091595 0.28491
0.024442 0.005087 -0.0024802 0.00029559
-0.0020342 -0.0031196 -0.0031882 -0.00064247 -0.0017061 0.0005272 0.024451 0.0050437
-0.067128 0.19931 0.018814 0.0089463
-0.003863 -3.6315e-06 -0.0033794 -0.00051342 -0.0010415 -0.00055481 -0.0024532 0.00031152
0.01881 0.0089635 -0.092645 0.29777
1160000000 0.087861 0.3012 0.024093 -0.020716 0.0028489 -0.00061898 -0.00032428 -0.0024942
-0.004225 -0.00066245 -0.00082166 0.004205
0.024034 -0.020707 -0.086004 0.37793 -0.0036979 -0.029044 -0.0017196 -0.001646
-0.002522 0.0023701 -0.001252 0.0017822
0.0028419 -0.00068977 -0.0037957 -0.029033 0.24774 0.24498 -0.00061922 0.0016969
-0.00066162 0.0018588 -0.0010067 0.0001918
-0.00033281 -0.0024944 -0.0017559 -0.0016427 -0.00061849 0.0017079 0.030532 0.28212
0.020911 -0.010235 -0.0028854 0.0052487
-0.0042112 -0.00064991 -0.0025449 0.0024544 -0.00059174 0.0018385 0.020919 -0.010267
-0.033107 0.20951 0.017895 0.00085063
-0.00090329 0.0042324 -0.0012538 0.0018478 -0.00094465 0.00020171 -0.0028915 0.0052633
0.017869 0.00084819 -0.04576 0.30085
1220000000 0.13232 0.28985 0.010581 -0.030029 -0.0014948 -0.0010194 -0.00014993 -0.0008502
-0.0025941 0.0025382 0.0013431 0.0020048
0.010602 -0.029986 -0.041654 0.38978 -0.016741 -0.021075 -0.0024909 0.00044541
5.2434e-05 0.0028185 -0.00072252 0.0018145
-0.0014964 -0.0010104 -0.016867 -0.021029 0.28697 0.20614 0.00082529 0.0015117
0.00059346 0.0011667 0.00027621 0.00068504
-0.00012676 -0.00085799 -0.0024767 0.00048511 0.0008251 0.0014742 0.070336 0.27342
0.010245 -0.016802 0.0024802 0.0014507
-0.0025584 0.0025 5.7888e-05 0.002847 0.0005807 0.0011189 0.010229 -0.016804
-0.010146 0.21897 0.014399 -0.012364
0.0014341 0.0019842 -0.00071149 0.0018357 0.00027553 0.00070347 0.0024776 0.0014358
0.0144 -0.012367 -0.014733 0.31814
1280000000 0.18189 0.2677 -0.0077249 -0.028511 -0.0019579 0.0022819 -0.00090534 -0.0018787
-0.00072229 0.0030499 0.0024475 0.0010777
-0.0076891 -0.028477 0.0042685 0.38048 -0.02355 -0.0084238 -0.0009079 0.0014224
0.0015646 0.0016841 0.00064934 0.0020625
-0.0019052 0.0022789 -0.023589 -0.0083409 0.31748 0.1622 0.0014958 -4.1924e-05
0.0010174 0.00031446 0.00044612 0.00038636
-0.00091097 -0.0018678 -0.00086485 0.0014214 0.0014677 -7.2947e-05 0.10713 0.25701
0.00097929 -0.018591 0.00022046 -4.2977e-05
-0.00072941 0.0030728 0.0015777 0.0016667 0.0010593 0.00031609 0.00094891 -0.018595
0.026869 0.22308 0.0034625 -0.014458
0.0024394 0.001092 0.00061353 0.0020667 0.00044877 0.00045013 0.00023453 -6.9059e-05
0.0034529 -0.014455 0.033766 0.32064
1340000000 0.21884 0.23363 -0.01744 -0.019167 0.00073524 0.0043011 -0.0016719 -0.00070504
0.0014803 0.0026727 0.0017152 -0.0013964
-0.017409 -0.019131 0.043427 0.372 -0.021402 0.0040536 -0.0001037 0.0019232
0.0017656 0.00080703 0.0013156 0.00081393
0.0007627 0.0043203 -0.021393 0.0041839 0.33976 0.1142 0.0010122 -0.00085033
0.00072975 -0.00038409 0.00025966 0.00032505
-0.0016826 -0.00072593 -9.6203e-05 0.0019535 0.001028 -0.00083815 0.1394 0.23665
-0.0081847 -0.015827 0.00095785 0.00021633
0.0014865 0.0026675 0.0017867 0.00079855 0.0007272 -0.00039734 -0.0082117 -0.015806
0.057288 0.21858 -0.0030489 -0.013187
0.0016696 -0.0013513 0.0012986 0.00080629 0.00026819 0.00032657 0.0009613 0.00021505
-0.0030135 -0.013192 0.071886 0.31652
1400000000 0.25146 0.19528 -0.023334 -0.0077406 0.0049267 0.003041 -0.0019576 0.00056408
0.002397 0.00080586 0.00029413 -0.0013297
-0.023295 -0.0077411 0.080464 0.35886 -0.014798 0.012137 0.0012357 0.0012902
0.0010742 -0.00070018 0.0012083 0.00025283
0.004958 0.0030156 -0.014736 0.012227 0.3529 0.060401 0.00015524 -0.001462
-2.6008e-05 -0.00034646 0.00049697 0.00027406
-0.0019567 0.0005734 0.0012529 0.0012744 0.00016967 -0.0014625 0.1689 0.20822
-0.013718 -0.0093624 -0.00081335 -0.0007514
0.0023928 0.00075882 0.0010723 -0.00072025 -2.6112e-05 -0.00037075 -0.013745 -0.0093328
0.090249 0.21442 -0.0093444 -0.0087917
0.00029176 -0.0013343 0.0012349 0.00024533 0.0004388 0.00024253 -0.00080691 -0.00075768
-0.0093275 -0.0087877 0.11756 0.3058
1460000000 0.27377 0.15123 -0.020532 0.0044203 0.0053599 -0.0017549 -0.0015803 0.0015982
0.0020822 -0.00061126 -0.00035033 -0.00097124
-0.020522 0.0043957 0.11427 0.33704 -0.0062555 0.015003 0.0016879 0.00024008
0.00092548 -0.0011897 0.0011633 -0.00062745
0.0053267 -0.0017644 -0.0061648 0.015043 0.35888 0.0059869 -0.0011296 -0.001217
0.00021097 -0.00031678 0.00055129 -0.00029409
-0.0015448 0.0016161 0.0017006 0.00022639 -0.0011157 -0.0012035 0.19526 0.17933
-0.014839 -0.0029756 -0.0010665 0.0017616
0.0020674 -0.00062773 0.0009278 -0.001175 0.0002239 -0.0003447 -0.014841 -0.0029367
0.11937 0.19991 -0.011324 -0.0031116
-0.00036528 -0.00097349 0.001149 -0.00063125 0.00057085 -0.00033295 -0.0010819 0.0017588
-0.01131 -0.0031278 0.15074 0.2852
1520000000 0.28549 0.10966 -0.015038 0.010131 0.0031986 -0.0039664 4.9665e-05 0.0025602
0.0019531 -0.0016984 -0.0010773 -7.7198e-05
-0.015011 0.0101 0.14762 0.32244 0.0012565 0.012962 0.0016472 -0.00072564
9.5929e-05 -0.0010242 0.00031568 -0.0010416
0.0031832 -0.003975 0.0013188 0.012971 0.3518 -0.050451 -0.0010002 -0.00042087
0.00064913 -0.00083297 -2.2538e-05 -0.00013708
3.8801e-05 0.0025681 0.0016324 -0.00072983 -0.00098576 -0.00037616 0.21876 0.14174
-0.01428 0.0023605 0.001172 0.0019845
0.0019278 -0.0017674 6.8309e-05 -0.0010159 0.00065706 -0.00085147 -0.014279 0.0023934
0.14716 0.18618 -0.011335 0.0011351
-0.0011004 -8.9394e-05 0.00033115 -0.0010453 6.4397e-06 -0.00014589 0.0011728 0.0019837
-0.011338 0.0011305 0.18446 0.26501
1580000000 0.2947 0.063879 -0.0084072 0.013406 -0.00089874 -0.004666 0.0013203 0.0018872
-0.00036959 -0.0020308 -0.00036555 0.00041809
-0.0083938 0.013412 0.17476 0.2978 0.0048721 0.0083245 0.00049941 -0.0015928
-0.00052707 -0.001071 -0.00031018 -0.00077491
-0.00096434 -0.0046773 0.004919 0.0082926 0.33127 -0.10787 -0.0015702 0.00051149
-0.00035258 -0.0010587 5.1997e-05 -0.00044304
0.0013226 0.0018802 0.00048014 -0.0015646 -0.0016056 0.00048231 0.23311 0.10265
-0.011026 0.0070451 0.0021011 0.00096253
-0.0003754 -0.002038 -0.00055161 -0.0010732 -0.00032806 -0.0010626 -0.011025 0.007079
0.17164 0.16871 -0.0091553 0.0069449
-0.00033767 0.00041387 -0.00030873 -0.00079088 7.8221e-05 -0.00044558 0.0020955 0.00095514
-0.009147 0.0069421 0.21725 0.23819
1640000000 0.29675 0.022833 -0.001611 0.012509 -0.0025484 -0.0024422 0.002692 0.0010761
-0.00064474 -0.001402 -0.00021877 0.00055279
-0.0016084 0.012503 0.20417 0.273 0.0057701 0.0036634 -0.00063449 -0.0017216
-0.0010276 -0.0004254 -0.0004817 -0.00066459
-0.0025065 -0.0024157 0.00578 0.003645 0.30279 -0.15696 -0.000721 0.0014089
-0.0010011 -0.0010357 -4.8747e-05 -0.00047133
0.0026819 0.001077 -0.00065192 -0.0017174 -0.00069883 0.0014037 0.24583 0.053792
-0.0070021 0.0082319 0.0023712 -0.00062524
-0.0006588 -0.0013955 -0.0010322 -0.00041103 -0.00098129 -0.0010012 -0.0069783 0.0082523
0.19422 0.14476 -0.0047772 0.0088677
-0.00019113 0.00053166 -0.00049818 -0.00065184 -0.00010502 -0.00048178 0.0023779 -0.0006198
-0.0047757 0.0088699 0.24271 0.20709
1700000000 0.28956 -0.022353 0.0019357 0.009751 -0.0032511 7.9628e-05 0.0030235 -0.001111
-0.001923 -0.00058886 0.00066715 0.00043919
0.0019091 0.0097598 0.22232 0.24154 0.0038625 0.00090512 -0.0014764 -0.00057552
-0.00083534 8.9564e-05 -0.0009008 -0.00039514
-0.0032241 0.00015206 0.0038825 0.0008665 0.25939 -0.19666 0.00035313 0.0016305
-0.0018733 -0.00024966 -0.00048423 -0.00083005
0.0030325 -0.0011334 -0.0014797 -0.00056519 0.00037098 0.0016414 0.24302 0.0040853
-0.0045359 0.0088822 0.0014506 -0.0020872
-0.0019383 -0.00057905 -0.00083109 9.8213e-05 -0.0018661 -0.00023399 -0.0045166 0.0088914
0.21178 0.12498 -0.00014425 0.0092355
0.00069365 0.00046401 -0.00089223 -0.00038885 -0.00047592 -0.00083425 0.0014456 -0.0020967
-0.00014609 0.0092376 0.25918 0.17261
1760000000 0.27735 -0.07082 0.0043885 0.0065253 -0.0021844 0.00085792 0.0013954 -0.003342
-0.0012486 0.00069489 0.00045676 -0.00060401
0.004375 0.0065199 0.2482 0.20174 0.0017256 -0.00093386 -0.0011711 0.00020996
-0.00098437 0.00093563 -0.00053485 0.00042956
-0.0021942 0.00092539 0.0017068 -0.00094875 0.21057 -0.22942 0.0012228 0.0012211
-0.001171 0.0014715 -0.0012882 -0.00056829
0.001386 -0.0033124 -0.0011784 0.0002244 0.0011821 0.0011797 0.23407 -0.047473
-0.0013635 0.0082408 -0.0001647 -0.0024268
-0.0012494 0.00070769 -0.00097526 0.0009604 -0.0011688 0.0014289 -0.0013397 0.0082577
0.2268 0.090128 0.0036631 0.0068059
0.00045002 -0.00061825 -0.00053167 0.00044071 -0.0013311 -0.00053094 -0.00017416 -0.0024326
0.00367 0.0067998 0.27185 0.1349
1820000000 0.25273 -0.1082 0.0046927 0.0029029 -1.6225e-05 0.0023846 -0.00088708 -0.0030273
-0.0010131 0.00084223 -9.9225e-05 -0.00012234
0.0046937 0.0028655 0.25816 0.17172 -0.00017946 7.825e-05 -0.0012975 0.00093738
8.2608e-06 0.0013199 -0.00047948 0.00050721
8.0391e-05 0.0023082 -0.00014813 7.5222e-05 0.16048 -0.24549 0.0015427 0.00038677
-0.00030481 0.0022305 -0.0012912 0.0003393
-0.00093928 -0.0030387 -0.0012818 0.00094362 0.0015709 0.00042511 0.20427 -0.094692
4.3678e-05 0.0067255 -0.0015095 -0.001449
-0.0010378 0.00082413 1.0273e-05 0.0013231 -0.00031177 0.0022492 6.9807e-05 0.0067235
0.24422 0.061268 0.0045649 0.0034865
-5.2993e-05 -0.0001462 -0.00048084 0.00050948 -0.0012587 0.00032412 -0.0015 -0.0014444
0.0045637 0.0034808 0.27431 0.098952
1880000000 0.21766 -0.14845 0.0026167 0.00048947 -0.00037797 0.0018919 -0.0029257 -0.0021935
-0.00023772 0.0015821 0.00024887 -0.00053555
0.0026207 0.00049588 0.26257 0.12524 -0.0020921 0.0017112 -0.00015124 0.0016772
0.00064741 0.0011387 0.00012723 0.00086566
-0.00041904 0.0018895 -0.0020977 0.0017251 0.10832 -0.25472 0.0018132 -0.0010494
0.0015539 0.0019784 -0.00098364 0.0012652
-0.0028986 -0.0022021 -0.00013952 0.0016888 0.001828 -0.0010266 0.16383 -0.13501
0.00081078 0.0049431 -0.0023326 0.00047672
-0.00020454 0.0015939 0.00066137 0.0011385 0.001541 0.0019457 0.00081762 0.0049471
0.24729 0.028744 0.0046794 0.0013925
0.0002484 -0.00055768 0.0001413 0.0008527 -0.00093815 0.0012446 -0.0023271 0.00046386
0.0046714 0.0014093 0.27398 0.064802
1940000000 0.17815 -0.17417 0.00042903 -0.0013301 0.001221 0.0018022 -0.0038283 0.0004598
0.0012594 0.00092112 -0.0006548 -0.00054077
0.00043817 -0.0013443 0.26312 0.093471 -0.00094476 0.0037981 0.0010317 0.0013062
0.0018507 0.00038027 0.00080221 0.00021826
0.0012041 0.0017325 -0.00092499 0.0038065 0.062545 -0.24784 0.00034358 -0.0022456
0.0023936 0.00047402 0.00021627 0.0015633
-0.0037768 0.00052269 0.0010414 0.0013212 0.00034292 -0.0022931 0.11154 -0.16536
-9.1624e-05 0.0038571 -0.0013231 0.0014827
0.0012036 0.0009253 0.0018407 0.00035348 0.0023838 0.00039784 -7.4431e-05 0.0038525
0.24916 -0.010069 0.0035666 -0.0018662
-0.00070415 -0.00056585 0.00081551 0.00018785 0.00024154 0.0016168 -0.0013343 0.0014918
0.0035525 -0.0018612 0.2632 0.028931
2000000000 0.1317 -0.18892 -0.0033945 0.00048587 0.0023761 0.0016099 -0.0023294 0.0034844
0.0010964 0.00019959 -0.00079187 0.00040027
-0.0034493 0.00047135 0.24889 0.058022 -0.00087096 0.0055896 0.0016293 0.00036851
0.0012415 -0.0014313 0.00040475 6.4826e-05
0.0023948 0.0015775 -0.00083543 0.0055803 0.019115 -0.23327 -0.0013678 -0.001243
0.0019652 -0.0011747 0.0015482 0.001262
-0.002342 0.0035101 0.0016664 0.00034384 -0.0013779 -0.0012981 0.058191 -0.17546
-0.0015432 0.0037358 2.535e-05 0.00223
0.0010743 0.00014761 0.0012463 -0.0014191 0.0019586 -0.0011509 -0.0015235 0.0037327
