!Keysight Technologies,M9804A,MY58100912,A.14.10.03
!Date: Thursday, April 27, 2023 10:28:33
!Correction: S11(C  6-Port  ) 
!S12(C  6-Port  ) 
!S13(C  6-Port  ) 
!S14(C  6-Port  ) 
!S15(C  6-Port  ) 
!S16(C  6-Port  ) 
!S21(C  6-Port  ) 
!S22(C  6-Port  ) 
!S23(C  6-Port  ) 
!S24(C  6-Port  ) 
!S25(C  6-Port  ) 
!S26(C  6-Port  ) 
!S31(C  6-Port  ) 
!S32(C  6-Port  ) 
!S33(C  6-Port  ) 
!S34(C  6-Port  ) 
!S35(C  6-Port  ) 
!S36(C  6-Port  ) 
!S41(C  6-Port  ) 
!S42(C  6-Port  ) 
!S43(C  6-Port  ) 
!S44(C  6-Port  ) 
!S45(C  6-Port  ) 
!S46(C  6-Port  ) 
!S51(C  6-Port  ) 
!S52(C  6-Port  ) 
!S53(C  6-Port  ) 
!S54(C  6-Port  ) 
!S55(C  6-Port  ) 
!S56(C  6-Port  ) 
!S61(C  6-Port  ) 
!S62(C  6-Port  ) 
!S63(C  6-Port  ) 
!S64(C  6-Port  ) 
!S65(C  6-Port  ) 
!S66(C  6-Port  ) 
!S6P File: Measurement: :
# Hz S  RI   R 50
500000000 -0.33663 -0.038845 -0.0097183 -0.0023214 -0.0077432 0.012457 -0.0042372 0.012117
0.012943 0.0045339 -0.0045704 0.008763
-0.0096047 -0.0022917 -0.41918 -0.051415 0.0083702 -0.011035 0.0017088 0.012062
0.0074798 0.0024995 0.0017712 0.013586
-0.0077246 0.012478 0.0083536 -0.011072 -0.2646 0.20872 0.0079557 0.0032338
-0.0018103 0.0078661 0.0018153 0.011848
-0.0042195 0.012147 0.001766 0.012108 0.0079575 0.0032226 -0.3304 0.044454
-0.017882 -0.0068422 0.015279 0.02623
0.012955 0.0045387 0.0074373 0.0025029 -0.0018011 0.0078587 -0.017871 -0.0068113
-0.22333 -0.19353 -0.02455 0.0047127
-0.0045846 0.0088662 0.001787 0.013557 0.0018143 0.011814 0.01531 0.026197
-0.024541 0.0046958 -0.26878 -0.13014
560000000 -0.31588 0.12354 -0.023779 -0.064335 0.00038563 0.01191 0.0056529 0.010236
0.0099615 0.0043834 0.011026 0.0075809
-0.023805 -0.064216 -0.3778 0.10777 -0.041066 -0.038098 0.013106 0.0035932
-0.012042 -0.0043297 0.0031508 -6.335e-05
0.0004295 0.011815 -0.041106 -0.037955 -0.18271 0.25718 -0.00030837 -0.0048833
0.019136 0.0047112 0.0067856 -0.0065159
0.0056565 0.010222 0.013071 0.0035856 -0.00034386 -0.0049334 -0.30573 0.13304
0.0053298 -0.024084 0.0036911 -0.022049
0.010027 0.0042883 -0.012033 -0.0043729 0.019159 0.004756 0.0053183 -0.024092
-0.29036 -0.01948 0.0088685 -0.048469
0.011033 0.007599 0.003121 -6.4785e-05 0.0067968 -0.0064877 0.0037205 -0.022044
0.0089712 -0.048474 -0.32852 0.017385
620000000 -0.27464 0.10702 -0.023117 0.0077332 0.0029448 0.0084172 0.0080703 -0.0053071
0.011187 -0.00025513 0.0016657 -0.0025312
-0.023108 0.0077274 -0.4024 0.059673 -0.018902 -1.1297e-05 -0.001466 -0.0021736
0.011241 -0.006609 0.0012911 -0.0032436
0.0029791 0.0084471 -0.01891 2.8769e-05 -0.15383 0.2663 -0.0018934 -0.0052237
-0.0031105 -0.0026153 0.0083122 -0.0035542
0.0081044 -0.005356 -0.0014702 -0.0021598 -0.0018992 -0.0052126 -0.26483 0.14336
-0.037869 -0.019419 0.012222 0.025744
0.011119 -0.00022487 0.011234 -0.0065972 -0.0031022 -0.0025924 -0.03791 -0.019391
-0.20803 -0.057832 -0.041575 0.014105
0.001658 -0.002483 0.0012959 -0.0032405 0.0083895 -0.0036453 0.012236 0.025812
-0.041532 0.013974 -0.25041 -0.019381
680000000 -0.23429 0.19213 -0.027485 -0.014514 0.0049897 0.0052225 0.00094854 -0.007009
-0.0035612 -0.011019 0.0047599 -0.0064781
-0.02743 -0.014537 -0.38759 0.15718 -0.03317 -0.0014024 -0.001943 -0.00049529
-0.0022668 -0.0085851 -0.0015899 -0.0018628
0.0050226 0.0052286 -0.033195 -0.0013072 -0.10288 0.28587 -0.000785 8.2062e-05
-0.0019899 0.00086115 -0.0030807 -0.0090895
0.0009319 -0.007055 -0.0019085 -0.00049429 -0.00078569 8.065e-05 -0.22053 0.193
-0.024117 -0.0080332 -0.009595 -0.010643
-0.0036195 -0.011009 -0.0022985 -0.0085945 -0.0019759 0.00086139 -0.024142 -0.0079956
-0.25879 0.040535 -0.0051417 -0.0084556
0.0046907 -0.0065094 -0.0016112 -0.0018496 -0.0030773 -0.0090937 -0.0095923 -0.010665
-0.0051089 -0.0084127 -0.26102 0.087016
740000000 -0.19041 0.18692 -0.038809 0.026694 0.012803 -0.0050258 -0.00020994 -0.0041965
-0.0045953 -0.0023475 -0.0058091 0.0026994
-0.038775 0.026614 -0.33483 0.17599 -0.035488 0.035503 -0.00054756 -0.0061115
-0.011697 0.0081003 -0.0018752 -0.0064438
0.012809 -0.005034 -0.035421 0.035592 -0.069438 0.28471 -0.0018928 0.0034246
-0.0020179 -0.0046479 -0.0018075 1.7258e-05
-0.00022486 -0.0041976 -0.00053563 -0.0061114 -0.0018824 0.0034281 -0.20391 0.20114
-0.043716 -0.0072512 0.022557 0.014813
-0.0046513 -0.0023299 -0.011673 0.0081458 -0.0020648 -0.0046328 -0.043756 -0.0072149
-0.15936 0.06586 -0.044053 6.5394e-05
-0.0058375 0.0026783 -0.0019805 -0.0064046 -0.0017995 0.00010761 0.022572 0.014813
-0.044073 7.94e-05 -0.2491 0.092865
800000000 -0.15777 0.22725 -0.022718 0.0167 0.005417 -0.010683 -0.0048027 -0.0020028
-0.0040807 0.0024341 0.0047656 0.00069793
-0.022688 0.016655 -0.3383 0.2463 -0.0078653 0.034173 -0.0022941 0.0022464
-0.00017913 0.0030728 0.0010164 0.0053206
0.0054067 -0.010693 -0.0077673 0.03424 -0.028432 0.30807 0.0011402 0.0013852
0.0005685 0.0033017 -0.0016483 0.00092644
-0.0048325 -0.0019853 -0.0022738 0.0022404 0.0011331 0.0013896 -0.17577 0.22938
-0.028986 0.013706 0.013504 -0.0098762
-0.0040451 0.0024949 -0.00020091 0.0031172 0.00057722 0.0033016 -0.029004 0.013768
-0.20703 0.089683 -0.017945 0.018724
0.0047702 0.00065818 0.0010565 0.0053697 -0.0016424 0.00092976 0.013513 -0.0099004
-0.017944 0.018746 -0.24348 0.14306
860000000 -0.12329 0.24783 -0.017588 0.030754 -0.0034177 -0.010012 -0.0024799 0.00092679
0.0042519 0.0047181 -0.0031403 -0.0028765
-0.017568 0.030733 -0.29089 0.28867 0.0079073 0.034447 3.6138e-05 0.0019352
0.0046719 -0.00019863 0.003283 0.00085371
-0.0034788 -0.010007 0.0080105 0.034475 0.019701 0.31621 -0.00063992 -0.0004469
0.0029437 -0.0016957 0.001473 0.0045302
-0.0025094 0.00092144 3.8974e-05 0.0018802 -0.00063452 -0.0004413 -0.13959 0.24061
-0.018032 0.018885 -0.005846 -0.009262
0.0042796 0.004716 0.0046414 -0.00027438 0.0029544 -0.0016831 -0.01803 0.018915
-0.15677 0.14133 -0.026352 0.015517
-0.0031263 -0.0029166 0.0033018 0.00087436 0.0015074 0.0044983 -0.0058443 -0.0092502
-0.026316 0.015519 -0.19233 0.18877
920000000 -0.098322 0.2711 0.0051198 0.038193 -0.0095848 -0.0043376 -0.0017807 0.0021721
0.0009128 0.0019754 0.0026744 -0.0015481
0.0050964 0.038129 -0.2618 0.31024 0.028283 0.022134 0.0014756 0.0011145
0.006817 -0.00068127 0.0039564 -0.0027076
-0.0096015 -0.0043095 0.028399 0.02208 0.06629 0.31691 0.0017267 -6.8511e-05
0.0011617 -0.00039514 0.00098855 -0.0010631
-0.001788 0.0021807 0.0014795 0.0011356 0.0017259 -7.6504e-05 -0.11588 0.25811
-0.01091 0.030889 0.0035273 -0.0065361
0.00092332 0.0019656 0.0068136 -0.00070317 0.0011616 -0.00039075 -0.010843 0.030935
-0.14685 0.14814 -0.0030918 0.027549
0.002688 -0.0016228 0.0039747 -0.0027522 0.00099911 -0.0010412 0.00352 -0.0065203
-0.0030734 0.02758 -0.20094 0.20273
980000000 -0.050875 0.29046 0.017633 0.03029 -0.0091031 0.0047846 0.0021915 0.0035516
0.0039603 -0.0014018 -0.0031285 -0.0020784
0.017595 0.030245 -0.20898 0.34402 0.033296 0.0047516 0.0020869 -0.00012388
0.0013009 -0.005822 -0.00035063 -0.0023216
-0.0091029 0.0048232 0.033348 0.0046673 0.11276 0.31019 0.00046124 -0.0011273
0.00019821 -0.0020787 0.0015159 -0.00021911
0.0021975 0.0035395 0.002089 -0.00011908 0.00045762 -0.0011253 -0.07738 0.26986
0.0080838 0.030204 -0.0092505 -0.0072321
0.0039668 -0.0014407 0.0012746 -0.0058161 0.00020546 -0.0020883 0.0081465 0.030206
-0.11602 0.17729 0.0050079 0.019648
-0.0031421 -0.0020922 -0.00033206 -0.0023463 0.0015025 -0.00024239 -0.0092345 -0.0072269
0.0050143 0.01963 -0.15867 0.24791
1040000000 -0.0085112 0.2989 0.033347 0.018226 -0.0011564 0.0071102 0.0026853 0.00060255
4.1369e-05 -0.003839 -0.00024052 -0.0012896
0.0333 0.018202 -0.17308 0.35702 0.029532 -0.015057 0.0014194 -0.001754
-0.002666 -0.0024804 -0.0014736 -0.002501
-0.0011377 0.0070983 0.029519 -0.015163 0.15891 0.29645 -0.00051473 -0.0014948
-0.0016401 -0.00087459 -0.00031177 -0.0011288
0.0026742 0.00058143 0.0014301 -0.0017514 -0.00051748 -0.0014952 -0.049662 0.28014
0.019698 0.018101 -0.0024204 0.0016866
5.1139e-05 -0.0038592 -0.0027037 -0.0024102 -0.0016363 -0.00085767 0.019742 0.018075
-0.083835 0.18564 0.013332 0.018686
-0.00023721 -0.0012732 -0.0014588 -0.0024545 -0.00031092 -0.0011126 -0.0024153 0.0016992
0.01328 0.018679 -0.13684 0.26835
1100000000 0.037014 0.30648 0.036044 -0.0042537 0.0030864 0.0039151 0.0023606 -0.001504
-0.0020485 -0.0031695 -0.0037832 4.9974e-05
0.036008 -0.004247 -0.12971 0.37441 0.015065 -0.028037 -6.6772e-05 -0.0018566
-0.0032439 -0.00057724 -0.0033439 -0.00051409
0.0031127 0.0038999 0.014976 -0.028112 0.20546 0.27587 -0.0018044 0.00032144
-0.0017251 0.00058023 -0.0010338 -0.00055262
0.0023529 -0.0015109 -7.2263e-05 -0.001853 -0.0018045 0.00031727 -0.0089107 0.28514
0.024833 0.004822 -0.0025345 0.00027705
-0.0020565 -0.0031528 -0.0032704 -0.00054451 -0.0017157 0.00057451 0.024855 0.0047821
-0.06602 0.1998 0.019016 0.0088296
-0.00379 4.8132e-05 -0.0033506 -0.00047405 -0.0010321 -0.0005449 -0.0025143 0.00027658
0.01902 0.0088075 -0.091389 0.29869
1160000000 0.088447 0.30124 0.024109 -0.02097 0.0027985 -0.00057935 -0.00035625 -0.0024849
-0.0041972 -0.00070102 -0.00086798 0.0041565
0.024091 -0.020939 -0.085547 0.37853 -0.0039877 -0.029244 -0.0017502 -0.001647
-0.0025152 0.0025486 -0.0012057 0.0018062
0.0027906 -0.00059571 -0.0041229 -0.029231 0.2485 0.24476 -0.00061621 0.0017601
-0.00055185 0.0018722 -0.00096051 0.00019512
-0.00036296 -0.0024877 -0.001767 -0.0016275 -0.00060897 0.001745 0.030838 0.28237
0.021075 -0.010694 -0.0028532 0.0052878
-0.0042004 -0.00066636 -0.002529 0.0025652 -0.00054181 0.0018771 0.021076 -0.01072
-0.032306 0.20984 0.018095 0.00062583
-0.00085048 0.0041706 -0.0012569 0.0018514 -0.00096267 0.00020702 -0.0028434 0.0052745
0.018108 0.00060107 -0.044591 0.30165
1220000000 0.13281 0.2898 0.010386 -0.030232 -0.0015059 -0.00097217 -0.0001256 -0.00087533
-0.0026376 0.0025708 0.0013821 0.0020143
0.010398 -0.03021 -0.041079 0.39027 -0.017047 -0.021101 -0.0024899 0.00049633
0.00014175 0.0029145 -0.00069604 0.0018313
-0.0014933 -0.00098261 -0.01715 -0.021046 0.28759 0.20552 0.0008769 0.0015005
0.00062494 0.0011225 0.00029337 0.00071241
-0.00012534 -0.00087663 -0.0024827 0.00050195 0.00087765 0.0015162 0.070825 0.27357
0.010127 -0.017369 0.0024044 0.001441
-0.002617 0.0025852 0.0001468 0.0028895 0.00062757 0.001126 0.010111 -0.017382
-0.0092951 0.21931 0.014408 -0.012741
0.0014012 0.0020012 -0.00069784 0.001834 0.00030552 0.00070823 0.0024163 0.001442
0.014409 -0.012736 -0.013124 0.31856
1280000000 0.18253 0.26755 -0.008068 -0.028579 -0.0019337 0.0023092 -0.00093268 -0.00188
-0.00075754 0.003063 0.0024451 0.0010541
-0.0080474 -0.028566 0.0051112 0.38088 -0.023813 -0.0082571 -0.00084914 0.001444
0.0016498 0.0016387 0.00064513 0.0020833
-0.0019228 0.0023273 -0.023891 -0.0081666 0.31777 0.16134 0.0015071 -0.00013303
0.0010818 0.00026658 0.00046698 0.00040583
-0.00093347 -0.001878 -0.0008525 0.0014502 0.0015011 -0.0001307 0.10767 0.25687
0.00054945 -0.019033 0.00010433 -1.4493e-05
-0.00073816 0.00308 0.0016713 0.0016268 0.0010728 0.00025976 0.00050323 -0.01904
0.027696 0.22352 0.0032856 -0.014794
0.0024556 0.0010507 0.00066751 0.0020804 0.00046878 0.0003924 0.00011014 -1.5919e-05
0.0032721 -0.014787 0.035339 0.32094
1340000000 0.21944 0.23333 -0.017777 -0.019003 0.00082181 0.0043563 -0.0016956 -0.00072989
0.001507 0.0027163 0.0016986 -0.0014051
-0.017741 -0.019003 0.044379 0.37207 -0.021467 0.0043946 -7.0817e-05 0.0019081
0.0018186 0.00073756 0.0013266 0.00081133
0.00083783 0.0043693 -0.02147 0.0044943 0.33954 0.1133 0.0010129 -0.00086678
0.00061703 -0.00041163 0.0002214 0.00038105
-0.0017023 -0.00072212 -6.3259e-05 0.0019135 0.0010182 -0.00087718 0.13988 0.23645
-0.0087852 -0.015961 0.00091815 0.00029675
0.0015229 0.0027087 0.0018356 0.00073097 0.00061909 -0.00040985 -0.008821 -0.015951
0.058276 0.21916 -0.0033662 -0.013356
0.0016851 -0.0014129 0.0013305 0.00079397 0.00022247 0.00037844 0.00092295 0.00030211
-0.003375 -0.013353 0.073528 0.31659
1400000000 0.25211 0.19475 -0.023518 -0.0074346 0.0049982 0.0030755 -0.0019748 0.00064419
0.0024019 0.00083852 0.00027099 -0.0013037
-0.023496 -0.00745 0.081413 0.35861 -0.014713 0.012406 0.0012577 0.0012318
0.0010422 -0.00078851 0.0011837 0.00020671
0.0050062 0.0030552 -0.014667 0.012506 0.35254 0.05995 9.4865e-05 -0.0015347
4.0002e-06 -0.00042929 0.00045564 0.00030565
-0.0019789 0.00065231 0.0012764 0.0012349 9.5786e-05 -0.0015378 0.16928 0.20775
-0.014355 -0.0091183 -0.00082914 -0.00063359
0.0023983 0.00082684 0.001035 -0.00078751 8.8101e-06 -0.00043776 -0.014374 -0.0090825
0.091479 0.21484 -0.0097401 -0.0088295
0.0002646 -0.0012984 0.0011824 0.00021043 0.00045782 0.0002806 -0.00082949 -0.00063977
-0.0097392 -0.0088233 0.11902 0.30555
1460000000 0.27416 0.15053 -0.020551 0.0047468 0.0054632 -0.0018329 -0.0015352 0.0016646
0.0020877 -0.00063962 -0.00035977 -0.0009637
-0.020529 0.004719 0.11506 0.33648 -0.0060096 0.015169 0.0016512 0.00019495
0.00084648 -0.0012161 0.0011486 -0.00062532
0.005457 -0.001856 -0.00595 0.015225 0.3583 0.0057016 -0.0012121 -0.0011597
0.00015692 -0.00028165 0.00061786 -0.00029475
-0.0015415 0.0016507 0.0016499 0.00018714 -0.0012323 -0.0011543 0.19543 0.1788
-0.015223 -0.0023953 -0.00099218 0.0018606
0.0020904 -0.00065918 0.00082743 -0.0012186 0.00015795 -0.000282 -0.015235 -0.0023585
0.1209 0.20016 -0.0117 -0.0029197
-0.00035067 -0.00097395 0.0011557 -0.00061746 0.0006222 -0.00026407 -0.0009972 0.0018666
-0.011698 -0.0029007 0.15213 0.28474
1520000000 0.2858 0.10897 -0.014823 0.010425 0.0031887 -0.004057 0.00010801 0.0025767
0.0019894 -0.001763 -0.0010971 -5.9744e-05
-0.014831 0.01041 0.14818 0.32177 0.0015024 0.012938 0.0016126 -0.00070375
2.6744e-05 -0.00095555 0.00032162 -0.0010349
0.0031856 -0.0040684 0.0015828 0.012946 0.35159 -0.050481 -0.00098573 -0.00029548
0.00059798 -0.00082671 3.563e-05 -0.0001638
0.00011724 0.0025751 0.0016162 -0.00071837 -0.00098519 -0.00029611 0.2187 0.14119
-0.014285 0.0030627 0.0012728 0.0020334
0.0019729 -0.0017836 2.1366e-05 -0.00095914 0.0006023 -0.00082942 -0.014281 0.0031032
0.14885 0.1861 -0.011566 0.001484
-0.0010853 -6.0758e-05 0.00030973 -0.001026 3.0148e-05 -0.00017447 0.0012824 0.0020216
-0.011567 0.0014768 0.18574 0.26431
1580000000 0.29471 0.063065 -0.0081008 0.013557 -0.00094402 -0.00474 0.0013383 0.0018682
-0.00039536 -0.0020536 -0.00031568 0.00037535
-0.008111 0.013542 0.17505 0.29707 0.0050166 0.0081749 0.00049316 -0.0015343
-0.00053664 -0.00098951 -0.00027485 -0.00076204
-0.00097188 -0.0047483 0.0050725 0.0081644 0.33105 -0.10782 -0.0015306 0.00051608
-0.00031338 -0.0010614 0.00015872 -0.00044973
0.001362 0.0018631 0.00048129 -0.0015362 -0.0015281 0.00052855 0.23286 0.10215
-0.010589 0.0076294 0.0021789 0.00091612
-0.00041606 -0.002039 -0.00053967 -0.00098475 -0.00031924 -0.0010641 -0.010579 0.007667
0.17334 0.16815 -0.0091781 0.0073152
-0.00031969 0.00038065 -0.00028206 -0.0007676 0.00016396 -0.00046518 0.0021832 0.00091516
-0.0091931 0.0072994 0.21827 0.23738
1640000000 0.2966 0.022157 -0.0012721 0.012463 -0.0026826 -0.0024812 0.002709 0.0009738
-0.00064682 -0.0014105 -0.00020665 0.00052262
-0.0012905 0.012462 0.20426 0.27233 0.0057909 0.0034795 -0.00060621 -0.0017052
-0.00095859 -0.00036213 -0.00048175 -0.00064678
-0.0026791 -0.0024615 0.0058068 0.0034408 0.30298 -0.15695 -0.00067771 0.0013844
-0.0010224 -0.00099604 -7.6897e-05 -0.00051273
0.0027131 0.00096553 -0.00062274 -0.0016986 -0.00067308 0.0013885 0.24536 0.053508
-0.0063817 0.0084193 0.0024223 -0.00068175
-0.00066565 -0.0013997 -0.0009631 -0.00035701 -0.0010307 -0.0010021 -0.0063677 0.0084362
0.19584 0.14373 -0.004623 0.0091926
-0.00020029 0.00051989 -0.00048309 -0.00065087 -8.7343e-05 -0.00051577 0.0024249 -0.00069647
-0.0046217 0.0091921 0.24361 0.20624
1700000000 0.28924 -0.022914 0.0021625 0.0095203 -0.0032774 0.00012952 0.002973 -0.0011511
-0.0019692 -0.00063281 0.00067315 0.00040785
0.0021532 0.0095133 0.22221 0.24105 0.0037654 0.00075265 -0.0014445 -0.00058686
-0.00073465 4.9445e-05 -0.00088927 -0.00039909
-0.003274 0.00013007 0.0037694 0.00072641 0.25937 -0.19679 0.00038298 0.0016439
-0.0018341 -0.0001672 -0.00046164 -0.00085519
0.0029727 -0.0011675 -0.0014451 -0.00058158 0.00038442 0.0016472 0.24256 0.0040583
-0.0039692 0.0086968 0.001428 -0.0021343
-0.0019812 -0.00060756 -0.00074 5.0457e-05 -0.0018464 -0.00016513 -0.0039458 0.0087077
0.21307 0.12354 0.00011181 0.009438
0.0006784 0.00038758 -0.00088533 -0.000391 -0.00047107 -0.00084966 0.0014213 -0.0021383
0.00011452 0.0094367 0.26008 0.1716
1760000000 0.27704 -0.071253 0.0044543 0.006229 -0.0021193 0.00091406 0.001336 -0.0033654
-0.0012135 0.00072541 0.00041007 -0.00060974
0.0044427 0.0062197 0.24806 0.20144 0.0016389 -0.00092068 -0.001162 0.00016391
-0.00094364 0.00083887 -0.00054219 0.00041645
-0.0021222 0.00093114 0.0016311 -0.00095117 0.21048 -0.22948 0.0012175 0.0011391
-0.0010715 0.0013943 -0.0013793 -0.00052664
0.0013163 -0.0033755 -0.0011673 0.00017452 0.0012193 0.0011308 0.23371 -0.047255
-0.0010327 0.0078148 -0.00021328 -0.0024517
-0.0012161 0.00072382 -0.00093556 0.00085183 -0.0010848 0.0013885 -0.0010161 0.0078235
0.22769 0.08851 0.0039526 0.0069076
0.00041976 -0.00061523 -0.00053511 0.00042422 -0.0013999 -0.00053093 -0.0002158 -0.0024606
0.0039584 0.0068998 0.27261 0.13389
1820000000 0.2525 -0.10838 0.004575 0.0026849 -3.9895e-05 0.002344 -0.00097856 -0.003005
-0.0010381 0.00087262 -7.3841e-05 -0.00012222
0.0045669 0.0026879 0.25803 0.17161 -0.00019067 4.487e-05 -0.0013114 0.00093019
-5.4401e-05 0.0012548 -0.00046651 0.00050227
-1.5882e-05 0.0023314 -0.00017953 5.317e-05 0.16088 -0.24556 0.0014565 0.00046477
-0.00027631 0.002234 -0.0012997 0.00036726
-0.0009931 -0.0029993 -0.0013104 0.00093035 0.001457 0.00045627 0.20415 -0.09432
4.4635e-05 0.0063072 -0.0015571 -0.0015338
-0.0010327 0.00089205 -4.5455e-05 0.0012586 -0.00027292 0.002218 6.3158e-05 0.0063087
0.24457 0.059628 0.0048739 0.0033986
-7.7691e-05 -0.00011736 -0.00046625 0.00050822 -0.0012904 0.00038105 -0.001564 -0.0015338
0.0048735 0.0033998 0.275 0.097886
1880000000 0.21753 -0.14864 0.002436 0.00043448 -0.0004265 0.0019456 -0.0028752 -0.0021404
-0.000181 0.0016179 0.00023971 -0.00049095
0.0024254 0.00044073 0.26257 0.12522 -0.0021482 0.0017013 -0.00019791 0.001713
0.00055933 0.0011406 0.00012474 0.00082307
-0.00041614 0.0019623 -0.0021212 0.0017067 0.10843 -0.25519 0.0017888 -0.00097098
0.0014676 0.0018937 -0.00095049 0.0011965
-0.0028896 -0.0021218 -0.00018024 0.001717 0.0017928 -0.00095912 0.16395 -0.13469
0.00061921 0.004586 -0.0024058 0.00044181
-0.00017621 0.0016147 0.00055602 0.0011352 0.0014753 0.0019152 0.00062677 0.0045818
0.24727 0.027197 0.004843 0.0011937
0.00022466 -0.00049611 0.00013107 0.00083449 -0.0009371 0.0011924 -0.0023971 0.00044984
0.004844 0.0011971 0.27448 0.063547
1940000000 0.17799 -0.1746 0.00032362 -0.0013299 0.0013591 0.0019864 -0.0038069 0.00051321
0.0012517 0.00092569 -0.00060635 -0.00047929
0.00031727 -0.0013182 0.26324 0.093522 -0.0010119 0.0038261 0.00099978 0.0013563
0.0017679 0.0004607 0.00079805 0.00023441
0.0013701 0.0019847 -0.0009945 0.0038474 0.062363 -0.24844 0.00041724 -0.0022325
0.0024272 0.00052248 0.00019491 0.001612
-0.0038025 0.00054493 0.001011 0.0013551 0.00039923 -0.0022328 0.11188 -0.16524
-0.00034108 0.0037106 -0.0014506 0.0015176
0.0012458 0.00092516 0.0017678 0.0004454 0.0024346 0.0004999 -0.00031433 0.0037134
0.24887 -0.011266 0.0036474 -0.0021583
-0.0006139 -0.00046266 0.00079446 0.00022816 0.00018451 0.0015751 -0.0014495 0.001521
0.0036422 -0.0021521 0.2635 0.027626
2000000000 0.13166 -0.18908 -0.0034726 0.00053244 0.0024329 0.0015667 -0.0023068 0.0035268
0.0010794 0.00014113 -0.0006665 0.00030682
-0.0034778 0.00053586 0.24921 0.058034 -0.00093585 0.0055842 0.0016704 0.0003901
0.001308 -0.0013336 0.0004069 0.00013617
0.0024503 0.0015491 -0.00087785 0.0055882 0.018671 -0.23377 -0.0013732 -0.0012958
0.0020118 -0.0011485 0.0015784 0.0012159
-0.0022841 0.0035454 0.0016909 0.00037062 -0.001341 -0.0012777 0.058615 -0.17559
-0.0017807 0.0037313 -6.1623e-05 0.0022159
0.0010848 0.00013287 0.0013047 -0.0013452 0.0020071 -0.001132 -0.0017634 0.0037347
0.24276 -0.044959 0.00021955 -0.0027961
