!Keysight Technologies,M9804A,MY58100912,A.14.10.03
!Date: Thursday, April 27, 2023 10:28:33
!Correction: S11(C  6-Port  ) 
!S12(C  6-Port  ) 
!S13(C  6-Port  ) 
!S14(C  6-Port  ) 
!S15(C  6-Port  ) 
!S16(C  6-Port  ) 
!S21(C  6-Port  ) 
!S22(C  6-Port  ) 
!S23(C  6-Port  ) 
!S24(C  6-Port  ) 
!S25(C  6-Port  ) 
!S26(C  6-Port  ) 
!S31(C  6-Port  ) 
!S32(C  6-Port  ) 
!S33(C  6-Port  ) 
!S34(C  6-Port  ) 
!S35(C  6-Port  ) 
!S36(C  6-Port  ) 
!S41(C  6-Port  ) 
!S42(C  6-Port  ) 
!S43(C  6-Port  ) 
!S44(C  6-Port  ) 
!S45(C  6-Port  ) 
!S46(C  6-Port  ) 
!S51(C  6-Port  ) 
!S52(C  6-Port  ) 
!S53(C  6-Port  ) 
!S54(C  6-Port  ) 
!S55(C  6-Port  ) 
!S56(C  6-Port  ) 
!S61(C  6-Port  ) 
!S62(C  6-Port  ) 
!S63(C  6-Port  ) 
!S64(C  6-Port  ) 
!S65(C  6-Port  ) 
!S66(C  6-Port  ) 
!S6P File: Measurement: :
# Hz S  RI   R 50
500000000 -0.33786 -0.038022 -0.010079 -0.0016517 -0.0081538 0.013003 -0.0039544 0.011919
0.013455 0.0054047 -0.0040892 0.0090978
-0.010114 -0.0016444 -0.41891 -0.051458 0.0074709 -0.010569 0.001254 0.012054
0.0079628 0.0025389 0.0012831 0.013491
-0.0081187 0.012989 0.0074555 -0.010596 -0.26608 0.21003 0.0078699 0.0034812
-0.0019606 0.0083821 0.0017625 0.012232
-0.0037739 0.011815 0.0013548 0.011965 0.0079047 0.0034608 -0.33127 0.043417
-0.018883 -0.0061021 0.01531 0.025468
0.013109 0.00557 0.0078374 0.0025669 -0.001962 0.0083565 -0.018894 -0.0060667
-0.22681 -0.19354 -0.025989 0.0051619
-0.0040322 0.0090798 0.0013007 0.013451 0.0017885 0.012205 0.015311 0.025412
-0.025976 0.0051717 -0.26845 -0.12867
560000000 -0.31654 0.12347 -0.023846 -0.064033 0.00070801 0.012381 0.0055568 0.010109
0.0092556 0.0051351 0.010321 0.0069959
-0.023744 -0.064079 -0.37741 0.10756 -0.04208 -0.037709 0.014065 0.0042117
-0.013806 -0.0050756 0.0040301 0.00073836
0.00080737 0.012509 -0.042103 -0.037594 -0.1831 0.25775 -0.0010176 -0.0043835
0.019166 0.004163 0.0068149 -0.0062571
0.0056542 0.010068 0.014144 0.0042405 -0.001026 -0.0043739 -0.3057 0.13419
0.0045887 -0.02315 0.0044743 -0.021521
0.0091059 0.0052131 -0.013869 -0.0048231 0.019149 0.0041781 0.0045701 -0.0231
-0.29067 -0.019913 0.0083069 -0.050029
0.010566 0.0067317 0.004099 0.00041895 0.0068372 -0.0062355 0.0044627 -0.021597
0.00832 -0.050073 -0.32961 0.019293
620000000 -0.27547 0.10796 -0.023382 0.007763 0.0038729 0.0087349 0.0089861 -0.0043325
0.011031 -0.0011275 0.0013508 -0.0020102
-0.023383 0.0077215 -0.40284 0.059878 -0.018692 0.00026122 -0.0013614 -0.0019555
0.011383 -0.0070175 0.0018258 -0.002976
0.0038945 0.0087314 -0.018705 0.00028891 -0.15331 0.26696 -0.0010526 -0.0049894
-0.0032407 -0.0032728 0.0091383 -0.0026984
0.0088313 -0.0042647 -0.0013429 -0.0019718 -0.0010491 -0.0049785 -0.26559 0.14464
-0.037643 -0.019523 0.011291 0.026739
0.010977 -0.0012733 0.011391 -0.0070206 -0.0032524 -0.0032084 -0.037661 -0.019469
-0.20892 -0.055203 -0.040578 0.01377
0.0013692 -0.0021149 0.0017947 -0.0030149 0.0091674 -0.0027283 0.011339 0.026729
-0.040498 0.013747 -0.25284 -0.015275
680000000 -0.2346 0.19341 -0.027306 -0.013568 0.0050096 0.0055638 0.0010802 -0.0070627
-0.0028248 -0.011326 0.0039502 -0.0064499
-0.027282 -0.013595 -0.38794 0.15817 -0.032582 -0.00081068 -0.0018503 -0.00031804
-0.0019462 -0.0088228 -0.0019268 -0.0020272
0.004955 0.0054991 -0.032644 -0.00073245 -0.10191 0.28725 -0.0010302 -0.00013577
-0.0018931 0.00056858 -0.0032953 -0.0094164
0.0010845 -0.0070504 -0.0018513 -0.00030241 -0.0010337 -0.00015085 -0.22064 0.19345
-0.024125 -0.0068624 -0.0096643 -0.011076
-0.0028709 -0.011358 -0.001987 -0.0088474 -0.0019165 0.00055041 -0.024151 -0.0068325
-0.25903 0.041306 -0.0057489 -0.0081145
0.003842 -0.006485 -0.0019951 -0.0020199 -0.0033488 -0.0093556 -0.0097438 -0.011098
-0.005753 -0.0081155 -0.26054 0.088922
740000000 -0.18972 0.18772 -0.038006 0.027067 0.012924 -0.0051818 -0.00027457 -0.0041976
-0.003978 -0.0031176 -0.0062082 0.0023413
-0.037972 0.027025 -0.33531 0.17722 -0.035307 0.034932 -0.00062597 -0.0065598
-0.012128 0.00808 -0.0018839 -0.0068266
0.012955 -0.0052665 -0.035258 0.035082 -0.068203 0.28476 -0.0018737 0.0035959
-0.0025949 -0.0051631 -0.0015 0.0010307
-0.00031199 -0.0042025 -0.00064624 -0.0065287 -0.0018771 0.0035904 -0.20339 0.20221
-0.043861 -0.0066381 0.023268 0.014631
-0.0040274 -0.0028878 -0.012142 0.0081622 -0.0026004 -0.0051908 -0.043887 -0.0065822
-0.15879 0.069579 -0.044104 0.00041113
-0.0061006 0.0023104 -0.0018777 -0.0068886 -0.0014907 0.0010333 0.023335 0.014635
-0.044129 0.00043428 -0.24846 0.094772
800000000 -0.15677 0.22869 -0.022307 0.016823 0.0053781 -0.01048 -0.0050683 -0.0018101
-0.0044128 0.0029207 0.0036835 0.00083442
-0.022298 0.016826 -0.33816 0.24661 -0.007847 0.034027 -0.0024134 0.0022406
-0.0010436 0.0032736 0.00093662 0.0052949
0.0053351 -0.010492 -0.0077623 0.034078 -0.027486 0.30812 0.00085659 0.0015745
0.00039888 0.0036317 -0.0022422 0.0010625
-0.0050955 -0.0018652 -0.0024396 0.0022687 0.00084296 0.001567 -0.17519 0.22987
-0.028249 0.013826 0.013242 -0.010259
-0.0044967 0.00296 -0.0010024 0.0032776 0.00040104 0.0036303 -0.028211 0.013872
-0.20695 0.092925 -0.017086 0.019201
0.0037014 0.00082973 0.00097823 0.0053227 -0.0022033 0.0010962 0.01323 -0.010234
-0.017114 0.019122 -0.24383 0.14491
860000000 -0.12247 0.24818 -0.017088 0.03052 -0.0033953 -0.00998 -0.0026065 0.00086319
0.0040918 0.0048051 -0.0036186 -0.0028813
-0.017093 0.030514 -0.29033 0.28855 0.0079505 0.034113 1.3404e-05 0.0020381
0.0041766 -4.9436e-05 0.003511 0.00037364
-0.0034121 -0.0099927 0.008051 0.034123 0.020213 0.31571 -0.00057917 -0.00016319
0.002812 -0.0016536 0.0017465 0.0039438
-0.002522 0.00082984 4.0362e-05 0.0020469 -0.00056635 -0.00016766 -0.13905 0.24072
-0.017642 0.018663 -0.005783 -0.009421
0.004078 0.0047491 0.0042203 -8.4525e-05 0.0028148 -0.0016708 -0.017626 0.018738
-0.15566 0.14308 -0.024149 0.016032
-0.0036723 -0.0028756 0.0034818 0.00038219 0.0017136 0.0039397 -0.0058085 -0.0094566
-0.024185 0.016015 -0.19053 0.18964
920000000 -0.09751 0.27069 0.0054787 0.037677 -0.0093803 -0.004554 -0.0018121 0.0020366
0.0013711 0.0020153 0.0027944 -0.00151
0.0054395 0.037659 -0.26146 0.30951 0.028264 0.021757 0.0014453 0.0011751
0.0072687 -0.00046311 0.0040829 -0.0028614
-0.0094018 -0.0045278 0.028343 0.021683 0.066511 0.31649 0.001904 -0.00013983
0.0012344 -0.00041061 0.00094504 -0.001262
-0.0018347 0.0020662 0.0014091 0.0011517 0.0019135 -0.0001409 -0.11496 0.25802
-0.010258 0.030369 0.0035424 -0.006609
0.0014039 0.0020757 0.0072758 -0.00042491 0.001241 -0.00041376 -0.010226 0.030357
-0.14437 0.14801 -0.0025238 0.027288
0.0027741 -0.0015604 0.0040446 -0.0028397 0.00096227 -0.0012751 0.0036214 -0.0066179
-0.0025734 0.027251 -0.19876 0.20482
980000000 -0.050479 0.28974 0.017549 0.029616 -0.0090605 0.0045015 0.0019129 0.0033211
0.0039092 -0.0016681 -0.0034285 -0.0023711
0.017499 0.029601 -0.20852 0.34314 0.033043 0.0046684 0.0019025 -0.00021886
0.0015687 -0.0060637 -0.0007396 -0.0023056
-0.0090467 0.0045315 0.033089 0.0045312 0.1127 0.30986 0.00045679 -0.0012128
0.00018881 -0.0022005 0.0012988 -9.6852e-05
0.0019477 0.0033241 0.0019422 -0.00025147 0.00045693 -0.0012107 -0.076673 0.26887
0.0080267 0.029759 -0.0089373 -0.0071701
0.0038739 -0.0016806 0.001522 -0.0061312 0.00018207 -0.0021891 0.0080713 0.029741
-0.1144 0.17832 0.0053863 0.0197
-0.0034356 -0.0023656 -0.00077556 -0.00232 0.0012866 -9.0113e-05 -0.0089895 -0.0071458
0.0053773 0.019691 -0.15655 0.24838
1040000000 -0.0085376 0.29813 0.033306 0.01764 -0.0013192 0.0068069 0.0025547 0.00082167
9.0452e-05 -0.0035885 -0.00026864 -0.001278
0.033259 0.017679 -0.17302 0.35628 0.029306 -0.015055 0.0015294 -0.0017553
-0.0024873 -0.0024785 -0.0015727 -0.0027043
-0.001286 0.0068253 0.029274 -0.0152 0.15891 0.2962 -0.00051088 -0.0014835
-0.0016329 -0.00087631 -0.00051953 -0.0010841
0.0025216 0.00083074 0.0014979 -0.0017615 -0.00050279 -0.0014831 -0.049313 0.27921
0.019362 0.01754 -0.0026249 0.0015464
7.7341e-05 -0.0035918 -0.0025494 -0.0024715 -0.0016436 -0.00087184 0.01941 0.017482
-0.081985 0.18523 0.013884 0.018183
-0.00029314 -0.0013025 -0.0015803 -0.0026653 -0.0005135 -0.001093 -0.0025685 0.0015808
0.013889 0.018141 -0.13564 0.26968
1100000000 0.036895 0.30574 0.035663 -0.0046561 0.002797 0.0038549 0.0024153 -0.0012545
-0.0020217 -0.003104 -0.0040998 0.00013849
0.035631 -0.0046217 -0.12992 0.37351 0.014964 -0.028027 1.2611e-05 -0.0018503
-0.0034723 -0.00071159 -0.0036059 -0.00045365
0.0028088 0.0038507 0.014861 -0.028109 0.20548 0.27572 -0.0018884 0.00025052
-0.0017861 0.00053123 -0.001171 -0.0002124
0.0024324 -0.0012602 -1.7469e-06 -0.0018764 -0.0018989 0.00025137 -0.0089891 0.28418
0.024453 0.004598 -0.0025463 6.5396e-05
-0.0020532 -0.0030901 -0.00348 -0.00069844 -0.0017883 0.00053171 0.024472 0.0045529
-0.064746 0.19955 0.019264 0.0084267
-0.0040674 0.00013861 -0.0036104 -0.00043539 -0.0011785 -0.00020461 -0.0025725 3.8866e-05
0.019243 0.0084381 -0.089357 0.29849
1160000000 0.087925 0.301 0.02355 -0.020977 0.0025504 -0.00046269 -0.00010766 -0.0023895
-0.0041521 -0.00062319 -0.00096033 0.0039726
0.023536 -0.020927 -0.086326 0.37778 -0.0040448 -0.029047 -0.0016477 -0.0017129
-0.0026289 0.0026233 -0.0013952 0.0018508
0.0025547 -0.0004749 -0.0041772 -0.029066 0.24835 0.2446 -0.00073005 0.0017817
-0.00050848 0.0019953 -0.00084544 0.00033128
-0.00012126 -0.0023537 -0.0016635 -0.0016894 -0.00073809 0.0017859 0.030079 0.28152
0.020453 -0.010808 -0.0031401 0.0052102
-0.0041412 -0.00059296 -0.0026407 0.0026453 -0.00051261 0.0020044 0.020441 -0.010857
-0.03127 0.2087 0.01805 0.00019875
-0.00092201 0.0039919 -0.0013781 0.0019255 -0.00084488 0.00030401 -0.0030855 0.0052185
0.018004 0.00022346 -0.042691 0.30213
1220000000 0.13236 0.2898 0.0098526 -0.030025 -0.0016112 -0.00069769 -1.5539e-05 -0.00097089
-0.0027683 0.0024784 0.001326 0.0021698
0.0098613 -0.029981 -0.041942 0.38982 -0.01715 -0.021056 -0.0025663 0.00050564
5.0914e-05 0.0031127 -0.00071489 0.001976
-0.0016149 -0.00068557 -0.017252 -0.021005 0.28738 0.20521 0.00087316 0.0016819
0.00064321 0.0011541 0.00035496 0.00063006
-1.497e-05 -0.00096588 -0.0025718 0.00050312 0.00087219 0.0016765 0.069943 0.27331
0.0098439 -0.017008 0.002198 0.0014936
-0.0027808 0.0024854 7.6023e-05 0.0031042 0.00064778 0.0011723 0.0098194 -0.017027
-0.0084045 0.21831 0.014062 -0.012833
0.0013509 0.0021421 -0.00071179 0.0019632 0.00034809 0.00065439 0.0021801 0.0014939
0.014077 -0.012828 -0.010994 0.31859
1280000000 0.18215 0.26771 -0.0084027 -0.028198 -0.0019167 0.0027147 -0.00086763 -0.0020331
-0.00067262 0.0031774 0.0026875 0.0011512
-0.0083775 -0.028172 0.0041062 0.38078 -0.023871 -0.0082799 -0.00097289 0.0014208
0.0017953 0.0017936 0.00064184 0.0020106
-0.0019154 0.0027224 -0.023947 -0.0081832 0.31753 0.16128 0.0015483 -7.6649e-05
0.0011689 0.00022514 0.00039044 0.00024437
-0.00088143 -0.0020133 -0.00096506 0.0014263 0.0015446 -7.9361e-05 0.10675 0.25722
0.00041763 -0.018798 6.4532e-05 0.00034958
-0.00068226 0.0031732 0.0018181 0.0018135 0.0011759 0.00021953 0.00036309 -0.0188
0.028027 0.2226 0.0028861 -0.015077
0.0027199 0.0011495 0.00065447 0.0020113 0.00039245 0.00023377 8.3837e-05 0.00031509
0.0028939 -0.015049 0.036521 0.32031
1340000000 0.21912 0.23379 -0.017855 -0.018385 0.00097384 0.0045736 -0.0017737 -0.00084305
0.0014947 0.0026473 0.0017091 -0.0014605
-0.017834 -0.018388 0.043491 0.37247 -0.021606 0.0044369 -5.2812e-05 0.0020019
0.0019578 0.00072261 0.0012872 0.00080468
0.0009965 0.0045795 -0.02161 0.0045419 0.33909 0.11356 0.0011747 -0.00096929
0.0007708 -0.00039652 0.00021087 0.00030153
-0.001781 -0.00084265 -3.897e-05 0.0020077 0.001165 -0.00097875 0.13951 0.23717
-0.0087166 -0.015778 0.00099358 0.000508
0.0015153 0.0026389 0.0019557 0.00071892 0.00076551 -0.00039994 -0.0087368 -0.015781
0.05809 0.21844 -0.0037086 -0.013474
0.0016969 -0.0014685 0.0013082 0.00080437 0.0002102 0.0003038 0.00098609 0.00051667
-0.0037088 -0.013487 0.074728 0.31559
1400000000 0.25202 0.19521 -0.023334 -0.0068681 0.0053292 0.0030878 -0.0020986 0.00067383
0.002469 0.00086112 0.00027351 -0.0013809
-0.023303 -0.0068868 0.080717 0.3593 -0.014796 0.012535 0.0013298 0.0012478
0.0011486 -0.00087238 0.0012023 0.00013084
0.0053469 0.0030635 -0.01475 0.012624 0.35217 0.060372 2.5932e-05 -0.0016449
-2.2438e-05 -0.00040266 0.00046396 0.00021236
-0.0021002 0.00068836 0.0013483 0.0012458 3.4769e-05 -0.0016506 0.16918 0.20859
-0.014251 -0.0090349 -0.00078488 -0.00029048
0.002498 0.00084671 0.0011444 -0.00088777 -1.0889e-05 -0.00041055 -0.0143 -0.0090131
0.091357 0.21444 -0.010255 -0.0086778
0.0002659 -0.0013916 0.0012119 0.00013076 0.00046333 0.00020701 -0.00076669 -0.00028613
-0.010249 -0.008697 0.11982 0.30492
1460000000 0.2745 0.15107 -0.02005 0.005139 0.0056733 -0.0019558 -0.0015861 0.0017417
0.0021617 -0.0006119 -0.00042519 -0.0010115
-0.020029 0.0051267 0.11479 0.33738 -0.0060922 0.015452 0.0017703 0.00015801
0.00084026 -0.0012994 0.0011699 -0.00058311
0.0056751 -0.0019784 -0.0060234 0.015495 0.35821 0.0063322 -0.0012634 -0.00119
0.00027513 -0.00017918 0.00059008 -0.00031467
-0.0015704 0.0017565 0.001785 0.00015962 -0.0012622 -0.0011963 0.19586 0.17953
-0.015183 -0.0023052 -0.000735 0.0018231
0.0021574 -0.00063634 0.00082631 -0.0013028 0.00027446 -0.00018177 -0.015208 -0.0022661
0.12066 0.20042 -0.011957 -0.0026177
-0.00043093 -0.00098027 0.0011756 -0.00061119 0.00060572 -0.00034717 -0.00076441 0.0018091
-0.011959 -0.0026259 0.15278 0.28392
1520000000 0.28635 0.10913 -0.014262 0.010466 0.0033021 -0.0042767 0.00010459 0.0025744
0.0019642 -0.0018526 -0.0011836 -8.9211e-05
-0.014261 0.010435 0.14823 0.32257 0.0016616 0.013094 0.0015905 -0.00085084
-1.9155e-05 -0.0010003 0.00030338 -0.0010143
0.0032757 -0.00429 0.0017365 0.013096 0.35161 -0.049741 -0.0011487 -0.00027146
0.00066724 -0.00084572 -2.7175e-05 -0.00010597
0.00011381 0.0025644 0.0015957 -0.00086905 -0.0011531 -0.00026866 0.21944 0.14167
-0.014168 0.0031652 0.0014532 0.0020393
0.0019504 -0.0018795 -2.9485e-05 -0.00098895 0.00067686 -0.00085744 -0.014164 0.0031941
0.14889 0.18648 -0.011684 0.0020166
-0.0012072 -8.5733e-05 0.00030544 -0.0010167 -1.9568e-05 -9.6062e-05 0.0014777 0.0020596
-0.011674 0.0020052 0.18612 0.26374
1580000000 0.29533 0.062937 -0.0075972 0.013358 -0.00087667 -0.0048827 0.0015351 0.0019312
-0.00029029 -0.0020811 -0.00036921 0.00024594
-0.0075929 0.013345 0.17541 0.29779 0.0052738 0.0082728 0.00044095 -0.0016233
-0.00049953 -0.0010004 -0.00021999 -0.00092627
-0.00089564 -0.0048813 0.0053225 0.0082563 0.33155 -0.10759 -0.0015756 0.00056124
-0.00031539 -0.0011504 0.00015362 -0.00052578
0.0015516 0.001945 0.00043262 -0.0016265 -0.001569 0.00057079 0.23357 0.10226
-0.010515 0.0076134 0.0022749 0.00071894
-0.00030012 -0.0020792 -0.00050411 -0.00097831 -0.00032426 -0.0011526 -0.010518 0.0076661
0.17369 0.16871 -0.0091283 0.0075849
-0.00037747 0.00024866 -0.00021376 -0.00093614 0.0001587 -0.00051262 0.0022783 0.00067482
-0.0091405 0.0075896 0.21835 0.23679
1640000000 0.29689 0.021691 -0.0010553 0.01201 -0.0029138 -0.0026794 0.0027281 0.00099138
-0.00083475 -0.0014056 -0.00031269 0.00057186
-0.0010657 0.012002 0.20475 0.27281 0.0059472 0.0035119 -0.0007341 -0.0016706
-0.00099594 -0.00036349 -0.00049804 -0.00061085
-0.0029155 -0.0026635 0.0059691 0.0034784 0.30327 -0.15656 -0.00067507 0.0015102
-0.0012424 -0.00088345 -0.00019727 -0.00021922
0.002719 0.00097136 -0.00074779 -0.0016634 -0.0006719 0.0015115 0.24608 0.053359
-0.0062538 0.0084976 0.0024161 -0.00089729
-0.00085128 -0.0013974 -0.00099203 -0.00036 -0.0012404 -0.00088392 -0.0062287 0.008507
0.19676 0.14432 -0.0043626 0.0094855
-0.00032375 0.00057566 -0.00050851 -0.00060563 -0.00021673 -0.0002315 0.0023872 -0.00086686
-0.0043818 0.0094941 0.24374 0.20581
1700000000 0.2894 -0.023459 0.0022392 0.0090915 -0.003506 0.00010559 0.0029722 -0.0012849
-0.0019845 -0.00053221 0.00062798 0.00045707
0.002226 0.0090886 0.22287 0.24129 0.0040148 0.00055441 -0.0014736 -0.00056246
-0.00074942 1.2128e-06 -0.00093096 -0.00048847
-0.0035028 0.00011916 0.0040134 0.000534 0.26005 -0.19638 0.00045339 0.0015242
-0.0019119 -0.00020797 -0.00046102 -0.00080148
0.0029819 -0.0013074 -0.0014837 -0.0005561 0.00046025 0.0015178 0.24304 0.00358
-0.0038172 0.0087298 0.0014398 -0.002349
-0.0019849 -0.00052352 -0.00074493 -1.1786e-06 -0.0019204 -0.00020666 -0.0037932 0.0087451
0.21419 0.12396 0.00043666 0.0096637
0.00063212 0.00045182 -0.00093536 -0.00047828 -0.00045614 -0.00080595 0.001461 -0.0023624
0.000437 0.0096555 0.26053 0.17148
1760000000 0.27695 -0.07159 0.0042658 0.0058229 -0.0023135 0.00087063 0.0012165 -0.0034138
-0.0013175 0.00073568 0.00047522 -0.00052418
0.0042623 0.0058219 0.24869 0.20141 0.0017548 -0.001317 -0.0012 0.00022952
-0.0010508 0.00082131 -0.00057274 0.00050174
-0.0022961 0.00087322 0.0017442 -0.0013313 0.21164 -0.23029 0.0011949 0.0011012
-0.0010209 0.0015029 -0.0011171 -0.00046433
0.001186 -0.0034451 -0.0011886 0.00022252 0.0011954 0.001109 0.23414 -0.047867
-0.00085475 0.0077171 -0.00019848 -0.0025003
-0.0012868 0.00075062 -0.001047 0.00082699 -0.0010118 0.001506 -0.00083782 0.0077139
0.22902 0.088506 0.0043696 0.0070285
0.00045341 -0.00052083 -0.0005666 0.00051205 -0.0011306 -0.00047605 -0.00021246 -0.0025154
0.0043634 0.0070439 0.27308 0.13359
1820000000 0.25223 -0.10865 0.0043354 0.0023942 -0.00011751 0.0024221 -0.0010669 -0.0030951
-0.00096186 0.00085806 -5.8033e-05 -0.00016186
0.0043269 0.0023911 0.25864 0.17141 -0.00027273 -0.00010939 -0.0012067 0.00089981
-8.9797e-05 0.0013015 -0.00059061 0.00049037
-0.00011438 0.0024321 -0.00028 -0.00011542 0.16096 -0.24578 0.0013981 0.0003364
-0.00030775 0.0022072 -0.0016289 0.00030633
-0.0010773 -0.0030755 -0.0012125 0.00092692 0.0014206 0.0003265 0.2041 -0.095184
0.00031133 0.0061697 -0.0018271 -0.0016382
-0.00095247 0.00087245 -8.5786e-05 0.0012945 -0.00030308 0.0021944 0.00033097 0.0061823
0.24611 0.059255 0.0052371 0.0031564
-4.4081e-05 -0.00015522 -0.00059199 0.00049236 -0.0016208 0.00030286 -0.0018287 -0.0015988
0.0052313 0.0031398 0.2757 0.097573
1880000000 0.21711 -0.14874 0.0021559 0.00025487 -0.00044612 0.0022509 -0.0030226 -0.0021059
-0.0002053 0.0015381 0.00026714 -0.00055489
0.0021643 0.00025901 0.26304 0.12473 -0.0023539 0.0015644 -0.00016158 0.001694
0.00056418 0.0013031 9.583e-05 0.0010053
-0.00045221 0.0022582 -0.0023489 0.0015791 0.1083 -0.2554 0.0018849 -0.00087154
0.0014604 0.0019397 -0.0010296 0.0013899
-0.0030355 -0.0021064 -0.00015422 0.0016539 0.0018731 -0.00085454 0.16367 -0.13536
0.0008335 0.0042818 -0.0024922 0.00043175
-0.00020427 0.0015305 0.00057103 0.001312 0.0014816 0.0019404 0.00081069 0.0042752
0.2487 0.02623 0.0050259 0.001
0.0002148 -0.00053844 0.00010143 0.0010142 -0.0010265 0.0014043 -0.0024182 0.00045485
0.0050471 0.001038 0.27525 0.06316
1940000000 0.17785 -0.17435 -7.2294e-05 -0.0013602 0.001482 0.0019511 -0.0038617 0.00062929
0.0012359 0.0010257 -0.00054257 -0.0005537
-6.9834e-05 -0.0013555 0.26342 0.092908 -0.0011864 0.0037322 0.00096593 0.0012492
0.0018857 0.00054102 0.00092232 0.00041672
0.0015211 0.0019453 -0.0011638 0.003742 0.062504 -0.24872 0.00039092 -0.002101
0.0024273 0.00043383 0.00044566 0.001811
-0.0038102 0.00066093 0.00098592 0.0012597 0.00041078 -0.0021093 0.11133 -0.1657
-0.00045937 0.0033864 -0.0014596 0.0013377
0.0012452 0.0010281 0.0018992 0.00052921 0.0024381 0.00043027 -0.00039436 0.0033931
0.25 -0.012681 0.0038508 -0.002549
-0.00051665 -0.00056655 0.00091684 0.00040699 0.00044224 0.0017986 -0.0015391 0.0013516
0.0038237 -0.0025623 0.2637 0.027008
2000000000 0.13138 -0.18901 -0.0039396 0.00067436 0.0025276 0.0017566 -0.0022744 0.0035534
0.0010542 0.00032817 -0.00063508 0.00049241
-0.0039355 0.00067881 0.24914 0.057467 -0.0010774 0.0057692 0.0016014 0.00035314
0.0013797 -0.0013336 0.0005139 0.00011134
0.0025268 0.001735 -0.0010423 0.0057899 0.018546 -0.2339 -0.001315 -0.0012144
0.0019773 -0.0010683 0.001723 0.0012917
-0.0022458 0.003568 0.0015974 0.00033231 -0.0013468 -0.0012131 0.057546 -0.17545
-0.0020937 0.0036397 -0.0002969 0.002479
0.0010469 0.00031835 0.0013814 -0.0013474 0.0019739 -0.0010772 -0.002139 0.0036612
0.24344 -0.0465 0.00017241 -0.0030996
