!Keysight Technologies,M9804A,MY58100912,A.14.10.03
!Date: Thursday, April 27, 2023 10:28:33
!Correction: S11(C  6-Port  ) 
!S12(C  6-Port  ) 
!S13(C  6-Port  ) 
!S14(C  6-Port  ) 
!S15(C  6-Port  ) 
!S16(C  6-Port  ) 
!S21(C  6-Port  ) 
!S22(C  6-Port  ) 
!S23(C  6-Port  ) 
!S24(C  6-Port  ) 
!S25(C  6-Port  ) 
!S26(C  6-Port  ) 
!S31(C  6-Port  ) 
!S32(C  6-Port  ) 
!S33(C  6-Port  ) 
!S34(C  6-Port  ) 
!S35(C  6-Port  ) 
!S36(C  6-Port  ) 
!S41(C  6-Port  ) 
!S42(C  6-Port  ) 
!S43(C  6-Port  ) 
!S44(C  6-Port  ) 
!S45(C  6-Port  ) 
!S46(C  6-Port  ) 
!S51(C  6-Port  ) 
!S52(C  6-Port  ) 
!S53(C  6-Port  ) 
!S54(C  6-Port  ) 
!S55(C  6-Port  ) 
!S56(C  6-Port  ) 
!S61(C  6-Port  ) 
!S62(C  6-Port  ) 
!S63(C  6-Port  ) 
!S64(C  6-Port  ) 
!S65(C  6-Port  ) 
!S66(C  6-Port  ) 
!S6P File: Measurement: :
# Hz S  RI   R 50
500000000 -0.33732 -0.039436 -0.0095681 -0.0026019 -0.0073812 0.012522 -0.0039396 0.012442
0.012359 0.0045218 -0.0042987 0.0091138
-0.0096914 -0.0027025 -0.41901 -0.051422 0.0080198 -0.010977 0.0017064 0.012416
0.0076633 0.0025341 0.0013341 0.013606
-0.0076005 0.012594 0.0077675 -0.011111 -0.26579 0.20943 0.0078142 0.003689
-0.0015053 0.0077059 0.0020863 0.012225
-0.0040843 0.012305 0.0014625 0.012129 0.0078856 0.0037147 -0.33113 0.044569
-0.018227 -0.0064518 0.01477 0.026238
0.01245 0.0045657 0.0073829 0.0027103 -0.0018073 0.0076444 -0.017982 -0.0063412
-0.22511 -0.19385 -0.025051 0.0047028
-0.0044306 0.0093395 0.0012754 0.013442 0.0018004 0.011972 0.01527 0.0266
-0.025101 0.0046513 -0.2689 -0.1296
560000000 -0.31587 0.12431 -0.024005 -0.06464 0.00089297 0.012312 0.0053544 0.010912
0.010423 0.0044813 0.010949 0.0071317
-0.02414 -0.064424 -0.378 0.10764 -0.041159 -0.037545 0.014072 0.0037008
-0.012409 -0.00458 0.0031758 0.00044314
0.00085371 0.01238 -0.041388 -0.037257 -0.18303 0.25783 -0.0003468 -0.0047429
0.019281 0.0051603 0.0071108 -0.0065896
0.0053704 0.010963 0.013997 0.0037982 -0.00073795 -0.0048723 -0.30575 0.13255
0.0040484 -0.024465 0.0044855 -0.021388
0.01052 0.004477 -0.012452 -0.0045569 0.019095 0.0055617 0.0046682 -0.024615
-0.29169 -0.018476 0.0089154 -0.049058
0.011014 0.0073038 0.0035963 0.00039253 0.0069883 -0.0065663 0.0044616 -0.021256
0.009195 -0.049699 -0.32943 0.019075
620000000 -0.27416 0.10768 -0.023287 0.0079353 0.0029695 0.008643 0.008309 -0.0055333
0.011087 0.00013459 0.0016078 -0.0024163
-0.023278 0.0080328 -0.40259 0.059901 -0.018859 -0.0001152 -0.0010979 -0.0023451
0.011593 -0.0065863 0.0015597 -0.0030839
0.002945 0.0088106 -0.01892 -7.6683e-05 -0.15427 0.26645 -0.0012411 -0.0052147
-0.0030879 -0.0029114 0.0088209 -0.0040727
0.0082102 -0.0057252 -0.0013053 -0.0021651 -0.0013502 -0.0052931 -0.26569 0.14409
-0.037688 -0.019305 0.012974 0.025944
0.01127 8.5658e-05 0.011657 -0.0065213 -0.0029632 -0.003069 -0.037145 -0.019255
-0.20863 -0.05791 -0.041509 0.014569
0.0022406 -0.0024116 0.0013467 -0.003255 0.0088794 -0.0038784 0.012358 0.025512
-0.041812 0.015049 -0.25068 -0.015976
680000000 -0.23462 0.1931 -0.027306 -0.013992 0.0052105 0.0051712 0.0010489 -0.0074799
-0.0035455 -0.011346 0.0050863 -0.0064781
-0.02735 -0.014076 -0.38729 0.15777 -0.032993 -0.0013055 -0.0018298 -0.00058466
-0.0022279 -0.0087776 -0.0015906 -0.0019662
0.0050732 0.0052438 -0.033004 -0.0012945 -0.10236 0.28643 -0.00084874 -7.7152e-05
-0.0016337 0.00077014 -0.0030565 -0.00932
0.00089626 -0.0072889 -0.0018838 -0.00060303 -0.00079491 -8.2874e-05 -0.22024 0.1936
-0.024028 -0.0080023 -0.0099124 -0.010218
-0.0033941 -0.011085 -0.0022628 -0.0088253 -0.0016416 0.00073815 -0.024055 -0.0080427
-0.25861 0.040881 -0.0056571 -0.008391
0.0048946 -0.0065354 -0.0014472 -0.0017554 -0.0029224 -0.009321 -0.009926 -0.010701
-0.0058776 -0.0083664 -0.26036 0.087946
740000000 -0.19065 0.18765 -0.038675 0.026854 0.012758 -0.0050285 -0.00019297 -0.0046642
-0.0042804 -0.0024554 -0.0057494 0.0029864
-0.03862 0.026778 -0.33472 0.17647 -0.03544 0.03545 -0.00077947 -0.006191
-0.011347 0.0082031 -0.0023689 -0.0063033
0.012697 -0.0051047 -0.035354 0.035528 -0.068973 0.28486 -0.0019595 0.003244
-0.0025267 -0.0044193 -0.0017674 1.7361e-05
-0.00029627 -0.0044179 -0.00078414 -0.0061747 -0.0020377 0.0032984 -0.20385 0.20135
-0.043584 -0.006916 0.023106 0.015148
-0.0044276 -0.0025414 -0.011355 0.00816 -0.0026663 -0.0044341 -0.043498 -0.0063394
-0.1591 0.066716 -0.044146 0.00079092
-0.0059019 0.0029059 -0.0027478 -0.0062749 -0.0017819 -5.5823e-06 0.022887 0.014799
-0.044141 0.00020898 -0.24832 0.093689
800000000 -0.15717 0.22782 -0.022298 0.016961 0.0055107 -0.010704 -0.0046065 -0.0019866
-0.0042232 0.0025081 0.0046403 0.00082771
-0.02228 0.016903 -0.33803 0.2467 -0.0078012 0.034199 -0.0022723 0.0023551
-0.00055157 0.003172 0.00096262 0.0054725
0.0054265 -0.010778 -0.0076929 0.034264 -0.028233 0.30801 0.0011506 0.001529
0.00034798 0.0034509 -0.0015422 0.0011849
-0.0047401 -0.0018551 -0.0022479 0.0023008 0.0011135 0.0015427 -0.1754 0.22953
-0.028843 0.013993 0.013719 -0.010117
-0.0041381 0.0024493 -0.00054066 0.0031816 0.00039492 0.0034943 -0.028638 0.014003
-0.20712 0.090836 -0.01757 0.019239
0.0045028 0.00094649 0.001176 0.005421 -0.0015647 0.0011795 0.01395 -0.010111
-0.017519 0.019197 -0.243 0.14401
860000000 -0.12265 0.24804 -0.017232 0.030805 -0.0032573 -0.010005 -0.0024258 0.0010135
0.0040244 0.0049438 -0.0033009 -0.0027975
-0.017239 0.030811 -0.29053 0.28868 0.0080454 0.034529 -1.848e-05 0.0017404
0.0043845 8.3921e-05 0.0033008 0.00095282
-0.003265 -0.010028 0.0081544 0.034545 0.019818 0.31619 -0.000505 -0.0002852
0.0027814 -0.0014667 0.0015499 0.0043697
-0.0023804 0.00093645 2.6847e-05 0.0017636 -0.00053104 -0.00026619 -0.13961 0.24081
-0.018261 0.019046 -0.0053999 -0.0092734
0.0041343 0.0048896 0.0044516 0.00012677 0.0027982 -0.0014008 -0.018168 0.019097
-0.1562 0.14191 -0.025539 0.015616
-0.0032447 -0.0026747 0.0033064 0.00098501 0.0014486 0.0042829 -0.0058943 -0.0093721
-0.025693 0.015543 -0.19236 0.18923
920000000 -0.09782 0.27102 0.0052793 0.037836 -0.0096093 -0.0045807 -0.0018229 0.002025
0.00096171 0.0019978 0.0027398 -0.0016067
0.0052561 0.037891 -0.26151 0.30992 0.02857 0.021979 0.0015936 0.0011841
0.0069999 -0.0005537 0.0038359 -0.0028362
-0.0096086 -0.0045521 0.028659 0.021938 0.066241 0.31698 0.0018732 -6.4316e-05
0.0012724 -0.0003134 0.00087197 -0.0012424
-0.0017937 0.0019993 0.0015512 0.0011326 0.0018814 -6.9993e-05 -0.1154 0.25814
-0.010682 0.030949 0.0035308 -0.0065888
0.00093696 0.0019887 0.0070353 -0.00060989 0.0012754 -0.00029334 -0.010659 0.030983
-0.14604 0.14814 -0.002632 0.027507
0.002805 -0.0016936 0.0037315 -0.0029256 0.00081048 -0.0012043 0.0035791 -0.0067415
-0.00271 0.027342 -0.20035 0.20338
980000000 -0.050564 0.29023 0.01772 0.030056 -0.0092511 0.0045964 0.002178 0.0034828
0.0039492 -0.0014378 -0.003047 -0.0021697
0.017734 0.030081 -0.20887 0.34379 0.033464 0.0046592 0.0021298 -4.6342e-05
0.0013 -0.0057631 -4.7298e-05 -0.0024989
-0.0092223 0.004649 0.033489 0.0045478 0.11265 0.31039 0.00045348 -0.0011808
0.00022852 -0.002175 0.00158 -0.000299
0.0021456 0.0035196 0.0020902 -6.581e-05 0.00044249 -0.0011989 -0.077259 0.26952
0.0083611 0.029998 -0.0092635 -0.0075087
0.0039923 -0.0013104 0.0012388 -0.0057898 0.00023971 -0.0021829 0.0084577 0.03002
-0.11509 0.17736 0.0047642 0.019353
-0.003143 -0.0021693 -0.0001759 -0.0025687 0.0015446 -0.00031277 -0.009335 -0.007466
0.0048135 0.019301 -0.15823 0.2487
1040000000 -0.0085412 0.29851 0.033439 0.017955 -0.001311 0.0070029 0.0026543 0.00054887
1.9434e-05 -0.0037613 -0.00046696 -0.0014037
0.033436 0.017976 -0.17316 0.35697 0.029659 -0.015237 0.001487 -0.0017098
-0.002755 -0.0027361 -0.0015272 -0.0028065
-0.0012759 0.0070373 0.029611 -0.01534 0.15905 0.29682 -0.00058234 -0.0015626
-0.0017013 -0.00089903 -0.0004861 -0.0011774
0.0026323 0.00058243 0.0014559 -0.0017368 -0.0005766 -0.0015657 -0.04953 0.27997
0.019911 0.018034 -0.0025383 0.0015159
1.2726e-05 -0.0037304 -0.0028464 -0.0026098 -0.0017005 -0.00090139 0.019958 0.01803
-0.083233 0.18578 0.013497 0.018299
-0.00052493 -0.0014268 -0.00154 -0.0027936 -0.00046472 -0.0011654 -0.002519 0.0014962
0.013531 0.01831 -0.13606 0.26926
1100000000 0.036932 0.30624 0.036021 -0.004498 0.0029504 0.0039707 0.0023554 -0.0013498
-0.00199 -0.0032452 -0.004008 -2.3455e-05
0.035989 -0.0044836 -0.12989 0.3744 0.015011 -0.028319 -0.00012156 -0.0018431
-0.0033847 -0.0006526 -0.0034876 -0.0005691
0.0029615 0.0039546 0.014904 -0.028399 0.20578 0.27624 -0.0019181 0.00033241
-0.0018613 0.0006032 -0.0010846 -0.00043787
0.0023394 -0.0014017 -0.00014128 -0.0018813 -0.001914 0.00033337 -0.0090354 0.28506
0.025102 0.0045526 -0.0025839 0.00023594
-0.0020015 -0.0032544 -0.0034677 -0.00066123 -0.0018476 0.00059173 0.025119 0.0045186
-0.065493 0.19955 0.019318 0.0086804
-0.0039674 1.9029e-05 -0.0035139 -0.00052007 -0.0011233 -0.00039538 -0.0026625 0.00033671
0.019291 0.0086928 -0.090782 0.29888
1160000000 0.088242 0.30127 0.02399 -0.021203 0.002759 -0.00044248 -0.00035794 -0.0023847
-0.0043008 -0.00068419 -0.00092964 0.0041996
0.024006 -0.021162 -0.085832 0.37876 -0.0041778 -0.029413 -0.001771 -0.0016048
-0.0026455 0.0026862 -0.0013342 0.0020044
0.0027556 -0.00045093 -0.0043124 -0.029419 0.24911 0.24488 -0.00055713 0.0018148
-0.00054325 0.0019718 -0.0010204 0.00025896
-0.00038104 -0.0024022 -0.0017814 -0.0016129 -0.0005688 0.0018191 0.030667 0.28235
0.021055 -0.011127 -0.0030054 0.0051353
-0.0043093 -0.0006742 -0.0026711 0.0027271 -0.00050282 0.0019824 0.021086 -0.011155
-0.032283 0.20931 0.01836 0.0002737
-0.00093092 0.0041629 -0.0012982 0.0020184 -0.0010189 0.00024138 -0.0029822 0.0051557
0.018353 0.00032318 -0.043934 0.30207
1220000000 0.13281 0.28994 0.010087 -0.030462 -0.0016025 -0.00082507 -2.6738e-05 -0.00090748
-0.0027221 0.0025416 0.0013696 0.002185
0.010116 -0.030442 -0.041098 0.39064 -0.017405 -0.021112 -0.0025741 0.00051399
0.00013151 0.002971 -0.00068509 0.0019232
-0.0015804 -0.00081772 -0.017521 -0.021059 0.288 0.20511 0.00095745 0.0015917
0.00067828 0.0011606 0.00029806 0.00074682
-3.7149e-05 -0.0009296 -0.0025739 0.00049787 0.00096103 0.0015813 0.070792 0.27371
0.010039 -0.017807 0.0021093 0.0015777
-0.0027237 0.0025546 0.00015897 0.0029662 0.0006794 0.0011541 0.010035 -0.017795
-0.0092744 0.21909 0.014209 -0.013139
0.0014223 0.0021793 -0.00068313 0.0019323 0.00026816 0.00073573 0.0021611 0.0015224
0.014089 -0.013172 -0.012484 0.31867
1280000000 0.1826 0.26787 -0.0085076 -0.028712 -0.0017851 0.0025403 -0.00090949 -0.0019405
-0.00075685 0.0032008 0.002592 0.0011384
-0.008482 -0.028652 0.0052968 0.38135 -0.024119 -0.0081298 -0.00091796 0.0015236
0.001716 0.001778 0.00067743 0.0020799
-0.0017693 0.0025648 -0.024186 -0.0080215 0.31798 0.16085 0.0016188 -0.00011709
0.0010271 0.00030359 0.00037271 0.00034313
-0.00093454 -0.0019432 -0.00090884 0.0015352 0.0016201 -0.00010824 0.10779 0.25713
0.00016735 -0.019526 -1.9978e-05 9.2252e-05
-0.00071541 0.0032095 0.0017212 0.0017519 0.0010446 0.00030628 0.00012802 -0.019491
0.027649 0.22351 0.0030582 -0.015298
0.0025695 0.00111 0.00068673 0.0021275 0.00038162 0.00036383 2.3723e-05 0.00011123
0.0030356 -0.01526 0.035754 0.32081
1340000000 0.21974 0.23357 -0.018244 -0.018749 0.00097861 0.0044909 -0.0017338 -0.00076816
0.0015299 0.0027238 0.001782 -0.0014942
-0.018211 -0.018741 0.044865 0.37238 -0.021641 0.0047418 -4.5168e-05 0.0019539
0.0019191 0.0006772 0.0013835 0.00078802
0.00097939 0.0044738 -0.021651 0.0048661 0.33944 0.11284 0.0010611 -0.00098945
0.00076718 -0.00047702 0.00019117 0.00033933
-0.0017394 -0.00078622 -3.878e-05 0.0019769 0.0010357 -0.00096658 0.14018 0.23648
-0.009347 -0.016148 0.0009031 0.00048784
0.0015765 0.0027204 0.0019199 0.00066432 0.00079521 -0.00048805 -0.0094144 -0.016181
0.058226 0.21944 -0.003989 -0.013736
0.0018271 -0.0015129 0.0013621 0.00081998 0.000145 0.00031521 0.00086907 0.00047779
-0.0039575 -0.013708 0.074198 0.3163
1400000000 0.25245 0.19491 -0.023824 -0.006948 0.0051434 0.0030777 -0.0020062 0.00065338
0.0025237 0.00085025 0.00030437 -0.0014052
-0.023784 -0.0069406 0.08194 0.35873 -0.014638 0.012813 0.0013562 0.0012286
0.0010855 -0.00087266 0.0012767 0.00014242
0.0051841 0.0030514 -0.014617 0.012904 0.35198 0.059839 5.7537e-05 -0.0016073
3.8325e-05 -0.00042724 0.00054833 0.00028632
-0.0020183 0.00067647 0.0013612 0.0012251 5.864e-05 -0.0016063 0.16954 0.20768
-0.015026 -0.0089877 -0.00071759 -0.00033065
0.0025457 0.00085783 0.0010798 -0.0009049 2.0845e-05 -0.0004179 -0.015069 -0.0089449
0.091565 0.21512 -0.01045 -0.0087671
0.00028349 -0.0014208 0.0013079 0.00011859 0.00051577 0.00031254 -0.00074845 -0.00036118
-0.010428 -0.0087658 0.11934 0.30514
1460000000 0.27473 0.15032 -0.020443 0.0053572 0.0055162 -0.0019433 -0.0015326 0.0017355
0.0022421 -0.00063633 -0.00041889 -0.00095222
-0.020428 0.005337 0.11557 0.33635 -0.0058034 0.015386 0.0016793 0.00016238
0.00079188 -0.0012256 0.0011091 -0.00065744
0.0055058 -0.0019627 -0.0057245 0.015441 0.35789 0.005828 -0.0012497 -0.0011999
0.00020627 -0.00030054 0.0006225 -0.00034374
-0.0015166 0.001739 0.0016765 0.0001581 -0.0012642 -0.0011871 0.19566 0.17855
-0.015787 -0.0018654 -0.00079385 0.0019941
0.0022246 -0.00066421 0.00077991 -0.0012372 0.00019371 -0.00031234 -0.015788 -0.0018283
0.12116 0.20056 -0.012238 -0.0026486
-0.00045246 -0.00095051 0.0011044 -0.00069637 0.00060525 -0.0003388 -0.00081596 0.0020023
-0.012258 -0.0026664 0.15254 0.28434
1520000000 0.28619 0.10838 -0.014476 0.010875 0.0032584 -0.0041837 0.00013826 0.0025996
0.0020087 -0.0018581 -0.0011475 -5.1615e-05
-0.014457 0.010865 0.1485 0.32141 0.0018153 0.013013 0.0016066 -0.00076836
-2.7161e-05 -0.00096187 0.00030056 -0.00106
0.003244 -0.0041929 0.0018925 0.013011 0.35117 -0.049922 -0.0010712 -0.00028242
0.00064389 -0.00088255 4.1455e-05 -0.00013677
0.00016241 0.0025846 0.0015959 -0.00078273 -0.0010839 -0.00028231 0.21881 0.14079
-0.014367 0.0038573 0.0014886 0.0020193
0.0020151 -0.0018597 -1.6096e-05 -0.00095138 0.00064028 -0.00087044 -0.014382 0.0038804
0.14941 0.18637 -0.011942 0.002111
-0.0011808 5.4369e-06 0.00027049 -0.0010769 -1.3e-05 -0.00013953 0.0015245 0.0020221
-0.011911 0.0021261 0.18575 0.26394
1580000000 0.29463 0.06238 -0.0075356 0.013725 -0.00090814 -0.0048814 0.0014047 0.0018318
-0.00047715 -0.0021732 -0.00028375 0.00046337
-0.0075489 0.013708 0.17516 0.29663 0.0053152 0.0080537 0.00043412 -0.0015894
-0.00052705 -0.00095217 -0.00032711 -0.00077657
-0.00089929 -0.004861 0.0053672 0.0080396 0.33105 -0.10742 -0.0015469 0.00060541
-0.00037588 -0.0011255 9.6186e-05 -0.00051853
0.0014116 0.0018231 0.00042157 -0.0015904 -0.0015358 0.00060865 0.23265 0.10186
-0.010224 0.0083067 0.002319 0.00077748
-0.0005155 -0.0021726 -0.00053645 -0.0009392 -0.00037181 -0.0011338 -0.010229 0.0083101
0.17384 0.16834 -0.0091418 0.0078892
-0.00030078 0.00048829 -0.00036425 -0.00078911 0.00010397 -0.00053727 0.0023205 0.000742
-0.0091505 0.0079047 0.21809 0.23723
1640000000 0.29623 0.021648 -0.00072648 0.012357 -0.0027583 -0.0026099 0.0027134 0.00099603
-0.00080669 -0.0014139 -0.0001564 0.00051851
-0.00074931 0.012352 0.20414 0.27195 0.0059384 0.0032912 -0.00071588 -0.0016774
-0.00093204 -0.00038966 -0.00051466 -0.00066867
-0.0027732 -0.002575 0.005963 0.0032455 0.30301 -0.15614 -0.0006674 0.0014215
-0.0011842 -0.0010138 -6.5261e-05 -0.00049985
0.0027151 0.00093721 -0.00073232 -0.0016873 -0.00069439 0.0013971 0.24503 0.053361
-0.0056857 0.0087827 0.0024629 -0.00084959
-0.00080965 -0.0014265 -0.00095123 -0.00035809 -0.001224 -0.00099279 -0.0056727 0.0087936
0.19658 0.14357 -0.0042548 0.0097641
-0.00015137 0.00053037 -0.00054274 -0.00063592 -0.00011557 -0.00050108 0.002477 -0.00084654
-0.0042542 0.0097599 0.24356 0.20618
1700000000 0.28868 -0.023115 0.0025634 0.0091644 -0.0035609 0.00013415 0.0029894 -0.0012292
-0.0020772 -0.00054399 0.00068919 0.00031859
0.00255 0.0091568 0.22195 0.24083 0.0038429 0.00047102 -0.0014838 -0.00050876
-0.00073374 4.0787e-05 -0.00089734 -0.0003521
-0.0035267 0.0001599 0.0038579 0.00044927 0.26003 -0.19617 0.00039267 0.0016669
-0.0020025 -3.1625e-05 -0.00052822 -0.0008487
0.0029749 -0.001215 -0.0014974 -0.0004916 0.00038455 0.0016611 0.24211 0.0042003
-0.003245 0.0086114 0.0014857 -0.0022391
-0.0020785 -0.00052631 -0.0007305 5.4525e-05 -0.0019946 -3.9746e-05 -0.003214 0.0086087
0.21365 0.12328 0.00064323 0.0097705
0.00070005 0.00035376 -0.00090706 -0.00034288 -0.00056532 -0.0008752 0.0014698 -0.0022674
0.00065982 0.0097785 0.26006 0.1718
1760000000 0.27649 -0.071113 0.0045863 0.0056791 -0.0022841 0.0010282 0.0012946 -0.0034073
-0.0012172 0.00081875 0.00029183 -0.00067484
0.0045673 0.0056806 0.24776 0.20141 0.0014666 -0.0012157 -0.0011704 0.00023218
-0.00096334 0.00083185 -0.00054185 0.00042945
-0.0022727 0.0010342 0.001463 -0.0012089 0.21107 -0.22951 0.0011707 0.0011231
-0.0010606 0.0015681 -0.0013493 -0.00035464
0.0012923 -0.0033897 -0.0011631 0.00024708 0.0011692 0.0011167 0.23344 -0.046833
-0.00058535 0.0073922 -0.00020671 -0.0025133
-0.0012262 0.00083628 -0.00096979 0.00083232 -0.0010697 0.0015717 -0.00055167 0.0074057
0.22807 0.088043 0.0045966 0.0069359
0.00033898 -0.00066764 -0.00052647 0.00041881 -0.0013695 -0.00041286 -0.00022151 -0.0025159
0.0046151 0.0069604 0.27291 0.13407
1820000000 0.25217 -0.10791 0.0044429 0.0022157 2.9266e-05 0.002442 -0.0010179 -0.0029924
-0.00090737 0.00092954 -6.6862e-05 -8.78e-05
0.0044301 0.0022223 0.2578 0.17177 -0.00036625 -8.7921e-05 -0.0012438 0.00094229
-6.3957e-05 0.0012673 -0.00042173 0.00053668
7.4351e-05 0.0024642 -0.00036383 -8.9644e-05 0.16121 -0.24572 0.0015452 0.00039738
-8.8515e-05 0.0022426 -0.0012785 0.00050055
-0.0010447 -0.0029745 -0.0012729 0.00093799 0.0015223 0.00038285 0.20422 -0.093814
0.00028966 0.0057712 -0.0017039 -0.0016134
-0.00089826 0.00094206 -6.5737e-05 0.0012545 -0.00010366 0.0022542 0.00029948 0.0057782
0.24485 0.059036 0.0053606 0.0031071
-0.00011516 -7.712e-05 -0.000436 0.00052147 -0.0012838 0.00051362 -0.0017849 -0.001588
0.005352 0.0031408 0.27539 0.097931
1880000000 0.21752 -0.14805 0.0020963 0.00011683 -0.00037006 0.0020807 -0.0029667 -0.0021351
-7.384e-05 0.0015587 0.00026987 -0.0004922
0.0020791 0.00013066 0.26246 0.12544 -0.0023757 0.0016849 -9.5718e-05 0.0016637
0.00052849 0.0012304 0.00015051 0.00079979
-0.00038698 0.0020579 -0.0023486 0.0017025 0.10899 -0.25523 0.0018361 -0.00099029
0.0015751 0.0018328 -0.00092869 0.0012359
-0.0029752 -0.0021131 -9.7597e-05 0.001643 0.0018394 -0.00099551 0.16433 -0.13424
0.00054681 0.0041263 -0.0025706 0.00032741
-3.4451e-05 0.0015464 0.00053111 0.0012255 0.0015581 0.0018435 0.00060338 0.0041635
0.24737 0.026675 0.0051572 0.00067849
0.00025686 -0.0004973 0.00015274 0.00083185 -0.00087765 0.0012392 -0.0025463 0.00037086
0.0051772 0.00070955 0.27502 0.06336
1940000000 0.17844 -0.1741 -7.3664e-05 -0.0013803 0.0013038 0.0020046 -0.0038133 0.00050709
0.0011971 0.00084531 -0.00062697 -0.00050654
-9.6558e-05 -0.0013602 0.26323 0.093762 -0.0011665 0.0038316 0.00098916 0.0012818
0.0017901 0.00052566 0.00077772 0.00022243
0.0013064 0.0019784 -0.0011374 0.003849 0.062877 -0.24884 0.00038416 -0.0021858
0.0023701 0.00040772 0.0001984 0.0015809
-0.0038397 0.00057002 0.00098621 0.0012829 0.00038881 -0.0021873 0.11247 -0.16498
-0.000678 0.0033635 -0.0015792 0.0017013
0.0012167 0.00081247 0.0017871 0.00049688 0.0023629 0.00041378 -0.00065616 0.0033755
0.2488 -0.011938 0.003677 -0.0026796
-0.00066703 -0.00044027 0.00075082 0.00017883 0.00023504 0.0015959 -0.0015333 0.001623
0.0036776 -0.0026312 0.2638 0.027277
2000000000 0.13209 -0.18907 -0.0038256 0.00061555 0.0025193 0.0016436 -0.0023036 0.0035026
0.00095095 6.1288e-05 -0.0006509 0.00036915
-0.0037985 0.00063055 0.24933 0.058238 -0.001094 0.0056137 0.00159 0.00029837
0.001392 -0.0014142 0.00041504 0.00018222
0.0025499 0.001629 -0.0010324 0.0056198 0.018742 -0.23444 -0.0014793 -0.0013657
0.0019077 -0.0012272 0.0015731 0.0013492
-0.0022968 0.0035456 0.001575 0.00031201 -0.0014466 -0.0013717 0.059045 -0.17561
-0.0022138 0.0035068 -0.00014332 0.0023952
0.00095406 6.6635e-05 0.0013987 -0.0013916 0.0018848 -0.0012095 -0.0022059 0.0035032
0.24257 -0.045512 -2.2546e-05 -0.0032337
