!Keysight Technologies,M9804A,MY58100912,A.14.10.03
!Date: Thursday, April 27, 2023 10:28:33
!Correction: S11(C  6-Port  ) 
!S12(C  6-Port  ) 
!S13(C  6-Port  ) 
!S14(C  6-Port  ) 
!S15(C  6-Port  ) 
!S16(C  6-Port  ) 
!S21(C  6-Port  ) 
!S22(C  6-Port  ) 
!S23(C  6-Port  ) 
!S24(C  6-Port  ) 
!S25(C  6-Port  ) 
!S26(C  6-Port  ) 
!S31(C  6-Port  ) 
!S32(C  6-Port  ) 
!S33(C  6-Port  ) 
!S34(C  6-Port  ) 
!S35(C  6-Port  ) 
!S36(C  6-Port  ) 
!S41(C  6-Port  ) 
!S42(C  6-Port  ) 
!S43(C  6-Port  ) 
!S44(C  6-Port  ) 
!S45(C  6-Port  ) 
!S46(C  6-Port  ) 
!S51(C  6-Port  ) 
!S52(C  6-Port  ) 
!S53(C  6-Port  ) 
!S54(C  6-Port  ) 
!S55(C  6-Port  ) 
!S56(C  6-Port  ) 
!S61(C  6-Port  ) 
!S62(C  6-Port  ) 
!S63(C  6-Port  ) 
!S64(C  6-Port  ) 
!S65(C  6-Port  ) 
!S66(C  6-Port  ) 
!S6P File: Measurement: :
# Hz S  RI   R 50
500000000 -0.338 -0.037507 -0.0098032 -0.0014428 -0.0074617 0.012945 -0.0032022 0.011361
0.012632 0.0046103 -0.0031474 0.0084116
-0.0098189 -0.0014811 -0.41855 -0.051045 0.0081489 -0.010905 0.0017963 0.01147
0.0077024 0.002524 0.0021487 0.012713
-0.0074689 0.012943 0.0081316 -0.010919 -0.26547 0.20952 0.0078691 0.0029152
-0.0014507 0.0081368 0.0020809 0.011314
-0.0031782 0.011434 0.0018372 0.011493 0.0079 0.0029138 -0.33052 0.04443
-0.018333 -0.0065244 0.015799 0.025868
0.012625 0.0046272 0.0077308 0.0025163 -0.0014447 0.0081479 -0.018356 -0.0065354
-0.22631 -0.19542 -0.025967 0.0045284
-0.0031711 0.0084353 0.0021057 0.01272 0.0020712 0.011342 0.015767 0.025916
-0.026006 0.0044602 -0.26811 -0.12979
560000000 -0.31472 0.12442 -0.024118 -0.063635 0.00086227 0.012243 0.006079 0.0097307
0.0095434 0.003988 0.010001 0.0069162
-0.023937 -0.063621 -0.37745 0.10796 -0.041027 -0.037773 0.01397 0.0036673
-0.01359 -0.0048479 0.0036511 0.0007127
0.00090767 0.01231 -0.041176 -0.037716 -0.18323 0.25796 -0.00070309 -0.0045346
0.019145 0.0044244 0.0070565 -0.0062053
0.0062564 0.0097001 0.013977 0.0036642 -0.0007066 -0.0045319 -0.30621 0.1338
0.004611 -0.022639 0.0046245 -0.021703
0.0095789 0.0038472 -0.013616 -0.0048194 0.019158 0.0044167 0.0046141 -0.022659
-0.28948 -0.020448 0.0097663 -0.049499
0.010186 0.0067593 0.0035834 0.0006097 0.0070751 -0.0062316 0.0046062 -0.021789
0.0098359 -0.049528 -0.33053 0.01875
620000000 -0.27454 0.10663 -0.023006 0.0080556 0.0038899 0.0086583 0.0088917 -0.0049659
0.010907 -0.00052057 0.0022838 -0.0026706
-0.022961 0.0080498 -0.40258 0.060189 -0.01848 5.7546e-05 -0.0013504 -0.0023153
0.011108 -0.006445 0.0017654 -0.0032849
0.0039509 0.0087179 -0.018506 9.8229e-05 -0.15345 0.26658 -0.0011619 -0.0056296
-0.0030299 -0.0025612 0.0091685 -0.0041538
0.0089588 -0.0048267 -0.001346 -0.002305 -0.0011425 -0.0056161 -0.26514 0.14352
-0.038193 -0.018938 0.011651 0.025314
0.01096 -0.0005542 0.011106 -0.006474 -0.0030377 -0.0025752 -0.038227 -0.01888
-0.20917 -0.05648 -0.041503 0.014967
0.0023522 -0.002539 0.0017377 -0.0032744 0.0091681 -0.0041478 0.01157 0.025292
-0.041536 0.014978 -0.25043 -0.018373
680000000 -0.23399 0.19321 -0.027274 -0.013858 0.0048898 0.0055572 0.00064464 -0.0073401
-0.0033591 -0.011199 0.0037607 -0.0055087
-0.027262 -0.013883 -0.38765 0.15823 -0.032678 -0.00098094 -0.0019487 -0.0002244
-0.0023122 -0.0089242 -0.001785 -0.0015866
0.0048841 0.0054854 -0.032705 -0.00089369 -0.10204 0.28679 -0.0010681 0.00017194
-0.0017569 0.00064473 -0.0029144 -0.0088748
0.00063774 -0.007445 -0.0019621 -0.00023991 -0.0010815 0.00015717 -0.22074 0.19404
-0.023506 -0.0075551 -0.0098083 -0.010883
-0.0034272 -0.011163 -0.0023451 -0.0089323 -0.0017641 0.00065551 -0.023542 -0.0075367
-0.25884 0.041143 -0.0049808 -0.0085759
0.00368 -0.0055722 -0.0017555 -0.0015765 -0.0028897 -0.0088695 -0.0097373 -0.01087
-0.0049815 -0.0085905 -0.26109 0.088231
740000000 -0.19064 0.18682 -0.038427 0.027071 0.012654 -0.0049871 -0.00037266 -0.0046171
-0.0049309 -0.0024286 -0.0056623 0.0020028
-0.038444 0.026997 -0.33473 0.17704 -0.035569 0.035213 -0.00062373 -0.0061486
-0.011542 0.0078718 -0.0020833 -0.0064408
0.012647 -0.0050364 -0.035489 0.035359 -0.068463 0.28479 -0.0021469 0.0031792
-0.0022008 -0.0041006 -0.0020261 -5.2607e-05
-0.00030081 -0.0045611 -0.0006375 -0.0061483 -0.0021335 0.0031814 -0.20374 0.20178
-0.043764 -0.0067178 0.022897 0.01427
-0.0049809 -0.0024303 -0.011514 0.0079074 -0.0022216 -0.0041126 -0.043777 -0.0066542
-0.15885 0.068129 -0.044231 0.001224
-0.0056789 0.0020364 -0.0020776 -0.0064049 -0.0020793 -2.9978e-05 0.022842 0.014237
-0.044156 0.0012008 -0.24815 0.092612
800000000 -0.15737 0.22814 -0.022626 0.016748 0.0053045 -0.01035 -0.0052123 -0.00174
-0.0040316 0.0023701 0.0039832 0.0010781
-0.022598 0.016703 -0.33795 0.24667 -0.0078005 0.033898 -0.002422 0.0023406
-0.00060334 0.0032047 0.00095738 0.0054098
0.0052721 -0.010358 -0.0077005 0.033964 -0.027711 0.30788 0.0010007 0.001624
0.00037279 0.0035575 -0.0017933 0.0010741
-0.0052916 -0.0017988 -0.002429 0.0023476 0.00098612 0.0016322 -0.17542 0.22946
-0.028521 0.01393 0.013092 -0.010168
-0.004073 0.002384 -0.00059722 0.0032145 0.00037773 0.0035615 -0.028506 0.013991
-0.20653 0.091413 -0.017567 0.019303
0.0039666 0.0010334 0.001009 0.0054084 -0.0017682 0.0010188 0.013186 -0.010201
-0.017547 0.019273 -0.24316 0.14431
860000000 -0.12295 0.24795 -0.017384 0.030635 -0.0034634 -0.0098999 -0.0026939 0.00065451
0.0042686 0.004942 -0.0037982 -0.0029383
-0.017382 0.030597 -0.29025 0.28853 0.0078228 0.033972 -2.652e-05 0.0019046
0.0043118 0.00011555 0.0031732 0.00090282
-0.0034898 -0.0099122 0.0079325 0.033981 0.020124 0.31565 -0.00056911 -0.00036226
0.0029137 -0.0015953 0.0012586 0.0044371
-0.0026237 0.00068036 -1.2569e-05 0.001897 -0.00055639 -0.00036851 -0.13886 0.24059
-0.018211 0.018509 -0.0060261 -0.009472
0.0042991 0.0049451 0.0043199 0.00010182 0.0029196 -0.0015987 -0.01819 0.018549
-0.15557 0.14227 -0.025087 0.015813
-0.0037531 -0.0029155 0.0032421 0.00090831 0.0012924 0.0044596 -0.0061495 -0.0094522
-0.025073 0.015765 -0.19271 0.1899
920000000 -0.097818 0.27083 0.0051559 0.037787 -0.0094238 -0.0044419 -0.0017209 0.0021799
0.0010199 0.0020565 0.002815 -0.0016339
0.0051295 0.03774 -0.26149 0.30959 0.028012 0.021784 0.0013217 0.0010397
0.0069133 -0.00028101 0.0038274 -0.0026532
-0.0094169 -0.0044305 0.028107 0.021726 0.066357 0.3163 0.0018321 -0.00014742
0.0011361 -0.00017842 0.00089221 -0.0012361
-0.0017977 0.0022095 0.0013232 0.0010298 0.0018336 -0.00014145 -0.11507 0.25804
-0.010639 0.030613 0.0036498 -0.0063469
0.00098692 0.0020679 0.0069211 -0.00028573 0.0011391 -0.0001892 -0.010577 0.030637
-0.14511 0.1489 -0.0028258 0.027443
0.002791 -0.0016576 0.0038218 -0.0026471 0.00088647 -0.0012409 0.0037179 -0.0063781
-0.0028662 0.027437 -0.19964 0.20354
980000000 -0.050736 0.29026 0.017504 0.030037 -0.0089407 0.0046811 0.002164 0.0036605
0.0037948 -0.0014156 -0.003173 -0.0022532
0.017496 0.030021 -0.20863 0.3436 0.032816 0.0048118 0.0020037 5.0058e-05
0.0013104 -0.0056739 -0.00031043 -0.0024152
-0.0089221 0.0047219 0.032847 0.0047073 0.11254 0.30964 0.00041199 -0.0011948
0.00015537 -0.0021344 0.0014495 -0.00015309
0.0021943 0.0036259 0.0020036 5.8917e-05 0.00041218 -0.0011976 -0.076839 0.26867
0.0078166 0.029607 -0.0094422 -0.0074794
0.0038058 -0.0014547 0.0012649 -0.0056927 0.00014536 -0.0021277 0.00787 0.029612
-0.11491 0.17803 0.0050935 0.019242
-0.003158 -0.0022411 -0.00035205 -0.0024062 0.0014407 -0.00016364 -0.0094823 -0.0074185
0.0050502 0.019249 -0.15767 0.2487
1040000000 -0.0091133 0.29864 0.033137 0.018087 -0.0011765 0.0069025 0.002707 0.00081599
0.00022058 -0.0036122 -7.1346e-05 -0.001473
0.033107 0.018068 -0.17293 0.35638 0.029273 -0.014787 0.0014789 -0.001706
-0.0026545 -0.0024913 -0.001248 -0.0026384
-0.0011464 0.0068972 0.029235 -0.01489 0.15857 0.29595 -0.00052243 -0.0014936
-0.0017041 -0.00077101 -0.00052596 -0.0010316
0.0026722 0.00084204 0.0015049 -0.0016987 -0.00052471 -0.001493 -0.049549 0.27913
0.019024 0.017844 -0.0022515 0.0014275
0.00020659 -0.0035901 -0.0026773 -0.0024513 -0.001704 -0.00075864 0.019106 0.01782
-0.082861 0.18563 0.013382 0.018648
-7.6778e-05 -0.001454 -0.0012513 -0.0026127 -0.00052488 -0.0010399 -0.0022472 0.0014357
0.013401 0.018622 -0.13616 0.26875
1100000000 0.036769 0.30603 0.035632 -0.0043346 0.002897 0.0038104 0.0024032 -0.0013456
-0.0020367 -0.0031275 -0.0039034 0.00010962
0.035619 -0.0043236 -0.12968 0.37359 0.015029 -0.027645 -1.7955e-05 -0.0018595
-0.0033576 -0.00064945 -0.0035257 -0.00038352
0.0029166 0.0038015 0.014933 -0.027743 0.20489 0.27565 -0.0019006 0.00023118
-0.0017147 0.00051347 -0.0011736 -0.0002397
0.0024197 -0.0013786 -2.6209e-05 -0.0018486 -0.0018995 0.00023514 -0.0093049 0.28419
0.024279 0.0049326 -0.0025377 0.00010357
-0.0020589 -0.0031469 -0.0033744 -0.00062295 -0.0017194 0.00051189 0.024295 0.0048883
-0.065074 0.19943 0.019178 0.0086691
-0.0038923 0.00012036 -0.0035403 -0.00036047 -0.0011717 -0.00023802 -0.0025254 0.00012525
0.019138 0.0086714 -0.090235 0.29854
1160000000 0.087816 0.30129 0.023774 -0.020663 0.0026287 -0.00054559 -0.00011452 -0.002342
-0.0041669 -0.00065496 -0.00084842 0.003975
0.023785 -0.020628 -0.086021 0.37769 -0.0037731 -0.028904 -0.0017017 -0.0016496
-0.002611 0.0025858 -0.0013385 0.0017504
0.0026396 -0.00056221 -0.0039082 -0.028907 0.24773 0.24483 -0.00066085 0.0017246
-0.00050139 0.0019807 -0.0008352 0.0002313
-0.000153 -0.0023176 -0.0016993 -0.001625 -0.00065835 0.0017264 0.0299 0.28162
0.020419 -0.010319 -0.0028032 0.0051377
-0.0041852 -0.0006243 -0.0026154 0.0026207 -0.00050961 0.001988 0.020436 -0.010331
-0.031528 0.20904 0.01807 0.00060178
-0.00081692 0.0039772 -0.0013458 0.0017648 -0.00083546 0.00023421 -0.0027886 0.0051061
0.018135 0.00055588 -0.043699 0.30138
1220000000 0.13225 0.28983 0.010094 -0.029865 -0.001584 -0.000821 -0.00012332 -0.00095485
-0.0027396 0.0025294 0.0012375 0.0020784
0.010097 -0.029853 -0.041866 0.38956 -0.016785 -0.020985 -0.0025186 0.00048236
7.4031e-05 0.002958 -0.00075666 0.0018557
-0.0015812 -0.00080459 -0.016905 -0.020941 0.28688 0.20579 0.00083974 0.0015915
0.00067277 0.0011719 0.00034467 0.00067789
-0.00010525 -0.00099781 -0.0025234 0.00050139 0.00085004 0.0015922 0.069606 0.2734
0.010032 -0.016751 0.0021602 0.0016397
-0.0027222 0.0025388 7.9198e-05 0.0029582 0.00066883 0.0011733 0.010006 -0.016767
-0.0088209 0.21823 0.014165 -0.0126
0.0012538 0.0020738 -0.0007387 0.0018639 0.00035506 0.00067421 0.0022131 0.0016549
0.014152 -0.012571 -0.011836 0.31849
1280000000 0.18207 0.26772 -0.0079376 -0.028238 -0.0018552 0.0025696 -0.00086589 -0.0019607
-0.00072317 0.0029692 0.0026124 0.0010741
-0.007897 -0.028202 0.0039471 0.38039 -0.023551 -0.0084798 -0.00093801 0.0013898
0.0017179 0.0017027 0.0005607 0.0019767
-0.0018434 0.0025618 -0.023619 -0.0083754 0.31744 0.16189 0.0015613 -0.00010605
0.001121 0.00024106 0.00043257 0.0002784
-0.00090098 -0.0019247 -0.00093616 0.0013962 0.0015657 -0.00011035 0.10669 0.25734
0.00083506 -0.018517 6.4316e-05 2.4039e-05
-0.00070671 0.0029946 0.0017306 0.0016869 0.0011238 0.00023728 0.00081434 -0.018519
0.027605 0.22233 0.0030937 -0.014658
0.0026169 0.0010539 0.00055746 0.0019907 0.00044229 0.00028588 3.1806e-05 1.1539e-05
0.0031191 -0.014668 0.035594 0.32037
1340000000 0.21885 0.23373 -0.017567 -0.018602 0.00089325 0.0044677 -0.0018149 -0.00075339
0.0014376 0.002636 0.0017171 -0.0013057
-0.017542 -0.018589 0.043138 0.37232 -0.021445 0.0041355 -4.3275e-05 0.0019593
0.0018519 0.00074477 0.0013095 0.00079064
0.00091358 0.0044666 -0.021451 0.0042532 0.33945 0.11413 0.001032 -0.00090956
0.00073739 -0.00042023 0.00019499 0.00032173
-0.0018178 -0.00078094 -5.4034e-05 0.0019667 0.001031 -0.00090185 0.13922 0.2373
-0.0082807 -0.015783 0.0008605 0.00047509
0.0014544 0.0026127 0.0018673 0.00073533 0.00074259 -0.00042342 -0.0083294 -0.015778
0.057597 0.21832 -0.0034572 -0.013342
0.0017133 -0.0013223 0.00131 0.00077334 0.00018965 0.00031817 0.00089946 0.00048746
-0.0034557 -0.013331 0.073986 0.31601
1400000000 0.25177 0.19541 -0.023154 -0.0073023 0.0051592 0.0030672 -0.0020157 0.00068287
0.0023736 0.00090285 0.00030688 -0.0013494
-0.023129 -0.0073109 0.080338 0.35929 -0.014783 0.012231 0.0012513 0.0012849
0.0010918 -0.00081995 0.0011766 0.0002151
0.005171 0.0030366 -0.014744 0.012321 0.35263 0.060633 6.8481e-05 -0.0015598
-2.9215e-05 -0.00039517 0.00040261 0.00026108
-0.0020128 0.00071418 0.0012708 0.0012778 6.1558e-05 -0.0015672 0.16909 0.20872
-0.013806 -0.0092861 -0.00076832 -0.00053029
0.0023842 0.0008769 0.0011007 -0.00082375 -3.6397e-05 -0.00039492 -0.013828 -0.0092596
0.090715 0.21445 -0.0098203 -0.0086962
0.00029119 -0.0013628 0.0011751 0.00021187 0.00040834 0.00027215 -0.00077748 -0.00054892
-0.0098046 -0.0087135 0.11924 0.30504
1460000000 0.27409 0.15132 -0.02014 0.0047407 0.0054216 -0.001884 -0.0015672 0.0017802
0.002086 -0.00055238 -0.00042425 -0.00096183
-0.020137 0.0047107 0.11443 0.33758 -0.0063107 0.015166 0.0017532 0.00016757
0.00086975 -0.0012263 0.0011148 -0.00059473
0.0054196 -0.0018953 -0.0062402 0.015209 0.3587 0.0061684 -0.0011637 -0.0011719
0.00022988 -0.0001673 0.00055552 -0.0003273
-0.0015499 0.0017659 0.0017575 0.00017104 -0.0011679 -0.0011731 0.1957 0.17971
-0.014937 -0.0028052 -0.00095938 0.0018784
0.0020832 -0.00057095 0.0008654 -0.0012377 0.00022948 -0.00016372 -0.014956 -0.0027814
0.12 0.20043 -0.011648 -0.0029078
-0.00042976 -0.00096655 0.0011045 -0.00060187 0.00055587 -0.00035185 -0.0009695 0.0018778
-0.011652 -0.002911 0.15229 0.28451
1520000000 0.28609 0.10955 -0.014526 0.010198 0.0032073 -0.0041214 0.00019439 0.002592
0.0020616 -0.0016655 -0.0010954 -0.00015639
-0.01453 0.010176 0.14806 0.32298 0.0014184 0.013048 0.0015933 -0.00075961
-5.3196e-06 -0.00096649 0.00038663 -0.00097889
0.0032021 -0.0041413 0.0014854 0.013055 0.35185 -0.050067 -0.0010325 -0.00030573
0.00066297 -0.0008024 -5.5254e-06 -7.1528e-05
0.00019353 0.0026065 0.0015891 -0.00077362 -0.0010388 -0.00031296 0.2195 0.14194
-0.014249 0.0025423 0.0013939 0.0020264
0.0020451 -0.0016812 -1.187e-05 -0.00096895 0.00065877 -0.0008065 -0.01426 0.0025865
0.14831 0.18675 -0.011576 0.0016076
-0.0010914 -0.00015452 0.00038256 -0.00098311 -9.4195e-07 -6.4438e-05 0.0014011 0.0020031
-0.011564 0.0015977 0.18572 0.26398
1580000000 0.29509 0.063353 -0.0079604 0.013142 -0.00085013 -0.0048232 0.0014399 0.0019149
-0.00030632 -0.0020185 -0.00041461 0.00034383
-0.0079649 0.013123 0.17542 0.2981 0.0050881 0.0083263 0.00047381 -0.0015713
-0.00048503 -0.0010029 -0.00026722 -0.00080979
-0.00087724 -0.0048154 0.0051355 0.0083092 0.33148 -0.10772 -0.0015719 0.00056167
-0.00033113 -0.0011588 0.0001574 -0.00045542
0.0014533 0.001902 0.00046046 -0.0015701 -0.0015684 0.00057049 0.23377 0.10243
-0.010998 0.0072732 0.0023579 0.00084858
-0.00032061 -0.0020252 -0.00049297 -0.0010081 -0.00033008 -0.0011581 -0.010997 0.0073088
0.17299 0.16897 -0.009134 0.007325
-0.00042071 0.00035314 -0.00027326 -0.0008208 0.0001515 -0.00047338 0.0023339 0.00083626
-0.0091328 0.0073232 0.21828 0.23718
1640000000 0.29687 0.022183 -0.0013982 0.012138 -0.0026684 -0.0025751 0.0027154 0.00095853
-0.00058221 -0.0014347 -0.00025879 0.00052522
-0.0013995 0.012126 0.20494 0.27306 0.0058503 0.0035462 -0.0006529 -0.0016524
-0.00096062 -0.00037904 -0.00042654 -0.00069821
-0.0026891 -0.0025636 0.0058797 0.003521 0.30332 -0.15689 -0.00066119 0.0013888
-0.0010705 -0.0010072 -8.1081e-05 -0.00040582
0.0027118 0.00094779 -0.0006716 -0.0016562 -0.00066553 0.001397 0.2464 0.053373
-0.0067976 0.0083735 0.0023629 -0.00079528
-0.00059378 -0.0014336 -0.00096999 -0.00037509 -0.0010732 -0.00099994 -0.006789 0.0084064
0.1962 0.14459 -0.0046665 0.0092349
-0.00025201 0.00053777 -0.00042432 -0.00069999 -7.5598e-05 -0.00040537 0.0023726 -0.00078456
-0.0046683 0.0092336 0.24352 0.20609
1700000000 0.2895 -0.022961 0.0019191 0.0093325 -0.0034999 0.00013116 0.0029479 -0.0012297
-0.0019541 -0.00072101 0.00059931 0.00049773
0.0019124 0.0093252 0.22311 0.24135 0.0038979 0.00065187 -0.0014306 -0.0006442
-0.00074547 1.0616e-05 -0.00094634 -0.00045695
-0.0034935 0.00014122 0.0039047 0.00062833 0.25972 -0.19688 0.00028435 0.0015693
-0.0019779 -0.00017955 -0.00040877 -0.00073597
0.0029474 -0.0012315 -0.0014283 -0.00063273 0.00029177 0.00155 0.24316 0.0034535
-0.0043581 0.0089113 0.0015613 -0.0022411
-0.0019589 -0.00070212 -0.00074369 2.1696e-05 -0.0019759 -0.0001836 -0.0043357 0.0089358
0.21366 0.12434 0.00011978 0.009523
0.0006051 0.00048867 -0.00095669 -0.00043777 -0.00039914 -0.00074573 0.0015338 -0.0022724
0.00011092 0.0095276 0.26007 0.1715
1760000000 0.2771 -0.071417 0.0042156 0.0061794 -0.0022205 0.0009823 0.0013023 -0.0033761
-0.0013446 0.00065291 0.00048571 -0.000616
0.0042059 0.006176 0.24894 0.20126 0.0016168 -0.0010597 -0.0011626 0.00018395
-0.00098825 0.0008447 -0.00060219 0.00037515
-0.0022251 0.00098663 0.001603 -0.0010721 0.21046 -0.23002 0.0011537 0.0010821
-0.0010705 0.0014633 -0.0013402 -0.00059756
0.0012754 -0.003404 -0.0011675 0.00018929 0.001151 0.0010766 0.23409 -0.048342
-0.0011042 0.0080821 -0.00035327 -0.0025339
-0.0013349 0.00066359 -0.0009846 0.00085248 -0.0010757 0.0014569 -0.0010873 0.0080694
0.22858 0.089039 0.0039239 0.006981
0.00048683 -0.00060469 -0.0006081 0.00038605 -0.0013525 -0.00058519 -0.00034168 -0.0024893
0.0039225 0.0069889 0.27275 0.13381
1820000000 0.25237 -0.10842 0.0043823 0.002692 1.9509e-05 0.0024154 -0.0010337 -0.0030656
-0.0011318 0.00090493 -9.3604e-05 -0.00011554
0.0043789 0.0026848 0.25872 0.17112 -0.00015022 -6.5579e-07 -0.0013333 0.00087867
-7.4995e-05 0.0012918 -0.00057571 0.00056329
4.4316e-05 0.0024275 -0.00015107 3.0212e-06 0.16073 -0.24535 0.0013867 0.00041153
-0.0003635 0.0023452 -0.0013764 0.00042743
-0.0010389 -0.0030427 -0.001324 0.00089321 0.0013691 0.00039317 0.20384 -0.095357
0.00022933 0.0066823 -0.0017257 -0.0014142
-0.0011306 0.00091466 -6.253e-05 0.001296 -0.00035573 0.0023495 0.00025118 0.0066993
0.24564 0.059987 0.0048877 0.0033754
-0.0001002 -0.00012535 -0.00057016 0.0005708 -0.0013639 0.0003881 -0.0016955 -0.0014595
0.0048906 0.0033564 0.27529 0.097837
1880000000 0.21719 -0.14875 0.002318 0.00045785 -0.00036633 0.0019715 -0.0029798 -0.0021213
-0.0002561 0.0016703 0.000303 -0.00048275
0.0023278 0.00045204 0.26288 0.12441 -0.0022359 0.0016623 -0.00023403 0.0017313
0.00054452 0.0012377 0.00011943 0.0010042
-0.00034861 0.0019785 -0.0022189 0.0016753 0.10854 -0.25495 0.0018646 -0.00086106
0.0015982 0.0020115 -0.00098532 0.0013756
-0.0029923 -0.0021159 -0.00022515 0.0017247 0.0018712 -0.00085035 0.16341 -0.13554
0.0010532 0.0047683 -0.0025277 0.00040346
-0.00024233 0.0016689 0.00056065 0.0012358 0.0016042 0.0020089 0.0010784 0.0047328
0.24844 0.027203 0.0047372 0.0012868
0.00031546 -0.00047815 0.00013358 0.00099974 -0.00098826 0.0013921 -0.0025776 0.00050537
0.004726 0.0013126 0.27457 0.063596
1940000000 0.17779 -0.17428 0.00021498 -0.001214 0.0012995 0.0019448 -0.0036724 0.00058256
0.0012945 0.0011405 -0.00064451 -0.00056912
0.00020948 -0.0012169 0.26306 0.092666 -0.0011513 0.0037718 0.0010211 0.0013187
0.0018178 0.0004597 0.00082785 0.00028628
0.0013021 0.0019233 -0.0011359 0.0037777 0.062332 -0.24842 0.00033466 -0.0022281
0.0024558 0.00045488 0.00047611 0.0016492
-0.0036902 0.00064268 0.0010271 0.0013458 0.00033759 -0.0022266 0.11081 -0.16555
-0.00016395 0.0035686 -0.0012443 0.0018369
0.0012853 0.0011249 0.0018174 0.00045636 0.0024625 0.00044677 -0.00012953 0.0035886
0.24999 -0.011824 0.0038098 -0.0020169
-0.00065212 -0.00055958 0.00082529 0.00028438 0.00045575 0.0016433 -0.0011893 0.0017465
0.0038138 -0.0020172 0.2635 0.027528
2000000000 0.1314 -0.18871 -0.003605 0.00067015 0.0025493 0.0017046 -0.0022854 0.0035006
0.0011003 0.00022488 -0.00053502 0.00045345
-0.0036005 0.000668 0.24868 0.057276 -0.0010064 0.0056644 0.00166 0.00045133
0.0012872 -0.0013329 0.00050441 6.8518e-05
0.0025531 0.0017099 -0.00097269 0.005681 0.018672 -0.23376 -0.0013924 -0.0013553
0.001983 -0.0012662 0.0016451 0.0011075
-0.0022821 0.0035207 0.0016636 0.00041975 -0.0013936 -0.001347 0.057623 -0.17521
-0.0015944 0.0036568 -1.7908e-05 0.0019232
0.0010916 0.00021691 0.001269 -0.0013514 0.0019921 -0.0012691 -0.0015433 0.0036424
0.24381 -0.045624 0.00037 -0.0029959
