!Keysight Technologies,M9804A,MY58100912,A.14.10.03
!Date: Thursday, April 27, 2023 10:28:33
!Correction: S11(C  6-Port  ) 
!S12(C  6-Port  ) 
!S13(C  6-Port  ) 
!S14(C  6-Port  ) 
!S15(C  6-Port  ) 
!S16(C  6-Port  ) 
!S21(C  6-Port  ) 
!S22(C  6-Port  ) 
!S23(C  6-Port  ) 
!S24(C  6-Port  ) 
!S25(C  6-Port  ) 
!S26(C  6-Port  ) 
!S31(C  6-Port  ) 
!S32(C  6-Port  ) 
!S33(C  6-Port  ) 
!S34(C  6-Port  ) 
!S35(C  6-Port  ) 
!S36(C  6-Port  ) 
!S41(C  6-Port  ) 
!S42(C  6-Port  ) 
!S43(C  6-Port  ) 
!S44(C  6-Port  ) 
!S45(C  6-Port  ) 
!S46(C  6-Port  ) 
!S51(C  6-Port  ) 
!S52(C  6-Port  ) 
!S53(C  6-Port  ) 
!S54(C  6-Port  ) 
!S55(C  6-Port  ) 
!S56(C  6-Port  ) 
!S61(C  6-Port  ) 
!S62(C  6-Port  ) 
!S63(C  6-Port  ) 
!S64(C  6-Port  ) 
!S65(C  6-Port  ) 
!S66(C  6-Port  ) 
!S6P File: Measurement: :
# Hz S  RI   R 50
500000000 -0.3366 -0.038544 -0.0096702 -0.0024455 -0.0077458 0.01233 -0.0041722 0.012125
0.012867 0.004717 -0.0045535 0.0088073
-0.0096983 -0.0024404 -0.41902 -0.051437 0.0083685 -0.010927 0.0017795 0.012045
0.0074446 0.0026238 0.0018177 0.013456
-0.0077843 0.012487 0.0084006 -0.010996 -0.26454 0.20886 0.0079556 0.003252
-0.0018307 0.0078153 0.0020153 0.011824
-0.0041298 0.011959 0.0018408 0.01205 0.0079658 0.0032499 -0.33028 0.044442
-0.018013 -0.0067087 0.015331 0.02578
0.012805 0.0048637 0.0075597 0.0025682 -0.0018312 0.0077944 -0.018001 -0.0066302
-0.22367 -0.1935 -0.024473 0.0046374
-0.0046062 0.0084916 0.0018389 0.013501 0.0018388 0.01175 0.015467 0.026241
-0.024901 0.0048313 -0.26812 -0.13092
560000000 -0.31605 0.12339 -0.023745 -0.064365 0.00032635 0.011667 0.0057353 0.010256
0.010031 0.0042715 0.010818 0.0074339
-0.023528 -0.064228 -0.37793 0.10814 -0.041155 -0.038159 0.013156 0.0034617
-0.012485 -0.0042791 0.0033477 -5.2739e-05
0.00032796 0.012041 -0.0413 -0.038286 -0.18257 0.25724 -0.00031172 -0.0048617
0.019356 0.0047944 0.0069309 -0.0061896
0.0057328 0.010224 0.013095 0.0035413 -0.00026925 -0.0048796 -0.30593 0.13309
0.0051837 -0.024013 0.0040119 -0.021672
0.010032 0.0045264 -0.012299 -0.0043549 0.019185 0.0046361 0.0051501 -0.023885
-0.28999 -0.020102 0.0088657 -0.048694
0.010967 0.0071726 0.0032823 -0.00015609 0.0069081 -0.0064317 0.0038267 -0.021902
0.0088321 -0.048704 -0.32867 0.017976
620000000 -0.27456 0.10686 -0.023092 0.0077574 0.0029804 0.0084958 0.0080658 -0.0053786
0.010944 -0.00020121 0.001966 -0.002655
-0.023222 0.0077114 -0.40242 0.059659 -0.018956 -4.2332e-05 -0.0014415 -0.0022115
0.011325 -0.0067243 0.0012709 -0.0032615
0.0029443 0.0086315 -0.018966 4.145e-05 -0.15392 0.26638 -0.0019616 -0.0052852
-0.0030798 -0.0026963 0.0084126 -0.0033195
0.0080066 -0.0052804 -0.0014655 -0.0022007 -0.0019537 -0.0052541 -0.26509 0.14341
-0.037547 -0.01962 0.012043 0.026048
0.011187 -0.0002344 0.011264 -0.0066953 -0.0031923 -0.0025862 -0.037603 -0.019536
-0.20826 -0.058108 -0.041077 0.013774
0.0017161 -0.0026451 0.0013415 -0.0033549 0.00837 -0.0037333 0.01208 0.025958
-0.041044 0.013548 -0.2504 -0.018853
680000000 -0.23433 0.19216 -0.027456 -0.014595 0.0050391 0.0051461 0.00092246 -0.0070769
-0.0035755 -0.01111 0.0044878 -0.0066156
-0.027433 -0.014544 -0.38759 0.15714 -0.033127 -0.0014196 -0.0018895 -0.00056028
-0.0022312 -0.0086582 -0.0016334 -0.001904
0.0050823 0.0051453 -0.033144 -0.0013248 -0.1028 0.28588 -0.00075449 3.743e-05
-0.0018185 0.00079902 -0.0031105 -0.009212
0.00094338 -0.0070598 -0.0018981 -0.00054638 -0.00075928 3.5543e-05 -0.22035 0.19315
-0.024069 -0.0084333 -0.010215 -0.010692
-0.0037645 -0.011087 -0.0022946 -0.0086791 -0.0019412 0.00082662 -0.024159 -0.0083136
-0.2587 0.040108 -0.0053645 -0.0089446
0.0046709 -0.0064903 -0.001628 -0.0017931 -0.0031947 -0.0090885 -0.0098436 -0.010393
-0.0052237 -0.0083906 -0.26101 0.087253
740000000 -0.19039 0.18691 -0.038825 0.026549 0.01288 -0.0050283 -0.0002334 -0.0041437
-0.0046501 -0.0024888 -0.0060808 0.0026986
-0.038722 0.026577 -0.33482 0.17611 -0.035589 0.035598 -0.000549 -0.0061228
-0.011583 0.0080733 -0.0020793 -0.006407
0.012808 -0.004973 -0.035479 0.035703 -0.069519 0.28454 -0.0019317 0.0034467
-0.0019491 -0.0046219 -0.0015913 -2.628e-05
-0.00014386 -0.004222 -0.00053 -0.0061416 -0.0019416 0.0034491 -0.20393 0.20123
-0.04385 -0.0070791 0.022489 0.014784
-0.0046561 -0.0022184 -0.011688 0.0081845 -0.0018917 -0.0047436 -0.043702 -0.0071237
-0.15958 0.06618 -0.043581 0.00054422
-0.0057163 0.0027817 -0.0016662 -0.006378 -0.0018629 2.449e-05 0.022532 0.014839
-0.04361 -8.5224e-05 -0.24882 0.092924
800000000 -0.15792 0.2273 -0.022699 0.016589 0.0054274 -0.010739 -0.0047705 -0.001981
-0.0038815 0.0023158 0.0047019 0.00064358
-0.022689 0.016571 -0.33831 0.24629 -0.0078339 0.034196 -0.0023466 0.0022632
-0.00017291 0.0030781 0.0011739 0.0052242
0.005396 -0.010788 -0.0077435 0.034232 -0.028423 0.30808 0.0011562 0.0014199
0.00061758 0.0032961 -0.0016261 0.00092065
-0.0048052 -0.0019415 -0.0023323 0.0022737 0.0011444 0.0014217 -0.17584 0.22936
-0.028966 0.013886 0.013478 -0.010025
-0.0039789 0.0022625 -0.00011567 0.0030879 0.00056969 0.00331 -0.028898 0.013859
-0.20741 0.089836 -0.017817 0.018642
0.0047281 0.0006244 0.0010656 0.0052481 -0.0016461 0.00088182 0.013493 -0.0099175
-0.017902 0.018738 -0.2436 0.14251
860000000 -0.12323 0.24785 -0.017521 0.030769 -0.0034317 -0.010019 -0.0025024 0.00096619
0.0043752 0.0049152 -0.0031353 -0.0030038
-0.017634 0.030823 -0.29109 0.28866 0.0078981 0.03441 -4.7022e-05 0.0019165
0.0045558 -0.0001246 0.0031946 0.00084903
-0.0034869 -0.010013 0.0080218 0.03441 0.019716 0.31621 -0.0006247 -0.00046024
0.002863 -0.0016754 0.0014029 0.0044747
-0.0024872 0.00094862 -1.5827e-05 0.001927 -0.00063362 -0.00046447 -0.13959 0.24067
-0.018255 0.018928 -0.0060399 -0.0092115
0.0043097 0.0046646 0.0047125 -8.0313e-05 0.0029111 -0.0016366 -0.018108 0.018982
-0.15695 0.14121 -0.026521 0.015699
-0.0032581 -0.0028893 0.0033213 0.00085105 0.0014824 0.0045575 -0.0059202 -0.0093089
-0.026127 0.015792 -0.1922 0.18851
920000000 -0.098321 0.27112 0.0050897 0.038167 -0.0096346 -0.0043589 -0.0018051 0.0021313
0.00097724 0.0020078 0.0025867 -0.0016871
0.0050506 0.038091 -0.26181 0.31026 0.028257 0.022134 0.0014865 0.0011231
0.0067261 -0.00074359 0.0039041 -0.0027479
-0.0096127 -0.0043742 0.028371 0.02206 0.066262 0.31692 0.0017158 -9.1165e-05
0.0011592 -0.00040037 0.0009355 -0.0010972
-0.0017831 0.0021812 0.0015029 0.0011129 0.001715 -7.6386e-05 -0.11583 0.25811
-0.010821 0.030892 0.0034531 -0.0066219
0.00088674 0.0019195 0.0067853 -0.00073438 0.0011792 -0.00040016 -0.010812 0.030906
-0.14676 0.14817 -0.0030784 0.027702
0.0025475 -0.0015175 0.0039956 -0.0026987 0.0010506 -0.0010188 0.0034511 -0.0064688
-0.003076 0.027593 -0.20093 0.20276
980000000 -0.05082 0.29048 0.017668 0.030276 -0.0090859 0.004793 0.0021979 0.0035852
0.0039666 -0.0014297 -0.0031693 -0.0021631
0.017622 0.03029 -0.20897 0.34404 0.033297 0.0047296 0.0021161 -0.00010218
0.0012436 -0.0057689 -0.00028353 -0.0023665
-0.0090805 0.0048363 0.03335 0.0046481 0.11276 0.31018 0.00046892 -0.0011459
0.00020471 -0.0021199 0.0014965 -0.00018455
0.0021896 0.0035754 0.0020985 -8.1305e-05 0.0004694 -0.0011426 -0.077376 0.26988
0.0081389 0.030233 -0.0092048 -0.0072013
0.0039317 -0.0013826 0.0012193 -0.0058038 0.00017387 -0.0020915 0.0081637 0.030184
-0.11608 0.17747 0.004996 0.019718
-0.0030574 -0.0021261 -0.00039331 -0.0023659 0.0014826 -0.0002238 -0.0092159 -0.0072584
0.0050156 0.019678 -0.15906 0.24772
1040000000 -0.0085022 0.29888 0.033377 0.01819 -0.0011694 0.0070757 0.0026896 0.00060268
2.0665e-05 -0.0037655 -0.00032441 -0.001304
0.033365 0.018238 -0.17309 0.3571 0.029528 -0.01505 0.0014167 -0.0017576
-0.0026112 -0.0024311 -0.0014755 -0.0025398
-0.0011374 0.0070877 0.029517 -0.015167 0.1589 0.29644 -0.00052038 -0.0015011
-0.0016256 -0.00080039 -0.00036189 -0.0011062
0.0026869 0.00060347 0.0014281 -0.0017432 -0.0005269 -0.0015011 -0.049628 0.28013
0.01967 0.018098 -0.0024873 0.0017783
-2.3887e-05 -0.0038545 -0.0026757 -0.0024611 -0.0016201 -0.0008766 0.019743 0.01806
-0.083924 0.18567 0.013163 0.018641
-0.00021029 -0.0013027 -0.0014792 -0.0025053 -0.00032516 -0.0010995 -0.002401 0.0017018
0.01329 0.018562 -0.13691 0.2682
1100000000 0.037038 0.30646 0.036072 -0.004269 0.003088 0.0039227 0.0023621 -0.0014817
-0.0020358 -0.0031548 -0.003891 6.3436e-05
0.036034 -0.0042447 -0.12966 0.37443 0.015039 -0.028063 -6.8123e-05 -0.0018476
-0.0032548 -0.00058026 -0.0033611 -0.00049822
0.0030861 0.0039027 0.014952 -0.028139 0.20548 0.27589 -0.0018078 0.00030726
-0.0017587 0.00057754 -0.0010524 -0.00058301
0.0023466 -0.0014981 -7.8915e-05 -0.0018435 -0.001816 0.00030872 -0.008936 0.28512
0.024819 0.0047687 -0.0024384 0.00026421
-0.0020664 -0.0031585 -0.0032764 -0.00055845 -0.001749 0.00059753 0.024844 0.004763
-0.066046 0.19977 0.019074 0.0088487
-0.003775 8.9425e-05 -0.0034082 -0.000467 -0.0010503 -0.00050959 -0.0025173 0.00026852
0.019008 0.0088371 -0.091535 0.29859
1160000000 0.08847 0.30121 0.024107 -0.020959 0.0027912 -0.0005964 -0.00035906 -0.0024814
-0.0042259 -0.00071615 -0.00083538 0.0041863
0.0241 -0.020912 -0.085595 0.37854 -0.0039633 -0.029256 -0.0017552 -0.0016586
-0.0025501 0.0025303 -0.0012787 0.0019025
0.0028241 -0.00060072 -0.0040897 -0.02924 0.24849 0.24471 -0.00061236 0.0017473
-0.00060855 0.0019321 -0.0010029 0.00019719
-0.00035851 -0.0024907 -0.0017521 -0.0016373 -0.00060779 0.0017441 0.030842 0.28236
0.021099 -0.010707 -0.002892 0.0052871
-0.004224 -0.00066379 -0.0025488 0.0025563 -0.00053892 0.0019091 0.021083 -0.010745
-0.032155 0.2098 0.018081 0.00066146
-0.00082725 0.0041299 -0.0012246 0.0018414 -0.0009808 0.00023397 -0.0028388 0.0053072
0.018119 0.00063387 -0.044607 0.30164
1220000000 0.13279 0.28976 0.010385 -0.030243 -0.0014915 -0.00097702 -0.00013553 -0.00088825
-0.0026368 0.0025402 0.0014203 0.0020107
0.01039 -0.030195 -0.041088 0.39026 -0.017038 -0.021092 -0.0025012 0.00049773
0.00010427 0.0028856 -0.00073042 0.0018554
-0.0015126 -0.00098394 -0.017156 -0.021023 0.28757 0.20553 0.00088406 0.0014971
0.00061077 0.0011017 0.00027193 0.0007415
-0.00012212 -0.00087289 -0.0024922 0.00051617 0.00087887 0.0015002 0.070843 0.27355
0.010136 -0.017369 0.0023736 0.0014671
-0.0026307 0.0025561 0.00014385 0.0029204 0.00061925 0.0011182 0.010127 -0.017407
-0.0092235 0.21933 0.014334 -0.012668
0.0013887 0.0020213 -0.00069754 0.0018627 0.00028983 0.00072961 0.0024213 0.0014593
0.014328 -0.012661 -0.01327 0.31863
1280000000 0.18253 0.26755 -0.0080874 -0.028585 -0.0019336 0.0023112 -0.00093364 -0.0018835
-0.00075594 0.0030921 0.0024175 0.0010723
-0.0080522 -0.028571 0.0050919 0.38087 -0.023812 -0.0082678 -0.00084966 0.0014415
0.0016605 0.0016364 0.00060921 0.0020159
-0.0019207 0.0023288 -0.023879 -0.0081539 0.31778 0.16135 0.0015112 -0.00013772
0.0010762 0.00028444 0.00044027 0.00037222
-0.0009351 -0.0018714 -0.00084705 0.0014421 0.0015182 -0.00013285 0.10768 0.25689
0.00056555 -0.019051 0.00011782 -3.3305e-05
-0.00072363 0.0030729 0.001677 0.0016158 0.001099 0.00027722 0.00051634 -0.019063
0.027808 0.22352 0.0032736 -0.014747
0.0024637 0.0010357 0.00067839 0.0020688 0.00042929 0.00039716 0.00013468 -2.2732e-05
0.0032595 -0.014711 0.03506 0.32086
1340000000 0.21946 0.23331 -0.017771 -0.018981 0.00082997 0.0043828 -0.0016955 -0.00071603
0.001545 0.0026767 0.001699 -0.0014077
-0.017741 -0.018999 0.044382 0.37207 -0.021458 0.0044106 -7.0551e-05 0.0019177
0.0018544 0.00072863 0.0013292 0.00079857
0.00081587 0.0043513 -0.021463 0.0045282 0.33954 0.11331 0.0010199 -0.00088768
0.00070267 -0.00043404 0.00019648 0.00038104
-0.0017014 -0.0007191 -5.7589e-05 0.0019089 0.0010061 -0.00088817 0.13989 0.23643
-0.0088147 -0.01599 0.00095131 0.00027941
0.001524 0.0027152 0.0018424 0.0007265 0.00064104 -0.00046843 -0.0088413 -0.015968
0.058343 0.21909 -0.0033461 -0.013345
0.0016951 -0.0014208 0.0013437 0.00080762 0.00020242 0.00034128 0.00094448 0.00027837
-0.0033147 -0.013363 0.073424 0.31659
1400000000 0.25213 0.19472 -0.02352 -0.007421 0.0049876 0.0030642 -0.0019846 0.00062997
0.0024068 0.00084595 0.00031482 -0.0013099
-0.023491 -0.0074557 0.081414 0.35861 -0.014699 0.012394 0.001259 0.0012322
0.0010251 -0.0007907 0.0012178 0.00019877
0.005013 0.0030705 -0.014651 0.012478 0.35256 0.059993 0.00011264 -0.0015272
-4.3724e-06 -0.00043347 0.00047738 0.00029157
-0.0019843 0.00064432 0.001268 0.0012242 0.00010439 -0.0015256 0.16931 0.20777
-0.014389 -0.0091245 -0.00081501 -0.00063491
0.0023993 0.00081292 0.0010378 -0.00079689 1.5938e-05 -0.00041663 -0.014386 -0.0090868
0.091566 0.21474 -0.0097487 -0.0088002
0.00026733 -0.0013192 0.0011793 0.00020034 0.00045176 0.00026282 -0.00082042 -0.00067443
-0.0096885 -0.0087984 0.11886 0.30549
1460000000 0.27417 0.1505 -0.020541 0.0047397 0.0054919 -0.0017971 -0.0015479 0.0016597
0.0020962 -0.00066444 -0.00034018 -0.00095677
-0.020533 0.0047149 0.11506 0.3365 -0.0059962 0.015165 0.0016601 0.00019792
0.00084417 -0.0011951 0.0011367 -0.00063851
0.0054698 -0.0018476 -0.0059321 0.015205 0.35827 0.0056609 -0.001211 -0.001173
0.0002038 -0.00030782 0.00060828 -0.00031155
-0.0015402 0.001653 0.001666 0.00019519 -0.0011958 -0.0011786 0.19544 0.1788
-0.015244 -0.0023492 -0.0010038 0.0018576
0.0020843 -0.00066594 0.00083125 -0.0012099 0.00015698 -0.00028398 -0.015244 -0.0023505
0.12095 0.2001 -0.011585 -0.0029306
-0.00038292 -0.00097396 0.0011282 -0.00064613 0.00062882 -0.00027519 -0.0010019 0.0018519
-0.011613 -0.0029366 0.15213 0.28484
1520000000 0.2858 0.10895 -0.01483 0.01042 0.0031687 -0.0040603 0.00010293 0.0025701
0.0019341 -0.0017527 -0.0010528 -5.3462e-05
-0.01483 0.010407 0.14818 0.32175 0.0014943 0.012934 0.0016127 -0.00069985
1.3346e-05 -0.00097254 0.00031547 -0.0010483
0.0031729 -0.0040914 0.0015785 0.012943 0.35158 -0.050471 -0.0010129 -0.0002846
0.00062145 -0.00081203 2.6776e-05 -0.00012283
0.00012311 0.0025713 0.0016136 -0.00070466 -0.0010208 -0.00028046 0.21873 0.14118
-0.014261 0.0031105 0.0012686 0.0020016
0.0019864 -0.0017661 6.6049e-06 -0.00096741 0.00060027 -0.00083285 -0.014274 0.0031109
0.1488 0.18603 -0.011515 0.0014211
-0.0010839 -5.5077e-05 0.00030271 -0.0010281 1.1754e-05 -0.00014254 0.0012581 0.0019993
-0.011508 0.0014116 0.18561 0.2645
1580000000 0.29472 0.063071 -0.0081038 0.013561 -0.00095809 -0.0047347 0.0013405 0.001847
-0.0003684 -0.0020584 -0.0003311 0.00036424
-0.0081168 0.01354 0.17504 0.29708 0.0050286 0.0081641 0.00049375 -0.0015388
-0.00051661 -0.00098631 -0.00027912 -0.00077211
-0.00097329 -0.0047498 0.0050745 0.0081406 0.33113 -0.10789 -0.0014953 0.00052945
-0.00035808 -0.0011 0.00013685 -0.00047684
0.001342 0.0018521 0.00047973 -0.0015398 -0.0014903 0.00052427 0.23288 0.10215
-0.010595 0.0076278 0.0021497 0.00090562
-0.00041088 -0.0020681 -0.00053364 -0.00097259 -0.000312 -0.0010167 -0.010581 0.0076949
0.17325 0.16811 -0.0091572 0.0072189
-0.00032098 0.00037869 -0.00028628 -0.00077245 0.00013857 -0.00045559 0.0021765 0.00090291
-0.0091549 0.0072098 0.21806 0.23763
1640000000 0.29661 0.022113 -0.0012705 0.012454 -0.0026284 -0.0024553 0.0027186 0.00097625
-0.00065284 -0.0014035 -0.00020903 0.00051711
-0.0012837 0.012461 0.20426 0.27232 0.0057955 0.0035083 -0.00061092 -0.0016979
-0.00094613 -0.00038065 -0.00046224 -0.00063997
-0.0026829 -0.0024548 0.0058147 0.0034641 0.30293 -0.15698 -0.00066877 0.0013622
-0.0010229 -0.0010045 -3.648e-05 -0.00051065
0.002723 0.00096012 -0.0006104 -0.0016987 -0.0006814 0.0013643 0.24539 0.053501
-0.0063564 0.0084138 0.0023796 -0.00069171
-0.00066185 -0.0014106 -0.00096129 -0.00034913 -0.0010449 -0.0010112 -0.0063433 0.0084305
0.19579 0.14375 -0.0046523 0.0091098
-0.00019716 0.00052158 -0.00047952 -0.00065108 -6.1247e-05 -0.00050884 0.0024064 -0.00067645
-0.0046441 0.0091211 0.24358 0.20642
1700000000 0.28924 -0.022927 0.0021753 0.0095284 -0.0032978 0.00017688 0.0029607 -0.001157
-0.0019841 -0.00061492 0.00066678 0.00040515
0.0021558 0.0095146 0.2222 0.24105 0.0037634 0.00075374 -0.0014383 -0.00057978
-0.00074345 5.9278e-05 -0.00088702 -0.00037761
-0.0032716 0.00016361 0.0037712 0.00071774 0.25943 -0.19673 0.00038201 0.0016544
-0.0018442 -0.00016836 -0.00050762 -0.00085845
0.0029706 -0.0011679 -0.0014424 -0.00057483 0.0003854 0.0016551 0.24258 0.0040529
-0.0039378 0.0086918 0.0014753 -0.0021091
-0.0019756 -0.00062854 -0.00072933 6.5096e-05 -0.0018504 -0.00013875 -0.0039311 0.0086895
0.213 0.12363 6.3885e-05 0.0093858
0.00066645 0.00039326 -0.0008898 -0.00036766 -0.00050878 -0.00083107 0.0014375 -0.002131
5.8891e-05 0.0093576 0.26011 0.17167
1760000000 0.27707 -0.071233 0.0044469 0.006214 -0.0020985 0.00092622 0.0013317 -0.0033419
-0.0011979 0.00073298 0.00041119 -0.00063128
0.0044438 0.0062179 0.24806 0.20144 0.0016245 -0.00090666 -0.0011729 0.0001693
-0.00095221 0.00085109 -0.00051384 0.00041469
-0.0021236 0.00094256 0.0016258 -0.00092295 0.21036 -0.22957 0.0012063 0.0011358
-0.0011299 0.0013726 -0.001361 -0.0004874
0.0013216 -0.0033714 -0.0011641 0.00017463 0.0012072 0.001129 0.23372 -0.047261
-0.0010364 0.0078048 -0.00022191 -0.0024685
-0.0012153 0.00074423 -0.00095325 0.00085191 -0.0010619 0.0014139 -0.0010178 0.0078163
0.22766 0.088597 0.0038956 0.0068427
0.00041149 -0.00061015 -0.00053427 0.00040415 -0.0013373 -0.00053265 -0.00022522 -0.0024642
0.0038909 0.0068658 0.27263 0.13394
1820000000 0.25251 -0.1084 0.0045779 0.0026941 -3.5079e-05 0.0023029 -0.00095264 -0.0030197
-0.0010434 0.00090745 -7.8459e-05 -0.00012537
0.004556 0.0026845 0.25802 0.17159 -0.00016931 6.1961e-05 -0.0013288 0.00093494
-4.3302e-05 0.0012459 -0.0004798 0.00051843
-3.2223e-05 0.002332 -0.00017346 5.1793e-05 0.16083 -0.24544 0.0014046 0.00046258
-0.00027339 0.0022068 -0.0013025 0.00039414
-0.00096692 -0.0029857 -0.0013236 0.00094815 0.0014225 0.00045264 0.20416 -0.094338
5.1552e-05 0.0063029 -0.0015518 -0.0015078
-0.0010235 0.00088198 -2.6372e-05 0.0012472 -0.00031029 0.0022156 6.2965e-05 0.0062836
0.24464 0.05971 0.0047561 0.0033917
-0.00011006 -0.00012475 -0.00045765 0.00051095 -0.0012963 0.00035294 -0.0015585 -0.0015338
0.0047671 0.003385 0.27504 0.097797
1880000000 0.2175 -0.14862 0.0024477 0.00042894 -0.00042257 0.0019612 -0.0028865 -0.0021309
-0.00016711 0.0016189 0.00028178 -0.0004793
0.0024327 0.00042924 0.26254 0.12523 -0.0022133 0.0016763 -0.00019161 0.0016951
0.0005516 0.0011595 0.00013171 0.00083127
-0.00039225 0.0019636 -0.0021941 0.0017009 0.10844 -0.25536 0.0018065 -0.00096572
0.0015047 0.0019361 -0.00086924 0.0012281
-0.0029007 -0.0021187 -0.00018296 0.0016855 0.0018027 -0.00098684 0.16393 -0.1347
0.00059192 0.0045915 -0.0023956 0.00042291
-0.00017177 0.0016165 0.00055971 0.0011598 0.001507 0.0018926 0.00063857 0.0045893
0.24734 0.027287 0.0047834 0.0012338
0.0002143 -0.00050737 0.0001326 0.00084138 -0.00094118 0.0012055 -0.0023951 0.0004308
0.0047865 0.0012523 0.2745 0.063645
1940000000 0.17799 -0.1746 0.00032228 -0.0013234 0.0013345 0.0019101 -0.0037621 0.00050117
0.0012594 0.00094781 -0.00061941 -0.00051767
0.000312 -0.001313 0.26324 0.093544 -0.00097864 0.0038448 0.00099454 0.0013657
0.0017633 0.00045134 0.00080937 0.00024488
0.0013492 0.0019777 -0.00096308 0.0038587 0.062337 -0.24836 0.00043668 -0.002218
0.0024316 0.00050891 0.00023678 0.0016662
-0.0037897 0.00052943 0.00099821 0.0013564 0.00042797 -0.0022293 0.11194 -0.16525
-0.000301 0.0037342 -0.0014497 0.0015621
0.0012795 0.00092131 0.0017662 0.00044536 0.0024443 0.00050417 -0.00027776 0.0037277
0.24899 -0.011282 0.0035507 -0.0020997
-0.00055277 -0.00047211 0.00080603 0.00024045 0.00024897 0.0015761 -0.0014405 0.0015328
0.0035778 -0.0020857 0.26341 0.027665
2000000000 0.13166 -0.18908 -0.0034343 0.00054772 0.0024602 0.0015966 -0.0022947 0.0035072
0.0010377 0.00012498 -0.00070116 0.0002962
-0.0034748 0.00056109 0.24921 0.058029 -0.00095163 0.0055509 0.0016758 0.00039136
0.0013008 -0.0013314 0.00041657 0.00011411
0.0024593 0.0015381 -0.00090578 0.0055956 0.018637 -0.23376 -0.0013374 -0.0013353
0.0020141 -0.0011153 0.0016353 0.0012473
-0.0022535 0.0035078 0.0016828 0.00039253 -0.0013047 -0.0013133 0.058629 -0.17558
-0.0017673 0.0037265 -2.3535e-05 0.0022458
0.0010897 0.00013162 0.0012993 -0.0013443 0.0020451 -0.0011325 -0.0017614 0.0037341
