!Keysight Technologies,M9804A,MY58100912,A.14.10.03
!Date: Thursday, April 27, 2023 10:28:33
!Correction: S11(C  6-Port  ) 
!S12(C  6-Port  ) 
!S13(C  6-Port  ) 
!S14(C  6-Port  ) 
!S15(C  6-Port  ) 
!S16(C  6-Port  ) 
!S21(C  6-Port  ) 
!S22(C  6-Port  ) 
!S23(C  6-Port  ) 
!S24(C  6-Port  ) 
!S25(C  6-Port  ) 
!S26(C  6-Port  ) 
!S31(C  6-Port  ) 
!S32(C  6-Port  ) 
!S33(C  6-Port  ) 
!S34(C  6-Port  ) 
!S35(C  6-Port  ) 
!S36(C  6-Port  ) 
!S41(C  6-Port  ) 
!S42(C  6-Port  ) 
!S43(C  6-Port  ) 
!S44(C  6-Port  ) 
!S45(C  6-Port  ) 
!S46(C  6-Port  ) 
!S51(C  6-Port  ) 
!S52(C  6-Port  ) 
!S53(C  6-Port  ) 
!S54(C  6-Port  ) 
!S55(C  6-Port  ) 
!S56(C  6-Port  ) 
!S61(C  6-Port  ) 
!S62(C  6-Port  ) 
!S63(C  6-Port  ) 
!S64(C  6-Port  ) 
!S65(C  6-Port  ) 
!S66(C  6-Port  ) 
!S6P File: Measurement: :
# Hz S  RI   R 50
500000000 -0.3377 -0.038862 -0.0092649 -0.0029814 -0.0071451 0.012119 -0.0039691 0.012229
0.013156 0.0044329 -0.0047833 0.0087271
-0.010134 -0.0025961 -0.41897 -0.051621 0.008553 -0.011173 0.0018204 0.012273
0.0079006 0.002622 0.0017576 0.013361
-0.0077422 0.012369 0.0082899 -0.011081 -0.26422 0.20847 0.0077149 0.0032418
-0.0014988 0.0078663 0.0017836 0.011853
-0.0039093 0.012222 0.0015446 0.011956 0.007672 0.00281 -0.32944 0.043751
-0.017824 -0.0063912 0.015793 0.025776
0.011947 0.005003 0.0078288 0.0025225 -0.00089925 0.0084097 -0.018703 -0.0056509
-0.2238 -0.19591 -0.025015 0.0044749
-0.0050264 0.009624 0.0015057 0.013049 0.001627 0.011266 0.016734 0.026011
-0.025214 0.005083 -0.26714 -0.1335
560000000 -0.31672 0.12398 -0.022383 -0.063915 0.0001466 0.011612 0.005501 0.0099549
0.009976 0.0043028 0.010985 0.0076572
-0.022544 -0.063592 -0.37741 0.10725 -0.040973 -0.037636 0.013591 0.0038097
-0.012789 -0.0044292 0.003129 3.5361e-06
8.3581e-05 0.012316 -0.041206 -0.037649 -0.18303 0.25583 -0.00083852 -0.0049332
0.019494 0.0042261 0.0068393 -0.0063167
0.0059399 0.010959 0.013983 0.0034353 -0.00069349 -0.0047809 -0.30469 0.13315
0.0050766 -0.023732 0.0041058 -0.021756
0.010693 0.0037241 -0.013196 -0.0041429 0.018367 0.0041424 0.0046133 -0.024473
-0.28799 -0.020825 0.0085582 -0.048178
0.01118 0.0066783 0.0042522 -5.0123e-05 0.0073857 -0.0066017 0.0040278 -0.020848
0.0085809 -0.04854 -0.32862 0.015839
620000000 -0.27476 0.10647 -0.022976 0.0077829 0.0031763 0.0086858 0.007851 -0.0054852
0.010962 -0.0001855 0.0019349 -0.0027021
-0.022958 0.007752 -0.40233 0.059134 -0.018747 -0.00031516 -0.001366 -0.0020005
0.011349 -0.0068391 0.0014673 -0.0033534
0.002744 0.0088396 -0.018759 -0.0001963 -0.15383 0.2658 -0.0018549 -0.0050509
-0.0030858 -0.0028548 0.0083725 -0.0036938
0.0072229 -0.0054834 -0.0015764 -0.0021758 -0.0018369 -0.0048454 -0.26489 0.14332
-0.037746 -0.018936 0.011851 0.025547
0.011874 0.00097322 0.011463 -0.0067049 -0.0031521 -0.0032769 -0.037769 -0.020033
-0.20677 -0.05962 -0.041127 0.014666
0.0018664 -0.0022883 0.00111 -0.0032106 0.0079006 -0.0039542 0.012197 0.024922
-0.041678 0.014427 -0.2489 -0.021872
680000000 -0.23443 0.19319 -0.027178 -0.014577 0.0048367 0.0052945 0.00091779 -0.0072718
-0.0033689 -0.011214 0.004695 -0.0066525
-0.027563 -0.014408 -0.38768 0.15691 -0.033168 -0.0014183 -0.0019567 -0.00082814
-0.0023126 -0.0086059 -0.0014553 -0.0018274
0.0051019 0.0054961 -0.03315 -0.0012256 -0.10305 0.28569 -0.00092207 -0.00035885
-0.0020562 0.0010854 -0.0030738 -0.0089945
0.0011917 -0.0074473 -0.0019681 -0.00029653 -0.00076741 -0.0001036 -0.22036 0.193
-0.023663 -0.0080847 -0.0097015 -0.01052
-0.0039327 -0.011193 -0.0025012 -0.0088128 -0.0017177 0.00078126 -0.023794 -0.0084841
-0.25842 0.038495 -0.0053848 -0.0082366
0.0044501 -0.0067302 -0.0013595 -0.0017898 -0.0032237 -0.0090094 -0.0094639 -0.010414
-0.0053879 -0.0086966 -0.26171 0.085629
740000000 -0.19005 0.18689 -0.039217 0.026194 0.012785 -0.0051279 -7.7404e-05 -0.0040703
-0.0049159 -0.0026032 -0.005812 0.0026262
-0.039362 0.026159 -0.33485 0.17624 -0.03588 0.035206 -0.00047917 -0.0062856
-0.011377 0.0083547 -0.0018026 -0.0061626
0.013189 -0.0047424 -0.035623 0.035478 -0.069394 0.28452 -0.0018214 0.0033643
-0.0020031 -0.0044522 -0.0019692 2.2161e-05
-0.00057098 -0.0041179 -0.00082707 -0.0061653 -0.0017642 0.0030888 -0.20391 0.20077
-0.043772 -0.007554 0.022692 0.014817
-0.0050287 -0.0024432 -0.011247 0.0081705 -0.0022219 -0.0046348 -0.043732 -0.007887
-0.1599 0.063856 -0.044003 -0.00044816
-0.0056531 0.002857 -0.0023797 -0.0061572 -0.001783 -0.00046411 0.022808 0.015044
-0.043232 4.6452e-05 -0.24977 0.090913
800000000 -0.1581 0.22726 -0.022826 0.016703 0.0054001 -0.010559 -0.0048738 -0.00209
-0.0041506 0.0024164 0.0047122 0.00071256
-0.022865 0.016554 -0.33864 0.24628 -0.0079994 0.034185 -0.0023559 0.0022645
-0.00038235 0.0031552 0.0010223 0.0052824
0.0051177 -0.010442 -0.0078573 0.034264 -0.028529 0.30812 0.0011347 0.001372
0.00026306 0.0034457 -0.0016285 0.00094798
-0.0050521 -0.0020895 -0.0024411 0.0023624 0.0011697 0.0014287 -0.17614 0.22924
-0.028802 0.013309 0.013297 -0.0099928
-0.0042194 0.0022001 -0.00020974 0.0031 0.00038241 0.0035053 -0.028818 0.013296
-0.20759 0.08757 -0.017696 0.018559
0.0039153 0.00035299 0.0009952 0.0055819 -0.0015473 0.00095496 0.01349 -0.010054
-0.017962 0.018527 -0.24473 0.14103
860000000 -0.12374 0.24786 -0.017627 0.030853 -0.0033633 -0.0098715 -0.0024212 0.0011378
0.0039092 0.0047784 -0.0032644 -0.0029826
-0.017851 0.031015 -0.29098 0.2886 0.0078079 0.0344 -0.00018671 0.0020559
0.0042981 5.6274e-05 0.0033188 0.00073574
-0.0034211 -0.0098439 0.0080268 0.034444 0.019715 0.3162 -0.0006586 -0.0003867
0.0027839 -0.0016076 0.0014021 0.0045409
-0.0026071 0.0010247 -6.6798e-05 0.0020392 -0.00067982 -0.00034366 -0.14008 0.2404
-0.018459 0.018711 -0.0058945 -0.0094132
0.0039494 0.0047035 0.0042475 5.4715e-05 0.0026298 -0.0015759 -0.018326 0.018629
-0.15771 0.13959 -0.026292 0.015218
-0.0032192 -0.0029746 0.0035964 0.00083538 0.0013881 0.0045335 -0.0061189 -0.0090671
-0.026199 0.01547 -0.19337 0.18778
920000000 -0.098549 0.27118 0.00512 0.038351 -0.0094853 -0.0042585 -0.0017119 0.0021929
0.00099499 0.0020199 0.0026396 -0.0014118
0.0049812 0.038276 -0.2618 0.31 0.028174 0.022047 0.0015847 0.0011167
0.0069548 -0.00063754 0.0039331 -0.0025224
-0.0095185 -0.0041058 0.028315 0.02207 0.066301 0.31668 0.0018001 -0.00010594
0.0012724 -0.00035992 0.00099325 -0.00084769
-0.0016749 0.0021704 0.0016084 0.0011191 0.001751 -3.3373e-05 -0.11585 0.25808
-0.011178 0.030768 0.0034996 -0.0062374
0.0012589 0.0020048 0.0068603 -0.00034833 0.0012335 -0.00039648 -0.011096 0.030836
-0.14797 0.14651 -0.0030073 0.027496
0.0025272 -0.0015765 0.0042045 -0.0027993 0.00098106 -0.00088053 0.0034677 -0.0062029
-0.0030705 0.027458 -0.20209 0.20102
980000000 -0.051029 0.29002 0.01758 0.030172 -0.0089972 0.0047864 0.0022684 0.0034846
0.0039899 -0.0013035 -0.0029455 -0.0021066
0.017506 0.030301 -0.20914 0.34385 0.033044 0.0048501 0.0021428 -4.1119e-05
0.0014398 -0.0056709 -0.00021162 -0.0023496
-0.0089318 0.0047837 0.033098 0.0047294 0.11258 0.30994 0.00053744 -0.001135
0.00030782 -0.0020098 0.0015593 -0.00023236
0.0023256 0.0035359 0.0019989 -0.00024973 0.00049394 -0.0011227 -0.077465 0.26984
0.0076816 0.030202 -0.0092502 -0.0072363
0.0038836 -0.0015606 0.0014531 -0.0059049 0.00022254 -0.0020668 0.0076892 0.03013
-0.1173 0.17612 0.0046366 0.019487
-0.0029379 -0.0020734 -0.00040073 -0.0024442 0.0015753 -9.2699e-05 -0.0092357 -0.0073075
0.0046596 0.019544 -0.15992 0.247
1040000000 -0.0086628 0.29889 0.03329 0.018344 -0.0010871 0.0069836 0.0027169 0.00058514
4.4732e-06 -0.0037451 -0.00030066 -0.0012667
0.0333 0.01837 -0.17327 0.3569 0.02943 -0.01482 0.0014514 -0.0017001
-0.0026042 -0.00244 -0.0013988 -0.002534
-0.00095236 0.0070472 0.029371 -0.014975 0.15865 0.29614 -0.00051399 -0.0015096
-0.0015757 -0.00089894 -0.00041493 -0.0010981
0.0026993 0.00055566 0.0014955 -0.0018074 -0.00052786 -0.0015369 -0.049753 0.28
0.019265 0.018168 -0.0022765 0.0017701
9.2525e-05 -0.0036447 -0.0025949 -0.0024668 -0.0016559 -0.00098535 0.019298 0.018108
-0.0852 0.18489 0.013212 0.018616
-0.00037562 -0.0012817 -0.0013863 -0.0027784 -0.00042634 -0.0011956 -0.0021997 0.0019355
0.013333 0.018834 -0.13825 0.26752
1100000000 0.036758 0.30634 0.036055 -0.003978 0.003078 0.0038554 0.0023919 -0.0014788
-0.0020481 -0.0031428 -0.0038911 -2.7112e-05
0.035986 -0.0040041 -0.12965 0.37423 0.015051 -0.027739 -4.9818e-05 -0.0018399
-0.0031483 -0.00064613 -0.0034286 -0.00050496
0.0030805 0.0038094 0.014982 -0.027849 0.20493 0.27573 -0.0018468 0.00025125
-0.0017345 0.00046482 -0.0010641 -0.00058002
0.0025134 -0.0014981 -7.5228e-05 -0.0017649 -0.0018456 0.00017577 -0.0090925 0.28505
0.024459 0.0051963 -0.0023997 0.00024141
-0.0021972 -0.0030878 -0.003159 -0.00064248 -0.0017452 0.00051125 0.024492 0.0051716
-0.067139 0.19928 0.018895 0.0089503
-0.0038472 -0.00013061 -0.0035007 -0.00045592 -0.0010497 -0.00060441 -0.0024429 0.00031436
0.018876 0.0089902 -0.092797 0.29777
1160000000 0.088189 0.30122 0.024191 -0.020699 0.0029268 -0.0007142 -0.00035166 -0.002504
-0.0042317 -0.00064353 -0.00084025 0.0041735
0.024166 -0.020688 -0.085873 0.37803 -0.0036708 -0.028953 -0.0016578 -0.0016081
-0.0025864 0.0024578 -0.0012759 0.0018679
0.0028958 -0.00067957 -0.0038437 -0.028979 0.24788 0.24494 -0.00064334 0.0016987
-0.0006251 0.001846 -0.00096746 0.00024141
-0.00029499 -0.0025262 -0.0016816 -0.0016974 -0.0005931 0.0017432 0.030548 0.28209
0.020815 -0.010167 -0.0028972 0.005269
-0.0042244 -0.00057035 -0.0025263 0.0024488 -0.00064824 0.0018415 0.020792 -0.010275
-0.033167 0.20939 0.018111 0.00076524
-0.00097039 0.0040953 -0.001225 0.0018411 -0.0010336 0.00022547 -0.0029071 0.0053782
0.018086 0.0008319 -0.045922 0.30072
1220000000 0.13242 0.28986 0.010567 -0.030038 -0.0014772 -0.0010398 -0.00012879 -0.00084938
-0.0026612 0.0024979 0.0013934 0.002053
0.010592 -0.029973 -0.041471 0.3898 -0.01677 -0.021057 -0.0025139 0.0005269
5.6458e-05 0.0028301 -0.00073479 0.0018522
-0.0014648 -0.0010575 -0.016862 -0.020997 0.28712 0.20601 0.00085221 0.0014975
0.00055745 0.0011058 0.00032494 0.00068858
-0.0002164 -0.00085813 -0.0024892 0.00048907 0.00080887 0.0015226 0.070324 0.27347
0.010301 -0.016722 0.0024442 0.0014255
-0.0027236 0.0025258 0.00010194 0.0028794 0.00057351 0.0011205 0.010292 -0.016718
-0.010279 0.21889 0.014449 -0.012514
0.0013458 0.0020145 -0.00075219 0.0018851 0.00020896 0.00070122 0.0023861 0.0014696
0.014389 -0.01249 -0.014803 0.31799
1280000000 0.18222 0.26765 -0.0076988 -0.028546 -0.0019252 0.0022542 -0.00094615 -0.0018806
-0.00071958 0.0030966 0.0024727 0.0011259
-0.0076558 -0.028574 0.0044568 0.38059 -0.023516 -0.0084358 -0.0009089 0.0014072
0.0015475 0.0016656 0.00061571 0.002069
-0.0019716 0.0022928 -0.023571 -0.0083135 0.3176 0.16214 0.0015003 -1.6337e-05
0.0010195 0.0003716 0.00042112 0.00043117
-0.0008996 -0.0018398 -0.00091074 0.0014046 0.0014834 -3.5886e-06 0.10715 0.257
0.0010646 -0.018532 0.0001281 -6.2814e-05
-0.00067289 0.0030518 0.0016146 0.0017099 0.0010314 0.00037989 0.0010261 -0.018571
0.026742 0.22304 0.0034181 -0.014588
0.0025509 0.001097 0.00053807 0.0020349 0.00047666 0.0003725 0.00021544 -9.7022e-05
0.0034321 -0.014591 0.033601 0.32066
1340000000 0.21902 0.2335 -0.017467 -0.019195 0.00072174 0.0042944 -0.0016595 -0.00069785
0.0015307 0.0026846 0.0017447 -0.0014141
-0.017441 -0.019195 0.043686 0.37205 -0.021419 0.0040971 -0.00012419 0.0019405
0.0017969 0.0008115 0.0013324 0.00082334
0.0007586 0.0042891 -0.021403 0.0041861 0.3398 0.11406 0.0010069 -0.00080174
0.00075705 -0.00035395 0.00026219 0.00030494
-0.001702 -0.00070119 -0.00012024 0.0019007 0.0010137 -0.00080501 0.13948 0.23661
-0.0080299 -0.015812 0.00097593 0.00021097
0.0015194 0.0026466 0.0018503 0.00083916 0.00074681 -0.00042767 -0.0080488 -0.015823
0.057245 0.21866 -0.0031676 -0.013316
0.0017323 -0.0014418 0.0013427 0.00077689 0.0002409 0.00032561 0.0010226 0.00023061
-0.0030956 -0.013226 0.071758 0.31646
1400000000 0.25167 0.19511 -0.023391 -0.0077723 0.0048821 0.0030696 -0.0019369 0.00058237
0.0024244 0.00078393 0.00032167 -0.0013906
-0.023382 -0.0077704 0.08065 0.35883 -0.014771 0.012127 0.0012536 0.0012817
0.0010736 -0.00072267 0.0012491 0.0002426
0.0049158 0.0030297 -0.014734 0.0122 0.35298 0.0603 0.00016297 -0.0014816
-2.0464e-05 -0.00034952 0.00052782 0.00022271
-0.001926 0.0006065 0.0012816 0.0012793 0.0001583 -0.0014732 0.16892 0.20819
-0.0136 -0.0094243 -0.00082609 -0.00073366
0.0024778 0.00077442 0.0011284 -0.0007049 3.5405e-05 -0.00038236 -0.013627 -0.0094116
0.090204 0.2145 -0.0094863 -0.0088674
0.000255 -0.0013772 0.0012321 0.00022709 0.00040964 0.00017006 -0.00083144 -0.00071295
-0.0094711 -0.0088508 0.11731 0.30569
1460000000 0.27382 0.15105 -0.020604 0.0044791 0.0053683 -0.0016888 -0.0015544 0.0016054
0.002064 -0.00062022 -0.0003863 -0.0010147
-0.020551 0.0043932 0.11448 0.33703 -0.0062391 0.014995 0.0017128 0.00023416
0.00094818 -0.0011919 0.0011568 -0.00063962
0.0053719 -0.001779 -0.0062046 0.015062 0.3588 0.0057689 -0.0011409 -0.0012254
0.00021987 -0.00032937 0.00057493 -0.00029939
-0.0015603 0.0016061 0.0017257 0.00021273 -0.0011228 -0.0012124 0.19533 0.17932
-0.014782 -0.0030694 -0.0010443 0.0018115
0.0020448 -0.00059042 0.0009066 -0.0012115 0.00026282 -0.00029346 -0.014809 -0.0030506
0.11943 0.19996 -0.011489 -0.003095
-0.00034828 -0.0010565 0.0012084 -0.0006513 0.00058702 -0.00037045 -0.0010324 0.001861
-0.01148 -0.0031 0.15051 0.28515
1520000000 0.28573 0.10943 -0.015062 0.010184 0.0031742 -0.0039432 2.4251e-05 0.002523
0.0019441 -0.0017589 -0.0011085 -6.5495e-05
-0.015061 0.010177 0.14783 0.32233 0.0012309 0.012993 0.0016506 -0.00074755
0.00011292 -0.0010176 0.00032917 -0.0010626
0.0032093 -0.0039981 0.0013031 0.012998 0.35182 -0.050669 -0.00095439 -0.00039363
0.00065065 -0.00083765 6.3292e-06 -0.00012949
7.1789e-05 0.0025885 0.0016572 -0.00072692 -0.00097696 -0.00040036 0.21882 0.14175
-0.014332 0.002257 0.0011951 0.0019865
0.0019836 -0.0017241 0.0001096 -0.0010286 0.00063441 -0.0008917 -0.014342 0.0022985
0.14717 0.18616 -0.011468 0.001214
-0.0011439 -0.00015516 0.00033203 -0.0010393 -5.8913e-05 -0.00012537 0.0012093 0.0019953
-0.011497 0.0012165 0.18416 0.26502
1580000000 0.29479 0.063519 -0.0084059 0.013478 -0.00088942 -0.0046246 0.0012853 0.0018537
-0.00042433 -0.0020475 -0.00037873 0.00043947
-0.0084185 0.013439 0.17491 0.29775 0.0048518 0.0083412 0.00051147 -0.0015885
-0.00054723 -0.0010995 -0.00032353 -0.00079008
-0.00093766 -0.0046517 0.0048966 0.0083526 0.33115 -0.10796 -0.0016181 0.00048145
-0.00033755 -0.0010832 9.6098e-05 -0.00043991
0.0012993 0.0018715 0.00049424 -0.0015934 -0.0015664 0.00048204 0.23311 0.10265
-0.011113 0.0070166 0.0021165 0.00092835
-0.00041896 -0.0020356 -0.00055253 -0.0011233 -0.00033743 -0.0010954 -0.011141 0.0070384
0.1716 0.16873 -0.0092547 0.0070579
-0.00041354 0.00043602 -0.00029148 -0.00075763 7.2097e-05 -0.00042171 0.0021229 0.0009109
-0.0092193 0.007067 0.2169 0.2383
1640000000 0.29679 0.022471 -0.0015886 0.01256 -0.0025513 -0.0024632 0.0027104 0.0010813
-0.00065369 -0.0014113 -0.00019719 0.00058769
-0.001585 0.012567 0.20439 0.27288 0.0057569 0.0036957 -0.00064073 -0.001731
-0.0010482 -0.00044084 -0.0005122 -0.00065398
-0.0025174 -0.0024564 0.0057921 0.0036617 0.30274 -0.1571 -0.00070727 0.0014282
-0.0010424 -0.0010035 -0.00011064 -0.00050049
0.0026882 0.0010972 -0.00064442 -0.001751 -0.00068698 0.0014341 0.24592 0.053765
-0.0071162 0.0082555 0.0023854 -0.00065423
-0.00064822 -0.0013855 -0.0010212 -0.00043658 -0.0010518 -0.00099571 -0.0070397 0.0082769
0.19422 0.14472 -0.0047646 0.0090207
-0.00016044 0.00054737 -0.00053241 -0.00068407 -0.00013313 -0.00047135 0.0023814 -0.00064542
-0.004735 0.0090216 0.2425 0.20727
1700000000 0.28946 -0.022626 0.0019755 0.0097744 -0.003261 6.7067e-05 0.002981 -0.0010936
-0.0019656 -0.00062081 0.00069043 0.00040828
0.0019499 0.0097502 0.22249 0.2414 0.003905 0.00088017 -0.0014952 -0.00057883
-0.00086519 7.0812e-05 -0.00090253 -0.00036865
-0.0032694 0.0001187 0.0039069 0.00087675 0.25944 -0.19662 0.0003855 0.0016864
-0.0019064 -0.00019843 -0.00047001 -0.00080843
0.0029774 -0.0011639 -0.0014933 -0.00055466 0.00043319 0.001699 0.24301 0.0040462
-0.0046019 0.0089284 0.0014161 -0.0021154
-0.0019924 -0.00062539 -0.00086132 7.9444e-05 -0.0018739 -0.00012624 -0.0045844 0.0089468
0.2118 0.125 -3.9159e-05 0.0093524
0.00061058 0.00052272 -0.00091278 -0.00036941 -0.00047988 -0.00081876 0.0014326 -0.0020908
-5.2313e-05 0.009362 0.25906 0.17282
1760000000 0.27735 -0.071146 0.0044128 0.0065171 -0.0021684 0.00086831 0.0013961 -0.0033182
-0.0012023 0.00072762 0.0004504 -0.00064909
0.0044167 0.0065173 0.24835 0.20158 0.0017027 -0.00093254 -0.0012028 0.00023677
-0.0010121 0.00098306 -0.00050007 0.00045649
-0.0021829 0.0008878 0.0017206 -0.00092203 0.21046 -0.22972 0.0011529 0.0011808
-0.0011411 0.0014641 -0.001342 -0.00053579
0.0013746 -0.0032698 -0.0012097 0.00024778 0.0011205 0.001112 0.23414 -0.047539
-0.0013041 0.0082911 -0.00023991 -0.0024137
-0.0012333 0.00080269 -0.0010335 0.00097012 -0.0010955 0.0014372 -0.001314 0.0082945
0.22693 0.090243 0.0037986 0.0069136
0.00047648 -0.000736 -0.00052022 0.00046722 -0.0013137 -0.00054842 -0.00020059 -0.0024217
0.0037999 0.0069013 0.27189 0.13523
1820000000 0.25267 -0.10842 0.0047568 0.0028831 -5.63e-06 0.0023948 -0.00086359 -0.0030782
-0.0010293 0.00086206 -6.5986e-05 -0.0001457
0.0047246 0.0028615 0.25828 0.17155 -0.0001829 8.4418e-05 -0.0012485 0.0009636
3.3346e-05 0.0013684 -0.00043453 0.00050402
3.7545e-05 0.0024121 -0.0001757 0.00011213 0.16024 -0.24537 0.0016257 0.00041156
-0.00023375 0.0023059 -0.0012424 0.00037149
-0.00093068 -0.0031091 -0.0012761 0.00094575 0.0016038 0.00038894 0.20428 -0.094849
4.3833e-05 0.0067446 -0.0015418 -0.0014721
-0.0010036 0.00084002 3.1846e-05 0.0013636 -0.00026503 0.0022732 0.00012166 0.0067827
0.24432 0.061177 0.0047044 0.0034655
-3.5026e-05 -0.00012637 -0.00044774 0.00051544 -0.0012526 0.00038741 -0.0015821 -0.0013839
0.0047267 0.0034496 0.27434 0.099246
1880000000 0.21747 -0.14871 0.0026431 0.0004856 -0.00040577 0.0019293 -0.0029027 -0.0021631
-0.0002033 0.0016386 0.00022761 -0.00056905
0.0026486 0.00049401 0.26266 0.12511 -0.0021153 0.0017029 -0.00012677 0.0017012
0.00068617 0.0011882 0.00014404 0.00083727
-0.0003386 0.0019234 -0.0021031 0.001716 0.10822 -0.25481 0.0018504 -0.0010618
0.0015821 0.0019742 -0.00099211 0.001275
-0.0028911 -0.0022047 -0.00012907 0.0016553 0.0018136 -0.00098672 0.16369 -0.13502
0.00082643 0.0049813 -0.0023679 0.00049156
-0.00016874 0.0016756 0.00071043 0.0011628 0.001537 0.0019647 0.00076488 0.0049053
0.24736 0.028678 0.0047774 0.0013295
0.00021086 -0.00057272 0.00015843 0.00083369 -0.0010074 0.0012466 -0.0022954 0.0005097
0.0047221 0.001305 0.27416 0.064993
1940000000 0.17803 -0.1743 0.00045574 -0.0013068 0.0012127 0.001789 -0.0037523 0.00042415
0.0013116 0.00089157 -0.00065755 -0.00056324
0.00047553 -0.0013058 0.26318 0.093343 -0.00099403 0.003809 0.0010566 0.0013443
0.0019057 0.00036804 0.00080754 0.00018566
0.0012346 0.0017717 -0.00091667 0.0038554 0.062344 -0.2479 0.00028223 -0.0022232
0.002442 0.00040114 0.00023491 0.001571
-0.0038796 0.00038961 0.0010911 0.0013039 0.0003407 -0.0023136 0.11163 -0.16533
-7.1597e-05 0.003822 -0.0013294 0.0014781
0.0013178 0.00087766 0.0019492 0.00039642 0.0024458 0.00040036 -9.0066e-05 0.0038889
0.24929 -0.010268 0.0036604 -0.0019494
-0.00066961 -0.00053086 0.00078883 0.00013207 0.00019938 0.0016612 -0.0013573 0.0015062
0.0036095 -0.0019924 0.26341 0.029105
2000000000 0.13165 -0.18903 -0.0033977 0.00042068 0.0023415 0.0015509 -0.0024616 0.0034402
0.0011072 6.4793e-05 -0.00075879 0.00043587
-0.0033184 0.00045997 0.24895 0.0579 -0.00083811 0.0055339 0.0016094 0.00029428
0.0013137 -0.0014827 0.00035236 7.7338e-05
0.0024032 0.0015202 -0.00079585 0.0056088 0.019028 -0.23338 -0.0014182 -0.0012972
0.0019225 -0.0012333 0.001562 0.001225
-0.0024188 0.0035102 0.0016188 0.00039008 -0.0013273 -0.0012006 0.057993 -0.17537
-0.0015993 0.003737 -9.0085e-06 0.0022272
0.0010213 0.00014308 0.0012335 -0.0014529 0.0018928 -0.0011494 -0.0015567 0.0037539
0.2431 -0.044241 0.00025705 -0.002601
