!Keysight Technologies,M9804A,MY58100912,A.14.10.03
!Date: Thursday, April 27, 2023 10:28:33
!Correction: S11(C  6-Port  ) 
!S12(C  6-Port  ) 
!S13(C  6-Port  ) 
!S14(C  6-Port  ) 
!S15(C  6-Port  ) 
!S16(C  6-Port  ) 
!S21(C  6-Port  ) 
!S22(C  6-Port  ) 
!S23(C  6-Port  ) 
!S24(C  6-Port  ) 
!S25(C  6-Port  ) 
!S26(C  6-Port  ) 
!S31(C  6-Port  ) 
!S32(C  6-Port  ) 
!S33(C  6-Port  ) 
!S34(C  6-Port  ) 
!S35(C  6-Port  ) 
!S36(C  6-Port  ) 
!S41(C  6-Port  ) 
!S42(C  6-Port  ) 
!S43(C  6-Port  ) 
!S44(C  6-Port  ) 
!S45(C  6-Port  ) 
!S46(C  6-Port  ) 
!S51(C  6-Port  ) 
!S52(C  6-Port  ) 
!S53(C  6-Port  ) 
!S54(C  6-Port  ) 
!S55(C  6-Port  ) 
!S56(C  6-Port  ) 
!S61(C  6-Port  ) 
!S62(C  6-Port  ) 
!S63(C  6-Port  ) 
!S64(C  6-Port  ) 
!S65(C  6-Port  ) 
!S66(C  6-Port  ) 
!S6P File: Measurement: :
# Hz S  RI   R 50
500000000 -0.33678 -0.039005 -0.0098007 -0.0021151 -0.0076523 0.01236 -0.00399 0.012134
0.012764 0.0047132 -0.0045562 0.0087393
-0.0093922 -0.0022927 -0.41881 -0.051779 0.0080609 -0.010948 0.0016515 0.011945
0.0074265 0.0026782 0.0019068 0.013548
-0.0075864 0.012391 0.0081476 -0.011038 -0.26481 0.20889 0.007825 0.0032656
-0.0017416 0.0077502 0.0018269 0.011664
-0.0039841 0.012253 0.0017499 0.011997 0.0078328 0.0032779 -0.33047 0.043924
-0.017842 -0.0065605 0.01553 0.025905
0.012693 0.0045687 0.0073391 0.0026698 -0.0017365 0.0077696 -0.01786 -0.006531
-0.22391 -0.19369 -0.02474 0.0049799
-0.0044605 0.0088285 0.0017123 0.013679 0.0020081 0.011786 0.015452 0.025603
-0.024894 0.0047423 -0.26818 -0.13084
560000000 -0.31612 0.12345 -0.023751 -0.064246 0.00044438 0.011873 0.0056095 0.010479
0.0099028 0.0042108 0.010816 0.0073664
-0.023743 -0.06405 -0.37823 0.10799 -0.040968 -0.037979 0.013133 0.0035042
-0.012465 -0.0042021 0.0031401 0.00011159
0.00063901 0.011733 -0.041365 -0.038022 -0.18301 0.25709 -0.00026692 -0.0045996
0.019167 0.004876 0.0068492 -0.0065242
0.0052073 0.010394 0.013223 0.0034532 -0.00024942 -0.0046361 -0.30575 0.13243
0.0053533 -0.023739 0.0039807 -0.021734
0.01001 0.0041575 -0.012788 -0.0042515 0.019088 0.0048766 0.0052457 -0.023642
-0.28974 -0.020549 0.0084548 -0.048866
0.010773 0.0073865 0.0031304 -6.0883e-05 0.0069562 -0.0065395 0.003994 -0.021798
0.0084739 -0.048875 -0.32897 0.017724
620000000 -0.27491 0.10704 -0.023176 0.0076213 0.00296 0.0085488 0.0078444 -0.005395
0.011 -0.0003179 0.0019527 -0.0024586
-0.023195 0.0076767 -0.40236 0.059564 -0.0188 -0.00023156 -0.0014281 -0.0021447
0.011429 -0.006731 0.0013789 -0.0033532
0.0028581 0.0085186 -0.018928 -7.2785e-05 -0.15408 0.2659 -0.0016838 -0.0052759
-0.0031061 -0.0027175 0.008389 -0.0039119
0.0080578 -0.0055311 -0.0015011 -0.0021598 -0.0016446 -0.0052449 -0.26518 0.14381
-0.037695 -0.019656 0.012196 0.026074
0.010818 -0.00042328 0.011502 -0.0067621 -0.0030885 -0.0027412 -0.037731 -0.019709
-0.20818 -0.058389 -0.041364 0.013533
0.0017175 -0.0025858 0.0014195 -0.0033618 0.0082479 -0.0036207 0.012003 0.026011
-0.041255 0.01338 -0.25029 -0.019124
680000000 -0.23437 0.19179 -0.027386 -0.014554 0.0050758 0.0052989 0.0012158 -0.0071273
-0.0035237 -0.011213 0.0046118 -0.0065224
-0.027326 -0.014535 -0.38759 0.157 -0.033108 -0.0013879 -0.0017358 -0.00056556
-0.0021434 -0.0087528 -0.0016996 -0.0017804
0.0050957 0.0053013 -0.033159 -0.0013368 -0.10286 0.28589 -0.00071302 4.3173e-05
-0.001688 0.00080467 -0.0032037 -0.0091746
0.0012461 -0.0071342 -0.0018133 -0.0005745 -0.00073272 4.7773e-05 -0.22046 0.19322
-0.023911 -0.0082428 -0.010024 -0.010373
-0.003361 -0.011219 -0.0023468 -0.0087237 -0.0017091 0.00082077 -0.023933 -0.0081991
-0.25867 0.040026 -0.0050595 -0.0085269
0.0044543 -0.0067207 -0.0015661 -0.0017314 -0.0031296 -0.0092779 -0.01017 -0.010646
-0.0052565 -0.0084206 -0.26094 0.086697
740000000 -0.19029 0.18691 -0.03873 0.026553 0.012738 -0.0049634 -0.00023054 -0.004159
-0.0045965 -0.0027465 -0.0057757 0.0025775
-0.038706 0.026541 -0.33518 0.17628 -0.035618 0.035434 -0.00058928 -0.0061596
-0.011591 0.0080048 -0.0018518 -0.0061223
0.012742 -0.0050099 -0.035649 0.035599 -0.06936 0.28442 -0.0020051 0.0033056
-0.0019237 -0.0044819 -0.0017897 -0.0001132
-0.00024971 -0.0042116 -0.00064428 -0.0061748 -0.0020282 0.0032987 -0.20407 0.20121
-0.043791 -0.0073393 0.022564 0.014698
-0.0043999 -0.0027133 -0.011543 0.0081541 -0.0020014 -0.0044573 -0.043795 -0.0073496
-0.16003 0.06624 -0.043244 0.00022107
-0.0058129 0.0027801 -0.0019008 -0.0060982 -0.001625 -0.00023959 0.022631 0.014615
-0.043075 8.4292e-05 -0.24917 0.092689
800000000 -0.15768 0.22725 -0.02268 0.016681 0.0054486 -0.010721 -0.0048497 -0.0019075
-0.0039116 0.0025165 0.004745 0.00066189
-0.022651 0.016758 -0.33831 0.24633 -0.00792 0.034235 -0.0023468 0.0022213
-0.00028824 0.003236 0.001116 0.0052912
0.0054005 -0.010712 -0.0077866 0.03429 -0.028505 0.30806 0.0010996 0.0014014
0.00051726 0.0034188 -0.0015856 0.00087228
-0.0048634 -0.0018925 -0.0023237 0.0022479 0.0011154 0.0013862 -0.17585 0.2293
-0.028997 0.013704 0.013432 -0.0099942
-0.0041228 0.0025943 -0.00018925 0.0032139 0.00046816 0.0033983 -0.028987 0.013737
-0.20744 0.08986 -0.017682 0.018907
0.0046066 0.00067435 0.0011243 0.0052735 -0.0016029 0.00089712 0.013403 -0.0099881
-0.017712 0.018797 -0.24369 0.14272
860000000 -0.12333 0.24783 -0.017663 0.030764 -0.0034248 -0.010079 -0.0025564 0.00093481
0.0042714 0.0049332 -0.0031029 -0.0028765
-0.017671 0.030687 -0.29102 0.28846 0.0079651 0.034485 -8.4363e-05 0.0019641
0.0043769 4.9044e-05 0.0033442 0.00099051
-0.0034417 -0.010065 0.0081128 0.034456 0.019691 0.31622 -0.00061777 -0.0004325
0.0027897 -0.0017092 0.0014693 0.0045143
-0.0024887 0.00083869 -4.3229e-05 0.001873 -0.00062296 -0.00043772 -0.13986 0.2406
-0.018311 0.018769 -0.0058893 -0.0092393
0.0043224 0.0048688 0.0044505 0.00011707 0.0028395 -0.0017434 -0.018243 0.018815
-0.15661 0.14084 -0.02645 0.015711
-0.0032052 -0.0027002 0.0032327 0.00096922 0.0014032 0.0045266 -0.0059566 -0.0092601
-0.026459 0.015796 -0.19244 0.18887
920000000 -0.098376 0.27105 0.0050908 0.038185 -0.0095833 -0.0044262 -0.0018095 0.0021273
0.00090929 0.0020537 0.002771 -0.0016173
0.0050525 0.038175 -0.26189 0.31012 0.028298 0.022094 0.0014481 0.0011624
0.0067934 -0.00070082 0.003971 -0.0026687
-0.0096037 -0.0044026 0.028381 0.022013 0.066258 0.31684 0.0017601 -6.2518e-05
0.0011446 -0.00039174 0.00099681 -0.00094369
-0.0017833 0.0021305 0.0014576 0.0011598 0.0017566 -4.5755e-05 -0.11592 0.25814
-0.010882 0.030871 0.0033895 -0.006534
0.00091807 0.0019833 0.0068179 -0.00076583 0.0011559 -0.00039661 -0.010835 0.030883
-0.14688 0.14793 -0.0029078 0.027565
0.0026734 -0.0015278 0.0039427 -0.0027044 0.0009093 -0.00098538 0.0034193 -0.0066318
-0.0029281 0.027462 -0.20067 0.20236
980000000 -0.050809 0.29037 0.017726 0.030282 -0.0090934 0.0047962 0.0022049 0.0035459
0.003967 -0.0014499 -0.0031929 -0.0021234
0.017679 0.030299 -0.20902 0.34402 0.033304 0.0047726 0.0020685 -0.00012092
0.0012494 -0.0057914 -0.00034053 -0.0024123
-0.0090777 0.0048229 0.033378 0.0046436 0.11271 0.31018 0.0004834 -0.0011189
0.00019605 -0.0021247 0.0014662 -0.00020882
0.0022348 0.0035988 0.0021052 -3.4605e-05 0.00047541 -0.0010992 -0.077423 0.26986
0.0080417 0.030248 -0.0092691 -0.0072512
0.0039541 -0.0014701 0.0012527 -0.0058029 0.00018753 -0.0021061 0.0080699 0.030243
-0.11607 0.17708 0.005086 0.019726
-0.003155 -0.0022043 -0.00030471 -0.0025471 0.0014931 -0.00024686 -0.0092467 -0.0071774
0.0050604 0.019654 -0.15887 0.24788
1040000000 -0.0085574 0.29879 0.03343 0.01823 -0.0011365 0.0070798 0.002671 0.00059307
-1.0363e-05 -0.0037871 -0.00032758 -0.001321
0.033306 0.018265 -0.17323 0.35704 0.029511 -0.015038 0.0014178 -0.0017597
-0.0026343 -0.0024421 -0.0014285 -0.0025787
-0.0011366 0.0070785 0.029505 -0.015182 0.15889 0.29646 -0.00052481 -0.0015016
-0.001646 -0.00076928 -0.00036835 -0.0011101
0.0026572 0.00061605 0.001423 -0.00179 -0.00052898 -0.0014986 -0.049724 0.28012
0.019628 0.018123 -0.0024163 0.0016819
-5.5959e-05 -0.0037766 -0.0027245 -0.0024509 -0.0016642 -0.00083523 0.019713 0.018066
-0.084071 0.1855 0.013348 0.018545
-0.00023506 -0.0013382 -0.0014938 -0.0025437 -0.0003408 -0.0011722 -0.0023936 0.0017203
0.013474 0.018539 -0.13702 0.26824
1100000000 0.037004 0.3065 0.036084 -0.0042078 0.0030677 0.0039025 0.0023504 -0.0014675
-0.002075 -0.0031512 -0.0038326 3.5924e-05
0.036046 -0.004173 -0.1297 0.37443 0.015063 -0.028062 -8.6575e-05 -0.001848
-0.0032527 -0.0005592 -0.003394 -0.00050344
0.0030637 0.0038722 0.01496 -0.028163 0.20542 0.27589 -0.001774 0.00029367
-0.0017379 0.0005582 -0.0010707 -0.00051896
0.002339 -0.0014907 -0.00010653 -0.0018408 -0.0017731 0.00029573 -0.0089347 0.28517
0.024836 0.0047995 -0.0025069 0.00022002
-0.0020922 -0.0031366 -0.0032857 -0.00052582 -0.0017306 0.00057001 0.024854 0.0047729
-0.066219 0.19964 0.019095 0.0087505
-0.0038481 8.0642e-05 -0.0033713 -0.00045157 -0.0010602 -0.00053047 -0.0025465 0.00021231
0.019034 0.0087797 -0.091446 0.29858
1160000000 0.088365 0.30119 0.024141 -0.020998 0.002841 -0.00060784 -0.0002915 -0.0024904
-0.0042295 -0.00069856 -0.0009456 0.0041656
0.024119 -0.020943 -0.085641 0.37847 -0.0039558 -0.029165 -0.0017711 -0.0016237
-0.0025504 0.0025274 -0.0012306 0.0018708
0.0028567 -0.00062128 -0.0040577 -0.029191 0.24852 0.24471 -0.00062344 0.0017436
-0.0005666 0.0019018 -0.0010103 0.00028423
-0.00032157 -0.0024817 -0.0017402 -0.0016367 -0.00062533 0.0017409 0.030783 0.28241
0.021091 -0.010609 -0.0028936 0.0052816
-0.0042286 -0.00069483 -0.0025236 0.0024955 -0.00051828 0.001907 0.02109 -0.010654
-0.032406 0.20985 0.018241 0.00044218
-0.00095998 0.0041611 -0.0012639 0.0018072 -0.00098783 0.00023408 -0.0028922 0.0052942
0.018179 0.00051491 -0.044524 0.30167
1220000000 0.13275 0.28982 0.010415 -0.030258 -0.0014793 -0.00096397 -0.00013186 -0.00091051
-0.0026183 0.0025363 0.0014363 0.002023
0.010405 -0.030192 -0.041115 0.39029 -0.017059 -0.02109 -0.002505 0.00049032
0.00014702 0.0028931 -0.00070993 0.001854
-0.0015038 -0.00098348 -0.017159 -0.021031 0.28757 0.20552 0.00088538 0.0015094
0.00063864 0.0011126 0.00031915 0.00068433
-0.00013555 -0.00090226 -0.0025007 0.00050497 0.00088546 0.0015187 0.070799 0.27359
0.010152 -0.017352 0.0023128 0.0014559
-0.0026102 0.0025462 0.00016783 0.002901 0.00062831 0.0011283 0.010129 -0.017374
-0.0094535 0.21939 0.014288 -0.012843
0.0014207 0.0020392 -0.00070162 0.001866 0.00031777 0.0006884 0.0023137 0.0014462
0.014262 -0.012828 -0.013217 0.31853
1280000000 0.18247 0.26756 -0.008038 -0.028606 -0.0019227 0.0023059 -0.0009313 -0.0018855
-0.00074869 0.0030646 0.0024323 0.0010976
-0.0080246 -0.02859 0.0050723 0.38087 -0.023832 -0.0082641 -0.00085532 0.0014325
0.0016736 0.0016537 0.00063513 0.0020644
-0.0019207 0.0023278 -0.023921 -0.0081461 0.31775 0.16137 0.0015322 -0.00010948
0.0010897 0.00029529 0.00044276 0.00039041
-0.00093904 -0.0018769 -0.00085388 0.0014533 0.0015249 -0.00010275 0.10763 0.25687
0.00060088 -0.019038 9.5335e-05 -1.9313e-05
-0.00071819 0.0030646 0.0016584 0.001636 0.0010854 0.00031477 0.0005713 -0.01905
0.027636 0.22361 0.0032233 -0.014926
0.0024459 0.0010813 0.00066736 0.0020884 0.00043594 0.00037776 0.00011188 1.0563e-05
0.0032566 -0.014892 0.03523 0.32092
1340000000 0.21938 0.23336 -0.017769 -0.019009 0.00078193 0.0043713 -0.0017103 -0.00072594
0.0015239 0.0026589 0.0016932 -0.0014169
-0.017732 -0.019011 0.044351 0.3721 -0.021479 0.0044048 -6.4513e-05 0.001906
0.0018593 0.00073559 0.0013173 0.00078992
0.00082715 0.0043763 -0.021503 0.0045005 0.33952 0.11336 0.0010221 -0.00086881
0.00071315 -0.00040529 0.00023908 0.00037658
-0.0017051 -0.00072242 -6.1169e-05 0.0018966 0.0010119 -0.00086606 0.13983 0.23642
-0.0087481 -0.015984 0.00097147 0.00034503
0.0015395 0.0026729 0.0018434 0.0007375 0.00068504 -0.0004405 -0.0087601 -0.015968
0.058258 0.21925 -0.0035045 -0.01341
0.0017056 -0.001431 0.001321 0.00078295 0.00023251 0.00037395 0.00096028 0.00034587
-0.0034655 -0.013411 0.073474 0.31652
1400000000 0.25208 0.19481 -0.023534 -0.0074567 0.0049985 0.0030804 -0.0019788 0.0006414
0.0024199 0.00083835 0.00030989 -0.0013283
-0.02349 -0.00747 0.081396 0.35863 -0.014687 0.012408 0.0012525 0.0012338
0.0010339 -0.00078313 0.001207 0.00018792
0.0050074 0.0030342 -0.014659 0.012504 0.35248 0.060043 9.9672e-05 -0.0015095
-1.3719e-05 -0.00042399 0.00050097 0.00029124
-0.0019408 0.00064903 0.0012658 0.0012349 9.5954e-05 -0.0015058 0.16922 0.20778
-0.014351 -0.0091732 -0.00077077 -0.00060188
0.0024402 0.00081942 0.0010311 -0.00078549 -2.217e-05 -0.00040465 -0.014375 -0.0091307
0.091482 0.21488 -0.0099178 -0.0087592
0.00029956 -0.0013183 0.001207 0.00019287 0.00052147 0.00030935 -0.00076655 -0.0005893
-0.0099121 -0.0087664 0.11887 0.30539
1460000000 0.27416 0.15054 -0.020566 0.0047325 0.0054972 -0.001814 -0.0015431 0.0016929
0.0021106 -0.00064772 -0.00036261 -0.00095542
-0.020543 0.004703 0.11502 0.33649 -0.0060062 0.015156 0.0016511 0.00020373
0.00084397 -0.0011924 0.0011348 -0.00064638
0.0054631 -0.0017943 -0.0059356 0.015216 0.35827 0.0057326 -0.0012256 -0.0011784
0.00016721 -0.00030172 0.0006221 -0.00027517
-0.0015555 0.0016838 0.0016428 0.00020218 -0.0012103 -0.0011824 0.19541 0.17881
-0.01525 -0.0024184 -0.00093258 0.001857
0.0020964 -0.00064542 0.00083969 -0.0012063 0.00016305 -0.00029842 -0.01526 -0.0023886
0.12091 0.20015 -0.011776 -0.0027935
-0.00038734 -0.00096588 0.0011311 -0.00064325 0.00061688 -0.00030319 -0.00091471 0.0018662
-0.011755 -0.0028314 0.15197 0.28461
1520000000 0.28579 0.10899 -0.014849 0.010422 0.0031826 -0.0040327 8.3825e-05 0.002556
0.0019859 -0.00177 -0.0010837 -6.3691e-05
-0.014861 0.010402 0.14814 0.32176 0.0015331 0.012938 0.0016102 -0.00070616
2.6189e-05 -0.00098568 0.00031242 -0.0010402
0.0031395 -0.0040808 0.0015927 0.012938 0.35153 -0.050381 -0.00098124 -0.00029327
0.00061422 -0.00082404 2.9753e-06 -0.00014035
0.00011403 0.0025678 0.0016085 -0.00072216 -0.00098986 -0.00029177 0.2187 0.14126
-0.014291 0.0030749 0.0013117 0.0019829
0.0019816 -0.0017479 1.0561e-05 -0.0009863 0.00060185 -0.00084573 -0.014299 0.0030984
0.14884 0.18605 -0.011573 0.0016448
-0.0010866 -3.4654e-05 0.00030859 -0.0010525 2.1763e-06 -0.0001457 0.00132 0.0019821
-0.011563 0.0016246 0.18547 0.26422
1580000000 0.29472 0.063155 -0.0081277 0.013578 -0.00096584 -0.0047253 0.001344 0.0018595
-0.00040846 -0.0020737 -0.00031401 0.00039646
-0.0081411 0.013564 0.17501 0.29708 0.0050179 0.00817 0.0004875 -0.0015389
-0.00052335 -0.00099656 -0.00028358 -0.00076103
-0.0010099 -0.0047601 0.0050903 0.008158 0.33112 -0.1078 -0.0015245 0.00054894
-0.00030867 -0.0010194 0.00017003 -0.00052011
0.0013599 0.0018399 0.00048627 -0.0015402 -0.0015242 0.00054409 0.23283 0.10219
-0.010619 0.0076466 0.0021783 0.00086991
-0.00039638 -0.0020946 -0.00054974 -0.00098223 -0.00032362 -0.0010093 -0.010604 0.0076911
0.1732 0.16815 -0.009116 0.0074238
-0.00031978 0.00041212 -0.00029124 -0.00077154 0.00017707 -0.00049318 0.0021881 0.00086147
-0.0091042 0.0074385 0.21797 0.23739
1640000000 0.29653 0.022205 -0.0012806 0.01247 -0.0026057 -0.0024521 0.0027101 0.00098704
-0.00065067 -0.0014014 -0.00017969 0.00052411
-0.0012888 0.012457 0.20422 0.27234 0.0057668 0.0035088 -0.00063639 -0.0017097
-0.00095538 -0.00036932 -0.00047721 -0.00065126
-0.0026117 -0.0023912 0.0057881 0.0034677 0.30284 -0.15697 -0.00066518 0.0013663
-0.0010821 -0.0010049 -8.8872e-05 -0.00050053
0.0027175 0.00099245 -0.00063862 -0.0017011 -0.00065436 0.0013594 0.24536 0.053573
-0.0063654 0.0084299 0.0023985 -0.00071061
-0.00067141 -0.0013892 -0.00096593 -0.0003672 -0.0010779 -0.0010103 -0.0063423 0.0084647
0.19574 0.14375 -0.0045203 0.0092748
-0.0001995 0.00054112 -0.00048666 -0.00064103 -8.4849e-05 -0.00050583 0.0023998 -0.00072494
-0.0045278 0.0092844 0.2433 0.20639
1700000000 0.28925 -0.022852 0.0021698 0.0095366 -0.0032852 0.00015373 0.0029738 -0.001175
-0.0019641 -0.00063563 0.00069303 0.00042851
0.0021593 0.0095582 0.22217 0.24109 0.0037733 0.0007256 -0.0014433 -0.00058631
-0.00072891 5.6984e-05 -0.00090411 -0.00037742
-0.0033048 0.00017131 0.0037683 0.00072504 0.25948 -0.1966 0.0003811 0.0016756
-0.0018313 -0.00017566 -0.00052017 -0.00080845
0.0029816 -0.0011806 -0.0014458 -0.00057371 0.00037642 0.0016652 0.24258 0.0041294
-0.0039726 0.0087126 0.0014305 -0.002147
-0.0019604 -0.00059599 -0.00073491 5.9912e-05 -0.0018366 -0.00017086 -0.0039558 0.0087122
0.21292 0.12358 0.00023309 0.0094498
0.00067289 0.00042741 -0.00091407 -0.00037437 -0.00054836 -0.00080975 0.0014461 -0.0021438
0.00023669 0.0094434 0.25979 0.17186
1760000000 0.27697 -0.07119 0.0044422 0.0062257 -0.0020835 0.0009265 0.001351 -0.003337
-0.0012332 0.00078435 0.00042509 -0.00067001
0.0044399 0.0062037 0.24802 0.20145 0.0015951 -0.0009043 -0.0011807 0.00016457
-0.00097235 0.00084569 -0.00052324 0.00039315
-0.0021151 0.00094223 0.0016259 -0.00091236 0.21031 -0.22958 0.0012038 0.0011206
-0.0010945 0.0013856 -0.0013796 -0.00052034
0.0012905 -0.0033204 -0.0011815 0.00017193 0.0012103 0.0011226 0.23372 -0.047225
-0.0010099 0.0078351 -0.00023517 -0.0024344
-0.0012771 0.00075956 -0.00094763 0.00087132 -0.0010694 0.0014039 -0.00099617 0.007843
0.22752 0.08862 0.004071 0.0068769
0.0004261 -0.00068401 -0.00052685 0.00041324 -0.0013519 -0.00051997 -0.00025413 -0.0024386
0.0040672 0.0068816 0.27248 0.1342
1820000000 0.25256 -0.10829 0.0045984 0.0026945 -7.3564e-05 0.0023233 -0.00095204 -0.0030228
-0.001012 0.00085695 -9.2347e-05 -0.00010709
0.0045639 0.0027005 0.258 0.17165 -0.00017878 4.4815e-05 -0.0013071 0.0009366
-3.8977e-05 0.0012312 -0.00046524 0.00050616
-2.1003e-05 0.0023184 -0.00019635 2.5213e-05 0.16072 -0.24547 0.0014375 0.00044406
-0.00028224 0.0021811 -0.0012764 0.0003569
-0.00095207 -0.002995 -0.0012986 0.00094208 0.0014354 0.00044976 0.20417 -0.094249
5.4503e-05 0.0062908 -0.0015578 -0.0015394
-0.00098684 0.00088662 -4.0521e-05 0.0012496 -0.00027929 0.0021771 8.1771e-05 0.0063095
0.24449 0.059788 0.0049206 0.0033341
-0.00011886 -0.00011387 -0.00047361 0.00050817 -0.001295 0.0003521 -0.0015543 -0.0015201
0.0049192 0.0033361 0.27492 0.098064
1880000000 0.21749 -0.14857 0.0024326 0.00042594 -0.00042997 0.0019214 -0.0029093 -0.002138
-0.00018042 0.0016119 0.0002338 -0.00046413
0.0024314 0.00043351 0.26255 0.12525 -0.0021446 0.0016807 -0.00017808 0.0016874
0.00054884 0.0011625 0.00010678 0.00084326
-0.000428 0.0018683 -0.0021425 0.0017077 0.10858 -0.25517 0.0018517 -0.0009193
0.0015308 0.0019403 -0.0009079 0.0012437
-0.0028957 -0.0021556 -0.00018863 0.0017061 0.0018557 -0.00092178 0.16397 -0.13462
0.00060157 0.0046063 -0.0024143 0.00043706
-0.00012919 0.0016245 0.00056117 0.0011495 0.0015315 0.0019534 0.00061349 0.0045949
0.24722 0.027411 0.0049114 0.0011437
0.00023602 -0.00047584 0.00011967 0.0008288 -0.00090326 0.0012387 -0.0024152 0.0004499
0.0049074 0.0011367 0.27443 0.063872
1940000000 0.17802 -0.17454 0.00034126 -0.0013159 0.0013431 0.0019368 -0.0037545 0.00053684
0.001245 0.0009755 -0.00061533 -0.00047099
0.00035525 -0.0013205 0.26321 0.093589 -0.0009761 0.0038588 0.00098013 0.0013602
0.0017683 0.00046055 0.00081058 0.00025877
0.0013725 0.0019549 -0.00094093 0.0038656 0.062432 -0.24839 0.00042254 -0.0022174
0.0024431 0.0004893 0.00027882 0.0016089
-0.0038039 0.00057711 0.00099531 0.0013642 0.00043056 -0.0022132 0.112 -0.16521
-0.00027938 0.0037139 -0.0014787 0.0015723
0.0012332 0.00092207 0.001763 0.00044185 0.002434 0.00051014 -0.00027428 0.003727
0.24889 -0.01108 0.0035588 -0.0022754
-0.00059755 -0.00049395 0.00082815 0.00024394 0.00026815 0.0016084 -0.0014812 0.0015954
0.0035846 -0.0022656 0.26365 0.027776
2000000000 0.13175 -0.1891 -0.0034651 0.00053203 0.0023575 0.0015629 -0.0023006 0.0034824
0.0010999 9.0955e-05 -0.00065907 0.00033085
-0.0035102 0.00054502 0.24925 0.058073 -0.00092826 0.0055237 0.0016687 0.00039766
0.0013077 -0.0013202 0.00042544 0.00010642
0.0023691 0.0015207 -0.00090331 0.0055483 0.018632 -0.23381 -0.0013199 -0.0013115
0.0019796 -0.0011413 0.0015664 0.001263
-0.0022565 0.0035053 0.0016738 0.00038696 -0.0013158 -0.0013027 0.058619 -0.17558
-0.0017924 0.0036902 -3.6906e-05 0.0022373
0.0011335 0.00012132 0.0013063 -0.0013348 0.0019791 -0.0011714 -0.0017719 0.0036828
