!Keysight Technologies,M9804A,MY58100912,A.14.10.03
!Date: Thursday, April 27, 2023 10:28:33
!Correction: S11(C  6-Port  ) 
!S12(C  6-Port  ) 
!S13(C  6-Port  ) 
!S14(C  6-Port  ) 
!S15(C  6-Port  ) 
!S16(C  6-Port  ) 
!S21(C  6-Port  ) 
!S22(C  6-Port  ) 
!S23(C  6-Port  ) 
!S24(C  6-Port  ) 
!S25(C  6-Port  ) 
!S26(C  6-Port  ) 
!S31(C  6-Port  ) 
!S32(C  6-Port  ) 
!S33(C  6-Port  ) 
!S34(C  6-Port  ) 
!S35(C  6-Port  ) 
!S36(C  6-Port  ) 
!S41(C  6-Port  ) 
!S42(C  6-Port  ) 
!S43(C  6-Port  ) 
!S44(C  6-Port  ) 
!S45(C  6-Port  ) 
!S46(C  6-Port  ) 
!S51(C  6-Port  ) 
!S52(C  6-Port  ) 
!S53(C  6-Port  ) 
!S54(C  6-Port  ) 
!S55(C  6-Port  ) 
!S56(C  6-Port  ) 
!S61(C  6-Port  ) 
!S62(C  6-Port  ) 
!S63(C  6-Port  ) 
!S64(C  6-Port  ) 
!S65(C  6-Port  ) 
!S66(C  6-Port  ) 
!S6P File: Measurement: :
# Hz S  RI   R 50
500000000 -0.33646 -0.03918 -0.009873 -0.002438 -0.0078514 0.012334 -0.0041753 0.012067
0.01307 0.0048491 -0.0042308 0.0097563
-0.0098741 -0.0023521 -0.41902 -0.051584 0.0083802 -0.010902 0.0017516 0.011929
0.0075629 0.0024632 0.0022174 0.012958
-0.0078438 0.012373 0.0083772 -0.010927 -0.26422 0.20858 0.0078629 0.0032291
-0.0016512 0.0075736 0.0018915 0.011719
-0.0042363 0.012092 0.0017852 0.011957 0.0078597 0.0032347 -0.33023 0.04392
-0.017616 -0.0067255 0.016296 0.025513
0.013023 0.0049139 0.0074942 0.0024376 -0.0017614 0.0075368 -0.017637 -0.0066895
-0.22353 -0.19488 -0.025829 0.0047798
-0.004817 0.0085746 0.0018328 0.013421 0.0019406 0.011871 0.015526 0.02569
-0.024771 0.0045458 -0.26595 -0.13353
560000000 -0.31616 0.12296 -0.023518 -0.06421 8.7704e-05 0.011596 0.005537 0.010526
0.009706 0.0040025 0.011192 0.0072371
-0.023461 -0.064175 -0.37861 0.10763 -0.040799 -0.038324 0.012936 0.0037444
-0.012115 -0.0044196 0.0033897 -0.00031289
0.0002201 0.011615 -0.040959 -0.038323 -0.18268 0.25678 -0.00014618 -0.0048917
0.01946 0.0044372 0.0071131 -0.0064206
0.005604 0.010447 0.013002 0.0037568 -0.000155 -0.0049161 -0.3057 0.13247
0.0056532 -0.023716 0.0044155 -0.021089
0.0097607 0.0041094 -0.012005 -0.00462 0.019425 0.0046643 0.0056926 -0.02387
-0.28868 -0.021704 0.0094013 -0.048931
0.011 0.0073283 0.0029488 -0.00023009 0.0068991 -0.0064731 0.0039993 -0.021794
0.0085082 -0.048229 -0.32925 0.016241
620000000 -0.27488 0.10668 -0.023119 0.0077092 0.0028937 0.0084434 0.0079775 -0.0052426
0.010752 -0.00030174 0.0016842 -0.0023063
-0.02313 0.0077114 -0.40229 0.059062 -0.018778 -0.0002338 -0.0014749 -0.0020027
0.011145 -0.0067796 0.0012038 -0.0032836
0.0029123 0.0084099 -0.018804 -0.00017471 -0.15399 0.26575 -0.0018212 -0.0052056
-0.0032144 -0.0028735 0.0086638 -0.0033828
0.0079456 -0.0051777 -0.0014659 -0.0020215 -0.0018183 -0.0051826 -0.26506 0.14348
-0.037607 -0.019593 0.01163 0.025909
0.010828 -0.0002755 0.011183 -0.006805 -0.0033584 -0.0029167 -0.037527 -0.019612
-0.20754 -0.059607 -0.040987 0.013614
0.0016216 -0.00279 0.0010984 -0.0032715 0.0084063 -0.0034643 0.011929 0.025821
-0.041173 0.013918 -0.25041 -0.021972
680000000 -0.23464 0.1914 -0.027299 -0.014687 0.0049343 0.0052597 0.0010164 -0.0072147
-0.0036897 -0.011143 0.0047325 -0.0067142
-0.027276 -0.014675 -0.38772 0.15672 -0.033115 -0.0014444 -0.0018982 -0.00051259
-0.0023169 -0.0085807 -0.0014529 -0.0019267
0.0049585 0.0052623 -0.033148 -0.0013581 -0.10317 0.28566 -0.00080369 -1.146e-06
-0.0020152 0.0008434 -0.0030932 -0.0091691
0.0010416 -0.0072067 -0.0018971 -0.0005069 -0.00080468 -4.0005e-06 -0.22076 0.193
-0.023906 -0.0084727 -0.0098004 -0.010814
-0.0037345 -0.01117 -0.0022708 -0.0086328 -0.001915 0.00082471 -0.023854 -0.008537
-0.25852 0.038249 -0.0052038 -0.0081544
0.004561 -0.00644 -0.001612 -0.001823 -0.0031496 -0.0090429 -0.0099458 -0.0107
-0.0052653 -0.0084809 -0.26102 0.085961
740000000 -0.19072 0.18633 -0.038733 0.02636 0.01268 -0.0048407 -0.0001759 -0.0041404
-0.0047253 -0.0024045 -0.005798 0.0026897
-0.038692 0.026381 -0.33513 0.17578 -0.035586 0.035239 -0.00054609 -0.0060568
-0.011756 0.0079575 -0.0018037 -0.0058646
0.012643 -0.0048637 -0.035513 0.035385 -0.069664 0.28451 -0.001978 0.0034064
-0.0019856 -0.0045945 -0.0020118 3.1107e-05
-0.00014933 -0.0041373 -0.00054416 -0.0060616 -0.0019571 0.0034156 -0.20398 0.20107
-0.043729 -0.0074229 0.022439 0.014643
-0.0048134 -0.0023949 -0.011831 0.0080372 -0.0019766 -0.0046646 -0.043804 -0.0073545
-0.15956 0.064611 -0.043819 -0.00085896
-0.0057027 0.0027673 -0.001755 -0.0061922 -0.0019907 -4.5972e-05 0.02254 0.014848
-0.043769 -0.00054205 -0.24905 0.091744
800000000 -0.15822 0.227 -0.02283 0.016623 0.005384 -0.010587 -0.004905 -0.0018676
-0.0041336 0.0023363 0.0047648 0.00066475
-0.022834 0.01663 -0.33864 0.24592 -0.007983 0.03411 -0.0024347 0.0022151
-0.000195 0.0031202 0.0010195 0.0053038
0.0053386 -0.010595 -0.0078839 0.034168 -0.028542 0.30804 0.0010508 0.0014033
0.00046314 0.0034461 -0.0016054 0.00091436
-0.0049241 -0.0018845 -0.0024253 0.0022389 0.0010581 0.0014196 -0.17603 0.22915
-0.02888 0.013499 0.013361 -0.0099417
-0.003979 0.0023447 -0.00013266 0.0031926 0.00051681 0.0034466 -0.028942 0.013585
-0.20751 0.08786 -0.018003 0.018403
0.0046536 0.00068417 0.0010686 0.0052401 -0.0016413 0.00090446 0.013358 -0.0099072
-0.017783 0.018401 -0.24438 0.14047
860000000 -0.12367 0.2477 -0.017614 0.030993 -0.0033602 -0.0097815 -0.0025803 0.00098302
0.0041615 0.004805 -0.0031496 -0.0029834
-0.017631 0.030932 -0.29102 0.28848 0.0078948 0.034472 -5.3975e-05 0.0020863
0.0042954 0.00040391 0.0032463 0.0007108
-0.0033919 -0.0097821 0.008015 0.034475 0.019623 0.31617 -0.00065025 -0.00038457
0.0027798 -0.0014716 0.0014649 0.004458
-0.0025992 0.00098713 -3.0624e-05 0.0020837 -0.00064945 -0.00038143 -0.13984 0.24062
-0.018461 0.018754 -0.0059114 -0.0094117
0.0041612 0.0048727 0.0042587 0.00033459 0.0027494 -0.0014795 -0.018511 0.018735
-0.15775 0.1397 -0.026167 0.015721
-0.0031265 -0.0029381 0.003257 0.00078362 0.0015123 0.0045249 -0.0060465 -0.0092906
-0.026366 0.015318 -0.19289 0.18751
920000000 -0.098722 0.27093 0.0050138 0.038192 -0.0094626 -0.0042526 -0.001737 0.0021571
0.0010439 0.0018008 0.002577 -0.0015999
0.0049788 0.03815 -0.26187 0.30991 0.028172 0.022134 0.0014667 0.0010752
0.0068228 -0.00066452 0.0037461 -0.0026728
-0.0094783 -0.0042308 0.028291 0.02207 0.06611 0.31669 0.0017848 -0.00012724
0.0011227 -0.00040702 0.00082036 -0.00088953
-0.0017337 0.00217 0.0014824 0.0010562 0.0017794 -0.00013086 -0.11589 0.25801
-0.011097 0.030686 0.0034396 -0.0065186
0.0010944 0.0018734 0.0068125 -0.00060354 0.0011294 -0.00041938 -0.010999 0.030707
-0.14798 0.14664 -0.003307 0.027569
0.0025452 -0.0015808 0.0038689 -0.002667 0.00093273 -0.00087532 0.0033852 -0.0063815
-0.0031626 0.027744 -0.20143 0.20197
980000000 -0.051319 0.29031 0.01754 0.030294 -0.0089293 0.0047979 0.0021878 0.0035236
0.0039446 -0.0013301 -0.0029689 -0.0021808
0.017519 0.030258 -0.20913 0.34375 0.033168 0.0048407 0.0020513 -8.5214e-05
0.0013358 -0.0057779 -0.00018846 -0.0024832
-0.0089126 0.0048156 0.033218 0.0047353 0.11252 0.30993 0.00051403 -0.0011153
0.00022144 -0.0020514 0.0015659 -0.0002634
0.0021817 0.0035276 0.0020701 -0.00010968 0.00051728 -0.0011219 -0.077474 0.26971
0.0077832 0.030154 -0.0091946 -0.0071407
0.0039679 -0.0013584 0.0012638 -0.0057964 0.0002271 -0.0020693 0.0078383 0.030129
-0.11732 0.17604 0.0043799 0.019364
-0.0030171 -0.0020539 -0.00027604 -0.0023559 0.0015405 -0.00022336 -0.0092398 -0.0071762
0.004403 0.01949 -0.16014 0.24681
1040000000 -0.0089462 0.29871 0.033298 0.018343 -0.0010867 0.0069895 0.0026914 0.00060991
-2.719e-05 -0.0037784 -0.00028881 -0.0013066
0.033228 0.018317 -0.17334 0.35675 0.029419 -0.014848 0.0014144 -0.0017212
-0.0027249 -0.0024359 -0.0013798 -0.0025543
-0.0010432 0.0069865 0.029407 -0.014965 0.15848 0.29618 -0.00046803 -0.0014813
-0.0016206 -0.00086634 -0.00034397 -0.001178
0.0026852 0.00061124 0.0014108 -0.0017451 -0.00046712 -0.0014904 -0.049796 0.27992
0.019283 0.01817 -0.0023008 0.001814
2.6477e-06 -0.0037738 -0.0027023 -0.0024191 -0.001592 -0.00089065 0.019315 0.018165
-0.085118 0.18495 0.013174 0.018918
-0.00034983 -0.0012807 -0.0013844 -0.0025315 -0.00039456 -0.0011231 -0.0022609 0.0017953
0.01322 0.018702 -0.13839 0.26729
1100000000 0.036528 0.30632 0.035988 -0.0040923 0.0030744 0.0038575 0.0023763 -0.0014772
-0.0020205 -0.0030852 -0.0038539 8.2175e-06
0.035953 -0.0040746 -0.1298 0.37402 0.015108 -0.02779 -5.1197e-05 -0.0018519
-0.0031448 -0.00056397 -0.0034425 -0.00060213
0.0030835 0.0038438 0.015016 -0.027869 0.20481 0.27583 -0.0018188 0.00025934
-0.0016955 0.00053261 -0.00097935 -0.0005333
0.002373 -0.0014854 -5.92e-05 -0.0018529 -0.0018164 0.00025806 -0.0091573 0.28489
0.024432 0.0051061 -0.0024497 0.00032044
-0.0020282 -0.0030966 -0.0031699 -0.00056192 -0.0016984 0.00054728 0.024435 0.0050344
-0.067255 0.19927 0.018812 0.0090167
-0.0038208 2.0471e-06 -0.003414 -0.00051179 -0.0010038 -0.00056266 -0.0024464 0.00032123
0.018748 0.0089947 -0.092469 0.29785
1160000000 0.087895 0.30123 0.024094 -0.020703 0.0028616 -0.00065188 -0.00030538 -0.0025023
-0.0042214 -0.00066067 -0.00086286 0.0041155
0.024075 -0.02069 -0.086 0.37793 -0.0036594 -0.029041 -0.0017324 -0.0016357
-0.0025511 0.0024305 -0.0011816 0.0017139
0.0028627 -0.00067186 -0.0037964 -0.029046 0.24777 0.24495 -0.00062832 0.0017031
-0.00061806 0.0018653 -0.0010039 6.6821e-05
-0.00033237 -0.0025007 -0.0017303 -0.0016429 -0.00062553 0.0017013 0.030511 0.28214
0.020924 -0.010217 -0.0027916 0.0053219
-0.0042578 -0.00062764 -0.0025437 0.0024459 -0.00063756 0.0018869 0.020905 -0.010254
-0.033233 0.20958 0.017978 0.00099118
-0.0007783 0.0042057 -0.0012305 0.0018438 -0.0010143 0.00020973 -0.0028506 0.0052713
0.017853 0.0009552 -0.045934 0.30073
1220000000 0.13224 0.28985 0.010568 -0.030035 -0.0014824 -0.0010431 -0.00014359 -0.00085146
-0.0025738 0.002532 0.0013761 0.0019913
0.010592 -0.029999 -0.041661 0.38976 -0.016759 -0.021077 -0.0024991 0.00044303
6.011e-05 0.0028182 -0.00069915 0.0018178
-0.0014943 -0.0010486 -0.016873 -0.021018 0.287 0.20614 0.00081404 0.001513
0.00058805 0.0011512 0.00026472 0.00071947
-0.00014863 -0.0008454 -0.0024872 0.00046092 0.00080371 0.0015115 0.070345 0.27346
0.01028 -0.016749 0.0025121 0.0014534
-0.002582 0.0025419 4.5295e-05 0.0028303 0.000563 0.0011504 0.010248 -0.016776
-0.010249 0.219 0.014476 -0.012256
0.0013507 0.0019964 -0.00074247 0.0018305 0.00028593 0.00066801 0.0025018 0.0014333
0.014435 -0.012286 -0.01476 0.31814
1280000000 0.18191 0.26768 -0.0077109 -0.028518 -0.0019145 0.0022534 -0.00091441 -0.0018725
-0.000727 0.0030394 0.0024303 0.0010655
-0.0076862 -0.028493 0.0042626 0.38044 -0.023534 -0.0084172 -0.00091942 0.001403
0.0015583 0.00165 0.00063279 0.0020932
-0.0018975 0.0022645 -0.023609 -0.0083188 0.31752 0.1622 0.0014978 -2.8586e-05
0.0010109 0.00032416 0.00043188 0.00042834
-0.00091224 -0.0018652 -0.000903 0.0014107 0.001504 -3.83e-05 0.10714 0.25704
0.0010005 -0.018551 0.00024104 -4.1557e-05
-0.00070043 0.0030569 0.0015888 0.0016644 0.0010065 0.00031074 0.00097738 -0.018552
0.026781 0.22319 0.0035194 -0.014417
0.0024433 0.0010582 0.00063111 0.002061 0.00040048 0.00040887 0.00022879 -9.5168e-05
0.0035275 -0.014387 0.033781 0.32079
1340000000 0.21882 0.23363 -0.017451 -0.019129 0.00077386 0.0043322 -0.0016658 -0.00070127
0.0014529 0.0026771 0.0017168 -0.00141
-0.017411 -0.019123 0.043381 0.37203 -0.021414 0.0040841 -0.00011147 0.0019179
0.0017513 0.00081397 0.0012584 0.00078814
0.00079631 0.0043292 -0.021418 0.0041872 0.33971 0.11419 0.0010056 -0.00084992
0.00071875 -0.00039391 0.00024626 0.00029467
-0.0016772 -0.00070538 -9.8476e-05 0.0019325 0.0010097 -0.00084071 0.13941 0.23666
-0.0081335 -0.015795 0.0010383 0.00018721
0.0015004 0.0026517 0.0017684 0.00078084 0.00075859 -0.00041995 -0.0081672 -0.01578
0.05722 0.21878 -0.0029682 -0.013189
0.0017061 -0.0014089 0.0013086 0.00079061 0.00024174 0.00032673 0.0009764 0.00018009
-0.0029432 -0.013137 0.071814 0.31666
1400000000 0.25143 0.19532 -0.023328 -0.0077315 0.0048861 0.0030662 -0.0019697 0.00058454
0.0023844 0.00078387 0.00031742 -0.0013223
-0.023294 -0.0077419 0.080465 0.35886 -0.014795 0.012152 0.001247 0.0012874
0.0010675 -0.00069965 0.0012242 0.00023866
0.0049042 0.0030461 -0.01475 0.012235 0.35296 0.060453 0.00016399 -0.0014715
-9.8695e-07 -0.00034513 0.00049368 0.00025862
-0.0019604 0.00059069 0.001247 0.0012905 0.00016869 -0.0014686 0.16892 0.20819
-0.013668 -0.009365 -0.0008517 -0.00077267
0.0024026 0.00079372 0.0010735 -0.00069596 -2.2573e-05 -0.00033231 -0.013701 -0.0093396
0.090302 0.21458 -0.0092497 -0.0088518
0.00028639 -0.0013198 0.0012166 0.00022787 0.00051591 0.00025304 -0.00081939 -0.00076992
-0.0092347 -0.0088488 0.1176 0.3059
1460000000 0.27368 0.15125 -0.020542 0.0044236 0.0053638 -0.0017127 -0.0015842 0.0016098
0.0020492 -0.00062036 -0.00033565 -0.000987
-0.020535 0.0043996 0.11425 0.33704 -0.0062326 0.015019 0.0016957 0.00023252
0.00092083 -0.0011796 0.0011404 -0.00062435
0.0053478 -0.0017368 -0.0061397 0.015072 0.35883 0.0059265 -0.001136 -0.0012091
0.00020391 -0.00031335 0.00056443 -0.00025187
-0.0015693 0.001616 0.0016982 0.00022508 -0.0011396 -0.0012028 0.19527 0.1793
-0.014777 -0.003024 -0.0011316 0.0017879
0.0020599 -0.00062391 0.00091427 -0.0012093 0.00020614 -0.00030605 -0.0148 -0.0029812
0.11952 0.20001 -0.011287 -0.0032218
-0.00034824 -0.00096187 0.0011729 -0.0006465 0.00057957 -0.00028982 -0.0011038 0.0017408
-0.011301 -0.0032064 0.15084 0.28534
1520000000 0.28548 0.10975 -0.015014 0.010128 0.0032071 -0.0039717 4.4732e-05 0.0025731
0.0019708 -0.0017182 -0.0010594 -6.947e-05
-0.015002 0.010096 0.14762 0.32243 0.0012734 0.012979 0.0016469 -0.00072592
9.3482e-05 -0.0010083 0.00031733 -0.001063
0.0031824 -0.0039864 0.0013458 0.012987 0.35181 -0.050431 -0.00099778 -0.00040122
0.00063901 -0.00079803 -4.8197e-06 -0.00015377
5.8809e-05 0.0025685 0.0016378 -0.00074134 -0.00099128 -0.00039294 0.21874 0.14172
-0.014268 0.0023088 0.0011677 0.0019805
0.0019432 -0.0017177 8.0397e-05 -0.0010254 0.00066026 -0.00084026 -0.014256 0.0023412
0.14739 0.18626 -0.01137 0.00099011
-0.0010734 -6.8562e-05 0.00031679 -0.0010539 -3.0542e-05 -0.00013373 0.0011563 0.0019909
-0.011352 0.0010279 0.18453 0.26514
1580000000 0.29467 0.063922 -0.0083913 0.013419 -0.00090697 -0.0046575 0.0013124 0.0018921
-0.00038039 -0.0020049 -0.00033617 0.00037472
-0.0084013 0.013399 0.17475 0.2978 0.004857 0.008303 0.0004964 -0.0015894
-0.00054203 -0.0010864 -0.00029943 -0.00078997
-0.00092427 -0.0046582 0.004902 0.0082945 0.3313 -0.10787 -0.0015576 0.00052738
-0.00032197 -0.0010673 9.123e-05 -0.00042698
0.001321 0.0018746 0.0004929 -0.0015932 -0.0015538 0.0005231 0.23309 0.10261
-0.01103 0.0070013 0.0020791 0.00097972
-0.00038586 -0.0020309 -0.00055085 -0.0010762 -0.00032521 -0.0010562 -0.011037 0.0070322
0.17183 0.16865 -0.0092 0.0068389
-0.00036275 0.00041793 -0.00032249 -0.00075788 4.1701e-05 -0.00045792 0.0020966 0.0009646
-0.0092317 0.0068698 0.21722 0.23823
1640000000 0.2967 0.022821 -0.0016022 0.012493 -0.0025226 -0.0024298 0.0026873 0.0010685
-0.00063771 -0.0014131 -0.00023203 0.0005901
-0.0016184 0.012487 0.20416 0.273 0.0057738 0.0036909 -0.00064557 -0.001718
-0.0010273 -0.00043324 -0.00049152 -0.00064887
-0.0025407 -0.0024124 0.0057993 0.0036581 0.30285 -0.15693 -0.00073966 0.0014124
-0.00098296 -0.0010143 -5.9805e-05 -0.00042712
0.0026991 0.0010639 -0.00065722 -0.0017102 -0.00073318 0.0014155 0.24581 0.053797
-0.0070514 0.0081964 0.0023602 -0.00061552
-0.00065498 -0.0013969 -0.0010441 -0.0004249 -0.00099356 -0.0010271 -0.0070181 0.0082259
0.19435 0.1446 -0.0048663 0.0088312
-0.00022514 0.00054901 -0.00049116 -0.00065889 -5.576e-05 -0.00047978 0.0023703 -0.0006155
-0.0048619 0.0088364 0.24279 0.20713
1700000000 0.28955 -0.022343 0.0019229 0.0097456 -0.0032186 7.513e-05 0.0030292 -0.0011159
-0.0019292 -0.00062381 0.00064361 0.00045865
0.001918 0.0097362 0.2223 0.24156 0.0038609 0.0008976 -0.0014832 -0.00057284
-0.00083813 7.8006e-05 -0.0009124 -0.00039485
-0.0032245 9.9672e-05 0.003874 0.00087124 0.25939 -0.19661 0.00035513 0.0016262
-0.0019205 -0.00025795 -0.000519 -0.00084633
0.0030293 -0.0011353 -0.0014848 -0.0005647 0.00034231 0.0016199 0.24301 0.0040911
-0.0045942 0.0088715 0.0014629 -0.0020695
-0.0019221 -0.00058095 -0.00083927 9.5339e-05 -0.0018763 -0.00027639 -0.004563 0.0088822
0.21186 0.12473 -0.00024555 0.0092734
0.00068153 0.0004308 -0.00090664 -0.00038648 -0.00046077 -0.00082004 0.0014551 -0.0020862
-0.00024294 0.0092378 0.2593 0.1725
1760000000 0.27735 -0.070816 0.0043925 0.006524 -0.0021617 0.00091861 0.0013957 -0.0033335
-0.0012072 0.00068805 0.00046718 -0.0006528
0.0043839 0.0065254 0.24817 0.20174 0.0017105 -0.00095912 -0.001173 0.0002032
-0.0009909 0.00094565 -0.00051904 0.00043607
-0.0021602 0.00092789 0.0017066 -0.00097447 0.21067 -0.22954 0.00122 0.0012294
-0.0011712 0.0014471 -0.0012385 -0.00057965
0.0013821 -0.003343 -0.0011723 0.00020117 0.0012216 0.0012176 0.23405 -0.047454
-0.001378 0.0082479 -0.00020741 -0.0024059
-0.0012393 0.00070801 -0.00097302 0.00095737 -0.0011817 0.0014772 -0.0013626 0.0082557
0.22676 0.089952 0.0035791 0.0068815
0.00046315 -0.00061125 -0.00052672 0.000442 -0.0013093 -0.00057132 -0.00016439 -0.0024229
0.0036137 0.0068747 0.27186 0.13483
1820000000 0.25274 -0.10812 0.0046868 0.0028832 4.7775e-05 0.002326 -0.00090336 -0.0030262
-0.0010324 0.00082889 -9.0931e-05 -9.7924e-05
0.0046779 0.0028813 0.25816 0.17174 -0.00014294 8.6421e-05 -0.001294 0.0009395
6.8455e-06 0.0013396 -0.00048284 0.00050744
5.7041e-05 0.0023233 -0.00014604 8.9676e-05 0.16049 -0.24548 0.0015493 0.00041021
-0.00029496 0.0022705 -0.0012908 0.00036412
-0.00091096 -0.0030062 -0.0012873 0.00094422 0.0015492 0.00041216 0.20427 -0.09467
-1.0848e-05 0.0067313 -0.0015088 -0.0014372
-0.0010092 0.00084095 1.3786e-05 0.0013253 -0.00027592 0.0022479 2.5178e-05 0.0067567
0.24403 0.061128 0.0045266 0.0035648
-9.1324e-05 -0.00011756 -0.00046624 0.00050632 -0.0012731 0.00033368 -0.0015132 -0.00143
0.004582 0.0035541 0.27432 0.098901
1880000000 0.21767 -0.14842 0.0026071 0.00050144 -0.00040726 0.0018628 -0.0029198 -0.0021845
-0.0002647 0.0015894 0.00027218 -0.00049519
0.0026092 0.0005012 0.26255 0.12526 -0.0021417 0.0016974 -0.0001626 0.0016694
0.0006371 0.0011437 0.00012014 0.00087133
-0.00038676 0.001872 -0.0021376 0.0016996 0.10833 -0.25476 0.0018375 -0.0010583
0.001572 0.0019678 -0.001012 0.0013245
-0.0029298 -0.0021705 -0.00014914 0.0016808 0.0018202 -0.00105 0.16386 -0.135
0.00078462 0.0050083 -0.0022791 0.00051102
-0.00021583 0.00158 0.0006385 0.0011469 0.0015657 0.0019594 0.00078966 0.0049844
0.24706 0.028711 0.0046566 0.0014391
0.00026082 -0.00054712 0.00013099 0.00086596 -0.00097557 0.0012721 -0.0023191 0.0004936
0.004659 0.0014814 0.27393 0.064763
1940000000 0.17822 -0.1742 0.00044225 -0.0013401 0.0012085 0.0018432 -0.0038291 0.00045453
0.0012637 0.00092744 -0.00066578 -0.00058054
0.0004521 -0.0013413 0.26309 0.093483 -0.00094956 0.0037892 0.0010362 0.0012975
0.001872 0.00036629 0.00079137 0.00021041
0.0012197 0.0018364 -0.00093337 0.0037932 0.062625 -0.24786 0.00036217 -0.0022546
0.0024579 0.00042807 0.00031418 0.0015761
-0.0038201 0.00048214 0.0010411 0.0012943 0.00037003 -0.0022524 0.11155 -0.16534
-6.2947e-05 0.0039178 -0.0013251 0.00147
0.0012735 0.00091488 0.0018644 0.00035456 0.0024287 0.00045443 -7.025e-05 0.0038939
0.24895 -0.00995 0.0035318 -0.0017746
-0.00066017 -0.00053796 0.00080296 0.00021359 0.00020906 0.0015873 -0.0013051 0.001481
0.0036145 -0.0018213 0.26297 0.028905
2000000000 0.13173 -0.18888 -0.0034754 0.00045822 0.0023711 0.0015998 -0.0023313 0.0034999
0.0010948 0.00020324 -0.00073861 0.00042274
-0.0034663 0.00045698 0.24887 0.058031 -0.00087086 0.0055998 0.0016319 0.00035262
0.0012737 -0.0014148 0.00038704 0.00011813
0.0024022 0.0015931 -0.00083962 0.0056073 0.019165 -0.23325 -0.0013807 -0.0012567
0.0019576 -0.0011507 0.0014855 0.0013249
-0.0023152 0.0035097 0.0016347 0.00034382 -0.0013791 -0.0012436 0.058184 -0.17546
-0.0015167 0.0037575 3.3758e-05 0.002187
0.0010955 0.00019136 0.0012362 -0.0014363 0.0019604 -0.0011627 -0.0015139 0.0037786
0.24301 -0.04384 0.00033157 -0.0024805
