!Keysight Technologies,M9804A,MY58100912,A.14.10.03
!Date: Thursday, April 27, 2023 10:28:33
!Correction: S11(C  6-Port  ) 
!S12(C  6-Port  ) 
!S13(C  6-Port  ) 
!S14(C  6-Port  ) 
!S15(C  6-Port  ) 
!S16(C  6-Port  ) 
!S21(C  6-Port  ) 
!S22(C  6-Port  ) 
!S23(C  6-Port  ) 
!S24(C  6-Port  ) 
!S25(C  6-Port  ) 
!S26(C  6-Port  ) 
!S31(C  6-Port  ) 
!S32(C  6-Port  ) 
!S33(C  6-Port  ) 
!S34(C  6-Port  ) 
!S35(C  6-Port  ) 
!S36(C  6-Port  ) 
!S41(C  6-Port  ) 
!S42(C  6-Port  ) 
!S43(C  6-Port  ) 
!S44(C  6-Port  ) 
!S45(C  6-Port  ) 
!S46(C  6-Port  ) 
!S51(C  6-Port  ) 
!S52(C  6-Port  ) 
!S53(C  6-Port  ) 
!S54(C  6-Port  ) 
!S55(C  6-Port  ) 
!S56(C  6-Port  ) 
!S61(C  6-Port  ) 
!S62(C  6-Port  ) 
!S63(C  6-Port  ) 
!S64(C  6-Port  ) 
!S65(C  6-Port  ) 
!S66(C  6-Port  ) 
!S6P File: Measurement: :
# Hz S  RI   R 50
500000000 -0.33648 -0.039529 -0.0097731 -0.0023311 -0.0078127 0.012438 -0.0042852 0.012341
0.013142 0.0042662 -0.0048632 0.0089252
-0.0097394 -0.0021419 -0.41885 -0.051353 0.0084518 -0.011035 0.0016772 0.011895
0.0075382 0.0026631 0.001716 0.013077
-0.0076473 0.012508 0.0084627 -0.011032 -0.26427 0.20843 0.007958 0.0032874
-0.0016805 0.0077809 0.0018509 0.011947
-0.0043393 0.012439 0.0016636 0.011909 0.0079562 0.0032742 -0.33003 0.043885
-0.017897 -0.0065354 0.015786 0.025877
0.01305 0.0044066 0.0075652 0.0026564 -0.0016663 0.007786 -0.017917 -0.0064971
-0.22298 -0.19543 -0.024939 0.005009
-0.0049119 0.0089493 0.0016508 0.013095 0.0018722 0.011981 0.015749 0.025784
-0.024874 0.0049416 -0.26735 -0.13266
560000000 -0.31599 0.12307 -0.02343 -0.064415 0.00012426 0.01192 0.0054846 0.010519
0.009785 0.0041143 0.011105 0.0073718
-0.02356 -0.064383 -0.37866 0.10757 -0.040866 -0.038479 0.013075 0.0040536
-0.012396 -0.0049842 0.0029717 -0.00023472
0.00039963 0.01195 -0.04092 -0.038443 -0.18244 0.25671 -0.00068062 -0.0050581
0.019818 0.0044298 0.0068352 -0.0061917
0.0055332 0.010287 0.013071 0.0040459 -0.00068122 -0.0050808 -0.3048 0.13247
0.004918 -0.024101 0.0043703 -0.02141
0.010117 0.0040809 -0.012431 -0.0049078 0.019862 0.004311 0.0048628 -0.024089
-0.2878 -0.021716 0.0089091 -0.048514
0.011184 0.0074199 0.0028877 -0.00017901 0.0068437 -0.0062254 0.0044136 -0.021389
0.0089086 -0.048575 -0.32867 0.016317
620000000 -0.27469 0.10633 -0.023078 0.0077654 0.0028415 0.0084687 0.0079388 -0.005369
0.011318 -5.9012e-05 0.0018324 -0.0025975
-0.02308 0.0076834 -0.40236 0.059078 -0.018621 -0.0001601 -0.0013786 -0.0020846
0.011061 -0.0067477 0.0013254 -0.0033595
0.002784 0.0083598 -0.01868 -8.9186e-05 -0.15371 0.26534 -0.0016419 -0.0050105
-0.0033497 -0.0028392 0.0084477 -0.0035339
0.0078886 -0.0053106 -0.0013754 -0.0020909 -0.0016063 -0.0050052 -0.26511 0.14294
-0.037376 -0.019029 0.011816 0.025785
0.011208 -0.00051656 0.011003 -0.00676 -0.0033163 -0.0028465 -0.037337 -0.01901
-0.20811 -0.059671 -0.041308 0.013916
0.0018089 -0.0027098 0.0012786 -0.0033809 0.0084469 -0.0034746 0.0118 0.025795
-0.041295 0.013789 -0.24986 -0.021288
680000000 -0.23469 0.19161 -0.027389 -0.014654 0.0049134 0.0052007 0.0008888 -0.0071301
-0.0035277 -0.011087 0.0047003 -0.0066241
-0.027363 -0.014666 -0.38774 0.15666 -0.033103 -0.0014766 -0.0018911 -0.00057871
-0.0023314 -0.0085874 -0.0014239 -0.0017362
0.0049137 0.0051908 -0.033129 -0.0013939 -0.10316 0.28575 -0.00080976 7.9894e-05
-0.0020453 0.0010332 -0.0030791 -0.0090605
0.00099951 -0.0071145 -0.0018959 -0.00058193 -0.00081176 8.0819e-05 -0.22072 0.19302
-0.023684 -0.0085371 -0.0098897 -0.010936
-0.0034779 -0.011132 -0.002377 -0.0086022 -0.0020262 0.0010438 -0.023697 -0.0085417
-0.25789 0.038593 -0.005035 -0.0087326
0.0046303 -0.0067401 -0.0014032 -0.0017401 -0.003111 -0.0090962 -0.0099303 -0.010977
-0.0050478 -0.0086907 -0.2613 0.085805
740000000 -0.1907 0.18629 -0.038872 0.026389 0.012755 -0.0048215 -0.00021054 -0.0040885
-0.0044646 -0.0024071 -0.0059483 0.0027468
-0.03889 0.026358 -0.33517 0.17571 -0.035637 0.035034 -0.00049199 -0.0060513
-0.011685 0.0082189 -0.001935 -0.0064706
0.012698 -0.0049335 -0.035532 0.035181 -0.069423 0.2845 -0.0018868 0.0034002
-0.0019807 -0.004758 -0.0019054 0.00025116
-0.00018423 -0.0040784 -0.00049801 -0.0060747 -0.0018783 0.0034036 -0.20399 0.20109
-0.043683 -0.0073044 0.022455 0.01484
-0.0044522 -0.0026029 -0.011641 0.0082558 -0.0019539 -0.0047215 -0.043714 -0.0072404
-0.15956 0.064111 -0.043714 -0.00017982
-0.0060583 0.0028718 -0.002005 -0.0064246 -0.0019367 0.0001977 0.022442 0.014804
-0.043682 -0.00025682 -0.24985 0.091485
800000000 -0.158 0.22696 -0.022849 0.016687 0.0053605 -0.01051 -0.0048953 -0.0019842
-0.0041648 0.0024687 0.0046625 0.00068029
-0.022871 0.01672 -0.33866 0.24597 -0.0080339 0.034117 -0.0023965 0.0021983
-0.00030548 0.0031186 0.00097398 0.0052932
0.0053542 -0.010522 -0.0079396 0.03416 -0.02858 0.30801 0.0010766 0.00136
0.00038208 0.0034163 -0.0016424 0.00096664
-0.0049606 -0.0019545 -0.0023886 0.0022104 0.0010678 0.0013561 -0.17599 0.22906
-0.028899 0.013571 0.013301 -0.0099932
-0.0041081 0.0026398 -0.0003076 0.0031289 0.00036467 0.00343 -0.028899 0.013629
-0.20772 0.087621 -0.018147 0.018593
0.0046653 0.00060308 0.00097613 0.0053178 -0.0016278 0.00096151 0.013315 -0.0099812
-0.018185 0.018575 -0.24461 0.1409
860000000 -0.12371 0.24785 -0.01766 0.030966 -0.0033653 -0.0097691 -0.0025524 0.0010701
0.0039596 0.0048698 -0.0032449 -0.0029487
-0.017808 0.030985 -0.29105 0.28839 0.007878 0.034429 -3.8946e-05 0.0020399
0.0043033 9.5585e-05 0.003121 0.00063101
-0.0033927 -0.0097925 0.0079977 0.034438 0.019586 0.31616 -0.00065241 -0.00039471
0.0027496 -0.0016122 0.0014621 0.0044515
-0.0026635 0.0010436 -2.5373e-05 0.0020442 -0.00065107 -0.00039801 -0.13982 0.24058
-0.018377 0.018768 -0.0061411 -0.0093814
0.0039398 0.0048717 0.0043087 8.3187e-05 0.0027346 -0.0016142 -0.018358 0.018793
-0.15793 0.13938 -0.026516 0.015741
-0.00318 -0.0029958 0.0031263 0.00057031 0.001464 0.0044207 -0.006158 -0.0093846
-0.026483 0.015707 -0.19264 0.18782
920000000 -0.098766 0.27097 0.0050142 0.038257 -0.0094207 -0.0041711 -0.001712 0.0021666
0.0010203 0.0019396 0.0026515 -0.0016403
0.0050566 0.038213 -0.26194 0.3098 0.028209 0.022159 0.0014822 0.0011185
0.0067789 -0.00071799 0.0038567 -0.0026418
-0.0094262 -0.0041516 0.028308 0.022093 0.066148 0.31671 0.0017913 -9.1072e-05
0.0010891 -0.00041046 0.00085945 -0.00098789
-0.0016926 0.0021542 0.0015079 0.0011085 0.0017986 -9.4635e-05 -0.11592 0.25796
-0.01109 0.030724 0.0034209 -0.0064572
0.0010324 0.0018836 0.0067879 -0.00075263 0.0010824 -0.00039647 -0.011029 0.030757
-0.14796 0.14675 -0.0032054 0.027749
0.0025836 -0.001708 0.0038506 -0.0026534 0.00087534 -0.00096854 0.0033794 -0.0064449
-0.0032288 0.027776 -0.20128 0.20166
980000000 -0.051319 0.29029 0.017584 0.030318 -0.008921 0.004783 0.0021721 0.0035777
0.0040326 -0.0013275 -0.0030313 -0.0022355
0.017542 0.030296 -0.20913 0.34377 0.033166 0.004829 0.0020831 -9.8098e-05
0.0013364 -0.005783 -0.00020256 -0.0024229
-0.0089057 0.0048103 0.033214 0.0047437 0.11251 0.30993 0.00047685 -0.0011148
0.0002907 -0.0020188 0.0016034 -0.00023708
0.0021918 0.0035503 0.0020791 -9.0432e-05 0.00048408 -0.0011113 -0.077483 0.26974
0.0078106 0.030133 -0.0092332 -0.0071713
0.0039976 -0.0013629 0.001304 -0.0058153 0.00028187 -0.0020238 0.0078878 0.030129
-0.11764 0.176 0.0044191 0.019561
-0.0031368 -0.0021606 -0.00024366 -0.0024663 0.0015763 -0.00027445 -0.0092092 -0.0072
0.004391 0.019552 -0.16015 0.24713
1040000000 -0.0090275 0.29869 0.033283 0.01835 -0.0010865 0.0070188 0.0026717 0.00062392
4.6057e-05 -0.003781 -0.00025696 -0.001337
0.033207 0.018334 -0.17341 0.35679 0.029408 -0.014847 0.0014221 -0.0017167
-0.0025843 -0.0023863 -0.0013642 -0.0025518
-0.0010473 0.0069968 0.029394 -0.014973 0.15845 0.29617 -0.00049291 -0.00148
-0.0015937 -0.00087295 -0.00035952 -0.0011602
0.002672 0.00062334 0.0014322 -0.0017101 -0.00049289 -0.0014805 -0.049833 0.27987
0.019269 0.018175 -0.0022651 0.0018348
2.5531e-05 -0.003762 -0.002624 -0.0024035 -0.0015726 -0.00089114 0.01932 0.018144
-0.085217 0.18494 0.013198 0.018804
-0.00035428 -0.0013235 -0.0013794 -0.0025384 -0.00036272 -0.0011453 -0.0022466 0.0018242
0.013178 0.018791 -0.13825 0.26734
1100000000 0.036473 0.30632 0.035955 -0.0041032 0.0030922 0.0038848 0.0023607 -0.0014645
-0.0020287 -0.0030824 -0.003755 2.7817e-05
0.035942 -0.0040772 -0.12985 0.37404 0.015098 -0.027802 -3.4698e-05 -0.0018514
-0.0031234 -0.00064283 -0.0033894 -0.00056127
0.0031096 0.0038656 0.01501 -0.027889 0.20483 0.27585 -0.0018273 0.00025259
-0.0017229 0.00050526 -0.0009947 -0.00058897
0.0023672 -0.0014593 -3.1913e-05 -0.0018373 -0.0018321 0.00025755 -0.0091492 0.2849
0.02442 0.0050956 -0.0024826 0.00029766
-0.0020512 -0.003092 -0.0031386 -0.00063008 -0.0017242 0.0005089 0.024441 0.0050487
-0.067279 0.19931 0.018738 0.0090607
-0.0038085 -9.8479e-06 -0.0033895 -0.00050734 -0.00099221 -0.00060022 -0.0024485 0.00028884
0.018724 0.0090609 -0.092469 0.2979
1160000000 0.087849 0.30121 0.024078 -0.020712 0.0028463 -0.00064602 -0.00035965 -0.0024758
-0.0042527 -0.00064242 -0.00088463 0.0041333
0.024093 -0.020679 -0.086037 0.37797 -0.0036514 -0.029044 -0.001749 -0.0016696
-0.0025052 0.0024647 -0.001274 0.0017459
0.0028533 -0.00065584 -0.0037767 -0.029036 0.24773 0.24495 -0.00059822 0.0016998
-0.00059784 0.0018174 -0.00099827 0.00017664
-0.00034769 -0.0024774 -0.0017495 -0.0016497 -0.00059333 0.0017055 0.03049 0.28212
0.020869 -0.010203 -0.0028316 0.0053127
-0.0042745 -0.00060272 -0.0025057 0.0024633 -0.00058524 0.0018244 0.020872 -0.010226
-0.033206 0.20953 0.017933 0.0010271
-0.00082047 0.0041536 -0.001266 0.0017849 -0.001027 0.00018841 -0.0028217 0.0053332
0.017955 0.0010009 -0.045872 0.30086
1220000000 0.13221 0.28991 0.010561 -0.030048 -0.0014681 -0.0010235 -0.00016083 -0.00085089
-0.0026169 0.0025383 0.0013824 0.0019937
0.01056 -0.029996 -0.041727 0.38977 -0.016765 -0.02109 -0.0024864 0.00045773
2.9191e-05 0.0028325 -0.00073626 0.0018086
-0.0015069 -0.001041 -0.016878 -0.021039 0.28701 0.20616 0.00080536 0.0014873
0.00054767 0.0011346 0.00023295 0.00071497
-0.0001272 -0.00084332 -0.0024882 0.00047478 0.00080275 0.0014837 0.070321 0.27344
0.010311 -0.016762 0.0025176 0.0014307
-0.0026202 0.0025559 4.5134e-05 0.002831 0.00053826 0.0011461 0.010285 -0.016779
-0.010197 0.21898 0.014452 -0.012292
0.0014244 0.0019978 -0.00074785 0.0018305 0.00024376 0.00071812 0.0025187 0.0014271
0.014431 -0.012297 -0.01465 0.31816
1280000000 0.18186 0.26772 -0.0077183 -0.028504 -0.0019408 0.0022785 -0.00090322 -0.0018918
-0.00072155 0.0030587 0.0024869 0.0010773
-0.0077057 -0.028482 0.0042103 0.38048 -0.023523 -0.0084302 -0.00091289 0.0014178
0.0015554 0.0016555 0.00065459 0.0020834
-0.0019039 0.0022796 -0.023591 -0.0083198 0.31747 0.16219 0.0014889 -4.6645e-05
0.0010349 0.00032592 0.00044233 0.00041794
-0.00089628 -0.0019042 -0.00090884 0.0014183 0.0014847 -4.9673e-05 0.10712 0.25696
0.0010511 -0.018551 0.00021279 -5.5121e-05
-0.00068108 0.0030627 0.0015614 0.0016492 0.0010261 0.00032049 0.0010068 -0.018566
0.026874 0.22314 0.003516 -0.014394
0.0024978 0.0010451 0.00066787 0.0020743 0.00044055 0.00042423 0.00020854 -6.5784e-05
0.0035106 -0.014403 0.03384 0.32058
1340000000 0.21874 0.23367 -0.017448 -0.019127 0.0007661 0.0042812 -0.0016638 -0.00073977
0.0014889 0.002653 0.0017081 -0.0014325
-0.017414 -0.019125 0.043342 0.37204 -0.021413 0.0040828 -0.0001091 0.0019324
0.0017709 0.00081358 0.0013011 0.00083031
0.00076028 0.00428 -0.021414 0.0041978 0.33971 0.1142 0.001029 -0.0008481
0.0007473 -0.0003886 0.00026281 0.00030701
-0.001671 -0.00072721 -9.7375e-05 0.0019354 0.0010293 -0.00084409 0.13943 0.23669
-0.0081198 -0.015796 0.0010203 0.00018264
0.001499 0.0026419 0.001773 0.00079914 0.00075015 -0.0003976 -0.0081458 -0.015782
0.057295 0.21881 -0.002897 -0.013146
0.0016968 -0.0014163 0.0013071 0.00082985 0.00024768 0.00031328 0.0010231 0.00017904
-0.0029252 -0.013138 0.071918 0.31659
1400000000 0.25136 0.19536 -0.023316 -0.0077382 0.0049154 0.0030583 -0.0019444 0.00058229
0.0023882 0.00079989 0.00031867 -0.0013279
-0.023291 -0.0077404 0.0804 0.35887 -0.014796 0.012144 0.001243 0.001285
0.0010639 -0.00069473 0.0012103 0.00024586
0.0049327 0.003045 -0.014754 0.012238 0.35292 0.060468 0.00016558 -0.0014541
-1.1498e-05 -0.00033221 0.00048818 0.00024772
-0.0019602 0.00057742 0.0012494 0.0012779 0.00015447 -0.0014532 0.16887 0.20817
-0.013651 -0.0094016 -0.00082768 -0.00075969
0.0023811 0.00080427 0.0010653 -0.00071036 -9.5557e-06 -0.00033396 -0.013675 -0.0093666
0.090413 0.21462 -0.0092371 -0.0088889
0.00030071 -0.0013393 0.0012168 0.00024066 0.00049036 0.00022923 -0.00082512 -0.00074669
-0.0092362 -0.008872 0.11758 0.30583
1460000000 0.27369 0.15131 -0.020545 0.0044421 0.0053641 -0.0017054 -0.0015917 0.0016166
0.0020521 -0.0006258 -0.00034479 -0.00093588
-0.020518 0.0044085 0.11422 0.33704 -0.0062213 0.015006 0.0016978 0.00022208
0.00092506 -0.0011765 0.0011664 -0.00062905
0.0053771 -0.001771 -0.0061452 0.015054 0.35874 0.0059012 -0.0011361 -0.0012237
0.00021466 -0.00031344 0.00059378 -0.00026728
-0.0015839 0.0016286 0.0016986 0.00022102 -0.0011371 -0.0012254 0.19526 0.17932
-0.014778 -0.0030357 -0.0011244 0.0017545
0.0020528 -0.00062026 0.00092214 -0.0011926 0.00021781 -0.00029506 -0.014793 -0.002993
0.1196 0.20004 -0.011292 -0.0032558
-0.0003411 -0.00095794 0.0011554 -0.00063194 0.00060891 -0.00027622 -0.001119 0.0017523
-0.011289 -0.0032313 0.15082 0.28529
1520000000 0.28549 0.1098 -0.015 0.010123 0.0031798 -0.0039914 5.2464e-05 0.0025642
0.0019539 -0.0016958 -0.0010663 -5.8615e-05
-0.014994 0.010105 0.14757 0.32244 0.0012635 0.012968 0.0016492 -0.00072714
8.6796e-05 -0.0010008 0.00033151 -0.0010416
0.0031593 -0.0039941 0.001347 0.012972 0.35185 -0.050425 -0.00099372 -0.00038901
0.00064746 -0.00083105 1.3888e-06 -0.00013283
5.5447e-05 0.0025577 0.0016502 -0.00073215 -0.00098787 -0.00039681 0.21871 0.14176
-0.01428 0.0022944 0.0011366 0.0019897
0.0019541 -0.001718 8.2659e-05 -0.0010069 0.000639 -0.00082581 -0.014274 0.0023257
0.14742 0.18625 -0.011399 0.0009985
-0.0010706 -6.9191e-05 0.00031915 -0.0010417 9.3795e-06 -0.00012595 0.0011483 0.0019838
-0.011376 0.0009988 0.18451 0.26512
1580000000 0.29469 0.063923 -0.0083828 0.0134 -0.00087651 -0.0046435 0.0012952 0.0019054
-0.00039768 -0.0020291 -0.00036929 0.00039414
-0.0083994 0.013386 0.17471 0.2978 0.0048521 0.0083069 0.00049946 -0.001588
-0.00052675 -0.0010852 -0.00031642 -0.00077369
-0.00087854 -0.00467 0.004898 0.0082862 0.33127 -0.10798 -0.0015716 0.00050889
-0.00032196 -0.0010141 7.3886e-05 -0.00044613
0.0013218 0.0019063 0.00047938 -0.0015888 -0.0015682 0.00051258 0.23307 0.10261
-0.011056 0.0070048 0.0020841 0.00098577
-0.00039878 -0.001988 -0.00053688 -0.0010843 -0.0003161 -0.0010102 -0.011051 0.0070477
0.17184 0.16859 -0.0092492 0.006872
-0.00038293 0.00040716 -0.0003175 -0.00077508 8.0222e-05 -0.00046047 0.0020986 0.00097952
-0.0092257 0.0068532 0.2173 0.23825
1640000000 0.29671 0.022877 -0.0016058 0.012493 -0.0025235 -0.00244 0.002713 0.0010431
-0.00062124 -0.0014074 -0.0002238 0.00057241
-0.0016081 0.01249 0.20411 0.27301 0.00577 0.0036779 -0.00063674 -0.0017143
-0.0010321 -0.00043222 -0.0005019 -0.00065397
-0.0025268 -0.002405 0.0057973 0.0036491 0.30281 -0.15683 -0.00074726 0.0013845
-0.0010048 -0.0010343 -7.088e-05 -0.00049458
0.0027047 0.0010371 -0.00064711 -0.0017158 -0.00075157 0.0013827 0.24582 0.053809
-0.0070458 0.0081805 0.0023628 -0.00062177
-0.00063583 -0.0013963 -0.0010398 -0.00042082 -0.00099945 -0.0010432 -0.0070237 0.008203
0.19433 0.14454 -0.0048992 0.0088519
-0.00019341 0.00056799 -0.00050622 -0.00064901 -6.159e-05 -0.00049958 0.0023678 -0.00062316
-0.0048784 0.0088223 0.24287 0.20713
1700000000 0.28953 -0.022302 0.0019321 0.0097303 -0.0032746 0.0001215 0.003 -0.0011099
-0.0019293 -0.00062675 0.00066539 0.00044784
0.0019081 0.0097224 0.22227 0.24156 0.0038376 0.00087904 -0.0014775 -0.00056885
-0.00084626 9.1096e-05 -0.00090393 -0.00039739
-0.0032442 0.00013081 0.0038433 0.00085804 0.25943 -0.19668 0.00034271 0.001663
-0.0019208 -0.00023941 -0.00043316 -0.00082388
0.0030061 -0.0011185 -0.0014891 -0.00056198 0.00034848 0.001672 0.24302 0.0041255
-0.004596 0.0088595 0.0014274 -0.002063
-0.0019532 -0.0006179 -0.00083422 9.4268e-05 -0.0019384 -0.00023211 -0.0045721 0.0088724
0.21183 0.12472 -0.00024008 0.0092969
0.00064386 0.0004371 -0.00090582 -0.00038675 -0.00044065 -0.00083618 0.0014376 -0.002074
-0.00024625 0.0092663 0.25943 0.17259
1760000000 0.27738 -0.070807 0.0043759 0.0065203 -0.0021351 0.00091851 0.0013972 -0.003346
-0.0012371 0.00072747 0.00044125 -0.00059757
0.0043934 0.0065235 0.24815 0.20176 0.0017433 -0.00092094 -0.0011755 0.0002136
-0.00099029 0.00095729 -0.00053293 0.00042901
-0.0021782 0.00095024 0.0017296 -0.0009473 0.21062 -0.22951 0.0012248 0.0011978
-0.001134 0.0014196 -0.001334 -0.00059264
0.0013852 -0.0033484 -0.001167 0.00021879 0.0012187 0.001203 0.23408 -0.047478
-0.001392 0.0082526 -0.00022267 -0.0023784
-0.0012254 0.0007208 -0.00099124 0.00096516 -0.0011479 0.001421 -0.0013714 0.008257
0.2267 0.08992 0.0035655 0.0068983
0.00045462 -0.00063313 -0.00052662 0.00043858 -0.0013314 -0.00058401 -0.00023173 -0.0023855
0.0035544 0.0068613 0.27202 0.13475
1820000000 0.25279 -0.1081 0.004719 0.0028959 -2.1951e-05 0.0023692 -0.0009186 -0.0030865
-0.0010435 0.00083351 -4.3125e-05 -0.00013709
0.0047051 0.0028901 0.25814 0.1718 -0.00016983 8.4538e-05 -0.0012844 0.00092994
1.68e-05 0.0013458 -0.0004559 0.00051522
3.5764e-05 0.002344 -0.00017122 9.3321e-05 0.1605 -0.24541 0.001538 0.00043533
-0.00027065 0.0022623 -0.0012939 0.00038387
-0.00093395 -0.0030632 -0.0012731 0.00093212 0.0015331 0.00043574 0.20429 -0.094696
1.4244e-05 0.0067361 -0.0014759 -0.0014433
-0.0010289 0.00082816 3.2379e-05 0.0013459 -0.00026251 0.0022543 2.331e-05 0.0067361
0.24401 0.061114 0.0045644 0.0035961
-5.6626e-05 -0.00011401 -0.00045516 0.00051983 -0.0012887 0.00038288 -0.0014855 -0.0014462
0.0045371 0.0035654 0.27436 0.09884
1880000000 0.21772 -0.1484 0.0025922 0.00048529 -0.00041128 0.0018509 -0.0029076 -0.002175
-0.00025542 0.0016122 0.0002455 -0.00058116
0.0025896 0.0004917 0.26253 0.12528 -0.0021217 0.0016946 -0.00016203 0.00168
0.00065208 0.0011609 0.00012606 0.0008245
-0.00041687 0.001881 -0.0021053 0.0017063 0.10832 -0.25471 0.0017963 -0.0010437
0.0015617 0.001955 -0.00098676 0.0012098
-0.0029083 -0.002168 -0.00014696 0.0016733 0.0018001 -0.0010387 0.16383 -0.13496
0.00077491 0.0049951 -0.0023174 0.00049696
-0.00022448 0.0016176 0.00065016 0.0011478 0.0015472 0.001943 0.00079265 0.0049953
0.24703 0.028702 0.0046695 0.0014771
0.00024455 -0.00057436 0.00013059 0.00083107 -0.00096977 0.0012122 -0.0023294 0.00050527
0.0046444 0.001481 0.27404 0.064561
1940000000 0.17818 -0.17417 0.00043495 -0.001316 0.0012129 0.0018216 -0.0037943 0.00043426
0.0012645 0.00095065 -0.00066777 -0.00050268
0.00042462 -0.0013186 0.26308 0.093525 -0.00094103 0.0038143 0.0010259 0.0013159
0.0018388 0.00036175 0.00080765 0.0002161
0.0012418 0.0018033 -0.0009256 0.0038222 0.0625 -0.24782 0.00030419 -0.0022981
0.0024172 0.00042376 0.00021623 0.0015943
-0.003841 0.00047828 0.0010279 0.0013098 0.00031633 -0.0023006 0.11163 -0.16534
-5.9253e-05 0.0039205 -0.0013111 0.0014939
0.0012611 0.00090535 0.001846 0.00034035 0.0024335 0.00041506 -5.0683e-05 0.0039195
0.24891 -0.0099207 0.0035966 -0.0017949
-0.00068463 -0.00049316 0.00080848 0.00021153 0.00019497 0.0016004 -0.0013206 0.0014852
0.0035691 -0.0017852 0.2631 0.028779
2000000000 0.13183 -0.18888 -0.0034399 0.00047082 0.0023912 0.0015582 -0.0023483 0.0035029
0.00105 0.0001414 -0.00074001 0.0003858
-0.0034215 0.00047588 0.24885 0.058064 -0.00088177 0.0056124 0.0016389 0.00035824
0.0012612 -0.0014266 0.00038877 8.7717e-05
0.0023938 0.0015681 -0.00084265 0.005627 0.019167 -0.23326 -0.0013842 -0.0013145
0.0019511 -0.0011535 0.0014864 0.0012443
-0.0023382 0.0035201 0.0016494 0.00035072 -0.0013702 -0.0013119 0.058178 -0.17543
-0.0015771 0.0037505 9.0017e-06 0.0021437
0.0010888 0.00016789 0.0012499 -0.0014408 0.0019405 -0.0011544 -0.0015741 0.0037629
0.243 -0.043828 0.00033857 -0.0025204
