!Keysight Technologies,M9804A,MY58100912,A.14.10.03
!Date: Thursday, April 27, 2023 10:28:33
!Correction: S11(C  6-Port  ) 
!S12(C  6-Port  ) 
!S13(C  6-Port  ) 
!S14(C  6-Port  ) 
!S15(C  6-Port  ) 
!S16(C  6-Port  ) 
!S21(C  6-Port  ) 
!S22(C  6-Port  ) 
!S23(C  6-Port  ) 
!S24(C  6-Port  ) 
!S25(C  6-Port  ) 
!S26(C  6-Port  ) 
!S31(C  6-Port  ) 
!S32(C  6-Port  ) 
!S33(C  6-Port  ) 
!S34(C  6-Port  ) 
!S35(C  6-Port  ) 
!S36(C  6-Port  ) 
!S41(C  6-Port  ) 
!S42(C  6-Port  ) 
!S43(C  6-Port  ) 
!S44(C  6-Port  ) 
!S45(C  6-Port  ) 
!S46(C  6-Port  ) 
!S51(C  6-Port  ) 
!S52(C  6-Port  ) 
!S53(C  6-Port  ) 
!S54(C  6-Port  ) 
!S55(C  6-Port  ) 
!S56(C  6-Port  ) 
!S61(C  6-Port  ) 
!S62(C  6-Port  ) 
!S63(C  6-Port  ) 
!S64(C  6-Port  ) 
!S65(C  6-Port  ) 
!S66(C  6-Port  ) 
!S6P File: Measurement: :
# Hz S  RI   R 50
500000000 -0.33811 -0.03821 -0.010465 -0.001625 -0.0075748 0.013103 -0.0032563 0.012059
0.011646 0.0049817 -0.0029568 0.0093755
-0.010486 -0.0013814 -0.41919 -0.050991 0.0080254 -0.01081 0.0023034 0.011679
0.0069886 0.0029026 0.0026379 0.013178
-0.0074203 0.013147 0.0079988 -0.010797 -0.26551 0.20926 0.0081265 0.0032606
-0.001807 0.0084503 0.0025353 0.011747
-0.0036148 0.011768 0.0023941 0.011788 0.0081582 0.0032487 -0.33074 0.043426
-0.017711 -0.0060798 0.015721 0.024723
0.011805 0.0052851 0.0068401 0.0028118 -0.0018766 0.0084376 -0.017679 -0.0061581
-0.22695 -0.19564 -0.025329 0.0054495
-0.003258 0.0095892 0.0026588 0.013538 0.002556 0.012002 0.015938 0.024741
-0.025291 0.0054625 -0.26778 -0.13141
560000000 -0.31599 0.1253 -0.022035 -0.063899 0.0011104 0.013231 0.0069858 0.0097424
0.010594 0.0032467 0.010006 0.0059866
-0.022607 -0.064197 -0.37614 0.10699 -0.041001 -0.037918 0.013833 0.0041175
-0.013541 -0.0049232 0.0034217 0.00020671
0.00077973 0.013325 -0.041333 -0.037477 -0.1832 0.25769 -0.00084548 -0.0047484
0.018859 0.0039881 0.0070127 -0.0062805
0.0075986 0.010166 0.014437 0.0043054 -0.00079612 -0.0048934 -0.30643 0.13387
0.0034681 -0.022634 0.0044786 -0.021773
0.010495 0.0033233 -0.013389 -0.0046217 0.018857 0.0038726 0.0036949 -0.022525
-0.28958 -0.018542 0.01049 -0.049691
0.011196 0.0060713 0.0046558 -0.00089065 0.0070573 -0.0061409 0.0046095 -0.02166
0.010342 -0.048795 -0.33046 0.018136
620000000 -0.27529 0.107 -0.022934 0.0078478 0.0039279 0.0092534 0.0084445 -0.0037768
0.011444 -0.00056896 0.0018034 -0.0019849
-0.023029 0.0078224 -0.40248 0.060106 -0.018327 -5.2883e-06 -0.0011181 -0.0019915
0.011217 -0.0066552 0.0019695 -0.0033284
0.0037204 0.0091534 -0.018405 9.8677e-05 -0.15331 0.26673 -0.0012136 -0.0049769
-0.0028406 -0.0029336 0.009059 -0.0038136
0.0082102 -0.0038183 -0.0010786 -0.0018015 -0.0011438 -0.0050371 -0.26539 0.14428
-0.037475 -0.020201 0.012186 0.026432
0.011251 -0.00058771 0.011247 -0.0066969 -0.0029306 -0.0029189 -0.037629 -0.020169
-0.21119 -0.055907 -0.041144 0.014151
0.0010794 -0.0017001 0.0019979 -0.0031881 0.0092436 -0.0039157 0.012445 0.026298
-0.041563 0.013849 -0.25051 -0.017664
680000000 -0.23403 0.19285 -0.027003 -0.014154 0.0047963 0.0052656 0.001058 -0.0077224
-0.0035475 -0.011387 0.0035147 -0.0063551
-0.02704 -0.014063 -0.38783 0.15783 -0.03301 -0.001024 -0.0018764 -0.00047335
-0.0021682 -0.008898 -0.002341 -0.0017814
0.0050705 0.0052833 -0.032986 -0.0010905 -0.10241 0.28674 -0.0011895 -7.9066e-05
-0.0018916 0.00054463 -0.003294 -0.0088547
0.0014155 -0.0077267 -0.0016494 -0.0005145 -0.0012346 -6.291e-05 -0.22042 0.19347
-0.0235 -0.007126 -0.010038 -0.011711
-0.0034169 -0.011173 -0.0021276 -0.0088867 -0.0017277 0.0005827 -0.02348 -0.0071161
-0.25823 0.041438 -0.0053334 -0.0087179
0.0040952 -0.0069414 -0.0022392 -0.0021376 -0.0034452 -0.0088778 -0.0098924 -0.011388
-0.0051102 -0.008384 -0.26256 0.088744
740000000 -0.19025 0.18711 -0.038588 0.0269 0.013032 -0.0051761 0.00023085 -0.0041785
-0.0048025 -0.0026236 -0.0050714 0.0023775
-0.038477 0.026786 -0.33523 0.17668 -0.035392 0.035044 -0.00066684 -0.0059895
-0.012042 0.0077414 -0.0020029 -0.006584
0.012986 -0.0050887 -0.035393 0.035163 -0.068295 0.28482 -0.0018897 0.0031957
-0.0023977 -0.0045414 -0.0016598 -2.4288e-05
-9.4829e-05 -0.0041028 -0.00071574 -0.0059084 -0.0018345 0.003193 -0.20354 0.20199
-0.043904 -0.0072873 0.023177 0.014691
-0.0049287 -0.0026341 -0.012002 0.0076051 -0.0024226 -0.0044997 -0.043947 -0.0073988
-0.16019 0.06896 -0.044463 0.00045772
-0.0052046 0.0025094 -0.0021604 -0.0063763 -0.0015081 2.2757e-05 0.023118 0.014939
-0.044344 4.0252e-05 -0.24836 0.093432
800000000 -0.15732 0.22792 -0.022337 0.016635 0.0051466 -0.010408 -0.0053144 -0.0022724
-0.0040434 0.0022434 0.0036784 0.0009541
-0.022399 0.016541 -0.3379 0.24651 -0.0078604 0.033912 -0.002541 0.0021571
-0.00062987 0.0031356 0.0008248 0.0054226
0.0052063 -0.010538 -0.0077805 0.03392 -0.027852 0.30796 0.00079831 0.0014176
0.00041365 0.00352 -0.0021613 0.0012028
-0.0050992 -0.0022227 -0.0024742 0.0020593 0.00079715 0.0013796 -0.17522 0.22923
-0.028644 0.013561 0.013122 -0.010538
-0.0038668 0.0022845 -0.00057578 0.0030707 0.0004378 0.0035668 -0.028707 0.013612
-0.20702 0.091715 -0.017389 0.018672
0.0038095 0.00067565 0.00078811 0.0052419 -0.0021965 0.0012276 0.013072 -0.010768
-0.01739 0.018718 -0.24402 0.14416
860000000 -0.12328 0.24796 -0.017416 0.030809 -0.0034719 -0.0099292 -0.0023105 0.00097035
0.0042795 0.0050794 -0.0032048 -0.0031084
-0.017286 0.030791 -0.29036 0.28863 0.0077856 0.033924 0.00028601 0.0017785
0.0043441 0.00019 0.0032578 0.00051853
-0.0034876 -0.0098951 0.0078876 0.033902 0.020177 0.31555 -0.00040461 -0.00029556
0.0029268 -0.0013645 0.0014943 0.0040702
-0.0024925 0.00097977 0.00028172 0.0019114 -0.00041941 -0.00024634 -0.13923 0.24086
-0.018278 0.018463 -0.005388 -0.0090716
0.0043067 0.0050821 0.0043884 0.00020107 0.0029368 -0.0013919 -0.018207 0.018512
-0.15584 0.14255 -0.025311 0.01594
-0.0034766 -0.0027132 0.0032777 0.00058738 0.0014948 0.0040563 -0.0055298 -0.0089937
-0.025409 0.016091 -0.19194 0.18888
920000000 -0.097841 0.27096 0.0050526 0.037745 -0.0093237 -0.0044588 -0.0019682 0.0020397
0.00063331 0.0018149 0.0025446 -0.0015243
0.0050711 0.037757 -0.26147 0.30949 0.028027 0.021737 0.0014096 0.0010408
0.0067681 -0.00030949 0.003845 -0.0027771
-0.0093711 -0.0043925 0.028065 0.021655 0.066333 0.31625 0.0017653 -0.00012547
0.0011379 -0.00026075 0.00081829 -0.0011132
-0.0017886 0.0019989 0.0013817 0.00097144 0.0018 -0.0001379 -0.115 0.25759
-0.01069 0.030505 0.0033799 -0.006574
0.00073857 0.001842 0.0067742 -0.00040335 0.0011282 -0.00026467 -0.010745 0.030576
-0.14583 0.14868 -0.0025764 0.027596
0.0027544 -0.0016243 0.0037776 -0.002831 0.00081603 -0.0011148 0.0034203 -0.0066641
-0.0026683 0.027597 -0.19992 0.20362
980000000 -0.051108 0.29011 0.01743 0.029922 -0.0090179 0.0047068 0.0022548 0.0036509
0.0039727 -0.0014209 -0.0029399 -0.0022498
0.017406 0.029911 -0.20864 0.34362 0.032815 0.0048186 0.0020065 -9.3465e-05
0.0013143 -0.0058729 -0.00045737 -0.0024109
-0.0090284 0.0046968 0.03284 0.0047178 0.11252 0.30964 0.00044726 -0.0012079
0.00033875 -0.0021363 0.0014719 -0.00013295
0.0021674 0.0036374 0.0020751 -2.5724e-05 0.0004476 -0.0011919 -0.076701 0.26884
0.0077243 0.029805 -0.0090803 -0.0074291
0.0039651 -0.0013912 0.0013809 -0.0059215 0.0002992 -0.0021524 0.0077965 0.029801
-0.11491 0.17757 0.0051926 0.019575
-0.0031914 -0.0022713 -0.00039128 -0.0025882 0.0014694 -0.00014165 -0.0091155 -0.0073952
0.0051501 0.019673 -0.15769 0.24842
1040000000 -0.0086812 0.29841 0.033179 0.017978 -0.0011517 0.0068852 0.0023838 0.0008094
2.1339e-05 -0.0036508 -9.5807e-05 -0.0012549
0.033133 0.017908 -0.17305 0.35651 0.029291 -0.014822 0.0015782 -0.0016033
-0.002555 -0.0025548 -0.0012659 -0.0026235
-0.0010919 0.0068849 0.029252 -0.014859 0.15852 0.29594 -0.00050395 -0.0014979
-0.0017054 -0.00078615 -0.00049848 -0.0010261
0.0025142 0.00066448 0.0014615 -0.0015031 -0.00051101 -0.0015026 -0.049507 0.27904
0.018945 0.017473 -0.00223 0.0014206
1.2232e-05 -0.0037571 -0.0025411 -0.0024665 -0.0017146 -0.00080122 0.018932 0.017526
-0.083033 0.18546 0.013276 0.018479
-0.0001799 -0.0011644 -0.0014692 -0.0023267 -0.00050353 -0.0010176 -0.0021103 0.0015584
0.013183 0.018359 -0.1362 0.26843
1100000000 0.036677 0.3063 0.035663 -0.0042262 0.0028582 0.0038074 0.0025573 -0.0013017
-0.0018535 -0.0032108 -0.0039834 -9.3284e-05
0.035654 -0.0042433 -0.12973 0.37359 0.015044 -0.027611 2.3241e-05 -0.001853
-0.0033071 -0.00071527 -0.0035889 -0.00045272
0.0028803 0.0037975 0.014932 -0.027694 0.20482 0.27564 -0.0018775 0.00025537
-0.0016208 0.00051299 -0.0011337 -0.00028234
0.0024794 -0.0012406 2.6924e-05 -0.0018501 -0.0018851 0.00026075 -0.0092679 0.28409
0.024215 0.0049435 -0.0025625 0.00012686
-0.0019447 -0.0031258 -0.003318 -0.0006805 -0.0016349 0.00048781 0.024239 0.0049344
-0.065 0.19944 0.019111 0.008814
-0.0038901 0.00011141 -0.0035685 -0.00047126 -0.0011347 -0.00030488 -0.0024931 0.00012607
0.019055 0.0088916 -0.090307 0.2984
1160000000 0.087829 0.30104 0.023711 -0.02075 0.0026908 -0.00050644 -0.0002595 -0.0024508
-0.0041627 -0.00066149 -0.00079027 0.0041036
0.023718 -0.02067 -0.08621 0.37767 -0.0037571 -0.02889 -0.0017486 -0.0016337
-0.0026294 0.0025882 -0.0012712 0.0018055
0.0027104 -0.00052267 -0.0038826 -0.028877 0.24773 0.24485 -0.00065703 0.0017393
-0.00053798 0.0019184 -0.00088153 0.00029316
-0.00022339 -0.0024598 -0.0017737 -0.001696 -0.0006403 0.0017428 0.029832 0.28143
0.020596 -0.010385 -0.0029156 0.0051793
-0.0041559 -0.00068656 -0.0025865 0.0025881 -0.00053962 0.0019485 0.020571 -0.010429
-0.031589 0.20879 0.017808 0.00042858
-0.00082177 0.0040653 -0.0013607 0.0019106 -0.00089323 0.00023492 -0.0029314 0.005236
0.018032 0.00024527 -0.043393 0.30136
1220000000 0.13233 0.28991 0.01028 -0.029911 -0.0015917 -0.00082142 -2.3404e-05 -0.00096823
-0.0028214 0.0024964 0.001207 0.002016
0.010268 -0.029916 -0.04182 0.38947 -0.01676 -0.020967 -0.0024827 0.00042185
-3.2262e-05 0.0030332 -0.00082323 0.0018568
-0.0015841 -0.0007919 -0.016898 -0.020928 0.28687 0.20581 0.00085801 0.0016079
0.000616 0.0012026 0.00030842 0.00067181
-4.1132e-05 -0.00093108 -0.0024677 0.00045661 0.00086221 0.0016154 0.069653 0.27341
0.0099927 -0.016689 0.0021687 0.0014989
-0.0027494 0.0025401 -4.0081e-06 0.0030162 0.00062434 0.0012198 0.01002 -0.016675
-0.0087506 0.21826 0.014301 -0.012495
0.0013528 0.0021068 -0.00070601 0.001841 0.00031092 0.00068689 0.0022424 0.0015201
0.014211 -0.012541 -0.012301 0.31858
1280000000 0.18197 0.26774 -0.0080235 -0.028219 -0.0017942 0.0025448 -0.00096736 -0.0020948
-0.0006274 0.0030382 0.0025001 0.0010907
-0.0079811 -0.028193 0.0038518 0.38053 -0.023526 -0.0084778 -0.0010178 0.0014559
0.0017665 0.001678 0.00067631 0.0020421
-0.0017905 0.0025336 -0.023588 -0.0083715 0.31741 0.16199 0.0015688 -8.4951e-05
0.0010307 0.00025067 0.0004551 0.00029794
-0.00091382 -0.0020796 -0.001043 0.001396 0.0015868 -9.2553e-05 0.10654 0.25728
0.0008835 -0.018564 7.9359e-05 0.00012155
-0.00067246 0.0030015 0.0017949 0.0017096 0.001022 0.00027047 0.00084017 -0.018576
0.027542 0.22238 0.0030746 -0.014836
0.0025162 0.0010259 0.00060363 0.0020731 0.00047385 0.00026924 7.3881e-05 2.5612e-05
0.003157 -0.014787 0.03569 0.32036
1340000000 0.21896 0.23378 -0.017612 -0.018645 0.00084415 0.0044457 -0.0017155 -0.00075285
0.0014662 0.0026949 0.0017201 -0.0014093
-0.017556 -0.018626 0.043084 0.37227 -0.021438 0.0041478 -0.00010157 0.001868
0.0018673 0.00071982 0.0012217 0.00078264
0.00091067 0.004429 -0.021459 0.0042424 0.33947 0.1142 0.00099287 -0.00096827
0.00067089 -0.00044309 0.00014933 0.00039923
-0.0017836 -0.00075356 -3.322e-05 0.0019022 0.0010059 -0.00098028 0.13925 0.23744
-0.0082022 -0.015731 0.00089802 0.00033727
0.0014934 0.0026775 0.0018641 0.00069715 0.0006801 -0.00045558 -0.0082082 -0.015754
0.057494 0.21813 -0.003401 -0.013277
0.0016927 -0.0013512 0.0012491 0.00075442 0.00011723 0.00032448 0.0010108 0.00039677
-0.0033626 -0.013292 0.073735 0.31609
1400000000 0.25172 0.1954 -0.023197 -0.0072856 0.0051861 0.0030114 -0.0021386 0.00066408
0.0023537 0.00085578 0.00020527 -0.0012758
-0.023165 -0.0072879 0.080301 0.35931 -0.014836 0.012207 0.0012683 0.0013195
0.0011021 -0.00084741 0.0012169 0.00022682
0.0051806 0.003037 -0.014787 0.012297 0.35263 0.060669 4.832e-05 -0.0015746
4.0042e-05 -0.00046816 0.00044161 0.00025494
-0.002035 0.00066114 0.0012475 0.0013069 6.4241e-05 -0.0015844 0.16908 0.20879
-0.013883 -0.0093548 -0.0008153 -0.00046648
0.0023823 0.00078723 0.0011013 -0.0008546 2.7409e-05 -0.00050499 -0.0139 -0.0093232
0.090781 0.21455 -0.009794 -0.0086328
0.00021956 -0.0013909 0.0011904 0.0002313 0.00050175 0.0002645 -0.00078778 -0.00054902
-0.0098095 -0.0087074 0.11922 0.30501
1460000000 0.27411 0.15137 -0.020123 0.0047507 0.0054082 -0.0018937 -0.0015665 0.0018184
0.0020426 -0.00050934 -0.00039646 -0.0011213
-0.020103 0.0047372 0.11432 0.3376 -0.0063073 0.015164 0.0016962 0.0001754
0.00091234 -0.0012072 0.001102 -0.00054048
0.0054007 -0.0019142 -0.0062373 0.015222 0.35873 0.0061582 -0.0011132 -0.001199
0.00022335 -0.00014073 0.00047522 -0.00033531
-0.0016202 0.0018208 0.00173 0.0001689 -0.0011401 -0.0011979 0.19564 0.17979
-0.014953 -0.0028353 -0.00090077 0.0018749
0.002046 -0.0004736 0.00088075 -0.0012133 0.00023441 -0.00014899 -0.01496 -0.0028197
0.11997 0.20038 -0.011668 -0.0028641
-0.00043427 -0.00098308 0.00108 -0.00058434 0.00042687 -0.00033396 -0.0009696 0.0019183
-0.011632 -0.0029407 0.15228 0.28447
1520000000 0.28607 0.10951 -0.014549 0.010196 0.003207 -0.0040904 0.00015581 0.0025675
0.0020616 -0.0017171 -0.0011555 -6.6283e-05
-0.014526 0.010193 0.14798 0.32299 0.0014224 0.01311 0.0016325 -0.00077541
4.0136e-06 -0.00094055 0.00036892 -0.0010131
0.0032061 -0.0041179 0.0014836 0.013128 0.35185 -0.05001 -0.0010381 -0.00029949
0.00063819 -0.00081341 2.0065e-05 -9.5143e-05
0.00019012 0.0025728 0.0016148 -0.0007694 -0.0010525 -0.00030122 0.21951 0.142
-0.014276 0.0025108 0.0013259 0.0019872
0.0020371 -0.0017386 8.3752e-06 -0.00094607 0.00064018 -0.00080753 -0.014284 0.0025395
0.14825 0.18671 -0.011585 0.0015187
-0.0011489 -0.00014403 0.00036102 -0.0009988 4.4188e-05 -5.4169e-05 0.0014061 0.0019701
-0.011614 0.0015933 0.18564 0.26423
1580000000 0.29503 0.063386 -0.0079466 0.013157 -0.00083155 -0.0048166 0.0014416 0.00187
-0.00031392 -0.0020227 -0.00038643 0.0004011
-0.0079395 0.013141 0.17535 0.29817 0.005093 0.0083179 0.00044451 -0.0016091
-0.00052044 -0.0010272 -0.00026685 -0.00079721
-0.00084095 -0.0048216 0.0051345 0.0083129 0.33147 -0.1076 -0.0015809 0.00053829
-0.00033673 -0.0011856 0.00011526 -0.00050274
0.0014543 0.0018261 0.00045617 -0.0016197 -0.001584 0.00053749 0.23383 0.10247
-0.010949 0.0073536 0.0022247 0.00091234
-0.00034785 -0.0020146 -0.00053389 -0.0010144 -0.00031632 -0.0011708 -0.010946 0.0073571
0.173 0.16912 -0.0091384 0.0072873
-0.00054154 0.0003942 -0.00027687 -0.00083675 0.00015824 -0.00053176 0.0022047 0.00084439
-0.009099 0.007198 0.2183 0.23721
1640000000 0.29682 0.022243 -0.0013757 0.012149 -0.0026528 -0.0025688 0.0027391 0.00098895
-0.00061641 -0.0014116 -0.00031132 0.00059096
-0.0013804 0.012131 0.20484 0.27313 0.00586 0.0036031 -0.00063204 -0.0016605
-0.0009673 -0.00040597 -0.00045645 -0.00073807
-0.0026804 -0.0025619 0.0058802 0.0035611 0.30335 -0.15679 -0.0006969 0.0013856
-0.001065 -0.0010875 -7.4241e-05 -0.00037599
0.0027496 0.0010109 -0.0006436 -0.0016477 -0.00070367 0.0013829 0.2463 0.053507
-0.0068382 0.0083364 0.002429 -0.00083424
-0.00064675 -0.0013805 -0.0009585 -0.00039865 -0.0010885 -0.0010759 -0.0068516 0.008375
0.1961 0.14465 -0.0046411 0.0091944
-0.00020615 0.00052211 -0.00043453 -0.00076123 -8.9519e-05 -0.00038349 0.0024773 -0.00071548
-0.0047164 0.009226 0.24338 0.2061
1700000000 0.28942 -0.022906 0.0019506 0.0093356 -0.0034946 0.00010822 0.0029599 -0.0013069
-0.0019558 -0.00071399 0.00062186 0.00048018
0.0019451 0.0093268 0.22305 0.24145 0.0038716 0.00066176 -0.0014641 -0.0006257
-0.0007574 1.8946e-05 -0.00090877 -0.00045757
-0.0035081 0.00010567 0.0038749 0.00065733 0.25974 -0.19685 0.0003734 0.0016496
-0.0019618 -0.00018847 -0.00045724 -0.00080423
0.0029384 -0.0013228 -0.0014779 -0.00061661 0.0003922 0.0016765 0.24334 0.0034629
-0.004316 0.0089291 0.0014408 -0.0022121
-0.0019834 -0.0006985 -0.00077491 2.0521e-05 -0.0019323 -0.0001728 -0.0042966 0.0089093
0.21354 0.12447 6.7988e-05 0.0095511
0.00056709 0.00044836 -0.00094265 -0.00046442 -0.00043307 -0.00084539 0.0014608 -0.0022592
0.00011441 0.0095772 0.26016 0.17159
1760000000 0.27708 -0.071254 0.004229 0.0061462 -0.0023002 0.0010068 0.0012782 -0.0033795
-0.0013015 0.0006535 0.00041283 -0.00066992
0.0042233 0.0061514 0.24888 0.20136 0.00162 -0.0010634 -0.0011361 0.00013891
-0.00096533 0.0008233 -0.00062384 0.00041783
-0.0022845 0.0010041 0.0016154 -0.00106 0.21062 -0.22999 0.0012378 0.0010848
-0.0010783 0.001444 -0.0012918 -0.00052072
0.0012146 -0.0033698 -0.0011256 0.00013099 0.0012295 0.0010422 0.23409 -0.048337
-0.0010797 0.0081514 -0.00022873 -0.0025067
-0.0013016 0.00068179 -0.00095418 0.00083172 -0.0011003 0.0014203 -0.0010885 0.0081856
0.22851 0.089096 0.0039839 0.0069518
0.00050026 -0.00056455 -0.00063356 0.00042229 -0.0013484 -0.00051736 -0.00028038 -0.0023903
0.0039984 0.0070128 0.27275 0.13384
1820000000 0.25242 -0.10837 0.0044007 0.0026776 -2.1159e-07 0.0024529 -0.001064 -0.0031054
-0.0011041 0.00087892 -2.0845e-05 -0.00012284
0.0044032 0.0026818 0.25874 0.1712 -0.000186 -2.3586e-05 -0.0013303 0.00087327
-7.0602e-05 0.0012875 -0.00055583 0.0005461
1.6332e-05 0.0024397 -0.00017769 -2.8518e-05 0.1607 -0.24533 0.001427 0.00047978
-0.00034169 0.0023407 -0.001502 0.0003506
-0.0010797 -0.0030299 -0.0013103 0.00090598 0.0014816 0.00049299 0.20397 -0.095342
0.00024099 0.0066814 -0.0017557 -0.0015309
-0.0010984 0.00090098 -5.451e-05 0.0012936 -0.00029895 0.0023717 0.00028302 0.0066756
0.24559 0.060083 0.0047802 0.0033673
-4.9942e-05 -7.292e-05 -0.00056955 0.00055804 -0.0013735 0.00028915 -0.0017044 -0.0014785
0.0048432 0.0034245 0.2752 0.097826
1880000000 0.21721 -0.14855 0.0022995 0.00045921 -0.0003627 0.0020005 -0.0030327 -0.0021688
-0.00028004 0.0015827 0.00026736 -0.00051807
0.0022883 0.00045888 0.2629 0.12448 -0.0022234 0.0016413 -0.00024102 0.0016774
0.00058331 0.0012133 9.7099e-05 0.00099468
-0.00034206 0.0020178 -0.0022294 0.0016958 0.10852 -0.25496 0.0018975 -0.0009377
0.001617 0.0019918 -0.00089672 0.00141
-0.0030512 -0.0021449 -0.0002297 0.0016965 0.0018686 -0.0009369 0.16343 -0.13559
0.0010347 0.004748 -0.0023687 0.00054825
-0.00029086 0.0016029 0.00060666 0.001199 0.0015977 0.0019562 0.0010459 0.0048026
0.24846 0.027312 0.0048986 0.001285
0.00028831 -0.00038987 0.00010149 0.0010128 -0.00084782 0.0014048 -0.0024572 0.00048231
0.0048098 0.0012594 0.27464 0.063629
1940000000 0.17792 -0.1741 0.00020551 -0.0012505 0.0012737 0.0018712 -0.0036001 0.00053815
0.0013596 0.0010619 -0.0005625 -0.0004884
0.00020296 -0.0012268 0.26312 0.092718 -0.0011239 0.0037909 0.0010174 0.0013633
0.0018283 0.00049112 0.00086432 0.0003222
0.0013572 0.0018797 -0.0010916 0.0038353 0.062429 -0.24837 0.00038474 -0.0020902
0.0024667 0.00049459 0.00045544 0.0016947
-0.0035923 0.00056214 0.00097858 0.0013944 0.00041191 -0.0021026 0.11077 -0.16559
-1.9325e-05 0.0034087 -0.001379 0.0016424
0.0013201 0.0010381 0.0018199 0.00048547 0.0024904 0.00050128 -5.9225e-05 0.0034287
0.25001 -0.011764 0.0037592 -0.0021103
-0.00073086 -0.00060941 0.00084008 0.00030958 0.00058223 0.0017299 -0.0011965 0.0016882
0.0037584 -0.0019615 0.26347 0.027597
2000000000 0.13144 -0.18872 -0.0036238 0.00066482 0.0024974 0.0017396 -0.0023269 0.0036258
0.0010713 0.00028125 -0.00067582 0.00036324
-0.0036425 0.00067361 0.24873 0.057318 -0.0010137 0.0056852 0.0016592 0.00041955
0.0013131 -0.0013663 0.0005056 8.0907e-05
0.0024644 0.0017139 -0.0009927 0.0056825 0.018812 -0.23369 -0.001409 -0.0013989
0.0019313 -0.0012225 0.001695 0.0011736
-0.0023542 0.0035507 0.0016294 0.00036513 -0.001411 -0.001391 0.057699 -0.1751
-0.0017386 0.0036385 -0.00014224 0.0022207
0.0011591 0.00027945 0.0012915 -0.0013745 0.0019278 -0.0012225 -0.0017102 0.0036684
0.24377 -0.04551 0.00042013 -0.0028964
