!Keysight Technologies,M9804A,MY58100912,A.14.10.03
!Date: Thursday, April 27, 2023 10:28:33
!Correction: S11(C  6-Port  ) 
!S12(C  6-Port  ) 
!S13(C  6-Port  ) 
!S14(C  6-Port  ) 
!S15(C  6-Port  ) 
!S16(C  6-Port  ) 
!S21(C  6-Port  ) 
!S22(C  6-Port  ) 
!S23(C  6-Port  ) 
!S24(C  6-Port  ) 
!S25(C  6-Port  ) 
!S26(C  6-Port  ) 
!S31(C  6-Port  ) 
!S32(C  6-Port  ) 
!S33(C  6-Port  ) 
!S34(C  6-Port  ) 
!S35(C  6-Port  ) 
!S36(C  6-Port  ) 
!S41(C  6-Port  ) 
!S42(C  6-Port  ) 
!S43(C  6-Port  ) 
!S44(C  6-Port  ) 
!S45(C  6-Port  ) 
!S46(C  6-Port  ) 
!S51(C  6-Port  ) 
!S52(C  6-Port  ) 
!S53(C  6-Port  ) 
!S54(C  6-Port  ) 
!S55(C  6-Port  ) 
!S56(C  6-Port  ) 
!S61(C  6-Port  ) 
!S62(C  6-Port  ) 
!S63(C  6-Port  ) 
!S64(C  6-Port  ) 
!S65(C  6-Port  ) 
!S66(C  6-Port  ) 
!S6P File: Measurement: :
# Hz S  RI   R 50
500000000 -0.33514 -0.052934 -0.011244 -0.0012249 -0.0083986 0.01353 -0.0037001 0.012277
0.012198 0.0054833 -0.0030033 0.0090398
-0.011021 -0.00087273 -0.41678 -0.063267 0.007888 -0.010295 0.0017064 0.01123
0.0079521 0.0035137 0.0021966 0.012853
-0.0080816 0.013623 0.0078679 -0.010324 -0.26769 0.19959 0.0067532 0.0033762
-0.001499 0.0087433 0.00085857 0.011946
-0.0038347 0.012276 0.0016182 0.011272 0.006587 0.0033587 -0.33185 0.042843
-0.017283 -0.0040546 0.016877 0.02341
0.011711 0.0052408 0.008454 0.003828 -0.00098085 0.0086945 -0.018143 -0.0046088
-0.24932 -0.19411 -0.026334 0.0060805
-0.0037503 0.0083383 0.0018464 0.012766 0.0004273 0.012121 0.016464 0.024329
-0.025309 0.0068562 -0.27139 -0.12408
560000000 -0.31892 0.11298 -0.022792 -0.065498 0.00027107 0.013004 0.0052554 0.010682
0.010362 0.0046694 0.0097038 0.0072777
-0.023065 -0.065114 -0.37513 0.099072 -0.042032 -0.036732 0.014594 0.0034114
-0.012748 -0.003037 0.0042868 -0.0018225
0.00010362 0.013223 -0.041907 -0.036679 -0.18635 0.25057 -0.00035594 -0.0042533
0.018288 0.0045771 0.0081014 -0.0052968
0.0054442 0.010848 0.014006 0.0034255 -0.00025198 -0.004345 -0.30711 0.13573
0.0049772 -0.022741 0.0055299 -0.021237
0.01076 0.0041004 -0.01332 -0.0034914 0.01865 0.0039306 0.0044125 -0.022882
-0.31119 -0.015302 0.0087416 -0.047521
0.010176 0.0076353 0.0040586 -0.0018961 0.0084625 -0.0049019 0.0050826 -0.021286
0.0088104 -0.047708 -0.33227 0.025386
620000000 -0.27715 0.093247 -0.022817 0.0085741 0.0041709 0.0094301 0.007803 -0.0038022
0.012838 -0.0011651 0.00081861 -0.0027415
-0.022859 0.0086334 -0.40354 0.049206 -0.018252 0.00079963 -0.0015699 -0.0019734
0.012412 -0.0060196 0.0010529 -0.003071
0.0043435 0.0093093 -0.018237 0.00086165 -0.1553 0.2605 -0.00055989 -0.0050709
-0.0027447 -0.0031483 0.009196 -0.0035723
0.0081406 -0.0036592 -0.0013861 -0.0017224 -0.00034359 -0.0051929 -0.2659 0.14575
-0.039635 -0.019653 0.013881 0.026559
0.012722 -0.0011063 0.012203 -0.006676 -0.0033693 -0.0028622 -0.039283 -0.019655
-0.23192 -0.046597 -0.043051 0.012484
0.00034861 -0.00259 0.0010439 -0.002987 0.0095867 -0.0030729 0.01311 0.026039
-0.042321 0.012794 -0.25083 -0.0060576
680000000 -0.23882 0.1842 -0.0264 -0.014059 0.0050323 0.0051981 0.00065998 -0.007829
-0.0020741 -0.012088 0.0049362 -0.0070403
-0.026184 -0.014279 -0.39011 0.15048 -0.032269 -0.0018108 -0.0016881 -0.00046685
-0.0017984 -0.0093794 -0.0011472 -0.0016814
0.0052311 0.0051574 -0.032284 -0.0017444 -0.10363 0.28122 -0.00098612 -0.00033241
-0.0017477 0.00030484 -0.002683 -0.0089371
0.00083208 -0.0080415 -0.0014907 -0.00053674 -0.00082961 -0.00034481 -0.21996 0.19803
-0.023235 -0.0076423 -0.009002 -0.011363
-0.0023249 -0.011977 -0.0018961 -0.0096306 -0.0017963 0.00014365 -0.022945 -0.0076325
-0.27859 0.054886 -0.0070491 -0.0075062
0.005118 -0.0070162 -0.0013963 -0.0013565 -0.0025153 -0.008825 -0.0083424 -0.011629
-0.0069929 -0.0077999 -0.25862 0.096175
740000000 -0.19332 0.17738 -0.039732 0.026698 0.013623 -0.0051194 -8.8703e-05 -0.0040061
-0.0056823 -0.0028152 -0.0060878 0.0032005
-0.039531 0.026554 -0.33578 0.1693 -0.03717 0.034581 -0.00018704 -0.0057898
-0.012725 0.0070077 -0.0013331 -0.005747
0.013594 -0.0049639 -0.036959 0.03485 -0.069693 0.27795 -0.0021646 0.0029846
-0.0030744 -0.0056347 -0.0015488 0.00093463
-0.00025241 -0.0041138 -0.00016813 -0.0058561 -0.0020526 0.0030885 -0.20328 0.20474
-0.043444 -0.0072356 0.023163 0.015329
-0.0048873 -0.0029867 -0.012795 0.0073149 -0.0028903 -0.0057486 -0.043416 -0.0073121
-0.17816 0.082511 -0.042676 1.8356e-05
-0.0067087 0.0033053 -0.0014959 -0.0057254 -0.001487 0.00085413 0.022808 0.015438
-0.042447 0.00083868 -0.24794 0.10406
800000000 -0.16143 0.22127 -0.022341 0.016387 0.0058281 -0.010472 -0.0045178 -0.0019333
-0.0045125 0.0026457 0.0040902 0.00072852
-0.022317 0.016458 -0.341 0.23973 -0.0084512 0.034041 -0.0024839 0.0022743
-0.0011128 0.0030436 0.00055017 0.0052691
0.0058399 -0.01047 -0.0082957 0.034131 -0.030975 0.30207 0.00082679 0.001574
2.171e-06 0.0036232 -0.0018293 0.00088754
-0.0045999 -0.0019417 -0.0024024 0.0021797 0.000849 0.001508 -0.17391 0.23212
-0.028731 0.013292 0.01346 -0.010203
-0.0045035 0.0024677 -0.0012458 0.0031147 -2.68e-05 0.0036379 -0.028739 0.013368
-0.22032 0.11053 -0.017456 0.01974
0.0042253 0.00047083 0.0010218 0.0053548 -0.0017392 0.0010483 0.013783 -0.01035
-0.017765 0.019575 -0.24069 0.15105
860000000 -0.12734 0.2408 -0.017762 0.030242 -0.0029691 -0.010332 -0.0020834 0.00021023
0.0037492 0.004957 -0.0034488 -0.0029889
-0.017646 0.030216 -0.29248 0.28217 0.0073893 0.034237 -0.00011715 0.0019997
0.003535 0.00047138 0.0036045 0.00073263
-0.0029855 -0.010247 0.0075147 0.034287 0.016461 0.31022 -0.0007457 -0.00020871
0.0024214 -0.0015018 0.0016353 0.0043155
-0.0020302 0.00039839 -4.5239e-06 0.0020109 -0.00073989 -0.00013853 -0.13682 0.24271
-0.018416 0.018104 -0.0060186 -0.0092344
0.0038337 0.0049827 0.003562 0.00054798 0.0024315 -0.0014923 -0.018297 0.01799
-0.16484 0.16107 -0.023352 0.016912
-0.0035948 -0.002499 0.0032351 0.00089182 0.0015959 0.0042382 -0.0061381 -0.0090989
-0.023761 0.016827 -0.18984 0.19566
920000000 -0.10355 0.26376 0.0044832 0.038052 -0.0092818 -0.0051437 -0.0017585 0.0018223
0.0011724 0.0020872 0.002758 -0.0013833
0.0043972 0.037941 -0.26569 0.30312 0.027868 0.022679 0.0013558 0.0013062
0.0075103 -8.3154e-05 0.003838 -0.0027766
-0.0093304 -0.0050844 0.027964 0.022627 0.061587 0.31171 0.0019995 7.1444e-05
0.00091831 -9.9558e-05 0.00097833 -0.0012952
-0.0018987 0.0016057 0.001327 0.0012348 0.0019597 3.5024e-05 -0.11302 0.25938
-0.011233 0.030537 0.0031857 -0.0066527
0.0012154 0.0019912 0.007531 0.00012449 0.00094916 -3.0113e-05 -0.01112 0.03066
-0.15357 0.16742 -0.0015749 0.026387
0.0028417 -0.001407 0.0039369 -0.0029228 0.0010191 -0.0012991 0.0032797 -0.0068026
-0.0011732 0.02634 -0.1966 0.21022
980000000 -0.057021 0.28453 0.01688 0.030007 -0.009503 0.004135 0.0016797 0.0035728
0.0039164 -0.001438 -0.0029522 -0.0022028
0.016874 0.029988 -0.21243 0.33795 0.033241 0.0054488 0.002126 6.94e-05
0.0018178 -0.0058472 -0.00018685 -0.002383
-0.0094616 0.0041651 0.033262 0.0053366 0.10741 0.30623 0.00072172 -0.0011371
0.00060713 -0.0018669 0.0013931 -0.00014012
0.00168 0.0036985 0.0020729 0.00011719 0.00068897 -0.001127 -0.074654 0.27031
0.0071903 0.030198 -0.0089275 -0.0068685
0.0039372 -0.0012914 0.0019237 -0.0059682 0.00063987 -0.001854 0.0072064 0.030238
-0.11992 0.19688 0.0063692 0.019334
-0.0029735 -0.002181 -0.00016398 -0.0024281 0.0015415 -8.2582e-05 -0.0090549 -0.0068921
0.0063991 0.019665 -0.15286 0.25337
1040000000 -0.015833 0.29347 0.032972 0.019104 -0.0016065 0.0069449 0.0027371 0.00085021
0.00054361 -0.003654 -0.00017265 -0.0015536
0.032987 0.019115 -0.17734 0.35158 0.030082 -0.014418 0.0017914 -0.0015403
-0.0018894 -0.0026036 -0.00088462 -0.0026636
-0.0016273 0.006962 0.030066 -0.014544 0.15328 0.29334 -0.00040275 -0.0016828
-0.0015465 -0.00089814 -0.00050841 -0.0010986
0.0027009 0.00082804 0.0018119 -0.0016041 -0.00037151 -0.0016999 -0.047171 0.27998
0.019267 0.018812 -0.00256 0.0011976
0.00051092 -0.0036132 -0.0018667 -0.0026975 -0.0015657 -0.00091336 0.019255 0.018828
-0.086371 0.20317 0.013796 0.017744
-0.00022417 -0.0015839 -0.00096413 -0.0026272 -0.00048685 -0.0010635 -0.0025186 0.0012062
0.01382 0.017885 -0.13037 0.27373
1100000000 0.029083 0.30249 0.036249 -0.0035343 0.0026912 0.0041798 0.0024472 -0.0010839
-0.0022301 -0.0031706 -0.0042094 -0.00015319
0.036219 -0.003528 -0.13464 0.36951 0.015965 -0.027844 0.00011537 -0.0019786
-0.0036861 -0.0010813 -0.0035883 -0.00057482
0.0027164 0.0041778 0.015866 -0.027912 0.19938 0.27415 -0.0020038 3.0443e-05
-0.0017701 0.00048633 -0.0011112 -0.00034968
0.0024774 -0.0010436 0.0001091 -0.0018827 -0.0020364 5.1776e-06 -0.0071993 0.28518
0.024931 0.0056347 -0.0023144 0.00010768
-0.00214 -0.003191 -0.0037214 -0.0010566 -0.0017574 0.00040648 0.024944 0.0055966
-0.065904 0.21562 0.019263 0.0082876
-0.0042273 -0.00014658 -0.0037127 -0.00052888 -0.0011567 -0.0004357 -0.0023312 6.4853e-05
0.019228 0.0082517 -0.08428 0.3018
1160000000 0.080084 0.29886 0.024497 -0.020446 0.0027436 -0.00034261 -9.9394e-06 -0.0023894
-0.00391 -0.00088213 -0.00098254 0.0039815
0.024504 -0.020415 -0.091211 0.37439 -0.0032025 -0.029593 -0.0016385 -0.0017851
-0.0028667 0.0025389 -0.0016687 0.0018221
0.0027652 -0.00037976 -0.0033092 -0.02962 0.24271 0.24415 -0.00083871 0.0017782
-0.00053299 0.0019876 -0.00092923 0.00031265
-7.5929e-05 -0.0023726 -0.0017453 -0.0017624 -0.00083463 0.0017473 0.032049 0.28261
0.021431 -0.010233 -0.0032369 0.0051025
-0.0039625 -0.00083809 -0.0029327 0.0025504 -0.0005877 0.0020066 0.021419 -0.010237
-0.031483 0.22317 0.018188 -0.00069751
-0.0010392 0.0040447 -0.0015799 0.0018684 -0.00084598 0.00028551 -0.0032347 0.0051672
0.018193 -0.00064775 -0.037942 0.30473
1220000000 0.12405 0.28896 0.01109 -0.030061 -0.0015574 -0.00083978 -2.1765e-05 -0.00098969
-0.0027314 0.0021836 0.00098122 0.0020419
0.01108 -0.030009 -0.047323 0.3875 -0.016872 -0.021974 -0.0027398 0.00046278
-4.0037e-05 0.0032087 -0.00089274 0.0019849
-0.0015503 -0.00087535 -0.016989 -0.021931 0.28191 0.20577 0.00070219 0.0017989
0.00059697 0.0012819 0.00033213 0.0005573
6.8731e-06 -0.00092523 -0.0027207 0.00044114 0.00075759 0.0018113 0.072131 0.27425
0.01115 -0.017136 0.0019801 0.0015403
-0.0027017 0.0022084 -2.4722e-05 0.0032031 0.00060322 0.0012868 0.011153 -0.017134
-0.0076129 0.2313 0.013665 -0.013289
0.0010432 0.002035 -0.0008963 0.0019696 0.00035566 0.00058097 0.0019432 0.0015308
0.013618 -0.013337 -0.0058142 0.31922
1280000000 0.17444 0.26855 -0.0076305 -0.028844 -0.0019878 0.0025357 -0.00089928 -0.0020547
-0.00077662 0.0030664 0.0026076 0.0012912
-0.0075647 -0.028805 -0.0013442 0.37947 -0.024253 -0.0090554 -0.0010882 0.0014457
0.0017957 0.0017655 0.00059742 0.0019813
-0.0019626 0.0025692 -0.024296 -0.0089877 0.31289 0.16249 0.00164 -4.864e-06
0.001324 0.0002519 0.00035072 0.00019043
-0.00090943 -0.0021026 -0.0010999 0.0015034 0.0016356 -1.8481e-05 0.10918 0.25824
0.0012702 -0.019526 -3.1972e-05 0.00043452
-0.0008082 0.0030699 0.001831 0.0017436 0.001331 0.00018622 0.0012384 -0.019482
0.028721 0.23455 0.0028695 -0.015462
0.002564 0.0013598 0.00062668 0.0019576 0.00029678 0.00020208 -4.0411e-05 0.00047614
0.0028985 -0.015371 0.040967 0.3204
1340000000 0.21183 0.23574 -0.017555 -0.01923 0.00084514 0.0047582 -0.0018952 -0.00095374
0.0013693 0.0026711 0.0018084 -0.0013704
-0.017504 -0.019229 0.038282 0.37206 -0.022128 0.0040519 -0.00014303 0.0021291
0.0020199 0.0007895 0.001206 0.00082722
0.00086706 0.0047593 -0.022145 0.0041657 0.33509 0.11529 0.0011206 -0.00088415
0.00063243 -0.0006332 -2.9054e-05 0.00027911
-0.0018072 -0.00092252 -0.00011618 0.0020765 0.0011534 -0.00091048 0.14265 0.23748
-0.0082062 -0.016984 0.00075821 0.00055486
0.0014275 0.0026834 0.0020562 0.0007857 0.00067571 -0.00066651 -0.0082425 -0.016966
0.058628 0.22943 -0.0041071 -0.014003
0.0017745 -0.001361 0.0012292 0.00079124 3.4915e-05 0.00022473 0.00078278 0.00053851
-0.0040956 -0.013974 0.078696 0.31507
1400000000 0.2458 0.19859 -0.023536 -0.0076589 0.005446 0.0034289 -0.0022397 0.00065468
0.0024547 0.00093836 0.00037616 -0.0016079
-0.023525 -0.007652 0.075956 0.35985 -0.015459 0.012595 0.0013999 0.0013165
0.0013013 -0.00079326 0.0011647 0.000101
0.0054709 0.0034091 -0.015404 0.012674 0.34846 0.062318 9.9959e-05 -0.0016832
0.00013414 -0.00044946 0.00029537 0.00021189
-0.0022534 0.00068365 0.0014102 0.0013446 0.00013366 -0.0016109 0.1722 0.20846
-0.014497 -0.010214 -0.00075275 -0.00028394
0.0024364 0.0010066 0.0013227 -0.00079169 0.00012675 -0.00046417 -0.01455 -0.010169
0.091673 0.22492 -0.010395 -0.0086621
0.00040719 -0.0015759 0.0011952 0.00014265 0.00027088 0.00026202 -0.00071026 -0.00021114
-0.010394 -0.0086729 0.12312 0.30379
1460000000 0.26931 0.15509 -0.020438 0.0047062 0.005945 -0.0017797 -0.0016134 0.0018107
0.002178 -0.00042697 -0.00037955 -0.0010131
-0.020418 0.0046699 0.11081 0.33836 -0.0063703 0.0159 0.0017542 0.00017907
0.00086024 -0.0013917 0.0012433 -0.00054649
0.0059375 -0.0018015 -0.0063041 0.015939 0.3554 0.0084139 -0.0012293 -0.001309
9.5849e-05 -0.00023202 0.0006588 -0.00018657
-0.0015653 0.0018299 0.0017209 0.00014402 -0.0012075 -0.0013483 0.19916 0.17889
-0.015871 -0.0034714 -0.00087617 0.001909
0.0021637 -0.00043292 0.00089633 -0.0014176 0.00015667 -0.00020004 -0.015899 -0.003438
0.12098 0.21072 -0.012155 -0.0027988
-0.0002978 -0.001021 0.0012314 -0.00059457 0.00072783 -0.00015392 -0.00091476 0.0019142
-0.012135 -0.0028331 0.15599 0.28319
1520000000 0.28227 0.11364 -0.014841 0.010263 0.0035806 -0.004435 0.00013453 0.0026459
0.0021376 -0.0019085 -0.0012189 -0.00016808
-0.014828 0.01023 0.14469 0.324 0.0016663 0.01362 0.0016409 -0.00080294
3.2054e-05 -0.0011203 0.00036917 -0.0010006
0.003574 -0.0044613 0.0017328 0.013633 0.34904 -0.047404 -0.0011349 -0.00033516
0.00066159 -0.00081756 8.2107e-05 -0.00024187
0.00014465 0.0026057 0.0016795 -0.00082041 -0.0011272 -0.00031243 0.22224 0.14022
-0.015381 0.0024784 0.0015418 0.002044
0.002122 -0.0019364 1.5778e-05 -0.0011284 0.00069833 -0.00083708 -0.015405 0.0025042
0.14917 0.19736 -0.011865 0.0018224
-0.001242 -0.00019815 0.00033007 -0.0010177 9.2824e-05 -0.0002201 0.0015105 0.0020593
-0.011861 0.0017986 0.18867 0.2623
1580000000 0.29257 0.067522 -0.0081063 0.013461 -0.00083762 -0.0052365 0.0015556 0.0019642
-0.00019731 -0.0022033 -0.00034568 0.0003849
-0.0080882 0.013449 0.17242 0.29951 0.0055631 0.0085369 0.0005137 -0.0015936
-0.00062894 -0.0010653 -0.00014342 -0.00084641
-0.00090735 -0.0052318 0.0056128 0.0085262 0.32995 -0.10485 -0.001686 0.00059346
-0.00036084 -0.0013166 0.00023085 -0.00065775
0.001604 0.0019679 0.00048833 -0.0016003 -0.0017013 0.00059055 0.23589 0.10056
-0.012051 0.0076101 0.0021697 0.00076116
-0.00015412 -0.0021755 -0.00063956 -0.0010539 -0.0003772 -0.0012506 -0.012045 0.0076688
0.17357 0.17958 -0.0092507 0.0073929
-0.00033136 0.00040669 -0.00014151 -0.00082844 0.0002375 -0.00063333 0.0021796 0.00071507
-0.0093251 0.007381 0.2203 0.23579
1640000000 0.29518 0.026219 -0.0013243 0.012289 -0.0030181 -0.0028101 0.0027691 0.00098169
-0.00069774 -0.0016437 -0.00037554 0.00065662
-0.001353 0.012288 0.20237 0.27463 0.0062613 0.0034757 -0.0006385 -0.0017853
-0.00098827 -0.00040989 -0.00053964 -0.00067062
-0.0030282 -0.0028063 0.0063121 0.0034546 0.30193 -0.15444 -0.00065263 0.0014657
-0.0010525 -0.00096448 -0.00018195 -0.0002925
0.0027438 0.00098079 -0.00064815 -0.0017966 -0.00065954 0.0014786 0.2481 0.051556
-0.0077854 0.0091974 0.0025417 -0.00082728
-0.00073864 -0.0016366 -0.00097733 -0.00040564 -0.0010214 -0.00097441 -0.0077602 0.0091993
0.19685 0.15552 -0.0046853 0.0095736
-0.00035753 0.00066554 -0.00053891 -0.00071553 -0.00016394 -0.00034458 0.0024822 -0.00078656
-0.0046647 0.0094863 0.24582 0.20445
1700000000 0.28843 -0.019353 0.0020978 0.0094172 -0.0038225 2.794e-05 0.0031273 -0.0012665
-0.0019827 -0.0007098 0.00060725 0.00042055
0.002084 0.009424 0.22077 0.24323 0.0041286 0.00034349 -0.0014877 -0.00058848
-0.00082545 2.4822e-05 -0.00091341 -0.00051582
-0.003805 3.3395e-05 0.0041473 0.00035738 0.25868 -0.19459 0.00043174 0.001585
-0.0019734 -0.00013349 -0.00037662 -0.00080509
0.003145 -0.0012984 -0.001494 -0.00058126 0.00038535 0.001623 0.24445 0.0015714
-0.004659 0.0098667 0.0014467 -0.0022707
-0.0019865 -0.00069996 -0.00081238 4.275e-05 -0.0020156 -0.00010906 -0.0047015 0.0099128
0.2144 0.13538 -4.1862e-05 0.0097581
0.00050958 0.00046858 -0.00090233 -0.00045869 -0.00030072 -0.00076128 0.0015331 -0.0022536
-7.8836e-05 0.0098532 0.26203 0.17038
1760000000 0.27675 -0.068126 0.0044312 0.0060954 -0.0023691 0.0010207 0.0012312 -0.0034553
-0.001429 0.00064233 0.00032887 -0.00051969
0.0044378 0.0060946 0.24718 0.20346 0.0017777 -0.0015571 -0.0012807 0.00018122
-0.0010991 0.00085361 -0.00068029 0.00042124
-0.0023873 0.00098646 0.0017564 -0.001553 0.21077 -0.22798 0.00098718 0.001073
-0.0013566 0.0013813 -0.001243 -0.00068209
0.001215 -0.0034454 -0.0012466 0.00016503 0.0010355 0.0010486 0.23544 -0.049595
-0.0011631 0.0092629 -0.00018258 -0.0026064
-0.0014324 0.00062394 -0.0010699 0.00087006 -0.0013742 0.0014032 -0.001098 0.0092489
0.2295 0.10078 0.0040344 0.0070862
0.00035584 -0.00058417 -0.00072699 0.0003825 -0.0012299 -0.00068239 -0.00030628 -0.0026445
0.004023 0.0071136 0.27475 0.13291
1820000000 0.25221 -0.10562 0.0044484 0.0024866 -0.00020382 0.0024979 -0.0010557 -0.003127
-0.0011973 0.0010344 -0.00012874 -3.2735e-05
0.0044726 0.002481 0.25749 0.17317 -0.00064912 -0.00034117 -0.001395 0.00096084
-7.863e-05 0.0012862 -0.00066086 0.00053031
-0.00017679 0.0024664 -0.00063467 -0.00033529 0.15956 -0.24382 0.0014958 0.00042379
-0.0001553 0.0024729 -0.0015908 0.00039705
-0.0010272 -0.0031166 -0.0013944 0.00095915 0.0014653 0.00042115 0.20516 -0.096959
0.0007028 0.0078204 -0.001897 -0.0013599
-0.001191 0.0010471 -0.00012156 0.0012941 -0.00024116 0.0024392 0.00066409 0.0077904
0.24691 0.071838 0.0046547 0.0037096
-0.00012773 -3.9315e-05 -0.00064842 0.00053733 -0.0015259 0.0003855 -0.0017899 -0.0013237
0.0046466 0.0036924 0.27674 0.096265
1880000000 0.21727 -0.14621 0.0022436 0.0001403 -0.00062825 0.0022227 -0.0029523 -0.0021857
-0.00036746 0.0019611 2.0822e-05 -0.00052935
0.0022706 0.00014685 0.26216 0.12659 -0.0025144 0.0015025 -0.0002336 0.0017566
0.00051024 0.0013601 1.4188e-06 0.0011111
-0.00060592 0.0022296 -0.0025414 0.0015437 0.10788 -0.25315 0.0017614 -0.00080654
0.0014105 0.0020429 -0.0011371 0.0014775
-0.0029639 -0.0021156 -0.00021361 0.0017849 0.0017727 -0.00090511 0.16439 -0.13678
0.001673 0.0055809 -0.0024026 0.00032133
-0.00034516 0.001945 0.00055563 0.0013557 0.001472 0.002009 0.0017556 0.0056213
0.25103 0.040455 0.0051435 0.0013146
-3.7991e-05 -0.00051383 -5.4606e-05 0.0010843 -0.0010856 0.0014941 -0.0024293 0.00030964
0.0051068 0.0013174 0.27653 0.062689
1940000000 0.17787 -0.1718 -0.00023381 -0.0014445 0.0012945 0.0022889 -0.0036829 0.00050328
0.0013831 0.0012862 -0.00053007 -0.00051866
-0.00022246 -0.0014477 0.26288 0.094593 -0.0015189 0.0040028 0.0010715 0.0013804
0.0018956 0.00057022 0.0010895 0.00044171
0.0013219 0.0022602 -0.0014226 0.0040095 0.062379 -0.2462 0.00055148 -0.002193
0.0025392 0.00043081 0.00058599 0.0017817
-0.0036548 0.000451 0.0010554 0.0013186 0.00059763 -0.0021267 0.11235 -0.1674
0.0012313 0.0041116 -0.0013544 0.0017353
0.0014171 0.0012816 0.0019129 0.00055127 0.0025137 0.00041281 0.0012445 0.0041209
0.25435 0.002055 0.0038194 -0.0016719
-0.00051761 -0.00050795 0.0010716 0.00050311 0.00054792 0.0017744 -0.0013188 0.0017697
0.0039171 -0.0017337 0.26565 0.026249
2000000000 0.13172 -0.18665 -0.004096 0.00074174 0.0026372 0.0016954 -0.0022295 0.0037734
0.0013737 0.00045968 -0.00047224 0.00049157
-0.004078 0.00078191 0.24858 0.058944 -0.0010214 0.0059319 0.0015993 0.00037501
0.0014177 -0.0011582 0.00054811 0.00018282
0.0026599 0.0016509 -0.0010074 0.0059393 0.018902 -0.23224 -0.0012423 -0.0013861
0.0021709 -0.001116 0.0017061 0.0016468
-0.0023297 0.0037967 0.0017051 0.00040611 -0.0012373 -0.0013758 0.058808 -0.17702
-0.00010819 0.0036368 9.7221e-05 0.0022179
0.0014087 0.00045321 0.0014426 -0.0011241 0.0021443 -0.0011462 -0.00015286 0.0036363
0.24944 -0.031271 0.00092965 -0.002727
