!Keysight Technologies,M9804A,MY58100912,A.14.10.03
!Date: Thursday, April 27, 2023 10:28:33
!Correction: S11(C  6-Port  ) 
!S12(C  6-Port  ) 
!S13(C  6-Port  ) 
!S14(C  6-Port  ) 
!S15(C  6-Port  ) 
!S16(C  6-Port  ) 
!S21(C  6-Port  ) 
!S22(C  6-Port  ) 
!S23(C  6-Port  ) 
!S24(C  6-Port  ) 
!S25(C  6-Port  ) 
!S26(C  6-Port  ) 
!S31(C  6-Port  ) 
!S32(C  6-Port  ) 
!S33(C  6-Port  ) 
!S34(C  6-Port  ) 
!S35(C  6-Port  ) 
!S36(C  6-Port  ) 
!S41(C  6-Port  ) 
!S42(C  6-Port  ) 
!S43(C  6-Port  ) 
!S44(C  6-Port  ) 
!S45(C  6-Port  ) 
!S46(C  6-Port  ) 
!S51(C  6-Port  ) 
!S52(C  6-Port  ) 
!S53(C  6-Port  ) 
!S54(C  6-Port  ) 
!S55(C  6-Port  ) 
!S56(C  6-Port  ) 
!S61(C  6-Port  ) 
!S62(C  6-Port  ) 
!S63(C  6-Port  ) 
!S64(C  6-Port  ) 
!S65(C  6-Port  ) 
!S66(C  6-Port  ) 
!S6P File: Measurement: :
# Hz S  RI   R 50
500000000 -0.33553 -0.052108 -0.011178 -0.00079741 -0.0084241 0.013707 -0.0036756 0.012332
0.011615 0.0052836 -0.0037768 0.0087086
-0.011375 -0.00069034 -0.4165 -0.062608 0.0081131 -0.010165 0.0014927 0.011596
0.0080937 0.0039851 0.0019703 0.012767
-0.008499 0.013665 0.0081203 -0.010161 -0.26751 0.19963 0.0066658 0.0033843
-0.0010416 0.0088559 0.00020465 0.012171
-0.0037443 0.012463 0.0017627 0.011281 0.006733 0.0033673 -0.33172 0.042839
-0.018412 -0.0048801 0.017096 0.024218
0.012157 0.0053115 0.0082629 0.0031938 -0.0012895 0.00869 -0.018183 -0.0043185
-0.24898 -0.19449 -0.026213 0.0052866
-0.0035534 0.009259 0.0024865 0.012843 0.00086326 0.012133 0.016426 0.024243
-0.026457 0.0047497 -0.27143 -0.12223
560000000 -0.31904 0.11189 -0.022705 -0.065095 0.00018378 0.013225 0.0051969 0.010741
0.01025 0.0042864 0.010626 0.007236
-0.022756 -0.065085 -0.37619 0.099701 -0.041975 -0.037123 0.014396 0.0031619
-0.012978 -0.0041012 0.0037175 -0.00091574
5.9208e-05 0.013184 -0.042115 -0.037092 -0.18617 0.25095 -0.00048619 -0.0044426
0.01843 0.0039874 0.0083955 -0.0052279
0.005156 0.01104 0.013979 0.0029334 -0.00041131 -0.004521 -0.3071 0.13558
0.0046812 -0.022438 0.0051373 -0.021565
0.010715 0.0050704 -0.012753 -0.0038237 0.018485 0.005014 0.0044212 -0.022928
-0.30898 -0.015656 0.0085126 -0.04774
0.01003 0.0065827 0.004135 -0.0016388 0.0078748 -0.0056187 0.0050484 -0.02135
0.0089042 -0.047353 -0.33191 0.025364
620000000 -0.27667 0.093906 -0.022881 0.00861 0.0044206 0.009366 0.0082077 -0.0036226
0.013082 -0.001194 0.00043897 -0.0027616
-0.022691 0.0084716 -0.4035 0.049263 -0.018144 0.00070955 -0.0015824 -0.0019627
0.012522 -0.0064697 0.00089865 -0.0033395
0.0045568 0.0094088 -0.018204 0.00077373 -0.15521 0.26042 -0.00068707 -0.0051122
-0.0033025 -0.0027375 0.0094017 -0.0031391
0.0079586 -0.003989 -0.001703 -0.0018665 -0.0006863 -0.0051164 -0.26565 0.14577
-0.039843 -0.01811 0.01438 0.026598
0.012911 -0.0012275 0.012502 -0.0064256 -0.0027304 -0.0030127 -0.039379 -0.019016
-0.23053 -0.049834 -0.043374 0.013502
0.0010937 -0.0029547 0.00093235 -0.0030226 0.0090971 -0.0036991 0.012776 0.026486
-0.043574 0.014265 -0.24972 -0.0052441
680000000 -0.23884 0.18426 -0.026269 -0.014132 0.0050577 0.0053125 0.00065 -0.0078578
-0.002748 -0.011656 0.0051731 -0.0070844
-0.026376 -0.014043 -0.3901 0.1505 -0.03224 -0.0017917 -0.0016971 -0.0003473
-0.001986 -0.0094114 -0.0010017 -0.0014236
0.0049079 0.0053684 -0.032238 -0.0016971 -0.1036 0.28127 -0.0010774 -0.00025605
-0.0019501 0.00029222 -0.0027308 -0.0086565
0.00048667 -0.0079857 -0.0017551 -0.00041367 -0.0010501 -0.00037762 -0.22025 0.19724
-0.023224 -0.0076762 -0.0093303 -0.012077
-0.0023944 -0.012264 -0.0018104 -0.0093731 -0.0016168 0.00028836 -0.023082 -0.0076944
-0.27834 0.054229 -0.0073808 -0.0081048
0.0047608 -0.0071479 -0.001057 -0.0015884 -0.0025627 -0.0089934 -0.0084509 -0.011969
-0.0076183 -0.0077482 -0.25866 0.094889
740000000 -0.19305 0.17691 -0.039793 0.026623 0.01362 -0.0050243 -0.00019522 -0.0040812
-0.0049176 -0.0035607 -0.0067666 0.0032496
-0.039743 0.02663 -0.33542 0.16941 -0.037065 0.034498 0.00024391 -0.0058414
-0.012897 0.007554 -0.0011907 -0.0053581
0.013571 -0.0051221 -0.037001 0.034691 -0.069599 0.27804 -0.0022199 0.0032847
-0.002945 -0.0058521 -0.0016815 0.0011034
6.8261e-05 -0.0039736 -2.533e-06 -0.0059857 -0.0020985 0.003172 -0.20306 0.20471
-0.043104 -0.0071935 0.022333 0.015181
-0.0052858 -0.003119 -0.012461 0.0073081 -0.0029801 -0.0058235 -0.043372 -0.0070852
-0.1784 0.081063 -0.042973 0.00053376
-0.0059626 0.0032871 -0.0014728 -0.0059672 -0.0016474 0.0010178 0.022975 0.015343
-0.042901 0.0010445 -0.24812 0.10345
800000000 -0.16128 0.22112 -0.022449 0.0163 0.0058397 -0.010552 -0.0046079 -0.0020496
-0.0045241 0.0025597 0.0039935 0.00076128
-0.022394 0.016218 -0.34096 0.23967 -0.0084388 0.033973 -0.0024382 0.0021343
-0.0011456 0.0030249 0.00076215 0.0054291
0.0058949 -0.010589 -0.008331 0.034037 -0.030919 0.30202 0.00086707 0.0014996
-3.6919e-05 0.0036563 -0.0019119 0.0010329
-0.0047285 -0.0018707 -0.0025059 0.0023504 0.00081307 0.0015485 -0.1739 0.23209
-0.028717 0.013491 0.013915 -0.010633
-0.0043689 0.0025847 -0.0010217 0.0029714 -0.00010543 0.0036164 -0.029118 0.013086
-0.22046 0.11041 -0.017952 0.01991
0.004086 0.00059442 0.00056696 0.0051433 -0.0017707 0.00089198 0.013792 -0.010221
-0.01764 0.019915 -0.24016 0.15099
860000000 -0.12746 0.24068 -0.017738 0.030228 -0.0029708 -0.010279 -0.0020042 0.00046706
0.004087 0.0050629 -0.0035057 -0.0029142
-0.017729 0.030202 -0.29232 0.28216 0.0074732 0.03424 -3.7191e-05 0.0021849
0.0035889 0.00058199 0.003229 0.00068964
-0.0030039 -0.010292 0.0075673 0.034263 0.016522 0.3103 -0.00071743 -0.00010913
0.0024183 -0.0014735 0.0017309 0.004189
-0.0019667 0.00017005 -5.9949e-05 0.0019685 -0.00069892 -0.0002136 -0.13705 0.24285
-0.018485 0.01812 -0.0060344 -0.0088888
0.0037843 0.0050139 0.0035179 0.00062027 0.0023901 -0.0014993 -0.018155 0.017927
-0.16491 0.16043 -0.024123 0.016737
-0.0033713 -0.0028937 0.0035722 0.00066898 0.0016233 0.0042684 -0.0064993 -0.0089447
-0.024147 0.016735 -0.18962 0.19577
920000000 -0.10351 0.26388 0.0045058 0.038076 -0.009222 -0.0051173 -0.0019168 0.001662
0.0012537 0.0019834 0.0028104 -0.0013142
0.0044067 0.03807 -0.26558 0.30326 0.027906 0.022684 0.0012374 0.0011776
0.0075414 0.00010258 0.0039705 -0.0029104
-0.0092417 -0.0051402 0.027989 0.022635 0.061635 0.31168 0.0019649 2.577e-05
0.00089957 -1.1554e-05 0.00099313 -0.0012323
-0.002 0.0018408 0.0013491 0.0013562 0.0020091 9.4472e-05 -0.11315 0.25929
-0.011361 0.030726 0.0031412 -0.006716
0.0011694 0.0020142 0.0074152 -9.6869e-05 0.00091186 -4.3217e-05 -0.011067 0.030797
-0.15338 0.16709 -0.001524 0.026337
0.0027625 -0.001416 0.0038193 -0.0028378 0.000942 -0.0013201 0.0030746 -0.0068253
-0.0015857 0.02633 -0.19693 0.20998
980000000 -0.056879 0.28458 0.016852 0.030013 -0.0094737 0.0041402 0.0016623 0.0036883
0.0040694 -0.0013156 -0.0030228 -0.0023837
0.016831 0.029969 -0.21239 0.33803 0.033244 0.0054748 0.0021293 7.8497e-05
0.0019306 -0.0058574 -0.00016125 -0.0024274
-0.009481 0.0041216 0.033276 0.0053744 0.10747 0.30626 0.00073318 -0.0011138
0.00067397 -0.0018455 0.001547 -5.6394e-05
0.0017835 0.0035129 0.0020736 7.269e-05 0.00070581 -0.0011265 -0.074846 0.27051
0.0072987 0.030115 -0.0091134 -0.0069605
0.0039956 -0.0014164 0.0018553 -0.0059431 0.00065949 -0.0018968 0.0073241 0.030218
-0.11952 0.19738 0.0068073 0.019486
-0.0030201 -0.0023178 -0.00023037 -0.0024364 0.0014018 -0.00015777 -0.009068 -0.0069238
0.0066217 0.018978 -0.1531 0.25305
1040000000 -0.015712 0.29359 0.033013 0.019105 -0.0016229 0.0069527 0.0026627 0.00084245
0.00047937 -0.0036363 -0.00024934 -0.001622
0.033019 0.019082 -0.17735 0.35153 0.030044 -0.014452 0.0018368 -0.0016421
-0.0019116 -0.0026279 -0.001006 -0.0026375
-0.0015602 0.0069374 0.030023 -0.014564 0.15334 0.29331 -0.00041276 -0.001701
-0.0015808 -0.00098154 -0.00050552 -0.0010897
0.0026313 0.00092946 0.0018025 -0.0015895 -0.00042359 -0.0016982 -0.047156 0.27989
0.019215 0.018865 -0.0024703 0.00098558
0.00054595 -0.0036539 -0.0018556 -0.0025913 -0.001522 -0.0009477 0.019222 0.018805
-0.086803 0.20318 0.013858 0.018127
-0.00019808 -0.001563 -0.00082826 -0.0027761 -0.00056503 -0.0011479 -0.0024862 0.001118
0.013833 0.018056 -0.13035 0.27377
1100000000 0.02919 0.30244 0.036219 -0.0035651 0.0027071 0.0041827 0.0024583 -0.0010662
-0.0020854 -0.003265 -0.0041554 -0.00027248
0.036192 -0.0035643 -0.13468 0.36954 0.015956 -0.02786 0.0001217 -0.0019498
-0.0036617 -0.0010979 -0.0036072 -0.00058742
0.0027117 0.004147 0.015877 -0.027955 0.1994 0.27411 -0.0020156 -1.338e-06
-0.0017509 0.00044941 -0.001146 -0.00039063
0.0024626 -0.0011511 9.38e-05 -0.001982 -0.0019898 2.6243e-05 -0.0072398 0.28527
0.025019 0.0055843 -0.0022625 0.00016474
-0.0021911 -0.0031394 -0.0036919 -0.0010988 -0.0018038 0.00051068 0.025029 0.0055943
-0.065809 0.21565 0.019267 0.0082675
-0.0042577 -0.00022946 -0.0036035 -0.00056893 -0.0010817 -0.00034624 -0.0024347 0.0001516
0.01932 0.0081271 -0.084532 0.30181
1160000000 0.080222 0.29881 0.024586 -0.020462 0.0027466 -0.0003495 -5.6608e-05 -0.0023833
-0.0039661 -0.00087676 -0.0010244 0.0040299
0.024566 -0.020409 -0.091244 0.37433 -0.0031999 -0.029611 -0.0016484 -0.0017143
-0.0029074 0.0025212 -0.0015657 0.0019318
0.0027724 -0.0003735 -0.0033411 -0.029618 0.24275 0.24412 -0.00085957 0.001793
-0.00057374 0.0019993 -0.00082233 0.00027219
-4.1053e-05 -0.0024237 -0.0016275 -0.0017494 -0.0008688 0.0017939 0.032121 0.28261
0.021393 -0.010263 -0.0033069 0.005052
-0.0039384 -0.00083383 -0.0029085 0.0025135 -0.00055156 0.0019937 0.021418 -0.01025
-0.031575 0.22328 0.018222 -0.000691
-0.0008983 0.0039722 -0.0016619 0.0018584 -0.00094886 0.00031046 -0.0031179 0.0050449
0.018318 -0.00071531 -0.038093 0.30496
1220000000 0.12415 0.28885 0.011063 -0.030079 -0.0015471 -0.00087029 3.2737e-05 -0.00094419
-0.0027228 0.0021819 0.0010685 0.0020115
0.011079 -0.030086 -0.047325 0.38747 -0.016866 -0.021975 -0.0027409 0.00043307
-4.3423e-05 0.0032154 -0.00085467 0.0019471
-0.0015454 -0.00083876 -0.016985 -0.021931 0.28199 0.20573 0.00072372 0.0018579
0.00062484 0.0012676 0.00032125 0.00057105
1.9084e-06 -0.00091549 -0.0027498 0.00047376 0.00070346 0.0018122 0.072149 0.2742
0.011114 -0.017136 0.0020235 0.0014733
-0.0027685 0.0021858 -5.2326e-05 0.0032061 0.00062491 0.0012745 0.011073 -0.01718
-0.0076279 0.23134 0.013708 -0.013356
0.00096182 0.0020216 -0.00090042 0.0019773 0.00035074 0.00053936 0.0019733 0.0015354
0.013657 -0.013289 -0.0058133 0.31913
1280000000 0.17453 0.26856 -0.0076469 -0.028818 -0.0020036 0.0025689 -0.00091386 -0.0021211
-0.00076657 0.003067 0.0025959 0.0014124
-0.0076197 -0.028812 -0.0013477 0.37949 -0.024231 -0.009075 -0.001084 0.0014798
0.0018128 0.001773 0.00059539 0.0020265
-0.0019755 0.0025391 -0.024315 -0.0089598 0.31295 0.16246 0.0016103 -2.5754e-05
0.0012866 0.0001951 0.00031521 0.00016269
-0.00092851 -0.0020684 -0.0010681 0.0015092 0.0016516 -5.7375e-05 0.10927 0.25833
0.0012849 -0.019498 -7.376e-05 0.0004948
-0.00072856 0.0030934 0.0018161 0.0017948 0.0012904 0.00022913 0.0012679 -0.019522
0.028704 0.2345 0.0028999 -0.015496
0.0026481 0.0013497 0.00063253 0.0019932 0.00033917 0.00015949 -7.4006e-05 0.00051743
0.0029715 -0.015569 0.040814 0.32049
1340000000 0.21187 0.23569 -0.017595 -0.019206 0.00078054 0.004824 -0.00179 -0.00092435
0.0013893 0.0027059 0.0017767 -0.0013415
-0.017557 -0.019218 0.038352 0.37203 -0.022138 0.0040363 -0.00013373 0.0020775
0.0020732 0.00081984 0.0012332 0.00082765
0.0008262 0.0048253 -0.022134 0.004156 0.33516 0.11516 0.0011565 -0.00092423
0.0006853 -0.00065961 2.9545e-05 0.00025534
-0.0018516 -0.00095565 -0.0001447 0.0020826 0.0011459 -0.00088961 0.14264 0.23752
-0.00822 -0.016957 0.00079802 0.00046999
0.0014153 0.0027351 0.00207 0.0007868 0.00064243 -0.00065764 -0.0082915 -0.016981
0.058734 0.22959 -0.0040476 -0.01413
0.0017657 -0.001413 0.0012459 0.0008031 -5.293e-05 0.00027477 0.00080838 0.00047401
-0.0040559 -0.014127 0.078765 0.31501
1400000000 0.24581 0.19851 -0.023575 -0.0076368 0.0054423 0.0034212 -0.0022885 0.00068496
0.0024475 0.00098279 0.00035 -0.0015881
-0.023558 -0.0076525 0.076008 0.35989 -0.015458 0.01257 0.0014064 0.0013573
0.0013215 -0.00080529 0.001157 0.00015212
0.0054508 0.0034231 -0.015403 0.012687 0.3485 0.062265 0.00011196 -0.0016217
0.00014449 -0.00049297 0.0002841 0.00022011
-0.0022896 0.00069282 0.0014232 0.0013525 0.00012905 -0.0016578 0.17229 0.20846
-0.014519 -0.010203 -0.00076846 -0.00020291
0.0024495 0.00094234 0.0012786 -0.00079851 0.00010925 -0.00048679 -0.014534 -0.010164
0.091634 0.22498 -0.010495 -0.0088049
0.00034622 -0.001553 0.0011915 0.00015584 0.00031953 0.00021996 -0.00076954 -0.00015782
-0.010411 -0.0087339 0.12294 0.30372
1460000000 0.26935 0.15499 -0.020481 0.0046945 0.0059389 -0.001765 -0.0015456 0.0018264
0.0021755 -0.00042573 -0.00031462 -0.0011207
-0.02042 0.0046763 0.11087 0.33836 -0.0063549 0.015866 0.0017365 0.000153
0.00090074 -0.0013914 0.0012659 -0.00056018
0.0059482 -0.0018127 -0.0062836 0.01591 0.35543 0.0083423 -0.001236 -0.0013578
0.00013813 -0.00021096 0.00073639 -0.00018265
-0.0015792 0.0018023 0.0017329 0.00015631 -0.0012506 -0.0013175 0.19918 0.17888
-0.015918 -0.003509 -0.00080546 0.0019506
0.0021631 -0.00039758 0.00087916 -0.0014142 0.00013252 -0.00019596 -0.015935 -0.0035014
0.12104 0.21078 -0.012214 -0.0028579
-0.00035737 -0.0010718 0.00124 -0.00057634 0.00069288 -0.00018836 -0.00088145 0.001962
-0.012245 -0.0028343 0.15609 0.2831
1520000000 0.28233 0.11356 -0.014817 0.01026 0.0035703 -0.0044428 0.00013928 0.0026012
0.0021328 -0.001909 -0.0012819 -0.00016919
-0.01481 0.010244 0.14474 0.32394 0.0016431 0.013601 0.0016517 -0.00080871
1.3748e-05 -0.0011324 0.00033198 -0.00099569
0.0035876 -0.0044518 0.0017293 0.013609 0.34904 -0.047533 -0.0011377 -0.00031882
0.00067566 -0.00081614 0.00010407 -0.00019323
0.00013452 0.0026147 0.001661 -0.00082607 -0.0011312 -0.00030112 0.22231 0.14018
-0.015467 0.002496 0.0015041 0.0020411
0.0021124 -0.0019255 4.8491e-06 -0.0011426 0.00067894 -0.00083801 -0.015453 0.0025287
0.14923 0.19732 -0.011906 0.0017919
-0.0012091 -0.00015971 0.00033143 -0.0010178 5.3043e-05 -0.00023874 0.0014989 0.0020227
-0.011916 0.0018125 0.18872 0.26232
1580000000 0.29264 0.067425 -0.0080618 0.013487 -0.00087184 -0.0052215 0.0015763 0.001976
-0.00015254 -0.0021595 -0.00034275 0.00041281
-0.0080757 0.013473 0.17249 0.2995 0.0055544 0.0085369 0.00050564 -0.0015949
-0.00062527 -0.0010484 -0.0001134 -0.00082533
-0.00089405 -0.0052451 0.0056072 0.0085208 0.32996 -0.10494 -0.0016703 0.00056883
-0.00041631 -0.0012669 0.00020576 -0.0006538
0.0015708 0.0019482 0.00048934 -0.0015976 -0.0016833 0.00058314 0.2359 0.10052
-0.012033 0.0075824 0.0021546 0.0007502
-0.00018452 -0.0021895 -0.00065597 -0.0010591 -0.00037596 -0.001307 -0.012017 0.0076244
0.17365 0.17955 -0.0094029 0.0074102
-0.00034418 0.00040722 -0.00013677 -0.00084738 0.00028019 -0.00065591 0.0022137 0.00070648
-0.0093801 0.0074023 0.2203 0.23572
1640000000 0.29526 0.026177 -0.0012962 0.012323 -0.0029764 -0.0028079 0.0027427 0.00099887
-0.00071195 -0.0016223 -0.00039636 0.0006391
-0.0013191 0.012309 0.20243 0.27457 0.0062433 0.0035013 -0.00061859 -0.0017838
-0.00098806 -0.00040454 -0.000537 -0.00068371
-0.0030384 -0.0027435 0.0062625 0.0034469 0.30188 -0.15465 -0.00067828 0.0014711
-0.0010354 -0.00099738 -0.00013455 -0.00034478
0.0027504 0.00099134 -0.00064008 -0.0017784 -0.00067155 0.0014579 0.24806 0.051508
-0.0078291 0.0091836 0.0025542 -0.00081054
-0.00072881 -0.0016195 -0.001003 -0.00039662 -0.0010537 -0.00098927 -0.0078058 0.0091998
0.19692 0.15534 -0.0046236 0.0096144
-0.0003965 0.00071639 -0.00055462 -0.00069475 -0.00016134 -0.0003277 0.0024815 -0.00085383
-0.0046062 0.0095755 0.24574 0.20446
1700000000 0.28843 -0.019443 0.0021172 0.0094575 -0.0038328 1.2712e-05 0.0031383 -0.0012678
-0.0019868 -0.0007236 0.0006036 0.00047528
0.0021023 0.0094386 0.22076 0.24315 0.00412 0.0003575 -0.0015137 -0.00058104
-0.00082997 2.1263e-05 -0.00091073 -0.00046749
-0.0038544 6.3814e-05 0.0041113 0.00033642 0.25864 -0.1946 0.0003803 0.0016035
-0.0019613 -0.00011447 -0.00032845 -0.0008202
0.0031366 -0.0012994 -0.0015117 -0.0005745 0.00037984 0.0016248 0.24446 0.0015009
-0.0046731 0.0099213 0.0014401 -0.0022256
-0.0019709 -0.00070367 -0.00080946 3.5324e-05 -0.0020032 -0.00011331 -0.0046677 0.0099392
0.21444 0.13518 -0.00014138 0.009794
0.00057233 0.00038395 -0.00091756 -0.00049923 -0.0003591 -0.00081129 0.0014848 -0.0022468
-6.3632e-05 0.0098418 0.26202 0.17034
1760000000 0.27674 -0.068212 0.0044478 0.0060762 -0.0023384 0.0010154 0.0012418 -0.0034536
-0.0014574 0.00063893 0.00031902 -0.00059954
0.0044456 0.0060866 0.24723 0.20342 0.0017611 -0.0015274 -0.0012599 0.00017532
-0.0010854 0.00086164 -0.00069168 0.00039612
-0.0023709 0.0010171 0.0017744 -0.001558 0.21062 -0.22797 0.00098407 0.0010887
-0.001299 0.0014178 -0.0012296 -0.00064829
0.0012274 -0.0034757 -0.0012514 0.00017824 0.0010109 0.0010879 0.23538 -0.049635
-0.0011556 0.0092281 -0.00013991 -0.0026218
-0.0014446 0.00066738 -0.0010736 0.00089135 -0.0013417 0.001431 -0.0011471 0.009253
0.22949 0.10064 0.0041184 0.0072
0.00028877 -0.00051709 -0.0006962 0.00039361 -0.0012018 -0.00067719 -0.00025472 -0.0026552
0.0040119 0.0071892 0.27461 0.1327
1820000000 0.25224 -0.10577 0.0045081 0.0024672 -0.0002346 0.0025097 -0.0010565 -0.0031251
-0.0011857 0.0010528 -0.00012841 -8.5176e-05
0.0044906 0.0024775 0.25749 0.17314 -0.00061021 -0.00034547 -0.0013923 0.00096989
-0.00011516 0.0012897 -0.00065325 0.00052981
-0.00021983 0.0025007 -0.0006309 -0.00033873 0.15966 -0.24389 0.0015534 0.00042574
-0.00020077 0.0024985 -0.0015356 0.00032586
-0.0010288 -0.0031073 -0.0013847 0.0010036 0.0015332 0.00045042 0.20522 -0.096997
0.00072361 0.0078561 -0.0018819 -0.0014103
-0.0011969 0.0010883 -0.00012694 0.0012917 -0.00023753 0.0024895 0.00070585 0.0078257
0.24688 0.071713 0.0047006 0.003729
-0.00011542 -5.5079e-05 -0.00062907 0.00056631 -0.0014973 0.00041219 -0.0018745 -0.0013059
0.004703 0.0037388 0.27686 0.096342
1880000000 0.2172 -0.14625 0.0022451 0.00013697 -0.00065201 0.0021819 -0.0029664 -0.002165
-0.00038713 0.0019501 -4.1109e-06 -0.00050987
0.0022502 0.00012168 0.26216 0.12656 -0.0025137 0.0014749 -0.00023497 0.0017665
0.00052582 0.0013366 -2.8919e-05 0.0010741
-0.00065569 0.002213 -0.0025162 0.0014753 0.10792 -0.2531 0.0017477 -0.00092168
0.0014727 0.0019632 -0.001129 0.0015176
-0.0029649 -0.0021425 -0.00022911 0.0017402 0.0017786 -0.00097651 0.16435 -0.13682
0.0017001 0.0056031 -0.0023599 0.00040793
-0.00035435 0.0019582 0.00055826 0.0013291 0.0015021 0.0019412 0.0017619 0.0055687
0.25093 0.040372 0.0051467 0.0013656
-4.0575e-05 -0.00052813 -2.05e-07 0.0011083 -0.0011983 0.0015353 -0.0024073 0.00030738
0.0051904 0.0013001 0.27623 0.062508
1940000000 0.1779 -0.17185 -0.00024519 -0.00149 0.0013207 0.0021975 -0.0036707 0.0004546
0.0013719 0.001271 -0.00051641 -0.00046165
-0.00023463 -0.0014514 0.26293 0.094523 -0.0014744 0.0040132 0.0011088 0.0013522
0.0019016 0.00057967 0.001089 0.00051073
0.0012436 0.0021979 -0.0014321 0.0040202 0.062311 -0.24616 0.00056392 -0.0021432
0.0025497 0.00046351 0.0005472 0.0018322
-0.0037521 0.00047872 0.0010681 0.0013712 0.00054872 -0.0021181 0.11223 -0.16735
0.0011925 0.0041118 -0.0012712 0.0017363
0.0013524 0.0012766 0.001866 0.00054847 0.0025528 0.00045937 0.0012172 0.0041357
0.25431 0.0020582 0.0039638 -0.0016929
-0.00053085 -0.0004697 0.0010931 0.00048957 0.00067958 0.001844 -0.0012826 0.0017003
0.0039128 -0.0016713 0.26571 0.026357
2000000000 0.13155 -0.18666 -0.0041608 0.00078361 0.0026524 0.0017059 -0.0022407 0.0037274
0.0013934 0.00040199 -0.00047977 0.00049116
-0.004149 0.00076851 0.24854 0.058871 -0.0010233 0.0058869 0.0016419 0.0003827
0.0014696 -0.001103 0.00055487 0.00013993
0.0026977 0.0017317 -0.0010148 0.0058901 0.018916 -0.23228 -0.0011857 -0.0015537
0.0022515 -0.0011445 0.0017433 0.0015161
-0.0021914 0.0037987 0.0016492 0.00037842 -0.0011899 -0.0015086 0.058853 -0.17712
-1.1054e-05 0.0036602 9.2301e-05 0.0022441
0.0014395 0.00046254 0.0014552 -0.0011166 0.0022789 -0.0011468 -5.2979e-05 0.0036537
0.24942 -0.031171 0.00088243 -0.0027444
