!Keysight Technologies,M9804A,MY58100912,A.14.10.03
!Date: Thursday, April 27, 2023 10:28:33
!Correction: S11(C  6-Port  ) 
!S12(C  6-Port  ) 
!S13(C  6-Port  ) 
!S14(C  6-Port  ) 
!S15(C  6-Port  ) 
!S16(C  6-Port  ) 
!S21(C  6-Port  ) 
!S22(C  6-Port  ) 
!S23(C  6-Port  ) 
!S24(C  6-Port  ) 
!S25(C  6-Port  ) 
!S26(C  6-Port  ) 
!S31(C  6-Port  ) 
!S32(C  6-Port  ) 
!S33(C  6-Port  ) 
!S34(C  6-Port  ) 
!S35(C  6-Port  ) 
!S36(C  6-Port  ) 
!S41(C  6-Port  ) 
!S42(C  6-Port  ) 
!S43(C  6-Port  ) 
!S44(C  6-Port  ) 
!S45(C  6-Port  ) 
!S46(C  6-Port  ) 
!S51(C  6-Port  ) 
!S52(C  6-Port  ) 
!S53(C  6-Port  ) 
!S54(C  6-Port  ) 
!S55(C  6-Port  ) 
!S56(C  6-Port  ) 
!S61(C  6-Port  ) 
!S62(C  6-Port  ) 
!S63(C  6-Port  ) 
!S64(C  6-Port  ) 
!S65(C  6-Port  ) 
!S66(C  6-Port  ) 
!S6P File: Measurement: :
# Hz S  RI   R 50
500000000 -0.33381 -0.052122 -0.010206 -0.0018979 -0.0084726 0.013108 -0.0041549 0.01213
0.013329 0.0046758 -0.0045049 0.0078794
-0.01017 -0.0012535 -0.41598 -0.063978 0.0078278 -0.010769 0.00082099 0.011248
0.0087928 0.0026488 0.00082947 0.012856
-0.0084537 0.013252 0.0076578 -0.010703 -0.26767 0.19965 0.0063033 0.0033957
-0.0013184 0.0084113 -8.2073e-05 0.012235
-0.0040847 0.01211 0.00089363 0.011498 0.006367 0.0033605 -0.33249 0.042821
-0.01806 -0.0051207 0.01613 0.024008
0.013027 0.0051454 0.0088294 0.0026605 -0.00099058 0.0083904 -0.018217 -0.004916
-0.2488 -0.19481 -0.026119 0.004478
-0.0040851 0.0080615 0.00089492 0.012951 0.00014999 0.011945 0.016194 0.024177
-0.025956 0.004923 -0.27195 -0.12288
560000000 -0.31939 0.11331 -0.022769 -0.064045 -3.1812e-05 0.012886 0.0047948 0.010997
0.010902 0.0053569 0.010863 0.007942
-0.022888 -0.064159 -0.37533 0.099446 -0.041937 -0.037152 0.013724 0.0029197
-0.013037 -0.0036815 0.0042169 -0.0018831
2.5801e-05 0.012804 -0.042061 -0.03718 -0.18567 0.25124 -0.00010227 -0.0045008
0.018626 0.0046894 0.0082663 -0.0052728
0.005013 0.011005 0.013692 0.0028921 -0.00022036 -0.004625 -0.30702 0.13497
0.0055499 -0.022868 0.0046974 -0.022583
0.010936 0.0048375 -0.013264 -0.003842 0.018602 0.0049423 0.0056469 -0.022995
-0.31029 -0.014572 0.0072632 -0.04709
0.010578 0.0077243 0.0042114 -0.0015835 0.0078974 -0.0054429 0.0047282 -0.022329
0.0078406 -0.047575 -0.33162 0.025191
620000000 -0.27713 0.093128 -0.023291 0.008685 0.0036445 0.0091292 0.0072697 -0.0039483
0.012842 -0.0013457 -0.00053212 -0.0019229
-0.023152 0.008451 -0.40346 0.049084 -0.018302 0.00072257 -0.0016429 -0.0013838
0.012573 -0.0065987 0.00089237 -0.0026846
0.0037153 0.0093351 -0.018277 0.0008268 -0.15545 0.26062 -0.00074498 -0.0048902
-0.0028853 -0.003374 0.0093127 -0.0031667
0.0075202 -0.0039948 -0.00162 -0.0014538 -0.00063505 -0.0049668 -0.26593 0.1457
-0.038963 -0.018569 0.013434 0.026136
0.012751 -0.0015077 0.01249 -0.0067155 -0.0028917 -0.0034496 -0.038954 -0.018718
-0.23048 -0.048767 -0.041977 0.013993
-9.2989e-05 -0.0016798 0.00099677 -0.0027664 0.0091642 -0.0033574 0.01319 0.026804
-0.041932 0.013189 -0.24914 -0.0059226
680000000 -0.23922 0.18412 -0.026158 -0.014243 0.0052323 0.0053029 0.001438 -0.0076499
-0.0022086 -0.012173 0.0058507 -0.0076659
-0.026333 -0.014164 -0.39009 0.15013 -0.03227 -0.0020038 -0.001396 -0.0007304
-0.001747 -0.0094762 -0.0014793 -0.0020741
0.0051594 0.0052645 -0.032353 -0.0019412 -0.1037 0.28102 -0.00083356 -0.00047851
-0.0015216 0.00016038 -0.0028396 -0.0090798
0.001456 -0.0078244 -0.0014545 -0.0006976 -0.00081223 -0.00043312 -0.22035 0.19702
-0.02388 -0.0078162 -0.0087974 -0.0116
-0.0022757 -0.012205 -0.0017677 -0.0094165 -0.0015874 0.00022451 -0.023874 -0.0076779
-0.27912 0.055764 -0.007176 -0.0071567
0.0053283 -0.0074 -0.0014359 -0.0019177 -0.0027976 -0.0090934 -0.0087659 -0.011913
-0.0069068 -0.0068503 -0.25939 0.095729
740000000 -0.19316 0.17767 -0.039185 0.02662 0.013702 -0.0047801 -5.0199e-05 -0.0039692
-0.0050341 -0.0030562 -0.0056328 0.003586
-0.039224 0.02651 -0.33508 0.16937 -0.03681 0.034779 0.00021165 -0.0058082
-0.012383 0.0071969 -0.0012814 -0.0055989
0.013642 -0.004814 -0.03671 0.034951 -0.069843 0.27802 -0.0020945 0.0033882
-0.002778 -0.0057093 -0.0014726 0.00090841
-6.1605e-05 -0.0038628 0.00018159 -0.0058066 -0.0020816 0.0034291 -0.20335 0.20468
-0.042844 -0.0070987 0.022802 0.015881
-0.0047486 -0.0031592 -0.012594 0.0073077 -0.0027792 -0.0058624 -0.043014 -0.0070644
-0.17943 0.081827 -0.042123 0.00060531
-0.0058996 0.0038092 -0.001413 -0.0054265 -0.0014132 0.00094339 0.022981 0.015872
-0.04261 0.00061197 -0.24815 0.10385
800000000 -0.1615 0.22099 -0.022555 0.016295 0.0056134 -0.010757 -0.0044924 -0.0022368
-0.0045344 0.0025776 0.0043481 0.00033344
-0.022374 0.016316 -0.34107 0.23944 -0.0085003 0.033932 -0.0024841 0.0022417
-0.001279 0.0028254 0.00055364 0.0051254
0.0056448 -0.010685 -0.0084264 0.034045 -0.031101 0.30196 0.00074364 0.0014589
2.6802e-05 0.0036133 -0.0020604 0.00068788
-0.0044757 -0.0022442 -0.0024601 0.002236 0.0007692 0.001437 -0.17396 0.23225
-0.028573 0.013047 0.013597 -0.010276
-0.0045477 0.0024851 -0.0012329 0.0027876 4.1444e-05 0.0036121 -0.028657 0.013081
-0.22067 0.11048 -0.017215 0.019604
0.004237 0.00032224 0.00050431 0.0051518 -0.0020466 0.00075507 0.013641 -0.010149
-0.017236 0.019392 -0.2408 0.15127
860000000 -0.12745 0.24107 -0.017767 0.030181 -0.0028155 -0.010321 -0.0021207 0.00042422
0.0039192 0.0050716 -0.0034594 -0.0027367
-0.017762 0.030195 -0.29261 0.28192 0.0074486 0.034181 3.1785e-05 0.0020829
0.0035662 0.00040049 0.0034892 0.00042479
-0.0028427 -0.010325 0.0075526 0.034198 0.016433 0.3102 -0.0006063 -0.00014617
0.0022824 -0.0014761 0.001713 0.0042585
-0.0021082 0.00048917 8.7443e-05 0.0020821 -0.00059293 -0.00012791 -0.13697 0.24302
-0.018301 0.017523 -0.0063646 -0.0089025
0.0040593 0.0049848 0.0035415 0.0003738 0.0022644 -0.0015313 -0.018267 0.017531
-0.16514 0.16098 -0.023726 0.017083
-0.0032787 -0.0027773 0.0034996 0.00030203 0.0016802 0.0042527 -0.0064216 -0.0089927
-0.023464 0.016957 -0.18932 0.19523
920000000 -0.1037 0.26391 0.0045056 0.038074 -0.0092681 -0.0050456 -0.0019993 0.0017161
0.0011322 0.0020161 0.0026556 -0.0013664
0.0044777 0.038018 -0.26565 0.30309 0.027913 0.022677 0.0013417 0.0013322
0.0074449 -7.3176e-05 0.0039426 -0.0027171
-0.0092733 -0.0050283 0.028018 0.02263 0.061487 0.31166 0.0020056 6.3716e-05
0.00085958 -3.6587e-05 0.001012 -0.0013383
-0.0020297 0.0016802 0.0013194 0.0013434 0.0019828 5.5472e-05 -0.11307 0.25934
-0.011193 0.030598 0.0033536 -0.0067559
0.0010857 0.0019477 0.0074294 -0.00014992 0.00089504 -2.1158e-05 -0.011161 0.030614
-0.1538 0.16757 -0.0014437 0.026546
0.0026087 -0.0014258 0.0039822 -0.0027296 0.0010216 -0.0013312 0.0033653 -0.0067231
-0.001391 0.026656 -0.19616 0.21028
980000000 -0.057244 0.2843 0.016847 0.030015 -0.0095019 0.0040855 0.001743 0.0035504
0.0041845 -0.0016514 -0.002945 -0.0023821
0.016803 0.029941 -0.21244 0.33787 0.033223 0.0054658 0.0020597 -3.525e-05
0.0019043 -0.0059303 -0.0002402 -0.002375
-0.0094745 0.0041099 0.033281 0.0053679 0.10732 0.30623 0.0007073 -0.0011824
0.00064008 -0.0018914 0.0014247 -0.00018435
0.0018148 0.0035382 0.0020641 -2.7425e-05 0.00070622 -0.0011891 -0.074583 0.27035
0.0071841 0.030123 -0.0089997 -0.0070042
0.0041829 -0.0017118 0.001856 -0.0059923 0.00065065 -0.0018917 0.0072421 0.030143
-0.12004 0.19638 0.0062154 0.019469
-0.0029375 -0.0023815 -0.00025502 -0.0024043 0.0014156 -0.00020909 -0.0090541 -0.0069985
0.0060936 0.019468 -0.153 0.2531
1040000000 -0.015893 0.29309 0.032863 0.018986 -0.0015622 0.0069456 0.0026681 0.00076031
0.00052998 -0.0036645 -0.00018421 -0.0014492
0.032808 0.018932 -0.17759 0.35147 0.030056 -0.014461 0.0017339 -0.0016834
-0.0018354 -0.0025467 -0.00083589 -0.0027686
-0.0015335 0.0069382 0.030022 -0.014586 0.15323 0.29332 -0.00042432 -0.0016552
-0.0015174 -0.00094189 -0.0004918 -0.0010985
0.0026398 0.00081589 0.0017057 -0.0016522 -0.00041186 -0.0016753 -0.047373 0.27985
0.019032 0.018887 -0.0025836 0.0011377
0.00048083 -0.0035431 -0.0019462 -0.002625 -0.0015283 -0.00093134 0.019103 0.018929
-0.086414 0.2028 0.014005 0.017888
-0.00014888 -0.0014393 -0.00085594 -0.0027381 -0.00049726 -0.0010631 -0.0025331 0.001139
0.013892 0.01785 -0.13038 0.27348
1100000000 0.028818 0.30255 0.036222 -0.0034984 0.0026904 0.0042008 0.0025014 -0.0011381
-0.0021538 -0.0031316 -0.0040565 -0.00022047
0.036165 -0.0034735 -0.13479 0.36949 0.015977 -0.027844 0.00013351 -0.0019672
-0.0037029 -0.0011071 -0.0035908 -0.00050027
0.0027033 0.0041668 0.015885 -0.027943 0.19927 0.27415 -0.0019707 3.4789e-05
-0.0017858 0.00041299 -0.0010807 -0.00038413
0.002481 -0.0011324 0.00012802 -0.0019728 -0.0019803 5.181e-05 -0.007244 0.28515
0.025037 0.0056746 -0.0023262 3.2094e-05
-0.002177 -0.0031118 -0.0037143 -0.001114 -0.0018015 0.00042795 0.025041 0.0056086
-0.065937 0.2158 0.019457 0.0082977
-0.0040218 -0.00019439 -0.0035452 -0.00049959 -0.0010764 -0.000385 -0.0023271 7.1811e-05
0.019476 0.0083263 -0.084172 0.3017
1160000000 0.079914 0.29872 0.024437 -0.020426 0.0027398 -0.00036012 -2.7858e-05 -0.0023478
-0.0039001 -0.00091781 -0.0010161 0.0040003
0.024415 -0.020399 -0.091511 0.37435 -0.003169 -0.029583 -0.0016938 -0.0017039
-0.0027925 0.0025528 -0.0015581 0.001877
0.0027319 -0.00036145 -0.0033053 -0.029591 0.24265 0.24419 -0.00084537 0.0017846
-0.00057609 0.0019165 -0.00095059 0.00034642
-3.4238e-05 -0.0023624 -0.0016687 -0.0016947 -0.00084469 0.0017652 0.031962 0.28256
0.021412 -0.010152 -0.0033015 0.0051212
-0.0039064 -0.00086412 -0.0028396 0.002502 -0.00058631 0.0019373 0.02143 -0.010148
-0.031598 0.22319 0.018126 -0.00062997
-0.00093267 0.004005 -0.0016518 0.0018949 -0.00098834 0.00035186 -0.0032851 0.0051512
0.018085 -0.00056572 -0.037657 0.30444
1220000000 0.12394 0.28902 0.011047 -0.030058 -0.0015322 -0.0008516 2.8064e-05 -0.00092664
-0.0027469 0.0021615 0.00099781 0.0020379
0.011095 -0.030025 -0.047504 0.38744 -0.016848 -0.021999 -0.0027332 0.00043437
-5.4456e-05 0.0032069 -0.00084276 0.0020348
-0.0015506 -0.00084163 -0.016977 -0.021957 0.28188 0.20587 0.00074002 0.0018032
0.00062947 0.0012884 0.00040259 0.00055471
2.7589e-05 -0.00093246 -0.0027386 0.00046132 0.00073361 0.0018095 0.072053 0.27423
0.011133 -0.017163 0.002028 0.00163
-0.0027421 0.0021803 -3.0992e-05 0.0031824 0.00064463 0.0012788 0.011038 -0.017199
-0.0077951 0.23128 0.013629 -0.013091
0.00098797 0.0020604 -0.00082482 0.002022 0.00041361 0.00053624 0.0020283 0.0016619
0.013558 -0.013186 -0.0057076 0.31921
1280000000 0.17426 0.2686 -0.007621 -0.028794 -0.0019991 0.0025492 -0.00088417 -0.0020348
-0.00076431 0.0031973 0.00255 0.0012504
-0.0076109 -0.028753 -0.0014764 0.37942 -0.024214 -0.0091058 -0.0010453 0.0015143
0.0017733 0.0018421 0.00058903 0.0019528
-0.0019898 0.0025503 -0.024293 -0.0089939 0.31285 0.16252 0.0016471 -2.2005e-05
0.0012908 0.00026402 0.00039832 9.8315e-05
-0.00089771 -0.002061 -0.0010306 0.0015068 0.0016713 -1.9821e-05 0.10913 0.25824
0.0012275 -0.019508 -1.3534e-05 0.00041227
-0.00073209 0.0031906 0.0017748 0.0018489 0.0013031 0.00025415 0.0012357 -0.019479
0.028735 0.23442 0.0028822 -0.01554
0.0025605 0.0012547 0.00059457 0.0019712 0.0003679 9.3616e-05 1.0962e-05 0.000394
0.0029388 -0.015493 0.04079 0.32061
1340000000 0.21168 0.23582 -0.017554 -0.019185 0.00086056 0.0048307 -0.0018401 -0.000935
0.0014102 0.0026713 0.0018085 -0.0013686
-0.01753 -0.019187 0.03814 0.37203 -0.022148 0.0040315 -0.00012859 0.0021256
0.0020834 0.00080824 0.0012537 0.00080929
0.00085747 0.0048281 -0.022152 0.0041448 0.33506 0.11533 0.0011774 -0.00087308
0.00064135 -0.00056678 -2.7461e-05 0.00023424
-0.0018156 -0.00092407 -0.00010849 0.0021258 0.0011618 -0.00087215 0.14253 0.23754
-0.0082623 -0.017012 0.00072326 0.00058264
0.001433 0.0026674 0.0020378 0.00078052 0.00066427 -0.0005917 -0.0083239 -0.016996
0.058559 0.22956 -0.0041578 -0.013974
0.001817 -0.0013985 0.0012541 0.00077714 -4.7e-07 0.00027617 0.00073152 0.00057867
-0.0041981 -0.014051 0.078679 0.31493
1400000000 0.24567 0.1987 -0.023538 -0.0076952 0.0054556 0.0034854 -0.0023066 0.00065536
0.0024616 0.0009676 0.00033975 -0.0015985
-0.023513 -0.0076857 0.075834 0.35988 -0.015452 0.012587 0.0013868 0.0013461
0.001275 -0.00084586 0.0012114 7.9948e-05
0.0054701 0.0034483 -0.015411 0.012684 0.34848 0.062446 8.9593e-05 -0.0016711
0.00010859 -0.00049274 0.00029908 0.00017755
-0.0023012 0.00067685 0.0013922 0.0013293 0.00011211 -0.0016635 0.17216 0.20849
-0.014507 -0.01014 -0.00073464 -0.0002815
0.0024767 0.00096542 0.0012897 -0.00084508 0.00010051 -0.00049836 -0.014506 -0.010121
0.091429 0.22497 -0.010423 -0.0086778
0.00031361 -0.0015833 0.0011738 8.6725e-05 0.00025062 0.00016368 -0.00072695 -0.00027436
-0.010366 -0.0086628 0.12321 0.30379
1460000000 0.26921 0.15527 -0.020461 0.0046816 0.0059416 -0.0017505 -0.0016003 0.0018369
0.0021602 -0.00049292 -0.00038127 -0.0010337
-0.020438 0.0046563 0.11066 0.33838 -0.0063578 0.0159 0.0017453 0.00016573
0.00085303 -0.0013774 0.0012193 -0.00053121
0.0059364 -0.0017834 -0.0063031 0.015962 0.35534 0.0085593 -0.0012337 -0.0013283
0.00010568 -0.00019059 0.00064812 -0.00021435
-0.0015966 0.0018551 0.0017585 0.00014507 -0.0012496 -0.0013166 0.1991 0.17892
-0.015906 -0.0035352 -0.00081818 0.001877
0.0021193 -0.00053024 0.00086175 -0.0013502 9.7161e-05 -0.00017808 -0.015924 -0.003469
0.12087 0.21077 -0.012139 -0.0027318
-0.00037848 -0.0010173 0.0011838 -0.0005594 0.00067523 -0.00020405 -0.00084798 0.0018792
-0.012154 -0.0027308 0.15608 0.28308
1520000000 0.28218 0.11382 -0.014834 0.010227 0.0035695 -0.00441 0.00011668 0.0026169
0.0021394 -0.0018893 -0.0012114 -0.00020084
-0.014807 0.010211 0.14457 0.32403 0.0016549 0.013623 0.0016731 -0.0008155
6.5533e-06 -0.0011557 0.00035366 -0.0010208
0.0035529 -0.0044215 0.0017299 0.013626 0.34902 -0.047335 -0.0011186 -0.00033047
0.00065432 -0.00087135 0.00010069 -0.00022091
0.00012941 0.0026226 0.0016758 -0.00081686 -0.0011211 -0.00032858 0.22222 0.14031
-0.015424 0.0025217 0.0014962 0.0021219
0.0021608 -0.0018922 -3.83e-06 -0.0011471 0.00062066 -0.00087616 -0.015423 0.0025502
0.149 0.19747 -0.01183 0.0018278
-0.0012387 -0.00017935 0.00036831 -0.0010292 0.0001252 -0.00024848 0.0015055 0.0021149
-0.011823 0.0018171 0.18866 0.26237
1580000000 0.29246 0.067732 -0.008082 0.013447 -0.00088676 -0.0052287 0.0015316 0.001978
-0.00018687 -0.0021417 -0.00031866 0.00039803
-0.0080855 0.013437 0.17231 0.29956 0.0055768 0.0085069 0.00050546 -0.0015956
-0.0006212 -0.0010553 -0.00014961 -0.00082099
-0.00091268 -0.0052449 0.0056169 0.0084727 0.32994 -0.10482 -0.0017002 0.00059166
-0.00036212 -0.0013077 0.00026524 -0.00058951
0.0015544 0.0019767 0.00049457 -0.0016163 -0.001711 0.00060387 0.23587 0.10065
-0.012035 0.0075669 0.002225 0.00070298
-0.00021594 -0.0021623 -0.0006253 -0.0010536 -0.00034495 -0.0013056 -0.012015 0.0076477
0.17346 0.17962 -0.0093638 0.0074808
-0.00029296 0.00038564 -0.00016372 -0.0008303 0.00029657 -0.0005889 0.0022353 0.00067794
-0.0094119 0.0074538 0.22028 0.23569
1640000000 0.29518 0.026442 -0.0013115 0.012274 -0.0030327 -0.0028477 0.0027667 0.00097685
-0.00073347 -0.0016471 -0.00038012 0.00067002
-0.001323 0.012266 0.20226 0.27468 0.0062678 0.0034603 -0.0006146 -0.0017843
-0.0010179 -0.0004034 -0.00051465 -0.00071653
-0.0030524 -0.0028269 0.0062974 0.0034116 0.30193 -0.15441 -0.00065545 0.0014207
-0.0010808 -0.00093468 -0.00014564 -0.000309
0.0027652 0.00096637 -0.00063503 -0.0017898 -0.00064572 0.001426 0.24803 0.051574
-0.0077502 0.0092014 0.0024735 -0.00081548
-0.00076008 -0.0016084 -0.001066 -0.00038386 -0.0010835 -0.00092122 -0.0077659 0.0092015
0.19686 0.15561 -0.004781 0.0095017
-0.00037776 0.00068225 -0.00052895 -0.00072129 -0.00022211 -0.00035349 0.0024518 -0.00082476
-0.0047279 0.0094761 0.2459 0.20465
1700000000 0.28847 -0.019124 0.0020994 0.0094518 -0.0037947 3.0288e-06 0.0031335 -0.0013189
-0.0019779 -0.00076075 0.00063088 0.00048416
0.0021084 0.0094412 0.22063 0.24329 0.0041265 0.00034972 -0.0014688 -0.00059528
-0.00079559 4.2598e-05 -0.00096769 -0.00048283
-0.0037942 5.4987e-06 0.0041255 0.00032597 0.25872 -0.19443 0.00047407 0.0015749
-0.0019744 -0.00011916 -0.00039005 -0.0007905
0.0031388 -0.0013121 -0.0014995 -0.00059477 0.00044512 0.0016094 0.24455 0.0016538
-0.0046814 0.0099127 0.0014931 -0.0022618
-0.0019987 -0.00073102 -0.00080512 3.0607e-05 -0.0019772 -9.5547e-05 -0.0046301 0.0099342
0.2143 0.13548 -3.4009e-05 0.0096688
0.00062347 0.00044258 -0.00096057 -0.00046845 -0.00036723 -0.00082701 0.001491 -0.0022743
-1.841e-05 0.0096687 0.26184 0.17029
1760000000 0.27676 -0.067921 0.0044372 0.0060882 -0.0023682 0.00097841 0.0013043 -0.0034174
-0.0014655 0.00065214 0.00026352 -0.00056702
0.0044166 0.0060731 0.24708 0.20355 0.0017551 -0.0015654 -0.0012596 0.0001842
-0.0010922 0.00086772 -0.00065209 0.00035073
-0.002362 0.00099117 0.0017446 -0.0015761 0.21066 -0.22777 0.0010352 0.0011207
-0.001375 0.0014392 -0.0011644 -0.00074094
0.0013118 -0.0034597 -0.0012519 0.00018957 0.001043 0.0011267 0.23536 -0.049631
-0.0010954 0.0091623 -0.00019679 -0.0025863
-0.0014377 0.00065998 -0.0011124 0.00089698 -0.0014004 0.0014469 -0.0011056 0.0091428
0.22948 0.10093 0.0039904 0.007199
0.00025553 -0.00056924 -0.00065562 0.00036559 -0.0011878 -0.00073786 -0.00019798 -0.0025668
0.0039888 0.0071825 0.27475 0.13289
1820000000 0.25229 -0.10548 0.0044802 0.0024785 -0.00023519 0.0024469 -0.0010093 -0.0031245
-0.0011716 0.0010595 -0.00015507 -3.6941e-05
0.0044722 0.0024671 0.25741 0.17333 -0.00062374 -0.00034652 -0.0013737 0.00095088
-8.9482e-05 0.0012786 -0.00070651 0.00057683
-0.00023129 0.0024454 -0.00062233 -0.00033563 0.15977 -0.24369 0.0014932 0.00039908
-0.00020953 0.0023821 -0.0015926 0.00040279
-0.0010147 -0.0030844 -0.0013618 0.00097696 0.0015065 0.00040844 0.20533 -0.096808
0.00062195 0.0078533 -0.0018287 -0.0014061
-0.001157 0.0010644 -9.0637e-05 0.0012597 -0.00025763 0.0024019 0.00068297 0.0079094
0.2468 0.071927 0.0046677 0.0036114
-0.00010521 -5.3688e-05 -0.00065816 0.00056881 -0.001559 0.00039617 -0.0018348 -0.0014128
0.0047037 0.0036549 0.27666 0.09622
1880000000 0.21741 -0.14611 0.002282 0.00014728 -0.00059061 0.0021858 -0.0029624 -0.0021336
-0.00039039 0.0019111 1.3939e-05 -0.00061763
0.0022822 0.00012869 0.2621 0.12669 -0.00255 0.0015028 -0.00021585 0.0017926
0.00054166 0.0013689 3.0269e-05 0.0010464
-0.00061054 0.0021594 -0.0025524 0.0015173 0.10792 -0.25311 0.0018355 -0.00084712
0.0014798 0.0020739 -0.0011976 0.0015109
-0.002969 -0.0021504 -0.00020023 0.0017839 0.0018284 -0.00083395 0.16443 -0.1368
0.0017494 0.0055902 -0.0023197 0.00033835
-0.00033245 0.0018887 0.00058093 0.0013575 0.0015058 0.0020529 0.0017229 0.005561
0.25104 0.040563 0.0051637 0.0013375
3.2528e-05 -0.00057143 3.5149e-05 0.0010754 -0.0012174 0.0015303 -0.0023013 0.00038251
0.0050763 0.001316 0.27636 0.0625
1940000000 0.17795 -0.17165 -0.00025279 -0.0014139 0.0012714 0.0022518 -0.0037263 0.00048709
0.0014058 0.0013184 -0.00054075 -0.00052342
-0.00026215 -0.0014244 0.26277 0.094711 -0.0014488 0.004 0.0010747 0.0013728
0.0019166 0.00055743 0.0010392 0.0004764
0.0012714 0.0022375 -0.001431 0.0040205 0.062633 -0.24596 0.00046947 -0.0022548
0.0025388 0.0004135 0.00063064 0.0018338
-0.0037055 0.00054307 0.0010887 0.001362 0.00046675 -0.0022431 0.11232 -0.16728
0.0011465 0.0041051 -0.0012717 0.0017567
0.0013534 0.0012781 0.0018998 0.00051617 0.0024941 0.000381 0.0011621 0.0041145
0.25421 0.0022396 0.0038168 -0.0017303
-0.00058113 -0.00056758 0.0010573 0.00043902 0.00069524 0.0018088 -0.0012749 0.0017438
0.0039043 -0.0016875 0.26563 0.026378
2000000000 0.13175 -0.18657 -0.0041195 0.00073002 0.0026728 0.00174 -0.0023322 0.0037147
0.001416 0.00041913 -0.00055865 0.00047389
-0.0041259 0.00070526 0.24854 0.05903 -0.0010618 0.0059317 0.0016211 0.00043845
0.0014234 -0.0011284 0.00055007 5.5131e-05
0.0026681 0.0017039 -0.0010014 0.0059586 0.019038 -0.23206 -0.0011571 -0.0014355
0.0022183 -0.0010557 0.0016142 0.0015236
-0.0023705 0.0037812 0.0016243 0.00043719 -0.0011409 -0.0014653 0.058699 -0.17714
-0.00017825 0.003707 1.1949e-05 0.0022399
0.0014043 0.00040685 0.0014303 -0.0011594 0.0022117 -0.0010973 -0.00028496 0.0036453
0.24946 -0.031166 0.00088349 -0.0027473
