!Keysight Technologies,M9804A,MY58100912,A.14.10.03
!Date: Thursday, April 27, 2023 10:28:33
!Correction: S11(C  6-Port  ) 
!S12(C  6-Port  ) 
!S13(C  6-Port  ) 
!S14(C  6-Port  ) 
!S15(C  6-Port  ) 
!S16(C  6-Port  ) 
!S21(C  6-Port  ) 
!S22(C  6-Port  ) 
!S23(C  6-Port  ) 
!S24(C  6-Port  ) 
!S25(C  6-Port  ) 
!S26(C  6-Port  ) 
!S31(C  6-Port  ) 
!S32(C  6-Port  ) 
!S33(C  6-Port  ) 
!S34(C  6-Port  ) 
!S35(C  6-Port  ) 
!S36(C  6-Port  ) 
!S41(C  6-Port  ) 
!S42(C  6-Port  ) 
!S43(C  6-Port  ) 
!S44(C  6-Port  ) 
!S45(C  6-Port  ) 
!S46(C  6-Port  ) 
!S51(C  6-Port  ) 
!S52(C  6-Port  ) 
!S53(C  6-Port  ) 
!S54(C  6-Port  ) 
!S55(C  6-Port  ) 
!S56(C  6-Port  ) 
!S61(C  6-Port  ) 
!S62(C  6-Port  ) 
!S63(C  6-Port  ) 
!S64(C  6-Port  ) 
!S65(C  6-Port  ) 
!S66(C  6-Port  ) 
!S6P File: Measurement: :
# Hz S  RI   R 50
500000000 -0.33599 -0.052399 -0.01155 -0.00062765 -0.0086122 0.013779 -0.0032585 0.012663
0.011888 0.0050145 -0.0031122 0.0089193
-0.011585 -0.00059924 -0.41685 -0.062782 0.0080694 -0.010165 0.0020253 0.011505
0.0079054 0.0029993 0.002256 0.012968
-0.0086071 0.013784 0.0080366 -0.010195 -0.26754 0.19965 0.0069169 0.0033301
-0.0012395 0.0086515 0.00088618 0.011934
-0.0032981 0.012596 0.001992 0.011411 0.0068314 0.0033045 -0.33187 0.042482
-0.017911 -0.0039061 0.017082 0.023612
0.011876 0.0051308 0.0079389 0.0030886 -0.0012495 0.0086999 -0.01793 -0.003867
-0.24947 -0.1942 -0.026354 0.0065838
-0.0030876 0.0092882 0.0023705 0.012953 0.00090675 0.011978 0.017155 0.023628
-0.026441 0.0066997 -0.27104 -0.1234
560000000 -0.31913 0.11175 -0.022698 -0.065274 0.0001529 0.013046 0.0048161 0.011287
0.010737 0.0046413 0.0095329 0.0074546
-0.022693 -0.06531 -0.37558 0.10025 -0.042015 -0.037108 0.013467 0.0030822
-0.013075 -0.0037791 0.0041996 -0.0020525
0.00019965 0.012975 -0.042213 -0.037059 -0.18631 0.25089 -0.00036644 -0.0044188
0.019024 0.0048195 0.0081216 -0.0053846
0.0047608 0.011232 0.013528 0.0029821 -0.00031209 -0.0044323 -0.307 0.13557
0.0045555 -0.023223 0.005506 -0.021215
0.010668 0.004623 -0.013285 -0.0038236 0.018936 0.0048701 0.0045769 -0.023369
-0.31057 -0.013599 0.008491 -0.048224
0.0096962 0.007239 0.0040878 -0.0019606 0.0080784 -0.0053708 0.0053698 -0.020966
0.0084727 -0.048123 -0.33245 0.02515
620000000 -0.2769 0.093887 -0.022706 0.0086837 0.0044992 0.0093882 0.0078689 -0.0037365
0.013093 -0.0012892 0.00075512 -0.0029072
-0.02264 0.0086594 -0.40342 0.049285 -0.018145 0.0006199 -0.001558 -0.0018585
0.012323 -0.0064113 0.00090144 -0.0032154
0.0045846 0.0094538 -0.018151 0.00068567 -0.15531 0.26043 -0.00052639 -0.0048555
-0.003109 -0.0034831 0.0088728 -0.0032779
0.0079614 -0.0036679 -0.0015509 -0.0018447 -0.00045029 -0.0048626 -0.26527 0.14568
-0.040226 -0.019346 0.013997 0.026699
0.013105 -0.0016029 0.012317 -0.0065064 -0.0031261 -0.0034776 -0.040174 -0.019442
-0.23003 -0.047506 -0.043448 0.012324
0.00099105 -0.0028846 0.0010061 -0.0032527 0.0089503 -0.0033617 0.014061 0.026869
-0.043682 0.012144 -0.25159 -0.0053221
680000000 -0.23899 0.18386 -0.026512 -0.014331 0.0048587 0.0052437 0.00060536 -0.0080649
-0.0025002 -0.01198 0.0047118 -0.0068519
-0.026494 -0.014306 -0.39013 0.15044 -0.032343 -0.0017594 -0.0018335 -0.00062746
-0.0016979 -0.0094818 -0.0012659 -0.0016866
0.0048319 0.0052233 -0.032402 -0.0016835 -0.10371 0.28133 -0.0010958 -0.00047949
-0.0015614 0.00019321 -0.0027489 -0.0089953
0.00050952 -0.0078896 -0.0018679 -0.00058085 -0.0010943 -0.00042761 -0.21997 0.19832
-0.023386 -0.0076644 -0.0091546 -0.011787
-0.0026495 -0.012175 -0.0017612 -0.0094876 -0.0015709 0.00019003 -0.023406 -0.0076438
-0.27796 0.054921 -0.0067556 -0.0078835
0.0046809 -0.0069886 -0.0012685 -0.0016836 -0.0027852 -0.0090282 -0.0091412 -0.011796
-0.0066078 -0.0078501 -0.25872 0.09562
740000000 -0.19281 0.1771 -0.039749 0.026648 0.01369 -0.0051397 0.00021412 -0.003889
-0.0052571 -0.0031781 -0.0058434 0.0033379
-0.039736 0.026565 -0.33525 0.16933 -0.037146 0.034631 0.00012641 -0.0059802
-0.012524 0.00708 -0.0011641 -0.0057879
0.013725 -0.0051857 -0.037057 0.034761 -0.069673 0.27793 -0.0019787 0.003207
-0.003055 -0.0056895 -0.0016924 0.00093758
0.00020194 -0.0039336 8.7697e-05 -0.0059882 -0.0020406 0.0031586 -0.20315 0.20464
-0.043524 -0.0076454 0.02292 0.015259
-0.0051231 -0.0031969 -0.012456 0.007217 -0.0030447 -0.0057327 -0.043431 -0.007571
-0.17798 0.083801 -0.042955 -0.00057506
-0.0057656 0.0033953 -0.0011445 -0.005875 -0.0015978 0.0009281 0.023038 0.015359
-0.043072 -0.00060242 -0.24778 0.10395
800000000 -0.16153 0.22106 -0.022436 0.016432 0.0058004 -0.010481 -0.0047742 -0.0019932
-0.0045392 0.0025815 0.0039344 0.00094729
-0.022399 0.016388 -0.34099 0.23965 -0.0084257 0.034032 -0.0025484 0.0023171
-0.0011857 0.0030174 0.00052802 0.0054521
0.0057735 -0.010484 -0.0083428 0.0341 -0.03094 0.30209 0.00070801 0.0015372
-2.2739e-05 0.0036107 -0.0019066 0.00092614
-0.0047757 -0.0019393 -0.0025434 0.0023475 0.00070878 0.0015573 -0.17395 0.23205
-0.028731 0.013293 0.013578 -0.010176
-0.0045661 0.0025813 -0.0011525 0.003045 -8.8003e-06 0.0036242 -0.02882 0.013346
-0.22083 0.11054 -0.017458 0.019634
0.0038575 0.00087764 0.00045483 0.0054601 -0.0019684 0.00095803 0.013501 -0.010373
-0.017468 0.019712 -0.24067 0.15184
860000000 -0.12738 0.24074 -0.017801 0.03028 -0.0030186 -0.01034 -0.0019735 0.00021821
0.0039056 0.0049997 -0.0034696 -0.0030312
-0.017799 0.030244 -0.29238 0.28215 0.0074127 0.034247 6.4557e-05 0.0018851
0.0034712 0.00063347 0.0034139 0.00084962
-0.0030317 -0.01034 0.0075219 0.03427 0.016459 0.31023 -0.00067954 -0.00021858
0.0023806 -0.0013647 0.0016408 0.0042413
-0.0019949 0.00016896 3.8589e-05 0.0018953 -0.00069296 -0.00024729 -0.13705 0.24285
-0.018638 0.017877 -0.006252 -0.0090422
0.0039499 0.0050133 0.0034759 0.00066058 0.0023802 -0.0013932 -0.018616 0.017897
-0.16495 0.16086 -0.023335 0.016845
-0.0034155 -0.0031128 0.0033982 0.00070654 0.0016922 0.0042398 -0.0061235 -0.0089569
-0.023424 0.016847 -0.19021 0.19488
920000000 -0.10338 0.26387 0.0044917 0.038123 -0.0092198 -0.0051367 -0.0019237 0.0018431
0.0011007 0.0022256 0.0027844 -0.0013382
0.0044569 0.03807 -0.26549 0.30313 0.027923 0.022664 0.0014423 0.0012898
0.0073622 -7.5829e-05 0.0038216 -0.0027354
-0.0092294 -0.0051202 0.028025 0.022618 0.0616 0.3117 0.0019914 7.4072e-05
0.00090118 -7.1219e-05 0.0010058 -0.0012917
-0.0018869 0.0018479 0.0014485 0.0012877 0.0019944 6.1498e-05 -0.11288 0.2593
-0.011215 0.030687 0.0032175 -0.0066186
0.0010722 0.0022015 0.0073406 -8.346e-05 0.00088066 -7.4647e-05 -0.011252 0.030726
-0.15373 0.16734 -0.0014701 0.026493
0.0027739 -0.0013439 0.0038268 -0.0028065 0.00097732 -0.0012779 0.0031846 -0.0067231
-0.0014499 0.026515 -0.19648 0.21022
980000000 -0.057023 0.28454 0.016867 0.030046 -0.0094798 0.0041323 0.0017018 0.0035187
0.0039527 -0.0014833 -0.0029214 -0.0023251
0.016863 0.029997 -0.2124 0.33803 0.03323 0.0054578 0.0020851 0.00013547
0.0018748 -0.005928 -0.00013927 -0.0023088
-0.0094676 0.0041555 0.033267 0.0053645 0.10747 0.30625 0.00070813 -0.0011417
0.00064473 -0.0019037 0.0014267 -7.8017e-05
0.0017707 0.0035162 0.0021108 7.2033e-05 0.00072697 -0.0011183 -0.074724 0.27045
0.0072733 0.030257 -0.0090077 -0.007133
0.0039579 -0.0014795 0.0018339 -0.0059285 0.00065263 -0.0019064 0.0073029 0.030269
-0.12008 0.19703 0.0063458 0.019589
-0.0028987 -0.0023354 -0.00024938 -0.0023581 0.0014253 -7.9797e-05 -0.0089592 -0.0070411
0.0063461 0.019671 -0.15251 0.25338
1040000000 -0.016073 0.29338 0.032915 0.01909 -0.0015971 0.0069631 0.0025729 0.00081662
0.00060808 -0.0036428 -0.00020963 -0.0015462
0.032906 0.019094 -0.17732 0.35159 0.030058 -0.014436 0.0018275 -0.0015603
-0.0018267 -0.0027276 -0.00088812 -0.0026872
-0.0015519 0.0069652 0.030023 -0.014549 0.15332 0.29335 -0.00038187 -0.001685
-0.0015127 -0.00093862 -0.00052561 -0.001106
0.0025859 0.00088538 0.001868 -0.0016081 -0.00037457 -0.0016977 -0.04721 0.27996
0.019148 0.01882 -0.0024583 0.0012105
0.00066017 -0.0036305 -0.0018432 -0.0027422 -0.0015109 -0.00092995 0.019188 0.018781
-0.086659 0.20291 0.013442 0.017941
-0.00025281 -0.0015258 -0.00097801 -0.0026968 -0.00053734 -0.0011179 -0.0024967 0.0011655
0.0134 0.01795 -0.13032 0.2742
1100000000 0.029196 0.30245 0.036249 -0.0035794 0.0026914 0.0041607 0.0024739 -0.0011047
-0.0021677 -0.0032124 -0.0041972 -0.00023449
0.036213 -0.0035551 -0.13461 0.36951 0.015972 -0.02788 9.5743e-05 -0.0019292
-0.0036797 -0.0011251 -0.0036393 -0.00063238
0.0027087 0.0041536 0.015881 -0.027974 0.19938 0.27413 -0.001994 2.9359e-05
-0.0017565 0.00049746 -0.0011252 -0.00033936
0.0024774 -0.00112 6.2395e-05 -0.001936 -0.0019957 2.2842e-05 -0.0072287 0.28509
0.024927 0.0056153 -0.0022663 0.00012193
-0.0021759 -0.0031686 -0.0036662 -0.0010868 -0.0017803 0.00049182 0.024958 0.005564
-0.06597 0.21555 0.019249 0.0081951
-0.0041584 -0.00025617 -0.003621 -0.00063566 -0.0011142 -0.00036627 -0.0023308 0.00014567
0.019199 0.0081755 -0.084456 0.3017
1160000000 0.07999 0.29885 0.024509 -0.020414 0.0027395 -0.00033897 -9.4375e-05 -0.0024377
-0.0039523 -0.00088063 -0.00095994 0.0039791
0.02452 -0.020399 -0.091267 0.37438 -0.0032044 -0.029594 -0.0016616 -0.001734
-0.0028622 0.0024997 -0.001591 0.0018962
0.0027459 -0.00034363 -0.003349 -0.029612 0.24274 0.24413 -0.00083623 0.0017992
-0.00054778 0.0019722 -0.00093366 0.00030398
-0.00010045 -0.0024133 -0.0016532 -0.0017513 -0.00084493 0.0017804 0.032054 0.28263
0.021414 -0.010246 -0.0032855 0.0051137
-0.0039469 -0.0008507 -0.0028629 0.002525 -0.00054384 0.0019863 0.021394 -0.010267
-0.031459 0.22324 0.018069 -0.00055888
-0.00093931 0.0040191 -0.0016198 0.0018551 -0.00092692 0.00031787 -0.0032575 0.0050879
0.018086 -0.00056909 -0.037595 0.30494
1220000000 0.12415 0.28891 0.011079 -0.030101 -0.0015727 -0.00086209 4.3505e-05 -0.00090747
-0.0027467 0.0021981 0.0010047 0.0020437
0.011091 -0.030058 -0.047333 0.38748 -0.016877 -0.021967 -0.0027174 0.00045691
-2.3024e-05 0.0032151 -0.00088681 0.0019844
-0.0015684 -0.00086106 -0.016995 -0.021926 0.28194 0.20574 0.00072014 0.0017894
0.00064056 0.0012831 0.00034459 0.00055792
4.0222e-05 -0.00091078 -0.0027203 0.00047057 0.00072467 0.0017954 0.072104 0.27417
0.01112 -0.017115 0.0019884 0.0015387
-0.0027406 0.0022331 -2.0349e-05 0.0032157 0.00064057 0.0012831 0.011101 -0.017117
-0.0076798 0.23125 0.013637 -0.013305
0.0010131 0.0020271 -0.00088266 0.0019602 0.00032924 0.0005584 0.0020251 0.0015607
0.013674 -0.013296 -0.0057712 0.31926
1280000000 0.17449 0.26864 -0.0076326 -0.028785 -0.0019766 0.0025673 -0.00089038 -0.0020681
-0.00077879 0.0031043 0.0025851 0.0013227
-0.0075958 -0.028767 -0.001308 0.37942 -0.024249 -0.009064 -0.0010523 0.0014991
0.0018125 0.0017855 0.00059972 0.0020026
-0.0019579 0.002567 -0.024322 -0.0089712 0.31294 0.16248 0.0016506 -3.0743e-05
0.0013045 0.00024259 0.00036178 0.00019847
-0.00088754 -0.0020808 -0.0010436 0.0015072 0.001651 -4.023e-05 0.10927 0.2583
0.0012773 -0.019513 -6.7737e-05 0.00042633
-0.00074002 0.0030897 0.001822 0.0017798 0.0013186 0.00023967 0.0012574 -0.019515
0.028748 0.23449 0.002806 -0.015477
0.0025709 0.0013412 0.00061045 0.0019771 0.00034364 0.00017806 -0.00010808 0.00044197
0.0028108 -0.015477 0.040891 0.32035
1340000000 0.21189 0.23571 -0.017566 -0.019195 0.00080983 0.0048076 -0.0018463 -0.00093427
0.0013904 0.0027024 0.0017671 -0.0013643
-0.017527 -0.019173 0.038344 0.37205 -0.022128 0.0040412 -0.00016122 0.0020959
0.0020515 0.00079064 0.0012537 0.00084392
0.00082047 0.0048132 -0.022138 0.0041558 0.33516 0.11519 0.0011673 -0.00087754
0.00065005 -0.00062133 -1.4351e-05 0.00027227
-0.0018492 -0.00093164 -0.0001508 0.0021154 0.0011654 -0.00088674 0.14263 0.23746
-0.0082419 -0.017001 0.00076481 0.00051647
0.0014189 0.0027021 0.0020538 0.00079091 0.00065713 -0.00062203 -0.0082872 -0.016996
0.058676 0.22952 -0.0040636 -0.014043
0.0017891 -0.0013894 0.0012257 0.00085526 -3.8666e-05 0.00029215 0.00080803 0.00054295
-0.0040283 -0.01403 0.078767 0.315
1400000000 0.24584 0.19851 -0.023535 -0.0076803 0.0054533 0.0034319 -0.0023042 0.0006987
0.002484 0.00092944 0.00038521 -0.00161
-0.023503 -0.007699 0.075987 0.35983 -0.015455 0.012589 0.0014002 0.0013511
0.0013261 -0.00079619 0.0011667 9.3308e-05
0.0054793 0.0034086 -0.015421 0.01269 0.3485 0.062282 9.702e-05 -0.0016517
0.00014633 -0.00049192 0.00032838 0.00019218
-0.0022859 0.00070422 0.0014336 0.0013473 0.00010365 -0.001658 0.17226 0.20844
-0.014483 -0.010224 -0.00075557 -0.00027699
0.0024945 0.00092089 0.001308 -0.00081177 0.00013187 -0.00049268 -0.014483 -0.010165
0.091673 0.22494 -0.010432 -0.0086469
0.00036329 -0.0015994 0.0011813 7.812e-05 0.00033026 0.00019544 -0.00077803 -0.00029024
-0.010435 -0.0086785 0.12313 0.30369
1460000000 0.26939 0.15503 -0.020472 0.0047285 0.0059634 -0.0017909 -0.001578 0.001826
0.0021437 -0.00042599 -0.00032098 -0.0010322
-0.020442 0.004711 0.11083 0.33833 -0.006376 0.015896 0.0017375 0.00017757
0.00086285 -0.0013757 0.0012544 -0.00053945
0.005958 -0.001813 -0.0063052 0.015949 0.35542 0.0083961 -0.0012303 -0.0013284
0.00014606 -0.00019534 0.00069035 -0.00018563
-0.0015715 0.0018384 0.0017435 0.00018736 -0.0012322 -0.0013321 0.19918 0.17885
-0.01589 -0.0034779 -0.0008574 0.0019488
0.0021182 -0.00043695 0.0008729 -0.0013833 0.00015764 -0.00019471 -0.015899 -0.0034483
0.12105 0.21068 -0.012167 -0.0028001
-0.00031952 -0.0010413 0.0012412 -0.00053938 0.00067071 -0.00017141 -0.00084887 0.0019432
-0.012165 -0.0027749 0.15609 0.28323
1520000000 0.28229 0.11358 -0.014839 0.010247 0.0035927 -0.0044481 0.00012781 0.0026169
0.0021545 -0.0019035 -0.0011902 -0.00018335
-0.014834 0.010225 0.14472 0.32394 0.0016568 0.013596 0.0016478 -0.00083888
1.0966e-05 -0.0011394 0.00033304 -0.0010012
0.0035724 -0.0044709 0.0017282 0.013605 0.34903 -0.047466 -0.0011521 -0.00032885
0.00067131 -0.00082572 4.8267e-05 -0.00024847
0.00014501 0.0026105 0.0016395 -0.00083172 -0.0011264 -0.0003228 0.22225 0.14027
-0.015424 0.0024985 0.0015152 0.0020089
0.0021502 -0.0019251 1.4047e-05 -0.0011453 0.00066183 -0.0008392 -0.01545 0.0025344
0.14923 0.1973 -0.011878 0.001771
-0.0012524 -0.00018135 0.00032651 -0.001019 5.0877e-05 -0.00026599 0.0015863 0.002004
-0.011874 0.0017437 0.18867 0.2623
1580000000 0.29255 0.067465 -0.0080762 0.013452 -0.0008265 -0.0052431 0.0015784 0.0019757
-0.00017488 -0.0021771 -0.00036024 0.00044276
-0.0080773 0.013434 0.17244 0.29947 0.0055516 0.0085238 0.00050216 -0.001583
-0.00061954 -0.0010547 -0.00011849 -0.00085561
-0.00087027 -0.0052293 0.0056087 0.0085026 0.32995 -0.10496 -0.0016851 0.0005811
-0.00036339 -0.0013082 0.00022848 -0.00065803
0.0015803 0.0019703 0.00049553 -0.001588 -0.001702 0.00055777 0.23593 0.10053
-0.012064 0.0076179 0.0021669 0.00075866
-0.00018478 -0.0021848 -0.00064297 -0.0010402 -0.00038077 -0.0013008 -0.012053 0.0076407
0.17356 0.17958 -0.0092892 0.0073828
-0.00037285 0.00043621 -0.00013503 -0.0008264 0.00021472 -0.00066962 0.0021222 0.00073443
-0.009279 0.0073945 0.22034 0.23576
1640000000 0.2952 0.026153 -0.0013189 0.012313 -0.0030354 -0.0028158 0.0027761 0.0010182
-0.00068262 -0.0016126 -0.00041737 0.00062843
-0.0013383 0.012294 0.2024 0.27458 0.0062713 0.003471 -0.00061842 -0.0017977
-0.0010043 -0.0004067 -0.00051828 -0.00068236
-0.0030412 -0.0028109 0.0062952 0.0034391 0.30197 -0.15455 -0.00068608 0.0014355
-0.001058 -0.00099784 -0.00011923 -0.00029662
0.0027761 0.00097963 -0.00063536 -0.0018072 -0.00067131 0.0014576 0.24799 0.051519
-0.0077958 0.0091898 0.0025635 -0.00081168
-0.00071345 -0.0015816 -0.0010099 -0.00039068 -0.0010562 -0.00099502 -0.0077822 0.0091895
0.19691 0.15546 -0.0046635 0.0095821
-0.00039628 0.00061899 -0.00054502 -0.0006899 -0.00012968 -0.00028883 0.0025552 -0.00076703
-0.004687 0.0095966 0.24582 0.20445
1700000000 0.28847 -0.019342 0.0021087 0.0094511 -0.0038286 -1.6516e-05 0.0031458 -0.0012925
-0.0019895 -0.00070385 0.00060196 0.00044304
0.0020978 0.0094506 0.22077 0.24322 0.0041349 0.00035977 -0.0014842 -0.00058702
-0.00080337 2.81e-05 -0.00092768 -0.00051136
-0.0038271 2.6196e-06 0.0041358 0.00034042 0.25871 -0.19456 0.00045054 0.0016049
-0.0019521 -7.1211e-05 -0.00038054 -0.00077832
0.0031316 -0.0012981 -0.001482 -0.00057933 0.00046143 0.0015853 0.24458 0.0015825
-0.0046605 0.0099093 0.0014128 -0.0022219
-0.0019885 -0.00070132 -0.00081794 1.4778e-05 -0.0019499 -7.3577e-05 -0.0046362 0.0099577
0.2144 0.13532 -4.7177e-05 0.0097658
0.00059918 0.00045772 -0.00093333 -0.00049311 -0.00041619 -0.00078422 0.0013942 -0.002349
-5.2949e-05 0.0097357 0.26213 0.17032
1760000000 0.27668 -0.06818 0.0044318 0.0060999 -0.002347 0.0010089 0.0012518 -0.0034333
-0.0014461 0.00065676 0.00032142 -0.00053679
0.0044274 0.0060981 0.24722 0.20345 0.001771 -0.0015311 -0.0012549 0.00018214
-0.0010719 0.00087026 -0.00067442 0.00039658
-0.0023454 0.0010224 0.0017653 -0.0015386 0.21067 -0.22801 0.0010003 0.001079
-0.0013661 0.0014343 -0.0011886 -0.00071004
0.0012382 -0.0034718 -0.0012453 0.00018655 0.00098816 0.0010975 0.23529 -0.049738
-0.0011843 0.0092157 -0.00017082 -0.0025948
-0.0014702 0.00068783 -0.0010723 0.00088742 -0.0013544 0.0014269 -0.0011739 0.0091526
0.22959 0.10071 0.0040218 0.0071565
0.00032812 -0.00055925 -0.0006958 0.000388 -0.0011932 -0.00069874 -0.00017234 -0.0024781
0.0040273 0.0071909 0.27479 0.13276
1820000000 0.25227 -0.1057 0.0044864 0.0024974 -0.00022424 0.0025107 -0.00099366 -0.0031115
-0.0011662 0.0010441 -0.00017232 -1.4513e-05
0.0044728 0.0024973 0.25752 0.17315 -0.00061557 -0.00036644 -0.0013922 0.00098076
-0.00010346 0.0013083 -0.00067731 0.00048961
-0.00021719 0.0025069 -0.00061688 -0.00037293 0.15964 -0.24385 0.0015473 0.00053061
-0.00020825 0.0025115 -0.0015684 0.00036684
-0.0010195 -0.0031201 -0.0013904 0.00098766 0.0015759 0.00050041 0.20525 -0.096777
0.00068488 0.0078144 -0.001918 -0.0013541
-0.0011714 0.0010639 -9.9029e-05 0.0013135 -0.00020923 0.0025309 0.00072034 0.0078853
0.24693 0.071804 0.0046826 0.0036825
-0.0001351 -0.00010282 -0.00063539 0.00052344 -0.0015571 0.00033423 -0.00191 -0.0014906
0.0046575 0.0036493 0.27685 0.096295
1880000000 0.2173 -0.14623 0.0022835 0.00013263 -0.0006589 0.0022082 -0.0030192 -0.0021127
-0.0003506 0.0019552 7.2675e-06 -0.00052806
0.0022825 0.00013156 0.26219 0.12656 -0.002571 0.001495 -0.0002583 0.0017779
0.00051885 0.0013583 4.6039e-05 0.001109
-0.00064845 0.0022033 -0.0025671 0.0015161 0.10787 -0.25322 0.001816 -0.00086462
0.0013803 0.0020115 -0.001122 0.001429
-0.0030015 -0.0021074 -0.00023994 0.0018018 0.0017656 -0.00085206 0.16448 -0.13697
0.0017145 0.0055471 -0.0023302 0.00042111
-0.00038056 0.0019558 0.00053652 0.0013411 0.0014143 0.0019885 0.0017719 0.0055275
0.25101 0.040348 0.0051381 0.0013395
4.6051e-05 -0.00046845 3.0026e-05 0.0011027 -0.0011545 0.0014871 -0.0023828 0.00040064
0.0051593 0.0013527 0.27651 0.062483
1940000000 0.17777 -0.17176 -0.0002522 -0.0014611 0.0013317 0.0022101 -0.0036199 0.00046164
0.0013651 0.0013295 -0.00056947 -0.00042695
-0.00024965 -0.0014725 0.26287 0.094512 -0.0014864 0.0040048 0.0010859 0.0013483
0.0018906 0.00056915 0.0010628 0.00047265
0.0013472 0.0021928 -0.0014537 0.0040221 0.06238 -0.24606 0.00048173 -0.0021565
0.0025402 0.00042936 0.00066151 0.0018015
-0.0036345 0.0004991 0.0010804 0.0013678 0.00052643 -0.0021582 0.11237 -0.16721
0.001285 0.0041981 -0.0014091 0.0017032
0.001421 0.0013071 0.0018946 0.0005613 0.002546 0.00044257 0.0012463 0.0042155
0.25432 0.002082 0.0037898 -0.0017241
-0.00059394 -0.00041329 0.0010877 0.00049596 0.00067807 0.0017876 -0.0013071 0.0016753
0.0037944 -0.0017463 0.26563 0.026354
2000000000 0.13169 -0.18667 -0.0041035 0.00077587 0.0026481 0.001742 -0.0022942 0.0038084
0.0014141 0.000465 -0.00054915 0.00047286
-0.0041041 0.00075883 0.24855 0.058918 -0.0010378 0.005898 0.001663 0.00042642
0.0014377 -0.0011541 0.00056275 0.00017706
0.0026698 0.0017241 -0.0009964 0.0059016 0.019103 -0.23212 -0.0011362 -0.0015725
0.0022019 -0.0011532 0.0018101 0.0015149
-0.0022537 0.0038217 0.0016532 0.00037584 -0.0012139 -0.0015698 0.059031 -0.17703
-0.00014127 0.003648 9.8721e-05 0.0022833
0.0013859 0.00043274 0.0014363 -0.0011662 0.002227 -0.0011621 -5.8563e-05 0.003729
0.24939 -0.031377 0.00092821 -0.0027196
