!Keysight Technologies,M9804A,MY58100912,A.14.10.03
!Date: Thursday, April 27, 2023 10:28:33
!Correction: S11(C  6-Port  ) 
!S12(C  6-Port  ) 
!S13(C  6-Port  ) 
!S14(C  6-Port  ) 
!S15(C  6-Port  ) 
!S16(C  6-Port  ) 
!S21(C  6-Port  ) 
!S22(C  6-Port  ) 
!S23(C  6-Port  ) 
!S24(C  6-Port  ) 
!S25(C  6-Port  ) 
!S26(C  6-Port  ) 
!S31(C  6-Port  ) 
!S32(C  6-Port  ) 
!S33(C  6-Port  ) 
!S34(C  6-Port  ) 
!S35(C  6-Port  ) 
!S36(C  6-Port  ) 
!S41(C  6-Port  ) 
!S42(C  6-Port  ) 
!S43(C  6-Port  ) 
!S44(C  6-Port  ) 
!S45(C  6-Port  ) 
!S46(C  6-Port  ) 
!S51(C  6-Port  ) 
!S52(C  6-Port  ) 
!S53(C  6-Port  ) 
!S54(C  6-Port  ) 
!S55(C  6-Port  ) 
!S56(C  6-Port  ) 
!S61(C  6-Port  ) 
!S62(C  6-Port  ) 
!S63(C  6-Port  ) 
!S64(C  6-Port  ) 
!S65(C  6-Port  ) 
!S66(C  6-Port  ) 
!S6P File: Measurement: :
# Hz S  RI   R 50
500000000 -0.33403 -0.053168 -0.010538 -0.0017518 -0.0089348 0.012653 -0.004011 0.012204
0.011994 0.005683 -0.0039573 0.0090711
-0.010343 -0.0016311 -0.41727 -0.063438 0.008357 -0.010464 0.0020109 0.011443
0.0085087 0.0018564 0.0030452 0.0123
-0.0090213 0.012668 0.0082273 -0.01049 -0.2659 0.19978 0.0073487 0.003445
-0.00098425 0.0080771 0.0024151 0.010951
-0.0033279 0.012494 0.0020793 0.011629 0.0073211 0.0034606 -0.332 0.043671
-0.016409 -0.0060979 0.017162 0.023646
0.011548 0.0060008 0.0088411 0.0019117 -0.00041418 0.0078895 -0.016739 -0.0068614
-0.24967 -0.19329 -0.024812 0.0018661
-0.0035241 0.0092865 0.0021442 0.012426 0.0019891 0.010953 0.016712 0.023671
-0.024845 0.0018452 -0.27289 -0.12244
560000000 -0.31829 0.1133 -0.022711 -0.064965 -0.00069774 0.013591 0.006425 0.011748
0.0099862 0.0046922 0.0094536 0.008315
-0.022906 -0.064974 -0.3752 0.098378 -0.04098 -0.037522 0.013461 0.0044729
-0.009982 -0.0048171 0.0058904 -0.00063023
-0.00045407 0.01311 -0.040691 -0.037397 -0.18698 0.25275 -0.00018488 -0.0066727
0.015756 0.0083215 0.0070905 -0.0026161
0.006226 0.011467 0.013472 0.0042536 -0.00015831 -0.0067127 -0.30577 0.1371
0.005225 -0.028711 0.0029492 -0.022726
0.010408 0.0046952 -0.0097898 -0.0042559 0.015073 0.0084306 0.0055117 -0.028329
-0.3189 -0.0061383 0.0072641 -0.0422
0.010032 0.0093202 0.0060748 -0.0013538 0.0069836 -0.0025604 0.0030348 -0.023088
0.006795 -0.042426 -0.33101 0.03193
620000000 -0.27734 0.094261 -0.023052 0.00864 0.0037643 0.009149 0.0093989 -0.003668
0.012013 -0.0032348 0.0014241 -0.0031742
-0.023152 0.0087613 -0.40333 0.049973 -0.018467 0.0005076 -0.0010377 -0.0027546
0.011408 -0.0057174 0.0016222 -0.0030945
0.0039712 0.0091426 -0.018489 0.00057045 -0.15604 0.26034 1.9747e-05 -0.0056118
-0.0049079 -0.0040482 0.0086902 -0.0034735
0.0095995 -0.0037387 -0.00099546 -0.0026896 2.1223e-05 -0.0056557 -0.26681 0.1499
-0.032676 -0.025102 0.013163 0.025433
0.011933 -0.0032771 0.011468 -0.0058416 -0.0049612 -0.003945 -0.033101 -0.024569
-0.24352 -0.040948 -0.040226 0.013489
0.0012955 -0.002669 0.001381 -0.0031525 0.0086006 -0.0035012 0.012947 0.025639
-0.03994 0.013294 -0.25204 -0.0052645
680000000 -0.23958 0.18453 -0.026437 -0.014444 0.0050355 0.0056277 0.001581 -0.0075754
-0.00327 -0.011786 0.0044116 -0.0065332
-0.026297 -0.014679 -0.38971 0.14993 -0.032435 -0.0019975 -0.0019786 0.00015285
-0.0013983 -0.010376 -0.0018771 -0.0015903
0.0051304 0.0055761 -0.03258 -0.0019147 -0.10373 0.281 -0.0017768 -0.00036278
-0.00093335 0.00074881 -0.0033958 -0.0085134
0.0014904 -0.0080965 -0.0019227 -9.9643e-05 -0.0017296 -0.0003009 -0.21879 0.19681
-0.026057 -0.0082585 -0.0091472 -0.011836
-0.0033623 -0.011691 -0.0014508 -0.010365 -0.00095299 0.00064714 -0.026006 -0.0082571
-0.2761 0.058224 -0.0087808 -0.0067574
0.0039264 -0.0063588 -0.0013101 -0.0018356 -0.003075 -0.0088311 -0.0089121 -0.012134
-0.0088151 -0.00657 -0.26106 0.098625
740000000 -0.19332 0.1774 -0.039983 0.026585 0.013573 -0.0051754 5.2731e-05 -0.0039964
-0.0049825 -0.0038532 -0.0058851 0.0037099
-0.039693 0.026825 -0.33562 0.16861 -0.036288 0.035243 -0.00051295 -0.006256
-0.011526 0.0081503 -0.0018297 -0.0068971
0.013692 -0.005193 -0.0363 0.035195 -0.070915 0.27885 -0.0014659 0.0026473
-0.0037627 -0.0050674 -0.0010682 0.00079752
0.00014541 -0.0039802 -0.00035607 -0.0061449 -0.0014771 0.0026523 -0.20518 0.20498
-0.040828 -0.0075801 0.021248 0.014809
-0.0051502 -0.0041133 -0.011509 0.0079818 -0.0036888 -0.0050171 -0.040599 -0.0072592
-0.18468 0.082163 -0.040636 0.0015989
-0.0058251 0.0039137 -0.0016972 -0.0061823 -0.0012143 0.0007929 0.021102 0.014851
-0.040308 0.0015463 -0.24852 0.10354
800000000 -0.16214 0.2209 -0.022873 0.016266 0.0056645 -0.010539 -0.0048368 -0.0020107
-0.0050514 0.0018104 0.0042992 0.00062846
-0.022804 0.01615 -0.34126 0.23945 -0.0085985 0.034175 -0.0025219 0.0021985
-0.00089212 0.00264 0.00059342 0.0056757
0.0056495 -0.010532 -0.0085823 0.034328 -0.031523 0.30216 0.00057383 0.0014177
0.0002441 0.0032453 -0.002098 0.0012979
-0.0048418 -0.002363 -0.0025458 0.0021434 0.00059719 0.0014673 -0.17434 0.23224
-0.029277 0.013234 0.013677 -0.010169
-0.0049357 0.0017436 -0.00086439 0.0025999 0.00030203 0.0031192 -0.0293 0.013286
-0.21894 0.11232 -0.017683 0.02066
0.0037646 0.00050548 0.00043192 0.0058518 -0.0019637 0.0012822 0.013793 -0.0101
-0.017911 0.020562 -0.23913 0.15312
860000000 -0.12735 0.24092 -0.017925 0.030645 -0.0027013 -0.010442 -0.0018788 0.00073726
0.0039056 0.0057583 -0.0032657 -0.0028736
-0.017977 0.030603 -0.29272 0.28259 0.0078006 0.034854 0.00029474 0.0021494
0.0026447 0.0015597 0.0032256 0.00035943
-0.0027641 -0.010524 0.0079184 0.03477 0.015971 0.31096 -0.00064028 -0.00032238
0.0023129 -0.00095127 0.0017849 0.0041071
-0.001745 0.0009354 0.00031636 0.0022533 -0.0006251 -0.0003409 -0.13773 0.24312
-0.018447 0.018864 -0.0058074 -0.0090588
0.0039926 0.005403 0.0028869 0.0014339 0.0023985 -0.00097803 -0.018573 0.018909
-0.16651 0.16204 -0.023145 0.018112
-0.0032958 -0.0027697 0.0033054 -2.1887e-05 0.0016052 0.0041817 -0.0058385 -0.0093565
-0.023006 0.018097 -0.19072 0.19591
920000000 -0.10392 0.26432 0.004521 0.038289 -0.0095921 -0.0051709 -0.0020462 0.001742
0.0013038 0.0020736 0.0028182 -0.0015175
0.0045039 0.038275 -0.26605 0.30381 0.028213 0.022908 0.0013946 0.0011742
0.0073333 -0.00073622 0.0042459 -0.0026087
-0.0095861 -0.0051255 0.028338 0.022865 0.061566 0.31268 0.0019137 -6.9253e-05
0.00089755 -0.00011947 0.0010055 -0.0013441
-0.0020139 0.0017592 0.0014177 0.0013044 0.0019159 -9.3277e-05 -0.11372 0.25991
-0.010704 0.031425 0.0034318 -0.0066935
0.0013252 0.0020883 0.0073573 -0.00079027 0.00092946 -9.1488e-05 -0.010495 0.031361
-0.15251 0.16908 -0.0012176 0.026998
0.0027852 -0.0014568 0.004136 -0.0025858 0.00097946 -0.0013058 0.0034581 -0.0065941
-0.0014425 0.026875 -0.19427 0.21177
980000000 -0.057291 0.28432 0.016929 0.030436 -0.0096798 0.0042624 0.0020703 0.0036119
0.0039308 -0.0015747 -0.0030933 -0.0025067
0.01691 0.030471 -0.21284 0.33831 0.033674 0.0053579 0.0023609 3.6327e-05
0.0016799 -0.0058827 -0.00025331 -0.0027588
-0.0096668 0.0042802 0.033784 0.0052469 0.10759 0.30686 0.00076128 -0.0011956
0.00054318 -0.0019063 0.0014391 -0.00041421
0.0020492 0.0035164 0.0023677 2.6752e-05 0.00077029 -0.0011815 -0.074989 0.27138
0.0073872 0.030595 -0.0091017 -0.0069512
0.0038739 -0.001694 0.0016492 -0.005871 0.00051168 -0.0019125 0.0073986 0.030623
-0.11941 0.19808 0.0055522 0.019664
-0.0029487 -0.0025035 -0.00019258 -0.0027065 0.0014872 -0.00045711 -0.0090282 -0.0070128
0.0058262 0.019767 -0.15193 0.25475
1040000000 -0.015916 0.2938 0.033119 0.019233 -0.0015372 0.0072439 0.0026138 0.00076849
0.00072001 -0.0037064 -9.5505e-05 -0.0013883
0.033007 0.019209 -0.17787 0.3522 0.030395 -0.014723 0.0015781 -0.0017783
-0.0017833 -0.0030646 -0.0012737 -0.0030767
-0.0015595 0.0072664 0.030377 -0.014872 0.15367 0.29424 -0.00050471 -0.0016426
-0.0015315 -0.0011571 -0.00044153 -0.0010586
0.0025651 0.00075193 0.001596 -0.0017978 -0.00050453 -0.0016532 -0.047455 0.28116
0.020192 0.01913 -0.0027874 0.00094075
0.00062918 -0.0037497 -0.0018608 -0.0030394 -0.0015629 -0.0011306 0.020274 0.019172
-0.085718 0.20428 0.014622 0.018346
-0.00026938 -0.0015487 -0.0012647 -0.003057 -0.00043953 -0.0010363 -0.0028351 0.0010356
0.014447 0.018265 -0.12973 0.27545
1100000000 0.028928 0.30285 0.03674 -0.0035665 0.0028435 0.0042467 0.0024513 -0.0012084
-0.0020991 -0.0030868 -0.0041526 -0.00038808
0.036675 -0.0035068 -0.13465 0.37025 0.015959 -0.028302 4.4422e-05 -0.0018913
-0.0040652 -0.00085177 -0.0036569 -0.00059145
0.0028677 0.0042466 0.015857 -0.028411 0.20029 0.27468 -0.0019728 0.00011922
-0.0017691 0.00053396 -0.0010816 -0.00058247
0.002467 -0.0012389 0.00011101 -0.001873 -0.0019716 0.0001142 -0.0066055 0.28614
0.026141 0.005198 -0.0025404 0.00012859
-0.0022806 -0.0031968 -0.0041013 -0.000931 -0.0017613 0.00053267 0.026149 0.0050939
-0.064551 0.21715 0.020025 0.0073355
-0.0040385 -0.00032379 -0.003688 -0.00053829 -0.0010789 -0.00056777 -0.0025011 7.2437e-05
0.020036 0.0074656 -0.082706 0.30278
1160000000 0.079836 0.29898 0.024823 -0.020892 0.0028864 -0.00041993 -0.00022811 -0.0023617
-0.0039175 -0.00072437 -0.0010268 0.003914
0.024835 -0.020819 -0.09116 0.37541 -0.0035407 -0.029959 -0.0018198 -0.0017761
-0.0026642 0.002578 -0.001476 0.0018283
0.00284 -0.00045588 -0.003663 -0.030014 0.24374 0.24419 -0.00088319 0.0018683
-0.00068073 0.0018457 -0.00094092 0.00050771
-0.00025391 -0.0023557 -0.0018787 -0.0017571 -0.00087852 0.0018884 0.032821 0.28331
0.022022 -0.011249 -0.0029551 0.0050183
-0.0040157 -0.00066568 -0.0026849 0.0026798 -0.00069377 0.0018887 0.021979 -0.011276
-0.030743 0.2246 0.018248 -0.00048325
-0.0010816 0.0039512 -0.0015226 0.0018708 -0.00092906 0.00048553 -0.0029278 0.0050762
0.018217 -0.00051524 -0.036947 0.30544
1220000000 0.12409 0.28946 0.011125 -0.030679 -0.0016047 -0.00094264 1.7732e-05 -0.00084547
-0.0026276 0.0022464 0.0012003 0.0021957
0.011168 -0.030628 -0.046656 0.38847 -0.017382 -0.022061 -0.0026362 0.00053727
-8.0168e-05 0.0032343 -0.00073378 0.0021068
-0.0015787 -0.0009465 -0.017472 -0.022016 0.28289 0.20542 0.00078913 0.001751
0.0006638 0.0013172 0.00031257 0.00053471
2.7039e-06 -0.00085587 -0.0026167 0.00054672 0.00077481 0.001747 0.073377 0.27461
0.011195 -0.018216 0.0018005 0.001402
-0.0026641 0.0021937 -4.0723e-05 0.0032355 0.0006798 0.0013271 0.011242 -0.018237
-0.0064441 0.23288 0.014015 -0.013959
0.0012504 0.0022081 -0.00076696 0.0021259 0.00029121 0.00054487 0.0017562 0.0014388
0.014003 -0.013909 -0.0039789 0.32026
1280000000 0.17466 0.26897 -0.0079195 -0.029308 -0.0020366 0.0024675 -0.0008811 -0.0019901
-0.00078017 0.0031634 0.0026459 0.0011956
-0.007869 -0.029274 -0.00015576 0.38001 -0.024627 -0.0089015 -0.00099175 0.001501
0.0018687 0.0016798 0.00080725 0.0019169
-0.0020262 0.0024455 -0.024703 -0.0088027 0.31333 0.16151 0.001639 -1.804e-05
0.0011408 0.00031587 0.00036928 0.00022046
-0.0009093 -0.0019649 -0.00096953 0.0014941 0.0016285 -1.5183e-05 0.11046 0.25772
0.00059338 -0.020573 -0.00032148 0.00056366
-0.00075688 0.0031786 0.0019116 0.0016891 0.0012188 0.00030639 0.00046979 -0.020646
0.030159 0.23553 0.0022971 -0.016053
0.0026494 0.0011824 0.00082451 0.0018805 0.00036108 0.00021916 -0.00031148 0.00051418
0.0023531 -0.01601 0.042769 0.32084
1340000000 0.21196 0.23607 -0.01815 -0.019427 0.00078248 0.0047987 -0.0017735 -0.0009684
0.0014872 0.0027146 0.0018005 -0.001222
-0.01811 -0.019465 0.0395 0.37189 -0.022295 0.0044146 -2.4217e-06 0.0020007
0.002074 0.00075129 0.0012393 0.00083211
0.00079412 0.0048139 -0.022309 0.0045466 0.33507 0.11452 0.001074 -0.00096298
0.00074108 -0.00055085 0.00013553 0.00032063
-0.0017593 -0.00091752 2.7425e-05 0.0019929 0.0010655 -0.00096428 0.1434 0.23653
-0.009541 -0.017553 0.00063474 0.0006269
0.0014515 0.0027171 0.0020492 0.00076431 0.00072776 -0.00057507 -0.0095038 -0.01753
0.060707 0.23054 -0.0044029 -0.014288
0.0018279 -0.0012316 0.0012857 0.00084652 0.0001792 0.00032692 0.00058462 0.00066249
-0.0044732 -0.014305 0.080619 0.31506
1400000000 0.24653 0.19845 -0.024105 -0.0074887 0.00534 0.003369 -0.002301 0.00070948
0.0025108 0.00090998 0.00027241 -0.0016218
-0.024055 -0.0074797 0.077204 0.3591 -0.015314 0.012918 0.0013404 0.0012296
0.0013488 -0.00092449 0.001207 5.572e-05
0.0053345 0.0033697 -0.015266 0.012997 0.34814 0.06168 3.8534e-05 -0.0016474
2.9789e-05 -0.00046322 0.00031234 0.00026716
-0.0023182 0.00073385 0.0013445 0.0012186 3.1158e-05 -0.0016506 0.17264 0.20727
-0.015759 -0.01002 -0.00083368 3.8169e-05
0.0025755 0.00091253 0.0013649 -0.00095029 1.9731e-05 -0.00044839 -0.015831 -0.0099908
0.094204 0.22542 -0.011098 -0.0088606
0.00023812 -0.0016376 0.0011802 9.0623e-05 0.00025494 0.00027223 -0.0008108 4.2938e-05
-0.011041 -0.0088518 0.1251 0.30395
1460000000 0.26958 0.15464 -0.02081 0.0051926 0.0059688 -0.0017011 -0.0015461 0.0017719
0.0023078 -0.00030753 -0.00044752 -0.00093189
-0.0208 0.0051507 0.11122 0.33691 -0.0061212 0.016079 0.0016832 0.00017093
0.00069432 -0.0014225 0.0012193 -0.00060066
0.0059733 -0.0016935 -0.0060721 0.016143 0.3547 0.0080241 -0.0012911 -0.0013031
0.00011891 -0.00022981 0.00076379 -0.00027941
-0.001556 0.0017634 0.0016987 0.00017219 -0.0012746 -0.0013093 0.19865 0.17761
-0.016967 -0.0026272 -0.00078151 0.002132
0.0022351 -0.00039989 0.00066754 -0.0014446 0.00012827 -0.00026324 -0.016955 -0.0025184
0.12322 0.21063 -0.012796 -0.0025013
-0.0003823 -0.0008833 0.0011769 -0.00062782 0.00076449 -0.00027499 -0.00077725 0.0021347
-0.012807 -0.0025201 0.15765 0.28285
1520000000 0.28218 0.11313 -0.01492 0.010804 0.0035724 -0.0043514 0.00011293 0.0026081
0.0021049 -0.0020424 -0.0010999 -0.00019778
-0.01491 0.010805 0.14467 0.32278 0.0018758 0.013546 0.0016305 -0.00077391
6.2213e-05 -0.0011054 0.00029812 -0.001038
0.0035636 -0.0043368 0.001971 0.013538 0.3484 -0.047304 -0.0011668 -0.00031383
0.0004925 -0.00082558 0.00011919 -0.0002082
0.00014464 0.0025949 0.0016241 -0.0007968 -0.0011788 -0.00031203 0.22147 0.13939
-0.015649 0.0038533 0.0016995 0.0021257
0.0021322 -0.0020301 5.9484e-05 -0.0011208 0.00048169 -0.00084545 -0.015625 0.0038571
0.1514 0.19691 -0.012334 0.0023941
-0.0011663 -0.0001703 0.00028391 -0.0010238 0.0001179 -0.00022681 0.0016841 0.0021491
-0.012319 0.0024341 0.1902 0.26173
1580000000 0.29192 0.066932 -0.0077331 0.013952 -0.00080375 -0.0052406 0.0015581 0.0019548
-0.00017612 -0.0021614 -0.00018771 0.00046138
-0.0077681 0.01391 0.1718 0.29803 0.0057051 0.0083923 0.00050166 -0.0015327
-0.00062011 -0.00098546 -0.00022866 -0.00085085
-0.00086199 -0.0052171 0.005777 0.0083932 0.32932 -0.10461 -0.0016139 0.00066874
-0.00039463 -0.0012205 0.00028767 -0.00063758
0.0015537 0.0019258 0.00049559 -0.0015484 -0.0016147 0.00066134 0.23474 0.099881
-0.0114 0.0086917 0.0023055 0.00069367
-0.00021369 -0.0021978 -0.00059935 -0.00097152 -0.00035713 -0.0011881 -0.011393 0.0087586
0.17578 0.1785 -0.009542 0.0082606
-0.00017848 0.00050546 -0.0002245 -0.00085272 0.00024761 -0.00062065 0.0023442 0.00063819
-0.0095365 0.0081924 0.22177 0.23474
1640000000 0.29419 0.026135 -0.00088487 0.012498 -0.0029605 -0.0028479 0.0027154 0.00093292
-0.00080136 -0.0017154 -0.00033834 0.00056433
-0.00090492 0.01249 0.20108 0.2738 0.0063086 0.0032664 -0.00061068 -0.0017946
-0.00096256 -0.00029963 -0.00050924 -0.00063768
-0.0030178 -0.002806 0.0063653 0.0032356 0.30168 -0.15391 -0.00064855 0.0014653
-0.001074 -0.00088807 -0.00021236 -0.00038734
0.0027519 0.00094565 -0.00061975 -0.0017821 -0.00064094 0.0014693 0.24664 0.051592
-0.0066637 0.0098173 0.0026623 -0.00093623
-0.0008112 -0.0016901 -0.00097719 -0.00030092 -0.0010794 -0.0008854 -0.0066096 0.0098303
0.19847 0.15443 -0.0042486 0.010078
-0.00038864 0.00052182 -0.00053304 -0.00060982 -0.00022632 -0.00039142 0.0026338 -0.00096153
-0.0042405 0.010121 0.24656 0.20383
1700000000 0.28748 -0.018905 0.0025208 0.0092646 -0.0037815 -6.4831e-05 0.0030531 -0.0012529
-0.0021087 -0.00060052 0.00063372 0.00037984
0.0025214 0.0092842 0.21941 0.24283 0.0041059 0.00026328 -0.0015299 -0.00063127
-0.00073834 2.6403e-05 -0.00092017 -0.00036535
-0.0037942 -3.5954e-05 0.0040961 0.00024309 0.25906 -0.19401 0.0004659 0.0016093
-0.0019239 -5.8993e-05 -0.00057729 -0.00086704
0.0030619 -0.001269 -0.0015252 -0.0006255 0.00045432 0.0016507 0.24335 0.0022836
-0.0035848 0.0097801 0.0015877 -0.0023517
-0.0020916 -0.00053158 -0.00074658 3.5114e-05 -0.0019593 -4.5082e-05 -0.0035856 0.0097585
0.21577 0.13372 0.00045683 0.010062
0.00066623 0.00030872 -0.00094217 -0.00037099 -0.00054269 -0.00089896 0.0016238 -0.0023637
0.0004733 0.010041 0.26299 0.16946
1760000000 0.2758 -0.067185 0.0046466 0.0058126 -0.0024874 0.001204 0.0013015 -0.0034227
-0.0013794 0.00075962 0.00027908 -0.00057632
0.004614 0.0058139 0.24553 0.20359 0.001591 -0.0015672 -0.0011979 0.0001856
-0.00096233 0.000836 -0.00055398 0.00032594
-0.0024749 0.0012022 0.0015778 -0.0015519 0.21038 -0.22758 0.0011611 0.0010215
-0.0011602 0.0015279 -0.0012234 -0.00065472
0.0012732 -0.0034345 -0.0012193 0.00018557 0.0011664 0.0010222 0.23436 -0.048561
-0.00057343 0.0084918 -5.0292e-05 -0.0025473
-0.0013713 0.00077318 -0.00096125 0.00083011 -0.0011573 0.0015317 -0.00051408 0.0085419
0.23026 0.098877 0.0046331 0.0072335
0.00030731 -0.00056488 -0.00054991 0.00037226 -0.0011976 -0.00064261 -9.4001e-05 -0.0025531
0.0045944 0.0072789 0.2754 0.13167
1820000000 0.25213 -0.10432 0.0044934 0.0022252 -0.00028971 0.0024787 -0.0010433 -0.0030865
-0.0010493 0.0010608 -0.00018769 -1.9007e-05
0.0044854 0.0022552 0.25623 0.17416 -0.00070768 -0.00036628 -0.0013156 0.00090438
-7.5524e-05 0.0011976 -0.0006573 0.00054963
-0.00025099 0.0025049 -0.00069726 -0.00032953 0.16033 -0.24357 0.0014653 0.00043254
-0.00021939 0.0023678 -0.001603 0.00032617
-0.0010361 -0.0030732 -0.0012951 0.00093552 0.00143 0.00046431 0.20502 -0.09527
0.0008186 0.0070786 -0.0019332 -0.0016473
-0.0010844 0.0011329 -8.5467e-05 0.0012154 -0.00024389 0.0023323 0.00082066 0.0070326
0.24728 0.070309 0.0052321 0.0034382
-0.0001955 -7.068e-05 -0.00064659 0.00054402 -0.0015986 0.00038982 -0.0018909 -0.0016396
0.0052426 0.0034124 0.27773 0.095569
1880000000 0.21771 -0.14495 0.0021782 4.5868e-05 -0.0004341 0.0021408 -0.002932 -0.0021356
-6.4825e-05 0.0018597 0.00013346 -0.0004896
0.0021843 7.0665e-05 0.26126 0.12766 -0.0026695 0.0015344 -0.00023521 0.0017981
0.00054637 0.0012833 5.5198e-05 0.00094796
-0.00041963 0.0021958 -0.0026573 0.0015619 0.10856 -0.25341 0.0017776 -0.00095913
0.0015475 0.0019361 -0.00099567 0.001468
-0.0029195 -0.0021112 -0.00025325 0.0017841 0.0017733 -0.00096915 0.16548 -0.13548
0.0015706 0.0050864 -0.0025217 0.00034954
-4.4035e-05 0.0018309 0.0005549 0.0012647 0.0015395 0.0019283 0.0015749 0.0050669
0.25092 0.038784 0.0053073 0.0010576
0.00017224 -0.00052686 7.2986e-05 0.0009862 -0.0010265 0.0014497 -0.0025649 0.00034078
0.0052838 0.0010628 0.27717 0.06112
1940000000 0.17874 -0.17083 -0.00026976 -0.0014525 0.0013369 0.002335 -0.0035489 0.0005389
0.0014936 0.0010807 -0.00048373 -0.00060358
-0.00026651 -0.0014212 0.26248 0.096075 -0.0015164 0.0041694 0.0011345 0.0013348
0.0018359 0.00057934 0.00098985 0.00031791
0.0013037 0.0022748 -0.0014711 0.0041622 0.062205 -0.24636 0.00056611 -0.0021881
0.0024889 0.0004381 0.00050088 0.0017284
-0.0035779 0.00061161 0.0011589 0.0013401 0.00053694 -0.0022438 0.11348 -0.16659
0.0007592 0.0038837 -0.0016506 0.0016337
0.0014801 0.0010892 0.0018278 0.00057454 0.0024834 0.00043795 0.00076239 0.0038382
0.2537 0.0011566 0.0038472 -0.0022729
-0.00050814 -0.00067312 0.0010256 0.00029691 0.00046059 0.0017859 -0.0015501 0.001628
0.0039028 -0.00227 0.26591 0.024984
2000000000 0.13296 -0.18631 -0.0039914 0.00060373 0.0026876 0.0014546 -0.0023587 0.0039188
0.001178 0.0004253 -0.00060465 0.00046273
-0.0039347 0.0006384 0.24911 0.060212 -0.0009658 0.0058958 0.0015849 0.00044086
0.0013982 -0.0010477 0.00059411 0.00013548
0.002727 0.001416 -0.00092285 0.0059076 0.019249 -0.23265 -0.001299 -0.001535
0.002127 -0.0012808 0.001705 0.0014425
-0.0023584 0.0038238 0.0015935 0.00043223 -0.0012855 -0.0015131 0.060035 -0.1771
-0.00063229 0.0036145 4.8208e-05 0.0022203
0.0011957 0.00045724 0.0013968 -0.0010495 0.0021139 -0.0013234 -0.00063322 0.003675
0.24907 -0.032002 0.00070382 -0.0031803
