!Keysight Technologies,M9804A,MY58100912,A.14.10.03
!Date: Thursday, April 27, 2023 10:28:33
!Correction: S11(C  6-Port  ) 
!S12(C  6-Port  ) 
!S13(C  6-Port  ) 
!S14(C  6-Port  ) 
!S15(C  6-Port  ) 
!S16(C  6-Port  ) 
!S21(C  6-Port  ) 
!S22(C  6-Port  ) 
!S23(C  6-Port  ) 
!S24(C  6-Port  ) 
!S25(C  6-Port  ) 
!S26(C  6-Port  ) 
!S31(C  6-Port  ) 
!S32(C  6-Port  ) 
!S33(C  6-Port  ) 
!S34(C  6-Port  ) 
!S35(C  6-Port  ) 
!S36(C  6-Port  ) 
!S41(C  6-Port  ) 
!S42(C  6-Port  ) 
!S43(C  6-Port  ) 
!S44(C  6-Port  ) 
!S45(C  6-Port  ) 
!S46(C  6-Port  ) 
!S51(C  6-Port  ) 
!S52(C  6-Port  ) 
!S53(C  6-Port  ) 
!S54(C  6-Port  ) 
!S55(C  6-Port  ) 
!S56(C  6-Port  ) 
!S61(C  6-Port  ) 
!S62(C  6-Port  ) 
!S63(C  6-Port  ) 
!S64(C  6-Port  ) 
!S65(C  6-Port  ) 
!S66(C  6-Port  ) 
!S6P File: Measurement: :
# Hz S  RI   R 50
500000000 -0.33346 -0.052734 -0.010407 -0.0012332 -0.009127 0.013275 -0.0041117 0.011936
0.012908 0.0052881 -0.0030831 0.0090066
-0.010077 -0.0021664 -0.41712 -0.062597 0.0081378 -0.010532 0.0019664 0.011945
0.0076396 0.002884 0.0027741 0.01375
-0.0090466 0.012926 0.007999 -0.010543 -0.26674 0.1999 0.0072703 0.0033333
-0.0019389 0.0083518 0.001335 0.012331
-0.0042799 0.012278 0.0018927 0.012235 0.007279 0.0032254 -0.33252 0.044596
-0.018411 -0.0049738 0.015961 0.024732
0.012229 0.0055832 0.0074606 0.0032203 -0.0019675 0.0085292 -0.018624 -0.005675
-0.25045 -0.19149 -0.026303 0.0042285
-0.0040858 0.0086293 0.001794 0.014162 0.00087908 0.012178 0.016275 0.026096
-0.026112 0.004083 -0.2728 -0.11865
560000000 -0.31863 0.11388 -0.022693 -0.064448 -0.00039656 0.013185 0.0054971 0.011496
0.0111 0.0051761 0.0099421 0.0090946
-0.022457 -0.064183 -0.37534 0.09977 -0.042197 -0.037091 0.013675 0.0032625
-0.012599 -0.0046238 0.004052 -5.0517e-05
-0.00067819 0.012996 -0.042067 -0.037038 -0.18573 0.25025 -0.00053864 -0.0041677
0.019084 0.004925 0.0072255 -0.0052789
0.0061576 0.010904 0.013488 0.0033414 -0.0006027 -0.004137 -0.30628 0.13563
0.0052378 -0.025913 0.0055336 -0.020359
0.010375 0.0045006 -0.013048 -0.0040268 0.019187 0.0042853 0.0051255 -0.025851
-0.31136 -0.010998 0.0087081 -0.047515
0.011086 0.0082268 0.0037835 2.5918e-05 0.0071011 -0.0048712 0.00554 -0.021473
0.0078014 -0.047764 -0.33273 0.028841
620000000 -0.27868 0.094702 -0.022979 0.0084836 0.0036494 0.0093144 0.0079665 -0.0037976
0.01336 -0.003038 -0.0005348 -0.001493
-0.023191 0.008509 -0.40338 0.049843 -0.018504 0.00037012 -0.0015255 -0.0020449
0.012241 -0.0067462 0.00088119 -0.003027
0.003336 0.0095431 -0.018478 0.00054853 -0.15544 0.26074 -0.00071279 -0.0053067
-0.003506 -0.0028776 0.0095384 -0.0036964
0.0074645 -0.0037034 -0.0016713 -0.0019447 -0.000683 -0.005179 -0.26504 0.14575
-0.038702 -0.019506 0.012735 0.025045
0.013015 -0.0018444 0.01236 -0.0067932 -0.0037219 -0.0030229 -0.038494 -0.019349
-0.22962 -0.044538 -0.041558 0.013556
-0.00019715 -0.0012878 0.00039217 -0.0029491 0.0094639 -0.003186 0.013819 0.02528
-0.041937 0.012302 -0.25189 -0.0056968
680000000 -0.23866 0.18404 -0.026323 -0.014476 0.0050708 0.0055636 0.0010271 -0.0073804
-0.0024668 -0.011878 0.0050484 -0.0072131
-0.026456 -0.01446 -0.38954 0.15036 -0.03271 -0.0019889 -0.0014507 -0.00046213
-0.0020026 -0.0096363 -0.00098129 -0.0017054
0.0051364 0.0055407 -0.032677 -0.0018795 -0.10386 0.2808 -0.0006611 -0.0002574
-0.001566 0.00038953 -0.0026369 -0.0087588
0.0015005 -0.0076172 -0.0015423 -0.00056246 -0.0006326 -0.00020987 -0.22033 0.19752
-0.023893 -0.007768 -0.0090502 -0.010058
-0.0025682 -0.011826 -0.0020502 -0.0097085 -0.0014841 0.00030048 -0.023728 -0.0077809
-0.2788 0.058138 -0.0071476 -0.0079481
0.0056474 -0.007714 -0.00064782 -0.0018113 -0.0028514 -0.0087935 -0.0088875 -0.01011
-0.0072093 -0.0077898 -0.26107 0.097769
740000000 -0.19335 0.17825 -0.039367 0.026894 0.013523 -0.0047612 -0.00068308 -0.0040918
-0.0041314 -0.0031839 -0.0063932 0.0035505
-0.039645 0.026718 -0.33509 0.16949 -0.037233 0.035262 -0.00063233 -0.0054565
-0.011747 0.0065088 -0.0026459 -0.005571
0.013423 -0.0047575 -0.0372 0.035415 -0.070216 0.27821 -0.0023077 0.0030813
-0.0024046 -0.0047727 -0.0011376 0.00043491
-0.00076923 -0.0041346 -0.00034334 -0.0057685 -0.0022443 0.0031121 -0.2042 0.20391
-0.041892 -0.0065944 0.022166 0.013567
-0.004099 -0.0029532 -0.011564 0.0073511 -0.0023974 -0.0048635 -0.041594 -0.0064872
-0.18147 0.081706 -0.040633 0.0021965
-0.0068951 0.0034868 -0.0017074 -0.0060368 -0.0013414 0.00074245 0.022055 0.013411
-0.040584 0.0025737 -0.24762 0.1034
800000000 -0.16121 0.22133 -0.0226 0.016403 0.0060371 -0.010378 -0.0048915 -0.002038
-0.0042183 0.0027226 0.0035461 0.00015055
-0.02244 0.016316 -0.34104 0.23961 -0.0084344 0.034463 -0.0022645 0.0020626
-0.0010566 0.0029274 0.00077696 0.005305
0.0059352 -0.010699 -0.0083561 0.034426 -0.031239 0.3024 0.00080974 0.001447
3.6831e-05 0.0036327 -0.0016678 0.00095677
-0.0045097 -0.0021927 -0.0021254 0.0020352 0.00074282 0.0014874 -0.17399 0.23236
-0.02927 0.013153 0.01385 -0.0098312
-0.0043444 0.0022828 -0.0012198 0.002759 0.00013419 0.0036013 -0.029191 0.01315
-0.21947 0.11228 -0.017003 0.019462
0.0043258 0.00041288 0.0011527 0.0054725 -0.0016147 0.0010995 0.014156 -0.0098756
-0.017351 0.019689 -0.23929 0.1541
860000000 -0.12685 0.24123 -0.01781 0.030543 -0.0028156 -0.010445 -0.0016772 0.00062046
0.0038378 0.0052131 -0.0033464 -0.0024402
-0.017734 0.030371 -0.29267 0.28227 0.0076291 0.034695 0.00012145 0.0021046
0.0035643 0.0007918 0.0037891 0.00051174
-0.0027915 -0.010565 0.0077571 0.034702 0.016088 0.31102 -0.00081109 -5.3186e-05
0.0021744 -0.0011238 0.0019503 0.0043322
-0.0018734 0.00076523 -8.5606e-05 0.0022999 -0.00075777 -6.2523e-05 -0.13824 0.24304
-0.018511 0.01821 -0.0063047 -0.009124
0.0038795 0.005002 0.0033392 0.00030685 0.0022152 -0.0011363 -0.018364 0.018449
-0.16576 0.16305 -0.02394 0.016695
-0.003051 -0.0027484 0.0034711 0.00070428 0.0018502 0.0042098 -0.0063213 -0.0088717
-0.024232 0.016406 -0.18959 0.198
920000000 -0.10342 0.26457 0.0046758 0.038298 -0.0094976 -0.0051757 -0.0018516 0.0017778
0.0012257 0.0022082 0.0028633 -0.0014831
0.0045598 0.038277 -0.26586 0.30387 0.028211 0.022766 0.0014976 0.0012309
0.007509 -0.00012945 0.0040231 -0.0028205
-0.0095539 -0.0051043 0.02836 0.022731 0.061694 0.31263 0.0019213 -7.4104e-06
0.00099814 -2.0753e-05 0.0012584 -0.0013383
-0.0019298 0.0018303 0.001481 0.0012103 0.0019657 2.3203e-05 -0.1132 0.25995
-0.0111 0.031133 0.0037113 -0.006569
0.0010948 0.0021428 0.0074308 -0.00032654 0.0010311 -8.4886e-05 -0.011205 0.031263
-0.15177 0.16995 -0.0015584 0.026028
0.002668 -0.0012736 0.0042385 -0.0030003 0.0012889 -0.0014001 0.0037228 -0.0066705
-0.0016654 0.026009 -0.19482 0.21177
980000000 -0.057013 0.28465 0.016856 0.030319 -0.0096913 0.0042563 0.0019811 0.0036312
0.0039553 -0.0015197 -0.0027867 -0.0021702
0.016782 0.030331 -0.21283 0.33861 0.033682 0.0053742 0.0021066 -0.0001299
0.0017004 -0.0061274 -0.0001291 -0.0025963
-0.0096628 0.0042532 0.033711 0.0052113 0.1078 0.30692 0.00075869 -0.0011562
0.00042004 -0.0019319 0.0015432 -0.00015189
0.0018474 0.0035401 0.0021635 -0.00013452 0.00073499 -0.0011382 -0.074975 0.27141
0.0074779 0.030379 -0.009093 -0.0069402
0.0040251 -0.0016022 0.0016209 -0.0061475 0.00048226 -0.001959 0.0075343 0.030408
-0.11917 0.19822 0.0062331 0.019463
-0.002897 -0.0024598 -8.1752e-05 -0.0025042 0.0015471 -0.00020681 -0.0089239 -0.006805
0.0062012 0.019197 -0.15236 0.25461
1040000000 -0.01531 0.29385 0.033096 0.01899 -0.0016168 0.0071233 0.0026138 0.00081401
0.00054326 -0.0035433 -0.00025022 -0.0015124
0.033042 0.019054 -0.17769 0.35231 0.030296 -0.014825 0.0016508 -0.0018942
-0.0019383 -0.0027832 -0.0011734 -0.0028614
-0.001603 0.0072011 0.030329 -0.01496 0.15379 0.29423 -0.00049292 -0.0016966
-0.0014664 -0.00097678 -0.00057626 -0.0010829
0.0027232 0.00072065 0.0016919 -0.0018323 -0.00045817 -0.0017268 -0.047256 0.2811
0.020324 0.019028 -0.0025348 0.0011035
0.00044687 -0.0036067 -0.0021458 -0.0026582 -0.0015141 -0.0010001 0.020304 0.019083
-0.085532 0.20456 0.014566 0.018108
-4.396e-05 -0.0015464 -0.0011208 -0.0027732 -0.00057297 -0.0010842 -0.0026624 0.0010993
0.014618 0.018052 -0.12923 0.27468
1100000000 0.029546 0.30275 0.036748 -0.0035832 0.0028566 0.0042543 0.0024277 -0.0012804
-0.0021189 -0.0031199 -0.003952 -0.00033597
0.036707 -0.0035518 -0.13436 0.37045 0.015957 -0.028328 8.2456e-05 -0.0019122
-0.0037486 -0.00099427 -0.0037483 -0.00063606
0.0028862 0.0042683 0.015854 -0.028401 0.20051 0.27467 -0.0019789 0.0001201
-0.0018145 0.00046119 -0.0010755 -0.00050718
0.0024237 -0.0012958 0.00013876 -0.0018767 -0.0019819 0.00014019 -0.0065169 0.28625
0.025898 0.0051568 -0.0023799 0.00029595
-0.0020337 -0.0031412 -0.0038012 -0.00094434 -0.0017802 0.0004386 0.025895 0.0051276
-0.064744 0.21721 0.01961 0.0078851
-0.0040884 -9.6529e-05 -0.0036827 -0.00050248 -0.0010883 -0.00047102 -0.0023636 0.00024717
0.019731 0.0077524 -0.082854 0.30334
1160000000 0.080484 0.29892 0.024727 -0.020983 0.0028475 -0.00039039 -9.5583e-05 -0.002335
-0.0039881 -0.00075236 -0.00083161 0.0040829
0.024687 -0.020916 -0.090916 0.37536 -0.0036472 -0.030063 -0.0016651 -0.0017123
-0.0028099 0.002554 -0.0015072 0.0019573
0.0028607 -0.00038867 -0.0037486 -0.030042 0.24385 0.24413 -0.00083053 0.0017947
-0.00065513 0.0019574 -0.00096975 0.00036897
-0.00015672 -0.0023764 -0.0017567 -0.0016498 -0.00079524 0.0017816 0.033005 0.28339
0.021875 -0.011063 -0.0032478 0.0050548
-0.0039569 -0.00075443 -0.0027961 0.002497 -0.00062992 0.0019983 0.021857 -0.01108
-0.030826 0.2249 0.018659 -0.00094838
-0.00099142 0.0040721 -0.0014837 0.0018688 -0.0008731 0.00033166 -0.0032111 0.0050894
0.01848 -0.0007774 -0.036506 0.30546
1220000000 0.12478 0.28915 0.011093 -0.030605 -0.0015888 -0.00090339 -6.9775e-06 -0.00088021
-0.0026327 0.0022089 0.001218 0.0018994
0.01104 -0.030616 -0.046363 0.38856 -0.017345 -0.022012 -0.0026949 0.00054931
4.6498e-05 0.003176 -0.00079506 0.0019305
-0.0016182 -0.0008938 -0.017473 -0.021999 0.28306 0.20532 0.00078341 0.0017678
0.0006134 0.001169 0.00016894 0.00059836
9.8684e-06 -0.00090092 -0.0027145 0.00054561 0.00074153 0.0017555 0.073499 0.27465
0.011016 -0.018147 0.0019289 0.0015706
-0.00259 0.0021915 7.4385e-05 0.0031452 0.00058738 0.0011784 0.011022 -0.018206
-0.0063749 0.23351 0.013493 -0.013705
0.0011857 0.0020096 -0.00075218 0.0020358 0.0002054 0.00060186 0.0019893 0.0014976
0.013552 -0.013771 -0.0042042 0.32
1280000000 0.17511 0.26862 -0.0080374 -0.029276 -0.0019968 0.002452 -0.00083406 -0.0020075
-0.00079497 0.003143 0.0025561 0.001173
-0.0080097 -0.029226 0.00013877 0.37999 -0.024664 -0.0088728 -0.00088453 0.0014706
0.0017964 0.0017085 0.00069846 0.0020738
-0.0019786 0.0024961 -0.024688 -0.0087553 0.3134 0.1614 0.0016244 -3.9542e-05
0.0011778 0.00025855 0.00042508 0.00031573
-0.00084745 -0.0020762 -0.00096304 0.0014914 0.0016579 -5.5689e-05 0.11053 0.25769
0.00057224 -0.020416 -0.00012229 0.00031395
-0.00071418 0.0032279 0.0018508 0.0016973 0.0011996 0.00026847 0.00056423 -0.020423
0.030443 0.2358 0.0027488 -0.015581
0.0025743 0.0011142 0.00065521 0.0020178 0.00038855 0.00033381 -9.0513e-05 0.00037057
0.0027098 -0.015599 0.042623 0.32074
1340000000 0.21263 0.23562 -0.018111 -0.01936 0.00077524 0.0048186 -0.0018369 -0.00082942
0.0014973 0.0026718 0.0018588 -0.0013834
-0.018067 -0.019323 0.039755 0.37195 -0.022244 0.0044431 -4.1272e-05 0.0020508
0.0020523 0.00071413 0.001257 0.00072212
0.00079179 0.004805 -0.022251 0.0045701 0.33504 0.1144 0.0011301 -0.00096282
0.00072425 -0.00063826 8.5279e-05 0.00031267
-0.0018134 -0.00077879 -2.0693e-05 0.002035 0.0011002 -0.00095825 0.14354 0.23655
-0.0092087 -0.017347 0.00062375 0.00056896
0.0014738 0.0027381 0.0020507 0.00072457 0.00075208 -0.00063321 -0.0093048 -0.017345
0.061223 0.23115 -0.004465 -0.014198
0.0017729 -0.0014283 0.0012959 0.00069442 4.8221e-05 0.00032364 0.00066491 0.00068385
-0.0043875 -0.014219 0.080808 0.31528
1400000000 0.24663 0.19812 -0.024075 -0.0074148 0.0053604 0.003413 -0.0022111 0.00061454
0.0024923 0.0010163 0.00030983 -0.0015523
-0.024035 -0.0074284 0.077438 0.35902 -0.015309 0.013018 0.0013419 0.0012282
0.0012564 -0.00087819 0.0012177 7.3127e-05
0.0054347 0.0034047 -0.015267 0.013053 0.34832 0.061534 9.0517e-06 -0.0016408
0.00010211 -0.00040864 0.00028396 0.00018278
-0.0022398 0.00059334 0.0013719 0.0012317 5.4352e-05 -0.0016702 0.17284 0.20724
-0.015677 -0.0099377 -0.00078754 -0.00010936
0.002487 0.00098967 0.0012526 -0.00092152 7.0386e-05 -0.00039429 -0.015665 -0.0099222
0.094664 0.22578 -0.010797 -0.008628
0.00027399 -0.001601 0.0011989 9.6491e-05 0.00028667 0.00017795 -0.00079447 -0.00011924
-0.010789 -0.0085891 0.12528 0.30354
1460000000 0.26977 0.1542 -0.020758 0.0052458 0.0059531 -0.0017485 -0.0015639 0.001848
0.0023091 -0.00042501 -0.00040343 -0.00095193
-0.020755 0.0052074 0.11152 0.33698 -0.0060835 0.01606 0.0017056 0.000118
0.00081367 -0.0013617 0.0012158 -0.00056275
0.0059664 -0.0017753 -0.0060191 0.016111 0.35483 0.0078904 -0.001287 -0.0013184
0.0001135 -0.00026917 0.00077491 -0.00027918
-0.0015369 0.0018159 0.0016985 0.00011733 -0.0013009 -0.0013385 0.19882 0.17743
-0.016784 -0.0026029 -0.00074992 0.0020782
0.0023108 -0.00047048 0.00085076 -0.0013586 0.0001479 -0.00033239 -0.016822 -0.0025773
0.12384 0.21083 -0.012507 -0.002441
-0.00032504 -0.00098697 0.0011263 -0.00058897 0.00070146 -0.00026237 -0.00071203 0.002124
-0.012489 -0.0024603 0.15769 0.28253
1520000000 0.28229 0.11284 -0.014857 0.010875 0.003566 -0.0043968 0.0001717 0.0025448
0.0021576 -0.0020513 -0.0011883 -0.00014534
-0.014844 0.010815 0.14493 0.3227 0.0019064 0.01355 0.0016121 -0.00076822
-2.0311e-05 -0.0010661 0.00030617 -0.0010313
0.0035504 -0.0044248 0.0019616 0.013561 0.34849 -0.047527 -0.0011006 -0.00026425
0.00055313 -0.00082014 5.1388e-05 -0.00019159
0.00017664 0.0025798 0.0016375 -0.00077365 -0.0010695 -0.00027139 0.22163 0.13926
-0.015499 0.0036931 0.0016546 0.0021348
0.0021722 -0.002059 -3.0502e-05 -0.0010641 0.00052254 -0.00079019 -0.015463 0.0037456
0.15212 0.19681 -0.012149 0.0023142
-0.0011719 -0.00010145 0.0002861 -0.0010582 9.7739e-05 -0.00023571 0.0017161 0.0020665
-0.012126 0.002296 0.19041 0.26186
1580000000 0.29222 0.066611 -0.0077328 0.013917 -0.0008596 -0.005291 0.0015723 0.0019213
-0.00017783 -0.0021776 -0.00020572 0.00034776
-0.0077262 0.01389 0.17209 0.29796 0.0057503 0.008373 0.00055122 -0.0016043
-0.00055213 -0.0010266 -0.00025265 -0.00080898
-0.00084695 -0.005258 0.0057991 0.0083212 0.32943 -0.10485 -0.0016646 0.00063457
-0.00036324 -0.0012439 0.00023988 -0.00051765
0.0015202 0.0019177 0.00054342 -0.0015929 -0.0016581 0.00064894 0.23486 0.099714
-0.011411 0.008579 0.0024031 0.00062893
-0.0002217 -0.0021732 -0.00056367 -0.0010026 -0.0003572 -0.0012356 -0.011389 0.0086282
0.17611 0.17825 -0.0092084 0.0080487
-0.00018976 0.00041137 -0.00029049 -0.00082743 0.00019494 -0.00054217 0.0023744 0.00065879
-0.0092271 0.0079814 0.22181 0.23472
1640000000 0.29451 0.025768 -0.00082167 0.012435 -0.0030555 -0.002823 0.0026968 0.0010013
-0.00081977 -0.0016077 -0.00028781 0.00066784
-0.00082271 0.012421 0.2014 0.27363 0.0063053 0.0032035 -0.00065169 -0.0017838
-0.00096967 -0.00035372 -0.00055281 -0.00062725
-0.0030061 -0.0028759 0.0063758 0.003189 0.30168 -0.15404 -0.00060486 0.001467
-0.0010658 -0.00096962 -0.00025224 -0.00034442
0.002697 0.0010128 -0.00064654 -0.0017926 -0.00061065 0.0014522 0.24664 0.05141
-0.0066872 0.0095516 0.0024906 -0.00081572
-0.00082181 -0.0015693 -0.00098285 -0.00032346 -0.0010382 -0.00096569 -0.0066481 0.0095722
0.19907 0.15399 -0.0043867 0.0097963
-0.00024245 0.00062744 -0.00055955 -0.00064222 -0.00022646 -0.00040765 0.0024322 -0.00089281
-0.0043758 0.0097665 0.24695 0.2038
1700000000 0.28773 -0.019299 0.0024985 0.0092336 -0.0038494 -0.00011249 0.0031556 -0.0012481
-0.0019984 -0.00062803 0.00059959 0.00024407
0.0025088 0.0092316 0.21967 0.24267 0.004075 0.00020664 -0.0014745 -0.00058215
-0.00075023 7.818e-06 -0.00086266 -0.00041456
-0.0038509 -6.679e-05 0.004049 0.00018953 0.25899 -0.19429 0.00040604 0.0015824
-0.0019168 -9.8537e-05 -0.00048082 -0.00091786
0.0031261 -0.0012783 -0.0014732 -0.00059397 0.00044422 0.0015073 0.24326 0.0020358
-0.0037205 0.0096371 0.0016155 -0.0023206
-0.0020195 -0.00063644 -0.00076454 -1.4209e-05 -0.0018932 -9.9179e-05 -0.0037326 0.0096339
0.21612 0.13316 0.00047107 0.0098838
0.00059072 0.00028234 -0.00088519 -0.00042034 -0.00054434 -0.00095317 0.0015943 -0.0022531
0.0004624 0.0099079 0.26301 0.16934
1760000000 0.27604 -0.067758 0.0046108 0.0057896 -0.002501 0.001206 0.0012242 -0.0034583
-0.0014848 0.00074906 0.00026042 -0.00044067
0.0046104 0.0057829 0.24577 0.20341 0.0015425 -0.001546 -0.001241 0.00015149
-0.001083 0.00083995 -0.00057184 0.00044946
-0.0024659 0.001162 0.0015526 -0.0015341 0.21035 -0.22789 0.0011037 0.0010247
-0.0012762 0.0014824 -0.0011663 -0.00063314
0.0012448 -0.0034596 -0.0012248 0.00013244 0.0011495 0.00099436 0.23439 -0.048599
-0.00063091 0.0084815 -0.00019732 -0.0026343
-0.0014455 0.00079085 -0.001038 0.00081917 -0.0012348 0.0014308 -0.00061024 0.0084558
0.23052 0.098478 0.0043935 0.0070039
0.00025492 -0.00050859 -0.00061799 0.00042759 -0.001181 -0.00064261 -0.00029844 -0.0026128
0.0043394 0.0069684 0.27566 0.13162
1820000000 0.25207 -0.10494 0.0044486 0.0021786 -0.00030559 0.0025413 -0.0010904 -0.0031134
-0.0010453 0.0010027 -0.00026906 -2.8002e-05
0.0044401 0.002225 0.25638 0.17382 -0.00073774 -0.00037868 -0.0013717 0.00095165
-0.00011564 0.0011834 -0.00064373 0.00047601
-0.00027673 0.0025162 -0.00076226 -0.00036265 0.16033 -0.24375 0.0014439 0.00050294
-0.00033326 0.0023492 -0.0015564 0.00039531
-0.0010317 -0.003065 -0.0013641 0.0009757 0.0015407 0.00044176 0.20514 -0.095244
0.00067498 0.0070195 -0.0018036 -0.001602
-0.0010532 0.0010444 -0.00012158 0.0012187 -0.00025201 0.0023731 0.00067882 0.0070382
0.24738 0.069819 0.0050376 0.0034095
-0.0001451 -9.3041e-05 -0.00065089 0.00050564 -0.0015114 0.00037317 -0.0017751 -0.0015997
0.0050092 0.0033893 0.2778 0.095268
1880000000 0.21737 -0.14562 0.0021177 -3.0679e-06 -0.00048219 0.0021797 -0.0029642 -0.0021815
-0.00012286 0.001872 0.00020926 -0.00047233
0.0021301 6.2683e-06 0.26144 0.12738 -0.002619 0.0015562 -0.00026866 0.0016477
0.00053278 0.0012891 7.3893e-05 0.00097125
-0.00052956 0.0021034 -0.0026069 0.0015452 0.10846 -0.25351 0.0018537 -0.00094518
0.0015726 0.0020377 -0.0010716 0.0015086
-0.0029993 -0.0021553 -0.00025507 0.0016883 0.0018155 -0.00085842 0.16527 -0.1356
0.0013586 0.0051876 -0.0024621 0.00030176
-0.00012261 0.0018528 0.00054676 0.0012763 0.0015826 0.0020701 0.001387 0.0051964
0.25087 0.038383 0.005095 0.00099167
0.00015116 -0.0003778 9.3393e-05 0.0009834 -0.0010578 0.0014192 -0.002479 0.00030517
0.0050898 0.0010056 0.27716 0.060916
1940000000 0.17828 -0.17132 -0.00028554 -0.0014006 0.0013509 0.0022899 -0.0036575 0.0004316
0.0014642 0.0010833 -0.00040808 -0.00053977
-0.00028677 -0.0013922 0.26249 0.095813 -0.0015441 0.0041404 0.0010778 0.0012912
0.0018564 0.00056479 0.0010168 0.00039542
0.0014613 0.002286 -0.0015438 0.004194 0.062063 -0.24644 0.0005085 -0.0023252
0.0024566 0.00035004 0.00060991 0.001632
-0.0036467 0.00050088 0.0010574 0.001302 0.00057002 -0.0023207 0.113 -0.16633
0.00046443 0.0040072 -0.0015565 0.0019076
0.0014806 0.0011007 0.0018497 0.00056756 0.002486 0.00037147 0.00045297 0.0040299
0.25343 0.00058463 0.0034402 -0.0020704
-0.00037924 -0.00063552 0.001008 0.00038387 0.00053615 0.0016704 -0.0014383 0.0020884
0.0034381 -0.0020167 0.26603 0.024657
2000000000 0.13259 -0.18646 -0.0040291 0.0007002 0.002688 0.0014872 -0.0023369 0.0037469
0.0012024 0.00035355 -0.00052186 0.00041103
-0.003967 0.00067755 0.2491 0.059981 -0.0009082 0.005861 0.0015717 0.00041632
0.001399 -0.0011225 0.00059644 9.5761e-05
0.002764 0.0016274 -0.00088319 0.0059141 0.01912 -0.23275 -0.0012912 -0.0014938
0.0022181 -0.0012882 0.0016926 0.0013933
-0.0023482 0.0038059 0.0015589 0.00044512 -0.0013833 -0.0014513 0.06035 -0.17734
-0.00053145 0.0037934 6.6848e-05 0.002173
0.001286 0.00027807 0.001424 -0.0011409 0.0021925 -0.0012617 -0.00044617 0.0036825
0.24899 -0.032309 0.00070045 -0.003051
