!Keysight Technologies,M9804A,MY58100912,A.14.10.03
!Date: Thursday, April 27, 2023 10:28:33
!Correction: S11(C  6-Port  ) 
!S12(C  6-Port  ) 
!S13(C  6-Port  ) 
!S14(C  6-Port  ) 
!S15(C  6-Port  ) 
!S16(C  6-Port  ) 
!S21(C  6-Port  ) 
!S22(C  6-Port  ) 
!S23(C  6-Port  ) 
!S24(C  6-Port  ) 
!S25(C  6-Port  ) 
!S26(C  6-Port  ) 
!S31(C  6-Port  ) 
!S32(C  6-Port  ) 
!S33(C  6-Port  ) 
!S34(C  6-Port  ) 
!S35(C  6-Port  ) 
!S36(C  6-Port  ) 
!S41(C  6-Port  ) 
!S42(C  6-Port  ) 
!S43(C  6-Port  ) 
!S44(C  6-Port  ) 
!S45(C  6-Port  ) 
!S46(C  6-Port  ) 
!S51(C  6-Port  ) 
!S52(C  6-Port  ) 
!S53(C  6-Port  ) 
!S54(C  6-Port  ) 
!S55(C  6-Port  ) 
!S56(C  6-Port  ) 
!S61(C  6-Port  ) 
!S62(C  6-Port  ) 
!S63(C  6-Port  ) 
!S64(C  6-Port  ) 
!S65(C  6-Port  ) 
!S66(C  6-Port  ) 
!S6P File: Measurement: :
# Hz S  RI   R 50
500000000 -0.33573 -0.051608 -0.010252 -0.0010401 -0.0087023 0.013572 -0.0037419 0.012915
0.011925 0.0047977 -0.0036247 0.0081045
-0.010758 -0.0015509 -0.41738 -0.0616 0.0078428 -0.010408 0.0017806 0.012449
0.0079235 0.0025215 0.0009624 0.013416
-0.0090197 0.013519 0.0075278 -0.010241 -0.26715 0.2003 0.0073172 0.0035474
-0.0019033 0.008938 0.00084378 0.01222
-0.0041053 0.012578 0.001787 0.012655 0.0072918 0.0037371 -0.33284 0.044219
-0.018318 -0.0052712 0.015302 0.025536
0.011635 0.0042785 0.0075779 0.0025702 -0.0019014 0.0087707 -0.01806 -0.0052693
-0.24938 -0.19268 -0.025757 0.0039125
-0.0045789 0.0084702 0.00172 0.014343 0.0012975 0.012697 0.01514 0.024886
-0.025399 0.0040321 -0.27472 -0.11579
560000000 -0.31792 0.11414 -0.02344 -0.064327 -2.2729e-05 0.012855 0.0055156 0.011254
0.0099697 0.0049205 0.010682 0.0087083
-0.023808 -0.064201 -0.37425 0.10172 -0.04285 -0.037285 0.014051 0.0032725
-0.014583 -0.0034186 0.0032656 -0.0010198
0.00048827 0.013058 -0.043087 -0.037099 -0.18517 0.25106 9.9903e-05 -0.003937
0.019811 0.0035403 0.0084417 -0.0045453
0.0056743 0.011227 0.013849 0.0038659 0.00015562 -0.0039027 -0.30667 0.13651
0.0064336 -0.023785 0.0040656 -0.020771
0.010823 0.0047483 -0.015068 -0.004705 0.019915 0.0033359 0.005716 -0.023151
-0.30859 -0.013619 0.0090114 -0.04761
0.011268 0.0084311 0.0048134 -0.0010038 0.0076388 -0.0040574 0.0038555 -0.021204
0.0074714 -0.047445 -0.33116 0.029222
620000000 -0.27714 0.093714 -0.022904 0.0089217 0.0039038 0.009914 0.008777 -0.0047423
0.012383 -0.0011702 0.0011497 -0.0031831
-0.022994 0.0088882 -0.40339 0.050954 -0.018333 0.0010171 -0.0014093 -0.002329
0.012269 -0.0059555 0.0014584 -0.0035222
0.0034947 0.0095879 -0.018279 0.0011063 -0.15545 0.26196 -0.00089697 -0.0053307
-0.0023087 -0.0029131 0.0092149 -0.0035437
0.0086328 -0.0051635 -0.0017866 -0.0019953 -0.0010549 -0.0051943 -0.26496 0.14789
-0.038359 -0.019788 0.011415 0.026887
0.012061 -0.0012867 0.012798 -0.0064545 -0.0022272 -0.0032059 -0.038264 -0.020805
-0.23167 -0.044272 -0.038818 0.012444
0.001015 -0.0027882 0.0015985 -0.0031417 0.0094935 -0.003386 0.012348 0.026982
-0.039176 0.011799 -0.25496 -0.0023855
680000000 -0.23832 0.18507 -0.02665 -0.014424 0.0051907 0.0053909 0.0011066 -0.0077447
-0.0021705 -0.011746 0.0048822 -0.0071231
-0.026324 -0.014394 -0.38968 0.15096 -0.032678 -0.0019387 -0.001456 -0.00088869
-0.0018437 -0.0095836 -0.0010454 -0.0015812
0.0053957 0.0053718 -0.032673 -0.0018953 -0.10387 0.28125 -0.0011452 -0.00041451
-0.0017623 0.00027489 -0.0026262 -0.0092625
0.00073997 -0.0074437 -0.0012478 -0.00091725 -0.00096931 -0.00065415 -0.22095 0.19721
-0.023172 -0.0074039 -0.008738 -0.011328
-0.0018996 -0.011356 -0.0019007 -0.0093499 -0.0018119 0.00053937 -0.023287 -0.0068934
-0.27856 0.058691 -0.0071417 -0.0079683
0.005036 -0.0065259 -0.0011133 -0.0015161 -0.0030486 -0.0090766 -0.0093903 -0.011377
-0.0069233 -0.00801 -0.25946 0.09668
740000000 -0.19281 0.17787 -0.039931 0.026327 0.013886 -0.0050231 0.00017641 -0.0044899
-0.0048187 -0.0023541 -0.0065354 0.0033184
-0.039428 0.026766 -0.33556 0.16969 -0.036575 0.034894 -0.00028528 -0.0060391
-0.012455 0.0074499 -0.0017511 -0.0062613
0.013789 -0.0050143 -0.036537 0.035046 -0.069859 0.27878 -0.0018505 0.003212
-0.002346 -0.0053182 -0.0018384 0.000978
-0.00021439 -0.0045627 -0.00057977 -0.0058638 -0.0018327 0.0033921 -0.20366 0.20487
-0.042533 -0.0070933 0.021533 0.014213
-0.0051412 -0.0026917 -0.011976 0.0068509 -0.0021784 -0.005188 -0.042952 -0.0072187
-0.1793 0.082789 -0.041117 0.0019951
-0.0065088 0.0035344 -0.0019521 -0.0059333 -0.0015434 0.00099697 0.021963 0.014163
-0.041181 0.0014605 -0.24848 0.10471
800000000 -0.16157 0.22208 -0.022789 0.016305 0.0056762 -0.010683 -0.0047326 -0.0022112
-0.0044601 0.0022403 0.0042749 0.00029429
-0.022992 0.016399 -0.34072 0.24033 -0.0085889 0.034161 -0.0024315 0.0020344
-0.0011247 0.0028158 0.00086388 0.0053571
0.0056974 -0.010406 -0.0084051 0.034301 -0.0311 0.30262 0.00078915 0.0014863
-6.1452e-05 0.0036912 -0.0018442 0.00046284
-0.0046483 -0.0019956 -0.0023791 0.0019662 0.00072624 0.001362 -0.17375 0.23239
-0.028317 0.013322 0.013834 -0.010419
-0.0044698 0.0026935 -0.0011073 0.0029061 -0.00011243 0.0037196 -0.028468 0.013482
-0.22013 0.11289 -0.017225 0.01997
0.0035128 0.0008694 0.00059957 0.0055397 -0.002144 0.0010042 0.013492 -0.01022
-0.016939 0.019838 -0.23836 0.15374
860000000 -0.12668 0.24143 -0.017849 0.030628 -0.0029125 -0.01038 -0.0019452 0.00062773
0.0034057 0.0049506 -0.0032874 -0.0023878
-0.017843 0.03042 -0.29246 0.28292 0.007527 0.034513 -5.4636e-05 0.0019278
0.0033292 0.00060215 0.0039767 0.00067036
-0.0029456 -0.010172 0.0077396 0.034664 0.01645 0.31092 -0.00061664 -0.00017694
0.0022957 -0.0013411 0.0018897 0.0044576
-0.0019136 0.00066057 -9.1929e-05 0.0019774 -0.0005791 -5.9637e-05 -0.13736 0.24321
-0.018064 0.017927 -0.0064751 -0.0087249
0.0037483 0.0049169 0.0036702 0.00054446 0.0021901 -0.0014069 -0.018272 0.018157
-0.16502 0.16335 -0.023969 0.017746
-0.0035121 -0.0024448 0.0032443 0.00078948 0.0020398 0.0041963 -0.0059963 -0.0091236
-0.023881 0.017466 -0.18976 0.19833
920000000 -0.10316 0.26469 0.0044659 0.038209 -0.009512 -0.0051845 -0.0018466 0.0017396
0.0012138 0.0022161 0.0026964 -0.0013935
0.0045639 0.038239 -0.26526 0.3044 0.028201 0.022709 0.0014826 0.0012307
0.0076087 -0.00036297 0.0040455 -0.0025912
-0.0095059 -0.0052069 0.028274 0.022712 0.061966 0.31257 0.0020158 3.2104e-05
0.0011765 -0.00012059 0.00087516 -0.0012286
-0.0020257 0.001803 0.0016194 0.0012728 0.0019334 0.00012198 -0.11276 0.25973
-0.010798 0.030796 0.0034222 -0.0067821
0.0011329 0.0025696 0.0075649 -8.606e-05 0.0011678 -0.00023 -0.010659 0.030788
-0.15239 0.17005 -0.0015586 0.027048
0.0033101 -0.0013568 0.0042133 -0.0027902 0.0010112 -0.0012692 0.003301 -0.0066739
-0.0016829 0.027047 -0.19387 0.21278
980000000 -0.056556 0.2846 0.016976 0.030269 -0.0095934 0.0042718 0.0017404 0.0036223
0.0040108 -0.0015304 -0.0027375 -0.0023003
0.016797 0.030282 -0.21225 0.33871 0.033544 0.0053467 0.0021339 -3.5724e-05
0.0017941 -0.0060075 -0.00022553 -0.0026514
-0.0096214 0.0042327 0.0336 0.0051931 0.10796 0.30678 0.00066127 -0.0012208
0.00048169 -0.0019985 0.001482 -0.00031894
0.0018141 0.0036846 0.0020763 -2.4078e-05 0.00065303 -0.0012157 -0.074495 0.27063
0.0074849 0.029926 -0.0088897 -0.0067388
0.0039566 -0.001666 0.0017476 -0.006201 0.00054606 -0.002045 0.007489 0.029855
-0.11821 0.19859 0.0060285 0.020046
-0.0029333 -0.0022671 -0.00026939 -0.0025441 0.001514 -0.00027004 -0.0090664 -0.0070001
0.0060954 0.019697 -0.15157 0.25535
1040000000 -0.015287 0.29393 0.033054 0.018907 -0.0015594 0.0070842 0.0025493 0.0007562
0.00057994 -0.0036421 -0.00010898 -0.0013578
0.032886 0.018964 -0.17709 0.35239 0.03022 -0.014741 0.0016976 -0.001859
-0.0019013 -0.0028816 -0.0012544 -0.0027987
-0.0015948 0.0071155 0.030271 -0.014922 0.15389 0.29403 -0.0005313 -0.0016948
-0.0016126 -0.0010028 -0.00057653 -0.0010587
0.002597 0.00082424 0.0016603 -0.0018553 -0.00049164 -0.0016922 -0.047324 0.28042
0.019647 0.018429 -0.0027233 0.0011982
0.00064434 -0.003401 -0.0019681 -0.0027667 -0.0015958 -0.00099769 0.019594 0.018425
-0.085277 0.20469 0.014471 0.017454
-0.00025108 -0.0017626 -0.0012611 -0.0030183 -0.00057624 -0.0011242 -0.0027594 0.0012603
0.014503 0.017588 -0.12818 0.27539
1100000000 0.029903 0.30298 0.036575 -0.0036057 0.0027607 0.0042385 0.0023888 -0.0011912
-0.0021751 -0.0032089 -0.0041701 -0.00031226
0.03648 -0.0036002 -0.13394 0.37042 0.015854 -0.028189 2.7725e-05 -0.0018791
-0.0037999 -0.0010444 -0.0037719 -0.00068113
0.0028186 0.0041886 0.015803 -0.028257 0.20042 0.27452 -0.0019849 0.00013447
-0.0017594 0.00052032 -0.0010724 -0.00040715
0.0023973 -0.001185 1.2001e-05 -0.0018594 -0.0020141 0.00018259 -0.0067613 0.2853
0.025256 0.0049056 -0.00233 0.00024891
-0.0021299 -0.0032343 -0.0038341 -0.0010893 -0.0018279 0.00047062 0.0253 0.0049662
-0.063749 0.21745 0.019737 0.0081822
-0.0040735 -0.0001442 -0.0036979 -0.0005776 -0.001049 -0.00044356 -0.0023801 0.00017133
0.019703 0.0078193 -0.081755 0.30344
1160000000 0.080638 0.29883 0.024651 -0.020874 0.0028031 -0.00037195 -5.2159e-05 -0.0024339
-0.0040528 -0.00078385 -0.00084764 0.0041633
0.024596 -0.020824 -0.090566 0.37526 -0.0035379 -0.029935 -0.0016244 -0.0017401
-0.0027051 0.0028079 -0.0015706 0.0018718
0.002782 -0.00038248 -0.0036346 -0.029892 0.24378 0.24412 -0.00080746 0.001855
-0.00053476 0.0019805 -0.00091214 0.00030794
-4.428e-05 -0.0024373 -0.0016874 -0.0017822 -0.00075691 0.001875 0.032266 0.28266
0.021185 -0.010821 -0.0033707 0.0048277
-0.004011 -0.00070147 -0.0026092 0.0027329 -0.00050708 0.0020156 0.021096 -0.010889
-0.029638 0.22454 0.018729 -0.001605
-0.00093209 0.0039641 -0.0015843 0.0020537 -0.00095454 0.00029216 -0.0032504 0.0050982
0.018707 -0.0012913 -0.036045 0.30613
1220000000 0.12501 0.2891 0.011013 -0.030452 -0.001601 -0.00083669 4.7898e-05 -0.00085253
-0.0027371 0.0022338 0.0011557 0.0020979
0.011051 -0.030467 -0.04622 0.38831 -0.017226 -0.021936 -0.002653 0.00056903
4.3611e-06 0.0031695 -0.00079425 0.00199
-0.0016087 -0.00090225 -0.017338 -0.021899 0.28302 0.20544 0.00083485 0.0017626
0.00065012 0.0012178 0.00026589 0.00058816
3.9089e-05 -0.0008395 -0.0026804 0.0005461 0.00077297 0.0017596 0.07246 0.27431
0.010561 -0.017723 0.0018366 0.0017128
-0.0027374 0.0022786 5.3674e-05 0.003195 0.00065492 0.0012114 0.0105 -0.017684
-0.0055112 0.23293 0.013476 -0.013564
0.0012145 0.0021334 -0.00078695 0.0020426 0.00025735 0.00060757 0.0018019 0.0016315
0.01356 -0.013694 -0.0030229 0.32001
1280000000 0.17529 0.26853 -0.0080112 -0.029174 -0.0019933 0.0025673 -0.00086766 -0.0020493
-0.00072864 0.003251 0.0027354 0.0013054
-0.0080087 -0.02914 6.8436e-05 0.3798 -0.024519 -0.0088787 -0.00094405 0.001526
0.0019342 0.0017764 0.00077571 0.0019507
-0.0019902 0.0025121 -0.024597 -0.0087602 0.31341 0.16166 0.0016036 -0.00012751
0.0012618 0.00021045 0.00037835 0.0001873
-0.00081753 -0.002061 -0.00092198 0.0015413 0.0016584 -9.0053e-05 0.10946 0.25803
0.00035837 -0.01972 -0.00014635 0.00039107
-0.00070513 0.0031853 0.0019734 0.0018648 0.0013034 0.00024528 0.00029528 -0.0198
0.03097 0.23517 0.0029826 -0.016034
0.0025398 0.0013334 0.00075564 0.0019886 0.00042924 0.00022982 -9.3812e-05 0.00044228
0.0027047 -0.015841 0.043101 0.32085
1340000000 0.21287 0.23556 -0.017902 -0.019261 0.00086984 0.0047547 -0.0018265 -0.00089725
0.0015198 0.0027376 0.0017891 -0.0013913
-0.01792 -0.019213 0.039825 0.37195 -0.022146 0.0044105 1.2987e-05 0.0020215
0.002089 0.00069812 0.0012671 0.0008722
0.00093793 0.0048012 -0.022167 0.0045107 0.33538 0.11458 0.0010566 -0.0010396
0.00072798 -0.00057327 0.0001548 0.00025683
-0.0018571 -0.00092632 -3.7643e-05 0.0020298 0.0010907 -0.0010184 0.14262 0.23753
-0.0093199 -0.016749 0.00080343 0.00065597
0.0015627 0.0025614 0.0020736 0.00064524 0.00071193 -0.00055655 -0.0093687 -0.016629
0.060999 0.23042 -0.0046725 -0.014067
0.0017729 -0.0013033 0.0012987 0.00084069 0.00013377 0.00024385 0.00070852 0.00061476
-0.0045328 -0.014275 0.081952 0.31504
1400000000 0.24678 0.19805 -0.023957 -0.0073989 0.0053584 0.003338 -0.0022885 0.00064067
0.002481 0.0010093 0.00029535 -0.0016194
-0.023927 -0.0074285 0.077382 0.35924 -0.015332 0.012863 0.0013607 0.0012483
0.0013042 -0.00093536 0.0011325 6.8523e-05
0.0053452 0.0033295 -0.015251 0.012916 0.34854 0.061602 -4.3394e-05 -0.0015831
8.9781e-05 -0.00034705 0.00021721 0.0002615
-0.0022086 0.00069104 0.0013755 0.0012537 -3.9881e-05 -0.0015589 0.17241 0.20848
-0.015232 -0.0093897 -0.00081812 -9.5769e-05
0.0025353 0.0010644 0.001282 -0.00097589 0.00014264 -0.00035135 -0.01528 -0.0094345
0.09437 0.22537 -0.010745 -0.0089248
0.00035454 -0.0016721 0.0011508 0.0001014 0.00025414 0.00031894 -0.00071703 -0.00015295
-0.010774 -0.0088453 0.1254 0.30362
1460000000 0.27018 0.15414 -0.020618 0.0051046 0.0059105 -0.0017492 -0.0015744 0.0018422
0.0022639 -0.00044756 -0.00041012 -0.00092498
-0.020597 0.0050264 0.11166 0.3373 -0.0061516 0.015989 0.0017137 7.8649e-05
0.00075465 -0.0014433 0.0012252 -0.0005414
0.0058937 -0.0018102 -0.0060867 0.016029 0.35509 0.0078676 -0.0013026 -0.0012235
8.4233e-05 -0.00030033 0.00070478 -0.00035973
-0.0016114 0.0017784 0.0016689 0.00012549 -0.0012899 -0.0012351 0.19896 0.17898
-0.016143 -0.0022533 -0.00072731 0.0019785
0.0022424 -0.00049531 0.00073175 -0.0014424 0.00010387 -0.00030459 -0.016185 -0.0021747
0.12364 0.21086 -0.012864 -0.0025565
-0.00050023 -0.00093516 0.0011804 -0.00056845 0.0007204 -0.00032833 -0.00071598 0.0019856
-0.01278 -0.0025418 0.15863 0.28228
1520000000 0.2827 0.1126 -0.014756 0.010701 0.003577 -0.0043466 0.00015103 0.002604
0.0021168 -0.0020418 -0.0011818 -0.00022035
-0.014744 0.010676 0.14519 0.32292 0.0018271 0.013593 0.0015738 -0.0007541
-4.1509e-05 -0.0010663 0.00033128 -0.0010395
0.0035365 -0.0043497 0.0018899 0.01357 0.34886 -0.047669 -0.0011373 -0.00029042
0.00060467 -0.00085173 0.0001671 -0.00023544
0.00013407 0.0026212 0.0015653 -0.0007827 -0.0011128 -0.00032535 0.22249 0.14051
-0.014902 0.0037717 0.0015608 0.0020526
0.0020978 -0.0019979 -2.2059e-05 -0.0010662 0.00057575 -0.00092483 -0.014905 0.003766
0.15182 0.19722 -0.012215 0.0022856
-0.001129 -0.00015144 0.00033659 -0.0010164 0.00017485 -0.00018665 0.0015616 0.0020709
-0.012237 0.0023167 0.19092 0.26134
1580000000 0.29249 0.066298 -0.0078269 0.013718 -0.00078877 -0.0052452 0.0015709 0.0019342
-0.00026123 -0.0022398 -0.00026733 0.0005015
-0.0078181 0.013707 0.17253 0.29824 0.0057262 0.0084227 0.00050913 -0.0015733
-0.00060287 -0.00096359 -0.00021112 -0.00083414
-0.00085753 -0.0052486 0.0057675 0.0084092 0.32957 -0.10511 -0.0015437 0.00056944
-0.00035317 -0.0012336 0.00019031 -0.00061296
0.0016064 0.0018355 0.00049205 -0.0015516 -0.0015802 0.00060149 0.23622 0.10059
-0.01081 0.0083841 0.0022397 0.0006323
-0.00025781 -0.0022652 -0.00060369 -0.00095508 -0.00031362 -0.0011912 -0.010795 0.0084254
0.1763 0.1789 -0.0095535 0.0080247
-0.0002586 0.00038858 -0.00027155 -0.0008284 0.00019207 -0.00059576 0.00229 0.00061443
-0.0093912 0.0079886 0.22263 0.23426
1640000000 0.29467 0.025367 -0.00094979 0.012334 -0.0029123 -0.0028855 0.0026854 0.00092857
-0.00081875 -0.00165 -0.00036845 0.00053259
-0.00095209 0.012343 0.20198 0.2737 0.0062643 0.0032956 -0.00063174 -0.0017379
-0.00092569 -0.00033015 -0.00051438 -0.00065967
-0.0029089 -0.0028083 0.0063135 0.0032629 0.30165 -0.15457 -0.00065607 0.0014353
-0.0011839 -0.0009241 -0.00018692 -0.00037462
0.002664 0.00096164 -0.00063606 -0.0017301 -0.00062673 0.0014388 0.24847 0.051583
-0.0062963 0.0092036 0.002509 -0.00093074
-0.00091205 -0.0015954 -0.00091697 -0.00032413 -0.0012234 -0.00089306 -0.0062405 0.0092412
0.19947 0.15458 -0.00433 0.0099235
-0.00027628 0.00057025 -0.00053486 -0.00068213 -0.00024714 -0.00038361 0.0025396 -0.00089643
-0.0043972 0.0099948 0.24734 0.20313
1700000000 0.28777 -0.019707 0.0023312 0.009274 -0.0038197 -0.00015073 0.0030679 -0.0012103
-0.0020495 -0.00055209 0.00063416 0.00036358
0.0023298 0.009251 0.22029 0.24256 0.0041714 0.00026257 -0.0014369 -0.00061639
-0.00074467 -6.8841e-06 -0.00087617 -0.00048704
-0.0038406 -0.00024573 0.0041714 0.00023305 0.25895 -0.19398 0.00041225 0.0014824
-0.001909 -7.2755e-05 -0.00047777 -0.0010447
0.0030469 -0.0011915 -0.0014353 -0.00058881 0.00034615 0.0014732 0.24499 0.0013956
-0.0034758 0.0091735 0.0015645 -0.0022902
-0.0020491 -0.00050428 -0.00078403 -3.2174e-06 -0.0019791 -3.4526e-05 -0.0034382 0.0091974
0.21698 0.13382 0.00027662 0.010044
0.00063377 0.00031826 -0.00092793 -0.00040596 -0.00042535 -0.0009045 0.0015565 -0.0023008
0.00033711 0.010024 0.26361 0.16878
1760000000 0.27616 -0.068247 0.0045047 0.0058989 -0.0025522 0.0011474 0.0012617 -0.0033724
-0.0014227 0.00076184 0.00024981 -0.00065177
0.0045142 0.005923 0.24643 0.20306 0.0017176 -0.0016146 -0.0012276 0.00011832
-0.001036 0.00077907 -0.00055617 0.00041479
-0.0026032 0.0011795 0.0016941 -0.0016143 0.21094 -0.22752 0.0011844 0.0010089
-0.0012475 0.0015339 -0.0011907 -0.00059463
0.0012095 -0.0033999 -0.0012278 0.00010568 0.001179 0.0010397 0.23569 -0.050097
-0.0005084 0.0079313 -0.00021098 -0.002598
-0.0014632 0.00077988 -0.0010247 0.00077871 -0.0011795 0.0015269 -0.0005061 0.00792
0.23185 0.098557 0.0044264 0.0073506
0.00028504 -0.0005586 -0.00058971 0.00043332 -0.0012235 -0.00056311 -0.00010599 -0.0026009
0.0043536 0.0073043 0.27601 0.13099
1820000000 0.25206 -0.10544 0.0044555 0.0023415 -0.00034629 0.002562 -0.0010108 -0.0030672
-0.0010434 0.0010657 -0.0002222 -0.00010557
0.0044732 0.0022998 0.25683 0.17327 -0.00084206 -0.0005254 -0.0013798 0.00095613
-0.00016989 0.0012026 -0.00064957 0.00052314
-0.00030279 0.0026196 -0.0008224 -0.00053714 0.16032 -0.24414 0.0014792 0.00054516
-0.00021407 0.0023905 -0.0016671 0.00043667
-0.0010461 -0.0030962 -0.0013648 0.00092465 0.0014679 0.00058907 0.20546 -0.09728
0.00064326 0.0065289 -0.0017332 -0.0015875
-0.0010633 0.0010199 -0.00015114 0.0012147 -0.00013636 0.002411 0.00061215 0.0064653
0.24874 0.069481 0.0051475 0.0035232
-0.00022158 -0.00014342 -0.00064135 0.0005177 -0.0016811 0.00041811 -0.0018496 -0.0015375
0.0051995 0.0035061 0.27786 0.094686
1880000000 0.21718 -0.14605 0.0022289 2.8989e-05 -0.0004325 0.0023086 -0.0029066 -0.0022357
-7.266e-05 0.0018412 9.4142e-05 -0.00042688
0.0021948 6.4954e-05 0.26176 0.12684 -0.0027143 0.0015783 -0.00023129 0.001773
0.00049871 0.0013559 0.00013607 0.00091243
-0.00041956 0.0022635 -0.0027283 0.0016163 0.108 -0.25388 0.0019027 -0.00080072
0.0016793 0.0019733 -0.00094446 0.0015144
-0.0028393 -0.0022115 -0.00019197 0.0017325 0.0019372 -0.00095352 0.16447 -0.13737
0.00093102 0.0046075 -0.0025222 0.00032221
-2.8549e-05 0.0018383 0.0005191 0.0013537 0.0016835 0.0019843 0.00096941 0.0047354
0.25208 0.037378 0.0052536 0.0011772
0.00022725 -0.00063941 0.00010983 0.00091404 -0.00097879 0.0015991 -0.0024758 0.00035559
0.005224 0.0011629 0.27728 0.060514
1940000000 0.17796 -0.17155 -0.00026228 -0.0013944 0.0014699 0.0021825 -0.0036875 0.00043665
0.0013688 0.00099454 -0.00043617 -0.00056634
-0.00027328 -0.0014086 0.26264 0.095118 -0.0015142 0.0042071 0.0010946 0.0013598
0.0018693 0.00059422 0.00097597 0.00037675
0.0015305 0.0021814 -0.001479 0.0041846 0.062022 -0.24657 0.00061303 -0.0022615
0.0025169 0.00029912 0.00064926 0.0016305
-0.0038817 0.00041765 0.0011053 0.0013773 0.00065722 -0.0023033 0.11188 -0.16787
4.1833e-05 0.003606 -0.0016187 0.0017801
0.0013061 0.00097215 0.0018729 0.00060658 0.0025325 0.00028253 4.2931e-05 0.0035096
0.25433 -0.00082322 0.003786 -0.0022132
-0.00042288 -0.00035183 0.0010082 0.00029739 0.00063855 0.0016384 -0.0017249 0.0017479
0.0038295 -0.002215 0.26634 0.024333
2000000000 0.13221 -0.1867 -0.0040858 0.00064991 0.0026474 0.0014715 -0.00244 0.0037669
0.0011916 0.00034529 -0.0005166 0.00046852
-0.0040931 0.00070636 0.24898 0.059279 -0.00083993 0.0059252 0.0016938 0.00038412
0.0015246 -0.0010051 0.00054619 0.00015327
0.002634 0.0015155 -0.00081012 0.00592 0.019031 -0.23254 -0.0014483 -0.0015373
0.0020754 -0.001301 0.0018181 0.0012097
-0.0023574 0.0039105 0.0016138 0.00034493 -0.0013753 -0.00152 0.05835 -0.1774
-0.0013528 0.0036931 -5.6635e-06 0.0022783
0.0012858 0.00037356 0.0014698 -0.0010452 0.0021168 -0.00129 -0.0014043 0.0036933
0.24904 -0.033822 0.00058958 -0.0030366
