!Keysight Technologies,M9804A,MY58100912,A.14.10.03
!Date: Thursday, April 27, 2023 10:28:33
!Correction: S11(C  6-Port  ) 
!S12(C  6-Port  ) 
!S13(C  6-Port  ) 
!S14(C  6-Port  ) 
!S15(C  6-Port  ) 
!S16(C  6-Port  ) 
!S21(C  6-Port  ) 
!S22(C  6-Port  ) 
!S23(C  6-Port  ) 
!S24(C  6-Port  ) 
!S25(C  6-Port  ) 
!S26(C  6-Port  ) 
!S31(C  6-Port  ) 
!S32(C  6-Port  ) 
!S33(C  6-Port  ) 
!S34(C  6-Port  ) 
!S35(C  6-Port  ) 
!S36(C  6-Port  ) 
!S41(C  6-Port  ) 
!S42(C  6-Port  ) 
!S43(C  6-Port  ) 
!S44(C  6-Port  ) 
!S45(C  6-Port  ) 
!S46(C  6-Port  ) 
!S51(C  6-Port  ) 
!S52(C  6-Port  ) 
!S53(C  6-Port  ) 
!S54(C  6-Port  ) 
!S55(C  6-Port  ) 
!S56(C  6-Port  ) 
!S61(C  6-Port  ) 
!S62(C  6-Port  ) 
!S63(C  6-Port  ) 
!S64(C  6-Port  ) 
!S65(C  6-Port  ) 
!S66(C  6-Port  ) 
!S6P File: Measurement: :
# Hz S  RI   R 50
500000000 -0.33511 -0.051436 -0.010457 -0.0013877 -0.0088489 0.013186 -0.0045602 0.012549
0.011616 0.0054442 -0.0041809 0.0087954
-0.010283 -0.0014141 -0.41697 -0.061887 0.0077391 -0.010558 0.0014496 0.012884
0.0074459 0.0025688 0.0010858 0.014203
-0.0087391 0.013099 0.0076343 -0.010655 -0.26755 0.20043 0.0070949 0.0038319
-0.0022553 0.0086467 0.00056577 0.012277
-0.0040099 0.012863 0.0015766 0.012991 0.0070946 0.0041 -0.33179 0.044838
-0.017268 -0.0035797 0.015093 0.025031
0.011891 0.0050968 0.0075268 0.0024073 -0.0023289 0.0087467 -0.01831 -0.0046676
-0.25082 -0.19197 -0.024857 0.0055683
-0.0041312 0.0088156 0.0010734 0.014237 0.00063387 0.012613 0.01641 0.02541
-0.024651 0.0054164 -0.27598 -0.11543
560000000 -0.3174 0.11427 -0.023309 -0.065104 0.00082863 0.013121 0.0049456 0.011807
0.010223 0.0045491 0.011049 0.0088807
-0.0231 -0.064931 -0.37602 0.10193 -0.042752 -0.037698 0.014266 0.0035089
-0.014873 -0.00445 0.0045279 -0.00041221
0.0013905 0.012869 -0.042676 -0.037865 -0.18514 0.25154 0.00038864 -0.0040004
0.01981 0.0046159 0.0079081 -0.0042368
0.0048498 0.01146 0.014289 0.0038465 -0.00051041 -0.0043157 -0.30762 0.1361
0.0048158 -0.024038 0.0054163 -0.020593
0.010555 0.0045529 -0.014538 -0.0044904 0.019691 0.0046145 0.0064231 -0.02318
-0.31028 -0.010117 0.0068128 -0.049093
0.010999 0.008925 0.0044629 -0.00025273 0.0076259 -0.0043207 0.0039735 -0.020974
0.0065263 -0.049139 -0.33076 0.029668
620000000 -0.27743 0.094992 -0.022945 0.0089291 0.0038232 0.0099278 0.0082132 -0.0045405
0.012428 -0.0012491 0.0016883 -0.0014789
-0.022926 0.0089519 -0.40352 0.050627 -0.018156 0.00097872 -0.0016394 -0.0021845
0.012605 -0.0059357 0.00109 -0.0033338
0.0039223 0.0096612 -0.018175 0.00098146 -0.15528 0.26248 -0.0010067 -0.0046486
-0.0023741 -0.0033586 0.0092245 -0.0029748
0.0085915 -0.0041595 -0.001407 -0.0022584 -0.00074048 -0.0047604 -0.26481 0.14864
-0.037663 -0.020226 0.012631 0.026625
0.012241 -0.0013103 0.012239 -0.0060867 -0.0023741 -0.0033527 -0.038303 -0.019857
-0.23385 -0.044295 -0.039234 0.011694
0.0016978 -0.0014946 0.0010557 -0.0032786 0.009265 -0.0029328 0.013292 0.028009
-0.038908 0.01085 -0.25398 -0.0024819
680000000 -0.23825 0.18498 -0.026332 -0.014055 0.0053332 0.0050521 0.0020187 -0.0073034
-0.0024985 -0.012031 0.0050258 -0.0072204
-0.026328 -0.014055 -0.38959 0.1516 -0.0324 -0.0018385 -0.0011974 -0.00062685
-0.0018112 -0.0096868 -0.0011342 -0.0016751
0.0053626 0.0052917 -0.032282 -0.0016661 -0.10347 0.28167 -0.00084298 -0.00061793
-0.0016869 9.9538e-05 -0.0024486 -0.0090925
0.0018165 -0.0073764 -0.0014949 -0.00062241 -0.0009977 -0.00057226 -0.22026 0.19722
-0.023543 -0.0075633 -0.008084 -0.010267
-0.0025107 -0.011817 -0.0018102 -0.0096522 -0.0017115 0.00012538 -0.023273 -0.0074727
-0.27844 0.059912 -0.0079501 -0.0075752
0.0050951 -0.0075043 -0.0011997 -0.0016973 -0.0027556 -0.0096037 -0.0090837 -0.011192
-0.0081837 -0.0072022 -0.25788 0.10107
740000000 -0.193 0.17855 -0.039094 0.027252 0.013761 -0.0052345 -0.00040832 -0.004129
-0.0044519 -0.0020408 -0.0064676 0.0030361
-0.039164 0.027153 -0.33503 0.16971 -0.03621 0.034723 -0.00041251 -0.0063973
-0.011869 0.0074342 -0.0014942 -0.0064442
0.013639 -0.0052294 -0.036142 0.034903 -0.069307 0.27922 -0.0021112 0.0035861
-0.0027868 -0.0051006 -0.0010941 0.0010567
-8.5698e-05 -0.0042232 -0.00040653 -0.0061814 -0.0021253 0.0034957 -0.20283 0.20512
-0.042415 -0.0067453 0.021836 0.013993
-0.0050181 -0.0022864 -0.011825 0.007072 -0.0025684 -0.0053692 -0.043449 -0.0072965
-0.18047 0.081977 -0.040717 0.0028607
-0.0062397 0.0031273 -0.001456 -0.0063169 -0.0012662 0.0014508 0.022168 0.014166
-0.040639 0.0024096 -0.24769 0.1058
800000000 -0.16083 0.22205 -0.022392 0.016468 0.0057886 -0.010466 -0.0043253 -0.0020688
-0.0047472 0.0024219 0.0035817 0.0012319
-0.022338 0.016507 -0.34046 0.24038 -0.008381 0.034073 -0.0023378 0.0022276
-0.0014285 0.0028379 0.00039066 0.0058499
0.005774 -0.010392 -0.008276 0.034186 -0.030516 0.30252 0.00079338 0.0014285
2.6227e-05 0.0037824 -0.001759 0.00093074
-0.0045701 -0.0020937 -0.0024531 0.002337 0.00059282 0.0014628 -0.17342 0.23286
-0.028285 0.013132 0.013762 -0.010244
-0.0046229 0.0024829 -0.0011676 0.0027638 0.00013543 0.0037942 -0.028039 0.013004
-0.21946 0.11412 -0.017065 0.019555
0.003364 0.0010268 0.00024592 0.0058006 -0.0021171 0.00084165 0.013597 -0.010338
-0.016833 0.019617 -0.23838 0.15611
860000000 -0.12622 0.24142 -0.017562 0.030266 -0.0027927 -0.010382 -0.0019575 0.00066566
0.0036625 0.0049143 -0.0029743 -0.0027163
-0.017567 0.030244 -0.29214 0.2826 0.0074874 0.034345 0.00012699 0.0020142
0.0037954 0.00079231 0.0031845 0.00016716
-0.0028611 -0.010348 0.007638 0.034327 0.016733 0.31056 -0.00067405 -7.8494e-05
0.002397 -0.00123 0.0017379 0.0041302
-0.001648 0.00070461 0.00015523 0.0020146 -0.00060151 -5.0117e-05 -0.13705 0.24274
-0.018192 0.0176 -0.0062391 -0.0086901
0.0039374 0.0048187 0.0037524 0.00082807 0.0023714 -0.0012562 -0.017995 0.018054
-0.164 0.16246 -0.023637 0.017595
-0.0028564 -0.0026584 0.0032522 0.00012361 0.0017322 0.0041609 -0.0066616 -0.0085376
-0.023203 0.017859 -0.18881 0.19822
920000000 -0.10313 0.26448 0.0044741 0.037935 -0.0095405 -0.0051833 -0.0019475 0.0015386
0.0010757 0.0021804 0.003101 -0.0012965
0.0045272 0.037874 -0.265 0.30378 0.027992 0.022578 0.0013888 0.0013649
0.0071468 -3.2755e-05 0.0045374 -0.0024769
-0.0095471 -0.0052534 0.028086 0.022539 0.061983 0.31221 0.0019654 2.4742e-05
0.00096398 -7.9037e-05 0.00085299 -0.001225
-0.0021978 0.0017735 0.0013394 0.0014786 0.0019663 8.8187e-05 -0.11196 0.25975
-0.011091 0.030395 0.0035093 -0.0069719
0.0010729 0.0021979 0.0072031 -0.00020647 0.0010153 -3.1369e-05 -0.010806 0.030373
-0.15256 0.1712 -0.0014181 0.026401
0.0029807 -0.0013168 0.0044824 -0.0024686 0.00090236 -0.0012545 0.003598 -0.0071127
-0.0017865 0.026497 -0.1928 0.21287
980000000 -0.056388 0.28465 0.0169 0.029939 -0.0095676 0.004147 0.0016928 0.0036012
0.0040518 -0.0017145 -0.0029348 -0.0025852
0.016852 0.029988 -0.21222 0.33833 0.033349 0.0053404 0.0021343 -6.573e-05
0.0017567 -0.0060936 -0.00027462 -0.0026835
-0.0095644 0.0042012 0.033376 0.0052752 0.10777 0.30648 0.00059125 -0.0011992
0.00039719 -0.0020925 0.0014607 -0.00031483
0.0018442 0.0036541 0.0020457 -8.2351e-05 0.0005706 -0.0011883 -0.07427 0.27023
0.0075182 0.029689 -0.0087234 -0.0067687
0.0040914 -0.0017682 0.0017564 -0.006063 0.00040844 -0.002073 0.0074044 0.029528
-0.11785 0.1985 0.00619 0.019416
-0.0029055 -0.0026413 -0.00030334 -0.0026639 0.0013852 -0.00037065 -0.0091324 -0.0067743
0.0062364 0.019464 -0.14998 0.25569
1040000000 -0.015215 0.29367 0.032874 0.018688 -0.0016525 0.0069909 0.0026055 0.0010253
0.00046062 -0.0034797 -0.00033483 -0.0013782
0.03282 0.018724 -0.17714 0.35187 0.030077 -0.014701 0.0017056 -0.0017566
-0.001949 -0.0029317 -0.0010285 -0.002966
-0.0016882 0.0069667 0.030075 -0.014836 0.15365 0.29381 -0.00050753 -0.0016319
-0.0015727 -0.00093819 -0.00065647 -0.0010894
0.0024874 0.00099437 0.0016428 -0.0017887 -0.00048743 -0.0016544 -0.047067 0.28008
0.019185 0.018303 -0.0025083 0.001014
0.00045314 -0.0035075 -0.0020156 -0.0029538 -0.0015615 -0.0009809 0.019372 0.018354
-0.084599 0.20456 0.014552 0.017426
-0.00029705 -0.0013999 -0.00099951 -0.0029097 -0.00059322 -0.0010333 -0.0025044 0.00097786
0.014397 0.017388 -0.12751 0.27542
1100000000 0.029761 0.30253 0.03618 -0.0037459 0.0026908 0.0041533 0.0024232 -0.0010608
-0.0020773 -0.0031614 -0.0040023 -0.00025617
0.036187 -0.0037258 -0.13428 0.36981 0.015831 -0.028071 9.8126e-05 -0.0018792
-0.0037125 -0.0010077 -0.0035574 -0.00058448
0.0026882 0.0041642 0.015787 -0.028158 0.20014 0.27436 -0.0019282 0.00013389
-0.0017818 0.00047824 -0.0011132 -0.00033213
0.0024348 -0.0011192 0.00011972 -0.0018661 -0.0019526 0.00014635 -0.0068952 0.28499
0.024859 0.0049614 -0.0025692 2.9145e-05
-0.0021279 -0.0030889 -0.0037263 -0.0010162 -0.0017875 0.00051246 0.024844 0.0048351
-0.063536 0.21703 0.019774 0.0077694
-0.0040682 -0.00018215 -0.0036047 -0.0005559 -0.0011482 -0.00036649 -0.0024811 0.00011712
0.019772 0.0078296 -0.081598 0.30309
1160000000 0.080317 0.29874 0.024354 -0.020691 0.0026065 -0.00027286 5.2826e-05 -0.0023164
-0.0040117 -0.00083911 -0.00092959 0.0041387
0.02434 -0.020668 -0.091017 0.37477 -0.003475 -0.029849 -0.0015988 -0.0017224
-0.0027906 0.0028031 -0.0014949 0.001824
0.0026338 -0.00032966 -0.0036178 -0.02986 0.24346 0.24404 -0.00087235 0.0018284
-0.00056094 0.0019919 -0.0008294 0.00039505
-3.412e-05 -0.0023171 -0.0016697 -0.001746 -0.00083996 0.0018398 0.032047 0.28241
0.020869 -0.010591 -0.0032101 0.0051193
-0.0039891 -0.00082513 -0.0028371 0.0027357 -0.00051911 0.0019589 0.020858 -0.010556
-0.029826 0.22426 0.018352 -0.0012374
-0.00090213 0.0041306 -0.0014804 0.0018485 -0.00093675 0.00042764 -0.0033295 0.0050552
0.018337 -0.001337 -0.035223 0.3058
1220000000 0.12462 0.28899 0.010752 -0.030301 -0.0017318 -0.00067229 0.00014709 -0.0010168
-0.0026489 0.0022342 0.0011808 0.002138
0.010745 -0.030245 -0.046932 0.38804 -0.017179 -0.021859 -0.002709 0.00044052
9.6613e-05 0.0032603 -0.0008519 0.0019518
-0.0016996 -0.00066122 -0.017242 -0.021814 0.28272 0.20551 0.00079219 0.0018028
0.00066705 0.001218 0.00024972 0.00057458
0.00015465 -0.00097244 -0.0027073 0.00049348 0.00075921 0.0017629 0.072106 0.2744
0.010474 -0.017264 0.0017685 0.0017029
-0.0026696 0.0022929 0.00010032 0.0032782 0.00066117 0.0012278 0.01051 -0.017296
-0.0058463 0.23234 0.013153 -0.013573
0.0012586 0.002091 -0.00083916 0.0019317 0.00025356 0.00054073 0.0017811 0.0016607
0.01313 -0.013523 -0.0023825 0.3201
1280000000 0.17484 0.26851 -0.0080624 -0.028857 -0.001987 0.002693 -0.00086287 -0.0021035
-0.00076752 0.0032358 0.0026239 0.0013469
-0.0080297 -0.028833 -0.0007374 0.37971 -0.024457 -0.0089305 -0.00094446 0.0016045
0.0018734 0.0018484 0.0008147 0.001969
-0.0019533 0.0027026 -0.02455 -0.0088203 0.31318 0.16178 0.0016275 -8.3333e-05
0.0013222 0.00019611 0.00052325 0.00019973
-0.00085304 -0.0021475 -0.00099064 0.0016027 0.0016687 -5.9115e-05 0.10922 0.25817
0.00057895 -0.019442 -0.00022867 0.00052499
-0.0007207 0.0032213 0.0018634 0.0018084 0.0013161 0.00018576 0.00045999 -0.019486
0.030522 0.23468 0.0026964 -0.015614
0.0025404 0.0013581 0.00079425 0.002012 0.00049373 0.0001587 -0.00015553 0.00034632
0.0027079 -0.015696 0.043587 0.32042
1340000000 0.2123 0.23576 -0.017909 -0.018959 0.00096822 0.0048654 -0.0019023 -0.00096541
0.0015473 0.0026867 0.0017603 -0.0014691
-0.017863 -0.018957 0.038973 0.3722 -0.022187 0.0043422 -4.909e-05 0.0020637
0.0021224 0.00067998 0.0012944 0.00081891
0.0010047 0.0048805 -0.022211 0.0044354 0.33501 0.11484 0.0011746 -0.00091432
0.00068251 -0.00054753 0.00014545 0.00027847
-0.001858 -0.00096159 -8.7645e-05 0.0021109 0.0011912 -0.00098043 0.14247 0.23787
-0.0089212 -0.016529 0.00082829 0.00066996
0.0015182 0.0026851 0.0021136 0.0006768 0.00067549 -0.00056009 -0.0087934 -0.016469
0.060652 0.23028 -0.0044914 -0.014134
0.0018289 -0.0015039 0.0013186 0.00080217 0.0001582 0.00022229 0.00070453 0.0005454
-0.0044676 -0.014209 0.082041 0.31491
1400000000 0.24638 0.19858 -0.023726 -0.0071995 0.0055463 0.0033912 -0.0022995 0.00064377
0.0025271 0.00087771 0.000257 -0.0016122
-0.023708 -0.0072258 0.076799 0.35971 -0.015381 0.012894 0.001492 0.0012694
0.0012897 -0.0010078 0.0011204 0.00012836
0.0055526 0.0033805 -0.015311 0.012996 0.34835 0.061956 1.8709e-05 -0.0017381
0.0001042 -0.00037133 0.00024361 0.00018554
-0.002322 0.00064465 0.0014597 0.0012498 1.8491e-05 -0.0016576 0.17246 0.20897
-0.014895 -0.0094571 -0.0007507 -0.00011021
0.0025406 0.00086678 0.0012998 -0.0010129 0.00010362 -0.00032732 -0.01502 -0.0094133
0.093917 0.22527 -0.010892 -0.0087184
0.00023591 -0.0016138 0.001103 8.9005e-05 0.00032614 0.00021149 -0.00053055 1.0181e-05
-0.010841 -0.0086622 0.12591 0.30315
1460000000 0.26984 0.15474 -0.020361 0.0052182 0.0060862 -0.0018872 -0.001576 0.0018728
0.002286 -0.00043515 -0.0004864 -0.0010804
-0.020353 0.0051924 0.1113 0.33795 -0.0062073 0.016088 0.0017034 0.00011256
0.00077466 -0.0014758 0.0012101 -0.00054284
0.006068 -0.0018465 -0.0061318 0.016129 0.35516 0.0083085 -0.0012879 -0.0012303
0.00015226 -0.00023165 0.00066007 -0.0003611
-0.001568 0.0018821 0.0017296 0.00012677 -0.0012617 -0.001283 0.19923 0.1792
-0.016063 -0.0026495 -0.00066936 0.0020832
0.0022385 -0.00044761 0.00076133 -0.0014929 0.00011466 -0.00027954 -0.015904 -0.0025906
0.12301 0.21108 -0.012436 -0.0024683
-0.00047067 -0.0010606 0.0012112 -0.00055124 0.00063459 -0.00033088 -0.00075866 0.0019562
-0.012475 -0.0025407 0.1582 0.28205
1520000000 0.28275 0.11334 -0.014495 0.01064 0.003685 -0.0044765 0.00015865 0.0026084
0.0021713 -0.0021505 -0.0012515 -0.00025718
-0.014495 0.010614 0.14507 0.32361 0.0018701 0.013629 0.0016253 -0.00087561
-2.8257e-05 -0.0011174 0.00028577 -0.0010786
0.0036449 -0.0044823 0.0019567 0.013612 0.34895 -0.047139 -0.0011156 -0.00035431
0.00072594 -0.00089257 0.00011983 -0.0001453
0.00021151 0.0026306 0.0016019 -0.00087042 -0.0011373 -0.00032217 0.22293 0.1408
-0.014836 0.0033709 0.0016526 0.0020932
0.0022214 -0.0021222 -4.3797e-05 -0.0011007 0.00068637 -0.00087426 -0.01482 0.0033997
0.15148 0.19736 -0.012234 0.0023518
-0.0012522 -0.00025537 0.00029586 -0.0010816 0.00017817 -0.00021582 0.0016583 0.0020722
-0.012223 0.0023803 0.19112 0.2612
1580000000 0.29286 0.066925 -0.007632 0.013546 -0.00086033 -0.0053636 0.0016067 0.0018904
-0.00025593 -0.0022068 -0.00023884 0.00045021
-0.0076362 0.013533 0.17265 0.29878 0.0057985 0.0084465 0.00045945 -0.0016157
-0.00060812 -0.00091403 -0.00022322 -0.00085168
-0.00088458 -0.0053712 0.0058484 0.0084199 0.32975 -0.10496 -0.0016291 0.00059811
-0.0003825 -0.0012601 0.00014169 -0.00052691
0.0015965 0.0018511 0.00046364 -0.0015596 -0.0015797 0.00054961 0.2367 0.10055
-0.011099 0.008045 0.0023911 0.00060239
-0.00024132 -0.0021836 -0.00060325 -0.00092673 -0.00038403 -0.001306 -0.011146 0.0080511
0.17589 0.1792 -0.0092527 0.0079152
-0.00023296 0.00043571 -0.00023809 -0.00085367 0.00014774 -0.00055422 0.0023614 0.00060616
-0.0092333 0.0079058 0.22216 0.2341
1640000000 0.29512 0.025677 -0.00091399 0.01213 -0.003081 -0.0029493 0.0027114 0.00092911
-0.00088156 -0.0015654 -0.00025346 0.00059238
-0.00092313 0.012129 0.20217 0.27418 0.0063748 0.0032697 -0.00062891 -0.0017425
-0.00092583 -0.00034445 -0.00053514 -0.00071128
-0.0030537 -0.0029117 0.0063942 0.0032145 0.30208 -0.15427 -0.00058261 0.0015325
-0.0011136 -0.00097017 -0.00020141 -0.00035808
0.0027488 0.00095623 -0.00065708 -0.0017293 -0.00070293 0.0015079 0.24894 0.051385
-0.0066723 0.009087 0.0025583 -0.00091155
-0.00086951 -0.0015745 -0.00093739 -0.00031885 -0.0011697 -0.00096985 -0.0065162 0.0090986
0.19942 0.1551 -0.0044139 0.0097607
-0.00028361 0.00058167 -0.00052538 -0.00069754 -0.00018055 -0.00032476 0.0025613 -0.00092161
-0.0044228 0.009746 0.24722 0.20335
1700000000 0.28839 -0.019706 0.0023336 0.0090902 -0.0039251 -4.5649e-05 0.0030726 -0.001208
-0.0020075 -0.00058361 0.00060056 0.00032206
0.002316 0.0090751 0.22066 0.24283 0.004176 0.00021292 -0.0014972 -0.00056978
-0.00076876 6.5082e-06 -0.00092542 -0.00045809
-0.0039161 -4.2471e-05 0.0041738 0.00018259 0.2592 -0.19442 0.00042757 0.0016138
-0.0019687 -5.0349e-05 -0.000454 -0.0009209
0.0030718 -0.0012343 -0.0014792 -0.00054665 0.00047152 0.0016045 0.24537 0.0010662
-0.0038962 0.0093974 0.001573 -0.0022084
-0.0020393 -0.00056514 -0.00075888 1.0284e-05 -0.0019737 -9.7647e-06 -0.0038679 0.0093751
0.21687 0.13413 0.00017575 0.010103
0.00062706 0.00036446 -0.0009361 -0.00047682 -0.00040399 -0.00093536 0.0015681 -0.0022651
0.00022168 0.010097 0.26376 0.16876
1760000000 0.27646 -0.06842 0.0044605 0.0057296 -0.002533 0.0011889 0.0012935 -0.0034242
-0.0014995 0.00077066 0.00028411 -0.00061145
0.0044679 0.005713 0.24679 0.20316 0.0016824 -0.0016196 -0.0011807 0.00015432
-0.0010726 0.00082499 -0.00065306 0.0003493
-0.0025245 0.0011611 0.0016765 -0.0016131 0.21076 -0.22764 0.0010679 0.0010169
-0.0012313 0.001567 -0.0012595 -0.00063436
0.0012781 -0.0034038 -0.0011666 0.00017401 0.0011055 0.0010038 0.23586 -0.050721
-0.00071422 0.0082616 -0.00019645 -0.0027617
-0.0014634 0.00080106 -0.0010553 0.00084465 -0.0012628 0.0014914 -0.00065683 0.0081786
0.23193 0.099229 0.0044522 0.0071585
0.00029911 -0.00066503 -0.00064203 0.00035116 -0.0012261 -0.00054866 -0.00020387 -0.0025634
0.0044373 0.0071283 0.27577 0.13117
1820000000 0.25215 -0.10573 0.004316 0.0021512 -0.00034221 0.0025061 -0.0011084 -0.0031622
-0.0010477 0.0010259 -0.00025518 -0.00010159
0.0043167 0.0021596 0.25719 0.1732 -0.00074291 -0.00052701 -0.0013808 0.00091923
-0.00013517 0.0012501 -0.00068502 0.00057201
-0.00035122 0.0026003 -0.00077308 -0.00052813 0.16046 -0.24391 0.0014835 0.00049373
-0.00018778 0.0024477 -0.0016162 0.0004919
-0.0011321 -0.0030773 -0.0013588 0.00093552 0.0015618 0.00059547 0.20546 -0.09774
0.00071067 0.006774 -0.0018177 -0.0016475
-0.0010726 0.0010061 -0.0001583 0.0012571 -0.00014081 0.0025517 0.00066653 0.0068302
0.24917 0.069963 0.0050033 0.0035693
-0.0002585 -3.0407e-05 -0.00067105 0.00059548 -0.0015902 0.00045376 -0.0018292 -0.0016319
0.0050244 0.0036008 0.27794 0.094731
1880000000 0.21717 -0.14622 0.0020323 -3.0918e-05 -0.0004871 0.0022865 -0.002917 -0.0021949
-0.00016966 0.0017862 0.00018288 -0.00045486
0.0020318 -3.2114e-05 0.26196 0.1265 -0.0027349 0.0015276 -0.00027471 0.0017209
0.00050291 0.001368 7.6421e-05 0.00093497
-0.00049046 0.0022828 -0.0027157 0.0015236 0.1082 -0.25369 0.0018529 -0.0007715
0.0015692 0.001951 -0.0009326 0.0013785
-0.0028883 -0.0022029 -0.00019489 0.0017279 0.0019047 -0.00085127 0.16399 -0.13803
0.0010963 0.0048461 -0.00252 0.00022515
-0.00016237 0.0018471 0.00053458 0.0013842 0.0015673 0.0019183 0.0011249 0.004761
0.25248 0.037674 0.0052944 0.0011391
0.00022066 -0.00046058 6.6578e-05 0.00091587 -0.00099564 0.0014046 -0.0026204 0.00040264
0.0052701 0.0010946 0.27772 0.060378
1940000000 0.17775 -0.17174 -0.00047976 -0.0014606 0.0013685 0.0022906 -0.0038193 0.00034471
0.0014036 0.0010861 -0.00038523 -0.0004044
-0.00049432 -0.0014715 0.26257 0.094702 -0.0017325 0.0041284 0.0010986 0.0012598
0.0018914 0.0006605 0.001053 0.00047189
0.0014527 0.0023689 -0.0016656 0.0041026 0.061985 -0.24639 0.00051957 -0.0023903
0.0025071 0.00035471 0.00073833 0.0015768
-0.0037886 0.00051082 0.0010508 0.0013952 0.00064053 -0.0023069 0.1114 -0.1679
0.0001939 0.0037432 -0.0016109 0.0016002
0.001435 0.0011444 0.001892 0.0006489 0.0025436 0.00030985 0.00019076 0.0036479
0.25495 -0.00055185 0.0037951 -0.002175
-0.00036814 -0.00042388 0.0010762 0.00047249 0.00063069 0.0015631 -0.0015163 0.0015562
0.0038227 -0.0021273 0.26594 0.024233
2000000000 0.1318 -0.18644 -0.0042989 0.00081111 0.0027523 0.001641 -0.0023425 0.0038477
0.0012067 0.00045151 -0.00047567 0.00048103
-0.0043008 0.0007681 0.24869 0.058985 -0.0010619 0.0059641 0.0015889 0.00038186
0.0015396 -0.0011047 0.0006403 0.00021857
0.00269 0.0017228 -0.00099568 0.0060174 0.019129 -0.23255 -0.0013023 -0.0015679
0.0022197 -0.0012173 0.0017841 0.0013044
-0.0025064 0.0038156 0.001646 0.00033409 -0.0012714 -0.0014634 0.058124 -0.17743
-0.001029 0.0036584 -9.5791e-05 0.0025008
0.0011076 0.00028751 0.0015381 -0.0011006 0.0021895 -0.0011839 -0.0009408 0.0035301
0.24992 -0.033936 0.00054281 -0.0030351
