!Keysight Technologies,M9804A,MY58100912,A.14.10.03
!Date: Thursday, April 27, 2023 10:28:33
!Correction: S11(C  6-Port  ) 
!S12(C  6-Port  ) 
!S13(C  6-Port  ) 
!S14(C  6-Port  ) 
!S15(C  6-Port  ) 
!S16(C  6-Port  ) 
!S21(C  6-Port  ) 
!S22(C  6-Port  ) 
!S23(C  6-Port  ) 
!S24(C  6-Port  ) 
!S25(C  6-Port  ) 
!S26(C  6-Port  ) 
!S31(C  6-Port  ) 
!S32(C  6-Port  ) 
!S33(C  6-Port  ) 
!S34(C  6-Port  ) 
!S35(C  6-Port  ) 
!S36(C  6-Port  ) 
!S41(C  6-Port  ) 
!S42(C  6-Port  ) 
!S43(C  6-Port  ) 
!S44(C  6-Port  ) 
!S45(C  6-Port  ) 
!S46(C  6-Port  ) 
!S51(C  6-Port  ) 
!S52(C  6-Port  ) 
!S53(C  6-Port  ) 
!S54(C  6-Port  ) 
!S55(C  6-Port  ) 
!S56(C  6-Port  ) 
!S61(C  6-Port  ) 
!S62(C  6-Port  ) 
!S63(C  6-Port  ) 
!S64(C  6-Port  ) 
!S65(C  6-Port  ) 
!S66(C  6-Port  ) 
!S6P File: Measurement: :
# Hz S  RI   R 50
500000000 -0.33451 -0.052158 -0.010436 -0.0012507 -0.0090335 0.013053 -0.0033771 0.012709
0.01205 0.0044788 -0.0034002 0.0092997
-0.010551 -0.0013309 -0.41698 -0.062986 0.0082537 -0.010523 0.0028284 0.012042
0.0084437 0.0012926 0.0023756 0.013029
-0.0090812 0.013104 0.0080608 -0.010383 -0.26637 0.2002 0.0076614 0.00329
-0.00077277 0.0081072 0.0015287 0.01071
-0.0034885 0.012908 0.0026574 0.011695 0.0075741 0.0030971 -0.33161 0.043961
-0.017291 -0.0063828 0.017247 0.024925
0.0118 0.0051562 0.0089313 0.0017808 -0.00041585 0.0083303 -0.017109 -0.0056524
-0.24829 -0.19405 -0.025381 0.0011215
-0.0038075 0.0096854 0.0026037 0.012152 0.0016991 0.010422 0.017218 0.024457
-0.025328 0.0010097 -0.27321 -0.11995
560000000 -0.31912 0.11308 -0.023695 -0.064963 -0.00027468 0.012978 0.0053342 0.011772
0.010053 0.0043911 0.010338 0.0088911
-0.023078 -0.064593 -0.37611 0.098259 -0.040527 -0.038567 0.013226 0.0044864
-0.0093979 -0.0036155 0.0039571 -0.0015083
-0.00015636 0.012801 -0.040172 -0.037493 -0.18679 0.25361 3.9391e-05 -0.0068901
0.015556 0.0080468 0.0076869 -0.0025508
0.0054684 0.01204 0.01316 0.0038519 -0.00039418 -0.0068572 -0.30557 0.13744
0.0053638 -0.028772 0.0027327 -0.022902
0.010539 0.0038734 -0.011133 -0.0043069 0.015984 0.0087897 0.0055018 -0.028865
-0.31994 -0.0047329 0.0076229 -0.04315
0.0095569 0.0094358 0.0053085 -0.0022562 0.007158 -0.0027955 0.0027275 -0.022195
0.0073936 -0.043057 -0.33216 0.033469
620000000 -0.27752 0.094301 -0.022818 0.0082318 0.003582 0.0092356 0.0095538 -0.0036301
0.012003 -0.0035347 0.00176 -0.0020424
-0.022801 0.0084203 -0.40331 0.049957 -0.018451 0.00063341 -0.00084712 -0.0022818
0.011013 -0.0059158 0.0010647 -0.0030103
0.0037684 0.0093891 -0.018566 0.00056311 -0.15623 0.2606 0.00042427 -0.0053298
-0.0051839 -0.0039703 0.0083456 -0.0032937
0.0095859 -0.0032699 -0.00077028 -0.002263 0.00053806 -0.0059518 -0.26659 0.1508
-0.033141 -0.024574 0.012839 0.026069
0.012247 -0.003367 0.01101 -0.0059815 -0.0053678 -0.0032455 -0.033464 -0.02509
-0.24283 -0.04299 -0.040773 0.012689
0.0013599 -0.0024624 0.0012042 -0.0028322 0.009423 -0.0037594 0.013 0.025917
-0.040935 0.012867 -0.2532 -0.0026549
680000000 -0.23924 0.18443 -0.026629 -0.014355 0.0051002 0.0058405 0.0016272 -0.0078148
-0.0031874 -0.011626 0.0045305 -0.0064331
-0.026426 -0.014344 -0.38968 0.14983 -0.032556 -0.0020767 -0.0022001 -0.00033684
-0.0011074 -0.010169 -0.0010171 -0.0014534
0.0051016 0.0056655 -0.032643 -0.0021758 -0.10373 0.28101 -0.0017527 -0.00017437
-0.0010169 0.00071966 -0.0031073 -0.0082298
0.0015407 -0.0078977 -0.0022284 -0.00015988 -0.0016009 -0.00047663 -0.21889 0.19664
-0.025765 -0.0087379 -0.010251 -0.012296
-0.0033026 -0.011555 -0.00094972 -0.010264 -0.00084386 0.00088118 -0.02596 -0.0085444
-0.27577 0.058637 -0.0082597 -0.0072316
0.0046001 -0.0068498 -0.0015198 -0.0014295 -0.0029812 -0.0081736 -0.010201 -0.011477
-0.0084014 -0.0071107 -0.26212 0.097742
740000000 -0.19311 0.17795 -0.040066 0.026604 0.01388 -0.0052364 -0.00010517 -0.0043474
-0.0051348 -0.0032101 -0.0058107 0.0030163
-0.039844 0.026761 -0.33538 0.16829 -0.036234 0.035265 -0.00038055 -0.0068237
-0.011554 0.0078736 -0.00098108 -0.0060295
0.013929 -0.0052702 -0.036278 0.035221 -0.071118 0.27886 -0.0011588 0.0028988
-0.0032377 -0.0049147 -0.0014045 0.00073883
0.00016748 -0.0043124 -0.00053034 -0.0066372 -0.0011418 0.0029614 -0.20475 0.20423
-0.040643 -0.0070348 0.022181 0.014742
-0.0052208 -0.003261 -0.011635 0.0081921 -0.0034719 -0.0053402 -0.040854 -0.006924
-0.18338 0.082465 -0.041158 0.0018815
-0.0057402 0.0033692 -0.0014485 -0.0067171 -0.0012802 0.00081081 0.022015 0.014319
-0.040969 0.0021879 -0.24772 0.106
800000000 -0.16174 0.2206 -0.022727 0.016135 0.0057302 -0.010557 -0.0046071 -0.0020795
-0.0048603 0.0019571 0.0039786 0.00081405
-0.022833 0.016098 -0.34103 0.2395 -0.0086133 0.034246 -0.0022886 0.0020733
-0.00080743 0.0022731 0.00060751 0.0056206
0.0056464 -0.010603 -0.0084376 0.034309 -0.031502 0.30234 0.00052628 0.0013742
0.0002064 0.0031973 -0.0021189 0.00112
-0.0046364 -0.0023193 -0.0023078 0.0020116 0.00053438 0.0013032 -0.17444 0.23215
-0.028983 0.013007 0.013615 -0.010316
-0.005074 0.0018892 -0.0011791 0.0023508 0.00027595 0.0032437 -0.029069 0.013141
-0.21855 0.11235 -0.017382 0.019886
0.0044339 0.00059563 0.00083596 0.0055268 -0.0020405 0.0011064 0.013672 -0.010158
-0.017485 0.019589 -0.23929 0.15323
860000000 -0.12669 0.24133 -0.017751 0.030739 -0.0027361 -0.010538 -0.0018628 0.00085054
0.0036552 0.005472 -0.0031366 -0.0028699
-0.017767 0.030689 -0.29252 0.28299 0.0077629 0.034772 0.00038922 0.0022902
0.0029407 0.0012069 0.0033012 0.00014511
-0.0027306 -0.010508 0.0079 0.03481 0.01607 0.31087 -0.00056634 -0.00021598
0.0024171 -0.0010523 0.0018648 0.0043095
-0.0016452 0.00072995 0.00041046 0.0021372 -0.00047106 -0.00031416 -0.13771 0.24314
-0.018391 0.019372 -0.0057967 -0.0091814
0.0041076 0.0055116 0.0030103 0.0016522 0.0023569 -0.00075645 -0.018283 0.019347
-0.16607 0.16183 -0.02413 0.017711
-0.0034216 -0.0025588 0.0032188 0.0002776 0.0018815 0.004098 -0.0057695 -0.0093082
-0.023657 0.018169 -0.18947 0.19621
920000000 -0.10367 0.26451 0.0044462 0.038293 -0.009631 -0.0051894 -0.002143 0.0016615
0.0014359 0.0020304 0.0029724 -0.0011702
0.004453 0.038271 -0.26596 0.30389 0.028172 0.022893 0.0012744 0.0012944
0.0074733 -0.00077844 0.0042352 -0.0025584
-0.0096155 -0.005126 0.028259 0.02286 0.061591 0.31268 0.0018721 4.9645e-05
0.00098814 5.9323e-05 0.0010108 -0.0011917
-0.0020537 0.0018271 0.0012558 0.0012965 0.0019546 6.2377e-05 -0.11355 0.25996
-0.01064 0.031256 0.0032906 -0.0067729
0.0011137 0.0020384 0.0073344 -0.00077937 0.00094223 -4.1359e-05 -0.010693 0.031388
-0.15278 0.16933 -0.0011446 0.027178
0.0029766 -0.0014985 0.004187 -0.0026248 0.0010565 -0.0012246 0.0032831 -0.0067992
-0.0014302 0.02707 -0.19407 0.21269
980000000 -0.056911 0.28432 0.017008 0.030302 -0.0096455 0.0042614 0.0020196 0.003455
0.0037296 -0.0014767 -0.0029473 -0.0024178
0.016927 0.030275 -0.21262 0.33849 0.033713 0.0053804 0.0023578 -9.6077e-05
0.0014773 -0.0057883 -0.00025214 -0.0025309
-0.0096547 0.0042741 0.033772 0.0052682 0.10765 0.30686 0.00077739 -0.0011606
0.00048965 -0.0019023 0.0013185 -0.00035245
0.0020916 0.0034781 0.002333 -0.00016515 0.00077525 -0.0011961 -0.075121 0.2713
0.0074435 0.030705 -0.0087253 -0.0068981
0.0041093 -0.0014694 0.0016995 -0.0059378 0.00055146 -0.0019089 0.0074388 0.030585
-0.11946 0.19827 0.0057861 0.019335
-0.0030939 -0.0022443 -0.00027281 -0.0027609 0.0014343 -0.0003471 -0.0090013 -0.0070139
0.0060481 0.019313 -0.15164 0.25472
1040000000 -0.01563 0.2939 0.03311 0.019129 -0.0015778 0.0072067 0.0025625 0.000766
0.00071408 -0.0038278 -6.3137e-05 -0.0013427
0.033034 0.019192 -0.17777 0.35237 0.030385 -0.014791 0.001585 -0.0018698
-0.0018262 -0.0029746 -0.0013376 -0.0030096
-0.0015612 0.0072288 0.030377 -0.014926 0.15375 0.29421 -0.00052906 -0.0016525
-0.0015944 -0.0010818 -0.00053637 -0.0010863
0.0025743 0.00085582 0.001487 -0.0018879 -0.0005375 -0.0016539 -0.047377 0.28104
0.020273 0.019025 -0.0028536 0.00086148
0.00055059 -0.0037771 -0.0017877 -0.0029881 -0.0015649 -0.0011318 0.02031 0.018933
-0.085411 0.20408 0.014496 0.018276
-0.0001188 -0.0013922 -0.0011892 -0.0031165 -0.00048422 -0.0011345 -0.0028231 0.00099287
0.014306 0.018286 -0.12966 0.27555
1100000000 0.029229 0.30273 0.036657 -0.003655 0.0028798 0.00428 0.0024333 -0.0012956
-0.0022489 -0.0031408 -0.0041926 -0.00038919
0.036579 -0.0036018 -0.13451 0.37026 0.015959 -0.028328 0.00020679 -0.001824
-0.004051 -0.00085171 -0.0037101 -0.0006032
0.0028637 0.004272 0.015853 -0.028414 0.20036 0.27463 -0.0019571 0.00013421
-0.0017152 0.00055333 -0.0011644 -0.00047977
0.0024657 -0.0013371 7.9024e-05 -0.0019497 -0.0019481 0.00015542 -0.0067213 0.28615
0.026076 0.0051267 -0.0026305 0.00020025
-0.0021467 -0.0031581 -0.0039453 -0.00085237 -0.0017085 0.00053704 0.026079 0.0050522
-0.064483 0.21717 0.020037 0.0070105
-0.0041988 -0.00027906 -0.0037189 -0.00052047 -0.0011224 -0.00048184 -0.0025707 8.357e-05
0.020099 0.0070712 -0.082663 0.30297
1160000000 0.080134 0.29897 0.024818 -0.020845 0.0029024 -0.00041806 -0.00016934 -0.0023873
-0.0040051 -0.00078201 -0.00086361 0.0040129
0.024768 -0.020825 -0.090925 0.37544 -0.0035466 -0.030082 -0.001815 -0.0016801
-0.0027255 0.0025268 -0.0014119 0.0017931
0.0028932 -0.00043896 -0.0036772 -0.030055 0.24377 0.24415 -0.00084605 0.0018674
-0.00070058 0.0019084 -0.00097895 0.00039345
-0.00021066 -0.0023728 -0.0017291 -0.0017736 -0.00084892 0.0018524 0.032921 0.28327
0.02193 -0.011151 -0.0029979 0.0048794
-0.0039575 -0.00072779 -0.0026778 0.0025799 -0.00066299 0.0019324 0.021969 -0.011127
-0.03069 0.22466 0.018244 -0.00041538
-0.0010618 0.003885 -0.0016333 0.0018613 -0.00094752 0.00046357 -0.0030682 0.0051047
0.018223 -0.00045722 -0.036291 0.30559
1220000000 0.12444 0.28925 0.011097 -0.030669 -0.0016126 -0.00092219 1.303e-05 -0.0009326
-0.0025921 0.0022722 0.0010749 0.002173
0.0111 -0.030609 -0.046487 0.38847 -0.017367 -0.022066 -0.0026198 0.00048755
3.2349e-05 0.0032242 -0.00085897 0.0021836
-0.0015977 -0.0009382 -0.017506 -0.022002 0.28296 0.20537 0.00079514 0.0017313
0.00067377 0.0012755 0.00023382 0.00059652
-1.9741e-05 -0.00089049 -0.0026353 0.00055325 0.00081283 0.0017489 0.073436 0.27461
0.011114 -0.018222 0.0018393 0.0015463
-0.0025541 0.002236 5.954e-05 0.0032296 0.00071086 0.0012917 0.0111 -0.018185
-0.0064611 0.23303 0.013883 -0.01412
0.0011346 0.0022249 -0.00080345 0.0021372 0.0002957 0.00050926 0.0018862 0.0013979
0.013977 -0.014046 -0.0037561 0.32047
1280000000 0.17495 0.26882 -0.0079584 -0.029286 -0.0020409 0.0024452 -0.00087802 -0.001992
-0.00074156 0.0031227 0.0027823 0.0011964
-0.0079488 -0.029267 4.6625e-05 0.37994 -0.024629 -0.0088618 -0.00096378 0.0014752
0.0019035 0.0017433 0.00087587 0.0019314
-0.0020646 0.0024614 -0.024696 -0.0087858 0.31332 0.16142 0.0016165 -2.3288e-05
0.0011888 0.00028405 0.00033794 0.00020391
-0.00092026 -0.0020024 -0.00095459 0.0015044 0.0016813 -1.9796e-06 0.1105 0.25766
0.00054225 -0.020479 -0.00024575 0.00053698
-0.00071351 0.0031703 0.0019615 0.001756 0.0011882 0.00027175 0.00056702 -0.020557
0.030429 0.23562 0.0024732 -0.015938
0.0026296 0.0011455 0.00081952 0.0019433 0.00040529 0.00022105 -0.00027198 0.0006033
0.0024232 -0.016018 0.042903 0.32085
1340000000 0.21221 0.23594 -0.018108 -0.019329 0.00078312 0.0048014 -0.0017551 -0.00095264
0.0014165 0.0026715 0.0017407 -0.0013455
-0.018065 -0.019347 0.039648 0.3719 -0.022288 0.0044305 4.0196e-05 0.0019779
0.0020687 0.00069123 0.0012846 0.00079455
0.00082666 0.0047787 -0.022287 0.0045789 0.33511 0.11448 0.0011353 -0.0010109
0.00074782 -0.00051538 0.00018877 0.0003171
-0.0018091 -0.00095358 3.1553e-05 0.0019722 0.0010914 -0.00098798 0.14351 0.23659
-0.0094401 -0.017479 0.00060676 0.00058219
0.00148 0.0026724 0.0020564 0.00069321 0.00067564 -0.0005447 -0.0094859 -0.017401
0.060996 0.23088 -0.0045309 -0.014361
0.0018322 -0.0013194 0.0012571 0.00080659 5.4878e-05 0.00030866 0.00067504 0.00063889
-0.0045116 -0.014309 0.081038 0.31494
1400000000 0.24674 0.19831 -0.024061 -0.00743 0.00537 0.0033673 -0.0022807 0.00071841
0.002549 0.00089658 0.00031875 -0.0016025
-0.024022 -0.0074225 0.077309 0.35903 -0.015307 0.012924 0.001302 0.0012567
0.0013606 -0.00092053 0.0012074 8.0391e-05
0.0053618 0.0033765 -0.015285 0.012996 0.34816 0.061626 3.4749e-05 -0.0016047
4.04e-05 -0.00043836 0.00029382 0.00024411
-0.002288 0.00069137 0.0013297 0.0012349 -2.0081e-05 -0.0016743 0.17274 0.2072
-0.015655 -0.0099429 -0.00080668 -6.6079e-06
0.0025282 0.00084151 0.0013512 -0.0009027 5.234e-05 -0.00051555 -0.015716 -0.0099731
0.094592 0.22549 -0.011076 -0.0087258
0.00027096 -0.0016042 0.0011725 5.9744e-05 0.00034671 0.00020991 -0.00087031 -3.1579e-05
-0.011023 -0.0087516 0.12543 0.30391
1460000000 0.26972 0.15446 -0.020744 0.0051717 0.0059783 -0.0016905 -0.0015605 0.0017712
0.0022465 -0.00036423 -0.00048402 -0.00094026
-0.020723 0.0051789 0.11138 0.33685 -0.0061433 0.016094 0.0016734 0.00014717
0.00068977 -0.001414 0.0012249 -0.00056935
0.006002 -0.0017109 -0.0060302 0.01612 0.35478 0.008007 -0.0012778 -0.0013191
0.00013608 -0.00022432 0.00072583 -0.00023411
-0.0015472 0.0017695 0.0016763 0.00017632 -0.0012198 -0.0012986 0.19872 0.17761
-0.016848 -0.002561 -0.00073443 0.0021096
0.0022669 -0.00035115 0.00065146 -0.0014235 0.00013546 -0.00019981 -0.016895 -0.0025345
0.12347 0.21081 -0.012705 -0.0026483
-0.00047807 -0.00093279 0.0012206 -0.00060691 0.00075678 -0.00030195 -0.00079419 0.0021214
-0.012706 -0.0026578 0.15778 0.28274
1520000000 0.28239 0.11292 -0.014855 0.010784 0.0035857 -0.0043461 0.00012814 0.002637
0.0021327 -0.0020169 -0.0011016 -0.00010459
-0.014849 0.010763 0.1448 0.32273 0.0019032 0.01352 0.0016446 -0.0007887
6.0597e-05 -0.0010949 0.0002584 -0.0010163
0.0035342 -0.0043509 0.0019689 0.013542 0.34844 -0.047376 -0.0011136 -0.00029535
0.00055264 -0.00079685 9.0845e-05 -0.00029804
0.00012898 0.0026403 0.0016455 -0.00079325 -0.0011687 -0.00033248 0.22152 0.13927
-0.01554 0.0037363 0.0016477 0.0020669
0.0021326 -0.0020552 7.7395e-05 -0.0011119 0.00049664 -0.00085005 -0.015534 0.003793
0.15188 0.19678 -0.012296 0.0025744
-0.0011239 -0.00019428 0.0002741 -0.0010256 6.2817e-05 -0.00020017 0.0016959 0.0020764
-0.012285 0.0026127 0.19062 0.26157
1580000000 0.29206 0.066785 -0.0077513 0.013905 -0.00082266 -0.0052412 0.0015171 0.0018961
-0.00025998 -0.0021817 -0.00015 0.00037077
-0.0077578 0.013876 0.17194 0.29797 0.0057414 0.0083943 0.00049908 -0.0015344
-0.00057686 -0.00095544 -0.00021157 -0.00083515
-0.00087221 -0.0052732 0.0057693 0.0083705 0.32924 -0.10469 -0.0016294 0.0006638
-0.00037713 -0.00116 0.00029422 -0.00054397
0.0015371 0.0019059 0.00048613 -0.0015401 -0.001623 0.00066176 0.23479 0.099755
-0.011415 0.008671 0.0024097 0.00068999
-0.00021698 -0.0022406 -0.00060994 -0.00095772 -0.0003721 -0.0011802 -0.011402 0.0086547
0.17592 0.17844 -0.0094687 0.0082322
-0.0002312 0.00046376 -0.00025559 -0.00081853 0.00021379 -0.00063837 0.0023274 0.00068475
-0.0094763 0.0081899 0.22178 0.2347
1640000000 0.29432 0.025867 -0.00089546 0.012466 -0.00303 -0.0028105 0.002742 0.0009416
-0.00075593 -0.0017023 -0.00033808 0.00057512
-0.00089239 0.012432 0.20122 0.27372 0.0063059 0.003293 -0.0006191 -0.0017876
-0.0010161 -0.0003049 -0.00052827 -0.00059406
-0.0030254 -0.0028264 0.0063603 0.0032623 0.30156 -0.15395 -0.00059332 0.0014686
-0.0011357 -0.00091762 -0.00024145 -0.00038977
0.0027398 0.00094089 -0.00061568 -0.0017813 -0.00060921 0.0015094 0.24658 0.051525
-0.0066864 0.0097076 0.0025851 -0.0009001
-0.0007943 -0.0017127 -0.00099288 -0.00027977 -0.0011479 -0.00081972 -0.0066788 0.0097802
0.19871 0.1541 -0.0043054 0.010064
-0.00036259 0.00050896 -0.00050376 -0.00063237 -0.00021682 -0.00033693 0.0025706 -0.00091362
-0.0043165 0.010092 0.24672 0.20356
1700000000 0.28754 -0.019171 0.0024749 0.0092646 -0.0038121 -6.8891e-05 0.0030788 -0.0012875
-0.0021113 -0.00057254 0.0006197 0.0003275
0.0024696 0.0092666 0.21953 0.24269 0.0040802 0.00023515 -0.0014792 -0.00059903
-0.00072677 1.4053e-05 -0.00089089 -0.0003524
-0.0038227 -5.0958e-05 0.0040846 0.00018228 0.25915 -0.19412 0.00043667 0.001642
-0.0018997 -1.8058e-05 -0.00047956 -0.00087561
0.0030567 -0.0013075 -0.0014852 -0.00057198 0.00044501 0.0015722 0.2434 0.0022026
-0.003646 0.0096954 0.0015893 -0.0023609
-0.0020881 -0.00056026 -0.0007362 4.4995e-05 -0.0018896 -0.00012624 -0.0035801 0.009738
0.21603 0.13349 0.0004549 0.010049
0.0006624 0.00035581 -0.00093051 -0.00035819 -0.0005636 -0.0008694 0.0016318 -0.0023384
0.00049133 0.0099998 0.26323 0.16929
1760000000 0.27583 -0.067502 0.0045922 0.0057885 -0.0024589 0.0011829 0.0013017 -0.0034077
-0.0013945 0.00075393 0.00020788 -0.00046455
0.0045955 0.005787 0.24564 0.20343 0.0016019 -0.0015341 -0.0011928 0.00016706
-0.00098958 0.00082637 -0.00060943 0.00038886
-0.002409 0.0011885 0.0016165 -0.0015599 0.21031 -0.2277 0.00114 0.00097491
-0.0012017 0.0014274 -0.0012268 -0.00062501
0.0012866 -0.0034348 -0.0012017 0.00017056 0.0011896 0.0010295 0.23438 -0.048579
-0.00057965 0.0085087 -9.986e-05 -0.0025446
-0.0013628 0.00077654 -0.00097057 0.00085515 -0.0011451 0.0015259 -0.00059148 0.0085562
0.23038 0.098685 0.0045583 0.0072082
0.00026866 -0.00054219 -0.0005744 0.0003716 -0.0012365 -0.00070004 -0.00012954 -0.0024836
0.0045146 0.0072234 0.27559 0.13177
1820000000 0.25209 -0.10462 0.0044733 0.002255 -0.00026376 0.0025231 -0.001025 -0.0030734
-0.0010536 0.001094 -0.00023261 -0.00012788
0.0044703 0.002238 0.25626 0.17395 -0.00074718 -0.00039694 -0.0013645 0.00094765
-0.00010639 0.0012303 -0.00053239 0.0005215
-0.00028527 0.0025365 -0.00075471 -0.00035794 0.16037 -0.24389 0.0014531 0.00049422
-0.00026923 0.0023621 -0.0014405 0.00032863
-0.0010139 -0.003105 -0.0013427 0.00091736 0.0014219 0.00045057 0.20501 -0.095232
0.00069187 0.0070765 -0.0018573 -0.0016794
-0.0010413 0.0010914 -0.00011608 0.0011933 -0.00020281 0.0023584 0.00072034 0.0071021
0.24723 0.070159 0.0051312 0.0034072
-0.00021997 -6.5646e-05 -0.00060671 0.00052987 -0.0014921 0.00032732 -0.0018731 -0.0016611
0.005226 0.0034157 0.27759 0.095187
1880000000 0.21749 -0.14523 0.0021884 6.696e-05 -0.00040622 0.0021425 -0.0029501 -0.00215
-0.0001087 0.0018495 0.00021037 -0.00052168
0.002181 5.9385e-05 0.26131 0.12747 -0.0026501 0.0015323 -0.00023517 0.0017639
0.00053517 0.0012734 2.9887e-05 0.0010274
-0.00034263 0.0021183 -0.0026679 0.0015514 0.10856 -0.25333 0.0018407 -0.0009813
0.0015743 0.0019222 -0.0010212 0.0014749
-0.0029399 -0.0021223 -0.00023591 0.0017488 0.0018752 -0.00097089 0.1655 -0.13552
0.0015136 0.0051286 -0.0025384 0.0003805
-0.00011818 0.0017988 0.00057895 0.0012635 0.0015738 0.0019594 0.0015673 0.0050941
0.25093 0.038583 0.0053226 0.00098696
0.00021998 -0.0005481 5.7319e-05 0.00099504 -0.0010248 0.0015268 -0.0025741 0.00042451
0.0052034 0.00096245 0.27727 0.06087
1940000000 0.1785 -0.17106 -0.00025763 -0.0014186 0.0012838 0.0023034 -0.0036402 0.00048259
0.0015074 0.0011225 -0.00036659 -0.00060284
-0.00024556 -0.001425 0.26246 0.09591 -0.0015206 0.0041694 0.001109 0.0012966
0.0018343 0.00060733 0.0010153 0.00035791
0.0013444 0.0023228 -0.0014575 0.0041233 0.061969 -0.24647 0.00050482 -0.0022348
0.0024441 0.00044474 0.00041771 0.0016949
-0.0035872 0.0004851 0.0011511 0.0012968 0.00061867 -0.0022347 0.11333 -0.16641
0.00073612 0.0038176 -0.0015148 0.0017852
0.0015196 0.0010548 0.0018513 0.00058455 0.0024603 0.00043602 0.00071662 0.0039227
0.25379 0.00088986 0.0037034 -0.0021627
-0.00036608 -0.00052573 0.0010007 0.00033204 0.00047543 0.0016499 -0.0015007 0.0017918
0.0038498 -0.0021458 0.26585 0.024499
2000000000 0.13271 -0.18647 -0.0040011 0.00066538 0.0026856 0.0015172 -0.0023431 0.0039208
0.001108 0.00037803 -0.00060774 0.00041104
-0.0039522 0.00063212 0.24908 0.060078 -0.00093515 0.0058155 0.0015577 0.00042907
0.0014199 -0.0011025 0.00050792 0.00012608
0.0027106 0.0015281 -0.00096741 0.005839 0.019259 -0.23281 -0.0012808 -0.0014672
0.0021387 -0.0013592 0.0016761 0.0014264
-0.0023529 0.0038554 0.0015395 0.00041512 -0.0013442 -0.00144 0.060108 -0.17719
-0.00055823 0.0037437 -6.9091e-05 0.0022903
0.0012093 0.00041268 0.0014152 -0.0010928 0.0021055 -0.0012427 -0.00058041 0.0037295
0.24901 -0.03216 0.00074132 -0.0032262
