!Keysight Technologies,M9804A,MY58100912,A.14.10.03
!Date: Thursday, April 27, 2023 10:28:33
!Correction: S11(C  6-Port  ) 
!S12(C  6-Port  ) 
!S13(C  6-Port  ) 
!S14(C  6-Port  ) 
!S15(C  6-Port  ) 
!S16(C  6-Port  ) 
!S21(C  6-Port  ) 
!S22(C  6-Port  ) 
!S23(C  6-Port  ) 
!S24(C  6-Port  ) 
!S25(C  6-Port  ) 
!S26(C  6-Port  ) 
!S31(C  6-Port  ) 
!S32(C  6-Port  ) 
!S33(C  6-Port  ) 
!S34(C  6-Port  ) 
!S35(C  6-Port  ) 
!S36(C  6-Port  ) 
!S41(C  6-Port  ) 
!S42(C  6-Port  ) 
!S43(C  6-Port  ) 
!S44(C  6-Port  ) 
!S45(C  6-Port  ) 
!S46(C  6-Port  ) 
!S51(C  6-Port  ) 
!S52(C  6-Port  ) 
!S53(C  6-Port  ) 
!S54(C  6-Port  ) 
!S55(C  6-Port  ) 
!S56(C  6-Port  ) 
!S61(C  6-Port  ) 
!S62(C  6-Port  ) 
!S63(C  6-Port  ) 
!S64(C  6-Port  ) 
!S65(C  6-Port  ) 
!S66(C  6-Port  ) 
!S6P File: Measurement: :
# Hz S  RI   R 50
500000000 -0.33559 -0.051995 -0.010488 -0.0014771 -0.0085675 0.013707 -0.0048256 0.012729
0.011939 0.0052697 -0.0039653 0.0090183
-0.010068 -0.0012862 -0.4174 -0.062119 0.0075167 -0.010559 0.0010027 0.012684
0.0075993 0.00285 0.00054067 0.013888
-0.0086213 0.013301 0.0074922 -0.01054 -0.2683 0.20017 0.0067159 0.0038412
-0.0021687 0.0091861 8.3975e-05 0.012572
-0.0044469 0.011937 0.00096484 0.012709 0.0067602 0.0039288 -0.33424 0.04493
-0.01782 -0.0048057 0.013945 0.024744
0.012115 0.0053923 0.0076835 0.0028161 -0.0021506 0.0092045 -0.017782 -0.0049175
-0.25007 -0.19265 -0.024313 0.0047827
-0.0043272 0.0078163 0.00046467 0.013973 0.0001898 0.012559 0.013669 0.025672
-0.024685 0.0046045 -0.27706 -0.11732
560000000 -0.31902 0.11423 -0.024052 -0.06474 0.0011197 0.013124 0.0053442 0.011086
0.010253 0.004256 0.010754 0.0090771
-0.024231 -0.065303 -0.37537 0.10229 -0.043177 -0.037474 0.014211 0.0031668
-0.015426 -0.004923 0.0046565 -0.00045534
0.0010339 0.013288 -0.043232 -0.03745 -0.18572 0.2518 -0.00012679 -0.0041718
0.020484 0.0047155 0.0071484 -0.0048465
0.0056036 0.011718 0.014377 0.0030358 -7.8908e-05 -0.0041694 -0.3071 0.13557
0.0043469 -0.02421 0.0052559 -0.021332
0.011015 0.0049729 -0.015412 -0.0049043 0.020482 0.0048281 0.0042392 -0.024395
-0.30835 -0.010287 0.0053119 -0.048485
0.010789 0.0085855 0.0048677 -0.0005787 0.0070108 -0.0048609 0.0050035 -0.021391
0.005295 -0.0487 -0.3307 0.029183
620000000 -0.27784 0.094138 -0.023362 0.0092737 0.0034545 0.010205 0.008345 -0.0041737
0.012495 -0.00093101 0.0015818 -0.0016903
-0.02321 0.0090677 -0.40392 0.050633 -0.018513 0.0010422 -0.0013674 -0.0023175
0.012572 -0.0056127 0.0010915 -0.0031946
0.0037054 0.0096895 -0.018507 0.0010492 -0.15587 0.26288 -0.0011038 -0.0052886
-0.0022565 -0.0026387 0.0091555 -0.0034296
0.0088641 -0.0046773 -0.0013518 -0.0023701 -0.0011333 -0.0053292 -0.26656 0.14711
-0.0377 -0.01927 0.012467 0.027145
0.01234 -0.00065847 0.012548 -0.0056103 -0.0021348 -0.0025963 -0.037583 -0.019162
-0.23302 -0.04539 -0.039437 0.011655
0.0011162 -0.0018409 0.0010016 -0.0031826 0.0089765 -0.0032785 0.012205 0.026728
-0.039578 0.011626 -0.25346 -0.0021271
680000000 -0.23874 0.18529 -0.026315 -0.013773 0.0056083 0.0054804 0.0018213 -0.0075522
-0.0023817 -0.011765 0.0058136 -0.0074604
-0.026147 -0.013824 -0.38947 0.15123 -0.03234 -0.0017693 -0.0013243 -0.00069649
-0.0016398 -0.0099 -0.0010543 -0.0017718
0.005754 0.0054935 -0.032407 -0.001705 -0.1033 0.28175 -0.00096328 -0.00047603
-0.0017072 -3.5899e-05 -0.0030926 -0.0093532
0.0022214 -0.0075722 -0.0012503 -0.00069102 -0.0009086 -0.00047237 -0.22044 0.19762
-0.023554 -0.0071616 -0.0088339 -0.010277
-0.0022817 -0.012013 -0.0016666 -0.0099936 -0.0016431 -7.8889e-05 -0.023502 -0.0072259
-0.27902 0.059079 -0.008282 -0.0073664
0.0058647 -0.0075461 -0.00095313 -0.0018826 -0.0029061 -0.009512 -0.0085619 -0.010229
-0.0083988 -0.007414 -0.25821 0.099021
740000000 -0.19325 0.1785 -0.039044 0.027126 0.013962 -0.0048435 -0.00035324 -0.0040482
-0.0042843 -0.0030377 -0.0066324 0.0036898
-0.038914 0.02724 -0.33464 0.16979 -0.036511 0.035343 -0.00060412 -0.0061352
-0.011801 0.0065416 -0.0020654 -0.0059046
0.013819 -0.0050358 -0.036466 0.035465 -0.069841 0.27876 -0.0020562 0.0032783
-0.0026468 -0.0048543 -0.001258 0.00085738
-0.00062356 -0.0041294 -0.00069791 -0.0062367 -0.0020618 0.0032181 -0.20349 0.2051
-0.042386 -0.0068531 0.021832 0.014241
-0.0040076 -0.0030308 -0.01141 0.0066584 -0.0026679 -0.0047359 -0.042439 -0.0066878
-0.1801 0.08258 -0.040883 0.0022044
-0.0074584 0.0036313 -0.0023275 -0.0058218 -0.0012706 0.00067943 0.021934 0.014133
-0.040868 0.002254 -0.24821 0.10612
800000000 -0.16109 0.2226 -0.022027 0.016568 0.0058899 -0.010683 -0.0044283 -0.0021454
-0.0044696 0.0023822 0.003994 0.0007798
-0.022224 0.016551 -0.34037 0.2401 -0.0082977 0.034288 -0.002348 0.0019607
-0.0012387 0.0031995 0.00059191 0.0054364
0.0058512 -0.010634 -0.0081864 0.034367 -0.030803 0.30236 0.00079403 0.0014136
-0.00011441 0.0036037 -0.0018195 0.0011288
-0.0043491 -0.0021486 -0.0023275 0.0020051 0.00081215 0.0014248 -0.17355 0.23283
-0.028222 0.013165 0.013522 -0.010099
-0.0045433 0.0026588 -0.001173 0.003231 -0.00013527 0.0035828 -0.028191 0.013223
-0.21973 0.11442 -0.016328 0.01963
0.004063 0.00082728 0.00060146 0.005516 -0.0017865 0.001063 0.013631 -0.010137
-0.016319 0.019476 -0.23946 0.15569
860000000 -0.12604 0.24139 -0.017345 0.030289 -0.002685 -0.010607 -0.0019321 0.00070507
0.003777 0.0050689 -0.0035632 -0.0022611
-0.017315 0.030122 -0.29236 0.28229 0.0077103 0.03475 0.00011064 0.0020947
0.0036408 0.00086846 0.0033449 0.00067048
-0.0027322 -0.010611 0.007821 0.034765 0.016221 0.31081 -0.00065316 -3.3385e-05
0.0022723 -0.0012473 0.0017843 0.0040452
-0.0019649 0.00070441 7.4316e-05 0.002064 -0.0006659 -5.3736e-05 -0.13744 0.24305
-0.018319 0.01802 -0.0060556 -0.008729
0.0037971 0.0050852 0.0036725 0.0008405 0.0022497 -0.0012204 -0.018258 0.01795
-0.16405 0.16277 -0.024304 0.018006
-0.003328 -0.0022846 0.0032953 0.00064713 0.0017035 0.0040702 -0.0061127 -0.0088996
-0.024361 0.018056 -0.18803 0.19762
920000000 -0.10275 0.26443 0.0047231 0.037828 -0.0096593 -0.005557 -0.0019417 0.0015519
0.0010013 0.0024165 0.0033164 -0.0014378
0.0046221 0.037785 -0.26545 0.3035 0.028426 0.022699 0.0014783 0.0014672
0.0073892 -0.0002556 0.0043692 -0.0027335
-0.0096176 -0.005608 0.028542 0.022662 0.061568 0.31264 0.00193 0.00012114
0.0011412 -0.00018689 0.0010029 -0.0014129
-0.0020457 0.0017433 0.0014418 0.0014639 0.0019593 0.00012116 -0.11252 0.25993
-0.010384 0.030653 0.0034779 -0.0069596
0.00075324 0.0023539 0.0074258 -0.00019757 0.0011437 -0.00017291 -0.010265 0.030801
-0.15338 0.17093 -0.00086556 0.026368
0.0034493 -0.001375 0.0043948 -0.0027291 0.0010666 -0.0014461 0.0034269 -0.0069128
-0.00086028 0.026331 -0.19323 0.21296
980000000 -0.056303 0.28422 0.017075 0.030104 -0.00984 0.0040988 0.0016585 0.0036256
0.0042904 -0.0018273 -0.0031315 -0.0024021
0.017091 0.03002 -0.21265 0.33823 0.03385 0.0052218 0.0020719 -0.00010531
0.0019314 -0.0061483 -0.00034056 -0.0027646
-0.0098572 0.0041254 0.033908 0.005101 0.10766 0.30716 0.00060109 -0.0012378
0.00041661 -0.0021395 0.0013136 -0.00031355
0.0017008 0.0036243 0.0020753 -0.00014015 0.00060046 -0.0012455 -0.074406 0.27097
0.0078055 0.030003 -0.0090142 -0.0067947
0.0042712 -0.0017344 0.0018513 -0.0061644 0.00041016 -0.0021302 0.0078417 0.029948
-0.11698 0.19828 0.0060438 0.019679
-0.0031967 -0.0024311 -0.0002872 -0.0027713 0.0013096 -0.00032447 -0.0089535 -0.0069087
0.0061103 0.019834 -0.15046 0.25597
1040000000 -0.015245 0.29335 0.033122 0.018669 -0.0018543 0.0070898 0.0025671 0.00089075
0.00036506 -0.0033909 -0.00031094 -0.0015771
0.033108 0.01863 -0.17784 0.352 0.030486 -0.015085 0.0016961 -0.001778
-0.0021842 -0.0029291 -0.0012082 -0.0028828
-0.0018484 0.0070272 0.030467 -0.015233 0.15384 0.29465 -0.00053044 -0.0016923
-0.0017022 -0.00098846 -0.00066615 -0.0011081
0.0026028 0.00086535 0.0016943 -0.0017697 -0.00054668 -0.0016817 -0.047196 0.2805
0.020125 0.018411 -0.0027646 0.00085773
0.00035544 -0.0033564 -0.0021779 -0.0029135 -0.0016835 -0.00099319 0.020234 0.018459
-0.085084 0.20428 0.014862 0.0177
-0.00032505 -0.0017823 -0.0012271 -0.0028867 -0.00064603 -0.0010698 -0.0027978 0.00090039
0.014838 0.017729 -0.1278 0.27536
1100000000 0.029302 0.30236 0.036593 -0.0039312 0.0026834 0.0043065 0.0022993 -0.0011177
-0.0019619 -0.0033356 -0.0041896 -0.00017756
0.036478 -0.0039366 -0.13481 0.37018 0.01594 -0.028751 -9.4743e-06 -0.0018896
-0.0039072 -0.0011327 -0.0038214 -0.00047536
0.0026925 0.0042834 0.015854 -0.02885 0.20088 0.27508 -0.0020182 0.00019275
-0.0019304 0.00057216 -0.0010704 -0.00030646
0.0023635 -0.0011207 -1.0037e-05 -0.0018924 -0.002023 0.00019531 -0.0067804 0.28545
0.025812 0.0045872 -0.0026621 1.3059e-06
-0.0019482 -0.003171 -0.0039095 -0.0011233 -0.0019327 0.00054236 0.025848 0.0045174
-0.063952 0.21753 0.020366 0.0074788
-0.0041624 -0.00024472 -0.0038296 -0.00048206 -0.0010855 -0.00029895 -0.0026417 5.0588e-05
0.020414 0.0075588 -0.08213 0.30362
1160000000 0.080089 0.29854 0.024514 -0.021284 0.0026513 -0.00030139 -2.7179e-05 -0.0022133
-0.0040456 -0.0007777 -0.0010216 0.004112
0.02451 -0.021353 -0.091501 0.3756 -0.0038703 -0.030341 -0.0016448 -0.0017521
-0.0029221 0.0029662 -0.0015469 0.002037
0.002654 -0.00027142 -0.0039949 -0.030375 0.24454 0.24424 -0.00077006 0.0019222
-0.00040585 0.0021167 -0.0009152 0.00033025
-4.2043e-05 -0.0022643 -0.0016643 -0.001779 -0.00077948 0.0019067 0.032342 0.28288
0.021331 -0.011606 -0.0033321 0.0050904
-0.0041403 -0.00082953 -0.0028812 0.003024 -0.00037694 0.0021257 0.021307 -0.011636
-0.030041 0.224 0.018785 -0.0012502
-0.0011513 0.0042294 -0.0015525 0.0020689 -0.00094686 0.00039045 -0.0033224 0.0050351
0.018816 -0.0012665 -0.034905 0.30634
1220000000 0.12423 0.28913 0.01057 -0.030889 -0.0017998 -0.00066233 8.79e-05 -0.00090488
-0.0027764 0.0022031 0.0012435 0.0022457
0.010562 -0.030851 -0.046834 0.38896 -0.017842 -0.022058 -0.0027738 0.00055309
0.00011436 0.0033806 -0.00075723 0.0021158
-0.0017779 -0.00066518 -0.017939 -0.022015 0.28371 0.20492 0.00088187 0.0018556
0.00072813 0.0012443 0.00025913 0.00052898
7.9363e-05 -0.00089477 -0.0027809 0.00055863 0.00087329 0.0018689 0.072742 0.27448
0.010429 -0.018517 0.0016558 0.0016207
-0.0027514 0.0022802 0.00014002 0.0033558 0.00071458 0.0012297 0.010419 -0.018535
-0.0063875 0.23279 0.013668 -0.014069
0.0011985 0.0022594 -0.00074406 0.0021097 0.00027129 0.00052249 0.0016754 0.0016974
0.013695 -0.01405 -0.0028187 0.32031
1280000000 0.1746 0.26884 -0.0087414 -0.029398 -0.0020364 0.0027808 -0.00071368 -0.0020716
-0.00084305 0.0033605 0.0027132 0.0013016
-0.0086731 -0.029343 -3.1982e-05 0.38064 -0.025157 -0.0086872 -0.00094272 0.0016218
0.0020887 0.0019411 0.00077658 0.0019597
-0.0019788 0.0028239 -0.025225 -0.0085988 0.31355 0.16078 0.0017607 -0.0001101
0.0014149 0.00018171 0.00042902 0.00015836
-0.0007529 -0.0020714 -0.00092502 0.0016379 0.0017738 -0.00010379 0.10973 0.25799
-0.00032321 -0.020595 -0.0003589 0.00053449
-0.00085728 0.0033524 0.0020731 0.0019509 0.0014084 0.00018673 -0.00034901 -0.02055
0.030481 0.23557 0.0025801 -0.016787
0.0027168 0.0013087 0.00080908 0.0019777 0.00043884 0.00018982 -0.00039211 0.00053956
0.0025329 -0.01681 0.043415 0.3211
1340000000 0.21233 0.23607 -0.018726 -0.018911 0.0010207 0.0050493 -0.0018844 -0.001124
0.0015426 0.0027218 0.0018143 -0.0014992
-0.018665 -0.018868 0.040131 0.37243 -0.022525 0.0049245 1.5791e-05 0.002128
0.0021984 0.00054186 0.0013069 0.00079042
0.0010392 0.0050649 -0.022525 0.0050351 0.3348 0.11367 0.001155 -0.0010883
0.00066566 -0.00062037 0.00014597 0.00022727
-0.0018972 -0.0011024 1.9882e-06 0.0021215 0.0011493 -0.0010819 0.14294 0.23748
-0.010279 -0.016939 0.00069667 0.00084136
0.0016259 0.0026405 0.0022051 0.00050153 0.00068129 -0.00063003 -0.01029 -0.016976
0.060712 0.23086 -0.0051321 -0.014717
0.0018493 -0.0014733 0.0013335 0.00078231 0.00015188 0.00026397 0.00074127 0.00079312
-0.0050975 -0.01468 0.082556 0.31526
1400000000 0.24658 0.19876 -0.024417 -0.0066974 0.0056593 0.0035232 -0.0023578 0.00065276
0.0026023 0.0011073 0.00022443 -0.001648
-0.02438 -0.0066819 0.077927 0.35929 -0.015264 0.013519 0.0014784 0.0012137
0.001312 -0.0010852 0.0011591 3.4115e-05
0.005695 0.0035385 -0.015235 0.013605 0.34755 0.061323 -7.441e-05 -0.0017802
5.843e-05 -0.00040515 0.00031117 0.00028181
-0.0023672 0.00063923 0.0014939 0.0012037 -6.4268e-05 -0.0017831 0.1726 0.20815
-0.016339 -0.0091362 -0.00072842 0.00021697
0.0025778 0.001058 0.0012898 -0.0011104 5.5637e-05 -0.00038467 -0.016381 -0.0091098
0.094285 0.22608 -0.011497 -0.0091048
0.00021163 -0.0016409 0.0011592 3.7532e-05 0.00029153 0.00026191 -0.00074733 0.000205
-0.011528 -0.0091413 0.12591 0.30307
1460000000 0.26996 0.15472 -0.020588 0.0060734 0.0063181 -0.0018378 -0.0015969 0.0018001
0.0024066 -0.00060921 -0.00052896 -0.0010048
-0.020578 0.0060405 0.1121 0.33686 -0.005805 0.016497 0.001713 1.4741e-05
0.00061306 -0.0014869 0.0011586 -0.00061348
0.006316 -0.001869 -0.0057297 0.016538 0.35406 0.0082033 -0.0014285 -0.0012481
6.9663e-05 -0.00023013 0.00072779 -0.00027467
-0.0015906 0.0018337 0.0017082 2.1581e-05 -0.0014456 -0.0012462 0.19903 0.17853
-0.016987 -0.0013095 -0.0005775 0.0022516
0.0024727 -0.0006231 0.0005941 -0.0015248 8.1987e-05 -0.00025756 -0.017026 -0.0012806
0.12381 0.21136 -0.013658 -0.0024177
-0.000519 -0.0010074 0.001156 -0.00063438 0.00074405 -0.00027577 -0.00055286 0.0022596
-0.01363 -0.0024112 0.15897 0.28225
1520000000 0.28275 0.1131 -0.01424 0.011452 0.0038516 -0.0045975 0.00021726 0.0026863
0.0021925 -0.0022004 -0.0012059 -0.00018084
-0.014236 0.011426 0.14528 0.32219 0.0023612 0.013676 0.0015203 -0.00084963
-0.00018134 -0.0010248 0.00030021 -0.0010616
0.0037728 -0.004588 0.0024238 0.013669 0.34808 -0.046785 -0.0011986 -0.00018231
0.0006205 -0.00093327 0.0001942 -0.0001683
0.00022308 0.0026997 0.0015169 -0.00086624 -0.0011946 -0.00018671 0.22234 0.14005
-0.01497 0.004987 0.0018751 0.0021798
0.0021638 -0.0022028 -0.00019707 -0.0010282 0.00060596 -0.00091342 -0.014977 0.0050373
0.1522 0.19755 -0.012829 0.002974
-0.0011913 -0.00018105 0.000276 -0.0010544 0.00017738 -0.000173 0.0018622 0.002154
-0.012814 0.0029574 0.19102 0.26062
1580000000 0.29248 0.066596 -0.0069682 0.0141 -0.00080995 -0.0055457 0.0017088 0.0019291
-0.00031831 -0.0023594 -0.00025008 0.00042412
-0.0069716 0.014078 0.17214 0.29737 0.0062038 0.0082422 0.00043736 -0.0015631
-0.00060952 -0.00080699 -0.00026893 -0.00083686
-0.00084091 -0.0055241 0.0062575 0.0082128 0.32937 -0.10415 -0.0015288 0.00066562
-0.00035724 -0.0012273 0.00018677 -0.0006115
0.0017042 0.0019235 0.00042656 -0.0015628 -0.0015243 0.0006619 0.23576 0.10013
-0.010247 0.0094149 0.0024905 0.00046547
-0.00030333 -0.0023365 -0.00062316 -0.00079742 -0.00035993 -0.001232 -0.010225 0.0094287
0.17663 0.179 -0.0095668 0.0086832
-0.00016917 0.00044235 -0.00027232 -0.00083887 0.00016087 -0.00061275 0.0025196 0.00051825
-0.0095561 0.0086608 0.22194 0.23414
1640000000 0.29457 0.025548 -5.1751e-05 0.012195 -0.003125 -0.0030818 0.0028026 0.00090389
-0.0010325 -0.0015874 -0.00027348 0.00054114
-4.7853e-05 0.012194 0.20109 0.27311 0.0064663 0.0029481 -0.00066522 -0.0017041
-0.00083855 -0.00022929 -0.00054328 -0.00065475
-0.0031222 -0.0030888 0.0064892 0.0029145 0.3019 -0.15341 -0.00054759 0.0014793
-0.0012013 -0.00094712 -0.00022803 -0.00041199
0.0028089 0.00092808 -0.00067013 -0.0017087 -0.00054366 0.0014804 0.24768 0.051497
-0.0052029 0.0097182 0.0027007 -0.00098007
-0.0010419 -0.0015896 -0.00083894 -0.00022922 -0.0011871 -0.00094004 -0.0051866 0.0097681
0.19997 0.15445 -0.0042715 0.010754
-0.00025733 0.00058872 -0.00055632 -0.00065823 -0.00022254 -0.00042734 0.0026919 -0.0010394
-0.0043146 0.010733 0.24708 0.20318
1700000000 0.28748 -0.019441 0.0030573 0.0086474 -0.0040116 -0.00018299 0.0030909 -0.0013395
-0.0021305 -0.00047329 0.00059763 0.00026699
0.0030179 0.0086284 0.21909 0.24232 0.0042215 -0.00010247 -0.0014338 -0.00053483
-0.00062634 -3.6357e-05 -0.00093744 -0.00047063
-0.0040194 -0.00016808 0.0042197 -0.00012673 0.2594 -0.19348 0.00049292 0.0014636
-0.0019771 2.005e-05 -0.00044336 -0.00098606
0.0030813 -0.0013488 -0.0014497 -0.00053834 0.00050528 0.0014571 0.24423 0.0018001
-0.0024359 0.0090454 0.001623 -0.0024323
-0.0021343 -0.0004275 -0.00063807 -2.6954e-05 -0.0019673 5.0015e-05 -0.0023643 0.0090292
0.217 0.13347 0.00081021 0.010717
0.00061266 0.00027641 -0.00090603 -0.00044213 -0.00048475 -0.0010101 0.0016048 -0.0023831
0.00085173 0.010696 0.26335 0.16893
1760000000 0.27582 -0.067697 0.0047333 0.0050086 -0.0027776 0.0010838 0.001096 -0.0035036
-0.0014224 0.00085075 0.00025308 -0.00062799
0.0047442 0.0050084 0.24514 0.20338 0.0015659 -0.0018517 -0.001154 0.00016584
-0.00097227 0.00071159 -0.00063069 0.00037953
-0.0027499 0.0011403 0.0015473 -0.0018763 0.21155 -0.22693 0.0012085 0.0011167
-0.0012251 0.0016016 -0.0013356 -0.00065261
0.0011252 -0.0035132 -0.0011641 0.00016748 0.0011985 0.0011143 0.23513 -0.049284
0.00022446 0.0072516 -0.00021815 -0.0028341
-0.0013712 0.00085403 -0.00098631 0.00072041 -0.001234 0.0016005 0.00020524 0.0072536
0.23173 0.098415 0.0051107 0.0074887
0.00020684 -0.00068519 -0.00061995 0.00037244 -0.0013088 -0.00067467 -0.00014858 -0.0028458
0.0051025 0.0074591 0.27597 0.13143
1820000000 0.25186 -0.10459 0.0041315 0.00151 -0.00051466 0.0025798 -0.0012033 -0.0030991
-0.00092162 0.0010488 -0.00019813 -1.5133e-05
0.0041494 0.0015381 0.25577 0.1741 -0.00088215 -0.0007 -0.0013402 0.00090763
-0.00019794 0.0011031 -0.00066655 0.00061062
-0.00052765 0.0026407 -0.00089657 -0.00069907 0.16122 -0.24359 0.001367 0.00046006
-8.0606e-05 0.0024345 -0.0017152 0.00049955
-0.0011596 -0.003113 -0.0013435 0.00091519 0.0014016 0.00047752 0.20552 -0.096227
0.0007967 0.0055369 -0.0018276 -0.0017539
-0.00089792 0.0010302 -0.00019069 0.0010995 -7.8592e-05 0.0024485 0.00083982 0.0056047
0.24842 0.069196 0.0057256 0.0035261
-0.00019291 -6.428e-06 -0.00065954 0.00060512 -0.0017404 0.00046909 -0.0018605 -0.0017903
0.0057563 0.0035565 0.2781 0.094914
1880000000 0.21751 -0.14501 0.0016347 -0.00034796 -0.0005154 0.0023967 -0.0028701 -0.0020728
-4.3428e-05 0.0018091 0.00016363 -0.0005644
0.0016428 -0.0003735 0.26102 0.12798 -0.002909 0.0014572 -0.00018808 0.0017653
0.00038106 0.0013558 0.00012942 0.00090116
-0.00047396 0.0023799 -0.0028996 0.0014808 0.10903 -0.25387 0.0019902 -0.00070414
0.0016853 0.0019616 -0.00096996 0.0016003
-0.0028921 -0.0019953 -0.00019211 0.0017743 0.0019826 -0.0007022 0.165 -0.13673
0.0005795 0.0040209 -0.0026973 0.00012802
-4.8286e-05 0.00186 0.00041107 0.0013572 0.0016786 0.0019639 0.00060714 0.0038977
0.25145 0.037445 0.0059195 0.0008854
0.00017172 -0.00059505 0.00010641 0.00089521 -0.00096425 0.0016254 -0.0026618 0.00020256
0.0059302 0.00084281 0.27769 0.060602
1940000000 0.17849 -0.17079 -0.00085499 -0.0014901 0.0014923 0.0024986 -0.0037428 0.0005522
0.0013502 0.0010549 -0.00038381 -0.00036235
-0.00085794 -0.0015235 0.26242 0.09641 -0.0018454 0.0041848 0.001016 0.0014554
0.0017864 0.00075947 0.0011022 0.00044204
0.0014741 0.0024807 -0.0018291 0.0041934 0.062679 -0.24685 0.00059651 -0.0021607
0.0026022 0.0003041 0.00078968 0.0017931
-0.0037374 0.0005503 0.0010224 0.0014489 0.00059707 -0.0021322 0.11285 -0.16702
-0.00031945 0.0032266 -0.0017207 0.0015512
0.001358 0.0010153 0.001785 0.00073557 0.0025957 0.00031667 -0.00037974 0.0033287
0.25399 -0.00065204 0.0042474 -0.0028336
-0.00038487 -0.00036151 0.0011617 0.00043795 0.0008614 0.0017596 -0.0016962 0.0014574
0.0042115 -0.0028557 0.26632 0.024173
2000000000 0.13293 -0.18595 -0.0045 0.00084069 0.002861 0.0016263 -0.0024081 0.0038123
0.0011247 0.00029322 -0.00055559 0.00053301
-0.0044712 0.00084815 0.2492 0.060575 -0.0010839 0.0060745 0.0016214 0.00048099
0.0014811 -0.0008943 0.00054058 6.0356e-05
0.002873 0.0015771 -0.001048 0.0061042 0.019567 -0.23326 -0.0014051 -0.0014914
0.0020878 -0.0012818 0.0018418 0.0011556
-0.0024076 0.0037572 0.0016292 0.00047652 -0.0014073 -0.0015203 0.059813 -0.17757
-0.0017518 0.0034975 -0.00038933 0.0021738
0.0010191 0.0003321 0.0014713 -0.00090532 0.002108 -0.0012866 -0.001666 0.0034854
0.24861 -0.033613 0.00080743 -0.0039071
