!Keysight Technologies,M9804A,MY58100912,A.14.10.03
!Date: Thursday, April 27, 2023 10:28:33
!Correction: S11(C  6-Port  ) 
!S12(C  6-Port  ) 
!S13(C  6-Port  ) 
!S14(C  6-Port  ) 
!S15(C  6-Port  ) 
!S16(C  6-Port  ) 
!S21(C  6-Port  ) 
!S22(C  6-Port  ) 
!S23(C  6-Port  ) 
!S24(C  6-Port  ) 
!S25(C  6-Port  ) 
!S26(C  6-Port  ) 
!S31(C  6-Port  ) 
!S32(C  6-Port  ) 
!S33(C  6-Port  ) 
!S34(C  6-Port  ) 
!S35(C  6-Port  ) 
!S36(C  6-Port  ) 
!S41(C  6-Port  ) 
!S42(C  6-Port  ) 
!S43(C  6-Port  ) 
!S44(C  6-Port  ) 
!S45(C  6-Port  ) 
!S46(C  6-Port  ) 
!S51(C  6-Port  ) 
!S52(C  6-Port  ) 
!S53(C  6-Port  ) 
!S54(C  6-Port  ) 
!S55(C  6-Port  ) 
!S56(C  6-Port  ) 
!S61(C  6-Port  ) 
!S62(C  6-Port  ) 
!S63(C  6-Port  ) 
!S64(C  6-Port  ) 
!S65(C  6-Port  ) 
!S66(C  6-Port  ) 
!S6P File: Measurement: :
# Hz S  RI   R 50
500000000 -0.33614 -0.051485 -0.010491 -0.0010739 -0.0087116 0.013724 -0.0044751 0.012659
0.012013 0.0050441 -0.0041406 0.008874
-0.01047 -0.0010715 -0.41711 -0.061847 0.0076755 -0.010449 0.00097149 0.012587
0.0079145 0.0027676 0.00071085 0.013978
-0.0086837 0.013744 0.0076813 -0.010474 -0.26795 0.20033 0.0066081 0.0038174
-0.0021721 0.009101 0.00026472 0.012584
-0.0044554 0.012652 0.00098583 0.012629 0.0066018 0.0038311 -0.33418 0.044543
-0.017319 -0.0049674 0.01404 0.025362
0.012065 0.0049848 0.0078559 0.0027017 -0.0022186 0.009117 -0.017293 -0.0049537
-0.25039 -0.19274 -0.024393 0.0042334
-0.0040423 0.0089062 0.00068839 0.014008 0.00020644 0.012604 0.014031 0.025354
-0.024376 0.0042305 -0.27663 -0.11659
560000000 -0.31825 0.11422 -0.024114 -0.064931 0.00076964 0.013298 0.0049637 0.011123
0.0099247 0.0048583 0.010807 0.0090369
-0.024071 -0.064828 -0.37485 0.10241 -0.043641 -0.037304 0.014753 0.0036186
-0.015325 -0.0052864 0.0052645 -0.00037975
0.00082625 0.013245 -0.043786 -0.037252 -0.18555 0.25165 -0.00012349 -0.0037357
0.021106 0.0050307 0.0069036 -0.0044172
0.0049499 0.011048 0.014804 0.0036291 -0.00013169 -0.0038001 -0.30723 0.13567
0.003865 -0.024018 0.0049336 -0.02121
0.0099763 0.0048118 -0.015509 -0.005407 0.021256 0.0050235 0.0037916 -0.023994
-0.30705 -0.0093825 0.0049942 -0.048571
0.010791 0.0089939 0.0053388 -0.00035601 0.0068536 -0.0044103 0.0049057 -0.021189
0.0050474 -0.048583 -0.33131 0.029661
620000000 -0.27737 0.09402 -0.023319 0.0091629 0.0034497 0.010271 0.0085505 -0.0043122
0.012543 -0.0012601 0.0019484 -0.0015936
-0.023287 0.0091558 -0.40387 0.050815 -0.018534 0.0010806 -0.0013986 -0.0023069
0.012758 -0.0057328 0.0012189 -0.0031874
0.0034504 0.010253 -0.018566 0.0011319 -0.1557 0.2628 -0.0010937 -0.0052978
-0.0020727 -0.0024983 0.0091877 -0.0034109
0.0085832 -0.0042692 -0.0014579 -0.0023208 -0.0011307 -0.0052785 -0.26604 0.14788
-0.037468 -0.019951 0.01226 0.027411
0.012491 -0.0013845 0.01285 -0.0057731 -0.0020498 -0.0024463 -0.037537 -0.019939
-0.23397 -0.044381 -0.038886 0.011402
0.0019568 -0.0015616 0.0012933 -0.0031701 0.0091807 -0.0035091 0.012317 0.027274
-0.038887 0.011407 -0.25389 -0.0025537
680000000 -0.23896 0.1858 -0.026504 -0.013845 0.0054527 0.0054444 0.0015739 -0.0073895
-0.0021686 -0.011668 0.0055079 -0.0070873
-0.026476 -0.013832 -0.38948 0.15131 -0.032379 -0.001729 -0.0013081 -0.00070741
-0.0018757 -0.0098216 -0.0011849 -0.0017499
0.0054733 0.0054398 -0.032427 -0.0016575 -0.1033 0.2818 -0.00095594 -0.00043235
-0.0016617 -2.9798e-05 -0.0030111 -0.0093654
0.0015962 -0.0073847 -0.0013263 -0.00070793 -0.00095795 -0.00042966 -0.22069 0.19773
-0.023854 -0.0068417 -0.0091212 -0.010621
-0.0021343 -0.011753 -0.0018699 -0.0098254 -0.0015689 -4.7715e-05 -0.023887 -0.006858
-0.27912 0.058922 -0.0077345 -0.0067951
0.0055325 -0.007208 -0.0011509 -0.0017498 -0.0029907 -0.009394 -0.0091446 -0.010631
-0.0077273 -0.0067681 -0.25845 0.09899
740000000 -0.19357 0.17866 -0.039085 0.027096 0.014007 -0.0048857 -0.00022059 -0.0040526
-0.0041253 -0.0032017 -0.0068165 0.0038156
-0.039077 0.02707 -0.33464 0.16968 -0.036417 0.035437 -0.0006736 -0.0060404
-0.011633 0.0068159 -0.0023571 -0.0060942
0.014013 -0.004931 -0.036361 0.035566 -0.069903 0.27882 -0.0020745 0.0031915
-0.00278 -0.004936 -0.0012817 0.00063455
-0.00017502 -0.0040765 -0.0006624 -0.0060678 -0.0020632 0.0031714 -0.20358 0.20511
-0.042251 -0.0067246 0.022051 0.014091
-0.0040846 -0.0032195 -0.011623 0.0069002 -0.0028815 -0.0049589 -0.042291 -0.0066545
-0.1808 0.082968 -0.041644 0.002474
-0.0068542 0.0038702 -0.0023889 -0.0061297 -0.0012714 0.00066222 0.0221 0.014039
-0.04163 0.0024789 -0.24714 0.1056
800000000 -0.16035 0.22276 -0.022032 0.016743 0.0060587 -0.010638 -0.0044124 -0.0020934
-0.0042862 0.0027127 0.0039595 0.00069498
-0.022026 0.01671 -0.34033 0.24037 -0.0082402 0.034356 -0.0023174 0.0020117
-0.0012221 0.0032728 0.00067757 0.0054305
0.0060325 -0.010655 -0.008135 0.034412 -0.03082 0.30246 0.00078537 0.001536
-2.5181e-05 0.003511 -0.0018356 0.0012093
-0.0044337 -0.0020712 -0.0023241 0.0020125 0.00077555 0.0015355 -0.17345 0.23303
-0.028217 0.013222 0.013638 -0.010026
-0.0042282 0.0027187 -0.0012155 0.0032877 1.456e-05 0.0035447 -0.02822 0.013276
-0.21959 0.11483 -0.016251 0.019529
0.0039672 0.00068483 0.00068812 0.0053902 -0.0017973 0.0011911 0.01363 -0.010064
-0.016279 0.019494 -0.23975 0.15532
860000000 -0.12585 0.24176 -0.017443 0.030334 -0.0027136 -0.010579 -0.0018377 0.00068336
0.0036667 0.0050152 -0.0034876 -0.0023434
-0.017454 0.030306 -0.2923 0.28246 0.0077226 0.034783 0.00015897 0.002107
0.0035918 0.00075689 0.0034889 0.00063451
-0.0027489 -0.010563 0.0078424 0.034787 0.016291 0.31091 -0.00060141 -5.3208e-06
0.0021654 -0.0012226 0.0019152 0.0039569
-0.0018455 0.00067205 0.00016314 0.0020976 -0.00061174 1.402e-06 -0.13751 0.2431
-0.017916 0.018194 -0.0061465 -0.0086473
0.0036874 0.0049985 0.0035829 0.00074653 0.0021639 -0.0012053 -0.017914 0.018254
-0.16452 0.16322 -0.023928 0.0178
-0.0035282 -0.0023344 0.0035281 0.00061876 0.0019328 0.0039646 -0.0061521 -0.0086667
-0.02393 0.017759 -0.18763 0.19849
920000000 -0.10264 0.26468 0.0047553 0.037908 -0.0096331 -0.0054916 -0.0019923 0.00162
0.00092674 0.0022764 0.0032568 -0.0013358
0.0047231 0.037865 -0.26549 0.30353 0.028434 0.022671 0.0014105 0.0013985
0.0075657 -5.6894e-05 0.0043639 -0.0027659
-0.0096507 -0.0054619 0.028551 0.022603 0.061651 0.31266 0.0019645 0.00011814
0.0011039 -0.00018497 0.0010143 -0.001433
-0.0019702 0.0016196 0.0014183 0.0014053 0.0019602 0.00010837 -0.11235 0.25999
-0.010393 0.030862 0.0036239 -0.0070943
0.00097056 0.0022547 0.0075725 -6.0175e-05 0.0010885 -0.00020677 -0.010342 0.030899
-0.15283 0.17118 -0.00082792 0.026467
0.0032396 -0.0013736 0.0043501 -0.0027621 0.0009677 -0.001381 0.0036124 -0.007122
-0.00086997 0.026436 -0.19355 0.2126
980000000 -0.056227 0.28451 0.017057 0.030164 -0.0098124 0.0041501 0.0016018 0.0036594
0.0043554 -0.0016899 -0.0032175 -0.0022139
0.017011 0.030157 -0.21248 0.33839 0.033866 0.0052718 0.0020751 -0.00012527
0.0020803 -0.0062712 -0.00023773 -0.0026281
-0.0098228 0.0041771 0.033942 0.0051588 0.10778 0.30724 0.00063379 -0.0012024
0.00038747 -0.0020543 0.0013532 -0.00034826
0.0016187 0.0036656 0.0020994 -0.00013345 0.00063157 -0.0011941 -0.074394 0.27086
0.0080767 0.030014 -0.0091875 -0.0068533
0.0043123 -0.0017316 0.0020292 -0.0063164 0.00038328 -0.0020577 0.0081466 0.030006
-0.11706 0.19863 0.0061391 0.019707
-0.0032213 -0.0021939 -0.00028222 -0.0026681 0.0013445 -0.00033967 -0.0091884 -0.0068353
0.0061015 0.019709 -0.15093 0.25596
1040000000 -0.015078 0.29354 0.033142 0.018743 -0.0018481 0.007106 0.0025313 0.00092449
0.00041714 -0.0033581 -0.00027731 -0.0015851
0.033101 0.018745 -0.17768 0.3522 0.030471 -0.01508 0.0016772 -0.0018564
-0.0020029 -0.0029651 -0.0011189 -0.0028834
-0.0018337 0.0071144 0.03046 -0.015221 0.15395 0.29463 -0.00055214 -0.0016803
-0.0016798 -0.0010275 -0.00058999 -0.0010669
0.0025348 0.00091274 0.0016952 -0.0018671 -0.00054666 -0.0016834 -0.046946 0.28056
0.020155 0.018438 -0.0025914 0.00086366
0.00043016 -0.0033787 -0.0019921 -0.0029437 -0.0016483 -0.0010119 0.020206 0.018424
-0.084532 0.20452 0.014933 0.01778
-0.00027866 -0.0015633 -0.0011245 -0.00285 -0.0005983 -0.0010486 -0.0025723 0.00086287
0.014931 0.01777 -0.12776 0.27522
1100000000 0.029559 0.30244 0.036591 -0.0039124 0.0026799 0.0042806 0.0023982 -0.0010894
-0.0018664 -0.0032639 -0.0041857 -0.00021895
0.036565 -0.0038866 -0.13467 0.37036 0.015928 -0.028743 3.594e-05 -0.0018974
-0.003879 -0.001144 -0.0038012 -0.00057299
0.0026903 0.0042772 0.015846 -0.028842 0.20095 0.27512 -0.0020499 0.000163
-0.0018312 0.00048608 -0.0011714 -0.00032845
0.0023906 -0.0011084 2.876e-05 -0.001909 -0.0020342 0.00016649 -0.0066595 0.28534
0.02596 0.004551 -0.0026 -3.5651e-05
-0.0018652 -0.0032528 -0.0038961 -0.001132 -0.0018299 0.00048972 0.025989 0.0045074
-0.063823 0.21749 0.020429 0.0075459
-0.0041827 -0.00022012 -0.0038125 -0.00054774 -0.0011624 -0.00033272 -0.0025933 -2.9119e-05
0.020414 0.0075284 -0.082307 0.30314
1160000000 0.080445 0.29872 0.024556 -0.021212 0.0027132 -0.00031032 -5.1655e-05 -0.002189
-0.0041321 -0.00076548 -0.00094805 0.0040707
0.024563 -0.021179 -0.091315 0.37573 -0.0038544 -0.030346 -0.0017182 -0.0017281
-0.0030509 0.0029569 -0.0014967 0.0020482
0.0026999 -0.00033278 -0.0039708 -0.030371 0.24463 0.24422 -0.00079881 0.0019724
-0.00048136 0.0021168 -0.00092371 0.00034636
-5.1822e-05 -0.0022001 -0.0017226 -0.0017058 -0.0007948 0.0019754 0.032352 0.28277
0.021429 -0.011829 -0.0033402 0.0050128
-0.0041372 -0.00075986 -0.0030395 0.003001 -0.00048251 0.0021264 0.021434 -0.011858
-0.029711 0.22415 0.018833 -0.0013641
-0.00092419 0.0040691 -0.0014971 0.0020406 -0.00091413 0.0003497 -0.0033244 0.0050217
0.018842 -0.0013626 -0.035242 0.30644
1220000000 0.12451 0.2892 0.01062 -0.03088 -0.0017895 -0.00068442 0.00012715 -0.00089397
-0.0027514 0.0022163 0.0011322 0.0022142
0.010624 -0.030844 -0.046627 0.38902 -0.017825 -0.022066 -0.0027752 0.00055012
0.00014501 0.0033382 -0.00081897 0.0020676
-0.0017941 -0.00068259 -0.017927 -0.022017 0.28376 0.20492 0.00087272 0.0018159
0.00072932 0.001244 0.00020966 0.0005251
0.00011962 -0.00089792 -0.0027716 0.0005682 0.00087016 0.0018389 0.072766 0.27441
0.010396 -0.018642 0.0016039 0.0016494
-0.0027398 0.0022304 0.0001282 0.0033698 0.00072374 0.0012441 0.010368 -0.018663
-0.0061773 0.23262 0.013777 -0.014129
0.0011493 0.0022254 -0.00081001 0.0020883 0.00021603 0.00052887 0.0016083 0.0016459
0.013779 -0.014121 -0.0029405 0.32019
1280000000 0.17492 0.26882 -0.0086678 -0.029434 -0.0020136 0.0027734 -0.00074194 -0.0020193
-0.00084669 0.0033611 0.0026834 0.001297
-0.0086467 -0.029402 0.0001505 0.38064 -0.025152 -0.0086924 -0.00095596 0.0016463
0.0019919 0.0020112 0.00085979 0.0020579
-0.0020066 0.0027751 -0.025222 -0.0085838 0.31369 0.1608 0.0017715 -9.8287e-05
0.0014024 0.00016142 0.0004565 0.00022304
-0.00074444 -0.0020234 -0.00095328 0.0016581 0.0017635 -9.3749e-05 0.1097 0.25789
-0.00033736 -0.020715 -0.00042575 0.00041932
-0.0008395 0.003361 0.0020085 0.0020089 0.001397 0.0001586 -0.00037794 -0.020724
0.030681 0.23543 0.0026944 -0.016777
0.0026963 0.0012748 0.0008634 0.0020517 0.00044945 0.00021342 -0.00043807 0.00042814
0.0026861 -0.016764 0.043335 0.3211
1340000000 0.21266 0.23594 -0.018667 -0.018984 0.00099867 0.0050345 -0.0018667 -0.0011054
0.0016217 0.0027783 0.0017854 -0.0015469
-0.018632 -0.018975 0.040256 0.3724 -0.022517 0.0049038 3.8105e-05 0.0021226
0.0022414 0.00052255 0.0012955 0.00078906
0.0010179 0.0050275 -0.02252 0.0050199 0.3349 0.11363 0.0011949 -0.0011035
0.00070482 -0.00060097 0.00018707 0.00023758
-0.0018782 -0.0010906 5.4223e-05 0.0021097 0.0011902 -0.0011143 0.14287 0.23747
-0.010491 -0.017058 0.00065853 0.00091798
0.0016363 0.0027776 0.0022597 0.00051422 0.00072172 -0.00060136 -0.010529 -0.017049
0.060855 0.23047 -0.0051451 -0.014839
0.001775 -0.0015596 0.0013107 0.0007857 0.00018429 0.00024106 0.00065403 0.00092879
-0.0051401 -0.014835 0.08255 0.31524
1400000000 0.24678 0.19849 -0.024432 -0.0067579 0.0056131 0.0034752 -0.0023407 0.00066151
0.0025382 0.0010997 0.0003032 -0.0015984
-0.024396 -0.00677 0.078076 0.35927 -0.01528 0.013501 0.0014784 0.00121
0.0012888 -0.0010602 0.001217 3.8078e-05
0.0056344 0.0034422 -0.015238 0.013596 0.34767 0.061254 -6.9863e-05 -0.0017565
9.1824e-05 -0.0003721 0.00029617 0.00025081
-0.0023458 0.00067161 0.0014834 0.0011939 -7.0597e-05 -0.0017568 0.17265 0.20817
-0.016565 -0.0090959 -0.0006966 9.8974e-05
0.0025375 0.0010763 0.0012944 -0.0010734 9.2221e-05 -0.00037026 -0.016594 -0.0090625
0.094284 0.22577 -0.011535 -0.009105
0.00028894 -0.0016043 0.0012112 3.4664e-05 0.00029589 0.00024193 -0.00070363 9.9592e-05
-0.011516 -0.00912 0.12585 0.30296
1460000000 0.2701 0.15441 -0.02062 0.0059832 0.0062849 -0.0018679 -0.0015741 0.0018477
0.0024836 -0.00055717 -0.00054599 -0.0010384
-0.020602 0.0059621 0.11226 0.33685 -0.005812 0.016447 0.0017006 5.4785e-05
0.00064415 -0.0015526 0.0011276 -0.00061052
0.0062791 -0.0018968 -0.005738 0.016484 0.35416 0.0081068 -0.001405 -0.0012177
0.00012063 -0.00025289 0.000691 -0.00028743
-0.0015661 0.001856 0.0017099 3.3265e-05 -0.0013944 -0.0012142 0.19903 0.17847
-0.017211 -0.0011684 -0.00061015 0.0022325
0.002492 -0.00055686 0.00063142 -0.0015717 0.00011249 -0.00026138 -0.017224 -0.0011284
0.12369 0.21127 -0.013672 -0.0025591
-0.00056247 -0.0010338 0.0011046 -0.00062025 0.00067392 -0.00027386 -0.00060632 0.0022482
-0.013667 -0.0025642 0.15866 0.28215
1520000000 0.28286 0.11275 -0.014315 0.011434 0.0038071 -0.0045881 0.00018806 0.0027067
0.0022304 -0.0022497 -0.0012604 -0.00018488
-0.014311 0.011412 0.14539 0.32223 0.002336 0.013686 0.0015315 -0.00086281
-0.00019268 -0.0010345 0.00029751 -0.0010903
0.003782 -0.0045999 0.0024137 0.013687 0.34812 -0.046866 -0.0011919 -0.0001835
0.00062049 -0.00088821 0.00020145 -0.0002365
0.00019091 0.0027107 0.0015273 -0.00086435 -0.0011715 -0.00019766 0.22237 0.14007
-0.015042 0.0051738 0.0018246 0.0022221
0.0022275 -0.0022711 -0.0001953 -0.0010545 0.00062101 -0.00090499 -0.015044 0.0052266
0.15213 0.19723 -0.013043 0.0029602
-0.0012544 -0.00017431 0.00028384 -0.0010849 0.00020633 -0.00023333 0.0018317 0.0022177
-0.01304 0.0029555 0.19089 0.26078
1580000000 0.29251 0.066266 -0.0070622 0.014123 -0.00081589 -0.0054833 0.0016692 0.0019373
-0.00032949 -0.002342 -0.00021747 0.00041507
-0.0070624 0.014102 0.1723 0.29734 0.0061951 0.0082523 0.0004429 -0.0015483
-0.00062886 -0.00080779 -0.00028072 -0.00081573
-0.00084511 -0.0054682 0.0062452 0.008229 0.3294 -0.10429 -0.0015089 0.00068637
-0.00038723 -0.0012379 0.0002135 -0.00058271
0.0016853 0.0019308 0.00043798 -0.0015482 -0.0015057 0.00068603 0.23581 0.10015
-0.010257 0.0096527 0.0026281 0.00053724
-0.00033256 -0.0023425 -0.00064245 -0.00080578 -0.00037231 -0.0012421 -0.010237 0.0096833
0.17647 0.17894 -0.009662 0.0087312
-0.00020732 0.00041385 -0.00028577 -0.00081442 0.00021629 -0.00058523 0.0026241 0.00053585
-0.0096612 0.0087383 0.22185 0.23417
1640000000 0.29454 0.025293 -0.00011178 0.012256 -0.0031099 -0.0030473 0.002786 0.00092841
-0.0010485 -0.0016383 -0.00029489 0.00060701
-0.00013121 0.012257 0.20122 0.27311 0.0064866 0.0029534 -0.00067956 -0.0017338
-0.00087247 -0.0002398 -0.00055088 -0.0006254
-0.0031224 -0.0030213 0.0065075 0.0029224 0.3019 -0.15359 -0.00056694 0.0014598
-0.001233 -0.00096143 -0.00022598 -0.00032441
0.0027996 0.00091698 -0.00068699 -0.0017219 -0.00057097 0.001463 0.24769 0.051465
-0.0050319 0.0099013 0.002681 -0.00099153
-0.0010579 -0.0016415 -0.00087293 -0.00022971 -0.0012374 -0.0009519 -0.0050126 0.0099239
0.19984 0.15451 -0.004409 0.010742
-0.00028834 0.00061243 -0.00054687 -0.00062503 -0.00021636 -0.00034024 0.0026889 -0.0010021
-0.0044184 0.01075 0.24695 0.20346
1700000000 0.28746 -0.019739 0.003016 0.0087069 -0.004008 -0.00016748 0.003106 -0.0013574
-0.0021577 -0.00049059 0.00064826 0.00032428
0.0030026 0.0087027 0.21927 0.24228 0.004218 -0.00010428 -0.0014618 -0.00052446
-0.00064426 -4.7615e-07 -0.00088566 -0.00042126
-0.0040164 -0.00013715 0.0042256 -0.00011548 0.25948 -0.19359 0.00046285 0.0015067
-0.0019934 5.9012e-05 -0.00043035 -0.00093499
0.0031008 -0.0013604 -0.0014606 -0.00052615 0.000465 0.0015277 0.24428 0.0018491
-0.0021501 0.0090966 0.00165 -0.0024584
-0.0021793 -0.00046911 -0.00063867 6.0933e-06 -0.0019803 6.292e-05 -0.0021268 0.0091032
0.21709 0.13347 0.0006952 0.010748
0.00065234 0.00032377 -0.00088692 -0.00042289 -0.0004318 -0.00095619 0.0016382 -0.0024644
0.00069479 0.010754 0.26333 0.16912
1760000000 0.27575 -0.067822 0.0047441 0.0050849 -0.0027329 0.0010808 0.0011283 -0.0034894
-0.001441 0.00088831 0.00027194 -0.00060896
0.0047362 0.0050871 0.24531 0.20331 0.0016124 -0.0018563 -0.001177 0.0001158
-0.00098161 0.00070469 -0.00062656 0.0003793
-0.0027262 0.0010917 0.0016079 -0.0018673 0.21137 -0.22701 0.0011349 0.0010601
-0.001223 0.0015707 -0.0013497 -0.00065789
0.0011099 -0.0034974 -0.0011734 0.00011617 0.0011348 0.0010526 0.23513 -0.049249
0.00036478 0.0072038 -0.0001474 -0.0028455
-0.0014315 0.00090379 -0.00096903 0.00070719 -0.0012019 0.0015665 0.00038076 0.0072056
0.23166 0.098383 0.0051089 0.0076796
0.00026475 -0.00060189 -0.00062415 0.00037903 -0.001346 -0.00063508 -0.00015161 -0.002848
0.0051147 0.0076746 0.27596 0.13152
1820000000 0.25167 -0.10481 0.0041752 0.0015598 -0.00045324 0.0025638 -0.0011655 -0.0031032
-0.0009254 0.0010818 -0.00023311 -4.6916e-05
0.004177 0.0015685 0.25594 0.174 -0.0008964 -0.00072435 -0.0013315 0.00090878
-0.00018346 0.0010707 -0.00069194 0.00059678
-0.00043011 0.0025848 -0.00089689 -0.00071046 0.16117 -0.24372 0.0013786 0.00039115
-9.061e-05 0.0024587 -0.0017558 0.0005488
-0.0011722 -0.003091 -0.0013287 0.00091963 0.001392 0.00041375 0.20559 -0.096332
0.00098457 0.0054458 -0.001843 -0.0018283
-0.00091239 0.0011119 -0.00016565 0.0010616 -7.8122e-05 0.0024525 0.00099855 0.0054369
0.24857 0.069254 0.0057797 0.0035966
-0.00022096 -4.7516e-05 -0.00068193 0.00060108 -0.0017423 0.0005599 -0.0018368 -0.0018277
0.0057787 0.0035941 0.27799 0.094899
1880000000 0.21734 -0.14518 0.0016825 -0.00033051 -0.00052917 0.0024084 -0.0029322 -0.0020955
-7.9114e-05 0.0017855 0.00014807 -0.00055033
0.0016713 -0.00032327 0.2612 0.12785 -0.0029267 0.0014426 -0.00023265 0.0017179
0.00036408 0.0013384 0.00010448 0.00088853
-0.00052449 0.0024084 -0.0029158 0.0014558 0.10889 -0.25393 0.0019767 -0.00071572
0.0017174 0.0019656 -0.0010349 0.0015402
-0.002945 -0.0020792 -0.0002287 0.0017318 0.0019737 -0.00070457 0.16511 -0.13655
0.00076417 0.0037588 -0.0025835 4.9052e-05
-5.9418e-05 0.0017935 0.00037388 0.0013285 0.0017201 0.0019694 0.0007689 0.0037501
0.25173 0.037238 0.0059233 0.00091294
0.000127 -0.00056963 0.00011146 0.00087771 -0.0010288 0.0015228 -0.0025867 4.0921e-05
0.0059299 0.00090432 0.27765 0.060773
1940000000 0.17839 -0.17092 -0.00080469 -0.0014778 0.0015456 0.0024998 -0.0037147 0.00042326
0.0013658 0.0010068 -0.00044773 -0.00034666
-0.00080129 -0.0014756 0.26252 0.096245 -0.0018341 0.0041858 0.0010966 0.0014155
0.0017681 0.00073165 0.0010789 0.00045061
0.0015649 0.0024984 -0.0018091 0.0042018 0.062643 -0.24692 0.00065184 -0.0022025
0.0025776 0.0002605 0.00080024 0.001822
-0.0037142 0.00045299 0.0011034 0.0014056 0.00065411 -0.0021938 0.11272 -0.16717
-0.00063716 0.0031287 -0.0018062 0.0016427
0.0013735 0.00098833 0.0017723 0.0007202 0.0025758 0.00024381 -0.00062859 0.0031238
0.25381 -0.00066526 0.0043152 -0.0025998
-0.00044292 -0.00034285 0.0010719 0.00045513 0.00083141 0.0017778 -0.0017875 0.0016435
0.004322 -0.0026069 0.26633 0.024242
2000000000 0.13282 -0.1862 -0.0044862 0.000825 0.0028177 0.0015909 -0.0023582 0.003844
0.0011434 0.00037229 -0.00047695 0.00045424
-0.0044807 0.00082608 0.24927 0.060404 -0.0011557 0.0060647 0.0016758 0.00045927
0.0015039 -0.00086027 0.00057242 9.2228e-05
0.002817 0.0015678 -0.0011107 0.0060682 0.019358 -0.23323 -0.0013872 -0.0016423
0.0021345 -0.0013847 0.0018206 0.0010989
-0.0023704 0.0038686 0.0016783 0.00046376 -0.0013825 -0.0016097 0.059749 -0.17746
-0.00169 0.0034778 -0.00036896 0.0021832
0.0011369 0.00035262 0.0014912 -0.00087744 0.0021401 -0.0013842 -0.0016875 0.0034891
0.24888 -0.033641 0.0010214 -0.0039792
