!Keysight Technologies,M9804A,MY58100912,A.14.10.03
!Date: Thursday, April 27, 2023 10:28:33
!Correction: S11(C  6-Port  ) 
!S12(C  6-Port  ) 
!S13(C  6-Port  ) 
!S14(C  6-Port  ) 
!S15(C  6-Port  ) 
!S16(C  6-Port  ) 
!S21(C  6-Port  ) 
!S22(C  6-Port  ) 
!S23(C  6-Port  ) 
!S24(C  6-Port  ) 
!S25(C  6-Port  ) 
!S26(C  6-Port  ) 
!S31(C  6-Port  ) 
!S32(C  6-Port  ) 
!S33(C  6-Port  ) 
!S34(C  6-Port  ) 
!S35(C  6-Port  ) 
!S36(C  6-Port  ) 
!S41(C  6-Port  ) 
!S42(C  6-Port  ) 
!S43(C  6-Port  ) 
!S44(C  6-Port  ) 
!S45(C  6-Port  ) 
!S46(C  6-Port  ) 
!S51(C  6-Port  ) 
!S52(C  6-Port  ) 
!S53(C  6-Port  ) 
!S54(C  6-Port  ) 
!S55(C  6-Port  ) 
!S56(C  6-Port  ) 
!S61(C  6-Port  ) 
!S62(C  6-Port  ) 
!S63(C  6-Port  ) 
!S64(C  6-Port  ) 
!S65(C  6-Port  ) 
!S66(C  6-Port  ) 
!S6P File: Measurement: :
# Hz S  RI   R 50
500000000 -0.33417 -0.051873 -0.010453 -0.001448 -0.0083086 0.013017 -0.0042794 0.012304
0.012033 0.0047161 -0.0052098 0.0084294
-0.0099308 -0.0013808 -0.41742 -0.061989 0.007767 -0.010462 0.0014015 0.012357
0.0068777 0.0022705 0.00090403 0.013946
-0.0087252 0.012736 0.0077407 -0.010311 -0.26741 0.20068 0.0068874 0.003605
-0.0023046 0.0082252 0.00069023 0.012151
-0.0045603 0.012843 0.00079493 0.012944 0.0064473 0.0036061 -0.33266 0.044633
-0.018363 -0.0044999 0.016387 0.025292
0.012884 0.0060621 0.0078504 0.002768 -0.00159 0.0086961 -0.017875 -0.0048044
-0.2504 -0.19217 -0.026034 0.0053913
-0.0047818 0.0094089 0.00029851 0.014372 0.00040804 0.011937 0.015533 0.02525
-0.026589 0.0046294 -0.27406 -0.11551
560000000 -0.31738 0.11393 -0.023645 -0.064695 0.0012277 0.013195 0.005646 0.011379
0.010719 0.0046686 0.011169 0.0082809
-0.024594 -0.065196 -0.37579 0.10161 -0.042149 -0.037874 0.014129 0.003378
-0.013052 -0.0048229 0.0045073 -0.00071461
0.0013491 0.012707 -0.041896 -0.037357 -0.18587 0.25277 8.114e-05 -0.0040992
0.018652 0.0047879 0.0073849 -0.0049724
0.0054815 0.010766 0.013488 0.0027602 -3.1968e-05 -0.0045391 -0.30742 0.13528
0.0065661 -0.024221 0.004065 -0.021154
0.010593 0.0040154 -0.013405 -0.0043422 0.019545 0.0045898 0.0049315 -0.023405
-0.30995 -0.011988 0.0074573 -0.046025
0.011757 0.0080066 0.0039332 -0.00070414 0.0074533 -0.0039317 0.0050372 -0.021325
0.0078812 -0.046648 -0.33196 0.02951
620000000 -0.27694 0.094097 -0.022954 0.0089595 0.0040857 0.0098601 0.0080293 -0.0044213
0.011964 -0.0015347 0.0010915 -0.0027449
-0.023115 0.0089506 -0.40363 0.050754 -0.018146 0.00080019 -0.0016519 -0.0020703
0.0125 -0.0060496 0.0011374 -0.0029763
0.0040195 0.0098052 -0.018399 0.00094423 -0.15508 0.26213 -0.00074487 -0.0046446
-0.0039389 -0.0030154 0.0092855 -0.0023443
0.0092014 -0.0042734 -0.0013305 -0.0019907 -0.00018346 -0.0048294 -0.26564 0.14873
-0.038745 -0.019296 0.012507 0.027642
0.011761 -0.00097667 0.012162 -0.0062934 -0.003168 -0.003121 -0.03783 -0.020696
-0.23143 -0.04425 -0.040429 0.011571
0.0020344 -0.0018337 0.00076329 -0.0029456 0.0093783 -0.0028973 0.012478 0.02812
-0.041061 0.011974 -0.25366 -0.00097735
680000000 -0.23835 0.18529 -0.026409 -0.013878 0.0051226 0.0054382 0.0022137 -0.007637
-0.0021994 -0.012096 0.0055386 -0.0070573
-0.026281 -0.013984 -0.38956 0.15138 -0.032188 -0.0018261 -0.0011825 -0.00084813
-0.0020545 -0.0099492 -0.0012786 -0.0018317
0.0053515 0.0052878 -0.032218 -0.00167 -0.10319 0.28165 -0.00090065 -0.00092344
-0.0016433 -3.5621e-05 -0.002785 -0.0094829
0.0019505 -0.007072 -0.0013794 -0.00056949 -0.001023 -0.00056837 -0.22006 0.19751
-0.02316 -0.007256 -0.0095363 -0.011091
-0.0021028 -0.011719 -0.0015812 -0.0098632 -0.0015467 -0.00012118 -0.023538 -0.0074587
-0.27833 0.059279 -0.0067376 -0.0071912
0.0052406 -0.0068221 -0.0010832 -0.0017867 -0.0027991 -0.0091048 -0.0087673 -0.011964
-0.0066955 -0.0071753 -0.25853 0.10036
740000000 -0.19333 0.17838 -0.039345 0.026752 0.013642 -0.0051869 -0.00065941 -0.0040421
-0.0034645 -0.0032015 -0.0066039 0.0029193
-0.03892 0.027172 -0.33494 0.16987 -0.036437 0.034564 -0.00024064 -0.0062683
-0.012553 0.0071807 -0.0013576 -0.0064143
0.01364 -0.0049981 -0.036544 0.035076 -0.069373 0.27924 -0.0020206 0.0037883
-0.0024372 -0.0057423 -0.0014763 0.0014144
-0.00038729 -0.0042927 -0.00040975 -0.0058855 -0.0019689 0.0031532 -0.20287 0.20526
-0.043751 -0.007013 0.022444 0.014534
-0.0044466 -0.0025283 -0.012016 0.0065275 -0.0029647 -0.0051808 -0.042628 -0.0074192
-0.17832 0.083859 -0.041976 0.0014374
-0.0067443 0.003116 -0.0022463 -0.0056383 -0.0011636 0.0011762 0.022151 0.014882
-0.042631 0.00098717 -0.24813 0.10762
800000000 -0.1607 0.22223 -0.022255 0.016376 0.0058464 -0.010424 -0.0042258 -0.0022758
-0.0047446 0.0023133 0.0040782 0.0013831
-0.022348 0.016362 -0.34034 0.24018 -0.0083955 0.034087 -0.0023232 0.0020864
-0.0012316 0.0028152 0.00056911 0.0055558
0.0058113 -0.010442 -0.0082685 0.03416 -0.030447 0.30245 0.00082921 0.0014521
9.7514e-05 0.0037428 -0.0017384 0.00096824
-0.0045244 -0.0020166 -0.0022295 0.0021604 0.00073165 0.0016156 -0.17315 0.23267
-0.027995 0.013044 0.013742 -0.010277
-0.0043652 0.0023975 -0.001141 0.0028339 8.3484e-05 0.0035746 -0.028171 0.012951
-0.21994 0.11387 -0.016295 0.019974
0.0034286 0.0011853 0.00086021 0.0052644 -0.0018132 0.0012009 0.013848 -0.010569
-0.016226 0.020016 -0.23836 0.15457
860000000 -0.1264 0.24152 -0.017355 0.030332 -0.0028506 -0.010329 -0.0020113 0.00081561
0.0040701 0.004798 -0.0037283 -0.0022831
-0.017637 0.030282 -0.29216 0.28248 0.0074762 0.034248 4.9835e-05 0.002211
0.003609 0.00082533 0.0034313 0.00040278
-0.002869 -0.010449 0.0076158 0.034225 0.016654 0.31055 -0.0007071 1.4649e-06
0.0024547 -0.0014559 0.0018487 0.0043384
-0.0016478 0.00070225 0.00013841 0.0021486 -0.00069294 -2.0052e-05 -0.13708 0.24285
-0.01807 0.018377 -0.0067258 -0.0086675
0.0039185 0.0051106 0.0038841 0.0004778 0.0023635 -0.0012344 -0.018097 0.018156
-0.1643 0.16293 -0.023946 0.017694
-0.0029811 -0.0024905 0.0031148 0.00072084 0.0017246 0.0039991 -0.0063822 -0.0084008
-0.022545 0.018024 -0.18819 0.19893
920000000 -0.10303 0.26452 0.0045351 0.0377 -0.0094712 -0.0052555 -0.0018999 0.0014925
0.0010607 0.0018917 0.0030939 -0.001447
0.0044804 0.037961 -0.26523 0.30381 0.027978 0.022623 0.0015199 0.0013429
0.0074973 0.00018327 0.0045897 -0.0028053
-0.0094955 -0.0052204 0.028077 0.022487 0.061895 0.31213 0.0019473 9.0604e-06
0.001041 -1.9985e-05 0.00088866 -0.0013306
-0.0020832 0.0019037 0.0013838 0.0011883 0.0018536 1.1381e-05 -0.1121 0.2595
-0.010821 0.030288 0.0034355 -0.0067707
0.0012083 0.0022858 0.0079585 4.7733e-05 0.00095734 -0.00012013 -0.010645 0.030344
-0.15173 0.17081 -0.0013326 0.02657
0.0032127 -0.0014903 0.0043645 -0.0030323 0.00092802 -0.0013587 0.0035411 -0.0068401
-0.0014747 0.026561 -0.19383 0.21216
980000000 -0.056439 0.28452 0.016946 0.029986 -0.0095764 0.004091 0.0016937 0.0037154
0.0045409 -0.0015331 -0.0032787 -0.0026177
0.016809 0.030075 -0.21215 0.33833 0.033282 0.0053768 0.0020899 -5.1029e-05
0.0020978 -0.006016 -0.00040322 -0.0026416
-0.0095734 0.0041446 0.033364 0.0052469 0.10777 0.30646 0.00061433 -0.0011405
0.00045407 -0.002016 0.0013368 -0.00031727
0.0017277 0.0037906 0.0020612 -0.00013602 0.00064732 -0.0011267 -0.074281 0.27027
0.0075902 0.029839 -0.0090376 -0.0067735
0.0042993 -0.0015782 0.0020709 -0.0061845 0.00037413 -0.0020992 0.0074726 0.029742
-0.11705 0.19847 0.0058077 0.019669
-0.0029132 -0.0024563 -0.00017274 -0.0026538 0.0014076 -0.00021135 -0.0091984 -0.0069794
0.0061052 0.019324 -0.15053 0.25515
1040000000 -0.015279 0.29368 0.032789 0.018796 -0.001765 0.0069444 0.0026276 0.00087541
0.00027355 -0.0034488 -0.00030428 -0.0014162
0.032738 0.01874 -0.17728 0.35184 0.03008 -0.01467 0.001719 -0.0017816
-0.0018286 -0.0027291 -0.0011029 -0.0030399
-0.0017637 0.0070005 0.03001 -0.014718 0.15356 0.2938 -0.00051984 -0.001637
-0.0015491 -0.00087379 -0.00067496 -0.00096138
0.002585 0.00086946 0.0017202 -0.0017215 -0.0004774 -0.0016796 -0.047041 0.28004
0.019434 0.018174 -0.0025391 0.0010567
0.00039619 -0.0033591 -0.0018944 -0.0028245 -0.0015817 -0.0009282 0.019435 0.018298
-0.084446 0.20423 0.014584 0.01795
-0.00019451 -0.0015715 -0.001267 -0.0028401 -0.00065427 -0.0010614 -0.0023343 0.0011124
0.014175 0.017781 -0.12747 0.2753
1100000000 0.029707 0.30263 0.03616 -0.0035305 0.0027066 0.0041529 0.0024376 -0.0010631
-0.0020007 -0.0032154 -0.0040199 -0.00030007
0.036242 -0.0035924 -0.13437 0.36986 0.015908 -0.028107 0.00011995 -0.0018884
-0.0038539 -0.0010475 -0.0035991 -0.00076476
0.0026939 0.0041804 0.015765 -0.028099 0.20011 0.27443 -0.0019248 9.6424e-05
-0.0018933 0.00045838 -0.0010372 -0.00043327
0.0024308 -0.0010084 0.00015721 -0.0018647 -0.001924 0.0001247 -0.0069707 0.28486
0.024859 0.0051053 -0.0024943 0.00019532
-0.0021783 -0.0031834 -0.0036756 -0.0009094 -0.0018459 0.00044123 0.024881 0.0049132
-0.063818 0.2176 0.019704 0.007451
-0.0040293 -0.00013032 -0.0036103 -0.00059505 -0.0010127 -0.00038149 -0.0026133 -1.8808e-05
0.019855 0.0078637 -0.081666 0.30344
1160000000 0.080294 0.2987 0.024408 -0.020811 0.0026281 -0.00027472 2.5961e-05 -0.0023145
-0.0040607 -0.00069703 -0.00091193 0.004166
0.02438 -0.020715 -0.091136 0.37466 -0.0034818 -0.02982 -0.0015612 -0.0017496
-0.0028646 0.0026807 -0.0013908 0.0019343
0.0026173 -0.00030029 -0.0036192 -0.029798 0.24334 0.24408 -0.00089249 0.0018164
-0.00059529 0.0019621 -0.00090697 0.00039196
-4.6813e-05 -0.0022854 -0.001641 -0.0017398 -0.00079302 0.0018788 0.032026 0.28238
0.020829 -0.010682 -0.0032805 0.0051196
-0.0039759 -0.00062798 -0.0028712 0.0026928 -0.00059615 0.0020373 0.020785 -0.010612
-0.029282 0.22373 0.018265 -0.0012137
-0.0010662 0.0039629 -0.0015235 0.0018819 -0.0007904 0.00034002 -0.0032057 0.0050653
0.018128 -0.00087741 -0.035087 0.30616
1220000000 0.12458 0.28899 0.010787 -0.030284 -0.0017007 -0.00072549 3.2772e-05 -0.00099804
-0.0026952 0.0022982 0.0010749 0.0022352
0.010796 -0.030273 -0.046963 0.38804 -0.017151 -0.021875 -0.0027178 0.00047958
-3.6004e-05 0.0032525 -0.00089012 0.0019623
-0.0016879 -0.00068857 -0.017242 -0.021842 0.28257 0.20552 0.00080261 0.0017971
0.00065773 0.0012567 0.00022124 0.00049715
5.4497e-05 -0.00091391 -0.0027305 0.00045819 0.00076389 0.0018563 0.071976 0.27433
0.010625 -0.017292 0.0017913 0.0016448
-0.0027543 0.0022983 5.07e-05 0.0032282 0.00058527 0.0012718 0.010554 -0.01737
-0.0059247 0.23245 0.013514 -0.013656
0.0013344 0.0020908 -0.00079516 0.0020508 0.00020065 0.00055595 0.0017677 0.0016545
0.013558 -0.013465 -0.002774 0.31996
1280000000 0.17473 0.26848 -0.008039 -0.028897 -0.0019325 0.0026373 -0.00082781 -0.0021251
-0.00077601 0.0033213 0.0026433 0.001368
-0.0080028 -0.028886 -0.00086374 0.37968 -0.024436 -0.0089528 -0.0010253 0.0015455
0.0019066 0.0019511 0.00080726 0.0020019
-0.0019132 0.0026579 -0.02451 -0.0088638 0.31312 0.16183 0.0016525 -0.00011237
0.0013006 0.00025431 0.00046616 0.00028073
-0.00082796 -0.0021672 -0.00094701 0.0015529 0.0016865 -1.6346e-05 0.10918 0.25812
0.00046028 -0.019486 -0.00013728 0.00039959
-0.00078888 0.0032226 0.0019372 0.0018705 0.0013285 0.00022312 0.00045257 -0.019482
0.031 0.23445 0.002614 -0.015647
0.0025466 0.0013075 0.0007627 0.0021381 0.0004937 0.00021363 -0.00022013 0.00033221
0.0024943 -0.015891 0.043751 0.32036
1340000000 0.21232 0.2358 -0.017928 -0.019026 0.00096325 0.0048704 -0.0019373 -0.00094925
0.0014861 0.0026911 0.0017817 -0.0013487
-0.017876 -0.018997 0.038894 0.37215 -0.022209 0.0043063 -6.0927e-05 0.002071
0.0020914 0.00068889 0.0012477 0.00087361
0.0010143 0.0048874 -0.022213 0.0044262 0.335 0.11493 0.0011563 -0.00090099
0.00062263 -0.00057041 0.00011724 0.00019541
-0.0018827 -0.00094424 -4.4322e-05 0.0021041 0.001171 -0.00097191 0.14244 0.23784
-0.0088444 -0.016612 0.00077345 0.00051967
0.0014916 0.0026841 0.0021788 0.00067681 0.00066448 -0.00058944 -0.0088292 -0.016502
0.060562 0.22994 -0.0044049 -0.014201
0.0018856 -0.0013708 0.0012401 0.0008294 0.00013116 0.00025756 0.00076513 0.0005709
-0.0043366 -0.014114 0.081875 0.31493
1400000000 0.24629 0.19857 -0.023747 -0.0072519 0.0055255 0.0034127 -0.0022675 0.00067662
0.0025029 0.0010023 0.00032317 -0.0015844
-0.023713 -0.0072246 0.076686 0.35969 -0.01536 0.012908 0.0014584 0.0012894
0.0013668 -0.0010085 0.0011678 6.7854e-05
0.0055607 0.0033944 -0.015333 0.01297 0.34843 0.06201 1.9774e-05 -0.0017026
7.8448e-05 -0.00036961 0.00027618 0.00023581
-0.0023229 0.00065655 0.0014386 0.0012954 5.4743e-05 -0.0016674 0.17234 0.20901
-0.014931 -0.0094875 -0.00054863 -4.126e-05
0.0024715 0.0009499 0.0013363 -0.00098404 9.0455e-05 -0.0003555 -0.015005 -0.0094524
0.093992 0.22537 -0.010745 -0.0086213
0.00019009 -0.00162 0.0011639 8.0061e-05 0.00026892 0.00018839 -0.00062376 -4.8702e-05
-0.010937 -0.0088458 0.12593 0.30298
1460000000 0.26973 0.15478 -0.020415 0.005202 0.0060649 -0.0018368 -0.0016269 0.0018477
0.0022927 -0.0004616 -0.00042978 -0.0010618
-0.020412 0.0051998 0.11123 0.33791 -0.0062192 0.016081 0.0016985 0.00011375
0.00075207 -0.0014723 0.0012578 -0.00052213
0.0060579 -0.0018758 -0.0061488 0.01611 0.35512 0.0083423 -0.001274 -0.0012915
0.00014185 -0.00022941 0.00066329 -0.00036473
-0.001576 0.0018527 0.0017587 9.4212e-05 -0.0012272 -0.0012977 0.19924 0.17927
-0.016041 -0.0026199 -0.00075356 0.0019602
0.0022636 -0.00051423 0.0007936 -0.0014468 0.00013797 -0.00025254 -0.015992 -0.0025705
0.12294 0.21068 -0.012674 -0.0027612
-0.00045013 -0.0010315 0.0012466 -0.00057591 0.0006894 -0.00030994 -0.00068483 0.002022
-0.012472 -0.0025864 0.15834 0.28238
1520000000 0.28267 0.11337 -0.014544 0.010647 0.0037013 -0.0044608 0.00021165 0.0026495
0.0021387 -0.0019898 -0.0012373 -0.0001979
-0.014517 0.010632 0.14504 0.32364 0.0018753 0.013619 0.0016325 -0.00083518
-5.7822e-05 -0.0011106 0.00028574 -0.0010839
0.0036579 -0.0044519 0.0019274 0.013637 0.34895 -0.047099 -0.0011256 -0.00031204
0.00065198 -0.00084404 0.00011624 -0.00020856
0.00022412 0.0026196 0.0015852 -0.00085784 -0.0011852 -0.00029798 0.22293 0.14079
-0.014889 0.0033436 0.0016802 0.0020616
0.002117 -0.0020258 -7.8254e-06 -0.0010922 0.00065035 -0.00079914 -0.014849 0.0033995
0.1514 0.19735 -0.012171 0.0023466
-0.0011568 -0.00024378 0.00027629 -0.0011053 0.00010579 -0.00020211 0.0016289 0.0020376
-0.012323 0.0022862 0.19079 0.26098
1580000000 0.29283 0.066983 -0.0076268 0.013572 -0.00088589 -0.0053383 0.0015803 0.0019111
-0.00022139 -0.0022173 -0.00029278 0.00044015
-0.0076335 0.013553 0.1726 0.29879 0.0057785 0.0084676 0.0004433 -0.0016256
-0.00064928 -0.00095456 -0.00024965 -0.00081352
-0.00089572 -0.0053454 0.0058226 0.0084302 0.32984 -0.10486 -0.0016441 0.00061929
-0.00035325 -0.0013 0.00023797 -0.00055284
0.0015898 0.0018606 0.00046703 -0.0015621 -0.0015262 0.00059002 0.23669 0.10058
-0.011194 0.0080618 0.0023228 0.00063097
-0.00022884 -0.0022433 -0.00066616 -0.00095353 -0.00035052 -0.0012843 -0.011118 0.0081255
0.17583 0.17908 -0.0093259 0.0078634
-0.00027384 0.00047949 -0.00021198 -0.00084724 0.00023037 -0.00056578 0.0023428 0.00061792
-0.0094357 0.0079578 0.222 0.23428
1640000000 0.29505 0.025753 -0.00090218 0.01217 -0.0030429 -0.0029022 0.0027314 0.00092865
-0.00087168 -0.0016319 -0.00036251 0.00059313
-0.00091542 0.012156 0.20214 0.2742 0.0063621 0.00327 -0.00064679 -0.0017568
-0.00094912 -0.00036658 -0.00054837 -0.0007117
-0.0031164 -0.002912 0.0063705 0.0032541 0.30208 -0.15411 -0.00059513 0.0014961
-0.001119 -0.00095023 -0.00019087 -0.00035227
0.0027422 0.00096012 -0.00067261 -0.0017241 -0.00062006 0.0014907 0.24889 0.051417
-0.0066551 0.0091781 0.0025823 -0.00081949
-0.00087483 -0.0015656 -0.00093373 -0.00029807 -0.0011042 -0.00093874 -0.0065747 0.0091403
0.19912 0.15506 -0.0045495 0.0099899
-0.00026105 0.0005197 -0.00057229 -0.00071694 -0.00024801 -0.00040253 0.0025769 -0.00084653
-0.0044453 0.0098258 0.2474 0.20317
1700000000 0.28827 -0.019587 0.0023546 0.0091038 -0.003924 -0.00011003 0.0030833 -0.0012165
-0.0020246 -0.000599 0.00067499 0.00031232
0.0023401 0.0090974 0.22064 0.24285 0.0041693 0.00019661 -0.0014998 -0.00057785
-0.00077192 4.1166e-05 -0.00093363 -0.00045047
-0.0039406 -3.6631e-05 0.0041921 0.00016653 0.25919 -0.19436 0.00044405 0.0015851
-0.0020667 2.2374e-06 -0.0004517 -0.00073295
0.0030268 -0.0012663 -0.0014803 -0.00054601 0.00050087 0.0016681 0.24535 0.0010969
-0.0038192 0.0093173 0.0016707 -0.002377
-0.0020885 -0.00059604 -0.00077654 4.1339e-05 -0.0019509 2.7862e-05 -0.0038099 0.0093858
0.21665 0.13426 0.00032982 0.0099907
0.00063241 0.00041491 -0.00089949 -0.00040101 -0.00046901 -0.00094645 0.0016265 -0.002274
0.00016359 0.010111 0.26337 0.16894
1760000000 0.27652 -0.068334 0.0045133 0.0057373 -0.0026126 0.0011852 0.0013023 -0.0033547
-0.0014506 0.00074848 0.00022223 -0.00062091
0.0045126 0.0057478 0.24675 0.20321 0.0016694 -0.0016194 -0.0012107 0.00015061
-0.0010618 0.00082566 -0.0006598 0.00039958
-0.0025535 0.0011405 0.0016599 -0.001677 0.21075 -0.22763 0.0010997 0.00099159
-0.0012273 0.0015088 -0.0012884 -0.00061576
0.0012932 -0.0034142 -0.0012178 0.00016824 0.001074 0.0010297 0.23573 -0.050666
-0.00069567 0.0083316 -0.00019492 -0.0026072
-0.0013966 0.00075207 -0.0010741 0.0008089 -0.0012626 0.0015999 -0.00073488 0.0082089
0.23162 0.099296 0.0043096 0.0073615
0.00032897 -0.00069033 -0.0007298 0.0004012 -0.0013211 -0.00065461 -0.00020803 -0.0025714
0.0044068 0.0073428 0.27591 0.13115
1820000000 0.25217 -0.10562 0.0043755 0.0021402 -0.00038037 0.0025266 -0.0010864 -0.0031601
-0.00098184 0.00096811 -0.00027653 -4.3346e-05
0.0043544 0.0021407 0.2572 0.17329 -0.00074017 -0.00054086 -0.0013127 0.00091449
-0.00015178 0.0012394 -0.00071541 0.00055015
-0.00036136 0.0025552 -0.00072509 -0.00051678 0.16046 -0.24388 0.0014942 0.00048137
-0.00019086 0.0024943 -0.0015674 0.00042939
-0.0011458 -0.0031445 -0.0013214 0.00092173 0.0014004 0.00052651 0.20558 -0.097732
0.00065156 0.0068001 -0.0017993 -0.0016388
-0.0010737 0.00099393 -0.00013405 0.0012096 -0.00021146 0.0024699 0.00076305 0.0068754
0.24878 0.07013 0.0051131 0.0036828
-0.00020043 -5.7547e-05 -0.00064103 0.00056747 -0.0015187 0.00048421 -0.0017661 -0.0018059
0.0051418 0.0037029 0.27775 0.09477
1880000000 0.2173 -0.14611 0.0020302 -6.69e-06 -0.0005237 0.002331 -0.0028789 -0.0022048
-0.00012537 0.0018174 0.00013693 -0.00042206
0.0020637 -4.4067e-05 0.26194 0.12655 -0.0027474 0.001505 -0.00023299 0.0017202
0.0005184 0.001373 7.891e-05 0.00098619
-0.00052315 0.0022268 -0.0026925 0.001445 0.10824 -0.25357 0.0018412 -0.00081758
0.0016314 0.0019081 -0.00091424 0.0013475
-0.0029151 -0.0021683 -0.00023043 0.0017622 0.0019392 -0.00068731 0.16402 -0.13805
0.0011975 0.0049492 -0.0026422 0.00024055
-0.00016087 0.0017834 0.00053588 0.0013976 0.0016595 0.0019761 0.001189 0.0047452
0.25251 0.037991 0.0052669 0.0011554
0.0001669 -0.00034587 0.00010157 0.00097667 -0.00095829 0.0013335 -0.0026317 0.00038734
0.0052106 0.0010954 0.2776 0.060463
1940000000 0.17783 -0.17166 -0.00050461 -0.0015284 0.0014346 0.0023866 -0.0038163 0.00036905
0.0013978 0.0010624 -0.00023052 -0.00041016
-0.00048861 -0.0015253 0.26259 0.094793 -0.0017183 0.0041171 0.0011324 0.0013078
0.0018766 0.0006612 0.0010784 0.00053372
0.001468 0.0022917 -0.0017339 0.0041736 0.061979 -0.24649 0.00059102 -0.0023864
0.0024457 0.00038958 0.00053269 0.0017071
-0.0037523 0.00055227 0.001038 0.0013383 0.00060095 -0.0021423 0.11123 -0.16772
0.00026917 0.0034618 -0.00154 0.0014814
0.0013791 0.0011373 0.0018173 0.00060741 0.0024524 0.0003752 0.00019902 0.0035788
0.25498 -0.00055537 0.0039608 -0.0022123
-0.00041643 -0.00052195 0.00098965 0.00055192 0.00062132 0.0016555 -0.0014948 0.0016351
0.003897 -0.0021708 0.2661 0.024345
2000000000 0.13179 -0.18664 -0.0042344 0.000767 0.0027182 0.0017042 -0.0023321 0.0039137
0.0011104 0.00038491 -0.00038381 0.00046701
-0.0042571 0.0007603 0.24868 0.059028 -0.0010487 0.0060119 0.0016108 0.00048248
0.0015364 -0.0010713 0.00066051 0.00018896
0.0027612 0.0017221 -0.0009603 0.0060079 0.019399 -0.23248 -0.0012554 -0.0014669
0.0020975 -0.0013205 0.0017474 0.0012664
-0.0025305 0.0037172 0.0015783 0.00046979 -0.0013917 -0.0015419 0.058083 -0.17722
-0.0010252 0.0036168 -0.00012184 0.0023195
0.0012027 0.00020103 0.0015166 -0.0010486 0.0021409 -0.0012391 -0.00097967 0.0036189
