!Keysight Technologies,M9804A,MY58100912,A.14.10.03
!Date: Thursday, April 27, 2023 10:28:33
!Correction: S11(C  6-Port  ) 
!S12(C  6-Port  ) 
!S13(C  6-Port  ) 
!S14(C  6-Port  ) 
!S15(C  6-Port  ) 
!S16(C  6-Port  ) 
!S21(C  6-Port  ) 
!S22(C  6-Port  ) 
!S23(C  6-Port  ) 
!S24(C  6-Port  ) 
!S25(C  6-Port  ) 
!S26(C  6-Port  ) 
!S31(C  6-Port  ) 
!S32(C  6-Port  ) 
!S33(C  6-Port  ) 
!S34(C  6-Port  ) 
!S35(C  6-Port  ) 
!S36(C  6-Port  ) 
!S41(C  6-Port  ) 
!S42(C  6-Port  ) 
!S43(C  6-Port  ) 
!S44(C  6-Port  ) 
!S45(C  6-Port  ) 
!S46(C  6-Port  ) 
!S51(C  6-Port  ) 
!S52(C  6-Port  ) 
!S53(C  6-Port  ) 
!S54(C  6-Port  ) 
!S55(C  6-Port  ) 
!S56(C  6-Port  ) 
!S61(C  6-Port  ) 
!S62(C  6-Port  ) 
!S63(C  6-Port  ) 
!S64(C  6-Port  ) 
!S65(C  6-Port  ) 
!S66(C  6-Port  ) 
!S6P File: Measurement: :
# Hz S  RI   R 50
500000000 -0.33619 -0.051513 -0.010499 -0.0010938 -0.0086974 0.013689 -0.0045611 0.012706
0.011801 0.005115 -0.0044975 0.0082838
-0.010472 -0.0011024 -0.41714 -0.061758 0.0076815 -0.01037 0.00097286 0.012616
0.0078779 0.0027064 0.00071435 0.013787
-0.0086835 0.013737 0.0076764 -0.010393 -0.26799 0.20036 0.0066535 0.0038507
-0.0021965 0.0090825 7.1255e-05 0.012418
-0.0044718 0.012676 0.0010265 0.012624 0.0066674 0.0038308 -0.33414 0.04452
-0.01728 -0.0046859 0.013581 0.025757
0.01206 0.0049809 0.0078725 0.0027271 -0.0021501 0.0090839 -0.017386 -0.0049783
-0.25045 -0.19283 -0.024186 0.0038847
-0.0041123 0.0088957 0.00076509 0.014031 0.00032624 0.012597 0.014037 0.025278
-0.02425 0.0044839 -0.27716 -0.11627
560000000 -0.3183 0.11429 -0.024096 -0.064993 0.00080797 0.01329 0.0049497 0.011052
0.01059 0.0042262 0.010829 0.009114
-0.024039 -0.064911 -0.37489 0.10238 -0.043564 -0.037251 0.014716 0.0035558
-0.014583 -0.0048677 0.00507 -0.00034673
0.00081006 0.013246 -0.043674 -0.037217 -0.18575 0.25168 -0.00018994 -0.003758
0.020556 0.0051772 0.0069544 -0.0047599
0.0049643 0.011123 0.014826 0.0035956 -0.00020491 -0.0037553 -0.30713 0.13578
0.0042093 -0.02407 0.0047934 -0.021191
0.0099842 0.0048022 -0.01538 -0.005321 0.021122 0.0051186 0.0037919 -0.023988
-0.30915 -0.0094968 0.0057276 -0.048728
0.010777 0.0090129 0.0052802 -0.00036548 0.0069159 -0.0044335 0.0049924 -0.021136
0.0056241 -0.048795 -0.33141 0.029993
620000000 -0.2773 0.094001 -0.023334 0.0092286 0.0034019 0.010301 0.0086039 -0.0043694
0.012747 -0.001221 0.0011704 -0.0019841
-0.023287 0.0091987 -0.40385 0.050787 -0.018506 0.0010532 -0.0013801 -0.0023214
0.01275 -0.0055328 0.0011595 -0.003263
0.0034169 0.010262 -0.018522 0.0010985 -0.15564 0.26275 -0.0010457 -0.0053149
-0.0022197 -0.0024119 0.0091399 -0.0034214
0.0085565 -0.0043611 -0.0014032 -0.0023298 -0.0010547 -0.0052886 -0.26589 0.14784
-0.037684 -0.01975 0.012281 0.026764
0.012578 -0.0013436 0.01277 -0.0057561 -0.002105 -0.0024978 -0.037501 -0.020006
-0.23339 -0.044619 -0.039075 0.012082
0.0020219 -0.001553 0.0012562 -0.0031853 0.0091818 -0.0034574 0.012279 0.027392
-0.03879 0.011631 -0.25381 -0.0028203
680000000 -0.23905 0.18577 -0.026518 -0.01384 0.005499 0.005422 0.001622 -0.0074931
-0.0022834 -0.01176 0.0061187 -0.0073265
-0.026468 -0.013855 -0.38951 0.1513 -0.032409 -0.0017379 -0.0013114 -0.00073205
-0.0016995 -0.0098243 -0.0010277 -0.0016765
0.0054917 0.0054256 -0.032446 -0.001631 -0.10332 0.28183 -0.00095359 -0.00041147
-0.0015896 4.5418e-05 -0.0028492 -0.0093849
0.0015708 -0.0073957 -0.0013235 -0.00072554 -0.00096217 -0.0004414 -0.22065 0.19756
-0.023708 -0.0071902 -0.0089432 -0.010281
-0.0021876 -0.011721 -0.0018855 -0.0098533 -0.0016179 -4.3859e-06 -0.023922 -0.0068275
-0.27965 0.059229 -0.0078932 -0.0073378
0.0054752 -0.0071125 -0.0011785 -0.0017482 -0.0030174 -0.0093731 -0.0090938 -0.010659
-0.0081 -0.0076256 -0.25763 0.098572
740000000 -0.19355 0.17864 -0.039118 0.02712 0.014061 -0.0049347 -0.00025603 -0.0040245
-0.0039568 -0.0031174 -0.0074404 0.0034594
-0.039098 0.027049 -0.33456 0.16958 -0.036413 0.035466 -0.00065098 -0.0060848
-0.011857 0.007247 -0.0022404 -0.0066543
0.014053 -0.0049833 -0.036361 0.035591 -0.069901 0.27879 -0.0020616 0.0031986
-0.0029116 -0.0050956 -0.00089061 0.000742
-0.00022811 -0.0040406 -0.00065549 -0.0060863 -0.0020703 0.0031818 -0.20349 0.20504
-0.042439 -0.0063367 0.022282 0.014147
-0.0041434 -0.0031959 -0.011593 0.006874 -0.0027792 -0.0049374 -0.042272 -0.0067314
-0.18045 0.082196 -0.041638 0.0020689
-0.0068111 0.0038192 -0.002407 -0.0060976 -0.0012875 0.00066644 0.022037 0.014066
-0.04168 0.0030875 -0.24701 0.10623
800000000 -0.16039 0.22277 -0.02203 0.016736 0.0060571 -0.010643 -0.0044334 -0.0021131
-0.0045192 0.0023976 0.0044949 0.0010907
-0.022021 0.016719 -0.34029 0.24034 -0.0082223 0.03433 -0.0023287 0.0019925
-0.0013091 0.00309 0.00075947 0.0055774
0.0060402 -0.010638 -0.0081182 0.034398 -0.030806 0.30245 0.0007626 0.0015107
-0.00011284 0.0035821 -0.0017283 0.0011861
-0.0044476 -0.0020837 -0.0023242 0.002023 0.00077572 0.0015093 -0.1735 0.23292
-0.028097 0.013189 0.013446 -0.010004
-0.004291 0.0027597 -0.001199 0.0032751 -3.2671e-05 0.0035229 -0.028252 0.013258
-0.21987 0.11475 -0.016002 0.02002
0.0039472 0.00068706 0.00070046 0.0054064 -0.0018234 0.0011741 0.013621 -0.01012
-0.016284 0.019464 -0.23974 0.15515
860000000 -0.12589 0.24179 -0.017459 0.030338 -0.0027109 -0.010564 -0.0018567 0.00074296
0.0036931 0.0049124 -0.0039876 -0.002488
-0.017451 0.030293 -0.29231 0.28245 0.0077339 0.03477 0.0001641 0.0020965
0.0036076 0.00072461 0.0032732 0.00067145
-0.0027455 -0.010568 0.0078329 0.034792 0.016302 0.31088 -0.00059024 2.4014e-05
0.0022354 -0.0012647 0.0018427 0.0040882
-0.001847 0.0007007 0.00016803 0.0021183 -0.00059654 1.1287e-05 -0.13762 0.24309
-0.018024 0.018172 -0.0061484 -0.0087002
0.0036804 0.0050257 0.0036107 0.00073256 0.0021426 -0.0011944 -0.017947 0.018267
-0.1644 0.16289 -0.024331 0.01767
-0.0034922 -0.002367 0.0035029 0.00060699 0.0019247 0.0039536 -0.0061206 -0.0085725
-0.023813 0.017781 -0.18828 0.19857
920000000 -0.10264 0.26471 0.0047577 0.037871 -0.0096321 -0.0054843 -0.0019985 0.001607
0.0010074 0.0022731 0.0033945 -0.0012901
0.0047399 0.037825 -0.26545 0.30352 0.028459 0.02267 0.001406 0.0014094
0.007526 -0.00026255 0.0045151 -0.0027706
-0.009649 -0.0054734 0.028559 0.022623 0.061624 0.31265 0.0019585 0.00012354
0.0011508 -0.00019519 0.001022 -0.0013633
-0.002002 0.0016301 0.0014133 0.0014016 0.0019557 0.00012145 -0.11242 0.25993
-0.010267 0.030863 0.0034843 -0.0071577
0.00094084 0.002276 0.0075847 -6.8907e-05 0.0010973 -0.00018859 -0.010379 0.030915
-0.15303 0.17085 -0.00080652 0.026959
0.0032319 -0.0013718 0.0043671 -0.0027863 0.0010112 -0.0014131 0.0036444 -0.0071373
-0.0010247 0.026689 -0.19357 0.21253
980000000 -0.056244 0.28451 0.017044 0.030162 -0.0098414 0.0041357 0.0016161 0.0036921
0.0043138 -0.0015507 -0.0033813 -0.0024832
0.017032 0.030149 -0.21251 0.33841 0.033897 0.0052625 0.0020699 -0.00012058
0.0020606 -0.0061697 -0.00034343 -0.0026369
-0.0098203 0.0041756 0.033928 0.0051565 0.10775 0.30724 0.00063489 -0.0011771
0.00040103 -0.0020965 0.0013316 -0.0003267
0.0016089 0.0036529 0.0020826 -0.00010914 0.00064497 -0.0011826 -0.074495 0.2709
0.0081696 0.030047 -0.0091021 -0.0068576
0.0043474 -0.0017258 0.0020363 -0.006294 0.00038558 -0.0020526 0.0081693 0.030059
-0.11709 0.19876 0.0059832 0.019571
-0.0032272 -0.002191 -0.00027009 -0.0026345 0.0013512 -0.00034526 -0.0092086 -0.0068281
0.0061958 0.019551 -0.15098 0.25586
1040000000 -0.015093 0.29353 0.033129 0.018706 -0.0018524 0.0071198 0.0025386 0.00091542
0.00046356 -0.003437 -0.00021265 -0.0014247
0.033089 0.018697 -0.17767 0.35218 0.03053 -0.015114 0.0016875 -0.0018468
-0.0020758 -0.0029933 -0.0010419 -0.0028271
-0.0018218 0.0071174 0.030483 -0.015231 0.15392 0.29463 -0.00056023 -0.001681
-0.0016752 -0.00099442 -0.00059883 -0.0010335
0.0025253 0.00090161 0.0017069 -0.0018458 -0.00055705 -0.0016818 -0.046997 0.28059
0.020165 0.018471 -0.0026937 0.0008372
0.00040908 -0.0033726 -0.002036 -0.0029335 -0.0016844 -0.001017 0.020234 0.018379
-0.084801 0.20441 0.014874 0.017776
-0.00027962 -0.00158 -0.0011468 -0.0028675 -0.00059907 -0.0010624 -0.0025661 0.00087806
0.014904 0.017611 -0.12787 0.27545
1100000000 0.029534 0.30244 0.036573 -0.0039249 0.0026645 0.004261 0.002404 -0.0010918
-0.001948 -0.0032252 -0.0042079 -0.00036321
0.03654 -0.0039068 -0.13469 0.37036 0.015931 -0.028768 3.6448e-05 -0.0018936
-0.0038843 -0.00115 -0.0038448 -0.0006187
0.0026826 0.0042624 0.015836 -0.028849 0.20092 0.2751 -0.0020222 0.00016029
-0.0018641 0.0005206 -0.0011446 -0.0003361
0.0023907 -0.0011041 3.7936e-05 -0.001896 -0.0020234 0.00015234 -0.0066892 0.2854
0.025926 0.0045179 -0.0025978 1.9591e-05
-0.0018709 -0.0032529 -0.0038855 -0.001126 -0.0018416 0.00048479 0.025978 0.0044908
-0.063762 0.21736 0.020537 0.00765
-0.0041771 -0.0001976 -0.003809 -0.00054764 -0.0011771 -0.00033289 -0.0025889 -3.1575e-05
0.020422 0.0077026 -0.082078 0.30301
1160000000 0.080388 0.29873 0.024547 -0.021241 0.002686 -0.00032621 -5.0996e-05 -0.0021901
-0.0040863 -0.00078492 -0.00094407 0.004108
0.024549 -0.021208 -0.091311 0.37569 -0.0038558 -0.030373 -0.0017364 -0.0017326
-0.0030132 0.0028691 -0.001431 0.0021174
0.0026905 -0.00032881 -0.0039847 -0.030379 0.2446 0.24422 -0.00078602 0.0019532
-0.00047604 0.0021136 -0.00092761 0.00039421
-6.0509e-05 -0.0021854 -0.0017284 -0.0017203 -0.00079495 0.0019591 0.032352 0.28284
0.021459 -0.011796 -0.0033208 0.0049384
-0.0041286 -0.00073541 -0.0030505 0.0029901 -0.00047568 0.0021329 0.021453 -0.011861
-0.029862 0.2243 0.018814 -0.0015987
-0.00091244 0.0040781 -0.0014825 0.0020727 -0.00091959 0.00035207 -0.003343 0.0050088
0.018925 -0.0015506 -0.035351 0.30645
1220000000 0.12449 0.28923 0.0106 -0.030895 -0.0017853 -0.00068751 0.00011965 -0.00087581
-0.0027714 0.0022051 0.0011927 0.0021862
0.010605 -0.030852 -0.046666 0.38902 -0.017817 -0.022064 -0.0027585 0.00054871
0.00012857 0.0033386 -0.00079697 0.0020786
-0.0017875 -0.00067533 -0.017923 -0.022018 0.28375 0.20488 0.00087009 0.0018152
0.00071465 0.001239 0.00026147 0.00055435
0.00013238 -0.00089321 -0.0027683 0.00056298 0.00086855 0.0018134 0.072824 0.27447
0.010355 -0.018648 0.0016258 0.0016949
-0.0027287 0.0022263 0.00015967 0.0033549 0.00072705 0.001252 0.010351 -0.018662
-0.0061812 0.23255 0.013775 -0.014146
0.0011473 0.0022111 -0.0008214 0.0020779 0.00020631 0.00053195 0.0016043 0.0016346
0.013761 -0.014076 -0.0029265 0.32019
1280000000 0.1749 0.26882 -0.00867 -0.029441 -0.0020393 0.0027802 -0.00073301 -0.0020202
-0.00080581 0.0033549 0.0026432 0.0013047
-0.0086408 -0.029408 0.00014963 0.38065 -0.025152 -0.0086942 -0.00096059 0.0016601
0.002032 0.0020062 0.00085802 0.0020336
-0.0020188 0.0027741 -0.02521 -0.008595 0.31363 0.16081 0.0017458 -9.65e-05
0.0013952 0.0001742 0.00045407 0.00018015
-0.00074608 -0.0020189 -0.00095298 0.0016527 0.001753 -9.6056e-05 0.10976 0.25791
-0.00037341 -0.020703 -0.00042766 0.00049843
-0.00083106 0.0033681 0.0020081 0.0019976 0.0014009 0.00016608 -0.00037732 -0.0207
0.030493 0.23531 0.0027243 -0.016722
0.0026955 0.0012792 0.00087623 0.0020492 0.00046265 0.00022439 -0.00045046 0.00040811
0.0028108 -0.016723 0.043526 0.32106
1340000000 0.21259 0.23596 -0.018674 -0.018965 0.0010079 0.0050398 -0.0018805 -0.0010889
0.0015919 0.0027529 0.0018107 -0.0015542
-0.01864 -0.018958 0.040202 0.37241 -0.022518 0.0049123 3.9314e-05 0.0021129
0.0022315 0.00049675 0.0013207 0.00080224
0.0010212 0.0050368 -0.022521 0.0050221 0.33487 0.11363 0.001211 -0.0011007
0.00070609 -0.00062452 0.00016926 0.00022213
-0.0018775 -0.0010883 4.6829e-05 0.0021176 0.0012062 -0.0010936 0.14292 0.23743
-0.010498 -0.017003 0.00066667 0.00085027
0.001638 0.0027654 0.0022482 0.00050379 0.00070589 -0.00059926 -0.010526 -0.017043
0.060903 0.23048 -0.0051383 -0.014918
0.001775 -0.0015542 0.0013124 0.00078273 0.00018597 0.00023167 0.0006494 0.00091651
-0.0051747 -0.014934 0.082415 0.3153
1400000000 0.24675 0.19852 -0.024427 -0.0067466 0.0056236 0.0034784 -0.0023381 0.00067127
0.0025507 0.0010798 0.00028846 -0.0016017
-0.02438 -0.0067511 0.078064 0.35928 -0.015278 0.013507 0.0014597 0.0012005
0.0013271 -0.0010799 0.0011807 5.0217e-05
0.0056419 0.0034455 -0.01524 0.013603 0.34761 0.061257 -7.4899e-05 -0.001748
8.2602e-05 -0.00038425 0.00031497 0.00027139
-0.002342 0.00067806 0.0014764 0.0012028 -7.0998e-05 -0.0017538 0.1727 0.20811
-0.016495 -0.0090943 -0.00071882 0.00013893
0.0025375 0.0010813 0.0012731 -0.0010721 8.8289e-05 -0.00037688 -0.016578 -0.0090683
0.094252 0.22576 -0.011635 -0.0091495
0.00028994 -0.0016053 0.001218 3.0263e-05 0.00030243 0.00026348 -0.00072057 9.2258e-05
-0.01156 -0.0091708 0.12602 0.30301
1460000000 0.27007 0.15444 -0.020618 0.0059893 0.006295 -0.0018756 -0.0015863 0.0018538
0.002477 -0.0005749 -0.00050148 -0.001067
-0.020601 0.0059703 0.11223 0.33684 -0.0058005 0.016465 0.0017048 3.3257e-05
0.0006166 -0.0015494 0.0011428 -0.00062594
0.0062974 -0.0018863 -0.0057224 0.016497 0.35413 0.0081228 -0.0014051 -0.0012106
0.0001209 -0.00024087 0.00067192 -0.00026974
-0.0015697 0.001864 0.0016978 3.69e-05 -0.001402 -0.0012152 0.19904 0.1784
-0.017229 -0.0012248 -0.00055251 0.0022364
0.0024791 -0.00056619 0.00062092 -0.0015674 0.00011819 -0.00025172 -0.017189 -0.0011413
0.12349 0.21125 -0.013563 -0.0024651
-0.00054966 -0.001041 0.0011281 -0.000618 0.00068162 -0.00028408 -0.00059662 0.0022427
-0.013606 -0.0024719 0.15853 0.28211
1520000000 0.28283 0.1128 -0.014298 0.011444 0.0037944 -0.004577 0.00018602 0.0026978
0.0022355 -0.0022096 -0.001282 -0.00021727
-0.014294 0.01142 0.14538 0.32225 0.0023422 0.013689 0.0015323 -0.00086345
-0.00016034 -0.0010615 0.00026412 -0.001082
0.0037784 -0.004599 0.0024092 0.013692 0.3481 -0.046845 -0.0011854 -0.00019701
0.00061391 -0.00089855 0.00018534 -0.00019913
0.00019232 0.0026996 0.0015324 -0.00086585 -0.001179 -0.00020117 0.22236 0.14002
-0.015026 0.0052164 0.0018586 0.002223
0.0022226 -0.0022663 -0.00019863 -0.0010428 0.00062326 -0.0008928 -0.015032 0.0051819
0.1521 0.19739 -0.013049 0.0029127
-0.0012543 -0.00016845 0.00028929 -0.0010887 0.00019799 -0.00022641 0.001832 0.0022236
-0.013002 0.0028458 0.1909 0.26082
1580000000 0.29249 0.066325 -0.0070406 0.014125 -0.00081429 -0.0054975 0.0016785 0.0019219
-0.00032482 -0.0023619 -0.00017863 0.00045003
-0.0070443 0.014104 0.17228 0.29733 0.0062054 0.0082476 0.00044721 -0.0015413
-0.000652 -0.00082366 -0.00028554 -0.00080432
-0.00083321 -0.0054887 0.0062622 0.0082243 0.32941 -0.10429 -0.0015026 0.00069012
-0.00041868 -0.0012206 0.00019224 -0.0006041
0.0016721 0.0019185 0.00043466 -0.0015451 -0.0015033 0.00068988 0.23577 0.10012
-0.010233 0.0096014 0.0026167 0.00053395
-0.00034976 -0.002341 -0.00063943 -0.00080159 -0.00039247 -0.0012347 -0.010265 0.0096609
0.17646 0.17893 -0.0096893 0.0088032
-0.00021401 0.00041803 -0.00028495 -0.00081681 0.00019587 -0.00060452 0.0026264 0.00052793
-0.0097201 0.008832 0.22186 0.23405
1640000000 0.29452 0.025349 -9.6973e-05 0.012246 -0.0031212 -0.0030406 0.0027906 0.00093071
-0.0010581 -0.0016 -0.00032292 0.00054635
-0.00010901 0.012244 0.20119 0.27312 0.0064749 0.0029616 -0.0006719 -0.0017283
-0.00084058 -0.00023502 -0.00054524 -0.000636
-0.0031393 -0.0030254 0.0065082 0.0029272 0.30195 -0.15352 -0.00055998 0.0014404
-0.0012338 -0.00095251 -0.00024907 -0.00034199
0.0027981 0.00091895 -0.00068469 -0.0017173 -0.0005647 0.0014478 0.24764 0.051466
-0.0051085 0.0098805 0.0026957 -0.00096653
-0.0010602 -0.0016267 -0.00086551 -0.00024088 -0.001243 -0.00096023 -0.0050581 0.0099162
0.19976 0.15454 -0.0043724 0.010714
-0.00028469 0.0006167 -0.00055874 -0.0006248 -0.00023654 -0.00032662 0.002684 -0.0010089
-0.0043733 0.01077 0.24696 0.20348
1700000000 0.2875 -0.019683 0.0030221 0.0086958 -0.0040245 -0.00017197 0.0031132 -0.0013392
-0.0021381 -0.00049561 0.00061365 0.00035542
0.0030141 0.0086982 0.21924 0.24228 0.004211 -0.0001034 -0.0014476 -0.00053164
-0.00065027 -9.285e-06 -0.0009021 -0.00041919
-0.004029 -0.00015082 0.0042061 -0.00012319 0.25939 -0.19352 0.00047583 0.0015115
-0.0019946 4.3966e-05 -0.0004404 -0.00094156
0.0030934 -0.0013635 -0.0014589 -0.00052185 0.000476 0.0015101 0.24423 0.0018475
-0.002112 0.0091384 0.0016625 -0.0024628
-0.0021725 -0.00047967 -0.00065036 1.5349e-06 -0.0019932 6.4407e-05 -0.0021667 0.0091185
0.21714 0.13355 0.00068789 0.010756
0.00065237 0.00032279 -0.00088324 -0.00041689 -0.00043201 -0.00092619 0.0016594 -0.0024626
0.00068021 0.010706 0.2633 0.16906
1760000000 0.27576 -0.067807 0.0047475 0.0050609 -0.0027433 0.0010856 0.0011184 -0.0034798
-0.0014789 0.00089016 0.00026048 -0.00063581
0.0047407 0.0050543 0.24528 0.20331 0.0016033 -0.0018539 -0.0011781 0.00011337
-0.00099347 0.0007109 -0.00062648 0.00037018
-0.0027298 0.0011029 0.0015911 -0.00186 0.21143 -0.227 0.0011349 0.0010513
-0.0012157 0.0015703 -0.0013274 -0.0005972
0.0011073 -0.0034855 -0.0011669 0.00012285 0.0011348 0.0010582 0.23513 -0.049231
0.00037119 0.007204 -0.00017513 -0.0028054
-0.0014348 0.0008961 -0.00097393 0.00071079 -0.001207 0.0015813 0.00036623 0.0072443
0.23166 0.098366 0.0051009 0.0076894
0.00027202 -0.00061168 -0.00062244 0.00038351 -0.0013491 -0.00066988 -0.0001511 -0.0028727
0.0050851 0.007735 0.27592 0.13158
1820000000 0.25171 -0.10477 0.004165 0.0015561 -0.00045311 0.0025721 -0.0011461 -0.0030998
-0.0008868 0.0010664 -0.00024705 -2.7578e-05
0.004164 0.0015553 0.25589 0.17401 -0.00087372 -0.00071264 -0.0013238 0.0009216
-0.00017216 0.0010561 -0.00066888 0.00060177
-0.00043753 0.0025856 -0.00088671 -0.00070583 0.1612 -0.24369 0.0013581 0.00041455
-0.00013317 0.0024302 -0.0017806 0.00051861
-0.0011808 -0.0030851 -0.0013293 0.00091836 0.0013697 0.00040734 0.20554 -0.096324
0.00092564 0.005465 -0.0018207 -0.0018822
-0.00091312 0.001094 -0.00017571 0.0010731 -7.3655e-05 0.00246 0.00099482 0.0054744
0.24853 0.069307 0.0057793 0.0035924
-0.0002298 -4.7484e-05 -0.00068809 0.00060229 -0.0017368 0.00058126 -0.0018308 -0.0018033
0.0058315 0.0035661 0.27798 0.094919
1880000000 0.21738 -0.14519 0.0016732 -0.00033853 -0.0005503 0.002391 -0.0029378 -0.0020845
-7.268e-05 0.0017358 0.00013311 -0.00057571
0.0016776 -0.00033279 0.26115 0.12787 -0.0029246 0.0014352 -0.00023306 0.0017262
0.00036787 0.0013402 9.8263e-05 0.00086909
-0.00053561 0.002393 -0.0029173 0.0014547 0.10893 -0.25388 0.001973 -0.00071645
0.0017189 0.0019584 -0.0010142 0.0015554
-0.0029387 -0.0020859 -0.00021978 0.001728 0.0019785 -0.00071406 0.16511 -0.1365
0.00081811 0.003831 -0.0026745 0.00011251
-7.1318e-05 0.0017939 0.0003746 0.0013437 0.0017142 0.0019698 0.0007984 0.0037873
0.25179 0.037325 0.0059215 0.00093739
0.00014192 -0.0005446 0.00011059 0.00088785 -0.0010626 0.0015412 -0.0025948 1.7549e-05
0.0058833 0.00090146 0.27764 0.060646
1940000000 0.17841 -0.17087 -0.00082877 -0.001482 0.0015442 0.0025381 -0.0036946 0.00045509
0.0013732 0.0010408 -0.0003959 -0.00034421
-0.00080964 -0.0014789 0.26249 0.09626 -0.0018618 0.0041833 0.0010933 0.0014289
0.0017645 0.0007449 0.0011174 0.00044709
0.0015519 0.0025192 -0.0018355 0.0041994 0.062634 -0.24688 0.00066872 -0.0021847
0.0025857 0.00026912 0.00082616 0.0017785
-0.0036968 0.00046455 0.0011 0.0014141 0.00066732 -0.0021819 0.11275 -0.1672
-0.00058266 0.0031193 -0.0016818 0.0015603
0.0013676 0.0010046 0.0017808 0.00071833 0.0025776 0.00027093 -0.00057461 0.0031116
0.25384 -0.00063852 0.004404 -0.0026678
-0.00045112 -0.00033365 0.0010863 0.00044556 0.00081606 0.0018173 -0.0018243 0.001689
0.0043872 -0.0026428 0.26629 0.024293
2000000000 0.13286 -0.18617 -0.004493 0.00083045 0.0028027 0.0015953 -0.0023534 0.0038414
0.0011294 0.00027961 -0.00044757 0.00046448
-0.0044907 0.00082222 0.24926 0.06043 -0.0011367 0.0060595 0.0016741 0.00044383
0.0014929 -0.00091341 0.0005335 7.9561e-05
0.0028095 0.0015772 -0.0010987 0.0060659 0.019383 -0.23326 -0.0014246 -0.0016115
0.0020958 -0.0013592 0.001826 0.0011073
-0.0023485 0.003855 0.0016676 0.00045274 -0.0014226 -0.0016251 0.059674 -0.1774
-0.0017238 0.0034702 -0.00055017 0.0022903
0.0011413 0.00035019 0.0014965 -0.00087099 0.0021179 -0.0013915 -0.0017051 0.0034968
0.24884 -0.03358 0.00090314 -0.003981
