!Keysight Technologies,M9804A,MY58100912,A.14.10.03
!Date: Thursday, April 27, 2023 10:28:33
!Correction: S11(C  6-Port  ) 
!S12(C  6-Port  ) 
!S13(C  6-Port  ) 
!S14(C  6-Port  ) 
!S15(C  6-Port  ) 
!S16(C  6-Port  ) 
!S21(C  6-Port  ) 
!S22(C  6-Port  ) 
!S23(C  6-Port  ) 
!S24(C  6-Port  ) 
!S25(C  6-Port  ) 
!S26(C  6-Port  ) 
!S31(C  6-Port  ) 
!S32(C  6-Port  ) 
!S33(C  6-Port  ) 
!S34(C  6-Port  ) 
!S35(C  6-Port  ) 
!S36(C  6-Port  ) 
!S41(C  6-Port  ) 
!S42(C  6-Port  ) 
!S43(C  6-Port  ) 
!S44(C  6-Port  ) 
!S45(C  6-Port  ) 
!S46(C  6-Port  ) 
!S51(C  6-Port  ) 
!S52(C  6-Port  ) 
!S53(C  6-Port  ) 
!S54(C  6-Port  ) 
!S55(C  6-Port  ) 
!S56(C  6-Port  ) 
!S61(C  6-Port  ) 
!S62(C  6-Port  ) 
!S63(C  6-Port  ) 
!S64(C  6-Port  ) 
!S65(C  6-Port  ) 
!S66(C  6-Port  ) 
!S6P File: Measurement: :
# Hz S  RI   R 50
500000000 -0.33583 -0.050827 -0.010872 -0.00084559 -0.0089725 0.013412 -0.0046131 0.013051
0.011398 0.0061469 -0.0050803 0.0086843
-0.010832 -0.0010028 -0.41759 -0.062095 0.0072085 -0.010264 0.0010322 0.012704
0.007688 0.0026161 0.00083549 0.013765
-0.0089442 0.013352 0.0075587 -0.01041 -0.26752 0.20031 0.0067687 0.0040451
-0.0023727 0.0086396 0.00049575 0.012275
-0.0048441 0.012323 0.0013421 0.012543 0.0068932 0.0039738 -0.33378 0.044218
-0.017589 -0.0055806 0.014428 0.02594
0.011082 0.0061217 0.0079532 0.0026624 -0.0025454 0.0083165 -0.017954 -0.005678
-0.2502 -0.19119 -0.025071 0.0038153
-0.004869 0.0088086 0.0014857 0.015195 0.00097862 0.012627 0.014388 0.025246
-0.02448 0.0041582 -0.27656 -0.1156
560000000 -0.31923 0.11438 -0.024629 -0.06455 0.0010517 0.012936 0.0049544 0.010987
0.009417 0.0049574 0.011077 0.0083466
-0.024498 -0.064352 -0.37434 0.10236 -0.043528 -0.037018 0.013916 0.0031686
-0.013692 -0.0047173 0.0041615 -0.0004513
0.00071601 0.013072 -0.043606 -0.037055 -0.18524 0.25159 0.00070062 -0.0043705
0.019762 0.0053113 0.007384 -0.0045639
0.0058681 0.011011 0.014303 0.0033646 0.00031395 -0.0035441 -0.30653 0.13659
0.0051718 -0.023594 0.0052913 -0.020928
0.010247 0.004124 -0.015669 -0.0056599 0.020831 0.005657 0.0055011 -0.024026
-0.30888 -0.010718 0.0056548 -0.047673
0.010844 0.0089428 0.0048891 -0.0011084 0.0065513 -0.0046047 0.0048032 -0.020845
0.004906 -0.047332 -0.33045 0.028239
620000000 -0.27791 0.09394 -0.023375 0.0090521 0.0037245 0.010024 0.0089276 -0.0038585
0.012999 -0.00089449 0.0016873 -0.0014671
-0.023386 0.0090207 -0.40362 0.050709 -0.018436 0.0012349 -0.0012894 -0.0021842
0.012616 -0.0060846 0.0013296 -0.0032968
0.0039867 0.0099521 -0.01832 0.0010821 -0.15501 0.26271 -0.00074455 -0.0053314
-0.0028165 -0.0024269 0.0097386 -0.0038051
0.008882 -0.0036465 -0.001427 -0.0022765 -0.00107 -0.0047735 -0.26657 0.14704
-0.038041 -0.019968 0.011958 0.026648
0.012912 -0.0016647 0.01279 -0.006238 -0.0023141 -0.0028674 -0.037245 -0.018711
-0.23347 -0.043656 -0.039128 0.011927
0.0021976 -0.0012146 0.001489 -0.0034673 0.0089939 -0.0037675 0.011658 0.026067
-0.040515 0.011962 -0.25424 -0.003301
680000000 -0.23866 0.18576 -0.026568 -0.013948 0.0051047 0.0055238 0.0018338 -0.0074646
-0.0019978 -0.011817 0.0053037 -0.0075751
-0.026449 -0.013863 -0.38952 0.15128 -0.032603 -0.0017844 -0.0011703 -0.00077864
-0.0015789 -0.0098725 -0.0009307 -0.0017118
0.0053157 0.0054938 -0.032624 -0.0017442 -0.10354 0.28174 -0.00078325 -0.00077029
-0.0015312 4.2283e-05 -0.0027352 -0.009312
0.0014506 -0.0075832 -0.001043 -0.00086997 -0.00067728 -0.00080161 -0.22136 0.198
-0.023938 -0.0071734 -0.0089267 -0.01073
-0.0021839 -0.011276 -0.0019674 -0.0094511 -0.0016759 0.00014209 -0.024183 -0.0069522
-0.27867 0.058569 -0.0080679 -0.0071508
0.0054374 -0.0069893 -0.0010731 -0.0015773 -0.0027557 -0.0093093 -0.0091301 -0.010677
-0.008219 -0.0075494 -0.25877 0.098752
740000000 -0.19385 0.17959 -0.039296 0.026394 0.01406 -0.0047756 -0.00023597 -0.0039546
-0.0038507 -0.0030364 -0.0065943 0.0035984
-0.039318 0.02656 -0.33472 0.17007 -0.036559 0.035529 -0.00036674 -0.0063734
-0.011843 0.007328 -0.0022231 -0.0063348
0.014233 -0.0048275 -0.036402 0.035657 -0.069976 0.279 -0.0019367 0.0032651
-0.0028154 -0.0048771 -0.0011517 0.00083516
-0.00034568 -0.0040869 -0.00061004 -0.006239 -0.0020859 0.003554 -0.20323 0.20516
-0.042754 -0.0066973 0.022166 0.014259
-0.0047582 -0.0028042 -0.011576 0.0068647 -0.0028705 -0.0049248 -0.042194 -0.0063291
-0.17875 0.084634 -0.042152 0.0017604
-0.0064664 0.0037179 -0.0024374 -0.0061277 -0.0013694 0.0013159 0.022023 0.014282
-0.04191 0.00093744 -0.24747 0.10579
800000000 -0.16068 0.22243 -0.022009 0.016509 0.0061472 -0.010633 -0.0044812 -0.0022066
-0.0044493 0.0027055 0.0040611 0.00053531
-0.022182 0.016544 -0.34014 0.24017 -0.0081462 0.034344 -0.0025441 0.0019342
-0.0012267 0.0034029 0.00066316 0.0053352
0.0060971 -0.010619 -0.0080074 0.034426 -0.030701 0.30249 0.00066513 0.0014874
0.000135 0.0035187 -0.0018737 0.0012316
-0.0045004 -0.0019856 -0.0023694 0.0020071 0.00066069 0.0015398 -0.17337 0.23291
-0.027936 0.013359 0.013706 -0.009797
-0.0043356 0.0025291 -0.0011 0.0030854 2.1572e-06 0.0034635 -0.028147 0.013428
-0.22038 0.1148 -0.016273 0.019544
0.0035675 0.00043336 0.00051502 0.0053466 -0.0019699 0.00095219 0.013768 -0.0099705
-0.016226 0.019975 -0.23973 0.15585
860000000 -0.12613 0.24218 -0.017582 0.030519 -0.0028174 -0.010624 -0.001673 0.0006957
0.0038102 0.0051824 -0.0035165 -0.0021737
-0.017515 0.030536 -0.29245 0.28201 0.0077355 0.034596 0.00026579 0.0019651
0.0035001 0.0010052 0.003223 0.00068437
-0.0028315 -0.010573 0.0078028 0.034673 0.016284 0.31083 -0.00048386 -0.00011127
0.0021637 -0.0012562 0.0019203 0.0039618
-0.0021294 0.00059568 -0.00025904 0.0021664 -0.00058863 -0.00017909 -0.13727 0.24318
-0.01801 0.018478 -0.006185 -0.0085667
0.0036224 0.0049346 0.003744 0.00049405 0.002405 -0.0012114 -0.017872 0.018551
-0.16523 0.16254 -0.024334 0.017976
-0.0031176 -0.0023686 0.0035556 0.00051672 0.0017763 0.0040529 -0.0062587 -0.0088213
-0.023775 0.01816 -0.18764 0.19737
920000000 -0.10264 0.26469 0.004753 0.037926 -0.0096275 -0.0055111 -0.0019696 0.0017091
0.00096162 0.002586 0.0034353 -0.0011734
0.004756 0.038018 -0.26563 0.30377 0.028456 0.022813 0.0015624 0.0013827
0.0075036 0.00027686 0.0045665 -0.0028793
-0.0095907 -0.005432 0.028468 0.022732 0.061731 0.31269 0.0019713 4.3088e-05
0.0011562 -0.00011294 0.0011432 -0.0014318
-0.0018236 0.0016947 0.0014195 0.0013652 0.0019781 9.8247e-05 -0.11241 0.25989
-0.010377 0.030722 0.0036903 -0.0071215
0.0010382 0.0023523 0.0075769 -5.3127e-05 0.00098297 -0.00020165 -0.010171 0.030787
-0.15278 0.17076 -0.00072113 0.026495
0.003046 -0.001496 0.004103 -0.0025246 0.0010484 -0.0014338 0.003651 -0.0073766
-0.00092303 0.026869 -0.19348 0.21237
980000000 -0.0561 0.28446 0.01697 0.030229 -0.0098542 0.0040849 0.0015587 0.0035661
0.0041629 -0.0015234 -0.0030112 -0.0024271
0.016878 0.030127 -0.21258 0.33822 0.033898 0.0052124 0.0020507 -0.00012875
0.002008 -0.0063315 -0.00040543 -0.0024175
-0.0098531 0.00411 0.033942 0.0051393 0.1078 0.30731 0.00062504 -0.0011671
0.00051599 -0.0021603 0.001293 -0.00026843
0.0016501 0.0035264 0.0022079 1.6706e-05 0.00065462 -0.0011898 -0.074535 0.27067
0.0080168 0.03025 -0.0089779 -0.0069543
0.0042149 -0.0015839 0.0019416 -0.0063334 0.00045261 -0.0021255 0.0080024 0.030054
-0.11737 0.19868 0.0062402 0.020072
-0.0029332 -0.0020835 -0.00044164 -0.0026787 0.0012734 -0.00032293 -0.0090249 -0.0065732
0.0060448 0.020104 -0.15093 0.2557
1040000000 -0.015255 0.29379 0.033146 0.018788 -0.0019679 0.0071535 0.0024983 0.00094172
0.00057584 -0.0034799 -7.7139e-05 -0.0016163
0.0331 0.018811 -0.17766 0.35226 0.03042 -0.015097 0.001714 -0.0018683
-0.0018436 -0.0028671 -0.001213 -0.0030331
-0.0019298 0.0072058 0.030378 -0.015244 0.15395 0.29467 -0.00046178 -0.0017192
-0.0015551 -0.0010444 -0.00061721 -0.0010703
0.0024216 0.0009178 0.0016758 -0.0018053 -0.00056384 -0.0017209 -0.046964 0.28047
0.020329 0.01834 -0.0026021 0.00094446
0.00050587 -0.0033511 -0.0020249 -0.0029152 -0.0016694 -0.001126 0.020263 0.018443
-0.084834 0.20422 0.014305 0.01777
-0.00020099 -0.0016569 -0.0011917 -0.0030037 -0.00059365 -0.0010382 -0.0027109 0.00087519
0.014868 0.017822 -0.12744 0.27544
1100000000 0.029619 0.30248 0.036573 -0.0039113 0.0027104 0.0043205 0.0023232 -0.0010559
-0.0018836 -0.003095 -0.0042075 -0.00029698
0.036534 -0.0039042 -0.13472 0.37029 0.015943 -0.028709 5.0607e-05 -0.0018363
-0.003898 -0.00095986 -0.003738 -0.00062705
0.0027278 0.004285 0.01585 -0.028794 0.20099 0.27511 -0.002094 0.00015021
-0.0018621 0.00062456 -0.0010463 -0.00038532
0.0023484 -0.0010577 6.4135e-05 -0.001869 -0.0020393 0.00018648 -0.0066637 0.2852
0.025963 0.0045615 -0.0027491 -0.00010115
-0.0019767 -0.0033073 -0.0039643 -0.0010633 -0.001959 0.00051416 0.026017 0.0045372
-0.063527 0.21785 0.020573 0.0075807
-0.0041712 -5.5617e-05 -0.0038342 -0.00058634 -0.0011158 -0.00040282 -0.0026463 -5.1769e-05
0.020347 0.0074388 -0.082639 0.3034
1160000000 0.08045 0.29877 0.024509 -0.021331 0.0027107 -0.00032858 -9.8915e-05 -0.0021394
-0.0041988 -0.00095185 -0.00098657 0.0041284
0.024502 -0.021289 -0.091096 0.37556 -0.0038042 -0.030409 -0.0017151 -0.0016881
-0.002985 0.0027568 -0.0015065 0.002072
0.0026961 -0.00030283 -0.0040477 -0.030425 0.24465 0.24424 -0.00078658 0.0019855
-0.00055192 0.0021277 -0.00083803 0.00030385
5.6642e-06 -0.0022178 -0.0017226 -0.0016748 -0.00081935 0.001923 0.032211 0.28278
0.021625 -0.011777 -0.0034823 0.0050359
-0.0040429 -0.00083562 -0.0029895 0.0030086 -0.00045636 0.002203 0.021525 -0.011846
-0.029434 0.22403 0.018795 -0.0013838
-0.0010498 0.0040878 -0.001639 0.0020464 -0.00090749 0.00040184 -0.0033834 0.0051337
0.019064 -0.0013463 -0.035256 0.30625
1220000000 0.12466 0.28916 0.010691 -0.030862 -0.0017684 -0.00070624 0.00013744 -0.00087837
-0.002742 0.0022603 0.0012002 0.0022347
0.01069 -0.030818 -0.046503 0.38903 -0.017775 -0.022081 -0.0028155 0.0005291
9.5918e-05 0.003395 -0.00080644 0.0020654
-0.0017659 -0.0006806 -0.017896 -0.022068 0.28373 0.20488 0.00087891 0.0018454
0.00077447 0.0013347 0.00037442 0.00055073
0.0001339 -0.00082549 -0.0027943 0.00055212 0.00087096 0.0018294 0.072721 0.27439
0.010507 -0.018784 0.0016898 0.0015613
-0.0027534 0.002214 0.00012237 0.0033436 0.00073282 0.0012767 0.010401 -0.018755
-0.0058604 0.23257 0.013798 -0.014078
0.0012014 0.0021602 -0.00077818 0.002006 0.00029575 0.00065234 0.0016824 0.001598
0.013855 -0.014183 -0.0028611 0.32006
1280000000 0.17504 0.26873 -0.0085927 -0.029404 -0.0019804 0.0026975 -0.00074338 -0.0020425
-0.00087044 0.0033398 0.0025862 0.0013112
-0.0085778 -0.029365 0.00017734 0.38066 -0.025074 -0.0087425 -0.00097833 0.0015936
0.0020327 0.0018673 0.00074737 0.0020319
-0.0019849 0.0027002 -0.025185 -0.0086105 0.31369 0.16081 0.0017558 -0.00015921
0.0013997 0.00021423 0.00037357 0.00022768
-0.00077902 -0.0020555 -0.00098816 0.001617 0.0017529 -9.0803e-05 0.10966 0.25794
-0.00040734 -0.020852 -0.00039806 0.00043853
-0.00093148 0.003354 0.0020036 0.0019234 0.0013962 0.00025343 -0.00035088 -0.020812
0.030737 0.23531 0.0027422 -0.016844
0.0026105 0.0011862 0.00088207 0.0020364 0.00040613 0.00018781 -0.00052103 0.00052303
0.002616 -0.016694 0.043233 0.32114
1340000000 0.21276 0.23599 -0.018663 -0.018997 0.00097352 0.0050078 -0.0018681 -0.0011624
0.0016225 0.0027802 0.0018373 -0.0015385
-0.018607 -0.018988 0.040392 0.37239 -0.022475 0.0049099 1.2515e-05 0.0021239
0.0022468 0.00063568 0.0013135 0.000694
0.0009882 0.004973 -0.022448 0.0049805 0.33508 0.11363 0.0011473 -0.001085
0.00063442 -0.00063631 0.00010847 0.00030386
-0.0018646 -0.0010918 -3.1799e-06 0.0021498 0.0011881 -0.0011172 0.14287 0.23754
-0.010451 -0.017119 0.00062444 0.00097645
0.0016089 0.002777 0.0022906 0.00056305 0.0007282 -0.00058241 -0.010633 -0.017141
0.060952 0.23041 -0.0051614 -0.014883
0.0017446 -0.0014931 0.0013411 0.00069579 0.0001798 0.00019773 0.00070902 0.00095351
-0.0049154 -0.014884 0.082413 0.31522
1400000000 0.24688 0.19831 -0.024393 -0.0068095 0.0056499 0.003485 -0.0023476 0.00064458
0.0025546 0.0010667 0.00020247 -0.0016219
-0.024353 -0.0068122 0.078082 0.35923 -0.015301 0.013453 0.0014816 0.0012433
0.0013372 -0.001112 0.0011963 5.1104e-05
0.0056881 0.0035209 -0.015277 0.013567 0.34773 0.061101 -5.2828e-05 -0.0017154
9.3422e-05 -0.00036115 0.00033171 0.0002409
-0.0023692 0.00061321 0.0014843 0.0011981 -9.2608e-05 -0.0017578 0.17262 0.20822
-0.016666 -0.00913 -0.00073416 0.00027182
0.0025379 0.0011107 0.0013369 -0.0010946 6.614e-05 -0.00040832 -0.016701 -0.0090528
0.094205 0.22553 -0.01169 -0.009052
0.00022707 -0.0015969 0.0011726 2.4753e-05 0.00022733 0.00024199 -0.00074648 0.0002415
-0.011693 -0.0091993 0.12596 0.30296
1460000000 0.27032 0.1542 -0.020645 0.0059031 0.0062305 -0.0017393 -0.0016224 0.0018438
0.0024737 -0.00054662 -0.00050855 -0.001052
-0.020637 0.0058949 0.11233 0.33675 -0.0057883 0.016438 0.0016994 2.7427e-05
0.00064086 -0.0015373 0.0011801 -0.00063031
0.0062656 -0.0018398 -0.0057136 0.016472 0.35415 0.0080774 -0.0014526 -0.0012653
0.00015576 -0.00024692 0.00067609 -0.00022916
-0.0015995 0.001877 0.0017027 7.9983e-05 -0.001398 -0.001266 0.19911 0.17855
-0.01732 -0.0010726 -0.00058932 0.0022046
0.0025163 -0.00049659 0.00065799 -0.0014765 4.7771e-05 -0.00026129 -0.017279 -0.0011062
0.12359 0.21112 -0.013669 -0.0026542
-0.00053735 -0.001032 0.0011114 -0.0007287 0.00064807 -0.00028441 -0.00055998 0.0023092
-0.013621 -0.0025498 0.15861 0.28238
1520000000 0.28288 0.11264 -0.014361 0.011373 0.0037362 -0.0045933 0.00018594 0.0026872
0.0022086 -0.0022031 -0.0012291 -0.0001148
-0.014356 0.011348 0.14545 0.32217 0.0023386 0.01366 0.0015428 -0.00085696
-0.00021918 -0.001037 0.00030876 -0.0010707
0.0037428 -0.0045714 0.0024198 0.013713 0.34817 -0.047054 -0.0011896 -0.00017774
0.00055001 -0.0008963 0.00020678 -0.00019652
0.0002357 0.0026786 0.0015459 -0.00086257 -0.0012028 -0.00016802 0.22244 0.14009
-0.015025 0.0052494 0.0019022 0.002241
0.00216 -0.0022331 -0.00023097 -0.0010605 0.00058536 -0.00096134 -0.015123 0.0053338
0.15211 0.19729 -0.012995 0.0029639
-0.0011726 -0.00015546 0.00029112 -0.0010464 0.00013169 -0.00020994 0.0019274 0.0022255
-0.012961 0.0027834 0.19101 0.26073
1580000000 0.29258 0.066152 -0.0071104 0.01413 -0.00084068 -0.0055367 0.0016758 0.0019106
-0.00035479 -0.0023836 -0.00023867 0.00032859
-0.0071274 0.014128 0.17232 0.29733 0.0061868 0.0082372 0.00043112 -0.0015653
-0.00065712 -0.00082869 -0.00028252 -0.00083484
-0.000918 -0.0055578 0.0062797 0.0082412 0.32951 -0.10422 -0.0015037 0.00071368
-0.00033261 -0.0012259 0.00020993 -0.00058934
0.0016499 0.0019403 0.00043875 -0.0015745 -0.0015527 0.00070216 0.2359 0.10012
-0.010241 0.0097504 0.0025509 0.00053524
-0.00028091 -0.0023571 -0.00063772 -0.00082781 -0.00039216 -0.0012293 -0.01021 0.0098124
0.17634 0.17889 -0.0096347 0.0087558
-0.00028473 0.00039607 -0.00032918 -0.00080925 0.00029365 -0.00059973 0.0025736 0.00051669
-0.0097862 0.0087712 0.22189 0.23422
1640000000 0.29454 0.02509 -0.00014684 0.012309 -0.0030989 -0.0030302 0.0028362 0.00090332
-0.00099144 -0.0015981 -0.00027612 0.00058721
-0.00015909 0.012292 0.20131 0.27307 0.0065048 0.0030275 -0.00066432 -0.0017315
-0.00086065 -0.0002105 -0.00055615 -0.00064853
-0.0032187 -0.0030083 0.0065948 0.0029452 0.30174 -0.15374 -0.00050627 0.0014215
-0.0011761 -0.00085197 -0.00024213 -0.00046043
0.0028274 0.00090918 -0.00069121 -0.0017131 -0.00051337 0.0014575 0.24774 0.051371
-0.0049561 0.0099572 0.0026785 -0.00095799
-0.0010441 -0.0015996 -0.00086386 -0.00021617 -0.0011744 -0.00094423 -0.0049069 0.010008
0.19961 0.15455 -0.0043374 0.01069
-0.00030452 0.00050122 -0.00051488 -0.00061563 -0.00020479 -0.00033614 0.0027185 -0.0009723
-0.0042793 0.01081 0.24704 0.2033
1700000000 0.28751 -0.019864 0.0030444 0.0087539 -0.0038553 -0.00020267 0.0031386 -0.001356
-0.0021757 -0.00048762 0.00064272 0.00034306
0.0030362 0.0087498 0.21933 0.24225 0.0042199 -1.3261e-05 -0.0014721 -0.00053019
-0.00063631 2.6009e-05 -0.00093463 -0.00045716
-0.0039919 -5.1435e-05 0.0041641 -0.00010263 0.25904 -0.19366 0.00038014 0.001531
-0.0020022 0.00011598 -0.00041536 -0.00094659
0.0031081 -0.0013946 -0.00149 -0.00056541 0.00048479 0.0014899 0.24423 0.001836
-0.0020701 0.0091353 0.0016418 -0.0024485
-0.0021466 -0.00046455 -0.00063477 -2.1128e-05 -0.0019212 8.7717e-05 -0.0020516 0.0090839
0.21701 0.13368 0.0006768 0.010783
0.0006218 0.0003291 -0.00090989 -0.00036449 -0.00056724 -0.00084511 0.0016803 -0.002402
0.00077544 0.010674 0.26334 0.16914
1760000000 0.27561 -0.067892 0.004766 0.0051067 -0.0026908 0.0010363 0.0011562 -0.003563
-0.0014019 0.00085301 0.00020668 -0.00057194
0.0047609 0.0051069 0.24539 0.20333 0.0016266 -0.0018123 -0.0011514 0.00013869
-0.00097701 0.00070286 -0.00062299 0.00036332
-0.002595 0.0011579 0.0014751 -0.0017808 0.21124 -0.22675 0.0011684 0.0010809
-0.0012166 0.0016633 -0.0013272 -0.00070474
0.0011508 -0.0034561 -0.0011844 0.00017819 0.0011497 0.0010327 0.23514 -0.049358
0.00049301 0.006995 -0.00018199 -0.0027943
-0.0014074 0.0009979 -0.0009956 0.00074951 -0.0012076 0.0016705 0.00046757 0.0070951
0.23167 0.098366 0.0050686 0.0076699
0.00021626 -0.00058494 -0.00060278 0.00033545 -0.0013296 -0.0006329 -0.00010607 -0.0028256
0.004886 0.0076814 0.27608 0.13144
1820000000 0.25173 -0.10497 0.0042096 0.0015904 -0.00059362 0.0026487 -0.0012075 -0.0030543
-0.00090399 0.0010995 -0.00017197 -7.2193e-05
0.0041951 0.0015664 0.256 0.1739 -0.00083983 -0.00075678 -0.0013545 0.00092175
-0.00015152 0.0011026 -0.00065435 0.00057485
-0.00040318 0.0025968 -0.00080872 -0.00060625 0.16142 -0.24374 0.0014632 0.00057552
-9.4733e-05 0.0024721 -0.0016082 0.00054821
-0.0012088 -0.0031458 -0.0013103 0.00093534 0.0014765 0.00049678 0.20552 -0.096119
0.00091256 0.0054727 -0.0017886 -0.0018414
-0.00090597 0.0010877 -0.00019695 0.0010865 -0.00012799 0.002443 0.0010009 0.0054642
0.2485 0.069383 0.0058644 0.0035653
-0.00028328 -1.043e-05 -0.00068767 0.00053241 -0.0017796 0.00060392 -0.0018232 -0.001911
0.0059711 0.003692 0.27806 0.095
1880000000 0.21722 -0.14531 0.0016275 -0.00026164 -0.00063137 0.0024473 -0.0029128 -0.002036
-4.8341e-05 0.0017267 0.00015575 -0.00058422
0.0016474 -0.00027296 0.26119 0.1278 -0.0029032 0.0013572 -0.00023513 0.0017687
0.00032902 0.0013088 0.000173 0.00092525
-0.00056977 0.0023882 -0.0028304 0.00141 0.10895 -0.25403 0.0019048 -0.00074476
0.0017259 0.0019899 -0.00098256 0.0015948
-0.002969 -0.0020804 -0.00021876 0.0017144 0.0018276 -0.00085356 0.1652 -0.13676
0.00083602 0.0036894 -0.002748 8.8907e-05
2.8551e-06 0.0017051 0.00040726 0.0013307 0.0017963 0.0019608 0.00070293 0.0036549
0.25182 0.037357 0.0058677 0.0009871
0.00014623 -0.00054921 7.6636e-05 0.00095088 -0.00090291 0.001661 -0.0026818 0.00013239
0.005926 0.00081693 0.27771 0.060636
1940000000 0.17849 -0.17098 -0.0008121 -0.0014748 0.00157 0.0026194 -0.0037329 0.00049872
0.0013009 0.0010232 -0.00038081 -0.00041183
-0.00080355 -0.0014598 0.26255 0.096145 -0.0019504 0.0042042 0.0010461 0.0014127
0.0017433 0.00074551 0.0010889 0.0004315
0.0014664 0.0024543 -0.0018787 0.0041795 0.06249 -0.24715 0.00068942 -0.0022168
0.0026791 0.00022057 0.00087903 0.0018037
-0.0037399 0.0005172 0.0010864 0.0013792 0.00065227 -0.0021622 0.11283 -0.16715
-0.00048339 0.0028098 -0.0018437 0.001569
0.001321 0.00096174 0.0018073 0.00068851 0.0025805 0.00022034 -0.00046779 0.0031161
0.254 -0.00093148 0.0043972 -0.0026399
-0.00040439 -0.00042009 0.0010681 0.00045174 0.00082942 0.0017934 -0.0017256 0.0014853
0.0041158 -0.0027798 0.26655 0.024124
2000000000 0.13282 -0.18617 -0.0044315 0.00080409 0.0028615 0.0016057 -0.0023896 0.003861
0.0011122 0.00029663 -0.00059023 0.00054124
-0.0044108 0.000784 0.24929 0.06032 -0.0011972 0.0060984 0.0016282 0.00047078
0.0015221 -0.00092643 0.00055245 0.00014573
0.0028882 0.0016543 -0.0010992 0.0060925 0.019082 -0.23319 -0.0014645 -0.0014811
0.002138 -0.0013143 0.0019313 0.0012108
-0.0022848 0.0039074 0.0016242 0.00046848 -0.0013411 -0.0014816 0.059772 -0.17753
-0.0020249 0.0034754 -0.00029518 0.0020283
0.0011145 0.00031427 0.0014841 -0.0009339 0.0020261 -0.0013284 -0.0017923 0.0033457
0.24863 -0.033656 0.0009671 -0.0040088
