!Keysight Technologies,M9804A,MY58100912,A.14.10.03
!Date: Thursday, April 27, 2023 10:28:33
!Correction: S11(C  6-Port  ) 
!S12(C  6-Port  ) 
!S13(C  6-Port  ) 
!S14(C  6-Port  ) 
!S15(C  6-Port  ) 
!S16(C  6-Port  ) 
!S21(C  6-Port  ) 
!S22(C  6-Port  ) 
!S23(C  6-Port  ) 
!S24(C  6-Port  ) 
!S25(C  6-Port  ) 
!S26(C  6-Port  ) 
!S31(C  6-Port  ) 
!S32(C  6-Port  ) 
!S33(C  6-Port  ) 
!S34(C  6-Port  ) 
!S35(C  6-Port  ) 
!S36(C  6-Port  ) 
!S41(C  6-Port  ) 
!S42(C  6-Port  ) 
!S43(C  6-Port  ) 
!S44(C  6-Port  ) 
!S45(C  6-Port  ) 
!S46(C  6-Port  ) 
!S51(C  6-Port  ) 
!S52(C  6-Port  ) 
!S53(C  6-Port  ) 
!S54(C  6-Port  ) 
!S55(C  6-Port  ) 
!S56(C  6-Port  ) 
!S61(C  6-Port  ) 
!S62(C  6-Port  ) 
!S63(C  6-Port  ) 
!S64(C  6-Port  ) 
!S65(C  6-Port  ) 
!S66(C  6-Port  ) 
!S6P File: Measurement: :
# Hz S  RI   R 50
500000000 -0.33497 -0.051274 -0.010306 -0.0013191 -0.0085545 0.013741 -0.003729 0.012016
0.011621 0.0049479 -0.0039759 0.0083973
-0.0101 -0.0012989 -0.4168 -0.06147 0.0080645 -0.010379 0.0017503 0.012295
0.0077112 0.0027496 0.0012103 0.013944
-0.0084198 0.01353 0.0081474 -0.010631 -0.26695 0.20025 0.0069468 0.0032868
-0.0014861 0.0089746 0.0010452 0.0124
-0.0040453 0.01188 0.0014468 0.011976 0.0072802 0.0033426 -0.33228 0.045371
-0.018299 -0.0054077 0.015653 0.02627
0.011826 0.0047171 0.007643 0.0026264 -0.0017994 0.0090455 -0.018274 -0.005322
-0.24992 -0.19196 -0.025521 0.0039012
-0.0038415 0.0081027 0.0010182 0.013268 0.0010994 0.012358 0.01606 0.025878
-0.025438 0.0041808 -0.27385 -0.11492
560000000 -0.31805 0.11438 -0.023491 -0.06397 0.00044789 0.012764 0.0054403 0.011475
0.01031 0.0053743 0.011206 0.0090189
-0.023408 -0.063911 -0.37551 0.10078 -0.042035 -0.037609 0.013487 0.0034401
-0.01402 -0.0037238 0.003686 -0.0013409
0.00014937 0.012729 -0.042422 -0.037508 -0.18526 0.2512 0.00023269 -0.0040418
0.020355 0.0038492 0.0084743 -0.0040607
0.0057649 0.011856 0.013684 0.0033971 0.0002721 -0.0039155 -0.30688 0.13647
0.0055177 -0.023569 0.004151 -0.021931
0.010545 0.0047552 -0.013863 -0.0039956 0.020097 0.00361 0.0054966 -0.023592
-0.30841 -0.011919 0.0070769 -0.047408
0.010685 0.00899 0.0035653 -0.0010474 0.0086068 -0.0041469 0.0039524 -0.02192
0.0066767 -0.046862 -0.33202 0.028356
620000000 -0.27715 0.094357 -0.022871 0.0088203 0.0037031 0.0094529 0.0085725 -0.0050426
0.012129 -0.0011188 0.00086892 -0.0031101
-0.02289 0.0087462 -0.40327 0.050821 -0.018386 0.00081451 -0.0015002 -0.002159
0.012426 -0.0063229 0.0014311 -0.0029466
0.0037744 0.0092967 -0.018409 0.00076502 -0.15538 0.26167 -0.0011336 -0.0054743
-0.0023803 -0.0032154 0.0092823 -0.0030946
0.0084666 -0.0054507 -0.001603 -0.0027302 -0.0011437 -0.005532 -0.26519 0.14744
-0.038553 -0.020632 0.012353 0.027532
0.012881 -0.0012769 0.012337 -0.0059115 -0.0021864 -0.0029293 -0.038473 -0.020458
-0.2317 -0.042913 -0.038926 0.01066
0.0010556 -0.0032107 0.0014295 -0.0035028 0.0093225 -0.0030458 0.012364 0.027267
-0.039612 0.010715 -0.2539 -0.0019517
680000000 -0.23875 0.18429 -0.026356 -0.014306 0.0053077 0.0055138 0.0012315 -0.0073383
-0.0020605 -0.01176 0.0049348 -0.0072663
-0.026284 -0.01432 -0.38951 0.15124 -0.032523 -0.0019572 -0.0011732 -0.00076191
-0.0018255 -0.0095883 -0.00090797 -0.0015502
0.0052211 0.0054065 -0.032523 -0.0018207 -0.10369 0.28125 -0.00096009 -0.00044457
-0.0016837 0.00026381 -0.0026908 -0.0091622
0.0013367 -0.0072085 -0.0011573 -0.00079201 -0.00079305 -0.00052869 -0.22117 0.19755
-0.023273 -0.0073069 -0.0091146 -0.011297
-0.0021908 -0.011756 -0.0018633 -0.0096138 -0.0017941 0.00027596 -0.023321 -0.0072566
-0.27785 0.058604 -0.0070226 -0.007827
0.0048562 -0.0072003 -0.0011225 -0.0015945 -0.0026504 -0.0092128 -0.0089214 -0.011072
-0.0071688 -0.0076742 -0.26002 0.096944
740000000 -0.19334 0.17839 -0.039414 0.027024 0.013424 -0.0049741 -0.00036243 -0.0042977
-0.0049614 -0.0025062 -0.0063278 0.0032526
-0.039372 0.026725 -0.33498 0.16974 -0.036536 0.035023 -0.00039376 -0.0058843
-0.012016 0.0069931 -0.0015985 -0.006389
0.013355 -0.0048569 -0.036274 0.035211 -0.069989 0.27895 -0.0021002 0.0031697
-0.0022106 -0.0049681 -0.0017285 0.0010498
-0.00058729 -0.0041706 -0.00049885 -0.0060811 -0.0020316 0.0032031 -0.20391 0.20496
-0.04257 -0.0076169 0.021922 0.014191
-0.0044085 -0.0024896 -0.011719 0.0073867 -0.0023577 -0.0051308 -0.042649 -0.0075344
-0.17993 0.083514 -0.041522 0.0013398
-0.0064404 0.0034322 -0.001815 -0.0061627 -0.0017325 0.00096199 0.021593 0.014528
-0.041225 0.00088892 -0.24749 0.10477
800000000 -0.16118 0.22205 -0.022518 0.016345 0.0057911 -0.010652 -0.0045828 -0.0022218
-0.0044593 0.0026434 0.0042612 0.0007356
-0.022521 0.016239 -0.3406 0.24032 -0.0084832 0.03414 -0.0021957 0.0019812
-0.0011263 0.0030421 0.00091387 0.0054002
0.0056496 -0.010554 -0.0084389 0.034272 -0.03098 0.30248 0.00087365 0.001375
-6.3748e-05 0.0037349 -0.001719 0.00074906
-0.0045311 -0.0021705 -0.0023159 0.0020961 0.00085529 0.0013562 -0.17365 0.23235
-0.028467 0.013222 0.013636 -0.010185
-0.0045317 0.0023906 -0.0011897 0.0028988 -0.00010461 0.0037222 -0.028448 0.01328
-0.21974 0.11284 -0.016915 0.019562
0.0041861 0.00046346 0.00076488 0.0055093 -0.0018451 0.00066726 0.013692 -0.010389
-0.016981 0.019824 -0.23883 0.15457
860000000 -0.12663 0.24134 -0.017843 0.030277 -0.0028887 -0.010337 -0.0020097 0.00072507
0.0036217 0.0051873 -0.0032228 -0.0024069
-0.017829 0.030314 -0.29244 0.28264 0.0075491 0.034598 -7.1632e-06 0.0020244
0.0035252 0.00068483 0.0036333 0.00072391
-0.0028909 -0.010363 0.0077227 0.034561 0.016451 0.31098 -0.00067393 -8.2283e-05
0.0023697 -0.0013394 0.0017369 0.0043612
-0.001922 0.0006676 -9.4731e-05 0.0021086 -0.00067381 -0.00012364 -0.13773 0.24309
-0.018206 0.017863 -0.0066467 -0.0088301
0.0035375 0.004965 0.0034132 0.00044858 0.0023467 -0.0013417 -0.018274 0.018016
-0.16497 0.16323 -0.023684 0.017333
-0.0033007 -0.0024149 0.0038521 0.00078804 0.0017238 0.0042837 -0.0064649 -0.0087618
-0.024207 0.017124 -0.18994 0.19865
920000000 -0.10337 0.26463 0.0044071 0.038013 -0.0095435 -0.005159 -0.001926 0.0016876
0.00093341 0.0022087 0.0027824 -0.001428
0.0043439 0.038073 -0.26515 0.30418 0.028191 0.02275 0.0016469 0.0012427
0.0075543 -0.00016344 0.0041516 -0.0028063
-0.009565 -0.0051138 0.028319 0.022702 0.061959 0.31262 0.0019869 7.3554e-05
0.001101 -0.00014688 0.00099688 -0.001238
-0.0021309 0.0016668 0.0015489 0.0013939 0.0019469 0.00012012 -0.11262 0.25967
-0.010631 0.030579 0.0033529 -0.0067692
0.0011222 0.0021043 0.00767 -0.000332 0.0011552 -0.00016667 -0.010652 0.030666
-0.15257 0.16997 -0.0013427 0.026875
0.0027357 -0.0013747 0.0041799 -0.0026935 0.0010422 -0.0013104 0.0032713 -0.0068247
-0.0015107 0.026533 -0.19397 0.21269
980000000 -0.05639 0.28463 0.017087 0.030213 -0.0095888 0.0042494 0.0017974 0.0037505
0.0039701 -0.0016135 -0.0030498 -0.002386
0.016957 0.030208 -0.21213 0.33881 0.033549 0.0053264 0.0020884 -9.5536e-06
0.0016264 -0.0061506 -0.00015717 -0.0023623
-0.0096582 0.0042287 0.033595 0.0052304 0.10801 0.30678 0.00063853 -0.0012136
0.00049078 -0.0020168 0.001415 -0.00025136
0.0018628 0.0035749 0.0021097 -0.00010744 0.00062715 -0.0012254 -0.074467 0.27087
0.0073599 0.029928 -0.0088863 -0.0068287
0.0040831 -0.0017077 0.0018278 -0.005927 0.00051838 -0.0019723 0.0074473 0.029939
-0.11854 0.19825 0.0059618 0.019787
-0.0028001 -0.0023954 -0.00029602 -0.0026509 0.0014168 -0.00026036 -0.0088311 -0.0068243
0.0061955 0.019966 -0.15116 0.2554
1040000000 -0.015233 0.29404 0.033017 0.018912 -0.0016313 0.0070681 0.0026037 0.00072995
0.00045613 -0.0035182 -0.00016615 -0.0016011
0.033005 0.018931 -0.17723 0.3524 0.030203 -0.014804 0.0016657 -0.0017944
-0.0020722 -0.002895 -0.0011404 -0.0027762
-0.0015509 0.0070505 0.030223 -0.014891 0.1539 0.29402 -0.00052571 -0.0016887
-0.0016177 -0.00098826 -0.00050783 -0.0011319
0.0026812 0.00088764 0.001663 -0.0017768 -0.00052773 -0.0016818 -0.047279 0.28044
0.019502 0.018276 -0.0027823 0.0012497
0.00066348 -0.0035628 -0.0020936 -0.0027054 -0.0016451 -0.0010175 0.01956 0.018227
-0.085209 0.20455 0.014398 0.017356
1.7195e-05 -0.0014548 -0.0012013 -0.0028109 -0.0004982 -0.0011514 -0.0026747 0.0012518
0.014041 0.017496 -0.12817 0.27568
1100000000 0.029938 0.30299 0.036525 -0.0036038 0.0027441 0.0041722 0.0023949 -0.0011451
-0.0021014 -0.0032141 -0.0040468 -0.00017273
0.036499 -0.003569 -0.13395 0.37045 0.015855 -0.028214 8.0229e-05 -0.00186
-0.003809 -0.0009889 -0.0036857 -0.00056581
0.0027915 0.0042084 0.015773 -0.028278 0.20043 0.27453 -0.0019992 0.00014679
-0.0017611 0.00053314 -0.0010825 -0.00040658
0.002408 -0.0012472 7.8963e-05 -0.0018894 -0.0020143 0.0001436 -0.0067538 0.28537
0.025142 0.0049944 -0.0022995 0.00020219
-0.0022091 -0.0031975 -0.00373 -0.0010614 -0.0017633 0.00051315 0.025208 0.0049505
-0.063835 0.21769 0.019689 0.0079392
-0.0042277 -0.00014999 -0.0038013 -0.00064718 -0.0010833 -0.00040723 -0.0024345 0.00021866
0.019609 0.0078176 -0.081886 0.30319
1160000000 0.080813 0.29893 0.024648 -0.020749 0.0028109 -0.00035745 -7.1804e-05 -0.0024824
-0.003969 -0.00073246 -0.0010053 0.0040802
0.024685 -0.020691 -0.090441 0.37535 -0.0035201 -0.029865 -0.0016843 -0.0017893
-0.0026753 0.0026992 -0.0015869 0.0019728
0.0028243 -0.00038868 -0.0036008 -0.029905 0.24384 0.24411 -0.00078354 0.0018695
-0.00057073 0.0019646 -0.00098561 0.00035429
-7.3756e-05 -0.0023739 -0.0016044 -0.001649 -0.0008012 0.0018649 0.032313 0.2827
0.021092 -0.010658 -0.0032997 0.0050693
-0.004106 -0.00076675 -0.0027467 0.0027552 -0.00058697 0.0019626 0.021116 -0.010739
-0.030307 0.22476 0.018431 -0.0011918
-0.00089553 0.0040534 -0.0015426 0.0019158 -0.0010082 0.000349 -0.0031763 0.0049841
0.018764 -0.00099069 -0.035474 0.30601
1220000000 0.12499 0.28903 0.010957 -0.030489 -0.0015947 -0.00078761 0.00010192 -0.00085817
-0.0027477 0.0022892 0.0013122 0.0021017
0.010942 -0.03045 -0.046224 0.3883 -0.017242 -0.021946 -0.0026623 0.00052785
5.6822e-05 0.0031707 -0.00070715 0.001978
-0.0016321 -0.00077743 -0.017345 -0.021872 0.28304 0.20544 0.00080846 0.0017546
0.00070815 0.0011993 0.0002642 0.00055507
1.5388e-05 -0.00092581 -0.0027208 0.00049206 0.00084301 0.0017442 0.072494 0.27438
0.010471 -0.017544 0.0019378 0.0016633
-0.0026687 0.0022685 0.00012947 0.0031691 0.00072769 0.0012436 0.010474 -0.017603
-0.0056571 0.2329 0.013612 -0.013563
0.0012451 0.0021358 -0.0007766 0.0020423 0.0002611 0.00054102 0.0019369 0.0016553
0.01347 -0.013468 -0.0032861 0.32
1280000000 0.17543 0.26863 -0.0079861 -0.029113 -0.0020216 0.0025364 -0.00088634 -0.0020905
-0.00076678 0.0031084 0.0024993 0.0012689
-0.0079307 -0.029076 0.00010082 0.37982 -0.024512 -0.0088596 -0.00092201 0.0015289
0.0018874 0.0017903 0.00066912 0.0020322
-0.0020195 0.0025177 -0.024619 -0.008796 0.31347 0.16166 0.0016369 -0.00012849
0.0012773 0.0002389 0.0003717 0.00027899
-0.00083082 -0.0020365 -0.00086312 0.0015166 0.0015994 -0.00011653 0.10951 0.25798
0.00045259 -0.019673 -0.00019651 0.00043653
-0.00074355 0.0032053 0.0018539 0.0018152 0.0012582 0.00024593 0.00039617 -0.019716
0.030901 0.23553 0.002646 -0.015894
0.0026898 0.0012155 0.00074663 0.0019292 0.00037505 0.00026143 -0.00012787 0.00044543
0.0026792 -0.015856 0.043509 0.32106
1340000000 0.21276 0.23559 -0.017981 -0.019268 0.00087969 0.0047783 -0.0018385 -0.00091318
0.0015149 0.002628 0.0017991 -0.0014374
-0.017921 -0.019239 0.039816 0.37199 -0.022157 0.0044292 -5.0773e-05 0.0020493
0.0020385 0.00067302 0.001256 0.0008295
0.00091623 0.0047539 -0.022124 0.0045107 0.33531 0.11457 0.0010876 -0.0010344
0.0006857 -0.00055869 0.00013285 0.00029398
-0.0018593 -0.00096792 -4.7201e-05 0.0020512 0.0010623 -0.0010294 0.14269 0.23753
-0.0091587 -0.016609 0.00085161 0.00063415
0.0015567 0.0026831 0.002081 0.00061373 0.00068005 -0.00058901 -0.0092112 -0.016641
0.061117 0.23075 -0.0043655 -0.014189
0.0018149 -0.0014028 0.0012704 0.00085827 0.00014952 0.00028586 0.00080447 0.00061256
-0.0043648 -0.014217 0.081936 0.31508
1400000000 0.24681 0.19808 -0.023956 -0.0074226 0.0053629 0.0033188 -0.0022704 0.00062702
0.0025443 0.00099908 0.00027063 -0.001633
-0.023964 -0.0074247 0.077385 0.35923 -0.015307 0.012872 0.0013871 0.0012476
0.0012665 -0.00091978 0.0011034 0.00010688
0.0053177 0.0033399 -0.015253 0.012986 0.34854 0.061612 6.4867e-06 -0.0015861
8.5143e-05 -0.00038611 0.00026348 0.00029148
-0.0022323 0.00066484 0.0013766 0.0012011 -3.6762e-05 -0.0015904 0.17239 0.20841
-0.015076 -0.0094414 -0.00075701 -0.0001644
0.0025096 0.001016 0.001251 -0.00090699 0.00011516 -0.00036308 -0.01514 -0.0094308
0.094558 0.22575 -0.010721 -0.0089131
0.00028201 -0.0016324 0.0011332 8.3153e-05 0.00021567 0.00030961 -0.00073255 -0.00017364
-0.010703 -0.008792 0.12559 0.30355
1460000000 0.27008 0.15417 -0.020573 0.0051412 0.0059229 -0.0017663 -0.0015775 0.0018362
0.002236 -0.00043893 -0.00040464 -0.0009701
-0.020554 0.0050803 0.11167 0.3373 -0.006143 0.016013 0.0016711 9.9518e-05
0.00074911 -0.0014149 0.0012015 -0.0005755
0.0059323 -0.0018249 -0.0061022 0.016064 0.35508 0.0078485 -0.0012926 -0.001226
9.1597e-05 -0.00025236 0.00068276 -0.00030393
-0.0016479 0.0018405 0.0017026 0.0001471 -0.0012967 -0.0012051 0.199 0.1789
-0.01601 -0.0023495 -0.00073246 0.0019016
0.0021872 -0.0004841 0.00072855 -0.0013833 8.875e-05 -0.0002391 -0.01607 -0.0022907
0.12403 0.21094 -0.012597 -0.0025642
-0.00040325 -0.00092815 0.0012178 -0.00058392 0.00068731 -0.00031456 -0.00071642 0.0019311
-0.012714 -0.002631 0.15833 0.2823
1520000000 0.28274 0.1126 -0.014732 0.010712 0.0036146 -0.0043215 0.00015172 0.0026294
0.002149 -0.0020507 -0.0011533 -0.00015337
-0.014715 0.010719 0.14524 0.32295 0.0018581 0.013563 0.0016019 -0.00078317
-2.997e-05 -0.0010369 0.00034802 -0.0010485
0.0035691 -0.0043437 0.0019377 0.013567 0.34887 -0.047656 -0.0010701 -0.000275
0.00059633 -0.00084447 0.00017614 -0.00018934
0.0002045 0.0026301 0.0015833 -0.0007952 -0.0011004 -0.00027022 0.22245 0.14048
-0.014841 0.0036195 0.0015569 0.001989
0.0021154 -0.0020435 -1.0177e-05 -0.00107 0.00059761 -0.00086724 -0.014864 0.003688
0.1523 0.19717 -0.012161 0.0022131
-0.0011829 -0.00019808 0.00034955 -0.0010537 0.00020652 -0.00018075 0.0015419 0.0020103
-0.01219 0.0022194 0.19101 0.26114
1580000000 0.29257 0.066328 -0.0077855 0.013721 -0.0008312 -0.005199 0.0015692 0.0018852
-0.00025145 -0.0022474 -0.00022766 0.00047316
-0.0078002 0.013719 0.17252 0.29824 0.0057233 0.0084277 0.00050344 -0.0015495
-0.00056784 -0.00096395 -0.00022167 -0.00084937
-0.00083995 -0.0052422 0.0057668 0.0084161 0.32961 -0.10511 -0.0015862 0.00060839
-0.00032102 -0.0012041 0.00026263 -0.00059513
0.0015155 0.0018861 0.00052089 -0.0015495 -0.0015806 0.00058286 0.23619 0.10058
-0.010839 0.0082289 0.0021436 0.00057075
-0.00034273 -0.0022324 -0.00060061 -0.0009402 -0.00034294 -0.0012398 -0.010849 0.0082818
0.17663 0.1788 -0.009407 0.0079542
-0.00021666 0.00050025 -0.00026032 -0.00086474 0.00025376 -0.0006375 0.0022589 0.0006495
-0.0093935 0.0078287 0.22246 0.2343
1640000000 0.29469 0.025367 -0.00091908 0.01235 -0.0029538 -0.0028578 0.0026984 0.00096791
-0.00082767 -0.0016079 -0.00029243 0.00055448
-0.00092064 0.01234 0.20201 0.27369 0.0062606 0.0032892 -0.00060807 -0.001753
-0.00091314 -0.00035856 -0.00053168 -0.00068539
-0.0028501 -0.0028829 0.0062871 0.0032365 0.30158 -0.15453 -0.00065446 0.001432
-0.0011533 -0.00092268 -0.00021271 -0.00036252
0.0027342 0.00089055 -0.00065733 -0.0017171 -0.0006526 0.0013693 0.2484 0.051531
-0.0063335 0.009063 0.0025406 -0.0008782
-0.0007957 -0.0016808 -0.00094692 -0.00036555 -0.001171 -0.00094613 -0.0063152 0.0091088
0.19977 0.15432 -0.0044534 0.0098592
-0.00034911 0.00055738 -0.00050242 -0.00066182 -0.00023907 -0.00034753 0.0024312 -0.00085462
-0.0044474 0.0099706 0.24747 0.20304
1700000000 0.28787 -0.019734 0.0023507 0.0092627 -0.0038284 -0.00019569 0.0030313 -0.0012267
-0.0020416 -0.00056746 0.00058386 0.00035349
0.0023417 0.0092638 0.22032 0.24251 0.004164 0.00024925 -0.0014683 -0.00058253
-0.00079836 -2.7005e-06 -0.0009081 -0.0004555
-0.0038347 -0.00012622 0.0041779 0.00021738 0.25894 -0.19409 0.00042602 0.0015062
-0.0019672 -3.1533e-05 -0.00048716 -0.00099784
0.0030616 -0.0012374 -0.0014235 -0.00061106 0.00043894 0.0014925 0.24499 0.0015114
-0.0035627 0.0091603 0.0015192 -0.0022612
-0.0020473 -0.00054545 -0.00075049 1.6293e-07 -0.0019557 -5.0044e-05 -0.0035528 0.009205
0.21713 0.13354 0.00036183 0.0099627
0.00064713 0.00030208 -0.00091864 -0.00046157 -0.00043643 -0.00097398 0.001523 -0.0022874
0.00028961 0.0098667 0.26352 0.16877
1760000000 0.27611 -0.068291 0.0045018 0.0058953 -0.0025652 0.0011283 0.0012664 -0.0033577
-0.0014459 0.00071754 0.0002936 -0.00071417
0.0044804 0.0058957 0.24646 0.20305 0.0017106 -0.0016033 -0.001218 8.937e-05
-0.001039 0.00076961 -0.00058837 0.00041475
-0.0025784 0.0011174 0.0016881 -0.0016191 0.21091 -0.22753 0.0011416 0.0010364
-0.0012589 0.0015015 -0.0012105 -0.00052084
0.0012508 -0.0033865 -0.0012129 0.00014333 0.0011473 0.0010255 0.23561 -0.050127
-0.00066403 0.0078852 -0.00022037 -0.0025237
-0.0014123 0.00072738 -0.0010359 0.00082932 -0.0012356 0.0015266 -0.00064009 0.0079178
0.23179 0.098239 0.0042461 0.0072919
0.00026304 -0.00062043 -0.00055259 0.00039311 -0.0012265 -0.00054406 -0.00015298 -0.0025925
0.0043153 0.0073038 0.27609 0.13089
1820000000 0.2521 -0.10545 0.0044698 0.0022989 -0.00028971 0.0026107 -0.00099826 -0.0031042
-0.0010061 0.0010258 -0.00023328 -0.00010748
0.0044724 0.0022973 0.25684 0.17326 -0.0008329 -0.00049449 -0.001353 0.00097227
-0.00013881 0.0012284 -0.00060879 0.00052072
-0.00029776 0.0025884 -0.0008152 -0.00047612 0.16028 -0.24427 0.0014672 0.00049613
-0.00018511 0.0023357 -0.0016967 0.00031063
-0.0010637 -0.0030293 -0.0014059 0.00097417 0.0015003 0.00053381 0.20546 -0.097261
0.00047819 0.0065345 -0.0017601 -0.001635
-0.001039 0.0011148 -0.00015629 0.001218 -0.00017391 0.0023757 0.00049889 0.0065181
0.24859 0.069279 0.0051048 0.0034966
-0.00020455 -0.00014398 -0.00061082 0.00056041 -0.0016947 0.00039625 -0.0018002 -0.001525
0.0051295 0.0035157 0.27786 0.09465
1880000000 0.21727 -0.14613 0.0022561 3.5456e-05 -0.00043857 0.0022657 -0.0028355 -0.002274
-8.7901e-05 0.0018428 0.00016369 -0.0005076
0.0022347 4.3253e-05 0.2618 0.12682 -0.0027191 0.0015613 -0.00018609 0.0017408
0.00053846 0.0013744 0.00012325 0.00089452
-0.00040542 0.0022529 -0.0027208 0.0015818 0.10793 -0.25388 0.001908 -0.00089802
0.0017011 0.001991 -0.00087054 0.0015269
-0.0029261 -0.0022361 -0.00019954 0.0017639 0.0019072 -0.00085637 0.16451 -0.13736
0.00091409 0.0047156 -0.0024913 0.00041923
-7.7803e-05 0.0017573 0.00051359 0.0013705 0.0017119 0.0020181 0.00091683 0.0047574
0.25194 0.037218 0.0051711 0.0012288
0.00021293 -0.00044012 0.00010791 0.00090762 -0.00097364 0.0014544 -0.0024303 0.00028123
0.0051638 0.0011864 0.2774 0.060501
1940000000 0.17795 -0.17153 -0.00025876 -0.0014025 0.001491 0.0022316 -0.0036802 0.00051603
0.0013884 0.0010465 -0.00041261 -0.00043637
-0.00026073 -0.0014087 0.26269 0.09512 -0.0015396 0.0042283 0.0010974 0.0014326
0.0018872 0.00062882 0.00099029 0.00039107
0.0015131 0.0022032 -0.0014857 0.0042189 0.062007 -0.24656 0.00067108 -0.0022624
0.0025465 0.00034581 0.00068716 0.0016817
-0.0036913 0.00048775 0.0011017 0.0013299 0.00065174 -0.0022034 0.11187 -0.16775
-3.467e-05 0.0037685 -0.0016227 0.0016418
0.0014339 0.0010446 0.0018808 0.00056914 0.002517 0.00038609 1.6094e-05 0.003702
0.25412 -0.00085722 0.0037881 -0.0021346
-0.0004784 -0.00050845 0.0010151 0.00036102 0.0006761 0.001612 -0.0016004 0.0018382
0.0038194 -0.0020734 0.26619 0.024448
2000000000 0.1322 -0.18687 -0.0041082 0.00066012 0.0024873 0.0014685 -0.0024091 0.003831
0.001223 0.00037588 -0.00043401 0.00040989
-0.0040794 0.00065248 0.24901 0.0593 -0.0008237 0.0059259 0.001657 0.00041887
0.0015173 -0.00103 0.00053265 0.00016132
0.0025839 0.0015137 -0.00079145 0.0059748 0.019078 -0.23257 -0.0013177 -0.0015477
0.0021104 -0.0012714 0.0018357 0.0012046
-0.0023819 0.0038033 0.0016897 0.00038345 -0.0014202 -0.001538 0.058538 -0.17729
-0.0012918 0.0039281 -1.4973e-05 0.0022357
0.0011916 0.00031763 0.0014886 -0.0010437 0.0020633 -0.001285 -0.001283 0.0039471
0.24899 -0.033706 0.00055018 -0.0030794
