!Keysight Technologies,M9804A,MY58100912,A.14.10.03
!Date: Thursday, April 27, 2023 10:28:33
!Correction: S11(C  6-Port  ) 
!S12(C  6-Port  ) 
!S13(C  6-Port  ) 
!S14(C  6-Port  ) 
!S15(C  6-Port  ) 
!S16(C  6-Port  ) 
!S21(C  6-Port  ) 
!S22(C  6-Port  ) 
!S23(C  6-Port  ) 
!S24(C  6-Port  ) 
!S25(C  6-Port  ) 
!S26(C  6-Port  ) 
!S31(C  6-Port  ) 
!S32(C  6-Port  ) 
!S33(C  6-Port  ) 
!S34(C  6-Port  ) 
!S35(C  6-Port  ) 
!S36(C  6-Port  ) 
!S41(C  6-Port  ) 
!S42(C  6-Port  ) 
!S43(C  6-Port  ) 
!S44(C  6-Port  ) 
!S45(C  6-Port  ) 
!S46(C  6-Port  ) 
!S51(C  6-Port  ) 
!S52(C  6-Port  ) 
!S53(C  6-Port  ) 
!S54(C  6-Port  ) 
!S55(C  6-Port  ) 
!S56(C  6-Port  ) 
!S61(C  6-Port  ) 
!S62(C  6-Port  ) 
!S63(C  6-Port  ) 
!S64(C  6-Port  ) 
!S65(C  6-Port  ) 
!S66(C  6-Port  ) 
!S6P File: Measurement: :
# Hz S  RI   R 50
500000000 -0.33492 -0.051064 -0.0098978 -0.00099596 -0.0082689 0.013336 -0.0044639 0.011884
0.012058 0.0048265 -0.0046868 0.0081074
-0.0098833 -0.00096421 -0.41691 -0.061315 0.0079627 -0.010445 0.0013734 0.012381
0.0076268 0.0026374 0.0011084 0.013862
-0.0082407 0.013312 0.0079839 -0.010482 -0.26698 0.20058 0.0072504 0.0035516
-0.0020863 0.0089754 0.0010594 0.012723
-0.0045099 0.011931 0.0013974 0.012394 0.0073489 0.0034549 -0.33212 0.044713
-0.018923 -0.0053211 0.015973 0.025912
0.011999 0.0049631 0.0076702 0.0026567 -0.0020807 0.0088838 -0.018966 -0.0053345
-0.24915 -0.19202 -0.025948 0.003254
-0.0049815 0.0082682 0.0010729 0.013799 0.0011668 0.012502 0.015966 0.025871
-0.026005 0.0033915 -0.2739 -0.11455
560000000 -0.31783 0.11462 -0.023163 -0.064394 6.6022e-05 0.012946 0.0054714 0.011751
0.010268 0.0040843 0.010609 0.0088232
-0.02312 -0.064296 -0.37534 0.10095 -0.042462 -0.037415 0.014052 0.0036958
-0.014163 -0.0039871 0.003788 -0.00036853
0.00012229 0.012937 -0.042434 -0.037353 -0.18501 0.25109 0.00036942 -0.0043279
0.019447 0.004427 0.0079779 -0.0046564
0.0056213 0.011584 0.013857 0.0035758 0.00027012 -0.0042527 -0.30724 0.13666
0.007468 -0.024374 0.0046755 -0.021033
0.010443 0.0040584 -0.014473 -0.0039839 0.019617 0.0043428 0.0075178 -0.024406
-0.31041 -0.014233 0.0086872 -0.048417
0.010797 0.0087815 0.0038958 -0.00069758 0.007893 -0.0044868 0.0047138 -0.020919
0.0087757 -0.048374 -0.33093 0.029594
620000000 -0.27774 0.094846 -0.022927 0.0088229 0.0038464 0.009495 0.0082467 -0.005415
0.013233 -0.0012658 0.0013045 -0.002582
-0.022922 0.0088064 -0.40332 0.050909 -0.018324 0.00070926 -0.0015179 -0.0024808
0.012065 -0.00601 0.0014042 -0.0033239
0.0039166 0.0094724 -0.018404 0.00076305 -0.15541 0.26113 -0.00093203 -0.005442
-0.0029945 -0.0028643 0.0090941 -0.0035619
0.0082157 -0.005234 -0.0015184 -0.0026221 -0.0010538 -0.0055061 -0.26562 0.14731
-0.037924 -0.019355 0.011883 0.026956
0.013065 -0.0016788 0.012138 -0.0059314 -0.0029532 -0.0029937 -0.038009 -0.019277
-0.23138 -0.045021 -0.03855 0.012098
0.00094929 -0.0029159 0.0013185 -0.0032914 0.0091172 -0.0033628 0.011841 0.027281
-0.038828 0.01197 -0.25482 -0.0013441
680000000 -0.23877 0.18463 -0.02636 -0.014305 0.0051562 0.0054493 0.001301 -0.0073662
-0.0024823 -0.011965 0.0050208 -0.0070886
-0.026327 -0.014309 -0.38941 0.15122 -0.032518 -0.0018735 -0.0010365 -0.00072355
-0.0018065 -0.0095948 -0.0011816 -0.001689
0.0051696 0.0054412 -0.032547 -0.0018029 -0.10371 0.28135 -0.00068266 -0.00045825
-0.0018028 0.00019871 -0.0027611 -0.0092887
0.0014301 -0.0073326 -0.0011062 -0.00067649 -0.00076603 -0.00036839 -0.22058 0.19755
-0.023025 -0.0077215 -0.0087905 -0.01154
-0.0024497 -0.012098 -0.0018911 -0.0095709 -0.0017879 0.00028352 -0.023023 -0.0076508
-0.27774 0.058045 -0.0074054 -0.0074017
0.0049946 -0.0068862 -0.0013361 -0.0016698 -0.0029153 -0.0092824 -0.0088399 -0.011594
-0.007388 -0.0073593 -0.25894 0.096632
740000000 -0.19311 0.17874 -0.039566 0.026925 0.013413 -0.0048876 -0.00072616 -0.0042159
-0.0041193 -0.0024727 -0.0063422 0.0036549
-0.039555 0.026904 -0.33501 0.16913 -0.03623 0.035112 -0.00015395 -0.0064362
-0.012402 0.0077826 -0.0014611 -0.0059779
0.013454 -0.004916 -0.036221 0.035231 -0.069907 0.27905 -0.0019679 0.0033217
-0.0025533 -0.0054149 -0.0016252 0.0010167
-0.00060101 -0.0040646 -0.00014127 -0.00646 -0.0019885 0.0032747 -0.20361 0.20474
-0.042546 -0.0068717 0.022104 0.014676
-0.004266 -0.0026484 -0.012433 0.0082147 -0.0026715 -0.0053809 -0.042612 -0.0067573
-0.17901 0.082513 -0.041876 0.0011243
-0.0065427 0.0035392 -0.0017352 -0.0059822 -0.0015553 0.00091433 0.021989 0.014704
-0.042044 0.00093568 -0.24742 0.1056
800000000 -0.16122 0.22189 -0.022516 0.016166 0.0057234 -0.010558 -0.0045067 -0.0021093
-0.004602 0.0022427 0.0041687 0.00058715
-0.022509 0.016161 -0.34048 0.24028 -0.008464 0.034271 -0.0022534 0.0021376
-0.0010672 0.0027459 0.0008275 0.0054726
0.0057019 -0.010582 -0.0083678 0.034302 -0.030921 0.30262 0.00077463 0.0013707
-6.5016e-05 0.0036231 -0.0020583 0.00068752
-0.0045181 -0.0021296 -0.0022481 0.0021844 0.0007723 0.0013785 -0.17378 0.23233
-0.028306 0.013156 0.013443 -0.010412
-0.0045935 0.0022864 -0.0010403 0.0027443 -5.2839e-05 0.0036685 -0.028315 0.013226
-0.21987 0.1128 -0.016905 0.019747
0.0041562 0.00056272 0.00084134 0.0054766 -0.0020496 0.00067463 0.013385 -0.010447
-0.016896 0.019785 -0.23905 0.15433
860000000 -0.12662 0.24166 -0.017912 0.030516 -0.0029114 -0.010413 -0.0019677 0.00077576
0.003765 0.005112 -0.0034299 -0.0026078
-0.017898 0.030478 -0.29251 0.28285 0.0076209 0.034646 -0.00018763 0.001896
0.0035491 0.00072189 0.0034205 0.00054956
-0.0029484 -0.010404 0.0077283 0.034632 0.016553 0.31104 -0.00067142 -0.00010742
0.0024746 -0.0013043 0.0016869 0.0042292
-0.0018742 0.00073293 -0.00011301 0.0019894 -0.00073239 -0.00010124 -0.13775 0.24314
-0.018469 0.018079 -0.006166 -0.0087818
0.0038901 0.0051215 0.0036446 0.00079011 0.0023892 -0.0013296 -0.018462 0.018075
-0.16549 0.16267 -0.023662 0.017983
-0.0034749 -0.0026144 0.0034143 0.00055375 0.0017903 0.0042458 -0.0061584 -0.008776
-0.023529 0.017931 -0.18947 0.1978
920000000 -0.10338 0.26454 0.0044026 0.038171 -0.0095388 -0.005213 -0.0020697 0.0017608
0.001247 0.0022699 0.002939 -0.0015836
0.0043933 0.038135 -0.26539 0.30412 0.028147 0.022721 0.0015729 0.0013153
0.007406 -0.00023885 0.0041838 -0.0026379
-0.0095424 -0.0051746 0.028242 0.022659 0.062025 0.31259 0.0019108 5.0773e-05
0.001133 -0.00015875 0.00096544 -0.0011225
-0.0020279 0.0017406 0.0016029 0.0013517 0.0019373 4.3115e-05 -0.1126 0.25957
-0.010788 0.030804 0.0032504 -0.0067557
0.0012137 0.0022848 0.0074249 -0.00021179 0.0010963 -0.00015606 -0.010706 0.030846
-0.15273 0.1697 -0.0013864 0.02708
0.0028631 -0.0016479 0.0042104 -0.0026747 0.00089469 -0.0011618 0.0032323 -0.0067824
-0.0014163 0.027198 -0.19356 0.21279
980000000 -0.056459 0.28462 0.016972 0.030157 -0.0096486 0.0041939 0.001737 0.0035391
0.0040793 -0.0017385 -0.002993 -0.0023937
0.016949 0.030152 -0.21201 0.33875 0.033528 0.0053209 0.0020186 -0.00013058
0.0017257 -0.0060859 -0.0003077 -0.0024942
-0.0096451 0.0042318 0.033603 0.0052173 0.10799 0.3068 0.00059789 -0.0011865
0.00044805 -0.0020628 0.0013409 -0.00026257
0.001783 0.0035501 0.0020455 -0.00014213 0.00062264 -0.0011998 -0.074459 0.27088
0.0072953 0.029846 -0.0088154 -0.0068555
0.0040966 -0.0017105 0.0016905 -0.0061447 0.00047262 -0.0020693 0.0073592 0.029837
-0.11828 0.19804 0.0060922 0.020187
-0.0030334 -0.0024545 -0.00031862 -0.0025148 0.0013998 -0.00033165 -0.008767 -0.0068983
0.0060694 0.020276 -0.15099 0.25539
1040000000 -0.015186 0.29398 0.033126 0.018746 -0.001576 0.0069874 0.0027244 0.000852
0.00058618 -0.0035753 5.7872e-05 -0.0015963
0.033087 0.018761 -0.17711 0.35237 0.030221 -0.014779 0.0016106 -0.0017969
-0.0020935 -0.0027855 -0.0012452 -0.0027806
-0.0015815 0.0069906 0.030201 -0.014916 0.154 0.29402 -0.00048604 -0.001682
-0.0015231 -0.0009787 -0.00058377 -0.0010647
0.0027126 0.00084383 0.0016282 -0.0018425 -0.00049245 -0.0016702 -0.047284 0.2804
0.019627 0.018439 -0.0027357 0.0013507
0.00056843 -0.0035249 -0.0021168 -0.0028101 -0.0015878 -0.00098009 0.019668 0.018424
-0.085589 0.20516 0.014292 0.017425
2.4659e-05 -0.001617 -0.001293 -0.0027457 -0.00061846 -0.0011187 -0.0027649 0.0013562
0.014263 0.017374 -0.12769 0.27571
1100000000 0.029929 0.30286 0.036455 -0.0036368 0.0028051 0.0041835 0.0023979 -0.0012132
-0.0021665 -0.0031712 -0.004168 -1.1841e-05
0.036433 -0.0036184 -0.13401 0.37051 0.015874 -0.028185 3.4255e-05 -0.0018469
-0.0037291 -0.0010443 -0.0037177 -0.00060919
0.0028111 0.0041703 0.015794 -0.028269 0.2005 0.27451 -0.0020105 0.00018365
-0.0018027 0.00050371 -0.0010419 -0.00042854
0.0023899 -0.0012222 4.5787e-05 -0.0018655 -0.0020348 0.00016523 -0.0067965 0.28546
0.024923 0.0050937 -0.002251 0.00018495
-0.0021891 -0.0031901 -0.0037402 -0.0010581 -0.0018103 0.00050721 0.024931 0.0050618
-0.064437 0.21721 0.019652 0.0082344
-0.0042352 -4.5622e-05 -0.0037671 -0.00062864 -0.0010226 -0.00041784 -0.0021986 0.0002022
0.019657 0.008298 -0.081539 0.30345
1160000000 0.080858 0.29891 0.02463 -0.020788 0.0027986 -0.00036299 -3.0737e-05 -0.0024351
-0.0040883 -0.00080923 -0.0010391 0.0040483
0.024631 -0.020751 -0.090498 0.37524 -0.0035234 -0.02984 -0.0016343 -0.0018025
-0.0026919 0.0026812 -0.00167 0.0019621
0.0027952 -0.00037602 -0.0036268 -0.029868 0.24388 0.24408 -0.00075098 0.0018429
-0.00052799 0.0020252 -0.00096852 0.0003676
-4.2321e-05 -0.0024508 -0.0016229 -0.0017838 -0.00076485 0.00186 0.032318 0.28264
0.021224 -0.010668 -0.0034307 0.0051322
-0.0040656 -0.0008147 -0.0026671 0.0026921 -0.00056499 0.0019912 0.021213 -0.010697
-0.029773 0.2251 0.018379 -0.0016573
-0.0010345 0.0040602 -0.0016754 0.0019839 -0.0009659 0.00034777 -0.0034604 0.0051484
0.018388 -0.0016294 -0.035195 0.30623
1220000000 0.12504 0.28905 0.010933 -0.03043 -0.0015777 -0.00081975 -1.7047e-05 -0.00086202
-0.0027215 0.0022419 0.0012687 0.0021767
0.010943 -0.030388 -0.046208 0.38839 -0.017236 -0.021928 -0.0027046 0.00054806
3.4721e-05 0.003177 -0.00072151 0.002032
-0.0015943 -0.00080931 -0.017341 -0.021867 0.28314 0.20539 0.00084315 0.0017936
0.0006411 0.0012165 0.00028688 0.00057709
-2.6414e-05 -0.00086663 -0.0027257 0.00055001 0.00084401 0.0017792 0.072612 0.27437
0.010475 -0.017538 0.0019576 0.0016588
-0.0026834 0.0022605 5.5422e-05 0.0031762 0.00068494 0.0012391 0.010464 -0.017557
-0.0056952 0.23323 0.013571 -0.013446
0.0012529 0.0021484 -0.00073959 0.002013 0.00022776 0.00057838 0.0019762 0.0016758
0.013517 -0.013418 -0.0029049 0.32
1280000000 0.17549 0.26847 -0.0079874 -0.029159 -0.0020263 0.0025186 -0.00078078 -0.0020995
-0.00068624 0.0032241 0.0025384 0.0012388
-0.0079679 -0.029135 0.00013085 0.37986 -0.024547 -0.0088336 -0.00094871 0.0014639
0.0018719 0.0017904 0.00064446 0.00207
-0.0020201 0.0025288 -0.0246 -0.0087391 0.31354 0.16155 0.0015861 -0.00012836
0.0012328 0.00020804 0.00031146 0.00026188
-0.0007855 -0.0020725 -0.00096261 0.0014824 0.0015689 -0.00012991 0.10966 0.25802
0.00054218 -0.019536 -4.7925e-05 0.00043668
-0.00066538 0.0032238 0.0018681 0.001777 0.0012279 0.0001839 0.00050001 -0.01954
0.030768 0.23606 0.0028785 -0.015983
0.0025597 0.001214 0.00065415 0.0020657 0.00033981 0.00024143 -5.7347e-05 0.00043974
0.0028813 -0.015973 0.04361 0.3209
1340000000 0.21284 0.23561 -0.017927 -0.01922 0.00090152 0.0047701 -0.0018828 -0.00089958
0.0015303 0.0026598 0.0018238 -0.0014724
-0.017898 -0.019217 0.039775 0.37197 -0.022138 0.0044008 -1.9657e-05 0.0020511
0.0020586 0.00066141 0.0012544 0.00081898
0.00092786 0.0047597 -0.022145 0.0044975 0.3354 0.1145 0.0010577 -0.0010481
0.0007396 -0.00064939 0.00016118 0.00024827
-0.0018909 -0.00091085 -2.3652e-05 0.0020611 0.0010579 -0.0010392 0.14275 0.23759
-0.0091822 -0.016501 0.00086339 0.00061145
0.0015647 0.0026416 0.0020709 0.00065847 0.00074761 -0.00059636 -0.009219 -0.016495
0.061265 0.23081 -0.0043787 -0.013987
0.0018367 -0.0014605 0.0012809 0.00081988 0.00016852 0.00025553 0.00086012 0.00059786
-0.0044101 -0.01399 0.08215 0.31487
1400000000 0.24676 0.19801 -0.023977 -0.0073421 0.0053426 0.0033578 -0.0022043 0.00060359
0.0025346 0.0010207 0.00027347 -0.0016425
-0.02395 -0.0073544 0.077464 0.35926 -0.01527 0.012881 0.0013526 0.0012444
0.0012049 -0.00090236 0.0011646 9.66e-05
0.0053526 0.0033354 -0.015225 0.012965 0.34863 0.061531 -3.0992e-05 -0.0015719
5.3885e-05 -0.00033472 0.0002234 0.00027404
-0.0022024 0.00063091 0.0013562 0.0012242 -5.4035e-05 -0.0015687 0.17249 0.20838
-0.014978 -0.0094496 -0.00075705 -0.00015099
0.0025277 0.0010015 0.0012078 -0.00092661 5.178e-05 -0.00034758 -0.015 -0.0094205
0.094868 0.22587 -0.010738 -0.0089095
0.00024863 -0.0016294 0.0011676 0.00010683 0.00023781 0.00027379 -0.00075834 -0.00014631
-0.010721 -0.0089282 0.12571 0.30359
1460000000 0.27012 0.15412 -0.020605 0.0050663 0.0059026 -0.0017767 -0.0016273 0.0018944
0.0021482 -0.00045699 -0.00038131 -0.00098479
-0.020588 0.0050524 0.11171 0.33732 -0.006123 0.016029 0.0016963 0.000103
0.0007681 -0.0013922 0.0011828 -0.00057638
0.0058903 -0.0018062 -0.0060483 0.016056 0.3551 0.0077636 -0.0013085 -0.0012288
0.00010031 -0.00028721 0.00067038 -0.00035009
-0.0016141 0.0018999 0.0017022 0.00010339 -0.0013263 -0.0011975 0.19898 0.17886
-0.015991 -0.0023691 -0.00060365 0.0019757
0.0021502 -0.00047273 0.00077183 -0.0014002 8.9129e-05 -0.00026026 -0.016002 -0.0023344
0.12423 0.2109 -0.012596 -0.0024343
-0.00036018 -0.00098115 0.0011856 -0.00059155 0.0006586 -0.00033715 -0.00061167 0.0019651
-0.012606 -0.0024513 0.15864 0.28198
1520000000 0.28257 0.11266 -0.014705 0.010705 0.003582 -0.0043253 0.00015186 0.0025803
0.0021047 -0.0020182 -0.0011881 -0.00013155
-0.014711 0.010689 0.14526 0.32293 0.0018441 0.013538 0.0016066 -0.00076452
1.2079e-05 -0.0010289 0.00036905 -0.0010599
0.0035773 -0.0043432 0.0019108 0.013545 0.34889 -0.04777 -0.0010886 -0.00026603
0.00063022 -0.00086181 0.00019108 -0.00020654
0.00016737 0.002571 0.0016067 -0.00077609 -0.0010696 -0.00025818 0.22252 0.14038
-0.014725 0.0035396 0.0015119 0.0019735
0.0020936 -0.0020315 -2.6695e-06 -0.0010445 0.00060995 -0.00084493 -0.014723 0.0035792
0.15247 0.19715 -0.012162 0.0022222
-0.0011803 -0.00013767 0.00037251 -0.00107 0.00018176 -0.00021116 0.0015176 0.001965
-0.012169 0.0022235 0.19124 0.26121
1580000000 0.29252 0.066345 -0.0077997 0.013731 -0.00082439 -0.0051722 0.0015639 0.0019204
-0.00031562 -0.0022073 -0.00017158 0.00043406
-0.0077985 0.013713 0.17259 0.2982 0.0057182 0.0084003 0.00049475 -0.0015857
-0.00057217 -0.00096068 -0.00023996 -0.00084333
-0.00084004 -0.0051659 0.0057823 0.0083946 0.32965 -0.10525 -0.0015595 0.00057823
-0.00035267 -0.0011815 0.00015263 -0.00063998
0.001562 0.0019166 0.00048264 -0.0015869 -0.0015604 0.00057717 0.23618 0.10052
-0.010841 0.0081381 0.0022015 0.000589
-0.00032652 -0.0021995 -0.00059259 -0.00094897 -0.00038651 -0.0012269 -0.010825 0.008174
0.17672 0.17854 -0.009423 0.0079891
-0.00015531 0.0004389 -0.00025934 -0.00083946 0.00011719 -0.00065102 0.0021915 0.00058624
-0.0094088 0.0079919 0.22266 0.23408
1640000000 0.29475 0.025489 -0.00091054 0.012322 -0.0028469 -0.0029121 0.0026811 0.00092284
-0.00081831 -0.0016472 -0.00029553 0.00054933
-0.00092153 0.01232 0.20203 0.27367 0.0062974 0.003257 -0.00060184 -0.0017261
-0.00090748 -0.00037855 -0.00053403 -0.00070469
-0.0028769 -0.0029019 0.0063298 0.003225 0.30156 -0.15472 -0.00062553 0.0014033
-0.0011093 -0.00089946 -0.00017819 -0.00030053
0.0026792 0.00089473 -0.00061154 -0.0017196 -0.00063354 0.0014422 0.24837 0.051464
-0.0063936 0.0089919 0.0024362 -0.00092127
-0.00081753 -0.0016461 -0.00092078 -0.0003556 -0.0011335 -0.00091363 -0.006378 0.0090207
0.1998 0.1542 -0.0044139 0.0097589
-0.00028712 0.00055602 -0.00054272 -0.00068686 -0.00019035 -0.00033178 0.0024279 -0.00092289
-0.0044011 0.009744 0.24762 0.20307
1700000000 0.28797 -0.019691 0.0023615 0.0092526 -0.0038329 -0.00018402 0.0031081 -0.0012079
-0.0020048 -0.00055643 0.00064605 0.00029253
0.0023508 0.0092437 0.22033 0.24251 0.0041633 0.00020751 -0.0014525 -0.00058231
-0.00077677 -8.4978e-06 -0.00089263 -0.00042364
-0.0038437 -0.00017425 0.0041539 0.00020735 0.25909 -0.19412 0.00046938 0.0015305
-0.0019291 -5.0504e-05 -0.0004447 -0.00096666
0.003094 -0.0012152 -0.0014506 -0.00058563 0.00045737 0.001524 0.24494 0.001368
-0.0036379 0.0090818 0.0014848 -0.0022782
-0.0019933 -0.00055965 -0.00077946 -3.8648e-06 -0.0019112 -5.304e-05 -0.0036178 0.0090852
0.21711 0.13333 0.0002908 0.0099508
0.00064237 0.00028529 -0.00090724 -0.00043076 -0.00046442 -0.00094691 0.0014862 -0.0022931
0.00029808 0.0099538 0.26361 0.16855
1760000000 0.2762 -0.068359 0.004512 0.0058713 -0.0025436 0.0011458 0.0012068 -0.0033995
-0.0014316 0.00068914 0.0003498 -0.00059584
0.0045045 0.005877 0.24647 0.20303 0.0016956 -0.0016215 -0.0011915 9.2999e-05
-0.0010378 0.00079785 -0.00060946 0.0004213
-0.0025321 0.0011549 0.0016878 -0.001633 0.21081 -0.22776 0.0011595 0.0010213
-0.0012112 0.0014635 -0.0012465 -0.00054562
0.0012108 -0.0033903 -0.0011948 9.5305e-05 0.001173 0.0010082 0.23565 -0.050085
-0.0006854 0.0078977 -0.0002498 -0.0025748
-0.0014353 0.00070361 -0.0010347 0.00080502 -0.0012081 0.0014754 -0.00066 0.0079002
0.23168 0.098108 0.0043511 0.0071317
0.00035199 -0.00061022 -0.0006076 0.0004325 -0.0012524 -0.00056275 -0.00027212 -0.0025753
0.0043373 0.0071428 0.27616 0.13088
1820000000 0.25217 -0.10553 0.0044385 0.0022667 -0.00036479 0.0025657 -0.00097784 -0.0030337
-0.0010177 0.0010432 -0.00021797 -0.0001314
0.004417 0.0022679 0.25684 0.17325 -0.00082521 -0.00050753 -0.0013595 0.00097673
-0.00016111 0.0012392 -0.00057672 0.00053757
-0.00036797 0.002588 -0.00084151 -0.0004892 0.16025 -0.24411 0.001548 0.00060008
-0.00018535 0.0024247 -0.0016291 0.00037403
-0.0010004 -0.0029951 -0.001356 0.00099524 0.0015492 0.00061462 0.20548 -0.09722
0.00045122 0.0065265 -0.0017553 -0.0015172
-0.00098815 0.001085 -0.00015243 0.0012516 -0.00018807 0.0024035 0.00046293 0.0065279
0.24857 0.069166 0.0050241 0.0035515
-0.00025478 -0.00012489 -0.00058689 0.00054763 -0.0016055 0.00038932 -0.0017604 -0.0015233
0.0050406 0.0035424 0.27804 0.094406
1880000000 0.21722 -0.14636 0.0022186 1.1922e-05 -0.00043688 0.0022534 -0.0029723 -0.0021751
-0.0001792 0.0018508 0.00014148 -0.00053528
0.0022214 1.424e-05 0.26179 0.12678 -0.0027354 0.0015276 -0.00023266 0.0017722
0.00050346 0.0013855 0.00010408 0.00088531
-0.00041478 0.0022623 -0.002736 0.0015674 0.10794 -0.25395 0.0018752 -0.00081116
0.0016886 0.0020131 -0.00094088 0.0014581
-0.0029796 -0.0021544 -0.00020988 0.001774 0.0018631 -0.00084806 0.16438 -0.13737
0.000801 0.0048352 -0.0024836 0.00042971
-0.00014934 0.0018605 0.00051075 0.0013891 0.0016857 0.0020027 0.00081106 0.004843
0.25172 0.037327 0.0051539 0.0010397
0.00018565 -0.00056161 0.00012366 0.0008938 -0.0009164 0.0014405 -0.0024993 0.00041313
0.0051765 0.0010412 0.27741 0.060314
1940000000 0.17784 -0.1717 -0.00031589 -0.001407 0.0014712 0.0021613 -0.0037599 0.00035334
0.0013879 0.0010488 -0.00039319 -0.00043579
-0.00032271 -0.0014019 0.26266 0.0951 -0.0014784 0.0042066 0.0010898 0.0013519
0.0019013 0.0005824 0.0010271 0.00035374
0.0014778 0.0021815 -0.0014482 0.0041886 0.061884 -0.24653 0.00066337 -0.0023491
0.0025416 0.00029491 0.00071821 0.0015882
-0.0037657 0.00038719 0.0010848 0.0013317 0.00067165 -0.0023413 0.11175 -0.16774
-6.1843e-05 0.003703 -0.0014164 0.0017584
0.0013982 0.0010293 0.001904 0.00056689 0.0025377 0.00031968 -5.1681e-05 0.0037082
0.25408 -0.0008582 0.0037382 -0.0020613
-0.00042284 -0.0004185 0.0010075 0.0003473 0.00067451 0.0016698 -0.0014136 0.0017735
0.0037347 -0.0020842 0.2663 0.024071
2000000000 0.132 -0.18682 -0.0040815 0.00066979 0.0025321 0.0015088 -0.0023469 0.0038578
0.0012392 0.00038371 -0.00048637 0.00035019
-0.0040919 0.00065851 0.24898 0.059324 -0.00087863 0.0059416 0.0016974 0.00037335
0.0015163 -0.0010921 0.0004891 0.00021088
0.0025484 0.0015134 -0.00083208 0.0059619 0.018984 -0.23251 -0.0014347 -0.0015516
0.0020187 -0.0012787 0.0017857 0.0012644
-0.0023223 0.0038605 0.001703 0.00036789 -0.0014792 -0.0015434 0.058587 -0.17743
-0.0012733 0.0038797 1.8423e-05 0.0021911
0.0012537 0.00036675 0.0015023 -0.0011026 0.0020228 -0.0013031 -0.0012597 0.0038907
