!Keysight Technologies,M9804A,MY58100912,A.14.10.03
!Date: Thursday, April 27, 2023 10:28:33
!Correction: S11(C  6-Port  ) 
!S12(C  6-Port  ) 
!S13(C  6-Port  ) 
!S14(C  6-Port  ) 
!S15(C  6-Port  ) 
!S16(C  6-Port  ) 
!S21(C  6-Port  ) 
!S22(C  6-Port  ) 
!S23(C  6-Port  ) 
!S24(C  6-Port  ) 
!S25(C  6-Port  ) 
!S26(C  6-Port  ) 
!S31(C  6-Port  ) 
!S32(C  6-Port  ) 
!S33(C  6-Port  ) 
!S34(C  6-Port  ) 
!S35(C  6-Port  ) 
!S36(C  6-Port  ) 
!S41(C  6-Port  ) 
!S42(C  6-Port  ) 
!S43(C  6-Port  ) 
!S44(C  6-Port  ) 
!S45(C  6-Port  ) 
!S46(C  6-Port  ) 
!S51(C  6-Port  ) 
!S52(C  6-Port  ) 
!S53(C  6-Port  ) 
!S54(C  6-Port  ) 
!S55(C  6-Port  ) 
!S56(C  6-Port  ) 
!S61(C  6-Port  ) 
!S62(C  6-Port  ) 
!S63(C  6-Port  ) 
!S64(C  6-Port  ) 
!S65(C  6-Port  ) 
!S66(C  6-Port  ) 
!S6P File: Measurement: :
# Hz S  RI   R 50
500000000 -0.33625 -0.051445 -0.010293 -0.0010047 -0.0086767 0.013319 -0.0044266 0.01247
0.011957 0.0056642 -0.0042104 0.008821
-0.010445 -0.00082398 -0.41721 -0.062103 0.0073607 -0.010708 0.0010395 0.012564
0.0077558 0.0030292 0.00054406 0.013693
-0.0085808 0.013615 0.0073506 -0.010728 -0.2684 0.20029 0.0065777 0.0038341
-0.0018688 0.0091992 -1.0091e-05 0.012459
-0.0044041 0.012045 0.0010585 0.01256 0.0065865 0.0038458 -0.33429 0.044555
-0.017256 -0.004882 0.014049 0.025272
0.012001 0.0054995 0.0077663 0.0030297 -0.0018848 0.0091572 -0.017293 -0.0048787
-0.25067 -0.19251 -0.02419 0.0045303
-0.0042691 0.0084495 0.00058688 0.013695 6.636e-05 0.012522 0.013998 0.025283
-0.024253 0.0044676 -0.27676 -0.11671
560000000 -0.31863 0.114 -0.023839 -0.06463 0.00099897 0.01305 0.0051057 0.011207
0.0096828 0.0046421 0.011091 0.0087659
-0.023813 -0.06449 -0.37499 0.10288 -0.043303 -0.037637 0.014589 0.0031586
-0.015485 -0.0046099 0.0048398 -0.00031444
0.00098395 0.013218 -0.043442 -0.037607 -0.18568 0.2517 -0.0001133 -0.00362
0.02072 0.0046022 0.0072607 -0.0044929
0.0051724 0.011246 0.014712 0.0030306 -0.00014396 -0.0035031 -0.30682 0.13581
0.003693 -0.023663 0.0054251 -0.02153
0.0097552 0.004503 -0.015544 -0.0046198 0.020723 0.0046433 0.0037281 -0.02371
-0.30737 -0.010356 0.0047121 -0.048036
0.011078 0.0088359 0.0048288 -0.00032056 0.0072444 -0.0044572 0.005415 -0.021497
0.0047577 -0.048108 -0.33045 0.029275
620000000 -0.27781 0.094872 -0.023312 0.0092133 0.0037001 0.010062 0.0087683 -0.0044061
0.012271 -0.0011349 0.0018024 -0.0015381
-0.023279 0.0091364 -0.40395 0.050619 -0.018574 0.00092986 -0.0014095 -0.0024406
0.012637 -0.0057126 0.001001 -0.0032241
0.0037564 0.010185 -0.018588 0.00096811 -0.15561 0.26252 -0.00091584 -0.0055238
-0.0022337 -0.0024386 0.0092234 -0.003571
0.0087492 -0.0042321 -0.0014139 -0.0024619 -0.00080999 -0.005553 -0.26619 0.14717
-0.037843 -0.019619 0.012356 0.02704
0.012121 -0.0015425 0.012619 -0.0057459 -0.0023755 -0.0023197 -0.037899 -0.019574
-0.23305 -0.044783 -0.039591 0.011426
0.0017568 -0.001605 0.00095346 -0.0032587 0.0091637 -0.0036088 0.01233 0.027065
-0.0396 0.011383 -0.25352 -0.0020432
680000000 -0.23918 0.18524 -0.026379 -0.013629 0.0055379 0.0057061 0.0018209 -0.0075223
-0.0023273 -0.011593 0.0054866 -0.0075859
-0.026407 -0.013694 -0.38949 0.15145 -0.0324 -0.0016509 -0.001469 -0.00061789
-0.0016341 -0.0099534 -0.0010866 -0.0016491
0.0055067 0.0056615 -0.032438 -0.0015646 -0.10331 0.28186 -0.000948 -0.00046317
-0.0016671 3.4762e-05 -0.0029776 -0.0092295
0.0018819 -0.007411 -0.0014739 -0.00059067 -0.00097682 -0.00047095 -0.22032 0.19803
-0.024075 -0.0070215 -0.0085023 -0.010362
-0.0023678 -0.011629 -0.0016906 -0.0099246 -0.0016667 9.0594e-05 -0.024098 -0.00699
-0.2789 0.059238 -0.0083612 -0.0071952
0.0054648 -0.0076625 -0.0010518 -0.0016418 -0.0029356 -0.0092574 -0.0084806 -0.010381
-0.0084024 -0.0071872 -0.25794 0.09856
740000000 -0.19376 0.1789 -0.038986 0.027375 0.013926 -0.0050404 -0.00026015 -0.0038417
-0.0042153 -0.0032542 -0.0065926 0.0035532
-0.038968 0.027242 -0.33519 0.17004 -0.036436 0.034983 -0.00098515 -0.0061583
-0.011272 0.0068547 -0.0022324 -0.0060377
0.013912 -0.0050858 -0.036373 0.03508 -0.069722 0.27888 -0.0018606 0.0030986
-0.0028569 -0.00465 -0.0011019 0.00073653
-0.00034884 -0.0038684 -0.00099893 -0.0061759 -0.0018607 0.0031065 -0.20372 0.20508
-0.042265 -0.0065117 0.021841 0.014209
-0.0041148 -0.0031968 -0.011265 0.0070049 -0.0028884 -0.0046707 -0.042324 -0.0064768
-0.1801 0.082446 -0.040967 0.0024149
-0.0066686 0.0034518 -0.0022304 -0.005975 -0.001205 0.00080315 0.021811 0.014205
-0.040781 0.0023915 -0.24834 0.10616
800000000 -0.16064 0.22261 -0.022148 0.016553 0.0060547 -0.010713 -0.0044263 -0.0022673
-0.0044993 0.0029136 0.003941 0.00053048
-0.02213 0.016521 -0.34046 0.24023 -0.0082779 0.03432 -0.0022886 0.001977
-0.0013383 0.0033319 0.0005753 0.0054162
0.0060102 -0.010681 -0.008181 0.034373 -0.030785 0.30234 0.00071118 0.0015435
-4.5693e-05 0.0035796 -0.0018112 0.0011687
-0.0044318 -0.0022954 -0.0022703 0.0020129 0.00071976 0.0015602 -0.17356 0.23306
-0.028336 0.01295 0.013517 -0.0098962
-0.0044302 0.0029283 -0.0012884 0.0033466 -1.3437e-05 0.0035718 -0.028312 0.013006
-0.21972 0.1151 -0.016486 0.019354
0.0038817 0.00046501 0.00064138 0.0053958 -0.001785 0.0011347 0.013542 -0.0099095
-0.016531 0.01936 -0.23944 0.15556
860000000 -0.12594 0.24149 -0.017359 0.030274 -0.0027314 -0.010609 -0.0018384 0.00074047
0.0035842 0.0049035 -0.0034175 -0.0021824
-0.017363 0.030256 -0.29232 0.28242 0.0077519 0.03473 7.0277e-05 0.0020282
0.0037099 0.00076592 0.0033712 0.00086872
-0.0027514 -0.010591 0.007871 0.034738 0.016255 0.31085 -0.000577 -4.0945e-05
0.0021748 -0.0011868 0.0017969 0.003978
-0.001871 0.00076858 7.3482e-05 0.0020686 -0.00058009 -3.3884e-05 -0.13748 0.24313
-0.018179 0.018356 -0.0058295 -0.0089364
0.0036242 0.0048701 0.003753 0.00077244 0.002135 -0.001198 -0.018132 0.018391
-0.16495 0.16259 -0.023977 0.018358
-0.0033992 -0.0020514 0.0034076 0.00083256 0.0018503 0.0039806 -0.0058082 -0.0088555
-0.024007 0.018328 -0.18836 0.19688
920000000 -0.1027 0.26444 0.0046331 0.037852 -0.0097093 -0.0055326 -0.0020526 0.0015832
0.0010091 0.0025019 0.0032419 -0.0014732
0.0046497 0.037892 -0.26546 0.30367 0.028428 0.022713 0.0015311 0.0013777
0.0074433 2.0513e-05 0.0044455 -0.0028624
-0.0096896 -0.0055267 0.02854 0.022646 0.061597 0.31264 0.0019446 0.00011038
0.0012024 -0.00023871 0.0010134 -0.0014524
-0.0019734 0.0016198 0.0015415 0.0013908 0.0019504 0.00010819 -0.11252 0.25998
-0.010432 0.030764 0.0035294 -0.0069536
0.00098279 0.0024793 0.007523 -5.5844e-05 0.0012282 -0.00023655 -0.010387 0.030801
-0.15302 0.17134 -0.0008877 0.02633
0.0032522 -0.0014928 0.0044691 -0.0029295 0.0010195 -0.0014682 0.0035088 -0.0069571
-0.00089846 0.026339 -0.19339 0.21281
980000000 -0.056184 0.28444 0.017111 0.030091 -0.009827 0.0041163 0.0016681 0.0036284
0.0042478 -0.0018631 -0.0031161 -0.0023659
0.017039 0.030095 -0.21262 0.33834 0.033835 0.0053055 0.0020721 -0.00010132
0.0019842 -0.0062494 -0.00035408 -0.0026132
-0.0098081 0.0041658 0.03391 0.0051852 0.1077 0.30722 0.00062898 -0.0012098
0.00041722 -0.0021187 0.0013366 -0.00028696
0.0016518 0.0036195 0.0020606 -9.8848e-05 0.00064583 -0.0012154 -0.07437 0.27097
0.0079649 0.030046 -0.0088833 -0.0068944
0.0042015 -0.0018412 0.0019715 -0.0062599 0.00045347 -0.0021307 0.0080378 0.030047
-0.1171 0.19824 0.0061699 0.019883
-0.0031287 -0.0023616 -0.00029566 -0.0025996 0.0013424 -0.00027077 -0.0088629 -0.0069199
0.0061336 0.019869 -0.15064 0.25571
1040000000 -0.0153 0.29348 0.033173 0.018623 -0.001859 0.0070464 0.0025678 0.00088628
0.00039888 -0.0034413 -0.00012849 -0.0016753
0.033089 0.018657 -0.17768 0.35211 0.030488 -0.015087 0.001709 -0.001951
-0.0019482 -0.0027912 -0.0011814 -0.0029533
-0.0018218 0.0070416 0.030471 -0.015224 0.15386 0.29462 -0.00056506 -0.0017352
-0.001706 -0.00098425 -0.00066418 -0.0011074
0.0025669 0.00084191 0.0016975 -0.0019451 -0.00054549 -0.0017319 -0.047198 0.28059
0.020151 0.018378 -0.0026846 0.00089628
0.0003393 -0.003442 -0.0019689 -0.0028021 -0.0017022 -0.00097771 0.020197 0.018346
-0.084962 0.20425 0.014788 0.017989
-0.00023686 -0.0016865 -0.0012474 -0.0029889 -0.00068575 -0.0010967 -0.0027104 0.00090937
0.014777 0.018052 -0.12772 0.27502
1100000000 0.029483 0.30241 0.036568 -0.003939 0.0026856 0.0042837 0.0023429 -0.0010881
-0.0019472 -0.0032331 -0.0041864 -0.00019354
0.036528 -0.0039096 -0.13477 0.37022 0.015929 -0.028754 3.0419e-05 -0.0018737
-0.0039162 -0.001085 -0.0038241 -0.00054306
0.0027053 0.0042846 0.015842 -0.028852 0.2009 0.27511 -0.0020052 0.00018199
-0.0018692 0.00057845 -0.0010982 -0.0003618
0.0023355 -0.0011186 2.5649e-05 -0.0018681 -0.0020194 0.00018123 -0.006755 0.2854
0.025943 0.004601 -0.0027189 -6.1707e-05
-0.0019646 -0.0032133 -0.0039312 -0.0010606 -0.0018814 0.00058584 0.025963 0.004553
-0.063694 0.21773 0.020484 0.0073639
-0.0042325 -0.0001687 -0.0038294 -0.00053695 -0.0010926 -0.00036489 -0.0027183 -3.869e-05
0.020495 0.0073722 -0.082417 0.30379
1160000000 0.080255 0.29858 0.024489 -0.021263 0.0027047 -0.00029358 -4.2783e-05 -0.0022706
-0.0040726 -0.00083134 -0.0010202 0.0041511
0.024483 -0.021266 -0.09135 0.37567 -0.0038258 -0.030374 -0.0016707 -0.0017612
-0.0029472 0.0029264 -0.0015241 0.0020895
0.0026739 -0.00029964 -0.0039617 -0.030399 0.24456 0.24422 -0.00074148 0.0019325
-0.0004501 0.0021556 -0.00090505 0.00034392
-5.5389e-05 -0.0022403 -0.0016896 -0.0017366 -0.00074548 0.0019236 0.032287 0.28287
0.021356 -0.011779 -0.0034359 0.005068
-0.0040875 -0.00078618 -0.0029223 0.0029429 -0.00044541 0.0021417 0.021346 -0.011814
-0.029889 0.22377 0.018812 -0.0011752
-0.00096591 0.0041659 -0.0015107 0.0020993 -0.00087607 0.00033471 -0.0034418 0.0050861
0.01877 -0.0011525 -0.034899 0.30655
1220000000 0.12438 0.2892 0.010578 -0.030886 -0.0017817 -0.0006626 0.00013604 -0.00090714
-0.0027687 0.0022254 0.0012229 0.0022454
0.010565 -0.030832 -0.046775 0.38896 -0.01782 -0.022063 -0.0027497 0.0005346
9.4015e-05 0.0033754 -0.00079899 0.0020825
-0.0017805 -0.00065479 -0.017925 -0.022009 0.28369 0.2049 0.00088539 0.001849
0.00073458 0.001285 0.00026371 0.00055507
0.00014151 -0.00089442 -0.002757 0.00054365 0.00088897 0.0018454 0.072826 0.27449
0.010494 -0.018608 0.0016448 0.0016219
-0.00275 0.0022536 0.00011901 0.0033876 0.00074865 0.0012825 0.010467 -0.01864
-0.0061741 0.23276 0.013878 -0.014088
0.0012468 0.0022252 -0.0008022 0.0020979 0.00026564 0.00055576 0.001643 0.0016236
0.013875 -0.014104 -0.0028843 0.32008
1280000000 0.17477 0.26884 -0.0087047 -0.029388 -0.0020163 0.0027965 -0.00073722 -0.0020802
-0.00087915 0.0033558 0.0027168 0.0013249
-0.0086801 -0.029357 6.5804e-05 0.38058 -0.025167 -0.0086899 -0.00096074 0.0016386
0.0020798 0.001914 0.00076114 0.0020517
-0.0020089 0.0028056 -0.02523 -0.00859 0.31361 0.16082 0.0017734 -0.00010494
0.0014596 0.000192 0.00041523 0.0001705
-0.00075126 -0.0020636 -0.00093996 0.0016434 0.0017661 -0.00010658 0.10983 0.25795
-0.00035153 -0.020668 -0.00038239 0.00046825
-0.00085454 0.0033797 0.0020908 0.0018824 0.0014442 0.00021322 -0.0003966 -0.020679
0.030641 0.23559 0.0025901 -0.016895
0.0027131 0.0013373 0.00077043 0.0020372 0.00042037 0.00018878 -0.00038088 0.00046801
0.002602 -0.016883 0.043379 0.32126
1340000000 0.21248 0.23604 -0.018683 -0.018919 0.00099959 0.0050297 -0.0018869 -0.0010976
0.0015935 0.0027057 0.0017793 -0.0014757
-0.018645 -0.018884 0.040204 0.37239 -0.022524 0.0049474 -1.5508e-05 0.0020937
0.0022241 0.00058094 0.0012916 0.00076751
0.001028 0.0050247 -0.022515 0.0050547 0.33481 0.11365 0.0011604 -0.0011025
0.00066482 -0.00063649 0.00015056 0.00028683
-0.0019289 -0.0010885 -6.3196e-06 0.0020942 0.0011537 -0.0011166 0.14295 0.23744
-0.010309 -0.017087 0.00064879 0.00084009
0.0016203 0.00268 0.0022418 0.00055326 0.00066783 -0.00064024 -0.010361 -0.017065
0.060878 0.23056 -0.0051102 -0.014704
0.0017807 -0.0015056 0.0012848 0.00075341 0.00016096 0.00029977 0.00066263 0.00083872
-0.0050931 -0.014706 0.082587 0.31502
1400000000 0.2467 0.19858 -0.024419 -0.0067537 0.005657 0.0034993 -0.0023491 0.00064499
0.0026131 0.0011251 0.00024693 -0.0016056
-0.024382 -0.0067441 0.077974 0.35924 -0.0153 0.01349 0.0014838 0.0012284
0.0013379 -0.0010659 0.0011717 6.9601e-05
0.0056766 0.003494 -0.015258 0.013586 0.34758 0.061302 -7.8943e-05 -0.0017579
9.5482e-05 -0.00040446 0.00029696 0.00026757
-0.0023547 0.00066278 0.0014938 0.0012266 -9.979e-05 -0.0017514 0.17262 0.20811
-0.016539 -0.0091376 -0.0007046 0.00021185
0.0026008 0.0011026 0.0013298 -0.0010779 8.8803e-05 -0.0004 -0.016578 -0.0090998
0.094238 0.22592 -0.011505 -0.009192
0.0002354 -0.0016106 0.0011837 4.6422e-05 0.00029457 0.00027263 -0.00070787 0.00022676
-0.011482 -0.009187 0.12589 0.30305
1460000000 0.27009 0.15458 -0.020592 0.0060295 0.0062918 -0.0018951 -0.0015958 0.0018486
0.0024489 -0.00057572 -0.00053961 -0.0010427
-0.020581 0.0060204 0.11218 0.33684 -0.0058079 0.016463 0.0017157 3.6677e-05
0.00064048 -0.0014784 0.0011649 -0.00061409
0.0063023 -0.0019145 -0.0057373 0.016514 0.35408 0.0081855 -0.0014059 -0.0012365
0.00012367 -0.00025297 0.00072421 -0.00027601
-0.001591 0.0018364 0.0017134 3.5972e-05 -0.0013971 -0.0012326 0.19901 0.17849
-0.017091 -0.0012552 -0.00059667 0.002219
0.0024547 -0.00060204 0.00061515 -0.0014797 0.00012592 -0.00025015 -0.017104 -0.0012007
0.12387 0.21128 -0.01368 -0.0025975
-0.00054265 -0.0010556 0.0011577 -0.00063654 0.00072129 -0.00027007 -0.00058754 0.0022403
-0.013696 -0.0025757 0.15877 0.28225
1520000000 0.28281 0.11294 -0.014278 0.011439 0.0038421 -0.0045661 0.00018653 0.0027103
0.0021635 -0.0022077 -0.0011656 -0.0001576
-0.014284 0.011414 0.14534 0.32222 0.002358 0.013687 0.0015303 -0.00085456
-0.00019664 -0.0010132 0.00032004 -0.0010604
0.0038169 -0.0045932 0.0024276 0.013696 0.34813 -0.046795 -0.0012246 -0.00018287
0.00059972 -0.00089185 0.00022658 -0.00018917
0.00019245 0.0027149 0.0015381 -0.00086294 -0.001216 -0.00019188 0.22232 0.14006
-0.015045 0.0050658 0.0018676 0.0022563
0.0021523 -0.0022425 -0.00019634 -0.0010151 0.00060459 -0.00090087 -0.015032 0.0051198
0.15219 0.19731 -0.012957 0.0029509
-0.0011858 -0.00014177 0.00030664 -0.0010747 0.00022105 -0.00019216 0.0018528 0.0022505
-0.012948 0.0029583 0.19096 0.26056
1580000000 0.29252 0.066368 -0.0070169 0.014089 -0.00081226 -0.0055079 0.0016931 0.0019294
-0.00027893 -0.0023234 -0.00025061 0.00039914
-0.0070073 0.014082 0.17221 0.29739 0.0061977 0.0082664 0.00044627 -0.001549
-0.00062534 -0.00080294 -0.00029718 -0.00086142
-0.00085446 -0.0055169 0.0062527 0.0082424 0.32941 -0.10421 -0.001491 0.00067155
-0.00033894 -0.0012652 0.00013797 -0.00063546
0.0016903 0.0019258 0.00044062 -0.0015534 -0.0014867 0.00065156 0.23576 0.10011
-0.010302 0.0095575 0.0025089 0.00051844
-0.0003319 -0.0023226 -0.00062929 -0.00080089 -0.00034088 -0.0012817 -0.01027 0.0096004
0.1765 0.17891 -0.00964 0.0087018
-0.00022707 0.00036818 -0.00030378 -0.00084822 0.00014322 -0.00064181 0.0025327 0.00050863
-0.0096493 0.0086802 0.22181 0.23425
1640000000 0.29454 0.025407 -8.9872e-05 0.012226 -0.0031503 -0.0030755 0.00282 0.00095614
-0.0010131 -0.0016217 -0.00023328 0.0005908
-9.8489e-05 0.012232 0.20115 0.27311 0.0064635 0.0029528 -0.00066372 -0.0017247
-0.00086156 -0.00023756 -0.00052904 -0.00066358
-0.0031632 -0.0030256 0.0064835 0.0029175 0.30189 -0.15348 -0.00054747 0.0014693
-0.0012029 -0.00093406 -0.00021659 -0.00040113
0.0027924 0.00092102 -0.00066344 -0.0017194 -0.00056359 0.0014759 0.2476 0.051491
-0.0051194 0.0098857 0.0026985 -0.00099862
-0.0010533 -0.0016202 -0.00086112 -0.00023125 -0.0012091 -0.00094938 -0.005083 0.0098965
0.19992 0.15449 -0.0043374 0.01067
-0.0002214 0.00061748 -0.00054028 -0.00065082 -0.00021522 -0.00043314 0.0026864 -0.0010254
-0.0043449 0.010664 0.24708 0.20325
1700000000 0.2875 -0.019594 0.0030296 0.0086853 -0.0039658 -0.0001971 0.0030976 -0.0013898
-0.0021337 -0.00045008 0.00057995 0.0003014
0.0030214 0.0086729 0.21916 0.24232 0.0042249 -0.00010477 -0.0014412 -0.00053254
-0.00062863 7.1915e-06 -0.00093232 -0.00048125
-0.0039899 -0.00016861 0.0042209 -0.00013483 0.25942 -0.19344 0.00048645 0.0015028
-0.001986 7.9063e-05 -0.00041569 -0.0010418
0.0031024 -0.0013887 -0.001439 -0.00052162 0.00047011 0.0015231 0.24425 0.0019484
-0.0022709 0.009125 0.0016857 -0.0024316
-0.0021491 -0.00043215 -0.00063051 1.4294e-05 -0.0019909 7.4959e-05 -0.0022379 0.0091183
0.21693 0.13348 0.00072106 0.010809
0.00059888 0.00027985 -0.00093496 -0.0004886 -0.00042105 -0.0010406 0.0016648 -0.0024328
0.00071614 0.010812 0.26331 0.1689
1760000000 0.27578 -0.067779 0.0047414 0.0050475 -0.002743 0.001068 0.0011283 -0.0034945
-0.0014376 0.00082948 0.00021395 -0.00062256
0.0047319 0.0050497 0.24523 0.20337 0.0015918 -0.0018339 -0.0011461 0.00014723
-0.00096101 0.00068634 -0.000646 0.00037817
-0.0027531 0.0010983 0.0015915 -0.0018489 0.21147 -0.22692 0.001146 0.0011125
-0.0012355 0.0016124 -0.0013308 -0.00065829
0.0011223 -0.0034996 -0.0011423 0.00015406 0.0011371 0.0011132 0.2352 -0.049372
0.00034924 0.0072004 -0.00023812 -0.0028295
-0.0014185 0.00083226 -0.00095687 0.00069148 -0.0012265 0.0016056 0.00036508 0.0071944
0.23169 0.098423 0.0050428 0.007522
0.0001939 -0.00064416 -0.00063152 0.00038367 -0.0013173 -0.00067036 -0.0002401 -0.002866
0.0050371 0.0075028 0.2758 0.13152
1820000000 0.25179 -0.10469 0.0041852 0.0015557 -0.00047285 0.0026217 -0.001138 -0.0031136
-0.00092152 0.0011104 -0.00022685 -7.6438e-05
0.0041802 0.0015538 0.25585 0.17406 -0.00088198 -0.00070278 -0.0013123 0.00091122
-0.00017322 0.0011229 -0.00065582 0.00059395
-0.0004892 0.0026207 -0.00090294 -0.00069782 0.16123 -0.24366 0.0014069 0.00048241
-6.3985e-05 0.0024693 -0.0017459 0.00053183
-0.0011754 -0.0030923 -0.0013088 0.00092563 0.0014248 0.00048479 0.2054 -0.096086
0.00085245 0.0055702 -0.0017198 -0.001778
-0.0009191 0.00113 -0.00016796 0.0011263 -6.4241e-05 0.0024684 0.0008637 0.0055528
0.24848 0.069329 0.0057705 0.0036234
-0.00020619 -7.2706e-05 -0.00065102 0.00060063 -0.0017541 0.00055363 -0.0017331 -0.0017313
0.0057576 0.0036357 0.27812 0.094934
1880000000 0.21748 -0.14512 0.0016896 -0.00037909 -0.00057254 0.0023752 -0.002947 -0.0020494
-2.8809e-05 0.001807 0.00020085 -0.00056717
0.0016747 -0.00035869 0.2611 0.12792 -0.0029224 0.0014301 -0.00025997 0.0017428
0.00035657 0.0013282 0.00013353 0.00093166
-0.00052881 0.0023675 -0.0029134 0.0014503 0.10898 -0.25396 0.0019225 -0.00072009
0.0016875 0.001971 -0.00094896 0.001583
-0.0029151 -0.0020583 -0.00024846 0.0017534 0.0019304 -0.00072513 0.1651 -0.13658
0.00071743 0.003872 -0.0026671 8.8688e-05
-1.3383e-05 0.0018067 0.00036946 0.0013284 0.0017013 0.001969 0.00071617 0.0038721
0.25163 0.037325 0.0059372 0.00094837
0.0001854 -0.00057909 0.00013737 0.00093586 -0.00097625 0.0015588 -0.0026691 7.0752e-05
0.0059329 0.0009377 0.27763 0.060758
1940000000 0.17842 -0.17087 -0.00083624 -0.0015244 0.0015553 0.0024595 -0.0036257 0.00051585
0.0013642 0.0010174 -0.00041943 -0.00047728
-0.00082778 -0.0015428 0.26249 0.09631 -0.0018498 0.0041643 0.0010624 0.0014426
0.0017617 0.00075449 0.001094 0.00041677
0.0015857 0.0024559 -0.0018252 0.0041839 0.062642 -0.24684 0.00056607 -0.0022254
0.0025811 0.00025822 0.00080708 0.0018449
-0.0036785 0.00052719 0.0010627 0.0014364 0.00057122 -0.0022296 0.11285 -0.16738
-0.0003959 0.003051 -0.0017887 0.0015223
0.0013632 0.0010242 0.0017653 0.00074131 0.002585 0.00027459 -0.0004083 0.003037
0.25399 -0.00063772 0.0043185 -0.0027769
-0.00040408 -0.00044427 0.0010895 0.00039962 0.00083793 0.0018454 -0.0017613 0.0015767
0.0043179 -0.0027761 0.26634 0.024144
2000000000 0.13296 -0.18606 -0.0044463 0.00082022 0.0028312 0.0016163 -0.0025391 0.0037544
0.0010014 0.00030227 -0.00057012 0.00063575
-0.0044434 0.00081419 0.24926 0.060501 -0.0010968 0.0060605 0.0015865 0.00046188
0.0014275 -0.00090345 0.0005819 0.00015767
0.0028144 0.0016134 -0.0010455 0.0060864 0.019438 -0.23328 -0.0013613 -0.001466
0.0021088 -0.0012315 0.0019479 0.0011562
-0.0025125 0.0037779 0.0016012 0.00045811 -0.0013596 -0.0014653 0.05968 -0.17762
-0.0018136 0.003386 -0.00031553 0.0022236
0.00099577 0.00030764 0.0014197 -0.00091685 0.0021063 -0.0012487 -0.0018186 0.003405
0.2487 -0.033647 0.00090212 -0.0038869
