!Keysight Technologies,M9804A,MY58100912,A.14.10.03
!Date: Thursday, April 27, 2023 10:28:33
!Correction: S11(C  6-Port  ) 
!S12(C  6-Port  ) 
!S13(C  6-Port  ) 
!S14(C  6-Port  ) 
!S15(C  6-Port  ) 
!S16(C  6-Port  ) 
!S21(C  6-Port  ) 
!S22(C  6-Port  ) 
!S23(C  6-Port  ) 
!S24(C  6-Port  ) 
!S25(C  6-Port  ) 
!S26(C  6-Port  ) 
!S31(C  6-Port  ) 
!S32(C  6-Port  ) 
!S33(C  6-Port  ) 
!S34(C  6-Port  ) 
!S35(C  6-Port  ) 
!S36(C  6-Port  ) 
!S41(C  6-Port  ) 
!S42(C  6-Port  ) 
!S43(C  6-Port  ) 
!S44(C  6-Port  ) 
!S45(C  6-Port  ) 
!S46(C  6-Port  ) 
!S51(C  6-Port  ) 
!S52(C  6-Port  ) 
!S53(C  6-Port  ) 
!S54(C  6-Port  ) 
!S55(C  6-Port  ) 
!S56(C  6-Port  ) 
!S61(C  6-Port  ) 
!S62(C  6-Port  ) 
!S63(C  6-Port  ) 
!S64(C  6-Port  ) 
!S65(C  6-Port  ) 
!S66(C  6-Port  ) 
!S6P File: Measurement: :
# Hz S  RI   R 50
500000000 -0.33486 -0.051259 -0.010472 -0.0021002 -0.0096392 0.013378 -0.002953 0.012322
0.012412 0.0048324 -0.0027679 0.0081113
-0.010514 -0.002066 -0.41759 -0.062324 0.007618 -0.010089 0.0019776 0.012397
0.0068653 0.0023267 0.0015181 0.013722
-0.0096506 0.013434 0.0076155 -0.010112 -0.26686 0.20084 0.007401 0.0035359
-0.0023 0.0087426 0.0009188 0.012456
-0.0028957 0.012386 0.0019988 0.012427 0.0074225 0.0035567 -0.33277 0.046133
-0.018439 -0.0055151 0.015695 0.026331
0.012448 0.0047914 0.0068895 0.0022516 -0.0022855 0.0087456 -0.018459 -0.0054912
-0.2513 -0.19036 -0.02622 0.0044683
-0.0026015 0.0081544 0.0014795 0.013793 0.00091635 0.012556 0.015497 0.02611
-0.026096 0.0045118 -0.27394 -0.11459
560000000 -0.31771 0.11415 -0.023227 -0.064566 -8.2359e-05 0.013402 0.0043428 0.010936
0.0098241 0.0057289 0.010745 0.008577
-0.02317 -0.064558 -0.37482 0.1021 -0.042413 -0.037886 0.01314 0.0039055
-0.013495 -0.0045146 0.0042851 -0.00067906
-5.9953e-05 0.013421 -0.042538 -0.037832 -0.18509 0.25222 -0.00032007 -0.004464
0.019389 0.0048525 0.0073667 -0.0049942
0.0043729 0.010928 0.013141 0.0038151 -0.00031804 -0.0044627 -0.30641 0.13635
0.0057472 -0.024557 0.005197 -0.021698
0.0097397 0.0057308 -0.013564 -0.0044642 0.019384 0.0048307 0.005677 -0.024526
-0.31036 -0.012975 0.0071384 -0.046111
0.010174 0.0086424 0.003923 -8.8879e-05 0.0073185 -0.0049211 0.0052251 -0.021717
0.0070555 -0.046299 -0.33137 0.029836
620000000 -0.27722 0.094968 -0.023257 0.0090897 0.0039999 0.0095249 0.0096422 -0.0049031
0.011915 -0.0014179 0.0011331 -0.0017694
-0.023237 0.0090615 -0.40359 0.050839 -0.018498 0.00089061 -0.0014553 -0.0021249
0.011883 -0.0063819 0.0011283 -0.0030156
0.0040378 0.009518 -0.018532 0.00094517 -0.15525 0.26183 -0.00065732 -0.0056836
-0.003409 -0.0028889 0.0092777 -0.0028371
0.00972 -0.0048699 -0.0014674 -0.0021312 -0.00061845 -0.0056777 -0.26598 0.14733
-0.037951 -0.019829 0.011872 0.026966
0.011934 -0.00143 0.011886 -0.0064331 -0.0033548 -0.0029162 -0.037883 -0.019744
-0.23297 -0.04345 -0.040163 0.012331
0.0013106 -0.0016801 0.0011251 -0.0030099 0.0093918 -0.0029955 0.011834 0.026561
-0.040366 0.012602 -0.25366 -0.00034508
680000000 -0.23867 0.18605 -0.026387 -0.014228 0.005361 0.0054331 0.0015391 -0.0078075
-0.0033342 -0.011688 0.0049197 -0.0065369
-0.026346 -0.014238 -0.38941 0.15141 -0.032191 -0.0018139 -0.0015143 -0.00043903
-0.0017593 -0.0096302 -0.0010002 -0.0017128
0.0053909 0.0054065 -0.032232 -0.0017435 -0.10316 0.28174 -0.001139 -0.00035768
-0.0017984 0.00035227 -0.0025843 -0.009372
0.0015795 -0.0078459 -0.0015265 -0.00046995 -0.0011577 -0.00035998 -0.2204 0.19745
-0.023978 -0.0074272 -0.0084869 -0.011445
-0.0034105 -0.011722 -0.0018123 -0.0096614 -0.00181 0.00035421 -0.024016 -0.0073567
-0.27834 0.05965 -0.0078192 -0.0057386
0.0047486 -0.006386 -0.001162 -0.001568 -0.002561 -0.0092602 -0.0086346 -0.011441
-0.0079838 -0.0055997 -0.25816 0.10044
740000000 -0.19317 0.17969 -0.039519 0.027366 0.013876 -0.0047223 -0.00035324 -0.0040055
-0.0043881 -0.0032869 -0.0066786 0.0038869
-0.039542 0.027324 -0.33503 0.17047 -0.036855 0.034721 -0.00067851 -0.0056986
-0.012149 0.0066283 -0.0018956 -0.005801
0.013872 -0.0047364 -0.036798 0.034863 -0.069597 0.27901 -0.0021063 0.0034192
-0.0022205 -0.0048696 -0.0014732 0.00076133
-0.0003604 -0.003985 -0.00067721 -0.0056972 -0.0021102 0.0034404 -0.20347 0.20533
-0.04307 -0.0072792 0.021741 0.014613
-0.0043787 -0.0032611 -0.012082 0.0066801 -0.0022077 -0.0048716 -0.04308 -0.0072022
-0.17861 0.083702 -0.041486 0.0012696
-0.0067519 0.0038657 -0.0020374 -0.0059539 -0.0013819 0.00072174 0.021807 0.014622
-0.041318 0.0011739 -0.24819 0.10703
800000000 -0.16081 0.22238 -0.02245 0.016662 0.0057046 -0.010516 -0.004637 -0.0025624
-0.0047061 0.00263 0.0036818 0.00021099
-0.022448 0.016637 -0.34056 0.24053 -0.0084397 0.034191 -0.0023751 0.0019338
-0.0014819 0.0029895 0.00048683 0.0051932
0.0056886 -0.01053 -0.0083295 0.03425 -0.030535 0.30262 0.00063342 0.0014755
3.2397e-06 0.0035247 -0.0017979 0.00097966
-0.0046315 -0.002536 -0.0023597 0.0019492 0.00063594 0.0014809 -0.17321 0.23282
-0.028438 0.012993 0.013704 -0.010375
-0.0046932 0.0026166 -0.0014904 0.0029886 9.2871e-06 0.0035325 -0.02844 0.013051
-0.21911 0.11494 -0.016991 0.019183
0.0038195 7.9251e-05 0.00054134 0.0051577 -0.001849 0.0010032 0.01362 -0.010429
-0.016985 0.01919 -0.23795 0.1554
860000000 -0.12664 0.24181 -0.017539 0.030577 -0.0029177 -0.010148 -0.0021239 0.00065137
0.0041615 0.0053236 -0.0035074 -0.0026228
-0.017528 0.030538 -0.29225 0.28272 0.0076388 0.034528 1.6632e-05 0.0022317
0.0037909 0.00072131 0.0033243 0.00074392
-0.002928 -0.01013 0.0077504 0.034534 0.01673 0.31097 -0.00069755 -0.00018678
0.002403 -0.0012286 0.0015972 0.0043053
-0.0021402 0.00063612 1.5443e-05 0.0022499 -0.00069263 -0.00018713 -0.13688 0.24323
-0.018141 0.017948 -0.0060323 -0.0090524
0.0041901 0.0053577 0.0037854 0.00072194 0.0023983 -0.0012184 -0.018078 0.018012
-0.16429 0.16381 -0.023423 0.017528
-0.0035642 -0.0025041 0.003255 0.00075956 0.0015761 0.0042455 -0.0059527 -0.0090681
-0.023548 0.017506 -0.18978 0.19874
920000000 -0.10237 0.2647 0.0047765 0.037978 -0.0094399 -0.0052006 -0.0018482 0.0016866
0.0012264 0.0020835 0.0029042 -0.0016961
0.0047791 0.037934 -0.26482 0.30402 0.028132 0.022672 0.001357 0.0011304
0.0074603 4.0608e-05 0.00416 -0.0028303
-0.0094594 -0.0051858 0.028236 0.022608 0.06217 0.31243 0.0019176 -6.0225e-05
0.0010529 -0.00021102 0.0008261 -0.0013406
-0.0018474 0.0017029 0.0013711 0.0011351 0.001913 -5.5002e-05 -0.11249 0.26001
-0.010227 0.030189 0.003322 -0.0067633
0.001248 0.0020881 0.0074454 2.838e-05 0.0010606 -0.000207 -0.010172 0.030217
-0.15168 0.17141 -0.0013882 0.026173
0.002977 -0.001726 0.004118 -0.0028872 0.00084521 -0.0013347 0.0033632 -0.006696
-0.0012817 0.026098 -0.1933 0.21306
980000000 -0.056103 0.28477 0.016993 0.030043 -0.0096007 0.0041898 0.0017741 0.0036163
0.0041815 -0.0017534 -0.0031977 -0.0024952
0.016966 0.030034 -0.21209 0.33859 0.033426 0.0052395 0.0021779 -0.00011917
0.0017215 -0.0061115 -0.00014458 -0.0025822
-0.0095989 0.0042228 0.033501 0.0051311 0.10803 0.30667 0.00066914 -0.0012025
0.00043169 -0.002139 0.0013778 -0.00027837
0.0017903 0.0035988 0.0021849 -9.8904e-05 0.00066151 -0.0011983 -0.073978 0.27063
0.0071255 0.029683 -0.008991 -0.007129
0.0041449 -0.0017575 0.0016982 -0.0061497 0.00043982 -0.0021456 0.0071965 0.029674
-0.11683 0.19857 0.0061202 0.019619
-0.0032492 -0.0024535 -0.00013019 -0.0025693 0.0013881 -0.00023919 -0.0089768 -0.007134
0.0060292 0.019588 -0.15093 0.25519
1040000000 -0.015059 0.2935 0.032928 0.018629 -0.0015915 0.0069541 0.0026371 0.00085188
0.00026164 -0.0039008 -0.00012643 -0.0013679
0.032912 0.01864 -0.17701 0.35213 0.030063 -0.014695 0.0016491 -0.0017703
-0.0018874 -0.0029823 -0.0010852 -0.0028267
-0.0015762 0.0069668 0.03005 -0.014829 0.15401 0.29386 -0.00043867 -0.0017235
-0.0016128 -0.00097999 -0.00048974 -0.0010054
0.0026432 0.00084283 0.0016562 -0.0017627 -0.00044206 -0.0017167 -0.046932 0.2803
0.019553 0.018279 -0.0025814 0.0010592
0.00025014 -0.0039067 -0.0019224 -0.0029594 -0.0016136 -0.00098403 0.0196 0.018219
-0.085034 0.20495 0.014125 0.017656
-0.00020137 -0.0013766 -0.0011123 -0.0028141 -0.00050654 -0.00099641 -0.002581 0.0011294
0.014147 0.017709 -0.12737 0.27587
1100000000 0.029894 0.30288 0.03628 -0.0037364 0.0026949 0.0041581 0.0024724 -0.0011287
-0.0021046 -0.0031096 -0.0042016 -0.00028349
0.036243 -0.0037067 -0.13389 0.37018 0.015709 -0.028155 0.00013936 -0.001936
-0.0038018 -0.00083089 -0.0037877 -0.00067565
0.0027059 0.004155 0.015634 -0.028252 0.20047 0.2743 -0.0019963 0.00013117
-0.0018199 0.00041038 -0.0011079 -0.00037964
0.0024666 -0.0011505 0.00014752 -0.0019324 -0.0019894 0.00013355 -0.0065802 0.28522
0.024798 0.0047804 -0.002506 0.00030661
-0.002127 -0.0030882 -0.0038121 -0.00080354 -0.0018213 0.00041757 0.0248 0.0047367
-0.063478 0.21727 0.019234 0.0077793
-0.0041655 -0.00026609 -0.0037803 -0.00068016 -0.0011323 -0.00036542 -0.0024976 0.00029034
0.019146 0.0077857 -0.081046 0.30372
1160000000 0.080722 0.29874 0.024178 -0.020829 0.0027029 -0.00042121 -0.00010764 -0.0023364
-0.0039095 -0.00089838 -0.00089462 0.0040877
0.02419 -0.020787 -0.090616 0.37493 -0.0035315 -0.029813 -0.0017914 -0.0016936
-0.0028145 0.0027102 -0.001515 0.0019678
0.0026925 -0.00042614 -0.003645 -0.029852 0.24366 0.24398 -0.00078118 0.0018832
-0.00054695 0.0020498 -0.00098456 0.00035687
-0.00011443 -0.0023484 -0.0017849 -0.0016843 -0.00078156 0.0018919 0.032351 0.28245
0.020835 -0.010815 -0.0032452 0.0050207
-0.0039034 -0.00088406 -0.0028321 0.002722 -0.00054515 0.0020481 0.02081 -0.010855
-0.029622 0.22442 0.018089 -0.0010855
-0.00079152 0.0041131 -0.0015479 0.0020213 -0.00094977 0.00032898 -0.0032397 0.0050275
0.018139 -0.0011554 -0.035111 0.30592
1220000000 0.12508 0.28916 0.010799 -0.030362 -0.0016904 -0.00077119 1.8217e-05 -0.00089244
-0.0028238 0.002366 0.0012177 0.0021688
0.010821 -0.030317 -0.046375 0.38807 -0.017244 -0.021865 -0.0026782 0.00050952
-4.1008e-05 0.0032803 -0.00082061 0.0019392
-0.0016971 -0.00076555 -0.017352 -0.02182 0.28284 0.20528 0.00077126 0.00176
0.00070188 0.0012556 0.00024811 0.00054586
1.3992e-05 -0.00090029 -0.0026716 0.00052969 0.00077256 0.0017531 0.072503 0.27428
0.010513 -0.017498 0.0017743 0.0016545
-0.0028223 0.0023854 -2.2656e-05 0.0032925 0.00070965 0.0012578 0.010481 -0.017512
-0.0054399 0.23295 0.01325 -0.013618
0.0012229 0.0022025 -0.00079996 0.001961 0.00024595 0.0005321 0.0017801 0.0016714
0.013218 -0.013615 -0.0023971 0.3202
1280000000 0.1754 0.26842 -0.008097 -0.028844 -0.0019657 0.0026868 -0.0008609 -0.002102
-0.00064917 0.0031641 0.0025958 0.0012843
-0.0080702 -0.028811 -0.00015598 0.37966 -0.024521 -0.0088532 -0.00097088 0.00156
0.0019656 0.0017959 0.00067629 0.00205
-0.0019617 0.0026978 -0.024597 -0.008757 0.31339 0.1616 0.0016302 -8.0017e-05
0.0013252 0.00014466 0.00042976 0.0001815
-0.00086754 -0.0020928 -0.00097319 0.0015677 0.0016231 -8.5526e-05 0.10955 0.25806
0.00031812 -0.019488 -0.00012328 0.00045569
-0.00062001 0.003169 0.0019702 0.0017922 0.0013321 0.00013898 0.00025547 -0.019489
0.031063 0.23536 0.0025704 -0.015553
0.0026409 0.0012781 0.00067439 0.002032 0.00047736 0.00019037 -0.00013214 0.00043599
0.0026082 -0.01551 0.044106 0.32051
1340000000 0.21285 0.23548 -0.017966 -0.019045 0.00090859 0.0049001 -0.0018321 -0.00094706
0.0014834 0.0026782 0.001857 -0.0014119
-0.017942 -0.019021 0.039411 0.37206 -0.022146 0.0043627 -7.41e-05 0.0021096
0.0021359 0.00064315 0.0012807 0.00077792
0.0009169 0.0048935 -0.022152 0.0044783 0.33516 0.11471 0.0011226 -0.00096228
0.00070278 -0.00057813 0.0001583 0.00024048
-0.0018296 -0.00094545 -7.2389e-05 0.0021061 0.0011206 -0.00096642 0.14271 0.23764
-0.0091042 -0.016504 0.00080583 0.00065037
0.0014891 0.0026619 0.0021405 0.00064375 0.0006964 -0.00057737 -0.0091631 -0.016473
0.061201 0.23045 -0.0045619 -0.014082
0.0018101 -0.0014155 0.0013195 0.0007812 0.00016141 0.00022196 0.0008338 0.00068971
-0.0045498 -0.014105 0.082466 0.31502
1400000000 0.24663 0.19807 -0.02376 -0.0071721 0.0055392 0.003347 -0.0022627 0.00065143
0.0024992 0.00095875 0.00029127 -0.0016006
-0.023723 -0.0071861 0.077155 0.3594 -0.015321 0.012878 0.0014778 0.0012947
0.001267 -0.00090409 0.0011899 9.6587e-05
0.0055554 0.0033294 -0.015281 0.012973 0.34857 0.061759 -8.2312e-06 -0.0016429
0.00019032 -0.00044162 0.0002811 0.00026233
-0.0022659 0.00065426 0.001485 0.0012948 -9.8006e-06 -0.0016521 0.17262 0.20853
-0.015093 -0.0094741 -0.00069501 -0.00013278
0.0025169 0.00095477 0.0012651 -0.00092552 0.00018723 -0.0004389 -0.015128 -0.0094119
0.094708 0.22552 -0.010745 -0.0087152
0.00031644 -0.0015821 0.0011865 5.1422e-05 0.00027355 0.00031105 -0.00068085 -0.00016487
-0.010726 -0.0087076 0.12616 0.30304
1460000000 0.27004 0.15424 -0.020444 0.0051304 0.0060322 -0.0019159 -0.001579 0.0017869
0.0022134 -0.00048932 -0.00040545 -0.00096539
-0.02043 0.005118 0.11161 0.33767 -0.0060972 0.015985 0.001738 0.00013287
0.00079948 -0.0014826 0.001182 -0.00060838
0.0060197 -0.0019334 -0.0060193 0.016042 0.35518 0.0080585 -0.0012606 -0.0012651
0.00014232 -0.00024565 0.00063784 -0.00038857
-0.0015674 0.0017963 0.0017406 0.00011356 -0.0012693 -0.0012724 0.19926 0.1789
-0.015966 -0.0024116 -0.00069015 0.0020053
0.0022048 -0.00050306 0.00078555 -0.0014839 0.00014346 -0.00024514 -0.015972 -0.0023373
0.1239 0.21079 -0.01258 -0.0026098
-0.00045512 -0.00099428 0.0011997 -0.00059571 0.00066852 -0.00042242 -0.00073025 0.0019975
-0.01251 -0.0026099 0.15883 0.28196
1520000000 0.28269 0.11291 -0.014537 0.010669 0.0035675 -0.0044735 0.00010909 0.0026681
0.0021425 -0.0020418 -0.0012836 -0.00015894
-0.014525 0.010648 0.14526 0.32324 0.0019093 0.013572 0.0016459 -0.00081464
-2.423e-05 -0.0011096 0.00031727 -0.0010122
0.0035531 -0.0044929 0.0019877 0.013581 0.34898 -0.04757 -0.0011874 -0.00034015
0.00063187 -0.00081492 0.00013268 -0.00025562
0.00012141 0.0026573 0.0016388 -0.00081529 -0.0011902 -0.00033945 0.22271 0.14046
-0.014881 0.00351 0.001543 0.0020309
0.0021377 -0.0020427 -2.5906e-05 -0.0011151 0.00063256 -0.00082293 -0.014864 0.00357
0.15212 0.19705 -0.012049 0.0023302
-0.0012619 -0.00013429 0.00029494 -0.0010313 0.000124 -0.00025241 0.0015602 0.0020566
-0.01206 0.0023078 0.19132 0.26093
1580000000 0.29272 0.066523 -0.0076557 0.013581 -0.00087346 -0.0053155 0.0015304 0.0019247
-0.00031831 -0.0022241 -0.00023247 0.00046683
-0.0076588 0.013565 0.17269 0.29854 0.005728 0.0084182 0.0004529 -0.0016529
-0.00057673 -0.00097448 -0.00026786 -0.00088961
-0.00088798 -0.0053125 0.0057892 0.0084067 0.32969 -0.10516 -0.0015809 0.0006038
-0.00035687 -0.0012508 0.00017375 -0.00057072
0.00154 0.0019128 0.00044607 -0.0016668 -0.0015901 0.00060718 0.23655 0.10053
-0.011001 0.0081107 0.0022192 0.00059206
-0.00033264 -0.0022243 -0.00059405 -0.00096551 -0.00036831 -0.0012483 -0.010956 0.0081444
0.17647 0.17873 -0.0093721 0.0078469
-0.00019705 0.00049355 -0.00026625 -0.00085978 0.00018934 -0.00057146 0.0022404 0.00055571
-0.0093738 0.0078532 0.22256 0.23414
1640000000 0.29504 0.025393 -0.00093834 0.012221 -0.003022 -0.0029426 0.0027376 0.0010016
-0.00080707 -0.0015595 -0.00034088 0.00056663
-0.00094526 0.012216 0.20223 0.27394 0.0062856 0.0032923 -0.00069824 -0.001742
-0.00096665 -0.00040354 -0.00053491 -0.0006616
-0.0030518 -0.0029342 0.0063192 0.0032602 0.3019 -0.15437 -0.00066753 0.0014243
-0.0011766 -0.00099502 -0.00014848 -0.00028832
0.0027519 0.00099568 -0.00071223 -0.0017471 -0.00066586 0.0014264 0.24856 0.051266
-0.006547 0.0091218 0.0025813 -0.00088557
-0.00082282 -0.0015577 -0.00097294 -0.00038165 -0.001179 -0.0010006 -0.0064915 0.0091317
0.19963 0.15457 -0.0043368 0.0098901
-0.00036277 0.00058495 -0.00054128 -0.00066955 -0.000175 -0.00027945 0.0025487 -0.00088744
-0.0043415 0.0098703 0.24762 0.20284
1700000000 0.28821 -0.019869 0.0023584 0.0091421 -0.0039183 -1.3386e-05 0.003113 -0.0012172
-0.0019723 -0.00054119 0.00059457 0.00038475
0.0023448 0.0091348 0.22064 0.24271 0.0040825 0.00022968 -0.0014826 -0.00054713
-0.00080892 3.8044e-05 -0.0009184 -0.00047817
-0.0039185 -1.959e-06 0.0040973 0.00020615 0.25932 -0.19459 0.00040424 0.0016067
-0.0020666 -1.1123e-05 -0.00044931 -0.00084493
0.0030973 -0.0012279 -0.0014772 -0.00054572 0.00040132 0.0016033 0.24522 0.0012363
-0.0036894 0.0093371 0.0014821 -0.002302
-0.001971 -0.00051791 -0.00081315 3.9323e-05 -0.0020722 -9.1647e-06 -0.0036593 0.0093198
0.21706 0.13374 0.00027128 0.0099117
0.00061126 0.00039218 -0.00090558 -0.00044829 -0.00042526 -0.00085963 0.001493 -0.0023164
0.00027072 0.0099276 0.26381 0.16844
1760000000 0.27632 -0.068591 0.0044769 0.0057421 -0.002508 0.0010884 0.0013112 -0.0034196
-0.0014084 0.00072172 0.00033692 -0.0006316
0.0044649 0.0057423 0.24686 0.20308 0.0017029 -0.0016378 -0.0012044 0.00019642
-0.0010959 0.00085641 -0.00061745 0.0004261
-0.0025021 0.0010958 0.0016897 -0.00166 0.21099 -0.22824 0.0012013 0.0011117
-0.0012011 0.00155 -0.0011699 -0.00054024
0.001293 -0.003413 -0.0012004 0.00019429 0.0012082 0.001115 0.23588 -0.050361
-0.00061468 0.0081411 -0.00014994 -0.0025551
-0.0013913 0.00073388 -0.0010902 0.00085539 -0.0011927 0.0015442 -0.00060115 0.0081138
0.23193 0.098657 0.0043548 0.0072172
0.00034859 -0.00065075 -0.00059034 0.00044213 -0.001152 -0.00054295 -0.00021753 -0.0025641
0.0043305 0.0072093 0.27621 0.13073
1820000000 0.25214 -0.10572 0.0044398 0.0021704 -0.0002392 0.0025419 -0.0010628 -0.0031284
-0.00099692 0.00098687 -0.0001383 -0.00018593
0.0044334 0.0021739 0.25734 0.17319 -0.00061439 -0.00033116 -0.0013444 0.00093143
-0.00014924 0.0012546 -0.00061926 0.00051824
-0.00022573 0.0025401 -0.00061616 -0.00032681 0.16019 -0.24373 0.0015435 0.00042886
-0.00013395 0.0024434 -0.0016143 0.00032448
-0.0010744 -0.0031328 -0.0013321 0.00093877 0.0015479 0.00042165 0.20549 -0.097501
0.00055038 0.0067356 -0.0018845 -0.0017122
-0.0010033 0.00099887 -0.00013925 0.0012465 -0.00013207 0.002444 0.00055175 0.006715
0.249 0.069561 0.005069 0.003478
-0.00018153 -0.00013831 -0.00063438 0.00052478 -0.0016014 0.00034296 -0.0018895 -0.0016839
0.0050822 0.0034891 0.27813 0.094275
1880000000 0.21717 -0.1464 0.0020594 -3.9084e-05 -0.00047232 0.0022574 -0.0028955 -0.0022392
-0.00012238 0.001757 0.00015868 -0.00047763
0.0020567 -4.7493e-05 0.26211 0.12642 -0.0026833 0.0015559 -0.00022469 0.0017104
0.00057726 0.0013501 3.2109e-05 0.00097342
-0.00046629 0.0022587 -0.0026809 0.0015731 0.10799 -0.2538 0.0018937 -0.00078983
0.0016457 0.0019272 -0.0010133 0.0012974
-0.0029039 -0.0022317 -0.00020795 0.0017003 0.0018849 -0.00078579 0.16427 -0.13778
0.0010819 0.0047647 -0.0025648 0.00044105
-9.8174e-05 0.0017529 0.00058516 0.0013489 0.0016464 0.0019363 0.0010733 0.0047606
0.25257 0.037429 0.0051397 0.0011012
0.00017618 -0.00049785 4.732e-05 0.0009678 -0.0010077 0.0013149 -0.002583 0.00043573
0.0051307 0.0010934 0.27775 0.060002
1940000000 0.17782 -0.17201 -0.00044004 -0.0014799 0.0013219 0.002232 -0.0037525 0.00047386
0.0013371 0.0010467 -0.00040291 -0.00051068
-0.00043569 -0.0014851 0.26279 0.094622 -0.0015108 0.0040294 0.0011125 0.0012424
0.0019664 0.0005427 0.0010399 0.00038462
0.0013236 0.0022422 -0.0014869 0.0040518 0.062324 -0.24656 0.00062928 -0.0023418
0.0025404 0.00021875 0.00074875 0.0016649
-0.0037486 0.0004931 0.0011193 0.0012477 0.00063566 -0.0023407 0.11182 -0.16786
0.00028994 0.0036002 -0.0016038 0.0016779
0.0013379 0.0010397 0.0019719 0.00053185 0.0025392 0.00022082 0.00028295 0.0035908
0.25501 -0.00095305 0.0037572 -0.0021742
-0.0004496 -0.00049705 0.0010333 0.00038604 0.00072662 0.001628 -0.0015371 0.0016081
0.0037862 -0.0021412 0.26609 0.023687
2000000000 0.13168 -0.18699 -0.0042247 0.00071629 0.0026538 0.0016493 -0.00247 0.0038474
0.00119 0.00035649 -0.00053943 0.00048589
-0.0042096 0.00071449 0.24883 0.058801 -0.0010603 0.0058624 0.0015659 0.00039825
0.0015009 -0.0011763 0.00059331 0.0001524
0.0026691 0.001645 -0.0010243 0.005871 0.019035 -0.23279 -0.0014008 -0.0016412
0.0021044 -0.0013033 0.0018323 0.0013364
-0.0024568 0.0038545 0.0015695 0.00038902 -0.0013925 -0.0016404 0.058375 -0.17763
-0.0011076 0.0035816 -6.2986e-05 0.0021436
0.0012023 0.00036821 0.0014993 -0.0011649 0.0021035 -0.0012914 -0.0011223 0.0036129
0.24968 -0.034215 0.00055494 -0.0030457
