!Keysight Technologies,M9804A,MY58100912,A.14.10.03
!Date: Thursday, April 27, 2023 10:28:33
!Correction: S11(C  6-Port  ) 
!S12(C  6-Port  ) 
!S13(C  6-Port  ) 
!S14(C  6-Port  ) 
!S15(C  6-Port  ) 
!S16(C  6-Port  ) 
!S21(C  6-Port  ) 
!S22(C  6-Port  ) 
!S23(C  6-Port  ) 
!S24(C  6-Port  ) 
!S25(C  6-Port  ) 
!S26(C  6-Port  ) 
!S31(C  6-Port  ) 
!S32(C  6-Port  ) 
!S33(C  6-Port  ) 
!S34(C  6-Port  ) 
!S35(C  6-Port  ) 
!S36(C  6-Port  ) 
!S41(C  6-Port  ) 
!S42(C  6-Port  ) 
!S43(C  6-Port  ) 
!S44(C  6-Port  ) 
!S45(C  6-Port  ) 
!S46(C  6-Port  ) 
!S51(C  6-Port  ) 
!S52(C  6-Port  ) 
!S53(C  6-Port  ) 
!S54(C  6-Port  ) 
!S55(C  6-Port  ) 
!S56(C  6-Port  ) 
!S61(C  6-Port  ) 
!S62(C  6-Port  ) 
!S63(C  6-Port  ) 
!S64(C  6-Port  ) 
!S65(C  6-Port  ) 
!S66(C  6-Port  ) 
!S6P File: Measurement: :
# Hz S  RI   R 50
500000000 -0.33379 -0.051513 -0.01007 -0.0021128 -0.0086617 0.012573 -0.0049002 0.013045
0.012015 0.0047411 -0.0019588 0.008188
-0.010458 -0.0011985 -0.41639 -0.062494 0.0081284 -0.010487 0.0010067 0.012174
0.006302 0.0022397 0.0014127 0.013738
-0.0091421 0.013142 0.0083304 -0.010473 -0.2669 0.20061 0.0068636 0.0035361
-0.0024482 0.00858 0.00045014 0.012526
-0.0050096 0.012012 0.0015662 0.012098 0.00712 0.0038652 -0.33224 0.042832
-0.018442 -0.0053067 0.014762 0.025333
0.01288 0.0058193 0.0068347 0.0031487 -0.0027536 0.0083566 -0.019832 -0.0039196
-0.25137 -0.18997 -0.026162 0.0045994
-0.0047098 0.0084317 0.0012033 0.012849 -0.00012078 0.012851 0.015329 0.024351
-0.025589 0.0051261 -0.27549 -0.11604
560000000 -0.31862 0.1146 -0.022963 -0.06482 -0.00035674 0.01316 0.00571 0.011335
0.0093547 0.0049113 0.0094917 0.0081993
-0.023595 -0.065401 -0.37736 0.10112 -0.041994 -0.038288 0.013836 0.0027213
-0.013939 -0.0047693 0.0038452 -0.0006101
0.00033126 0.01309 -0.042109 -0.03824 -0.18458 0.25267 0.00099061 -0.0042974
0.019022 0.005174 0.0079431 -0.005216
0.0057545 0.010899 0.013167 0.003913 -0.00016939 -0.0043588 -0.30798 0.13668
0.0058369 -0.024523 0.0053112 -0.020602
0.010142 0.0034944 -0.013046 -0.0042476 0.020077 0.0046607 0.0078898 -0.023321
-0.31196 -0.014291 0.0070633 -0.045817
0.010427 0.0096027 0.004234 -2.5231e-05 0.0082145 -0.0042555 0.0052286 -0.020906
0.0063722 -0.046474 -0.33174 0.030051
620000000 -0.27702 0.094562 -0.023418 0.0086636 0.0035154 0.0092886 0.0080938 -0.0045007
0.012212 -0.0015158 0.0010455 -0.0020521
-0.023518 0.0082885 -0.40396 0.050497 -0.01867 0.00073889 -0.0016331 -0.0016228
0.012087 -0.0066207 0.0011881 -0.0032009
0.0039941 0.009364 -0.018837 0.00073803 -0.15528 0.26213 -0.00059419 -0.0053473
-0.0025655 -0.0022749 0.0092855 -0.0028879
0.0086039 -0.0047211 -0.0014534 -0.0013617 -0.00046961 -0.0048276 -0.26543 0.14679
-0.036428 -0.018019 0.012252 0.026879
0.012031 -0.0015027 0.011505 -0.0068467 -0.0032196 -0.0037372 -0.038782 -0.017729
-0.23307 -0.046477 -0.04103 0.011321
0.00070871 -0.0028239 9.9619e-05 -0.002161 0.0092667 -0.0018774 0.013509 0.026097
-0.038792 0.013673 -0.25432 -0.0010047
680000000 -0.23845 0.18581 -0.026555 -0.013847 0.0050439 0.0054886 0.0017799 -0.0071447
-0.0028965 -0.011704 0.0042895 -0.006906
-0.026433 -0.014088 -0.38961 0.15099 -0.032403 -0.0019673 -0.0013781 -0.00064766
-0.0018029 -0.0097869 -0.0012212 -0.0017482
0.0049521 0.0053969 -0.032536 -0.0018863 -0.10351 0.28143 -0.0010753 -0.00046656
-0.0016963 0.00022738 -0.0027457 -0.0099569
0.0016432 -0.007797 -0.0016815 -0.00076257 -0.00093583 -0.00035062 -0.22063 0.19769
-0.023938 -0.0078065 -0.0084218 -0.011363
-0.0019867 -0.012155 -0.001224 -0.010025 -0.0017024 -0.00018414 -0.023335 -0.0068666
-0.27914 0.059179 -0.0073952 -0.0059931
0.0054145 -0.0065707 -0.00069016 -0.0024395 -0.0028786 -0.0093808 -0.0090805 -0.011698
-0.0084204 -0.0064057 -0.25855 0.099423
740000000 -0.19379 0.17854 -0.039573 0.027062 0.013822 -0.0049359 -0.00088727 -0.0045816
-0.0045446 -0.0024988 -0.00627 0.0038157
-0.039559 0.02679 -0.33497 0.17012 -0.03677 0.035208 -0.00033093 -0.0063062
-0.011903 0.0069632 -0.0019231 -0.0058753
0.014045 -0.0049627 -0.036725 0.035054 -0.069949 0.27867 -0.0019212 0.0037066
-0.0027766 -0.0045815 -0.001422 0.00096873
-0.00045334 -0.0043108 -0.00029803 -0.006158 -0.0020091 0.0036156 -0.20272 0.20548
-0.043557 -0.0069949 0.021558 0.014824
-0.0044968 -0.0031362 -0.011024 0.006495 -0.0030193 -0.0052073 -0.044445 -0.0081366
-0.17851 0.083334 -0.040842 0.0015604
-0.006072 0.0032683 -0.0019119 -0.0058003 -0.00091238 0.001636 0.022301 0.01545
-0.042 0.0020015 -0.24841 0.10694
800000000 -0.16048 0.2223 -0.022399 0.01647 0.0059104 -0.010412 -0.0045308 -0.0021216
-0.0048251 0.0022421 0.0032372 0.00012921
-0.022222 0.0168 -0.3406 0.2403 -0.0084324 0.03424 -0.0021952 0.0020556
-0.0013032 0.0025987 0.00036046 0.0049151
0.0058543 -0.010384 -0.0083627 0.034179 -0.030606 0.30277 0.00061795 0.0015774
0.0001174 0.0033281 -0.0022745 0.00068338
-0.0044713 -0.0023948 -0.0024174 0.0022496 0.00071363 0.0016566 -0.17392 0.23302
-0.027977 0.013219 0.013896 -0.010787
-0.0049372 0.0030231 -0.0012771 0.0028734 0.00019488 0.0034594 -0.027589 0.013969
-0.21975 0.11487 -0.01722 0.019688
0.0047724 0.00035347 0.00061206 0.0048643 -0.0019441 0.0011701 0.013118 -0.010235
-0.016226 0.019014 -0.23849 0.15401
860000000 -0.12638 0.24203 -0.0176 0.030614 -0.0029182 -0.010383 -0.0018194 0.0010102
0.0040563 0.0057335 -0.0031667 -0.0026536
-0.017716 0.030482 -0.29241 0.28278 0.0077506 0.034497 4.4378e-06 0.0023548
0.0037335 0.00071475 0.0033315 0.00039729
-0.0028777 -0.010321 0.0076294 0.034424 0.016693 0.3109 -0.00067706 -8.1188e-05
0.0023534 -0.0012723 0.001725 0.0043319
-0.0017514 0.00072543 1.5777e-05 0.0021632 -0.00072291 -6.0975e-05 -0.13682 0.24355
-0.017873 0.018076 -0.00629 -0.0088638
0.0040737 0.0056615 0.0036149 0.00059298 0.0023396 -0.0013777 -0.018064 0.017931
-0.16425 0.16333 -0.023712 0.017491
-0.0036286 -0.002889 0.0033479 0.0010185 0.0019073 0.0043427 -0.0057726 -0.0089636
-0.023785 0.017631 -0.18938 0.19902
920000000 -0.10257 0.26456 0.0046838 0.037867 -0.0093304 -0.0050856 -0.0020475 0.0018718
0.0013039 0.0019824 0.0030134 -0.0014325
0.0048963 0.03787 -0.26503 0.30413 0.028087 0.022721 0.0016843 0.0014216
0.0074045 0.00024398 0.0043883 -0.0028066
-0.0094229 -0.0052023 0.028238 0.022594 0.062115 0.31246 0.0018385 -3.3424e-05
0.0010151 -0.00031183 0.00086879 -0.0012647
-0.0017414 0.0015982 0.0015186 0.0009358 0.0019678 0.00010989 -0.11206 0.25953
-0.01011 0.030287 0.0035305 -0.0066897
0.0013827 0.0023097 0.0076173 -0.00018904 0.0011405 -0.00030164 -0.010778 0.030693
-0.15224 0.17089 -0.0011367 0.026041
0.0032247 -0.0012078 0.0040241 -0.0030995 0.00096035 -0.001289 0.0034497 -0.0072219
-0.0011996 0.026203 -0.19334 0.21307
980000000 -0.056205 0.28472 0.01703 0.030039 -0.0094853 0.0041568 0.0018783 0.0034729
0.0041234 -0.0016515 -0.0031183 -0.0022843
0.016872 0.030003 -0.21215 0.33859 0.033534 0.0052316 0.0020129 -0.00021592
0.0016826 -0.0061838 -0.00016133 -0.0026144
-0.0095413 0.0041954 0.033513 0.0051236 0.10799 0.30664 0.00057232 -0.0010996
0.00050366 -0.0020973 0.001348 -0.00025471
0.0018022 0.0037051 0.0022594 3.854e-05 0.0006856 -0.0012461 -0.074319 0.27046
0.0072941 0.02967 -0.008952 -0.0070809
0.0038673 -0.0018919 0.0019582 -0.0062254 0.00044777 -0.0021715 0.0076237 0.029605
-0.11625 0.19904 0.0060577 0.019508
-0.002904 -0.0021115 -7.4578e-05 -0.0023925 0.0013604 -0.00024584 -0.0095076 -0.0068541
0.0060993 0.019456 -0.15089 0.25498
1040000000 -0.014969 0.29378 0.032986 0.018834 -0.0016322 0.0070763 0.0026359 0.00082456
0.00044359 -0.0037748 -7.1021e-05 -0.0013965
0.03302 0.018734 -0.17704 0.35211 0.030029 -0.01477 0.0017946 -0.0016904
-0.0017699 -0.0028734 -0.0010558 -0.002879
-0.0016489 0.0070214 0.03 -0.014904 0.15395 0.29382 -0.00041687 -0.0018004
-0.0014856 -0.0010611 -0.00049096 -0.0010174
0.0025884 0.00080964 0.0015759 -0.0017285 -0.00045767 -0.0017171 -0.046702 0.28039
0.019705 0.018081 -0.002563 0.001115
0.00047971 -0.0035043 -0.0021354 -0.0026504 -0.0015895 -0.0010281 0.019586 0.018314
-0.084473 0.20476 0.014241 0.017855
-0.00029835 -0.0015583 -0.00099459 -0.0030039 -0.00045147 -0.0010155 -0.0025057 0.00097914
0.014023 0.017664 -0.12745 0.27574
1100000000 0.029779 0.3027 0.036329 -0.0036565 0.0027369 0.0041861 0.0024522 -0.0010653
-0.0021331 -0.0030767 -0.0041153 -0.00027245
0.036316 -0.0036935 -0.13384 0.37021 0.015763 -0.028178 7.0704e-05 -0.0018704
-0.003815 -0.00092727 -0.0037724 -0.00071256
0.002773 0.0041382 0.015665 -0.028279 0.20038 0.27434 -0.0019968 0.00013485
-0.0018852 0.00048259 -0.0011387 -0.00042205
0.0024309 -0.0011805 4.7973e-05 -0.0018539 -0.0019591 9.0528e-05 -0.0065218 0.28507
0.024882 0.0047914 -0.0025771 0.00016023
-0.0024182 -0.0030221 -0.0038336 -0.000932 -0.001833 0.00044014 0.024875 0.0046663
-0.063194 0.21741 0.019582 0.0074802
-0.0039255 0.00010006 -0.0036284 -0.00055187 -0.0011725 -0.00049615 -0.0025038 2.3457e-05
0.019448 0.0077975 -0.081483 0.3038
1160000000 0.080727 0.29896 0.024375 -0.02089 0.0027013 -0.00037198 -0.00012532 -0.0023855
-0.0039929 -0.00081509 -0.00091487 0.0040989
0.024412 -0.020889 -0.090643 0.37488 -0.0034837 -0.029809 -0.0017738 -0.0017992
-0.0028463 0.002636 -0.0015458 0.0019594
0.0026968 -0.00039048 -0.0035867 -0.029825 0.24358 0.24399 -0.00083568 0.0018977
-0.00053858 0.0020656 -0.00095807 0.00037768
2.4334e-05 -0.0022803 -0.0017418 -0.0017686 -0.00084148 0.0019063 0.032368 0.28229
0.021029 -0.010985 -0.0031652 0.004999
-0.0040707 -0.00088 -0.002907 0.002556 -0.00063135 0.0019879 0.020948 -0.011096
-0.029165 0.22432 0.018099 -0.0010805
-0.0010892 0.0040499 -0.0016099 0.0019021 -0.00095659 0.00040229 -0.0033409 0.005096
0.01818 -0.0015691 -0.035316 0.30558
1220000000 0.12504 0.28915 0.010814 -0.030452 -0.0016708 -0.00077405 6.6966e-05 -0.00098181
-0.0027499 0.0022656 0.0011428 0.002157
0.010857 -0.030426 -0.046421 0.38797 -0.017246 -0.021911 -0.0027084 0.00051445
-7.9766e-05 0.0032761 -0.00087774 0.0019916
-0.0016531 -0.00074024 -0.017342 -0.021882 0.28271 0.20541 0.00076349 0.0018379
0.00070252 0.0012525 0.00026214 0.00053784
8.8758e-05 -0.00093869 -0.0026428 0.00056506 0.00078132 0.0018324 0.072532 0.27401
0.010519 -0.017608 0.00162 0.0015717
-0.002724 0.0022644 -2.3192e-05 0.0032574 0.00066411 0.0012515 0.01039 -0.017462
-0.0052793 0.23253 0.013513 -0.013846
0.0013441 0.0020679 -0.00084577 0.0020343 0.00024658 0.00060345 0.0016687 0.0015775
0.013488 -0.013609 -0.0025948 0.32027
1280000000 0.17528 0.26849 -0.0080772 -0.028979 -0.0019647 0.002634 -0.00084018 -0.0019432
-0.0007028 0.0032621 0.0025938 0.0013711
-0.0081375 -0.028905 -0.0002942 0.37962 -0.024503 -0.0089089 -0.001024 0.001541
0.0018747 0.0018556 0.00074911 0.0020786
-0.0019735 0.0026369 -0.024588 -0.0088262 0.31338 0.16173 0.0016285 -0.00010651
0.0012984 0.00023745 0.00045405 0.00022652
-0.0008672 -0.0020956 -0.00095218 0.0014959 0.0016458 -0.0001353 0.10925 0.25788
0.00028594 -0.01962 -0.00015805 0.0004857
-0.00079472 0.0032212 0.0018653 0.0018715 0.0013608 0.00029819 0.00036141 -0.019899
0.030922 0.2348 0.0025156 -0.015799
0.0026286 0.0013037 0.00079584 0.0020712 0.00045987 0.00021008 -0.00042006 0.00065069
0.0025055 -0.015694 0.04404 0.32044
1340000000 0.2128 0.23557 -0.017975 -0.019041 0.00088489 0.0048872 -0.0018405 -0.00096967
0.0015193 0.0025802 0.0018805 -0.0014141
-0.017995 -0.019012 0.039278 0.37198 -0.022225 0.0043642 -5.6378e-05 0.0020417
0.0021277 0.00070479 0.0012939 0.00077683
0.00090616 0.0047885 -0.022196 0.0044879 0.33512 0.11484 0.0011442 -0.00095897
0.00070972 -0.00053412 0.00014565 0.00025852
-0.0018644 -0.00088969 -9.7819e-05 0.0020767 0.0011817 -0.00096029 0.14264 0.23764
-0.0093491 -0.016648 0.00070768 0.00069391
0.001489 0.0026995 0.0021236 0.00069259 0.00069848 -0.00058243 -0.0091865 -0.016481
0.061088 0.23012 -0.0046061 -0.014165
0.0018008 -0.0013737 0.00126 0.00073339 0.00015002 0.00020599 0.00077945 0.00053703
-0.0047248 -0.014222 0.082362 0.31521
1400000000 0.24678 0.19808 -0.023826 -0.0073221 0.005457 0.0033883 -0.0022625 0.00056241
0.0024914 0.00098202 0.00027646 -0.00163
-0.023788 -0.0072589 0.07696 0.35938 -0.015364 0.01289 0.0014613 0.0013011
0.0013384 -0.00096174 0.0011896 6.2928e-05
0.0054832 0.003345 -0.015247 0.012952 0.34858 0.061875 7.6463e-05 -0.0016675
0.00012359 -0.00043121 0.0003267 0.00029235
-0.0022262 0.00060419 0.0014726 0.0013002 5.1174e-05 -0.0016867 0.17232 0.20854
-0.015265 -0.0094218 -0.00073572 -0.00011584
0.0025273 0.0010225 0.0013479 -0.00099534 8.1121e-05 -0.00041277 -0.015291 -0.009304
0.094218 0.22529 -0.010915 -0.0088201
0.00030454 -0.0016144 0.0012295 8.1762e-05 0.00024762 0.00012866 -0.00074533 -7.923e-06
-0.010888 -0.0088237 0.12617 0.30294
1460000000 0.27008 0.15414 -0.020524 0.0051518 0.0060314 -0.0018911 -0.0015769 0.0018405
0.0021941 -0.00048063 -0.00040758 -0.0010683
-0.02049 0.0051796 0.11145 0.33763 -0.0061554 0.015988 0.0017859 7.6848e-05
0.00078136 -0.0015152 0.0011568 -0.00056853
0.0060184 -0.0018373 -0.0060747 0.016052 0.35529 0.0081683 -0.0012815 -0.0013037
0.00012647 -0.0003039 0.00065581 -0.00038827
-0.0016015 0.001774 0.0017176 8.9294e-05 -0.0012816 -0.0012645 0.19897 0.17911
-0.016174 -0.0022723 -0.00072138 0.0020223
0.0021797 -0.00053044 0.00079274 -0.0014374 0.00017987 -0.00025389 -0.016198 -0.0022726
0.12341 0.21074 -0.012723 -0.0026491
-0.00052738 -0.0010349 0.0012983 -0.00061785 0.00064878 -0.00029135 -0.00063286 0.0020632
-0.01262 -0.0026172 0.15875 0.282
1520000000 0.28279 0.11274 -0.014617 0.01071 0.0035549 -0.0044105 0.00016648 0.0025973
0.0021278 -0.0020435 -0.001239 -0.00020634
-0.014573 0.010682 0.1451 0.32338 0.0018568 0.013587 0.0015997 -0.00085106
-1.8812e-05 -0.0011132 0.00031208 -0.0010323
0.0035977 -0.0044407 0.0019396 0.013597 0.34901 -0.047475 -0.0010907 -0.00024833
0.00058194 -0.00081291 0.00011709 -0.00026227
0.00012047 0.0026664 0.0015965 -0.00080383 -0.0011053 -0.00029358 0.22274 0.14068
-0.014957 0.0037284 0.0015763 0.002107
0.0021326 -0.002102 -5.0781e-05 -0.0010865 0.00060961 -0.00083559 -0.014889 0.00376
0.15164 0.19712 -0.012194 0.0024352
-0.0012631 -8.4784e-05 0.00025515 -0.0010593 0.00015819 -0.0001988 0.0016218 0.0020201
-0.012292 0.0024914 0.19119 0.26092
1580000000 0.29258 0.066436 -0.0076854 0.013662 -0.00089791 -0.0052914 0.0014846 0.0018721
-0.00027292 -0.00224 -0.00026905 0.00053078
-0.0076715 0.013669 0.17256 0.29864 0.0057528 0.0084589 0.00047226 -0.0015851
-0.00063854 -0.00097543 -0.00023284 -0.00087029
-0.00091155 -0.005327 0.0057408 0.0084263 0.32983 -0.10513 -0.0015987 0.00057146
-0.00037635 -0.0012944 0.00019058 -0.00056891
0.0015544 0.0018762 0.00046251 -0.0016119 -0.001618 0.00058651 0.2365 0.10049
-0.010927 0.0083654 0.0022636 0.00057819
-0.00034317 -0.0022018 -0.00062065 -0.00095492 -0.00036163 -0.0012254 -0.010913 0.0083759
0.17609 0.17902 -0.0094909 0.0079402
-0.00022693 0.00051575 -0.0002694 -0.00079246 0.00024003 -0.00060248 0.0021773 0.00075482
-0.0094766 0.0079521 0.22235 0.23411
1640000000 0.29491 0.025354 -0.00091219 0.012295 -0.0029941 -0.0028522 0.0027356 0.0010826
-0.00085521 -0.0016238 -0.00035757 0.00059411
-0.00090464 0.012271 0.20215 0.2741 0.0063443 0.0033423 -0.00070317 -0.0017674
-0.00096013 -0.00037086 -0.00052418 -0.00067435
-0.0031009 -0.002887 0.0063536 0.0032746 0.30189 -0.15431 -0.00068975 0.0014523
-0.0011416 -0.0010331 -0.00019719 -0.00031105
0.0027226 0.0010953 -0.00073806 -0.0017608 -0.00065692 0.0014157 0.24852 0.051577
-0.0064198 0.0093104 0.0026102 -0.00089156
-0.00096921 -0.001555 -0.0010248 -0.00035319 -0.0010895 -0.00094243 -0.0063908 0.0093489
0.19941 0.15497 -0.004363 0.010074
-0.00037049 0.00071935 -0.00059139 -0.00065139 -0.00023946 -0.00033835 0.0027089 -0.00074781
-0.0043022 0.0099845 0.24744 0.20287
1700000000 0.28798 -0.019871 0.0024076 0.0092181 -0.0038863 -5.4505e-05 0.0031355 -0.0012652
-0.0020379 -0.00055338 0.00061722 0.00038896
0.0024265 0.0091636 0.22061 0.24287 0.0041291 0.00017546 -0.0015352 -0.00054446
-0.00078001 5.6598e-05 -0.000933 -0.00048031
-0.0038272 -1.4915e-05 0.0041315 0.0002127 0.25928 -0.19475 0.00042483 0.0016122
-0.0020519 -1.7358e-05 -0.00043903 -0.0008657
0.0031854 -0.0012664 -0.0015123 -0.00057355 0.00046769 0.001612 0.24543 0.0014097
-0.003518 0.0093953 0.0015659 -0.0022827
-0.0019909 -0.00052659 -0.00077841 6.0269e-05 -0.0019738 -5.6389e-05 -0.0034785 0.0094415
0.21702 0.1341 0.00036567 0.010037
0.00066078 0.00042268 -0.00085805 -0.00045197 -0.00040519 -0.00083852 0.0016892 -0.0024537
0.00034738 0.010068 0.26359 0.16855
1760000000 0.27614 -0.068371 0.0045482 0.0058066 -0.0024777 0.0011027 0.0012009 -0.0033627
-0.0014025 0.00076765 0.00031871 -0.00061231
0.004539 0.0057663 0.2469 0.20326 0.0017184 -0.0016244 -0.0011807 0.00023413
-0.0010523 0.00082235 -0.00061642 0.00042288
-0.0024235 0.0010965 0.001677 -0.0016654 0.21091 -0.22823 0.0011455 0.0010425
-0.0011804 0.0015352 -0.0011842 -0.00055388
0.0012463 -0.003486 -0.0012175 0.0001829 0.0011418 0.0010247 0.23598 -0.050511
-0.00046654 0.0081553 -0.00017218 -0.0027567
-0.0014184 0.0007453 -0.0010656 0.00084426 -0.0012106 0.0015495 -0.0004265 0.0081796
0.23196 0.099039 0.0044032 0.0073045
0.00035595 -0.00060337 -0.00066923 0.00040831 -0.0011767 -0.00055521 -0.00026641 -0.0027207
0.0044378 0.0072823 0.27602 0.13103
1820000000 0.252 -0.10557 0.004444 0.0021928 -0.00026569 0.0024969 -0.0010108 -0.0030797
-0.00099625 0.00098704 -0.00019703 -0.00016919
0.0043973 0.0021948 0.2574 0.17324 -0.000616 -0.00036189 -0.0012776 0.00096893
-0.00013323 0.0012554 -0.00061459 0.00049156
-0.00027088 0.0024938 -0.00056956 -0.00037885 0.16013 -0.24364 0.0015983 0.000359
-8.4861e-05 0.0024435 -0.0015901 0.00033087
-0.001006 -0.0031427 -0.0013226 0.00095171 0.0015659 0.00050132 0.20552 -0.097762
0.00077061 0.006604 -0.0018519 -0.0016798
-0.00096897 0.0010214 -0.00015965 0.001233 -0.00014013 0.0024653 0.00076754 0.0065142
0.24911 0.069748 0.0052663 0.0035809
-9.5978e-05 -0.00022207 -0.00064625 0.00054703 -0.0015347 0.00033623 -0.001797 -0.0015981
0.0052073 0.0036176 0.27787 0.094541
1880000000 0.21718 -0.14613 0.0020898 -8.0775e-05 -0.00052557 0.0022379 -0.0028459 -0.0022557
-0.00014589 0.0017838 0.00013304 -0.00054049
0.0020441 -6.2394e-05 0.26216 0.1265 -0.0026846 0.0015311 -0.00016528 0.0017627
0.00055547 0.0013444 5.2375e-05 0.00096014
-0.00053911 0.0021688 -0.0026713 0.0015555 0.10794 -0.25363 0.0019076 -0.00084021
0.0016605 0.0019123 -0.0010393 0.0013307
-0.0029305 -0.0022087 -0.00014531 0.0017149 0.0019221 -0.00093108 0.16437 -0.13785
0.0011703 0.0045741 -0.0026111 0.0003325
-9.4624e-05 0.0017296 0.00057103 0.0013264 0.0017472 0.001914 0.0011756 0.0045797
0.25269 0.037494 0.005315 0.0011199
0.0001105 -0.0006883 4.4026e-05 0.00096562 -0.0010926 0.0012766 -0.0024868 0.00030616
0.0053221 0.0011277 0.27765 0.06046
1940000000 0.1779 -0.17176 -0.00038705 -0.0015205 0.001273 0.0022495 -0.0039059 0.00043918
0.001298 0.0010484 -0.0005512 -0.00058184
-0.00048203 -0.0015319 0.26289 0.094552 -0.0015454 0.004074 0.0010649 0.0012287
0.0019197 0.00055035 0.0010513 0.0003899
0.0014036 0.0023177 -0.0014456 0.0040148 0.062249 -0.24634 0.00053092 -0.0021932
0.0024715 0.00025459 0.00074164 0.0016447
-0.0037525 0.000535 0.0010931 0.0012514 0.0006333 -0.0022376 0.11145 -0.16807
0.00020068 0.0034892 -0.00177 0.0015666
0.0012856 0.0010681 0.0019343 0.00058294 0.0025154 0.00031123 8.7355e-05 0.0035076
0.25501 -0.00074621 0.0038217 -0.0022435
-0.0005854 -0.00042466 0.0010455 0.00045406 0.00059424 0.0017096 -0.0015317 0.0016819
0.0039082 -0.002234 0.26608 0.024108
2000000000 0.13195 -0.18695 -0.0042639 0.00063375 0.0026678 0.0016146 -0.0024783 0.0038259
0.0011448 0.00030887 -0.00048095 0.0005517
-0.0042539 0.00065789 0.24877 0.058725 -0.0010893 0.0058938 0.0015738 0.00043006
0.0014769 -0.0011011 0.00065952 0.00016098
0.002553 0.0017182 -0.0010901 0.0058942 0.019168 -0.23266 -0.0013015 -0.0016491
0.0021548 -0.0012198 0.0018297 0.0014187
-0.0023812 0.0038725 0.0015536 0.0004525 -0.0014007 -0.0014233 0.058306 -0.17746
-0.0011587 0.003544 -8.8681e-05 0.0022639
0.001146 0.0004038 0.001498 -0.0011213 0.0020344 -0.0011993 -0.0010908 0.0035195
0.24979 -0.034103 0.00079254 -0.0030737
