!Keysight Technologies,M9804A,MY58100912,A.14.10.03
!Date: Thursday, April 27, 2023 10:28:33
!Correction: S11(C  6-Port  ) 
!S12(C  6-Port  ) 
!S13(C  6-Port  ) 
!S14(C  6-Port  ) 
!S15(C  6-Port  ) 
!S16(C  6-Port  ) 
!S21(C  6-Port  ) 
!S22(C  6-Port  ) 
!S23(C  6-Port  ) 
!S24(C  6-Port  ) 
!S25(C  6-Port  ) 
!S26(C  6-Port  ) 
!S31(C  6-Port  ) 
!S32(C  6-Port  ) 
!S33(C  6-Port  ) 
!S34(C  6-Port  ) 
!S35(C  6-Port  ) 
!S36(C  6-Port  ) 
!S41(C  6-Port  ) 
!S42(C  6-Port  ) 
!S43(C  6-Port  ) 
!S44(C  6-Port  ) 
!S45(C  6-Port  ) 
!S46(C  6-Port  ) 
!S51(C  6-Port  ) 
!S52(C  6-Port  ) 
!S53(C  6-Port  ) 
!S54(C  6-Port  ) 
!S55(C  6-Port  ) 
!S56(C  6-Port  ) 
!S61(C  6-Port  ) 
!S62(C  6-Port  ) 
!S63(C  6-Port  ) 
!S64(C  6-Port  ) 
!S65(C  6-Port  ) 
!S66(C  6-Port  ) 
!S6P File: Measurement: :
# Hz S  RI   R 50
500000000 -0.33608 -0.051506 -0.01013 -0.00080012 -0.0084346 0.013514 -0.0045225 0.012453
0.012013 0.0049774 -0.0040515 0.00894
-0.010353 -0.0010566 -0.4171 -0.061745 0.007476 -0.010469 0.00087922 0.012482
0.0078438 0.0029377 0.00060631 0.013957
-0.0085436 0.013689 0.007454 -0.0105 -0.26827 0.20043 0.0064537 0.0038807
-0.0021638 0.0091493 0.00018109 0.01259
-0.0044336 0.012461 0.0010297 0.012582 0.0062841 0.0038643 -0.33451 0.044383
-0.017307 -0.0048994 0.013958 0.025393
0.012104 0.0049716 0.0075848 0.0030653 -0.0016773 0.0091908 -0.017319 -0.0048635
-0.25044 -0.19264 -0.024362 0.0042389
-0.0040214 0.0086678 0.0006872 0.013981 -3.8512e-05 0.012603 0.013669 0.025246
-0.024309 0.00436 -0.27686 -0.1165
560000000 -0.31832 0.11401 -0.024543 -0.064604 0.00088028 0.013128 0.0051047 0.011181
0.0099272 0.0048161 0.010819 0.0090287
-0.024051 -0.064829 -0.37517 0.10253 -0.043491 -0.037452 0.014926 0.0036241
-0.015438 -0.0053202 0.0052785 -0.00035443
0.00073994 0.013249 -0.043655 -0.03736 -0.18591 0.2517 -0.00019717 -0.0038308
0.021176 0.0050465 0.0068733 -0.0044152
0.0050687 0.011182 0.01451 0.0031057 0.00044541 -0.0036127 -0.30728 0.13608
0.0038158 -0.024143 0.0049599 -0.021194
0.010017 0.0048811 -0.014681 -0.0048489 0.020313 0.0046575 0.0037341 -0.024182
-0.3073 -0.0094511 0.0049255 -0.048542
0.010987 0.0089833 0.0041694 -0.00058067 0.0077605 -0.0045614 0.005265 -0.020993
0.0050392 -0.048664 -0.33127 0.029849
620000000 -0.27715 0.09429 -0.023111 0.0092398 0.003694 0.0099717 0.0085696 -0.0042679
0.012522 -0.0014036 0.0019902 -0.0015976
-0.023291 0.0092481 -0.40385 0.05092 -0.01858 0.00091024 -0.0013155 -0.0023114
0.012794 -0.0057015 0.0012652 -0.0031745
0.0034481 0.010213 -0.018589 0.00096537 -0.15553 0.26245 -0.00090987 -0.0054293
-0.0020889 -0.0024668 0.009137 -0.0035046
0.0086485 -0.0042599 -0.0013544 -0.0024394 -0.00088716 -0.0055059 -0.26607 0.1472
-0.037649 -0.019831 0.012249 0.02736
0.01241 -0.0014022 0.012516 -0.0058629 -0.0023447 -0.0025377 -0.037794 -0.019446
-0.23389 -0.044657 -0.038804 0.011459
0.0018008 -0.0015586 0.0011208 -0.0030322 0.0090819 -0.0035017 0.012492 0.026775
-0.038761 0.011582 -0.25384 -0.0024699
680000000 -0.23887 0.18548 -0.02624 -0.013771 0.0057125 0.0056301 0.0018062 -0.0074901
-0.0021567 -0.011675 0.0055307 -0.0071839
-0.026418 -0.01382 -0.38951 0.15147 -0.032415 -0.0016159 -0.0013508 -0.0006848
-0.0018548 -0.0098218 -0.0011513 -0.0017435
0.0054618 0.0054785 -0.032471 -0.0015241 -0.10333 0.28197 -0.00095407 -0.00042299
-0.0016087 -3.2308e-06 -0.0029808 -0.00937
0.0017686 -0.0074198 -0.0013206 -0.00050364 -0.0010731 -0.00036681 -0.22074 0.19817
-0.023896 -0.0069105 -0.0091216 -0.010587
-0.0024092 -0.011581 -0.0016806 -0.0099915 -0.0014773 7.9109e-05 -0.023963 -0.0071812
-0.27913 0.059039 -0.0077657 -0.006777
0.005523 -0.0073807 -0.0009905 -0.001575 -0.0029213 -0.0091875 -0.0090666 -0.01037
-0.007743 -0.0068321 -0.25848 0.09895
740000000 -0.19347 0.17863 -0.039037 0.027381 0.013683 -0.0050986 -0.00026467 -0.0040313
-0.0040592 -0.0033012 -0.0068524 0.0038587
-0.039098 0.027102 -0.33505 0.16978 -0.036695 0.034949 -0.00078548 -0.0062038
-0.011611 0.0069068 -0.0023113 -0.0061002
0.013947 -0.005001 -0.036649 0.035092 -0.069651 0.27863 -0.0019547 0.0031229
-0.002833 -0.004934 -0.0013114 0.00068684
-0.00022729 -0.0040875 -0.00087061 -0.0061891 -0.0018646 0.0028714 -0.20351 0.20527
-0.042274 -0.0066118 0.022071 0.01405
-0.0041035 -0.0031838 -0.011563 0.0073541 -0.0030739 -0.0046985 -0.042578 -0.0066586
-0.18057 0.082893 -0.041646 0.0025487
-0.006828 0.0037864 -0.0020309 -0.0062914 -0.00098529 0.00050407 0.022305 0.014114
-0.041793 0.002588 -0.24714 0.10575
800000000 -0.16044 0.22274 -0.022111 0.016511 0.0061195 -0.010639 -0.0043929 -0.0021454
-0.0042734 0.002726 0.0039455 0.00068553
-0.022099 0.016694 -0.34032 0.24024 -0.0082354 0.034326 -0.0022973 0.0019493
-0.0011952 0.0032292 0.00069641 0.0053965
0.0060232 -0.010696 -0.0081533 0.034372 -0.030742 0.30251 0.00071541 0.0015597
1.9047e-05 0.0035558 -0.0017795 0.0012159
-0.0044578 -0.0021648 -0.0022005 0.0020296 0.0007211 0.0017061 -0.17353 0.23319
-0.028195 0.013281 0.013657 -0.010036
-0.0043864 0.0028869 -0.0014719 0.0029257 1.5568e-05 0.0035603 -0.028193 0.013163
-0.21973 0.11493 -0.016375 0.019569
0.0040302 0.00067811 0.00092463 0.0055102 -0.001819 0.0014199 0.01342 -0.009996
-0.016358 0.019553 -0.23974 0.15539
860000000 -0.1258 0.24176 -0.017346 0.030301 -0.0027176 -0.010566 -0.0018607 0.00073337
0.0036341 0.0050145 -0.0035253 -0.0023327
-0.017439 0.030322 -0.29232 0.28253 0.0077564 0.034733 0.0002005 0.0021216
0.0035778 0.00074894 0.003507 0.00064506
-0.0027521 -0.010548 0.0078723 0.034733 0.016308 0.31086 -0.00058183 1.1886e-05
0.0021608 -0.0012002 0.0019225 0.003979
-0.0018371 0.0007293 4.46e-05 0.0020932 -0.00056767 5.0771e-05 -0.13751 0.24317
-0.017854 0.018231 -0.0061467 -0.0086454
0.0037424 0.0049012 0.0037627 0.00064373 0.0021781 -0.0012438 -0.017838 0.018258
-0.16464 0.16338 -0.023909 0.017883
-0.0035418 -0.0021996 0.0033798 0.001065 0.0019214 0.0040505 -0.0060855 -0.0085814
-0.023901 0.01782 -0.18754 0.19848
920000000 -0.10256 0.26466 0.004604 0.038024 -0.0096694 -0.0055109 -0.0019979 0.0016019
0.00093657 0.0022537 0.0032499 -0.0013277
0.0046811 0.037866 -0.26538 0.30356 0.028414 0.022704 0.0014317 0.001373
0.0075766 -6.1574e-05 0.0043674 -0.0027508
-0.0096404 -0.0054641 0.028519 0.022647 0.061659 0.31265 0.0019612 0.00011432
0.0010991 -0.00019349 0.0010006 -0.0013992
-0.0019845 0.0016695 0.0016796 0.0013276 0.0019915 0.00014888 -0.11232 0.26007
-0.010374 0.030917 0.003629 -0.0070854
0.00087239 0.0022545 0.0073957 0.00011717 0.0011875 -0.00026442 -0.010352 0.030912
-0.15288 0.17108 -0.00081697 0.026508
0.0034267 -0.0013482 0.0045688 -0.0031115 0.0010431 -0.0014236 0.003653 -0.0070328
-0.00089676 0.026538 -0.1935 0.21261
980000000 -0.056229 0.28441 0.017023 0.030063 -0.0098531 0.0041111 0.0016457 0.0036796
0.004318 -0.0016945 -0.0032281 -0.0022052
0.01698 0.030102 -0.21256 0.33844 0.033865 0.0052991 0.0021285 -0.0001284
0.0020597 -0.0062392 -0.00025134 -0.0026308
-0.0098272 0.004162 0.033916 0.0051697 0.10777 0.30727 0.00063962 -0.0012228
0.00039526 -0.002071 0.0013534 -0.00033001
0.0016554 0.0036731 0.0020853 -0.00010483 0.00064415 -0.0012243 -0.074321 0.27093
0.0081564 0.03 -0.009182 -0.0068612
0.0042847 -0.001784 0.0020227 -0.0062579 0.0004388 -0.0021199 0.008209 0.029976
-0.11709 0.1987 0.0060959 0.019702
-0.0030861 -0.0022466 -0.00028224 -0.0025686 0.0013579 -0.00029081 -0.0090947 -0.0068549
0.0061255 0.019714 -0.1509 0.25599
1040000000 -0.015113 0.29346 0.033212 0.01865 -0.0018294 0.0070466 0.0024975 0.00091641
0.00042103 -0.003381 -0.00028905 -0.0015621
0.033106 0.018726 -0.17764 0.35207 0.030503 -0.015107 0.0017155 -0.001908
-0.0019717 -0.0029626 -0.0011007 -0.0028583
-0.0018048 0.0070854 0.030457 -0.015246 0.15396 0.29464 -0.00054455 -0.0017025
-0.0016621 -0.0010342 -0.00061708 -0.001072
0.0025196 0.00089471 0.0016946 -0.0018937 -0.00056354 -0.0017104 -0.046943 0.28054
0.020205 0.018419 -0.0025763 0.0008508
0.00039278 -0.0034222 -0.0020475 -0.0028626 -0.0017449 -0.0010163 0.020252 0.018256
-0.084474 0.20455 0.014942 0.01778
-0.00023172 -0.0015321 -0.0011908 -0.0029629 -0.00060698 -0.0010652 -0.0026044 0.00093742
0.014931 0.017741 -0.12765 0.2753
1100000000 0.029646 0.30246 0.036626 -0.0039107 0.0027156 0.0042827 0.0023869 -0.0011016
-0.0018385 -0.0032741 -0.0041822 -0.00024207
0.036566 -0.0039028 -0.13467 0.37038 0.015962 -0.028728 3.5079e-05 -0.0018825
-0.0038668 -0.0011558 -0.0037949 -0.00055736
0.0026999 0.0042637 0.015864 -0.028824 0.20096 0.27511 -0.0020381 0.00019255
-0.001819 0.0004853 -0.00116 -0.000331
0.0023709 -0.0011172 2.3406e-05 -0.0018837 -0.0020241 0.00018393 -0.0066378 0.2853
0.026022 0.0044875 -0.0025975 -5.9992e-05
-0.001933 -0.0032132 -0.0038495 -0.0009741 -0.0018266 0.00056332 0.026014 0.0044879
-0.063772 0.21754 0.020446 0.0075185
-0.0042176 -0.0002363 -0.0038717 -0.00057694 -0.0011743 -0.00036948 -0.0026288 -0.00010104
0.020432 0.0075391 -0.082168 0.30323
1160000000 0.080422 0.29875 0.024587 -0.021266 0.0027102 -0.00029745 -0.00011142 -0.0021942
-0.0041206 -0.00079378 -0.00093374 0.0040497
0.024542 -0.021187 -0.091236 0.37567 -0.0038355 -0.030338 -0.0017114 -0.0017229
-0.0030377 0.0029711 -0.0014808 0.0020583
0.0027241 -0.00033228 -0.0039955 -0.030368 0.24464 0.24422 -0.00076249 0.0020029
-0.00046754 0.0021397 -0.00091816 0.0003449
-9.7134e-05 -0.0021884 -0.001728 -0.0017447 -0.0007832 0.0019896 0.032381 0.28263
0.021477 -0.011909 -0.0033621 0.0049945
-0.0041312 -0.00082194 -0.0030423 0.0028961 -0.00053561 0.0021324 0.021575 -0.011968
-0.029615 0.22414 0.018831 -0.0014052
-0.0009576 0.0041305 -0.0014104 0.0020812 -0.00088069 0.00034399 -0.0034428 0.0049958
0.018842 -0.0013836 -0.035082 0.30646
1220000000 0.12458 0.28913 0.010594 -0.030867 -0.0017731 -0.00066588 0.00012991 -0.00092379
-0.0027397 0.0022035 0.0011297 0.002229
0.010598 -0.030871 -0.046616 0.389 -0.017808 -0.022064 -0.0027568 0.00053708
0.0001206 0.0033526 -0.00082558 0.002083
-0.001795 -0.00065782 -0.017908 -0.022026 0.28377 0.20487 0.00087335 0.001846
0.00072776 0.0012473 0.00022517 0.00054204
0.00013429 -0.00091856 -0.0027415 0.00052363 0.00088538 0.0018469 0.072778 0.27441
0.010367 -0.018727 0.0015919 0.0016395
-0.0026962 0.0022386 0.00012578 0.0034054 0.00069951 0.0012669 0.010331 -0.018764
-0.0060606 0.23253 0.013797 -0.01415
0.0011673 0.0022495 -0.00078156 0.0020426 0.00027175 0.00057112 0.0016564 0.0016427
0.01378 -0.014132 -0.0029205 0.32012
1280000000 0.17495 0.26882 -0.0086326 -0.02936 -0.0020273 0.0027993 -0.00075907 -0.0020541
-0.00086512 0.0033622 0.0026898 0.0012992
-0.0086375 -0.029375 0.0001786 0.38059 -0.025111 -0.0087122 -0.00096232 0.0016331
0.0019884 0.0020033 0.00087212 0.0020494
-0.002019 0.0027711 -0.025182 -0.0086232 0.31367 0.1608 0.0017792 -8.4823e-05
0.0013935 0.00017171 0.00044362 0.00022214
-0.00076011 -0.002069 -0.00098848 0.0016628 0.0017698 -0.00012366 0.1097 0.25789
-0.00039012 -0.020802 -0.00044294 0.0004441
-0.00086383 0.0033152 0.0020256 0.0018554 0.001434 0.00020287 -0.00041189 -0.020761
0.030799 0.23536 0.00267 -0.016801
0.0026447 0.0013422 0.00080208 0.002185 0.00044182 0.0002279 -0.0004238 0.00043412
0.0026603 -0.016785 0.043371 0.32107
1340000000 0.2127 0.23585 -0.018676 -0.018978 0.00099352 0.0050083 -0.0018375 -0.0011064
0.0015946 0.0027809 0.0017787 -0.0015544
-0.018668 -0.018973 0.040312 0.3724 -0.022548 0.0049259 4.41e-05 0.0021082
0.002244 0.00053069 0.0013125 0.00078367
0.0010302 0.0049978 -0.022529 0.0050455 0.3349 0.11363 0.0011982 -0.0011179
0.00070831 -0.0005967 0.00019206 0.00024229
-0.0018551 -0.0010957 1.3016e-05 0.0021222 0.0011798 -0.0010834 0.1428 0.23747
-0.010581 -0.017105 0.00065544 0.00094232
0.0016307 0.0027445 0.0022773 0.00059603 0.00068403 -0.00066916 -0.010578 -0.017143
0.060938 0.23032 -0.0051901 -0.014851
0.0018233 -0.0015761 0.0013328 0.0007226 0.00015831 0.00025269 0.00062058 0.00096133
-0.0051708 -0.014851 0.082578 0.3152
1400000000 0.24683 0.19848 -0.024407 -0.0067745 0.0056415 0.0034631 -0.0023675 0.000677
0.0025391 0.0010856 0.00030085 -0.0016064
-0.024383 -0.0067764 0.078061 0.35924 -0.015304 0.013487 0.0014726 0.0012205
0.0012997 -0.0010692 0.0012073 3.2884e-05
0.0056273 0.0034448 -0.015259 0.013579 0.34768 0.061233 -8.1062e-05 -0.0017333
8.4647e-05 -0.00036963 0.00030055 0.00024734
-0.0023589 0.00066585 0.0015045 0.0011997 -9.3392e-05 -0.0017556 0.1726 0.20819
-0.016679 -0.0090992 -0.00070326 0.00012429
0.0026095 0.0010768 0.0013099 -0.0011347 5.1653e-05 -0.00039234 -0.016725 -0.0090558
0.094263 0.22561 -0.011568 -0.0091304
0.00022892 -0.0016167 0.0011763 9.615e-05 0.00029231 0.00026371 -0.00070781 0.00014591
-0.011562 -0.009138 0.12588 0.30296
1460000000 0.27018 0.15438 -0.020625 0.0060008 0.0062717 -0.0018618 -0.001587 0.0018587
0.0024991 -0.00054021 -0.0005425 -0.0010369
-0.020616 0.0059626 0.11227 0.33684 -0.0058099 0.016467 0.0017008 3.7138e-05
0.00063846 -0.0015494 0.001111 -0.00059572
0.0062754 -0.0019098 -0.0057236 0.016521 0.35416 0.0081117 -0.0014072 -0.001217
0.00011658 -0.00024923 0.00068502 -0.00026838
-0.0015669 0.0018724 0.0017062 2.1222e-05 -0.0014241 -0.0012412 0.19907 0.17851
-0.017321 -0.001091 -0.00058078 0.0022461
0.002475 -0.00053913 0.00063937 -0.0015497 0.00015802 -0.00027581 -0.017293 -0.0010607
0.12359 0.21114 -0.01367 -0.0025557
-0.00048355 -0.0010653 0.0011153 -0.00063659 0.00065745 -0.00026106 -0.00060253 0.0022394
-0.013671 -0.00255 0.15869 0.28214
1520000000 0.28287 0.11272 -0.014365 0.011402 0.0038178 -0.0045826 0.00019189 0.0027085
0.0022447 -0.0022587 -0.0012619 -0.00018476
-0.014315 0.011427 0.14538 0.32221 0.0023126 0.013669 0.0015367 -0.00084932
-0.00019163 -0.0010439 0.00028701 -0.0010759
0.0037979 -0.0045722 0.002376 0.013686 0.34814 -0.046931 -0.0012011 -0.00018039
0.00062687 -0.00089782 0.00020576 -0.00023687
0.00020593 0.0027002 0.0015481 -0.00086084 -0.0011841 -0.00019653 0.22239 0.14007
-0.0151 0.0053087 0.0018426 0.0022214
0.0022316 -0.0022992 -0.0002011 -0.0010742 0.00058669 -0.00088705 -0.015108 0.0053375
0.15196 0.19718 -0.01304 0.0029706
-0.0012602 -0.00015029 0.00027432 -0.0010661 0.00019213 -0.00026276 0.0018622 0.002234
-0.01304 0.0029645 0.19089 0.26079
1580000000 0.29255 0.066244 -0.0070328 0.014097 -0.00083011 -0.0055236 0.0017165 0.0019207
-0.00033396 -0.0023491 -0.00021894 0.00040275
-0.0070396 0.014094 0.17229 0.29734 0.0061773 0.0082804 0.00043842 -0.0015471
-0.00063755 -0.00080334 -0.00027372 -0.00081329
-0.00082076 -0.0055086 0.0062385 0.0082491 0.32944 -0.10434 -0.0014876 0.00069442
-0.0003876 -0.0012566 0.00020388 -0.00059094
0.0017033 0.0019137 0.00045896 -0.0015399 -0.0014713 0.00068907 0.23582 0.10017
-0.010237 0.0097957 0.0026262 0.00054247
-0.00034842 -0.002323 -0.00064642 -0.00077948 -0.00038221 -0.0012511 -0.010198 0.0098214
0.17628 0.17898 -0.0096764 0.0087752
-0.00019821 0.0003749 -0.00026019 -0.00086116 0.00019818 -0.00059185 0.0026483 0.00050498
-0.0096714 0.0087639 0.22197 0.2341
1640000000 0.29453 0.025261 -0.00012024 0.012252 -0.003145 -0.0030505 0.0028182 0.00092374
-0.0010483 -0.0016401 -0.00029013 0.00061171
-0.00012562 0.012257 0.20122 0.27308 0.0064711 0.0029556 -0.0006612 -0.0017368
-0.00086796 -0.00023795 -0.00054674 -0.00062596
-0.0031292 -0.0029842 0.0064833 0.0029289 0.3019 -0.15359 -0.00055307 0.0014607
-0.0012449 -0.00096995 -0.00022878 -0.00034148
0.002837 0.00090564 -0.0006662 -0.0017262 -0.00053578 0.0014809 0.24773 0.051475
-0.0049408 0.010009 0.0027041 -0.0010021
-0.0010441 -0.0016373 -0.00085176 -0.00021051 -0.0012082 -0.00089975 -0.0049381 0.010057
0.19972 0.1546 -0.0044119 0.010766
-0.00030704 0.00061493 -0.00054996 -0.00069128 -0.00024068 -0.00044938 0.0027445 -0.00099925
-0.0044121 0.010761 0.24709 0.20331
1700000000 0.28748 -0.019743 0.00302 0.0087111 -0.0040031 -0.00018892 0.0031129 -0.0013383
-0.0021788 -0.00048565 0.00065209 0.00033519
0.003007 0.0087241 0.21925 0.24224 0.0042216 -8.7439e-05 -0.0014549 -0.00053897
-0.00063858 4.8209e-07 -0.00087973 -0.00042578
-0.0040109 -0.00014211 0.0042373 -0.00012561 0.2594 -0.19354 0.00047044 0.0015166
-0.0019783 6.4339e-05 -0.00042418 -0.00095796
0.0030952 -0.0013622 -0.0014656 -0.00051233 0.00047757 0.0015272 0.24426 0.0017994
-0.0020178 0.009126 0.0016597 -0.0024717
-0.0022049 -0.00048228 -0.00061649 2.1117e-05 -0.0019875 0.00011096 -0.0020007 0.0091179
0.21702 0.13362 0.00071286 0.010756
0.00061708 0.00032424 -0.00088108 -0.0004317 -0.00042701 -0.0009612 0.001651 -0.0024533
0.00071237 0.010753 0.26337 0.16902
1760000000 0.27577 -0.067896 0.0047389 0.0050803 -0.0027366 0.0010782 0.0011191 -0.0035434
-0.0014434 0.00089388 0.00026986 -0.00060271
0.0047361 0.0050848 0.24534 0.2033 0.0015997 -0.0018555 -0.0011744 0.00013806
-0.00096929 0.00069892 -0.00062573 0.00036594
-0.002713 0.0011147 0.0015952 -0.0018671 0.21141 -0.22705 0.0011591 0.001115
-0.0012281 0.0015682 -0.0013434 -0.00066284
0.0011185 -0.0035369 -0.0012022 0.00011709 0.0010951 0.0010615 0.2351 -0.049321
0.00047256 0.0071627 -0.0001506 -0.0028617
-0.0014192 0.00085321 -0.0010134 0.00069893 -0.0012378 0.00163 0.00046936 0.007172
0.23168 0.098533 0.0051337 0.0076803
0.00023299 -0.0006179 -0.00059648 0.00042198 -0.0013002 -0.00067876 -0.00017489 -0.0028695
0.0051325 0.0076762 0.27598 0.13147
1820000000 0.25173 -0.10481 0.0041999 0.001567 -0.00044851 0.002576 -0.0011891 -0.0031284
-0.0009126 0.0011044 -0.00022127 -5.1029e-05
0.0041865 0.0015661 0.25592 0.17393 -0.00090431 -0.00070382 -0.0013314 0.00089441
-0.00017492 0.0010595 -0.00068535 0.00059708
-0.00043885 0.0026185 -0.00092509 -0.00069206 0.16118 -0.24375 0.0014015 0.00044274
-8.8534e-05 0.0024468 -0.0017456 0.00055544
-0.0012368 -0.0031069 -0.0013559 0.00090146 0.0014763 0.00048803 0.20546 -0.096179
0.0010703 0.0053561 -0.0018362 -0.0018467
-0.00093555 0.0011136 -0.00015737 0.0010804 -4.8001e-05 0.0024152 0.0010645 0.0054012
0.24866 0.069373 0.0057963 0.0035862
-0.0001934 -4.8585e-05 -0.00067022 0.00058568 -0.0017529 0.00050115 -0.0018038 -0.0018366
0.0057955 0.0035797 0.27799 0.094855
1880000000 0.21735 -0.14523 0.0016841 -0.00030124 -0.00053517 0.002388 -0.0029007 -0.0021237
-6.68e-05 0.0017895 0.00013956 -0.00055993
0.0017143 -0.0003158 0.26118 0.12783 -0.0029221 0.0014121 -0.00024358 0.0017533
0.00036012 0.0013437 0.00010942 0.00087891
-0.00051135 0.0023768 -0.0029082 0.0014383 0.10887 -0.25396 0.0019148 -0.0006717
0.0017171 0.0019669 -0.0010325 0.0015154
-0.0029621 -0.0020836 -0.00023438 0.001766 0.0019495 -0.00073031 0.16525 -0.13664
0.00080212 0.0036587 -0.0026014 4.6975e-05
-5.141e-05 0.0018099 0.00034177 0.0013492 0.0017109 0.0019857 0.00080872 0.0036112
0.25187 0.037278 0.0059235 0.00089629
0.00016054 -0.00054423 0.00014283 0.00094668 -0.00094554 0.0015485 -0.0026467 -1.0959e-06
0.0059264 0.00090142 0.27769 0.060689
1940000000 0.17836 -0.17097 -0.00083212 -0.0015084 0.0014867 0.0025153 -0.0037597 0.00049996
0.0013711 0.00099434 -0.00043836 -0.00034537
-0.00081195 -0.0015087 0.26249 0.096213 -0.001869 0.0042061 0.001074 0.0014277
0.0017619 0.00072908 0.0010833 0.00045668
0.0015835 0.0024804 -0.0018393 0.0042191 0.062552 -0.24686 0.00065032 -0.0021562
0.00259 0.00024623 0.00084212 0.0018242
-0.0037267 0.00056864 0.0010655 0.0014312 0.00066349 -0.0021436 0.11267 -0.16727
-0.0006715 0.0030286 -0.0017954 0.0016153
0.0013733 0.0010596 0.0017417 0.00071765 0.0026424 0.0002756 -0.00062098 0.0029777
0.25393 -0.00073183 0.0043214 -0.0026195
-0.00040352 -0.00039748 0.0010781 0.00039182 0.00077601 0.0018552 -0.0018661 0.001576
0.0043215 -0.0026146 0.26633 0.024231
2000000000 0.13289 -0.18618 -0.0044034 0.00082153 0.0027601 0.0016167 -0.0023904 0.0038814
0.0011261 0.00036427 -0.00049719 0.00045652
-0.0044573 0.00082319 0.24926 0.060383 -0.0011383 0.0060571 0.0015963 0.0005024
0.0014878 -0.00085036 0.00057023 8.3593e-05
0.0027703 0.0016175 -0.001073 0.0060407 0.019444 -0.23328 -0.0014039 -0.0016051
0.0021432 -0.0013603 0.0018202 0.0010831
-0.0024457 0.0038577 0.0016242 0.00043034 -0.0013329 -0.0015588 0.0597 -0.1772
-0.0017425 0.003436 -0.00037594 0.0021927
0.001082 0.00027423 0.0014835 -0.00092683 0.0020757 -0.001312 -0.001804 0.0035179
0.24895 -0.033694 0.0010139 -0.0039706
