!Keysight Technologies,M9804A,MY58100912,A.14.10.03
!Date: Thursday, April 27, 2023 10:28:33
!Correction: S11(C  6-Port  ) 
!S12(C  6-Port  ) 
!S13(C  6-Port  ) 
!S14(C  6-Port  ) 
!S15(C  6-Port  ) 
!S16(C  6-Port  ) 
!S21(C  6-Port  ) 
!S22(C  6-Port  ) 
!S23(C  6-Port  ) 
!S24(C  6-Port  ) 
!S25(C  6-Port  ) 
!S26(C  6-Port  ) 
!S31(C  6-Port  ) 
!S32(C  6-Port  ) 
!S33(C  6-Port  ) 
!S34(C  6-Port  ) 
!S35(C  6-Port  ) 
!S36(C  6-Port  ) 
!S41(C  6-Port  ) 
!S42(C  6-Port  ) 
!S43(C  6-Port  ) 
!S44(C  6-Port  ) 
!S45(C  6-Port  ) 
!S46(C  6-Port  ) 
!S51(C  6-Port  ) 
!S52(C  6-Port  ) 
!S53(C  6-Port  ) 
!S54(C  6-Port  ) 
!S55(C  6-Port  ) 
!S56(C  6-Port  ) 
!S61(C  6-Port  ) 
!S62(C  6-Port  ) 
!S63(C  6-Port  ) 
!S64(C  6-Port  ) 
!S65(C  6-Port  ) 
!S66(C  6-Port  ) 
!S6P File: Measurement: :
# Hz S  RI   R 50
500000000 -0.33532 -0.052238 -0.010576 -0.001679 -0.008411 0.012684 -0.0043057 0.012984
0.012567 0.0055238 -0.0035127 0.0080602
-0.010469 -0.0012937 -0.41732 -0.06194 0.0082776 -0.010334 0.0011314 0.012539
0.00805 0.0029586 0.0010235 0.013693
-0.0089901 0.013255 0.0079279 -0.010196 -0.26659 0.2002 0.0065175 0.0037343
-0.0014278 0.0083684 -2.6674e-05 0.01255
-0.0037313 0.012714 0.0016955 0.013087 0.0065371 0.0034786 -0.33231 0.044607
-0.016764 -0.0050435 0.016112 0.02655
0.012665 0.0057586 0.0077557 0.0022691 -0.0009824 0.0084551 -0.017887 -0.0054601
-0.25219 -0.1917 -0.023926 0.0036276
-0.0029316 0.0087727 0.0013672 0.014432 0.00037625 0.012134 0.015456 0.025818
-0.023567 0.0040923 -0.27304 -0.1146
560000000 -0.31702 0.11263 -0.024032 -0.065327 -0.00021143 0.012259 0.0045158 0.010267
0.010523 0.0032431 0.010931 0.0091975
-0.023441 -0.066122 -0.37725 0.10075 -0.04178 -0.038494 0.013421 0.0035496
-0.011867 -0.0021777 0.0029182 -0.0016282
0.00074869 0.01372 -0.042049 -0.038714 -0.18518 0.2513 0.00011218 -0.0048367
0.017887 0.003638 0.0084305 -0.0046589
0.0049134 0.010655 0.013217 0.0031791 -0.0001054 -0.0050664 -0.30765 0.13534
0.0055991 -0.022476 0.0044217 -0.022243
0.0092098 0.0034405 -0.012034 -0.00262 0.018939 0.0046364 0.0049352 -0.024167
-0.30712 -0.012789 0.0062104 -0.045605
0.010689 0.0076393 0.0022536 -0.001388 0.0081483 -0.0051099 0.0043566 -0.022227
0.0055188 -0.045395 -0.33119 0.026625
620000000 -0.27738 0.095114 -0.023051 0.0083066 0.0030873 0.0093025 0.0086763 -0.0032488
0.012373 -0.0022564 0.00044645 -0.0020921
-0.022725 0.0082275 -0.40344 0.049924 -0.018632 0.00048549 -0.0013685 -0.0018343
0.012054 -0.0065602 -6.268e-06 -0.0022725
0.0037301 0.0098564 -0.018712 0.00055499 -0.15563 0.26094 -0.0011781 -0.0043815
-0.0033451 -0.003072 0.0090718 -0.0026347
0.0080618 -0.0036848 -0.0014696 -0.0022117 -0.00078692 -0.0048676 -0.26599 0.14589
-0.03855 -0.017199 0.014817 0.024609
0.013277 -0.0019743 0.011835 -0.0063266 -0.0036158 -0.0032645 -0.038684 -0.018143
-0.23127 -0.048321 -0.043315 0.014715
0.00088072 -0.0017741 0.0001743 -0.003046 0.008736 -0.0028198 0.013514 0.025658
-0.042785 0.015371 -0.24933 -0.0017634
680000000 -0.23904 0.18467 -0.026157 -0.014264 0.0051522 0.0056384 0.0013123 -0.0074388
-0.0023396 -0.011933 0.0049643 -0.006818
-0.026363 -0.014387 -0.38944 0.15049 -0.032671 -0.0019363 -0.0017848 -0.00046948
-0.0014218 -0.0094714 -0.0012871 -0.0019361
0.0052129 0.0055754 -0.032576 -0.0018911 -0.10403 0.28076 -0.00083903 -0.00027445
-0.0014863 0.00047264 -0.0029218 -0.0091006
0.0015639 -0.0076162 -0.0013415 -0.00079276 -0.00099921 -0.00040652 -0.22102 0.19699
-0.024361 -0.0080235 -0.0098007 -0.0099996
-0.0026102 -0.011946 -0.0016729 -0.0095713 -0.0014821 0.00042163 -0.023897 -0.0085623
-0.27828 0.058416 -0.0064904 -0.0084272
0.0055048 -0.0076536 -0.00053817 -0.0013122 -0.0029864 -0.0090513 -0.0097999 -0.010065
-0.0072924 -0.0086612 -0.26278 0.097317
740000000 -0.19374 0.17796 -0.039427 0.026326 0.013628 -0.0048731 -0.00046512 -0.0046061
-0.0042472 -0.0034296 -0.0067775 0.0032245
-0.039323 0.026569 -0.33423 0.16902 -0.036816 0.035178 -0.00010062 -0.0056073
-0.012421 0.0074208 -0.0011504 -0.0067021
0.013798 -0.0046672 -0.036796 0.03554 -0.070295 0.27833 -0.0020572 0.0032863
-0.0026455 -0.0058047 -0.00095998 0.0013756
-0.00064607 -0.004362 0.00064268 -0.005668 -0.0017607 0.0034061 -0.20424 0.20429
-0.042746 -0.0075026 0.022301 0.014234
-0.0042376 -0.002263 -0.012269 0.0064963 -0.002917 -0.0058326 -0.04149 -0.0067815
-0.17721 0.081525 -0.04228 0.0017547
-0.0057225 0.0033824 -0.00099091 -0.0050135 -0.00084783 0.001434 0.02156 0.014169
-0.043026 0.0022698 -0.24588 0.10496
800000000 -0.16125 0.22131 -0.022441 0.016318 0.006068 -0.010664 -0.0043449 -0.0022256
-0.0044027 0.0024413 0.0045152 0.00043224
-0.022546 0.01623 -0.34093 0.23978 -0.0083632 0.034356 -0.0020268 0.0020657
-0.0013896 0.0028815 0.0012681 0.0054671
0.0059256 -0.010681 -0.0084147 0.034409 -0.031219 0.30241 0.00094071 0.0012237
5.1632e-05 0.003496 -0.0016398 0.0010715
-0.0046272 -0.0021468 -0.0021415 0.0019398 0.00086637 0.0014739 -0.17406 0.23213
-0.028663 0.012978 0.014158 -0.0095943
-0.0045091 0.0023831 -0.0010848 0.0027577 0.00011464 0.0035048 -0.028786 0.013148
-0.22088 0.11318 -0.01677 0.019256
0.003977 0.00048945 0.00074992 0.0053069 -0.001778 0.0011277 0.014479 -0.010283
-0.016558 0.018784 -0.239 0.15487
860000000 -0.12676 0.24099 -0.017897 0.03039 -0.0027906 -0.010588 -0.0015009 0.00074341
0.0042664 0.0048074 -0.0037328 -0.0029285
-0.017874 0.030464 -0.29275 0.28223 0.0076973 0.034637 -7.946e-05 0.0021477
0.0038235 0.0005116 0.0034304 0.00053071
-0.0027752 -0.010442 0.0078542 0.034642 0.016025 0.31091 -0.00074325 -7.2871e-05
0.0021447 -0.0014733 0.0017863 0.0041827
-0.0020765 0.00047281 7.0785e-05 0.0021825 -0.00070439 -0.00018402 -0.13774 0.24348
-0.018023 0.018581 -0.0060827 -0.0092115
0.0041402 0.0050776 0.0034109 0.00042814 0.0020647 -0.0014691 -0.018114 0.018963
-0.16516 0.16158 -0.024327 0.017932
-0.0038948 -0.0024112 0.0035873 0.00071034 0.0018034 0.0043653 -0.0063142 -0.0088067
-0.024293 0.018506 -0.18839 0.19647
920000000 -0.10334 0.26425 0.0044487 0.038064 -0.009561 -0.0052303 -0.0019787 0.0017362
0.0012437 0.0022283 0.0027926 -0.0013231
0.0045053 0.038063 -0.26593 0.30398 0.02827 0.022801 0.0014857 0.0012099
0.007408 -0.00028753 0.0039891 -0.0025941
-0.0096073 -0.0051798 0.028329 0.022773 0.06158 0.31268 0.0019385 7.5596e-05
0.0010242 -7.8802e-05 0.0011395 -0.0012779
-0.0017753 0.0017792 0.0013946 0.0011828 0.0019001 9.8737e-05 -0.11324 0.26005
-0.011067 0.031251 0.0035996 -0.0067787
0.00095165 0.0019829 0.0074723 -0.00028469 0.0011219 0.00012627 -0.011315 0.03127
-0.15288 0.16954 -0.0014389 0.026655
0.0029549 -0.0014996 0.0040293 -0.002676 0.0010691 -0.0013198 0.0038788 -0.0065951
-0.0014689 0.026462 -0.19443 0.21262
980000000 -0.056987 0.28472 0.016958 0.030368 -0.0096339 0.004238 0.0018682 0.0035975
0.0039234 -0.0015814 -0.002714 -0.0022475
0.016939 0.030435 -0.21258 0.33845 0.033693 0.0054154 0.0020407 -0.0001087
0.0016757 -0.0060208 -0.00016865 -0.0024241
-0.0095919 0.0042742 0.033809 0.0052377 0.10771 0.30688 0.00073339 -0.0011289
0.00032663 -0.0019239 0.0015886 -0.00011585
0.0018421 0.0035379 0.0019863 -9.9164e-05 0.00073538 -0.0011274 -0.074977 0.27136
0.0076623 0.030808 -0.009012 -0.007192
0.0041542 -0.00152 0.0017283 -0.0063079 0.00041868 -0.0020183 0.0077012 0.030688
-0.11898 0.19796 0.0057667 0.019814
-0.0029487 -0.0024143 -0.0001893 -0.0024623 0.0014884 -0.00020441 -0.0092399 -0.0070015
0.0057246 0.01995 -0.15186 0.25452
1040000000 -0.0157 0.29369 0.033065 0.01907 -0.0016149 0.0072027 0.0027981 0.00079316
0.00051166 -0.0034852 -0.0002773 -0.0016261
0.032987 0.019079 -0.17773 0.35231 0.030301 -0.014757 0.0016705 -0.0017279
-0.002094 -0.0027328 -0.0011518 -0.0028701
-0.0016344 0.0071783 0.030334 -0.014901 0.15374 0.29418 -0.00044055 -0.0016812
-0.0016217 -0.00091537 -0.00050634 -0.0011084
0.0026711 0.00062165 0.001648 -0.0018771 -0.0004565 -0.0016576 -0.047265 0.28125
0.020137 0.019058 -0.002587 0.0012423
0.00033042 -0.003413 -0.0019339 -0.0027695 -0.0015944 -0.00096786 0.020161 0.019092
-0.084771 0.20544 0.014324 0.01749
2.2045e-06 -0.0015558 -0.0012805 -0.002912 -0.00051204 -0.0011531 -0.0025077 0.0011301
0.014006 0.017567 -0.12909 0.27552
1100000000 0.029348 0.30278 0.036704 -0.0035797 0.0028549 0.0043738 0.0023697 -0.0012114
-0.002017 -0.0031875 -0.004036 -0.00010237
0.036695 -0.0035133 -0.13444 0.3704 0.015898 -0.028286 4.5844e-05 -0.0019389
-0.0036311 -0.00095859 -0.0036418 -0.00069309
0.002878 0.0042597 0.015836 -0.028401 0.20042 0.27465 -0.0019508 9.7402e-05
-0.0018027 0.0005052 -0.0010883 -0.00059368
0.0023347 -0.0012574 8.7534e-05 -0.0018966 -0.0019359 0.0001506 -0.0065896 0.2863
0.025932 0.0052384 -0.0025929 0.00015077
-0.0019821 -0.0032214 -0.0037514 -0.00089896 -0.0018142 0.00053251 0.025976 0.0051893
-0.064499 0.21709 0.019942 0.0078089
-0.0040841 -0.00020365 -0.0038156 -0.00067576 -0.0010896 -0.00052726 -0.002558 0.00023855
0.01973 0.0077428 -0.082896 0.30272
1160000000 0.080303 0.29886 0.024837 -0.020955 0.0029095 -0.00042921 -0.00015958 -0.0024132
-0.0040163 -0.0008742 -0.00086204 0.0039684
0.024813 -0.020897 -0.090819 0.3753 -0.0035939 -0.03007 -0.0016696 -0.0017122
-0.0028615 0.0025641 -0.0016434 0.0019235
0.0028678 -0.00044897 -0.0036986 -0.030094 0.24384 0.24415 -0.00077301 0.0018434
-0.00069717 0.0019952 -0.00096359 0.0002743
-0.00014315 -0.0023201 -0.001676 -0.0016183 -0.0008281 0.00191 0.032838 0.28327
0.021949 -0.011145 -0.0032224 0.0050797
-0.0040235 -0.00067044 -0.0027573 0.0025728 -0.00068538 0.0019332 0.022024 -0.011177
-0.030604 0.22493 0.018607 -0.0014381
-0.00075623 0.0040269 -0.0014238 0.0018708 -0.00099989 0.00035275 -0.0032582 0.0050254
0.01883 -0.0013169 -0.036352 0.30616
1220000000 0.12469 0.28923 0.01115 -0.030659 -0.0015474 -0.00089264 -4.4083e-06 -0.0008198
-0.002722 0.0021806 0.0011681 0.0020281
0.011166 -0.030607 -0.046393 0.38856 -0.017366 -0.021998 -0.0027088 0.0005439
3.7159e-05 0.0031647 -0.00088376 0.0020027
-0.0016101 -0.00093827 -0.017473 -0.02198 0.283 0.2054 0.00077613 0.0017816
0.0006458 0.0011847 0.00017082 0.00055503
3.6027e-05 -0.00089548 -0.0026923 0.00053934 0.00076374 0.0017825 0.073563 0.27461
0.011112 -0.01815 0.0019548 0.0015029
-0.002689 0.0023138 3.3387e-05 0.0032072 0.00066861 0.0011531 0.011131 -0.018252
-0.0065921 0.23332 0.013612 -0.013865
0.0011616 0.0020914 -0.00077873 0.0020365 0.00010882 0.00055768 0.0019782 0.0014298
0.01369 -0.013746 -0.0040186 0.31998
1280000000 0.17491 0.26875 -0.0080848 -0.029287 -0.0019897 0.0024688 -0.00084516 -0.0021393
-0.00079349 0.00325 0.0025774 0.001187
-0.0080474 -0.029251 5.3342e-05 0.37991 -0.024588 -0.0088367 -0.00091572 0.0014893
0.0018622 0.0017833 0.0006037 0.002024
-0.0019794 0.0024969 -0.02463 -0.0087259 0.31335 0.1614 0.0016783 -7.381e-05
0.001327 0.00024479 0.00034338 0.00021224
-0.00087846 -0.002066 -0.00091151 0.0014929 0.0016457 -0.00010243 0.11053 0.25771
0.00058073 -0.020578 -0.00013516 0.00023797
-0.00079937 0.0031753 0.001952 0.001798 0.001314 0.00020392 0.00049333 -0.020495
0.0306 0.23583 0.002561 -0.016139
0.0026864 0.0012483 0.00067212 0.0019491 0.00036317 0.00024448 -8.7348e-05 0.00032373
0.0026819 -0.01609 0.042852 0.32123
1340000000 0.21247 0.23582 -0.018155 -0.019316 0.00072987 0.0047402 -0.0017945 -0.0008645
0.0014659 0.002702 0.0017813 -0.0014831
-0.018117 -0.019308 0.039691 0.37198 -0.02223 0.0044905 -1.7229e-05 0.0020041
0.0020673 0.00070997 0.0013264 0.00069538
0.00079783 0.0047173 -0.022229 0.0045675 0.33507 0.11452 0.0011155 -0.00091367
0.00079929 -0.00051751 0.00012194 0.00021984
-0.0017739 -0.0008683 1.1299e-05 0.0020403 0.0011912 -0.00094914 0.14339 0.23656
-0.0093083 -0.017449 0.00074708 0.00054705
0.0015175 0.002662 0.0020303 0.00075208 0.00077335 -0.0004408 -0.0093613 -0.017501
0.061041 0.23095 -0.0047138 -0.014292
0.0017354 -0.0014335 0.0013403 0.00068668 0.0001815 0.00023894 0.00069986 0.00053994
-0.0045484 -0.014257 0.081461 0.31521
1400000000 0.24662 0.19824 -0.024049 -0.0074841 0.0053409 0.0034372 -0.0022576 0.00054176
0.0024004 0.00096183 0.00033034 -0.0016313
-0.024018 -0.0074686 0.077359 0.35893 -0.015348 0.012945 0.0013854 0.0012427
0.001238 -0.00090573 0.0011982 9.2428e-05
0.0053998 0.003427 -0.015286 0.013057 0.34825 0.061575 4.1232e-06 -0.0017079
9.2467e-05 -0.00040345 0.00033335 0.0002386
-0.0021916 0.00063524 0.0014168 0.0012112 3.3163e-05 -0.0016611 0.17274 0.20716
-0.015722 -0.010089 -0.00076133 2.4705e-05
0.0024835 0.00093582 0.0013638 -0.00090914 0.00010793 -0.00042419 -0.015735 -0.0099992
0.094636 0.22558 -0.010977 -0.0088273
0.00028221 -0.0016045 0.0011949 8.759e-05 0.00027994 0.00030504 -0.00084409 1.5838e-05
-0.011025 -0.0088612 0.12536 0.30368
1460000000 0.26982 0.15426 -0.020737 0.0052127 0.0059481 -0.0016944 -0.0016087 0.0017705
0.0022253 -0.00044351 -0.00037145 -0.00095595
-0.020712 0.0051892 0.1115 0.33699 -0.0060344 0.016024 0.001675 0.00012528
0.00079295 -0.0013856 0.0011139 -0.00071182
0.0059334 -0.0017095 -0.0059742 0.016085 0.35474 0.0080231 -0.001243 -0.0013294
0.00010928 -0.000323 0.00066347 -0.00022662
-0.0015825 0.0017889 0.0016585 0.00010349 -0.0013126 -0.0012852 0.19878 0.17758
-0.016778 -0.0026513 -0.00081456 0.0022262
0.0022907 -0.00043185 0.00075953 -0.0013816 0.00011482 -0.00024802 -0.016885 -0.0025876
0.12376 0.21076 -0.012649 -0.0025075
-0.00045057 -0.00098851 0.0011832 -0.00062818 0.00064727 -0.00033257 -0.0007394 0.0022071
-0.012638 -0.0025459 0.15817 0.28236
1520000000 0.28237 0.11277 -0.014829 0.010816 0.0035587 -0.0043673 0.000134 0.0025987
0.0022098 -0.0020184 -0.0011693 -0.00013328
-0.014831 0.010791 0.14487 0.32266 0.001886 0.013539 0.0016392 -0.00077259
2.5953e-05 -0.0010488 0.00030724 -0.0010668
0.0035934 -0.0043988 0.0019778 0.013528 0.3485 -0.047462 -0.0010762 -0.00032877
0.00065065 -0.00082901 5.9178e-05 -0.00026028
0.00016488 0.0026168 0.0016539 -0.00080187 -0.0011096 -0.00034206 0.22159 0.13924
-0.015635 0.0037169 0.0017509 0.0021197
0.0021445 -0.0020154 9.2896e-07 -0.0010751 0.00056735 -0.00086768 -0.015592 0.0037772
0.15203 0.19683 -0.01218 0.0025739
-0.0011557 -0.00017735 0.00029866 -0.0010469 2.6196e-05 -0.00025111 0.0017696 0.0020926
-0.012273 0.0024301 0.19066 0.26152
1580000000 0.2922 0.066649 -0.0077917 0.013911 -0.00085743 -0.0052472 0.0015368 0.0018883
-0.00019444 -0.0022422 -0.00017297 0.00050471
-0.0078022 0.013872 0.17201 0.29797 0.0057314 0.0083669 0.00053204 -0.001557
-0.0005884 -0.00096532 -0.00018889 -0.0007881
-0.00089604 -0.0052292 0.0058202 0.0083721 0.32944 -0.1047 -0.0015966 0.00058293
-0.00035089 -0.0012244 0.00027081 -0.00051419
0.0015444 0.0019239 0.00053783 -0.0015345 -0.0015999 0.00059769 0.23485 0.099761
-0.011466 0.0086159 0.0022989 0.00068485
-0.00020069 -0.0022652 -0.00058093 -0.00091106 -0.00027748 -0.0012339 -0.01142 0.0086021
0.17596 0.1783 -0.0094657 0.0080326
-0.00013485 0.00040717 -0.00025615 -0.00088832 0.00025507 -0.00061906 0.0022983 0.000742
-0.0093633 0.008074 0.22162 0.23454
1640000000 0.29434 0.025688 -0.00088764 0.012421 -0.0030247 -0.0028845 0.0027067 0.00098557
-0.00082454 -0.001611 -0.00027161 0.00062355
-0.00088845 0.012417 0.20127 0.27364 0.0063127 0.0032598 -0.00066137 -0.0017911
-0.00095 -0.00033738 -0.00055378 -0.00062226
-0.0029953 -0.0028576 0.0063466 0.0032182 0.30157 -0.15386 -0.00061272 0.0014752
-0.0010138 -0.00096318 -0.00021961 -0.00048231
0.0027509 0.0010216 -0.00067036 -0.0017802 -0.00052791 0.001452 0.24662 0.051552
-0.0067613 0.009694 0.0025682 -0.00090376
-0.00080497 -0.0016177 -0.0010135 -0.00034162 -0.00098619 -0.00089465 -0.0067002 0.009772
0.19888 0.154 -0.0042797 0.0099583
-0.00032436 0.00053618 -0.00057139 -0.00060081 -0.00018976 -0.00049739 0.0026292 -0.00091843
-0.0043775 0.009979 0.24691 0.20351
1700000000 0.28757 -0.019262 0.0024817 0.0092498 -0.0038026 -5.4955e-05 0.0031768 -0.0012475
-0.002027 -0.00057208 0.00063934 0.0003404
0.0024812 0.0092218 0.21961 0.24267 0.0040912 0.0001994 -0.0014547 -0.00059981
-0.00071615 5.2443e-05 -0.00082523 -0.00040639
-0.0038469 -8.2411e-05 0.0040986 0.00018078 0.25906 -0.19426 0.00044355 0.0015893
-0.0018882 5.2234e-06 -0.00045325 -0.00087507
0.0030828 -0.0013254 -0.001454 -0.00058985 0.00046584 0.0015964 0.24334 0.0021949
-0.0036842 0.0098116 0.0016686 -0.0022545
-0.0020766 -0.00061799 -0.00069441 2.4115e-05 -0.0019213 -4.126e-05 -0.0037176 0.0097846
0.21598 0.13342 0.0004869 0.010006
0.00059712 0.00028911 -0.00084262 -0.0004634 -0.00046926 -0.0010204 0.0016195 -0.0022996
0.00050567 0.0099518 0.263 0.16937
1760000000 0.27593 -0.067602 0.0046097 0.0058137 -0.0024421 0.0011696 0.0012494 -0.0034832
-0.0014593 0.00075917 0.00023149 -0.00060864
0.0046027 0.0058211 0.24569 0.20343 0.0015697 -0.0015066 -0.0012567 0.00012946
-0.00099036 0.00087565 -0.00058847 0.00037019
-0.0023661 0.0011982 0.0015875 -0.0015225 0.21032 -0.22766 0.00097866 0.00097634
-0.0012463 0.0014787 -0.0012219 -0.00066188
0.0013054 -0.003461 -0.0012482 0.00017749 0.0010256 0.0010307 0.23431 -0.048481
-0.00064588 0.0086048 -0.00019038 -0.0026744
-0.0014113 0.00078098 -0.0010099 0.00086096 -0.0012904 0.0015014 -0.00062799 0.0086361
0.23037 0.098612 0.0044767 0.0071384
0.00023795 -0.00048505 -0.00056259 0.00039851 -0.001278 -0.0006452 -0.00014572 -0.0026568
0.0044847 0.0071337 0.27553 0.1313
1820000000 0.252 -0.10471 0.0044495 0.0022374 -0.00031274 0.0024711 -0.0010332 -0.0030637
-0.0010286 0.0010749 -0.00017396 -4.3093e-05
0.0044193 0.0022338 0.25627 0.17388 -0.00076281 -0.00039904 -0.0013206 0.00097089
-9.9766e-05 0.0011909 -0.000575 0.00050105
-0.00027777 0.0024918 -0.00078154 -0.00034827 0.16035 -0.24377 0.0014321 0.00051455
-0.00026633 0.00233 -0.0014504 0.00037982
-0.0011277 -0.0030047 -0.0013545 0.00097367 0.0015735 0.00048452 0.20502 -0.095325
0.00070435 0.007039 -0.0016963 -0.0016185
-0.0010568 0.0010846 -0.00012449 0.001217 -0.00023397 0.0023327 0.00075437 0.0070171
0.24726 0.070012 0.0052483 0.0034354
-0.00021732 -0.00011431 -0.00061792 0.00051854 -0.001501 0.0003958 -0.0018058 -0.001674
0.0052631 0.0034474 0.2777 0.095138
1880000000 0.21742 -0.14544 0.0021497 5.6564e-05 -0.00047521 0.0020945 -0.0029488 -0.0023241
-0.00010312 0.0017805 0.00013433 -0.00044561
0.0021614 3.5991e-05 0.26135 0.12745 -0.002668 0.0015586 -0.00020558 0.0016845
0.00055122 0.0012767 1.9864e-05 0.00096812
-0.00050429 0.0021444 -0.0026624 0.0015766 0.10845 -0.25353 0.0017769 -0.00096938
0.0015906 0.0019549 -0.0010788 0.0015502
-0.0029845 -0.0021838 -0.00023958 0.0016744 0.0017336 -0.0010637 0.16515 -0.13561
0.0014546 0.0051772 -0.0025251 0.0004129
-0.00010579 0.0018409 0.00052182 0.0012917 0.001613 0.0018983 0.0013856 0.0052015
0.2509 0.038533 0.0051121 0.0010312
0.00025634 -0.00048923 5.9613e-07 0.00098281 -0.0011363 0.0014458 -0.0024836 0.00046932
0.0051443 0.00096711 0.27716 0.060614
1940000000 0.17847 -0.17112 -0.00029386 -0.001419 0.0013323 0.0022763 -0.0036526 0.00050076
0.0014399 0.0011195 -0.00036974 -0.00055514
-0.00023551 -0.0013947 0.26244 0.095813 -0.0015327 0.0041473 0.0010857 0.0014273
0.0017844 0.00061523 0.00095141 0.00039874
0.0014444 0.0021782 -0.0014953 0.0041807 0.062055 -0.24627 0.00048005 -0.0022687
0.002366 0.00038688 0.00039192 0.0016275
-0.0037258 0.00048522 0.0010967 0.0013759 0.0006069 -0.0021732 0.11308 -0.16657
0.00067501 0.0038477 -0.0016284 0.0015638
0.0014269 0.0010735 0.0018148 0.00059923 0.0024076 0.00042776 0.00068471 0.0037729
0.25365 0.00075139 0.0039055 -0.0023176
-0.00030267 -0.00049206 0.00094851 0.00038704 0.00051686 0.0017548 -0.0015804 0.0015426
0.0038372 -0.0021645 0.26613 0.024442
2000000000 0.13278 -0.18642 -0.0040211 0.00064587 0.0026611 0.0014619 -0.0023622 0.0037635
0.0011798 0.0003168 -0.00052729 0.00041398
-0.003967 0.00063008 0.24901 0.060045 -0.0010209 0.0058322 0.0014903 0.00040349
0.001446 -0.0011405 0.00066389 0.00014321
0.0026635 0.0016279 -0.00091726 0.005902 0.019215 -0.23262 -0.0012981 -0.0014167
0.0022418 -0.0012231 0.0018121 0.0015365
-0.0023695 0.003809 0.0015282 0.00040633 -0.0012303 -0.0014975 0.060567 -0.17723
-0.00047819 0.0036415 0.00010385 0.0023602
0.0012007 0.00029967 0.0013512 -0.0011144 0.0023115 -0.0012503 -0.00037663 0.0037087
0.24911 -0.03228 0.00060706 -0.0028943
