!Keysight Technologies,M9804A,MY58100912,A.14.10.03
!Date: Thursday, April 27, 2023 10:28:33
!Correction: S11(C  6-Port  ) 
!S12(C  6-Port  ) 
!S13(C  6-Port  ) 
!S14(C  6-Port  ) 
!S15(C  6-Port  ) 
!S16(C  6-Port  ) 
!S21(C  6-Port  ) 
!S22(C  6-Port  ) 
!S23(C  6-Port  ) 
!S24(C  6-Port  ) 
!S25(C  6-Port  ) 
!S26(C  6-Port  ) 
!S31(C  6-Port  ) 
!S32(C  6-Port  ) 
!S33(C  6-Port  ) 
!S34(C  6-Port  ) 
!S35(C  6-Port  ) 
!S36(C  6-Port  ) 
!S41(C  6-Port  ) 
!S42(C  6-Port  ) 
!S43(C  6-Port  ) 
!S44(C  6-Port  ) 
!S45(C  6-Port  ) 
!S46(C  6-Port  ) 
!S51(C  6-Port  ) 
!S52(C  6-Port  ) 
!S53(C  6-Port  ) 
!S54(C  6-Port  ) 
!S55(C  6-Port  ) 
!S56(C  6-Port  ) 
!S61(C  6-Port  ) 
!S62(C  6-Port  ) 
!S63(C  6-Port  ) 
!S64(C  6-Port  ) 
!S65(C  6-Port  ) 
!S66(C  6-Port  ) 
!S6P File: Measurement: :
# Hz S  RI   R 50
500000000 -0.33501 -0.050735 -0.010641 -0.0012026 -0.0092115 0.013547 -0.0042544 0.012417
0.012036 0.0050262 -0.0030632 0.0089701
-0.010712 -0.0011673 -0.41707 -0.061696 0.0077176 -0.010281 0.0014644 0.012749
0.0072149 0.0025974 0.0018135 0.014123
-0.0090905 0.013413 0.0077128 -0.010327 -0.26709 0.20087 0.0071104 0.0038614
-0.0018776 0.0085427 0.00092093 0.012353
-0.0041717 0.012517 0.001539 0.012797 0.0070303 0.0037845 -0.33248 0.045475
-0.018907 -0.0046714 0.016001 0.02611
0.01194 0.0051256 0.0071001 0.0026593 -0.002069 0.0088122 -0.018983 -0.0047817
-0.25095 -0.18988 -0.025965 0.0053743
-0.0031942 0.0089158 0.00149 0.014332 0.00083082 0.01262 0.015684 0.025811
-0.026131 0.0054814 -0.27379 -0.11486
560000000 -0.3178 0.11505 -0.02311 -0.065227 -0.0001643 0.013447 0.0052772 0.011624
0.010443 0.0043766 0.0096311 0.0078048
-0.023046 -0.065173 -0.3759 0.1003 -0.042282 -0.037868 0.014019 0.0040793
-0.012735 -0.0056089 0.0029611 -8.4899e-05
-0.00012554 0.013411 -0.042406 -0.037761 -0.18522 0.25235 -0.00025345 -0.0045349
0.019193 0.0049103 0.0071091 -0.0046783
0.0053766 0.01149 0.014042 0.0040981 -0.00024719 -0.0044953 -0.30694 0.13578
0.0049336 -0.023715 0.0043861 -0.021454
0.010443 0.004417 -0.012767 -0.0052493 0.019312 0.0048227 0.0048645 -0.023801
-0.30995 -0.011811 0.0069731 -0.046194
0.0099777 0.0077204 0.0030205 -0.00063356 0.0069968 -0.004843 0.0044634 -0.021482
0.007297 -0.046623 -0.33437 0.029876
620000000 -0.27704 0.095978 -0.02312 0.0091985 0.0039289 0.0099074 0.0087548 -0.0047304
0.012526 -0.00029114 0.0014796 -0.0022857
-0.023089 0.0091138 -0.40355 0.050934 -0.018374 0.0010363 -0.0014606 -0.0021511
0.012142 -0.0063157 0.0014781 -0.003471
0.0040875 0.0097661 -0.018372 0.00099844 -0.15513 0.26208 -0.00089278 -0.0054539
-0.002816 -0.0027664 0.0095435 -0.0029447
0.0089031 -0.0047304 -0.0014167 -0.0021439 -0.00092762 -0.0054313 -0.26583 0.14728
-0.037268 -0.019518 0.012231 0.026957
0.01251 -0.00054456 0.01218 -0.006295 -0.0028489 -0.0026409 -0.037462 -0.019531
-0.23324 -0.043983 -0.039352 0.011837
0.001327 -0.0021763 0.0014179 -0.0034727 0.0093989 -0.0028005 0.012264 0.027084
-0.039238 0.011902 -0.25354 -0.00059542
680000000 -0.23919 0.18597 -0.026603 -0.014208 0.0054499 0.0054033 0.0024202 -0.0076117
-0.0029033 -0.011737 0.0044633 -0.0071026
-0.026538 -0.014218 -0.38949 0.15123 -0.032248 -0.0019955 -0.0011029 -0.00065485
-0.001684 -0.0096914 -0.0012803 -0.0021201
0.0054081 0.0053701 -0.032338 -0.0019576 -0.10332 0.28152 -0.0010698 -0.00058204
-0.001652 0.00031426 -0.0027298 -0.0093808
0.002165 -0.0078959 -0.001125 -0.00067508 -0.0010348 -0.00058411 -0.2203 0.19796
-0.023434 -0.0074896 -0.0086045 -0.011648
-0.0028455 -0.011917 -0.0017172 -0.0097325 -0.0016757 0.00033611 -0.023543 -0.0074103
-0.27803 0.059064 -0.0077256 -0.0063187
0.0043101 -0.0075894 -0.0013627 -0.0021338 -0.0028374 -0.009376 -0.0084119 -0.011679
-0.007766 -0.006409 -0.25869 0.10037
740000000 -0.19295 0.17914 -0.039684 0.027184 0.01398 -0.0050385 -0.00041143 -0.0039003
-0.0044513 -0.0029527 -0.0061693 0.0036206
-0.039612 0.027217 -0.33519 0.1693 -0.036578 0.034708 -0.00041772 -0.0059088
-0.011806 0.0071435 -0.001535 -0.0063941
0.013915 -0.0051666 -0.036506 0.034792 -0.069684 0.27897 -0.0021275 0.0035937
-0.0023624 -0.005028 -0.0012188 0.00089911
-0.0003279 -0.0038867 -0.0004871 -0.0058465 -0.002149 0.003545 -0.20343 0.20545
-0.043153 -0.0067734 0.022036 0.01446
-0.0044331 -0.0029394 -0.011729 0.0072649 -0.0024732 -0.0050323 -0.042951 -0.0068462
-0.17738 0.083499 -0.04159 0.0012423
-0.0061475 0.0035217 -0.0014489 -0.0064036 -0.001289 0.00087091 0.022018 0.014467
-0.041566 0.0013429 -0.24724 0.10657
800000000 -0.16024 0.22242 -0.022193 0.016604 0.0056435 -0.010434 -0.0045048 -0.0024776
-0.0047117 0.0024162 0.0036432 0.00061509
-0.022193 0.016477 -0.34041 0.24054 -0.0084527 0.034176 -0.0023349 0.001902
-0.0015045 0.0031233 0.00059851 0.0053272
0.0056661 -0.010412 -0.008333 0.034234 -0.030617 0.30271 0.00060778 0.0014066
-1.8648e-05 0.0037077 -0.0020106 0.00093284
-0.0046893 -0.0024556 -0.0023946 0.001888 0.00057287 0.0013928 -0.17346 0.23274
-0.028255 0.013111 0.013358 -0.010507
-0.0046967 0.0024958 -0.0015455 0.0031856 -2.3443e-05 0.0036877 -0.028221 0.013215
-0.21914 0.1144 -0.016997 0.019566
0.0036122 0.00049448 0.00058836 0.0052791 -0.002085 0.00083418 0.013428 -0.010492
-0.017023 0.019497 -0.23856 0.15512
860000000 -0.12654 0.24195 -0.01751 0.030646 -0.0027962 -0.010223 -0.0021804 0.00060933
0.0041489 0.0055167 -0.0033074 -0.0028643
-0.017516 0.03061 -0.29236 0.28271 0.0076204 0.034427 1.7319e-05 0.0021028
0.003731 0.00067957 0.003227 0.00052365
-0.0028426 -0.010238 0.0077337 0.034425 0.01679 0.31096 -0.00073019 -0.00018513
0.0024164 -0.0013018 0.001615 0.0042663
-0.0020896 0.00064989 4.3651e-05 0.0020988 -0.00074271 -0.00015177 -0.13683 0.24333
-0.018267 0.017705 -0.0056998 -0.0088807
0.0041444 0.0056059 0.0037266 0.00069016 0.0024039 -0.0012666 -0.018167 0.017611
-0.16418 0.16399 -0.023801 0.017014
-0.0034533 -0.0026887 0.0033121 0.00047079 0.0016382 0.0042927 -0.0057183 -0.0088028
-0.023939 0.017014 -0.18922 0.19906
920000000 -0.10239 0.26488 0.0047927 0.037994 -0.0094267 -0.0051223 -0.0018422 0.0016107
0.001265 0.0021039 0.0029244 -0.0016729
0.0047288 0.037945 -0.26479 0.30421 0.028143 0.022634 0.0016007 0.0013045
0.0072766 -9.5163e-05 0.0042476 -0.0028613
-0.0094076 -0.0051155 0.028257 0.022567 0.062205 0.31245 0.0019454 2.9862e-05
0.0010994 -0.0002288 0.00086148 -0.0012883
-0.0019409 0.0015794 0.0015936 0.0012805 0.0019425 3.4958e-05 -0.11235 0.25968
-0.010514 0.030385 0.0032689 -0.0067589
0.0012454 0.0020756 0.0072785 -9.6486e-05 0.0011007 -0.00023871 -0.010376 0.03048
-0.1516 0.17125 -0.0010799 0.026141
0.0027612 -0.0017031 0.0042418 -0.0028414 0.00088269 -0.0012865 0.00322 -0.0066989
-0.0010647 0.026197 -0.19357 0.21367
980000000 -0.056239 0.28463 0.016959 0.030095 -0.0095318 0.0041215 0.0017611 0.0037222
0.0040103 -0.0018672 -0.0027124 -0.0024669
0.01693 0.030036 -0.21204 0.33865 0.03345 0.0052515 0.0021707 -4.6769e-05
0.001768 -0.0061247 0.00010738 -0.0025576
-0.0095225 0.0041624 0.03353 0.0051427 0.10805 0.30666 0.00063996 -0.0011796
0.00044268 -0.0021647 0.0014054 -0.00016809
0.0018189 0.0037954 0.002143 -4.8529e-05 0.00064245 -0.0011943 -0.074159 0.27079
0.0074066 0.029864 -0.009111 -0.0070706
0.0039679 -0.0018714 0.0017527 -0.0061028 0.00044423 -0.0021402 0.0074344 0.029829
-0.11748 0.19849 0.0066826 0.019198
-0.0028209 -0.0023805 0.00010297 -0.0025681 0.001384 -0.000165 -0.0090168 -0.0070404
0.0066157 0.019428 -0.15123 0.25515
1040000000 -0.014847 0.29353 0.032992 0.018683 -0.0016163 0.007017 0.0027812 0.0009601
0.00024481 -0.0037495 -0.00016208 -0.0012437
0.032907 0.018671 -0.17701 0.35225 0.030054 -0.014742 0.0016185 -0.0016838
-0.0019468 -0.0029419 -0.0010264 -0.0028369
-0.0015902 0.0070287 0.030034 -0.014876 0.15404 0.29384 -0.0004936 -0.0016729
-0.0015576 -0.00096566 -0.0005154 -0.0010012
0.0026906 0.00088149 0.0016306 -0.001699 -0.00048259 -0.0016797 -0.046932 0.2803
0.019487 0.018237 -0.0026399 0.0010917
0.00023495 -0.0037394 -0.0019729 -0.0028896 -0.0015578 -0.0010001 0.019551 0.018213
-0.084661 0.20448 0.014002 0.017637
-0.00011088 -0.0013725 -0.0010207 -0.0028196 -0.00050554 -0.0010032 -0.0026461 0.0010914
0.014027 0.017604 -0.12725 0.2758
1100000000 0.029856 0.30279 0.036205 -0.0037639 0.0026936 0.0041493 0.0023829 -0.0011158
-0.0020437 -0.00317 -0.0040167 -0.00017067
0.036197 -0.0037505 -0.1339 0.37025 0.015688 -0.028148 8.1399e-05 -0.0019036
-0.0037448 -0.00089779 -0.0036538 -0.00057184
0.0026903 0.0041399 0.015597 -0.028237 0.2005 0.27431 -0.0019623 0.00012258
-0.0018353 0.00036182 -0.0010871 -0.00040435
0.002445 -0.0010639 9.367e-05 -0.0018897 -0.0019698 0.0001198 -0.006595 0.28528
0.024836 0.0048228 -0.0025055 0.000275
-0.0020679 -0.0031384 -0.0037642 -0.00084549 -0.001823 0.00040572 0.024869 0.004778
-0.063588 0.21752 0.019659 0.0076514
-0.0040511 -0.0001297 -0.0036805 -0.00053636 -0.001096 -0.00036902 -0.0024895 0.00033564
0.019571 0.0076338 -0.08112 0.30391
1160000000 0.080771 0.29869 0.024213 -0.020818 0.0026871 -0.00042285 -1.6323e-06 -0.0023195
-0.004047 -0.00071654 -0.00097755 0.0040833
0.024179 -0.020744 -0.090645 0.37501 -0.0035357 -0.029821 -0.0017623 -0.0016229
-0.0027263 0.0027568 -0.0014339 0.0019458
0.0026752 -0.00041246 -0.0036585 -0.029839 0.24371 0.24395 -0.0008224 0.0018471
-0.00054764 0.0020278 -0.00092942 0.00038905
-2.5898e-05 -0.0023797 -0.001772 -0.0016596 -0.00081303 0.0018426 0.032379 0.28255
0.020911 -0.010741 -0.0033507 0.0050258
-0.0039999 -0.00075943 -0.0027293 0.0028025 -0.00052664 0.0020028 0.020831 -0.010751
-0.029572 0.22454 0.01788 -0.0012803
-0.00091293 0.0040143 -0.0015852 0.002 -0.00093424 0.00042978 -0.0032153 0.0049495
0.018013 -0.0013084 -0.034724 0.30599
1220000000 0.12514 0.28916 0.010764 -0.030367 -0.0017002 -0.00076657 6.1886e-05 -0.00093706
-0.0027202 0.0022639 0.0012038 0.0022006
0.010783 -0.030329 -0.046354 0.38813 -0.017272 -0.02188 -0.0026702 0.00049203
-4.0723e-05 0.0032658 -0.00085284 0.0019789
-0.0017115 -0.00075111 -0.017385 -0.02183 0.2829 0.20532 0.00078115 0.0017567
0.00072508 0.0012626 0.00029998 0.00052191
2.854e-05 -0.00086233 -0.0026664 0.00054657 0.0007689 0.001759 0.072508 0.27422
0.010466 -0.017486 0.0018022 0.0016749
-0.0027052 0.0023205 -2.526e-05 0.0032693 0.00072743 0.0012664 0.010495 -0.017466
-0.005228 0.23282 0.013294 -0.013399
0.0012245 0.0022374 -0.00083635 0.0019713 0.00029299 0.00052378 0.0017546 0.0017163
0.013224 -0.013418 -0.0022417 0.32016
1280000000 0.17537 0.26841 -0.0080937 -0.028857 -0.0019757 0.0026655 -0.00080336 -0.0020595
-0.00075427 0.0032059 0.0025609 0.0012632
-0.0080943 -0.028796 -0.00015822 0.37971 -0.024505 -0.0088451 -0.00098862 0.0015511
0.0019156 0.0017963 0.00065332 0.0020627
-0.0019899 0.0026885 -0.024569 -0.0087406 0.31341 0.16156 0.0016732 -0.00012676
0.0013095 0.00021992 0.00035757 0.0002546
-0.00078851 -0.0021198 -0.00098389 0.0015304 0.0016627 -0.00012148 0.10959 0.25807
0.00042306 -0.019325 -0.00014483 0.00038793
-0.00075029 0.0032038 0.0019288 0.0017904 0.0013148 0.00018176 0.00035632 -0.01935
0.031013 0.23539 0.002595 -0.01572
0.0025673 0.0011832 0.0006275 0.002033 0.0003746 0.000189 -5.1824e-05 0.00036718
0.0026824 -0.015645 0.044188 0.32055
1340000000 0.21292 0.23543 -0.017928 -0.018989 0.00095971 0.0049031 -0.0018652 -0.00093723
0.0015673 0.002657 0.0018712 -0.0014183
-0.017901 -0.018974 0.039429 0.37205 -0.02216 0.0043702 -6.1383e-05 0.0020757
0.0020918 0.00065512 0.0012812 0.00080444
0.00097977 0.0048907 -0.022171 0.0044885 0.33519 0.11467 0.0011074 -0.00093862
0.0006693 -0.0005954 0.00015099 0.00025765
-0.0018664 -0.00089419 -2.8504e-05 0.0020911 0.001115 -0.00093951 0.14277 0.23763
-0.009038 -0.016449 0.00088641 0.00066354
0.0015912 0.0026456 0.0020947 0.00062942 0.00065415 -0.00058777 -0.0090514 -0.016398
0.061177 0.23057 -0.0045651 -0.01396
0.0018665 -0.0013713 0.0013137 0.0007761 0.00019859 0.0002265 0.00080078 0.00068951
-0.0046386 -0.01404 0.082611 0.31483
1400000000 0.24669 0.19807 -0.023766 -0.0072051 0.0055155 0.0033782 -0.0022683 0.00061588
0.0024938 0.00096934 0.00026526 -0.001644
-0.023729 -0.0071927 0.077236 0.35946 -0.015263 0.012895 0.0014354 0.0012588
0.0012958 -0.00090019 0.0011868 8.4802e-05
0.0055491 0.0033647 -0.015239 0.01298 0.34851 0.061702 7.8208e-05 -0.0016241
0.00012065 -0.00038005 0.00024355 0.00023716
-0.0022598 0.00060333 0.0014337 0.0012563 6.8907e-05 -0.0016126 0.1726 0.20849
-0.014992 -0.0094041 -0.00073129 -0.00022926
0.0025218 0.00094637 0.0012793 -0.00090478 0.00012116 -0.00040733 -0.015034 -0.0093812
0.094613 0.22562 -0.010652 -0.0087824
0.00027088 -0.0016831 0.0011597 9.7572e-05 0.00027193 0.00019962 -0.00066999 -0.00017965
-0.010589 -0.0087173 0.12604 0.30319
1460000000 0.27007 0.15421 -0.020395 0.0051524 0.0060657 -0.0019291 -0.0016638 0.0017898
0.0022232 -0.00046508 -0.00045948 -0.0010022
-0.020386 0.005131 0.11159 0.33762 -0.006105 0.016012 0.0017679 0.00016
0.00076611 -0.0014495 0.0012105 -0.00061269
0.006051 -0.0019429 -0.0060121 0.016064 0.35523 0.0080582 -0.0012997 -0.0012851
0.00013181 -0.0002839 0.00064401 -0.00039314
-0.0016498 0.0018412 0.0018016 0.00013795 -0.0012986 -0.0013032 0.19922 0.17896
-0.015908 -0.002513 -0.00067978 0.0019784
0.0022335 -0.00049783 0.00073577 -0.0014579 0.00013733 -0.00028391 -0.015925 -0.0024739
0.12392 0.21085 -0.012442 -0.0024289
-0.00046142 -0.00098502 0.0012222 -0.00062667 0.00068265 -0.00038444 -0.00069592 0.0019863
-0.01246 -0.0025192 0.15876 0.28179
1520000000 0.2828 0.11284 -0.014537 0.010656 0.0035868 -0.004458 0.00018529 0.0026548
0.002132 -0.0020502 -0.001278 -0.00022043
-0.014531 0.010636 0.14531 0.32331 0.0019215 0.013534 0.0016256 -0.00084949
2.1593e-05 -0.0010824 0.00031331 -0.0010329
0.0035727 -0.0044735 0.0019937 0.013537 0.34894 -0.04761 -0.0011504 -0.00031493
0.00061381 -0.00084534 0.00011571 -0.00026655
0.00020403 0.0026549 0.0016155 -0.00085845 -0.0011634 -0.00030398 0.22282 0.14045
-0.014777 0.0033782 0.0015077 0.0020516
0.0020874 -0.0020679 2.887e-06 -0.0010814 0.00060188 -0.00085282 -0.014754 0.0034324
0.15222 0.19703 -0.012104 0.0022905
-0.0012683 -0.00021865 0.00029412 -0.0010132 0.00012379 -0.00027024 0.001518 0.0020351
-0.012061 0.0023074 0.19142 0.26088
1580000000 0.29272 0.066428 -0.0076404 0.013627 -0.0008888 -0.0053099 0.0015013 0.0019245
-0.00029598 -0.0021955 -0.00022592 0.00050975
-0.0076305 0.013607 0.17275 0.29847 0.0057462 0.0084232 0.00047438 -0.0016007
-0.0005907 -0.00096826 -0.00025651 -0.00080041
-0.00089768 -0.0052897 0.005816 0.0083963 0.32971 -0.10519 -0.0016169 0.00057442
-0.0004298 -0.0012319 0.00019896 -0.00054023
0.0015177 0.0019193 0.00045174 -0.0016039 -0.0016121 0.00057172 0.23649 0.10041
-0.011016 0.0080206 0.0021935 0.00056148
-0.00033073 -0.0021794 -0.00060142 -0.00099566 -0.00038369 -0.0012429 -0.011002 0.008015
0.17663 0.17878 -0.0093656 0.0078466
-0.00026502 0.00048463 -0.00025806 -0.00085336 0.00019135 -0.00054748 0.0022428 0.00058105
-0.0093919 0.0078006 0.2226 0.23402
1640000000 0.29507 0.025406 -0.00092325 0.012213 -0.0030563 -0.0028947 0.0027083 0.0010328
-0.00091158 -0.0015619 -0.00033274 0.00057895
-0.00093584 0.012198 0.20226 0.27397 0.0063159 0.0032948 -0.00071918 -0.0017593
-0.00098828 -0.0003847 -0.00051441 -0.00070124
-0.0030741 -0.0028827 0.0063255 0.0032656 0.30186 -0.15439 -0.00071389 0.0014433
-0.0011689 -0.00097319 -0.00018679 -0.00033109
0.0027036 0.0010396 -0.00071867 -0.0017618 -0.00071786 0.0014438 0.2486 0.05145
-0.006569 0.0090806 0.0024752 -0.00087947
-0.00091675 -0.0015722 -0.00098093 -0.00037185 -0.0011814 -0.00098018 -0.0065665 0.0091271
0.19967 0.15451 -0.0043714 0.0097656
-0.00029138 0.00055228 -0.00052929 -0.00066874 -0.00017312 -0.00029009 0.0025052 -0.0009712
-0.0043673 0.0097777 0.24766 0.20288
1700000000 0.28815 -0.019974 0.0023756 0.0091403 -0.0038989 3.5112e-06 0.0030817 -0.001242
-0.0019722 -0.0005408 0.00062455 0.00041722
0.0023708 0.00914 0.22068 0.24269 0.0040858 0.00019944 -0.001473 -0.00052575
-0.00082463 2.5882e-05 -0.00091891 -0.00044203
-0.0038968 3.0291e-05 0.0040999 0.00018549 0.25935 -0.19468 0.00045597 0.0015887
-0.002046 -4.5429e-05 -0.00036876 -0.00084732
0.0030797 -0.0012654 -0.0014669 -0.00052608 0.00047763 0.0015739 0.24533 0.0010708
-0.0038291 0.0092851 0.0015753 -0.0023568
-0.0019874 -0.0005228 -0.00082607 3.3574e-05 -0.0020131 -4.5878e-05 -0.0037537 0.0092845
0.21701 0.13367 0.0003425 0.0098604
0.00057519 0.00042073 -0.00092272 -0.00045087 -0.00047038 -0.00082618 0.0015349 -0.0022603
0.00037026 0.0098963 0.26371 0.16848
1760000000 0.27633 -0.068609 0.0044836 0.0057294 -0.002492 0.0010766 0.001364 -0.0034084
-0.0013622 0.00069593 0.0002823 -0.00066898
0.00447 0.0057448 0.24686 0.20306 0.0016965 -0.0016525 -0.0011772 0.00018666
-0.0010721 0.00083386 -0.00060056 0.00042819
-0.0024997 0.0010987 0.001703 -0.0016604 0.21098 -0.22829 0.0011671 0.0010988
-0.0011924 0.0015445 -0.0011907 -0.00046973
0.0013327 -0.0034209 -0.001169 0.00019193 0.0011727 0.0010951 0.2357 -0.050357
-0.00075643 0.0082253 -0.00022638 -0.0026101
-0.001393 0.00072999 -0.0010758 0.00085882 -0.0012118 0.001544 -0.00079386 0.008208
0.23183 0.098579 0.0043248 0.0072463
0.0003305 -0.00069648 -0.00059621 0.00046548 -0.0011847 -0.00055175 -0.00017351 -0.0026839
0.0043282 0.0072292 0.27632 0.13077
1820000000 0.25208 -0.10575 0.0043995 0.0021656 -0.00022324 0.0025348 -0.0010435 -0.0031481
-0.0010089 0.00096093 -0.00013797 -0.00019309
0.0043987 0.0021664 0.25737 0.17317 -0.00064647 -0.00034977 -0.0013263 0.00094477
-0.00014337 0.001262 -0.00064635 0.0005234
-0.00023957 0.002541 -0.00064617 -0.00033423 0.1602 -0.24374 0.0016091 0.00043839
-0.00010765 0.0024381 -0.0016507 0.000357
-0.0010591 -0.0031471 -0.001321 0.00095697 0.0016196 0.00042602 0.20559 -0.097523
0.00051376 0.0067524 -0.001769 -0.0016534
-0.0010041 0.0009706 -0.00012352 0.0012614 -0.00010176 0.0024455 0.00060506 0.0067669
0.24889 0.069466 0.0051303 0.0034875
-0.00019423 -0.00018723 -0.00064205 0.00049322 -0.0016873 0.00040973 -0.0018463 -0.0015692
0.005145 0.0035236 0.27805 0.09419
1880000000 0.21721 -0.14638 0.0020398 -3.8894e-05 -0.00051067 0.0022459 -0.0028398 -0.0021984
-0.00016695 0.0016841 0.00010485 -0.0004902
0.0020247 -2.3857e-05 0.26215 0.12639 -0.0027073 0.001501 -0.00020287 0.0017229
0.00057247 0.0013632 3.9981e-05 0.00095676
-0.00053596 0.0022766 -0.0027056 0.0015309 0.10792 -0.25393 0.0018898 -0.00086379
0.0016913 0.0019278 -0.0010943 0.0012888
-0.0029225 -0.0022251 -0.00019452 0.0017135 0.0018967 -0.00086983 0.16427 -0.13774
0.00098492 0.0048992 -0.0026061 0.00042791
-0.00014627 0.0017159 0.0005826 0.0013629 0.0016883 0.0019161 0.00097516 0.004861
0.25236 0.037426 0.0051378 0.0011552
0.00014301 -0.00050708 4.539e-05 0.0009859 -0.0010406 0.0013061 -0.0024711 0.00042687
0.0051803 0.0011083 0.27783 0.05993
1940000000 0.17777 -0.17203 -0.00046477 -0.0015008 0.0012885 0.0022766 -0.0038682 0.00044227
0.0013081 0.0011112 -0.00041394 -0.00044796
-0.00047699 -0.0014827 0.26278 0.094571 -0.001531 0.0040551 0.0010896 0.0012996
0.0019611 0.00056917 0.0010379 0.00045335
0.0012971 0.0022692 -0.0014952 0.004064 0.062364 -0.24654 0.00060445 -0.0023178
0.0025142 0.00024572 0.00071696 0.0016628
-0.0038108 0.00047856 0.0011243 0.001289 0.00060695 -0.0023152 0.11168 -0.16795
0.0003664 0.0036651 -0.0016469 0.0017997
0.0012918 0.001037 0.0019676 0.00053572 0.0025116 0.00025109 0.00030164 0.0037555
0.25493 -0.00082986 0.0037285 -0.0020711
-0.00050933 -0.00042253 0.0010183 0.00037557 0.00067026 0.00164 -0.0017049 0.0017325
0.0036719 -0.0020834 0.26624 0.023793
2000000000 0.13177 -0.18708 -0.0042329 0.00070412 0.0026745 0.0017249 -0.0023215 0.0037742
0.0012256 0.00028103 -0.00052306 0.00042548
-0.0042214 0.00067933 0.24887 0.058728 -0.0010916 0.0058844 0.0015895 0.0004225
0.0015072 -0.0011913 0.00057784 0.0001357
0.0027004 0.0016737 -0.0010509 0.0058942 0.019011 -0.2328 -0.0014175 -0.0016226
0.0020917 -0.0013037 0.0018318 0.0013604
-0.0023264 0.0037287 0.0015747 0.00041464 -0.0014176 -0.001612 0.058247 -0.17758
-0.0011491 0.0037451 -0.00018576 0.0021692
0.001285 0.00035916 0.0015069 -0.00119 0.0020827 -0.0013073 -0.0011151 0.0036908
0.24968 -0.033981 0.00052862 -0.0030763
