!Keysight Technologies,M9804A,MY58100912,A.14.10.03
!Date: Thursday, April 27, 2023 10:28:33
!Correction: S11(C  6-Port  ) 
!S12(C  6-Port  ) 
!S13(C  6-Port  ) 
!S14(C  6-Port  ) 
!S15(C  6-Port  ) 
!S16(C  6-Port  ) 
!S21(C  6-Port  ) 
!S22(C  6-Port  ) 
!S23(C  6-Port  ) 
!S24(C  6-Port  ) 
!S25(C  6-Port  ) 
!S26(C  6-Port  ) 
!S31(C  6-Port  ) 
!S32(C  6-Port  ) 
!S33(C  6-Port  ) 
!S34(C  6-Port  ) 
!S35(C  6-Port  ) 
!S36(C  6-Port  ) 
!S41(C  6-Port  ) 
!S42(C  6-Port  ) 
!S43(C  6-Port  ) 
!S44(C  6-Port  ) 
!S45(C  6-Port  ) 
!S46(C  6-Port  ) 
!S51(C  6-Port  ) 
!S52(C  6-Port  ) 
!S53(C  6-Port  ) 
!S54(C  6-Port  ) 
!S55(C  6-Port  ) 
!S56(C  6-Port  ) 
!S61(C  6-Port  ) 
!S62(C  6-Port  ) 
!S63(C  6-Port  ) 
!S64(C  6-Port  ) 
!S65(C  6-Port  ) 
!S66(C  6-Port  ) 
!S6P File: Measurement: :
# Hz S  RI   R 50
500000000 -0.33504 -0.051399 -0.01052 -0.0022928 -0.0098057 0.013381 -0.0027775 0.012036
0.012265 0.0047553 -0.0026176 0.0078788
-0.01049 -0.0023162 -0.41771 -0.062428 0.0074587 -0.010107 0.0020894 0.012474
0.00691 0.0023486 0.0016641 0.013916
-0.0097916 0.013385 0.0074459 -0.010113 -0.26692 0.2009 0.0072628 0.003525
-0.0021824 0.0087838 0.0008366 0.012562
-0.0027651 0.012031 0.0020969 0.012499 0.0072603 0.0035369 -0.33227 0.046128
-0.018496 -0.0053698 0.016015 0.026194
0.012317 0.0047708 0.0069487 0.0023509 -0.0021894 0.0087851 -0.018474 -0.0053511
-0.25108 -0.19074 -0.026101 0.0045676
-0.0025926 0.0079201 0.001648 0.013935 0.00081962 0.012558 0.016042 0.026146
-0.026111 0.0045408 -0.27361 -0.11502
560000000 -0.31778 0.11359 -0.022856 -0.064464 -0.0002932 0.013391 0.0043847 0.011541
0.0099494 0.0057903 0.010916 0.0085023
-0.022792 -0.064401 -0.37467 0.10056 -0.042187 -0.037762 0.0134 0.0036834
-0.013058 -0.0039516 0.0039275 -0.00091008
-0.0002923 0.013391 -0.042315 -0.037718 -0.18511 0.2521 -0.00016147 -0.0043777
0.019398 0.0047579 0.0072928 -0.005034
0.0043845 0.011596 0.013433 0.0036653 -0.0001562 -0.0043865 -0.30644 0.13613
0.0053774 -0.024291 0.0050667 -0.021723
0.0099868 0.0057902 -0.013096 -0.0039385 0.019399 0.0047569 0.0053712 -0.024283
-0.31074 -0.012524 0.0072361 -0.046159
0.010974 0.0084921 0.0039386 -0.00097815 0.0072756 -0.0050873 0.0050855 -0.021706
0.007305 -0.046186 -0.33128 0.029967
620000000 -0.27718 0.095698 -0.02313 0.0091727 0.0038863 0.0095774 0.0091804 -0.004897
0.011824 -0.001087 0.00098762 -0.0016738
-0.023132 0.0091648 -0.40358 0.050757 -0.018478 0.00089201 -0.0014149 -0.002106
0.011881 -0.0063071 0.0012271 -0.0029225
0.0039084 0.0095708 -0.018501 0.00093014 -0.15533 0.26183 -0.00074813 -0.0055289
-0.0032873 -0.0029528 0.0093079 -0.0028393
0.0091552 -0.0048981 -0.0014334 -0.0021188 -0.00073444 -0.0055277 -0.26592 0.14757
-0.037753 -0.020058 0.011807 0.026829
0.011802 -0.0010889 0.011879 -0.0063314 -0.0033008 -0.0029588 -0.037808 -0.02002
-0.2334 -0.043636 -0.040135 0.012369
0.00095946 -0.0016132 0.0012255 -0.0029596 0.0093296 -0.002835 0.011861 0.026768
-0.040142 0.012373 -0.25375 -0.00072095
680000000 -0.23874 0.18573 -0.026493 -0.014181 0.0053683 0.00554 0.0016086 -0.0076481
-0.0033031 -0.011633 0.0048433 -0.0064694
-0.026479 -0.014189 -0.38944 0.15144 -0.032147 -0.0017933 -0.0014798 -0.00035286
-0.0017429 -0.0095429 -0.00098428 -0.0016986
0.0053566 0.0055348 -0.032176 -0.0017209 -0.10317 0.28168 -0.0010875 -0.00039883
-0.0017793 0.00039446 -0.0026011 -0.0094174
0.001668 -0.0076368 -0.0014592 -0.00035954 -0.0010877 -0.00041629 -0.22055 0.19755
-0.02387 -0.0071731 -0.0084854 -0.011568
-0.0033325 -0.011649 -0.0017688 -0.0095529 -0.0017861 0.00038648 -0.023908 -0.0071656
-0.27829 0.059551 -0.0077859 -0.005598
0.0048403 -0.0065844 -0.00098904 -0.0017116 -0.0026141 -0.0094243 -0.0085051 -0.011572
-0.0077597 -0.0055926 -0.25825 0.10051
740000000 -0.19297 0.17958 -0.039488 0.027328 0.013835 -0.0046821 -0.00035582 -0.0040344
-0.0048933 -0.0035834 -0.0065763 0.0038379
-0.039484 0.027259 -0.33501 0.1705 -0.036916 0.034761 -0.00074772 -0.0057362
-0.012188 0.0065907 -0.0018391 -0.0058908
0.013847 -0.0046873 -0.036859 0.034878 -0.069653 0.27899 -0.0021126 0.0033939
-0.0022557 -0.0048849 -0.0014433 0.0007992
-0.00037996 -0.0040246 -0.00074579 -0.0057412 -0.0021158 0.0033957 -0.20352 0.20526
-0.043032 -0.0072335 0.021845 0.014678
-0.0049343 -0.0035154 -0.012209 0.0066544 -0.002259 -0.0049035 -0.043061 -0.0071917
-0.17881 0.083718 -0.041249 0.0012158
-0.0065742 0.0038679 -0.0018675 -0.0059289 -0.001445 0.00082093 0.02188 0.014651
-0.041208 0.0011754 -0.24823 0.10697
800000000 -0.16089 0.22229 -0.022527 0.016616 0.0056708 -0.010423 -0.0047299 -0.0025075
-0.0045812 0.0027957 0.0036727 0.00015256
-0.022497 0.016594 -0.34063 0.24047 -0.0084747 0.034234 -0.0023995 0.001968
-0.0015166 0.0030378 0.00046383 0.0051524
0.0056454 -0.010437 -0.0083952 0.034292 -0.030584 0.30263 0.00059841 0.0014855
2.5656e-05 0.0035737 -0.0018512 0.00097413
-0.0047234 -0.002504 -0.0023991 0.0019714 0.00059668 0.0014794 -0.17321 0.23278
-0.028481 0.012975 0.013649 -0.010439
-0.0045712 0.0027962 -0.0015147 0.0030411 2.9357e-05 0.0035726 -0.028486 0.013029
-0.21925 0.11502 -0.017054 0.019231
0.0037515 0.00011761 0.00048897 0.0051522 -0.0018568 0.0009641 0.013643 -0.010468
-0.017077 0.019226 -0.23808 0.15516
860000000 -0.12654 0.24205 -0.017643 0.030564 -0.0028929 -0.01019 -0.0020223 0.00056594
0.0040191 0.005115 -0.0034518 -0.0026898
-0.017646 0.030543 -0.29237 0.28276 0.0076189 0.034506 2.8999e-06 0.0021606
0.0037688 0.00066246 0.0033374 0.00078715
-0.0029223 -0.010179 0.0077338 0.034518 0.016704 0.31096 -0.00071823 -0.00021361
0.0023901 -0.0012682 0.001551 0.0043171
-0.0020426 0.00054928 1.452e-05 0.0021643 -0.00072989 -0.00020752 -0.13692 0.24317
-0.018158 0.017922 -0.00593 -0.0091468
0.0040078 0.0051036 0.0037482 0.0006264 0.0023888 -0.0012697 -0.018152 0.017971
-0.16427 0.16379 -0.023407 0.01745
-0.0035511 -0.0026656 0.0033267 0.00073239 0.0015542 0.0043095 -0.0059455 -0.0091505
-0.023393 0.017421 -0.18999 0.19863
920000000 -0.10257 0.2646 0.0047105 0.038016 -0.0094539 -0.0051789 -0.0019963 0.0017201
0.0013233 0.0022716 0.0029199 -0.0016875
0.0046902 0.037984 -0.26488 0.30405 0.028116 0.022677 0.0013322 0.0011875
0.0074641 9.3248e-05 0.0041251 -0.0027953
-0.0094906 -0.0051588 0.028227 0.022626 0.062138 0.31242 0.0018803 -9.2268e-06
0.0011099 -0.00017043 0.00082753 -0.0013222
-0.0019975 0.0017362 0.0013609 0.0011911 0.0018801 4.3413e-08 -0.1126 0.26015
-0.010236 0.030223 0.0034091 -0.006644
0.0013518 0.0022857 0.0074731 6.9732e-05 0.0011101 -0.00017105 -0.010173 0.030264
-0.1518 0.17146 -0.001336 0.026123
0.0029208 -0.0016629 0.0041045 -0.0028026 0.00082574 -0.0013198 0.0033912 -0.0066417
-0.0013391 0.026112 -0.19326 0.21304
980000000 -0.056007 0.28486 0.017031 0.030013 -0.009539 0.0042241 0.001833 0.0036013
0.0042076 -0.0018954 -0.0032292 -0.0024284
0.016996 0.030019 -0.21208 0.33861 0.033459 0.0052209 0.0020867 -0.00015138
0.001708 -0.0060644 -0.00015282 -0.0024978
-0.0095273 0.0042465 0.033505 0.0051309 0.10801 0.30665 0.00067665 -0.0012462
0.00041533 -0.0021589 0.0013578 -0.00026277
0.0018399 0.0035805 0.0020893 -0.00013863 0.00067725 -0.0012401 -0.074067 0.27063
0.007072 0.029674 -0.0090041 -0.0071135
0.0041917 -0.0018912 0.0016612 -0.0060867 0.0004163 -0.0021567 0.0071365 0.029683
-0.11697 0.19844 0.0060448 0.01969
-0.0032537 -0.0024137 -0.00016869 -0.0025057 0.001362 -0.00025988 -0.0090129 -0.0070902
0.0060264 0.019688 -0.15095 0.25522
1040000000 -0.015234 0.29343 0.032956 0.018607 -0.0016263 0.0069746 0.0025503 0.00092819
0.00020352 -0.0037259 -0.00011548 -0.0014042
0.032931 0.018617 -0.17703 0.35221 0.030054 -0.014749 0.0016345 -0.0018138
-0.0019724 -0.0029969 -0.001027 -0.0028338
-0.0016151 0.0069761 0.030046 -0.014858 0.15397 0.29385 -0.00045204 -0.0016907
-0.0016316 -0.00093607 -0.00049223 -0.0010082
0.0025559 0.00091964 0.0016467 -0.0018087 -0.00046238 -0.0016946 -0.046947 0.28036
0.019569 0.018315 -0.0025399 0.0010946
0.00020099 -0.0037272 -0.002016 -0.0029951 -0.0016278 -0.00094135 0.01962 0.018292
-0.084929 0.20487 0.014093 0.017713
-8.4866e-05 -0.0013818 -0.0010637 -0.0028346 -0.00048796 -0.001014 -0.0025275 0.0010876
0.014094 0.017715 -0.12726 0.27576
1100000000 0.029977 0.30285 0.036307 -0.0036941 0.0027207 0.0041456 0.00251 -0.0011745
-0.0020903 -0.0031518 -0.0042129 -0.00034999
0.036291 -0.0036624 -0.13391 0.37023 0.015726 -0.028166 0.00015633 -0.0019535
-0.0037689 -0.00081944 -0.0037732 -0.00071761
0.0027409 0.0041368 0.015645 -0.028252 0.20042 0.27427 -0.0019737 0.00011853
-0.0018538 0.00042037 -0.001144 -0.00039485
0.0024966 -0.0011923 0.00015524 -0.0019422 -0.0019769 0.000129 -0.006622 0.28526
0.024812 0.0047738 -0.0025047 0.00031097
-0.0021069 -0.003168 -0.0037973 -0.00080624 -0.0018527 0.00042149 0.02483 0.0047336
-0.063521 0.21729 0.019244 0.0076712
-0.0042058 -0.00034169 -0.0037823 -0.00070659 -0.0011478 -0.00039636 -0.0024876 0.00031787
0.019237 0.00768 -0.081068 0.30372
1160000000 0.080607 0.29867 0.024211 -0.020799 0.0026888 -0.00040751 -0.00012394 -0.0023402
-0.0040018 -0.00086285 -0.0008803 0.0040804
0.024225 -0.020756 -0.090638 0.37495 -0.003534 -0.029821 -0.0017797 -0.0016411
-0.0028393 0.0027559 -0.0014845 0.0019686
0.0026972 -0.00043975 -0.003652 -0.029828 0.24362 0.244 -0.00079255 0.0018675
-0.00056062 0.0020794 -0.00096536 0.00036628
-0.00013998 -0.0023505 -0.0017749 -0.0016323 -0.0007872 0.0018766 0.032371 0.28251
0.02082 -0.010805 -0.0032197 0.0049424
-0.0040167 -0.00083059 -0.0028564 0.0027748 -0.00055197 0.0020929 0.020824 -0.010834
-0.029796 0.22447 0.018206 -0.0011438
-0.00089141 0.0041058 -0.0014865 0.0019718 -0.00096968 0.00037537 -0.0032084 0.0049391
0.018209 -0.0011276 -0.035294 0.30593
1220000000 0.12509 0.28915 0.010843 -0.03041 -0.0016951 -0.00079037 5.6604e-05 -0.00088806
-0.0028027 0.0023197 0.0011578 0.0021796
0.010863 -0.030371 -0.046379 0.38806 -0.017238 -0.02188 -0.0026995 0.00050555
-4.6446e-05 0.0032741 -0.00084121 0.0020048
-0.0016902 -0.00079402 -0.017355 -0.021829 0.2828 0.20532 0.00075564 0.0017702
0.00071067 0.0012666 0.00025192 0.00053617
5.9423e-05 -0.00088869 -0.0026924 0.00052601 0.00075494 0.0017668 0.072503 0.27425
0.01051 -0.017404 0.0017673 0.0016542
-0.0027987 0.0023378 -3.6185e-05 0.0032743 0.00071761 0.0012664 0.010486 -0.017412
-0.0054233 0.23293 0.013274 -0.013609
0.0011602 0.0021705 -0.00083843 0.0020135 0.0002535 0.00053523 0.0017755 0.0016584
0.013258 -0.013606 -0.0024324 0.32013
1280000000 0.17533 0.26845 -0.0080756 -0.028879 -0.0019834 0.002668 -0.00085935 -0.0021289
-0.00069206 0.0031629 0.0025939 0.001288
-0.0080428 -0.028853 -0.00020463 0.37966 -0.024513 -0.0088649 -0.00099732 0.0015655
0.001983 0.0017753 0.00064627 0.0020497
-0.0019805 0.0026729 -0.024573 -0.0087602 0.31335 0.16166 0.0016474 -9.7574e-05
0.0013018 0.00015504 0.00044475 0.0001865
-0.00086363 -0.0021283 -0.00098314 0.0015708 0.0016426 -9.8482e-05 0.1095 0.25806
0.00027702 -0.019532 -9.5665e-05 0.000488
-0.00066463 0.003182 0.0019968 0.0017729 0.0013118 0.00015936 0.0002485 -0.019531
0.031115 0.2353 0.0024922 -0.015529
0.0025976 0.001287 0.00066246 0.0020537 0.00045187 0.00018766 -9.2661e-05 0.0004866
0.0024928 -0.015528 0.04405 0.32046
1340000000 0.21289 0.23554 -0.017981 -0.019054 0.00091428 0.0048666 -0.0018522 -0.00093038
0.0015061 0.0026838 0.0018444 -0.0014048
-0.017962 -0.019069 0.039367 0.37206 -0.022164 0.0043557 -5.0543e-05 0.0020955
0.0021293 0.00063098 0.0012826 0.00076887
0.00092119 0.004857 -0.022166 0.0044759 0.33516 0.11476 0.0011009 -0.00097858
0.00069712 -0.0005519 0.00016664 0.00025032
-0.0018472 -0.00092395 -4.0162e-05 0.0020832 0.0011104 -0.00099031 0.14271 0.23765
-0.0091502 -0.016504 0.00080146 0.00068583
0.0015315 0.0026799 0.0021407 0.00062273 0.00068423 -0.00055258 -0.0091935 -0.01649
0.061187 0.23049 -0.0046005 -0.014097
0.0018464 -0.0014072 0.001291 0.00076808 0.00016768 0.0002443 0.00079473 0.00067426
-0.0045823 -0.014098 0.082446 0.31509
1400000000 0.24666 0.1981 -0.023753 -0.0072154 0.0055232 0.0033585 -0.0022379 0.00060234
0.0024746 0.00097978 0.00030764 -0.0016377
-0.023734 -0.0072297 0.077098 0.35941 -0.015305 0.012861 0.00144 0.0012874
0.0012848 -0.00088752 0.0011848 7.7432e-05
0.0055219 0.0033431 -0.015258 0.012954 0.34853 0.061788 2.1556e-05 -0.001617
0.00017508 -0.00045119 0.00027265 0.0002771
-0.0022458 0.00060802 0.0014385 0.0012755 1.8549e-05 -0.0016193 0.17253 0.20849
-0.015084 -0.0094292 -0.00070157 -0.0001345
0.002481 0.00096564 0.0012872 -0.00090156 0.00017465 -0.00044732 -0.015104 -0.0093994
0.094552 0.22546 -0.010737 -0.0086607
0.00031067 -0.0016351 0.0011872 6.3626e-05 0.00027742 0.00027293 -0.00070343 -0.00013641
-0.010735 -0.0086607 0.12613 0.30291
1460000000 0.2701 0.15422 -0.020459 0.0051686 0.0060321 -0.0019004 -0.0016051 0.001793
0.0022611 -0.00046775 -0.00043527 -0.0010056
-0.020448 0.0051591 0.11157 0.33762 -0.0061148 0.015988 0.0017711 0.00013184
0.00078565 -0.0015116 0.0011687 -0.00057745
0.0060231 -0.0019211 -0.0060443 0.016033 0.3552 0.0080725 -0.0012773 -0.0012531
0.0001398 -0.00023654 0.00066391 -0.00042238
-0.0015981 0.0018051 0.0017883 0.00012474 -0.0012739 -0.0012501 0.19918 0.17892
-0.015983 -0.0023716 -0.00067284 0.0019949
0.0022527 -0.00048609 0.00077678 -0.0015147 0.00013605 -0.00024058 -0.015988 -0.0023522
0.12378 0.21088 -0.012562 -0.0025614
-0.00043541 -0.0010286 0.0011608 -0.00058949 0.00067682 -0.00043351 -0.0006809 0.0019966
-0.012555 -0.0025693 0.1589 0.28189
1520000000 0.28278 0.11289 -0.014571 0.010661 0.0035646 -0.0044348 0.00013356 0.0026679
0.002115 -0.0020297 -0.001243 -0.00017321
-0.014568 0.010647 0.14523 0.32329 0.0019156 0.013561 0.0016303 -0.0008285
-1.9529e-05 -0.0010884 0.00031771 -0.0010016
0.0035461 -0.0044478 0.0019857 0.013574 0.34897 -0.04756 -0.0011728 -0.00032855
0.00064261 -0.00081582 0.00012842 -0.00026163
0.00014285 0.0026715 0.0016343 -0.00084709 -0.0011763 -0.00032797 0.22269 0.14051
-0.014875 0.0035373 0.0015491 0.0020394
0.0021003 -0.002033 -2.7712e-05 -0.0011047 0.00064258 -0.000823 -0.014875 0.0035666
0.15205 0.19709 -0.012012 0.0023331
-0.0012469 -0.00017192 0.00031613 -0.00101 0.00012434 -0.00026937 0.0015436 0.0020362
-0.012011 0.0023196 0.19136 0.26092
1580000000 0.29274 0.066411 -0.0076553 0.013594 -0.00089267 -0.0053128 0.0015411 0.0019114
-0.00033512 -0.002226 -0.00023933 0.00047668
-0.007658 0.013587 0.17267 0.29857 0.0057294 0.0084469 0.00045072 -0.0016336
-0.00059132 -0.00099978 -0.00026091 -0.00086347
-0.00091295 -0.0053016 0.0057778 0.0084261 0.3297 -0.10511 -0.0015853 0.00059221
-0.0003862 -0.0012364 0.00019102 -0.00057541
0.0015458 0.0019067 0.00043824 -0.0016422 -0.00159 0.00059182 0.23656 0.10053
-0.010941 0.0081487 0.002195 0.00055555
-0.00033423 -0.0022237 -0.00061765 -0.0010066 -0.000391 -0.0012366 -0.010931 0.0081817
0.17639 0.17886 -0.0093255 0.0078392
-0.00025146 0.00048453 -0.00027146 -0.00087196 0.00018754 -0.00057938 0.0021895 0.00055744
-0.0093338 0.0078328 0.22244 0.23411
1640000000 0.295 0.025352 -0.00095149 0.012211 -0.0030289 -0.0029346 0.0027201 0.0010296
-0.00083331 -0.0015729 -0.0003551 0.00061139
-0.00095562 0.012204 0.20219 0.27398 0.0062963 0.003306 -0.00069238 -0.0017502
-0.00095968 -0.00039215 -0.00053059 -0.00068127
-0.0030341 -0.0029255 0.0063166 0.0032739 0.3019 -0.15435 -0.0006665 0.0014444
-0.0011368 -0.0010044 -0.00016883 -0.0002971
0.0027175 0.0010176 -0.0006989 -0.0017591 -0.00066476 0.0014457 0.24855 0.051365
-0.0065195 0.0091085 0.0025725 -0.00091461
-0.00084892 -0.0015817 -0.00097046 -0.00038007 -0.0011443 -0.0010044 -0.0065039 0.0091327
0.19964 0.15464 -0.0042848 0.0098719
-0.00035914 0.00061728 -0.00054021 -0.00067766 -0.00016706 -0.00030125 0.0025672 -0.00091888
-0.0042836 0.0098724 0.24754 0.20282
1700000000 0.28812 -0.019936 0.0023611 0.0091755 -0.0038924 -1.1799e-06 0.003143 -0.0012403
-0.0020077 -0.00053983 0.00062243 0.00038937
0.0023521 0.0091792 0.22063 0.24277 0.004073 0.00024148 -0.0014894 -0.00051555
-0.00081584 4.9295e-05 -0.00089394 -0.00047564
-0.0038837 1.4583e-05 0.0040814 0.00022301 0.25928 -0.19455 0.00040952 0.0016423
-0.0020653 -9.643e-06 -0.00043237 -0.00085762
0.0031323 -0.0012557 -0.0015005 -0.00050713 0.00040586 0.0016487 0.24528 0.0012647
-0.0036909 0.0092916 0.001477 -0.0022799
-0.0020156 -0.00052641 -0.00081512 6.8178e-05 -0.0020685 -9.0327e-07 -0.0036694 0.0093023
0.21703 0.13378 0.00026721 0.0099056
0.00063855 0.00039783 -0.00091322 -0.00046163 -0.00044002 -0.00086235 0.0014723 -0.0022805
0.00027222 0.0099113 0.2638 0.16848
1760000000 0.2762 -0.068496 0.0044807 0.0057692 -0.0024975 0.0011023 0.0012871 -0.0034165
-0.0014064 0.0007382 0.00032264 -0.00062794
0.0044728 0.0057707 0.24684 0.20313 0.0017037 -0.0016446 -0.0011728 0.00020039
-0.001097 0.00085424 -0.00060757 0.00042296
-0.002484 0.0011099 0.001696 -0.0016563 0.21099 -0.22823 0.0012098 0.0011213
-0.0011608 0.0015547 -0.0011454 -0.00056461
0.0012786 -0.0034192 -0.0011838 0.00020783 0.0012072 0.0011245 0.23585 -0.050357
-0.0006055 0.0081143 -0.00018222 -0.0025721
-0.0014092 0.00075624 -0.0010804 0.0008658 -0.0011647 0.001559 -0.00059634 0.0081233
0.23198 0.098672 0.004311 0.0071991
0.00032554 -0.00063352 -0.00060397 0.00043122 -0.0011426 -0.00056802 -0.00018335 -0.0025737
0.0043123 0.0072067 0.27607 0.13084
1820000000 0.25205 -0.1056 0.004448 0.0021848 -0.00022596 0.002526 -0.0010568 -0.0031209
-0.00097347 0.00097197 -0.00016107 -0.00016293
0.0044365 0.0021877 0.25736 0.17323 -0.00061817 -0.00034475 -0.0013527 0.00093312
-0.00015058 0.0012558 -0.00061048 0.00050623
-0.00022295 0.0025168 -0.00061272 -0.00034194 0.16018 -0.24372 0.0015298 0.00047227
-0.00012913 0.0024455 -0.0015737 0.00030553
-0.0010669 -0.0031134 -0.0013491 0.00095147 0.0015328 0.00046402 0.2055 -0.0975
0.0005616 0.0066994 -0.0018849 -0.0016613
-0.00096627 0.00098415 -0.00013373 0.0012473 -0.00011436 0.0024391 0.00056054 0.0067024
0.24899 0.069564 0.0050804 0.0034936
-0.0001596 -0.00016804 -0.00060205 0.00050817 -0.0015697 0.00030932 -0.0018865 -0.0016557
0.0050827 0.0034954 0.27805 0.094422
1880000000 0.21712 -0.1462 0.0020712 -2.6474e-05 -0.00050994 0.0022205 -0.0028921 -0.0022389
-0.00012174 0.0017703 0.00012009 -0.00048765
0.0020819 -2.1568e-05 0.26214 0.12647 -0.0026658 0.0015497 -0.00019033 0.001728
0.00056399 0.0013662 5.6562e-05 0.0009742
-0.00050156 0.0022212 -0.0026526 0.0015548 0.10801 -0.25377 0.0019016 -0.00079286
0.0016437 0.0019476 -0.00098948 0.001311
-0.0028919 -0.0022197 -0.00018098 0.0017353 0.0019005 -0.00079516 0.16427 -0.13779
0.0010316 0.0047459 -0.0025834 0.0004578
-9.5605e-05 0.0017733 0.00056144 0.0013403 0.0016513 0.0019361 0.0010389 0.0047603
0.25252 0.037397 0.0050807 0.0011163
0.00011465 -0.00049808 6.0831e-05 0.00096796 -0.000997 0.0013221 -0.0025877 0.00046127
0.0050779 0.0011151 0.27778 0.060215
1940000000 0.17793 -0.17194 -0.0004031 -0.0015033 0.0013207 0.0022221 -0.0037845 0.00044392
0.0013221 0.0010071 -0.00043402 -0.00050981
-0.00039804 -0.001502 0.2628 0.094649 -0.0015315 0.0040166 0.0010953 0.0012293
0.0019738 0.00054172 0.0010244 0.00039511
0.0013371 0.0022056 -0.0015067 0.0040265 0.062307 -0.24656 0.00056553 -0.0023563
0.0025153 0.00022846 0.00072809 0.0016662
-0.0037906 0.00045581 0.00111 0.0012094 0.00056506 -0.0023507 0.11174 -0.16792
0.00024772 0.0036126 -0.0015976 0.0016323
0.001335 0.00099134 0.0019577 0.00051981 0.0025234 0.00022235 0.00025683 0.0036202
0.25489 -0.00096183 0.0037533 -0.0021893
-0.00046032 -0.00050454 0.0010254 0.00038758 0.00073549 0.0016601 -0.0015937 0.0016422
0.0037429 -0.002185 0.26608 0.023856
2000000000 0.13181 -0.18687 -0.0042084 0.00067525 0.0026498 0.0016561 -0.0023797 0.0038237
0.0011617 0.00040985 -0.0004933 0.00049101
-0.0042019 0.00066792 0.24888 0.058797 -0.0010545 0.0058628 0.0016091 0.00038722
0.0014873 -0.0011642 0.00060854 0.00011592
0.002659 0.0016332 -0.0010091 0.0058777 0.019094 -0.23276 -0.0014704 -0.001582
0.002087 -0.0013088 0.0018238 0.0013538
-0.0023688 0.0038374 0.0016022 0.00038038 -0.0014707 -0.0015806 0.058247 -0.17752
-0.0011743 0.0035545 -2.3918e-05 0.0021773
0.0011637 0.00040509 0.0014754 -0.0011639 0.0020824 -0.0013076 -0.0011482 0.0035584
