!Keysight Technologies,M9804A,MY58100912,A.14.10.03
!Date: Thursday, April 27, 2023 10:28:33
!Correction: S11(C  6-Port  ) 
!S12(C  6-Port  ) 
!S13(C  6-Port  ) 
!S14(C  6-Port  ) 
!S15(C  6-Port  ) 
!S16(C  6-Port  ) 
!S21(C  6-Port  ) 
!S22(C  6-Port  ) 
!S23(C  6-Port  ) 
!S24(C  6-Port  ) 
!S25(C  6-Port  ) 
!S26(C  6-Port  ) 
!S31(C  6-Port  ) 
!S32(C  6-Port  ) 
!S33(C  6-Port  ) 
!S34(C  6-Port  ) 
!S35(C  6-Port  ) 
!S36(C  6-Port  ) 
!S41(C  6-Port  ) 
!S42(C  6-Port  ) 
!S43(C  6-Port  ) 
!S44(C  6-Port  ) 
!S45(C  6-Port  ) 
!S46(C  6-Port  ) 
!S51(C  6-Port  ) 
!S52(C  6-Port  ) 
!S53(C  6-Port  ) 
!S54(C  6-Port  ) 
!S55(C  6-Port  ) 
!S56(C  6-Port  ) 
!S61(C  6-Port  ) 
!S62(C  6-Port  ) 
!S63(C  6-Port  ) 
!S64(C  6-Port  ) 
!S65(C  6-Port  ) 
!S66(C  6-Port  ) 
!S6P File: Measurement: :
# Hz S  RI   R 50
500000000 -0.33541 -0.050864 -0.010391 -0.0016593 -0.009278 0.013284 -0.0042637 0.012334
0.010734 0.0062573 -0.004133 0.0081734
-0.010743 -0.0019441 -0.41753 -0.061637 0.0074642 -0.0098947 0.0018281 0.012582
0.0080916 0.0022565 0.0019303 0.01518
-0.0092311 0.013195 0.0074163 -0.0099818 -0.26652 0.20058 0.0071737 0.004014
-0.0016119 0.0079019 0.0014083 0.012647
-0.0037879 0.012092 0.0016922 0.012486 0.0071507 0.0039074 -0.33214 0.045512
-0.017705 -0.0063732 0.01645 0.026272
0.011132 0.005302 0.0084076 0.002272 -0.0022337 0.007966 -0.017725 -0.0059024
-0.2515 -0.19044 -0.025197 0.0031747
-0.0037932 0.0086038 0.0020055 0.014682 0.0013565 0.012797 0.016765 0.026744
-0.025662 0.0032813 -0.27272 -0.11535
560000000 -0.31848 0.11416 -0.024399 -0.06494 0.00030858 0.012941 0.0060983 0.011531
0.011515 0.0029362 0.010629 0.0083967
-0.02389 -0.065002 -0.37443 0.10078 -0.042216 -0.036875 0.013309 0.0029916
-0.013645 -0.0050124 0.0045305 -0.0021913
0.00066365 0.013037 -0.042452 -0.036677 -0.18566 0.25086 0.00067972 -0.0040499
0.019512 0.0045333 0.0071906 -0.0040744
0.0059997 0.011509 0.013623 0.0026434 0.00063347 -0.0042107 -0.30675 0.13524
0.005195 -0.022647 0.0038435 -0.02208
0.011139 0.0049491 -0.014307 -0.0039038 0.019555 0.0054195 0.0055003 -0.023094
-0.30863 -0.012789 0.0059853 -0.046891
0.011036 0.0083377 0.0039585 -0.0016703 0.006899 -0.0044812 0.0037624 -0.022025
0.0063701 -0.047058 -0.3312 0.028725
620000000 -0.27712 0.093448 -0.023147 0.0085976 0.0035934 0.0095602 0.0086033 -0.0050463
0.012538 -0.00058941 0.0012 -0.002431
-0.023063 0.0087729 -0.40337 0.050668 -0.018196 0.00082902 -0.001791 -0.0020487
0.012845 -0.0060088 0.0013574 -0.0031429
0.0037152 0.0098434 -0.018188 0.0008202 -0.15486 0.2614 -0.0011197 -0.0051162
-0.0029424 -0.0032227 0.0082063 -0.0039197
0.0085429 -0.0049846 -0.0017743 -0.0022113 -0.0010193 -0.0052032 -0.26612 0.14741
-0.039283 -0.019579 0.01324 0.027411
0.011903 -0.00099543 0.012722 -0.0063313 -0.00292 -0.0026707 -0.037801 -0.019465
-0.23138 -0.043286 -0.040639 0.012119
0.00084867 -0.0025424 0.0012455 -0.0034496 0.0083194 -0.0041379 0.012432 0.027068
-0.040773 0.012104 -0.25222 -0.0026423
680000000 -0.23863 0.18497 -0.026273 -0.01416 0.0052551 0.0052007 0.00081814 -0.0074871
-0.0021325 -0.011467 0.0051518 -0.006655
-0.026355 -0.014406 -0.3895 0.15121 -0.032481 -0.001892 -0.0011889 -0.00063803
-0.0017373 -0.0092774 -0.00068332 -0.0017087
0.0052657 0.0051682 -0.032578 -0.0016717 -0.10374 0.28111 -0.00077895 -0.00039284
-0.0014591 0.00055733 -0.0021016 -0.0091538
0.00095568 -0.0071887 -0.0013667 -0.0005251 -0.00080384 -0.00038679 -0.22099 0.19739
-0.023117 -0.0071828 -0.0085879 -0.01129
-0.0024214 -0.011249 -0.0018134 -0.0092927 -0.0016026 0.00037057 -0.023349 -0.0074274
-0.27809 0.058006 -0.0075257 -0.0078232
0.0052964 -0.0066516 -0.00098123 -0.0014951 -0.0021518 -0.0090309 -0.0089443 -0.011009
-0.0077399 -0.0080226 -0.26066 0.098576
740000000 -0.19311 0.17843 -0.039102 0.026587 0.01368 -0.0046728 -0.00026635 -0.0044518
-0.0058632 -0.0021489 -0.0065265 0.0033854
-0.039004 0.026453 -0.33595 0.16954 -0.03637 0.034941 -0.00057117 -0.0061871
-0.012277 0.0061697 -0.0020299 -0.0056316
0.013747 -0.0047291 -0.036513 0.03487 -0.070137 0.27894 -0.0022178 0.0030964
-0.0026041 -0.0056613 -0.0016396 0.0013773
-0.00035551 -0.0044305 -0.00052349 -0.0061207 -0.0021362 0.0032356 -0.20366 0.20434
-0.042197 -0.0078565 0.021266 0.014027
-0.005467 -0.0024801 -0.011828 0.0065966 -0.002595 -0.0052436 -0.042372 -0.0072387
-0.17835 0.084368 -0.041039 8.5215e-05
-0.006838 0.0034366 -0.002372 -0.0060592 -0.0016756 0.0013245 0.021396 0.01385
-0.040911 0.00010089 -0.24886 0.1049
800000000 -0.16167 0.22181 -0.022861 0.016302 0.005882 -0.01028 -0.0045915 -0.0021286
-0.0040092 0.0023387 0.003793 0.00099779
-0.022822 0.016421 -0.34055 0.24014 -0.0083689 0.034437 -0.0024916 0.0022386
-0.00061762 0.0028008 0.00054671 0.0055971
0.0057573 -0.010334 -0.0083005 0.034452 -0.030904 0.30258 0.00073629 0.0014909
0.00019694 0.0036506 -0.0019969 0.0012773
-0.0043472 -0.0020772 -0.0023877 0.0022733 0.00078368 0.0014956 -0.17384 0.23247
-0.028357 0.013946 0.013465 -0.010031
-0.0046392 0.0022371 -0.0010027 0.002733 5.7134e-05 0.0037872 -0.028606 0.01351
-0.21909 0.11178 -0.01711 0.020056
0.0043781 0.00048567 0.00047232 0.0053743 -0.0019024 0.00083582 0.01376 -0.0097775
-0.017183 0.020371 -0.2393 0.15581
860000000 -0.12685 0.24167 -0.018012 0.030492 -0.0030146 -0.010296 -0.0020408 0.00077461
0.0034541 0.0049934 -0.003428 -0.0027728
-0.017877 0.030375 -0.29249 0.28236 0.0074924 0.034405 -4.2786e-05 0.001709
0.0034845 0.00024039 0.0034564 0.0008017
-0.0029663 -0.010338 0.0075361 0.034385 0.016344 0.31096 -0.0007086 -0.00028035
0.0022923 -0.0015744 0.0019713 0.0040157
-0.0021635 0.00070859 -7.7585e-05 0.001763 -0.00076568 -0.00031831 -0.13734 0.24265
-0.017975 0.017379 -0.0058272 -0.0084025
0.0037855 0.0048456 0.003677 3.6127e-05 0.0023585 -0.0016083 -0.017954 0.017952
-0.16467 0.16287 -0.023594 0.017844
-0.0037597 -0.0022402 0.0035636 0.00095678 0.0018109 0.0043893 -0.006194 -0.008828
-0.023573 0.017411 -0.18888 0.19684
920000000 -0.10328 0.26475 0.0045223 0.038432 -0.0094886 -0.0051911 -0.0020141 0.0018803
0.0013381 0.0024002 0.0031831 -0.0012535
0.0045865 0.038455 -0.26535 0.30434 0.028206 0.022743 0.0016109 0.00126
0.0074529 -0.00011972 0.003938 -0.0031475
-0.0095609 -0.0050998 0.028247 0.022685 0.061995 0.31255 0.0019936 3.9173e-05
0.0009944 -0.00019638 0.00085338 -0.0013179
-0.0017904 0.0019182 0.0016032 0.0013213 0.0019874 3.9833e-05 -0.11274 0.25971
-0.011129 0.030782 0.0031613 -0.0069608
0.0012734 0.0024937 0.0076044 -9.1896e-05 0.00098927 -0.00017061 -0.010796 0.030657
-0.15154 0.1703 -0.001361 0.026507
0.0034198 -0.0015183 0.0041531 -0.003215 0.00087947 -0.0014267 0.0033726 -0.0067763
-0.0015788 0.02699 -0.19421 0.21309
980000000 -0.056285 0.28477 0.016919 0.030312 -0.0096391 0.0041755 0.0019618 0.0036637
0.0037923 -0.0016834 -0.0029371 -0.0023454
0.01685 0.030339 -0.21222 0.33858 0.033603 0.0052454 0.0020102 -2.5877e-05
0.0017789 -0.0060778 -0.00053263 -0.0022632
-0.0095619 0.0042205 0.033641 0.0051378 0.10795 0.30679 0.00070738 -0.0011816
0.00043431 -0.0020082 0.0014739 -0.00028181
0.0018033 0.0037069 0.0020648 4.4999e-05 0.00070407 -0.0011837 -0.074515 0.27081
0.0073768 0.03017 -0.0090633 -0.0068066
0.0040826 -0.0017557 0.0017214 -0.0062907 0.0004647 -0.0020202 0.0073591 0.029982
-0.11897 0.19789 0.0058456 0.019669
-0.003082 -0.0020412 -0.00060581 -0.0023349 0.0014345 -0.00025381 -0.0089421 -0.0070656
0.0061304 0.019472 -0.15082 0.25526
1040000000 -0.015522 0.29391 0.032972 0.019002 -0.0016893 0.0070955 0.0025165 0.00086346
0.00042705 -0.0034526 -0.00018467 -0.0014955
0.033029 0.019001 -0.1772 0.35231 0.030231 -0.014809 0.0015986 -0.0018038
-0.0018031 -0.0028937 -0.0010368 -0.0029191
-0.0016408 0.007116 0.03021 -0.014912 0.15388 0.29404 -0.0005139 -0.0017276
-0.0015114 -0.0010265 -0.00044887 -0.0010359
0.0026367 0.00088941 0.001628 -0.0018003 -0.00052632 -0.0017169 -0.047286 0.2805
0.019614 0.018497 -0.0026664 0.001281
0.00058811 -0.0034124 -0.0018678 -0.0027274 -0.0016063 -0.00096809 0.019599 0.018406
-0.084447 0.20519 0.014377 0.018026
-9.7209e-05 -0.001515 -0.0010902 -0.0029179 -0.00050208 -0.0011381 -0.0027383 0.0013008
0.014311 0.017981 -0.1284 0.27552
1100000000 0.029938 0.30289 0.036518 -0.0036613 0.0028182 0.0042032 0.0024288 -0.0011705
-0.002081 -0.0032085 -0.0039539 -0.00027327
0.036484 -0.0036018 -0.13407 0.3704 0.015916 -0.028208 0.00010907 -0.0019013
-0.0037448 -0.00094195 -0.003567 -0.00068621
0.002801 0.0041981 0.015816 -0.028303 0.20042 0.27451 -0.0019882 0.00014735
-0.0018388 0.00057126 -0.0010926 -0.00053039
0.0024525 -0.0011893 7.618e-05 -0.0018788 -0.002006 0.00014473 -0.0068131 0.28551
0.025145 0.0049733 -0.0022903 0.00010422
-0.0020379 -0.0031786 -0.0037499 -0.00092012 -0.0018425 0.00054102 0.025324 0.0050912
-0.063832 0.21747 0.019801 0.0078081
-0.0040715 -0.00024322 -0.0036758 -0.00065973 -0.0011461 -0.00047238 -0.0022907 0.00019338
0.01973 0.0080143 -0.082316 0.30377
1160000000 0.080526 0.29892 0.024663 -0.02089 0.0027115 -0.00033867 -6.6632e-05 -0.0023852
-0.0040323 -0.00077968 -0.0010515 0.0039793
0.024729 -0.020729 -0.090444 0.37516 -0.0035747 -0.029946 -0.0017193 -0.0016879
-0.0028148 0.0027138 -0.0015996 0.0020048
0.0027775 -0.00041014 -0.0036828 -0.029951 0.24378 0.24414 -0.00081444 0.0018055
-0.00053609 0.0019393 -0.00088403 0.0003573
-8.8961e-05 -0.0024304 -0.0016639 -0.0017363 -0.00079376 0.0018001 0.032306 0.28271
0.021262 -0.010567 -0.0033394 0.0051576
-0.0039594 -0.00077827 -0.0027395 0.0027201 -0.00050845 0.0019872 0.021267 -0.010798
-0.03017 0.22482 0.018662 -0.0011121
-0.00093139 0.0039195 -0.0016095 0.0020557 -0.00086308 0.00030442 -0.0032418 0.005176
0.018859 -0.0012066 -0.035034 0.30554
1220000000 0.12508 0.28913 0.011088 -0.030455 -0.0016058 -0.00090549 2.8166e-05 -0.00083721
-0.0027391 0.0023214 0.0012739 0.0020786
0.011083 -0.030442 -0.046171 0.38829 -0.017221 -0.021939 -0.0027518 0.00050019
2.1078e-05 0.0032038 -0.00079905 0.0020015
-0.0016409 -0.00088239 -0.017321 -0.021922 0.28291 0.20534 0.00082503 0.0017534
0.0006054 0.0011858 0.00022571 0.0005911
4.881e-05 -0.00082531 -0.0027355 0.00055593 0.00082334 0.0017542 0.072497 0.27427
0.010452 -0.017638 0.0018866 0.0015747
-0.0027613 0.0023174 3.3496e-05 0.003171 0.00061866 0.0012186 0.010421 -0.017667
-0.0055573 0.23254 0.013641 -0.013631
0.0012429 0.0020575 -0.0007436 0.0019998 0.00021396 0.00060885 0.0018947 0.0014887
0.013618 -0.013664 -0.0030704 0.3202
1280000000 0.17526 0.26854 -0.0079483 -0.02923 -0.0019787 0.0024616 -0.00086457 -0.0020801
-0.00080012 0.0031834 0.0024614 0.0012037
-0.0079392 -0.029154 7.1786e-05 0.37984 -0.02452 -0.0088836 -0.00094554 0.0014858
0.0018919 0.0017952 0.00078804 0.0019392
-0.0019609 0.00249 -0.024595 -0.0087969 0.31345 0.16163 0.0015277 -8.6204e-05
0.0012753 0.00033042 0.0003323 0.00024011
-0.00089202 -0.0020862 -0.00092233 0.001479 0.0015422 -7.4588e-05 0.10958 0.25805
0.00045168 -0.019881 -0.00013116 0.00050778
-0.00075041 0.0032051 0.0019224 0.0018155 0.0012643 0.00028227 0.00042058 -0.019803
0.030962 0.23522 0.0027076 -0.015984
0.0025745 0.0012907 0.00073341 0.0019578 0.00038964 0.00019918 -0.00017821 0.00049815
0.0026521 -0.015876 0.043197 0.32067
1340000000 0.21293 0.2356 -0.01795 -0.019279 0.00091321 0.0047616 -0.00183 -0.00096182
0.0014966 0.0026771 0.0018136 -0.0012726
-0.017914 -0.019232 0.039815 0.37199 -0.022156 0.0043936 -7.088e-05 0.002033
0.0020196 0.00073898 0.001338 0.00082315
0.00090832 0.0048059 -0.022184 0.0045128 0.33539 0.11465 0.0011399 -0.00097165
0.0006458 -0.00045899 0.00019374 0.00018894
-0.0018425 -0.00093798 -8.8731e-05 0.0020455 0.0011375 -0.00097123 0.1426 0.2375
-0.0092354 -0.016718 0.00068446 0.00055101
0.0014965 0.0026519 0.0020479 0.00065623 0.00065393 -0.00051782 -0.0093049 -0.016696
0.061008 0.23029 -0.0045764 -0.014182
0.0018093 -0.0012601 0.0013143 0.00079701 0.00012435 0.000186 0.00069974 0.00059507
-0.0044373 -0.014258 0.08179 0.31497
1400000000 0.24676 0.19808 -0.023973 -0.007464 0.0053626 0.0033475 -0.0022092 0.00064542
0.0025612 0.0010362 0.00026283 -0.0016275
-0.023933 -0.0074623 0.077357 0.3592 -0.015333 0.012879 0.0014259 0.0011963
0.0013865 -0.00094504 0.0010966 8.4972e-05
0.0054039 0.0033194 -0.015277 0.01297 0.34855 0.06156 -5.0713e-05 -0.001648
7.5092e-05 -0.00035667 0.00020574 0.00015352
-0.0022329 0.00062432 0.0014385 0.0011761 -5.7417e-05 -0.0016572 0.17238 0.20854
-0.015294 -0.0093017 -0.00064907 -0.00011373
0.0025026 0.00099033 0.0013369 -0.00093682 0.00010062 -0.00028592 -0.015261 -0.0092774
0.094185 0.22563 -0.010869 -0.0088255
0.00025118 -0.0016899 0.0010804 5.3462e-05 0.00021245 0.0001796 -0.00065054 -0.00017147
-0.010865 -0.0089123 0.12576 0.30344
1460000000 0.27011 0.15421 -0.020655 0.0050756 0.0059454 -0.0017267 -0.0015913 0.0017929
0.0021885 -0.00048281 -0.00041377 -0.0010757
-0.020658 0.0050329 0.11168 0.33731 -0.0061288 0.016001 0.0016667 8.5255e-05
0.000691 -0.0014058 0.0011888 -0.00062043
0.005857 -0.0018027 -0.0060678 0.016043 0.35515 0.0080384 -0.0012082 -0.0012467
7.7588e-05 -0.00019325 0.00072911 -0.00034881
-0.0015489 0.0018433 0.0016579 0.00010182 -0.0012166 -0.0012618 0.19901 0.17895
-0.016124 -0.0022798 -0.00066834 0.0019559
0.0022185 -0.00044887 0.00072452 -0.0014409 0.00012137 -0.00022849 -0.016156 -0.0022722
0.1236 0.21071 -0.012809 -0.002451
-0.00043285 -0.0010689 0.0011887 -0.00065518 0.00071051 -0.00035854 -0.00070019 0.0020201
-0.012939 -0.0024183 0.15849 0.2823
1520000000 0.28268 0.11256 -0.014796 0.010699 0.0035262 -0.004356 0.00014371 0.0026219
0.0020901 -0.002004 -0.0011927 -8.2944e-05
-0.014787 0.010681 0.14517 0.32289 0.0018275 0.013563 0.001577 -0.00076735
-4.9607e-05 -0.0011072 0.00034016 -0.00097813
0.0034473 -0.0043421 0.0019154 0.01356 0.3489 -0.047662 -0.0010858 -0.00028929
0.0006234 -0.00090088 0.00011955 -0.00021181
0.00016877 0.0026061 0.0015909 -0.00078348 -0.0010782 -0.00026784 0.22242 0.14054
-0.014906 0.0037285 0.0016149 0.0020293
0.0021195 -0.0020486 -4.5033e-05 -0.0010891 0.00061582 -0.00092359 -0.014908 0.0037523
0.15179 0.19723 -0.012244 0.0022242
-0.0012298 -8.5805e-05 0.00032171 -0.00099908 0.0001253 -0.00024906 0.0016361 0.0020574
-0.012181 0.0022276 0.19097 0.26132
1580000000 0.29252 0.066346 -0.0078342 0.013748 -0.0008345 -0.0052523 0.0015926 0.0018295
-0.00022101 -0.0022449 -0.00021469 0.00033424
-0.007824 0.013734 0.17247 0.29824 0.0056836 0.0084135 0.00050989 -0.0015453
-0.00056381 -0.00094515 -0.00023847 -0.00088866
-0.00083588 -0.005296 0.0057293 0.0083879 0.32961 -0.10519 -0.0015418 0.00061188
-0.00040865 -0.0012538 0.00029364 -0.00062448
0.0015914 0.0018284 0.00049331 -0.0015465 -0.0015597 0.00059994 0.2362 0.10068
-0.010846 0.0083951 0.0022761 0.0006325
-0.00028764 -0.0022453 -0.00058418 -0.00090709 -0.00039121 -0.0012099 -0.010843 0.0084695
0.17622 0.17901 -0.0094985 0.0079891
-0.00019394 0.0003666 -0.00024621 -0.00084443 0.00022636 -0.00066009 0.0023425 0.00060575
-0.009497 0.0079327 0.22246 0.23421
1640000000 0.29466 0.025357 -0.00097749 0.012362 -0.0030247 -0.0028655 0.0026757 0.00097764
-0.00088251 -0.001592 -0.00027316 0.00055857
-0.0009911 0.012324 0.20196 0.27371 0.0063138 0.0032972 -0.00063271 -0.0017579
-0.0009357 -0.0003293 -0.00052818 -0.0006836
-0.0030093 -0.0028571 0.0063192 0.0032835 0.30155 -0.15449 -0.00063248 0.0014434
-0.0012665 -0.00091892 -0.00023414 -0.00025564
0.002661 0.00093951 -0.00063782 -0.0017448 -0.00062141 0.001451 0.24852 0.051584
-0.0062801 0.0092134 0.0025291 -0.00083286
-0.00090771 -0.0016084 -0.00094222 -0.00032955 -0.0011952 -0.00094651 -0.0062427 0.0092306
0.19953 0.15471 -0.004408 0.0099936
-0.00026217 0.0005739 -0.00051446 -0.00065116 -0.00023561 -0.00026713 0.0025165 -0.00088549
-0.0044574 0.010005 0.24741 0.20313
1700000000 0.28778 -0.019719 0.0024003 0.0092699 -0.0037331 -0.00013044 0.0030809 -0.0012158
-0.0020994 -0.00050089 0.00060569 0.0003353
0.0023601 0.0092779 0.22025 0.24257 0.0041694 0.00032177 -0.0014356 -0.00059551
-0.00076466 -1.4708e-05 -0.0009095 -0.00041009
-0.0038029 -8.7122e-05 0.0041694 0.00029457 0.25881 -0.19408 0.00048073 0.0015289
-0.0018692 -3.1937e-05 -0.00053169 -0.00081593
0.0030753 -0.0011942 -0.0014603 -0.00059612 0.00045252 0.001517 0.24494 0.0014074
-0.0034516 0.0091731 0.0015775 -0.0023131
-0.0020504 -0.00047049 -0.00077173 3.2625e-06 -0.0018934 -5.8816e-05 -0.0034493 0.009243
0.21701 0.1337 0.00030352 0.0099521
0.00060256 0.00035823 -0.00090709 -0.00038974 -0.00053473 -0.00081307 0.0015435 -0.0022936
0.0002805 0.010086 0.26344 0.16898
1760000000 0.27608 -0.068155 0.004508 0.0058883 -0.0025167 0.0011857 0.0012444 -0.0034301
-0.0014316 0.00078424 0.00034425 -0.00053936
0.0045379 0.0058977 0.24641 0.20313 0.0016525 -0.0015627 -0.0012269 0.00011434
-0.0010493 0.00080896 -0.00051304 0.00037814
-0.0025142 0.0011798 0.0016222 -0.0015382 0.21076 -0.2277 0.0011322 0.0011396
-0.0012009 0.0015449 -0.0011633 -0.00063023
0.0012087 -0.0034341 -0.0012256 0.00014757 0.00117 0.0011222 0.23553 -0.050111
-0.00054253 0.0079161 -0.00019327 -0.0025727
-0.0014087 0.00080159 -0.0010554 0.00084547 -0.001163 0.0016181 -0.00055929 0.0079436
0.23174 0.098618 0.0044588 0.0073553
0.00037027 -0.00049756 -0.00056325 0.00034245 -0.00099888 -0.00064688 -0.00017939 -0.0025588
0.0044707 0.0072757 0.276 0.13093
1820000000 0.25202 -0.1054 0.0044573 0.0023254 -0.00027526 0.0025307 -0.0010485 -0.0031343
-0.0010264 0.0010243 -0.00022642 -0.00017173
0.004447 0.0022731 0.25683 0.17331 -0.00074885 -0.00047843 -0.0013954 0.00092915
-0.00016822 0.0011926 -0.00060107 0.00048778
-0.00032529 0.0025472 -0.00069511 -0.00045024 0.16043 -0.2439 0.001488 0.00059576
-0.00025262 0.0024601 -0.0014833 0.00042607
-0.001054 -0.0031161 -0.0013649 0.00092533 0.001505 0.0006005 0.20568 -0.097246
0.0005782 0.006442 -0.0019194 -0.0016068
-0.0010077 0.0010276 -0.00012606 0.001204 -0.00023618 0.0024831 0.00063126 0.0064362
0.24869 0.069505 0.0051544 0.0035301
-0.00022046 -0.00013085 -0.00065046 0.00056185 -0.0016178 0.00036932 -0.0019236 -0.001662
0.005109 0.0035313 0.27792 0.09468
1880000000 0.21713 -0.14599 0.002167 5.4664e-05 -0.00050526 0.0021871 -0.0028194 -0.0021902
-3.4344e-05 0.0018051 0.00023636 -0.00049742
0.0021349 5.3265e-05 0.26175 0.12686 -0.002738 0.0015502 -0.00015883 0.0017635
0.00052794 0.0013959 7.7673e-05 0.00091336
-0.0005511 0.0021153 -0.0026919 0.0015223 0.10813 -0.2538 0.0018051 -0.00089924
0.0017027 0.0019965 -0.0010498 0.0013425
-0.0027893 -0.0022487 -0.00015878 0.0017403 0.0017586 -0.0008873 0.16451 -0.13752
0.00098557 0.0046726 -0.0024678 0.00033578
-2.8259e-05 0.0017857 0.00054998 0.0013724 0.0017182 0.0019853 0.001026 0.0045995
0.25201 0.037467 0.0051438 0.0010698
0.00011031 -0.00058669 9.8561e-05 0.0009222 -0.0010121 0.0014299 -0.0024871 0.00046064
0.0052373 0.0011516 0.27737 0.060564
1940000000 0.17809 -0.17155 -0.00025951 -0.0014195 0.0015327 0.0022542 -0.0038122 0.00041507
0.0013545 0.00099919 -0.00034484 -0.00051828
-0.00026652 -0.0014143 0.26268 0.095123 -0.0015514 0.0041761 0.0010899 0.001354
0.0019041 0.00063704 0.0011103 0.00034978
0.0015422 0.0022727 -0.0015979 0.0041732 0.061799 -0.24654 0.00061255 -0.0022022
0.0025453 0.00035187 0.0005884 0.0016713
-0.0037808 0.00053434 0.0010876 0.0014001 0.00063241 -0.0022143 0.11175 -0.16746
0.00019156 0.0037107 -0.0016003 0.0017729
0.0013783 0.0010699 0.0018765 0.00060865 0.0025008 0.00038022 2.4758e-05 0.0037332
0.25445 -0.0006191 0.0039341 -0.0020093
-0.00030976 -0.00056544 0.0011251 0.00035759 0.00070505 0.0017021 -0.0014338 0.0017594
0.0038914 -0.0021664 0.26604 0.024152
2000000000 0.13221 -0.18687 -0.0040768 0.00067208 0.0027766 0.0015603 -0.0024325 0.0038601
0.0011213 0.00037348 -0.00064465 0.00042999
-0.0040103 0.00069506 0.24901 0.059377 -0.00088644 0.005963 0.0016386 0.00047724
0.001508 -0.0010365 0.00056639 0.0001961
0.0027529 0.0015719 -0.00083262 0.0059437 0.019148 -0.23254 -0.0014226 -0.0015111
0.0021883 -0.0011634 0.0018301 0.0013481
-0.0023914 0.0038061 0.0016679 0.00048306 -0.0013893 -0.0014766 0.058564 -0.17736
-0.0014012 0.0035731 -0.00017784 0.0022566
0.0011819 0.0002852 0.0015322 -0.0010361 0.0021475 -0.0011501 -0.0013058 0.0036628
