!Keysight Technologies,M9804A,MY58100912,A.14.10.03
!Date: Thursday, April 27, 2023 10:28:33
!Correction: S11(C  6-Port  ) 
!S12(C  6-Port  ) 
!S13(C  6-Port  ) 
!S14(C  6-Port  ) 
!S15(C  6-Port  ) 
!S16(C  6-Port  ) 
!S21(C  6-Port  ) 
!S22(C  6-Port  ) 
!S23(C  6-Port  ) 
!S24(C  6-Port  ) 
!S25(C  6-Port  ) 
!S26(C  6-Port  ) 
!S31(C  6-Port  ) 
!S32(C  6-Port  ) 
!S33(C  6-Port  ) 
!S34(C  6-Port  ) 
!S35(C  6-Port  ) 
!S36(C  6-Port  ) 
!S41(C  6-Port  ) 
!S42(C  6-Port  ) 
!S43(C  6-Port  ) 
!S44(C  6-Port  ) 
!S45(C  6-Port  ) 
!S46(C  6-Port  ) 
!S51(C  6-Port  ) 
!S52(C  6-Port  ) 
!S53(C  6-Port  ) 
!S54(C  6-Port  ) 
!S55(C  6-Port  ) 
!S56(C  6-Port  ) 
!S61(C  6-Port  ) 
!S62(C  6-Port  ) 
!S63(C  6-Port  ) 
!S64(C  6-Port  ) 
!S65(C  6-Port  ) 
!S66(C  6-Port  ) 
!S6P File: Measurement: :
# Hz S  RI   R 50
500000000 -0.33544 -0.05135 -0.010192 -0.0011223 -0.008425 0.013432 -0.0040078 0.01245
0.011601 0.0053627 -0.0038623 0.0089569
-0.010187 -0.0011135 -0.41702 -0.061969 0.0077114 -0.010317 0.0014003 0.012428
0.0073045 0.0026386 0.00093708 0.01401
-0.0083929 0.013527 0.0077359 -0.01039 -0.26758 0.20056 0.0068766 0.003733
-0.002417 0.0090119 0.00052126 0.012515
-0.0039614 0.012424 0.0013795 0.012468 0.0068498 0.0038152 -0.33333 0.044201
-0.017205 -0.0044006 0.015254 0.024718
0.011453 0.0051804 0.0074482 0.0028355 -0.0021424 0.0089864 -0.017132 -0.0043178
-0.25088 -0.19188 -0.024867 0.0052105
-0.0036864 0.0090792 0.00092943 0.014113 0.00039349 0.012393 0.014886 0.024854
-0.0245 0.0050993 -0.27527 -0.11649
560000000 -0.31835 0.1142 -0.023307 -0.064197 0.0003356 0.012883 0.0050285 0.011685
0.010185 0.0048628 0.01036 0.0085596
-0.023275 -0.064065 -0.37549 0.10175 -0.042881 -0.037434 0.014394 0.0037272
-0.01497 -0.0053668 0.0046776 -0.00043471
0.00035097 0.01291 -0.043049 -0.037389 -0.18543 0.25119 -0.00035818 -0.0041068
0.019736 0.0048302 0.0070039 -0.0046674
0.0050698 0.011653 0.014351 0.0037481 -0.00033028 -0.0042351 -0.30682 0.13587
0.0051162 -0.024245 0.0047425 -0.020572
0.010147 0.0048595 -0.014871 -0.0051727 0.019632 0.004747 0.0050442 -0.024256
-0.30915 -0.011257 0.0060583 -0.048772
0.010332 0.0085813 0.0047385 -0.00038857 0.0070048 -0.0048337 0.0049855 -0.020399
0.0061436 -0.048736 -0.33142 0.029065
620000000 -0.27729 0.094404 -0.023126 0.0089323 0.003538 0.0099481 0.0080827 -0.0042401
0.012693 -0.00088369 0.0012779 -0.0016758
-0.023115 0.0089331 -0.40355 0.050627 -0.018094 0.00099682 -0.0015695 -0.0022123
0.012882 -0.0058701 0.0013791 -0.0033616
0.003574 0.0099514 -0.018122 0.0010539 -0.15533 0.26245 -0.00096944 -0.0048069
-0.0024334 -0.0030865 0.0090679 -0.0031185
0.0081005 -0.0043785 -0.0015766 -0.002197 -0.0010226 -0.0047545 -0.26592 0.14834
-0.036799 -0.020218 0.011889 0.027703
0.012724 -0.00078822 0.0128 -0.0059152 -0.0024718 -0.0031979 -0.036724 -0.020239
-0.2339 -0.044535 -0.037937 0.010028
0.0011589 -0.0013951 0.0012142 -0.0034059 0.0092047 -0.0033231 0.012455 0.027757
-0.03857 0.010242 -0.25415 -0.0017325
680000000 -0.23904 0.18512 -0.026457 -0.014063 0.0052107 0.005189 0.0020537 -0.0076652
-0.0026473 -0.011998 0.0051445 -0.007635
-0.026424 -0.014075 -0.38971 0.15139 -0.032316 -0.0019018 -0.0014055 -0.00078541
-0.0018988 -0.009679 -0.0011206 -0.0017777
0.0052233 0.0051787 -0.032346 -0.0018262 -0.10339 0.28159 -0.0010512 -0.00055222
-0.0016614 0.00013674 -0.0031105 -0.0095002
0.0020564 -0.0076389 -0.0014077 -0.00079117 -0.0010555 -0.00053954 -0.22006 0.19768
-0.023369 -0.0073269 -0.008455 -0.011854
-0.0026813 -0.011921 -0.0019323 -0.0097058 -0.0016665 0.00012626 -0.023428 -0.0073112
-0.27849 0.059365 -0.0080377 -0.006744
0.0050587 -0.0075991 -0.0011203 -0.0017854 -0.0031285 -0.0095444 -0.0084801 -0.011837
-0.0081279 -0.0067744 -0.25867 0.098006
740000000 -0.19326 0.17859 -0.039605 0.02702 0.013821 -0.0052968 -0.00045019 -0.0039821
-0.0032576 -0.0028386 -0.0073156 0.0033347
-0.039586 0.02697 -0.33489 0.16979 -0.036312 0.034854 -0.00048484 -0.0060707
-0.012251 0.0071812 -0.0016558 -0.0060206
0.01381 -0.0053116 -0.036249 0.034989 -0.069428 0.27907 -0.0020715 0.003541
-0.0026507 -0.0057533 -0.0011723 0.0014645
-0.00049455 -0.0039866 -0.0005219 -0.0060553 -0.0020914 0.0035474 -0.20326 0.20547
-0.041869 -0.0074109 0.02159 0.014633
-0.0032575 -0.0027881 -0.012282 0.0071879 -0.0025423 -0.0058264 -0.041973 -0.0073668
-0.18015 0.082631 -0.040641 0.001074
-0.0073339 0.0035663 -0.0016628 -0.0061924 -0.0011984 0.0014406 0.021645 0.014696
-0.040961 0.0010523 -0.24794 0.10777
800000000 -0.16098 0.22174 -0.022313 0.01644 0.0058579 -0.010419 -0.0044024 -0.0022614
-0.004384 0.0022947 0.0038541 0.00086121
-0.022309 0.016414 -0.34029 0.24033 -0.0083643 0.034065 -0.0023449 0.0020021
-0.0012275 0.0029956 0.0006885 0.0051869
0.0058305 -0.010446 -0.0082874 0.034129 -0.030534 0.30249 0.00071488 0.001501
0.00015272 0.0037254 -0.0021171 0.00090433
-0.0043983 -0.0022359 -0.0023374 0.0019977 0.00071679 0.0014884 -0.17316 0.23267
-0.028272 0.013051 0.013578 -0.010518
-0.0044164 0.0023052 -0.0012559 0.0029523 0.00016949 0.0037038 -0.028266 0.013139
-0.21957 0.1143 -0.016177 0.020021
0.0038833 0.0008082 0.00071282 0.005237 -0.0020771 0.00088654 0.013575 -0.010528
-0.016452 0.020015 -0.2392 0.15397
860000000 -0.1262 0.24153 -0.017412 0.030321 -0.0027625 -0.010339 -0.0019035 0.0007155
0.0037317 0.0051242 -0.003338 -0.0023382
-0.017408 0.030311 -0.29191 0.28241 0.007555 0.034348 7.0095e-05 0.0021477
0.0037683 0.0005724 0.003322 0.00082471
-0.0027873 -0.010332 0.0076512 0.034361 0.016664 0.31055 -0.00061794 -7.2565e-05
0.0023597 -0.0012911 0.0019162 0.0042151
-0.00193 0.00073666 6.6216e-05 0.0021445 -0.00062905 -8.3821e-05 -0.13719 0.24283
-0.018217 0.01788 -0.0065368 -0.0085533
0.00372 0.0051743 0.0037368 0.00046261 0.002367 -0.0012997 -0.018185 0.017934
-0.16474 0.16266 -0.022894 0.017855
-0.0034526 -0.0023663 0.0034227 0.00067464 0.0018252 0.004196 -0.0065465 -0.0085947
-0.022884 0.017684 -0.189 0.19996
920000000 -0.10316 0.26461 0.0046198 0.038039 -0.0095055 -0.0051969 -0.0019577 0.0016521
0.0010366 0.002124 0.0034582 -0.0014231
0.004606 0.038016 -0.26505 0.30385 0.028016 0.022556 0.0014361 0.0013027
0.0073703 0.00015588 0.0046637 -0.0027125
-0.0095128 -0.0051847 0.028109 0.022501 0.061935 0.31214 0.0019898 8.7735e-05
0.00098716 -0.00013592 0.00098019 -0.0011806
-0.0019448 0.0016313 0.0014622 0.0013079 0.0019945 9.2567e-05 -0.11211 0.2594
-0.010536 0.030374 0.0035837 -0.0070139
0.0010588 0.0021252 0.0073895 0.00014325 0.00099097 -0.00011433 -0.010508 0.030418
-0.15259 0.17095 -0.0014178 0.026952
0.0032663 -0.0013176 0.0045251 -0.002657 0.00096631 -0.0010867 0.0036573 -0.0070015
-0.0013458 0.026757 -0.19316 0.21236
980000000 -0.056334 0.28448 0.016941 0.029973 -0.0095186 0.0041673 0.0016575 0.0037444
0.0041566 -0.0018476 -0.0030905 -0.0021788
0.016915 0.02996 -0.21214 0.33822 0.033379 0.0053466 0.0020836 -7.008e-05
0.0017642 -0.0061685 -0.00029979 -0.0026274
-0.0094984 0.0041886 0.033412 0.0052456 0.10775 0.30648 0.00057781 -0.0011948
0.00041404 -0.0020233 0.0013142 -0.00036647
0.0016673 0.0037337 0.0021003 -4.9454e-05 0.00057003 -0.0011867 -0.074361 0.27029
0.0073216 0.029668 -0.0091328 -0.0069792
0.0041639 -0.0018628 0.0017534 -0.0061758 0.00040925 -0.0020279 0.0074033 0.029664
-0.11759 0.19847 0.0059497 0.019681
-0.003195 -0.0022447 -0.00039631 -0.0026362 0.0013066 -0.00032388 -0.0092247 -0.006842
0.0060493 0.019711 -0.15101 0.25527
1040000000 -0.015305 0.29359 0.03288 0.018735 -0.001726 0.0069948 0.0025995 0.00085979
0.00060364 -0.0033826 -0.00031409 -0.0015836
0.032853 0.018737 -0.17727 0.35183 0.030109 -0.014699 0.0016754 -0.0017864
-0.0018496 -0.0027998 -0.00094005 -0.0029254
-0.0016981 0.0069874 0.03007 -0.014794 0.15358 0.29377 -0.00051178 -0.0016259
-0.0015437 -0.00099528 -0.0005808 -0.001015
0.0025929 0.000843 0.0016852 -0.0017793 -0.00051676 -0.0016382 -0.047047 0.28006
0.019412 0.018413 -0.0024415 0.0011281
0.00057185 -0.0033625 -0.0019048 -0.002801 -0.0015428 -0.00098337 0.019449 0.018388
-0.084739 0.20461 0.014573 0.017418
-0.0002443 -0.0015174 -0.00098704 -0.0028852 -0.00053874 -0.0010036 -0.0024189 0.0011523
0.014564 0.017493 -0.12719 0.27547
1100000000 0.029568 0.30253 0.036217 -0.0036802 0.0026545 0.0041639 0.0024372 -0.0010775
-0.002002 -0.0032099 -0.0040651 -0.00028262
0.036195 -0.003668 -0.13428 0.36981 0.015844 -0.028069 7.9735e-05 -0.0018987
-0.0038143 -0.0011033 -0.0036235 -0.00055348
0.0026694 0.0041471 0.015756 -0.028152 0.20005 0.27442 -0.0019514 0.0001262
-0.0017996 0.00049905 -0.0011444 -0.00041665
0.002445 -0.0010914 7.1583e-05 -0.0018981 -0.0019396 0.00012749 -0.0070001 0.28491
0.024825 0.0048603 -0.0024409 -1.4369e-05
-0.0020024 -0.00318 -0.0038206 -0.0010871 -0.001793 0.00049419 0.02484 0.0048199
-0.063599 0.2169 0.019749 0.0078491
-0.0040579 -0.00028375 -0.0036496 -0.00052076 -0.0011595 -0.00042139 -0.0024128 5.2354e-05
0.019737 0.0078891 -0.081536 0.30287
1160000000 0.080318 0.29878 0.024347 -0.020718 0.0026034 -0.00024856 3.4963e-05 -0.0023492
-0.0038688 -0.00083263 -0.0010317 0.0040903
0.024358 -0.02068 -0.091163 0.37469 -0.0034588 -0.029822 -0.0016646 -0.0017632
-0.0028164 0.0027379 -0.0015845 0.0018235
0.0026076 -0.00026796 -0.0035968 -0.029824 0.24336 0.24406 -0.00083065 0.0018747
-0.00055631 0.0019753 -0.00087853 0.00042279
3.9117e-05 -0.0023606 -0.0016597 -0.0017511 -0.00083577 0.0018681 0.031945 0.28244
0.020931 -0.010641 -0.0033776 0.0050479
-0.0038989 -0.00080898 -0.0028104 0.0027487 -0.00054839 0.0019887 0.02092 -0.010659
-0.029471 0.22431 0.018336 -0.0013395
-0.00098145 0.0040889 -0.0015145 0.0018351 -0.00089116 0.00042921 -0.0033475 0.0050056
0.01832 -0.0013543 -0.035062 0.30631
1220000000 0.12451 0.28907 0.010794 -0.030305 -0.0017053 -0.0006821 9.111e-05 -0.00096813
-0.0027382 0.002282 0.0011467 0.0021741
0.010801 -0.030267 -0.046983 0.38796 -0.017163 -0.021873 -0.0026961 0.00045445
-4.8633e-06 0.0032782 -0.0008448 0.0019376
-0.0017065 -0.00068039 -0.017274 -0.021826 0.28259 0.20556 0.00078759 0.0017867
0.00064403 0.0012056 0.00022147 0.00052605
7.9313e-05 -0.00097215 -0.0026939 0.00047112 0.00078885 0.001791 0.071963 0.27437
0.010499 -0.017301 0.001865 0.0017305
-0.0027296 0.0022622 1.3845e-05 0.0032745 0.00062725 0.0012017 0.010463 -0.017296
-0.0059248 0.23225 0.013402 -0.013593
0.0011903 0.0021853 -0.00082677 0.0019276 0.00022516 0.00051019 0.0018299 0.001747
0.013391 -0.013583 -0.0024298 0.32003
1280000000 0.17481 0.26856 -0.0080273 -0.028926 -0.0019598 0.0026765 -0.00079709 -0.0021236
-0.00073441 0.0032231 0.0025795 0.0013151
-0.0080036 -0.028897 -0.00087301 0.37964 -0.024444 -0.0089288 -0.00098886 0.0015754
0.0019156 0.0019043 0.00069162 0.0020297
-0.0019535 0.0026754 -0.024503 -0.0088309 0.31311 0.16191 0.0016371 -6.5032e-05
0.0013178 0.00020374 0.00049239 0.00020074
-0.0007994 -0.0021196 -0.00097626 0.0015868 0.0016398 -6.0741e-05 0.10905 0.25819
0.00056735 -0.019446 -0.00033895 0.00037751
-0.00070384 0.0032235 0.0019241 0.0018906 0.0013155 0.00020663 0.00052647 -0.019447
0.030574 0.23487 0.0028792 -0.016029
0.0025889 0.0012949 0.00069164 0.0020161 0.00048306 0.00019473 -0.00034766 0.0003471
0.0028931 -0.016006 0.043248 0.3204
1340000000 0.21228 0.23586 -0.017894 -0.019038 0.00093028 0.0048792 -0.0018834 -0.00097162
0.0015661 0.0027022 0.0017809 -0.0014543
-0.017853 -0.019028 0.038876 0.37217 -0.02221 0.0043342 -4.4393e-05 0.0020796
0.0021208 0.00064863 0.0012891 0.0007711
0.00094822 0.0048773 -0.022214 0.0044411 0.33501 0.11495 0.001202 -0.00096957
0.00072662 -0.00056417 0.00014617 0.00019054
-0.0018929 -0.00095001 -3.2978e-05 0.0020809 0.0011993 -0.00096623 0.14246 0.23794
-0.0088267 -0.016462 0.00079792 0.00065596
0.0015584 0.0027037 0.0021258 0.00064668 0.00072504 -0.00055077 -0.0088455 -0.016454
0.060687 0.23001 -0.0045366 -0.014275
0.0017942 -0.0014616 0.0012606 0.00077774 0.00013486 0.00019588 0.00079871 0.00065831
-0.0045505 -0.014266 0.082191 0.31493
1400000000 0.24631 0.19858 -0.023758 -0.007267 0.0055017 0.0034149 -0.0023217 0.00061241
0.0024707 0.00094071 0.00031438 -0.0016208
-0.023717 -0.0072776 0.076657 0.35969 -0.015382 0.012891 0.0014334 0.0012832
0.0013342 -0.0009548 0.0011698 0.00014028
0.0055179 0.0033917 -0.015335 0.012977 0.34838 0.062052 1.8041e-05 -0.0016692
7.0891e-05 -0.0003381 0.00026027 0.00024399
-0.0023096 0.00062574 0.0014331 0.0012849 1.7877e-05 -0.0016754 0.17242 0.20889
-0.014926 -0.0095229 -0.0006926 -6.7651e-05
0.0024703 0.0009118 0.0013439 -0.00095528 7.0459e-05 -0.00034068 -0.01494 -0.0094935
0.093801 0.22535 -0.010839 -0.0088539
0.00031305 -0.0016085 0.0011515 0.0001334 0.0002562 0.00021144 -0.0006896 -5.8127e-05
-0.010818 -0.0088557 0.12565 0.30301
1460000000 0.26975 0.15479 -0.020396 0.0051658 0.0060885 -0.0018656 -0.0015911 0.0018648
0.0022068 -0.0004736 -0.00046246 -0.0010282
-0.020369 0.0051504 0.11118 0.33798 -0.0062201 0.016062 0.0017511 0.00010695
0.00077439 -0.0015082 0.0011638 -0.00051489
0.006087 -0.0018853 -0.0061561 0.016111 0.35518 0.0083696 -0.0012539 -0.0012505
0.00013594 -0.00025928 0.00065549 -0.00035164
-0.0015855 0.0018702 0.0017456 0.00010933 -0.0012439 -0.0012446 0.19914 0.17929
-0.015997 -0.0025341 -0.00064229 0.0020037
0.002203 -0.00047772 0.00077617 -0.0015007 0.00013133 -0.00026853 -0.015993 -0.0025095
0.12314 0.21081 -0.012905 -0.0026618
-0.0004737 -0.001024 0.0011722 -0.00054834 0.00064515 -0.00034567 -0.00065487 0.0019889
-0.0129 -0.0026573 0.15843 0.28234
1520000000 0.28267 0.11341 -0.014536 0.010616 0.0036763 -0.004482 0.00016815 0.002615
0.0021663 -0.0021368 -0.0012567 -0.00020711
-0.014531 0.010594 0.145 0.32362 0.0018591 0.013631 0.001595 -0.00084021
-4.4997e-05 -0.0011343 0.00029777 -0.0010653
0.0036681 -0.0045022 0.0019305 0.013632 0.34892 -0.047139 -0.001118 -0.00033734
0.00067577 -0.00087994 9.3816e-05 -0.00021173
0.00017989 0.0026051 0.0015959 -0.00084307 -0.0011087 -0.00033017 0.22291 0.14077
-0.014853 0.0033172 0.0016151 0.0021226
0.0021552 -0.0021458 -4.7714e-05 -0.001129 0.00067662 -0.00087919 -0.014857 0.0033403
0.15128 0.19727 -0.012427 0.0024525
-0.0012707 -0.00021697 0.00028497 -0.001066 0.00012445 -0.00021088 0.0016124 0.0021283
-0.012422 0.0024594 0.19084 0.26108
1580000000 0.29278 0.066929 -0.0076784 0.013581 -0.00086468 -0.0053536 0.0015764 0.0019415
-0.00023507 -0.0021496 -0.00026246 0.00042251
-0.0076815 0.013563 0.17257 0.2988 0.0057912 0.0084154 0.00045403 -0.0016009
-0.0006369 -0.00091222 -0.00019166 -0.00088123
-0.00089431 -0.0053529 0.0058366 0.0083923 0.32977 -0.10492 -0.0015892 0.00057458
-0.00033205 -0.0012986 0.00017421 -0.00055266
0.0015792 0.0019383 0.00045059 -0.001605 -0.0015862 0.000578 0.23666 0.10061
-0.011134 0.0080412 0.0024155 0.00061252
-0.00024633 -0.0021406 -0.00063785 -0.00092166 -0.00033391 -0.0013039 -0.011119 0.008066
0.17582 0.17922 -0.0094691 0.007944
-0.00025774 0.00043468 -0.00019454 -0.00086085 0.00017702 -0.00053896 0.0024071 0.00060455
-0.0094865 0.0079356 0.22201 0.23417
1640000000 0.29506 0.025817 -0.00092286 0.012165 -0.0030334 -0.0029097 0.0027181 0.00092534
-0.00089461 -0.0016654 -0.00033002 0.00067329
-0.00093648 0.012148 0.20213 0.27419 0.0063527 0.0032931 -0.00064098 -0.001747
-0.00093715 -0.00033984 -0.00052951 -0.00068859
-0.0030542 -0.0029084 0.0063676 0.0032519 0.30207 -0.1542 -0.00064955 0.0015298
-0.0011291 -0.00098189 -0.00012802 -0.00033209
0.0027202 0.00090808 -0.00064658 -0.0017475 -0.00065252 0.0015211 0.24879 0.051485
-0.0066736 0.0090822 0.0026356 -0.00090258
-0.0009109 -0.0016597 -0.00094281 -0.00033012 -0.0011245 -0.0009844 -0.0066581 0.0091141
0.19913 0.15484 -0.0045435 0.010129
-0.00031676 0.00068144 -0.00053776 -0.00067268 -0.00014787 -0.00030242 0.0026494 -0.00091624
-0.0045548 0.010095 0.24715 0.20321
1700000000 0.28836 -0.019568 0.0023467 0.0091308 -0.0038983 -1.7854e-05 0.0031038 -0.0012047
-0.002004 -0.00056298 0.00067997 0.00026729
0.0023325 0.0091183 0.22059 0.24286 0.0041803 0.00020439 -0.0014804 -0.00058597
-0.00074646 3.5692e-05 -0.00088116 -0.00049468
-0.0038974 2.5163e-07 0.004189 0.00018052 0.25928 -0.19438 0.00050591 0.0015941
-0.0019727 -5.5459e-05 -0.00046464 -0.00093691
0.0030997 -0.0012196 -0.0014864 -0.0005753 0.00050292 0.0015846 0.24544 0.0011656
-0.0038858 0.0094182 0.0015241 -0.0022994
-0.0020117 -0.00055362 -0.00074719 4.4928e-05 -0.0019744 -3.8078e-05 -0.003855 0.0094278
0.21658 0.1344 0.00030057 0.01019
0.00067695 0.00027886 -0.00088539 -0.00049121 -0.00047042 -0.00095745 0.0015642 -0.002323
0.00030385 0.010218 0.26337 0.16893
1760000000 0.27648 -0.068279 0.0044967 0.0057782 -0.0025511 0.0011813 0.001234 -0.0033911
-0.0014609 0.0007731 0.00028945 -0.00062228
0.0044784 0.0057768 0.24671 0.20323 0.0016765 -0.001618 -0.0011865 0.00018023
-0.0010559 0.00079968 -0.00063231 0.00040645
-0.0025402 0.0011982 0.0016689 -0.0016323 0.21076 -0.22764 0.0011022 0.0010571
-0.0012655 0.001574 -0.001149 -0.00063833
0.0012235 -0.0033938 -0.0011828 0.000183 0.0011 0.0010594 0.23579 -0.050532
-0.00070362 0.0083205 -0.00015889 -0.0027125
-0.0014588 0.00077712 -0.0010467 0.00080739 -0.001273 0.0015581 -0.00067215 0.008316
0.23176 0.099189 0.0044197 0.0073595
0.00028517 -0.00066125 -0.00063097 0.00040974 -0.0011662 -0.00058706 -0.00013612 -0.0027091
0.004432 0.0073657 0.27568 0.13134
1820000000 0.25217 -0.10557 0.0043657 0.0021522 -0.00036952 0.0024725 -0.0011009 -0.0031524
-0.0010424 0.0010176 -0.00024656 -3.4781e-05
0.004363 0.0021495 0.25717 0.17329 -0.00071975 -0.00051456 -0.0013391 0.00091063
-0.00012467 0.0012326 -0.00068617 0.00053123
-0.00035505 0.0024738 -0.00071869 -0.00051052 0.16051 -0.24379 0.0014865 0.00049398
-0.0001232 0.002474 -0.0016128 0.00039051
-0.0011107 -0.0031558 -0.0013371 0.00091964 0.0015 0.00049635 0.20546 -0.097761
0.0006858 0.0067389 -0.0018107 -0.0017336
-0.001032 0.0010146 -0.00011716 0.0012281 -0.00011959 0.0024689 0.0007113 0.0067357
0.2488 0.070186 0.005298 0.0037766
-0.00027654 -3.068e-05 -0.00069838 0.00054797 -0.0016657 0.00048093 -0.0018065 -0.0016997
0.0052918 0.0037945 0.27768 0.094733
1880000000 0.21721 -0.14613 0.002057 -5.1906e-05 -0.00046571 0.0022993 -0.0028925 -0.0021843
-0.00013953 0.0018447 5.8286e-05 -0.00047185
0.0020445 -5.2261e-05 0.26193 0.12657 -0.0027119 0.0015249 -0.00023356 0.0017659
0.00048762 0.0013675 2.5725e-05 0.00091139
-0.00046108 0.0023059 -0.0027098 0.0015417 0.10827 -0.25367 0.0019812 -0.00077847
0.0016241 0.0019771 -0.00088428 0.0012645
-0.0029094 -0.0021629 -0.00022186 0.0017722 0.0019817 -0.00078825 0.16408 -0.13793
0.0011532 0.0048554 -0.0026069 0.00013965
-0.00012403 0.0018558 0.00049696 0.0013667 0.0016347 0.0019664 0.0011637 0.0048556
0.25245 0.038008 0.0054195 0.001023
6.0925e-05 -0.00052015 4.6712e-05 0.00090921 -0.00087498 0.0013077 -0.0026052 0.00015668
0.0053963 0.0010322 0.27745 0.060765
1940000000 0.17782 -0.17176 -0.00047438 -0.0015153 0.0013233 0.0023046 -0.003866 0.00038186
0.0012853 0.0010254 -0.00038166 -0.00042368
-0.00047414 -0.0015085 0.26259 0.094793 -0.0016836 0.0041084 0.0010951 0.0013194
0.0018665 0.00065223 0.0010266 0.00046945
0.0013368 0.0022978 -0.0016597 0.0041294 0.06212 -0.24626 0.00060807 -0.0022238
0.0024656 0.00031881 0.00062013 0.0016441
-0.0038422 0.00039345 0.0011072 0.0013125 0.00061641 -0.0022288 0.11123 -0.16771
0.00022628 0.003688 -0.0015809 0.0017349
0.0013009 0.0010019 0.0018787 0.00063796 0.0024613 0.00032639 0.00022313 0.0036947
0.25484 -0.00039218 0.0039113 -0.002096
-0.0003903 -0.00041726 0.0010157 0.00045784 0.00056871 0.0016348 -0.0015728 0.0017225
0.003934 -0.0021023 0.26626 0.024542
2000000000 0.13185 -0.18641 -0.0043082 0.00069777 0.0027362 0.0016696 -0.0024406 0.0037935
0.0012592 0.00037042 -0.00062249 0.00045879
-0.0043059 0.0007009 0.24868 0.059024 -0.0010594 0.0060029 0.0015914 0.0003708
0.0015402 -0.0010665 0.00056721 0.00022157
0.0027502 0.0016558 -0.0010256 0.0060144 0.019268 -0.23253 -0.0012535 -0.0015
0.0021595 -0.0012295 0.001741 0.0012787
-0.0024164 0.0038 0.001593 0.00036128 -0.0012607 -0.0015087 0.057949 -0.17748
-0.0010689 0.0035109 -0.00026272 0.0020665
0.0012569 0.0003672 0.0015288 -0.0010866 0.002158 -0.0012462 -0.0010477 0.0035364
0.24984 -0.03362 0.00089593 -0.0033414
