!Keysight Technologies,M9804A,MY58100912,A.14.10.03
!Date: Thursday, April 27, 2023 10:28:33
!Correction: S11(C  6-Port  ) 
!S12(C  6-Port  ) 
!S13(C  6-Port  ) 
!S14(C  6-Port  ) 
!S15(C  6-Port  ) 
!S16(C  6-Port  ) 
!S21(C  6-Port  ) 
!S22(C  6-Port  ) 
!S23(C  6-Port  ) 
!S24(C  6-Port  ) 
!S25(C  6-Port  ) 
!S26(C  6-Port  ) 
!S31(C  6-Port  ) 
!S32(C  6-Port  ) 
!S33(C  6-Port  ) 
!S34(C  6-Port  ) 
!S35(C  6-Port  ) 
!S36(C  6-Port  ) 
!S41(C  6-Port  ) 
!S42(C  6-Port  ) 
!S43(C  6-Port  ) 
!S44(C  6-Port  ) 
!S45(C  6-Port  ) 
!S46(C  6-Port  ) 
!S51(C  6-Port  ) 
!S52(C  6-Port  ) 
!S53(C  6-Port  ) 
!S54(C  6-Port  ) 
!S55(C  6-Port  ) 
!S56(C  6-Port  ) 
!S61(C  6-Port  ) 
!S62(C  6-Port  ) 
!S63(C  6-Port  ) 
!S64(C  6-Port  ) 
!S65(C  6-Port  ) 
!S66(C  6-Port  ) 
!S6P File: Measurement: :
# Hz S  RI   R 50
500000000 -0.33573 -0.05215 -0.010142 -0.0015128 -0.00847 0.012825 -0.0045257 0.012745
0.012078 0.0049865 -0.0045717 0.0090192
-0.010549 -0.0016162 -0.41688 -0.062267 0.0076477 -0.010618 0.0012025 0.01267
0.0074111 0.0024087 0.00054494 0.01414
-0.0085113 0.01347 0.0076364 -0.010733 -0.26769 0.20038 0.0066931 0.0037404
-0.0020889 0.0088631 0.00032665 0.01223
-0.0039228 0.012638 0.0013173 0.01277 0.0065599 0.0037554 -0.33347 0.044241
-0.017656 -0.0040024 0.014306 0.025373
0.011191 0.004886 0.0075209 0.0024509 -0.001948 0.0088902 -0.017878 -0.0040496
-0.2507 -0.1923 -0.02475 0.0051134
-0.0037431 0.0094426 0.00058983 0.014093 0.00025031 0.012223 0.01456 0.025218
-0.024749 0.0051491 -0.27701 -0.1162
560000000 -0.31855 0.11357 -0.023507 -0.064738 0.0012807 0.012657 0.0051756 0.011167
0.01025 0.0044994 0.011184 0.0083902
-0.023781 -0.064077 -0.37568 0.10192 -0.042524 -0.037828 0.014533 0.0030222
-0.014809 -0.0049602 0.0045046 -0.00041384
0.00025764 0.012823 -0.042644 -0.037913 -0.18534 0.25238 0.00020151 -0.0039106
0.020112 0.0041935 0.0077668 -0.0042522
0.0049767 0.011579 0.01445 0.0035444 0.00022047 -0.0041257 -0.30661 0.13556
0.0043045 -0.023833 0.0056576 -0.021377
0.010814 0.004895 -0.015076 -0.0046913 0.02013 0.004198 0.0043065 -0.023599
-0.30982 -0.010807 0.0063413 -0.048281
0.010219 0.0083073 0.0048002 -0.00053108 0.007778 -0.0042981 0.0058121 -0.021513
0.0063595 -0.048333 -0.33108 0.028511
620000000 -0.27685 0.094698 -0.022998 0.0090752 0.0038395 0.0096156 0.0091089 -0.0039858
0.012378 -0.0012909 0.0018271 -0.0012735
-0.022858 0.0091486 -0.40358 0.050514 -0.018282 0.00083667 -0.0014281 -0.0022246
0.01225 -0.0060342 0.0010719 -0.0032845
0.0038166 0.0099048 -0.018249 0.00090349 -0.1552 0.26228 -0.000385 -0.0052063
-0.0024102 -0.0030643 0.0089712 -0.0031794
0.0082261 -0.0043399 -0.001573 -0.0023397 -0.00082545 -0.0050229 -0.26584 0.14795
-0.037995 -0.01958 0.01228 0.027122
0.013042 -0.00050948 0.012303 -0.0058276 -0.0024017 -0.0031952 -0.03811 -0.019554
-0.23262 -0.044799 -0.039543 0.011879
0.0014696 -0.0016172 0.00091409 -0.0034941 0.0089915 -0.003184 0.012092 0.027271
-0.039575 0.011833 -0.25418 -0.0020822
680000000 -0.23874 0.18541 -0.026124 -0.014054 0.005447 0.005398 0.0018381 -0.0072895
-0.0022049 -0.011706 0.0055433 -0.0074783
-0.026285 -0.014057 -0.38955 0.15141 -0.032113 -0.0018371 -0.001435 -0.00052666
-0.0016628 -0.0097325 -0.0010865 -0.001623
0.0052916 0.005054 -0.032172 -0.001758 -0.10319 0.28162 -0.0010034 -0.00047665
-0.0016328 -2.7735e-05 -0.0025628 -0.0091477
0.0017415 -0.0076468 -0.0015005 -0.00048306 -0.00098747 -0.00041008 -0.22028 0.19778
-0.0233 -0.0075218 -0.0082307 -0.010697
-0.0028634 -0.011994 -0.0017827 -0.0097462 -0.0016261 -1.8707e-05 -0.023383 -0.0073529
-0.27847 0.059237 -0.0077414 -0.0076477
0.0047926 -0.0074354 -0.0011068 -0.0016403 -0.0026108 -0.0091576 -0.0081068 -0.010674
-0.0077191 -0.0076693 -0.25857 0.099731
740000000 -0.19318 0.17857 -0.039073 0.027227 0.013739 -0.005167 -7.6413e-05 -0.0040422
-0.0047782 -0.0030967 -0.0061565 0.0034228
-0.039732 0.026912 -0.33493 0.16976 -0.036339 0.034621 -0.00029985 -0.006154
-0.012126 0.0067246 -0.0017466 -0.0060729
0.013937 -0.0054012 -0.03622 0.034782 -0.069549 0.27909 -0.0020143 0.0031322
-0.0030613 -0.0050649 -0.00098252 0.00098192
-0.00025283 -0.004014 -0.00040986 -0.0061487 -0.0020018 0.0031768 -0.20304 0.20503
-0.042829 -0.0067384 0.022264 0.014059
-0.003699 -0.0031302 -0.012227 0.0070174 -0.0029692 -0.0050823 -0.042862 -0.0068332
-0.17815 0.082277 -0.041819 0.0025332
-0.0070367 0.003425 -0.0016797 -0.0063749 -0.00095624 0.00097387 0.02227 0.014044
-0.041796 0.0025754 -0.24743 0.10618
800000000 -0.16108 0.22175 -0.022405 0.016545 0.0057966 -0.010369 -0.0045954 -0.002029
-0.0043239 0.0023222 0.0033681 0.00089225
-0.022413 0.016432 -0.34062 0.24038 -0.0083826 0.034101 -0.0024055 0.0022318
-0.0010637 0.0027396 0.0002354 0.0054731
0.0057648 -0.010371 -0.0082932 0.03414 -0.03053 0.30243 0.00072527 0.0016339
7.1379e-05 0.0036139 -0.0018154 0.0011264
-0.004546 -0.0021616 -0.0024133 0.0022346 0.00072325 0.0016142 -0.1733 0.23276
-0.028068 0.012868 0.01336 -0.010029
-0.0046281 0.0022308 -0.0012169 0.0027727 7.7931e-05 0.0036361 -0.028142 0.012925
-0.21985 0.11451 -0.01633 0.01925
0.0035696 0.0010478 0.00034482 0.0058238 -0.0017904 0.0011459 0.013353 -0.010021
-0.016354 0.019252 -0.23991 0.15599
860000000 -0.12628 0.2416 -0.017475 0.030264 -0.0027543 -0.01037 -0.0018007 0.00075562
0.0039831 0.004843 -0.0031664 -0.0022964
-0.017466 0.030338 -0.29221 0.28251 0.0075123 0.034304 0.0001688 0.0021864
0.0036648 0.0007278 0.0032485 0.00036962
-0.0027897 -0.010348 0.007618 0.03432 0.016602 0.31051 -0.00061997 -6.9621e-06
0.0023726 -0.0012378 0.0016713 0.0041457
-0.0018232 0.00064556 9.6234e-05 0.0020565 -0.00062988 -4.0741e-05 -0.13731 0.243
-0.018268 0.017683 -0.0061906 -0.008625
0.0038569 0.0051726 0.0037098 0.000789 0.002414 -0.0012461 -0.018091 0.017908
-0.16382 0.16225 -0.024418 0.0182
-0.0035974 -0.0026861 0.0031718 0.00034792 0.0016604 0.0041512 -0.0061256 -0.0087001
-0.024437 0.018192 -0.18816 0.1975
920000000 -0.10313 0.26454 0.0044976 0.038047 -0.0095664 -0.0052418 -0.0021633 0.0017355
0.0012028 0.0023238 0.0032006 -0.0014238
0.0045718 0.037973 -0.26513 0.30374 0.027936 0.022565 0.0014417 0.0014948
0.0073249 -0.00012139 0.0045202 -0.0026037
-0.0095046 -0.0051461 0.028069 0.022503 0.061867 0.31208 0.0018842 2.6186e-05
0.001016 -8.4729e-05 0.00092959 -0.001356
-0.0018834 0.0015529 0.0014694 0.0015278 0.0019045 -4.2238e-06 -0.11227 0.25955
-0.010724 0.030306 0.003626 -0.0068794
0.001002 0.0022278 0.0071773 -0.00014619 0.0010187 -8.9615e-05 -0.01067 0.030376
-0.15343 0.17121 -0.0010548 0.026183
0.0032468 -0.0015245 0.0046276 -0.0025326 0.00089709 -0.0013354 0.0036495 -0.0068941
-0.0010544 0.026184 -0.19327 0.21301
980000000 -0.056258 0.2844 0.016865 0.030054 -0.0095606 0.0041779 0.0017505 0.0037313
0.0042844 -0.0017384 -0.0031291 -0.0025172
0.016951 0.029891 -0.21226 0.3383 0.033329 0.005389 0.0020374 -7.9302e-05
0.0018601 -0.0060068 -0.00029329 -0.0026848
-0.009526 0.0041824 0.033371 0.0053145 0.10772 0.3065 0.00061303 -0.0011374
0.00044839 -0.0020921 0.0013693 -0.00024564
0.0017162 0.003664 0.0020666 -8.3226e-05 0.00059748 -0.0011411 -0.074316 0.27057
0.0074297 0.029533 -0.0088785 -0.0068047
0.0041262 -0.0018946 0.0018267 -0.0060601 0.00045039 -0.0021051 0.0075067 0.029585
-0.11692 0.19882 0.0060502 0.019035
-0.0031776 -0.0023056 -0.00036822 -0.0026545 0.0013849 -0.00025312 -0.0088652 -0.0068163
0.0060355 0.01901 -0.15023 0.25545
1040000000 -0.015361 0.29363 0.032858 0.018751 -0.0017422 0.006952 0.0025849 0.00096049
0.00036672 -0.0034184 -0.00020234 -0.0014947
0.032842 0.018697 -0.17731 0.35177 0.030089 -0.014694 0.0017589 -0.0017584
-0.0020797 -0.0027946 -0.00089716 -0.0028354
-0.0016603 0.007028 0.030035 -0.014807 0.15352 0.29379 -0.00052752 -0.0016836
-0.0015841 -0.00094761 -0.00058951 -0.0010558
0.0025422 0.00087508 0.0016997 -0.0017991 -0.00050269 -0.0016857 -0.047064 0.28002
0.019315 0.018533 -0.002408 0.00093481
0.00069398 -0.0034698 -0.0020594 -0.0028289 -0.0016032 -0.00091431 0.019364 0.018489
-0.085519 0.20409 0.014521 0.018182
-0.00032122 -0.0014664 -0.00094357 -0.0029074 -0.00059411 -0.0010512 -0.0024176 0.00094794
0.014514 0.018167 -0.12734 0.27512
1100000000 0.029534 0.30248 0.036306 -0.0036846 0.0027415 0.0041581 0.0023731 -0.0010753
-0.0021341 -0.003259 -0.0040981 -0.00017902
0.036225 -0.0036866 -0.13429 0.36979 0.015897 -0.028064 9.1457e-05 -0.0018942
-0.0037436 -0.0010044 -0.0036801 -0.00061255
0.0026642 0.0041381 0.015806 -0.028149 0.20001 0.27442 -0.0019158 0.00015162
-0.0018026 0.00049482 -0.0010997 -0.00034653
0.0024689 -0.0010717 8.8332e-05 -0.0018466 -0.0019409 0.00015293 -0.0070473 0.28485
0.024861 0.0048968 -0.0025694 5.4874e-05
-0.0019332 -0.003102 -0.0037617 -0.0010174 -0.0018024 0.00049714 0.024833 0.0048763
-0.0634 0.21763 0.019939 0.0073095
-0.0039863 -0.00030821 -0.0036467 -0.0005573 -0.0010892 -0.00035885 -0.0026326 6.2013e-05
0.019922 0.0073234 -0.081912 0.30338
1160000000 0.08036 0.29882 0.024392 -0.020729 0.0026243 -0.00026872 2.1485e-05 -0.0023421
-0.0038869 -0.0008105 -0.0011486 0.0040258
0.024374 -0.020756 -0.091277 0.37463 -0.0034164 -0.029798 -0.0016532 -0.0017551
-0.0029576 0.0026719 -0.0014629 0.001977
0.0026091 -0.00027098 -0.0035597 -0.029806 0.24329 0.24411 -0.00076909 0.0018588
-0.00052014 0.002023 -0.00086913 0.00039852
-2.4104e-05 -0.002376 -0.001668 -0.0017867 -0.00077984 0.0018589 0.031839 0.28249
0.020826 -0.010683 -0.0034024 0.0049993
-0.0039382 -0.00091935 -0.0029237 0.0027074 -0.00052771 0.002027 0.020809 -0.010717
-0.029769 0.22374 0.018496 -0.0011433
-0.0010187 0.0041566 -0.0014249 0.0019229 -0.00085099 0.00041802 -0.0033961 0.0050281
0.018484 -0.0011704 -0.035278 0.30587
1220000000 0.12447 0.28914 0.010788 -0.030317 -0.0016841 -0.00071694 0.00013502 -0.00094097
-0.0027003 0.0022739 0.0013102 0.0020934
0.010755 -0.03031 -0.047061 0.38798 -0.017132 -0.021881 -0.0027171 0.00046933
-1.9823e-05 0.003281 -0.00076361 0.0019493
-0.0017025 -0.00067528 -0.017252 -0.02182 0.28252 0.20558 0.00080384 0.0017818
0.00062755 0.0012045 0.0002329 0.00056761
0.00011583 -0.00096665 -0.0027286 0.00048631 0.00077505 0.0017843 0.072034 0.27433
0.010579 -0.017371 0.0016725 0.0016897
-0.0027202 0.0022799 3.6796e-05 0.0032877 0.00062187 0.001192 0.010546 -0.017387
-0.0061025 0.23245 0.013452 -0.013673
0.0011805 0.0021855 -0.00078535 0.0019429 0.00024271 0.00056982 0.0016717 0.0017102
0.013455 -0.013672 -0.0028815 0.31997
1280000000 0.17475 0.26859 -0.0080562 -0.028919 -0.0019192 0.0026845 -0.00082096 -0.002176
-0.00073356 0.0032235 0.002591 0.0012701
-0.0080798 -0.028954 -0.00090821 0.37969 -0.024427 -0.008936 -0.0010113 0.001548
0.0019138 0.0018433 0.00061626 0.0020871
-0.0019611 0.0026649 -0.02449 -0.0088391 0.31309 0.16193 0.0016731 -5.5623e-05
0.0013774 0.0002641 0.00045837 0.00020262
-0.00079327 -0.0021019 -0.00099581 0.001555 0.0016763 -4.8347e-05 0.10901 0.25819
0.00048898 -0.019584 -0.00025564 0.0005266
-0.0007486 0.0032384 0.0018902 0.0018423 0.001375 0.00026565 0.00045013 -0.019579
0.030661 0.23456 0.0024831 -0.015937
0.0026125 0.0012494 0.00067674 0.0020697 0.00045426 0.00019441 -0.00024334 0.0005496
0.0025 -0.015934 0.043583 0.32056
1340000000 0.2122 0.23587 -0.01793 -0.019043 0.00093431 0.0048993 -0.0018866 -0.00093841
0.0014837 0.0027104 0.0018979 -0.0013233
-0.017932 -0.018996 0.038825 0.37221 -0.022195 0.0043218 -9.1118e-05 0.0021118
0.0021091 0.00070668 0.0012851 0.00083507
0.00097707 0.0048686 -0.022192 0.0044314 0.33499 0.11502 0.0011584 -0.00098183
0.00067387 -0.00060787 0.00012485 0.0002527
-0.0019096 -0.00097195 -7.2716e-05 0.00211 0.0011669 -0.00098337 0.14244 0.23795
-0.0089041 -0.016523 0.00080803 0.00063769
0.0015384 0.0026872 0.002126 0.00068762 0.00066419 -0.00060367 -0.0089412 -0.01651
0.06059 0.23009 -0.0046325 -0.014276
0.0018099 -0.0014123 0.0012658 0.00080688 0.00013276 0.00024636 0.00083245 0.00060331
-0.0046362 -0.014284 0.082023 0.31477
1400000000 0.24625 0.19862 -0.023775 -0.0072291 0.0055251 0.0034299 -0.0023397 0.00062482
0.0024927 0.00094877 0.00021857 -0.0015998
-0.023776 -0.0072186 0.076629 0.35968 -0.015363 0.012857 0.0014172 0.0012903
0.0013495 -0.0009613 0.0011607 0.00015023
0.0055132 0.0033989 -0.015319 0.012949 0.34841 0.062118 1.2e-05 -0.0016857
5.9183e-05 -0.00036107 0.00029508 0.00023793
-0.0022861 0.00064808 0.0014198 0.0012984 2.5045e-05 -0.0016727 0.17233 0.20892
-0.014907 -0.0095779 -0.00076365 8.8673e-05
0.0025115 0.00094049 0.0013362 -0.00099918 5.0385e-05 -0.00036775 -0.01494 -0.0095496
0.09378 0.22538 -0.011008 -0.0088939
0.0002681 -0.0016189 0.0011612 0.00015493 0.00031145 0.00023625 -0.00076139 9.7925e-05
-0.011008 -0.008887 0.12568 0.30326
1460000000 0.26971 0.15483 -0.020426 0.0052576 0.0060425 -0.0018474 -0.0016164 0.0018484
0.0022811 -0.0004945 -0.00045733 -0.0010252
-0.02039 0.0052337 0.1112 0.33798 -0.0062499 0.01604 0.0017637 9.954e-05
0.00082069 -0.0014899 0.0011788 -0.00059603
0.0060844 -0.0018927 -0.0061649 0.016094 0.35517 0.0084077 -0.0012511 -0.0012769
0.00022905 -0.00030242 0.00060674 -0.00028855
-0.0016235 0.0018347 0.0017578 8.9309e-05 -0.0012504 -0.0012683 0.19914 0.17929
-0.016014 -0.0025487 -0.00062856 0.0020277
0.0022453 -0.00048403 0.00079366 -0.0014873 0.00023346 -0.00030075 -0.016036 -0.0025253
0.12279 0.21078 -0.012825 -0.0023508
-0.00047346 -0.0010093 0.0011871 -0.00056632 0.00060894 -0.00029715 -0.00066665 0.0020069
-0.0128 -0.0023618 0.15846 0.28202
1520000000 0.28264 0.11343 -0.014523 0.010671 0.0037141 -0.0044603 0.000211 0.0026208
0.002169 -0.0020162 -0.0011688 -0.00028957
-0.014491 0.010657 0.14495 0.32362 0.0018704 0.013601 0.0015995 -0.00083077
-8.5671e-05 -0.0010754 0.00035976 -0.0010663
0.0036603 -0.0045223 0.0019366 0.013598 0.34899 -0.04708 -0.0011475 -0.00031539
0.00060774 -0.00080115 0.00018331 -0.00018841
0.00018475 0.0026512 0.0016024 -0.00084059 -0.0011436 -0.00030253 0.22283 0.14078
-0.014809 0.0033125 0.001643 0.0020479
0.0021647 -0.0021467 -8.1289e-05 -0.0010703 0.00060871 -0.00080429 -0.014801 0.0033453
0.15144 0.1974 -0.012323 0.002314
-0.0012958 -0.00020318 0.0003652 -0.0011043 0.00019151 -0.00019419 0.0016468 0.0020403
-0.012337 0.0023055 0.19052 0.26081
1580000000 0.29273 0.06701 -0.0076488 0.013605 -0.00086483 -0.0053764 0.0015823 0.0018635
-0.00023388 -0.0022367 -0.00027076 0.0005013
-0.0076223 0.013607 0.17254 0.29883 0.0057672 0.0084647 0.0004885 -0.0015649
-0.00062543 -0.00091822 -0.00021055 -0.00088614
-0.00089655 -0.0053431 0.0058166 0.0084363 0.3298 -0.10488 -0.0015825 0.00062596
-0.00032643 -0.0012711 0.00017508 -0.00056566
0.0016143 0.0019074 0.00047682 -0.0015819 -0.0015938 0.00062714 0.23665 0.10066
-0.011157 0.0079673 0.0023076 0.00064346
-0.00021118 -0.0021685 -0.00062777 -0.00094735 -0.00032341 -0.0012639 -0.011167 0.0080021
0.1756 0.17904 -0.0095696 0.0080443
-0.00026152 0.0004116 -0.00024559 -0.00086166 0.00017339 -0.00056327 0.0023299 0.00063922
-0.0095749 0.0080342 0.222 0.2344
1640000000 0.29503 0.02584 -0.0008869 0.012174 -0.0030795 -0.0029126 0.0027459 0.00097774
-0.00086631 -0.0015566 -0.00024755 0.00055965
-0.00084259 0.012169 0.20206 0.27424 0.0063195 0.0033036 -0.00063818 -0.0017407
-0.00095804 -0.00033076 -0.00052161 -0.00071583
-0.0030701 -0.0028668 0.0063571 0.003276 0.30212 -0.15419 -0.00062476 0.0014803
-0.0010984 -0.00097294 -0.00020502 -0.00034968
0.0027113 0.00091508 -0.00064667 -0.0017383 -0.00063562 0.0014987 0.24878 0.051488
-0.0067109 0.0092213 0.00269 -0.00091797
-0.00091418 -0.0016427 -0.00095931 -0.00029633 -0.0011325 -0.00095974 -0.006696 0.009245
0.19891 0.15529 -0.0043205 0.010107
-0.00030923 0.00072272 -0.00051673 -0.00072743 -0.00018297 -0.00035728 0.0026819 -0.00091953
-0.0043184 0.010094 0.24695 0.20303
1700000000 0.28831 -0.0195 0.0023728 0.0090925 -0.003894 -5.5721e-05 0.0030457 -0.0012544
-0.0020991 -0.00060779 0.00063361 0.00045565
0.002394 0.0090641 0.22054 0.24291 0.0041587 0.00019188 -0.0014966 -0.00056411
-0.00076759 2.8766e-05 -0.00090887 -0.00046177
-0.0039075 -5.32e-06 0.0041675 0.00018516 0.25919 -0.19429 0.00049184 0.0016197
-0.002118 4.0693e-05 -0.00035047 -0.00093876
0.0030975 -0.0012251 -0.0015 -0.0005431 0.00046769 0.0016397 0.24544 0.0012633
-0.0037753 0.0094741 0.0015344 -0.0024075
-0.0020438 -0.00054835 -0.00075684 2.2524e-05 -0.0021112 6.7764e-05 -0.0037621 0.0094817
0.21669 0.13447 0.00033721 0.010078
0.00067493 0.00024447 -0.00091858 -0.00045971 -0.00035177 -0.00093918 0.0015304 -0.002412
0.00033081 0.01008 0.2629 0.16913
1760000000 0.27642 -0.068158 0.0045161 0.0057146 -0.0025533 0.0011494 0.0012784 -0.0033991
-0.0014333 0.0007359 0.00025928 -0.00072516
0.0045234 0.0057075 0.2467 0.20328 0.0016886 -0.0016065 -0.0011581 0.00019304
-0.0010353 0.00084766 -0.00065616 0.00031999
-0.0025551 0.0011902 0.001683 -0.0015939 0.21078 -0.22758 0.0010922 0.0010469
-0.0011995 0.001563 -0.001303 -0.0006525
0.0012399 -0.0034613 -0.0011638 0.0002033 0.0011198 0.0010415 0.2358 -0.050695
-0.00073107 0.0081101 -0.00031857 -0.0026034
-0.0014634 0.00077842 -0.0010103 0.00083642 -0.0011961 0.0015859 -0.0007061 0.0081199
0.23145 0.099166 0.0043762 0.0074656
0.00029368 -0.00064887 -0.00064096 0.00031602 -0.0013155 -0.00063173 -0.00030672 -0.0026032
0.0043728 0.0074676 0.27573 0.13145
1820000000 0.25218 -0.10542 0.0043557 0.0021248 -0.00038236 0.0024739 -0.0010699 -0.0031262
-0.0010726 0.0010481 -0.00026347 -4.9854e-05
0.0043446 0.0020973 0.25713 0.17335 -0.00072684 -0.00053928 -0.0013667 0.00091097
-0.00017078 0.0012086 -0.00068083 0.00061326
-0.00031553 0.0024689 -0.00073176 -0.000525 0.16048 -0.24376 0.0014684 0.00055683
-0.00022368 0.0024938 -0.0014907 0.00051972
-0.0010665 -0.003122 -0.0013537 0.00093457 0.0014676 0.00057531 0.20545 -0.097522
0.00059218 0.0070043 -0.0016601 -0.0016273
-0.0010386 0.0010242 -0.00017926 0.0012263 -0.00022022 0.002487 0.00061519 0.0069996
0.24868 0.070561 0.0053575 0.0037593
-0.00025103 -8.115e-05 -0.00065533 0.00062771 -0.0015262 0.00051728 -0.0016734 -0.0016432
0.0053601 0.0037506 0.27752 0.094966
1880000000 0.21719 -0.14599 0.0020447 -9.5632e-05 -0.00049471 0.0022776 -0.0029348 -0.0021913
-0.00020414 0.0018058 0.00015312 -0.00041612
0.0020013 -0.00011261 0.26192 0.12664 -0.0027332 0.001503 -0.00024162 0.0017936
0.00044694 0.0013881 0.00010435 0.00093313
-0.00045755 0.0023171 -0.0027296 0.0015201 0.10827 -0.25359 0.0019291 -0.0007093
0.0016686 0.0020365 -0.00088615 0.0013192
-0.0028902 -0.0021907 -0.00023451 0.0018185 0.0019257 -0.00073203 0.16421 -0.13796
0.0012741 0.0048175 -0.0027049 0.00021053
-9.4164e-05 0.0018449 0.0004784 0.0013965 0.0016397 0.0020194 0.0012909 0.0048266
0.25256 0.038151 0.0054433 0.0011079
6.8625e-05 -0.00049423 0.00013528 0.00092583 -0.00090286 0.0013149 -0.0027202 0.00025854
0.0054377 0.0011134 0.27759 0.06105
1940000000 0.17791 -0.17161 -0.00052182 -0.0015209 0.0013753 0.0022976 -0.0037468 0.00048583
0.0013668 0.0011259 -0.00040155 -0.00051425
-0.00053116 -0.0015463 0.26255 0.094845 -0.0017049 0.0040949 0.0010664 0.0013452
0.0018931 0.0006576 0.001027 0.00046134
0.0013779 0.0022944 -0.0016616 0.0040993 0.062052 -0.24637 0.00055151 -0.0022653
0.0024279 0.00026041 0.00058534 0.0017175
-0.0038064 0.0004053 0.0010706 0.0013332 0.0005655 -0.0022876 0.11123 -0.16799
0.00021438 0.0035078 -0.0015831 0.0017416
0.0013327 0.0010176 0.0018912 0.00060907 0.0024472 0.00024136 0.00022638 0.0035075
0.25491 -0.00031918 0.0039827 -0.0021667
-0.00034983 -0.00042369 0.0010229 0.00048226 0.00058613 0.0016895 -0.0015809 0.0017506
0.0039876 -0.0021521 0.26622 0.024372
2000000000 0.13197 -0.18631 -0.0043341 0.00075678 0.0027794 0.0016665 -0.0025576 0.0037685
0.0011188 0.00027406 -0.00059132 0.00068733
-0.0043398 0.00070257 0.24868 0.059128 -0.0010296 0.006005 0.001555 0.0004589
0.0014594 -0.00099791 0.00068554 0.00029641
0.0027251 0.0016532 -0.00099148 0.0060281 0.01935 -0.23254 -0.0013042 -0.0015207
0.0022026 -0.0011386 0.0018855 0.0012892
-0.0023911 0.0038541 0.0015717 0.00044725 -0.0012571 -0.0015247 0.058067 -0.17728
-0.0011199 0.0036986 -9.3071e-05 0.0021658
0.0012735 0.00036835 0.0014602 -0.00098431 0.0022017 -0.0011615 -0.0010749 0.0037242
0.24978 -0.033409 0.00085113 -0.0032005
