!Keysight Technologies,M9804A,MY58100912,A.14.10.03
!Date: Thursday, April 27, 2023 10:28:33
!Correction: S11(C  6-Port  ) 
!S12(C  6-Port  ) 
!S13(C  6-Port  ) 
!S14(C  6-Port  ) 
!S15(C  6-Port  ) 
!S16(C  6-Port  ) 
!S21(C  6-Port  ) 
!S22(C  6-Port  ) 
!S23(C  6-Port  ) 
!S24(C  6-Port  ) 
!S25(C  6-Port  ) 
!S26(C  6-Port  ) 
!S31(C  6-Port  ) 
!S32(C  6-Port  ) 
!S33(C  6-Port  ) 
!S34(C  6-Port  ) 
!S35(C  6-Port  ) 
!S36(C  6-Port  ) 
!S41(C  6-Port  ) 
!S42(C  6-Port  ) 
!S43(C  6-Port  ) 
!S44(C  6-Port  ) 
!S45(C  6-Port  ) 
!S46(C  6-Port  ) 
!S51(C  6-Port  ) 
!S52(C  6-Port  ) 
!S53(C  6-Port  ) 
!S54(C  6-Port  ) 
!S55(C  6-Port  ) 
!S56(C  6-Port  ) 
!S61(C  6-Port  ) 
!S62(C  6-Port  ) 
!S63(C  6-Port  ) 
!S64(C  6-Port  ) 
!S65(C  6-Port  ) 
!S66(C  6-Port  ) 
!S6P File: Measurement: :
# Hz S  RI   R 50
500000000 -0.33502 -0.051057 -0.0099871 -0.0012083 -0.0082812 0.013416 -0.0042688 0.011752
0.012025 0.0050811 -0.0046827 0.0077248
-0.0099088 -0.0012235 -0.41701 -0.061693 0.0078776 -0.01053 0.0013069 0.012382
0.0075192 0.0028191 0.0014567 0.013958
-0.0082179 0.013276 0.0078878 -0.010491 -0.26725 0.20043 0.0072417 0.003529
-0.0021648 0.0089216 0.0013219 0.012755
-0.0040294 0.011776 0.0013502 0.012403 0.0071583 0.003557 -0.33246 0.044661
-0.018935 -0.0051792 0.016053 0.026554
0.01174 0.0046995 0.0076033 0.0026726 -0.0017957 0.0092198 -0.018718 -0.0051309
-0.24897 -0.19222 -0.026034 0.0034294
-0.0038521 0.0079942 0.0011318 0.013761 0.00088358 0.012502 0.015446 0.025778
-0.026083 0.0036546 -0.27419 -0.11383
560000000 -0.31813 0.1145 -0.023359 -0.064231 0.00025797 0.012717 0.0057801 0.011612
0.010189 0.0042196 0.010368 0.0090198
-0.023388 -0.064119 -0.37516 0.10089 -0.042376 -0.03763 0.013571 0.0034075
-0.014269 -0.0042331 0.0035697 -0.00025002
0.00030794 0.012729 -0.042414 -0.037605 -0.1847 0.25134 0.00021313 -0.0043587
0.019476 0.0044373 0.008037 -0.0049988
0.0058336 0.011745 0.013697 0.0033755 0.00010408 -0.0042145 -0.30685 0.13725
0.0074018 -0.024107 0.0047389 -0.020799
0.010232 0.0046039 -0.014331 -0.0037089 0.01934 0.0045164 0.0075313 -0.02445
-0.31066 -0.014462 0.008824 -0.04829
0.010699 0.0090732 0.004015 -0.0010034 0.0079698 -0.0045658 0.0044989 -0.020581
0.0088493 -0.048284 -0.33133 0.029288
620000000 -0.2772 0.094209 -0.022892 0.0088312 0.0037129 0.0095492 0.0083082 -0.005398
0.013247 -0.001078 0.0016177 -0.0024685
-0.022911 0.0088384 -0.40331 0.050786 -0.018335 0.00087151 -0.001642 -0.0026292
0.012119 -0.0057971 0.0015102 -0.0032172
0.0039463 0.0095576 -0.018327 0.00093583 -0.15512 0.26158 -0.0012018 -0.0055721
-0.0028072 -0.0031681 0.0090611 -0.0035272
0.00838 -0.0054684 -0.0015731 -0.0024546 -0.00099122 -0.0054162 -0.26554 0.14718
-0.037501 -0.019647 0.012001 0.026741
0.013117 -0.0014117 0.012254 -0.0061041 -0.0027363 -0.0032124 -0.037956 -0.019161
-0.23211 -0.043877 -0.03899 0.012588
0.0010951 -0.0031542 0.0012299 -0.003429 0.0090413 -0.0032712 0.011628 0.027117
-0.038611 0.012186 -0.25491 -0.0012539
680000000 -0.23868 0.18432 -0.026331 -0.014369 0.0051428 0.0054198 0.0014436 -0.0071838
-0.0021576 -0.01175 0.0048149 -0.0069179
-0.026294 -0.014369 -0.38954 0.15114 -0.03255 -0.0019392 -0.0011313 -0.00070152
-0.0018103 -0.0095469 -0.0011429 -0.0017364
0.0051616 0.0054444 -0.032608 -0.0018235 -0.10375 0.28131 -0.00076733 -0.00036008
-0.0018376 0.00036488 -0.0027441 -0.0093392
0.0014028 -0.0071704 -0.0011707 -0.00060198 -0.00076917 -0.00030626 -0.22076 0.19785
-0.023409 -0.007529 -0.0088826 -0.011364
-0.002289 -0.011802 -0.001802 -0.0096095 -0.0017529 0.00023856 -0.02321 -0.0075847
-0.27817 0.058441 -0.0072258 -0.0073979
0.004841 -0.0071487 -0.0011245 -0.0016027 -0.0028471 -0.0092927 -0.0088194 -0.011521
-0.0071101 -0.0074458 -0.25888 0.096349
740000000 -0.1932 0.17872 -0.039656 0.0268 0.013427 -0.0048758 -0.00057085 -0.0041025
-0.0043676 -0.0027381 -0.0063161 0.0034841
-0.039569 0.026715 -0.33468 0.16929 -0.036296 0.035074 -0.00018434 -0.0062896
-0.012227 0.0079225 -0.0015771 -0.0061045
0.013441 -0.004952 -0.036331 0.035282 -0.069952 0.27895 -0.0019718 0.0033379
-0.0026935 -0.0053302 -0.0016838 0.0010267
-0.00055865 -0.0042366 -6.7296e-05 -0.0064076 -0.0019727 0.0032752 -0.20373 0.205
-0.042771 -0.0069363 0.021925 0.014557
-0.0043138 -0.0026721 -0.012323 0.0081026 -0.0026092 -0.0053224 -0.042774 -0.0069443
-0.17908 0.082213 -0.041484 0.0010629
-0.0063939 0.003404 -0.0016657 -0.0062923 -0.0017334 0.00093767 0.021903 0.014575
-0.041336 0.0012511 -0.24786 0.10534
800000000 -0.16137 0.2219 -0.022469 0.016216 0.0056905 -0.010532 -0.0045558 -0.002156
-0.0045203 0.0023104 0.0040065 0.00054732
-0.022482 0.016214 -0.34052 0.24028 -0.0084676 0.034237 -0.0022642 0.0020938
-0.0010265 0.002722 0.00081583 0.0055065
0.0056572 -0.01052 -0.0083731 0.034321 -0.030974 0.30259 0.00079831 0.0013525
-0.00010558 0.0036452 -0.0019757 0.00062205
-0.0045765 -0.0021432 -0.0022498 0.0021341 0.00080018 0.0013537 -0.17377 0.23233
-0.028363 0.013135 0.013447 -0.010416
-0.0045812 0.00236 -0.0011224 0.0027987 -4.0399e-05 0.0036409 -0.028394 0.013275
-0.22 0.11298 -0.016909 0.019776
0.0041036 0.00061297 0.00079813 0.0054406 -0.0020098 0.00068091 0.013422 -0.01046
-0.01695 0.019794 -0.23913 0.15406
860000000 -0.12666 0.24143 -0.017894 0.030351 -0.0028845 -0.010361 -0.0018885 0.00069478
0.003846 0.0050543 -0.003363 -0.0026845
-0.017887 0.030336 -0.29259 0.28281 0.0075948 0.034624 -4.0787e-05 0.0019574
0.0037295 0.00076252 0.0034637 0.00050537
-0.0029006 -0.010355 0.0076782 0.034644 0.016496 0.31101 -0.00067238 -0.00012711
0.002383 -0.0014735 0.001735 0.0043398
-0.0018451 0.0006836 -0.00010456 0.0019169 -0.00069431 -0.00012385 -0.13764 0.24316
-0.018108 0.018134 -0.0062226 -0.0087861
0.0036237 0.005032 0.003432 0.00058832 0.0023591 -0.0013991 -0.018364 0.018008
-0.16493 0.16252 -0.023902 0.017616
-0.0032961 -0.0025195 0.0037525 0.00067236 0.0018142 0.0043585 -0.0062771 -0.0088371
-0.024108 0.017919 -0.18973 0.1976
920000000 -0.10334 0.26463 0.004492 0.038144 -0.009547 -0.0051971 -0.0020578 0.0017166
0.0011591 0.0022452 0.0030481 -0.0016363
0.0044397 0.038054 -0.26545 0.30413 0.028132 0.022712 0.0015815 0.0013396
0.0075383 -0.00027344 0.0042492 -0.0028185
-0.0095574 -0.0051783 0.028221 0.022661 0.061949 0.3126 0.0019238 6.398e-05
0.0012201 -0.00013014 0.0010421 -0.0012349
-0.0020781 0.0016101 0.0015678 0.0013815 0.0019121 5.1952e-05 -0.11257 0.25956
-0.010772 0.030849 0.0033079 -0.0068131
0.0011654 0.0022793 0.0075035 -0.00027921 0.0012261 -0.00012507 -0.010736 0.030851
-0.15261 0.16972 -0.0013729 0.027083
0.0028651 -0.0015437 0.0041202 -0.0027676 0.00098837 -0.0011885 0.0032584 -0.0067785
-0.001603 0.026976 -0.19382 0.2124
980000000 -0.056548 0.28464 0.016998 0.030215 -0.0096756 0.0042068 0.0018285 0.0035735
0.004112 -0.0016649 -0.0029307 -0.0023445
0.016976 0.030201 -0.21214 0.3388 0.033559 0.0053409 0.0020963 -9.5896e-05
0.0018445 -0.0059685 -0.0003319 -0.0024394
-0.0096413 0.0042175 0.033595 0.0052309 0.10796 0.30678 0.00062913 -0.0012278
0.00039505 -0.0019855 0.0013447 -0.00029653
0.0018653 0.0035708 0.0020383 -0.00010774 0.00061239 -0.0012183 -0.074489 0.27086
0.0073061 0.02993 -0.0089085 -0.0068711
0.0040114 -0.0016979 0.0017032 -0.006088 0.00044143 -0.0020083 0.0073713 0.029837
-0.11822 0.1979 0.0060081 0.02022
-0.0028606 -0.0024756 -0.00022033 -0.0024751 0.0014486 -0.00030156 -0.0088077 -0.0068255
0.006024 0.020045 -0.15123 0.25514
1040000000 -0.01533 0.29398 0.033069 0.018847 -0.0015888 0.0070552 0.0027055 0.00087745
0.00054559 -0.0035567 9.2767e-05 -0.0015899
0.032994 0.018875 -0.17716 0.3523 0.030234 -0.014824 0.0016773 -0.0018264
-0.0020501 -0.0028072 -0.0011647 -0.0027761
-0.0015581 0.0070578 0.030205 -0.014912 0.15394 0.29399 -0.00050845 -0.0016637
-0.0016004 -0.0010122 -0.0005475 -0.0010527
0.0026996 0.00088447 0.0016329 -0.0017621 -0.00049145 -0.0016797 -0.047281 0.28042
0.019615 0.018484 -0.0027089 0.0012357
0.00060245 -0.003582 -0.0020861 -0.0028098 -0.0015725 -0.00098789 0.019653 0.01846
-0.085419 0.20511 0.014318 0.017479
4.6853e-05 -0.0014869 -0.0012607 -0.0028937 -0.00055636 -0.0010901 -0.0027246 0.0012753
0.014397 0.0176 -0.12828 0.27535
1100000000 0.029873 0.30283 0.03651 -0.0036597 0.0027871 0.0042089 0.0023821 -0.0012126
-0.002202 -0.0031851 -0.0042049 -9.5943e-05
0.036501 -0.0036534 -0.134 0.37042 0.015871 -0.028199 4.8892e-05 -0.00188
-0.0037415 -0.0010665 -0.0037321 -0.00055655
0.0027843 0.0042004 0.015778 -0.028278 0.20047 0.27452 -0.002031 0.00015351
-0.0017996 0.00047026 -0.0010773 -0.00039384
0.0023781 -0.0011904 2.0464e-05 -0.001877 -0.0020189 0.00014445 -0.0067585 0.2854
0.025006 0.0050865 -0.0022716 0.0001928
-0.0022469 -0.003191 -0.0037751 -0.0010316 -0.001811 0.00044906 0.025047 0.0050653
-0.064322 0.21708 0.019676 0.0082279
-0.0041769 -0.00012737 -0.0037347 -0.00058688 -0.0010566 -0.0004587 -0.0022522 0.00025507
0.019594 0.0082269 -0.081832 0.30316
1160000000 0.080693 0.29897 0.024729 -0.020789 0.0028016 -0.00038941 -6.5129e-05 -0.0024107
-0.0040137 -0.00080531 -0.001021 0.0040338
0.024681 -0.020742 -0.090482 0.37535 -0.0034941 -0.029876 -0.0015945 -0.0017766
-0.002648 0.0027167 -0.0016927 0.0020381
0.0027978 -0.00039301 -0.0036334 -0.02986 0.24384 0.24407 -0.00078595 0.0018701
-0.000515 0.0019827 -0.00094125 0.0004089
-7.8141e-05 -0.0023929 -0.0016203 -0.0017599 -0.00078384 0.0018671 0.032357 0.2826
0.02133 -0.010737 -0.003384 0.0051245
-0.0040639 -0.00076801 -0.0026566 0.0027153 -0.0005447 0.0020177 0.021284 -0.01077
-0.029761 0.22499 0.018479 -0.0016684
-0.00094197 0.0041008 -0.001657 0.0019517 -0.00099987 0.00038382 -0.0034159 0.0050599
0.018375 -0.0016793 -0.035576 0.30607
1220000000 0.12494 0.28907 0.010938 -0.030446 -0.00161 -0.00078447 8.3648e-06 -0.00089874
-0.0026493 0.0022774 0.0012288 0.0021664
0.01094 -0.03042 -0.046283 0.38837 -0.01721 -0.021927 -0.0027332 0.00054325
3.183e-05 0.0032358 -0.0007297 0.0020076
-0.0016208 -0.00079587 -0.017329 -0.021899 0.28303 0.20545 0.0008067 0.0017849
0.00066925 0.0012578 0.00029712 0.00056088
4.5995e-06 -0.00087513 -0.0027307 0.00055306 0.00082918 0.0017884 0.072532 0.27435
0.010545 -0.0176 0.0019548 0.0016459
-0.0027668 0.0022545 2.5812e-05 0.0032141 0.00066287 0.0012386 0.010484 -0.017623
-0.0058144 0.23295 0.013606 -0.0135
0.0012935 0.0021242 -0.00070486 0.0020152 0.00027676 0.00054144 0.0019299 0.0016706
0.013622 -0.013469 -0.0031694 0.32012
1280000000 0.1754 0.2686 -0.0079404 -0.029176 -0.0020499 0.0025019 -0.00080998 -0.0020869
-0.0007164 0.0032075 0.0025367 0.0012456
-0.007895 -0.029121 7.6277e-05 0.37986 -0.024563 -0.0088704 -0.00093057 0.001466
0.0019007 0.001789 0.00063729 0.0020547
-0.0020387 0.0025104 -0.024602 -0.0087723 0.31346 0.16158 0.001621 -0.00014506
0.0012708 0.00023671 0.00032642 0.00031891
-0.00082448 -0.0020539 -0.00090369 0.0014638 0.0016233 -0.00015894 0.10961 0.25799
0.0005537 -0.019631 -6.5715e-05 0.00043666
-0.00068078 0.0031904 0.0019109 0.0017453 0.0012623 0.00020547 0.00049196 -0.019613
0.030719 0.23585 0.0028981 -0.016014
0.0025805 0.0012163 0.00065067 0.0020269 0.00031535 0.00033204 -7.2068e-05 0.00041602
0.0029018 -0.016004 0.043383 0.321
1340000000 0.21275 0.23562 -0.017937 -0.019234 0.00090343 0.0047503 -0.0018809 -0.00094967
0.0015259 0.0026706 0.0018592 -0.0014291
-0.017919 -0.019214 0.039784 0.37195 -0.022156 0.0043921 -3.2231e-05 0.0020585
0.00206 0.00065044 0.0012921 0.00081363
0.00092858 0.0047565 -0.022161 0.0045183 0.33533 0.11456 0.0010825 -0.0010399
0.00073555 -0.00059865 0.00015064 0.00021808
-0.0018733 -0.00095278 -8.0086e-06 0.0020648 0.0010725 -0.0010539 0.14269 0.23757
-0.0092787 -0.016588 0.00084532 0.00062526
0.0015101 0.0026937 0.0020937 0.00067652 0.00072781 -0.00060584 -0.0092974 -0.01657
0.061001 0.23056 -0.0044121 -0.014071
0.0017941 -0.001438 0.0012458 0.00083898 0.00012595 0.00026302 0.00085361 0.00061979
-0.004379 -0.014047 0.081901 0.31497
1400000000 0.24675 0.19807 -0.023958 -0.0073843 0.0053229 0.0033662 -0.0022134 0.00062346
0.0024969 0.0010101 0.00029783 -0.0016368
-0.02392 -0.0073905 0.077391 0.35926 -0.015287 0.01288 0.0013685 0.0012252
0.0012417 -0.00093603 0.0011356 0.00010946
0.0053373 0.0033358 -0.015248 0.012969 0.3486 0.061588 -1.9985e-05 -0.0015824
8.4089e-05 -0.00032262 0.00022625 0.00024748
-0.0022094 0.00068058 0.001375 0.0012266 -4.4131e-05 -0.0015747 0.1724 0.20841
-0.015065 -0.0094661 -0.00078339 -0.00016741
0.002484 0.0010063 0.0012217 -0.00094957 4.6929e-05 -0.00034924 -0.015096 -0.0094441
0.094605 0.22576 -0.010754 -0.008983
0.00031788 -0.001637 0.0011535 9.5134e-05 0.00027597 0.00027787 -0.00076805 -0.0001466
-0.010724 -0.0089991 0.1255 0.30367
1460000000 0.27006 0.15419 -0.020574 0.0050902 0.0059273 -0.0017973 -0.0016158 0.001861
0.0021592 -0.00042662 -0.00041929 -0.00097591
-0.020553 0.0050823 0.11167 0.33733 -0.0061596 0.016035 0.0017108 0.0001376
0.00077325 -0.0013938 0.0012161 -0.00059978
0.0059299 -0.0018064 -0.0060896 0.016069 0.3551 0.0078269 -0.0012879 -0.0012208
0.00012848 -0.0002551 0.00066586 -0.00030997
-0.0016132 0.0018308 0.0017101 0.00012134 -0.0012868 -0.0012329 0.19894 0.17888
-0.016097 -0.0023384 -0.00061613 0.0019804
0.0022023 -0.00046224 0.00077883 -0.0014192 8.3747e-05 -0.00028936 -0.016123 -0.0023099
0.12392 0.2109 -0.012641 -0.0024544
-0.00046391 -0.00097632 0.001203 -0.00058709 0.00065317 -0.00033234 -0.00064597 0.0020016
-0.012633 -0.0024551 0.1584 0.28214
1520000000 0.28267 0.11264 -0.014721 0.010705 0.0035916 -0.0043154 0.00017573 0.0026172
0.0021141 -0.0020296 -0.0011726 -0.00014663
-0.014724 0.010687 0.14522 0.32293 0.0018527 0.013553 0.0015888 -0.00077577
4.5477e-06 -0.0010492 0.00037386 -0.0010526
0.0035662 -0.0043387 0.0019188 0.013553 0.34893 -0.047703 -0.0011025 -0.00028508
0.0006308 -0.00085995 0.00015856 -0.00019672
0.000186 0.0026184 0.0015882 -0.00078392 -0.0011015 -0.00026809 0.22246 0.14046
-0.01479 0.0036276 0.0015229 0.0019966
0.002096 -0.0020706 -5.3742e-06 -0.0010439 0.00061974 -0.0008819 -0.014789 0.0036451
0.15216 0.1973 -0.012208 0.0022096
-0.0011753 -0.00016727 0.00036909 -0.0010538 0.00017862 -0.00020541 0.0015165 0.0019984
-0.012212 0.0021879 0.19093 0.26143
1580000000 0.29252 0.066363 -0.0078027 0.013749 -0.00079646 -0.0052023 0.0015515 0.0019094
-0.00031362 -0.0022027 -0.0001965 0.00045318
-0.0077945 0.013723 0.17254 0.29824 0.0057354 0.0084225 0.00050898 -0.0015832
-0.00058413 -0.00096749 -0.00024677 -0.00087848
-0.00084078 -0.0051992 0.0057848 0.0084155 0.32961 -0.10515 -0.001553 0.00057171
-0.00037187 -0.0011864 0.00019086 -0.00064095
0.001569 0.0018991 0.00050599 -0.0015678 -0.001531 0.0005757 0.23616 0.1006
-0.010868 0.008248 0.0022018 0.00062361
-0.00032218 -0.0022113 -0.00060058 -0.00096036 -0.0003452 -0.0012017 -0.010831 0.0082796
0.17654 0.17873 -0.0094602 0.0080112
-0.00020388 0.00043967 -0.00024203 -0.00086674 0.00018009 -0.00064417 0.0021942 0.00059417
-0.0094523 0.0080034 0.22241 0.23427
1640000000 0.29474 0.02543 -0.0009235 0.012319 -0.002879 -0.0029256 0.0026912 0.00090521
-0.00081808 -0.0016539 -0.00029932 0.0005578
-0.00093722 0.01232 0.20203 0.27371 0.0062837 0.0032772 -0.00061679 -0.0017112
-0.00091256 -0.00036904 -0.00051873 -0.00070369
-0.0029106 -0.0029066 0.0063088 0.003242 0.30159 -0.15455 -0.00068111 0.001432
-0.0011438 -0.00092316 -0.0001787 -0.00034593
0.002701 0.00091143 -0.00062611 -0.0017216 -0.00066726 0.0014203 0.24838 0.051555
-0.006358 0.0090897 0.0024695 -0.00087963
-0.00082951 -0.0016455 -0.00091635 -0.00035357 -0.0011558 -0.00093122 -0.0063254 0.0091149
0.19968 0.15446 -0.0044366 0.0098144
-0.00028797 0.00055662 -0.00053976 -0.0006897 -0.00019902 -0.0003558 0.0024606 -0.00089794
-0.0044269 0.0097922 0.24733 0.20324
1700000000 0.28782 -0.019724 0.0023538 0.0092408 -0.0038425 -0.00014529 0.0030825 -0.001204
-0.0020041 -0.00054148 0.00061849 0.00030125
0.0023422 0.0092245 0.2203 0.24252 0.0041492 0.00024953 -0.0014286 -0.0005991
-0.00076778 -3.5126e-06 -0.00091461 -0.00042835
-0.0038594 -0.00016805 0.0041625 0.00021303 0.25898 -0.1941 0.00047223 0.001503
-0.0019305 -6.0615e-05 -0.00045884 -0.0009602
0.0030854 -0.0012403 -0.0014312 -0.00058683 0.00048745 0.0015112 0.24499 0.0014264
-0.0035672 0.0091397 0.0015006 -0.0022857
-0.0020347 -0.00056272 -0.00077242 5.7591e-06 -0.0019288 -4.0859e-05 -0.0035626 0.0091449
0.21712 0.13357 0.00027016 0.0099956
0.0006394 0.00029321 -0.00091806 -0.0004419 -0.00047952 -0.0010065 0.0015246 -0.0023101
0.00026712 0.0099744 0.26346 0.16872
1760000000 0.27621 -0.068277 0.0045041 0.0059112 -0.0025655 0.0011194 0.0012263 -0.0033635
-0.0014322 0.00072199 0.00032727 -0.00060065
0.0044998 0.0059129 0.24645 0.20305 0.0017099 -0.0016273 -0.0011975 0.00011041
-0.0010342 0.00080674 -0.00060521 0.00041234
-0.0025985 0.0011858 0.0016901 -0.0016294 0.21085 -0.22755 0.0011987 0.0010076
-0.0012056 0.0015058 -0.0012526 -0.00056783
0.0011831 -0.0033672 -0.0012128 0.00010012 0.0011804 0.0010076 0.23568 -0.05009
-0.00059126 0.0079174 -0.00026122 -0.0025691
-0.001451 0.00072807 -0.0010421 0.00080148 -0.0012383 0.0014999 -0.00057727 0.0079168
0.23172 0.098311 0.0042873 0.0071718
0.00033263 -0.00064346 -0.00060098 0.00043602 -0.0012409 -0.00056972 -0.00025673 -0.002563
0.004289 0.0071866 0.27605 0.131
1820000000 0.25207 -0.10538 0.0044602 0.0022797 -0.00033014 0.0026463 -0.00098323 -0.0030345
-0.0010145 0.0010988 -0.00023928 -0.00012903
0.0044602 0.002289 0.25686 0.17325 -0.00082353 -0.00046964 -0.0013619 0.00097142
-0.00017157 0.0012367 -0.00057866 0.00053782
-0.00034754 0.0025652 -0.0008192 -0.00049058 0.16033 -0.24408 0.001542 0.00060614
-0.00022 0.0024054 -0.0016551 0.00033296
-0.00099109 -0.0030665 -0.0013474 0.00099025 0.0015472 0.000617 0.20552 -0.097209
0.00053118 0.0065225 -0.001722 -0.0015619
-0.000993 0.0010588 -0.00014807 0.0012431 -0.00018721 0.0024223 0.00055003 0.0065322
0.24865 0.069327 0.0050801 0.0035882
-0.00025488 -0.00012335 -0.0005882 0.00052841 -0.0016432 0.00034844 -0.0017233 -0.0015534
0.0050936 0.0035819 0.27793 0.094725
1880000000 0.21719 -0.14613 0.0022452 3.8738e-05 -0.00043879 0.002279 -0.0029809 -0.0022146
-0.00017367 0.0018255 0.00020828 -0.00053148
0.0022411 3.6035e-05 0.26177 0.12683 -0.0027327 0.0015655 -0.000233 0.0017613
0.00050831 0.0013658 0.00010278 0.00091913
-0.00039717 0.0022666 -0.0027342 0.001575 0.10788 -0.25381 0.0018972 -0.00084116
0.0017014 0.0020236 -0.00095452 0.0014893
-0.0029654 -0.0022016 -0.00022887 0.0017602 0.0018874 -0.00082167 0.16444 -0.13748
0.00086753 0.0047867 -0.0024824 0.00042257
-0.0001247 0.0018496 0.00050395 0.0013703 0.0017009 0.0019872 0.00088804 0.0047807
0.25185 0.037406 0.0052088 0.0011047
0.00019397 -0.00050092 0.00013839 0.00092047 -0.0009259 0.0015274 -0.0024976 0.00044686
0.0051797 0.001105 0.27738 0.060482
1940000000 0.17802 -0.17155 -0.00028857 -0.0013908 0.0014825 0.0022229 -0.003729 0.00038351
0.0014205 0.0010328 -0.00039032 -0.00041454
-0.00029231 -0.0013818 0.26269 0.095125 -0.0015004 0.0042017 0.0010736 0.0013563
0.0018941 0.00058246 0.00099928 0.00039953
0.0015385 0.002212 -0.001469 0.004234 0.06203 -0.24658 0.00061244 -0.0022846
0.0025266 0.00027988 0.00067425 0.0016129
-0.003726 0.00039514 0.0011017 0.0013541 0.00063134 -0.002305 0.11183 -0.16772
-1.8235e-05 0.0036612 -0.0014574 0.0016936
0.0013872 0.001046 0.0018916 0.00058363 0.0025046 0.00031075 -2.3999e-05 0.0036674
0.2542 -0.00080906 0.0037974 -0.002082
-0.00043766 -0.00039433 0.00097356 0.00037432 0.0006339 0.0016172 -0.001457 0.0017102
0.0038198 -0.0020821 0.26629 0.024276
2000000000 0.13219 -0.18675 -0.004088 0.00066235 0.0025231 0.0014912 -0.0023983 0.0038401
0.0012528 0.00036907 -0.00045185 0.00044094
-0.0041064 0.00065364 0.249 0.059328 -0.00084458 0.0059641 0.0016817 0.00038124
0.0015065 -0.0010506 0.00046133 0.00024035
0.0025299 0.0015371 -0.00083161 0.0059678 0.018979 -0.23256 -0.0014353 -0.0015435
0.0020337 -0.0012567 0.0017513 0.0012947
-0.0023644 0.0037856 0.0016865 0.00037671 -0.0014202 -0.0015484 0.058569 -0.17749
-0.0012647 0.0037965 -6.516e-05 0.0022528
0.0012159 0.00028605 0.0014976 -0.0010862 0.0020071 -0.001262 -0.0012631 0.0038023
0.24897 -0.033724 0.00065363 -0.0030957
