!Keysight Technologies,M9804A,MY58100912,A.14.10.03
!Date: Thursday, April 27, 2023 10:28:33
!Correction: S11(C  6-Port  ) 
!S12(C  6-Port  ) 
!S13(C  6-Port  ) 
!S14(C  6-Port  ) 
!S15(C  6-Port  ) 
!S16(C  6-Port  ) 
!S21(C  6-Port  ) 
!S22(C  6-Port  ) 
!S23(C  6-Port  ) 
!S24(C  6-Port  ) 
!S25(C  6-Port  ) 
!S26(C  6-Port  ) 
!S31(C  6-Port  ) 
!S32(C  6-Port  ) 
!S33(C  6-Port  ) 
!S34(C  6-Port  ) 
!S35(C  6-Port  ) 
!S36(C  6-Port  ) 
!S41(C  6-Port  ) 
!S42(C  6-Port  ) 
!S43(C  6-Port  ) 
!S44(C  6-Port  ) 
!S45(C  6-Port  ) 
!S46(C  6-Port  ) 
!S51(C  6-Port  ) 
!S52(C  6-Port  ) 
!S53(C  6-Port  ) 
!S54(C  6-Port  ) 
!S55(C  6-Port  ) 
!S56(C  6-Port  ) 
!S61(C  6-Port  ) 
!S62(C  6-Port  ) 
!S63(C  6-Port  ) 
!S64(C  6-Port  ) 
!S65(C  6-Port  ) 
!S66(C  6-Port  ) 
!S6P File: Measurement: :
# Hz S  RI   R 50
500000000 -0.335 -0.050898 -0.010631 -0.0014795 -0.0090269 0.012841 -0.0044066 0.012347
0.011688 0.0055982 -0.0047294 0.0084864
-0.010622 -0.0015223 -0.41654 -0.06251 0.0075427 -0.010608 0.0017648 0.012532
0.008071 0.0025456 0.0013582 0.014509
-0.0090202 0.012815 0.0075488 -0.010705 -0.26757 0.20023 0.0068315 0.0036434
-0.0018795 0.0082825 0.00077922 0.012193
-0.0042024 0.012201 0.0018226 0.012764 0.0069519 0.0037072 -0.33341 0.044539
-0.017174 -0.0046397 0.015122 0.025568
0.011257 0.0057739 0.007968 0.0022771 -0.0018621 0.0081351 -0.017072 -0.0047017
-0.25226 -0.19116 -0.025495 0.0034839
-0.0041568 0.0079158 0.0015238 0.015224 0.0011278 0.012456 0.01488 0.025953
-0.025288 0.0038078 -0.27506 -0.11606
560000000 -0.3177 0.11422 -0.024022 -0.06569 0.0013736 0.013102 0.0056744 0.011262
0.011064 0.004079 0.011024 0.0091276
-0.023902 -0.065616 -0.37609 0.10269 -0.042133 -0.038308 0.014106 0.0036477
-0.014734 -0.0051194 0.0058883 -0.0010046
0.0013303 0.01314 -0.042315 -0.038476 -0.18558 0.25274 -8.7951e-05 -0.0042235
0.019572 0.0051152 0.0067772 -0.0037261
0.0056302 0.01132 0.013989 0.0035204 7.4765e-05 -0.0043154 -0.30722 0.13538
0.0045057 -0.023215 0.0056971 -0.021344
0.01089 0.0040424 -0.014634 -0.00567 0.020013 0.0053336 0.0042398 -0.022967
-0.31104 -0.0111 0.0057659 -0.047829
0.011255 0.0087048 0.0059353 -0.00086128 0.0068771 -0.003575 0.0060008 -0.020896
0.0060201 -0.047969 -0.3301 0.028902
620000000 -0.2769 0.093587 -0.022964 0.0089578 0.0040808 0.0099301 0.0085963 -0.0038656
0.012109 -0.001248 0.0017391 -0.0010581
-0.022997 0.0089403 -0.40356 0.050168 -0.018188 0.00071127 -0.0014002 -0.0022664
0.012656 -0.0059887 0.0012167 -0.0035696
0.0040796 0.0099441 -0.018259 0.00073934 -0.15505 0.26213 -0.00064088 -0.0048657
-0.002099 -0.0031586 0.0082508 -0.0031868
0.0085915 -0.0039501 -0.0013821 -0.002396 -0.00077959 -0.0048833 -0.26582 0.14737
-0.037846 -0.018904 0.012796 0.026731
0.012497 -0.001083 0.012669 -0.0058748 -0.0024186 -0.0029899 -0.03805 -0.019135
-0.2327 -0.045697 -0.039479 0.012785
0.0013225 -0.00077148 0.0012156 -0.0034798 0.0083327 -0.0032543 0.01264 0.026795
-0.039487 0.012931 -0.25383 -0.0025787
680000000 -0.23877 0.18512 -0.02646 -0.014136 0.0050215 0.0051694 0.0020418 -0.0073311
-0.0022184 -0.011535 0.0053111 -0.007426
-0.026414 -0.014139 -0.38953 0.15124 -0.032292 -0.0019372 -0.0012757 -0.00060384
-0.0020413 -0.0093667 -0.0010619 -0.0015688
0.0050531 0.0051614 -0.032326 -0.0018617 -0.10341 0.28148 -0.00080731 -0.00059902
-0.001892 0.00020849 -0.00269 -0.0091421
0.0020317 -0.0073882 -0.0013138 -0.00061692 -0.00076577 -0.00062203 -0.22041 0.19805
-0.023933 -0.0078295 -0.0080727 -0.01034
-0.0022902 -0.011689 -0.0020817 -0.0095108 -0.0017613 0.00035317 -0.023865 -0.007624
-0.27798 0.059315 -0.0080621 -0.0074974
0.0051219 -0.0072401 -0.0010959 -0.0016654 -0.0027027 -0.0090399 -0.0081439 -0.010126
-0.0079619 -0.0078967 -0.25939 0.10071
740000000 -0.19343 0.17881 -0.038999 0.026769 0.013662 -0.0050207 -0.00043798 -0.0041723
-0.0046416 -0.0022034 -0.0064146 0.0031786
-0.038926 0.026685 -0.3353 0.17 -0.036619 0.03457 -0.00038 -0.0062041
-0.01203 0.0066246 -0.0018498 -0.0060686
0.013658 -0.0050351 -0.036523 0.034631 -0.069525 0.27896 -0.0023204 0.0034367
-0.0029742 -0.0058055 -0.0010854 0.001173
-0.00045219 -0.0042476 -0.00032447 -0.0062784 -0.0023023 0.0033651 -0.20305 0.20494
-0.042136 -0.0069514 0.021615 0.013882
-0.0050855 -0.0024111 -0.011661 0.0064654 -0.002603 -0.0053595 -0.042393 -0.0070464
-0.17946 0.081858 -0.040547 0.0022401
-0.0062984 0.0032632 -0.0015576 -0.0057531 -0.0012376 0.0015728 0.021859 0.01367
-0.041162 0.0023486 -0.24775 0.10568
800000000 -0.16071 0.22208 -0.022413 0.016462 0.0058329 -0.01032 -0.0045135 -0.0020753
-0.0042774 0.002367 0.003491 0.00076387
-0.022383 0.016431 -0.34035 0.24011 -0.0082416 0.034069 -0.0025742 0.0022364
-0.0011035 0.003081 0.00018841 0.0054463
0.0058045 -0.010345 -0.0081684 0.03412 -0.030524 0.30243 0.0007171 0.001565
9.1857e-05 0.0036769 -0.001843 0.00081576
-0.0045224 -0.0021238 -0.0026253 0.0022178 0.00066542 0.001549 -0.17315 0.23268
-0.028541 0.013123 0.013862 -0.010246
-0.0044042 0.0023774 -0.0010197 0.0029987 5.3496e-05 0.0036472 -0.028408 0.013128
-0.21915 0.11353 -0.016875 0.019176
0.0035597 0.00053261 0.00031221 0.0054549 -0.0016272 0.00077522 0.013994 -0.010166
-0.016931 0.019268 -0.23823 0.15635
860000000 -0.12656 0.24151 -0.017593 0.030189 -0.0028371 -0.010505 -0.001887 0.00082864
0.0037623 0.0048792 -0.0027433 -0.002335
-0.017595 0.03015 -0.29229 0.28193 0.0075234 0.034191 4.0377e-05 0.0017653
0.0036486 0.00084114 0.0030896 0.00023736
-0.0028233 -0.010486 0.0076349 0.034215 0.016641 0.31053 -0.00068164 -0.00017761
0.0025142 -0.001271 0.0017086 0.0042037
-0.0017955 0.00082892 0.00015934 0.0017842 -0.00065018 -0.00017602 -0.13696 0.24247
-0.018195 0.01745 -0.0063602 -0.0085979
0.0038702 0.0049707 0.0037066 0.00089209 0.0024974 -0.0011862 -0.018234 0.017562
-0.16361 0.16178 -0.024195 0.018173
-0.0029318 -0.0022918 0.00334 0.00018609 0.0018509 0.0042036 -0.0064181 -0.008394
-0.024075 0.018358 -0.1885 0.19714
920000000 -0.10307 0.26458 0.0044514 0.037885 -0.0094886 -0.0052628 -0.0021502 0.0017534
0.0011009 0.0023892 0.0031883 -0.0013598
0.0044604 0.037896 -0.26501 0.30337 0.027989 0.022507 0.0014126 0.0013533
0.0074293 -5.0624e-05 0.0046208 -0.00246
-0.0094879 -0.0052385 0.028098 0.022428 0.061913 0.31215 0.0019539 -2.308e-05
0.00099538 -0.00013713 0.0010061 -0.0014158
-0.0021478 0.0017422 0.0015206 0.001323 0.0019336 -1.34e-06 -0.11227 0.25957
-0.010661 0.030122 0.0035174 -0.0067171
0.0010219 0.0022198 0.0074404 -0.00022286 0.00093722 -0.00011879 -0.010801 0.02997
-0.15268 0.17096 -0.0012354 0.026301
0.0030996 -0.0014119 0.0042152 -0.0023815 0.00077401 -0.0014712 0.0033267 -0.0067169
-0.001495 0.025844 -0.19353 0.21265
980000000 -0.056613 0.28455 0.016821 0.03004 -0.0096262 0.0041104 0.0018169 0.0038206
0.0041376 -0.0017055 -0.0029665 -0.0021838
0.016814 0.03004 -0.21236 0.33819 0.033315 0.0053466 0.0019532 3.3858e-05
0.0017638 -0.0061701 -0.00053036 -0.0026106
-0.0096061 0.0041247 0.03335 0.0052468 0.10774 0.3064 0.00065106 -0.0011184
0.0004853 -0.0021865 0.0013041 -0.00022887
0.0017964 0.0038481 0.0019031 -5.3868e-05 0.00067522 -0.0011252 -0.074497 0.27041
0.0071507 0.029571 -0.0088494 -0.0068634
0.0041809 -0.0018006 0.0017734 -0.0060534 0.00046719 -0.0020996 0.0072317 0.029732
-0.1177 0.19794 0.0057941 0.019183
-0.0028617 -0.0022077 -0.00047092 -0.0022913 0.0013305 -0.00012493 -0.0088124 -0.0067066
0.0059233 0.019389 -0.15064 0.25596
1040000000 -0.015536 0.29348 0.032879 0.018787 -0.0018257 0.006984 0.0024856 0.00088904
0.00063999 -0.0034346 -0.00036012 -0.0014046
0.032853 0.018801 -0.1774 0.35182 0.03006 -0.014666 0.0017258 -0.0017326
-0.00205 -0.0027456 -0.00088824 -0.0029358
-0.0017984 0.0069703 0.029999 -0.014777 0.15346 0.29382 -0.00053337 -0.0017097
-0.0015814 -0.0010372 -0.00058332 -0.001023
0.0025434 0.00084932 0.0017387 -0.0017234 -0.00050612 -0.001733 -0.047058 0.2801
0.019285 0.01839 -0.0023295 0.0011141
0.00064756 -0.0034011 -0.0020223 -0.0028382 -0.0015054 -0.0010585 0.019425 0.01838
-0.085219 0.20446 0.014584 0.017956
-0.00032924 -0.0014593 -0.00086069 -0.0029016 -0.00056946 -0.0010382 -0.0022584 0.0010451
0.014555 0.017966 -0.12723 0.27454
1100000000 0.029527 0.3027 0.036262 -0.0037244 0.0027696 0.0042226 0.0024608 -0.0010531
-0.0021926 -0.0031943 -0.0040123 -0.00034089
0.036242 -0.00369 -0.13434 0.36971 0.015913 -0.028036 0.00018857 -0.0018953
-0.0037618 -0.00099537 -0.0036538 -0.00060477
0.002783 0.0042244 0.015825 -0.028114 0.19996 0.27443 -0.0019471 0.00015541
-0.0018648 0.00046738 -0.0010136 -0.00038446
0.0024438 -0.0010615 0.00018378 -0.0018765 -0.0019665 0.00015055 -0.0070299 0.28488
0.024781 0.00511 -0.002459 -4.1213e-05
-0.0022164 -0.0032566 -0.0037895 -0.0010316 -0.0019098 0.00048805 0.024751 0.0050089
-0.063748 0.2172 0.019908 0.0077222
-0.0039663 -0.00028248 -0.0035496 -0.00069217 -0.0010649 -0.00038098 -0.0025208 -0.00012939
0.019912 0.0076572 -0.082039 0.30349
1160000000 0.080021 0.29869 0.024403 -0.020853 0.0025947 -0.00031116 -2.934e-05 -0.0022642
-0.0039235 -0.00085906 -0.0011292 0.0040923
0.024421 -0.020791 -0.091148 0.37464 -0.0034072 -0.029824 -0.0016986 -0.0017805
-0.0028942 0.0027611 -0.0015072 0.0018822
0.0026169 -0.0003445 -0.0035292 -0.029804 0.24321 0.24411 -0.00076858 0.0018651
-0.00050841 0.0021027 -0.00079456 0.00036134
-5.398e-05 -0.0022835 -0.0017204 -0.0017968 -0.00076279 0.0018752 0.031785 0.28255
0.020807 -0.010632 -0.0033041 0.0050733
-0.0040089 -0.00077802 -0.0030427 0.0027668 -0.00054344 0.0021406 0.020785 -0.010595
-0.029981 0.22396 0.018511 -0.0012536
-0.0010575 0.0040143 -0.0014794 0.0020079 -0.00082033 0.00045394 -0.0033647 0.0051591
0.018541 -0.0012647 -0.035283 0.30558
1220000000 0.12454 0.28915 0.010846 -0.030347 -0.0017262 -0.00070789 0.00012135 -0.0009304
-0.0026495 0.0023527 0.0012119 0.0021103
0.010863 -0.030306 -0.047049 0.38798 -0.017062 -0.021846 -0.0027267 0.00048291
2.2129e-05 0.0032988 -0.00077317 0.0019493
-0.0017181 -0.00069803 -0.017195 -0.021788 0.28244 0.2056 0.00081695 0.0017713
0.00058963 0.0012158 0.00017546 0.00062792
0.00015013 -0.00091496 -0.0027411 0.00048923 0.0008284 0.0017909 0.071994 0.27434
0.010576 -0.017319 0.0017389 0.0015948
-0.0026634 0.0023407 2.6627e-05 0.0032824 0.00062516 0.0012419 0.010581 -0.017327
-0.0059866 0.2326 0.013388 -0.013723
0.0012392 0.0020843 -0.00078116 0.0019883 0.00018578 0.00062988 0.0018279 0.0016341
0.013357 -0.013744 -0.0026298 0.32007
1280000000 0.17468 0.26858 -0.0080532 -0.02893 -0.0018848 0.0026472 -0.00085553 -0.0021552
-0.00083784 0.003213 0.0025758 0.0013186
-0.008034 -0.028903 -0.000889 0.37972 -0.024378 -0.0089461 -0.0010514 0.0015711
0.0018619 0.001854 0.0007567 0.0020403
-0.0018742 0.0026795 -0.024432 -0.008862 0.31303 0.16193 0.0016373 -9.2192e-06
0.001289 0.00024693 0.00046599 0.00023294
-0.00087648 -0.002155 -0.0010446 0.00155 0.0016324 -4.0654e-05 0.10908 0.25824
0.00059652 -0.019409 -0.00025229 0.00062912
-0.00082462 0.0032168 0.0018418 0.0018254 0.0013012 0.00024676 0.00055185 -0.019423
0.030518 0.2348 0.0026606 -0.015703
0.0026346 0.0012788 0.00082534 0.0021209 0.00047484 0.00020636 -0.00027068 0.00058117
0.0026546 -0.015699 0.043155 0.32013
1340000000 0.21222 0.23586 -0.017953 -0.019048 0.0009528 0.0048785 -0.0018693 -0.00095543
0.0015166 0.0027655 0.0018701 -0.0014443
-0.01792 -0.019041 0.03879 0.37225 -0.022197 0.0042807 -7.4784e-05 0.0020641
0.0021186 0.00072604 0.001348 0.00077137
0.000977 0.0048735 -0.022188 0.00441 0.3352 0.11502 0.001156 -0.00092978
0.0006149 -0.00047888 0.00012671 0.00026381
-0.0018957 -0.00095429 -5.2253e-05 0.002066 0.0011612 -0.0009205 0.14242 0.23798
-0.008833 -0.016589 0.00074099 0.00068414
0.0014994 0.0027082 0.0021154 0.00068838 0.00057976 -0.00055616 -0.0088377 -0.016588
0.060655 0.2301 -0.0047772 -0.014176
0.0018701 -0.0014327 0.0013113 0.00081729 0.00010913 0.00018371 0.00074619 0.00063172
-0.0047408 -0.01419 0.081998 0.31481
1400000000 0.24626 0.19873 -0.023816 -0.0072186 0.0054877 0.0034247 -0.0023129 0.00063419
0.0025054 0.00090554 0.00023447 -0.0015807
-0.023775 -0.0072393 0.076642 0.35968 -0.015375 0.012815 0.0014225 0.0013212
0.001341 -0.00098906 0.0011074 0.00016557
0.005505 0.0033714 -0.015329 0.012899 0.34844 0.061983 6.3309e-05 -0.0016677
0.00011975 -0.00033424 0.00022925 0.00017386
-0.0023006 0.00063808 0.0014171 0.0013287 5.1706e-05 -0.0016519 0.17248 0.2089
-0.014858 -0.0094764 -0.0006329 -9.7612e-06
0.0025185 0.00093696 0.0013223 -0.00095752 5.5674e-05 -0.00033109 -0.014887 -0.0094389
0.093855 0.22545 -0.010956 -0.008797
0.00020939 -0.001596 0.0011362 0.00011707 0.0002584 0.00013522 -0.00064304 -2.4659e-05
-0.010975 -0.0088403 0.12561 0.30306
1460000000 0.26966 0.15494 -0.020484 0.0052519 0.0060478 -0.0017385 -0.0015453 0.0018362
0.0022749 -0.00046665 -0.00045613 -0.0011674
-0.020465 0.0052363 0.11115 0.33797 -0.0062165 0.016009 0.0017572 7.4125e-05
0.00079283 -0.0014717 0.001215 -0.00063301
0.0059925 -0.0017846 -0.0061512 0.016048 0.35508 0.0084455 -0.0012162 -0.0012678
0.00015063 -0.00028641 0.0006922 -0.00032664
-0.0015154 0.0018595 0.0017593 6.9602e-05 -0.0011934 -0.0012833 0.1991 0.17927
-0.015936 -0.0026506 -0.00066728 0.0020283
0.0022582 -0.00051266 0.00078246 -0.0014778 6.7576e-05 -0.00022923 -0.015948 -0.0026168
0.12286 0.21087 -0.01266 -0.0024631
-0.0004479 -0.0011646 0.0011944 -0.00063683 0.00063764 -0.00028285 -0.00068568 0.0020347
-0.012612 -0.0025075 0.15803 0.28195
1520000000 0.28264 0.11348 -0.014508 0.010715 0.0036647 -0.0044253 0.00018574 0.0025933
0.0021816 -0.0020899 -0.0012434 -0.00019342
-0.014507 0.010702 0.1449 0.32363 0.0018182 0.013591 0.0015964 -0.00085584
-8.9559e-05 -0.0010986 0.000331 -0.0010579
0.0036398 -0.0044145 0.0018669 0.013606 0.34892 -0.047146 -0.0011703 -0.00030435
0.000662 -0.0008272 6.7454e-05 -0.00019695
0.0001906 0.002583 0.0016017 -0.00086864 -0.0011517 -0.00031083 0.22279 0.14085
-0.01481 0.0032391 0.0016716 0.0021254
0.0022214 -0.0021428 -8.5163e-05 -0.0011014 0.00068301 -0.00081837 -0.014814 0.0032703
0.15158 0.19712 -0.012407 0.0024477
-0.001272 -0.00014112 0.00030381 -0.0010719 5.1947e-05 -0.0002105 0.0016558 0.0021213
-0.01243 0.002464 0.19077 0.26119
1580000000 0.29272 0.067125 -0.0075994 0.01361 -0.00088354 -0.0053941 0.0015654 0.0018761
-0.00019559 -0.0022279 -0.00033447 0.00043984
-0.0076103 0.013599 0.17249 0.29882 0.0057573 0.0084289 0.00048266 -0.0015879
-0.00061191 -0.00092349 -0.00024528 -0.00088144
-0.00086511 -0.0053851 0.0058188 0.0084218 0.32991 -0.10481 -0.0015734 0.00060702
-0.00034668 -0.0013699 0.00021553 -0.00054079
0.0015847 0.0018662 0.00046632 -0.0015894 -0.0015787 0.00060448 0.23668 0.10062
-0.0112 0.0079645 0.0024252 0.0006421
-0.00023509 -0.0022281 -0.00063077 -0.00094242 -0.000314 -0.0013045 -0.011184 0.0079819
0.17552 0.179 -0.0093768 0.0081047
-0.00029563 0.00039699 -0.00022095 -0.00087851 0.00022933 -0.00048392 0.0024501 0.00062351
-0.0093682 0.0081052 0.22199 0.23409
1640000000 0.29494 0.025892 -0.00085286 0.012171 -0.0031025 -0.002939 0.0027639 0.00095948
-0.00087206 -0.0015624 -0.00022434 0.00060482
-0.00086185 0.012171 0.202 0.27428 0.0063602 0.0033304 -0.00067448 -0.0017611
-0.00097659 -0.00034221 -0.00051446 -0.00068706
-0.0030846 -0.0029503 0.0063797 0.0033027 0.30198 -0.15387 -0.00066663 0.0014533
-0.001113 -0.00098229 -0.00018325 -0.00031436
0.00277 0.00097938 -0.00069253 -0.0017425 -0.00068934 0.0014483 0.24877 0.051539
-0.0066539 0.009139 0.0026057 -0.00099555
-0.00090081 -0.0015406 -0.00098098 -0.00032526 -0.0011804 -0.0010311 -0.0066265 0.0091616
0.19913 0.15512 -0.0043431 0.0098528
-0.00021318 0.00060889 -0.00050202 -0.0006935 -0.00018903 -0.00028133 0.0026148 -0.00097954
-0.004334 0.0099032 0.24677 0.2032
1700000000 0.28826 -0.019358 0.0024118 0.0091154 -0.0039017 -3.0594e-05 0.0031262 -0.001234
-0.0020516 -0.00057408 0.00067037 0.00039321
0.0023926 0.0091145 0.22053 0.24298 0.0041467 0.00025649 -0.001497 -0.00056893
-0.00074241 6.8135e-06 -0.00097508 -0.0004611
-0.0039229 -2.8188e-05 0.0041554 0.00025573 0.25907 -0.1942 0.0005344 0.0016269
-0.0019411 1.2816e-05 -0.0005597 -0.00097773
0.0031269 -0.0012253 -0.0014947 -0.00057137 0.00053213 0.0016014 0.24538 0.0012205
-0.0038644 0.009291 0.0014783 -0.0022509
-0.0020587 -0.00051448 -0.00076524 1.0934e-05 -0.0018959 -1.3576e-06 -0.0038269 0.0093109
0.21652 0.13401 4.6157e-05 0.010191
0.00068788 0.00036167 -0.0009762 -0.00044186 -0.00047789 -0.00091722 0.0015224 -0.0022979
8.5563e-05 0.010212 0.26333 0.16913
1760000000 0.27637 -0.068154 0.0045386 0.005662 -0.0025419 0.0012049 0.0012432 -0.0033804
-0.0014212 0.00078978 0.00032109 -0.00073316
0.0045294 0.005659 0.24668 0.20335 0.001652 -0.0016091 -0.001192 0.0001899
-0.0010783 0.00085321 -0.00057036 0.00032446
-0.0026113 0.0012033 0.0016702 -0.0015999 0.21093 -0.22787 0.0011014 0.0010472
-0.0012798 0.0015922 -0.0011933 -0.00051631
0.0012092 -0.0033955 -0.0011882 0.00019468 0.0010967 0.0010144 0.23575 -0.050538
-0.00076537 0.0083377 -0.00017517 -0.0026479
-0.0014216 0.0007786 -0.0010546 0.00083868 -0.0012966 0.0015691 -0.00072722 0.0083128
0.23136 0.099454 0.0045201 0.0073787
0.00031312 -0.00074699 -0.00059023 0.00031932 -0.0012052 -0.00060304 -0.00019959 -0.0026709
0.0046022 0.0073569 0.27549 0.13115
1820000000 0.25219 -0.10537 0.0043468 0.002118 -0.00038453 0.0024789 -0.0010844 -0.0030883
-0.0010716 0.0010224 -0.00022765 -5.3041e-05
0.0043403 0.0021176 0.25713 0.1734 -0.00074366 -0.00056918 -0.0013196 0.0009868
-0.00013694 0.0012499 -0.00065514 0.0005942
-0.0002892 0.002534 -0.00070278 -0.00056991 0.16032 -0.24418 0.0014464 0.00053377
-0.0001608 0.0025014 -0.0015575 0.00048453
-0.0011091 -0.0030615 -0.0013186 0.00099836 0.0014625 0.0005229 0.20548 -0.097608
0.00064043 0.0068455 -0.0018042 -0.001675
-0.0011162 0.0010124 -0.00014755 0.0012417 -0.00012083 0.0024996 0.00062304 0.0068381
0.24867 0.070393 0.0052168 0.0035957
-0.00018147 -7.0113e-05 -0.0006016 0.00058263 -0.0015164 0.00048859 -0.0018737 -0.0017097
0.0051691 0.0035319 0.27747 0.095217
1880000000 0.2174 -0.14592 0.0020715 -6.5096e-05 -0.00042397 0.0022714 -0.0028493 -0.0022597
-0.00011309 0.0018101 0.00014325 -0.00052027
0.0020701 -6.2818e-05 0.26195 0.12671 -0.0027207 0.0015646 -0.00019198 0.0017385
0.00051453 0.0013914 9.1932e-05 0.00091373
-0.00045865 0.002233 -0.0027506 0.0015328 0.10811 -0.25334 0.0018821 -0.00081596
0.0017059 0.0019287 -0.0008627 0.0013565
-0.0028261 -0.0022568 -0.00017525 0.001744 0.0019377 -0.00073863 0.16421 -0.13803
0.0010641 0.004804 -0.002651 0.00016341
-8.3086e-05 0.0018415 0.00052193 0.0014058 0.0016618 0.0019434 0.0010762 0.0048147
0.25222 0.038159 0.0053814 0.0012616
9.6889e-05 -0.00043679 8.1951e-05 0.00087548 -0.00094766 0.0013386 -0.0026995 0.00019039
0.0053661 0.0012129 0.2774 0.061278
1940000000 0.17808 -0.17142 -0.00049422 -0.001481 0.001454 0.0022991 -0.0037509 0.00047385
0.0014375 0.0010934 -0.00042845 -0.00046449
-0.00048801 -0.001486 0.26263 0.094858 -0.0016503 0.0041137 0.001103 0.0013196
0.0019268 0.00064635 0.0011179 0.00049185
0.0015257 0.002367 -0.0016572 0.0041415 0.061943 -0.24618 0.00055137 -0.0022226
0.0024192 0.00031144 0.00072832 0.0017688
-0.0037528 0.0005197 0.0011085 0.0013072 0.00057401 -0.0023208 0.1113 -0.16766
0.0001765 0.0037731 -0.0015096 0.0015826
0.001445 0.0011568 0.0019441 0.00065215 0.0025251 0.00033833 0.00018027 0.0038088
0.25485 3.3603e-05 0.0041836 -0.0022007
-0.00043794 -0.00046154 0.001082 0.00047797 0.00074703 0.0017515 -0.0014693 0.0016408
0.004136 -0.0022075 0.26609 0.02458
2000000000 0.13205 -0.18621 -0.0043072 0.00077681 0.0027215 0.001696 -0.002448 0.0038299
0.0010319 0.00035251 -0.00060705 0.0006517
-0.0043096 0.00076231 0.24874 0.059133 -0.00091982 0.0059915 0.0015748 0.00037496
0.0015387 -0.0010011 0.00062108 0.00011882
0.0027316 0.0016878 -0.00090132 0.0060267 0.019567 -0.23243 -0.0012665 -0.0014742
0.002277 -0.0011657 0.0018345 0.001157
-0.0024211 0.0038665 0.0015633 0.00038461 -0.0012626 -0.0014806 0.058284 -0.17711
-0.0010061 0.0036447 -0.00037146 0.0021156
0.0010782 0.00033979 0.0015288 -0.0010471 0.0022919 -0.0012236 -0.00097614 0.0036595
0.24999 -0.033436 0.00079718 -0.0035438
