!Keysight Technologies,M9804A,MY58100912,A.14.10.03
!Date: Thursday, April 27, 2023 10:28:33
!Correction: S11(C  6-Port  ) 
!S12(C  6-Port  ) 
!S13(C  6-Port  ) 
!S14(C  6-Port  ) 
!S15(C  6-Port  ) 
!S16(C  6-Port  ) 
!S21(C  6-Port  ) 
!S22(C  6-Port  ) 
!S23(C  6-Port  ) 
!S24(C  6-Port  ) 
!S25(C  6-Port  ) 
!S26(C  6-Port  ) 
!S31(C  6-Port  ) 
!S32(C  6-Port  ) 
!S33(C  6-Port  ) 
!S34(C  6-Port  ) 
!S35(C  6-Port  ) 
!S36(C  6-Port  ) 
!S41(C  6-Port  ) 
!S42(C  6-Port  ) 
!S43(C  6-Port  ) 
!S44(C  6-Port  ) 
!S45(C  6-Port  ) 
!S46(C  6-Port  ) 
!S51(C  6-Port  ) 
!S52(C  6-Port  ) 
!S53(C  6-Port  ) 
!S54(C  6-Port  ) 
!S55(C  6-Port  ) 
!S56(C  6-Port  ) 
!S61(C  6-Port  ) 
!S62(C  6-Port  ) 
!S63(C  6-Port  ) 
!S64(C  6-Port  ) 
!S65(C  6-Port  ) 
!S66(C  6-Port  ) 
!S6P File: Measurement: :
# Hz S  RI   R 50
500000000 -0.33495 -0.052752 -0.010742 -0.0013755 -0.0091795 0.01331 -0.0033764 0.012307
0.011861 0.0047354 -0.0037115 0.0083993
-0.010691 -0.0013576 -0.41673 -0.062164 0.008664 -0.010069 0.0023353 0.011811
0.0079286 0.0012252 0.0019936 0.014227
-0.0090692 0.01316 0.0086816 -0.010136 -0.26594 0.20012 0.0072245 0.0032366
-0.0012845 0.0077468 0.00066917 0.011832
-0.0034905 0.012519 0.0025604 0.011916 0.0073537 0.0031853 -0.33179 0.043703
-0.017991 -0.0070172 0.01643 0.026415
0.01186 0.004779 0.0085603 0.0015794 -0.00078847 0.0082104 -0.017172 -0.0065193
-0.24947 -0.19413 -0.025054 0.0031023
-0.0034924 0.0088921 0.0023819 0.012765 0.0015453 0.010536 0.016753 0.024353
-0.026204 0.00087229 -0.27193 -0.11542
560000000 -0.3177 0.11373 -0.023056 -0.06531 -0.00024037 0.012855 0.0057855 0.011572
0.0094662 0.0042775 0.011158 0.0095201
-0.023277 -0.065203 -0.37637 0.098617 -0.04006 -0.038118 0.012933 0.0042115
-0.010987 -0.0043138 0.002801 -0.00086324
-0.0001355 0.012883 -0.04019 -0.038114 -0.18717 0.25286 0.00031225 -0.0066771
0.01704 0.0078978 0.0084856 -0.0050214
0.0053868 0.011222 0.012985 0.0044854 0.00013337 -0.0066909 -0.30604 0.1376
0.0051383 -0.026746 0.0038276 -0.02111
0.0095984 0.0039864 -0.0096133 -0.0034807 0.015741 0.0073991 0.0060523 -0.02867
-0.31476 -0.0032961 0.0083378 -0.047378
0.01058 0.0090752 0.0044097 -0.0016279 0.0080896 -0.0024351 0.0029131 -0.022767
0.0091746 -0.043067 -0.33271 0.029271
620000000 -0.27686 0.094577 -0.022913 0.0083412 0.0037087 0.0092192 0.0095395 -0.0033669
0.011993 -0.0042922 0.00096648 -0.0019509
-0.022921 0.0083205 -0.40332 0.050088 -0.018564 0.00050919 -0.00104 -0.0025714
0.01114 -0.0061546 0.00051893 -0.0030252
0.003779 0.0092837 -0.018521 0.0005142 -0.15613 0.26055 6.6722e-05 -0.0055653
-0.0050847 -0.0037377 0.0086072 -0.0028654
0.0095793 -0.0035052 -0.00095257 -0.0023997 9.3078e-05 -0.0054224 -0.26739 0.15061
-0.03424 -0.024696 0.013132 0.026428
0.01206 -0.0041321 0.010921 -0.0061001 -0.0052846 -0.0039949 -0.033412 -0.024782
-0.24165 -0.04113 -0.040946 0.011726
0.0015501 -0.0022012 0.00088946 -0.0028913 0.008538 -0.002908 0.012471 0.026241
-0.041013 0.01196 -0.25332 -0.0014868
680000000 -0.23935 0.18465 -0.026549 -0.014299 0.005071 0.0058744 0.0014217 -0.0077233
-0.0029544 -0.011384 0.0049454 -0.006946
-0.026424 -0.014332 -0.38979 0.15017 -0.032515 -0.0021187 -0.0019396 -0.00025764
-0.0013269 -0.010214 -0.0010132 -0.0016812
0.0049225 0.0058165 -0.032628 -0.0020241 -0.10363 0.28107 -0.001665 -0.00027039
-0.0010999 0.00063317 -0.0029826 -0.0089028
0.0012887 -0.0077845 -0.0019579 -0.00023812 -0.0016678 -0.00021493 -0.21916 0.19635
-0.025637 -0.0080192 -0.010081 -0.011557
-0.0031346 -0.011565 -0.0010043 -0.010224 -0.0010591 0.00078292 -0.025845 -0.0084428
-0.27567 0.058097 -0.0070274 -0.0076157
0.0046106 -0.0063701 -0.0010757 -0.0014344 -0.0031448 -0.0083184 -0.010489 -0.01184
-0.0078657 -0.0072312 -0.26104 0.09605
740000000 -0.19324 0.17782 -0.039891 0.026882 0.013634 -0.0053095 0.0002111 -0.0043446
-0.0052182 -0.0034972 -0.006111 0.003047
-0.039863 0.02683 -0.33555 0.16803 -0.036332 0.035461 -0.00026851 -0.0065082
-0.011621 0.0077438 -0.0010505 -0.0059266
0.013636 -0.0053333 -0.036198 0.035433 -0.070964 0.27883 -0.0013534 0.002673
-0.0034928 -0.0047621 -0.001803 0.0012512
-0.00010462 -0.004422 -0.00013283 -0.0064878 -0.0014659 0.0027464 -0.20448 0.20442
-0.041066 -0.007419 0.02274 0.014724
-0.0050743 -0.0030507 -0.01171 0.008074 -0.00335 -0.0048395 -0.040951 -0.007303
-0.18181 0.082748 -0.043151 0.0019634
-0.0060434 0.0030035 -0.0012109 -0.0062388 -0.0014639 0.00088702 0.022252 0.014658
-0.041822 0.0013647 -0.24717 0.1059
800000000 -0.16172 0.22132 -0.022613 0.016287 0.0058258 -0.010546 -0.0048722 -0.0020294
-0.0048552 0.0020966 0.0040731 0.00058232
-0.022658 0.01634 -0.34092 0.23977 -0.0084519 0.034255 -0.0022708 0.0020853
-0.00084907 0.0024079 0.0010389 0.0055395
0.0057561 -0.010543 -0.0083313 0.03433 -0.031232 0.30222 0.00054317 0.0014198
0.00024055 0.0032425 -0.0016503 0.00079767
-0.0047319 -0.0019097 -0.0021971 0.0021151 0.00067232 0.0014523 -0.17437 0.23218
-0.029202 0.013177 0.014051 -0.010409
-0.0047624 0.0018774 -0.0008122 0.0022734 0.00017509 0.0030999 -0.029118 0.013241
-0.21838 0.11259 -0.017308 0.020101
0.0042122 0.00076331 0.00089855 0.0056583 -0.0018237 0.00092475 0.014114 -0.010152
-0.017756 0.019838 -0.23851 0.15417
860000000 -0.12689 0.2412 -0.017704 0.03053 -0.0026745 -0.010553 -0.0016523 0.00066023
0.0036872 0.0052422 -0.0031372 -0.0025601
-0.017691 0.030501 -0.2926 0.28276 0.0078531 0.034701 0.00024776 0.002283
0.003094 0.0011386 0.003247 0.00059147
-0.0027167 -0.010558 0.0079513 0.034735 0.016073 0.31087 -0.00066345 -0.00035099
0.0023874 -0.0011233 0.0017052 0.0044764
-0.0017562 0.00066852 0.00030097 0.0023105 -0.00074015 -0.00037706 -0.13736 0.24292
-0.01825 0.019293 -0.0061936 -0.0090306
0.0036416 0.0053957 0.0029818 0.0012962 0.0023962 -0.0011075 -0.018204 0.019366
-0.1661 0.16156 -0.023881 0.017275
-0.0033305 -0.0027287 0.0031207 0.00026908 0.0017358 0.0044656 -0.0061153 -0.009426
-0.023439 0.017752 -0.18984 0.19608
920000000 -0.1035 0.26447 0.0044488 0.038122 -0.0095751 -0.0051434 -0.0021071 0.0019055
0.0012016 0.0020868 0.002639 -0.0013658
0.0043947 0.038113 -0.26595 0.30392 0.028201 0.022855 0.0012211 0.0012687
0.0072464 -0.00072096 0.0041564 -0.0026746
-0.0095897 -0.0051427 0.028265 0.022799 0.061622 0.31271 0.0019102 1.4369e-05
0.0010258 0.00011537 0.0011092 -0.0012293
-0.0021295 0.0017731 0.001257 0.0012635 0.0019592 4.7636e-05 -0.11343 0.2603
-0.010706 0.031459 0.0036299 -0.0067688
0.0013026 0.0019352 0.0074196 -0.0008318 0.00096181 1.4738e-05 -0.010615 0.031494
-0.15302 0.1689 -0.0017141 0.027017
0.0030408 -0.0013221 0.0042839 -0.00269 0.0011306 -0.0012432 0.0035213 -0.0067394
-0.0016055 0.026886 -0.19397 0.21206
980000000 -0.056893 0.28441 0.017024 0.030218 -0.009629 0.0042573 0.0021496 0.0034392
0.0038739 -0.0014147 -0.0027573 -0.0022578
0.016938 0.030252 -0.21257 0.33843 0.033751 0.0053688 0.0022845 -0.0001555
0.0015396 -0.0057649 -0.00022192 -0.0025546
-0.0096715 0.0042572 0.033793 0.0052617 0.1077 0.3069 0.00074277 -0.0011773
0.00046431 -0.0019052 0.0013965 -0.00020006
0.0021354 0.0034495 0.0022817 -0.00013572 0.00073347 -0.0011928 -0.074937 0.27114
0.0075567 0.030716 -0.0090225 -0.0072749
0.0037791 -0.0014821 0.0014699 -0.0059115 0.00051905 -0.0018932 0.0075761 0.030643
-0.1193 0.19822 0.0061415 0.019824
-0.0029741 -0.0023111 -0.00027439 -0.0024892 0.0012665 -0.00026634 -0.0087683 -0.0070999
0.0056672 0.019552 -0.15177 0.25564
1040000000 -0.015605 0.29384 0.03319 0.019133 -0.0015658 0.0071757 0.0026564 0.00092037
0.00061366 -0.0036937 -8.4139e-05 -0.0013728
0.033156 0.019211 -0.17776 0.35237 0.030387 -0.014798 0.0015236 -0.0017889
-0.0018372 -0.0029587 -0.0012176 -0.0030224
-0.001504 0.0071787 0.030331 -0.014913 0.15377 0.29423 -0.00048701 -0.0016173
-0.0016141 -0.00101 -0.00057914 -0.0010897
0.0027441 0.00097613 0.0015435 -0.0017981 -0.00048201 -0.001619 -0.047401 0.28123
0.020293 0.019005 -0.0025911 0.0010512
0.00068476 -0.0037926 -0.0018017 -0.0029641 -0.0016008 -0.0010265 0.02035 0.01902
-0.085385 0.20425 0.014051 0.017925
-3.9904e-05 -0.0014403 -0.0013226 -0.0029452 -0.00054 -0.001102 -0.0027161 0.0010925
0.014161 0.018026 -0.12911 0.2756
1100000000 0.029318 0.30286 0.036684 -0.0036393 0.0028415 0.0043025 0.0024455 -0.0012337
-0.0022841 -0.0031309 -0.0039228 -0.00026907
0.036663 -0.0035747 -0.13437 0.37023 0.015938 -0.02834 0.00010862 -0.0018496
-0.0039423 -0.00094455 -0.0036593 -0.00056348
0.0028787 0.0042784 0.015841 -0.028429 0.2004 0.27464 -0.0019689 0.00014968
-0.0017757 0.00055223 -0.0011467 -0.00046372
0.0024094 -0.0012944 0.00010188 -0.0018289 -0.00199 0.00017198 -0.0065845 0.2861
0.026069 0.0052307 -0.0025473 8.5849e-05
-0.0022286 -0.003119 -0.0039653 -0.00088006 -0.0017534 0.00055341 0.026093 0.0051254
-0.064694 0.21707 0.019887 0.0075756
-0.0041662 -0.00026947 -0.0037664 -0.0005102 -0.001186 -0.00047115 -0.0026711 4.1543e-05
0.020042 0.0074308 -0.082838 0.30292
1160000000 0.080265 0.29892 0.024813 -0.020849 0.0028769 -0.00043782 -0.00025519 -0.0023669
-0.0038648 -0.00082861 -0.00089623 0.0042557
0.024815 -0.020818 -0.090783 0.37549 -0.0035648 -0.030093 -0.0017706 -0.0017486
-0.0026352 0.0026231 -0.0015054 0.0019011
0.002906 -0.00043485 -0.0037123 -0.03009 0.24375 0.24416 -0.00082221 0.0019122
-0.00060734 0.0019558 -0.00094697 0.00043677
-0.0002531 -0.0023298 -0.0017718 -0.0017221 -0.00081911 0.0019053 0.032824 0.28329
0.022048 -0.011154 -0.0032291 0.0048334
-0.0040026 -0.00079109 -0.0026692 0.0025995 -0.00066248 0.0019358 0.022051 -0.011155
-0.030557 0.22494 0.018476 -0.00090821
-0.00089562 0.0039147 -0.0014877 0.0016677 -0.0009782 0.00042822 -0.0030214 0.0049697
0.018056 -0.000712 -0.036048 0.30604
1220000000 0.12456 0.28919 0.011108 -0.030707 -0.0016137 -0.00092515 -7.3433e-06 -0.00091002
-0.0026193 0.0022633 0.0010622 0.0020358
0.011131 -0.030657 -0.046457 0.3885 -0.017389 -0.022028 -0.0026517 0.00050902
5.6737e-05 0.0031678 -0.00088992 0.0020782
-0.0016383 -0.00094228 -0.017515 -0.021976 0.28297 0.20534 0.00080004 0.0017741
0.00068414 0.0012297 0.0002109 0.00057353
-9.1825e-06 -0.00089992 -0.0026337 0.00050526 0.00078303 0.0017699 0.073542 0.27457
0.01109 -0.018198 0.0019671 0.0015249
-0.0025576 0.002278 6.5407e-05 0.0031974 0.00070382 0.001246 0.011101 -0.018203
-0.0063503 0.23303 0.013655 -0.013926
0.0010912 0.0022411 -0.00077103 0.0021708 0.00022291 0.00054301 0.0019017 0.0014825
0.013817 -0.013933 -0.0038027 0.32029
1280000000 0.17497 0.2688 -0.0079767 -0.029237 -0.0020081 0.0025008 -0.00090196 -0.0020164
-0.00069527 0.0030977 0.0025538 0.0012455
-0.0079868 -0.029188 7.3527e-05 0.38 -0.024594 -0.0088679 -0.00091994 0.0014763
0.0018926 0.0018061 0.00082331 0.0019719
-0.0019768 0.0025039 -0.024659 -0.0087725 0.31337 0.16146 0.0016227 -4.6314e-05
0.0012388 0.00029738 0.00040785 0.00020517
-0.00091603 -0.002014 -0.00091611 0.0014709 0.0016129 -4.9918e-05 0.11057 0.25769
0.00051752 -0.020498 -0.00030348 0.00030417
-0.00073428 0.0031581 0.0019555 0.0017705 0.0012307 0.00025428 0.00046658 -0.020509
0.030449 0.23559 0.0025677 -0.015886
0.0027344 0.0011473 0.00083657 0.0018978 0.00041585 0.00027511 -0.00025408 0.00051342
0.0024412 -0.015983 0.042843 0.3212
1340000000 0.21233 0.23584 -0.018171 -0.019361 0.00076673 0.0048098 -0.0017233 -0.00093206
0.0014294 0.0026595 0.0017871 -0.0014239
-0.018123 -0.019381 0.039638 0.37193 -0.02227 0.0044569 4.8413e-05 0.0019667
0.0020536 0.00068771 0.0012684 0.00079663
0.00076685 0.0047813 -0.02226 0.0045711 0.33511 0.11452 0.0011634 -0.00097687
0.00070242 -0.00050246 0.00011752 0.00031689
-0.0017424 -0.00093972 2.1599e-05 0.0019819 0.0011543 -0.00097504 0.14347 0.23651
-0.0093864 -0.017516 0.00072956 0.0006769
0.0014228 0.002714 0.002097 0.00066681 0.00073414 -0.0004861 -0.0094151 -0.017466
0.061111 0.23093 -0.0045829 -0.014303
0.0017406 -0.0013443 0.0012536 0.00079496 0.00014957 0.00029975 0.00063581 0.00062316
-0.0046246 -0.01422 0.081076 0.31503
1400000000 0.24674 0.19819 -0.024045 -0.0074533 0.0053408 0.0033374 -0.0023169 0.00073486
0.002572 0.0009133 0.00028404 -0.0015957
-0.023989 -0.0074694 0.077335 0.35899 -0.015291 0.012907 0.0013471 0.0012428
0.0013614 -0.00092644 0.0011711 6.7253e-05
0.0053616 0.0033158 -0.015264 0.013027 0.34818 0.06157 -1.2391e-05 -0.0016451
2.9431e-05 -0.00049141 0.00030195 0.00024118
-0.0023059 0.00075757 0.0013545 0.0012108 -1.8448e-05 -0.0016272 0.17275 0.20718
-0.015666 -0.0099393 -0.0008227 -0.00012336
0.0025439 0.00090464 0.0013754 -0.00093699 4.8257e-05 -0.00051944 -0.015698 -0.0098829
0.094727 0.22556 -0.011012 -0.008716
0.00034631 -0.0016477 0.0011524 2.0977e-05 0.00032335 0.00029626 -0.00079442 -5.1301e-05
-0.011021 -0.0088039 0.12546 0.30384
1460000000 0.26969 0.15432 -0.020789 0.0052008 0.0060361 -0.0016914 -0.0015234 0.0017207
0.0022304 -0.00038322 -0.00037857 -0.00095602
-0.020749 0.0051722 0.11143 0.33687 -0.0061174 0.016075 0.001657 0.00016481
0.00072776 -0.0014 0.0011902 -0.0005506
0.0059999 -0.0017567 -0.0060323 0.016126 0.35481 0.0079447 -0.0012515 -0.0012833
0.00013221 -0.00024245 0.00068669 -0.00023077
-0.0015802 0.0017055 0.001663 0.00017865 -0.0012535 -0.0013034 0.19872 0.17761
-0.016808 -0.002573 -0.00075312 0.002193
0.0022232 -0.00038469 0.00069124 -0.0014242 0.00015518 -0.00020464 -0.01683 -0.0025397
0.12368 0.21069 -0.012806 -0.0025332
-0.00047155 -0.00092514 0.0012295 -0.00060165 0.0006891 -0.00027091 -0.00074933 0.0021149
-0.012712 -0.0025488 0.15785 0.28256
1520000000 0.28236 0.11288 -0.014864 0.010773 0.0035756 -0.0043409 7.8583e-05 0.0026484
0.0021392 -0.0019967 -0.0011014 -9.655e-05
-0.014842 0.010742 0.14481 0.32271 0.0018882 0.013525 0.0016613 -0.00079077
3.7772e-05 -0.0010901 0.00027651 -0.0010435
0.0035744 -0.0043763 0.0019683 0.013536 0.34849 -0.047397 -0.0011366 -0.00030742
0.00051682 -0.00077831 0.00014027 -0.00030458
0.0001354 0.0026227 0.0016396 -0.00080018 -0.0011257 -0.00030654 0.22157 0.13928
-0.015549 0.0037854 0.0016905 0.0020493
0.0020907 -0.0020724 5.4996e-05 -0.001092 0.00049451 -0.00079151 -0.015539 0.0037906
0.15199 0.1968 -0.01218 0.0025486
-0.0011033 -9.4581e-05 0.00024465 -0.0010077 0.00011604 -0.00024344 0.001664 0.002074
-0.012234 0.0024931 0.19058 0.26153
1580000000 0.29212 0.066653 -0.0077491 0.013907 -0.00081952 -0.0052504 0.0015818 0.001906
-0.00026445 -0.0021997 -0.00019669 0.00038975
-0.0077462 0.013885 0.17194 0.29792 0.0057443 0.0083728 0.00049741 -0.0015423
-0.00057967 -0.00096017 -0.00022571 -0.00078379
-0.00084647 -0.0052605 0.0057958 0.0083701 0.32942 -0.10482 -0.0016316 0.00066766
-0.00038801 -0.0011909 0.0003011 -0.00058575
0.001565 0.0019032 0.00049285 -0.0015443 -0.0016281 0.00065926 0.2348 0.099787
-0.011448 0.0086331 0.0023673 0.00067549
-0.00022794 -0.0021667 -0.00057517 -0.00096317 -0.00037691 -0.0011663 -0.011439 0.0086698
0.17606 0.17836 -0.0093813 0.0081557
-0.00019441 0.0003994 -0.00023765 -0.00082549 0.00026472 -0.00060686 0.0023888 0.00065962
-0.0094189 0.0081846 0.22186 0.2347
1640000000 0.2944 0.025798 -0.00088792 0.012431 -0.0029971 -0.0028443 0.0027087 0.00099487
-0.00079513 -0.0016423 -0.00033845 0.00057453
-0.00088974 0.012433 0.20126 0.27369 0.0063211 0.003269 -0.00061642 -0.0017681
-0.00097941 -0.00029781 -0.00055213 -0.00061547
-0.0030251 -0.0028582 0.0063515 0.0032453 0.30155 -0.15387 -0.000583 0.0014545
-0.00108 -0.00092813 -0.00024491 -0.00036503
0.0027544 0.00095961 -0.00061503 -0.0017776 -0.00059321 0.0014587 0.24667 0.051449
-0.0066962 0.0097029 0.0025987 -0.00088034
-0.00077094 -0.0017013 -0.00098139 -0.00029525 -0.0011004 -0.00093191 -0.0066527 0.00975
0.19882 0.15406 -0.0042522 0.010124
-0.00037355 0.00056494 -0.00052189 -0.00061008 -0.00023534 -0.00035209 0.0025353 -0.00088714
-0.0042565 0.010097 0.24682 0.2035
1700000000 0.2875 -0.019215 0.0025173 0.0092632 -0.003778 -2.0589e-05 0.0030525 -0.0013028
-0.0020713 -0.00061719 0.00062342 0.0002491
0.0024954 0.0092697 0.21959 0.24268 0.0040801 0.00023751 -0.0015163 -0.00060931
-0.00072644 2.2311e-05 -0.00080967 -0.00042305
-0.0037917 -1.6343e-05 0.004094 0.00020813 0.25916 -0.19412 0.00044145 0.0016433
-0.0019053 -3.6138e-05 -0.00045293 -0.00097873
0.0030561 -0.0012738 -0.0015125 -0.00059842 0.00047097 0.0016529 0.24336 0.0022093
-0.0036573 0.0097072 0.0016219 -0.0023522
-0.0020905 -0.00056066 -0.00073837 1.0892e-05 -0.0018904 -1.3553e-06 -0.0036309 0.0097313
0.21604 0.13337 0.00049989 0.0099499
0.0006128 0.00029619 -0.00088312 -0.00039039 -0.00046806 -0.00095344 0.0016089 -0.0023533
0.00045855 0.0099268 0.26312 0.16937
1760000000 0.27592 -0.067597 0.0045958 0.0058219 -0.0024225 0.0012391 0.0013003 -0.0034355
-0.0014086 0.00079585 0.00032089 -0.00048322
0.0045937 0.0058341 0.24564 0.2034 0.0015846 -0.001557 -0.0012039 0.00016601
-0.00098466 0.00082659 -0.00060824 0.0004244
-0.0023901 0.0012333 0.00157 -0.001555 0.2104 -0.22772 0.0011248 0.00095177
-0.0012123 0.0014119 -0.0011857 -0.00058863
0.001317 -0.003451 -0.0012 0.000171 0.0010872 0.0010066 0.23443 -0.048647
-0.00057918 0.0085157 -0.00019679 -0.0025612
-0.0013887 0.00078139 -0.00096906 0.00084821 -0.0012222 0.0014476 -0.00058348 0.0085186
0.23048 0.098587 0.0045051 0.0071799
0.00024939 -0.00047782 -0.00057373 0.00040184 -0.0011743 -0.00057971 -0.00020035 -0.002526
0.0045192 0.00715 0.27573 0.13164
1820000000 0.25197 -0.10456 0.004422 0.0022341 -0.00028264 0.0024268 -0.0010211 -0.0030461
-0.0010615 0.0010858 -0.00029011 -9.5006e-05
0.0044263 0.0022145 0.25627 0.17389 -0.00071764 -0.00037491 -0.0013331 0.00094043
-0.00010988 0.00122 -0.00058169 0.00046169
-0.00026091 0.0024527 -0.00071349 -0.00039436 0.16037 -0.24383 0.0014706 0.00048055
-0.00025904 0.002344 -0.0014729 0.00027768
-0.0010366 -0.0030656 -0.0013191 0.00092723 0.0014551 0.0004914 0.20503 -0.095325
0.00069353 0.0070482 -0.0017493 -0.0016239
-0.001053 0.0011299 -8.4879e-05 0.001217 -0.00027441 0.002369 0.00070527 0.0070698
0.2472 0.069997 0.0052105 0.0034249
-0.00021778 -8.3274e-05 -0.00059376 0.00049014 -0.0014526 0.00025949 -0.0018016 -0.001619
0.0052175 0.0034017 0.27758 0.095252
1880000000 0.21737 -0.1453 0.0021781 6.862e-05 -0.00034514 0.0021682 -0.0029774 -0.0021743
-0.00015331 0.0018124 0.00020469 -0.0005093
0.0021628 6.2759e-05 0.2613 0.12746 -0.0026533 0.0015551 -0.00022078 0.0017581
0.00056116 0.0012616 3.1259e-05 0.00096384
-0.00040213 0.0021453 -0.0026593 0.001549 0.10847 -0.25349 0.0017915 -0.00098023
0.001607 0.0019401 -0.0010436 0.0014594
-0.0028815 -0.0021586 -0.00023035 0.0017689 0.0017871 -0.00098958 0.16538 -0.1354
0.001457 0.0051368 -0.0025918 0.00026921
-7.2773e-05 0.0018264 0.00055212 0.0012613 0.0016329 0.0018935 0.0014771 0.0051591
0.25087 0.038498 0.0051748 0.00091521
0.00018241 -0.00044664 6.3763e-05 0.001018 -0.0010306 0.001498 -0.0025411 0.00034135
0.0051826 0.00093692 0.27737 0.060825
1940000000 0.17838 -0.17111 -0.0002773 -0.001418 0.001379 0.002267 -0.0036042 0.00049618
0.0015409 0.0011034 -0.00036737 -0.00053462
-0.00027776 -0.0014389 0.26246 0.095845 -0.0014902 0.0041017 0.0011114 0.001315
0.0018319 0.00059644 0.0010244 0.00038878
0.0013297 0.0022607 -0.0014803 0.0041203 0.062081 -0.24645 0.00051148 -0.0021871
0.0024338 0.00042815 0.00054803 0.0017218
-0.0035747 0.00052892 0.001132 0.0012607 0.00060141 -0.0022404 0.11326 -0.16656
0.00072139 0.0038252 -0.0013023 0.0017757
0.0015759 0.0010881 0.0018533 0.00058476 0.0024392 0.0004285 0.00072226 0.0038194
0.25372 0.00074521 0.0038574 -0.0021848
-0.00042009 -0.00057857 0.00098859 0.00035611 0.00047194 0.0016591 -0.0014104 0.0017377
0.0037719 -0.0021471 0.26584 0.024501
2000000000 0.13275 -0.18655 -0.0039106 0.00061163 0.0027553 0.0016075 -0.0023733 0.0038326
0.0010999 0.00033465 -0.00049649 0.00031712
-0.0039021 0.00064957 0.24905 0.060088 -0.00099199 0.0058537 0.0015673 0.00045288
0.0014204 -0.0010968 0.00055988 0.00015726
0.0027989 0.0015832 -0.0009356 0.0058765 0.019133 -0.2326 -0.001286 -0.0014015
0.0021198 -0.001315 0.0016134 0.0013946
-0.0022828 0.0038593 0.0015714 0.00040328 -0.0013227 -0.0014732 0.060218 -0.17707
-0.00051749 0.003748 -0.00021557 0.0021899
0.001092 0.00035631 0.0013888 -0.0011463 0.0020947 -0.0013667 -0.0005219 0.0037599
0.24892 -0.032206 0.00049003 -0.0033837
