!Keysight Technologies,M9804A,MY58100912,A.14.10.03
!Date: Thursday, April 27, 2023 10:28:33
!Correction: S11(C  6-Port  ) 
!S12(C  6-Port  ) 
!S13(C  6-Port  ) 
!S14(C  6-Port  ) 
!S15(C  6-Port  ) 
!S16(C  6-Port  ) 
!S21(C  6-Port  ) 
!S22(C  6-Port  ) 
!S23(C  6-Port  ) 
!S24(C  6-Port  ) 
!S25(C  6-Port  ) 
!S26(C  6-Port  ) 
!S31(C  6-Port  ) 
!S32(C  6-Port  ) 
!S33(C  6-Port  ) 
!S34(C  6-Port  ) 
!S35(C  6-Port  ) 
!S36(C  6-Port  ) 
!S41(C  6-Port  ) 
!S42(C  6-Port  ) 
!S43(C  6-Port  ) 
!S44(C  6-Port  ) 
!S45(C  6-Port  ) 
!S46(C  6-Port  ) 
!S51(C  6-Port  ) 
!S52(C  6-Port  ) 
!S53(C  6-Port  ) 
!S54(C  6-Port  ) 
!S55(C  6-Port  ) 
!S56(C  6-Port  ) 
!S61(C  6-Port  ) 
!S62(C  6-Port  ) 
!S63(C  6-Port  ) 
!S64(C  6-Port  ) 
!S65(C  6-Port  ) 
!S66(C  6-Port  ) 
!S6P File: Measurement: :
# Hz S  RI   R 50
500000000 -0.33462 -0.050751 -0.010132 -0.0011146 -0.0085814 0.013393 -0.0044787 0.011606
0.012015 0.0050374 -0.0050071 0.0083258
-0.01016 -0.0010864 -0.41725 -0.061545 0.0079103 -0.010386 0.0012585 0.01248
0.0076174 0.002576 0.0010732 0.013689
-0.0085087 0.013341 0.0078573 -0.010411 -0.26698 0.20048 0.0073657 0.0036065
-0.0021178 0.0089322 0.0011305 0.012442
-0.004468 0.011788 0.0012286 0.01236 0.0074121 0.0036081 -0.33229 0.044923
-0.018934 -0.0052396 0.015843 0.02575
0.012321 0.0050292 0.0077447 0.0026414 -0.0021707 0.0089596 -0.01872 -0.005258
-0.24906 -0.19187 -0.026149 0.0035973
-0.0044415 0.007834 0.00074519 0.013712 0.0011412 0.012739 0.015559 0.026054
-0.025881 0.0038932 -0.27399 -0.11485
560000000 -0.31801 0.11494 -0.022969 -0.064128 -0.00015981 0.012851 0.0059697 0.011749
0.010217 0.0044581 0.010758 0.0087732
-0.023015 -0.063989 -0.37526 0.10065 -0.042151 -0.037667 0.013885 0.0034728
-0.014091 -0.0043295 0.0038745 -0.00071734
-0.0001431 0.012961 -0.042347 -0.037408 -0.18505 0.25146 5.1968e-05 -0.0042655
0.019311 0.0044598 0.0080281 -0.0045036
0.0061385 0.011498 0.013645 0.0035536 0.0003361 -0.0046176 -0.30677 0.13685
0.0076493 -0.024324 0.004713 -0.020625
0.010477 0.0044591 -0.013947 -0.0038636 0.019364 0.0043267 0.0072043 -0.024196
-0.31018 -0.013524 0.0087622 -0.04821
0.010873 0.0089712 0.0038778 -0.00036333 0.0079537 -0.0045716 0.0047128 -0.02069
0.0086164 -0.048015 -0.33125 0.029602
620000000 -0.27733 0.094588 -0.022991 0.0088292 0.003934 0.0092573 0.008244 -0.0053048
0.013144 -0.0010836 0.00083901 -0.0028726
-0.02298 0.0088381 -0.40337 0.050832 -0.018459 0.00091191 -0.0016081 -0.0025259
0.012334 -0.0058888 0.0012899 -0.0033154
0.0039419 0.0092397 -0.018411 0.00096671 -0.15523 0.26161 -0.00092677 -0.0054174
-0.0027239 -0.0032944 0.0090685 -0.0032934
0.0083007 -0.0054993 -0.0016785 -0.002422 -0.0010184 -0.005404 -0.26577 0.14721
-0.037992 -0.019342 0.011663 0.027325
0.012958 -0.0012371 0.012256 -0.0061529 -0.0028871 -0.0032032 -0.037776 -0.019469
-0.2315 -0.044965 -0.038754 0.01164
0.00073051 -0.0030245 0.0012771 -0.0033754 0.0089942 -0.0035487 0.011726 0.027074
-0.037909 0.011424 -0.25482 -0.0023729
680000000 -0.23876 0.1847 -0.026469 -0.014277 0.0050494 0.0054929 0.0013847 -0.0071414
-0.0020277 -0.01195 0.0049777 -0.0067961
-0.026435 -0.014267 -0.38943 0.15125 -0.032558 -0.0019126 -0.001129 -0.00068087
-0.0018341 -0.0095598 -0.0012795 -0.0016737
0.0050444 0.0055023 -0.032567 -0.0018206 -0.10372 0.28136 -0.00071522 -0.0004235
-0.0017826 0.00025176 -0.0028937 -0.0092454
0.0013806 -0.0071646 -0.0010828 -0.0006392 -0.00074997 -0.00045147 -0.22075 0.19778
-0.023251 -0.007498 -0.008924 -0.011598
-0.0021733 -0.011789 -0.002043 -0.0097052 -0.0017618 0.00025364 -0.023231 -0.0075315
-0.27775 0.058787 -0.0074846 -0.0074439
0.0049902 -0.0069289 -0.0014021 -0.0015554 -0.0028832 -0.0093797 -0.008866 -0.01163
-0.0070557 -0.0075391 -0.25896 0.096452
740000000 -0.19296 0.17865 -0.039609 0.027166 0.013442 -0.0048553 -0.00071565 -0.0040042
-0.0045033 -0.0029445 -0.0065786 0.0035004
-0.039463 0.027089 -0.335 0.16933 -0.03625 0.035068 -8.9637e-05 -0.0063119
-0.012135 0.0080258 -0.0018072 -0.0060313
0.013436 -0.004897 -0.03625 0.035163 -0.069977 0.279 -0.0020306 0.00332
-0.0025667 -0.0052431 -0.0015668 0.00089583
-0.00070081 -0.0039187 -0.00021161 -0.006297 -0.0019897 0.0033718 -0.20359 0.20496
-0.042623 -0.0070119 0.021741 0.014581
-0.0046237 -0.0028827 -0.012361 0.0078457 -0.0026039 -0.0054028 -0.042933 -0.0069993
-0.17892 0.082738 -0.041389 0.000887
-0.0065645 0.0034693 -0.00162 -0.0061945 -0.0017379 0.0010813 0.021999 0.014524
-0.041256 0.0013508 -0.24681 0.10586
800000000 -0.16119 0.2219 -0.022568 0.01624 0.0056932 -0.01051 -0.0045635 -0.0021476
-0.0045876 0.0022687 0.0041812 0.00058374
-0.022577 0.016206 -0.34051 0.24029 -0.0084845 0.034238 -0.0023309 0.002138
-0.0010609 0.002781 0.00083353 0.0054749
0.0056371 -0.010493 -0.0083974 0.034315 -0.030967 0.30258 0.00073482 0.0013435
-9.0183e-05 0.0036582 -0.002038 0.00069853
-0.0045879 -0.0021461 -0.0023546 0.0021048 0.00076474 0.0013328 -0.17375 0.2323
-0.028452 0.013127 0.013372 -0.010487
-0.0045509 0.0023066 -0.0011539 0.0028032 -0.00011463 0.0037089 -0.028423 0.013232
-0.21969 0.11301 -0.016952 0.019762
0.003943 0.00049334 0.00081494 0.0053752 -0.0020556 0.00062859 0.013532 -0.01047
-0.016948 0.019679 -0.23916 0.15415
860000000 -0.12676 0.24155 -0.017887 0.030424 -0.0028866 -0.010374 -0.0019535 0.00068554
0.0037468 0.0051024 -0.003447 -0.0025988
-0.017882 0.030366 -0.2925 0.28281 0.0075841 0.034628 -5.0893e-05 0.0019798
0.0036113 0.00065819 0.0033906 0.00061606
-0.0029136 -0.010369 0.0076622 0.0346 0.016485 0.31102 -0.00065828 -8.8156e-05
0.0023843 -0.0013923 0.0017976 0.0042415
-0.0019664 0.00070217 -7.6789e-06 0.0019965 -0.00066754 -0.0001032 -0.13762 0.24319
-0.018421 0.017936 -0.0061329 -0.0085996
0.0036452 0.0051215 0.003518 0.00081611 0.002344 -0.001411 -0.018418 0.018067
-0.16533 0.16253 -0.023686 0.018203
-0.0034021 -0.0026438 0.0035714 0.00040997 0.0018565 0.0043625 -0.0062179 -0.0087332
-0.023617 0.017826 -0.18937 0.19753
920000000 -0.10339 0.26463 0.0043355 0.038161 -0.0095233 -0.0051309 -0.0020169 0.0017166
0.0011524 0.0022925 0.0028803 -0.0017071
0.0043393 0.03814 -0.26531 0.30405 0.028172 0.022689 0.0015917 0.0013352
0.0074755 -0.00033177 0.0042695 -0.0026178
-0.0095405 -0.0051513 0.028275 0.022676 0.062006 0.31259 0.001942 5.4154e-05
0.0011983 -0.00021617 0.00089363 -0.0011274
-0.0020771 0.0017612 0.0015475 0.0013282 0.0019305 3.8542e-05 -0.11261 0.25946
-0.010793 0.030793 0.0031153 -0.0067961
0.0011577 0.0021773 0.0075413 -0.00039957 0.0011909 -0.0002556 -0.010796 0.030884
-0.15271 0.1698 -0.0013409 0.027285
0.0028713 -0.0015195 0.004193 -0.0028073 0.0010146 -0.0012337 0.0033302 -0.0067942
-0.0016555 0.027172 -0.19316 0.21271
980000000 -0.056471 0.28469 0.016989 0.030203 -0.0096969 0.0042268 0.0018157 0.0035581
0.0040876 -0.0016996 -0.0029878 -0.0024384
0.016961 0.030179 -0.21207 0.33874 0.033531 0.0052942 0.0020357 -0.0001027
0.0018039 -0.0060917 -0.00031416 -0.0024903
-0.0096865 0.004245 0.03358 0.0051976 0.10798 0.30677 0.00062656 -0.0012024
0.00044726 -0.0020048 0.001372 -0.00033709
0.0018106 0.0035569 0.0020315 -7.7018e-05 0.00062273 -0.0012126 -0.074448 0.27085
0.0073134 0.029806 -0.0087952 -0.006862
0.0041623 -0.0017101 0.001792 -0.0060609 0.00044632 -0.0019668 0.0073181 0.029859
-0.11836 0.19803 0.0060555 0.020291
-0.0029057 -0.0024547 -0.0001992 -0.0025129 0.0014292 -0.00030011 -0.0087951 -0.0068007
0.0059578 0.020184 -0.15115 0.25553
1040000000 -0.01511 0.29403 0.03306 0.018918 -0.0016077 0.0070373 0.0027029 0.00086214
0.0006011 -0.0035726 5.2189e-05 -0.0016385
0.033009 0.01887 -0.17715 0.35235 0.03021 -0.014809 0.0016561 -0.0017659
-0.0019591 -0.0028143 -0.0012403 -0.0027342
-0.0015745 0.0070451 0.030177 -0.014888 0.15396 0.29402 -0.00050798 -0.0016658
-0.0015356 -0.00096276 -0.00058827 -0.0011267
0.0027275 0.00087297 0.0016296 -0.0017943 -0.00051202 -0.0016692 -0.047284 0.28046
0.019568 0.018492 -0.0027566 0.0013166
0.00057972 -0.0035791 -0.0020877 -0.0028212 -0.0015502 -0.0010037 0.019606 0.018424
-0.085647 0.20506 0.014427 0.017421
0.00010935 -0.0016403 -0.0011585 -0.0028754 -0.00056106 -0.0011205 -0.0027883 0.0012355
0.014294 0.017434 -0.12787 0.2758
1100000000 0.02993 0.30291 0.036489 -0.0036016 0.0027496 0.004184 0.0023941 -0.0012135
-0.0021912 -0.0032142 -0.0042095 -7.7965e-05
0.036441 -0.0035705 -0.13405 0.37045 0.015871 -0.028211 6.1525e-05 -0.0018661
-0.0037399 -0.0010497 -0.003749 -0.00064156
0.0027653 0.0041825 0.015797 -0.028305 0.20048 0.27448 -0.0020086 0.00016484
-0.001801 0.00046825 -0.0010131 -0.00041252
0.0023605 -0.0012211 4.2978e-05 -0.0018892 -0.0020159 0.00016171 -0.0067571 0.28543
0.024995 0.0050856 -0.0022013 0.00020791
-0.0021917 -0.0032225 -0.0037351 -0.0010494 -0.0017859 0.00049308 0.024995 0.0050613
-0.064332 0.21725 0.019665 0.0082862
-0.0041399 -6.7649e-05 -0.0037391 -0.00056049 -0.0010512 -0.00042097 -0.0022928 0.00020537
0.019609 0.0082798 -0.081617 0.30326
1160000000 0.080849 0.29894 0.024687 -0.020784 0.0027905 -0.00039104 -4.8034e-05 -0.002436
-0.0040746 -0.00084487 -0.0010432 0.0040717
0.024682 -0.020762 -0.090445 0.3753 -0.0034924 -0.02986 -0.0016168 -0.0017861
-0.0026689 0.0027125 -0.0017204 0.0019989
0.0028084 -0.00040256 -0.0036324 -0.029866 0.24386 0.2441 -0.00077217 0.0018555
-0.00055038 0.0020099 -0.00098629 0.00035879
-7.0615e-05 -0.0024217 -0.0016483 -0.0017645 -0.00079072 0.0018586 0.032339 0.28265
0.021263 -0.010693 -0.0034689 0.0051554
-0.004047 -0.00078679 -0.0027078 0.0027242 -0.0005192 0.0020144 0.021232 -0.010747
-0.029726 0.22507 0.018361 -0.0015787
-0.0010324 0.0040959 -0.0016759 0.0019805 -0.00096302 0.00031825 -0.0033997 0.0050928
0.018378 -0.001576 -0.035255 0.3062
1220000000 0.12499 0.28902 0.010917 -0.030436 -0.0016215 -0.00083448 -1.1155e-05 -0.00087764
-0.0026952 0.0022359 0.0012351 0.002145
0.010935 -0.030402 -0.046224 0.38832 -0.01725 -0.021974 -0.0027251 0.00056386
4.4537e-05 0.0031706 -0.00074988 0.0019956
-0.0016137 -0.00080845 -0.017358 -0.021905 0.28306 0.20537 0.00080869 0.0017648
0.00068791 0.0012067 0.00024365 0.00057448
-2.4087e-05 -0.00087017 -0.0027518 0.00056197 0.00080229 0.0017835 0.072598 0.27436
0.010484 -0.017549 0.0019831 0.0016646
-0.0026775 0.0022532 4.213e-05 0.0032027 0.00065023 0.001259 0.010465 -0.017559
-0.0057098 0.23321 0.013538 -0.013463
0.0012438 0.0021977 -0.00073591 0.0019937 0.00029099 0.00056279 0.0019487 0.0016885
0.013537 -0.013436 -0.0029257 0.32007
1280000000 0.1755 0.26847 -0.0079659 -0.029135 -0.0020149 0.0025243 -0.00081366 -0.0021054
-0.00068427 0.0032123 0.0025652 0.0012103
-0.0079525 -0.02913 6.4198e-05 0.37985 -0.02454 -0.0088625 -0.00095597 0.0014689
0.0018987 0.0017893 0.000644 0.0020828
-0.0020322 0.0025422 -0.024618 -0.0087549 0.31343 0.16161 0.0016028 -0.0001701
0.0012337 0.00020882 0.00035558 0.00026059
-0.00080456 -0.0020892 -0.00094797 0.0014734 0.0015945 -0.00014038 0.10964 0.25799
0.0005443 -0.019551 -4.8001e-05 0.00045207
-0.00069563 0.0031905 0.0019201 0.0017343 0.0012581 0.00022024 0.00049072 -0.019537
0.030862 0.23603 0.0028561 -0.015953
0.0025874 0.0012217 0.00067249 0.0020664 0.00035545 0.00032859 -5.3888e-05 0.00044056
0.0029007 -0.015954 0.043532 0.3209
1340000000 0.21287 0.23556 -0.017924 -0.019232 0.00086447 0.0047535 -0.0018917 -0.00093027
0.0015309 0.0026696 0.0018588 -0.0014562
-0.017882 -0.019231 0.039777 0.37194 -0.02216 0.0044135 -1.8259e-05 0.0020539
0.0020821 0.00067081 0.0012802 0.00083095
0.000889 0.0047602 -0.022147 0.004528 0.33537 0.11449 0.0010712 -0.0010299
0.00075968 -0.00063371 0.00015733 0.00026092
-0.0019099 -0.00093094 -8.9003e-06 0.0020408 0.0010719 -0.0010267 0.14276 0.2376
-0.0092001 -0.016538 0.00085171 0.0005925
0.0015465 0.0026564 0.0021023 0.0006592 0.00075481 -0.00058508 -0.0092333 -0.016503
0.061279 0.23077 -0.0043838 -0.014009
0.0018209 -0.0014524 0.0012732 0.00082813 0.00015107 0.00026998 0.00086551 0.00062227
-0.0044043 -0.013997 0.082161 0.31492
1400000000 0.24672 0.19796 -0.023967 -0.0073794 0.0053343 0.0033812 -0.002216 0.00061694
0.0025063 0.0010148 0.00027702 -0.0016319
-0.023944 -0.007381 0.077414 0.35923 -0.015275 0.01289 0.0013459 0.0012371
0.0012 -0.00091742 0.0011782 0.00011805
0.0053532 0.003338 -0.015218 0.012982 0.34856 0.061579 -1.1309e-05 -0.00158
5.6428e-05 -0.00032626 0.00024214 0.00026944
-0.0022203 0.00063321 0.0013564 0.0012235 -2.7589e-05 -0.0015877 0.17247 0.20841
-0.014974 -0.0094674 -0.00076171 -0.00014268
0.002513 0.0010207 0.0012113 -0.00093432 4.867e-05 -0.00033641 -0.015008 -0.0094048
0.094885 0.22582 -0.010735 -0.0089388
0.00025383 -0.0016261 0.0011644 0.00012261 0.00023472 0.00028872 -0.00076852 -0.00015527
-0.010713 -0.0089309 0.12575 0.30359
1460000000 0.27006 0.15416 -0.02061 0.0050894 0.0059065 -0.0017971 -0.0016117 0.0018701
0.0021805 -0.00047739 -0.00035977 -0.00097722
-0.020593 0.0050624 0.11171 0.3373 -0.0061522 0.016038 0.0017026 0.00012221
0.0007861 -0.0013911 0.0011755 -0.00058225
0.0058988 -0.0018167 -0.0060793 0.016087 0.35508 0.0078165 -0.0013078 -0.0012064
0.00012257 -0.0002651 0.00065616 -0.00034669
-0.0016195 0.0018743 0.0016956 0.00011361 -0.0013039 -0.0012352 0.19899 0.17888
-0.016022 -0.0023833 -0.00062498 0.0019562
0.0021515 -0.00044723 0.00077492 -0.0013891 9.5023e-05 -0.00026031 -0.016031 -0.0023192
0.12417 0.21084 -0.012589 -0.0024468
-0.00036197 -0.00095782 0.0012043 -0.00056382 0.00064316 -0.00032706 -0.00064518 0.0019469
-0.012583 -0.0024311 0.15865 0.282
1520000000 0.28261 0.11267 -0.014709 0.010716 0.0035586 -0.0043279 0.00014528 0.0025881
0.0021063 -0.0020294 -0.0011902 -0.00014286
-0.014713 0.010683 0.14526 0.32293 0.0018582 0.013547 0.0015901 -0.00076103
2.2585e-06 -0.0010499 0.00037694 -0.0010583
0.0035532 -0.0043344 0.0019266 0.013541 0.34891 -0.04774 -0.0010878 -0.0002616
0.00062942 -0.00087999 0.00019075 -0.0001839
0.00017389 0.0025837 0.0016017 -0.00075877 -0.0010834 -0.00029718 0.22251 0.1404
-0.014745 0.0035386 0.0015103 0.0019654
0.002085 -0.0020525 -1.3292e-05 -0.0010333 0.00062262 -0.00088367 -0.014716 0.0035705
0.15242 0.19715 -0.012161 0.0022377
-0.0011901 -0.00015495 0.00036718 -0.0010533 0.00015564 -0.00020267 0.0015163 0.0019945
-0.012172 0.0021988 0.19126 0.26124
1580000000 0.29253 0.066354 -0.0077759 0.013744 -0.00083288 -0.0051652 0.0015732 0.0019197
-0.0003368 -0.0022008 -0.00016993 0.0004407
-0.0077803 0.013731 0.17257 0.29823 0.0057373 0.0084206 0.00050482 -0.001576
-0.00057462 -0.00097991 -0.00024279 -0.00084893
-0.00081003 -0.0051671 0.0057838 0.0084172 0.32964 -0.10515 -0.0015656 0.00056739
-0.00035102 -0.001198 0.00016926 -0.0006533
0.0015647 0.0019173 0.00050581 -0.0015892 -0.001556 0.00058867 0.23615 0.10055
-0.010849 0.0081505 0.0021935 0.00060743
-0.00033561 -0.0021854 -0.00059124 -0.00096468 -0.00034669 -0.0011746 -0.010832 0.0081939
0.17671 0.17852 -0.0094036 0.0080008
-0.00019579 0.000426 -0.00025123 -0.00085499 0.00017493 -0.00062732 0.0021952 0.00059637
-0.0093835 0.008014 0.22264 0.23414
1640000000 0.29477 0.025491 -0.00090631 0.012317 -0.0028921 -0.002924 0.0026862 0.00090204
-0.00083117 -0.0016356 -0.00029976 0.00054592
-0.00092634 0.012323 0.20204 0.27369 0.0062761 0.0032564 -0.00059772 -0.0017202
-0.00091319 -0.0003663 -0.00053686 -0.00069167
-0.0029034 -0.00291 0.0062905 0.0032285 0.30159 -0.15465 -0.00065751 0.0014182
-0.0011588 -0.00093385 -0.00020171 -0.00031829
0.002675 0.00089157 -0.00061544 -0.0017194 -0.00064074 0.0014413 0.24836 0.051499
-0.0063886 0.0090071 0.0024302 -0.00090438
-0.00081763 -0.0016535 -0.00091033 -0.00036346 -0.0011678 -0.00090134 -0.0063581 0.0090349
0.19976 0.15425 -0.0044013 0.0097756
-0.00029435 0.00055764 -0.00053645 -0.00069425 -0.00017896 -0.00034249 0.0024351 -0.0009159
-0.0043952 0.0097731 0.24757 0.20307
1700000000 0.28794 -0.019695 0.0023578 0.0092454 -0.0038086 -0.00016603 0.0030862 -0.0012153
-0.0020168 -0.00054636 0.00064771 0.00028817
0.0023481 0.0092433 0.22032 0.24251 0.0041525 0.00025401 -0.0014392 -0.0005995
-0.00078621 -1.4679e-05 -0.00090119 -0.00042001
-0.003828 -0.0001437 0.004151 0.0002316 0.25899 -0.19401 0.00043324 0.0015311
-0.0019334 -6.8933e-05 -0.00043205 -0.00095541
0.0030795 -0.001225 -0.0014522 -0.00059453 0.00043881 0.0015269 0.24495 0.0013708
-0.0036276 0.009102 0.0014986 -0.0022821
-0.0020085 -0.00056405 -0.00077029 3.9908e-06 -0.0019165 -4.8196e-05 -0.0036133 0.0090872
0.21707 0.13337 0.00028669 0.0099444
0.00061276 0.00031532 -0.00091277 -0.00043968 -0.00044626 -0.00095401 0.0014915 -0.0023105
0.00029593 0.009936 0.26359 0.16859
1760000000 0.27627 -0.068309 0.0045002 0.005909 -0.0025937 0.0011161 0.0012097 -0.003381
-0.0014539 0.0007158 0.00034914 -0.00059548
0.0044972 0.005901 0.24646 0.20303 0.0017039 -0.0016278 -0.0011903 0.00010338
-0.0010518 0.0007986 -0.0006136 0.0004333
-0.0025899 0.0011512 0.0016964 -0.0016449 0.21084 -0.22767 0.0011909 0.0010142
-0.0012013 0.001513 -0.0012065 -0.00053666
0.0012106 -0.0033907 -0.0011966 0.00010082 0.001181 0.0010265 0.23567 -0.050072
-0.00067241 0.0079136 -0.00027023 -0.0025738
-0.0014091 0.00070825 -0.0010281 0.000817 -0.0012201 0.0015031 -0.00063761 0.0078962
0.23167 0.098151 0.0043383 0.0071307
0.00034207 -0.00059282 -0.00061293 0.00042338 -0.0012143 -0.00056538 -0.00024938 -0.0025875
0.0043442 0.0071408 0.27616 0.13091
1820000000 0.25215 -0.10555 0.0044389 0.0022518 -0.00035029 0.002567 -0.0009829 -0.0030274
-0.001024 0.0010853 -0.00022318 -0.00014094
0.0044337 0.0022489 0.25685 0.17324 -0.00080571 -0.00049269 -0.0013539 0.00097672
-0.00017189 0.0012381 -0.00058247 0.00053894
-0.00031912 0.0025727 -0.00080256 -0.0004926 0.1603 -0.24405 0.0015207 0.00059925
-0.00018462 0.002404 -0.0016255 0.00035725
-0.00097546 -0.0030418 -0.0013452 0.00098643 0.0015289 0.00060301 0.2055 -0.097236
0.00047435 0.0065424 -0.0017304 -0.0015186
-0.0010058 0.001092 -0.00015577 0.0012483 -0.00019802 0.0024443 0.00049113 0.0065271
0.24859 0.069221 0.0050558 0.0035399
-0.00020335 -0.00014841 -0.00057099 0.00055441 -0.0016549 0.00035636 -0.0017378 -0.001549
0.0050409 0.0035406 0.27803 0.094449
1880000000 0.21724 -0.14632 0.002231 3.405e-05 -0.00044752 0.002296 -0.0029558 -0.0022059
-0.00014992 0.0018483 0.00020474 -0.00054859
0.0022312 3.2722e-05 0.26177 0.12681 -0.0027525 0.00156 -0.00022104 0.0017721
0.00049346 0.001388 0.00012696 0.00089591
-0.00041117 0.0023356 -0.0027576 0.001592 0.10784 -0.25387 0.0018904 -0.00083034
0.0016963 0.0019894 -0.00090679 0.0014675
-0.0029914 -0.0021594 -0.0002154 0.0017755 0.0018768 -0.0008237 0.16445 -0.13743
0.00083209 0.0048164 -0.0024959 0.00041946
-0.00013247 0.0018455 0.00052457 0.0013881 0.0017 0.0020126 0.00081516 0.0048258
0.25178 0.037346 0.0051599 0.0010601
0.00021576 -0.00052239 0.00011466 0.00092263 -0.00091209 0.0014535 -0.0024815 0.00043156
0.0051465 0.0010553 0.27744 0.060379
1940000000 0.17788 -0.1717 -0.00029929 -0.0013964 0.0014632 0.002196 -0.0037522 0.00037305
0.0013861 0.0010605 -0.00038586 -0.00041782
-0.0003001 -0.0013936 0.26266 0.095109 -0.0015029 0.004205 0.0010804 0.0013652
0.0018844 0.00058585 0.00098847 0.00037147
0.0014534 0.00218 -0.0014885 0.0042199 0.061853 -0.24657 0.00065238 -0.002311
0.0025369 0.0003019 0.00063486 0.0016266
-0.0037529 0.00041741 0.0010673 0.0013668 0.00063613 -0.0023197 0.11179 -0.16773
-5.7767e-05 0.0037317 -0.0014153 0.0017684
0.0014046 0.0010426 0.0018831 0.00056706 0.0025016 0.00026223 -7.1645e-05 0.0037186
0.2541 -0.00084016 0.0037425 -0.0020695
-0.00041197 -0.00043246 0.0010181 0.00034203 0.00068337 0.0015958 -0.0014508 0.001736
0.0037309 -0.0020994 0.26634 0.024043
2000000000 0.13202 -0.18677 -0.0040709 0.00067291 0.0025861 0.0015047 -0.0023467 0.0038257
0.0012455 0.00035978 -0.00045709 0.00035651
-0.0040565 0.00068075 0.24899 0.059327 -0.00081601 0.0059528 0.0017025 0.00035735
0.001518 -0.001072 0.00047631 0.00020087
0.0025822 0.0014846 -0.00079042 0.0059624 0.019085 -0.23256 -0.0014535 -0.001569
0.0020237 -0.0012568 0.0018138 0.0013129
-0.0023716 0.0038343 0.0016981 0.00036464 -0.0014472 -0.001588 0.058581 -0.17747
-0.0012802 0.0038785 -2.9295e-05 0.0021884
0.0012567 0.00032958 0.0015114 -0.0010975 0.0020013 -0.0012963 -0.0012749 0.0038722
0.24892 -0.033725 0.00060977 -0.0031355
