!Keysight Technologies,M9804A,MY58100912,A.14.10.03
!Date: Thursday, April 27, 2023 10:28:33
!Correction: S11(C  6-Port  ) 
!S12(C  6-Port  ) 
!S13(C  6-Port  ) 
!S14(C  6-Port  ) 
!S15(C  6-Port  ) 
!S16(C  6-Port  ) 
!S21(C  6-Port  ) 
!S22(C  6-Port  ) 
!S23(C  6-Port  ) 
!S24(C  6-Port  ) 
!S25(C  6-Port  ) 
!S26(C  6-Port  ) 
!S31(C  6-Port  ) 
!S32(C  6-Port  ) 
!S33(C  6-Port  ) 
!S34(C  6-Port  ) 
!S35(C  6-Port  ) 
!S36(C  6-Port  ) 
!S41(C  6-Port  ) 
!S42(C  6-Port  ) 
!S43(C  6-Port  ) 
!S44(C  6-Port  ) 
!S45(C  6-Port  ) 
!S46(C  6-Port  ) 
!S51(C  6-Port  ) 
!S52(C  6-Port  ) 
!S53(C  6-Port  ) 
!S54(C  6-Port  ) 
!S55(C  6-Port  ) 
!S56(C  6-Port  ) 
!S61(C  6-Port  ) 
!S62(C  6-Port  ) 
!S63(C  6-Port  ) 
!S64(C  6-Port  ) 
!S65(C  6-Port  ) 
!S66(C  6-Port  ) 
!S6P File: Measurement: :
# Hz S  RI   R 50
500000000 -0.33593 -0.051688 -0.011405 -0.0017605 -0.0087717 0.013711 -0.0037138 0.01218
0.012491 0.005886 -0.0047399 0.0082269
-0.011136 -0.0022261 -0.41654 -0.061809 0.0080654 -0.010437 0.0017433 0.012289
0.0081831 0.0026585 0.00054673 0.014665
-0.0087138 0.01324 0.0081198 -0.010475 -0.26725 0.20016 0.0062983 0.0036023
-0.0018839 0.0088893 0.00091664 0.012473
-0.0038975 0.012369 0.0017052 0.012538 0.0065354 0.0037728 -0.33268 0.044784
-0.017381 -0.0052471 0.014153 0.026539
0.01192 0.0047241 0.0075543 0.0026333 -0.0020127 0.0092578 -0.017601 -0.004087
-0.25167 -0.19155 -0.025088 0.0036525
-0.0038702 0.0094277 0.0015061 0.014187 -0.00012847 0.012182 0.016166 0.026643
-0.025002 0.0030057 -0.27647 -0.11513
560000000 -0.31825 0.11386 -0.02299 -0.064689 0.00062095 0.013514 0.0050408 0.012024
0.010217 0.0045448 0.010516 0.0087986
-0.022979 -0.064773 -0.37516 0.10188 -0.041999 -0.037366 0.012766 0.0043491
-0.014972 -0.0046683 0.0047894 -0.00072675
0.00066644 0.013382 -0.042015 -0.037258 -0.18611 0.25219 -0.00033427 -0.0051966
0.020007 0.0041642 0.0067951 -0.0047644
0.0049183 0.011447 0.012689 0.0038644 5.0918e-05 -0.0054641 -0.30649 0.13548
0.0049043 -0.022488 0.0049166 -0.021733
0.010117 0.0041343 -0.014209 -0.0045043 0.018869 0.0045588 0.0041781 -0.024234
-0.30994 -0.013253 0.0060079 -0.046419
0.011175 0.0083409 0.0045988 -0.0011535 0.0072402 -0.0049408 0.0053407 -0.020831
0.0065267 -0.046132 -0.33278 0.026285
620000000 -0.27768 0.094367 -0.022998 0.0089577 0.00377 0.0098693 0.0079004 -0.0040117
0.012475 -0.0012125 0.00113 -0.0015136
-0.023024 0.0089949 -0.40379 0.050383 -0.018246 0.00096454 -0.0012908 -0.0019961
0.01251 -0.0066805 0.001008 -0.0028052
0.0037011 0.0097922 -0.018307 0.0010277 -0.15552 0.26221 -0.0004611 -0.005099
-0.0029449 -0.0030307 0.008413 -0.0036686
0.0079645 -0.0042541 -0.0012118 -0.0019925 -0.000309 -0.0048092 -0.26528 0.14772
-0.039076 -0.019129 0.013117 0.027013
0.011817 -0.00063717 0.01213 -0.0060241 -0.0032659 -0.0026644 -0.037899 -0.019114
-0.23073 -0.04554 -0.040072 0.012654
0.0013909 -0.0010343 0.0013095 -0.0028469 0.0095088 -0.0029153 0.013638 0.027616
-0.041343 0.012716 -0.24886 -0.0019391
680000000 -0.23909 0.18554 -0.026349 -0.014189 0.0052993 0.00523 0.0020568 -0.0071749
-0.0022694 -0.011365 0.0059239 -0.0076124
-0.026451 -0.014176 -0.38958 0.15116 -0.032213 -0.0019877 -0.0011355 -0.00092034
-0.0019472 -0.0096178 -0.00083751 -0.0017669
0.0054105 0.0051202 -0.032232 -0.0019011 -0.10328 0.28139 -0.00082029 -0.00067346
-0.0013342 0.00038525 -0.0028076 -0.0089372
0.0018951 -0.0074489 -0.0011565 -0.00083746 -0.00086277 -0.00073118 -0.22042 0.19825
-0.023679 -0.0076047 -0.0087167 -0.010588
-0.0020781 -0.011832 -0.0019453 -0.0095204 -0.0015921 0.00011819 -0.023814 -0.0077412
-0.27769 0.059016 -0.0081542 -0.0073182
0.0051863 -0.0079017 -0.00086445 -0.0018132 -0.0031068 -0.0095754 -0.0085054 -0.010604
-0.0086114 -0.0074831 -0.25925 0.097923
740000000 -0.19318 0.17862 -0.03967 0.02702 0.014039 -0.0052075 -0.00067405 -0.004018
-0.004011 -0.0039935 -0.0069328 0.0037276
-0.039678 0.026851 -0.33463 0.16934 -0.036131 0.034896 -0.00054891 -0.0065012
-0.012333 0.0061323 -0.0024391 -0.0053293
0.014219 -0.0052699 -0.036034 0.035105 -0.069384 0.27897 -0.0019359 0.0034895
-0.0029057 -0.0056935 -0.0019481 0.00067628
-0.00070445 -0.004053 -0.00061844 -0.0063082 -0.0019466 0.0033843 -0.20356 0.20485
-0.042195 -0.0078822 0.021726 0.014515
-0.00414 -0.0026294 -0.013246 0.0073096 -0.003281 -0.0058285 -0.041554 -0.0068712
-0.17914 0.08346 -0.040915 -0.000112
-0.007224 0.0035274 -0.0020679 -0.0053379 -0.001242 0.0011876 0.022038 0.014846
-0.04044 0.00092162 -0.24805 0.10705
800000000 -0.16102 0.22164 -0.022406 0.016507 0.0058602 -0.010311 -0.0042155 -0.0022573
-0.0043207 0.0029559 0.004089 0.00011257
-0.022302 0.016402 -0.34044 0.24017 -0.0084441 0.034022 -0.0023232 0.002084
-0.0011922 0.0032339 0.00090342 0.0052135
0.0058394 -0.010463 -0.0083826 0.034047 -0.030683 0.30235 0.00071661 0.0014084
3.7385e-05 0.0039375 -0.0014346 0.0011356
-0.0041235 -0.002146 -0.0022329 0.0021063 0.00077864 0.0014286 -0.17303 0.23257
-0.027852 0.012925 0.013925 -0.010028
-0.0044359 0.0020185 -0.0013762 0.0027708 0.00013106 0.0038091 -0.028147 0.013131
-0.22038 0.11372 -0.016293 0.020199
0.0041305 0.00096109 0.0008787 0.0055927 -0.0017135 0.00075339 0.01427 -0.010605
-0.016627 0.020209 -0.23878 0.15518
860000000 -0.1265 0.24157 -0.017632 0.030509 -0.0029814 -0.010326 -0.0017917 0.00056014
0.0041005 0.0050881 -0.0033706 -0.0022044
-0.017535 0.030313 -0.29187 0.28228 0.0075631 0.034366 -7.879e-05 0.0019053
0.0038393 0.00052883 0.0028497 0.00080944
-0.0029031 -0.010368 0.0076691 0.034358 0.016594 0.31062 -0.00071166 -0.00014056
0.0024558 -0.0013016 0.0013874 0.0042058
-0.0019237 0.00066451 -0.00012049 0.0021116 -0.00079311 -0.00010013 -0.13701 0.2425
-0.018156 0.017891 -0.0069506 -0.0089603
0.0038 0.0052439 0.003922 0.00090397 0.0023312 -0.0011949 -0.018335 0.017653
-0.16346 0.16193 -0.024219 0.017431
-0.0032861 -0.0023493 0.0032536 0.00061717 0.0018704 0.004223 -0.0064765 -0.0085222
-0.023671 0.017537 -0.1887 0.19804
920000000 -0.10303 0.2647 0.004829 0.037966 -0.0093689 -0.005256 -0.0019797 0.0017788
0.0012778 0.0024012 0.0035174 -0.0014094
0.0047718 0.038055 -0.26494 0.30359 0.028096 0.022498 0.0016284 0.0013803
0.007512 0.00033182 0.0047049 -0.0031545
-0.0093298 -0.005154 0.028206 0.02246 0.06187 0.31209 0.0020103 3.7776e-05
0.00098188 -2.4418e-05 0.0012278 -0.0016322
-0.0018453 0.0017477 0.0015224 0.0013847 0.0020129 3.7125e-05 -0.11227 0.25956
-0.010635 0.03042 0.0038423 -0.0066701
0.001332 0.0022301 0.007419 0.00018989 0.0010808 -3.1597e-05 -0.010476 0.030014
-0.15285 0.17085 -0.0009736 0.026013
0.0031247 -0.0013283 0.0045447 -0.0026389 0.0010207 -0.0012743 0.0034346 -0.00698
-0.00089372 0.026478 -0.19353 0.21249
980000000 -0.056522 0.2844 0.016874 0.030054 -0.0096152 0.0041337 0.0016234 0.0037792
0.0045466 -0.0017397 -0.0031485 -0.0025123
0.016888 0.030068 -0.21219 0.33823 0.033339 0.005388 0.0019348 -0.00013032
0.0020789 -0.0062636 -0.00063576 -0.0023595
-0.0096371 0.0041758 0.033393 0.0052705 0.10772 0.30645 0.00061178 -0.0012092
0.00055936 -0.0020301 0.0012485 -0.00031552
0.0015917 0.0037519 0.0021027 -0.000104 0.00065134 -0.0012151 -0.074515 0.27032
0.0073335 0.029707 -0.008962 -0.0069558
0.0043488 -0.0017086 0.0020631 -0.0062506 0.00042741 -0.0019771 0.0073176 0.029672
-0.11743 0.19775 0.0060259 0.019373
-0.0031626 -0.0023606 -0.00040086 -0.0027867 0.0014092 -0.00040484 -0.0089773 -0.0069156
0.005983 0.019038 -0.14932 0.25561
1040000000 -0.015397 0.29368 0.032875 0.018801 -0.0017551 0.0070124 0.0027081 0.00088494
0.00038501 -0.0034675 -0.00026735 -0.0012912
0.032802 0.018783 -0.17749 0.35174 0.030058 -0.014577 0.0017656 -0.0017215
-0.0020868 -0.0026152 -0.0011847 -0.0029136
-0.0017682 0.0070246 0.030025 -0.014701 0.15355 0.29375 -0.00047528 -0.0016239
-0.001625 -0.0010416 -0.00062539 -0.00089332
0.0028072 0.00090101 0.001704 -0.0017384 -0.00047287 -0.0016228 -0.047062 0.28011
0.019303 0.018501 -0.0026629 0.00091471
0.00054361 -0.0034339 -0.0018782 -0.0025734 -0.001457 -0.00099996 0.019514 0.01832
-0.085525 0.20493 0.01431 0.017647
-0.00014681 -0.0016083 -0.0011673 -0.0029304 -0.00066518 -0.0010679 -0.0025579 0.0011939
0.014333 0.018146 -0.12791 0.27535
1100000000 0.029505 0.3026 0.036278 -0.00365 0.0026682 0.0041674 0.0024527 -0.0010924
-0.0019241 -0.0033617 -0.0041408 -0.00034608
0.036185 -0.0036079 -0.13439 0.36967 0.01584 -0.028052 0.00016542 -0.0018555
-0.0037336 -0.0011996 -0.0036153 -0.00056819
0.0026827 0.0041434 0.015747 -0.028152 0.20001 0.27438 -0.0019305 7.4375e-05
-0.0017342 0.00048778 -0.0011179 -0.0003636
0.0024197 -0.0010559 0.0001591 -0.0018422 -0.001937 0.0001001 -0.0070342 0.28497
0.024871 0.0050228 -0.0026136 0.0002131
-0.0020078 -0.0031066 -0.00378 -0.00099186 -0.0018381 0.00051242 0.024778 0.0050375
-0.063633 0.21707 0.019773 0.0075054
-0.0039864 -0.00013556 -0.0036684 -0.00054075 -0.0010784 -0.00032957 -0.0025556 4.4536e-05
0.019754 0.0073447 -0.081972 0.30305
1160000000 0.080261 0.29878 0.024519 -0.020793 0.0026448 -0.00030706 1.0704e-05 -0.0023187
-0.0040347 -0.00070714 -0.00096977 0.0039765
0.024468 -0.020757 -0.091179 0.37469 -0.0034274 -0.029738 -0.0016512 -0.001748
-0.0029522 0.0028705 -0.0015594 0.0019716
0.0026468 -0.00030435 -0.0035765 -0.029766 0.24324 0.24416 -0.0008206 0.0018057
-0.00048974 0.0020621 -0.00089202 0.00035915
4.6504e-05 -0.0023512 -0.0016496 -0.0016832 -0.00085623 0.0017924 0.031829 0.28245
0.020839 -0.01069 -0.0032595 0.0049756
-0.004002 -0.00084343 -0.0029078 0.0027752 -0.00047418 0.0019592 0.020853 -0.010607
-0.030073 0.22376 0.01838 -0.0010444
-0.00097295 0.004013 -0.0014954 0.0019143 -0.00090359 0.00033533 -0.003335 0.0050308
0.018314 -0.00094365 -0.035199 0.30631
1220000000 0.12451 0.28916 0.010835 -0.030384 -0.0016901 -0.0007458 9.1014e-05 -0.00089792
-0.0027331 0.002165 0.0011408 0.0021502
0.010867 -0.030316 -0.047016 0.38795 -0.017094 -0.021898 -0.0027179 0.00049858
-2.3216e-06 0.0032122 -0.00078605 0.0019311
-0.0016948 -0.0007163 -0.017225 -0.021834 0.28253 0.20561 0.00082759 0.0017983
0.00063184 0.001245 0.00013526 0.00058993
7.0728e-05 -0.00094026 -0.0026962 0.00049211 0.0008017 0.0018095 0.071928 0.27435
0.010606 -0.017165 0.0018058 0.0014777
-0.0027594 0.0022894 -9.5544e-07 0.0032756 0.00057878 0.0012517 0.010452 -0.017278
-0.0064659 0.23254 0.013657 -0.013623
0.0010721 0.0021732 -0.00084285 0.0020109 0.00024911 0.00056534 0.0019366 0.001701
0.013688 -0.013643 -0.0032239 0.31967
1280000000 0.17471 0.26856 -0.0080388 -0.029008 -0.0019831 0.0026342 -0.00078414 -0.0021469
-0.00079409 0.00338 0.0027728 0.0012408
-0.0080108 -0.028952 -0.00089464 0.3797 -0.024392 -0.0089865 -0.0010301 0.001536
0.0019144 0.0018849 0.00079279 0.0021302
-0.0019514 0.0026572 -0.024451 -0.0088827 0.31307 0.16199 0.0016665 -7.0237e-05
0.0013283 0.00016519 0.0004484 0.00023315
-0.00080302 -0.002128 -0.00099956 0.0015609 0.0016614 8.6086e-06 0.10896 0.25827
0.00062588 -0.019497 -0.00030009 0.00059469
-0.00075372 0.0032853 0.0019092 0.0019455 0.0013305 0.00024522 0.00057692 -0.019391
0.030745 0.23485 0.0023134 -0.0162
0.0026751 0.0012523 0.00069664 0.0019456 0.00038197 0.0002691 -0.00024736 0.00044373
0.0024819 -0.016159 0.043436 0.32075
1340000000 0.2122 0.23592 -0.017942 -0.019042 0.00091325 0.0049067 -0.0018995 -0.00095332
0.0015431 0.0027227 0.0018783 -0.0013196
-0.017925 -0.019022 0.038834 0.3722 -0.022189 0.0042246 -2.6769e-05 0.0020918
0.002117 0.00069948 0.0012949 0.00085357
0.00095568 0.0048927 -0.022195 0.0043506 0.33503 0.11497 0.0011968 -0.00092109
0.00061186 -0.00048672 0.00016608 0.00017154
-0.0018976 -0.00095052 -4.8409e-05 0.0021149 0.0012403 -0.0008778 0.14242 0.23792
-0.0089029 -0.016491 0.00088516 0.0006593
0.0015264 0.0026778 0.002165 0.00064366 0.00074832 -0.00050853 -0.008806 -0.016511
0.060271 0.23033 -0.0045681 -0.013953
0.0018284 -0.0013524 0.0012796 0.00083971 0.00010827 0.00032961 0.00084427 0.00065695
-0.004571 -0.014051 0.081826 0.31464
1400000000 0.24624 0.19863 -0.023802 -0.0072418 0.0055381 0.0034371 -0.0023269 0.00066226
0.00246 0.0010163 0.00016192 -0.0016588
-0.023765 -0.007241 0.076652 0.35968 -0.015391 0.012829 0.0014016 0.001331
0.0013721 -0.00095864 0.0011263 0.00016088
0.0055421 0.0033851 -0.015314 0.012936 0.34844 0.062198 1.5667e-05 -0.0016629
6.4807e-05 -0.00040179 0.00026226 0.00023337
-0.0022993 0.00066279 0.0014503 0.0012915 5.7524e-05 -0.0017007 0.17246 0.20891
-0.014823 -0.0094261 -0.00066867 -1.3338e-05
0.002536 0.00092661 0.0013789 -0.00093256 9.5108e-05 -0.00033455 -0.014885 -0.0095061
0.093693 0.22551 -0.010961 -0.0089844
0.00034445 -0.0016862 0.0011427 7.1949e-05 0.00034802 0.00021717 -0.00069963 -9.9022e-06
-0.010929 -0.0089743 0.12555 0.30318
1460000000 0.2696 0.15483 -0.020494 0.0052675 0.0060975 -0.0018131 -0.0015524 0.0017845
0.0022879 -0.00049614 -0.00046109 -0.0011066
-0.02049 0.0052398 0.11116 0.33792 -0.0062285 0.016029 0.0017621 9.1598e-05
0.00078309 -0.0014366 0.0011981 -0.00064606
0.0060773 -0.0018849 -0.0061547 0.01607 0.35528 0.0083814 -0.0012469 -0.0012907
9.4625e-05 -0.0002441 0.00065745 -0.0003301
-0.0015708 0.001844 0.0017689 8.6803e-05 -0.0012735 -0.0013219 0.19913 0.17931
-0.015913 -0.0026422 -0.00066953 0.0020341
0.0022907 -0.00052055 0.0007802 -0.0014661 0.00016711 -0.00031012 -0.016009 -0.0025671
0.12309 0.21091 -0.012927 -0.0026553
-0.00048934 -0.00094012 0.0011986 -0.00060174 0.00062101 -0.00036269 -0.00063056 0.0020553
-0.012873 -0.002746 0.15799 0.28214
1520000000 0.28266 0.11343 -0.014559 0.010725 0.0036419 -0.004534 0.00017526 0.0026045
0.0021369 -0.0020293 -0.0012795 -0.00021651
-0.014532 0.010699 0.14491 0.32357 0.0017894 0.013615 0.0015909 -0.00082417
-6.3507e-05 -0.0010853 0.00026813 -0.0010891
0.0035931 -0.0045108 0.0018684 0.013617 0.34894 -0.047136 -0.0011275 -0.00022991
0.00068908 -0.00085801 -5.2586e-05 -0.00023114
0.00017411 0.0026106 0.0016076 -0.00080996 -0.0012013 -0.00026512 0.22284 0.14079
-0.014818 0.003289 0.0017002 0.0021033
0.0021427 -0.0021207 -9.3655e-05 -0.0011198 0.00059149 -0.00095204 -0.014798 0.0032924
0.15123 0.19731 -0.012163 0.0024385
-0.0013457 -0.00020543 0.00028397 -0.0010499 0.00013306 -0.00020024 0.0016617 0.0020742
-0.012237 0.0025075 0.19041 0.26093
1580000000 0.29258 0.067048 -0.0076483 0.013663 -0.00095913 -0.005387 0.0015798 0.0019183
-0.00018523 -0.0022827 -0.00027862 0.00053024
-0.0076666 0.013609 0.17243 0.29882 0.0057463 0.0084323 0.00046952 -0.0015956
-0.00057379 -0.00098789 -0.00021016 -0.00084513
-0.00091801 -0.0053846 0.0057894 0.0083945 0.32996 -0.10469 -0.0015704 0.00056207
-0.00034661 -0.0012949 0.00020447 -0.00048239
0.0015802 0.0019259 0.00047107 -0.0016355 -0.0016043 0.00066176 0.23663 0.10061
-0.011142 0.0079515 0.0023806 0.0006352
-0.00024483 -0.0021941 -0.00059609 -0.00091796 -0.00039889 -0.0012258 -0.011111 0.007981
0.17565 0.17927 -0.0094731 0.0079514
-0.00020256 0.00048804 -0.00022289 -0.00086362 0.00017341 -0.00066664 0.0023727 0.00062098
-0.0094639 0.0080032 0.22192 0.23429
1640000000 0.29496 0.02589 -0.00081898 0.012226 -0.0030657 -0.0028325 0.0027909 0.00097904
-0.00085801 -0.0015931 -0.0002401 0.00053282
-0.00086591 0.012171 0.20199 0.27429 0.0063009 0.0033436 -0.000676 -0.0017632
-0.00091479 -0.00033502 -0.00053561 -0.00071916
-0.003068 -0.0029035 0.0063268 0.0032934 0.30201 -0.15399 -0.00064983 0.0014454
-0.0010691 -0.0009138 -0.00012778 -0.00028915
0.0027831 0.00088371 -0.00066491 -0.0017712 -0.0005812 0.0014346 0.24874 0.051558
-0.0065916 0.0089954 0.0026195 -0.00096237
-0.00085894 -0.0016544 -0.00094104 -0.0003526 -0.0011097 -0.00099918 -0.0067226 0.0091078
0.19898 0.15497 -0.0044207 0.010027
-0.00035288 0.00070737 -0.00057229 -0.00061798 -0.00026151 -0.00028127 0.0025828 -0.00091837
-0.0043482 0.010107 0.24682 0.20322
1700000000 0.28816 -0.019369 0.0024471 0.0090613 -0.0038958 -3.9432e-05 0.0031056 -0.0012511
-0.0020803 -0.0006106 0.00069211 0.00043416
0.0023848 0.0090831 0.22051 0.24294 0.004149 0.00020386 -0.0015043 -0.00055672
-0.00074301 2.4816e-07 -0.00093473 -0.00040001
-0.0039263 -7.445e-05 0.0041617 0.00016961 0.25928 -0.19464 0.00046399 0.0016752
-0.0019235 -1.7507e-05 -0.00050331 -0.00087017
0.0030643 -0.0012293 -0.0014928 -0.00059177 0.00049674 0.0015779 0.24546 0.0013144
-0.0039573 0.0093507 0.001534 -0.0023007
-0.0020743 -0.00057696 -0.0007316 2.3024e-05 -0.0019214 1.2419e-06 -0.0038063 0.0094085
0.21647 0.13441 0.0003748 0.010117
0.00077811 0.00030237 -0.0008755 -0.00040082 -0.00039444 -0.00088155 0.0016528 -0.0023497
0.00048611 0.010103 0.26305 0.16922
1760000000 0.27643 -0.068018 0.004544 0.0057039 -0.0025196 0.0012111 0.0012338 -0.0033948
-0.0014432 0.0007392 0.00031535 -0.00070105
0.00455 0.0057495 0.24664 0.20334 0.0016563 -0.0015913 -0.0011988 0.00014834
-0.0010878 0.00084614 -0.00059593 0.00033122
-0.0025674 0.0012282 0.0016179 -0.001595 0.21045 -0.22765 0.0011502 0.0010148
-0.0012967 0.0016093 -0.0011536 -0.00061874
0.0013402 -0.0033869 -0.001174 0.00017517 0.0010678 0.00097068 0.23581 -0.050492
-0.00072835 0.0082014 -0.00028387 -0.0026424
-0.0014506 0.00082919 -0.0010596 0.00083849 -0.0012759 0.00152 -0.00072446 0.0082683
0.23133 0.099372 0.0043442 0.0073677
0.00027769 -0.00071309 -0.00069018 0.00034895 -0.0013249 -0.00070649 -0.0003403 -0.0027568
0.0043446 0.0073244 0.27554 0.13159
1820000000 0.25215 -0.10538 0.0043214 0.0020426 -0.00033201 0.0024831 -0.0010384 -0.0031356
-0.00106 0.001051 -0.00024366 -9.753e-05
0.0043632 0.0021016 0.25712 0.17336 -0.00064296 -0.00049975 -0.0013069 0.00095432
-0.00018327 0.0012515 -0.00062942 0.00057045
-0.00034622 0.0025966 -0.00064574 -0.00048954 0.16046 -0.24388 0.0014297 0.0005073
-0.00012301 0.0024121 -0.0016407 0.00046305
-0.0010473 -0.003139 -0.0013658 0.001008 0.0014359 0.00058411 0.20533 -0.097787
0.00052897 0.0068921 -0.0018525 -0.0016836
-0.00094845 0.001012 -0.00017439 0.0012673 -0.00023322 0.0024558 0.00058952 0.0067024
0.24845 0.070362 0.0053039 0.003672
-0.00040112 -2.2563e-05 -0.00061527 0.00054623 -0.0014008 0.00044746 -0.0018219 -0.0014575
0.0052773 0.0036929 0.27757 0.095177
1880000000 0.21725 -0.14578 0.0020055 -3.619e-05 -0.00057758 0.0023432 -0.0028668 -0.0022164
-6.4666e-05 0.0018056 0.00011736 -0.00038917
0.0020149 -5.8411e-05 0.2619 0.12668 -0.0027147 0.0014875 -0.00021149 0.0017293
0.00048684 0.0014387 2.124e-05 0.00095548
-0.00044729 0.0022376 -0.00271 0.001539 0.1083 -0.25345 0.001931 -0.0008519
0.0016495 0.0020283 -0.00086876 0.0013523
-0.0030002 -0.0021962 -0.00020937 0.0017236 0.0019799 -0.00092413 0.16414 -0.13774
0.0012224 0.0048135 -0.0026237 0.00040478
-0.00018405 0.0018227 0.00051647 0.0013895 0.0017056 0.0019565 0.001098 0.0049581
0.25216 0.038323 0.0054128 0.0011823
0.00019734 -0.00043358 0.0001057 0.00090534 -0.00085908 0.0012825 -0.0024742 0.00012433
0.0054075 0.0012235 0.27728 0.061181
1940000000 0.17803 -0.17145 -0.00047442 -0.0014908 0.0014461 0.0024292 -0.0037351 0.00047898
0.0013479 0.0011533 -0.00032796 -0.00061854
-0.0004944 -0.0015044 0.26257 0.094893 -0.0017433 0.0040931 0.001119 0.0013555
0.0019297 0.00067853 0.0010783 0.00045394
0.0014467 0.0023319 -0.0016942 0.0041076 0.06204 -0.24645 0.00061014 -0.0023228
0.0024951 0.00027845 0.0005998 0.0017368
-0.0038253 0.00047703 0.0010914 0.0012579 0.00059146 -0.0023997 0.11134 -0.16788
0.00014493 0.0035423 -0.0017538 0.0015143
0.0013587 0.0010155 0.0019005 0.00061516 0.0023687 0.00030433 0.00031567 0.0036691
0.25483 4.3688e-05 0.0039122 -0.0023003
-0.00039652 -0.00042649 0.00099948 0.0004233 0.00048731 0.001661 -0.0017511 0.0017329
0.0037877 -0.0022693 0.26624 0.024594
2000000000 0.13223 -0.18635 -0.0042712 0.00068897 0.0028582 0.0016754 -0.0023923 0.0037716
0.0011842 0.00026169 -0.00064893 0.00045131
-0.0043151 0.00070857 0.24869 0.059161 -0.001025 0.0060297 0.0015851 0.00030146
0.0016106 -0.0011073 0.00060835 0.00017668
0.0027416 0.001701 -0.0010036 0.0060131 0.019105 -0.23259 -0.0014172 -0.0015053
0.002161 -0.0011628 0.001801 0.0012239
-0.0024138 0.0039616 0.0015867 0.00042782 -0.001229 -0.0014767 0.057979 -0.17734
-0.0012106 0.0036243 -0.00031838 0.0023194
0.001073 0.00041427 0.0015491 -0.0010905 0.0021998 -0.0012007 -0.0012367 0.0036091
