!Keysight Technologies,M9804A,MY58100912,A.14.10.03
!Date: Thursday, April 27, 2023 10:28:33
!Correction: S11(C  6-Port  ) 
!S12(C  6-Port  ) 
!S13(C  6-Port  ) 
!S14(C  6-Port  ) 
!S15(C  6-Port  ) 
!S16(C  6-Port  ) 
!S21(C  6-Port  ) 
!S22(C  6-Port  ) 
!S23(C  6-Port  ) 
!S24(C  6-Port  ) 
!S25(C  6-Port  ) 
!S26(C  6-Port  ) 
!S31(C  6-Port  ) 
!S32(C  6-Port  ) 
!S33(C  6-Port  ) 
!S34(C  6-Port  ) 
!S35(C  6-Port  ) 
!S36(C  6-Port  ) 
!S41(C  6-Port  ) 
!S42(C  6-Port  ) 
!S43(C  6-Port  ) 
!S44(C  6-Port  ) 
!S45(C  6-Port  ) 
!S46(C  6-Port  ) 
!S51(C  6-Port  ) 
!S52(C  6-Port  ) 
!S53(C  6-Port  ) 
!S54(C  6-Port  ) 
!S55(C  6-Port  ) 
!S56(C  6-Port  ) 
!S61(C  6-Port  ) 
!S62(C  6-Port  ) 
!S63(C  6-Port  ) 
!S64(C  6-Port  ) 
!S65(C  6-Port  ) 
!S66(C  6-Port  ) 
!S6P File: Measurement: :
# Hz S  RI   R 50
500000000 -0.33553 -0.051372 -0.0096602 -0.0015423 -0.0083592 0.012859 -0.0044363 0.012092
0.012013 0.0043032 -0.004104 0.0080256
-0.010624 -0.00096181 -0.41733 -0.062678 0.0078345 -0.010231 0.0019321 0.012546
0.0070211 0.0021946 0.00043458 0.014869
-0.0084762 0.013336 0.007849 -0.010664 -0.26695 0.20087 0.0072468 0.0032264
-0.0027234 0.0090999 0.0011277 0.011493
-0.0046684 0.012532 0.0010161 0.011655 0.0070654 0.0033786 -0.33099 0.046349
-0.019505 -0.0054392 0.016784 0.028927
0.012959 0.0044876 0.0073151 0.0029239 -0.0023923 0.0091041 -0.019583 -0.0051768
-0.24784 -0.19056 -0.026855 0.0033591
-0.0045723 0.0083988 0.0014294 0.01301 0.0010025 0.011996 0.017022 0.027784
-0.026742 0.0039484 -0.27548 -0.10941
560000000 -0.31743 0.11433 -0.023421 -0.065006 -0.00072375 0.013371 0.0040775 0.011339
0.009925 0.004951 0.010502 0.0089036
-0.023593 -0.065269 -0.37544 0.10159 -0.040383 -0.037545 0.012645 0.0044235
-0.013585 -0.0059174 0.0030477 -0.00035109
0.00051371 0.013547 -0.043086 -0.036797 -0.18665 0.25231 -0.00034046 -0.0048049
0.020602 0.0061649 0.007611 -0.0049288
0.005619 0.01072 0.015275 0.0042067 -0.00085242 -0.0045163 -0.3078 0.13588
0.0055649 -0.025209 0.0037779 -0.02149
0.010284 0.0047456 -0.013055 -0.0048177 0.019092 0.005575 0.0053179 -0.024505
-0.31014 -0.011071 0.010051 -0.045966
0.011303 0.0082898 0.0030168 0.0005006 0.0077863 -0.0050866 0.0037369 -0.021845
0.010337 -0.046886 -0.3358 0.030051
620000000 -0.27734 0.094 -0.023241 0.0083992 0.0035774 0.0093917 0.0092868 -0.0044708
0.010782 -0.0010842 0.00014617 -0.0016341
-0.023047 0.0087059 -0.40337 0.050749 -0.018493 0.00067269 -0.00092593 -0.0018378
0.011611 -0.0068664 0.00090108 -0.0021152
0.0036043 0.0091416 -0.018518 0.00056172 -0.15562 0.26173 -0.0011715 -0.0055473
-0.0024775 -0.0028286 0.0090503 -0.0035277
0.0091191 -0.0034632 -0.0013485 -0.0028579 -0.00094594 -0.0050753 -0.26655 0.14509
-0.037728 -0.016935 0.01415 0.023297
0.012725 -0.0015259 0.011632 -0.0059459 -0.0030635 -0.0032415 -0.036547 -0.016508
-0.23367 -0.045486 -0.042649 0.017114
0.0011512 -0.00073891 0.0015407 -0.0043592 0.0095944 -0.0037165 0.012456 0.023861
-0.043099 0.016789 -0.24769 0.00091781
680000000 -0.23818 0.18568 -0.026677 -0.014465 0.005139 0.0052527 0.00223 -0.00818
-0.0019535 -0.011656 0.0046163 -0.0071886
-0.026307 -0.014575 -0.38959 0.1511 -0.032242 -0.0018812 -0.0010857 -0.00077195
-0.0015799 -0.0094311 -0.00087723 -0.0025838
0.0052573 0.0051151 -0.032397 -0.002019 -0.10334 0.28143 -0.00072087 -0.00059836
-0.0017318 0.00023476 -0.002863 -0.0091849
0.0017036 -0.0078254 -0.0011907 -0.00051166 -0.00073082 -0.00061593 -0.21911 0.19679
-0.023877 -0.0079254 -0.0097381 -0.009678
-0.002596 -0.011565 -0.0015535 -0.0097342 -0.0018089 0.00031767 -0.024291 -0.0077673
-0.2779 0.058562 -0.0069883 -0.0070375
0.0053252 -0.0064634 -0.0011741 -0.0019718 -0.0030735 -0.0093106 -0.008482 -0.010109
-0.007104 -0.0074969 -0.26046 0.097096
740000000 -0.19367 0.17845 -0.039515 0.026382 0.013771 -0.005338 -0.00062117 -0.004254
-0.0039188 -0.0038811 -0.0062956 0.0033859
-0.039478 0.02669 -0.33529 0.1697 -0.036888 0.034847 5.7865e-05 -0.0063748
-0.01189 0.0070578 -0.0012628 -0.0058423
0.013719 -0.0049365 -0.036552 0.035181 -0.070266 0.27846 -0.0017792 0.0035449
-0.00351 -0.0056254 -0.0014091 0.0013726
-0.00065885 -0.0043059 -0.00029304 -0.0059241 -0.0020294 0.0030021 -0.20317 0.20541
-0.042481 -0.0068409 0.023044 0.014559
-0.0042596 -0.0026788 -0.011832 0.0072443 -0.0036605 -0.005287 -0.042736 -0.0069279
-0.1768 0.084893 -0.044412 0.0013621
-0.0075127 0.0031741 -0.0019553 -0.0059109 -0.0013303 0.0013606 0.022784 0.014492
-0.04426 0.001282 -0.24385 0.10705
800000000 -0.161 0.22204 -0.022331 0.016648 0.0057566 -0.010528 -0.0046013 -0.0023545
-0.0044107 0.0021479 0.0043991 0.00034455
-0.022432 0.016376 -0.34068 0.24054 -0.0083812 0.034142 -0.0022777 0.0023111
-0.0013008 0.0030639 0.00083975 0.0049095
0.0057326 -0.010525 -0.0082119 0.034289 -0.030654 0.30271 0.00075782 0.0014502
0.00026079 0.0034636 -0.0017516 0.00077501
-0.0044993 -0.0018338 -0.0024335 0.0023653 0.00088783 0.0013538 -0.1735 0.23277
-0.028379 0.013427 0.013905 -0.010294
-0.0047067 0.0025419 -0.0010998 0.0030729 -1.828e-05 0.0036789 -0.028134 0.013542
-0.2203 0.11461 -0.016441 0.018898
0.0040276 0.00048545 0.00067001 0.0058313 -0.0016016 0.00099123 0.013671 -0.010219
-0.016589 0.018936 -0.23831 0.15358
860000000 -0.12634 0.24167 -0.01755 0.030577 -0.0027269 -0.010258 -0.0015811 0.00059307
0.0043405 0.0060002 -0.0034304 -0.0034198
-0.017564 0.030416 -0.29203 0.28287 0.0075414 0.034773 0.00013852 0.0019065
0.0036543 0.00085652 0.0033381 0.0010751
-0.0028479 -0.010121 0.0078259 0.034604 0.016583 0.311 -0.00063894 -0.00015354
0.0020212 -0.001353 0.0016572 0.0042366
-0.0018737 0.00055017 7.8757e-05 0.00199 -0.00064152 0.00010481 -0.1365 0.2435
-0.017884 0.018339 -0.0054908 -0.0087073
0.0038308 0.0053719 0.0036873 0.00084194 0.0020995 -0.0013254 -0.017716 0.017806
-0.1627 0.16327 -0.025795 0.017786
-0.0037207 -0.0026356 0.0031406 0.0003501 0.0014497 0.003927 -0.0057788 -0.0088436
-0.026047 0.017906 -0.18908 0.19887
920000000 -0.10298 0.26471 0.0046681 0.038124 -0.0094209 -0.0051653 -0.002025 0.0017029
0.0014401 0.002045 0.0030683 -0.0008062
0.0047542 0.038113 -0.26502 0.30409 0.028144 0.022645 0.0015772 0.0013677
0.0074001 -3.9554e-05 0.0037208 -0.0026719
-0.0094396 -0.0050467 0.028309 0.022605 0.062096 0.31243 0.0020473 0.00014562
0.0011005 -0.00024901 0.00069027 -0.001342
-0.0019005 0.0017854 0.0014981 0.0014256 0.0020302 4.4247e-05 -0.11239 0.25986
-0.010307 0.03038 0.0032407 -0.0064876
0.0013177 0.0024498 0.0074473 -0.00014686 0.0011808 -0.00025835 -0.010367 0.030369
-0.15096 0.17101 -0.00063803 0.025655
0.0034034 -0.0016015 0.0042568 -0.0025354 0.00081589 -0.00099706 0.0035211 -0.0065646
-0.00060615 0.026098 -0.19353 0.21348
980000000 -0.056211 0.28473 0.016875 0.029993 -0.0096113 0.0040498 0.0018256 0.0036875
0.0039673 -0.0018194 -0.0034873 -0.0018149
0.016858 0.030046 -0.21203 0.33851 0.033502 0.0051903 0.0023337 -0.00010459
0.001971 -0.0061175 -0.00045865 -0.0023579
-0.0096012 0.0041401 0.033609 0.0051497 0.10796 0.30662 0.00078605 -0.0011866
0.00044328 -0.0020068 0.0013019 -0.00012554
0.001741 0.003605 0.0021095 -0.00024202 0.00069207 -0.0012195 -0.074403 0.27094
0.0077352 0.029648 -0.0092675 -0.0071846
0.0044292 -0.0017382 0.0018538 -0.0060892 0.00050771 -0.0021579 0.0076112 0.029714
-0.11647 0.19832 0.0060714 0.019433
-0.0032427 -0.0024236 -7.902e-05 -0.0026096 0.0012943 -0.00029907 -0.0093142 -0.0068728
0.0060282 0.019542 -0.15046 0.25637
1040000000 -0.014953 0.29387 0.032878 0.018899 -0.0016755 0.0070581 0.0026886 0.00091506
0.00047432 -0.0033608 0.00019032 -0.0017562
0.032991 0.018816 -0.17714 0.35219 0.030075 -0.014758 0.0017093 -0.0017861
-0.0019008 -0.0026546 -0.0011279 -0.0028744
-0.0016144 0.0070524 0.030045 -0.014859 0.15396 0.29387 -0.00049103 -0.001745
-0.001673 -0.0010307 -0.00045922 -0.00098615
0.0026552 0.00098296 0.001623 -0.0017795 -0.00045728 -0.0017414 -0.046863 0.28031
0.019585 0.018317 -0.0023377 0.00089528
0.0005478 -0.0033536 -0.0019132 -0.0029423 -0.0015962 -0.00096161 0.019703 0.018302
-0.083286 0.205 0.014621 0.017632
-0.00016493 -0.0016358 -0.0010345 -0.0029502 -0.00039097 -0.0010055 -0.0025259 0.00072819
0.014438 0.01731 -0.12729 0.27515
1100000000 0.029771 0.30284 0.036336 -0.0037034 0.0027393 0.0042489 0.0023799 -0.0011128
-0.002207 -0.0031539 -0.0039592 -0.00019137
0.036211 -0.0036176 -0.13399 0.37026 0.015826 -0.028102 2.2209e-05 -0.0019558
-0.0038642 -0.0010404 -0.0035533 -0.00081533
0.00275 0.0042195 0.015698 -0.028278 0.20029 0.27426 -0.0019441 8.9285e-05
-0.0018794 0.0005163 -0.001113 -0.00041894
0.0024556 -0.0010923 3.793e-05 -0.0019759 -0.0019807 7.8123e-05 -0.0064237 0.28525
0.025005 0.0050142 -0.0025273 0.00012536
-0.002175 -0.0033563 -0.0036801 -0.0010147 -0.0018585 0.00046462 0.025034 0.0048837
-0.063457 0.21712 0.01944 0.0076101
-0.0040067 -0.00026255 -0.0035677 -0.0007062 -0.00096452 -0.00045815 -0.0026279 1.4494e-05
0.019396 0.0077783 -0.081548 0.30414
1160000000 0.080615 0.299 0.024427 -0.020826 0.0026942 -0.00035907 1.3225e-05 -0.0023347
-0.0040371 -0.00069561 -0.00079838 0.0038119
0.024418 -0.020796 -0.090688 0.37487 -0.0034793 -0.029942 -0.0017926 -0.0016778
-0.0030597 0.002571 -0.0012788 0.0018774
0.0027057 -0.00039386 -0.0035401 -0.029845 0.24341 0.24406 -0.00086835 0.0019027
-0.00061823 0.0021805 -0.0007941 0.00028402
-9.291e-05 -0.0023648 -0.001689 -0.0016605 -0.00085449 0.0018857 0.032314 0.28247
0.021008 -0.010869 -0.0035416 0.0047691
-0.0039988 -0.00079738 -0.0028864 0.0027434 -0.00062441 0.0020678 0.02099 -0.010899
-0.029027 0.22422 0.018538 -0.0017696
-0.00097619 0.0040415 -0.0015588 0.0019076 -0.00093284 0.00034496 -0.0036087 0.0051712
0.018427 -0.0017931 -0.034444 0.30573
1220000000 0.12503 0.28918 0.010828 -0.03046 -0.0016027 -0.00085605 0.00011635 -0.0008874
-0.0027602 0.0022923 0.0013002 0.0023319
0.010865 -0.030381 -0.046442 0.38799 -0.01718 -0.021945 -0.0026091 0.0004998
-5.9311e-05 0.0032902 -0.00091333 0.0020599
-0.0016621 -0.0008328 -0.01733 -0.021845 0.28281 0.20551 0.00083839 0.0017659
0.00067614 0.0012124 0.00023152 0.00056506
2.7652e-05 -0.00086591 -0.0027237 0.00047253 0.00081209 0.0017831 0.072393 0.27411
0.010482 -0.017648 0.0019461 0.0015271
-0.0027084 0.002305 6.857e-05 0.0032206 0.00078208 0.0013449 0.0105 -0.017618
-0.005543 0.23228 0.013368 -0.013841
0.0012086 0.0022329 -0.00089052 0.002046 0.00012863 0.00050454 0.002021 0.0015593
0.013336 -0.013754 -0.0028867 0.32006
1280000000 0.17532 0.26852 -0.0080931 -0.028962 -0.0020355 0.0026446 -0.000789 -0.0021782
-0.00075367 0.0031299 0.0025939 0.0013565
-0.0081049 -0.028981 -0.00032035 0.37966 -0.024507 -0.008941 -0.00097879 0.001543
0.0018833 0.0017854 0.00076524 0.0021484
-0.0019694 0.0026619 -0.02453 -0.0088134 0.31342 0.16174 0.00164 -8.4799e-05
0.0012681 0.00028332 0.00020804 0.00014433
-0.00079118 -0.0020409 -0.00094751 0.001613 0.001625 -0.00010261 0.10943 0.2579
0.00032959 -0.019569 -0.00012506 0.00042972
-0.0006832 0.003138 0.0018442 0.0018517 0.0013997 0.00018675 0.00032717 -0.019576
0.030864 0.23508 0.0025165 -0.015893
0.0025032 0.0013813 0.00058852 0.0020926 0.00043469 0.00020935 -2.0772e-05 0.00055209
0.0024825 -0.015906 0.044512 0.32099
1340000000 0.21288 0.23562 -0.017985 -0.019013 0.00081273 0.0048819 -0.0019024 -0.00091921
0.0013821 0.0027138 0.0019604 -0.0014425
-0.017989 -0.019087 0.039324 0.37199 -0.022198 0.0043807 -0.00010477 0.0020632
0.0020761 0.00069812 0.0012105 0.00078486
0.00091123 0.0048242 -0.022221 0.0044879 0.33522 0.1148 0.0010778 -0.00095764
0.00068241 -0.00046823 0.00025226 0.00022012
-0.0018927 -0.00089388 -7.9298e-05 0.002071 0.0011049 -0.00095715 0.14252 0.23761
-0.0092219 -0.016514 0.0007069 0.00077422
0.0015349 0.0026689 0.0021433 0.00083706 0.00062014 -0.00053221 -0.0092426 -0.016551
0.060938 0.2303 -0.0048617 -0.014439
0.001898 -0.0013488 0.0014318 0.00077146 0.00011044 0.00022281 0.00077753 0.00063694
-0.0048308 -0.014371 0.081933 0.31478
1400000000 0.24675 0.19804 -0.023856 -0.0073212 0.0055294 0.0033653 -0.0022644 0.00058292
0.0025192 0.0010025 0.00034866 -0.0015447
-0.023833 -0.0073054 0.076993 0.35937 -0.015317 0.012905 0.001432 0.0012951
0.001371 -0.00098127 0.0012847 4.4172e-05
0.0055071 0.0033115 -0.015263 0.012949 0.34861 0.061832 7.7101e-05 -0.0016699
0.00012256 -0.00042473 0.0002645 0.00024355
-0.0022185 0.00063454 0.0015069 0.0013008 7.5185e-05 -0.001692 0.17237 0.20848
-0.015192 -0.0094789 -0.000704 -6.6513e-05
0.0026195 0.00098934 0.0014371 -0.00096459 1.9366e-05 -0.00040501 -0.015308 -0.009488
0.094086 0.22535 -0.010883 -0.0085572
0.00029014 -0.0015551 0.0011688 5.9286e-05 0.0003449 0.00020274 -0.00069194 -3.8509e-05
-0.010774 -0.0086146 0.12584 0.30285
1460000000 0.27016 0.15421 -0.020525 0.0052174 0.0060931 -0.0017269 -0.001584 0.0017941
0.0022723 -0.0005579 -0.00052215 -0.0011606
-0.020524 0.0051904 0.11138 0.33764 -0.0060778 0.015983 0.0017189 0.00015874
0.00074138 -0.0014205 0.0011946 -0.00056026
0.0060242 -0.0018359 -0.0060792 0.01603 0.35515 0.008002 -0.0012545 -0.0012541
7.3758e-05 -0.00021447 0.00070226 -0.00033095
-0.0015868 0.0018126 0.0017568 9.1648e-05 -0.0012429 -0.0012962 0.19905 0.17913
-0.016223 -0.0023426 -0.0005294 0.0020701
0.0021925 -0.00050294 0.00077752 -0.0014783 3.8947e-05 -0.00024011 -0.016251 -0.0023189
0.12332 0.21071 -0.012811 -0.0024128
-0.00045891 -0.0010581 0.0013285 -0.00068811 0.00056662 -0.00021655 -0.00065843 0.0019615
-0.012747 -0.0024418 0.15852 0.28229
1520000000 0.28279 0.11278 -0.014605 0.010732 0.0035584 -0.0044681 0.00010968 0.0026118
0.002035 -0.0019946 -0.0012612 -9.3054e-05
-0.014601 0.010711 0.14508 0.32334 0.0018126 0.013551 0.0016497 -0.00083378
-3.5843e-05 -0.0011169 0.0002803 -0.0010802
0.0035882 -0.0044361 0.0018973 0.013539 0.34894 -0.04747 -0.0011298 -0.00030918
0.00063515 -0.00079662 4.0447e-05 -0.00038759
0.00012343 0.0026482 0.001597 -0.00084245 -0.0011089 -0.00031696 0.22262 0.14069
-0.014855 0.0036737 0.0016655 0.0021042
0.0020676 -0.0020557 -4.9273e-06 -0.0011667 0.00072451 -0.0008775 -0.014902 0.0037244
0.15165 0.1973 -0.012183 0.0024439
-0.00124 -0.00022694 0.00016034 -0.0011293 2.2958e-05 -0.00037846 0.0015385 0.0021532
-0.012199 0.0024462 0.19116 0.2608
1580000000 0.2927 0.066363 -0.0076397 0.013714 -0.00091468 -0.0052843 0.0015305 0.0018689
-0.00031894 -0.0022506 -0.00024229 0.00054529
-0.0076686 0.013672 0.17256 0.29864 0.0057012 0.0084468 0.00045194 -0.0016155
-0.0006314 -0.0009643 -0.00028019 -0.00086364
-0.00090761 -0.0052394 0.0057571 0.0084188 0.32959 -0.10512 -0.0016574 0.00057947
-0.0003978 -0.0013044 0.00015691 -0.00050904
0.001565 0.00186 0.00045474 -0.0016252 -0.0016376 0.00060188 0.2365 0.10067
-0.010946 0.0083481 0.0021971 0.00069317
-0.0002856 -0.0022566 -0.00066737 -0.00092522 -0.00045703 -0.001316 -0.010908 0.0083925
0.1762 0.17903 -0.009561 0.0078701
-0.00030376 0.00041106 -0.0002269 -0.00081173 0.00016803 -0.00057523 0.0021928 0.0007661
-0.0095606 0.0078571 0.22257 0.23378
1640000000 0.29487 0.025371 -0.00087595 0.012303 -0.0031162 -0.0028313 0.0027504 0.001061
-0.00080546 -0.0015026 -0.00032183 0.00074767
-0.00088658 0.012277 0.20214 0.27412 0.0063505 0.0032996 -0.00070395 -0.0017712
-0.0009851 -0.00032473 -0.00066641 -0.00066305
-0.0029687 -0.0028184 0.0063543 0.0033275 0.30189 -0.15403 -0.00068135 0.001497
-0.0011912 -0.0010002 -0.0004062 -0.00024149
0.0026325 0.0010219 -0.00071548 -0.0017931 -0.00064878 0.0014421 0.24865 0.051576
-0.0064114 0.0092714 0.0025663 -0.00086704
-0.00092987 -0.0015624 -0.00094609 -0.0003294 -0.0010791 -0.00095671 -0.0063745 0.009307
0.19941 0.15489 -0.0044142 0.010003
-0.00033455 0.00070033 -0.00058634 -0.00063521 -0.00023333 -0.0001985 0.0026651 -0.00081326
-0.004397 0.010062 0.24737 0.20278
1700000000 0.28794 -0.019843 0.0023873 0.009159 -0.003811 -5.8933e-05 0.0031512 -0.0012205
-0.001969 -0.00055901 0.00082021 0.00038618
0.002386 0.0091652 0.22059 0.24284 0.0042132 0.00024009 -0.0015243 -0.00055929
-0.00075952 5.4825e-05 -0.00090905 -0.00038537
-0.0038197 -0.00011543 0.0042023 0.00018834 0.25945 -0.19422 0.00040283 0.0016251
-0.0020413 -3.8359e-05 -0.00039023 -0.00074252
0.0031468 -0.0011924 -0.0015264 -0.00053363 0.00045032 0.0016991 0.24535 0.0013413
-0.0035537 0.009484 0.0016058 -0.0023006
-0.002059 -0.00052054 -0.00079241 4.3575e-05 -0.0021219 -2.6658e-05 -0.0035239 0.0094949
0.21707 0.13414 0.00045859 0.010001
0.00063234 0.00032467 -0.00088228 -0.00039592 -0.00049402 -0.00087532 0.0017012 -0.0023612
0.00041615 0.0099984 0.26333 0.16838
1760000000 0.27615 -0.068439 0.0045602 0.0057932 -0.0024424 0.0011204 0.0012695 -0.0033907
-0.0013989 0.00076749 0.00033724 -0.0006807
0.0045713 0.0057706 0.24681 0.20329 0.0016517 -0.0016668 -0.0012445 0.00017308
-0.0010266 0.00083773 -0.00057926 0.00036419
-0.0024331 0.0011684 0.0016451 -0.0016593 0.21102 -0.22831 0.0010962 0.00093762
-0.0011377 0.0015211 -0.0011843 -0.00058553
0.0012328 -0.0033462 -0.0011956 0.0002105 0.0011146 0.00094145 0.23585 -0.050267
-0.00052264 0.0081956 -7.4094e-05 -0.0027647
-0.0014621 0.00084094 -0.00102 0.00084217 -0.0011728 0.0014815 -0.00049459 0.0082022
0.23173 0.099078 0.0044146 0.0074219
0.00032559 -0.0006139 -0.00060602 0.00029986 -0.0010548 -0.00046346 -0.00021244 -0.0028357
0.0043588 0.0073962 0.27601 0.13101
1820000000 0.25205 -0.10549 0.004445 0.0022175 -0.00020695 0.0025641 -0.0010131 -0.0032027
-0.0010404 0.001024 -0.00020156 -0.00014498
0.0044764 0.0022241 0.25737 0.17333 -0.00061381 -0.00034371 -0.0013048 0.0009091
-0.00010885 0.001222 -0.00058066 0.00057161
-0.00026559 0.0025333 -0.00062618 -0.00037371 0.16041 -0.244 0.0015398 0.0006001
-9.4236e-05 0.0025139 -0.0013331 0.00045676
-0.0010586 -0.0030951 -0.00126 0.00093974 0.0016903 0.00065742 0.20559 -0.097565
0.00063907 0.0066891 -0.0018598 -0.0018169
-0.0010331 0.0010071 -0.00013806 0.0012022 -0.00015476 0.0025264 0.00075876 0.0066754
0.24894 0.069902 0.0051023 0.003543
-0.00015926 -7.785e-05 -0.00062825 0.00054367 -0.0014349 0.00038542 -0.001773 -0.0017186
0.0052075 0.0035348 0.27742 0.094705
1880000000 0.21721 -0.14618 0.0020805 -9.0017e-05 -0.00058153 0.0022074 -0.0029194 -0.0022249
-0.00017819 0.0017589 0.00014362 -0.00044139
0.0020907 -7.8995e-05 0.26215 0.12648 -0.0026908 0.0014722 -0.00021789 0.0016641
0.00050065 0.0012987 5.3308e-05 0.0009112
-0.00039653 0.0023053 -0.0026477 0.0015134 0.10773 -0.25395 0.0018318 -0.00087121
0.0016115 0.0018569 -0.0010763 0.001388
-0.0029263 -0.0021175 -0.00021843 0.0017283 0.0018054 -0.00099322 0.16439 -0.13783
0.0012498 0.0045968 -0.0026724 0.00036268
-0.00021531 0.0018885 0.00053931 0.0013379 0.001702 0.0018349 0.0012233 0.0045418
0.25265 0.037524 0.0052226 0.0011419
0.00012809 -0.00047214 -4.1217e-05 0.00084493 -0.00099335 0.0013554 -0.0026581 0.00030545
0.0051738 0.0011719 0.27774 0.060475
1940000000 0.17798 -0.17179 -0.00039232 -0.0015537 0.0012599 0.0022441 -0.0037353 0.00053735
0.0013022 0.001168 -0.000549 -0.00042473
-0.0004129 -0.0015456 0.26287 0.094641 -0.0016021 0.0039952 0.0010963 0.0012617
0.0019014 0.00065001 0.00092389 0.0004453
0.0013258 0.0022204 -0.0015215 0.0040361 0.062003 -0.24644 0.00052719 -0.0024372
0.0025739 0.00030531 0.00058993 0.0016723
-0.0037818 0.0004261 0.0011429 0.0012194 0.00058128 -0.0022868 0.11154 -0.16828
0.00028617 0.0034406 -0.0016209 0.0017333
0.0014213 0.0010643 0.0019303 0.00057978 0.0025684 0.000327 0.00018869 0.0034186
0.25505 -0.0005976 0.0038836 -0.0019323
-0.00063231 -0.00053599 0.0010031 0.00053074 0.00058323 0.0017221 -0.0017078 0.0016889
0.0039289 -0.0019942 0.26607 0.024426
2000000000 0.13198 -0.18655 -0.0042641 0.00056632 0.002614 0.0016019 -0.0023859 0.0037404
0.001195 0.00038108 -0.00045294 0.00058944
-0.004294 0.00060576 0.24881 0.058714 -0.0011125 0.005829 0.0015689 0.00041631
0.0014626 -0.0010704 0.00065871 0.00013308
0.0025984 0.0017194 -0.0011575 0.0057794 0.01888 -0.23242 -0.0012953 -0.001357
0.0020584 -0.00128 0.0017068 0.0012588
-0.0024983 0.0037753 0.0015848 0.00034776 -0.0013947 -0.0014162 0.05845 -0.17747
-0.0011132 0.0034002 2.7138e-05 0.0021611
0.0010484 0.0002757 0.001555 -0.0011769 0.0020545 -0.0013013 -0.0011398 0.0034526
0.24984 -0.03415 0.00087779 -0.0030778
