!Keysight Technologies,M9804A,MY58100912,A.14.10.03
!Date: Thursday, April 27, 2023 10:28:33
!Correction: S11(C  6-Port  ) 
!S12(C  6-Port  ) 
!S13(C  6-Port  ) 
!S14(C  6-Port  ) 
!S15(C  6-Port  ) 
!S16(C  6-Port  ) 
!S21(C  6-Port  ) 
!S22(C  6-Port  ) 
!S23(C  6-Port  ) 
!S24(C  6-Port  ) 
!S25(C  6-Port  ) 
!S26(C  6-Port  ) 
!S31(C  6-Port  ) 
!S32(C  6-Port  ) 
!S33(C  6-Port  ) 
!S34(C  6-Port  ) 
!S35(C  6-Port  ) 
!S36(C  6-Port  ) 
!S41(C  6-Port  ) 
!S42(C  6-Port  ) 
!S43(C  6-Port  ) 
!S44(C  6-Port  ) 
!S45(C  6-Port  ) 
!S46(C  6-Port  ) 
!S51(C  6-Port  ) 
!S52(C  6-Port  ) 
!S53(C  6-Port  ) 
!S54(C  6-Port  ) 
!S55(C  6-Port  ) 
!S56(C  6-Port  ) 
!S61(C  6-Port  ) 
!S62(C  6-Port  ) 
!S63(C  6-Port  ) 
!S64(C  6-Port  ) 
!S65(C  6-Port  ) 
!S66(C  6-Port  ) 
!S6P File: Measurement: :
# Hz S  RI   R 50
500000000 -0.33383 -0.05087 -0.010369 -0.002043 -0.0096098 0.013585 -0.0034273 0.011196
0.012758 0.0049921 -0.0031401 0.0070263
-0.01035 -0.0018825 -0.41766 -0.062122 0.0073706 -0.0099708 0.0016075 0.012082
0.0067967 0.0023628 0.0010016 0.013584
-0.0094136 0.013628 0.0073686 -0.010028 -0.26715 0.20116 0.0068486 0.0035379
-0.0025889 0.0086487 0.00020575 0.012731
-0.0036396 0.011227 0.001603 0.01214 0.0068269 0.0035555 -0.332 0.045701
-0.018889 -0.0054267 0.015892 0.025467
0.012884 0.0047807 0.0069137 0.0022326 -0.0025745 0.0085752 -0.018856 -0.0054335
-0.2507 -0.19054 -0.026556 0.0043911
-0.0032181 0.0070996 0.00097238 0.013566 0.00014659 0.012721 0.015843 0.025506
-0.026521 0.0044023 -0.27448 -0.1157
560000000 -0.31898 0.11512 -0.023323 -0.064151 -0.00042422 0.013365 0.0052477 0.011978
0.01072 0.0062279 0.010582 0.0085172
-0.023156 -0.064006 -0.3741 0.10084 -0.042569 -0.037534 0.014241 0.0042968
-0.012452 -0.004473 0.0047817 -0.0005554
-0.00037317 0.013487 -0.0427 -0.037498 -0.18516 0.252 -0.0001279 -0.0043466
0.019722 0.0049751 0.0072431 -0.0052506
0.0052513 0.011836 0.01424 0.0043203 -0.00012969 -0.0044323 -0.30638 0.13608
0.0048661 -0.024388 0.0048574 -0.021085
0.010427 0.0060187 -0.012594 -0.0043782 0.019807 0.004943 0.0049246 -0.024274
-0.31028 -0.010737 0.0075984 -0.04438
0.010736 0.0085857 0.0047739 -0.00057056 0.007211 -0.0052441 0.0047759 -0.021078
0.0075408 -0.044418 -0.33197 0.030499
620000000 -0.27733 0.095286 -0.023411 0.0090442 0.0037578 0.0093839 0.0087799 -0.0058376
0.01132 -0.00055035 0.00041876 -0.0025415
-0.02326 0.0091223 -0.40387 0.050848 -0.018549 0.00091375 -0.0014579 -0.0022763
0.011794 -0.006448 0.00098781 -0.0032477
0.0037524 0.0093897 -0.018575 0.00093404 -0.15526 0.26198 -0.00069486 -0.0056084
-0.0032758 -0.0027175 0.0091033 -0.0028752
0.0087237 -0.0058329 -0.0013984 -0.0023083 -0.00064255 -0.0056104 -0.26514 0.14764
-0.037635 -0.020102 0.012527 0.026334
0.011358 -0.00056911 0.011752 -0.0065703 -0.003297 -0.002829 -0.037679 -0.020156
-0.23333 -0.044138 -0.040383 0.012313
0.00041458 -0.002603 0.0010213 -0.0032291 0.0091509 -0.0028627 0.012584 0.0263
-0.040429 0.012202 -0.254 -0.00093385
680000000 -0.23861 0.18537 -0.026226 -0.013881 0.0054418 0.0057036 0.0016699 -0.0068034
-0.0025787 -0.011475 0.005631 -0.0069857
-0.02617 -0.013876 -0.38932 0.15164 -0.032118 -0.0017474 -0.0014874 -0.00028559
-0.0017344 -0.0095882 -0.0011922 -0.0015506
0.0054844 0.005677 -0.032177 -0.0016619 -0.10316 0.28182 -0.0011176 -0.00037883
-0.0016932 0.00026591 -0.0029247 -0.009158
0.0016958 -0.0068316 -0.0015161 -0.00029977 -0.0011117 -0.00037238 -0.22066 0.19737
-0.023679 -0.00719 -0.0082501 -0.011158
-0.0026543 -0.011426 -0.0017713 -0.0095818 -0.0016835 0.00027735 -0.023664 -0.0071875
-0.27765 0.059658 -0.0071227 -0.0060907
0.0056708 -0.0070486 -0.0011875 -0.0015843 -0.0029138 -0.0092025 -0.0082614 -0.011122
-0.007067 -0.0061084 -0.25798 0.099839
740000000 -0.19292 0.17933 -0.039565 0.027033 0.0139 -0.0051225 -0.00038443 -0.004602
-0.0054594 -0.003008 -0.0063943 0.0032957
-0.039612 0.027089 -0.33472 0.17027 -0.036752 0.034726 -0.00047021 -0.0056003
-0.012209 0.0067771 -0.0016288 -0.0061695
0.01391 -0.0051314 -0.036727 0.034839 -0.069548 0.27879 -0.0021096 0.0034464
-0.0023905 -0.0051409 -0.0011458 0.0007655
-0.00044969 -0.0046535 -0.00050492 -0.0056415 -0.00212 0.0034133 -0.20361 0.20528
-0.043199 -0.0069656 0.021958 0.014759
-0.0053777 -0.0030953 -0.012216 0.0067379 -0.0024154 -0.0051466 -0.043149 -0.0069217
-0.17761 0.083616 -0.041791 0.00095342
-0.0065243 0.0034308 -0.0017065 -0.006137 -0.0011573 0.0007501 0.021955 0.014746
-0.041802 0.00092908 -0.24714 0.10739
800000000 -0.16058 0.2218 -0.022303 0.016539 0.0058027 -0.010458 -0.0049013 -0.0019465
-0.0041427 0.0025891 0.0040143 0.00095934
-0.022294 0.016493 -0.34044 0.24057 -0.008373 0.034153 -0.0023602 0.0020929
-0.0013086 0.003055 0.00083053 0.0053266
0.0057749 -0.01052 -0.0082865 0.034218 -0.030463 0.30269 0.00058427 0.0014808
0.00014785 0.0036288 -0.0019216 0.00092382
-0.0048602 -0.0018931 -0.0023743 0.0021024 0.00059298 0.0014712 -0.17352 0.23277
-0.028248 0.013303 0.013362 -0.010571
-0.0040513 0.0025974 -0.0012587 0.0031112 0.00016635 0.0036379 -0.028226 0.013361
-0.2192 0.1145 -0.016527 0.019617
0.0041096 0.00092609 0.00081191 0.005317 -0.0019286 0.00093124 0.013353 -0.010573
-0.016614 0.019592 -0.23848 0.15509
860000000 -0.12628 0.24226 -0.017613 0.030594 -0.0029761 -0.010199 -0.0017961 0.00041854
0.0038593 0.005387 -0.0037681 -0.0030699
-0.017615 0.03058 -0.29222 0.28277 0.0076358 0.034511 -9.3493e-07 0.0020268
0.0037483 0.00067742 0.0032594 0.00081427
-0.0029708 -0.010155 0.0077368 0.034514 0.016797 0.31095 -0.00075228 -0.00017582
0.0023921 -0.0013331 0.0016926 0.0043877
-0.0018421 0.00037246 7.7083e-06 0.0020529 -0.00075978 -0.00017429 -0.13701 0.24324
-0.01794 0.017786 -0.005976 -0.0089245
0.0038969 0.0053666 0.0037576 0.00065678 0.0023854 -0.0013193 -0.017911 0.017823
-0.16414 0.16413 -0.023672 0.017032
-0.0039011 -0.0030085 0.003232 0.0007923 0.0016864 0.0043947 -0.0059822 -0.0089057
-0.02371 0.017043 -0.18945 0.19897
920000000 -0.10282 0.26463 0.0047253 0.037967 -0.0094982 -0.005189 -0.0020702 0.0017815
0.0012682 0.0023305 0.0029338 -0.0015849
0.0046955 0.037932 -0.26477 0.30411 0.028152 0.022618 0.0015294 0.0012461
0.0074044 -2.6374e-05 0.0042575 -0.0028109
-0.0095168 -0.005156 0.028247 0.022546 0.062195 0.31242 0.0019363 2.7793e-05
0.0010911 -0.00019995 0.00087071 -0.0013342
-0.0020342 0.0018045 0.0015071 0.0012587 0.0019254 3.0315e-05 -0.1125 0.25985
-0.010674 0.03051 0.0032948 -0.0068717
0.0013261 0.0024096 0.0074216 -5.7356e-05 0.0010848 -0.00020924 -0.010645 0.03056
-0.15126 0.1718 -0.0014171 0.026512
0.0029598 -0.0016408 0.0042137 -0.0028208 0.0008774 -0.0013557 0.0032709 -0.0068825
-0.001425 0.026494 -0.19342 0.2131
980000000 -0.055857 0.28491 0.016997 0.029935 -0.0094755 0.0040871 0.001878 0.0037341
0.003886 -0.0019744 -0.0029506 -0.0026475
0.016945 0.029893 -0.21206 0.33857 0.033444 0.0052326 0.0020561 -3.9065e-05
0.001536 -0.0059859 -1.8945e-05 -0.0025501
-0.0094678 0.0041258 0.033503 0.0051125 0.10809 0.30665 0.00060061 -0.0012497
0.00040786 -0.0021664 0.0013049 -0.00013688
0.001891 0.0037353 0.0020401 -6.5707e-05 0.00059945 -0.0012454 -0.074104 0.27067
0.0073017 0.029799 -0.0091378 -0.0071176
0.0038714 -0.0019621 0.001529 -0.0060065 0.00040428 -0.0021645 0.007343 0.029834
-0.11748 0.19855 0.0064436 0.019298
-0.0029981 -0.0026051 -6.0418e-05 -0.0025342 0.0013056 -0.00014365 -0.0091516 -0.0070928
0.0064109 0.019256 -0.15099 0.25522
1040000000 -0.015159 0.29371 0.033017 0.018541 -0.0016213 0.0070179 0.0024822 0.00081071
0.00039612 -0.0035297 -0.00036856 -0.0012738
0.032917 0.01853 -0.17693 0.35225 0.030058 -0.014759 0.0016586 -0.001856
-0.0020586 -0.0029952 -0.0010904 -0.0028616
-0.001609 0.007039 0.030046 -0.014909 0.15404 0.29386 -0.00046948 -0.0016995
-0.0016009 -0.00094007 -0.00049246 -0.0010544
0.0025087 0.0008293 0.0016414 -0.0018809 -0.00046904 -0.0016934 -0.047004 0.28031
0.019395 0.018286 -0.0026765 0.0011016
0.00039328 -0.0034818 -0.0020569 -0.0030153 -0.0016003 -0.0009449 0.019442 0.018231
-0.084569 0.20514 0.013786 0.0176
-0.0003736 -0.0013337 -0.0011013 -0.0028563 -0.00049114 -0.0010696 -0.0026773 0.0010944
0.013766 0.017595 -0.12709 0.27596
1100000000 0.030059 0.30264 0.036289 -0.0037861 0.0026741 0.004095 0.0025044 -0.0010713
-0.0022162 -0.0032627 -0.0040158 -0.00025632
0.036247 -0.003775 -0.13385 0.37025 0.015705 -0.02819 0.00015493 -0.0018709
-0.0038326 -0.0009048 -0.0036379 -0.0006026
0.0026772 0.0040908 0.01562 -0.028277 0.20049 0.2743 -0.0019892 8.3147e-05
-0.0018766 0.00042858 -0.0011932 -0.00037822
0.0025155 -0.0010796 0.00013489 -0.0018871 -0.0019845 7.981e-05 -0.0065209 0.28532
0.024799 0.0048574 -0.0024558 0.00020961
-0.0022426 -0.0032551 -0.0038251 -0.00090257 -0.0018716 0.00043538 0.024798 0.0048215
-0.063806 0.2174 0.019633 0.0076724
-0.0040042 -0.00023169 -0.0036429 -0.00058421 -0.0011752 -0.00037743 -0.00246 0.0002091
0.019643 0.0076793 -0.081222 0.30367
1160000000 0.080617 0.29888 0.024251 -0.020776 0.002666 -0.00037459 -2.4324e-05 -0.0024721
-0.0039843 -0.00074762 -0.0010377 0.0041509
0.024244 -0.020766 -0.09056 0.37497 -0.0035143 -0.0298 -0.0017331 -0.0017385
-0.0028088 0.002745 -0.0015967 0.0020153
0.0026652 -0.00037964 -0.0036376 -0.029831 0.2437 0.24392 -0.00083162 0.0018764
-0.0005649 0.0020324 -0.00089936 0.00040432
-1.9938e-05 -0.0024655 -0.0017364 -0.0017368 -0.00083193 0.0018818 0.032461 0.28241
0.020879 -0.010695 -0.0035242 0.0050812
-0.0040052 -0.00073228 -0.0027791 0.0027629 -0.00056109 0.0020268 0.020866 -0.010721
-0.029531 0.22457 0.018038 -0.0012534
-0.0010677 0.0041277 -0.0016171 0.0020198 -0.00088967 0.00041132 -0.0035231 0.0050864
0.018025 -0.0012789 -0.034365 0.30631
1220000000 0.12509 0.28903 0.010781 -0.030369 -0.0017291 -0.00077455 2.0118e-05 -0.00086727
-0.0027925 0.0022524 0.0012352 0.0022055
0.010754 -0.030339 -0.046335 0.38811 -0.017297 -0.021865 -0.0027024 0.00054431
-6.474e-05 0.0032948 -0.00080219 0.0019476
-0.0017472 -0.00076155 -0.017402 -0.021821 0.28292 0.20531 0.00075854 0.0017404
0.00073777 0.0012891 0.00023919 0.00049527
2.7521e-05 -0.0008572 -0.0027071 0.00055168 0.00074883 0.001743 0.07246 0.27431
0.010429 -0.017414 0.0018849 0.0017044
-0.0027712 0.0022501 -4.9851e-05 0.0032915 0.00073912 0.0012848 0.010396 -0.017436
-0.0051248 0.23283 0.013273 -0.01342
0.001282 0.0021935 -0.00080053 0.0019741 0.00024543 0.00050047 0.0018831 0.001711
0.013279 -0.013425 -0.0022623 0.32009
1280000000 0.1754 0.26846 -0.0080967 -0.028851 -0.0019824 0.0027168 -0.00082074 -0.002136
-0.00074697 0.0032139 0.0026365 0.001279
-0.0080487 -0.028823 -0.00010643 0.37973 -0.024492 -0.0088298 -0.00099813 0.0014978
0.0019264 0.0017997 0.00061994 0.0020174
-0.0019705 0.0027301 -0.024561 -0.0087352 0.31344 0.16155 0.0016219 -0.00012112
0.0013228 0.00021944 0.00038651 0.00021262
-0.00083688 -0.0021424 -0.00098852 0.0015124 0.0016209 -0.0001186 0.10963 0.25807
0.00038059 -0.019319 -8.79e-05 0.00035644
-0.00072807 0.0032182 0.0019446 0.0017852 0.0013365 0.00021309 0.000341 -0.019319
0.031025 0.23534 0.002661 -0.015621
0.0026402 0.0012588 0.00064464 0.0019888 0.00038958 0.00021157 -8.7738e-05 0.00035108
0.0026594 -0.015613 0.044123 0.32051
1340000000 0.21284 0.23539 -0.017944 -0.018964 0.00095614 0.0048811 -0.001854 -0.00090705
0.0015349 0.0026361 0.0018451 -0.0014295
-0.017923 -0.018943 0.039427 0.37206 -0.022204 0.0043928 -3.9292e-05 0.0020957
0.0020625 0.00064719 0.0012791 0.00078097
0.00098413 0.004863 -0.022204 0.0044973 0.33518 0.11466 0.001119 -0.00093543
0.00067853 -0.00059674 0.00017502 0.00024764
-0.0018638 -0.00088301 -3.1582e-05 0.0021061 0.0011247 -0.00092991 0.14269 0.23757
-0.008971 -0.016389 0.00073557 0.00069169
0.0015562 0.0026104 0.002063 0.00063361 0.00069041 -0.00060943 -0.0090122 -0.016376
0.061443 0.2305 -0.0046179 -0.01406
0.0018559 -0.0014428 0.0012926 0.0007774 0.00017998 0.00025116 0.00074009 0.00068658
-0.004633 -0.014057 0.082652 0.315
1400000000 0.24669 0.19801 -0.023758 -0.0071922 0.0055447 0.0033827 -0.0022539 0.00060917
0.0024619 0.00097433 0.00029516 -0.0015746
-0.02373 -0.0072155 0.077256 0.35947 -0.01526 0.012883 0.0014244 0.0012563
0.0012812 -0.00087877 0.0011754 7.8286e-05
0.0055634 0.0033532 -0.015215 0.012989 0.34853 0.061714 6.2248e-05 -0.0016554
0.0001683 -0.00040707 0.00021263 0.00020138
-0.0022525 0.00061559 0.0014332 0.0012393 6.9188e-05 -0.0016566 0.17258 0.20856
-0.014948 -0.0094041 -0.00066551 -0.00016924
0.0024673 0.00096348 0.001278 -0.00089777 0.0001615 -0.00039547 -0.014962 -0.0093746
0.094616 0.22541 -0.010671 -0.0086349
0.00029858 -0.0015821 0.001164 6.2955e-05 0.00021116 0.00020532 -0.00066872 -0.0001635
-0.010657 -0.008631 0.12609 0.3029
1460000000 0.27002 0.15421 -0.020365 0.0051802 0.006064 -0.0019238 -0.0016276 0.0018186
0.0022648 -0.00050819 -0.0004645 -0.0010106
-0.020346 0.0051593 0.11164 0.33759 -0.0060936 0.016018 0.0017686 0.0001298
0.00074528 -0.0014361 0.0012088 -0.00060491
0.0060414 -0.0019444 -0.0060325 0.016064 0.35516 0.0080272 -0.001267 -0.0012574
0.00016493 -0.00026074 0.00066255 -0.00043503
-0.0016296 0.001826 0.0017696 0.00013717 -0.0012651 -0.0012576 0.19926 0.179
-0.015904 -0.0025414 -0.00066784 0.0019709
0.0022488 -0.00052338 0.00073572 -0.0014421 0.00016611 -0.00025899 -0.015916 -0.0025181
0.12391 0.2109 -0.012561 -0.0026064
-0.00045845 -0.0010072 0.0012103 -0.00060244 0.00065473 -0.00043894 -0.00066505 0.0019767
-0.012541 -0.0026149 0.15893 0.28189
1520000000 0.28276 0.11284 -0.014546 0.010678 0.0036067 -0.0044413 0.000197 0.0026288
0.0021196 -0.0020221 -0.0012756 -0.0001617
-0.014528 0.010658 0.14532 0.3233 0.001926 0.013524 0.0016127 -0.00083975
-4.5885e-06 -0.0011106 0.00035081 -0.0010165
0.0035953 -0.004453 0.002005 0.013536 0.34895 -0.047629 -0.0011646 -0.0003095
0.00061969 -0.0008334 0.00010752 -0.00025505
0.00019274 0.002627 0.0016033 -0.00085183 -0.0011722 -0.00030699 0.22286 0.14049
-0.014719 0.0033993 0.0014854 0.0020371
0.0021107 -0.0020449 -1.9802e-05 -0.0011107 0.00061398 -0.00083527 -0.014703 0.0034353
0.1523 0.19701 -0.012045 0.0023165
-0.0012814 -0.00016315 0.00033924 -0.0010138 0.00010755 -0.00025431 0.0014898 0.002031
-0.012042 0.0023136 0.19131 0.26088
1580000000 0.29269 0.066402 -0.0076337 0.013574 -0.00087158 -0.0053085 0.0015199 0.0019184
-0.00029755 -0.0022013 -0.00025507 0.00050056
-0.007638 0.013563 0.17277 0.29851 0.0057537 0.0084224 0.00046316 -0.0016438
-0.00061495 -0.001018 -0.00024981 -0.00088323
-0.00090243 -0.0052962 0.005799 0.0084103 0.32971 -0.10515 -0.0015896 0.00056685
-0.00037852 -0.001251 0.00017036 -0.00056836
0.0015343 0.001913 0.00046378 -0.0016428 -0.0015879 0.00057847 0.23656 0.10046
-0.010974 0.007959 0.0022185 0.00064916
-0.00029712 -0.0021994 -0.00061055 -0.0010225 -0.00037836 -0.0012482 -0.010962 0.0079869
0.17653 0.17877 -0.0094011 0.0078437
-0.00025846 0.00050918 -0.00025411 -0.00088624 0.00016484 -0.00057264 0.002225 0.00063433
-0.0093931 0.0078616 0.22272 0.23406
1640000000 0.2951 0.02539 -0.00093367 0.012204 -0.0030274 -0.0029115 0.0027375 0.0010072
-0.000861 -0.0015579 -0.00034973 0.00056008
-0.00094355 0.012207 0.20229 0.27393 0.0063142 0.0032774 -0.00071542 -0.0017521
-0.00096385 -0.00037834 -0.00054825 -0.00068419
-0.0030531 -0.0028996 0.0063381 0.0032481 0.30192 -0.15441 -0.00068588 0.0014249
-0.0011856 -0.00098009 -0.00018858 -0.00033685
0.0027398 0.00099051 -0.00071926 -0.0017498 -0.00067833 0.0014262 0.24864 0.051377
-0.0066716 0.0090266 0.0025078 -0.00093631
-0.0008762 -0.0015658 -0.00096539 -0.0003792 -0.0011898 -0.00098421 -0.0066437 0.0090518
0.19971 0.1545 -0.0043391 0.0098558
-0.00033706 0.00056136 -0.00055946 -0.00068244 -0.00019026 -0.00033408 0.0025211 -0.00095787
-0.0043368 0.0098561 0.24758 0.20278
1700000000 0.28818 -0.019947 0.0023796 0.0091354 -0.0038943 -3.087e-05 0.0030634 -0.0012877
-0.002002 -0.00058253 0.00062717 0.00042668
0.0023641 0.0091204 0.22069 0.24269 0.0040878 0.00022092 -0.0014755 -0.00051573
-0.00080838 2.7888e-05 -0.00090829 -0.00046748
-0.0039015 -4.1866e-07 0.0040911 0.00020252 0.25929 -0.19464 0.00044201 0.0016018
-0.002002 -3.5804e-05 -0.00043691 -0.00090703
0.0030488 -0.0012943 -0.0014824 -0.00050674 0.00044967 0.0015948 0.24536 0.0010945
-0.0037963 0.0093076 0.001472 -0.0023231
-0.002016 -0.00057521 -0.00081049 3.7357e-05 -0.0020024 -3.3431e-05 -0.0037834 0.0093162
0.21706 0.13367 0.00028969 0.0098751
0.00064348 0.00042624 -0.00091419 -0.00046073 -0.00044948 -0.00090661 0.0014731 -0.0023217
0.00028142 0.0098713 0.26377 0.16845
1760000000 0.27632 -0.068586 0.0044756 0.0057349 -0.0025053 0.0010961 0.0013293 -0.0033771
-0.0013833 0.00075505 0.00033067 -0.00067862
0.0044707 0.0057397 0.2469 0.20304 0.0016783 -0.0016594 -0.001198 0.00020592
-0.0011032 0.0008689 -0.00059635 0.00044846
-0.0025029 0.0011077 0.0016812 -0.0016633 0.21096 -0.22828 0.0012173 0.0010866
-0.0011973 0.001554 -0.0012002 -0.00053514
0.001317 -0.0033833 -0.0012072 0.00020853 0.0012179 0.0010872 0.2357 -0.050499
-0.00080993 0.0081141 -0.0001485 -0.0025247
-0.0013772 0.00076678 -0.0010967 0.00088519 -0.0011889 0.0015458 -0.00080106 0.0081165
0.2319 0.098512 0.0043351 0.00729
0.00033468 -0.00068708 -0.00059548 0.00045454 -0.0011974 -0.00053619 -0.00014721 -0.0025387
0.0043354 0.0072909 0.27632 0.13063
1820000000 0.25205 -0.10575 0.0043972 0.0021669 -0.00024938 0.0025346 -0.0010903 -0.0031391
-0.0010408 0.00095843 -0.00016864 -0.0001654
0.0043856 0.0021658 0.25737 0.17318 -0.00062351 -0.00032826 -0.0013498 0.00095251
-0.00015731 0.0012608 -0.00065032 0.00052123
-0.00022042 0.0025325 -0.00062891 -0.00032356 0.16018 -0.24379 0.0016073 0.00044628
-0.00016712 0.0024638 -0.0016525 0.00032573
-0.0010957 -0.0031337 -0.0013442 0.00095966 0.0016204 0.00044005 0.20556 -0.097436
0.00049681 0.006892 -0.0018832 -0.001674
-0.0010432 0.00097137 -0.0001483 0.0012681 -0.00015601 0.0024672 0.00051613 0.0068939
0.24895 0.069547 0.0051154 0.0035148
-0.00016095 -0.00016631 -0.00063557 0.00052653 -0.0016653 0.00033851 -0.0018987 -0.0016698
0.0051143 0.0035007 0.27815 0.094266
1880000000 0.21716 -0.14643 0.0020514 -5.5559e-05 -0.00052371 0.002262 -0.0029523 -0.0022211
-0.00013344 0.0017401 0.00014645 -0.00044552
0.0020453 -5.4662e-05 0.26218 0.12636 -0.0026923 0.0015096 -0.00019298 0.0016873
0.00057825 0.001359 6.085e-05 0.00097242
-0.00050935 0.0022773 -0.0026767 0.0015302 0.10796 -0.25386 0.0018895 -0.00081913
0.0016853 0.0019691 -0.0010218 0.0013049
-0.0029606 -0.0021964 -0.00018717 0.0016901 0.0018957 -0.00080231 0.16434 -0.13776
0.0010665 0.0048873 -0.0025159 0.00044511
-0.0001271 0.0017263 0.00059008 0.0013566 0.0016822 0.0019619 0.0010835 0.0048811
0.25242 0.037361 0.0051622 0.0011271
0.00016063 -0.00044263 6.4512e-05 0.00096719 -0.0010142 0.0013013 -0.0025132 0.00046534
0.0051532 0.001126 0.27781 0.059995
1940000000 0.17782 -0.17206 -0.00043445 -0.0014823 0.0013237 0.0022292 -0.0038371 0.00047657
0.0012625 0.0010517 -0.00044226 -0.00054831
-0.00042749 -0.0014861 0.26281 0.094569 -0.0015388 0.0040428 0.0010526 0.0012424
0.0019591 0.00053883 0.0010324 0.00036821
0.0013278 0.0022113 -0.0015163 0.0040657 0.062274 -0.2466 0.00054344 -0.002315
0.002494 0.00024919 0.00076107 0.0016674
-0.0038222 0.00050064 0.0010605 0.0012251 0.00053148 -0.0023268 0.1115 -0.16803
0.00012275 0.0037103 -0.0015946 0.0017572
0.0012898 0.0010475 0.0019679 0.00051922 0.0024917 0.00024254 0.00015471 0.0036971
0.25482 -0.0008248 0.0037246 -0.002059
-0.00046677 -0.00056103 0.0010446 0.00036643 0.00076494 0.0016589 -0.0015891 0.0017758
0.0037171 -0.002054 0.26619 0.023623
2000000000 0.13174 -0.18695 -0.0042248 0.00071356 0.0026868 0.0016628 -0.0024196 0.003732
0.0012332 0.00041656 -0.00053321 0.00057816
-0.0042095 0.00071078 0.24888 0.058716 -0.0010708 0.0058581 0.0015798 0.00034388
0.0014871 -0.0011963 0.00062639 0.00017164
0.0026818 0.0016622 -0.0010294 0.0058711 0.018978 -0.23278 -0.0014535 -0.0015002
0.0020673 -0.00121 0.0018768 0.0012964
-0.0023887 0.0037579 0.0016005 0.00034516 -0.0014585 -0.001503 0.058247 -0.17757
-0.0010893 0.0036987 -4.0467e-06 0.002131
0.0012214 0.00041145 0.0014763 -0.0012103 0.0020778 -0.0012202 -0.0010805 0.0036764
0.24974 -0.034137 0.00062021 -0.0030838
