!Keysight Technologies,M9804A,MY58100912,A.14.10.03
!Date: Thursday, April 27, 2023 10:28:33
!Correction: S11(C  6-Port  ) 
!S12(C  6-Port  ) 
!S13(C  6-Port  ) 
!S14(C  6-Port  ) 
!S15(C  6-Port  ) 
!S16(C  6-Port  ) 
!S21(C  6-Port  ) 
!S22(C  6-Port  ) 
!S23(C  6-Port  ) 
!S24(C  6-Port  ) 
!S25(C  6-Port  ) 
!S26(C  6-Port  ) 
!S31(C  6-Port  ) 
!S32(C  6-Port  ) 
!S33(C  6-Port  ) 
!S34(C  6-Port  ) 
!S35(C  6-Port  ) 
!S36(C  6-Port  ) 
!S41(C  6-Port  ) 
!S42(C  6-Port  ) 
!S43(C  6-Port  ) 
!S44(C  6-Port  ) 
!S45(C  6-Port  ) 
!S46(C  6-Port  ) 
!S51(C  6-Port  ) 
!S52(C  6-Port  ) 
!S53(C  6-Port  ) 
!S54(C  6-Port  ) 
!S55(C  6-Port  ) 
!S56(C  6-Port  ) 
!S61(C  6-Port  ) 
!S62(C  6-Port  ) 
!S63(C  6-Port  ) 
!S64(C  6-Port  ) 
!S65(C  6-Port  ) 
!S66(C  6-Port  ) 
!S6P File: Measurement: :
# Hz S  RI   R 50
500000000 -0.33602 -0.051436 -0.010614 -0.001507 -0.0083162 0.013373 -0.0047042 0.013026
0.01148 0.0044742 -0.0048454 0.0096133
-0.010806 -0.0014228 -0.41766 -0.06241 0.0079093 -0.010297 0.0015572 0.012893
0.0069278 0.002405 0.00082727 0.014633
-0.008874 0.013294 0.0074484 -0.010412 -0.26766 0.20065 0.0069037 0.0039527
-0.0017858 0.0088416 0.00057701 0.012749
-0.004051 0.012092 0.0018733 0.012194 0.0069497 0.0039533 -0.33176 0.044432
-0.018533 -0.0041851 0.016129 0.024715
0.011459 0.0054049 0.0070453 0.0025933 -0.0018873 0.0090008 -0.018544 -0.0041631
-0.25032 -0.1935 -0.025785 0.0052156
-0.0045357 0.0083461 0.001344 0.013714 0.00069929 0.012683 0.016085 0.024769
-0.025798 0.0051872 -0.27479 -0.11715
560000000 -0.31796 0.11394 -0.023903 -0.064406 0.00030502 0.013271 0.0050919 0.010892
0.010485 0.0049938 0.010519 0.0079553
-0.023466 -0.065191 -0.37517 0.10246 -0.042599 -0.037206 0.013692 0.0040399
-0.014039 -0.0050445 0.0039954 9.2365e-05
0.0011724 0.013276 -0.043164 -0.037475 -0.18599 0.25179 0.00037414 -0.0044153
0.019137 0.0043792 0.0075299 -0.0051334
0.0057004 0.011525 0.014953 0.0039281 0.00054588 -0.0042082 -0.30825 0.1365
0.0065971 -0.023419 0.0034768 -0.020555
0.010838 0.0044443 -0.015392 -0.0054644 0.019034 0.0043214 0.0066037 -0.02335
-0.31039 -0.012115 0.007317 -0.045647
0.011542 0.0080317 0.005238 -0.00040573 0.0072093 -0.0047327 0.0035718 -0.02048
0.0073289 -0.045648 -0.33291 0.029914
620000000 -0.27767 0.093908 -0.02317 0.008899 0.0038424 0.010049 0.008464 -0.0044688
0.012629 -0.001216 0.0013084 -0.0017082
-0.023024 0.0089352 -0.40349 0.050398 -0.018129 0.001133 -0.0014148 -0.002176
0.012294 -0.0062464 0.0014893 -0.0030312
0.0038532 0.0095139 -0.018024 0.00088098 -0.1555 0.26257 -0.00081997 -0.0045597
-0.0028304 -0.0032837 0.0094075 -0.0025418
0.0085125 -0.0041324 -0.0015825 -0.0021503 -0.00093582 -0.0045168 -0.26522 0.14761
-0.03797 -0.018996 0.013583 0.027047
0.012127 -0.0011034 0.01249 -0.0056283 -0.0027753 -0.0033489 -0.037978 -0.019008
-0.23316 -0.046331 -0.041846 0.011878
0.0010916 -0.001391 0.00090066 -0.0035183 0.0091613 -0.0027106 0.013657 0.027081
-0.041842 0.011835 -0.25264 -0.0027213
680000000 -0.23879 0.18465 -0.026248 -0.013934 0.0052459 0.0051508 0.0015779 -0.0070498
-0.0023967 -0.01191 0.00529 -0.0072428
-0.02627 -0.014289 -0.38963 0.15112 -0.032286 -0.0019916 -0.0012937 -0.00068469
-0.0019104 -0.0097871 -0.0011255 -0.0019695
0.0052852 0.0051535 -0.032359 -0.0020502 -0.10344 0.28149 -0.00098867 -0.00055881
-0.0015797 0.00018351 -0.0029093 -0.0096529
0.0022699 -0.0071672 -0.0013309 -0.00067722 -0.00098607 -0.00064068 -0.22039 0.19726
-0.023239 -0.007211 -0.0092454 -0.010856
-0.0023045 -0.012356 -0.0018595 -0.0096971 -0.0015815 0.00016474 -0.02321 -0.0072593
-0.27836 0.059199 -0.0070494 -0.0067751
0.0051925 -0.0074091 -0.0009088 -0.0017934 -0.002973 -0.009609 -0.0092309 -0.010902
-0.007042 -0.0067895 -0.25932 0.10055
740000000 -0.19324 0.17817 -0.039687 0.027045 0.013942 -0.0051834 -0.00039132 -0.0040001
-0.004006 -0.003183 -0.0067073 0.0032845
-0.039168 0.027146 -0.33482 0.16965 -0.036157 0.034784 -4.2157e-05 -0.0063284
-0.013008 0.0071987 -0.00081895 -0.0069355
0.013618 -0.0051892 -0.036253 0.035052 -0.069673 0.27907 -0.0019902 0.0036615
-0.0026473 -0.0060285 -0.0010672 0.0015624
-0.00083091 -0.0043395 -0.00056549 -0.0063868 -0.0019699 0.0036464 -0.2032 0.20537
-0.042609 -0.007442 0.022262 0.014421
-0.004303 -0.0019304 -0.012165 0.0075856 -0.0026855 -0.0061021 -0.042655 -0.0074158
-0.17915 0.083095 -0.041627 0.00080326
-0.0068746 0.0029559 -0.0020228 -0.0062535 -0.0011314 0.0014766 0.022247 0.014417
-0.041614 0.00077249 -0.24836 0.10672
800000000 -0.16105 0.22198 -0.022363 0.01642 0.0057055 -0.010536 -0.0043856 -0.0021649
-0.0045844 0.0021432 0.0036958 0.0011101
-0.02243 0.016572 -0.34042 0.24033 -0.0084681 0.034039 -0.0023038 0.002101
-0.0012657 0.0028158 0.00049069 0.0053969
0.0056846 -0.010436 -0.0083527 0.03413 -0.030729 0.30231 0.00075413 0.0013124
-3.9812e-05 0.0038483 -0.0020202 0.00064636
-0.0043802 -0.0019818 -0.0022814 0.0020974 0.00076626 0.0013433 -0.1734 0.23247
-0.028181 0.013372 0.01348 -0.010814
-0.0043539 0.0025234 -0.0012336 0.002964 -6.5611e-06 0.0037844 -0.028171 0.013421
-0.21959 0.11344 -0.016748 0.020538
0.003857 0.0012681 0.00088935 0.0054972 -0.0020033 0.00066291 0.013505 -0.010859
-0.016771 0.020506 -0.23923 0.15408
860000000 -0.12654 0.24139 -0.017401 0.030364 -0.0027494 -0.010464 -0.0019925 0.00076628
0.0037185 0.0048602 -0.0032662 -0.0025389
-0.017533 0.030245 -0.29203 0.28239 0.0074841 0.034202 9.0546e-05 0.0022244
0.0033527 0.00061324 0.0037628 0.00063299
-0.0028745 -0.010415 0.0076405 0.034342 0.016626 0.31054 -0.00072002 3.0167e-05
0.0023246 -0.0016545 0.0018866 0.0045098
-0.0019502 0.00063212 -1.2934e-05 0.002144 -0.00067441 -4.4914e-05 -0.13711 0.24289
-0.018025 0.017701 -0.0064371 -0.008467
0.0036155 0.0049428 0.0037258 0.00077373 0.0023347 -0.0015792 -0.018027 0.017714
-0.16457 0.16276 -0.02312 0.017655
-0.0032147 -0.0024141 0.00312 0.00065934 0.0017594 0.004452 -0.0064421 -0.0084586
-0.023158 0.017634 -0.18808 0.19895
920000000 -0.10319 0.26444 0.0046096 0.038022 -0.0094638 -0.0052455 -0.0020515 0.0015145
0.0012737 0.0019436 0.0030045 -0.0013503
0.0045739 0.037926 -0.26523 0.30373 0.028011 0.022452 0.0014599 0.0013379
0.0071211 0.00016505 0.0045226 -0.0026708
-0.0095248 -0.005238 0.028118 0.02253 0.06192 0.3121 0.0018912 1.883e-05
0.0011105 -0.00018534 0.00083394 -0.0012605
-0.0021178 0.0017169 0.0014321 0.0014753 0.0018759 3.8205e-05 -0.11211 0.25959
-0.010749 0.030589 0.0037279 -0.0068522
0.0011287 0.0021999 0.0072792 0.00010402 0.0011286 -0.00021468 -0.010727 0.030608
-0.15192 0.17046 -0.0012663 0.026764
0.003239 -0.0013197 0.0045908 -0.0025971 0.00089729 -0.0012216 0.0037086 -0.0068431
-0.0012944 0.026748 -0.19323 0.2124
980000000 -0.056651 0.28438 0.016878 0.030013 -0.0095975 0.0040839 0.0017919 0.0037012
0.0041274 -0.0014934 -0.0032508 -0.0028199
0.016751 0.030019 -0.21222 0.33824 0.033329 0.0053463 0.0020855 -4.5985e-05
0.0019587 -0.0060038 -0.00038154 -0.0027214
-0.0096463 0.0041309 0.033352 0.0052424 0.1077 0.30648 0.00058942 -0.0012269
0.00038611 -0.0019542 0.0013255 -0.00034252
0.0017054 0.0036788 0.0020896 -5.5809e-05 0.0005869 -0.0012519 -0.074307 0.2704
0.0075192 0.029605 -0.0090919 -0.0067915
0.0040843 -0.0017438 0.0018709 -0.0062559 0.00039353 -0.0019149 0.0075574 0.029615
-0.11748 0.19834 0.005731 0.019243
-0.0028077 -0.0025473 -0.00025397 -0.0026595 0.0012658 -0.00034601 -0.0090869 -0.0067729
0.005706 0.019254 -0.15039 0.25564
1040000000 -0.015316 0.29344 0.032958 0.018766 -0.0016751 0.0069795 0.0025938 0.00095589
0.00053167 -0.0035889 -0.00030046 -0.0013293
0.032934 0.018781 -0.17744 0.3518 0.030102 -0.014628 0.0017313 -0.0017357
-0.0017799 -0.0027991 -0.0010738 -0.0029875
-0.0016622 0.0069839 0.03004 -0.014749 0.15357 0.29379 -0.00049467 -0.0016057
-0.0015963 -0.00096928 -0.00056409 -0.00095797
0.0025671 0.00090319 0.0016812 -0.0017947 -0.00049748 -0.0016019 -0.047036 0.28002
0.019237 0.018322 -0.0023642 0.00099714
0.00068358 -0.0034832 -0.0018567 -0.0027435 -0.0015944 -0.00096748 0.019284 0.018312
-0.084559 0.20439 0.014504 0.017599
-0.00041431 -0.0015453 -0.0011216 -0.0028993 -0.00055146 -0.00093893 -0.0023511 0.0010108
0.014486 0.017613 -0.12746 0.27523
1100000000 0.029407 0.30258 0.036204 -0.0036642 0.002606 0.0041521 0.0024758 -0.0010512
-0.0019512 -0.0031548 -0.004075 -0.00041028
0.036186 -0.0036448 -0.13442 0.36975 0.015811 -0.028047 0.00016121 -0.001883
-0.0037838 -0.0010523 -0.0036603 -0.00069979
0.0027144 0.0042084 0.015753 -0.028106 0.19999 0.27441 -0.0019557 0.00015167
-0.0017903 0.00051427 -0.0011376 -0.00033748
0.0024264 -0.0011336 0.00011419 -0.0019049 -0.0019387 0.00015393 -0.0069608 0.28497
0.02492 0.0049813 -0.0025115 7.539e-05
-0.002129 -0.0031605 -0.0038198 -0.0010658 -0.0017609 0.00053517 0.024929 0.0049368
-0.064002 0.21728 0.019742 0.0073426
-0.003984 -0.00029942 -0.0036061 -0.00059407 -0.001117 -0.00035985 -0.0024989 8.9677e-05
0.019718 0.0073473 -0.081887 0.30355
1160000000 0.080139 0.29873 0.024401 -0.020784 0.002592 -0.00026389 4.4931e-05 -0.002329
-0.0039573 -0.0007803 -0.00098753 0.0041069
0.024371 -0.020784 -0.091239 0.37461 -0.0034173 -0.029793 -0.001603 -0.0016752
-0.0028754 0.0027431 -0.0014091 0.0018646
0.0026626 -0.00024519 -0.003586 -0.029786 0.24333 0.24411 -0.00083516 0.0018569
-0.00056995 0.002012 -0.00085433 0.00043098
-4.8454e-05 -0.0023108 -0.0016771 -0.0017597 -0.00084227 0.0018712 0.031913 0.28243
0.020859 -0.0107 -0.0032273 0.0050671
-0.0040145 -0.00077873 -0.0028485 0.0027933 -0.00059748 0.0020185 0.020852 -0.01073
-0.029429 0.22392 0.018357 -0.0010863
-0.00097763 0.0041534 -0.0015266 0.0018905 -0.00084794 0.00044324 -0.0032116 0.0050858
0.018354 -0.0010601 -0.034997 0.30551
1220000000 0.12443 0.28904 0.010801 -0.030305 -0.0016825 -0.00071218 0.00016153 -0.00094346
-0.0027103 0.0022636 0.0012114 0.0021251
0.010813 -0.030305 -0.046998 0.38801 -0.017122 -0.02185 -0.0027073 0.00042806
4.8465e-05 0.0032548 -0.00083801 0.0019588
-0.0017563 -0.00070361 -0.017247 -0.021814 0.28249 0.20559 0.00076474 0.0017561
0.0007113 0.0012018 0.00022457 0.00051987
0.00013174 -0.00097107 -0.0026672 0.00047219 0.00076371 0.0017682 0.072062 0.2743
0.010621 -0.017199 0.0015899 0.0015752
-0.0026959 0.0022494 2.8901e-05 0.003278 0.00070136 0.0012128 0.0106 -0.017223
-0.0060361 0.23231 0.013576 -0.01362
0.0011729 0.0021781 -0.00081222 0.0019201 0.00025546 0.00049716 0.0015865 0.0015729
0.013572 -0.0136 -0.0029023 0.32002
1280000000 0.17469 0.26859 -0.0080971 -0.028989 -0.0019578 0.0026958 -0.00082906 -0.0021508
-0.00072004 0.0032129 0.0026508 0.0013291
-0.0080653 -0.028931 -0.00092009 0.37973 -0.024383 -0.0089605 -0.0010138 0.0015768
0.0018659 0.0019151 0.00081338 0.0020193
-0.0019079 0.0026339 -0.024426 -0.0088311 0.31308 0.16194 0.0016324 -2.8819e-05
0.0012943 0.00022283 0.00050853 0.00022313
-0.00080183 -0.0020858 -0.0010093 0.0015348 0.0016253 -5.109e-05 0.10906 0.25819
0.00048993 -0.019589 -0.00030657 0.00054575
-0.00079006 0.0032721 0.0019287 0.0019139 0.0013213 0.00018926 0.00046751 -0.019591
0.030873 0.23473 0.0024782 -0.015978
0.0026475 0.0013861 0.00061641 0.00199 0.00047542 0.00022907 -0.00031326 0.00056841
0.0024812 -0.015959 0.043471 0.32047
1340000000 0.21219 0.23589 -0.017958 -0.019034 0.00093788 0.0048569 -0.0018653 -0.00094745
0.0013814 0.0026782 0.0018031 -0.0014323
-0.017946 -0.019014 0.038838 0.37218 -0.022179 0.0043101 -8.0036e-05 0.0021056
0.0021129 0.00071139 0.0012402 0.00081009
0.00092401 0.0048976 -0.0222 0.00441 0.335 0.11501 0.0011774 -0.00097085
0.00071344 -0.00057526 0.00011398 0.00018096
-0.0018656 -0.00099658 -2.891e-05 0.0020961 0.0011819 -0.0009905 0.14243 0.23794
-0.0087984 -0.016593 0.00076663 0.00057362
0.0016656 0.0026205 0.002148 0.00063617 0.00071404 -0.00054988 -0.0088342 -0.016574
0.060512 0.23004 -0.0043518 -0.014266
0.0017983 -0.001463 0.0012949 0.0008061 0.00013206 0.00018625 0.00076672 0.00056593
-0.0043366 -0.014257 0.081726 0.31477
1400000000 0.24627 0.19873 -0.023798 -0.0072294 0.0055202 0.0034199 -0.0023045 0.00055261
0.0025471 0.00095124 0.00020276 -0.001643
-0.023762 -0.007227 0.076643 0.3597 -0.015382 0.012845 0.0014253 0.0012714
0.0013526 -0.0009864 0.0011346 0.00011319
0.0055403 0.0034012 -0.015336 0.012948 0.3484 0.062132 2.6365e-05 -0.0016819
8.305e-05 -0.00037198 0.00019164 0.00026767
-0.0023512 0.0006384 0.0014209 0.0012975 2.3709e-05 -0.0016697 0.17234 0.20891
-0.014875 -0.0094921 -0.00071015 -5.8524e-05
0.0025281 0.00088678 0.0013679 -0.00096366 7.8474e-05 -0.00037114 -0.01489 -0.009458
0.093945 0.22535 -0.011076 -0.0088634
0.00027436 -0.0015808 0.001144 0.00014241 0.00017024 0.0002441 -0.00071703 -5.498e-05
-0.01107 -0.008867 0.12575 0.30311
1460000000 0.26973 0.15482 -0.020437 0.0052243 0.0060793 -0.0018534 -0.0016485 0.0018729
0.0022703 -0.00039853 -0.00044983 -0.0011776
-0.020423 0.0052181 0.11114 0.33796 -0.0062439 0.016047 0.0017588 8.5763e-05
0.00078314 -0.0014643 0.0012297 -0.00054537
0.0060674 -0.0018284 -0.006188 0.01606 0.35518 0.0084608 -0.0013169 -0.0012839
0.00017525 -0.00022552 0.0006696 -0.00041738
-0.0015835 0.0018372 0.0017667 8.8471e-05 -0.0012865 -0.0012615 0.19911 0.17931
-0.016035 -0.0025468 -0.00063743 0.0020511
0.0022811 -0.00043144 0.00077447 -0.0014989 0.00015763 -0.00023332 -0.016057 -0.0025201
0.12286 0.21068 -0.012752 -0.0025293
-0.00048213 -0.0011308 0.0011826 -0.00058872 0.00068638 -0.00038463 -0.00062261 0.0020393
-0.012737 -0.002538 0.15809 0.28205
1520000000 0.28261 0.11349 -0.014503 0.010681 0.0036984 -0.0044601 0.00019321 0.0026093
0.0022011 -0.0020905 -0.0012458 -0.00026567
-0.014524 0.01069 0.14491 0.32365 0.0018217 0.013613 0.001615 -0.00086802
-4.3557e-05 -0.0011183 0.00034295 -0.0010748
0.0036645 -0.0044657 0.0018856 0.013605 0.34893 -0.047067 -0.0011668 -0.00033654
0.00065108 -0.0009 0.00015842 -0.00017884
0.00021803 0.0026126 0.0016035 -0.00086377 -0.0011661 -0.00032934 0.22284 0.14085
-0.014883 0.003347 0.0016498 0.0020784
0.0021281 -0.002135 -4.7055e-05 -0.001125 0.00066525 -0.00090432 -0.014871 0.0033826
0.15125 0.1973 -0.012348 0.002434
-0.0012262 -0.00023413 0.00032987 -0.0010593 0.00014133 -0.00019272 0.0016355 0.0020609
-0.012361 0.0024293 0.19058 0.26084
1580000000 0.29275 0.067067 -0.0076479 0.013625 -0.00090274 -0.0054021 0.0015756 0.001919
-0.00018945 -0.0022009 -0.00030622 0.00048198
-0.00762 0.013598 0.17248 0.29885 0.0057617 0.0084162 0.00050136 -0.0016165
-0.00061391 -0.00092248 -0.00027968 -0.0008411
-0.00088877 -0.0053713 0.005831 0.0084117 0.32981 -0.10497 -0.0015801 0.00060865
-0.00032741 -0.0012736 0.00017656 -0.0005836
0.0015794 0.0019006 0.00045987 -0.0016154 -0.0015887 0.00059345 0.23657 0.10063
-0.011154 0.0080106 0.0023582 0.00059894
-0.0002377 -0.0022092 -0.00064295 -0.00092384 -0.00032771 -0.0012915 -0.011149 0.0080325
0.17556 0.17904 -0.0094086 0.0081364
-0.00022856 0.00046547 -0.00021338 -0.00088963 0.0001882 -0.00057612 0.0023717 0.00061119
-0.0094179 0.0081213 0.22183 0.23427
1640000000 0.29497 0.025833 -0.00085881 0.01217 -0.0030348 -0.0029322 0.0027714 0.00092641
-0.00085099 -0.0016718 -0.00035583 0.00061611
-0.00086313 0.012194 0.20201 0.27427 0.0063295 0.0033182 -0.00067178 -0.0017436
-0.00096495 -0.00033715 -0.00055078 -0.00070654
-0.0030754 -0.0028589 0.0063546 0.0032582 0.30209 -0.15418 -0.0006735 0.0015129
-0.0011898 -0.00094654 -0.00019471 -0.0003502
0.0027597 0.0009547 -0.00069281 -0.0017581 -0.00066383 0.0015084 0.24877 0.051502
-0.0066594 0.0091664 0.0025435 -0.0009015
-0.00087616 -0.0015831 -0.00096652 -0.00032188 -0.0011854 -0.00095753 -0.00664 0.0091828
0.19894 0.15514 -0.0044539 0.010028
-0.0002342 0.00060206 -0.0005407 -0.00066986 -0.00018359 -0.00033978 0.0025486 -0.00092368
-0.0044691 0.010023 0.24688 0.20325
1700000000 0.28823 -0.019444 0.0024227 0.0091044 -0.0038882 -4.7797e-05 0.0030806 -0.0012392
-0.0020863 -0.00053193 0.00069692 0.00034103
0.0023859 0.0090946 0.22052 0.24298 0.0041805 0.0002232 -0.0014767 -0.00057428
-0.00075296 4.8424e-05 -0.00089874 -0.00047821
-0.0038989 -2.1175e-05 0.0041873 0.00020182 0.25919 -0.19429 0.0004558 0.0015314
-0.0020304 -2.8538e-05 -0.00042943 -0.00087593
0.0031111 -0.0012454 -0.001495 -0.00055871 0.00045717 0.0015273 0.24546 0.001214
-0.0038221 0.0093688 0.0016223 -0.0023216
-0.0020194 -0.0005533 -0.00074076 6.1911e-05 -0.0020273 -2.3697e-05 -0.0038079 0.0093824
0.21654 0.13435 0.00027648 0.010186
0.00060372 0.00037233 -0.00089024 -0.00046562 -0.00044145 -0.00087602 0.0016219 -0.0023117
0.00028554 0.010189 0.26309 0.16906
1760000000 0.27638 -0.068129 0.0045304 0.0057099 -0.0025156 0.0012259 0.0012734 -0.0034162
-0.0014814 0.00073551 0.00027921 -0.00063764
0.0045136 0.0056837 0.24668 0.20335 0.0016931 -0.0016157 -0.0012008 0.00017171
-0.0011036 0.00081254 -0.00060615 0.00038282
-0.0025688 0.0011343 0.0016604 -0.0016331 0.21072 -0.22768 0.0011689 0.0010059
-0.0012181 0.0014992 -0.0012974 -0.00056714
0.0012203 -0.0033808 -0.0012017 0.0001737 0.0011485 0.0010156 0.23581 -0.05055
-0.00070706 0.0082883 -0.0002611 -0.0026877
-0.0014629 0.00079912 -0.0010466 0.00081357 -0.0012136 0.0015012 -0.00067594 0.0082972
0.23153 0.09942 0.0044885 0.0073923
0.00028123 -0.00071497 -0.00063901 0.00041746 -0.0012771 -0.00056107 -0.0002698 -0.0026745
0.0044806 0.007394 0.27559 0.13149
1820000000 0.25214 -0.10537 0.004353 0.00212 -0.00040746 0.0024818 -0.0010929 -0.0031551
-0.0010809 0.0010148 -0.00026109 -9.8675e-05
0.0043651 0.0021053 0.25715 0.17341 -0.00073045 -0.00053116 -0.0013541 0.0008841
-0.00014241 0.0012164 -0.00071868 0.00056917
-0.00035815 0.0025059 -0.00073064 -0.00052027 0.16059 -0.24367 0.0013724 0.00047329
-0.00020917 0.0024521 -0.0016382 0.00051395
-0.0011023 -0.0031009 -0.0013421 0.0009346 0.0014162 0.0004597 0.20549 -0.097541
0.00063343 0.0068751 -0.0017927 -0.0017125
-0.00099983 0.0010059 -0.00013777 0.0012431 -0.00019178 0.0024606 0.00066491 0.006872
0.24871 0.070334 0.00524 0.0036434
-0.00027591 -0.00011151 -0.00065843 0.00055415 -0.0016691 0.0005384 -0.0018002 -0.0017203
0.0052465 0.0036362 0.27764 0.09501
1880000000 0.21728 -0.14597 0.0019902 -9.9157e-05 -0.00041943 0.0022663 -0.0028823 -0.0022343
-0.00015551 0.0017865 0.00020031 -0.00042545
0.0020208 -8.7175e-05 0.26194 0.12664 -0.0027125 0.0014789 -0.00023947 0.0017715
0.00048034 0.0013504 0.00014697 0.00092071
-0.00043929 0.0022988 -0.0027214 0.0015405 0.1083 -0.25368 0.0019971 -0.00085636
0.001671 0.001932 -0.00089372 0.0014035
-0.0029015 -0.0021713 -0.00018959 0.0017514 0.0019956 -0.00088216 0.16421 -0.13788
0.0012292 0.004873 -0.0026954 0.00026898
-0.00017196 0.0018342 0.00051267 0.001356 0.0016705 0.0019394 0.0012376 0.0048548
0.25243 0.038165 0.0053899 0.0012262
0.00015599 -0.00046769 3.2896e-05 0.00088298 -0.0008673 0.0013746 -0.0026907 0.00030795
0.0053794 0.0012245 0.2775 0.061056
1940000000 0.17793 -0.17148 -0.00053162 -0.001552 0.0013233 0.0023156 -0.0037962 0.00037109
0.0014164 0.0010359 -0.00045 -0.00044249
-0.00050542 -0.0015547 0.26263 0.09484 -0.0016756 0.0041093 0.0010784 0.0013343
0.0018853 0.00064743 0.00095862 0.00051342
0.0014305 0.0023214 -0.0017082 0.0041277 0.06214 -0.24632 0.00060333 -0.0022802
0.0024078 0.0002817 0.00052428 0.0017344
-0.0037426 0.00039072 0.0010814 0.0013622 0.00063544 -0.0022352 0.11125 -0.16794
0.0002743 0.003504 -0.0015785 0.0015565
0.0013845 0.0010601 0.0018551 0.00065257 0.002404 0.00028317 0.00027439 0.0035243
0.25493 -0.00034087 0.0040262 -0.0024147
-0.0004664 -0.00037237 0.001075 0.00044804 0.00052929 0.0017587 -0.0015653 0.0015251
0.0040316 -0.0024106 0.26587 0.024518
2000000000 0.13208 -0.18628 -0.0043232 0.0006835 0.0027638 0.0016339 -0.0024395 0.0037972
0.0011214 0.00031551 -0.00047776 0.00044484
-0.0043073 0.00075323 0.24875 0.059071 -0.0010472 0.0060177 0.0015735 0.0004083
0.0015133 -0.0010959 0.00060022 0.00018626
0.0027715 0.0017286 -0.00095812 0.0060077 0.019351 -0.2325 -0.0012766 -0.0015132
0.0021265 -0.0012087 0.0018125 0.0013066
-0.0023128 0.0039269 0.0015676 0.00035696 -0.0012664 -0.0015208 0.057915 -0.17733
-0.0010469 0.0035602 -0.00027142 0.0023549
0.0011866 0.00047223 0.0015484 -0.001092 0.0021284 -0.0012341 -0.0010249 0.0035507
0.24996 -0.033569 0.000811 -0.0031934
