!Keysight Technologies,M9804A,MY58100912,A.14.10.03
!Date: Thursday, April 27, 2023 10:28:33
!Correction: S11(C  6-Port  ) 
!S12(C  6-Port  ) 
!S13(C  6-Port  ) 
!S14(C  6-Port  ) 
!S15(C  6-Port  ) 
!S16(C  6-Port  ) 
!S21(C  6-Port  ) 
!S22(C  6-Port  ) 
!S23(C  6-Port  ) 
!S24(C  6-Port  ) 
!S25(C  6-Port  ) 
!S26(C  6-Port  ) 
!S31(C  6-Port  ) 
!S32(C  6-Port  ) 
!S33(C  6-Port  ) 
!S34(C  6-Port  ) 
!S35(C  6-Port  ) 
!S36(C  6-Port  ) 
!S41(C  6-Port  ) 
!S42(C  6-Port  ) 
!S43(C  6-Port  ) 
!S44(C  6-Port  ) 
!S45(C  6-Port  ) 
!S46(C  6-Port  ) 
!S51(C  6-Port  ) 
!S52(C  6-Port  ) 
!S53(C  6-Port  ) 
!S54(C  6-Port  ) 
!S55(C  6-Port  ) 
!S56(C  6-Port  ) 
!S61(C  6-Port  ) 
!S62(C  6-Port  ) 
!S63(C  6-Port  ) 
!S64(C  6-Port  ) 
!S65(C  6-Port  ) 
!S66(C  6-Port  ) 
!S6P File: Measurement: :
# Hz S  RI   R 50
500000000 -0.33466 -0.051582 -0.0098988 -0.0014181 -0.0083479 0.013445 -0.0039713 0.011739
0.011735 0.0048532 -0.0036444 0.0081283
-0.010049 -0.0013993 -0.41693 -0.061565 0.0079958 -0.010507 0.001357 0.012081
0.0077979 0.0025842 0.00098323 0.013409
-0.0086562 0.013804 0.0078922 -0.01042 -0.26717 0.20037 0.0071289 0.003456
-0.0018356 0.0089088 0.00084391 0.012358
-0.0038602 0.012114 0.0014425 0.012447 0.0071281 0.0034793 -0.33252 0.044574
-0.018563 -0.0054479 0.015215 0.025504
0.011838 0.0047281 0.007751 0.0025316 -0.0018191 0.0089354 -0.018603 -0.0054567
-0.2495 -0.19243 -0.02561 0.0038701
-0.0038584 0.0085202 0.0010349 0.013748 0.00077733 0.012395 0.015308 0.025504
-0.02563 0.0037796 -0.27473 -0.1156
560000000 -0.31752 0.11406 -0.023362 -0.064276 -3.1414e-06 0.012776 0.0057044 0.011806
0.010529 0.0046425 0.010584 0.0085862
-0.023218 -0.064497 -0.37558 0.10044 -0.042 -0.037308 0.013666 0.0033533
-0.013781 -0.0037759 0.0033988 -0.0010593
0.00028406 0.012804 -0.041949 -0.037235 -0.18525 0.25132 0.0002142 -0.0042323
0.019156 0.0041158 0.008289 -0.0043996
0.0055303 0.011697 0.013664 0.0029812 0.00024317 -0.0041679 -0.30694 0.13719
0.0074323 -0.024227 0.0043081 -0.020616
0.010371 0.0053741 -0.014259 -0.0029826 0.019186 0.0039719 0.0074133 -0.024254
-0.31032 -0.013934 0.0092525 -0.047747
0.011433 0.0090328 0.0034817 -0.0014773 0.0082914 -0.004321 0.0043299 -0.02066
0.0093051 -0.047716 -0.3311 0.029158
620000000 -0.277 0.094555 -0.022827 0.008821 0.0037477 0.0091682 0.0083086 -0.0052989
0.013267 -0.0013139 0.0011342 -0.0031406
-0.022842 0.0088633 -0.4034 0.050873 -0.018437 0.00076634 -0.0015978 -0.0026378
0.012318 -0.0058619 0.0014339 -0.0035524
0.0036384 0.0095293 -0.018431 0.00083334 -0.1556 0.26171 -0.0010048 -0.0056732
-0.0026168 -0.002993 0.0092605 -0.0035768
0.0084555 -0.0053819 -0.0016128 -0.0024032 -0.001015 -0.0056583 -0.26579 0.14673
-0.038283 -0.019041 0.011345 0.026741
0.012266 -0.00091113 0.012271 -0.0059801 -0.0026522 -0.0029766 -0.038234 -0.01898
-0.23145 -0.045063 -0.038615 0.012471
0.00075858 -0.0027574 0.0013244 -0.0032178 0.0092314 -0.0034861 0.011352 0.026794
-0.038643 0.012493 -0.25506 -0.0024756
680000000 -0.23914 0.18485 -0.026299 -0.014304 0.0052685 0.0054452 0.0012775 -0.007402
-0.002207 -0.011677 0.0047496 -0.0071922
-0.026372 -0.014323 -0.38946 0.1512 -0.032487 -0.0019109 -0.0011534 -0.00076309
-0.0018247 -0.0096343 -0.0011104 -0.0015422
0.0053485 0.0055108 -0.03251 -0.0018284 -0.10369 0.28129 -0.00084946 -0.00030574
-0.0016737 0.00028321 -0.002664 -0.0091923
0.0014532 -0.0073359 -0.0011114 -0.00073139 -0.00084342 -0.00031087 -0.22036 0.19797
-0.023178 -0.007701 -0.0087332 -0.011468
-0.0021076 -0.011838 -0.0018119 -0.0095999 -0.0017063 0.00024964 -0.023197 -0.0076759
-0.27826 0.058734 -0.007152 -0.0078296
0.0050749 -0.0072652 -0.00097526 -0.0014895 -0.0026668 -0.009215 -0.0087038 -0.011527
-0.0071727 -0.0078307 -0.25963 0.096501
740000000 -0.19321 0.17852 -0.039516 0.026691 0.013362 -0.0048172 -0.00056429 -0.0041776
-0.0044498 -0.0024824 -0.0065371 0.0033355
-0.039611 0.026718 -0.33478 0.16954 -0.036414 0.034989 -0.00040073 -0.0061606
-0.011979 0.0074416 -0.0016909 -0.0062221
0.013523 -0.0050631 -0.036455 0.035137 -0.069935 0.27891 -0.0019799 0.0032615
-0.0024859 -0.0052176 -0.001861 0.00099179
-0.00040755 -0.0042796 -0.00025351 -0.0062091 -0.0019892 0.0032702 -0.20399 0.20484
-0.042429 -0.0066368 0.021613 0.014281
-0.0046644 -0.0024578 -0.012296 0.0076854 -0.0024756 -0.0052355 -0.04246 -0.0066047
-0.17937 0.082237 -0.041197 0.0020046
-0.0062332 0.0032722 -0.0016845 -0.0060889 -0.0019196 0.00095291 0.021683 0.014388
-0.041148 0.0019557 -0.24833 0.10491
800000000 -0.16104 0.22207 -0.022523 0.016246 0.005652 -0.010583 -0.00453 -0.002204
-0.0045496 0.0023569 0.0041447 0.00044935
-0.022564 0.016293 -0.34061 0.24029 -0.0085272 0.034193 -0.0022651 0.0020895
-0.0011644 0.0028427 0.0008234 0.0055091
0.0057375 -0.010713 -0.0084156 0.034232 -0.031024 0.30251 0.00083813 0.0012928
-0.00013144 0.0037606 -0.0019161 0.00057807
-0.0045387 -0.0022893 -0.0021649 0.0020637 0.00084259 0.0012968 -0.1736 0.23242
-0.028378 0.013224 0.013691 -0.0105
-0.0045256 0.0024777 -0.001193 0.0028789 -0.00013105 0.0037172 -0.028387 0.013286
-0.22005 0.11301 -0.017142 0.02003
0.0042962 0.00050913 0.00093727 0.0053663 -0.0019771 0.00054534 0.013711 -0.010547
-0.017124 0.019984 -0.2387 0.15376
860000000 -0.12655 0.24135 -0.017842 0.030321 -0.0028714 -0.010358 -0.0019055 0.00071501
0.0035472 0.0049289 -0.0033531 -0.0024309
-0.017872 0.030301 -0.29254 0.28277 0.0076288 0.034547 -2.2403e-05 0.0021
0.0034322 0.00051856 0.0037934 0.00069918
-0.0028882 -0.010328 0.0076842 0.034579 0.016464 0.31097 -0.00068397 -6.6307e-05
0.002292 -0.0015048 0.0018811 0.0044767
-0.0019387 0.00072735 -2.4568e-05 0.0020433 -0.00067672 -7.1135e-05 -0.13766 0.24303
-0.01823 0.017965 -0.0064624 -0.0086588
0.0034497 0.0050496 0.0033551 0.00058726 0.0023263 -0.0014989 -0.018208 0.018028
-0.16508 0.16272 -0.023806 0.017842
-0.0031614 -0.0023638 0.0037863 0.00056632 0.0018633 0.0044271 -0.0064477 -0.0085917
-0.023811 0.017782 -0.18981 0.19827
920000000 -0.10314 0.26476 0.004434 0.038044 -0.009549 -0.0051251 -0.0021698 0.0016453
0.00108 0.0020857 0.0027486 -0.0013022
0.0043758 0.038119 -0.26532 0.30416 0.028184 0.022751 0.0015716 0.0014068
0.007611 -0.00035776 0.0041318 -0.0027107
-0.0095507 -0.0051352 0.02826 0.022673 0.061963 0.31263 0.0019078 3.2795e-05
0.0011856 -0.00015682 0.00094566 -0.001217
-0.0020992 0.0017165 0.0016361 0.0013914 0.0019033 2.9131e-05 -0.11247 0.25961
-0.01083 0.030726 0.0033833 -0.0068634
0.0010832 0.0021972 0.0076168 -0.00035191 0.0011787 -0.00011838 -0.010757 0.0308
-0.1525 0.17031 -0.0016232 0.027142
0.0029063 -0.0014168 0.0041949 -0.0027102 0.00095372 -0.0011741 0.0034303 -0.0068911
-0.0016408 0.027116 -0.19389 0.2127
980000000 -0.056492 0.28474 0.016986 0.030241 -0.0096557 0.0041745 0.0019033 0.003583
0.0041744 -0.0016845 -0.0028053 -0.0023573
0.016936 0.030173 -0.21211 0.33878 0.033554 0.0053199 0.0021296 -0.00013307
0.0018994 -0.0059516 -0.0002067 -0.0026105
-0.009566 0.0042635 0.033577 0.0052391 0.10797 0.30677 0.00064523 -0.0012161
0.00045146 -0.0020048 0.001486 -0.00034136
0.0018494 0.0036458 0.0020685 -9.3922e-05 0.0006509 -0.0012225 -0.074604 0.27086
0.0074294 0.029855 -0.0088357 -0.0067414
0.0040084 -0.001593 0.0017802 -0.0060376 0.00044486 -0.0019942 0.007503 0.029874
-0.11788 0.19827 0.0060178 0.019932
-0.002994 -0.0023096 -0.00025768 -0.0024751 0.001484 -0.00031472 -0.0088067 -0.00669
0.0060157 0.019915 -0.15161 0.25532
1040000000 -0.015258 0.29396 0.033026 0.018933 -0.0015354 0.0070727 0.0025902 0.00090635
0.00065859 -0.003551 -2.754e-05 -0.0013514
0.032982 0.01886 -0.17718 0.35226 0.030236 -0.0148 0.001667 -0.0018206
-0.0020705 -0.0027496 -0.0011982 -0.0027813
-0.0016068 0.0070563 0.030176 -0.014892 0.15392 0.29403 -0.00053398 -0.0016566
-0.0016001 -0.00096563 -0.00056113 -0.0010512
0.0026686 0.00076271 0.0016409 -0.0018165 -0.00051906 -0.0016651 -0.047251 0.28043
0.019605 0.018484 -0.0027521 0.0012129
0.00054343 -0.0035667 -0.002015 -0.0027958 -0.0015978 -0.0009663 0.019675 0.018457
-0.08538 0.20519 0.014408 0.017568
-0.00021322 -0.0015226 -0.0012152 -0.0028003 -0.00054737 -0.0010439 -0.0027432 0.0011942
0.01442 0.017535 -0.12814 0.27551
1100000000 0.029884 0.30293 0.036534 -0.003626 0.0027765 0.0042151 0.0024723 -0.0012264
-0.0021733 -0.0031877 -0.0042715 -0.00029851
0.036534 -0.0036267 -0.13396 0.37039 0.015878 -0.0282 8.9248e-05 -0.0018883
-0.0037403 -0.0011029 -0.0037681 -0.00066675
0.0027795 0.0041692 0.015778 -0.028286 0.20043 0.27455 -0.0020241 0.00015689
-0.0018225 0.00046119 -0.0010826 -0.00041639
0.0023842 -0.0012101 3.9608e-05 -0.001871 -0.0020173 0.00015394 -0.0067822 0.28536
0.025082 0.0051173 -0.0022787 0.00026793
-0.0021488 -0.0031899 -0.003834 -0.0010903 -0.0018197 0.00048648 0.0251 0.0050574
-0.064194 0.21719 0.019702 0.0082939
-0.0040316 -0.00021049 -0.0037226 -0.00060428 -0.0010904 -0.00041739 -0.0022961 0.0002658
0.019674 0.008306 -0.081523 0.30345
1160000000 0.080727 0.2989 0.024694 -0.020753 0.0027934 -0.00035094 -0.00011264 -0.0023697
-0.0041057 -0.00079408 -0.00083342 0.0040766
0.024631 -0.020765 -0.090483 0.37527 -0.0034815 -0.029875 -0.0015789 -0.0017081
-0.0027437 0.0027085 -0.001545 0.0019022
0.0028182 -0.00036583 -0.0036163 -0.029878 0.24383 0.2441 -0.00076153 0.0018977
-0.00059187 0.0020244 -0.00091857 0.0003181
-7.628e-05 -0.002446 -0.0016354 -0.0017616 -0.00075505 0.001899 0.032349 0.28264
0.021297 -0.010737 -0.0034259 0.0048925
-0.0040264 -0.00078401 -0.0026559 0.0027083 -0.00058145 0.0020339 0.02129 -0.01081
-0.029415 0.22504 0.018575 -0.0016445
-0.00094444 0.0040308 -0.0016416 0.0019484 -0.00090888 0.00032002 -0.0034387 0.00489
0.018577 -0.0016625 -0.035822 0.30618
1220000000 0.12498 0.28924 0.010925 -0.030471 -0.0016344 -0.00079259 2.9108e-05 -0.00098389
-0.002658 0.0022794 0.0012034 0.0021212
0.010977 -0.030368 -0.04626 0.38834 -0.017229 -0.021918 -0.0027109 0.00051586
7.1078e-05 0.0031763 -0.00075665 0.0020217
-0.0016177 -0.00077403 -0.017346 -0.021865 0.28304 0.20546 0.00077429 0.0017801
0.00067182 0.0011928 0.00025404 0.00057007
4.5664e-05 -0.00086185 -0.0026984 0.00055617 0.00077688 0.0017754 0.07251 0.27436
0.010507 -0.017666 0.0019042 0.0017129
-0.0027651 0.0022789 1.2741e-05 0.0032172 0.00066575 0.0011748 0.010452 -0.017698
-0.0055418 0.23284 0.013543 -0.013452
0.0012557 0.0020714 -0.00066031 0.0019957 0.0002944 0.00056318 0.0018949 0.0017048
0.013523 -0.013439 -0.0029613 0.31995
1280000000 0.17533 0.26855 -0.0079438 -0.029135 -0.0020077 0.0025044 -0.0008307 -0.0020196
-0.00077399 0.0032029 0.0027479 0.0012564
-0.0079938 -0.029096 8.1116e-05 0.37983 -0.024563 -0.0088654 -0.00089272 0.0014951
0.0018792 0.0018186 0.00071325 0.0019477
-0.0020113 0.0025435 -0.024601 -0.0087733 0.31346 0.16165 0.0016353 -0.0001627
0.0013027 0.00026593 0.00035839 0.00023334
-0.00088737 -0.0020757 -0.00090789 0.0014907 0.0016388 -0.00016624 0.10958 0.25801
0.00046759 -0.019612 -0.00011626 0.00040796
-0.00067556 0.0031203 0.0019381 0.0017529 0.0013168 0.00024171 0.00041369 -0.019631
0.03094 0.2356 0.0029609 -0.016073
0.002547 0.001254 0.00071997 0.0020085 0.00036362 0.00022996 -0.00011849 0.00042698
0.0029603 -0.016056 0.04322 0.32097
1340000000 0.21291 0.23558 -0.01795 -0.019248 0.00089287 0.0047721 -0.001845 -0.00098352
0.0015287 0.0026795 0.0017997 -0.0013894
-0.017927 -0.019306 0.039802 0.37198 -0.022118 0.0044171 -5.2361e-05 0.0020436
0.0020667 0.00062628 0.0012659 0.00085583
0.00090252 0.0047698 -0.022149 0.004525 0.33535 0.11458 0.0010935 -0.0010242
0.0006937 -0.00057138 0.00016698 0.00025357
-0.0018322 -0.00093334 -2.3899e-05 0.0020434 0.0010859 -0.0010327 0.14264 0.23763
-0.0092977 -0.016687 0.00081889 0.00061492
0.0015799 0.0026811 0.0021052 0.0006624 0.00069611 -0.00058617 -0.0093769 -0.016671
0.061257 0.23043 -0.0045064 -0.01406
0.0017909 -0.0013987 0.001265 0.00083096 0.00016284 0.0002426 0.00081209 0.00063639
-0.0045111 -0.014063 0.081998 0.31494
1400000000 0.24678 0.19811 -0.023992 -0.0073921 0.0053093 0.0033562 -0.0022523 0.00066663
0.0025076 0.0010289 0.00029392 -0.0016233
-0.023906 -0.0073879 0.077428 0.35922 -0.015302 0.012904 0.0013765 0.0011965
0.0012662 -0.00091938 0.0011186 8.5384e-05
0.0053653 0.0033153 -0.015266 0.012958 0.34858 0.061626 -1.4346e-05 -0.0016095
8.1692e-05 -0.00034004 0.00023695 0.00028983
-0.0022558 0.00062665 0.0013691 0.0012233 -1.9255e-05 -0.0016157 0.1724 0.20846
-0.015137 -0.0094176 -0.00075815 -0.00012736
0.0025221 0.0010413 0.0012626 -0.00096308 6.6499e-05 -0.00035171 -0.015197 -0.0093622
0.094574 0.22557 -0.010722 -0.0089668
0.00024458 -0.0016258 0.0011236 7.4951e-05 0.00022978 0.00028697 -0.00074832 -0.00010967
-0.010686 -0.0089765 0.12548 0.30355
1460000000 0.27014 0.15411 -0.020604 0.0050739 0.0059461 -0.0017907 -0.0016429 0.0018132
0.0022026 -0.0004911 -0.00042572 -0.00094794
-0.020612 0.0051095 0.1117 0.3373 -0.0061821 0.016019 0.0017032 0.00015618
0.00076127 -0.0013917 0.0012251 -0.00057501
0.0059184 -0.0017804 -0.0060965 0.016066 0.35512 0.0078786 -0.0012961 -0.0012084
0.00011847 -0.00030133 0.00070689 -0.00035579
-0.0015986 0.0018422 0.0016753 0.0001313 -0.0012821 -0.0012144 0.19901 0.1789
-0.016066 -0.0023164 -0.00071257 0.0019904
0.0022119 -0.00046629 0.0007793 -0.0014266 9.8368e-05 -0.00030113 -0.016084 -0.0022388
0.12395 0.21074 -0.012799 -0.0025078
-0.00036141 -0.00098307 0.0012012 -0.00056029 0.00068879 -0.00035563 -0.00070426 0.0020074
-0.012795 -0.002541 0.15857 0.28214
1520000000 0.28266 0.11265 -0.014709 0.010713 0.0035862 -0.0043107 0.00019395 0.002663
0.0021401 -0.0019897 -0.0011705 -0.00021759
-0.014747 0.010692 0.14522 0.32292 0.001875 0.013556 0.0015778 -0.00079493
-8.6011e-06 -0.0010734 0.00035279 -0.0010399
0.0035907 -0.0043411 0.0019427 0.013543 0.34889 -0.047722 -0.0010888 -0.00028417
0.0006065 -0.00086675 0.00014867 -0.00023824
0.00014927 0.0026089 0.0015823 -0.00079161 -0.0010945 -0.00027291 0.22248 0.14049
-0.014805 0.0036848 0.0015482 0.002035
0.0021033 -0.002046 -2.3585e-05 -0.001053 0.0006035 -0.00087526 -0.014791 0.0037554
0.15206 0.19717 -0.012278 0.0021905
-0.0011836 -0.00015822 0.00033401 -0.0010405 0.00015469 -0.00026396 0.0015508 0.0020292
-0.012255 0.0021825 0.1909 0.2613
1580000000 0.29251 0.066287 -0.0078029 0.013741 -0.00079925 -0.005263 0.00152 0.0018577
-0.00032054 -0.0022473 -0.00023361 0.00050237
-0.0078138 0.013733 0.17255 0.29824 0.0057208 0.0084316 0.00052287 -0.0015429
-0.00059943 -0.00095818 -0.00022914 -0.00086157
-0.00084754 -0.0052199 0.0057853 0.0084098 0.32958 -0.1051 -0.0015437 0.00059738
-0.00034215 -0.0012181 0.00018219 -0.00064025
0.0015703 0.0018905 0.00048319 -0.001558 -0.0015487 0.00060009 0.2362 0.10056
-0.010838 0.008258 0.0022218 0.00060317
-0.00028404 -0.0022408 -0.00062066 -0.00096653 -0.00035121 -0.0012109 -0.010777 0.0083146
0.17642 0.17869 -0.0095385 0.008049
-0.00025752 0.00046031 -0.0002355 -0.00083899 0.00018279 -0.00062088 0.0022319 0.00060852
-0.0095369 0.0080297 0.22259 0.23421
1640000000 0.29469 0.025346 -0.00094776 0.012344 -0.002867 -0.0028659 0.0027405 0.00092909
-0.00077415 -0.0016746 -0.00036353 0.00053569
-0.00096874 0.012336 0.20204 0.2737 0.006281 0.0032661 -0.00065131 -0.0017192
-0.00094116 -0.00036845 -0.00050749 -0.00066264
-0.0029346 -0.0028596 0.0063021 0.0032409 0.30161 -0.15467 -0.00067387 0.0014372
-0.001178 -0.00093622 -0.00020506 -0.00036375
0.0027114 0.00095592 -0.00062367 -0.0017435 -0.00066688 0.0014351 0.2484 0.051537
-0.0063358 0.0091235 0.002453 -0.00088467
-0.00084523 -0.0016249 -0.00093193 -0.00035089 -0.0011855 -0.00091673 -0.0062811 0.0091587
0.19961 0.15441 -0.0044261 0.009887
-0.0003328 0.0005506 -0.0005524 -0.00068832 -0.00019835 -0.00037403 0.0024641 -0.00092436
-0.0044236 0.0098886 0.24744 0.20316
1700000000 0.28787 -0.019746 0.0023502 0.0092366 -0.0038292 -0.00015846 0.0030517 -0.0012398
-0.0020514 -0.00056479 0.00063761 0.00031655
0.0023497 0.0092408 0.22032 0.24251 0.004176 0.00024442 -0.0014166 -0.00061539
-0.00075378 3.9822e-06 -0.00091682 -0.00047907
-0.0038092 -0.00017799 0.0041787 0.00021349 0.25901 -0.19402 0.00045218 0.0014722
-0.0019198 -7.4181e-05 -0.00053871 -0.0010125
0.0030452 -0.0012408 -0.0014515 -0.0006014 0.00045183 0.0014831 0.245 0.0014356
-0.0035711 0.0091684 0.0015472 -0.0022937
-0.0020605 -0.00053534 -0.00077326 1.2479e-06 -0.0019318 -7.6711e-05 -0.0035144 0.0091553
0.21702 0.13361 0.00025097 0.010056
0.0006952 0.00035569 -0.00090754 -0.00043811 -0.00052882 -0.0010066 0.001549 -0.0023058
0.00025653 0.010028 0.26356 0.16868
1760000000 0.27611 -0.068281 0.0044992 0.0059192 -0.0026012 0.0010988 0.0012937 -0.0033821
-0.0014033 0.00073058 0.00027332 -0.00061099
0.0045109 0.0058826 0.24645 0.20305 0.0017066 -0.0016222 -0.0012045 0.00012956
-0.0010558 0.00081089 -0.00057394 0.00040017
-0.0025809 0.0011517 0.0016975 -0.0016319 0.21091 -0.22768 0.0011926 0.0009953
-0.0012519 0.0015465 -0.0012369 -0.0005642
0.0012638 -0.0033863 -0.0012067 9.2024e-05 0.0012042 0.00099117 0.23562 -0.050105
-0.00060117 0.0079232 -0.00022648 -0.0025514
-0.0014414 0.00074944 -0.0010314 0.00078356 -0.0012361 0.0015334 -0.00056376 0.0078972
0.23168 0.09837 0.0043984 0.0073322
0.00024293 -0.00065015 -0.00057889 0.00043452 -0.0012539 -0.00058356 -0.00021709 -0.0025766
0.0044001 0.0073489 0.27609 0.13101
1820000000 0.25205 -0.10543 0.0044557 0.0022818 -0.0003173 0.0025673 -0.0010829 -0.003048
-0.0010504 0.0010907 -0.00020183 -0.00013678
0.0044614 0.0023016 0.25685 0.17325 -0.00082903 -0.00045946 -0.0013912 0.00096639
-0.00015496 0.0012224 -0.00061763 0.00053669
-0.00028564 0.0026122 -0.00085016 -0.00046838 0.16028 -0.244 0.0014409 0.00059151
-0.00022525 0.0024002 -0.0016286 0.00036531
-0.0010263 -0.0030638 -0.0013499 0.00097584 0.001438 0.00059211 0.20551 -0.097182
0.00057013 0.0065174 -0.0016907 -0.0015636
-0.00097913 0.0010605 -0.00014783 0.0012221 -0.00021407 0.0024112 0.0005991 0.0064747
0.24863 0.069369 0.0051196 0.0035886
-0.00025951 -0.00016299 -0.00060953 0.00052162 -0.0016103 0.00040408 -0.0017413 -0.0015592
0.005108 0.0035652 0.27786 0.094647
1880000000 0.21717 -0.14608 0.0022273 4.6111e-05 -0.00040504 0.0022472 -0.0028779 -0.0022593
-4.3037e-05 0.0017521 0.00020941 -0.00042781
0.0022155 5.5826e-05 0.26176 0.12682 -0.0027345 0.0015506 -0.00021578 0.0017582
0.00051402 0.0013598 0.00011388 0.00091518
-0.0004022 0.0022553 -0.0027227 0.0015797 0.10792 -0.25381 0.0018711 -0.00089284
0.001664 0.0019955 -0.00098852 0.0015397
-0.0029273 -0.0021527 -0.00022501 0.0017438 0.0018741 -0.00087995 0.16449 -0.13744
0.00093011 0.0047421 -0.0025149 0.00035906
-9.1805e-05 0.0018935 0.00049113 0.0013483 0.0016602 0.0019958 0.00091598 0.0047165
0.25185 0.037387 0.0053135 0.0011255
0.00022781 -0.00057252 0.00012906 0.00092295 -0.00096616 0.0015397 -0.0024784 0.00034023
0.0053379 0.0011594 0.27729 0.060459
1940000000 0.1779 -0.17154 -0.00024939 -0.0013888 0.0015321 0.0022381 -0.0037065 0.00049523
0.0014175 0.0010806 -0.00047844 -0.00050827
-0.0002752 -0.0013908 0.26268 0.095128 -0.0015083 0.004221 0.0010876 0.001353
0.0018698 0.00058191 0.00098369 0.00035918
0.0015203 0.0021924 -0.0015008 0.0042502 0.061988 -0.24652 0.00060785 -0.0022568
0.0025052 0.00031539 0.00065063 0.0015752
-0.0037423 0.00045138 0.0010807 0.001353 0.00060788 -0.0022587 0.11188 -0.16768
4.0433e-05 0.0036918 -0.001551 0.0017703
0.0013612 0.0010101 0.0018685 0.0005714 0.0025116 0.00030839 2.1057e-05 0.0036739
0.25429 -0.00074381 0.0038498 -0.0021152
-0.00047018 -0.00048051 0.00097669 0.00038616 0.00064821 0.0015942 -0.0015843 0.0018104
0.0038107 -0.0021227 0.26634 0.024232
2000000000 0.13223 -0.18685 -0.0040773 0.00066035 0.0025232 0.001523 -0.0023667 0.0037709
0.0011895 0.00033592 -0.00053324 0.00041694
-0.0040704 0.00066231 0.24902 0.059293 -0.00084906 0.0059705 0.0016931 0.00041168
0.0014706 -0.0010078 0.00049438 0.00019342
0.0025277 0.0014937 -0.00079175 0.0059728 0.019149 -0.23256 -0.0014322 -0.0015538
0.0020989 -0.0012588 0.0018187 0.0012276
-0.002452 0.0038585 0.0016896 0.00040145 -0.0014304 -0.0015468 0.058581 -0.17759
-0.0012568 0.0036486 -5.2372e-05 0.0022185
0.001195 0.00034599 0.001518 -0.001034 0.0020978 -0.0012578 -0.0012919 0.0036563
