!Keysight Technologies,M9804A,MY58100912,A.14.10.03
!Date: Thursday, April 27, 2023 10:28:33
!Correction: S11(C  6-Port  ) 
!S12(C  6-Port  ) 
!S13(C  6-Port  ) 
!S14(C  6-Port  ) 
!S15(C  6-Port  ) 
!S16(C  6-Port  ) 
!S21(C  6-Port  ) 
!S22(C  6-Port  ) 
!S23(C  6-Port  ) 
!S24(C  6-Port  ) 
!S25(C  6-Port  ) 
!S26(C  6-Port  ) 
!S31(C  6-Port  ) 
!S32(C  6-Port  ) 
!S33(C  6-Port  ) 
!S34(C  6-Port  ) 
!S35(C  6-Port  ) 
!S36(C  6-Port  ) 
!S41(C  6-Port  ) 
!S42(C  6-Port  ) 
!S43(C  6-Port  ) 
!S44(C  6-Port  ) 
!S45(C  6-Port  ) 
!S46(C  6-Port  ) 
!S51(C  6-Port  ) 
!S52(C  6-Port  ) 
!S53(C  6-Port  ) 
!S54(C  6-Port  ) 
!S55(C  6-Port  ) 
!S56(C  6-Port  ) 
!S61(C  6-Port  ) 
!S62(C  6-Port  ) 
!S63(C  6-Port  ) 
!S64(C  6-Port  ) 
!S65(C  6-Port  ) 
!S66(C  6-Port  ) 
!S6P File: Measurement: :
# Hz S  RI   R 50
500000000 -0.33508 -0.051927 -0.010064 -0.0013062 -0.0083465 0.012815 -0.0046607 0.01281
0.011754 0.0048293 -0.004675 0.0089541
-0.010105 -0.0014908 -0.417 -0.062141 0.007667 -0.010574 0.0009483 0.012727
0.0077164 0.0024921 0.00037836 0.014036
-0.0085008 0.012792 0.0077159 -0.010602 -0.26761 0.2004 0.0064557 0.0037702
-0.0017191 0.0087887 0.00018782 0.012226
-0.0043802 0.012856 0.0010643 0.012723 0.0064747 0.0037675 -0.33336 0.044408
-0.017684 -0.0040951 0.014426 0.025271
0.012056 0.004992 0.007529 0.0023165 -0.0020132 0.0088451 -0.017702 -0.0040315
-0.2509 -0.19239 -0.024738 0.0052007
-0.004524 0.0090366 0.00047773 0.014031 0.00015867 0.012216 0.014382 0.025362
-0.024735 0.0051118 -0.27703 -0.11623
560000000 -0.31756 0.11322 -0.023964 -0.064731 0.0012229 0.012715 0.0051693 0.011076
0.010555 0.0043521 0.01127 0.0085501
-0.023695 -0.064682 -0.37594 0.10194 -0.042517 -0.037728 0.014471 0.0032418
-0.014708 -0.0051098 0.004662 -0.00033012
0.0013694 0.012762 -0.042685 -0.037581 -0.18546 0.25232 0.00026735 -0.0041133
0.020121 0.0043557 0.0075062 -0.0041992
0.0051168 0.011198 0.014615 0.0033533 0.00017185 -0.0041396 -0.30654 0.13549
0.0041562 -0.023737 0.005855 -0.021257
0.010291 0.0045058 -0.014794 -0.0052986 0.02001 0.004298 0.0041408 -0.02372
-0.30961 -0.010781 0.0064403 -0.048457
0.011214 0.0083427 0.0046597 -0.0004111 0.0076472 -0.0042887 0.0058123 -0.021417
0.0064793 -0.048226 -0.33071 0.028745
620000000 -0.27734 0.093948 -0.022996 0.0088526 0.003793 0.0096843 0.0090757 -0.0041015
0.012312 -0.0011513 0.0016985 -0.0012491
-0.02294 0.0089191 -0.40361 0.05063 -0.018231 0.00090696 -0.0014295 -0.0022079
0.012143 -0.0061933 0.0011602 -0.0033015
0.0038443 0.0095911 -0.018229 0.00095281 -0.15518 0.26244 -0.00094167 -0.0049506
-0.0023846 -0.0030827 0.0089467 -0.003177
0.0090403 -0.0040652 -0.0014525 -0.0021456 -0.00089105 -0.0048824 -0.26613 0.1479
-0.037773 -0.019594 0.012332 0.027248
0.012452 -0.0012597 0.012253 -0.0062745 -0.0023875 -0.0031702 -0.037852 -0.019585
-0.23277 -0.04438 -0.03965 0.011975
0.0018999 -0.0013375 0.0011384 -0.0032278 0.0088633 -0.0031486 0.012315 0.027175
-0.039797 0.012119 -0.25412 -0.0019186
680000000 -0.23826 0.18494 -0.026159 -0.014115 0.0053619 0.0054006 0.0017074 -0.0072503
-0.0022713 -0.011561 0.0053733 -0.0074887
-0.026151 -0.014093 -0.38947 0.15137 -0.032116 -0.0018921 -0.0013875 -0.00050948
-0.0017233 -0.0097133 -0.0012049 -0.0017278
0.0054064 0.0054009 -0.03214 -0.0018018 -0.10323 0.28159 -0.00097758 -0.0004114
-0.0016055 -5.5362e-06 -0.0026858 -0.0091797
0.0017451 -0.0072464 -0.0014286 -0.00051028 -0.0010042 -0.00043205 -0.22027 0.19799
-0.023392 -0.0074672 -0.0082157 -0.01075
-0.0022009 -0.011687 -0.0017443 -0.0097108 -0.001612 -3.0746e-05 -0.023399 -0.0074709
-0.27856 0.059272 -0.0078844 -0.0076193
0.0055131 -0.0074783 -0.0011822 -0.0016683 -0.0026323 -0.0091683 -0.00827 -0.010758
-0.0078397 -0.0075582 -0.25874 0.099718
740000000 -0.19316 0.17867 -0.039006 0.027165 0.013793 -0.0051214 -0.00012038 -0.0040663
-0.0046702 -0.0030678 -0.006301 0.0034222
-0.038946 0.027144 -0.3349 0.16963 -0.036258 0.034666 -0.00030919 -0.005918
-0.01209 0.0067139 -0.0017494 -0.0061778
0.013741 -0.0051543 -0.036178 0.0348 -0.069533 0.27914 -0.002026 0.0031628
-0.0030211 -0.0049783 -0.00095328 0.00092571
-2.3525e-05 -0.0040982 -0.0003935 -0.0059263 -0.0019823 0.0031774 -0.20291 0.20509
-0.042978 -0.0067399 0.022256 0.013963
-0.0047197 -0.0030979 -0.012154 0.0068649 -0.0031137 -0.005036 -0.042995 -0.0067052
-0.17801 0.082209 -0.04195 0.0024398
-0.0060896 0.0034185 -0.0018838 -0.0060304 -0.00094545 0.00096886 0.022319 0.014013
-0.04214 0.0022187 -0.24733 0.10608
800000000 -0.16091 0.2223 -0.022381 0.016392 0.0058185 -0.010393 -0.0046054 -0.0020564
-0.0041724 0.0023496 0.0033485 0.00095521
-0.022354 0.016386 -0.34057 0.24019 -0.0083781 0.034111 -0.0024401 0.0021605
-0.00095932 0.0027425 0.00024428 0.0055212
0.0057975 -0.010386 -0.0082939 0.034149 -0.0305 0.30244 0.00071491 0.0016067
8.6784e-05 0.0035949 -0.0018019 0.0011457
-0.0045704 -0.0020198 -0.0024309 0.0021763 0.00071092 0.0015874 -0.17326 0.23282
-0.02807 0.012929 0.013398 -0.0099991
-0.004329 0.0022972 -0.0010222 0.0028037 6.0232e-05 0.0036211 -0.028059 0.012962
-0.21992 0.11461 -0.016496 0.019242
0.003435 0.00090847 0.00028017 0.0053578 -0.0017408 0.0011231 0.013353 -0.01001
-0.016374 0.019177 -0.23986 0.15614
860000000 -0.12623 0.24141 -0.017551 0.030349 -0.0027542 -0.010378 -0.0018057 0.00077145
0.0040368 0.00495 -0.0031702 -0.0022888
-0.017462 0.030247 -0.29224 0.28248 0.0075235 0.034287 0.00022395 0.0021289
0.0036783 0.00063891 0.0033102 0.00034538
-0.0028072 -0.010381 0.0076044 0.034305 0.016625 0.31056 -0.00064247 -3.5664e-05
0.0023649 -0.0012493 0.0016977 0.004192
-0.0017999 0.00071771 0.0002153 0.0021584 -0.00065469 -1.7892e-05 -0.13724 0.24299
-0.018193 0.017726 -0.0062295 -0.0086793
0.0040002 0.0048181 0.0037485 0.00074063 0.0024046 -0.0012531 -0.018206 0.017781
-0.16373 0.1625 -0.024435 0.018128
-0.0031899 -0.0022944 0.0032805 0.00034955 0.0016884 0.0041732 -0.0061701 -0.0086646
-0.024437 0.018137 -0.18805 0.19758
920000000 -0.10306 0.26439 0.0044128 0.037949 -0.0095327 -0.0052722 -0.0020661 0.0017141
0.001184 0.0022939 0.00316 -0.0014027
0.0043967 0.037971 -0.26523 0.30393 0.027911 0.022568 0.0013715 0.0014718
0.0074256 -2.5984e-05 0.0045238 -0.0025558
-0.009573 -0.0052339 0.027975 0.0225 0.061882 0.31206 0.0019361 4.564e-06
0.0010096 -7.6672e-05 0.0009177 -0.0012579
-0.0021498 0.0017144 0.0013912 0.001467 0.0019007 3.3582e-05 -0.11222 0.2596
-0.010574 0.030295 0.0035918 -0.0068077
0.0012309 0.002337 0.0074116 -7.8278e-05 0.0010177 -9.5673e-05 -0.010516 0.030301
-0.15342 0.17113 -0.00099359 0.02623
0.0031944 -0.0014243 0.004465 -0.0026321 0.00095566 -0.0013059 0.0035898 -0.0067632
-0.00095295 0.026224 -0.19311 0.21284
980000000 -0.056459 0.28464 0.016866 0.030084 -0.0095361 0.0041397 0.0017762 0.0037866
0.0043293 -0.0016717 -0.0031338 -0.0024769
0.016865 0.030039 -0.21226 0.3383 0.033331 0.0053674 0.0020661 -0.00012885
0.001833 -0.006043 -0.00036152 -0.0026182
-0.0095371 0.0041809 0.033367 0.0052767 0.10775 0.30648 0.00059188 -0.0011449
0.00044475 -0.0020902 0.0013608 -0.00021668
0.0017875 0.0037079 0.0020596 -0.00014235 0.00059888 -0.0011351 -0.074305 0.27053
0.0074454 0.029575 -0.0089317 -0.0067954
0.0042706 -0.0017296 0.0017773 -0.0060391 0.00043397 -0.0020937 0.0074875 0.029595
-0.11684 0.19884 0.0060784 0.019247
-0.0031473 -0.0024926 -0.00035118 -0.0026525 0.0013716 -0.00019447 -0.0089313 -0.0067833
0.006064 0.019216 -0.15018 0.2555
1040000000 -0.015415 0.2935 0.032866 0.018732 -0.0017602 0.00695 0.0025926 0.00090755
0.00032376 -0.0033669 -0.00021107 -0.0015092
0.032836 0.018702 -0.17725 0.35184 0.030098 -0.0147 0.0016789 -0.0017666
-0.0020485 -0.002883 -0.00082489 -0.0027469
-0.0017274 0.0069561 0.030061 -0.014788 0.15354 0.29378 -0.00047188 -0.001668
-0.0015955 -0.00094211 -0.00054 -0.0010662
0.0025783 0.00090737 0.0017165 -0.0017766 -0.00047338 -0.0016833 -0.047082 0.28005
0.0193 0.018465 -0.0023062 0.0010358
0.00035299 -0.0034482 -0.0020742 -0.0028503 -0.0015809 -0.00093418 0.019355 0.018451
-0.085312 0.20394 0.014568 0.018086
-0.00017525 -0.0014953 -0.00086863 -0.0027611 -0.00054672 -0.0010777 -0.0023224 0.0010203
0.014486 0.018173 -0.12705 0.27524
1100000000 0.029587 0.30258 0.036249 -0.0035862 0.0027183 0.0041748 0.0023989 -0.0010636
-0.0021133 -0.0032522 -0.004082 -0.00020461
0.03622 -0.0036117 -0.13432 0.36984 0.01588 -0.028065 7.5894e-05 -0.0018845
-0.0037595 -0.0010195 -0.0036303 -0.0006088
0.002766 0.0041638 0.015796 -0.02813 0.20005 0.27442 -0.0019359 0.00014452
-0.0017961 0.00047144 -0.0010761 -0.00039608
0.002345 -0.0010944 7.3234e-05 -0.0018886 -0.0019428 0.00015375 -0.0070092 0.28486
0.024837 0.0048665 -0.0025348 3.1236e-05
-0.002165 -0.0032427 -0.0037908 -0.00099066 -0.0018057 0.0004868 0.024859 0.0048345
-0.063357 0.21763 0.019934 0.0074137
-0.0040993 -0.00014464 -0.0036468 -0.00058924 -0.0010669 -0.00036336 -0.0025657 5.3582e-05
0.019875 0.0073327 -0.081809 0.3034
1160000000 0.080217 0.29882 0.024359 -0.020735 0.0026315 -0.00026822 2.7732e-06 -0.0023402
-0.0038729 -0.00079887 -0.0010901 0.0040386
0.024381 -0.020687 -0.091197 0.37466 -0.0034254 -0.029823 -0.0016747 -0.0017569
-0.0029192 0.0026259 -0.001441 0.0019907
0.0026568 -0.00027181 -0.0035631 -0.029837 0.24332 0.2441 -0.0007775 0.0018947
-0.0005072 0.0020321 -0.00088028 0.00041787
1.5438e-05 -0.0023374 -0.0016824 -0.0017306 -0.00078563 0.0018847 0.031829 0.28246
0.020804 -0.010689 -0.0033537 0.004953
-0.0039112 -0.00078962 -0.002926 0.002665 -0.00052269 0.0020255 0.020816 -0.010714
-0.029814 0.22374 0.018537 -0.0011877
-0.0011203 0.004023 -0.0014657 0.0019625 -0.0008727 0.00042471 -0.0033407 0.0049298
0.018558 -0.0010618 -0.035387 0.30585
1220000000 0.12447 0.28907 0.01078 -0.030278 -0.0017073 -0.00070134 8.6707e-05 -0.0009456
-0.0027004 0.0022638 0.0013457 0.0021068
0.010813 -0.030254 -0.047052 0.38798 -0.017148 -0.021879 -0.0027254 0.00047148
-1.3087e-05 0.0032612 -0.00073952 0.0019169
-0.0016995 -0.00071179 -0.017258 -0.021825 0.28256 0.20559 0.00078203 0.0018034
0.00061054 0.0012088 0.00023442 0.00054194
0.0001012 -0.00095492 -0.0027207 0.00049429 0.00079888 0.0018111 0.072045 0.27433
0.010566 -0.017336 0.0017147 0.0017232
-0.0026999 0.0022927 -1.1633e-05 0.0032793 0.00061905 0.0012124 0.010549 -0.017371
-0.0061509 0.23241 0.013503 -0.013633
0.0013306 0.0020707 -0.00071968 0.0019443 0.00024624 0.00055342 0.0016713 0.0016962
0.013545 -0.013667 -0.0027837 0.32002
1280000000 0.1747 0.26856 -0.00805 -0.028883 -0.0019215 0.0026642 -0.00080668 -0.002175
-0.00073431 0.0032832 0.002562 0.0012979
-0.0080149 -0.028869 -0.00087241 0.37974 -0.024435 -0.008948 -0.001027 0.0015476
0.0019304 0.0018767 0.00059269 0.0021103
-0.0019114 0.0026787 -0.024505 -0.0088481 0.31312 0.16186 0.0016703 -6.0254e-05
0.0013514 0.00025712 0.0004654 0.000204
-0.00083572 -0.0021893 -0.0010311 0.0015549 0.0016673 -5.675e-05 0.10906 0.25821
0.00046687 -0.019552 -0.00025548 0.00043587
-0.00072336 0.0032403 0.0019387 0.0018397 0.0013713 0.00025452 0.00042726 -0.019576
0.030677 0.23456 0.0025786 -0.015955
0.0025856 0.0012548 0.00062894 0.0020921 0.00045809 0.00022408 -0.00024705 0.00049338
0.0024641 -0.01596 0.0435 0.32047
1340000000 0.21222 0.23585 -0.017914 -0.019031 0.00093472 0.0048926 -0.0018922 -0.00098387
0.0014793 0.0026686 0.0018836 -0.0013465
-0.01789 -0.019043 0.038835 0.37221 -0.022209 0.004319 -6.2091e-05 0.0021189
0.0020858 0.00070707 0.0012749 0.0008022
0.00095436 0.0049022 -0.022214 0.0044155 0.33498 0.11497 0.0011826 -0.00098722
0.0006913 -0.0006142 0.00014025 0.00024565
-0.0018776 -0.00092405 -4.8218e-05 0.0021178 0.0011743 -0.00097887 0.14244 0.23794
-0.008867 -0.016487 0.00076461 0.00065361
0.0015118 0.0026903 0.0021008 0.00069847 0.00066881 -0.00060781 -0.0089225 -0.016489
0.060578 0.23016 -0.0046175 -0.014324
0.0018806 -0.0013365 0.0012922 0.00081425 0.00013442 0.00024194 0.00081548 0.00063532
-0.0045311 -0.014273 0.082023 0.31489
1400000000 0.2463 0.19863 -0.023767 -0.0072221 0.0055417 0.0034126 -0.0023297 0.00061864
0.0025095 0.00095122 0.00022842 -0.0015867
-0.023713 -0.0072375 0.076637 0.35968 -0.01535 0.012867 0.0014295 0.0012944
0.0013708 -0.00096993 0.0011573 0.00014064
0.005562 0.0034068 -0.01531 0.012957 0.34841 0.062077 9.515e-06 -0.0016727
5.3231e-05 -0.00036685 0.00030107 0.0002223
-0.0023384 0.00061702 0.0014188 0.001285 -6.2444e-06 -0.0016864 0.17234 0.20891
-0.014895 -0.0095746 -0.00075125 7.054e-05
0.0024953 0.00092453 0.0013695 -0.00099485 6.1107e-05 -0.00037694 -0.014936 -0.0095542
0.093796 0.22547 -0.011013 -0.008896
0.00021352 -0.0015903 0.0011619 0.00014286 0.00027566 0.00024893 -0.00077942 7.7739e-05
-0.010983 -0.008979 0.12573 0.30323
1460000000 0.2697 0.15486 -0.020435 0.0052298 0.0060427 -0.0018419 -0.0015908 0.0018427
0.0022969 -0.00047353 -0.00045251 -0.0010128
-0.020404 0.0052228 0.11121 0.338 -0.0062573 0.016054 0.0017699 9.8574e-05
0.00080724 -0.0014511 0.001187 -0.00060311
0.0060281 -0.0018614 -0.0061901 0.016107 0.35516 0.0084004 -0.0012547 -0.0012505
0.00023197 -0.00027409 0.00062364 -0.00029907
-0.0015924 0.0018546 0.0017758 7.6281e-05 -0.001252 -0.0012725 0.19921 0.17926
-0.016025 -0.0025593 -0.00063909 0.0019663
0.0022857 -0.00051129 0.00080782 -0.0014773 0.00022761 -0.00031098 -0.016046 -0.0025101
0.12291 0.21067 -0.012835 -0.0023669
-0.00048284 -0.0010228 0.0011784 -0.00062338 0.00062287 -0.00029324 -0.00061753 0.0020004
-0.012997 -0.0023636 0.15854 0.28205
1520000000 0.28265 0.11344 -0.014531 0.010654 0.0037001 -0.0044563 0.0001997 0.0026354
0.0021627 -0.0019965 -0.0011736 -0.00026941
-0.014515 0.010636 0.14502 0.32361 0.0018667 0.013599 0.0015929 -0.00082553
-8.9775e-05 -0.0011047 0.00035635 -0.0010835
0.0036946 -0.0044722 0.0019374 0.013595 0.34893 -0.047059 -0.0011503 -0.00031238
0.00060062 -0.00081829 0.00018669 -0.00018866
0.00020531 0.0026009 0.0015952 -0.00083552 -0.0011415 -0.00031171 0.22279 0.14074
-0.014806 0.0033485 0.001605 0.0020824
0.0021393 -0.0020376 -0.00010231 -0.0010896 0.00060429 -0.00080837 -0.014804 0.0033909
0.15145 0.19752 -0.012397 0.0022659
-0.001183 -0.00029715 0.0003415 -0.0010667 0.00018121 -0.00019577 0.0016405 0.0020587
-0.012254 0.0022786 0.19067 0.26099
1580000000 0.2928 0.067037 -0.0076535 0.013588 -0.00086601 -0.0053748 0.0015865 0.0018657
-0.00024739 -0.0022355 -0.00027584 0.00041801
-0.0076594 0.013567 0.17258 0.29883 0.0057769 0.0084542 0.00048596 -0.0015612
-0.0006275 -0.00091116 -0.00020597 -0.00086757
-0.00089217 -0.0053591 0.0058193 0.008432 0.32981 -0.10488 -0.0015875 0.00061598
-0.00032032 -0.0012734 0.00016573 -0.00055262
0.0015735 0.0018849 0.00048359 -0.0015735 -0.0015986 0.0006222 0.23663 0.10065
-0.011152 0.0079542 0.0023695 0.0006299
-0.00025347 -0.002237 -0.00063198 -0.00091891 -0.00032694 -0.0012804 -0.011162 0.0079932
0.17565 0.17903 -0.0095516 0.0081231
-0.00024924 0.00049483 -0.00020919 -0.0008799 0.00017469 -0.00056073 0.0023309 0.00060839
-0.0095854 0.0080186 0.22216 0.2343
1640000000 0.29505 0.025778 -0.00090117 0.01217 -0.0030792 -0.002946 0.0027324 0.00098841
-0.00087163 -0.0015421 -0.0002479 0.00060078
-0.00091421 0.012153 0.20211 0.27422 0.006334 0.0033011 -0.00064727 -0.0017485
-0.00096342 -0.00035623 -0.00050558 -0.00068557
-0.0030996 -0.0029138 0.0063553 0.0032608 0.30201 -0.15414 -0.0006145 0.0014971
-0.0011165 -0.0009479 -0.00020337 -0.00035485
0.0027452 0.00095457 -0.0006494 -0.0017316 -0.00059788 0.0014949 0.24878 0.051463
-0.0067361 0.0091814 0.0026621 -0.00095203
-0.00087804 -0.0015445 -0.00096552 -0.00033481 -0.0011113 -0.00096569 -0.0067179 0.009208
0.19891 0.15512 -0.0043223 0.010112
-0.00024734 0.00056885 -0.00052545 -0.00069263 -0.00021622 -0.00035017 0.0026566 -0.00091263
-0.0044096 0.01019 0.24714 0.203
1700000000 0.28831 -0.019554 0.0023573 0.0090978 -0.0038687 -4.7525e-05 0.0030616 -0.0012532
-0.0020887 -0.00062724 0.00063659 0.00041886
0.0023517 0.0090914 0.22057 0.24288 0.004152 0.0001813 -0.0014949 -0.00055693
-0.00078454 4.0459e-05 -0.00090464 -0.00047437
-0.0039049 -3.0242e-05 0.0041558 0.00017074 0.2592 -0.1944 0.00044207 0.0016595
-0.0021316 8.9957e-06 -0.00034304 -0.00089228
0.0030293 -0.0012709 -0.0014936 -0.00055371 0.00046713 0.00168 0.24538 0.001287
-0.003802 0.0094969 0.0015637 -0.0023205
-0.0021083 -0.0005897 -0.00076532 4.2141e-05 -0.0021029 3.6965e-05 -0.0037637 0.009493
0.21666 0.13451 0.00031413 0.010133
0.00063885 0.00046636 -0.0009165 -0.00045737 -0.0003436 -0.00091012 0.0015948 -0.0023407
0.00045806 0.010165 0.26313 0.16903
1760000000 0.27649 -0.068306 0.0045215 0.0057227 -0.0025596 0.0011603 0.0012601 -0.0033938
-0.001451 0.00075295 0.00029763 -0.00071978
0.0045028 0.0057098 0.24673 0.20323 0.0016844 -0.001621 -0.0011926 0.00019081
-0.0010513 0.00083238 -0.00061583 0.0003336
-0.0025536 0.0011752 0.0016725 -0.001628 0.21068 -0.22758 0.0011061 0.0010472
-0.0012182 0.0015983 -0.0012973 -0.00065148
0.0012676 -0.0034187 -0.0011771 0.00020496 0.0011152 0.0010361 0.2359 -0.050669
-0.0006484 0.0081062 -0.00029736 -0.0026819
-0.001433 0.00073919 -0.0010337 0.00085492 -0.0012008 0.0015748 -0.00063001 0.0081123
0.23161 0.099081 0.0044595 0.007475
0.00024571 -0.00073839 -0.00063251 0.00034773 -0.001286 -0.00068053 -0.00038761 -0.0027094
0.0043246 0.0073798 0.27584 0.13132
1820000000 0.25219 -0.10559 0.0043735 0.0021489 -0.00038142 0.0025209 -0.0010845 -0.0031575
-0.0010491 0.00099915 -0.00023966 -2.549e-05
0.0043477 0.002146 0.25715 0.17333 -0.00074614 -0.00053739 -0.0013491 0.00092382
-0.00016446 0.0012088 -0.00068304 0.00059916
-0.00041192 0.0025274 -0.00073424 -0.00053144 0.16052 -0.24381 0.0014451 0.00056392
-0.00021683 0.002463 -0.0015113 0.00056383
-0.0011056 -0.0031254 -0.0013359 0.00092316 0.0014727 0.00055059 0.20541 -0.097582
0.00050372 0.006931 -0.0017094 -0.0015826
-0.0010694 0.0010452 -0.00016906 0.0012143 -0.0002073 0.0024863 0.00053346 0.0069374
0.2486 0.070381 0.0053719 0.0036905
-0.00026713 -6.1984e-05 -0.00068648 0.00060209 -0.0015189 0.00055795 -0.0016786 -0.0015306
0.0053573 0.0037972 0.27762 0.094803
1880000000 0.2173 -0.14609 0.0020338 -5.8321e-05 -0.00047049 0.0022629 -0.0029105 -0.002206
-0.00012968 0.0018172 0.00013127 -0.00041509
0.002027 -6.5384e-05 0.26194 0.1266 -0.002735 0.001506 -0.00025324 0.0017682
0.00045799 0.0013657 8.5873e-05 0.00093707
-0.00047463 0.0022665 -0.002727 0.0015228 0.10829 -0.25358 0.0019053 -0.00075286
0.0016128 0.0020237 -0.00090441 0.0013085
-0.002942 -0.0021801 -0.00024039 0.0017769 0.0019272 -0.00074673 0.16423 -0.1379
0.0012502 0.0048841 -0.0026826 0.00010386
-0.00018509 0.0018051 0.00046384 0.0013608 0.0016582 0.0020193 0.0012692 0.0048582
0.2525 0.038106 0.0054568 0.001103
0.00015244 -0.0004047 9.21e-05 0.00094734 -0.00089218 0.0013232 -0.0026563 0.00015291
0.0055305 0.0011063 0.27747 0.06086
1940000000 0.17789 -0.17163 -0.00049098 -0.0015107 0.0013737 0.0023223 -0.0038047 0.00050088
0.0013355 0.0010911 -0.00035636 -0.00051118
-0.00048893 -0.0015169 0.26255 0.094848 -0.0016755 0.0040895 0.0011022 0.0013921
0.0018693 0.00066692 0.0010149 0.00045271
0.0013778 0.0023065 -0.0016562 0.0041185 0.062089 -0.2464 0.00062329 -0.0022717
0.0024793 0.0002869 0.00055688 0.0017553
-0.0037433 0.00052358 0.0011097 0.001374 0.00063543 -0.002281 0.11142 -0.16807
0.00030292 0.0034493 -0.0016991 0.0017862
0.0013705 0.0011176 0.0018888 0.00065413 0.0024486 0.00027849 0.00030484 0.0034652
0.25496 -0.00037072 0.0039143 -0.002199
-0.00040905 -0.00050538 0.0010301 0.00045071 0.00053901 0.0017253 -0.0017433 0.0017439
0.0038622 -0.0022973 0.26619 0.024288
2000000000 0.13185 -0.18643 -0.0042919 0.00075624 0.0027632 0.0016092 -0.0025044 0.003694
0.0011912 0.00029697 -0.00063839 0.00067591
-0.0042795 0.00075283 0.24869 0.059086 -0.0010385 0.0060155 0.0015231 0.00041983
0.0014957 -0.0010615 0.00068059 0.00030882
0.0027915 0.0016047 -0.0010047 0.0060344 0.019359 -0.23252 -0.0012791 -0.0014723
0.0021386 -0.0011623 0.0018818 0.001269
-0.0024991 0.0037286 0.0015274 0.00044444 -0.0012508 -0.0014791 0.057829 -0.17736
-0.0012463 0.0036266 1.0903e-05 0.0021008
0.0011411 0.00027198 0.0014525 -0.0010372 0.0021754 -0.0011322 -0.00123 0.0036399
0.24973 -0.033547 0.00087638 -0.0032356
