!Keysight Technologies,M9804A,MY58100912,A.14.10.03
!Date: Thursday, April 27, 2023 10:28:33
!Correction: S11(C  6-Port  ) 
!S12(C  6-Port  ) 
!S13(C  6-Port  ) 
!S14(C  6-Port  ) 
!S15(C  6-Port  ) 
!S16(C  6-Port  ) 
!S21(C  6-Port  ) 
!S22(C  6-Port  ) 
!S23(C  6-Port  ) 
!S24(C  6-Port  ) 
!S25(C  6-Port  ) 
!S26(C  6-Port  ) 
!S31(C  6-Port  ) 
!S32(C  6-Port  ) 
!S33(C  6-Port  ) 
!S34(C  6-Port  ) 
!S35(C  6-Port  ) 
!S36(C  6-Port  ) 
!S41(C  6-Port  ) 
!S42(C  6-Port  ) 
!S43(C  6-Port  ) 
!S44(C  6-Port  ) 
!S45(C  6-Port  ) 
!S46(C  6-Port  ) 
!S51(C  6-Port  ) 
!S52(C  6-Port  ) 
!S53(C  6-Port  ) 
!S54(C  6-Port  ) 
!S55(C  6-Port  ) 
!S56(C  6-Port  ) 
!S61(C  6-Port  ) 
!S62(C  6-Port  ) 
!S63(C  6-Port  ) 
!S64(C  6-Port  ) 
!S65(C  6-Port  ) 
!S66(C  6-Port  ) 
!S6P File: Measurement: :
# Hz S  RI   R 50
500000000 -0.33419 -0.052649 -0.0104 -0.0014736 -0.0086629 0.013028 -0.0044138 0.012179
0.012995 0.0057862 -0.0041533 0.0084097
-0.010356 -0.0014375 -0.41755 -0.062034 0.0078559 -0.010281 0.0016672 0.01246
0.0075216 0.0028622 0.0012878 0.013891
-0.0086201 0.013101 0.0078324 -0.010366 -0.26682 0.20021 0.0066697 0.0037706
-0.0015201 0.0083289 0.00061437 0.012391
-0.0046187 0.012111 0.0014854 0.01242 0.0066598 0.0037674 -0.33143 0.044044
-0.018869 -0.0048002 0.017048 0.02562
0.01322 0.0059435 0.0077424 0.0028569 -0.0016577 0.0080183 -0.018928 -0.0047659
-0.24906 -0.19201 -0.027043 0.0040838
-0.0044389 0.0079878 0.00091222 0.013729 0.00025406 0.012271 0.016605 0.025964
-0.026445 0.0043666 -0.27162 -0.11826
560000000 -0.31784 0.11339 -0.023094 -0.06487 -0.00040521 0.013099 0.0053227 0.011111
0.010293 0.0036112 0.011282 0.0092947
-0.02307 -0.06486 -0.37658 0.1003 -0.042131 -0.038101 0.013463 0.0034733
-0.012129 -0.0039904 0.0023791 -0.0012978
-0.00012158 0.013236 -0.042034 -0.037946 -0.18517 0.25072 2.4537e-07 -0.0047697
0.018408 0.0046841 0.0084623 -0.0049401
0.0049341 0.0106 0.012889 0.0032602 -2.9461e-05 -0.0047978 -0.30722 0.13531
0.0057768 -0.02383 0.0039203 -0.021016
0.009394 0.0038544 -0.011996 -0.004724 0.018629 0.0048201 0.0056601 -0.024136
-0.31153 -0.012127 0.0085392 -0.04808
0.011217 0.0086223 0.0030961 -0.0015919 0.0084851 -0.0050896 0.0046307 -0.021295
0.0086049 -0.04825 -0.33367 0.027769
620000000 -0.27727 0.093888 -0.023218 0.0082827 0.0033891 0.0093509 0.007981 -0.0039615
0.01251 -0.0016762 0.00045205 -0.0019577
-0.023221 0.0082231 -0.40339 0.050209 -0.018744 0.00069765 -0.0016303 -0.0019472
0.012497 -0.0066204 0.00044432 -0.0026361
0.003448 0.0095847 -0.018718 0.00081587 -0.15577 0.26101 -0.0011564 -0.0046816
-0.0032756 -0.0033545 0.0096062 -0.0026167
0.0083019 -0.0038363 -0.0016337 -0.0019408 -0.0011666 -0.0047024 -0.26554 0.14627
-0.038253 -0.018968 0.013323 0.026344
0.0124 -0.0019963 0.012253 -0.0065998 -0.0032548 -0.003208 -0.038225 -0.019036
-0.23136 -0.046965 -0.040906 0.012509
0.00044493 -0.0011226 0.00071518 -0.0024381 0.0094236 -0.0025471 0.013745 0.026566
-0.042142 0.012707 -0.25068 -0.0025283
680000000 -0.23959 0.18427 -0.0266 -0.014325 0.0049678 0.005793 0.0012239 -0.0077291
-0.0023327 -0.011415 0.0047584 -0.0072671
-0.026522 -0.014402 -0.38959 0.15059 -0.032633 -0.001872 -0.0016688 -0.00067514
-0.0015833 -0.009481 -0.0013058 -0.0014075
0.005052 0.0057419 -0.032678 -0.001783 -0.10387 0.28089 -0.00070286 -0.00027126
-0.0017637 0.00042576 -0.0031924 -0.0086536
0.0010289 -0.0073757 -0.0018185 -0.00045122 -0.00077054 -0.00028118 -0.22095 0.19661
-0.023853 -0.0083543 -0.0095794 -0.011311
-0.0027944 -0.011382 -0.0014834 -0.0095589 -0.0015463 0.00033002 -0.023934 -0.0080235
-0.27874 0.057189 -0.0071282 -0.0072806
0.0043793 -0.0075329 -0.0013274 -0.0016918 -0.0031423 -0.0086434 -0.0094245 -0.010797
-0.0070604 -0.0077228 -0.26107 0.096992
740000000 -0.19329 0.17817 -0.039726 0.027023 0.013386 -0.0051972 -0.00073284 -0.0043657
-0.0040487 -0.0028232 -0.0068049 0.0033026
-0.03968 0.026968 -0.33535 0.16847 -0.036568 0.035224 -7.1989e-05 -0.006451
-0.011886 0.0078625 -0.001627 -0.0062937
0.013414 -0.0051102 -0.036394 0.035348 -0.07056 0.27866 -0.0016766 0.0034193
-0.0025702 -0.005539 -0.0013831 0.0011642
-0.00075853 -0.0043033 -0.00022012 -0.0064823 -0.0016883 0.0033532 -0.20389 0.20379
-0.042644 -0.0067402 0.022849 0.014679
-0.004093 -0.0029631 -0.011077 0.0078654 -0.0028512 -0.0054419 -0.042478 -0.006589
-0.18002 0.081086 -0.041884 0.0022724
-0.0069987 0.0030443 -0.0018812 -0.0066923 -0.0011126 0.00119 0.022725 0.014102
-0.041148 0.0020039 -0.24796 0.10375
800000000 -0.16146 0.22134 -0.022494 0.01651 0.0058936 -0.010621 -0.0045003 -0.0020972
-0.0044013 0.0024873 0.0045996 0.00025863
-0.022476 0.016369 -0.34098 0.23975 -0.008469 0.034316 -0.0021195 0.0020657
-0.0014218 0.0028562 0.0012436 0.005445
0.0058876 -0.010663 -0.0083354 0.034388 -0.031323 0.30246 0.00089452 0.0014277
-0.00016858 0.0036104 -0.0016925 0.00096744
-0.0044706 -0.002103 -0.0019938 0.0020265 0.00092094 0.0014088 -0.17418 0.23209
-0.02851 0.013479 0.014444 -0.010408
-0.0044666 0.0025655 -0.0016199 0.002987 -0.00024746 0.0036576 -0.028654 0.013637
-0.22142 0.11106 -0.017115 0.020536
0.00449 0.0003991 0.0012371 0.0054129 -0.0016047 0.0009578 0.01445 -0.010235
-0.017226 0.020499 -0.23795 0.15249
860000000 -0.12681 0.24142 -0.017788 0.030424 -0.0028091 -0.010544 -0.0018234 0.0006069
0.0040336 0.0050321 -0.003476 -0.0026995
-0.017721 0.030464 -0.29287 0.28245 0.0076039 0.034722 -0.00011699 0.0021996
0.0036303 0.00033133 0.0031806 0.00071822
-0.002864 -0.010565 0.0076531 0.034773 0.015967 0.31094 -0.00080567 -0.00014687
0.0023183 -0.0015447 0.0016191 0.0043927
-0.0018176 0.00064236 -8.6863e-05 0.0021421 -0.0008033 -0.00014687 -0.138 0.24309
-0.018389 0.018667 -0.005946 -0.0087316
0.0040135 0.0050022 0.0034537 0.00014198 0.0022635 -0.0014907 -0.018302 0.018467
-0.16561 0.16136 -0.024748 0.01756
-0.0035398 -0.0028345 0.0031929 0.00096715 0.0015851 0.0043568 -0.006192 -0.0088565
-0.024594 0.017772 -0.18987 0.19678
920000000 -0.10351 0.26435 0.0045083 0.038148 -0.0095795 -0.0052267 -0.0020199 0.001682
0.0012016 0.0018997 0.002722 -0.0013401
0.0044985 0.038096 -0.26582 0.30387 0.028219 0.022799 0.0013756 0.0011775
0.0077745 -0.00061963 0.0039824 -0.0027942
-0.0095762 -0.0052363 0.028304 0.022746 0.061638 0.31264 0.0018722 -2.7766e-05
0.0011031 -0.00015594 0.0010265 -0.0013257
-0.002018 0.0017097 0.0013628 0.0011801 0.0018655 -2.7098e-05 -0.1136 0.25989
-0.011014 0.031344 0.0035233 -0.0069449
0.0012664 0.0021794 0.0076075 -0.00048466 0.0011571 -0.00020114 -0.010951 0.031223
-0.15303 0.1691 -0.0014553 0.026808
0.002798 -0.0013536 0.0039035 -0.002823 0.001106 -0.0014053 0.0036006 -0.0069971
-0.001416 0.026651 -0.19508 0.21122
980000000 -0.056969 0.28468 0.016857 0.030288 -0.0096424 0.0042557 0.001856 0.0035985
0.0038524 -0.0015109 -0.0027115 -0.0023201
0.016812 0.030328 -0.21268 0.3386 0.033712 0.0053765 0.0019715 -9.9337e-05
0.001703 -0.0059558 -0.00011355 -0.0025896
-0.0096449 0.0042636 0.033747 0.0052849 0.10778 0.3069 0.00071343 -0.0010897
0.00037952 -0.001904 0.0016048 -0.00024099
0.0018585 0.0037022 0.0019976 -0.00015631 0.00072688 -0.0010838 -0.074939 0.27122
0.0074604 0.030742 -0.0088569 -0.0069027
0.0039518 -0.0015677 0.0016549 -0.0060722 0.00035897 -0.0019099 0.0075753 0.030672
-0.11926 0.19748 0.0055979 0.019999
-0.0028493 -0.0022524 -5.9962e-05 -0.0026371 0.0015743 -0.00023906 -0.0089391 -0.0071155
0.0056655 0.019927 -0.1525 0.2546
1040000000 -0.01552 0.29391 0.033112 0.019102 -0.0016482 0.0072076 0.0026667 0.00067331
0.00040955 -0.0035377 -0.00021342 -0.0015454
0.03306 0.019123 -0.17766 0.35245 0.030319 -0.014817 0.0016568 -0.0017648
-0.0021446 -0.0026717 -0.001104 -0.0029148
-0.0016221 0.0072108 0.030349 -0.014966 0.15377 0.29421 -0.0004517 -0.0017089
-0.0016002 -0.00095861 -0.0004756 -0.0010365
0.0026472 0.00070176 0.0017058 -0.0018688 -0.00044277 -0.0017079 -0.047472 0.28111
0.020339 0.018998 -0.0026656 0.0010902
0.00045994 -0.003442 -0.0020415 -0.002645 -0.0015389 -0.00088266 0.020306 0.019006
-0.085305 0.205 0.014418 0.01746
-0.00025001 -0.0017152 -0.0011016 -0.0028678 -0.00049533 -0.0010985 -0.002501 0.0011197
0.014368 0.017611 -0.13012 0.27466
1100000000 0.029456 0.3027 0.036742 -0.0036127 0.0028351 0.0043389 0.0023591 -0.0012228
-0.0021558 -0.003106 -0.004026 -5.6658e-06
0.036716 -0.0036168 -0.13425 0.37043 0.015921 -0.028296 9.3167e-06 -0.0018789
-0.0038058 -0.00096244 -0.0037074 -0.00062982
0.0028685 0.0043083 0.015819 -0.028406 0.20044 0.27467 -0.0019277 0.00010824
-0.0018247 0.00051081 -0.0010598 -0.00054807
0.0023453 -0.0011919 -1.2921e-05 -0.0018821 -0.0019489 0.00010944 -0.0066133 0.28617
0.025836 0.0051751 -0.0026052 0.00023014
-0.0021393 -0.0031651 -0.0038033 -0.00096409 -0.0018253 0.00049479 0.025816 0.0052089
-0.065239 0.21702 0.020048 0.0079073
-0.0040722 -8.7853e-05 -0.003794 -0.00054855 -0.0010024 -0.00051073 -0.0025091 0.00015268
0.020024 0.0079441 -0.083586 0.30245
1160000000 0.080378 0.29891 0.024765 -0.020951 0.0028575 -0.00036104 -0.00012889 -0.0023708
-0.0039506 -0.00086912 -0.0010685 0.0040683
0.02477 -0.02092 -0.090798 0.37533 -0.0035762 -0.03011 -0.0017163 -0.0016721
-0.0028375 0.0025109 -0.0015434 0.0021823
0.0029054 -0.00037175 -0.0036953 -0.030092 0.24384 0.24413 -0.00078328 0.0018436
-0.00070059 0.0019202 -0.00093123 0.00038074
-0.00014362 -0.0024243 -0.001716 -0.0016782 -0.00079698 0.0018564 0.032804 0.28324
0.021967 -0.011005 -0.0031862 0.0049409
-0.0039307 -0.00081963 -0.0028553 0.0025714 -0.00069903 0.0019488 0.021977 -0.011037
-0.031183 0.22475 0.018748 -0.0010655
-0.00084915 0.0040709 -0.0016313 0.0020622 -0.001002 0.0004258 -0.0033117 0.0048949
0.018755 -0.001101 -0.036563 0.30549
1220000000 0.12471 0.28904 0.011136 -0.030686 -0.001584 -0.00087776 2.0088e-05 -0.00086221
-0.0027042 0.0021064 0.0011623 0.0020604
0.011144 -0.030629 -0.046321 0.38857 -0.017366 -0.022026 -0.0026519 0.00054269
7.5219e-05 0.0031252 -0.00087777 0.0020521
-0.0015821 -0.00090188 -0.01747 -0.021962 0.283 0.20537 0.00079607 0.0017693
0.00062546 0.0012083 0.00020388 0.00054258
-6.4645e-06 -0.0008346 -0.0026605 0.00057474 0.00080724 0.0017799 0.073415 0.27461
0.01107 -0.01812 0.0020072 0.0015138
-0.0027278 0.0021454 0.00010621 0.0031112 0.00068029 0.001181 0.011041 -0.018146
-0.0070064 0.23329 0.013521 -0.013804
0.0011177 0.0020956 -0.00085156 0.0020474 0.00025037 0.00051058 0.0019785 0.0014725
0.013594 -0.01377 -0.0047767 0.32037
1280000000 0.17501 0.26862 -0.0080422 -0.029265 -0.0020117 0.002454 -0.00085868 -0.0021234
-0.00077938 0.0031795 0.0025137 0.0012818
-0.0079951 -0.029265 7.7516e-05 0.37991 -0.024584 -0.0088366 -0.00093292 0.0015529
0.0018462 0.0017299 0.00062418 0.0019971
-0.001999 0.0024801 -0.024683 -0.0087312 0.3134 0.16142 0.0016527 -5.8676e-05
0.0012847 0.00025763 0.00039507 0.00026556
-0.00086111 -0.0021107 -0.00091492 0.0015489 0.0016524 -4.7655e-05 0.11047 0.25768
0.00066422 -0.02043 -6.2536e-05 0.00031695
-0.00075389 0.0031803 0.0018924 0.0017416 0.0012984 0.00029433 0.00062139 -0.020452
0.030061 0.23603 0.0026138 -0.016064
0.0025844 0.0012061 0.00064341 0.0020136 0.0003474 0.00018735 -0.00012947 0.00026118
0.0025303 -0.01598 0.042079 0.32114
1340000000 0.21258 0.23574 -0.018132 -0.019305 0.00075232 0.0047793 -0.0018396 -0.00084392
0.0013686 0.0027526 0.0018282 -0.001335
-0.018098 -0.019284 0.039757 0.37199 -0.022224 0.004462 -6.5617e-05 0.0019857
0.0020422 0.00070926 0.0012941 0.00068965
0.00075392 0.0047616 -0.022237 0.0045803 0.33512 0.11443 0.0011481 -0.0009565
0.00071694 -0.00052827 0.00016203 0.00027093
-0.0018493 -0.00081502 -3.8476e-05 0.0020063 0.001136 -0.00096705 0.14335 0.23653
-0.0092327 -0.017378 0.0006796 0.00046137
0.0014144 0.0027457 0.0020631 0.00071743 0.0007271 -0.00052689 -0.0092532 -0.017405
0.060798 0.23109 -0.0045836 -0.014392
0.0017935 -0.001428 0.0013077 0.00072951 0.00014271 0.00027074 0.00067597 0.00052001
-0.0046162 -0.01445 0.080373 0.31528
1400000000 0.24665 0.19822 -0.024063 -0.007455 0.0054033 0.003405 -0.0022138 0.0005475
0.0024432 0.00097944 0.00025314 -0.0015862
-0.024045 -0.0074603 0.077424 0.35896 -0.015303 0.012959 0.0014118 0.0012431
0.00126 -0.00090373 0.0011635 7.7715e-05
0.0054008 0.0033993 -0.015268 0.013067 0.34832 0.061589 -1.4727e-06 -0.00167
5.4331e-05 -0.00044892 0.00031177 0.0002218
-0.0022447 0.00056141 0.0014132 0.001235 4.2013e-06 -0.0016543 0.1727 0.20723
-0.015598 -0.0099474 -0.00069772 -5.9213e-05
0.002457 0.0010016 0.0012781 -0.00089235 4.1034e-05 -0.00044265 -0.01562 -0.0099582
0.094242 0.22587 -0.010907 -0.0085547
0.00034429 -0.0016855 0.0012061 6.6615e-05 0.00030877 0.00025419 -0.00077001 -3.7689e-05
-0.010833 -0.008609 0.12495 0.30378
1460000000 0.26987 0.15419 -0.020708 0.0052 0.0059753 -0.0017242 -0.0016468 0.0018153
0.0022161 -0.00047729 -0.00030161 -0.00098516
-0.0207 0.0051844 0.11153 0.33695 -0.006057 0.016022 0.0016492 0.00010643
0.00083848 -0.0014006 0.0012087 -0.00065737
0.0059683 -0.001748 -0.0059951 0.016066 0.35476 0.008018 -0.0013064 -0.0013031
3.8643e-05 -0.00027614 0.00073266 -0.00021452
-0.0016264 0.0018269 0.001637 0.00010369 -0.0012925 -0.0012787 0.19868 0.17752
-0.016775 -0.0027005 -0.00074387 0.0021747
0.0022277 -0.00047621 0.00081256 -0.0014203 8.9265e-05 -0.00031964 -0.01673 -0.0027247
0.12356 0.21075 -0.012696 -0.0026063
-0.00038 -0.0010372 0.0011047 -0.00069192 0.00065037 -0.0002598 -0.00070881 0.0021283
-0.012698 -0.0025892 0.15742 0.28273
1520000000 0.28238 0.11279 -0.014857 0.010815 0.0035429 -0.004378 0.00015289 0.0026018
0.0021996 -0.0020593 -0.0011982 -5.5426e-05
-0.014848 0.010795 0.14489 0.32263 0.0018847 0.013533 0.0016541 -0.00077276
3.3522e-05 -0.0010858 0.00027083 -0.0010385
0.0035315 -0.0044216 0.0019546 0.013554 0.34853 -0.047441 -0.0010676 -0.00030188
0.0006151 -0.00082111 3.2529e-05 -0.00020906
0.00017753 0.0025861 0.0016407 -0.00078524 -0.0010778 -0.00031117 0.22154 0.13929
-0.015574 0.0036706 0.0017276 0.002132
0.0021942 -0.0020781 1.9662e-05 -0.00108 0.00065198 -0.00083468 -0.015595 0.0036667
0.15167 0.197 -0.01215 0.0025105
-0.0011735 -9.9225e-05 0.00031078 -0.0010586 0.00010822 -0.00024043 0.0017329 0.0021262
-0.012075 0.0024544 0.19002 0.26175
1580000000 0.29213 0.066576 -0.0077849 0.01388 -0.00089709 -0.0052856 0.0015048 0.0018904
-0.00019785 -0.0022291 -0.00014968 0.00045024
-0.0077811 0.013879 0.17203 0.29792 0.0057204 0.008359 0.00052099 -0.0015606
-0.00058537 -0.00093098 -0.00019248 -0.00084565
-0.00090951 -0.0052818 0.0057716 0.0083473 0.32939 -0.10479 -0.0016413 0.00064053
-0.0003539 -0.00115 0.00033387 -0.00053609
0.0015107 0.0018964 0.00051299 -0.0015512 -0.0016247 0.00063008 0.23482 0.099776
-0.011452 0.0085286 0.0022715 0.00070478
-0.00022506 -0.002301 -0.00061187 -0.00093446 -0.00034898 -0.0011827 -0.011446 0.008563
0.17593 0.17831 -0.0095092 0.0079161
-0.00023412 0.0005028 -0.00023508 -0.00082512 0.00022834 -0.00056399 0.0023581 0.00072212
-0.0095061 0.0080009 0.22112 0.23512
1640000000 0.2944 0.025861 -0.00085725 0.012461 -0.0029684 -0.0028767 0.0027223 0.0010238
-0.00084583 -0.0015745 -0.00028269 0.00065157
-0.0008624 0.012447 0.20136 0.2736 0.0063533 0.0032449 -0.000656 -0.0018025
-0.00098345 -0.00032665 -0.00054863 -0.00060519
-0.0030139 -0.0028634 0.0063766 0.0032117 0.30167 -0.15377 -0.00064742 0.001455
-0.0010867 -0.00093424 -0.00031839 -0.00037981
0.002727 0.00097614 -0.00065674 -0.0017843 -0.00066242 0.0014423 0.24653 0.051507
-0.0067281 0.0095887 0.0025265 -0.00089434
-0.00081424 -0.0015757 -0.0010005 -0.00032268 -0.001098 -0.00095707 -0.0067321 0.0095955
0.19858 0.15422 -0.0042404 0.010011
-0.00022686 0.00062261 -0.00056373 -0.0006391 -0.00023545 -0.00046259 0.0025587 -0.00089836
-0.004201 0.009952 0.24665 0.20386
1700000000 0.2876 -0.01925 0.0025132 0.0092545 -0.0037992 -4.9706e-05 0.0031965 -0.0012839
-0.0020368 -0.00061682 0.00064034 0.00034713
0.0024911 0.0092252 0.21966 0.24264 0.0040829 0.00023509 -0.0014747 -0.00061091
-0.00072442 3.614e-05 -0.00084729 -0.00042926
-0.0037914 -3.7275e-05 0.0040802 0.00020722 0.25902 -0.1943 0.00037831 0.0016115
-0.0019399 -3.1316e-05 -0.00053236 -0.00094133
0.003189 -0.0013088 -0.0014829 -0.00059763 0.00037108 0.0015742 0.24341 0.002248
-0.0037843 0.009792 0.0016229 -0.002377
-0.0020425 -0.00056844 -0.00072012 4.4195e-05 -0.0019293 -9.7637e-05 -0.0037806 0.0098254
0.21564 0.13352 0.00051833 0.0099638
0.00060796 0.00031408 -0.00085792 -0.00042119 -0.00050947 -0.00097477 0.0016719 -0.0023208
0.00051427 0.0099917 0.26282 0.16977
1760000000 0.27599 -0.067631 0.0045992 0.005809 -0.0024763 0.0011341 0.0013013 -0.0034706
-0.0014537 0.00074426 0.00024653 -0.00052044
0.0045984 0.0058143 0.24571 0.20336 0.0015523 -0.0015585 -0.0012031 0.00015916
-0.0010197 0.00087349 -0.00061055 0.00037187
-0.002452 0.0011541 0.001556 -0.0015749 0.21031 -0.22766 0.0011014 0.0010272
-0.001281 0.0014523 -0.0012968 -0.00069011
0.0012812 -0.00351 -0.0011809 0.0001555 0.0011072 0.0010266 0.2343 -0.048283
-0.00070282 0.0085434 -0.00018722 -0.0025515
-0.0014158 0.00077601 -0.00098982 0.00088696 -0.0012316 0.0014725 -0.0006977 0.0085888
0.23009 0.098742 0.0044278 0.0071129
0.00030519 -0.00057646 -0.00057426 0.00038915 -0.0012924 -0.00064136 -0.00018349 -0.0026141
0.0044605 0.0070875 0.27536 0.13188
1820000000 0.2521 -0.10474 0.0044597 0.0022179 -0.00029608 0.0025084 -0.0010469 -0.0031034
-0.0010634 0.0010667 -0.00017427 -6.3562e-05
0.0044498 0.0022219 0.25634 0.17382 -0.00078298 -0.00038649 -0.0013504 0.00096285
-0.0001229 0.0011811 -0.00064111 0.00045979
-0.00025078 0.0024678 -0.00077138 -0.00040906 0.16026 -0.24382 0.0014761 0.00055445
-0.00030894 0.0023127 -0.0015442 0.0003533
-0.0010353 -0.0030664 -0.0013324 0.00096602 0.0014385 0.00053039 0.20499 -0.095183
0.00058881 0.007096 -0.0017747 -0.0015402
-0.0010547 0.0011248 -9.1514e-05 0.0011749 -0.00023074 0.0022963 0.00062077 0.0070635
0.24702 0.070172 0.0052297 0.0034566
-0.00018054 -4.834e-05 -0.00063102 0.00049896 -0.0015234 0.00040023 -0.0017666 -0.0015535
0.0051791 0.0034258 0.27731 0.095673
1880000000 0.21748 -0.1454 0.0021581 4.1234e-05 -0.00052641 0.0020913 -0.0029406 -0.0022658
-0.00010244 0.0017945 0.00023393 -0.00055088
0.0021432 5.5986e-05 0.26137 0.12738 -0.0026339 0.0015041 -0.00022965 0.0017011
0.0005408 0.0013012 0.00011323 0.00094451
-0.00056277 0.0021475 -0.002658 0.0015299 0.10859 -0.25358 0.0017681 -0.0010249
0.0015699 0.001985 -0.0010869 0.001471
-0.0029479 -0.00223 -0.00021463 0.0017099 0.0018012 -0.001008 0.16521 -0.13563
0.0013863 0.005127 -0.0025022 0.00038965
-6.2851e-05 0.0018195 0.0005351 0.0013099 0.0015701 0.0019995 0.0013689 0.005136
0.25066 0.03873 0.0051823 0.0009799
0.00019473 -0.00047307 6.8077e-05 0.00097393 -0.0010599 0.001461 -0.0024283 0.00032688
0.0052205 0.0010014 0.2773 0.061188
1940000000 0.17835 -0.17134 -0.00023915 -0.0014198 0.0014516 0.002353 -0.0036973 0.00050133
0.0014944 0.0011302 -0.0003619 -0.00045712
-0.00024691 -0.001433 0.26248 0.095768 -0.001485 0.0041577 0.0010945 0.001344
0.0018489 0.00061531 0.00097735 0.00050574
0.0014221 0.0023259 -0.0014653 0.0041612 0.062156 -0.24628 0.00053868 -0.0022811
0.0023823 0.00033258 0.0003821 0.0016708
-0.003696 0.00051292 0.0010782 0.0013371 0.00055794 -0.0022799 0.11323 -0.16629
0.00062608 0.0039956 -0.0016045 0.0017523
0.001471 0.0010423 0.0018337 0.0005597 0.0024218 0.00034787 0.00064976 0.0039997
0.25342 0.0010058 0.0036655 -0.0021609
-0.00040662 -0.00059988 0.00098467 0.00040989 0.00044465 0.0016607 -0.0016013 0.0017807
0.0036122 -0.0022477 0.26581 0.025173
2000000000 0.13271 -0.18653 -0.0039476 0.00068356 0.0027295 0.0015975 -0.0022516 0.0038794
0.0012237 0.00032552 -0.00056423 0.00046783
-0.0039612 0.00062428 0.24905 0.05997 -0.00092502 0.0058478 0.0015745 0.0004458
0.0014225 -0.0010945 0.00063899 0.00016292
0.0027461 0.001578 -0.00090535 0.0058658 0.01935 -0.23274 -0.0013024 -0.0014334
0.0021338 -0.0012185 0.0017776 0.0014791
-0.0022319 0.0038116 0.0015686 0.00036743 -0.0012935 -0.0014729 0.060488 -0.17697
-0.00062992 0.003829 -0.00012104 0.0024211
0.0013047 0.00033735 0.0014489 -0.0011005 0.0021626 -0.0012309 -0.00058572 0.003794
0.24891 -0.031988 0.00050956 -0.0032234
